 v-sweep         v(b0)           v(b1)           v(b2)           v(b3)           v(b4)           v(b5)           v(b6)           i(vbias)        i(viout)        v(vout)        
 0.00000000e+00 -2.58375166e-22 -2.58375166e-22 -2.58375166e-22 -2.58375166e-22 -2.58375166e-22 -2.58375166e-22  4.35838996e-21 -3.10677050e-32 -2.61803324e-03  1.00000000e+00 
 1.00000000e-02  2.62366038e-03  2.62366038e-03  2.62366038e-03  2.62366038e-03  2.62366038e-03  2.62366038e-03  1.83984345e-03  8.06501989e-15 -2.28605871e-03  1.00000000e+00 
 2.00000000e-02  5.28219909e-03  5.28219909e-03  5.28219909e-03  5.28219909e-03  5.28219909e-03  5.28219909e-03  3.18299705e-03  1.60526434e-14 -1.97661360e-03  1.00000000e+00 
 3.00000000e-02  7.96979087e-03  7.96979087e-03  7.96979086e-03  7.96979087e-03  7.96979087e-03  7.96979087e-03  4.02920715e-03  2.39849322e-14 -1.69113195e-03  1.00000000e+00 
 4.00000000e-02  1.07223052e-02  1.07223052e-02  1.07223051e-02  1.07223051e-02  1.07223052e-02  1.07223051e-02  4.44702260e-03  3.18850988e-14 -1.43103754e-03  1.00000000e+00 
 5.00000000e-02  1.35185367e-02  1.35185367e-02  1.35185367e-02  1.35185367e-02  1.35185367e-02  1.35185367e-02  4.51097300e-03  3.97583011e-14 -1.19722647e-03  1.00000000e+00 
 6.00000000e-02  1.63707556e-02  1.63707556e-02  1.63707556e-02  1.63707556e-02  1.63707556e-02  1.63707556e-02  4.32006858e-03  4.75972472e-14 -9.90142896e-04  1.00000000e+00 
 7.00000000e-02  1.92873986e-02  1.92873986e-02  1.92873986e-02  1.92873986e-02  1.92873986e-02  1.92873986e-02  3.96519618e-03  5.54767922e-14 -8.09677100e-04  1.00000000e+00 
 8.00000000e-02  2.23133911e-02  2.23133911e-02  2.23133911e-02  2.23133911e-02  2.23133911e-02  2.23133911e-02  3.52650307e-03  6.33049576e-14 -6.54881338e-04  1.00000000e+00 
 9.00000000e-02  2.53927679e-02  2.53927679e-02  2.53927679e-02  2.53927679e-02  2.53927679e-02  2.53927679e-02  3.05882100e-03  7.11386234e-14 -5.24410409e-04  1.00000000e+00 
 1.00000000e-01  2.85670140e-02  2.85670140e-02  2.85670140e-02  2.85670140e-02  2.85670140e-02  2.85670140e-02  2.60295669e-03  7.90053872e-14 -4.16182718e-04  1.00000000e+00 
 1.10000000e-01  3.18175805e-02  3.18175805e-02  3.18175805e-02  3.18175805e-02  3.18175805e-02  3.18175805e-02  2.18177412e-03  8.68502485e-14 -3.27781494e-04  1.00000000e+00 
 1.20000000e-01  3.51261272e-02  3.51261272e-02  3.51261272e-02  3.51261272e-02  3.51261272e-02  3.51261272e-02  1.80657144e-03  9.47035913e-14 -2.56536862e-04  1.00000000e+00 
 1.30000000e-01  3.84861211e-02  3.84861211e-02  3.84861211e-02  3.84861211e-02  3.84861211e-02  3.84861211e-02  1.48179269e-03  1.02556871e-13 -1.99840649e-04  1.00000000e+00 
 1.40000000e-01  4.19147228e-02  4.19147228e-02  4.19147228e-02  4.19147228e-02  4.19147228e-02  4.19147228e-02  1.20615040e-03  1.10460119e-13 -1.55156064e-04  1.00000000e+00 
 1.50000000e-01  4.53191743e-02  4.53191743e-02  4.53191743e-02  4.53191743e-02  4.53191743e-02  4.53191743e-02  9.75642449e-04  1.18348276e-13 -1.20244349e-04  1.00000000e+00 
 1.60000000e-01  4.88320440e-02  4.88320440e-02  4.88320440e-02  4.88320440e-02  4.88320440e-02  4.88320440e-02  7.85353572e-04  1.26237570e-13 -9.31350978e-05  1.00000000e+00 
 1.70000000e-01  5.22204483e-02  5.22204483e-02  5.22204482e-02  5.22204482e-02  5.22204483e-02  5.22204482e-02  6.29478762e-04  1.34229841e-13 -7.21821373e-05  1.00000000e+00 
 1.80000000e-01  5.56751327e-02  5.56751327e-02  5.56751327e-02  5.56751327e-02  5.56751327e-02  5.56751327e-02  5.02906025e-04  1.42115234e-13 -5.60335558e-05  1.00000000e+00 
 1.90000000e-01  5.90599988e-02  5.90599988e-02  5.90599988e-02  5.90599988e-02  5.90599988e-02  5.90599988e-02  4.00625715e-04  1.50121529e-13 -4.36057976e-05  1.00000000e+00 
 2.00000000e-01  6.23892733e-02  6.23892733e-02  6.23892732e-02  6.23892732e-02  6.23892733e-02  6.23892733e-02  3.18383352e-04  1.58117579e-13 -3.40406757e-05  1.00000000e+00 
 2.10000000e-01  6.56833634e-02  6.56833634e-02  6.56833633e-02  6.56833633e-02  6.56833633e-02  6.56833633e-02  2.52528082e-04  1.66152143e-13 -2.66631228e-05  1.00000000e+00 
 2.20000000e-01  6.88913300e-02  6.88913300e-02  6.88913300e-02  6.88913300e-02  6.88913300e-02  6.88913300e-02  1.99949301e-04  1.74347514e-13 -2.09645313e-05  1.00000000e+00 
 2.30000000e-01  7.20006933e-02  7.20006933e-02  7.20006933e-02  7.20006933e-02  7.20006933e-02  7.20006933e-02  1.58086182e-04  1.82539282e-13 -1.65430744e-05  1.00000000e+00 
 2.40000000e-01  7.50937977e-02  7.50937977e-02  7.50937977e-02  7.50937977e-02  7.50937977e-02  7.50937977e-02  1.24832967e-04  1.90756753e-13 -1.30980414e-05  1.00000000e+00 
 2.50000000e-01  7.80373885e-02  7.80373885e-02  7.80373885e-02  7.80373885e-02  7.80373885e-02  7.80373885e-02  9.84651091e-05  1.99171628e-13 -1.04007131e-05  1.00000000e+00 
 2.60000000e-01  8.09205094e-02  8.09205094e-02  8.09205093e-02  8.09205094e-02  8.09205094e-02  8.09205094e-02  7.75970276e-05  2.07878808e-13 -8.28348643e-06  1.00000000e+00 
 2.70000000e-01  8.37618930e-02  8.37618930e-02  8.37618929e-02  8.37618930e-02  8.37618930e-02  8.37618930e-02  6.11053723e-05  2.16693197e-13 -6.61095276e-06  1.00000000e+00 
 2.80000000e-01  8.64798417e-02  8.64798417e-02  8.64798417e-02  8.64798417e-02  8.64798417e-02  8.64798417e-02  4.80872886e-05  2.25928333e-13 -5.28498940e-06  1.00000000e+00 
 2.90000000e-01  8.90351801e-02  8.90351801e-02  8.90351801e-02  8.90351801e-02  8.90351801e-02  8.90351801e-02  3.78227270e-05  2.35672842e-13 -4.22995341e-06  1.00000000e+00 
 3.00000000e-01  9.16645772e-02  9.16645772e-02  9.16645771e-02  9.16645772e-02  9.16645772e-02  9.16645772e-02  2.97391515e-05  2.46029808e-13 -3.38808493e-06  1.00000000e+00 
 3.10000000e-01  5.55948414e-02  5.55948414e-02  5.55948413e-02  5.55948413e-02  5.55948414e-02  5.55948413e-02  2.30741262e-05  2.37802762e-13 -3.06204133e-06  1.00000000e+00 
 3.20000000e-01  5.75843128e-02  5.75843128e-02  5.75843128e-02  5.75843128e-02  5.75843128e-02  5.75843128e-02  1.81561953e-05  2.48185953e-13 -2.45223766e-06  1.00000000e+00 
 3.30000000e-01  5.94704541e-02  5.94704541e-02  5.94704541e-02  5.94704541e-02  5.94704541e-02  5.94704541e-02  1.42839941e-05  2.59719509e-13 -1.95659674e-06  1.00000000e+00 
 3.40000000e-01  6.14251741e-02  6.14251741e-02  6.14251741e-02  6.14251741e-02  6.14251741e-02  6.14251741e-02  1.12386013e-05  2.72792635e-13 -1.55449737e-06  1.00000000e+00 
 3.50000000e-01  6.33581331e-02  6.33581331e-02  6.33581331e-02  6.33581331e-02  6.33581331e-02  6.33581331e-02  8.84425399e-06  2.87812802e-13 -1.22920061e-06  1.00000000e+00 
 3.60000000e-01  6.53320285e-02  6.53320285e-02  6.53320284e-02  6.53320284e-02  6.53320285e-02  6.53320285e-02  6.96274471e-06  3.05834525e-13 -9.67118936e-07  1.00000000e+00 
 3.70000000e-01  6.73048995e-02  6.73048995e-02  6.73048994e-02  6.73048995e-02  6.73048995e-02  6.73048995e-02  5.48454715e-06  3.27602413e-13 -7.57151707e-07  1.00000000e+00 
 3.80000000e-01  6.93086455e-02  6.93086455e-02  6.93086455e-02  6.93086455e-02  6.93086455e-02  6.93086455e-02  4.32343102e-06  3.54825955e-13 -5.89878564e-07  1.00000000e+00 
 3.90000000e-01  7.13610664e-02  7.13610664e-02  7.13610664e-02  7.13610664e-02  7.13610664e-02  7.13610664e-02  3.41139863e-06  3.89381299e-13 -4.57409030e-07  1.00000000e+00 
 4.00000000e-01  7.35091241e-02  7.35091241e-02  7.35091241e-02  7.35091241e-02  7.35091241e-02  7.35091241e-02  2.69494475e-06  4.34242212e-13 -3.53162324e-07  1.00000000e+00 
 4.10000000e-01  7.57902294e-02  7.57902294e-02  7.57902294e-02  7.57902294e-02  7.57902294e-02  7.57902294e-02  2.13197142e-06  4.93403137e-13 -2.71579935e-07  1.00000000e+00 
 4.20000000e-01  7.81556260e-02  7.81556260e-02  7.81556260e-02  7.81556260e-02  7.81556260e-02  7.81556260e-02  1.68937108e-06  5.72146078e-13 -2.08089546e-07  1.00000000e+00 
 4.30000000e-01  8.07574727e-02  8.07574727e-02  8.07574726e-02  8.07574727e-02  8.07574727e-02  8.07574727e-02  1.34123320e-06  6.78471807e-13 -1.58918873e-07  1.00000000e+00 
 4.40000000e-01  8.36304931e-02  8.36304931e-02  8.36304931e-02  8.36304931e-02  8.36304931e-02  8.36304931e-02  1.06717408e-06  8.23851337e-13 -1.21019145e-07  1.00000000e+00 
 4.50000000e-01  8.69429026e-02  8.69429026e-02  8.69429026e-02  8.69429026e-02  8.69429026e-02  8.69429026e-02  8.51233844e-07  1.02559164e-12 -9.19335363e-08  1.00000000e+00 
 4.60000000e-01  9.07637263e-02  9.07637264e-02  9.07637263e-02  9.07637263e-02  9.07637263e-02  9.07637263e-02  6.80880038e-07  1.30724348e-12 -6.96991407e-08  1.00000000e+00 
 4.70000000e-01  9.52812992e-02  9.52812992e-02  9.52812992e-02  9.52812992e-02  9.52812992e-02  9.52812992e-02  5.46306448e-07  1.70528082e-12 -5.27588320e-08  1.00000000e+00 
 4.80000000e-01  1.00812928e-01  1.00812928e-01  1.00812928e-01  1.00812928e-01  1.00812928e-01  1.00812928e-01  4.39833674e-07  2.27387942e-12 -3.98882527e-08  1.00000000e+00 
 4.90000000e-01  1.07483280e-01  1.07483280e-01  1.07483280e-01  1.07483280e-01  1.07483280e-01  1.07483280e-01  3.55432988e-07  3.08984490e-12 -3.01299359e-08  1.00000000e+00 
 5.00000000e-01  1.15705138e-01  1.15705138e-01  1.15705138e-01  1.15705138e-01  1.15705138e-01  1.15705138e-01  2.88394875e-07  4.26933136e-12 -2.27426398e-08  1.00000000e+00 
 5.10000000e-01  1.25604295e-01  1.25604295e-01  1.25604295e-01  1.25604295e-01  1.25604295e-01  1.25604295e-01  2.35020370e-07  5.98183791e-12 -1.71565375e-08  1.00000000e+00 
 5.20000000e-01  1.37090149e-01  1.37090149e-01  1.37090149e-01  1.37090149e-01  1.37090149e-01  1.37090149e-01  1.92414995e-07  8.44478448e-12 -1.29374484e-08  1.00000000e+00 
 5.30000000e-01  1.49803245e-01  1.49803245e-01  1.49803245e-01  1.49803245e-01  1.49803245e-01  1.49803245e-01  1.58310497e-07  1.19435851e-11 -9.75344605e-09  1.00000000e+00 
 5.40000000e-01  1.63066140e-01  1.63066140e-01  1.63066140e-01  1.63066140e-01  1.63066140e-01  1.63066140e-01  1.30929408e-07  1.68011597e-11 -7.35260741e-09  1.00000000e+00 
 5.50000000e-01  1.76422709e-01  1.76422709e-01  1.76422709e-01  1.76422709e-01  1.76422709e-01  1.76422709e-01  1.08879520e-07  2.34518622e-11 -5.54329915e-09  1.00000000e+00 
 5.60000000e-01  1.89491411e-01  1.89491411e-01  1.89491411e-01  1.89491411e-01  1.89491411e-01  1.89491411e-01  9.10664004e-08  3.24363306e-11 -4.18050305e-09  1.00000000e+00 
 5.70000000e-01  2.02097116e-01  2.02097116e-01  2.02097116e-01  2.02097116e-01  2.02097116e-01  2.02097116e-01  7.66283889e-08  4.44538922e-11 -3.15449356e-09  1.00000000e+00 
 5.80000000e-01  2.14242508e-01  2.14242508e-01  2.14242507e-01  2.14242507e-01  2.14242508e-01  2.14242508e-01  6.48855915e-08  6.04318927e-11 -2.38223308e-09  1.00000000e+00 
 5.90000000e-01  2.25917602e-01  2.25917602e-01  2.25917602e-01  2.25917602e-01  2.25917602e-01  2.25917602e-01  5.53001463e-08  8.15381274e-11 -1.80127202e-09  1.00000000e+00 
 6.00000000e-01  2.37186839e-01  2.37186839e-01  2.37186839e-01  2.37186839e-01  2.37186839e-01  2.37186839e-01  4.74459823e-08  1.09251180e-10 -1.36452627e-09  1.00000000e+00 
 6.10000000e-01  2.48066421e-01  2.48066421e-01  2.48066421e-01  2.48066421e-01  2.48066421e-01  2.48066421e-01  4.09847518e-08  1.45404395e-10 -1.03649711e-09  1.00000000e+00 
 6.20000000e-01  2.58599373e-01  2.58599373e-01  2.58599373e-01  2.58599373e-01  2.58599374e-01  2.58599373e-01  3.56473371e-08  1.92262737e-10 -7.90585375e-10  1.00000000e+00 
 6.30000000e-01  2.68811612e-01  2.68811612e-01  2.68811612e-01  2.68811612e-01  2.68811612e-01  2.68811612e-01  3.12191947e-08  2.52582164e-10 -6.06778627e-10  1.00000000e+00 
 6.40000000e-01  2.78724169e-01  2.78724169e-01  2.78724168e-01  2.78724169e-01  2.78724169e-01  2.78724169e-01  2.75289443e-08  3.29679605e-10 -4.70102179e-10  1.00000000e+00 
 6.50000000e-01  2.88352776e-01  2.88352776e-01  2.88352776e-01  2.88352776e-01  2.88352776e-01  2.88352776e-01  2.44393942e-08  4.27513012e-10 -3.69361430e-10  1.00000000e+00 
 6.60000000e-01  2.97709778e-01  2.97709778e-01  2.97709778e-01  2.97709778e-01  2.97709778e-01  2.97709778e-01  2.18404835e-08  5.50756473e-10 -2.96196845e-10  1.00000000e+00 
 6.70000000e-01  3.06807397e-01  3.06807397e-01  3.06807397e-01  3.06807397e-01  3.06807397e-01  3.06807397e-01  1.96437176e-08  7.04882173e-10 -2.44483545e-10  1.00000000e+00 
 6.80000000e-01  3.15652492e-01  3.15652492e-01  3.15652492e-01  3.15652492e-01  3.15652492e-01  3.15652492e-01  1.77777693e-08  8.96247634e-10 -2.09634976e-10  1.00000000e+00 
 6.90000000e-01  3.24257732e-01  3.24257732e-01  3.24257732e-01  3.24257732e-01  3.24257732e-01  3.24257732e-01  1.61850048e-08  1.13223887e-09 -1.88432381e-10  1.00000000e+00 
 7.00000000e-01  3.32634620e-01  3.32634620e-01  3.32634620e-01  3.32634620e-01  3.32634620e-01  3.32634620e-01  1.48187239e-08  1.42137560e-09 -1.78555837e-10  1.00000000e+00 
 7.10000000e-01  3.40792245e-01  3.40792245e-01  3.40792245e-01  3.40792245e-01  3.40792245e-01  3.40792245e-01  1.36409737e-08  1.77348625e-09 -1.78470572e-10  1.00000000e+00 
 7.20000000e-01  3.48744961e-01  3.48744961e-01  3.48744960e-01  3.48744961e-01  3.48744961e-01  3.48744961e-01  1.26208151e-08  2.19994993e-09 -1.87249327e-10  1.00000000e+00 
 7.30000000e-01  3.56507690e-01  3.56507690e-01  3.56507690e-01  3.56507690e-01  3.56507690e-01  3.56507690e-01  1.17329418e-08  2.71394713e-09 -2.04362749e-10  1.00000000e+00 
 7.40000000e-01  3.64095440e-01  3.64095440e-01  3.64095440e-01  3.64095440e-01  3.64095440e-01  3.64095440e-01  1.09565829e-08  3.33081335e-09 -2.29693597e-10  1.00000000e+00 
 7.50000000e-01  3.71524285e-01  3.71524285e-01  3.71524285e-01  3.71524285e-01  3.71524285e-01  3.71524285e-01  1.02746291e-08  4.06846436e-09 -2.63373323e-10  1.00000000e+00 
 7.60000000e-01  3.78811771e-01  3.78811771e-01  3.78811771e-01  3.78811771e-01  3.78811771e-01  3.78811771e-01  9.67293532e-09  4.94790145e-09 -3.05622194e-10  1.00000000e+00 
 7.70000000e-01  3.85974463e-01  3.85974463e-01  3.85974463e-01  3.85974463e-01  3.85974463e-01  3.85974463e-01  9.13976289e-09  5.99385180e-09 -3.56383367e-10  1.00000000e+00 
 7.80000000e-01  3.93030416e-01  3.93030416e-01  3.93030416e-01  3.93030416e-01  3.93030416e-01  3.93030416e-01  8.66533367e-09  7.23551576e-09 -4.14036805e-10  1.00000000e+00 
 7.90000000e-01  3.99996264e-01  3.99996264e-01  3.99996264e-01  3.99996264e-01  3.99996264e-01  3.99996264e-01  8.24147137e-09  8.70746021e-09 -4.72677897e-10  1.00000000e+00 
 8.00000000e-01  4.06888615e-01  4.06888615e-01  4.06888615e-01  4.06888615e-01  4.06888615e-01  4.06888615e-01  7.86131311e-09  1.04507388e-08 -5.20174126e-10  1.00000000e+00 
 8.10000000e-01  4.13723239e-01  4.13723239e-01  4.13723239e-01  4.13723239e-01  4.13723239e-01  4.13723239e-01  7.51907695e-09  1.25141337e-08 -5.43881384e-10  1.00000000e+00 
 8.20000000e-01  4.20515407e-01  4.20515407e-01  4.20515407e-01  4.20515407e-01  4.20515407e-01  4.20515407e-01  7.20987315e-09  1.49557244e-08 -5.39341016e-10  1.00000000e+00 
 8.30000000e-01  4.27279298e-01  4.27279298e-01  4.27279298e-01  4.27279298e-01  4.27279298e-01  4.27279298e-01  6.92955130e-09  1.78447276e-08 -5.10635090e-10  1.00000000e+00 
 8.40000000e-01  4.34028057e-01  4.34028057e-01  4.34028057e-01  4.34028057e-01  4.34028057e-01  4.34028057e-01  6.67457568e-09  2.12635839e-08 -4.67352379e-10  1.00000000e+00 
 8.50000000e-01  4.40773710e-01  4.40773710e-01  4.40773710e-01  4.40773710e-01  4.40773710e-01  4.40773710e-01  6.44192356e-09  2.53104707e-08 -4.16950030e-10  1.00000000e+00 
 8.60000000e-01  4.47526747e-01  4.47526747e-01  4.47526747e-01  4.47526747e-01  4.47526747e-01  4.47526747e-01  6.22900143e-09  3.01021265e-08 -3.65041330e-10  1.00000000e+00 
 8.70000000e-01  4.54296261e-01  4.54296261e-01  4.54296261e-01  4.54296261e-01  4.54296261e-01  4.54296261e-01  6.03357665e-09  3.57769622e-08 -3.15189652e-10  1.00000000e+00 
 8.80000000e-01  4.61089308e-01  4.61089308e-01  4.61089308e-01  4.61089308e-01  4.61089308e-01  4.61089308e-01  5.85372044e-09  4.24983639e-08 -2.69302802e-10  1.00000000e+00 
 8.90000000e-01  4.67910590e-01  4.67910590e-01  4.67910590e-01  4.67910590e-01  4.67910590e-01  4.67910590e-01  5.68776124e-09  5.04580062e-08 -2.28286723e-10  1.00000000e+00 
 9.00000000e-01  4.74762063e-01  4.74762063e-01  4.74762063e-01  4.74762063e-01  4.74762063e-01  4.74762063e-01  5.53424560e-09  5.98787331e-08 -1.92311944e-10  1.00000000e+00 
 9.10000000e-01  4.81642162e-01  4.81642162e-01  4.81642162e-01  4.81642162e-01  4.81642163e-01  4.81642162e-01  5.39190559e-09  7.10163397e-08 -1.61143987e-10  1.00000000e+00 
 9.20000000e-01  4.88545234e-01  4.88545234e-01  4.88545234e-01  4.88545234e-01  4.88545234e-01  4.88545234e-01  5.25963190e-09  8.41594513e-08 -1.34317446e-10  1.00000000e+00 
 9.30000000e-01  4.95460576e-01  4.95460576e-01  4.95460576e-01  4.95460576e-01  4.95460576e-01  4.95460576e-01  5.13645072e-09  9.96258920e-08 -1.11260334e-10  1.00000000e+00 
 9.40000000e-01  5.02371692e-01  5.02371692e-01  5.02371692e-01  5.02371692e-01  5.02371692e-01  5.02371692e-01  5.02150479e-09  1.17753907e-07 -9.14077702e-11  1.00000000e+00 
 9.50000000e-01  5.09255310e-01  5.09255310e-01  5.09255310e-01  5.09255310e-01  5.09255311e-01  5.09255310e-01  4.91403734e-09  1.38885696e-07 -7.42375050e-11  1.00000000e+00 
 9.60000000e-01  5.16080502e-01  5.16080502e-01  5.16080502e-01  5.16080502e-01  5.16080502e-01  5.16080502e-01  4.81337807e-09  1.63340671e-07 -5.93516347e-11  1.00000000e+00 
 9.70000000e-01  5.22808055e-01  5.22808055e-01  5.22808055e-01  5.22808055e-01  5.22808055e-01  5.22808055e-01  4.71893176e-09  1.91376063e-07 -4.64304151e-11  1.00000000e+00 
 9.80000000e-01  5.29389981e-01  5.29389981e-01  5.29389981e-01  5.29389981e-01  5.29389981e-01  5.29389981e-01  4.63016856e-09  2.23133656e-07 -3.51931817e-11  1.00000000e+00 
 9.90000000e-01  5.35769743e-01  5.35769743e-01  5.35769743e-01  5.35769743e-01  5.35769743e-01  5.35769743e-01  4.54661533e-09  2.58574792e-07 -2.51958454e-11  1.00000000e+00 
 1.00000000e+00  5.41883337e-01  5.41883337e-01  5.41883337e-01  5.41883337e-01  5.41883337e-01  5.41883337e-01  4.46784866e-09  2.97410834e-07 -1.61151092e-11  1.00000000e+00 
 1.01000000e+00  5.47661525e-01  5.47661525e-01  5.47661525e-01  5.47661525e-01  5.47661526e-01  5.47661525e-01  4.39348881e-09  3.39042746e-07 -7.90123522e-12  1.00000000e+00 
 1.02000000e+00  5.53033112e-01  5.53033112e-01  5.53033112e-01  5.53033112e-01  5.53033112e-01  5.53033112e-01  4.32319468e-09  3.82527058e-07 -5.75539616e-13  1.00000000e+00 
 1.03000000e+00  5.57928700e-01  5.57928700e-01  5.57928700e-01  5.57928700e-01  5.57928700e-01  5.57928700e-01  4.25665890e-09  4.26582782e-07  6.24567065e-12  1.00000000e+00 
 1.04000000e+00  5.62283969e-01  5.62283969e-01  5.62283969e-01  5.62283969e-01  5.62283969e-01  5.62283969e-01  4.19360464e-09  4.69644565e-07  1.28324018e-11  1.00000000e+00 
 1.05000000e+00  5.66042582e-01  5.66042582e-01  5.66042582e-01  5.66042582e-01  5.66042582e-01  5.66042582e-01  4.13378172e-09  5.09964759e-07  1.89963600e-11  1.00000000e+00 
 1.06000000e+00  5.69161106e-01  5.69161106e-01  5.69161106e-01  5.69161106e-01  5.69161106e-01  5.69161106e-01  4.07696409e-09  5.45785745e-07  2.45989895e-11  1.00000000e+00 
 1.07000000e+00  5.71619975e-01  5.71619975e-01  5.71619975e-01  5.71619975e-01  5.71619975e-01  5.71619975e-01  4.02294733e-09  5.75626271e-07  2.96083158e-11  1.00000000e+00 
 1.08000000e+00  5.73441271e-01  5.73441271e-01  5.73441271e-01  5.73441271e-01  5.73441271e-01  5.73441271e-01  3.97154739e-09  5.98679367e-07  3.40811823e-11  1.00000000e+00 
 1.09000000e+00  5.74702411e-01  5.74702411e-01  5.74702411e-01  5.74702411e-01  5.74702411e-01  5.74702411e-01  3.92259867e-09  6.15137060e-07  3.81881193e-11  1.00000000e+00 
 1.10000000e+00  5.75526470e-01  5.75526470e-01  5.75526470e-01  5.75526470e-01  5.75526470e-01  5.75526470e-01  3.87595181e-09  6.26118358e-07  4.21387369e-11  1.00000000e+00 
