 v-sweep         v(b0)           v(b1)           v(b2)           v(b3)           v(b4)           v(b5)           v(b6)           i(vbias)        i(viout)        v(vout)        
 0.00000000e+00 -8.34200750e-23 -8.34200750e-23 -8.34200743e-23 -8.34200750e-23 -8.34200750e-23 -8.34200743e-23  1.44528693e-21  3.40362438e-30 -4.32266691e-03  1.00000000e+00 
 1.00000000e-02  1.99242117e-03  1.99242116e-03  1.99242117e-03  1.99242117e-03  1.99242117e-03  1.99242117e-03  2.03059975e-03  1.10812789e-14 -3.90963188e-03  1.00000000e+00 
 2.00000000e-02  3.96598271e-03  3.96598270e-03  3.96598270e-03  3.96598271e-03  3.96598271e-03  3.96598270e-03  3.66611939e-03  2.17670551e-14 -3.51212535e-03  1.00000000e+00 
 3.00000000e-02  5.91586349e-03  5.91586348e-03  5.91586348e-03  5.91586349e-03  5.91586348e-03  5.91586348e-03  4.85119944e-03  3.21468608e-14 -3.13160287e-03  1.00000000e+00 
 4.00000000e-02  7.85463420e-03  7.85463418e-03  7.85463419e-03  7.85463420e-03  7.85463419e-03  7.85463419e-03  5.58112874e-03  4.22966122e-14 -2.76965019e-03  1.00000000e+00 
 5.00000000e-02  9.78257874e-03  9.78257872e-03  9.78257873e-03  9.78257874e-03  9.78257874e-03  9.78257873e-03  5.88831506e-03  5.22695735e-14 -2.42792427e-03  1.00000000e+00 
 6.00000000e-02  1.16976061e-02  1.16976061e-02  1.16976061e-02  1.16976061e-02  1.16976061e-02  1.16976061e-02  5.83902419e-03  6.21297803e-14 -2.10744021e-03  1.00000000e+00 
 7.00000000e-02  9.37480076e-03  9.37480074e-03  9.37480075e-03  9.37480076e-03  9.37480076e-03  9.37480075e-03  4.43750731e-03  7.08865441e-14 -1.81261044e-03  1.00000000e+00 
 8.00000000e-02  1.06862523e-02  1.06862522e-02  1.06862522e-02  1.06862523e-02  1.06862522e-02  1.06862522e-02  4.16152499e-03  8.04414785e-14 -1.54117660e-03  1.00000000e+00 
 9.00000000e-02  1.19838997e-02  1.19838997e-02  1.19838997e-02  1.19838997e-02  1.19838997e-02  1.19838997e-02  3.77924743e-03  8.99216102e-14 -1.29567598e-03  1.00000000e+00 
 1.00000000e-01  1.32918643e-02  1.32918643e-02  1.32918643e-02  1.32918643e-02  1.32918643e-02  1.32918643e-02  3.34404439e-03  9.93825172e-14 -1.07690370e-03  1.00000000e+00 
 1.10000000e-01  1.46006686e-02  1.46006686e-02  1.46006686e-02  1.46006686e-02  1.46006686e-02  1.46006686e-02  2.89603488e-03  1.08815702e-13 -8.84912849e-04  1.00000000e+00 
 1.20000000e-01  1.59134382e-02  1.59134381e-02  1.59134381e-02  1.59134382e-02  1.59134382e-02  1.59134382e-02  2.46451337e-03  1.18189992e-13 -7.19174918e-04  1.00000000e+00 
 1.30000000e-01  1.72381526e-02  1.72381526e-02  1.72381526e-02  1.72381526e-02  1.72381526e-02  1.72381526e-02  2.06814208e-03  1.27616851e-13 -5.78471631e-04  1.00000000e+00 
 1.40000000e-01  1.85560571e-02  1.85560571e-02  1.85560571e-02  1.85560571e-02  1.85560571e-02  1.85560571e-02  1.71562618e-03  1.37000278e-13 -4.61014629e-04  1.00000000e+00 
 1.50000000e-01  1.98861216e-02  1.98861215e-02  1.98861215e-02  1.98861216e-02  1.98861216e-02  1.98861215e-02  1.41008494e-03  1.46378087e-13 -3.64449391e-04  1.00000000e+00 
 1.60000000e-01  2.12208194e-02  2.12208193e-02  2.12208194e-02  2.12208194e-02  2.12208194e-02  2.12208194e-02  1.15026787e-03  1.55752030e-13 -2.86247185e-04  1.00000000e+00 
 1.70000000e-01  2.25586819e-02  2.25586819e-02  2.25586819e-02  2.25586819e-02  2.25586819e-02  2.25586819e-02  9.32502395e-04  1.65125920e-13 -2.23712028e-04  1.00000000e+00 
 1.80000000e-01  2.39013587e-02  2.39013586e-02  2.39013586e-02  2.39013586e-02  2.39013586e-02  2.39013586e-02  7.52100768e-04  1.74457853e-13 -1.74253544e-04  1.00000000e+00 
 1.90000000e-01  2.52476606e-02  2.52476605e-02  2.52476605e-02  2.52476606e-02  2.52476606e-02  2.52476606e-02  6.04022864e-04  1.83836713e-13 -1.35479358e-04  1.00000000e+00 
 2.00000000e-01  2.65840919e-02  2.65840918e-02  2.65840919e-02  2.65840919e-02  2.65840919e-02  2.65840919e-02  4.83327050e-04  1.93271695e-13 -1.05286783e-04  1.00000000e+00 
 2.10000000e-01  2.79472568e-02  2.79472567e-02  2.79472567e-02  2.79472568e-02  2.79472568e-02  2.79472568e-02  3.85622227e-04  2.02629085e-13 -8.18826614e-05  1.00000000e+00 
 2.20000000e-01  2.92849489e-02  2.92849488e-02  2.92849488e-02  2.92849488e-02  2.92849488e-02  2.92849488e-02  3.06837950e-04  2.12059924e-13 -6.37955369e-05  1.00000000e+00 
 2.30000000e-01  3.06446291e-02  3.06446291e-02  3.06446291e-02  3.06446291e-02  3.06446291e-02  3.06446291e-02  2.43617971e-04  2.21457827e-13 -4.98293727e-05  1.00000000e+00 
 2.40000000e-01  3.19956364e-02  3.19956364e-02  3.19956364e-02  3.19956364e-02  3.19956364e-02  3.19956364e-02  1.93048444e-04  2.31006088e-13 -3.90393099e-05  1.00000000e+00 
 2.50000000e-01  3.33534086e-02  3.33534086e-02  3.33534086e-02  3.33534086e-02  3.33534086e-02  3.33534086e-02  1.52724429e-04  2.40497106e-13 -3.06939231e-05  1.00000000e+00 
 2.60000000e-01  3.47023841e-02  3.47023840e-02  3.47023841e-02  3.47023841e-02  3.47023841e-02  3.47023841e-02  1.20645758e-04  2.50047975e-13 -2.42230198e-05  1.00000000e+00 
 2.70000000e-01  3.60303232e-02  3.60303232e-02  3.60303232e-02  3.60303232e-02  3.60303232e-02  3.60303232e-02  9.51820997e-05  2.59836330e-13 -1.91889575e-05  1.00000000e+00 
 2.80000000e-01  3.73767864e-02  3.73767863e-02  3.73767863e-02  3.73767863e-02  3.73767863e-02  3.73767863e-02  7.50157210e-05  2.69623560e-13 -1.52582654e-05  1.00000000e+00 
 2.90000000e-01  3.87045623e-02  3.87045622e-02  3.87045623e-02  3.87045623e-02  3.87045623e-02  3.87045623e-02  5.90660166e-05  2.79666805e-13 -1.21737418e-05  1.00000000e+00 
 3.00000000e-01  4.00482578e-02  4.00482578e-02  4.00482578e-02  4.00482578e-02  4.00482578e-02  4.00482578e-02  4.64736702e-05  2.89884019e-13 -9.74275233e-06  1.00000000e+00 
 3.10000000e-01  4.13723253e-02  4.13723253e-02  4.13723253e-02  4.13723253e-02  4.13723253e-02  4.13723253e-02  3.65423790e-05  3.00534354e-13 -7.81412760e-06  1.00000000e+00 
 3.20000000e-01  4.26917601e-02  4.26917601e-02  4.26917601e-02  4.26917601e-02  4.26917601e-02  4.26917601e-02  2.87193137e-05  3.11720507e-13 -6.27803841e-06  1.00000000e+00 
 3.30000000e-01  4.40075986e-02  4.40075985e-02  4.40075985e-02  4.40075985e-02  4.40075985e-02  4.40075985e-02  2.25633931e-05  3.23256880e-13 -5.04562605e-06  1.00000000e+00 
 3.40000000e-01  4.53143948e-02  4.53143948e-02  4.53143948e-02  4.53143948e-02  4.53143948e-02  4.53143948e-02  1.77231360e-05  3.35821394e-13 -4.05486243e-06  1.00000000e+00 
 3.50000000e-01  4.66131883e-02  4.66131883e-02  4.66131883e-02  4.66131883e-02  4.66131883e-02  4.66131883e-02  1.39202121e-05  3.49489529e-13 -3.25408413e-06  1.00000000e+00 
 3.60000000e-01  4.79274098e-02  4.79274097e-02  4.79274097e-02  4.79274098e-02  4.79274098e-02  4.79274098e-02  1.09343751e-05  3.64731599e-13 -2.60587640e-06  1.00000000e+00 
 3.70000000e-01  4.92405900e-02  4.92405900e-02  4.92405900e-02  4.92405900e-02  4.92405900e-02  4.92405900e-02  8.59097114e-06  3.82039227e-13 -2.08112161e-06  1.00000000e+00 
 3.80000000e-01  5.05521881e-02  5.05521881e-02  5.05521881e-02  5.05521881e-02  5.05521881e-02  5.05521881e-02  6.75241549e-06  4.02373234e-13 -1.65599532e-06  1.00000000e+00 
 3.90000000e-01  5.18823739e-02  5.18823739e-02  5.18823739e-02  5.18823739e-02  5.18823739e-02  5.18823739e-02  5.31036957e-06  4.26501445e-13 -1.31217443e-06  1.00000000e+00 
 4.00000000e-01  5.32213689e-02  5.32213688e-02  5.32213688e-02  5.32213689e-02  5.32213689e-02  5.32213689e-02  4.17938616e-06  4.56202401e-13 -1.03529594e-06  1.00000000e+00 
 4.10000000e-01  5.45939517e-02  5.45939517e-02  5.45939517e-02  5.45939517e-02  5.45939517e-02  5.45939517e-02  3.29240432e-06  4.92728234e-13 -8.13136381e-07  1.00000000e+00 
 4.20000000e-01  5.60141418e-02  5.60141417e-02  5.60141418e-02  5.60141418e-02  5.60141418e-02  5.60141418e-02  2.59667760e-06  5.39183485e-13 -6.35780509e-07  1.00000000e+00 
 4.30000000e-01  5.74670693e-02  5.74670693e-02  5.74670693e-02  5.74670693e-02  5.74670693e-02  5.74670693e-02  2.05076528e-06  5.98582578e-13 -4.94815481e-07  1.00000000e+00 
 4.40000000e-01  5.90374420e-02  5.90374420e-02  5.90374420e-02  5.90374420e-02  5.90374420e-02  5.90374420e-02  1.62229052e-06  6.75754229e-13 -3.83600721e-07  1.00000000e+00 
 4.50000000e-01  6.06870149e-02  6.06870148e-02  6.06870148e-02  6.06870149e-02  6.06870148e-02  6.06870148e-02  1.28573088e-06  7.76580955e-13 -2.96241524e-07  1.00000000e+00 
 4.60000000e-01  6.25277681e-02  6.25277681e-02  6.25277681e-02  6.25277681e-02  6.25277681e-02  6.25277681e-02  1.02121040e-06  9.09272976e-13 -2.28044456e-07  1.00000000e+00 
 4.70000000e-01  6.44970472e-02  6.44970471e-02  6.44970472e-02  6.44970472e-02  6.44970472e-02  6.44970472e-02  8.13066266e-07  1.08620139e-12 -1.74993431e-07  1.00000000e+00 
 4.80000000e-01  6.67924068e-02  6.67924068e-02  6.67924068e-02  6.67924068e-02  6.67924068e-02  6.67924068e-02  6.49139980e-07  1.32217175e-12 -1.33924814e-07  1.00000000e+00 
 4.90000000e-01  6.94273556e-02  6.94273555e-02  6.94273556e-02  6.94273556e-02  6.94273556e-02  6.94273556e-02  5.19845629e-07  1.64007282e-12 -1.02228128e-07  1.00000000e+00 
 5.00000000e-01  7.25245159e-02  7.25245159e-02  7.25245159e-02  7.25245159e-02  7.25245159e-02  7.25245159e-02  4.17711061e-07  2.07095560e-12 -7.78290428e-08  1.00000000e+00 
 5.10000000e-01  7.62205135e-02  7.62205134e-02  7.62205134e-02  7.62205135e-02  7.62205134e-02  7.62205134e-02  3.36887603e-07  2.65875173e-12 -5.90957683e-08  1.00000000e+00 
 5.20000000e-01  8.06177754e-02  8.06177753e-02  8.06177753e-02  8.06177753e-02  8.06177753e-02  8.06177753e-02  2.72796330e-07  3.46184530e-12 -4.47759163e-08  1.00000000e+00 
 5.30000000e-01  8.59282060e-02  8.59282060e-02  8.59282060e-02  8.59282060e-02  8.59282060e-02  8.59282060e-02  2.21862438e-07  4.56316191e-12 -3.38727659e-08  1.00000000e+00 
 5.40000000e-01  9.22556996e-02  9.22556995e-02  9.22556995e-02  9.22556996e-02  9.22556996e-02  9.22556996e-02  1.81283092e-07  6.07589416e-12 -2.55947867e-08  1.00000000e+00 
 5.50000000e-01  9.95593655e-02  9.95593654e-02  9.95593655e-02  9.95593655e-02  9.95593655e-02  9.95593655e-02  1.48864394e-07  8.14441033e-12 -1.93247160e-08  1.00000000e+00 
 5.60000000e-01  1.07892381e-01  1.07892381e-01  1.07892381e-01  1.07892381e-01  1.07892381e-01  1.07892381e-01  1.22893517e-07  1.09677404e-11 -1.45824686e-08  1.00000000e+00 
 5.70000000e-01  1.17075235e-01  1.17075235e-01  1.17075235e-01  1.17075235e-01  1.17075235e-01  1.17075235e-01  1.02025298e-07  1.47972134e-11 -1.10001110e-08  1.00000000e+00 
 5.80000000e-01  1.26983536e-01  1.26983536e-01  1.26983536e-01  1.26983536e-01  1.26983536e-01  1.26983536e-01  8.52057089e-08  1.99856881e-11 -8.29621172e-09  1.00000000e+00 
 5.90000000e-01  1.37374447e-01  1.37374447e-01  1.37374447e-01  1.37374447e-01  1.37374447e-01  1.37374447e-01  7.16051174e-08  2.69759510e-11 -6.25695407e-09  1.00000000e+00 
 6.00000000e-01  1.48094058e-01  1.48094058e-01  1.48094058e-01  1.48094058e-01  1.48094058e-01  1.48094058e-01  6.05703533e-08  3.63801970e-11 -4.71980854e-09  1.00000000e+00 
 6.10000000e-01  1.58991311e-01  1.58991311e-01  1.58991311e-01  1.58991311e-01  1.58991311e-01  1.58991311e-01  5.15854103e-08  4.89685317e-11 -3.56178020e-09  1.00000000e+00 
 6.20000000e-01  1.69937921e-01  1.69937921e-01  1.69937921e-01  1.69937921e-01  1.69937921e-01  1.69937921e-01  4.42419110e-08  6.57577473e-11 -2.68991585e-09  1.00000000e+00 
 6.30000000e-01  1.80855603e-01  1.80855603e-01  1.80855603e-01  1.80855603e-01  1.80855603e-01  1.80855603e-01  3.82160851e-08  8.80475731e-11 -2.03370121e-09  1.00000000e+00 
 6.40000000e-01  1.91675411e-01  1.91675411e-01  1.91675411e-01  1.91675411e-01  1.91675411e-01  1.91675411e-01  3.32506792e-08  1.17504677e-10 -1.54039981e-09  1.00000000e+00 
 6.50000000e-01  2.02375967e-01  2.02375967e-01  2.02375967e-01  2.02375967e-01  2.02375967e-01  2.02375967e-01  2.91409949e-08  1.56224106e-10 -1.17015020e-09  1.00000000e+00 
 6.60000000e-01  2.12918275e-01  2.12918275e-01  2.12918275e-01  2.12918275e-01  2.12918275e-01  2.12918275e-01  2.57237893e-08  2.06850977e-10 -8.92910634e-10  1.00000000e+00 
 6.70000000e-01  2.23286699e-01  2.23286699e-01  2.23286699e-01  2.23286699e-01  2.23286699e-01  2.23286699e-01  2.28687036e-08  2.72689043e-10 -6.86270596e-10  1.00000000e+00 
 6.80000000e-01  2.33470165e-01  2.33470165e-01  2.33470165e-01  2.33470165e-01  2.33470165e-01  2.33470165e-01  2.04714289e-08  3.57777353e-10 -5.33262323e-10  1.00000000e+00 
 6.90000000e-01  2.43459084e-01  2.43459084e-01  2.43459084e-01  2.43459084e-01  2.43459084e-01  2.43459084e-01  1.84483322e-08  4.67069125e-10 -4.21380264e-10  1.00000000e+00 
 7.00000000e-01  2.53245254e-01  2.53245254e-01  2.53245254e-01  2.53245254e-01  2.53245254e-01  2.53245254e-01  1.67322104e-08  6.06531016e-10 -3.41614736e-10  1.00000000e+00 
 7.10000000e-01  2.62821618e-01  2.62821618e-01  2.62821618e-01  2.62821618e-01  2.62821618e-01  2.62821618e-01  1.52689288e-08  7.83281232e-10 -2.86931368e-10  1.00000000e+00 
 7.20000000e-01  2.72184752e-01  2.72184752e-01  2.72184752e-01  2.72184752e-01  2.72184752e-01  2.72184752e-01  1.40147617e-08  1.00577089e-09 -2.52498467e-10  1.00000000e+00 
 7.30000000e-01  2.81334765e-01  2.81334765e-01  2.81334765e-01  2.81334765e-01  2.81334765e-01  2.81334765e-01  1.29342847e-08  1.28386736e-09 -2.34862796e-10  1.00000000e+00 
 7.40000000e-01  2.90268350e-01  2.90268350e-01  2.90268350e-01  2.90268350e-01  2.90268350e-01  2.90268350e-01  1.19987026e-08  1.62915282e-09 -2.31892727e-10  1.00000000e+00 
 7.50000000e-01  2.98988721e-01  2.98988720e-01  2.98988720e-01  2.98988720e-01  2.98988720e-01  2.98988720e-01  1.11845317e-08  2.05495918e-09 -2.41968223e-10  1.00000000e+00 
 7.60000000e-01  3.07502325e-01  3.07502325e-01  3.07502325e-01  3.07502325e-01  3.07502325e-01  3.07502325e-01  1.04725486e-08  2.57677267e-09 -2.64407163e-10  1.00000000e+00 
 7.70000000e-01  3.15812793e-01  3.15812793e-01  3.15812793e-01  3.15812793e-01  3.15812793e-01  3.15812793e-01  9.84695687e-09  3.21240147e-09 -2.98825853e-10  1.00000000e+00 
 7.80000000e-01  3.23932326e-01  3.23932325e-01  3.23932326e-01  3.23932326e-01  3.23932326e-01  3.23932326e-01  9.29472813e-09  3.98243222e-09 -3.43689521e-10  1.00000000e+00 
 7.90000000e-01  3.31869625e-01  3.31869624e-01  3.31869625e-01  3.31869625e-01  3.31869625e-01  3.31869625e-01  8.80507216e-09  4.91065288e-09 -3.92375910e-10  1.00000000e+00 
 8.00000000e-01  3.39639320e-01  3.39639320e-01  3.39639320e-01  3.39639320e-01  3.39639320e-01  3.39639320e-01  8.36901871e-09  6.02466219e-09 -4.25188773e-10  1.00000000e+00 
 8.10000000e-01  3.47254414e-01  3.47254414e-01  3.47254414e-01  3.47254414e-01  3.47254414e-01  3.47254414e-01  7.97907946e-09  7.35658068e-09 -4.22105018e-10  1.00000000e+00 
 8.20000000e-01  3.54730409e-01  3.54730409e-01  3.54730409e-01  3.54730409e-01  3.54730409e-01  3.54730409e-01  7.62897909e-09  8.94399188e-09 -3.83650445e-10  1.00000000e+00 
 8.30000000e-01  3.62083718e-01  3.62083718e-01  3.62083718e-01  3.62083718e-01  3.62083718e-01  3.62083718e-01  7.31343772e-09  1.08309809e-08 -3.27958105e-10  1.00000000e+00 
 8.40000000e-01  3.69329659e-01  3.69329659e-01  3.69329659e-01  3.69329659e-01  3.69329659e-01  3.69329659e-01  7.02799555e-09  1.30694474e-08 -2.67462497e-10  1.00000000e+00 
 8.50000000e-01  3.76484958e-01  3.76484958e-01  3.76484958e-01  3.76484958e-01  3.76484958e-01  3.76484958e-01  6.76887126e-09  1.57207256e-08 -2.12651230e-10  1.00000000e+00 
 8.60000000e-01  3.83564698e-01  3.83564698e-01  3.83564698e-01  3.83564698e-01  3.83564698e-01  3.83564698e-01  6.53284642e-09  1.88574123e-08 -1.66053837e-10  1.00000000e+00 
 8.70000000e-01  3.90583900e-01  3.90583899e-01  3.90583900e-01  3.90583900e-01  3.90583900e-01  3.90583900e-01  6.31717164e-09  2.25655552e-08 -1.28352440e-10  1.00000000e+00 
 8.80000000e-01  3.97556716e-01  3.97556716e-01  3.97556716e-01  3.97556716e-01  3.97556716e-01  3.97556716e-01  6.11948972e-09  2.69472836e-08 -9.86943860e-11  1.00000000e+00 
 8.90000000e-01  4.04495971e-01  4.04495970e-01  4.04495971e-01  4.04495971e-01  4.04495971e-01  4.04495971e-01  5.93777234e-09  3.21237017e-08 -7.57438556e-11  1.00000000e+00 
 9.00000000e-01  4.11413111e-01  4.11413111e-01  4.11413111e-01  4.11413111e-01  4.11413111e-01  4.11413111e-01  5.77026821e-09  3.82383678e-08 -5.81792392e-11  1.00000000e+00 
 9.10000000e-01  4.18317817e-01  4.18317817e-01  4.18317817e-01  4.18317817e-01  4.18317817e-01  4.18317817e-01  5.61546003e-09  4.54608495e-08 -4.47641924e-11  1.00000000e+00 
 9.20000000e-01  4.25217594e-01  4.25217594e-01  4.25217594e-01  4.25217594e-01  4.25217594e-01  4.25217594e-01  5.47202881e-09  5.39907707e-08 -3.46034312e-11  1.00000000e+00 
 9.30000000e-01  4.32117520e-01  4.32117520e-01  4.32117520e-01  4.32117520e-01  4.32117520e-01  4.32117520e-01  5.33882426e-09  6.40615836e-08 -2.68016720e-11  1.00000000e+00 
 9.40000000e-01  4.39019448e-01  4.39019448e-01  4.39019448e-01  4.39019448e-01  4.39019448e-01  4.39019448e-01  5.21483986e-09  7.59437446e-08 -2.08473239e-11  1.00000000e+00 
 9.50000000e-01  4.45921543e-01  4.45921543e-01  4.45921543e-01  4.45921543e-01  4.45921543e-01  4.45921543e-01  5.09919217e-09  8.99463521e-08 -1.62430069e-11  1.00000000e+00 
 9.60000000e-01  4.52817431e-01  4.52817431e-01  4.52817431e-01  4.52817431e-01  4.52817431e-01  4.52817431e-01  4.99110357e-09  1.06416174e-07 -1.26618716e-11  1.00000000e+00 
 9.70000000e-01  4.59695214e-01  4.59695213e-01  4.59695214e-01  4.59695214e-01  4.59695214e-01  4.59695214e-01  4.88988708e-09  1.25731408e-07 -9.87654403e-12  1.00000000e+00 
 9.80000000e-01  4.66536525e-01  4.66536525e-01  4.66536525e-01  4.66536525e-01  4.66536525e-01  4.66536525e-01  4.79493432e-09  1.48288007e-07 -7.64543984e-12  1.00000000e+00 
 9.90000000e-01  4.73315305e-01  4.73315305e-01  4.73315305e-01  4.73315305e-01  4.73315305e-01  4.73315305e-01  4.70570463e-09  1.74474152e-07 -5.84066129e-12  1.00000000e+00 
 1.00000000e+00  4.79996695e-01  4.79996695e-01  4.79996695e-01  4.79996695e-01  4.79996695e-01  4.79996695e-01  4.62171635e-09  2.04629583e-07 -4.32009983e-12  1.00000000e+00 
 1.01000000e+00  4.86536098e-01  4.86536098e-01  4.86536098e-01  4.86536098e-01  4.86536098e-01  4.86536098e-01  4.54253908e-09  2.38985274e-07 -2.95585778e-12  1.00000000e+00 
 1.02000000e+00  4.92878925e-01  4.92878924e-01  4.92878924e-01  4.92878924e-01  4.92878924e-01  4.92878925e-01  4.46778706e-09  2.77584938e-07 -1.76214598e-12  1.00000000e+00 
 1.03000000e+00  4.98961479e-01  4.98961479e-01  4.98961479e-01  4.98961479e-01  4.98961479e-01  4.98961479e-01  4.39711376e-09  3.20195198e-07 -7.10542736e-13  1.00000000e+00 
 1.04000000e+00  5.04713519e-01  5.04713519e-01  5.04713519e-01  5.04713519e-01  5.04713519e-01  5.04713519e-01  4.33020753e-09  3.66222210e-07  3.41060513e-13  1.00000000e+00 
 1.05000000e+00  5.10061935e-01  5.10061935e-01  5.10061935e-01  5.10061935e-01  5.10061935e-01  5.10061935e-01  4.26678709e-09  4.14654984e-07  1.42108547e-12  1.00000000e+00 
 1.06000000e+00  5.14933470e-01  5.14933470e-01  5.14933470e-01  5.14933470e-01  5.14933470e-01  5.14933470e-01  4.20659875e-09  4.64041110e-07  2.54374299e-12  1.00000000e+00 
 1.07000000e+00  5.19253909e-01  5.19253909e-01  5.19253909e-01  5.19253909e-01  5.19253909e-01  5.19253909e-01  4.14941273e-09  5.12476358e-07  3.60955710e-12  1.00000000e+00 
 1.08000000e+00  5.22944214e-01  5.22944214e-01  5.22944214e-01  5.22944214e-01  5.22944214e-01  5.22944214e-01  4.09502045e-09  5.57602124e-07  4.77484718e-12  1.00000000e+00 
 1.09000000e+00  5.25921331e-01  5.25921331e-01  5.25921331e-01  5.25921331e-01  5.25921331e-01  5.25921331e-01  4.04323200e-09  5.96711022e-07  6.01119154e-12  1.00000000e+00 
 1.10000000e+00  5.28120747e-01  5.28120747e-01  5.28120747e-01  5.28120747e-01  5.28120747e-01  5.28120747e-01  3.99387559e-09  6.27245687e-07  7.33280103e-12  1.00000000e+00 
