 v-sweep         v(b0)           v(b1)           v(b2)           v(b3)           v(b4)           v(b5)           v(b6)           i(vbias)        i(viout)        v(vout)        
 0.00000000e+00 -4.44362835e-19 -4.44362835e-19 -4.44362835e-19 -4.44362835e-19 -4.44362831e-19 -4.44362835e-19 -4.44362835e-19  1.47709502e-29 -4.73879517e-03  1.00000000e+00 
 1.00000000e-02  1.96829487e-03  1.96829487e-03  1.96829487e-03  1.96829487e-03  1.96829487e-03  1.96829486e-03  1.96829487e-03  1.16494896e-14 -4.31191709e-03  1.00000000e+00 
 2.00000000e-02  3.93450639e-03  3.93450640e-03  3.93450640e-03  3.93450640e-03  3.93450640e-03  3.93450639e-03  3.93450640e-03  2.27739432e-14 -3.89922142e-03  1.00000000e+00 
 3.00000000e-02  5.89388941e-03  5.89388942e-03  5.89388941e-03  5.89388941e-03  5.89388942e-03  5.89388941e-03  5.89388941e-03  3.34958031e-14 -3.50208163e-03  1.00000000e+00 
 4.00000000e-02  7.85532748e-03  7.85532749e-03  7.85532748e-03  7.85532748e-03  7.85532749e-03  7.85532747e-03  7.85532748e-03  4.39236101e-14 -3.12198291e-03  1.00000000e+00 
 5.00000000e-02  9.82596957e-03  9.82596959e-03  9.82596958e-03  9.82596958e-03  9.82596958e-03  9.82596957e-03  9.82596958e-03  5.41137696e-14 -2.76050524e-03  1.00000000e+00 
 6.00000000e-02  1.17985740e-02  1.17985740e-02  1.17985740e-02  1.17985740e-02  1.17985740e-02  1.17985740e-02  1.17985740e-02  6.41290974e-14 -2.41930561e-03  1.00000000e+00 
 7.00000000e-02  1.37650439e-02  1.37650439e-02  1.37650439e-02  1.37650439e-02  1.37650439e-02  1.37650438e-02  1.37650439e-02  7.40279140e-14 -2.10003159e-03  1.00000000e+00 
 8.00000000e-02  1.57363929e-02  1.57363929e-02  1.57363929e-02  1.57363929e-02  1.57363929e-02  1.57363929e-02  1.57363929e-02  8.38337197e-14 -1.80426141e-03  1.00000000e+00 
 9.00000000e-02  1.77153182e-02  1.77153183e-02  1.77153182e-02  1.77153182e-02  1.77153183e-02  1.77153182e-02  1.77153182e-02  9.35634372e-14 -1.53341487e-03  1.00000000e+00 
 1.00000000e-01  1.97141382e-02  1.97141382e-02  1.97141382e-02  1.97141382e-02  1.97141382e-02  1.97141382e-02  1.97141382e-02  1.03221578e-13 -1.28858635e-03  1.00000000e+00 
 1.10000000e-01  2.16685395e-02  2.16685396e-02  2.16685396e-02  2.16685396e-02  2.16685396e-02  2.16685395e-02  2.16685396e-02  1.12837020e-13 -1.07044103e-03  1.00000000e+00 
 1.20000000e-01  2.36680203e-02  2.36680203e-02  2.36680203e-02  2.36680203e-02  2.36680203e-02  2.36680202e-02  2.36680203e-02  1.22409080e-13 -8.79078623e-04  1.00000000e+00 
 1.30000000e-01  2.56511159e-02  2.56511159e-02  2.56511159e-02  2.56511159e-02  2.56511159e-02  2.56511159e-02  2.56511159e-02  1.32022660e-13 -7.13929223e-04  1.00000000e+00 
 1.40000000e-01  2.76183550e-02  2.76183551e-02  2.76183550e-02  2.76183550e-02  2.76183551e-02  2.76183550e-02  2.76183550e-02  1.41590553e-13 -5.73757961e-04  1.00000000e+00 
 1.50000000e-01  2.95872671e-02  2.95872671e-02  2.95872671e-02  2.95872671e-02  2.95872671e-02  2.95872671e-02  2.95872671e-02  1.51142480e-13 -4.56823169e-04  1.00000000e+00 
 1.60000000e-01  3.15281303e-02  3.15281303e-02  3.15281303e-02  3.15281303e-02  3.15281303e-02  3.15281303e-02  3.15281303e-02  1.60697952e-13 -3.60712785e-04  1.00000000e+00 
 1.70000000e-01  3.34727688e-02  3.34727689e-02  3.34727688e-02  3.34727689e-02  3.34727689e-02  3.34727688e-02  3.34727689e-02  1.70207608e-13 -2.82899381e-04  1.00000000e+00 
 1.80000000e-01  3.53910912e-02  3.53910912e-02  3.53910912e-02  3.53910912e-02  3.53910912e-02  3.53910911e-02  3.53910912e-02  1.79801388e-13 -2.20686788e-04  1.00000000e+00 
 1.90000000e-01  3.73063859e-02  3.73063860e-02  3.73063859e-02  3.73063859e-02  3.73063860e-02  3.73063859e-02  3.73063859e-02  1.89308889e-13 -1.71480551e-04  1.00000000e+00 
 2.00000000e-01  3.92058518e-02  3.92058518e-02  3.92058518e-02  3.92058518e-02  3.92058518e-02  3.92058518e-02  3.92058518e-02  1.98912975e-13 -1.32910422e-04  1.00000000e+00 
 2.10000000e-01  4.10569072e-02  4.10569072e-02  4.10569072e-02  4.10569072e-02  4.10569072e-02  4.10569072e-02  4.10569072e-02  2.08442608e-13 -1.02847211e-04  1.00000000e+00 
 2.20000000e-01  4.28559058e-02  4.28559058e-02  4.28559058e-02  4.28559058e-02  4.28559058e-02  4.28559058e-02  4.28559058e-02  2.17983238e-13 -7.95658008e-05  1.00000000e+00 
 2.30000000e-01  4.46546548e-02  4.46546548e-02  4.46546548e-02  4.46546548e-02  4.46546548e-02  4.46546548e-02  4.46546548e-02  2.27652292e-13 -6.15899955e-05  1.00000000e+00 
 2.40000000e-01  4.64188930e-02  4.64188930e-02  4.64188930e-02  4.64188930e-02  4.64188930e-02  4.64188930e-02  4.64188930e-02  2.37308362e-13 -4.77107581e-05  1.00000000e+00 
 2.50000000e-01  4.81790556e-02  4.81790557e-02  4.81790556e-02  4.81790557e-02  4.81790557e-02  4.81790556e-02  4.81790557e-02  2.46952039e-13 -3.70208219e-05  1.00000000e+00 
 2.60000000e-01  4.98719667e-02  4.98719668e-02  4.98719668e-02  4.98719668e-02  4.98719668e-02  4.98719667e-02  4.98719668e-02  2.56673975e-13 -2.87669370e-05  1.00000000e+00 
 2.70000000e-01  5.15352670e-02  5.15352670e-02  5.15352670e-02  5.15352670e-02  5.15352670e-02  5.15352670e-02  5.15352670e-02  2.66487756e-13 -2.24041802e-05  1.00000000e+00 
 2.80000000e-01  5.31747191e-02  5.31747192e-02  5.31747192e-02  5.31747192e-02  5.31747192e-02  5.31747191e-02  5.31747192e-02  2.76533130e-13 -1.74883814e-05  1.00000000e+00 
 2.90000000e-01  5.47735370e-02  5.47735371e-02  5.47735370e-02  5.47735370e-02  5.47735371e-02  5.47735370e-02  5.47735370e-02  2.86715242e-13 -1.36610423e-05  1.00000000e+00 
 3.00000000e-01  5.63258413e-02  5.63258414e-02  5.63258413e-02  5.63258413e-02  5.63258414e-02  5.63258413e-02  5.63258413e-02  2.97070484e-13 -1.07186412e-05  1.00000000e+00 
 3.10000000e-01  5.78601530e-02  5.78601530e-02  5.78601530e-02  5.78601530e-02  5.78601530e-02  5.78601529e-02  5.78601530e-02  3.07809774e-13 -8.42020098e-06  1.00000000e+00 
 3.20000000e-01  5.93667122e-02  5.93667122e-02  5.93667122e-02  5.93667122e-02  5.93667122e-02  5.93667121e-02  5.93667122e-02  3.18957500e-13 -6.62305530e-06  1.00000000e+00 
 3.30000000e-01  6.08399815e-02  6.08399816e-02  6.08399815e-02  6.08399815e-02  6.08399815e-02  6.08399815e-02  6.08399815e-02  3.30753176e-13 -5.21740729e-06  1.00000000e+00 
 3.40000000e-01  6.22377340e-02  6.22377340e-02  6.22377340e-02  6.22377340e-02  6.22377340e-02  6.22377339e-02  6.22377340e-02  3.43211835e-13 -4.12276874e-06  1.00000000e+00 
 3.50000000e-01  6.36672835e-02  6.36672835e-02  6.36672835e-02  6.36672835e-02  6.36672835e-02  6.36672835e-02  6.36672835e-02  3.56949543e-13 -3.25413278e-06  1.00000000e+00 
 3.60000000e-01  6.50676357e-02  6.50676357e-02  6.50676357e-02  6.50676357e-02  6.50676357e-02  6.50676357e-02  6.50676357e-02  3.72068987e-13 -2.57678079e-06  1.00000000e+00 
 3.70000000e-01  6.64098780e-02  6.64098780e-02  6.64098780e-02  6.64098780e-02  6.64098780e-02  6.64098780e-02  6.64098780e-02  3.89258152e-13 -2.04072944e-06  1.00000000e+00 
 3.80000000e-01  6.77700387e-02  6.77700388e-02  6.77700387e-02  6.77700387e-02  6.77700387e-02  6.77700387e-02  6.77700387e-02  4.09465166e-13 -1.60936008e-06  1.00000000e+00 
 3.90000000e-01  6.90792724e-02  6.90792724e-02  6.90792724e-02  6.90792724e-02  6.90792724e-02  6.90792724e-02  6.90792724e-02  4.33549464e-13 -1.27627331e-06  1.00000000e+00 
 4.00000000e-01  7.04649063e-02  7.04649063e-02  7.04649063e-02  7.04649063e-02  7.04649063e-02  7.04649063e-02  7.04649063e-02  4.62705280e-13 -1.01193254e-06  1.00000000e+00 
 4.10000000e-01  7.17702354e-02  7.17702354e-02  7.17702354e-02  7.17702354e-02  7.17702354e-02  7.17702354e-02  7.17702354e-02  4.99068702e-13 -8.01011225e-07  1.00000000e+00 
 4.20000000e-01  7.31266129e-02  7.31266129e-02  7.31266129e-02  7.31266129e-02  7.31266129e-02  7.31266129e-02  7.31266129e-02  5.44872876e-13 -6.34629245e-07  1.00000000e+00 
 4.30000000e-01  7.45215292e-02  7.45215292e-02  7.45215292e-02  7.45215292e-02  7.45215292e-02  7.45215292e-02  7.45215292e-02  6.04342077e-13 -5.03298153e-07  1.00000000e+00 
 4.40000000e-01  7.59589756e-02  7.59589756e-02  7.59589756e-02  7.59589756e-02  7.59589756e-02  7.59589756e-02  7.59589756e-02  6.81085512e-13 -3.99079838e-07  1.00000000e+00 
 4.50000000e-01  7.74537917e-02  7.74537918e-02  7.74537918e-02  7.74537918e-02  7.74537918e-02  7.74537917e-02  7.74537918e-02  7.82397503e-13 -3.17466927e-07  1.00000000e+00 
 4.60000000e-01  7.91162225e-02  7.91162226e-02  7.91162225e-02  7.91162226e-02  7.91162226e-02  7.91162225e-02  7.91162225e-02  9.16598205e-13 -2.53108539e-07  1.00000000e+00 
 4.70000000e-01  8.08717739e-02  8.08717739e-02  8.08717739e-02  8.08717739e-02  8.08717739e-02  8.08717739e-02  8.08717739e-02  1.09592935e-12 -2.02144918e-07  1.00000000e+00 
 4.80000000e-01  8.28245647e-02  8.28245647e-02  8.28245647e-02  8.28245647e-02  8.28245647e-02  8.28245647e-02  8.28245647e-02  1.33711397e-12 -1.61357320e-07  1.00000000e+00 
 4.90000000e-01  8.50743788e-02  8.50743789e-02  8.50743788e-02  8.50743788e-02  8.50743788e-02  8.50743788e-02  8.50743788e-02  1.66182389e-12 -1.27610690e-07  1.00000000e+00 
 5.00000000e-01  8.76309443e-02  8.76309443e-02  8.76309443e-02  8.76309443e-02  8.76309443e-02  8.76309443e-02  8.76309443e-02  2.10129743e-12 -9.92405802e-08  1.00000000e+00 
 5.10000000e-01  9.06629005e-02  9.06629005e-02  9.06629005e-02  9.06629005e-02  9.06629005e-02  9.06629004e-02  9.06629005e-02  2.69816282e-12 -7.62370576e-08  1.00000000e+00 
 5.20000000e-01  9.41584006e-02  9.41584006e-02  9.41584006e-02  9.41584006e-02  9.41584006e-02  9.41584006e-02  9.41584006e-02  3.50833517e-12 -5.80873092e-08  1.00000000e+00 
 5.30000000e-01  9.82709068e-02  9.82709068e-02  9.82709068e-02  9.82709068e-02  9.82709068e-02  9.82709068e-02  9.82709068e-02  4.61008949e-12 -4.40762449e-08  1.00000000e+00 
 5.40000000e-01  1.03092393e-01  1.03092393e-01  1.03092393e-01  1.03092393e-01  1.03092393e-01  1.03092393e-01  1.03092393e-01  6.10376821e-12 -3.33750307e-08  1.00000000e+00 
 5.50000000e-01  1.08658681e-01  1.08658681e-01  1.08658681e-01  1.08658681e-01  1.08658681e-01  1.08658681e-01  1.08658681e-01  8.13155641e-12 -2.52378101e-08  1.00000000e+00 
 5.60000000e-01  1.14979295e-01  1.14979295e-01  1.14979295e-01  1.14979295e-01  1.14979295e-01  1.14979295e-01  1.14979295e-01  1.08702962e-11 -1.90668032e-08  1.00000000e+00 
 5.70000000e-01  1.22051754e-01  1.22051754e-01  1.22051754e-01  1.22051754e-01  1.22051754e-01  1.22051754e-01  1.22051754e-01  1.45635652e-11 -1.43954679e-08  1.00000000e+00 
 5.80000000e-01  1.29787749e-01  1.29787749e-01  1.29787749e-01  1.29787749e-01  1.29787749e-01  1.29787748e-01  1.29787749e-01  1.95361837e-11 -1.08635021e-08  1.00000000e+00 
 5.90000000e-01  1.38131761e-01  1.38131761e-01  1.38131761e-01  1.38131761e-01  1.38131761e-01  1.38131761e-01  1.38131761e-01  2.62089859e-11 -8.19554202e-09  1.00000000e+00 
 6.00000000e-01  1.46987095e-01  1.46987095e-01  1.46987095e-01  1.46987095e-01  1.46987095e-01  1.46987095e-01  1.46987095e-01  3.51482454e-11 -6.18193496e-09  1.00000000e+00 
 6.10000000e-01  1.56240441e-01  1.56240441e-01  1.56240441e-01  1.56240441e-01  1.56240441e-01  1.56240441e-01  1.56240441e-01  4.70915329e-11 -4.66299355e-09  1.00000000e+00 
 6.20000000e-01  1.65788253e-01  1.65788253e-01  1.65788253e-01  1.65788253e-01  1.65788253e-01  1.65788253e-01  1.65788253e-01  6.29823962e-11 -3.51799656e-09  1.00000000e+00 
 6.30000000e-01  1.75549150e-01  1.75549150e-01  1.75549150e-01  1.75549150e-01  1.75549150e-01  1.75549150e-01  1.75549150e-01  8.40836159e-11 -2.65536926e-09  1.00000000e+00 
 6.40000000e-01  1.85427721e-01  1.85427721e-01  1.85427721e-01  1.85427721e-01  1.85427721e-01  1.85427721e-01  1.85427721e-01  1.11926498e-10 -2.00587635e-09  1.00000000e+00 
 6.50000000e-01  1.95369843e-01  1.95369843e-01  1.95369843e-01  1.95369843e-01  1.95369843e-01  1.95369843e-01  1.95369843e-01  1.48525140e-10 -1.51749191e-09  1.00000000e+00 
 6.60000000e-01  2.05311747e-01  2.05311747e-01  2.05311747e-01  2.05311747e-01  2.05311747e-01  2.05311747e-01  2.05311747e-01  1.96382247e-10 -1.15086607e-09  1.00000000e+00 
 6.70000000e-01  2.15201116e-01  2.15201117e-01  2.15201116e-01  2.15201116e-01  2.15201117e-01  2.15201116e-01  2.15201116e-01  2.58595582e-10 -8.76497097e-10  1.00000000e+00 
 6.80000000e-01  2.25007537e-01  2.25007537e-01  2.25007537e-01  2.25007537e-01  2.25007537e-01  2.25007537e-01  2.25007537e-01  3.38995380e-10 -6.72073952e-10  1.00000000e+00 
 6.90000000e-01  2.34696941e-01  2.34696941e-01  2.34696941e-01  2.34696941e-01  2.34696941e-01  2.34696941e-01  2.34696941e-01  4.42225888e-10 -5.21154675e-10  1.00000000e+00 
 7.00000000e-01  2.44247282e-01  2.44247282e-01  2.44247282e-01  2.44247282e-01  2.44247282e-01  2.44247282e-01  2.44247282e-01  5.73911571e-10 -4.11318979e-10  1.00000000e+00 
 7.10000000e-01  2.53636073e-01  2.53636073e-01  2.53636073e-01  2.53636073e-01  2.53636073e-01  2.53636073e-01  2.53636073e-01  7.40702999e-10 -3.33301386e-10  1.00000000e+00 
 7.20000000e-01  2.62851040e-01  2.62851040e-01  2.62851040e-01  2.62851040e-01  2.62851040e-01  2.62851040e-01  2.62851040e-01  9.50527698e-10 -2.80593326e-10  1.00000000e+00 
 7.30000000e-01  2.71877741e-01  2.71877741e-01  2.71877741e-01  2.71877741e-01  2.71877741e-01  2.71877741e-01  2.71877741e-01  1.21264244e-09 -2.48206788e-10  1.00000000e+00 
 7.40000000e-01  2.80712532e-01  2.80712532e-01  2.80712532e-01  2.80712532e-01  2.80712532e-01  2.80712532e-01  2.80712532e-01  1.53775534e-09 -2.32873276e-10  1.00000000e+00 
 7.50000000e-01  2.89351988e-01  2.89351988e-01  2.89351988e-01  2.89351988e-01  2.89351988e-01  2.89351988e-01  2.89351988e-01  1.93839583e-09 -2.32304842e-10  1.00000000e+00 
 7.60000000e-01  2.97795241e-01  2.97795241e-01  2.97795241e-01  2.97795241e-01  2.97795241e-01  2.97795241e-01  2.97795241e-01  2.42888026e-09 -2.44909870e-10  1.00000000e+00 
 7.70000000e-01  3.06046343e-01  3.06046343e-01  3.06046343e-01  3.06046343e-01  3.06046343e-01  3.06046343e-01  3.06046343e-01  3.02584191e-09 -2.70063083e-10  1.00000000e+00 
 7.80000000e-01  3.14111920e-01  3.14111920e-01  3.14111920e-01  3.14111920e-01  3.14111920e-01  3.14111920e-01  3.14111920e-01  3.74834080e-09 -3.06769721e-10  1.00000000e+00 
 7.90000000e-01  3.22001025e-01  3.22001025e-01  3.22001025e-01  3.22001025e-01  3.22001025e-01  3.22001025e-01  3.22001025e-01  4.61849381e-09 -3.52912366e-10  1.00000000e+00 
 8.00000000e-01  3.29724413e-01  3.29724413e-01  3.29724413e-01  3.29724413e-01  3.29724413e-01  3.29724413e-01  3.29724413e-01  5.66187885e-09 -3.99793976e-10  1.00000000e+00 
 8.10000000e-01  3.37295272e-01  3.37295272e-01  3.37295272e-01  3.37295272e-01  3.37295272e-01  3.37295272e-01  3.37295272e-01  6.90830093e-09 -4.24222435e-10  1.00000000e+00 
 8.20000000e-01  3.44727023e-01  3.44727024e-01  3.44727023e-01  3.44727024e-01  3.44727024e-01  3.44727023e-01  3.44727024e-01  8.39259728e-09 -4.06828349e-10  1.00000000e+00 
 8.30000000e-01  3.52034867e-01  3.52034868e-01  3.52034867e-01  3.52034867e-01  3.52034868e-01  3.52034867e-01  3.52034867e-01  1.01554611e-08 -3.57090357e-10  1.00000000e+00 
 8.40000000e-01  3.59233815e-01  3.59233815e-01  3.59233815e-01  3.59233815e-01  3.59233815e-01  3.59233815e-01  3.59233815e-01  1.22448518e-08 -2.94917868e-10  1.00000000e+00 
 8.50000000e-01  3.66338644e-01  3.66338644e-01  3.66338644e-01  3.66338644e-01  3.66338644e-01  3.66338644e-01  3.66338644e-01  1.47171211e-08 -2.34877007e-10  1.00000000e+00 
 8.60000000e-01  3.73364097e-01  3.73364097e-01  3.73364097e-01  3.73364097e-01  3.73364097e-01  3.73364097e-01  3.73364097e-01  1.76388801e-08 -1.83078441e-10  1.00000000e+00 
 8.70000000e-01  3.80323801e-01  3.80323801e-01  3.80323801e-01  3.80323801e-01  3.80323801e-01  3.80323801e-01  3.80323801e-01  2.10885582e-08 -1.40857992e-10  1.00000000e+00 
 8.80000000e-01  3.87230435e-01  3.87230435e-01  3.87230435e-01  3.87230435e-01  3.87230435e-01  3.87230435e-01  3.87230435e-01  2.51586436e-08 -1.07490905e-10  1.00000000e+00 
 8.90000000e-01  3.94095124e-01  3.94095124e-01  3.94095124e-01  3.94095124e-01  3.94095124e-01  3.94095124e-01  3.94095124e-01  2.99578380e-08 -8.16271495e-11  1.00000000e+00 
 9.00000000e-01  4.00927180e-01  4.00927180e-01  4.00927180e-01  4.00927180e-01  4.00927180e-01  4.00927180e-01  4.00927180e-01  3.56134819e-08 -6.17603746e-11  1.00000000e+00 
 9.10000000e-01  4.07733384e-01  4.07733384e-01  4.07733384e-01  4.07733384e-01  4.07733384e-01  4.07733384e-01  4.07733384e-01  4.22736375e-08 -4.65973926e-11  1.00000000e+00 
 9.20000000e-01  4.14517573e-01  4.14517573e-01  4.14517573e-01  4.14517573e-01  4.14517573e-01  4.14517573e-01  4.14517573e-01  5.01087953e-08 -3.51292329e-11  1.00000000e+00 
 9.30000000e-01  4.21279601e-01  4.21279601e-01  4.21279601e-01  4.21279601e-01  4.21279601e-01  4.21279601e-01  4.21279601e-01  5.93122182e-08 -2.64037681e-11  1.00000000e+00 
 9.40000000e-01  4.28014368e-01  4.28014368e-01  4.28014368e-01  4.28014368e-01  4.28014368e-01  4.28014368e-01  4.28014368e-01  7.00977552e-08 -1.97672989e-11  1.00000000e+00 
 9.50000000e-01  4.34710197e-01  4.34710197e-01  4.34710197e-01  4.34710197e-01  4.34710197e-01  4.34710197e-01  4.34710197e-01  8.26932318e-08 -1.46940238e-11  1.00000000e+00 
 9.60000000e-01  4.41347120e-01  4.41347120e-01  4.41347120e-01  4.41347120e-01  4.41347120e-01  4.41347120e-01  4.41347120e-01  9.73273533e-08 -1.07291953e-11  1.00000000e+00 
 9.70000000e-01  4.47894760e-01  4.47894761e-01  4.47894760e-01  4.47894760e-01  4.47894761e-01  4.47894760e-01  4.47894760e-01  1.14204916e-07 -7.71649411e-12  1.00000000e+00 
 9.80000000e-01  4.54310054e-01  4.54310054e-01  4.54310054e-01  4.54310054e-01  4.54310054e-01  4.54310054e-01  4.54310054e-01  1.33468678e-07 -5.37170308e-12  1.00000000e+00 
 9.90000000e-01  4.60535600e-01  4.60535600e-01  4.60535600e-01  4.60535600e-01  4.60535600e-01  4.60535600e-01  4.60535600e-01  1.55144436e-07 -3.51008111e-12  1.00000000e+00 
 1.00000000e+00  4.66499562e-01  4.66499563e-01  4.66499563e-01  4.66499563e-01  4.66499563e-01  4.66499562e-01  4.66499563e-01  1.79074338e-07 -1.98951966e-12  1.00000000e+00 
 1.01000000e+00  4.72117923e-01  4.72117923e-01  4.72117923e-01  4.72117923e-01  4.72117923e-01  4.72117923e-01  4.72117923e-01  2.04849297e-07 -6.96331881e-13  1.00000000e+00 
 1.02000000e+00  4.77298291e-01  4.77298291e-01  4.77298291e-01  4.77298291e-01  4.77298291e-01  4.77298291e-01  4.77298291e-01  2.31755752e-07  3.97903932e-13  1.00000000e+00 
 1.03000000e+00  4.81941479e-01  4.81941479e-01  4.81941479e-01  4.81941479e-01  4.81941479e-01  4.81941479e-01  4.81941479e-01  2.58736112e-07  1.44950718e-12  1.00000000e+00 
 1.04000000e+00  4.85938254e-01  4.85938254e-01  4.85938254e-01  4.85938254e-01  4.85938254e-01  4.85938254e-01  4.85938254e-01  2.84352822e-07  2.40163445e-12  1.00000000e+00 
 1.05000000e+00  4.89153100e-01  4.89153100e-01  4.89153100e-01  4.89153100e-01  4.89153100e-01  4.89153100e-01  4.89153100e-01  3.06750497e-07  3.41060513e-12  1.00000000e+00 
 1.06000000e+00  4.91508865e-01  4.91508865e-01  4.91508865e-01  4.91508865e-01  4.91508865e-01  4.91508865e-01  4.91508865e-01  3.24199810e-07  4.43378667e-12  1.00000000e+00 
 1.07000000e+00  4.92991459e-01  4.92991459e-01  4.92991459e-01  4.92991459e-01  4.92991459e-01  4.92991459e-01  4.92991459e-01  3.35664602e-07  5.54223334e-12  1.00000000e+00 
 1.08000000e+00  4.93786903e-01  4.93786903e-01  4.93786903e-01  4.93786903e-01  4.93786903e-01  4.93786903e-01  4.93786903e-01  3.41931937e-07  6.87805368e-12  1.00000000e+00 
 1.09000000e+00  4.94141653e-01  4.94141653e-01  4.94141653e-01  4.94141653e-01  4.94141653e-01  4.94141653e-01  4.94141653e-01  3.44807468e-07  8.56914539e-12  1.00000000e+00 
 1.10000000e+00  4.94294584e-01  4.94294584e-01  4.94294584e-01  4.94294584e-01  4.94294584e-01  4.94294584e-01  4.94294584e-01  3.46057295e-07  1.08286713e-11  1.00000000e+00 
