 v-sweep         v(b0)           v(b1)           v(b2)           v(b3)           v(b4)           v(b5)           v(b6)           i(vbias)        i(viout)        v(vout)        
 0.00000000e+00 -2.69840345e-21 -2.69840341e-21 -2.69840346e-21 -2.69840345e-21 -2.69840346e-21 -2.69840345e-21 -6.47931545e-20 -5.12447866e-30 -5.07588862e-03  1.00000000e+00 
 1.00000000e-02  1.80045657e-03  1.80045656e-03  1.80045657e-03  1.80045657e-03  1.80045657e-03  1.80045657e-03  1.87493176e-03  1.22869142e-14 -4.63891266e-03  1.00000000e+00 
 2.00000000e-02  3.56447784e-03  3.56447783e-03  3.56447784e-03  3.56447784e-03  3.56447784e-03  3.56447784e-03  3.38612347e-03  2.39169985e-14 -4.21517991e-03  1.00000000e+00 
 3.00000000e-02  5.29441855e-03  5.29441854e-03  5.29441854e-03  5.29441855e-03  5.29441854e-03  5.29441855e-03  4.47464004e-03  3.50421732e-14 -3.80595336e-03  1.00000000e+00 
 4.00000000e-02  7.00035862e-03  7.00035861e-03  7.00035861e-03  7.00035862e-03  7.00035861e-03  7.00035862e-03  5.12962950e-03  4.57739315e-14 -3.41263281e-03  1.00000000e+00 
 5.00000000e-02  8.67646546e-03  8.67646545e-03  8.67646545e-03  8.67646547e-03  8.67646546e-03  8.67646546e-03  5.38090978e-03  5.62534130e-14 -3.03673559e-03  1.00000000e+00 
 6.00000000e-02  1.03398262e-02  1.03398262e-02  1.03398262e-02  1.03398262e-02  1.03398262e-02  1.03398262e-02  5.30390535e-03  6.64797739e-14 -2.67985788e-03  1.00000000e+00 
 7.00000000e-02  1.19753291e-02  1.19753291e-02  1.19753291e-02  1.19753291e-02  1.19753291e-02  1.19753291e-02  4.98547248e-03  7.65649141e-14 -2.34365292e-03  1.00000000e+00 
 8.00000000e-02  1.36213346e-02  1.36213346e-02  1.36213346e-02  1.36213346e-02  1.36213346e-02  1.36213346e-02  4.52184517e-03  8.64988758e-14 -2.02977271e-03  1.00000000e+00 
 9.00000000e-02  1.52363537e-02  1.52363537e-02  1.52363537e-02  1.52363537e-02  1.52363537e-02  1.52363537e-02  3.98441762e-03  9.64032185e-14 -1.73969680e-03  1.00000000e+00 
 1.00000000e-01  1.68597822e-02  1.68597821e-02  1.68597821e-02  1.68597822e-02  1.68597821e-02  1.68597822e-02  3.43422897e-03  1.06208574e-13 -1.47494880e-03  1.00000000e+00 
 1.10000000e-01  1.84828663e-02  1.84828662e-02  1.84828662e-02  1.84828663e-02  1.84828662e-02  1.84828663e-02  2.90899733e-03  1.15923608e-13 -1.23636678e-03  1.00000000e+00 
 1.20000000e-01  2.00996577e-02  2.00996576e-02  2.00996577e-02  2.00996577e-02  2.00996577e-02  2.00996577e-02  2.42974408e-03  1.25638357e-13 -1.02454043e-03  1.00000000e+00 
 1.30000000e-01  2.17032600e-02  2.17032600e-02  2.17032600e-02  2.17032600e-02  2.17032600e-02  2.17032600e-02  2.00691627e-03  1.35325914e-13 -8.39443448e-04  1.00000000e+00 
 1.40000000e-01  2.33282695e-02  2.33282695e-02  2.33282695e-02  2.33282696e-02  2.33282695e-02  2.33282695e-02  1.64347753e-03  1.44943194e-13 -6.80326753e-04  1.00000000e+00 
 1.50000000e-01  2.49303855e-02  2.49303855e-02  2.49303855e-02  2.49303855e-02  2.49303855e-02  2.49303855e-02  1.33603307e-03  1.54649351e-13 -5.45827942e-04  1.00000000e+00 
 1.60000000e-01  2.65408398e-02  2.65408398e-02  2.65408398e-02  2.65408399e-02  2.65408398e-02  2.65408399e-02  1.07985321e-03  1.64296636e-13 -4.33979977e-04  1.00000000e+00 
 1.70000000e-01  2.81527290e-02  2.81527289e-02  2.81527290e-02  2.81527290e-02  2.81527290e-02  2.81527290e-02  8.68616168e-04  1.73879289e-13 -3.42377337e-04  1.00000000e+00 
 1.80000000e-01  2.97514530e-02  2.97514530e-02  2.97514530e-02  2.97514530e-02  2.97514530e-02  2.97514530e-02  6.95838853e-04  1.83519880e-13 -2.68418754e-04  1.00000000e+00 
 1.90000000e-01  3.13223121e-02  3.13223121e-02  3.13223121e-02  3.13223122e-02  3.13223121e-02  3.13223121e-02  5.55540745e-04  1.93167110e-13 -2.09444045e-04  1.00000000e+00 
 2.00000000e-01  3.28889646e-02  3.28889645e-02  3.28889645e-02  3.28889646e-02  3.28889646e-02  3.28889646e-02  4.42257107e-04  2.02752284e-13 -1.62873713e-04  1.00000000e+00 
 2.10000000e-01  3.44623622e-02  3.44623622e-02  3.44623622e-02  3.44623622e-02  3.44623622e-02  3.44623622e-02  3.51223520e-04  2.12493922e-13 -1.26393987e-04  1.00000000e+00 
 2.20000000e-01  3.60242209e-02  3.60242208e-02  3.60242209e-02  3.60242209e-02  3.60242209e-02  3.60242209e-02  2.78353315e-04  2.22192314e-13 -9.79885513e-05  1.00000000e+00 
 2.30000000e-01  3.75378174e-02  3.75378174e-02  3.75378174e-02  3.75378174e-02  3.75378174e-02  3.75378174e-02  2.20170460e-04  2.31839450e-13 -7.59453346e-05  1.00000000e+00 
 2.40000000e-01  3.90695627e-02  3.90695626e-02  3.90695626e-02  3.90695627e-02  3.90695627e-02  3.90695627e-02  1.73889548e-04  2.41610809e-13 -5.88990764e-05  1.00000000e+00 
 2.50000000e-01  4.05568783e-02  4.05568783e-02  4.05568783e-02  4.05568783e-02  4.05568783e-02  4.05568783e-02  1.37139460e-04  2.51445295e-13 -4.57134509e-05  1.00000000e+00 
 2.60000000e-01  4.20387283e-02  4.20387283e-02  4.20387283e-02  4.20387284e-02  4.20387283e-02  4.20387283e-02  1.08031138e-04  2.61274130e-13 -3.55411640e-05  1.00000000e+00 
 2.70000000e-01  4.34951133e-02  4.34951132e-02  4.34951133e-02  4.34951133e-02  4.34951133e-02  4.34951133e-02  8.50130515e-05  2.71502127e-13 -2.76751533e-05  1.00000000e+00 
 2.80000000e-01  4.49067885e-02  4.49067885e-02  4.49067885e-02  4.49067886e-02  4.49067885e-02  4.49067885e-02  6.68388225e-05  2.81607908e-13 -2.15823046e-05  1.00000000e+00 
 2.90000000e-01  4.63206750e-02  4.63206750e-02  4.63206750e-02  4.63206750e-02  4.63206750e-02  4.63206750e-02  5.25138207e-05  2.92024624e-13 -1.68705002e-05  1.00000000e+00 
 3.00000000e-01  4.76981759e-02  4.76981759e-02  4.76981759e-02  4.76981760e-02  4.76981759e-02  4.76981760e-02  4.12343229e-05  3.02650429e-13 -1.31811039e-05  1.00000000e+00 
 3.10000000e-01  4.90771250e-02  4.90771250e-02  4.90771250e-02  4.90771251e-02  4.90771250e-02  4.90771251e-02  3.23637507e-05  3.13786594e-13 -1.03157477e-05  1.00000000e+00 
 3.20000000e-01  5.03704124e-02  5.03704123e-02  5.03704124e-02  5.03704124e-02  5.03704124e-02  5.03704124e-02  2.53913168e-05  3.25487684e-13 -8.10390856e-06  1.00000000e+00 
 3.30000000e-01  5.17171582e-02  5.17171582e-02  5.17171582e-02  5.17171582e-02  5.17171582e-02  5.17171582e-02  1.99189998e-05  3.37841598e-13 -6.37394052e-06  1.00000000e+00 
 3.40000000e-01  5.30086445e-02  5.30086445e-02  5.30086445e-02  5.30086445e-02  5.30086445e-02  5.30086445e-02  1.56246082e-05  3.51241199e-13 -5.01689064e-06  1.00000000e+00 
 3.50000000e-01  5.43079042e-02  5.43079042e-02  5.43079042e-02  5.43079042e-02  5.43079042e-02  5.43079042e-02  1.22574071e-05  3.65941462e-13 -3.94770979e-06  1.00000000e+00 
 3.60000000e-01  5.55773759e-02  5.55773758e-02  5.55773758e-02  5.55773759e-02  5.55773758e-02  5.55773759e-02  9.61796344e-06  3.82720873e-13 -3.11381547e-06  1.00000000e+00 
 3.70000000e-01  5.68209924e-02  5.68209923e-02  5.68209923e-02  5.68209924e-02  5.68209923e-02  5.68209924e-02  7.54972890e-06  4.01952966e-13 -2.45434873e-06  1.00000000e+00 
 3.80000000e-01  5.80633133e-02  5.80633133e-02  5.80633133e-02  5.80633134e-02  5.80633133e-02  5.80633134e-02  5.92957281e-06  4.24817408e-13 -1.93988237e-06  1.00000000e+00 
 3.90000000e-01  5.93244721e-02  5.93244720e-02  5.93244720e-02  5.93244721e-02  5.93244720e-02  5.93244721e-02  4.66055875e-06  4.52393304e-13 -1.52682571e-06  1.00000000e+00 
 4.00000000e-01  6.05994406e-02  6.05994406e-02  6.05994406e-02  6.05994406e-02  6.05994406e-02  6.05994406e-02  3.66651859e-06  4.86468233e-13 -1.20844615e-06  1.00000000e+00 
 4.10000000e-01  6.18666505e-02  6.18666505e-02  6.18666505e-02  6.18666506e-02  6.18666505e-02  6.18666506e-02  2.88769466e-06  5.29310103e-13 -9.50674519e-07  1.00000000e+00 
 4.20000000e-01  6.31705162e-02  6.31705162e-02  6.31705162e-02  6.31705162e-02  6.31705162e-02  6.31705162e-02  2.27737073e-06  5.84273569e-13 -7.51333431e-07  1.00000000e+00 
 4.30000000e-01  6.45299168e-02  6.45299167e-02  6.45299168e-02  6.45299168e-02  6.45299168e-02  6.45299168e-02  1.79888249e-06  6.55125476e-13 -5.93653027e-07  1.00000000e+00 
 4.40000000e-01  6.59856599e-02  6.59856599e-02  6.59856599e-02  6.59856600e-02  6.59856599e-02  6.59856599e-02  1.42354417e-06  7.48066702e-13 -4.67392823e-07  1.00000000e+00 
 4.50000000e-01  6.75354931e-02  6.75354930e-02  6.75354931e-02  6.75354931e-02  6.75354931e-02  6.75354931e-02  1.12887885e-06  8.70530698e-13 -3.69519285e-07  1.00000000e+00 
 4.60000000e-01  6.92271459e-02  6.92271458e-02  6.92271458e-02  6.92271459e-02  6.92271458e-02  6.92271459e-02  8.97339168e-07  1.03322581e-12 -2.94027814e-07  1.00000000e+00 
 4.70000000e-01  7.10902654e-02  7.10902653e-02  7.10902653e-02  7.10902654e-02  7.10902654e-02  7.10902654e-02  7.15195561e-07  1.25079482e-12 -2.33265496e-07  1.00000000e+00 
 4.80000000e-01  7.31926624e-02  7.31926623e-02  7.31926624e-02  7.31926624e-02  7.31926624e-02  7.31926624e-02  5.71725866e-07  1.54344332e-12 -1.86236662e-07  1.00000000e+00 
 4.90000000e-01  7.56553474e-02  7.56553473e-02  7.56553473e-02  7.56553474e-02  7.56553474e-02  7.56553474e-02  4.58554207e-07  1.93852107e-12 -1.48116555e-07  1.00000000e+00 
 5.00000000e-01  7.85024887e-02  7.85024887e-02  7.85024887e-02  7.85024888e-02  7.85024887e-02  7.85024887e-02  3.69118863e-07  2.47465763e-12 -1.16866488e-07  1.00000000e+00 
 5.10000000e-01  8.18852500e-02  8.18852499e-02  8.18852500e-02  8.18852500e-02  8.18852500e-02  8.18852500e-02  2.98307306e-07  3.20354659e-12 -9.09924438e-08  1.00000000e+00 
 5.20000000e-01  8.58618585e-02  8.58618585e-02  8.58618585e-02  8.58618585e-02  8.58618585e-02  8.58618585e-02  2.42115064e-07  4.19901288e-12 -7.02631837e-08  1.00000000e+00 
 5.30000000e-01  9.05581376e-02  9.05581376e-02  9.05581376e-02  9.05581377e-02  9.05581376e-02  9.05581377e-02  1.97417488e-07  5.55349603e-12 -5.38019549e-08  1.00000000e+00 
 5.40000000e-01  9.59997320e-02  9.59997319e-02  9.59997319e-02  9.59997320e-02  9.59997319e-02  9.59997320e-02  1.61767359e-07  7.39459535e-12 -4.09127381e-08  1.00000000e+00 
 5.50000000e-01  1.02261484e-01  1.02261484e-01  1.02261484e-01  1.02261484e-01  1.02261484e-01  1.02261484e-01  1.33254469e-07  9.90039040e-12 -3.10215853e-08  1.00000000e+00 
 5.60000000e-01  1.09298387e-01  1.09298387e-01  1.09298387e-01  1.09298387e-01  1.09298387e-01  1.09298387e-01  1.10380511e-07  1.32948661e-11 -2.34705624e-08  1.00000000e+00 
 5.70000000e-01  1.17031239e-01  1.17031239e-01  1.17031239e-01  1.17031239e-01  1.17031239e-01  1.17031239e-01  9.19724528e-08  1.78767955e-11 -1.77346919e-08  1.00000000e+00 
 5.80000000e-01  1.25386727e-01  1.25386727e-01  1.25386727e-01  1.25386727e-01  1.25386727e-01  1.25386727e-01  7.71098164e-08  2.40253546e-11 -1.33885010e-08  1.00000000e+00 
 5.90000000e-01  1.34254423e-01  1.34254423e-01  1.34254423e-01  1.34254423e-01  1.34254423e-01  1.34254423e-01  6.50684453e-08  3.22961050e-11 -1.01019282e-08  1.00000000e+00 
 6.00000000e-01  1.43540778e-01  1.43540778e-01  1.43540778e-01  1.43540778e-01  1.43540778e-01  1.43540778e-01  5.52777541e-08  4.33462710e-11 -7.61966135e-09  1.00000000e+00 
 6.10000000e-01  1.53141934e-01  1.53141934e-01  1.53141934e-01  1.53141934e-01  1.53141934e-01  1.53141934e-01  4.72869275e-08  5.81334113e-11 -5.74559067e-09  1.00000000e+00 
 6.20000000e-01  1.62973339e-01  1.62973339e-01  1.62973339e-01  1.62973339e-01  1.62973339e-01  1.62973339e-01  4.07391687e-08  7.77804626e-11 -4.33240643e-09  1.00000000e+00 
 6.30000000e-01  1.72938833e-01  1.72938832e-01  1.72938833e-01  1.72938833e-01  1.72938833e-01  1.72938833e-01  3.53513901e-08  1.03883818e-10 -3.26701866e-09  1.00000000e+00 
 6.40000000e-01  1.82978873e-01  1.82978873e-01  1.82978873e-01  1.82978873e-01  1.82978873e-01  1.82978873e-01  3.08986458e-08  1.38307692e-10 -2.46424747e-09  1.00000000e+00 
 6.50000000e-01  1.93029782e-01  1.93029782e-01  1.93029782e-01  1.93029782e-01  1.93029782e-01  1.93029782e-01  2.72017653e-08  1.83530247e-10 -1.85957560e-09  1.00000000e+00 
 6.60000000e-01  2.03048907e-01  2.03048906e-01  2.03048906e-01  2.03048907e-01  2.03048906e-01  2.03048907e-01  2.41178059e-08  2.42714571e-10 -1.40445877e-09  1.00000000e+00 
 6.70000000e-01  2.13004091e-01  2.13004090e-01  2.13004090e-01  2.13004091e-01  2.13004090e-01  2.13004091e-01  2.15324906e-08  3.19598265e-10 -1.06223297e-09  1.00000000e+00 
 6.80000000e-01  2.22852448e-01  2.22852448e-01  2.22852448e-01  2.22852448e-01  2.22852448e-01  2.22852448e-01  1.93542553e-08  4.18929863e-10 -8.05101763e-10  1.00000000e+00 
 6.90000000e-01  2.32570233e-01  2.32570233e-01  2.32570233e-01  2.32570233e-01  2.32570233e-01  2.32570233e-01  1.75095968e-08  5.46479362e-10 -6.12601525e-10  1.00000000e+00 
 7.00000000e-01  2.42138944e-01  2.42138944e-01  2.42138944e-01  2.42138944e-01  2.42138944e-01  2.42138944e-01  1.59393539e-08  7.09094561e-10 -4.68929784e-10  1.00000000e+00 
 7.10000000e-01  2.51539402e-01  2.51539401e-01  2.51539402e-01  2.51539402e-01  2.51539402e-01  2.51539402e-01  1.45957785e-08  9.15037934e-10 -3.62234687e-10  1.00000000e+00 
 7.20000000e-01  2.60757406e-01  2.60757406e-01  2.60757406e-01  2.60757406e-01  2.60757406e-01  2.60757406e-01  1.34402234e-08  1.17403087e-09 -2.83961299e-10  1.00000000e+00 
 7.30000000e-01  2.69784350e-01  2.69784350e-01  2.69784350e-01  2.69784350e-01  2.69784350e-01  2.69784350e-01  1.24413082e-08  1.49730128e-09 -2.27657893e-10  1.00000000e+00 
 7.40000000e-01  2.78612077e-01  2.78612077e-01  2.78612077e-01  2.78612077e-01  2.78612077e-01  2.78612077e-01  1.15734641e-08  1.89803029e-09 -1.88208560e-10  1.00000000e+00 
 7.50000000e-01  2.87237160e-01  2.87237160e-01  2.87237160e-01  2.87237160e-01  2.87237160e-01  2.87237160e-01  1.08157846e-08  2.39125009e-09 -1.62458491e-10  1.00000000e+00 
 7.60000000e-01  2.95659584e-01  2.95659584e-01  2.95659584e-01  2.95659584e-01  2.95659584e-01  2.95659584e-01  1.01511111e-08  2.99425706e-09 -1.47537094e-10  1.00000000e+00 
 7.70000000e-01  3.03881063e-01  3.03881063e-01  3.03881063e-01  3.03881063e-01  3.03881063e-01  3.03881063e-01  9.56530668e-09  3.72686837e-09 -1.41682222e-10  1.00000000e+00 
 7.80000000e-01  3.11906386e-01  3.11906386e-01  3.11906386e-01  3.11906386e-01  3.11906386e-01  3.11906386e-01  9.04667831e-09  4.61143967e-09 -1.43614898e-10  1.00000000e+00 
 7.90000000e-01  3.19742194e-01  3.19742194e-01  3.19742194e-01  3.19742194e-01  3.19742194e-01  3.19742194e-01  8.58551606e-09  5.67361225e-09 -1.51658242e-10  1.00000000e+00 
 8.00000000e-01  3.27396639e-01  3.27396639e-01  3.27396639e-01  3.27396639e-01  3.27396639e-01  3.27396639e-01  8.17372469e-09  6.94249946e-09 -1.63396408e-10  1.00000000e+00 
 8.10000000e-01  3.34878520e-01  3.34878520e-01  3.34878520e-01  3.34878520e-01  3.34878520e-01  3.34878520e-01  7.80452792e-09  8.45103854e-09 -1.71752390e-10  1.00000000e+00 
 8.20000000e-01  3.42197093e-01  3.42197093e-01  3.42197093e-01  3.42197093e-01  3.42197093e-01  3.42197093e-01  7.47223142e-09  1.02363318e-08 -1.66863856e-10  1.00000000e+00 
 8.30000000e-01  3.49359613e-01  3.49359613e-01  3.49359613e-01  3.49359613e-01  3.49359613e-01  3.49359613e-01  7.17203071e-09  1.23400508e-08 -1.48475010e-10  1.00000000e+00 
 8.40000000e-01  3.56372508e-01  3.56372508e-01  3.56372508e-01  3.56372508e-01  3.56372508e-01  3.56372508e-01  6.89985692e-09  1.48080144e-08 -1.23463906e-10  1.00000000e+00 
 8.50000000e-01  3.63238043e-01  3.63238043e-01  3.63238043e-01  3.63238043e-01  3.63238043e-01  3.63238043e-01  6.65225029e-09  1.76895334e-08 -9.84528015e-11  1.00000000e+00 
 8.60000000e-01  3.69953702e-01  3.69953702e-01  3.69953702e-01  3.69953702e-01  3.69953702e-01  3.69953702e-01  6.42625833e-09  2.10355484e-08 -7.66533503e-11  1.00000000e+00 
 8.70000000e-01  3.76510096e-01  3.76510096e-01  3.76510096e-01  3.76510096e-01  3.76510096e-01  3.76510096e-01  6.21935146e-09  2.48948577e-08 -5.88329385e-11  1.00000000e+00 
 8.80000000e-01  3.82887974e-01  3.82887974e-01  3.82887974e-01  3.82887974e-01  3.82887974e-01  3.82887974e-01  6.02935463e-09  2.93076905e-08 -4.48210358e-11  1.00000000e+00 
 8.90000000e-01  3.89056001e-01  3.89056001e-01  3.89056001e-01  3.89056001e-01  3.89056001e-01  3.89056001e-01  5.85439056e-09  3.42955317e-08 -3.41060513e-11  1.00000000e+00 
 9.00000000e-01  3.94967995e-01  3.94967995e-01  3.94967995e-01  3.94967995e-01  3.94967995e-01  3.94967995e-01  5.69283298e-09  3.98462809e-08 -2.58921773e-11  1.00000000e+00 
 9.10000000e-01  4.00561391e-01  4.00561390e-01  4.00561391e-01  4.00561391e-01  4.00561391e-01  4.00561391e-01  5.54326827e-09  4.58960301e-08 -1.96394012e-11  1.00000000e+00 
 9.20000000e-01  4.05757053e-01  4.05757053e-01  4.05757053e-01  4.05757053e-01  4.05757053e-01  4.05757053e-01  5.40446327e-09  5.23082520e-08 -1.50350843e-11  1.00000000e+00 
 9.30000000e-01  4.10457823e-01  4.10457823e-01  4.10457823e-01  4.10457823e-01  4.10457823e-01  4.10457823e-01  5.27533878e-09  5.88521232e-08 -1.14255272e-11  1.00000000e+00 
 9.40000000e-01  4.14542488e-01  4.14542488e-01  4.14542488e-01  4.14542488e-01  4.14542488e-01  4.14542488e-01  5.15494628e-09  6.51764189e-08 -8.75388650e-12  1.00000000e+00 
 9.50000000e-01  4.17841981e-01  4.17841980e-01  4.17841981e-01  4.17841981e-01  4.17841981e-01  4.17841981e-01  5.04244720e-09  7.07718293e-08 -6.79278855e-12  1.00000000e+00 
 9.60000000e-01  4.20241450e-01  4.20241450e-01  4.20241450e-01  4.20241450e-01  4.20241450e-01  4.20241450e-01  4.93710759e-09  7.51239924e-08 -5.25801624e-12  1.00000000e+00 
 9.70000000e-01  4.21703526e-01  4.21703526e-01  4.21703526e-01  4.21703526e-01  4.21703526e-01  4.21703526e-01  4.83828545e-09  7.79018592e-08 -4.03588274e-12  1.00000000e+00 
 9.80000000e-01  4.22437278e-01  4.22437278e-01  4.22437278e-01  4.22437278e-01  4.22437278e-01  4.22437278e-01  4.74543382e-09  7.93329704e-08 -3.09796633e-12  1.00000000e+00 
 9.90000000e-01  4.22764395e-01  4.22764395e-01  4.22764395e-01  4.22764395e-01  4.22764395e-01  4.22764395e-01  4.65807624e-09  7.99752087e-08 -2.27373675e-12  1.00000000e+00 
 1.00000000e+00  4.22896817e-01  4.22896817e-01  4.22896817e-01  4.22896817e-01  4.22896817e-01  4.22896817e-01  4.57577827e-09  8.02412430e-08 -1.47792889e-12  1.00000000e+00 
 1.01000000e+00  4.22956184e-01  4.22956183e-01  4.22956184e-01  4.22956184e-01  4.22956184e-01  4.22956184e-01  4.49814411e-09  8.03599463e-08 -5.68434189e-13  1.00000000e+00 
 1.02000000e+00  4.22984731e-01  4.22984731e-01  4.22984731e-01  4.22984731e-01  4.22984731e-01  4.22984731e-01  4.42481250e-09  8.04167755e-08  4.26325641e-13  1.00000000e+00 
 1.03000000e+00  4.22999507e-01  4.22999507e-01  4.22999507e-01  4.22999508e-01  4.22999507e-01  4.22999507e-01  4.35545702e-09  8.04460640e-08  1.56319402e-12  1.00000000e+00 
 1.04000000e+00  4.23007723e-01  4.23007723e-01  4.23007723e-01  4.23007723e-01  4.23007723e-01  4.23007723e-01  4.28978301e-09  8.04622857e-08  3.15480975e-12  1.00000000e+00 
 1.05000000e+00  4.23012630e-01  4.23012630e-01  4.23012630e-01  4.23012630e-01  4.23012630e-01  4.23012630e-01  4.22752439e-09  8.04719065e-08  5.14432941e-12  1.00000000e+00 
 1.06000000e+00  4.23015784e-01  4.23015784e-01  4.23015784e-01  4.23015784e-01  4.23015784e-01  4.23015784e-01  4.16844032e-09  8.04779887e-08  7.64543984e-12  1.00000000e+00 
 1.07000000e+00  4.23017963e-01  4.23017963e-01  4.23017963e-01  4.23017963e-01  4.23017963e-01  4.23017963e-01  4.11231246e-09  8.04820885e-08  1.08002496e-11  1.00000000e+00 
 1.08000000e+00  4.23019478e-01  4.23019478e-01  4.23019478e-01  4.23019478e-01  4.23019478e-01  4.23019478e-01  4.05894265e-09  8.04849378e-08  1.50919277e-11  1.00000000e+00 
 1.09000000e+00  4.23020660e-01  4.23020660e-01  4.23020660e-01  4.23020660e-01  4.23020660e-01  4.23020660e-01  4.00815063e-09  8.04870695e-08  2.06341610e-11  1.00000000e+00 
 1.10000000e+00  4.23021578e-01  4.23021578e-01  4.23021578e-01  4.23021578e-01  4.23021578e-01  4.23021578e-01  3.95977187e-09  8.04886824e-08  2.79101187e-11  1.00000000e+00 
