 v-sweep         v(b0)           v(b1)           v(b2)           v(b3)           v(b4)           v(b5)           v(b6)           i(vbias)        i(viout)        v(vout)        
 0.00000000e+00 -7.89328236e-19 -7.89328230e-19 -7.89328237e-19 -7.89328237e-19 -7.89328237e-19 -7.89328239e-19 -1.74647735e-20 -5.68160824e-32 -4.73871484e-03  1.00000000e+00 
 1.00000000e-02  1.94779582e-03  1.94779582e-03  1.94779582e-03  1.94779582e-03  1.94779582e-03  1.94779581e-03  1.91921372e-03  1.16455744e-14 -4.31182838e-03  1.00000000e+00 
 2.00000000e-02  3.87033501e-03  3.87033500e-03  3.87033500e-03  3.87033500e-03  3.87033500e-03  3.87033499e-03  3.39851827e-03  2.27668201e-14 -3.89913637e-03  1.00000000e+00 
 3.00000000e-02  5.77164176e-03  5.77164176e-03  5.77164176e-03  5.77164175e-03  5.77164176e-03  5.77164174e-03  4.40952446e-03  3.34872053e-14 -3.50199470e-03  1.00000000e+00 
 4.00000000e-02  7.65298217e-03  7.65298216e-03  7.65298216e-03  7.65298215e-03  7.65298216e-03  7.65298214e-03  4.97029873e-03  4.39073250e-14 -3.12189144e-03  1.00000000e+00 
 5.00000000e-02  9.52605582e-03  9.52605581e-03  9.52605581e-03  9.52605580e-03  9.52605581e-03  9.52605579e-03  5.14124128e-03  5.41013564e-14 -2.76040917e-03  1.00000000e+00 
 6.00000000e-02  1.13841221e-02  1.13841221e-02  1.13841221e-02  1.13841221e-02  1.13841221e-02  1.13841221e-02  5.00928450e-03  6.41252849e-14 -2.41919722e-03  1.00000000e+00 
 7.00000000e-02  1.32541182e-02  1.32541182e-02  1.32541182e-02  1.32541182e-02  1.32541182e-02  1.32541182e-02  4.66993964e-03  7.40213639e-14 -2.09991196e-03  1.00000000e+00 
 8.00000000e-02  1.51038392e-02  1.51038392e-02  1.51038392e-02  1.51038392e-02  1.51038392e-02  1.51038392e-02  4.20667542e-03  8.38223652e-14 -1.80408375e-03  1.00000000e+00 
 9.00000000e-02  1.69544406e-02  1.69544406e-02  1.69544406e-02  1.69544406e-02  1.69544406e-02  1.69544406e-02  3.69132365e-03  9.35283853e-14 -1.53326684e-03  1.00000000e+00 
 1.00000000e-01  1.88207583e-02  1.88207583e-02  1.88207583e-02  1.88207583e-02  1.88207583e-02  1.88207582e-02  3.17299292e-03  1.03224219e-13 -1.28843101e-03  1.00000000e+00 
 1.10000000e-01  2.06686090e-02  2.06686090e-02  2.06686090e-02  2.06686090e-02  2.06686090e-02  2.06686089e-02  2.68310994e-03  1.12859639e-13 -1.07021932e-03  1.00000000e+00 
 1.20000000e-01  2.25208330e-02  2.25208329e-02  2.25208329e-02  2.25208329e-02  2.25208329e-02  2.25208329e-02  2.23992778e-03  1.22409322e-13 -8.78852558e-04  1.00000000e+00 
 1.30000000e-01  2.43807406e-02  2.43807405e-02  2.43807405e-02  2.43807405e-02  2.43807405e-02  2.43807405e-02  1.85076434e-03  1.31987577e-13 -7.13736394e-04  1.00000000e+00 
 1.40000000e-01  2.62334205e-02  2.62334205e-02  2.62334205e-02  2.62334205e-02  2.62334205e-02  2.62334204e-02  1.51646377e-03  1.41520327e-13 -5.73552760e-04  1.00000000e+00 
 1.50000000e-01  2.80802085e-02  2.80802085e-02  2.80802085e-02  2.80802085e-02  2.80802085e-02  2.80802085e-02  1.23427265e-03  1.51140565e-13 -4.56589955e-04  1.00000000e+00 
 1.60000000e-01  2.99153612e-02  2.99153611e-02  2.99153611e-02  2.99153611e-02  2.99153611e-02  2.99153611e-02  9.98911332e-04  1.60690820e-13 -3.60476982e-04  1.00000000e+00 
 1.70000000e-01  3.17989596e-02  3.17989595e-02  3.17989595e-02  3.17989595e-02  3.17989595e-02  3.17989595e-02  8.04862545e-04  1.70238501e-13 -2.82634455e-04  1.00000000e+00 
 1.80000000e-01  3.36143923e-02  3.36143922e-02  3.36143922e-02  3.36143922e-02  3.36143922e-02  3.36143922e-02  6.45841411e-04  1.79746693e-13 -2.20395299e-04  1.00000000e+00 
 1.90000000e-01  3.54314149e-02  3.54314149e-02  3.54314149e-02  3.54314148e-02  3.54314149e-02  3.54314148e-02  5.16593621e-04  1.89252903e-13 -1.71176844e-04  1.00000000e+00 
 2.00000000e-01  3.72441957e-02  3.72441957e-02  3.72441957e-02  3.72441957e-02  3.72441957e-02  3.72441956e-02  4.12038908e-04  1.98853005e-13 -1.32580872e-04  1.00000000e+00 
 2.10000000e-01  3.89895441e-02  3.89895441e-02  3.89895441e-02  3.89895441e-02  3.89895441e-02  3.89895440e-02  3.27834273e-04  2.08377803e-13 -1.02535970e-04  1.00000000e+00 
 2.20000000e-01  4.07444254e-02  4.07444254e-02  4.07444254e-02  4.07444254e-02  4.07444254e-02  4.07444253e-02  2.60307109e-04  2.17964711e-13 -7.92154578e-05  1.00000000e+00 
 2.30000000e-01  4.24693273e-02  4.24693273e-02  4.24693273e-02  4.24693273e-02  4.24693273e-02  4.24693272e-02  2.06313105e-04  2.27577282e-13 -6.12166609e-05  1.00000000e+00 
 2.40000000e-01  4.41768637e-02  4.41768636e-02  4.41768636e-02  4.41768636e-02  4.41768636e-02  4.41768636e-02  1.63263520e-04  2.37225475e-13 -4.73342813e-05  1.00000000e+00 
 2.50000000e-01  4.58606127e-02  4.58606127e-02  4.58606127e-02  4.58606127e-02  4.58606127e-02  4.58606126e-02  1.29020684e-04  2.46922715e-13 -3.66512088e-05  1.00000000e+00 
 2.60000000e-01  4.74820641e-02  4.74820641e-02  4.74820641e-02  4.74820641e-02  4.74820641e-02  4.74820640e-02  1.01835091e-04  2.56687107e-13 -2.84054817e-05  1.00000000e+00 
 2.70000000e-01  4.91171555e-02  4.91171554e-02  4.91171554e-02  4.91171554e-02  4.91171554e-02  4.91171554e-02  8.02988663e-05  2.66481756e-13 -2.20533922e-05  1.00000000e+00 
 2.80000000e-01  5.06968687e-02  5.06968687e-02  5.06968687e-02  5.06968687e-02  5.06968687e-02  5.06968686e-02  6.32611428e-05  2.76335107e-13 -1.71411393e-05  1.00000000e+00 
 2.90000000e-01  5.22546818e-02  5.22546818e-02  5.22546818e-02  5.22546818e-02  5.22546818e-02  5.22546817e-02  4.98020952e-05  2.86614123e-13 -1.33656589e-05  1.00000000e+00 
 3.00000000e-01  5.37670107e-02  5.37670107e-02  5.37670107e-02  5.37670107e-02  5.37670107e-02  5.37670106e-02  3.91826985e-05  2.97001932e-13 -1.04258220e-05  1.00000000e+00 
 3.10000000e-01  5.52849369e-02  5.52849369e-02  5.52849369e-02  5.52849369e-02  5.52849369e-02  5.52849368e-02  3.08140088e-05  3.07633625e-13 -8.14875503e-06  1.00000000e+00 
 3.20000000e-01  5.67383831e-02  5.67383831e-02  5.67383831e-02  5.67383830e-02  5.67383831e-02  5.67383830e-02  2.42241561e-05  3.18641001e-13 -6.38075578e-06  1.00000000e+00 
 3.30000000e-01  5.82012561e-02  5.82012560e-02  5.82012560e-02  5.82012560e-02  5.82012560e-02  5.82012560e-02  1.90400380e-05  3.30288836e-13 -5.00273825e-06  1.00000000e+00 
 3.40000000e-01  5.95709403e-02  5.95709403e-02  5.95709403e-02  5.95709403e-02  5.95709403e-02  5.95709402e-02  1.49638050e-05  3.42843050e-13 -3.93405729e-06  1.00000000e+00 
 3.50000000e-01  6.09674818e-02  6.09674818e-02  6.09674818e-02  6.09674818e-02  6.09674818e-02  6.09674817e-02  1.17613847e-05  3.56399900e-13 -3.08323759e-06  1.00000000e+00 
 3.60000000e-01  6.23454056e-02  6.23454056e-02  6.23454056e-02  6.23454055e-02  6.23454056e-02  6.23454055e-02  9.24630504e-06  3.71453248e-13 -2.42668062e-06  1.00000000e+00 
 3.70000000e-01  6.36693942e-02  6.36693941e-02  6.36693941e-02  6.36693941e-02  6.36693941e-02  6.36693941e-02  7.27163723e-06  3.88505553e-13 -1.91017332e-06  1.00000000e+00 
 3.80000000e-01  6.49910786e-02  6.49910786e-02  6.49910786e-02  6.49910785e-02  6.49910786e-02  6.49910785e-02  5.72177223e-06  4.08210195e-13 -1.50715280e-06  1.00000000e+00 
 3.90000000e-01  6.63369091e-02  6.63369091e-02  6.63369091e-02  6.63369091e-02  6.63369091e-02  6.63369090e-02  4.50549916e-06  4.31763214e-13 -1.18873383e-06  1.00000000e+00 
 4.00000000e-01  6.76668011e-02  6.76668010e-02  6.76668010e-02  6.76668010e-02  6.76668010e-02  6.76668009e-02  3.55094262e-06  4.60217788e-13 -9.34432236e-07  1.00000000e+00 
 4.10000000e-01  6.89787875e-02  6.89787875e-02  6.89787875e-02  6.89787875e-02  6.89787875e-02  6.89787874e-02  2.80168525e-06  4.95819070e-13 -7.38606204e-07  1.00000000e+00 
 4.20000000e-01  7.03337207e-02  7.03337206e-02  7.03337206e-02  7.03337206e-02  7.03337206e-02  7.03337205e-02  2.21345810e-06  5.40449358e-13 -5.83092799e-07  1.00000000e+00 
 4.30000000e-01  7.17150249e-02  7.17150249e-02  7.17150248e-02  7.17150248e-02  7.17150248e-02  7.17150248e-02  1.75144445e-06  5.98236684e-13 -4.59330963e-07  1.00000000e+00 
 4.40000000e-01  7.31575253e-02  7.31575253e-02  7.31575252e-02  7.31575252e-02  7.31575252e-02  7.31575252e-02  1.38836687e-06  6.72638567e-13 -3.64687935e-07  1.00000000e+00 
 4.50000000e-01  7.46732334e-02  7.46732333e-02  7.46732333e-02  7.46732333e-02  7.46732333e-02  7.46732333e-02  1.10282869e-06  7.70935426e-13 -2.89023646e-07  1.00000000e+00 
 4.60000000e-01  7.63264306e-02  7.63264306e-02  7.63264306e-02  7.63264306e-02  7.63264306e-02  7.63264305e-02  8.78075511e-07  9.01151712e-13 -2.29751848e-07  1.00000000e+00 
 4.70000000e-01  7.81317200e-02  7.81317200e-02  7.81317200e-02  7.81317199e-02  7.81317200e-02  7.81317199e-02  7.00970820e-07  1.07476679e-12 -1.83496212e-07  1.00000000e+00 
 4.80000000e-01  8.01534415e-02  8.01534415e-02  8.01534415e-02  8.01534414e-02  8.01534415e-02  8.01534414e-02  5.61236035e-07  1.30740031e-12 -1.46810535e-07  1.00000000e+00 
 4.90000000e-01  8.24441089e-02  8.24441089e-02  8.24441089e-02  8.24441088e-02  8.24441089e-02  8.24441088e-02  4.50821200e-07  1.62173980e-12 -1.17229931e-07  1.00000000e+00 
 5.00000000e-01  8.50866460e-02  8.50866460e-02  8.50866460e-02  8.50866460e-02  8.50866460e-02  8.50866459e-02  3.63426488e-07  2.04652744e-12 -9.26886514e-08  1.00000000e+00 
 5.10000000e-01  8.81633720e-02  8.81633720e-02  8.81633720e-02  8.81633720e-02  8.81633720e-02  8.81633719e-02  2.94119503e-07  2.62411322e-12 -7.24923552e-08  1.00000000e+00 
 5.20000000e-01  9.18268241e-02  9.18268241e-02  9.18268241e-02  9.18268241e-02  9.18268241e-02  9.18268240e-02  2.39040672e-07  3.41093202e-12 -5.61664848e-08  1.00000000e+00 
 5.30000000e-01  9.60878890e-02  9.60878890e-02  9.60878890e-02  9.60878890e-02  9.60878890e-02  9.60878889e-02  1.95163187e-07  4.48004578e-12 -4.31508056e-08  1.00000000e+00 
 5.40000000e-01  1.01075275e-01  1.01075275e-01  1.01075275e-01  1.01075275e-01  1.01075275e-01  1.01075275e-01  1.60119942e-07  5.93405381e-12 -3.29097247e-08  1.00000000e+00 
 5.50000000e-01  1.06815925e-01  1.06815925e-01  1.06815925e-01  1.06815925e-01  1.06815925e-01  1.06815925e-01  1.32054018e-07  7.90947212e-12 -2.49897454e-08  1.00000000e+00 
 5.60000000e-01  1.13354037e-01  1.13354037e-01  1.13354037e-01  1.13354037e-01  1.13354037e-01  1.13354037e-01  1.09509849e-07  1.05795947e-11 -1.89247231e-08  1.00000000e+00 
 5.70000000e-01  1.20614068e-01  1.20614068e-01  1.20614068e-01  1.20614068e-01  1.20614068e-01  1.20614068e-01  9.13438479e-08  1.41887353e-11 -1.43052006e-08  1.00000000e+00 
 5.80000000e-01  1.28535429e-01  1.28535429e-01  1.28535429e-01  1.28535429e-01  1.28535429e-01  1.28535429e-01  7.66576937e-08  1.90472135e-11 -1.08018270e-08  1.00000000e+00 
 5.90000000e-01  1.37044020e-01  1.37044020e-01  1.37044020e-01  1.37044020e-01  1.37044020e-01  1.37044020e-01  6.47439587e-08  2.55648272e-11 -8.15209944e-09  1.00000000e+00 
 6.00000000e-01  1.46028970e-01  1.46028970e-01  1.46028970e-01  1.46028970e-01  1.46028970e-01  1.46028970e-01  5.50444051e-08  3.42998329e-11 -6.14979001e-09  1.00000000e+00 
 6.10000000e-01  1.55389275e-01  1.55389275e-01  1.55389275e-01  1.55389275e-01  1.55389275e-01  1.55389275e-01  4.71177359e-08  4.59782681e-11 -4.63809613e-09  1.00000000e+00 
 6.20000000e-01  1.65018281e-01  1.65018281e-01  1.65018281e-01  1.65018281e-01  1.65018281e-01  1.65018281e-01  4.06142791e-08  6.15412322e-11 -3.49781715e-09  1.00000000e+00 
 6.30000000e-01  1.74847196e-01  1.74847196e-01  1.74847196e-01  1.74847196e-01  1.74847196e-01  1.74847196e-01  3.52564297e-08  8.21819765e-11 -2.63807465e-09  1.00000000e+00 
 6.40000000e-01  1.84784827e-01  1.84784827e-01  1.84784827e-01  1.84784827e-01  1.84784827e-01  1.84784827e-01  3.08232459e-08  1.09457287e-10 -1.99017336e-09  1.00000000e+00 
 6.50000000e-01  1.94764781e-01  1.94764781e-01  1.94764781e-01  1.94764781e-01  1.94764781e-01  1.94764781e-01  2.71385866e-08  1.45330123e-10 -1.50220103e-09  1.00000000e+00 
 6.60000000e-01  2.04740254e-01  2.04740253e-01  2.04740253e-01  2.04740253e-01  2.04740253e-01  2.04740253e-01  2.40617328e-08  1.92243721e-10 -1.13483622e-09  1.00000000e+00 
 6.70000000e-01  2.14657691e-01  2.14657691e-01  2.14657691e-01  2.14657691e-01  2.14657691e-01  2.14657691e-01  2.14800180e-08  2.53273742e-10 -8.58562998e-10  1.00000000e+00 
 6.80000000e-01  2.24484019e-01  2.24484019e-01  2.24484019e-01  2.24484019e-01  2.24484019e-01  2.24484019e-01  1.93030634e-08  3.32167606e-10 -6.51084520e-10  1.00000000e+00 
 6.90000000e-01  2.34192145e-01  2.34192145e-01  2.34192145e-01  2.34192145e-01  2.34192145e-01  2.34192145e-01  1.74581969e-08  4.33523259e-10 -4.95631980e-10  1.00000000e+00 
 7.00000000e-01  2.43756076e-01  2.43756076e-01  2.43756076e-01  2.43756076e-01  2.43756076e-01  2.43756075e-01  1.58868394e-08  5.62795421e-10 -3.79628773e-10  1.00000000e+00 
 7.10000000e-01  2.53159000e-01  2.53159000e-01  2.53159000e-01  2.53158999e-01  2.53159000e-01  2.53158999e-01  1.45416491e-08  7.26642246e-10 -2.93596258e-10  1.00000000e+00 
 7.20000000e-01  2.62383359e-01  2.62383359e-01  2.62383359e-01  2.62383359e-01  2.62383359e-01  2.62383359e-01  1.33842522e-08  9.32782351e-10 -2.30443220e-10  1.00000000e+00 
 7.30000000e-01  2.71419914e-01  2.71419914e-01  2.71419914e-01  2.71419914e-01  2.71419914e-01  2.71419914e-01  1.23834490e-08  1.19032664e-09 -1.85011118e-10  1.00000000e+00 
 7.40000000e-01  2.80261800e-01  2.80261800e-01  2.80261800e-01  2.80261800e-01  2.80261800e-01  2.80261800e-01  1.15137873e-08  1.50981960e-09 -1.53335122e-10  1.00000000e+00 
 7.50000000e-01  2.88906001e-01  2.88906001e-01  2.88906001e-01  2.88906001e-01  2.88906001e-01  2.88906001e-01  1.07544308e-08  1.90353355e-09 -1.32473588e-10  1.00000000e+00 
 7.60000000e-01  2.97352285e-01  2.97352285e-01  2.97352285e-01  2.97352285e-01  2.97352285e-01  2.97352285e-01  1.00882597e-08  2.38545028e-09 -1.20479626e-10  1.00000000e+00 
 7.70000000e-01  3.05603882e-01  3.05603882e-01  3.05603882e-01  3.05603882e-01  3.05603882e-01  3.05603882e-01  9.50115504e-09  2.97184977e-09 -1.16045840e-10  1.00000000e+00 
 7.80000000e-01  3.13666936e-01  3.13666936e-01  3.13666936e-01  3.13666936e-01  3.13666936e-01  3.13666936e-01  8.98142784e-09  3.68126352e-09 -1.17751142e-10  1.00000000e+00 
 7.90000000e-01  3.21549080e-01  3.21549080e-01  3.21549080e-01  3.21549079e-01  3.21549080e-01  3.21549079e-01  8.51936325e-09  4.53515181e-09 -1.24828148e-10  1.00000000e+00 
 8.00000000e-01  3.29261817e-01  3.29261817e-01  3.29261817e-01  3.29261817e-01  3.29261817e-01  3.29261817e-01  8.10685578e-09  5.55827251e-09 -1.35969458e-10  1.00000000e+00 
 8.10000000e-01  3.36816411e-01  3.36816411e-01  3.36816411e-01  3.36816411e-01  3.36816411e-01  3.36816411e-01  7.73711601e-09  6.77927003e-09 -1.46769707e-10  1.00000000e+00 
 8.20000000e-01  3.44226118e-01  3.44226118e-01  3.44226118e-01  3.44226118e-01  3.44226118e-01  3.44226118e-01  7.40443488e-09  8.23133317e-09 -1.48673962e-10  1.00000000e+00 
 8.30000000e-01  3.51504291e-01  3.51504291e-01  3.51504291e-01  3.51504291e-01  3.51504291e-01  3.51504291e-01  7.10399326e-09  9.95310057e-09 -1.37092115e-10  1.00000000e+00 
 8.40000000e-01  3.58664233e-01  3.58664233e-01  3.58664233e-01  3.58664233e-01  3.58664233e-01  3.58664233e-01  6.83170780e-09  1.19894255e-08 -1.16813226e-10  1.00000000e+00 
 8.50000000e-01  3.65718846e-01  3.65718846e-01  3.65718846e-01  3.65718846e-01  3.65718846e-01  3.65718846e-01  6.58410558e-09  1.43924863e-08 -9.43316536e-11  1.00000000e+00 
 8.60000000e-01  3.72679733e-01  3.72679733e-01  3.72679733e-01  3.72679733e-01  3.72679733e-01  3.72679733e-01  6.35822187e-09  1.72227281e-08 -7.38111794e-11  1.00000000e+00 
 8.70000000e-01  3.79556844e-01  3.79556844e-01  3.79556844e-01  3.79556844e-01  3.79556844e-01  3.79556844e-01  6.15151678e-09  2.05497170e-08 -5.67581537e-11  1.00000000e+00 
 8.80000000e-01  3.86357946e-01  3.86357946e-01  3.86357946e-01  3.86357946e-01  3.86357946e-01  3.86357946e-01  5.96180648e-09  2.44528158e-08 -4.32009983e-11  1.00000000e+00 
 8.90000000e-01  3.93087075e-01  3.93087075e-01  3.93087075e-01  3.93087075e-01  3.93087075e-01  3.93087075e-01  5.78720683e-09  2.90215034e-08 -3.26423333e-11  1.00000000e+00 
 9.00000000e-01  3.99744292e-01  3.99744292e-01  3.99744292e-01  3.99744292e-01  3.99744292e-01  3.99744292e-01  5.62608662e-09  3.43539339e-08 -2.46274112e-11  1.00000000e+00 
 9.10000000e-01  4.06323643e-01  4.06323643e-01  4.06323643e-01  4.06323643e-01  4.06323643e-01  4.06323643e-01  5.47702885e-09  4.05543110e-08 -1.84883220e-11  1.00000000e+00 
 9.20000000e-01  4.12811621e-01  4.12811621e-01  4.12811621e-01  4.12811621e-01  4.12811621e-01  4.12811620e-01  5.33879845e-09  4.77263988e-08 -1.38697942e-11  1.00000000e+00 
 9.30000000e-01  4.19184799e-01  4.19184799e-01  4.19184799e-01  4.19184799e-01  4.19184799e-01  4.19184799e-01  5.21031538e-09  5.59623103e-08 -1.03739239e-11  1.00000000e+00 
 9.40000000e-01  4.25407369e-01  4.25407369e-01  4.25407369e-01  4.25407369e-01  4.25407369e-01  4.25407369e-01  5.09063211e-09  6.53242864e-08 -7.75912667e-12  1.00000000e+00 
 9.50000000e-01  4.31428785e-01  4.31428785e-01  4.31428785e-01  4.31428785e-01  4.31428785e-01  4.31428785e-01  4.97891458e-09  7.58182477e-08 -5.72697445e-12  1.00000000e+00 
 9.60000000e-01  4.37182440e-01  4.37182440e-01  4.37182440e-01  4.37182440e-01  4.37182440e-01  4.37182440e-01  4.87442640e-09  8.73592754e-08 -4.17799129e-12  1.00000000e+00 
 9.70000000e-01  4.42585897e-01  4.42585897e-01  4.42585897e-01  4.42585897e-01  4.42585897e-01  4.42585897e-01  4.77651559e-09  9.97334446e-08 -2.98427949e-12  1.00000000e+00 
 9.80000000e-01  4.47540679e-01  4.47540679e-01  4.47540679e-01  4.47540679e-01  4.47540679e-01  4.47540679e-01  4.68460292e-09  1.12557196e-07 -2.08899564e-12  1.00000000e+00 
 9.90000000e-01  4.51929457e-01  4.51929457e-01  4.51929457e-01  4.51929457e-01  4.51929457e-01  4.51929457e-01  4.59817268e-09  1.25234262e-07 -1.35003120e-12  1.00000000e+00 
 1.00000000e+00  4.55595689e-01  4.55595689e-01  4.55595689e-01  4.55595689e-01  4.55595689e-01  4.55595689e-01  4.51676274e-09  1.36888577e-07 -7.53175300e-13  1.00000000e+00 
 1.01000000e+00  4.58414783e-01  4.58414783e-01  4.58414783e-01  4.58414783e-01  4.58414783e-01  4.58414783e-01  4.43996207e-09  1.46545339e-07 -2.84217094e-13  1.00000000e+00 
 1.02000000e+00  4.60293805e-01  4.60293805e-01  4.60293805e-01  4.60293805e-01  4.60293805e-01  4.60293805e-01  4.36740384e-09  1.53343748e-07  2.27373675e-13  1.00000000e+00 
 1.03000000e+00  4.61341970e-01  4.61341970e-01  4.61341970e-01  4.61341970e-01  4.61341970e-01  4.61341970e-01  4.29876908e-09  1.57267198e-07  6.82121026e-13  1.00000000e+00 
 1.04000000e+00  4.61850602e-01  4.61850602e-01  4.61850602e-01  4.61850602e-01  4.61850602e-01  4.61850602e-01  4.23377965e-09  1.59192680e-07  1.25055521e-12  1.00000000e+00 
 1.05000000e+00  4.62066369e-01  4.62066369e-01  4.62066369e-01  4.62066369e-01  4.62066369e-01  4.62066369e-01  4.17218234e-09  1.60031068e-07  1.90425453e-12  1.00000000e+00 
 1.06000000e+00  4.62163533e-01  4.62163533e-01  4.62163533e-01  4.62163533e-01  4.62163533e-01  4.62163532e-01  4.11374500e-09  1.60408867e-07  2.77111667e-12  1.00000000e+00 
 1.07000000e+00  4.62210322e-01  4.62210322e-01  4.62210322e-01  4.62210322e-01  4.62210322e-01  4.62210322e-01  4.05825225e-09  1.60589888e-07  3.79429821e-12  1.00000000e+00 
 1.08000000e+00  4.62234385e-01  4.62234385e-01  4.62234385e-01  4.62234385e-01  4.62234385e-01  4.62234385e-01  4.00550679e-09  1.60682752e-07  5.21538368e-12  1.00000000e+00 
 1.09000000e+00  4.62247672e-01  4.62247672e-01  4.62247672e-01  4.62247672e-01  4.62247672e-01  4.62247672e-01  3.95532845e-09  1.60733908e-07  7.03437308e-12  1.00000000e+00 
 1.10000000e+00  4.62255528e-01  4.62255528e-01  4.62255528e-01  4.62255528e-01  4.62255528e-01  4.62255528e-01  3.90755292e-09  1.60764056e-07  9.50706180e-12  1.00000000e+00 
