 v-sweep         v(b0)           v(b1)           v(b2)           v(b3)           v(b4)           v(b5)           v(b6)           i(vbias)        i(viout)        v(vout)        
 0.00000000e+00  4.54161222e-01  4.54161222e-01  4.54161222e-01  4.54161222e-01  4.54161222e-01  4.54161222e-01  4.54161222e-01  1.66071175e-07  2.11960576e-07  0.00000000e+00 
 1.00000000e-02  4.54161230e-01  4.54161230e-01  4.54161230e-01  4.54161230e-01  4.54161230e-01  4.54161230e-01  4.54161230e-01  1.66071175e-07  2.11958157e-07  1.00000000e-02 
 2.00000000e-02  4.54161241e-01  4.54161241e-01  4.54161241e-01  4.54161241e-01  4.54161241e-01  4.54161241e-01  4.54161241e-01  1.66071203e-07  2.11955962e-07  2.00000000e-02 
 3.00000000e-02  4.54161194e-01  4.54161194e-01  4.54161194e-01  4.54161194e-01  4.54161194e-01  4.54161194e-01  4.54161194e-01  1.66071118e-07  2.11953612e-07  3.00000000e-02 
 4.00000000e-02  4.54161202e-01  4.54161202e-01  4.54161202e-01  4.54161202e-01  4.54161202e-01  4.54161202e-01  4.54161202e-01  1.66071175e-07  2.11950915e-07  4.00000000e-02 
 5.00000000e-02  4.54161203e-01  4.54161203e-01  4.54161203e-01  4.54161203e-01  4.54161203e-01  4.54161203e-01  4.54161203e-01  1.66071146e-07  2.11949182e-07  5.00000000e-02 
 6.00000000e-02  4.54161144e-01  4.54161144e-01  4.54161144e-01  4.54161144e-01  4.54161144e-01  4.54161144e-01  4.54161144e-01  1.66071061e-07  2.11946059e-07  6.00000000e-02 
 7.00000000e-02  4.54161258e-01  4.54161258e-01  4.54161258e-01  4.54161258e-01  4.54161258e-01  4.54161258e-01  4.54161258e-01  1.66071231e-07  2.11944155e-07  7.00000000e-02 
 8.00000000e-02  4.54161168e-01  4.54161168e-01  4.54161168e-01  4.54161168e-01  4.54161168e-01  4.54161168e-01  4.54161168e-01  1.66071118e-07  2.11941838e-07  8.00000000e-02 
 9.00000000e-02  4.54161165e-01  4.54161165e-01  4.54161166e-01  4.54161165e-01  4.54161166e-01  4.54161166e-01  4.54161166e-01  1.66071089e-07  2.11939472e-07  9.00000000e-02 
 1.00000000e-01  4.54161269e-01  4.54161269e-01  4.54161269e-01  4.54161269e-01  4.54161269e-01  4.54161269e-01  4.54161269e-01  1.66071231e-07  2.11937746e-07  1.00000000e-01 
 1.10000000e-01  4.54161174e-01  4.54161174e-01  4.54161174e-01  4.54161174e-01  4.54161174e-01  4.54161174e-01  4.54161174e-01  1.66071146e-07  2.11934662e-07  1.10000000e-01 
 1.20000000e-01  4.54161215e-01  4.54161215e-01  4.54161215e-01  4.54161215e-01  4.54161215e-01  4.54161215e-01  4.54161215e-01  1.66071118e-07  2.11932687e-07  1.20000000e-01 
 1.30000000e-01  4.54161178e-01  4.54161178e-01  4.54161178e-01  4.54161178e-01  4.54161178e-01  4.54161178e-01  4.54161178e-01  1.66071118e-07  2.11929603e-07  1.30000000e-01 
 1.40000000e-01  4.54161184e-01  4.54161184e-01  4.54161185e-01  4.54161184e-01  4.54161185e-01  4.54161185e-01  4.54161185e-01  1.66071118e-07  2.11927400e-07  1.40000000e-01 
 1.50000000e-01  4.54161154e-01  4.54161154e-01  4.54161154e-01  4.54161154e-01  4.54161154e-01  4.54161154e-01  4.54161154e-01  1.66071004e-07  2.11924672e-07  1.50000000e-01 
 1.60000000e-01  4.54161271e-01  4.54161271e-01  4.54161271e-01  4.54161271e-01  4.54161271e-01  4.54161271e-01  4.54161271e-01  1.66071203e-07  2.11923606e-07  1.60000000e-01 
 1.70000000e-01  4.54161171e-01  4.54161171e-01  4.54161172e-01  4.54161171e-01  4.54161172e-01  4.54161172e-01  4.54161172e-01  1.66071089e-07  2.11920721e-07  1.70000000e-01 
 1.80000000e-01  4.54161163e-01  4.54161163e-01  4.54161163e-01  4.54161163e-01  4.54161163e-01  4.54161163e-01  4.54161163e-01  1.66071061e-07  2.11917396e-07  1.80000000e-01 
 1.90000000e-01  4.54161297e-01  4.54161297e-01  4.54161297e-01  4.54161297e-01  4.54161297e-01  4.54161297e-01  4.54161297e-01  1.66071288e-07  2.11916074e-07  1.90000000e-01 
 2.00000000e-01  4.54161188e-01  4.54161188e-01  4.54161188e-01  4.54161188e-01  4.54161188e-01  4.54161188e-01  4.54161188e-01  1.66071118e-07  2.11913175e-07  2.00000000e-01 
 2.10000000e-01  4.54161158e-01  4.54161158e-01  4.54161158e-01  4.54161158e-01  4.54161158e-01  4.54161158e-01  4.54161158e-01  1.66071089e-07  2.11910375e-07  2.10000000e-01 
 2.20000000e-01  4.54161183e-01  4.54161183e-01  4.54161183e-01  4.54161183e-01  4.54161183e-01  4.54161183e-01  4.54161183e-01  1.66071089e-07  2.11908173e-07  2.20000000e-01 
 2.30000000e-01  4.54161194e-01  4.54161194e-01  4.54161194e-01  4.54161194e-01  4.54161194e-01  4.54161194e-01  4.54161194e-01  1.66071118e-07  2.11905700e-07  2.30000000e-01 
 2.40000000e-01  4.54161280e-01  4.54161280e-01  4.54161281e-01  4.54161280e-01  4.54161281e-01  4.54161281e-01  4.54161281e-01  1.66071231e-07  2.11903767e-07  2.40000000e-01 
 2.50000000e-01  4.54161177e-01  4.54161177e-01  4.54161178e-01  4.54161177e-01  4.54161178e-01  4.54161178e-01  4.54161178e-01  1.66071146e-07  2.11900840e-07  2.50000000e-01 
 2.60000000e-01  4.54161220e-01  4.54161220e-01  4.54161220e-01  4.54161220e-01  4.54161220e-01  4.54161220e-01  4.54161220e-01  1.66071118e-07  2.11899192e-07  2.60000000e-01 
 2.70000000e-01  4.54161199e-01  4.54161199e-01  4.54161199e-01  4.54161199e-01  4.54161199e-01  4.54161199e-01  4.54161199e-01  1.66071118e-07  2.11896122e-07  2.70000000e-01 
 2.80000000e-01  4.54161220e-01  4.54161220e-01  4.54161220e-01  4.54161220e-01  4.54161220e-01  4.54161220e-01  4.54161220e-01  1.66071146e-07  2.11894189e-07  2.80000000e-01 
 2.90000000e-01  4.54161165e-01  4.54161165e-01  4.54161165e-01  4.54161165e-01  4.54161165e-01  4.54161165e-01  4.54161165e-01  1.66071118e-07  2.11890750e-07  2.90000000e-01 
 3.00000000e-01  4.54161234e-01  4.54161234e-01  4.54161234e-01  4.54161234e-01  4.54161234e-01  4.54161234e-01  4.54161234e-01  1.66071146e-07  2.11888846e-07  3.00000000e-01 
 3.10000000e-01  4.54161212e-01  4.54161212e-01  4.54161212e-01  4.54161212e-01  4.54161212e-01  4.54161212e-01  4.54161212e-01  1.66071175e-07  2.11886373e-07  3.10000000e-01 
 3.20000000e-01  4.54161285e-01  4.54161285e-01  4.54161285e-01  4.54161285e-01  4.54161285e-01  4.54161285e-01  4.54161285e-01  1.66071231e-07  2.11884469e-07  3.20000000e-01 
 3.30000000e-01  4.54161215e-01  4.54161215e-01  4.54161215e-01  4.54161215e-01  4.54161215e-01  4.54161215e-01  4.54161215e-01  1.66071146e-07  2.11881314e-07  3.30000000e-01 
 3.40000000e-01  4.54161224e-01  4.54161224e-01  4.54161224e-01  4.54161224e-01  4.54161224e-01  4.54161224e-01  4.54161224e-01  1.66071146e-07  2.11878955e-07  3.40000000e-01 
 3.50000000e-01  4.54161176e-01  4.54161176e-01  4.54161176e-01  4.54161176e-01  4.54161176e-01  4.54161176e-01  4.54161176e-01  1.66071089e-07  2.11876483e-07  3.50000000e-01 
 3.60000000e-01  4.54161239e-01  4.54161239e-01  4.54161239e-01  4.54161239e-01  4.54161240e-01  4.54161239e-01  4.54161239e-01  1.66071203e-07  2.11874124e-07  3.60000000e-01 
 3.70000000e-01  4.54161265e-01  4.54161265e-01  4.54161265e-01  4.54161265e-01  4.54161266e-01  4.54161266e-01  4.54161266e-01  1.66071203e-07  2.11872020e-07  3.70000000e-01 
 3.80000000e-01  4.54161254e-01  4.54161254e-01  4.54161254e-01  4.54161254e-01  4.54161254e-01  4.54161254e-01  4.54161254e-01  1.66071175e-07  2.11869377e-07  3.80000000e-01 
 3.90000000e-01  4.54161159e-01  4.54161159e-01  4.54161159e-01  4.54161159e-01  4.54161159e-01  4.54161159e-01  4.54161159e-01  1.66071089e-07  2.11866592e-07  3.90000000e-01 
 4.00000000e-01  4.54161197e-01  4.54161197e-01  4.54161197e-01  4.54161197e-01  4.54161197e-01  4.54161197e-01  4.54161197e-01  1.66071089e-07  2.11863977e-07  4.00000000e-01 
 4.10000000e-01  4.54161207e-01  4.54161207e-01  4.54161207e-01  4.54161207e-01  4.54161207e-01  4.54161207e-01  4.54161207e-01  1.66071175e-07  2.11861618e-07  4.10000000e-01 
 4.20000000e-01  4.54161193e-01  4.54161193e-01  4.54161193e-01  4.54161193e-01  4.54161193e-01  4.54161193e-01  4.54161193e-01  1.66071118e-07  2.11859088e-07  4.20000000e-01 
 4.30000000e-01  4.54161232e-01  4.54161232e-01  4.54161232e-01  4.54161232e-01  4.54161232e-01  4.54161232e-01  4.54161232e-01  1.66071175e-07  2.11857127e-07  4.30000000e-01 
 4.40000000e-01  4.54161226e-01  4.54161226e-01  4.54161226e-01  4.54161226e-01  4.54161226e-01  4.54161226e-01  4.54161226e-01  1.66071146e-07  2.11854257e-07  4.40000000e-01 
 4.50000000e-01  4.54161193e-01  4.54161193e-01  4.54161193e-01  4.54161193e-01  4.54161193e-01  4.54161193e-01  4.54161193e-01  1.66071118e-07  2.11851130e-07  4.50000000e-01 
 4.60000000e-01  4.54161244e-01  4.54161244e-01  4.54161244e-01  4.54161244e-01  4.54161244e-01  4.54161244e-01  4.54161244e-01  1.66071203e-07  2.11849425e-07  4.60000000e-01 
 4.70000000e-01  4.54161202e-01  4.54161202e-01  4.54161202e-01  4.54161202e-01  4.54161202e-01  4.54161202e-01  4.54161202e-01  1.66071146e-07  2.11846839e-07  4.70000000e-01 
 4.80000000e-01  4.54161192e-01  4.54161192e-01  4.54161192e-01  4.54161192e-01  4.54161192e-01  4.54161192e-01  4.54161192e-01  1.66071118e-07  2.11844110e-07  4.80000000e-01 
 4.90000000e-01  4.54161307e-01  4.54161307e-01  4.54161307e-01  4.54161307e-01  4.54161307e-01  4.54161307e-01  4.54161307e-01  1.66071288e-07  2.11842632e-07  4.90000000e-01 
 5.00000000e-01  4.54161233e-01  4.54161233e-01  4.54161233e-01  4.54161233e-01  4.54161233e-01  4.54161233e-01  4.54161233e-01  1.66071146e-07  2.11839222e-07  5.00000000e-01 
 5.10000000e-01  4.54161173e-01  4.54161173e-01  4.54161174e-01  4.54161173e-01  4.54161174e-01  4.54161174e-01  4.54161174e-01  1.66071118e-07  2.11836266e-07  5.10000000e-01 
 5.20000000e-01  4.54161244e-01  4.54161244e-01  4.54161244e-01  4.54161244e-01  4.54161245e-01  4.54161244e-01  4.54161244e-01  1.66071175e-07  2.11834731e-07  5.20000000e-01 
 5.30000000e-01  4.54161269e-01  4.54161269e-01  4.54161269e-01  4.54161269e-01  4.54161269e-01  4.54161269e-01  4.54161269e-01  1.66071231e-07  2.11832287e-07  5.30000000e-01 
 5.40000000e-01  4.54161254e-01  4.54161254e-01  4.54161254e-01  4.54161254e-01  4.54161254e-01  4.54161254e-01  4.54161254e-01  1.66071203e-07  2.11829672e-07  5.40000000e-01 
 5.50000000e-01  4.54161231e-01  4.54161231e-01  4.54161231e-01  4.54161231e-01  4.54161232e-01  4.54161231e-01  4.54161231e-01  1.66071175e-07  2.11826716e-07  5.50000000e-01 
 5.60000000e-01  4.54161272e-01  4.54161272e-01  4.54161272e-01  4.54161272e-01  4.54161272e-01  4.54161272e-01  4.54161272e-01  1.66071231e-07  2.11825068e-07  5.60000000e-01 
 5.70000000e-01  4.54161131e-01  4.54161131e-01  4.54161131e-01  4.54161131e-01  4.54161131e-01  4.54161131e-01  4.54161131e-01  1.66071032e-07  2.11821430e-07  5.70000000e-01 
 5.80000000e-01  4.54161259e-01  4.54161259e-01  4.54161259e-01  4.54161259e-01  4.54161259e-01  4.54161259e-01  4.54161259e-01  1.66071175e-07  2.11819554e-07  5.80000000e-01 
 5.90000000e-01  4.54161147e-01  4.54161147e-01  4.54161147e-01  4.54161147e-01  4.54161147e-01  4.54161147e-01  4.54161147e-01  1.66071089e-07  2.11816200e-07  5.90000000e-01 
 6.00000000e-01  4.54161262e-01  4.54161262e-01  4.54161262e-01  4.54161262e-01  4.54161262e-01  4.54161262e-01  4.54161262e-01  1.66071203e-07  2.11814552e-07  6.00000000e-01 
 6.10000000e-01  4.54161103e-01  4.54161104e-01  4.54161104e-01  4.54161104e-01  4.54161104e-01  4.54161104e-01  4.54161104e-01  1.66071004e-07  2.11810971e-07  6.10000000e-01 
 6.20000000e-01  4.54161248e-01  4.54161248e-01  4.54161248e-01  4.54161248e-01  4.54161248e-01  4.54161248e-01  4.54161248e-01  1.66071175e-07  2.11809322e-07  6.20000000e-01 
 6.30000000e-01  4.54161137e-01  4.54161137e-01  4.54161137e-01  4.54161137e-01  4.54161137e-01  4.54161137e-01  4.54161137e-01  1.66071061e-07  2.11805343e-07  6.30000000e-01 
 6.40000000e-01  4.54161204e-01  4.54161204e-01  4.54161204e-01  4.54161204e-01  4.54161204e-01  4.54161204e-01  4.54161204e-01  1.66071146e-07  2.11804092e-07  6.40000000e-01 
 6.50000000e-01  4.54161130e-01  4.54161130e-01  4.54161130e-01  4.54161130e-01  4.54161130e-01  4.54161130e-01  4.54161130e-01  1.66071004e-07  2.11800796e-07  6.50000000e-01 
 6.60000000e-01  4.54161184e-01  4.54161184e-01  4.54161184e-01  4.54161184e-01  4.54161184e-01  4.54161184e-01  4.54161184e-01  1.66071118e-07  2.11798636e-07  6.60000000e-01 
 6.70000000e-01  4.54161195e-01  4.54161195e-01  4.54161195e-01  4.54161195e-01  4.54161195e-01  4.54161195e-01  4.54161195e-01  1.66071118e-07  2.11795850e-07  6.70000000e-01 
 6.80000000e-01  4.54161161e-01  4.54161161e-01  4.54161161e-01  4.54161161e-01  4.54161161e-01  4.54161161e-01  4.54161161e-01  1.66071089e-07  2.11793576e-07  6.80000000e-01 
 6.90000000e-01  4.54161168e-01  4.54161168e-01  4.54161168e-01  4.54161168e-01  4.54161169e-01  4.54161168e-01  4.54161168e-01  1.66071061e-07  2.11790848e-07  6.90000000e-01 
 7.00000000e-01  4.54161218e-01  4.54161218e-01  4.54161218e-01  4.54161218e-01  4.54161219e-01  4.54161218e-01  4.54161218e-01  1.66071118e-07  2.11788290e-07  7.00000000e-01 
 7.10000000e-01  4.54161211e-01  4.54161211e-01  4.54161211e-01  4.54161211e-01  4.54161211e-01  4.54161211e-01  4.54161211e-01  1.66071118e-07  2.11785618e-07  7.10000000e-01 
 7.20000000e-01  4.54161177e-01  4.54161177e-01  4.54161177e-01  4.54161177e-01  4.54161177e-01  4.54161177e-01  4.54161177e-01  1.66071089e-07  2.11783060e-07  7.20000000e-01 
 7.30000000e-01  4.54161288e-01  4.54161288e-01  4.54161288e-01  4.54161288e-01  4.54161288e-01  4.54161288e-01  4.54161288e-01  1.66071260e-07  2.11780616e-07  7.30000000e-01 
 7.40000000e-01  4.54161130e-01  4.54161130e-01  4.54161130e-01  4.54161130e-01  4.54161130e-01  4.54161130e-01  4.54161130e-01  1.66071061e-07  2.11777547e-07  7.40000000e-01 
 7.50000000e-01  4.54161203e-01  4.54161203e-01  4.54161203e-01  4.54161203e-01  4.54161203e-01  4.54161203e-01  4.54161203e-01  1.66071089e-07  2.11774989e-07  7.50000000e-01 
 7.60000000e-01  4.54161207e-01  4.54161207e-01  4.54161207e-01  4.54161207e-01  4.54161207e-01  4.54161207e-01  4.54161207e-01  1.66071118e-07  2.11772488e-07  7.60000000e-01 
 7.70000000e-01  4.54161227e-01  4.54161227e-01  4.54161228e-01  4.54161227e-01  4.54161228e-01  4.54161228e-01  4.54161228e-01  1.66071203e-07  2.11769816e-07  7.70000000e-01 
 7.80000000e-01  4.54161199e-01  4.54161199e-01  4.54161199e-01  4.54161199e-01  4.54161199e-01  4.54161199e-01  4.54161199e-01  1.66071089e-07  2.11766917e-07  7.80000000e-01 
 7.90000000e-01  4.54161211e-01  4.54161211e-01  4.54161211e-01  4.54161211e-01  4.54161211e-01  4.54161211e-01  4.54161211e-01  1.66071146e-07  2.11764700e-07  7.90000000e-01 
 8.00000000e-01  4.54161225e-01  4.54161225e-01  4.54161225e-01  4.54161225e-01  4.54161225e-01  4.54161225e-01  4.54161225e-01  1.66071175e-07  2.11761630e-07  8.00000000e-01 
 8.10000000e-01  4.54161125e-01  4.54161125e-01  4.54161125e-01  4.54161125e-01  4.54161125e-01  4.54161125e-01  4.54161125e-01  1.66071004e-07  2.11758618e-07  8.10000000e-01 
 8.20000000e-01  4.54161248e-01  4.54161248e-01  4.54161248e-01  4.54161248e-01  4.54161248e-01  4.54161248e-01  4.54161248e-01  1.66071203e-07  2.11756969e-07  8.20000000e-01 
 8.30000000e-01  4.54161165e-01  4.54161165e-01  4.54161165e-01  4.54161165e-01  4.54161165e-01  4.54161165e-01  4.54161165e-01  1.66071089e-07  2.11753843e-07  8.30000000e-01 
 8.40000000e-01  4.54161276e-01  4.54161276e-01  4.54161276e-01  4.54161276e-01  4.54161277e-01  4.54161276e-01  4.54161276e-01  1.66071231e-07  2.11751910e-07  8.40000000e-01 
 8.50000000e-01  4.54161203e-01  4.54161203e-01  4.54161203e-01  4.54161203e-01  4.54161203e-01  4.54161203e-01  4.54161203e-01  1.66071146e-07  2.11748443e-07  8.50000000e-01 
 8.60000000e-01  4.54161176e-01  4.54161176e-01  4.54161176e-01  4.54161176e-01  4.54161176e-01  4.54161176e-01  4.54161176e-01  1.66071089e-07  2.11746453e-07  8.60000000e-01 
 8.70000000e-01  4.54161196e-01  4.54161196e-01  4.54161196e-01  4.54161196e-01  4.54161196e-01  4.54161196e-01  4.54161196e-01  1.66071089e-07  2.11743270e-07  8.70000000e-01 
 8.80000000e-01  4.54161265e-01  4.54161265e-01  4.54161265e-01  4.54161265e-01  4.54161265e-01  4.54161265e-01  4.54161265e-01  1.66071203e-07  2.11741110e-07  8.80000000e-01 
 8.90000000e-01  4.54161232e-01  4.54161232e-01  4.54161232e-01  4.54161232e-01  4.54161232e-01  4.54161232e-01  4.54161232e-01  1.66071203e-07  2.11737984e-07  8.90000000e-01 
 9.00000000e-01  4.54161166e-01  4.54161166e-01  4.54161166e-01  4.54161166e-01  4.54161166e-01  4.54161166e-01  4.54161166e-01  1.66071061e-07  2.11735426e-07  9.00000000e-01 
 9.10000000e-01  4.54161157e-01  4.54161157e-01  4.54161157e-01  4.54161157e-01  4.54161157e-01  4.54161157e-01  4.54161157e-01  1.66071061e-07  2.11732129e-07  9.10000000e-01 
 9.20000000e-01  4.54161263e-01  4.54161263e-01  4.54161263e-01  4.54161263e-01  4.54161263e-01  4.54161263e-01  4.54161263e-01  1.66071175e-07  2.11729912e-07  9.20000000e-01 
 9.30000000e-01  4.54161157e-01  4.54161157e-01  4.54161157e-01  4.54161157e-01  4.54161157e-01  4.54161157e-01  4.54161157e-01  1.66071032e-07  2.11726729e-07  9.30000000e-01 
 9.40000000e-01  4.54161166e-01  4.54161166e-01  4.54161166e-01  4.54161166e-01  4.54161166e-01  4.54161166e-01  4.54161166e-01  1.66071089e-07  2.11724682e-07  9.40000000e-01 
 9.50000000e-01  4.54161205e-01  4.54161205e-01  4.54161205e-01  4.54161205e-01  4.54161206e-01  4.54161206e-01  4.54161206e-01  1.66071146e-07  2.11722067e-07  9.50000000e-01 
 9.60000000e-01  4.54161220e-01  4.54161220e-01  4.54161220e-01  4.54161220e-01  4.54161220e-01  4.54161220e-01  4.54161220e-01  1.66071146e-07  2.11718998e-07  9.60000000e-01 
 9.70000000e-01  4.54161190e-01  4.54161190e-01  4.54161190e-01  4.54161190e-01  4.54161190e-01  4.54161190e-01  4.54161190e-01  1.66071146e-07  2.11716042e-07  9.70000000e-01 
 9.80000000e-01  4.54161213e-01  4.54161213e-01  4.54161214e-01  4.54161213e-01  4.54161214e-01  4.54161214e-01  4.54161214e-01  1.66071175e-07  2.11713541e-07  9.80000000e-01 
 9.90000000e-01  4.54161236e-01  4.54161236e-01  4.54161236e-01  4.54161236e-01  4.54161237e-01  4.54161237e-01  4.54161237e-01  1.66071175e-07  2.11710926e-07  9.90000000e-01 
 1.00000000e+00  4.54161135e-01  4.54161135e-01  4.54161135e-01  4.54161135e-01  4.54161135e-01  4.54161135e-01  4.54161135e-01  1.66071004e-07  2.11707857e-07  1.00000000e+00 
 1.01000000e+00  4.54161242e-01  4.54161242e-01  4.54161242e-01  4.54161242e-01  4.54161242e-01  4.54161242e-01  4.54161242e-01  1.66071203e-07  2.11705355e-07  1.01000000e+00 
 1.02000000e+00  4.54161243e-01  4.54161243e-01  4.54161243e-01  4.54161243e-01  4.54161243e-01  4.54161243e-01  4.54161243e-01  1.66071203e-07  2.11703195e-07  1.02000000e+00 
 1.03000000e+00  4.54161169e-01  4.54161169e-01  4.54161169e-01  4.54161169e-01  4.54161169e-01  4.54161169e-01  4.54161169e-01  1.66071089e-07  2.11700353e-07  1.03000000e+00 
 1.04000000e+00  4.54161188e-01  4.54161188e-01  4.54161188e-01  4.54161188e-01  4.54161188e-01  4.54161188e-01  4.54161188e-01  1.66071118e-07  2.11696602e-07  1.04000000e+00 
 1.05000000e+00  4.54161164e-01  4.54161164e-01  4.54161164e-01  4.54161164e-01  4.54161164e-01  4.54161164e-01  4.54161164e-01  1.66071118e-07  2.11693873e-07  1.05000000e+00 
 1.06000000e+00  4.54161264e-01  4.54161264e-01  4.54161264e-01  4.54161264e-01  4.54161264e-01  4.54161264e-01  4.54161264e-01  1.66071231e-07  2.11692509e-07  1.06000000e+00 
 1.07000000e+00  4.54161224e-01  4.54161224e-01  4.54161224e-01  4.54161224e-01  4.54161224e-01  4.54161224e-01  4.54161224e-01  1.66071175e-07  2.11688985e-07  1.07000000e+00 
 1.08000000e+00  4.54161231e-01  4.54161231e-01  4.54161231e-01  4.54161231e-01  4.54161231e-01  4.54161231e-01  4.54161231e-01  1.66071146e-07  2.11685460e-07  1.08000000e+00 
 1.09000000e+00  4.54161176e-01  4.54161176e-01  4.54161176e-01  4.54161176e-01  4.54161176e-01  4.54161176e-01  4.54161176e-01  1.66071089e-07  2.11682732e-07  1.09000000e+00 
 1.10000000e+00  4.54161197e-01  4.54161197e-01  4.54161197e-01  4.54161197e-01  4.54161197e-01  4.54161197e-01  4.54161197e-01  1.66071118e-07  2.11680117e-07  1.10000000e+00 
