 v-sweep         v(b0)           v(b1)           v(b2)           v(b3)           v(b4)           v(b5)           v(b6)           i(vbias)        i(viout)        v(vout)        
 0.00000000e+00  1.31071178e-19  1.31071178e-19  1.31071178e-19  1.31071177e-19  1.31071178e-19  1.31071178e-19 -4.88812018e-19  3.81236727e-34 -4.73834751e-03  1.00000000e+00 
 1.00000000e-02  1.96399592e-03  1.96399592e-03  1.96399593e-03  1.96399593e-03  1.96399592e-03  1.96399592e-03  1.88394189e-03  1.16516534e-14 -4.31152092e-03  1.00000000e+00 
 2.00000000e-02  3.90009991e-03  3.90009991e-03  3.90009991e-03  3.90009991e-03  3.90009991e-03  3.90009990e-03  3.34880362e-03  2.27793511e-14 -3.89886761e-03  1.00000000e+00 
 3.00000000e-02  5.80904758e-03  5.80904758e-03  5.80904758e-03  5.80904759e-03  5.80904758e-03  5.80904758e-03  4.35718482e-03  3.34980590e-14 -3.50175660e-03  1.00000000e+00 
 4.00000000e-02  7.70168832e-03  7.70168832e-03  7.70168832e-03  7.70168833e-03  7.70168832e-03  7.70168831e-03  4.92622559e-03  4.39511471e-14 -3.12167375e-03  1.00000000e+00 
 5.00000000e-02  9.57311788e-03  9.57311788e-03  9.57311789e-03  9.57311790e-03  9.57311788e-03  9.57311788e-03  5.10459215e-03  5.41567040e-14 -2.76016660e-03  1.00000000e+00 
 6.00000000e-02  1.14334997e-02  1.14334997e-02  1.14334998e-02  1.14334998e-02  1.14334997e-02  1.14334997e-02  4.98631273e-03  6.41602919e-14 -2.41900994e-03  1.00000000e+00 
 7.00000000e-02  1.32902492e-02  1.32902492e-02  1.32902492e-02  1.32902492e-02  1.32902492e-02  1.32902491e-02  4.65379637e-03  7.40450448e-14 -2.09972939e-03  1.00000000e+00 
 8.00000000e-02  1.51363996e-02  1.51363996e-02  1.51363996e-02  1.51363996e-02  1.51363996e-02  1.51363996e-02  4.19672623e-03  8.38490052e-14 -1.80390957e-03  1.00000000e+00 
 9.00000000e-02  1.69785224e-02  1.69785224e-02  1.69785224e-02  1.69785225e-02  1.69785224e-02  1.69785224e-02  3.68473558e-03  9.35795427e-14 -1.53309243e-03  1.00000000e+00 
 1.00000000e-01  1.88312112e-02  1.88312112e-02  1.88312112e-02  1.88312113e-02  1.88312112e-02  1.88312112e-02  3.16766349e-03  1.03256889e-13 -1.28825126e-03  1.00000000e+00 
 1.10000000e-01  2.06728457e-02  2.06728457e-02  2.06728458e-02  2.06728458e-02  2.06728457e-02  2.06728457e-02  2.67826993e-03  1.12920314e-13 -1.07009089e-03  1.00000000e+00 
 1.20000000e-01  2.25293517e-02  2.25293517e-02  2.25293517e-02  2.25293517e-02  2.25293517e-02  2.25293517e-02  2.23501236e-03  1.22503102e-13 -8.78714280e-04  1.00000000e+00 
 1.30000000e-01  2.43870154e-02  2.43870154e-02  2.43870154e-02  2.43870155e-02  2.43870154e-02  2.43870154e-02  1.84550973e-03  1.32090047e-13 -7.13547693e-04  1.00000000e+00 
 1.40000000e-01  2.62335136e-02  2.62335136e-02  2.62335136e-02  2.62335136e-02  2.62335136e-02  2.62335136e-02  1.51084111e-03  1.41661903e-13 -5.73389304e-04  1.00000000e+00 
 1.50000000e-01  2.80925492e-02  2.80925492e-02  2.80925492e-02  2.80925492e-02  2.80925492e-02  2.80925492e-02  1.22846914e-03  1.51223650e-13 -4.56399577e-04  1.00000000e+00 
 1.60000000e-01  2.99111383e-02  2.99111383e-02  2.99111383e-02  2.99111383e-02  2.99111383e-02  2.99111383e-02  9.93010762e-04  1.60742997e-13 -3.60280572e-04  1.00000000e+00 
 1.70000000e-01  3.17656879e-02  3.17656879e-02  3.17656879e-02  3.17656879e-02  3.17656878e-02  3.17656878e-02  7.99056095e-04  1.70332703e-13 -2.82440567e-04  1.00000000e+00 
 1.80000000e-01  3.35907659e-02  3.35907659e-02  3.35907659e-02  3.35907659e-02  3.35907659e-02  3.35907659e-02  6.40380825e-04  1.79847692e-13 -2.20192453e-04  1.00000000e+00 
 1.90000000e-01  3.54050156e-02  3.54050156e-02  3.54050156e-02  3.54050156e-02  3.54050156e-02  3.54050156e-02  5.11527668e-04  1.89359955e-13 -1.70969449e-04  1.00000000e+00 
 2.00000000e-01  3.72162829e-02  3.72162829e-02  3.72162829e-02  3.72162829e-02  3.72162829e-02  3.72162829e-02  4.07468107e-04  1.99057743e-13 -1.32381659e-04  1.00000000e+00 
 2.10000000e-01  3.89914868e-02  3.89914868e-02  3.89914868e-02  3.89914868e-02  3.89914868e-02  3.89914868e-02  3.23766879e-04  2.08545058e-13 -1.02334882e-04  1.00000000e+00 
 2.20000000e-01  4.07104511e-02  4.07104511e-02  4.07104512e-02  4.07104512e-02  4.07104511e-02  4.07104511e-02  2.56704093e-04  2.18091897e-13 -7.90235254e-05  1.00000000e+00 
 2.30000000e-01  4.24392504e-02  4.24392504e-02  4.24392504e-02  4.24392504e-02  4.24392504e-02  4.24392504e-02  2.03179224e-04  2.27812293e-13 -6.10439146e-05  1.00000000e+00 
 2.40000000e-01  4.41681646e-02  4.41681646e-02  4.41681646e-02  4.41681646e-02  4.41681646e-02  4.41681645e-02  1.60573862e-04  2.37373599e-13 -4.71685411e-05  1.00000000e+00 
 2.50000000e-01  4.58270209e-02  4.58270209e-02  4.58270209e-02  4.58270209e-02  4.58270209e-02  4.58270209e-02  1.26723708e-04  2.47133169e-13 -3.64750293e-05  1.00000000e+00 
 2.60000000e-01  4.74925581e-02  4.74925581e-02  4.74925581e-02  4.74925582e-02  4.74925581e-02  4.74925581e-02  9.98971935e-05  2.56853468e-13 -2.82588778e-05  1.00000000e+00 
 2.70000000e-01  4.91036328e-02  4.91036329e-02  4.91036329e-02  4.91036329e-02  4.91036328e-02  4.91036328e-02  7.86680702e-05  2.66661354e-13 -2.19061456e-05  1.00000000e+00 
 2.80000000e-01  5.06922688e-02  5.06922688e-02  5.06922688e-02  5.06922688e-02  5.06922688e-02  5.06922688e-02  6.18995519e-05  2.76660524e-13 -1.70112254e-05  1.00000000e+00 
 2.90000000e-01  5.22553798e-02  5.22553798e-02  5.22553798e-02  5.22553798e-02  5.22553798e-02  5.22553798e-02  4.86711763e-05  2.86768781e-13 -1.32460436e-05  1.00000000e+00 
 3.00000000e-01  5.37468079e-02  5.37468079e-02  5.37468079e-02  5.37468079e-02  5.37468079e-02  5.37468079e-02  3.82467599e-05  2.97248056e-13 -1.03102462e-05  1.00000000e+00 
 3.10000000e-01  5.52466362e-02  5.52466362e-02  5.52466362e-02  5.52466362e-02  5.52466362e-02  5.52466362e-02  3.00431639e-05  3.07850716e-13 -8.06052091e-06  1.00000000e+00 
 3.20000000e-01  5.66970775e-02  5.66970775e-02  5.66970776e-02  5.66970776e-02  5.66970775e-02  5.66970775e-02  2.35916846e-05  3.18965213e-13 -6.29957505e-06  1.00000000e+00 
 3.30000000e-01  5.81714425e-02  5.81714425e-02  5.81714426e-02  5.81714426e-02  5.81714425e-02  5.81714425e-02  1.85231060e-05  3.30817979e-13 -4.93522975e-06  1.00000000e+00 
 3.40000000e-01  5.95678550e-02  5.95678550e-02  5.95678550e-02  5.95678551e-02  5.95678550e-02  5.95678550e-02  1.45424959e-05  3.43306391e-13 -3.85625654e-06  1.00000000e+00 
 3.50000000e-01  6.09673866e-02  6.09673866e-02  6.09673866e-02  6.09673866e-02  6.09673866e-02  6.09673865e-02  1.14187256e-05  3.57031560e-13 -3.02932116e-06  1.00000000e+00 
 3.60000000e-01  6.23025638e-02  6.23025638e-02  6.23025639e-02  6.23025639e-02  6.23025638e-02  6.23025638e-02  8.96797649e-06  3.72079080e-13 -2.38021352e-06  1.00000000e+00 
 3.70000000e-01  6.36498404e-02  6.36498404e-02  6.36498404e-02  6.36498404e-02  6.36498404e-02  6.36498404e-02  7.04622134e-06  3.89077642e-13 -1.87336728e-06  1.00000000e+00 
 3.80000000e-01  6.49707663e-02  6.49707663e-02  6.49707663e-02  6.49707663e-02  6.49707663e-02  6.49707663e-02  5.53941274e-06  4.09185798e-13 -1.47689887e-06  1.00000000e+00 
 3.90000000e-01  6.63126154e-02  6.63126154e-02  6.63126155e-02  6.63126155e-02  6.63126154e-02  6.63126154e-02  4.35815025e-06  4.32973481e-13 -1.16060983e-06  1.00000000e+00 
 4.00000000e-01  6.76441449e-02  6.76441449e-02  6.76441449e-02  6.76441449e-02  6.76441449e-02  6.76441449e-02  3.43199434e-06  4.62057486e-13 -9.10624038e-07  1.00000000e+00 
 4.10000000e-01  6.89789390e-02  6.89789390e-02  6.89789390e-02  6.89789391e-02  6.89789390e-02  6.89789390e-02  2.70574250e-06  4.97844174e-13 -7.19041935e-07  1.00000000e+00 
 4.20000000e-01  7.03265523e-02  7.03265523e-02  7.03265523e-02  7.03265523e-02  7.03265523e-02  7.03265523e-02  2.13607667e-06  5.43277191e-13 -5.68405994e-07  1.00000000e+00 
 4.30000000e-01  7.17092855e-02  7.17092855e-02  7.17092855e-02  7.17092855e-02  7.17092854e-02  7.17092854e-02  1.68904303e-06  6.01729099e-13 -4.48484599e-07  1.00000000e+00 
 4.40000000e-01  7.31715526e-02  7.31715526e-02  7.31715526e-02  7.31715526e-02  7.31715526e-02  7.31715526e-02  1.33804280e-06  6.77690305e-13 -3.55330982e-07  1.00000000e+00 
 4.50000000e-01  7.46978907e-02  7.46978907e-02  7.46978908e-02  7.46978908e-02  7.46978907e-02  7.46978907e-02  1.06222143e-06  7.77673119e-13 -2.81562791e-07  1.00000000e+00 
 4.60000000e-01  7.63461976e-02  7.63461976e-02  7.63461976e-02  7.63461977e-02  7.63461976e-02  7.63461976e-02  8.45280993e-07  9.10396121e-13 -2.24913421e-07  1.00000000e+00 
 4.70000000e-01  7.81689458e-02  7.81689458e-02  7.81689458e-02  7.81689459e-02  7.81689458e-02  7.81689458e-02  6.74462115e-07  1.08692614e-12 -1.80087994e-07  1.00000000e+00 
 4.80000000e-01  8.01766511e-02  8.01766511e-02  8.01766511e-02  8.01766512e-02  8.01766511e-02  8.01766511e-02  5.39776315e-07  1.32411457e-12 -1.44130141e-07  1.00000000e+00 
 4.90000000e-01  8.24974287e-02  8.24974287e-02  8.24974287e-02  8.24974287e-02  8.24974287e-02  8.24974286e-02  4.33425389e-07  1.64431762e-12 -1.15585891e-07  1.00000000e+00 
 5.00000000e-01  8.51828269e-02  8.51828269e-02  8.51828269e-02  8.51828269e-02  8.51828269e-02  8.51828269e-02  3.49299534e-07  2.07663400e-12 -9.16513443e-08  1.00000000e+00 
 5.10000000e-01  8.82832817e-02  8.82832817e-02  8.82832817e-02  8.82832817e-02  8.82832817e-02  8.82832817e-02  2.82621879e-07  2.66477017e-12 -7.19616793e-08  1.00000000e+00 
 5.20000000e-01  9.19908771e-02  9.19908771e-02  9.19908771e-02  9.19908771e-02  9.19908771e-02  9.19908771e-02  2.29662180e-07  3.46433903e-12 -5.58769955e-08  1.00000000e+00 
 5.30000000e-01  9.63136054e-02  9.63136054e-02  9.63136055e-02  9.63136055e-02  9.63136054e-02  9.63136054e-02  1.87493997e-07  4.55396831e-12 -4.29893277e-08  1.00000000e+00 
 5.40000000e-01  1.01364344e-01  1.01364344e-01  1.01364344e-01  1.01364344e-01  1.01364343e-01  1.01364343e-01  1.53831488e-07  6.02844895e-12 -3.28511049e-08  1.00000000e+00 
 5.50000000e-01  1.07157369e-01  1.07157369e-01  1.07157369e-01  1.07157369e-01  1.07157369e-01  1.07157369e-01  1.26882508e-07  8.03288816e-12 -2.49557957e-08  1.00000000e+00 
 5.60000000e-01  1.13742985e-01  1.13742985e-01  1.13742985e-01  1.13742985e-01  1.13742985e-01  1.13742985e-01  1.05244186e-07  1.07454038e-11 -1.89008347e-08  1.00000000e+00 
 5.70000000e-01  1.21067861e-01  1.21067861e-01  1.21067861e-01  1.21067861e-01  1.21067861e-01  1.21067861e-01  8.78147609e-08  1.44034408e-11 -1.42931498e-08  1.00000000e+00 
 5.80000000e-01  1.29050558e-01  1.29050558e-01  1.29050558e-01  1.29050559e-01  1.29050558e-01  1.29050558e-01  7.37288468e-08  1.93263681e-11 -1.07945510e-08  1.00000000e+00 
 5.90000000e-01  1.37594155e-01  1.37594155e-01  1.37594155e-01  1.37594155e-01  1.37594155e-01  1.37594155e-01  6.23055530e-08  2.59350896e-11 -8.14713985e-09  1.00000000e+00 
 6.00000000e-01  1.46619643e-01  1.46619643e-01  1.46619643e-01  1.46619643e-01  1.46619643e-01  1.46619643e-01  5.30079769e-08  3.47894164e-11 -6.14672047e-09  1.00000000e+00 
 6.10000000e-01  1.56012702e-01  1.56012702e-01  1.56012702e-01  1.56012702e-01  1.56012702e-01  1.56012702e-01  4.54116505e-08  4.66181633e-11 -4.63623451e-09  1.00000000e+00 
 6.20000000e-01  1.65680544e-01  1.65680544e-01  1.65680544e-01  1.65680544e-01  1.65680544e-01  1.65680544e-01  3.91804369e-08  6.23807976e-11 -3.49672291e-09  1.00000000e+00 
 6.30000000e-01  1.75528518e-01  1.75528518e-01  1.75528518e-01  1.75528518e-01  1.75528518e-01  1.75528518e-01  3.40475113e-08  8.32725815e-11 -2.63766253e-09  1.00000000e+00 
 6.40000000e-01  1.85478165e-01  1.85478165e-01  1.85478165e-01  1.85478165e-01  1.85478165e-01  1.85478165e-01  2.98006674e-08  1.10873032e-10 -1.99027284e-09  1.00000000e+00 
 6.50000000e-01  1.95472948e-01  1.95472948e-01  1.95472948e-01  1.95472948e-01  1.95472948e-01  1.95472948e-01  2.62708029e-08  1.47172294e-10 -1.50278368e-09  1.00000000e+00 
 6.60000000e-01  2.05448963e-01  2.05448963e-01  2.05448963e-01  2.05448963e-01  2.05448963e-01  2.05448963e-01  2.33228718e-08  1.94607462e-10 -1.13602994e-09  1.00000000e+00 
 6.70000000e-01  2.15370759e-01  2.15370759e-01  2.15370759e-01  2.15370759e-01  2.15370759e-01  2.15370759e-01  2.08488442e-08  2.56313951e-10 -8.60453042e-10  1.00000000e+00 
 6.80000000e-01  2.25198997e-01  2.25198997e-01  2.25198997e-01  2.25198997e-01  2.25198997e-01  2.25198997e-01  1.87620955e-08  3.36049638e-10 -6.53656684e-10  1.00000000e+00 
 6.90000000e-01  2.34903136e-01  2.34903136e-01  2.34903136e-01  2.34903136e-01  2.34903136e-01  2.34903136e-01  1.69930176e-08  4.38493384e-10 -4.99170483e-10  1.00000000e+00 
 7.00000000e-01  2.44465360e-01  2.44465360e-01  2.44465360e-01  2.44465360e-01  2.44465360e-01  2.44465360e-01  1.54855389e-08  5.69177705e-10 -3.84318355e-10  1.00000000e+00 
 7.10000000e-01  2.53861050e-01  2.53861050e-01  2.53861050e-01  2.53861050e-01  2.53861050e-01  2.53861050e-01  1.41943604e-08  7.34774672e-10 -2.99763769e-10  1.00000000e+00 
 7.20000000e-01  2.63080807e-01  2.63080807e-01  2.63080807e-01  2.63080807e-01  2.63080807e-01  2.63080807e-01  1.30827866e-08  9.43155255e-10 -2.38401299e-10  1.00000000e+00 
 7.30000000e-01  2.72112745e-01  2.72112745e-01  2.72112745e-01  2.72112745e-01  2.72112745e-01  2.72112745e-01  1.21209902e-08  1.20355184e-09 -1.95214511e-10  1.00000000e+00 
 7.40000000e-01  2.80951224e-01  2.80951224e-01  2.80951224e-01  2.80951224e-01  2.80951224e-01  2.80951224e-01  1.12846464e-08  1.52675199e-09 -1.66295422e-10  1.00000000e+00 
 7.50000000e-01  2.89592560e-01  2.89592560e-01  2.89592560e-01  2.89592560e-01  2.89592560e-01  2.89592560e-01  1.05538458e-08  1.92512106e-09 -1.48858703e-10  1.00000000e+00 
 7.60000000e-01  2.98038203e-01  2.98038203e-01  2.98038203e-01  2.98038203e-01  2.98038203e-01  2.98038203e-01  9.91223297e-09  2.41307192e-09 -1.41199052e-10  1.00000000e+00 
 7.70000000e-01  3.06292479e-01  3.06292479e-01  3.06292479e-01  3.06292480e-01  3.06292479e-01  3.06292479e-01  9.34632006e-09  3.00721703e-09 -1.41696432e-10  1.00000000e+00 
 7.80000000e-01  3.14361853e-01  3.14361853e-01  3.14361853e-01  3.14361853e-01  3.14361853e-01  3.14361853e-01  8.84494032e-09  3.72661380e-09 -1.49469770e-10  1.00000000e+00 
 7.90000000e-01  3.22255454e-01  3.22255454e-01  3.22255454e-01  3.22255454e-01  3.22255454e-01  3.22255454e-01  8.39881254e-09  4.59352228e-09 -1.63723257e-10  1.00000000e+00 
 8.00000000e-01  3.29985128e-01  3.29985128e-01  3.29985128e-01  3.29985128e-01  3.29985128e-01  3.29985128e-01  8.00019220e-09  5.63359268e-09 -1.82197368e-10  1.00000000e+00 
 8.10000000e-01  3.37564157e-01  3.37564157e-01  3.37564157e-01  3.37564157e-01  3.37564157e-01  3.37564157e-01  7.64259112e-09  6.87683122e-09 -1.97672989e-10  1.00000000e+00 
 8.20000000e-01  3.45006915e-01  3.45006915e-01  3.45006915e-01  3.45006915e-01  3.45006915e-01  3.45006915e-01  7.32055246e-09  8.35825781e-09 -1.98241423e-10  1.00000000e+00 
 8.30000000e-01  3.52328487e-01  3.52328487e-01  3.52328487e-01  3.52328487e-01  3.52328487e-01  3.52328487e-01  7.02946895e-09  1.01191687e-08 -1.81586302e-10  1.00000000e+00 
 8.40000000e-01  3.59544618e-01  3.59544618e-01  3.59544618e-01  3.59544618e-01  3.59544618e-01  3.59544618e-01  6.76543574e-09  1.22080104e-08 -1.54656732e-10  1.00000000e+00 
 8.50000000e-01  3.66670986e-01  3.66670986e-01  3.66670986e-01  3.66670986e-01  3.66670986e-01  3.66670986e-01  6.52513066e-09  1.46823254e-08 -1.25368160e-10  1.00000000e+00 
 8.60000000e-01  3.73723207e-01  3.73723207e-01  3.73723207e-01  3.73723207e-01  3.73723207e-01  3.73723207e-01  6.30571699e-09  1.76101674e-08 -9.86517534e-11  1.00000000e+00 
 8.70000000e-01  3.80716117e-01  3.80716117e-01  3.80716117e-01  3.80716117e-01  3.80716117e-01  3.80716117e-01  6.10476361e-09  2.10722544e-08 -7.62412355e-11  1.00000000e+00 
 8.80000000e-01  3.87663859e-01  3.87663859e-01  3.87663859e-01  3.87663859e-01  3.87663859e-01  3.87663859e-01  5.92017954e-09  2.51648209e-08 -5.81934501e-11  1.00000000e+00 
 8.90000000e-01  3.94579607e-01  3.94579607e-01  3.94579607e-01  3.94579607e-01  3.94579607e-01  3.94579607e-01  5.75016037e-09  3.00019789e-08 -4.40820713e-11  1.00000000e+00 
 9.00000000e-01  4.01475220e-01  4.01475220e-01  4.01475220e-01  4.01475220e-01  4.01475220e-01  4.01475220e-01  5.59314322e-09  3.57194401e-08 -3.32960326e-11  1.00000000e+00 
 9.10000000e-01  4.08361014e-01  4.08361014e-01  4.08361015e-01  4.08361015e-01  4.08361014e-01  4.08361014e-01  5.44777040e-09  4.24781950e-08 -2.50395260e-11  1.00000000e+00 
 9.20000000e-01  4.15245660e-01  4.15245660e-01  4.15245660e-01  4.15245660e-01  4.15245660e-01  4.15245660e-01  5.31285831e-09  5.04686990e-08 -1.87725391e-11  1.00000000e+00 
 9.30000000e-01  4.22135401e-01  4.22135401e-01  4.22135401e-01  4.22135401e-01  4.22135401e-01  4.22135401e-01  5.18737190e-09  5.99151049e-08 -1.40545353e-11  1.00000000e+00 
 9.40000000e-01  4.29033907e-01  4.29033907e-01  4.29033907e-01  4.29033907e-01  4.29033907e-01  4.29033907e-01  5.07040313e-09  7.10792722e-08 -1.04591891e-11  1.00000000e+00 
 9.50000000e-01  4.35941555e-01  4.35941555e-01  4.35941555e-01  4.35941555e-01  4.35941555e-01  4.35941555e-01  4.96115314e-09  8.42642018e-08 -7.73070497e-12  1.00000000e+00 
 9.60000000e-01  4.42854712e-01  4.42854712e-01  4.42854712e-01  4.42854712e-01  4.42854712e-01  4.42854712e-01  4.85891690e-09  9.98149972e-08 -5.62749847e-12  1.00000000e+00 
 9.70000000e-01  4.49764959e-01  4.49764959e-01  4.49764959e-01  4.49764959e-01  4.49764959e-01  4.49764959e-01  4.76307019e-09  1.18116783e-07 -4.06430445e-12  1.00000000e+00 
 9.80000000e-01  4.56658043e-01  4.56658043e-01  4.56658043e-01  4.56658043e-01  4.56658043e-01  4.56658043e-01  4.67305891e-09  1.39585550e-07 -2.79953838e-12  1.00000000e+00 
 9.90000000e-01  4.63512696e-01  4.63512696e-01  4.63512696e-01  4.63512696e-01  4.63512696e-01  4.63512696e-01  4.58838973e-09  1.64650350e-07 -1.83320026e-12  1.00000000e+00 
 1.00000000e+00  4.70299433e-01  4.70299433e-01  4.70299433e-01  4.70299433e-01  4.70299433e-01  4.70299433e-01  4.50862201e-09  1.93720126e-07 -1.00897068e-12  1.00000000e+00 
 1.01000000e+00  4.76979176e-01  4.76979176e-01  4.76979176e-01  4.76979176e-01  4.76979176e-01  4.76979176e-01  4.43336136e-09  2.27132210e-07 -3.26849658e-13  1.00000000e+00 
 1.02000000e+00  4.83502336e-01  4.83502336e-01  4.83502336e-01  4.83502336e-01  4.83502336e-01  4.83502336e-01  4.36225357e-09  2.65077974e-07  2.41584530e-13  1.00000000e+00 
 1.03000000e+00  4.89808599e-01  4.89808599e-01  4.89808600e-01  4.89808600e-01  4.89808599e-01  4.89808599e-01  4.29497969e-09  3.07508534e-07  8.38440428e-13  1.00000000e+00 
 1.04000000e+00  4.95828406e-01  4.95828406e-01  4.95828406e-01  4.95828406e-01  4.95828406e-01  4.95828406e-01  4.23125200e-09  3.54033526e-07  1.37845291e-12  1.00000000e+00 
 1.05000000e+00  5.01486656e-01  5.01486656e-01  5.01486656e-01  5.01486656e-01  5.01486656e-01  5.01486656e-01  4.17081058e-09  4.03840541e-07  1.90425453e-12  1.00000000e+00 
 1.06000000e+00  5.06707911e-01  5.06707911e-01  5.06707911e-01  5.06707911e-01  5.06707911e-01  5.06707911e-01  4.11342036e-09  4.55661819e-07  2.47268872e-12  1.00000000e+00 
 1.07000000e+00  5.11420039e-01  5.11420039e-01  5.11420039e-01  5.11420039e-01  5.11420039e-01  5.11420039e-01  4.05886839e-09  5.07788840e-07  2.97006864e-12  1.00000000e+00 
 1.08000000e+00  5.15553035e-01  5.15553035e-01  5.15553036e-01  5.15553036e-01  5.15553035e-01  5.15553035e-01  4.00696120e-09  5.58096833e-07  3.55271368e-12  1.00000000e+00 
 1.09000000e+00  5.19034386e-01  5.19034386e-01  5.19034386e-01  5.19034386e-01  5.19034386e-01  5.19034386e-01  3.95752298e-09  6.04070213e-07  4.19220214e-12  1.00000000e+00 
 1.10000000e+00  5.21791493e-01  5.21791493e-01  5.21791493e-01  5.21791493e-01  5.21791493e-01  5.21791493e-01  3.91039306e-09  6.42968356e-07  4.94537744e-12  1.00000000e+00 
