 v-sweep         v(b0)           v(b1)           v(b2)           v(b3)           v(b4)           v(b5)           v(b6)           i(vbias)        i(viout)        v(vout)        
 0.00000000e+00 -3.15720031e-20 -3.15720034e-20 -3.15720034e-20 -3.15720034e-20 -3.15720034e-20 -3.15720034e-20 -3.15720034e-20  1.11271611e-29 -4.73867468e-03  1.00000000e+00 
 1.00000000e-02  1.95827974e-03  1.95827974e-03  1.95827974e-03  1.95827974e-03  1.95827974e-03  1.95827974e-03  1.95827974e-03  1.16411931e-14 -4.31179844e-03  1.00000000e+00 
 2.00000000e-02  3.90950694e-03  3.90950694e-03  3.90950694e-03  3.90950694e-03  3.90950694e-03  3.90950694e-03  3.90950694e-03  2.27486673e-14 -3.89910286e-03  1.00000000e+00 
 3.00000000e-02  5.85602507e-03  5.85602507e-03  5.85602507e-03  5.85602507e-03  5.85602507e-03  5.85602507e-03  5.85602507e-03  3.34605661e-14 -3.50196327e-03  1.00000000e+00 
 4.00000000e-02  7.80174132e-03  7.80174131e-03  7.80174132e-03  7.80174131e-03  7.80174131e-03  7.80174131e-03  7.80174131e-03  4.38825374e-14 -3.12186070e-03  1.00000000e+00 
 5.00000000e-02  9.75120541e-03  9.75120540e-03  9.75120541e-03  9.75120540e-03  9.75120540e-03  9.75120540e-03  9.75120540e-03  5.40833383e-14 -2.76037830e-03  1.00000000e+00 
 6.00000000e-02  1.16949673e-02  1.16949673e-02  1.16949673e-02  1.16949673e-02  1.16949673e-02  1.16949673e-02  1.16949673e-02  6.40892335e-14 -2.41916514e-03  1.00000000e+00 
 7.00000000e-02  1.36518533e-02  1.36518533e-02  1.36518533e-02  1.36518533e-02  1.36518533e-02  1.36518533e-02  1.36518533e-02  7.39966424e-14 -2.09988073e-03  1.00000000e+00 
 8.00000000e-02  1.56037182e-02  1.56037182e-02  1.56037182e-02  1.56037182e-02  1.56037182e-02  1.56037182e-02  1.56037182e-02  8.37745333e-14 -1.80410670e-03  1.00000000e+00 
 9.00000000e-02  1.75613481e-02  1.75613481e-02  1.75613481e-02  1.75613481e-02  1.75613481e-02  1.75613481e-02  1.75613481e-02  9.34542428e-14 -1.53324017e-03  1.00000000e+00 
 1.00000000e-01  1.95130501e-02  1.95130501e-02  1.95130501e-02  1.95130501e-02  1.95130501e-02  1.95130501e-02  1.95130501e-02  1.03142816e-13 -1.28834300e-03  1.00000000e+00 
 1.10000000e-01  2.14594572e-02  2.14594572e-02  2.14594572e-02  2.14594572e-02  2.14594572e-02  2.14594572e-02  2.14594572e-02  1.12796559e-13 -1.07018871e-03  1.00000000e+00 
 1.20000000e-01  2.33999045e-02  2.33999045e-02  2.33999045e-02  2.33999045e-02  2.33999045e-02  2.33999045e-02  2.33999045e-02  1.22339564e-13 -8.78860182e-04  1.00000000e+00 
 1.30000000e-01  2.53582047e-02  2.53582047e-02  2.53582048e-02  2.53582047e-02  2.53582047e-02  2.53582047e-02  2.53582047e-02  1.31944430e-13 -7.13700091e-04  1.00000000e+00 
 1.40000000e-01  2.73063231e-02  2.73063231e-02  2.73063231e-02  2.73063231e-02  2.73063231e-02  2.73063231e-02  2.73063231e-02  1.41538826e-13 -5.73546891e-04  1.00000000e+00 
 1.50000000e-01  2.92195846e-02  2.92195845e-02  2.92195846e-02  2.92195845e-02  2.92195846e-02  2.92195846e-02  2.92195845e-02  1.51057681e-13 -4.56554864e-04  1.00000000e+00 
 1.60000000e-01  3.11369101e-02  3.11369101e-02  3.11369101e-02  3.11369101e-02  3.11369101e-02  3.11369101e-02  3.11369101e-02  1.60566581e-13 -3.60420756e-04  1.00000000e+00 
 1.70000000e-01  3.30506408e-02  3.30506408e-02  3.30506408e-02  3.30506408e-02  3.30506408e-02  3.30506408e-02  3.30506408e-02  1.70146009e-13 -2.82589977e-04  1.00000000e+00 
 1.80000000e-01  3.49302388e-02  3.49302388e-02  3.49302388e-02  3.49302388e-02  3.49302388e-02  3.49302388e-02  3.49302388e-02  1.79691900e-13 -2.20361336e-04  1.00000000e+00 
 1.90000000e-01  3.67888599e-02  3.67888598e-02  3.67888599e-02  3.67888598e-02  3.67888599e-02  3.67888599e-02  3.67888598e-02  1.89197602e-13 -1.71135928e-04  1.00000000e+00 
 2.00000000e-01  3.86533693e-02  3.86533693e-02  3.86533693e-02  3.86533693e-02  3.86533693e-02  3.86533693e-02  3.86533693e-02  1.98799961e-13 -1.32544153e-04  1.00000000e+00 
 2.10000000e-01  4.04644209e-02  4.04644209e-02  4.04644209e-02  4.04644209e-02  4.04644209e-02  4.04644209e-02  4.04644209e-02  2.08323620e-13 -1.02503111e-04  1.00000000e+00 
 2.20000000e-01  4.22699653e-02  4.22699653e-02  4.22699653e-02  4.22699653e-02  4.22699653e-02  4.22699653e-02  4.22699653e-02  2.17913158e-13 -7.91759837e-05  1.00000000e+00 
 2.30000000e-01  4.40390929e-02  4.40390929e-02  4.40390929e-02  4.40390929e-02  4.40390929e-02  4.40390929e-02  4.40390929e-02  2.27530397e-13 -6.11783747e-05  1.00000000e+00 
 2.40000000e-01  4.57703884e-02  4.57703884e-02  4.57703884e-02  4.57703884e-02  4.57703884e-02  4.57703884e-02  4.57703884e-02  2.37075631e-13 -4.73025586e-05  1.00000000e+00 
 2.50000000e-01  4.74781028e-02  4.74781028e-02  4.74781028e-02  4.74781028e-02  4.74781028e-02  4.74781028e-02  4.74781028e-02  2.46779309e-13 -3.66152588e-05  1.00000000e+00 
 2.60000000e-01  4.91500153e-02  4.91500152e-02  4.91500153e-02  4.91500152e-02  4.91500153e-02  4.91500153e-02  4.91500153e-02  2.56614838e-13 -2.83717753e-05  1.00000000e+00 
 2.70000000e-01  5.07571734e-02  5.07571734e-02  5.07571734e-02  5.07571734e-02  5.07571734e-02  5.07571734e-02  5.07571734e-02  2.66429253e-13 -2.20243699e-05  1.00000000e+00 
 2.80000000e-01  5.23861991e-02  5.23861991e-02  5.23861991e-02  5.23861991e-02  5.23861991e-02  5.23861991e-02  5.23861991e-02  2.76434813e-13 -1.71230629e-05  1.00000000e+00 
 2.90000000e-01  5.39674342e-02  5.39674342e-02  5.39674342e-02  5.39674342e-02  5.39674342e-02  5.39674342e-02  5.39674342e-02  2.86697830e-13 -1.33360475e-05  1.00000000e+00 
 3.00000000e-01  5.54846997e-02  5.54846997e-02  5.54846997e-02  5.54846997e-02  5.54846997e-02  5.54846997e-02  5.54846997e-02  2.97004297e-13 -1.04104703e-05  1.00000000e+00 
 3.10000000e-01  5.70012284e-02  5.70012283e-02  5.70012284e-02  5.70012283e-02  5.70012284e-02  5.70012284e-02  5.70012284e-02  3.07845112e-13 -8.13090837e-06  1.00000000e+00 
 3.20000000e-01  5.84630305e-02  5.84630305e-02  5.84630306e-02  5.84630305e-02  5.84630305e-02  5.84630305e-02  5.84630305e-02  3.18967143e-13 -6.35960205e-06  1.00000000e+00 
 3.30000000e-01  5.99122578e-02  5.99122578e-02  5.99122578e-02  5.99122578e-02  5.99122578e-02  5.99122578e-02  5.99122578e-02  3.30783103e-13 -4.99255579e-06  1.00000000e+00 
 3.40000000e-01  6.13331879e-02  6.13331879e-02  6.13331879e-02  6.13331879e-02  6.13331879e-02  6.13331879e-02  6.13331879e-02  3.43507801e-13 -3.92438481e-06  1.00000000e+00 
 3.50000000e-01  6.27505946e-02  6.27505946e-02  6.27505947e-02  6.27505946e-02  6.27505946e-02  6.27505946e-02  6.27505946e-02  3.57241282e-13 -3.07509097e-06  1.00000000e+00 
 3.60000000e-01  6.40917986e-02  6.40917985e-02  6.40917986e-02  6.40917985e-02  6.40917986e-02  6.40917986e-02  6.40917986e-02  3.72551030e-13 -2.42096991e-06  1.00000000e+00 
 3.70000000e-01  6.54339153e-02  6.54339153e-02  6.54339153e-02  6.54339153e-02  6.54339153e-02  6.54339153e-02  6.54339153e-02  3.89968954e-13 -1.90549011e-06  1.00000000e+00 
 3.80000000e-01  6.67541452e-02  6.67541452e-02  6.67541452e-02  6.67541452e-02  6.67541452e-02  6.67541452e-02  6.67541452e-02  4.10362093e-13 -1.50282922e-06  1.00000000e+00 
 3.90000000e-01  6.80859949e-02  6.80859949e-02  6.80859949e-02  6.80859949e-02  6.80859949e-02  6.80859949e-02  6.80859949e-02  4.34709072e-13 -1.18579200e-06  1.00000000e+00 
 4.00000000e-01  6.94046601e-02  6.94046601e-02  6.94046601e-02  6.94046601e-02  6.94046601e-02  6.94046601e-02  6.94046601e-02  4.64378698e-13 -9.33060193e-07  1.00000000e+00 
 4.10000000e-01  7.07320660e-02  7.07320660e-02  7.07320660e-02  7.07320660e-02  7.07320660e-02  7.07320660e-02  7.07320660e-02  5.01139305e-13 -7.36987488e-07  1.00000000e+00 
 4.20000000e-01  7.20616616e-02  7.20616616e-02  7.20616616e-02  7.20616616e-02  7.20616616e-02  7.20616616e-02  7.20616616e-02  5.47839524e-13 -5.80066626e-07  1.00000000e+00 
 4.30000000e-01  7.34201321e-02  7.34201320e-02  7.34201321e-02  7.34201320e-02  7.34201321e-02  7.34201321e-02  7.34201321e-02  6.07854587e-13 -4.59117501e-07  1.00000000e+00 
 4.40000000e-01  7.48639787e-02  7.48639787e-02  7.48639787e-02  7.48639787e-02  7.48639787e-02  7.48639787e-02  7.48639787e-02  6.86083785e-13 -3.64980650e-07  1.00000000e+00 
 4.50000000e-01  7.63588052e-02  7.63588052e-02  7.63588052e-02  7.63588052e-02  7.63588052e-02  7.63588052e-02  7.63588052e-02  7.88649961e-13 -2.89551622e-07  1.00000000e+00 
 4.60000000e-01  7.79630307e-02  7.79630307e-02  7.79630307e-02  7.79630307e-02  7.79630307e-02  7.79630307e-02  7.79630307e-02  9.24645939e-13 -2.31340252e-07  1.00000000e+00 
 4.70000000e-01  7.97193305e-02  7.97193305e-02  7.97193305e-02  7.97193305e-02  7.97193305e-02  7.97193305e-02  7.97193305e-02  1.10594086e-12 -1.84740614e-07  1.00000000e+00 
 4.80000000e-01  8.16666518e-02  8.16666518e-02  8.16666518e-02  8.16666518e-02  8.16666518e-02  8.16666518e-02  8.16666518e-02  1.34981972e-12 -1.47831557e-07  1.00000000e+00 
 4.90000000e-01  8.38965254e-02  8.38965254e-02  8.38965254e-02  8.38965254e-02  8.38965254e-02  8.38965254e-02  8.38965254e-02  1.67697692e-12 -1.18048931e-07  1.00000000e+00 
 5.00000000e-01  8.64252849e-02  8.64252849e-02  8.64252849e-02  8.64252849e-02  8.64252849e-02  8.64252849e-02  8.64252849e-02  2.11977820e-12 -9.33163875e-08  1.00000000e+00 
 5.10000000e-01  8.94263996e-02  8.94263996e-02  8.94263996e-02  8.94263996e-02  8.94263996e-02  8.94263996e-02  8.94263996e-02  2.72159780e-12 -7.28582421e-08  1.00000000e+00 
 5.20000000e-01  9.29393542e-02  9.29393542e-02  9.29393542e-02  9.29393542e-02  9.29393542e-02  9.29393542e-02  9.29393542e-02  3.53691967e-12 -5.63136240e-08  1.00000000e+00 
 5.30000000e-01  9.70491569e-02  9.70491569e-02  9.70491569e-02  9.70491569e-02  9.70491569e-02  9.70491569e-02  9.70491569e-02  4.64540819e-12 -4.31946603e-08  1.00000000e+00 
 5.40000000e-01  1.01845129e-01  1.01845129e-01  1.01845129e-01  1.01845129e-01  1.01845129e-01  1.01845129e-01  1.01845129e-01  6.14765747e-12 -3.29019088e-08  1.00000000e+00 
 5.50000000e-01  1.07416938e-01  1.07416938e-01  1.07416938e-01  1.07416938e-01  1.07416938e-01  1.07416938e-01  1.07416938e-01  8.18534129e-12 -2.49746392e-08  1.00000000e+00 
 5.60000000e-01  1.13732652e-01  1.13732652e-01  1.13732652e-01  1.13732652e-01  1.13732652e-01  1.13732652e-01  1.13732652e-01  1.09308868e-11 -1.89066895e-08  1.00000000e+00 
 5.70000000e-01  1.20771797e-01  1.20771797e-01  1.20771797e-01  1.20771797e-01  1.20771797e-01  1.20771797e-01  1.20771797e-01  1.46355020e-11 -1.42905776e-08  1.00000000e+00 
 5.80000000e-01  1.28527238e-01  1.28527238e-01  1.28527238e-01  1.28527238e-01  1.28527238e-01  1.28527238e-01  1.28527238e-01  1.96129883e-11 -1.07917941e-08  1.00000000e+00 
 5.90000000e-01  1.36855856e-01  1.36855856e-01  1.36855856e-01  1.36855856e-01  1.36855856e-01  1.36855856e-01  1.36855856e-01  2.62837460e-11 -8.14453927e-09  1.00000000e+00 
 6.00000000e-01  1.45696843e-01  1.45696843e-01  1.45696843e-01  1.45696843e-01  1.45696843e-01  1.45696843e-01  1.45696843e-01  3.52144910e-11 -6.14423357e-09  1.00000000e+00 
 6.10000000e-01  1.54954528e-01  1.54954528e-01  1.54954528e-01  1.54954528e-01  1.54954528e-01  1.54954528e-01  1.54954528e-01  4.71277808e-11 -4.63423078e-09  1.00000000e+00 
 6.20000000e-01  1.64497890e-01  1.64497890e-01  1.64497890e-01  1.64497890e-01  1.64497890e-01  1.64497890e-01  1.64497890e-01  6.29811724e-11 -3.49497498e-09  1.00000000e+00 
 6.30000000e-01  1.74259402e-01  1.74259402e-01  1.74259402e-01  1.74259402e-01  1.74259402e-01  1.74259402e-01  1.74259402e-01  8.39946168e-11 -2.63609934e-09  1.00000000e+00 
 6.40000000e-01  1.84144232e-01  1.84144232e-01  1.84144232e-01  1.84144232e-01  1.84144232e-01  1.84144232e-01  1.84144232e-01  1.11730437e-10 -1.98873806e-09  1.00000000e+00 
 6.50000000e-01  1.94079618e-01  1.94079618e-01  1.94079618e-01  1.94079618e-01  1.94079618e-01  1.94079618e-01  1.94079618e-01  1.48149125e-10 -1.50120627e-09  1.00000000e+00 
 6.60000000e-01  2.04016915e-01  2.04016915e-01  2.04016915e-01  2.04016915e-01  2.04016915e-01  2.04016915e-01  2.04016915e-01  1.95758881e-10 -1.13428200e-09  1.00000000e+00 
 6.70000000e-01  2.13905615e-01  2.13905615e-01  2.13905615e-01  2.13905615e-01  2.13905615e-01  2.13905615e-01  2.13905615e-01  2.57623478e-10 -8.58321414e-10  1.00000000e+00 
 6.80000000e-01  2.23705648e-01  2.23705648e-01  2.23705648e-01  2.23705648e-01  2.23705648e-01  2.23705648e-01  2.23705648e-01  3.37548961e-10 -6.51112941e-10  1.00000000e+00 
 6.90000000e-01  2.33388863e-01  2.33388863e-01  2.33388863e-01  2.33388863e-01  2.33388863e-01  2.33388863e-01  2.33388863e-01  4.40101289e-10 -4.95944619e-10  1.00000000e+00 
 7.00000000e-01  2.42926068e-01  2.42926068e-01  2.42926068e-01  2.42926068e-01  2.42926068e-01  2.42926068e-01  2.42926068e-01  5.70902575e-10 -3.80154574e-10  1.00000000e+00 
 7.10000000e-01  2.52301733e-01  2.52301733e-01  2.52301733e-01  2.52301733e-01  2.52301733e-01  2.52301733e-01  2.52301733e-01  7.36491867e-10 -2.94420488e-10  1.00000000e+00 
 7.20000000e-01  2.61497209e-01  2.61497208e-01  2.61497209e-01  2.61497208e-01  2.61497209e-01  2.61497209e-01  2.61497209e-01  9.44724854e-10 -2.31509034e-10  1.00000000e+00 
 7.30000000e-01  2.70503124e-01  2.70503124e-01  2.70503124e-01  2.70503124e-01  2.70503124e-01  2.70503124e-01  2.70503124e-01  1.20470051e-09 -1.86403781e-10  1.00000000e+00 
 7.40000000e-01  2.79311741e-01  2.79311741e-01  2.79311741e-01  2.79311741e-01  2.79311741e-01  2.79311741e-01  2.79311741e-01  1.52692903e-09 -1.55068847e-10  1.00000000e+00 
 7.50000000e-01  2.87919113e-01  2.87919113e-01  2.87919113e-01  2.87919113e-01  2.87919113e-01  2.87919113e-01  2.87919113e-01  1.92365535e-09 -1.34647848e-10  1.00000000e+00 
 7.60000000e-01  2.96325854e-01  2.96325854e-01  2.96325854e-01  2.96325854e-01  2.96325854e-01  2.96325854e-01  2.96325854e-01  2.40882303e-09 -1.23179689e-10  1.00000000e+00 
 7.70000000e-01  3.04533820e-01  3.04533820e-01  3.04533820e-01  3.04533820e-01  3.04533820e-01  3.04533820e-01  3.04533820e-01  2.99842662e-09 -1.19172228e-10  1.00000000e+00 
 7.80000000e-01  3.12548583e-01  3.12548583e-01  3.12548583e-01  3.12548583e-01  3.12548583e-01  3.12548583e-01  3.12548583e-01  3.71069708e-09 -1.21374910e-10  1.00000000e+00 
 7.90000000e-01  3.20377754e-01  3.20377754e-01  3.20377754e-01  3.20377754e-01  3.20377754e-01  3.20377754e-01  3.20377754e-01  4.56640636e-09 -1.28935085e-10  1.00000000e+00 
 8.00000000e-01  3.28030587e-01  3.28030586e-01  3.28030587e-01  3.28030586e-01  3.28030586e-01  3.28030586e-01  3.28030586e-01  5.58932367e-09 -1.39806389e-10  1.00000000e+00 
 8.10000000e-01  3.35516779e-01  3.35516779e-01  3.35516779e-01  3.35516779e-01  3.35516779e-01  3.35516779e-01  3.35516779e-01  6.80643186e-09 -1.48304480e-10  1.00000000e+00 
 8.20000000e-01  3.42846828e-01  3.42846828e-01  3.42846828e-01  3.42846828e-01  3.42846828e-01  3.42846828e-01  3.42846828e-01  8.24857826e-09 -1.46059165e-10  1.00000000e+00 
 8.30000000e-01  3.50030507e-01  3.50030507e-01  3.50030507e-01  3.50030507e-01  3.50030507e-01  3.50030507e-01  3.50030507e-01  9.95043736e-09 -1.31507250e-10  1.00000000e+00 
 8.40000000e-01  3.57076228e-01  3.57076228e-01  3.57076228e-01  3.57076228e-01  3.57076228e-01  3.57076228e-01  3.57076228e-01  1.19511547e-08 -1.10389919e-10  1.00000000e+00 
 8.50000000e-01  3.63989832e-01  3.63989832e-01  3.63989832e-01  3.63989832e-01  3.63989832e-01  3.63989832e-01  3.63989832e-01  1.42937582e-08 -8.84909923e-11  1.00000000e+00 
 8.60000000e-01  3.70773724e-01  3.70773724e-01  3.70773724e-01  3.70773724e-01  3.70773724e-01  3.70773724e-01  3.70773724e-01  1.70248073e-08 -6.90931756e-11  1.00000000e+00 
 8.70000000e-01  3.77424637e-01  3.77424637e-01  3.77424637e-01  3.77424637e-01  3.77424637e-01  3.77424637e-01  3.77424637e-01  2.01923536e-08 -5.31770183e-11  1.00000000e+00 
 8.80000000e-01  3.83932226e-01  3.83932226e-01  3.83932226e-01  3.83932226e-01  3.83932226e-01  3.83932226e-01  3.83932226e-01  2.38427855e-08 -4.05435685e-11  1.00000000e+00 
 8.90000000e-01  3.90276671e-01  3.90276671e-01  3.90276671e-01  3.90276671e-01  3.90276671e-01  3.90276671e-01  3.90276671e-01  2.80146697e-08 -3.08091330e-11  1.00000000e+00 
 9.00000000e-01  3.96425505e-01  3.96425505e-01  3.96425505e-01  3.96425505e-01  3.96425505e-01  3.96425505e-01  3.96425505e-01  3.27289804e-08 -2.33200126e-11  1.00000000e+00 
 9.10000000e-01  4.02331374e-01  4.02331374e-01  4.02331374e-01  4.02331374e-01  4.02331374e-01  4.02331374e-01  4.02331374e-01  3.79755640e-08 -1.76783033e-11  1.00000000e+00 
 9.20000000e-01  4.07929635e-01  4.07929635e-01  4.07929635e-01  4.07929635e-01  4.07929635e-01  4.07929635e-01  4.07929635e-01  4.36949978e-08 -1.34150469e-11  1.00000000e+00 
 9.30000000e-01  4.13137785e-01  4.13137785e-01  4.13137785e-01  4.13137785e-01  4.13137785e-01  4.13137785e-01  4.13137785e-01  4.97581496e-08 -1.01749720e-11  1.00000000e+00 
 9.40000000e-01  4.17854271e-01  4.17854271e-01  4.17854271e-01  4.17854271e-01  4.17854271e-01  4.17854271e-01  4.17854271e-01  5.59444864e-08 -7.73070497e-12  1.00000000e+00 
 9.50000000e-01  4.21954888e-01  4.21954888e-01  4.21954888e-01  4.21954888e-01  4.21954888e-01  4.21954888e-01  4.21954888e-01  6.19207547e-08 -5.88329385e-12  1.00000000e+00 
 9.60000000e-01  4.25273865e-01  4.25273865e-01  4.25273865e-01  4.25273865e-01  4.25273865e-01  4.25273865e-01  4.25273865e-01  6.72150975e-08 -4.44799753e-12  1.00000000e+00 
 9.70000000e-01  4.27713147e-01  4.27713147e-01  4.27713147e-01  4.27713147e-01  4.27713147e-01  4.27713147e-01  4.27713147e-01  7.13764550e-08 -3.33955086e-12  1.00000000e+00 
 9.80000000e-01  4.29248682e-01  4.29248682e-01  4.29248682e-01  4.29248682e-01  4.29248682e-01  4.29248682e-01  4.29248682e-01  7.41224611e-08 -2.50111043e-12  1.00000000e+00 
 9.90000000e-01  4.30072848e-01  4.30072848e-01  4.30072848e-01  4.30072848e-01  4.30072848e-01  4.30072848e-01  4.30072848e-01  7.56380203e-08 -1.73372428e-12  1.00000000e+00 
 1.00000000e+00  4.30478524e-01  4.30478524e-01  4.30478524e-01  4.30478524e-01  4.30478524e-01  4.30478524e-01  4.30478524e-01  7.63909540e-08 -1.10844667e-12  1.00000000e+00 
 1.01000000e+00  4.30663991e-01  4.30663991e-01  4.30663991e-01  4.30663991e-01  4.30663991e-01  4.30663991e-01  4.30663991e-01  7.67421611e-08 -4.12114787e-13  1.00000000e+00 
 1.02000000e+00  4.30756768e-01  4.30756768e-01  4.30756768e-01  4.30756768e-01  4.30756768e-01  4.30756768e-01  4.30756768e-01  7.69177610e-08  3.41060513e-13  1.00000000e+00 
 1.03000000e+00  4.30806396e-01  4.30806396e-01  4.30806396e-01  4.30806396e-01  4.30806396e-01  4.30806396e-01  4.30806396e-01  7.70114283e-08  1.27897692e-12  1.00000000e+00 
 1.04000000e+00  4.30834548e-01  4.30834548e-01  4.30834548e-01  4.30834548e-01  4.30834548e-01  4.30834548e-01  4.30834548e-01  7.70645272e-08  2.44426701e-12  1.00000000e+00 
 1.05000000e+00  4.30851568e-01  4.30851568e-01  4.30851568e-01  4.30851568e-01  4.30851568e-01  4.30851568e-01  4.30851568e-01  7.70965123e-08  3.95061761e-12  1.00000000e+00 
 1.06000000e+00  4.30862344e-01  4.30862344e-01  4.30862344e-01  4.30862344e-01  4.30862344e-01  4.30862344e-01  4.30862344e-01  7.71167663e-08  5.92592642e-12  1.00000000e+00 
 1.07000000e+00  4.30869622e-01  4.30869622e-01  4.30869622e-01  4.30869622e-01  4.30869622e-01  4.30869622e-01  4.30869622e-01  7.71302844e-08  8.35598257e-12  1.00000000e+00 
 1.08000000e+00  4.30874640e-01  4.30874640e-01  4.30874640e-01  4.30874640e-01  4.30874640e-01  4.30874640e-01  4.30874640e-01  7.71396103e-08  1.15392140e-11  1.00000000e+00 
 1.09000000e+00  4.30878278e-01  4.30878278e-01  4.30878278e-01  4.30878278e-01  4.30878278e-01  4.30878278e-01  4.30878278e-01  7.71463036e-08  1.57740487e-11  1.00000000e+00 
 1.10000000e+00  4.30880981e-01  4.30880981e-01  4.30880981e-01  4.30880981e-01  4.30880981e-01  4.30880981e-01  4.30880981e-01  7.71512525e-08  2.13162821e-11  1.00000000e+00 
