 v-sweep         v(b0)           v(b1)           v(b2)           v(b3)           v(b4)           v(b5)           v(b6)           i(vbias)        i(viout)        v(vout)        
 0.00000000e+00  7.27285266e-22  7.27285266e-22  7.27285266e-22  7.27285266e-22  7.27285266e-22  7.27285266e-22  3.04934445e-22 -5.09444511e-31 -5.70500841e-03  1.00000000e+00 
 1.00000000e-02  1.71284330e-03  1.71284330e-03  1.71284330e-03  1.71284330e-03  1.71284330e-03  1.71284330e-03  1.79481323e-03  1.35789266e-14 -5.25162722e-03  1.00000000e+00 
 2.00000000e-02  3.38945172e-03  3.38945172e-03  3.38945172e-03  3.38945172e-03  3.38945172e-03  3.38945172e-03  3.19534171e-03  2.61630063e-14 -4.80985891e-03  1.00000000e+00 
 3.00000000e-02  5.03898935e-03  5.03898934e-03  5.03898934e-03  5.03898934e-03  5.03898934e-03  5.03898934e-03  4.16719505e-03  3.80192924e-14 -4.38081382e-03  1.00000000e+00 
 4.00000000e-02  6.66338852e-03  6.66338852e-03  6.66338852e-03  6.66338852e-03  6.66338852e-03  6.66338852e-03  4.71886267e-03  4.92760570e-14 -3.96573297e-03  1.00000000e+00 
 5.00000000e-02  8.25787666e-03  8.25787665e-03  8.25787666e-03  8.25787665e-03  8.25787666e-03  8.25787665e-03  4.89752491e-03  6.01527427e-14 -3.56597482e-03  1.00000000e+00 
 6.00000000e-02  9.84472102e-03  9.84472101e-03  9.84472102e-03  9.84472101e-03  9.84472102e-03  9.84472101e-03  4.78601192e-03  7.06959210e-14 -3.18301150e-03  1.00000000e+00 
 7.00000000e-02  1.14070081e-02  1.14070081e-02  1.14070081e-02  1.14070081e-02  1.14070081e-02  1.14070081e-02  4.46874628e-03  8.10499027e-14 -2.81841686e-03  1.00000000e+00 
 8.00000000e-02  1.29772244e-02  1.29772244e-02  1.29772244e-02  1.29772244e-02  1.29772244e-02  1.29772244e-02  4.03350855e-03  9.11512077e-14 -2.47381961e-03  1.00000000e+00 
 9.00000000e-02  1.45078827e-02  1.45078826e-02  1.45078827e-02  1.45078826e-02  1.45078826e-02  1.45078826e-02  3.54181948e-03  1.01142158e-13 -2.15088834e-03  1.00000000e+00 
 1.00000000e-01  1.60670731e-02  1.60670731e-02  1.60670731e-02  1.60670731e-02  1.60670731e-02  1.60670731e-02  3.04723742e-03  1.10996817e-13 -1.85122540e-03  1.00000000e+00 
 1.10000000e-01  1.75946537e-02  1.75946537e-02  1.75946537e-02  1.75946537e-02  1.75946537e-02  1.75946537e-02  2.57780312e-03  1.20806766e-13 -1.57625654e-03  1.00000000e+00 
 1.20000000e-01  1.91264112e-02  1.91264112e-02  1.91264112e-02  1.91264112e-02  1.91264112e-02  1.91264112e-02  2.15262825e-03  1.30600568e-13 -1.32718586e-03  1.00000000e+00 
 1.30000000e-01  2.06982138e-02  2.06982138e-02  2.06982138e-02  2.06982138e-02  2.06982138e-02  2.06982138e-02  1.77952747e-03  1.40358421e-13 -1.10472642e-03  1.00000000e+00 
 1.40000000e-01  2.22153539e-02  2.22153539e-02  2.22153539e-02  2.22153539e-02  2.22153539e-02  2.22153539e-02  1.45808056e-03  1.49998022e-13 -9.09083954e-04  1.00000000e+00 
 1.50000000e-01  2.37557168e-02  2.37557168e-02  2.37557168e-02  2.37557168e-02  2.37557168e-02  2.37557168e-02  1.18678937e-03  1.59709214e-13 -7.39770362e-04  1.00000000e+00 
 1.60000000e-01  2.52870737e-02  2.52870736e-02  2.52870737e-02  2.52870736e-02  2.52870736e-02  2.52870736e-02  9.60490915e-04  1.69253066e-13 -5.95709058e-04  1.00000000e+00 
 1.70000000e-01  2.68012215e-02  2.68012215e-02  2.68012215e-02  2.68012215e-02  2.68012215e-02  2.68012215e-02  7.73648292e-04  1.78887382e-13 -4.75145338e-04  1.00000000e+00 
 1.80000000e-01  2.83087420e-02  2.83087420e-02  2.83087420e-02  2.83087420e-02  2.83087420e-02  2.83087420e-02  6.20710967e-04  1.88635444e-13 -3.75790200e-04  1.00000000e+00 
 1.90000000e-01  2.98232601e-02  2.98232601e-02  2.98232601e-02  2.98232601e-02  2.98232601e-02  2.98232601e-02  4.96383568e-04  1.98210765e-13 -2.95152916e-04  1.00000000e+00 
 2.00000000e-01  3.13094744e-02  3.13094744e-02  3.13094744e-02  3.13094744e-02  3.13094744e-02  3.13094744e-02  3.95796381e-04  2.07785964e-13 -2.30539889e-04  1.00000000e+00 
 2.10000000e-01  3.27946952e-02  3.27946952e-02  3.27946952e-02  3.27946951e-02  3.27946952e-02  3.27946951e-02  3.14830772e-04  2.17502611e-13 -1.79340302e-04  1.00000000e+00 
 2.20000000e-01  3.42485563e-02  3.42485562e-02  3.42485563e-02  3.42485562e-02  3.42485563e-02  3.42485562e-02  2.49881031e-04  2.27062767e-13 -1.39109133e-04  1.00000000e+00 
 2.30000000e-01  3.57383563e-02  3.57383563e-02  3.57383563e-02  3.57383563e-02  3.57383563e-02  3.57383562e-02  1.97992057e-04  2.36829599e-13 -1.07673882e-04  1.00000000e+00 
 2.40000000e-01  3.71779874e-02  3.71779874e-02  3.71779874e-02  3.71779874e-02  3.71779874e-02  3.71779874e-02  1.56609115e-04  2.46487089e-13 -8.32789206e-05  1.00000000e+00 
 2.50000000e-01  3.85973795e-02  3.85973794e-02  3.85973795e-02  3.85973794e-02  3.85973794e-02  3.85973794e-02  1.23700846e-04  2.56272800e-13 -6.43932623e-05  1.00000000e+00 
 2.60000000e-01  4.00033337e-02  4.00033337e-02  4.00033337e-02  4.00033337e-02  4.00033337e-02  4.00033337e-02  9.75894013e-05  2.66216858e-13 -4.98322182e-05  1.00000000e+00 
 2.70000000e-01  4.13958919e-02  4.13958919e-02  4.13958919e-02  4.13958919e-02  4.13958919e-02  4.13958919e-02  7.69093156e-05  2.76184213e-13 -3.85852140e-05  1.00000000e+00 
 2.80000000e-01  4.27456496e-02  4.27456496e-02  4.27456496e-02  4.27456496e-02  4.27456496e-02  4.27456496e-02  6.05545574e-05  2.86293911e-13 -2.99184321e-05  1.00000000e+00 
 2.90000000e-01  4.40801950e-02  4.40801950e-02  4.40801950e-02  4.40801950e-02  4.40801950e-02  4.40801950e-02  4.76422384e-05  2.96692155e-13 -2.32212798e-05  1.00000000e+00 
 3.00000000e-01  4.53800462e-02  4.53800462e-02  4.53800462e-02  4.53800462e-02  4.53800462e-02  4.53800462e-02  3.74593893e-05  3.07077077e-13 -1.80618117e-05  1.00000000e+00 
 3.10000000e-01  4.67319889e-02  4.67319889e-02  4.67319889e-02  4.67319889e-02  4.67319889e-02  4.67319889e-02  2.94417698e-05  3.18016081e-13 -1.40497446e-05  1.00000000e+00 
 3.20000000e-01  4.80075762e-02  4.80075761e-02  4.80075762e-02  4.80075761e-02  4.80075761e-02  4.80075761e-02  2.31304071e-05  3.29357581e-13 -1.09640656e-05  1.00000000e+00 
 3.30000000e-01  4.92973073e-02  4.92973073e-02  4.92973073e-02  4.92973072e-02  4.92973073e-02  4.92973072e-02  1.81687954e-05  3.41600256e-13 -8.56461742e-06  1.00000000e+00 
 3.40000000e-01  5.05791158e-02  5.05791158e-02  5.05791158e-02  5.05791158e-02  5.05791158e-02  5.05791158e-02  1.42705072e-05  3.54580948e-13 -6.69597270e-06  1.00000000e+00 
 3.50000000e-01  5.18100935e-02  5.18100934e-02  5.18100934e-02  5.18100934e-02  5.18100934e-02  5.18100934e-02  1.12090364e-05  3.68741848e-13 -5.24041280e-06  1.00000000e+00 
 3.60000000e-01  5.30247999e-02  5.30247999e-02  5.30247999e-02  5.30247999e-02  5.30247999e-02  5.30247999e-02  8.80627630e-06  3.84673169e-13 -4.10563919e-06  1.00000000e+00 
 3.70000000e-01  5.42058642e-02  5.42058642e-02  5.42058642e-02  5.42058642e-02  5.42058642e-02  5.42058642e-02  6.92108162e-06  4.03032832e-13 -3.21859596e-06  1.00000000e+00 
 3.80000000e-01  5.53901413e-02  5.53901412e-02  5.53901412e-02  5.53901412e-02  5.53901412e-02  5.53901412e-02  5.44249223e-06  4.24591921e-13 -2.53578349e-06  1.00000000e+00 
 3.90000000e-01  5.66600485e-02  5.66600485e-02  5.66600485e-02  5.66600485e-02  5.66600485e-02  5.66600485e-02  4.28313989e-06  4.50714119e-13 -1.99995912e-06  1.00000000e+00 
 4.00000000e-01  5.78753311e-02  5.78753311e-02  5.78753311e-02  5.78753311e-02  5.78753311e-02  5.78753311e-02  3.37371679e-06  4.82923760e-13 -1.57242610e-06  1.00000000e+00 
 4.10000000e-01  5.90986383e-02  5.90986382e-02  5.90986383e-02  5.90986382e-02  5.90986382e-02  5.90986382e-02  2.66037627e-06  5.23006280e-13 -1.24290216e-06  1.00000000e+00 
 4.20000000e-01  6.04090568e-02  6.04090567e-02  6.04090568e-02  6.04090567e-02  6.04090567e-02  6.04090567e-02  2.10076244e-06  5.74684180e-13 -9.77754894e-07  1.00000000e+00 
 4.30000000e-01  6.16937069e-02  6.16937068e-02  6.16937069e-02  6.16937068e-02  6.16937068e-02  6.16937068e-02  1.66144061e-06  6.41222183e-13 -7.74047550e-07  1.00000000e+00 
 4.40000000e-01  6.31351819e-02  6.31351819e-02  6.31351819e-02  6.31351819e-02  6.31351819e-02  6.31351819e-02  1.31646791e-06  7.28514363e-13 -6.12818980e-07  1.00000000e+00 
 4.50000000e-01  6.46200849e-02  6.46200849e-02  6.46200849e-02  6.46200849e-02  6.46200849e-02  6.46200849e-02  1.04530313e-06  8.43539377e-13 -4.87248741e-07  1.00000000e+00 
 4.60000000e-01  6.62258391e-02  6.62258391e-02  6.62258391e-02  6.62258391e-02  6.62258391e-02  6.62258391e-02  8.31980662e-07  9.97271439e-13 -3.87296438e-07  1.00000000e+00 
 4.70000000e-01  6.80014766e-02  6.80014766e-02  6.80014766e-02  6.80014766e-02  6.80014766e-02  6.80014766e-02  6.63978165e-07  1.20245854e-12 -3.10557539e-07  1.00000000e+00 
 4.80000000e-01  7.01548847e-02  7.01548847e-02  7.01548847e-02  7.01548847e-02  7.01548847e-02  7.01548847e-02  5.31519548e-07  1.47888700e-12 -2.49692931e-07  1.00000000e+00 
 4.90000000e-01  7.25147028e-02  7.25147028e-02  7.25147028e-02  7.25147028e-02  7.25147028e-02  7.25147028e-02  4.26888164e-07  1.85352970e-12 -2.01301930e-07  1.00000000e+00 
 5.00000000e-01  7.53037951e-02  7.53037950e-02  7.53037950e-02  7.53037950e-02  7.53037950e-02  7.53037950e-02  3.44111535e-07  2.36266182e-12 -1.62010679e-07  1.00000000e+00 
 5.10000000e-01  7.86273747e-02  7.86273746e-02  7.86273747e-02  7.86273746e-02  7.86273746e-02  7.86273746e-02  2.78495157e-07  3.05823119e-12 -1.28689834e-07  1.00000000e+00 
 5.20000000e-01  8.25804281e-02  8.25804281e-02  8.25804281e-02  8.25804281e-02  8.25804281e-02  8.25804281e-02  2.26365869e-07  4.00803978e-12 -1.00888343e-07  1.00000000e+00 
 5.30000000e-01  8.72366427e-02  8.72366426e-02  8.72366427e-02  8.72366426e-02  8.72366427e-02  8.72366426e-02  1.84849904e-07  5.31227753e-12 -7.79644154e-08  1.00000000e+00 
 5.40000000e-01  9.26842934e-02  9.26842933e-02  9.26842933e-02  9.26842933e-02  9.26842933e-02  9.26842933e-02  1.51699766e-07  7.08749205e-12 -5.97285350e-08  1.00000000e+00 
 5.50000000e-01  9.89488243e-02  9.89488243e-02  9.89488243e-02  9.89488243e-02  9.89488243e-02  9.89488243e-02  1.25154169e-07  9.51531909e-12 -4.54318752e-08  1.00000000e+00 
 5.60000000e-01  1.06043414e-01  1.06043414e-01  1.06043414e-01  1.06043414e-01  1.06043414e-01  1.06043414e-01  1.03834370e-07  1.28158595e-11 -3.44583952e-08  1.00000000e+00 
 5.70000000e-01  1.13836611e-01  1.13836611e-01  1.13836611e-01  1.13836611e-01  1.13836611e-01  1.13836611e-01  8.66568773e-08  1.72932996e-11 -2.60732236e-08  1.00000000e+00 
 5.80000000e-01  1.22243715e-01  1.22243715e-01  1.22243715e-01  1.22243715e-01  1.22243715e-01  1.22243715e-01  7.27717263e-08  2.33189371e-11 -1.97038617e-08  1.00000000e+00 
 5.90000000e-01  1.31173878e-01  1.31173878e-01  1.31173878e-01  1.31173878e-01  1.31173878e-01  1.31173878e-01  6.15095407e-08  3.14196863e-11 -1.48793333e-08  1.00000000e+00 
 6.00000000e-01  1.40527348e-01  1.40527348e-01  1.40527348e-01  1.40527348e-01  1.40527348e-01  1.40527348e-01  5.23419795e-08  4.22543372e-11 -1.12289911e-08  1.00000000e+00 
 6.10000000e-01  1.50155713e-01  1.50155713e-01  1.50155713e-01  1.50155713e-01  1.50155713e-01  1.50155713e-01  4.48511348e-08  5.67484670e-11 -8.47091997e-09  1.00000000e+00 
 6.20000000e-01  1.60005345e-01  1.60005345e-01  1.60005345e-01  1.60005345e-01  1.60005345e-01  1.60005345e-01  3.87060748e-08  7.60167623e-11 -6.38854658e-09  1.00000000e+00 
 6.30000000e-01  1.69964570e-01  1.69964570e-01  1.69964570e-01  1.69964570e-01  1.69964570e-01  1.69964570e-01  3.36438395e-08  1.01545203e-10 -4.81790607e-09  1.00000000e+00 
 6.40000000e-01  1.79984703e-01  1.79984703e-01  1.79984703e-01  1.79984703e-01  1.79984703e-01  1.79984703e-01  2.94553135e-08  1.35227191e-10 -3.63397135e-09  1.00000000e+00 
 6.50000000e-01  1.89995769e-01  1.89995769e-01  1.89995769e-01  1.89995769e-01  1.89995769e-01  1.89995769e-01  2.59737556e-08  1.79353567e-10 -2.74155809e-09  1.00000000e+00 
 6.60000000e-01  1.99956574e-01  1.99956574e-01  1.99956574e-01  1.99956574e-01  1.99956574e-01  1.99956574e-01  2.30660306e-08  2.36926437e-10 -2.06952677e-09  1.00000000e+00 
 6.70000000e-01  2.09824896e-01  2.09824896e-01  2.09824896e-01  2.09824896e-01  2.09824896e-01  2.09824896e-01  2.06256012e-08  3.11553811e-10 -1.56356350e-09  1.00000000e+00 
 6.80000000e-01  2.19568726e-01  2.19568726e-01  2.19568726e-01  2.19568726e-01  2.19568726e-01  2.19568726e-01  1.85670504e-08  4.07584050e-10 -1.18299681e-09  1.00000000e+00 
 6.90000000e-01  2.29167955e-01  2.29167955e-01  2.29167955e-01  2.29167955e-01  2.29167955e-01  2.29167955e-01  1.68217429e-08  5.30418542e-10 -8.97273367e-10  1.00000000e+00 
 7.00000000e-01  2.38596456e-01  2.38596456e-01  2.38596456e-01  2.38596456e-01  2.38596456e-01  2.38596456e-01  1.53343819e-08  6.86314894e-10 -6.83485268e-10  1.00000000e+00 
 7.10000000e-01  2.47842632e-01  2.47842632e-01  2.47842632e-01  2.47842632e-01  2.47842632e-01  2.47842632e-01  1.40603073e-08  8.82893814e-10 -5.23755261e-10  1.00000000e+00 
 7.20000000e-01  2.56894064e-01  2.56894064e-01  2.56894064e-01  2.56894064e-01  2.56894064e-01  2.56894064e-01  1.29633354e-08  1.12886100e-09 -4.05492528e-10  1.00000000e+00 
 7.30000000e-01  2.65744646e-01  2.65744646e-01  2.65744646e-01  2.65744646e-01  2.65744646e-01  2.65744646e-01  1.20140591e-08  1.43449513e-09 -3.18920002e-10  1.00000000e+00 
 7.40000000e-01  2.74390971e-01  2.74390971e-01  2.74390971e-01  2.74390971e-01  2.74390971e-01  2.74390971e-01  1.11884964e-08  1.81158077e-09 -2.56420662e-10  1.00000000e+00 
 7.50000000e-01  2.82834745e-01  2.82834745e-01  2.82834745e-01  2.82834745e-01  2.82834745e-01  2.82834745e-01  1.04670194e-08  2.27381847e-09 -2.13191242e-10  1.00000000e+00 
 7.60000000e-01  2.91079289e-01  2.91079289e-01  2.91079289e-01  2.91079289e-01  2.91079289e-01  2.91079289e-01  9.83350309e-09  2.83681389e-09 -1.84684268e-10  1.00000000e+00 
 7.70000000e-01  2.99131170e-01  2.99131170e-01  2.99131170e-01  2.99131170e-01  2.99131170e-01  2.99131170e-01  9.27464991e-09  3.51864626e-09 -1.68512315e-10  1.00000000e+00 
 7.80000000e-01  3.06998462e-01  3.06998462e-01  3.06998462e-01  3.06998462e-01  3.06998462e-01  3.06998462e-01  8.77945053e-09  4.34013980e-09 -1.62316383e-10  1.00000000e+00 
 7.90000000e-01  3.14693006e-01  3.14693006e-01  3.14693006e-01  3.14693006e-01  3.14693006e-01  3.14693006e-01  8.33875465e-09  5.32518363e-09 -1.64277481e-10  1.00000000e+00 
 8.00000000e-01  3.22227832e-01  3.22227832e-01  3.22227832e-01  3.22227832e-01  3.22227832e-01  3.22227832e-01  7.94492634e-09  6.50160104e-09 -1.73031367e-10  1.00000000e+00 
 8.10000000e-01  3.29616118e-01  3.29616118e-01  3.29616118e-01  3.29616118e-01  3.29616118e-01  3.29616118e-01  7.59156827e-09  7.90152566e-09 -1.84343207e-10  1.00000000e+00 
 8.20000000e-01  3.36871415e-01  3.36871415e-01  3.36871415e-01  3.36871415e-01  3.36871415e-01  3.36871415e-01  7.27329966e-09  9.56235890e-09 -1.89402272e-10  1.00000000e+00 
 8.30000000e-01  3.44007687e-01  3.44007687e-01  3.44007687e-01  3.44007687e-01  3.44007687e-01  3.44007687e-01  6.98557714e-09  1.15277490e-08 -1.79653625e-10  1.00000000e+00 
 8.40000000e-01  3.51038348e-01  3.51038348e-01  3.51038348e-01  3.51038348e-01  3.51038348e-01  3.51038348e-01  6.72454978e-09  1.38481671e-08 -1.57115210e-10  1.00000000e+00 
 8.50000000e-01  3.57975505e-01  3.57975505e-01  3.57975505e-01  3.57975505e-01  3.57975505e-01  3.57975505e-01  6.48694111e-09  1.65822911e-08 -1.29460886e-10  1.00000000e+00 
 8.60000000e-01  3.64829904e-01  3.64829904e-01  3.64829904e-01  3.64829904e-01  3.64829904e-01  3.64829904e-01  6.26995293e-09  1.97977137e-08 -1.02687636e-10  1.00000000e+00 
 8.70000000e-01  3.71609900e-01  3.71609900e-01  3.71609900e-01  3.71609900e-01  3.71609900e-01  3.71609900e-01  6.07118699e-09  2.35723014e-08 -7.95807864e-11  1.00000000e+00 
 8.80000000e-01  3.78321300e-01  3.78321300e-01  3.78321300e-01  3.78321300e-01  3.78321300e-01  3.78321300e-01  5.88858032e-09  2.79939822e-08 -6.08508799e-11  1.00000000e+00 
 8.90000000e-01  3.84966166e-01  3.84966166e-01  3.84966166e-01  3.84966166e-01  3.84966166e-01  3.84966166e-01  5.72035211e-09  3.31606298e-08 -4.61284344e-11  1.00000000e+00 
 9.00000000e-01  3.91541630e-01  3.91541630e-01  3.91541630e-01  3.91541630e-01  3.91541630e-01  3.91541630e-01  5.56495977e-09  3.91783157e-08 -3.47029072e-11  1.00000000e+00 
 9.10000000e-01  3.98038110e-01  3.98038110e-01  3.98038110e-01  3.98038110e-01  3.98038110e-01  3.98038110e-01  5.42106246e-09  4.61564778e-08 -2.60058641e-11  1.00000000e+00 
 9.20000000e-01  4.04437705e-01  4.04437705e-01  4.04437705e-01  4.04437705e-01  4.04437705e-01  4.04437705e-01  5.28749068e-09  5.41991270e-08 -1.94688710e-11  1.00000000e+00 
 9.30000000e-01  4.10711204e-01  4.10711204e-01  4.10711204e-01  4.10711204e-01  4.10711204e-01  4.10711204e-01  5.16322098e-09  6.33898551e-08 -1.44950718e-11  1.00000000e+00 
 9.40000000e-01  4.16815725e-01  4.16815725e-01  4.16815725e-01  4.16815725e-01  4.16815725e-01  4.16815725e-01  5.04735457e-09  7.37683763e-08 -1.07149845e-11  1.00000000e+00 
 9.50000000e-01  4.22692510e-01  4.22692510e-01  4.22692510e-01  4.22692510e-01  4.22692510e-01  4.22692510e-01  4.93909960e-09  8.52981401e-08 -7.87281351e-12  1.00000000e+00 
 9.60000000e-01  4.28266530e-01  4.28266530e-01  4.28266530e-01  4.28266530e-01  4.28266530e-01  4.28266530e-01  4.83775624e-09  9.78279360e-08 -5.71276360e-12  1.00000000e+00 
 9.70000000e-01  4.33447189e-01  4.33447189e-01  4.33447189e-01  4.33447189e-01  4.33447189e-01  4.33447189e-01  4.74270423e-09  1.11051499e-07 -4.09272616e-12  1.00000000e+00 
 9.80000000e-01  4.38127310e-01  4.38127310e-01  4.38127310e-01  4.38127310e-01  4.38127310e-01  4.38127310e-01  4.65339206e-09  1.24465153e-07 -2.78532752e-12  1.00000000e+00 
 9.90000000e-01  4.42176852e-01  4.42176852e-01  4.42176852e-01  4.42176852e-01  4.42176852e-01  4.42176852e-01  4.56932757e-09  1.37317450e-07 -1.87583282e-12  1.00000000e+00 
 1.00000000e+00  4.45421435e-01  4.45421435e-01  4.45421435e-01  4.45421435e-01  4.45421435e-01  4.45421435e-01  4.49006862e-09  1.48550903e-07 -9.94759830e-13  1.00000000e+00 
 1.01000000e+00  4.47747548e-01  4.47747548e-01  4.47747548e-01  4.47747548e-01  4.47747548e-01  4.47747548e-01  4.41522413e-09  1.57130842e-07 -3.69482223e-13  1.00000000e+00 
 1.02000000e+00  4.49137546e-01  4.49137546e-01  4.49137546e-01  4.49137546e-01  4.49137546e-01  4.49137546e-01  4.34444958e-09  1.62483730e-07  3.12638804e-13  1.00000000e+00 
 1.03000000e+00  4.49819767e-01  4.49819767e-01  4.49819767e-01  4.49819767e-01  4.49819767e-01  4.49819767e-01  4.27745136e-09  1.65174768e-07  9.66338121e-13  1.00000000e+00 
 1.04000000e+00  4.50116501e-01  4.50116501e-01  4.50116501e-01  4.50116501e-01  4.50116501e-01  4.50116501e-01  4.21397073e-09  1.66351683e-07  1.79056769e-12  1.00000000e+00 
 1.05000000e+00  4.50233920e-01  4.50233920e-01  4.50233920e-01  4.50233920e-01  4.50233920e-01  4.50233920e-01  4.15376721e-09  1.66827668e-07  2.84217094e-12  1.00000000e+00 
 1.06000000e+00  4.50284857e-01  4.50284857e-01  4.50284857e-01  4.50284857e-01  4.50284857e-01  4.50284857e-01  4.09661743e-09  1.67033583e-07  4.17799129e-12  1.00000000e+00 
 1.07000000e+00  4.50308553e-01  4.50308553e-01  4.50308553e-01  4.50308553e-01  4.50308553e-01  4.50308553e-01  4.04231480e-09  1.67128967e-07  5.82645043e-12  1.00000000e+00 
 1.08000000e+00  4.50320418e-01  4.50320418e-01  4.50320418e-01  4.50320418e-01  4.50320418e-01  4.50320418e-01  3.99067005e-09  1.67176587e-07  8.07176548e-12  1.00000000e+00 
 1.09000000e+00  4.50326773e-01  4.50326773e-01  4.50326773e-01  4.50326773e-01  4.50326773e-01  4.50326773e-01  3.94151068e-09  1.67202202e-07  1.10276233e-11  1.00000000e+00 
 1.10000000e+00  4.50330481e-01  4.50330481e-01  4.50330481e-01  4.50330481e-01  4.50330481e-01  4.50330481e-01  3.89467898e-09  1.67217138e-07  1.48929757e-11  1.00000000e+00 
