 v-sweep         v(b0)           v(b1)           v(b2)           v(b3)           v(b4)           v(b5)           v(b6)           i(vbias)        i(viout)        v(vout)        
 0.00000000e+00 -2.19736284e-20 -2.19736284e-20 -2.19736284e-20 -2.19736284e-20 -2.19736284e-20 -2.19736284e-20  1.02231649e-18 -3.49886702e-30 -4.73850210e-03  1.00000000e+00 
 1.00000000e-02  2.03923365e-03  2.03923365e-03  2.03923365e-03  2.03923365e-03  2.03923365e-03  2.03923365e-03  7.18887322e-04  1.16636522e-14 -4.31166773e-03  1.00000000e+00 
 2.00000000e-02  4.25128874e-03  4.25128874e-03  4.25128874e-03  4.25128874e-03  4.25128874e-03  4.25128874e-03  1.34567763e-03  2.27925868e-14 -3.89900473e-03  1.00000000e+00 
 3.00000000e-02  6.59478894e-03  6.59478894e-03  6.59478894e-03  6.59478894e-03  6.59478894e-03  6.59478894e-03  1.88432237e-03  3.35249940e-14 -3.50188908e-03  1.00000000e+00 
 4.00000000e-02  9.03159910e-03  9.03159910e-03  9.03159910e-03  9.03159910e-03  9.03159910e-03  9.03159910e-03  2.34774613e-03  4.39665157e-14 -3.12180108e-03  1.00000000e+00 
 5.00000000e-02  1.15087502e-02  1.15087502e-02  1.15087502e-02  1.15087502e-02  1.15087502e-02  1.15087502e-02  2.74999733e-03  5.41741860e-14 -2.76032721e-03  1.00000000e+00 
 6.00000000e-02  1.39974527e-02  1.39974527e-02  1.39974527e-02  1.39974527e-02  1.39974527e-02  1.39974527e-02  3.10986166e-03  6.41829661e-14 -2.41912023e-03  1.00000000e+00 
 7.00000000e-02  1.64738960e-02  1.64738960e-02  1.64738960e-02  1.64738960e-02  1.64738960e-02  1.64738960e-02  3.44348851e-03  7.41043528e-14 -2.09983572e-03  1.00000000e+00 
 8.00000000e-02  1.89065778e-02  1.89065778e-02  1.89065778e-02  1.89065778e-02  1.89065778e-02  1.89065778e-02  3.75986232e-03  8.39340956e-14 -1.80406488e-03  1.00000000e+00 
 9.00000000e-02  2.12811554e-02  2.12811554e-02  2.12811554e-02  2.12811554e-02  2.12811554e-02  2.12811554e-02  4.06332170e-03  9.36336647e-14 -1.53318670e-03  1.00000000e+00 
 1.00000000e-01  2.36050453e-02  2.36050453e-02  2.36050453e-02  2.36050453e-02  2.36050453e-02  2.36050453e-02  4.35107106e-03  1.03316895e-13 -1.28834002e-03  1.00000000e+00 
 1.10000000e-01  2.58690492e-02  2.58690492e-02  2.58690492e-02  2.58690492e-02  2.58690492e-02  2.58690492e-02  4.60983618e-03  1.12960277e-13 -1.07017628e-03  1.00000000e+00 
 1.20000000e-01  2.80877033e-02  2.80877033e-02  2.80877034e-02  2.80877034e-02  2.80877034e-02  2.80877033e-02  4.81962882e-03  1.22574321e-13 -8.78791173e-04  1.00000000e+00 
 1.30000000e-01  3.02205565e-02  3.02205565e-02  3.02205565e-02  3.02205565e-02  3.02205565e-02  3.02205565e-02  4.95234854e-03  1.32138387e-13 -7.13580798e-04  1.00000000e+00 
 1.40000000e-01  3.22991574e-02  3.22991574e-02  3.22991574e-02  3.22991574e-02  3.22991574e-02  3.22991574e-02  4.98268680e-03  1.41744526e-13 -5.73437176e-04  1.00000000e+00 
 1.50000000e-01  3.43320658e-02  3.43320658e-02  3.43320658e-02  3.43320658e-02  3.43320658e-02  3.43320658e-02  4.88957874e-03  1.51279115e-13 -4.56457928e-04  1.00000000e+00 
 1.60000000e-01  3.63208251e-02  3.63208251e-02  3.63208251e-02  3.63208251e-02  3.63208251e-02  3.63208251e-02  4.66647524e-03  1.60803218e-13 -3.60339947e-04  1.00000000e+00 
 1.70000000e-01  3.82660543e-02  3.82660543e-02  3.82660543e-02  3.82660543e-02  3.82660543e-02  3.82660543e-02  4.32429629e-03  1.70473417e-13 -2.82485327e-04  1.00000000e+00 
 1.80000000e-01  4.01395521e-02  4.01395521e-02  4.01395521e-02  4.01395521e-02  4.01395521e-02  4.01395521e-02  3.89274129e-03  1.79996927e-13 -2.20237129e-04  1.00000000e+00 
 1.90000000e-01  4.19562266e-02  4.19562266e-02  4.19562266e-02  4.19562266e-02  4.19562266e-02  4.19562266e-02  3.41228397e-03  1.89563649e-13 -1.71020036e-04  1.00000000e+00 
 2.00000000e-01  4.37696698e-02  4.37696698e-02  4.37696698e-02  4.37696698e-02  4.37696698e-02  4.37696698e-02  2.92346220e-03  1.99139567e-13 -1.32419290e-04  1.00000000e+00 
 2.10000000e-01  4.54932138e-02  4.54932138e-02  4.54932138e-02  4.54932138e-02  4.54932138e-02  4.54932138e-02  2.45791356e-03  2.08682836e-13 -1.02365579e-04  1.00000000e+00 
 2.20000000e-01  4.71971413e-02  4.71971413e-02  4.71971413e-02  4.71971413e-02  4.71971413e-02  4.71971413e-02  2.03622405e-03  2.18193268e-13 -7.90389266e-05  1.00000000e+00 
 2.30000000e-01  4.88693032e-02  4.88693032e-02  4.88693032e-02  4.88693032e-02  4.88693032e-02  4.88693032e-02  1.66782881e-03  2.27979141e-13 -6.10553601e-05  1.00000000e+00 
 2.40000000e-01  5.04780626e-02  5.04780626e-02  5.04780626e-02  5.04780626e-02  5.04780626e-02  5.04780626e-02  1.35433812e-03  2.37551298e-13 -4.71718403e-05  1.00000000e+00 
 2.50000000e-01  5.20623953e-02  5.20623953e-02  5.20623953e-02  5.20623953e-02  5.20623953e-02  5.20623953e-02  1.09261688e-03  2.47330747e-13 -3.64839447e-05  1.00000000e+00 
 2.60000000e-01  5.36192514e-02  5.36192514e-02  5.36192514e-02  5.36192514e-02  5.36192514e-02  5.36192514e-02  8.77177156e-04  2.57140771e-13 -2.82618077e-05  1.00000000e+00 
 2.70000000e-01  5.51119160e-02  5.51119160e-02  5.51119160e-02  5.51119160e-02  5.51119160e-02  5.51119160e-02  7.01531154e-04  2.66987475e-13 -2.19046494e-05  1.00000000e+00 
 2.80000000e-01  5.65772858e-02  5.65772858e-02  5.65772858e-02  5.65772858e-02  5.65772858e-02  5.65772858e-02  5.59417970e-04  2.76905980e-13 -1.70177315e-05  1.00000000e+00 
 2.90000000e-01  5.80174482e-02  5.80174482e-02  5.80174482e-02  5.80174482e-02  5.80174482e-02  5.80174482e-02  4.45067173e-04  2.87133571e-13 -1.32460985e-05  1.00000000e+00 
 3.00000000e-01  5.94104581e-02  5.94104580e-02  5.94104581e-02  5.94104581e-02  5.94104581e-02  5.94104581e-02  3.53437135e-04  2.97685948e-13 -1.03197724e-05  1.00000000e+00 
 3.10000000e-01  6.07932919e-02  6.07932919e-02  6.07932919e-02  6.07932919e-02  6.07932919e-02  6.07932919e-02  2.80255937e-04  3.08457104e-13 -8.06892170e-06  1.00000000e+00 
 3.20000000e-01  6.21319495e-02  6.21319495e-02  6.21319495e-02  6.21319495e-02  6.21319495e-02  6.21319495e-02  2.21954066e-04  3.19775293e-13 -6.30738737e-06  1.00000000e+00 
 3.30000000e-01  6.34415501e-02  6.34415501e-02  6.34415501e-02  6.34415501e-02  6.34415501e-02  6.34415501e-02  1.75601394e-04  3.31585745e-13 -4.94031198e-06  1.00000000e+00 
 3.40000000e-01  6.47270348e-02  6.47270348e-02  6.47270348e-02  6.47270348e-02  6.47270348e-02  6.47270348e-02  1.38814874e-04  3.44310084e-13 -3.86359842e-06  1.00000000e+00 
 3.50000000e-01  6.59828712e-02  6.59828712e-02  6.59828712e-02  6.59828712e-02  6.59828712e-02  6.59828712e-02  1.09656107e-04  3.58347385e-13 -3.03666977e-06  1.00000000e+00 
 3.60000000e-01  6.72637536e-02  6.72637536e-02  6.72637536e-02  6.72637536e-02  6.72637536e-02  6.72637536e-02  8.65742270e-05  3.73839130e-13 -2.38538456e-06  1.00000000e+00 
 3.70000000e-01  6.84505023e-02  6.84505023e-02  6.84505023e-02  6.84505023e-02  6.84505023e-02  6.84505023e-02  6.83181395e-05  3.91472174e-13 -1.87987759e-06  1.00000000e+00 
 3.80000000e-01  6.96508183e-02  6.96508183e-02  6.96508183e-02  6.96508183e-02  6.96508183e-02  6.96508183e-02  5.38930768e-05  4.12008047e-13 -1.48172602e-06  1.00000000e+00 
 3.90000000e-01  7.08683166e-02  7.08683166e-02  7.08683166e-02  7.08683166e-02  7.08683166e-02  7.08683166e-02  4.25030266e-05  4.36740799e-13 -1.16400879e-06  1.00000000e+00 
 4.00000000e-01  7.20955990e-02  7.20955990e-02  7.20955990e-02  7.20955990e-02  7.20955990e-02  7.20955990e-02  3.35151502e-05  4.66966879e-13 -9.19620689e-07  1.00000000e+00 
 4.10000000e-01  7.33003498e-02  7.33003498e-02  7.33003498e-02  7.33003498e-02  7.33003498e-02  7.33003498e-02  2.64264198e-05  5.04527030e-13 -7.23564810e-07  1.00000000e+00 
 4.20000000e-01  7.45507994e-02  7.45507993e-02  7.45507994e-02  7.45507994e-02  7.45507994e-02  7.45507994e-02  2.08383224e-05  5.52065202e-13 -5.72509251e-07  1.00000000e+00 
 4.30000000e-01  7.58325142e-02  7.58325142e-02  7.58325142e-02  7.58325142e-02  7.58325142e-02  7.58325142e-02  1.64346600e-05  6.13264959e-13 -4.53120919e-07  1.00000000e+00 
 4.40000000e-01  7.71515827e-02  7.71515827e-02  7.71515827e-02  7.71515827e-02  7.71515828e-02  7.71515827e-02  1.29653763e-05  6.92973998e-13 -3.59387457e-07  1.00000000e+00 
 4.50000000e-01  7.85496457e-02  7.85496457e-02  7.85496458e-02  7.85496458e-02  7.85496458e-02  7.85496457e-02  1.02327453e-05  7.97780543e-13 -2.87280088e-07  1.00000000e+00 
 4.60000000e-01  8.00657717e-02  8.00657717e-02  8.00657717e-02  8.00657717e-02  8.00657717e-02  8.00657717e-02  8.08060019e-06  9.36569859e-13 -2.30579502e-07  1.00000000e+00 
 4.70000000e-01  8.17654669e-02  8.17654669e-02  8.17654669e-02  8.17654669e-02  8.17654669e-02  8.17654669e-02  6.38567469e-06  1.12146298e-12 -1.84921703e-07  1.00000000e+00 
 4.80000000e-01  8.36050003e-02  8.36050003e-02  8.36050003e-02  8.36050003e-02  8.36050003e-02  8.36050003e-02  5.05064242e-06  1.36979138e-12 -1.48783613e-07  1.00000000e+00 
 4.90000000e-01  8.57607932e-02  8.57607932e-02  8.57607932e-02  8.57607932e-02  8.57607932e-02  8.57607932e-02  3.99896548e-06  1.70381824e-12 -1.18377926e-07  1.00000000e+00 
 5.00000000e-01  8.82225189e-02  8.82225189e-02  8.82225189e-02  8.82225189e-02  8.82225189e-02  8.82225189e-02  3.17020674e-06  2.15453160e-12 -9.33835906e-08  1.00000000e+00 
 5.10000000e-01  9.11124926e-02  9.11124926e-02  9.11124926e-02  9.11124926e-02  9.11124926e-02  9.11124926e-02  2.51685368e-06  2.76731123e-12 -7.27884526e-08  1.00000000e+00 
 5.20000000e-01  9.45342244e-02  9.45342244e-02  9.45342244e-02  9.45342244e-02  9.45342244e-02  9.45342244e-02  2.00149472e-06  3.59574707e-12 -5.62450566e-08  1.00000000e+00 
 5.30000000e-01  9.85506625e-02  9.85506625e-02  9.85506626e-02  9.85506626e-02  9.85506626e-02  9.85506625e-02  1.59468843e-06  4.72138387e-12 -4.30986518e-08  1.00000000e+00 
 5.40000000e-01  1.03235191e-01  1.03235191e-01  1.03235191e-01  1.03235191e-01  1.03235191e-01  1.03235191e-01  1.27328879e-06  6.24758296e-12 -3.28512471e-08  1.00000000e+00 
 5.50000000e-01  1.08693298e-01  1.08693298e-01  1.08693298e-01  1.08693298e-01  1.08693298e-01  1.08693298e-01  1.01910512e-06  8.31563160e-12 -2.49255692e-08  1.00000000e+00 
 5.60000000e-01  1.14900477e-01  1.14900477e-01  1.14900477e-01  1.14900477e-01  1.14900477e-01  1.14900477e-01  8.17826434e-07  1.11037989e-11 -1.88752125e-08  1.00000000e+00 
 5.70000000e-01  1.21839783e-01  1.21839783e-01  1.21839783e-01  1.21839783e-01  1.21839783e-01  1.21839783e-01  6.58213529e-07  1.48558145e-11 -1.42710093e-08  1.00000000e+00 
 5.80000000e-01  1.29454122e-01  1.29454122e-01  1.29454122e-01  1.29454122e-01  1.29454122e-01  1.29454122e-01  5.31435049e-07  1.98937603e-11 -1.07775833e-08  1.00000000e+00 
 5.90000000e-01  1.37674333e-01  1.37674333e-01  1.37674333e-01  1.37674333e-01  1.37674333e-01  1.37674333e-01  4.30552727e-07  2.66443985e-11 -8.13477641e-09  1.00000000e+00 
 6.00000000e-01  1.46404973e-01  1.46404973e-01  1.46404973e-01  1.46404973e-01  1.46404973e-01  1.46404973e-01  3.50113525e-07  3.56789095e-11 -6.13765394e-09  1.00000000e+00 
 6.10000000e-01  1.55545073e-01  1.55545073e-01  1.55545073e-01  1.55545073e-01  1.55545073e-01  1.55545073e-01  2.85831046e-07  4.77296588e-11 -4.62956962e-09  1.00000000e+00 
 6.20000000e-01  1.64999820e-01  1.64999820e-01  1.64999820e-01  1.64999820e-01  1.64999820e-01  1.64999820e-01  2.34334522e-07  6.37429710e-11 -3.49169227e-09  1.00000000e+00 
 6.30000000e-01  1.74674033e-01  1.74674033e-01  1.74674033e-01  1.74674033e-01  1.74674033e-01  1.74674033e-01  1.92971422e-07  8.49792250e-11 -2.63382560e-09  1.00000000e+00 
 6.40000000e-01  1.84486205e-01  1.84486205e-01  1.84486205e-01  1.84486205e-01  1.84486205e-01  1.84486205e-01  1.59653148e-07  1.12993503e-10 -1.98726013e-09  1.00000000e+00 
 6.50000000e-01  1.94366565e-01  1.94366565e-01  1.94366565e-01  1.94366565e-01  1.94366565e-01  1.94366565e-01  1.32733648e-07  1.49788171e-10 -1.50029678e-09  1.00000000e+00 
 6.60000000e-01  2.04259430e-01  2.04259430e-01  2.04259430e-01  2.04259430e-01  2.04259430e-01  2.04259430e-01  1.10914339e-07  1.97887352e-10 -1.13379883e-09  1.00000000e+00 
 6.70000000e-01  2.14110984e-01  2.14110984e-01  2.14110984e-01  2.14110984e-01  2.14110984e-01  2.14110984e-01  9.31694163e-08  2.60358075e-10 -8.58364047e-10  1.00000000e+00 
 6.80000000e-01  2.23886563e-01  2.23886562e-01  2.23886563e-01  2.23886563e-01  2.23886563e-01  2.23886563e-01  7.86875765e-08  3.41042160e-10 -6.51667165e-10  1.00000000e+00 
 6.90000000e-01  2.33552159e-01  2.33552159e-01  2.33552159e-01  2.33552159e-01  2.33552159e-01  2.33552159e-01  6.68259906e-08  4.44660267e-10 -4.96982011e-10  1.00000000e+00 
 7.00000000e-01  2.43083254e-01  2.43083253e-01  2.43083254e-01  2.43083254e-01  2.43083254e-01  2.43083254e-01  5.70744414e-08  5.76775711e-10 -3.81902510e-10  1.00000000e+00 
 7.10000000e-01  2.52459280e-01  2.52459280e-01  2.52459280e-01  2.52459280e-01  2.52459280e-01  2.52459280e-01  4.90270969e-08  7.44113743e-10 -2.96822122e-10  1.00000000e+00 
 7.20000000e-01  2.61662911e-01  2.61662910e-01  2.61662911e-01  2.61662911e-01  2.61662911e-01  2.61662911e-01  4.23604126e-08  9.54574475e-10 -2.34877007e-10  1.00000000e+00 
 7.30000000e-01  2.70684975e-01  2.70684975e-01  2.70684975e-01  2.70684975e-01  2.70684975e-01  2.70684975e-01  3.68158223e-08  1.21744481e-09 -1.90865990e-10  1.00000000e+00 
 7.40000000e-01  2.79516497e-01  2.79516497e-01  2.79516497e-01  2.79516497e-01  2.79516497e-01  2.79516497e-01  3.21861160e-08  1.54350771e-09 -1.60909508e-10  1.00000000e+00 
 7.50000000e-01  2.88151635e-01  2.88151635e-01  2.88151635e-01  2.88151635e-01  2.88151635e-01  2.88151635e-01  2.83047908e-08  1.94526184e-09 -1.42321710e-10  1.00000000e+00 
 7.60000000e-01  2.96592761e-01  2.96592761e-01  2.96592761e-01  2.96592761e-01  2.96592761e-01  2.96592761e-01  2.50376859e-08  2.43696702e-09 -1.32914124e-10  1.00000000e+00 
 7.70000000e-01  3.04840330e-01  3.04840330e-01  3.04840330e-01  3.04840330e-01  3.04840330e-01  3.04840330e-01  2.22763668e-08  3.03516712e-09 -1.31478828e-10  1.00000000e+00 
 7.80000000e-01  3.12901113e-01  3.12901113e-01  3.12901113e-01  3.12901113e-01  3.12901113e-01  3.12901113e-01  1.99329544e-08  3.75887477e-09 -1.36864742e-10  1.00000000e+00 
 7.90000000e-01  3.20782574e-01  3.20782574e-01  3.20782574e-01  3.20782574e-01  3.20782574e-01  3.20782574e-01  1.79360105e-08  4.62987482e-09 -1.48162371e-10  1.00000000e+00 
 8.00000000e-01  3.28494598e-01  3.28494598e-01  3.28494598e-01  3.28494598e-01  3.28494598e-01  3.28494598e-01  1.62272959e-08  5.67328895e-09 -1.62899028e-10  1.00000000e+00 
 8.10000000e-01  3.36049160e-01  3.36049160e-01  3.36049160e-01  3.36049160e-01  3.36049160e-01  3.36049160e-01  1.47591910e-08  6.91821467e-09 -1.73997705e-10  1.00000000e+00 
 8.20000000e-01  3.43458831e-01  3.43458831e-01  3.43458831e-01  3.43458831e-01  3.43458831e-01  3.43458831e-01  1.34926433e-08  8.39837888e-09 -1.71596071e-10  1.00000000e+00 
 8.30000000e-01  3.50736666e-01  3.50736666e-01  3.50736666e-01  3.50736666e-01  3.50736666e-01  3.50736666e-01  1.23955304e-08  1.01528748e-08 -1.55111479e-10  1.00000000e+00 
 8.40000000e-01  3.57895995e-01  3.57895995e-01  3.57895995e-01  3.57895995e-01  3.57895995e-01  3.57895995e-01  1.14413508e-08  1.22271042e-08 -1.30953026e-10  1.00000000e+00 
 8.50000000e-01  3.64949309e-01  3.64949308e-01  3.64949309e-01  3.64949309e-01  3.64949309e-01  3.64949309e-01  1.06081726e-08  1.46738004e-08 -1.05643494e-10  1.00000000e+00 
 8.60000000e-01  3.71908231e-01  3.71908231e-01  3.71908231e-01  3.71908231e-01  3.71908231e-01  3.71908231e-01  9.87779045e-09  1.75538415e-08 -8.29629698e-11  1.00000000e+00 
 8.70000000e-01  3.78782490e-01  3.78782490e-01  3.78782490e-01  3.78782490e-01  3.78782490e-01  3.78782490e-01  9.23504488e-09  2.09373514e-08 -6.40483222e-11  1.00000000e+00 
 8.80000000e-01  3.85579524e-01  3.85579524e-01  3.85579524e-01  3.85579524e-01  3.85579524e-01  3.85579524e-01  8.66727316e-09  2.49041658e-08 -4.88995511e-11  1.00000000e+00 
 8.90000000e-01  3.92303264e-01  3.92303264e-01  3.92303264e-01  3.92303264e-01  3.92303264e-01  3.92303264e-01  8.16386443e-09  2.95437923e-08 -3.71329634e-11  1.00000000e+00 
 9.00000000e-01  3.98953265e-01  3.98953265e-01  3.98953265e-01  3.98953265e-01  3.98953265e-01  3.98953265e-01  7.71589896e-09  3.49543416e-08 -2.81374923e-11  1.00000000e+00 
 9.10000000e-01  4.05523066e-01  4.05523066e-01  4.05523066e-01  4.05523066e-01  4.05523066e-01  4.05523066e-01  7.31585418e-09  4.12389864e-08 -2.12168061e-11  1.00000000e+00 
 9.20000000e-01  4.11998216e-01  4.11998216e-01  4.11998216e-01  4.11998216e-01  4.11998216e-01  4.11998216e-01  6.95736490e-09  4.84992135e-08 -1.60440550e-11  1.00000000e+00 
 9.30000000e-01  4.18354017e-01  4.18354017e-01  4.18354017e-01  4.18354017e-01  4.18354018e-01  4.18354017e-01  6.63502736e-09  5.68229499e-08 -1.20650157e-11  1.00000000e+00 
 9.40000000e-01  4.24552625e-01  4.24552625e-01  4.24552625e-01  4.24552625e-01  4.24552625e-01  4.24552625e-01  6.34423794e-09  6.62647501e-08 -9.06652531e-12  1.00000000e+00 
 9.50000000e-01  4.30540567e-01  4.30540567e-01  4.30540567e-01  4.30540567e-01  4.30540567e-01  4.30540567e-01  6.08106131e-09  7.68175568e-08 -6.76436684e-12  1.00000000e+00 
 9.60000000e-01  4.36247273e-01  4.36247273e-01  4.36247273e-01  4.36247273e-01  4.36247273e-01  4.36247273e-01  5.84212197e-09  8.83761935e-08 -4.94537744e-12  1.00000000e+00 
 9.70000000e-01  4.41585149e-01  4.41585149e-01  4.41585149e-01  4.41585149e-01  4.41585149e-01  4.41585149e-01  5.62451546e-09  1.00697171e-07 -3.55271368e-12  1.00000000e+00 
 9.80000000e-01  4.46450477e-01  4.46450477e-01  4.46450477e-01  4.46450477e-01  4.46450477e-01  4.46450477e-01  5.42573477e-09  1.13360347e-07 -2.50111043e-12  1.00000000e+00 
 9.90000000e-01  4.50722949e-01  4.50722949e-01  4.50722949e-01  4.50722949e-01  4.50722949e-01  4.50722949e-01  5.24360911e-09  1.25735742e-07 -1.62003744e-12  1.00000000e+00 
 1.00000000e+00  4.54249499e-01  4.54249499e-01  4.54249499e-01  4.54249499e-01  4.54249499e-01  4.54249499e-01  5.07624707e-09  1.36941807e-07 -9.37916411e-13  1.00000000e+00 
 1.01000000e+00  4.56931785e-01  4.56931785e-01  4.56931785e-01  4.56931785e-01  4.56931785e-01  4.56931785e-01  4.92202523e-09  1.46093207e-07 -3.12638804e-13  1.00000000e+00 
 1.02000000e+00  4.58717548e-01  4.58717548e-01  4.58717548e-01  4.58717548e-01  4.58717548e-01  4.58717548e-01  4.77954572e-09  1.52509948e-07  2.70006240e-13  1.00000000e+00 
 1.03000000e+00  4.59741995e-01  4.59741995e-01  4.59741995e-01  4.59741995e-01  4.59741995e-01  4.59741995e-01  4.64764836e-09  1.56312840e-07  8.10018719e-13  1.00000000e+00 
 1.04000000e+00  4.60274824e-01  4.60274824e-01  4.60274824e-01  4.60274824e-01  4.60274824e-01  4.60274824e-01  4.52535836e-09  1.58315959e-07  1.42108547e-12  1.00000000e+00 
 1.05000000e+00  4.60527025e-01  4.60527025e-01  4.60527025e-01  4.60527025e-01  4.60527025e-01  4.60527025e-01  4.41180099e-09  1.59284951e-07  2.25952590e-12  1.00000000e+00 
 1.06000000e+00  4.60654367e-01  4.60654367e-01  4.60654367e-01  4.60654367e-01  4.60654367e-01  4.60654367e-01  4.30618916e-09  1.59775343e-07  3.18323146e-12  1.00000000e+00 
 1.07000000e+00  4.60722689e-01  4.60722689e-01  4.60722689e-01  4.60722689e-01  4.60722689e-01  4.60722689e-01  4.20780246e-09  1.60038020e-07  4.39115411e-12  1.00000000e+00 
 1.08000000e+00  4.60761478e-01  4.60761478e-01  4.60761478e-01  4.60761478e-01  4.60761478e-01  4.60761478e-01  4.11599365e-09  1.60186996e-07  5.98276984e-12  1.00000000e+00 
 1.09000000e+00  4.60784746e-01  4.60784746e-01  4.60784746e-01  4.60784746e-01  4.60784746e-01  4.60784746e-01  4.03018468e-09  1.60276336e-07  8.05755462e-12  1.00000000e+00 
 1.10000000e+00  4.60799465e-01  4.60799465e-01  4.60799465e-01  4.60799465e-01  4.60799465e-01  4.60799465e-01  3.94986007e-09  1.60332775e-07  1.08286713e-11  1.00000000e+00 
