 v-sweep         v(b0)           v(b1)           v(b2)           v(b3)           v(b4)           v(b5)           v(b6)           i(vbias)        i(viout)        v(vout)        
 0.00000000e+00 -2.21772204e-14 -2.21772204e-14 -2.21772204e-14 -2.21772204e-14 -2.21772204e-14 -2.21772204e-14  3.86037601e-13  1.11270275e-29 -4.73846153e-03  1.00000000e+00 
 1.00000000e-02  2.02131190e-03  2.02131190e-03  2.02131190e-03  2.02131190e-03  2.02131190e-03  2.02131190e-03  5.44291148e-04  1.16506002e-14 -4.31162777e-03  1.00000000e+00 
 2.00000000e-02  4.24314717e-03  4.24314717e-03  4.24314717e-03  4.24314717e-03  4.24314717e-03  4.24314717e-03  1.00939571e-03  2.27773326e-14 -3.89896468e-03  1.00000000e+00 
 3.00000000e-02  6.61468245e-03  6.61468244e-03  6.61468244e-03  6.61468244e-03  6.61468244e-03  6.61468244e-03  1.40253308e-03  3.35026527e-14 -3.50184949e-03  1.00000000e+00 
 4.00000000e-02  9.08111420e-03  9.08111420e-03  9.08111420e-03  9.08111420e-03  9.08111420e-03  9.08111420e-03  1.73678938e-03  4.39275471e-14 -3.12176190e-03  1.00000000e+00 
 5.00000000e-02  1.15898462e-02  1.15898462e-02  1.15898462e-02  1.15898462e-02  1.15898462e-02  1.15898462e-02  2.02842682e-03  5.41262439e-14 -2.76029367e-03  1.00000000e+00 
 6.00000000e-02  1.40944210e-02  1.40944210e-02  1.40944210e-02  1.40944210e-02  1.40944210e-02  1.40944210e-02  2.29441473e-03  6.41692865e-14 -2.41908493e-03  1.00000000e+00 
 7.00000000e-02  1.65870075e-02  1.65870075e-02  1.65870075e-02  1.65870075e-02  1.65870075e-02  1.65870075e-02  2.55297425e-03  7.40554113e-14 -2.09980196e-03  1.00000000e+00 
 8.00000000e-02  1.90196921e-02  1.90196921e-02  1.90196921e-02  1.90196921e-02  1.90196921e-02  1.90196921e-02  2.81459198e-03  8.38410728e-14 -1.80402574e-03  1.00000000e+00 
 9.00000000e-02  2.14120413e-02  2.14120413e-02  2.14120413e-02  2.14120413e-02  2.14120413e-02  2.14120413e-02  3.09000703e-03  9.35715840e-14 -1.53315282e-03  1.00000000e+00 
 1.00000000e-01  2.37453682e-02  2.37453682e-02  2.37453682e-02  2.37453682e-02  2.37453682e-02  2.37453682e-02  3.38201611e-03  1.03248407e-13 -1.28830904e-03  1.00000000e+00 
 1.10000000e-01  2.60163302e-02  2.60163302e-02  2.60163302e-02  2.60163302e-02  2.60163302e-02  2.60163302e-02  3.68812852e-03  1.12860611e-13 -1.07009284e-03  1.00000000e+00 
 1.20000000e-01  2.82075099e-02  2.82075099e-02  2.82075099e-02  2.82075099e-02  2.82075099e-02  2.82075099e-02  4.00020211e-03  1.22437945e-13 -8.78713618e-04  1.00000000e+00 
 1.30000000e-01  3.03350150e-02  3.03350150e-02  3.03350150e-02  3.03350150e-02  3.03350150e-02  3.03350150e-02  4.30518404e-03  1.32079199e-13 -7.13586130e-04  1.00000000e+00 
 1.40000000e-01  3.24322792e-02  3.24322792e-02  3.24322792e-02  3.24322792e-02  3.24322792e-02  3.24322792e-02  4.58397414e-03  1.41618281e-13 -5.73421760e-04  1.00000000e+00 
 1.50000000e-01  3.44556464e-02  3.44556464e-02  3.44556464e-02  3.44556464e-02  3.44556464e-02  3.44556464e-02  4.81088951e-03  1.51177255e-13 -4.56423341e-04  1.00000000e+00 
 1.60000000e-01  3.64351021e-02  3.64351021e-02  3.64351021e-02  3.64351021e-02  3.64351021e-02  3.64351021e-02  4.95856098e-03  1.60766826e-13 -3.60302379e-04  1.00000000e+00 
 1.70000000e-01  3.83629602e-02  3.83629602e-02  3.83629602e-02  3.83629602e-02  3.83629602e-02  3.83629602e-02  5.00042311e-03  1.70244346e-13 -2.82434165e-04  1.00000000e+00 
 1.80000000e-01  4.02606417e-02  4.02606417e-02  4.02606417e-02  4.02606417e-02  4.02606417e-02  4.02606417e-02  4.91601973e-03  1.79832759e-13 -2.20203910e-04  1.00000000e+00 
 1.90000000e-01  4.20722189e-02  4.20722189e-02  4.20722189e-02  4.20722189e-02  4.20722189e-02  4.20722189e-02  4.69881596e-03  1.89389072e-13 -1.70974422e-04  1.00000000e+00 
 2.00000000e-01  4.38706007e-02  4.38706007e-02  4.38706007e-02  4.38706007e-02  4.38706007e-02  4.38706007e-02  4.36046648e-03  1.98953836e-13 -1.32379456e-04  1.00000000e+00 
 2.10000000e-01  4.55930028e-02  4.55930027e-02  4.55930027e-02  4.55930027e-02  4.55930027e-02  4.55930027e-02  3.93000839e-03  2.08484244e-13 -1.02324782e-04  1.00000000e+00 
 2.20000000e-01  4.72829198e-02  4.72829198e-02  4.72829198e-02  4.72829198e-02  4.72829198e-02  4.72829198e-02  3.44770311e-03  2.18128711e-13 -7.90015237e-05  1.00000000e+00 
 2.30000000e-01  4.89273666e-02  4.89273666e-02  4.89273666e-02  4.89273666e-02  4.89273666e-02  4.89273666e-02  2.95447025e-03  2.27702372e-13 -6.10035286e-05  1.00000000e+00 
 2.40000000e-01  5.05538428e-02  5.05538428e-02  5.05538428e-02  5.05538428e-02  5.05538428e-02  5.05538428e-02  2.48331143e-03  2.37305069e-13 -4.71455063e-05  1.00000000e+00 
 2.50000000e-01  5.21319146e-02  5.21319146e-02  5.21319146e-02  5.21319146e-02  5.21319146e-02  5.21319146e-02  2.05558007e-03  2.47068811e-13 -3.64538983e-05  1.00000000e+00 
 2.60000000e-01  5.36573604e-02  5.36573604e-02  5.36573604e-02  5.36573604e-02  5.36573604e-02  5.36573604e-02  1.68158501e-03  2.56789524e-13 -2.82315136e-05  1.00000000e+00 
 2.70000000e-01  5.51715695e-02  5.51715695e-02  5.51715695e-02  5.51715695e-02  5.51715695e-02  5.51715695e-02  1.36342358e-03  2.66661910e-13 -2.18737584e-05  1.00000000e+00 
 2.80000000e-01  5.66200259e-02  5.66200259e-02  5.66200259e-02  5.66200259e-02  5.66200259e-02  5.66200259e-02  1.09801571e-03  2.76599713e-13 -1.69910138e-05  1.00000000e+00 
 2.90000000e-01  5.80576595e-02  5.80576595e-02  5.80576595e-02  5.80576595e-02  5.80576595e-02  5.80576595e-02  8.79835404e-04  2.86772843e-13 -1.32185787e-05  1.00000000e+00 
 3.00000000e-01  5.94642088e-02  5.94642088e-02  5.94642088e-02  5.94642087e-02  5.94642087e-02  5.94642087e-02  7.02331556e-04  2.97133879e-13 -1.02978817e-05  1.00000000e+00 
 3.10000000e-01  6.08133669e-02  6.08133669e-02  6.08133669e-02  6.08133669e-02  6.08133669e-02  6.08133669e-02  5.58973531e-04  3.07881569e-13 -8.03767490e-06  1.00000000e+00 
 3.20000000e-01  6.21607500e-02  6.21607500e-02  6.21607500e-02  6.21607500e-02  6.21607500e-02  6.21607500e-02  4.43867226e-04  3.19083979e-13 -6.28087281e-06  1.00000000e+00 
 3.30000000e-01  6.34693895e-02  6.34693895e-02  6.34693895e-02  6.34693895e-02  6.34693895e-02  6.34693895e-02  3.51827062e-04  3.30811977e-13 -4.92304018e-06  1.00000000e+00 
 3.40000000e-01  6.47485926e-02  6.47485926e-02  6.47485926e-02  6.47485926e-02  6.47485926e-02  6.47485925e-02  2.78482677e-04  3.43333286e-13 -3.84806108e-06  1.00000000e+00 
 3.50000000e-01  6.60015340e-02  6.60015340e-02  6.60015340e-02  6.60015340e-02  6.60015340e-02  6.60015340e-02  2.20170212e-04  3.56976926e-13 -3.02095219e-06  1.00000000e+00 
 3.60000000e-01  6.72474062e-02  6.72474062e-02  6.72474062e-02  6.72474062e-02  6.72474062e-02  6.72474062e-02  1.73904435e-04  3.72098755e-13 -2.37376034e-06  1.00000000e+00 
 3.70000000e-01  6.84776803e-02  6.84776803e-02  6.84776803e-02  6.84776803e-02  6.84776803e-02  6.84776803e-02  1.37254640e-04  3.89346121e-13 -1.86863636e-06  1.00000000e+00 
 3.80000000e-01  6.96907086e-02  6.96907086e-02  6.96907086e-02  6.96907086e-02  6.96907086e-02  6.96907086e-02  1.08259892e-04  4.09313994e-13 -1.46739364e-06  1.00000000e+00 
 3.90000000e-01  7.08787060e-02  7.08787060e-02  7.08787060e-02  7.08787060e-02  7.08787060e-02  7.08787060e-02  8.53454419e-05  4.33077307e-13 -1.15605796e-06  1.00000000e+00 
 4.00000000e-01  7.20934631e-02  7.20934631e-02  7.20934631e-02  7.20934631e-02  7.20934631e-02  7.20934631e-02  6.72544688e-05  4.62156490e-13 -9.08490421e-07  1.00000000e+00 
 4.10000000e-01  7.33056481e-02  7.33056481e-02  7.33056481e-02  7.33056481e-02  7.33056480e-02  7.33056480e-02  5.29810665e-05  4.98086286e-13 -7.17206490e-07  1.00000000e+00 
 4.20000000e-01  7.45839491e-02  7.45839491e-02  7.45839491e-02  7.45839491e-02  7.45839491e-02  7.45839491e-02  4.17281083e-05  5.43524617e-13 -5.66277265e-07  1.00000000e+00 
 4.30000000e-01  7.58241197e-02  7.58241197e-02  7.58241197e-02  7.58241196e-02  7.58241196e-02  7.58241196e-02  3.28605913e-05  6.02063091e-13 -4.48158431e-07  1.00000000e+00 
 4.40000000e-01  7.71627864e-02  7.71627864e-02  7.71627864e-02  7.71627864e-02  7.71627864e-02  7.71627864e-02  2.58766155e-05  6.77929975e-13 -3.54986483e-07  1.00000000e+00 
 4.50000000e-01  7.86106326e-02  7.86106326e-02  7.86106326e-02  7.86106326e-02  7.86106326e-02  7.86106325e-02  2.03782445e-05  7.77779615e-13 -2.82287388e-07  1.00000000e+00 
 4.60000000e-01  8.01344118e-02  8.01344118e-02  8.01344118e-02  8.01344118e-02  8.01344118e-02  8.01344118e-02  1.60506738e-05  9.09501071e-13 -2.25912757e-07  1.00000000e+00 
 4.70000000e-01  8.18061653e-02  8.18061653e-02  8.18061653e-02  8.18061653e-02  8.18061653e-02  8.18061653e-02  1.26455100e-05  1.08528667e-12 -1.81421797e-07  1.00000000e+00 
 4.80000000e-01  8.37080042e-02  8.37080042e-02  8.37080042e-02  8.37080042e-02  8.37080042e-02  8.37080042e-02  9.96664049e-06  1.32073971e-12 -1.45765313e-07  1.00000000e+00 
 4.90000000e-01  8.58729427e-02  8.58729427e-02  8.58729427e-02  8.58729427e-02  8.58729427e-02  8.58729427e-02  7.85930191e-06  1.63817565e-12 -1.16717430e-07  1.00000000e+00 
 5.00000000e-01  8.84021703e-02  8.84021703e-02  8.84021703e-02  8.84021703e-02  8.84021703e-02  8.84021703e-02  6.20159219e-06  2.06666314e-12 -9.23436403e-08  1.00000000e+00 
 5.10000000e-01  9.13426775e-02  9.13426775e-02  9.13426775e-02  9.13426774e-02  9.13426774e-02  9.13426774e-02  4.89744165e-06  2.64868482e-12 -7.23023561e-08  1.00000000e+00 
 5.20000000e-01  9.48230062e-02  9.48230062e-02  9.48230062e-02  9.48230062e-02  9.48230062e-02  9.48230062e-02  3.87127639e-06  3.43843747e-12 -5.59790152e-08  1.00000000e+00 
 5.30000000e-01  9.89165172e-02  9.89165172e-02  9.89165172e-02  9.89165172e-02  9.89165172e-02  9.89165172e-02  3.06360215e-06  4.50923717e-12 -4.29956941e-08  1.00000000e+00 
 5.40000000e-01  1.03714351e-01  1.03714351e-01  1.03714351e-01  1.03714351e-01  1.03714351e-01  1.03714351e-01  2.42764346e-06  5.96455524e-12 -3.28089413e-08  1.00000000e+00 
 5.50000000e-01  1.09256952e-01  1.09256952e-01  1.09256952e-01  1.09256952e-01  1.09256952e-01  1.09256952e-01  1.92662263e-06  7.93522236e-12 -2.49163747e-08  1.00000000e+00 
 5.60000000e-01  1.15565592e-01  1.15565592e-01  1.15565592e-01  1.15565592e-01  1.15565592e-01  1.15565592e-01  1.53164511e-06  1.05998290e-11 -1.88748572e-08  1.00000000e+00 
 5.70000000e-01  1.22604669e-01  1.22604669e-01  1.22604669e-01  1.22604669e-01  1.22604669e-01  1.22604669e-01  1.22001220e-06  1.41932568e-11 -1.42704693e-08  1.00000000e+00 
 5.80000000e-01  1.30328666e-01  1.30328666e-01  1.30328666e-01  1.30328666e-01  1.30328666e-01  1.30328666e-01  9.73902811e-07  1.90222118e-11 -1.07790044e-08  1.00000000e+00 
 5.90000000e-01  1.38628340e-01  1.38628340e-01  1.38628340e-01  1.38628340e-01  1.38628339e-01  1.38628339e-01  7.79322063e-07  2.55007239e-11 -8.13597012e-09  1.00000000e+00 
 6.00000000e-01  1.47449008e-01  1.47449008e-01  1.47449008e-01  1.47449008e-01  1.47449008e-01  1.47449008e-01  6.25288638e-07  3.41689654e-11 -6.13836448e-09  1.00000000e+00 
 6.10000000e-01  1.56647986e-01  1.56647986e-01  1.56647986e-01  1.56647986e-01  1.56647985e-01  1.56647985e-01  5.03175748e-07  4.57447691e-11 -4.63022332e-09  1.00000000e+00 
 6.20000000e-01  1.66155034e-01  1.66155034e-01  1.66155034e-01  1.66155034e-01  1.66155034e-01  1.66155034e-01  4.06213522e-07  6.11567984e-11 -3.49228912e-09  1.00000000e+00 
 6.30000000e-01  1.75861389e-01  1.75861389e-01  1.75861389e-01  1.75861389e-01  1.75861389e-01  1.75861389e-01  3.29083000e-07  8.16120487e-11 -2.63413824e-09  1.00000000e+00 
 6.40000000e-01  1.85697525e-01  1.85697525e-01  1.85697525e-01  1.85697525e-01  1.85697525e-01  1.85697525e-01  2.67606432e-07  1.08593926e-10 -1.98761541e-09  1.00000000e+00 
 6.50000000e-01  1.95591412e-01  1.95591412e-01  1.95591412e-01  1.95591412e-01  1.95591412e-01  1.95591412e-01  2.18499890e-07  1.44089775e-10 -1.50059520e-09  1.00000000e+00 
 6.60000000e-01  2.05482019e-01  2.05482019e-01  2.05482019e-01  2.05482019e-01  2.05482019e-01  2.05482019e-01  1.79181125e-07  1.90494377e-10 -1.13405463e-09  1.00000000e+00 
 6.70000000e-01  2.15329969e-01  2.15329969e-01  2.15329969e-01  2.15329969e-01  2.15329969e-01  2.15329969e-01  1.47618543e-07  2.50856010e-10 -8.58477733e-10  1.00000000e+00 
 6.80000000e-01  2.25094412e-01  2.25094412e-01  2.25094412e-01  2.25094412e-01  2.25094412e-01  2.25094412e-01  1.22212323e-07  3.28882754e-10 -6.51724008e-10  1.00000000e+00 
 6.90000000e-01  2.34744162e-01  2.34744162e-01  2.34744162e-01  2.34744162e-01  2.34744162e-01  2.34744162e-01  1.01701698e-07  4.29124236e-10 -4.97053065e-10  1.00000000e+00 
 7.00000000e-01  2.44254747e-01  2.44254747e-01  2.44254747e-01  2.44254747e-01  2.44254747e-01  2.44254747e-01  8.50920226e-08  5.57041163e-10 -3.81888299e-10  1.00000000e+00 
 7.10000000e-01  2.53604908e-01  2.53604908e-01  2.53604908e-01  2.53604908e-01  2.53604908e-01  2.53604908e-01  7.15975891e-08  7.19186211e-10 -2.96807912e-10  1.00000000e+00 
 7.20000000e-01  2.62781770e-01  2.62781770e-01  2.62781770e-01  2.62781770e-01  2.62781770e-01  2.62781770e-01  6.05968540e-08  9.23270099e-10 -2.34749109e-10  1.00000000e+00 
 7.30000000e-01  2.71773749e-01  2.71773749e-01  2.71773749e-01  2.71773749e-01  2.71773749e-01  2.71773749e-01  5.15972683e-08  1.17835744e-09 -1.90652827e-10  1.00000000e+00 
 7.40000000e-01  2.80572849e-01  2.80572849e-01  2.80572849e-01  2.80572849e-01  2.80572849e-01  2.80572849e-01  4.42077784e-08  1.49497381e-09 -1.60639502e-10  1.00000000e+00 
 7.50000000e-01  2.89177147e-01  2.89177147e-01  2.89177147e-01  2.89177147e-01  2.89177147e-01  2.89177147e-01  3.81172784e-08  1.88530241e-09 -1.41781697e-10  1.00000000e+00 
 7.60000000e-01  2.97585763e-01  2.97585763e-01  2.97585763e-01  2.97585763e-01  2.97585763e-01  2.97585763e-01  3.30777085e-08  2.36337022e-09 -1.32217792e-10  1.00000000e+00 
 7.70000000e-01  3.05802221e-01  3.05802221e-01  3.05802221e-01  3.05802221e-01  3.05802221e-01  3.05802221e-01  2.88908387e-08  2.94533442e-09 -1.30540911e-10  1.00000000e+00 
 7.80000000e-01  3.13832671e-01  3.13832671e-01  3.13832671e-01  3.13832671e-01  3.13832671e-01  3.13832671e-01  2.53978892e-08  3.64971076e-09 -1.35713663e-10  1.00000000e+00 
 7.90000000e-01  3.21685401e-01  3.21685401e-01  3.21685401e-01  3.21685401e-01  3.21685401e-01  3.21685401e-01  2.24713813e-08  4.49787818e-09 -1.46741286e-10  1.00000000e+00 
 8.00000000e-01  3.29370935e-01  3.29370935e-01  3.29370935e-01  3.29370935e-01  3.29370935e-01  3.29370935e-01  2.00087267e-08  5.51444945e-09 -1.61492153e-10  1.00000000e+00 
 8.10000000e-01  3.36901487e-01  3.36901487e-01  3.36901487e-01  3.36901487e-01  3.36901487e-01  3.36901487e-01  1.79271700e-08  6.72790867e-09 -1.73585590e-10  1.00000000e+00 
 8.20000000e-01  3.44289857e-01  3.44289857e-01  3.44289857e-01  3.44289857e-01  3.44289857e-01  3.44289857e-01  1.61597897e-08  8.17122636e-09 -1.72761361e-10  1.00000000e+00 
 8.30000000e-01  3.51549345e-01  3.51549345e-01  3.51549345e-01  3.51549345e-01  3.51549345e-01  3.51549345e-01  1.46523324e-08  9.88282034e-09 -1.57342583e-10  1.00000000e+00 
 8.40000000e-01  3.58693457e-01  3.58693457e-01  3.58693457e-01  3.58693457e-01  3.58693457e-01  3.58693457e-01  1.33606978e-08  1.19071237e-08 -1.33610456e-10  1.00000000e+00 
 8.50000000e-01  3.65735072e-01  3.65735072e-01  3.65735072e-01  3.65735072e-01  3.65735072e-01  3.65735072e-01  1.22489392e-08  1.42959027e-08 -1.08187237e-10  1.00000000e+00 
 8.60000000e-01  3.72685856e-01  3.72685856e-01  3.72685856e-01  3.72685856e-01  3.72685856e-01  3.72685856e-01  1.12876702e-08  1.71091066e-08 -8.50661763e-11  1.00000000e+00 
 8.70000000e-01  3.79555733e-01  3.79555733e-01  3.79555733e-01  3.79555733e-01  3.79555733e-01  3.79555733e-01  1.04527940e-08  2.04157127e-08 -6.57678356e-11  1.00000000e+00 
 8.80000000e-01  3.86352369e-01  3.86352369e-01  3.86352369e-01  3.86352369e-01  3.86352369e-01  3.86352369e-01  9.72448831e-09  2.42945788e-08 -5.02495823e-11  1.00000000e+00 
 8.90000000e-01  3.93080138e-01  3.93080138e-01  3.93080138e-01  3.93080138e-01  3.93080138e-01  3.93080138e-01  9.08639307e-09  2.88346014e-08 -3.81561449e-11  1.00000000e+00 
 9.00000000e-01  3.99739290e-01  3.99739290e-01  3.99739290e-01  3.99739290e-01  3.99739290e-01  3.99739290e-01  8.52495965e-09  3.41335413e-08 -2.88480351e-11  1.00000000e+00 
 9.10000000e-01  4.06324164e-01  4.06324164e-01  4.06324164e-01  4.06324164e-01  4.06324164e-01  4.06324164e-01  8.02892813e-09  4.02955553e-08 -2.17710294e-11  1.00000000e+00 
 9.20000000e-01  4.12821691e-01  4.12821691e-01  4.12821691e-01  4.12821691e-01  4.12821691e-01  4.12821691e-01  7.58890701e-09  4.74249795e-08 -1.63851155e-11  1.00000000e+00 
 9.30000000e-01  4.19208913e-01  4.19208913e-01  4.19208913e-01  4.19208913e-01  4.19208913e-01  4.19208913e-01  7.19703422e-09  5.56155015e-08 -1.23492327e-11  1.00000000e+00 
 9.40000000e-01  4.25450489e-01  4.25450489e-01  4.25450489e-01  4.25450489e-01  4.25450489e-01  4.25450489e-01  6.84670353e-09  6.49323262e-08 -9.22284471e-12  1.00000000e+00 
 9.50000000e-01  4.31496249e-01  4.31496249e-01  4.31496249e-01  4.31496249e-01  4.31496249e-01  4.31496249e-01  6.53234266e-09  7.53857723e-08 -6.87805368e-12  1.00000000e+00 
 9.60000000e-01  4.37279574e-01  4.37279574e-01  4.37279574e-01  4.37279574e-01  4.37279574e-01  4.37279574e-01  6.24923402e-09  8.68969519e-08 -5.00222086e-12  1.00000000e+00 
 9.70000000e-01  4.42717616e-01  4.42717616e-01  4.42717616e-01  4.42717616e-01  4.42717616e-01  4.42717616e-01  5.99336911e-09  9.92586031e-08 -3.63797881e-12  1.00000000e+00 
 9.80000000e-01  4.47711853e-01  4.47711853e-01  4.47711853e-01  4.47711853e-01  4.47711853e-01  4.47711853e-01  5.76132981e-09  1.12095904e-07 -2.50111043e-12  1.00000000e+00 
 9.90000000e-01  4.52146619e-01  4.52146619e-01  4.52146619e-01  4.52146619e-01  4.52146619e-01  4.52146619e-01  5.55019065e-09  1.24827370e-07 -1.63424829e-12  1.00000000e+00 
 1.00000000e+00  4.55870470e-01  4.55870470e-01  4.55870470e-01  4.55870470e-01  4.55870470e-01  4.55870470e-01  5.35743240e-09  1.36603600e-07 -9.09494702e-13  1.00000000e+00 
 1.01000000e+00  4.58765068e-01  4.58765068e-01  4.58765068e-01  4.58765068e-01  4.58765068e-01  4.58765068e-01  5.18090015e-09  1.46481977e-07 -2.84217094e-13  1.00000000e+00 
 1.02000000e+00  4.60735782e-01  4.60735782e-01  4.60735782e-01  4.60735781e-01  4.60735782e-01  4.60735782e-01  5.01874291e-09  1.53598677e-07  2.70006240e-13  1.00000000e+00 
 1.03000000e+00  4.61872842e-01  4.61872842e-01  4.61872842e-01  4.61872842e-01  4.61872842e-01  4.61872842e-01  4.86941514e-09  1.57855670e-07  8.38440428e-13  1.00000000e+00 
 1.04000000e+00  4.62448608e-01  4.62448608e-01  4.62448608e-01  4.62448608e-01  4.62448608e-01  4.62448608e-01  4.73162791e-09  1.60040219e-07  1.44950718e-12  1.00000000e+00 
 1.05000000e+00  4.62704562e-01  4.62704562e-01  4.62704562e-01  4.62704562e-01  4.62704562e-01  4.62704562e-01  4.60424919e-09  1.61036585e-07  2.20268248e-12  1.00000000e+00 
 1.06000000e+00  4.62824540e-01  4.62824540e-01  4.62824540e-01  4.62824540e-01  4.62824540e-01  4.62824540e-01  4.48627393e-09  1.61504843e-07  3.18323146e-12  1.00000000e+00 
 1.07000000e+00  4.62884598e-01  4.62884598e-01  4.62884598e-01  4.62884598e-01  4.62884598e-01  4.62884598e-01  4.37679334e-09  1.61738406e-07  4.36273240e-12  1.00000000e+00 
 1.08000000e+00  4.62916598e-01  4.62916598e-01  4.62916598e-01  4.62916598e-01  4.62916598e-01  4.62916598e-01  4.27499806e-09  1.61862683e-07  5.88329385e-12  1.00000000e+00 
 1.09000000e+00  4.62934830e-01  4.62934830e-01  4.62934830e-01  4.62934830e-01  4.62934830e-01  4.62934830e-01  4.18017133e-09  1.61933375e-07  7.95807864e-12  1.00000000e+00 
 1.10000000e+00  4.62945844e-01  4.62945844e-01  4.62945844e-01  4.62945844e-01  4.62945844e-01  4.62945844e-01  4.09167860e-09  1.61976097e-07  1.07007736e-11  1.00000000e+00 
