 v-sweep         v(b0)           v(b1)           v(b2)           v(b3)           v(b4)           v(b5)           v(b6)           i(vbias)        i(viout)        v(vout)        
 0.00000000e+00  4.34458719e-20  4.34458719e-20  4.34458719e-20  4.34458718e-20  4.34458719e-20  4.34458719e-20  4.34458715e-20 -1.75242497e-30 -4.73879492e-03  1.00000000e+00 
 1.00000000e-02  1.92377556e-03  1.92377556e-03  1.92377556e-03  1.92377556e-03  1.92377555e-03  1.92377556e-03  1.92377556e-03  1.16507510e-14 -4.31191362e-03  1.00000000e+00 
 2.00000000e-02  3.84230583e-03  3.84230583e-03  3.84230583e-03  3.84230583e-03  3.84230582e-03  3.84230582e-03  3.84230583e-03  2.27770016e-14 -3.89921322e-03  1.00000000e+00 
 3.00000000e-02  5.76051800e-03  5.76051800e-03  5.76051800e-03  5.76051800e-03  5.76051799e-03  5.76051799e-03  5.76051800e-03  3.35002824e-14 -3.50206871e-03  1.00000000e+00 
 4.00000000e-02  7.68160132e-03  7.68160133e-03  7.68160133e-03  7.68160133e-03  7.68160131e-03  7.68160132e-03  7.68160133e-03  4.39281701e-14 -3.12196573e-03  1.00000000e+00 
 5.00000000e-02  9.60322331e-03  9.60322331e-03  9.60322331e-03  9.60322332e-03  9.60322330e-03  9.60322330e-03  9.60322331e-03  5.41438728e-14 -2.76048181e-03  1.00000000e+00 
 6.00000000e-02  1.15352066e-02  1.15352066e-02  1.15352066e-02  1.15352066e-02  1.15352066e-02  1.15352066e-02  1.15352066e-02  6.41647918e-14 -2.41927159e-03  1.00000000e+00 
 7.00000000e-02  1.34697885e-02  1.34697885e-02  1.34697885e-02  1.34697885e-02  1.34697885e-02  1.34697885e-02  1.34697885e-02  7.40543770e-14 -2.09998715e-03  1.00000000e+00 
 8.00000000e-02  1.54050211e-02  1.54050211e-02  1.54050211e-02  1.54050211e-02  1.54050211e-02  1.54050211e-02  1.54050211e-02  8.38422273e-14 -1.80421512e-03  1.00000000e+00 
 9.00000000e-02  1.73454413e-02  1.73454413e-02  1.73454413e-02  1.73454413e-02  1.73454413e-02  1.73454413e-02  1.73454413e-02  9.35760902e-14 -1.53329107e-03  1.00000000e+00 
 1.00000000e-01  1.92837128e-02  1.92837128e-02  1.92837128e-02  1.92837128e-02  1.92837128e-02  1.92837128e-02  1.92837128e-02  1.03232188e-13 -1.28850593e-03  1.00000000e+00 
 1.10000000e-01  2.12297824e-02  2.12297824e-02  2.12297824e-02  2.12297824e-02  2.12297823e-02  2.12297824e-02  2.12297824e-02  1.12845698e-13 -1.07029888e-03  1.00000000e+00 
 1.20000000e-01  2.31792472e-02  2.31792473e-02  2.31792472e-02  2.31792473e-02  2.31792472e-02  2.31792472e-02  2.31792473e-02  1.22480392e-13 -8.78974343e-04  1.00000000e+00 
 1.30000000e-01  2.51136394e-02  2.51136395e-02  2.51136394e-02  2.51136395e-02  2.51136394e-02  2.51136394e-02  2.51136394e-02  1.32061728e-13 -7.13814638e-04  1.00000000e+00 
 1.40000000e-01  2.70518853e-02  2.70518853e-02  2.70518853e-02  2.70518853e-02  2.70518852e-02  2.70518852e-02  2.70518853e-02  1.41599950e-13 -5.73636263e-04  1.00000000e+00 
 1.50000000e-01  2.89916216e-02  2.89916216e-02  2.89916216e-02  2.89916216e-02  2.89916216e-02  2.89916216e-02  2.89916216e-02  1.51232598e-13 -4.56654097e-04  1.00000000e+00 
 1.60000000e-01  3.09091283e-02  3.09091283e-02  3.09091283e-02  3.09091284e-02  3.09091283e-02  3.09091283e-02  3.09091283e-02  1.60748841e-13 -3.60557499e-04  1.00000000e+00 
 1.70000000e-01  3.28253942e-02  3.28253942e-02  3.28253942e-02  3.28253942e-02  3.28253942e-02  3.28253942e-02  3.28253942e-02  1.70222347e-13 -2.82712943e-04  1.00000000e+00 
 1.80000000e-01  3.47354475e-02  3.47354475e-02  3.47354475e-02  3.47354475e-02  3.47354474e-02  3.47354475e-02  3.47354475e-02  1.79851661e-13 -2.20482068e-04  1.00000000e+00 
 1.90000000e-01  3.66260685e-02  3.66260686e-02  3.66260686e-02  3.66260686e-02  3.66260685e-02  3.66260685e-02  3.66260686e-02  1.89369797e-13 -1.71261805e-04  1.00000000e+00 
 2.00000000e-01  3.84784767e-02  3.84784767e-02  3.84784767e-02  3.84784767e-02  3.84784767e-02  3.84784767e-02  3.84784767e-02  1.98925974e-13 -1.32668833e-04  1.00000000e+00 
 2.10000000e-01  4.03109033e-02  4.03109033e-02  4.03109033e-02  4.03109033e-02  4.03109033e-02  4.03109033e-02  4.03109033e-02  2.08547480e-13 -1.02617291e-04  1.00000000e+00 
 2.20000000e-01  4.21256838e-02  4.21256838e-02  4.21256838e-02  4.21256838e-02  4.21256838e-02  4.21256838e-02  4.21256838e-02  2.18093679e-13 -7.93055032e-05  1.00000000e+00 
 2.30000000e-01  4.39057582e-02  4.39057582e-02  4.39057582e-02  4.39057582e-02  4.39057581e-02  4.39057581e-02  4.39057582e-02  2.27657177e-13 -6.13041944e-05  1.00000000e+00 
 2.40000000e-01  4.56560706e-02  4.56560706e-02  4.56560706e-02  4.56560706e-02  4.56560706e-02  4.56560706e-02  4.56560706e-02  2.37253280e-13 -4.74280916e-05  1.00000000e+00 
 2.50000000e-01  4.73830094e-02  4.73830094e-02  4.73830094e-02  4.73830094e-02  4.73830094e-02  4.73830094e-02  4.73830094e-02  2.47006210e-13 -3.67235441e-05  1.00000000e+00 
 2.60000000e-01  4.90845046e-02  4.90845047e-02  4.90845047e-02  4.90845047e-02  4.90845046e-02  4.90845046e-02  4.90845047e-02  2.56705337e-13 -2.84843029e-05  1.00000000e+00 
 2.70000000e-01  5.07087378e-02  5.07087378e-02  5.07087378e-02  5.07087378e-02  5.07087378e-02  5.07087378e-02  5.07087378e-02  2.66566208e-13 -2.21286519e-05  1.00000000e+00 
 2.80000000e-01  5.23340609e-02  5.23340609e-02  5.23340609e-02  5.23340609e-02  5.23340608e-02  5.23340609e-02  5.23340609e-02  2.76488637e-13 -1.72143313e-05  1.00000000e+00 
 2.90000000e-01  5.39284631e-02  5.39284632e-02  5.39284631e-02  5.39284632e-02  5.39284631e-02  5.39284631e-02  5.39284631e-02  2.86691577e-13 -1.34158475e-05  1.00000000e+00 
 3.00000000e-01  5.54900734e-02  5.54900734e-02  5.54900734e-02  5.54900734e-02  5.54900733e-02  5.54900734e-02  5.54900734e-02  2.97011669e-13 -1.04793677e-05  1.00000000e+00 
 3.10000000e-01  5.70253391e-02  5.70253391e-02  5.70253391e-02  5.70253392e-02  5.70253391e-02  5.70253391e-02  5.70253391e-02  3.07687163e-13 -8.19620608e-06  1.00000000e+00 
 3.20000000e-01  5.85133668e-02  5.85133668e-02  5.85133668e-02  5.85133668e-02  5.85133668e-02  5.85133668e-02  5.85133668e-02  3.18752605e-13 -6.43144365e-06  1.00000000e+00 
 3.30000000e-01  5.99728831e-02  5.99728831e-02  5.99728831e-02  5.99728831e-02  5.99728831e-02  5.99728831e-02  5.99728831e-02  3.30394612e-13 -5.04465676e-06  1.00000000e+00 
 3.40000000e-01  6.14407782e-02  6.14407782e-02  6.14407782e-02  6.14407782e-02  6.14407782e-02  6.14407782e-02  6.14407782e-02  3.42832615e-13 -3.96667902e-06  1.00000000e+00 
 3.50000000e-01  6.28120880e-02  6.28120880e-02  6.28120880e-02  6.28120880e-02  6.28120880e-02  6.28120880e-02  6.28120880e-02  3.56228261e-13 -3.11127830e-06  1.00000000e+00 
 3.60000000e-01  6.42184843e-02  6.42184843e-02  6.42184843e-02  6.42184843e-02  6.42184843e-02  6.42184843e-02  6.42184843e-02  3.71109173e-13 -2.45498461e-06  1.00000000e+00 
 3.70000000e-01  6.55452300e-02  6.55452300e-02  6.55452300e-02  6.55452300e-02  6.55452299e-02  6.55452300e-02  6.55452300e-02  3.88132126e-13 -1.93470409e-06  1.00000000e+00 
 3.80000000e-01  6.69042732e-02  6.69042732e-02  6.69042732e-02  6.69042732e-02  6.69042732e-02  6.69042732e-02  6.69042732e-02  4.07756277e-13 -1.52579757e-06  1.00000000e+00 
 3.90000000e-01  6.82400671e-02  6.82400671e-02  6.82400671e-02  6.82400671e-02  6.82400670e-02  6.82400670e-02  6.82400671e-02  4.31079722e-13 -1.20505841e-06  1.00000000e+00 
 4.00000000e-01  6.95819328e-02  6.95819328e-02  6.95819328e-02  6.95819328e-02  6.95819328e-02  6.95819328e-02  6.95819328e-02  4.59299824e-13 -9.51612435e-07  1.00000000e+00 
 4.10000000e-01  7.09424812e-02  7.09424812e-02  7.09424812e-02  7.09424812e-02  7.09424811e-02  7.09424811e-02  7.09424812e-02  4.94370380e-13 -7.49364943e-07  1.00000000e+00 
 4.20000000e-01  7.23203599e-02  7.23203599e-02  7.23203599e-02  7.23203599e-02  7.23203598e-02  7.23203599e-02  7.23203599e-02  5.38636898e-13 -5.92645179e-07  1.00000000e+00 
 4.30000000e-01  7.36788964e-02  7.36788964e-02  7.36788964e-02  7.36788964e-02  7.36788964e-02  7.36788964e-02  7.36788964e-02  5.95434018e-13 -4.68709644e-07  1.00000000e+00 
 4.40000000e-01  7.51361918e-02  7.51361919e-02  7.51361918e-02  7.51361919e-02  7.51361918e-02  7.51361918e-02  7.51361918e-02  6.69287786e-13 -3.71585756e-07  1.00000000e+00 
 4.50000000e-01  7.66670047e-02  7.66670047e-02  7.66670047e-02  7.66670047e-02  7.66670046e-02  7.66670047e-02  7.66670047e-02  7.66313689e-13 -2.95251184e-07  1.00000000e+00 
 4.60000000e-01  7.83255081e-02  7.83255081e-02  7.83255081e-02  7.83255081e-02  7.83255081e-02  7.83255081e-02  7.83255081e-02  8.94990448e-13 -2.35887029e-07  1.00000000e+00 
 4.70000000e-01  8.01140063e-02  8.01140064e-02  8.01140063e-02  8.01140064e-02  8.01140063e-02  8.01140063e-02  8.01140063e-02  1.06645081e-12 -1.88655591e-07  1.00000000e+00 
 4.80000000e-01  8.21377877e-02  8.21377877e-02  8.21377877e-02  8.21377877e-02  8.21377876e-02  8.21377877e-02  8.21377877e-02  1.29651770e-12 -1.51657588e-07  1.00000000e+00 
 4.90000000e-01  8.43940538e-02  8.43940538e-02  8.43940538e-02  8.43940538e-02  8.43940537e-02  8.43940538e-02  8.43940538e-02  1.60712456e-12 -1.21055123e-07  1.00000000e+00 
 5.00000000e-01  8.70135297e-02  8.70135297e-02  8.70135297e-02  8.70135297e-02  8.70135297e-02  8.70135297e-02  8.70135297e-02  2.02744063e-12 -9.55651842e-08  1.00000000e+00 
 5.10000000e-01  9.00590433e-02  9.00590434e-02  9.00590434e-02  9.00590434e-02  9.00590433e-02  9.00590433e-02  9.00590434e-02  2.59793143e-12 -7.43373789e-08  1.00000000e+00 
 5.20000000e-01  9.36513737e-02  9.36513737e-02  9.36513737e-02  9.36513737e-02  9.36513736e-02  9.36513737e-02  9.36513737e-02  3.37318907e-12 -5.72315884e-08  1.00000000e+00 
 5.30000000e-01  9.78380378e-02  9.78380378e-02  9.78380378e-02  9.78380378e-02  9.78380378e-02  9.78380378e-02  9.78380378e-02  4.42769511e-12 -4.36769199e-08  1.00000000e+00 
 5.40000000e-01  1.02752209e-01  1.02752209e-01  1.02752209e-01  1.02752209e-01  1.02752209e-01  1.02752209e-01  1.02752209e-01  5.85927465e-12 -3.31696697e-08  1.00000000e+00 
 5.50000000e-01  1.08412645e-01  1.08412645e-01  1.08412645e-01  1.08412645e-01  1.08412645e-01  1.08412645e-01  1.08412645e-01  7.80462061e-12 -2.51234127e-08  1.00000000e+00 
 5.60000000e-01  1.14818429e-01  1.14818429e-01  1.14818429e-01  1.14818429e-01  1.14818429e-01  1.14818429e-01  1.14818429e-01  1.04355599e-11 -1.89950242e-08  1.00000000e+00 
 5.70000000e-01  1.21979857e-01  1.21979857e-01  1.21979857e-01  1.21979857e-01  1.21979857e-01  1.21979857e-01  1.21979857e-01  1.39865897e-11 -1.43493111e-08  1.00000000e+00 
 5.80000000e-01  1.29795866e-01  1.29795866e-01  1.29795866e-01  1.29795866e-01  1.29795866e-01  1.29795866e-01  1.29795866e-01  1.87641122e-11 -1.08323661e-08  1.00000000e+00 
 5.90000000e-01  1.38207773e-01  1.38207773e-01  1.38207773e-01  1.38207773e-01  1.38207773e-01  1.38207773e-01  1.38207773e-01  2.51917209e-11 -8.17341572e-09  1.00000000e+00 
 6.00000000e-01  1.47101240e-01  1.47101240e-01  1.47101240e-01  1.47101240e-01  1.47101240e-01  1.47101240e-01  1.47101240e-01  3.37989903e-11 -6.16566354e-09  1.00000000e+00 
 6.10000000e-01  1.56380421e-01  1.56380422e-01  1.56380422e-01  1.56380422e-01  1.56380421e-01  1.56380421e-01  1.56380422e-01  4.52965855e-11 -4.65054484e-09  1.00000000e+00 
 6.20000000e-01  1.65943073e-01  1.65943073e-01  1.65943073e-01  1.65943073e-01  1.65943073e-01  1.65943073e-01  1.65943073e-01  6.06213881e-11 -3.50792106e-09  1.00000000e+00 
 6.30000000e-01  1.75695643e-01  1.75695643e-01  1.75695643e-01  1.75695643e-01  1.75695642e-01  1.75695643e-01  1.75695643e-01  8.09504646e-11 -2.64664379e-09  1.00000000e+00 
 6.40000000e-01  1.85572047e-01  1.85572047e-01  1.85572047e-01  1.85572047e-01  1.85572047e-01  1.85572047e-01  1.85572047e-01  1.07805403e-10 -1.99796091e-09  1.00000000e+00 
 6.50000000e-01  1.95499554e-01  1.95499554e-01  1.95499554e-01  1.95499554e-01  1.95499554e-01  1.95499554e-01  1.95499554e-01  1.43120629e-10 -1.50950541e-09  1.00000000e+00 
 6.60000000e-01  2.05417811e-01  2.05417811e-01  2.05417811e-01  2.05417811e-01  2.05417811e-01  2.05417811e-01  2.05417811e-01  1.89333176e-10 -1.14238219e-09  1.00000000e+00 
 6.70000000e-01  2.15286036e-01  2.15286036e-01  2.15286036e-01  2.15286036e-01  2.15286036e-01  2.15286036e-01  2.15286036e-01  2.49445041e-10 -8.66776872e-10  1.00000000e+00 
 6.80000000e-01  2.25072875e-01  2.25072875e-01  2.25072875e-01  2.25072875e-01  2.25072875e-01  2.25072875e-01  2.25072875e-01  3.27170173e-10 -6.60406840e-10  1.00000000e+00 
 6.90000000e-01  2.34739062e-01  2.34739062e-01  2.34739062e-01  2.34739062e-01  2.34739062e-01  2.34739062e-01  2.34739062e-01  4.27062514e-10 -5.06844344e-10  1.00000000e+00 
 7.00000000e-01  2.44267327e-01  2.44267327e-01  2.44267327e-01  2.44267327e-01  2.44267327e-01  2.44267327e-01  2.44267327e-01  5.54577551e-10 -3.93285404e-10  1.00000000e+00 
 7.10000000e-01  2.53634826e-01  2.53634826e-01  2.53634826e-01  2.53634826e-01  2.53634826e-01  2.53634826e-01  2.53634826e-01  7.16232934e-10 -3.10578230e-10  1.00000000e+00 
 7.20000000e-01  2.62829992e-01  2.62829992e-01  2.62829992e-01  2.62829992e-01  2.62829992e-01  2.62829992e-01  2.62829992e-01  9.19782722e-10 -2.51787924e-10  1.00000000e+00 
 7.30000000e-01  2.71842352e-01  2.71842352e-01  2.71842352e-01  2.71842352e-01  2.71842352e-01  2.71842352e-01  2.71842352e-01  1.17428468e-09 -2.11713314e-10  1.00000000e+00 
 7.40000000e-01  2.80662992e-01  2.80662992e-01  2.80662992e-01  2.80662992e-01  2.80662992e-01  2.80662992e-01  2.80662992e-01  1.49029329e-09 -1.86858529e-10  1.00000000e+00 
 7.50000000e-01  2.89291360e-01  2.89291360e-01  2.89291360e-01  2.89291360e-01  2.89291360e-01  2.89291360e-01  2.89291360e-01  1.88005717e-09 -1.74409820e-10  1.00000000e+00 
 7.60000000e-01  2.97726332e-01  2.97726332e-01  2.97726332e-01  2.97726332e-01  2.97726332e-01  2.97726332e-01  2.97726332e-01  2.35771970e-09 -1.72889258e-10  1.00000000e+00 
 7.70000000e-01  3.05971521e-01  3.05971521e-01  3.05971521e-01  3.05971521e-01  3.05971520e-01  3.05971521e-01  3.05971521e-01  2.93959770e-09 -1.80676807e-10  1.00000000e+00 
 7.80000000e-01  3.14033985e-01  3.14033985e-01  3.14033985e-01  3.14033985e-01  3.14033985e-01  3.14033985e-01  3.14033985e-01  3.64448610e-09 -1.97104555e-10  1.00000000e+00 
 7.90000000e-01  3.21922343e-01  3.21922343e-01  3.21922343e-01  3.21922343e-01  3.21922343e-01  3.21922343e-01  3.21922343e-01  4.49424142e-09 -2.20836682e-10  1.00000000e+00 
 8.00000000e-01  3.29647511e-01  3.29647511e-01  3.29647511e-01  3.29647511e-01  3.29647511e-01  3.29647511e-01  3.29647511e-01  5.51411058e-09 -2.48107312e-10  1.00000000e+00 
 8.10000000e-01  3.37222755e-01  3.37222755e-01  3.37222755e-01  3.37222755e-01  3.37222755e-01  3.37222755e-01  3.37222755e-01  6.73354200e-09 -2.67036171e-10  1.00000000e+00 
 8.20000000e-01  3.44661837e-01  3.44661837e-01  3.44661837e-01  3.44661837e-01  3.44661837e-01  3.44661837e-01  3.44661837e-01  8.18703333e-09 -2.62247113e-10  1.00000000e+00 
 8.30000000e-01  3.51980021e-01  3.51980021e-01  3.51980021e-01  3.51980021e-01  3.51980021e-01  3.51980021e-01  3.51980021e-01  9.91505317e-09 -2.34336994e-10  1.00000000e+00 
 8.40000000e-01  3.59192581e-01  3.59192581e-01  3.59192581e-01  3.59192581e-01  3.59192581e-01  3.59192581e-01  3.59192581e-01  1.19653678e-08 -1.95441885e-10  1.00000000e+00 
 8.50000000e-01  3.66315157e-01  3.66315157e-01  3.66315157e-01  3.66315157e-01  3.66315157e-01  3.66315157e-01  3.66315157e-01  1.43943352e-08 -1.56092028e-10  1.00000000e+00 
 8.60000000e-01  3.73363037e-01  3.73363038e-01  3.73363037e-01  3.73363038e-01  3.73363037e-01  3.73363037e-01  3.73363037e-01  1.72688743e-08 -1.21659127e-10  1.00000000e+00 
 8.70000000e-01  3.80351244e-01  3.80351244e-01  3.80351244e-01  3.80351244e-01  3.80351244e-01  3.80351244e-01  3.80351244e-01  2.06683440e-08 -9.33937372e-11  1.00000000e+00 
 8.80000000e-01  3.87293716e-01  3.87293716e-01  3.87293716e-01  3.87293716e-01  3.87293716e-01  3.87293716e-01  3.87293716e-01  2.46871357e-08 -7.10116410e-11  1.00000000e+00 
 8.90000000e-01  3.94203755e-01  3.94203755e-01  3.94203755e-01  3.94203755e-01  3.94203755e-01  3.94203755e-01  3.94203755e-01  2.94374038e-08 -5.37454525e-11  1.00000000e+00 
 9.00000000e-01  4.01093221e-01  4.01093221e-01  4.01093221e-01  4.01093221e-01  4.01093221e-01  4.01093221e-01  4.01093221e-01  3.50525513e-08 -4.05009359e-11  1.00000000e+00 
 9.10000000e-01  4.07972508e-01  4.07972508e-01  4.07972508e-01  4.07972508e-01  4.07972508e-01  4.07972508e-01  4.07972508e-01  4.16908097e-08 -3.04822834e-11  1.00000000e+00 
 9.20000000e-01  4.14850327e-01  4.14850327e-01  4.14850327e-01  4.14850327e-01  4.14850327e-01  4.14850327e-01  4.14850327e-01  4.95394414e-08 -2.28652652e-11  1.00000000e+00 
 9.30000000e-01  4.21733115e-01  4.21733115e-01  4.21733115e-01  4.21733115e-01  4.21733115e-01  4.21733115e-01  4.21733115e-01  5.88191336e-08 -1.71240799e-11  1.00000000e+00 
 9.40000000e-01  4.28624606e-01  4.28624606e-01  4.28624606e-01  4.28624606e-01  4.28624606e-01  4.28624606e-01  4.28624606e-01  6.97879075e-08 -1.27613475e-11  1.00000000e+00 
 9.50000000e-01  4.35525444e-01  4.35525444e-01  4.35525444e-01  4.35525444e-01  4.35525444e-01  4.35525444e-01  4.35525444e-01  8.27447613e-08 -9.46442924e-12  1.00000000e+00 
 9.60000000e-01  4.42432274e-01  4.42432274e-01  4.42432274e-01  4.42432274e-01  4.42432274e-01  4.42432274e-01  4.42432274e-01  9.80311068e-08 -6.87805368e-12  1.00000000e+00 
 9.70000000e-01  4.49337066e-01  4.49337066e-01  4.49337066e-01  4.49337066e-01  4.49337066e-01  4.49337066e-01  4.49337066e-01  1.16028634e-07 -4.93116659e-12  1.00000000e+00 
 9.80000000e-01  4.56226017e-01  4.56226017e-01  4.56226017e-01  4.56226017e-01  4.56226017e-01  4.56226017e-01  4.56226017e-01  1.37151924e-07 -3.38218342e-12  1.00000000e+00 
 9.90000000e-01  4.63078560e-01  4.63078560e-01  4.63078560e-01  4.63078560e-01  4.63078560e-01  4.63078560e-01  4.63078560e-01  1.61830909e-07 -2.17426077e-12  1.00000000e+00 
 1.00000000e+00  4.69866031e-01  4.69866031e-01  4.69866031e-01  4.69866031e-01  4.69866031e-01  4.69866031e-01  4.69866031e-01  1.90480099e-07 -1.19371180e-12  1.00000000e+00 
 1.01000000e+00  4.76550435e-01  4.76550435e-01  4.76550435e-01  4.76550435e-01  4.76550435e-01  4.76550435e-01  4.76550435e-01  2.23448996e-07 -3.83693077e-13  1.00000000e+00 
 1.02000000e+00  4.83083342e-01  4.83083342e-01  4.83083342e-01  4.83083342e-01  4.83083341e-01  4.83083342e-01  4.83083342e-01  2.60949983e-07  3.41060513e-13  1.00000000e+00 
 1.03000000e+00  4.89405699e-01  4.89405699e-01  4.89405699e-01  4.89405699e-01  4.89405699e-01  4.89405699e-01  4.89405699e-01  3.02965379e-07  1.08002496e-12  1.00000000e+00 
 1.04000000e+00  4.95449058e-01  4.95449058e-01  4.95449058e-01  4.95449058e-01  4.95449058e-01  4.95449058e-01  4.95449058e-01  3.49146241e-07  1.71951342e-12  1.00000000e+00 
 1.05000000e+00  5.01139108e-01  5.01139108e-01  5.01139108e-01  5.01139108e-01  5.01139108e-01  5.01139108e-01  5.01139108e-01  3.98728346e-07  2.40163445e-12  1.00000000e+00 
 1.06000000e+00  5.06400901e-01  5.06400901e-01  5.06400901e-01  5.06400901e-01  5.06400900e-01  5.06400900e-01  5.06400901e-01  4.50495051e-07  3.08375547e-12  1.00000000e+00 
 1.07000000e+00  5.11162881e-01  5.11162881e-01  5.11162881e-01  5.11162881e-01  5.11162881e-01  5.11162881e-01  5.11162881e-01  5.02789849e-07  3.75166564e-12  1.00000000e+00 
 1.08000000e+00  5.15356138e-01  5.15356138e-01  5.15356138e-01  5.15356138e-01  5.15356138e-01  5.15356138e-01  5.15356138e-01  5.53541486e-07  4.53326265e-12  1.00000000e+00 
 1.09000000e+00  5.18909418e-01  5.18909418e-01  5.18909418e-01  5.18909418e-01  5.18909418e-01  5.18909418e-01  5.18909418e-01  6.00280618e-07  5.31485966e-12  1.00000000e+00 
 1.10000000e+00  5.21749230e-01  5.21749230e-01  5.21749230e-01  5.21749230e-01  5.21749230e-01  5.21749230e-01  5.21749230e-01  6.40264510e-07  6.25277607e-12  1.00000000e+00 
