 v-sweep         v(b0)           v(b1)           v(b2)           v(b3)           v(b4)           v(b5)           v(b6)           i(vbias)        i(viout)        v(vout)        
 0.00000000e+00  6.55594413e-22  6.55594411e-22  6.55594413e-22  6.55594414e-22  6.55594413e-22  6.55594412e-22  6.55594415e-22 -7.96229398e-30 -4.73880964e-03  1.00000000e+00 
 1.00000000e-02  1.96103359e-03  1.96103360e-03  1.96103359e-03  1.96103359e-03  1.96103359e-03  1.96103360e-03  1.96103359e-03  1.16521223e-14 -4.31193168e-03  1.00000000e+00 
 2.00000000e-02  3.91410630e-03  3.91410631e-03  3.91410630e-03  3.91410630e-03  3.91410630e-03  3.91410631e-03  3.91410630e-03  2.27739224e-14 -3.89923545e-03  1.00000000e+00 
 3.00000000e-02  5.86458726e-03  5.86458726e-03  5.86458726e-03  5.86458725e-03  5.86458726e-03  5.86458726e-03  5.86458725e-03  3.34881803e-14 -3.50209372e-03  1.00000000e+00 
 4.00000000e-02  7.80786172e-03  7.80786173e-03  7.80786172e-03  7.80786171e-03  7.80786172e-03  7.80786172e-03  7.80786171e-03  4.39247862e-14 -3.12199424e-03  1.00000000e+00 
 5.00000000e-02  9.76718566e-03  9.76718567e-03  9.76718566e-03  9.76718566e-03  9.76718566e-03  9.76718567e-03  9.76718565e-03  5.41136926e-14 -2.76051739e-03  1.00000000e+00 
 6.00000000e-02  1.17168697e-02  1.17168697e-02  1.17168697e-02  1.17168697e-02  1.17168697e-02  1.17168697e-02  1.17168697e-02  6.41417626e-14 -2.41931759e-03  1.00000000e+00 
 7.00000000e-02  1.36730369e-02  1.36730369e-02  1.36730369e-02  1.36730369e-02  1.36730369e-02  1.36730369e-02  1.36730369e-02  7.40320065e-14 -2.10003963e-03  1.00000000e+00 
 8.00000000e-02  1.56130650e-02  1.56130650e-02  1.56130649e-02  1.56130649e-02  1.56130650e-02  1.56130650e-02  1.56130649e-02  8.38526420e-14 -1.80426883e-03  1.00000000e+00 
 9.00000000e-02  1.75810651e-02  1.75810651e-02  1.75810651e-02  1.75810651e-02  1.75810651e-02  1.75810651e-02  1.75810650e-02  9.35632585e-14 -1.53341771e-03  1.00000000e+00 
 1.00000000e-01  1.95272411e-02  1.95272412e-02  1.95272411e-02  1.95272411e-02  1.95272411e-02  1.95272411e-02  1.95272411e-02  1.03199031e-13 -1.28853552e-03  1.00000000e+00 
 1.10000000e-01  2.14764909e-02  2.14764909e-02  2.14764909e-02  2.14764909e-02  2.14764909e-02  2.14764909e-02  2.14764909e-02  1.12836845e-13 -1.07044283e-03  1.00000000e+00 
 1.20000000e-01  2.34335153e-02  2.34335153e-02  2.34335153e-02  2.34335153e-02  2.34335153e-02  2.34335153e-02  2.34335153e-02  1.22436808e-13 -8.79075292e-04  1.00000000e+00 
 1.30000000e-01  2.53658965e-02  2.53658965e-02  2.53658965e-02  2.53658965e-02  2.53658965e-02  2.53658965e-02  2.53658965e-02  1.32048763e-13 -7.13927958e-04  1.00000000e+00 
 1.40000000e-01  2.73087208e-02  2.73087208e-02  2.73087208e-02  2.73087208e-02  2.73087208e-02  2.73087208e-02  2.73087207e-02  1.41590621e-13 -5.73755065e-04  1.00000000e+00 
 1.50000000e-01  2.92462187e-02  2.92462187e-02  2.92462187e-02  2.92462187e-02  2.92462187e-02  2.92462187e-02  2.92462187e-02  1.51150652e-13 -4.56794142e-04  1.00000000e+00 
 1.60000000e-01  3.11546846e-02  3.11546846e-02  3.11546846e-02  3.11546846e-02  3.11546846e-02  3.11546846e-02  3.11546846e-02  1.60697828e-13 -3.60696396e-04  1.00000000e+00 
 1.70000000e-01  3.30585671e-02  3.30585671e-02  3.30585671e-02  3.30585670e-02  3.30585671e-02  3.30585671e-02  3.30585670e-02  1.70207974e-13 -2.82876083e-04  1.00000000e+00 
 1.80000000e-01  3.49687352e-02  3.49687352e-02  3.49687352e-02  3.49687352e-02  3.49687352e-02  3.49687352e-02  3.49687352e-02  1.79795642e-13 -2.20656084e-04  1.00000000e+00 
 1.90000000e-01  3.68081170e-02  3.68081170e-02  3.68081170e-02  3.68081170e-02  3.68081170e-02  3.68081170e-02  3.68081170e-02  1.89349646e-13 -1.71447344e-04  1.00000000e+00 
 2.00000000e-01  3.86633314e-02  3.86633314e-02  3.86633314e-02  3.86633314e-02  3.86633314e-02  3.86633314e-02  3.86633314e-02  1.98911979e-13 -1.32868998e-04  1.00000000e+00 
 2.10000000e-01  4.04909410e-02  4.04909410e-02  4.04909410e-02  4.04909409e-02  4.04909410e-02  4.04909410e-02  4.04909409e-02  2.08440395e-13 -1.02801569e-04  1.00000000e+00 
 2.20000000e-01  4.22846342e-02  4.22846342e-02  4.22846342e-02  4.22846342e-02  4.22846342e-02  4.22846342e-02  4.22846341e-02  2.18025083e-13 -7.95204470e-05  1.00000000e+00 
 2.30000000e-01  4.40187914e-02  4.40187914e-02  4.40187913e-02  4.40187913e-02  4.40187914e-02  4.40187914e-02  4.40187913e-02  2.27649561e-13 -6.15269547e-05  1.00000000e+00 
 2.40000000e-01  4.57627896e-02  4.57627896e-02  4.57627896e-02  4.57627896e-02  4.57627896e-02  4.57627896e-02  4.57627895e-02  2.37304444e-13 -4.76492108e-05  1.00000000e+00 
 2.50000000e-01  4.74756454e-02  4.74756454e-02  4.74756454e-02  4.74756454e-02  4.74756454e-02  4.74756454e-02  4.74756453e-02  2.46945934e-13 -3.69417714e-05  1.00000000e+00 
 2.60000000e-01  4.91308541e-02  4.91308542e-02  4.91308541e-02  4.91308541e-02  4.91308541e-02  4.91308542e-02  4.91308541e-02  2.56665915e-13 -2.87007224e-05  1.00000000e+00 
 2.70000000e-01  5.07567188e-02  5.07567188e-02  5.07567188e-02  5.07567188e-02  5.07567188e-02  5.07567188e-02  5.07567188e-02  2.66476187e-13 -2.23293225e-05  1.00000000e+00 
 2.80000000e-01  5.23703037e-02  5.23703037e-02  5.23703037e-02  5.23703037e-02  5.23703037e-02  5.23703037e-02  5.23703037e-02  2.76522076e-13 -1.74112345e-05  1.00000000e+00 
 2.90000000e-01  5.39403673e-02  5.39403673e-02  5.39403673e-02  5.39403673e-02  5.39403673e-02  5.39403673e-02  5.39403672e-02  2.86690505e-13 -1.35991694e-05  1.00000000e+00 
 3.00000000e-01  5.54611991e-02  5.54611991e-02  5.54611991e-02  5.54611991e-02  5.54611991e-02  5.54611991e-02  5.54611991e-02  2.97034703e-13 -1.06505570e-05  1.00000000e+00 
 3.10000000e-01  5.69654917e-02  5.69654917e-02  5.69654917e-02  5.69654917e-02  5.69654917e-02  5.69654917e-02  5.69654917e-02  3.07775401e-13 -8.34663871e-06  1.00000000e+00 
 3.20000000e-01  5.84594734e-02  5.84594734e-02  5.84594734e-02  5.84594734e-02  5.84594734e-02  5.84594734e-02  5.84594734e-02  3.18935132e-13 -6.55949657e-06  1.00000000e+00 
 3.30000000e-01  5.99036495e-02  5.99036495e-02  5.99036495e-02  5.99036495e-02  5.99036495e-02  5.99036495e-02  5.99036495e-02  3.30649487e-13 -5.16596526e-06  1.00000000e+00 
 3.40000000e-01  6.13128262e-02  6.13128262e-02  6.13128262e-02  6.13128262e-02  6.13128262e-02  6.13128262e-02  6.13128262e-02  3.43138478e-13 -4.07164349e-06  1.00000000e+00 
 3.50000000e-01  6.27087764e-02  6.27087764e-02  6.27087764e-02  6.27087764e-02  6.27087764e-02  6.27087764e-02  6.27087763e-02  3.56693391e-13 -3.20899970e-06  1.00000000e+00 
 3.60000000e-01  6.40575675e-02  6.40575676e-02  6.40575675e-02  6.40575675e-02  6.40575675e-02  6.40575676e-02  6.40575675e-02  3.71749598e-13 -2.52957699e-06  1.00000000e+00 
 3.70000000e-01  6.53954221e-02  6.53954222e-02  6.53954221e-02  6.53954221e-02  6.53954221e-02  6.53954222e-02  6.53954221e-02  3.88897380e-13 -2.00033088e-06  1.00000000e+00 
 3.80000000e-01  6.67512542e-02  6.67512542e-02  6.67512541e-02  6.67512541e-02  6.67512542e-02  6.67512542e-02  6.67512541e-02  4.08848746e-13 -1.58035665e-06  1.00000000e+00 
 3.90000000e-01  6.80371382e-02  6.80371382e-02  6.80371382e-02  6.80371381e-02  6.80371382e-02  6.80371382e-02  6.80371381e-02  4.32485536e-13 -1.24966701e-06  1.00000000e+00 
 4.00000000e-01  6.93510958e-02  6.93510958e-02  6.93510958e-02  6.93510958e-02  6.93510958e-02  6.93510958e-02  6.93510958e-02  4.61563757e-13 -9.86720323e-07  1.00000000e+00 
 4.10000000e-01  7.06957358e-02  7.06957358e-02  7.06957358e-02  7.06957358e-02  7.06957358e-02  7.06957358e-02  7.06957358e-02  4.97196007e-13 -7.81553297e-07  1.00000000e+00 
 4.20000000e-01  7.20250891e-02  7.20250891e-02  7.20250891e-02  7.20250891e-02  7.20250891e-02  7.20250891e-02  7.20250890e-02  5.42578681e-13 -6.19326457e-07  1.00000000e+00 
 4.30000000e-01  7.33817650e-02  7.33817651e-02  7.33817650e-02  7.33817650e-02  7.33817650e-02  7.33817651e-02  7.33817650e-02  6.00628546e-13 -4.90313411e-07  1.00000000e+00 
 4.40000000e-01  7.48086527e-02  7.48086527e-02  7.48086527e-02  7.48086527e-02  7.48086527e-02  7.48086527e-02  7.48086527e-02  6.75950490e-13 -3.89175312e-07  1.00000000e+00 
 4.50000000e-01  7.63055498e-02  7.63055499e-02  7.63055498e-02  7.63055498e-02  7.63055499e-02  7.63055499e-02  7.63055498e-02  7.74910660e-13 -3.09532084e-07  1.00000000e+00 
 4.60000000e-01  7.79315957e-02  7.79315957e-02  7.79315957e-02  7.79315956e-02  7.79315957e-02  7.79315957e-02  7.79315956e-02  9.06085868e-13 -2.46907135e-07  1.00000000e+00 
 4.70000000e-01  7.96674417e-02  7.96674417e-02  7.96674417e-02  7.96674417e-02  7.96674417e-02  7.96674417e-02  7.96674417e-02  1.08088748e-12 -1.97918965e-07  1.00000000e+00 
 4.80000000e-01  8.16034113e-02  8.16034113e-02  8.16034113e-02  8.16034112e-02  8.16034113e-02  8.16034113e-02  8.16034112e-02  1.31530645e-12 -1.58607023e-07  1.00000000e+00 
 4.90000000e-01  8.38387263e-02  8.38387263e-02  8.38387263e-02  8.38387263e-02  8.38387263e-02  8.38387263e-02  8.38387262e-02  1.63187633e-12 -1.26070830e-07  1.00000000e+00 
 5.00000000e-01  8.63683186e-02  8.63683186e-02  8.63683185e-02  8.63683185e-02  8.63683186e-02  8.63683186e-02  8.63683185e-02  2.05821326e-12 -9.86062219e-08  1.00000000e+00 
 5.10000000e-01  8.93248740e-02  8.93248740e-02  8.93248740e-02  8.93248739e-02  8.93248740e-02  8.93248740e-02  8.93248739e-02  2.63784003e-12 -7.59863070e-08  1.00000000e+00 
 5.20000000e-01  9.28293218e-02  9.28293219e-02  9.28293218e-02  9.28293218e-02  9.28293218e-02  9.28293219e-02  9.28293218e-02  3.42496452e-12 -5.79819357e-08  1.00000000e+00 
 5.30000000e-01  9.69170887e-02  9.69170887e-02  9.69170887e-02  9.69170887e-02  9.69170887e-02  9.69170887e-02  9.69170886e-02  4.49420790e-12 -4.40319354e-08  1.00000000e+00 
 5.40000000e-01  1.01721969e-01  1.01721969e-01  1.01721969e-01  1.01721969e-01  1.01721969e-01  1.01721969e-01  1.01721969e-01  5.94768679e-12 -3.33531034e-08  1.00000000e+00 
 5.50000000e-01  1.07253999e-01  1.07253999e-01  1.07253999e-01  1.07253999e-01  1.07253999e-01  1.07253999e-01  1.07253999e-01  7.91405597e-12 -2.52265266e-08  1.00000000e+00 
 5.60000000e-01  1.13564932e-01  1.13564932e-01  1.13564932e-01  1.13564932e-01  1.13564932e-01  1.13564932e-01  1.13564932e-01  1.05720953e-11 -1.90602520e-08  1.00000000e+00 
 5.70000000e-01  1.20620844e-01  1.20620844e-01  1.20620844e-01  1.20620844e-01  1.20620844e-01  1.20620844e-01  1.20620843e-01  1.41637531e-11 -1.43915884e-08  1.00000000e+00 
 5.80000000e-01  1.28335093e-01  1.28335093e-01  1.28335093e-01  1.28335093e-01  1.28335093e-01  1.28335093e-01  1.28335093e-01  1.89903533e-11 -1.08609726e-08  1.00000000e+00 
 5.90000000e-01  1.36672983e-01  1.36672983e-01  1.36672983e-01  1.36672983e-01  1.36672983e-01  1.36672983e-01  1.36672983e-01  2.54631763e-11 -8.19376567e-09  1.00000000e+00 
 6.00000000e-01  1.45505713e-01  1.45505713e-01  1.45505713e-01  1.45505713e-01  1.45505713e-01  1.45505713e-01  1.45505713e-01  3.41357491e-11 -6.18062757e-09  1.00000000e+00 
 6.10000000e-01  1.54748401e-01  1.54748401e-01  1.54748401e-01  1.54748401e-01  1.54748401e-01  1.54748401e-01  1.54748400e-01  4.57180895e-11 -4.66188510e-09  1.00000000e+00 
 6.20000000e-01  1.64278057e-01  1.64278057e-01  1.64278057e-01  1.64278057e-01  1.64278057e-01  1.64278057e-01  1.64278057e-01  6.11359813e-11 -3.51695917e-09  1.00000000e+00 
 6.30000000e-01  1.74027418e-01  1.74027418e-01  1.74027418e-01  1.74027418e-01  1.74027418e-01  1.74027418e-01  1.74027417e-01  8.15994533e-11 -2.65434608e-09  1.00000000e+00 
 6.40000000e-01  1.83908932e-01  1.83908932e-01  1.83908932e-01  1.83908932e-01  1.83908932e-01  1.83908932e-01  1.83908932e-01  1.08624680e-10 -2.00472527e-09  1.00000000e+00 
 6.50000000e-01  1.93839236e-01  1.93839236e-01  1.93839236e-01  1.93839236e-01  1.93839236e-01  1.93839236e-01  1.93839236e-01  1.44148089e-10 -1.51619872e-09  1.00000000e+00 
 6.60000000e-01  2.03773454e-01  2.03773454e-01  2.03773454e-01  2.03773453e-01  2.03773454e-01  2.03773454e-01  2.03773453e-01  1.90618092e-10 -1.14930288e-09  1.00000000e+00 
 6.70000000e-01  2.13659408e-01  2.13659408e-01  2.13659408e-01  2.13659408e-01  2.13659408e-01  2.13659408e-01  2.13659408e-01  2.51054365e-10 -8.74564421e-10  1.00000000e+00 
 6.80000000e-01  2.23461659e-01  2.23461659e-01  2.23461659e-01  2.23461659e-01  2.23461659e-01  2.23461659e-01  2.23461659e-01  3.29200143e-10 -6.69601263e-10  1.00000000e+00 
 6.90000000e-01  2.33146383e-01  2.33146383e-01  2.33146383e-01  2.33146383e-01  2.33146383e-01  2.33146383e-01  2.33146383e-01  4.29612609e-10 -5.18028287e-10  1.00000000e+00 
 7.00000000e-01  2.42692183e-01  2.42692183e-01  2.42692183e-01  2.42692183e-01  2.42692183e-01  2.42692183e-01  2.42692183e-01  5.57797517e-10 -4.07268885e-10  1.00000000e+00 
 7.10000000e-01  2.52077510e-01  2.52077510e-01  2.52077510e-01  2.52077510e-01  2.52077510e-01  2.52077510e-01  2.52077510e-01  7.20264237e-10 -3.28142846e-10  1.00000000e+00 
 7.20000000e-01  2.61285917e-01  2.61285917e-01  2.61285917e-01  2.61285917e-01  2.61285917e-01  2.61285917e-01  2.61285917e-01  9.24857198e-10 -2.73928435e-10  1.00000000e+00 
 7.30000000e-01  2.70308882e-01  2.70308882e-01  2.70308882e-01  2.70308882e-01  2.70308882e-01  2.70308882e-01  2.70308882e-01  1.18063368e-09 -2.39694486e-10  1.00000000e+00 
 7.40000000e-01  2.79140057e-01  2.79140057e-01  2.79140057e-01  2.79140057e-01  2.79140057e-01  2.79140057e-01  2.79140057e-01  1.49819965e-09 -2.22044605e-10  1.00000000e+00 
 7.50000000e-01  2.87774893e-01  2.87774893e-01  2.87774893e-01  2.87774893e-01  2.87774893e-01  2.87774893e-01  2.87774893e-01  1.88989811e-09 -2.18662422e-10  1.00000000e+00 
 7.60000000e-01  2.96215861e-01  2.96215861e-01  2.96215861e-01  2.96215861e-01  2.96215861e-01  2.96215861e-01  2.96215861e-01  2.36991789e-09 -2.27956320e-10  1.00000000e+00 
 7.70000000e-01  3.04465461e-01  3.04465461e-01  3.04465461e-01  3.04465461e-01  3.04465461e-01  3.04465461e-01  3.04465461e-01  2.95464714e-09 -2.49059440e-10  1.00000000e+00 
 7.80000000e-01  3.12530732e-01  3.12530732e-01  3.12530732e-01  3.12530732e-01  3.12530732e-01  3.12530732e-01  3.12530732e-01  3.66299505e-09 -2.81033863e-10  1.00000000e+00 
 7.90000000e-01  3.20420700e-01  3.20420701e-01  3.20420700e-01  3.20420700e-01  3.20420700e-01  3.20420701e-01  3.20420700e-01  4.51683346e-09 -3.22287974e-10  1.00000000e+00 
 8.00000000e-01  3.28147348e-01  3.28147348e-01  3.28147348e-01  3.28147348e-01  3.28147348e-01  3.28147348e-01  3.28147348e-01  5.54153984e-09 -3.66284780e-10  1.00000000e+00 
 8.10000000e-01  3.35723566e-01  3.35723566e-01  3.35723566e-01  3.35723566e-01  3.35723566e-01  3.35723566e-01  3.35723566e-01  6.76664091e-09 -3.93313826e-10  1.00000000e+00 
 8.20000000e-01  3.43163637e-01  3.43163637e-01  3.43163637e-01  3.43163637e-01  3.43163637e-01  3.43163637e-01  3.43163637e-01  8.22667384e-09 -3.82456733e-10  1.00000000e+00 
 8.30000000e-01  3.50482780e-01  3.50482780e-01  3.50482780e-01  3.50482780e-01  3.50482780e-01  3.50482780e-01  3.50482780e-01  9.96218308e-09 -3.38971518e-10  1.00000000e+00 
 8.40000000e-01  3.57696641e-01  3.57696641e-01  3.57696641e-01  3.57696641e-01  3.57696641e-01  3.57696641e-01  3.57696641e-01  1.20209382e-08 -2.81502821e-10  1.00000000e+00 
 8.50000000e-01  3.64820825e-01  3.64820825e-01  3.64820825e-01  3.64820825e-01  3.64820825e-01  3.64820825e-01  3.64820825e-01  1.44593103e-08 -2.24702035e-10  1.00000000e+00 
 8.60000000e-01  3.71870893e-01  3.71870893e-01  3.71870893e-01  3.71870893e-01  3.71870893e-01  3.71870893e-01  3.71870893e-01  1.73441683e-08 -1.75290893e-10  1.00000000e+00 
 8.70000000e-01  3.78861409e-01  3.78861409e-01  3.78861409e-01  3.78861409e-01  3.78861409e-01  3.78861409e-01  3.78861409e-01  2.07547934e-08 -1.34903644e-10  1.00000000e+00 
 8.80000000e-01  3.85806702e-01  3.85806702e-01  3.85806702e-01  3.85806702e-01  3.85806702e-01  3.85806702e-01  3.85806702e-01  2.47852483e-08 -1.02872377e-10  1.00000000e+00 
 8.90000000e-01  3.92719698e-01  3.92719698e-01  3.92719698e-01  3.92719698e-01  3.92719698e-01  3.92719698e-01  3.92719698e-01  2.95474538e-08 -7.80460141e-11  1.00000000e+00 
 9.00000000e-01  3.99612230e-01  3.99612230e-01  3.99612230e-01  3.99612230e-01  3.99612230e-01  3.99612230e-01  3.99612230e-01  3.51741281e-08 -5.90176796e-11  1.00000000e+00 
 9.10000000e-01  4.06494485e-01  4.06494485e-01  4.06494485e-01  4.06494485e-01  4.06494485e-01  4.06494485e-01  4.06494485e-01  4.18226342e-08 -4.44657644e-11  1.00000000e+00 
 9.20000000e-01  4.13374993e-01  4.13374993e-01  4.13374993e-01  4.13374993e-01  4.13374993e-01  4.13374993e-01  4.13374993e-01  4.96788677e-08 -3.34807737e-11  1.00000000e+00 
 9.30000000e-01  4.20259808e-01  4.20259808e-01  4.20259808e-01  4.20259808e-01  4.20259808e-01  4.20259808e-01  4.20259808e-01  5.89614628e-08 -2.51532128e-11  1.00000000e+00 
 9.40000000e-01  4.27152391e-01  4.27152391e-01  4.27152391e-01  4.27152391e-01  4.27152391e-01  4.27152391e-01  4.27152391e-01  6.99255249e-08 -1.88009608e-11  1.00000000e+00 
 9.50000000e-01  4.34052902e-01  4.34052902e-01  4.34052902e-01  4.34052902e-01  4.34052902e-01  4.34052902e-01  4.34052902e-01  8.28656819e-08 -1.39550593e-11  1.00000000e+00 
 9.60000000e-01  4.40957422e-01  4.40957422e-01  4.40957422e-01  4.40957422e-01  4.40957422e-01  4.40957422e-01  4.40957422e-01  9.81169679e-08 -1.01891828e-11  1.00000000e+00 
 9.70000000e-01  4.47857169e-01  4.47857169e-01  4.47857169e-01  4.47857169e-01  4.47857169e-01  4.47857169e-01  4.47857169e-01  1.16052282e-07 -7.33280103e-12  1.00000000e+00 
 9.80000000e-01  4.54737519e-01  4.54737519e-01  4.54737519e-01  4.54737519e-01  4.54737519e-01  4.54737519e-01  4.54737519e-01  1.37073315e-07 -5.07327513e-12  1.00000000e+00 
 9.90000000e-01  4.61576804e-01  4.61576804e-01  4.61576804e-01  4.61576804e-01  4.61576804e-01  4.61576804e-01  4.61576803e-01  1.61592465e-07 -3.32534000e-12  1.00000000e+00 
 1.00000000e+00  4.68345093e-01  4.68345093e-01  4.68345093e-01  4.68345093e-01  4.68345093e-01  4.68345093e-01  4.68345093e-01  1.90000124e-07 -1.84741111e-12  1.00000000e+00 
 1.01000000e+00  4.75002921e-01  4.75002921e-01  4.75002921e-01  4.75002921e-01  4.75002921e-01  4.75002921e-01  4.75002921e-01  2.22614235e-07 -6.25277607e-13  1.00000000e+00 
 1.02000000e+00  4.81500350e-01  4.81500350e-01  4.81500350e-01  4.81500350e-01  4.81500350e-01  4.81500350e-01  4.81500350e-01  2.59607305e-07  4.40536496e-13  1.00000000e+00 
 1.03000000e+00  4.87776792e-01  4.87776792e-01  4.87776792e-01  4.87776792e-01  4.87776792e-01  4.87776792e-01  4.87776792e-01  3.00914571e-07  1.49213975e-12  1.00000000e+00 
 1.04000000e+00  4.93762354e-01  4.93762354e-01  4.93762354e-01  4.93762354e-01  4.93762354e-01  4.93762354e-01  4.93762354e-01  3.46135087e-07  2.47268872e-12  1.00000000e+00 
 1.05000000e+00  4.99381249e-01  4.99381249e-01  4.99381249e-01  4.99381249e-01  4.99381249e-01  4.99381249e-01  4.99381249e-01  3.94450403e-07  3.52429197e-12  1.00000000e+00 
 1.06000000e+00  5.04556379e-01  5.04556379e-01  5.04556379e-01  5.04556379e-01  5.04556379e-01  5.04556379e-01  5.04556379e-01  4.44586011e-07  4.56168436e-12  1.00000000e+00 
 1.07000000e+00  5.09212619e-01  5.09212619e-01  5.09212619e-01  5.09212619e-01  5.09212619e-01  5.09212619e-01  5.09212619e-01  4.94817559e-07  5.64170932e-12  1.00000000e+00 
 1.08000000e+00  5.13275977e-01  5.13275977e-01  5.13275977e-01  5.13275977e-01  5.13275977e-01  5.13275977e-01  5.13275977e-01  5.42996581e-07  6.76436684e-12  1.00000000e+00 
 1.09000000e+00  5.16671130e-01  5.16671130e-01  5.16671130e-01  5.16671130e-01  5.16671130e-01  5.16671130e-01  5.16671130e-01  5.86607062e-07  7.98650035e-12  1.00000000e+00 
 1.10000000e+00  5.19328453e-01  5.19328453e-01  5.19328453e-01  5.19328453e-01  5.19328453e-01  5.19328453e-01  5.19328453e-01  6.23010187e-07  9.36495326e-12  1.00000000e+00 
