 v-sweep         v(b0)           v(b1)           v(b2)           v(b3)           v(b4)           v(b5)           v(b6)           i(vbias)        i(viout)        v(vout)        
 0.00000000e+00  6.11243134e-19  6.11243134e-19  6.11243127e-19  6.11243133e-19  6.11243127e-19  6.11243134e-19  6.11243134e-19  1.98132776e-29 -4.73849746e-03  1.00000000e+00 
 1.00000000e-02  1.99201043e-03  1.99201042e-03  1.99201043e-03  1.99201043e-03  1.99201043e-03  1.99201043e-03  1.99201043e-03  1.16525211e-14 -4.31166487e-03  1.00000000e+00 
 2.00000000e-02  3.98211850e-03  3.98211850e-03  3.98211850e-03  3.98211850e-03  3.98211850e-03  3.98211850e-03  3.98211850e-03  2.27759269e-14 -3.89900496e-03  1.00000000e+00 
 3.00000000e-02  5.96890803e-03  5.96890802e-03  5.96890803e-03  5.96890803e-03  5.96890803e-03  5.96890803e-03  5.96890803e-03  3.35155712e-14 -3.50189108e-03  1.00000000e+00 
 4.00000000e-02  7.95434850e-03  7.95434849e-03  7.95434850e-03  7.95434850e-03  7.95434850e-03  7.95434850e-03  7.95434850e-03  4.39444530e-14 -3.12180286e-03  1.00000000e+00 
 5.00000000e-02  9.94217869e-03  9.94217868e-03  9.94217869e-03  9.94217869e-03  9.94217869e-03  9.94217868e-03  9.94217869e-03  5.41470513e-14 -2.76033845e-03  1.00000000e+00 
 6.00000000e-02  1.19363086e-02  1.19363086e-02  1.19363086e-02  1.19363086e-02  1.19363086e-02  1.19363086e-02  1.19363086e-02  6.41794116e-14 -2.41913312e-03  1.00000000e+00 
 7.00000000e-02  1.39305276e-02  1.39305276e-02  1.39305276e-02  1.39305276e-02  1.39305276e-02  1.39305276e-02  1.39305276e-02  7.40671401e-14 -2.09985237e-03  1.00000000e+00 
 8.00000000e-02  1.59250617e-02  1.59250617e-02  1.59250617e-02  1.59250617e-02  1.59250617e-02  1.59250617e-02  1.59250617e-02  8.38543852e-14 -1.80408315e-03  1.00000000e+00 
 9.00000000e-02  1.79279153e-02  1.79279153e-02  1.79279153e-02  1.79279153e-02  1.79279153e-02  1.79279153e-02  1.79279153e-02  9.35653134e-14 -1.53320644e-03  1.00000000e+00 
 1.00000000e-01  1.99382694e-02  1.99382694e-02  1.99382694e-02  1.99382694e-02  1.99382694e-02  1.99382694e-02  1.99382694e-02  1.03287913e-13 -1.28836850e-03  1.00000000e+00 
 1.10000000e-01  2.19354230e-02  2.19354230e-02  2.19354230e-02  2.19354230e-02  2.19354230e-02  2.19354230e-02  2.19354230e-02  1.12928459e-13 -1.07019972e-03  1.00000000e+00 
 1.20000000e-01  2.39334048e-02  2.39334048e-02  2.39334048e-02  2.39334048e-02  2.39334048e-02  2.39334048e-02  2.39334048e-02  1.22511960e-13 -8.78819433e-04  1.00000000e+00 
 1.30000000e-01  2.59378345e-02  2.59378344e-02  2.59378344e-02  2.59378345e-02  2.59378345e-02  2.59378344e-02  2.59378344e-02  1.32129341e-13 -7.13652275e-04  1.00000000e+00 
 1.40000000e-01  2.79310819e-02  2.79310819e-02  2.79310819e-02  2.79310819e-02  2.79310819e-02  2.79310819e-02  2.79310819e-02  1.41673151e-13 -5.73469617e-04  1.00000000e+00 
 1.50000000e-01  2.98871302e-02  2.98871302e-02  2.98871302e-02  2.98871302e-02  2.98871302e-02  2.98871302e-02  2.98871302e-02  1.51200522e-13 -4.56479685e-04  1.00000000e+00 
 1.60000000e-01  3.18730360e-02  3.18730360e-02  3.18730360e-02  3.18730360e-02  3.18730360e-02  3.18730360e-02  3.18730360e-02  1.60790526e-13 -3.60372981e-04  1.00000000e+00 
 1.70000000e-01  3.38410671e-02  3.38410671e-02  3.38410671e-02  3.38410672e-02  3.38410671e-02  3.38410671e-02  3.38410671e-02  1.70344259e-13 -2.82531679e-04  1.00000000e+00 
 1.80000000e-01  3.57919159e-02  3.57919159e-02  3.57919159e-02  3.57919159e-02  3.57919159e-02  3.57919159e-02  3.57919159e-02  1.79898831e-13 -2.20285541e-04  1.00000000e+00 
 1.90000000e-01  3.76985299e-02  3.76985299e-02  3.76985299e-02  3.76985299e-02  3.76985299e-02  3.76985299e-02  3.76985299e-02  1.89457641e-13 -1.71064570e-04  1.00000000e+00 
 2.00000000e-01  3.95876196e-02  3.95876196e-02  3.95876196e-02  3.95876196e-02  3.95876196e-02  3.95876196e-02  3.95876196e-02  1.99024506e-13 -1.32456643e-04  1.00000000e+00 
 2.10000000e-01  4.14687735e-02  4.14687735e-02  4.14687735e-02  4.14687735e-02  4.14687735e-02  4.14687735e-02  4.14687735e-02  2.08557611e-13 -1.02406539e-04  1.00000000e+00 
 2.20000000e-01  4.33030332e-02  4.33030331e-02  4.33030332e-02  4.33030332e-02  4.33030332e-02  4.33030331e-02  4.33030332e-02  2.18152339e-13 -7.90882243e-05  1.00000000e+00 
 2.30000000e-01  4.50716706e-02  4.50716705e-02  4.50716706e-02  4.50716706e-02  4.50716706e-02  4.50716706e-02  4.50716706e-02  2.27722111e-13 -6.11037106e-05  1.00000000e+00 
 2.40000000e-01  4.68775028e-02  4.68775028e-02  4.68775028e-02  4.68775028e-02  4.68775028e-02  4.68775028e-02  4.68775028e-02  2.37323299e-13 -4.72333189e-05  1.00000000e+00 
 2.50000000e-01  4.86278972e-02  4.86278972e-02  4.86278972e-02  4.86278972e-02  4.86278972e-02  4.86278972e-02  4.86278972e-02  2.47082574e-13 -3.65277177e-05  1.00000000e+00 
 2.60000000e-01  5.03092638e-02  5.03092637e-02  5.03092638e-02  5.03092638e-02  5.03092638e-02  5.03092638e-02  5.03092638e-02  2.56794601e-13 -2.82951053e-05  1.00000000e+00 
 2.70000000e-01  5.20004349e-02  5.20004349e-02  5.20004349e-02  5.20004350e-02  5.20004349e-02  5.20004349e-02  5.20004349e-02  2.66656150e-13 -2.19526991e-05  1.00000000e+00 
 2.80000000e-01  5.36516979e-02  5.36516979e-02  5.36516979e-02  5.36516979e-02  5.36516979e-02  5.36516979e-02  5.36516979e-02  2.76706445e-13 -1.70587923e-05  1.00000000e+00 
 2.90000000e-01  5.52341706e-02  5.52341705e-02  5.52341706e-02  5.52341706e-02  5.52341706e-02  5.52341705e-02  5.52341705e-02  2.86738784e-13 -1.32805854e-05  1.00000000e+00 
 3.00000000e-01  5.68070690e-02  5.68070690e-02  5.68070690e-02  5.68070690e-02  5.68070690e-02  5.68070690e-02  5.68070690e-02  2.97198027e-13 -1.03423335e-05  1.00000000e+00 
 3.10000000e-01  5.83366114e-02  5.83366114e-02  5.83366114e-02  5.83366115e-02  5.83366115e-02  5.83366114e-02  5.83366114e-02  3.07844135e-13 -8.08732489e-06  1.00000000e+00 
 3.20000000e-01  5.98052028e-02  5.98052028e-02  5.98052028e-02  5.98052028e-02  5.98052028e-02  5.98052028e-02  5.98052028e-02  3.18911215e-13 -6.32008241e-06  1.00000000e+00 
 3.30000000e-01  6.13284806e-02  6.13284806e-02  6.13284806e-02  6.13284806e-02  6.13284806e-02  6.13284806e-02  6.13284806e-02  3.30653589e-13 -4.95617320e-06  1.00000000e+00 
 3.40000000e-01  6.27483193e-02  6.27483192e-02  6.27483193e-02  6.27483193e-02  6.27483193e-02  6.27483193e-02  6.27483193e-02  3.43066833e-13 -3.87606596e-06  1.00000000e+00 
 3.50000000e-01  6.41416800e-02  6.41416799e-02  6.41416799e-02  6.41416800e-02  6.41416800e-02  6.41416799e-02  6.41416799e-02  3.56692581e-13 -3.04560676e-06  1.00000000e+00 
 3.60000000e-01  6.55439828e-02  6.55439828e-02  6.55439828e-02  6.55439828e-02  6.55439828e-02  6.55439828e-02  6.55439828e-02  3.71650542e-13 -2.39273525e-06  1.00000000e+00 
 3.70000000e-01  6.69071460e-02  6.69071460e-02  6.69071460e-02  6.69071460e-02  6.69071460e-02  6.69071460e-02  6.69071460e-02  3.88503855e-13 -1.88582260e-06  1.00000000e+00 
 3.80000000e-01  6.82561500e-02  6.82561499e-02  6.82561500e-02  6.82561500e-02  6.82561500e-02  6.82561500e-02  6.82561500e-02  4.08264700e-13 -1.48701797e-06  1.00000000e+00 
 3.90000000e-01  6.95978037e-02  6.95978037e-02  6.95978037e-02  6.95978037e-02  6.95978037e-02  6.95978037e-02  6.95978037e-02  4.31695339e-13 -1.16754848e-06  1.00000000e+00 
 4.00000000e-01  7.09230085e-02  7.09230085e-02  7.09230085e-02  7.09230085e-02  7.09230085e-02  7.09230085e-02  7.09230085e-02  4.60394431e-13 -9.21249935e-07  1.00000000e+00 
 4.10000000e-01  7.22650823e-02  7.22650823e-02  7.22650823e-02  7.22650824e-02  7.22650823e-02  7.22650823e-02  7.22650823e-02  4.95448260e-13 -7.24676454e-07  1.00000000e+00 
 4.20000000e-01  7.36254056e-02  7.36254056e-02  7.36254056e-02  7.36254056e-02  7.36254056e-02  7.36254056e-02  7.36254056e-02  5.40296771e-13 -5.72336248e-07  1.00000000e+00 
 4.30000000e-01  7.50119361e-02  7.50119360e-02  7.50119361e-02  7.50119361e-02  7.50119361e-02  7.50119360e-02  7.50119361e-02  5.97430684e-13 -4.52626608e-07  1.00000000e+00 
 4.40000000e-01  7.64589042e-02  7.64589041e-02  7.64589042e-02  7.64589042e-02  7.64589042e-02  7.64589041e-02  7.64589041e-02  6.71900876e-13 -3.58440360e-07  1.00000000e+00 
 4.50000000e-01  7.79495811e-02  7.79495811e-02  7.79495811e-02  7.79495811e-02  7.79495811e-02  7.79495811e-02  7.79495811e-02  7.70093672e-13 -2.84459560e-07  1.00000000e+00 
 4.60000000e-01  7.95720832e-02  7.95720832e-02  7.95720832e-02  7.95720832e-02  7.95720832e-02  7.95720832e-02  7.95720832e-02  8.99317181e-13 -2.27416251e-07  1.00000000e+00 
 4.70000000e-01  8.13336860e-02  8.13336860e-02  8.13336860e-02  8.13336860e-02  8.13336860e-02  8.13336860e-02  8.13336860e-02  1.07253814e-12 -1.82573388e-07  1.00000000e+00 
 4.80000000e-01  8.32953259e-02  8.32953259e-02  8.32953259e-02  8.32953259e-02  8.32953259e-02  8.32953259e-02  8.32953259e-02  1.30443712e-12 -1.46566407e-07  1.00000000e+00 
 4.90000000e-01  8.55282562e-02  8.55282562e-02  8.55282562e-02  8.55282562e-02  8.55282562e-02  8.55282562e-02  8.55282562e-02  1.61642149e-12 -1.17225568e-07  1.00000000e+00 
 5.00000000e-01  8.80781245e-02  8.80781245e-02  8.80781245e-02  8.80781245e-02  8.80781245e-02  8.80781245e-02  8.80781245e-02  2.03967351e-12 -9.28705362e-08  1.00000000e+00 
 5.10000000e-01  9.10638683e-02  9.10638683e-02  9.10638683e-02  9.10638683e-02  9.10638683e-02  9.10638683e-02  9.10638683e-02  2.61251443e-12 -7.26671630e-08  1.00000000e+00 
 5.20000000e-01  9.45478268e-02  9.45478268e-02  9.45478268e-02  9.45478268e-02  9.45478268e-02  9.45478268e-02  9.45478268e-02  3.39224184e-12 -5.62377949e-08  1.00000000e+00 
 5.30000000e-01  9.86508638e-02  9.86508638e-02  9.86508638e-02  9.86508638e-02  9.86508638e-02  9.86508638e-02  9.86508638e-02  4.45067765e-12 -4.31451213e-08  1.00000000e+00 
 5.40000000e-01  1.03452349e-01  1.03452349e-01  1.03452349e-01  1.03452349e-01  1.03452349e-01  1.03452349e-01  1.03452349e-01  5.88702833e-12 -3.28946186e-08  1.00000000e+00 
 5.50000000e-01  1.08983078e-01  1.08983078e-01  1.08983078e-01  1.08983078e-01  1.08983078e-01  1.08983078e-01  1.08983078e-01  7.83619469e-12 -2.49689833e-08  1.00000000e+00 
 5.60000000e-01  1.15296384e-01  1.15296384e-01  1.15296384e-01  1.15296384e-01  1.15296384e-01  1.15296384e-01  1.15296384e-01  1.04707153e-11 -1.89069596e-08  1.00000000e+00 
 5.70000000e-01  1.22357892e-01  1.22357892e-01  1.22357892e-01  1.22357892e-01  1.22357892e-01  1.22357892e-01  1.22357892e-01  1.40251657e-11 -1.42931782e-08  1.00000000e+00 
 5.80000000e-01  1.30109436e-01  1.30109436e-01  1.30109436e-01  1.30109436e-01  1.30109436e-01  1.30109436e-01  1.30109436e-01  1.88185477e-11 -1.07938831e-08  1.00000000e+00 
 5.90000000e-01  1.38466722e-01  1.38466722e-01  1.38466722e-01  1.38466722e-01  1.38466722e-01  1.38466722e-01  1.38466722e-01  2.52492933e-11 -8.14648615e-09  1.00000000e+00 
 6.00000000e-01  1.47314775e-01  1.47314775e-01  1.47314775e-01  1.47314775e-01  1.47314775e-01  1.47314775e-01  1.47314775e-01  3.38542692e-11 -6.14620888e-09  1.00000000e+00 
 6.10000000e-01  1.56574196e-01  1.56574196e-01  1.56574196e-01  1.56574196e-01  1.56574196e-01  1.56574196e-01  1.56574196e-01  4.53669086e-11 -4.63593608e-09  1.00000000e+00 
 6.20000000e-01  1.66140733e-01  1.66140733e-01  1.66140733e-01  1.66140733e-01  1.66140733e-01  1.66140733e-01  1.66140733e-01  6.06888068e-11 -3.49652396e-09  1.00000000e+00 
 6.30000000e-01  1.75903676e-01  1.75903676e-01  1.75903676e-01  1.75903676e-01  1.75903676e-01  1.75903676e-01  1.75903676e-01  8.10339933e-11 -2.63763411e-09  1.00000000e+00 
 6.40000000e-01  1.85801581e-01  1.85801581e-01  1.85801581e-01  1.85801581e-01  1.85801581e-01  1.85801581e-01  1.85801581e-01  1.07897568e-10 -1.99028705e-09  1.00000000e+00 
 6.50000000e-01  1.95747497e-01  1.95747497e-01  1.95747497e-01  1.95747497e-01  1.95747497e-01  1.95747497e-01  1.95747497e-01  1.43234109e-10 -1.50282631e-09  1.00000000e+00 
 6.60000000e-01  2.05697501e-01  2.05697501e-01  2.05697501e-01  2.05697501e-01  2.05697501e-01  2.05697501e-01  2.05697501e-01  1.89451099e-10 -1.13604415e-09  1.00000000e+00 
 6.70000000e-01  2.15598486e-01  2.15598486e-01  2.15598486e-01  2.15598486e-01  2.15598486e-01  2.15598486e-01  2.15598486e-01  2.49561920e-10 -8.60453042e-10  1.00000000e+00 
 6.80000000e-01  2.25411696e-01  2.25411696e-01  2.25411696e-01  2.25411696e-01  2.25411696e-01  2.25411696e-01  2.25411696e-01  3.27310607e-10 -6.53656684e-10  1.00000000e+00 
 6.90000000e-01  2.35111022e-01  2.35111022e-01  2.35111022e-01  2.35111022e-01  2.35111022e-01  2.35111022e-01  2.35111022e-01  4.27241104e-10 -4.99198904e-10  1.00000000e+00 
 7.00000000e-01  2.44666026e-01  2.44666026e-01  2.44666026e-01  2.44666026e-01  2.44666026e-01  2.44666026e-01  2.44666026e-01  5.54805677e-10 -3.84360987e-10  1.00000000e+00 
 7.10000000e-01  2.54060421e-01  2.54060421e-01  2.54060421e-01  2.54060421e-01  2.54060421e-01  2.54060421e-01  2.54060421e-01  7.16507291e-10 -2.99749559e-10  1.00000000e+00 
 7.20000000e-01  2.63278510e-01  2.63278510e-01  2.63278510e-01  2.63278510e-01  2.63278510e-01  2.63278510e-01  2.63278510e-01  9.20181813e-10 -2.38415510e-10  1.00000000e+00 
 7.30000000e-01  2.72311217e-01  2.72311217e-01  2.72311217e-01  2.72311217e-01  2.72311217e-01  2.72311217e-01  2.72311217e-01  1.17481749e-09 -1.95171879e-10  1.00000000e+00 
 7.40000000e-01  2.81150574e-01  2.81150574e-01  2.81150574e-01  2.81150574e-01  2.81150574e-01  2.81150574e-01  2.81150574e-01  1.49101999e-09 -1.66309633e-10  1.00000000e+00 
 7.50000000e-01  2.89794534e-01  2.89794534e-01  2.89794534e-01  2.89794534e-01  2.89794534e-01  2.89794534e-01  2.89794534e-01  1.88111689e-09 -1.48958179e-10  1.00000000e+00 
 7.60000000e-01  2.98243306e-01  2.98243306e-01  2.98243306e-01  2.98243306e-01  2.98243306e-01  2.98243306e-01  2.98243306e-01  2.35919377e-09 -1.41099576e-10  1.00000000e+00 
 7.70000000e-01  3.06500416e-01  3.06500416e-01  3.06500416e-01  3.06500416e-01  3.06500416e-01  3.06500416e-01  3.06500416e-01  2.94161093e-09 -1.41696432e-10  1.00000000e+00 
 7.80000000e-01  3.14573170e-01  3.14573170e-01  3.14573170e-01  3.14573170e-01  3.14573170e-01  3.14573170e-01  3.14573170e-01  3.64724934e-09 -1.49483981e-10  1.00000000e+00 
 7.90000000e-01  3.22470457e-01  3.22470457e-01  3.22470457e-01  3.22470457e-01  3.22470457e-01  3.22470457e-01  3.22470457e-01  4.49789708e-09 -1.63609570e-10  1.00000000e+00 
 8.00000000e-01  3.30204139e-01  3.30204139e-01  3.30204139e-01  3.30204139e-01  3.30204139e-01  3.30204139e-01  3.30204139e-01  5.51893745e-09 -1.81600512e-10  1.00000000e+00 
 8.10000000e-01  3.37787015e-01  3.37787015e-01  3.37787015e-01  3.37787015e-01  3.37787015e-01  3.37787015e-01  3.37787015e-01  6.73978051e-09 -1.96237693e-10  1.00000000e+00 
 8.20000000e-01  3.45233847e-01  3.45233847e-01  3.45233847e-01  3.45233847e-01  3.45233847e-01  3.45233847e-01  3.45233847e-01  8.19498253e-09 -1.95882421e-10  1.00000000e+00 
 8.30000000e-01  3.52559870e-01  3.52559870e-01  3.52559870e-01  3.52559870e-01  3.52559870e-01  3.52559870e-01  3.52559870e-01  9.92502042e-09 -1.78928872e-10  1.00000000e+00 
 8.40000000e-01  3.59780592e-01  3.59780592e-01  3.59780592e-01  3.59780592e-01  3.59780592e-01  3.59780592e-01  3.59780592e-01  1.19776303e-08 -1.52184043e-10  1.00000000e+00 
 8.50000000e-01  3.66911844e-01  3.66911844e-01  3.66911844e-01  3.66911845e-01  3.66911844e-01  3.66911844e-01  3.66911844e-01  1.44092109e-08 -1.23350219e-10  1.00000000e+00 
 8.60000000e-01  3.73969171e-01  3.73969171e-01  3.73969171e-01  3.73969171e-01  3.73969171e-01  3.73969171e-01  3.73969171e-01  1.72866594e-08 -9.70459269e-11  1.00000000e+00 
 8.70000000e-01  3.80967661e-01  3.80967661e-01  3.80967661e-01  3.80967661e-01  3.80967661e-01  3.80967661e-01  3.80967661e-01  2.06893574e-08 -7.49622586e-11  1.00000000e+00 
 8.80000000e-01  3.87921451e-01  3.87921451e-01  3.87921451e-01  3.87921451e-01  3.87921451e-01  3.87921451e-01  3.87921451e-01  2.47116583e-08 -5.72555336e-11  1.00000000e+00 
 8.90000000e-01  3.94843773e-01  3.94843773e-01  3.94843773e-01  3.94843773e-01  3.94843773e-01  3.94843773e-01  3.94843773e-01  2.94658102e-08 -4.34283720e-11  1.00000000e+00 
 9.00000000e-01  4.01746738e-01  4.01746738e-01  4.01746738e-01  4.01746738e-01  4.01746738e-01  4.01746738e-01  4.01746738e-01  3.50852056e-08 -3.27844418e-11  1.00000000e+00 
 9.10000000e-01  4.08640838e-01  4.08640838e-01  4.08640838e-01  4.08640838e-01  4.08640838e-01  4.08640838e-01  4.08640838e-01  4.17281716e-08 -2.46842546e-11  1.00000000e+00 
 9.20000000e-01  4.15534882e-01  4.15534882e-01  4.15534882e-01  4.15534882e-01  4.15534882e-01  4.15534882e-01  4.15534882e-01  4.95823178e-08 -1.85167437e-11  1.00000000e+00 
 9.30000000e-01  4.22435517e-01  4.22435517e-01  4.22435517e-01  4.22435517e-01  4.22435517e-01  4.22435517e-01  4.22435517e-01  5.88686011e-08 -1.38982159e-11  1.00000000e+00 
 9.40000000e-01  4.29346735e-01  4.29346735e-01  4.29346735e-01  4.29346735e-01  4.29346735e-01  4.29346735e-01  4.29346735e-01  6.98458336e-08 -1.03597131e-11  1.00000000e+00 
 9.50000000e-01  4.36269412e-01  4.36269412e-01  4.36269412e-01  4.36269412e-01  4.36269412e-01  4.36269412e-01  4.36269412e-01  8.28142261e-08 -7.70228326e-12  1.00000000e+00 
 9.60000000e-01  4.43200548e-01  4.43200548e-01  4.43200548e-01  4.43200548e-01  4.43200548e-01  4.43200548e-01  4.43200548e-01  9.81172290e-08 -5.62749847e-12  1.00000000e+00 
 9.70000000e-01  4.50132519e-01  4.50132519e-01  4.50132519e-01  4.50132519e-01  4.50132519e-01  4.50132519e-01  4.50132519e-01  1.16139836e-07 -4.02167188e-12  1.00000000e+00 
 9.80000000e-01  4.57052056e-01  4.57052056e-01  4.57052056e-01  4.57052056e-01  4.57052056e-01  4.57052056e-01  4.57052056e-01  1.37301813e-07 -2.79953838e-12  1.00000000e+00 
 9.90000000e-01  4.63939158e-01  4.63939158e-01  4.63939158e-01  4.63939158e-01  4.63939158e-01  4.63939158e-01  4.63939158e-01  1.62041153e-07 -1.81898940e-12  1.00000000e+00 
 1.00000000e+00  4.70765821e-01  4.70765821e-01  4.70765821e-01  4.70765821e-01  4.70765821e-01  4.70765821e-01  4.70765821e-01  1.90784499e-07 -1.02318154e-12  1.00000000e+00 
 1.01000000e+00  4.77494848e-01  4.77494848e-01  4.77494848e-01  4.77494848e-01  4.77494848e-01  4.77494848e-01  4.77494848e-01  2.23898773e-07 -3.26849658e-13  1.00000000e+00 
 1.02000000e+00  4.84078647e-01  4.84078647e-01  4.84078647e-01  4.84078647e-01  4.84078647e-01  4.84078647e-01  4.84078647e-01  2.61620663e-07  2.41584530e-13  1.00000000e+00 
 1.03000000e+00  4.90458953e-01  4.90458953e-01  4.90458953e-01  4.90458953e-01  4.90458953e-01  4.90458953e-01  4.90458953e-01  3.03964189e-07  8.10018719e-13  1.00000000e+00 
 1.04000000e+00  4.96568040e-01  4.96568040e-01  4.96568040e-01  4.96568040e-01  4.96568040e-01  4.96568040e-01  4.96568040e-01  3.50618924e-07  1.37845291e-12  1.00000000e+00 
 1.05000000e+00  5.02332264e-01  5.02332264e-01  5.02332264e-01  5.02332264e-01  5.02332264e-01  5.02332264e-01  5.02332264e-01  4.00864568e-07  1.93267624e-12  1.00000000e+00 
 1.06000000e+00  5.07677584e-01  5.07677584e-01  5.07677584e-01  5.07677584e-01  5.07677584e-01  5.07677584e-01  5.07677584e-01  4.53533389e-07  2.47268872e-12  1.00000000e+00 
 1.07000000e+00  5.12534143e-01  5.12534143e-01  5.12534143e-01  5.12534143e-01  5.12534143e-01  5.12534143e-01  5.12534143e-01  5.07025643e-07  3.06954462e-12  1.00000000e+00 
 1.08000000e+00  5.16835814e-01  5.16835814e-01  5.16835814e-01  5.16835814e-01  5.16835814e-01  5.16835814e-01  5.16835814e-01  5.59335952e-07  3.62376795e-12  1.00000000e+00 
 1.09000000e+00  5.20514051e-01  5.20514051e-01  5.20514051e-01  5.20514051e-01  5.20514051e-01  5.20514051e-01  5.20514051e-01  6.08050737e-07  4.29167812e-12  1.00000000e+00 
 1.10000000e+00  5.23494139e-01  5.23494139e-01  5.23494139e-01  5.23494139e-01  5.23494139e-01  5.23494139e-01  5.23494139e-01  6.50402363e-07  5.01643171e-12  1.00000000e+00 
