 v-sweep         v(b0)           v(b1)           v(b2)           v(b3)           v(b4)           v(b5)           v(b6)           i(vbias)        i(viout)        v(vout)        
 0.00000000e+00 -5.91715313e-19 -5.91715299e-19 -5.91715324e-19 -5.91715344e-19 -5.91715362e-19 -5.91715328e-19 -6.99468569e-19  5.33288556e-31 -4.73873816e-03  1.00000000e+00 
 1.00000000e-02  1.99135370e-03  1.99135370e-03  1.99135370e-03  1.99135370e-03  1.99135370e-03  1.99135370e-03  1.89368260e-03  1.16447101e-14 -4.31187894e-03  1.00000000e+00 
 2.00000000e-02  3.95602950e-03  3.95602951e-03  3.95602951e-03  3.95602951e-03  3.95602950e-03  3.95602951e-03  3.34316497e-03  2.27710417e-14 -3.89920013e-03  1.00000000e+00 
 3.00000000e-02  5.89519544e-03  5.89519545e-03  5.89519545e-03  5.89519545e-03  5.89519544e-03  5.89519545e-03  4.32347305e-03  3.34905710e-14 -3.50207353e-03  1.00000000e+00 
 4.00000000e-02  7.82042352e-03  7.82042353e-03  7.82042352e-03  7.82042353e-03  7.82042352e-03  7.82042353e-03  4.86074818e-03  4.39267068e-14 -3.12199320e-03  1.00000000e+00 
 5.00000000e-02  9.73076109e-03  9.73076110e-03  9.73076109e-03  9.73076110e-03  9.73076109e-03  9.73076110e-03  5.01243217e-03  5.41189535e-14 -2.76048693e-03  1.00000000e+00 
 6.00000000e-02  1.16261587e-02  1.16261587e-02  1.16261587e-02  1.16261587e-02  1.16261587e-02  1.16261587e-02  4.87475161e-03  6.41189893e-14 -2.41933880e-03  1.00000000e+00 
 7.00000000e-02  1.35186795e-02  1.35186795e-02  1.35186795e-02  1.35186795e-02  1.35186795e-02  1.35186795e-02  4.53368702e-03  7.40183146e-14 -2.10007673e-03  1.00000000e+00 
 8.00000000e-02  1.54048042e-02  1.54048042e-02  1.54048042e-02  1.54048042e-02  1.54048042e-02  1.54048042e-02  4.07740558e-03  8.37989498e-14 -1.80432761e-03  1.00000000e+00 
 9.00000000e-02  1.73005873e-02  1.73005874e-02  1.73005874e-02  1.73005874e-02  1.73005873e-02  1.73005874e-02  3.57222083e-03  9.35511993e-14 -1.53348623e-03  1.00000000e+00 
 1.00000000e-01  1.91850735e-02  1.91850735e-02  1.91850735e-02  1.91850735e-02  1.91850735e-02  1.91850735e-02  3.06619867e-03  1.03231783e-13 -1.28867445e-03  1.00000000e+00 
 1.10000000e-01  2.10691679e-02  2.10691679e-02  2.10691679e-02  2.10691679e-02  2.10691679e-02  2.10691679e-02  2.58977190e-03  1.12841409e-13 -1.07054296e-03  1.00000000e+00 
 1.20000000e-01  2.29440775e-02  2.29440775e-02  2.29440775e-02  2.29440775e-02  2.29440775e-02  2.29440775e-02  2.15960101e-03  1.22445155e-13 -8.79192408e-04  1.00000000e+00 
 1.30000000e-01  2.48291634e-02  2.48291634e-02  2.48291634e-02  2.48291634e-02  2.48291634e-02  2.48291634e-02  1.78275280e-03  1.32031322e-13 -7.14060412e-04  1.00000000e+00 
 1.40000000e-01  2.67138239e-02  2.67138240e-02  2.67138240e-02  2.67138240e-02  2.67138239e-02  2.67138240e-02  1.45963790e-03  1.41566542e-13 -5.73931485e-04  1.00000000e+00 
 1.50000000e-01  2.86007206e-02  2.86007207e-02  2.86007206e-02  2.86007207e-02  2.86007206e-02  2.86007207e-02  1.18713467e-03  1.51160626e-13 -4.56985085e-04  1.00000000e+00 
 1.60000000e-01  3.04735958e-02  3.04735958e-02  3.04735958e-02  3.04735958e-02  3.04735958e-02  3.04735958e-02  9.60150464e-04  1.60707663e-13 -3.60899671e-04  1.00000000e+00 
 1.70000000e-01  3.23361062e-02  3.23361062e-02  3.23361062e-02  3.23361062e-02  3.23361062e-02  3.23361062e-02  7.72999721e-04  1.70212695e-13 -2.83091491e-04  1.00000000e+00 
 1.80000000e-01  3.41815938e-02  3.41815939e-02  3.41815939e-02  3.41815939e-02  3.41815938e-02  3.41815939e-02  6.19920106e-04  1.79804808e-13 -2.20889382e-04  1.00000000e+00 
 1.90000000e-01  3.60159657e-02  3.60159657e-02  3.60159657e-02  3.60159657e-02  3.60159657e-02  3.60159657e-02  4.95574940e-04  1.89316792e-13 -1.71702428e-04  1.00000000e+00 
 2.00000000e-01  3.78190559e-02  3.78190559e-02  3.78190559e-02  3.78190559e-02  3.78190559e-02  3.78190559e-02  3.95048263e-04  1.98922073e-13 -1.33120255e-04  1.00000000e+00 
 2.10000000e-01  3.96117376e-02  3.96117376e-02  3.96117376e-02  3.96117376e-02  3.96117375e-02  3.96117376e-02  3.14165882e-04  2.08450666e-13 -1.03096879e-04  1.00000000e+00 
 2.20000000e-01  4.13750941e-02  4.13750941e-02  4.13750941e-02  4.13750941e-02  4.13750941e-02  4.13750941e-02  2.49336966e-04  2.17939555e-13 -7.98264391e-05  1.00000000e+00 
 2.30000000e-01  4.30998642e-02  4.30998642e-02  4.30998642e-02  4.30998642e-02  4.30998641e-02  4.30998642e-02  1.97525423e-04  2.27551495e-13 -6.18543855e-05  1.00000000e+00 
 2.40000000e-01  4.48214916e-02  4.48214917e-02  4.48214916e-02  4.48214917e-02  4.48214916e-02  4.48214917e-02  1.56243511e-04  2.37253761e-13 -4.79813825e-05  1.00000000e+00 
 2.50000000e-01  4.64985633e-02  4.64985633e-02  4.64985633e-02  4.64985633e-02  4.64985633e-02  4.64985633e-02  1.23419584e-04  2.46960128e-13 -3.72789256e-05  1.00000000e+00 
 2.60000000e-01  4.81773589e-02  4.81773589e-02  4.81773589e-02  4.81773589e-02  4.81773589e-02  4.81773589e-02  9.73824508e-05  2.56668029e-13 -2.90270198e-05  1.00000000e+00 
 2.70000000e-01  4.97791491e-02  4.97791492e-02  4.97791491e-02  4.97791492e-02  4.97791491e-02  4.97791492e-02  7.67579273e-05  2.66570349e-13 -2.26406543e-05  1.00000000e+00 
 2.80000000e-01  5.13815518e-02  5.13815518e-02  5.13815518e-02  5.13815518e-02  5.13815518e-02  5.13815518e-02  6.04515199e-05  2.76435377e-13 -1.77152099e-05  1.00000000e+00 
 2.90000000e-01  5.29187807e-02  5.29187807e-02  5.29187807e-02  5.29187807e-02  5.29187807e-02  5.29187807e-02  4.75738746e-05  2.86587418e-13 -1.38869141e-05  1.00000000e+00 
 3.00000000e-01  5.44462929e-02  5.44462930e-02  5.44462930e-02  5.44462930e-02  5.44462929e-02  5.44462930e-02  3.74189855e-05  2.97042256e-13 -1.09149899e-05  1.00000000e+00 
 3.10000000e-01  5.59265930e-02  5.59265930e-02  5.59265930e-02  5.59265930e-02  5.59265930e-02  5.59265930e-02  2.94182076e-05  3.07601777e-13 -8.59204185e-06  1.00000000e+00 
 3.20000000e-01  5.74302559e-02  5.74302559e-02  5.74302559e-02  5.74302559e-02  5.74302559e-02  5.74302559e-02  2.31216908e-05  3.18754739e-13 -6.78477235e-06  1.00000000e+00 
 3.30000000e-01  5.88485747e-02  5.88485747e-02  5.88485747e-02  5.88485747e-02  5.88485747e-02  5.88485747e-02  1.81689360e-05  3.30432150e-13 -5.36111160e-06  1.00000000e+00 
 3.40000000e-01  6.02378288e-02  6.02378289e-02  6.02378288e-02  6.02378289e-02  6.02378288e-02  6.02378289e-02  1.42764576e-05  3.42813663e-13 -4.23952672e-06  1.00000000e+00 
 3.50000000e-01  6.16486779e-02  6.16486779e-02  6.16486779e-02  6.16486779e-02  6.16486778e-02  6.16486779e-02  1.12192388e-05  3.56251968e-13 -3.36137130e-06  1.00000000e+00 
 3.60000000e-01  6.29974265e-02  6.29974266e-02  6.29974265e-02  6.29974266e-02  6.29974265e-02  6.29974266e-02  8.81868608e-06  3.71383083e-13 -2.66523220e-06  1.00000000e+00 
 3.70000000e-01  6.43286338e-02  6.43286339e-02  6.43286338e-02  6.43286339e-02  6.43286338e-02  6.43286339e-02  6.93457731e-06  3.88371742e-13 -2.11510608e-06  1.00000000e+00 
 3.80000000e-01  6.56645138e-02  6.56645138e-02  6.56645138e-02  6.56645138e-02  6.56645138e-02  6.56645138e-02  5.45614581e-06  4.08018193e-13 -1.67718271e-06  1.00000000e+00 
 3.90000000e-01  6.70290784e-02  6.70290785e-02  6.70290784e-02  6.70290785e-02  6.70290784e-02  6.70290784e-02  4.29617399e-06  4.31521890e-13 -1.32829847e-06  1.00000000e+00 
 4.00000000e-01  6.83142971e-02  6.83142972e-02  6.83142972e-02  6.83142972e-02  6.83142971e-02  6.83142972e-02  3.38589735e-06  4.59967476e-13 -1.05306641e-06  1.00000000e+00 
 4.10000000e-01  6.96553684e-02  6.96553684e-02  6.96553684e-02  6.96553684e-02  6.96553683e-02  6.96553684e-02  2.67158957e-06  4.95166367e-13 -8.35602862e-07  1.00000000e+00 
 4.20000000e-01  7.10081209e-02  7.10081209e-02  7.10081209e-02  7.10081209e-02  7.10081209e-02  7.10081209e-02  2.11085220e-06  5.39566848e-13 -6.61485927e-07  1.00000000e+00 
 4.30000000e-01  7.24204924e-02  7.24204925e-02  7.24204925e-02  7.24204925e-02  7.24204924e-02  7.24204925e-02  1.67049117e-06  5.97018545e-13 -5.24348522e-07  1.00000000e+00 
 4.40000000e-01  7.38617800e-02  7.38617801e-02  7.38617801e-02  7.38617801e-02  7.38617800e-02  7.38617801e-02  1.32444057e-06  6.71344155e-13 -4.16406223e-07  1.00000000e+00 
 4.50000000e-01  7.54112035e-02  7.54112036e-02  7.54112035e-02  7.54112036e-02  7.54112035e-02  7.54112036e-02  1.05231239e-06  7.68923330e-13 -3.30915810e-07  1.00000000e+00 
 4.60000000e-01  7.70795763e-02  7.70795763e-02  7.70795763e-02  7.70795763e-02  7.70795763e-02  7.70795763e-02  8.38109598e-07  8.98124558e-13 -2.63361613e-07  1.00000000e+00 
 4.70000000e-01  7.89191649e-02  7.89191650e-02  7.89191649e-02  7.89191650e-02  7.89191649e-02  7.89191650e-02  6.69314167e-07  1.07075464e-12 -2.10043851e-07  1.00000000e+00 
 4.80000000e-01  8.09484632e-02  8.09484633e-02  8.09484632e-02  8.09484633e-02  8.09484632e-02  8.09484633e-02  5.36121180e-07  1.30265995e-12 -1.66943607e-07  1.00000000e+00 
 4.90000000e-01  8.32928810e-02  8.32928810e-02  8.32928810e-02  8.32928810e-02  8.32928810e-02  8.32928810e-02  4.30865934e-07  1.61555581e-12 -1.31143850e-07  1.00000000e+00 
 5.00000000e-01  8.60042274e-02  8.60042274e-02  8.60042274e-02  8.60042274e-02  8.60042274e-02  8.60042274e-02  3.47540956e-07  2.03832448e-12 -1.01160268e-07  1.00000000e+00 
 5.10000000e-01  8.91711095e-02  8.91711095e-02  8.91711095e-02  8.91711095e-02  8.91711095e-02  8.91711095e-02  2.81447191e-07  2.61304391e-12 -7.71550219e-08  1.00000000e+00 
 5.20000000e-01  9.29237879e-02  9.29237880e-02  9.29237880e-02  9.29237880e-02  9.29237879e-02  9.29237880e-02  2.28907404e-07  3.39482826e-12 -5.85702082e-08  1.00000000e+00 
 5.30000000e-01  9.72855316e-02  9.72855317e-02  9.72855316e-02  9.72855317e-02  9.72855316e-02  9.72855317e-02  1.87039455e-07  4.45606876e-12 -4.43539108e-08  1.00000000e+00 
 5.40000000e-01  1.02416917e-01  1.02416917e-01  1.02416917e-01  1.02416917e-01  1.02416917e-01  1.02416917e-01  1.53589735e-07  5.90044837e-12 -3.35445804e-08  1.00000000e+00 
 5.50000000e-01  1.08293085e-01  1.08293085e-01  1.08293085e-01  1.08293085e-01  1.08293085e-01  1.08293085e-01  1.26788837e-07  7.85961823e-12 -2.53444910e-08  1.00000000e+00 
 5.60000000e-01  1.14936572e-01  1.14936573e-01  1.14936573e-01  1.14936573e-01  1.14936572e-01  1.14936573e-01  1.05250905e-07  1.05110444e-11 -1.91360243e-08  1.00000000e+00 
 5.70000000e-01  1.22331634e-01  1.22331634e-01  1.22331634e-01  1.22331634e-01  1.22331634e-01  1.22331634e-01  8.78876096e-08  1.40926863e-11 -1.44414969e-08  1.00000000e+00 
 5.80000000e-01  1.30361392e-01  1.30361392e-01  1.30361392e-01  1.30361392e-01  1.30361392e-01  1.30361392e-01  7.38429251e-08  1.89152459e-11 -1.08951355e-08  1.00000000e+00 
 5.90000000e-01  1.38971733e-01  1.38971733e-01  1.38971733e-01  1.38971733e-01  1.38971733e-01  1.38971733e-01  6.24431700e-08  2.53867036e-11 -8.21812307e-09  1.00000000e+00 
 6.00000000e-01  1.48052916e-01  1.48052916e-01  1.48052916e-01  1.48052916e-01  1.48052916e-01  1.48052916e-01  5.31564807e-08  3.40508325e-11 -6.19859009e-09  1.00000000e+00 
 6.10000000e-01  1.57472117e-01  1.57472117e-01  1.57472117e-01  1.57472117e-01  1.57472117e-01  1.57472117e-01  4.55622403e-08  4.56440020e-11 -4.67605332e-09  1.00000000e+00 
 6.20000000e-01  1.67159644e-01  1.67159644e-01  1.67159644e-01  1.67159644e-01  1.67159644e-01  1.67159644e-01  3.93272315e-08  6.10745673e-11 -3.52885365e-09  1.00000000e+00 
 6.30000000e-01  1.77017586e-01  1.77017586e-01  1.77017586e-01  1.77017586e-01  1.77017586e-01  1.77017586e-01  3.41867175e-08  8.15511617e-11 -2.66528843e-09  1.00000000e+00 
 6.40000000e-01  1.86973927e-01  1.86973927e-01  1.86973927e-01  1.86973927e-01  1.86973927e-01  1.86973927e-01  2.99300196e-08  1.08597119e-10 -2.01579553e-09  1.00000000e+00 
 6.50000000e-01  1.96962625e-01  1.96962625e-01  1.96962625e-01  1.96962625e-01  1.96962625e-01  1.96962625e-01  2.63891087e-08  1.44158674e-10 -1.52823532e-09  1.00000000e+00 
 6.60000000e-01  2.06934695e-01  2.06934695e-01  2.06934695e-01  2.06934695e-01  2.06934695e-01  2.06934695e-01  2.34297131e-08  1.90679281e-10 -1.16342846e-09  1.00000000e+00 
 6.70000000e-01  2.16845218e-01  2.16845218e-01  2.16845218e-01  2.16845218e-01  2.16845218e-01  2.16845218e-01  2.09443069e-08  2.51171200e-10 -8.91802188e-10  1.00000000e+00 
 6.80000000e-01  2.26656099e-01  2.26656100e-01  2.26656099e-01  2.26656100e-01  2.26656099e-01  2.26656100e-01  1.88466015e-08  3.29375884e-10 -6.91315449e-10  1.00000000e+00 
 6.90000000e-01  2.36344673e-01  2.36344673e-01  2.36344673e-01  2.36344673e-01  2.36344673e-01  2.36344673e-01  1.70671959e-08  4.29879927e-10 -5.45540502e-10  1.00000000e+00 
 7.00000000e-01  2.45887251e-01  2.45887251e-01  2.45887251e-01  2.45887251e-01  2.45887251e-01  2.45887251e-01  1.55501253e-08  5.58161913e-10 -4.42398118e-10  1.00000000e+00 
 7.10000000e-01  2.55264313e-01  2.55264313e-01  2.55264313e-01  2.55264313e-01  2.55264313e-01  2.55264313e-01  1.42501391e-08  7.20777125e-10 -3.73091780e-10  1.00000000e+00 
 7.20000000e-01  2.64462548e-01  2.64462548e-01  2.64462548e-01  2.64462548e-01  2.64462548e-01  2.64462548e-01  1.31305432e-08  9.25521215e-10 -3.31283445e-10  1.00000000e+00 
 7.30000000e-01  2.73473601e-01  2.73473601e-01  2.73473601e-01  2.73473601e-01  2.73473601e-01  2.73473601e-01  1.21614865e-08  1.18149228e-09 -3.12525117e-10  1.00000000e+00 
 7.40000000e-01  2.82291548e-01  2.82291548e-01  2.82291548e-01  2.82291548e-01  2.82291548e-01  2.82291548e-01  1.13186025e-08  1.49931274e-09 -3.14045678e-10  1.00000000e+00 
 7.50000000e-01  2.90913496e-01  2.90913496e-01  2.90913496e-01  2.90913496e-01  2.90913496e-01  2.90913496e-01  1.05819314e-08  1.89127827e-09 -3.34111405e-10  1.00000000e+00 
 7.60000000e-01  2.99340444e-01  2.99340444e-01  2.99340444e-01  2.99340444e-01  2.99340444e-01  2.99340444e-01  9.93506268e-09  2.37165126e-09 -3.71926490e-10  1.00000000e+00 
 7.70000000e-01  3.07576751e-01  3.07576751e-01  3.07576751e-01  3.07576751e-01  3.07576751e-01  3.07576751e-01  9.36445338e-09  2.95679906e-09 -4.27050395e-10  1.00000000e+00 
 7.80000000e-01  3.15629364e-01  3.15629365e-01  3.15629364e-01  3.15629365e-01  3.15629364e-01  3.15629365e-01  8.85888336e-09  3.66568353e-09 -4.98943109e-10  1.00000000e+00 
 7.90000000e-01  3.23508083e-01  3.23508083e-01  3.23508083e-01  3.23508083e-01  3.23508083e-01  3.23508083e-01  8.40902086e-09  4.52018609e-09 -5.83398219e-10  1.00000000e+00 
 8.00000000e-01  3.31224125e-01  3.31224125e-01  3.31224125e-01  3.31224125e-01  3.31224125e-01  3.31224125e-01  8.00707420e-09  5.54576404e-09 -6.62453203e-10  1.00000000e+00 
 8.10000000e-01  3.38791096e-01  3.38791096e-01  3.38791096e-01  3.38791096e-01  3.38791096e-01  3.38791096e-01  7.64651227e-09  6.77199463e-09 -6.92949698e-10  1.00000000e+00 
 8.20000000e-01  3.46223354e-01  3.46223354e-01  3.46223354e-01  3.46223354e-01  3.46223354e-01  3.46223354e-01  7.32183920e-09  8.23354868e-09 -6.52335075e-10  1.00000000e+00 
 8.30000000e-01  3.53536121e-01  3.53536121e-01  3.53536121e-01  3.53536121e-01  3.53536121e-01  3.53536121e-01  7.02841251e-09  9.97109140e-09 -5.63019853e-10  1.00000000e+00 
 8.40000000e-01  3.60745377e-01  3.60745377e-01  3.60745377e-01  3.60745377e-01  3.60745377e-01  3.60745377e-01  6.76229570e-09  1.20325858e-08 -4.62961225e-10  1.00000000e+00 
 8.50000000e-01  3.67866553e-01  3.67866553e-01  3.67866553e-01  3.67866553e-01  3.67866553e-01  3.67866553e-01  6.52013844e-09  1.44746878e-08 -3.68302722e-10  1.00000000e+00 
 8.60000000e-01  3.74915085e-01  3.74915085e-01  3.74915085e-01  3.74915085e-01  3.74915085e-01  3.74915085e-01  6.29907875e-09  1.73645799e-08 -2.87386115e-10  1.00000000e+00 
 8.70000000e-01  3.81906025e-01  3.81906026e-01  3.81906026e-01  3.81906026e-01  3.81906025e-01  3.81906026e-01  6.09666310e-09  2.07820173e-08 -2.21646701e-10  1.00000000e+00 
 8.80000000e-01  3.88853430e-01  3.88853430e-01  3.88853430e-01  3.88853430e-01  3.88853430e-01  3.88853430e-01  5.91078072e-09  2.48217977e-08 -1.69748660e-10  1.00000000e+00 
 8.90000000e-01  3.95770546e-01  3.95770546e-01  3.95770546e-01  3.95770546e-01  3.95770546e-01  3.95770546e-01  5.73960931e-09  2.95965972e-08 -1.29332989e-10  1.00000000e+00 
 9.00000000e-01  4.02669162e-01  4.02669162e-01  4.02669162e-01  4.02669162e-01  4.02669162e-01  4.02669162e-01  5.58157044e-09  3.52404994e-08 -9.82254278e-11  1.00000000e+00 
 9.10000000e-01  4.09559784e-01  4.09559785e-01  4.09559785e-01  4.09559785e-01  4.09559784e-01  4.09559785e-01  5.43529239e-09  4.19124602e-08 -7.44222461e-11  1.00000000e+00 
 9.20000000e-01  4.16450976e-01  4.16450976e-01  4.16450976e-01  4.16450976e-01  4.16450976e-01  4.16450976e-01  5.29957916e-09  4.98007648e-08 -5.63318281e-11  1.00000000e+00 
 9.30000000e-01  4.23349166e-01  4.23349166e-01  4.23349166e-01  4.23349166e-01  4.23349166e-01  4.23349166e-01  5.17338470e-09  5.91272675e-08 -4.24762447e-11  1.00000000e+00 
 9.40000000e-01  4.30258114e-01  4.30258114e-01  4.30258114e-01  4.30258114e-01  4.30258114e-01  4.30258114e-01  5.05579138e-09  7.01516183e-08 -3.19317905e-11  1.00000000e+00 
 9.50000000e-01  4.37178378e-01  4.37178378e-01  4.37178378e-01  4.37178378e-01  4.37178378e-01  4.37178378e-01  4.94599152e-09  8.31747484e-08 -2.38458142e-11  1.00000000e+00 
 9.60000000e-01  4.44106621e-01  4.44106621e-01  4.44106621e-01  4.44106621e-01  4.44106621e-01  4.44106621e-01  4.84327242e-09  9.85406103e-08 -1.75646164e-11  1.00000000e+00 
 9.70000000e-01  4.51034783e-01  4.51034783e-01  4.51034783e-01  4.51034783e-01  4.51034783e-01  4.51034783e-01  4.74700316e-09  1.16634345e-07 -1.27187150e-11  1.00000000e+00 
 9.80000000e-01  4.57949082e-01  4.57949082e-01  4.57949082e-01  4.57949082e-01  4.57949082e-01  4.57949082e-01  4.65662363e-09  1.37874878e-07 -8.91020591e-12  1.00000000e+00 
 9.90000000e-01  4.64828978e-01  4.64828978e-01  4.64828978e-01  4.64828978e-01  4.64828978e-01  4.64828978e-01  4.57163519e-09  1.62697927e-07 -5.86908300e-12  1.00000000e+00 
 1.00000000e+00  4.71645821e-01  4.71645821e-01  4.71645821e-01  4.71645821e-01  4.71645821e-01  4.71645821e-01  4.49159270e-09  1.91525464e-07 -3.35376171e-12  1.00000000e+00 
 1.01000000e+00  4.78361630e-01  4.78361630e-01  4.78361630e-01  4.78361630e-01  4.78361630e-01  4.78361630e-01  4.41609769e-09  2.24716166e-07 -1.23634436e-12  1.00000000e+00 
 1.02000000e+00  4.84928002e-01  4.84928002e-01  4.84928002e-01  4.84928002e-01  4.84928002e-01  4.84928002e-01  4.34479239e-09  2.62493440e-07  6.67910172e-13  1.00000000e+00 
 1.03000000e+00  4.91285768e-01  4.91285768e-01  4.91285768e-01  4.91285768e-01  4.91285768e-01  4.91285768e-01  4.27735485e-09  3.04851543e-07  2.44426701e-12  1.00000000e+00 
 1.04000000e+00  4.97366313e-01  4.97366313e-01  4.97366313e-01  4.97366313e-01  4.97366313e-01  4.97366313e-01  4.21349491e-09  3.51453082e-07  4.22062385e-12  1.00000000e+00 
 1.05000000e+00  5.03095119e-01  5.03095119e-01  5.03095119e-01  5.03095119e-01  5.03095119e-01  5.03095119e-01  4.15295012e-09  4.01543520e-07  6.02540240e-12  1.00000000e+00 
 1.06000000e+00  5.08397335e-01  5.08397335e-01  5.08397335e-01  5.08397335e-01  5.08397335e-01  5.08397335e-01  4.09548335e-09  4.53915394e-07  7.84439180e-12  1.00000000e+00 
 1.07000000e+00  5.13202230e-01  5.13202230e-01  5.13202230e-01  5.13202230e-01  5.13202230e-01  5.13202230e-01  4.04087983e-09  5.06925506e-07  9.72022463e-12  1.00000000e+00 
 1.08000000e+00  5.17442765e-01  5.17442765e-01  5.17442765e-01  5.17442765e-01  5.17442765e-01  5.17442765e-01  3.98894449e-09  5.58525553e-07  1.17381660e-11  1.00000000e+00 
 1.09000000e+00  5.21050050e-01  5.21050050e-01  5.21050050e-01  5.21050050e-01  5.21050050e-01  5.21050050e-01  3.93949995e-09  6.06273630e-07  1.38982159e-11  1.00000000e+00 
 1.10000000e+00  5.23951515e-01  5.23951515e-01  5.23951515e-01  5.23951515e-01  5.23951515e-01  5.23951515e-01  3.89238419e-09  6.47427044e-07  1.63424829e-11  1.00000000e+00 
