 v-sweep         v(b0)           v(b1)           v(b2)           v(b3)           v(b4)           v(b5)           v(b6)           i(vbias)        i(viout)        v(vout)        
 0.00000000e+00 -6.75233555e-20 -6.75233555e-20 -6.75233547e-20 -6.75233547e-20 -6.75233555e-20 -6.75233546e-20 -6.75233556e-20  2.85242706e-31 -5.07225143e-03  1.00000000e+00 
 1.00000000e-02  1.88260968e-03  1.88260969e-03  1.88260969e-03  1.88260968e-03  1.88260968e-03  1.88260968e-03  1.88260968e-03  1.22002309e-14 -4.63549251e-03  1.00000000e+00 
 2.00000000e-02  3.75482317e-03  3.75482317e-03  3.75482317e-03  3.75482317e-03  3.75482316e-03  3.75482316e-03  3.75482316e-03  2.37365013e-14 -4.21192418e-03  1.00000000e+00 
 3.00000000e-02  5.62352226e-03  5.62352226e-03  5.62352226e-03  5.62352226e-03  5.62352226e-03  5.62352225e-03  5.62352225e-03  3.47854819e-14 -3.80283513e-03  1.00000000e+00 
 4.00000000e-02  7.48895448e-03  7.48895448e-03  7.48895448e-03  7.48895448e-03  7.48895448e-03  7.48895447e-03  7.48895447e-03  4.54413131e-14 -3.40963102e-03  1.00000000e+00 
 5.00000000e-02  9.34617087e-03  9.34617087e-03  9.34617087e-03  9.34617087e-03  9.34617087e-03  9.34617086e-03  9.34617086e-03  5.58541390e-14 -3.03381338e-03  1.00000000e+00 
 6.00000000e-02  1.12048464e-02  1.12048464e-02  1.12048464e-02  1.12048464e-02  1.12048464e-02  1.12048464e-02  1.12048464e-02  6.60079706e-14 -2.67701032e-03  1.00000000e+00 
 7.00000000e-02  1.30767224e-02  1.30767225e-02  1.30767225e-02  1.30767224e-02  1.30767224e-02  1.30767224e-02  1.30767224e-02  7.60258073e-14 -2.34085525e-03  1.00000000e+00 
 8.00000000e-02  1.49320488e-02  1.49320488e-02  1.49320488e-02  1.49320488e-02  1.49320488e-02  1.49320488e-02  1.49320488e-02  8.58939884e-14 -2.02701651e-03  1.00000000e+00 
 9.00000000e-02  1.67882162e-02  1.67882162e-02  1.67882162e-02  1.67882162e-02  1.67882162e-02  1.67882161e-02  1.67882162e-02  9.56952921e-14 -1.73703806e-03  1.00000000e+00 
 1.00000000e-01  1.86535275e-02  1.86535275e-02  1.86535276e-02  1.86535275e-02  1.86535275e-02  1.86535275e-02  1.86535275e-02  1.05429145e-13 -1.47227055e-03  1.00000000e+00 
 1.10000000e-01  2.05119026e-02  2.05119026e-02  2.05119026e-02  2.05119026e-02  2.05119026e-02  2.05119026e-02  2.05119026e-02  1.15118521e-13 -1.23371238e-03  1.00000000e+00 
 1.20000000e-01  2.23599477e-02  2.23599477e-02  2.23599477e-02  2.23599477e-02  2.23599477e-02  2.23599477e-02  2.23599477e-02  1.24765183e-13 -1.02192277e-03  1.00000000e+00 
 1.30000000e-01  2.42071417e-02  2.42071417e-02  2.42071417e-02  2.42071417e-02  2.42071417e-02  2.42071416e-02  2.42071416e-02  1.34384426e-13 -8.36852742e-04  1.00000000e+00 
 1.40000000e-01  2.60725739e-02  2.60725739e-02  2.60725739e-02  2.60725739e-02  2.60725739e-02  2.60725739e-02  2.60725739e-02  1.43925123e-13 -6.77770865e-04  1.00000000e+00 
 1.50000000e-01  2.78914827e-02  2.78914827e-02  2.78914827e-02  2.78914827e-02  2.78914827e-02  2.78914827e-02  2.78914827e-02  1.53506909e-13 -5.43298185e-04  1.00000000e+00 
 1.60000000e-01  2.97187561e-02  2.97187561e-02  2.97187561e-02  2.97187561e-02  2.97187561e-02  2.97187561e-02  2.97187561e-02  1.63146496e-13 -4.31501305e-04  1.00000000e+00 
 1.70000000e-01  3.15180069e-02  3.15180069e-02  3.15180069e-02  3.15180069e-02  3.15180069e-02  3.15180069e-02  3.15180069e-02  1.72718597e-13 -3.39954942e-04  1.00000000e+00 
 1.80000000e-01  3.33211624e-02  3.33211624e-02  3.33211624e-02  3.33211624e-02  3.33211624e-02  3.33211624e-02  3.33211624e-02  1.82215127e-13 -2.66064268e-04  1.00000000e+00 
 1.90000000e-01  3.51182036e-02  3.51182036e-02  3.51182036e-02  3.51182036e-02  3.51182035e-02  3.51182035e-02  3.51182035e-02  1.91793514e-13 -2.07133313e-04  1.00000000e+00 
 2.00000000e-01  3.68751187e-02  3.68751187e-02  3.68751187e-02  3.68751187e-02  3.68751187e-02  3.68751187e-02  3.68751187e-02  2.01371731e-13 -1.60644090e-04  1.00000000e+00 
 2.10000000e-01  3.86040896e-02  3.86040896e-02  3.86040896e-02  3.86040896e-02  3.86040896e-02  3.86040896e-02  3.86040896e-02  2.10873606e-13 -1.24252390e-04  1.00000000e+00 
 2.20000000e-01  4.03208052e-02  4.03208052e-02  4.03208052e-02  4.03208052e-02  4.03208052e-02  4.03208052e-02  4.03208052e-02  2.20565277e-13 -9.59541301e-05  1.00000000e+00 
 2.30000000e-01  4.20284885e-02  4.20284885e-02  4.20284885e-02  4.20284885e-02  4.20284885e-02  4.20284885e-02  4.20284885e-02  2.30289464e-13 -7.40457969e-05  1.00000000e+00 
 2.40000000e-01  4.36921716e-02  4.36921716e-02  4.36921716e-02  4.36921716e-02  4.36921716e-02  4.36921716e-02  4.36921716e-02  2.39859095e-13 -5.71328754e-05  1.00000000e+00 
 2.50000000e-01  4.53169583e-02  4.53169583e-02  4.53169583e-02  4.53169583e-02  4.53169583e-02  4.53169583e-02  4.53169583e-02  2.49570606e-13 -4.40969282e-05  1.00000000e+00 
 2.60000000e-01  4.69130090e-02  4.69130091e-02  4.69130091e-02  4.69130090e-02  4.69130090e-02  4.69130090e-02  4.69130090e-02  2.59347695e-13 -3.40659718e-05  1.00000000e+00 
 2.70000000e-01  4.85261394e-02  4.85261394e-02  4.85261394e-02  4.85261394e-02  4.85261394e-02  4.85261394e-02  4.85261394e-02  2.69214879e-13 -2.63512212e-05  1.00000000e+00 
 2.80000000e-01  5.00350451e-02  5.00350451e-02  5.00350451e-02  5.00350451e-02  5.00350451e-02  5.00350451e-02  5.00350451e-02  2.79205261e-13 -2.04153268e-05  1.00000000e+00 
 2.90000000e-01  5.15687433e-02  5.15687433e-02  5.15687433e-02  5.15687433e-02  5.15687433e-02  5.15687433e-02  5.15687433e-02  2.89365289e-13 -1.58488957e-05  1.00000000e+00 
 3.00000000e-01  5.30494395e-02  5.30494395e-02  5.30494395e-02  5.30494395e-02  5.30494395e-02  5.30494395e-02  5.30494395e-02  2.99634019e-13 -1.23002237e-05  1.00000000e+00 
 3.10000000e-01  5.45505425e-02  5.45505425e-02  5.45505425e-02  5.45505425e-02  5.45505425e-02  5.45505425e-02  5.45505425e-02  3.10340214e-13 -9.57863753e-06  1.00000000e+00 
 3.20000000e-01  5.59661767e-02  5.59661767e-02  5.59661767e-02  5.59661767e-02  5.59661767e-02  5.59661767e-02  5.59661767e-02  3.21482102e-13 -7.44486869e-06  1.00000000e+00 
 3.30000000e-01  5.73706402e-02  5.73706402e-02  5.73706402e-02  5.73706402e-02  5.73706402e-02  5.73706402e-02  5.73706402e-02  3.33084292e-13 -5.80821043e-06  1.00000000e+00 
 3.40000000e-01  5.87430379e-02  5.87430380e-02  5.87430380e-02  5.87430379e-02  5.87430379e-02  5.87430379e-02  5.87430379e-02  3.45495324e-13 -4.53508969e-06  1.00000000e+00 
 3.50000000e-01  6.00845895e-02  6.00845895e-02  6.00845895e-02  6.00845895e-02  6.00845895e-02  6.00845895e-02  6.00845895e-02  3.58984554e-13 -3.54938280e-06  1.00000000e+00 
 3.60000000e-01  6.14337860e-02  6.14337860e-02  6.14337860e-02  6.14337860e-02  6.14337860e-02  6.14337859e-02  6.14337859e-02  3.74066446e-13 -2.78867233e-06  1.00000000e+00 
 3.70000000e-01  6.27205558e-02  6.27205558e-02  6.27205558e-02  6.27205558e-02  6.27205558e-02  6.27205558e-02  6.27205558e-02  3.91136928e-13 -2.18273772e-06  1.00000000e+00 
 3.80000000e-01  6.40244355e-02  6.40244355e-02  6.40244355e-02  6.40244355e-02  6.40244355e-02  6.40244354e-02  6.40244354e-02  4.10873531e-13 -1.71948673e-06  1.00000000e+00 
 3.90000000e-01  6.53227759e-02  6.53227759e-02  6.53227759e-02  6.53227759e-02  6.53227759e-02  6.53227759e-02  6.53227759e-02  4.34437866e-13 -1.35415681e-06  1.00000000e+00 
 4.00000000e-01  6.65993959e-02  6.65993959e-02  6.65993959e-02  6.65993959e-02  6.65993959e-02  6.65993958e-02  6.65993959e-02  4.63330695e-13 -1.06325837e-06  1.00000000e+00 
 4.10000000e-01  6.79147955e-02  6.79147955e-02  6.79147955e-02  6.79147955e-02  6.79147955e-02  6.79147955e-02  6.79147955e-02  4.98958835e-13 -8.39904686e-07  1.00000000e+00 
 4.20000000e-01  6.92327104e-02  6.92327104e-02  6.92327104e-02  6.92327104e-02  6.92327104e-02  6.92327104e-02  6.92327104e-02  5.44040121e-13 -6.59959625e-07  1.00000000e+00 
 4.30000000e-01  7.05925359e-02  7.05925359e-02  7.05925359e-02  7.05925359e-02  7.05925358e-02  7.05925358e-02  7.05925358e-02  6.02233222e-13 -5.21676242e-07  1.00000000e+00 
 4.40000000e-01  7.19904169e-02  7.19904169e-02  7.19904169e-02  7.19904169e-02  7.19904169e-02  7.19904169e-02  7.19904169e-02  6.77780708e-13 -4.13676958e-07  1.00000000e+00 
 4.50000000e-01  7.34438405e-02  7.34438405e-02  7.34438405e-02  7.34438405e-02  7.34438405e-02  7.34438405e-02  7.34438405e-02  7.77475998e-13 -3.28531343e-07  1.00000000e+00 
 4.60000000e-01  7.50440306e-02  7.50440306e-02  7.50440306e-02  7.50440306e-02  7.50440306e-02  7.50440306e-02  7.50440306e-02  9.09703932e-13 -2.62137263e-07  1.00000000e+00 
 4.70000000e-01  7.67902121e-02  7.67902121e-02  7.67902121e-02  7.67902121e-02  7.67902121e-02  7.67902120e-02  7.67902120e-02  1.08631426e-12 -2.10377095e-07  1.00000000e+00 
 4.80000000e-01  7.86944518e-02  7.86944518e-02  7.86944518e-02  7.86944518e-02  7.86944517e-02  7.86944517e-02  7.86944517e-02  1.32384244e-12 -1.68889954e-07  1.00000000e+00 
 4.90000000e-01  8.09079378e-02  8.09079379e-02  8.09079379e-02  8.09079378e-02  8.09079378e-02  8.09079378e-02  8.09079378e-02  1.64379586e-12 -1.36425172e-07  1.00000000e+00 
 5.00000000e-01  8.34797651e-02  8.34797651e-02  8.34797651e-02  8.34797651e-02  8.34797651e-02  8.34797651e-02  8.34797651e-02  2.07864822e-12 -1.09492646e-07  1.00000000e+00 
 5.10000000e-01  8.64436862e-02  8.64436862e-02  8.64436862e-02  8.64436862e-02  8.64436862e-02  8.64436861e-02  8.64436861e-02  2.66907275e-12 -8.66688765e-08  1.00000000e+00 
 5.20000000e-01  8.99563184e-02  8.99563184e-02  8.99563184e-02  8.99563184e-02  8.99563184e-02  8.99563184e-02  8.99563184e-02  3.47493144e-12 -6.78006984e-08  1.00000000e+00 
 5.30000000e-01  9.40754064e-02  9.40754065e-02  9.40754065e-02  9.40754064e-02  9.40754064e-02  9.40754064e-02  9.40754064e-02  4.57216383e-12 -5.25171231e-08  1.00000000e+00 
 5.40000000e-01  9.88850952e-02  9.88850952e-02  9.88850952e-02  9.88850952e-02  9.88850951e-02  9.88850951e-02  9.88850951e-02  6.06735625e-12 -4.02950491e-08  1.00000000e+00 
 5.50000000e-01  1.04490905e-01  1.04490905e-01  1.04490905e-01  1.04490905e-01  1.04490905e-01  1.04490905e-01  1.04490905e-01  8.09721973e-12 -3.07135224e-08  1.00000000e+00 
 5.60000000e-01  1.10830234e-01  1.10830234e-01  1.10830234e-01  1.10830234e-01  1.10830234e-01  1.10830234e-01  1.10830234e-01  1.08517647e-11 -2.32942341e-08  1.00000000e+00 
 5.70000000e-01  1.17922347e-01  1.17922347e-01  1.17922347e-01  1.17922347e-01  1.17922347e-01  1.17922347e-01  1.17922347e-01  1.45623940e-11 -1.76353865e-08  1.00000000e+00 
 5.80000000e-01  1.25728375e-01  1.25728375e-01  1.25728375e-01  1.25728375e-01  1.25728375e-01  1.25728375e-01  1.25728375e-01  1.95678805e-11 -1.33321691e-08  1.00000000e+00 
 5.90000000e-01  1.34099649e-01  1.34099649e-01  1.34099649e-01  1.34099649e-01  1.34099649e-01  1.34099649e-01  1.34099649e-01  2.62699916e-11 -1.00689022e-08  1.00000000e+00 
 6.00000000e-01  1.42959666e-01  1.42959666e-01  1.42959666e-01  1.42959666e-01  1.42959666e-01  1.42959666e-01  1.42959666e-01  3.52680634e-11 -7.59959562e-09  1.00000000e+00 
 6.10000000e-01  1.52199356e-01  1.52199356e-01  1.52199356e-01  1.52199356e-01  1.52199356e-01  1.52199356e-01  1.52199356e-01  4.72623746e-11 -5.73336933e-09  1.00000000e+00 
 6.20000000e-01  1.61745279e-01  1.61745279e-01  1.61745279e-01  1.61745279e-01  1.61745279e-01  1.61745279e-01  1.61745279e-01  6.32299890e-11 -4.32476099e-09  1.00000000e+00 
 6.30000000e-01  1.71470547e-01  1.71470547e-01  1.71470547e-01  1.71470547e-01  1.71470547e-01  1.71470547e-01  1.71470547e-01  8.44026038e-11 -3.26258487e-09  1.00000000e+00 
 6.40000000e-01  1.81312990e-01  1.81312990e-01  1.81312990e-01  1.81312990e-01  1.81312990e-01  1.81312990e-01  1.81312990e-01  1.12334293e-10 -2.46168952e-09  1.00000000e+00 
 6.50000000e-01  1.91204218e-01  1.91204218e-01  1.91204218e-01  1.91204218e-01  1.91204218e-01  1.91204218e-01  1.91204218e-01  1.48956146e-10 -1.85835347e-09  1.00000000e+00 
 6.60000000e-01  2.01074188e-01  2.01074188e-01  2.01074188e-01  2.01074188e-01  2.01074188e-01  2.01074188e-01  2.01074188e-01  1.96786460e-10 -1.40406087e-09  1.00000000e+00 
 6.70000000e-01  2.10890980e-01  2.10890980e-01  2.10890980e-01  2.10890980e-01  2.10890980e-01  2.10890980e-01  2.10890980e-01  2.58815153e-10 -1.06248876e-09  1.00000000e+00 
 6.80000000e-01  2.20610979e-01  2.20610979e-01  2.20610979e-01  2.20610979e-01  2.20610979e-01  2.20610979e-01  2.20610979e-01  3.38780819e-10 -8.05982836e-10  1.00000000e+00 
 6.90000000e-01  2.30202778e-01  2.30202778e-01  2.30202778e-01  2.30202778e-01  2.30202778e-01  2.30202778e-01  2.30202778e-01  4.41154748e-10 -6.13880502e-10  1.00000000e+00 
 7.00000000e-01  2.39647127e-01  2.39647127e-01  2.39647127e-01  2.39647127e-01  2.39647127e-01  2.39647127e-01  2.39647127e-01  5.71340308e-10 -4.70492978e-10  1.00000000e+00 
 7.10000000e-01  2.48922472e-01  2.48922472e-01  2.48922472e-01  2.48922472e-01  2.48922472e-01  2.48922472e-01  2.48922472e-01  7.35712817e-10 -3.64508423e-10  1.00000000e+00 
 7.20000000e-01  2.58015911e-01  2.58015911e-01  2.58015911e-01  2.58015911e-01  2.58015911e-01  2.58015911e-01  2.58015911e-01  9.41770613e-10 -2.87002422e-10  1.00000000e+00 
 7.30000000e-01  2.66917099e-01  2.66917099e-01  2.66917099e-01  2.66917099e-01  2.66917099e-01  2.66917099e-01  2.66917099e-01  1.19827459e-09 -2.31182185e-10  1.00000000e+00 
 7.40000000e-01  2.75623218e-01  2.75623218e-01  2.75623218e-01  2.75623218e-01  2.75623218e-01  2.75623218e-01  2.75623218e-01  1.51538788e-09 -1.92784455e-10  1.00000000e+00 
 7.50000000e-01  2.84132416e-01  2.84132416e-01  2.84132416e-01  2.84132416e-01  2.84132416e-01  2.84132416e-01  2.84132416e-01  1.90484412e-09 -1.68114411e-10  1.00000000e+00 
 7.60000000e-01  2.92446456e-01  2.92446456e-01  2.92446456e-01  2.92446456e-01  2.92446456e-01  2.92446456e-01  2.92446456e-01  2.38014650e-09 -1.54415147e-10  1.00000000e+00 
 7.70000000e-01  3.00572277e-01  3.00572277e-01  3.00572277e-01  3.00572277e-01  3.00572277e-01  3.00572277e-01  3.00572277e-01  2.95700064e-09 -1.50265578e-10  1.00000000e+00 
 7.80000000e-01  3.08516959e-01  3.08516959e-01  3.08516959e-01  3.08516959e-01  3.08516959e-01  3.08516959e-01  3.08516959e-01  3.65340594e-09 -1.54273039e-10  1.00000000e+00 
 7.90000000e-01  3.16291840e-01  3.16291840e-01  3.16291840e-01  3.16291840e-01  3.16291840e-01  3.16291840e-01  3.16291840e-01  4.49034823e-09 -1.65442771e-10  1.00000000e+00 
 8.00000000e-01  3.23908803e-01  3.23908803e-01  3.23908803e-01  3.23908803e-01  3.23908803e-01  3.23908803e-01  3.23908803e-01  5.49221074e-09 -1.82410531e-10  1.00000000e+00 
 8.10000000e-01  3.31382326e-01  3.31382326e-01  3.31382326e-01  3.31382326e-01  3.31382326e-01  3.31382326e-01  3.31382326e-01  6.68745609e-09 -2.01254124e-10  1.00000000e+00 
 8.20000000e-01  3.38726978e-01  3.38726978e-01  3.38726978e-01  3.38726978e-01  3.38726978e-01  3.38726978e-01  3.38726978e-01  8.10948692e-09 -2.11258566e-10  1.00000000e+00 
 8.30000000e-01  3.45958458e-01  3.45958458e-01  3.45958458e-01  3.45958458e-01  3.45958458e-01  3.45958458e-01  3.45958458e-01  9.79766901e-09 -2.03527861e-10  1.00000000e+00 
 8.40000000e-01  3.53092127e-01  3.53092127e-01  3.53092127e-01  3.53092127e-01  3.53092127e-01  3.53092127e-01  3.53092127e-01  1.17983359e-08 -1.80563120e-10  1.00000000e+00 
 8.50000000e-01  3.60143582e-01  3.60143582e-01  3.60143582e-01  3.60143582e-01  3.60143582e-01  3.60143582e-01  3.60143582e-01  1.41665376e-08 -1.50862434e-10  1.00000000e+00 
 8.60000000e-01  3.67127526e-01  3.67127526e-01  3.67127526e-01  3.67127526e-01  3.67127526e-01  3.67127526e-01  3.67127526e-01  1.69672454e-08 -1.21076482e-10  1.00000000e+00 
 8.70000000e-01  3.74058789e-01  3.74058789e-01  3.74058789e-01  3.74058789e-01  3.74058789e-01  3.74058789e-01  3.74058789e-01  2.02778541e-08 -9.47579792e-11  1.00000000e+00 
 8.80000000e-01  3.80950605e-01  3.80950605e-01  3.80950605e-01  3.80950605e-01  3.80950605e-01  3.80950605e-01  3.80950605e-01  2.41901688e-08 -7.28732630e-11  1.00000000e+00 
 8.90000000e-01  3.87815352e-01  3.87815352e-01  3.87815352e-01  3.87815352e-01  3.87815352e-01  3.87815352e-01  3.87815352e-01  2.88133732e-08 -5.54507551e-11  1.00000000e+00 
 9.00000000e-01  3.94664287e-01  3.94664287e-01  3.94664287e-01  3.94664287e-01  3.94664287e-01  3.94664287e-01  3.94664287e-01  3.42770481e-08 -4.19220214e-11  1.00000000e+00 
 9.10000000e-01  4.01507141e-01  4.01507141e-01  4.01507141e-01  4.01507141e-01  4.01507141e-01  4.01507141e-01  4.01507141e-01  4.07347587e-08 -3.14628323e-11  1.00000000e+00 
 9.20000000e-01  4.08351766e-01  4.08351766e-01  4.08351766e-01  4.08351766e-01  4.08351766e-01  4.08351766e-01  4.08351766e-01  4.83681015e-08 -2.35900188e-11  1.00000000e+00 
 9.30000000e-01  4.15203932e-01  4.15203932e-01  4.15203932e-01  4.15203932e-01  4.15203932e-01  4.15203932e-01  4.15203932e-01  5.73906425e-08 -1.75077730e-11  1.00000000e+00 
 9.40000000e-01  4.22066834e-01  4.22066834e-01  4.22066834e-01  4.22066834e-01  4.22066834e-01  4.22066834e-01  4.22066834e-01  6.80518091e-08 -1.29602995e-11  1.00000000e+00 
 9.50000000e-01  4.28940473e-01  4.28940473e-01  4.28940473e-01  4.28940473e-01  4.28940473e-01  4.28940473e-01  4.28940473e-01  8.06400005e-08 -9.43600753e-12  1.00000000e+00 
 9.60000000e-01  4.35821044e-01  4.35821044e-01  4.35821044e-01  4.35821044e-01  4.35821044e-01  4.35821044e-01  4.35821044e-01  9.54837436e-08 -6.84963197e-12  1.00000000e+00 
 9.70000000e-01  4.42699998e-01  4.42699998e-01  4.42699998e-01  4.42699998e-01  4.42699998e-01  4.42699998e-01  4.42699998e-01  1.12949493e-07 -4.80326889e-12  1.00000000e+00 
 9.80000000e-01  4.49563143e-01  4.49563143e-01  4.49563143e-01  4.49563143e-01  4.49563143e-01  4.49563143e-01  4.49563143e-01  1.33433518e-07 -3.24007488e-12  1.00000000e+00 
 9.90000000e-01  4.56389403e-01  4.56389403e-01  4.56389403e-01  4.56389403e-01  4.56389403e-01  4.56389403e-01  4.56389403e-01  1.57344671e-07 -2.04636308e-12  1.00000000e+00 
 1.00000000e+00  4.63149578e-01  4.63149578e-01  4.63149578e-01  4.63149578e-01  4.63149578e-01  4.63149578e-01  4.63149578e-01  1.85073819e-07 -1.08002496e-12  1.00000000e+00 
 1.01000000e+00  4.69805055e-01  4.69805055e-01  4.69805055e-01  4.69805055e-01  4.69805055e-01  4.69805055e-01  4.69805055e-01  2.16944747e-07 -3.69482223e-13  1.00000000e+00 
 1.02000000e+00  4.76306676e-01  4.76306676e-01  4.76306676e-01  4.76306676e-01  4.76306676e-01  4.76306676e-01  4.76306676e-01  2.53143723e-07  3.12638804e-13  1.00000000e+00 
 1.03000000e+00  4.82594457e-01  4.82594457e-01  4.82594457e-01  4.82594457e-01  4.82594457e-01  4.82594457e-01  4.82594457e-01  2.93628961e-07  8.81072992e-13  1.00000000e+00 
 1.04000000e+00  4.88598621e-01  4.88598621e-01  4.88598621e-01  4.88598621e-01  4.88598621e-01  4.88598621e-01  4.88598621e-01  3.38030624e-07  1.47792889e-12  1.00000000e+00 
 1.05000000e+00  4.94242707e-01  4.94242707e-01  4.94242707e-01  4.94242707e-01  4.94242707e-01  4.94242707e-01  4.94242707e-01  3.85565468e-07  1.98951966e-12  1.00000000e+00 
 1.06000000e+00  4.99448074e-01  4.99448074e-01  4.99448074e-01  4.99448074e-01  4.99448074e-01  4.99448074e-01  4.99448074e-01  4.34991559e-07  2.58637556e-12  1.00000000e+00 
 1.07000000e+00  5.04137573e-01  5.04137573e-01  5.04137573e-01  5.04137573e-01  5.04137573e-01  5.04137573e-01  5.04137573e-01  4.84611924e-07  3.09796633e-12  1.00000000e+00 
 1.08000000e+00  5.08235634e-01  5.08235634e-01  5.08235634e-01  5.08235634e-01  5.08235634e-01  5.08235634e-01  5.08235634e-01  5.32305165e-07  3.66640052e-12  1.00000000e+00 
 1.09000000e+00  5.11666619e-01  5.11666619e-01  5.11666620e-01  5.11666619e-01  5.11666619e-01  5.11666619e-01  5.11666619e-01  5.75593539e-07  4.37694325e-12  1.00000000e+00 
 1.10000000e+00  5.14362048e-01  5.14362048e-01  5.14362048e-01  5.14362048e-01  5.14362048e-01  5.14362048e-01  5.14362048e-01  6.11890215e-07  5.11590770e-12  1.00000000e+00 
