 v-sweep         v(b0)           v(b1)           v(b2)           v(b3)           v(b4)           v(b5)           v(b6)           i(vbias)        i(viout)        v(vout)        
 0.00000000e+00 -6.29777843e-20 -6.29777844e-20 -6.29777844e-20 -6.29777843e-20 -6.29777844e-20 -6.29777837e-20 -6.29777834e-20 -5.92857962e-30 -4.73850867e-03  1.00000000e+00 
 1.00000000e-02  1.93981430e-03  1.93981430e-03  1.93981430e-03  1.93981430e-03  1.93981430e-03  1.93981430e-03  1.93981430e-03  1.16431324e-14 -4.31167967e-03  1.00000000e+00 
 2.00000000e-02  3.87922078e-03  3.87922077e-03  3.87922077e-03  3.87922078e-03  3.87922077e-03  3.87922078e-03  3.87922077e-03  2.27680203e-14 -3.89902275e-03  1.00000000e+00 
 3.00000000e-02  5.81253144e-03  5.81253143e-03  5.81253143e-03  5.81253143e-03  5.81253143e-03  5.81253144e-03  5.81253142e-03  3.34813743e-14 -3.50190981e-03  1.00000000e+00 
 4.00000000e-02  7.75388129e-03  7.75388128e-03  7.75388128e-03  7.75388128e-03  7.75388128e-03  7.75388129e-03  7.75388127e-03  4.38896966e-14 -3.12182466e-03  1.00000000e+00 
 5.00000000e-02  9.69518421e-03  9.69518420e-03  9.69518420e-03  9.69518421e-03  9.69518420e-03  9.69518421e-03  9.69518419e-03  5.41043599e-14 -2.76035935e-03  1.00000000e+00 
 6.00000000e-02  1.16491359e-02  1.16491359e-02  1.16491359e-02  1.16491359e-02  1.16491359e-02  1.16491359e-02  1.16491359e-02  6.41289186e-14 -2.41915653e-03  1.00000000e+00 
 7.00000000e-02  1.36031658e-02  1.36031658e-02  1.36031658e-02  1.36031658e-02  1.36031658e-02  1.36031658e-02  1.36031658e-02  7.40087076e-14 -2.09987396e-03  1.00000000e+00 
 8.00000000e-02  1.55653632e-02  1.55653631e-02  1.55653631e-02  1.55653631e-02  1.55653631e-02  1.55653632e-02  1.55653631e-02  8.37880672e-14 -1.80410449e-03  1.00000000e+00 
 9.00000000e-02  1.75282585e-02  1.75282585e-02  1.75282585e-02  1.75282585e-02  1.75282585e-02  1.75282585e-02  1.75282585e-02  9.35339012e-14 -1.53323445e-03  1.00000000e+00 
 1.00000000e-01  1.95157956e-02  1.95157956e-02  1.95157956e-02  1.95157956e-02  1.95157956e-02  1.95157956e-02  1.95157955e-02  1.03184412e-13 -1.28833739e-03  1.00000000e+00 
 1.10000000e-01  2.14613823e-02  2.14613823e-02  2.14613823e-02  2.14613823e-02  2.14613823e-02  2.14613823e-02  2.14613823e-02  1.12840150e-13 -1.07022240e-03  1.00000000e+00 
 1.20000000e-01  2.34428851e-02  2.34428851e-02  2.34428851e-02  2.34428851e-02  2.34428851e-02  2.34428851e-02  2.34428851e-02  1.22415987e-13 -8.78848016e-04  1.00000000e+00 
 1.30000000e-01  2.54139828e-02  2.54139827e-02  2.54139827e-02  2.54139827e-02  2.54139827e-02  2.54139828e-02  2.54139827e-02  1.31996417e-13 -7.13681480e-04  1.00000000e+00 
 1.40000000e-01  2.73852733e-02  2.73852732e-02  2.73852732e-02  2.73852732e-02  2.73852732e-02  2.73852733e-02  2.73852732e-02  1.41496983e-13 -5.73511292e-04  1.00000000e+00 
 1.50000000e-01  2.93328180e-02  2.93328180e-02  2.93328180e-02  2.93328180e-02  2.93328180e-02  2.93328180e-02  2.93328179e-02  1.51115740e-13 -4.56499636e-04  1.00000000e+00 
 1.60000000e-01  3.12880118e-02  3.12880118e-02  3.12880118e-02  3.12880118e-02  3.12880118e-02  3.12880118e-02  3.12880118e-02  1.60667083e-13 -3.60403566e-04  1.00000000e+00 
 1.70000000e-01  3.32447645e-02  3.32447645e-02  3.32447645e-02  3.32447645e-02  3.32447645e-02  3.32447645e-02  3.32447645e-02  1.70214635e-13 -2.82553583e-04  1.00000000e+00 
 1.80000000e-01  3.51792320e-02  3.51792320e-02  3.51792320e-02  3.51792320e-02  3.51792320e-02  3.51792320e-02  3.51792320e-02  1.79763485e-13 -2.20304189e-04  1.00000000e+00 
 1.90000000e-01  3.70885971e-02  3.70885971e-02  3.70885971e-02  3.70885971e-02  3.70885971e-02  3.70885971e-02  3.70885971e-02  1.89274574e-13 -1.71076226e-04  1.00000000e+00 
 2.00000000e-01  3.89812447e-02  3.89812446e-02  3.89812446e-02  3.89812447e-02  3.89812446e-02  3.89812447e-02  3.89812446e-02  1.98834079e-13 -1.32474618e-04  1.00000000e+00 
 2.10000000e-01  4.08438683e-02  4.08438683e-02  4.08438683e-02  4.08438683e-02  4.08438683e-02  4.08438683e-02  4.08438682e-02  2.08408228e-13 -1.02437249e-04  1.00000000e+00 
 2.20000000e-01  4.26604090e-02  4.26604089e-02  4.26604089e-02  4.26604089e-02  4.26604089e-02  4.26604090e-02  4.26604089e-02  2.17952053e-13 -7.91055388e-05  1.00000000e+00 
 2.30000000e-01  4.44826180e-02  4.44826180e-02  4.44826180e-02  4.44826180e-02  4.44826180e-02  4.44826180e-02  4.44826180e-02  2.27571752e-13 -6.11180112e-05  1.00000000e+00 
 2.40000000e-01  4.62697601e-02  4.62697601e-02  4.62697601e-02  4.62697601e-02  4.62697601e-02  4.62697601e-02  4.62697600e-02  2.37284754e-13 -4.72387235e-05  1.00000000e+00 
 2.50000000e-01  4.79853689e-02  4.79853688e-02  4.79853688e-02  4.79853689e-02  4.79853688e-02  4.79853689e-02  4.79853688e-02  2.46941282e-13 -3.65446768e-05  1.00000000e+00 
 2.60000000e-01  4.97148259e-02  4.97148259e-02  4.97148259e-02  4.97148259e-02  4.97148259e-02  4.97148259e-02  4.97148259e-02  2.56725109e-13 -2.83224303e-05  1.00000000e+00 
 2.70000000e-01  5.13964872e-02  5.13964871e-02  5.13964871e-02  5.13964871e-02  5.13964871e-02  5.13964872e-02  5.13964871e-02  2.66546456e-13 -2.19644016e-05  1.00000000e+00 
 2.80000000e-01  5.30172933e-02  5.30172933e-02  5.30172933e-02  5.30172933e-02  5.30172933e-02  5.30172933e-02  5.30172933e-02  2.76498266e-13 -1.70669690e-05  1.00000000e+00 
 2.90000000e-01  5.46433372e-02  5.46433372e-02  5.46433372e-02  5.46433372e-02  5.46433372e-02  5.46433372e-02  5.46433372e-02  2.86829107e-13 -1.32918108e-05  1.00000000e+00 
 3.00000000e-01  5.62282962e-02  5.62282961e-02  5.62282961e-02  5.62282961e-02  5.62282961e-02  5.62282962e-02  5.62282961e-02  2.97215445e-13 -1.03629008e-05  1.00000000e+00 
 3.10000000e-01  5.77515400e-02  5.77515399e-02  5.77515399e-02  5.77515400e-02  5.77515399e-02  5.77515400e-02  5.77515399e-02  3.07940874e-13 -8.09905271e-06  1.00000000e+00 
 3.20000000e-01  5.92813171e-02  5.92813171e-02  5.92813171e-02  5.92813171e-02  5.92813171e-02  5.92813171e-02  5.92813170e-02  3.19045768e-13 -6.33178135e-06  1.00000000e+00 
 3.30000000e-01  6.07264290e-02  6.07264289e-02  6.07264289e-02  6.07264290e-02  6.07264289e-02  6.07264290e-02  6.07264289e-02  3.30803845e-13 -4.96216886e-06  1.00000000e+00 
 3.40000000e-01  6.21978255e-02  6.21978255e-02  6.21978255e-02  6.21978255e-02  6.21978255e-02  6.21978255e-02  6.21978254e-02  3.43575435e-13 -3.88348828e-06  1.00000000e+00 
 3.50000000e-01  6.36275382e-02  6.36275382e-02  6.36275382e-02  6.36275382e-02  6.36275382e-02  6.36275382e-02  6.36275382e-02  3.57539424e-13 -3.04949219e-06  1.00000000e+00 
 3.60000000e-01  6.50023274e-02  6.50023274e-02  6.50023274e-02  6.50023274e-02  6.50023274e-02  6.50023274e-02  6.50023273e-02  3.72708158e-13 -2.39812293e-06  1.00000000e+00 
 3.70000000e-01  6.63954117e-02  6.63954116e-02  6.63954116e-02  6.63954117e-02  6.63954116e-02  6.63954117e-02  6.63954116e-02  3.90152266e-13 -1.89104095e-06  1.00000000e+00 
 3.80000000e-01  6.77610803e-02  6.77610803e-02  6.77610803e-02  6.77610803e-02  6.77610803e-02  6.77610803e-02  6.77610802e-02  4.10602325e-13 -1.49115614e-06  1.00000000e+00 
 3.90000000e-01  6.91098679e-02  6.91098678e-02  6.91098678e-02  6.91098679e-02  6.91098678e-02  6.91098679e-02  6.91098678e-02  4.34859139e-13 -1.17060458e-06  1.00000000e+00 
 4.00000000e-01  7.04628947e-02  7.04628947e-02  7.04628947e-02  7.04628947e-02  7.04628947e-02  7.04628947e-02  7.04628946e-02  4.64597192e-13 -9.24117117e-07  1.00000000e+00 
 4.10000000e-01  7.17986363e-02  7.17986363e-02  7.17986363e-02  7.17986363e-02  7.17986363e-02  7.17986363e-02  7.17986362e-02  5.01492768e-13 -7.26763489e-07  1.00000000e+00 
 4.20000000e-01  7.31689820e-02  7.31689819e-02  7.31689819e-02  7.31689820e-02  7.31689819e-02  7.31689820e-02  7.31689819e-02  5.48147777e-13 -5.74150647e-07  1.00000000e+00 
 4.30000000e-01  7.45659970e-02  7.45659970e-02  7.45659970e-02  7.45659970e-02  7.45659970e-02  7.45659970e-02  7.45659969e-02  6.08420215e-13 -4.54562127e-07  1.00000000e+00 
 4.40000000e-01  7.60323574e-02  7.60323573e-02  7.60323573e-02  7.60323574e-02  7.60323573e-02  7.60323574e-02  7.60323573e-02  6.86714073e-13 -3.59725746e-07  1.00000000e+00 
 4.50000000e-01  7.75654656e-02  7.75654655e-02  7.75654655e-02  7.75654656e-02  7.75654655e-02  7.75654656e-02  7.75654655e-02  7.89409255e-13 -2.87192307e-07  1.00000000e+00 
 4.60000000e-01  7.92257571e-02  7.92257570e-02  7.92257570e-02  7.92257571e-02  7.92257570e-02  7.92257571e-02  7.92257570e-02  9.25504871e-13 -2.28684200e-07  1.00000000e+00 
 4.70000000e-01  8.10106676e-02  8.10106676e-02  8.10106676e-02  8.10106676e-02  8.10106676e-02  8.10106676e-02  8.10106676e-02  1.10726245e-12 -1.83399038e-07  1.00000000e+00 
 4.80000000e-01  8.30309526e-02  8.30309526e-02  8.30309526e-02  8.30309526e-02  8.30309526e-02  8.30309526e-02  8.30309525e-02  1.35104869e-12 -1.47137015e-07  1.00000000e+00 
 4.90000000e-01  8.53044097e-02  8.53044097e-02  8.53044097e-02  8.53044097e-02  8.53044097e-02  8.53044097e-02  8.53044096e-02  1.67879637e-12 -1.17644518e-07  1.00000000e+00 
 5.00000000e-01  8.79111199e-02  8.79111199e-02  8.79111199e-02  8.79111199e-02  8.79111199e-02  8.79111199e-02  8.79111199e-02  2.12153358e-12 -9.30944140e-08  1.00000000e+00 
 5.10000000e-01  9.09642051e-02  9.09642050e-02  9.09642050e-02  9.09642051e-02  9.09642050e-02  9.09642051e-02  9.09642050e-02  2.72273577e-12 -7.27542329e-08  1.00000000e+00 
 5.20000000e-01  9.45259241e-02  9.45259240e-02  9.45259240e-02  9.45259241e-02  9.45259240e-02  9.45259241e-02  9.45259240e-02  3.53739499e-12 -5.63028806e-08  1.00000000e+00 
 5.30000000e-01  9.87140686e-02  9.87140686e-02  9.87140686e-02  9.87140686e-02  9.87140686e-02  9.87140686e-02  9.87140686e-02  4.64147709e-12 -4.31984546e-08  1.00000000e+00 
 5.40000000e-01  1.03596102e-01  1.03596102e-01  1.03596102e-01  1.03596102e-01  1.03596102e-01  1.03596102e-01  1.03596102e-01  6.14363291e-12 -3.29167449e-08  1.00000000e+00 
 5.50000000e-01  1.09227866e-01  1.09227866e-01  1.09227866e-01  1.09227866e-01  1.09227866e-01  1.09227866e-01  1.09227866e-01  8.17704585e-12 -2.49695375e-08  1.00000000e+00 
 5.60000000e-01  1.15612741e-01  1.15612741e-01  1.15612741e-01  1.15612741e-01  1.15612741e-01  1.15612741e-01  1.15612741e-01  1.09181156e-11 -1.89038900e-08  1.00000000e+00 
 5.70000000e-01  1.22757853e-01  1.22757853e-01  1.22757853e-01  1.22757853e-01  1.22757853e-01  1.22757853e-01  1.22757853e-01  1.46171716e-11 -1.42904781e-08  1.00000000e+00 
 5.80000000e-01  1.30567370e-01  1.30567370e-01  1.30567370e-01  1.30567370e-01  1.30567370e-01  1.30567370e-01  1.30567370e-01  1.95806362e-11 -1.07915099e-08  1.00000000e+00 
 5.90000000e-01  1.38950833e-01  1.38950833e-01  1.38950833e-01  1.38950833e-01  1.38950833e-01  1.38950833e-01  1.38950833e-01  2.62542895e-11 -8.14506507e-09  1.00000000e+00 
 6.00000000e-01  1.47841140e-01  1.47841140e-01  1.47841140e-01  1.47841140e-01  1.47841140e-01  1.47841140e-01  1.47841140e-01  3.51692390e-11 -6.14515727e-09  1.00000000e+00 
 6.10000000e-01  1.57118134e-01  1.57118134e-01  1.57118134e-01  1.57118134e-01  1.57118134e-01  1.57118134e-01  1.57118134e-01  4.70714613e-11 -4.63509764e-09  1.00000000e+00 
 6.20000000e-01  1.66682741e-01  1.66682741e-01  1.66682741e-01  1.66682741e-01  1.66682741e-01  1.66682741e-01  1.66682741e-01  6.28970227e-11 -3.49588447e-09  1.00000000e+00 
 6.30000000e-01  1.76446148e-01  1.76446147e-01  1.76446147e-01  1.76446147e-01  1.76446147e-01  1.76446148e-01  1.76446147e-01  8.38833846e-11 -2.63705147e-09  1.00000000e+00 
 6.40000000e-01  1.86331422e-01  1.86331422e-01  1.86331422e-01  1.86331422e-01  1.86331422e-01  1.86331422e-01  1.86331422e-01  1.11580814e-10 -1.98994599e-09  1.00000000e+00 
 6.50000000e-01  1.96265155e-01  1.96265155e-01  1.96265155e-01  1.96265155e-01  1.96265155e-01  1.96265155e-01  1.96265155e-01  1.47949417e-10 -1.50265578e-09  1.00000000e+00 
 6.60000000e-01  2.06196664e-01  2.06196664e-01  2.06196664e-01  2.06196664e-01  2.06196664e-01  2.06196664e-01  2.06196664e-01  1.95473610e-10 -1.13591625e-09  1.00000000e+00 
 6.70000000e-01  2.16078262e-01  2.16078262e-01  2.16078262e-01  2.16078262e-01  2.16078262e-01  2.16078262e-01  2.16078262e-01  2.57241513e-10 -8.60552518e-10  1.00000000e+00 
 6.80000000e-01  2.25870783e-01  2.25870783e-01  2.25870783e-01  2.25870783e-01  2.25870783e-01  2.25870783e-01  2.25870782e-01  3.37025706e-10 -6.53855636e-10  1.00000000e+00 
 6.90000000e-01  2.35544391e-01  2.35544391e-01  2.35544391e-01  2.35544391e-01  2.35544391e-01  2.35544391e-01  2.35544391e-01  4.39473402e-10 -4.99554176e-10  1.00000000e+00 
 7.00000000e-01  2.45078505e-01  2.45078505e-01  2.45078505e-01  2.45078505e-01  2.45078505e-01  2.45078505e-01  2.45078505e-01  5.70117356e-10 -3.84801524e-10  1.00000000e+00 
 7.10000000e-01  2.54451200e-01  2.54451200e-01  2.54451200e-01  2.54451200e-01  2.54451200e-01  2.54451200e-01  2.54451200e-01  7.35596334e-10 -3.00360625e-10  1.00000000e+00 
 7.20000000e-01  2.63649077e-01  2.63649077e-01  2.63649077e-01  2.63649077e-01  2.63649077e-01  2.63649077e-01  2.63649077e-01  9.43791462e-10 -2.39154474e-10  1.00000000e+00 
 7.30000000e-01  2.72659634e-01  2.72659634e-01  2.72659634e-01  2.72659634e-01  2.72659634e-01  2.72659634e-01  2.72659634e-01  1.20385271e-09 -1.96124006e-10  1.00000000e+00 
 7.40000000e-01  2.81478573e-01  2.81478573e-01  2.81478573e-01  2.81478573e-01  2.81478573e-01  2.81478573e-01  2.81478573e-01  1.52651497e-09 -1.67332814e-10  1.00000000e+00 
 7.50000000e-01  2.90100259e-01  2.90100259e-01  2.90100259e-01  2.90100259e-01  2.90100259e-01  2.90100259e-01  2.90100259e-01  1.92413463e-09 -1.50322421e-10  1.00000000e+00 
 7.60000000e-01  2.98526130e-01  2.98526130e-01  2.98526130e-01  2.98526130e-01  2.98526130e-01  2.98526130e-01  2.98526130e-01  2.41093234e-09 -1.42748036e-10  1.00000000e+00 
 7.70000000e-01  3.06758982e-01  3.06758982e-01  3.06758982e-01  3.06758982e-01  3.06758982e-01  3.06758982e-01  3.06758982e-01  3.00331460e-09 -1.43600687e-10  1.00000000e+00 
 7.80000000e-01  3.14805294e-01  3.14805294e-01  3.14805294e-01  3.14805294e-01  3.14805294e-01  3.14805294e-01  3.14805294e-01  3.72012843e-09 -1.51658242e-10  1.00000000e+00 
 7.90000000e-01  3.22673119e-01  3.22673119e-01  3.22673119e-01  3.22673119e-01  3.22673119e-01  3.22673119e-01  3.22673119e-01  4.58303173e-09 -1.66039626e-10  1.00000000e+00 
 8.00000000e-01  3.30373051e-01  3.30373051e-01  3.30373051e-01  3.30373051e-01  3.30373051e-01  3.30373051e-01  3.30373051e-01  5.61702751e-09 -1.84030569e-10  1.00000000e+00 
 8.10000000e-01  3.37917153e-01  3.37917153e-01  3.37917153e-01  3.37917153e-01  3.37917153e-01  3.37917153e-01  3.37917153e-01  6.85110857e-09 -1.97388772e-10  1.00000000e+00 
 8.20000000e-01  3.45318412e-01  3.45318412e-01  3.45318412e-01  3.45318412e-01  3.45318412e-01  3.45318412e-01  3.45318412e-01  8.31872726e-09 -1.95441885e-10  1.00000000e+00 
 8.30000000e-01  3.52590264e-01  3.52590264e-01  3.52590264e-01  3.52590264e-01  3.52590264e-01  3.52590264e-01  3.52590264e-01  1.00589441e-08 -1.77365678e-10  1.00000000e+00 
 8.40000000e-01  3.59746338e-01  3.59746338e-01  3.59746338e-01  3.59746338e-01  3.59746338e-01  3.59746338e-01  3.59746338e-01  1.21170287e-08 -1.50265578e-10  1.00000000e+00 
 8.50000000e-01  3.66799590e-01  3.66799590e-01  3.66799590e-01  3.66799590e-01  3.66799590e-01  3.66799590e-01  3.66799590e-01  1.45456585e-08 -1.21559651e-10  1.00000000e+00 
 8.60000000e-01  3.73761785e-01  3.73761785e-01  3.73761785e-01  3.73761785e-01  3.73761785e-01  3.73761785e-01  3.73761785e-01  1.74059633e-08 -9.56106305e-11  1.00000000e+00 
 8.70000000e-01  3.80643507e-01  3.80643507e-01  3.80643507e-01  3.80643507e-01  3.80643507e-01  3.80643507e-01  3.80643507e-01  2.07683764e-08 -7.39248662e-11  1.00000000e+00 
 8.80000000e-01  3.87452531e-01  3.87452531e-01  3.87452531e-01  3.87452531e-01  3.87452531e-01  3.87452531e-01  3.87452531e-01  2.47136027e-08 -5.65307801e-11  1.00000000e+00 
 8.90000000e-01  3.94193859e-01  3.94193859e-01  3.94193859e-01  3.94193859e-01  3.94193859e-01  3.94193859e-01  3.94193859e-01  2.93327860e-08 -4.29309921e-11  1.00000000e+00 
 9.00000000e-01  4.00868149e-01  4.00868149e-01  4.00868149e-01  4.00868149e-01  4.00868149e-01  4.00868149e-01  4.00868149e-01  3.47266980e-08 -3.24860139e-11  1.00000000e+00 
 9.10000000e-01  4.07470628e-01  4.07470628e-01  4.07470628e-01  4.07470628e-01  4.07470628e-01  4.07470628e-01  4.07470627e-01  4.10032275e-08 -2.45137244e-11  1.00000000e+00 
 9.20000000e-01  4.13989197e-01  4.13989197e-01  4.13989197e-01  4.13989197e-01  4.13989197e-01  4.13989197e-01  4.13989197e-01  4.82716178e-08 -1.85025328e-11  1.00000000e+00 
 9.30000000e-01  4.20402246e-01  4.20402245e-01  4.20402245e-01  4.20402246e-01  4.20402245e-01  4.20402246e-01  4.20402245e-01  5.66319631e-08 -1.38982159e-11  1.00000000e+00 
 9.40000000e-01  4.26676268e-01  4.26676268e-01  4.26676268e-01  4.26676268e-01  4.26676268e-01  4.26676268e-01  4.26676268e-01  6.61580764e-08 -1.04023457e-11  1.00000000e+00 
 9.50000000e-01  4.32763796e-01  4.32763796e-01  4.32763796e-01  4.32763796e-01  4.32763796e-01  4.32763796e-01  4.32763796e-01  7.68721833e-08 -7.74491582e-12  1.00000000e+00 
 9.60000000e-01  4.38602274e-01  4.38602274e-01  4.38602274e-01  4.38602274e-01  4.38602274e-01  4.38602274e-01  4.38602274e-01  8.87124116e-08 -5.64170932e-12  1.00000000e+00 
 9.70000000e-01  4.44114716e-01  4.44114716e-01  4.44114716e-01  4.44114716e-01  4.44114716e-01  4.44114716e-01  4.44114716e-01  1.01496557e-07 -4.09272616e-12  1.00000000e+00 
 9.80000000e-01  4.49210170e-01  4.49210170e-01  4.49210170e-01  4.49210170e-01  4.49210170e-01  4.49210170e-01  4.49210170e-01  1.14883580e-07 -2.81374923e-12  1.00000000e+00 
 9.90000000e-01  4.53779752e-01  4.53779752e-01  4.53779752e-01  4.53779752e-01  4.53779752e-01  4.53779752e-01  4.53779752e-01  1.28326086e-07 -1.81898940e-12  1.00000000e+00 
 1.00000000e+00  4.57672907e-01  4.57672907e-01  4.57672907e-01  4.57672907e-01  4.57672907e-01  4.57672907e-01  4.57672907e-01  1.40980941e-07 -1.00897068e-12  1.00000000e+00 
 1.01000000e+00  4.60742730e-01  4.60742730e-01  4.60742730e-01  4.60742730e-01  4.60742730e-01  4.60742730e-01  4.60742729e-01  1.51791692e-07 -3.12638804e-13  1.00000000e+00 
 1.02000000e+00  4.62835986e-01  4.62835986e-01  4.62835986e-01  4.62835986e-01  4.62835986e-01  4.62835986e-01  4.62835986e-01  1.59617613e-07  3.12638804e-13  1.00000000e+00 
 1.03000000e+00  4.63987147e-01  4.63987147e-01  4.63987147e-01  4.63987147e-01  4.63987147e-01  4.63987147e-01  4.63987147e-01  1.64085812e-07  9.52127266e-13  1.00000000e+00 
 1.04000000e+00  4.64491245e-01  4.64491245e-01  4.64491245e-01  4.64491245e-01  4.64491245e-01  4.64491245e-01  4.64491245e-01  1.66060829e-07  1.62003744e-12  1.00000000e+00 
 1.05000000e+00  4.64658931e-01  4.64658931e-01  4.64658931e-01  4.64658931e-01  4.64658931e-01  4.64658931e-01  4.64658931e-01  1.66743497e-07  2.50111043e-12  1.00000000e+00 
 1.06000000e+00  4.64709950e-01  4.64709950e-01  4.64709950e-01  4.64709950e-01  4.64709950e-01  4.64709950e-01  4.64709950e-01  1.66951889e-07  3.58113539e-12  1.00000000e+00 
 1.07000000e+00  4.64722636e-01  4.64722636e-01  4.64722636e-01  4.64722636e-01  4.64722636e-01  4.64722636e-01  4.64722636e-01  1.67003076e-07  4.97379915e-12  1.00000000e+00 
 1.08000000e+00  4.64723410e-01  4.64723410e-01  4.64723410e-01  4.64723410e-01  4.64723410e-01  4.64723410e-01  4.64723410e-01  1.67006103e-07  6.70752343e-12  1.00000000e+00 
 1.09000000e+00  4.64721055e-01  4.64721055e-01  4.64721055e-01  4.64721055e-01  4.64721055e-01  4.64721055e-01  4.64721055e-01  1.66996472e-07  9.03810360e-12  1.00000000e+00 
 1.10000000e+00  4.64718222e-01  4.64718222e-01  4.64718222e-01  4.64718222e-01  4.64718222e-01  4.64718222e-01  4.64718222e-01  1.66985039e-07  1.21787025e-11  1.00000000e+00 
