 v-sweep         v(b0)           v(b1)           v(b2)           v(b3)           v(b4)           v(b5)           v(b6)           i(vbias)        i(viout)        v(vout)        
 0.00000000e+00  2.02780420e-20  2.02780421e-20  2.02780421e-20  2.02780421e-20  2.02780421e-20  2.02780421e-20  2.02780421e-20 -9.94122494e-30 -4.73849702e-03  1.00000000e+00 
 1.00000000e-02  2.72747280e-03  2.72747281e-03  2.72747281e-03  2.72747280e-03  2.72747281e-03  2.72747281e-03  2.72747281e-03  1.16598397e-14 -4.31166266e-03  1.00000000e+00 
 2.00000000e-02  5.39643309e-03  5.39643310e-03  5.39643310e-03  5.39643310e-03  5.39643310e-03  5.39643310e-03  5.39643310e-03  2.27902100e-14 -3.89900012e-03  1.00000000e+00 
 3.00000000e-02  8.01155245e-03  8.01155246e-03  8.01155246e-03  8.01155246e-03  8.01155246e-03  8.01155246e-03  8.01155246e-03  3.35215296e-14 -3.50188465e-03  1.00000000e+00 
 4.00000000e-02  1.05704932e-02  1.05704932e-02  1.05704932e-02  1.05704932e-02  1.05704932e-02  1.05704932e-02  1.05704932e-02  4.39522398e-14 -3.12179847e-03  1.00000000e+00 
 5.00000000e-02  1.30828512e-02  1.30828512e-02  1.30828512e-02  1.30828512e-02  1.30828512e-02  1.30828512e-02  1.30828512e-02  5.41566100e-14 -2.76032597e-03  1.00000000e+00 
 6.00000000e-02  1.55662463e-02  1.55662463e-02  1.55662463e-02  1.55662463e-02  1.55662463e-02  1.55662463e-02  1.55662463e-02  6.42050686e-14 -2.41911889e-03  1.00000000e+00 
 7.00000000e-02  1.79977583e-02  1.79977583e-02  1.79977583e-02  1.79977583e-02  1.79977583e-02  1.79977583e-02  1.79977583e-02  7.40802683e-14 -2.09983196e-03  1.00000000e+00 
 8.00000000e-02  2.03757655e-02  2.03757656e-02  2.03757656e-02  2.03757656e-02  2.03757656e-02  2.03757656e-02  2.03757656e-02  8.39073785e-14 -1.80401133e-03  1.00000000e+00 
 9.00000000e-02  2.27318350e-02  2.27318351e-02  2.27318351e-02  2.27318351e-02  2.27318351e-02  2.27318351e-02  2.27318351e-02  9.36240560e-14 -1.53318867e-03  1.00000000e+00 
 1.00000000e-01  2.50348515e-02  2.50348515e-02  2.50348515e-02  2.50348515e-02  2.50348515e-02  2.50348515e-02  2.50348515e-02  1.03306263e-13 -1.28833598e-03  1.00000000e+00 
 1.10000000e-01  2.72928717e-02  2.72928718e-02  2.72928718e-02  2.72928718e-02  2.72928718e-02  2.72928718e-02  2.72928718e-02  1.12924098e-13 -1.07012082e-03  1.00000000e+00 
 1.20000000e-01  2.95218798e-02  2.95218798e-02  2.95218798e-02  2.95218798e-02  2.95218798e-02  2.95218798e-02  2.95218798e-02  1.22534263e-13 -8.78742498e-04  1.00000000e+00 
 1.30000000e-01  3.17000534e-02  3.17000535e-02  3.17000535e-02  3.17000534e-02  3.17000535e-02  3.17000534e-02  3.17000534e-02  1.32153186e-13 -7.13611444e-04  1.00000000e+00 
 1.40000000e-01  3.38486601e-02  3.38486601e-02  3.38486601e-02  3.38486601e-02  3.38486601e-02  3.38486601e-02  3.38486601e-02  1.41697987e-13 -5.73450692e-04  1.00000000e+00 
 1.50000000e-01  3.59488564e-02  3.59488565e-02  3.59488565e-02  3.59488565e-02  3.59488565e-02  3.59488565e-02  3.59488565e-02  1.51228449e-13 -4.56450305e-04  1.00000000e+00 
 1.60000000e-01  3.80036882e-02  3.80036882e-02  3.80036882e-02  3.80036882e-02  3.80036882e-02  3.80036882e-02  3.80036882e-02  1.60820965e-13 -3.60329645e-04  1.00000000e+00 
 1.70000000e-01  4.00117096e-02  4.00117096e-02  4.00117096e-02  4.00117096e-02  4.00117096e-02  4.00117096e-02  4.00117096e-02  1.70340335e-13 -2.82460880e-04  1.00000000e+00 
 1.80000000e-01  4.19735703e-02  4.19735703e-02  4.19735703e-02  4.19735703e-02  4.19735703e-02  4.19735703e-02  4.19735703e-02  1.79934694e-13 -2.20229353e-04  1.00000000e+00 
 1.90000000e-01  4.39160852e-02  4.39160853e-02  4.39160853e-02  4.39160852e-02  4.39160853e-02  4.39160852e-02  4.39160852e-02  1.89497649e-13 -1.70995303e-04  1.00000000e+00 
 2.00000000e-01  4.57807368e-02  4.57807368e-02  4.57807368e-02  4.57807368e-02  4.57807368e-02  4.57807368e-02  4.57807368e-02  1.99067745e-13 -1.32390728e-04  1.00000000e+00 
 2.10000000e-01  4.76105062e-02  4.76105063e-02  4.76105063e-02  4.76105063e-02  4.76105063e-02  4.76105063e-02  4.76105063e-02  2.08605079e-13 -1.02350288e-04  1.00000000e+00 
 2.20000000e-01  4.94067555e-02  4.94067556e-02  4.94067556e-02  4.94067556e-02  4.94067556e-02  4.94067556e-02  4.94067556e-02  2.18206678e-13 -7.90218597e-05  1.00000000e+00 
 2.30000000e-01  5.11603109e-02  5.11603110e-02  5.11603110e-02  5.11603110e-02  5.11603110e-02  5.11603110e-02  5.11603110e-02  2.27835769e-13 -6.10287388e-05  1.00000000e+00 
 2.40000000e-01  5.28591540e-02  5.28591541e-02  5.28591540e-02  5.28591540e-02  5.28591541e-02  5.28591540e-02  5.28591540e-02  2.37502760e-13 -4.71631247e-05  1.00000000e+00 
 2.50000000e-01  5.45315142e-02  5.45315143e-02  5.45315143e-02  5.45315143e-02  5.45315143e-02  5.45315143e-02  5.45315143e-02  2.47166132e-13 -3.64645332e-05  1.00000000e+00 
 2.60000000e-01  5.61291705e-02  5.61291706e-02  5.61291706e-02  5.61291706e-02  5.61291706e-02  5.61291706e-02  5.61291706e-02  2.56896399e-13 -2.82468170e-05  1.00000000e+00 
 2.70000000e-01  5.77071762e-02  5.77071762e-02  5.77071762e-02  5.77071762e-02  5.77071762e-02  5.77071762e-02  5.77071762e-02  2.66840329e-13 -2.18972391e-05  1.00000000e+00 
 2.80000000e-01  5.92498240e-02  5.92498241e-02  5.92498241e-02  5.92498240e-02  5.92498241e-02  5.92498240e-02  5.92498240e-02  2.76797031e-13 -1.70054001e-05  1.00000000e+00 
 2.90000000e-01  6.07716644e-02  6.07716644e-02  6.07716644e-02  6.07716644e-02  6.07716644e-02  6.07716644e-02  6.07716644e-02  2.86931320e-13 -1.32237988e-05  1.00000000e+00 
 3.00000000e-01  6.22399034e-02  6.22399035e-02  6.22399035e-02  6.22399035e-02  6.22399035e-02  6.22399035e-02  6.22399035e-02  2.97376883e-13 -1.03075296e-05  1.00000000e+00 
 3.10000000e-01  6.36402772e-02  6.36402773e-02  6.36402773e-02  6.36402772e-02  6.36402773e-02  6.36402772e-02  6.36402773e-02  3.08152443e-13 -8.04597086e-06  1.00000000e+00 
 3.20000000e-01  6.50453410e-02  6.50453411e-02  6.50453411e-02  6.50453411e-02  6.50453411e-02  6.50453411e-02  6.50453411e-02  3.19411801e-13 -6.29065399e-06  1.00000000e+00 
 3.30000000e-01  6.64238834e-02  6.64238835e-02  6.64238835e-02  6.64238835e-02  6.64238835e-02  6.64238835e-02  6.64238835e-02  3.31145904e-13 -4.92914486e-06  1.00000000e+00 
 3.40000000e-01  6.77802709e-02  6.77802709e-02  6.77802709e-02  6.77802709e-02  6.77802709e-02  6.77802709e-02  6.77802709e-02  3.43859191e-13 -3.85465002e-06  1.00000000e+00 
 3.50000000e-01  6.90678511e-02  6.90678511e-02  6.90678511e-02  6.90678511e-02  6.90678511e-02  6.90678511e-02  6.90678511e-02  3.57543801e-13 -3.02826983e-06  1.00000000e+00 
 3.60000000e-01  7.03588896e-02  7.03588897e-02  7.03588896e-02  7.03588896e-02  7.03588896e-02  7.03588896e-02  7.03588896e-02  3.72775947e-13 -2.37846204e-06  1.00000000e+00 
 3.70000000e-01  7.16470347e-02  7.16470348e-02  7.16470348e-02  7.16470348e-02  7.16470348e-02  7.16470348e-02  7.16470348e-02  3.90331945e-13 -1.87297401e-06  1.00000000e+00 
 3.80000000e-01  7.28802251e-02  7.28802251e-02  7.28802251e-02  7.28802251e-02  7.28802251e-02  7.28802251e-02  7.28802251e-02  4.10504110e-13 -1.47055357e-06  1.00000000e+00 
 3.90000000e-01  7.41196356e-02  7.41196357e-02  7.41196357e-02  7.41196357e-02  7.41196357e-02  7.41196357e-02  7.41196357e-02  4.34691535e-13 -1.15925221e-06  1.00000000e+00 
 4.00000000e-01  7.53833096e-02  7.53833097e-02  7.53833097e-02  7.53833097e-02  7.53833097e-02  7.53833097e-02  7.53833097e-02  4.64434901e-13 -9.11057967e-07  1.00000000e+00 
 4.10000000e-01  7.66238297e-02  7.66238298e-02  7.66238298e-02  7.66238298e-02  7.66238298e-02  7.66238298e-02  7.66238298e-02  5.01223059e-13 -7.19993992e-07  1.00000000e+00 
 4.20000000e-01  7.78849757e-02  7.78849757e-02  7.78849757e-02  7.78849757e-02  7.78849757e-02  7.78849757e-02  7.78849757e-02  5.47695610e-13 -5.68330577e-07  1.00000000e+00 
 4.30000000e-01  7.92065231e-02  7.92065232e-02  7.92065231e-02  7.92065231e-02  7.92065232e-02  7.92065231e-02  7.92065232e-02  6.07537566e-13 -4.50442400e-07  1.00000000e+00 
 4.40000000e-01  8.05437550e-02  8.05437550e-02  8.05437550e-02  8.05437550e-02  8.05437550e-02  8.05437550e-02  8.05437550e-02  6.85601912e-13 -3.57027787e-07  1.00000000e+00 
 4.50000000e-01  8.19480632e-02  8.19480633e-02  8.19480633e-02  8.19480633e-02  8.19480633e-02  8.19480633e-02  8.19480633e-02  7.88485949e-13 -2.84022732e-07  1.00000000e+00 
 4.60000000e-01  8.34824933e-02  8.34824934e-02  8.34824934e-02  8.34824934e-02  8.34824934e-02  8.34824934e-02  8.34824934e-02  9.24788051e-13 -2.28060756e-07  1.00000000e+00 
 4.70000000e-01  8.51324681e-02  8.51324682e-02  8.51324682e-02  8.51324682e-02  8.51324682e-02  8.51324682e-02  8.51324682e-02  1.10592557e-12 -1.83602694e-07  1.00000000e+00 
 4.80000000e-01  8.69685073e-02  8.69685073e-02  8.69685073e-02  8.69685073e-02  8.69685073e-02  8.69685073e-02  8.69685073e-02  1.35074309e-12 -1.48056543e-07  1.00000000e+00 
 4.90000000e-01  8.91030252e-02  8.91030252e-02  8.91030252e-02  8.91030252e-02  8.91030252e-02  8.91030252e-02  8.91030252e-02  1.67873728e-12 -1.18354393e-07  1.00000000e+00 
 5.00000000e-01  9.15118086e-02  9.15118087e-02  9.15118087e-02  9.15118087e-02  9.15118087e-02  9.15118087e-02  9.15118087e-02  2.12365255e-12 -9.34340250e-08  1.00000000e+00 
 5.10000000e-01  9.43460881e-02  9.43460882e-02  9.43460882e-02  9.43460881e-02  9.43460882e-02  9.43460881e-02  9.43460882e-02  2.72628702e-12 -7.28856548e-08  1.00000000e+00 
 5.20000000e-01  9.76628584e-02  9.76628585e-02  9.76628584e-02  9.76628584e-02  9.76628584e-02  9.76628584e-02  9.76628585e-02  3.54358990e-12 -5.63077975e-08  1.00000000e+00 
 5.30000000e-01  1.01567783e-01  1.01567783e-01  1.01567783e-01  1.01567783e-01  1.01567783e-01  1.01567783e-01  1.01567783e-01  4.65161731e-12 -4.31186464e-08  1.00000000e+00 
 5.40000000e-01  1.06155544e-01  1.06155544e-01  1.06155544e-01  1.06155544e-01  1.06155544e-01  1.06155544e-01  1.06155544e-01  6.15620554e-12 -3.28519008e-08  1.00000000e+00 
 5.50000000e-01  1.11468585e-01  1.11468585e-01  1.11468585e-01  1.11468585e-01  1.11468585e-01  1.11468585e-01  1.11468585e-01  8.19204080e-12 -2.49219596e-08  1.00000000e+00 
 5.60000000e-01  1.17538725e-01  1.17538725e-01  1.17538725e-01  1.17538725e-01  1.17538725e-01  1.17538725e-01  1.17538725e-01  1.09443238e-11 -1.88687750e-08  1.00000000e+00 
 5.70000000e-01  1.24351046e-01  1.24351046e-01  1.24351046e-01  1.24351046e-01  1.24351046e-01  1.24351046e-01  1.24351046e-01  1.46512268e-11 -1.42631933e-08  1.00000000e+00 
 5.80000000e-01  1.31875119e-01  1.31875119e-01  1.31875119e-01  1.31875119e-01  1.31875119e-01  1.31875119e-01  1.31875119e-01  1.96359782e-11 -1.07728226e-08  1.00000000e+00 
 5.90000000e-01  1.40019713e-01  1.40019713e-01  1.40019713e-01  1.40019713e-01  1.40019713e-01  1.40019713e-01  1.40019713e-01  2.63202307e-11 -8.13149370e-09  1.00000000e+00 
 6.00000000e-01  1.48678039e-01  1.48678039e-01  1.48678039e-01  1.48678039e-01  1.48678039e-01  1.48678039e-01  1.48678039e-01  3.52655865e-11 -6.13503914e-09  1.00000000e+00 
 6.10000000e-01  1.57763680e-01  1.57763680e-01  1.57763680e-01  1.57763680e-01  1.57763680e-01  1.57763680e-01  1.57763680e-01  4.72149854e-11 -4.62755168e-09  1.00000000e+00 
 6.20000000e-01  1.67195061e-01  1.67195061e-01  1.67195061e-01  1.67195061e-01  1.67195061e-01  1.67195061e-01  1.67195061e-01  6.31011372e-11 -3.49028539e-09  1.00000000e+00 
 6.30000000e-01  1.76846519e-01  1.76846519e-01  1.76846519e-01  1.76846519e-01  1.76846519e-01  1.76846519e-01  1.76846519e-01  8.41872648e-11 -2.63277400e-09  1.00000000e+00 
 6.40000000e-01  1.86649390e-01  1.86649390e-01  1.86649390e-01  1.86649390e-01  1.86649390e-01  1.86649390e-01  1.86649390e-01  1.12008749e-10 -1.98650696e-09  1.00000000e+00 
 6.50000000e-01  1.96526963e-01  1.96526963e-01  1.96526963e-01  1.96526963e-01  1.96526963e-01  1.96526963e-01  1.96526963e-01  1.48565930e-10 -1.49969992e-09  1.00000000e+00 
 6.60000000e-01  2.06417768e-01  2.06417768e-01  2.06417768e-01  2.06417768e-01  2.06417768e-01  2.06417768e-01  2.06417768e-01  1.96377394e-10 -1.13340093e-09  1.00000000e+00 
 6.70000000e-01  2.16271213e-01  2.16271213e-01  2.16271213e-01  2.16271213e-01  2.16271213e-01  2.16271213e-01  2.16271213e-01  2.58521399e-10 -8.58108251e-10  1.00000000e+00 
 6.80000000e-01  2.26048244e-01  2.26048245e-01  2.26048245e-01  2.26048245e-01  2.26048245e-01  2.26048245e-01  2.26048245e-01  3.38803208e-10 -6.51454002e-10  1.00000000e+00 
 6.90000000e-01  2.35717212e-01  2.35717212e-01  2.35717212e-01  2.35717212e-01  2.35717212e-01  2.35717212e-01  2.35717212e-01  4.41895118e-10 -4.96982011e-10  1.00000000e+00 
 7.00000000e-01  2.45246295e-01  2.45246295e-01  2.45246295e-01  2.45246295e-01  2.45246295e-01  2.45246295e-01  2.45246295e-01  5.73348286e-10 -3.81902510e-10  1.00000000e+00 
 7.10000000e-01  2.54620538e-01  2.54620538e-01  2.54620538e-01  2.54620538e-01  2.54620538e-01  2.54620538e-01  2.54620538e-01  7.39899864e-10 -2.96978442e-10  1.00000000e+00 
 7.20000000e-01  2.63820617e-01  2.63820617e-01  2.63820617e-01  2.63820617e-01  2.63820617e-01  2.63820617e-01  2.63820617e-01  9.49389595e-10 -2.35047537e-10  1.00000000e+00 
 7.30000000e-01  2.72835970e-01  2.72835970e-01  2.72835970e-01  2.72835970e-01  2.72835970e-01  2.72835970e-01  2.72835970e-01  1.21103480e-09 -1.91192839e-10  1.00000000e+00 
 7.40000000e-01  2.81658558e-01  2.81658558e-01  2.81658558e-01  2.81658558e-01  2.81658558e-01  2.81658558e-01  2.81658558e-01  1.53555157e-09 -1.61250568e-10  1.00000000e+00 
 7.50000000e-01  2.90286156e-01  2.90286156e-01  2.90286156e-01  2.90286156e-01  2.90286156e-01  2.90286156e-01  2.90286156e-01  1.93542493e-09 -1.42762246e-10  1.00000000e+00 
 7.60000000e-01  2.98717891e-01  2.98717891e-01  2.98717891e-01  2.98717891e-01  2.98717891e-01  2.98717891e-01  2.98717891e-01  2.42486864e-09 -1.33468347e-10  1.00000000e+00 
 7.70000000e-01  3.06956253e-01  3.06956253e-01  3.06956253e-01  3.06956253e-01  3.06956253e-01  3.06956253e-01  3.06956253e-01  3.02032865e-09 -1.32160949e-10  1.00000000e+00 
 7.80000000e-01  3.15008425e-01  3.15008425e-01  3.15008425e-01  3.15008425e-01  3.15008425e-01  3.15008425e-01  3.15008425e-01  3.74074816e-09 -1.37688971e-10  1.00000000e+00 
 7.90000000e-01  3.22882032e-01  3.22882032e-01  3.22882032e-01  3.22882032e-01  3.22882032e-01  3.22882032e-01  3.22882032e-01  4.60788063e-09 -1.49071866e-10  1.00000000e+00 
 8.00000000e-01  3.30588336e-01  3.30588336e-01  3.30588336e-01  3.30588336e-01  3.30588336e-01  3.30588336e-01  3.30588336e-01  5.64690816e-09 -1.63566938e-10  1.00000000e+00 
 8.10000000e-01  3.38139002e-01  3.38139002e-01  3.38139002e-01  3.38139002e-01  3.38139002e-01  3.38139002e-01  3.38139002e-01  6.88702628e-09 -1.73542958e-10  1.00000000e+00 
 8.20000000e-01  3.45547389e-01  3.45547389e-01  3.45547389e-01  3.45547389e-01  3.45547389e-01  3.45547389e-01  3.45547389e-01  8.36195313e-09 -1.69592340e-10  1.00000000e+00 
 8.30000000e-01  3.52827282e-01  3.52827282e-01  3.52827282e-01  3.52827282e-01  3.52827282e-01  3.52827282e-01  3.52827282e-01  1.01111568e-08 -1.52169832e-10  1.00000000e+00 
 8.40000000e-01  3.59992145e-01  3.59992145e-01  3.59992145e-01  3.59992145e-01  3.59992145e-01  3.59992145e-01  3.59992145e-01  1.21804438e-08 -1.27784006e-10  1.00000000e+00 
 8.50000000e-01  3.67055214e-01  3.67055214e-01  3.67055214e-01  3.67055214e-01  3.67055214e-01  3.67055214e-01  3.67055214e-01  1.46231280e-08 -1.02744480e-10  1.00000000e+00 
 8.60000000e-01  3.74028591e-01  3.74028591e-01  3.74028591e-01  3.74028591e-01  3.74028591e-01  3.74028591e-01  3.74028591e-01  1.75012289e-08 -8.05187028e-11  1.00000000e+00 
 8.70000000e-01  3.80922740e-01  3.80922740e-01  3.80922740e-01  3.80922740e-01  3.80922740e-01  3.80922740e-01  3.80922740e-01  2.08864250e-08 -6.20588025e-11  1.00000000e+00 
 8.80000000e-01  3.87745841e-01  3.87745841e-01  3.87745841e-01  3.87745841e-01  3.87745841e-01  3.87745841e-01  3.87745841e-01  2.48608405e-08 -4.73789896e-11  1.00000000e+00 
 8.90000000e-01  3.94502934e-01  3.94502934e-01  3.94502934e-01  3.94502934e-01  3.94502934e-01  3.94502934e-01  3.94502934e-01  2.95173930e-08 -3.59676733e-11  1.00000000e+00 
 9.00000000e-01  4.01194982e-01  4.01194982e-01  4.01194982e-01  4.01194982e-01  4.01194982e-01  4.01194982e-01  4.01194982e-01  3.49592675e-08 -2.72137868e-11  1.00000000e+00 
 9.10000000e-01  4.07817197e-01  4.07817198e-01  4.07817198e-01  4.07817198e-01  4.07817198e-01  4.07817198e-01  4.07817198e-01  4.12971382e-08 -2.05631068e-11  1.00000000e+00 
 9.20000000e-01  4.14357392e-01  4.14357392e-01  4.14357392e-01  4.14357392e-01  4.14357392e-01  4.14357392e-01  4.14357392e-01  4.86432512e-08 -1.55466751e-11  1.00000000e+00 
 9.30000000e-01  4.20793508e-01  4.20793508e-01  4.20793508e-01  4.20793508e-01  4.20793508e-01  4.20793508e-01  4.20793508e-01  5.71006904e-08 -1.16955334e-11  1.00000000e+00 
 9.40000000e-01  4.27090837e-01  4.27090837e-01  4.27090837e-01  4.27090837e-01  4.27090837e-01  4.27090837e-01  4.27090837e-01  6.67446525e-08 -8.76809736e-12  1.00000000e+00 
 9.50000000e-01  4.33199287e-01  4.33199287e-01  4.33199287e-01  4.33199287e-01  4.33199287e-01  4.33199287e-01  4.33199287e-01  7.75947910e-08 -6.52278231e-12  1.00000000e+00 
 9.60000000e-01  4.39051774e-01  4.39051774e-01  4.39051774e-01  4.39051774e-01  4.39051774e-01  4.39051774e-01  4.39051774e-01  8.95785917e-08 -4.78905804e-12  1.00000000e+00 
 9.70000000e-01  4.44564531e-01  4.44564531e-01  4.44564531e-01  4.44564531e-01  4.44564531e-01  4.44564531e-01  4.44564531e-01  1.02490162e-07 -3.46744855e-12  1.00000000e+00 
 9.80000000e-01  4.49639373e-01  4.49639374e-01  4.49639374e-01  4.49639373e-01  4.49639374e-01  4.49639374e-01  4.49639374e-01  1.15952233e-07 -2.40163445e-12  1.00000000e+00 
 9.90000000e-01  4.54164415e-01  4.54164415e-01  4.54164415e-01  4.54164415e-01  4.54164415e-01  4.54164415e-01  4.54164415e-01  1.29382592e-07 -1.57740487e-12  1.00000000e+00 
 1.00000000e+00  4.57996705e-01  4.57996706e-01  4.57996706e-01  4.57996706e-01  4.57996706e-01  4.57996706e-01  4.57996706e-01  1.41936937e-07 -8.52651283e-13  1.00000000e+00 
 1.01000000e+00  4.61022142e-01  4.61022143e-01  4.61022143e-01  4.61022143e-01  4.61022143e-01  4.61022143e-01  4.61022143e-01  1.52660743e-07 -2.70006240e-13  1.00000000e+00 
 1.02000000e+00  4.63134574e-01  4.63134574e-01  4.63134574e-01  4.63134574e-01  4.63134574e-01  4.63134574e-01  4.63134574e-01  1.60607602e-07  2.27373675e-13  1.00000000e+00 
 1.03000000e+00  4.64390728e-01  4.64390728e-01  4.64390728e-01  4.64390728e-01  4.64390728e-01  4.64390728e-01  4.64390728e-01  1.65520753e-07  7.81597009e-13  1.00000000e+00 
 1.04000000e+00  4.65041076e-01  4.65041077e-01  4.65041077e-01  4.65041076e-01  4.65041077e-01  4.65041077e-01  4.65041077e-01  1.68103877e-07  1.32160949e-12  1.00000000e+00 
 1.05000000e+00  4.65332071e-01  4.65332071e-01  4.65332071e-01  4.65332071e-01  4.65332071e-01  4.65332071e-01  4.65332071e-01  1.69291233e-07  1.98951966e-12  1.00000000e+00 
 1.06000000e+00  4.65466931e-01  4.65466931e-01  4.65466931e-01  4.65466931e-01  4.65466931e-01  4.65466931e-01  4.65466931e-01  1.69843869e-07  2.81374923e-12  1.00000000e+00 
 1.07000000e+00  4.65533438e-01  4.65533438e-01  4.65533438e-01  4.65533438e-01  4.65533438e-01  4.65533438e-01  4.65533438e-01  1.70115410e-07  3.82271992e-12  1.00000000e+00 
 1.08000000e+00  4.65568311e-01  4.65568311e-01  4.65568311e-01  4.65568311e-01  4.65568312e-01  4.65568311e-01  4.65568311e-01  1.70257568e-07  5.17275112e-12  1.00000000e+00 
 1.09000000e+00  4.65587816e-01  4.65587816e-01  4.65587816e-01  4.65587816e-01  4.65587816e-01  4.65587816e-01  4.65587816e-01  1.70337042e-07  6.96331881e-12  1.00000000e+00 
 1.10000000e+00  4.65599459e-01  4.65599460e-01  4.65599460e-01  4.65599460e-01  4.65599460e-01  4.65599460e-01  4.65599460e-01  1.70384368e-07  9.30810984e-12  1.00000000e+00 
