 v-sweep         v(b0)           v(b1)           v(b2)           v(b3)           v(b4)           v(b5)           v(b6)           i(vbias)        i(viout)        v(vout)        
 0.00000000e+00  1.72845950e-19  1.72845950e-19  1.72845948e-19  1.72845950e-19  1.72845950e-19  1.72845950e-19  1.12234510e-18 -2.91963226e-34 -4.73861493e-03  1.00000000e+00 
 1.00000000e-02  1.89185375e-03  1.89185375e-03  1.89185375e-03  1.89185375e-03  1.89185375e-03  1.89185375e-03  1.73382820e-03  1.16461118e-14 -4.31173723e-03  1.00000000e+00 
 2.00000000e-02  3.76244831e-03  3.76244831e-03  3.76244831e-03  3.76244831e-03  3.76244831e-03  3.76244831e-03  3.00991947e-03  2.27634667e-14 -3.89904197e-03  1.00000000e+00 
 3.00000000e-02  5.60922084e-03  5.60922084e-03  5.60922084e-03  5.60922084e-03  5.60922085e-03  5.60922084e-03  3.83107444e-03  3.34899243e-14 -3.50190227e-03  1.00000000e+00 
 4.00000000e-02  7.45242675e-03  7.45242676e-03  7.45242676e-03  7.45242676e-03  7.45242676e-03  7.45242675e-03  4.24741335e-03  4.39008842e-14 -3.12180117e-03  1.00000000e+00 
 5.00000000e-02  9.28702653e-03  9.28702653e-03  9.28702653e-03  9.28702653e-03  9.28702654e-03  9.28702652e-03  4.32847614e-03  5.41057880e-14 -2.76031868e-03  1.00000000e+00 
 6.00000000e-02  1.11022157e-02  1.11022157e-02  1.11022157e-02  1.11022157e-02  1.11022158e-02  1.11022157e-02  4.16486761e-03  6.41159252e-14 -2.41911027e-03  1.00000000e+00 
 7.00000000e-02  1.29298485e-02  1.29298485e-02  1.29298485e-02  1.29298485e-02  1.29298485e-02  1.29298485e-02  3.84336156e-03  7.40115095e-14 -2.09977358e-03  1.00000000e+00 
 8.00000000e-02  1.47418080e-02  1.47418080e-02  1.47418080e-02  1.47418080e-02  1.47418080e-02  1.47418080e-02  3.43616690e-03  8.38101832e-14 -1.80400221e-03  1.00000000e+00 
 9.00000000e-02  1.65709991e-02  1.65709991e-02  1.65709991e-02  1.65709991e-02  1.65709991e-02  1.65709991e-02  2.99808702e-03  9.35156968e-14 -1.53313578e-03  1.00000000e+00 
 1.00000000e-01  1.84000792e-02  1.84000792e-02  1.84000792e-02  1.84000792e-02  1.84000792e-02  1.84000792e-02  2.56649539e-03  1.03209508e-13 -1.28829359e-03  1.00000000e+00 
 1.10000000e-01  2.02303130e-02  2.02303130e-02  2.02303130e-02  2.02303130e-02  2.02303130e-02  2.02303130e-02  2.16435038e-03  1.12868421e-13 -1.07019316e-03  1.00000000e+00 
 1.20000000e-01  2.20444506e-02  2.20444506e-02  2.20444506e-02  2.20444506e-02  2.20444506e-02  2.20444505e-02  1.80319788e-03  1.22446500e-13 -8.78823298e-04  1.00000000e+00 
 1.30000000e-01  2.38767438e-02  2.38767438e-02  2.38767438e-02  2.38767438e-02  2.38767438e-02  2.38767438e-02  1.48811782e-03  1.32029160e-13 -7.13623678e-04  1.00000000e+00 
 1.40000000e-01  2.56953600e-02  2.56953600e-02  2.56953600e-02  2.56953600e-02  2.56953600e-02  2.56953600e-02  1.21858555e-03  1.41531704e-13 -5.73515514e-04  1.00000000e+00 
 1.50000000e-01  2.75289792e-02  2.75289792e-02  2.75289792e-02  2.75289792e-02  2.75289792e-02  2.75289791e-02  9.91560541e-04  1.51119392e-13 -4.56529120e-04  1.00000000e+00 
 1.60000000e-01  2.93447510e-02  2.93447510e-02  2.93447510e-02  2.93447510e-02  2.93447510e-02  2.93447509e-02  8.02500183e-04  1.60705576e-13 -3.60410849e-04  1.00000000e+00 
 1.70000000e-01  3.11696466e-02  3.11696466e-02  3.11696466e-02  3.11696466e-02  3.11696466e-02  3.11696466e-02  6.46654130e-04  1.70254693e-13 -2.82571526e-04  1.00000000e+00 
 1.80000000e-01  3.29677140e-02  3.29677140e-02  3.29677140e-02  3.29677140e-02  3.29677140e-02  3.29677140e-02  5.19089503e-04  1.79804807e-13 -2.20339720e-04  1.00000000e+00 
 1.90000000e-01  3.47627056e-02  3.47627056e-02  3.47627056e-02  3.47627056e-02  3.47627056e-02  3.47627056e-02  4.15362454e-04  1.89316770e-13 -1.71117765e-04  1.00000000e+00 
 2.00000000e-01  3.65446589e-02  3.65446589e-02  3.65446589e-02  3.65446589e-02  3.65446589e-02  3.65446589e-02  3.31463813e-04  1.98876655e-13 -1.32532410e-04  1.00000000e+00 
 2.10000000e-01  3.82704366e-02  3.82704366e-02  3.82704366e-02  3.82704366e-02  3.82704367e-02  3.82704366e-02  2.63860557e-04  2.08402496e-13 -1.02490805e-04  1.00000000e+00 
 2.20000000e-01  4.00150040e-02  4.00150040e-02  4.00150040e-02  4.00150040e-02  4.00150041e-02  4.00150040e-02  2.09629670e-04  2.17993023e-13 -7.91705491e-05  1.00000000e+00 
 2.30000000e-01  4.17190140e-02  4.17190140e-02  4.17190140e-02  4.17190140e-02  4.17190140e-02  4.17190140e-02  1.66242439e-04  2.27610275e-13 -6.11801584e-05  1.00000000e+00 
 2.40000000e-01  4.34182752e-02  4.34182752e-02  4.34182752e-02  4.34182752e-02  4.34182752e-02  4.34182752e-02  1.31632920e-04  2.37210438e-13 -4.73017424e-05  1.00000000e+00 
 2.50000000e-01  4.50690195e-02  4.50690195e-02  4.50690195e-02  4.50690195e-02  4.50690196e-02  4.50690195e-02  1.04087008e-04  2.46969518e-13 -3.66107558e-05  1.00000000e+00 
 2.60000000e-01  4.67138824e-02  4.67138824e-02  4.67138824e-02  4.67138824e-02  4.67138824e-02  4.67138824e-02  8.22104687e-05  2.56744102e-13 -2.83788978e-05  1.00000000e+00 
 2.70000000e-01  4.83111822e-02  4.83111822e-02  4.83111822e-02  4.83111822e-02  4.83111822e-02  4.83111822e-02  6.48665662e-05  2.66552649e-13 -2.20240576e-05  1.00000000e+00 
 2.80000000e-01  4.98666873e-02  4.98666873e-02  4.98666873e-02  4.98666873e-02  4.98666873e-02  4.98666873e-02  5.11379620e-05  2.76486570e-13 -1.71261632e-05  1.00000000e+00 
 2.90000000e-01  5.14229833e-02  5.14229833e-02  5.14229833e-02  5.14229833e-02  5.14229833e-02  5.14229833e-02  4.02880975e-05  2.86726440e-13 -1.33461369e-05  1.00000000e+00 
 3.00000000e-01  5.29327578e-02  5.29327578e-02  5.29327578e-02  5.29327578e-02  5.29327579e-02  5.29327578e-02  3.17223674e-05  2.97147398e-13 -1.04046688e-05  1.00000000e+00 
 3.10000000e-01  5.44214626e-02  5.44214626e-02  5.44214626e-02  5.44214626e-02  5.44214627e-02  5.44214626e-02  2.49677924e-05  3.07826125e-13 -8.13553220e-06  1.00000000e+00 
 3.20000000e-01  5.58501642e-02  5.58501642e-02  5.58501642e-02  5.58501642e-02  5.58501643e-02  5.58501642e-02  1.96458461e-05  3.18881287e-13 -6.36798688e-06  1.00000000e+00 
 3.30000000e-01  5.73080037e-02  5.73080037e-02  5.73080037e-02  5.73080037e-02  5.73080037e-02  5.73080036e-02  1.54568719e-05  3.30548008e-13 -4.99006076e-06  1.00000000e+00 
 3.40000000e-01  5.87057330e-02  5.87057330e-02  5.87057330e-02  5.87057330e-02  5.87057330e-02  5.87057330e-02  1.21611433e-05  3.43100263e-13 -3.92267430e-06  1.00000000e+00 
 3.50000000e-01  6.00608885e-02  6.00608885e-02  6.00608885e-02  6.00608885e-02  6.00608885e-02  6.00608885e-02  9.56978594e-06  3.56864251e-13 -3.07396010e-06  1.00000000e+00 
 3.60000000e-01  6.14488721e-02  6.14488721e-02  6.14488721e-02  6.14488721e-02  6.14488722e-02  6.14488721e-02  7.53333296e-06  3.72123068e-13 -2.41925569e-06  1.00000000e+00 
 3.70000000e-01  6.27805503e-02  6.27805503e-02  6.27805503e-02  6.27805503e-02  6.27805503e-02  6.27805502e-02  5.93318566e-06  3.89194699e-13 -1.90525736e-06  1.00000000e+00 
 3.80000000e-01  6.41139175e-02  6.41139175e-02  6.41139175e-02  6.41139175e-02  6.41139175e-02  6.41139175e-02  4.67619225e-06  4.09279869e-13 -1.50278892e-06  1.00000000e+00 
 3.90000000e-01  6.54258847e-02  6.54258847e-02  6.54258847e-02  6.54258847e-02  6.54258848e-02  6.54258847e-02  3.68876845e-06  4.33212006e-13 -1.18531942e-06  1.00000000e+00 
 4.00000000e-01  6.67336315e-02  6.67336315e-02  6.67336315e-02  6.67336315e-02  6.67336315e-02  6.67336315e-02  2.91304246e-06  4.62350725e-13 -9.32078109e-07  1.00000000e+00 
 4.10000000e-01  6.80506146e-02  6.80506146e-02  6.80506146e-02  6.80506146e-02  6.80506146e-02  6.80506146e-02  2.30348918e-06  4.98559527e-13 -7.36194337e-07  1.00000000e+00 
 4.20000000e-01  6.94102818e-02  6.94102818e-02  6.94102818e-02  6.94102818e-02  6.94102818e-02  6.94102818e-02  1.82433708e-06  5.44270141e-13 -5.82100341e-07  1.00000000e+00 
 4.30000000e-01  7.07994926e-02  7.07994926e-02  7.07994926e-02  7.07994926e-02  7.07994926e-02  7.07994926e-02  1.44747065e-06  6.03145409e-13 -4.59911121e-07  1.00000000e+00 
 4.40000000e-01  7.22338888e-02  7.22338888e-02  7.22338888e-02  7.22338888e-02  7.22338888e-02  7.22338887e-02  1.15084351e-06  6.79317740e-13 -3.63925651e-07  1.00000000e+00 
 4.50000000e-01  7.37771680e-02  7.37771680e-02  7.37771680e-02  7.37771680e-02  7.37771680e-02  7.37771680e-02  9.17170849e-07  7.79582399e-13 -2.88618182e-07  1.00000000e+00 
 4.60000000e-01  7.54305840e-02  7.54305840e-02  7.54305840e-02  7.54305840e-02  7.54305840e-02  7.54305839e-02  7.32885606e-07  9.12464494e-13 -2.30495573e-07  1.00000000e+00 
 4.70000000e-01  7.71927181e-02  7.71927181e-02  7.71927181e-02  7.71927181e-02  7.71927181e-02  7.71927180e-02  5.87358364e-07  1.08946088e-12 -1.83480026e-07  1.00000000e+00 
 4.80000000e-01  7.92415198e-02  7.92415198e-02  7.92415198e-02  7.92415198e-02  7.92415198e-02  7.92415198e-02  4.72277069e-07  1.32768715e-12 -1.47063204e-07  1.00000000e+00 
 4.90000000e-01  8.15439911e-02  8.15439911e-02  8.15439911e-02  8.15439911e-02  8.15439911e-02  8.15439910e-02  3.81107835e-07  1.64824794e-12 -1.17531798e-07  1.00000000e+00 
 5.00000000e-01  8.41894234e-02  8.41894234e-02  8.41894234e-02  8.41894234e-02  8.41894234e-02  8.41894234e-02  3.08742707e-07  2.08139799e-12 -9.28874329e-08  1.00000000e+00 
 5.10000000e-01  8.72800642e-02  8.72800642e-02  8.72800642e-02  8.72800642e-02  8.72800642e-02  8.72800642e-02  2.51179011e-07  2.67123617e-12 -7.26906961e-08  1.00000000e+00 
 5.20000000e-01  9.09441417e-02  9.09441417e-02  9.09441417e-02  9.09441417e-02  9.09441417e-02  9.09441417e-02  2.05280012e-07  3.47275550e-12 -5.62369848e-08  1.00000000e+00 
 5.30000000e-01  9.52155459e-02  9.52155459e-02  9.52155459e-02  9.52155459e-02  9.52155460e-02  9.52155459e-02  1.68584572e-07  4.56082914e-12 -4.31722214e-08  1.00000000e+00 
 5.40000000e-01  1.00222191e-01  1.00222191e-01  1.00222191e-01  1.00222191e-01  1.00222191e-01  1.00222191e-01  1.39164760e-07  6.03971907e-12 -3.29152385e-08  1.00000000e+00 
 5.50000000e-01  1.05994341e-01  1.05994341e-01  1.05994341e-01  1.05994341e-01  1.05994341e-01  1.05994341e-01  1.15506160e-07  8.04826735e-12 -2.49811620e-08  1.00000000e+00 
 5.60000000e-01  1.12515977e-01  1.12515977e-01  1.12515977e-01  1.12515977e-01  1.12515977e-01  1.12515977e-01  9.64193034e-08  1.07594727e-11 -1.89137381e-08  1.00000000e+00 
 5.70000000e-01  1.19783250e-01  1.19783250e-01  1.19783250e-01  1.19783250e-01  1.19783250e-01  1.19783250e-01  8.09689584e-08  1.44240236e-11 -1.42949830e-08  1.00000000e+00 
 5.80000000e-01  1.27724244e-01  1.27724244e-01  1.27724244e-01  1.27724244e-01  1.27724244e-01  1.27724244e-01  6.84183151e-08  1.93423055e-11 -1.07946931e-08  1.00000000e+00 
 5.90000000e-01  1.36222861e-01  1.36222861e-01  1.36222861e-01  1.36222861e-01  1.36222861e-01  1.36222861e-01  5.81857205e-08  2.59499332e-11 -8.14641510e-09  1.00000000e+00 
 6.00000000e-01  1.45194782e-01  1.45194782e-01  1.45194782e-01  1.45194782e-01  1.45194782e-01  1.45194782e-01  4.98113638e-08  3.47921015e-11 -6.14551254e-09  1.00000000e+00 
 6.10000000e-01  1.54563628e-01  1.54563628e-01  1.54563628e-01  1.54563628e-01  1.54563628e-01  1.54563628e-01  4.29307188e-08  4.66113016e-11 -4.63475658e-09  1.00000000e+00 
 6.20000000e-01  1.64189937e-01  1.64189937e-01  1.64189937e-01  1.64189937e-01  1.64189937e-01  1.64189937e-01  3.72540377e-08  6.23379334e-11 -3.49528761e-09  1.00000000e+00 
 6.30000000e-01  1.74013006e-01  1.74013006e-01  1.74013006e-01  1.74013006e-01  1.74013006e-01  1.74013006e-01  3.25506891e-08  8.32096302e-11 -2.63611355e-09  1.00000000e+00 
 6.40000000e-01  1.83948476e-01  1.83948476e-01  1.83948476e-01  1.83948476e-01  1.83948476e-01  1.83948476e-01  2.86365342e-08  1.10756064e-10 -1.98868122e-09  1.00000000e+00 
 6.50000000e-01  1.93926607e-01  1.93926607e-01  1.93926607e-01  1.93926607e-01  1.93926607e-01  1.93926607e-01  2.53642734e-08  1.46970665e-10 -1.50095048e-09  1.00000000e+00 
 6.60000000e-01  2.03893669e-01  2.03893669e-01  2.03893669e-01  2.03893669e-01  2.03893669e-01  2.03893669e-01  2.26158109e-08  1.94343167e-10 -1.13381304e-09  1.00000000e+00 
 6.70000000e-01  2.13806007e-01  2.13806007e-01  2.13806007e-01  2.13806007e-01  2.13806007e-01  2.13806007e-01  2.02962448e-08  2.55902466e-10 -8.57696136e-10  1.00000000e+00 
 6.80000000e-01  2.23629806e-01  2.23629806e-01  2.23629806e-01  2.23629806e-01  2.23629806e-01  2.23629806e-01  1.83291305e-08  3.35457953e-10 -6.50345555e-10  1.00000000e+00 
 6.90000000e-01  2.33330841e-01  2.33330841e-01  2.33330841e-01  2.33330841e-01  2.33330841e-01  2.33330841e-01  1.66527323e-08  4.37613334e-10 -4.95020913e-10  1.00000000e+00 
 7.00000000e-01  2.42888980e-01  2.42888980e-01  2.42888980e-01  2.42888980e-01  2.42888980e-01  2.42888980e-01  1.52170656e-08  5.67910746e-10 -3.79003495e-10  1.00000000e+00 
 7.10000000e-01  2.52283662e-01  2.52283662e-01  2.52283662e-01  2.52283662e-01  2.52283662e-01  2.52283662e-01  1.39815388e-08  7.32904626e-10 -2.92899927e-10  1.00000000e+00 
 7.20000000e-01  2.61499136e-01  2.61499136e-01  2.61499136e-01  2.61499136e-01  2.61499136e-01  2.61499135e-01  1.29130891e-08  9.40419131e-10 -2.29704256e-10  1.00000000e+00 
 7.30000000e-01  2.70525098e-01  2.70525098e-01  2.70525098e-01  2.70525098e-01  2.70525098e-01  2.70525098e-01  1.19846989e-08  1.19951893e-09 -1.84101623e-10  1.00000000e+00 
 7.40000000e-01  2.79353190e-01  2.79353190e-01  2.79353190e-01  2.79353190e-01  2.79353190e-01  2.79353190e-01  1.11742150e-08  1.52073554e-09 -1.52169832e-10  1.00000000e+00 
 7.50000000e-01  2.87981680e-01  2.87981680e-01  2.87981680e-01  2.87981680e-01  2.87981680e-01  2.87981680e-01  1.04634093e-08  1.91619309e-09 -1.31109346e-10  1.00000000e+00 
 7.60000000e-01  2.96408594e-01  2.96408594e-01  2.96408594e-01  2.96408594e-01  2.96408594e-01  2.96408594e-01  9.83722799e-09  2.39987030e-09 -1.18873800e-10  1.00000000e+00 
 7.70000000e-01  3.04636312e-01  3.04636312e-01  3.04636312e-01  3.04636312e-01  3.04636312e-01  3.04636312e-01  9.28319326e-09  2.98757508e-09 -1.13885790e-10  1.00000000e+00 
 7.80000000e-01  3.12670181e-01  3.12670181e-01  3.12670181e-01  3.12670181e-01  3.12670181e-01  3.12670181e-01  8.79092338e-09  3.69762732e-09 -1.14965815e-10  1.00000000e+00 
 7.90000000e-01  3.20517161e-01  3.20517161e-01  3.20517161e-01  3.20517161e-01  3.20517161e-01  3.20517161e-01  8.35174797e-09  4.55068871e-09 -1.21374910e-10  1.00000000e+00 
 8.00000000e-01  3.28186166e-01  3.28186166e-01  3.28186166e-01  3.28186166e-01  3.28186166e-01  3.28186166e-01  7.95839842e-09  5.57051649e-09 -1.31421984e-10  1.00000000e+00 
 8.10000000e-01  3.35686946e-01  3.35686946e-01  3.35686946e-01  3.35686946e-01  3.35686946e-01  3.35686946e-01  7.60475828e-09  6.78412881e-09 -1.40815359e-10  1.00000000e+00 
 8.20000000e-01  3.43029944e-01  3.43029944e-01  3.43029944e-01  3.43029944e-01  3.43029944e-01  3.43029944e-01  7.28566132e-09  8.22228285e-09 -1.41170631e-10  1.00000000e+00 
 8.30000000e-01  3.50224665e-01  3.50224665e-01  3.50224665e-01  3.50224665e-01  3.50224665e-01  3.50224665e-01  6.99672764e-09  9.91987958e-09 -1.29091404e-10  1.00000000e+00 
 8.40000000e-01  3.57279566e-01  3.57279566e-01  3.57279566e-01  3.57279566e-01  3.57279566e-01  3.57279566e-01  6.73423050e-09  1.19160397e-08 -1.09366738e-10  1.00000000e+00 
 8.50000000e-01  3.64200615e-01  3.64200615e-01  3.64200615e-01  3.64200615e-01  3.64200615e-01  3.64200615e-01  6.49498733e-09  1.42541650e-08 -8.81215101e-11  1.00000000e+00 
 8.60000000e-01  3.70990273e-01  3.70990273e-01  3.70990273e-01  3.70990273e-01  3.70990273e-01  3.70990273e-01  6.27627070e-09  1.69810725e-08 -6.89652779e-11  1.00000000e+00 
 8.70000000e-01  3.77645900e-01  3.77645900e-01  3.77645900e-01  3.77645900e-01  3.77645900e-01  3.77645900e-01  6.07573490e-09  2.01454471e-08 -5.31059641e-11  1.00000000e+00 
 8.80000000e-01  3.84157609e-01  3.84157609e-01  3.84157609e-01  3.84157609e-01  3.84157609e-01  3.84157609e-01  5.89135559e-09  2.37944562e-08 -4.05435685e-11  1.00000000e+00 
 8.90000000e-01  3.90506031e-01  3.90506031e-01  3.90506031e-01  3.90506031e-01  3.90506031e-01  3.90506030e-01  5.72137975e-09  2.79676620e-08 -3.08091330e-11  1.00000000e+00 
 9.00000000e-01  3.96659595e-01  3.96659595e-01  3.96659595e-01  3.96659595e-01  3.96659595e-01  3.96659595e-01  5.56428426e-09  3.26878169e-08 -2.33484343e-11  1.00000000e+00 
 9.10000000e-01  4.02571723e-01  4.02571723e-01  4.02571723e-01  4.02571723e-01  4.02571723e-01  4.02571723e-01  5.41874113e-09  3.79468439e-08 -1.76783033e-11  1.00000000e+00 
 9.20000000e-01  4.08178922e-01  4.08178922e-01  4.08178922e-01  4.08178922e-01  4.08178922e-01  4.08178922e-01  5.28358892e-09  4.36878711e-08 -1.34150469e-11  1.00000000e+00 
 9.30000000e-01  4.13399978e-01  4.13399978e-01  4.13399978e-01  4.13399978e-01  4.13399978e-01  4.13399978e-01  5.15780861e-09  4.97848411e-08 -1.01749720e-11  1.00000000e+00 
 9.40000000e-01  4.18135023e-01  4.18135023e-01  4.18135023e-01  4.18135023e-01  4.18135023e-01  4.18135023e-01  5.04050328e-09  5.60209763e-08 -7.71649411e-12  1.00000000e+00 
 9.50000000e-01  4.22262695e-01  4.22262695e-01  4.22262695e-01  4.22262695e-01  4.22262695e-01  4.22262694e-01  4.93088111e-09  6.20679472e-08 -5.86908300e-12  1.00000000e+00 
 9.60000000e-01  4.25620955e-01  4.25620955e-01  4.25620955e-01  4.25620955e-01  4.25620955e-01  4.25620955e-01  4.82823972e-09  6.74592897e-08 -4.40536496e-12  1.00000000e+00 
 9.70000000e-01  4.28110872e-01  4.28110872e-01  4.28110872e-01  4.28110872e-01  4.28110872e-01  4.28110872e-01  4.73196007e-09  7.17404802e-08 -3.32534000e-12  1.00000000e+00 
 9.80000000e-01  4.29699192e-01  4.29699192e-01  4.29699192e-01  4.29699192e-01  4.29699192e-01  4.29699192e-01  4.64149549e-09  7.46074456e-08 -2.44426701e-12  1.00000000e+00 
 9.90000000e-01  4.30564112e-01  4.30564112e-01  4.30564112e-01  4.30564112e-01  4.30564112e-01  4.30564112e-01  4.55636948e-09  7.62149170e-08 -1.77635684e-12  1.00000000e+00 
 1.00000000e+00  4.30994831e-01  4.30994831e-01  4.30994831e-01  4.30994831e-01  4.30994831e-01  4.30994831e-01  4.47616206e-09  7.70234472e-08 -1.09423581e-12  1.00000000e+00 
 1.01000000e+00  4.31193185e-01  4.31193185e-01  4.31193185e-01  4.31193185e-01  4.31193185e-01  4.31193185e-01  4.40049258e-09  7.74034987e-08 -4.12114787e-13  1.00000000e+00 
 1.02000000e+00  4.31292746e-01  4.31292746e-01  4.31292746e-01  4.31292746e-01  4.31292746e-01  4.31292746e-01  4.32901616e-09  7.75942901e-08  3.12638804e-13  1.00000000e+00 
 1.03000000e+00  4.31346173e-01  4.31346173e-01  4.31346173e-01  4.31346173e-01  4.31346173e-01  4.31346173e-01  4.26141869e-09  7.76964306e-08  1.29318778e-12  1.00000000e+00 
 1.04000000e+00  4.31376685e-01  4.31376685e-01  4.31376685e-01  4.31376685e-01  4.31376685e-01  4.31376685e-01  4.19741553e-09  7.77546134e-08  2.40163445e-12  1.00000000e+00 
 1.05000000e+00  4.31395115e-01  4.31395115e-01  4.31395115e-01  4.31395115e-01  4.31395115e-01  4.31395114e-01  4.13674892e-09  7.77897462e-08  3.89377419e-12  1.00000000e+00 
 1.06000000e+00  4.31406926e-01  4.31406926e-01  4.31406926e-01  4.31406926e-01  4.31406926e-01  4.31406926e-01  4.07918539e-09  7.78121674e-08  5.78381787e-12  1.00000000e+00 
 1.07000000e+00  4.31414867e-01  4.31414867e-01  4.31414867e-01  4.31414867e-01  4.31414867e-01  4.31414867e-01  4.02451276e-09  7.78271634e-08  8.21387403e-12  1.00000000e+00 
 1.08000000e+00  4.31420428e-01  4.31420428e-01  4.31420428e-01  4.31420428e-01  4.31420428e-01  4.31420428e-01  3.97253825e-09  7.78376190e-08  1.13971055e-11  1.00000000e+00 
 1.09000000e+00  4.31424535e-01  4.31424535e-01  4.31424535e-01  4.31424535e-01  4.31424535e-01  4.31424535e-01  3.92308624e-09  7.78452183e-08  1.55040425e-11  1.00000000e+00 
 1.10000000e+00  4.31427572e-01  4.31427572e-01  4.31427572e-01  4.31427572e-01  4.31427572e-01  4.31427572e-01  3.87599656e-09  7.78508635e-08  2.10036433e-11  1.00000000e+00 
