 v-sweep         v(b0)           v(b1)           v(b2)           v(b3)           v(b4)           v(b5)           v(b6)           i(vbias)        i(viout)        v(vout)        
 0.00000000e+00  2.90851532e-20  2.90851532e-20  2.90851532e-20  2.90851529e-20  2.90851529e-20  2.90851530e-20  2.90851532e-20  1.22161753e-33 -5.70505099e-03  1.00000000e+00 
 1.00000000e-02  1.79445768e-03  1.79445768e-03  1.79445768e-03  1.79445768e-03  1.79445768e-03  1.79445768e-03  1.79445768e-03  1.35740520e-14 -5.25166354e-03  1.00000000e+00 
 2.00000000e-02  3.56868723e-03  3.56868723e-03  3.56868723e-03  3.56868723e-03  3.56868723e-03  3.56868724e-03  3.56868723e-03  2.61535839e-14 -4.80988986e-03  1.00000000e+00 
 3.00000000e-02  5.33201957e-03  5.33201957e-03  5.33201957e-03  5.33201957e-03  5.33201956e-03  5.33201957e-03  5.33201956e-03  3.79939000e-14 -4.38084013e-03  1.00000000e+00 
 4.00000000e-02  7.08121793e-03  7.08121793e-03  7.08121793e-03  7.08121793e-03  7.08121792e-03  7.08121793e-03  7.08121792e-03  4.92583134e-14 -3.96575425e-03  1.00000000e+00 
 5.00000000e-02  8.80890274e-03  8.80890274e-03  8.80890275e-03  8.80890274e-03  8.80890274e-03  8.80890275e-03  8.80890274e-03  6.01503134e-14 -3.56599298e-03  1.00000000e+00 
 6.00000000e-02  1.05303617e-02  1.05303617e-02  1.05303617e-02  1.05303617e-02  1.05303617e-02  1.05303617e-02  1.05303617e-02  7.06931495e-14 -3.18303317e-03  1.00000000e+00 
 7.00000000e-02  1.22557802e-02  1.22557802e-02  1.22557802e-02  1.22557802e-02  1.22557802e-02  1.22557802e-02  1.22557802e-02  8.10216728e-14 -2.81843052e-03  1.00000000e+00 
 8.00000000e-02  1.39539990e-02  1.39539990e-02  1.39539990e-02  1.39539990e-02  1.39539990e-02  1.39539990e-02  1.39539990e-02  9.11194575e-14 -2.47383748e-03  1.00000000e+00 
 9.00000000e-02  1.56613612e-02  1.56613612e-02  1.56613612e-02  1.56613612e-02  1.56613612e-02  1.56613612e-02  1.56613612e-02  1.01075134e-13 -2.15090574e-03  1.00000000e+00 
 1.00000000e-01  1.73470444e-02  1.73470444e-02  1.73470444e-02  1.73470444e-02  1.73470444e-02  1.73470444e-02  1.73470444e-02  1.10957799e-13 -1.85123363e-03  1.00000000e+00 
 1.10000000e-01  1.90215464e-02  1.90215464e-02  1.90215464e-02  1.90215464e-02  1.90215464e-02  1.90215464e-02  1.90215464e-02  1.20726271e-13 -1.57627629e-03  1.00000000e+00 
 1.20000000e-01  2.07058186e-02  2.07058186e-02  2.07058187e-02  2.07058187e-02  2.07058186e-02  2.07058187e-02  2.07058186e-02  1.30514069e-13 -1.32719248e-03  1.00000000e+00 
 1.30000000e-01  2.23864302e-02  2.23864302e-02  2.23864302e-02  2.23864302e-02  2.23864302e-02  2.23864303e-02  2.23864302e-02  1.40177509e-13 -1.10474455e-03  1.00000000e+00 
 1.40000000e-01  2.40167573e-02  2.40167573e-02  2.40167573e-02  2.40167573e-02  2.40167573e-02  2.40167573e-02  2.40167573e-02  1.49898641e-13 -9.09094003e-04  1.00000000e+00 
 1.50000000e-01  2.56747036e-02  2.56747036e-02  2.56747036e-02  2.56747036e-02  2.56747036e-02  2.56747036e-02  2.56747036e-02  1.59503229e-13 -7.39770198e-04  1.00000000e+00 
 1.60000000e-01  2.73078439e-02  2.73078439e-02  2.73078439e-02  2.73078439e-02  2.73078439e-02  2.73078439e-02  2.73078439e-02  1.69193578e-13 -5.95725257e-04  1.00000000e+00 
 1.70000000e-01  2.89327459e-02  2.89327459e-02  2.89327460e-02  2.89327459e-02  2.89327459e-02  2.89327460e-02  2.89327459e-02  1.78824444e-13 -4.75150526e-04  1.00000000e+00 
 1.80000000e-01  3.05277208e-02  3.05277208e-02  3.05277208e-02  3.05277208e-02  3.05277208e-02  3.05277208e-02  3.05277208e-02  1.88451251e-13 -3.75801360e-04  1.00000000e+00 
 1.90000000e-01  3.20979185e-02  3.20979185e-02  3.20979185e-02  3.20979185e-02  3.20979184e-02  3.20979185e-02  3.20979185e-02  1.98016259e-13 -2.95166027e-04  1.00000000e+00 
 2.00000000e-01  3.36658740e-02  3.36658740e-02  3.36658740e-02  3.36658740e-02  3.36658740e-02  3.36658740e-02  3.36658740e-02  2.07646617e-13 -2.30557541e-04  1.00000000e+00 
 2.10000000e-01  3.52171391e-02  3.52171391e-02  3.52171391e-02  3.52171391e-02  3.52171391e-02  3.52171391e-02  3.52171391e-02  2.17288467e-13 -1.79349057e-04  1.00000000e+00 
 2.20000000e-01  3.67572612e-02  3.67572612e-02  3.67572612e-02  3.67572612e-02  3.67572612e-02  3.67572612e-02  3.67572612e-02  2.26950823e-13 -1.39073003e-04  1.00000000e+00 
 2.30000000e-01  3.82542176e-02  3.82542176e-02  3.82542176e-02  3.82542176e-02  3.82542176e-02  3.82542176e-02  3.82542176e-02  2.36635852e-13 -1.07676022e-04  1.00000000e+00 
 2.40000000e-01  3.97514155e-02  3.97514155e-02  3.97514155e-02  3.97514155e-02  3.97514154e-02  3.97514155e-02  3.97514154e-02  2.46361538e-13 -8.32780028e-05  1.00000000e+00 
 2.50000000e-01  4.12449311e-02  4.12449311e-02  4.12449311e-02  4.12449311e-02  4.12449311e-02  4.12449311e-02  4.12449311e-02  2.56139673e-13 -6.44110020e-05  1.00000000e+00 
 2.60000000e-01  4.26527503e-02  4.26527503e-02  4.26527504e-02  4.26527504e-02  4.26527503e-02  4.26527504e-02  4.26527503e-02  2.66079314e-13 -4.98307728e-05  1.00000000e+00 
 2.70000000e-01  4.41081974e-02  4.41081974e-02  4.41081974e-02  4.41081974e-02  4.41081974e-02  4.41081974e-02  4.41081974e-02  2.75951842e-13 -3.85734853e-05  1.00000000e+00 
 2.80000000e-01  4.55233398e-02  4.55233398e-02  4.55233398e-02  4.55233398e-02  4.55233397e-02  4.55233398e-02  4.55233398e-02  2.86045913e-13 -2.99186352e-05  1.00000000e+00 
 2.90000000e-01  4.68365233e-02  4.68365233e-02  4.68365233e-02  4.68365233e-02  4.68365233e-02  4.68365233e-02  4.68365233e-02  2.96248350e-13 -2.32180584e-05  1.00000000e+00 
 3.00000000e-01  4.81902488e-02  4.81902488e-02  4.81902488e-02  4.81902488e-02  4.81902487e-02  4.81902488e-02  4.81902487e-02  3.06706930e-13 -1.80601626e-05  1.00000000e+00 
 3.10000000e-01  4.95501556e-02  4.95501556e-02  4.95501556e-02  4.95501556e-02  4.95501556e-02  4.95501557e-02  4.95501556e-02  3.17726653e-13 -1.40456084e-05  1.00000000e+00 
 3.20000000e-01  5.08616090e-02  5.08616090e-02  5.08616090e-02  5.08616090e-02  5.08616090e-02  5.08616090e-02  5.08616090e-02  3.29151623e-13 -1.09614766e-05  1.00000000e+00 
 3.30000000e-01  5.21017252e-02  5.21017252e-02  5.21017252e-02  5.21017252e-02  5.21017251e-02  5.21017252e-02  5.21017252e-02  3.41157238e-13 -8.55546682e-06  1.00000000e+00 
 3.40000000e-01  5.33957945e-02  5.33957945e-02  5.33957945e-02  5.33957945e-02  5.33957945e-02  5.33957945e-02  5.33957945e-02  3.53989651e-13 -6.69027227e-06  1.00000000e+00 
 3.50000000e-01  5.46616733e-02  5.46616733e-02  5.46616733e-02  5.46616733e-02  5.46616733e-02  5.46616734e-02  5.46616733e-02  3.68453423e-13 -5.23878907e-06  1.00000000e+00 
 3.60000000e-01  5.58585377e-02  5.58585377e-02  5.58585378e-02  5.58585377e-02  5.58585377e-02  5.58585378e-02  5.58585377e-02  3.84338693e-13 -4.10650347e-06  1.00000000e+00 
 3.70000000e-01  5.70556537e-02  5.70556537e-02  5.70556537e-02  5.70556537e-02  5.70556537e-02  5.70556538e-02  5.70556537e-02  4.02577657e-13 -3.21855211e-06  1.00000000e+00 
 3.80000000e-01  5.82741538e-02  5.82741538e-02  5.82741538e-02  5.82741538e-02  5.82741538e-02  5.82741538e-02  5.82741538e-02  4.24264438e-13 -2.53401549e-06  1.00000000e+00 
 3.90000000e-01  5.94943875e-02  5.94943875e-02  5.94943875e-02  5.94943875e-02  5.94943874e-02  5.94943875e-02  5.94943874e-02  4.50010797e-13 -1.99977231e-06  1.00000000e+00 
 4.00000000e-01  6.07109593e-02  6.07109593e-02  6.07109594e-02  6.07109594e-02  6.07109593e-02  6.07109594e-02  6.07109593e-02  4.82090008e-13 -1.57357971e-06  1.00000000e+00 
 4.10000000e-01  6.19262717e-02  6.19262717e-02  6.19262717e-02  6.19262717e-02  6.19262717e-02  6.19262717e-02  6.19262717e-02  5.22347926e-13 -1.24031692e-06  1.00000000e+00 
 4.20000000e-01  6.32122758e-02  6.32122758e-02  6.32122758e-02  6.32122758e-02  6.32122757e-02  6.32122758e-02  6.32122757e-02  5.73493076e-13 -9.78051077e-07  1.00000000e+00 
 4.30000000e-01  6.44829752e-02  6.44829752e-02  6.44829752e-02  6.44829752e-02  6.44829752e-02  6.44829752e-02  6.44829752e-02  6.39810335e-13 -7.74275691e-07  1.00000000e+00 
 4.40000000e-01  6.58101412e-02  6.58101412e-02  6.58101412e-02  6.58101412e-02  6.58101412e-02  6.58101412e-02  6.58101412e-02  7.27033505e-13 -6.12487725e-07  1.00000000e+00 
 4.50000000e-01  6.72727867e-02  6.72727867e-02  6.72727867e-02  6.72727867e-02  6.72727866e-02  6.72727867e-02  6.72727867e-02  8.41841028e-13 -4.87320676e-07  1.00000000e+00 
 4.60000000e-01  6.88285718e-02  6.88285718e-02  6.88285718e-02  6.88285718e-02  6.88285718e-02  6.88285718e-02  6.88285718e-02  9.95438270e-13 -3.87716966e-07  1.00000000e+00 
 4.70000000e-01  7.05745548e-02  7.05745548e-02  7.05745548e-02  7.05745548e-02  7.05745548e-02  7.05745548e-02  7.05745548e-02  1.20054167e-12 -3.11221982e-07  1.00000000e+00 
 4.80000000e-01  7.24993224e-02  7.24993224e-02  7.24993224e-02  7.24993224e-02  7.24993224e-02  7.24993225e-02  7.24993224e-02  1.47654697e-12 -2.50334551e-07  1.00000000e+00 
 4.90000000e-01  7.47491089e-02  7.47491089e-02  7.47491089e-02  7.47491089e-02  7.47491089e-02  7.47491089e-02  7.47491089e-02  1.85137680e-12 -2.02006902e-07  1.00000000e+00 
 5.00000000e-01  7.74031323e-02  7.74031323e-02  7.74031323e-02  7.74031323e-02  7.74031322e-02  7.74031323e-02  7.74031323e-02  2.36125605e-12 -1.62728838e-07  1.00000000e+00 
 5.10000000e-01  8.04868318e-02  8.04868318e-02  8.04868318e-02  8.04868318e-02  8.04868318e-02  8.04868319e-02  8.04868318e-02  3.05442282e-12 -1.28928434e-07  1.00000000e+00 
 5.20000000e-01  8.41760139e-02  8.41760139e-02  8.41760139e-02  8.41760139e-02  8.41760139e-02  8.41760139e-02  8.41760139e-02  4.00204717e-12 -1.00961074e-07  1.00000000e+00 
 5.30000000e-01  8.85186611e-02  8.85186611e-02  8.85186611e-02  8.85186611e-02  8.85186610e-02  8.85186611e-02  8.85186610e-02  5.29800075e-12 -7.79926097e-08  1.00000000e+00 
 5.40000000e-01  9.36343175e-02  9.36343175e-02  9.36343176e-02  9.36343176e-02  9.36343175e-02  9.36343176e-02  9.36343175e-02  7.06771404e-12 -5.97304677e-08  1.00000000e+00 
 5.50000000e-01  9.95376055e-02  9.95376055e-02  9.95376056e-02  9.95376055e-02  9.95376055e-02  9.95376056e-02  9.95376055e-02  9.47797439e-12 -4.54110136e-08  1.00000000e+00 
 5.60000000e-01  1.06227744e-01  1.06227744e-01  1.06227744e-01  1.06227744e-01  1.06227744e-01  1.06227744e-01  1.06227744e-01  1.27557609e-11 -3.44398643e-08  1.00000000e+00 
 5.70000000e-01  1.13675358e-01  1.13675358e-01  1.13675358e-01  1.13675358e-01  1.13675358e-01  1.13675359e-01  1.13675358e-01  1.71893593e-11 -2.60602633e-08  1.00000000e+00 
 5.80000000e-01  1.21774498e-01  1.21774498e-01  1.21774498e-01  1.21774498e-01  1.21774498e-01  1.21774498e-01  1.21774498e-01  2.31510471e-11 -1.96952499e-08  1.00000000e+00 
 5.90000000e-01  1.30449616e-01  1.30449616e-01  1.30449616e-01  1.30449616e-01  1.30449616e-01  1.30449616e-01  1.30449616e-01  3.11916101e-11 -1.48732227e-08  1.00000000e+00 
 6.00000000e-01  1.39568971e-01  1.39568971e-01  1.39568971e-01  1.39568971e-01  1.39568971e-01  1.39568971e-01  1.39568971e-01  4.19414781e-11 -1.12261773e-08  1.00000000e+00 
 6.10000000e-01  1.49012942e-01  1.49012942e-01  1.49012942e-01  1.49012942e-01  1.49012942e-01  1.49012942e-01  1.49012942e-01  5.62933034e-11 -8.46890202e-09  1.00000000e+00 
 6.20000000e-01  1.58734195e-01  1.58734195e-01  1.58734195e-01  1.58734195e-01  1.58734195e-01  1.58734195e-01  1.58734195e-01  7.53975250e-11 -6.38718234e-09  1.00000000e+00 
 6.30000000e-01  1.68593854e-01  1.68593854e-01  1.68593854e-01  1.68593854e-01  1.68593854e-01  1.68593854e-01  1.68593854e-01  1.00738071e-10 -4.81682605e-09  1.00000000e+00 
 6.40000000e-01  1.78534228e-01  1.78534228e-01  1.78534228e-01  1.78534228e-01  1.78534228e-01  1.78534228e-01  1.78534228e-01  1.34114400e-10 -3.63306185e-09  1.00000000e+00 
 6.50000000e-01  1.88499338e-01  1.88499338e-01  1.88499338e-01  1.88499338e-01  1.88499338e-01  1.88499338e-01  1.88499338e-01  1.77895101e-10 -2.74084755e-09  1.00000000e+00 
 6.60000000e-01  1.98421675e-01  1.98421675e-01  1.98421675e-01  1.98421675e-01  1.98421675e-01  1.98421675e-01  1.98421675e-01  2.35013953e-10 -2.06870254e-09  1.00000000e+00 
 6.70000000e-01  2.08262696e-01  2.08262696e-01  2.08262696e-01  2.08262696e-01  2.08262696e-01  2.08262696e-01  2.08262696e-01  3.09031981e-10 -1.56273927e-09  1.00000000e+00 
 6.80000000e-01  2.17997098e-01  2.17997098e-01  2.17997098e-01  2.17997098e-01  2.17997098e-01  2.17997098e-01  2.17997098e-01  4.04402900e-10 -1.18214416e-09  1.00000000e+00 
 6.90000000e-01  2.27586061e-01  2.27586061e-01  2.27586061e-01  2.27586061e-01  2.27586061e-01  2.27586061e-01  2.27586061e-01  5.26341137e-10 -8.96420715e-10  1.00000000e+00 
 7.00000000e-01  2.37009980e-01  2.37009980e-01  2.37009980e-01  2.37009980e-01  2.37009980e-01  2.37009980e-01  2.37009980e-01  6.81161683e-10 -6.82064183e-10  1.00000000e+00 
 7.10000000e-01  2.46258541e-01  2.46258541e-01  2.46258541e-01  2.46258541e-01  2.46258541e-01  2.46258542e-01  2.46258541e-01  8.76336725e-10 -5.22305754e-10  1.00000000e+00 
 7.20000000e-01  2.55311831e-01  2.55311831e-01  2.55311831e-01  2.55311831e-01  2.55311831e-01  2.55311831e-01  2.55311831e-01  1.12067378e-09 -4.03673539e-10  1.00000000e+00 
 7.30000000e-01  2.64168038e-01  2.64168038e-01  2.64168038e-01  2.64168038e-01  2.64168038e-01  2.64168038e-01  2.64168038e-01  1.42431228e-09 -3.16646265e-10  1.00000000e+00 
 7.40000000e-01  2.72820734e-01  2.72820734e-01  2.72820734e-01  2.72820734e-01  2.72820734e-01  2.72820734e-01  2.72820734e-01  1.79906545e-09 -2.53692178e-10  1.00000000e+00 
 7.50000000e-01  2.81271724e-01  2.81271724e-01  2.81271724e-01  2.81271724e-01  2.81271724e-01  2.81271724e-01  2.81271724e-01  2.25843722e-09 -2.09809059e-10  1.00000000e+00 
 7.60000000e-01  2.89522192e-01  2.89522192e-01  2.89522192e-01  2.89522192e-01  2.89522192e-01  2.89522192e-01  2.89522192e-01  2.81812840e-09 -1.80676807e-10  1.00000000e+00 
 7.70000000e-01  2.97581101e-01  2.97581101e-01  2.97581101e-01  2.97581101e-01  2.97581101e-01  2.97581101e-01  2.97581101e-01  3.49602391e-09 -1.63396408e-10  1.00000000e+00 
 7.80000000e-01  3.05456439e-01  3.05456439e-01  3.05456439e-01  3.05456439e-01  3.05456439e-01  3.05456439e-01  3.05456439e-01  4.31277303e-09 -1.56063606e-10  1.00000000e+00 
 7.90000000e-01  3.13159193e-01  3.13159193e-01  3.13159193e-01  3.13159193e-01  3.13159193e-01  3.13159193e-01  3.13159193e-01  5.29241584e-09 -1.56887836e-10  1.00000000e+00 
 8.00000000e-01  3.20701264e-01  3.20701264e-01  3.20701264e-01  3.20701264e-01  3.20701264e-01  3.20701264e-01  3.20701264e-01  6.46246523e-09 -1.64249059e-10  1.00000000e+00 
 8.10000000e-01  3.28096607e-01  3.28096607e-01  3.28096607e-01  3.28096607e-01  3.28096607e-01  3.28096607e-01  3.28096607e-01  7.85513388e-09 -1.75020887e-10  1.00000000e+00 
 8.20000000e-01  3.35359351e-01  3.35359351e-01  3.35359351e-01  3.35359351e-01  3.35359351e-01  3.35359351e-01  3.35359351e-01  9.50762580e-09 -1.80847337e-10  1.00000000e+00 
 8.30000000e-01  3.42503069e-01  3.42503069e-01  3.42503069e-01  3.42503069e-01  3.42503069e-01  3.42503069e-01  3.42503069e-01  1.14635053e-08 -1.73116632e-10  1.00000000e+00 
 8.40000000e-01  3.49541151e-01  3.49541151e-01  3.49541151e-01  3.49541151e-01  3.49541151e-01  3.49541151e-01  3.49541151e-01  1.37730494e-08 -1.52425628e-10  1.00000000e+00 
 8.50000000e-01  3.56486017e-01  3.56486017e-01  3.56486017e-01  3.56486017e-01  3.56486017e-01  3.56486017e-01  3.56486017e-01  1.64950968e-08 -1.26135546e-10  1.00000000e+00 
 8.60000000e-01  3.63348486e-01  3.63348486e-01  3.63348486e-01  3.63348486e-01  3.63348486e-01  3.63348486e-01  3.63348486e-01  1.96971923e-08 -1.00271791e-10  1.00000000e+00 
 8.70000000e-01  3.70137277e-01  3.70137277e-01  3.70137278e-01  3.70137277e-01  3.70137277e-01  3.70137278e-01  3.70137277e-01  2.34573472e-08 -7.77333753e-11  1.00000000e+00 
 8.80000000e-01  3.76858502e-01  3.76858502e-01  3.76858502e-01  3.76858502e-01  3.76858502e-01  3.76858502e-01  3.76858502e-01  2.78637327e-08 -5.95434813e-11  1.00000000e+00 
 8.90000000e-01  3.83514470e-01  3.83514470e-01  3.83514470e-01  3.83514470e-01  3.83514470e-01  3.83514470e-01  3.83514470e-01  3.30149543e-08 -4.50768312e-11  1.00000000e+00 
 9.00000000e-01  3.90102595e-01  3.90102595e-01  3.90102595e-01  3.90102595e-01  3.90102595e-01  3.90102595e-01  3.90102595e-01  3.90180279e-08 -3.39355211e-11  1.00000000e+00 
 9.10000000e-01  3.96614053e-01  3.96614053e-01  3.96614053e-01  3.96614053e-01  3.96614053e-01  3.96614053e-01  3.96614053e-01  4.59840468e-08 -2.54090082e-11  1.00000000e+00 
 9.20000000e-01  4.03031457e-01  4.03031457e-01  4.03031457e-01  4.03031457e-01  4.03031457e-01  4.03031457e-01  4.03031457e-01  5.40195906e-08 -1.89857019e-11  1.00000000e+00 
 9.30000000e-01  4.09326067e-01  4.09326067e-01  4.09326068e-01  4.09326067e-01  4.09326067e-01  4.09326068e-01  4.09326067e-01  6.32118144e-08 -1.40687462e-11  1.00000000e+00 
 9.40000000e-01  4.15455308e-01  4.15455308e-01  4.15455308e-01  4.15455308e-01  4.15455308e-01  4.15455308e-01  4.15455308e-01  7.36045997e-08 -1.04307674e-11  1.00000000e+00 
 9.50000000e-01  4.21360360e-01  4.21360360e-01  4.21360360e-01  4.21360360e-01  4.21360360e-01  4.21360360e-01  4.21360360e-01  8.51658122e-08 -7.70228326e-12  1.00000000e+00 
 9.60000000e-01  4.26965315e-01  4.26965315e-01  4.26965315e-01  4.26965315e-01  4.26965315e-01  4.26965315e-01  4.26965315e-01  9.77473533e-08 -5.57065505e-12  1.00000000e+00 
 9.70000000e-01  4.32178271e-01  4.32178271e-01  4.32178271e-01  4.32178271e-01  4.32178271e-01  4.32178271e-01  4.32178271e-01  1.11043988e-07 -3.97903932e-12  1.00000000e+00 
 9.80000000e-01  4.36891968e-01  4.36891968e-01  4.36891968e-01  4.36891968e-01  4.36891968e-01  4.36891968e-01  4.36891968e-01  1.24553857e-07 -2.70006240e-12  1.00000000e+00 
 9.90000000e-01  4.40979732e-01  4.40979732e-01  4.40979732e-01  4.40979732e-01  4.40979732e-01  4.40979732e-01  4.40979732e-01  1.37538088e-07 -1.73372428e-12  1.00000000e+00 
 1.00000000e+00  4.44276007e-01  4.44276007e-01  4.44276007e-01  4.44276007e-01  4.44276007e-01  4.44276008e-01  4.44276007e-01  1.48970329e-07 -9.94759830e-13  1.00000000e+00 
 1.01000000e+00  4.46676165e-01  4.46676165e-01  4.46676165e-01  4.46676165e-01  4.46676165e-01  4.46676165e-01  4.46676165e-01  1.57851950e-07 -3.69482223e-13  1.00000000e+00 
 1.02000000e+00  4.48156284e-01  4.48156284e-01  4.48156284e-01  4.48156284e-01  4.48156284e-01  4.48156284e-01  4.48156284e-01  1.63580708e-07  3.12638804e-13  1.00000000e+00 
 1.03000000e+00  4.48919554e-01  4.48919554e-01  4.48919554e-01  4.48919554e-01  4.48919553e-01  4.48919554e-01  4.48919553e-01  1.66612885e-07  1.02318154e-12  1.00000000e+00 
 1.04000000e+00  4.49273285e-01  4.49273285e-01  4.49273285e-01  4.49273285e-01  4.49273284e-01  4.49273285e-01  4.49273285e-01  1.68028272e-07  1.73372428e-12  1.00000000e+00 
 1.05000000e+00  4.49423624e-01  4.49423624e-01  4.49423624e-01  4.49423624e-01  4.49423624e-01  4.49423624e-01  4.49423624e-01  1.68642735e-07  2.70006240e-12  1.00000000e+00 
 1.06000000e+00  4.49493663e-01  4.49493663e-01  4.49493663e-01  4.49493663e-01  4.49493663e-01  4.49493663e-01  4.49493663e-01  1.68928551e-07  3.95061761e-12  1.00000000e+00 
 1.07000000e+00  4.49528683e-01  4.49528683e-01  4.49528683e-01  4.49528683e-01  4.49528683e-01  4.49528683e-01  4.49528683e-01  1.69071079e-07  5.57065505e-12  1.00000000e+00 
 1.08000000e+00  4.49547496e-01  4.49547496e-01  4.49547496e-01  4.49547496e-01  4.49547496e-01  4.49547496e-01  4.49547496e-01  1.69147455e-07  7.75912667e-12  1.00000000e+00 
 1.09000000e+00  4.49558260e-01  4.49558260e-01  4.49558260e-01  4.49558260e-01  4.49558260e-01  4.49558260e-01  4.49558260e-01  1.69191260e-07  1.05160325e-11  1.00000000e+00 
 1.10000000e+00  4.49564947e-01  4.49564947e-01  4.49564947e-01  4.49564947e-01  4.49564947e-01  4.49564947e-01  4.49564947e-01  1.69218225e-07  1.42961198e-11  1.00000000e+00 
