 v-sweep         v(b0)           v(b1)           v(b2)           v(b3)           v(b4)           v(b5)           v(b6)           i(vbias)        i(viout)        v(vout)        
 0.00000000e+00 -1.55179320e-22 -1.55179318e-22 -1.55179320e-22 -1.55179320e-22 -1.55179320e-22 -1.55179320e-22  3.53591348e-21  2.00626754e-46 -5.07227734e-03  1.00000000e+00 
 1.00000000e-02  1.89870921e-03  1.89870921e-03  1.89870921e-03  1.89870921e-03  1.89870921e-03  1.89870921e-03  1.48898681e-03  1.22026194e-14 -4.63551496e-03  1.00000000e+00 
 2.00000000e-02  3.76885965e-03  3.76885964e-03  3.76885964e-03  3.76885964e-03  3.76885965e-03  3.76885964e-03  2.54049580e-03  2.37423498e-14 -4.21194339e-03  1.00000000e+00 
 3.00000000e-02  5.60470935e-03  5.60470934e-03  5.60470934e-03  5.60470934e-03  5.60470935e-03  5.60470934e-03  3.17742892e-03  3.47922722e-14 -3.80285379e-03  1.00000000e+00 
 4.00000000e-02  7.42887869e-03  7.42887868e-03  7.42887868e-03  7.42887868e-03  7.42887869e-03  7.42887868e-03  3.46621437e-03  4.54501993e-14 -3.40964433e-03  1.00000000e+00 
 5.00000000e-02  9.23458630e-03  9.23458629e-03  9.23458629e-03  9.23458629e-03  9.23458630e-03  9.23458629e-03  3.48224952e-03  5.58423246e-14 -3.03382656e-03  1.00000000e+00 
 6.00000000e-02  1.10299379e-02  1.10299378e-02  1.10299378e-02  1.10299378e-02  1.10299379e-02  1.10299378e-02  3.31001717e-03  6.59940124e-14 -2.67701612e-03  1.00000000e+00 
 7.00000000e-02  1.28235782e-02  1.28235782e-02  1.28235782e-02  1.28235782e-02  1.28235782e-02  1.28235782e-02  3.02339016e-03  7.60406168e-14 -2.34086565e-03  1.00000000e+00 
 8.00000000e-02  1.45977647e-02  1.45977646e-02  1.45977647e-02  1.45977646e-02  1.45977647e-02  1.45977647e-02  2.68007908e-03  8.59063610e-14 -2.02702335e-03  1.00000000e+00 
 9.00000000e-02  1.63763790e-02  1.63763789e-02  1.63763790e-02  1.63763789e-02  1.63763790e-02  1.63763790e-02  2.32219146e-03  9.57144986e-14 -1.73698901e-03  1.00000000e+00 
 1.00000000e-01  1.81483103e-02  1.81483103e-02  1.81483103e-02  1.81483103e-02  1.81483103e-02  1.81483103e-02  1.97678717e-03  1.05449654e-13 -1.47226896e-03  1.00000000e+00 
 1.10000000e-01  1.99286436e-02  1.99286436e-02  1.99286436e-02  1.99286436e-02  1.99286436e-02  1.99286436e-02  1.65966971e-03  1.15093988e-13 -1.23371133e-03  1.00000000e+00 
 1.20000000e-01  2.16863058e-02  2.16863058e-02  2.16863058e-02  2.16863058e-02  2.16863058e-02  2.16863058e-02  1.37780130e-03  1.24738539e-13 -1.02191949e-03  1.00000000e+00 
 1.30000000e-01  2.34591913e-02  2.34591913e-02  2.34591913e-02  2.34591913e-02  2.34591913e-02  2.34591913e-02  1.13381647e-03  1.34410464e-13 -8.36846047e-04  1.00000000e+00 
 1.40000000e-01  2.52039779e-02  2.52039779e-02  2.52039779e-02  2.52039779e-02  2.52039779e-02  2.52039779e-02  9.26125356e-04  1.43953005e-13 -6.77757810e-04  1.00000000e+00 
 1.50000000e-01  2.69688086e-02  2.69688085e-02  2.69688085e-02  2.69688085e-02  2.69688086e-02  2.69688086e-02  7.52064086e-04  1.53536568e-13 -5.43287469e-04  1.00000000e+00 
 1.60000000e-01  2.87109924e-02  2.87109923e-02  2.87109924e-02  2.87109924e-02  2.87109924e-02  2.87109924e-02  6.07626389e-04  1.63111210e-13 -4.31485830e-04  1.00000000e+00 
 1.70000000e-01  3.04374069e-02  3.04374068e-02  3.04374069e-02  3.04374068e-02  3.04374069e-02  3.04374069e-02  4.88860037e-04  1.72681036e-13 -3.39923822e-04  1.00000000e+00 
 1.80000000e-01  3.21555448e-02  3.21555448e-02  3.21555448e-02  3.21555448e-02  3.21555448e-02  3.21555448e-02  3.91914993e-04  1.82249762e-13 -2.66046529e-04  1.00000000e+00 
 1.90000000e-01  3.38639175e-02  3.38639175e-02  3.38639175e-02  3.38639175e-02  3.38639175e-02  3.38639175e-02  3.13242493e-04  1.91830845e-13 -2.07126313e-04  1.00000000e+00 
 2.00000000e-01  3.55596628e-02  3.55596628e-02  3.55596628e-02  3.55596628e-02  3.55596629e-02  3.55596628e-02  2.49709450e-04  2.01409088e-13 -1.60618690e-04  1.00000000e+00 
 2.10000000e-01  3.72352370e-02  3.72352370e-02  3.72352370e-02  3.72352370e-02  3.72352370e-02  3.72352370e-02  1.98610437e-04  2.10912039e-13 -1.24226784e-04  1.00000000e+00 
 2.20000000e-01  3.88498820e-02  3.88498820e-02  3.88498820e-02  3.88498820e-02  3.88498820e-02  3.88498820e-02  1.57644300e-04  2.20513986e-13 -9.59240692e-05  1.00000000e+00 
 2.30000000e-01  4.04903164e-02  4.04903163e-02  4.04903163e-02  4.04903163e-02  4.04903164e-02  4.04903163e-02  1.24927707e-04  2.30234150e-13 -7.40118416e-05  1.00000000e+00 
 2.40000000e-01  4.20989169e-02  4.20989168e-02  4.20989169e-02  4.20989168e-02  4.20989169e-02  4.20989169e-02  9.88529341e-05  2.39897557e-13 -5.70895524e-05  1.00000000e+00 
 2.50000000e-01  4.36538676e-02  4.36538675e-02  4.36538675e-02  4.36538675e-02  4.36538676e-02  4.36538675e-02  7.81176699e-05  2.49607369e-13 -4.40803036e-05  1.00000000e+00 
 2.60000000e-01  4.52458117e-02  4.52458116e-02  4.52458116e-02  4.52458116e-02  4.52458117e-02  4.52458116e-02  6.16698695e-05  2.59381218e-13 -3.40426280e-05  1.00000000e+00 
 2.70000000e-01  4.67637055e-02  4.67637054e-02  4.67637054e-02  4.67637054e-02  4.67637055e-02  4.67637054e-02  4.86371925e-05  2.69133057e-13 -2.63276317e-05  1.00000000e+00 
 2.80000000e-01  4.82090385e-02  4.82090384e-02  4.82090385e-02  4.82090384e-02  4.82090385e-02  4.82090385e-02  3.83282573e-05  2.79109960e-13 -2.03997497e-05  1.00000000e+00 
 2.90000000e-01  4.96947083e-02  4.96947083e-02  4.96947083e-02  4.96947083e-02  4.96947083e-02  4.96947083e-02  3.01882254e-05  2.89490423e-13 -1.58163918e-05  1.00000000e+00 
 3.00000000e-01  5.11408970e-02  5.11408970e-02  5.11408970e-02  5.11408970e-02  5.11408970e-02  5.11408970e-02  2.37658599e-05  2.99621178e-13 -1.22814576e-05  1.00000000e+00 
 3.10000000e-01  5.25523176e-02  5.25523176e-02  5.25523176e-02  5.25523176e-02  5.25523177e-02  5.25523176e-02  1.87040172e-05  3.10298225e-13 -9.56196141e-06  1.00000000e+00 
 3.20000000e-01  5.39408277e-02  5.39408277e-02  5.39408277e-02  5.39408277e-02  5.39408277e-02  5.39408277e-02  1.47180969e-05  3.21267572e-13 -7.43572787e-06  1.00000000e+00 
 3.30000000e-01  5.52982848e-02  5.52982848e-02  5.52982848e-02  5.52982848e-02  5.52982848e-02  5.52982848e-02  1.15815972e-05  3.32943247e-13 -5.78926611e-06  1.00000000e+00 
 3.40000000e-01  5.66228782e-02  5.66228781e-02  5.66228781e-02  5.66228781e-02  5.66228782e-02  5.66228781e-02  9.11495321e-06  3.45271622e-13 -4.52692876e-06  1.00000000e+00 
 3.50000000e-01  5.79746495e-02  5.79746495e-02  5.79746495e-02  5.79746495e-02  5.79746495e-02  5.79746495e-02  7.17623621e-06  3.58644223e-13 -3.54009725e-06  1.00000000e+00 
 3.60000000e-01  5.92605081e-02  5.92605080e-02  5.92605081e-02  5.92605080e-02  5.92605081e-02  5.92605081e-02  5.65261995e-06  3.73508031e-13 -2.77892295e-06  1.00000000e+00 
 3.70000000e-01  6.05392442e-02  6.05392442e-02  6.05392442e-02  6.05392442e-02  6.05392442e-02  6.05392442e-02  4.45562863e-06  3.90298444e-13 -2.17770003e-06  1.00000000e+00 
 3.80000000e-01  6.17970464e-02  6.17970463e-02  6.17970464e-02  6.17970463e-02  6.17970464e-02  6.17970464e-02  3.51525840e-06  4.09773869e-13 -1.71356410e-06  1.00000000e+00 
 3.90000000e-01  6.30373244e-02  6.30373244e-02  6.30373244e-02  6.30373244e-02  6.30373244e-02  6.30373244e-02  2.77643796e-06  4.32887196e-13 -1.34930235e-06  1.00000000e+00 
 4.00000000e-01  6.43231794e-02  6.43231794e-02  6.43231794e-02  6.43231794e-02  6.43231794e-02  6.43231794e-02  2.19588545e-06  4.60761027e-13 -1.06062990e-06  1.00000000e+00 
 4.10000000e-01  6.56234502e-02  6.56234502e-02  6.56234502e-02  6.56234502e-02  6.56234503e-02  6.56234502e-02  1.73948371e-06  4.95831417e-13 -8.36980348e-07  1.00000000e+00 
 4.20000000e-01  6.68855632e-02  6.68855631e-02  6.68855632e-02  6.68855631e-02  6.68855632e-02  6.68855632e-02  1.38045746e-06  5.39630444e-13 -6.58264696e-07  1.00000000e+00 
 4.30000000e-01  6.82352604e-02  6.82352604e-02  6.82352604e-02  6.82352604e-02  6.82352604e-02  6.82352604e-02  1.09787308e-06  5.96264486e-13 -5.21065203e-07  1.00000000e+00 
 4.40000000e-01  6.96102817e-02  6.96102816e-02  6.96102816e-02  6.96102816e-02  6.96102817e-02  6.96102816e-02  8.75226787e-07  6.69447882e-13 -4.13587657e-07  1.00000000e+00 
 4.50000000e-01  7.10857471e-02  7.10857471e-02  7.10857471e-02  7.10857471e-02  7.10857471e-02  7.10857471e-02  6.99623496e-07  7.66125580e-13 -3.28625987e-07  1.00000000e+00 
 4.60000000e-01  7.26712419e-02  7.26712418e-02  7.26712418e-02  7.26712418e-02  7.26712419e-02  7.26712418e-02  5.60937783e-07  8.93498878e-13 -2.62226109e-07  1.00000000e+00 
 4.70000000e-01  7.43974883e-02  7.43974882e-02  7.43974883e-02  7.43974882e-02  7.43974883e-02  7.43974883e-02  4.51240674e-07  1.06409049e-12 -2.11038838e-07  1.00000000e+00 
 4.80000000e-01  7.63756932e-02  7.63756932e-02  7.63756932e-02  7.63756932e-02  7.63756933e-02  7.63756932e-02  3.64326299e-07  1.29268056e-12 -1.70428194e-07  1.00000000e+00 
 4.90000000e-01  7.86046837e-02  7.86046836e-02  7.86046837e-02  7.86046836e-02  7.86046837e-02  7.86046837e-02  2.95322221e-07  1.60107799e-12 -1.37463303e-07  1.00000000e+00 
 5.00000000e-01  8.11823680e-02  8.11823679e-02  8.11823680e-02  8.11823679e-02  8.11823680e-02  8.11823680e-02  2.40418362e-07  2.01850697e-12 -1.10077593e-07  1.00000000e+00 
 5.10000000e-01  8.42153939e-02  8.42153939e-02  8.42153939e-02  8.42153939e-02  8.42153939e-02  8.42153939e-02  1.96627798e-07  2.58754902e-12 -8.67937331e-08  1.00000000e+00 
 5.20000000e-01  8.77969175e-02  8.77969175e-02  8.77969175e-02  8.77969175e-02  8.77969175e-02  8.77969175e-02  1.61608017e-07  3.36092420e-12 -6.77928540e-08  1.00000000e+00 
 5.30000000e-01  9.20450276e-02  9.20450276e-02  9.20450276e-02  9.20450276e-02  9.20450276e-02  9.20450276e-02  1.33522243e-07  4.41572768e-12 -5.24656798e-08  1.00000000e+00 
 5.40000000e-01  9.70127524e-02  9.70127524e-02  9.70127524e-02  9.70127524e-02  9.70127524e-02  9.70127524e-02  1.10927499e-07  5.85078736e-12 -4.02334024e-08  1.00000000e+00 
 5.50000000e-01  1.02734348e-01  1.02734348e-01  1.02734348e-01  1.02734348e-01  1.02734348e-01  1.02734348e-01  9.26910194e-08  7.80517176e-12 -3.06594359e-08  1.00000000e+00 
 5.60000000e-01  1.09238052e-01  1.09238052e-01  1.09238052e-01  1.09238052e-01  1.09238052e-01  1.09238052e-01  7.79218329e-08  1.04480975e-11 -2.32636808e-08  1.00000000e+00 
 5.70000000e-01  1.16501887e-01  1.16501887e-01  1.16501887e-01  1.16501887e-01  1.16501887e-01  1.16501887e-01  6.59179792e-08  1.40243532e-11 -1.76114838e-08  1.00000000e+00 
 5.80000000e-01  1.24470262e-01  1.24470262e-01  1.24470262e-01  1.24470262e-01  1.24470262e-01  1.24470262e-01  5.61254660e-08  1.88384662e-11 -1.33150309e-08  1.00000000e+00 
 5.90000000e-01  1.32979873e-01  1.32979873e-01  1.32979873e-01  1.32979873e-01  1.32979873e-01  1.32979873e-01  4.81058733e-08  2.53053945e-11 -1.00556576e-08  1.00000000e+00 
 6.00000000e-01  1.41951310e-01  1.41951310e-01  1.41951310e-01  1.41951310e-01  1.41951310e-01  1.41951310e-01  4.15120599e-08  3.39570993e-11 -7.58947749e-09  1.00000000e+00 
 6.10000000e-01  1.51313557e-01  1.51313557e-01  1.51313557e-01  1.51313557e-01  1.51313557e-01  1.51313557e-01  3.60680986e-08  4.55196254e-11 -5.72575232e-09  1.00000000e+00 
 6.20000000e-01  1.60944409e-01  1.60944409e-01  1.60944409e-01  1.60944409e-01  1.60944409e-01  1.60944409e-01  3.15540826e-08  6.09132441e-11 -4.31896297e-09  1.00000000e+00 
 6.30000000e-01  1.70750316e-01  1.70750316e-01  1.70750316e-01  1.70750316e-01  1.70750316e-01  1.70750316e-01  2.77944790e-08  8.13140579e-11 -3.25815108e-09  1.00000000e+00 
 6.40000000e-01  1.80652380e-01  1.80652380e-01  1.80652380e-01  1.80652380e-01  1.80652380e-01  1.80652380e-01  2.46488219e-08  1.08237445e-10 -2.45819365e-09  1.00000000e+00 
 6.50000000e-01  1.90588205e-01  1.90588205e-01  1.90588205e-01  1.90588205e-01  1.90588205e-01  1.90588205e-01  2.20044524e-08  1.43576663e-10 -1.85565341e-09  1.00000000e+00 
 6.60000000e-01  2.00501535e-01  2.00501535e-01  2.00501535e-01  2.00501535e-01  2.00501535e-01  2.00501535e-01  1.97707973e-08  1.89723676e-10 -1.40198608e-09  1.00000000e+00 
 6.70000000e-01  2.10355001e-01  2.10355001e-01  2.10355001e-01  2.10355001e-01  2.10355001e-01  2.10355001e-01  1.78748729e-08  2.49628021e-10 -1.06075504e-09  1.00000000e+00 
 6.80000000e-01  2.20102569e-01  2.20102569e-01  2.20102569e-01  2.20102569e-01  2.20102569e-01  2.20102569e-01  1.62577062e-08  3.26884381e-10 -8.04476485e-10  1.00000000e+00 
 6.90000000e-01  2.29721380e-01  2.29721380e-01  2.29721380e-01  2.29721380e-01  2.29721380e-01  2.29721380e-01  1.48715305e-08  4.25894688e-10 -6.12573103e-10  1.00000000e+00 
 7.00000000e-01  2.39184574e-01  2.39184574e-01  2.39184574e-01  2.39184574e-01  2.39184574e-01  2.39184574e-01  1.36775334e-08  5.51910545e-10 -4.69498218e-10  1.00000000e+00 
 7.10000000e-01  2.48476522e-01  2.48476522e-01  2.48476522e-01  2.48476522e-01  2.48476522e-01  2.48476522e-01  1.26440855e-08  7.11172017e-10 -3.63371555e-10  1.00000000e+00 
 7.20000000e-01  2.57583172e-01  2.57583171e-01  2.57583172e-01  2.57583171e-01  2.57583172e-01  2.57583172e-01  1.17453244e-08  9.11021737e-10 -2.85751867e-10  1.00000000e+00 
 7.30000000e-01  2.66497051e-01  2.66497051e-01  2.66497051e-01  2.66497051e-01  2.66497051e-01  2.66497051e-01  1.09600324e-08  1.16008179e-09 -2.30016894e-10  1.00000000e+00 
 7.40000000e-01  2.75215255e-01  2.75215255e-01  2.75215255e-01  2.75215255e-01  2.75215255e-01  2.75215255e-01  1.02707395e-08  1.46824737e-09 -1.91420213e-10  1.00000000e+00 
 7.50000000e-01  2.83733793e-01  2.83733793e-01  2.83733793e-01  2.83733793e-01  2.83733793e-01  2.83733793e-01  9.66300859e-09  1.84711223e-09 -1.66494374e-10  1.00000000e+00 
 7.60000000e-01  2.92056684e-01  2.92056684e-01  2.92056684e-01  2.92056684e-01  2.92056684e-01  2.92056684e-01  9.12486579e-09  2.30997046e-09 -1.52539315e-10  1.00000000e+00 
 7.70000000e-01  3.00189609e-01  3.00189609e-01  3.00189609e-01  3.00189609e-01  3.00189609e-01  3.00189609e-01  8.64634196e-09  2.87212754e-09 -1.48133950e-10  1.00000000e+00 
 7.80000000e-01  3.08141597e-01  3.08141597e-01  3.08141597e-01  3.08141597e-01  3.08141597e-01  3.08141597e-01  8.21910593e-09  3.55136559e-09 -1.51601398e-10  1.00000000e+00 
 7.90000000e-01  3.15922666e-01  3.15922666e-01  3.15922666e-01  3.15922666e-01  3.15922666e-01  3.15922666e-01  7.83616862e-09  4.36817371e-09 -1.62231117e-10  1.00000000e+00 
 8.00000000e-01  3.23545949e-01  3.23545949e-01  3.23545949e-01  3.23545949e-01  3.23545949e-01  3.23545949e-01  7.49164524e-09  5.34647093e-09 -1.78090431e-10  1.00000000e+00 
 8.10000000e-01  3.31025273e-01  3.31025273e-01  3.31025273e-01  3.31025273e-01  3.31025273e-01  3.31025273e-01  7.18056193e-09  6.51409987e-09 -1.94290806e-10  1.00000000e+00 
 8.20000000e-01  3.38375906e-01  3.38375906e-01  3.38375906e-01  3.38375906e-01  3.38375906e-01  3.38375906e-01  6.89869936e-09  7.90375160e-09 -1.99548822e-10  1.00000000e+00 
 8.30000000e-01  3.45613006e-01  3.45613006e-01  3.45613006e-01  3.45613006e-01  3.45613006e-01  3.45613006e-01  6.64246511e-09  9.55377699e-09 -1.87867499e-10  1.00000000e+00 
 8.40000000e-01  3.52752770e-01  3.52752770e-01  3.52752770e-01  3.52752770e-01  3.52752770e-01  3.52752770e-01  6.40878973e-09  1.15095009e-08 -1.63680625e-10  1.00000000e+00 
 8.50000000e-01  3.59810462e-01  3.59810462e-01  3.59810462e-01  3.59810462e-01  3.59810462e-01  3.59810462e-01  6.19504116e-09  1.38245111e-08 -1.34917855e-10  1.00000000e+00 
 8.60000000e-01  3.66801195e-01  3.66801195e-01  3.66801195e-01  3.66801195e-01  3.66801195e-01  3.66801195e-01  5.99895472e-09  1.65622644e-08 -1.07320375e-10  1.00000000e+00 
 8.70000000e-01  3.73739461e-01  3.73739461e-01  3.73739461e-01  3.73739461e-01  3.73739461e-01  3.73739461e-01  5.81857532e-09  1.97982108e-08 -8.35314040e-11  1.00000000e+00 
 8.80000000e-01  3.80638970e-01  3.80638970e-01  3.80638970e-01  3.80638970e-01  3.80638970e-01  3.80638970e-01  5.65220936e-09  2.36217863e-08 -6.40625331e-11  1.00000000e+00 
 8.90000000e-01  3.87512336e-01  3.87512336e-01  3.87512336e-01  3.87512336e-01  3.87512336e-01  3.87512336e-01  5.49838512e-09  2.81394921e-08 -4.86579665e-11  1.00000000e+00 
 9.00000000e-01  3.94370833e-01  3.94370833e-01  3.94370833e-01  3.94370833e-01  3.94370833e-01  3.94370833e-01  5.35581974e-09  3.34777341e-08 -3.66924269e-11  1.00000000e+00 
 9.10000000e-01  4.01224484e-01  4.01224484e-01  4.01224484e-01  4.01224484e-01  4.01224484e-01  4.01224484e-01  5.22339125e-09  3.97865021e-08 -2.75690581e-11  1.00000000e+00 
 9.20000000e-01  4.08081498e-01  4.08081498e-01  4.08081498e-01  4.08081498e-01  4.08081498e-01  4.08081498e-01  5.10011568e-09  4.72432409e-08 -2.06341610e-11  1.00000000e+00 
 9.30000000e-01  4.14948061e-01  4.14948061e-01  4.14948061e-01  4.14948061e-01  4.14948061e-01  4.14948061e-01  4.98512740e-09  5.60571296e-08 -1.53477231e-11  1.00000000e+00 
 9.40000000e-01  4.21827858e-01  4.21827858e-01  4.21827858e-01  4.21827858e-01  4.21827858e-01  4.21827858e-01  4.87766259e-09  6.64730506e-08 -1.13686838e-11  1.00000000e+00 
 9.50000000e-01  4.28721565e-01  4.28721565e-01  4.28721565e-01  4.28721565e-01  4.28721565e-01  4.28721565e-01  4.77704562e-09  7.87751375e-08 -8.38440428e-12  1.00000000e+00 
 9.60000000e-01  4.35626237e-01  4.35626237e-01  4.35626237e-01  4.35626237e-01  4.35626237e-01  4.35626237e-01  4.68267692e-09  9.32888238e-08 -6.02540240e-12  1.00000000e+00 
 9.70000000e-01  4.42534436e-01  4.42534436e-01  4.42534436e-01  4.42534436e-01  4.42534436e-01  4.42534436e-01  4.59402320e-09  1.10379660e-07 -4.32009983e-12  1.00000000e+00 
 9.80000000e-01  4.49433320e-01  4.49433320e-01  4.49433320e-01  4.49433320e-01  4.49433320e-01  4.49433320e-01  4.51060839e-09  1.30447446e-07 -2.89901436e-12  1.00000000e+00 
 9.90000000e-01  4.56303558e-01  4.56303558e-01  4.56303558e-01  4.56303558e-01  4.56303558e-01  4.56303558e-01  4.43200693e-09  1.53911607e-07 -1.87583282e-12  1.00000000e+00 
 1.00000000e+00  4.63118084e-01  4.63118084e-01  4.63118084e-01  4.63118084e-01  4.63118084e-01  4.63118084e-01  4.35783717e-09  1.81184639e-07 -1.02318154e-12  1.00000000e+00 
 1.01000000e+00  4.69840861e-01  4.69840861e-01  4.69840861e-01  4.69840861e-01  4.69840861e-01  4.69840861e-01  4.28775571e-09  2.12628077e-07 -3.69482223e-13  1.00000000e+00 
 1.02000000e+00  4.76425603e-01  4.76425603e-01  4.76425603e-01  4.76425603e-01  4.76425603e-01  4.76425603e-01  4.22145301e-09  2.48487138e-07  2.55795385e-13  1.00000000e+00 
 1.03000000e+00  4.82815361e-01  4.82815361e-01  4.82815361e-01  4.82815361e-01  4.82815361e-01  4.82815361e-01  4.15864950e-09  2.88804008e-07  7.67386155e-13  1.00000000e+00 
 1.04000000e+00  4.88943142e-01  4.88943141e-01  4.88943141e-01  4.88943141e-01  4.88943142e-01  4.88943141e-01  4.09909193e-09  3.33317512e-07  1.25055521e-12  1.00000000e+00 
 1.05000000e+00  4.94734699e-01  4.94734699e-01  4.94734699e-01  4.94734699e-01  4.94734700e-01  4.94734699e-01  4.04255033e-09  3.81371674e-07  1.81898940e-12  1.00000000e+00 
 1.06000000e+00  5.00113295e-01  5.00113295e-01  5.00113295e-01  5.00113295e-01  5.00113295e-01  5.00113295e-01  3.98881626e-09  4.31862002e-07  2.33058017e-12  1.00000000e+00 
 1.07000000e+00  5.05004298e-01  5.05004298e-01  5.05004298e-01  5.05004298e-01  5.05004298e-01  5.05004298e-01  3.93770001e-09  4.83235116e-07  2.78532752e-12  1.00000000e+00 
 1.08000000e+00  5.09336429e-01  5.09336429e-01  5.09336429e-01  5.09336429e-01  5.09336429e-01  5.09336429e-01  3.88902885e-09  5.33518591e-07  3.43902684e-12  1.00000000e+00 
 1.09000000e+00  5.13038558e-01  5.13038558e-01  5.13038558e-01  5.13038558e-01  5.13038558e-01  5.13038558e-01  3.84264527e-09  5.80355866e-07  3.97903932e-12  1.00000000e+00 
 1.10000000e+00  5.16039146e-01  5.16039146e-01  5.16039146e-01  5.16039146e-01  5.16039146e-01  5.16039146e-01  3.79840511e-09  6.21118346e-07  4.63273864e-12  1.00000000e+00 
