 v-sweep         v(b0)           v(b1)           v(b2)           v(b3)           v(b4)           v(b5)           v(b6)           i(vbias)        i(viout)        v(vout)        
 0.00000000e+00 -1.10073522e-19 -1.10073522e-19 -1.10073522e-19 -1.10073522e-19 -1.10073522e-19 -1.10073522e-19 -1.10073522e-19 -9.91844141e-30 -4.73855077e-03  1.00000000e+00 
 1.00000000e-02  2.76581873e-03  2.76581873e-03  2.76581873e-03  2.76581873e-03  2.76581873e-03  2.76581873e-03  2.76581873e-03  1.16512660e-14 -4.31170386e-03  1.00000000e+00 
 2.00000000e-02  5.46034498e-03  5.46034498e-03  5.46034498e-03  5.46034498e-03  5.46034498e-03  5.46034498e-03  5.46034498e-03  2.27727688e-14 -3.89904356e-03  1.00000000e+00 
 3.00000000e-02  8.09861466e-03  8.09861466e-03  8.09861466e-03  8.09861466e-03  8.09861466e-03  8.09861467e-03  8.09861466e-03  3.35034828e-14 -3.50192264e-03  1.00000000e+00 
 4.00000000e-02  1.06742656e-02  1.06742656e-02  1.06742656e-02  1.06742656e-02  1.06742656e-02  1.06742656e-02  1.06742656e-02  4.39187091e-14 -3.12183238e-03  1.00000000e+00 
 5.00000000e-02  1.31988999e-02  1.31988999e-02  1.31988999e-02  1.31988999e-02  1.31988999e-02  1.31988999e-02  1.31988999e-02  5.41275839e-14 -2.76035803e-03  1.00000000e+00 
 6.00000000e-02  1.56597729e-02  1.56597729e-02  1.56597729e-02  1.56597729e-02  1.56597729e-02  1.56597729e-02  1.56597729e-02  6.41418410e-14 -2.41915070e-03  1.00000000e+00 
 7.00000000e-02  1.80837097e-02  1.80837097e-02  1.80837097e-02  1.80837097e-02  1.80837097e-02  1.80837097e-02  1.80837097e-02  7.40404510e-14 -2.09986668e-03  1.00000000e+00 
 8.00000000e-02  2.04614877e-02  2.04614877e-02  2.04614877e-02  2.04614877e-02  2.04614877e-02  2.04614877e-02  2.04614877e-02  8.38430752e-14 -1.80408979e-03  1.00000000e+00 
 9.00000000e-02  2.27902420e-02  2.27902420e-02  2.27902420e-02  2.27902420e-02  2.27902420e-02  2.27902420e-02  2.27902420e-02  9.35525935e-14 -1.53321620e-03  1.00000000e+00 
 1.00000000e-01  2.50680404e-02  2.50680404e-02  2.50680404e-02  2.50680404e-02  2.50680404e-02  2.50680404e-02  2.50680404e-02  1.03250789e-13 -1.28837223e-03  1.00000000e+00 
 1.10000000e-01  2.73063497e-02  2.73063497e-02  2.73063497e-02  2.73063497e-02  2.73063497e-02  2.73063497e-02  2.73063497e-02  1.12913514e-13 -1.07020222e-03  1.00000000e+00 
 1.20000000e-01  2.95082630e-02  2.95082630e-02  2.95082630e-02  2.95082630e-02  2.95082630e-02  2.95082630e-02  2.95082630e-02  1.22495635e-13 -8.78817955e-04  1.00000000e+00 
 1.30000000e-01  3.16667658e-02  3.16667658e-02  3.16667658e-02  3.16667658e-02  3.16667658e-02  3.16667658e-02  3.16667658e-02  1.32052020e-13 -7.13647773e-04  1.00000000e+00 
 1.40000000e-01  3.37604123e-02  3.37604123e-02  3.37604123e-02  3.37604123e-02  3.37604123e-02  3.37604123e-02  3.37604123e-02  1.41588957e-13 -5.73482861e-04  1.00000000e+00 
 1.50000000e-01  3.58426847e-02  3.58426847e-02  3.58426847e-02  3.58426846e-02  3.58426847e-02  3.58426847e-02  3.58426847e-02  1.51179423e-13 -4.56468264e-04  1.00000000e+00 
 1.60000000e-01  3.78588797e-02  3.78588798e-02  3.78588797e-02  3.78588797e-02  3.78588798e-02  3.78588798e-02  3.78588798e-02  1.60696509e-13 -3.60353596e-04  1.00000000e+00 
 1.70000000e-01  3.98400173e-02  3.98400173e-02  3.98400173e-02  3.98400173e-02  3.98400173e-02  3.98400173e-02  3.98400173e-02  1.70322307e-13 -2.82500446e-04  1.00000000e+00 
 1.80000000e-01  4.17742790e-02  4.17742790e-02  4.17742790e-02  4.17742790e-02  4.17742790e-02  4.17742790e-02  4.17742790e-02  1.79875944e-13 -2.20268690e-04  1.00000000e+00 
 1.90000000e-01  4.36632969e-02  4.36632970e-02  4.36632969e-02  4.36632969e-02  4.36632970e-02  4.36632970e-02  4.36632970e-02  1.89349397e-13 -1.71039225e-04  1.00000000e+00 
 2.00000000e-01  4.55187097e-02  4.55187097e-02  4.55187097e-02  4.55187097e-02  4.55187097e-02  4.55187097e-02  4.55187097e-02  1.98954866e-13 -1.32439412e-04  1.00000000e+00 
 2.10000000e-01  4.73266869e-02  4.73266870e-02  4.73266869e-02  4.73266869e-02  4.73266870e-02  4.73266870e-02  4.73266870e-02  2.08484244e-13 -1.02376004e-04  1.00000000e+00 
 2.20000000e-01  4.90713511e-02  4.90713511e-02  4.90713511e-02  4.90713511e-02  4.90713511e-02  4.90713511e-02  4.90713511e-02  2.18027690e-13 -7.90580153e-05  1.00000000e+00 
 2.30000000e-01  5.07665521e-02  5.07665521e-02  5.07665521e-02  5.07665521e-02  5.07665521e-02  5.07665521e-02  5.07665521e-02  2.27694471e-13 -6.10660256e-05  1.00000000e+00 
 2.40000000e-01  5.24589523e-02  5.24589523e-02  5.24589523e-02  5.24589523e-02  5.24589523e-02  5.24589523e-02  5.24589523e-02  2.37298814e-13 -4.71832590e-05  1.00000000e+00 
 2.50000000e-01  5.40807980e-02  5.40807980e-02  5.40807980e-02  5.40807980e-02  5.40807980e-02  5.40807980e-02  5.40807980e-02  2.47058802e-13 -3.64941351e-05  1.00000000e+00 
 2.60000000e-01  5.56735091e-02  5.56735091e-02  5.56735091e-02  5.56735091e-02  5.56735091e-02  5.56735091e-02  5.56735091e-02  2.56833136e-13 -2.82740028e-05  1.00000000e+00 
 2.70000000e-01  5.72087975e-02  5.72087976e-02  5.72087975e-02  5.72087975e-02  5.72087976e-02  5.72087976e-02  5.72087976e-02  2.66640083e-13 -2.19149066e-05  1.00000000e+00 
 2.80000000e-01  5.87193637e-02  5.87193637e-02  5.87193637e-02  5.87193637e-02  5.87193637e-02  5.87193637e-02  5.87193637e-02  2.76570325e-13 -1.70252085e-05  1.00000000e+00 
 2.90000000e-01  6.01894246e-02  6.01894246e-02  6.01894245e-02  6.01894245e-02  6.01894246e-02  6.01894246e-02  6.01894246e-02  2.86670657e-13 -1.32482831e-05  1.00000000e+00 
 3.00000000e-01  6.16267783e-02  6.16267783e-02  6.16267783e-02  6.16267783e-02  6.16267783e-02  6.16267783e-02  6.16267783e-02  2.97130823e-13 -1.03260914e-05  1.00000000e+00 
 3.10000000e-01  6.30428195e-02  6.30428195e-02  6.30428195e-02  6.30428195e-02  6.30428195e-02  6.30428195e-02  6.30428195e-02  3.07864194e-13 -8.06128190e-06  1.00000000e+00 
 3.20000000e-01  6.44220103e-02  6.44220103e-02  6.44220103e-02  6.44220103e-02  6.44220103e-02  6.44220103e-02  6.44220103e-02  3.18893979e-13 -6.30489771e-06  1.00000000e+00 
 3.30000000e-01  6.57430788e-02  6.57430788e-02  6.57430787e-02  6.57430787e-02  6.57430788e-02  6.57430788e-02  6.57430788e-02  3.30534211e-13 -4.94058175e-06  1.00000000e+00 
 3.40000000e-01  6.70566443e-02  6.70566443e-02  6.70566443e-02  6.70566443e-02  6.70566443e-02  6.70566443e-02  6.70566443e-02  3.42984369e-13 -3.86583491e-06  1.00000000e+00 
 3.50000000e-01  6.83712378e-02  6.83712378e-02  6.83712378e-02  6.83712378e-02  6.83712378e-02  6.83712378e-02  6.83712378e-02  3.56756955e-13 -3.03669280e-06  1.00000000e+00 
 3.60000000e-01  6.96385965e-02  6.96385965e-02  6.96385965e-02  6.96385965e-02  6.96385965e-02  6.96385965e-02  6.96385965e-02  3.71879990e-13 -2.38695209e-06  1.00000000e+00 
 3.70000000e-01  7.08903762e-02  7.08903762e-02  7.08903762e-02  7.08903762e-02  7.08903762e-02  7.08903762e-02  7.08903762e-02  3.88827290e-13 -1.88079788e-06  1.00000000e+00 
 3.80000000e-01  7.21080149e-02  7.21080149e-02  7.21080148e-02  7.21080148e-02  7.21080149e-02  7.21080149e-02  7.21080149e-02  4.08699767e-13 -1.47498777e-06  1.00000000e+00 
 3.90000000e-01  7.33486414e-02  7.33486414e-02  7.33486414e-02  7.33486414e-02  7.33486414e-02  7.33486414e-02  7.33486414e-02  4.32468650e-13 -1.16294704e-06  1.00000000e+00 
 4.00000000e-01  7.45771774e-02  7.45771774e-02  7.45771774e-02  7.45771774e-02  7.45771774e-02  7.45771775e-02  7.45771774e-02  4.61043841e-13 -9.14405760e-07  1.00000000e+00 
 4.10000000e-01  7.57640838e-02  7.57640838e-02  7.57640838e-02  7.57640838e-02  7.57640838e-02  7.57640839e-02  7.57640838e-02  4.97008413e-13 -7.21920784e-07  1.00000000e+00 
 4.20000000e-01  7.70412426e-02  7.70412426e-02  7.70412425e-02  7.70412425e-02  7.70412426e-02  7.70412426e-02  7.70412426e-02  5.41869081e-13 -5.70758232e-07  1.00000000e+00 
 4.30000000e-01  7.82987808e-02  7.82987808e-02  7.82987807e-02  7.82987807e-02  7.82987808e-02  7.82987808e-02  7.82987808e-02  6.00127031e-13 -4.51230477e-07  1.00000000e+00 
 4.40000000e-01  7.96383790e-02  7.96383790e-02  7.96383790e-02  7.96383790e-02  7.96383790e-02  7.96383790e-02  7.96383790e-02  6.75218602e-13 -3.58211111e-07  1.00000000e+00 
 4.50000000e-01  8.10285099e-02  8.10285099e-02  8.10285098e-02  8.10285098e-02  8.10285099e-02  8.10285099e-02  8.10285099e-02  7.74805350e-13 -2.84526138e-07  1.00000000e+00 
 4.60000000e-01  8.25408427e-02  8.25408427e-02  8.25408427e-02  8.25408427e-02  8.25408427e-02  8.25408428e-02  8.25408427e-02  9.06175444e-13 -2.27841184e-07  1.00000000e+00 
 4.70000000e-01  8.41733850e-02  8.41733850e-02  8.41733850e-02  8.41733850e-02  8.41733850e-02  8.41733850e-02  8.41733850e-02  1.08119533e-12 -1.83055036e-07  1.00000000e+00 
 4.80000000e-01  8.59824241e-02  8.59824241e-02  8.59824241e-02  8.59824241e-02  8.59824241e-02  8.59824241e-02  8.59824241e-02  1.31691037e-12 -1.47057648e-07  1.00000000e+00 
 4.90000000e-01  8.80603335e-02  8.80603335e-02  8.80603335e-02  8.80603335e-02  8.80603335e-02  8.80603335e-02  8.80603335e-02  1.63345682e-12 -1.17758518e-07  1.00000000e+00 
 5.00000000e-01  9.04506969e-02  9.04506969e-02  9.04506968e-02  9.04506968e-02  9.04506969e-02  9.04506969e-02  9.04506969e-02  2.06281005e-12 -9.30370163e-08  1.00000000e+00 
 5.10000000e-01  9.32292626e-02  9.32292626e-02  9.32292626e-02  9.32292626e-02  9.32292626e-02  9.32292627e-02  9.32292626e-02  2.64367835e-12 -7.26828802e-08  1.00000000e+00 
 5.20000000e-01  9.65137177e-02  9.65137177e-02  9.65137177e-02  9.65137177e-02  9.65137177e-02  9.65137177e-02  9.65137177e-02  3.43314017e-12 -5.61900180e-08  1.00000000e+00 
 5.30000000e-01  1.00370859e-01  1.00370859e-01  1.00370859e-01  1.00370859e-01  1.00370859e-01  1.00370859e-01  1.00370859e-01  4.50464286e-12 -4.31081304e-08  1.00000000e+00 
 5.40000000e-01  1.04885137e-01  1.04885137e-01  1.04885137e-01  1.04885137e-01  1.04885137e-01  1.04885137e-01  1.04885137e-01  5.95613055e-12 -3.28468275e-08  1.00000000e+00 
 5.50000000e-01  1.10136193e-01  1.10136193e-01  1.10136193e-01  1.10136193e-01  1.10136193e-01  1.10136193e-01  1.10136193e-01  7.92517701e-12 -2.49328878e-08  1.00000000e+00 
 5.60000000e-01  1.16169246e-01  1.16169246e-01  1.16169246e-01  1.16169246e-01  1.16169246e-01  1.16169246e-01  1.16169246e-01  1.05862161e-11 -1.88817779e-08  1.00000000e+00 
 5.70000000e-01  1.22908045e-01  1.22908045e-01  1.22908045e-01  1.22908045e-01  1.22908045e-01  1.22908045e-01  1.22908045e-01  1.41733431e-11 -1.42753862e-08  1.00000000e+00 
 5.80000000e-01  1.30375203e-01  1.30375203e-01  1.30375203e-01  1.30375203e-01  1.30375203e-01  1.30375204e-01  1.30375203e-01  1.90021653e-11 -1.07812355e-08  1.00000000e+00 
 5.90000000e-01  1.38448719e-01  1.38448719e-01  1.38448719e-01  1.38448719e-01  1.38448719e-01  1.38448719e-01  1.38448719e-01  2.54794449e-11 -8.13764700e-09  1.00000000e+00 
 6.00000000e-01  1.47061917e-01  1.47061917e-01  1.47061917e-01  1.47061917e-01  1.47061917e-01  1.47061917e-01  1.47061917e-01  3.41459638e-11 -6.13994189e-09  1.00000000e+00 
 6.10000000e-01  1.56119535e-01  1.56119535e-01  1.56119535e-01  1.56119535e-01  1.56119535e-01  1.56119535e-01  1.56119535e-01  4.57318246e-11 -4.63138861e-09  1.00000000e+00 
 6.20000000e-01  1.65504926e-01  1.65504926e-01  1.65504926e-01  1.65504926e-01  1.65504926e-01  1.65504926e-01  1.65504926e-01  6.11560889e-11 -3.49308493e-09  1.00000000e+00 
 6.30000000e-01  1.75122798e-01  1.75122798e-01  1.75122798e-01  1.75122798e-01  1.75122798e-01  1.75122798e-01  1.75122798e-01  8.16168192e-11 -2.63489142e-09  1.00000000e+00 
 6.40000000e-01  1.84901718e-01  1.84901718e-01  1.84901718e-01  1.84901718e-01  1.84901718e-01  1.84901718e-01  1.84901718e-01  1.08659026e-10 -1.98812700e-09  1.00000000e+00 
 6.50000000e-01  1.94756226e-01  1.94756226e-01  1.94756226e-01  1.94756226e-01  1.94756226e-01  1.94756226e-01  1.94756226e-01  1.44187183e-10 -1.50089363e-09  1.00000000e+00 
 6.60000000e-01  2.04625965e-01  2.04625965e-01  2.04625965e-01  2.04625965e-01  2.04625965e-01  2.04625965e-01  2.04625965e-01  1.90686238e-10 -1.13425358e-09  1.00000000e+00 
 6.70000000e-01  2.14465921e-01  2.14465921e-01  2.14465921e-01  2.14465921e-01  2.14465921e-01  2.14465921e-01  2.14465921e-01  2.51128340e-10 -8.58733529e-10  1.00000000e+00 
 6.80000000e-01  2.24230735e-01  2.24230735e-01  2.24230735e-01  2.24230735e-01  2.24230735e-01  2.24230735e-01  2.24230735e-01  3.29321376e-10 -6.51809273e-10  1.00000000e+00 
 6.90000000e-01  2.33886221e-01  2.33886221e-01  2.33886221e-01  2.33886221e-01  2.33886221e-01  2.33886221e-01  2.33886221e-01  4.29745017e-10 -4.97124120e-10  1.00000000e+00 
 7.00000000e-01  2.43409250e-01  2.43409250e-01  2.43409250e-01  2.43409250e-01  2.43409250e-01  2.43409250e-01  2.43409250e-01  5.57930535e-10 -3.81874088e-10  1.00000000e+00 
 7.10000000e-01  2.52775271e-01  2.52775271e-01  2.52775271e-01  2.52775271e-01  2.52775271e-01  2.52775271e-01  2.52775271e-01  7.20385113e-10 -2.96722646e-10  1.00000000e+00 
 7.20000000e-01  2.61970320e-01  2.61970320e-01  2.61970320e-01  2.61970320e-01  2.61970320e-01  2.61970320e-01  2.61970320e-01  9.24850529e-10 -2.34706476e-10  1.00000000e+00 
 7.30000000e-01  2.70981218e-01  2.70981218e-01  2.70981218e-01  2.70981218e-01  2.70981218e-01  2.70981218e-01  2.70981218e-01  1.18043195e-09 -1.90595983e-10  1.00000000e+00 
 7.40000000e-01  2.79800992e-01  2.79800992e-01  2.79800992e-01  2.79800992e-01  2.79800992e-01  2.79800992e-01  2.79800992e-01  1.49764651e-09 -1.60540026e-10  1.00000000e+00 
 7.50000000e-01  2.88426331e-01  2.88426331e-01  2.88426331e-01  2.88426331e-01  2.88426331e-01  2.88426331e-01  2.88426331e-01  1.88869731e-09 -1.41668011e-10  1.00000000e+00 
 7.60000000e-01  2.96855889e-01  2.96855889e-01  2.96855889e-01  2.96855889e-01  2.96855889e-01  2.96855889e-01  2.96855889e-01  2.36763575e-09 -1.32132527e-10  1.00000000e+00 
 7.70000000e-01  3.05093399e-01  3.05093399e-01  3.05093399e-01  3.05093399e-01  3.05093399e-01  3.05093399e-01  3.05093399e-01  2.95060798e-09 -1.30469857e-10  1.00000000e+00 
 7.80000000e-01  3.13144818e-01  3.13144818e-01  3.13144818e-01  3.13144818e-01  3.13144818e-01  3.13144818e-01  3.13144818e-01  3.65624875e-09 -1.35642608e-10  1.00000000e+00 
 7.90000000e-01  3.21018009e-01  3.21018009e-01  3.21018009e-01  3.21018009e-01  3.21018009e-01  3.21018009e-01  3.21018009e-01  4.50598292e-09 -1.46712864e-10  1.00000000e+00 
 8.00000000e-01  3.28723634e-01  3.28723634e-01  3.28723634e-01  3.28723634e-01  3.28723634e-01  3.28723634e-01  3.28723634e-01  5.52454515e-09 -1.61705316e-10  1.00000000e+00 
 8.10000000e-01  3.36273910e-01  3.36273910e-01  3.36273910e-01  3.36273910e-01  3.36273910e-01  3.36273910e-01  3.36273910e-01  6.74058942e-09 -1.74310344e-10  1.00000000e+00 
 8.20000000e-01  3.43681923e-01  3.43681923e-01  3.43681923e-01  3.43681923e-01  3.43681923e-01  3.43681923e-01  3.43681923e-01  8.18735924e-09 -1.74210868e-10  1.00000000e+00 
 8.30000000e-01  3.50960987e-01  3.50960987e-01  3.50960987e-01  3.50960987e-01  3.50960987e-01  3.50960987e-01  3.50960987e-01  9.90353044e-09 -1.59502633e-10  1.00000000e+00 
 8.40000000e-01  3.58124912e-01  3.58124912e-01  3.58124912e-01  3.58124912e-01  3.58124912e-01  3.58124912e-01  3.58124912e-01  1.19341013e-08 -1.35841560e-10  1.00000000e+00 
 8.50000000e-01  3.65186730e-01  3.65186730e-01  3.65186730e-01  3.65186730e-01  3.65186730e-01  3.65186730e-01  3.65186730e-01  1.43315071e-08 -1.10190967e-10  1.00000000e+00 
 8.60000000e-01  3.72158731e-01  3.72158731e-01  3.72158731e-01  3.72158731e-01  3.72158731e-01  3.72158731e-01  3.72158731e-01  1.71566232e-08 -8.67856897e-11  1.00000000e+00 
 8.70000000e-01  3.79051215e-01  3.79051215e-01  3.79051215e-01  3.79051215e-01  3.79051215e-01  3.79051215e-01  3.79051215e-01  2.04797677e-08 -6.71178668e-11  1.00000000e+00 
 8.80000000e-01  3.85872511e-01  3.85872511e-01  3.85872511e-01  3.85872511e-01  3.85872511e-01  3.85872511e-01  3.85872511e-01  2.43816904e-08 -5.13296072e-11  1.00000000e+00 
 8.90000000e-01  3.92627845e-01  3.92627845e-01  3.92627845e-01  3.92627845e-01  3.92627845e-01  3.92627845e-01  3.92627845e-01  2.89538731e-08 -3.89945853e-11  1.00000000e+00 
 9.00000000e-01  3.99318356e-01  3.99318356e-01  3.99318356e-01  3.99318356e-01  3.99318356e-01  3.99318356e-01  3.99318356e-01  3.42977362e-08 -2.94733127e-11  1.00000000e+00 
 9.10000000e-01  4.05939607e-01  4.05939607e-01  4.05939607e-01  4.05939607e-01  4.05939607e-01  4.05939608e-01  4.05939607e-01  4.05225169e-08 -2.22541985e-11  1.00000000e+00 
 9.20000000e-01  4.12479932e-01  4.12479932e-01  4.12479932e-01  4.12479932e-01  4.12479932e-01  4.12479932e-01  4.12479932e-01  4.77395101e-08 -1.67688086e-11  1.00000000e+00 
 9.30000000e-01  4.18917973e-01  4.18917973e-01  4.18917973e-01  4.18917973e-01  4.18917973e-01  4.18917973e-01  4.18917973e-01  5.60516629e-08 -1.25623956e-11  1.00000000e+00 
 9.40000000e-01  4.25220041e-01  4.25220041e-01  4.25220041e-01  4.25220041e-01  4.25220041e-01  4.25220041e-01  4.25220041e-01  6.55360264e-08 -9.46442924e-12  1.00000000e+00 
 9.50000000e-01  4.31337442e-01  4.31337442e-01  4.31337442e-01  4.31337442e-01  4.31337442e-01  4.31337442e-01  4.31337442e-01  7.62170487e-08 -7.00595137e-12  1.00000000e+00 
 9.60000000e-01  4.37204623e-01  4.37204623e-01  4.37204623e-01  4.37204623e-01  4.37204623e-01  4.37204623e-01  4.37204623e-01  8.80311610e-08 -5.10169684e-12  1.00000000e+00 
 9.70000000e-01  4.42739594e-01  4.42739594e-01  4.42739594e-01  4.42739594e-01  4.42739594e-01  4.42739594e-01  4.42739594e-01  1.00786096e-07 -3.66640052e-12  1.00000000e+00 
 9.80000000e-01  4.47845566e-01  4.47845566e-01  4.47845566e-01  4.47845566e-01  4.47845566e-01  4.47845566e-01  4.47845566e-01  1.14122706e-07 -2.54374299e-12  1.00000000e+00 
 9.90000000e-01  4.52411651e-01  4.52411651e-01  4.52411651e-01  4.52411651e-01  4.52411651e-01  4.52411651e-01  4.52411651e-01  1.27479510e-07 -1.69109171e-12  1.00000000e+00 
 1.00000000e+00  4.56295247e-01  4.56295247e-01  4.56295247e-01  4.56295247e-01  4.56295247e-01  4.56295247e-01  4.56295247e-01  1.40032732e-07 -9.23705556e-13  1.00000000e+00 
 1.01000000e+00  4.59379014e-01  4.59379014e-01  4.59379014e-01  4.59379014e-01  4.59379014e-01  4.59379014e-01  4.59379014e-01  1.50832996e-07 -2.84217094e-13  1.00000000e+00 
 1.02000000e+00  4.61548340e-01  4.61548341e-01  4.61548340e-01  4.61548340e-01  4.61548341e-01  4.61548341e-01  4.61548341e-01  1.58907859e-07  2.70006240e-13  1.00000000e+00 
 1.03000000e+00  4.62846599e-01  4.62846599e-01  4.62846599e-01  4.62846599e-01  4.62846599e-01  4.62846599e-01  4.62846599e-01  1.63938321e-07  8.38440428e-13  1.00000000e+00 
 1.04000000e+00  4.63519335e-01  4.63519335e-01  4.63519335e-01  4.63519335e-01  4.63519335e-01  4.63519335e-01  4.63519335e-01  1.66586840e-07  1.42108547e-12  1.00000000e+00 
 1.05000000e+00  4.63818088e-01  4.63818088e-01  4.63818088e-01  4.63818088e-01  4.63818088e-01  4.63818088e-01  4.63818088e-01  1.67796120e-07  2.17426077e-12  1.00000000e+00 
 1.06000000e+00  4.63954641e-01  4.63954641e-01  4.63954641e-01  4.63954641e-01  4.63954641e-01  4.63954641e-01  4.63954641e-01  1.68351534e-07  3.04112291e-12  1.00000000e+00 
 1.07000000e+00  4.64021009e-01  4.64021010e-01  4.64021009e-01  4.64021009e-01  4.64021010e-01  4.64021010e-01  4.64021010e-01  1.68620428e-07  4.19220214e-12  1.00000000e+00 
 1.08000000e+00  4.64055331e-01  4.64055331e-01  4.64055331e-01  4.64055331e-01  4.64055331e-01  4.64055331e-01  4.64055331e-01  1.68759222e-07  5.72697445e-12  1.00000000e+00 
 1.09000000e+00  4.64074297e-01  4.64074297e-01  4.64074296e-01  4.64074296e-01  4.64074297e-01  4.64074297e-01  4.64074297e-01  1.68835857e-07  7.67386155e-12  1.00000000e+00 
 1.10000000e+00  4.64085464e-01  4.64085464e-01  4.64085464e-01  4.64085464e-01  4.64085464e-01  4.64085464e-01  4.64085464e-01  1.68880952e-07  1.03170805e-11  1.00000000e+00 
