 v-sweep         v(b0)           v(b1)           v(b2)           v(b3)           v(b4)           v(b5)           v(b6)           i(vbias)        i(viout)        v(vout)        
 0.00000000e+00  1.05602785e-18  1.05602782e-18  1.05602788e-18  1.05602783e-18  1.05602787e-18  1.05602786e-18  1.69650888e-18  9.28509606e-30 -4.73875648e-03  1.00000000e+00 
 1.00000000e-02  1.96921400e-03  1.96921399e-03  1.96921399e-03  1.96921399e-03  1.96921399e-03  1.96921400e-03  2.13096455e-03  1.16571576e-14 -4.31187243e-03  1.00000000e+00 
 2.00000000e-02  3.90782930e-03  3.90782930e-03  3.90782930e-03  3.90782930e-03  3.90782930e-03  3.90782930e-03  3.88095595e-03  2.27836284e-14 -3.89918196e-03  1.00000000e+00 
 3.00000000e-02  5.81367227e-03  5.81367227e-03  5.81367226e-03  5.81367227e-03  5.81367226e-03  5.81367227e-03  5.17704252e-03  3.35081160e-14 -3.50204305e-03  1.00000000e+00 
 4.00000000e-02  7.69289352e-03  7.69289352e-03  7.69289350e-03  7.69289352e-03  7.69289351e-03  7.69289352e-03  6.00303544e-03  4.39408370e-14 -3.12194706e-03  1.00000000e+00 
 5.00000000e-02  9.55424652e-03  9.55424652e-03  9.55424650e-03  9.55424652e-03  9.55424651e-03  9.55424652e-03  6.37682311e-03  5.41365078e-14 -2.76047250e-03  1.00000000e+00 
 6.00000000e-02  1.13906991e-02  1.13906991e-02  1.13906991e-02  1.13906991e-02  1.13906991e-02  1.13906991e-02  6.36194067e-03  6.41686928e-14 -2.41927069e-03  1.00000000e+00 
 7.00000000e-02  1.32289242e-02  1.32289242e-02  1.32289241e-02  1.32289242e-02  1.32289242e-02  1.32289242e-02  6.05311191e-03  7.40568491e-14 -2.09999939e-03  1.00000000e+00 
 8.00000000e-02  1.50339362e-02  1.50339362e-02  1.50339362e-02  1.50339362e-02  1.50339362e-02  1.50339362e-02  5.54457256e-03  8.38857699e-14 -1.80417524e-03  1.00000000e+00 
 9.00000000e-02  1.68295795e-02  1.68295795e-02  1.68295795e-02  1.68295795e-02  1.68295795e-02  1.68295795e-02  4.92885833e-03  9.36023160e-14 -1.53338406e-03  1.00000000e+00 
 1.00000000e-01  1.86415050e-02  1.86415050e-02  1.86415049e-02  1.86415050e-02  1.86415050e-02  1.86415050e-02  4.27965630e-03  1.03262552e-13 -1.28850292e-03  1.00000000e+00 
 1.10000000e-01  2.04339697e-02  2.04339697e-02  2.04339697e-02  2.04339697e-02  2.04339697e-02  2.04339697e-02  3.64558163e-03  1.12928600e-13 -1.07041727e-03  1.00000000e+00 
 1.20000000e-01  2.22305828e-02  2.22305828e-02  2.22305828e-02  2.22305828e-02  2.22305828e-02  2.22305828e-02  3.05918420e-03  1.22543907e-13 -8.79014692e-04  1.00000000e+00 
 1.30000000e-01  2.40400484e-02  2.40400484e-02  2.40400484e-02  2.40400484e-02  2.40400484e-02  2.40400484e-02  2.53662048e-03  1.32099637e-13 -7.13913472e-04  1.00000000e+00 
 1.40000000e-01  2.58364505e-02  2.58364505e-02  2.58364505e-02  2.58364505e-02  2.58364505e-02  2.58364505e-02  2.08272430e-03  1.41648308e-13 -5.73745235e-04  1.00000000e+00 
 1.50000000e-01  2.76244190e-02  2.76244190e-02  2.76244189e-02  2.76244190e-02  2.76244190e-02  2.76244190e-02  1.69688047e-03  1.51170781e-13 -4.56808017e-04  1.00000000e+00 
 1.60000000e-01  2.94162883e-02  2.94162883e-02  2.94162883e-02  2.94162883e-02  2.94162883e-02  2.94162883e-02  1.37374861e-03  1.60763221e-13 -3.60717624e-04  1.00000000e+00 
 1.70000000e-01  3.12018326e-02  3.12018326e-02  3.12018326e-02  3.12018326e-02  3.12018326e-02  3.12018326e-02  1.10637786e-03  1.70353762e-13 -2.82898567e-04  1.00000000e+00 
 1.80000000e-01  3.29774129e-02  3.29774129e-02  3.29774128e-02  3.29774129e-02  3.29774128e-02  3.29774129e-02  8.87198213e-04  1.79944372e-13 -2.20684137e-04  1.00000000e+00 
 1.90000000e-01  3.47225233e-02  3.47225233e-02  3.47225233e-02  3.47225233e-02  3.47225233e-02  3.47225233e-02  7.08826243e-04  1.89414355e-13 -1.71485813e-04  1.00000000e+00 
 2.00000000e-01  3.64551335e-02  3.64551335e-02  3.64551335e-02  3.64551335e-02  3.64551335e-02  3.64551335e-02  5.64606153e-04  1.98984379e-13 -1.32912912e-04  1.00000000e+00 
 2.10000000e-01  3.81735327e-02  3.81735327e-02  3.81735327e-02  3.81735327e-02  3.81735327e-02  3.81735327e-02  4.48574241e-04  2.08520270e-13 -1.02859573e-04  1.00000000e+00 
 2.20000000e-01  3.98658055e-02  3.98658055e-02  3.98658054e-02  3.98658055e-02  3.98658055e-02  3.98658055e-02  3.55593845e-04  2.18107616e-13 -7.95874557e-05  1.00000000e+00 
 2.30000000e-01  4.15498646e-02  4.15498646e-02  4.15498646e-02  4.15498646e-02  4.15498646e-02  4.15498646e-02  2.81359184e-04  2.27778261e-13 -6.16006002e-05  1.00000000e+00 
 2.40000000e-01  4.32084738e-02  4.32084738e-02  4.32084738e-02  4.32084738e-02  4.32084738e-02  4.32084738e-02  2.22250214e-04  2.37382966e-13 -4.77249309e-05  1.00000000e+00 
 2.50000000e-01  4.48033878e-02  4.48033878e-02  4.48033877e-02  4.48033878e-02  4.48033877e-02  4.48033878e-02  1.75302236e-04  2.47084710e-13 -3.70353963e-05  1.00000000e+00 
 2.60000000e-01  4.64252682e-02  4.64252682e-02  4.64252682e-02  4.64252682e-02  4.64252682e-02  4.64252682e-02  1.38108977e-04  2.56846980e-13 -2.87883880e-05  1.00000000e+00 
 2.70000000e-01  4.79864318e-02  4.79864318e-02  4.79864317e-02  4.79864318e-02  4.79864318e-02  4.79864318e-02  1.08687181e-04  2.66657617e-13 -2.24102809e-05  1.00000000e+00 
 2.80000000e-01  4.95320298e-02  4.95320298e-02  4.95320297e-02  4.95320298e-02  4.95320298e-02  4.95320298e-02  8.54551818e-05  2.76651547e-13 -1.75033396e-05  1.00000000e+00 
 2.90000000e-01  5.10335772e-02  5.10335772e-02  5.10335772e-02  5.10335772e-02  5.10335772e-02  5.10335772e-02  6.71353311e-05  2.86736226e-13 -1.36838360e-05  1.00000000e+00 
 3.00000000e-01  5.24975469e-02  5.24975469e-02  5.24975469e-02  5.24975469e-02  5.24975469e-02  5.24975469e-02  5.27081413e-05  2.97120191e-13 -1.07252663e-05  1.00000000e+00 
 3.10000000e-01  5.39650541e-02  5.39650541e-02  5.39650540e-02  5.39650541e-02  5.39650540e-02  5.39650541e-02  4.13607099e-05  3.07907689e-13 -8.43051005e-06  1.00000000e+00 
 3.20000000e-01  5.53998984e-02  5.53998984e-02  5.53998983e-02  5.53998984e-02  5.53998983e-02  5.53998984e-02  3.24427905e-05  3.18914754e-13 -6.62843597e-06  1.00000000e+00 
 3.30000000e-01  5.67841234e-02  5.67841234e-02  5.67841234e-02  5.67841234e-02  5.67841234e-02  5.67841234e-02  2.54398112e-05  3.30721129e-13 -5.22818820e-06  1.00000000e+00 
 3.40000000e-01  5.81602459e-02  5.81602459e-02  5.81602459e-02  5.81602459e-02  5.81602459e-02  5.81602459e-02  1.99454400e-05  3.43121527e-13 -4.12672900e-06  1.00000000e+00 
 3.50000000e-01  5.95002942e-02  5.95002942e-02  5.95002942e-02  5.95002942e-02  5.95002942e-02  5.95002942e-02  1.56369264e-05  3.56591608e-13 -3.26250708e-06  1.00000000e+00 
 3.60000000e-01  6.08851362e-02  6.08851362e-02  6.08851361e-02  6.08851362e-02  6.08851361e-02  6.08851362e-02  1.22606075e-05  3.71566523e-13 -2.58119553e-06  1.00000000e+00 
 3.70000000e-01  6.21603499e-02  6.21603499e-02  6.21603499e-02  6.21603499e-02  6.21603499e-02  6.21603499e-02  9.61493489e-06  3.88590618e-13 -2.04264313e-06  1.00000000e+00 
 3.80000000e-01  6.34676835e-02  6.34676835e-02  6.34676834e-02  6.34676835e-02  6.34676835e-02  6.34676835e-02  7.54311508e-06  4.08228467e-13 -1.61514424e-06  1.00000000e+00 
 3.90000000e-01  6.47863957e-02  6.47863957e-02  6.47863957e-02  6.47863957e-02  6.47863957e-02  6.47863957e-02  5.92086714e-06  4.31756197e-13 -1.27676833e-06  1.00000000e+00 
 4.00000000e-01  6.60719417e-02  6.60719416e-02  6.60719416e-02  6.60719416e-02  6.60719416e-02  6.60719417e-02  4.65062392e-06  4.60272093e-13 -1.01256903e-06  1.00000000e+00 
 4.10000000e-01  6.73910012e-02  6.73910012e-02  6.73910011e-02  6.73910012e-02  6.73910012e-02  6.73910012e-02  3.65609571e-06  4.95610914e-13 -8.02876883e-07  1.00000000e+00 
 4.20000000e-01  6.87320736e-02  6.87320736e-02  6.87320735e-02  6.87320736e-02  6.87320735e-02  6.87320736e-02  2.87729182e-06  5.40106435e-13 -6.36030052e-07  1.00000000e+00 
 4.30000000e-01  7.00843405e-02  7.00843405e-02  7.00843404e-02  7.00843405e-02  7.00843405e-02  7.00843405e-02  2.26723326e-06  5.97529018e-13 -5.04145035e-07  1.00000000e+00 
 4.40000000e-01  7.15376435e-02  7.15376435e-02  7.15376435e-02  7.15376435e-02  7.15376435e-02  7.15376435e-02  1.78921434e-06  6.71776897e-13 -3.99922996e-07  1.00000000e+00 
 4.50000000e-01  7.30810486e-02  7.30810486e-02  7.30810486e-02  7.30810486e-02  7.30810486e-02  7.30810486e-02  1.41442772e-06  7.69597880e-13 -3.17232008e-07  1.00000000e+00 
 4.60000000e-01  7.47236575e-02  7.47236575e-02  7.47236574e-02  7.47236575e-02  7.47236575e-02  7.47236575e-02  1.12036571e-06  8.98749513e-13 -2.53228848e-07  1.00000000e+00 
 4.70000000e-01  7.65797781e-02  7.65797781e-02  7.65797780e-02  7.65797781e-02  7.65797781e-02  7.65797781e-02  8.89460494e-07  1.07135743e-12 -2.01606326e-07  1.00000000e+00 
 4.80000000e-01  7.85853757e-02  7.85853757e-02  7.85853756e-02  7.85853757e-02  7.85853757e-02  7.85853757e-02  7.07934518e-07  1.30252583e-12 -1.60581152e-07  1.00000000e+00 
 4.90000000e-01  8.09198205e-02  8.09198205e-02  8.09198205e-02  8.09198205e-02  8.09198205e-02  8.09198205e-02  5.65070760e-07  1.61441810e-12 -1.26861025e-07  1.00000000e+00 
 5.00000000e-01  8.36355275e-02  8.36355275e-02  8.36355275e-02  8.36355275e-02  8.36355275e-02  8.36355275e-02  4.52469169e-07  2.03676958e-12 -9.88435005e-08  1.00000000e+00 
 5.10000000e-01  8.67971399e-02  8.67971399e-02  8.67971399e-02  8.67971399e-02  8.67971399e-02  8.67971399e-02  3.63571568e-07  2.61069317e-12 -7.60406209e-08  1.00000000e+00 
 5.20000000e-01  9.05484973e-02  9.05484973e-02  9.05484973e-02  9.05484973e-02  9.05484973e-02  9.05484973e-02  2.93260126e-07  3.39053137e-12 -5.80097463e-08  1.00000000e+00 
 5.30000000e-01  9.49195805e-02  9.49195805e-02  9.49195805e-02  9.49195805e-02  9.49195805e-02  9.49195805e-02  2.37530644e-07  4.45420754e-12 -4.40395667e-08  1.00000000e+00 
 5.40000000e-01  1.00032382e-01  1.00032382e-01  1.00032382e-01  1.00032382e-01  1.00032382e-01  1.00032382e-01  1.93259479e-07  5.89663518e-12 -3.33613315e-08  1.00000000e+00 
 5.50000000e-01  1.05924131e-01  1.05924131e-01  1.05924131e-01  1.05924131e-01  1.05924131e-01  1.05924131e-01  1.58002513e-07  7.85851207e-12 -2.52292836e-08  1.00000000e+00 
 5.60000000e-01  1.12557656e-01  1.12557656e-01  1.12557656e-01  1.12557656e-01  1.12557656e-01  1.12557656e-01  1.29848721e-07  1.05092494e-11 -1.90613747e-08  1.00000000e+00 
 5.70000000e-01  1.19935903e-01  1.19935903e-01  1.19935903e-01  1.19935903e-01  1.19935903e-01  1.19935903e-01  1.07303707e-07  1.40926156e-11 -1.43910768e-08  1.00000000e+00 
 5.80000000e-01  1.27943779e-01  1.27943779e-01  1.27943779e-01  1.27943779e-01  1.27943779e-01  1.27943779e-01  8.91956196e-08  1.89107933e-11 -1.08603047e-08  1.00000000e+00 
 5.90000000e-01  1.36519880e-01  1.36519880e-01  1.36519880e-01  1.36519880e-01  1.36519880e-01  1.36519880e-01  7.46056657e-08  2.53874335e-11 -8.19298407e-09  1.00000000e+00 
 6.00000000e-01  1.45542647e-01  1.45542647e-01  1.45542647e-01  1.45542647e-01  1.45542647e-01  1.45542647e-01  6.28112561e-08  3.40540447e-11 -6.17995966e-09  1.00000000e+00 
 6.10000000e-01  1.54931908e-01  1.54931908e-01  1.54931908e-01  1.54931908e-01  1.54931908e-01  1.54931908e-01  5.32434952e-08  4.56462064e-11 -4.66140193e-09  1.00000000e+00 
 6.20000000e-01  1.64580995e-01  1.64580995e-01  1.64580995e-01  1.64580995e-01  1.64580995e-01  1.64580995e-01  4.54532974e-08  6.10831823e-11 -3.51658969e-09  1.00000000e+00 
 6.30000000e-01  1.74403818e-01  1.74403818e-01  1.74403818e-01  1.74403818e-01  1.74403818e-01  1.74403818e-01  3.90855938e-08  8.15689231e-11 -2.65420397e-09  1.00000000e+00 
 6.40000000e-01  1.84321996e-01  1.84321996e-01  1.84321996e-01  1.84321996e-01  1.84321996e-01  1.84321996e-01  3.38590662e-08  1.08631088e-10 -2.00483896e-09  1.00000000e+00 
 6.50000000e-01  1.94282555e-01  1.94282555e-01  1.94282555e-01  1.94282555e-01  1.94282555e-01  1.94282555e-01  2.95504429e-08  1.44210626e-10 -1.51642610e-09  1.00000000e+00 
 6.60000000e-01  2.04224546e-01  2.04224546e-01  2.04224546e-01  2.04224546e-01  2.04224546e-01  2.04224546e-01  2.59821683e-08  1.90761547e-10 -1.14968657e-09  1.00000000e+00 
 6.70000000e-01  2.14109303e-01  2.14109303e-01  2.14109303e-01  2.14109303e-01  2.14109303e-01  2.14109303e-01  2.30128336e-08  2.51316709e-10 -8.75232331e-10  1.00000000e+00 
 6.80000000e-01  2.23899452e-01  2.23899452e-01  2.23899452e-01  2.23899452e-01  2.23899452e-01  2.23899452e-01  2.05295977e-08  3.29605511e-10 -6.70581812e-10  1.00000000e+00 
 6.90000000e-01  2.33571673e-01  2.33571673e-01  2.33571673e-01  2.33571673e-01  2.33571673e-01  2.33571673e-01  1.84422540e-08  4.30210111e-10 -5.19278842e-10  1.00000000e+00 
 7.00000000e-01  2.43098253e-01  2.43098253e-01  2.43098253e-01  2.43098253e-01  2.43098253e-01  2.43098253e-01  1.66785276e-08  5.58597217e-10 -4.08860501e-10  1.00000000e+00 
 7.10000000e-01  2.52463640e-01  2.52463640e-01  2.52463640e-01  2.52463640e-01  2.52463640e-01  2.52463640e-01  1.51803834e-08  7.21364420e-10 -3.30274474e-10  1.00000000e+00 
 7.20000000e-01  2.61653712e-01  2.61653712e-01  2.61653712e-01  2.61653712e-01  2.61653712e-01  2.61653712e-01  1.39010920e-08  9.26268458e-10 -2.76614287e-10  1.00000000e+00 
 7.30000000e-01  2.70659014e-01  2.70659014e-01  2.70659014e-01  2.70659014e-01  2.70659014e-01  2.70659014e-01  1.28029195e-08  1.18239560e-09 -2.43105092e-10  1.00000000e+00 
 7.40000000e-01  2.79472537e-01  2.79472537e-01  2.79472537e-01  2.79472537e-01  2.79472537e-01  2.79472537e-01  1.18552973e-08  1.50036883e-09 -2.26350494e-10  1.00000000e+00 
 7.50000000e-01  2.88091934e-01  2.88091934e-01  2.88091934e-01  2.88091934e-01  2.88091934e-01  2.88091934e-01  1.10333780e-08  1.89248402e-09 -2.23863594e-10  1.00000000e+00 
 7.60000000e-01  2.96518272e-01  2.96518272e-01  2.96518272e-01  2.96518272e-01  2.96518272e-01  2.96518272e-01  1.03168905e-08  2.37294916e-09 -2.34336994e-10  1.00000000e+00 
 7.70000000e-01  3.04754715e-01  3.04754715e-01  3.04754715e-01  3.04754715e-01  3.04754715e-01  3.04754715e-01  9.68923453e-09  2.95808281e-09 -2.56790145e-10  1.00000000e+00 
 7.80000000e-01  3.12808164e-01  3.12808164e-01  3.12808164e-01  3.12808164e-01  3.12808164e-01  3.12808164e-01  9.13676309e-09  3.66689376e-09 -2.90384605e-10  1.00000000e+00 
 7.90000000e-01  3.20687918e-01  3.20687918e-01  3.20687918e-01  3.20687918e-01  3.20687918e-01  3.20687918e-01  8.64821217e-09  4.52115703e-09 -3.33216121e-10  1.00000000e+00 
 8.00000000e-01  3.28405004e-01  3.28405004e-01  3.28405004e-01  3.28405004e-01  3.28405004e-01  3.28405004e-01  8.21424689e-09  5.54635393e-09 -3.77809783e-10  1.00000000e+00 
 8.10000000e-01  3.35972635e-01  3.35972635e-01  3.35972635e-01  3.35972635e-01  3.35972635e-01  3.35972635e-01  7.82710005e-09  6.77200557e-09 -4.02479827e-10  1.00000000e+00 
 8.20000000e-01  3.43404718e-01  3.43404718e-01  3.43404718e-01  3.43404718e-01  3.43404718e-01  3.43404718e-01  7.48028242e-09  8.23274887e-09 -3.87260002e-10  1.00000000e+00 
 8.30000000e-01  3.50716459e-01  3.50716459e-01  3.50716459e-01  3.50716459e-01  3.50716459e-01  3.50716459e-01  7.16835082e-09  9.96922689e-09 -3.40136808e-10  1.00000000e+00 
 8.40000000e-01  3.57923264e-01  3.57923264e-01  3.57923264e-01  3.57923264e-01  3.57923264e-01  3.57923264e-01  6.88672125e-09  1.20294081e-08 -2.80792278e-10  1.00000000e+00 
 8.50000000e-01  3.65040920e-01  3.65040920e-01  3.65040920e-01  3.65040920e-01  3.65040920e-01  3.65040920e-01  6.63151816e-09  1.44698415e-08 -2.23352004e-10  1.00000000e+00 
 8.60000000e-01  3.72084448e-01  3.72084448e-01  3.72084448e-01  3.72084448e-01  3.72084448e-01  3.72084448e-01  6.39945221e-09  1.73577738e-08 -1.73884018e-10  1.00000000e+00 
 8.70000000e-01  3.79068688e-01  3.79068688e-01  3.79068687e-01  3.79068688e-01  3.79068688e-01  3.79068688e-01  6.18772113e-09  2.07727668e-08 -1.33653089e-10  1.00000000e+00 
 8.80000000e-01  3.86007738e-01  3.86007738e-01  3.86007738e-01  3.86007738e-01  3.86007738e-01  3.86007738e-01  5.99392875e-09  2.48095373e-08 -1.01891828e-10  1.00000000e+00 
 8.90000000e-01  3.92914598e-01  3.92914598e-01  3.92914598e-01  3.92914598e-01  3.92914598e-01  3.92914598e-01  5.81601851e-09  2.95804894e-08 -7.73070497e-11  1.00000000e+00 
 9.00000000e-01  3.99800914e-01  3.99800914e-01  3.99800914e-01  3.99800914e-01  3.99800914e-01  3.99800914e-01  5.65221919e-09  3.52192715e-08 -5.84634563e-11  1.00000000e+00 
 9.10000000e-01  4.06676952e-01  4.06676952e-01  4.06676952e-01  4.06676952e-01  4.06676952e-01  4.06676952e-01  5.50100000e-09  4.18842616e-08 -4.40820713e-11  1.00000000e+00 
 9.20000000e-01  4.13551061e-01  4.13551060e-01  4.13551060e-01  4.13551060e-01  4.13551060e-01  4.13551061e-01  5.36103342e-09  4.97626753e-08 -3.31681349e-11  1.00000000e+00 
 9.30000000e-01  4.20429355e-01  4.20429355e-01  4.20429355e-01  4.20429355e-01  4.20429355e-01  4.20429355e-01  5.23116415e-09  5.90746865e-08 -2.49116283e-11  1.00000000e+00 
 9.40000000e-01  4.27315103e-01  4.27315103e-01  4.27315103e-01  4.27315103e-01  4.27315103e-01  4.27315103e-01  5.11038389e-09  7.00772764e-08 -1.86162197e-11  1.00000000e+00 
 9.50000000e-01  4.34208380e-01  4.34208380e-01  4.34208380e-01  4.34208380e-01  4.34208380e-01  4.34208380e-01  4.99780939e-09  8.30673930e-08 -1.38129508e-11  1.00000000e+00 
 9.60000000e-01  4.41105128e-01  4.41105128e-01  4.41105128e-01  4.41105128e-01  4.41105128e-01  4.41105128e-01  4.89266468e-09  9.83826514e-08 -1.01181286e-11  1.00000000e+00 
 9.70000000e-01  4.47996459e-01  4.47996459e-01  4.47996459e-01  4.47996459e-01  4.47996459e-01  4.47996459e-01  4.79426597e-09  1.16398825e-07 -7.29016847e-12  1.00000000e+00 
 9.80000000e-01  4.54867560e-01  4.54867560e-01  4.54867560e-01  4.54867560e-01  4.54867560e-01  4.54867560e-01  4.70200875e-09  1.37520575e-07 -5.01643171e-12  1.00000000e+00 
 9.90000000e-01  4.61696617e-01  4.61696617e-01  4.61696617e-01  4.61696617e-01  4.61696617e-01  4.61696617e-01  4.61535690e-09  1.62163168e-07 -3.28270744e-12  1.00000000e+00 
 1.00000000e+00  4.68453576e-01  4.68453576e-01  4.68453576e-01  4.68453576e-01  4.68453576e-01  4.68453576e-01  4.53383364e-09  1.90719300e-07 -1.84741111e-12  1.00000000e+00 
 1.01000000e+00  4.75098928e-01  4.75098928e-01  4.75098928e-01  4.75098928e-01  4.75098928e-01  4.75098928e-01  4.45701380e-09  2.23508106e-07 -6.53699317e-13  1.00000000e+00 
 1.02000000e+00  4.81582877e-01  4.81582877e-01  4.81582877e-01  4.81582877e-01  4.81582877e-01  4.81582877e-01  4.38451683e-09  2.60702386e-07  3.97903932e-13  1.00000000e+00 
 1.03000000e+00  4.87845327e-01  4.87845327e-01  4.87845327e-01  4.87845327e-01  4.87845327e-01  4.87845327e-01  4.31600147e-09  3.02237533e-07  1.42108547e-12  1.00000000e+00 
 1.04000000e+00  4.93817462e-01  4.93817462e-01  4.93817462e-01  4.93817462e-01  4.93817462e-01  4.93817462e-01  4.25116089e-09  3.47715586e-07  2.40163445e-12  1.00000000e+00 
 1.05000000e+00  4.99425394e-01  4.99425394e-01  4.99425394e-01  4.99425394e-01  4.99425394e-01  4.99425394e-01  4.18971883e-09  3.96328481e-07  3.41060513e-12  1.00000000e+00 
 1.06000000e+00  5.04594639e-01  5.04594639e-01  5.04594638e-01  5.04594639e-01  5.04594639e-01  5.04594639e-01  4.13142606e-09  4.46823726e-07  4.36273240e-12  1.00000000e+00 
 1.07000000e+00  5.09252734e-01  5.09252734e-01  5.09252734e-01  5.09252734e-01  5.09252734e-01  5.09252734e-01  4.07605737e-09  4.97507322e-07  5.38591394e-12  1.00000000e+00 
 1.08000000e+00  5.13327265e-01  5.13327265e-01  5.13327265e-01  5.13327265e-01  5.13327265e-01  5.13327265e-01  4.02340904e-09  5.46253148e-07  6.43751719e-12  1.00000000e+00 
 1.09000000e+00  5.16741667e-01  5.16741667e-01  5.16741667e-01  5.16741667e-01  5.16741667e-01  5.16741667e-01  3.97329562e-09  5.90527492e-07  7.61701813e-12  1.00000000e+00 
 1.10000000e+00  5.19420486e-01  5.19420486e-01  5.19420486e-01  5.19420486e-01  5.19420486e-01  5.19420486e-01  3.92554865e-09  6.27593611e-07  8.92441676e-12  1.00000000e+00 
