 v-sweep         v(b0)           v(b1)           v(b2)           v(b3)           v(b4)           v(b5)           v(b6)           i(vbias)        i(viout)        v(vout)        
 0.00000000e+00 -2.87706206e-20 -2.87706206e-20 -2.87706206e-20 -2.87706206e-20 -2.87706203e-20 -2.87706206e-20 -2.87706206e-20 -9.83383779e-30 -4.73872744e-03  1.00000000e+00 
 1.00000000e-02  1.92098529e-03  1.92098529e-03  1.92098529e-03  1.92098529e-03  1.92098529e-03  1.92098529e-03  1.92098529e-03  1.16604982e-14 -4.31184119e-03  1.00000000e+00 
 2.00000000e-02  3.83814873e-03  3.83814873e-03  3.83814873e-03  3.83814873e-03  3.83814873e-03  3.83814873e-03  3.83814873e-03  2.27864136e-14 -3.89913658e-03  1.00000000e+00 
 3.00000000e-02  5.75444120e-03  5.75444120e-03  5.75444120e-03  5.75444120e-03  5.75444120e-03  5.75444120e-03  5.75444120e-03  3.35159282e-14 -3.50198938e-03  1.00000000e+00 
 4.00000000e-02  7.67651142e-03  7.67651142e-03  7.67651142e-03  7.67651142e-03  7.67651142e-03  7.67651142e-03  7.67651142e-03  4.39546708e-14 -3.12188002e-03  1.00000000e+00 
 5.00000000e-02  9.59727052e-03  9.59727052e-03  9.59727051e-03  9.59727052e-03  9.59727052e-03  9.59727052e-03  9.59727052e-03  5.41595916e-14 -2.76039643e-03  1.00000000e+00 
 6.00000000e-02  1.15294737e-02  1.15294737e-02  1.15294737e-02  1.15294737e-02  1.15294737e-02  1.15294737e-02  1.15294737e-02  6.42085753e-14 -2.41918236e-03  1.00000000e+00 
 7.00000000e-02  1.34592382e-02  1.34592382e-02  1.34592382e-02  1.34592382e-02  1.34592382e-02  1.34592382e-02  1.34592382e-02  7.41008512e-14 -2.09989545e-03  1.00000000e+00 
 8.00000000e-02  1.54010025e-02  1.54010025e-02  1.54010025e-02  1.54010025e-02  1.54010025e-02  1.54010025e-02  1.54010025e-02  8.39114172e-14 -1.80412076e-03  1.00000000e+00 
 9.00000000e-02  1.73371601e-02  1.73371601e-02  1.73371601e-02  1.73371601e-02  1.73371601e-02  1.73371601e-02  1.73371601e-02  9.36081081e-14 -1.53325225e-03  1.00000000e+00 
 1.00000000e-01  1.92948282e-02  1.92948282e-02  1.92948282e-02  1.92948282e-02  1.92948282e-02  1.92948282e-02  1.92948282e-02  1.03288593e-13 -1.28840985e-03  1.00000000e+00 
 1.10000000e-01  2.12317205e-02  2.12317205e-02  2.12317205e-02  2.12317205e-02  2.12317205e-02  2.12317205e-02  2.12317205e-02  1.12954463e-13 -1.07025181e-03  1.00000000e+00 
 1.20000000e-01  2.31949305e-02  2.31949305e-02  2.31949305e-02  2.31949305e-02  2.31949305e-02  2.31949305e-02  2.31949305e-02  1.22541395e-13 -8.78837289e-04  1.00000000e+00 
 1.30000000e-01  2.51317790e-02  2.51317790e-02  2.51317790e-02  2.51317790e-02  2.51317790e-02  2.51317790e-02  2.51317790e-02  1.32159779e-13 -7.13711790e-04  1.00000000e+00 
 1.40000000e-01  2.70800337e-02  2.70800337e-02  2.70800337e-02  2.70800337e-02  2.70800337e-02  2.70800337e-02  2.70800337e-02  1.41704868e-13 -5.73563558e-04  1.00000000e+00 
 1.50000000e-01  2.90187973e-02  2.90187973e-02  2.90187973e-02  2.90187973e-02  2.90187973e-02  2.90187973e-02  2.90187973e-02  1.51235537e-13 -4.56568602e-04  1.00000000e+00 
 1.60000000e-01  3.09475886e-02  3.09475886e-02  3.09475885e-02  3.09475886e-02  3.09475886e-02  3.09475886e-02  3.09475886e-02  1.60864222e-13 -3.60455129e-04  1.00000000e+00 
 1.70000000e-01  3.28744024e-02  3.28744024e-02  3.28744024e-02  3.28744024e-02  3.28744024e-02  3.28744024e-02  3.28744024e-02  1.70384286e-13 -2.82625159e-04  1.00000000e+00 
 1.80000000e-01  3.47835898e-02  3.47835898e-02  3.47835898e-02  3.47835898e-02  3.47835898e-02  3.47835898e-02  3.47835898e-02  1.79901002e-13 -2.20383147e-04  1.00000000e+00 
 1.90000000e-01  3.66853510e-02  3.66853510e-02  3.66853510e-02  3.66853510e-02  3.66853510e-02  3.66853510e-02  3.66853510e-02  1.89503029e-13 -1.71167378e-04  1.00000000e+00 
 2.00000000e-01  3.85407964e-02  3.85407964e-02  3.85407964e-02  3.85407964e-02  3.85407964e-02  3.85407964e-02  3.85407964e-02  1.99072902e-13 -1.32579232e-04  1.00000000e+00 
 2.10000000e-01  4.04008219e-02  4.04008219e-02  4.04008219e-02  4.04008219e-02  4.04008219e-02  4.04008219e-02  4.04008219e-02  2.08609619e-13 -1.02528302e-04  1.00000000e+00 
 2.20000000e-01  4.22132149e-02  4.22132149e-02  4.22132149e-02  4.22132149e-02  4.22132149e-02  4.22132149e-02  4.22132149e-02  2.18257351e-13 -7.92009133e-05  1.00000000e+00 
 2.30000000e-01  4.39993033e-02  4.39993033e-02  4.39993033e-02  4.39993033e-02  4.39993033e-02  4.39993033e-02  4.39993033e-02  2.27886090e-13 -6.12055110e-05  1.00000000e+00 
 2.40000000e-01  4.57574924e-02  4.57574924e-02  4.57574924e-02  4.57574924e-02  4.57574924e-02  4.57574924e-02  4.57574924e-02  2.37443162e-13 -4.73356612e-05  1.00000000e+00 
 2.50000000e-01  4.74884682e-02  4.74884682e-02  4.74884681e-02  4.74884682e-02  4.74884682e-02  4.74884682e-02  4.74884682e-02  2.47100741e-13 -3.66479962e-05  1.00000000e+00 
 2.60000000e-01  4.91811964e-02  4.91811964e-02  4.91811964e-02  4.91811964e-02  4.91811964e-02  4.91811964e-02  4.91811964e-02  2.56933682e-13 -2.84157134e-05  1.00000000e+00 
 2.70000000e-01  5.08736492e-02  5.08736492e-02  5.08736492e-02  5.08736492e-02  5.08736492e-02  5.08736492e-02  5.08736492e-02  2.66807213e-13 -2.20784858e-05  1.00000000e+00 
 2.80000000e-01  5.24877105e-02  5.24877105e-02  5.24877105e-02  5.24877105e-02  5.24877105e-02  5.24877105e-02  5.24877105e-02  2.76748771e-13 -1.71641408e-05  1.00000000e+00 
 2.90000000e-01  5.41032670e-02  5.41032670e-02  5.41032670e-02  5.41032670e-02  5.41032671e-02  5.41032670e-02  5.41032670e-02  2.86920146e-13 -1.33711925e-05  1.00000000e+00 
 3.00000000e-01  5.56549359e-02  5.56549359e-02  5.56549359e-02  5.56549359e-02  5.56549359e-02  5.56549359e-02  5.56549359e-02  2.97344546e-13 -1.04335073e-05  1.00000000e+00 
 3.10000000e-01  5.71989639e-02  5.71989639e-02  5.71989639e-02  5.71989640e-02  5.71989640e-02  5.71989639e-02  5.71989639e-02  3.07953289e-13 -8.15958084e-06  1.00000000e+00 
 3.20000000e-01  5.87091234e-02  5.87091234e-02  5.87091234e-02  5.87091234e-02  5.87091234e-02  5.87091234e-02  5.87091234e-02  3.19217966e-13 -6.38961022e-06  1.00000000e+00 
 3.30000000e-01  6.01617477e-02  6.01617476e-02  6.01617476e-02  6.01617477e-02  6.01617477e-02  6.01617477e-02  6.01617476e-02  3.30939662e-13 -5.01696555e-06  1.00000000e+00 
 3.40000000e-01  6.15810673e-02  6.15810673e-02  6.15810673e-02  6.15810673e-02  6.15810673e-02  6.15810673e-02  6.15810673e-02  3.43524186e-13 -3.94172463e-06  1.00000000e+00 
 3.50000000e-01  6.30061917e-02  6.30061917e-02  6.30061917e-02  6.30061917e-02  6.30061917e-02  6.30061917e-02  6.30061917e-02  3.57155508e-13 -3.09205772e-06  1.00000000e+00 
 3.60000000e-01  6.44128022e-02  6.44128022e-02  6.44128022e-02  6.44128022e-02  6.44128022e-02  6.44128022e-02  6.44128022e-02  3.72261385e-13 -2.43191640e-06  1.00000000e+00 
 3.70000000e-01  6.57804480e-02  6.57804480e-02  6.57804480e-02  6.57804480e-02  6.57804480e-02  6.57804480e-02  6.57804480e-02  3.89396807e-13 -1.91638954e-06  1.00000000e+00 
 3.80000000e-01  6.71267457e-02  6.71267457e-02  6.71267457e-02  6.71267457e-02  6.71267457e-02  6.71267457e-02  6.71267457e-02  4.09322695e-13 -1.51294715e-06  1.00000000e+00 
 3.90000000e-01  6.84739711e-02  6.84739711e-02  6.84739711e-02  6.84739711e-02  6.84739711e-02  6.84739711e-02  6.84739711e-02  4.33037029e-13 -1.19487774e-06  1.00000000e+00 
 4.00000000e-01  6.98309958e-02  6.98309958e-02  6.98309958e-02  6.98309958e-02  6.98309958e-02  6.98309958e-02  6.98309958e-02  4.62199764e-13 -9.40404803e-07  1.00000000e+00 
 4.10000000e-01  7.11661432e-02  7.11661432e-02  7.11661432e-02  7.11661432e-02  7.11661432e-02  7.11661432e-02  7.11661432e-02  4.97943266e-13 -7.43516708e-07  1.00000000e+00 
 4.20000000e-01  7.25547786e-02  7.25547786e-02  7.25547786e-02  7.25547786e-02  7.25547786e-02  7.25547786e-02  7.25547786e-02  5.43487212e-13 -5.88327197e-07  1.00000000e+00 
 4.30000000e-01  7.39530103e-02  7.39530103e-02  7.39530103e-02  7.39530103e-02  7.39530103e-02  7.39530103e-02  7.39530103e-02  6.02044781e-13 -4.65451095e-07  1.00000000e+00 
 4.40000000e-01  7.54246243e-02  7.54246243e-02  7.54246243e-02  7.54246243e-02  7.54246243e-02  7.54246243e-02  7.54246243e-02  6.78111728e-13 -3.69144686e-07  1.00000000e+00 
 4.50000000e-01  7.69546464e-02  7.69546464e-02  7.69546464e-02  7.69546464e-02  7.69546464e-02  7.69546464e-02  7.69546464e-02  7.77973226e-13 -2.92958632e-07  1.00000000e+00 
 4.60000000e-01  7.85908802e-02  7.85908802e-02  7.85908802e-02  7.85908802e-02  7.85908802e-02  7.85908802e-02  7.85908802e-02  9.10519192e-13 -2.34166436e-07  1.00000000e+00 
 4.70000000e-01  8.04042540e-02  8.04042540e-02  8.04042540e-02  8.04042540e-02  8.04042540e-02  8.04042540e-02  8.04042540e-02  1.08741683e-12 -1.87293395e-07  1.00000000e+00 
 4.80000000e-01  8.24325189e-02  8.24325189e-02  8.24325189e-02  8.24325189e-02  8.24325189e-02  8.24325189e-02  8.24325189e-02  1.32479455e-12 -1.50191994e-07  1.00000000e+00 
 4.90000000e-01  8.46869121e-02  8.46869121e-02  8.46869121e-02  8.46869121e-02  8.46869121e-02  8.46869121e-02  8.46869121e-02  1.64366041e-12 -1.19426332e-07  1.00000000e+00 
 5.00000000e-01  8.73057953e-02  8.73057953e-02  8.73057953e-02  8.73057953e-02  8.73057953e-02  8.73057953e-02  8.73057953e-02  2.07672085e-12 -9.39677989e-08  1.00000000e+00 
 5.10000000e-01  9.03923317e-02  9.03923317e-02  9.03923316e-02  9.03923317e-02  9.03923317e-02  9.03923317e-02  9.03923317e-02  2.66435029e-12 -7.31838696e-08  1.00000000e+00 
 5.20000000e-01  9.39944878e-02  9.39944877e-02  9.39944877e-02  9.39944878e-02  9.39944878e-02  9.39944878e-02  9.39944877e-02  3.46296180e-12 -5.64852485e-08  1.00000000e+00 
 5.30000000e-01  9.82000363e-02  9.82000363e-02  9.82000363e-02  9.82000363e-02  9.82000363e-02  9.82000363e-02  9.82000363e-02  4.54685421e-12 -4.32668230e-08  1.00000000e+00 
 5.40000000e-01  1.03118317e-01  1.03118317e-01  1.03118317e-01  1.03118317e-01  1.03118317e-01  1.03118317e-01  1.03118317e-01  6.01815841e-12 -3.29278009e-08  1.00000000e+00 
 5.50000000e-01  1.08787515e-01  1.08787515e-01  1.08787515e-01  1.08787515e-01  1.08787515e-01  1.08787515e-01  1.08787515e-01  8.01578075e-12 -2.49730761e-08  1.00000000e+00 
 5.60000000e-01  1.15218271e-01  1.15218271e-01  1.15218270e-01  1.15218271e-01  1.15218271e-01  1.15218271e-01  1.15218271e-01  1.07109217e-11 -1.89026963e-08  1.00000000e+00 
 5.70000000e-01  1.22383021e-01  1.22383021e-01  1.22383021e-01  1.22383021e-01  1.22383021e-01  1.22383021e-01  1.22383021e-01  1.43562527e-11 -1.42870533e-08  1.00000000e+00 
 5.80000000e-01  1.30219269e-01  1.30219269e-01  1.30219269e-01  1.30219269e-01  1.30219269e-01  1.30219269e-01  1.30219269e-01  1.92486452e-11 -1.07883267e-08  1.00000000e+00 
 5.90000000e-01  1.38638024e-01  1.38638024e-01  1.38638024e-01  1.38638024e-01  1.38638024e-01  1.38638024e-01  1.38638024e-01  2.58275545e-11 -8.14144130e-09  1.00000000e+00 
 6.00000000e-01  1.47523317e-01  1.47523317e-01  1.47523317e-01  1.47523317e-01  1.47523317e-01  1.47523317e-01  1.47523317e-01  3.46203266e-11 -6.14178930e-09  1.00000000e+00 
 6.10000000e-01  1.56818517e-01  1.56818517e-01  1.56818517e-01  1.56818517e-01  1.56818517e-01  1.56818517e-01  1.56818517e-01  4.63720902e-11 -4.63224126e-09  1.00000000e+00 
 6.20000000e-01  1.66385792e-01  1.66385792e-01  1.66385792e-01  1.66385792e-01  1.66385792e-01  1.66385792e-01  1.66385792e-01  6.20275081e-11 -3.49342599e-09  1.00000000e+00 
 6.30000000e-01  1.76153308e-01  1.76153308e-01  1.76153308e-01  1.76153308e-01  1.76153308e-01  1.76153308e-01  1.76153308e-01  8.27881982e-11 -2.63482036e-09  1.00000000e+00 
 6.40000000e-01  1.86029744e-01  1.86029744e-01  1.86029744e-01  1.86029744e-01  1.86029744e-01  1.86029744e-01  1.86029744e-01  1.10206577e-10 -1.98771488e-09  1.00000000e+00 
 6.50000000e-01  1.95959057e-01  1.95959057e-01  1.95959057e-01  1.95959057e-01  1.95959057e-01  1.95959057e-01  1.95959057e-01  1.46231454e-10 -1.50031099e-09  1.00000000e+00 
 6.60000000e-01  2.05882294e-01  2.05882294e-01  2.05882294e-01  2.05882294e-01  2.05882294e-01  2.05882294e-01  2.05882294e-01  1.93341579e-10 -1.13348619e-09  1.00000000e+00 
 6.70000000e-01  2.15754852e-01  2.15754852e-01  2.15754852e-01  2.15754852e-01  2.15754852e-01  2.15754852e-01  2.15754852e-01  2.54600035e-10 -8.57610871e-10  1.00000000e+00 
 6.80000000e-01  2.25536352e-01  2.25536352e-01  2.25536351e-01  2.25536352e-01  2.25536352e-01  2.25536352e-01  2.25536352e-01  3.33759229e-10 -6.50373977e-10  1.00000000e+00 
 6.90000000e-01  2.35203449e-01  2.35203449e-01  2.35203449e-01  2.35203449e-01  2.35203449e-01  2.35203449e-01  2.35203449e-01  4.35433925e-10 -4.95191443e-10  1.00000000e+00 
 7.00000000e-01  2.44729022e-01  2.44729022e-01  2.44729022e-01  2.44729022e-01  2.44729022e-01  2.44729022e-01  2.44729022e-01  5.65163194e-10 -3.79387188e-10  1.00000000e+00 
 7.10000000e-01  2.54092132e-01  2.54092132e-01  2.54092132e-01  2.54092132e-01  2.54092132e-01  2.54092132e-01  2.54092132e-01  7.29501792e-10 -2.93482572e-10  1.00000000e+00 
 7.20000000e-01  2.63281299e-01  2.63281299e-01  2.63281299e-01  2.63281299e-01  2.63281299e-01  2.63281299e-01  2.63281299e-01  9.36292460e-10 -2.30528485e-10  1.00000000e+00 
 7.30000000e-01  2.72284479e-01  2.72284479e-01  2.72284479e-01  2.72284479e-01  2.72284479e-01  2.72284479e-01  2.72284479e-01  1.19467805e-09 -1.85210070e-10  1.00000000e+00 
 7.40000000e-01  2.81094739e-01  2.81094739e-01  2.81094739e-01  2.81094739e-01  2.81094739e-01  2.81094739e-01  2.81094739e-01  1.51525220e-09 -1.53576707e-10  1.00000000e+00 
 7.50000000e-01  2.89710111e-01  2.89710111e-01  2.89710111e-01  2.89710111e-01  2.89710111e-01  2.89710111e-01  2.89710111e-01  1.91032506e-09 -1.32999389e-10  1.00000000e+00 
 7.60000000e-01  2.98129512e-01  2.98129512e-01  2.98129512e-01  2.98129512e-01  2.98129512e-01  2.98129512e-01  2.98129512e-01  2.39406706e-09 -1.21161747e-10  1.00000000e+00 
 7.70000000e-01  3.06356650e-01  3.06356650e-01  3.06356650e-01  3.06356650e-01  3.06356650e-01  3.06356650e-01  3.06356650e-01  2.98273517e-09 -1.16727961e-10  1.00000000e+00 
 7.80000000e-01  3.14397793e-01  3.14397793e-01  3.14397793e-01  3.14397793e-01  3.14397793e-01  3.14397793e-01  3.14397793e-01  3.69511033e-09 -1.18546950e-10  1.00000000e+00 
 7.90000000e-01  3.22261172e-01  3.22261172e-01  3.22261172e-01  3.22261172e-01  3.22261172e-01  3.22261172e-01  3.22261172e-01  4.55274496e-09 -1.25524480e-10  1.00000000e+00 
 8.00000000e-01  3.29957402e-01  3.29957402e-01  3.29957402e-01  3.29957402e-01  3.29957402e-01  3.29957402e-01  3.29957402e-01  5.58059632e-09 -1.35656819e-10  1.00000000e+00 
 8.10000000e-01  3.37498287e-01  3.37498287e-01  3.37498287e-01  3.37498287e-01  3.37498287e-01  3.37498287e-01  3.37498287e-01  6.80754453e-09 -1.43387524e-10  1.00000000e+00 
 8.20000000e-01  3.44897245e-01  3.44897245e-01  3.44897245e-01  3.44897245e-01  3.44897245e-01  3.44897245e-01  3.44897245e-01  8.26705793e-09 -1.40261136e-10  1.00000000e+00 
 8.30000000e-01  3.52167712e-01  3.52167712e-01  3.52167712e-01  3.52167712e-01  3.52167712e-01  3.52167712e-01  3.52167712e-01  9.99813565e-09 -1.25453425e-10  1.00000000e+00 
 8.40000000e-01  3.59323153e-01  3.59323153e-01  3.59323153e-01  3.59323153e-01  3.59323153e-01  3.59323153e-01  3.59323153e-01  1.20461534e-08 -1.04606102e-10  1.00000000e+00 
 8.50000000e-01  3.66376770e-01  3.66376770e-01  3.66376770e-01  3.66376770e-01  3.66376770e-01  3.66376770e-01  3.66376770e-01  1.44639527e-08 -8.34035063e-11  1.00000000e+00 
 8.60000000e-01  3.73340623e-01  3.73340623e-01  3.73340623e-01  3.73340623e-01  3.73340623e-01  3.73340623e-01  3.73340623e-01  1.73128720e-08 -6.48299192e-11  1.00000000e+00 
 8.70000000e-01  3.80224967e-01  3.80224967e-01  3.80224967e-01  3.80224967e-01  3.80224967e-01  3.80224967e-01  3.80224967e-01  2.06638777e-08 -4.96527264e-11  1.00000000e+00 
 8.80000000e-01  3.87038272e-01  3.87038272e-01  3.87038272e-01  3.87038272e-01  3.87038272e-01  3.87038272e-01  3.87038272e-01  2.45982665e-08 -3.76587650e-11  1.00000000e+00 
 8.90000000e-01  3.93785573e-01  3.93785573e-01  3.93785573e-01  3.93785573e-01  3.93785573e-01  3.93785573e-01  3.93785573e-01  2.92082118e-08 -2.84785528e-11  1.00000000e+00 
 9.00000000e-01  4.00467793e-01  4.00467793e-01  4.00467793e-01  4.00467793e-01  4.00467793e-01  4.00467793e-01  4.00467793e-01  3.45959732e-08 -2.14868123e-11  1.00000000e+00 
 9.10000000e-01  4.07080540e-01  4.07080540e-01  4.07080540e-01  4.07080540e-01  4.07080540e-01  4.07080540e-01  4.07080540e-01  4.08713845e-08 -1.61719527e-11  1.00000000e+00 
 9.20000000e-01  4.13611967e-01  4.13611967e-01  4.13611967e-01  4.13611967e-01  4.13611967e-01  4.13611967e-01  4.13611967e-01  4.81463491e-08 -1.21502808e-11  1.00000000e+00 
 9.30000000e-01  4.20040487e-01  4.20040487e-01  4.20040487e-01  4.20040487e-01  4.20040487e-01  4.20040487e-01  4.20040487e-01  5.65241081e-08 -9.13757958e-12  1.00000000e+00 
 9.40000000e-01  4.26332238e-01  4.26332238e-01  4.26332238e-01  4.26332238e-01  4.26332238e-01  4.26332238e-01  4.26332238e-01  6.60815225e-08 -6.80699941e-12  1.00000000e+00 
 9.50000000e-01  4.32438367e-01  4.32438367e-01  4.32438367e-01  4.32438367e-01  4.32438367e-01  4.32438367e-01  4.32438367e-01  7.68421220e-08 -5.05906428e-12  1.00000000e+00 
 9.60000000e-01  4.38293429e-01  4.38293429e-01  4.38293429e-01  4.38293429e-01  4.38293429e-01  4.38293429e-01  4.38293429e-01  8.87407854e-08 -3.68061137e-12  1.00000000e+00 
 9.70000000e-01  4.43815883e-01  4.43815883e-01  4.43815883e-01  4.43815883e-01  4.43815883e-01  4.43815883e-01  4.43815883e-01  1.01583403e-07 -2.65742983e-12  1.00000000e+00 
 9.80000000e-01  4.48909678e-01  4.48909678e-01  4.48909678e-01  4.48909678e-01  4.48909678e-01  4.48909678e-01  4.48909678e-01  1.15008799e-07 -1.83320026e-12  1.00000000e+00 
 9.90000000e-01  4.53464268e-01  4.53464268e-01  4.53464268e-01  4.53464268e-01  4.53464268e-01  4.53464268e-01  4.53464268e-01  1.28451521e-07 -1.17950094e-12  1.00000000e+00 
 1.00000000e+00  4.57335751e-01  4.57335751e-01  4.57335751e-01  4.57335751e-01  4.57335751e-01  4.57335751e-01  4.57335751e-01  1.41076619e-07 -6.25277607e-13  1.00000000e+00 
 1.01000000e+00  4.60402191e-01  4.60402191e-01  4.60402191e-01  4.60402191e-01  4.60402191e-01  4.60402191e-01  4.60402191e-01  1.51909170e-07 -1.98951966e-13  1.00000000e+00 
 1.02000000e+00  4.62543678e-01  4.62543678e-01  4.62543678e-01  4.62543678e-01  4.62543678e-01  4.62543678e-01  4.62543678e-01  1.59946058e-07  1.98951966e-13  1.00000000e+00 
 1.03000000e+00  4.63804776e-01  4.63804776e-01  4.63804776e-01  4.63804776e-01  4.63804776e-01  4.63804776e-01  4.63804776e-01  1.64869373e-07  6.39488462e-13  1.00000000e+00 
 1.04000000e+00  4.64440844e-01  4.64440844e-01  4.64440844e-01  4.64440844e-01  4.64440844e-01  4.64440844e-01  4.64440844e-01  1.67389345e-07  1.05160325e-12  1.00000000e+00 
 1.05000000e+00  4.64712843e-01  4.64712843e-01  4.64712843e-01  4.64712843e-01  4.64712843e-01  4.64712843e-01  4.64712843e-01  1.68498271e-07  1.62003744e-12  1.00000000e+00 
 1.06000000e+00  4.64832464e-01  4.64832464e-01  4.64832464e-01  4.64832464e-01  4.64832464e-01  4.64832464e-01  4.64832464e-01  1.68987846e-07  2.25952590e-12  1.00000000e+00 
 1.07000000e+00  4.64888336e-01  4.64888336e-01  4.64888336e-01  4.64888336e-01  4.64888336e-01  4.64888336e-01  4.64888336e-01  1.69215483e-07  3.11217718e-12  1.00000000e+00 
 1.08000000e+00  4.64916180e-01  4.64916180e-01  4.64916180e-01  4.64916180e-01  4.64916180e-01  4.64916180e-01  4.64916180e-01  1.69328594e-07  4.19220214e-12  1.00000000e+00 
 1.09000000e+00  4.64931076e-01  4.64931076e-01  4.64931076e-01  4.64931076e-01  4.64931076e-01  4.64931076e-01  4.64931076e-01  1.69388947e-07  5.68434189e-12  1.00000000e+00 
 1.10000000e+00  4.64939590e-01  4.64939590e-01  4.64939590e-01  4.64939590e-01  4.64939590e-01  4.64939590e-01  4.64939590e-01  1.69423398e-07  7.61701813e-12  1.00000000e+00 
