 v-sweep         v(b0)           v(b1)           v(b2)           v(b3)           v(b4)           v(b5)           v(b6)           i(vbias)        i(viout)        v(vout)        
 0.00000000e+00 -4.04771374e-19 -4.04771374e-19 -4.04771374e-19 -4.04771369e-19 -4.04771369e-19 -4.04771374e-19 -4.04771374e-19 -6.61801843e-30 -5.07573485e-03  1.00000000e+00 
 1.00000000e-02  1.78298912e-03  1.78298912e-03  1.78298912e-03  1.78298912e-03  1.78298912e-03  1.78298912e-03  1.78298912e-03  1.22907894e-14 -4.63881706e-03  1.00000000e+00 
 2.00000000e-02  3.55381336e-03  3.55381335e-03  3.55381336e-03  3.55381336e-03  3.55381335e-03  3.55381336e-03  3.55381336e-03  2.39161709e-14 -4.21513668e-03  1.00000000e+00 
 3.00000000e-02  5.31700877e-03  5.31700876e-03  5.31700876e-03  5.31700876e-03  5.31700876e-03  5.31700876e-03  5.31700876e-03  3.50409843e-14 -3.80594669e-03  1.00000000e+00 
 4.00000000e-02  7.07201357e-03  7.07201356e-03  7.07201357e-03  7.07201356e-03  7.07201356e-03  7.07201357e-03  7.07201357e-03  4.57724306e-14 -3.41266029e-03  1.00000000e+00 
 5.00000000e-02  8.82168962e-03  8.82168961e-03  8.82168962e-03  8.82168961e-03  8.82168961e-03  8.82168962e-03  8.82168961e-03  5.62515440e-14 -3.03678178e-03  1.00000000e+00 
 6.00000000e-02  1.05665203e-02  1.05665203e-02  1.05665203e-02  1.05665203e-02  1.05665203e-02  1.05665203e-02  1.05665203e-02  6.65007968e-14 -2.67991893e-03  1.00000000e+00 
 7.00000000e-02  1.23047237e-02  1.23047237e-02  1.23047237e-02  1.23047237e-02  1.23047237e-02  1.23047237e-02  1.23047237e-02  7.65891799e-14 -2.34372348e-03  1.00000000e+00 
 8.00000000e-02  1.40523265e-02  1.40523265e-02  1.40523265e-02  1.40523265e-02  1.40523265e-02  1.40523265e-02  1.40523265e-02  8.65265060e-14 -2.02985526e-03  1.00000000e+00 
 9.00000000e-02  1.58001444e-02  1.58001444e-02  1.58001444e-02  1.58001444e-02  1.58001444e-02  1.58001444e-02  1.58001444e-02  9.63999625e-14 -1.73984174e-03  1.00000000e+00 
 1.00000000e-01  1.75240139e-02  1.75240139e-02  1.75240139e-02  1.75240139e-02  1.75240139e-02  1.75240139e-02  1.75240139e-02  1.06205680e-13 -1.47504412e-03  1.00000000e+00 
 1.10000000e-01  1.92682502e-02  1.92682502e-02  1.92682502e-02  1.92682502e-02  1.92682502e-02  1.92682502e-02  1.92682502e-02  1.15921340e-13 -1.23640704e-03  1.00000000e+00 
 1.20000000e-01  2.09885003e-02  2.09885003e-02  2.09885003e-02  2.09885003e-02  2.09885003e-02  2.09885003e-02  2.09885003e-02  1.25635113e-13 -1.02462704e-03  1.00000000e+00 
 1.30000000e-01  2.27168199e-02  2.27168199e-02  2.27168199e-02  2.27168199e-02  2.27168199e-02  2.27168199e-02  2.27168199e-02  1.35369972e-13 -8.39530636e-04  1.00000000e+00 
 1.40000000e-01  2.44366276e-02  2.44366276e-02  2.44366276e-02  2.44366276e-02  2.44366276e-02  2.44366276e-02  2.44366276e-02  1.44992283e-13 -6.80371188e-04  1.00000000e+00 
 1.50000000e-01  2.61373215e-02  2.61373214e-02  2.61373215e-02  2.61373215e-02  2.61373214e-02  2.61373215e-02  2.61373215e-02  1.54646283e-13 -5.45914579e-04  1.00000000e+00 
 1.60000000e-01  2.78247832e-02  2.78247832e-02  2.78247832e-02  2.78247832e-02  2.78247832e-02  2.78247832e-02  2.78247832e-02  1.64293860e-13 -4.34069120e-04  1.00000000e+00 
 1.70000000e-01  2.95321538e-02  2.95321538e-02  2.95321538e-02  2.95321538e-02  2.95321538e-02  2.95321538e-02  2.95321538e-02  1.73877336e-13 -3.42454722e-04  1.00000000e+00 
 1.80000000e-01  3.11862799e-02  3.11862799e-02  3.11862799e-02  3.11862799e-02  3.11862799e-02  3.11862799e-02  3.11862799e-02  1.83519410e-13 -2.68514648e-04  1.00000000e+00 
 1.90000000e-01  3.28624156e-02  3.28624155e-02  3.28624156e-02  3.28624156e-02  3.28624155e-02  3.28624156e-02  3.28624156e-02  1.93234731e-13 -2.09521421e-04  1.00000000e+00 
 2.00000000e-01  3.45077992e-02  3.45077992e-02  3.45077992e-02  3.45077992e-02  3.45077992e-02  3.45077992e-02  3.45077992e-02  2.02825214e-13 -1.62936978e-04  1.00000000e+00 
 2.10000000e-01  3.61436179e-02  3.61436178e-02  3.61436178e-02  3.61436178e-02  3.61436178e-02  3.61436179e-02  3.61436178e-02  2.12499934e-13 -1.26456069e-04  1.00000000e+00 
 2.20000000e-01  3.77298893e-02  3.77298893e-02  3.77298893e-02  3.77298893e-02  3.77298893e-02  3.77298893e-02  3.77298893e-02  2.22198773e-13 -9.80440980e-05  1.00000000e+00 
 2.30000000e-01  3.93257234e-02  3.93257233e-02  3.93257233e-02  3.93257233e-02  3.93257233e-02  3.93257233e-02  3.93257233e-02  2.31850292e-13 -7.60064533e-05  1.00000000e+00 
 2.40000000e-01  4.08740220e-02  4.08740219e-02  4.08740220e-02  4.08740220e-02  4.08740219e-02  4.08740220e-02  4.08740220e-02  2.41626882e-13 -5.89529176e-05  1.00000000e+00 
 2.50000000e-01  4.24384770e-02  4.24384769e-02  4.24384770e-02  4.24384770e-02  4.24384769e-02  4.24384770e-02  4.24384770e-02  2.51556878e-13 -4.57594537e-05  1.00000000e+00 
 2.60000000e-01  4.39379505e-02  4.39379504e-02  4.39379505e-02  4.39379505e-02  4.39379504e-02  4.39379505e-02  4.39379505e-02  2.61399116e-13 -3.55900106e-05  1.00000000e+00 
 2.70000000e-01  4.54298231e-02  4.54298230e-02  4.54298231e-02  4.54298231e-02  4.54298230e-02  4.54298231e-02  4.54298231e-02  2.71546865e-13 -2.77411382e-05  1.00000000e+00 
 2.80000000e-01  4.69086987e-02  4.69086986e-02  4.69086986e-02  4.69086986e-02  4.69086986e-02  4.69086986e-02  4.69086986e-02  2.81670083e-13 -2.16165527e-05  1.00000000e+00 
 2.90000000e-01  4.83587218e-02  4.83587217e-02  4.83587218e-02  4.83587218e-02  4.83587217e-02  4.83587218e-02  4.83587218e-02  2.92115853e-13 -1.69004920e-05  1.00000000e+00 
 3.00000000e-01  4.97805366e-02  4.97805365e-02  4.97805365e-02  4.97805365e-02  4.97805365e-02  4.97805366e-02  4.97805365e-02  3.02871718e-13 -1.32072335e-05  1.00000000e+00 
 3.10000000e-01  5.11438353e-02  5.11438352e-02  5.11438353e-02  5.11438352e-02  5.11438352e-02  5.11438353e-02  5.11438352e-02  3.14050618e-13 -1.03448461e-05  1.00000000e+00 
 3.20000000e-01  5.25151127e-02  5.25151127e-02  5.25151127e-02  5.25151127e-02  5.25151127e-02  5.25151127e-02  5.25151127e-02  3.25682003e-13 -8.11680405e-06  1.00000000e+00 
 3.30000000e-01  5.38549108e-02  5.38549108e-02  5.38549108e-02  5.38549108e-02  5.38549108e-02  5.38549108e-02  5.38549108e-02  3.38115390e-13 -6.38850605e-06  1.00000000e+00 
 3.40000000e-01  5.51878803e-02  5.51878803e-02  5.51878803e-02  5.51878803e-02  5.51878803e-02  5.51878803e-02  5.51878803e-02  3.51729229e-13 -5.02245905e-06  1.00000000e+00 
 3.50000000e-01  5.64795787e-02  5.64795787e-02  5.64795787e-02  5.64795787e-02  5.64795787e-02  5.64795787e-02  5.64795787e-02  3.66520508e-13 -3.94975223e-06  1.00000000e+00 
 3.60000000e-01  5.77706646e-02  5.77706645e-02  5.77706645e-02  5.77706645e-02  5.77706645e-02  5.77706646e-02  5.77706645e-02  3.83432872e-13 -3.11654733e-06  1.00000000e+00 
 3.70000000e-01  5.90453730e-02  5.90453730e-02  5.90453730e-02  5.90453730e-02  5.90453730e-02  5.90453730e-02  5.90453730e-02  4.02872773e-13 -2.45651313e-06  1.00000000e+00 
 3.80000000e-01  6.03155022e-02  6.03155022e-02  6.03155022e-02  6.03155022e-02  6.03155022e-02  6.03155022e-02  6.03155022e-02  4.25934912e-13 -1.94181754e-06  1.00000000e+00 
 3.90000000e-01  6.15847391e-02  6.15847390e-02  6.15847391e-02  6.15847391e-02  6.15847390e-02  6.15847391e-02  6.15847391e-02  4.53863272e-13 -1.52871525e-06  1.00000000e+00 
 4.00000000e-01  6.28384485e-02  6.28384485e-02  6.28384485e-02  6.28384485e-02  6.28384485e-02  6.28384485e-02  6.28384485e-02  4.88304364e-13 -1.20827843e-06  1.00000000e+00 
 4.10000000e-01  6.41492681e-02  6.41492681e-02  6.41492681e-02  6.41492681e-02  6.41492681e-02  6.41492681e-02  6.41492681e-02  5.31872554e-13 -9.51051902e-07  1.00000000e+00 
 4.20000000e-01  6.54508235e-02  6.54508234e-02  6.54508235e-02  6.54508235e-02  6.54508234e-02  6.54508235e-02  6.54508235e-02  5.87566745e-13 -7.51204908e-07  1.00000000e+00 
 4.30000000e-01  6.67966585e-02  6.67966585e-02  6.67966585e-02  6.67966585e-02  6.67966585e-02  6.67966585e-02  6.67966585e-02  6.59538959e-13 -5.91954461e-07  1.00000000e+00 
 4.40000000e-01  6.82263627e-02  6.82263626e-02  6.82263626e-02  6.82263626e-02  6.82263626e-02  6.82263627e-02  6.82263626e-02  7.53755789e-13 -4.66478525e-07  1.00000000e+00 
 4.50000000e-01  6.97363050e-02  6.97363049e-02  6.97363049e-02  6.97363049e-02  6.97363049e-02  6.97363049e-02  6.97363049e-02  8.78095468e-13 -3.67968539e-07  1.00000000e+00 
 4.60000000e-01  7.14138493e-02  7.14138492e-02  7.14138493e-02  7.14138493e-02  7.14138492e-02  7.14138493e-02  7.14138493e-02  1.04328907e-12 -2.91023753e-07  1.00000000e+00 
 4.70000000e-01  7.32541742e-02  7.32541742e-02  7.32541742e-02  7.32541742e-02  7.32541742e-02  7.32541742e-02  7.32541742e-02  1.26405738e-12 -2.31228711e-07  1.00000000e+00 
 4.80000000e-01  7.53488100e-02  7.53488099e-02  7.53488100e-02  7.53488099e-02  7.53488099e-02  7.53488100e-02  7.53488099e-02  1.56030195e-12 -1.84174979e-07  1.00000000e+00 
 4.90000000e-01  7.77049887e-02  7.77049886e-02  7.77049886e-02  7.77049886e-02  7.77049886e-02  7.77049886e-02  7.77049886e-02  1.95992899e-12 -1.46930319e-07  1.00000000e+00 
 5.00000000e-01  8.04743294e-02  8.04743293e-02  8.04743294e-02  8.04743293e-02  8.04743293e-02  8.04743294e-02  8.04743294e-02  2.50198018e-12 -1.16246355e-07  1.00000000e+00 
 5.10000000e-01  8.37326188e-02  8.37326187e-02  8.37326188e-02  8.37326187e-02  8.37326187e-02  8.37326188e-02  8.37326188e-02  3.23720315e-12 -9.09029154e-08  1.00000000e+00 
 5.20000000e-01  8.75728492e-02  8.75728492e-02  8.75728492e-02  8.75728492e-02  8.75728492e-02  8.75728492e-02  8.75728492e-02  4.23870945e-12 -7.03200840e-08  1.00000000e+00 
 5.30000000e-01  9.21167280e-02  9.21167279e-02  9.21167279e-02  9.21167279e-02  9.21167279e-02  9.21167279e-02  9.21167279e-02  5.60108654e-12 -5.39119753e-08  1.00000000e+00 
 5.40000000e-01  9.73593178e-02  9.73593177e-02  9.73593177e-02  9.73593177e-02  9.73593177e-02  9.73593178e-02  9.73593177e-02  7.45006102e-12 -4.10138341e-08  1.00000000e+00 
 5.50000000e-01  1.03424209e-01  1.03424209e-01  1.03424209e-01  1.03424209e-01  1.03424209e-01  1.03424209e-01  1.03424209e-01  9.96028227e-12 -3.11050599e-08  1.00000000e+00 
 5.60000000e-01  1.10246867e-01  1.10246867e-01  1.10246867e-01  1.10246867e-01  1.10246867e-01  1.10246867e-01  1.10246867e-01  1.33553230e-11 -2.35309017e-08  1.00000000e+00 
 5.70000000e-01  1.17799040e-01  1.17799040e-01  1.17799040e-01  1.17799040e-01  1.17799040e-01  1.17799040e-01  1.17799040e-01  1.79319081e-11 -1.77783193e-08  1.00000000e+00 
 5.80000000e-01  1.25981068e-01  1.25981068e-01  1.25981068e-01  1.25981068e-01  1.25981068e-01  1.25981068e-01  1.25981068e-01  2.40903855e-11 -1.34220386e-08  1.00000000e+00 
 5.90000000e-01  1.34694071e-01  1.34694071e-01  1.34694071e-01  1.34694071e-01  1.34694071e-01  1.34694071e-01  1.34694071e-01  3.23456778e-11 -1.01273656e-08  1.00000000e+00 
 6.00000000e-01  1.43850734e-01  1.43850734e-01  1.43850734e-01  1.43850734e-01  1.43850734e-01  1.43850734e-01  1.43850734e-01  4.33860530e-11 -7.63918706e-09  1.00000000e+00 
 6.10000000e-01  1.53344887e-01  1.53344887e-01  1.53344887e-01  1.53344887e-01  1.53344887e-01  1.53344887e-01  1.53344887e-01  5.81308907e-11 -5.76085313e-09  1.00000000e+00 
 6.20000000e-01  1.63086415e-01  1.63086415e-01  1.63086415e-01  1.63086415e-01  1.63086415e-01  1.63086415e-01  1.63086415e-01  7.77565850e-11 -4.34442882e-09  1.00000000e+00 
 6.30000000e-01  1.72971511e-01  1.72971511e-01  1.72971511e-01  1.72971511e-01  1.72971511e-01  1.72971511e-01  1.72971511e-01  1.03750851e-10 -3.27662519e-09  1.00000000e+00 
 6.40000000e-01  1.82954625e-01  1.82954625e-01  1.82954625e-01  1.82954625e-01  1.82954625e-01  1.82954625e-01  1.82954625e-01  1.38091195e-10 -2.47206344e-09  1.00000000e+00 
 6.50000000e-01  1.92964857e-01  1.92964857e-01  1.92964857e-01  1.92964857e-01  1.92964857e-01  1.92964857e-01  1.92964857e-01  1.83178656e-10 -1.86631155e-09  1.00000000e+00 
 6.60000000e-01  2.02950554e-01  2.02950554e-01  2.02950554e-01  2.02950554e-01  2.02950554e-01  2.02950554e-01  2.02950554e-01  2.42167637e-10 -1.41042733e-09  1.00000000e+00 
 6.70000000e-01  2.12873346e-01  2.12873346e-01  2.12873346e-01  2.12873346e-01  2.12873346e-01  2.12873346e-01  2.12873346e-01  3.18821140e-10 -1.06791731e-09  1.00000000e+00 
 6.80000000e-01  2.22696834e-01  2.22696834e-01  2.22696834e-01  2.22696834e-01  2.22696834e-01  2.22696834e-01  2.22696834e-01  4.17845675e-10 -8.11070322e-10  1.00000000e+00 
 6.90000000e-01  2.32399781e-01  2.32399781e-01  2.32399781e-01  2.32399781e-01  2.32399781e-01  2.32399781e-01  2.32399781e-01  5.45121410e-10 -6.18967988e-10  1.00000000e+00 
 7.00000000e-01  2.41956098e-01  2.41956098e-01  2.41956098e-01  2.41956098e-01  2.41956098e-01  2.41956098e-01  2.41956098e-01  7.07457946e-10 -4.76262585e-10  1.00000000e+00 
 7.10000000e-01  2.51348461e-01  2.51348461e-01  2.51348461e-01  2.51348461e-01  2.51348461e-01  2.51348461e-01  2.51348461e-01  9.13174508e-10 -3.71130682e-10  1.00000000e+00 
 7.20000000e-01  2.60565076e-01  2.60565076e-01  2.60565076e-01  2.60565076e-01  2.60565076e-01  2.60565076e-01  2.60565076e-01  1.17213728e-09 -2.94846814e-10  1.00000000e+00 
 7.30000000e-01  2.69594940e-01  2.69594940e-01  2.69594940e-01  2.69594940e-01  2.69594940e-01  2.69594940e-01  2.69594940e-01  1.49583627e-09 -2.41044518e-10  1.00000000e+00 
 7.40000000e-01  2.78432726e-01  2.78432726e-01  2.78432726e-01  2.78432726e-01  2.78432726e-01  2.78432726e-01  2.78432726e-01  1.89762918e-09 -2.05147899e-10  1.00000000e+00 
 7.50000000e-01  2.87075139e-01  2.87075139e-01  2.87075139e-01  2.87075139e-01  2.87075139e-01  2.87075139e-01  2.87075139e-01  2.39305364e-09 -1.83547400e-10  1.00000000e+00 
 7.60000000e-01  2.95522663e-01  2.95522663e-01  2.95522663e-01  2.95522663e-01  2.95522663e-01  2.95522663e-01  2.95522663e-01  3.00003658e-09 -1.73770331e-10  1.00000000e+00 
 7.70000000e-01  3.03779003e-01  3.03779003e-01  3.03779003e-01  3.03779003e-01  3.03779003e-01  3.03779003e-01  3.03779003e-01  3.73927483e-09 -1.74537718e-10  1.00000000e+00 
 7.80000000e-01  3.11850392e-01  3.11850391e-01  3.11850392e-01  3.11850392e-01  3.11850391e-01  3.11850392e-01  3.11850392e-01  4.63463184e-09 -1.84172677e-10  1.00000000e+00 
 7.90000000e-01  3.19746060e-01  3.19746060e-01  3.19746060e-01  3.19746060e-01  3.19746060e-01  3.19746060e-01  3.19746060e-01  5.71358844e-09 -2.02220463e-10  1.00000000e+00 
 8.00000000e-01  3.27477332e-01  3.27477331e-01  3.27477332e-01  3.27477332e-01  3.27477331e-01  3.27477332e-01  3.27477332e-01  7.00821656e-09 -2.26293650e-10  1.00000000e+00 
 8.10000000e-01  3.35056594e-01  3.35056594e-01  3.35056594e-01  3.35056594e-01  3.35056594e-01  3.35056594e-01  3.35056594e-01  8.55565413e-09 -2.50139465e-10  1.00000000e+00 
 8.20000000e-01  3.42498135e-01  3.42498135e-01  3.42498135e-01  3.42498135e-01  3.42498135e-01  3.42498135e-01  3.42498135e-01  1.03993865e-08 -2.58069122e-10  1.00000000e+00 
 8.30000000e-01  3.49816998e-01  3.49816998e-01  3.49816998e-01  3.49816998e-01  3.49816998e-01  3.49816998e-01  3.49816998e-01  1.25902775e-08 -2.42607712e-10  1.00000000e+00 
 8.40000000e-01  3.57028274e-01  3.57028274e-01  3.57028274e-01  3.57028274e-01  3.57028274e-01  3.57028274e-01  3.57028274e-01  1.51885265e-08 -2.10491180e-10  1.00000000e+00 
 8.50000000e-01  3.64147660e-01  3.64147660e-01  3.64147660e-01  3.64147660e-01  3.64147660e-01  3.64147660e-01  3.64147660e-01  1.82647686e-08 -1.72633463e-10  1.00000000e+00 
 8.60000000e-01  3.71190025e-01  3.71190025e-01  3.71190025e-01  3.71190025e-01  3.71190025e-01  3.71190025e-01  3.71190025e-01  2.19028664e-08 -1.36850531e-10  1.00000000e+00 
 8.70000000e-01  3.78170221e-01  3.78170221e-01  3.78170221e-01  3.78170221e-01  3.78170221e-01  3.78170221e-01  3.78170221e-01  2.62019879e-08 -1.06155085e-10  1.00000000e+00 
 8.80000000e-01  3.85102032e-01  3.85102031e-01  3.85102032e-01  3.85102031e-01  3.85102031e-01  3.85102032e-01  3.85102031e-01  3.12799411e-08 -8.12008238e-11  1.00000000e+00 
 8.90000000e-01  3.91998164e-01  3.91998164e-01  3.91998164e-01  3.91998164e-01  3.91998164e-01  3.91998164e-01  3.91998164e-01  3.72760449e-08 -6.15614226e-11  1.00000000e+00 
 9.00000000e-01  3.98870001e-01  3.98870001e-01  3.98870001e-01  3.98870001e-01  3.98870001e-01  3.98870001e-01  3.98870001e-01  4.43555046e-08 -4.64694949e-11  1.00000000e+00 
 9.10000000e-01  4.05727167e-01  4.05727167e-01  4.05727167e-01  4.05727167e-01  4.05727167e-01  4.05727167e-01  4.05727167e-01  5.27131192e-08 -3.49018592e-11  1.00000000e+00 
 9.20000000e-01  4.12577333e-01  4.12577333e-01  4.12577333e-01  4.12577333e-01  4.12577333e-01  4.12577333e-01  4.12577333e-01  6.25782950e-08 -2.61479727e-11  1.00000000e+00 
 9.30000000e-01  4.19425584e-01  4.19425584e-01  4.19425584e-01  4.19425584e-01  4.19425584e-01  4.19425584e-01  4.19425584e-01  7.42186783e-08 -1.94972927e-11  1.00000000e+00 
 9.40000000e-01  4.26273946e-01  4.26273946e-01  4.26273946e-01  4.26273946e-01  4.26273946e-01  4.26273946e-01  4.26273946e-01  8.79440778e-08 -1.44950718e-11  1.00000000e+00 
 9.50000000e-01  4.33120475e-01  4.33120475e-01  4.33120475e-01  4.33120475e-01  4.33120475e-01  4.33120475e-01  4.33120475e-01  1.04107274e-07 -1.06865627e-11  1.00000000e+00 
 9.60000000e-01  4.39958537e-01  4.39958537e-01  4.39958537e-01  4.39958537e-01  4.39958537e-01  4.39958537e-01  4.39958537e-01  1.23102493e-07 -7.73070497e-12  1.00000000e+00 
 9.70000000e-01  4.46775582e-01  4.46775582e-01  4.46775582e-01  4.46775582e-01  4.46775582e-01  4.46775582e-01  4.46775582e-01  1.45355699e-07 -5.48538992e-12  1.00000000e+00 
 9.80000000e-01  4.53551732e-01  4.53551732e-01  4.53551732e-01  4.53551732e-01  4.53551732e-01  4.53551732e-01  4.53551732e-01  1.71305771e-07 -3.80850906e-12  1.00000000e+00 
 9.90000000e-01  4.60258320e-01  4.60258320e-01  4.60258320e-01  4.60258320e-01  4.60258320e-01  4.60258320e-01  4.60258320e-01  2.01369513e-07 -2.47268872e-12  1.00000000e+00 
 1.00000000e+00  4.66856340e-01  4.66856340e-01  4.66856340e-01  4.66856340e-01  4.66856340e-01  4.66856340e-01  4.66856340e-01  2.35884889e-07 -1.30739863e-12  1.00000000e+00 
 1.01000000e+00  4.73295102e-01  4.73295102e-01  4.73295102e-01  4.73295102e-01  4.73295101e-01  4.73295102e-01  4.73295102e-01  2.75030482e-07 -4.26325641e-13  1.00000000e+00 
 1.02000000e+00  4.79512049e-01  4.79512049e-01  4.79512049e-01  4.79512049e-01  4.79512049e-01  4.79512049e-01  4.79512049e-01  3.18721057e-07  3.41060513e-13  1.00000000e+00 
 1.03000000e+00  4.85434325e-01  4.85434325e-01  4.85434325e-01  4.85434325e-01  4.85434325e-01  4.85434325e-01  4.85434325e-01  3.66497044e-07  1.08002496e-12  1.00000000e+00 
 1.04000000e+00  4.90982485e-01  4.90982485e-01  4.90982485e-01  4.90982485e-01  4.90982485e-01  4.90982485e-01  4.90982485e-01  4.17434062e-07  1.79056769e-12  1.00000000e+00 
 1.05000000e+00  4.96074920e-01  4.96074920e-01  4.96074920e-01  4.96074920e-01  4.96074920e-01  4.96074920e-01  4.96074920e-01  4.70093998e-07  2.41584530e-12  1.00000000e+00 
 1.06000000e+00  5.00629155e-01  5.00629155e-01  5.00629155e-01  5.00629155e-01  5.00629155e-01  5.00629155e-01  5.00629155e-01  5.22504195e-07  3.12638804e-12  1.00000000e+00 
 1.07000000e+00  5.04557829e-01  5.04557829e-01  5.04557829e-01  5.04557829e-01  5.04557829e-01  5.04557829e-01  5.04557829e-01  5.72133029e-07  3.89377419e-12  1.00000000e+00 
 1.08000000e+00  5.07765446e-01  5.07765446e-01  5.07765446e-01  5.07765446e-01  5.07765446e-01  5.07765446e-01  5.07765446e-01  6.15928315e-07  4.66116035e-12  1.00000000e+00 
 1.09000000e+00  5.10150912e-01  5.10150912e-01  5.10150912e-01  5.10150912e-01  5.10150912e-01  5.10150912e-01  5.10150912e-01  6.50634107e-07  5.57065505e-12  1.00000000e+00 
 1.10000000e+00  5.11725930e-01  5.11725929e-01  5.11725930e-01  5.11725930e-01  5.11725929e-01  5.11725930e-01  5.11725930e-01  6.74493492e-07  6.53699317e-12  1.00000000e+00 
