 v-sweep         v(b0)           v(b1)           v(b2)           v(b3)           v(b4)           v(b5)           v(b6)           i(vbias)        i(viout)        v(vout)        
 0.00000000e+00  3.23253145e-18  3.23253146e-18  3.23253144e-18  3.23253142e-18  3.23253146e-18  3.23253146e-18 -2.89330131e-16 -2.70291408e-32 -4.73875134e-03  1.00000000e+00 
 1.00000000e-02  1.89600974e-03  1.89600974e-03  1.89600974e-03  1.89600974e-03  1.89600974e-03  1.89600974e-03  1.68707131e-03  1.16528826e-14 -4.31186733e-03  1.00000000e+00 
 2.00000000e-02  3.76433234e-03  3.76433234e-03  3.76433234e-03  3.76433234e-03  3.76433234e-03  3.76433234e-03  2.93137141e-03  2.27766660e-14 -3.89916578e-03  1.00000000e+00 
 3.00000000e-02  5.60875870e-03  5.60875871e-03  5.60875870e-03  5.60875870e-03  5.60875870e-03  5.60875870e-03  3.73643735e-03  3.35054546e-14 -3.50201905e-03  1.00000000e+00 
 4.00000000e-02  7.43871955e-03  7.43871956e-03  7.43871955e-03  7.43871955e-03  7.43871955e-03  7.43871955e-03  4.14521636e-03  4.39461073e-14 -3.12191655e-03  1.00000000e+00 
 5.00000000e-02  9.25861557e-03  9.25861558e-03  9.25861557e-03  9.25861557e-03  9.25861557e-03  9.25861558e-03  4.22681892e-03  5.41292746e-14 -2.76043316e-03  1.00000000e+00 
 6.00000000e-02  1.10662394e-02  1.10662394e-02  1.10662394e-02  1.10662394e-02  1.10662394e-02  1.10662394e-02  4.07031372e-03  6.41475288e-14 -2.41922433e-03  1.00000000e+00 
 7.00000000e-02  1.28694304e-02  1.28694304e-02  1.28694304e-02  1.28694304e-02  1.28694304e-02  1.28694304e-02  3.75702581e-03  7.40491500e-14 -2.09994815e-03  1.00000000e+00 
 8.00000000e-02  1.46603934e-02  1.46603934e-02  1.46603934e-02  1.46603934e-02  1.46603934e-02  1.46603934e-02  3.35883744e-03  8.38577322e-14 -1.80417906e-03  1.00000000e+00 
 9.00000000e-02  1.64596277e-02  1.64596277e-02  1.64596277e-02  1.64596277e-02  1.64596277e-02  1.64596277e-02  2.93056991e-03  9.35531983e-14 -1.53332034e-03  1.00000000e+00 
 1.00000000e-01  1.82551227e-02  1.82551227e-02  1.82551227e-02  1.82551227e-02  1.82551227e-02  1.82551227e-02  2.50806258e-03  1.03251558e-13 -1.28848230e-03  1.00000000e+00 
 1.10000000e-01  2.00607242e-02  2.00607242e-02  2.00607242e-02  2.00607242e-02  2.00607242e-02  2.00607242e-02  2.11449043e-03  1.12895318e-13 -1.07033101e-03  1.00000000e+00 
 1.20000000e-01  2.18584324e-02  2.18584324e-02  2.18584324e-02  2.18584324e-02  2.18584324e-02  2.18584324e-02  1.76126095e-03  1.22473575e-13 -8.78922598e-04  1.00000000e+00 
 1.30000000e-01  2.36643305e-02  2.36643306e-02  2.36643305e-02  2.36643305e-02  2.36643305e-02  2.36643305e-02  1.45306558e-03  1.32117451e-13 -7.13812241e-04  1.00000000e+00 
 1.40000000e-01  2.54438241e-02  2.54438241e-02  2.54438241e-02  2.54438241e-02  2.54438241e-02  2.54438241e-02  1.18923802e-03  1.41659593e-13 -5.73663067e-04  1.00000000e+00 
 1.50000000e-01  2.72346430e-02  2.72346430e-02  2.72346430e-02  2.72346430e-02  2.72346430e-02  2.72346430e-02  9.67142806e-04  1.51158208e-13 -4.56673369e-04  1.00000000e+00 
 1.60000000e-01  2.90432215e-02  2.90432215e-02  2.90432215e-02  2.90432215e-02  2.90432215e-02  2.90432215e-02  7.82459496e-04  1.60746210e-13 -3.60585902e-04  1.00000000e+00 
 1.70000000e-01  3.08108690e-02  3.08108690e-02  3.08108690e-02  3.08108690e-02  3.08108690e-02  3.08108690e-02  6.30115904e-04  1.70298571e-13 -2.82772745e-04  1.00000000e+00 
 1.80000000e-01  3.25707837e-02  3.25707837e-02  3.25707837e-02  3.25707837e-02  3.25707837e-02  3.25707837e-02  5.05544291e-04  1.79857404e-13 -2.20541130e-04  1.00000000e+00 
 1.90000000e-01  3.43287058e-02  3.43287058e-02  3.43287058e-02  3.43287058e-02  3.43287058e-02  3.43287058e-02  4.04320707e-04  1.89459458e-13 -1.71329300e-04  1.00000000e+00 
 2.00000000e-01  3.60720588e-02  3.60720588e-02  3.60720588e-02  3.60720588e-02  3.60720588e-02  3.60720588e-02  3.22473188e-04  1.99024868e-13 -1.32754223e-04  1.00000000e+00 
 2.10000000e-01  3.78021988e-02  3.78021988e-02  3.78021988e-02  3.78021988e-02  3.78021988e-02  3.78021988e-02  2.56601276e-04  2.08512745e-13 -1.02693130e-04  1.00000000e+00 
 2.20000000e-01  3.94969450e-02  3.94969451e-02  3.94969450e-02  3.94969450e-02  3.94969450e-02  3.94969450e-02  2.03755406e-04  2.18061402e-13 -7.94088706e-05  1.00000000e+00 
 2.30000000e-01  4.11793839e-02  4.11793839e-02  4.11793839e-02  4.11793839e-02  4.11793839e-02  4.11793839e-02  1.61514958e-04  2.27746228e-13 -6.14263661e-05  1.00000000e+00 
 2.40000000e-01  4.28224842e-02  4.28224842e-02  4.28224842e-02  4.28224842e-02  4.28224842e-02  4.28224842e-02  1.27829847e-04  2.37354254e-13 -4.75532963e-05  1.00000000e+00 
 2.50000000e-01  4.44648127e-02  4.44648127e-02  4.44648127e-02  4.44648127e-02  4.44648126e-02  4.44648127e-02  1.01042331e-04  2.47131834e-13 -3.68650686e-05  1.00000000e+00 
 2.60000000e-01  4.60485441e-02  4.60485441e-02  4.60485441e-02  4.60485441e-02  4.60485441e-02  4.60485441e-02  7.97736710e-05  2.56860983e-13 -2.86194171e-05  1.00000000e+00 
 2.70000000e-01  4.76277086e-02  4.76277086e-02  4.76277086e-02  4.76277086e-02  4.76277086e-02  4.76277086e-02  6.29229108e-05  2.66688686e-13 -2.22645968e-05  1.00000000e+00 
 2.80000000e-01  4.91885214e-02  4.91885214e-02  4.91885214e-02  4.91885214e-02  4.91885214e-02  4.91885214e-02  4.95926163e-05  2.76716218e-13 -1.73553082e-05  1.00000000e+00 
 2.90000000e-01  5.06925815e-02  5.06925815e-02  5.06925815e-02  5.06925815e-02  5.06925815e-02  5.06925815e-02  3.90595585e-05  2.86927451e-13 -1.35493245e-05  1.00000000e+00 
 3.00000000e-01  5.21751205e-02  5.21751205e-02  5.21751205e-02  5.21751205e-02  5.21751205e-02  5.21751205e-02  3.07482073e-05  2.97460695e-13 -1.06081615e-05  1.00000000e+00 
 3.10000000e-01  5.36410998e-02  5.36410999e-02  5.36410999e-02  5.36410998e-02  5.36410998e-02  5.36410999e-02  2.41969183e-05  3.08131924e-13 -8.31874236e-06  1.00000000e+00 
 3.20000000e-01  5.50862678e-02  5.50862678e-02  5.50862678e-02  5.50862678e-02  5.50862678e-02  5.50862678e-02  1.90373838e-05  3.19483738e-13 -6.53129572e-06  1.00000000e+00 
 3.30000000e-01  5.64960063e-02  5.64960063e-02  5.64960063e-02  5.64960063e-02  5.64960063e-02  5.64960063e-02  1.49767945e-05  3.31275517e-13 -5.14448485e-06  1.00000000e+00 
 3.40000000e-01  5.78642757e-02  5.78642758e-02  5.78642757e-02  5.78642757e-02  5.78642757e-02  5.78642757e-02  1.17831123e-05  3.43938704e-13 -4.05330564e-06  1.00000000e+00 
 3.50000000e-01  5.92243875e-02  5.92243875e-02  5.92243875e-02  5.92243875e-02  5.92243875e-02  5.92243875e-02  9.27273010e-06  3.57694614e-13 -3.20315793e-06  1.00000000e+00 
 3.60000000e-01  6.05646751e-02  6.05646751e-02  6.05646751e-02  6.05646751e-02  6.05646751e-02  6.05646751e-02  7.30011178e-06  3.73168795e-13 -2.53221918e-06  1.00000000e+00 
 3.70000000e-01  6.18748633e-02  6.18748633e-02  6.18748633e-02  6.18748633e-02  6.18748633e-02  6.18748633e-02  5.75041748e-06  3.90859708e-13 -1.99594838e-06  1.00000000e+00 
 3.80000000e-01  6.31784871e-02  6.31784871e-02  6.31784871e-02  6.31784871e-02  6.31784871e-02  6.31784871e-02  4.53317530e-06  4.11145402e-13 -1.57990014e-06  1.00000000e+00 
 3.90000000e-01  6.44648303e-02  6.44648304e-02  6.44648304e-02  6.44648303e-02  6.44648303e-02  6.44648304e-02  3.57702950e-06  4.35810798e-13 -1.24972834e-06  1.00000000e+00 
 4.00000000e-01  6.58104041e-02  6.58104041e-02  6.58104041e-02  6.58104041e-02  6.58104041e-02  6.58104041e-02  2.82594245e-06  4.65411509e-13 -9.90667672e-07  1.00000000e+00 
 4.10000000e-01  6.71123452e-02  6.71123452e-02  6.71123452e-02  6.71123452e-02  6.71123452e-02  6.71123452e-02  2.23565689e-06  5.02585163e-13 -7.83936400e-07  1.00000000e+00 
 4.20000000e-01  6.84417051e-02  6.84417051e-02  6.84417051e-02  6.84417051e-02  6.84417051e-02  6.84417051e-02  1.77159078e-06  5.49473546e-13 -6.21420369e-07  1.00000000e+00 
 4.30000000e-01  6.97977860e-02  6.97977860e-02  6.97977860e-02  6.97977860e-02  6.97977860e-02  6.97977860e-02  1.40652426e-06  6.10161898e-13 -4.92746281e-07  1.00000000e+00 
 4.40000000e-01  7.12433534e-02  7.12433534e-02  7.12433534e-02  7.12433534e-02  7.12433534e-02  7.12433534e-02  1.11912841e-06  6.88267999e-13 -3.91506077e-07  1.00000000e+00 
 4.50000000e-01  7.27518722e-02  7.27518722e-02  7.27518722e-02  7.27518722e-02  7.27518722e-02  7.27518722e-02  8.92644547e-07  7.91548169e-13 -3.10933785e-07  1.00000000e+00 
 4.60000000e-01  7.43863825e-02  7.43863825e-02  7.43863825e-02  7.43863825e-02  7.43863825e-02  7.43863825e-02  7.13962655e-07  9.28156965e-13 -2.47799647e-07  1.00000000e+00 
 4.70000000e-01  7.61801455e-02  7.61801456e-02  7.61801455e-02  7.61801455e-02  7.61801455e-02  7.61801455e-02  5.72799561e-07  1.11015154e-12 -1.98109703e-07  1.00000000e+00 
 4.80000000e-01  7.82085223e-02  7.82085224e-02  7.82085223e-02  7.82085223e-02  7.82085223e-02  7.82085223e-02  4.61103220e-07  1.35422256e-12 -1.58050398e-07  1.00000000e+00 
 4.90000000e-01  8.04847105e-02  8.04847106e-02  8.04847105e-02  8.04847105e-02  8.04847105e-02  8.04847105e-02  3.72559105e-07  1.68333874e-12 -1.25140062e-07  1.00000000e+00 
 5.00000000e-01  8.31347264e-02  8.31347265e-02  8.31347264e-02  8.31347264e-02  8.31347264e-02  8.31347264e-02  3.02229015e-07  2.12846928e-12 -9.78341745e-08  1.00000000e+00 
 5.10000000e-01  8.62398116e-02  8.62398116e-02  8.62398116e-02  8.62398116e-02  8.62398116e-02  8.62398116e-02  2.46239253e-07  2.73167017e-12 -7.55459695e-08  1.00000000e+00 
 5.20000000e-01  8.98890825e-02  8.98890825e-02  8.98890825e-02  8.98890825e-02  8.98890825e-02  8.98890825e-02  2.01554454e-07  3.55085736e-12 -5.77924908e-08  1.00000000e+00 
 5.30000000e-01  9.41472547e-02  9.41472548e-02  9.41472547e-02  9.41472547e-02  9.41472547e-02  9.41472547e-02  1.65794604e-07  4.66493413e-12 -4.39421228e-08  1.00000000e+00 
 5.40000000e-01  9.91479552e-02  9.91479552e-02  9.91479552e-02  9.91479552e-02  9.91479552e-02  9.91479552e-02  1.37094398e-07  6.17415168e-12 -3.33094761e-08  1.00000000e+00 
 5.50000000e-01  1.04921117e-01  1.04921117e-01  1.04921117e-01  1.04921117e-01  1.04921117e-01  1.04921117e-01  1.13987905e-07  8.22160471e-12 -2.52047698e-08  1.00000000e+00 
 5.60000000e-01  1.11439663e-01  1.11439663e-01  1.11439663e-01  1.11439663e-01  1.11439663e-01  1.11439663e-01  9.53231484e-08  1.09898783e-11 -1.90472349e-08  1.00000000e+00 
 5.70000000e-01  1.18693308e-01  1.18693308e-01  1.18693308e-01  1.18693307e-01  1.18693307e-01  1.18693308e-01  8.01947114e-08  1.47121744e-11 -1.43837013e-08  1.00000000e+00 
 5.80000000e-01  1.26602429e-01  1.26602429e-01  1.26602429e-01  1.26602429e-01  1.26602429e-01  1.26602429e-01  6.78884826e-08  1.97171481e-11 -1.08560130e-08  1.00000000e+00 
 5.90000000e-01  1.35088336e-01  1.35088337e-01  1.35088336e-01  1.35088336e-01  1.35088336e-01  1.35088336e-01  5.78408342e-08  2.64274527e-11 -8.19038348e-09  1.00000000e+00 
 6.00000000e-01  1.44052513e-01  1.44052513e-01  1.44052513e-01  1.44052513e-01  1.44052513e-01  1.44052513e-01  4.96056197e-08  3.54019930e-11 -6.17812645e-09  1.00000000e+00 
 6.10000000e-01  1.53383192e-01  1.53383193e-01  1.53383192e-01  1.53383192e-01  1.53383192e-01  1.53383192e-01  4.28288996e-08  4.73845858e-11 -4.65996663e-09  1.00000000e+00 
 6.20000000e-01  1.62998103e-01  1.62998103e-01  1.62998103e-01  1.62998103e-01  1.62998103e-01  1.62998103e-01  3.72292787e-08  6.33154128e-11 -3.51531071e-09  1.00000000e+00 
 6.30000000e-01  1.72796439e-01  1.72796439e-01  1.72796439e-01  1.72796439e-01  1.72796439e-01  1.72796439e-01  3.25824107e-08  8.44419005e-11 -2.65281130e-09  1.00000000e+00 
 6.40000000e-01  1.82708247e-01  1.82708247e-01  1.82708247e-01  1.82708247e-01  1.82708247e-01  1.82708247e-01  2.87090875e-08  1.12309648e-10 -2.00327577e-09  1.00000000e+00 
 6.50000000e-01  1.92667083e-01  1.92667083e-01  1.92667083e-01  1.92667083e-01  1.92667083e-01  1.92667083e-01  2.54657907e-08  1.48932752e-10 -1.51455026e-09  1.00000000e+00 
 6.60000000e-01  2.02618281e-01  2.02618281e-01  2.02618281e-01  2.02618281e-01  2.02618281e-01  2.02618281e-01  2.27373293e-08  1.96782188e-10 -1.14744125e-09  1.00000000e+00 
 6.70000000e-01  2.12519082e-01  2.12519082e-01  2.12519082e-01  2.12519082e-01  2.12519082e-01  2.12519082e-01  2.04310328e-08  2.58982145e-10 -8.72262262e-10  1.00000000e+00 
 6.80000000e-01  2.22329120e-01  2.22329120e-01  2.22329120e-01  2.22329120e-01  2.22329120e-01  2.22329120e-01  1.84721601e-08  3.39328284e-10 -6.66872779e-10  1.00000000e+00 
 6.90000000e-01  2.32025432e-01  2.32025432e-01  2.32025432e-01  2.32025432e-01  2.32025432e-01  2.32025432e-01  1.68002848e-08  4.42504533e-10 -5.14617682e-10  1.00000000e+00 
 7.00000000e-01  2.41579360e-01  2.41579360e-01  2.41579360e-01  2.41579360e-01  2.41579360e-01  2.41579360e-01  1.53664089e-08  5.74096069e-10 -4.02920364e-10  1.00000000e+00 
 7.10000000e-01  2.50973837e-01  2.50973837e-01  2.50973837e-01  2.50973837e-01  2.50973837e-01  2.50973837e-01  1.41306932e-08  7.40817394e-10 -3.22557980e-10  1.00000000e+00 
 7.20000000e-01  2.60193526e-01  2.60193526e-01  2.60193526e-01  2.60193526e-01  2.60193526e-01  2.60193526e-01  1.30606418e-08  9.50568124e-10 -2.66922484e-10  1.00000000e+00 
 7.30000000e-01  2.69228436e-01  2.69228436e-01  2.69228436e-01  2.69228436e-01  2.69228436e-01  2.69228436e-01  1.21296631e-08  1.21264984e-09 -2.30883757e-10  1.00000000e+00 
 7.40000000e-01  2.78072305e-01  2.78072305e-01  2.78072305e-01  2.78072305e-01  2.78072305e-01  2.78072305e-01  1.13159230e-08  1.53786991e-09 -2.11002771e-10  1.00000000e+00 
 7.50000000e-01  2.86720576e-01  2.86720576e-01  2.86720576e-01  2.86720576e-01  2.86720576e-01  2.86720576e-01  1.06014298e-08  1.93869684e-09 -2.04877892e-10  1.00000000e+00 
 7.60000000e-01  2.95173676e-01  2.95173676e-01  2.95173676e-01  2.95173676e-01  2.95173676e-01  2.95173676e-01  9.97130528e-09  2.42960169e-09 -2.10789608e-10  1.00000000e+00 
 7.70000000e-01  3.03436062e-01  3.03436062e-01  3.03436062e-01  3.03436062e-01  3.03436062e-01  3.03436062e-01  9.41320023e-09  3.02718278e-09 -2.27842634e-10  1.00000000e+00 
 7.80000000e-01  3.11511516e-01  3.11511516e-01  3.11511516e-01  3.11511516e-01  3.11511516e-01  3.11511516e-01  8.91682575e-09  3.75064019e-09 -2.55170107e-10  1.00000000e+00 
 7.90000000e-01  3.19410171e-01  3.19410171e-01  3.19410171e-01  3.19410171e-01  3.19410171e-01  3.19410171e-01  8.47357843e-09  4.62203242e-09 -2.91393576e-10  1.00000000e+00 
 8.00000000e-01  3.27142327e-01  3.27142327e-01  3.27142327e-01  3.27142327e-01  3.27142327e-01  3.27142327e-01  8.07623655e-09  5.66695135e-09 -3.31127126e-10  1.00000000e+00 
 8.10000000e-01  3.34720383e-01  3.34720383e-01  3.34720383e-01  3.34720383e-01  3.34720383e-01  3.34720383e-01  7.71871576e-09  6.91514845e-09 -3.57545105e-10  1.00000000e+00 
 8.20000000e-01  3.42157982e-01  3.42157982e-01  3.42157982e-01  3.42157982e-01  3.42157982e-01  3.42157982e-01  7.39587094e-09  8.40130276e-09 -3.50169671e-10  1.00000000e+00 
 8.30000000e-01  3.49469830e-01  3.49469830e-01  3.49469830e-01  3.49469830e-01  3.49469830e-01  3.49469830e-01  7.10333540e-09  1.01658729e-08 -3.11857207e-10  1.00000000e+00 
 8.40000000e-01  3.56670150e-01  3.56670150e-01  3.56670150e-01  3.56670150e-01  3.56670150e-01  3.56670150e-01  6.83738946e-09  1.22564783e-08 -2.59547051e-10  1.00000000e+00 
 8.50000000e-01  3.63774101e-01  3.63774101e-01  3.63774101e-01  3.63774101e-01  3.63774101e-01  3.63774101e-01  6.59485358e-09  1.47289834e-08 -2.07322159e-10  1.00000000e+00 
 8.60000000e-01  3.70795862e-01  3.70795862e-01  3.70795862e-01  3.70795862e-01  3.70795862e-01  3.70795862e-01  6.37300036e-09  1.76490231e-08 -1.61776370e-10  1.00000000e+00 
 8.70000000e-01  3.77748897e-01  3.77748897e-01  3.77748897e-01  3.77748897e-01  3.77748897e-01  3.77748897e-01  6.16948214e-09  2.10940077e-08 -1.24487087e-10  1.00000000e+00 
 8.80000000e-01  3.84645460e-01  3.84645460e-01  3.84645460e-01  3.84645460e-01  3.84645460e-01  3.84645460e-01  5.98227137e-09  2.51548289e-08 -9.49569312e-11  1.00000000e+00 
 8.90000000e-01  3.91496355e-01  3.91496355e-01  3.91496355e-01  3.91496355e-01  3.91496355e-01  3.91496355e-01  5.80961122e-09  2.99378873e-08 -7.20064008e-11  1.00000000e+00 
 9.00000000e-01  3.98310363e-01  3.98310363e-01  3.98310363e-01  3.98310363e-01  3.98310363e-01  3.98310363e-01  5.64997453e-09  3.55673544e-08 -5.44275736e-11  1.00000000e+00 
 9.10000000e-01  4.05093779e-01  4.05093779e-01  4.05093779e-01  4.05093779e-01  4.05093779e-01  4.05093779e-01  5.50202949e-09  4.21868580e-08 -4.10693701e-11  1.00000000e+00 
 9.20000000e-01  4.11849498e-01  4.11849498e-01  4.11849498e-01  4.11849498e-01  4.11849498e-01  4.11849498e-01  5.36461118e-09  4.99607085e-08 -3.09512416e-11  1.00000000e+00 
 9.30000000e-01  4.18576443e-01  4.18576443e-01  4.18576443e-01  4.18576443e-01  4.18576443e-01  4.18576443e-01  5.23669735e-09  5.90732405e-08 -2.32631692e-11  1.00000000e+00 
 9.40000000e-01  4.25268039e-01  4.25268039e-01  4.25268039e-01  4.25268039e-01  4.25268039e-01  4.25268039e-01  5.11738836e-09  6.97259663e-08 -1.73798753e-11  1.00000000e+00 
 9.50000000e-01  4.31911001e-01  4.31911001e-01  4.31911001e-01  4.31911001e-01  4.31911001e-01  4.31911001e-01  5.00589008e-09  8.21296045e-08 -1.28892452e-11  1.00000000e+00 
 9.60000000e-01  4.38483167e-01  4.38483167e-01  4.38483167e-01  4.38483167e-01  4.38483167e-01  4.38483167e-01  4.90149946e-09  9.64888951e-08 -9.40758582e-12  1.00000000e+00 
 9.70000000e-01  4.44951528e-01  4.44951528e-01  4.44951528e-01  4.44951528e-01  4.44951528e-01  4.44951528e-01  4.80359202e-09  1.12976606e-07 -6.79278855e-12  1.00000000e+00 
 9.80000000e-01  4.51269977e-01  4.51269977e-01  4.51269977e-01  4.51269977e-01  4.51269977e-01  4.51269977e-01  4.71161168e-09  1.31693264e-07 -4.68958206e-12  1.00000000e+00 
 9.90000000e-01  4.57377575e-01  4.57377575e-01  4.57377575e-01  4.57377575e-01  4.57377575e-01  4.57377575e-01  4.62506191e-09  1.52611497e-07 -3.04112291e-12  1.00000000e+00 
 1.00000000e+00  4.63198477e-01  4.63198477e-01  4.63198477e-01  4.63198476e-01  4.63198476e-01  4.63198477e-01  4.54349778e-09  1.75509220e-07 -1.70530257e-12  1.00000000e+00 
 1.01000000e+00  4.68643585e-01  4.68643585e-01  4.68643585e-01  4.68643585e-01  4.68643585e-01  4.68643585e-01  4.46652007e-09  1.99902409e-07 -5.68434189e-13  1.00000000e+00 
 1.02000000e+00  4.73613392e-01  4.73613392e-01  4.73613392e-01  4.73613392e-01  4.73613392e-01  4.73613392e-01  4.39376977e-09  2.24991080e-07  4.12114787e-13  1.00000000e+00 
 1.03000000e+00  4.77999785e-01  4.77999785e-01  4.77999785e-01  4.77999785e-01  4.77999785e-01  4.77999785e-01  4.32492317e-09  2.49626311e-07  1.32160949e-12  1.00000000e+00 
 1.04000000e+00  4.81687392e-01  4.81687392e-01  4.81687392e-01  4.81687392e-01  4.81687392e-01  4.81687392e-01  4.25968793e-09  2.72319973e-07  2.20268248e-12  1.00000000e+00 
 1.05000000e+00  4.84548690e-01  4.84548690e-01  4.84548690e-01  4.84548690e-01  4.84548690e-01  4.84548690e-01  4.19779910e-09  2.91326593e-07  3.08375547e-12  1.00000000e+00 
 1.06000000e+00  4.86566382e-01  4.86566382e-01  4.86566382e-01  4.86566382e-01  4.86566382e-01  4.86566382e-01  4.13902212e-09  3.05458943e-07  4.06430445e-12  1.00000000e+00 
 1.07000000e+00  4.87806734e-01  4.87806734e-01  4.87806734e-01  4.87806734e-01  4.87806734e-01  4.87806734e-01  4.08314826e-09  3.14469975e-07  5.14432941e-12  1.00000000e+00 
 1.08000000e+00  4.88493202e-01  4.88493202e-01  4.88493202e-01  4.88493202e-01  4.88493202e-01  4.88493202e-01  4.02999510e-09  3.19539961e-07  6.46593890e-12  1.00000000e+00 
 1.09000000e+00  4.88833555e-01  4.88833555e-01  4.88833555e-01  4.88833555e-01  4.88833555e-01  4.88833555e-01  3.97939562e-09  3.22111415e-07  8.18545232e-12  1.00000000e+00 
 1.10000000e+00  4.89007261e-01  4.89007261e-01  4.89007261e-01  4.89007261e-01  4.89007261e-01  4.89007261e-01  3.93119616e-09  3.23430967e-07  1.05160325e-11  1.00000000e+00 
