 v-sweep         v(b0)           v(b1)           v(b2)           v(b3)           v(b4)           v(b5)           v(b6)           i(vbias)        i(viout)        v(vout)        
 0.00000000e+00 -2.61923288e-24 -2.61923288e-24 -2.61923288e-24 -2.61923288e-24 -2.61923288e-24 -2.61923288e-24  2.25758334e-23 -3.65039144e-30 -5.70506190e-03  1.00000000e+00 
 1.00000000e-02  1.76625646e-03  1.76625646e-03  1.76625646e-03  1.76625646e-03  1.76625646e-03  1.76625646e-03  1.68723201e-03  1.35754479e-14 -5.25167924e-03  1.00000000e+00 
 2.00000000e-02  3.49030674e-03  3.49030674e-03  3.49030674e-03  3.49030674e-03  3.49030674e-03  3.49030674e-03  2.96136835e-03  2.61562758e-14 -4.80990950e-03  1.00000000e+00 
 3.00000000e-02  5.18203524e-03  5.18203524e-03  5.18203524e-03  5.18203524e-03  5.18203524e-03  5.18203524e-03  3.81172467e-03  3.80095972e-14 -4.38086424e-03  1.00000000e+00 
 4.00000000e-02  6.83840493e-03  6.83840493e-03  6.83840492e-03  6.83840493e-03  6.83840493e-03  6.83840493e-03  4.26589515e-03  4.92940988e-14 -3.96578021e-03  1.00000000e+00 
 5.00000000e-02  8.46778014e-03  8.46778014e-03  8.46778013e-03  8.46778014e-03  8.46778014e-03  8.46778014e-03  4.38592273e-03  6.01748875e-14 -3.56601437e-03  1.00000000e+00 
 6.00000000e-02  1.00865333e-02  1.00865333e-02  1.00865333e-02  1.00865333e-02  1.00865333e-02  1.00865333e-02  4.25488933e-03  7.07219724e-14 -3.18305531e-03  1.00000000e+00 
 7.00000000e-02  1.16792806e-02  1.16792806e-02  1.16792806e-02  1.16792806e-02  1.16792806e-02  1.16792806e-02  3.95225091e-03  8.10293876e-14 -2.81845889e-03  1.00000000e+00 
 8.00000000e-02  1.32522010e-02  1.32522010e-02  1.32522010e-02  1.32522010e-02  1.32522010e-02  1.32522010e-02  3.55176634e-03  9.11279786e-14 -2.47386234e-03  1.00000000e+00 
 9.00000000e-02  1.48224135e-02  1.48224135e-02  1.48224134e-02  1.48224135e-02  1.48224135e-02  1.48224135e-02  3.11139826e-03  1.01147985e-13 -2.15093248e-03  1.00000000e+00 
 1.00000000e-01  1.63665338e-02  1.63665338e-02  1.63665338e-02  1.63665338e-02  1.63665338e-02  1.63665338e-02  2.67089794e-03  1.11003004e-13 -1.85125666e-03  1.00000000e+00 
 1.10000000e-01  1.79218696e-02  1.79218696e-02  1.79218696e-02  1.79218696e-02  1.79218696e-02  1.79218696e-02  2.25748332e-03  1.20851286e-13 -1.57629654e-03  1.00000000e+00 
 1.20000000e-01  1.94907644e-02  1.94907644e-02  1.94907644e-02  1.94907644e-02  1.94907644e-02  1.94907644e-02  1.88443281e-03  1.30567093e-13 -1.32721427e-03  1.00000000e+00 
 1.30000000e-01  2.10072061e-02  2.10072061e-02  2.10072061e-02  2.10072061e-02  2.10072061e-02  2.10072061e-02  1.55637719e-03  1.40322568e-13 -1.10476373e-03  1.00000000e+00 
 1.40000000e-01  2.25599530e-02  2.25599530e-02  2.25599530e-02  2.25599530e-02  2.25599530e-02  2.25599530e-02  1.27542075e-03  1.49959377e-13 -9.09118581e-04  1.00000000e+00 
 1.50000000e-01  2.41048159e-02  2.41048159e-02  2.41048159e-02  2.41048159e-02  2.41048159e-02  2.41048159e-02  1.03812587e-03  1.59668177e-13 -7.39782863e-04  1.00000000e+00 
 1.60000000e-01  2.56172422e-02  2.56172422e-02  2.56172421e-02  2.56172422e-02  2.56172422e-02  2.56172422e-02  8.40116539e-04  1.69315001e-13 -5.95733627e-04  1.00000000e+00 
 1.70000000e-01  2.71292587e-02  2.71292587e-02  2.71292587e-02  2.71292587e-02  2.71292587e-02  2.71292587e-02  6.76766570e-04  1.78952664e-13 -4.75173223e-04  1.00000000e+00 
 1.80000000e-01  2.86453245e-02  2.86453245e-02  2.86453245e-02  2.86453245e-02  2.86453245e-02  2.86453245e-02  5.43087602e-04  1.88586234e-13 -3.75815950e-04  1.00000000e+00 
 1.90000000e-01  3.01256131e-02  3.01256131e-02  3.01256131e-02  3.01256131e-02  3.01256131e-02  3.01256131e-02  4.34316479e-04  1.98158330e-13 -2.95180260e-04  1.00000000e+00 
 2.00000000e-01  3.16233906e-02  3.16233906e-02  3.16233906e-02  3.16233906e-02  3.16233906e-02  3.16233906e-02  3.46389563e-04  2.07730209e-13 -2.30563692e-04  1.00000000e+00 
 2.10000000e-01  3.30952034e-02  3.30952034e-02  3.30952033e-02  3.30952034e-02  3.30952034e-02  3.30952034e-02  2.75573609e-04  2.17443874e-13 -1.79324391e-04  1.00000000e+00 
 2.20000000e-01  3.45248258e-02  3.45248258e-02  3.45248258e-02  3.45248258e-02  3.45248259e-02  3.45248258e-02  2.18753661e-04  2.26969024e-13 -1.39088209e-04  1.00000000e+00 
 2.30000000e-01  3.59716664e-02  3.59716663e-02  3.59716663e-02  3.59716663e-02  3.59716664e-02  3.59716664e-02  1.73350221e-04  2.36729879e-13 -1.07689552e-04  1.00000000e+00 
 2.40000000e-01  3.73726107e-02  3.73726106e-02  3.73726106e-02  3.73726106e-02  3.73726107e-02  3.73726107e-02  1.37142176e-04  2.46381312e-13 -8.32693711e-05  1.00000000e+00 
 2.50000000e-01  3.87928267e-02  3.87928267e-02  3.87928267e-02  3.87928267e-02  3.87928268e-02  3.87928268e-02  1.08358059e-04  2.56241399e-13 -6.43853769e-05  1.00000000e+00 
 2.60000000e-01  4.01747844e-02  4.01747844e-02  4.01747844e-02  4.01747844e-02  4.01747844e-02  4.01747844e-02  8.55100037e-05  2.66182096e-13 -4.98221692e-05  1.00000000e+00 
 2.70000000e-01  4.15219253e-02  4.15219253e-02  4.15219253e-02  4.15219253e-02  4.15219253e-02  4.15219253e-02  6.74097441e-05  2.76144694e-13 -3.85691017e-05  1.00000000e+00 
 2.80000000e-01  4.28570293e-02  4.28570293e-02  4.28570292e-02  4.28570293e-02  4.28570293e-02  4.28570293e-02  5.30965581e-05  2.86157518e-13 -2.99041510e-05  1.00000000e+00 
 2.90000000e-01  4.41837598e-02  4.41837598e-02  4.41837598e-02  4.41837598e-02  4.41837598e-02  4.41837598e-02  4.17946206e-05  2.96546397e-13 -2.32105814e-05  1.00000000e+00 
 3.00000000e-01  4.54805068e-02  4.54805068e-02  4.54805068e-02  4.54805068e-02  4.54805068e-02  4.54805068e-02  3.28797280e-05  3.07110945e-13 -1.80498097e-05  1.00000000e+00 
 3.10000000e-01  4.67883090e-02  4.67883090e-02  4.67883090e-02  4.67883090e-02  4.67883090e-02  4.67883090e-02  2.58569919e-05  3.17941501e-13 -1.40474291e-05  1.00000000e+00 
 3.20000000e-01  4.80262885e-02  4.80262885e-02  4.80262884e-02  4.80262885e-02  4.80262885e-02  4.80262885e-02  2.03276495e-05  3.29266996e-13 -1.09623313e-05  1.00000000e+00 
 3.30000000e-01  4.92734476e-02  4.92734476e-02  4.92734476e-02  4.92734476e-02  4.92734476e-02  4.92734476e-02  1.59794493e-05  3.41382630e-13 -8.55878957e-06  1.00000000e+00 
 3.40000000e-01  5.05237903e-02  5.05237903e-02  5.05237903e-02  5.05237903e-02  5.05237903e-02  5.05237903e-02  1.25620495e-05  3.54333262e-13 -6.66590569e-06  1.00000000e+00 
 3.50000000e-01  5.17046377e-02  5.17046377e-02  5.17046376e-02  5.17046377e-02  5.17046377e-02  5.17046377e-02  9.87688120e-06  3.68455483e-13 -5.23744012e-06  1.00000000e+00 
 3.60000000e-01  5.29285688e-02  5.29285688e-02  5.29285688e-02  5.29285688e-02  5.29285688e-02  5.29285688e-02  7.76883521e-06  3.84340238e-13 -4.10132134e-06  1.00000000e+00 
 3.70000000e-01  5.41480800e-02  5.41480800e-02  5.41480800e-02  5.41480800e-02  5.41480801e-02  5.41480800e-02  6.11395384e-06  4.02770970e-13 -3.21394174e-06  1.00000000e+00 
 3.80000000e-01  5.52582914e-02  5.52582914e-02  5.52582914e-02  5.52582914e-02  5.52582914e-02  5.52582914e-02  4.81464676e-06  4.24256930e-13 -2.53048307e-06  1.00000000e+00 
 3.90000000e-01  5.64846320e-02  5.64846320e-02  5.64846320e-02  5.64846320e-02  5.64846320e-02  5.64846320e-02  3.79523532e-06  4.50288407e-13 -1.99595132e-06  1.00000000e+00 
 4.00000000e-01  5.76627389e-02  5.76627389e-02  5.76627389e-02  5.76627389e-02  5.76627389e-02  5.76627389e-02  2.99490226e-06  4.82225967e-13 -1.56933433e-06  1.00000000e+00 
 4.10000000e-01  5.89064823e-02  5.89064823e-02  5.89064823e-02  5.89064823e-02  5.89064824e-02  5.89064823e-02  2.36659053e-06  5.22318462e-13 -1.23982028e-06  1.00000000e+00 
 4.20000000e-01  6.01114145e-02  6.01114145e-02  6.01114145e-02  6.01114145e-02  6.01114146e-02  6.01114145e-02  1.87298600e-06  5.73773071e-13 -9.74551966e-07  1.00000000e+00 
 4.30000000e-01  6.14158196e-02  6.14158196e-02  6.14158196e-02  6.14158196e-02  6.14158196e-02  6.14158196e-02  1.48510530e-06  6.39863650e-13 -7.70907093e-07  1.00000000e+00 
 4.40000000e-01  6.27363714e-02  6.27363714e-02  6.27363714e-02  6.27363714e-02  6.27363714e-02  6.27363714e-02  1.18000816e-06  7.26946173e-13 -6.10828636e-07  1.00000000e+00 
 4.50000000e-01  6.42079159e-02  6.42079159e-02  6.42079159e-02  6.42079159e-02  6.42079159e-02  6.42079159e-02  9.39860328e-07  8.41776410e-13 -4.84404438e-07  1.00000000e+00 
 4.60000000e-01  6.57783268e-02  6.57783268e-02  6.57783268e-02  6.57783268e-02  6.57783269e-02  6.57783268e-02  7.50591664e-07  9.94319644e-13 -3.85201986e-07  1.00000000e+00 
 4.70000000e-01  6.75524667e-02  6.75524666e-02  6.75524666e-02  6.75524666e-02  6.75524667e-02  6.75524667e-02  6.01243839e-07  1.19910527e-12 -3.08642569e-07  1.00000000e+00 
 4.80000000e-01  6.95622192e-02  6.95622192e-02  6.95622191e-02  6.95622192e-02  6.95622192e-02  6.95622192e-02  4.83210763e-07  1.47437336e-12 -2.47118209e-07  1.00000000e+00 
 4.90000000e-01  7.18583037e-02  7.18583037e-02  7.18583037e-02  7.18583037e-02  7.18583037e-02  7.18583037e-02  3.89761110e-07  1.84721119e-12 -1.99103567e-07  1.00000000e+00 
 5.00000000e-01  7.45822305e-02  7.45822305e-02  7.45822305e-02  7.45822305e-02  7.45822305e-02  7.45822305e-02  3.15634045e-07  2.35332457e-12 -1.60583710e-07  1.00000000e+00 
 5.10000000e-01  7.77690114e-02  7.77690114e-02  7.77690114e-02  7.77690114e-02  7.77690114e-02  7.77690114e-02  2.56698798e-07  3.04670135e-12 -1.28140300e-07  1.00000000e+00 
 5.20000000e-01  8.15747833e-02  8.15747833e-02  8.15747832e-02  8.15747833e-02  8.15747833e-02  8.15747833e-02  2.09729986e-07  3.99441244e-12 -1.00547766e-07  1.00000000e+00 
 5.30000000e-01  8.60967016e-02  8.60967016e-02  8.60967016e-02  8.60967016e-02  8.60967016e-02  8.60967016e-02  1.72196792e-07  5.29280049e-12 -7.78597098e-08  1.00000000e+00 
 5.40000000e-01  9.14452661e-02  9.14452661e-02  9.14452661e-02  9.14452661e-02  9.14452662e-02  9.14452662e-02  1.42117073e-07  7.06704313e-12 -5.96751022e-08  1.00000000e+00 
 5.50000000e-01  9.75499614e-02  9.75499614e-02  9.75499614e-02  9.75499614e-02  9.75499614e-02  9.75499614e-02  1.17933900e-07  9.48704223e-12 -4.54215865e-08  1.00000000e+00 
 5.60000000e-01  1.04438594e-01  1.04438594e-01  1.04438594e-01  1.04438594e-01  1.04438594e-01  1.04438594e-01  9.84291066e-08  1.27792724e-11 -3.44579973e-08  1.00000000e+00 
 5.70000000e-01  1.12119416e-01  1.12119416e-01  1.12119416e-01  1.12119416e-01  1.12119416e-01  1.12119416e-01  8.26447879e-08  1.72433005e-11 -2.60749573e-08  1.00000000e+00 
 5.80000000e-01  1.20412129e-01  1.20412129e-01  1.20412129e-01  1.20412129e-01  1.20412129e-01  1.20412129e-01  6.98256868e-08  2.32412700e-11 -1.97065617e-08  1.00000000e+00 
 5.90000000e-01  1.29235902e-01  1.29235902e-01  1.29235902e-01  1.29235902e-01  1.29235902e-01  1.29235902e-01  5.93770507e-08  3.13145447e-11 -1.48816071e-08  1.00000000e+00 
 6.00000000e-01  1.38474607e-01  1.38474607e-01  1.38474607e-01  1.38474607e-01  1.38474607e-01  1.38474607e-01  5.08282650e-08  4.21335050e-11 -1.12310659e-08  1.00000000e+00 
 6.10000000e-01  1.48052526e-01  1.48052526e-01  1.48052526e-01  1.48052526e-01  1.48052526e-01  1.48052526e-01  4.38063876e-08  5.65705260e-11 -8.47271053e-09  1.00000000e+00 
 6.20000000e-01  1.57853659e-01  1.57853659e-01  1.57853659e-01  1.57853659e-01  1.57853659e-01  1.57853659e-01  3.80149260e-08  7.57855861e-11 -6.39050768e-09  1.00000000e+00 
 6.30000000e-01  1.67777252e-01  1.67777252e-01  1.67777252e-01  1.67777252e-01  1.67777252e-01  1.67777252e-01  3.32178073e-08  1.01276154e-10 -4.81935558e-09  1.00000000e+00 
 6.40000000e-01  1.77768692e-01  1.77768692e-01  1.77768692e-01  1.77768692e-01  1.77768692e-01  1.77768692e-01  2.92266801e-08  1.34846342e-10 -3.63507979e-09  1.00000000e+00 
 6.50000000e-01  1.87770968e-01  1.87770968e-01  1.87770968e-01  1.87770968e-01  1.87770968e-01  1.87770968e-01  2.58908640e-08  1.78899978e-10 -2.74221179e-09  1.00000000e+00 
 6.60000000e-01  1.97723264e-01  1.97723264e-01  1.97723264e-01  1.97723264e-01  1.97723264e-01  1.97723264e-01  2.30895687e-08  2.36348024e-10 -2.07020889e-09  1.00000000e+00 
 6.70000000e-01  2.07593889e-01  2.07593889e-01  2.07593889e-01  2.07593889e-01  2.07593889e-01  2.07593889e-01  2.07257832e-08  3.10782233e-10 -1.56393298e-09  1.00000000e+00 
 6.80000000e-01  2.17345786e-01  2.17345786e-01  2.17345786e-01  2.17345786e-01  2.17345786e-01  2.17345786e-01  1.87213839e-08  4.06665812e-10 -1.18336629e-09  1.00000000e+00 
 6.90000000e-01  2.26944848e-01  2.26944848e-01  2.26944848e-01  2.26944848e-01  2.26944848e-01  2.26944848e-01  1.70133106e-08  5.29166766e-10 -8.97642849e-10  1.00000000e+00 
 7.00000000e-01  2.36383815e-01  2.36383815e-01  2.36383815e-01  2.36383815e-01  2.36383815e-01  2.36383815e-01  1.55505391e-08  6.84689028e-10 -6.83513690e-10  1.00000000e+00 
 7.10000000e-01  2.45635956e-01  2.45635956e-01  2.45635956e-01  2.45635956e-01  2.45635956e-01  2.45635956e-01  1.42916414e-08  8.80684747e-10 -5.23897370e-10  1.00000000e+00 
 7.20000000e-01  2.54694137e-01  2.54694137e-01  2.54694137e-01  2.54694137e-01  2.54694137e-01  2.54694137e-01  1.32028966e-08  1.12579956e-09 -4.05549372e-10  1.00000000e+00 
 7.30000000e-01  2.63551128e-01  2.63551128e-01  2.63551128e-01  2.63551128e-01  2.63551128e-01  2.63551128e-01  1.22567588e-08  1.43017598e-09 -3.18806315e-10  1.00000000e+00 
 7.40000000e-01  2.72200362e-01  2.72200362e-01  2.72200362e-01  2.72200362e-01  2.72200362e-01  2.72200362e-01  1.14306500e-08  1.80551796e-09 -2.56449084e-10  1.00000000e+00 
 7.50000000e-01  2.80643994e-01  2.80643994e-01  2.80643994e-01  2.80643994e-01  2.80643994e-01  2.80643994e-01  1.07060010e-08  2.26511476e-09 -2.13105977e-10  1.00000000e+00 
 7.60000000e-01  2.88882624e-01  2.88882624e-01  2.88882624e-01  2.88882624e-01  2.88882624e-01  2.88882624e-01  1.00674802e-08  2.82431656e-09 -1.84655846e-10  1.00000000e+00 
 7.70000000e-01  2.96923323e-01  2.96923323e-01  2.96923323e-01  2.96923323e-01  2.96923323e-01  2.96923323e-01  9.50238444e-09  3.50056473e-09 -1.68256520e-10  1.00000000e+00 
 7.80000000e-01  3.04773152e-01  3.04773152e-01  3.04773152e-01  3.04773152e-01  3.04773152e-01  3.04773152e-01  9.00014658e-09  4.31397140e-09 -1.61833213e-10  1.00000000e+00 
 7.90000000e-01  3.12442252e-01  3.12442252e-01  3.12442252e-01  3.12442252e-01  3.12442252e-01  3.12442252e-01  8.55194354e-09  5.28730659e-09 -1.63765890e-10  1.00000000e+00 
 8.00000000e-01  3.19940585e-01  3.19940585e-01  3.19940585e-01  3.19940585e-01  3.19940585e-01  3.19940585e-01  8.15037991e-09  6.44685638e-09 -1.72121872e-10  1.00000000e+00 
 8.10000000e-01  3.27279531e-01  3.27279531e-01  3.27279531e-01  3.27279531e-01  3.27279531e-01  3.27279531e-01  7.78923356e-09  7.82234544e-09 -1.83803195e-10  1.00000000e+00 
 8.20000000e-01  3.34469392e-01  3.34469392e-01  3.34469392e-01  3.34469392e-01  3.34469392e-01  3.34469392e-01  7.46324933e-09  9.44765155e-09 -1.89743332e-10  1.00000000e+00 
 8.30000000e-01  3.41519968e-01  3.41519968e-01  3.41519968e-01  3.41519968e-01  3.41519968e-01  3.41519968e-01  7.16797247e-09  1.13611494e-08 -1.81103132e-10  1.00000000e+00 
 8.40000000e-01  3.48438346e-01  3.48438346e-01  3.48438346e-01  3.48438346e-01  3.48438346e-01  3.48438346e-01  6.89961245e-09  1.36055451e-08 -1.59332103e-10  1.00000000e+00 
 8.50000000e-01  3.55228922e-01  3.55228922e-01  3.55228922e-01  3.55228922e-01  3.55228922e-01  3.55228922e-01  6.65493223e-09  1.62274088e-08 -1.32075684e-10  1.00000000e+00 
 8.60000000e-01  3.61890837e-01  3.61890837e-01  3.61890837e-01  3.61890837e-01  3.61890837e-01  3.61890837e-01  6.43115744e-09  1.92762126e-08 -1.05217168e-10  1.00000000e+00 
 8.70000000e-01  3.68417614e-01  3.68417614e-01  3.68417614e-01  3.68417614e-01  3.68417614e-01  3.68417614e-01  6.22590170e-09  2.28012365e-08 -8.19682100e-11  1.00000000e+00 
 8.80000000e-01  3.74793768e-01  3.74793768e-01  3.74793768e-01  3.74793768e-01  3.74793768e-01  3.74793768e-01  6.03710519e-09  2.68471254e-08 -6.29825081e-11  1.00000000e+00 
 8.90000000e-01  3.80992924e-01  3.80992924e-01  3.80992924e-01  3.80992924e-01  3.80992924e-01  3.80992924e-01  5.86298350e-09  3.14451079e-08 -4.80895324e-11  1.00000000e+00 
 9.00000000e-01  3.86974372e-01  3.86974372e-01  3.86974372e-01  3.86974372e-01  3.86974372e-01  3.86974372e-01  5.70198555e-09  3.66013033e-08 -3.64934749e-11  1.00000000e+00 
 9.10000000e-01  3.92681266e-01  3.92681266e-01  3.92681266e-01  3.92681266e-01  3.92681266e-01  3.92681266e-01  5.55275835e-09  4.22790443e-08 -2.77111667e-11  1.00000000e+00 
 9.20000000e-01  3.98038794e-01  3.98038794e-01  3.98038794e-01  3.98038794e-01  3.98038794e-01  3.98038794e-01  5.41411792e-09  4.83788227e-08 -2.09752216e-11  1.00000000e+00 
 9.30000000e-01  4.02953980e-01  4.02953980e-01  4.02953980e-01  4.02953980e-01  4.02953980e-01  4.02953980e-01  5.28502465e-09  5.47171126e-08 -1.59445790e-11  1.00000000e+00 
 9.40000000e-01  4.07313993e-01  4.07313993e-01  4.07313993e-01  4.07313993e-01  4.07313993e-01  4.07313993e-01  5.16456302e-09  6.10043429e-08 -1.21644916e-11  1.00000000e+00 
 9.50000000e-01  4.10965755e-01  4.10965755e-01  4.10965755e-01  4.10965755e-01  4.10965755e-01  4.10965755e-01  5.05192219e-09  6.68101734e-08 -9.29389898e-12  1.00000000e+00 
 9.60000000e-01  4.13792659e-01  4.13792659e-01  4.13792659e-01  4.13792659e-01  4.13792659e-01  4.13792659e-01  4.94638843e-09  7.16617805e-08 -7.13384907e-12  1.00000000e+00 
 9.70000000e-01  4.15702449e-01  4.15702449e-01  4.15702449e-01  4.15702449e-01  4.15702449e-01  4.15702449e-01  4.84733114e-09  7.51299325e-08 -5.45696821e-12  1.00000000e+00 
 9.80000000e-01  4.16797590e-01  4.16797590e-01  4.16797590e-01  4.16797590e-01  4.16797590e-01  4.16797590e-01  4.75420543e-09  7.71909470e-08 -4.12114787e-12  1.00000000e+00 
 9.90000000e-01  4.17356404e-01  4.17356404e-01  4.17356404e-01  4.17356404e-01  4.17356404e-01  4.17356404e-01  4.66653959e-09  7.82569387e-08 -3.04112291e-12  1.00000000e+00 
 1.00000000e+00  4.17610487e-01  4.17610487e-01  4.17610487e-01  4.17610487e-01  4.17610487e-01  4.17610487e-01  4.58390830e-09  7.87535868e-08 -1.84741111e-12  1.00000000e+00 
 1.01000000e+00  4.17734424e-01  4.17734424e-01  4.17734424e-01  4.17734424e-01  4.17734424e-01  4.17734424e-01  4.50592619e-09  7.89963437e-08 -7.67386155e-13  1.00000000e+00 
 1.02000000e+00  4.17799199e-01  4.17799199e-01  4.17799199e-01  4.17799199e-01  4.17799200e-01  4.17799200e-01  4.43223950e-09  7.91228487e-08  5.40012479e-13  1.00000000e+00 
 1.03000000e+00  4.17835167e-01  4.17835167e-01  4.17835167e-01  4.17835167e-01  4.17835167e-01  4.17835167e-01  4.36252727e-09  7.91929722e-08  2.21689334e-12  1.00000000e+00 
 1.04000000e+00  4.17856517e-01  4.17856517e-01  4.17856517e-01  4.17856517e-01  4.17856517e-01  4.17856517e-01  4.29649847e-09  7.92344252e-08  4.17799129e-12  1.00000000e+00 
 1.05000000e+00  4.17869870e-01  4.17869870e-01  4.17869870e-01  4.17869870e-01  4.17869870e-01  4.17869870e-01  4.23388983e-09  7.92603103e-08  6.79278855e-12  1.00000000e+00 
 1.06000000e+00  4.17878740e-01  4.17878740e-01  4.17878740e-01  4.17878740e-01  4.17878740e-01  4.17878740e-01  4.17446267e-09  7.92773776e-08  1.02033937e-11  1.00000000e+00 
 1.07000000e+00  4.17884854e-01  4.17884854e-01  4.17884854e-01  4.17884854e-01  4.17884854e-01  4.17884854e-01  4.11800024e-09  7.92891086e-08  1.45234935e-11  1.00000000e+00 
 1.08000000e+00  4.17889348e-01  4.17889348e-01  4.17889348e-01  4.17889348e-01  4.17889348e-01  4.17889348e-01  4.06430540e-09  7.92975925e-08  2.01794137e-11  1.00000000e+00 
 1.09000000e+00  4.17892700e-01  4.17892700e-01  4.17892700e-01  4.17892700e-01  4.17892700e-01  4.17892700e-01  4.01319846e-09  7.93038808e-08  2.75122147e-11  1.00000000e+00 
 1.10000000e+00  4.17895274e-01  4.17895274e-01  4.17895274e-01  4.17895274e-01  4.17895274e-01  4.17895274e-01  3.96451560e-09  7.93087054e-08  3.71755959e-11  1.00000000e+00 
