 v-sweep         v(b0)           v(b1)           v(b2)           v(b3)           v(b4)           v(b5)           v(b6)           i(vbias)        i(viout)        v(vout)        
 0.00000000e+00 -7.91342719e-19 -7.91342723e-19 -7.91342722e-19 -7.91342720e-19 -7.91342720e-19 -7.91342719e-19  3.73976822e-19  1.14969743e-29 -4.73872439e-03  1.00000000e+00 
 1.00000000e-02  1.91846557e-03  1.91846557e-03  1.91846557e-03  1.91846557e-03  1.91846557e-03  1.91846557e-03  1.59508580e-03  1.16498386e-14 -4.31184741e-03  1.00000000e+00 
 2.00000000e-02  3.80852162e-03  3.80852161e-03  3.80852161e-03  3.80852162e-03  3.80852162e-03  3.80852162e-03  2.75251437e-03  2.27700981e-14 -3.89915177e-03  1.00000000e+00 
 3.00000000e-02  5.67203681e-03  5.67203680e-03  5.67203681e-03  5.67203681e-03  5.67203681e-03  5.67203681e-03  3.48309105e-03  3.34891878e-14 -3.50201116e-03  1.00000000e+00 
 4.00000000e-02  7.52675513e-03  7.52675511e-03  7.52675512e-03  7.52675512e-03  7.52675512e-03  7.52675513e-03  3.84227798e-03  4.39136642e-14 -3.12191801e-03  1.00000000e+00 
 5.00000000e-02  9.35895913e-03  9.35895912e-03  9.35895912e-03  9.35895913e-03  9.35895913e-03  9.35895913e-03  3.89663005e-03  5.41045823e-14 -2.76044211e-03  1.00000000e+00 
 6.00000000e-02  1.11870158e-02  1.11870158e-02  1.11870158e-02  1.11870158e-02  1.11870158e-02  1.11870158e-02  3.73582287e-03  6.41309528e-14 -2.41924157e-03  1.00000000e+00 
 7.00000000e-02  1.30117108e-02  1.30117108e-02  1.30117108e-02  1.30117108e-02  1.30117108e-02  1.30117108e-02  3.43605590e-03  7.40488457e-14 -2.09996785e-03  1.00000000e+00 
 8.00000000e-02  1.48301389e-02  1.48301389e-02  1.48301389e-02  1.48301389e-02  1.48301389e-02  1.48301389e-02  3.06346438e-03  8.38361407e-14 -1.80420581e-03  1.00000000e+00 
 9.00000000e-02  1.66600230e-02  1.66600230e-02  1.66600230e-02  1.66600230e-02  1.66600230e-02  1.66600230e-02  2.66662053e-03  9.35475316e-14 -1.53336071e-03  1.00000000e+00 
 1.00000000e-01  1.84722793e-02  1.84722793e-02  1.84722793e-02  1.84722793e-02  1.84722793e-02  1.84722793e-02  2.27784275e-03  1.03248107e-13 -1.28853480e-03  1.00000000e+00 
 1.10000000e-01  2.02953306e-02  2.02953306e-02  2.02953306e-02  2.02953306e-02  2.02953306e-02  2.02953306e-02  1.91729436e-03  1.12862933e-13 -1.07039285e-03  1.00000000e+00 
 1.20000000e-01  2.21178892e-02  2.21178892e-02  2.21178892e-02  2.21178892e-02  2.21178892e-02  2.21178892e-02  1.59489477e-03  1.22465494e-13 -8.78994917e-04  1.00000000e+00 
 1.30000000e-01  2.39313543e-02  2.39313542e-02  2.39313543e-02  2.39313543e-02  2.39313543e-02  2.39313543e-02  1.31413649e-03  1.32053222e-13 -7.13892914e-04  1.00000000e+00 
 1.40000000e-01  2.57529787e-02  2.57529786e-02  2.57529786e-02  2.57529787e-02  2.57529787e-02  2.57529787e-02  1.07460250e-03  1.41566228e-13 -5.73751873e-04  1.00000000e+00 
 1.50000000e-01  2.75788600e-02  2.75788599e-02  2.75788599e-02  2.75788600e-02  2.75788600e-02  2.75788600e-02  8.73179583e-04  1.51117157e-13 -4.56768468e-04  1.00000000e+00 
 1.60000000e-01  2.93939100e-02  2.93939100e-02  2.93939100e-02  2.93939100e-02  2.93939100e-02  2.93939100e-02  7.05799549e-04  1.60703795e-13 -3.60698626e-04  1.00000000e+00 
 1.70000000e-01  3.11899586e-02  3.11899585e-02  3.11899585e-02  3.11899585e-02  3.11899585e-02  3.11899585e-02  5.67949080e-04  1.70249305e-13 -2.82872332e-04  1.00000000e+00 
 1.80000000e-01  3.29880854e-02  3.29880853e-02  3.29880853e-02  3.29880854e-02  3.29880854e-02  3.29880854e-02  4.55365487e-04  1.79844404e-13 -2.20660283e-04  1.00000000e+00 
 1.90000000e-01  3.47669171e-02  3.47669170e-02  3.47669171e-02  3.47669171e-02  3.47669171e-02  3.47669171e-02  3.63945119e-04  1.89354104e-13 -1.71469129e-04  1.00000000e+00 
 2.00000000e-01  3.65495040e-02  3.65495040e-02  3.65495040e-02  3.65495040e-02  3.65495040e-02  3.65495040e-02  2.90105638e-04  1.98878263e-13 -1.32895262e-04  1.00000000e+00 
 2.10000000e-01  3.82780173e-02  3.82780173e-02  3.82780173e-02  3.82780173e-02  3.82780173e-02  3.82780173e-02  2.30684106e-04  2.08412102e-13 -1.02844400e-04  1.00000000e+00 
 2.20000000e-01  3.99884380e-02  3.99884380e-02  3.99884380e-02  3.99884380e-02  3.99884380e-02  3.99884380e-02  1.83072146e-04  2.18047037e-13 -7.95666625e-05  1.00000000e+00 
 2.30000000e-01  4.16870448e-02  4.16870448e-02  4.16870448e-02  4.16870448e-02  4.16870448e-02  4.16870448e-02  1.45041788e-04  2.27671806e-13 -6.15885592e-05  1.00000000e+00 
 2.40000000e-01  4.33889556e-02  4.33889555e-02  4.33889555e-02  4.33889556e-02  4.33889555e-02  4.33889556e-02  1.14744169e-04  2.37278412e-13 -4.77154600e-05  1.00000000e+00 
 2.50000000e-01  4.50297431e-02  4.50297431e-02  4.50297431e-02  4.50297431e-02  4.50297431e-02  4.50297431e-02  9.06538437e-05  2.47046215e-13 -3.70223556e-05  1.00000000e+00 
 2.60000000e-01  4.66377891e-02  4.66377891e-02  4.66377891e-02  4.66377891e-02  4.66377891e-02  4.66377891e-02  7.15428512e-05  2.56772574e-13 -2.87794149e-05  1.00000000e+00 
 2.70000000e-01  4.82223099e-02  4.82223098e-02  4.82223099e-02  4.82223099e-02  4.82223099e-02  4.82223099e-02  5.64091982e-05  2.66590439e-13 -2.24123486e-05  1.00000000e+00 
 2.80000000e-01  4.98079125e-02  4.98079124e-02  4.98079125e-02  4.98079125e-02  4.98079125e-02  4.98079125e-02  4.44451965e-05  2.76597901e-13 -1.74879298e-05  1.00000000e+00 
 2.90000000e-01  5.13305875e-02  5.13305875e-02  5.13305875e-02  5.13305875e-02  5.13305875e-02  5.13305875e-02  3.49962237e-05  2.86736420e-13 -1.36825259e-05  1.00000000e+00 
 3.00000000e-01  5.28335750e-02  5.28335749e-02  5.28335749e-02  5.28335749e-02  5.28335749e-02  5.28335750e-02  2.75440256e-05  2.97240773e-13 -1.07226340e-05  1.00000000e+00 
 3.10000000e-01  5.43094416e-02  5.43094416e-02  5.43094416e-02  5.43094416e-02  5.43094416e-02  5.43094416e-02  2.16721991e-05  3.08030249e-13 -8.41909728e-06  1.00000000e+00 
 3.20000000e-01  5.57485190e-02  5.57485189e-02  5.57485189e-02  5.57485189e-02  5.57485189e-02  5.57485190e-02  1.70495180e-05  3.19157413e-13 -6.62227060e-06  1.00000000e+00 
 3.30000000e-01  5.71688882e-02  5.71688882e-02  5.71688882e-02  5.71688882e-02  5.71688882e-02  5.71688882e-02  1.34129474e-05  3.30886546e-13 -5.21574609e-06  1.00000000e+00 
 3.40000000e-01  5.85757654e-02  5.85757654e-02  5.85757654e-02  5.85757654e-02  5.85757654e-02  5.85757654e-02  1.05538076e-05  3.43487038e-13 -4.12068442e-06  1.00000000e+00 
 3.50000000e-01  5.99518352e-02  5.99518351e-02  5.99518351e-02  5.99518352e-02  5.99518352e-02  5.99518352e-02  8.30678948e-06  3.57428781e-13 -3.25896158e-06  1.00000000e+00 
 3.60000000e-01  6.12724063e-02  6.12724062e-02  6.12724063e-02  6.12724063e-02  6.12724063e-02  6.12724063e-02  6.54133284e-06  3.72740767e-13 -2.57844611e-06  1.00000000e+00 
 3.70000000e-01  6.26273159e-02  6.26273158e-02  6.26273158e-02  6.26273158e-02  6.26273158e-02  6.26273159e-02  5.15475349e-06  3.90163918e-13 -2.03893239e-06  1.00000000e+00 
 3.80000000e-01  6.39391409e-02  6.39391408e-02  6.39391408e-02  6.39391408e-02  6.39391408e-02  6.39391408e-02  4.06561040e-06  4.10400439e-13 -1.61297034e-06  1.00000000e+00 
 3.90000000e-01  6.52794842e-02  6.52794841e-02  6.52794841e-02  6.52794841e-02  6.52794841e-02  6.52794841e-02  3.21013513e-06  4.34932260e-13 -1.27581066e-06  1.00000000e+00 
 4.00000000e-01  6.65730763e-02  6.65730762e-02  6.65730762e-02  6.65730762e-02  6.65730762e-02  6.65730763e-02  2.53794778e-06  4.64525350e-13 -1.01028148e-06  1.00000000e+00 
 4.10000000e-01  6.79036507e-02  6.79036507e-02  6.79036507e-02  6.79036507e-02  6.79036507e-02  6.79036507e-02  2.00964957e-06  5.01406447e-13 -7.99074087e-07  1.00000000e+00 
 4.20000000e-01  6.92560634e-02  6.92560633e-02  6.92560634e-02  6.92560634e-02  6.92560634e-02  6.92560634e-02  1.59419331e-06  5.48127998e-13 -6.32845030e-07  1.00000000e+00 
 4.30000000e-01  7.06338870e-02  7.06338870e-02  7.06338870e-02  7.06338870e-02  7.06338870e-02  7.06338870e-02  1.26723993e-06  6.08431803e-13 -5.01340878e-07  1.00000000e+00 
 4.40000000e-01  7.20920574e-02  7.20920574e-02  7.20920574e-02  7.20920574e-02  7.20920574e-02  7.20920574e-02  1.00971832e-06  6.86530592e-13 -3.97121497e-07  1.00000000e+00 
 4.50000000e-01  7.36237752e-02  7.36237751e-02  7.36237752e-02  7.36237752e-02  7.36237752e-02  7.36237752e-02  8.06654937e-07  7.89450950e-13 -3.15096358e-07  1.00000000e+00 
 4.60000000e-01  7.52881459e-02  7.52881458e-02  7.52881458e-02  7.52881458e-02  7.52881458e-02  7.52881459e-02  6.46332306e-07  9.25970445e-13 -2.50156788e-07  1.00000000e+00 
 4.70000000e-01  7.71091324e-02  7.71091323e-02  7.71091324e-02  7.71091324e-02  7.71091324e-02  7.71091324e-02  5.19561586e-07  1.10806932e-12 -1.99495133e-07  1.00000000e+00 
 4.80000000e-01  7.91710386e-02  7.91710385e-02  7.91710385e-02  7.91710386e-02  7.91710386e-02  7.91710386e-02  4.19151679e-07  1.35260548e-12 -1.58934640e-07  1.00000000e+00 
 4.90000000e-01  8.14889333e-02  8.14889333e-02  8.14889333e-02  8.14889333e-02  8.14889333e-02  8.14889333e-02  3.39461959e-07  1.68240353e-12 -1.25951132e-07  1.00000000e+00 
 5.00000000e-01  8.42154030e-02  8.42154029e-02  8.42154030e-02  8.42154030e-02  8.42154030e-02  8.42154030e-02  2.76083135e-07  2.12896682e-12 -9.86116220e-08  1.00000000e+00 
 5.10000000e-01  8.73417106e-02  8.73417106e-02  8.73417106e-02  8.73417106e-02  8.73417106e-02  8.73417106e-02  2.25550638e-07  2.73491091e-12 -7.60845467e-08  1.00000000e+00 
 5.20000000e-01  9.10869633e-02  9.10869633e-02  9.10869633e-02  9.10869633e-02  9.10869633e-02  9.10869633e-02  1.85158255e-07  3.55874038e-12 -5.80891424e-08  1.00000000e+00 
 5.30000000e-01  9.54309096e-02  9.54309095e-02  9.54309095e-02  9.54309095e-02  9.54309095e-02  9.54309096e-02  1.52775780e-07  4.67819961e-12 -4.41147705e-08  1.00000000e+00 
 5.40000000e-01  1.00491676e-01  1.00491676e-01  1.00491676e-01  1.00491676e-01  1.00491676e-01  1.00491676e-01  1.26736102e-07  6.19949515e-12 -3.34136843e-08  1.00000000e+00 
 5.50000000e-01  1.06348960e-01  1.06348960e-01  1.06348960e-01  1.06348960e-01  1.06348960e-01  1.06348960e-01  1.05729041e-07  8.25904430e-12 -2.52688608e-08  1.00000000e+00 
 5.60000000e-01  1.12930753e-01  1.12930753e-01  1.12930753e-01  1.12930753e-01  1.12930753e-01  1.12930753e-01  8.87230510e-08  1.10450510e-11 -1.90894696e-08  1.00000000e+00 
 5.70000000e-01  1.20273732e-01  1.20273732e-01  1.20273732e-01  1.20273732e-01  1.20273732e-01  1.20273732e-01  7.49075896e-08  1.48050047e-11 -1.44114694e-08  1.00000000e+00 
 5.80000000e-01  1.28241049e-01  1.28241049e-01  1.28241049e-01  1.28241049e-01  1.28241049e-01  1.28241049e-01  6.36421691e-08  1.98570088e-11 -1.08748424e-08  1.00000000e+00 
 5.90000000e-01  1.36779761e-01  1.36779761e-01  1.36779761e-01  1.36779761e-01  1.36779761e-01  1.36779761e-01  5.44211683e-08  2.66324188e-11 -8.20361379e-09  1.00000000e+00 
 6.00000000e-01  1.45776757e-01  1.45776757e-01  1.45776757e-01  1.45776757e-01  1.45776757e-01  1.45776757e-01  4.68436929e-08  3.57018341e-11 -6.18760509e-09  1.00000000e+00 
 6.10000000e-01  1.55136529e-01  1.55136528e-01  1.55136528e-01  1.55136529e-01  1.55136529e-01  1.55136529e-01  4.05913833e-08  4.78195649e-11 -4.66704364e-09  1.00000000e+00 
 6.20000000e-01  1.64769912e-01  1.64769911e-01  1.64769911e-01  1.64769912e-01  1.64769912e-01  1.64769912e-01  3.54107240e-08  6.39368907e-11 -3.52082452e-09  1.00000000e+00 
 6.30000000e-01  1.74582460e-01  1.74582460e-01  1.74582460e-01  1.74582460e-01  1.74582460e-01  1.74582460e-01  3.10993209e-08  8.53159596e-11 -2.65738720e-09  1.00000000e+00 
 6.40000000e-01  1.84496790e-01  1.84496790e-01  1.84496790e-01  1.84496790e-01  1.84496790e-01  1.84496790e-01  2.74952363e-08  1.13527326e-10 -2.00732586e-09  1.00000000e+00 
 6.50000000e-01  1.94453308e-01  1.94453308e-01  1.94453308e-01  1.94453308e-01  1.94453308e-01  1.94453308e-01  2.44685876e-08  1.50589868e-10 -1.51851509e-09  1.00000000e+00 
 6.60000000e-01  2.04397107e-01  2.04397107e-01  2.04397107e-01  2.04397107e-01  2.04397107e-01  2.04397107e-01  2.19149392e-08  1.99023880e-10 -1.15150556e-09  1.00000000e+00 
 6.70000000e-01  2.14284800e-01  2.14284800e-01  2.14284800e-01  2.14284800e-01  2.14284800e-01  2.14284800e-01  1.97501182e-08  2.61972454e-10 -8.76923423e-10  1.00000000e+00 
 6.80000000e-01  2.24086401e-01  2.24086401e-01  2.24086401e-01  2.24086401e-01  2.24086401e-01  2.24086401e-01  1.79061106e-08  3.43294151e-10 -6.72287115e-10  1.00000000e+00 
 6.90000000e-01  2.33770110e-01  2.33770109e-01  2.33770109e-01  2.33770109e-01  2.33770109e-01  2.33770109e-01  1.63278036e-08  4.47692810e-10 -5.21140464e-10  1.00000000e+00 
 7.00000000e-01  2.43311999e-01  2.43311999e-01  2.43311999e-01  2.43311999e-01  2.43311999e-01  2.43311999e-01  1.49704168e-08  5.80811970e-10 -4.11176870e-10  1.00000000e+00 
 7.10000000e-01  2.52694249e-01  2.52694249e-01  2.52694249e-01  2.52694249e-01  2.52694249e-01  2.52694249e-01  1.37974556e-08  7.49420692e-10 -3.33059802e-10  1.00000000e+00 
 7.20000000e-01  2.61903743e-01  2.61903743e-01  2.61903743e-01  2.61903743e-01  2.61903743e-01  2.61903743e-01  1.27790828e-08  9.61520141e-10 -2.80152790e-10  1.00000000e+00 
 7.30000000e-01  2.70929777e-01  2.70929777e-01  2.70929777e-01  2.70929777e-01  2.70929777e-01  2.70929777e-01  1.18908228e-08  1.22645009e-09 -2.47538878e-10  1.00000000e+00 
 7.40000000e-01  2.79764803e-01  2.79764803e-01  2.79764803e-01  2.79764803e-01  2.79764803e-01  2.79764803e-01  1.11125296e-08  1.55510505e-09 -2.32020625e-10  1.00000000e+00 
 7.50000000e-01  2.88407509e-01  2.88407509e-01  2.88407509e-01  2.88407509e-01  2.88407509e-01  2.88407509e-01  1.04275629e-08  1.96012316e-09 -2.31267450e-10  1.00000000e+00 
 7.60000000e-01  2.96857140e-01  2.96857140e-01  2.96857140e-01  2.96857140e-01  2.96857140e-01  2.96857140e-01  9.82212709e-09  2.45608806e-09 -2.43773002e-10  1.00000000e+00 
 7.70000000e-01  3.05117023e-01  3.05117022e-01  3.05117023e-01  3.05117023e-01  3.05117023e-01  3.05117023e-01  9.28474370e-09  3.05984893e-09 -2.68798317e-10  1.00000000e+00 
 7.80000000e-01  3.13193505e-01  3.13193505e-01  3.13193505e-01  3.13193505e-01  3.13193505e-01  3.13193505e-01  8.80582694e-09  3.79080047e-09 -3.05689696e-10  1.00000000e+00 
 7.90000000e-01  3.21095733e-01  3.21095733e-01  3.21095733e-01  3.21095733e-01  3.21095733e-01  3.21095733e-01  8.37734182e-09  4.67150404e-09 -3.53097107e-10  1.00000000e+00 
 8.00000000e-01  3.28834574e-01  3.28834574e-01  3.28834574e-01  3.28834574e-01  3.28834574e-01  3.28834574e-01  7.99252827e-09  5.72800793e-09 -4.05179890e-10  1.00000000e+00 
 8.10000000e-01  3.36422782e-01  3.36422782e-01  3.36422782e-01  3.36422782e-01  3.36422782e-01  3.36422782e-01  7.64567804e-09  6.99086136e-09 -4.42653914e-10  1.00000000e+00 
 8.20000000e-01  3.43874864e-01  3.43874864e-01  3.43874864e-01  3.43874864e-01  3.43874864e-01  3.43874864e-01  7.33195353e-09  8.49570370e-09 -4.38859615e-10  1.00000000e+00 
 8.30000000e-01  3.51205574e-01  3.51205574e-01  3.51205574e-01  3.51205574e-01  3.51205574e-01  3.51205574e-01  7.04723996e-09  1.02845534e-08 -3.94763333e-10  1.00000000e+00 
 8.40000000e-01  3.58430631e-01  3.58430631e-01  3.58430631e-01  3.58430631e-01  3.58430631e-01  3.58430631e-01  6.78802533e-09  1.24070025e-08 -3.31013439e-10  1.00000000e+00 
 8.50000000e-01  3.65565806e-01  3.65565806e-01  3.65565806e-01  3.65565806e-01  3.65565806e-01  3.65565806e-01  6.55130139e-09  1.49216809e-08 -2.65885092e-10  1.00000000e+00 
 8.60000000e-01  3.72626914e-01  3.72626914e-01  3.72626914e-01  3.72626914e-01  3.72626914e-01  3.72626914e-01  6.33448271e-09  1.78983552e-08 -2.08260076e-10  1.00000000e+00 
 8.70000000e-01  3.79629207e-01  3.79629207e-01  3.79629207e-01  3.79629207e-01  3.79629207e-01  3.79629207e-01  6.13533963e-09  2.14199570e-08 -1.60667923e-10  1.00000000e+00 
 8.80000000e-01  3.86587335e-01  3.86587335e-01  3.86587335e-01  3.86587335e-01  3.86587335e-01  3.86587335e-01  5.95194312e-09  2.55853639e-08 -1.22767574e-10  1.00000000e+00 
 8.90000000e-01  3.93515280e-01  3.93515280e-01  3.93515280e-01  3.93515280e-01  3.93515280e-01  3.93515280e-01  5.78261871e-09  3.05126486e-08 -9.31947852e-11  1.00000000e+00 
 9.00000000e-01  4.00425863e-01  4.00425863e-01  4.00425863e-01  4.00425863e-01  4.00425863e-01  4.00425863e-01  5.62590847e-09  3.63426466e-08 -7.04716285e-11  1.00000000e+00 
 9.10000000e-01  4.07330738e-01  4.07330738e-01  4.07330738e-01  4.07330738e-01  4.07330738e-01  4.07330738e-01  5.48053894e-09  4.32436034e-08 -5.30917532e-11  1.00000000e+00 
 9.20000000e-01  4.14240072e-01  4.14240072e-01  4.14240072e-01  4.14240072e-01  4.14240072e-01  4.14240072e-01  5.34539458e-09  5.14159557e-08 -3.98756583e-11  1.00000000e+00 
 9.30000000e-01  4.21162351e-01  4.21162350e-01  4.21162350e-01  4.21162350e-01  4.21162350e-01  4.21162351e-01  5.21949501e-09  6.10981812e-08 -2.98854275e-11  1.00000000e+00 
 9.40000000e-01  4.28103985e-01  4.28103985e-01  4.28103985e-01  4.28103985e-01  4.28103985e-01  4.28103985e-01  5.10197658e-09  7.25728309e-08 -2.22684093e-11  1.00000000e+00 
 9.50000000e-01  4.35069124e-01  4.35069124e-01  4.35069124e-01  4.35069124e-01  4.35069124e-01  4.35069124e-01  4.99207592e-09  8.61728946e-08 -1.64703806e-11  1.00000000e+00 
 9.60000000e-01  4.42059042e-01  4.42059042e-01  4.42059042e-01  4.42059042e-01  4.42059042e-01  4.42059042e-01  4.88911660e-09  1.02287957e-07 -1.20223831e-11  1.00000000e+00 
 9.70000000e-01  4.49071923e-01  4.49071923e-01  4.49071923e-01  4.49071923e-01  4.49071923e-01  4.49071923e-01  4.79249750e-09  1.21369178e-07 -8.56914539e-12  1.00000000e+00 
 9.80000000e-01  4.56102359e-01  4.56102359e-01  4.56102359e-01  4.56102359e-01  4.56102359e-01  4.56102359e-01  4.70168330e-09  1.43932001e-07 -5.91171556e-12  1.00000000e+00 
 9.90000000e-01  4.63140905e-01  4.63140905e-01  4.63140905e-01  4.63140905e-01  4.63140905e-01  4.63140905e-01  4.61619567e-09  1.70554959e-07 -3.85114163e-12  1.00000000e+00 
 1.00000000e+00  4.70173747e-01  4.70173747e-01  4.70173747e-01  4.70173747e-01  4.70173747e-01  4.70173747e-01  4.53560624e-09  2.01872105e-07 -2.16004992e-12  1.00000000e+00 
 1.01000000e+00  4.77182332e-01  4.77182332e-01  4.77182332e-01  4.77182332e-01  4.77182332e-01  4.77182332e-01  4.45953066e-09  2.38556087e-07 -7.53175300e-13  1.00000000e+00 
 1.02000000e+00  4.84143013e-01  4.84143013e-01  4.84143013e-01  4.84143013e-01  4.84143013e-01  4.84143013e-01  4.38762285e-09  2.81288557e-07  4.68958206e-13  1.00000000e+00 
 1.03000000e+00  4.91026812e-01  4.91026812e-01  4.91026812e-01  4.91026812e-01  4.91026812e-01  4.91026812e-01  4.31957093e-09  3.30713298e-07  1.62003744e-12  1.00000000e+00 
 1.04000000e+00  4.97799164e-01  4.97799164e-01  4.97799164e-01  4.97799164e-01  4.97799164e-01  4.97799164e-01  4.25509269e-09  3.87370019e-07  2.74269496e-12  1.00000000e+00 
 1.05000000e+00  5.04419818e-01  5.04419817e-01  5.04419817e-01  5.04419817e-01  5.04419817e-01  5.04419818e-01  4.19393270e-09  4.51605869e-07  3.86535248e-12  1.00000000e+00 
 1.06000000e+00  5.10843102e-01  5.10843102e-01  5.10843102e-01  5.10843102e-01  5.10843102e-01  5.10843102e-01  4.13585891e-09  5.23470396e-07  5.10169684e-12  1.00000000e+00 
 1.07000000e+00  5.17018899e-01  5.17018899e-01  5.17018899e-01  5.17018899e-01  5.17018899e-01  5.17018899e-01  4.08066044e-09  6.02606571e-07  6.29540864e-12  1.00000000e+00 
 1.08000000e+00  5.22894723e-01  5.22894723e-01  5.22894723e-01  5.22894723e-01  5.22894723e-01  5.22894723e-01  4.02814524e-09  6.88162441e-07  7.58859642e-12  1.00000000e+00 
 1.09000000e+00  5.28419019e-01  5.28419019e-01  5.28419019e-01  5.28419019e-01  5.28419019e-01  5.28419019e-01  3.97813802e-09  7.78756917e-07  9.00968189e-12  1.00000000e+00 
 1.10000000e+00  5.33544871e-01  5.33544871e-01  5.33544871e-01  5.33544871e-01  5.33544871e-01  5.33544871e-01  3.93047933e-09  8.72518299e-07  1.06581410e-11  1.00000000e+00 
