 v-sweep         v(b0)           v(b1)           v(b2)           v(b3)           v(b4)           v(b5)           v(b6)           i(vbias)        i(viout)        v(vout)        
 0.00000000e+00 -1.47214947e-21 -1.47214948e-21 -1.47214949e-21 -1.47214948e-21 -1.47214949e-21 -1.47214950e-21 -1.47214949e-21 -1.37328723e-34 -5.70497629e-03  1.00000000e+00 
 1.00000000e-02  1.69972245e-03  1.69972246e-03  1.69972246e-03  1.69972245e-03  1.69972245e-03  1.69972245e-03  1.69972246e-03  1.35865016e-14 -5.25159319e-03  1.00000000e+00 
 2.00000000e-02  3.38114911e-03  3.38114912e-03  3.38114912e-03  3.38114912e-03  3.38114912e-03  3.38114911e-03  3.38114912e-03  2.61776041e-14 -4.80982743e-03  1.00000000e+00 
 3.00000000e-02  5.05683127e-03  5.05683128e-03  5.05683128e-03  5.05683127e-03  5.05683127e-03  5.05683127e-03  5.05683128e-03  3.80286792e-14 -4.38078414e-03  1.00000000e+00 
 4.00000000e-02  6.71700790e-03  6.71700791e-03  6.71700791e-03  6.71700791e-03  6.71700791e-03  6.71700790e-03  6.71700792e-03  4.93358541e-14 -3.96567648e-03  1.00000000e+00 
 5.00000000e-02  8.37512239e-03  8.37512241e-03  8.37512241e-03  8.37512240e-03  8.37512240e-03  8.37512239e-03  8.37512242e-03  6.02047844e-14 -3.56594478e-03  1.00000000e+00 
 6.00000000e-02  1.00203657e-02  1.00203657e-02  1.00203657e-02  1.00203657e-02  1.00203657e-02  1.00203657e-02  1.00203657e-02  7.07570463e-14 -3.18298268e-03  1.00000000e+00 
 7.00000000e-02  1.16760499e-02  1.16760499e-02  1.16760499e-02  1.16760499e-02  1.16760499e-02  1.16760499e-02  1.16760499e-02  8.10444512e-14 -2.81838768e-03  1.00000000e+00 
 8.00000000e-02  1.33067377e-02  1.33067377e-02  1.33067377e-02  1.33067377e-02  1.33067377e-02  1.33067377e-02  1.33067377e-02  9.11451429e-14 -2.47378935e-03  1.00000000e+00 
 9.00000000e-02  1.49433779e-02  1.49433779e-02  1.49433779e-02  1.49433779e-02  1.49433779e-02  1.49433779e-02  1.49433779e-02  1.01135341e-13 -2.15086123e-03  1.00000000e+00 
 1.00000000e-01  1.65787514e-02  1.65787515e-02  1.65787515e-02  1.65787515e-02  1.65787515e-02  1.65787514e-02  1.65787515e-02  1.11058190e-13 -1.85119531e-03  1.00000000e+00 
 1.10000000e-01  1.82066908e-02  1.82066909e-02  1.82066909e-02  1.82066908e-02  1.82066908e-02  1.82066908e-02  1.82066909e-02  1.20836026e-13 -1.57622730e-03  1.00000000e+00 
 1.20000000e-01  1.98314697e-02  1.98314697e-02  1.98314697e-02  1.98314697e-02  1.98314697e-02  1.98314697e-02  1.98314697e-02  1.30631901e-13 -1.32716225e-03  1.00000000e+00 
 1.30000000e-01  2.14717007e-02  2.14717007e-02  2.14717008e-02  2.14717007e-02  2.14717007e-02  2.14717007e-02  2.14717008e-02  1.40348196e-13 -1.10469797e-03  1.00000000e+00 
 1.40000000e-01  2.30701377e-02  2.30701377e-02  2.30701378e-02  2.30701377e-02  2.30701377e-02  2.30701377e-02  2.30701378e-02  1.50034024e-13 -9.09012813e-04  1.00000000e+00 
 1.50000000e-01  2.46652762e-02  2.46652762e-02  2.46652762e-02  2.46652762e-02  2.46652762e-02  2.46652762e-02  2.46652762e-02  1.59647564e-13 -7.39747102e-04  1.00000000e+00 
 1.60000000e-01  2.62744990e-02  2.62744991e-02  2.62744991e-02  2.62744991e-02  2.62744991e-02  2.62744990e-02  2.62744991e-02  1.69344641e-13 -5.95653893e-04  1.00000000e+00 
 1.70000000e-01  2.78721460e-02  2.78721460e-02  2.78721460e-02  2.78721460e-02  2.78721460e-02  2.78721460e-02  2.78721460e-02  1.78984702e-13 -4.75118005e-04  1.00000000e+00 
 1.80000000e-01  2.94278657e-02  2.94278658e-02  2.94278658e-02  2.94278658e-02  2.94278658e-02  2.94278657e-02  2.94278658e-02  1.88619763e-13 -3.75772345e-04  1.00000000e+00 
 1.90000000e-01  3.10018308e-02  3.10018309e-02  3.10018309e-02  3.10018309e-02  3.10018309e-02  3.10018308e-02  3.10018309e-02  1.98193838e-13 -2.95122537e-04  1.00000000e+00 
 2.00000000e-01  3.25447006e-02  3.25447006e-02  3.25447006e-02  3.25447006e-02  3.25447006e-02  3.25447006e-02  3.25447007e-02  2.07832124e-13 -2.30522014e-04  1.00000000e+00 
 2.10000000e-01  3.40862105e-02  3.40862106e-02  3.40862106e-02  3.40862106e-02  3.40862106e-02  3.40862105e-02  3.40862106e-02  2.17549313e-13 -1.79309346e-04  1.00000000e+00 
 2.20000000e-01  3.56180651e-02  3.56180652e-02  3.56180652e-02  3.56180652e-02  3.56180652e-02  3.56180651e-02  3.56180652e-02  2.27149191e-13 -1.39058922e-04  1.00000000e+00 
 2.30000000e-01  3.70974479e-02  3.70974480e-02  3.70974480e-02  3.70974480e-02  3.70974480e-02  3.70974479e-02  3.70974480e-02  2.36843233e-13 -1.07660089e-04  1.00000000e+00 
 2.40000000e-01  3.85867317e-02  3.85867317e-02  3.85867317e-02  3.85867317e-02  3.85867317e-02  3.85867317e-02  3.85867317e-02  2.46575140e-13 -8.32486504e-05  1.00000000e+00 
 2.50000000e-01  4.00741878e-02  4.00741879e-02  4.00741879e-02  4.00741879e-02  4.00741879e-02  4.00741878e-02  4.00741879e-02  2.56280240e-13 -6.43653243e-05  1.00000000e+00 
 2.60000000e-01  4.15355678e-02  4.15355678e-02  4.15355678e-02  4.15355678e-02  4.15355678e-02  4.15355678e-02  4.15355679e-02  2.66301385e-13 -4.98149196e-05  1.00000000e+00 
 2.70000000e-01  4.29126805e-02  4.29126806e-02  4.29126806e-02  4.29126806e-02  4.29126806e-02  4.29126805e-02  4.29126806e-02  2.76177925e-13 -3.85620995e-05  1.00000000e+00 
 2.80000000e-01  4.42962173e-02  4.42962174e-02  4.42962174e-02  4.42962174e-02  4.42962174e-02  4.42962173e-02  4.42962174e-02  2.86276862e-13 -2.99043267e-05  1.00000000e+00 
 2.90000000e-01  4.57070003e-02  4.57070003e-02  4.57070003e-02  4.57070003e-02  4.57070003e-02  4.57070003e-02  4.57070003e-02  2.96475138e-13 -2.31999461e-05  1.00000000e+00 
 3.00000000e-01  4.70429973e-02  4.70429974e-02  4.70429974e-02  4.70429974e-02  4.70429974e-02  4.70429973e-02  4.70429974e-02  3.07025618e-13 -1.80488781e-05  1.00000000e+00 
 3.10000000e-01  4.84172416e-02  4.84172416e-02  4.84172416e-02  4.84172416e-02  4.84172416e-02  4.84172416e-02  4.84172416e-02  3.18037236e-13 -1.40361897e-05  1.00000000e+00 
 3.20000000e-01  4.97168662e-02  4.97168663e-02  4.97168663e-02  4.97168663e-02  4.97168663e-02  4.97168662e-02  4.97168663e-02  3.29346169e-13 -1.09586530e-05  1.00000000e+00 
 3.30000000e-01  5.09948547e-02  5.09948547e-02  5.09948547e-02  5.09948547e-02  5.09948547e-02  5.09948547e-02  5.09948547e-02  3.41329016e-13 -8.55286930e-06  1.00000000e+00 
 3.40000000e-01  5.22783084e-02  5.22783085e-02  5.22783085e-02  5.22783084e-02  5.22783084e-02  5.22783084e-02  5.22783085e-02  3.54238963e-13 -6.68552994e-06  1.00000000e+00 
 3.50000000e-01  5.35056020e-02  5.35056021e-02  5.35056021e-02  5.35056021e-02  5.35056021e-02  5.35056020e-02  5.35056021e-02  3.68536392e-13 -5.23461554e-06  1.00000000e+00 
 3.60000000e-01  5.47892183e-02  5.47892183e-02  5.47892183e-02  5.47892183e-02  5.47892183e-02  5.47892183e-02  5.47892184e-02  3.84356772e-13 -4.10287635e-06  1.00000000e+00 
 3.70000000e-01  5.59791987e-02  5.59791987e-02  5.59791987e-02  5.59791987e-02  5.59791987e-02  5.59791987e-02  5.59791987e-02  4.02442890e-13 -3.21484509e-06  1.00000000e+00 
 3.80000000e-01  5.71997701e-02  5.71997702e-02  5.71997702e-02  5.71997701e-02  5.71997701e-02  5.71997701e-02  5.71997702e-02  4.24054455e-13 -2.53268604e-06  1.00000000e+00 
 3.90000000e-01  5.84514811e-02  5.84514812e-02  5.84514812e-02  5.84514812e-02  5.84514812e-02  5.84514811e-02  5.84514812e-02  4.49787614e-13 -1.99739918e-06  1.00000000e+00 
 4.00000000e-01  5.96241099e-02  5.96241099e-02  5.96241100e-02  5.96241099e-02  5.96241099e-02  5.96241099e-02  5.96241100e-02  4.81458786e-13 -1.57138589e-06  1.00000000e+00 
 4.10000000e-01  6.08718117e-02  6.08718118e-02  6.08718118e-02  6.08718118e-02  6.08718118e-02  6.08718117e-02  6.08718118e-02  5.21383989e-13 -1.24141286e-06  1.00000000e+00 
 4.20000000e-01  6.21555527e-02  6.21555527e-02  6.21555527e-02  6.21555527e-02  6.21555527e-02  6.21555527e-02  6.21555528e-02  5.72260338e-13 -9.79769254e-07  1.00000000e+00 
 4.30000000e-01  6.34315266e-02  6.34315266e-02  6.34315266e-02  6.34315266e-02  6.34315266e-02  6.34315266e-02  6.34315267e-02  6.37980391e-13 -7.74101437e-07  1.00000000e+00 
 4.40000000e-01  6.48267420e-02  6.48267421e-02  6.48267421e-02  6.48267421e-02  6.48267421e-02  6.48267420e-02  6.48267421e-02  7.24408218e-13 -6.12731611e-07  1.00000000e+00 
 4.50000000e-01  6.62945078e-02  6.62945079e-02  6.62945079e-02  6.62945079e-02  6.62945079e-02  6.62945078e-02  6.62945079e-02  8.38071149e-13 -4.87563824e-07  1.00000000e+00 
 4.60000000e-01  6.78530363e-02  6.78530363e-02  6.78530364e-02  6.78530363e-02  6.78530363e-02  6.78530363e-02  6.78530364e-02  9.90362198e-13 -3.88285542e-07  1.00000000e+00 
 4.70000000e-01  6.96218226e-02  6.96218226e-02  6.96218226e-02  6.96218226e-02  6.96218226e-02  6.96218226e-02  6.96218226e-02  1.19363102e-12 -3.12221999e-07  1.00000000e+00 
 4.80000000e-01  7.16018822e-02  7.16018823e-02  7.16018823e-02  7.16018823e-02  7.16018823e-02  7.16018822e-02  7.16018823e-02  1.46587354e-12 -2.50997175e-07  1.00000000e+00 
 4.90000000e-01  7.38113438e-02  7.38113439e-02  7.38113439e-02  7.38113438e-02  7.38113438e-02  7.38113438e-02  7.38113439e-02  1.83688243e-12 -2.03005044e-07  1.00000000e+00 
 5.00000000e-01  7.64970969e-02  7.64970969e-02  7.64970970e-02  7.64970969e-02  7.64970969e-02  7.64970969e-02  7.64970970e-02  2.33960312e-12 -1.63182591e-07  1.00000000e+00 
 5.10000000e-01  7.96208381e-02  7.96208382e-02  7.96208382e-02  7.96208382e-02  7.96208382e-02  7.96208381e-02  7.96208382e-02  3.02690902e-12 -1.29203414e-07  1.00000000e+00 
 5.20000000e-01  8.32987592e-02  8.32987593e-02  8.32987593e-02  8.32987593e-02  8.32987593e-02  8.32987592e-02  8.32987593e-02  3.96632553e-12 -1.01103325e-07  1.00000000e+00 
 5.30000000e-01  8.76875423e-02  8.76875424e-02  8.76875424e-02  8.76875424e-02  8.76875424e-02  8.76875423e-02  8.76875424e-02  5.25318938e-12 -7.80155460e-08  1.00000000e+00 
 5.40000000e-01  9.28322884e-02  9.28322884e-02  9.28322885e-02  9.28322884e-02  9.28322884e-02  9.28322884e-02  9.28322885e-02  7.01039921e-12 -5.97028134e-08  1.00000000e+00 
 5.50000000e-01  9.87788814e-02  9.87788814e-02  9.87788814e-02  9.87788814e-02  9.87788814e-02  9.87788814e-02  9.87788815e-02  9.40234956e-12 -4.54006397e-08  1.00000000e+00 
 5.60000000e-01  1.05515084e-01  1.05515084e-01  1.05515084e-01  1.05515084e-01  1.05515084e-01  1.05515084e-01  1.05515084e-01  1.26643002e-11 -3.44275577e-08  1.00000000e+00 
 5.70000000e-01  1.12995900e-01  1.12995900e-01  1.12995900e-01  1.12995900e-01  1.12995900e-01  1.12995900e-01  1.12995900e-01  1.70676216e-11 -2.60540105e-08  1.00000000e+00 
 5.80000000e-01  1.21175557e-01  1.21175557e-01  1.21175557e-01  1.21175557e-01  1.21175557e-01  1.21175557e-01  1.21175557e-01  2.30132163e-11 -1.96939993e-08  1.00000000e+00 
 5.90000000e-01  1.29887804e-01  1.29887804e-01  1.29887804e-01  1.29887804e-01  1.29887804e-01  1.29887804e-01  1.29887804e-01  3.10003238e-11 -1.48716310e-08  1.00000000e+00 
 6.00000000e-01  1.39050633e-01  1.39050633e-01  1.39050633e-01  1.39050633e-01  1.39050633e-01  1.39050633e-01  1.39050633e-01  4.17064508e-11 -1.12231930e-08  1.00000000e+00 
 6.10000000e-01  1.48538011e-01  1.48538011e-01  1.48538011e-01  1.48538011e-01  1.48538011e-01  1.48538011e-01  1.48538011e-01  5.60061164e-11 -8.46705461e-09  1.00000000e+00 
 6.20000000e-01  1.58279151e-01  1.58279151e-01  1.58279151e-01  1.58279151e-01  1.58279151e-01  1.58279151e-01  1.58279151e-01  7.50509099e-11 -6.38598863e-09  1.00000000e+00 
 6.30000000e-01  1.68157790e-01  1.68157790e-01  1.68157790e-01  1.68157790e-01  1.68157790e-01  1.68157790e-01  1.68157790e-01  1.00258912e-10 -4.81625761e-09  1.00000000e+00 
 6.40000000e-01  1.78121759e-01  1.78121759e-01  1.78121759e-01  1.78121759e-01  1.78121759e-01  1.78121759e-01  1.78121759e-01  1.33502806e-10 -3.63237973e-09  1.00000000e+00 
 6.50000000e-01  1.88097881e-01  1.88097881e-01  1.88097881e-01  1.88097881e-01  1.88097881e-01  1.88097881e-01  1.88097881e-01  1.77136944e-10 -2.74044964e-09  1.00000000e+00 
 6.60000000e-01  1.98028539e-01  1.98028539e-01  1.98028539e-01  1.98028539e-01  1.98028539e-01  1.98028539e-01  1.98028539e-01  2.34027436e-10 -2.06844675e-09  1.00000000e+00 
 6.70000000e-01  2.07878332e-01  2.07878332e-01  2.07878332e-01  2.07878332e-01  2.07878332e-01  2.07878332e-01  2.07878332e-01  3.07755682e-10 -1.56254032e-09  1.00000000e+00 
 6.80000000e-01  2.17610797e-01  2.17610797e-01  2.17610797e-01  2.17610797e-01  2.17610797e-01  2.17610797e-01  2.17610797e-01  4.02722300e-10 -1.18203047e-09  1.00000000e+00 
 6.90000000e-01  2.27201880e-01  2.27201880e-01  2.27201880e-01  2.27201880e-01  2.27201880e-01  2.27201880e-01  2.27201880e-01  5.24117305e-10 -8.96307029e-10  1.00000000e+00 
 7.00000000e-01  2.36625442e-01  2.36625442e-01  2.36625442e-01  2.36625442e-01  2.36625442e-01  2.36625442e-01  2.36625442e-01  6.78265999e-10 -6.82291557e-10  1.00000000e+00 
 7.10000000e-01  2.45863893e-01  2.45863893e-01  2.45863893e-01  2.45863893e-01  2.45863893e-01  2.45863893e-01  2.45863893e-01  8.72518169e-10 -5.22533128e-10  1.00000000e+00 
 7.20000000e-01  2.54911273e-01  2.54911273e-01  2.54911273e-01  2.54911273e-01  2.54911273e-01  2.54911273e-01  2.54911273e-01  1.11551413e-09 -4.04043021e-10  1.00000000e+00 
 7.30000000e-01  2.63755025e-01  2.63755025e-01  2.63755025e-01  2.63755025e-01  2.63755025e-01  2.63755025e-01  2.63755025e-01  1.41731649e-09 -3.17101012e-10  1.00000000e+00 
 7.40000000e-01  2.72393000e-01  2.72393000e-01  2.72393000e-01  2.72393000e-01  2.72393000e-01  2.72393000e-01  2.72393000e-01  1.78956294e-09 -2.54317456e-10  1.00000000e+00 
 7.50000000e-01  2.80824677e-01  2.80824677e-01  2.80824677e-01  2.80824677e-01  2.80824677e-01  2.80824677e-01  2.80824677e-01  2.24550400e-09 -2.10462758e-10  1.00000000e+00 
 7.60000000e-01  2.89052759e-01  2.89052759e-01  2.89052759e-01  2.89052759e-01  2.89052759e-01  2.89052759e-01  2.89052759e-01  2.80033818e-09 -1.81501036e-10  1.00000000e+00 
 7.70000000e-01  2.97084181e-01  2.97084181e-01  2.97084181e-01  2.97084181e-01  2.97084181e-01  2.97084181e-01  2.97084181e-01  3.47156126e-09 -1.64675384e-10  1.00000000e+00 
 7.80000000e-01  3.04926018e-01  3.04926018e-01  3.04926018e-01  3.04926018e-01  3.04926018e-01  3.04926018e-01  3.04926018e-01  4.27903268e-09 -1.57427849e-10  1.00000000e+00 
 7.90000000e-01  3.12588412e-01  3.12588412e-01  3.12588412e-01  3.12588412e-01  3.12588412e-01  3.12588412e-01  3.12588412e-01  5.24553734e-09 -1.58365765e-10  1.00000000e+00 
 8.00000000e-01  3.20081461e-01  3.20081461e-01  3.20081461e-01  3.20081461e-01  3.20081461e-01  3.20081461e-01  3.20081461e-01  6.39726139e-09 -1.65726988e-10  1.00000000e+00 
 8.10000000e-01  3.27417510e-01  3.27417510e-01  3.27417511e-01  3.27417510e-01  3.27417510e-01  3.27417510e-01  3.27417511e-01  7.76389797e-09 -1.76640924e-10  1.00000000e+00 
 8.20000000e-01  3.34606624e-01  3.34606625e-01  3.34606625e-01  3.34606624e-01  3.34606624e-01  3.34606624e-01  3.34606625e-01  9.37942701e-09 -1.82438953e-10  1.00000000e+00 
 8.30000000e-01  3.41658927e-01  3.41658927e-01  3.41658927e-01  3.41658927e-01  3.41658927e-01  3.41658927e-01  3.41658927e-01  1.12821077e-08 -1.74367187e-10  1.00000000e+00 
 8.40000000e-01  3.48581787e-01  3.48581787e-01  3.48581787e-01  3.48581787e-01  3.48581787e-01  3.48581787e-01  3.48581787e-01  1.35149509e-08 -1.53590918e-10  1.00000000e+00 
 8.50000000e-01  3.55380218e-01  3.55380219e-01  3.55380219e-01  3.55380219e-01  3.55380219e-01  3.55380218e-01  3.55380219e-01  1.61250053e-08 -1.27243993e-10  1.00000000e+00 
 8.60000000e-01  3.62054368e-01  3.62054368e-01  3.62054368e-01  3.62054368e-01  3.62054368e-01  3.62054368e-01  3.62054368e-01  1.91624565e-08 -1.01380238e-10  1.00000000e+00 
 8.70000000e-01  3.68598203e-01  3.68598203e-01  3.68598203e-01  3.68598203e-01  3.68598203e-01  3.68598203e-01  3.68598203e-01  2.26781296e-08 -7.89270871e-11  1.00000000e+00 
 8.80000000e-01  3.74997668e-01  3.74997668e-01  3.74997668e-01  3.74997668e-01  3.74997668e-01  3.74997668e-01  3.74997668e-01  2.67187339e-08 -6.06235062e-11  1.00000000e+00 
 8.90000000e-01  3.81227941e-01  3.81227941e-01  3.81227941e-01  3.81227941e-01  3.81227941e-01  3.81227941e-01  3.81227941e-01  3.13194022e-08 -4.62421212e-11  1.00000000e+00 
 9.00000000e-01  3.87250337e-01  3.87250337e-01  3.87250337e-01  3.87250337e-01  3.87250337e-01  3.87250337e-01  3.87250337e-01  3.64913859e-08 -3.50723894e-11  1.00000000e+00 
 9.10000000e-01  3.93010117e-01  3.93010117e-01  3.93010118e-01  3.93010117e-01  3.93010117e-01  3.93010117e-01  3.93010118e-01  4.22057020e-08 -2.66311417e-11  1.00000000e+00 
 9.20000000e-01  3.98435170e-01  3.98435170e-01  3.98435170e-01  3.98435170e-01  3.98435170e-01  3.98435170e-01  3.98435170e-01  4.83730815e-08 -2.01509920e-11  1.00000000e+00 
 9.30000000e-01  4.03435994e-01  4.03435994e-01  4.03435994e-01  4.03435994e-01  4.03435994e-01  4.03435994e-01  4.03435994e-01  5.48226637e-08 -1.53193014e-11  1.00000000e+00 
 9.40000000e-01  4.07903753e-01  4.07903753e-01  4.07903753e-01  4.07903753e-01  4.07903753e-01  4.07903753e-01  4.07903753e-01  6.12798559e-08 -1.16244792e-11  1.00000000e+00 
 9.50000000e-01  4.11689520e-01  4.11689520e-01  4.11689520e-01  4.11689520e-01  4.11689520e-01  4.11689520e-01  4.11689520e-01  6.73278180e-08 -8.92441676e-12  1.00000000e+00 
 9.60000000e-01  4.14668196e-01  4.14668196e-01  4.14668196e-01  4.14668196e-01  4.14668196e-01  4.14668196e-01  4.14668196e-01  7.24821092e-08 -6.76436684e-12  1.00000000e+00 
 9.70000000e-01  4.16721081e-01  4.16721081e-01  4.16721081e-01  4.16721081e-01  4.16721081e-01  4.16721081e-01  4.16721081e-01  7.62535208e-08 -5.22959454e-12  1.00000000e+00 
 9.80000000e-01  4.17912394e-01  4.17912394e-01  4.17912394e-01  4.17912394e-01  4.17912394e-01  4.17912394e-01  4.17912394e-01  7.85281244e-08 -3.95061761e-12  1.00000000e+00 
 9.90000000e-01  4.18514735e-01  4.18514735e-01  4.18514735e-01  4.18514735e-01  4.18514735e-01  4.18514735e-01  4.18514735e-01  7.96947077e-08 -2.89901436e-12  1.00000000e+00 
 1.00000000e+00  4.18778881e-01  4.18778881e-01  4.18778881e-01  4.18778881e-01  4.18778881e-01  4.18778881e-01  4.18778881e-01  8.02204738e-08 -1.84741111e-12  1.00000000e+00 
 1.01000000e+00  4.18901780e-01  4.18901780e-01  4.18901780e-01  4.18901780e-01  4.18901780e-01  4.18901780e-01  4.18901780e-01  8.04658526e-08 -7.67386155e-13  1.00000000e+00 
 1.02000000e+00  4.18963227e-01  4.18963228e-01  4.18963228e-01  4.18963228e-01  4.18963228e-01  4.18963227e-01  4.18963228e-01  8.05881086e-08  4.54747351e-13  1.00000000e+00 
 1.03000000e+00  4.18996073e-01  4.18996073e-01  4.18996074e-01  4.18996073e-01  4.18996073e-01  4.18996073e-01  4.18996074e-01  8.06532654e-08  1.98951966e-12  1.00000000e+00 
 1.04000000e+00  4.19014891e-01  4.19014891e-01  4.19014891e-01  4.19014891e-01  4.19014891e-01  4.19014891e-01  4.19014891e-01  8.06904552e-08  4.00746103e-12  1.00000000e+00 
 1.05000000e+00  4.19026275e-01  4.19026275e-01  4.19026276e-01  4.19026275e-01  4.19026275e-01  4.19026275e-01  4.19026276e-01  8.07130007e-08  6.39488462e-12  1.00000000e+00 
 1.06000000e+00  4.19033698e-01  4.19033698e-01  4.19033698e-01  4.19033698e-01  4.19033698e-01  4.19033698e-01  4.19033698e-01  8.07275384e-08  9.63495950e-12  1.00000000e+00 
 1.07000000e+00  4.19038763e-01  4.19038763e-01  4.19038763e-01  4.19038763e-01  4.19038763e-01  4.19038763e-01  4.19038763e-01  8.07374008e-08  1.36424205e-11  1.00000000e+00 
 1.08000000e+00  4.19042391e-01  4.19042391e-01  4.19042391e-01  4.19042391e-01  4.19042391e-01  4.19042391e-01  4.19042391e-01  8.07444138e-08  1.89288585e-11  1.00000000e+00 
 1.09000000e+00  4.19044963e-01  4.19044963e-01  4.19044963e-01  4.19044963e-01  4.19044963e-01  4.19044963e-01  4.19044963e-01  8.07494942e-08  2.58069122e-11  1.00000000e+00 
 1.10000000e+00  4.19047082e-01  4.19047082e-01  4.19047082e-01  4.19047082e-01  4.19047082e-01  4.19047082e-01  4.19047082e-01  8.07534875e-08  3.49587026e-11  1.00000000e+00 
