 v-sweep         v(b0)           v(b1)           v(b2)           v(b3)           v(b4)           v(b5)           v(b6)           i(vbias)        i(viout)        v(vout)        
 0.00000000e+00 -4.66615259e-21 -4.66615263e-21 -4.66615264e-21 -4.66615264e-21 -4.66615264e-21 -4.66615264e-21 -4.66615264e-21 -2.99287916e-30 -2.93096478e-03  1.00000000e+00 
 1.00000000e-02  2.45930302e-03  2.45930302e-03  2.45930302e-03  2.45930302e-03  2.45930302e-03  2.45930302e-03  2.45930302e-03  9.10327783e-15 -2.58034789e-03  1.00000000e+00 
 2.00000000e-02  4.95716672e-03  4.95716673e-03  4.95716672e-03  4.95716672e-03  4.95716672e-03  4.95716672e-03  4.95716672e-03  1.80907092e-14 -2.25087580e-03  1.00000000e+00 
 3.00000000e-02  7.49857934e-03  7.49857934e-03  7.49857933e-03  7.49857934e-03  7.49857934e-03  7.49857933e-03  7.49857933e-03  2.69655635e-14 -1.94413572e-03  1.00000000e+00 
 4.00000000e-02  1.00965285e-02  1.00965285e-02  1.00965285e-02  1.00965285e-02  1.00965285e-02  1.00965285e-02  1.00965285e-02  3.57830369e-14 -1.66163738e-03  1.00000000e+00 
 5.00000000e-02  1.27496742e-02  1.27496743e-02  1.27496742e-02  1.27496743e-02  1.27496742e-02  1.27496742e-02  1.27496742e-02  4.45491925e-14 -1.40458943e-03  1.00000000e+00 
 6.00000000e-02  1.54462186e-02  1.54462186e-02  1.54462186e-02  1.54462186e-02  1.54462186e-02  1.54462186e-02  1.54462186e-02  5.32975449e-14 -1.17398287e-03  1.00000000e+00 
 7.00000000e-02  1.82056606e-02  1.82056606e-02  1.82056606e-02  1.82056606e-02  1.82056606e-02  1.82056606e-02  1.82056606e-02  6.19855641e-14 -9.70136062e-04  1.00000000e+00 
 8.00000000e-02  2.10187634e-02  2.10187634e-02  2.10187634e-02  2.10187634e-02  2.10187634e-02  2.10187634e-02  2.10187634e-02  7.06634534e-14 -7.92803693e-04  1.00000000e+00 
 9.00000000e-02  2.38792146e-02  2.38792146e-02  2.38792146e-02  2.38792146e-02  2.38792146e-02  2.38792146e-02  2.38792146e-02  7.93564125e-14 -6.41075743e-04  1.00000000e+00 
 1.00000000e-01  2.68184674e-02  2.68184674e-02  2.68184674e-02  2.68184674e-02  2.68184674e-02  2.68184674e-02  2.68184674e-02  8.80165787e-14 -5.13393102e-04  1.00000000e+00 
 1.10000000e-01  2.97683353e-02  2.97683354e-02  2.97683353e-02  2.97683353e-02  2.97683353e-02  2.97683353e-02  2.97683353e-02  9.66619682e-14 -4.07666015e-04  1.00000000e+00 
 1.20000000e-01  3.27670697e-02  3.27670697e-02  3.27670697e-02  3.27670697e-02  3.27670697e-02  3.27670697e-02  3.27670697e-02  1.05354806e-13 -3.21386571e-04  1.00000000e+00 
 1.30000000e-01  3.58055238e-02  3.58055238e-02  3.58055237e-02  3.58055238e-02  3.58055238e-02  3.58055237e-02  3.58055237e-02  1.13999951e-13 -2.51951718e-04  1.00000000e+00 
 1.40000000e-01  3.88480060e-02  3.88480060e-02  3.88480060e-02  3.88480060e-02  3.88480060e-02  3.88480060e-02  3.88480060e-02  1.22674695e-13 -1.96696226e-04  1.00000000e+00 
 1.50000000e-01  4.18905063e-02  4.18905063e-02  4.18905063e-02  4.18905063e-02  4.18905063e-02  4.18905063e-02  4.18905063e-02  1.31357938e-13 -1.53166107e-04  1.00000000e+00 
 1.60000000e-01  4.48809462e-02  4.48809463e-02  4.48809462e-02  4.48809462e-02  4.48809462e-02  4.48809462e-02  4.48809462e-02  1.40029753e-13 -1.19114966e-04  1.00000000e+00 
 1.70000000e-01  4.79063712e-02  4.79063712e-02  4.79063712e-02  4.79063712e-02  4.79063712e-02  4.79063712e-02  4.79063712e-02  1.48737038e-13 -9.26271602e-05  1.00000000e+00 
 1.80000000e-01  5.09199916e-02  5.09199916e-02  5.09199916e-02  5.09199916e-02  5.09199916e-02  5.09199916e-02  5.09199916e-02  1.57506228e-13 -7.21186544e-05  1.00000000e+00 
 1.90000000e-01  5.37885054e-02  5.37885054e-02  5.37885054e-02  5.37885054e-02  5.37885054e-02  5.37885054e-02  5.37885054e-02  1.66229545e-13 -5.62545884e-05  1.00000000e+00 
 2.00000000e-01  5.67088574e-02  5.67088574e-02  5.67088573e-02  5.67088574e-02  5.67088574e-02  5.67088574e-02  5.67088574e-02  1.75029385e-13 -4.40027913e-05  1.00000000e+00 
 2.10000000e-01  5.95274802e-02  5.95274802e-02  5.95274801e-02  5.95274802e-02  5.95274802e-02  5.95274802e-02  5.95274802e-02  1.83881605e-13 -3.45191099e-05  1.00000000e+00 
 2.20000000e-01  6.22659289e-02  6.22659289e-02  6.22659289e-02  6.22659289e-02  6.22659289e-02  6.22659289e-02  6.22659289e-02  1.92764066e-13 -2.71656255e-05  1.00000000e+00 
 2.30000000e-01  6.49324660e-02  6.49324660e-02  6.49324660e-02  6.49324660e-02  6.49324660e-02  6.49324660e-02  6.49324660e-02  2.01780797e-13 -2.14382039e-05  1.00000000e+00 
 2.40000000e-01  6.75868008e-02  6.75868008e-02  6.75868007e-02  6.75868008e-02  6.75868008e-02  6.75868008e-02  6.75868008e-02  2.10929263e-13 -1.69652042e-05  1.00000000e+00 
 2.50000000e-01  7.01275334e-02  7.01275334e-02  7.01275334e-02  7.01275334e-02  7.01275334e-02  7.01275334e-02  7.01275334e-02  2.20201377e-13 -1.34628229e-05  1.00000000e+00 
 2.60000000e-01  7.26101239e-02  7.26101239e-02  7.26101238e-02  7.26101239e-02  7.26101239e-02  7.26101239e-02  7.26101239e-02  2.29618738e-13 -1.07023352e-05  1.00000000e+00 
 2.70000000e-01  7.49355143e-02  7.49355143e-02  7.49355143e-02  7.49355143e-02  7.49355143e-02  7.49355143e-02  7.49355143e-02  2.39481293e-13 -8.52052875e-06  1.00000000e+00 
 2.80000000e-01  7.73384454e-02  7.73384454e-02  7.73384454e-02  7.73384454e-02  7.73384454e-02  7.73384454e-02  7.73384454e-02  2.49657825e-13 -6.79534046e-06  1.00000000e+00 
 2.90000000e-01  7.95973402e-02  7.95973402e-02  7.95973401e-02  7.95973402e-02  7.95973402e-02  7.95973401e-02  7.95973401e-02  2.60500636e-13 -5.42226949e-06  1.00000000e+00 
 3.00000000e-01  8.17446164e-02  8.17446164e-02  8.17446163e-02  8.17446164e-02  8.17446164e-02  8.17446163e-02  8.17446163e-02  2.71938420e-13 -4.32660786e-06  1.00000000e+00 
 3.10000000e-01  8.39464780e-02  8.39464780e-02  8.39464780e-02  8.39464780e-02  8.39464780e-02  8.39464780e-02  8.39464780e-02  2.84629397e-13 -3.44990078e-06  1.00000000e+00 
 3.20000000e-01  8.60122394e-02  8.60122394e-02  8.60122393e-02  8.60122394e-02  8.60122394e-02  8.60122394e-02  8.60122394e-02  2.98516401e-13 -2.75047962e-06  1.00000000e+00 
 3.30000000e-01  8.80368423e-02  8.80368423e-02  8.80368422e-02  8.80368423e-02  8.80368423e-02  8.80368423e-02  8.80368423e-02  3.14310446e-13 -2.18981822e-06  1.00000000e+00 
 3.40000000e-01  9.00325175e-02  9.00325175e-02  9.00325174e-02  9.00325175e-02  9.00325175e-02  9.00325174e-02  9.00325174e-02  3.32807974e-13 -1.74094003e-06  1.00000000e+00 
 3.50000000e-01  9.20206304e-02  9.20206304e-02  9.20206304e-02  9.20206304e-02  9.20206304e-02  9.20206304e-02  9.20206304e-02  3.54804698e-13 -1.38189022e-06  1.00000000e+00 
 3.60000000e-01  9.39765308e-02  9.39765308e-02  9.39765307e-02  9.39765308e-02  9.39765308e-02  9.39765308e-02  9.39765308e-02  3.81597436e-13 -1.09374474e-06  1.00000000e+00 
 3.70000000e-01  9.58718749e-02  9.58718749e-02  9.58718749e-02  9.58718749e-02  9.58718749e-02  9.58718749e-02  9.58718749e-02  4.14938348e-13 -8.64040054e-07  1.00000000e+00 
 3.80000000e-01  9.78087646e-02  9.78087646e-02  9.78087645e-02  9.78087646e-02  9.78087646e-02  9.78087646e-02  9.78087646e-02  4.57189280e-13 -6.80341433e-07  1.00000000e+00 
 3.90000000e-01  9.97512789e-02  9.97512789e-02  9.97512788e-02  9.97512789e-02  9.97512789e-02  9.97512789e-02  9.97512788e-02  5.11652956e-13 -5.33914008e-07  1.00000000e+00 
 4.00000000e-01  1.01825066e-01  1.01825066e-01  1.01825066e-01  1.01825066e-01  1.01825066e-01  1.01825066e-01  1.01825066e-01  5.82990668e-13 -4.17419709e-07  1.00000000e+00 
 4.10000000e-01  1.03889861e-01  1.03889861e-01  1.03889861e-01  1.03889861e-01  1.03889861e-01  1.03889861e-01  1.03889861e-01  6.76935131e-13 -3.24841050e-07  1.00000000e+00 
 4.20000000e-01  1.06064572e-01  1.06064572e-01  1.06064572e-01  1.06064572e-01  1.06064572e-01  1.06064572e-01  1.06064572e-01  8.02265731e-13 -2.51785202e-07  1.00000000e+00 
 4.30000000e-01  1.08440610e-01  1.08440610e-01  1.08440610e-01  1.08440610e-01  1.08440610e-01  1.08440610e-01  1.08440610e-01  9.69942847e-13 -1.94255833e-07  1.00000000e+00 
 4.40000000e-01  1.11066364e-01  1.11066364e-01  1.11066364e-01  1.11066364e-01  1.11066364e-01  1.11066364e-01  1.11066364e-01  1.19621727e-12 -1.49262174e-07  1.00000000e+00 
 4.50000000e-01  1.13926257e-01  1.13926257e-01  1.13926257e-01  1.13926257e-01  1.13926257e-01  1.13926257e-01  1.13926257e-01  1.50252830e-12 -1.14241974e-07  1.00000000e+00 
 4.60000000e-01  1.17229931e-01  1.17229931e-01  1.17229931e-01  1.17229931e-01  1.17229931e-01  1.17229931e-01  1.17229931e-01  1.91762997e-12 -8.71388188e-08  1.00000000e+00 
 4.70000000e-01  1.20983980e-01  1.20983980e-01  1.20983979e-01  1.20983980e-01  1.20983980e-01  1.20983979e-01  1.20983979e-01  2.48181687e-12 -6.62702888e-08  1.00000000e+00 
 4.80000000e-01  1.25310478e-01  1.25310478e-01  1.25310478e-01  1.25310478e-01  1.25310478e-01  1.25310478e-01  1.25310478e-01  3.24729055e-12 -5.02777127e-08  1.00000000e+00 
 4.90000000e-01  1.30217875e-01  1.30217875e-01  1.30217875e-01  1.30217875e-01  1.30217875e-01  1.30217875e-01  1.30217875e-01  4.28626388e-12 -3.80729546e-08  1.00000000e+00 
 5.00000000e-01  1.35795978e-01  1.35795978e-01  1.35795978e-01  1.35795978e-01  1.35795978e-01  1.35795978e-01  1.35795978e-01  5.69395704e-12 -2.87928401e-08  1.00000000e+00 
 5.10000000e-01  1.42094636e-01  1.42094636e-01  1.42094636e-01  1.42094636e-01  1.42094636e-01  1.42094636e-01  1.42094636e-01  7.60183638e-12 -2.17532552e-08  1.00000000e+00 
 5.20000000e-01  1.49070863e-01  1.49070863e-01  1.49070862e-01  1.49070863e-01  1.49070863e-01  1.49070862e-01  1.49070862e-01  1.01832700e-11 -1.64231473e-08  1.00000000e+00 
 5.30000000e-01  1.56751473e-01  1.56751473e-01  1.56751473e-01  1.56751473e-01  1.56751473e-01  1.56751473e-01  1.56751473e-01  1.36668654e-11 -1.23931407e-08  1.00000000e+00 
 5.40000000e-01  1.64982524e-01  1.64982524e-01  1.64982524e-01  1.64982524e-01  1.64982524e-01  1.64982524e-01  1.64982524e-01  1.83597870e-11 -9.34881328e-09  1.00000000e+00 
 5.50000000e-01  1.73753560e-01  1.73753560e-01  1.73753560e-01  1.73753560e-01  1.73753560e-01  1.73753560e-01  1.73753560e-01  2.46699095e-11 -7.05083636e-09  1.00000000e+00 
 5.60000000e-01  1.82932581e-01  1.82932581e-01  1.82932581e-01  1.82932581e-01  1.82932581e-01  1.82932581e-01  1.82932581e-01  3.31288056e-11 -5.31731814e-09  1.00000000e+00 
 5.70000000e-01  1.92427248e-01  1.92427248e-01  1.92427248e-01  1.92427248e-01  1.92427248e-01  1.92427248e-01  1.92427248e-01  4.44427839e-11 -4.01026057e-09  1.00000000e+00 
 5.80000000e-01  2.02155140e-01  2.02155140e-01  2.02155140e-01  2.02155140e-01  2.02155140e-01  2.02155140e-01  2.02155140e-01  5.95218854e-11 -3.02523517e-09  1.00000000e+00 
 5.90000000e-01  2.12021903e-01  2.12021903e-01  2.12021903e-01  2.12021903e-01  2.12021903e-01  2.12021903e-01  2.12021903e-01  7.95489083e-11 -2.28321184e-09  1.00000000e+00 
 6.00000000e-01  2.21972358e-01  2.21972358e-01  2.21972358e-01  2.21972358e-01  2.21972358e-01  2.21972358e-01  2.21972358e-01  1.06051367e-10 -1.72458670e-09  1.00000000e+00 
 6.10000000e-01  2.31951493e-01  2.31951493e-01  2.31951493e-01  2.31951493e-01  2.31951493e-01  2.31951493e-01  2.31951493e-01  1.40993327e-10 -1.30437883e-09  1.00000000e+00 
 6.20000000e-01  2.41915180e-01  2.41915180e-01  2.41915180e-01  2.41915180e-01  2.41915180e-01  2.41915180e-01  2.41915180e-01  1.86836384e-10 -9.88706006e-10  1.00000000e+00 
 6.30000000e-01  2.51829570e-01  2.51829570e-01  2.51829570e-01  2.51829570e-01  2.51829570e-01  2.51829570e-01  2.51829570e-01  2.46713711e-10 -7.52084617e-10  1.00000000e+00 
 6.40000000e-01  2.61659008e-01  2.61659008e-01  2.61659008e-01  2.61659008e-01  2.61659008e-01  2.61659008e-01  2.61659008e-01  3.24514942e-10 -5.75312242e-10  1.00000000e+00 
 6.50000000e-01  2.71388884e-01  2.71388885e-01  2.71388884e-01  2.71388884e-01  2.71388884e-01  2.71388884e-01  2.71388884e-01  4.25050780e-10 -4.44099868e-10  1.00000000e+00 
 6.60000000e-01  2.80993545e-01  2.80993545e-01  2.80993545e-01  2.80993545e-01  2.80993545e-01  2.80993545e-01  2.80993545e-01  5.54215698e-10 -3.47771589e-10  1.00000000e+00 
 6.70000000e-01  2.90456839e-01  2.90456839e-01  2.90456839e-01  2.90456839e-01  2.90456839e-01  2.90456839e-01  2.90456839e-01  7.19131766e-10 -2.78330248e-10  1.00000000e+00 
 6.80000000e-01  2.99765498e-01  2.99765498e-01  2.99765498e-01  2.99765498e-01  2.99765498e-01  2.99765498e-01  2.99765498e-01  9.28367039e-10 -2.29984920e-10  1.00000000e+00 
 6.90000000e-01  3.08909234e-01  3.08909234e-01  3.08909234e-01  3.08909234e-01  3.08909234e-01  3.08909234e-01  3.08909234e-01  1.19207999e-09 -1.98475902e-10  1.00000000e+00 
 7.00000000e-01  3.17879155e-01  3.17879155e-01  3.17879155e-01  3.17879155e-01  3.17879155e-01  3.17879155e-01  3.17879155e-01  1.52224928e-09 -1.80861548e-10  1.00000000e+00 
 7.10000000e-01  3.26668611e-01  3.26668611e-01  3.26668611e-01  3.26668611e-01  3.26668611e-01  3.26668611e-01  3.26668611e-01  1.93287382e-09 -1.75056414e-10  1.00000000e+00 
 7.20000000e-01  3.35275436e-01  3.35275436e-01  3.35275436e-01  3.35275436e-01  3.35275436e-01  3.35275436e-01  3.35275436e-01  2.44022760e-09 -1.79845472e-10  1.00000000e+00 
 7.30000000e-01  3.43699248e-01  3.43699248e-01  3.43699248e-01  3.43699248e-01  3.43699248e-01  3.43699248e-01  3.43699248e-01  3.06314596e-09 -1.94496863e-10  1.00000000e+00 
 7.40000000e-01  3.51942599e-01  3.51942599e-01  3.51942599e-01  3.51942599e-01  3.51942599e-01  3.51942599e-01  3.51942599e-01  3.82337963e-09 -2.18811635e-10  1.00000000e+00 
 7.50000000e-01  3.60010876e-01  3.60010876e-01  3.60010876e-01  3.60010876e-01  3.60010876e-01  3.60010876e-01  3.60010876e-01  4.74600646e-09 -2.52814658e-10  1.00000000e+00 
 7.60000000e-01  3.67911409e-01  3.67911409e-01  3.67911408e-01  3.67911409e-01  3.67911409e-01  3.67911409e-01  3.67911408e-01  5.86003350e-09 -2.96509484e-10  1.00000000e+00 
 7.70000000e-01  3.75654450e-01  3.75654450e-01  3.75654450e-01  3.75654450e-01  3.75654450e-01  3.75654450e-01  3.75654450e-01  7.19906597e-09 -3.48791218e-10  1.00000000e+00 
 7.80000000e-01  3.83251724e-01  3.83251724e-01  3.83251724e-01  3.83251724e-01  3.83251724e-01  3.83251724e-01  3.83251724e-01  8.80215636e-09 -4.04380529e-10  1.00000000e+00 
 7.90000000e-01  3.90716619e-01  3.90716619e-01  3.90716619e-01  3.90716619e-01  3.90716619e-01  3.90716619e-01  3.90716619e-01  1.07148888e-08 -4.50139481e-10  1.00000000e+00 
 8.00000000e-01  3.98063420e-01  3.98063420e-01  3.98063420e-01  3.98063420e-01  3.98063420e-01  3.98063420e-01  3.98063420e-01  1.29906993e-08 -4.71477080e-10  1.00000000e+00 
 8.10000000e-01  4.05307436e-01  4.05307436e-01  4.05307436e-01  4.05307436e-01  4.05307436e-01  4.05307436e-01  4.05307436e-01  1.56924244e-08 -4.64371652e-10  1.00000000e+00 
 8.20000000e-01  4.12463962e-01  4.12463962e-01  4.12463962e-01  4.12463962e-01  4.12463962e-01  4.12463962e-01  4.12463962e-01  1.88941936e-08 -4.34862812e-10  1.00000000e+00 
 8.30000000e-01  4.19548504e-01  4.19548504e-01  4.19548504e-01  4.19548504e-01  4.19548504e-01  4.19548504e-01  4.19548504e-01  2.26836973e-08 -3.92471833e-10  1.00000000e+00 
 8.40000000e-01  4.26576147e-01  4.26576147e-01  4.26576147e-01  4.26576147e-01  4.26576147e-01  4.26576147e-01  4.26576147e-01  2.71647638e-08 -3.45163897e-10  1.00000000e+00 
 8.50000000e-01  4.33561182e-01  4.33561182e-01  4.33561182e-01  4.33561182e-01  4.33561182e-01  4.33561182e-01  4.33561182e-01  3.24604711e-08 -2.98076230e-10  1.00000000e+00 
 8.60000000e-01  4.40516996e-01  4.40516996e-01  4.40516996e-01  4.40516996e-01  4.40516996e-01  4.40516996e-01  4.40516996e-01  3.87165259e-08 -2.54029686e-10  1.00000000e+00 
 8.70000000e-01  4.47455523e-01  4.47455524e-01  4.47455523e-01  4.47455524e-01  4.47455523e-01  4.47455523e-01  4.47455523e-01  4.61052077e-08 -2.14445350e-10  1.00000000e+00 
 8.80000000e-01  4.54386881e-01  4.54386881e-01  4.54386881e-01  4.54386881e-01  4.54386881e-01  4.54386881e-01  4.54386881e-01  5.48294120e-08 -1.79760207e-10  1.00000000e+00 
 8.90000000e-01  4.61319030e-01  4.61319030e-01  4.61319030e-01  4.61319030e-01  4.61319030e-01  4.61319030e-01  4.61319030e-01  6.51268346e-08 -1.49896096e-10  1.00000000e+00 
 9.00000000e-01  4.68257035e-01  4.68257035e-01  4.68257035e-01  4.68257035e-01  4.68257035e-01  4.68257035e-01  4.68257035e-01  7.72735745e-08 -1.24469324e-10  1.00000000e+00 
 9.10000000e-01  4.75202629e-01  4.75202629e-01  4.75202629e-01  4.75202629e-01  4.75202629e-01  4.75202629e-01  4.75202629e-01  9.15866545e-08 -1.02946984e-10  1.00000000e+00 
 9.20000000e-01  4.82153239e-01  4.82153239e-01  4.82153239e-01  4.82153239e-01  4.82153239e-01  4.82153239e-01  4.82153239e-01  1.08423936e-07 -8.47890647e-11  1.00000000e+00 
 9.30000000e-01  4.89101177e-01  4.89101177e-01  4.89101177e-01  4.89101177e-01  4.89101177e-01  4.89101177e-01  4.89101177e-01  1.28179797e-07 -6.94129199e-11  1.00000000e+00 
 9.40000000e-01  4.96032480e-01  4.96032481e-01  4.96032480e-01  4.96032481e-01  4.96032480e-01  4.96032480e-01  4.96032480e-01  1.51273571e-07 -5.63602498e-11  1.00000000e+00 
 9.50000000e-01  5.02925635e-01  5.02925635e-01  5.02925635e-01  5.02925635e-01  5.02925635e-01  5.02925635e-01  5.02925635e-01  1.78127252e-07 -4.52367033e-11  1.00000000e+00 
 9.60000000e-01  5.09750202e-01  5.09750202e-01  5.09750202e-01  5.09750202e-01  5.09750202e-01  5.09750202e-01  5.09750202e-01  2.09127715e-07 -3.57083252e-11  1.00000000e+00 
 9.70000000e-01  5.16465360e-01  5.16465360e-01  5.16465360e-01  5.16465360e-01  5.16465360e-01  5.16465360e-01  5.16465360e-01  2.44568701e-07 -2.75264256e-11  1.00000000e+00 
 9.80000000e-01  5.23018766e-01  5.23018767e-01  5.23018766e-01  5.23018766e-01  5.23018766e-01  5.23018766e-01  5.23018766e-01  2.84569869e-07 -2.04600781e-11  1.00000000e+00 
 9.90000000e-01  5.29346214e-01  5.29346215e-01  5.29346214e-01  5.29346214e-01  5.29346214e-01  5.29346214e-01  5.29346214e-01  3.28976412e-07 -1.42073020e-11  1.00000000e+00 
 1.00000000e+00  5.35373053e-01  5.35373053e-01  5.35373053e-01  5.35373053e-01  5.35373053e-01  5.35373053e-01  5.35373053e-01  3.77254589e-07 -8.55493454e-12  1.00000000e+00 
 1.01000000e+00  5.41017980e-01  5.41017980e-01  5.41017980e-01  5.41017980e-01  5.41017980e-01  5.41017980e-01  5.41017980e-01  4.28413676e-07 -3.49942297e-12  1.00000000e+00 
 1.02000000e+00  5.46199091e-01  5.46199091e-01  5.46199091e-01  5.46199091e-01  5.46199091e-01  5.46199091e-01  5.46199091e-01  4.80989937e-07  9.45021839e-13  1.00000000e+00 
 1.03000000e+00  5.50840176e-01  5.50840176e-01  5.50840175e-01  5.50840176e-01  5.50840176e-01  5.50840175e-01  5.50840175e-01  5.33108346e-07  5.15854026e-12  1.00000000e+00 
 1.04000000e+00  5.54874666e-01  5.54874666e-01  5.54874666e-01  5.54874666e-01  5.54874666e-01  5.54874666e-01  5.54874666e-01  5.82604886e-07  9.19442300e-12  1.00000000e+00 
 1.05000000e+00  5.58247840e-01  5.58247840e-01  5.58247840e-01  5.58247840e-01  5.58247840e-01  5.58247840e-01  5.58247840e-01  6.27198938e-07  1.29674049e-11  1.00000000e+00 
 1.06000000e+00  5.60923775e-01  5.60923775e-01  5.60923775e-01  5.60923775e-01  5.60923775e-01  5.60923775e-01  5.60923775e-01  6.64781646e-07  1.63780101e-11  1.00000000e+00 
 1.07000000e+00  5.62904574e-01  5.62904574e-01  5.62904574e-01  5.62904574e-01  5.62904574e-01  5.62904574e-01  5.62904574e-01  6.93923590e-07  1.93978167e-11  1.00000000e+00 
 1.08000000e+00  5.64255519e-01  5.64255519e-01  5.64255519e-01  5.64255519e-01  5.64255519e-01  5.64255519e-01  5.64255519e-01  7.14477852e-07  2.21191954e-11  1.00000000e+00 
 1.09000000e+00  5.65107229e-01  5.65107229e-01  5.65107229e-01  5.65107229e-01  5.65107229e-01  5.65107229e-01  5.65107229e-01  7.27736847e-07  2.46664911e-11  1.00000000e+00 
 1.10000000e+00  5.65616480e-01  5.65616480e-01  5.65616480e-01  5.65616480e-01  5.65616480e-01  5.65616480e-01  5.65616480e-01  7.35780619e-07  2.72208922e-11  1.00000000e+00 
