 v-sweep         v(b0)           v(b1)           v(b2)           v(b3)           v(b4)           v(b5)           v(b6)           i(vbias)        i(viout)        v(vout)        
 0.00000000e+00  4.81723863e-19  4.81723863e-19  4.81723863e-19  4.81723863e-19  4.81723863e-19  4.81723863e-19  4.81723863e-19  1.01963255e-29 -4.73873010e-03  1.00000000e+00 
 1.00000000e-02  2.02696926e-03  2.02696926e-03  2.02696926e-03  2.02696926e-03  2.02696926e-03  2.02696926e-03  2.02696926e-03  1.16415905e-14 -4.31187368e-03  1.00000000e+00 
 2.00000000e-02  4.04771934e-03  4.04771935e-03  4.04771934e-03  4.04771934e-03  4.04771934e-03  4.04771934e-03  4.04771934e-03  2.27533785e-14 -3.89919615e-03  1.00000000e+00 
 3.00000000e-02  6.06481315e-03  6.06481316e-03  6.06481315e-03  6.06481315e-03  6.06481315e-03  6.06481315e-03  6.06481315e-03  3.34732970e-14 -3.50206874e-03  1.00000000e+00 
 4.00000000e-02  8.07930374e-03  8.07930376e-03  8.07930375e-03  8.07930375e-03  8.07930375e-03  8.07930375e-03  8.07930375e-03  4.38942210e-14 -3.12198936e-03  1.00000000e+00 
 5.00000000e-02  1.00953332e-02  1.00953332e-02  1.00953332e-02  1.00953332e-02  1.00953332e-02  1.00953332e-02  1.00953332e-02  5.40759911e-14 -2.76052678e-03  1.00000000e+00 
 6.00000000e-02  1.21092466e-02  1.21092466e-02  1.21092466e-02  1.21092466e-02  1.21092466e-02  1.21092466e-02  1.21092466e-02  6.40842686e-14 -2.41933543e-03  1.00000000e+00 
 7.00000000e-02  1.41219032e-02  1.41219032e-02  1.41219032e-02  1.41219032e-02  1.41219032e-02  1.41219032e-02  1.41219032e-02  7.39805200e-14 -2.10007266e-03  1.00000000e+00 
 8.00000000e-02  1.61563105e-02  1.61563106e-02  1.61563106e-02  1.61563106e-02  1.61563105e-02  1.61563106e-02  1.61563106e-02  8.37786977e-14 -1.80426698e-03  1.00000000e+00 
 9.00000000e-02  1.81704908e-02  1.81704908e-02  1.81704908e-02  1.81704908e-02  1.81704908e-02  1.81704908e-02  1.81704908e-02  9.34795107e-14 -1.53348202e-03  1.00000000e+00 
 1.00000000e-01  2.01811372e-02  2.01811372e-02  2.01811372e-02  2.01811372e-02  2.01811372e-02  2.01811372e-02  2.01811372e-02  1.03176717e-13 -1.28866817e-03  1.00000000e+00 
 1.10000000e-01  2.22070523e-02  2.22070524e-02  2.22070523e-02  2.22070523e-02  2.22070523e-02  2.22070524e-02  2.22070524e-02  1.12759719e-13 -1.07048602e-03  1.00000000e+00 
 1.20000000e-01  2.42142587e-02  2.42142587e-02  2.42142587e-02  2.42142587e-02  2.42142587e-02  2.42142587e-02  2.42142587e-02  1.22327264e-13 -8.79142608e-04  1.00000000e+00 
 1.30000000e-01  2.62079838e-02  2.62079838e-02  2.62079838e-02  2.62079838e-02  2.62079838e-02  2.62079838e-02  2.62079838e-02  1.31930862e-13 -7.14052844e-04  1.00000000e+00 
 1.40000000e-01  2.82187568e-02  2.82187568e-02  2.82187568e-02  2.82187568e-02  2.82187568e-02  2.82187568e-02  2.82187568e-02  1.41492281e-13 -5.73900720e-04  1.00000000e+00 
 1.50000000e-01  3.02063290e-02  3.02063291e-02  3.02063290e-02  3.02063290e-02  3.02063290e-02  3.02063291e-02  3.02063291e-02  1.51046584e-13 -4.56978875e-04  1.00000000e+00 
 1.60000000e-01  3.21932749e-02  3.21932749e-02  3.21932749e-02  3.21932749e-02  3.21932749e-02  3.21932749e-02  3.21932749e-02  1.60633521e-13 -3.60894991e-04  1.00000000e+00 
 1.70000000e-01  3.41472398e-02  3.41472398e-02  3.41472398e-02  3.41472398e-02  3.41472398e-02  3.41472398e-02  3.41472398e-02  1.70097446e-13 -2.83082021e-04  1.00000000e+00 
 1.80000000e-01  3.60964078e-02  3.60964078e-02  3.60964078e-02  3.60964078e-02  3.60964078e-02  3.60964078e-02  3.60964078e-02  1.79640950e-13 -2.20887518e-04  1.00000000e+00 
 1.90000000e-01  3.79963522e-02  3.79963523e-02  3.79963522e-02  3.79963522e-02  3.79963522e-02  3.79963522e-02  3.79963523e-02  1.89183625e-13 -1.71696223e-04  1.00000000e+00 
 2.00000000e-01  3.98893539e-02  3.98893539e-02  3.98893539e-02  3.98893539e-02  3.98893539e-02  3.98893539e-02  3.98893539e-02  1.98784118e-13 -1.33121360e-04  1.00000000e+00 
 2.10000000e-01  4.17598344e-02  4.17598344e-02  4.17598344e-02  4.17598344e-02  4.17598344e-02  4.17598344e-02  4.17598344e-02  2.08301860e-13 -1.03094792e-04  1.00000000e+00 
 2.20000000e-01  4.35732579e-02  4.35732579e-02  4.35732579e-02  4.35732579e-02  4.35732579e-02  4.35732579e-02  4.35732579e-02  2.17896368e-13 -7.98298786e-05  1.00000000e+00 
 2.30000000e-01  4.53888662e-02  4.53888663e-02  4.53888662e-02  4.53888662e-02  4.53888662e-02  4.53888662e-02  4.53888663e-02  2.27505858e-13 -6.18537272e-05  1.00000000e+00 
 2.40000000e-01  4.71515426e-02  4.71515427e-02  4.71515426e-02  4.71515426e-02  4.71515426e-02  4.71515426e-02  4.71515427e-02  2.37111627e-13 -4.79851253e-05  1.00000000e+00 
 2.50000000e-01  4.88913044e-02  4.88913044e-02  4.88913044e-02  4.88913044e-02  4.88913044e-02  4.88913044e-02  4.88913044e-02  2.46869962e-13 -3.72869020e-05  1.00000000e+00 
 2.60000000e-01  5.05893633e-02  5.05893634e-02  5.05893633e-02  5.05893633e-02  5.05893633e-02  5.05893633e-02  5.05893634e-02  2.56532785e-13 -2.90283518e-05  1.00000000e+00 
 2.70000000e-01  5.22263489e-02  5.22263489e-02  5.22263489e-02  5.22263489e-02  5.22263489e-02  5.22263489e-02  5.22263489e-02  2.66342978e-13 -2.26543289e-05  1.00000000e+00 
 2.80000000e-01  5.38736830e-02  5.38736831e-02  5.38736830e-02  5.38736830e-02  5.38736830e-02  5.38736830e-02  5.38736831e-02  2.76411799e-13 -1.77231721e-05  1.00000000e+00 
 2.90000000e-01  5.54623470e-02  5.54623470e-02  5.54623470e-02  5.54623470e-02  5.54623470e-02  5.54623470e-02  5.54623470e-02  2.86663857e-13 -1.38949941e-05  1.00000000e+00 
 3.00000000e-01  5.70095645e-02  5.70095646e-02  5.70095645e-02  5.70095645e-02  5.70095645e-02  5.70095646e-02  5.70095646e-02  2.97051717e-13 -1.09253167e-05  1.00000000e+00 
 3.10000000e-01  5.85466136e-02  5.85466137e-02  5.85466136e-02  5.85466136e-02  5.85466136e-02  5.85466137e-02  5.85466137e-02  3.07746092e-13 -8.60299424e-06  1.00000000e+00 
 3.20000000e-01  6.00155996e-02  6.00155997e-02  6.00155996e-02  6.00155997e-02  6.00155996e-02  6.00155997e-02  6.00155997e-02  3.18930185e-13 -6.79180610e-06  1.00000000e+00 
 3.30000000e-01  6.14934412e-02  6.14934413e-02  6.14934412e-02  6.14934412e-02  6.14934412e-02  6.14934413e-02  6.14934413e-02  3.30739547e-13 -5.37000777e-06  1.00000000e+00 
 3.40000000e-01  6.29275081e-02  6.29275081e-02  6.29275081e-02  6.29275081e-02  6.29275081e-02  6.29275081e-02  6.29275081e-02  3.43259824e-13 -4.25178590e-06  1.00000000e+00 
 3.50000000e-01  6.43233710e-02  6.43233711e-02  6.43233710e-02  6.43233710e-02  6.43233710e-02  6.43233711e-02  6.43233711e-02  3.57199716e-13 -3.36906677e-06  1.00000000e+00 
 3.60000000e-01  6.56714327e-02  6.56714327e-02  6.56714327e-02  6.56714327e-02  6.56714327e-02  6.56714327e-02  6.56714327e-02  3.72427309e-13 -2.67284349e-06  1.00000000e+00 
 3.70000000e-01  6.70618179e-02  6.70618179e-02  6.70618179e-02  6.70618179e-02  6.70618179e-02  6.70618179e-02  6.70618179e-02  3.89936594e-13 -2.12189610e-06  1.00000000e+00 
 3.80000000e-01  6.83792164e-02  6.83792164e-02  6.83792164e-02  6.83792164e-02  6.83792164e-02  6.83792164e-02  6.83792164e-02  4.10347920e-13 -1.68334492e-06  1.00000000e+00 
 3.90000000e-01  6.97253794e-02  6.97253795e-02  6.97253794e-02  6.97253794e-02  6.97253794e-02  6.97253794e-02  6.97253795e-02  4.34768568e-13 -1.33547292e-06  1.00000000e+00 
 4.00000000e-01  7.10568190e-02  7.10568190e-02  7.10568190e-02  7.10568190e-02  7.10568190e-02  7.10568190e-02  7.10568190e-02  4.64376005e-13 -1.05954744e-06  1.00000000e+00 
 4.10000000e-01  7.23693802e-02  7.23693802e-02  7.23693802e-02  7.23693802e-02  7.23693802e-02  7.23693802e-02  7.23693802e-02  5.01396328e-13 -8.40157142e-07  1.00000000e+00 
 4.20000000e-01  7.37108864e-02  7.37108864e-02  7.37108864e-02  7.37108864e-02  7.37108864e-02  7.37108864e-02  7.37108864e-02  5.48090050e-13 -6.67146864e-07  1.00000000e+00 
 4.30000000e-01  7.50928980e-02  7.50928981e-02  7.50928980e-02  7.50928980e-02  7.50928980e-02  7.50928980e-02  7.50928980e-02  6.08276027e-13 -5.29454567e-07  1.00000000e+00 
 4.40000000e-01  7.65658973e-02  7.65658974e-02  7.65658973e-02  7.65658973e-02  7.65658973e-02  7.65658973e-02  7.65658973e-02  6.87027116e-13 -4.20793668e-07  1.00000000e+00 
 4.50000000e-01  7.80637231e-02  7.80637231e-02  7.80637231e-02  7.80637231e-02  7.80637231e-02  7.80637231e-02  7.80637231e-02  7.89972620e-13 -3.35051141e-07  1.00000000e+00 
 4.60000000e-01  7.96617196e-02  7.96617196e-02  7.96617196e-02  7.96617196e-02  7.96617196e-02  7.96617196e-02  7.96617196e-02  9.26438939e-13 -2.67469119e-07  1.00000000e+00 
 4.70000000e-01  8.14317514e-02  8.14317515e-02  8.14317515e-02  8.14317515e-02  8.14317515e-02  8.14317515e-02  8.14317515e-02  1.10897611e-12 -2.13747612e-07  1.00000000e+00 
 4.80000000e-01  8.34346083e-02  8.34346084e-02  8.34346083e-02  8.34346083e-02  8.34346083e-02  8.34346084e-02  8.34346084e-02  1.35469378e-12 -1.69583629e-07  1.00000000e+00 
 4.90000000e-01  8.56577634e-02  8.56577634e-02  8.56577634e-02  8.56577634e-02  8.56577634e-02  8.56577634e-02  8.56577634e-02  1.68452745e-12 -1.32284455e-07  1.00000000e+00 
 5.00000000e-01  8.82191406e-02  8.82191407e-02  8.82191406e-02  8.82191406e-02  8.82191406e-02  8.82191407e-02  8.82191407e-02  2.13089424e-12 -1.01448819e-07  1.00000000e+00 
 5.10000000e-01  9.12174032e-02  9.12174032e-02  9.12174032e-02  9.12174032e-02  9.12174032e-02  9.12174032e-02  9.12174032e-02  2.73667181e-12 -7.72123343e-08  1.00000000e+00 
 5.20000000e-01  9.47111725e-02  9.47111725e-02  9.47111725e-02  9.47111725e-02  9.47111725e-02  9.47111725e-02  9.47111725e-02  3.55800627e-12 -5.85638276e-08  1.00000000e+00 
 5.30000000e-01  9.88242053e-02  9.88242054e-02  9.88242053e-02  9.88242053e-02  9.88242053e-02  9.88242054e-02  9.88242054e-02  4.67483444e-12 -4.43396289e-08  1.00000000e+00 
 5.40000000e-01  1.03655916e-01  1.03655916e-01  1.03655916e-01  1.03655916e-01  1.03655916e-01  1.03655916e-01  1.03655916e-01  6.19022184e-12 -3.35266037e-08  1.00000000e+00 
 5.50000000e-01  1.09213332e-01  1.09213332e-01  1.09213332e-01  1.09213332e-01  1.09213332e-01  1.09213332e-01  1.09213332e-01  8.24249967e-12 -2.53296548e-08  1.00000000e+00 
 5.60000000e-01  1.15527579e-01  1.15527579e-01  1.15527579e-01  1.15527579e-01  1.15527579e-01  1.15527579e-01  1.15527579e-01  1.10164384e-11 -1.91251388e-08  1.00000000e+00 
 5.70000000e-01  1.22575351e-01  1.22575351e-01  1.22575351e-01  1.22575351e-01  1.22575351e-01  1.22575351e-01  1.22575351e-01  1.47482530e-11 -1.44336383e-08  1.00000000e+00 
 5.80000000e-01  1.30292647e-01  1.30292647e-01  1.30292647e-01  1.30292647e-01  1.30292647e-01  1.30292647e-01  1.30292647e-01  1.97702405e-11 -1.08896216e-08  1.00000000e+00 
 5.90000000e-01  1.38617192e-01  1.38617192e-01  1.38617192e-01  1.38617192e-01  1.38617192e-01  1.38617192e-01  1.38617192e-01  2.65033540e-11 -8.21435719e-09  1.00000000e+00 
 6.00000000e-01  1.47435577e-01  1.47435577e-01  1.47435577e-01  1.47435577e-01  1.47435577e-01  1.47435577e-01  1.47435577e-01  3.55164110e-11 -6.19608898e-09  1.00000000e+00 
 6.10000000e-01  1.56662950e-01  1.56662950e-01  1.56662950e-01  1.56662950e-01  1.56662950e-01  1.56662950e-01  1.56662950e-01  4.75460795e-11 -4.67437644e-09  1.00000000e+00 
 6.20000000e-01  1.66194302e-01  1.66194302e-01  1.66194302e-01  1.66194302e-01  1.66194302e-01  1.66194302e-01  1.66194302e-01  6.35641873e-11 -3.52780205e-09  1.00000000e+00 
 6.30000000e-01  1.75929882e-01  1.75929882e-01  1.75929882e-01  1.75929882e-01  1.75929882e-01  1.75929882e-01  1.75929882e-01  8.47955365e-11 -2.66454947e-09  1.00000000e+00 
 6.40000000e-01  1.85796177e-01  1.85796177e-01  1.85796177e-01  1.85796177e-01  1.85796177e-01  1.85796177e-01  1.85796177e-01  1.12832728e-10 -2.01544026e-09  1.00000000e+00 
 6.50000000e-01  1.95719082e-01  1.95719082e-01  1.95719082e-01  1.95719082e-01  1.95719082e-01  1.95719082e-01  1.95719082e-01  1.49675551e-10 -1.52819268e-09  1.00000000e+00 
 6.60000000e-01  2.05647401e-01  2.05647401e-01  2.05647401e-01  2.05647401e-01  2.05647401e-01  2.05647401e-01  2.05647401e-01  1.97821592e-10 -1.16347110e-09  1.00000000e+00 
 6.70000000e-01  2.15526525e-01  2.15526525e-01  2.15526525e-01  2.15526525e-01  2.15526525e-01  2.15526525e-01  2.15526525e-01  2.60421599e-10 -8.92157459e-10  1.00000000e+00 
 6.80000000e-01  2.25323663e-01  2.25323664e-01  2.25323663e-01  2.25323663e-01  2.25323663e-01  2.25323663e-01  2.25323663e-01  3.41310874e-10 -6.91940727e-10  1.00000000e+00 
 6.90000000e-01  2.35003359e-01  2.35003359e-01  2.35003359e-01  2.35003359e-01  2.35003359e-01  2.35003359e-01  2.35003359e-01  4.45136514e-10 -5.46393153e-10  1.00000000e+00 
 7.00000000e-01  2.44546429e-01  2.44546429e-01  2.44546429e-01  2.44546429e-01  2.44546429e-01  2.44546429e-01  2.44546429e-01  5.77570707e-10 -4.43534987e-10  1.00000000e+00 
 7.10000000e-01  2.53927568e-01  2.53927568e-01  2.53927568e-01  2.53927568e-01  2.53927568e-01  2.53927568e-01  2.53927568e-01  7.45339963e-10 -3.74583919e-10  1.00000000e+00 
 7.20000000e-01  2.63135065e-01  2.63135065e-01  2.63135065e-01  2.63135065e-01  2.63135065e-01  2.63135065e-01  2.63135065e-01  9.56377394e-10 -3.33287176e-10  1.00000000e+00 
 7.30000000e-01  2.72157939e-01  2.72157939e-01  2.72157939e-01  2.72157939e-01  2.72157939e-01  2.72157939e-01  2.72157939e-01  1.22002259e-09 -3.15210968e-10  1.00000000e+00 
 7.40000000e-01  2.80988902e-01  2.80988903e-01  2.80988902e-01  2.80988902e-01  2.80988902e-01  2.80988902e-01  2.80988902e-01  1.54709612e-09 -3.17555759e-10  1.00000000e+00 
 7.50000000e-01  2.89624939e-01  2.89624939e-01  2.89624939e-01  2.89624939e-01  2.89624939e-01  2.89624939e-01  2.89624939e-01  1.95017276e-09 -3.38644668e-10  1.00000000e+00 
 7.60000000e-01  2.98066050e-01  2.98066050e-01  2.98066050e-01  2.98066050e-01  2.98066050e-01  2.98066050e-01  2.98066050e-01  2.44374564e-09 -3.77639253e-10  1.00000000e+00 
 7.70000000e-01  3.06316376e-01  3.06316376e-01  3.06316376e-01  3.06316376e-01  3.06316376e-01  3.06316376e-01  3.06316376e-01  3.04452633e-09 -4.34198455e-10  1.00000000e+00 
 7.80000000e-01  3.14382177e-01  3.14382177e-01  3.14382177e-01  3.14382177e-01  3.14382177e-01  3.14382177e-01  3.14382177e-01  3.77187789e-09 -5.07256459e-10  1.00000000e+00 
 7.90000000e-01  3.22272909e-01  3.22272909e-01  3.22272909e-01  3.22272909e-01  3.22272909e-01  3.22272909e-01  3.22272909e-01  4.64808741e-09 -5.91214189e-10  1.00000000e+00 
 8.00000000e-01  3.29999528e-01  3.29999528e-01  3.29999528e-01  3.29999528e-01  3.29999528e-01  3.29999528e-01  3.29999528e-01  5.69910530e-09 -6.63078481e-10  1.00000000e+00 
 8.10000000e-01  3.37575109e-01  3.37575109e-01  3.37575109e-01  3.37575109e-01  3.37575109e-01  3.37575109e-01  3.37575109e-01  6.95515834e-09 -6.79207801e-10  1.00000000e+00 
 8.20000000e-01  3.45013943e-01  3.45013943e-01  3.45013943e-01  3.45013943e-01  3.45013943e-01  3.45013943e-01  3.45013943e-01  8.45156256e-09 -6.26030783e-10  1.00000000e+00 
 8.30000000e-01  3.52331521e-01  3.52331521e-01  3.52331521e-01  3.52331521e-01  3.52331521e-01  3.52331521e-01  3.52331521e-01  1.02298159e-08 -5.36417133e-10  1.00000000e+00 
 8.40000000e-01  3.59542924e-01  3.59542924e-01  3.59542924e-01  3.59542924e-01  3.59542924e-01  3.59542924e-01  3.59542924e-01  1.23389012e-08 -4.37282210e-10  1.00000000e+00 
 8.50000000e-01  3.66663743e-01  3.66663743e-01  3.66663743e-01  3.66663743e-01  3.66663743e-01  3.66663743e-01  3.66663743e-01  1.48365700e-08 -3.46261686e-10  1.00000000e+00 
 8.60000000e-01  3.73709499e-01  3.73709499e-01  3.73709499e-01  3.73709499e-01  3.73709499e-01  3.73709499e-01  3.73709499e-01  1.77914563e-08 -2.69622547e-10  1.00000000e+00 
 8.70000000e-01  3.80694836e-01  3.80694836e-01  3.80694836e-01  3.80694836e-01  3.80694836e-01  3.80694836e-01  3.80694836e-01  2.12847171e-08 -2.07748485e-10  1.00000000e+00 
 8.80000000e-01  3.87633829e-01  3.87633829e-01  3.87633829e-01  3.87633829e-01  3.87633829e-01  3.87633829e-01  3.87633829e-01  2.54129604e-08 -1.59033675e-10  1.00000000e+00 
 8.90000000e-01  3.94539435e-01  3.94539435e-01  3.94539435e-01  3.94539435e-01  3.94539435e-01  3.94539435e-01  3.94539435e-01  3.02908347e-08 -1.21204380e-10  1.00000000e+00 
 9.00000000e-01  4.01423348e-01  4.01423348e-01  4.01423348e-01  4.01423348e-01  4.01423348e-01  4.01423348e-01  4.01423348e-01  3.60545060e-08 -9.21573928e-11  1.00000000e+00 
 9.10000000e-01  4.08295707e-01  4.08295707e-01  4.08295707e-01  4.08295707e-01  4.08295707e-01  4.08295707e-01  4.08295707e-01  4.28651201e-08 -6.99458269e-11  1.00000000e+00 
 9.20000000e-01  4.15164731e-01  4.15164731e-01  4.15164731e-01  4.15164731e-01  4.15164731e-01  4.15164731e-01  4.15164731e-01  5.09131133e-08 -5.29922772e-11  1.00000000e+00 
 9.30000000e-01  4.22036322e-01  4.22036322e-01  4.22036322e-01  4.22036322e-01  4.22036322e-01  4.22036322e-01  4.22036322e-01  6.04219150e-08 -4.01030320e-11  1.00000000e+00 
 9.40000000e-01  4.28913719e-01  4.28913719e-01  4.28913719e-01  4.28913719e-01  4.28913719e-01  4.28913719e-01  4.28913719e-01  7.16519768e-08 -3.02691205e-11  1.00000000e+00 
 9.50000000e-01  4.35796626e-01  4.35796626e-01  4.35796626e-01  4.35796626e-01  4.35796626e-01  4.35796626e-01  4.35796626e-01  8.49033381e-08 -2.26236807e-11  1.00000000e+00 
 9.60000000e-01  4.42680716e-01  4.42680716e-01  4.42680716e-01  4.42680716e-01  4.42680716e-01  4.42680716e-01  4.42680716e-01  1.00515920e-07 -1.67688086e-11  1.00000000e+00 
 9.70000000e-01  4.49556574e-01  4.49556574e-01  4.49556574e-01  4.49556574e-01  4.49556574e-01  4.49556574e-01  4.49556574e-01  1.18866117e-07 -1.21644916e-11  1.00000000e+00 
 9.80000000e-01  4.56408796e-01  4.56408796e-01  4.56408796e-01  4.56408796e-01  4.56408796e-01  4.56408796e-01  4.56408796e-01  1.40356423e-07 -8.58335625e-12  1.00000000e+00 
 9.90000000e-01  4.63214744e-01  4.63214744e-01  4.63214744e-01  4.63214744e-01  4.63214744e-01  4.63214744e-01  4.63214744e-01  1.65395003e-07 -5.68434189e-12  1.00000000e+00 
 1.00000000e+00  4.69943263e-01  4.69943263e-01  4.69943263e-01  4.69943263e-01  4.69943263e-01  4.69943263e-01  4.69943263e-01  1.94360538e-07 -3.29691829e-12  1.00000000e+00 
 1.01000000e+00  4.76553520e-01  4.76553520e-01  4.76553520e-01  4.76553520e-01  4.76553520e-01  4.76553520e-01  4.76553520e-01  2.27548002e-07 -1.29318778e-12  1.00000000e+00 
 1.02000000e+00  4.82994085e-01  4.82994086e-01  4.82994085e-01  4.82994085e-01  4.82994085e-01  4.82994085e-01  4.82994086e-01  2.65093126e-07  5.40012479e-13  1.00000000e+00 
 1.03000000e+00  4.89203126e-01  4.89203126e-01  4.89203126e-01  4.89203126e-01  4.89203126e-01  4.89203126e-01  4.89203126e-01  3.06879350e-07  2.27373675e-12  1.00000000e+00 
 1.04000000e+00  4.95110079e-01  4.95110079e-01  4.95110079e-01  4.95110079e-01  4.95110079e-01  4.95110079e-01  4.95110079e-01  3.52441928e-07  3.92219590e-12  1.00000000e+00 
 1.05000000e+00  5.00639328e-01  5.00639328e-01  5.00639328e-01  5.00639328e-01  5.00639328e-01  5.00639328e-01  5.00639328e-01  4.00893892e-07  5.68434189e-12  1.00000000e+00 
 1.06000000e+00  5.05714546e-01  5.05714546e-01  5.05714546e-01  5.05714546e-01  5.05714546e-01  5.05714546e-01  5.05714546e-01  4.50895065e-07  7.41806616e-12  1.00000000e+00 
 1.07000000e+00  5.10260929e-01  5.10260930e-01  5.10260929e-01  5.10260929e-01  5.10260929e-01  5.10260929e-01  5.10260929e-01  5.00657681e-07  9.19442300e-12  1.00000000e+00 
 1.08000000e+00  5.14203325e-01  5.14203325e-01  5.14203325e-01  5.14203325e-01  5.14203325e-01  5.14203325e-01  5.14203325e-01  5.47965129e-07  1.10986775e-11  1.00000000e+00 
 1.09000000e+00  5.17464259e-01  5.17464259e-01  5.17464259e-01  5.17464259e-01  5.17464259e-01  5.17464259e-01  5.17464259e-01  5.90238784e-07  1.31592515e-11  1.00000000e+00 
 1.10000000e+00  5.19975207e-01  5.19975208e-01  5.19975207e-01  5.19975207e-01  5.19975207e-01  5.19975207e-01  5.19975207e-01  6.24851261e-07  1.54045665e-11  1.00000000e+00 
