 v-sweep         v(b0)           v(b1)           v(b2)           v(b3)           v(b4)           v(b5)           v(b6)           i(vbias)        i(viout)        v(vout)        
 0.00000000e+00  8.25821607e-20  8.25821608e-20  8.25821607e-20  8.25821607e-20  8.25821607e-20  8.25821608e-20  8.25821597e-20 -1.15287197e-29 -4.73879641e-03  1.00000000e+00 
 1.00000000e-02  1.96452659e-03  1.96452658e-03  1.96452659e-03  1.96452658e-03  1.96452659e-03  1.96452658e-03  1.96452658e-03  1.16440264e-14 -4.31191253e-03  1.00000000e+00 
 2.00000000e-02  3.92484101e-03  3.92484100e-03  3.92484101e-03  3.92484100e-03  3.92484101e-03  3.92484100e-03  3.92484100e-03  2.27645331e-14 -3.89921167e-03  1.00000000e+00 
 3.00000000e-02  5.88179577e-03  5.88179576e-03  5.88179577e-03  5.88179576e-03  5.88179577e-03  5.88179576e-03  5.88179575e-03  3.34914439e-14 -3.50206575e-03  1.00000000e+00 
 4.00000000e-02  7.83759802e-03  7.83759801e-03  7.83759802e-03  7.83759801e-03  7.83759802e-03  7.83759801e-03  7.83759800e-03  4.39228477e-14 -3.12196289e-03  1.00000000e+00 
 5.00000000e-02  9.80488611e-03  9.80488610e-03  9.80488611e-03  9.80488610e-03  9.80488611e-03  9.80488610e-03  9.80488609e-03  5.41204908e-14 -2.76048001e-03  1.00000000e+00 
 6.00000000e-02  1.17535092e-02  1.17535092e-02  1.17535092e-02  1.17535092e-02  1.17535092e-02  1.17535092e-02  1.17535092e-02  6.41187983e-14 -2.41926630e-03  1.00000000e+00 
 7.00000000e-02  1.37267847e-02  1.37267847e-02  1.37267847e-02  1.37267847e-02  1.37267847e-02  1.37267847e-02  1.37267847e-02  7.40137559e-14 -2.09998358e-03  1.00000000e+00 
 8.00000000e-02  1.56981330e-02  1.56981330e-02  1.56981330e-02  1.56981330e-02  1.56981330e-02  1.56981330e-02  1.56981330e-02  8.37939117e-14 -1.80421351e-03  1.00000000e+00 
 9.00000000e-02  1.76612033e-02  1.76612032e-02  1.76612033e-02  1.76612033e-02  1.76612033e-02  1.76612032e-02  1.76612032e-02  9.35189087e-14 -1.53334218e-03  1.00000000e+00 
 1.00000000e-01  1.96318026e-02  1.96318026e-02  1.96318026e-02  1.96318026e-02  1.96318026e-02  1.96318026e-02  1.96318026e-02  1.03237057e-13 -1.28850564e-03  1.00000000e+00 
 1.10000000e-01  2.16044199e-02  2.16044199e-02  2.16044199e-02  2.16044199e-02  2.16044199e-02  2.16044198e-02  2.16044198e-02  1.12847408e-13 -1.07035031e-03  1.00000000e+00 
 1.20000000e-01  2.35820607e-02  2.35820607e-02  2.35820607e-02  2.35820607e-02  2.35820607e-02  2.35820607e-02  2.35820607e-02  1.22424250e-13 -8.78935115e-04  1.00000000e+00 
 1.30000000e-01  2.55319922e-02  2.55319921e-02  2.55319922e-02  2.55319921e-02  2.55319921e-02  2.55319921e-02  2.55319921e-02  1.32034561e-13 -7.13814958e-04  1.00000000e+00 
 1.40000000e-01  2.74930079e-02  2.74930079e-02  2.74930079e-02  2.74930079e-02  2.74930079e-02  2.74930079e-02  2.74930079e-02  1.41571186e-13 -5.73642878e-04  1.00000000e+00 
 1.50000000e-01  2.94575743e-02  2.94575743e-02  2.94575743e-02  2.94575743e-02  2.94575743e-02  2.94575743e-02  2.94575742e-02  1.51159369e-13 -4.56665858e-04  1.00000000e+00 
 1.60000000e-01  3.13996036e-02  3.13996036e-02  3.13996036e-02  3.13996036e-02  3.13996036e-02  3.13996036e-02  3.13996035e-02  1.60712315e-13 -3.60550748e-04  1.00000000e+00 
 1.70000000e-01  3.33353084e-02  3.33353083e-02  3.33353084e-02  3.33353083e-02  3.33353083e-02  3.33353083e-02  3.33353083e-02  1.70222635e-13 -2.82723642e-04  1.00000000e+00 
 1.80000000e-01  3.52444347e-02  3.52444346e-02  3.52444347e-02  3.52444347e-02  3.52444347e-02  3.52444346e-02  3.52444346e-02  1.79769489e-13 -2.20506358e-04  1.00000000e+00 
 1.90000000e-01  3.71393329e-02  3.71393328e-02  3.71393329e-02  3.71393329e-02  3.71393329e-02  3.71393328e-02  3.71393328e-02  1.89321527e-13 -1.71280958e-04  1.00000000e+00 
 2.00000000e-01  3.90072305e-02  3.90072305e-02  3.90072305e-02  3.90072305e-02  3.90072305e-02  3.90072305e-02  3.90072305e-02  1.98927233e-13 -1.32700213e-04  1.00000000e+00 
 2.10000000e-01  4.08515785e-02  4.08515784e-02  4.08515785e-02  4.08515784e-02  4.08515785e-02  4.08515784e-02  4.08515784e-02  2.08454429e-13 -1.02637719e-04  1.00000000e+00 
 2.20000000e-01  4.26652291e-02  4.26652291e-02  4.26652291e-02  4.26652291e-02  4.26652291e-02  4.26652291e-02  4.26652290e-02  2.17945650e-13 -7.93251451e-05  1.00000000e+00 
 2.30000000e-01  4.44528806e-02  4.44528806e-02  4.44528806e-02  4.44528806e-02  4.44528806e-02  4.44528806e-02  4.44528806e-02  2.27555869e-13 -6.13291066e-05  1.00000000e+00 
 2.40000000e-01  4.62222384e-02  4.62222384e-02  4.62222384e-02  4.62222384e-02  4.62222384e-02  4.62222384e-02  4.62222383e-02  2.37207050e-13 -4.74379546e-05  1.00000000e+00 
 2.50000000e-01  4.79084757e-02  4.79084757e-02  4.79084757e-02  4.79084757e-02  4.79084757e-02  4.79084757e-02  4.79084757e-02  2.46961882e-13 -3.67551358e-05  1.00000000e+00 
 2.60000000e-01  4.96126403e-02  4.96126402e-02  4.96126403e-02  4.96126402e-02  4.96126403e-02  4.96126402e-02  4.96126402e-02  2.56671115e-13 -2.85069267e-05  1.00000000e+00 
 2.70000000e-01  5.12923978e-02  5.12923978e-02  5.12923978e-02  5.12923978e-02  5.12923978e-02  5.12923978e-02  5.12923977e-02  2.66466563e-13 -2.21495794e-05  1.00000000e+00 
 2.80000000e-01  5.28719789e-02  5.28719789e-02  5.28719789e-02  5.28719789e-02  5.28719789e-02  5.28719789e-02  5.28719789e-02  2.76453163e-13 -1.72366473e-05  1.00000000e+00 
 2.90000000e-01  5.44930919e-02  5.44930919e-02  5.44930919e-02  5.44930919e-02  5.44930919e-02  5.44930919e-02  5.44930919e-02  2.86608126e-13 -1.34363744e-05  1.00000000e+00 
 3.00000000e-01  5.60465056e-02  5.60465056e-02  5.60465057e-02  5.60465056e-02  5.60465056e-02  5.60465056e-02  5.60465056e-02  2.97069803e-13 -1.04883322e-05  1.00000000e+00 
 3.10000000e-01  5.75568569e-02  5.75568569e-02  5.75568569e-02  5.75568569e-02  5.75568569e-02  5.75568568e-02  5.75568568e-02  3.07647706e-13 -8.21116986e-06  1.00000000e+00 
 3.20000000e-01  5.90705546e-02  5.90705546e-02  5.90705546e-02  5.90705546e-02  5.90705546e-02  5.90705545e-02  5.90705545e-02  3.18805278e-13 -6.43723602e-06  1.00000000e+00 
 3.30000000e-01  6.04879613e-02  6.04879613e-02  6.04879613e-02  6.04879613e-02  6.04879613e-02  6.04879613e-02  6.04879612e-02  3.30490701e-13 -5.05147209e-06  1.00000000e+00 
 3.40000000e-01  6.19482687e-02  6.19482687e-02  6.19482688e-02  6.19482687e-02  6.19482687e-02  6.19482687e-02  6.19482687e-02  3.42895200e-13 -3.96940575e-06  1.00000000e+00 
 3.50000000e-01  6.33218774e-02  6.33218774e-02  6.33218774e-02  6.33218774e-02  6.33218774e-02  6.33218773e-02  6.33218773e-02  3.56424878e-13 -3.12450159e-06  1.00000000e+00 
 3.60000000e-01  6.47165230e-02  6.47165230e-02  6.47165230e-02  6.47165230e-02  6.47165230e-02  6.47165230e-02  6.47165230e-02  3.71541150e-13 -2.45711958e-06  1.00000000e+00 
 3.70000000e-01  6.60751130e-02  6.60751129e-02  6.60751130e-02  6.60751129e-02  6.60751130e-02  6.60751129e-02  6.60751129e-02  3.88551225e-13 -1.93595534e-06  1.00000000e+00 
 3.80000000e-01  6.74216147e-02  6.74216146e-02  6.74216147e-02  6.74216146e-02  6.74216146e-02  6.74216146e-02  6.74216146e-02  4.08357715e-13 -1.52598275e-06  1.00000000e+00 
 3.90000000e-01  6.87252972e-02  6.87252971e-02  6.87252972e-02  6.87252971e-02  6.87252971e-02  6.87252971e-02  6.87252971e-02  4.31954535e-13 -1.20608584e-06  1.00000000e+00 
 4.00000000e-01  7.01131547e-02  7.01131547e-02  7.01131547e-02  7.01131547e-02  7.01131547e-02  7.01131547e-02  7.01131547e-02  4.60674020e-13 -9.52746987e-07  1.00000000e+00 
 4.10000000e-01  7.14286572e-02  7.14286572e-02  7.14286573e-02  7.14286572e-02  7.14286572e-02  7.14286572e-02  7.14286572e-02  4.96027603e-13 -7.49893672e-07  1.00000000e+00 
 4.20000000e-01  7.27713340e-02  7.27713340e-02  7.27713340e-02  7.27713340e-02  7.27713340e-02  7.27713340e-02  7.27713339e-02  5.40934458e-13 -5.92970054e-07  1.00000000e+00 
 4.30000000e-01  7.41643884e-02  7.41643884e-02  7.41643884e-02  7.41643884e-02  7.41643884e-02  7.41643884e-02  7.41643883e-02  5.98502096e-13 -4.68958604e-07  1.00000000e+00 
 4.40000000e-01  7.55894158e-02  7.55894158e-02  7.55894158e-02  7.55894158e-02  7.55894158e-02  7.55894158e-02  7.55894157e-02  6.73456598e-13 -3.71325044e-07  1.00000000e+00 
 4.50000000e-01  7.71478901e-02  7.71478900e-02  7.71478901e-02  7.71478900e-02  7.71478901e-02  7.71478900e-02  7.71478900e-02  7.71967315e-13 -2.95684771e-07  1.00000000e+00 
 4.60000000e-01  7.87554617e-02  7.87554617e-02  7.87554618e-02  7.87554617e-02  7.87554617e-02  7.87554617e-02  7.87554617e-02  9.02084803e-13 -2.34839533e-07  1.00000000e+00 
 4.70000000e-01  8.05238297e-02  8.05238297e-02  8.05238297e-02  8.05238297e-02  8.05238297e-02  8.05238297e-02  8.05238296e-02  1.07581487e-12 -1.87509372e-07  1.00000000e+00 
 4.80000000e-01  8.24953583e-02  8.24953583e-02  8.24953584e-02  8.24953583e-02  8.24953583e-02  8.24953583e-02  8.24953583e-02  1.30898395e-12 -1.50284450e-07  1.00000000e+00 
 4.90000000e-01  8.47218036e-02  8.47218035e-02  8.47218036e-02  8.47218035e-02  8.47218035e-02  8.47218035e-02  8.47218035e-02  1.62227886e-12 -1.19513416e-07  1.00000000e+00 
 5.00000000e-01  8.72695039e-02  8.72695039e-02  8.72695040e-02  8.72695039e-02  8.72695039e-02  8.72695039e-02  8.72695039e-02  2.04589579e-12 -9.41408302e-08  1.00000000e+00 
 5.10000000e-01  9.02712036e-02  9.02712036e-02  9.02712036e-02  9.02712036e-02  9.02712036e-02  9.02712036e-02  9.02712035e-02  2.62275228e-12 -7.33677297e-08  1.00000000e+00 
 5.20000000e-01  9.37550674e-02  9.37550673e-02  9.37550674e-02  9.37550673e-02  9.37550673e-02  9.37550673e-02  9.37550673e-02  3.40527086e-12 -5.65808449e-08  1.00000000e+00 
 5.30000000e-01  9.78696540e-02  9.78696539e-02  9.78696540e-02  9.78696539e-02  9.78696539e-02  9.78696539e-02  9.78696539e-02  4.46889520e-12 -4.33140741e-08  1.00000000e+00 
 5.40000000e-01  1.02663657e-01  1.02663657e-01  1.02663657e-01  1.02663657e-01  1.02663657e-01  1.02663657e-01  1.02663657e-01  5.90952461e-12 -3.29610543e-08  1.00000000e+00 
 5.50000000e-01  1.08210136e-01  1.08210136e-01  1.08210136e-01  1.08210136e-01  1.08210136e-01  1.08210136e-01  1.08210136e-01  7.86922806e-12 -2.50025352e-08  1.00000000e+00 
 5.60000000e-01  1.14486136e-01  1.14486136e-01  1.14486136e-01  1.14486136e-01  1.14486136e-01  1.14486136e-01  1.14486136e-01  1.05097179e-11 -1.89193656e-08  1.00000000e+00 
 5.70000000e-01  1.21508082e-01  1.21508082e-01  1.21508082e-01  1.21508082e-01  1.21508082e-01  1.21508082e-01  1.21508082e-01  1.40782832e-11 -1.42984362e-08  1.00000000e+00 
 5.80000000e-01  1.29214882e-01  1.29214882e-01  1.29214882e-01  1.29214882e-01  1.29214882e-01  1.29214882e-01  1.29214882e-01  1.88763644e-11 -1.07964979e-08  1.00000000e+00 
 5.90000000e-01  1.37506123e-01  1.37506123e-01  1.37506123e-01  1.37506123e-01  1.37506123e-01  1.37506123e-01  1.37506123e-01  2.53088644e-11 -8.14705459e-09  1.00000000e+00 
 6.00000000e-01  1.46301562e-01  1.46301562e-01  1.46301562e-01  1.46301562e-01  1.46301562e-01  1.46301562e-01  1.46301562e-01  3.39189675e-11 -6.14591045e-09  1.00000000e+00 
 6.10000000e-01  1.55500941e-01  1.55500941e-01  1.55500941e-01  1.55500941e-01  1.55500941e-01  1.55500941e-01  1.55500941e-01  4.54381411e-11 -4.63516869e-09  1.00000000e+00 
 6.20000000e-01  1.65003699e-01  1.65003699e-01  1.65003699e-01  1.65003699e-01  1.65003699e-01  1.65003699e-01  1.65003699e-01  6.07669817e-11 -3.49545815e-09  1.00000000e+00 
 6.30000000e-01  1.74711196e-01  1.74711196e-01  1.74711196e-01  1.74711196e-01  1.74711196e-01  1.74711196e-01  1.74711196e-01  8.11052683e-11 -2.63615618e-09  1.00000000e+00 
 6.40000000e-01  1.84557836e-01  1.84557836e-01  1.84557836e-01  1.84557836e-01  1.84557836e-01  1.84557836e-01  1.84557836e-01  1.07977582e-10 -1.98873806e-09  1.00000000e+00 
 6.50000000e-01  1.94464845e-01  1.94464845e-01  1.94464845e-01  1.94464845e-01  1.94464845e-01  1.94464845e-01  1.94464845e-01  1.43321823e-10 -1.50093626e-09  1.00000000e+00 
 6.60000000e-01  2.04374221e-01  2.04374221e-01  2.04374221e-01  2.04374221e-01  2.04374221e-01  2.04374221e-01  2.04374221e-01  1.89544130e-10 -1.13377041e-09  1.00000000e+00 
 6.70000000e-01  2.14246364e-01  2.14246364e-01  2.14246364e-01  2.14246364e-01  2.14246364e-01  2.14246364e-01  2.14246364e-01  2.49681602e-10 -8.57596660e-10  1.00000000e+00 
 6.80000000e-01  2.24036462e-01  2.24036462e-01  2.24036462e-01  2.24036462e-01  2.24036462e-01  2.24036462e-01  2.24036461e-01  3.27433365e-10 -6.50231868e-10  1.00000000e+00 
 6.90000000e-01  2.33717158e-01  2.33717158e-01  2.33717158e-01  2.33717158e-01  2.33717158e-01  2.33717158e-01  2.33717158e-01  4.27365310e-10 -4.94850383e-10  1.00000000e+00 
 7.00000000e-01  2.43260626e-01  2.43260626e-01  2.43260626e-01  2.43260626e-01  2.43260626e-01  2.43260626e-01  2.43260626e-01  5.54924842e-10 -3.78705067e-10  1.00000000e+00 
 7.10000000e-01  2.52649322e-01  2.52649322e-01  2.52649322e-01  2.52649322e-01  2.52649322e-01  2.52649322e-01  2.52649322e-01  7.16625120e-10 -2.92558866e-10  1.00000000e+00 
 7.20000000e-01  2.61866108e-01  2.61866108e-01  2.61866108e-01  2.61866108e-01  2.61866108e-01  2.61866108e-01  2.61866108e-01  9.20207632e-10 -2.29192665e-10  1.00000000e+00 
 7.30000000e-01  2.70899862e-01  2.70899862e-01  2.70899862e-01  2.70899862e-01  2.70899862e-01  2.70899862e-01  2.70899862e-01  1.17467439e-09 -1.83476345e-10  1.00000000e+00 
 7.40000000e-01  2.79742169e-01  2.79742169e-01  2.79742169e-01  2.79742169e-01  2.79742169e-01  2.79742169e-01  2.79742169e-01  1.49054796e-09 -1.51473500e-10  1.00000000e+00 
 7.50000000e-01  2.88391082e-01  2.88391082e-01  2.88391082e-01  2.88391082e-01  2.88391082e-01  2.88391082e-01  2.88391082e-01  1.87995597e-09 -1.30299327e-10  1.00000000e+00 
 7.60000000e-01  2.96843956e-01  2.96843956e-01  2.96843956e-01  2.96843956e-01  2.96843956e-01  2.96843956e-01  2.96843956e-01  2.35698799e-09 -1.17736931e-10  1.00000000e+00 
 7.70000000e-01  3.05103743e-01  3.05103743e-01  3.05103743e-01  3.05103743e-01  3.05103743e-01  3.05103743e-01  3.05103742e-01  2.93767433e-09 -1.12564180e-10  1.00000000e+00 
 7.80000000e-01  3.13176112e-01  3.13176112e-01  3.13176113e-01  3.13176112e-01  3.13176112e-01  3.13176112e-01  3.13176112e-01  3.64055242e-09 -1.13473675e-10  1.00000000e+00 
 7.90000000e-01  3.21068868e-01  3.21068868e-01  3.21068868e-01  3.21068868e-01  3.21068868e-01  3.21068868e-01  3.21068868e-01  4.48695536e-09 -1.19598553e-10  1.00000000e+00 
 8.00000000e-01  3.28791655e-01  3.28791655e-01  3.28791655e-01  3.28791655e-01  3.28791655e-01  3.28791655e-01  3.28791655e-01  5.50150103e-09 -1.29105615e-10  1.00000000e+00 
 8.10000000e-01  3.36356205e-01  3.36356205e-01  3.36356205e-01  3.36356205e-01  3.36356205e-01  3.36356205e-01  3.36356205e-01  6.71268685e-09 -1.37418965e-10  1.00000000e+00 
 8.20000000e-01  3.43775266e-01  3.43775266e-01  3.43775266e-01  3.43775266e-01  3.43775266e-01  3.43775266e-01  3.43775265e-01  8.15343348e-09 -1.36367362e-10  1.00000000e+00 
 8.30000000e-01  3.51061680e-01  3.51061680e-01  3.51061680e-01  3.51061680e-01  3.51061680e-01  3.51061680e-01  3.51061680e-01  9.86219373e-09 -1.23620225e-10  1.00000000e+00 
 8.40000000e-01  3.58229055e-01  3.58229055e-01  3.58229055e-01  3.58229055e-01  3.58229055e-01  3.58229055e-01  3.58229055e-01  1.18835497e-08 -1.04094511e-10  1.00000000e+00 
 8.50000000e-01  3.65289868e-01  3.65289868e-01  3.65289868e-01  3.65289868e-01  3.65289868e-01  3.65289868e-01  3.65289868e-01  1.42692693e-08 -8.35314040e-11  1.00000000e+00 
 8.60000000e-01  3.72255964e-01  3.72255964e-01  3.72255964e-01  3.72255964e-01  3.72255964e-01  3.72255964e-01  3.72255964e-01  1.70794445e-08 -6.50999255e-11  1.00000000e+00 
 8.70000000e-01  3.79137454e-01  3.79137454e-01  3.79137454e-01  3.79137454e-01  3.79137454e-01  3.79137454e-01  3.79137454e-01  2.03833430e-08 -4.99653652e-11  1.00000000e+00 
 8.80000000e-01  3.85942214e-01  3.85942214e-01  3.85942214e-01  3.85942214e-01  3.85942214e-01  3.85942214e-01  3.85942214e-01  2.42600224e-08 -3.79714038e-11  1.00000000e+00 
 8.90000000e-01  3.92674727e-01  3.92674727e-01  3.92674727e-01  3.92674727e-01  3.92674727e-01  3.92674727e-01  3.92674727e-01  2.87987048e-08 -2.86775048e-11  1.00000000e+00 
 9.00000000e-01  3.99335468e-01  3.99335468e-01  3.99335468e-01  3.99335468e-01  3.99335468e-01  3.99335468e-01  3.99335468e-01  3.40976865e-08 -2.16289209e-11  1.00000000e+00 
 9.10000000e-01  4.05919033e-01  4.05919033e-01  4.05919033e-01  4.05919033e-01  4.05919033e-01  4.05919033e-01  4.05919033e-01  4.02614431e-08 -1.62714286e-11  1.00000000e+00 
 9.20000000e-01  4.12412625e-01  4.12412625e-01  4.12412625e-01  4.12412625e-01  4.12412625e-01  4.12412625e-01  4.12412625e-01  4.73948649e-08 -1.22071242e-11  1.00000000e+00 
 9.30000000e-01  4.18793470e-01  4.18793470e-01  4.18793470e-01  4.18793470e-01  4.18793470e-01  4.18793470e-01  4.18793470e-01  5.55920359e-08 -9.13757958e-12  1.00000000e+00 
 9.40000000e-01  4.25026494e-01  4.25026494e-01  4.25026494e-01  4.25026494e-01  4.25026494e-01  4.25026494e-01  4.25026494e-01  6.49183196e-08 -6.83542112e-12  1.00000000e+00 
 9.50000000e-01  4.31061646e-01  4.31061646e-01  4.31061646e-01  4.31061646e-01  4.31061646e-01  4.31061646e-01  4.31061646e-01  7.53836673e-08 -5.04485342e-12  1.00000000e+00 
 9.60000000e-01  4.36832577e-01  4.36832577e-01  4.36832577e-01  4.36832577e-01  4.36832577e-01  4.36832577e-01  4.36832577e-01  8.69081855e-08 -3.69482223e-12  1.00000000e+00 
 9.70000000e-01  4.42256640e-01  4.42256640e-01  4.42256640e-01  4.42256640e-01  4.42256640e-01  4.42256640e-01  4.42256640e-01  9.92827687e-08 -2.67164069e-12  1.00000000e+00 
 9.80000000e-01  4.47235693e-01  4.47235693e-01  4.47235693e-01  4.47235693e-01  4.47235693e-01  4.47235693e-01  4.47235693e-01  1.12130181e-07 -1.81898940e-12  1.00000000e+00 
 9.90000000e-01  4.51654605e-01  4.51654605e-01  4.51654605e-01  4.51654605e-01  4.51654605e-01  4.51654605e-01  4.51654605e-01  1.24866101e-07 -1.16529009e-12  1.00000000e+00 
 1.00000000e+00  4.55362630e-01  4.55362630e-01  4.55362630e-01  4.55362630e-01  4.55362630e-01  4.55362630e-01  4.55362630e-01  1.36638668e-07 -6.39488462e-13  1.00000000e+00 
 1.01000000e+00  4.58242200e-01  4.58242200e-01  4.58242200e-01  4.58242200e-01  4.58242200e-01  4.58242200e-01  4.58242200e-01  1.46503748e-07 -1.70530257e-13  1.00000000e+00 
 1.02000000e+00  4.60199774e-01  4.60199774e-01  4.60199774e-01  4.60199774e-01  4.60199774e-01  4.60199774e-01  4.60199774e-01  1.53599387e-07  1.98951966e-13  1.00000000e+00 
 1.03000000e+00  4.61326895e-01  4.61326895e-01  4.61326895e-01  4.61326895e-01  4.61326895e-01  4.61326895e-01  4.61326895e-01  1.57834283e-07  6.39488462e-13  1.00000000e+00 
 1.04000000e+00  4.61896149e-01  4.61896149e-01  4.61896149e-01  4.61896149e-01  4.61896149e-01  4.61896149e-01  4.61896149e-01  1.60001477e-07  1.10844667e-12  1.00000000e+00 
 1.05000000e+00  4.62148525e-01  4.62148525e-01  4.62148525e-01  4.62148525e-01  4.62148525e-01  4.62148525e-01  4.62148525e-01  1.60987227e-07  1.66267000e-12  1.00000000e+00 
 1.06000000e+00  4.62266529e-01  4.62266529e-01  4.62266529e-01  4.62266529e-01  4.62266529e-01  4.62266529e-01  4.62266529e-01  1.61449204e-07  2.40163445e-12  1.00000000e+00 
 1.07000000e+00  4.62325414e-01  4.62325414e-01  4.62325414e-01  4.62325414e-01  4.62325414e-01  4.62325414e-01  4.62325414e-01  1.61678887e-07  3.32534000e-12  1.00000000e+00 
 1.08000000e+00  4.62356710e-01  4.62356710e-01  4.62356710e-01  4.62356710e-01  4.62356710e-01  4.62356710e-01  4.62356710e-01  1.61800713e-07  4.53326265e-12  1.00000000e+00 
 1.09000000e+00  4.62374492e-01  4.62374492e-01  4.62374492e-01  4.62374492e-01  4.62374492e-01  4.62374492e-01  4.62374492e-01  1.61869778e-07  6.15330009e-12  1.00000000e+00 
 1.10000000e+00  4.62385225e-01  4.62385225e-01  4.62385225e-01  4.62385225e-01  4.62385225e-01  4.62385225e-01  4.62385225e-01  1.61911373e-07  8.25650659e-12  1.00000000e+00 
