 v-sweep         v(b0)           v(b1)           v(b2)           v(b3)           v(b4)           v(b5)           v(b6)           i(vbias)        i(viout)        v(vout)        
 0.00000000e+00 -1.01403287e-21 -1.01403288e-21 -1.01403288e-21 -1.01403288e-21 -1.01403288e-21 -1.01403288e-21  9.84188718e-21 -7.70181874e-46 -4.73854995e-03  1.00000000e+00 
 1.00000000e-02  1.97676501e-03  1.97676501e-03  1.97676501e-03  1.97676501e-03  1.97676501e-03  1.97676501e-03  2.02323617e-03  1.16439375e-14 -4.31170837e-03  1.00000000e+00 
 2.00000000e-02  3.92462594e-03  3.92462593e-03  3.92462593e-03  3.92462594e-03  3.92462593e-03  3.92462594e-03  3.64579830e-03  2.27687691e-14 -3.89905133e-03  1.00000000e+00 
 3.00000000e-02  5.83655536e-03  5.83655535e-03  5.83655535e-03  5.83655536e-03  5.83655535e-03  5.83655535e-03  4.81721931e-03  3.34900725e-14 -3.50193285e-03  1.00000000e+00 
 4.00000000e-02  7.73167838e-03  7.73167837e-03  7.73167837e-03  7.73167838e-03  7.73167837e-03  7.73167838e-03  5.53321720e-03  4.39124462e-14 -3.12180451e-03  1.00000000e+00 
 5.00000000e-02  9.59696223e-03  9.59696222e-03  9.59696222e-03  9.59696223e-03  9.59696222e-03  9.59696222e-03  5.83275929e-03  5.41059795e-14 -2.76037581e-03  1.00000000e+00 
 6.00000000e-02  1.14480336e-02  1.14480336e-02  1.14480336e-02  1.14480336e-02  1.14480336e-02  1.14480336e-02  5.77804928e-03  6.41162064e-14 -2.41916557e-03  1.00000000e+00 
 7.00000000e-02  1.32913643e-02  1.32913642e-02  1.32913643e-02  1.32913643e-02  1.32913643e-02  1.32913643e-02  5.46467042e-03  7.40277082e-14 -2.09988098e-03  1.00000000e+00 
 8.00000000e-02  1.51145930e-02  1.51145930e-02  1.51145930e-02  1.51145930e-02  1.51145930e-02  1.51145930e-02  4.98226697e-03  8.37905219e-14 -1.80410581e-03  1.00000000e+00 
 9.00000000e-02  1.69447856e-02  1.69447856e-02  1.69447856e-02  1.69447856e-02  1.69447856e-02  1.69447856e-02  4.41414834e-03  9.35364321e-14 -1.53322857e-03  1.00000000e+00 
 1.00000000e-01  1.87766399e-02  1.87766399e-02  1.87766399e-02  1.87766399e-02  1.87766399e-02  1.87766399e-02  3.82279385e-03  1.03209830e-13 -1.28838545e-03  1.00000000e+00 
 1.10000000e-01  2.05931712e-02  2.05931712e-02  2.05931712e-02  2.05931712e-02  2.05931712e-02  2.05931712e-02  3.25007291e-03  1.12843420e-13 -1.07016690e-03  1.00000000e+00 
 1.20000000e-01  2.24136310e-02  2.24136309e-02  2.24136310e-02  2.24136310e-02  2.24136310e-02  2.24136310e-02  2.72355423e-03  1.22446737e-13 -8.78832451e-04  1.00000000e+00 
 1.30000000e-01  2.42395349e-02  2.42395349e-02  2.42395349e-02  2.42395349e-02  2.42395349e-02  2.42395349e-02  2.25613417e-03  1.32059389e-13 -7.13659847e-04  1.00000000e+00 
 1.40000000e-01  2.60543324e-02  2.60543323e-02  2.60543324e-02  2.60543324e-02  2.60543324e-02  2.60543324e-02  1.85119023e-03  1.41565975e-13 -5.73462853e-04  1.00000000e+00 
 1.50000000e-01  2.78825225e-02  2.78825225e-02  2.78825225e-02  2.78825225e-02  2.78825225e-02  2.78825225e-02  1.50775993e-03  1.51119392e-13 -4.56489913e-04  1.00000000e+00 
 1.60000000e-01  2.97078460e-02  2.97078459e-02  2.97078459e-02  2.97078460e-02  2.97078459e-02  2.97078459e-02  1.22033475e-03  1.60704759e-13 -3.60358581e-04  1.00000000e+00 
 1.70000000e-01  3.15018164e-02  3.15018164e-02  3.15018164e-02  3.15018164e-02  3.15018164e-02  3.15018164e-02  9.82599986e-04  1.70176007e-13 -2.82511744e-04  1.00000000e+00 
 1.80000000e-01  3.32982299e-02  3.32982298e-02  3.32982298e-02  3.32982299e-02  3.32982298e-02  3.32982298e-02  7.87816016e-04  1.79841168e-13 -2.20262252e-04  1.00000000e+00 
 1.90000000e-01  3.50861276e-02  3.50861276e-02  3.50861276e-02  3.50861276e-02  3.50861276e-02  3.50861276e-02  6.29453664e-04  1.89357095e-13 -1.71036878e-04  1.00000000e+00 
 2.00000000e-01  3.68495747e-02  3.68495747e-02  3.68495747e-02  3.68495747e-02  3.68495747e-02  3.68495747e-02  5.01383777e-04  1.98873334e-13 -1.32422528e-04  1.00000000e+00 
 2.10000000e-01  3.86006549e-02  3.86006548e-02  3.86006548e-02  3.86006549e-02  3.86006548e-02  3.86006548e-02  3.98357408e-04  2.08397739e-13 -1.02371180e-04  1.00000000e+00 
 2.20000000e-01  4.03368281e-02  4.03368281e-02  4.03368281e-02  4.03368282e-02  4.03368281e-02  4.03368281e-02  3.15812991e-04  2.17985975e-13 -7.90454579e-05  1.00000000e+00 
 2.30000000e-01  4.20298212e-02  4.20298212e-02  4.20298212e-02  4.20298212e-02  4.20298212e-02  4.20298212e-02  2.49889093e-04  2.27547778e-13 -6.10530802e-05  1.00000000e+00 
 2.40000000e-01  4.37258238e-02  4.37258238e-02  4.37258238e-02  4.37258238e-02  4.37258238e-02  4.37258238e-02  1.97417119e-04  2.37249666e-13 -4.71748712e-05  1.00000000e+00 
 2.50000000e-01  4.53513610e-02  4.53513609e-02  4.53513609e-02  4.53513610e-02  4.53513609e-02  4.53513609e-02  1.55731545e-04  2.46948390e-13 -3.64899230e-05  1.00000000e+00 
 2.60000000e-01  4.69739440e-02  4.69739440e-02  4.69739440e-02  4.69739440e-02  4.69739440e-02  4.69739440e-02  1.22704382e-04  2.56655449e-13 -2.82651045e-05  1.00000000e+00 
 2.70000000e-01  4.85847077e-02  4.85847077e-02  4.85847077e-02  4.85847077e-02  4.85847077e-02  4.85847077e-02  9.65848337e-05  2.66511050e-13 -2.19018316e-05  1.00000000e+00 
 2.80000000e-01  5.01339637e-02  5.01339636e-02  5.01339636e-02  5.01339637e-02  5.01339636e-02  5.01339636e-02  7.59541340e-05  2.76428653e-13 -1.70215190e-05  1.00000000e+00 
 2.90000000e-01  5.16828260e-02  5.16828260e-02  5.16828260e-02  5.16828260e-02  5.16828260e-02  5.16828260e-02  5.96879353e-05  2.86578981e-13 -1.32308720e-05  1.00000000e+00 
 3.00000000e-01  5.31496655e-02  5.31496654e-02  5.31496654e-02  5.31496655e-02  5.31496654e-02  5.31496654e-02  4.68742060e-05  2.97032113e-13 -1.03142177e-05  1.00000000e+00 
 3.10000000e-01  5.46637590e-02  5.46637590e-02  5.46637590e-02  5.46637590e-02  5.46637590e-02  5.46637590e-02  3.67962943e-05  3.07664030e-13 -8.05394026e-06  1.00000000e+00 
 3.20000000e-01  5.60737831e-02  5.60737830e-02  5.60737830e-02  5.60737831e-02  5.60737830e-02  5.60737830e-02  2.88731142e-05  3.18811004e-13 -6.29694593e-06  1.00000000e+00 
 3.30000000e-01  5.75211544e-02  5.75211544e-02  5.75211544e-02  5.75211544e-02  5.75211544e-02  5.75211544e-02  2.26519701e-05  3.30399750e-13 -4.93669927e-06  1.00000000e+00 
 3.40000000e-01  5.89076996e-02  5.89076995e-02  5.89076996e-02  5.89076996e-02  5.89076996e-02  5.89076996e-02  1.77689861e-05  3.42793963e-13 -3.85786488e-06  1.00000000e+00 
 3.50000000e-01  6.02500463e-02  6.02500463e-02  6.02500463e-02  6.02500463e-02  6.02500463e-02  6.02500463e-02  1.39388693e-05  3.56208444e-13 -3.02803403e-06  1.00000000e+00 
 3.60000000e-01  6.16078542e-02  6.16078541e-02  6.16078542e-02  6.16078542e-02  6.16078542e-02  6.16078542e-02  1.09364403e-05  3.71213097e-13 -2.37903141e-06  1.00000000e+00 
 3.70000000e-01  6.29436783e-02  6.29436783e-02  6.29436783e-02  6.29436783e-02  6.29436783e-02  6.29436783e-02  8.58339217e-06  3.88284389e-13 -1.87346976e-06  1.00000000e+00 
 3.80000000e-01  6.42545314e-02  6.42545314e-02  6.42545314e-02  6.42545315e-02  6.42545314e-02  6.42545314e-02  6.73972225e-06  4.07804162e-13 -1.47159760e-06  1.00000000e+00 
 3.90000000e-01  6.55983170e-02  6.55983170e-02  6.55983170e-02  6.55983170e-02  6.55983170e-02  6.55983170e-02  5.29550993e-06  4.31351366e-13 -1.15502409e-06  1.00000000e+00 
 4.00000000e-01  6.69031968e-02  6.69031968e-02  6.69031968e-02  6.69031968e-02  6.69031968e-02  6.69031968e-02  4.16405523e-06  4.59837612e-13 -9.09748763e-07  1.00000000e+00 
 4.10000000e-01  6.82278142e-02  6.82278141e-02  6.82278141e-02  6.82278142e-02  6.82278141e-02  6.82278141e-02  3.27763655e-06  4.94717277e-13 -7.18064513e-07  1.00000000e+00 
 4.20000000e-01  6.95551375e-02  6.95551374e-02  6.95551374e-02  6.95551375e-02  6.95551374e-02  6.95551374e-02  2.58300303e-06  5.39192212e-13 -5.67234139e-07  1.00000000e+00 
 4.30000000e-01  7.09461324e-02  7.09461324e-02  7.09461324e-02  7.09461324e-02  7.09461324e-02  7.09461324e-02  2.03850432e-06  5.96202585e-13 -4.47932322e-07  1.00000000e+00 
 4.40000000e-01  7.23935357e-02  7.23935357e-02  7.23935357e-02  7.23935358e-02  7.23935357e-02  7.23935357e-02  1.61145739e-06  6.70140267e-13 -3.54531451e-07  1.00000000e+00 
 4.50000000e-01  7.39255080e-02  7.39255080e-02  7.39255080e-02  7.39255080e-02  7.39255080e-02  7.39255080e-02  1.27631123e-06  7.67108653e-13 -2.81167530e-07  1.00000000e+00 
 4.60000000e-01  7.55763546e-02  7.55763546e-02  7.55763546e-02  7.55763546e-02  7.55763546e-02  7.55763546e-02  1.01307489e-06  8.95752683e-13 -2.23553755e-07  1.00000000e+00 
 4.70000000e-01  7.73719052e-02  7.73719052e-02  7.73719052e-02  7.73719052e-02  7.73719052e-02  7.73719052e-02  8.06111193e-07  1.06686776e-12 -1.79036462e-07  1.00000000e+00 
 4.80000000e-01  7.93968959e-02  7.93968958e-02  7.93968958e-02  7.93968959e-02  7.93968958e-02  7.93968958e-02  6.43205760e-07  1.29630722e-12 -1.43564648e-07  1.00000000e+00 
 4.90000000e-01  8.17363324e-02  8.17363324e-02  8.17363324e-02  8.17363324e-02  8.17363324e-02  8.17363324e-02  5.14804888e-07  1.60480825e-12 -1.15128728e-07  1.00000000e+00 
 5.00000000e-01  8.44285651e-02  8.44285651e-02  8.44285651e-02  8.44285651e-02  8.44285651e-02  8.44285651e-02  4.13435502e-07  2.02462390e-12 -9.14208300e-08  1.00000000e+00 
 5.10000000e-01  8.75575963e-02  8.75575963e-02  8.75575963e-02  8.75575963e-02  8.75575963e-02  8.75575963e-02  3.33263063e-07  2.59351920e-12 -7.17006259e-08  1.00000000e+00 
 5.20000000e-01  9.12674910e-02  9.12674909e-02  9.12674909e-02  9.12674910e-02  9.12674909e-02  9.12674909e-02  2.69729725e-07  3.36725634e-12 -5.57539437e-08  1.00000000e+00 
 5.30000000e-01  9.55900932e-02  9.55900931e-02  9.55900931e-02  9.55900932e-02  9.55900931e-02  9.55900931e-02  2.19266751e-07  4.41904402e-12 -4.29210871e-08  1.00000000e+00 
 5.40000000e-01  1.00668063e-01  1.00668063e-01  1.00668063e-01  1.00668063e-01  1.00668063e-01  1.00668063e-01  1.79088727e-07  5.84600380e-12 -3.28138867e-08  1.00000000e+00 
 5.50000000e-01  1.06515286e-01  1.06515286e-01  1.06515286e-01  1.06515286e-01  1.06515286e-01  1.06515286e-01  1.47013506e-07  7.78606736e-12 -2.49565772e-08  1.00000000e+00 
 5.60000000e-01  1.13100064e-01  1.13100064e-01  1.13100064e-01  1.13100064e-01  1.13100064e-01  1.13100064e-01  1.21333432e-07  1.04033913e-11 -1.89019573e-08  1.00000000e+00 
 5.70000000e-01  1.20448018e-01  1.20448018e-01  1.20448018e-01  1.20448018e-01  1.20448018e-01  1.20448018e-01  1.00712490e-07  1.39428386e-11 -1.42938745e-08  1.00000000e+00 
 5.80000000e-01  1.28449417e-01  1.28449417e-01  1.28449417e-01  1.28449417e-01  1.28449417e-01  1.28449417e-01  8.41011874e-08  1.87082901e-11 -1.07964837e-08  1.00000000e+00 
 5.90000000e-01  1.37018955e-01  1.37018955e-01  1.37018955e-01  1.37018955e-01  1.37018955e-01  1.37018955e-01  7.06755200e-08  2.50980781e-11 -8.14905832e-09  1.00000000e+00 
 6.00000000e-01  1.46038683e-01  1.46038683e-01  1.46038683e-01  1.46038683e-01  1.46038683e-01  1.46038683e-01  5.97867910e-08  3.36649389e-11 -6.14818418e-09  1.00000000e+00 
 6.10000000e-01  1.55438691e-01  1.55438691e-01  1.55438691e-01  1.55438691e-01  1.55438691e-01  1.55438691e-01  5.09234692e-08  4.51019881e-11 -4.63745664e-09  1.00000000e+00 
 6.20000000e-01  1.65090746e-01  1.65090746e-01  1.65090746e-01  1.65090746e-01  1.65090746e-01  1.65090746e-01  4.36809672e-08  6.03385033e-11 -3.49766083e-09  1.00000000e+00 
 6.30000000e-01  1.74927472e-01  1.74927472e-01  1.74927472e-01  1.74927472e-01  1.74927472e-01  1.74927472e-01  3.77389504e-08  8.05517909e-11 -2.63842992e-09  1.00000000e+00 
 6.40000000e-01  1.84862056e-01  1.84862056e-01  1.84862056e-01  1.84862056e-01  1.84862056e-01  1.84862056e-01  3.28430819e-08  1.07241670e-10 -1.99088390e-09  1.00000000e+00 
 6.50000000e-01  1.94834312e-01  1.94834312e-01  1.94834312e-01  1.94834312e-01  1.94834312e-01  1.94834312e-01  2.87911237e-08  1.42354694e-10 -1.50315316e-09  1.00000000e+00 
 6.60000000e-01  2.04796371e-01  2.04796371e-01  2.04796371e-01  2.04796371e-01  2.04796371e-01  2.04796371e-01  2.54219373e-08  1.88273681e-10 -1.13621468e-09  1.00000000e+00 
 6.70000000e-01  2.14695032e-01  2.14695032e-01  2.14695032e-01  2.14695032e-01  2.14695032e-01  2.14695032e-01  2.26068757e-08  2.47985327e-10 -8.60481464e-10  1.00000000e+00 
 6.80000000e-01  2.24499731e-01  2.24499731e-01  2.24499731e-01  2.24499731e-01  2.24499731e-01  2.24499731e-01  2.02430581e-08  3.25217138e-10 -6.53585630e-10  1.00000000e+00 
 6.90000000e-01  2.34184230e-01  2.34184230e-01  2.34184230e-01  2.34184230e-01  2.34184230e-01  2.34184230e-01  1.82480225e-08  4.24459287e-10 -4.98914687e-10  1.00000000e+00 
 7.00000000e-01  2.43722644e-01  2.43722644e-01  2.43722644e-01  2.43722644e-01  2.43722644e-01  2.43722644e-01  1.65555203e-08  5.51119858e-10 -3.83892029e-10  1.00000000e+00 
 7.10000000e-01  2.53097270e-01  2.53097270e-01  2.53097270e-01  2.53097270e-01  2.53097270e-01  2.53097270e-01  1.51121990e-08  7.11693982e-10 -2.99110070e-10  1.00000000e+00 
 7.20000000e-01  2.62294895e-01  2.62294895e-01  2.62294895e-01  2.62294895e-01  2.62294895e-01  2.62294895e-01  1.38749696e-08  9.13865261e-10 -2.37619702e-10  1.00000000e+00 
 7.30000000e-01  2.71304795e-01  2.71304795e-01  2.71304795e-01  2.71304795e-01  2.71304795e-01  2.71304795e-01  1.28089258e-08  1.16661722e-09 -1.94049221e-10  1.00000000e+00 
 7.40000000e-01  2.80120510e-01  2.80120510e-01  2.80120510e-01  2.80120510e-01  2.80120510e-01  2.80120510e-01  1.18856978e-08  1.48040502e-09 -1.64774860e-10  1.00000000e+00 
 7.50000000e-01  2.88738995e-01  2.88738995e-01  2.88738995e-01  2.88738995e-01  2.88738995e-01  2.88738995e-01  1.10821477e-08  1.86731675e-09 -1.47025503e-10  1.00000000e+00 
 7.60000000e-01  2.97161194e-01  2.97161194e-01  2.97161194e-01  2.97161194e-01  2.97161194e-01  2.97161194e-01  1.03793356e-08  2.34129943e-09 -1.38783207e-10  1.00000000e+00 
 7.70000000e-01  3.05390757e-01  3.05390757e-01  3.05390757e-01  3.05390757e-01  3.05390757e-01  3.05390757e-01  9.76169865e-09  2.91845192e-09 -1.38626888e-10  1.00000000e+00 
 7.80000000e-01  3.13433207e-01  3.13433207e-01  3.13433207e-01  3.13433207e-01  3.13433207e-01  3.13433207e-01  9.21639917e-09  3.61719033e-09 -1.45703893e-10  1.00000000e+00 
 7.90000000e-01  3.21297654e-01  3.21297654e-01  3.21297654e-01  3.21297654e-01  3.21297654e-01  3.21297654e-01  8.73280568e-09  4.45874615e-09 -1.59076308e-10  1.00000000e+00 
 8.00000000e-01  3.28994703e-01  3.28994703e-01  3.28994703e-01  3.28994703e-01  3.28994703e-01  3.28994703e-01  8.30207843e-09  5.46766532e-09 -1.76939352e-10  1.00000000e+00 
 8.10000000e-01  3.36536508e-01  3.36536508e-01  3.36536508e-01  3.36536508e-01  3.36536508e-01  3.36536508e-01  7.91683801e-09  6.67234512e-09 -1.93224992e-10  1.00000000e+00 
 8.20000000e-01  3.43936479e-01  3.43936479e-01  3.43936479e-01  3.43936479e-01  3.43936479e-01  3.43936479e-01  7.57089956e-09  8.10564993e-09 -1.96251904e-10  1.00000000e+00 
 8.30000000e-01  3.51207951e-01  3.51207951e-01  3.51207951e-01  3.51207951e-01  3.51207951e-01  3.51207951e-01  7.25905880e-09  9.80589143e-09 -1.82168947e-10  1.00000000e+00 
 8.40000000e-01  3.58364637e-01  3.58364637e-01  3.58364637e-01  3.58364637e-01  3.58364637e-01  3.58364637e-01  6.97691945e-09  1.18175736e-08 -1.56802571e-10  1.00000000e+00 
 8.50000000e-01  3.65419680e-01  3.65419680e-01  3.65419680e-01  3.65419680e-01  3.65419680e-01  3.65419680e-01  6.72075349e-09  1.41924548e-08 -1.28110855e-10  1.00000000e+00 
 8.60000000e-01  3.72385005e-01  3.72385005e-01  3.72385005e-01  3.72385005e-01  3.72385005e-01  3.72385005e-01  6.48738757e-09  1.69907231e-08 -1.01337605e-10  1.00000000e+00 
 8.70000000e-01  3.79271128e-01  3.79271128e-01  3.79271128e-01  3.79271128e-01  3.79271128e-01  3.79271128e-01  6.27411034e-09  2.02816826e-08 -7.86144483e-11  1.00000000e+00 
 8.80000000e-01  3.86086171e-01  3.86086171e-01  3.86086171e-01  3.86086171e-01  3.86086171e-01  3.86086171e-01  6.07859677e-09  2.41450069e-08 -6.01687589e-11  1.00000000e+00 
 8.90000000e-01  3.92835269e-01  3.92835269e-01  3.92835269e-01  3.92835269e-01  3.92835269e-01  3.92835269e-01  5.89884596e-09  2.86707307e-08 -4.58015847e-11  1.00000000e+00 
 9.00000000e-01  3.99519243e-01  3.99519243e-01  3.99519243e-01  3.99519243e-01  3.99519243e-01  3.99519243e-01  5.73312959e-09  3.39586714e-08 -3.46176421e-11  1.00000000e+00 
 9.10000000e-01  4.06133744e-01  4.06133744e-01  4.06133744e-01  4.06133744e-01  4.06133744e-01  4.06133744e-01  5.57994993e-09  4.01160127e-08 -2.60769184e-11  1.00000000e+00 
 9.20000000e-01  4.12666855e-01  4.12666855e-01  4.12666855e-01  4.12666855e-01  4.12666855e-01  4.12666855e-01  5.43800427e-09  4.72520121e-08 -1.96536121e-11  1.00000000e+00 
 9.30000000e-01  4.19097322e-01  4.19097322e-01  4.19097322e-01  4.19097322e-01  4.19097322e-01  4.19097322e-01  5.30615574e-09  5.54674937e-08 -1.47082346e-11  1.00000000e+00 
 9.40000000e-01  4.25391546e-01  4.25391546e-01  4.25391546e-01  4.25391546e-01  4.25391546e-01  4.25391546e-01  5.18340870e-09  6.48377778e-08 -1.09849907e-11  1.00000000e+00 
 9.50000000e-01  4.31501430e-01  4.31501430e-01  4.31501430e-01  4.31501430e-01  4.31501430e-01  4.31501430e-01  5.06888821e-09  7.53871987e-08 -8.15703061e-12  1.00000000e+00 
 9.60000000e-01  4.37362599e-01  4.37362599e-01  4.37362599e-01  4.37362599e-01  4.37362599e-01  4.37362599e-01  4.96182296e-09  8.70546639e-08 -5.94013727e-12  1.00000000e+00 
 9.70000000e-01  4.42894677e-01  4.42894677e-01  4.42894677e-01  4.42894677e-01  4.42894677e-01  4.42894677e-01  4.86153086e-09  9.96551393e-08 -4.33431069e-12  1.00000000e+00 
 9.80000000e-01  4.48002596e-01  4.48002596e-01  4.48002596e-01  4.48002596e-01  4.48002596e-01  4.48002596e-01  4.76740692e-09  1.12840983e-07 -2.98427949e-12  1.00000000e+00 
 9.90000000e-01  4.52575757e-01  4.52575757e-01  4.52575757e-01  4.52575757e-01  4.52575757e-01  4.52575757e-01  4.67891321e-09  1.26062861e-07 -1.94688710e-12  1.00000000e+00 
 1.00000000e+00  4.56468711e-01  4.56468711e-01  4.56468711e-01  4.56468711e-01  4.56468711e-01  4.56468711e-01  4.59556794e-09  1.38501697e-07 -1.08002496e-12  1.00000000e+00 
 1.01000000e+00  4.59555799e-01  4.59555799e-01  4.59555799e-01  4.59555799e-01  4.59555799e-01  4.59555799e-01  4.51694307e-09  1.49190882e-07 -3.97903932e-13  1.00000000e+00 
 1.02000000e+00  4.61712439e-01  4.61712439e-01  4.61712439e-01  4.61712439e-01  4.61712439e-01  4.61712439e-01  4.44265537e-09  1.57126546e-07  2.70006240e-13  1.00000000e+00 
 1.03000000e+00  4.62979910e-01  4.62979910e-01  4.62979910e-01  4.62979910e-01  4.62979910e-01  4.62979910e-01  4.37237319e-09  1.61978949e-07  9.52127266e-13  1.00000000e+00 
 1.04000000e+00  4.63615441e-01  4.63615441e-01  4.63615441e-01  4.63615441e-01  4.63615441e-01  4.63615441e-01  4.30581286e-09  1.64447727e-07  1.66267000e-12  1.00000000e+00 
 1.05000000e+00  4.63884262e-01  4.63884262e-01  4.63884262e-01  4.63884262e-01  4.63884262e-01  4.63884262e-01  4.24271961e-09  1.65522906e-07  2.57216470e-12  1.00000000e+00 
 1.06000000e+00  4.64000851e-01  4.64000851e-01  4.64000851e-01  4.64000851e-01  4.64000851e-01  4.64000851e-01  4.18286001e-09  1.65991107e-07  3.69482223e-12  1.00000000e+00 
 1.07000000e+00  4.64054492e-01  4.64054492e-01  4.64054492e-01  4.64054492e-01  4.64054492e-01  4.64054492e-01  4.12601464e-09  1.66205385e-07  5.11590770e-12  1.00000000e+00 
 1.08000000e+00  4.64080756e-01  4.64080756e-01  4.64080756e-01  4.64080756e-01  4.64080756e-01  4.64080756e-01  4.07198122e-09  1.66309992e-07  6.97752967e-12  1.00000000e+00 
 1.09000000e+00  4.64094509e-01  4.64094509e-01  4.64094509e-01  4.64094509e-01  4.64094509e-01  4.64094509e-01  4.02057463e-09  1.66364710e-07  9.40758582e-12  1.00000000e+00 
 1.10000000e+00  4.64102214e-01  4.64102214e-01  4.64102214e-01  4.64102214e-01  4.64102214e-01  4.64102214e-01  3.97162577e-09  1.66395321e-07  1.26618716e-11  1.00000000e+00 
