 v-sweep         v(b0)           v(b1)           v(b2)           v(b3)           v(b4)           v(b5)           v(b6)           i(vbias)        i(viout)        v(vout)        
 0.00000000e+00  1.85985751e-23  1.85985750e-23  1.85985750e-23  1.85985751e-23  1.85985751e-23  1.85985751e-23 -4.59601153e-22 -3.20055424e-32 -2.61788672e-03  1.00000000e+00 
 1.00000000e-02  2.51268483e-03  2.51268483e-03  2.51268483e-03  2.51268483e-03  2.51268483e-03  2.51268483e-03  2.08931859e-03  8.17277106e-15 -2.28593377e-03  1.00000000e+00 
 2.00000000e-02  5.04736258e-03  5.04736257e-03  5.04736257e-03  5.04736257e-03  5.04736257e-03  5.04736257e-03  3.73175085e-03  1.62629780e-14 -1.97649817e-03  1.00000000e+00 
 3.00000000e-02  7.59604831e-03  7.59604830e-03  7.59604830e-03  7.59604830e-03  7.59604831e-03  7.59604831e-03  4.88138169e-03  2.42933046e-14 -1.69107312e-03  1.00000000e+00 
 4.00000000e-02  1.01827517e-02  1.01827517e-02  1.01827517e-02  1.01827517e-02  1.01827517e-02  1.01827517e-02  5.55010720e-03  3.23003574e-14 -1.43097554e-03  1.00000000e+00 
 5.00000000e-02  1.28176743e-02  1.28176743e-02  1.28176743e-02  1.28176743e-02  1.28176743e-02  1.28176743e-02  5.78527819e-03  4.02620982e-14 -1.19709746e-03  1.00000000e+00 
 6.00000000e-02  1.54762937e-02  1.54762937e-02  1.54762937e-02  1.54762937e-02  1.54762937e-02  1.54762937e-02  5.67354310e-03  4.82133555e-14 -9.89998812e-04  1.00000000e+00 
 7.00000000e-02  1.82069482e-02  1.82069482e-02  1.82069482e-02  1.82069482e-02  1.82069482e-02  1.82069482e-02  5.31545578e-03  5.61881640e-14 -8.09517881e-04  1.00000000e+00 
 8.00000000e-02  2.10173956e-02  2.10173956e-02  2.10173956e-02  2.10173956e-02  2.10173956e-02  2.10173956e-02  4.80313317e-03  6.41133897e-14 -6.54708419e-04  1.00000000e+00 
 9.00000000e-02  2.38446186e-02  2.38446185e-02  2.38446185e-02  2.38446185e-02  2.38446186e-02  2.38446186e-02  4.21673185e-03  7.20246037e-14 -5.24212892e-04  1.00000000e+00 
 1.00000000e-01  2.68135988e-02  2.68135988e-02  2.68135988e-02  2.68135988e-02  2.68135988e-02  2.68135988e-02  3.62255510e-03  7.99832075e-14 -4.15970936e-04  1.00000000e+00 
 1.10000000e-01  2.98274258e-02  2.98274258e-02  2.98274258e-02  2.98274258e-02  2.98274258e-02  2.98274258e-02  3.05600696e-03  8.79229442e-14 -3.27554527e-04  1.00000000e+00 
 1.20000000e-01  3.29060256e-02  3.29060256e-02  3.29060256e-02  3.29060256e-02  3.29060256e-02  3.29060256e-02  2.54140337e-03  9.58735213e-14 -2.56302281e-04  1.00000000e+00 
 1.30000000e-01  3.60757816e-02  3.60757816e-02  3.60757816e-02  3.60757816e-02  3.60757816e-02  3.60757816e-02  2.08999409e-03  1.03828058e-13 -1.99592236e-04  1.00000000e+00 
 1.40000000e-01  3.92941711e-02  3.92941711e-02  3.92941711e-02  3.92941711e-02  3.92941711e-02  3.92941711e-02  1.70323443e-03  1.11790604e-13 -1.54902765e-04  1.00000000e+00 
 1.50000000e-01  4.25528922e-02  4.25528922e-02  4.25528922e-02  4.25528922e-02  4.25528922e-02  4.25528922e-02  1.37802962e-03  1.19760945e-13 -1.19990816e-04  1.00000000e+00 
 1.60000000e-01  4.58437610e-02  4.58437610e-02  4.58437610e-02  4.58437610e-02  4.58437610e-02  4.58437610e-02  1.10837299e-03  1.27789982e-13 -9.28826818e-05  1.00000000e+00 
 1.70000000e-01  4.91125079e-02  4.91125079e-02  4.91125079e-02  4.91125079e-02  4.91125079e-02  4.91125079e-02  8.87175377e-04  1.35758025e-13 -7.19334229e-05  1.00000000e+00 
 1.80000000e-01  5.24347834e-02  5.24347834e-02  5.24347834e-02  5.24347834e-02  5.24347834e-02  5.24347834e-02  7.07533971e-04  1.43817753e-13 -5.57899380e-05  1.00000000e+00 
 1.90000000e-01  5.57152234e-02  5.57152234e-02  5.57152234e-02  5.57152234e-02  5.57152234e-02  5.57152234e-02  5.62449141e-04  1.51866645e-13 -4.33680894e-05  1.00000000e+00 
 2.00000000e-01  5.89595133e-02  5.89595133e-02  5.89595133e-02  5.89595133e-02  5.89595133e-02  5.89595133e-02  4.45956820e-04  1.60001952e-13 -3.38115147e-05  1.00000000e+00 
 2.10000000e-01  6.21807141e-02  6.21807140e-02  6.21807140e-02  6.21807140e-02  6.21807141e-02  6.21807141e-02  3.52838017e-04  1.68124034e-13 -2.64509007e-05  1.00000000e+00 
 2.20000000e-01  6.53026195e-02  6.53026194e-02  6.53026194e-02  6.53026194e-02  6.53026194e-02  6.53026194e-02  2.78648391e-04  1.76251379e-13 -2.07626830e-05  1.00000000e+00 
 2.30000000e-01  6.83337210e-02  6.83337210e-02  6.83337209e-02  6.83337210e-02  6.83337210e-02  6.83337210e-02  2.19721888e-04  1.84572010e-13 -1.63502808e-05  1.00000000e+00 
 2.40000000e-01  7.13710168e-02  7.13710167e-02  7.13710167e-02  7.13710167e-02  7.13710167e-02  7.13710167e-02  1.73043695e-04  1.92942404e-13 -1.29193975e-05  1.00000000e+00 
