 v-sweep         v(b0)           v(b1)           v(b2)           v(b3)           v(b4)           v(b5)           v(b6)           i(vbias)        i(viout)        v(vout)        
 0.00000000e+00 -5.65690365e-19 -5.65690364e-19 -5.65690338e-19 -5.65690362e-19 -5.65690350e-19 -5.65690341e-19  1.85819123e-18  1.45502950e-32 -4.73873348e-03  1.00000000e+00 
 1.00000000e-02  1.90586187e-03  1.90586187e-03  1.90586187e-03  1.90586187e-03  1.90586186e-03  1.90586187e-03  1.64768642e-03  1.16488115e-14 -4.31185153e-03  1.00000000e+00 
 2.00000000e-02  3.78038513e-03  3.78038513e-03  3.78038512e-03  3.78038513e-03  3.78038512e-03  3.78038512e-03  2.86174447e-03  2.27724630e-14 -3.89916347e-03  1.00000000e+00 
 3.00000000e-02  5.62933099e-03  5.62933098e-03  5.62933098e-03  5.62933098e-03  5.62933098e-03  5.62933098e-03  3.64508011e-03  3.35002198e-14 -3.50202190e-03  1.00000000e+00 
 4.00000000e-02  7.46397664e-03  7.46397663e-03  7.46397663e-03  7.46397663e-03  7.46397662e-03  7.46397662e-03  4.04401113e-03  4.39305723e-14 -3.12192590e-03  1.00000000e+00 
 5.00000000e-02  9.27860649e-03  9.27860648e-03  9.27860647e-03  9.27860647e-03  9.27860647e-03  9.27860647e-03  4.12397721e-03  5.41330532e-14 -2.76044517e-03  1.00000000e+00 
 6.00000000e-02  1.10905929e-02  1.10905929e-02  1.10905929e-02  1.10905929e-02  1.10905928e-02  1.10905928e-02  3.97363021e-03  6.41519567e-14 -2.41924086e-03  1.00000000e+00 
 7.00000000e-02  1.28929772e-02  1.28929772e-02  1.28929772e-02  1.28929772e-02  1.28929772e-02  1.28929772e-02  3.66949413e-03  7.40395722e-14 -2.09996100e-03  1.00000000e+00 
 8.00000000e-02  1.46792688e-02  1.46792688e-02  1.46792688e-02  1.46792688e-02  1.46792688e-02  1.46792688e-02  3.28210170e-03  8.38263992e-14 -1.80414536e-03  1.00000000e+00 
 9.00000000e-02  1.64802555e-02  1.64802555e-02  1.64802555e-02  1.64802555e-02  1.64802555e-02  1.64802555e-02  2.86510286e-03  9.35780265e-14 -1.53333573e-03  1.00000000e+00 
 1.00000000e-01  1.82717517e-02  1.82717517e-02  1.82717517e-02  1.82717517e-02  1.82717517e-02  1.82717517e-02  2.45256080e-03  1.03232088e-13 -1.28850291e-03  1.00000000e+00 
 1.10000000e-01  2.00757370e-02  2.00757370e-02  2.00757370e-02  2.00757370e-02  2.00757370e-02  2.00757370e-02  2.06801789e-03  1.12874116e-13 -1.07030400e-03  1.00000000e+00 
 1.20000000e-01  2.18802983e-02  2.18802983e-02  2.18802983e-02  2.18802983e-02  2.18802982e-02  2.18802982e-02  1.72262212e-03  1.22511897e-13 -8.78937911e-04  1.00000000e+00 
 1.30000000e-01  2.36614890e-02  2.36614890e-02  2.36614890e-02  2.36614890e-02  2.36614889e-02  2.36614890e-02  1.42061552e-03  1.32065644e-13 -7.13832518e-04  1.00000000e+00 
 1.40000000e-01  2.54731451e-02  2.54731451e-02  2.54731451e-02  2.54731451e-02  2.54731451e-02  2.54731451e-02  1.16253486e-03  1.41611844e-13 -5.73652215e-04  1.00000000e+00 
 1.50000000e-01  2.72553499e-02  2.72553499e-02  2.72553498e-02  2.72553498e-02  2.72553498e-02  2.72553498e-02  9.45010249e-04  1.51166241e-13 -4.56701787e-04  1.00000000e+00 
 1.60000000e-01  2.90685421e-02  2.90685421e-02  2.90685421e-02  2.90685421e-02  2.90685421e-02  2.90685421e-02  7.64143542e-04  1.60717954e-13 -3.60587012e-04  1.00000000e+00 
 1.70000000e-01  3.08390966e-02  3.08390966e-02  3.08390966e-02  3.08390966e-02  3.08390966e-02  3.08390966e-02  6.15025556e-04  1.70267409e-13 -2.82767543e-04  1.00000000e+00 
 1.80000000e-01  3.26370155e-02  3.26370155e-02  3.26370155e-02  3.26370155e-02  3.26370155e-02  3.26370155e-02  4.93181357e-04  1.79817981e-13 -2.20534326e-04  1.00000000e+00 
 1.90000000e-01  3.43855366e-02  3.43855366e-02  3.43855365e-02  3.43855365e-02  3.43855365e-02  3.43855365e-02  3.94142763e-04  1.89372916e-13 -1.71324486e-04  1.00000000e+00 
 2.00000000e-01  3.61313066e-02  3.61313066e-02  3.61313066e-02  3.61313066e-02  3.61313065e-02  3.61313066e-02  3.14129706e-04  1.98941644e-13 -1.32741640e-04  1.00000000e+00 
 2.10000000e-01  3.78607926e-02  3.78607925e-02  3.78607925e-02  3.78607925e-02  3.78607925e-02  3.78607925e-02  2.49773676e-04  2.08512015e-13 -1.02668536e-04  1.00000000e+00 
 2.20000000e-01  3.95571281e-02  3.95571281e-02  3.95571280e-02  3.95571280e-02  3.95571280e-02  3.95571280e-02  1.98184505e-04  2.18057550e-13 -7.93774352e-05  1.00000000e+00 
 2.30000000e-01  4.12501400e-02  4.12501400e-02  4.12501400e-02  4.12501400e-02  4.12501400e-02  4.12501400e-02  1.56981466e-04  2.27623144e-13 -6.13947817e-05  1.00000000e+00 
 2.40000000e-01  4.28955905e-02  4.28955905e-02  4.28955905e-02  4.28955905e-02  4.28955905e-02  4.28955905e-02  1.24149439e-04  2.37327144e-13 -4.75086236e-05  1.00000000e+00 
 2.50000000e-01  4.45357050e-02  4.45357050e-02  4.45357049e-02  4.45357049e-02  4.45357049e-02  4.45357049e-02  9.80597315e-05  2.47034879e-13 -3.68153283e-05  1.00000000e+00 
 2.60000000e-01  4.61586316e-02  4.61586315e-02  4.61586315e-02  4.61586315e-02  4.61586315e-02  4.61586315e-02  7.73661356e-05  2.56756495e-13 -2.85623943e-05  1.00000000e+00 
 2.70000000e-01  4.77186166e-02  4.77186166e-02  4.77186166e-02  4.77186166e-02  4.77186166e-02  4.77186166e-02  6.09785412e-05  2.66661949e-13 -2.22112946e-05  1.00000000e+00 
 2.80000000e-01  4.92678658e-02  4.92678658e-02  4.92678658e-02  4.92678658e-02  4.92678657e-02  4.92678658e-02  4.80260792e-05  2.76612627e-13 -1.72961895e-05  1.00000000e+00 
 2.90000000e-01  5.07931794e-02  5.07931793e-02  5.07931793e-02  5.07931793e-02  5.07931793e-02  5.07931793e-02  3.78010442e-05  2.86704744e-13 -1.35005808e-05  1.00000000e+00 
 3.00000000e-01  5.22870110e-02  5.22870110e-02  5.22870109e-02  5.22870109e-02  5.22870109e-02  5.22870109e-02  2.97385453e-05  2.97165482e-13 -1.05604483e-05  1.00000000e+00 
 3.10000000e-01  5.37223666e-02  5.37223666e-02  5.37223665e-02  5.37223665e-02  5.37223665e-02  5.37223665e-02  2.33872123e-05  3.07761561e-13 -8.26416301e-06  1.00000000e+00 
 3.20000000e-01  5.51876587e-02  5.51876587e-02  5.51876587e-02  5.51876587e-02  5.51876587e-02  5.51876587e-02  1.83897607e-05  3.18929101e-13 -6.48573226e-06  1.00000000e+00 
 3.30000000e-01  5.65803894e-02  5.65803893e-02  5.65803893e-02  5.65803893e-02  5.65803893e-02  5.65803893e-02  1.44590370e-05  3.30620268e-13 -5.09895960e-06  1.00000000e+00 
 3.40000000e-01  5.79794965e-02  5.79794965e-02  5.79794964e-02  5.79794965e-02  5.79794964e-02  5.79794964e-02  1.13700328e-05  3.43035772e-13 -4.01401594e-06  1.00000000e+00 
 3.50000000e-01  5.93391635e-02  5.93391635e-02  5.93391635e-02  5.93391635e-02  5.93391634e-02  5.93391635e-02  8.94328558e-06  3.56590713e-13 -3.16266315e-06  1.00000000e+00 
 3.60000000e-01  6.06562244e-02  6.06562244e-02  6.06562243e-02  6.06562243e-02  6.06562243e-02  6.06562243e-02  7.03750079e-06  3.71731583e-13 -2.49016094e-06  1.00000000e+00 
 3.70000000e-01  6.20033688e-02  6.20033688e-02  6.20033688e-02  6.20033688e-02  6.20033688e-02  6.20033688e-02  5.54139520e-06  3.88747147e-13 -1.96652154e-06  1.00000000e+00 
 3.80000000e-01  6.33213416e-02  6.33213416e-02  6.33213415e-02  6.33213415e-02  6.33213415e-02  6.33213415e-02  4.36683252e-06  4.08563052e-13 -1.55260868e-06  1.00000000e+00 
 3.90000000e-01  6.46185998e-02  6.46185998e-02  6.46185998e-02  6.46185998e-02  6.46185998e-02  6.46185998e-02  3.44468626e-06  4.32163186e-13 -1.22614496e-06  1.00000000e+00 
 4.00000000e-01  6.59428121e-02  6.59428121e-02  6.59428121e-02  6.59428121e-02  6.59428120e-02  6.59428120e-02  2.72063532e-06  4.60645533e-13 -9.69770511e-07  1.00000000e+00 
 4.10000000e-01  6.72449863e-02  6.72449863e-02  6.72449862e-02  6.72449862e-02  6.72449862e-02  6.72449862e-02  2.15187815e-06  4.96353914e-13 -7.65673420e-07  1.00000000e+00 
 4.20000000e-01  6.85773036e-02  6.85773036e-02  6.85773036e-02  6.85773036e-02  6.85773036e-02  6.85773036e-02  1.70492715e-06  5.41076231e-13 -6.06612673e-07  1.00000000e+00 
 4.30000000e-01  6.99651695e-02  6.99651695e-02  6.99651695e-02  6.99651695e-02  6.99651695e-02  6.99651695e-02  1.35347096e-06  5.98589503e-13 -4.80011636e-07  1.00000000e+00 
 4.40000000e-01  7.14007813e-02  7.14007813e-02  7.14007813e-02  7.14007813e-02  7.14007812e-02  7.14007813e-02  1.07686673e-06  6.73152669e-13 -3.80729446e-07  1.00000000e+00 
 4.50000000e-01  7.29280286e-02  7.29280286e-02  7.29280285e-02  7.29280285e-02  7.29280285e-02  7.29280285e-02  8.58959038e-07  7.71292400e-13 -3.02872351e-07  1.00000000e+00 
 4.60000000e-01  7.45687839e-02  7.45687838e-02  7.45687838e-02  7.45687838e-02  7.45687838e-02  7.45687838e-02  6.87082630e-07  9.01018680e-13 -2.41318475e-07  1.00000000e+00 
 4.70000000e-01  7.63903264e-02  7.63903264e-02  7.63903263e-02  7.63903263e-02  7.63903263e-02  7.63903263e-02  5.51326124e-07  1.07365827e-12 -1.93287775e-07  1.00000000e+00 
 4.80000000e-01  7.83899878e-02  7.83899878e-02  7.83899878e-02  7.83899878e-02  7.83899878e-02  7.83899878e-02  4.43917637e-07  1.30538343e-12 -1.54980683e-07  1.00000000e+00 
 4.90000000e-01  8.07129508e-02  8.07129508e-02  8.07129508e-02  8.07129508e-02  8.07129508e-02  8.07129508e-02  3.58787766e-07  1.61764000e-12 -1.23668585e-07  1.00000000e+00 
 5.00000000e-01  8.33825314e-02  8.33825314e-02  8.33825314e-02  8.33825314e-02  8.33825314e-02  8.33825314e-02  2.91170769e-07  2.03995649e-12 -9.73652448e-08  1.00000000e+00 
 5.10000000e-01  8.64980453e-02  8.64980453e-02  8.64980453e-02  8.64980453e-02  8.64980453e-02  8.64980453e-02  2.37340452e-07  2.61353473e-12 -7.54974820e-08  1.00000000e+00 
 5.20000000e-01  9.01675887e-02  9.01675887e-02  9.01675886e-02  9.01675886e-02  9.01675886e-02  9.01675886e-02  1.94377304e-07  3.39230488e-12 -5.78222767e-08  1.00000000e+00 
 5.30000000e-01  9.44982545e-02  9.44982545e-02  9.44982545e-02  9.44982545e-02  9.44982544e-02  9.44982545e-02  1.59992870e-07  4.45377012e-12 -4.39846417e-08  1.00000000e+00 
 5.40000000e-01  9.95447266e-02  9.95447266e-02  9.95447266e-02  9.95447266e-02  9.95447266e-02  9.95447266e-02  1.32391735e-07  5.89284665e-12 -3.33407684e-08  1.00000000e+00 
 5.50000000e-01  1.05352601e-01  1.05352601e-01  1.05352601e-01  1.05352601e-01  1.05352601e-01  1.05352601e-01  1.10165577e-07  7.84383870e-12 -2.52264414e-08  1.00000000e+00 
 5.60000000e-01  1.11929719e-01  1.11929719e-01  1.11929719e-01  1.11929719e-01  1.11929719e-01  1.11929719e-01  9.22078456e-08  1.04858964e-11 -1.90621279e-08  1.00000000e+00 
 5.70000000e-01  1.19241298e-01  1.19241298e-01  1.19241298e-01  1.19241298e-01  1.19241298e-01  1.19241298e-01  7.76482596e-08  1.40505391e-11 -1.43930379e-08  1.00000000e+00 
 5.80000000e-01  1.27225063e-01  1.27225063e-01  1.27225063e-01  1.27225063e-01  1.27225063e-01  1.27225063e-01  6.58010286e-08  1.88442427e-11 -1.08623368e-08  1.00000000e+00 
 5.90000000e-01  1.35764801e-01  1.35764801e-01  1.35764801e-01  1.35764801e-01  1.35764801e-01  1.35764801e-01  5.61245156e-08  2.52785802e-11 -8.19493096e-09  1.00000000e+00 
 6.00000000e-01  1.44766411e-01  1.44766411e-01  1.44766411e-01  1.44766411e-01  1.44766411e-01  1.44766411e-01  4.81902341e-08  3.38972871e-11 -6.18139495e-09  1.00000000e+00 
 6.10000000e-01  1.54153142e-01  1.54153142e-01  1.54153142e-01  1.54153142e-01  1.54153142e-01  1.54153142e-01  4.16582646e-08  4.53959210e-11 -4.66252459e-09  1.00000000e+00 
 6.20000000e-01  1.63795575e-01  1.63795575e-01  1.63795575e-01  1.63795575e-01  1.63795575e-01  1.63795575e-01  3.62581407e-08  6.07287107e-11 -3.51731444e-09  1.00000000e+00 
 6.30000000e-01  1.73623922e-01  1.73623922e-01  1.73623922e-01  1.73623922e-01  1.73623922e-01  1.73623922e-01  3.17743758e-08  8.10591065e-11 -2.65467293e-09  1.00000000e+00 
 6.40000000e-01  1.83556420e-01  1.83556420e-01  1.83556420e-01  1.83556420e-01  1.83556420e-01  1.83556420e-01  2.80347492e-08  1.07910680e-10 -2.00502370e-09  1.00000000e+00 
 6.50000000e-01  1.93531625e-01  1.93531625e-01  1.93531625e-01  1.93531625e-01  1.93531625e-01  1.93531625e-01  2.49013539e-08  1.43207544e-10 -1.51644031e-09  1.00000000e+00 
 6.60000000e-01  2.03492833e-01  2.03492833e-01  2.03492833e-01  2.03492833e-01  2.03492833e-01  2.03492833e-01  2.22634897e-08  1.89396054e-10 -1.14960130e-09  1.00000000e+00 
 6.70000000e-01  2.13397693e-01  2.13397693e-01  2.13397693e-01  2.13397693e-01  2.13397693e-01  2.13397693e-01  2.00320959e-08  2.49455926e-10 -8.74948114e-10  1.00000000e+00 
 6.80000000e-01  2.23211518e-01  2.23211518e-01  2.23211518e-01  2.23211518e-01  2.23211518e-01  2.23211518e-01  1.81353408e-08  3.27131738e-10 -6.70155487e-10  1.00000000e+00 
 6.90000000e-01  2.32906887e-01  2.32906887e-01  2.32906887e-01  2.32906887e-01  2.32906887e-01  2.32906887e-01  1.65151382e-08  4.26952831e-10 -5.18724619e-10  1.00000000e+00 
 7.00000000e-01  2.42456864e-01  2.42456864e-01  2.42456864e-01  2.42456864e-01  2.42456864e-01  2.42456864e-01  1.51243836e-08  5.54361630e-10 -4.08121537e-10  1.00000000e+00 
 7.10000000e-01  2.51845106e-01  2.51845106e-01  2.51845106e-01  2.51845106e-01  2.51845106e-01  2.51845106e-01  1.39247701e-08  7.15935262e-10 -3.29322347e-10  1.00000000e+00 
 7.20000000e-01  2.61057656e-01  2.61057655e-01  2.61057655e-01  2.61057655e-01  2.61057655e-01  2.61057655e-01  1.28850438e-08  9.19362003e-10 -2.75463208e-10  1.00000000e+00 
 7.30000000e-01  2.70083743e-01  2.70083743e-01  2.70083743e-01  2.70083743e-01  2.70083742e-01  2.70083742e-01  1.19796215e-08  1.17377575e-09 -2.41712428e-10  1.00000000e+00 
 7.40000000e-01  2.78917613e-01  2.78917613e-01  2.78917613e-01  2.78917613e-01  2.78917613e-01  2.78917613e-01  1.11874900e-08  1.48970664e-09 -2.24659402e-10  1.00000000e+00 
 7.50000000e-01  2.87555450e-01  2.87555450e-01  2.87555450e-01  2.87555450e-01  2.87555450e-01  2.87555450e-01  1.04913274e-08  1.87943942e-09 -2.22001972e-10  1.00000000e+00 
 7.60000000e-01  2.95999875e-01  2.95999875e-01  2.95999875e-01  2.95999875e-01  2.95999875e-01  2.95999875e-01  9.87680367e-09  2.35712587e-09 -2.32191155e-10  1.00000000e+00 
 7.70000000e-01  3.04253172e-01  3.04253171e-01  3.04253171e-01  3.04253171e-01  3.04253171e-01  3.04253171e-01  9.33201804e-09  2.93912006e-09 -2.54317456e-10  1.00000000e+00 
 7.80000000e-01  3.12322158e-01  3.12322158e-01  3.12322158e-01  3.12322158e-01  3.12322158e-01  3.12322158e-01  8.84705122e-09  3.64425562e-09 -2.87727175e-10  1.00000000e+00 
 7.90000000e-01  3.20216495e-01  3.20216494e-01  3.20216494e-01  3.20216494e-01  3.20216494e-01  3.20216494e-01  8.41360403e-09  4.49435400e-09 -3.30715011e-10  1.00000000e+00 
 8.00000000e-01  3.27947035e-01  3.27947035e-01  3.27947035e-01  3.27947035e-01  3.27947035e-01  3.27947035e-01  8.02470645e-09  5.51467647e-09 -3.77099241e-10  1.00000000e+00 
 8.10000000e-01  3.35526957e-01  3.35526957e-01  3.35526957e-01  3.35526957e-01  3.35526957e-01  3.35526957e-01  7.67448278e-09  6.73469214e-09 -4.07027301e-10  1.00000000e+00 
 8.20000000e-01  3.42970614e-01  3.42970614e-01  3.42970614e-01  3.42970614e-01  3.42970614e-01  3.42970614e-01  7.35796160e-09  8.18882256e-09 -3.97989197e-10  1.00000000e+00 
 8.30000000e-01  3.50293167e-01  3.50293167e-01  3.50293167e-01  3.50293167e-01  3.50293167e-01  3.50293167e-01  7.07092094e-09  9.91745241e-09 -3.54106078e-10  1.00000000e+00 
 8.40000000e-01  3.57509885e-01  3.57509885e-01  3.57509885e-01  3.57509885e-01  3.57509885e-01  3.57509885e-01  6.80976240e-09  1.19681773e-08 -2.94875235e-10  1.00000000e+00 
 8.50000000e-01  3.64636557e-01  3.64636557e-01  3.64636557e-01  3.64636557e-01  3.64636557e-01  3.64636557e-01  6.57140822e-09  1.43972467e-08 -2.35829134e-10  1.00000000e+00 
 8.60000000e-01  3.71688592e-01  3.71688592e-01  3.71688592e-01  3.71688592e-01  3.71688591e-01  3.71688592e-01  6.35321654e-09  1.72712235e-08 -1.84186888e-10  1.00000000e+00 
 8.70000000e-01  3.78680839e-01  3.78680839e-01  3.78680839e-01  3.78680839e-01  3.78680839e-01  3.78680839e-01  6.15291214e-09  2.06690733e-08 -1.41824330e-10  1.00000000e+00 
 8.80000000e-01  3.85627408e-01  3.85627408e-01  3.85627408e-01  3.85627408e-01  3.85627407e-01  3.85627407e-01  5.96852874e-09  2.46846747e-08 -1.08244080e-10  1.00000000e+00 
 8.90000000e-01  3.92541387e-01  3.92541387e-01  3.92541387e-01  3.92541387e-01  3.92541387e-01  3.92541387e-01  5.79836156e-09  2.94295015e-08 -8.21387403e-11  1.00000000e+00 
 9.00000000e-01  3.99434607e-01  3.99434607e-01  3.99434607e-01  3.99434607e-01  3.99434607e-01  3.99434607e-01  5.64092786e-09  3.50358353e-08 -6.20730134e-11  1.00000000e+00 
 9.10000000e-01  4.06317373e-01  4.06317373e-01  4.06317373e-01  4.06317373e-01  4.06317373e-01  4.06317373e-01  5.49493380e-09  4.16606136e-08 -4.67821337e-11  1.00000000e+00 
 9.20000000e-01  4.13198179e-01  4.13198179e-01  4.13198179e-01  4.13198179e-01  4.13198179e-01  4.13198179e-01  5.35924704e-09  4.94892243e-08 -3.52002871e-11  1.00000000e+00 
 9.30000000e-01  4.20083306e-01  4.20083306e-01  4.20083306e-01  4.20083306e-01  4.20083306e-01  4.20083306e-01  5.23287348e-09  5.87397753e-08 -2.63753464e-11  1.00000000e+00 
 9.40000000e-01  4.26976310e-01  4.26976310e-01  4.26976310e-01  4.26976310e-01  4.26976310e-01  4.26976310e-01  5.11493787e-09  6.96668270e-08 -1.97388772e-11  1.00000000e+00 
 9.50000000e-01  4.33877411e-01  4.33877411e-01  4.33877411e-01  4.33877411e-01  4.33877411e-01  4.33877411e-01  5.00466737e-09  8.25646791e-08 -1.45945478e-11  1.00000000e+00 
 9.60000000e-01  4.40782883e-01  4.40782883e-01  4.40782883e-01  4.40782883e-01  4.40782883e-01  4.40782883e-01  4.90137742e-09  9.77681855e-08 -1.07007736e-11  1.00000000e+00 
 9.70000000e-01  4.47684185e-01  4.47684184e-01  4.47684184e-01  4.47684184e-01  4.47684184e-01  4.47684184e-01  4.80446015e-09  1.15650318e-07 -7.65965069e-12  1.00000000e+00 
 9.80000000e-01  4.54566870e-01  4.54566870e-01  4.54566870e-01  4.54566870e-01  4.54566870e-01  4.54566870e-01  4.71337431e-09  1.36613863e-07 -5.32907052e-12  1.00000000e+00 
 9.90000000e-01  4.61409570e-01  4.61409570e-01  4.61409570e-01  4.61409570e-01  4.61409570e-01  4.61409570e-01  4.62763660e-09  1.61073003e-07 -3.51008111e-12  1.00000000e+00 
 1.00000000e+00  4.68182658e-01  4.68182658e-01  4.68182658e-01  4.68182658e-01  4.68182658e-01  4.68182658e-01  4.54681397e-09  1.89421653e-07 -1.98951966e-12  1.00000000e+00 
 1.01000000e+00  4.74847074e-01  4.74847074e-01  4.74847074e-01  4.74847074e-01  4.74847074e-01  4.74847074e-01  4.47051787e-09  2.21983138e-07 -7.24753590e-13  1.00000000e+00 
 1.02000000e+00  4.81353229e-01  4.81353229e-01  4.81353229e-01  4.81353229e-01  4.81353229e-01  4.81353229e-01  4.39839851e-09  2.58938037e-07  3.69482223e-13  1.00000000e+00 
 1.03000000e+00  4.87640904e-01  4.87640903e-01  4.87640903e-01  4.87640903e-01  4.87640903e-01  4.87640903e-01  4.33014007e-09  3.00232404e-07  1.46371804e-12  1.00000000e+00 
 1.04000000e+00  4.93640540e-01  4.93640540e-01  4.93640540e-01  4.93640540e-01  4.93640540e-01  4.93640540e-01  4.26545722e-09  3.45478618e-07  2.43005616e-12  1.00000000e+00 
 1.05000000e+00  4.99276604e-01  4.99276604e-01  4.99276604e-01  4.99276604e-01  4.99276604e-01  4.99276604e-01  4.20409125e-09  3.93873247e-07  3.45323770e-12  1.00000000e+00 
 1.06000000e+00  5.04472322e-01  5.04472322e-01  5.04472322e-01  5.04472322e-01  5.04472322e-01  5.04472322e-01  4.14580802e-09  4.44158790e-07  4.46220838e-12  1.00000000e+00 
 1.07000000e+00  5.09153263e-01  5.09153263e-01  5.09153263e-01  5.09153263e-01  5.09153263e-01  5.09153263e-01  4.09039471e-09  4.94632047e-07  5.54223334e-12  1.00000000e+00 
 1.08000000e+00  5.13246913e-01  5.13246913e-01  5.13246913e-01  5.13246913e-01  5.13246913e-01  5.13246913e-01  4.03765800e-09  5.43174796e-07  6.62225830e-12  1.00000000e+00 
 1.09000000e+00  5.16680133e-01  5.16680133e-01  5.16680133e-01  5.16680133e-01  5.16680133e-01  5.16680133e-01  3.98742151e-09  5.87309970e-07  7.84439180e-12  1.00000000e+00 
 1.10000000e+00  5.19384851e-01  5.19384851e-01  5.19384851e-01  5.19384851e-01  5.19384850e-01  5.19384850e-01  3.93952435e-09  6.24425223e-07  9.23705556e-12  1.00000000e+00 
