 v-sweep         v(b0)           v(b1)           v(b2)           v(b3)           v(b4)           v(b5)           v(b6)           i(vbias)        i(viout)        v(vout)        
 0.00000000e+00  6.17387679e-24  6.17387679e-24  6.17387679e-24  6.17387679e-24  6.17387675e-24  6.17387679e-24 -3.17353335e-22  1.56152772e-30 -5.07567698e-03  1.00000000e+00 
 1.00000000e-02  1.84009715e-03  1.84009715e-03  1.84009715e-03  1.84009715e-03  1.84009715e-03  1.84009715e-03  1.74067124e-03  1.22885476e-14 -4.63876998e-03  1.00000000e+00 
 2.00000000e-02  3.64309591e-03  3.64309591e-03  3.64309591e-03  3.64309591e-03  3.64309591e-03  3.64309591e-03  3.03508735e-03  2.39125742e-14 -4.21508667e-03  1.00000000e+00 
 3.00000000e-02  5.41390388e-03  5.41390388e-03  5.41390388e-03  5.41390388e-03  5.41390388e-03  5.41390388e-03  3.88227058e-03  3.50357044e-14 -3.80589664e-03  1.00000000e+00 
 4.00000000e-02  7.16521270e-03  7.16521269e-03  7.16521269e-03  7.16521269e-03  7.16521269e-03  7.16521270e-03  4.32174763e-03  4.57655162e-14 -3.41260574e-03  1.00000000e+00 
 5.00000000e-02  8.89318929e-03  8.89318929e-03  8.89318929e-03  8.89318928e-03  8.89318929e-03  8.89318929e-03  4.42217457e-03  5.62431491e-14 -3.03672930e-03  1.00000000e+00 
 6.00000000e-02  1.05984075e-02  1.05984075e-02  1.05984075e-02  1.05984075e-02  1.05984075e-02  1.05984075e-02  4.26966661e-03  6.64675808e-14 -2.67985780e-03  1.00000000e+00 
 7.00000000e-02  1.22925543e-02  1.22925543e-02  1.22925543e-02  1.22925543e-02  1.22925543e-02  1.22925543e-02  3.95116607e-03  7.65777415e-14 -2.34366650e-03  1.00000000e+00 
 8.00000000e-02  1.39903746e-02  1.39903746e-02  1.39903746e-02  1.39903746e-02  1.39903746e-02  1.39903746e-02  3.54145710e-03  8.65134177e-14 -2.02977743e-03  1.00000000e+00 
 9.00000000e-02  1.56715470e-02  1.56715470e-02  1.56715470e-02  1.56715470e-02  1.56715470e-02  1.56715470e-02  3.09470795e-03  9.63853199e-14 -1.73975138e-03  1.00000000e+00 
 1.00000000e-01  1.73315412e-02  1.73315412e-02  1.73315412e-02  1.73315412e-02  1.73315412e-02  1.73315412e-02  2.65173719e-03  1.06189466e-13 -1.47494376e-03  1.00000000e+00 
 1.10000000e-01  1.90036517e-02  1.90036517e-02  1.90036517e-02  1.90036517e-02  1.90036517e-02  1.90036517e-02  2.23814517e-03  1.15902437e-13 -1.23635720e-03  1.00000000e+00 
 1.20000000e-01  2.06698849e-02  2.06698849e-02  2.06698849e-02  2.06698848e-02  2.06698849e-02  2.06698849e-02  1.86586471e-03  1.25615449e-13 -1.02446999e-03  1.00000000e+00 
 1.30000000e-01  2.23231583e-02  2.23231583e-02  2.23231582e-02  2.23231582e-02  2.23231583e-02  2.23231583e-02  1.54024471e-03  1.35301467e-13 -8.39365205e-04  1.00000000e+00 
 1.40000000e-01  2.39620326e-02  2.39620326e-02  2.39620326e-02  2.39620326e-02  2.39620326e-02  2.39620326e-02  1.26132237e-03  1.44967470e-13 -6.80269060e-04  1.00000000e+00 
 1.50000000e-01  2.55958598e-02  2.55958597e-02  2.55958597e-02  2.55958597e-02  2.55958597e-02  2.55958598e-02  1.02617068e-03  1.54620918e-13 -5.45740429e-04  1.00000000e+00 
 1.60000000e-01  2.72190589e-02  2.72190589e-02  2.72190589e-02  2.72190589e-02  2.72190589e-02  2.72190589e-02  8.30405490e-04  1.64265872e-13 -4.33898871e-04  1.00000000e+00 
 1.70000000e-01  2.88403707e-02  2.88403707e-02  2.88403707e-02  2.88403707e-02  2.88403707e-02  2.88403707e-02  6.68956393e-04  1.73846335e-13 -3.42281903e-04  1.00000000e+00 
 1.80000000e-01  3.04677090e-02  3.04677090e-02  3.04677090e-02  3.04677090e-02  3.04677090e-02  3.04677090e-02  5.36880185e-04  1.83485194e-13 -2.68330486e-04  1.00000000e+00 
 1.90000000e-01  3.20420611e-02  3.20420611e-02  3.20420611e-02  3.20420611e-02  3.20420611e-02  3.20420611e-02  4.29422516e-04  1.93128953e-13 -2.09336294e-04  1.00000000e+00 
 2.00000000e-01  3.36395415e-02  3.36395415e-02  3.36395415e-02  3.36395415e-02  3.36395415e-02  3.36395415e-02  3.42560225e-04  2.02782390e-13 -1.62742176e-04  1.00000000e+00 
 2.10000000e-01  3.51887994e-02  3.51887994e-02  3.51887994e-02  3.51887994e-02  3.51887994e-02  3.51887994e-02  2.72583178e-04  2.12451042e-13 -1.26252742e-04  1.00000000e+00 
 2.20000000e-01  3.67170007e-02  3.67170007e-02  3.67170007e-02  3.67170007e-02  3.67170007e-02  3.67170007e-02  2.16455797e-04  2.22142454e-13 -9.78188470e-05  1.00000000e+00 
 2.30000000e-01  3.82691195e-02  3.82691195e-02  3.82691195e-02  3.82691195e-02  3.82691195e-02  3.82691195e-02  1.71587995e-04  2.31783864e-13 -7.57760790e-05  1.00000000e+00 
 2.40000000e-01  3.97568205e-02  3.97568205e-02  3.97568205e-02  3.97568205e-02  3.97568205e-02  3.97568205e-02  1.35794066e-04  2.41547752e-13 -5.87200348e-05  1.00000000e+00 
 2.50000000e-01  4.12465856e-02  4.12465856e-02  4.12465855e-02  4.12465855e-02  4.12465856e-02  4.12465856e-02  1.07324470e-04  2.51372575e-13 -4.55435125e-05  1.00000000e+00 
 2.60000000e-01  4.26860036e-02  4.26860036e-02  4.26860035e-02  4.26860035e-02  4.26860036e-02  4.26860036e-02  8.47195370e-05  2.61280870e-13 -3.53807941e-05  1.00000000e+00 
 2.70000000e-01  4.41319885e-02  4.41319885e-02  4.41319885e-02  4.41319885e-02  4.41319885e-02  4.41319885e-02  6.68103212e-05  2.71395221e-13 -2.74907043e-05  1.00000000e+00 
 2.80000000e-01  4.55744174e-02  4.55744174e-02  4.55744174e-02  4.55744174e-02  4.55744174e-02  4.55744174e-02  5.26432601e-05  2.81482438e-13 -2.14202577e-05  1.00000000e+00 
 2.90000000e-01  4.69264246e-02  4.69264246e-02  4.69264246e-02  4.69264246e-02  4.69264246e-02  4.69264246e-02  4.14474324e-05  2.91874381e-13 -1.67214487e-05  1.00000000e+00 
 3.00000000e-01  4.83096383e-02  4.83096383e-02  4.83096383e-02  4.83096383e-02  4.83096383e-02  4.83096383e-02  3.26160126e-05  3.02451433e-13 -1.30716470e-05  1.00000000e+00 
 3.10000000e-01  4.96263025e-02  4.96263025e-02  4.96263025e-02  4.96263025e-02  4.96263025e-02  4.96263025e-02  2.56542884e-05  3.13640153e-13 -1.01913833e-05  1.00000000e+00 
 3.20000000e-01  5.09687779e-02  5.09687779e-02  5.09687779e-02  5.09687779e-02  5.09687779e-02  5.09687779e-02  2.01735351e-05  3.25151107e-13 -7.98619544e-06  1.00000000e+00 
 3.30000000e-01  5.22833851e-02  5.22833851e-02  5.22833851e-02  5.22833851e-02  5.22833851e-02  5.22833851e-02  1.58612305e-05  3.37396113e-13 -6.26942622e-06  1.00000000e+00 
 3.40000000e-01  5.35131659e-02  5.35131659e-02  5.35131659e-02  5.35131659e-02  5.35131659e-02  5.35131659e-02  1.24701547e-05  3.50644078e-13 -4.92332552e-06  1.00000000e+00 
 3.50000000e-01  5.48198669e-02  5.48198669e-02  5.48198668e-02  5.48198668e-02  5.48198669e-02  5.48198669e-02  9.80619691e-06  3.65268183e-13 -3.87112587e-06  1.00000000e+00 
 3.60000000e-01  5.60466573e-02  5.60466573e-02  5.60466572e-02  5.60466572e-02  5.60466573e-02  5.60466573e-02  7.71341263e-06  3.81714476e-13 -3.04917052e-06  1.00000000e+00 
 3.70000000e-01  5.72923073e-02  5.72923073e-02  5.72923073e-02  5.72923073e-02  5.72923073e-02  5.72923073e-02  6.07029653e-06  4.00548115e-13 -2.39735962e-06  1.00000000e+00 
 3.80000000e-01  5.85219378e-02  5.85219378e-02  5.85219378e-02  5.85219378e-02  5.85219378e-02  5.85219378e-02  4.78033281e-06  4.22949243e-13 -1.89303816e-06  1.00000000e+00 
 3.90000000e-01  5.97458254e-02  5.97458254e-02  5.97458254e-02  5.97458254e-02  5.97458254e-02  5.97458254e-02  3.76770215e-06  4.49630293e-13 -1.48671671e-06  1.00000000e+00 
 4.00000000e-01  6.10122801e-02  6.10122801e-02  6.10122801e-02  6.10122800e-02  6.10122801e-02  6.10122801e-02  2.97277647e-06  4.82852758e-13 -1.17449051e-06  1.00000000e+00 
 4.10000000e-01  6.22395441e-02  6.22395441e-02  6.22395441e-02  6.22395440e-02  6.22395441e-02  6.22395441e-02  2.34851985e-06  5.24317260e-13 -9.26344399e-07  1.00000000e+00 
 4.20000000e-01  6.35579954e-02  6.35579954e-02  6.35579954e-02  6.35579954e-02  6.35579954e-02  6.35579954e-02  1.85821288e-06  5.77542449e-13 -7.26191132e-07  1.00000000e+00 
 4.30000000e-01  6.48884550e-02  6.48884550e-02  6.48884550e-02  6.48884550e-02  6.48884550e-02  6.48884550e-02  1.47285029e-06  6.45770045e-13 -5.72593024e-07  1.00000000e+00 
 4.40000000e-01  6.63334564e-02  6.63334564e-02  6.63334564e-02  6.63334564e-02  6.63334564e-02  6.63334564e-02  1.16979976e-06  7.35331568e-13 -4.52577922e-07  1.00000000e+00 
 4.50000000e-01  6.78413950e-02  6.78413950e-02  6.78413950e-02  6.78413950e-02  6.78413950e-02  6.78413950e-02  9.31246711e-07  8.53077923e-13 -3.57468110e-07  1.00000000e+00 
 4.60000000e-01  6.94851265e-02  6.94851265e-02  6.94851265e-02  6.94851265e-02  6.94851265e-02  6.94851265e-02  7.43278107e-07  1.00952973e-12 -2.84017602e-07  1.00000000e+00 
 4.70000000e-01  7.13799585e-02  7.13799585e-02  7.13799585e-02  7.13799585e-02  7.13799585e-02  7.13799585e-02  5.94992446e-07  1.21849777e-12 -2.25644641e-07  1.00000000e+00 
 4.80000000e-01  7.34875620e-02  7.34875620e-02  7.34875620e-02  7.34875620e-02  7.34875620e-02  7.34875620e-02  4.77826948e-07  1.49799437e-12 -1.80205973e-07  1.00000000e+00 
 4.90000000e-01  7.59223386e-02  7.59223386e-02  7.59223386e-02  7.59223386e-02  7.59223386e-02  7.59223386e-02  3.85099671e-07  1.87733955e-12 -1.43828629e-07  1.00000000e+00 
 5.00000000e-01  7.87864496e-02  7.87864496e-02  7.87864496e-02  7.87864495e-02  7.87864496e-02  7.87864496e-02  3.11573935e-07  2.39091619e-12 -1.14418356e-07  1.00000000e+00 
 5.10000000e-01  8.21545828e-02  8.21545828e-02  8.21545828e-02  8.21545828e-02  8.21545828e-02  8.21545828e-02  2.53147292e-07  3.08933770e-12 -8.96896495e-08  1.00000000e+00 
 5.20000000e-01  8.61402535e-02  8.61402534e-02  8.61402534e-02  8.61402534e-02  8.61402534e-02  8.61402535e-02  2.06609295e-07  4.04246569e-12 -6.95961830e-08  1.00000000e+00 
 5.30000000e-01  9.08323043e-02  9.08323043e-02  9.08323043e-02  9.08323043e-02  9.08323043e-02  9.08323043e-02  1.69444300e-07  5.33953226e-12 -5.34880087e-08  1.00000000e+00 
 5.40000000e-01  9.63201216e-02  9.63201216e-02  9.63201215e-02  9.63201215e-02  9.63201216e-02  9.63201216e-02  1.39681504e-07  7.10501444e-12 -4.08355447e-08  1.00000000e+00 
 5.50000000e-01  1.02560640e-01  1.02560640e-01  1.02560640e-01  1.02560640e-01  1.02560640e-01  1.02560640e-01  1.15773818e-07  9.50473250e-12 -3.09938173e-08  1.00000000e+00 
 5.60000000e-01  1.09599420e-01  1.09599420e-01  1.09599420e-01  1.09599420e-01  1.09599420e-01  1.09599420e-01  9.65094814e-08  1.27574831e-11 -2.34648496e-08  1.00000000e+00 
 5.70000000e-01  1.17362194e-01  1.17362194e-01  1.17362194e-01  1.17362194e-01  1.17362194e-01  1.17362194e-01  8.09348999e-08  1.71387977e-11 -1.77377615e-08  1.00000000e+00 
 5.80000000e-01  1.25746796e-01  1.25746796e-01  1.25746796e-01  1.25746796e-01  1.25746796e-01  1.25746796e-01  6.82996360e-08  2.30558767e-11 -1.33945832e-08  1.00000000e+00 
 5.90000000e-01  1.34633419e-01  1.34633419e-01  1.34633419e-01  1.34633419e-01  1.34633419e-01  1.34633419e-01  5.80119631e-08  3.09785652e-11 -1.01081525e-08  1.00000000e+00 
 6.00000000e-01  1.43929632e-01  1.43929632e-01  1.43929632e-01  1.43929632e-01  1.43929632e-01  1.43929632e-01  4.96042467e-08  4.16039009e-11 -7.62497621e-09  1.00000000e+00 
 6.10000000e-01  1.53533827e-01  1.53533827e-01  1.53533827e-01  1.53533827e-01  1.53533827e-01  1.53533827e-01  4.27059641e-08  5.57738807e-11 -5.75010972e-09  1.00000000e+00 
 6.20000000e-01  1.63362315e-01  1.63362315e-01  1.63362315e-01  1.63362315e-01  1.63362315e-01  1.63362315e-01  3.70229269e-08  7.46436159e-11 -4.33615810e-09  1.00000000e+00 
 6.30000000e-01  1.73326575e-01  1.73326575e-01  1.73326575e-01  1.73326575e-01  1.73326575e-01  1.73326575e-01  3.23210146e-08  9.97128005e-11 -3.27042926e-09  1.00000000e+00 
 6.40000000e-01  1.83364375e-01  1.83364375e-01  1.83364375e-01  1.83364375e-01  1.83364375e-01  1.83364375e-01  2.84135473e-08  1.32783087e-10 -2.46714649e-09  1.00000000e+00 
 6.50000000e-01  1.93412078e-01  1.93412078e-01  1.93412078e-01  1.93412078e-01  1.93412078e-01  1.93412078e-01  2.51513274e-08  1.76286388e-10 -1.86207672e-09  1.00000000e+00 
 6.60000000e-01  2.03427382e-01  2.03427382e-01  2.03427382e-01  2.03427382e-01  2.03427382e-01  2.03427382e-01  2.24148834e-08  2.33267071e-10 -1.40701673e-09  1.00000000e+00 
 6.70000000e-01  2.13371229e-01  2.13371229e-01  2.13371229e-01  2.13371229e-01  2.13371229e-01  2.13371229e-01  2.01083256e-08  3.07315597e-10 -1.06467724e-09  1.00000000e+00 
 6.80000000e-01  2.23214988e-01  2.23214988e-01  2.23214988e-01  2.23214988e-01  2.23214988e-01  2.23214988e-01  1.81545203e-08  4.03135539e-10 -8.07830247e-10  1.00000000e+00 
 6.90000000e-01  2.32926351e-01  2.32926351e-01  2.32926351e-01  2.32926351e-01  2.32926351e-01  2.32926351e-01  1.64912629e-08  5.26279915e-10 -6.15727913e-10  1.00000000e+00 
 7.00000000e-01  2.42488512e-01  2.42488512e-01  2.42488512e-01  2.42488512e-01  2.42488512e-01  2.42488512e-01  1.50682646e-08  6.83539399e-10 -4.72653028e-10  1.00000000e+00 
 7.10000000e-01  2.51884436e-01  2.51884436e-01  2.51884436e-01  2.51884436e-01  2.51884436e-01  2.51884436e-01  1.38447471e-08  8.82988412e-10 -3.66952690e-10  1.00000000e+00 
 7.20000000e-01  2.61100122e-01  2.61100122e-01  2.61100122e-01  2.61100122e-01  2.61100122e-01  2.61100122e-01  1.27875443e-08  1.13423546e-09 -2.90015123e-10  1.00000000e+00 
 7.30000000e-01  2.70127771e-01  2.70127771e-01  2.70127771e-01  2.70127771e-01  2.70127771e-01  2.70127771e-01  1.18695942e-08  1.44849890e-09 -2.35161224e-10  1.00000000e+00 
 7.40000000e-01  2.78961009e-01  2.78961009e-01  2.78961009e-01  2.78961009e-01  2.78961009e-01  2.78961009e-01  1.10687386e-08  1.83895278e-09 -1.97843519e-10  1.00000000e+00 
 7.50000000e-01  2.87597662e-01  2.87597662e-01  2.87597662e-01  2.87597662e-01  2.87597662e-01  2.87597662e-01  1.03667700e-08  2.32067379e-09 -1.74566139e-10  1.00000000e+00 
 7.60000000e-01  2.96038774e-01  2.96038774e-01  2.96038774e-01  2.96038774e-01  2.96038774e-01  2.96038774e-01  9.74867206e-09  2.91130287e-09 -1.62884817e-10  1.00000000e+00 
 7.70000000e-01  3.04288492e-01  3.04288492e-01  3.04288492e-01  3.04288492e-01  3.04288492e-01  3.04288492e-01  9.20201348e-09  3.63103173e-09 -1.60810032e-10  1.00000000e+00 
 7.80000000e-01  3.12353218e-01  3.12353218e-01  3.12353218e-01  3.12353218e-01  3.12353218e-01  3.12353218e-01  8.71646357e-09  4.50331911e-09 -1.67403869e-10  1.00000000e+00 
 7.90000000e-01  3.20242650e-01  3.20242650e-01  3.20242650e-01  3.20242650e-01  3.20242650e-01  3.20242650e-01  8.28340434e-09  5.55502894e-09 -1.81472615e-10  1.00000000e+00 
 8.00000000e-01  3.27968488e-01  3.27968488e-01  3.27968488e-01  3.27968488e-01  3.27968488e-01  3.27968488e-01  7.89561898e-09  6.81752427e-09 -2.00884642e-10  1.00000000e+00 
 8.10000000e-01  3.35542963e-01  3.35542963e-01  3.35542963e-01  3.35542962e-01  3.35542963e-01  3.35542963e-01  7.54704039e-09  8.32733060e-09 -2.18562946e-10  1.00000000e+00 
 8.20000000e-01  3.42981162e-01  3.42981161e-01  3.42981161e-01  3.42981161e-01  3.42981161e-01  3.42981161e-01  7.23254909e-09  1.01268932e-08 -2.21149321e-10  1.00000000e+00 
 8.30000000e-01  3.50298074e-01  3.50298074e-01  3.50298074e-01  3.50298074e-01  3.50298074e-01  3.50298074e-01  6.94780859e-09  1.22662203e-08 -2.04437356e-10  1.00000000e+00 
 8.40000000e-01  3.57508849e-01  3.57508849e-01  3.57508849e-01  3.57508849e-01  3.57508849e-01  3.57508849e-01  6.68913207e-09  1.48041527e-08 -1.75333525e-10  1.00000000e+00 
 8.50000000e-01  3.64629365e-01  3.64629365e-01  3.64629365e-01  3.64629365e-01  3.64629365e-01  3.64629365e-01  6.45337373e-09  1.78099949e-08 -1.42790668e-10  1.00000000e+00 
 8.60000000e-01  3.71674697e-01  3.71674697e-01  3.71674697e-01  3.71674697e-01  3.71674697e-01  3.71674697e-01  6.23783962e-09  2.13659646e-08 -1.12635234e-10  1.00000000e+00 
 8.70000000e-01  3.78659540e-01  3.78659540e-01  3.78659540e-01  3.78659540e-01  3.78659540e-01  3.78659540e-01  6.04021466e-09  2.55693469e-08 -8.71125394e-11  1.00000000e+00 
 8.80000000e-01  3.85597886e-01  3.85597886e-01  3.85597886e-01  3.85597886e-01  3.85597886e-01  3.85597886e-01  5.85850253e-09  3.05354637e-08 -6.64783784e-11  1.00000000e+00 
 8.90000000e-01  3.92502423e-01  3.92502423e-01  3.92502423e-01  3.92502423e-01  3.92502423e-01  3.92502423e-01  5.69097604e-09  3.64013197e-08 -5.04485342e-11  1.00000000e+00 
 9.00000000e-01  3.99384491e-01  3.99384491e-01  3.99384491e-01  3.99384491e-01  3.99384491e-01  3.99384491e-01  5.53613570e-09  4.33290159e-08 -3.80566689e-11  1.00000000e+00 
 9.10000000e-01  4.06253930e-01  4.06253930e-01  4.06253930e-01  4.06253930e-01  4.06253930e-01  4.06253930e-01  5.39267570e-09  5.15101122e-08 -2.85638180e-11  1.00000000e+00 
 9.20000000e-01  4.13118353e-01  4.13118353e-01  4.13118353e-01  4.13118353e-01  4.13118353e-01  4.13118353e-01  5.25945536e-09  6.11703417e-08 -2.14299689e-11  1.00000000e+00 
 9.30000000e-01  4.19983038e-01  4.19983038e-01  4.19983038e-01  4.19983038e-01  4.19983038e-01  4.19983038e-01  5.13547487e-09  7.25734512e-08 -1.60298441e-11  1.00000000e+00 
 9.40000000e-01  4.26850115e-01  4.26850115e-01  4.26850115e-01  4.26850115e-01  4.26850115e-01  4.26850115e-01  5.01985549e-09  8.60253220e-08 -1.18802745e-11  1.00000000e+00 
 9.50000000e-01  4.33717897e-01  4.33717897e-01  4.33717897e-01  4.33717897e-01  4.33717897e-01  4.33717897e-01  4.91182254e-09  1.01875526e-07 -8.83915163e-12  1.00000000e+00 
 9.60000000e-01  4.40580012e-01  4.40580012e-01  4.40580012e-01  4.40580012e-01  4.40580012e-01  4.40580012e-01  4.81069105e-09  1.20515607e-07 -6.48014975e-12  1.00000000e+00 
 9.70000000e-01  4.47424233e-01  4.47424233e-01  4.47424233e-01  4.47424233e-01  4.47424233e-01  4.47424233e-01  4.71585347e-09  1.42371527e-07 -4.57589522e-12  1.00000000e+00 
 9.80000000e-01  4.54231194e-01  4.54231194e-01  4.54231194e-01  4.54231194e-01  4.54231194e-01  4.54231194e-01  4.62676971e-09  1.67885485e-07 -3.21165317e-12  1.00000000e+00 
 9.90000000e-01  4.60972830e-01  4.60972830e-01  4.60972830e-01  4.60972830e-01  4.60972830e-01  4.60972830e-01  4.54295809e-09  1.97482811e-07 -2.10320650e-12  1.00000000e+00 
 1.00000000e+00  4.67610753e-01  4.67610753e-01  4.67610753e-01  4.67610753e-01  4.67610753e-01  4.67610753e-01  4.46398764e-09  2.31518163e-07 -1.13686838e-12  1.00000000e+00 
 1.01000000e+00  4.74094875e-01  4.74094875e-01  4.74094875e-01  4.74094875e-01  4.74094875e-01  4.74094875e-01  4.38947209e-09  2.70195583e-07 -4.54747351e-13  1.00000000e+00 
 1.02000000e+00  4.80362944e-01  4.80362944e-01  4.80362944e-01  4.80362944e-01  4.80362944e-01  4.80362944e-01  4.31906407e-09  3.13464586e-07  2.84217094e-13  1.00000000e+00 
 1.03000000e+00  4.86341809e-01  4.86341809e-01  4.86341809e-01  4.86341809e-01  4.86341809e-01  4.86341809e-01  4.25245052e-09  3.60905620e-07  8.52651283e-13  1.00000000e+00 
 1.04000000e+00  4.91951038e-01  4.91951038e-01  4.91951038e-01  4.91951038e-01  4.91951038e-01  4.91951038e-01  4.18934900e-09  4.11633490e-07  1.47792889e-12  1.00000000e+00 
 1.05000000e+00  4.97107998e-01  4.97107998e-01  4.97107998e-01  4.97107998e-01  4.97107998e-01  4.97107998e-01  4.12950408e-09  4.64246774e-07  2.07478479e-12  1.00000000e+00 
 1.06000000e+00  5.01730761e-01  5.01730761e-01  5.01730761e-01  5.01730761e-01  5.01730761e-01  5.01730761e-01  4.07268458e-09  5.16821341e-07  2.67164069e-12  1.00000000e+00 
 1.07000000e+00  5.05736137e-01  5.05736137e-01  5.05736137e-01  5.05736137e-01  5.05736137e-01  5.05736137e-01  4.01868068e-09  5.66915258e-07  3.26849658e-12  1.00000000e+00 
 1.08000000e+00  5.09036681e-01  5.09036681e-01  5.09036681e-01  5.09036681e-01  5.09036681e-01  5.09036681e-01  3.96730149e-09  6.11621999e-07  3.92219590e-12  1.00000000e+00 
 1.09000000e+00  5.11538665e-01  5.11538665e-01  5.11538665e-01  5.11538665e-01  5.11538665e-01  5.11538665e-01  3.91837271e-09  6.47811461e-07  4.66116035e-12  1.00000000e+00 
 1.10000000e+00  5.13261799e-01  5.13261799e-01  5.13261799e-01  5.13261799e-01  5.13261799e-01  5.13261799e-01  3.87174015e-09  6.73742910e-07  5.48538992e-12  1.00000000e+00 
