 v-sweep         v(b0)           v(b1)           v(b2)           v(b3)           v(b4)           v(b5)           v(b6)           i(vbias)        i(viout)        v(vout)        
 0.00000000e+00 -1.14234526e-19 -1.14234526e-19 -1.14234526e-19 -1.14234525e-19 -1.14234526e-19 -1.14234526e-19 -1.14234526e-19 -1.12993358e-30 -5.35166562e-03  1.00000000e+00 
 1.00000000e-02  1.86199041e-03  1.86199041e-03  1.86199041e-03  1.86199041e-03  1.86199041e-03  1.86199041e-03  1.86199041e-03  1.27014170e-14 -4.90727965e-03  1.00000000e+00 
 2.00000000e-02  3.71341214e-03  3.71341214e-03  3.71341214e-03  3.71341214e-03  3.71341214e-03  3.71341214e-03  3.71341213e-03  2.46164190e-14 -4.47533192e-03  1.00000000e+00 
 3.00000000e-02  5.55147619e-03  5.55147619e-03  5.55147618e-03  5.55147619e-03  5.55147618e-03  5.55147618e-03  5.55147617e-03  3.59384107e-14 -4.05703585e-03  1.00000000e+00 
 4.00000000e-02  7.39744028e-03  7.39744027e-03  7.39744027e-03  7.39744028e-03  7.39744027e-03  7.39744027e-03  7.39744026e-03  4.68316449e-14 -3.65372117e-03  1.00000000e+00 
 5.00000000e-02  9.22871274e-03  9.22871273e-03  9.22871273e-03  9.22871273e-03  9.22871272e-03  9.22871273e-03  9.22871271e-03  5.73516259e-14 -3.26683589e-03  1.00000000e+00 
 6.00000000e-02  1.10656094e-02  1.10656094e-02  1.10656094e-02  1.10656094e-02  1.10656094e-02  1.10656094e-02  1.10656094e-02  6.76625385e-14 -2.89793114e-03  1.00000000e+00 
 7.00000000e-02  1.29041444e-02  1.29041444e-02  1.29041444e-02  1.29041444e-02  1.29041444e-02  1.29041444e-02  1.29041444e-02  7.77297995e-14 -2.54865082e-03  1.00000000e+00 
 8.00000000e-02  1.47394905e-02  1.47394905e-02  1.47394905e-02  1.47394905e-02  1.47394905e-02  1.47394905e-02  1.47394904e-02  8.76797821e-14 -2.22064290e-03  1.00000000e+00 
 9.00000000e-02  1.65723986e-02  1.65723986e-02  1.65723986e-02  1.65723986e-02  1.65723986e-02  1.65723986e-02  1.65723986e-02  9.75218653e-14 -1.91554515e-03  1.00000000e+00 
 1.00000000e-01  1.84063943e-02  1.84063943e-02  1.84063943e-02  1.84063943e-02  1.84063943e-02  1.84063943e-02  1.84063943e-02  1.07283003e-13 -1.63482881e-03  1.00000000e+00 
 1.10000000e-01  2.02307764e-02  2.02307764e-02  2.02307764e-02  2.02307764e-02  2.02307764e-02  2.02307764e-02  2.02307764e-02  1.16983585e-13 -1.37975586e-03  1.00000000e+00 
 1.20000000e-01  2.20564089e-02  2.20564089e-02  2.20564089e-02  2.20564089e-02  2.20564089e-02  2.20564089e-02  2.20564088e-02  1.26688600e-13 -1.15112691e-03  1.00000000e+00 
 1.30000000e-01  2.38654132e-02  2.38654132e-02  2.38654132e-02  2.38654132e-02  2.38654132e-02  2.38654132e-02  2.38654132e-02  1.36261206e-13 -9.49417495e-04  1.00000000e+00 
 1.40000000e-01  2.56850304e-02  2.56850303e-02  2.56850303e-02  2.56850303e-02  2.56850303e-02  2.56850303e-02  2.56850303e-02  1.45859045e-13 -7.74160717e-04  1.00000000e+00 
 1.50000000e-01  2.74832354e-02  2.74832354e-02  2.74832354e-02  2.74832354e-02  2.74832354e-02  2.74832354e-02  2.74832354e-02  1.55439607e-13 -6.24482084e-04  1.00000000e+00 
 1.60000000e-01  2.92839260e-02  2.92839260e-02  2.92839260e-02  2.92839260e-02  2.92839260e-02  2.92839260e-02  2.92839260e-02  1.64943954e-13 -4.98735694e-04  1.00000000e+00 
 1.70000000e-01  3.10718991e-02  3.10718991e-02  3.10718991e-02  3.10718991e-02  3.10718991e-02  3.10718991e-02  3.10718991e-02  1.74638783e-13 -3.94793991e-04  1.00000000e+00 
 1.80000000e-01  3.28726422e-02  3.28726422e-02  3.28726422e-02  3.28726422e-02  3.28726422e-02  3.28726422e-02  3.28726422e-02  1.84129398e-13 -3.10175116e-04  1.00000000e+00 
 1.90000000e-01  3.45908744e-02  3.45908744e-02  3.45908743e-02  3.45908744e-02  3.45908743e-02  3.45908743e-02  3.45908743e-02  1.93688180e-13 -2.42202085e-04  1.00000000e+00 
 2.00000000e-01  3.63351793e-02  3.63351793e-02  3.63351793e-02  3.63351793e-02  3.63351793e-02  3.63351793e-02  3.63351793e-02  2.03254412e-13 -1.88196741e-04  1.00000000e+00 
 2.10000000e-01  3.80676241e-02  3.80676241e-02  3.80676240e-02  3.80676241e-02  3.80676240e-02  3.80676240e-02  3.80676240e-02  2.12829102e-13 -1.45735389e-04  1.00000000e+00 
 2.20000000e-01  3.97351011e-02  3.97351010e-02  3.97351010e-02  3.97351010e-02  3.97351010e-02  3.97351010e-02  3.97351010e-02  2.22419000e-13 -1.12586202e-04  1.00000000e+00 
 2.30000000e-01  4.14106898e-02  4.14106897e-02  4.14106897e-02  4.14106897e-02  4.14106897e-02  4.14106897e-02  4.14106897e-02  2.32031239e-13 -8.68521432e-05  1.00000000e+00 
 2.40000000e-01  4.30909142e-02  4.30909142e-02  4.30909142e-02  4.30909142e-02  4.30909142e-02  4.30909142e-02  4.30909142e-02  2.41675183e-13 -6.69564162e-05  1.00000000e+00 
 2.50000000e-01  4.46613140e-02  4.46613140e-02  4.46613139e-02  4.46613140e-02  4.46613139e-02  4.46613140e-02  4.46613139e-02  2.51362516e-13 -5.16273264e-05  1.00000000e+00 
 2.60000000e-01  4.62686065e-02  4.62686065e-02  4.62686064e-02  4.62686065e-02  4.62686064e-02  4.62686064e-02  4.62686064e-02  2.61009987e-13 -3.98244415e-05  1.00000000e+00 
 2.70000000e-01  4.78274405e-02  4.78274405e-02  4.78274405e-02  4.78274405e-02  4.78274405e-02  4.78274405e-02  4.78274405e-02  2.70839744e-13 -3.07328197e-05  1.00000000e+00 
 2.80000000e-01  4.93754588e-02  4.93754588e-02  4.93754588e-02  4.93754588e-02  4.93754588e-02  4.93754588e-02  4.93754588e-02  2.80895983e-13 -2.37444775e-05  1.00000000e+00 
 2.90000000e-01  5.08617410e-02  5.08617410e-02  5.08617410e-02  5.08617410e-02  5.08617410e-02  5.08617410e-02  5.08617409e-02  2.90890565e-13 -1.83758164e-05  1.00000000e+00 
 3.00000000e-01  5.23515856e-02  5.23515856e-02  5.23515855e-02  5.23515856e-02  5.23515855e-02  5.23515855e-02  5.23515855e-02  3.01214609e-13 -1.42392261e-05  1.00000000e+00 
 3.10000000e-01  5.37785299e-02  5.37785299e-02  5.37785298e-02  5.37785299e-02  5.37785298e-02  5.37785299e-02  5.37785298e-02  3.11716138e-13 -1.10584176e-05  1.00000000e+00 
 3.20000000e-01  5.51827854e-02  5.51827854e-02  5.51827854e-02  5.51827854e-02  5.51827854e-02  5.51827854e-02  5.51827853e-02  3.22872862e-13 -8.56095542e-06  1.00000000e+00 
 3.30000000e-01  5.65754524e-02  5.65754524e-02  5.65754523e-02  5.65754524e-02  5.65754523e-02  5.65754523e-02  5.65754523e-02  3.34348021e-13 -6.66367620e-06  1.00000000e+00 
 3.40000000e-01  5.79556005e-02  5.79556005e-02  5.79556004e-02  5.79556005e-02  5.79556004e-02  5.79556004e-02  5.79556004e-02  3.46451380e-13 -5.19556775e-06  1.00000000e+00 
 3.50000000e-01  5.92902681e-02  5.92902680e-02  5.92902680e-02  5.92902680e-02  5.92902680e-02  5.92902680e-02  5.92902680e-02  3.59884214e-13 -4.06665234e-06  1.00000000e+00 
 3.60000000e-01  6.06188575e-02  6.06188575e-02  6.06188575e-02  6.06188575e-02  6.06188575e-02  6.06188575e-02  6.06188574e-02  3.74633138e-13 -3.17241975e-06  1.00000000e+00 
 3.70000000e-01  6.18782935e-02  6.18782935e-02  6.18782935e-02  6.18782935e-02  6.18782935e-02  6.18782935e-02  6.18782935e-02  3.91312444e-13 -2.48179524e-06  1.00000000e+00 
 3.80000000e-01  6.31910906e-02  6.31910905e-02  6.31910905e-02  6.31910906e-02  6.31910905e-02  6.31910905e-02  6.31910905e-02  4.10535643e-13 -1.94599696e-06  1.00000000e+00 
 3.90000000e-01  6.44762578e-02  6.44762578e-02  6.44762578e-02  6.44762578e-02  6.44762578e-02  6.44762578e-02  6.44762577e-02  4.33593174e-13 -1.52361108e-06  1.00000000e+00 
 4.00000000e-01  6.57605494e-02  6.57605494e-02  6.57605493e-02  6.57605494e-02  6.57605493e-02  6.57605493e-02  6.57605493e-02  4.61426694e-13 -1.20128595e-06  1.00000000e+00 
 4.10000000e-01  6.70089472e-02  6.70089472e-02  6.70089472e-02  6.70089472e-02  6.70089472e-02  6.70089472e-02  6.70089472e-02  4.95984947e-13 -9.47044384e-07  1.00000000e+00 
 4.20000000e-01  6.82950867e-02  6.82950867e-02  6.82950866e-02  6.82950867e-02  6.82950866e-02  6.82950866e-02  6.82950866e-02  5.39661177e-13 -7.44933345e-07  1.00000000e+00 
 4.30000000e-01  6.96318992e-02  6.96318992e-02  6.96318992e-02  6.96318992e-02  6.96318992e-02  6.96318992e-02  6.96318992e-02  5.95970220e-13 -5.88512080e-07  1.00000000e+00 
 4.40000000e-01  7.10318096e-02  7.10318096e-02  7.10318096e-02  7.10318096e-02  7.10318096e-02  7.10318096e-02  7.10318096e-02  6.69005284e-13 -4.65308375e-07  1.00000000e+00 
 4.50000000e-01  7.24691922e-02  7.24691922e-02  7.24691921e-02  7.24691922e-02  7.24691921e-02  7.24691921e-02  7.24691921e-02  7.65227955e-13 -3.70180402e-07  1.00000000e+00 
 4.60000000e-01  7.40089178e-02  7.40089178e-02  7.40089178e-02  7.40089178e-02  7.40089178e-02  7.40089178e-02  7.40089177e-02  8.93152909e-13 -2.95559488e-07  1.00000000e+00 
 4.70000000e-01  7.57326771e-02  7.57326771e-02  7.57326771e-02  7.57326771e-02  7.57326771e-02  7.57326771e-02  7.57326770e-02  1.06389072e-12 -2.38986644e-07  1.00000000e+00 
 4.80000000e-01  7.76183534e-02  7.76183534e-02  7.76183534e-02  7.76183534e-02  7.76183534e-02  7.76183534e-02  7.76183533e-02  1.29326962e-12 -1.94632747e-07  1.00000000e+00 
 4.90000000e-01  7.97606153e-02  7.97606153e-02  7.97606153e-02  7.97606153e-02  7.97606153e-02  7.97606153e-02  7.97606153e-02  1.60373257e-12 -1.58951877e-07  1.00000000e+00 
 5.00000000e-01  8.22592536e-02  8.22592536e-02  8.22592536e-02  8.22592536e-02  8.22592536e-02  8.22592536e-02  8.22592535e-02  2.02573074e-12 -1.28302446e-07  1.00000000e+00 
 5.10000000e-01  8.51567153e-02  8.51567153e-02  8.51567153e-02  8.51567153e-02  8.51567153e-02  8.51567153e-02  8.51567152e-02  2.59833409e-12 -1.02226153e-07  1.00000000e+00 
 5.20000000e-01  8.85563788e-02  8.85563788e-02  8.85563788e-02  8.85563788e-02  8.85563788e-02  8.85563788e-02  8.85563788e-02  3.37974324e-12 -8.02556031e-08  1.00000000e+00 
 5.30000000e-01  9.25922985e-02  9.25922984e-02  9.25922984e-02  9.25922985e-02  9.25922984e-02  9.25922984e-02  9.25922984e-02  4.44383267e-12 -6.21832896e-08  1.00000000e+00 
 5.40000000e-01  9.73006771e-02  9.73006771e-02  9.73006771e-02  9.73006771e-02  9.73006771e-02  9.73006771e-02  9.73006770e-02  5.89452483e-12 -4.77475623e-08  1.00000000e+00 
 5.50000000e-01  1.02772221e-01  1.02772221e-01  1.02772221e-01  1.02772221e-01  1.02772221e-01  1.02772221e-01  1.02772221e-01  7.87272504e-12 -3.63852450e-08  1.00000000e+00 
 5.60000000e-01  1.09064388e-01  1.09064388e-01  1.09064388e-01  1.09064388e-01  1.09064388e-01  1.09064388e-01  1.09064388e-01  1.05511023e-11 -2.76283174e-08  1.00000000e+00 
 5.70000000e-01  1.16062105e-01  1.16062105e-01  1.16062105e-01  1.16062105e-01  1.16062105e-01  1.16062105e-01  1.16062105e-01  1.41746618e-11 -2.09229256e-08  1.00000000e+00 
 5.80000000e-01  1.23803649e-01  1.23803649e-01  1.23803649e-01  1.23803649e-01  1.23803649e-01  1.23803649e-01  1.23803649e-01  1.90614453e-11 -1.58235309e-08  1.00000000e+00 
 5.90000000e-01  1.32118789e-01  1.32118789e-01  1.32118789e-01  1.32118789e-01  1.32118789e-01  1.32118789e-01  1.32118789e-01  2.56183601e-11 -1.19534889e-08  1.00000000e+00 
 6.00000000e-01  1.40931636e-01  1.40931636e-01  1.40931636e-01  1.40931636e-01  1.40931636e-01  1.40931636e-01  1.40931635e-01  3.43966583e-11 -9.02429065e-09  1.00000000e+00 
 6.10000000e-01  1.50152002e-01  1.50152002e-01  1.50152002e-01  1.50152002e-01  1.50152002e-01  1.50152002e-01  1.50152002e-01  4.61275397e-11 -6.80981316e-09  1.00000000e+00 
 6.20000000e-01  1.59664167e-01  1.59664167e-01  1.59664167e-01  1.59664167e-01  1.59664167e-01  1.59664167e-01  1.59664167e-01  6.17268372e-11 -5.13676923e-09  1.00000000e+00 
 6.30000000e-01  1.69379442e-01  1.69379442e-01  1.69379442e-01  1.69379442e-01  1.69379442e-01  1.69379442e-01  1.69379442e-01  8.24019308e-11 -3.87495902e-09  1.00000000e+00 
 6.40000000e-01  1.79201161e-01  1.79201161e-01  1.79201161e-01  1.79201161e-01  1.79201161e-01  1.79201161e-01  1.79201161e-01  1.09655775e-10 -2.92348545e-09  1.00000000e+00 
 6.50000000e-01  1.89071820e-01  1.89071820e-01  1.89071820e-01  1.89071820e-01  1.89071820e-01  1.89071820e-01  1.89071819e-01  1.45398665e-10 -2.20637730e-09  1.00000000e+00 
 6.60000000e-01  1.98925988e-01  1.98925988e-01  1.98925988e-01  1.98925988e-01  1.98925988e-01  1.98925988e-01  1.98925988e-01  1.92010293e-10 -1.66627956e-09  1.00000000e+00 
 6.70000000e-01  2.08717886e-01  2.08717886e-01  2.08717886e-01  2.08717886e-01  2.08717886e-01  2.08717886e-01  2.08717886e-01  2.52409354e-10 -1.25993438e-09  1.00000000e+00 
 6.80000000e-01  2.18405615e-01  2.18405615e-01  2.18405615e-01  2.18405615e-01  2.18405615e-01  2.18405615e-01  2.18405615e-01  3.30158005e-10 -9.54514690e-10  1.00000000e+00 
 6.90000000e-01  2.27963565e-01  2.27963565e-01  2.27963565e-01  2.27963565e-01  2.27963565e-01  2.27963565e-01  2.27963565e-01  4.29552120e-10 -7.25350446e-10  1.00000000e+00 
 7.00000000e-01  2.37367396e-01  2.37367396e-01  2.37367396e-01  2.37367396e-01  2.37367396e-01  2.37367396e-01  2.37367396e-01  5.55753388e-10 -5.54194912e-10  1.00000000e+00 
 7.10000000e-01  2.46595338e-01  2.46595338e-01  2.46595338e-01  2.46595338e-01  2.46595338e-01  2.46595338e-01  2.46595338e-01  7.14856639e-10 -4.26865654e-10  1.00000000e+00 
 7.20000000e-01  2.55639711e-01  2.55639711e-01  2.55639711e-01  2.55639711e-01  2.55639711e-01  2.55639711e-01  2.55639711e-01  9.13965875e-10 -3.33045591e-10  1.00000000e+00 
 7.30000000e-01  2.64485461e-01  2.64485461e-01  2.64485461e-01  2.64485461e-01  2.64485461e-01  2.64485461e-01  2.64485460e-01  1.16138436e-09 -2.64918754e-10  1.00000000e+00 
 7.40000000e-01  2.73134791e-01  2.73134791e-01  2.73134791e-01  2.73134791e-01  2.73134791e-01  2.73134791e-01  2.73134791e-01  1.46672995e-09 -2.16630269e-10  1.00000000e+00 
 7.50000000e-01  2.81585583e-01  2.81585583e-01  2.81585583e-01  2.81585583e-01  2.81585583e-01  2.81585583e-01  2.81585583e-01  1.84110638e-09 -1.84229521e-10  1.00000000e+00 
 7.60000000e-01  2.89839561e-01  2.89839561e-01  2.89839561e-01  2.89839561e-01  2.89839561e-01  2.89839561e-01  2.89839561e-01  2.29732736e-09 -1.64391167e-10  1.00000000e+00 
 7.70000000e-01  2.97905946e-01  2.97905946e-01  2.97905946e-01  2.97905946e-01  2.97905946e-01  2.97905946e-01  2.97905946e-01  2.85025981e-09 -1.54869895e-10  1.00000000e+00 
 7.80000000e-01  3.05793294e-01  3.05793294e-01  3.05793294e-01  3.05793294e-01  3.05793294e-01  3.05793294e-01  3.05793294e-01  3.51692239e-09 -1.54102509e-10  1.00000000e+00 
 7.90000000e-01  3.13512554e-01  3.13512554e-01  3.13512554e-01  3.13512554e-01  3.13512554e-01  3.13512554e-01  3.13512554e-01  4.31728897e-09 -1.60810032e-10  1.00000000e+00 
 8.00000000e-01  3.21077953e-01  3.21077953e-01  3.21077953e-01  3.21077953e-01  3.21077953e-01  3.21077953e-01  3.21077953e-01  5.27444199e-09 -1.73741910e-10  1.00000000e+00 
 8.10000000e-01  3.28503243e-01  3.28503243e-01  3.28503243e-01  3.28503243e-01  3.28503243e-01  3.28503243e-01  3.28503243e-01  6.41556031e-09 -1.89118055e-10  1.00000000e+00 
 8.20000000e-01  3.35803729e-01  3.35803729e-01  3.35803729e-01  3.35803729e-01  3.35803729e-01  3.35803729e-01  3.35803729e-01  7.77242726e-09 -1.97161398e-10  1.00000000e+00 
 8.30000000e-01  3.42995370e-01  3.42995370e-01  3.42995370e-01  3.42995370e-01  3.42995370e-01  3.42995370e-01  3.42995370e-01  9.38242828e-09 -1.89402272e-10  1.00000000e+00 
 8.40000000e-01  3.50093369e-01  3.50093369e-01  3.50093369e-01  3.50093369e-01  3.50093369e-01  3.50093369e-01  3.50093369e-01  1.12899280e-08 -1.67915459e-10  1.00000000e+00 
 8.50000000e-01  3.57113357e-01  3.57113357e-01  3.57113357e-01  3.57113357e-01  3.57113357e-01  3.57113357e-01  3.57113357e-01  1.35472912e-08 -1.40147449e-10  1.00000000e+00 
 8.60000000e-01  3.64070361e-01  3.64070361e-01  3.64070361e-01  3.64070361e-01  3.64070361e-01  3.64070361e-01  3.64070361e-01  1.62164540e-08 -1.12379439e-10  1.00000000e+00 
 8.70000000e-01  3.70977858e-01  3.70977858e-01  3.70977858e-01  3.70977858e-01  3.70977858e-01  3.70977858e-01  3.70977858e-01  1.93714449e-08 -8.78515038e-11  1.00000000e+00 
 8.80000000e-01  3.77849798e-01  3.77849798e-01  3.77849798e-01  3.77849798e-01  3.77849798e-01  3.77849798e-01  3.77849798e-01  2.30996744e-08 -6.76152467e-11  1.00000000e+00 
 8.90000000e-01  3.84697932e-01  3.84697932e-01  3.84697932e-01  3.84697932e-01  3.84697932e-01  3.84697932e-01  3.84697932e-01  2.75054435e-08 -5.13864507e-11  1.00000000e+00 
 9.00000000e-01  3.91533382e-01  3.91533382e-01  3.91533382e-01  3.91533382e-01  3.91533382e-01  3.91533382e-01  3.91533382e-01  3.27124439e-08 -3.87103682e-11  1.00000000e+00 
 9.10000000e-01  3.98365895e-01  3.98365895e-01  3.98365895e-01  3.98365895e-01  3.98365895e-01  3.98365895e-01  3.98365895e-01  3.88672925e-08 -2.90754087e-11  1.00000000e+00 
 9.20000000e-01  4.05203120e-01  4.05203119e-01  4.05203119e-01  4.05203120e-01  4.05203119e-01  4.05203119e-01  4.05203119e-01  4.61438106e-08 -2.16857643e-11  1.00000000e+00 
 9.30000000e-01  4.12051173e-01  4.12051173e-01  4.12051173e-01  4.12051173e-01  4.12051173e-01  4.12051173e-01  4.12051173e-01  5.47466739e-08 -1.61151092e-11  1.00000000e+00 
 9.40000000e-01  4.18913564e-01  4.18913564e-01  4.18913564e-01  4.18913564e-01  4.18913564e-01  4.18913564e-01  4.18913564e-01  6.49154472e-08 -1.18234311e-11  1.00000000e+00 
 9.50000000e-01  4.25791058e-01  4.25791058e-01  4.25791058e-01  4.25791058e-01  4.25791058e-01  4.25791058e-01  4.25791058e-01  7.69285071e-08 -8.66862138e-12  1.00000000e+00 
 9.60000000e-01  4.32680632e-01  4.32680632e-01  4.32680632e-01  4.32680632e-01  4.32680632e-01  4.32680632e-01  4.32680632e-01  9.11045932e-08 -6.19593266e-12  1.00000000e+00 
 9.70000000e-01  4.39575155e-01  4.39575155e-01  4.39575155e-01  4.39575155e-01  4.39575155e-01  4.39575155e-01  4.39575155e-01  1.07802363e-07 -4.40536496e-12  1.00000000e+00 
 9.80000000e-01  4.46462127e-01  4.46462127e-01  4.46462127e-01  4.46462127e-01  4.46462127e-01  4.46462127e-01  4.46462127e-01  1.27414609e-07 -2.95585778e-12  1.00000000e+00 
 9.90000000e-01  4.53322684e-01  4.53322684e-01  4.53322684e-01  4.53322684e-01  4.53322684e-01  4.53322684e-01  4.53322684e-01  1.50354436e-07 -1.90425453e-12  1.00000000e+00 
 1.00000000e+00  4.60130351e-01  4.60130351e-01  4.60130351e-01  4.60130351e-01  4.60130351e-01  4.60130351e-01  4.60130350e-01  1.77030079e-07 -1.08002496e-12  1.00000000e+00 
 1.01000000e+00  4.66849697e-01  4.66849697e-01  4.66849697e-01  4.66849697e-01  4.66849697e-01  4.66849697e-01  4.66849697e-01  2.07802010e-07 -3.12638804e-13  1.00000000e+00 
 1.02000000e+00  4.73435173e-01  4.73435173e-01  4.73435173e-01  4.73435173e-01  4.73435173e-01  4.73435173e-01  4.73435173e-01  2.42920127e-07  2.55795385e-13  1.00000000e+00 
 1.03000000e+00  4.79830469e-01  4.79830469e-01  4.79830469e-01  4.79830469e-01  4.79830469e-01  4.79830469e-01  4.79830469e-01  2.82439174e-07  7.67386155e-13  1.00000000e+00 
 1.04000000e+00  4.85969025e-01  4.85969025e-01  4.85969025e-01  4.85969025e-01  4.85969025e-01  4.85969025e-01  4.85969025e-01  3.26119270e-07  1.33582034e-12  1.00000000e+00 
 1.05000000e+00  4.91776557e-01  4.91776557e-01  4.91776557e-01  4.91776557e-01  4.91776557e-01  4.91776557e-01  4.91776557e-01  3.73333318e-07  1.84741111e-12  1.00000000e+00 
 1.06000000e+00  4.97175456e-01  4.97175456e-01  4.97175456e-01  4.97175456e-01  4.97175456e-01  4.97175456e-01  4.97175456e-01  4.23008220e-07  2.30215846e-12  1.00000000e+00 
 1.07000000e+00  5.02089307e-01  5.02089307e-01  5.02089307e-01  5.02089307e-01  5.02089306e-01  5.02089307e-01  5.02089306e-01  4.73616193e-07  2.87059265e-12  1.00000000e+00 
 1.08000000e+00  5.06444306e-01  5.06444306e-01  5.06444306e-01  5.06444306e-01  5.06444306e-01  5.06444306e-01  5.06444306e-01  5.23200448e-07  3.38218342e-12  1.00000000e+00 
 1.09000000e+00  5.10166708e-01  5.10166708e-01  5.10166708e-01  5.10166708e-01  5.10166708e-01  5.10166708e-01  5.10166708e-01  5.69411874e-07  4.03588274e-12  1.00000000e+00 
 1.10000000e+00  5.13183041e-01  5.13183041e-01  5.13183041e-01  5.13183041e-01  5.13183041e-01  5.13183041e-01  5.13183041e-01  6.09632245e-07  4.71800377e-12  1.00000000e+00 
