 v-sweep         v(b0)           v(b1)           v(b2)           v(b3)           v(b4)           v(b5)           v(b6)           i(vbias)        i(viout)        v(vout)        
 0.00000000e+00 -1.30264512e-19 -1.30264512e-19 -1.30264512e-19 -1.30264512e-19 -1.30264511e-19 -1.30264512e-19 -1.30264510e-19 -3.55451939e-31 -4.73874242e-03  1.00000000e+00 
 1.00000000e-02  1.93671022e-03  1.93671022e-03  1.93671023e-03  1.93671022e-03  1.93671023e-03  1.93671022e-03  1.93671022e-03  1.16591167e-14 -4.31185859e-03  1.00000000e+00 
 2.00000000e-02  3.86956688e-03  3.86956688e-03  3.86956688e-03  3.86956688e-03  3.86956688e-03  3.86956688e-03  3.86956687e-03  2.27868073e-14 -3.89917089e-03  1.00000000e+00 
 3.00000000e-02  5.80030486e-03  5.80030487e-03  5.80030487e-03  5.80030487e-03  5.80030487e-03  5.80030487e-03  5.80030486e-03  3.35137213e-14 -3.50203284e-03  1.00000000e+00 
 4.00000000e-02  7.73602041e-03  7.73602042e-03  7.73602042e-03  7.73602041e-03  7.73602043e-03  7.73602042e-03  7.73602040e-03  4.39567625e-14 -3.12193550e-03  1.00000000e+00 
 5.00000000e-02  9.67203170e-03  9.67203170e-03  9.67203171e-03  9.67203170e-03  9.67203171e-03  9.67203170e-03  9.67203168e-03  5.41454402e-14 -2.76042071e-03  1.00000000e+00 
 6.00000000e-02  1.16203535e-02  1.16203535e-02  1.16203535e-02  1.16203535e-02  1.16203535e-02  1.16203535e-02  1.16203535e-02  6.41650150e-14 -2.41926268e-03  1.00000000e+00 
 7.00000000e-02  1.35666244e-02  1.35666244e-02  1.35666244e-02  1.35666244e-02  1.35666244e-02  1.35666244e-02  1.35666244e-02  7.40713096e-14 -2.09999485e-03  1.00000000e+00 
 8.00000000e-02  1.55080319e-02  1.55080319e-02  1.55080319e-02  1.55080319e-02  1.55080319e-02  1.55080319e-02  1.55080319e-02  8.38968156e-14 -1.80423394e-03  1.00000000e+00 
 9.00000000e-02  1.74674315e-02  1.74674315e-02  1.74674315e-02  1.74674315e-02  1.74674315e-02  1.74674315e-02  1.74674314e-02  9.36206204e-14 -1.53338985e-03  1.00000000e+00 
 1.00000000e-01  1.94248629e-02  1.94248629e-02  1.94248629e-02  1.94248629e-02  1.94248629e-02  1.94248629e-02  1.94248629e-02  1.03282186e-13 -1.28856572e-03  1.00000000e+00 
 1.10000000e-01  2.13723508e-02  2.13723508e-02  2.13723508e-02  2.13723508e-02  2.13723508e-02  2.13723508e-02  2.13723508e-02  1.12944443e-13 -1.07042252e-03  1.00000000e+00 
 1.20000000e-01  2.33504643e-02  2.33504643e-02  2.33504643e-02  2.33504643e-02  2.33504643e-02  2.33504643e-02  2.33504643e-02  1.22532908e-13 -8.79074185e-04  1.00000000e+00 
 1.30000000e-01  2.52752793e-02  2.52752793e-02  2.52752793e-02  2.52752793e-02  2.52752793e-02  2.52752793e-02  2.52752793e-02  1.32148257e-13 -7.13925113e-04  1.00000000e+00 
 1.40000000e-01  2.72447759e-02  2.72447759e-02  2.72447759e-02  2.72447759e-02  2.72447760e-02  2.72447759e-02  2.72447759e-02  1.41700538e-13 -5.73798193e-04  1.00000000e+00 
 1.50000000e-01  2.91865419e-02  2.91865419e-02  2.91865419e-02  2.91865419e-02  2.91865419e-02  2.91865419e-02  2.91865418e-02  1.51193290e-13 -4.56841362e-04  1.00000000e+00 
 1.60000000e-01  3.11283150e-02  3.11283150e-02  3.11283150e-02  3.11283150e-02  3.11283151e-02  3.11283150e-02  3.11283150e-02  1.60751116e-13 -3.60748873e-04  1.00000000e+00 
 1.70000000e-01  3.30665105e-02  3.30665105e-02  3.30665105e-02  3.30665105e-02  3.30665105e-02  3.30665105e-02  3.30665104e-02  1.70378748e-13 -2.82931327e-04  1.00000000e+00 
 1.80000000e-01  3.49603053e-02  3.49603054e-02  3.49603054e-02  3.49603053e-02  3.49603054e-02  3.49603054e-02  3.49603053e-02  1.79931945e-13 -2.20734942e-04  1.00000000e+00 
 1.90000000e-01  3.68386574e-02  3.68386574e-02  3.68386574e-02  3.68386574e-02  3.68386575e-02  3.68386574e-02  3.68386574e-02  1.89498741e-13 -1.71537098e-04  1.00000000e+00 
 2.00000000e-01  3.87097288e-02  3.87097288e-02  3.87097288e-02  3.87097288e-02  3.87097288e-02  3.87097288e-02  3.87097287e-02  1.99024160e-13 -1.32969818e-04  1.00000000e+00 
 2.10000000e-01  4.05666167e-02  4.05666167e-02  4.05666168e-02  4.05666167e-02  4.05666168e-02  4.05666167e-02  4.05666167e-02  2.08558312e-13 -1.02924259e-04  1.00000000e+00 
 2.20000000e-01  4.24096541e-02  4.24096541e-02  4.24096541e-02  4.24096541e-02  4.24096541e-02  4.24096541e-02  4.24096541e-02  2.18101047e-13 -7.96563512e-05  1.00000000e+00 
 2.30000000e-01  4.41879804e-02  4.41879804e-02  4.41879804e-02  4.41879804e-02  4.41879804e-02  4.41879804e-02  4.41879804e-02  2.27832954e-13 -6.16745390e-05  1.00000000e+00 
 2.40000000e-01  4.59663680e-02  4.59663680e-02  4.59663680e-02  4.59663680e-02  4.59663681e-02  4.59663680e-02  4.59663680e-02  2.37436998e-13 -4.78013513e-05  1.00000000e+00 
 2.50000000e-01  4.76676525e-02  4.76676525e-02  4.76676525e-02  4.76676525e-02  4.76676525e-02  4.76676525e-02  4.76676524e-02  2.47154329e-13 -3.71139875e-05  1.00000000e+00 
 2.60000000e-01  4.93656458e-02  4.93656458e-02  4.93656458e-02  4.93656458e-02  4.93656458e-02  4.93656458e-02  4.93656457e-02  2.56940070e-13 -2.88646187e-05  1.00000000e+00 
 2.70000000e-01  5.10319856e-02  5.10319856e-02  5.10319856e-02  5.10319856e-02  5.10319857e-02  5.10319856e-02  5.10319856e-02  2.66750965e-13 -2.24949777e-05  1.00000000e+00 
 2.80000000e-01  5.26790951e-02  5.26790951e-02  5.26790951e-02  5.26790951e-02  5.26790951e-02  5.26790951e-02  5.26790951e-02  2.76703172e-13 -1.75721025e-05  1.00000000e+00 
 2.90000000e-01  5.42967346e-02  5.42967346e-02  5.42967346e-02  5.42967346e-02  5.42967346e-02  5.42967346e-02  5.42967345e-02  2.86886730e-13 -1.37682723e-05  1.00000000e+00 
 3.00000000e-01  5.58330749e-02  5.58330749e-02  5.58330749e-02  5.58330749e-02  5.58330749e-02  5.58330749e-02  5.58330748e-02  2.97246489e-13 -1.07934875e-05  1.00000000e+00 
 3.10000000e-01  5.73600137e-02  5.73600137e-02  5.73600137e-02  5.73600137e-02  5.73600137e-02  5.73600137e-02  5.73600137e-02  3.08074231e-13 -8.48646144e-06  1.00000000e+00 
 3.20000000e-01  5.88528282e-02  5.88528282e-02  5.88528282e-02  5.88528282e-02  5.88528282e-02  5.88528282e-02  5.88528281e-02  3.19269401e-13 -6.68547571e-06  1.00000000e+00 
 3.30000000e-01  6.03112349e-02  6.03112349e-02  6.03112349e-02  6.03112349e-02  6.03112350e-02  6.03112349e-02  6.03112349e-02  3.31042394e-13 -5.27428224e-06  1.00000000e+00 
 3.40000000e-01  6.17299183e-02  6.17299183e-02  6.17299183e-02  6.17299183e-02  6.17299183e-02  6.17299183e-02  6.17299182e-02  3.43553888e-13 -4.16451715e-06  1.00000000e+00 
 3.50000000e-01  6.31717338e-02  6.31717338e-02  6.31717338e-02  6.31717338e-02  6.31717338e-02  6.31717338e-02  6.31717337e-02  3.57181769e-13 -3.29849915e-06  1.00000000e+00 
 3.60000000e-01  6.45437147e-02  6.45437147e-02  6.45437147e-02  6.45437147e-02  6.45437147e-02  6.45437147e-02  6.45437146e-02  3.72330117e-13 -2.61207150e-06  1.00000000e+00 
 3.70000000e-01  6.59426121e-02  6.59426121e-02  6.59426121e-02  6.59426121e-02  6.59426121e-02  6.59426121e-02  6.59426120e-02  3.89723068e-13 -2.07145986e-06  1.00000000e+00 
 3.80000000e-01  6.72760550e-02  6.72760550e-02  6.72760550e-02  6.72760550e-02  6.72760550e-02  6.72760550e-02  6.72760549e-02  4.09662084e-13 -1.64049231e-06  1.00000000e+00 
 3.90000000e-01  6.86084498e-02  6.86084498e-02  6.86084498e-02  6.86084498e-02  6.86084499e-02  6.86084498e-02  6.86084498e-02  4.33792559e-13 -1.29845832e-06  1.00000000e+00 
 4.00000000e-01  6.99750051e-02  6.99750052e-02  6.99750052e-02  6.99750052e-02  6.99750052e-02  6.99750052e-02  6.99750051e-02  4.62750626e-13 -1.02697756e-06  1.00000000e+00 
 4.10000000e-01  7.13123991e-02  7.13123992e-02  7.13123992e-02  7.13123991e-02  7.13123992e-02  7.13123992e-02  7.13123991e-02  4.99005571e-13 -8.14585164e-07  1.00000000e+00 
 4.20000000e-01  7.26562015e-02  7.26562015e-02  7.26562015e-02  7.26562015e-02  7.26562015e-02  7.26562015e-02  7.26562014e-02  5.44582381e-13 -6.45970076e-07  1.00000000e+00 
 4.30000000e-01  7.40656591e-02  7.40656592e-02  7.40656592e-02  7.40656591e-02  7.40656592e-02  7.40656592e-02  7.40656591e-02  6.03690285e-13 -5.12542471e-07  1.00000000e+00 
 4.40000000e-01  7.54991250e-02  7.54991251e-02  7.54991251e-02  7.54991250e-02  7.54991251e-02  7.54991251e-02  7.54991250e-02  6.80015838e-13 -4.06359320e-07  1.00000000e+00 
 4.50000000e-01  7.70104366e-02  7.70104366e-02  7.70104366e-02  7.70104366e-02  7.70104366e-02  7.70104366e-02  7.70104365e-02  7.80667611e-13 -3.23431038e-07  1.00000000e+00 
 4.60000000e-01  7.86539570e-02  7.86539570e-02  7.86539570e-02  7.86539570e-02  7.86539570e-02  7.86539570e-02  7.86539569e-02  9.13854990e-13 -2.57690402e-07  1.00000000e+00 
 4.70000000e-01  8.04331309e-02  8.04331309e-02  8.04331309e-02  8.04331309e-02  8.04331309e-02  8.04331309e-02  8.04331308e-02  1.09161108e-12 -2.05494388e-07  1.00000000e+00 
 4.80000000e-01  8.24035171e-02  8.24035171e-02  8.24035171e-02  8.24035171e-02  8.24035172e-02  8.24035171e-02  8.24035171e-02  1.33011837e-12 -1.63579358e-07  1.00000000e+00 
 4.90000000e-01  8.46425026e-02  8.46425026e-02  8.46425026e-02  8.46425026e-02  8.46425027e-02  8.46425026e-02  8.46425026e-02  1.65127922e-12 -1.28778353e-07  1.00000000e+00 
 5.00000000e-01  8.72093495e-02  8.72093496e-02  8.72093496e-02  8.72093496e-02  8.72093496e-02  8.72093496e-02  8.72093495e-02  2.08561712e-12 -9.98275169e-08  1.00000000e+00 
 5.10000000e-01  9.02199129e-02  9.02199129e-02  9.02199129e-02  9.02199129e-02  9.02199129e-02  9.02199129e-02  9.02199128e-02  2.67503664e-12 -7.64531194e-08  1.00000000e+00 
 5.20000000e-01  9.37410516e-02  9.37410516e-02  9.37410517e-02  9.37410516e-02  9.37410517e-02  9.37410516e-02  9.37410516e-02  3.47594016e-12 -5.81717643e-08  1.00000000e+00 
 5.30000000e-01  9.78692063e-02  9.78692063e-02  9.78692063e-02  9.78692063e-02  9.78692063e-02  9.78692063e-02  9.78692062e-02  4.56140743e-12 -4.41149410e-08  1.00000000e+00 
 5.40000000e-01  1.02697573e-01  1.02697573e-01  1.02697573e-01  1.02697573e-01  1.02697573e-01  1.02697573e-01  1.02697573e-01  6.03717792e-12 -3.33966170e-08  1.00000000e+00 
 5.50000000e-01  1.08257142e-01  1.08257142e-01  1.08257142e-01  1.08257142e-01  1.08257142e-01  1.08257142e-01  1.08257142e-01  8.03811911e-12 -2.52487098e-08  1.00000000e+00 
 5.60000000e-01  1.14593376e-01  1.14593376e-01  1.14593376e-01  1.14593376e-01  1.14593376e-01  1.14593376e-01  1.14593376e-01  1.07413154e-11 -1.90733118e-08  1.00000000e+00 
 5.70000000e-01  1.21656226e-01  1.21656226e-01  1.21656226e-01  1.21656226e-01  1.21656226e-01  1.21656226e-01  1.21656226e-01  1.43919577e-11 -1.43992906e-08  1.00000000e+00 
 5.80000000e-01  1.29392053e-01  1.29392053e-01  1.29392053e-01  1.29392053e-01  1.29392053e-01  1.29392053e-01  1.29392053e-01  1.92966179e-11 -1.08657900e-08  1.00000000e+00 
 5.90000000e-01  1.37748439e-01  1.37748439e-01  1.37748439e-01  1.37748439e-01  1.37748439e-01  1.37748439e-01  1.37748439e-01  2.58817507e-11 -8.19709101e-09  1.00000000e+00 
 6.00000000e-01  1.46580880e-01  1.46580880e-01  1.46580880e-01  1.46580880e-01  1.46580880e-01  1.46580880e-01  1.46580880e-01  3.46988621e-11 -6.18285867e-09  1.00000000e+00 
 6.10000000e-01  1.55817619e-01  1.55817619e-01  1.55817619e-01  1.55817619e-01  1.55817620e-01  1.55817619e-01  1.55817619e-01  4.64692638e-11 -4.66364725e-09  1.00000000e+00 
 6.20000000e-01  1.65352055e-01  1.65352055e-01  1.65352055e-01  1.65352055e-01  1.65352055e-01  1.65352055e-01  1.65352055e-01  6.21353767e-11 -3.51829499e-09  1.00000000e+00 
 6.30000000e-01  1.75088221e-01  1.75088221e-01  1.75088221e-01  1.75088221e-01  1.75088221e-01  1.75088221e-01  1.75088221e-01  8.29133689e-11 -2.65542610e-09  1.00000000e+00 
 6.40000000e-01  1.84953802e-01  1.84953802e-01  1.84953802e-01  1.84953802e-01  1.84953802e-01  1.84953802e-01  1.84953802e-01  1.10356469e-10 -2.00584793e-09  1.00000000e+00 
 6.50000000e-01  1.94879001e-01  1.94879001e-01  1.94879001e-01  1.94879001e-01  1.94879001e-01  1.94879001e-01  1.94879001e-01  1.46401691e-10 -1.51727875e-09  1.00000000e+00 
 6.60000000e-01  2.04797251e-01  2.04797251e-01  2.04797251e-01  2.04797251e-01  2.04797251e-01  2.04797251e-01  2.04797251e-01  1.93539513e-10 -1.15053922e-09  1.00000000e+00 
 6.70000000e-01  2.14676634e-01  2.14676634e-01  2.14676634e-01  2.14676634e-01  2.14676634e-01  2.14676634e-01  2.14676633e-01  2.54826200e-10 -8.76013928e-10  1.00000000e+00 
 6.80000000e-01  2.24469722e-01  2.24469722e-01  2.24469722e-01  2.24469722e-01  2.24469722e-01  2.24469722e-01  2.24469722e-01  3.34046580e-10 -6.71462885e-10  1.00000000e+00 
 6.90000000e-01  2.34147887e-01  2.34147887e-01  2.34147887e-01  2.34147887e-01  2.34147887e-01  2.34147887e-01  2.34147887e-01  4.35788454e-10 -5.20287813e-10  1.00000000e+00 
 7.00000000e-01  2.43689394e-01  2.43689394e-01  2.43689395e-01  2.43689394e-01  2.43689395e-01  2.43689394e-01  2.43689394e-01  5.65611176e-10 -4.10182110e-10  1.00000000e+00 
 7.10000000e-01  2.53073512e-01  2.53073512e-01  2.53073512e-01  2.53073512e-01  2.53073512e-01  2.53073512e-01  2.53073512e-01  7.30114171e-10 -3.31951355e-10  1.00000000e+00 
 7.20000000e-01  2.62284385e-01  2.62284385e-01  2.62284385e-01  2.62284385e-01  2.62284385e-01  2.62284385e-01  2.62284385e-01  9.37174061e-10 -2.78831180e-10  1.00000000e+00 
 7.30000000e-01  2.71313571e-01  2.71313571e-01  2.71313571e-01  2.71313571e-01  2.71313571e-01  2.71313571e-01  2.71313571e-01  1.19593461e-09 -2.46018317e-10  1.00000000e+00 
 7.40000000e-01  2.80150947e-01  2.80150947e-01  2.80150947e-01  2.80150947e-01  2.80150947e-01  2.80150947e-01  2.80150947e-01  1.51713653e-09 -2.30201636e-10  1.00000000e+00 
 7.50000000e-01  2.88795571e-01  2.88795571e-01  2.88795571e-01  2.88795571e-01  2.88795571e-01  2.88795571e-01  2.88795571e-01  1.91318703e-09 -2.29007924e-10  1.00000000e+00 
 7.60000000e-01  2.97246485e-01  2.97246485e-01  2.97246485e-01  2.97246485e-01  2.97246485e-01  2.97246485e-01  2.97246485e-01  2.39838407e-09 -2.40945042e-10  1.00000000e+00 
 7.70000000e-01  3.05507065e-01  3.05507065e-01  3.05507065e-01  3.05507065e-01  3.05507065e-01  3.05507065e-01  3.05507065e-01  2.98926914e-09 -2.65302447e-10  1.00000000e+00 
 7.80000000e-01  3.13583315e-01  3.13583315e-01  3.13583315e-01  3.13583315e-01  3.13583315e-01  3.13583315e-01  3.13583315e-01  3.70487185e-09 -3.01227487e-10  1.00000000e+00 
 7.90000000e-01  3.21484594e-01  3.21484594e-01  3.21484594e-01  3.21484594e-01  3.21484595e-01  3.21484594e-01  3.21484594e-01  4.56731025e-09 -3.46872753e-10  1.00000000e+00 
 8.00000000e-01  3.29221172e-01  3.29221172e-01  3.29221172e-01  3.29221172e-01  3.29221172e-01  3.29221172e-01  3.29221172e-01  5.60210014e-09 -3.94962285e-10  1.00000000e+00 
 8.10000000e-01  3.36806107e-01  3.36806107e-01  3.36806107e-01  3.36806107e-01  3.36806107e-01  3.36806107e-01  3.36806107e-01  6.83903184e-09 -4.23284519e-10  1.00000000e+00 
 8.20000000e-01  3.44253358e-01  3.44253358e-01  3.44253358e-01  3.44253358e-01  3.44253358e-01  3.44253358e-01  3.44253358e-01  8.31297692e-09 -4.09883683e-10  1.00000000e+00 
 8.30000000e-01  3.51577766e-01  3.51577766e-01  3.51577767e-01  3.51577766e-01  3.51577767e-01  3.51577766e-01  3.51577766e-01  1.00647873e-08 -3.61978891e-10  1.00000000e+00 
 8.40000000e-01  3.58795099e-01  3.58795099e-01  3.58795099e-01  3.58795099e-01  3.58795099e-01  3.58795099e-01  3.58795099e-01  1.21426921e-08 -2.99891667e-10  1.00000000e+00 
 8.50000000e-01  3.65920515e-01  3.65920515e-01  3.65920515e-01  3.65920515e-01  3.65920515e-01  3.65920515e-01  3.65920514e-01  1.46036093e-08 -2.39154474e-10  1.00000000e+00 
 8.60000000e-01  3.72969642e-01  3.72969642e-01  3.72969642e-01  3.72969642e-01  3.72969642e-01  3.72969642e-01  3.72969642e-01  1.75149937e-08 -1.86531679e-10  1.00000000e+00 
 8.70000000e-01  3.79957083e-01  3.79957083e-01  3.79957083e-01  3.79957083e-01  3.79957083e-01  3.79957083e-01  3.79957083e-01  2.09568408e-08 -1.43558054e-10  1.00000000e+00 
 8.80000000e-01  3.86897280e-01  3.86897280e-01  3.86897280e-01  3.86897280e-01  3.86897280e-01  3.86897280e-01  3.86897280e-01  2.50243206e-08 -1.09551479e-10  1.00000000e+00 
 8.90000000e-01  3.93803204e-01  3.93803204e-01  3.93803204e-01  3.93803204e-01  3.93803204e-01  3.93803204e-01  3.93803204e-01  2.98303742e-08 -8.31761326e-11  1.00000000e+00 
 9.00000000e-01  4.00686845e-01  4.00686845e-01  4.00686845e-01  4.00686845e-01  4.00686845e-01  4.00686845e-01  4.00686845e-01  3.55091880e-08 -6.29256647e-11  1.00000000e+00 
 9.10000000e-01  4.07558685e-01  4.07558685e-01  4.07558685e-01  4.07558685e-01  4.07558685e-01  4.07558685e-01  4.07558684e-01  4.22199060e-08 -4.74784656e-11  1.00000000e+00 
 9.20000000e-01  4.14427339e-01  4.14427340e-01  4.14427340e-01  4.14427339e-01  4.14427340e-01  4.14427340e-01  4.14427339e-01  5.01506365e-08 -3.57687213e-11  1.00000000e+00 
 9.30000000e-01  4.21299230e-01  4.21299230e-01  4.21299230e-01  4.21299230e-01  4.21299230e-01  4.21299230e-01  4.21299230e-01  5.95226588e-08 -2.68585154e-11  1.00000000e+00 
 9.40000000e-01  4.28178178e-01  4.28178178e-01  4.28178178e-01  4.28178178e-01  4.28178178e-01  4.28178178e-01  4.28178178e-01  7.05945724e-08 -2.00941486e-11  1.00000000e+00 
 9.50000000e-01  4.35064747e-01  4.35064747e-01  4.35064747e-01  4.35064747e-01  4.35064747e-01  4.35064747e-01  4.35064747e-01  8.36652410e-08 -1.49071866e-11  1.00000000e+00 
 9.60000000e-01  4.41955520e-01  4.41955520e-01  4.41955520e-01  4.41955520e-01  4.41955520e-01  4.41955520e-01  4.41955520e-01  9.90750815e-08 -1.09707798e-11  1.00000000e+00 
 9.70000000e-01  4.48842350e-01  4.48842350e-01  4.48842350e-01  4.48842350e-01  4.48842350e-01  4.48842350e-01  4.48842350e-01  1.17203679e-07 -7.85860266e-12  1.00000000e+00 
 9.80000000e-01  4.55711265e-01  4.55711265e-01  4.55711265e-01  4.55711265e-01  4.55711265e-01  4.55711265e-01  4.55711265e-01  1.38461293e-07 -5.45696821e-12  1.00000000e+00 
 9.90000000e-01  4.62541457e-01  4.62541457e-01  4.62541457e-01  4.62541457e-01  4.62541457e-01  4.62541457e-01  4.62541457e-01  1.63270741e-07 -3.59534624e-12  1.00000000e+00 
 1.00000000e+00  4.69303919e-01  4.69303919e-01  4.69303919e-01  4.69303919e-01  4.69303919e-01  4.69303919e-01  4.69303919e-01  1.92035664e-07 -2.08899564e-12  1.00000000e+00 
 1.01000000e+00  4.75960190e-01  4.75960190e-01  4.75960190e-01  4.75960190e-01  4.75960190e-01  4.75960190e-01  4.75960190e-01  2.25089703e-07 -7.67386155e-13  1.00000000e+00 
 1.02000000e+00  4.82461385e-01  4.82461385e-01  4.82461385e-01  4.82461385e-01  4.82461385e-01  4.82461385e-01  4.82461385e-01  2.62623871e-07  3.69482223e-13  1.00000000e+00 
 1.03000000e+00  4.88748022e-01  4.88748022e-01  4.88748022e-01  4.88748022e-01  4.88748022e-01  4.88748022e-01  4.88748022e-01  3.04594423e-07  1.39266376e-12  1.00000000e+00 
 1.04000000e+00  4.94751417e-01  4.94751417e-01  4.94751417e-01  4.94751417e-01  4.94751417e-01  4.94751417e-01  4.94751417e-01  3.50623605e-07  2.44426701e-12  1.00000000e+00 
 1.05000000e+00  5.00397262e-01  5.00397262e-01  5.00397262e-01  5.00397262e-01  5.00397262e-01  5.00397262e-01  5.00397261e-01  3.99919344e-07  3.48165941e-12  1.00000000e+00 
 1.06000000e+00  5.05610519e-01  5.05610519e-01  5.05610519e-01  5.05610519e-01  5.05610519e-01  5.05610519e-01  5.05610519e-01  4.51239636e-07  4.49063009e-12  1.00000000e+00 
 1.07000000e+00  5.10318730e-01  5.10318730e-01  5.10318730e-01  5.10318730e-01  5.10318730e-01  5.10318730e-01  5.10318730e-01  5.02899759e-07  5.51381163e-12  1.00000000e+00 
 1.08000000e+00  5.14450390e-01  5.14450390e-01  5.14450390e-01  5.14450390e-01  5.14450390e-01  5.14450390e-01  5.14450390e-01  5.52785703e-07  6.63646915e-12  1.00000000e+00 
 1.09000000e+00  5.17929972e-01  5.17929972e-01  5.17929972e-01  5.17929972e-01  5.17929972e-01  5.17929972e-01  5.17929972e-01  5.98367816e-07  7.85860266e-12  1.00000000e+00 
 1.10000000e+00  5.20680456e-01  5.20680456e-01  5.20680456e-01  5.20680456e-01  5.20680456e-01  5.20680456e-01  5.20680456e-01  6.36860985e-07  9.26547727e-12  1.00000000e+00 
