 v-sweep         v(b0)           v(b1)           v(b2)           v(b3)           v(b4)           v(b5)           v(b6)           i(vbias)        i(viout)        v(vout)        
 0.00000000e+00  3.03353042e-20  3.03353041e-20  3.03353041e-20  3.03353041e-20  3.03353042e-20  3.03353038e-20  3.03353041e-20 -5.13872142e-30 -4.73874776e-03  1.00000000e+00 
 1.00000000e-02  1.94958898e-03  1.94958898e-03  1.94958898e-03  1.94958898e-03  1.94958898e-03  1.94958898e-03  1.94958898e-03  1.16630677e-14 -4.31187155e-03  1.00000000e+00 
 2.00000000e-02  3.89690241e-03  3.89690241e-03  3.89690241e-03  3.89690241e-03  3.89690241e-03  3.89690241e-03  3.89690241e-03  2.27958698e-14 -3.89917536e-03  1.00000000e+00 
 3.00000000e-02  5.83865230e-03  5.83865231e-03  5.83865231e-03  5.83865231e-03  5.83865230e-03  5.83865231e-03  5.83865231e-03  3.35354250e-14 -3.50203554e-03  1.00000000e+00 
 4.00000000e-02  7.78011333e-03  7.78011334e-03  7.78011334e-03  7.78011334e-03  7.78011333e-03  7.78011334e-03  7.78011334e-03  4.39643269e-14 -3.12193911e-03  1.00000000e+00 
 5.00000000e-02  9.73552631e-03  9.73552632e-03  9.73552633e-03  9.73552633e-03  9.73552631e-03  9.73552632e-03  9.73552633e-03  5.41744953e-14 -2.76046657e-03  1.00000000e+00 
 6.00000000e-02  1.16837101e-02  1.16837102e-02  1.16837102e-02  1.16837102e-02  1.16837102e-02  1.16837102e-02  1.16837102e-02  6.42029650e-14 -2.41926108e-03  1.00000000e+00 
 7.00000000e-02  1.36358762e-02  1.36358762e-02  1.36358762e-02  1.36358763e-02  1.36358762e-02  1.36358762e-02  1.36358762e-02  7.40965093e-14 -2.09999058e-03  1.00000000e+00 
 8.00000000e-02  1.55878804e-02  1.55878804e-02  1.55878805e-02  1.55878805e-02  1.55878804e-02  1.55878804e-02  1.55878805e-02  8.39298645e-14 -1.80422362e-03  1.00000000e+00 
 9.00000000e-02  1.75567772e-02  1.75567772e-02  1.75567772e-02  1.75567772e-02  1.75567772e-02  1.75567772e-02  1.75567772e-02  9.36497389e-14 -1.53337684e-03  1.00000000e+00 
 1.00000000e-01  1.95217623e-02  1.95217623e-02  1.95217623e-02  1.95217623e-02  1.95217623e-02  1.95217623e-02  1.95217623e-02  1.03340330e-13 -1.28854737e-03  1.00000000e+00 
 1.10000000e-01  2.14860416e-02  2.14860416e-02  2.14860416e-02  2.14860416e-02  2.14860416e-02  2.14860416e-02  2.14860416e-02  1.13014173e-13 -1.07040704e-03  1.00000000e+00 
 1.20000000e-01  2.34420460e-02  2.34420460e-02  2.34420460e-02  2.34420460e-02  2.34420460e-02  2.34420460e-02  2.34420460e-02  1.22605269e-13 -8.79051621e-04  1.00000000e+00 
 1.30000000e-01  2.53868133e-02  2.53868134e-02  2.53868134e-02  2.53868134e-02  2.53868133e-02  2.53868134e-02  2.53868134e-02  1.32200252e-13 -7.13900628e-04  1.00000000e+00 
 1.40000000e-01  2.73698796e-02  2.73698797e-02  2.73698797e-02  2.73698797e-02  2.73698796e-02  2.73698797e-02  2.73698797e-02  1.41721904e-13 -5.73736767e-04  1.00000000e+00 
 1.50000000e-01  2.93065036e-02  2.93065036e-02  2.93065036e-02  2.93065036e-02  2.93065036e-02  2.93065036e-02  2.93065036e-02  1.51286529e-13 -4.56805935e-04  1.00000000e+00 
 1.60000000e-01  3.12312718e-02  3.12312718e-02  3.12312719e-02  3.12312719e-02  3.12312718e-02  3.12312718e-02  3.12312719e-02  1.60850850e-13 -3.60707450e-04  1.00000000e+00 
 1.70000000e-01  3.31793029e-02  3.31793029e-02  3.31793029e-02  3.31793029e-02  3.31793029e-02  3.31793029e-02  3.31793029e-02  1.70480099e-13 -2.82888686e-04  1.00000000e+00 
 1.80000000e-01  3.50593283e-02  3.50593284e-02  3.50593284e-02  3.50593284e-02  3.50593283e-02  3.50593284e-02  3.50593284e-02  1.80042894e-13 -2.20675169e-04  1.00000000e+00 
 1.90000000e-01  3.69830475e-02  3.69830475e-02  3.69830475e-02  3.69830475e-02  3.69830475e-02  3.69830475e-02  3.69830475e-02  1.89573004e-13 -1.71479955e-04  1.00000000e+00 
 2.00000000e-01  3.88574152e-02  3.88574152e-02  3.88574152e-02  3.88574153e-02  3.88574152e-02  3.88574152e-02  3.88574152e-02  1.99141206e-13 -1.32908631e-04  1.00000000e+00 
 2.10000000e-01  4.06727549e-02  4.06727549e-02  4.06727549e-02  4.06727549e-02  4.06727549e-02  4.06727549e-02  4.06727549e-02  2.08675131e-13 -1.02862766e-04  1.00000000e+00 
 2.20000000e-01  4.24962800e-02  4.24962800e-02  4.24962801e-02  4.24962801e-02  4.24962800e-02  4.24962800e-02  4.24962801e-02  2.18235038e-13 -7.95783359e-05  1.00000000e+00 
 2.30000000e-01  4.42883223e-02  4.42883223e-02  4.42883223e-02  4.42883224e-02  4.42883223e-02  4.42883223e-02  4.42883223e-02  2.27914434e-13 -6.15985477e-05  1.00000000e+00 
 2.40000000e-01  4.60737555e-02  4.60737555e-02  4.60737555e-02  4.60737555e-02  4.60737555e-02  4.60737555e-02  4.60737555e-02  2.37529800e-13 -4.77294699e-05  1.00000000e+00 
 2.50000000e-01  4.77745666e-02  4.77745666e-02  4.77745667e-02  4.77745667e-02  4.77745666e-02  4.77745666e-02  4.77745667e-02  2.47181122e-13 -3.70349261e-05  1.00000000e+00 
 2.60000000e-01  4.94609500e-02  4.94609501e-02  4.94609501e-02  4.94609501e-02  4.94609500e-02  4.94609501e-02  4.94609501e-02  2.57028625e-13 -2.87955308e-05  1.00000000e+00 
 2.70000000e-01  5.11303535e-02  5.11303535e-02  5.11303535e-02  5.11303535e-02  5.11303535e-02  5.11303535e-02  5.11303535e-02  2.66908659e-13 -2.24258608e-05  1.00000000e+00 
 2.80000000e-01  5.27469183e-02  5.27469183e-02  5.27469183e-02  5.27469184e-02  5.27469183e-02  5.27469183e-02  5.27469183e-02  2.76863894e-13 -1.75111005e-05  1.00000000e+00 
 2.90000000e-01  5.43354628e-02  5.43354628e-02  5.43354628e-02  5.43354628e-02  5.43354628e-02  5.43354628e-02  5.43354628e-02  2.86976182e-13 -1.36998113e-05  1.00000000e+00 
 3.00000000e-01  5.58674811e-02  5.58674812e-02  5.58674812e-02  5.58674812e-02  5.58674811e-02  5.58674812e-02  5.58674812e-02  2.97392298e-13 -1.07333597e-05  1.00000000e+00 
 3.10000000e-01  5.74228059e-02  5.74228059e-02  5.74228059e-02  5.74228059e-02  5.74228059e-02  5.74228059e-02  5.74228059e-02  3.08225402e-13 -8.43876303e-06  1.00000000e+00 
 3.20000000e-01  5.88906869e-02  5.88906870e-02  5.88906870e-02  5.88906870e-02  5.88906870e-02  5.88906870e-02  5.88906870e-02  3.19353170e-13 -6.63668609e-06  1.00000000e+00 
 3.30000000e-01  6.03571491e-02  6.03571492e-02  6.03571492e-02  6.03571492e-02  6.03571491e-02  6.03571492e-02  6.03571492e-02  3.31036779e-13 -5.24072638e-06  1.00000000e+00 
 3.40000000e-01  6.17999060e-02  6.17999060e-02  6.17999060e-02  6.17999060e-02  6.17999060e-02  6.17999060e-02  6.17999060e-02  3.43455570e-13 -4.13580300e-06  1.00000000e+00 
 3.50000000e-01  6.31878076e-02  6.31878076e-02  6.31878076e-02  6.31878077e-02  6.31878076e-02  6.31878076e-02  6.31878076e-02  3.57265881e-13 -3.26849604e-06  1.00000000e+00 
 3.60000000e-01  6.46033719e-02  6.46033719e-02  6.46033719e-02  6.46033720e-02  6.46033719e-02  6.46033719e-02  6.46033719e-02  3.72307630e-13 -2.58750856e-06  1.00000000e+00 
 3.70000000e-01  6.59565991e-02  6.59565991e-02  6.59565992e-02  6.59565992e-02  6.59565991e-02  6.59565991e-02  6.59565992e-02  3.89543102e-13 -2.04845755e-06  1.00000000e+00 
 3.80000000e-01  6.72990028e-02  6.72990028e-02  6.72990028e-02  6.72990029e-02  6.72990028e-02  6.72990028e-02  6.72990028e-02  4.09573771e-13 -1.62125477e-06  1.00000000e+00 
 3.90000000e-01  6.86248676e-02  6.86248677e-02  6.86248677e-02  6.86248677e-02  6.86248677e-02  6.86248677e-02  6.86248677e-02  4.33411313e-13 -1.28231378e-06  1.00000000e+00 
 4.00000000e-01  6.99665209e-02  6.99665210e-02  6.99665210e-02  6.99665210e-02  6.99665209e-02  6.99665210e-02  6.99665210e-02  4.62328723e-13 -1.01732192e-06  1.00000000e+00 
 4.10000000e-01  7.12972519e-02  7.12972519e-02  7.12972519e-02  7.12972519e-02  7.12972519e-02  7.12972519e-02  7.12972519e-02  4.98349517e-13 -8.06536391e-07  1.00000000e+00 
 4.20000000e-01  7.26778639e-02  7.26778639e-02  7.26778639e-02  7.26778639e-02  7.26778639e-02  7.26778639e-02  7.26778639e-02  5.43801373e-13 -6.39752400e-07  1.00000000e+00 
 4.30000000e-01  7.40224235e-02  7.40224235e-02  7.40224235e-02  7.40224235e-02  7.40224235e-02  7.40224235e-02  7.40224235e-02  6.02417562e-13 -5.07420822e-07  1.00000000e+00 
 4.40000000e-01  7.54736913e-02  7.54736913e-02  7.54736913e-02  7.54736914e-02  7.54736913e-02  7.54736913e-02  7.54736913e-02  6.78136439e-13 -4.03125398e-07  1.00000000e+00 
 4.50000000e-01  7.69733948e-02  7.69733948e-02  7.69733949e-02  7.69733949e-02  7.69733948e-02  7.69733948e-02  7.69733949e-02  7.78211757e-13 -3.21018376e-07  1.00000000e+00 
 4.60000000e-01  7.86011157e-02  7.86011157e-02  7.86011157e-02  7.86011158e-02  7.86011157e-02  7.86011157e-02  7.86011157e-02  9.10330425e-13 -2.55973262e-07  1.00000000e+00 
 4.70000000e-01  8.03719776e-02  8.03719777e-02  8.03719777e-02  8.03719777e-02  8.03719776e-02  8.03719777e-02  8.03719777e-02  1.08661734e-12 -2.04840902e-07  1.00000000e+00 
 4.80000000e-01  8.23403451e-02  8.23403451e-02  8.23403452e-02  8.23403452e-02  8.23403451e-02  8.23403451e-02  8.23403452e-02  1.32337531e-12 -1.63201321e-07  1.00000000e+00 
 4.90000000e-01  8.45344191e-02  8.45344191e-02  8.45344191e-02  8.45344192e-02  8.45344191e-02  8.45344191e-02  8.45344191e-02  1.64170966e-12 -1.28534936e-07  1.00000000e+00 
 5.00000000e-01  8.71127052e-02  8.71127052e-02  8.71127052e-02  8.71127052e-02  8.71127052e-02  8.71127052e-02  8.71127052e-02  2.07260118e-12 -9.96293608e-08  1.00000000e+00 
 5.10000000e-01  9.00804401e-02  9.00804401e-02  9.00804401e-02  9.00804401e-02  9.00804401e-02  9.00804401e-02  9.00804401e-02  2.65604404e-12 -7.63387078e-08  1.00000000e+00 
 5.20000000e-01  9.36089451e-02  9.36089451e-02  9.36089452e-02  9.36089452e-02  9.36089451e-02  9.36089451e-02  9.36089452e-02  3.44908204e-12 -5.80944004e-08  1.00000000e+00 
 5.30000000e-01  9.77088790e-02  9.77088790e-02  9.77088790e-02  9.77088791e-02  9.77088790e-02  9.77088790e-02  9.77088790e-02  4.52624090e-12 -4.40703758e-08  1.00000000e+00 
 5.40000000e-01  1.02526202e-01  1.02526202e-01  1.02526202e-01  1.02526202e-01  1.02526202e-01  1.02526202e-01  1.02526202e-01  5.98839923e-12 -3.33619568e-08  1.00000000e+00 
 5.50000000e-01  1.08100349e-01  1.08100349e-01  1.08100349e-01  1.08100349e-01  1.08100349e-01  1.08100349e-01  1.08100349e-01  7.96729227e-12 -2.52245087e-08  1.00000000e+00 
 5.60000000e-01  1.14421219e-01  1.14421219e-01  1.14421219e-01  1.14421219e-01  1.14421219e-01  1.14421219e-01  1.14421219e-01  1.06456794e-11 -1.90560172e-08  1.00000000e+00 
 5.70000000e-01  1.21504536e-01  1.21504536e-01  1.21504536e-01  1.21504536e-01  1.21504536e-01  1.21504536e-01  1.21504536e-01  1.42561907e-11 -1.43870693e-08  1.00000000e+00 
 5.80000000e-01  1.29270767e-01  1.29270767e-01  1.29270767e-01  1.29270767e-01  1.29270767e-01  1.29270767e-01  1.29270767e-01  1.91083131e-11 -1.08572209e-08  1.00000000e+00 
 5.90000000e-01  1.37617078e-01  1.37617078e-01  1.37617079e-01  1.37617079e-01  1.37617078e-01  1.37617078e-01  1.37617079e-01  2.56226360e-11 -8.19095192e-09  1.00000000e+00 
 6.00000000e-01  1.46477124e-01  1.46477125e-01  1.46477125e-01  1.46477125e-01  1.46477125e-01  1.46477125e-01  1.46477125e-01  3.43423864e-11 -6.17851015e-09  1.00000000e+00 
 6.10000000e-01  1.55755465e-01  1.55755465e-01  1.55755466e-01  1.55755466e-01  1.55755465e-01  1.55755465e-01  1.55755466e-01  4.59931745e-11 -4.66047823e-09  1.00000000e+00 
 6.20000000e-01  1.65320544e-01  1.65320544e-01  1.65320544e-01  1.65320544e-01  1.65320544e-01  1.65320544e-01  1.65320544e-01  6.15042010e-11 -3.51612073e-09  1.00000000e+00 
 6.30000000e-01  1.75088993e-01  1.75088993e-01  1.75088993e-01  1.75088993e-01  1.75088993e-01  1.75088993e-01  1.75088993e-01  8.20688307e-11 -2.65389133e-09  1.00000000e+00 
 6.40000000e-01  1.84992121e-01  1.84992121e-01  1.84992121e-01  1.84992121e-01  1.84992121e-01  1.84992121e-01  1.84992121e-01  1.09231459e-10 -2.00476791e-09  1.00000000e+00 
 6.50000000e-01  1.94943433e-01  1.94943434e-01  1.94943434e-01  1.94943434e-01  1.94943433e-01  1.94943434e-01  1.94943434e-01  1.44937137e-10 -1.51653978e-09  1.00000000e+00 
 6.60000000e-01  2.04892407e-01  2.04892407e-01  2.04892407e-01  2.04892407e-01  2.04892407e-01  2.04892407e-01  2.04892407e-01  1.91635056e-10 -1.15015553e-09  1.00000000e+00 
 6.70000000e-01  2.14791137e-01  2.14791137e-01  2.14791137e-01  2.14791137e-01  2.14791137e-01  2.14791137e-01  2.14791137e-01  2.52375581e-10 -8.75786554e-10  1.00000000e+00 
 6.80000000e-01  2.24602947e-01  2.24602947e-01  2.24602947e-01  2.24602947e-01  2.24602947e-01  2.24602947e-01  2.24602947e-01  3.30859885e-10 -6.71519729e-10  1.00000000e+00 
 6.90000000e-01  2.34297020e-01  2.34297020e-01  2.34297020e-01  2.34297020e-01  2.34297020e-01  2.34297020e-01  2.34297020e-01  4.31740317e-10 -5.20515187e-10  1.00000000e+00 
 7.00000000e-01  2.43849471e-01  2.43849471e-01  2.43849471e-01  2.43849471e-01  2.43849471e-01  2.43849471e-01  2.43849471e-01  5.60482711e-10 -4.10551593e-10  1.00000000e+00 
 7.10000000e-01  2.53239164e-01  2.53239164e-01  2.53239164e-01  2.53239164e-01  2.53239164e-01  2.53239164e-01  2.53239164e-01  7.23678225e-10 -3.32406103e-10  1.00000000e+00 
 7.20000000e-01  2.62453087e-01  2.62453087e-01  2.62453087e-01  2.62453087e-01  2.62453087e-01  2.62453087e-01  2.62453087e-01  9.29124815e-10 -2.79371193e-10  1.00000000e+00 
 7.30000000e-01  2.71479112e-01  2.71479112e-01  2.71479112e-01  2.71479112e-01  2.71479112e-01  2.71479112e-01  2.71479112e-01  1.18598969e-09 -2.46728860e-10  1.00000000e+00 
 7.40000000e-01  2.80312052e-01  2.80312052e-01  2.80312052e-01  2.80312052e-01  2.80312052e-01  2.80312052e-01  2.80312052e-01  1.50493660e-09 -2.31011654e-10  1.00000000e+00 
 7.50000000e-01  2.88949189e-01  2.88949189e-01  2.88949189e-01  2.88949189e-01  2.88949189e-01  2.88949189e-01  2.88949189e-01  1.89832712e-09 -2.29817942e-10  1.00000000e+00 
 7.60000000e-01  2.97391925e-01  2.97391925e-01  2.97391925e-01  2.97391925e-01  2.97391925e-01  2.97391925e-01  2.97391925e-01  2.38043592e-09 -2.41811904e-10  1.00000000e+00 
 7.70000000e-01  3.05643013e-01  3.05643013e-01  3.05643013e-01  3.05643013e-01  3.05643013e-01  3.05643013e-01  3.05643013e-01  2.96775376e-09 -2.66055622e-10  1.00000000e+00 
 7.80000000e-01  3.13710370e-01  3.13710370e-01  3.13710370e-01  3.13710370e-01  3.13710370e-01  3.13710370e-01  3.13710370e-01  3.67933120e-09 -3.01426439e-10  1.00000000e+00 
 7.90000000e-01  3.21602991e-01  3.21602991e-01  3.21602991e-01  3.21602991e-01  3.21602991e-01  3.21602991e-01  3.21602991e-01  4.53719749e-09 -3.45551143e-10  1.00000000e+00 
 8.00000000e-01  3.29333238e-01  3.29333238e-01  3.29333238e-01  3.29333238e-01  3.29333238e-01  3.29333238e-01  3.29333238e-01  5.56691733e-09 -3.88084231e-10  1.00000000e+00 
 8.10000000e-01  3.36914070e-01  3.36914070e-01  3.36914070e-01  3.36914070e-01  3.36914070e-01  3.36914070e-01  3.36914070e-01  6.79832379e-09 -4.05236733e-10  1.00000000e+00 
 8.20000000e-01  3.44360408e-01  3.44360408e-01  3.44360408e-01  3.44360408e-01  3.44360408e-01  3.44360408e-01  3.44360408e-01  8.26634475e-09 -3.81973564e-10  1.00000000e+00 
 8.30000000e-01  3.51687599e-01  3.51687599e-01  3.51687599e-01  3.51687599e-01  3.51687599e-01  3.51687599e-01  3.51687599e-01  1.00119458e-08 -3.30715011e-10  1.00000000e+00 
 8.40000000e-01  3.58911542e-01  3.58911542e-01  3.58911542e-01  3.58911542e-01  3.58911542e-01  3.58911542e-01  3.58911542e-01  1.20836285e-08 -2.70603095e-10  1.00000000e+00 
 8.50000000e-01  3.66048595e-01  3.66048595e-01  3.66048595e-01  3.66048595e-01  3.66048595e-01  3.66048595e-01  3.66048595e-01  1.45386795e-08 -2.14271267e-10  1.00000000e+00 
 8.60000000e-01  3.73114258e-01  3.73114258e-01  3.73114258e-01  3.73114258e-01  3.73114258e-01  3.73114258e-01  3.73114258e-01  1.74451333e-08 -1.66309633e-10  1.00000000e+00 
 8.70000000e-01  3.80124081e-01  3.80124081e-01  3.80124081e-01  3.80124081e-01  3.80124081e-01  3.80124081e-01  3.80124081e-01  2.08840163e-08 -1.27613475e-10  1.00000000e+00 
 8.80000000e-01  3.87092674e-01  3.87092674e-01  3.87092675e-01  3.87092675e-01  3.87092674e-01  3.87092674e-01  3.87092675e-01  2.49518697e-08 -9.72022463e-11  1.00000000e+00 
 8.90000000e-01  3.94034021e-01  3.94034021e-01  3.94034021e-01  3.94034021e-01  3.94034021e-01  3.94034021e-01  3.94034021e-01  2.97638663e-08 -7.37259143e-11  1.00000000e+00 
 9.00000000e-01  4.00960938e-01  4.00960938e-01  4.00960938e-01  4.00960938e-01  4.00960938e-01  4.00960938e-01  4.00960938e-01  3.54576927e-08 -5.57491830e-11  1.00000000e+00 
 9.10000000e-01  4.07885017e-01  4.07885017e-01  4.07885017e-01  4.07885017e-01  4.07885017e-01  4.07885017e-01  4.07885017e-01  4.21975457e-08 -4.21209734e-11  1.00000000e+00 
 9.20000000e-01  4.14816359e-01  4.14816360e-01  4.14816360e-01  4.14816360e-01  4.14816359e-01  4.14816360e-01  4.14816360e-01  5.01794220e-08 -3.17186277e-11  1.00000000e+00 
 9.30000000e-01  4.21763448e-01  4.21763448e-01  4.21763448e-01  4.21763448e-01  4.21763448e-01  4.21763448e-01  4.21763448e-01  5.96365817e-08 -2.38600251e-11  1.00000000e+00 
 9.40000000e-01  4.28732706e-01  4.28732706e-01  4.28732706e-01  4.28732706e-01  4.28732706e-01  4.28732706e-01  4.28732706e-01  7.08457162e-08 -1.78630444e-11  1.00000000e+00 
 9.50000000e-01  4.35728191e-01  4.35728191e-01  4.35728191e-01  4.35728191e-01  4.35728191e-01  4.35728191e-01  4.35728191e-01  8.41335106e-08 -1.33582034e-11  1.00000000e+00 
 9.60000000e-01  4.42751256e-01  4.42751256e-01  4.42751257e-01  4.42751257e-01  4.42751256e-01  4.42751256e-01  4.42751257e-01  9.98828575e-08 -9.79127890e-12  1.00000000e+00 
 9.70000000e-01  4.49800091e-01  4.49800091e-01  4.49800091e-01  4.49800091e-01  4.49800091e-01  4.49800091e-01  4.49800091e-01  1.18538293e-07 -7.06279479e-12  1.00000000e+00 
 9.80000000e-01  4.56869314e-01  4.56869314e-01  4.56869314e-01  4.56869314e-01  4.56869314e-01  4.56869314e-01  4.56869314e-01  1.40609608e-07 -4.88853402e-12  1.00000000e+00 
 9.90000000e-01  4.63949663e-01  4.63949663e-01  4.63949663e-01  4.63949663e-01  4.63949663e-01  4.63949663e-01  4.63949663e-01  1.66671577e-07 -3.21165317e-12  1.00000000e+00 
 1.00000000e+00  4.71027522e-01  4.71027522e-01  4.71027522e-01  4.71027522e-01  4.71027522e-01  4.71027522e-01  4.71027522e-01  1.97358195e-07 -1.80477855e-12  1.00000000e+00 
 1.01000000e+00  4.78084619e-01  4.78084619e-01  4.78084619e-01  4.78084619e-01  4.78084619e-01  4.78084619e-01  4.78084619e-01  2.33347802e-07 -6.11066753e-13  1.00000000e+00 
 1.02000000e+00  4.85097813e-01  4.85097813e-01  4.85097813e-01  4.85097813e-01  4.85097813e-01  4.85097813e-01  4.85097813e-01  2.75336614e-07  4.40536496e-13  1.00000000e+00 
 1.03000000e+00  4.92038786e-01  4.92038786e-01  4.92038786e-01  4.92038786e-01  4.92038786e-01  4.92038786e-01  4.92038786e-01  3.23995685e-07  1.52056145e-12  1.00000000e+00 
 1.04000000e+00  4.98873872e-01  4.98873872e-01  4.98873872e-01  4.98873872e-01  4.98873872e-01  4.98873872e-01  4.98873872e-01  3.79908380e-07  2.50111043e-12  1.00000000e+00 
 1.05000000e+00  5.05563913e-01  5.05563913e-01  5.05563914e-01  5.05563914e-01  5.05563913e-01  5.05563913e-01  5.05563914e-01  4.43486234e-07  3.52429197e-12  1.00000000e+00 
 1.06000000e+00  5.12064522e-01  5.12064522e-01  5.12064522e-01  5.12064522e-01  5.12064522e-01  5.12064522e-01  5.12064522e-01  5.14865835e-07  4.63273864e-12  1.00000000e+00 
 1.07000000e+00  5.18326829e-01  5.18326829e-01  5.18326829e-01  5.18326829e-01  5.18326829e-01  5.18326829e-01  5.18326829e-01  5.93798447e-07  5.71276360e-12  1.00000000e+00 
 1.08000000e+00  5.24299423e-01  5.24299423e-01  5.24299423e-01  5.24299423e-01  5.24299423e-01  5.24299423e-01  5.24299423e-01  6.79555443e-07  6.90647539e-12  1.00000000e+00 
 1.09000000e+00  5.29931543e-01  5.29931543e-01  5.29931543e-01  5.29931543e-01  5.29931543e-01  5.29931543e-01  5.29931543e-01  7.70883922e-07  8.22808488e-12  1.00000000e+00 
 1.10000000e+00  5.35177085e-01  5.35177085e-01  5.35177085e-01  5.35177085e-01  5.35177085e-01  5.35177085e-01  5.35177085e-01  8.66038075e-07  9.72022463e-12  1.00000000e+00 
