 v-sweep         v(b0)           v(b1)           v(b2)           v(b3)           v(b4)           v(b5)           v(b6)           i(vbias)        i(viout)        v(vout)        
 0.00000000e+00 -3.23209076e-20 -3.23209076e-20 -3.23209076e-20 -3.23209076e-20 -3.23209076e-20 -3.23209076e-20 -3.23209076e-20 -3.26325789e-29 -5.45107497e-08  5.00000000e-01 
 1.00000000e-02  1.99635213e-03  1.99635213e-03  1.99635213e-03  1.99635213e-03  1.99635213e-03  1.99635213e-03  1.99635213e-03  1.16468506e-14 -4.11409786e-08  5.00000000e-01 
 2.00000000e-02  3.98546423e-03  3.98546423e-03  3.98546423e-03  3.98546423e-03  3.98546423e-03  3.98546423e-03  3.98546423e-03  2.27693099e-14 -3.10670742e-08  5.00000000e-01 
 3.00000000e-02  5.97186620e-03  5.97186620e-03  5.97186620e-03  5.97186619e-03  5.97186619e-03  5.97186619e-03  5.97186619e-03  3.34889695e-14 -2.34742430e-08  5.00000000e-01 
 4.00000000e-02  7.95684899e-03  7.95684899e-03  7.95684900e-03  7.95684899e-03  7.95684899e-03  7.95684899e-03  7.95684899e-03  4.39333264e-14 -1.77493718e-08  5.00000000e-01 
 5.00000000e-02  9.94880753e-03  9.94880753e-03  9.94880753e-03  9.94880753e-03  9.94880753e-03  9.94880753e-03  9.94880752e-03  5.41257145e-14 -1.34310483e-08  5.00000000e-01 
 6.00000000e-02  1.19357615e-02  1.19357615e-02  1.19357615e-02  1.19357615e-02  1.19357615e-02  1.19357615e-02  1.19357615e-02  6.41286345e-14 -1.01719024e-08  5.00000000e-01 
 7.00000000e-02  1.39295502e-02  1.39295502e-02  1.39295502e-02  1.39295502e-02  1.39295502e-02  1.39295502e-02  1.39295502e-02  7.40135369e-14 -7.71102293e-09  5.00000000e-01 
 8.00000000e-02  1.59141970e-02  1.59141970e-02  1.59141970e-02  1.59141970e-02  1.59141970e-02  1.59141970e-02  1.59141970e-02  8.38123258e-14 -5.85171733e-09  5.00000000e-01 
 9.00000000e-02  1.79113370e-02  1.79113370e-02  1.79113370e-02  1.79113370e-02  1.79113370e-02  1.79113370e-02  1.79113370e-02  9.35446060e-14 -4.44619275e-09  5.00000000e-01 
 1.00000000e-01  1.99027459e-02  1.99027459e-02  1.99027459e-02  1.99027459e-02  1.99027459e-02  1.99027459e-02  1.99027459e-02  1.03171945e-13 -3.38272343e-09  5.00000000e-01 
 1.10000000e-01  2.18927421e-02  2.18927421e-02  2.18927421e-02  2.18927421e-02  2.18927421e-02  2.18927421e-02  2.18927421e-02  1.12857687e-13 -2.57763588e-09  5.00000000e-01 
 1.20000000e-01  2.38910463e-02  2.38910463e-02  2.38910463e-02  2.38910463e-02  2.38910463e-02  2.38910463e-02  2.38910463e-02  1.22440317e-13 -1.96781968e-09  5.00000000e-01 
 1.30000000e-01  2.58728406e-02  2.58728406e-02  2.58728406e-02  2.58728406e-02  2.58728406e-02  2.58728406e-02  2.58728406e-02  1.32017213e-13 -1.50532742e-09  5.00000000e-01 
 1.40000000e-01  2.78532327e-02  2.78532327e-02  2.78532327e-02  2.78532327e-02  2.78532327e-02  2.78532327e-02  2.78532327e-02  1.41587719e-13 -1.15414878e-09  5.00000000e-01 
 1.50000000e-01  2.98180715e-02  2.98180715e-02  2.98180715e-02  2.98180715e-02  2.98180715e-02  2.98180715e-02  2.98180715e-02  1.51182682e-13 -8.87197871e-10  5.00000000e-01 
 1.60000000e-01  3.17744971e-02  3.17744971e-02  3.17744971e-02  3.17744971e-02  3.17744970e-02  3.17744970e-02  3.17744970e-02  1.60659784e-13 -6.83826329e-10  5.00000000e-01 
 1.70000000e-01  3.37160644e-02  3.37160643e-02  3.37160644e-02  3.37160643e-02  3.37160643e-02  3.37160643e-02  3.37160643e-02  1.70235974e-13 -5.28899591e-10  5.00000000e-01 
 1.80000000e-01  3.56648776e-02  3.56648776e-02  3.56648776e-02  3.56648776e-02  3.56648776e-02  3.56648776e-02  3.56648776e-02  1.79791579e-13 -4.10594225e-10  5.00000000e-01 
 1.90000000e-01  3.75447206e-02  3.75447206e-02  3.75447206e-02  3.75447206e-02  3.75447206e-02  3.75447206e-02  3.75447206e-02  1.89253696e-13 -3.19971605e-10  5.00000000e-01 
 2.00000000e-01  3.94346889e-02  3.94346889e-02  3.94346889e-02  3.94346889e-02  3.94346889e-02  3.94346889e-02  3.94346889e-02  1.98945845e-13 -2.50466314e-10  5.00000000e-01 
 2.10000000e-01  4.12940725e-02  4.12940725e-02  4.12940725e-02  4.12940725e-02  4.12940725e-02  4.12940725e-02  4.12940725e-02  2.08481322e-13 -1.97005079e-10  5.00000000e-01 
 2.20000000e-01  4.30899256e-02  4.30899256e-02  4.30899256e-02  4.30899256e-02  4.30899256e-02  4.30899256e-02  4.30899255e-02  2.17970422e-13 -1.55736757e-10  5.00000000e-01 
 2.30000000e-01  4.48904681e-02  4.48904681e-02  4.48904681e-02  4.48904680e-02  4.48904680e-02  4.48904680e-02  4.48904680e-02  2.27579181e-13 -1.23790755e-10  5.00000000e-01 
 2.40000000e-01  4.66572416e-02  4.66572415e-02  4.66572416e-02  4.66572415e-02  4.66572415e-02  4.66572415e-02  4.66572415e-02  2.37235489e-13 -9.89217597e-11  5.00000000e-01 
 2.50000000e-01  4.83913454e-02  4.83913454e-02  4.83913454e-02  4.83913454e-02  4.83913454e-02  4.83913454e-02  4.83913454e-02  2.46870273e-13 -7.95381538e-11  5.00000000e-01 
 2.60000000e-01  5.00770057e-02  5.00770057e-02  5.00770057e-02  5.00770057e-02  5.00770057e-02  5.00770057e-02  5.00770057e-02  2.56692422e-13 -6.43893827e-11  5.00000000e-01 
 2.70000000e-01  5.17306271e-02  5.17306271e-02  5.17306271e-02  5.17306271e-02  5.17306271e-02  5.17306271e-02  5.17306270e-02  2.66484128e-13 -5.23527888e-11  5.00000000e-01 
 2.80000000e-01  5.33628659e-02  5.33628659e-02  5.33628659e-02  5.33628659e-02  5.33628659e-02  5.33628659e-02  5.33628658e-02  2.76517600e-13 -4.28883595e-11  5.00000000e-01 
 2.90000000e-01  5.49304272e-02  5.49304272e-02  5.49304272e-02  5.49304272e-02  5.49304272e-02  5.49304272e-02  5.49304272e-02  2.86614953e-13 -3.53423957e-11  5.00000000e-01 
 3.00000000e-01  5.64912003e-02  5.64912003e-02  5.64912003e-02  5.64912003e-02  5.64912003e-02  5.64912003e-02  5.64912002e-02  2.96981794e-13 -2.93027824e-11  5.00000000e-01 
 3.10000000e-01  5.80251020e-02  5.80251020e-02  5.80251020e-02  5.80251020e-02  5.80251019e-02  5.80251019e-02  5.80251019e-02  3.07602358e-13 -2.44142484e-11  5.00000000e-01 
 3.20000000e-01  5.95067210e-02  5.95067210e-02  5.95067210e-02  5.95067210e-02  5.95067210e-02  5.95067210e-02  5.95067210e-02  3.18593423e-13 -2.04494199e-11  5.00000000e-01 
 3.30000000e-01  6.09765562e-02  6.09765562e-02  6.09765562e-02  6.09765562e-02  6.09765562e-02  6.09765562e-02  6.09765562e-02  3.30387876e-13 -1.72235559e-11  5.00000000e-01 
 3.40000000e-01  6.23912852e-02  6.23912852e-02  6.23912852e-02  6.23912852e-02  6.23912852e-02  6.23912852e-02  6.23912851e-02  3.42756497e-13 -1.45803369e-11  5.00000000e-01 
 3.50000000e-01  6.37885645e-02  6.37885645e-02  6.37885645e-02  6.37885645e-02  6.37885645e-02  6.37885645e-02  6.37885644e-02  3.56227963e-13 -1.23634436e-11  5.00000000e-01 
 3.60000000e-01  6.51829700e-02  6.51829700e-02  6.51829700e-02  6.51829700e-02  6.51829700e-02  6.51829700e-02  6.51829700e-02  3.71106242e-13 -1.05728759e-11  5.00000000e-01 
 3.70000000e-01  6.65268042e-02  6.65268042e-02  6.65268042e-02  6.65268042e-02  6.65268042e-02  6.65268042e-02  6.65268042e-02  3.88129351e-13 -9.02389274e-12  5.00000000e-01 
 3.80000000e-01  6.78592765e-02  6.78592765e-02  6.78592765e-02  6.78592764e-02  6.78592764e-02  6.78592764e-02  6.78592764e-02  4.07778690e-13 -7.71649411e-12  5.00000000e-01 
 3.90000000e-01  6.91992857e-02  6.91992857e-02  6.91992857e-02  6.91992857e-02  6.91992857e-02  6.91992857e-02  6.91992857e-02  4.31135098e-13 -6.66489086e-12  5.00000000e-01 
 4.00000000e-01  7.05240750e-02  7.05240750e-02  7.05240751e-02  7.05240750e-02  7.05240750e-02  7.05240750e-02  7.05240750e-02  4.59387350e-13 -5.74118530e-12  5.00000000e-01 
 4.10000000e-01  7.18921540e-02  7.18921540e-02  7.18921540e-02  7.18921540e-02  7.18921540e-02  7.18921540e-02  7.18921540e-02  4.94514897e-13 -4.97379915e-12  5.00000000e-01 
 4.20000000e-01  7.32189793e-02  7.32189793e-02  7.32189793e-02  7.32189793e-02  7.32189793e-02  7.32189793e-02  7.32189793e-02  5.38751156e-13 -4.36273240e-12  5.00000000e-01 
 4.30000000e-01  7.45946934e-02  7.45946934e-02  7.45946934e-02  7.45946933e-02  7.45946933e-02  7.45946933e-02  7.45946933e-02  5.95527910e-13 -3.85114163e-12  5.00000000e-01 
 4.40000000e-01  7.60527709e-02  7.60527709e-02  7.60527709e-02  7.60527709e-02  7.60527709e-02  7.60527709e-02  7.60527709e-02  6.69308637e-13 -3.42481599e-12  5.00000000e-01 
 4.50000000e-01  7.75725991e-02  7.75725991e-02  7.75725991e-02  7.75725991e-02  7.75725990e-02  7.75725990e-02  7.75725990e-02  7.65930119e-13 -3.06954462e-12  5.00000000e-01 
 4.60000000e-01  7.92095804e-02  7.92095804e-02  7.92095804e-02  7.92095804e-02  7.92095804e-02  7.92095804e-02  7.92095804e-02  8.94282945e-13 -2.72848411e-12  5.00000000e-01 
 4.70000000e-01  8.09973361e-02  8.09973361e-02  8.09973361e-02  8.09973361e-02  8.09973361e-02  8.09973361e-02  8.09973360e-02  1.06493624e-12 -2.38742359e-12  5.00000000e-01 
 4.80000000e-01  8.29604341e-02  8.29604341e-02  8.29604341e-02  8.29604341e-02  8.29604341e-02  8.29604341e-02  8.29604341e-02  1.29377129e-12 -1.81898940e-12  5.00000000e-01 
 4.90000000e-01  8.52009377e-02  8.52009377e-02  8.52009377e-02  8.52009377e-02  8.52009377e-02  8.52009377e-02  8.52009377e-02  1.60283601e-12 -1.02318154e-12  5.00000000e-01 
 5.00000000e-01  8.77919984e-02  8.77919984e-02  8.77919984e-02  8.77919984e-02  8.77919984e-02  8.77919984e-02  8.77919984e-02  2.02081144e-12  0.00000000e+00  5.00000000e-01 
 5.10000000e-01  9.08259522e-02  9.08259522e-02  9.08259522e-02  9.08259522e-02  9.08259522e-02  9.08259522e-02  9.08259522e-02  2.58731431e-12  1.19371180e-12  5.00000000e-01 
 5.20000000e-01  9.43835062e-02  9.43835062e-02  9.43835062e-02  9.43835062e-02  9.43835062e-02  9.43835062e-02  9.43835061e-02  3.35795492e-12  2.54374299e-12  5.00000000e-01 
 5.30000000e-01  9.85448546e-02  9.85448546e-02  9.85448546e-02  9.85448546e-02  9.85448546e-02  9.85448546e-02  9.85448546e-02  4.40563073e-12  3.95061761e-12  5.00000000e-01 
 5.40000000e-01  1.03396854e-01  1.03396854e-01  1.03396854e-01  1.03396854e-01  1.03396854e-01  1.03396854e-01  1.03396854e-01  5.82842623e-12  5.24380539e-12  5.00000000e-01 
 5.50000000e-01  1.09010028e-01  1.09010028e-01  1.09010028e-01  1.09010028e-01  1.09010028e-01  1.09010028e-01  1.09010028e-01  7.76018003e-12  6.52278231e-12  5.00000000e-01 
 5.60000000e-01  1.15364453e-01  1.15364453e-01  1.15364453e-01  1.15364453e-01  1.15364453e-01  1.15364453e-01  1.15364453e-01  1.03721946e-11  7.68807240e-12  5.00000000e-01 
 5.70000000e-01  1.22481984e-01  1.22481984e-01  1.22481984e-01  1.22481984e-01  1.22481984e-01  1.22481984e-01  1.22481984e-01  1.38999839e-11  8.82494078e-12  5.00000000e-01 
 5.80000000e-01  1.30251108e-01  1.30251108e-01  1.30251108e-01  1.30251108e-01  1.30251108e-01  1.30251108e-01  1.30251108e-01  1.86390248e-11  9.84812232e-12  5.00000000e-01 
 5.90000000e-01  1.38633306e-01  1.38633306e-01  1.38633306e-01  1.38633306e-01  1.38633306e-01  1.38633306e-01  1.38633306e-01  2.50075726e-11  1.07576170e-11  5.00000000e-01 
 6.00000000e-01  1.47474314e-01  1.47474314e-01  1.47474314e-01  1.47474314e-01  1.47474314e-01  1.47474314e-01  1.47474314e-01  3.35359626e-11  1.15960574e-11  5.00000000e-01 
 6.10000000e-01  1.56724963e-01  1.56724963e-01  1.56724963e-01  1.56724963e-01  1.56724963e-01  1.56724963e-01  1.56724963e-01  4.49249075e-11  1.22781785e-11  5.00000000e-01 
 6.20000000e-01  1.66262575e-01  1.66262575e-01  1.66262575e-01  1.66262575e-01  1.66262575e-01  1.66262575e-01  1.66262575e-01  6.00934593e-11  1.28324018e-11  5.00000000e-01 
 6.30000000e-01  1.76000891e-01  1.76000891e-01  1.76000891e-01  1.76000891e-01  1.76000891e-01  1.76000891e-01  1.76000891e-01  8.02347559e-11  1.32587274e-11  5.00000000e-01 
 6.40000000e-01  1.85855828e-01  1.85855828e-01  1.85855828e-01  1.85855828e-01  1.85855828e-01  1.85855828e-01  1.85855828e-01  1.06835747e-10  1.36282097e-11  5.00000000e-01 
 6.50000000e-01  1.95771797e-01  1.95771797e-01  1.95771797e-01  1.95771797e-01  1.95771797e-01  1.95771797e-01  1.95771797e-01  1.41815813e-10  1.39124268e-11  5.00000000e-01 
 6.60000000e-01  2.05683726e-01  2.05683726e-01  2.05683726e-01  2.05683726e-01  2.05683726e-01  2.05683726e-01  2.05683726e-01  1.87588870e-10  1.41398004e-11  5.00000000e-01 
 6.70000000e-01  2.15549296e-01  2.15549296e-01  2.15549296e-01  2.15549296e-01  2.15549296e-01  2.15549296e-01  2.15549296e-01  2.47133928e-10  1.43813850e-11  5.00000000e-01 
 6.80000000e-01  2.25330688e-01  2.25330688e-01  2.25330688e-01  2.25330688e-01  2.25330688e-01  2.25330688e-01  2.25330688e-01  3.24134292e-10  1.46229695e-11  5.00000000e-01 
 6.90000000e-01  2.34996554e-01  2.34996554e-01  2.34996554e-01  2.34996554e-01  2.34996554e-01  2.34996554e-01  2.34996554e-01  4.23152052e-10  1.48929757e-11  5.00000000e-01 
 7.00000000e-01  2.44523233e-01  2.44523233e-01  2.44523233e-01  2.44523233e-01  2.44523233e-01  2.44523233e-01  2.44523233e-01  5.49541284e-10  1.52198254e-11  5.00000000e-01 
 7.10000000e-01  2.53892236e-01  2.53892236e-01  2.53892236e-01  2.53892236e-01  2.53892236e-01  2.53892236e-01  2.53892236e-01  7.09835433e-10  1.55893076e-11  5.00000000e-01 
 7.20000000e-01  2.63089278e-01  2.63089278e-01  2.63089278e-01  2.63089278e-01  2.63089278e-01  2.63089278e-01  2.63089278e-01  9.11723273e-10  1.60298441e-11  5.00000000e-01 
 7.30000000e-01  2.72100589e-01  2.72100589e-01  2.72100589e-01  2.72100589e-01  2.72100589e-01  2.72100589e-01  2.72100589e-01  1.16421038e-09  1.65840675e-11  5.00000000e-01 
 7.40000000e-01  2.80923018e-01  2.80923018e-01  2.80923018e-01  2.80923018e-01  2.80923018e-01  2.80923018e-01  2.80923018e-01  1.47781613e-09  1.72235559e-11  5.00000000e-01 
 7.50000000e-01  2.89551833e-01  2.89551833e-01  2.89551833e-01  2.89551833e-01  2.89551833e-01  2.89551833e-01  2.89551833e-01  1.86473202e-09  1.80335746e-11  5.00000000e-01 
 7.60000000e-01  2.97987378e-01  2.97987378e-01  2.97987378e-01  2.97987378e-01  2.97987378e-01  2.97987378e-01  2.97987378e-01  2.33900997e-09  1.89430693e-11  5.00000000e-01 
 7.70000000e-01  3.06233407e-01  3.06233407e-01  3.06233407e-01  3.06233407e-01  3.06233407e-01  3.06233407e-01  3.06233407e-01  2.91692981e-09  1.99946726e-11  5.00000000e-01 
 7.80000000e-01  3.14295739e-01  3.14295739e-01  3.14295739e-01  3.14295739e-01  3.14295739e-01  3.14295739e-01  3.14295739e-01  3.61722144e-09  2.12736495e-11  5.00000000e-01 
 7.90000000e-01  3.22184004e-01  3.22184004e-01  3.22184004e-01  3.22184004e-01  3.22184004e-01  3.22184004e-01  3.22184004e-01  4.46157483e-09  2.27373675e-11  5.00000000e-01 
 8.00000000e-01  3.29908761e-01  3.29908761e-01  3.29908761e-01  3.29908761e-01  3.29908761e-01  3.29908761e-01  3.29908761e-01  5.47507648e-09  2.44000375e-11  5.00000000e-01 
 8.10000000e-01  3.37483011e-01  3.37483011e-01  3.37483011e-01  3.37483011e-01  3.37483011e-01  3.37483011e-01  3.37483011e-01  6.68708883e-09  2.63611355e-11  5.00000000e-01 
 8.20000000e-01  3.44920923e-01  3.44920923e-01  3.44920923e-01  3.44920923e-01  3.44920923e-01  3.44920923e-01  3.44920923e-01  8.13178597e-09  2.85922397e-11  5.00000000e-01 
 8.30000000e-01  3.52237269e-01  3.52237269e-01  3.52237269e-01  3.52237269e-01  3.52237269e-01  3.52237269e-01  3.52237269e-01  9.84936682e-09  3.12212478e-11  5.00000000e-01 
 8.40000000e-01  3.59447496e-01  3.59447496e-01  3.59447496e-01  3.59447496e-01  3.59447496e-01  3.59447496e-01  3.59447496e-01  1.18871970e-08  3.41771056e-11  5.00000000e-01 
 8.50000000e-01  3.66567103e-01  3.66567103e-01  3.66567103e-01  3.66567103e-01  3.66567103e-01  3.66567103e-01  3.66567103e-01  1.43012333e-08  3.75877107e-11  5.00000000e-01 
 8.60000000e-01  3.73611439e-01  3.73611439e-01  3.73611439e-01  3.73611439e-01  3.73611439e-01  3.73611439e-01  3.73611439e-01  1.71576621e-08  4.15099066e-11  5.00000000e-01 
 8.70000000e-01  3.80595246e-01  3.80595246e-01  3.80595246e-01  3.80595246e-01  3.80595246e-01  3.80595246e-01  3.80595246e-01  2.05350800e-08  4.59579041e-11  5.00000000e-01 
 8.80000000e-01  3.87532494e-01  3.87532494e-01  3.87532494e-01  3.87532494e-01  3.87532494e-01  3.87532494e-01  3.87532494e-01  2.45268419e-08  5.11164444e-11  5.00000000e-01 
 8.90000000e-01  3.94436223e-01  3.94436223e-01  3.94436223e-01  3.94436223e-01  3.94436223e-01  3.94436223e-01  3.94436223e-01  2.92437436e-08  5.70423708e-11  5.00000000e-01 
 9.00000000e-01  4.01318076e-01  4.01318076e-01  4.01318076e-01  4.01318076e-01  4.01318076e-01  4.01318076e-01  4.01318076e-01  3.48174463e-08  6.38777919e-11  5.00000000e-01 
 9.10000000e-01  4.08188333e-01  4.08188333e-01  4.08188333e-01  4.08188333e-01  4.08188333e-01  4.08188333e-01  4.08188333e-01  4.14038159e-08  7.17648163e-11  5.00000000e-01 
 9.20000000e-01  4.15055287e-01  4.15055287e-01  4.15055287e-01  4.15055287e-01  4.15055287e-01  4.15055287e-01  4.15055287e-01  4.91871375e-08  8.09592393e-11  5.00000000e-01 
 9.30000000e-01  4.21925054e-01  4.21925054e-01  4.21925054e-01  4.21925054e-01  4.21925054e-01  4.21925054e-01  4.21925054e-01  5.83839270e-08  9.17026455e-11  5.00000000e-01 
 9.40000000e-01  4.28800959e-01  4.28800959e-01  4.28800959e-01  4.28800959e-01  4.28800959e-01  4.28800959e-01  4.28800959e-01  6.92468185e-08  1.04350306e-10  5.00000000e-01 
 9.50000000e-01  4.35683024e-01  4.35683024e-01  4.35683024e-01  4.35683024e-01  4.35683024e-01  4.35683024e-01  4.35683024e-01  8.20674297e-08  1.19399601e-10  5.00000000e-01 
 9.60000000e-01  4.42567222e-01  4.42567222e-01  4.42567222e-01  4.42567222e-01  4.42567222e-01  4.42567222e-01  4.42567222e-01  9.71772316e-08  1.37362122e-10  5.00000000e-01 
 9.70000000e-01  4.49444625e-01  4.49444625e-01  4.49444625e-01  4.49444625e-01  4.49444625e-01  4.49444625e-01  4.49444625e-01  1.14944704e-07  1.58919988e-10  5.00000000e-01 
 9.80000000e-01  4.56300394e-01  4.56300394e-01  4.56300394e-01  4.56300394e-01  4.56300394e-01  4.56300394e-01  4.56300394e-01  1.35766199e-07  1.84869009e-10  5.00000000e-01 
 9.90000000e-01  4.63112679e-01  4.63112679e-01  4.63112679e-01  4.63112679e-01  4.63112679e-01  4.63112679e-01  4.63112679e-01  1.60047597e-07  2.16274998e-10  5.00000000e-01 
 1.00000000e+00  4.69851303e-01  4.69851303e-01  4.69851303e-01  4.69851303e-01  4.69851303e-01  4.69851303e-01  4.69851303e-01  1.88171452e-07  2.54203769e-10  5.00000000e-01 
 1.01000000e+00  4.76476601e-01  4.76476601e-01  4.76476601e-01  4.76476601e-01  4.76476601e-01  4.76476601e-01  4.76476601e-01  2.20446220e-07  3.00047986e-10  5.00000000e-01 
 1.02000000e+00  4.82938416e-01  4.82938416e-01  4.82938416e-01  4.82938416e-01  4.82938416e-01  4.82938416e-01  4.82938416e-01  2.57033660e-07  3.55129259e-10  5.00000000e-01 
 1.03000000e+00  4.89176063e-01  4.89176063e-01  4.89176063e-01  4.89176063e-01  4.89176063e-01  4.89176063e-01  4.89176063e-01  2.97857554e-07  4.21039204e-10  5.00000000e-01 
 1.04000000e+00  4.95119691e-01  4.95119691e-01  4.95119691e-01  4.95119691e-01  4.95119691e-01  4.95119691e-01  4.95119691e-01  3.42506304e-07  4.99142061e-10  5.00000000e-01 
 1.05000000e+00  5.00693749e-01  5.00693749e-01  5.00693749e-01  5.00693749e-01  5.00693749e-01  5.00693749e-01  5.00693749e-01  3.90153403e-07  5.90944182e-10  5.00000000e-01 
 1.06000000e+00  5.05821359e-01  5.05821359e-01  5.05821359e-01  5.05821359e-01  5.05821359e-01  5.05821359e-01  5.05821359e-01  4.39520118e-07  6.97511382e-10  5.00000000e-01 
 1.07000000e+00  5.10427443e-01  5.10427443e-01  5.10427443e-01  5.10427443e-01  5.10427443e-01  5.10427443e-01  5.10427443e-01  4.88881032e-07  8.19824209e-10  5.00000000e-01 
 1.08000000e+00  5.14437865e-01  5.14437865e-01  5.14437865e-01  5.14437865e-01  5.14437865e-01  5.14437865e-01  5.14437865e-01  5.36091409e-07  9.58593205e-10  5.00000000e-01 
 1.09000000e+00  5.17777637e-01  5.17777637e-01  5.17777637e-01  5.17777637e-01  5.17777637e-01  5.17777637e-01  5.17777637e-01  5.78654500e-07  1.11471365e-09  5.00000000e-01 
 1.10000000e+00  5.20379657e-01  5.20379657e-01  5.20379657e-01  5.20379657e-01  5.20379657e-01  5.20379657e-01  5.20379657e-01  6.13993826e-07  1.28980560e-09  5.00000000e-01 
