 v-sweep         v(b0)           v(b1)           v(b2)           v(b3)           v(b4)           v(b5)           v(b6)           i(vbias)        i(viout)        v(vout)        
 0.00000000e+00  4.57772660e-01  4.57772660e-01  3.32316403e-09  3.28408209e-09  4.57772660e-01  4.57772660e-01  3.23965537e-09  1.58958116e-07  7.51793669e-08  0.00000000e+00 
 1.00000000e-02  4.57772676e-01  4.57772676e-01  3.32316402e-09  3.28408219e-09  4.57772676e-01  4.57772676e-01  3.23965536e-09  1.58958128e-07  7.51789645e-08  1.00000000e-02 
 2.00000000e-02  4.57772671e-01  4.57772671e-01  3.32316402e-09  3.28408219e-09  4.57772671e-01  4.57772671e-01  3.23965536e-09  1.58958132e-07  7.51785036e-08  2.00000000e-02 
 3.00000000e-02  4.57772654e-01  4.57772654e-01  3.32316402e-09  3.28408219e-09  4.57772654e-01  4.57772654e-01  3.23965536e-09  1.58958109e-07  7.51780564e-08  3.00000000e-02 
 4.00000000e-02  4.57772702e-01  4.57772702e-01  3.32316403e-09  3.28408219e-09  4.57772702e-01  4.57772702e-01  3.23965536e-09  1.58958179e-07  7.51778022e-08  4.00000000e-02 
 5.00000000e-02  4.57772659e-01  4.57772659e-01  3.32316391e-09  3.28408219e-09  4.57772659e-01  4.57772659e-01  3.23965536e-09  1.58958103e-07  7.51774802e-08  5.00000000e-02 
 6.00000000e-02  4.57772641e-01  4.57772641e-01  3.32316402e-09  3.28408208e-09  4.57772641e-01  4.57772641e-01  3.23965536e-09  1.58958088e-07  7.51771538e-08  6.00000000e-02 
 7.00000000e-02  4.57772658e-01  4.57772658e-01  3.32316402e-09  3.28408209e-09  4.57772658e-01  4.57772658e-01  3.23965536e-09  1.58958114e-07  7.51768234e-08  7.00000000e-02 
 8.00000000e-02  4.57772679e-01  4.57772679e-01  3.32316402e-09  3.28408219e-09  4.57772679e-01  4.57772679e-01  3.23965536e-09  1.58958135e-07  7.51765779e-08  8.00000000e-02 
 9.00000000e-02  4.57772657e-01  4.57772657e-01  3.32316402e-09  3.28408208e-09  4.57772657e-01  4.57772657e-01  3.23965536e-09  1.58958106e-07  7.51763398e-08  9.00000000e-02 
 1.00000000e-01  4.57772671e-01  4.57772671e-01  3.32316402e-09  3.28408209e-09  4.57772671e-01  4.57772671e-01  3.23965536e-09  1.58958138e-07  7.51760352e-08  1.00000000e-01 
 1.10000000e-01  4.57772667e-01  4.57772667e-01  3.32316402e-09  3.28408208e-09  4.57772667e-01  4.57772667e-01  3.23965536e-09  1.58958123e-07  7.51758176e-08  1.10000000e-01 
 1.20000000e-01  4.57772662e-01  4.57772662e-01  3.32316402e-09  3.28408209e-09  4.57772662e-01  4.57772662e-01  3.23965536e-09  1.58958109e-07  7.51755618e-08  1.20000000e-01 
 1.30000000e-01  4.57772668e-01  4.57772668e-01  3.32316402e-09  3.28408219e-09  4.57772668e-01  4.57772668e-01  3.23965536e-09  1.58958134e-07  7.51753548e-08  1.30000000e-01 
 1.40000000e-01  4.57772656e-01  4.57772656e-01  3.32316402e-09  3.28408208e-09  4.57772656e-01  4.57772656e-01  3.23965536e-09  1.58958121e-07  7.51750990e-08  1.40000000e-01 
 1.50000000e-01  4.57772644e-01  4.57772644e-01  3.32316402e-09  3.28408220e-09  4.57772644e-01  4.57772644e-01  3.23965536e-09  1.58958091e-07  7.51748086e-08  1.50000000e-01 
 1.60000000e-01  4.57772656e-01  4.57772656e-01  3.32316402e-09  3.28408219e-09  4.57772656e-01  4.57772656e-01  3.23965536e-09  1.58958104e-07  7.51745475e-08  1.60000000e-01 
 1.70000000e-01  4.57772651e-01  4.57772651e-01  3.32316391e-09  3.28408219e-09  4.57772651e-01  4.57772651e-01  3.23965536e-09  1.58958102e-07  7.51745368e-08  1.70000000e-01 
 1.80000000e-01  4.57772652e-01  4.57772652e-01  3.32316402e-09  3.28408219e-09  4.57772652e-01  4.57772652e-01  3.23965536e-09  1.58958118e-07  7.51742864e-08  1.80000000e-01 
 1.90000000e-01  4.57772652e-01  4.57772652e-01  3.32316402e-09  3.28408208e-09  4.57772652e-01  4.57772652e-01  3.23965536e-09  1.58958113e-07  7.51740981e-08  1.90000000e-01 
 2.00000000e-01  4.57772650e-01  4.57772650e-01  3.32316402e-09  3.28408220e-09  4.57772650e-01  4.57772650e-01  3.23965536e-09  1.58958095e-07  7.51739471e-08  2.00000000e-01 
 2.10000000e-01  4.57772666e-01  4.57772666e-01  3.32316402e-09  3.28408219e-09  4.57772666e-01  4.57772666e-01  3.23965536e-09  1.58958114e-07  7.51737090e-08  2.10000000e-01 
 2.20000000e-01  4.57772660e-01  4.57772660e-01  3.32316402e-09  3.28408219e-09  4.57772660e-01  4.57772660e-01  3.23965536e-09  1.58958116e-07  7.51735811e-08  2.20000000e-01 
 2.30000000e-01  4.57772657e-01  4.57772657e-01  3.32316402e-09  3.28408219e-09  4.57772657e-01  4.57772657e-01  3.23965536e-09  1.58958117e-07  7.51734497e-08  2.30000000e-01 
 2.40000000e-01  4.57772663e-01  4.57772663e-01  3.32316402e-09  3.28408208e-09  4.57772663e-01  4.57772663e-01  3.23965536e-09  1.58958125e-07  7.51733200e-08  2.40000000e-01 
 2.50000000e-01  4.57772653e-01  4.57772653e-01  3.32316391e-09  3.28408208e-09  4.57772653e-01  4.57772653e-01  3.23965536e-09  1.58958113e-07  7.51732081e-08  2.50000000e-01 
 2.60000000e-01  4.57772664e-01  4.57772664e-01  3.32316402e-09  3.28408220e-09  4.57772664e-01  4.57772664e-01  3.23965536e-09  1.58958113e-07  7.51730163e-08  2.60000000e-01 
 2.70000000e-01  4.57772658e-01  4.57772658e-01  3.32316402e-09  3.28408219e-09  4.57772658e-01  4.57772658e-01  3.23965536e-09  1.58958102e-07  7.51728919e-08  2.70000000e-01 
 2.80000000e-01  4.57772675e-01  4.57772675e-01  3.32316391e-09  3.28408219e-09  4.57772675e-01  4.57772675e-01  3.23965536e-09  1.58958137e-07  7.51727658e-08  2.80000000e-01 
 2.90000000e-01  4.57772677e-01  4.57772677e-01  3.32316402e-09  3.28408208e-09  4.57772677e-01  4.57772677e-01  3.23965536e-09  1.58958140e-07  7.51727214e-08  2.90000000e-01 
 3.00000000e-01  4.57772663e-01  4.57772663e-01  3.32316402e-09  3.28408208e-09  4.57772663e-01  4.57772663e-01  3.23965536e-09  1.58958125e-07  7.51725544e-08  3.00000000e-01 
 3.10000000e-01  4.57772649e-01  4.57772649e-01  3.32316402e-09  3.28408219e-09  4.57772649e-01  4.57772649e-01  3.23965536e-09  1.58958087e-07  7.51724016e-08  3.10000000e-01 
 3.20000000e-01  4.57772673e-01  4.57772673e-01  3.32316391e-09  3.28408208e-09  4.57772673e-01  4.57772673e-01  3.23965536e-09  1.58958120e-07  7.51723199e-08  3.20000000e-01 
 3.30000000e-01  4.57772658e-01  4.57772658e-01  3.32316391e-09  3.28408208e-09  4.57772658e-01  4.57772658e-01  3.23965536e-09  1.58958098e-07  7.51723377e-08  3.30000000e-01 
 3.40000000e-01  4.57772686e-01  4.57772686e-01  3.32316402e-09  3.28408209e-09  4.57772686e-01  4.57772686e-01  3.23965536e-09  1.58958147e-07  7.51721672e-08  3.40000000e-01 
 3.50000000e-01  4.57772689e-01  4.57772689e-01  3.32316391e-09  3.28408219e-09  4.57772689e-01  4.57772689e-01  3.23965536e-09  1.58958157e-07  7.51721778e-08  3.50000000e-01 
 3.60000000e-01  4.57772703e-01  4.57772703e-01  3.32316403e-09  3.28408208e-09  4.57772703e-01  4.57772703e-01  3.23965536e-09  1.58958180e-07  7.51721139e-08  3.60000000e-01 
 3.70000000e-01  4.57772697e-01  4.57772698e-01  3.32316402e-09  3.28408219e-09  4.57772697e-01  4.57772698e-01  3.23965536e-09  1.58958165e-07  7.51719682e-08  3.70000000e-01 
 3.80000000e-01  4.57772678e-01  4.57772678e-01  3.32316402e-09  3.28408208e-09  4.57772678e-01  4.57772678e-01  3.23965536e-09  1.58958134e-07  7.51718368e-08  3.80000000e-01 
 3.90000000e-01  4.57772683e-01  4.57772683e-01  3.32316402e-09  3.28408219e-09  4.57772683e-01  4.57772683e-01  3.23965536e-09  1.58958159e-07  7.51717479e-08  3.90000000e-01 
 4.00000000e-01  4.57772681e-01  4.57772681e-01  3.32316402e-09  3.28408208e-09  4.57772681e-01  4.57772681e-01  3.23965536e-09  1.58958144e-07  7.51716023e-08  4.00000000e-01 
 4.10000000e-01  4.57772639e-01  4.57772639e-01  3.32316402e-09  3.28408208e-09  4.57772639e-01  4.57772639e-01  3.23965547e-09  1.58958084e-07  7.51715064e-08  4.10000000e-01 
 4.20000000e-01  4.57772666e-01  4.57772666e-01  3.32316391e-09  3.28408220e-09  4.57772666e-01  4.57772666e-01  3.23965535e-09  1.58958127e-07  7.51714957e-08  4.20000000e-01 
 4.30000000e-01  4.57772679e-01  4.57772679e-01  3.32316402e-09  3.28408208e-09  4.57772679e-01  4.57772679e-01  3.23965536e-09  1.58958134e-07  7.51714211e-08  4.30000000e-01 
 4.40000000e-01  4.57772672e-01  4.57772672e-01  3.32316402e-09  3.28408209e-09  4.57772672e-01  4.57772672e-01  3.23965536e-09  1.58958131e-07  7.51713323e-08  4.40000000e-01 
 4.50000000e-01  4.57772665e-01  4.57772665e-01  3.32316402e-09  3.28408219e-09  4.57772665e-01  4.57772665e-01  3.23965536e-09  1.58958119e-07  7.51711760e-08  4.50000000e-01 
 4.60000000e-01  4.57772673e-01  4.57772673e-01  3.32316402e-09  3.28408208e-09  4.57772673e-01  4.57772673e-01  3.23965536e-09  1.58958131e-07  7.51711760e-08  4.60000000e-01 
 4.70000000e-01  4.57772675e-01  4.57772675e-01  3.32316402e-09  3.28408219e-09  4.57772675e-01  4.57772675e-01  3.23965536e-09  1.58958119e-07  7.51710907e-08  4.70000000e-01 
 4.80000000e-01  4.57772648e-01  4.57772648e-01  3.32316402e-09  3.28408219e-09  4.57772648e-01  4.57772648e-01  3.23965536e-09  1.58958089e-07  7.51710374e-08  4.80000000e-01 
 4.90000000e-01  4.57772677e-01  4.57772677e-01  3.32316402e-09  3.28408219e-09  4.57772677e-01  4.57772677e-01  3.23965536e-09  1.58958137e-07  7.51709948e-08  4.90000000e-01 
 5.00000000e-01  4.57772696e-01  4.57772696e-01  3.32316402e-09  3.28408219e-09  4.57772696e-01  4.57772696e-01  3.23965547e-09  1.58958169e-07  7.51709557e-08  5.00000000e-01 
 5.10000000e-01  4.57772669e-01  4.57772669e-01  3.32316402e-09  3.28408208e-09  4.57772669e-01  4.57772669e-01  3.23965535e-09  1.58958126e-07  7.51708065e-08  5.10000000e-01 
 5.20000000e-01  4.57772674e-01  4.57772674e-01  3.32316391e-09  3.28408219e-09  4.57772674e-01  4.57772674e-01  3.23965536e-09  1.58958123e-07  7.51707177e-08  5.20000000e-01 
 5.30000000e-01  4.57772664e-01  4.57772664e-01  3.32316391e-09  3.28408208e-09  4.57772664e-01  4.57772664e-01  3.23965536e-09  1.58958117e-07  7.51705187e-08  5.30000000e-01 
 5.40000000e-01  4.57772674e-01  4.57772674e-01  3.32316402e-09  3.28408219e-09  4.57772674e-01  4.57772674e-01  3.23965536e-09  1.58958138e-07  7.51706182e-08  5.40000000e-01 
 5.50000000e-01  4.57772663e-01  4.57772663e-01  3.32316402e-09  3.28408219e-09  4.57772663e-01  4.57772663e-01  3.23965536e-09  1.58958129e-07  7.51704512e-08  5.50000000e-01 
 5.60000000e-01  4.57772664e-01  4.57772664e-01  3.32316402e-09  3.28408208e-09  4.57772664e-01  4.57772664e-01  3.23965536e-09  1.58958114e-07  7.51704938e-08  5.60000000e-01 
 5.70000000e-01  4.57772647e-01  4.57772647e-01  3.32316391e-09  3.28408208e-09  4.57772647e-01  4.57772647e-01  3.23965536e-09  1.58958088e-07  7.51703908e-08  5.70000000e-01 
 5.80000000e-01  4.57772665e-01  4.57772665e-01  3.32316402e-09  3.28408209e-09  4.57772665e-01  4.57772665e-01  3.23965536e-09  1.58958131e-07  7.51703055e-08  5.80000000e-01 
 5.90000000e-01  4.57772662e-01  4.57772662e-01  3.32316402e-09  3.28408208e-09  4.57772662e-01  4.57772662e-01  3.23965536e-09  1.58958129e-07  7.51702274e-08  5.90000000e-01 
 6.00000000e-01  4.57772688e-01  4.57772688e-01  3.32316402e-09  3.28408220e-09  4.57772688e-01  4.57772688e-01  3.23965536e-09  1.58958162e-07  7.51702132e-08  6.00000000e-01 
 6.10000000e-01  4.57772677e-01  4.57772677e-01  3.32316402e-09  3.28408208e-09  4.57772677e-01  4.57772677e-01  3.23965536e-09  1.58958142e-07  7.51702345e-08  6.10000000e-01 
 6.20000000e-01  4.57772693e-01  4.57772693e-01  3.32316402e-09  3.28408220e-09  4.57772693e-01  4.57772693e-01  3.23965536e-09  1.58958166e-07  7.51700000e-08  6.20000000e-01 
 6.30000000e-01  4.57772666e-01  4.57772666e-01  3.32316391e-09  3.28408219e-09  4.57772666e-01  4.57772667e-01  3.23965536e-09  1.58958131e-07  7.51700142e-08  6.30000000e-01 
 6.40000000e-01  4.57772656e-01  4.57772656e-01  3.32316402e-09  3.28408219e-09  4.57772656e-01  4.57772656e-01  3.23965547e-09  1.58958107e-07  7.51698508e-08  6.40000000e-01 
 6.50000000e-01  4.57772643e-01  4.57772643e-01  3.32316391e-09  3.28408208e-09  4.57772643e-01  4.57772643e-01  3.23965535e-09  1.58958088e-07  7.51697939e-08  6.50000000e-01 
 6.60000000e-01  4.57772649e-01  4.57772649e-01  3.32316402e-09  3.28408209e-09  4.57772649e-01  4.57772649e-01  3.23965536e-09  1.58958109e-07  7.51696874e-08  6.60000000e-01 
 6.70000000e-01  4.57772668e-01  4.57772668e-01  3.32316402e-09  3.28408219e-09  4.57772668e-01  4.57772668e-01  3.23965536e-09  1.58958132e-07  7.51697016e-08  6.70000000e-01 
 6.80000000e-01  4.57772667e-01  4.57772667e-01  3.32316402e-09  3.28408219e-09  4.57772667e-01  4.57772667e-01  3.23965547e-09  1.58958128e-07  7.51697371e-08  6.80000000e-01 
 6.90000000e-01  4.57772679e-01  4.57772679e-01  3.32316402e-09  3.28408219e-09  4.57772679e-01  4.57772679e-01  3.23965535e-09  1.58958148e-07  7.51696447e-08  6.90000000e-01 
 7.00000000e-01  4.57772664e-01  4.57772664e-01  3.32316402e-09  3.28408208e-09  4.57772664e-01  4.57772664e-01  3.23965536e-09  1.58958119e-07  7.51694884e-08  7.00000000e-01 
 7.10000000e-01  4.57772651e-01  4.57772651e-01  3.32316402e-09  3.28408219e-09  4.57772651e-01  4.57772651e-01  3.23965536e-09  1.58958089e-07  7.51694387e-08  7.10000000e-01 
 7.20000000e-01  4.57772656e-01  4.57772656e-01  3.32316391e-09  3.28408219e-09  4.57772656e-01  4.57772656e-01  3.23965536e-09  1.58958096e-07  7.51694031e-08  7.20000000e-01 
 7.30000000e-01  4.57772669e-01  4.57772669e-01  3.32316391e-09  3.28408219e-09  4.57772669e-01  4.57772669e-01  3.23965536e-09  1.58958116e-07  7.51693037e-08  7.30000000e-01 
 7.40000000e-01  4.57772676e-01  4.57772676e-01  3.32316391e-09  3.28408208e-09  4.57772676e-01  4.57772676e-01  3.23965536e-09  1.58958131e-07  7.51693392e-08  7.40000000e-01 
 7.50000000e-01  4.57772658e-01  4.57772658e-01  3.32316391e-09  3.28408219e-09  4.57772658e-01  4.57772658e-01  3.23965536e-09  1.58958128e-07  7.51691402e-08  7.50000000e-01 
 7.60000000e-01  4.57772664e-01  4.57772664e-01  3.32316391e-09  3.28408219e-09  4.57772664e-01  4.57772664e-01  3.23965536e-09  1.58958119e-07  7.51692255e-08  7.60000000e-01 
 7.70000000e-01  4.57772655e-01  4.57772655e-01  3.32316402e-09  3.28408208e-09  4.57772655e-01  4.57772655e-01  3.23965536e-09  1.58958107e-07  7.51689697e-08  7.70000000e-01 
 7.80000000e-01  4.57772660e-01  4.57772660e-01  3.32316402e-09  3.28408220e-09  4.57772660e-01  4.57772660e-01  3.23965536e-09  1.58958116e-07  7.51689271e-08  7.80000000e-01 
 7.90000000e-01  4.57772673e-01  4.57772673e-01  3.32316391e-09  3.28408219e-09  4.57772673e-01  4.57772673e-01  3.23965536e-09  1.58958125e-07  7.51688560e-08  7.90000000e-01 
 8.00000000e-01  4.57772646e-01  4.57772646e-01  3.32316402e-09  3.28408219e-09  4.57772646e-01  4.57772646e-01  3.23965536e-09  1.58958085e-07  7.51687281e-08  8.00000000e-01 
 8.10000000e-01  4.57772691e-01  4.57772691e-01  3.32316402e-09  3.28408219e-09  4.57772691e-01  4.57772691e-01  3.23965536e-09  1.58958155e-07  7.51688063e-08  8.10000000e-01 
 8.20000000e-01  4.57772628e-01  4.57772628e-01  3.32316402e-09  3.28408219e-09  4.57772628e-01  4.57772628e-01  3.23965536e-09  1.58958058e-07  7.51686002e-08  8.20000000e-01 
 8.30000000e-01  4.57772643e-01  4.57772643e-01  3.32316402e-09  3.28408219e-09  4.57772643e-01  4.57772643e-01  3.23965536e-09  1.58958086e-07  7.51685931e-08  8.30000000e-01 
 8.40000000e-01  4.57772668e-01  4.57772668e-01  3.32316391e-09  3.28408219e-09  4.57772668e-01  4.57772668e-01  3.23965536e-09  1.58958120e-07  7.51685789e-08  8.40000000e-01 
 8.50000000e-01  4.57772663e-01  4.57772663e-01  3.32316402e-09  3.28408219e-09  4.57772663e-01  4.57772663e-01  3.23965536e-09  1.58958124e-07  7.51684581e-08  8.50000000e-01 
 8.60000000e-01  4.57772687e-01  4.57772687e-01  3.32316402e-09  3.28408219e-09  4.57772687e-01  4.57772687e-01  3.23965536e-09  1.58958161e-07  7.51684865e-08  8.60000000e-01 
 8.70000000e-01  4.57772708e-01  4.57772708e-01  3.32316403e-09  3.28408219e-09  4.57772708e-01  4.57772708e-01  3.23965536e-09  1.58958187e-07  7.51685079e-08  8.70000000e-01 
 8.80000000e-01  4.57772660e-01  4.57772660e-01  3.32316402e-09  3.28408219e-09  4.57772660e-01  4.57772660e-01  3.23965547e-09  1.58958109e-07  7.51682094e-08  8.80000000e-01 
 8.90000000e-01  4.57772668e-01  4.57772668e-01  3.32316402e-09  3.28408219e-09  4.57772668e-01  4.57772668e-01  3.23965535e-09  1.58958118e-07  7.51682450e-08  8.90000000e-01 
 9.00000000e-01  4.57772658e-01  4.57772659e-01  3.32316391e-09  3.28408208e-09  4.57772658e-01  4.57772659e-01  3.23965536e-09  1.58958121e-07  7.51682023e-08  9.00000000e-01 
 9.10000000e-01  4.57772675e-01  4.57772675e-01  3.32316402e-09  3.28408220e-09  4.57772675e-01  4.57772675e-01  3.23965536e-09  1.58958137e-07  7.51681242e-08  9.10000000e-01 
 9.20000000e-01  4.57772710e-01  4.57772710e-01  3.32316403e-09  3.28408219e-09  4.57772710e-01  4.57772710e-01  3.23965536e-09  1.58958182e-07  7.51683018e-08  9.20000000e-01 
 9.30000000e-01  4.57772647e-01  4.57772647e-01  3.32316402e-09  3.28408219e-09  4.57772647e-01  4.57772647e-01  3.23965547e-09  1.58958104e-07  7.51680034e-08  9.30000000e-01 
 9.40000000e-01  4.57772692e-01  4.57772692e-01  3.32316391e-09  3.28408208e-09  4.57772692e-01  4.57772692e-01  3.23965535e-09  1.58958166e-07  7.51679679e-08  9.40000000e-01 
 9.50000000e-01  4.57772644e-01  4.57772644e-01  3.32316402e-09  3.28408219e-09  4.57772644e-01  4.57772644e-01  3.23965536e-09  1.58958078e-07  7.51678755e-08  9.50000000e-01 
 9.60000000e-01  4.57772655e-01  4.57772655e-01  3.32316402e-09  3.28408208e-09  4.57772655e-01  4.57772655e-01  3.23965536e-09  1.58958097e-07  7.51676765e-08  9.60000000e-01 
 9.70000000e-01  4.57772678e-01  4.57772678e-01  3.32316402e-09  3.28408209e-09  4.57772678e-01  4.57772678e-01  3.23965536e-09  1.58958143e-07  7.51677689e-08  9.70000000e-01 
 9.80000000e-01  4.57772676e-01  4.57772676e-01  3.32316402e-09  3.28408219e-09  4.57772676e-01  4.57772676e-01  3.23965536e-09  1.58958130e-07  7.51676268e-08  9.80000000e-01 
 9.90000000e-01  4.57772685e-01  4.57772685e-01  3.32316402e-09  3.28408208e-09  4.57772685e-01  4.57772685e-01  3.23965536e-09  1.58958135e-07  7.51675771e-08  9.90000000e-01 
 1.00000000e+00  4.57772687e-01  4.57772687e-01  3.32316402e-09  3.28408208e-09  4.57772687e-01  4.57772687e-01  3.23965536e-09  1.58958144e-07  7.51674918e-08  1.00000000e+00 
 1.01000000e+00  4.57772658e-01  4.57772658e-01  3.32316391e-09  3.28408219e-09  4.57772658e-01  4.57772658e-01  3.23965536e-09  1.58958120e-07  7.51674207e-08  1.01000000e+00 
 1.02000000e+00  4.57772633e-01  4.57772633e-01  3.32316402e-09  3.28408219e-09  4.57772633e-01  4.57772633e-01  3.23965536e-09  1.58958076e-07  7.51671649e-08  1.02000000e+00 
 1.03000000e+00  4.57772665e-01  4.57772665e-01  3.32316391e-09  3.28408219e-09  4.57772665e-01  4.57772665e-01  3.23965536e-09  1.58958125e-07  7.51672289e-08  1.03000000e+00 
 1.04000000e+00  4.57772653e-01  4.57772653e-01  3.32316402e-09  3.28408219e-09  4.57772653e-01  4.57772653e-01  3.23965536e-09  1.58958105e-07  7.51670655e-08  1.04000000e+00 
 1.05000000e+00  4.57772666e-01  4.57772666e-01  3.32316402e-09  3.28408219e-09  4.57772666e-01  4.57772666e-01  3.23965536e-09  1.58958128e-07  7.51670157e-08  1.05000000e+00 
 1.06000000e+00  4.57772664e-01  4.57772664e-01  3.32316402e-09  3.28408219e-09  4.57772664e-01  4.57772664e-01  3.23965536e-09  1.58958116e-07  7.51671081e-08  1.06000000e+00 
 1.07000000e+00  4.57772654e-01  4.57772655e-01  3.32316402e-09  3.28408219e-09  4.57772655e-01  4.57772655e-01  3.23965536e-09  1.58958100e-07  7.51669447e-08  1.07000000e+00 
 1.08000000e+00  4.57772683e-01  4.57772683e-01  3.32316391e-09  3.28408219e-09  4.57772683e-01  4.57772683e-01  3.23965536e-09  1.58958137e-07  7.51669305e-08  1.08000000e+00 
 1.09000000e+00  4.57772670e-01  4.57772670e-01  3.32316402e-09  3.28408208e-09  4.57772670e-01  4.57772670e-01  3.23965536e-09  1.58958129e-07  7.51668310e-08  1.09000000e+00 
 1.10000000e+00  4.57772651e-01  4.57772651e-01  3.32316402e-09  3.28408219e-09  4.57772651e-01  4.57772651e-01  3.23965536e-09  1.58958097e-07  7.51666889e-08  1.10000000e+00 
