 v-sweep         v(b0)           v(b1)           v(b2)           v(b3)           v(b4)           v(b5)           v(b6)           i(vbias)        i(viout)        v(vout)        
 0.00000000e+00  4.59178353e-01  3.26855195e-09  4.59178353e-01  4.59178353e-01  3.26958182e-09  3.28160768e-09  3.28754366e-09  1.61078694e-07  2.25682428e-08  0.00000000e+00 
 1.00000000e-02  4.59178346e-01  3.26855205e-09  4.59178346e-01  4.59178346e-01  3.26958192e-09  3.28160778e-09  3.28754364e-09  1.61078684e-07  2.25678196e-08  1.00000000e-02 
 2.00000000e-02  4.59178356e-01  3.26855205e-09  4.59178356e-01  4.59178356e-01  3.26958180e-09  3.28160767e-09  3.28754364e-09  1.61078700e-07  2.25676144e-08  2.00000000e-02 
 3.00000000e-02  4.59178337e-01  3.26855194e-09  4.59178337e-01  4.59178337e-01  3.26958181e-09  3.28160778e-09  3.28754375e-09  1.61078674e-07  2.25671111e-08  3.00000000e-02 
 4.00000000e-02  4.59178339e-01  3.26855194e-09  4.59178339e-01  4.59178339e-01  3.26958180e-09  3.28160767e-09  3.28754364e-09  1.61078691e-07  2.25668146e-08  4.00000000e-02 
 5.00000000e-02  4.59178347e-01  3.26855194e-09  4.59178347e-01  4.59178347e-01  3.26958180e-09  3.28160778e-09  3.28754365e-09  1.61078704e-07  2.25664478e-08  5.00000000e-02 
 6.00000000e-02  4.59178343e-01  3.26855205e-09  4.59178343e-01  4.59178343e-01  3.26958180e-09  3.28160778e-09  3.28754375e-09  1.61078693e-07  2.25661734e-08  6.00000000e-02 
 7.00000000e-02  4.59178355e-01  3.26855205e-09  4.59178355e-01  4.59178355e-01  3.26958192e-09  3.28160767e-09  3.28754364e-09  1.61078699e-07  2.25659251e-08  7.00000000e-02 
 8.00000000e-02  4.59178360e-01  3.26855205e-09  4.59178360e-01  4.59178360e-01  3.26958180e-09  3.28160778e-09  3.28754365e-09  1.61078715e-07  2.25654757e-08  8.00000000e-02 
 9.00000000e-02  4.59178351e-01  3.26855205e-09  4.59178351e-01  4.59178351e-01  3.26958192e-09  3.28160767e-09  3.28754364e-09  1.61078695e-07  2.25653363e-08  9.00000000e-02 
 1.00000000e-01  4.59178347e-01  3.26855205e-09  4.59178347e-01  4.59178347e-01  3.26958180e-09  3.28160778e-09  3.28754375e-09  1.61078702e-07  2.25650316e-08  1.00000000e-01 
 1.10000000e-01  4.59178340e-01  3.26855205e-09  4.59178340e-01  4.59178340e-01  3.26958192e-09  3.28160767e-09  3.28754364e-09  1.61078672e-07  2.25648602e-08  1.10000000e-01 
 1.20000000e-01  4.59178354e-01  3.26855205e-09  4.59178354e-01  4.59178355e-01  3.26958191e-09  3.28160778e-09  3.28754365e-09  1.61078715e-07  2.25645529e-08  1.20000000e-01 
 1.30000000e-01  4.59178340e-01  3.26855205e-09  4.59178340e-01  4.59178340e-01  3.26958180e-09  3.28160778e-09  3.28754364e-09  1.61078682e-07  2.25642864e-08  1.30000000e-01 
 1.40000000e-01  4.59178359e-01  3.26855205e-09  4.59178359e-01  4.59178359e-01  3.26958192e-09  3.28160778e-09  3.28754364e-09  1.61078713e-07  2.25642243e-08  1.40000000e-01 
 1.50000000e-01  4.59178370e-01  3.26855194e-09  4.59178370e-01  4.59178370e-01  3.26958191e-09  3.28160767e-09  3.28754364e-09  1.61078732e-07  2.25640768e-08  1.50000000e-01 
 1.60000000e-01  4.59178334e-01  3.26855205e-09  4.59178334e-01  4.59178334e-01  3.26958191e-09  3.28160778e-09  3.28754364e-09  1.61078661e-07  2.25637500e-08  1.60000000e-01 
 1.70000000e-01  4.59178342e-01  3.26855205e-09  4.59178342e-01  4.59178342e-01  3.26958191e-09  3.28160778e-09  3.28754364e-09  1.61078689e-07  2.25636718e-08  1.70000000e-01 
 1.80000000e-01  4.59178346e-01  3.26855205e-09  4.59178346e-01  4.59178346e-01  3.26958191e-09  3.28160767e-09  3.28754375e-09  1.61078688e-07  2.25634640e-08  1.80000000e-01 
 1.90000000e-01  4.59178368e-01  3.26855205e-09  4.59178368e-01  4.59178368e-01  3.26958191e-09  3.28160778e-09  3.28754364e-09  1.61078720e-07  2.25632810e-08  1.90000000e-01 
 2.00000000e-01  4.59178343e-01  3.26855205e-09  4.59178343e-01  4.59178343e-01  3.26958191e-09  3.28160778e-09  3.28754365e-09  1.61078688e-07  2.25631052e-08  2.00000000e-01 
 2.10000000e-01  4.59178363e-01  3.26855194e-09  4.59178363e-01  4.59178363e-01  3.26958191e-09  3.28160767e-09  3.28754364e-09  1.61078726e-07  2.25629364e-08  2.10000000e-01 
 2.20000000e-01  4.59178362e-01  3.26855194e-09  4.59178362e-01  4.59178362e-01  3.26958180e-09  3.28160778e-09  3.28754364e-09  1.61078707e-07  2.25628192e-08  2.20000000e-01 
 2.30000000e-01  4.59178368e-01  3.26855194e-09  4.59178368e-01  4.59178368e-01  3.26958181e-09  3.28160778e-09  3.28754376e-09  1.61078717e-07  2.25627996e-08  2.30000000e-01 
 2.40000000e-01  4.59178365e-01  3.26855194e-09  4.59178365e-01  4.59178365e-01  3.26958180e-09  3.28160778e-09  3.28754375e-09  1.61078716e-07  2.25626327e-08  2.40000000e-01 
 2.50000000e-01  4.59178335e-01  3.26855205e-09  4.59178335e-01  4.59178335e-01  3.26958191e-09  3.28160778e-09  3.28754364e-09  1.61078676e-07  2.25623502e-08  2.50000000e-01 
 2.60000000e-01  4.59178350e-01  3.26855194e-09  4.59178350e-01  4.59178350e-01  3.26958191e-09  3.28160767e-09  3.28754365e-09  1.61078707e-07  2.25623147e-08  2.60000000e-01 
 2.70000000e-01  4.59178350e-01  3.26855205e-09  4.59178350e-01  4.59178350e-01  3.26958180e-09  3.28160767e-09  3.28754364e-09  1.61078700e-07  2.25621939e-08  2.70000000e-01 
 2.80000000e-01  4.59178346e-01  3.26855205e-09  4.59178346e-01  4.59178346e-01  3.26958192e-09  3.28160778e-09  3.28754364e-09  1.61078687e-07  2.25620482e-08  2.80000000e-01 
 2.90000000e-01  4.59178364e-01  3.26855205e-09  4.59178364e-01  4.59178364e-01  3.26958180e-09  3.28160778e-09  3.28754376e-09  1.61078718e-07  2.25619701e-08  2.90000000e-01 
 3.00000000e-01  4.59178361e-01  3.26855205e-09  4.59178361e-01  4.59178361e-01  3.26958181e-09  3.28160767e-09  3.28754364e-09  1.61078721e-07  2.25618635e-08  3.00000000e-01 
 3.10000000e-01  4.59178373e-01  3.26855194e-09  4.59178373e-01  4.59178373e-01  3.26958180e-09  3.28160778e-09  3.28754365e-09  1.61078731e-07  2.25617818e-08  3.10000000e-01 
 3.20000000e-01  4.59178356e-01  3.26855205e-09  4.59178356e-01  4.59178356e-01  3.26958180e-09  3.28160778e-09  3.28754364e-09  1.61078686e-07  2.25617001e-08  3.20000000e-01 
 3.30000000e-01  4.59178344e-01  3.26855205e-09  4.59178344e-01  4.59178344e-01  3.26958180e-09  3.28160778e-09  3.28754375e-09  1.61078711e-07  2.25617036e-08  3.30000000e-01 
 3.40000000e-01  4.59178363e-01  3.26855205e-09  4.59178363e-01  4.59178363e-01  3.26958192e-09  3.28160767e-09  3.28754364e-09  1.61078721e-07  2.25614372e-08  3.40000000e-01 
 3.50000000e-01  4.59178369e-01  3.26855194e-09  4.59178369e-01  4.59178369e-01  3.26958191e-09  3.28160767e-09  3.28754376e-09  1.61078725e-07  2.25614691e-08  3.50000000e-01 
 3.60000000e-01  4.59178346e-01  3.26855194e-09  4.59178346e-01  4.59178346e-01  3.26958180e-09  3.28160767e-09  3.28754375e-09  1.61078685e-07  2.25613199e-08  3.60000000e-01 
 3.70000000e-01  4.59178361e-01  3.26855194e-09  4.59178361e-01  4.59178361e-01  3.26958181e-09  3.28160778e-09  3.28754375e-09  1.61078714e-07  2.25612702e-08  3.70000000e-01 
 3.80000000e-01  4.59178362e-01  3.26855205e-09  4.59178362e-01  4.59178362e-01  3.26958180e-09  3.28160767e-09  3.28754364e-09  1.61078713e-07  2.25612595e-08  3.80000000e-01 
 3.90000000e-01  4.59178328e-01  3.26855205e-09  4.59178328e-01  4.59178328e-01  3.26958180e-09  3.28160767e-09  3.28754364e-09  1.61078656e-07  2.25610925e-08  3.90000000e-01 
 4.00000000e-01  4.59178340e-01  3.26855205e-09  4.59178340e-01  4.59178340e-01  3.26958192e-09  3.28160767e-09  3.28754364e-09  1.61078689e-07  2.25609753e-08  4.00000000e-01 
 4.10000000e-01  4.59178333e-01  3.26855194e-09  4.59178333e-01  4.59178333e-01  3.26958191e-09  3.28160767e-09  3.28754364e-09  1.61078671e-07  2.25609931e-08  4.10000000e-01 
 4.20000000e-01  4.59178358e-01  3.26855205e-09  4.59178358e-01  4.59178358e-01  3.26958180e-09  3.28160767e-09  3.28754364e-09  1.61078723e-07  2.25608829e-08  4.20000000e-01 
 4.30000000e-01  4.59178359e-01  3.26855194e-09  4.59178359e-01  4.59178359e-01  3.26958181e-09  3.28160767e-09  3.28754376e-09  1.61078701e-07  2.25608687e-08  4.30000000e-01 
 4.40000000e-01  4.59178376e-01  3.26855194e-09  4.59178376e-01  4.59178376e-01  3.26958180e-09  3.28160767e-09  3.28754364e-09  1.61078732e-07  2.25607728e-08  4.40000000e-01 
 4.50000000e-01  4.59178357e-01  3.26855205e-09  4.59178357e-01  4.59178357e-01  3.26958180e-09  3.28160778e-09  3.28754365e-09  1.61078717e-07  2.25607337e-08  4.50000000e-01 
 4.60000000e-01  4.59178359e-01  3.26855205e-09  4.59178359e-01  4.59178359e-01  3.26958192e-09  3.28160778e-09  3.28754376e-09  1.61078711e-07  2.25606271e-08  4.60000000e-01 
 4.70000000e-01  4.59178353e-01  3.26855194e-09  4.59178353e-01  4.59178353e-01  3.26958191e-09  3.28160778e-09  3.28754375e-09  1.61078694e-07  2.25605703e-08  4.70000000e-01 
 4.80000000e-01  4.59178381e-01  3.26855206e-09  4.59178381e-01  4.59178381e-01  3.26958191e-09  3.28160767e-09  3.28754375e-09  1.61078756e-07  2.25605916e-08  4.80000000e-01 
 4.90000000e-01  4.59178354e-01  3.26855205e-09  4.59178354e-01  4.59178354e-01  3.26958191e-09  3.28160767e-09  3.28754375e-09  1.61078694e-07  2.25604353e-08  4.90000000e-01 
 5.00000000e-01  4.59178360e-01  3.26855194e-09  4.59178360e-01  4.59178360e-01  3.26958191e-09  3.28160767e-09  3.28754364e-09  1.61078717e-07  2.25603820e-08  5.00000000e-01 
 5.10000000e-01  4.59178361e-01  3.26855205e-09  4.59178361e-01  4.59178361e-01  3.26958180e-09  3.28160767e-09  3.28754365e-09  1.61078708e-07  2.25602292e-08  5.10000000e-01 
 5.20000000e-01  4.59178355e-01  3.26855205e-09  4.59178355e-01  4.59178355e-01  3.26958181e-09  3.28160778e-09  3.28754364e-09  1.61078709e-07  2.25602363e-08  5.20000000e-01 
 5.30000000e-01  4.59178364e-01  3.26855205e-09  4.59178364e-01  4.59178364e-01  3.26958180e-09  3.28160767e-09  3.28754364e-09  1.61078709e-07  2.25602079e-08  5.30000000e-01 
 5.40000000e-01  4.59178351e-01  3.26855205e-09  4.59178351e-01  4.59178351e-01  3.26958192e-09  3.28160778e-09  3.28754364e-09  1.61078698e-07  2.25601902e-08  5.40000000e-01 
 5.50000000e-01  4.59178357e-01  3.26855205e-09  4.59178357e-01  4.59178357e-01  3.26958191e-09  3.28160778e-09  3.28754364e-09  1.61078706e-07  2.25600161e-08  5.50000000e-01 
 5.60000000e-01  4.59178327e-01  3.26855194e-09  4.59178327e-01  4.59178327e-01  3.26958180e-09  3.28160767e-09  3.28754364e-09  1.61078680e-07  2.25600232e-08  5.60000000e-01 
 5.70000000e-01  4.59178348e-01  3.26855205e-09  4.59178348e-01  4.59178348e-01  3.26958181e-09  3.28160778e-09  3.28754375e-09  1.61078693e-07  2.25599734e-08  5.70000000e-01 
 5.80000000e-01  4.59178343e-01  3.26855205e-09  4.59178343e-01  4.59178343e-01  3.26958180e-09  3.28160778e-09  3.28754375e-09  1.61078701e-07  2.25598527e-08  5.80000000e-01 
 5.90000000e-01  4.59178357e-01  3.26855194e-09  4.59178357e-01  4.59178357e-01  3.26958180e-09  3.28160767e-09  3.28754364e-09  1.61078708e-07  2.25598171e-08  5.90000000e-01 
 6.00000000e-01  4.59178347e-01  3.26855194e-09  4.59178347e-01  4.59178347e-01  3.26958192e-09  3.28160767e-09  3.28754365e-09  1.61078679e-07  2.25597532e-08  6.00000000e-01 
 6.10000000e-01  4.59178369e-01  3.26855194e-09  4.59178369e-01  4.59178369e-01  3.26958180e-09  3.28160778e-09  3.28754376e-09  1.61078724e-07  2.25597603e-08  6.10000000e-01 
 6.20000000e-01  4.59178365e-01  3.26855194e-09  4.59178365e-01  4.59178365e-01  3.26958181e-09  3.28160767e-09  3.28754364e-09  1.61078704e-07  2.25597603e-08  6.20000000e-01 
 6.30000000e-01  4.59178368e-01  3.26855205e-09  4.59178368e-01  4.59178368e-01  3.26958180e-09  3.28160767e-09  3.28754365e-09  1.61078732e-07  2.25596040e-08  6.30000000e-01 
 6.40000000e-01  4.59178336e-01  3.26855205e-09  4.59178336e-01  4.59178336e-01  3.26958180e-09  3.28160778e-09  3.28754375e-09  1.61078675e-07  2.25596466e-08  6.40000000e-01 
 6.50000000e-01  4.59178353e-01  3.26855194e-09  4.59178353e-01  4.59178353e-01  3.26958192e-09  3.28160778e-09  3.28754375e-09  1.61078701e-07  2.25596679e-08  6.50000000e-01 
 6.60000000e-01  4.59178370e-01  3.26855205e-09  4.59178370e-01  4.59178370e-01  3.26958180e-09  3.28160767e-09  3.28754364e-09  1.61078727e-07  2.25595045e-08  6.60000000e-01 
 6.70000000e-01  4.59178347e-01  3.26855205e-09  4.59178347e-01  4.59178347e-01  3.26958181e-09  3.28160778e-09  3.28754365e-09  1.61078696e-07  2.25595116e-08  6.70000000e-01 
 6.80000000e-01  4.59178349e-01  3.26855194e-09  4.59178349e-01  4.59178349e-01  3.26958180e-09  3.28160778e-09  3.28754364e-09  1.61078701e-07  2.25594832e-08  6.80000000e-01 
 6.90000000e-01  4.59178348e-01  3.26855194e-09  4.59178348e-01  4.59178348e-01  3.26958180e-09  3.28160778e-09  3.28754364e-09  1.61078697e-07  2.25594619e-08  6.90000000e-01 
 7.00000000e-01  4.59178361e-01  3.26855205e-09  4.59178361e-01  4.59178361e-01  3.26958180e-09  3.28160778e-09  3.28754364e-09  1.61078707e-07  2.25594192e-08  7.00000000e-01 
 7.10000000e-01  4.59178355e-01  3.26855205e-09  4.59178355e-01  4.59178355e-01  3.26958180e-09  3.28160778e-09  3.28754364e-09  1.61078684e-07  2.25592629e-08  7.10000000e-01 
 7.20000000e-01  4.59178365e-01  3.26855194e-09  4.59178365e-01  4.59178365e-01  3.26958192e-09  3.28160778e-09  3.28754376e-09  1.61078716e-07  2.25592913e-08  7.20000000e-01 
 7.30000000e-01  4.59178364e-01  3.26855194e-09  4.59178364e-01  4.59178364e-01  3.26958191e-09  3.28160767e-09  3.28754364e-09  1.61078712e-07  2.25593197e-08  7.30000000e-01 
 7.40000000e-01  4.59178365e-01  3.26855194e-09  4.59178365e-01  4.59178365e-01  3.26958191e-09  3.28160767e-09  3.28754365e-09  1.61078719e-07  2.25591137e-08  7.40000000e-01 
 7.50000000e-01  4.59178368e-01  3.26855205e-09  4.59178368e-01  4.59178368e-01  3.26958191e-09  3.28160767e-09  3.28754364e-09  1.61078727e-07  2.25591066e-08  7.50000000e-01 
 7.60000000e-01  4.59178358e-01  3.26855205e-09  4.59178358e-01  4.59178358e-01  3.26958180e-09  3.28160767e-09  3.28754376e-09  1.61078720e-07  2.25590568e-08  7.60000000e-01 
 7.70000000e-01  4.59178361e-01  3.26855205e-09  4.59178361e-01  4.59178361e-01  3.26958181e-09  3.28160778e-09  3.28754364e-09  1.61078718e-07  2.25589858e-08  7.70000000e-01 
 7.80000000e-01  4.59178363e-01  3.26855205e-09  4.59178363e-01  4.59178363e-01  3.26958180e-09  3.28160767e-09  3.28754365e-09  1.61078716e-07  2.25587939e-08  7.80000000e-01 
 7.90000000e-01  4.59178360e-01  3.26855194e-09  4.59178360e-01  4.59178360e-01  3.26958180e-09  3.28160767e-09  3.28754364e-09  1.61078712e-07  2.25589787e-08  7.90000000e-01 
 8.00000000e-01  4.59178350e-01  3.26855205e-09  4.59178350e-01  4.59178350e-01  3.26958192e-09  3.28160778e-09  3.28754375e-09  1.61078701e-07  2.25587868e-08  8.00000000e-01 
 8.10000000e-01  4.59178369e-01  3.26855194e-09  4.59178369e-01  4.59178369e-01  3.26958191e-09  3.28160778e-09  3.28754364e-09  1.61078718e-07  2.25586660e-08  8.10000000e-01 
 8.20000000e-01  4.59178357e-01  3.26855205e-09  4.59178357e-01  4.59178358e-01  3.26958180e-09  3.28160767e-09  3.28754365e-09  1.61078698e-07  2.25586660e-08  8.20000000e-01 
 8.30000000e-01  4.59178349e-01  3.26855194e-09  4.59178349e-01  4.59178349e-01  3.26958192e-09  3.28160767e-09  3.28754364e-09  1.61078698e-07  2.25584955e-08  8.30000000e-01 
 8.40000000e-01  4.59178375e-01  3.26855205e-09  4.59178375e-01  4.59178375e-01  3.26958191e-09  3.28160767e-09  3.28754376e-09  1.61078734e-07  2.25586021e-08  8.40000000e-01 
 8.50000000e-01  4.59178352e-01  3.26855205e-09  4.59178352e-01  4.59178352e-01  3.26958180e-09  3.28160767e-09  3.28754375e-09  1.61078702e-07  2.25586092e-08  8.50000000e-01 
 8.60000000e-01  4.59178362e-01  3.26855205e-09  4.59178362e-01  4.59178362e-01  3.26958192e-09  3.28160767e-09  3.28754375e-09  1.61078722e-07  2.25585737e-08  8.60000000e-01 
 8.70000000e-01  4.59178380e-01  3.26855194e-09  4.59178380e-01  4.59178380e-01  3.26958191e-09  3.28160767e-09  3.28754364e-09  1.61078738e-07  2.25584316e-08  8.70000000e-01 
 8.80000000e-01  4.59178344e-01  3.26855205e-09  4.59178344e-01  4.59178344e-01  3.26958180e-09  3.28160778e-09  3.28754365e-09  1.61078677e-07  2.25583037e-08  8.80000000e-01 
 8.90000000e-01  4.59178354e-01  3.26855205e-09  4.59178354e-01  4.59178354e-01  3.26958192e-09  3.28160767e-09  3.28754364e-09  1.61078711e-07  2.25583960e-08  8.90000000e-01 
 9.00000000e-01  4.59178340e-01  3.26855194e-09  4.59178340e-01  4.59178340e-01  3.26958180e-09  3.28160767e-09  3.28754364e-09  1.61078670e-07  2.25582184e-08  9.00000000e-01 
 9.10000000e-01  4.59178353e-01  3.26855205e-09  4.59178353e-01  4.59178353e-01  3.26958192e-09  3.28160767e-09  3.28754364e-09  1.61078699e-07  2.25581118e-08  9.10000000e-01 
 9.20000000e-01  4.59178344e-01  3.26855205e-09  4.59178344e-01  4.59178344e-01  3.26958191e-09  3.28160778e-09  3.28754375e-09  1.61078677e-07  2.25582752e-08  9.20000000e-01 
 9.30000000e-01  4.59178380e-01  3.26855206e-09  4.59178380e-01  4.59178380e-01  3.26958180e-09  3.28160778e-09  3.28754364e-09  1.61078749e-07  2.25581260e-08  9.30000000e-01 
 9.40000000e-01  4.59178351e-01  3.26855194e-09  4.59178351e-01  4.59178351e-01  3.26958181e-09  3.28160767e-09  3.28754365e-09  1.61078706e-07  2.25580479e-08  9.40000000e-01 
 9.50000000e-01  4.59178356e-01  3.26855205e-09  4.59178356e-01  4.59178356e-01  3.26958180e-09  3.28160767e-09  3.28754376e-09  1.61078712e-07  2.25580692e-08  9.50000000e-01 
 9.60000000e-01  4.59178364e-01  3.26855205e-09  4.59178364e-01  4.59178364e-01  3.26958180e-09  3.28160767e-09  3.28754364e-09  1.61078722e-07  2.25579058e-08  9.60000000e-01 
 9.70000000e-01  4.59178347e-01  3.26855194e-09  4.59178347e-01  4.59178347e-01  3.26958192e-09  3.28160778e-09  3.28754365e-09  1.61078698e-07  2.25579413e-08  9.70000000e-01 
 9.80000000e-01  4.59178349e-01  3.26855205e-09  4.59178349e-01  4.59178349e-01  3.26958180e-09  3.28160778e-09  3.28754375e-09  1.61078714e-07  2.25578347e-08  9.80000000e-01 
 9.90000000e-01  4.59178352e-01  3.26855205e-09  4.59178352e-01  4.59178352e-01  3.26958181e-09  3.28160778e-09  3.28754375e-09  1.61078698e-07  2.25577850e-08  9.90000000e-01 
 1.00000000e+00  4.59178366e-01  3.26855205e-09  4.59178366e-01  4.59178366e-01  3.26958180e-09  3.28160778e-09  3.28754364e-09  1.61078717e-07  2.25578489e-08  1.00000000e+00 
 1.01000000e+00  4.59178367e-01  3.26855205e-09  4.59178367e-01  4.59178367e-01  3.26958180e-09  3.28160778e-09  3.28754376e-09  1.61078711e-07  2.25576002e-08  1.01000000e+00 
 1.02000000e+00  4.59178355e-01  3.26855194e-09  4.59178355e-01  4.59178355e-01  3.26958180e-09  3.28160767e-09  3.28754364e-09  1.61078693e-07  2.25576855e-08  1.02000000e+00 
 1.03000000e+00  4.59178356e-01  3.26855194e-09  4.59178356e-01  4.59178356e-01  3.26958180e-09  3.28160767e-09  3.28754365e-09  1.61078698e-07  2.25576784e-08  1.03000000e+00 
 1.04000000e+00  4.59178371e-01  3.26855205e-09  4.59178371e-01  4.59178371e-01  3.26958192e-09  3.28160767e-09  3.28754376e-09  1.61078725e-07  2.25575505e-08  1.04000000e+00 
 1.05000000e+00  4.59178342e-01  3.26855205e-09  4.59178342e-01  4.59178342e-01  3.26958180e-09  3.28160767e-09  3.28754364e-09  1.61078673e-07  2.25574155e-08  1.05000000e+00 
 1.06000000e+00  4.59178339e-01  3.26855205e-09  4.59178339e-01  4.59178339e-01  3.26958192e-09  3.28160767e-09  3.28754365e-09  1.61078678e-07  2.25574581e-08  1.06000000e+00 
 1.07000000e+00  4.59178347e-01  3.26855205e-09  4.59178347e-01  4.59178347e-01  3.26958180e-09  3.28160778e-09  3.28754375e-09  1.61078685e-07  2.25573160e-08  1.07000000e+00 
 1.08000000e+00  4.59178367e-01  3.26855205e-09  4.59178367e-01  4.59178367e-01  3.26958181e-09  3.28160778e-09  3.28754364e-09  1.61078721e-07  2.25572734e-08  1.08000000e+00 
 1.09000000e+00  4.59178344e-01  3.26855205e-09  4.59178344e-01  4.59178344e-01  3.26958192e-09  3.28160767e-09  3.28754365e-09  1.61078683e-07  2.25571597e-08  1.09000000e+00 
 1.10000000e+00  4.59178332e-01  3.26855205e-09  4.59178332e-01  4.59178332e-01  3.26958191e-09  3.28160778e-09  3.28754364e-09  1.61078673e-07  2.25571029e-08  1.10000000e+00 
