 v-sweep         v(b0)           v(b1)           v(b2)           v(b3)           v(b4)           v(b5)           v(b6)           i(vbias)        i(viout)        v(vout)        
 1.60000000e+00  4.58278664e-01  4.58278664e-01  4.58278664e-01  4.58278664e-01  4.58278664e-01  4.58278664e-01  4.58278664e-01  1.58920224e-07  6.06846200e-08  8.00000000e-01 
 1.60500000e+00  4.58278762e-01  4.58278762e-01  4.58278762e-01  4.58278762e-01  4.58278762e-01  4.58278762e-01  4.58278762e-01  1.58920403e-07  6.33830837e-08  8.00000000e-01 
 1.61000000e+00  4.58278748e-01  4.58278748e-01  4.58278748e-01  4.58278748e-01  4.58278748e-01  4.58278748e-01  4.58278748e-01  1.58920465e-07  6.63164883e-08  8.00000000e-01 
 1.61500000e+00  4.58278860e-01  4.58278860e-01  4.58278860e-01  4.58278860e-01  4.58278860e-01  4.58278860e-01  4.58278860e-01  1.58920675e-07  6.93149858e-08  8.00000000e-01 
 1.62000000e+00  4.58278890e-01  4.58278890e-01  4.58278890e-01  4.58278890e-01  4.58278890e-01  4.58278890e-01  4.58278890e-01  1.58920791e-07  7.24433420e-08  8.00000000e-01 
 1.62500000e+00  4.58278995e-01  4.58278995e-01  4.58278995e-01  4.58278995e-01  4.58278995e-01  4.58278995e-01  4.58278995e-01  1.58920970e-07  7.57065237e-08  8.00000000e-01 
 1.63000000e+00  4.58279037e-01  4.58279037e-01  4.58279037e-01  4.58279037e-01  4.58279037e-01  4.58279037e-01  4.58279037e-01  1.58921114e-07  7.91107198e-08  8.00000000e-01 
 1.63500000e+00  4.58279135e-01  4.58279135e-01  4.58279135e-01  4.58279135e-01  4.58279135e-01  4.58279135e-01  4.58279135e-01  1.58921293e-07  8.26625239e-08  8.00000000e-01 
 1.64000000e+00  4.58279164e-01  4.58279164e-01  4.58279164e-01  4.58279164e-01  4.58279164e-01  4.58279164e-01  4.58279164e-01  1.58921406e-07  8.63684662e-08  8.00000000e-01 
 1.64500000e+00  4.58279264e-01  4.58279264e-01  4.58279264e-01  4.58279264e-01  4.58279264e-01  4.58279264e-01  4.58279264e-01  1.58921579e-07  9.02356874e-08  8.00000000e-01 
 1.65000000e+00  4.58279304e-01  4.58279304e-01  4.58279304e-01  4.58279304e-01  4.58279304e-01  4.58279304e-01  4.58279304e-01  1.58921708e-07  9.42706464e-08  8.00000000e-01 
 1.65500000e+00  4.58279331e-01  4.58279331e-01  4.58279331e-01  4.58279331e-01  4.58279331e-01  4.58279331e-01  4.58279331e-01  1.58921805e-07  9.84823032e-08  8.00000000e-01 
 1.66000000e+00  4.58279447e-01  4.58279447e-01  4.58279447e-01  4.58279447e-01  4.58279447e-01  4.58279447e-01  4.58279447e-01  1.58922041e-07  1.02877493e-07  8.00000000e-01 
 1.66500000e+00  4.58279451e-01  4.58279451e-01  4.58279451e-01  4.58279451e-01  4.58279451e-01  4.58279451e-01  4.58279451e-01  1.58922118e-07  1.07464743e-07  8.00000000e-01 
 1.67000000e+00  4.58279566e-01  4.58279566e-01  4.58279566e-01  4.58279566e-01  4.58279566e-01  4.58279566e-01  4.58279566e-01  1.58922312e-07  1.12253517e-07  8.00000000e-01 
 1.67500000e+00  4.58279630e-01  4.58279630e-01  4.58279630e-01  4.58279630e-01  4.58279630e-01  4.58279630e-01  4.58279630e-01  1.58922457e-07  1.17250984e-07  8.00000000e-01 
 1.68000000e+00  4.58279787e-01  4.58279787e-01  4.58279787e-01  4.58279787e-01  4.58279787e-01  4.58279787e-01  4.58279787e-01  1.58922746e-07  1.22468158e-07  8.00000000e-01 
 1.68500000e+00  4.58279854e-01  4.58279854e-01  4.58279854e-01  4.58279854e-01  4.58279854e-01  4.58279854e-01  4.58279854e-01  1.58922883e-07  1.27915797e-07  8.00000000e-01 
 1.69000000e+00  4.58279882e-01  4.58279882e-01  4.58279882e-01  4.58279882e-01  4.58279882e-01  4.58279882e-01  4.58279882e-01  1.58922967e-07  1.33602271e-07  8.00000000e-01 
 1.69500000e+00  4.58279927e-01  4.58279927e-01  4.58279927e-01  4.58279927e-01  4.58279927e-01  4.58279927e-01  4.58279927e-01  1.58923087e-07  1.39541825e-07  8.00000000e-01 
 1.70000000e+00  4.58279959e-01  4.58279959e-01  4.58279959e-01  4.58279959e-01  4.58279959e-01  4.58279959e-01  4.58279959e-01  1.58923220e-07  1.45741481e-07  8.00000000e-01 
 1.70500000e+00  4.58280093e-01  4.58280093e-01  4.58280093e-01  4.58280093e-01  4.58280093e-01  4.58280093e-01  4.58280093e-01  1.58923450e-07  1.52216700e-07  8.00000000e-01 
 1.71000000e+00  4.58280172e-01  4.58280172e-01  4.58280172e-01  4.58280172e-01  4.58280172e-01  4.58280172e-01  4.58280172e-01  1.58923613e-07  1.58977898e-07  8.00000000e-01 
 1.71500000e+00  4.58280171e-01  4.58280171e-01  4.58280171e-01  4.58280171e-01  4.58280171e-01  4.58280171e-01  4.58280171e-01  1.58923674e-07  1.66038987e-07  8.00000000e-01 
 1.72000000e+00  4.58280257e-01  4.58280257e-01  4.58280257e-01  4.58280257e-01  4.58280257e-01  4.58280257e-01  4.58280257e-01  1.58923852e-07  1.73412914e-07  8.00000000e-01 
 1.72500000e+00  4.58280352e-01  4.58280352e-01  4.58280352e-01  4.58280352e-01  4.58280352e-01  4.58280352e-01  4.58280352e-01  1.58924042e-07  1.81113919e-07  8.00000000e-01 
 1.73000000e+00  4.58280428e-01  4.58280428e-01  4.58280428e-01  4.58280428e-01  4.58280428e-01  4.58280428e-01  4.58280428e-01  1.58924215e-07  1.87552956e-07  8.00000000e-01 
 1.73500000e+00  4.58280527e-01  4.58280527e-01  4.58280527e-01  4.58280527e-01  4.58280527e-01  4.58280527e-01  4.58280527e-01  1.58924391e-07  1.88267634e-07  8.00000000e-01 
 1.74000000e+00  4.58280572e-01  4.58280572e-01  4.58280572e-01  4.58280572e-01  4.58280572e-01  4.58280572e-01  4.58280572e-01  1.58924497e-07  1.88665624e-07  8.00000000e-01 
 1.74500000e+00  4.58280626e-01  4.58280626e-01  4.58280626e-01  4.58280626e-01  4.58280626e-01  4.58280626e-01  4.58280626e-01  1.58924628e-07  1.88986803e-07  8.00000000e-01 
 1.75000000e+00  4.58280698e-01  4.58280698e-01  4.58280698e-01  4.58280698e-01  4.58280698e-01  4.58280698e-01  4.58280698e-01  1.58924813e-07  1.89250642e-07  8.00000000e-01 
 1.75500000e+00  4.58280730e-01  4.58280730e-01  4.58280730e-01  4.58280730e-01  4.58280730e-01  4.58280730e-01  4.58280730e-01  1.58924916e-07  1.89479607e-07  8.00000000e-01 
 1.76000000e+00  4.58280792e-01  4.58280792e-01  4.58280792e-01  4.58280792e-01  4.58280792e-01  4.58280792e-01  4.58280792e-01  1.58925058e-07  1.89681657e-07  8.00000000e-01 
 1.76500000e+00  4.58280919e-01  4.58280919e-01  4.58280919e-01  4.58280919e-01  4.58280919e-01  4.58280919e-01  4.58280919e-01  1.58925280e-07  1.89859662e-07  8.00000000e-01 
 1.77000000e+00  4.58280939e-01  4.58280939e-01  4.58280939e-01  4.58280939e-01  4.58280939e-01  4.58280939e-01  4.58280939e-01  1.58925371e-07  1.90015271e-07  8.00000000e-01 
 1.77500000e+00  4.58281019e-01  4.58281019e-01  4.58281019e-01  4.58281019e-01  4.58281019e-01  4.58281019e-01  4.58281019e-01  1.58925540e-07  1.90151866e-07  8.00000000e-01 
 1.78000000e+00  4.58281032e-01  4.58281032e-01  4.58281032e-01  4.58281032e-01  4.58281032e-01  4.58281032e-01  4.58281032e-01  1.58925616e-07  1.90270235e-07  8.00000000e-01 
 1.78500000e+00  4.58281140e-01  4.58281140e-01  4.58281140e-01  4.58281140e-01  4.58281140e-01  4.58281140e-01  4.58281140e-01  1.58925813e-07  1.90373072e-07  8.00000000e-01 
 1.79000000e+00  4.58281206e-01  4.58281206e-01  4.58281206e-01  4.58281206e-01  4.58281206e-01  4.58281206e-01  4.58281206e-01  1.58925957e-07  1.90460739e-07  8.00000000e-01 
 1.79500000e+00  4.58281282e-01  4.58281282e-01  4.58281282e-01  4.58281282e-01  4.58281282e-01  4.58281282e-01  4.58281282e-01  1.58926104e-07  1.90534635e-07  8.00000000e-01 
 1.80000000e+00  4.58281318e-01  4.58281318e-01  4.58281318e-01  4.58281318e-01  4.58281318e-01  4.58281318e-01  4.58281318e-01  1.58926238e-07  1.90596289e-07  8.00000000e-01 
