 v-sweep         v(b0)           v(b1)           v(b2)           v(b3)           v(b4)           v(b5)           v(b6)           i(vbias)        i(viout)        v(vout)        
 0.00000000e+00  4.56743579e-01  4.56743579e-01  4.56743579e-01  3.24823398e-09  4.56743579e-01  4.56743579e-01  3.27060433e-09  1.56170415e-07  7.92478256e-08  0.00000000e+00 
 1.00000000e-02  4.56743599e-01  4.56743599e-01  4.56743599e-01  3.24823386e-09  4.56743599e-01  4.56743599e-01  3.27060433e-09  1.56170450e-07  7.92473911e-08  1.00000000e-02 
 2.00000000e-02  4.56743570e-01  4.56743570e-01  4.56743570e-01  3.24823398e-09  4.56743570e-01  4.56743570e-01  3.27060422e-09  1.56170421e-07  7.92468049e-08  2.00000000e-02 
 3.00000000e-02  4.56743600e-01  4.56743600e-01  4.56743600e-01  3.24823398e-09  4.56743600e-01  4.56743600e-01  3.27060422e-09  1.56170456e-07  7.92465669e-08  3.00000000e-02 
 4.00000000e-02  4.56743563e-01  4.56743563e-01  4.56743563e-01  3.24823386e-09  4.56743563e-01  4.56743563e-01  3.27060422e-09  1.56170410e-07  7.92461887e-08  4.00000000e-02 
 5.00000000e-02  4.56743565e-01  4.56743565e-01  4.56743565e-01  3.24823398e-09  4.56743565e-01  4.56743565e-01  3.27060433e-09  1.56170417e-07  7.92459822e-08  5.00000000e-02 
 6.00000000e-02  4.56743564e-01  4.56743564e-01  4.56743564e-01  3.24823398e-09  4.56743564e-01  4.56743564e-01  3.27060422e-09  1.56170410e-07  7.92454120e-08  6.00000000e-02 
 7.00000000e-02  4.56743607e-01  4.56743607e-01  4.56743607e-01  3.24823386e-09  4.56743607e-01  4.56743607e-01  3.27060422e-09  1.56170463e-07  7.92452073e-08  7.00000000e-02 
 8.00000000e-02  4.56743579e-01  4.56743579e-01  4.56743579e-01  3.24823386e-09  4.56743579e-01  4.56743579e-01  3.27060422e-09  1.56170414e-07  7.92448454e-08  8.00000000e-02 
 9.00000000e-02  4.56743597e-01  4.56743597e-01  4.56743597e-01  3.24823386e-09  4.56743597e-01  4.56743597e-01  3.27060422e-09  1.56170455e-07  7.92447299e-08  9.00000000e-02 
 1.00000000e-01  4.56743591e-01  4.56743590e-01  4.56743591e-01  3.24823386e-09  4.56743591e-01  4.56743591e-01  3.27060433e-09  1.56170435e-07  7.92443968e-08  1.00000000e-01 
 1.10000000e-01  4.56743588e-01  4.56743588e-01  4.56743588e-01  3.24823386e-09  4.56743588e-01  4.56743588e-01  3.27060422e-09  1.56170434e-07  7.92441837e-08  1.10000000e-01 
 1.20000000e-01  4.56743556e-01  4.56743556e-01  4.56743556e-01  3.24823397e-09  4.56743556e-01  4.56743556e-01  3.27060433e-09  1.56170385e-07  7.92438080e-08  1.20000000e-01 
 1.30000000e-01  4.56743571e-01  4.56743571e-01  4.56743571e-01  3.24823386e-09  4.56743572e-01  4.56743571e-01  3.27060422e-09  1.56170412e-07  7.92435637e-08  1.30000000e-01 
 1.40000000e-01  4.56743586e-01  4.56743586e-01  4.56743586e-01  3.24823398e-09  4.56743586e-01  4.56743586e-01  3.27060422e-09  1.56170435e-07  7.92434296e-08  1.40000000e-01 
 1.50000000e-01  4.56743589e-01  4.56743589e-01  4.56743589e-01  3.24823398e-09  4.56743589e-01  4.56743589e-01  3.27060433e-09  1.56170444e-07  7.92432235e-08  1.50000000e-01 
 1.60000000e-01  4.56743583e-01  4.56743583e-01  4.56743583e-01  3.24823386e-09  4.56743583e-01  4.56743583e-01  3.27060422e-09  1.56170427e-07  7.92430299e-08  1.60000000e-01 
 1.70000000e-01  4.56743580e-01  4.56743579e-01  4.56743580e-01  3.24823386e-09  4.56743580e-01  4.56743580e-01  3.27060422e-09  1.56170435e-07  7.92428168e-08  1.70000000e-01 
 1.80000000e-01  4.56743551e-01  4.56743550e-01  4.56743551e-01  3.24823397e-09  4.56743551e-01  4.56743551e-01  3.27060422e-09  1.56170383e-07  7.92425858e-08  1.80000000e-01 
 1.90000000e-01  4.56743591e-01  4.56743591e-01  4.56743591e-01  3.24823398e-09  4.56743591e-01  4.56743591e-01  3.27060422e-09  1.56170451e-07  7.92425503e-08  1.90000000e-01 
 2.00000000e-01  4.56743564e-01  4.56743564e-01  4.56743564e-01  3.24823386e-09  4.56743564e-01  4.56743564e-01  3.27060422e-09  1.56170405e-07  7.92423265e-08  2.00000000e-01 
 2.10000000e-01  4.56743613e-01  4.56743613e-01  4.56743613e-01  3.24823386e-09  4.56743613e-01  4.56743613e-01  3.27060422e-09  1.56170485e-07  7.92421559e-08  2.10000000e-01 
 2.20000000e-01  4.56743572e-01  4.56743572e-01  4.56743572e-01  3.24823398e-09  4.56743572e-01  4.56743572e-01  3.27060433e-09  1.56170410e-07  7.92419748e-08  2.20000000e-01 
 2.30000000e-01  4.56743610e-01  4.56743610e-01  4.56743610e-01  3.24823386e-09  4.56743610e-01  4.56743610e-01  3.27060422e-09  1.56170477e-07  7.92419321e-08  2.30000000e-01 
 2.40000000e-01  4.56743590e-01  4.56743590e-01  4.56743590e-01  3.24823386e-09  4.56743591e-01  4.56743590e-01  3.27060433e-09  1.56170418e-07  7.92416905e-08  2.40000000e-01 
 2.50000000e-01  4.56743568e-01  4.56743568e-01  4.56743568e-01  3.24823398e-09  4.56743568e-01  4.56743568e-01  3.27060433e-09  1.56170414e-07  7.92415182e-08  2.50000000e-01 
 2.60000000e-01  4.56743578e-01  4.56743578e-01  4.56743578e-01  3.24823386e-09  4.56743578e-01  4.56743578e-01  3.27060422e-09  1.56170431e-07  7.92413797e-08  2.60000000e-01 
 2.70000000e-01  4.56743586e-01  4.56743586e-01  4.56743586e-01  3.24823386e-09  4.56743586e-01  4.56743586e-01  3.27060422e-09  1.56170440e-07  7.92413513e-08  2.70000000e-01 
 2.80000000e-01  4.56743575e-01  4.56743575e-01  4.56743575e-01  3.24823398e-09  4.56743575e-01  4.56743575e-01  3.27060433e-09  1.56170418e-07  7.92411825e-08  2.80000000e-01 
 2.90000000e-01  4.56743602e-01  4.56743602e-01  4.56743602e-01  3.24823386e-09  4.56743602e-01  4.56743602e-01  3.27060422e-09  1.56170464e-07  7.92410795e-08  2.90000000e-01 
 3.00000000e-01  4.56743573e-01  4.56743573e-01  4.56743573e-01  3.24823398e-09  4.56743573e-01  4.56743573e-01  3.27060422e-09  1.56170415e-07  7.92408592e-08  3.00000000e-01 
 3.10000000e-01  4.56743588e-01  4.56743588e-01  4.56743588e-01  3.24823386e-09  4.56743588e-01  4.56743588e-01  3.27060433e-09  1.56170452e-07  7.92408628e-08  3.10000000e-01 
 3.20000000e-01  4.56743564e-01  4.56743564e-01  4.56743564e-01  3.24823386e-09  4.56743564e-01  4.56743564e-01  3.27060422e-09  1.56170404e-07  7.92406603e-08  3.20000000e-01 
 3.30000000e-01  4.56743609e-01  4.56743608e-01  4.56743609e-01  3.24823386e-09  4.56743609e-01  4.56743609e-01  3.27060422e-09  1.56170474e-07  7.92405430e-08  3.30000000e-01 
 3.40000000e-01  4.56743597e-01  4.56743597e-01  4.56743597e-01  3.24823386e-09  4.56743597e-01  4.56743597e-01  3.27060433e-09  1.56170447e-07  7.92405928e-08  3.40000000e-01 
 3.50000000e-01  4.56743575e-01  4.56743575e-01  4.56743575e-01  3.24823386e-09  4.56743575e-01  4.56743575e-01  3.27060433e-09  1.56170421e-07  7.92404045e-08  3.50000000e-01 
 3.60000000e-01  4.56743586e-01  4.56743586e-01  4.56743586e-01  3.24823398e-09  4.56743586e-01  4.56743586e-01  3.27060422e-09  1.56170437e-07  7.92401593e-08  3.60000000e-01 
 3.70000000e-01  4.56743576e-01  4.56743576e-01  4.56743576e-01  3.24823398e-09  4.56743576e-01  4.56743576e-01  3.27060422e-09  1.56170424e-07  7.92401806e-08  3.70000000e-01 
 3.80000000e-01  4.56743567e-01  4.56743567e-01  4.56743568e-01  3.24823398e-09  4.56743568e-01  4.56743567e-01  3.27060422e-09  1.56170401e-07  7.92401131e-08  3.80000000e-01 
 3.90000000e-01  4.56743592e-01  4.56743592e-01  4.56743593e-01  3.24823398e-09  4.56743593e-01  4.56743592e-01  3.27060422e-09  1.56170439e-07  7.92401096e-08  3.90000000e-01 
 4.00000000e-01  4.56743582e-01  4.56743581e-01  4.56743582e-01  3.24823386e-09  4.56743582e-01  4.56743582e-01  3.27060422e-09  1.56170431e-07  7.92399675e-08  4.00000000e-01 
 4.10000000e-01  4.56743600e-01  4.56743600e-01  4.56743600e-01  3.24823398e-09  4.56743600e-01  4.56743600e-01  3.27060433e-09  1.56170446e-07  7.92399213e-08  4.10000000e-01 
 4.20000000e-01  4.56743584e-01  4.56743583e-01  4.56743584e-01  3.24823398e-09  4.56743584e-01  4.56743584e-01  3.27060433e-09  1.56170434e-07  7.92398538e-08  4.20000000e-01 
 4.30000000e-01  4.56743549e-01  4.56743549e-01  4.56743549e-01  3.24823386e-09  4.56743549e-01  4.56743549e-01  3.27060422e-09  1.56170390e-07  7.92395447e-08  4.30000000e-01 
 4.40000000e-01  4.56743609e-01  4.56743609e-01  4.56743609e-01  3.24823386e-09  4.56743609e-01  4.56743609e-01  3.27060433e-09  1.56170473e-07  7.92396193e-08  4.40000000e-01 
 4.50000000e-01  4.56743591e-01  4.56743591e-01  4.56743591e-01  3.24823386e-09  4.56743591e-01  4.56743591e-01  3.27060433e-09  1.56170448e-07  7.92396229e-08  4.50000000e-01 
 4.60000000e-01  4.56743579e-01  4.56743579e-01  4.56743579e-01  3.24823398e-09  4.56743579e-01  4.56743579e-01  3.27060422e-09  1.56170427e-07  7.92395696e-08  4.60000000e-01 
 4.70000000e-01  4.56743571e-01  4.56743571e-01  4.56743571e-01  3.24823386e-09  4.56743571e-01  4.56743571e-01  3.27060422e-09  1.56170420e-07  7.92393493e-08  4.70000000e-01 
 4.80000000e-01  4.56743569e-01  4.56743569e-01  4.56743569e-01  3.24823398e-09  4.56743569e-01  4.56743569e-01  3.27060433e-09  1.56170420e-07  7.92392996e-08  4.80000000e-01 
 4.90000000e-01  4.56743622e-01  4.56743621e-01  4.56743622e-01  3.24823386e-09  4.56743622e-01  4.56743622e-01  3.27060433e-09  1.56170495e-07  7.92392605e-08  4.90000000e-01 
 5.00000000e-01  4.56743574e-01  4.56743574e-01  4.56743574e-01  3.24823386e-09  4.56743574e-01  4.56743574e-01  3.27060433e-09  1.56170422e-07  7.92391504e-08  5.00000000e-01 
 5.10000000e-01  4.56743580e-01  4.56743580e-01  4.56743580e-01  3.24823386e-09  4.56743580e-01  4.56743580e-01  3.27060422e-09  1.56170428e-07  7.92391646e-08  5.10000000e-01 
 5.20000000e-01  4.56743603e-01  4.56743603e-01  4.56743603e-01  3.24823386e-09  4.56743603e-01  4.56743603e-01  3.27060433e-09  1.56170471e-07  7.92390651e-08  5.20000000e-01 
 5.30000000e-01  4.56743564e-01  4.56743564e-01  4.56743564e-01  3.24823386e-09  4.56743564e-01  4.56743564e-01  3.27060422e-09  1.56170410e-07  7.92388590e-08  5.30000000e-01 
 5.40000000e-01  4.56743619e-01  4.56743619e-01  4.56743619e-01  3.24823386e-09  4.56743619e-01  4.56743619e-01  3.27060422e-09  1.56170498e-07  7.92389336e-08  5.40000000e-01 
 5.50000000e-01  4.56743590e-01  4.56743590e-01  4.56743590e-01  3.24823386e-09  4.56743590e-01  4.56743590e-01  3.27060422e-09  1.56170440e-07  7.92388590e-08  5.50000000e-01 
 5.60000000e-01  4.56743587e-01  4.56743587e-01  4.56743587e-01  3.24823386e-09  4.56743587e-01  4.56743587e-01  3.27060422e-09  1.56170448e-07  7.92386778e-08  5.60000000e-01 
 5.70000000e-01  4.56743564e-01  4.56743564e-01  4.56743564e-01  3.24823386e-09  4.56743564e-01  4.56743564e-01  3.27060422e-09  1.56170405e-07  7.92386281e-08  5.70000000e-01 
 5.80000000e-01  4.56743577e-01  4.56743577e-01  4.56743577e-01  3.24823398e-09  4.56743577e-01  4.56743577e-01  3.27060433e-09  1.56170426e-07  7.92385322e-08  5.80000000e-01 
 5.90000000e-01  4.56743588e-01  4.56743588e-01  4.56743588e-01  3.24823386e-09  4.56743588e-01  4.56743588e-01  3.27060422e-09  1.56170433e-07  7.92385535e-08  5.90000000e-01 
 6.00000000e-01  4.56743555e-01  4.56743555e-01  4.56743555e-01  3.24823386e-09  4.56743555e-01  4.56743555e-01  3.27060422e-09  1.56170375e-07  7.92384753e-08  6.00000000e-01 
 6.10000000e-01  4.56743597e-01  4.56743597e-01  4.56743597e-01  3.24823386e-09  4.56743597e-01  4.56743597e-01  3.27060433e-09  1.56170454e-07  7.92383759e-08  6.10000000e-01 
 6.20000000e-01  4.56743575e-01  4.56743575e-01  4.56743575e-01  3.24823386e-09  4.56743575e-01  4.56743575e-01  3.27060433e-09  1.56170405e-07  7.92384114e-08  6.20000000e-01 
 6.30000000e-01  4.56743600e-01  4.56743600e-01  4.56743600e-01  3.24823386e-09  4.56743600e-01  4.56743600e-01  3.27060433e-09  1.56170471e-07  7.92382195e-08  6.30000000e-01 
 6.40000000e-01  4.56743594e-01  4.56743594e-01  4.56743594e-01  3.24823386e-09  4.56743594e-01  4.56743594e-01  3.27060433e-09  1.56170439e-07  7.92382124e-08  6.40000000e-01 
 6.50000000e-01  4.56743578e-01  4.56743578e-01  4.56743578e-01  3.24823386e-09  4.56743578e-01  4.56743578e-01  3.27060422e-09  1.56170433e-07  7.92381059e-08  6.50000000e-01 
 6.60000000e-01  4.56743570e-01  4.56743570e-01  4.56743570e-01  3.24823398e-09  4.56743570e-01  4.56743570e-01  3.27060422e-09  1.56170404e-07  7.92379993e-08  6.60000000e-01 
 6.70000000e-01  4.56743598e-01  4.56743598e-01  4.56743598e-01  3.24823386e-09  4.56743598e-01  4.56743598e-01  3.27060422e-09  1.56170461e-07  7.92379353e-08  6.70000000e-01 
 6.80000000e-01  4.56743572e-01  4.56743572e-01  4.56743572e-01  3.24823386e-09  4.56743572e-01  4.56743572e-01  3.27060433e-09  1.56170416e-07  7.92379566e-08  6.80000000e-01 
 6.90000000e-01  4.56743591e-01  4.56743591e-01  4.56743591e-01  3.24823386e-09  4.56743591e-01  4.56743591e-01  3.27060433e-09  1.56170450e-07  7.92380135e-08  6.90000000e-01 
 7.00000000e-01  4.56743561e-01  4.56743561e-01  4.56743561e-01  3.24823398e-09  4.56743561e-01  4.56743561e-01  3.27060422e-09  1.56170392e-07  7.92377222e-08  7.00000000e-01 
 7.10000000e-01  4.56743599e-01  4.56743599e-01  4.56743599e-01  3.24823386e-09  4.56743599e-01  4.56743599e-01  3.27060422e-09  1.56170464e-07  7.92377719e-08  7.10000000e-01 
 7.20000000e-01  4.56743578e-01  4.56743578e-01  4.56743578e-01  3.24823398e-09  4.56743578e-01  4.56743578e-01  3.27060433e-09  1.56170403e-07  7.92376653e-08  7.20000000e-01 
 7.30000000e-01  4.56743583e-01  4.56743583e-01  4.56743583e-01  3.24823386e-09  4.56743583e-01  4.56743583e-01  3.27060422e-09  1.56170438e-07  7.92375943e-08  7.30000000e-01 
 7.40000000e-01  4.56743582e-01  4.56743582e-01  4.56743582e-01  3.24823386e-09  4.56743582e-01  4.56743582e-01  3.27060422e-09  1.56170427e-07  7.92375374e-08  7.40000000e-01 
 7.50000000e-01  4.56743580e-01  4.56743580e-01  4.56743580e-01  3.24823398e-09  4.56743580e-01  4.56743580e-01  3.27060433e-09  1.56170434e-07  7.92375445e-08  7.50000000e-01 
 7.60000000e-01  4.56743577e-01  4.56743577e-01  4.56743577e-01  3.24823386e-09  4.56743577e-01  4.56743577e-01  3.27060422e-09  1.56170421e-07  7.92374308e-08  7.60000000e-01 
 7.70000000e-01  4.56743571e-01  4.56743571e-01  4.56743571e-01  3.24823386e-09  4.56743571e-01  4.56743571e-01  3.27060422e-09  1.56170422e-07  7.92372106e-08  7.70000000e-01 
 7.80000000e-01  4.56743582e-01  4.56743582e-01  4.56743583e-01  3.24823398e-09  4.56743583e-01  4.56743582e-01  3.27060422e-09  1.56170427e-07  7.92373314e-08  7.80000000e-01 
 7.90000000e-01  4.56743569e-01  4.56743568e-01  4.56743569e-01  3.24823386e-09  4.56743569e-01  4.56743569e-01  3.27060422e-09  1.56170402e-07  7.92371182e-08  7.90000000e-01 
 8.00000000e-01  4.56743594e-01  4.56743593e-01  4.56743594e-01  3.24823386e-09  4.56743594e-01  4.56743594e-01  3.27060433e-09  1.56170448e-07  7.92371679e-08  8.00000000e-01 
 8.10000000e-01  4.56743575e-01  4.56743575e-01  4.56743575e-01  3.24823386e-09  4.56743575e-01  4.56743575e-01  3.27060433e-09  1.56170421e-07  7.92369903e-08  8.10000000e-01 
 8.20000000e-01  4.56743589e-01  4.56743589e-01  4.56743589e-01  3.24823386e-09  4.56743589e-01  4.56743589e-01  3.27060433e-09  1.56170449e-07  7.92368908e-08  8.20000000e-01 
 8.30000000e-01  4.56743558e-01  4.56743557e-01  4.56743558e-01  3.24823386e-09  4.56743558e-01  4.56743558e-01  3.27060433e-09  1.56170401e-07  7.92367914e-08  8.30000000e-01 
 8.40000000e-01  4.56743610e-01  4.56743610e-01  4.56743610e-01  3.24823398e-09  4.56743610e-01  4.56743610e-01  3.27060433e-09  1.56170484e-07  7.92368979e-08  8.40000000e-01 
 8.50000000e-01  4.56743552e-01  4.56743551e-01  4.56743552e-01  3.24823386e-09  4.56743552e-01  4.56743552e-01  3.27060433e-09  1.56170386e-07  7.92366919e-08  8.50000000e-01 
 8.60000000e-01  4.56743580e-01  4.56743580e-01  4.56743580e-01  3.24823386e-09  4.56743580e-01  4.56743580e-01  3.27060422e-09  1.56170424e-07  7.92367132e-08  8.60000000e-01 
 8.70000000e-01  4.56743586e-01  4.56743586e-01  4.56743586e-01  3.24823398e-09  4.56743586e-01  4.56743586e-01  3.27060422e-09  1.56170440e-07  7.92365569e-08  8.70000000e-01 
 8.80000000e-01  4.56743581e-01  4.56743581e-01  4.56743581e-01  3.24823386e-09  4.56743581e-01  4.56743581e-01  3.27060422e-09  1.56170437e-07  7.92365427e-08  8.80000000e-01 
 8.90000000e-01  4.56743567e-01  4.56743567e-01  4.56743567e-01  3.24823398e-09  4.56743567e-01  4.56743567e-01  3.27060422e-09  1.56170404e-07  7.92365356e-08  8.90000000e-01 
 9.00000000e-01  4.56743585e-01  4.56743585e-01  4.56743585e-01  3.24823386e-09  4.56743585e-01  4.56743585e-01  3.27060422e-09  1.56170431e-07  7.92364503e-08  9.00000000e-01 
 9.10000000e-01  4.56743581e-01  4.56743581e-01  4.56743581e-01  3.24823398e-09  4.56743581e-01  4.56743581e-01  3.27060422e-09  1.56170422e-07  7.92363153e-08  9.10000000e-01 
 9.20000000e-01  4.56743590e-01  4.56743590e-01  4.56743590e-01  3.24823398e-09  4.56743590e-01  4.56743590e-01  3.27060422e-09  1.56170438e-07  7.92362371e-08  9.20000000e-01 
 9.30000000e-01  4.56743602e-01  4.56743602e-01  4.56743602e-01  3.24823398e-09  4.56743602e-01  4.56743602e-01  3.27060422e-09  1.56170460e-07  7.92362300e-08  9.30000000e-01 
 9.40000000e-01  4.56743564e-01  4.56743564e-01  4.56743564e-01  3.24823386e-09  4.56743564e-01  4.56743564e-01  3.27060433e-09  1.56170399e-07  7.92360808e-08  9.40000000e-01 
 9.50000000e-01  4.56743576e-01  4.56743576e-01  4.56743576e-01  3.24823386e-09  4.56743576e-01  4.56743576e-01  3.27060422e-09  1.56170426e-07  7.92359813e-08  9.50000000e-01 
 9.60000000e-01  4.56743588e-01  4.56743588e-01  4.56743588e-01  3.24823398e-09  4.56743588e-01  4.56743588e-01  3.27060422e-09  1.56170432e-07  7.92360026e-08  9.60000000e-01 
 9.70000000e-01  4.56743569e-01  4.56743569e-01  4.56743569e-01  3.24823398e-09  4.56743569e-01  4.56743569e-01  3.27060422e-09  1.56170400e-07  7.92359103e-08  9.70000000e-01 
 9.80000000e-01  4.56743572e-01  4.56743572e-01  4.56743572e-01  3.24823386e-09  4.56743572e-01  4.56743572e-01  3.27060433e-09  1.56170427e-07  7.92357753e-08  9.80000000e-01 
 9.90000000e-01  4.56743597e-01  4.56743597e-01  4.56743597e-01  3.24823398e-09  4.56743597e-01  4.56743597e-01  3.27060422e-09  1.56170470e-07  7.92358321e-08  9.90000000e-01 
 1.00000000e+00  4.56743585e-01  4.56743585e-01  4.56743586e-01  3.24823386e-09  4.56743586e-01  4.56743585e-01  3.27060433e-09  1.56170454e-07  7.92356829e-08  1.00000000e+00 
 1.01000000e+00  4.56743572e-01  4.56743572e-01  4.56743572e-01  3.24823386e-09  4.56743572e-01  4.56743572e-01  3.27060433e-09  1.56170412e-07  7.92356545e-08  1.01000000e+00 
 1.02000000e+00  4.56743579e-01  4.56743578e-01  4.56743579e-01  3.24823398e-09  4.56743579e-01  4.56743579e-01  3.27060422e-09  1.56170427e-07  7.92355692e-08  1.02000000e+00 
 1.03000000e+00  4.56743573e-01  4.56743573e-01  4.56743573e-01  3.24823386e-09  4.56743573e-01  4.56743573e-01  3.27060422e-09  1.56170401e-07  7.92353703e-08  1.03000000e+00 
 1.04000000e+00  4.56743583e-01  4.56743583e-01  4.56743584e-01  3.24823398e-09  4.56743584e-01  4.56743583e-01  3.27060433e-09  1.56170425e-07  7.92353987e-08  1.04000000e+00 
 1.05000000e+00  4.56743576e-01  4.56743575e-01  4.56743576e-01  3.24823386e-09  4.56743576e-01  4.56743576e-01  3.27060433e-09  1.56170417e-07  7.92351855e-08  1.05000000e+00 
 1.06000000e+00  4.56743604e-01  4.56743604e-01  4.56743604e-01  3.24823398e-09  4.56743604e-01  4.56743604e-01  3.27060422e-09  1.56170468e-07  7.92352139e-08  1.06000000e+00 
 1.07000000e+00  4.56743552e-01  4.56743552e-01  4.56743552e-01  3.24823397e-09  4.56743552e-01  4.56743552e-01  3.27060422e-09  1.56170387e-07  7.92350718e-08  1.07000000e+00 
 1.08000000e+00  4.56743580e-01  4.56743579e-01  4.56743580e-01  3.24823386e-09  4.56743580e-01  4.56743580e-01  3.27060422e-09  1.56170445e-07  7.92349724e-08  1.08000000e+00 
 1.09000000e+00  4.56743567e-01  4.56743567e-01  4.56743567e-01  3.24823386e-09  4.56743567e-01  4.56743567e-01  3.27060433e-09  1.56170422e-07  7.92348871e-08  1.09000000e+00 
 1.10000000e+00  4.56743598e-01  4.56743598e-01  4.56743598e-01  3.24823398e-09  4.56743598e-01  4.56743598e-01  3.27060422e-09  1.56170454e-07  7.92350150e-08  1.10000000e+00 
