 v-sweep         v(b0)           v(b1)           v(b2)           v(b3)           v(b4)           v(b5)           v(b6)           i(vbias)        i(viout)        v(vout)        
 0.00000000e+00  4.57243072e-01  3.25807010e-09  3.23806577e-09  4.57243072e-01  4.57243072e-01  4.57243072e-01  3.23761946e-09  1.55090639e-07  8.18453039e-08  0.00000000e+00 
 1.00000000e-02  4.57243073e-01  3.25807009e-09  3.23806576e-09  4.57243073e-01  4.57243073e-01  4.57243073e-01  3.23761956e-09  1.55090641e-07  8.18448660e-08  1.00000000e-02 
 2.00000000e-02  4.57243064e-01  3.25807009e-09  3.23806576e-09  4.57243064e-01  4.57243064e-01  4.57243064e-01  3.23761945e-09  1.55090628e-07  8.18445201e-08  2.00000000e-02 
 3.00000000e-02  4.57243063e-01  3.25807009e-09  3.23806576e-09  4.57243063e-01  4.57243063e-01  4.57243063e-01  3.23761945e-09  1.55090611e-07  8.18441332e-08  3.00000000e-02 
 4.00000000e-02  4.57243060e-01  3.25807009e-09  3.23806576e-09  4.57243060e-01  4.57243060e-01  4.57243060e-01  3.23761945e-09  1.55090611e-07  8.18437305e-08  4.00000000e-02 
 5.00000000e-02  4.57243046e-01  3.25807009e-09  3.23806576e-09  4.57243046e-01  4.57243046e-01  4.57243046e-01  3.23761944e-09  1.55090588e-07  8.18433246e-08  5.00000000e-02 
 6.00000000e-02  4.57243092e-01  3.25807009e-09  3.23806576e-09  4.57243092e-01  4.57243092e-01  4.57243092e-01  3.23761956e-09  1.55090670e-07  8.18430661e-08  6.00000000e-02 
 7.00000000e-02  4.57243074e-01  3.25807009e-09  3.23806576e-09  4.57243074e-01  4.57243074e-01  4.57243074e-01  3.23761945e-09  1.55090642e-07  8.18428014e-08  7.00000000e-02 
 8.00000000e-02  4.57243062e-01  3.25807009e-09  3.23806576e-09  4.57243062e-01  4.57243062e-01  4.57243062e-01  3.23761956e-09  1.55090621e-07  8.18424883e-08  8.00000000e-02 
 9.00000000e-02  4.57243075e-01  3.25807009e-09  3.23806576e-09  4.57243075e-01  4.57243075e-01  4.57243075e-01  3.23761956e-09  1.55090648e-07  8.18422707e-08  9.00000000e-02 
 1.00000000e-01  4.57243073e-01  3.25807009e-09  3.23806576e-09  4.57243073e-01  4.57243073e-01  4.57243073e-01  3.23761956e-09  1.55090651e-07  8.18420025e-08  1.00000000e-01 
 1.10000000e-01  4.57243099e-01  3.25807009e-09  3.23806576e-09  4.57243099e-01  4.57243099e-01  4.57243099e-01  3.23761956e-09  1.55090675e-07  8.18417654e-08  1.10000000e-01 
 1.20000000e-01  4.57243083e-01  3.25807009e-09  3.23806576e-09  4.57243083e-01  4.57243083e-01  4.57243083e-01  3.23761956e-09  1.55090663e-07  8.18414225e-08  1.20000000e-01 
 1.30000000e-01  4.57243087e-01  3.25807009e-09  3.23806576e-09  4.57243088e-01  4.57243087e-01  4.57243087e-01  3.23761945e-09  1.55090661e-07  8.18412689e-08  1.30000000e-01 
 1.40000000e-01  4.57243071e-01  3.25807009e-09  3.23806576e-09  4.57243071e-01  4.57243071e-01  4.57243071e-01  3.23761956e-09  1.55090642e-07  8.18409518e-08  1.40000000e-01 
 1.50000000e-01  4.57243080e-01  3.25807009e-09  3.23806576e-09  4.57243080e-01  4.57243080e-01  4.57243080e-01  3.23761945e-09  1.55090660e-07  8.18407635e-08  1.50000000e-01 
 1.60000000e-01  4.57243092e-01  3.25807009e-09  3.23806576e-09  4.57243093e-01  4.57243092e-01  4.57243092e-01  3.23761945e-09  1.55090666e-07  8.18406285e-08  1.60000000e-01 
 1.70000000e-01  4.57243091e-01  3.25807009e-09  3.23806576e-09  4.57243091e-01  4.57243091e-01  4.57243091e-01  3.23761956e-09  1.55090655e-07  8.18404473e-08  1.70000000e-01 
 1.80000000e-01  4.57243094e-01  3.25807009e-09  3.23806576e-09  4.57243094e-01  4.57243094e-01  4.57243094e-01  3.23761945e-09  1.55090662e-07  8.18402146e-08  1.80000000e-01 
 1.90000000e-01  4.57243098e-01  3.25807009e-09  3.23806576e-09  4.57243098e-01  4.57243098e-01  4.57243098e-01  3.23761945e-09  1.55090687e-07  8.18400263e-08  1.90000000e-01 
 2.00000000e-01  4.57243059e-01  3.25807009e-09  3.23806576e-09  4.57243059e-01  4.57243059e-01  4.57243059e-01  3.23761945e-09  1.55090617e-07  8.18398576e-08  2.00000000e-01 
 2.10000000e-01  4.57243088e-01  3.25807009e-09  3.23806576e-09  4.57243088e-01  4.57243088e-01  4.57243088e-01  3.23761956e-09  1.55090657e-07  8.18397012e-08  2.10000000e-01 
 2.20000000e-01  4.57243089e-01  3.25807009e-09  3.23806576e-09  4.57243089e-01  4.57243089e-01  4.57243089e-01  3.23761956e-09  1.55090660e-07  8.18394970e-08  2.20000000e-01 
 2.30000000e-01  4.57243064e-01  3.25807009e-09  3.23806576e-09  4.57243064e-01  4.57243064e-01  4.57243064e-01  3.23761956e-09  1.55090623e-07  8.18392643e-08  2.30000000e-01 
 2.40000000e-01  4.57243067e-01  3.25807009e-09  3.23806576e-09  4.57243067e-01  4.57243067e-01  4.57243067e-01  3.23761956e-09  1.55090632e-07  8.18391506e-08  2.40000000e-01 
 2.50000000e-01  4.57243089e-01  3.25807009e-09  3.23806576e-09  4.57243089e-01  4.57243089e-01  4.57243089e-01  3.23761945e-09  1.55090667e-07  8.18392145e-08  2.50000000e-01 
 2.60000000e-01  4.57243055e-01  3.25807009e-09  3.23806576e-09  4.57243055e-01  4.57243055e-01  4.57243055e-01  3.23761945e-09  1.55090610e-07  8.18389676e-08  2.60000000e-01 
 2.70000000e-01  4.57243081e-01  3.25807009e-09  3.23806576e-09  4.57243081e-01  4.57243081e-01  4.57243081e-01  3.23761945e-09  1.55090644e-07  8.18388965e-08  2.70000000e-01 
 2.80000000e-01  4.57243080e-01  3.25807009e-09  3.23806576e-09  4.57243080e-01  4.57243080e-01  4.57243080e-01  3.23761945e-09  1.55090656e-07  8.18387438e-08  2.80000000e-01 
 2.90000000e-01  4.57243085e-01  3.25807009e-09  3.23806576e-09  4.57243085e-01  4.57243085e-01  4.57243085e-01  3.23761945e-09  1.55090652e-07  8.18385431e-08  2.90000000e-01 
 3.00000000e-01  4.57243076e-01  3.25807009e-09  3.23806576e-09  4.57243076e-01  4.57243076e-01  4.57243076e-01  3.23761945e-09  1.55090648e-07  8.18383938e-08  3.00000000e-01 
 3.10000000e-01  4.57243094e-01  3.25807009e-09  3.23806576e-09  4.57243094e-01  4.57243094e-01  4.57243094e-01  3.23761945e-09  1.55090671e-07  8.18384045e-08  3.10000000e-01 
 3.20000000e-01  4.57243074e-01  3.25807009e-09  3.23806576e-09  4.57243075e-01  4.57243074e-01  4.57243074e-01  3.23761956e-09  1.55090632e-07  8.18381736e-08  3.20000000e-01 
 3.30000000e-01  4.57243089e-01  3.25807009e-09  3.23806576e-09  4.57243089e-01  4.57243089e-01  4.57243089e-01  3.23761945e-09  1.55090647e-07  8.18381665e-08  3.30000000e-01 
 3.40000000e-01  4.57243099e-01  3.25807009e-09  3.23806576e-09  4.57243099e-01  4.57243099e-01  4.57243099e-01  3.23761945e-09  1.55090677e-07  8.18380883e-08  3.40000000e-01 
 3.50000000e-01  4.57243063e-01  3.25807009e-09  3.23806576e-09  4.57243064e-01  4.57243063e-01  4.57243063e-01  3.23761956e-09  1.55090640e-07  8.18379320e-08  3.50000000e-01 
 3.60000000e-01  4.57243068e-01  3.25807009e-09  3.23806576e-09  4.57243068e-01  4.57243068e-01  4.57243068e-01  3.23761945e-09  1.55090618e-07  8.18378112e-08  3.60000000e-01 
 3.70000000e-01  4.57243087e-01  3.25807009e-09  3.23806576e-09  4.57243087e-01  4.57243087e-01  4.57243087e-01  3.23761956e-09  1.55090647e-07  8.18378467e-08  3.70000000e-01 
 3.80000000e-01  4.57243067e-01  3.25807009e-09  3.23806576e-09  4.57243067e-01  4.57243067e-01  4.57243067e-01  3.23761956e-09  1.55090616e-07  8.18376407e-08  3.80000000e-01 
 3.90000000e-01  4.57243081e-01  3.25807009e-09  3.23806576e-09  4.57243081e-01  4.57243081e-01  4.57243081e-01  3.23761945e-09  1.55090646e-07  8.18376655e-08  3.90000000e-01 
 4.00000000e-01  4.57243086e-01  3.25807009e-09  3.23806576e-09  4.57243086e-01  4.57243086e-01  4.57243086e-01  3.23761945e-09  1.55090658e-07  8.18375518e-08  4.00000000e-01 
 4.10000000e-01  4.57243068e-01  3.25807009e-09  3.23806576e-09  4.57243068e-01  4.57243068e-01  4.57243068e-01  3.23761945e-09  1.55090631e-07  8.18372854e-08  4.10000000e-01 
 4.20000000e-01  4.57243045e-01  3.25807009e-09  3.23806576e-09  4.57243045e-01  4.57243045e-01  4.57243045e-01  3.23761944e-09  1.55090592e-07  8.18372747e-08  4.20000000e-01 
 4.30000000e-01  4.57243059e-01  3.25807009e-09  3.23806576e-09  4.57243059e-01  4.57243059e-01  4.57243059e-01  3.23761956e-09  1.55090609e-07  8.18370971e-08  4.30000000e-01 
 4.40000000e-01  4.57243065e-01  3.25807009e-09  3.23806576e-09  4.57243065e-01  4.57243065e-01  4.57243065e-01  3.23761945e-09  1.55090622e-07  8.18371255e-08  4.40000000e-01 
 4.50000000e-01  4.57243050e-01  3.25807009e-09  3.23806576e-09  4.57243050e-01  4.57243050e-01  4.57243050e-01  3.23761956e-09  1.55090611e-07  8.18371042e-08  4.50000000e-01 
 4.60000000e-01  4.57243076e-01  3.25807009e-09  3.23806576e-09  4.57243076e-01  4.57243076e-01  4.57243076e-01  3.23761945e-09  1.55090651e-07  8.18370260e-08  4.60000000e-01 
 4.70000000e-01  4.57243071e-01  3.25807009e-09  3.23806576e-09  4.57243071e-01  4.57243071e-01  4.57243071e-01  3.23761956e-09  1.55090638e-07  8.18369230e-08  4.70000000e-01 
 4.80000000e-01  4.57243080e-01  3.25807009e-09  3.23806576e-09  4.57243080e-01  4.57243080e-01  4.57243080e-01  3.23761945e-09  1.55090658e-07  8.18369870e-08  4.80000000e-01 
 4.90000000e-01  4.57243069e-01  3.25807009e-09  3.23806576e-09  4.57243069e-01  4.57243069e-01  4.57243069e-01  3.23761945e-09  1.55090638e-07  8.18367987e-08  4.90000000e-01 
 5.00000000e-01  4.57243089e-01  3.25807009e-09  3.23806576e-09  4.57243089e-01  4.57243089e-01  4.57243089e-01  3.23761945e-09  1.55090658e-07  8.18367774e-08  5.00000000e-01 
 5.10000000e-01  4.57243084e-01  3.25807009e-09  3.23806576e-09  4.57243084e-01  4.57243084e-01  4.57243084e-01  3.23761956e-09  1.55090667e-07  8.18366281e-08  5.10000000e-01 
 5.20000000e-01  4.57243075e-01  3.25807009e-09  3.23806576e-09  4.57243075e-01  4.57243075e-01  4.57243075e-01  3.23761956e-09  1.55090637e-07  8.18365677e-08  5.20000000e-01 
 5.30000000e-01  4.57243072e-01  3.25807009e-09  3.23806576e-09  4.57243072e-01  4.57243072e-01  4.57243072e-01  3.23761956e-09  1.55090643e-07  8.18365784e-08  5.30000000e-01 
 5.40000000e-01  4.57243096e-01  3.25807009e-09  3.23806576e-09  4.57243096e-01  4.57243096e-01  4.57243096e-01  3.23761956e-09  1.55090669e-07  8.18364541e-08  5.40000000e-01 
 5.50000000e-01  4.57243072e-01  3.25807009e-09  3.23806576e-09  4.57243072e-01  4.57243072e-01  4.57243072e-01  3.23761945e-09  1.55090635e-07  8.18364256e-08  5.50000000e-01 
 5.60000000e-01  4.57243097e-01  3.25807009e-09  3.23806576e-09  4.57243097e-01  4.57243097e-01  4.57243097e-01  3.23761956e-09  1.55090666e-07  8.18363759e-08  5.60000000e-01 
 5.70000000e-01  4.57243090e-01  3.25807009e-09  3.23806576e-09  4.57243090e-01  4.57243090e-01  4.57243090e-01  3.23761956e-09  1.55090657e-07  8.18362587e-08  5.70000000e-01 
 5.80000000e-01  4.57243088e-01  3.25807009e-09  3.23806576e-09  4.57243088e-01  4.57243088e-01  4.57243088e-01  3.23761956e-09  1.55090651e-07  8.18362125e-08  5.80000000e-01 
 5.90000000e-01  4.57243088e-01  3.25807009e-09  3.23806576e-09  4.57243089e-01  4.57243088e-01  4.57243088e-01  3.23761945e-09  1.55090657e-07  8.18360988e-08  5.90000000e-01 
 6.00000000e-01  4.57243080e-01  3.25807009e-09  3.23806576e-09  4.57243081e-01  4.57243080e-01  4.57243080e-01  3.23761956e-09  1.55090655e-07  8.18359709e-08  6.00000000e-01 
 6.10000000e-01  4.57243081e-01  3.25807009e-09  3.23806576e-09  4.57243081e-01  4.57243081e-01  4.57243081e-01  3.23761945e-09  1.55090660e-07  8.18360206e-08  6.10000000e-01 
 6.20000000e-01  4.57243072e-01  3.25807009e-09  3.23806576e-09  4.57243072e-01  4.57243072e-01  4.57243072e-01  3.23761956e-09  1.55090639e-07  8.18359283e-08  6.20000000e-01 
 6.30000000e-01  4.57243074e-01  3.25807009e-09  3.23806576e-09  4.57243074e-01  4.57243074e-01  4.57243074e-01  3.23761956e-09  1.55090643e-07  8.18358288e-08  6.30000000e-01 
 6.40000000e-01  4.57243080e-01  3.25807009e-09  3.23806576e-09  4.57243081e-01  4.57243080e-01  4.57243080e-01  3.23761945e-09  1.55090640e-07  8.18358146e-08  6.40000000e-01 
 6.50000000e-01  4.57243080e-01  3.25807009e-09  3.23806576e-09  4.57243080e-01  4.57243080e-01  4.57243080e-01  3.23761956e-09  1.55090651e-07  8.18355872e-08  6.50000000e-01 
 6.60000000e-01  4.57243106e-01  3.25807009e-09  3.23806576e-09  4.57243106e-01  4.57243106e-01  4.57243106e-01  3.23761945e-09  1.55090680e-07  8.18358004e-08  6.60000000e-01 
 6.70000000e-01  4.57243114e-01  3.25807009e-09  3.23806576e-09  4.57243114e-01  4.57243114e-01  4.57243114e-01  3.23761956e-09  1.55090695e-07  8.18356867e-08  6.70000000e-01 
 6.80000000e-01  4.57243079e-01  3.25807009e-09  3.23806576e-09  4.57243079e-01  4.57243079e-01  4.57243079e-01  3.23761945e-09  1.55090642e-07  8.18355375e-08  6.80000000e-01 
 6.90000000e-01  4.57243087e-01  3.25807009e-09  3.23806576e-09  4.57243087e-01  4.57243087e-01  4.57243087e-01  3.23761945e-09  1.55090647e-07  8.18355801e-08  6.90000000e-01 
 7.00000000e-01  4.57243078e-01  3.25807009e-09  3.23806576e-09  4.57243078e-01  4.57243078e-01  4.57243078e-01  3.23761945e-09  1.55090650e-07  8.18354025e-08  7.00000000e-01 
 7.10000000e-01  4.57243062e-01  3.25807009e-09  3.23806576e-09  4.57243062e-01  4.57243062e-01  4.57243062e-01  3.23761945e-09  1.55090624e-07  8.18352532e-08  7.10000000e-01 
 7.20000000e-01  4.57243095e-01  3.25807009e-09  3.23806576e-09  4.57243096e-01  4.57243095e-01  4.57243095e-01  3.23761945e-09  1.55090685e-07  8.18351751e-08  7.20000000e-01 
 7.30000000e-01  4.57243067e-01  3.25807009e-09  3.23806576e-09  4.57243067e-01  4.57243067e-01  4.57243067e-01  3.23761945e-09  1.55090627e-07  8.18350756e-08  7.30000000e-01 
 7.40000000e-01  4.57243089e-01  3.25807009e-09  3.23806576e-09  4.57243089e-01  4.57243089e-01  4.57243089e-01  3.23761945e-09  1.55090665e-07  8.18351538e-08  7.40000000e-01 
 7.50000000e-01  4.57243068e-01  3.25807009e-09  3.23806576e-09  4.57243068e-01  4.57243067e-01  4.57243067e-01  3.23761945e-09  1.55090637e-07  8.18350401e-08  7.50000000e-01 
 7.60000000e-01  4.57243077e-01  3.25807009e-09  3.23806576e-09  4.57243077e-01  4.57243077e-01  4.57243077e-01  3.23761956e-09  1.55090645e-07  8.18349122e-08  7.60000000e-01 
 7.70000000e-01  4.57243069e-01  3.25807009e-09  3.23806576e-09  4.57243069e-01  4.57243069e-01  4.57243069e-01  3.23761945e-09  1.55090639e-07  8.18348553e-08  7.70000000e-01 
 7.80000000e-01  4.57243069e-01  3.25807009e-09  3.23806576e-09  4.57243069e-01  4.57243069e-01  4.57243069e-01  3.23761945e-09  1.55090644e-07  8.18347772e-08  7.80000000e-01 
 7.90000000e-01  4.57243075e-01  3.25807009e-09  3.23806576e-09  4.57243075e-01  4.57243075e-01  4.57243075e-01  3.23761956e-09  1.55090637e-07  8.18347914e-08  7.90000000e-01 
 8.00000000e-01  4.57243073e-01  3.25807009e-09  3.23806576e-09  4.57243073e-01  4.57243073e-01  4.57243073e-01  3.23761945e-09  1.55090631e-07  8.18346066e-08  8.00000000e-01 
 8.10000000e-01  4.57243092e-01  3.25807009e-09  3.23806576e-09  4.57243092e-01  4.57243092e-01  4.57243092e-01  3.23761945e-09  1.55090659e-07  8.18346209e-08  8.10000000e-01 
 8.20000000e-01  4.57243085e-01  3.25807009e-09  3.23806576e-09  4.57243085e-01  4.57243085e-01  4.57243085e-01  3.23761945e-09  1.55090650e-07  8.18345782e-08  8.20000000e-01 
 8.30000000e-01  4.57243070e-01  3.25807009e-09  3.23806576e-09  4.57243070e-01  4.57243070e-01  4.57243070e-01  3.23761945e-09  1.55090646e-07  8.18343935e-08  8.30000000e-01 
 8.40000000e-01  4.57243084e-01  3.25807009e-09  3.23806576e-09  4.57243084e-01  4.57243084e-01  4.57243084e-01  3.23761945e-09  1.55090639e-07  8.18344219e-08  8.40000000e-01 
 8.50000000e-01  4.57243092e-01  3.25807009e-09  3.23806576e-09  4.57243092e-01  4.57243092e-01  4.57243092e-01  3.23761956e-09  1.55090669e-07  8.18344574e-08  8.50000000e-01 
 8.60000000e-01  4.57243095e-01  3.25807009e-09  3.23806576e-09  4.57243095e-01  4.57243095e-01  4.57243095e-01  3.23761956e-09  1.55090685e-07  8.18342727e-08  8.60000000e-01 
 8.70000000e-01  4.57243095e-01  3.25807009e-09  3.23806576e-09  4.57243095e-01  4.57243095e-01  4.57243095e-01  3.23761945e-09  1.55090665e-07  8.18342514e-08  8.70000000e-01 
 8.80000000e-01  4.57243089e-01  3.25807009e-09  3.23806576e-09  4.57243089e-01  4.57243089e-01  4.57243089e-01  3.23761945e-09  1.55090645e-07  8.18341519e-08  8.80000000e-01 
 8.90000000e-01  4.57243081e-01  3.25807009e-09  3.23806576e-09  4.57243081e-01  4.57243081e-01  4.57243081e-01  3.23761945e-09  1.55090645e-07  8.18340027e-08  8.90000000e-01 
 9.00000000e-01  4.57243075e-01  3.25807009e-09  3.23806576e-09  4.57243076e-01  4.57243075e-01  4.57243075e-01  3.23761945e-09  1.55090642e-07  8.18339387e-08  9.00000000e-01 
 9.10000000e-01  4.57243052e-01  3.25807009e-09  3.23806576e-09  4.57243052e-01  4.57243052e-01  4.57243052e-01  3.23761944e-09  1.55090622e-07  8.18338464e-08  9.10000000e-01 
 9.20000000e-01  4.57243089e-01  3.25807009e-09  3.23806576e-09  4.57243089e-01  4.57243089e-01  4.57243089e-01  3.23761945e-09  1.55090653e-07  8.18338819e-08  9.20000000e-01 
 9.30000000e-01  4.57243093e-01  3.25807009e-09  3.23806576e-09  4.57243093e-01  4.57243093e-01  4.57243093e-01  3.23761956e-09  1.55090675e-07  8.18338108e-08  9.30000000e-01 
 9.40000000e-01  4.57243066e-01  3.25807009e-09  3.23806576e-09  4.57243066e-01  4.57243066e-01  4.57243066e-01  3.23761945e-09  1.55090631e-07  8.18336616e-08  9.40000000e-01 
 9.50000000e-01  4.57243084e-01  3.25807009e-09  3.23806576e-09  4.57243085e-01  4.57243084e-01  4.57243084e-01  3.23761956e-09  1.55090661e-07  8.18336616e-08  9.50000000e-01 
 9.60000000e-01  4.57243058e-01  3.25807009e-09  3.23806576e-09  4.57243058e-01  4.57243058e-01  4.57243058e-01  3.23761945e-09  1.55090611e-07  8.18335053e-08  9.60000000e-01 
 9.70000000e-01  4.57243062e-01  3.25807009e-09  3.23806576e-09  4.57243062e-01  4.57243062e-01  4.57243062e-01  3.23761956e-09  1.55090614e-07  8.18334982e-08  9.70000000e-01 
 9.80000000e-01  4.57243090e-01  3.25807009e-09  3.23806576e-09  4.57243090e-01  4.57243090e-01  4.57243090e-01  3.23761956e-09  1.55090653e-07  8.18333916e-08  9.80000000e-01 
 9.90000000e-01  4.57243098e-01  3.25807009e-09  3.23806576e-09  4.57243098e-01  4.57243098e-01  4.57243098e-01  3.23761956e-09  1.55090665e-07  8.18333632e-08  9.90000000e-01 
 1.00000000e+00  4.57243085e-01  3.25807009e-09  3.23806576e-09  4.57243085e-01  4.57243085e-01  4.57243085e-01  3.23761956e-09  1.55090657e-07  8.18332779e-08  1.00000000e+00 
 1.01000000e+00  4.57243080e-01  3.25807009e-09  3.23806576e-09  4.57243080e-01  4.57243080e-01  4.57243080e-01  3.23761945e-09  1.55090658e-07  8.18332353e-08  1.01000000e+00 
 1.02000000e+00  4.57243064e-01  3.25807009e-09  3.23806576e-09  4.57243064e-01  4.57243064e-01  4.57243064e-01  3.23761945e-09  1.55090620e-07  8.18330577e-08  1.02000000e+00 
 1.03000000e+00  4.57243108e-01  3.25807009e-09  3.23806576e-09  4.57243108e-01  4.57243108e-01  4.57243108e-01  3.23761956e-09  1.55090681e-07  8.18331074e-08  1.03000000e+00 
 1.04000000e+00  4.57243080e-01  3.25807009e-09  3.23806576e-09  4.57243080e-01  4.57243080e-01  4.57243080e-01  3.23761956e-09  1.55090644e-07  8.18330221e-08  1.04000000e+00 
 1.05000000e+00  4.57243099e-01  3.25807009e-09  3.23806576e-09  4.57243099e-01  4.57243099e-01  4.57243099e-01  3.23761945e-09  1.55090669e-07  8.18328232e-08  1.05000000e+00 
 1.06000000e+00  4.57243077e-01  3.25807009e-09  3.23806576e-09  4.57243077e-01  4.57243077e-01  4.57243077e-01  3.23761956e-09  1.55090646e-07  8.18327948e-08  1.06000000e+00 
 1.07000000e+00  4.57243085e-01  3.25807009e-09  3.23806576e-09  4.57243085e-01  4.57243085e-01  4.57243085e-01  3.23761945e-09  1.55090671e-07  8.18328232e-08  1.07000000e+00 
 1.08000000e+00  4.57243091e-01  3.25807009e-09  3.23806576e-09  4.57243091e-01  4.57243091e-01  4.57243091e-01  3.23761956e-09  1.55090657e-07  8.18327237e-08  1.08000000e+00 
 1.09000000e+00  4.57243078e-01  3.25807009e-09  3.23806576e-09  4.57243078e-01  4.57243078e-01  4.57243078e-01  3.23761956e-09  1.55090629e-07  8.18325745e-08  1.09000000e+00 
 1.10000000e+00  4.57243085e-01  3.25807009e-09  3.23806576e-09  4.57243085e-01  4.57243085e-01  4.57243085e-01  3.23761945e-09  1.55090655e-07  8.18325461e-08  1.10000000e+00 
