 v-sweep         v(b0)           v(b1)           v(b2)           v(b3)           v(b4)           v(b5)           v(b6)           i(vbias)        i(viout)        v(vout)        
 0.00000000e+00  4.57772687e-01  4.57772687e-01  3.32316404e-09  4.57772687e-01  4.57772687e-01  3.27133492e-09  3.23965537e-09  1.58958152e-07  3.98934655e-08  0.00000000e+00 
 1.00000000e-02  4.57772652e-01  4.57772652e-01  3.32316402e-09  4.57772652e-01  4.57772652e-01  3.27133490e-09  3.23965536e-09  1.58958109e-07  3.98930341e-08  1.00000000e-02 
 2.00000000e-02  4.57772667e-01  4.57772667e-01  3.32316391e-09  4.57772667e-01  4.57772667e-01  3.27133502e-09  3.23965536e-09  1.58958130e-07  3.98927003e-08  2.00000000e-02 
 3.00000000e-02  4.57772678e-01  4.57772678e-01  3.32316402e-09  4.57772678e-01  4.57772678e-01  3.27133490e-09  3.23965536e-09  1.58958150e-07  3.98923752e-08  3.00000000e-02 
 4.00000000e-02  4.57772673e-01  4.57772673e-01  3.32316391e-09  4.57772673e-01  4.57772673e-01  3.27133490e-09  3.23965536e-09  1.58958127e-07  3.98920115e-08  4.00000000e-02 
 5.00000000e-02  4.57772667e-01  4.57772667e-01  3.32316391e-09  4.57772667e-01  4.57772667e-01  3.27133502e-09  3.23965536e-09  1.58958118e-07  3.98916415e-08  5.00000000e-02 
 6.00000000e-02  4.57772672e-01  4.57772672e-01  3.32316391e-09  4.57772672e-01  4.57772672e-01  3.27133502e-09  3.23965536e-09  1.58958130e-07  3.98914022e-08  6.00000000e-02 
 7.00000000e-02  4.57772683e-01  4.57772683e-01  3.32316402e-09  4.57772683e-01  4.57772683e-01  3.27133490e-09  3.23965536e-09  1.58958154e-07  3.98911277e-08  7.00000000e-02 
 8.00000000e-02  4.57772655e-01  4.57772656e-01  3.32316402e-09  4.57772656e-01  4.57772656e-01  3.27133502e-09  3.23965536e-09  1.58958115e-07  3.98907156e-08  8.00000000e-02 
 9.00000000e-02  4.57772669e-01  4.57772669e-01  3.32316402e-09  4.57772669e-01  4.57772669e-01  3.27133490e-09  3.23965536e-09  1.58958129e-07  3.98904296e-08  9.00000000e-02 
 1.00000000e-01  4.57772657e-01  4.57772657e-01  3.32316391e-09  4.57772657e-01  4.57772657e-01  3.27133490e-09  3.23965536e-09  1.58958118e-07  3.98902298e-08  1.00000000e-01 
 1.10000000e-01  4.57772648e-01  4.57772648e-01  3.32316402e-09  4.57772648e-01  4.57772648e-01  3.27133490e-09  3.23965536e-09  1.58958095e-07  3.98900593e-08  1.10000000e-01 
 1.20000000e-01  4.57772663e-01  4.57772663e-01  3.32316402e-09  4.57772663e-01  4.57772663e-01  3.27133502e-09  3.23965536e-09  1.58958125e-07  3.98897662e-08  1.20000000e-01 
 1.30000000e-01  4.57772647e-01  4.57772647e-01  3.32316402e-09  4.57772647e-01  4.57772647e-01  3.27133490e-09  3.23965536e-09  1.58958097e-07  3.98896542e-08  1.30000000e-01 
 1.40000000e-01  4.57772690e-01  4.57772690e-01  3.32316391e-09  4.57772690e-01  4.57772690e-01  3.27133502e-09  3.23965536e-09  1.58958162e-07  3.98894207e-08  1.40000000e-01 
 1.50000000e-01  4.57772654e-01  4.57772654e-01  3.32316391e-09  4.57772654e-01  4.57772654e-01  3.27133502e-09  3.23965536e-09  1.58958086e-07  3.98891213e-08  1.50000000e-01 
 1.60000000e-01  4.57772674e-01  4.57772674e-01  3.32316391e-09  4.57772674e-01  4.57772674e-01  3.27133490e-09  3.23965536e-09  1.58958147e-07  3.98889100e-08  1.60000000e-01 
 1.70000000e-01  4.57772670e-01  4.57772670e-01  3.32316402e-09  4.57772670e-01  4.57772670e-01  3.27133490e-09  3.23965536e-09  1.58958131e-07  3.98887607e-08  1.70000000e-01 
 1.80000000e-01  4.57772681e-01  4.57772681e-01  3.32316402e-09  4.57772681e-01  4.57772681e-01  3.27133502e-09  3.23965536e-09  1.58958136e-07  3.98885707e-08  1.80000000e-01 
 1.90000000e-01  4.57772691e-01  4.57772691e-01  3.32316402e-09  4.57772691e-01  4.57772691e-01  3.27133491e-09  3.23965536e-09  1.58958164e-07  3.98884037e-08  1.90000000e-01 
 2.00000000e-01  4.57772659e-01  4.57772659e-01  3.32316402e-09  4.57772659e-01  4.57772659e-01  3.27133490e-09  3.23965547e-09  1.58958103e-07  3.98882456e-08  2.00000000e-01 
 2.10000000e-01  4.57772644e-01  4.57772644e-01  3.32316402e-09  4.57772644e-01  4.57772644e-01  3.27133502e-09  3.23965546e-09  1.58958089e-07  3.98880964e-08  2.10000000e-01 
 2.20000000e-01  4.57772672e-01  4.57772672e-01  3.32316402e-09  4.57772672e-01  4.57772672e-01  3.27133490e-09  3.23965535e-09  1.58958121e-07  3.98879472e-08  2.20000000e-01 
 2.30000000e-01  4.57772674e-01  4.57772674e-01  3.32316402e-09  4.57772674e-01  4.57772674e-01  3.27133502e-09  3.23965536e-09  1.58958142e-07  3.98878370e-08  2.30000000e-01 
 2.40000000e-01  4.57772673e-01  4.57772673e-01  3.32316391e-09  4.57772673e-01  4.57772673e-01  3.27133490e-09  3.23965536e-09  1.58958141e-07  3.98876985e-08  2.40000000e-01 
 2.50000000e-01  4.57772676e-01  4.57772676e-01  3.32316402e-09  4.57772676e-01  4.57772676e-01  3.27133490e-09  3.23965536e-09  1.58958132e-07  3.98875866e-08  2.50000000e-01 
 2.60000000e-01  4.57772654e-01  4.57772654e-01  3.32316391e-09  4.57772654e-01  4.57772654e-01  3.27133490e-09  3.23965536e-09  1.58958101e-07  3.98873397e-08  2.60000000e-01 
 2.70000000e-01  4.57772681e-01  4.57772681e-01  3.32316391e-09  4.57772681e-01  4.57772681e-01  3.27133490e-09  3.23965547e-09  1.58958140e-07  3.98873148e-08  2.70000000e-01 
 2.80000000e-01  4.57772661e-01  4.57772661e-01  3.32316391e-09  4.57772661e-01  4.57772661e-01  3.27133502e-09  3.23965535e-09  1.58958124e-07  3.98871922e-08  2.80000000e-01 
 2.90000000e-01  4.57772669e-01  4.57772669e-01  3.32316391e-09  4.57772669e-01  4.57772669e-01  3.27133502e-09  3.23965536e-09  1.58958128e-07  3.98871727e-08  2.90000000e-01 
 3.00000000e-01  4.57772685e-01  4.57772685e-01  3.32316402e-09  4.57772685e-01  4.57772685e-01  3.27133490e-09  3.23965536e-09  1.58958145e-07  3.98870128e-08  3.00000000e-01 
 3.10000000e-01  4.57772691e-01  4.57772691e-01  3.32316402e-09  4.57772691e-01  4.57772691e-01  3.27133491e-09  3.23965536e-09  1.58958176e-07  3.98869417e-08  3.10000000e-01 
 3.20000000e-01  4.57772670e-01  4.57772670e-01  3.32316402e-09  4.57772670e-01  4.57772670e-01  3.27133490e-09  3.23965536e-09  1.58958129e-07  3.98869027e-08  3.20000000e-01 
 3.30000000e-01  4.57772647e-01  4.57772647e-01  3.32316402e-09  4.57772647e-01  4.57772647e-01  3.27133490e-09  3.23965536e-09  1.58958098e-07  3.98867570e-08  3.30000000e-01 
 3.40000000e-01  4.57772671e-01  4.57772671e-01  3.32316402e-09  4.57772671e-01  4.57772671e-01  3.27133490e-09  3.23965536e-09  1.58958129e-07  3.98866504e-08  3.40000000e-01 
 3.50000000e-01  4.57772679e-01  4.57772679e-01  3.32316402e-09  4.57772679e-01  4.57772679e-01  3.27133490e-09  3.23965536e-09  1.58958134e-07  3.98864834e-08  3.50000000e-01 
 3.60000000e-01  4.57772666e-01  4.57772666e-01  3.32316402e-09  4.57772666e-01  4.57772666e-01  3.27133490e-09  3.23965536e-09  1.58958119e-07  3.98864834e-08  3.60000000e-01 
 3.70000000e-01  4.57772665e-01  4.57772665e-01  3.32316391e-09  4.57772665e-01  4.57772665e-01  3.27133490e-09  3.23965536e-09  1.58958125e-07  3.98864550e-08  3.70000000e-01 
 3.80000000e-01  4.57772652e-01  4.57772652e-01  3.32316402e-09  4.57772652e-01  4.57772652e-01  3.27133502e-09  3.23965536e-09  1.58958112e-07  3.98862738e-08  3.80000000e-01 
 3.90000000e-01  4.57772662e-01  4.57772662e-01  3.32316391e-09  4.57772662e-01  4.57772662e-01  3.27133502e-09  3.23965536e-09  1.58958110e-07  3.98862987e-08  3.90000000e-01 
 4.00000000e-01  4.57772666e-01  4.57772666e-01  3.32316391e-09  4.57772666e-01  4.57772666e-01  3.27133490e-09  3.23965536e-09  1.58958121e-07  3.98861104e-08  4.00000000e-01 
 4.10000000e-01  4.57772675e-01  4.57772675e-01  3.32316402e-09  4.57772675e-01  4.57772675e-01  3.27133490e-09  3.23965536e-09  1.58958136e-07  3.98860678e-08  4.10000000e-01 
 4.20000000e-01  4.57772689e-01  4.57772689e-01  3.32316402e-09  4.57772689e-01  4.57772689e-01  3.27133502e-09  3.23965536e-09  1.58958159e-07  3.98859576e-08  4.20000000e-01 
 4.30000000e-01  4.57772653e-01  4.57772653e-01  3.32316402e-09  4.57772653e-01  4.57772653e-01  3.27133490e-09  3.23965536e-09  1.58958099e-07  3.98858049e-08  4.30000000e-01 
 4.40000000e-01  4.57772665e-01  4.57772665e-01  3.32316402e-09  4.57772665e-01  4.57772665e-01  3.27133490e-09  3.23965536e-09  1.58958124e-07  3.98857978e-08  4.40000000e-01 
 4.50000000e-01  4.57772678e-01  4.57772679e-01  3.32316402e-09  4.57772678e-01  4.57772678e-01  3.27133490e-09  3.23965536e-09  1.58958137e-07  3.98857907e-08  4.50000000e-01 
 4.60000000e-01  4.57772688e-01  4.57772688e-01  3.32316391e-09  4.57772688e-01  4.57772688e-01  3.27133502e-09  3.23965536e-09  1.58958150e-07  3.98857409e-08  4.60000000e-01 
 4.70000000e-01  4.57772681e-01  4.57772681e-01  3.32316402e-09  4.57772681e-01  4.57772681e-01  3.27133490e-09  3.23965536e-09  1.58958150e-07  3.98857374e-08  4.70000000e-01 
 4.80000000e-01  4.57772658e-01  4.57772658e-01  3.32316402e-09  4.57772658e-01  4.57772658e-01  3.27133490e-09  3.23965536e-09  1.58958101e-07  3.98854461e-08  4.80000000e-01 
 4.90000000e-01  4.57772679e-01  4.57772679e-01  3.32316402e-09  4.57772679e-01  4.57772679e-01  3.27133490e-09  3.23965536e-09  1.58958143e-07  3.98856521e-08  4.90000000e-01 
 5.00000000e-01  4.57772649e-01  4.57772649e-01  3.32316402e-09  4.57772649e-01  4.57772649e-01  3.27133502e-09  3.23965536e-09  1.58958084e-07  3.98854318e-08  5.00000000e-01 
 5.10000000e-01  4.57772696e-01  4.57772696e-01  3.32316402e-09  4.57772696e-01  4.57772696e-01  3.27133502e-09  3.23965536e-09  1.58958179e-07  3.98854354e-08  5.10000000e-01 
 5.20000000e-01  4.57772666e-01  4.57772666e-01  3.32316402e-09  4.57772666e-01  4.57772666e-01  3.27133490e-09  3.23965536e-09  1.58958100e-07  3.98852933e-08  5.20000000e-01 
 5.30000000e-01  4.57772666e-01  4.57772666e-01  3.32316402e-09  4.57772666e-01  4.57772666e-01  3.27133490e-09  3.23965536e-09  1.58958120e-07  3.98853359e-08  5.30000000e-01 
 5.40000000e-01  4.57772663e-01  4.57772663e-01  3.32316391e-09  4.57772663e-01  4.57772663e-01  3.27133490e-09  3.23965547e-09  1.58958120e-07  3.98852222e-08  5.40000000e-01 
 5.50000000e-01  4.57772658e-01  4.57772658e-01  3.32316402e-09  4.57772658e-01  4.57772658e-01  3.27133490e-09  3.23965535e-09  1.58958114e-07  3.98851085e-08  5.50000000e-01 
 5.60000000e-01  4.57772661e-01  4.57772662e-01  3.32316402e-09  4.57772661e-01  4.57772661e-01  3.27133490e-09  3.23965536e-09  1.58958129e-07  3.98851228e-08  5.60000000e-01 
 5.70000000e-01  4.57772674e-01  4.57772674e-01  3.32316402e-09  4.57772674e-01  4.57772674e-01  3.27133502e-09  3.23965536e-09  1.58958131e-07  3.98850730e-08  5.70000000e-01 
 5.80000000e-01  4.57772687e-01  4.57772687e-01  3.32316402e-09  4.57772687e-01  4.57772687e-01  3.27133490e-09  3.23965547e-09  1.58958144e-07  3.98849167e-08  5.80000000e-01 
 5.90000000e-01  4.57772675e-01  4.57772675e-01  3.32316402e-09  4.57772675e-01  4.57772675e-01  3.27133490e-09  3.23965535e-09  1.58958132e-07  3.98849451e-08  5.90000000e-01 
 6.00000000e-01  4.57772650e-01  4.57772650e-01  3.32316402e-09  4.57772650e-01  4.57772650e-01  3.27133490e-09  3.23965536e-09  1.58958094e-07  3.98848456e-08  6.00000000e-01 
 6.10000000e-01  4.57772667e-01  4.57772667e-01  3.32316402e-09  4.57772667e-01  4.57772667e-01  3.27133502e-09  3.23965547e-09  1.58958126e-07  3.98848954e-08  6.10000000e-01 
 6.20000000e-01  4.57772666e-01  4.57772666e-01  3.32316402e-09  4.57772666e-01  4.57772666e-01  3.27133490e-09  3.23965535e-09  1.58958116e-07  3.98847035e-08  6.20000000e-01 
 6.30000000e-01  4.57772682e-01  4.57772682e-01  3.32316402e-09  4.57772682e-01  4.57772682e-01  3.27133490e-09  3.23965536e-09  1.58958146e-07  3.98847035e-08  6.30000000e-01 
 6.40000000e-01  4.57772690e-01  4.57772690e-01  3.32316391e-09  4.57772690e-01  4.57772690e-01  3.27133490e-09  3.23965536e-09  1.58958162e-07  3.98847533e-08  6.40000000e-01 
 6.50000000e-01  4.57772663e-01  4.57772663e-01  3.32316391e-09  4.57772663e-01  4.57772663e-01  3.27133502e-09  3.23965536e-09  1.58958137e-07  3.98845330e-08  6.50000000e-01 
 6.60000000e-01  4.57772655e-01  4.57772655e-01  3.32316391e-09  4.57772655e-01  4.57772655e-01  3.27133490e-09  3.23965547e-09  1.58958118e-07  3.98845685e-08  6.60000000e-01 
 6.70000000e-01  4.57772677e-01  4.57772677e-01  3.32316402e-09  4.57772677e-01  4.57772677e-01  3.27133490e-09  3.23965546e-09  1.58958136e-07  3.98844975e-08  6.70000000e-01 
 6.80000000e-01  4.57772697e-01  4.57772697e-01  3.32316402e-09  4.57772697e-01  4.57772697e-01  3.27133491e-09  3.23965535e-09  1.58958167e-07  3.98844122e-08  6.80000000e-01 
 6.90000000e-01  4.57772686e-01  4.57772686e-01  3.32316391e-09  4.57772686e-01  4.57772686e-01  3.27133490e-09  3.23965536e-09  1.58958148e-07  3.98843483e-08  6.90000000e-01 
 7.00000000e-01  4.57772665e-01  4.57772665e-01  3.32316402e-09  4.57772665e-01  4.57772665e-01  3.27133502e-09  3.23965536e-09  1.58958125e-07  3.98844335e-08  7.00000000e-01 
 7.10000000e-01  4.57772671e-01  4.57772671e-01  3.32316402e-09  4.57772671e-01  4.57772671e-01  3.27133490e-09  3.23965536e-09  1.58958114e-07  3.98841848e-08  7.10000000e-01 
 7.20000000e-01  4.57772655e-01  4.57772655e-01  3.32316402e-09  4.57772655e-01  4.57772655e-01  3.27133502e-09  3.23965536e-09  1.58958112e-07  3.98841493e-08  7.20000000e-01 
 7.30000000e-01  4.57772655e-01  4.57772655e-01  3.32316402e-09  4.57772655e-01  4.57772655e-01  3.27133490e-09  3.23965536e-09  1.58958098e-07  3.98840783e-08  7.30000000e-01 
 7.40000000e-01  4.57772663e-01  4.57772663e-01  3.32316402e-09  4.57772663e-01  4.57772663e-01  3.27133502e-09  3.23965536e-09  1.58958108e-07  3.98841280e-08  7.40000000e-01 
 7.50000000e-01  4.57772682e-01  4.57772682e-01  3.32316391e-09  4.57772682e-01  4.57772682e-01  3.27133502e-09  3.23965536e-09  1.58958136e-07  3.98840783e-08  7.50000000e-01 
 7.60000000e-01  4.57772656e-01  4.57772656e-01  3.32316402e-09  4.57772656e-01  4.57772656e-01  3.27133490e-09  3.23965547e-09  1.58958108e-07  3.98839433e-08  7.60000000e-01 
 7.70000000e-01  4.57772663e-01  4.57772663e-01  3.32316402e-09  4.57772663e-01  4.57772663e-01  3.27133490e-09  3.23965535e-09  1.58958122e-07  3.98839290e-08  7.70000000e-01 
 7.80000000e-01  4.57772660e-01  4.57772660e-01  3.32316402e-09  4.57772660e-01  4.57772660e-01  3.27133490e-09  3.23965536e-09  1.58958105e-07  3.98838438e-08  7.80000000e-01 
 7.90000000e-01  4.57772685e-01  4.57772685e-01  3.32316402e-09  4.57772685e-01  4.57772685e-01  3.27133490e-09  3.23965536e-09  1.58958148e-07  3.98838651e-08  7.90000000e-01 
 8.00000000e-01  4.57772708e-01  4.57772708e-01  3.32316403e-09  4.57772708e-01  4.57772708e-01  3.27133491e-09  3.23965536e-09  1.58958186e-07  3.98839433e-08  8.00000000e-01 
 8.10000000e-01  4.57772668e-01  4.57772668e-01  3.32316391e-09  4.57772668e-01  4.57772668e-01  3.27133490e-09  3.23965536e-09  1.58958113e-07  3.98836875e-08  8.10000000e-01 
 8.20000000e-01  4.57772661e-01  4.57772661e-01  3.32316391e-09  4.57772661e-01  4.57772661e-01  3.27133490e-09  3.23965536e-09  1.58958124e-07  3.98836804e-08  8.20000000e-01 
 8.30000000e-01  4.57772668e-01  4.57772668e-01  3.32316402e-09  4.57772668e-01  4.57772668e-01  3.27133490e-09  3.23965536e-09  1.58958118e-07  3.98835951e-08  8.30000000e-01 
 8.40000000e-01  4.57772663e-01  4.57772663e-01  3.32316402e-09  4.57772663e-01  4.57772663e-01  3.27133490e-09  3.23965547e-09  1.58958123e-07  3.98835667e-08  8.40000000e-01 
 8.50000000e-01  4.57772685e-01  4.57772685e-01  3.32316391e-09  4.57772685e-01  4.57772685e-01  3.27133490e-09  3.23965535e-09  1.58958149e-07  3.98834104e-08  8.50000000e-01 
 8.60000000e-01  4.57772660e-01  4.57772660e-01  3.32316391e-09  4.57772660e-01  4.57772660e-01  3.27133490e-09  3.23965536e-09  1.58958111e-07  3.98834246e-08  8.60000000e-01 
 8.70000000e-01  4.57772658e-01  4.57772658e-01  3.32316391e-09  4.57772658e-01  4.57772658e-01  3.27133490e-09  3.23965536e-09  1.58958114e-07  3.98833606e-08  8.70000000e-01 
 8.80000000e-01  4.57772672e-01  4.57772672e-01  3.32316391e-09  4.57772672e-01  4.57772672e-01  3.27133502e-09  3.23965536e-09  1.58958124e-07  3.98832256e-08  8.80000000e-01 
 8.90000000e-01  4.57772664e-01  4.57772664e-01  3.32316402e-09  4.57772664e-01  4.57772664e-01  3.27133490e-09  3.23965536e-09  1.58958120e-07  3.98832043e-08  8.90000000e-01 
 9.00000000e-01  4.57772671e-01  4.57772671e-01  3.32316402e-09  4.57772671e-01  4.57772671e-01  3.27133490e-09  3.23965536e-09  1.58958129e-07  3.98832256e-08  9.00000000e-01 
 9.10000000e-01  4.57772665e-01  4.57772665e-01  3.32316391e-09  4.57772665e-01  4.57772665e-01  3.27133490e-09  3.23965536e-09  1.58958125e-07  3.98830764e-08  9.10000000e-01 
 9.20000000e-01  4.57772665e-01  4.57772665e-01  3.32316391e-09  4.57772665e-01  4.57772665e-01  3.27133502e-09  3.23965536e-09  1.58958131e-07  3.98831261e-08  9.20000000e-01 
 9.30000000e-01  4.57772668e-01  4.57772668e-01  3.32316391e-09  4.57772668e-01  4.57772668e-01  3.27133490e-09  3.23965536e-09  1.58958140e-07  3.98829982e-08  9.30000000e-01 
 9.40000000e-01  4.57772655e-01  4.57772655e-01  3.32316402e-09  4.57772655e-01  4.57772655e-01  3.27133490e-09  3.23965536e-09  1.58958128e-07  3.98829130e-08  9.40000000e-01 
 9.50000000e-01  4.57772652e-01  4.57772652e-01  3.32316402e-09  4.57772652e-01  4.57772652e-01  3.27133490e-09  3.23965536e-09  1.58958111e-07  3.98829130e-08  9.50000000e-01 
 9.60000000e-01  4.57772668e-01  4.57772668e-01  3.32316402e-09  4.57772668e-01  4.57772668e-01  3.27133490e-09  3.23965536e-09  1.58958123e-07  3.98828419e-08  9.60000000e-01 
 9.70000000e-01  4.57772667e-01  4.57772667e-01  3.32316402e-09  4.57772667e-01  4.57772667e-01  3.27133502e-09  3.23965536e-09  1.58958131e-07  3.98828561e-08  9.70000000e-01 
 9.80000000e-01  4.57772678e-01  4.57772678e-01  3.32316402e-09  4.57772678e-01  4.57772678e-01  3.27133490e-09  3.23965536e-09  1.58958148e-07  3.98827638e-08  9.80000000e-01 
 9.90000000e-01  4.57772649e-01  4.57772649e-01  3.32316402e-09  4.57772649e-01  4.57772649e-01  3.27133502e-09  3.23965536e-09  1.58958108e-07  3.98826998e-08  9.90000000e-01 
 1.00000000e+00  4.57772675e-01  4.57772675e-01  3.32316402e-09  4.57772675e-01  4.57772675e-01  3.27133490e-09  3.23965536e-09  1.58958142e-07  3.98826714e-08  1.00000000e+00 
 1.01000000e+00  4.57772674e-01  4.57772674e-01  3.32316402e-09  4.57772674e-01  4.57772674e-01  3.27133490e-09  3.23965536e-09  1.58958140e-07  3.98825648e-08  1.01000000e+00 
 1.02000000e+00  4.57772697e-01  4.57772697e-01  3.32316391e-09  4.57772697e-01  4.57772697e-01  3.27133491e-09  3.23965536e-09  1.58958170e-07  3.98823801e-08  1.02000000e+00 
 1.03000000e+00  4.57772661e-01  4.57772662e-01  3.32316402e-09  4.57772661e-01  4.57772661e-01  3.27133490e-09  3.23965536e-09  1.58958115e-07  3.98824582e-08  1.03000000e+00 
 1.04000000e+00  4.57772672e-01  4.57772672e-01  3.32316402e-09  4.57772672e-01  4.57772672e-01  3.27133490e-09  3.23965536e-09  1.58958140e-07  3.98823801e-08  1.04000000e+00 
 1.05000000e+00  4.57772673e-01  4.57772673e-01  3.32316402e-09  4.57772673e-01  4.57772673e-01  3.27133490e-09  3.23965536e-09  1.58958135e-07  3.98822237e-08  1.05000000e+00 
 1.06000000e+00  4.57772692e-01  4.57772692e-01  3.32316402e-09  4.57772692e-01  4.57772692e-01  3.27133502e-09  3.23965536e-09  1.58958161e-07  3.98823730e-08  1.06000000e+00 
 1.07000000e+00  4.57772710e-01  4.57772710e-01  3.32316403e-09  4.57772710e-01  4.57772710e-01  3.27133491e-09  3.23965536e-09  1.58958189e-07  3.98821953e-08  1.07000000e+00 
 1.08000000e+00  4.57772689e-01  4.57772689e-01  3.32316402e-09  4.57772689e-01  4.57772689e-01  3.27133502e-09  3.23965536e-09  1.58958151e-07  3.98820603e-08  1.08000000e+00 
 1.09000000e+00  4.57772674e-01  4.57772674e-01  3.32316402e-09  4.57772674e-01  4.57772674e-01  3.27133490e-09  3.23965536e-09  1.58958133e-07  3.98820674e-08  1.09000000e+00 
 1.10000000e+00  4.57772643e-01  4.57772643e-01  3.32316402e-09  4.57772643e-01  4.57772643e-01  3.27133502e-09  3.23965536e-09  1.58958096e-07  3.98821101e-08  1.10000000e+00 
