 v-sweep         v(b0)           v(b1)           v(b2)           v(b3)           v(b4)           v(b5)           v(b6)           i(vbias)        i(viout)        v(vout)        
 0.00000000e+00  4.58462166e-01  4.58462166e-01  4.58462166e-01  3.24523765e-09  3.27601234e-09  3.27050783e-09  3.28527967e-09  1.59153536e-07  1.13937396e-08  0.00000000e+00 
 1.00000000e-02  4.58462176e-01  4.58462176e-01  4.58462176e-01  3.24523764e-09  3.27601222e-09  3.27050782e-09  3.28527966e-09  1.59153554e-07  1.13932497e-08  1.00000000e-02 
 2.00000000e-02  4.58462176e-01  4.58462176e-01  4.58462175e-01  3.24523764e-09  3.27601222e-09  3.27050782e-09  3.28527966e-09  1.59153558e-07  1.13929031e-08  2.00000000e-02 
 3.00000000e-02  4.58462177e-01  4.58462177e-01  4.58462177e-01  3.24523764e-09  3.27601233e-09  3.27050782e-09  3.28527966e-09  1.59153542e-07  1.13925513e-08  3.00000000e-02 
 4.00000000e-02  4.58462149e-01  4.58462149e-01  4.58462149e-01  3.24523764e-09  3.27601233e-09  3.27050782e-09  3.28527966e-09  1.59153509e-07  1.13921725e-08  4.00000000e-02 
 5.00000000e-02  4.58462154e-01  4.58462154e-01  4.58462154e-01  3.24523764e-09  3.27601222e-09  3.27050782e-09  3.28527966e-09  1.59153502e-07  1.13917760e-08  5.00000000e-02 
 6.00000000e-02  4.58462151e-01  4.58462151e-01  4.58462151e-01  3.24523764e-09  3.27601222e-09  3.27050782e-09  3.28527966e-09  1.59153513e-07  1.13915752e-08  6.00000000e-02 
 7.00000000e-02  4.58462143e-01  4.58462143e-01  4.58462143e-01  3.24523764e-09  3.27601222e-09  3.27050782e-09  3.28527966e-09  1.59153505e-07  1.13913612e-08  7.00000000e-02 
 8.00000000e-02  4.58462175e-01  4.58462175e-01  4.58462175e-01  3.24523764e-09  3.27601233e-09  3.27050782e-09  3.28527966e-09  1.59153544e-07  1.13908882e-08  8.00000000e-02 
 9.00000000e-02  4.58462174e-01  4.58462174e-01  4.58462174e-01  3.24523764e-09  3.27601233e-09  3.27050782e-09  3.28527966e-09  1.59153541e-07  1.13907621e-08  9.00000000e-02 
 1.00000000e-01  4.58462184e-01  4.58462184e-01  4.58462184e-01  3.24523764e-09  3.27601233e-09  3.27050782e-09  3.28527966e-09  1.59153543e-07  1.13904450e-08  1.00000000e-01 
 1.10000000e-01  4.58462173e-01  4.58462173e-01  4.58462173e-01  3.24523764e-09  3.27601222e-09  3.27050782e-09  3.28527966e-09  1.59153531e-07  1.13902692e-08  1.10000000e-01 
 1.20000000e-01  4.58462158e-01  4.58462158e-01  4.58462158e-01  3.24523764e-09  3.27601233e-09  3.27050782e-09  3.28527966e-09  1.59153514e-07  1.13899032e-08  1.20000000e-01 
 1.30000000e-01  4.58462179e-01  4.58462179e-01  4.58462179e-01  3.24523764e-09  3.27601233e-09  3.27050782e-09  3.28527966e-09  1.59153551e-07  1.13897984e-08  1.30000000e-01 
 1.40000000e-01  4.58462157e-01  4.58462157e-01  4.58462157e-01  3.24523764e-09  3.27601233e-09  3.27050782e-09  3.28527966e-09  1.59153522e-07  1.13895418e-08  1.40000000e-01 
 1.50000000e-01  4.58462140e-01  4.58462140e-01  4.58462140e-01  3.24523764e-09  3.27601233e-09  3.27050782e-09  3.28527966e-09  1.59153492e-07  1.13892344e-08  1.50000000e-01 
 1.60000000e-01  4.58462173e-01  4.58462173e-01  4.58462173e-01  3.24523764e-09  3.27601222e-09  3.27050782e-09  3.28527966e-09  1.59153538e-07  1.13891101e-08  1.60000000e-01 
 1.70000000e-01  4.58462154e-01  4.58462154e-01  4.58462153e-01  3.24523764e-09  3.27601222e-09  3.27050782e-09  3.28527966e-09  1.59153525e-07  1.13890302e-08  1.70000000e-01 
 1.80000000e-01  4.58462166e-01  4.58462166e-01  4.58462166e-01  3.24523764e-09  3.27601222e-09  3.27050782e-09  3.28527966e-09  1.59153534e-07  1.13888685e-08  1.80000000e-01 
 1.90000000e-01  4.58462183e-01  4.58462183e-01  4.58462182e-01  3.24523764e-09  3.27601222e-09  3.27050782e-09  3.28527966e-09  1.59153544e-07  1.13886891e-08  1.90000000e-01 
 2.00000000e-01  4.58462172e-01  4.58462172e-01  4.58462172e-01  3.24523764e-09  3.27601233e-09  3.27050782e-09  3.28527966e-09  1.59153542e-07  1.13885203e-08  2.00000000e-01 
 2.10000000e-01  4.58462180e-01  4.58462180e-01  4.58462180e-01  3.24523764e-09  3.27601222e-09  3.27050782e-09  3.28527966e-09  1.59153543e-07  1.13882948e-08  2.10000000e-01 
 2.20000000e-01  4.58462156e-01  4.58462156e-01  4.58462156e-01  3.24523764e-09  3.27601233e-09  3.27050782e-09  3.28527966e-09  1.59153521e-07  1.13882539e-08  2.20000000e-01 
 2.30000000e-01  4.58462148e-01  4.58462148e-01  4.58462148e-01  3.24523764e-09  3.27601233e-09  3.27050782e-09  3.28527966e-09  1.59153497e-07  1.13880763e-08  2.30000000e-01 
 2.40000000e-01  4.58462155e-01  4.58462155e-01  4.58462155e-01  3.24523764e-09  3.27601233e-09  3.27050782e-09  3.28527966e-09  1.59153511e-07  1.13878560e-08  2.40000000e-01 
 2.50000000e-01  4.58462192e-01  4.58462192e-01  4.58462192e-01  3.24523764e-09  3.27601222e-09  3.27050782e-09  3.28527966e-09  1.59153568e-07  1.13879270e-08  2.50000000e-01 
 2.60000000e-01  4.58462159e-01  4.58462159e-01  4.58462159e-01  3.24523764e-09  3.27601233e-09  3.27050782e-09  3.28527966e-09  1.59153501e-07  1.13877210e-08  2.60000000e-01 
 2.70000000e-01  4.58462155e-01  4.58462155e-01  4.58462155e-01  3.24523764e-09  3.27601222e-09  3.27050782e-09  3.28527966e-09  1.59153513e-07  1.13876037e-08  2.70000000e-01 
 2.80000000e-01  4.58462184e-01  4.58462184e-01  4.58462184e-01  3.24523764e-09  3.27601233e-09  3.27050782e-09  3.28527966e-09  1.59153562e-07  1.13875736e-08  2.80000000e-01 
 2.90000000e-01  4.58462191e-01  4.58462191e-01  4.58462191e-01  3.24523764e-09  3.27601233e-09  3.27050782e-09  3.28527966e-09  1.59153567e-07  1.13873924e-08  2.90000000e-01 
 3.00000000e-01  4.58462180e-01  4.58462180e-01  4.58462180e-01  3.24523764e-09  3.27601222e-09  3.27050782e-09  3.28527966e-09  1.59153548e-07  1.13871650e-08  3.00000000e-01 
 3.10000000e-01  4.58462151e-01  4.58462151e-01  4.58462151e-01  3.24523764e-09  3.27601233e-09  3.27050782e-09  3.28527966e-09  1.59153506e-07  1.13872360e-08  3.10000000e-01 
 3.20000000e-01  4.58462175e-01  4.58462175e-01  4.58462175e-01  3.24523764e-09  3.27601222e-09  3.27050782e-09  3.28527966e-09  1.59153552e-07  1.13870975e-08  3.20000000e-01 
 3.30000000e-01  4.58462180e-01  4.58462180e-01  4.58462180e-01  3.24523764e-09  3.27601233e-09  3.27050782e-09  3.28527966e-09  1.59153536e-07  1.13870158e-08  3.30000000e-01 
 3.40000000e-01  4.58462172e-01  4.58462172e-01  4.58462172e-01  3.24523764e-09  3.27601222e-09  3.27050782e-09  3.28527966e-09  1.59153530e-07  1.13869056e-08  3.40000000e-01 
 3.50000000e-01  4.58462170e-01  4.58462170e-01  4.58462170e-01  3.24523764e-09  3.27601233e-09  3.27050782e-09  3.28527966e-09  1.59153546e-07  1.13868204e-08  3.50000000e-01 
 3.60000000e-01  4.58462168e-01  4.58462168e-01  4.58462168e-01  3.24523764e-09  3.27601233e-09  3.27050782e-09  3.28527966e-09  1.59153535e-07  1.13867209e-08  3.60000000e-01 
 3.70000000e-01  4.58462192e-01  4.58462192e-01  4.58462192e-01  3.24523764e-09  3.27601233e-09  3.27050782e-09  3.28527966e-09  1.59153571e-07  1.13866392e-08  3.70000000e-01 
 3.80000000e-01  4.58462169e-01  4.58462169e-01  4.58462169e-01  3.24523764e-09  3.27601222e-09  3.27050782e-09  3.28527966e-09  1.59153538e-07  1.13866179e-08  3.80000000e-01 
 3.90000000e-01  4.58462158e-01  4.58462158e-01  4.58462158e-01  3.24523764e-09  3.27601222e-09  3.27050782e-09  3.28527966e-09  1.59153520e-07  1.13865255e-08  3.90000000e-01 
 4.00000000e-01  4.58462194e-01  4.58462194e-01  4.58462194e-01  3.24523764e-09  3.27601222e-09  3.27050782e-09  3.28527966e-09  1.59153579e-07  1.13864154e-08  4.00000000e-01 
 4.10000000e-01  4.58462177e-01  4.58462177e-01  4.58462177e-01  3.24523764e-09  3.27601233e-09  3.27050782e-09  3.28527966e-09  1.59153530e-07  1.13863905e-08  4.10000000e-01 
 4.20000000e-01  4.58462168e-01  4.58462168e-01  4.58462168e-01  3.24523764e-09  3.27601222e-09  3.27050782e-09  3.28527966e-09  1.59153531e-07  1.13863372e-08  4.20000000e-01 
 4.30000000e-01  4.58462168e-01  4.58462168e-01  4.58462168e-01  3.24523764e-09  3.27601233e-09  3.27050782e-09  3.28527966e-09  1.59153535e-07  1.13862839e-08  4.30000000e-01 
 4.40000000e-01  4.58462175e-01  4.58462175e-01  4.58462175e-01  3.24523764e-09  3.27601222e-09  3.27050782e-09  3.28527966e-09  1.59153540e-07  1.13861631e-08  4.40000000e-01 
 4.50000000e-01  4.58462164e-01  4.58462164e-01  4.58462164e-01  3.24523764e-09  3.27601233e-09  3.27050782e-09  3.28527966e-09  1.59153522e-07  1.13860743e-08  4.50000000e-01 
 4.60000000e-01  4.58462183e-01  4.58462183e-01  4.58462183e-01  3.24523764e-09  3.27601222e-09  3.27050782e-09  3.28527966e-09  1.59153558e-07  1.13859535e-08  4.60000000e-01 
 4.70000000e-01  4.58462189e-01  4.58462189e-01  4.58462189e-01  3.24523764e-09  3.27601222e-09  3.27050782e-09  3.28527966e-09  1.59153557e-07  1.13859713e-08  4.70000000e-01 
 4.80000000e-01  4.58462186e-01  4.58462186e-01  4.58462186e-01  3.24523764e-09  3.27601233e-09  3.27050782e-09  3.28527966e-09  1.59153548e-07  1.13859357e-08  4.80000000e-01 
 4.90000000e-01  4.58462164e-01  4.58462164e-01  4.58462163e-01  3.24523764e-09  3.27601222e-09  3.27050782e-09  3.28527966e-09  1.59153517e-07  1.13858327e-08  4.90000000e-01 
 5.00000000e-01  4.58462165e-01  4.58462165e-01  4.58462165e-01  3.24523764e-09  3.27601222e-09  3.27050782e-09  3.28527966e-09  1.59153533e-07  1.13859322e-08  5.00000000e-01 
 5.10000000e-01  4.58462151e-01  4.58462151e-01  4.58462151e-01  3.24523764e-09  3.27601222e-09  3.27050782e-09  3.28527966e-09  1.59153506e-07  1.13857546e-08  5.10000000e-01 
 5.20000000e-01  4.58462144e-01  4.58462144e-01  4.58462144e-01  3.24523764e-09  3.27601222e-09  3.27050782e-09  3.28527966e-09  1.59153475e-07  1.13857013e-08  5.20000000e-01 
 5.30000000e-01  4.58462157e-01  4.58462157e-01  4.58462157e-01  3.24523764e-09  3.27601233e-09  3.27050782e-09  3.28527966e-09  1.59153521e-07  1.13856728e-08  5.30000000e-01 
 5.40000000e-01  4.58462150e-01  4.58462150e-01  4.58462150e-01  3.24523764e-09  3.27601233e-09  3.27050782e-09  3.28527955e-09  1.59153507e-07  1.13855414e-08  5.40000000e-01 
 5.50000000e-01  4.58462181e-01  4.58462181e-01  4.58462181e-01  3.24523764e-09  3.27601222e-09  3.27050782e-09  3.28527966e-09  1.59153550e-07  1.13855947e-08  5.50000000e-01 
 5.60000000e-01  4.58462177e-01  4.58462177e-01  4.58462176e-01  3.24523764e-09  3.27601233e-09  3.27050782e-09  3.28527966e-09  1.59153557e-07  1.13855698e-08  5.60000000e-01 
 5.70000000e-01  4.58462148e-01  4.58462148e-01  4.58462148e-01  3.24523764e-09  3.27601222e-09  3.27050782e-09  3.28527966e-09  1.59153508e-07  1.13855059e-08  5.70000000e-01 
 5.80000000e-01  4.58462156e-01  4.58462156e-01  4.58462156e-01  3.24523764e-09  3.27601233e-09  3.27050782e-09  3.28527966e-09  1.59153518e-07  1.13854171e-08  5.80000000e-01 
 5.90000000e-01  4.58462155e-01  4.58462155e-01  4.58462155e-01  3.24523764e-09  3.27601222e-09  3.27050782e-09  3.28527966e-09  1.59153513e-07  1.13853460e-08  5.90000000e-01 
 6.00000000e-01  4.58462157e-01  4.58462157e-01  4.58462156e-01  3.24523764e-09  3.27601222e-09  3.27050782e-09  3.28527966e-09  1.59153509e-07  1.13852607e-08  6.00000000e-01 
 6.10000000e-01  4.58462177e-01  4.58462177e-01  4.58462177e-01  3.24523764e-09  3.27601222e-09  3.27050782e-09  3.28527966e-09  1.59153543e-07  1.13851115e-08  6.10000000e-01 
 6.20000000e-01  4.58462163e-01  4.58462163e-01  4.58462163e-01  3.24523764e-09  3.27601233e-09  3.27050782e-09  3.28527966e-09  1.59153525e-07  1.13851613e-08  6.20000000e-01 
 6.30000000e-01  4.58462180e-01  4.58462180e-01  4.58462180e-01  3.24523764e-09  3.27601233e-09  3.27050782e-09  3.28527966e-09  1.59153553e-07  1.13850476e-08  6.30000000e-01 
 6.40000000e-01  4.58462180e-01  4.58462180e-01  4.58462180e-01  3.24523764e-09  3.27601233e-09  3.27050782e-09  3.28527966e-09  1.59153548e-07  1.13850973e-08  6.40000000e-01 
 6.50000000e-01  4.58462169e-01  4.58462169e-01  4.58462169e-01  3.24523764e-09  3.27601222e-09  3.27050782e-09  3.28527966e-09  1.59153533e-07  1.13851470e-08  6.50000000e-01 
 6.60000000e-01  4.58462155e-01  4.58462155e-01  4.58462155e-01  3.24523764e-09  3.27601233e-09  3.27050782e-09  3.28527966e-09  1.59153520e-07  1.13850263e-08  6.60000000e-01 
 6.70000000e-01  4.58462158e-01  4.58462158e-01  4.58462158e-01  3.24523764e-09  3.27601222e-09  3.27050782e-09  3.28527966e-09  1.59153516e-07  1.13849055e-08  6.70000000e-01 
 6.80000000e-01  4.58462172e-01  4.58462172e-01  4.58462172e-01  3.24523764e-09  3.27601222e-09  3.27050782e-09  3.28527966e-09  1.59153539e-07  1.13847349e-08  6.80000000e-01 
 6.90000000e-01  4.58462180e-01  4.58462180e-01  4.58462180e-01  3.24523764e-09  3.27601222e-09  3.27050782e-09  3.28527966e-09  1.59153559e-07  1.13849907e-08  6.90000000e-01 
 7.00000000e-01  4.58462165e-01  4.58462165e-01  4.58462165e-01  3.24523764e-09  3.27601222e-09  3.27050782e-09  3.28527966e-09  1.59153522e-07  1.13848699e-08  7.00000000e-01 
 7.10000000e-01  4.58462165e-01  4.58462165e-01  4.58462165e-01  3.24523764e-09  3.27601222e-09  3.27050782e-09  3.28527966e-09  1.59153519e-07  1.13846710e-08  7.10000000e-01 
 7.20000000e-01  4.58462193e-01  4.58462193e-01  4.58462193e-01  3.24523764e-09  3.27601222e-09  3.27050782e-09  3.28527966e-09  1.59153574e-07  1.13846994e-08  7.20000000e-01 
 7.30000000e-01  4.58462174e-01  4.58462174e-01  4.58462174e-01  3.24523764e-09  3.27601222e-09  3.27050782e-09  3.28527966e-09  1.59153529e-07  1.13846639e-08  7.30000000e-01 
 7.40000000e-01  4.58462177e-01  4.58462177e-01  4.58462177e-01  3.24523764e-09  3.27601233e-09  3.27050782e-09  3.28527966e-09  1.59153542e-07  1.13846070e-08  7.40000000e-01 
 7.50000000e-01  4.58462196e-01  4.58462196e-01  4.58462196e-01  3.24523764e-09  3.27601222e-09  3.27050782e-09  3.28527966e-09  1.59153581e-07  1.13844436e-08  7.50000000e-01 
 7.60000000e-01  4.58462185e-01  4.58462185e-01  4.58462185e-01  3.24523764e-09  3.27601222e-09  3.27050782e-09  3.28527966e-09  1.59153553e-07  1.13844649e-08  7.60000000e-01 
 7.70000000e-01  4.58462168e-01  4.58462168e-01  4.58462168e-01  3.24523764e-09  3.27601233e-09  3.27050782e-09  3.28527966e-09  1.59153544e-07  1.13842944e-08  7.70000000e-01 
 7.80000000e-01  4.58462171e-01  4.58462171e-01  4.58462171e-01  3.24523764e-09  3.27601222e-09  3.27050782e-09  3.28527966e-09  1.59153533e-07  1.13843157e-08  7.80000000e-01 
 7.90000000e-01  4.58462172e-01  4.58462172e-01  4.58462171e-01  3.24523764e-09  3.27601222e-09  3.27050782e-09  3.28527966e-09  1.59153549e-07  1.13843086e-08  7.90000000e-01 
 8.00000000e-01  4.58462177e-01  4.58462177e-01  4.58462177e-01  3.24523764e-09  3.27601233e-09  3.27050782e-09  3.28527966e-09  1.59153538e-07  1.13842304e-08  8.00000000e-01 
 8.10000000e-01  4.58462167e-01  4.58462167e-01  4.58462167e-01  3.24523764e-09  3.27601222e-09  3.27050782e-09  3.28527966e-09  1.59153515e-07  1.13841665e-08  8.10000000e-01 
 8.20000000e-01  4.58462185e-01  4.58462185e-01  4.58462185e-01  3.24523764e-09  3.27601233e-09  3.27050782e-09  3.28527966e-09  1.59153559e-07  1.13842304e-08  8.20000000e-01 
 8.30000000e-01  4.58462151e-01  4.58462151e-01  4.58462151e-01  3.24523764e-09  3.27601222e-09  3.27050782e-09  3.28527966e-09  1.59153505e-07  1.13841168e-08  8.30000000e-01 
 8.40000000e-01  4.58462168e-01  4.58462168e-01  4.58462167e-01  3.24523764e-09  3.27601233e-09  3.27050782e-09  3.28527966e-09  1.59153538e-07  1.13840599e-08  8.40000000e-01 
 8.50000000e-01  4.58462149e-01  4.58462149e-01  4.58462149e-01  3.24523764e-09  3.27601233e-09  3.27050782e-09  3.28527966e-09  1.59153507e-07  1.13841025e-08  8.50000000e-01 
 8.60000000e-01  4.58462168e-01  4.58462168e-01  4.58462168e-01  3.24523764e-09  3.27601233e-09  3.27050782e-09  3.28527966e-09  1.59153537e-07  1.13840670e-08  8.60000000e-01 
 8.70000000e-01  4.58462181e-01  4.58462181e-01  4.58462181e-01  3.24523764e-09  3.27601233e-09  3.27050782e-09  3.28527966e-09  1.59153556e-07  1.13837899e-08  8.70000000e-01 
 8.80000000e-01  4.58462177e-01  4.58462177e-01  4.58462177e-01  3.24523764e-09  3.27601233e-09  3.27050782e-09  3.28527966e-09  1.59153531e-07  1.13838965e-08  8.80000000e-01 
 8.90000000e-01  4.58462165e-01  4.58462165e-01  4.58462165e-01  3.24523764e-09  3.27601222e-09  3.27050782e-09  3.28527966e-09  1.59153524e-07  1.13838539e-08  8.90000000e-01 
 9.00000000e-01  4.58462175e-01  4.58462175e-01  4.58462175e-01  3.24523764e-09  3.27601222e-09  3.27050782e-09  3.28527966e-09  1.59153548e-07  1.13837544e-08  9.00000000e-01 
 9.10000000e-01  4.58462172e-01  4.58462172e-01  4.58462172e-01  3.24523764e-09  3.27601222e-09  3.27050782e-09  3.28527955e-09  1.59153529e-07  1.13837046e-08  9.10000000e-01 
 9.20000000e-01  4.58462179e-01  4.58462179e-01  4.58462179e-01  3.24523764e-09  3.27601233e-09  3.27050782e-09  3.28527966e-09  1.59153547e-07  1.13837686e-08  9.20000000e-01 
 9.30000000e-01  4.58462198e-01  4.58462198e-01  4.58462198e-01  3.24523764e-09  3.27601222e-09  3.27050782e-09  3.28527966e-09  1.59153573e-07  1.13837118e-08  9.30000000e-01 
 9.40000000e-01  4.58462158e-01  4.58462158e-01  4.58462158e-01  3.24523764e-09  3.27601222e-09  3.27050782e-09  3.28527966e-09  1.59153506e-07  1.13836478e-08  9.40000000e-01 
 9.50000000e-01  4.58462164e-01  4.58462164e-01  4.58462164e-01  3.24523764e-09  3.27601233e-09  3.27050782e-09  3.28527966e-09  1.59153537e-07  1.13835625e-08  9.50000000e-01 
 9.60000000e-01  4.58462183e-01  4.58462183e-01  4.58462183e-01  3.24523764e-09  3.27601222e-09  3.27050782e-09  3.28527966e-09  1.59153542e-07  1.13834417e-08  9.60000000e-01 
 9.70000000e-01  4.58462168e-01  4.58462168e-01  4.58462168e-01  3.24523764e-09  3.27601222e-09  3.27050782e-09  3.28527966e-09  1.59153534e-07  1.13834417e-08  9.70000000e-01 
 9.80000000e-01  4.58462175e-01  4.58462175e-01  4.58462175e-01  3.24523764e-09  3.27601222e-09  3.27050782e-09  3.28527966e-09  1.59153553e-07  1.13834275e-08  9.80000000e-01 
 9.90000000e-01  4.58462182e-01  4.58462182e-01  4.58462182e-01  3.24523764e-09  3.27601222e-09  3.27050782e-09  3.28527966e-09  1.59153547e-07  1.13833636e-08  9.90000000e-01 
 1.00000000e+00  4.58462176e-01  4.58462176e-01  4.58462176e-01  3.24523764e-09  3.27601222e-09  3.27050782e-09  3.28527966e-09  1.59153541e-07  1.13831931e-08  1.00000000e+00 
 1.01000000e+00  4.58462176e-01  4.58462176e-01  4.58462176e-01  3.24523764e-09  3.27601222e-09  3.27050782e-09  3.28527966e-09  1.59153539e-07  1.13831717e-08  1.01000000e+00 
 1.02000000e+00  4.58462173e-01  4.58462173e-01  4.58462173e-01  3.24523764e-09  3.27601222e-09  3.27050782e-09  3.28527966e-09  1.59153530e-07  1.13831362e-08  1.02000000e+00 
 1.03000000e+00  4.58462163e-01  4.58462163e-01  4.58462163e-01  3.24523764e-09  3.27601233e-09  3.27050782e-09  3.28527966e-09  1.59153527e-07  1.13831007e-08  1.03000000e+00 
 1.04000000e+00  4.58462181e-01  4.58462181e-01  4.58462181e-01  3.24523764e-09  3.27601233e-09  3.27050782e-09  3.28527966e-09  1.59153550e-07  1.13829657e-08  1.04000000e+00 
 1.05000000e+00  4.58462177e-01  4.58462177e-01  4.58462177e-01  3.24523764e-09  3.27601222e-09  3.27050782e-09  3.28527966e-09  1.59153534e-07  1.13829941e-08  1.05000000e+00 
 1.06000000e+00  4.58462183e-01  4.58462183e-01  4.58462183e-01  3.24523764e-09  3.27601222e-09  3.27050782e-09  3.28527966e-09  1.59153561e-07  1.13829373e-08  1.06000000e+00 
 1.07000000e+00  4.58462154e-01  4.58462154e-01  4.58462154e-01  3.24523764e-09  3.27601233e-09  3.27050782e-09  3.28527966e-09  1.59153508e-07  1.13828307e-08  1.07000000e+00 
 1.08000000e+00  4.58462170e-01  4.58462170e-01  4.58462170e-01  3.24523764e-09  3.27601222e-09  3.27050782e-09  3.28527966e-09  1.59153535e-07  1.13827596e-08  1.08000000e+00 
 1.09000000e+00  4.58462194e-01  4.58462194e-01  4.58462193e-01  3.24523764e-09  3.27601222e-09  3.27050782e-09  3.28527966e-09  1.59153560e-07  1.13828591e-08  1.09000000e+00 
 1.10000000e+00  4.58462183e-01  4.58462183e-01  4.58462183e-01  3.24523764e-09  3.27601233e-09  3.27050782e-09  3.28527966e-09  1.59153533e-07  1.13827596e-08  1.10000000e+00 
