 v-sweep         v(b0)           v(b1)           v(b2)           v(b3)           v(b4)           v(b5)           v(b6)           i(vbias)        i(viout)        v(vout)        
 0.00000000e+00  3.24910625e-09  3.24784323e-09  4.58868571e-01  4.58868571e-01  3.25524423e-09  4.58868571e-01  3.28531195e-09  1.57628340e-07  7.04700386e-08  0.00000000e+00 
 1.00000000e-02  3.24910635e-09  3.24784333e-09  4.58868536e-01  4.58868536e-01  3.25524422e-09  4.58868536e-01  3.28531193e-09  1.57628292e-07  7.04695976e-08  1.00000000e-02 
 2.00000000e-02  3.24910624e-09  3.24784322e-09  4.58868559e-01  4.58868559e-01  3.25524422e-09  4.58868559e-01  3.28531205e-09  1.57628331e-07  7.04692376e-08  2.00000000e-02 
 3.00000000e-02  3.24910624e-09  3.24784322e-09  4.58868573e-01  4.58868573e-01  3.25524422e-09  4.58868573e-01  3.28531205e-09  1.57628351e-07  7.04689171e-08  3.00000000e-02 
 4.00000000e-02  3.24910624e-09  3.24784333e-09  4.58868556e-01  4.58868556e-01  3.25524422e-09  4.58868556e-01  3.28531205e-09  1.57628319e-07  7.04684959e-08  4.00000000e-02 
 5.00000000e-02  3.24910624e-09  3.24784333e-09  4.58868536e-01  4.58868536e-01  3.25524422e-09  4.58868536e-01  3.28531205e-09  1.57628301e-07  7.04681113e-08  5.00000000e-02 
 6.00000000e-02  3.24910624e-09  3.24784334e-09  4.58868566e-01  4.58868566e-01  3.25524422e-09  4.58868566e-01  3.28531193e-09  1.57628328e-07  7.04678271e-08  6.00000000e-02 
 7.00000000e-02  3.24910624e-09  3.24784322e-09  4.58868541e-01  4.58868541e-01  3.25524422e-09  4.58868540e-01  3.28531193e-09  1.57628293e-07  7.04675394e-08  7.00000000e-02 
 8.00000000e-02  3.24910624e-09  3.24784322e-09  4.58868569e-01  4.58868569e-01  3.25524422e-09  4.58868569e-01  3.28531193e-09  1.57628347e-07  7.04672507e-08  8.00000000e-02 
 9.00000000e-02  3.24910624e-09  3.24784334e-09  4.58868567e-01  4.58868568e-01  3.25524422e-09  4.58868567e-01  3.28531205e-09  1.57628348e-07  7.04670180e-08  9.00000000e-02 
 1.00000000e-01  3.24910624e-09  3.24784322e-09  4.58868565e-01  4.58868565e-01  3.25524422e-09  4.58868565e-01  3.28531205e-09  1.57628348e-07  7.04666610e-08  1.00000000e-01 
 1.10000000e-01  3.24910624e-09  3.24784333e-09  4.58868558e-01  4.58868558e-01  3.25524422e-09  4.58868558e-01  3.28531205e-09  1.57628324e-07  7.04664709e-08  1.10000000e-01 
 1.20000000e-01  3.24910635e-09  3.24784334e-09  4.58868564e-01  4.58868564e-01  3.25524422e-09  4.58868564e-01  3.28531205e-09  1.57628336e-07  7.04661680e-08  1.20000000e-01 
 1.30000000e-01  3.24910624e-09  3.24784334e-09  4.58868569e-01  4.58868569e-01  3.25524422e-09  4.58868569e-01  3.28531205e-09  1.57628343e-07  7.04660161e-08  1.30000000e-01 
 1.40000000e-01  3.24910624e-09  3.24784322e-09  4.58868537e-01  4.58868537e-01  3.25524422e-09  4.58868537e-01  3.28531193e-09  1.57628296e-07  7.04657106e-08  1.40000000e-01 
 1.50000000e-01  3.24910624e-09  3.24784322e-09  4.58868551e-01  4.58868551e-01  3.25524422e-09  4.58868551e-01  3.28531193e-09  1.57628328e-07  7.04654095e-08  1.50000000e-01 
 1.60000000e-01  3.24910624e-09  3.24784333e-09  4.58868544e-01  4.58868544e-01  3.25524422e-09  4.58868544e-01  3.28531205e-09  1.57628316e-07  7.04653811e-08  1.60000000e-01 
 1.70000000e-01  3.24910624e-09  3.24784333e-09  4.58868528e-01  4.58868528e-01  3.25524422e-09  4.58868528e-01  3.28531193e-09  1.57628279e-07  7.04652674e-08  1.70000000e-01 
 1.80000000e-01  3.24910635e-09  3.24784333e-09  4.58868530e-01  4.58868530e-01  3.25524422e-09  4.58868530e-01  3.28531205e-09  1.57628289e-07  7.04649299e-08  1.80000000e-01 
 1.90000000e-01  3.24910624e-09  3.24784322e-09  4.58868553e-01  4.58868553e-01  3.25524422e-09  4.58868553e-01  3.28531193e-09  1.57628327e-07  7.04648002e-08  1.90000000e-01 
 2.00000000e-01  3.24910624e-09  3.24784333e-09  4.58868548e-01  4.58868548e-01  3.25524422e-09  4.58868548e-01  3.28531193e-09  1.57628322e-07  7.04645871e-08  2.00000000e-01 
 2.10000000e-01  3.24910624e-09  3.24784334e-09  4.58868569e-01  4.58868569e-01  3.25524422e-09  4.58868569e-01  3.28531205e-09  1.57628345e-07  7.04646173e-08  2.10000000e-01 
 2.20000000e-01  3.24910624e-09  3.24784322e-09  4.58868554e-01  4.58868554e-01  3.25524422e-09  4.58868553e-01  3.28531205e-09  1.57628325e-07  7.04643597e-08  2.20000000e-01 
 2.30000000e-01  3.24910624e-09  3.24784322e-09  4.58868534e-01  4.58868534e-01  3.25524422e-09  4.58868534e-01  3.28531205e-09  1.57628290e-07  7.04641625e-08  2.30000000e-01 
 2.40000000e-01  3.24910624e-09  3.24784322e-09  4.58868554e-01  4.58868554e-01  3.25524422e-09  4.58868554e-01  3.28531193e-09  1.57628329e-07  7.04639920e-08  2.40000000e-01 
 2.50000000e-01  3.24910624e-09  3.24784322e-09  4.58868551e-01  4.58868551e-01  3.25524422e-09  4.58868551e-01  3.28531205e-09  1.57628314e-07  7.04639866e-08  2.50000000e-01 
 2.60000000e-01  3.24910624e-09  3.24784333e-09  4.58868556e-01  4.58868556e-01  3.25524422e-09  4.58868556e-01  3.28531205e-09  1.57628325e-07  7.04638339e-08  2.60000000e-01 
 2.70000000e-01  3.24910624e-09  3.24784334e-09  4.58868561e-01  4.58868561e-01  3.25524422e-09  4.58868561e-01  3.28531205e-09  1.57628345e-07  7.04636918e-08  2.70000000e-01 
 2.80000000e-01  3.24910624e-09  3.24784322e-09  4.58868550e-01  4.58868550e-01  3.25524422e-09  4.58868550e-01  3.28531205e-09  1.57628311e-07  7.04635479e-08  2.80000000e-01 
 2.90000000e-01  3.24910635e-09  3.24784333e-09  4.58868542e-01  4.58868542e-01  3.25524422e-09  4.58868542e-01  3.28531205e-09  1.57628293e-07  7.04633187e-08  2.90000000e-01 
 3.00000000e-01  3.24910624e-09  3.24784322e-09  4.58868516e-01  4.58868516e-01  3.25524422e-09  4.58868516e-01  3.28531205e-09  1.57628271e-07  7.04631979e-08  3.00000000e-01 
 3.10000000e-01  3.24910624e-09  3.24784334e-09  4.58868585e-01  4.58868585e-01  3.25524422e-09  4.58868585e-01  3.28531205e-09  1.57628361e-07  7.04633152e-08  3.10000000e-01 
 3.20000000e-01  3.24910624e-09  3.24784322e-09  4.58868544e-01  4.58868545e-01  3.25524422e-09  4.58868544e-01  3.28531205e-09  1.57628300e-07  7.04630629e-08  3.20000000e-01 
 3.30000000e-01  3.24910624e-09  3.24784322e-09  4.58868536e-01  4.58868536e-01  3.25524422e-09  4.58868536e-01  3.28531193e-09  1.57628302e-07  7.04628462e-08  3.30000000e-01 
 3.40000000e-01  3.24910635e-09  3.24784322e-09  4.58868539e-01  4.58868539e-01  3.25524422e-09  4.58868539e-01  3.28531193e-09  1.57628300e-07  7.04628960e-08  3.40000000e-01 
 3.50000000e-01  3.24910624e-09  3.24784333e-09  4.58868547e-01  4.58868547e-01  3.25524422e-09  4.58868547e-01  3.28531205e-09  1.57628305e-07  7.04628924e-08  3.50000000e-01 
 3.60000000e-01  3.24910624e-09  3.24784333e-09  4.58868535e-01  4.58868535e-01  3.25524422e-09  4.58868535e-01  3.28531205e-09  1.57628284e-07  7.04627112e-08  3.60000000e-01 
 3.70000000e-01  3.24910624e-09  3.24784333e-09  4.58868560e-01  4.58868560e-01  3.25524422e-09  4.58868560e-01  3.28531205e-09  1.57628336e-07  7.04626260e-08  3.70000000e-01 
 3.80000000e-01  3.24910624e-09  3.24784333e-09  4.58868557e-01  4.58868557e-01  3.25524422e-09  4.58868557e-01  3.28531205e-09  1.57628323e-07  7.04625656e-08  3.80000000e-01 
 3.90000000e-01  3.24910624e-09  3.24784322e-09  4.58868582e-01  4.58868583e-01  3.25524422e-09  4.58868582e-01  3.28531205e-09  1.57628358e-07  7.04623524e-08  3.90000000e-01 
 4.00000000e-01  3.24910635e-09  3.24784333e-09  4.58868560e-01  4.58868560e-01  3.25524422e-09  4.58868560e-01  3.28531205e-09  1.57628337e-07  7.04623559e-08  4.00000000e-01 
 4.10000000e-01  3.24910624e-09  3.24784333e-09  4.58868545e-01  4.58868545e-01  3.25524422e-09  4.58868545e-01  3.28531205e-09  1.57628309e-07  7.04623098e-08  4.10000000e-01 
 4.20000000e-01  3.24910624e-09  3.24784333e-09  4.58868524e-01  4.58868524e-01  3.25524422e-09  4.58868524e-01  3.28531193e-09  1.57628275e-07  7.04621037e-08  4.20000000e-01 
 4.30000000e-01  3.24910624e-09  3.24784333e-09  4.58868555e-01  4.58868555e-01  3.25524422e-09  4.58868555e-01  3.28531205e-09  1.57628322e-07  7.04620753e-08  4.30000000e-01 
 4.40000000e-01  3.24910624e-09  3.24784322e-09  4.58868551e-01  4.58868551e-01  3.25524422e-09  4.58868551e-01  3.28531205e-09  1.57628308e-07  7.04620611e-08  4.40000000e-01 
 4.50000000e-01  3.24910624e-09  3.24784322e-09  4.58868548e-01  4.58868548e-01  3.25524422e-09  4.58868548e-01  3.28531205e-09  1.57628311e-07  7.04620113e-08  4.50000000e-01 
 4.60000000e-01  3.24910635e-09  3.24784333e-09  4.58868546e-01  4.58868546e-01  3.25524422e-09  4.58868546e-01  3.28531205e-09  1.57628322e-07  7.04618515e-08  4.60000000e-01 
 4.70000000e-01  3.24910635e-09  3.24784322e-09  4.58868536e-01  4.58868536e-01  3.25524422e-09  4.58868536e-01  3.28531205e-09  1.57628284e-07  7.04618053e-08  4.70000000e-01 
 4.80000000e-01  3.24910635e-09  3.24784334e-09  4.58868568e-01  4.58868568e-01  3.25524422e-09  4.58868568e-01  3.28531205e-09  1.57628338e-07  7.04617733e-08  4.80000000e-01 
 4.90000000e-01  3.24910624e-09  3.24784333e-09  4.58868548e-01  4.58868548e-01  3.25524422e-09  4.58868548e-01  3.28531205e-09  1.57628299e-07  7.04617058e-08  4.90000000e-01 
 5.00000000e-01  3.24910635e-09  3.24784334e-09  4.58868566e-01  4.58868566e-01  3.25524422e-09  4.58868566e-01  3.28531205e-09  1.57628345e-07  7.04615992e-08  5.00000000e-01 
 5.10000000e-01  3.24910624e-09  3.24784322e-09  4.58868530e-01  4.58868530e-01  3.25524422e-09  4.58868530e-01  3.28531205e-09  1.57628285e-07  7.04615779e-08  5.10000000e-01 
 5.20000000e-01  3.24910624e-09  3.24784334e-09  4.58868578e-01  4.58868578e-01  3.25524422e-09  4.58868578e-01  3.28531205e-09  1.57628337e-07  7.04614713e-08  5.20000000e-01 
 5.30000000e-01  3.24910624e-09  3.24784333e-09  4.58868542e-01  4.58868542e-01  3.25524422e-09  4.58868542e-01  3.28531205e-09  1.57628305e-07  7.04613861e-08  5.30000000e-01 
 5.40000000e-01  3.24910624e-09  3.24784322e-09  4.58868551e-01  4.58868552e-01  3.25524422e-09  4.58868551e-01  3.28531205e-09  1.57628323e-07  7.04613186e-08  5.40000000e-01 
 5.50000000e-01  3.24910635e-09  3.24784322e-09  4.58868553e-01  4.58868553e-01  3.25524422e-09  4.58868553e-01  3.28531193e-09  1.57628331e-07  7.04612368e-08  5.50000000e-01 
 5.60000000e-01  3.24910624e-09  3.24784333e-09  4.58868535e-01  4.58868535e-01  3.25524422e-09  4.58868535e-01  3.28531205e-09  1.57628295e-07  7.04612120e-08  5.60000000e-01 
 5.70000000e-01  3.24910624e-09  3.24784333e-09  4.58868557e-01  4.58868557e-01  3.25524422e-09  4.58868557e-01  3.28531193e-09  1.57628324e-07  7.04611338e-08  5.70000000e-01 
 5.80000000e-01  3.24910624e-09  3.24784322e-09  4.58868560e-01  4.58868560e-01  3.25524422e-09  4.58868560e-01  3.28531205e-09  1.57628337e-07  7.04610628e-08  5.80000000e-01 
 5.90000000e-01  3.24910624e-09  3.24784333e-09  4.58868537e-01  4.58868537e-01  3.25524422e-09  4.58868536e-01  3.28531205e-09  1.57628305e-07  7.04609207e-08  5.90000000e-01 
 6.00000000e-01  3.24910624e-09  3.24784333e-09  4.58868559e-01  4.58868559e-01  3.25524422e-09  4.58868559e-01  3.28531193e-09  1.57628338e-07  7.04609633e-08  6.00000000e-01 
 6.10000000e-01  3.24910624e-09  3.24784333e-09  4.58868545e-01  4.58868546e-01  3.25524433e-09  4.58868545e-01  3.28531205e-09  1.57628302e-07  7.04608567e-08  6.10000000e-01 
 6.20000000e-01  3.24910635e-09  3.24784333e-09  4.58868522e-01  4.58868522e-01  3.25524422e-09  4.58868522e-01  3.28531205e-09  1.57628282e-07  7.04607643e-08  6.20000000e-01 
 6.30000000e-01  3.24910624e-09  3.24784333e-09  4.58868557e-01  4.58868557e-01  3.25524422e-09  4.58868557e-01  3.28531205e-09  1.57628322e-07  7.04607359e-08  6.30000000e-01 
 6.40000000e-01  3.24910624e-09  3.24784334e-09  4.58868570e-01  4.58868570e-01  3.25524422e-09  4.58868570e-01  3.28531205e-09  1.57628348e-07  7.04606293e-08  6.40000000e-01 
 6.50000000e-01  3.24910635e-09  3.24784322e-09  4.58868545e-01  4.58868545e-01  3.25524422e-09  4.58868545e-01  3.28531193e-09  1.57628326e-07  7.04606649e-08  6.50000000e-01 
 6.60000000e-01  3.24910624e-09  3.24784333e-09  4.58868523e-01  4.58868523e-01  3.25524422e-09  4.58868523e-01  3.28531205e-09  1.57628277e-07  7.04603877e-08  6.60000000e-01 
 6.70000000e-01  3.24910624e-09  3.24784333e-09  4.58868540e-01  4.58868540e-01  3.25524422e-09  4.58868540e-01  3.28531205e-09  1.57628304e-07  7.04604588e-08  6.70000000e-01 
 6.80000000e-01  3.24910624e-09  3.24784322e-09  4.58868554e-01  4.58868554e-01  3.25524422e-09  4.58868554e-01  3.28531205e-09  1.57628319e-07  7.04603380e-08  6.80000000e-01 
 6.90000000e-01  3.24910635e-09  3.24784333e-09  4.58868534e-01  4.58868534e-01  3.25524422e-09  4.58868534e-01  3.28531193e-09  1.57628297e-07  7.04603522e-08  6.90000000e-01 
 7.00000000e-01  3.24910635e-09  3.24784322e-09  4.58868559e-01  4.58868559e-01  3.25524422e-09  4.58868559e-01  3.28531193e-09  1.57628337e-07  7.04602670e-08  7.00000000e-01 
 7.10000000e-01  3.24910624e-09  3.24784322e-09  4.58868551e-01  4.58868551e-01  3.25524422e-09  4.58868551e-01  3.28531193e-09  1.57628316e-07  7.04602812e-08  7.10000000e-01 
 7.20000000e-01  3.24910624e-09  3.24784322e-09  4.58868544e-01  4.58868544e-01  3.25524422e-09  4.58868544e-01  3.28531205e-09  1.57628307e-07  7.04601675e-08  7.20000000e-01 
 7.30000000e-01  3.24910624e-09  3.24784322e-09  4.58868542e-01  4.58868542e-01  3.25524422e-09  4.58868542e-01  3.28531205e-09  1.57628307e-07  7.04601035e-08  7.30000000e-01 
 7.40000000e-01  3.24910624e-09  3.24784333e-09  4.58868543e-01  4.58868543e-01  3.25524422e-09  4.58868543e-01  3.28531205e-09  1.57628299e-07  7.04600538e-08  7.40000000e-01 
 7.50000000e-01  3.24910624e-09  3.24784322e-09  4.58868522e-01  4.58868522e-01  3.25524422e-09  4.58868522e-01  3.28531193e-09  1.57628274e-07  7.04598691e-08  7.50000000e-01 
 7.60000000e-01  3.24910624e-09  3.24784333e-09  4.58868555e-01  4.58868555e-01  3.25524422e-09  4.58868555e-01  3.28531205e-09  1.57628320e-07  7.04599188e-08  7.60000000e-01 
 7.70000000e-01  3.24910624e-09  3.24784333e-09  4.58868541e-01  4.58868541e-01  3.25524422e-09  4.58868541e-01  3.28531193e-09  1.57628302e-07  7.04598691e-08  7.70000000e-01 
 7.80000000e-01  3.24910635e-09  3.24784322e-09  4.58868548e-01  4.58868548e-01  3.25524422e-09  4.58868548e-01  3.28531205e-09  1.57628318e-07  7.04597056e-08  7.80000000e-01 
 7.90000000e-01  3.24910624e-09  3.24784322e-09  4.58868548e-01  4.58868548e-01  3.25524422e-09  4.58868548e-01  3.28531205e-09  1.57628308e-07  7.04597340e-08  7.90000000e-01 
 8.00000000e-01  3.24910624e-09  3.24784322e-09  4.58868517e-01  4.58868517e-01  3.25524422e-09  4.58868517e-01  3.28531205e-09  1.57628278e-07  7.04596346e-08  8.00000000e-01 
 8.10000000e-01  3.24910624e-09  3.24784333e-09  4.58868551e-01  4.58868551e-01  3.25524422e-09  4.58868551e-01  3.28531193e-09  1.57628307e-07  7.04595564e-08  8.10000000e-01 
 8.20000000e-01  3.24910624e-09  3.24784334e-09  4.58868562e-01  4.58868562e-01  3.25524422e-09  4.58868562e-01  3.28531205e-09  1.57628332e-07  7.04596559e-08  8.20000000e-01 
 8.30000000e-01  3.24910624e-09  3.24784322e-09  4.58868540e-01  4.58868540e-01  3.25524422e-09  4.58868540e-01  3.28531205e-09  1.57628301e-07  7.04593148e-08  8.30000000e-01 
 8.40000000e-01  3.24910624e-09  3.24784333e-09  4.58868535e-01  4.58868535e-01  3.25524422e-09  4.58868535e-01  3.28531205e-09  1.57628302e-07  7.04593504e-08  8.40000000e-01 
 8.50000000e-01  3.24910624e-09  3.24784333e-09  4.58868527e-01  4.58868527e-01  3.25524422e-09  4.58868527e-01  3.28531205e-09  1.57628290e-07  7.04592509e-08  8.50000000e-01 
 8.60000000e-01  3.24910624e-09  3.24784334e-09  4.58868589e-01  4.58868589e-01  3.25524422e-09  4.58868589e-01  3.28531193e-09  1.57628386e-07  7.04592722e-08  8.60000000e-01 
 8.70000000e-01  3.24910624e-09  3.24784334e-09  4.58868562e-01  4.58868562e-01  3.25524422e-09  4.58868562e-01  3.28531193e-09  1.57628329e-07  7.04591656e-08  8.70000000e-01 
 8.80000000e-01  3.24910624e-09  3.24784322e-09  4.58868536e-01  4.58868536e-01  3.25524422e-09  4.58868536e-01  3.28531205e-09  1.57628308e-07  7.04591798e-08  8.80000000e-01 
 8.90000000e-01  3.24910624e-09  3.24784322e-09  4.58868549e-01  4.58868549e-01  3.25524422e-09  4.58868549e-01  3.28531205e-09  1.57628324e-07  7.04590448e-08  8.90000000e-01 
 9.00000000e-01  3.24910624e-09  3.24784333e-09  4.58868536e-01  4.58868536e-01  3.25524422e-09  4.58868536e-01  3.28531193e-09  1.57628292e-07  7.04589525e-08  9.00000000e-01 
 9.10000000e-01  3.24910624e-09  3.24784333e-09  4.58868544e-01  4.58868544e-01  3.25524422e-09  4.58868544e-01  3.28531205e-09  1.57628317e-07  7.04589169e-08  9.10000000e-01 
 9.20000000e-01  3.24910635e-09  3.24784333e-09  4.58868545e-01  4.58868545e-01  3.25524422e-09  4.58868545e-01  3.28531193e-09  1.57628313e-07  7.04587890e-08  9.20000000e-01 
 9.30000000e-01  3.24910624e-09  3.24784333e-09  4.58868537e-01  4.58868537e-01  3.25524422e-09  4.58868537e-01  3.28531205e-09  1.57628302e-07  7.04586895e-08  9.30000000e-01 
 9.40000000e-01  3.24910624e-09  3.24784333e-09  4.58868552e-01  4.58868552e-01  3.25524422e-09  4.58868552e-01  3.28531193e-09  1.57628317e-07  7.04586327e-08  9.40000000e-01 
 9.50000000e-01  3.24910624e-09  3.24784322e-09  4.58868550e-01  4.58868550e-01  3.25524422e-09  4.58868550e-01  3.28531193e-09  1.57628325e-07  7.04586327e-08  9.50000000e-01 
 9.60000000e-01  3.24910624e-09  3.24784333e-09  4.58868551e-01  4.58868551e-01  3.25524422e-09  4.58868551e-01  3.28531193e-09  1.57628308e-07  7.04585545e-08  9.60000000e-01 
 9.70000000e-01  3.24910624e-09  3.24784322e-09  4.58868547e-01  4.58868547e-01  3.25524422e-09  4.58868547e-01  3.28531205e-09  1.57628312e-07  7.04584338e-08  9.70000000e-01 
 9.80000000e-01  3.24910635e-09  3.24784333e-09  4.58868531e-01  4.58868532e-01  3.25524422e-09  4.58868531e-01  3.28531205e-09  1.57628287e-07  7.04584195e-08  9.80000000e-01 
 9.90000000e-01  3.24910624e-09  3.24784322e-09  4.58868574e-01  4.58868574e-01  3.25524422e-09  4.58868574e-01  3.28531205e-09  1.57628365e-07  7.04584409e-08  9.90000000e-01 
 1.00000000e+00  3.24910624e-09  3.24784322e-09  4.58868563e-01  4.58868563e-01  3.25524422e-09  4.58868563e-01  3.28531205e-09  1.57628336e-07  7.04583130e-08  1.00000000e+00 
 1.01000000e+00  3.24910635e-09  3.24784322e-09  4.58868536e-01  4.58868536e-01  3.25524422e-09  4.58868536e-01  3.28531205e-09  1.57628292e-07  7.04582419e-08  1.01000000e+00 
 1.02000000e+00  3.24910624e-09  3.24784333e-09  4.58868544e-01  4.58868544e-01  3.25524422e-09  4.58868544e-01  3.28531205e-09  1.57628301e-07  7.04580927e-08  1.02000000e+00 
 1.03000000e+00  3.24910624e-09  3.24784322e-09  4.58868527e-01  4.58868527e-01  3.25524422e-09  4.58868527e-01  3.28531205e-09  1.57628281e-07  7.04580216e-08  1.03000000e+00 
 1.04000000e+00  3.24910624e-09  3.24784322e-09  4.58868533e-01  4.58868533e-01  3.25524422e-09  4.58868533e-01  3.28531193e-09  1.57628298e-07  7.04579435e-08  1.04000000e+00 
 1.05000000e+00  3.24910635e-09  3.24784333e-09  4.58868544e-01  4.58868544e-01  3.25524422e-09  4.58868544e-01  3.28531205e-09  1.57628319e-07  7.04578795e-08  1.05000000e+00 
 1.06000000e+00  3.24910624e-09  3.24784322e-09  4.58868559e-01  4.58868559e-01  3.25524422e-09  4.58868559e-01  3.28531193e-09  1.57628339e-07  7.04579222e-08  1.06000000e+00 
 1.07000000e+00  3.24910624e-09  3.24784322e-09  4.58868551e-01  4.58868551e-01  3.25524422e-09  4.58868551e-01  3.28531205e-09  1.57628338e-07  7.04577303e-08  1.07000000e+00 
 1.08000000e+00  3.24910624e-09  3.24784334e-09  4.58868561e-01  4.58868561e-01  3.25524422e-09  4.58868561e-01  3.28531193e-09  1.57628336e-07  7.04576379e-08  1.08000000e+00 
 1.09000000e+00  3.24910624e-09  3.24784333e-09  4.58868559e-01  4.58868559e-01  3.25524422e-09  4.58868559e-01  3.28531205e-09  1.57628331e-07  7.04576664e-08  1.09000000e+00 
 1.10000000e+00  3.24910635e-09  3.24784322e-09  4.58868550e-01  4.58868550e-01  3.25524422e-09  4.58868550e-01  3.28531193e-09  1.57628319e-07  7.04575598e-08  1.10000000e+00 
