 v-sweep         v(b0)           v(b1)           v(b2)           v(b3)           v(b4)           v(b5)           v(b6)           i(vbias)        i(viout)        v(vout)        
 0.00000000e+00  4.58737707e-01  3.32218967e-09  3.26332994e-09  4.58737707e-01  4.58737707e-01  4.58737707e-01  3.26570387e-09  1.58340353e-07  8.12543493e-08  0.00000000e+00 
 1.00000000e-02  4.58737703e-01  3.32218977e-09  3.26332992e-09  4.58737703e-01  4.58737703e-01  4.58737703e-01  3.26570386e-09  1.58340373e-07  8.12540092e-08  1.00000000e-02 
 2.00000000e-02  4.58737717e-01  3.32218977e-09  3.26333004e-09  4.58737717e-01  4.58737717e-01  4.58737717e-01  3.26570386e-09  1.58340377e-07  8.12536354e-08  2.00000000e-02 
 3.00000000e-02  4.58737729e-01  3.32218977e-09  3.26332992e-09  4.58737729e-01  4.58737729e-01  4.58737729e-01  3.26570386e-09  1.58340405e-07  8.12533045e-08  3.00000000e-02 
 4.00000000e-02  4.58737720e-01  3.32218966e-09  3.26332992e-09  4.58737720e-01  4.58737720e-01  4.58737720e-01  3.26570375e-09  1.58340397e-07  8.12528813e-08  4.00000000e-02 
 5.00000000e-02  4.58737723e-01  3.32218977e-09  3.26332992e-09  4.58737723e-01  4.58737723e-01  4.58737723e-01  3.26570387e-09  1.58340389e-07  8.12524572e-08  5.00000000e-02 
 6.00000000e-02  4.58737731e-01  3.32218966e-09  3.26332992e-09  4.58737731e-01  4.58737731e-01  4.58737731e-01  3.26570386e-09  1.58340393e-07  8.12521663e-08  6.00000000e-02 
 7.00000000e-02  4.58737741e-01  3.32218977e-09  3.26332992e-09  4.58737741e-01  4.58737741e-01  4.58737741e-01  3.26570375e-09  1.58340426e-07  8.12519447e-08  7.00000000e-02 
 8.00000000e-02  4.58737723e-01  3.32218977e-09  3.26332992e-09  4.58737723e-01  4.58737723e-01  4.58737723e-01  3.26570375e-09  1.58340389e-07  8.12515353e-08  8.00000000e-02 
 9.00000000e-02  4.58737749e-01  3.32218977e-09  3.26333004e-09  4.58737749e-01  4.58737749e-01  4.58737749e-01  3.26570375e-09  1.58340433e-07  8.12514491e-08  9.00000000e-02 
 1.00000000e-01  4.58737711e-01  3.32218966e-09  3.26332992e-09  4.58737711e-01  4.58737711e-01  4.58737711e-01  3.26570375e-09  1.58340372e-07  8.12510281e-08  1.00000000e-01 
 1.10000000e-01  4.58737729e-01  3.32218977e-09  3.26332992e-09  4.58737729e-01  4.58737729e-01  4.58737729e-01  3.26570386e-09  1.58340400e-07  8.12508443e-08  1.10000000e-01 
 1.20000000e-01  4.58737722e-01  3.32218966e-09  3.26332992e-09  4.58737722e-01  4.58737722e-01  4.58737722e-01  3.26570386e-09  1.58340400e-07  8.12505343e-08  1.20000000e-01 
 1.30000000e-01  4.58737723e-01  3.32218977e-09  3.26332992e-09  4.58737723e-01  4.58737723e-01  4.58737723e-01  3.26570375e-09  1.58340404e-07  8.12503673e-08  1.30000000e-01 
 1.40000000e-01  4.58737721e-01  3.32218966e-09  3.26332992e-09  4.58737721e-01  4.58737721e-01  4.58737721e-01  3.26570375e-09  1.58340387e-07  8.12501417e-08  1.40000000e-01 
 1.50000000e-01  4.58737712e-01  3.32218977e-09  3.26332992e-09  4.58737712e-01  4.58737712e-01  4.58737712e-01  3.26570386e-09  1.58340378e-07  8.12498211e-08  1.50000000e-01 
 1.60000000e-01  4.58737741e-01  3.32218966e-09  3.26332992e-09  4.58737741e-01  4.58737741e-01  4.58737741e-01  3.26570386e-09  1.58340409e-07  8.12498371e-08  1.60000000e-01 
 1.70000000e-01  4.58737703e-01  3.32218966e-09  3.26332992e-09  4.58737703e-01  4.58737703e-01  4.58737703e-01  3.26570386e-09  1.58340375e-07  8.12495173e-08  1.70000000e-01 
 1.80000000e-01  4.58737715e-01  3.32218977e-09  3.26332992e-09  4.58737715e-01  4.58737715e-01  4.58737715e-01  3.26570386e-09  1.58340388e-07  8.12492047e-08  1.80000000e-01 
 1.90000000e-01  4.58737736e-01  3.32218977e-09  3.26332992e-09  4.58737736e-01  4.58737736e-01  4.58737736e-01  3.26570386e-09  1.58340416e-07  8.12490786e-08  1.90000000e-01 
 2.00000000e-01  4.58737742e-01  3.32218966e-09  3.26332992e-09  4.58737742e-01  4.58737742e-01  4.58737742e-01  3.26570375e-09  1.58340418e-07  8.12489205e-08  2.00000000e-01 
 2.10000000e-01  4.58737714e-01  3.32218966e-09  3.26333004e-09  4.58737714e-01  4.58737714e-01  4.58737714e-01  3.26570375e-09  1.58340386e-07  8.12487322e-08  2.10000000e-01 
 2.20000000e-01  4.58737715e-01  3.32218977e-09  3.26333004e-09  4.58737715e-01  4.58737715e-01  4.58737715e-01  3.26570386e-09  1.58340377e-07  8.12486789e-08  2.20000000e-01 
 2.30000000e-01  4.58737733e-01  3.32218977e-09  3.26332992e-09  4.58737733e-01  4.58737733e-01  4.58737733e-01  3.26570386e-09  1.58340409e-07  8.12484409e-08  2.30000000e-01 
 2.40000000e-01  4.58737731e-01  3.32218977e-09  3.26332992e-09  4.58737731e-01  4.58737731e-01  4.58737731e-01  3.26570375e-09  1.58340408e-07  8.12483112e-08  2.40000000e-01 
 2.50000000e-01  4.58737737e-01  3.32218977e-09  3.26333004e-09  4.58737737e-01  4.58737737e-01  4.58737737e-01  3.26570375e-09  1.58340407e-07  8.12481851e-08  2.50000000e-01 
 2.60000000e-01  4.58737719e-01  3.32218966e-09  3.26332992e-09  4.58737719e-01  4.58737719e-01  4.58737719e-01  3.26570375e-09  1.58340387e-07  8.12479986e-08  2.60000000e-01 
 2.70000000e-01  4.58737717e-01  3.32218977e-09  3.26332992e-09  4.58737717e-01  4.58737717e-01  4.58737717e-01  3.26570375e-09  1.58340389e-07  8.12478316e-08  2.70000000e-01 
 2.80000000e-01  4.58737738e-01  3.32218966e-09  3.26332992e-09  4.58737738e-01  4.58737738e-01  4.58737738e-01  3.26570386e-09  1.58340421e-07  8.12479328e-08  2.80000000e-01 
 2.90000000e-01  4.58737712e-01  3.32218977e-09  3.26332992e-09  4.58737713e-01  4.58737713e-01  4.58737712e-01  3.26570374e-09  1.58340374e-07  8.12477232e-08  2.90000000e-01 
 3.00000000e-01  4.58737725e-01  3.32218977e-09  3.26333004e-09  4.58737725e-01  4.58737725e-01  4.58737725e-01  3.26570387e-09  1.58340383e-07  8.12476522e-08  3.00000000e-01 
 3.10000000e-01  4.58737730e-01  3.32218977e-09  3.26333004e-09  4.58737730e-01  4.58737730e-01  4.58737730e-01  3.26570374e-09  1.58340396e-07  8.12475314e-08  3.10000000e-01 
 3.20000000e-01  4.58737733e-01  3.32218966e-09  3.26332992e-09  4.58737734e-01  4.58737734e-01  4.58737733e-01  3.26570375e-09  1.58340397e-07  8.12473075e-08  3.20000000e-01 
 3.30000000e-01  4.58737722e-01  3.32218966e-09  3.26332992e-09  4.58737722e-01  4.58737722e-01  4.58737722e-01  3.26570375e-09  1.58340386e-07  8.12472223e-08  3.30000000e-01 
 3.40000000e-01  4.58737730e-01  3.32218977e-09  3.26333004e-09  4.58737730e-01  4.58737730e-01  4.58737729e-01  3.26570386e-09  1.58340409e-07  8.12472223e-08  3.40000000e-01 
 3.50000000e-01  4.58737718e-01  3.32218977e-09  3.26332992e-09  4.58737718e-01  4.58737718e-01  4.58737718e-01  3.26570385e-09  1.58340389e-07  8.12470304e-08  3.50000000e-01 
 3.60000000e-01  4.58737728e-01  3.32218977e-09  3.26332992e-09  4.58737728e-01  4.58737728e-01  4.58737728e-01  3.26570375e-09  1.58340387e-07  8.12470162e-08  3.60000000e-01 
 3.70000000e-01  4.58737746e-01  3.32218977e-09  3.26332992e-09  4.58737746e-01  4.58737746e-01  4.58737746e-01  3.26570387e-09  1.58340416e-07  8.12469345e-08  3.70000000e-01 
 3.80000000e-01  4.58737720e-01  3.32218966e-09  3.26333004e-09  4.58737720e-01  4.58737720e-01  4.58737720e-01  3.26570386e-09  1.58340402e-07  8.12467462e-08  3.80000000e-01 
 3.90000000e-01  4.58737726e-01  3.32218966e-09  3.26332992e-09  4.58737726e-01  4.58737726e-01  4.58737726e-01  3.26570386e-09  1.58340382e-07  8.12467533e-08  3.90000000e-01 
 4.00000000e-01  4.58737719e-01  3.32218966e-09  3.26332992e-09  4.58737719e-01  4.58737719e-01  4.58737718e-01  3.26570375e-09  1.58340386e-07  8.12466787e-08  4.00000000e-01 
 4.10000000e-01  4.58737710e-01  3.32218977e-09  3.26333004e-09  4.58737710e-01  4.58737710e-01  4.58737710e-01  3.26570386e-09  1.58340369e-07  8.12465082e-08  4.10000000e-01 
 4.20000000e-01  4.58737732e-01  3.32218977e-09  3.26332992e-09  4.58737732e-01  4.58737732e-01  4.58737732e-01  3.26570374e-09  1.58340402e-07  8.12464584e-08  4.20000000e-01 
 4.30000000e-01  4.58737717e-01  3.32218977e-09  3.26333004e-09  4.58737717e-01  4.58737717e-01  4.58737717e-01  3.26570375e-09  1.58340378e-07  8.12463767e-08  4.30000000e-01 
 4.40000000e-01  4.58737744e-01  3.32218966e-09  3.26332992e-09  4.58737744e-01  4.58737744e-01  4.58737744e-01  3.26570375e-09  1.58340419e-07  8.12462595e-08  4.40000000e-01 
 4.50000000e-01  4.58737728e-01  3.32218977e-09  3.26332992e-09  4.58737728e-01  4.58737728e-01  4.58737728e-01  3.26570375e-09  1.58340398e-07  8.12462453e-08  4.50000000e-01 
 4.60000000e-01  4.58737716e-01  3.32218966e-09  3.26332992e-09  4.58737716e-01  4.58737716e-01  4.58737716e-01  3.26570386e-09  1.58340386e-07  8.12462098e-08  4.60000000e-01 
 4.70000000e-01  4.58737725e-01  3.32218966e-09  3.26332992e-09  4.58737725e-01  4.58737725e-01  4.58737725e-01  3.26570386e-09  1.58340392e-07  8.12460890e-08  4.70000000e-01 
 4.80000000e-01  4.58737703e-01  3.32218966e-09  3.26332992e-09  4.58737704e-01  4.58737704e-01  4.58737703e-01  3.26570386e-09  1.58340362e-07  8.12459895e-08  4.80000000e-01 
 4.90000000e-01  4.58737695e-01  3.32218977e-09  3.26332992e-09  4.58737695e-01  4.58737695e-01  4.58737695e-01  3.26570386e-09  1.58340356e-07  8.12458190e-08  4.90000000e-01 
 5.00000000e-01  4.58737706e-01  3.32218977e-09  3.26332992e-09  4.58737706e-01  4.58737706e-01  4.58737706e-01  3.26570386e-09  1.58340367e-07  8.12457763e-08  5.00000000e-01 
 5.10000000e-01  4.58737703e-01  3.32218977e-09  3.26332992e-09  4.58737703e-01  4.58737703e-01  4.58737703e-01  3.26570375e-09  1.58340371e-07  8.12457195e-08  5.10000000e-01 
 5.20000000e-01  4.58737741e-01  3.32218977e-09  3.26332992e-09  4.58737741e-01  4.58737741e-01  4.58737741e-01  3.26570375e-09  1.58340425e-07  8.12458048e-08  5.20000000e-01 
 5.30000000e-01  4.58737721e-01  3.32218966e-09  3.26332992e-09  4.58737721e-01  4.58737721e-01  4.58737721e-01  3.26570375e-09  1.58340388e-07  8.12456271e-08  5.30000000e-01 
 5.40000000e-01  4.58737726e-01  3.32218977e-09  3.26332992e-09  4.58737726e-01  4.58737726e-01  4.58737726e-01  3.26570375e-09  1.58340392e-07  8.12456378e-08  5.40000000e-01 
 5.50000000e-01  4.58737723e-01  3.32218977e-09  3.26332992e-09  4.58737723e-01  4.58737723e-01  4.58737723e-01  3.26570386e-09  1.58340389e-07  8.12454388e-08  5.50000000e-01 
 5.60000000e-01  4.58737730e-01  3.32218966e-09  3.26332992e-09  4.58737730e-01  4.58737730e-01  4.58737730e-01  3.26570386e-09  1.58340402e-07  8.12454708e-08  5.60000000e-01 
 5.70000000e-01  4.58737732e-01  3.32218966e-09  3.26332992e-09  4.58737732e-01  4.58737732e-01  4.58737732e-01  3.26570375e-09  1.58340413e-07  8.12452292e-08  5.70000000e-01 
 5.80000000e-01  4.58737736e-01  3.32218966e-09  3.26333004e-09  4.58737736e-01  4.58737736e-01  4.58737736e-01  3.26570387e-09  1.58340408e-07  8.12454246e-08  5.80000000e-01 
 5.90000000e-01  4.58737736e-01  3.32218977e-09  3.26332992e-09  4.58737736e-01  4.58737736e-01  4.58737736e-01  3.26570386e-09  1.58340419e-07  8.12451901e-08  5.90000000e-01 
 6.00000000e-01  4.58737739e-01  3.32218977e-09  3.26333004e-09  4.58737739e-01  4.58737739e-01  4.58737738e-01  3.26570386e-09  1.58340412e-07  8.12451759e-08  6.00000000e-01 
 6.10000000e-01  4.58737722e-01  3.32218966e-09  3.26332992e-09  4.58737722e-01  4.58737722e-01  4.58737722e-01  3.26570375e-09  1.58340398e-07  8.12449841e-08  6.10000000e-01 
 6.20000000e-01  4.58737708e-01  3.32218977e-09  3.26333004e-09  4.58737708e-01  4.58737708e-01  4.58737708e-01  3.26570386e-09  1.58340373e-07  8.12449770e-08  6.20000000e-01 
 6.30000000e-01  4.58737717e-01  3.32218966e-09  3.26332992e-09  4.58737717e-01  4.58737717e-01  4.58737717e-01  3.26570385e-09  1.58340381e-07  8.12448917e-08  6.30000000e-01 
 6.40000000e-01  4.58737717e-01  3.32218966e-09  3.26332992e-09  4.58737717e-01  4.58737717e-01  4.58737717e-01  3.26570386e-09  1.58340402e-07  8.12448988e-08  6.40000000e-01 
 6.50000000e-01  4.58737708e-01  3.32218966e-09  3.26333004e-09  4.58737708e-01  4.58737708e-01  4.58737708e-01  3.26570386e-09  1.58340375e-07  8.12446643e-08  6.50000000e-01 
 6.60000000e-01  4.58737722e-01  3.32218977e-09  3.26332992e-09  4.58737722e-01  4.58737722e-01  4.58737722e-01  3.26570375e-09  1.58340400e-07  8.12447141e-08  6.60000000e-01 
 6.70000000e-01  4.58737726e-01  3.32218966e-09  3.26333004e-09  4.58737726e-01  4.58737726e-01  4.58737726e-01  3.26570387e-09  1.58340398e-07  8.12446999e-08  6.70000000e-01 
 6.80000000e-01  4.58737689e-01  3.32218977e-09  3.26332992e-09  4.58737689e-01  4.58737689e-01  4.58737689e-01  3.26570385e-09  1.58340360e-07  8.12444583e-08  6.80000000e-01 
 6.90000000e-01  4.58737735e-01  3.32218966e-09  3.26332992e-09  4.58737735e-01  4.58737735e-01  4.58737735e-01  3.26570386e-09  1.58340423e-07  8.12445791e-08  6.90000000e-01 
 7.00000000e-01  4.58737686e-01  3.32218977e-09  3.26332992e-09  4.58737686e-01  4.58737687e-01  4.58737686e-01  3.26570386e-09  1.58340354e-07  8.12443517e-08  7.00000000e-01 
 7.10000000e-01  4.58737719e-01  3.32218966e-09  3.26332992e-09  4.58737719e-01  4.58737719e-01  4.58737719e-01  3.26570375e-09  1.58340390e-07  8.12443304e-08  7.10000000e-01 
 7.20000000e-01  4.58737727e-01  3.32218977e-09  3.26332992e-09  4.58737727e-01  4.58737727e-01  4.58737727e-01  3.26570375e-09  1.58340402e-07  8.12443730e-08  7.20000000e-01 
 7.30000000e-01  4.58737738e-01  3.32218977e-09  3.26332992e-09  4.58737738e-01  4.58737738e-01  4.58737738e-01  3.26570375e-09  1.58340402e-07  8.12442451e-08  7.30000000e-01 
 7.40000000e-01  4.58737726e-01  3.32218966e-09  3.26332992e-09  4.58737726e-01  4.58737727e-01  4.58737726e-01  3.26570375e-09  1.58340405e-07  8.12442664e-08  7.40000000e-01 
 7.50000000e-01  4.58737723e-01  3.32218966e-09  3.26332992e-09  4.58737723e-01  4.58737723e-01  4.58737723e-01  3.26570386e-09  1.58340398e-07  8.12440675e-08  7.50000000e-01 
 7.60000000e-01  4.58737730e-01  3.32218977e-09  3.26332992e-09  4.58737730e-01  4.58737730e-01  4.58737730e-01  3.26570386e-09  1.58340411e-07  8.12441598e-08  7.60000000e-01 
 7.70000000e-01  4.58737702e-01  3.32218966e-09  3.26333004e-09  4.58737702e-01  4.58737702e-01  4.58737702e-01  3.26570386e-09  1.58340356e-07  8.12439040e-08  7.70000000e-01 
 7.80000000e-01  4.58737745e-01  3.32218977e-09  3.26332992e-09  4.58737745e-01  4.58737745e-01  4.58737745e-01  3.26570375e-09  1.58340431e-07  8.12439964e-08  7.80000000e-01 
 7.90000000e-01  4.58737710e-01  3.32218977e-09  3.26332992e-09  4.58737710e-01  4.58737710e-01  4.58737710e-01  3.26570375e-09  1.58340375e-07  8.12438401e-08  7.90000000e-01 
 8.00000000e-01  4.58737711e-01  3.32218977e-09  3.26332992e-09  4.58737711e-01  4.58737711e-01  4.58737711e-01  3.26570375e-09  1.58340371e-07  8.12438188e-08  8.00000000e-01 
 8.10000000e-01  4.58737711e-01  3.32218966e-09  3.26332992e-09  4.58737711e-01  4.58737711e-01  4.58737711e-01  3.26570375e-09  1.58340373e-07  8.12436483e-08  8.10000000e-01 
 8.20000000e-01  4.58737723e-01  3.32218966e-09  3.26332992e-09  4.58737723e-01  4.58737723e-01  4.58737723e-01  3.26570375e-09  1.58340393e-07  8.12436625e-08  8.20000000e-01 
 8.30000000e-01  4.58737753e-01  3.32218977e-09  3.26332992e-09  4.58737753e-01  4.58737753e-01  4.58737753e-01  3.26570375e-09  1.58340442e-07  8.12436127e-08  8.30000000e-01 
 8.40000000e-01  4.58737715e-01  3.32218977e-09  3.26333004e-09  4.58737715e-01  4.58737715e-01  4.58737715e-01  3.26570386e-09  1.58340385e-07  8.12435488e-08  8.40000000e-01 
 8.50000000e-01  4.58737720e-01  3.32218966e-09  3.26332992e-09  4.58737720e-01  4.58737720e-01  4.58737720e-01  3.26570386e-09  1.58340384e-07  8.12434848e-08  8.50000000e-01 
 8.60000000e-01  4.58737733e-01  3.32218977e-09  3.26332992e-09  4.58737733e-01  4.58737733e-01  4.58737733e-01  3.26570375e-09  1.58340410e-07  8.12433711e-08  8.60000000e-01 
 8.70000000e-01  4.58737706e-01  3.32218966e-09  3.26332992e-09  4.58737706e-01  4.58737706e-01  4.58737706e-01  3.26570386e-09  1.58340373e-07  8.12433711e-08  8.70000000e-01 
 8.80000000e-01  4.58737744e-01  3.32218966e-09  3.26332992e-09  4.58737744e-01  4.58737744e-01  4.58737744e-01  3.26570386e-09  1.58340413e-07  8.12432788e-08  8.80000000e-01 
 8.90000000e-01  4.58737694e-01  3.32218977e-09  3.26332992e-09  4.58737694e-01  4.58737694e-01  4.58737694e-01  3.26570386e-09  1.58340348e-07  8.12432148e-08  8.90000000e-01 
 9.00000000e-01  4.58737727e-01  3.32218977e-09  3.26332992e-09  4.58737727e-01  4.58737727e-01  4.58737727e-01  3.26570375e-09  1.58340398e-07  8.12431153e-08  9.00000000e-01 
 9.10000000e-01  4.58737720e-01  3.32218977e-09  3.26332992e-09  4.58737720e-01  4.58737720e-01  4.58737720e-01  3.26570387e-09  1.58340383e-07  8.12429590e-08  9.10000000e-01 
 9.20000000e-01  4.58737727e-01  3.32218966e-09  3.26332992e-09  4.58737727e-01  4.58737727e-01  4.58737727e-01  3.26570386e-09  1.58340391e-07  8.12430017e-08  9.20000000e-01 
 9.30000000e-01  4.58737733e-01  3.32218977e-09  3.26332992e-09  4.58737733e-01  4.58737733e-01  4.58737733e-01  3.26570386e-09  1.58340410e-07  8.12428524e-08  9.30000000e-01 
 9.40000000e-01  4.58737741e-01  3.32218977e-09  3.26333004e-09  4.58737741e-01  4.58737741e-01  4.58737741e-01  3.26570375e-09  1.58340418e-07  8.12427956e-08  9.40000000e-01 
 9.50000000e-01  4.58737724e-01  3.32218977e-09  3.26332992e-09  4.58737724e-01  4.58737724e-01  4.58737724e-01  3.26570387e-09  1.58340403e-07  8.12427174e-08  9.50000000e-01 
 9.60000000e-01  4.58737726e-01  3.32218977e-09  3.26332992e-09  4.58737726e-01  4.58737726e-01  4.58737726e-01  3.26570386e-09  1.58340396e-07  8.12426322e-08  9.60000000e-01 
 9.70000000e-01  4.58737704e-01  3.32218977e-09  3.26332992e-09  4.58737704e-01  4.58737704e-01  4.58737704e-01  3.26570386e-09  1.58340364e-07  8.12426819e-08  9.70000000e-01 
 9.80000000e-01  4.58737713e-01  3.32218966e-09  3.26332992e-09  4.58737713e-01  4.58737713e-01  4.58737713e-01  3.26570386e-09  1.58340391e-07  8.12425398e-08  9.80000000e-01 
 9.90000000e-01  4.58737730e-01  3.32218977e-09  3.26332992e-09  4.58737730e-01  4.58737730e-01  4.58737730e-01  3.26570386e-09  1.58340401e-07  8.12424759e-08  9.90000000e-01 
 1.00000000e+00  4.58737715e-01  3.32218977e-09  3.26332992e-09  4.58737715e-01  4.58737715e-01  4.58737715e-01  3.26570386e-09  1.58340380e-07  8.12423480e-08  1.00000000e+00 
 1.01000000e+00  4.58737717e-01  3.32218977e-09  3.26332992e-09  4.58737717e-01  4.58737717e-01  4.58737717e-01  3.26570375e-09  1.58340391e-07  8.12422343e-08  1.01000000e+00 
 1.02000000e+00  4.58737715e-01  3.32218966e-09  3.26332992e-09  4.58737715e-01  4.58737715e-01  4.58737715e-01  3.26570375e-09  1.58340388e-07  8.12422059e-08  1.02000000e+00 
 1.03000000e+00  4.58737711e-01  3.32218977e-09  3.26332992e-09  4.58737711e-01  4.58737711e-01  4.58737711e-01  3.26570375e-09  1.58340371e-07  8.12420922e-08  1.03000000e+00 
 1.04000000e+00  4.58737716e-01  3.32218966e-09  3.26332992e-09  4.58737716e-01  4.58737716e-01  4.58737716e-01  3.26570375e-09  1.58340382e-07  8.12421064e-08  1.04000000e+00 
 1.05000000e+00  4.58737728e-01  3.32218977e-09  3.26333004e-09  4.58737728e-01  4.58737728e-01  4.58737728e-01  3.26570375e-09  1.58340390e-07  8.12420353e-08  1.05000000e+00 
 1.06000000e+00  4.58737724e-01  3.32218977e-09  3.26332992e-09  4.58737724e-01  4.58737724e-01  4.58737724e-01  3.26570375e-09  1.58340401e-07  8.12418932e-08  1.06000000e+00 
 1.07000000e+00  4.58737733e-01  3.32218966e-09  3.26332992e-09  4.58737733e-01  4.58737733e-01  4.58737733e-01  3.26570375e-09  1.58340413e-07  8.12418435e-08  1.07000000e+00 
 1.08000000e+00  4.58737734e-01  3.32218977e-09  3.26332992e-09  4.58737734e-01  4.58737734e-01  4.58737734e-01  3.26570386e-09  1.58340405e-07  8.12416943e-08  1.08000000e+00 
 1.09000000e+00  4.58737717e-01  3.32218977e-09  3.26333004e-09  4.58737717e-01  4.58737717e-01  4.58737717e-01  3.26570385e-09  1.58340396e-07  8.12417298e-08  1.09000000e+00 
 1.10000000e+00  4.58737737e-01  3.32218966e-09  3.26332992e-09  4.58737737e-01  4.58737737e-01  4.58737737e-01  3.26570375e-09  1.58340411e-07  8.12415877e-08  1.10000000e+00 
