 v-sweep         v(b0)           v(b1)           v(b2)           v(b3)           v(b4)           v(b5)           v(b6)           i(vbias)        i(viout)        v(vout)        
 0.00000000e+00  4.57771193e-01  3.26610996e-09  3.32316398e-09  3.28408216e-09  3.26927520e-09  4.57771193e-01  3.23965533e-09  1.58956135e-07  4.84124470e-08  0.00000000e+00 
 1.00000000e-02  4.57771192e-01  3.26611006e-09  3.32316386e-09  3.28408215e-09  3.26927518e-09  4.57771192e-01  3.23965532e-09  1.58956146e-07  4.84119507e-08  1.00000000e-02 
 2.00000000e-02  4.57771181e-01  3.26610995e-09  3.32316397e-09  3.28408215e-09  3.26927518e-09  4.57771181e-01  3.23965532e-09  1.58956132e-07  4.84116900e-08  2.00000000e-02 
 3.00000000e-02  4.57771197e-01  3.26610995e-09  3.32316397e-09  3.28408204e-09  3.26927518e-09  4.57771198e-01  3.23965532e-09  1.58956162e-07  4.84113267e-08  3.00000000e-02 
 4.00000000e-02  4.57771205e-01  3.26610995e-09  3.32316397e-09  3.28408216e-09  3.26927518e-09  4.57771205e-01  3.23965532e-09  1.58956173e-07  4.84109872e-08  4.00000000e-02 
 5.00000000e-02  4.57771185e-01  3.26611006e-09  3.32316397e-09  3.28408215e-09  3.26927518e-09  4.57771185e-01  3.23965532e-09  1.58956135e-07  4.84106377e-08  5.00000000e-02 
 6.00000000e-02  4.57771189e-01  3.26610995e-09  3.32316397e-09  3.28408215e-09  3.26927518e-09  4.57771189e-01  3.23965543e-09  1.58956131e-07  4.84102709e-08  6.00000000e-02 
 7.00000000e-02  4.57771197e-01  3.26611006e-09  3.32316386e-09  3.28408204e-09  3.26927518e-09  4.57771197e-01  3.23965543e-09  1.58956142e-07  4.84100400e-08  7.00000000e-02 
 8.00000000e-02  4.57771171e-01  3.26610995e-09  3.32316397e-09  3.28408216e-09  3.26927518e-09  4.57771171e-01  3.23965532e-09  1.58956117e-07  4.84096478e-08  8.00000000e-02 
 9.00000000e-02  4.57771184e-01  3.26610995e-09  3.32316397e-09  3.28408215e-09  3.26927518e-09  4.57771184e-01  3.23965532e-09  1.58956130e-07  4.84094071e-08  9.00000000e-02 
 1.00000000e-01  4.57771207e-01  3.26610995e-09  3.32316386e-09  3.28408215e-09  3.26927518e-09  4.57771207e-01  3.23965532e-09  1.58956166e-07  4.84091833e-08  1.00000000e-01 
 1.10000000e-01  4.57771184e-01  3.26611006e-09  3.32316397e-09  3.28408215e-09  3.26927518e-09  4.57771184e-01  3.23965532e-09  1.58956123e-07  4.84089382e-08  1.10000000e-01 
 1.20000000e-01  4.57771186e-01  3.26610995e-09  3.32316386e-09  3.28408215e-09  3.26927518e-09  4.57771186e-01  3.23965532e-09  1.58956133e-07  4.84086442e-08  1.20000000e-01 
 1.30000000e-01  4.57771192e-01  3.26610995e-09  3.32316397e-09  3.28408204e-09  3.26927518e-09  4.57771192e-01  3.23965532e-09  1.58956159e-07  4.84085270e-08  1.30000000e-01 
 1.40000000e-01  4.57771180e-01  3.26611006e-09  3.32316397e-09  3.28408204e-09  3.26927518e-09  4.57771180e-01  3.23965532e-09  1.58956130e-07  4.84081371e-08  1.40000000e-01 
 1.50000000e-01  4.57771186e-01  3.26610995e-09  3.32316397e-09  3.28408215e-09  3.26927518e-09  4.57771186e-01  3.23965532e-09  1.58956121e-07  4.84080687e-08  1.50000000e-01 
 1.60000000e-01  4.57771208e-01  3.26610995e-09  3.32316397e-09  3.28408215e-09  3.26927518e-09  4.57771208e-01  3.23965532e-09  1.58956168e-07  4.84079710e-08  1.60000000e-01 
 1.70000000e-01  4.57771207e-01  3.26610995e-09  3.32316386e-09  3.28408215e-09  3.26927518e-09  4.57771207e-01  3.23965532e-09  1.58956149e-07  4.84077027e-08  1.70000000e-01 
 1.80000000e-01  4.57771185e-01  3.26610995e-09  3.32316397e-09  3.28408204e-09  3.26927518e-09  4.57771185e-01  3.23965532e-09  1.58956128e-07  4.84075020e-08  1.80000000e-01 
 1.90000000e-01  4.57771181e-01  3.26610995e-09  3.32316386e-09  3.28408204e-09  3.26927518e-09  4.57771181e-01  3.23965532e-09  1.58956138e-07  4.84073617e-08  1.90000000e-01 
 2.00000000e-01  4.57771190e-01  3.26611006e-09  3.32316397e-09  3.28408215e-09  3.26927518e-09  4.57771190e-01  3.23965532e-09  1.58956146e-07  4.84072213e-08  2.00000000e-01 
 2.10000000e-01  4.57771199e-01  3.26611006e-09  3.32316397e-09  3.28408215e-09  3.26927518e-09  4.57771199e-01  3.23965532e-09  1.58956156e-07  4.84069336e-08  2.10000000e-01 
 2.20000000e-01  4.57771193e-01  3.26610995e-09  3.32316397e-09  3.28408215e-09  3.26927518e-09  4.57771193e-01  3.23965532e-09  1.58956141e-07  4.84068803e-08  2.20000000e-01 
 2.30000000e-01  4.57771179e-01  3.26610995e-09  3.32316386e-09  3.28408204e-09  3.26927518e-09  4.57771179e-01  3.23965532e-09  1.58956123e-07  4.84067453e-08  2.30000000e-01 
 2.40000000e-01  4.57771172e-01  3.26611006e-09  3.32316397e-09  3.28408216e-09  3.26927518e-09  4.57771172e-01  3.23965532e-09  1.58956124e-07  4.84064770e-08  2.40000000e-01 
 2.50000000e-01  4.57771188e-01  3.26610995e-09  3.32316397e-09  3.28408215e-09  3.26927518e-09  4.57771189e-01  3.23965532e-09  1.58956137e-07  4.84064930e-08  2.50000000e-01 
 2.60000000e-01  4.57771174e-01  3.26610995e-09  3.32316397e-09  3.28408204e-09  3.26927518e-09  4.57771174e-01  3.23965532e-09  1.58956122e-07  4.84063971e-08  2.60000000e-01 
 2.70000000e-01  4.57771177e-01  3.26610995e-09  3.32316397e-09  3.28408216e-09  3.26927518e-09  4.57771177e-01  3.23965532e-09  1.58956122e-07  4.84062781e-08  2.70000000e-01 
 2.80000000e-01  4.57771197e-01  3.26610995e-09  3.32316397e-09  3.28408204e-09  3.26927518e-09  4.57771197e-01  3.23965543e-09  1.58956164e-07  4.84061449e-08  2.80000000e-01 
 2.90000000e-01  4.57771202e-01  3.26611006e-09  3.32316397e-09  3.28408216e-09  3.26927518e-09  4.57771202e-01  3.23965543e-09  1.58956156e-07  4.84059655e-08  2.90000000e-01 
 3.00000000e-01  4.57771199e-01  3.26611006e-09  3.32316397e-09  3.28408215e-09  3.26927518e-09  4.57771199e-01  3.23965532e-09  1.58956151e-07  4.84058980e-08  3.00000000e-01 
 3.10000000e-01  4.57771194e-01  3.26611006e-09  3.32316397e-09  3.28408204e-09  3.26927518e-09  4.57771194e-01  3.23965532e-09  1.58956140e-07  4.84058909e-08  3.10000000e-01 
 3.20000000e-01  4.57771177e-01  3.26610995e-09  3.32316386e-09  3.28408216e-09  3.26927518e-09  4.57771177e-01  3.23965532e-09  1.58956121e-07  4.84057381e-08  3.20000000e-01 
 3.30000000e-01  4.57771192e-01  3.26611006e-09  3.32316397e-09  3.28408215e-09  3.26927518e-09  4.57771192e-01  3.23965532e-09  1.58956145e-07  4.84056244e-08  3.30000000e-01 
 3.40000000e-01  4.57771203e-01  3.26611006e-09  3.32316386e-09  3.28408215e-09  3.26927518e-09  4.57771203e-01  3.23965532e-09  1.58956155e-07  4.84055072e-08  3.40000000e-01 
 3.50000000e-01  4.57771190e-01  3.26610995e-09  3.32316397e-09  3.28408215e-09  3.26927518e-09  4.57771190e-01  3.23965532e-09  1.58956133e-07  4.84054112e-08  3.50000000e-01 
 3.60000000e-01  4.57771172e-01  3.26610995e-09  3.32316386e-09  3.28408215e-09  3.26927518e-09  4.57771172e-01  3.23965532e-09  1.58956117e-07  4.84052585e-08  3.60000000e-01 
 3.70000000e-01  4.57771167e-01  3.26610995e-09  3.32316397e-09  3.28408215e-09  3.26927518e-09  4.57771167e-01  3.23965532e-09  1.58956113e-07  4.84052585e-08  3.70000000e-01 
 3.80000000e-01  4.57771188e-01  3.26611006e-09  3.32316386e-09  3.28408215e-09  3.26927518e-09  4.57771189e-01  3.23965543e-09  1.58956136e-07  4.84051590e-08  3.80000000e-01 
 3.90000000e-01  4.57771192e-01  3.26610995e-09  3.32316386e-09  3.28408215e-09  3.26927518e-09  4.57771192e-01  3.23965531e-09  1.58956145e-07  4.84050879e-08  3.90000000e-01 
 4.00000000e-01  4.57771200e-01  3.26610995e-09  3.32316397e-09  3.28408204e-09  3.26927518e-09  4.57771200e-01  3.23965532e-09  1.58956144e-07  4.84050950e-08  4.00000000e-01 
 4.10000000e-01  4.57771198e-01  3.26611006e-09  3.32316397e-09  3.28408205e-09  3.26927518e-09  4.57771198e-01  3.23965532e-09  1.58956143e-07  4.84050204e-08  4.10000000e-01 
 4.20000000e-01  4.57771205e-01  3.26610995e-09  3.32316397e-09  3.28408215e-09  3.26927518e-09  4.57771205e-01  3.23965532e-09  1.58956166e-07  4.84048606e-08  4.20000000e-01 
 4.30000000e-01  4.57771202e-01  3.26610995e-09  3.32316397e-09  3.28408215e-09  3.26927518e-09  4.57771202e-01  3.23965532e-09  1.58956175e-07  4.84047611e-08  4.30000000e-01 
 4.40000000e-01  4.57771200e-01  3.26610995e-09  3.32316397e-09  3.28408215e-09  3.26927518e-09  4.57771200e-01  3.23965532e-09  1.58956156e-07  4.84047860e-08  4.40000000e-01 
 4.50000000e-01  4.57771193e-01  3.26610995e-09  3.32316397e-09  3.28408204e-09  3.26927518e-09  4.57771193e-01  3.23965532e-09  1.58956145e-07  4.84046403e-08  4.50000000e-01 
 4.60000000e-01  4.57771196e-01  3.26610995e-09  3.32316397e-09  3.28408205e-09  3.26927518e-09  4.57771196e-01  3.23965532e-09  1.58956144e-07  4.84046048e-08  4.60000000e-01 
 4.70000000e-01  4.57771190e-01  3.26610995e-09  3.32316397e-09  3.28408215e-09  3.26927518e-09  4.57771190e-01  3.23965532e-09  1.58956137e-07  4.84045195e-08  4.70000000e-01 
 4.80000000e-01  4.57771184e-01  3.26611006e-09  3.32316397e-09  3.28408215e-09  3.26927518e-09  4.57771184e-01  3.23965532e-09  1.58956148e-07  4.84045053e-08  4.80000000e-01 
 4.90000000e-01  4.57771197e-01  3.26610995e-09  3.32316397e-09  3.28408215e-09  3.26927518e-09  4.57771197e-01  3.23965532e-09  1.58956156e-07  4.84044698e-08  4.90000000e-01 
 5.00000000e-01  4.57771186e-01  3.26610995e-09  3.32316397e-09  3.28408215e-09  3.26927518e-09  4.57771186e-01  3.23965532e-09  1.58956123e-07  4.84042744e-08  5.00000000e-01 
 5.10000000e-01  4.57771183e-01  3.26611006e-09  3.32316397e-09  3.28408215e-09  3.26927518e-09  4.57771183e-01  3.23965543e-09  1.58956130e-07  4.84042673e-08  5.10000000e-01 
 5.20000000e-01  4.57771179e-01  3.26610995e-09  3.32316386e-09  3.28408215e-09  3.26927518e-09  4.57771179e-01  3.23965531e-09  1.58956130e-07  4.84041429e-08  5.20000000e-01 
 5.30000000e-01  4.57771182e-01  3.26611006e-09  3.32316397e-09  3.28408215e-09  3.26927518e-09  4.57771182e-01  3.23965532e-09  1.58956129e-07  4.84041109e-08  5.30000000e-01 
 5.40000000e-01  4.57771198e-01  3.26611006e-09  3.32316397e-09  3.28408215e-09  3.26927518e-09  4.57771198e-01  3.23965532e-09  1.58956147e-07  4.84041394e-08  5.40000000e-01 
 5.50000000e-01  4.57771176e-01  3.26611006e-09  3.32316397e-09  3.28408204e-09  3.26927518e-09  4.57771176e-01  3.23965532e-09  1.58956106e-07  4.84040967e-08  5.50000000e-01 
 5.60000000e-01  4.57771185e-01  3.26611006e-09  3.32316397e-09  3.28408204e-09  3.26927518e-09  4.57771185e-01  3.23965532e-09  1.58956146e-07  4.84039688e-08  5.60000000e-01 
 5.70000000e-01  4.57771213e-01  3.26610995e-09  3.32316397e-09  3.28408204e-09  3.26927518e-09  4.57771213e-01  3.23965532e-09  1.58956168e-07  4.84039262e-08  5.70000000e-01 
 5.80000000e-01  4.57771207e-01  3.26610995e-09  3.32316386e-09  3.28408204e-09  3.26927518e-09  4.57771207e-01  3.23965543e-09  1.58956165e-07  4.84037770e-08  5.80000000e-01 
 5.90000000e-01  4.57771181e-01  3.26611006e-09  3.32316397e-09  3.28408215e-09  3.26927518e-09  4.57771181e-01  3.23965543e-09  1.58956128e-07  4.84037699e-08  5.90000000e-01 
 6.00000000e-01  4.57771191e-01  3.26610995e-09  3.32316397e-09  3.28408215e-09  3.26927518e-09  4.57771191e-01  3.23965532e-09  1.58956156e-07  4.84037841e-08  6.00000000e-01 
 6.10000000e-01  4.57771188e-01  3.26611006e-09  3.32316397e-09  3.28408204e-09  3.26927518e-09  4.57771188e-01  3.23965532e-09  1.58956133e-07  4.84037130e-08  6.10000000e-01 
 6.20000000e-01  4.57771181e-01  3.26610995e-09  3.32316397e-09  3.28408204e-09  3.26927518e-09  4.57771181e-01  3.23965532e-09  1.58956125e-07  4.84036562e-08  6.20000000e-01 
 6.30000000e-01  4.57771196e-01  3.26610995e-09  3.32316397e-09  3.28408215e-09  3.26927518e-09  4.57771196e-01  3.23965532e-09  1.58956150e-07  4.84035496e-08  6.30000000e-01 
 6.40000000e-01  4.57771195e-01  3.26610995e-09  3.32316397e-09  3.28408215e-09  3.26927518e-09  4.57771195e-01  3.23965532e-09  1.58956155e-07  4.84034715e-08  6.40000000e-01 
 6.50000000e-01  4.57771174e-01  3.26610995e-09  3.32316397e-09  3.28408215e-09  3.26927518e-09  4.57771174e-01  3.23965532e-09  1.58956126e-07  4.84033933e-08  6.50000000e-01 
 6.60000000e-01  4.57771180e-01  3.26611006e-09  3.32316397e-09  3.28408215e-09  3.26927518e-09  4.57771180e-01  3.23965532e-09  1.58956124e-07  4.84032867e-08  6.60000000e-01 
 6.70000000e-01  4.57771191e-01  3.26611006e-09  3.32316397e-09  3.28408204e-09  3.26927518e-09  4.57771191e-01  3.23965532e-09  1.58956133e-07  4.84032370e-08  6.70000000e-01 
 6.80000000e-01  4.57771183e-01  3.26610995e-09  3.32316397e-09  3.28408216e-09  3.26927518e-09  4.57771183e-01  3.23965532e-09  1.58956127e-07  4.84032086e-08  6.80000000e-01 
 6.90000000e-01  4.57771184e-01  3.26610995e-09  3.32316397e-09  3.28408215e-09  3.26927518e-09  4.57771184e-01  3.23965532e-09  1.58956130e-07  4.84031304e-08  6.90000000e-01 
 7.00000000e-01  4.57771183e-01  3.26610995e-09  3.32316386e-09  3.28408215e-09  3.26927518e-09  4.57771183e-01  3.23965532e-09  1.58956130e-07  4.84030807e-08  7.00000000e-01 
 7.10000000e-01  4.57771186e-01  3.26610995e-09  3.32316397e-09  3.28408204e-09  3.26927518e-09  4.57771186e-01  3.23965532e-09  1.58956145e-07  4.84030238e-08  7.10000000e-01 
 7.20000000e-01  4.57771177e-01  3.26610995e-09  3.32316397e-09  3.28408204e-09  3.26927518e-09  4.57771177e-01  3.23965532e-09  1.58956125e-07  4.84030593e-08  7.20000000e-01 
 7.30000000e-01  4.57771196e-01  3.26610995e-09  3.32316386e-09  3.28408204e-09  3.26927518e-09  4.57771196e-01  3.23965532e-09  1.58956151e-07  4.84028959e-08  7.30000000e-01 
 7.40000000e-01  4.57771199e-01  3.26610995e-09  3.32316397e-09  3.28408215e-09  3.26927518e-09  4.57771199e-01  3.23965532e-09  1.58956149e-07  4.84028675e-08  7.40000000e-01 
 7.50000000e-01  4.57771180e-01  3.26611006e-09  3.32316397e-09  3.28408203e-09  3.26927518e-09  4.57771181e-01  3.23965543e-09  1.58956125e-07  4.84028604e-08  7.50000000e-01 
 7.60000000e-01  4.57771175e-01  3.26610995e-09  3.32316397e-09  3.28408204e-09  3.26927518e-09  4.57771175e-01  3.23965531e-09  1.58956115e-07  4.84027680e-08  7.60000000e-01 
 7.70000000e-01  4.57771214e-01  3.26611006e-09  3.32316397e-09  3.28408204e-09  3.26927518e-09  4.57771214e-01  3.23965532e-09  1.58956186e-07  4.84027964e-08  7.70000000e-01 
 7.80000000e-01  4.57771206e-01  3.26611006e-09  3.32316386e-09  3.28408215e-09  3.26927518e-09  4.57771206e-01  3.23965532e-09  1.58956170e-07  4.84026614e-08  7.80000000e-01 
 7.90000000e-01  4.57771178e-01  3.26611006e-09  3.32316397e-09  3.28408215e-09  3.26927518e-09  4.57771178e-01  3.23965532e-09  1.58956126e-07  4.84026330e-08  7.90000000e-01 
 8.00000000e-01  4.57771193e-01  3.26610995e-09  3.32316397e-09  3.28408215e-09  3.26927518e-09  4.57771193e-01  3.23965532e-09  1.58956145e-07  4.84026046e-08  8.00000000e-01 
 8.10000000e-01  4.57771175e-01  3.26611006e-09  3.32316397e-09  3.28408204e-09  3.26927518e-09  4.57771175e-01  3.23965532e-09  1.58956118e-07  4.84025193e-08  8.10000000e-01 
 8.20000000e-01  4.57771191e-01  3.26611006e-09  3.32316397e-09  3.28408216e-09  3.26927518e-09  4.57771191e-01  3.23965532e-09  1.58956140e-07  4.84023559e-08  8.20000000e-01 
 8.30000000e-01  4.57771171e-01  3.26611006e-09  3.32316397e-09  3.28408215e-09  3.26927518e-09  4.57771171e-01  3.23965532e-09  1.58956122e-07  4.84024198e-08  8.30000000e-01 
 8.40000000e-01  4.57771186e-01  3.26610995e-09  3.32316397e-09  3.28408204e-09  3.26927518e-09  4.57771186e-01  3.23965532e-09  1.58956139e-07  4.84023417e-08  8.40000000e-01 
 8.50000000e-01  4.57771189e-01  3.26611006e-09  3.32316397e-09  3.28408216e-09  3.26927518e-09  4.57771189e-01  3.23965543e-09  1.58956159e-07  4.84022848e-08  8.50000000e-01 
 8.60000000e-01  4.57771187e-01  3.26611006e-09  3.32316397e-09  3.28408203e-09  3.26927518e-09  4.57771187e-01  3.23965531e-09  1.58956136e-07  4.84021996e-08  8.60000000e-01 
 8.70000000e-01  4.57771186e-01  3.26611006e-09  3.32316386e-09  3.28408216e-09  3.26927518e-09  4.57771186e-01  3.23965532e-09  1.58956134e-07  4.84021925e-08  8.70000000e-01 
 8.80000000e-01  4.57771172e-01  3.26611006e-09  3.32316397e-09  3.28408215e-09  3.26927518e-09  4.57771172e-01  3.23965532e-09  1.58956113e-07  4.84019580e-08  8.80000000e-01 
 8.90000000e-01  4.57771188e-01  3.26611006e-09  3.32316397e-09  3.28408215e-09  3.26927518e-09  4.57771188e-01  3.23965532e-09  1.58956139e-07  4.84021427e-08  8.90000000e-01 
 9.00000000e-01  4.57771182e-01  3.26611006e-09  3.32316397e-09  3.28408204e-09  3.26927518e-09  4.57771182e-01  3.23965532e-09  1.58956125e-07  4.84018585e-08  9.00000000e-01 
 9.10000000e-01  4.57771175e-01  3.26610995e-09  3.32316397e-09  3.28408216e-09  3.26927518e-09  4.57771175e-01  3.23965532e-09  1.58956118e-07  4.84018514e-08  9.10000000e-01 
 9.20000000e-01  4.57771157e-01  3.26610995e-09  3.32316397e-09  3.28408203e-09  3.26927518e-09  4.57771157e-01  3.23965532e-09  1.58956098e-07  4.84018230e-08  9.20000000e-01 
 9.30000000e-01  4.57771198e-01  3.26610995e-09  3.32316386e-09  3.28408205e-09  3.26927518e-09  4.57771198e-01  3.23965532e-09  1.58956153e-07  4.84018372e-08  9.30000000e-01 
 9.40000000e-01  4.57771195e-01  3.26610995e-09  3.32316397e-09  3.28408204e-09  3.26927518e-09  4.57771195e-01  3.23965532e-09  1.58956154e-07  4.84016525e-08  9.40000000e-01 
 9.50000000e-01  4.57771199e-01  3.26610995e-09  3.32316397e-09  3.28408215e-09  3.26927518e-09  4.57771199e-01  3.23965532e-09  1.58956158e-07  4.84016525e-08  9.50000000e-01 
 9.60000000e-01  4.57771197e-01  3.26611006e-09  3.32316386e-09  3.28408204e-09  3.26927518e-09  4.57771197e-01  3.23965532e-09  1.58956151e-07  4.84016454e-08  9.60000000e-01 
 9.70000000e-01  4.57771169e-01  3.26610995e-09  3.32316397e-09  3.28408216e-09  3.26927518e-09  4.57771169e-01  3.23965532e-09  1.58956110e-07  4.84015601e-08  9.70000000e-01 
 9.80000000e-01  4.57771186e-01  3.26610995e-09  3.32316397e-09  3.28408215e-09  3.26927518e-09  4.57771186e-01  3.23965532e-09  1.58956131e-07  4.84014890e-08  9.80000000e-01 
 9.90000000e-01  4.57771170e-01  3.26610995e-09  3.32316397e-09  3.28408215e-09  3.26927518e-09  4.57771170e-01  3.23965532e-09  1.58956116e-07  4.84013754e-08  9.90000000e-01 
 1.00000000e+00  4.57771173e-01  3.26611006e-09  3.32316397e-09  3.28408215e-09  3.26927518e-09  4.57771173e-01  3.23965532e-09  1.58956117e-07  4.84012759e-08  1.00000000e+00 
 1.01000000e+00  4.57771174e-01  3.26611006e-09  3.32316397e-09  3.28408215e-09  3.26927518e-09  4.57771175e-01  3.23965532e-09  1.58956124e-07  4.84012119e-08  1.01000000e+00 
 1.02000000e+00  4.57771186e-01  3.26610995e-09  3.32316397e-09  3.28408204e-09  3.26927518e-09  4.57771186e-01  3.23965532e-09  1.58956132e-07  4.84013185e-08  1.02000000e+00 
 1.03000000e+00  4.57771210e-01  3.26610995e-09  3.32316397e-09  3.28408216e-09  3.26927518e-09  4.57771210e-01  3.23965532e-09  1.58956167e-07  4.84011267e-08  1.03000000e+00 
 1.04000000e+00  4.57771191e-01  3.26610995e-09  3.32316386e-09  3.28408215e-09  3.26927518e-09  4.57771191e-01  3.23965532e-09  1.58956141e-07  4.84010130e-08  1.04000000e+00 
 1.05000000e+00  4.57771184e-01  3.26611006e-09  3.32316397e-09  3.28408215e-09  3.26927518e-09  4.57771184e-01  3.23965532e-09  1.58956132e-07  4.84010059e-08  1.05000000e+00 
 1.06000000e+00  4.57771182e-01  3.26610995e-09  3.32316397e-09  3.28408204e-09  3.26927518e-09  4.57771182e-01  3.23965532e-09  1.58956127e-07  4.84009064e-08  1.06000000e+00 
 1.07000000e+00  4.57771169e-01  3.26610995e-09  3.32316386e-09  3.28408216e-09  3.26927518e-09  4.57771169e-01  3.23965543e-09  1.58956115e-07  4.84008069e-08  1.07000000e+00 
 1.08000000e+00  4.57771195e-01  3.26611006e-09  3.32316397e-09  3.28408215e-09  3.26927518e-09  4.57771195e-01  3.23965531e-09  1.58956164e-07  4.84007785e-08  1.08000000e+00 
 1.09000000e+00  4.57771196e-01  3.26610995e-09  3.32316386e-09  3.28408215e-09  3.26927518e-09  4.57771196e-01  3.23965532e-09  1.58956138e-07  4.84007145e-08  1.09000000e+00 
 1.10000000e+00  4.57771173e-01  3.26611006e-09  3.32316397e-09  3.28408215e-09  3.26927518e-09  4.57771173e-01  3.23965532e-09  1.58956119e-07  4.84007572e-08  1.10000000e+00 
