 v-sweep         v(b0)           v(b1)           v(b2)           v(b3)           v(b4)           v(b5)           v(b6)           i(vbias)        i(viout)        v(vout)        
 0.00000000e+00  3.24038860e-09  3.32218974e-09  3.26332990e-09  3.22035902e-09  4.58736300e-01  4.58736300e-01  3.26570373e-09  1.58338485e-07  6.73782661e-08  0.00000000e+00 
 1.00000000e-02  3.24038859e-09  3.32218973e-09  3.26332989e-09  3.22035900e-09  4.58736307e-01  4.58736307e-01  3.26570371e-09  1.58338486e-07  6.73778136e-08  1.00000000e-02 
 2.00000000e-02  3.24038859e-09  3.32218973e-09  3.26332989e-09  3.22035911e-09  4.58736303e-01  4.58736303e-01  3.26570383e-09  1.58338486e-07  6.73774392e-08  2.00000000e-02 
 3.00000000e-02  3.24038859e-09  3.32218962e-09  3.26332989e-09  3.22035900e-09  4.58736298e-01  4.58736298e-01  3.26570371e-09  1.58338481e-07  6.73771106e-08  3.00000000e-02 
 4.00000000e-02  3.24038859e-09  3.32218961e-09  3.26332989e-09  3.22035901e-09  4.58736286e-01  4.58736286e-01  3.26570372e-09  1.58338455e-07  6.73766358e-08  4.00000000e-02 
 5.00000000e-02  3.24038859e-09  3.32218962e-09  3.26332989e-09  3.22035900e-09  4.58736298e-01  4.58736298e-01  3.26570371e-09  1.58338493e-07  6.73764231e-08  5.00000000e-02 
 6.00000000e-02  3.24038859e-09  3.32218973e-09  3.26332989e-09  3.22035900e-09  4.58736318e-01  4.58736318e-01  3.26570383e-09  1.58338517e-07  6.73762224e-08  6.00000000e-02 
 7.00000000e-02  3.24038859e-09  3.32218973e-09  3.26332989e-09  3.22035900e-09  4.58736291e-01  4.58736291e-01  3.26570382e-09  1.58338460e-07  6.73756460e-08  7.00000000e-02 
 8.00000000e-02  3.24038859e-09  3.32218973e-09  3.26332989e-09  3.22035911e-09  4.58736300e-01  4.58736299e-01  3.26570382e-09  1.58338479e-07  6.73755114e-08  8.00000000e-02 
 9.00000000e-02  3.24038859e-09  3.32218961e-09  3.26332989e-09  3.22035900e-09  4.58736293e-01  4.58736293e-01  3.26570382e-09  1.58338462e-07  6.73752396e-08  9.00000000e-02 
 1.00000000e-01  3.24038848e-09  3.32218973e-09  3.26332989e-09  3.22035901e-09  4.58736301e-01  4.58736301e-01  3.26570382e-09  1.58338507e-07  6.73750353e-08  1.00000000e-01 
 1.10000000e-01  3.24038859e-09  3.32218973e-09  3.26332989e-09  3.22035900e-09  4.58736312e-01  4.58736312e-01  3.26570382e-09  1.58338503e-07  6.73748204e-08  1.10000000e-01 
 1.20000000e-01  3.24038859e-09  3.32218961e-09  3.26332989e-09  3.22035911e-09  4.58736291e-01  4.58736291e-01  3.26570382e-09  1.58338461e-07  6.73743665e-08  1.20000000e-01 
 1.30000000e-01  3.24038848e-09  3.32218973e-09  3.26332989e-09  3.22035911e-09  4.58736325e-01  4.58736325e-01  3.26570382e-09  1.58338518e-07  6.73743097e-08  1.30000000e-01 
 1.40000000e-01  3.24038859e-09  3.32218961e-09  3.26332989e-09  3.22035911e-09  4.58736294e-01  4.58736294e-01  3.26570371e-09  1.58338467e-07  6.73741001e-08  1.40000000e-01 
 1.50000000e-01  3.24038848e-09  3.32218973e-09  3.26332989e-09  3.22035911e-09  4.58736296e-01  4.58736296e-01  3.26570383e-09  1.58338473e-07  6.73736480e-08  1.50000000e-01 
 1.60000000e-01  3.24038859e-09  3.32218962e-09  3.26332989e-09  3.22035900e-09  4.58736307e-01  4.58736307e-01  3.26570382e-09  1.58338478e-07  6.73736196e-08  1.60000000e-01 
 1.70000000e-01  3.24038848e-09  3.32218973e-09  3.26332989e-09  3.22035912e-09  4.58736317e-01  4.58736317e-01  3.26570382e-09  1.58338492e-07  6.73734686e-08  1.70000000e-01 
 1.80000000e-01  3.24038848e-09  3.32218973e-09  3.26332989e-09  3.22035900e-09  4.58736311e-01  4.58736311e-01  3.26570382e-09  1.58338496e-07  6.73732554e-08  1.80000000e-01 
 1.90000000e-01  3.24038848e-09  3.32218962e-09  3.26333000e-09  3.22035912e-09  4.58736311e-01  4.58736311e-01  3.26570382e-09  1.58338493e-07  6.73731932e-08  1.90000000e-01 
 2.00000000e-01  3.24038859e-09  3.32218973e-09  3.26332989e-09  3.22035911e-09  4.58736305e-01  4.58736305e-01  3.26570382e-09  1.58338494e-07  6.73728398e-08  2.00000000e-01 
 2.10000000e-01  3.24038848e-09  3.32218973e-09  3.26332989e-09  3.22035900e-09  4.58736302e-01  4.58736302e-01  3.26570371e-09  1.58338497e-07  6.73726941e-08  2.10000000e-01 
 2.20000000e-01  3.24038848e-09  3.32218973e-09  3.26332989e-09  3.22035901e-09  4.58736327e-01  4.58736327e-01  3.26570383e-09  1.58338519e-07  6.73725555e-08  2.20000000e-01 
 2.30000000e-01  3.24038848e-09  3.32218973e-09  3.26332989e-09  3.22035900e-09  4.58736308e-01  4.58736307e-01  3.26570382e-09  1.58338494e-07  6.73725626e-08  2.30000000e-01 
 2.40000000e-01  3.24038859e-09  3.32218973e-09  3.26332989e-09  3.22035911e-09  4.58736290e-01  4.58736290e-01  3.26570382e-09  1.58338443e-07  6.73722624e-08  2.40000000e-01 
 2.50000000e-01  3.24038859e-09  3.32218973e-09  3.26332989e-09  3.22035911e-09  4.58736312e-01  4.58736312e-01  3.26570382e-09  1.58338495e-07  6.73722589e-08  2.50000000e-01 
 2.60000000e-01  3.24038848e-09  3.32218973e-09  3.26332989e-09  3.22035900e-09  4.58736313e-01  4.58736313e-01  3.26570382e-09  1.58338504e-07  6.73719853e-08  2.60000000e-01 
 2.70000000e-01  3.24038859e-09  3.32218962e-09  3.26332989e-09  3.22035912e-09  4.58736320e-01  4.58736320e-01  3.26570371e-09  1.58338510e-07  6.73719462e-08  2.70000000e-01 
 2.80000000e-01  3.24038859e-09  3.32218973e-09  3.26332989e-09  3.22035900e-09  4.58736335e-01  4.58736335e-01  3.26570372e-09  1.58338531e-07  6.73719338e-08  2.80000000e-01 
 2.90000000e-01  3.24038848e-09  3.32218962e-09  3.26332989e-09  3.22035901e-09  4.58736303e-01  4.58736303e-01  3.26570383e-09  1.58338483e-07  6.73716798e-08  2.90000000e-01 
 3.00000000e-01  3.24038859e-09  3.32218962e-09  3.26332989e-09  3.22035900e-09  4.58736304e-01  4.58736304e-01  3.26570382e-09  1.58338479e-07  6.73714737e-08  3.00000000e-01 
 3.10000000e-01  3.24038859e-09  3.32218961e-09  3.26332989e-09  3.22035911e-09  4.58736297e-01  4.58736297e-01  3.26570382e-09  1.58338469e-07  6.73714986e-08  3.10000000e-01 
 3.20000000e-01  3.24038859e-09  3.32218973e-09  3.26332989e-09  3.22035911e-09  4.58736308e-01  4.58736308e-01  3.26570382e-09  1.58338478e-07  6.73714062e-08  3.20000000e-01 
 3.30000000e-01  3.24038859e-09  3.32218973e-09  3.26333000e-09  3.22035911e-09  4.58736300e-01  4.58736300e-01  3.26570382e-09  1.58338479e-07  6.73712464e-08  3.30000000e-01 
 3.40000000e-01  3.24038859e-09  3.32218973e-09  3.26332989e-09  3.22035911e-09  4.58736295e-01  4.58736295e-01  3.26570382e-09  1.58338462e-07  6.73712606e-08  3.40000000e-01 
 3.50000000e-01  3.24038859e-09  3.32218962e-09  3.26333000e-09  3.22035900e-09  4.58736303e-01  4.58736303e-01  3.26570382e-09  1.58338490e-07  6.73710083e-08  3.50000000e-01 
 3.60000000e-01  3.24038859e-09  3.32218962e-09  3.26332989e-09  3.22035901e-09  4.58736309e-01  4.58736308e-01  3.26570382e-09  1.58338490e-07  6.73709692e-08  3.60000000e-01 
 3.70000000e-01  3.24038859e-09  3.32218973e-09  3.26332989e-09  3.22035912e-09  4.58736314e-01  4.58736314e-01  3.26570382e-09  1.58338498e-07  6.73709302e-08  3.70000000e-01 
 3.80000000e-01  3.24038859e-09  3.32218962e-09  3.26333000e-09  3.22035911e-09  4.58736323e-01  4.58736323e-01  3.26570382e-09  1.58338518e-07  6.73708094e-08  3.80000000e-01 
 3.90000000e-01  3.24038859e-09  3.32218973e-09  3.26332989e-09  3.22035900e-09  4.58736302e-01  4.58736301e-01  3.26570382e-09  1.58338484e-07  6.73706424e-08  3.90000000e-01 
 4.00000000e-01  3.24038859e-09  3.32218973e-09  3.26332989e-09  3.22035901e-09  4.58736298e-01  4.58736298e-01  3.26570371e-09  1.58338459e-07  6.73706033e-08  4.00000000e-01 
 4.10000000e-01  3.24038859e-09  3.32218973e-09  3.26332989e-09  3.22035912e-09  4.58736310e-01  4.58736310e-01  3.26570372e-09  1.58338495e-07  6.73705927e-08  4.10000000e-01 
 4.20000000e-01  3.24038859e-09  3.32218961e-09  3.26332989e-09  3.22035911e-09  4.58736291e-01  4.58736291e-01  3.26570371e-09  1.58338466e-07  6.73704683e-08  4.20000000e-01 
 4.30000000e-01  3.24038859e-09  3.32218973e-09  3.26332989e-09  3.22035911e-09  4.58736297e-01  4.58736297e-01  3.26570383e-09  1.58338470e-07  6.73703013e-08  4.30000000e-01 
 4.40000000e-01  3.24038859e-09  3.32218962e-09  3.26332989e-09  3.22035911e-09  4.58736311e-01  4.58736311e-01  3.26570371e-09  1.58338485e-07  6.73703759e-08  4.40000000e-01 
 4.50000000e-01  3.24038859e-09  3.32218962e-09  3.26332989e-09  3.22035911e-09  4.58736311e-01  4.58736311e-01  3.26570372e-09  1.58338498e-07  6.73703013e-08  4.50000000e-01 
 4.60000000e-01  3.24038848e-09  3.32218973e-09  3.26332989e-09  3.22035900e-09  4.58736312e-01  4.58736311e-01  3.26570383e-09  1.58338479e-07  6.73702090e-08  4.60000000e-01 
 4.70000000e-01  3.24038848e-09  3.32218961e-09  3.26332989e-09  3.22035912e-09  4.58736295e-01  4.58736295e-01  3.26570382e-09  1.58338464e-07  6.73700633e-08  4.70000000e-01 
 4.80000000e-01  3.24038848e-09  3.32218973e-09  3.26332989e-09  3.22035900e-09  4.58736297e-01  4.58736297e-01  3.26570382e-09  1.58338466e-07  6.73699780e-08  4.80000000e-01 
 4.90000000e-01  3.24038848e-09  3.32218973e-09  3.26332989e-09  3.22035912e-09  4.58736297e-01  4.58736297e-01  3.26570382e-09  1.58338477e-07  6.73699603e-08  4.90000000e-01 
 5.00000000e-01  3.24038859e-09  3.32218973e-09  3.26332989e-09  3.22035900e-09  4.58736307e-01  4.58736307e-01  3.26570382e-09  1.58338490e-07  6.73700313e-08  5.00000000e-01 
 5.10000000e-01  3.24038848e-09  3.32218973e-09  3.26332989e-09  3.22035901e-09  4.58736282e-01  4.58736282e-01  3.26570382e-09  1.58338448e-07  6.73698644e-08  5.10000000e-01 
 5.20000000e-01  3.24038859e-09  3.32218973e-09  3.26332989e-09  3.22035900e-09  4.58736317e-01  4.58736317e-01  3.26570371e-09  1.58338497e-07  6.73696654e-08  5.20000000e-01 
 5.30000000e-01  3.24038859e-09  3.32218973e-09  3.26332989e-09  3.22035900e-09  4.58736312e-01  4.58736311e-01  3.26570372e-09  1.58338497e-07  6.73697507e-08  5.30000000e-01 
 5.40000000e-01  3.24038859e-09  3.32218973e-09  3.26333000e-09  3.22035900e-09  4.58736315e-01  4.58736315e-01  3.26570383e-09  1.58338500e-07  6.73695588e-08  5.40000000e-01 
 5.50000000e-01  3.24038859e-09  3.32218962e-09  3.26332989e-09  3.22035900e-09  4.58736314e-01  4.58736314e-01  3.26570382e-09  1.58338498e-07  6.73695943e-08  5.50000000e-01 
 5.60000000e-01  3.24038859e-09  3.32218973e-09  3.26332989e-09  3.22035911e-09  4.58736306e-01  4.58736306e-01  3.26570371e-09  1.58338489e-07  6.73694878e-08  5.60000000e-01 
 5.70000000e-01  3.24038848e-09  3.32218973e-09  3.26332989e-09  3.22035911e-09  4.58736303e-01  4.58736303e-01  3.26570383e-09  1.58338484e-07  6.73694025e-08  5.70000000e-01 
 5.80000000e-01  3.24038859e-09  3.32218973e-09  3.26332989e-09  3.22035900e-09  4.58736291e-01  4.58736291e-01  3.26570382e-09  1.58338453e-07  6.73693492e-08  5.80000000e-01 
 5.90000000e-01  3.24038848e-09  3.32218961e-09  3.26332989e-09  3.22035912e-09  4.58736297e-01  4.58736297e-01  3.26570382e-09  1.58338474e-07  6.73692853e-08  5.90000000e-01 
 6.00000000e-01  3.24038859e-09  3.32218973e-09  3.26332989e-09  3.22035911e-09  4.58736313e-01  4.58736312e-01  3.26570382e-09  1.58338490e-07  6.73693279e-08  6.00000000e-01 
 6.10000000e-01  3.24038859e-09  3.32218973e-09  3.26332989e-09  3.22035900e-09  4.58736314e-01  4.58736313e-01  3.26570382e-09  1.58338486e-07  6.73693208e-08  6.10000000e-01 
 6.20000000e-01  3.24038848e-09  3.32218962e-09  3.26332989e-09  3.22035901e-09  4.58736308e-01  4.58736308e-01  3.26570382e-09  1.58338484e-07  6.73690437e-08  6.20000000e-01 
 6.30000000e-01  3.24038859e-09  3.32218973e-09  3.26332989e-09  3.22035911e-09  4.58736295e-01  4.58736295e-01  3.26570382e-09  1.58338457e-07  6.73690437e-08  6.30000000e-01 
 6.40000000e-01  3.24038859e-09  3.32218973e-09  3.26332989e-09  3.22035900e-09  4.58736298e-01  4.58736298e-01  3.26570371e-09  1.58338484e-07  6.73690650e-08  6.40000000e-01 
 6.50000000e-01  3.24038848e-09  3.32218962e-09  3.26332989e-09  3.22035912e-09  4.58736317e-01  4.58736317e-01  3.26570383e-09  1.58338504e-07  6.73689229e-08  6.50000000e-01 
 6.60000000e-01  3.24038859e-09  3.32218973e-09  3.26332989e-09  3.22035900e-09  4.58736299e-01  4.58736299e-01  3.26570382e-09  1.58338481e-07  6.73687879e-08  6.60000000e-01 
 6.70000000e-01  3.24038848e-09  3.32218973e-09  3.26332989e-09  3.22035901e-09  4.58736317e-01  4.58736317e-01  3.26570371e-09  1.58338508e-07  6.73687737e-08  6.70000000e-01 
 6.80000000e-01  3.24038859e-09  3.32218973e-09  3.26332989e-09  3.22035900e-09  4.58736304e-01  4.58736304e-01  3.26570372e-09  1.58338478e-07  6.73687452e-08  6.80000000e-01 
 6.90000000e-01  3.24038859e-09  3.32218973e-09  3.26332989e-09  3.22035912e-09  4.58736311e-01  4.58736311e-01  3.26570383e-09  1.58338502e-07  6.73687666e-08  6.90000000e-01 
 7.00000000e-01  3.24038848e-09  3.32218962e-09  3.26332989e-09  3.22035900e-09  4.58736314e-01  4.58736314e-01  3.26570382e-09  1.58338511e-07  6.73685960e-08  7.00000000e-01 
 7.10000000e-01  3.24038848e-09  3.32218973e-09  3.26332989e-09  3.22035901e-09  4.58736306e-01  4.58736306e-01  3.26570382e-09  1.58338488e-07  6.73684895e-08  7.10000000e-01 
 7.20000000e-01  3.24038848e-09  3.32218973e-09  3.26333000e-09  3.22035900e-09  4.58736311e-01  4.58736311e-01  3.26570371e-09  1.58338499e-07  6.73684681e-08  7.20000000e-01 
 7.30000000e-01  3.24038848e-09  3.32218973e-09  3.26332989e-09  3.22035911e-09  4.58736298e-01  4.58736298e-01  3.26570383e-09  1.58338481e-07  6.73683971e-08  7.30000000e-01 
 7.40000000e-01  3.24038859e-09  3.32218973e-09  3.26332989e-09  3.22035911e-09  4.58736300e-01  4.58736299e-01  3.26570382e-09  1.58338474e-07  6.73683545e-08  7.40000000e-01 
 7.50000000e-01  3.24038859e-09  3.32218973e-09  3.26332989e-09  3.22035900e-09  4.58736309e-01  4.58736309e-01  3.26570382e-09  1.58338483e-07  6.73683047e-08  7.50000000e-01 
 7.60000000e-01  3.24038848e-09  3.32218962e-09  3.26332989e-09  3.22035912e-09  4.58736303e-01  4.58736303e-01  3.26570371e-09  1.58338485e-07  6.73682550e-08  7.60000000e-01 
 7.70000000e-01  3.24038848e-09  3.32218973e-09  3.26332989e-09  3.22035911e-09  4.58736316e-01  4.58736316e-01  3.26570383e-09  1.58338507e-07  6.73681271e-08  7.70000000e-01 
 7.80000000e-01  3.24038859e-09  3.32218973e-09  3.26332989e-09  3.22035900e-09  4.58736317e-01  4.58736317e-01  3.26570382e-09  1.58338504e-07  6.73681200e-08  7.80000000e-01 
 7.90000000e-01  3.24038859e-09  3.32218973e-09  3.26332989e-09  3.22035912e-09  4.58736309e-01  4.58736308e-01  3.26570371e-09  1.58338490e-07  6.73680205e-08  7.90000000e-01 
 8.00000000e-01  3.24038859e-09  3.32218973e-09  3.26332989e-09  3.22035900e-09  4.58736316e-01  4.58736316e-01  3.26570372e-09  1.58338488e-07  6.73679494e-08  8.00000000e-01 
 8.10000000e-01  3.24038859e-09  3.32218962e-09  3.26332989e-09  3.22035901e-09  4.58736321e-01  4.58736321e-01  3.26570383e-09  1.58338498e-07  6.73679708e-08  8.10000000e-01 
 8.20000000e-01  3.24038859e-09  3.32218962e-09  3.26332989e-09  3.22035912e-09  4.58736328e-01  4.58736328e-01  3.26570382e-09  1.58338522e-07  6.73678642e-08  8.20000000e-01 
 8.30000000e-01  3.24038859e-09  3.32218973e-09  3.26332989e-09  3.22035900e-09  4.58736318e-01  4.58736318e-01  3.26570382e-09  1.58338512e-07  6.73677789e-08  8.30000000e-01 
 8.40000000e-01  3.24038848e-09  3.32218973e-09  3.26332989e-09  3.22035912e-09  4.58736318e-01  4.58736318e-01  3.26570382e-09  1.58338494e-07  6.73677292e-08  8.40000000e-01 
 8.50000000e-01  3.24038848e-09  3.32218962e-09  3.26332989e-09  3.22035900e-09  4.58736300e-01  4.58736299e-01  3.26570382e-09  1.58338486e-07  6.73676794e-08  8.50000000e-01 
 8.60000000e-01  3.24038848e-09  3.32218962e-09  3.26332989e-09  3.22035901e-09  4.58736308e-01  4.58736308e-01  3.26570371e-09  1.58338491e-07  6.73676155e-08  8.60000000e-01 
 8.70000000e-01  3.24038859e-09  3.32218962e-09  3.26332989e-09  3.22035912e-09  4.58736318e-01  4.58736318e-01  3.26570372e-09  1.58338503e-07  6.73675586e-08  8.70000000e-01 
 8.80000000e-01  3.24038859e-09  3.32218962e-09  3.26332989e-09  3.22035900e-09  4.58736303e-01  4.58736303e-01  3.26570383e-09  1.58338489e-07  6.73674450e-08  8.80000000e-01 
 8.90000000e-01  3.24038859e-09  3.32218962e-09  3.26332989e-09  3.22035912e-09  4.58736310e-01  4.58736310e-01  3.26570371e-09  1.58338500e-07  6.73675302e-08  8.90000000e-01 
 9.00000000e-01  3.24038859e-09  3.32218973e-09  3.26332989e-09  3.22035911e-09  4.58736297e-01  4.58736297e-01  3.26570383e-09  1.58338467e-07  6.73672602e-08  9.00000000e-01 
 9.10000000e-01  3.24038848e-09  3.32218973e-09  3.26332989e-09  3.22035911e-09  4.58736311e-01  4.58736311e-01  3.26570382e-09  1.58338498e-07  6.73672034e-08  9.10000000e-01 
 9.20000000e-01  3.24038859e-09  3.32218973e-09  3.26332989e-09  3.22035900e-09  4.58736333e-01  4.58736333e-01  3.26570382e-09  1.58338527e-07  6.73671465e-08  9.20000000e-01 
 9.30000000e-01  3.24038848e-09  3.32218973e-09  3.26332989e-09  3.22035912e-09  4.58736326e-01  4.58736326e-01  3.26570382e-09  1.58338509e-07  6.73670897e-08  9.30000000e-01 
 9.40000000e-01  3.24038859e-09  3.32218962e-09  3.26332989e-09  3.22035900e-09  4.58736314e-01  4.58736314e-01  3.26570371e-09  1.58338499e-07  6.73670471e-08  9.40000000e-01 
 9.50000000e-01  3.24038848e-09  3.32218973e-09  3.26332989e-09  3.22035912e-09  4.58736296e-01  4.58736295e-01  3.26570383e-09  1.58338466e-07  6.73669902e-08  9.50000000e-01 
 9.60000000e-01  3.24038859e-09  3.32218973e-09  3.26333000e-09  3.22035900e-09  4.58736300e-01  4.58736300e-01  3.26570371e-09  1.58338493e-07  6.73669334e-08  9.60000000e-01 
 9.70000000e-01  3.24038859e-09  3.32218961e-09  3.26332989e-09  3.22035901e-09  4.58736291e-01  4.58736291e-01  3.26570372e-09  1.58338452e-07  6.73667344e-08  9.70000000e-01 
 9.80000000e-01  3.24038859e-09  3.32218962e-09  3.26332989e-09  3.22035900e-09  4.58736328e-01  4.58736328e-01  3.26570371e-09  1.58338530e-07  6.73667557e-08  9.80000000e-01 
 9.90000000e-01  3.24038848e-09  3.32218962e-09  3.26333000e-09  3.22035912e-09  4.58736319e-01  4.58736319e-01  3.26570383e-09  1.58338509e-07  6.73667770e-08  9.90000000e-01 
 1.00000000e+00  3.24038848e-09  3.32218962e-09  3.26332989e-09  3.22035911e-09  4.58736301e-01  4.58736301e-01  3.26570371e-09  1.58338487e-07  6.73666065e-08  1.00000000e+00 
 1.01000000e+00  3.24038848e-09  3.32218962e-09  3.26332989e-09  3.22035900e-09  4.58736308e-01  4.58736308e-01  3.26570372e-09  1.58338491e-07  6.73664431e-08  1.01000000e+00 
 1.02000000e+00  3.24038859e-09  3.32218962e-09  3.26332989e-09  3.22035901e-09  4.58736303e-01  4.58736303e-01  3.26570371e-09  1.58338477e-07  6.73665426e-08  1.02000000e+00 
 1.03000000e+00  3.24038859e-09  3.32218973e-09  3.26332989e-09  3.22035911e-09  4.58736303e-01  4.58736303e-01  3.26570371e-09  1.58338480e-07  6.73664005e-08  1.03000000e+00 
 1.04000000e+00  3.24038859e-09  3.32218962e-09  3.26333000e-09  3.22035900e-09  4.58736316e-01  4.58736316e-01  3.26570371e-09  1.58338504e-07  6.73663436e-08  1.04000000e+00 
 1.05000000e+00  3.24038848e-09  3.32218973e-09  3.26332989e-09  3.22035912e-09  4.58736323e-01  4.58736323e-01  3.26570371e-09  1.58338514e-07  6.73662868e-08  1.05000000e+00 
 1.06000000e+00  3.24038859e-09  3.32218973e-09  3.26333000e-09  3.22035900e-09  4.58736298e-01  4.58736298e-01  3.26570383e-09  1.58338484e-07  6.73661944e-08  1.06000000e+00 
 1.07000000e+00  3.24038859e-09  3.32218962e-09  3.26332989e-09  3.22035901e-09  4.58736312e-01  4.58736311e-01  3.26570371e-09  1.58338493e-07  6.73660239e-08  1.07000000e+00 
 1.08000000e+00  3.24038859e-09  3.32218962e-09  3.26332989e-09  3.22035900e-09  4.58736306e-01  4.58736306e-01  3.26570383e-09  1.58338481e-07  6.73659954e-08  1.08000000e+00 
 1.09000000e+00  3.24038859e-09  3.32218973e-09  3.26332989e-09  3.22035900e-09  4.58736303e-01  4.58736303e-01  3.26570382e-09  1.58338470e-07  6.73660452e-08  1.09000000e+00 
 1.10000000e+00  3.24038848e-09  3.32218962e-09  3.26332989e-09  3.22035912e-09  4.58736311e-01  4.58736311e-01  3.26570382e-09  1.58338483e-07  6.73659741e-08  1.10000000e+00 
