 v-sweep         v(b0)           v(b1)           v(b2)           v(b3)           v(b4)           v(b5)           v(b6)           i(vbias)        i(viout)        v(vout)        
 0.00000000e+00  3.23403105e-09  4.59359070e-01  4.59359070e-01  4.59359070e-01  3.22366818e-09  4.59359070e-01  3.30042782e-09  1.60285425e-07  7.40805105e-08  0.00000000e+00 
 1.00000000e-02  3.23403114e-09  4.59359059e-01  4.59359059e-01  4.59359059e-01  3.22366816e-09  4.59359059e-01  3.30042780e-09  1.60285413e-07  7.40800722e-08  1.00000000e-02 
 2.00000000e-02  3.23403114e-09  4.59359071e-01  4.59359071e-01  4.59359071e-01  3.22366816e-09  4.59359071e-01  3.30042781e-09  1.60285444e-07  7.40795960e-08  2.00000000e-02 
 3.00000000e-02  3.23403114e-09  4.59359082e-01  4.59359081e-01  4.59359082e-01  3.22366816e-09  4.59359081e-01  3.30042780e-09  1.60285442e-07  7.40792625e-08  3.00000000e-02 
 4.00000000e-02  3.23403114e-09  4.59359099e-01  4.59359099e-01  4.59359099e-01  3.22366816e-09  4.59359099e-01  3.30042781e-09  1.60285461e-07  7.40789927e-08  4.00000000e-02 
 5.00000000e-02  3.23403103e-09  4.59359084e-01  4.59359084e-01  4.59359084e-01  3.22366816e-09  4.59359084e-01  3.30042780e-09  1.60285444e-07  7.40785460e-08  5.00000000e-02 
 6.00000000e-02  3.23403115e-09  4.59359083e-01  4.59359083e-01  4.59359083e-01  3.22366816e-09  4.59359083e-01  3.30042781e-09  1.60285455e-07  7.40783728e-08  6.00000000e-02 
 7.00000000e-02  3.23403103e-09  4.59359078e-01  4.59359078e-01  4.59359079e-01  3.22366816e-09  4.59359078e-01  3.30042780e-09  1.60285439e-07  7.40779393e-08  7.00000000e-02 
 8.00000000e-02  3.23403103e-09  4.59359051e-01  4.59359051e-01  4.59359051e-01  3.22366816e-09  4.59359051e-01  3.30042781e-09  1.60285402e-07  7.40776933e-08  8.00000000e-02 
 9.00000000e-02  3.23403103e-09  4.59359114e-01  4.59359114e-01  4.59359114e-01  3.22366816e-09  4.59359114e-01  3.30042780e-09  1.60285490e-07  7.40775121e-08  9.00000000e-02 
 1.00000000e-01  3.23403103e-09  4.59359072e-01  4.59359072e-01  4.59359072e-01  3.22366816e-09  4.59359072e-01  3.30042770e-09  1.60285424e-07  7.40772093e-08  1.00000000e-01 
 1.10000000e-01  3.23403103e-09  4.59359073e-01  4.59359073e-01  4.59359073e-01  3.22366816e-09  4.59359073e-01  3.30042781e-09  1.60285430e-07  7.40770334e-08  1.10000000e-01 
 1.20000000e-01  3.23403114e-09  4.59359094e-01  4.59359094e-01  4.59359094e-01  3.22366816e-09  4.59359094e-01  3.30042781e-09  1.60285461e-07  7.40766861e-08  1.20000000e-01 
 1.30000000e-01  3.23403103e-09  4.59359088e-01  4.59359088e-01  4.59359088e-01  3.22366816e-09  4.59359088e-01  3.30042781e-09  1.60285446e-07  7.40763992e-08  1.30000000e-01 
 1.40000000e-01  3.23403103e-09  4.59359068e-01  4.59359068e-01  4.59359068e-01  3.22366816e-09  4.59359068e-01  3.30042781e-09  1.60285421e-07  7.40761523e-08  1.40000000e-01 
 1.50000000e-01  3.23403114e-09  4.59359083e-01  4.59359083e-01  4.59359083e-01  3.22366816e-09  4.59359083e-01  3.30042781e-09  1.60285455e-07  7.40760413e-08  1.50000000e-01 
 1.60000000e-01  3.23403114e-09  4.59359071e-01  4.59359071e-01  4.59359071e-01  3.22366816e-09  4.59359071e-01  3.30042781e-09  1.60285426e-07  7.40757713e-08  1.60000000e-01 
 1.70000000e-01  3.23403114e-09  4.59359057e-01  4.59359057e-01  4.59359057e-01  3.22366816e-09  4.59359057e-01  3.30042781e-09  1.60285404e-07  7.40756754e-08  1.70000000e-01 
 1.80000000e-01  3.23403103e-09  4.59359079e-01  4.59359079e-01  4.59359079e-01  3.22366816e-09  4.59359079e-01  3.30042781e-09  1.60285437e-07  7.40754462e-08  1.80000000e-01 
 1.90000000e-01  3.23403104e-09  4.59359088e-01  4.59359088e-01  4.59359088e-01  3.22366816e-09  4.59359088e-01  3.30042781e-09  1.60285450e-07  7.40752437e-08  1.90000000e-01 
 2.00000000e-01  3.23403114e-09  4.59359084e-01  4.59359084e-01  4.59359084e-01  3.22366816e-09  4.59359084e-01  3.30042781e-09  1.60285452e-07  7.40750608e-08  2.00000000e-01 
 2.10000000e-01  3.23403114e-09  4.59359104e-01  4.59359104e-01  4.59359104e-01  3.22366816e-09  4.59359104e-01  3.30042781e-09  1.60285480e-07  7.40750163e-08  2.10000000e-01 
 2.20000000e-01  3.23403114e-09  4.59359094e-01  4.59359094e-01  4.59359094e-01  3.22366816e-09  4.59359094e-01  3.30042781e-09  1.60285452e-07  7.40747126e-08  2.20000000e-01 
 2.30000000e-01  3.23403103e-09  4.59359082e-01  4.59359082e-01  4.59359082e-01  3.22366816e-09  4.59359082e-01  3.30042781e-09  1.60285449e-07  7.40745421e-08  2.30000000e-01 
 2.40000000e-01  3.23403115e-09  4.59359099e-01  4.59359099e-01  4.59359099e-01  3.22366816e-09  4.59359099e-01  3.30042781e-09  1.60285469e-07  7.40745207e-08  2.40000000e-01 
 2.50000000e-01  3.23403103e-09  4.59359129e-01  4.59359129e-01  4.59359129e-01  3.22366816e-09  4.59359129e-01  3.30042781e-09  1.60285515e-07  7.40744124e-08  2.50000000e-01 
 2.60000000e-01  3.23403115e-09  4.59359103e-01  4.59359103e-01  4.59359103e-01  3.22366816e-09  4.59359103e-01  3.30042780e-09  1.60285480e-07  7.40742543e-08  2.60000000e-01 
 2.70000000e-01  3.23403114e-09  4.59359082e-01  4.59359082e-01  4.59359082e-01  3.22366816e-09  4.59359082e-01  3.30042781e-09  1.60285442e-07  7.40740127e-08  2.70000000e-01 
 2.80000000e-01  3.23403103e-09  4.59359084e-01  4.59359084e-01  4.59359084e-01  3.22366816e-09  4.59359084e-01  3.30042780e-09  1.60285442e-07  7.40738972e-08  2.80000000e-01 
 2.90000000e-01  3.23403104e-09  4.59359087e-01  4.59359087e-01  4.59359087e-01  3.22366816e-09  4.59359087e-01  3.30042781e-09  1.60285455e-07  7.40739026e-08  2.90000000e-01 
 3.00000000e-01  3.23403103e-09  4.59359077e-01  4.59359077e-01  4.59359077e-01  3.22366816e-09  4.59359077e-01  3.30042780e-09  1.60285445e-07  7.40736503e-08  3.00000000e-01 
 3.10000000e-01  3.23403114e-09  4.59359086e-01  4.59359086e-01  4.59359086e-01  3.22366816e-09  4.59359086e-01  3.30042781e-09  1.60285457e-07  7.40735508e-08  3.10000000e-01 
 3.20000000e-01  3.23403114e-09  4.59359057e-01  4.59359057e-01  4.59359057e-01  3.22366816e-09  4.59359057e-01  3.30042780e-09  1.60285410e-07  7.40734443e-08  3.20000000e-01 
 3.30000000e-01  3.23403103e-09  4.59359055e-01  4.59359055e-01  4.59359055e-01  3.22366816e-09  4.59359055e-01  3.30042781e-09  1.60285402e-07  7.40733199e-08  3.30000000e-01 
 3.40000000e-01  3.23403115e-09  4.59359076e-01  4.59359076e-01  4.59359076e-01  3.22366816e-09  4.59359076e-01  3.30042780e-09  1.60285428e-07  7.40731885e-08  3.40000000e-01 
 3.50000000e-01  3.23403114e-09  4.59359087e-01  4.59359087e-01  4.59359087e-01  3.22366816e-09  4.59359087e-01  3.30042781e-09  1.60285450e-07  7.40732382e-08  3.50000000e-01 
 3.60000000e-01  3.23403114e-09  4.59359078e-01  4.59359077e-01  4.59359078e-01  3.22366816e-09  4.59359077e-01  3.30042780e-09  1.60285435e-07  7.40730570e-08  3.60000000e-01 
 3.70000000e-01  3.23403114e-09  4.59359099e-01  4.59359099e-01  4.59359099e-01  3.22366816e-09  4.59359099e-01  3.30042781e-09  1.60285473e-07  7.40729789e-08  3.70000000e-01 
 3.80000000e-01  3.23403114e-09  4.59359080e-01  4.59359080e-01  4.59359080e-01  3.22366816e-09  4.59359080e-01  3.30042780e-09  1.60285440e-07  7.40728794e-08  3.80000000e-01 
 3.90000000e-01  3.23403103e-09  4.59359089e-01  4.59359089e-01  4.59359089e-01  3.22366816e-09  4.59359089e-01  3.30042781e-09  1.60285463e-07  7.40729256e-08  3.90000000e-01 
 4.00000000e-01  3.23403104e-09  4.59359101e-01  4.59359101e-01  4.59359101e-01  3.22366816e-09  4.59359101e-01  3.30042780e-09  1.60285476e-07  7.40728190e-08  4.00000000e-01 
 4.10000000e-01  3.23403115e-09  4.59359098e-01  4.59359098e-01  4.59359098e-01  3.22366816e-09  4.59359098e-01  3.30042781e-09  1.60285460e-07  7.40726094e-08  4.10000000e-01 
 4.20000000e-01  3.23403103e-09  4.59359079e-01  4.59359079e-01  4.59359079e-01  3.22366816e-09  4.59359079e-01  3.30042780e-09  1.60285436e-07  7.40726485e-08  4.20000000e-01 
 4.30000000e-01  3.23403103e-09  4.59359063e-01  4.59359063e-01  4.59359063e-01  3.22366816e-09  4.59359063e-01  3.30042770e-09  1.60285427e-07  7.40725241e-08  4.30000000e-01 
 4.40000000e-01  3.23403103e-09  4.59359060e-01  4.59359060e-01  4.59359060e-01  3.22366816e-09  4.59359060e-01  3.30042781e-09  1.60285400e-07  7.40724353e-08  4.40000000e-01 
 4.50000000e-01  3.23403114e-09  4.59359074e-01  4.59359074e-01  4.59359074e-01  3.22366816e-09  4.59359074e-01  3.30042781e-09  1.60285426e-07  7.40724602e-08  4.50000000e-01 
 4.60000000e-01  3.23403103e-09  4.59359091e-01  4.59359091e-01  4.59359091e-01  3.22366816e-09  4.59359091e-01  3.30042781e-09  1.60285461e-07  7.40723145e-08  4.60000000e-01 
 4.70000000e-01  3.23403104e-09  4.59359073e-01  4.59359073e-01  4.59359073e-01  3.22366816e-09  4.59359073e-01  3.30042781e-09  1.60285420e-07  7.40721973e-08  4.70000000e-01 
 4.80000000e-01  3.23403114e-09  4.59359087e-01  4.59359087e-01  4.59359087e-01  3.22366816e-09  4.59359087e-01  3.30042781e-09  1.60285451e-07  7.40721724e-08  4.80000000e-01 
 4.90000000e-01  3.23403114e-09  4.59359072e-01  4.59359072e-01  4.59359072e-01  3.22366816e-09  4.59359072e-01  3.30042769e-09  1.60285432e-07  7.40720267e-08  4.90000000e-01 
 5.00000000e-01  3.23403103e-09  4.59359075e-01  4.59359075e-01  4.59359075e-01  3.22366816e-09  4.59359075e-01  3.30042781e-09  1.60285431e-07  7.40719521e-08  5.00000000e-01 
 5.10000000e-01  3.23403115e-09  4.59359068e-01  4.59359068e-01  4.59359068e-01  3.22366816e-09  4.59359068e-01  3.30042781e-09  1.60285425e-07  7.40718100e-08  5.10000000e-01 
 5.20000000e-01  3.23403114e-09  4.59359054e-01  4.59359054e-01  4.59359054e-01  3.22366816e-09  4.59359054e-01  3.30042781e-09  1.60285411e-07  7.40717958e-08  5.20000000e-01 
 5.30000000e-01  3.23403103e-09  4.59359084e-01  4.59359084e-01  4.59359084e-01  3.22366816e-09  4.59359084e-01  3.30042781e-09  1.60285442e-07  7.40718242e-08  5.30000000e-01 
 5.40000000e-01  3.23403104e-09  4.59359077e-01  4.59359077e-01  4.59359077e-01  3.22366816e-09  4.59359077e-01  3.30042781e-09  1.60285425e-07  7.40717532e-08  5.40000000e-01 
 5.50000000e-01  3.23403103e-09  4.59359061e-01  4.59359061e-01  4.59359061e-01  3.22366816e-09  4.59359061e-01  3.30042781e-09  1.60285413e-07  7.40715471e-08  5.50000000e-01 
 5.60000000e-01  3.23403114e-09  4.59359075e-01  4.59359075e-01  4.59359075e-01  3.22366816e-09  4.59359075e-01  3.30042781e-09  1.60285424e-07  7.40716324e-08  5.60000000e-01 
 5.70000000e-01  3.23403114e-09  4.59359089e-01  4.59359089e-01  4.59359089e-01  3.22366816e-09  4.59359089e-01  3.30042781e-09  1.60285461e-07  7.40715116e-08  5.70000000e-01 
 5.80000000e-01  3.23403114e-09  4.59359089e-01  4.59359089e-01  4.59359089e-01  3.22366816e-09  4.59359089e-01  3.30042769e-09  1.60285455e-07  7.40715436e-08  5.80000000e-01 
 5.90000000e-01  3.23403114e-09  4.59359096e-01  4.59359096e-01  4.59359096e-01  3.22366816e-09  4.59359096e-01  3.30042781e-09  1.60285459e-07  7.40713517e-08  5.90000000e-01 
 6.00000000e-01  3.23403103e-09  4.59359072e-01  4.59359072e-01  4.59359072e-01  3.22366816e-09  4.59359072e-01  3.30042781e-09  1.60285430e-07  7.40712736e-08  6.00000000e-01 
 6.10000000e-01  3.23403115e-09  4.59359087e-01  4.59359087e-01  4.59359087e-01  3.22366816e-09  4.59359087e-01  3.30042781e-09  1.60285450e-07  7.40712167e-08  6.10000000e-01 
 6.20000000e-01  3.23403114e-09  4.59359099e-01  4.59359099e-01  4.59359099e-01  3.22366816e-09  4.59359099e-01  3.30042770e-09  1.60285465e-07  7.40712025e-08  6.20000000e-01 
 6.30000000e-01  3.23403114e-09  4.59359102e-01  4.59359102e-01  4.59359102e-01  3.22366816e-09  4.59359102e-01  3.30042781e-09  1.60285464e-07  7.40710604e-08  6.30000000e-01 
 6.40000000e-01  3.23403103e-09  4.59359089e-01  4.59359089e-01  4.59359089e-01  3.22366816e-09  4.59359089e-01  3.30042781e-09  1.60285448e-07  7.40711457e-08  6.40000000e-01 
 6.50000000e-01  3.23403103e-09  4.59359069e-01  4.59359069e-01  4.59359069e-01  3.22366816e-09  4.59359069e-01  3.30042781e-09  1.60285422e-07  7.40710107e-08  6.50000000e-01 
 6.60000000e-01  3.23403103e-09  4.59359058e-01  4.59359058e-01  4.59359058e-01  3.22366816e-09  4.59359058e-01  3.30042781e-09  1.60285418e-07  7.40709325e-08  6.60000000e-01 
 6.70000000e-01  3.23403114e-09  4.59359078e-01  4.59359078e-01  4.59359078e-01  3.22366816e-09  4.59359078e-01  3.30042781e-09  1.60285433e-07  7.40709112e-08  6.70000000e-01 
 6.80000000e-01  3.23403103e-09  4.59359111e-01  4.59359111e-01  4.59359111e-01  3.22366816e-09  4.59359111e-01  3.30042781e-09  1.60285484e-07  7.40707478e-08  6.80000000e-01 
 6.90000000e-01  3.23403115e-09  4.59359080e-01  4.59359080e-01  4.59359080e-01  3.22366816e-09  4.59359080e-01  3.30042780e-09  1.60285431e-07  7.40707335e-08  6.90000000e-01 
 7.00000000e-01  3.23403114e-09  4.59359079e-01  4.59359078e-01  4.59359079e-01  3.22366816e-09  4.59359078e-01  3.30042781e-09  1.60285437e-07  7.40706980e-08  7.00000000e-01 
 7.10000000e-01  3.23403103e-09  4.59359082e-01  4.59359082e-01  4.59359082e-01  3.22366816e-09  4.59359082e-01  3.30042780e-09  1.60285449e-07  7.40705701e-08  7.10000000e-01 
 7.20000000e-01  3.23403115e-09  4.59359067e-01  4.59359067e-01  4.59359067e-01  3.22366816e-09  4.59359067e-01  3.30042770e-09  1.60285412e-07  7.40704991e-08  7.20000000e-01 
 7.30000000e-01  3.23403114e-09  4.59359086e-01  4.59359086e-01  4.59359086e-01  3.22366816e-09  4.59359086e-01  3.30042781e-09  1.60285453e-07  7.40704920e-08  7.30000000e-01 
 7.40000000e-01  3.23403103e-09  4.59359057e-01  4.59359057e-01  4.59359057e-01  3.22366816e-09  4.59359057e-01  3.30042781e-09  1.60285403e-07  7.40702149e-08  7.40000000e-01 
 7.50000000e-01  3.23403104e-09  4.59359071e-01  4.59359071e-01  4.59359071e-01  3.22366816e-09  4.59359071e-01  3.30042781e-09  1.60285433e-07  7.40703712e-08  7.50000000e-01 
 7.60000000e-01  3.23403114e-09  4.59359088e-01  4.59359088e-01  4.59359088e-01  3.22366816e-09  4.59359088e-01  3.30042781e-09  1.60285451e-07  7.40702575e-08  7.60000000e-01 
 7.70000000e-01  3.23403114e-09  4.59359085e-01  4.59359085e-01  4.59359085e-01  3.22366816e-09  4.59359085e-01  3.30042769e-09  1.60285449e-07  7.40700941e-08  7.70000000e-01 
 7.80000000e-01  3.23403103e-09  4.59359066e-01  4.59359066e-01  4.59359066e-01  3.22366816e-09  4.59359066e-01  3.30042781e-09  1.60285417e-07  7.40700514e-08  7.80000000e-01 
 7.90000000e-01  3.23403104e-09  4.59359092e-01  4.59359092e-01  4.59359092e-01  3.22366816e-09  4.59359092e-01  3.30042769e-09  1.60285450e-07  7.40700017e-08  7.90000000e-01 
 8.00000000e-01  3.23403103e-09  4.59359089e-01  4.59359089e-01  4.59359089e-01  3.22366816e-09  4.59359089e-01  3.30042781e-09  1.60285447e-07  7.40701083e-08  8.00000000e-01 
 8.10000000e-01  3.23403103e-09  4.59359068e-01  4.59359068e-01  4.59359068e-01  3.22366816e-09  4.59359068e-01  3.30042769e-09  1.60285428e-07  7.40699875e-08  8.10000000e-01 
 8.20000000e-01  3.23403103e-09  4.59359076e-01  4.59359076e-01  4.59359076e-01  3.22366816e-09  4.59359076e-01  3.30042781e-09  1.60285435e-07  7.40699164e-08  8.20000000e-01 
 8.30000000e-01  3.23403114e-09  4.59359083e-01  4.59359083e-01  4.59359083e-01  3.22366816e-09  4.59359083e-01  3.30042781e-09  1.60285452e-07  7.40697672e-08  8.30000000e-01 
 8.40000000e-01  3.23403114e-09  4.59359060e-01  4.59359060e-01  4.59359060e-01  3.22366816e-09  4.59359060e-01  3.30042769e-09  1.60285410e-07  7.40697459e-08  8.40000000e-01 
 8.50000000e-01  3.23403114e-09  4.59359077e-01  4.59359077e-01  4.59359077e-01  3.22366816e-09  4.59359077e-01  3.30042781e-09  1.60285442e-07  7.40696322e-08  8.50000000e-01 
 8.60000000e-01  3.23403114e-09  4.59359082e-01  4.59359082e-01  4.59359082e-01  3.22366816e-09  4.59359082e-01  3.30042781e-09  1.60285447e-07  7.40696322e-08  8.60000000e-01 
 8.70000000e-01  3.23403114e-09  4.59359094e-01  4.59359094e-01  4.59359094e-01  3.22366816e-09  4.59359094e-01  3.30042781e-09  1.60285453e-07  7.40696180e-08  8.70000000e-01 
 8.80000000e-01  3.23403103e-09  4.59359089e-01  4.59359089e-01  4.59359089e-01  3.22366816e-09  4.59359089e-01  3.30042781e-09  1.60285448e-07  7.40695469e-08  8.80000000e-01 
 8.90000000e-01  3.23403115e-09  4.59359074e-01  4.59359074e-01  4.59359074e-01  3.22366816e-09  4.59359074e-01  3.30042781e-09  1.60285429e-07  7.40693693e-08  8.90000000e-01 
 9.00000000e-01  3.23403103e-09  4.59359087e-01  4.59359087e-01  4.59359087e-01  3.22366816e-09  4.59359087e-01  3.30042781e-09  1.60285447e-07  7.40694119e-08  9.00000000e-01 
 9.10000000e-01  3.23403115e-09  4.59359066e-01  4.59359066e-01  4.59359066e-01  3.22366816e-09  4.59359066e-01  3.30042781e-09  1.60285427e-07  7.40691419e-08  9.10000000e-01 
 9.20000000e-01  3.23403103e-09  4.59359073e-01  4.59359073e-01  4.59359073e-01  3.22366816e-09  4.59359073e-01  3.30042781e-09  1.60285422e-07  7.40692201e-08  9.20000000e-01 
 9.30000000e-01  3.23403103e-09  4.59359065e-01  4.59359065e-01  4.59359065e-01  3.22366816e-09  4.59359065e-01  3.30042781e-09  1.60285424e-07  7.40690851e-08  9.30000000e-01 
 9.40000000e-01  3.23403114e-09  4.59359072e-01  4.59359072e-01  4.59359072e-01  3.22366816e-09  4.59359072e-01  3.30042781e-09  1.60285429e-07  7.40690638e-08  9.40000000e-01 
 9.50000000e-01  3.23403114e-09  4.59359074e-01  4.59359074e-01  4.59359074e-01  3.22366816e-09  4.59359074e-01  3.30042769e-09  1.60285435e-07  7.40690211e-08  9.50000000e-01 
 9.60000000e-01  3.23403114e-09  4.59359082e-01  4.59359082e-01  4.59359082e-01  3.22366816e-09  4.59359082e-01  3.30042781e-09  1.60285458e-07  7.40688648e-08  9.60000000e-01 
 9.70000000e-01  3.23403114e-09  4.59359072e-01  4.59359072e-01  4.59359072e-01  3.22366816e-09  4.59359072e-01  3.30042781e-09  1.60285420e-07  7.40686872e-08  9.70000000e-01 
 9.80000000e-01  3.23403114e-09  4.59359084e-01  4.59359084e-01  4.59359084e-01  3.22366816e-09  4.59359084e-01  3.30042781e-09  1.60285437e-07  7.40687227e-08  9.80000000e-01 
 9.90000000e-01  3.23403114e-09  4.59359073e-01  4.59359073e-01  4.59359073e-01  3.22366816e-09  4.59359073e-01  3.30042781e-09  1.60285429e-07  7.40686161e-08  9.90000000e-01 
 1.00000000e+00  3.23403103e-09  4.59359084e-01  4.59359084e-01  4.59359084e-01  3.22366816e-09  4.59359084e-01  3.30042781e-09  1.60285443e-07  7.40686303e-08  1.00000000e+00 
 1.01000000e+00  3.23403104e-09  4.59359079e-01  4.59359079e-01  4.59359079e-01  3.22366816e-09  4.59359079e-01  3.30042781e-09  1.60285445e-07  7.40684527e-08  1.01000000e+00 
 1.02000000e+00  3.23403114e-09  4.59359096e-01  4.59359096e-01  4.59359096e-01  3.22366816e-09  4.59359096e-01  3.30042781e-09  1.60285475e-07  7.40685380e-08  1.02000000e+00 
 1.03000000e+00  3.23403114e-09  4.59359083e-01  4.59359083e-01  4.59359083e-01  3.22366816e-09  4.59359083e-01  3.30042781e-09  1.60285444e-07  7.40683817e-08  1.03000000e+00 
 1.04000000e+00  3.23403114e-09  4.59359091e-01  4.59359091e-01  4.59359091e-01  3.22366816e-09  4.59359091e-01  3.30042781e-09  1.60285469e-07  7.40683177e-08  1.04000000e+00 
 1.05000000e+00  3.23403103e-09  4.59359085e-01  4.59359085e-01  4.59359085e-01  3.22366816e-09  4.59359085e-01  3.30042781e-09  1.60285455e-07  7.40680832e-08  1.05000000e+00 
 1.06000000e+00  3.23403115e-09  4.59359089e-01  4.59359089e-01  4.59359089e-01  3.22366816e-09  4.59359089e-01  3.30042781e-09  1.60285455e-07  7.40680832e-08  1.06000000e+00 
 1.07000000e+00  3.23403114e-09  4.59359097e-01  4.59359097e-01  4.59359097e-01  3.22366816e-09  4.59359097e-01  3.30042781e-09  1.60285475e-07  7.40680974e-08  1.07000000e+00 
 1.08000000e+00  3.23403114e-09  4.59359074e-01  4.59359074e-01  4.59359074e-01  3.22366816e-09  4.59359074e-01  3.30042781e-09  1.60285431e-07  7.40679553e-08  1.08000000e+00 
 1.09000000e+00  3.23403114e-09  4.59359078e-01  4.59359078e-01  4.59359078e-01  3.22366816e-09  4.59359078e-01  3.30042769e-09  1.60285440e-07  7.40678985e-08  1.09000000e+00 
 1.10000000e+00  3.23403103e-09  4.59359072e-01  4.59359072e-01  4.59359072e-01  3.22366816e-09  4.59359072e-01  3.30042781e-09  1.60285437e-07  7.40679127e-08  1.10000000e+00 
