 v-sweep         v(b0)           v(b1)           v(b2)           v(b3)           v(b4)           v(b5)           v(b6)           i(vbias)        i(viout)        v(vout)        
 0.00000000e+00  4.60377461e-01  4.60377461e-01  3.26513074e-09  3.25461839e-09  3.27497998e-09  4.60377461e-01  3.24346218e-09  1.62493797e-07  5.38884776e-08  0.00000000e+00 
 1.00000000e-02  4.60377451e-01  4.60377451e-01  3.26513061e-09  3.25461838e-09  3.27497997e-09  4.60377451e-01  3.24346217e-09  1.62493797e-07  5.38881004e-08  1.00000000e-02 
 2.00000000e-02  4.60377462e-01  4.60377462e-01  3.26513061e-09  3.25461838e-09  3.27497997e-09  4.60377462e-01  3.24346217e-09  1.62493792e-07  5.38877254e-08  2.00000000e-02 
 3.00000000e-02  4.60377430e-01  4.60377430e-01  3.26513061e-09  3.25461838e-09  3.27498008e-09  4.60377430e-01  3.24346217e-09  1.62493761e-07  5.38873099e-08  3.00000000e-02 
 4.00000000e-02  4.60377420e-01  4.60377420e-01  3.26513072e-09  3.25461838e-09  3.27497997e-09  4.60377420e-01  3.24346217e-09  1.62493742e-07  5.38870397e-08  4.00000000e-02 
 5.00000000e-02  4.60377460e-01  4.60377460e-01  3.26513061e-09  3.25461838e-09  3.27497997e-09  4.60377460e-01  3.24346217e-09  1.62493799e-07  5.38866751e-08  5.00000000e-02 
 6.00000000e-02  4.60377446e-01  4.60377446e-01  3.26513061e-09  3.25461838e-09  3.27498008e-09  4.60377446e-01  3.24346217e-09  1.62493779e-07  5.38862683e-08  6.00000000e-02 
 7.00000000e-02  4.60377451e-01  4.60377451e-01  3.26513073e-09  3.25461838e-09  3.27497997e-09  4.60377451e-01  3.24346217e-09  1.62493789e-07  5.38859406e-08  7.00000000e-02 
 8.00000000e-02  4.60377436e-01  4.60377436e-01  3.26513061e-09  3.25461838e-09  3.27498008e-09  4.60377436e-01  3.24346217e-09  1.62493767e-07  5.38857643e-08  8.00000000e-02 
 9.00000000e-02  4.60377457e-01  4.60377457e-01  3.26513073e-09  3.25461838e-09  3.27497997e-09  4.60377457e-01  3.24346217e-09  1.62493790e-07  5.38854765e-08  9.00000000e-02 
 1.00000000e-01  4.60377462e-01  4.60377462e-01  3.26513061e-09  3.25461826e-09  3.27498008e-09  4.60377462e-01  3.24346217e-09  1.62493803e-07  5.38852110e-08  1.00000000e-01 
 1.10000000e-01  4.60377452e-01  4.60377452e-01  3.26513061e-09  3.25461838e-09  3.27497997e-09  4.60377452e-01  3.24346217e-09  1.62493784e-07  5.38849276e-08  1.10000000e-01 
 1.20000000e-01  4.60377440e-01  4.60377440e-01  3.26513073e-09  3.25461838e-09  3.27498008e-09  4.60377440e-01  3.24346217e-09  1.62493780e-07  5.38846638e-08  1.20000000e-01 
 1.30000000e-01  4.60377432e-01  4.60377432e-01  3.26513072e-09  3.25461838e-09  3.27498008e-09  4.60377432e-01  3.24346217e-09  1.62493768e-07  5.38844214e-08  1.30000000e-01 
 1.40000000e-01  4.60377443e-01  4.60377443e-01  3.26513061e-09  3.25461838e-09  3.27498008e-09  4.60377443e-01  3.24346217e-09  1.62493780e-07  5.38843539e-08  1.40000000e-01 
 1.50000000e-01  4.60377451e-01  4.60377451e-01  3.26513061e-09  3.25461838e-09  3.27497997e-09  4.60377451e-01  3.24346217e-09  1.62493789e-07  5.38841185e-08  1.50000000e-01 
 1.60000000e-01  4.60377434e-01  4.60377434e-01  3.26513072e-09  3.25461826e-09  3.27498008e-09  4.60377434e-01  3.24346217e-09  1.62493757e-07  5.38838840e-08  1.60000000e-01 
 1.70000000e-01  4.60377428e-01  4.60377428e-01  3.26513061e-09  3.25461838e-09  3.27498008e-09  4.60377427e-01  3.24346217e-09  1.62493748e-07  5.38837366e-08  1.70000000e-01 
 1.80000000e-01  4.60377446e-01  4.60377446e-01  3.26513073e-09  3.25461838e-09  3.27498008e-09  4.60377446e-01  3.24346217e-09  1.62493779e-07  5.38835661e-08  1.80000000e-01 
 1.90000000e-01  4.60377439e-01  4.60377439e-01  3.26513061e-09  3.25461838e-09  3.27497997e-09  4.60377439e-01  3.24346217e-09  1.62493760e-07  5.38833440e-08  1.90000000e-01 
 2.00000000e-01  4.60377434e-01  4.60377434e-01  3.26513061e-09  3.25461838e-09  3.27498008e-09  4.60377434e-01  3.24346217e-09  1.62493761e-07  5.38832676e-08  2.00000000e-01 
 2.10000000e-01  4.60377428e-01  4.60377428e-01  3.26513061e-09  3.25461826e-09  3.27498008e-09  4.60377428e-01  3.24346217e-09  1.62493753e-07  5.38830403e-08  2.10000000e-01 
 2.20000000e-01  4.60377441e-01  4.60377441e-01  3.26513061e-09  3.25461838e-09  3.27498008e-09  4.60377441e-01  3.24346217e-09  1.62493772e-07  5.38828981e-08  2.20000000e-01 
 2.30000000e-01  4.60377440e-01  4.60377440e-01  3.26513073e-09  3.25461838e-09  3.27498008e-09  4.60377440e-01  3.24346217e-09  1.62493763e-07  5.38827649e-08  2.30000000e-01 
 2.40000000e-01  4.60377443e-01  4.60377443e-01  3.26513073e-09  3.25461838e-09  3.27498008e-09  4.60377443e-01  3.24346217e-09  1.62493779e-07  5.38826015e-08  2.40000000e-01 
 2.50000000e-01  4.60377443e-01  4.60377443e-01  3.26513061e-09  3.25461826e-09  3.27497997e-09  4.60377443e-01  3.24346217e-09  1.62493779e-07  5.38824576e-08  2.50000000e-01 
 2.60000000e-01  4.60377462e-01  4.60377462e-01  3.26513073e-09  3.25461838e-09  3.27497997e-09  4.60377462e-01  3.24346217e-09  1.62493800e-07  5.38824256e-08  2.60000000e-01 
 2.70000000e-01  4.60377451e-01  4.60377451e-01  3.26513073e-09  3.25461838e-09  3.27498008e-09  4.60377451e-01  3.24346217e-09  1.62493787e-07  5.38821645e-08  2.70000000e-01 
 2.80000000e-01  4.60377441e-01  4.60377441e-01  3.26513061e-09  3.25461838e-09  3.27498008e-09  4.60377441e-01  3.24346217e-09  1.62493765e-07  5.38820899e-08  2.80000000e-01 
 2.90000000e-01  4.60377438e-01  4.60377438e-01  3.26513073e-09  3.25461838e-09  3.27497997e-09  4.60377438e-01  3.24346217e-09  1.62493781e-07  5.38819513e-08  2.90000000e-01 
 3.00000000e-01  4.60377460e-01  4.60377460e-01  3.26513073e-09  3.25461826e-09  3.27497997e-09  4.60377460e-01  3.24346217e-09  1.62493810e-07  5.38819371e-08  3.00000000e-01 
 3.10000000e-01  4.60377439e-01  4.60377439e-01  3.26513061e-09  3.25461838e-09  3.27497997e-09  4.60377439e-01  3.24346217e-09  1.62493769e-07  5.38817808e-08  3.10000000e-01 
 3.20000000e-01  4.60377432e-01  4.60377432e-01  3.26513072e-09  3.25461826e-09  3.27497997e-09  4.60377432e-01  3.24346217e-09  1.62493766e-07  5.38816174e-08  3.20000000e-01 
 3.30000000e-01  4.60377456e-01  4.60377456e-01  3.26513061e-09  3.25461826e-09  3.27498008e-09  4.60377456e-01  3.24346217e-09  1.62493789e-07  5.38816920e-08  3.30000000e-01 
 3.40000000e-01  4.60377458e-01  4.60377458e-01  3.26513061e-09  3.25461838e-09  3.27497997e-09  4.60377457e-01  3.24346217e-09  1.62493779e-07  5.38815677e-08  3.40000000e-01 
 3.50000000e-01  4.60377455e-01  4.60377455e-01  3.26513073e-09  3.25461838e-09  3.27497997e-09  4.60377455e-01  3.24346217e-09  1.62493794e-07  5.38814575e-08  3.50000000e-01 
 3.60000000e-01  4.60377443e-01  4.60377443e-01  3.26513073e-09  3.25461838e-09  3.27498008e-09  4.60377443e-01  3.24346217e-09  1.62493768e-07  5.38813794e-08  3.60000000e-01 
 3.70000000e-01  4.60377455e-01  4.60377455e-01  3.26513073e-09  3.25461838e-09  3.27497997e-09  4.60377455e-01  3.24346217e-09  1.62493789e-07  5.38812870e-08  3.70000000e-01 
 3.80000000e-01  4.60377439e-01  4.60377439e-01  3.26513061e-09  3.25461838e-09  3.27497997e-09  4.60377439e-01  3.24346217e-09  1.62493767e-07  5.38812017e-08  3.80000000e-01 
 3.90000000e-01  4.60377448e-01  4.60377448e-01  3.26513061e-09  3.25461826e-09  3.27498008e-09  4.60377448e-01  3.24346217e-09  1.62493793e-07  5.38811022e-08  3.90000000e-01 
 4.00000000e-01  4.60377461e-01  4.60377461e-01  3.26513061e-09  3.25461838e-09  3.27498008e-09  4.60377461e-01  3.24346217e-09  1.62493803e-07  5.38810134e-08  4.00000000e-01 
 4.10000000e-01  4.60377466e-01  4.60377466e-01  3.26513061e-09  3.25461838e-09  3.27498008e-09  4.60377466e-01  3.24346217e-09  1.62493808e-07  5.38809957e-08  4.10000000e-01 
 4.20000000e-01  4.60377472e-01  4.60377472e-01  3.26513073e-09  3.25461838e-09  3.27497997e-09  4.60377472e-01  3.24346217e-09  1.62493805e-07  5.38808607e-08  4.20000000e-01 
 4.30000000e-01  4.60377429e-01  4.60377429e-01  3.26513061e-09  3.25461838e-09  3.27498008e-09  4.60377429e-01  3.24346217e-09  1.62493760e-07  5.38808393e-08  4.30000000e-01 
 4.40000000e-01  4.60377417e-01  4.60377417e-01  3.26513061e-09  3.25461826e-09  3.27498008e-09  4.60377417e-01  3.24346217e-09  1.62493734e-07  5.38806404e-08  4.40000000e-01 
 4.50000000e-01  4.60377433e-01  4.60377433e-01  3.26513061e-09  3.25461838e-09  3.27498008e-09  4.60377433e-01  3.24346217e-09  1.62493755e-07  5.38807434e-08  4.50000000e-01 
 4.60000000e-01  4.60377440e-01  4.60377440e-01  3.26513061e-09  3.25461838e-09  3.27497997e-09  4.60377440e-01  3.24346217e-09  1.62493762e-07  5.38806333e-08  4.60000000e-01 
 4.70000000e-01  4.60377456e-01  4.60377456e-01  3.26513061e-09  3.25461838e-09  3.27498008e-09  4.60377456e-01  3.24346217e-09  1.62493784e-07  5.38805978e-08  4.70000000e-01 
 4.80000000e-01  4.60377446e-01  4.60377446e-01  3.26513073e-09  3.25461838e-09  3.27497997e-09  4.60377446e-01  3.24346217e-09  1.62493779e-07  5.38803597e-08  4.80000000e-01 
 4.90000000e-01  4.60377446e-01  4.60377446e-01  3.26513073e-09  3.25461838e-09  3.27497997e-09  4.60377446e-01  3.24346217e-09  1.62493771e-07  5.38804059e-08  4.90000000e-01 
 5.00000000e-01  4.60377467e-01  4.60377467e-01  3.26513061e-09  3.25461838e-09  3.27498008e-09  4.60377467e-01  3.24346217e-09  1.62493810e-07  5.38803420e-08  5.00000000e-01 
 5.10000000e-01  4.60377437e-01  4.60377437e-01  3.26513073e-09  3.25461838e-09  3.27497997e-09  4.60377437e-01  3.24346217e-09  1.62493772e-07  5.38802922e-08  5.10000000e-01 
 5.20000000e-01  4.60377436e-01  4.60377436e-01  3.26513073e-09  3.25461838e-09  3.27497997e-09  4.60377436e-01  3.24346217e-09  1.62493768e-07  5.38801856e-08  5.20000000e-01 
 5.30000000e-01  4.60377470e-01  4.60377470e-01  3.26513073e-09  3.25461826e-09  3.27497997e-09  4.60377469e-01  3.24346217e-09  1.62493818e-07  5.38801785e-08  5.30000000e-01 
 5.40000000e-01  4.60377453e-01  4.60377453e-01  3.26513061e-09  3.25461826e-09  3.27498008e-09  4.60377453e-01  3.24346217e-09  1.62493785e-07  5.38801785e-08  5.40000000e-01 
 5.50000000e-01  4.60377459e-01  4.60377459e-01  3.26513061e-09  3.25461838e-09  3.27498008e-09  4.60377459e-01  3.24346217e-09  1.62493804e-07  5.38799441e-08  5.50000000e-01 
 5.60000000e-01  4.60377463e-01  4.60377463e-01  3.26513073e-09  3.25461826e-09  3.27498008e-09  4.60377462e-01  3.24346217e-09  1.62493805e-07  5.38798695e-08  5.60000000e-01 
 5.70000000e-01  4.60377435e-01  4.60377435e-01  3.26513061e-09  3.25461826e-09  3.27498008e-09  4.60377435e-01  3.24346217e-09  1.62493763e-07  5.38798091e-08  5.70000000e-01 
 5.80000000e-01  4.60377451e-01  4.60377451e-01  3.26513073e-09  3.25461826e-09  3.27498008e-09  4.60377451e-01  3.24346217e-09  1.62493779e-07  5.38797806e-08  5.80000000e-01 
 5.90000000e-01  4.60377437e-01  4.60377437e-01  3.26513061e-09  3.25461838e-09  3.27497997e-09  4.60377437e-01  3.24346217e-09  1.62493775e-07  5.38797735e-08  5.90000000e-01 
 6.00000000e-01  4.60377459e-01  4.60377459e-01  3.26513061e-09  3.25461838e-09  3.27498008e-09  4.60377459e-01  3.24346217e-09  1.62493792e-07  5.38796954e-08  6.00000000e-01 
 6.10000000e-01  4.60377459e-01  4.60377459e-01  3.26513073e-09  3.25461838e-09  3.27498008e-09  4.60377459e-01  3.24346217e-09  1.62493789e-07  5.38796812e-08  6.10000000e-01 
 6.20000000e-01  4.60377464e-01  4.60377464e-01  3.26513073e-09  3.25461838e-09  3.27498008e-09  4.60377464e-01  3.24346217e-09  1.62493814e-07  5.38795106e-08  6.20000000e-01 
 6.30000000e-01  4.60377459e-01  4.60377459e-01  3.26513061e-09  3.25461826e-09  3.27498008e-09  4.60377459e-01  3.24346217e-09  1.62493792e-07  5.38795462e-08  6.30000000e-01 
 6.40000000e-01  4.60377470e-01  4.60377470e-01  3.26513061e-09  3.25461826e-09  3.27497997e-09  4.60377470e-01  3.24346217e-09  1.62493835e-07  5.38794751e-08  6.40000000e-01 
 6.50000000e-01  4.60377446e-01  4.60377446e-01  3.26513073e-09  3.25461838e-09  3.27497997e-09  4.60377446e-01  3.24346217e-09  1.62493771e-07  5.38794183e-08  6.50000000e-01 
 6.60000000e-01  4.60377442e-01  4.60377442e-01  3.26513073e-09  3.25461838e-09  3.27498008e-09  4.60377442e-01  3.24346217e-09  1.62493769e-07  5.38793330e-08  6.60000000e-01 
 6.70000000e-01  4.60377473e-01  4.60377473e-01  3.26513073e-09  3.25461838e-09  3.27498008e-09  4.60377472e-01  3.24346217e-09  1.62493830e-07  5.38792335e-08  6.70000000e-01 
 6.80000000e-01  4.60377463e-01  4.60377463e-01  3.26513073e-09  3.25461838e-09  3.27497996e-09  4.60377463e-01  3.24346217e-09  1.62493804e-07  5.38792619e-08  6.80000000e-01 
 6.90000000e-01  4.60377456e-01  4.60377456e-01  3.26513061e-09  3.25461838e-09  3.27498008e-09  4.60377456e-01  3.24346217e-09  1.62493788e-07  5.38792122e-08  6.90000000e-01 
 7.00000000e-01  4.60377450e-01  4.60377450e-01  3.26513073e-09  3.25461826e-09  3.27497996e-09  4.60377450e-01  3.24346217e-09  1.62493778e-07  5.38791127e-08  7.00000000e-01 
 7.10000000e-01  4.60377426e-01  4.60377426e-01  3.26513061e-09  3.25461826e-09  3.27497997e-09  4.60377426e-01  3.24346217e-09  1.62493748e-07  5.38789777e-08  7.10000000e-01 
 7.20000000e-01  4.60377454e-01  4.60377454e-01  3.26513061e-09  3.25461838e-09  3.27497997e-09  4.60377454e-01  3.24346217e-09  1.62493794e-07  5.38790701e-08  7.20000000e-01 
 7.30000000e-01  4.60377451e-01  4.60377451e-01  3.26513073e-09  3.25461838e-09  3.27498008e-09  4.60377451e-01  3.24346217e-09  1.62493782e-07  5.38789280e-08  7.30000000e-01 
 7.40000000e-01  4.60377456e-01  4.60377456e-01  3.26513061e-09  3.25461838e-09  3.27498008e-09  4.60377456e-01  3.24346217e-09  1.62493798e-07  5.38788711e-08  7.40000000e-01 
 7.50000000e-01  4.60377439e-01  4.60377439e-01  3.26513061e-09  3.25461838e-09  3.27498008e-09  4.60377439e-01  3.24346217e-09  1.62493771e-07  5.38787575e-08  7.50000000e-01 
 7.60000000e-01  4.60377433e-01  4.60377433e-01  3.26513072e-09  3.25461838e-09  3.27497997e-09  4.60377432e-01  3.24346217e-09  1.62493758e-07  5.38788356e-08  7.60000000e-01 
 7.70000000e-01  4.60377434e-01  4.60377434e-01  3.26513061e-09  3.25461826e-09  3.27498008e-09  4.60377434e-01  3.24346217e-09  1.62493761e-07  5.38786153e-08  7.70000000e-01 
 7.80000000e-01  4.60377459e-01  4.60377459e-01  3.26513073e-09  3.25461838e-09  3.27498008e-09  4.60377459e-01  3.24346217e-09  1.62493788e-07  5.38786864e-08  7.80000000e-01 
 7.90000000e-01  4.60377438e-01  4.60377438e-01  3.26513061e-09  3.25461838e-09  3.27497997e-09  4.60377438e-01  3.24346217e-09  1.62493773e-07  5.38785159e-08  7.90000000e-01 
 8.00000000e-01  4.60377435e-01  4.60377435e-01  3.26513072e-09  3.25461838e-09  3.27498008e-09  4.60377435e-01  3.24346217e-09  1.62493765e-07  5.38783951e-08  8.00000000e-01 
 8.10000000e-01  4.60377425e-01  4.60377425e-01  3.26513061e-09  3.25461838e-09  3.27497997e-09  4.60377425e-01  3.24346217e-09  1.62493748e-07  5.38784235e-08  8.10000000e-01 
 8.20000000e-01  4.60377456e-01  4.60377456e-01  3.26513061e-09  3.25461838e-09  3.27498008e-09  4.60377456e-01  3.24346217e-09  1.62493789e-07  5.38784519e-08  8.20000000e-01 
 8.30000000e-01  4.60377464e-01  4.60377464e-01  3.26513073e-09  3.25461838e-09  3.27498008e-09  4.60377464e-01  3.24346217e-09  1.62493807e-07  5.38784093e-08  8.30000000e-01 
 8.40000000e-01  4.60377463e-01  4.60377463e-01  3.26513061e-09  3.25461838e-09  3.27497997e-09  4.60377463e-01  3.24346217e-09  1.62493801e-07  5.38784164e-08  8.40000000e-01 
 8.50000000e-01  4.60377453e-01  4.60377453e-01  3.26513073e-09  3.25461838e-09  3.27497997e-09  4.60377453e-01  3.24346217e-09  1.62493782e-07  5.38781819e-08  8.50000000e-01 
 8.60000000e-01  4.60377436e-01  4.60377436e-01  3.26513073e-09  3.25461826e-09  3.27498008e-09  4.60377436e-01  3.24346217e-09  1.62493767e-07  5.38780895e-08  8.60000000e-01 
 8.70000000e-01  4.60377439e-01  4.60377439e-01  3.26513073e-09  3.25461838e-09  3.27498008e-09  4.60377439e-01  3.24346217e-09  1.62493760e-07  5.38780540e-08  8.70000000e-01 
 8.80000000e-01  4.60377448e-01  4.60377448e-01  3.26513061e-09  3.25461826e-09  3.27498008e-09  4.60377448e-01  3.24346217e-09  1.62493803e-07  5.38780327e-08  8.80000000e-01 
 8.90000000e-01  4.60377440e-01  4.60377440e-01  3.26513073e-09  3.25461838e-09  3.27497997e-09  4.60377440e-01  3.24346217e-09  1.62493769e-07  5.38778622e-08  8.90000000e-01 
 9.00000000e-01  4.60377445e-01  4.60377445e-01  3.26513061e-09  3.25461838e-09  3.27497997e-09  4.60377445e-01  3.24346217e-09  1.62493772e-07  5.38779403e-08  9.00000000e-01 
 9.10000000e-01  4.60377434e-01  4.60377434e-01  3.26513061e-09  3.25461838e-09  3.27498008e-09  4.60377434e-01  3.24346217e-09  1.62493758e-07  5.38777556e-08  9.10000000e-01 
 9.20000000e-01  4.60377440e-01  4.60377440e-01  3.26513061e-09  3.25461826e-09  3.27498008e-09  4.60377440e-01  3.24346217e-09  1.62493772e-07  5.38777698e-08  9.20000000e-01 
 9.30000000e-01  4.60377447e-01  4.60377447e-01  3.26513073e-09  3.25461826e-09  3.27497997e-09  4.60377447e-01  3.24346217e-09  1.62493777e-07  5.38777414e-08  9.30000000e-01 
 9.40000000e-01  4.60377460e-01  4.60377460e-01  3.26513061e-09  3.25461826e-09  3.27497997e-09  4.60377460e-01  3.24346217e-09  1.62493799e-07  5.38775993e-08  9.40000000e-01 
 9.50000000e-01  4.60377458e-01  4.60377458e-01  3.26513073e-09  3.25461838e-09  3.27498008e-09  4.60377458e-01  3.24346217e-09  1.62493787e-07  5.38775922e-08  9.50000000e-01 
 9.60000000e-01  4.60377427e-01  4.60377427e-01  3.26513061e-09  3.25461826e-09  3.27497997e-09  4.60377427e-01  3.24346217e-09  1.62493748e-07  5.38774714e-08  9.60000000e-01 
 9.70000000e-01  4.60377444e-01  4.60377444e-01  3.26513061e-09  3.25461838e-09  3.27498008e-09  4.60377444e-01  3.24346217e-09  1.62493779e-07  5.38774927e-08  9.70000000e-01 
 9.80000000e-01  4.60377456e-01  4.60377456e-01  3.26513061e-09  3.25461838e-09  3.27498008e-09  4.60377456e-01  3.24346217e-09  1.62493784e-07  5.38774358e-08  9.80000000e-01 
 9.90000000e-01  4.60377464e-01  4.60377464e-01  3.26513073e-09  3.25461838e-09  3.27498008e-09  4.60377464e-01  3.24346217e-09  1.62493801e-07  5.38773151e-08  9.90000000e-01 
 1.00000000e+00  4.60377457e-01  4.60377457e-01  3.26513061e-09  3.25461838e-09  3.27498008e-09  4.60377457e-01  3.24346217e-09  1.62493791e-07  5.38772369e-08  1.00000000e+00 
 1.01000000e+00  4.60377459e-01  4.60377459e-01  3.26513061e-09  3.25461838e-09  3.27497997e-09  4.60377459e-01  3.24346217e-09  1.62493796e-07  5.38772156e-08  1.01000000e+00 
 1.02000000e+00  4.60377448e-01  4.60377448e-01  3.26513061e-09  3.25461838e-09  3.27498008e-09  4.60377448e-01  3.24346217e-09  1.62493790e-07  5.38771161e-08  1.02000000e+00 
 1.03000000e+00  4.60377444e-01  4.60377444e-01  3.26513073e-09  3.25461838e-09  3.27497997e-09  4.60377444e-01  3.24346217e-09  1.62493774e-07  5.38770450e-08  1.03000000e+00 
 1.04000000e+00  4.60377447e-01  4.60377447e-01  3.26513061e-09  3.25461826e-09  3.27497997e-09  4.60377447e-01  3.24346217e-09  1.62493785e-07  5.38769598e-08  1.04000000e+00 
 1.05000000e+00  4.60377430e-01  4.60377430e-01  3.26513072e-09  3.25461826e-09  3.27497997e-09  4.60377430e-01  3.24346217e-09  1.62493758e-07  5.38768603e-08  1.05000000e+00 
 1.06000000e+00  4.60377444e-01  4.60377444e-01  3.26513061e-09  3.25461838e-09  3.27498008e-09  4.60377444e-01  3.24346217e-09  1.62493773e-07  5.38768603e-08  1.06000000e+00 
 1.07000000e+00  4.60377468e-01  4.60377468e-01  3.26513061e-09  3.25461826e-09  3.27498008e-09  4.60377468e-01  3.24346217e-09  1.62493803e-07  5.38767253e-08  1.07000000e+00 
 1.08000000e+00  4.60377448e-01  4.60377448e-01  3.26513061e-09  3.25461838e-09  3.27498007e-09  4.60377448e-01  3.24346217e-09  1.62493779e-07  5.38767040e-08  1.08000000e+00 
 1.09000000e+00  4.60377451e-01  4.60377451e-01  3.26513061e-09  3.25461826e-09  3.27498008e-09  4.60377451e-01  3.24346217e-09  1.62493802e-07  5.38766542e-08  1.09000000e+00 
 1.10000000e+00  4.60377439e-01  4.60377439e-01  3.26513061e-09  3.25461838e-09  3.27497996e-09  4.60377439e-01  3.24346217e-09  1.62493766e-07  5.38766685e-08  1.10000000e+00 
