 v-sweep         v(b0)           v(b1)           v(b2)           v(b3)           v(b4)           v(b5)           v(b6)           i(vbias)        i(viout)        v(vout)        
 0.00000000e+00  4.60378119e-01  4.60378119e-01  3.26513064e-09  4.60378119e-01  3.27498000e-09  4.60378119e-01  3.24346220e-09  1.62494689e-07  6.72836479e-08  0.00000000e+00 
 1.00000000e-02  4.60378126e-01  4.60378126e-01  3.26513063e-09  4.60378126e-01  3.27497999e-09  4.60378126e-01  3.24346218e-09  1.62494715e-07  6.72832705e-08  1.00000000e-02 
 2.00000000e-02  4.60378103e-01  4.60378103e-01  3.26513074e-09  4.60378103e-01  3.27497999e-09  4.60378103e-01  3.24346218e-09  1.62494675e-07  6.72827947e-08  2.00000000e-02 
 3.00000000e-02  4.60378104e-01  4.60378104e-01  3.26513074e-09  4.60378104e-01  3.27498010e-09  4.60378104e-01  3.24346218e-09  1.62494678e-07  6.72824909e-08  3.00000000e-02 
 4.00000000e-02  4.60378134e-01  4.60378134e-01  3.26513063e-09  4.60378134e-01  3.27498010e-09  4.60378134e-01  3.24346218e-09  1.62494722e-07  6.72822549e-08  4.00000000e-02 
 5.00000000e-02  4.60378134e-01  4.60378134e-01  3.26513074e-09  4.60378134e-01  3.27497999e-09  4.60378134e-01  3.24346218e-09  1.62494722e-07  6.72819613e-08  5.00000000e-02 
 6.00000000e-02  4.60378132e-01  4.60378132e-01  3.26513074e-09  4.60378132e-01  3.27497999e-09  4.60378132e-01  3.24346218e-09  1.62494708e-07  6.72814222e-08  6.00000000e-02 
 7.00000000e-02  4.60378133e-01  4.60378133e-01  3.26513074e-09  4.60378133e-01  3.27498010e-09  4.60378133e-01  3.24346218e-09  1.62494713e-07  6.72811962e-08  7.00000000e-02 
 8.00000000e-02  4.60378140e-01  4.60378140e-01  3.26513074e-09  4.60378140e-01  3.27498010e-09  4.60378140e-01  3.24346218e-09  1.62494722e-07  6.72809151e-08  8.00000000e-02 
 9.00000000e-02  4.60378119e-01  4.60378119e-01  3.26513074e-09  4.60378119e-01  3.27497999e-09  4.60378119e-01  3.24346218e-09  1.62494702e-07  6.72807099e-08  9.00000000e-02 
 1.00000000e-01  4.60378120e-01  4.60378120e-01  3.26513063e-09  4.60378120e-01  3.27498011e-09  4.60378120e-01  3.24346218e-09  1.62494706e-07  6.72803573e-08  1.00000000e-01 
 1.10000000e-01  4.60378110e-01  4.60378110e-01  3.26513063e-09  4.60378110e-01  3.27497998e-09  4.60378110e-01  3.24346218e-09  1.62494689e-07  6.72802107e-08  1.10000000e-01 
 1.20000000e-01  4.60378145e-01  4.60378145e-01  3.26513063e-09  4.60378145e-01  3.27497999e-09  4.60378145e-01  3.24346218e-09  1.62494742e-07  6.72799434e-08  1.20000000e-01 
 1.30000000e-01  4.60378135e-01  4.60378135e-01  3.26513074e-09  4.60378135e-01  3.27497999e-09  4.60378135e-01  3.24346218e-09  1.62494716e-07  6.72796210e-08  1.30000000e-01 
 1.40000000e-01  4.60378121e-01  4.60378121e-01  3.26513074e-09  4.60378121e-01  3.27498010e-09  4.60378121e-01  3.24346218e-09  1.62494702e-07  6.72794469e-08  1.40000000e-01 
 1.50000000e-01  4.60378146e-01  4.60378146e-01  3.26513074e-09  4.60378146e-01  3.27497998e-09  4.60378146e-01  3.24346218e-09  1.62494741e-07  6.72793483e-08  1.50000000e-01 
 1.60000000e-01  4.60378111e-01  4.60378111e-01  3.26513074e-09  4.60378111e-01  3.27498010e-09  4.60378111e-01  3.24346218e-09  1.62494691e-07  6.72790854e-08  1.60000000e-01 
 1.70000000e-01  4.60378112e-01  4.60378112e-01  3.26513074e-09  4.60378112e-01  3.27498009e-09  4.60378112e-01  3.24346218e-09  1.62494684e-07  6.72788172e-08  1.70000000e-01 
 1.80000000e-01  4.60378137e-01  4.60378137e-01  3.26513074e-09  4.60378137e-01  3.27498010e-09  4.60378137e-01  3.24346218e-09  1.62494725e-07  6.72786467e-08  1.80000000e-01 
 1.90000000e-01  4.60378148e-01  4.60378148e-01  3.26513074e-09  4.60378148e-01  3.27498010e-09  4.60378148e-01  3.24346218e-09  1.62494735e-07  6.72785969e-08  1.90000000e-01 
 2.00000000e-01  4.60378128e-01  4.60378128e-01  3.26513074e-09  4.60378128e-01  3.27498010e-09  4.60378128e-01  3.24346218e-09  1.62494711e-07  6.72783926e-08  2.00000000e-01 
 2.10000000e-01  4.60378112e-01  4.60378112e-01  3.26513074e-09  4.60378112e-01  3.27497999e-09  4.60378112e-01  3.24346218e-09  1.62494693e-07  6.72781191e-08  2.10000000e-01 
 2.20000000e-01  4.60378119e-01  4.60378119e-01  3.26513063e-09  4.60378119e-01  3.27497999e-09  4.60378119e-01  3.24346218e-09  1.62494676e-07  6.72781457e-08  2.20000000e-01 
 2.30000000e-01  4.60378118e-01  4.60378118e-01  3.26513063e-09  4.60378118e-01  3.27498010e-09  4.60378118e-01  3.24346218e-09  1.62494707e-07  6.72778366e-08  2.30000000e-01 
 2.40000000e-01  4.60378110e-01  4.60378110e-01  3.26513063e-09  4.60378110e-01  3.27497998e-09  4.60378110e-01  3.24346218e-09  1.62494682e-07  6.72778793e-08  2.40000000e-01 
 2.50000000e-01  4.60378131e-01  4.60378131e-01  3.26513063e-09  4.60378131e-01  3.27498011e-09  4.60378131e-01  3.24346218e-09  1.62494713e-07  6.72777016e-08  2.50000000e-01 
 2.60000000e-01  4.60378149e-01  4.60378149e-01  3.26513074e-09  4.60378149e-01  3.27498010e-09  4.60378149e-01  3.24346218e-09  1.62494733e-07  6.72775489e-08  2.60000000e-01 
 2.70000000e-01  4.60378127e-01  4.60378127e-01  3.26513074e-09  4.60378127e-01  3.27498010e-09  4.60378127e-01  3.24346218e-09  1.62494724e-07  6.72774281e-08  2.70000000e-01 
 2.80000000e-01  4.60378136e-01  4.60378136e-01  3.26513063e-09  4.60378136e-01  3.27497999e-09  4.60378136e-01  3.24346218e-09  1.62494729e-07  6.72771776e-08  2.80000000e-01 
 2.90000000e-01  4.60378118e-01  4.60378117e-01  3.26513063e-09  4.60378117e-01  3.27498011e-09  4.60378117e-01  3.24346218e-09  1.62494692e-07  6.72771208e-08  2.90000000e-01 
 3.00000000e-01  4.60378116e-01  4.60378116e-01  3.26513063e-09  4.60378116e-01  3.27498009e-09  4.60378116e-01  3.24346218e-09  1.62494696e-07  6.72770284e-08  3.00000000e-01 
 3.10000000e-01  4.60378147e-01  4.60378147e-01  3.26513063e-09  4.60378147e-01  3.27498010e-09  4.60378147e-01  3.24346218e-09  1.62494744e-07  6.72769573e-08  3.10000000e-01 
 3.20000000e-01  4.60378121e-01  4.60378121e-01  3.26513074e-09  4.60378121e-01  3.27498010e-09  4.60378121e-01  3.24346218e-09  1.62494694e-07  6.72768756e-08  3.20000000e-01 
 3.30000000e-01  4.60378129e-01  4.60378129e-01  3.26513074e-09  4.60378129e-01  3.27497999e-09  4.60378129e-01  3.24346218e-09  1.62494702e-07  6.72767690e-08  3.30000000e-01 
 3.40000000e-01  4.60378134e-01  4.60378134e-01  3.26513063e-09  4.60378134e-01  3.27497999e-09  4.60378134e-01  3.24346218e-09  1.62494716e-07  6.72766163e-08  3.40000000e-01 
 3.50000000e-01  4.60378150e-01  4.60378150e-01  3.26513074e-09  4.60378150e-01  3.27498010e-09  4.60378150e-01  3.24346218e-09  1.62494727e-07  6.72765310e-08  3.50000000e-01 
 3.60000000e-01  4.60378094e-01  4.60378094e-01  3.26513074e-09  4.60378094e-01  3.27498009e-09  4.60378094e-01  3.24346218e-09  1.62494659e-07  6.72763534e-08  3.60000000e-01 
 3.70000000e-01  4.60378130e-01  4.60378130e-01  3.26513063e-09  4.60378130e-01  3.27497999e-09  4.60378130e-01  3.24346218e-09  1.62494711e-07  6.72763321e-08  3.70000000e-01 
 3.80000000e-01  4.60378121e-01  4.60378121e-01  3.26513063e-09  4.60378121e-01  3.27497999e-09  4.60378121e-01  3.24346218e-09  1.62494700e-07  6.72762894e-08  3.80000000e-01 
 3.90000000e-01  4.60378137e-01  4.60378137e-01  3.26513063e-09  4.60378137e-01  3.27497999e-09  4.60378137e-01  3.24346218e-09  1.62494724e-07  6.72761757e-08  3.90000000e-01 
 4.00000000e-01  4.60378113e-01  4.60378113e-01  3.26513063e-09  4.60378113e-01  3.27497999e-09  4.60378113e-01  3.24346218e-09  1.62494695e-07  6.72760834e-08  4.00000000e-01 
 4.10000000e-01  4.60378146e-01  4.60378146e-01  3.26513074e-09  4.60378146e-01  3.27498010e-09  4.60378146e-01  3.24346218e-09  1.62494739e-07  6.72760265e-08  4.10000000e-01 
 4.20000000e-01  4.60378133e-01  4.60378133e-01  3.26513074e-09  4.60378133e-01  3.27497998e-09  4.60378133e-01  3.24346218e-09  1.62494721e-07  6.72759626e-08  4.20000000e-01 
 4.30000000e-01  4.60378142e-01  4.60378142e-01  3.26513063e-09  4.60378142e-01  3.27497999e-09  4.60378142e-01  3.24346218e-09  1.62494731e-07  6.72758702e-08  4.30000000e-01 
 4.40000000e-01  4.60378134e-01  4.60378134e-01  3.26513074e-09  4.60378134e-01  3.27497999e-09  4.60378134e-01  3.24346218e-09  1.62494710e-07  6.72756819e-08  4.40000000e-01 
 4.50000000e-01  4.60378139e-01  4.60378139e-01  3.26513063e-09  4.60378139e-01  3.27498010e-09  4.60378138e-01  3.24346218e-09  1.62494731e-07  6.72756961e-08  4.50000000e-01 
 4.60000000e-01  4.60378135e-01  4.60378135e-01  3.26513063e-09  4.60378135e-01  3.27498010e-09  4.60378135e-01  3.24346218e-09  1.62494721e-07  6.72756890e-08  4.60000000e-01 
 4.70000000e-01  4.60378148e-01  4.60378148e-01  3.26513063e-09  4.60378148e-01  3.27497999e-09  4.60378148e-01  3.24346218e-09  1.62494726e-07  6.72755753e-08  4.70000000e-01 
 4.80000000e-01  4.60378133e-01  4.60378133e-01  3.26513063e-09  4.60378133e-01  3.27497999e-09  4.60378133e-01  3.24346218e-09  1.62494718e-07  6.72754510e-08  4.80000000e-01 
 4.90000000e-01  4.60378121e-01  4.60378121e-01  3.26513074e-09  4.60378121e-01  3.27498010e-09  4.60378121e-01  3.24346218e-09  1.62494701e-07  6.72753018e-08  4.90000000e-01 
 5.00000000e-01  4.60378150e-01  4.60378150e-01  3.26513063e-09  4.60378150e-01  3.27497998e-09  4.60378150e-01  3.24346218e-09  1.62494743e-07  6.72754759e-08  5.00000000e-01 
 5.10000000e-01  4.60378122e-01  4.60378122e-01  3.26513063e-09  4.60378122e-01  3.27497999e-09  4.60378122e-01  3.24346218e-09  1.62494700e-07  6.72753018e-08  5.10000000e-01 
 5.20000000e-01  4.60378148e-01  4.60378148e-01  3.26513074e-09  4.60378148e-01  3.27498010e-09  4.60378148e-01  3.24346218e-09  1.62494730e-07  6.72753231e-08  5.20000000e-01 
 5.30000000e-01  4.60378118e-01  4.60378118e-01  3.26513074e-09  4.60378118e-01  3.27497998e-09  4.60378118e-01  3.24346218e-09  1.62494687e-07  6.72751703e-08  5.30000000e-01 
 5.40000000e-01  4.60378129e-01  4.60378129e-01  3.26513074e-09  4.60378129e-01  3.27497999e-09  4.60378129e-01  3.24346218e-09  1.62494707e-07  6.72750637e-08  5.40000000e-01 
 5.50000000e-01  4.60378138e-01  4.60378138e-01  3.26513063e-09  4.60378138e-01  3.27498010e-09  4.60378138e-01  3.24346218e-09  1.62494717e-07  6.72749785e-08  5.50000000e-01 
 5.60000000e-01  4.60378111e-01  4.60378111e-01  3.26513074e-09  4.60378111e-01  3.27498009e-09  4.60378111e-01  3.24346218e-09  1.62494688e-07  6.72749216e-08  5.60000000e-01 
 5.70000000e-01  4.60378139e-01  4.60378139e-01  3.26513063e-09  4.60378139e-01  3.27497999e-09  4.60378139e-01  3.24346218e-09  1.62494722e-07  6.72748648e-08  5.70000000e-01 
 5.80000000e-01  4.60378129e-01  4.60378129e-01  3.26513063e-09  4.60378129e-01  3.27498011e-09  4.60378129e-01  3.24346218e-09  1.62494702e-07  6.72748612e-08  5.80000000e-01 
 5.90000000e-01  4.60378123e-01  4.60378123e-01  3.26513074e-09  4.60378123e-01  3.27497998e-09  4.60378123e-01  3.24346218e-09  1.62494694e-07  6.72747618e-08  5.90000000e-01 
 6.00000000e-01  4.60378151e-01  4.60378151e-01  3.26513074e-09  4.60378151e-01  3.27497999e-09  4.60378151e-01  3.24346218e-09  1.62494749e-07  6.72747191e-08  6.00000000e-01 
 6.10000000e-01  4.60378115e-01  4.60378115e-01  3.26513074e-09  4.60378115e-01  3.27498010e-09  4.60378115e-01  3.24346218e-09  1.62494683e-07  6.72745841e-08  6.10000000e-01 
 6.20000000e-01  4.60378142e-01  4.60378142e-01  3.26513074e-09  4.60378142e-01  3.27498010e-09  4.60378142e-01  3.24346218e-09  1.62494728e-07  6.72747191e-08  6.20000000e-01 
 6.30000000e-01  4.60378134e-01  4.60378134e-01  3.26513063e-09  4.60378134e-01  3.27497999e-09  4.60378134e-01  3.24346218e-09  1.62494722e-07  6.72745415e-08  6.30000000e-01 
 6.40000000e-01  4.60378130e-01  4.60378130e-01  3.26513063e-09  4.60378130e-01  3.27497999e-09  4.60378130e-01  3.24346218e-09  1.62494714e-07  6.72744420e-08  6.40000000e-01 
 6.50000000e-01  4.60378126e-01  4.60378126e-01  3.26513074e-09  4.60378126e-01  3.27498010e-09  4.60378126e-01  3.24346218e-09  1.62494709e-07  6.72743568e-08  6.50000000e-01 
 6.60000000e-01  4.60378107e-01  4.60378107e-01  3.26513074e-09  4.60378107e-01  3.27498009e-09  4.60378107e-01  3.24346218e-09  1.62494686e-07  6.72742786e-08  6.60000000e-01 
 6.70000000e-01  4.60378145e-01  4.60378145e-01  3.26513063e-09  4.60378145e-01  3.27497999e-09  4.60378145e-01  3.24346218e-09  1.62494729e-07  6.72743141e-08  6.70000000e-01 
 6.80000000e-01  4.60378158e-01  4.60378158e-01  3.26513074e-09  4.60378158e-01  3.27497999e-09  4.60378158e-01  3.24346218e-09  1.62494752e-07  6.72742928e-08  6.80000000e-01 
 6.90000000e-01  4.60378130e-01  4.60378130e-01  3.26513063e-09  4.60378130e-01  3.27498010e-09  4.60378130e-01  3.24346218e-09  1.62494705e-07  6.72741365e-08  6.90000000e-01 
 7.00000000e-01  4.60378114e-01  4.60378114e-01  3.26513063e-09  4.60378114e-01  3.27497998e-09  4.60378114e-01  3.24346218e-09  1.62494689e-07  6.72739873e-08  7.00000000e-01 
 7.10000000e-01  4.60378138e-01  4.60378138e-01  3.26513063e-09  4.60378138e-01  3.27497999e-09  4.60378138e-01  3.24346218e-09  1.62494712e-07  6.72740370e-08  7.10000000e-01 
 7.20000000e-01  4.60378152e-01  4.60378152e-01  3.26513063e-09  4.60378152e-01  3.27498010e-09  4.60378152e-01  3.24346218e-09  1.62494754e-07  6.72740157e-08  7.20000000e-01 
 7.30000000e-01  4.60378130e-01  4.60378130e-01  3.26513074e-09  4.60378130e-01  3.27498010e-09  4.60378129e-01  3.24346218e-09  1.62494715e-07  6.72738807e-08  7.30000000e-01 
 7.40000000e-01  4.60378127e-01  4.60378127e-01  3.26513074e-09  4.60378127e-01  3.27497999e-09  4.60378127e-01  3.24346218e-09  1.62494725e-07  6.72737670e-08  7.40000000e-01 
 7.50000000e-01  4.60378135e-01  4.60378135e-01  3.26513074e-09  4.60378135e-01  3.27497999e-09  4.60378135e-01  3.24346218e-09  1.62494724e-07  6.72737457e-08  7.50000000e-01 
 7.60000000e-01  4.60378119e-01  4.60378119e-01  3.26513074e-09  4.60378119e-01  3.27498010e-09  4.60378119e-01  3.24346218e-09  1.62494702e-07  6.72737812e-08  7.60000000e-01 
 7.70000000e-01  4.60378121e-01  4.60378121e-01  3.26513074e-09  4.60378121e-01  3.27498010e-09  4.60378121e-01  3.24346218e-09  1.62494696e-07  6.72735680e-08  7.70000000e-01 
 7.80000000e-01  4.60378126e-01  4.60378126e-01  3.26513063e-09  4.60378126e-01  3.27497999e-09  4.60378126e-01  3.24346218e-09  1.62494707e-07  6.72735894e-08  7.80000000e-01 
 7.90000000e-01  4.60378135e-01  4.60378135e-01  3.26513074e-09  4.60378135e-01  3.27498011e-09  4.60378135e-01  3.24346218e-09  1.62494718e-07  6.72734473e-08  7.90000000e-01 
 8.00000000e-01  4.60378122e-01  4.60378122e-01  3.26513074e-09  4.60378122e-01  3.27498010e-09  4.60378122e-01  3.24346218e-09  1.62494701e-07  6.72734402e-08  8.00000000e-01 
 8.10000000e-01  4.60378112e-01  4.60378112e-01  3.26513063e-09  4.60378112e-01  3.27497999e-09  4.60378112e-01  3.24346218e-09  1.62494694e-07  6.72733620e-08  8.10000000e-01 
 8.20000000e-01  4.60378112e-01  4.60378112e-01  3.26513063e-09  4.60378112e-01  3.27498010e-09  4.60378112e-01  3.24346218e-09  1.62494689e-07  6.72733620e-08  8.20000000e-01 
 8.30000000e-01  4.60378129e-01  4.60378129e-01  3.26513063e-09  4.60378129e-01  3.27498010e-09  4.60378129e-01  3.24346218e-09  1.62494720e-07  6.72732270e-08  8.30000000e-01 
 8.40000000e-01  4.60378127e-01  4.60378127e-01  3.26513074e-09  4.60378127e-01  3.27498010e-09  4.60378127e-01  3.24346218e-09  1.62494721e-07  6.72731986e-08  8.40000000e-01 
 8.50000000e-01  4.60378140e-01  4.60378140e-01  3.26513074e-09  4.60378140e-01  3.27498010e-09  4.60378140e-01  3.24346218e-09  1.62494741e-07  6.72731417e-08  8.50000000e-01 
 8.60000000e-01  4.60378103e-01  4.60378103e-01  3.26513063e-09  4.60378103e-01  3.27497999e-09  4.60378103e-01  3.24346218e-09  1.62494672e-07  6.72730138e-08  8.60000000e-01 
 8.70000000e-01  4.60378132e-01  4.60378132e-01  3.26513074e-09  4.60378132e-01  3.27498011e-09  4.60378132e-01  3.24346218e-09  1.62494721e-07  6.72729925e-08  8.70000000e-01 
 8.80000000e-01  4.60378120e-01  4.60378120e-01  3.26513074e-09  4.60378120e-01  3.27497998e-09  4.60378120e-01  3.24346218e-09  1.62494700e-07  6.72728859e-08  8.80000000e-01 
 8.90000000e-01  4.60378133e-01  4.60378133e-01  3.26513074e-09  4.60378133e-01  3.27498011e-09  4.60378133e-01  3.24346218e-09  1.62494728e-07  6.72728859e-08  8.90000000e-01 
 9.00000000e-01  4.60378152e-01  4.60378152e-01  3.26513063e-09  4.60378152e-01  3.27498010e-09  4.60378152e-01  3.24346218e-09  1.62494739e-07  6.72728504e-08  9.00000000e-01 
 9.10000000e-01  4.60378146e-01  4.60378146e-01  3.26513063e-09  4.60378146e-01  3.27497999e-09  4.60378146e-01  3.24346218e-09  1.62494735e-07  6.72727509e-08  9.10000000e-01 
 9.20000000e-01  4.60378143e-01  4.60378143e-01  3.26513074e-09  4.60378143e-01  3.27497999e-09  4.60378143e-01  3.24346218e-09  1.62494728e-07  6.72727367e-08  9.20000000e-01 
 9.30000000e-01  4.60378127e-01  4.60378127e-01  3.26513063e-09  4.60378127e-01  3.27497999e-09  4.60378127e-01  3.24346218e-09  1.62494702e-07  6.72726443e-08  9.30000000e-01 
 9.40000000e-01  4.60378153e-01  4.60378153e-01  3.26513074e-09  4.60378153e-01  3.27497999e-09  4.60378153e-01  3.24346218e-09  1.62494743e-07  6.72726301e-08  9.40000000e-01 
 9.50000000e-01  4.60378149e-01  4.60378149e-01  3.26513074e-09  4.60378149e-01  3.27497999e-09  4.60378149e-01  3.24346218e-09  1.62494734e-07  6.72725236e-08  9.50000000e-01 
 9.60000000e-01  4.60378143e-01  4.60378143e-01  3.26513074e-09  4.60378143e-01  3.27497999e-09  4.60378143e-01  3.24346218e-09  1.62494733e-07  6.72724454e-08  9.60000000e-01 
 9.70000000e-01  4.60378119e-01  4.60378119e-01  3.26513063e-09  4.60378119e-01  3.27497999e-09  4.60378119e-01  3.24346218e-09  1.62494691e-07  6.72722820e-08  9.70000000e-01 
 9.80000000e-01  4.60378136e-01  4.60378136e-01  3.26513074e-09  4.60378136e-01  3.27497999e-09  4.60378136e-01  3.24346218e-09  1.62494726e-07  6.72722678e-08  9.80000000e-01 
 9.90000000e-01  4.60378124e-01  4.60378124e-01  3.26513063e-09  4.60378124e-01  3.27498010e-09  4.60378123e-01  3.24346218e-09  1.62494702e-07  6.72721612e-08  9.90000000e-01 
 1.00000000e+00  4.60378146e-01  4.60378146e-01  3.26513063e-09  4.60378146e-01  3.27498010e-09  4.60378146e-01  3.24346218e-09  1.62494737e-07  6.72721683e-08  1.00000000e+00 
 1.01000000e+00  4.60378132e-01  4.60378132e-01  3.26513074e-09  4.60378132e-01  3.27498010e-09  4.60378132e-01  3.24346218e-09  1.62494713e-07  6.72720830e-08  1.01000000e+00 
 1.02000000e+00  4.60378159e-01  4.60378159e-01  3.26513074e-09  4.60378159e-01  3.27497999e-09  4.60378159e-01  3.24346218e-09  1.62494760e-07  6.72720688e-08  1.02000000e+00 
 1.03000000e+00  4.60378126e-01  4.60378126e-01  3.26513063e-09  4.60378126e-01  3.27497999e-09  4.60378126e-01  3.24346218e-09  1.62494695e-07  6.72718983e-08  1.03000000e+00 
 1.04000000e+00  4.60378131e-01  4.60378131e-01  3.26513074e-09  4.60378131e-01  3.27498010e-09  4.60378131e-01  3.24346218e-09  1.62494702e-07  6.72717704e-08  1.04000000e+00 
 1.05000000e+00  4.60378116e-01  4.60378116e-01  3.26513074e-09  4.60378116e-01  3.27497998e-09  4.60378116e-01  3.24346218e-09  1.62494692e-07  6.72717704e-08  1.05000000e+00 
 1.06000000e+00  4.60378129e-01  4.60378129e-01  3.26513074e-09  4.60378129e-01  3.27497999e-09  4.60378129e-01  3.24346218e-09  1.62494719e-07  6.72716780e-08  1.06000000e+00 
 1.07000000e+00  4.60378139e-01  4.60378139e-01  3.26513063e-09  4.60378139e-01  3.27497999e-09  4.60378139e-01  3.24346218e-09  1.62494731e-07  6.72717277e-08  1.07000000e+00 
 1.08000000e+00  4.60378128e-01  4.60378128e-01  3.26513074e-09  4.60378128e-01  3.27498010e-09  4.60378128e-01  3.24346218e-09  1.62494708e-07  6.72714506e-08  1.08000000e+00 
 1.09000000e+00  4.60378100e-01  4.60378100e-01  3.26513074e-09  4.60378100e-01  3.27498009e-09  4.60378100e-01  3.24346218e-09  1.62494671e-07  6.72714080e-08  1.09000000e+00 
 1.10000000e+00  4.60378141e-01  4.60378141e-01  3.26513074e-09  4.60378141e-01  3.27497999e-09  4.60378141e-01  3.24346218e-09  1.62494726e-07  6.72714435e-08  1.10000000e+00 
