 v-sweep         v(b0)           v(b1)           v(b2)           v(b3)           v(b4)           v(b5)           v(b6)           i(vbias)        i(viout)        v(vout)        
 0.00000000e+00  4.57135708e-01  4.57135708e-01  4.57135709e-01  3.24681242e-09  3.28085848e-09  4.57135709e-01  3.27085564e-09  1.56550042e-07  5.68247330e-08  0.00000000e+00 
 1.00000000e-02  4.57135683e-01  4.57135683e-01  4.57135683e-01  3.24681240e-09  3.28085846e-09  4.57135683e-01  3.27085575e-09  1.56549987e-07  5.68243238e-08  1.00000000e-02 
 2.00000000e-02  4.57135684e-01  4.57135684e-01  4.57135684e-01  3.24681240e-09  3.28085846e-09  4.57135684e-01  3.27085574e-09  1.56550009e-07  5.68239420e-08  2.00000000e-02 
 3.00000000e-02  4.57135709e-01  4.57135709e-01  4.57135709e-01  3.24681240e-09  3.28085846e-09  4.57135709e-01  3.27085574e-09  1.56550034e-07  5.68237035e-08  3.00000000e-02 
 4.00000000e-02  4.57135697e-01  4.57135697e-01  4.57135697e-01  3.24681229e-09  3.28085846e-09  4.57135697e-01  3.27085574e-09  1.56550014e-07  5.68232923e-08  4.00000000e-02 
 5.00000000e-02  4.57135700e-01  4.57135700e-01  4.57135700e-01  3.24681240e-09  3.28085846e-09  4.57135700e-01  3.27085574e-09  1.56550018e-07  5.68230440e-08  5.00000000e-02 
 6.00000000e-02  4.57135715e-01  4.57135715e-01  4.57135715e-01  3.24681240e-09  3.28085846e-09  4.57135715e-01  3.27085574e-09  1.56550039e-07  5.68226723e-08  6.00000000e-02 
 7.00000000e-02  4.57135682e-01  4.57135682e-01  4.57135682e-01  3.24681240e-09  3.28085846e-09  4.57135682e-01  3.27085574e-09  1.56550010e-07  5.68223699e-08  7.00000000e-02 
 8.00000000e-02  4.57135700e-01  4.57135700e-01  4.57135700e-01  3.24681240e-09  3.28085858e-09  4.57135700e-01  3.27085574e-09  1.56550017e-07  5.68219498e-08  8.00000000e-02 
 9.00000000e-02  4.57135692e-01  4.57135692e-01  4.57135692e-01  3.24681240e-09  3.28085846e-09  4.57135692e-01  3.27085574e-09  1.56550013e-07  5.68217278e-08  9.00000000e-02 
 1.00000000e-01  4.57135677e-01  4.57135677e-01  4.57135677e-01  3.24681240e-09  3.28085847e-09  4.57135677e-01  3.27085574e-09  1.56549980e-07  5.68216052e-08  1.00000000e-01 
 1.10000000e-01  4.57135690e-01  4.57135690e-01  4.57135690e-01  3.24681240e-09  3.28085846e-09  4.57135691e-01  3.27085574e-09  1.56550021e-07  5.68213805e-08  1.10000000e-01 
 1.20000000e-01  4.57135692e-01  4.57135692e-01  4.57135692e-01  3.24681240e-09  3.28085846e-09  4.57135693e-01  3.27085574e-09  1.56550013e-07  5.68210954e-08  1.20000000e-01 
 1.30000000e-01  4.57135680e-01  4.57135680e-01  4.57135680e-01  3.24681240e-09  3.28085846e-09  4.57135680e-01  3.27085574e-09  1.56549996e-07  5.68208955e-08  1.30000000e-01 
 1.40000000e-01  4.57135701e-01  4.57135701e-01  4.57135701e-01  3.24681240e-09  3.28085846e-09  4.57135701e-01  3.27085574e-09  1.56550029e-07  5.68205794e-08  1.40000000e-01 
 1.50000000e-01  4.57135708e-01  4.57135708e-01  4.57135708e-01  3.24681240e-09  3.28085846e-09  4.57135708e-01  3.27085574e-09  1.56550030e-07  5.68204612e-08  1.50000000e-01 
 1.60000000e-01  4.57135705e-01  4.57135705e-01  4.57135705e-01  3.24681240e-09  3.28085846e-09  4.57135705e-01  3.27085574e-09  1.56550037e-07  5.68202214e-08  1.60000000e-01 
 1.70000000e-01  4.57135686e-01  4.57135686e-01  4.57135686e-01  3.24681240e-09  3.28085846e-09  4.57135686e-01  3.27085574e-09  1.56550009e-07  5.68200118e-08  1.70000000e-01 
 1.80000000e-01  4.57135690e-01  4.57135690e-01  4.57135690e-01  3.24681240e-09  3.28085846e-09  4.57135690e-01  3.27085574e-09  1.56550008e-07  5.68199141e-08  1.80000000e-01 
 1.90000000e-01  4.57135697e-01  4.57135697e-01  4.57135697e-01  3.24681240e-09  3.28085846e-09  4.57135697e-01  3.27085574e-09  1.56550017e-07  5.68196672e-08  1.90000000e-01 
 2.00000000e-01  4.57135691e-01  4.57135691e-01  4.57135691e-01  3.24681240e-09  3.28085846e-09  4.57135691e-01  3.27085574e-09  1.56550004e-07  5.68194736e-08  2.00000000e-01 
 2.10000000e-01  4.57135692e-01  4.57135692e-01  4.57135692e-01  3.24681240e-09  3.28085846e-09  4.57135692e-01  3.27085574e-09  1.56550019e-07  5.68194931e-08  2.10000000e-01 
 2.20000000e-01  4.57135694e-01  4.57135694e-01  4.57135694e-01  3.24681240e-09  3.28085846e-09  4.57135694e-01  3.27085574e-09  1.56550007e-07  5.68192977e-08  2.20000000e-01 
 2.30000000e-01  4.57135688e-01  4.57135688e-01  4.57135688e-01  3.24681240e-09  3.28085846e-09  4.57135688e-01  3.27085574e-09  1.56550000e-07  5.68190774e-08  2.30000000e-01 
 2.40000000e-01  4.57135672e-01  4.57135672e-01  4.57135672e-01  3.24681240e-09  3.28085846e-09  4.57135672e-01  3.27085574e-09  1.56549975e-07  5.68188838e-08  2.40000000e-01 
 2.50000000e-01  4.57135692e-01  4.57135692e-01  4.57135692e-01  3.24681240e-09  3.28085858e-09  4.57135692e-01  3.27085574e-09  1.56550022e-07  5.68188341e-08  2.50000000e-01 
 2.60000000e-01  4.57135696e-01  4.57135696e-01  4.57135696e-01  3.24681240e-09  3.28085857e-09  4.57135696e-01  3.27085574e-09  1.56550018e-07  5.68187080e-08  2.60000000e-01 
 2.70000000e-01  4.57135687e-01  4.57135687e-01  4.57135687e-01  3.24681240e-09  3.28085846e-09  4.57135687e-01  3.27085574e-09  1.56550003e-07  5.68185197e-08  2.70000000e-01 
 2.80000000e-01  4.57135693e-01  4.57135693e-01  4.57135693e-01  3.24681240e-09  3.28085858e-09  4.57135693e-01  3.27085574e-09  1.56550007e-07  5.68183847e-08  2.80000000e-01 
 2.90000000e-01  4.57135699e-01  4.57135699e-01  4.57135699e-01  3.24681240e-09  3.28085846e-09  4.57135699e-01  3.27085574e-09  1.56550024e-07  5.68183438e-08  2.90000000e-01 
 3.00000000e-01  4.57135703e-01  4.57135703e-01  4.57135703e-01  3.24681240e-09  3.28085847e-09  4.57135703e-01  3.27085574e-09  1.56550020e-07  5.68182266e-08  3.00000000e-01 
 3.10000000e-01  4.57135681e-01  4.57135681e-01  4.57135681e-01  3.24681240e-09  3.28085846e-09  4.57135681e-01  3.27085574e-09  1.56550000e-07  5.68181733e-08  3.10000000e-01 
 3.20000000e-01  4.57135686e-01  4.57135686e-01  4.57135686e-01  3.24681240e-09  3.28085846e-09  4.57135686e-01  3.27085574e-09  1.56550001e-07  5.68180170e-08  3.20000000e-01 
 3.30000000e-01  4.57135671e-01  4.57135671e-01  4.57135671e-01  3.24681240e-09  3.28085858e-09  4.57135671e-01  3.27085574e-09  1.56549964e-07  5.68179530e-08  3.30000000e-01 
 3.40000000e-01  4.57135678e-01  4.57135678e-01  4.57135678e-01  3.24681240e-09  3.28085846e-09  4.57135678e-01  3.27085574e-09  1.56549973e-07  5.68178038e-08  3.40000000e-01 
 3.50000000e-01  4.57135690e-01  4.57135690e-01  4.57135691e-01  3.24681240e-09  3.28085847e-09  4.57135691e-01  3.27085574e-09  1.56550012e-07  5.68176830e-08  3.50000000e-01 
 3.60000000e-01  4.57135686e-01  4.57135686e-01  4.57135686e-01  3.24681240e-09  3.28085846e-09  4.57135686e-01  3.27085574e-09  1.56550004e-07  5.68176191e-08  3.60000000e-01 
 3.70000000e-01  4.57135691e-01  4.57135691e-01  4.57135691e-01  3.24681240e-09  3.28085846e-09  4.57135691e-01  3.27085574e-09  1.56550009e-07  5.68175871e-08  3.70000000e-01 
 3.80000000e-01  4.57135687e-01  4.57135687e-01  4.57135687e-01  3.24681240e-09  3.28085846e-09  4.57135687e-01  3.27085574e-09  1.56549997e-07  5.68175018e-08  3.80000000e-01 
 3.90000000e-01  4.57135702e-01  4.57135702e-01  4.57135702e-01  3.24681240e-09  3.28085846e-09  4.57135703e-01  3.27085574e-09  1.56550016e-07  5.68174201e-08  3.90000000e-01 
 4.00000000e-01  4.57135703e-01  4.57135703e-01  4.57135703e-01  3.24681240e-09  3.28085846e-09  4.57135704e-01  3.27085574e-09  1.56550032e-07  5.68173029e-08  4.00000000e-01 
 4.10000000e-01  4.57135684e-01  4.57135684e-01  4.57135684e-01  3.24681240e-09  3.28085846e-09  4.57135684e-01  3.27085563e-09  1.56549999e-07  5.68172460e-08  4.10000000e-01 
 4.20000000e-01  4.57135669e-01  4.57135669e-01  4.57135669e-01  3.24681240e-09  3.28085846e-09  4.57135669e-01  3.27085575e-09  1.56549974e-07  5.68171608e-08  4.20000000e-01 
 4.30000000e-01  4.57135689e-01  4.57135689e-01  4.57135689e-01  3.24681240e-09  3.28085846e-09  4.57135689e-01  3.27085574e-09  1.56549995e-07  5.68171927e-08  4.30000000e-01 
 4.40000000e-01  4.57135683e-01  4.57135683e-01  4.57135683e-01  3.24681240e-09  3.28085858e-09  4.57135683e-01  3.27085574e-09  1.56549994e-07  5.68171501e-08  4.40000000e-01 
 4.50000000e-01  4.57135700e-01  4.57135700e-01  4.57135700e-01  3.24681240e-09  3.28085846e-09  4.57135700e-01  3.27085574e-09  1.56550028e-07  5.68169973e-08  4.50000000e-01 
 4.60000000e-01  4.57135693e-01  4.57135693e-01  4.57135693e-01  3.24681240e-09  3.28085847e-09  4.57135693e-01  3.27085574e-09  1.56550013e-07  5.68167984e-08  4.60000000e-01 
 4.70000000e-01  4.57135692e-01  4.57135692e-01  4.57135692e-01  3.24681240e-09  3.28085858e-09  4.57135692e-01  3.27085574e-09  1.56550009e-07  5.68167486e-08  4.70000000e-01 
 4.80000000e-01  4.57135684e-01  4.57135684e-01  4.57135684e-01  3.24681240e-09  3.28085846e-09  4.57135684e-01  3.27085574e-09  1.56550010e-07  5.68167167e-08  4.80000000e-01 
 4.90000000e-01  4.57135690e-01  4.57135690e-01  4.57135690e-01  3.24681240e-09  3.28085847e-09  4.57135690e-01  3.27085574e-09  1.56550001e-07  5.68167486e-08  4.90000000e-01 
 5.00000000e-01  4.57135663e-01  4.57135663e-01  4.57135663e-01  3.24681240e-09  3.28085846e-09  4.57135664e-01  3.27085574e-09  1.56549972e-07  5.68165213e-08  5.00000000e-01 
 5.10000000e-01  4.57135693e-01  4.57135693e-01  4.57135693e-01  3.24681240e-09  3.28085846e-09  4.57135693e-01  3.27085574e-09  1.56550024e-07  5.68165426e-08  5.10000000e-01 
 5.20000000e-01  4.57135685e-01  4.57135685e-01  4.57135685e-01  3.24681240e-09  3.28085846e-09  4.57135685e-01  3.27085574e-09  1.56550007e-07  5.68164147e-08  5.20000000e-01 
 5.30000000e-01  4.57135718e-01  4.57135718e-01  4.57135718e-01  3.24681240e-09  3.28085847e-09  4.57135718e-01  3.27085574e-09  1.56550050e-07  5.68164076e-08  5.30000000e-01 
 5.40000000e-01  4.57135680e-01  4.57135680e-01  4.57135680e-01  3.24681240e-09  3.28085858e-09  4.57135680e-01  3.27085574e-09  1.56549996e-07  5.68162974e-08  5.40000000e-01 
 5.50000000e-01  4.57135711e-01  4.57135711e-01  4.57135711e-01  3.24681240e-09  3.28085846e-09  4.57135711e-01  3.27085574e-09  1.56550041e-07  5.68162619e-08  5.50000000e-01 
 5.60000000e-01  4.57135723e-01  4.57135723e-01  4.57135723e-01  3.24681240e-09  3.28085847e-09  4.57135723e-01  3.27085574e-09  1.56550060e-07  5.68162584e-08  5.60000000e-01 
 5.70000000e-01  4.57135709e-01  4.57135709e-01  4.57135709e-01  3.24681240e-09  3.28085846e-09  4.57135709e-01  3.27085574e-09  1.56550038e-07  5.68161518e-08  5.70000000e-01 
 5.80000000e-01  4.57135704e-01  4.57135704e-01  4.57135704e-01  3.24681240e-09  3.28085846e-09  4.57135704e-01  3.27085574e-09  1.56550047e-07  5.68160985e-08  5.80000000e-01 
 5.90000000e-01  4.57135675e-01  4.57135675e-01  4.57135675e-01  3.24681240e-09  3.28085846e-09  4.57135675e-01  3.27085574e-09  1.56549980e-07  5.68160630e-08  5.90000000e-01 
 6.00000000e-01  4.57135695e-01  4.57135695e-01  4.57135695e-01  3.24681240e-09  3.28085846e-09  4.57135695e-01  3.27085574e-09  1.56550020e-07  5.68158995e-08  6.00000000e-01 
 6.10000000e-01  4.57135698e-01  4.57135698e-01  4.57135698e-01  3.24681240e-09  3.28085858e-09  4.57135698e-01  3.27085574e-09  1.56550015e-07  5.68158853e-08  6.10000000e-01 
 6.20000000e-01  4.57135697e-01  4.57135697e-01  4.57135697e-01  3.24681240e-09  3.28085857e-09  4.57135697e-01  3.27085574e-09  1.56550014e-07  5.68159066e-08  6.20000000e-01 
 6.30000000e-01  4.57135689e-01  4.57135689e-01  4.57135689e-01  3.24681240e-09  3.28085846e-09  4.57135689e-01  3.27085574e-09  1.56550001e-07  5.68157503e-08  6.30000000e-01 
 6.40000000e-01  4.57135676e-01  4.57135676e-01  4.57135676e-01  3.24681240e-09  3.28085847e-09  4.57135676e-01  3.27085574e-09  1.56549981e-07  5.68157930e-08  6.40000000e-01 
 6.50000000e-01  4.57135716e-01  4.57135716e-01  4.57135716e-01  3.24681240e-09  3.28085846e-09  4.57135716e-01  3.27085574e-09  1.56550050e-07  5.68156793e-08  6.50000000e-01 
 6.60000000e-01  4.57135684e-01  4.57135684e-01  4.57135684e-01  3.24681240e-09  3.28085858e-09  4.57135684e-01  3.27085574e-09  1.56550003e-07  5.68156224e-08  6.60000000e-01 
 6.70000000e-01  4.57135679e-01  4.57135679e-01  4.57135680e-01  3.24681240e-09  3.28085846e-09  4.57135680e-01  3.27085574e-09  1.56550010e-07  5.68154732e-08  6.70000000e-01 
 6.80000000e-01  4.57135679e-01  4.57135679e-01  4.57135679e-01  3.24681240e-09  3.28085847e-09  4.57135679e-01  3.27085574e-09  1.56550006e-07  5.68155372e-08  6.80000000e-01 
 6.90000000e-01  4.57135685e-01  4.57135685e-01  4.57135685e-01  3.24681240e-09  3.28085846e-09  4.57135685e-01  3.27085574e-09  1.56550005e-07  5.68153595e-08  6.90000000e-01 
 7.00000000e-01  4.57135665e-01  4.57135665e-01  4.57135665e-01  3.24681240e-09  3.28085846e-09  4.57135665e-01  3.27085574e-09  1.56549981e-07  5.68154235e-08  7.00000000e-01 
 7.10000000e-01  4.57135702e-01  4.57135702e-01  4.57135702e-01  3.24681240e-09  3.28085846e-09  4.57135702e-01  3.27085574e-09  1.56550015e-07  5.68152174e-08  7.10000000e-01 
 7.20000000e-01  4.57135684e-01  4.57135684e-01  4.57135684e-01  3.24681240e-09  3.28085846e-09  4.57135684e-01  3.27085574e-09  1.56550003e-07  5.68153027e-08  7.20000000e-01 
 7.30000000e-01  4.57135677e-01  4.57135677e-01  4.57135677e-01  3.24681240e-09  3.28085846e-09  4.57135677e-01  3.27085574e-09  1.56549997e-07  5.68151677e-08  7.30000000e-01 
 7.40000000e-01  4.57135721e-01  4.57135721e-01  4.57135721e-01  3.24681240e-09  3.28085847e-09  4.57135721e-01  3.27085574e-09  1.56550057e-07  5.68151250e-08  7.40000000e-01 
 7.50000000e-01  4.57135692e-01  4.57135692e-01  4.57135692e-01  3.24681240e-09  3.28085846e-09  4.57135692e-01  3.27085574e-09  1.56550021e-07  5.68150753e-08  7.50000000e-01 
 7.60000000e-01  4.57135700e-01  4.57135700e-01  4.57135700e-01  3.24681240e-09  3.28085846e-09  4.57135700e-01  3.27085574e-09  1.56550025e-07  5.68150114e-08  7.60000000e-01 
 7.70000000e-01  4.57135678e-01  4.57135678e-01  4.57135678e-01  3.24681240e-09  3.28085846e-09  4.57135678e-01  3.27085574e-09  1.56549991e-07  5.68149048e-08  7.70000000e-01 
 7.80000000e-01  4.57135670e-01  4.57135670e-01  4.57135670e-01  3.24681240e-09  3.28085846e-09  4.57135671e-01  3.27085574e-09  1.56549983e-07  5.68148266e-08  7.80000000e-01 
 7.90000000e-01  4.57135686e-01  4.57135686e-01  4.57135686e-01  3.24681240e-09  3.28085846e-09  4.57135686e-01  3.27085574e-09  1.56550000e-07  5.68148550e-08  7.90000000e-01 
 8.00000000e-01  4.57135693e-01  4.57135693e-01  4.57135693e-01  3.24681240e-09  3.28085846e-09  4.57135694e-01  3.27085574e-09  1.56550006e-07  5.68147911e-08  8.00000000e-01 
 8.10000000e-01  4.57135692e-01  4.57135692e-01  4.57135692e-01  3.24681240e-09  3.28085846e-09  4.57135692e-01  3.27085574e-09  1.56550011e-07  5.68147058e-08  8.10000000e-01 
 8.20000000e-01  4.57135673e-01  4.57135673e-01  4.57135673e-01  3.24681240e-09  3.28085846e-09  4.57135673e-01  3.27085574e-09  1.56549984e-07  5.68146064e-08  8.20000000e-01 
 8.30000000e-01  4.57135674e-01  4.57135674e-01  4.57135674e-01  3.24681240e-09  3.28085846e-09  4.57135675e-01  3.27085574e-09  1.56549984e-07  5.68145424e-08  8.30000000e-01 
 8.40000000e-01  4.57135711e-01  4.57135711e-01  4.57135711e-01  3.24681240e-09  3.28085846e-09  4.57135711e-01  3.27085574e-09  1.56550035e-07  5.68145921e-08  8.40000000e-01 
 8.50000000e-01  4.57135713e-01  4.57135713e-01  4.57135713e-01  3.24681240e-09  3.28085846e-09  4.57135713e-01  3.27085574e-09  1.56550044e-07  5.68145353e-08  8.50000000e-01 
 8.60000000e-01  4.57135685e-01  4.57135685e-01  4.57135685e-01  3.24681240e-09  3.28085858e-09  4.57135685e-01  3.27085574e-09  1.56550005e-07  5.68144216e-08  8.60000000e-01 
 8.70000000e-01  4.57135689e-01  4.57135689e-01  4.57135689e-01  3.24681240e-09  3.28085846e-09  4.57135689e-01  3.27085574e-09  1.56550014e-07  5.68143648e-08  8.70000000e-01 
 8.80000000e-01  4.57135687e-01  4.57135687e-01  4.57135687e-01  3.24681240e-09  3.28085847e-09  4.57135687e-01  3.27085574e-09  1.56550017e-07  5.68143292e-08  8.80000000e-01 
 8.90000000e-01  4.57135675e-01  4.57135675e-01  4.57135675e-01  3.24681240e-09  3.28085846e-09  4.57135675e-01  3.27085574e-09  1.56549985e-07  5.68142084e-08  8.90000000e-01 
 9.00000000e-01  4.57135690e-01  4.57135690e-01  4.57135690e-01  3.24681240e-09  3.28085846e-09  4.57135690e-01  3.27085574e-09  1.56550012e-07  5.68141019e-08  9.00000000e-01 
 9.10000000e-01  4.57135680e-01  4.57135680e-01  4.57135680e-01  3.24681240e-09  3.28085846e-09  4.57135680e-01  3.27085574e-09  1.56549995e-07  5.68140521e-08  9.10000000e-01 
 9.20000000e-01  4.57135699e-01  4.57135699e-01  4.57135699e-01  3.24681240e-09  3.28085846e-09  4.57135699e-01  3.27085574e-09  1.56550018e-07  5.68139242e-08  9.20000000e-01 
 9.30000000e-01  4.57135647e-01  4.57135647e-01  4.57135647e-01  3.24681240e-09  3.28085846e-09  4.57135647e-01  3.27085574e-09  1.56549956e-07  5.68139455e-08  9.30000000e-01 
 9.40000000e-01  4.57135661e-01  4.57135661e-01  4.57135661e-01  3.24681240e-09  3.28085846e-09  4.57135661e-01  3.27085574e-09  1.56549959e-07  5.68138887e-08  9.40000000e-01 
 9.50000000e-01  4.57135695e-01  4.57135695e-01  4.57135695e-01  3.24681240e-09  3.28085858e-09  4.57135696e-01  3.27085574e-09  1.56550015e-07  5.68137324e-08  9.50000000e-01 
 9.60000000e-01  4.57135659e-01  4.57135659e-01  4.57135659e-01  3.24681240e-09  3.28085846e-09  4.57135659e-01  3.27085574e-09  1.56549957e-07  5.68137750e-08  9.60000000e-01 
 9.70000000e-01  4.57135696e-01  4.57135696e-01  4.57135696e-01  3.24681229e-09  3.28085847e-09  4.57135696e-01  3.27085574e-09  1.56550022e-07  5.68138105e-08  9.70000000e-01 
 9.80000000e-01  4.57135709e-01  4.57135709e-01  4.57135709e-01  3.24681240e-09  3.28085846e-09  4.57135709e-01  3.27085574e-09  1.56550043e-07  5.68137182e-08  9.80000000e-01 
 9.90000000e-01  4.57135683e-01  4.57135683e-01  4.57135684e-01  3.24681240e-09  3.28085858e-09  4.57135684e-01  3.27085574e-09  1.56549999e-07  5.68135832e-08  9.90000000e-01 
 1.00000000e+00  4.57135685e-01  4.57135685e-01  4.57135685e-01  3.24681240e-09  3.28085857e-09  4.57135685e-01  3.27085574e-09  1.56550005e-07  5.68135832e-08  1.00000000e+00 
 1.01000000e+00  4.57135682e-01  4.57135682e-01  4.57135682e-01  3.24681240e-09  3.28085846e-09  4.57135682e-01  3.27085574e-09  1.56550003e-07  5.68133629e-08  1.01000000e+00 
 1.02000000e+00  4.57135719e-01  4.57135719e-01  4.57135719e-01  3.24681240e-09  3.28085847e-09  4.57135719e-01  3.27085574e-09  1.56550052e-07  5.68134695e-08  1.02000000e+00 
 1.03000000e+00  4.57135711e-01  4.57135711e-01  4.57135711e-01  3.24681240e-09  3.28085858e-09  4.57135711e-01  3.27085574e-09  1.56550048e-07  5.68132279e-08  1.03000000e+00 
 1.04000000e+00  4.57135685e-01  4.57135685e-01  4.57135685e-01  3.24681240e-09  3.28085846e-09  4.57135685e-01  3.27085574e-09  1.56550011e-07  5.68131000e-08  1.04000000e+00 
 1.05000000e+00  4.57135705e-01  4.57135705e-01  4.57135705e-01  3.24681240e-09  3.28085847e-09  4.57135705e-01  3.27085574e-09  1.56550011e-07  5.68131284e-08  1.05000000e+00 
 1.06000000e+00  4.57135693e-01  4.57135693e-01  4.57135693e-01  3.24681240e-09  3.28085846e-09  4.57135693e-01  3.27085574e-09  1.56550008e-07  5.68130147e-08  1.06000000e+00 
 1.07000000e+00  4.57135698e-01  4.57135698e-01  4.57135698e-01  3.24681240e-09  3.28085858e-09  4.57135698e-01  3.27085574e-09  1.56550033e-07  5.68130361e-08  1.07000000e+00 
 1.08000000e+00  4.57135693e-01  4.57135693e-01  4.57135693e-01  3.24681240e-09  3.28085857e-09  4.57135693e-01  3.27085574e-09  1.56550019e-07  5.68129579e-08  1.08000000e+00 
 1.09000000e+00  4.57135697e-01  4.57135697e-01  4.57135697e-01  3.24681240e-09  3.28085846e-09  4.57135697e-01  3.27085574e-09  1.56550024e-07  5.68129224e-08  1.09000000e+00 
 1.10000000e+00  4.57135700e-01  4.57135700e-01  4.57135700e-01  3.24681240e-09  3.28085847e-09  4.57135700e-01  3.27085574e-09  1.56550026e-07  5.68129224e-08  1.10000000e+00 
