 v-sweep         v(b0)           v(b1)           v(b2)           v(b3)           v(b4)           v(b5)           v(b6)           i(vbias)        i(viout)        v(vout)        
 0.00000000e+00  4.56744318e-01  4.56744318e-01  4.56744318e-01  4.56744318e-01  4.56744318e-01  4.56744318e-01  3.27060425e-09  1.56171412e-07  9.12971522e-08  0.00000000e+00 
 1.00000000e-02  4.56744302e-01  4.56744302e-01  4.56744302e-01  4.56744302e-01  4.56744302e-01  4.56744302e-01  3.27060424e-09  1.56171399e-07  9.12967721e-08  1.00000000e-02 
 2.00000000e-02  4.56744296e-01  4.56744296e-01  4.56744296e-01  4.56744296e-01  4.56744296e-01  4.56744296e-01  3.27060424e-09  1.56171386e-07  9.12963747e-08  2.00000000e-02 
 3.00000000e-02  4.56744311e-01  4.56744311e-01  4.56744311e-01  4.56744311e-01  4.56744311e-01  4.56744311e-01  3.27060424e-09  1.56171426e-07  9.12960487e-08  3.00000000e-02 
 4.00000000e-02  4.56744341e-01  4.56744341e-01  4.56744341e-01  4.56744341e-01  4.56744341e-01  4.56744341e-01  3.27060424e-09  1.56171447e-07  9.12957567e-08  4.00000000e-02 
 5.00000000e-02  4.56744345e-01  4.56744345e-01  4.56744345e-01  4.56744345e-01  4.56744345e-01  4.56744345e-01  3.27060435e-09  1.56171459e-07  9.12953317e-08  5.00000000e-02 
 6.00000000e-02  4.56744315e-01  4.56744315e-01  4.56744315e-01  4.56744315e-01  4.56744315e-01  4.56744315e-01  3.27060435e-09  1.56171412e-07  9.12949338e-08  6.00000000e-02 
 7.00000000e-02  4.56744328e-01  4.56744327e-01  4.56744328e-01  4.56744328e-01  4.56744328e-01  4.56744328e-01  3.27060435e-09  1.56171443e-07  9.12947424e-08  7.00000000e-02 
 8.00000000e-02  4.56744328e-01  4.56744328e-01  4.56744328e-01  4.56744328e-01  4.56744328e-01  4.56744328e-01  3.27060435e-09  1.56171434e-07  9.12942300e-08  8.00000000e-02 
 9.00000000e-02  4.56744313e-01  4.56744313e-01  4.56744313e-01  4.56744313e-01  4.56744313e-01  4.56744313e-01  3.27060424e-09  1.56171421e-07  9.12940932e-08  9.00000000e-02 
 1.00000000e-01  4.56744308e-01  4.56744308e-01  4.56744308e-01  4.56744308e-01  4.56744308e-01  4.56744308e-01  3.27060435e-09  1.56171415e-07  9.12938765e-08  1.00000000e-01 
 1.10000000e-01  4.56744325e-01  4.56744325e-01  4.56744325e-01  4.56744325e-01  4.56744325e-01  4.56744325e-01  3.27060424e-09  1.56171416e-07  9.12935478e-08  1.10000000e-01 
 1.20000000e-01  4.56744336e-01  4.56744336e-01  4.56744336e-01  4.56744336e-01  4.56744336e-01  4.56744336e-01  3.27060435e-09  1.56171460e-07  9.12934128e-08  1.20000000e-01 
 1.30000000e-01  4.56744328e-01  4.56744328e-01  4.56744328e-01  4.56744328e-01  4.56744328e-01  4.56744328e-01  3.27060424e-09  1.56171435e-07  9.12930727e-08  1.30000000e-01 
 1.40000000e-01  4.56744305e-01  4.56744305e-01  4.56744305e-01  4.56744305e-01  4.56744305e-01  4.56744305e-01  3.27060424e-09  1.56171402e-07  9.12927449e-08  1.40000000e-01 
 1.50000000e-01  4.56744340e-01  4.56744340e-01  4.56744340e-01  4.56744340e-01  4.56744340e-01  4.56744340e-01  3.27060435e-09  1.56171457e-07  9.12927334e-08  1.50000000e-01 
 1.60000000e-01  4.56744357e-01  4.56744357e-01  4.56744358e-01  4.56744358e-01  4.56744358e-01  4.56744357e-01  3.27060424e-09  1.56171463e-07  9.12925699e-08  1.60000000e-01 
 1.70000000e-01  4.56744341e-01  4.56744340e-01  4.56744341e-01  4.56744341e-01  4.56744341e-01  4.56744341e-01  3.27060424e-09  1.56171445e-07  9.12924207e-08  1.70000000e-01 
 1.80000000e-01  4.56744335e-01  4.56744335e-01  4.56744335e-01  4.56744335e-01  4.56744335e-01  4.56744335e-01  3.27060435e-09  1.56171449e-07  9.12921987e-08  1.80000000e-01 
 1.90000000e-01  4.56744329e-01  4.56744329e-01  4.56744329e-01  4.56744329e-01  4.56744329e-01  4.56744329e-01  3.27060435e-09  1.56171427e-07  9.12918274e-08  1.90000000e-01 
 2.00000000e-01  4.56744296e-01  4.56744296e-01  4.56744296e-01  4.56744296e-01  4.56744296e-01  4.56744296e-01  3.27060424e-09  1.56171385e-07  9.12917386e-08  2.00000000e-01 
 2.10000000e-01  4.56744287e-01  4.56744287e-01  4.56744287e-01  4.56744287e-01  4.56744287e-01  4.56744287e-01  3.27060435e-09  1.56171373e-07  9.12915965e-08  2.10000000e-01 
 2.20000000e-01  4.56744298e-01  4.56744298e-01  4.56744298e-01  4.56744298e-01  4.56744298e-01  4.56744298e-01  3.27060435e-09  1.56171406e-07  9.12912785e-08  2.20000000e-01 
 2.30000000e-01  4.56744294e-01  4.56744294e-01  4.56744294e-01  4.56744294e-01  4.56744294e-01  4.56744294e-01  3.27060435e-09  1.56171391e-07  9.12911364e-08  2.30000000e-01 
 2.40000000e-01  4.56744307e-01  4.56744307e-01  4.56744307e-01  4.56744307e-01  4.56744307e-01  4.56744307e-01  3.27060424e-09  1.56171404e-07  9.12910529e-08  2.40000000e-01 
 2.50000000e-01  4.56744341e-01  4.56744341e-01  4.56744341e-01  4.56744341e-01  4.56744341e-01  4.56744341e-01  3.27060424e-09  1.56171466e-07  9.12910867e-08  2.50000000e-01 
 2.60000000e-01  4.56744323e-01  4.56744323e-01  4.56744323e-01  4.56744323e-01  4.56744323e-01  4.56744323e-01  3.27060424e-09  1.56171419e-07  9.12909517e-08  2.60000000e-01 
 2.70000000e-01  4.56744306e-01  4.56744306e-01  4.56744306e-01  4.56744306e-01  4.56744306e-01  4.56744306e-01  3.27060424e-09  1.56171419e-07  9.12906835e-08  2.70000000e-01 
 2.80000000e-01  4.56744339e-01  4.56744339e-01  4.56744339e-01  4.56744339e-01  4.56744340e-01  4.56744339e-01  3.27060435e-09  1.56171446e-07  9.12905911e-08  2.80000000e-01 
 2.90000000e-01  4.56744337e-01  4.56744337e-01  4.56744337e-01  4.56744337e-01  4.56744337e-01  4.56744337e-01  3.27060435e-09  1.56171440e-07  9.12904632e-08  2.90000000e-01 
 3.00000000e-01  4.56744316e-01  4.56744316e-01  4.56744316e-01  4.56744316e-01  4.56744316e-01  4.56744316e-01  3.27060435e-09  1.56171413e-07  9.12903246e-08  3.00000000e-01 
 3.10000000e-01  4.56744313e-01  4.56744313e-01  4.56744313e-01  4.56744313e-01  4.56744313e-01  4.56744313e-01  3.27060435e-09  1.56171424e-07  9.12901612e-08  3.10000000e-01 
 3.20000000e-01  4.56744320e-01  4.56744320e-01  4.56744320e-01  4.56744320e-01  4.56744320e-01  4.56744320e-01  3.27060424e-09  1.56171419e-07  9.12901683e-08  3.20000000e-01 
 3.30000000e-01  4.56744311e-01  4.56744311e-01  4.56744311e-01  4.56744311e-01  4.56744311e-01  4.56744311e-01  3.27060424e-09  1.56171408e-07  9.12900404e-08  3.30000000e-01 
 3.40000000e-01  4.56744317e-01  4.56744317e-01  4.56744318e-01  4.56744317e-01  4.56744318e-01  4.56744317e-01  3.27060424e-09  1.56171422e-07  9.12899267e-08  3.40000000e-01 
 3.50000000e-01  4.56744322e-01  4.56744322e-01  4.56744322e-01  4.56744322e-01  4.56744322e-01  4.56744322e-01  3.27060435e-09  1.56171432e-07  9.12897207e-08  3.50000000e-01 
 3.60000000e-01  4.56744326e-01  4.56744326e-01  4.56744326e-01  4.56744326e-01  4.56744326e-01  4.56744326e-01  3.27060424e-09  1.56171425e-07  9.12897171e-08  3.60000000e-01 
 3.70000000e-01  4.56744314e-01  4.56744314e-01  4.56744314e-01  4.56744314e-01  4.56744314e-01  4.56744314e-01  3.27060424e-09  1.56171420e-07  9.12895324e-08  3.70000000e-01 
 3.80000000e-01  4.56744325e-01  4.56744325e-01  4.56744325e-01  4.56744325e-01  4.56744325e-01  4.56744325e-01  3.27060435e-09  1.56171432e-07  9.12895111e-08  3.80000000e-01 
 3.90000000e-01  4.56744333e-01  4.56744333e-01  4.56744333e-01  4.56744333e-01  4.56744333e-01  4.56744333e-01  3.27060424e-09  1.56171441e-07  9.12894613e-08  3.90000000e-01 
 4.00000000e-01  4.56744312e-01  4.56744312e-01  4.56744312e-01  4.56744312e-01  4.56744312e-01  4.56744312e-01  3.27060424e-09  1.56171418e-07  9.12893192e-08  4.00000000e-01 
 4.10000000e-01  4.56744321e-01  4.56744321e-01  4.56744321e-01  4.56744321e-01  4.56744321e-01  4.56744321e-01  3.27060424e-09  1.56171424e-07  9.12893228e-08  4.10000000e-01 
 4.20000000e-01  4.56744314e-01  4.56744314e-01  4.56744314e-01  4.56744314e-01  4.56744314e-01  4.56744314e-01  3.27060435e-09  1.56171416e-07  9.12891416e-08  4.20000000e-01 
 4.30000000e-01  4.56744323e-01  4.56744323e-01  4.56744323e-01  4.56744323e-01  4.56744323e-01  4.56744323e-01  3.27060424e-09  1.56171441e-07  9.12890030e-08  4.30000000e-01 
 4.40000000e-01  4.56744302e-01  4.56744302e-01  4.56744302e-01  4.56744302e-01  4.56744302e-01  4.56744302e-01  3.27060424e-09  1.56171400e-07  9.12889178e-08  4.40000000e-01 
 4.50000000e-01  4.56744345e-01  4.56744344e-01  4.56744345e-01  4.56744345e-01  4.56744345e-01  4.56744345e-01  3.27060435e-09  1.56171465e-07  9.12889675e-08  4.50000000e-01 
 4.60000000e-01  4.56744330e-01  4.56744329e-01  4.56744330e-01  4.56744330e-01  4.56744330e-01  4.56744330e-01  3.27060424e-09  1.56171426e-07  9.12889142e-08  4.60000000e-01 
 4.70000000e-01  4.56744320e-01  4.56744319e-01  4.56744320e-01  4.56744320e-01  4.56744320e-01  4.56744320e-01  3.27060424e-09  1.56171421e-07  9.12888325e-08  4.70000000e-01 
 4.80000000e-01  4.56744300e-01  4.56744300e-01  4.56744300e-01  4.56744300e-01  4.56744300e-01  4.56744300e-01  3.27060424e-09  1.56171393e-07  9.12886478e-08  4.80000000e-01 
 4.90000000e-01  4.56744319e-01  4.56744319e-01  4.56744319e-01  4.56744319e-01  4.56744319e-01  4.56744319e-01  3.27060435e-09  1.56171417e-07  9.12885376e-08  4.90000000e-01 
 5.00000000e-01  4.56744328e-01  4.56744328e-01  4.56744328e-01  4.56744328e-01  4.56744328e-01  4.56744328e-01  3.27060424e-09  1.56171435e-07  9.12884666e-08  5.00000000e-01 
 5.10000000e-01  4.56744304e-01  4.56744304e-01  4.56744304e-01  4.56744304e-01  4.56744304e-01  4.56744304e-01  3.27060435e-09  1.56171398e-07  9.12883706e-08  5.10000000e-01 
 5.20000000e-01  4.56744288e-01  4.56744288e-01  4.56744288e-01  4.56744288e-01  4.56744288e-01  4.56744288e-01  3.27060435e-09  1.56171380e-07  9.12882960e-08  5.20000000e-01 
 5.30000000e-01  4.56744314e-01  4.56744314e-01  4.56744314e-01  4.56744314e-01  4.56744314e-01  4.56744314e-01  3.27060424e-09  1.56171399e-07  9.12882037e-08  5.30000000e-01 
 5.40000000e-01  4.56744321e-01  4.56744321e-01  4.56744322e-01  4.56744321e-01  4.56744322e-01  4.56744321e-01  3.27060424e-09  1.56171435e-07  9.12882392e-08  5.40000000e-01 
 5.50000000e-01  4.56744311e-01  4.56744311e-01  4.56744311e-01  4.56744311e-01  4.56744311e-01  4.56744311e-01  3.27060435e-09  1.56171413e-07  9.12880331e-08  5.50000000e-01 
 5.60000000e-01  4.56744317e-01  4.56744316e-01  4.56744317e-01  4.56744317e-01  4.56744317e-01  4.56744317e-01  3.27060424e-09  1.56171430e-07  9.12880935e-08  5.60000000e-01 
 5.70000000e-01  4.56744332e-01  4.56744332e-01  4.56744332e-01  4.56744332e-01  4.56744332e-01  4.56744332e-01  3.27060424e-09  1.56171448e-07  9.12879798e-08  5.70000000e-01 
 5.80000000e-01  4.56744334e-01  4.56744334e-01  4.56744334e-01  4.56744334e-01  4.56744334e-01  4.56744334e-01  3.27060424e-09  1.56171431e-07  9.12878875e-08  5.80000000e-01 
 5.90000000e-01  4.56744319e-01  4.56744319e-01  4.56744319e-01  4.56744319e-01  4.56744319e-01  4.56744319e-01  3.27060424e-09  1.56171432e-07  9.12877951e-08  5.90000000e-01 
 6.00000000e-01  4.56744342e-01  4.56744341e-01  4.56744342e-01  4.56744342e-01  4.56744342e-01  4.56744342e-01  3.27060435e-09  1.56171443e-07  9.12877951e-08  6.00000000e-01 
 6.10000000e-01  4.56744323e-01  4.56744323e-01  4.56744323e-01  4.56744323e-01  4.56744323e-01  4.56744323e-01  3.27060424e-09  1.56171404e-07  9.12876175e-08  6.10000000e-01 
 6.20000000e-01  4.56744344e-01  4.56744344e-01  4.56744344e-01  4.56744344e-01  4.56744344e-01  4.56744344e-01  3.27060435e-09  1.56171463e-07  9.12876530e-08  6.20000000e-01 
 6.30000000e-01  4.56744316e-01  4.56744316e-01  4.56744316e-01  4.56744316e-01  4.56744316e-01  4.56744316e-01  3.27060424e-09  1.56171406e-07  9.12876530e-08  6.30000000e-01 
 6.40000000e-01  4.56744327e-01  4.56744327e-01  4.56744327e-01  4.56744327e-01  4.56744327e-01  4.56744327e-01  3.27060424e-09  1.56171425e-07  9.12874754e-08  6.40000000e-01 
 6.50000000e-01  4.56744317e-01  4.56744316e-01  4.56744317e-01  4.56744317e-01  4.56744317e-01  4.56744317e-01  3.27060424e-09  1.56171424e-07  9.12873546e-08  6.50000000e-01 
 6.60000000e-01  4.56744319e-01  4.56744319e-01  4.56744319e-01  4.56744319e-01  4.56744319e-01  4.56744319e-01  3.27060424e-09  1.56171425e-07  9.12873048e-08  6.60000000e-01 
 6.70000000e-01  4.56744319e-01  4.56744319e-01  4.56744319e-01  4.56744319e-01  4.56744319e-01  4.56744319e-01  3.27060424e-09  1.56171427e-07  9.12872338e-08  6.70000000e-01 
 6.80000000e-01  4.56744304e-01  4.56744304e-01  4.56744304e-01  4.56744304e-01  4.56744304e-01  4.56744304e-01  3.27060435e-09  1.56171414e-07  9.12870846e-08  6.80000000e-01 
 6.90000000e-01  4.56744317e-01  4.56744317e-01  4.56744317e-01  4.56744317e-01  4.56744317e-01  4.56744317e-01  3.27060424e-09  1.56171422e-07  9.12870632e-08  6.90000000e-01 
 7.00000000e-01  4.56744308e-01  4.56744308e-01  4.56744308e-01  4.56744308e-01  4.56744308e-01  4.56744308e-01  3.27060424e-09  1.56171423e-07  9.12870988e-08  7.00000000e-01 
 7.10000000e-01  4.56744312e-01  4.56744312e-01  4.56744312e-01  4.56744312e-01  4.56744312e-01  4.56744312e-01  3.27060435e-09  1.56171426e-07  9.12869851e-08  7.10000000e-01 
 7.20000000e-01  4.56744328e-01  4.56744328e-01  4.56744328e-01  4.56744328e-01  4.56744328e-01  4.56744328e-01  3.27060424e-09  1.56171435e-07  9.12869282e-08  7.20000000e-01 
 7.30000000e-01  4.56744343e-01  4.56744343e-01  4.56744343e-01  4.56744343e-01  4.56744343e-01  4.56744343e-01  3.27060424e-09  1.56171449e-07  9.12868643e-08  7.30000000e-01 
 7.40000000e-01  4.56744326e-01  4.56744326e-01  4.56744326e-01  4.56744326e-01  4.56744326e-01  4.56744326e-01  3.27060435e-09  1.56171422e-07  9.12867790e-08  7.40000000e-01 
 7.50000000e-01  4.56744331e-01  4.56744331e-01  4.56744331e-01  4.56744331e-01  4.56744331e-01  4.56744331e-01  3.27060424e-09  1.56171448e-07  9.12866653e-08  7.50000000e-01 
 7.60000000e-01  4.56744310e-01  4.56744310e-01  4.56744310e-01  4.56744310e-01  4.56744310e-01  4.56744310e-01  3.27060424e-09  1.56171419e-07  9.12866440e-08  7.60000000e-01 
 7.70000000e-01  4.56744339e-01  4.56744339e-01  4.56744339e-01  4.56744339e-01  4.56744339e-01  4.56744339e-01  3.27060424e-09  1.56171456e-07  9.12865659e-08  7.70000000e-01 
 7.80000000e-01  4.56744329e-01  4.56744329e-01  4.56744329e-01  4.56744329e-01  4.56744329e-01  4.56744329e-01  3.27060424e-09  1.56171438e-07  9.12865019e-08  7.80000000e-01 
 7.90000000e-01  4.56744309e-01  4.56744309e-01  4.56744309e-01  4.56744309e-01  4.56744309e-01  4.56744309e-01  3.27060424e-09  1.56171416e-07  9.12863527e-08  7.90000000e-01 
 8.00000000e-01  4.56744300e-01  4.56744300e-01  4.56744300e-01  4.56744300e-01  4.56744300e-01  4.56744300e-01  3.27060424e-09  1.56171403e-07  9.12862319e-08  8.00000000e-01 
 8.10000000e-01  4.56744333e-01  4.56744333e-01  4.56744333e-01  4.56744333e-01  4.56744333e-01  4.56744333e-01  3.27060435e-09  1.56171452e-07  9.12862106e-08  8.10000000e-01 
 8.20000000e-01  4.56744327e-01  4.56744327e-01  4.56744327e-01  4.56744327e-01  4.56744327e-01  4.56744327e-01  3.27060424e-09  1.56171425e-07  9.12861324e-08  8.20000000e-01 
 8.30000000e-01  4.56744335e-01  4.56744335e-01  4.56744335e-01  4.56744335e-01  4.56744335e-01  4.56744335e-01  3.27060424e-09  1.56171438e-07  9.12861324e-08  8.30000000e-01 
 8.40000000e-01  4.56744327e-01  4.56744327e-01  4.56744327e-01  4.56744327e-01  4.56744327e-01  4.56744327e-01  3.27060435e-09  1.56171421e-07  9.12860543e-08  8.40000000e-01 
 8.50000000e-01  4.56744327e-01  4.56744327e-01  4.56744327e-01  4.56744327e-01  4.56744327e-01  4.56744327e-01  3.27060424e-09  1.56171458e-07  9.12860258e-08  8.50000000e-01 
 8.60000000e-01  4.56744297e-01  4.56744297e-01  4.56744297e-01  4.56744297e-01  4.56744297e-01  4.56744297e-01  3.27060424e-09  1.56171395e-07  9.12858127e-08  8.60000000e-01 
 8.70000000e-01  4.56744332e-01  4.56744332e-01  4.56744332e-01  4.56744332e-01  4.56744332e-01  4.56744332e-01  3.27060435e-09  1.56171435e-07  9.12859051e-08  8.70000000e-01 
 8.80000000e-01  4.56744328e-01  4.56744327e-01  4.56744328e-01  4.56744328e-01  4.56744328e-01  4.56744328e-01  3.27060424e-09  1.56171419e-07  9.12856635e-08  8.80000000e-01 
 8.90000000e-01  4.56744326e-01  4.56744326e-01  4.56744326e-01  4.56744326e-01  4.56744326e-01  4.56744326e-01  3.27060424e-09  1.56171436e-07  9.12857061e-08  8.90000000e-01 
 9.00000000e-01  4.56744322e-01  4.56744322e-01  4.56744322e-01  4.56744322e-01  4.56744322e-01  4.56744322e-01  3.27060424e-09  1.56171433e-07  9.12856137e-08  9.00000000e-01 
 9.10000000e-01  4.56744300e-01  4.56744300e-01  4.56744300e-01  4.56744300e-01  4.56744300e-01  4.56744300e-01  3.27060424e-09  1.56171399e-07  9.12855498e-08  9.10000000e-01 
 9.20000000e-01  4.56744341e-01  4.56744341e-01  4.56744341e-01  4.56744341e-01  4.56744341e-01  4.56744341e-01  3.27060435e-09  1.56171454e-07  9.12854929e-08  9.20000000e-01 
 9.30000000e-01  4.56744362e-01  4.56744362e-01  4.56744362e-01  4.56744362e-01  4.56744362e-01  4.56744362e-01  3.27060435e-09  1.56171477e-07  9.12853366e-08  9.30000000e-01 
 9.40000000e-01  4.56744317e-01  4.56744317e-01  4.56744317e-01  4.56744317e-01  4.56744317e-01  4.56744317e-01  3.27060435e-09  1.56171407e-07  9.12852514e-08  9.40000000e-01 
 9.50000000e-01  4.56744306e-01  4.56744306e-01  4.56744306e-01  4.56744306e-01  4.56744306e-01  4.56744306e-01  3.27060424e-09  1.56171399e-07  9.12851092e-08  9.50000000e-01 
 9.60000000e-01  4.56744309e-01  4.56744309e-01  4.56744309e-01  4.56744309e-01  4.56744309e-01  4.56744309e-01  3.27060435e-09  1.56171394e-07  9.12851448e-08  9.60000000e-01 
 9.70000000e-01  4.56744311e-01  4.56744311e-01  4.56744311e-01  4.56744311e-01  4.56744311e-01  4.56744311e-01  3.27060424e-09  1.56171422e-07  9.12849885e-08  9.70000000e-01 
 9.80000000e-01  4.56744319e-01  4.56744319e-01  4.56744319e-01  4.56744319e-01  4.56744319e-01  4.56744319e-01  3.27060424e-09  1.56171424e-07  9.12849956e-08  9.80000000e-01 
 9.90000000e-01  4.56744323e-01  4.56744323e-01  4.56744323e-01  4.56744323e-01  4.56744323e-01  4.56744323e-01  3.27060424e-09  1.56171424e-07  9.12848321e-08  9.90000000e-01 
 1.00000000e+00  4.56744308e-01  4.56744308e-01  4.56744308e-01  4.56744308e-01  4.56744308e-01  4.56744308e-01  3.27060424e-09  1.56171407e-07  9.12848535e-08  1.00000000e+00 
 1.01000000e+00  4.56744348e-01  4.56744347e-01  4.56744348e-01  4.56744348e-01  4.56744348e-01  4.56744348e-01  3.27060435e-09  1.56171468e-07  9.12847540e-08  1.01000000e+00 
 1.02000000e+00  4.56744320e-01  4.56744320e-01  4.56744321e-01  4.56744321e-01  4.56744321e-01  4.56744320e-01  3.27060424e-09  1.56171411e-07  9.12845692e-08  1.02000000e+00 
 1.03000000e+00  4.56744318e-01  4.56744318e-01  4.56744318e-01  4.56744318e-01  4.56744318e-01  4.56744318e-01  3.27060424e-09  1.56171422e-07  9.12845621e-08  1.03000000e+00 
 1.04000000e+00  4.56744313e-01  4.56744313e-01  4.56744313e-01  4.56744313e-01  4.56744314e-01  4.56744313e-01  3.27060435e-09  1.56171417e-07  9.12844058e-08  1.04000000e+00 
 1.05000000e+00  4.56744295e-01  4.56744295e-01  4.56744296e-01  4.56744296e-01  4.56744296e-01  4.56744295e-01  3.27060435e-09  1.56171386e-07  9.12843348e-08  1.05000000e+00 
 1.06000000e+00  4.56744302e-01  4.56744302e-01  4.56744302e-01  4.56744302e-01  4.56744302e-01  4.56744302e-01  3.27060424e-09  1.56171387e-07  9.12843134e-08  1.06000000e+00 
 1.07000000e+00  4.56744324e-01  4.56744324e-01  4.56744324e-01  4.56744324e-01  4.56744324e-01  4.56744324e-01  3.27060424e-09  1.56171441e-07  9.12841926e-08  1.07000000e+00 
 1.08000000e+00  4.56744338e-01  4.56744338e-01  4.56744338e-01  4.56744338e-01  4.56744339e-01  4.56744338e-01  3.27060435e-09  1.56171458e-07  9.12841784e-08  1.08000000e+00 
 1.09000000e+00  4.56744302e-01  4.56744302e-01  4.56744302e-01  4.56744302e-01  4.56744302e-01  4.56744302e-01  3.27060424e-09  1.56171389e-07  9.12839369e-08  1.09000000e+00 
 1.10000000e+00  4.56744328e-01  4.56744328e-01  4.56744328e-01  4.56744328e-01  4.56744328e-01  4.56744328e-01  3.27060424e-09  1.56171437e-07  9.12839440e-08  1.10000000e+00 
