 v-sweep         v(b0)           v(b1)           v(b2)           v(b3)           v(b4)           v(b5)           v(b6)           i(vbias)        i(viout)        v(vout)        
 0.00000000e+00  4.58869232e-01  4.58869232e-01  4.58869232e-01  3.26418617e-09  3.25524425e-09  4.58869232e-01  3.28531197e-09  1.57629222e-07  6.27640890e-08  0.00000000e+00 
 1.00000000e-02  4.58869281e-01  4.58869281e-01  4.58869281e-01  3.26418616e-09  3.25524423e-09  4.58869281e-01  3.28531195e-09  1.57629294e-07  6.27638187e-08  1.00000000e-02 
 2.00000000e-02  4.58869267e-01  4.58869267e-01  4.58869267e-01  3.26418616e-09  3.25524423e-09  4.58869267e-01  3.28531207e-09  1.57629296e-07  6.27633188e-08  2.00000000e-02 
 3.00000000e-02  4.58869258e-01  4.58869258e-01  4.58869258e-01  3.26418627e-09  3.25524423e-09  4.58869258e-01  3.28531207e-09  1.57629260e-07  6.27629675e-08  3.00000000e-02 
 4.00000000e-02  4.58869240e-01  4.58869240e-01  4.58869240e-01  3.26418627e-09  3.25524423e-09  4.58869240e-01  3.28531207e-09  1.57629229e-07  6.27626515e-08  4.00000000e-02 
 5.00000000e-02  4.58869249e-01  4.58869249e-01  4.58869249e-01  3.26418627e-09  3.25524423e-09  4.58869249e-01  3.28531207e-09  1.57629252e-07  6.27622585e-08  5.00000000e-02 
 6.00000000e-02  4.58869255e-01  4.58869255e-01  4.58869255e-01  3.26418627e-09  3.25524423e-09  4.58869255e-01  3.28531195e-09  1.57629251e-07  6.27619956e-08  6.00000000e-02 
 7.00000000e-02  4.58869264e-01  4.58869264e-01  4.58869264e-01  3.26418616e-09  3.25524423e-09  4.58869264e-01  3.28531195e-09  1.57629264e-07  6.27616399e-08  7.00000000e-02 
 8.00000000e-02  4.58869278e-01  4.58869278e-01  4.58869278e-01  3.26418627e-09  3.25524423e-09  4.58869278e-01  3.28531195e-09  1.57629292e-07  6.27613268e-08  8.00000000e-02 
 9.00000000e-02  4.58869253e-01  4.58869253e-01  4.58869253e-01  3.26418627e-09  3.25524423e-09  4.58869253e-01  3.28531207e-09  1.57629259e-07  6.27610603e-08  9.00000000e-02 
 1.00000000e-01  4.58869263e-01  4.58869263e-01  4.58869263e-01  3.26418616e-09  3.25524423e-09  4.58869263e-01  3.28531207e-09  1.57629272e-07  6.27607957e-08  1.00000000e-01 
 1.10000000e-01  4.58869267e-01  4.58869267e-01  4.58869267e-01  3.26418616e-09  3.25524423e-09  4.58869267e-01  3.28531207e-09  1.57629284e-07  6.27605523e-08  1.10000000e-01 
 1.20000000e-01  4.58869253e-01  4.58869253e-01  4.58869253e-01  3.26418627e-09  3.25524423e-09  4.58869253e-01  3.28531207e-09  1.57629245e-07  6.27602805e-08  1.20000000e-01 
 1.30000000e-01  4.58869258e-01  4.58869258e-01  4.58869258e-01  3.26418627e-09  3.25524423e-09  4.58869258e-01  3.28531207e-09  1.57629251e-07  6.27601349e-08  1.30000000e-01 
 1.40000000e-01  4.58869263e-01  4.58869263e-01  4.58869263e-01  3.26418627e-09  3.25524423e-09  4.58869263e-01  3.28531195e-09  1.57629268e-07  6.27599093e-08  1.40000000e-01 
 1.50000000e-01  4.58869266e-01  4.58869266e-01  4.58869266e-01  3.26418627e-09  3.25524423e-09  4.58869266e-01  3.28531195e-09  1.57629259e-07  6.27596570e-08  1.50000000e-01 
 1.60000000e-01  4.58869245e-01  4.58869245e-01  4.58869245e-01  3.26418616e-09  3.25524423e-09  4.58869245e-01  3.28531207e-09  1.57629243e-07  6.27595451e-08  1.60000000e-01 
 1.70000000e-01  4.58869238e-01  4.58869238e-01  4.58869238e-01  3.26418627e-09  3.25524423e-09  4.58869238e-01  3.28531195e-09  1.57629224e-07  6.27591934e-08  1.70000000e-01 
 1.80000000e-01  4.58869255e-01  4.58869255e-01  4.58869255e-01  3.26418627e-09  3.25524423e-09  4.58869255e-01  3.28531207e-09  1.57629260e-07  6.27590477e-08  1.80000000e-01 
 1.90000000e-01  4.58869222e-01  4.58869222e-01  4.58869222e-01  3.26418627e-09  3.25524423e-09  4.58869222e-01  3.28531195e-09  1.57629208e-07  6.27589127e-08  1.90000000e-01 
 2.00000000e-01  4.58869246e-01  4.58869246e-01  4.58869246e-01  3.26418616e-09  3.25524423e-09  4.58869246e-01  3.28531195e-09  1.57629251e-07  6.27587422e-08  2.00000000e-01 
 2.10000000e-01  4.58869245e-01  4.58869245e-01  4.58869245e-01  3.26418627e-09  3.25524423e-09  4.58869245e-01  3.28531207e-09  1.57629231e-07  6.27585823e-08  2.10000000e-01 
 2.20000000e-01  4.58869255e-01  4.58869255e-01  4.58869255e-01  3.26418616e-09  3.25524423e-09  4.58869255e-01  3.28531207e-09  1.57629263e-07  6.27584082e-08  2.20000000e-01 
 2.30000000e-01  4.58869257e-01  4.58869257e-01  4.58869258e-01  3.26418627e-09  3.25524423e-09  4.58869258e-01  3.28531207e-09  1.57629258e-07  6.27583603e-08  2.30000000e-01 
 2.40000000e-01  4.58869248e-01  4.58869248e-01  4.58869248e-01  3.26418616e-09  3.25524423e-09  4.58869248e-01  3.28531195e-09  1.57629247e-07  6.27581507e-08  2.40000000e-01 
 2.50000000e-01  4.58869259e-01  4.58869259e-01  4.58869259e-01  3.26418616e-09  3.25524423e-09  4.58869259e-01  3.28531207e-09  1.57629265e-07  6.27579677e-08  2.50000000e-01 
 2.60000000e-01  4.58869245e-01  4.58869245e-01  4.58869245e-01  3.26418627e-09  3.25524423e-09  4.58869245e-01  3.28531207e-09  1.57629228e-07  6.27578025e-08  2.60000000e-01 
 2.70000000e-01  4.58869251e-01  4.58869251e-01  4.58869251e-01  3.26418627e-09  3.25524423e-09  4.58869251e-01  3.28531207e-09  1.57629265e-07  6.27577972e-08  2.70000000e-01 
 2.80000000e-01  4.58869265e-01  4.58869265e-01  4.58869265e-01  3.26418627e-09  3.25524423e-09  4.58869265e-01  3.28531207e-09  1.57629277e-07  6.27576213e-08  2.80000000e-01 
 2.90000000e-01  4.58869258e-01  4.58869258e-01  4.58869258e-01  3.26418616e-09  3.25524423e-09  4.58869258e-01  3.28531207e-09  1.57629243e-07  6.27575218e-08  2.90000000e-01 
 3.00000000e-01  4.58869263e-01  4.58869263e-01  4.58869263e-01  3.26418627e-09  3.25524423e-09  4.58869263e-01  3.28531207e-09  1.57629281e-07  6.27573975e-08  3.00000000e-01 
 3.10000000e-01  4.58869241e-01  4.58869241e-01  4.58869241e-01  3.26418627e-09  3.25524423e-09  4.58869241e-01  3.28531207e-09  1.57629235e-07  6.27573087e-08  3.10000000e-01 
 3.20000000e-01  4.58869244e-01  4.58869244e-01  4.58869244e-01  3.26418616e-09  3.25524423e-09  4.58869244e-01  3.28531207e-09  1.57629248e-07  6.27571346e-08  3.20000000e-01 
 3.30000000e-01  4.58869225e-01  4.58869225e-01  4.58869225e-01  3.26418627e-09  3.25524423e-09  4.58869225e-01  3.28531195e-09  1.57629214e-07  6.27571417e-08  3.30000000e-01 
 3.40000000e-01  4.58869278e-01  4.58869278e-01  4.58869278e-01  3.26418616e-09  3.25524423e-09  4.58869278e-01  3.28531195e-09  1.57629298e-07  6.27570955e-08  3.40000000e-01 
 3.50000000e-01  4.58869268e-01  4.58869268e-01  4.58869268e-01  3.26418627e-09  3.25524423e-09  4.58869268e-01  3.28531207e-09  1.57629288e-07  6.27570174e-08  3.50000000e-01 
 3.60000000e-01  4.58869241e-01  4.58869241e-01  4.58869241e-01  3.26418627e-09  3.25524423e-09  4.58869241e-01  3.28531207e-09  1.57629216e-07  6.27568326e-08  3.60000000e-01 
 3.70000000e-01  4.58869266e-01  4.58869266e-01  4.58869266e-01  3.26418616e-09  3.25524423e-09  4.58869266e-01  3.28531207e-09  1.57629278e-07  6.27567651e-08  3.70000000e-01 
 3.80000000e-01  4.58869248e-01  4.58869248e-01  4.58869248e-01  3.26418627e-09  3.25524423e-09  4.58869248e-01  3.28531207e-09  1.57629258e-07  6.27567296e-08  3.80000000e-01 
 3.90000000e-01  4.58869224e-01  4.58869224e-01  4.58869224e-01  3.26418627e-09  3.25524423e-09  4.58869224e-01  3.28531207e-09  1.57629217e-07  6.27566195e-08  3.90000000e-01 
 4.00000000e-01  4.58869258e-01  4.58869258e-01  4.58869259e-01  3.26418627e-09  3.25524423e-09  4.58869258e-01  3.28531207e-09  1.57629273e-07  6.27565058e-08  4.00000000e-01 
 4.10000000e-01  4.58869267e-01  4.58869267e-01  4.58869267e-01  3.26418616e-09  3.25524423e-09  4.58869267e-01  3.28531207e-09  1.57629280e-07  6.27565484e-08  4.10000000e-01 
 4.20000000e-01  4.58869250e-01  4.58869250e-01  4.58869250e-01  3.26418627e-09  3.25524423e-09  4.58869250e-01  3.28531195e-09  1.57629243e-07  6.27563139e-08  4.20000000e-01 
 4.30000000e-01  4.58869256e-01  4.58869256e-01  4.58869256e-01  3.26418616e-09  3.25524423e-09  4.58869256e-01  3.28531207e-09  1.57629274e-07  6.27561931e-08  4.30000000e-01 
 4.40000000e-01  4.58869267e-01  4.58869267e-01  4.58869267e-01  3.26418616e-09  3.25524423e-09  4.58869267e-01  3.28531207e-09  1.57629269e-07  6.27562571e-08  4.40000000e-01 
 4.50000000e-01  4.58869280e-01  4.58869280e-01  4.58869280e-01  3.26418627e-09  3.25524423e-09  4.58869280e-01  3.28531207e-09  1.57629284e-07  6.27561612e-08  4.50000000e-01 
 4.60000000e-01  4.58869235e-01  4.58869235e-01  4.58869235e-01  3.26418627e-09  3.25524423e-09  4.58869235e-01  3.28531207e-09  1.57629226e-07  6.27559729e-08  4.60000000e-01 
 4.70000000e-01  4.58869247e-01  4.58869247e-01  4.58869247e-01  3.26418627e-09  3.25524423e-09  4.58869247e-01  3.28531207e-09  1.57629245e-07  6.27559373e-08  4.70000000e-01 
 4.80000000e-01  4.58869251e-01  4.58869251e-01  4.58869251e-01  3.26418627e-09  3.25524423e-09  4.58869251e-01  3.28531207e-09  1.57629245e-07  6.27559622e-08  4.80000000e-01 
 4.90000000e-01  4.58869271e-01  4.58869271e-01  4.58869271e-01  3.26418616e-09  3.25524423e-09  4.58869271e-01  3.28531207e-09  1.57629286e-07  6.27557988e-08  4.90000000e-01 
 5.00000000e-01  4.58869269e-01  4.58869269e-01  4.58869269e-01  3.26418616e-09  3.25524423e-09  4.58869269e-01  3.28531207e-09  1.57629283e-07  6.27558450e-08  5.00000000e-01 
 5.10000000e-01  4.58869233e-01  4.58869233e-01  4.58869233e-01  3.26418627e-09  3.25524423e-09  4.58869233e-01  3.28531207e-09  1.57629211e-07  6.27556496e-08  5.10000000e-01 
 5.20000000e-01  4.58869257e-01  4.58869257e-01  4.58869258e-01  3.26418616e-09  3.25524423e-09  4.58869257e-01  3.28531207e-09  1.57629266e-07  6.27555785e-08  5.20000000e-01 
 5.30000000e-01  4.58869257e-01  4.58869257e-01  4.58869257e-01  3.26418627e-09  3.25524423e-09  4.58869257e-01  3.28531207e-09  1.57629258e-07  6.27555927e-08  5.30000000e-01 
 5.40000000e-01  4.58869256e-01  4.58869256e-01  4.58869256e-01  3.26418616e-09  3.25524423e-09  4.58869256e-01  3.28531207e-09  1.57629266e-07  6.27555323e-08  5.40000000e-01 
 5.50000000e-01  4.58869234e-01  4.58869234e-01  4.58869234e-01  3.26418616e-09  3.25524423e-09  4.58869234e-01  3.28531195e-09  1.57629222e-07  6.27553796e-08  5.50000000e-01 
 5.60000000e-01  4.58869243e-01  4.58869243e-01  4.58869243e-01  3.26418616e-09  3.25524423e-09  4.58869243e-01  3.28531207e-09  1.57629237e-07  6.27553938e-08  5.60000000e-01 
 5.70000000e-01  4.58869259e-01  4.58869259e-01  4.58869259e-01  3.26418616e-09  3.25524423e-09  4.58869259e-01  3.28531195e-09  1.57629264e-07  6.27553014e-08  5.70000000e-01 
 5.80000000e-01  4.58869264e-01  4.58869264e-01  4.58869264e-01  3.26418627e-09  3.25524423e-09  4.58869264e-01  3.28531207e-09  1.57629257e-07  6.27552410e-08  5.80000000e-01 
 5.90000000e-01  4.58869239e-01  4.58869239e-01  4.58869239e-01  3.26418616e-09  3.25524423e-09  4.58869239e-01  3.28531207e-09  1.57629229e-07  6.27551699e-08  5.90000000e-01 
 6.00000000e-01  4.58869263e-01  4.58869263e-01  4.58869263e-01  3.26418627e-09  3.25524423e-09  4.58869263e-01  3.28531195e-09  1.57629278e-07  6.27552055e-08  6.00000000e-01 
 6.10000000e-01  4.58869231e-01  4.58869231e-01  4.58869231e-01  3.26418627e-09  3.25524435e-09  4.58869231e-01  3.28531207e-09  1.57629224e-07  6.27549994e-08  6.10000000e-01 
 6.20000000e-01  4.58869264e-01  4.58869264e-01  4.58869264e-01  3.26418627e-09  3.25524423e-09  4.58869264e-01  3.28531207e-09  1.57629284e-07  6.27549923e-08  6.20000000e-01 
 6.30000000e-01  4.58869246e-01  4.58869246e-01  4.58869246e-01  3.26418627e-09  3.25524423e-09  4.58869246e-01  3.28531207e-09  1.57629255e-07  6.27549497e-08  6.30000000e-01 
 6.40000000e-01  4.58869246e-01  4.58869246e-01  4.58869246e-01  3.26418627e-09  3.25524423e-09  4.58869246e-01  3.28531207e-09  1.57629250e-07  6.27549781e-08  6.40000000e-01 
 6.50000000e-01  4.58869273e-01  4.58869273e-01  4.58869273e-01  3.26418627e-09  3.25524423e-09  4.58869273e-01  3.28531195e-09  1.57629297e-07  6.27548502e-08  6.50000000e-01 
 6.60000000e-01  4.58869258e-01  4.58869258e-01  4.58869258e-01  3.26418616e-09  3.25524423e-09  4.58869258e-01  3.28531207e-09  1.57629265e-07  6.27547152e-08  6.60000000e-01 
 6.70000000e-01  4.58869238e-01  4.58869237e-01  4.58869238e-01  3.26418627e-09  3.25524423e-09  4.58869238e-01  3.28531207e-09  1.57629243e-07  6.27546797e-08  6.70000000e-01 
 6.80000000e-01  4.58869253e-01  4.58869253e-01  4.58869253e-01  3.26418627e-09  3.25524423e-09  4.58869253e-01  3.28531207e-09  1.57629253e-07  6.27545447e-08  6.80000000e-01 
 6.90000000e-01  4.58869255e-01  4.58869255e-01  4.58869255e-01  3.26418616e-09  3.25524423e-09  4.58869255e-01  3.28531195e-09  1.57629258e-07  6.27546513e-08  6.90000000e-01 
 7.00000000e-01  4.58869270e-01  4.58869270e-01  4.58869270e-01  3.26418627e-09  3.25524423e-09  4.58869270e-01  3.28531195e-09  1.57629288e-07  6.27545802e-08  7.00000000e-01 
 7.10000000e-01  4.58869251e-01  4.58869251e-01  4.58869251e-01  3.26418627e-09  3.25524423e-09  4.58869251e-01  3.28531195e-09  1.57629248e-07  6.27543955e-08  7.10000000e-01 
 7.20000000e-01  4.58869239e-01  4.58869239e-01  4.58869239e-01  3.26418627e-09  3.25524423e-09  4.58869239e-01  3.28531207e-09  1.57629232e-07  6.27543528e-08  7.20000000e-01 
 7.30000000e-01  4.58869234e-01  4.58869234e-01  4.58869234e-01  3.26418616e-09  3.25524423e-09  4.58869234e-01  3.28531207e-09  1.57629229e-07  6.27541468e-08  7.30000000e-01 
 7.40000000e-01  4.58869240e-01  4.58869240e-01  4.58869240e-01  3.26418627e-09  3.25524423e-09  4.58869240e-01  3.28531207e-09  1.57629231e-07  6.27542533e-08  7.40000000e-01 
 7.50000000e-01  4.58869226e-01  4.58869226e-01  4.58869226e-01  3.26418627e-09  3.25524423e-09  4.58869226e-01  3.28531195e-09  1.57629222e-07  6.27541539e-08  7.50000000e-01 
 7.60000000e-01  4.58869258e-01  4.58869258e-01  4.58869258e-01  3.26418616e-09  3.25524423e-09  4.58869258e-01  3.28531207e-09  1.57629267e-07  6.27541894e-08  7.60000000e-01 
 7.70000000e-01  4.58869261e-01  4.58869261e-01  4.58869262e-01  3.26418616e-09  3.25524423e-09  4.58869261e-01  3.28531195e-09  1.57629255e-07  6.27540260e-08  7.70000000e-01 
 7.80000000e-01  4.58869255e-01  4.58869255e-01  4.58869255e-01  3.26418627e-09  3.25524423e-09  4.58869255e-01  3.28531207e-09  1.57629261e-07  6.27539762e-08  7.80000000e-01 
 7.90000000e-01  4.58869275e-01  4.58869275e-01  4.58869275e-01  3.26418627e-09  3.25524423e-09  4.58869275e-01  3.28531207e-09  1.57629292e-07  6.27539691e-08  7.90000000e-01 
 8.00000000e-01  4.58869228e-01  4.58869228e-01  4.58869228e-01  3.26418616e-09  3.25524423e-09  4.58869228e-01  3.28531207e-09  1.57629217e-07  6.27537702e-08  8.00000000e-01 
 8.10000000e-01  4.58869254e-01  4.58869254e-01  4.58869254e-01  3.26418627e-09  3.25524423e-09  4.58869254e-01  3.28531195e-09  1.57629269e-07  6.27538839e-08  8.10000000e-01 
 8.20000000e-01  4.58869237e-01  4.58869237e-01  4.58869237e-01  3.26418627e-09  3.25524423e-09  4.58869237e-01  3.28531207e-09  1.57629237e-07  6.27537275e-08  8.20000000e-01 
 8.30000000e-01  4.58869269e-01  4.58869269e-01  4.58869269e-01  3.26418616e-09  3.25524423e-09  4.58869269e-01  3.28531207e-09  1.57629276e-07  6.27537204e-08  8.30000000e-01 
 8.40000000e-01  4.58869242e-01  4.58869242e-01  4.58869243e-01  3.26418627e-09  3.25524423e-09  4.58869243e-01  3.28531207e-09  1.57629253e-07  6.27535357e-08  8.40000000e-01 
 8.50000000e-01  4.58869239e-01  4.58869239e-01  4.58869239e-01  3.26418627e-09  3.25524423e-09  4.58869239e-01  3.28531207e-09  1.57629232e-07  6.27535428e-08  8.50000000e-01 
 8.60000000e-01  4.58869253e-01  4.58869253e-01  4.58869253e-01  3.26418627e-09  3.25524423e-09  4.58869253e-01  3.28531195e-09  1.57629264e-07  6.27536423e-08  8.60000000e-01 
 8.70000000e-01  4.58869230e-01  4.58869230e-01  4.58869230e-01  3.26418627e-09  3.25524423e-09  4.58869230e-01  3.28531195e-09  1.57629216e-07  6.27534220e-08  8.70000000e-01 
 8.80000000e-01  4.58869254e-01  4.58869254e-01  4.58869254e-01  3.26418627e-09  3.25524423e-09  4.58869254e-01  3.28531207e-09  1.57629266e-07  6.27533510e-08  8.80000000e-01 
 8.90000000e-01  4.58869274e-01  4.58869274e-01  4.58869274e-01  3.26418627e-09  3.25524423e-09  4.58869274e-01  3.28531207e-09  1.57629281e-07  6.27533794e-08  8.90000000e-01 
 9.00000000e-01  4.58869226e-01  4.58869226e-01  4.58869226e-01  3.26418627e-09  3.25524423e-09  4.58869226e-01  3.28531195e-09  1.57629213e-07  6.27531165e-08  9.00000000e-01 
 9.10000000e-01  4.58869230e-01  4.58869230e-01  4.58869230e-01  3.26418616e-09  3.25524423e-09  4.58869230e-01  3.28531207e-09  1.57629219e-07  6.27532160e-08  9.10000000e-01 
 9.20000000e-01  4.58869257e-01  4.58869257e-01  4.58869257e-01  3.26418616e-09  3.25524423e-09  4.58869257e-01  3.28531195e-09  1.57629250e-07  6.27531165e-08  9.20000000e-01 
 9.30000000e-01  4.58869234e-01  4.58869234e-01  4.58869234e-01  3.26418616e-09  3.25524423e-09  4.58869234e-01  3.28531207e-09  1.57629228e-07  6.27530881e-08  9.30000000e-01 
 9.40000000e-01  4.58869250e-01  4.58869250e-01  4.58869250e-01  3.26418616e-09  3.25524423e-09  4.58869250e-01  3.28531195e-09  1.57629246e-07  6.27528962e-08  9.40000000e-01 
 9.50000000e-01  4.58869260e-01  4.58869260e-01  4.58869260e-01  3.26418627e-09  3.25524423e-09  4.58869260e-01  3.28531195e-09  1.57629269e-07  6.27528394e-08  9.50000000e-01 
 9.60000000e-01  4.58869258e-01  4.58869258e-01  4.58869258e-01  3.26418616e-09  3.25524423e-09  4.58869258e-01  3.28531195e-09  1.57629273e-07  6.27528394e-08  9.60000000e-01 
 9.70000000e-01  4.58869235e-01  4.58869235e-01  4.58869235e-01  3.26418627e-09  3.25524423e-09  4.58869235e-01  3.28531207e-09  1.57629230e-07  6.27527399e-08  9.70000000e-01 
 9.80000000e-01  4.58869256e-01  4.58869256e-01  4.58869256e-01  3.26418627e-09  3.25524423e-09  4.58869256e-01  3.28531207e-09  1.57629268e-07  6.27525907e-08  9.80000000e-01 
 9.90000000e-01  4.58869276e-01  4.58869276e-01  4.58869276e-01  3.26418627e-09  3.25524423e-09  4.58869276e-01  3.28531207e-09  1.57629293e-07  6.27526333e-08  9.90000000e-01 
 1.00000000e+00  4.58869219e-01  4.58869219e-01  4.58869219e-01  3.26418627e-09  3.25524423e-09  4.58869219e-01  3.28531207e-09  1.57629208e-07  6.27525267e-08  1.00000000e+00 
 1.01000000e+00  4.58869237e-01  4.58869237e-01  4.58869237e-01  3.26418616e-09  3.25524423e-09  4.58869237e-01  3.28531207e-09  1.57629238e-07  6.27525836e-08  1.01000000e+00 
 1.02000000e+00  4.58869268e-01  4.58869268e-01  4.58869268e-01  3.26418616e-09  3.25524423e-09  4.58869268e-01  3.28531207e-09  1.57629291e-07  6.27524628e-08  1.02000000e+00 
 1.03000000e+00  4.58869237e-01  4.58869237e-01  4.58869237e-01  3.26418616e-09  3.25524423e-09  4.58869237e-01  3.28531207e-09  1.57629237e-07  6.27523917e-08  1.03000000e+00 
 1.04000000e+00  4.58869279e-01  4.58869279e-01  4.58869279e-01  3.26418616e-09  3.25524423e-09  4.58869279e-01  3.28531195e-09  1.57629303e-07  6.27522923e-08  1.04000000e+00 
 1.05000000e+00  4.58869258e-01  4.58869258e-01  4.58869258e-01  3.26418627e-09  3.25524423e-09  4.58869258e-01  3.28531207e-09  1.57629268e-07  6.27523065e-08  1.05000000e+00 
 1.06000000e+00  4.58869262e-01  4.58869262e-01  4.58869262e-01  3.26418616e-09  3.25524423e-09  4.58869262e-01  3.28531195e-09  1.57629273e-07  6.27521501e-08  1.06000000e+00 
 1.07000000e+00  4.58869235e-01  4.58869235e-01  4.58869235e-01  3.26418616e-09  3.25524423e-09  4.58869235e-01  3.28531207e-09  1.57629223e-07  6.27520080e-08  1.07000000e+00 
 1.08000000e+00  4.58869276e-01  4.58869276e-01  4.58869276e-01  3.26418616e-09  3.25524423e-09  4.58869276e-01  3.28531195e-09  1.57629299e-07  6.27519512e-08  1.08000000e+00 
 1.09000000e+00  4.58869248e-01  4.58869248e-01  4.58869248e-01  3.26418627e-09  3.25524423e-09  4.58869248e-01  3.28531207e-09  1.57629248e-07  6.27520222e-08  1.09000000e+00 
 1.10000000e+00  4.58869257e-01  4.58869257e-01  4.58869257e-01  3.26418627e-09  3.25524423e-09  4.58869257e-01  3.28531195e-09  1.57629279e-07  6.27518801e-08  1.10000000e+00 
