 v-sweep         v(b0)           v(b1)           v(b2)           v(b3)           v(b4)           v(b5)           v(b6)           i(vbias)        i(viout)        v(vout)        
 0.00000000e+00  3.29561410e-09  3.26855193e-09  4.59177647e-01  4.59177647e-01  3.26958190e-09  3.28160765e-09  3.28754374e-09  1.61077742e-07  2.08024487e-08  0.00000000e+00 
 1.00000000e-02  3.29561409e-09  3.26855192e-09  4.59177650e-01  4.59177650e-01  3.26958178e-09  3.28160765e-09  3.28754373e-09  1.61077740e-07  2.08019599e-08  1.00000000e-02 
 2.00000000e-02  3.29561409e-09  3.26855204e-09  4.59177678e-01  4.59177678e-01  3.26958190e-09  3.28160765e-09  3.28754362e-09  1.61077798e-07  2.08017497e-08  2.00000000e-02 
 3.00000000e-02  3.29561409e-09  3.26855192e-09  4.59177652e-01  4.59177652e-01  3.26958189e-09  3.28160765e-09  3.28754374e-09  1.61077765e-07  2.08013278e-08  3.00000000e-02 
 4.00000000e-02  3.29561409e-09  3.26855204e-09  4.59177670e-01  4.59177670e-01  3.26958178e-09  3.28160765e-09  3.28754373e-09  1.61077789e-07  2.08008784e-08  4.00000000e-02 
 5.00000000e-02  3.29561409e-09  3.26855203e-09  4.59177645e-01  4.59177645e-01  3.26958190e-09  3.28160776e-09  3.28754362e-09  1.61077743e-07  2.08005266e-08  5.00000000e-02 
 6.00000000e-02  3.29561409e-09  3.26855192e-09  4.59177670e-01  4.59177670e-01  3.26958189e-09  3.28160765e-09  3.28754362e-09  1.61077787e-07  2.08002411e-08  6.00000000e-02 
 7.00000000e-02  3.29561409e-09  3.26855203e-09  4.59177656e-01  4.59177656e-01  3.26958178e-09  3.28160776e-09  3.28754373e-09  1.61077758e-07  2.08000706e-08  7.00000000e-02 
 8.00000000e-02  3.29561421e-09  3.26855192e-09  4.59177681e-01  4.59177681e-01  3.26958190e-09  3.28160776e-09  3.28754373e-09  1.61077792e-07  2.07997273e-08  8.00000000e-02 
 9.00000000e-02  3.29561409e-09  3.26855192e-09  4.59177664e-01  4.59177665e-01  3.26958189e-09  3.28160765e-09  3.28754373e-09  1.61077773e-07  2.07994519e-08  9.00000000e-02 
 1.00000000e-01  3.29561409e-09  3.26855203e-09  4.59177651e-01  4.59177651e-01  3.26958189e-09  3.28160776e-09  3.28754362e-09  1.61077763e-07  2.07991819e-08  1.00000000e-01 
 1.10000000e-01  3.29561409e-09  3.26855192e-09  4.59177655e-01  4.59177655e-01  3.26958189e-09  3.28160765e-09  3.28754362e-09  1.61077757e-07  2.07988293e-08  1.10000000e-01 
 1.20000000e-01  3.29561409e-09  3.26855204e-09  4.59177668e-01  4.59177668e-01  3.26958178e-09  3.28160765e-09  3.28754362e-09  1.61077778e-07  2.07986970e-08  1.20000000e-01 
 1.30000000e-01  3.29561409e-09  3.26855192e-09  4.59177639e-01  4.59177639e-01  3.26958179e-09  3.28160765e-09  3.28754362e-09  1.61077744e-07  2.07985602e-08  1.30000000e-01 
 1.40000000e-01  3.29561409e-09  3.26855192e-09  4.59177643e-01  4.59177643e-01  3.26958178e-09  3.28160776e-09  3.28754373e-09  1.61077752e-07  2.07981685e-08  1.40000000e-01 
 1.50000000e-01  3.29561409e-09  3.26855192e-09  4.59177647e-01  4.59177647e-01  3.26958190e-09  3.28160776e-09  3.28754361e-09  1.61077737e-07  2.07981046e-08  1.50000000e-01 
 1.60000000e-01  3.29561409e-09  3.26855204e-09  4.59177675e-01  4.59177675e-01  3.26958189e-09  3.28160776e-09  3.28754362e-09  1.61077782e-07  2.07980388e-08  1.60000000e-01 
 1.70000000e-01  3.29561409e-09  3.26855204e-09  4.59177667e-01  4.59177667e-01  3.26958189e-09  3.28160776e-09  3.28754362e-09  1.61077783e-07  2.07977013e-08  1.70000000e-01 
 1.80000000e-01  3.29561409e-09  3.26855204e-09  4.59177662e-01  4.59177662e-01  3.26958178e-09  3.28160765e-09  3.28754373e-09  1.61077773e-07  2.07976782e-08  1.80000000e-01 
 1.90000000e-01  3.29561409e-09  3.26855192e-09  4.59177641e-01  4.59177641e-01  3.26958190e-09  3.28160776e-09  3.28754361e-09  1.61077740e-07  2.07973478e-08  1.90000000e-01 
 2.00000000e-01  3.29561409e-09  3.26855204e-09  4.59177676e-01  4.59177677e-01  3.26958178e-09  3.28160765e-09  3.28754362e-09  1.61077806e-07  2.07973034e-08  2.00000000e-01 
 2.10000000e-01  3.29561409e-09  3.26855204e-09  4.59177659e-01  4.59177659e-01  3.26958190e-09  3.28160765e-09  3.28754373e-09  1.61077772e-07  2.07970992e-08  2.10000000e-01 
 2.20000000e-01  3.29561409e-09  3.26855192e-09  4.59177659e-01  4.59177659e-01  3.26958189e-09  3.28160765e-09  3.28754361e-09  1.61077759e-07  2.07969393e-08  2.20000000e-01 
 2.30000000e-01  3.29561409e-09  3.26855203e-09  4.59177649e-01  4.59177649e-01  3.26958178e-09  3.28160776e-09  3.28754362e-09  1.61077753e-07  2.07967812e-08  2.30000000e-01 
 2.40000000e-01  3.29561409e-09  3.26855203e-09  4.59177652e-01  4.59177652e-01  3.26958190e-09  3.28160776e-09  3.28754362e-09  1.61077745e-07  2.07966799e-08  2.40000000e-01 
 2.50000000e-01  3.29561409e-09  3.26855192e-09  4.59177655e-01  4.59177655e-01  3.26958189e-09  3.28160765e-09  3.28754373e-09  1.61077745e-07  2.07965520e-08  2.50000000e-01 
 2.60000000e-01  3.29561409e-09  3.26855203e-09  4.59177653e-01  4.59177653e-01  3.26958178e-09  3.28160776e-09  3.28754361e-09  1.61077754e-07  2.07963424e-08  2.60000000e-01 
 2.70000000e-01  3.29561409e-09  3.26855192e-09  4.59177656e-01  4.59177656e-01  3.26958179e-09  3.28160776e-09  3.28754362e-09  1.61077745e-07  2.07963460e-08  2.70000000e-01 
 2.80000000e-01  3.29561409e-09  3.26855192e-09  4.59177651e-01  4.59177651e-01  3.26958190e-09  3.28160765e-09  3.28754362e-09  1.61077754e-07  2.07962643e-08  2.80000000e-01 
 2.90000000e-01  3.29561409e-09  3.26855204e-09  4.59177665e-01  4.59177665e-01  3.26958189e-09  3.28160776e-09  3.28754362e-09  1.61077776e-07  2.07961612e-08  2.90000000e-01 
 3.00000000e-01  3.29561409e-09  3.26855203e-09  4.59177643e-01  4.59177643e-01  3.26958178e-09  3.28160776e-09  3.28754362e-09  1.61077743e-07  2.07959907e-08  3.00000000e-01 
 3.10000000e-01  3.29561409e-09  3.26855204e-09  4.59177669e-01  4.59177669e-01  3.26958179e-09  3.28160765e-09  3.28754362e-09  1.61077777e-07  2.07959836e-08  3.10000000e-01 
 3.20000000e-01  3.29561409e-09  3.26855192e-09  4.59177665e-01  4.59177665e-01  3.26958190e-09  3.28160765e-09  3.28754362e-09  1.61077773e-07  2.07958841e-08  3.20000000e-01 
 3.30000000e-01  3.29561409e-09  3.26855192e-09  4.59177639e-01  4.59177639e-01  3.26958189e-09  3.28160776e-09  3.28754373e-09  1.61077729e-07  2.07956994e-08  3.30000000e-01 
 3.40000000e-01  3.29561409e-09  3.26855204e-09  4.59177669e-01  4.59177669e-01  3.26958178e-09  3.28160776e-09  3.28754373e-09  1.61077779e-07  2.07956354e-08  3.40000000e-01 
 3.50000000e-01  3.29561409e-09  3.26855192e-09  4.59177665e-01  4.59177665e-01  3.26958190e-09  3.28160776e-09  3.28754362e-09  1.61077769e-07  2.07954436e-08  3.50000000e-01 
 3.60000000e-01  3.29561409e-09  3.26855203e-09  4.59177643e-01  4.59177643e-01  3.26958189e-09  3.28160765e-09  3.28754374e-09  1.61077741e-07  2.07953867e-08  3.60000000e-01 
 3.70000000e-01  3.29561409e-09  3.26855203e-09  4.59177655e-01  4.59177655e-01  3.26958189e-09  3.28160776e-09  3.28754361e-09  1.61077755e-07  2.07952731e-08  3.70000000e-01 
 3.80000000e-01  3.29561409e-09  3.26855203e-09  4.59177655e-01  4.59177655e-01  3.26958189e-09  3.28160776e-09  3.28754362e-09  1.61077762e-07  2.07953548e-08  3.80000000e-01 
 3.90000000e-01  3.29561409e-09  3.26855192e-09  4.59177660e-01  4.59177660e-01  3.26958189e-09  3.28160776e-09  3.28754362e-09  1.61077778e-07  2.07952660e-08  3.90000000e-01 
 4.00000000e-01  3.29561409e-09  3.26855203e-09  4.59177649e-01  4.59177649e-01  3.26958178e-09  3.28160765e-09  3.28754362e-09  1.61077753e-07  2.07952553e-08  4.00000000e-01 
 4.10000000e-01  3.29561409e-09  3.26855192e-09  4.59177676e-01  4.59177676e-01  3.26958179e-09  3.28160776e-09  3.28754362e-09  1.61077776e-07  2.07951167e-08  4.10000000e-01 
 4.20000000e-01  3.29561409e-09  3.26855203e-09  4.59177656e-01  4.59177656e-01  3.26958178e-09  3.28160765e-09  3.28754373e-09  1.61077769e-07  2.07950315e-08  4.20000000e-01 
 4.30000000e-01  3.29561409e-09  3.26855192e-09  4.59177651e-01  4.59177651e-01  3.26958178e-09  3.28160776e-09  3.28754373e-09  1.61077742e-07  2.07949284e-08  4.30000000e-01 
 4.40000000e-01  3.29561409e-09  3.26855204e-09  4.59177673e-01  4.59177673e-01  3.26958190e-09  3.28160765e-09  3.28754362e-09  1.61077786e-07  2.07948219e-08  4.40000000e-01 
 4.50000000e-01  3.29561409e-09  3.26855204e-09  4.59177672e-01  4.59177672e-01  3.26958189e-09  3.28160776e-09  3.28754374e-09  1.61077770e-07  2.07947366e-08  4.50000000e-01 
 4.60000000e-01  3.29561409e-09  3.26855192e-09  4.59177673e-01  4.59177673e-01  3.26958189e-09  3.28160765e-09  3.28754373e-09  1.61077788e-07  2.07946691e-08  4.60000000e-01 
 4.70000000e-01  3.29561409e-09  3.26855204e-09  4.59177659e-01  4.59177659e-01  3.26958189e-09  3.28160776e-09  3.28754362e-09  1.61077761e-07  2.07947579e-08  4.70000000e-01 
 4.80000000e-01  3.29561409e-09  3.26855192e-09  4.59177648e-01  4.59177648e-01  3.26958189e-09  3.28160765e-09  3.28754362e-09  1.61077745e-07  2.07946442e-08  4.80000000e-01 
 4.90000000e-01  3.29561409e-09  3.26855204e-09  4.59177672e-01  4.59177672e-01  3.26958189e-09  3.28160765e-09  3.28754373e-09  1.61077786e-07  2.07946513e-08  4.90000000e-01 
 5.00000000e-01  3.29561409e-09  3.26855204e-09  4.59177663e-01  4.59177663e-01  3.26958178e-09  3.28160776e-09  3.28754373e-09  1.61077773e-07  2.07945092e-08  5.00000000e-01 
 5.10000000e-01  3.29561409e-09  3.26855192e-09  4.59177660e-01  4.59177660e-01  3.26958190e-09  3.28160776e-09  3.28754373e-09  1.61077762e-07  2.07944666e-08  5.10000000e-01 
 5.20000000e-01  3.29561409e-09  3.26855203e-09  4.59177653e-01  4.59177653e-01  3.26958189e-09  3.28160765e-09  3.28754362e-09  1.61077751e-07  2.07944240e-08  5.20000000e-01 
 5.30000000e-01  3.29561409e-09  3.26855192e-09  4.59177653e-01  4.59177653e-01  3.26958189e-09  3.28160776e-09  3.28754362e-09  1.61077750e-07  2.07943458e-08  5.30000000e-01 
 5.40000000e-01  3.29561409e-09  3.26855192e-09  4.59177638e-01  4.59177638e-01  3.26958178e-09  3.28160776e-09  3.28754362e-09  1.61077723e-07  2.07941682e-08  5.40000000e-01 
 5.50000000e-01  3.29561409e-09  3.26855203e-09  4.59177657e-01  4.59177657e-01  3.26958190e-09  3.28160765e-09  3.28754373e-09  1.61077777e-07  2.07942072e-08  5.50000000e-01 
 5.60000000e-01  3.29561409e-09  3.26855204e-09  4.59177667e-01  4.59177667e-01  3.26958189e-09  3.28160776e-09  3.28754361e-09  1.61077766e-07  2.07941824e-08  5.60000000e-01 
 5.70000000e-01  3.29561409e-09  3.26855204e-09  4.59177661e-01  4.59177661e-01  3.26958189e-09  3.28160765e-09  3.28754362e-09  1.61077785e-07  2.07940616e-08  5.70000000e-01 
 5.80000000e-01  3.29561409e-09  3.26855203e-09  4.59177653e-01  4.59177653e-01  3.26958189e-09  3.28160765e-09  3.28754362e-09  1.61077750e-07  2.07939266e-08  5.80000000e-01 
 5.90000000e-01  3.29561409e-09  3.26855204e-09  4.59177671e-01  4.59177671e-01  3.26958178e-09  3.28160765e-09  3.28754362e-09  1.61077789e-07  2.07939692e-08  5.90000000e-01 
 6.00000000e-01  3.29561409e-09  3.26855204e-09  4.59177665e-01  4.59177666e-01  3.26958190e-09  3.28160776e-09  3.28754362e-09  1.61077779e-07  2.07939408e-08  6.00000000e-01 
 6.10000000e-01  3.29561409e-09  3.26855192e-09  4.59177656e-01  4.59177656e-01  3.26958178e-09  3.28160776e-09  3.28754373e-09  1.61077763e-07  2.07938058e-08  6.10000000e-01 
 6.20000000e-01  3.29561409e-09  3.26855203e-09  4.59177652e-01  4.59177652e-01  3.26958179e-09  3.28160776e-09  3.28754361e-09  1.61077754e-07  2.07938839e-08  6.20000000e-01 
 6.30000000e-01  3.29561409e-09  3.26855192e-09  4.59177647e-01  4.59177647e-01  3.26958178e-09  3.28160765e-09  3.28754362e-09  1.61077755e-07  2.07937561e-08  6.30000000e-01 
 6.40000000e-01  3.29561409e-09  3.26855204e-09  4.59177671e-01  4.59177671e-01  3.26958190e-09  3.28160776e-09  3.28754362e-09  1.61077774e-07  2.07937916e-08  6.40000000e-01 
 6.50000000e-01  3.29561409e-09  3.26855203e-09  4.59177641e-01  4.59177641e-01  3.26958189e-09  3.28160776e-09  3.28754362e-09  1.61077733e-07  2.07936779e-08  6.50000000e-01 
 6.60000000e-01  3.29561409e-09  3.26855204e-09  4.59177664e-01  4.59177664e-01  3.26958189e-09  3.28160776e-09  3.28754362e-09  1.61077785e-07  2.07936779e-08  6.60000000e-01 
 6.70000000e-01  3.29561409e-09  3.26855203e-09  4.59177648e-01  4.59177648e-01  3.26958189e-09  3.28160776e-09  3.28754362e-09  1.61077740e-07  2.07935429e-08  6.70000000e-01 
 6.80000000e-01  3.29561409e-09  3.26855204e-09  4.59177670e-01  4.59177670e-01  3.26958189e-09  3.28160765e-09  3.28754373e-09  1.61077780e-07  2.07934363e-08  6.80000000e-01 
 6.90000000e-01  3.29561409e-09  3.26855192e-09  4.59177644e-01  4.59177644e-01  3.26958178e-09  3.28160765e-09  3.28754361e-09  1.61077737e-07  2.07934789e-08  6.90000000e-01 
 7.00000000e-01  3.29561409e-09  3.26855204e-09  4.59177665e-01  4.59177665e-01  3.26958190e-09  3.28160776e-09  3.28754374e-09  1.61077780e-07  2.07933795e-08  7.00000000e-01 
 7.10000000e-01  3.29561421e-09  3.26855192e-09  4.59177661e-01  4.59177661e-01  3.26958178e-09  3.28160776e-09  3.28754373e-09  1.61077764e-07  2.07934008e-08  7.10000000e-01 
 7.20000000e-01  3.29561409e-09  3.26855192e-09  4.59177668e-01  4.59177668e-01  3.26958190e-09  3.28160765e-09  3.28754362e-09  1.61077780e-07  2.07932516e-08  7.20000000e-01 
 7.30000000e-01  3.29561409e-09  3.26855203e-09  4.59177643e-01  4.59177644e-01  3.26958189e-09  3.28160765e-09  3.28754374e-09  1.61077750e-07  2.07932729e-08  7.30000000e-01 
 7.40000000e-01  3.29561409e-09  3.26855204e-09  4.59177665e-01  4.59177665e-01  3.26958178e-09  3.28160776e-09  3.28754373e-09  1.61077762e-07  2.07931947e-08  7.40000000e-01 
 7.50000000e-01  3.29561409e-09  3.26855203e-09  4.59177654e-01  4.59177654e-01  3.26958179e-09  3.28160776e-09  3.28754373e-09  1.61077763e-07  2.07931592e-08  7.50000000e-01 
 7.60000000e-01  3.29561409e-09  3.26855204e-09  4.59177658e-01  4.59177658e-01  3.26958179e-09  3.28160765e-09  3.28754362e-09  1.61077760e-07  2.07931024e-08  7.60000000e-01 
 7.70000000e-01  3.29561409e-09  3.26855192e-09  4.59177656e-01  4.59177656e-01  3.26958178e-09  3.28160765e-09  3.28754362e-09  1.61077755e-07  2.07930455e-08  7.70000000e-01 
 7.80000000e-01  3.29561409e-09  3.26855204e-09  4.59177666e-01  4.59177666e-01  3.26958190e-09  3.28160776e-09  3.28754362e-09  1.61077778e-07  2.07930384e-08  7.80000000e-01 
 7.90000000e-01  3.29561409e-09  3.26855203e-09  4.59177640e-01  4.59177640e-01  3.26958189e-09  3.28160776e-09  3.28754362e-09  1.61077735e-07  2.07930100e-08  7.90000000e-01 
 8.00000000e-01  3.29561409e-09  3.26855192e-09  4.59177657e-01  4.59177657e-01  3.26958189e-09  3.28160765e-09  3.28754373e-09  1.61077766e-07  2.07928679e-08  8.00000000e-01 
 8.10000000e-01  3.29561409e-09  3.26855192e-09  4.59177659e-01  4.59177659e-01  3.26958178e-09  3.28160776e-09  3.28754361e-09  1.61077784e-07  2.07928395e-08  8.10000000e-01 
 8.20000000e-01  3.29561409e-09  3.26855204e-09  4.59177660e-01  4.59177660e-01  3.26958190e-09  3.28160776e-09  3.28754362e-09  1.61077766e-07  2.07928750e-08  8.20000000e-01 
 8.30000000e-01  3.29561409e-09  3.26855203e-09  4.59177623e-01  4.59177623e-01  3.26958189e-09  3.28160765e-09  3.28754373e-09  1.61077712e-07  2.07927400e-08  8.30000000e-01 
 8.40000000e-01  3.29561409e-09  3.26855192e-09  4.59177659e-01  4.59177659e-01  3.26958178e-09  3.28160765e-09  3.28754361e-09  1.61077764e-07  2.07926973e-08  8.40000000e-01 
 8.50000000e-01  3.29561409e-09  3.26855203e-09  4.59177645e-01  4.59177645e-01  3.26958190e-09  3.28160765e-09  3.28754374e-09  1.61077742e-07  2.07927968e-08  8.50000000e-01 
 8.60000000e-01  3.29561409e-09  3.26855192e-09  4.59177662e-01  4.59177662e-01  3.26958178e-09  3.28160776e-09  3.28754373e-09  1.61077765e-07  2.07926405e-08  8.60000000e-01 
 8.70000000e-01  3.29561409e-09  3.26855192e-09  4.59177645e-01  4.59177645e-01  3.26958179e-09  3.28160776e-09  3.28754362e-09  1.61077759e-07  2.07924984e-08  8.70000000e-01 
 8.80000000e-01  3.29561409e-09  3.26855203e-09  4.59177657e-01  4.59177657e-01  3.26958190e-09  3.28160776e-09  3.28754362e-09  1.61077759e-07  2.07924487e-08  8.80000000e-01 
 8.90000000e-01  3.29561409e-09  3.26855203e-09  4.59177650e-01  4.59177650e-01  3.26958189e-09  3.28160776e-09  3.28754362e-09  1.61077761e-07  2.07925055e-08  8.90000000e-01 
 9.00000000e-01  3.29561409e-09  3.26855192e-09  4.59177664e-01  4.59177664e-01  3.26958189e-09  3.28160765e-09  3.28754362e-09  1.61077775e-07  2.07923208e-08  9.00000000e-01 
 9.10000000e-01  3.29561409e-09  3.26855204e-09  4.59177659e-01  4.59177659e-01  3.26958189e-09  3.28160776e-09  3.28754362e-09  1.61077775e-07  2.07923634e-08  9.10000000e-01 
 9.20000000e-01  3.29561409e-09  3.26855192e-09  4.59177662e-01  4.59177662e-01  3.26958178e-09  3.28160776e-09  3.28754362e-09  1.61077754e-07  2.07923279e-08  9.20000000e-01 
 9.30000000e-01  3.29561409e-09  3.26855204e-09  4.59177673e-01  4.59177673e-01  3.26958190e-09  3.28160776e-09  3.28754362e-09  1.61077800e-07  2.07923208e-08  9.30000000e-01 
 9.40000000e-01  3.29561409e-09  3.26855203e-09  4.59177652e-01  4.59177652e-01  3.26958189e-09  3.28160776e-09  3.28754362e-09  1.61077751e-07  2.07923065e-08  9.40000000e-01 
 9.50000000e-01  3.29561409e-09  3.26855203e-09  4.59177656e-01  4.59177656e-01  3.26958189e-09  3.28160765e-09  3.28754362e-09  1.61077758e-07  2.07921929e-08  9.50000000e-01 
 9.60000000e-01  3.29561409e-09  3.26855192e-09  4.59177665e-01  4.59177665e-01  3.26958189e-09  3.28160776e-09  3.28754362e-09  1.61077779e-07  2.07921858e-08  9.60000000e-01 
 9.70000000e-01  3.29561409e-09  3.26855204e-09  4.59177659e-01  4.59177659e-01  3.26958178e-09  3.28160765e-09  3.28754373e-09  1.61077773e-07  2.07921786e-08  9.70000000e-01 
 9.80000000e-01  3.29561409e-09  3.26855204e-09  4.59177659e-01  4.59177659e-01  3.26958179e-09  3.28160765e-09  3.28754361e-09  1.61077755e-07  2.07920010e-08  9.80000000e-01 
 9.90000000e-01  3.29561409e-09  3.26855192e-09  4.59177648e-01  4.59177648e-01  3.26958178e-09  3.28160765e-09  3.28754362e-09  1.61077733e-07  2.07919442e-08  9.90000000e-01 
 1.00000000e+00  3.29561409e-09  3.26855203e-09  4.59177657e-01  4.59177657e-01  3.26958179e-09  3.28160765e-09  3.28754362e-09  1.61077760e-07  2.07918518e-08  1.00000000e+00 
 1.01000000e+00  3.29561409e-09  3.26855203e-09  4.59177654e-01  4.59177654e-01  3.26958190e-09  3.28160776e-09  3.28754362e-09  1.61077765e-07  2.07917807e-08  1.01000000e+00 
 1.02000000e+00  3.29561409e-09  3.26855203e-09  4.59177657e-01  4.59177657e-01  3.26958189e-09  3.28160776e-09  3.28754362e-09  1.61077760e-07  2.07917026e-08  1.02000000e+00 
 1.03000000e+00  3.29561420e-09  3.26855203e-09  4.59177647e-01  4.59177647e-01  3.26958178e-09  3.28160776e-09  3.28754362e-09  1.61077741e-07  2.07917026e-08  1.03000000e+00 
 1.04000000e+00  3.29561421e-09  3.26855203e-09  4.59177657e-01  4.59177657e-01  3.26958190e-09  3.28160765e-09  3.28754362e-09  1.61077763e-07  2.07915392e-08  1.04000000e+00 
 1.05000000e+00  3.29561409e-09  3.26855203e-09  4.59177641e-01  4.59177641e-01  3.26958178e-09  3.28160765e-09  3.28754362e-09  1.61077733e-07  2.07915463e-08  1.05000000e+00 
 1.06000000e+00  3.29561409e-09  3.26855204e-09  4.59177659e-01  4.59177659e-01  3.26958179e-09  3.28160776e-09  3.28754373e-09  1.61077759e-07  2.07915249e-08  1.06000000e+00 
 1.07000000e+00  3.29561409e-09  3.26855204e-09  4.59177664e-01  4.59177664e-01  3.26958190e-09  3.28160765e-09  3.28754361e-09  1.61077788e-07  2.07914894e-08  1.07000000e+00 
 1.08000000e+00  3.29561409e-09  3.26855203e-09  4.59177652e-01  4.59177652e-01  3.26958189e-09  3.28160776e-09  3.28754374e-09  1.61077756e-07  2.07913402e-08  1.08000000e+00 
 1.09000000e+00  3.29561409e-09  3.26855203e-09  4.59177657e-01  4.59177657e-01  3.26958178e-09  3.28160776e-09  3.28754361e-09  1.61077766e-07  2.07913615e-08  1.09000000e+00 
 1.10000000e+00  3.29561409e-09  3.26855192e-09  4.59177642e-01  4.59177642e-01  3.26958190e-09  3.28160776e-09  3.28754362e-09  1.61077743e-07  2.07913118e-08  1.10000000e+00 
