 v-sweep         v(b0)           v(b1)           v(b2)           v(b3)           v(b4)           v(b5)           v(b6)           i(vbias)        i(viout)        v(vout)        
 0.00000000e+00  4.58941033e-01  4.58941033e-01  4.58941033e-01  4.58941033e-01  4.58941033e-01  4.58941033e-01  3.27198330e-09  1.58476025e-07  9.73575795e-08  0.00000000e+00 
 1.00000000e-02  4.58941055e-01  4.58941055e-01  4.58941055e-01  4.58941055e-01  4.58941055e-01  4.58941055e-01  3.27198328e-09  1.58476067e-07  9.73571463e-08  1.00000000e-02 
 2.00000000e-02  4.58941022e-01  4.58941022e-01  4.58941022e-01  4.58941022e-01  4.58941022e-01  4.58941022e-01  3.27198328e-09  1.58476014e-07  9.73568515e-08  2.00000000e-02 
 3.00000000e-02  4.58941055e-01  4.58941055e-01  4.58941055e-01  4.58941055e-01  4.58941055e-01  4.58941055e-01  3.27198328e-09  1.58476049e-07  9.73565035e-08  3.00000000e-02 
 4.00000000e-02  4.58941042e-01  4.58941042e-01  4.58941042e-01  4.58941042e-01  4.58941042e-01  4.58941042e-01  3.27198329e-09  1.58476038e-07  9.73561685e-08  4.00000000e-02 
 5.00000000e-02  4.58941068e-01  4.58941068e-01  4.58941068e-01  4.58941068e-01  4.58941068e-01  4.58941068e-01  3.27198328e-09  1.58476084e-07  9.73558252e-08  5.00000000e-02 
 6.00000000e-02  4.58941048e-01  4.58941048e-01  4.58941048e-01  4.58941048e-01  4.58941048e-01  4.58941048e-01  3.27198329e-09  1.58476058e-07  9.73554388e-08  6.00000000e-02 
 7.00000000e-02  4.58941026e-01  4.58941026e-01  4.58941026e-01  4.58941026e-01  4.58941026e-01  4.58941026e-01  3.27198328e-09  1.58476027e-07  9.73551595e-08  7.00000000e-02 
 8.00000000e-02  4.58941062e-01  4.58941062e-01  4.58941062e-01  4.58941062e-01  4.58941062e-01  4.58941062e-01  3.27198329e-09  1.58476073e-07  9.73549232e-08  8.00000000e-02 
 9.00000000e-02  4.58941060e-01  4.58941060e-01  4.58941060e-01  4.58941060e-01  4.58941060e-01  4.58941060e-01  3.27198328e-09  1.58476071e-07  9.73546026e-08  9.00000000e-02 
 1.00000000e-01  4.58941050e-01  4.58941050e-01  4.58941050e-01  4.58941050e-01  4.58941050e-01  4.58941050e-01  3.27198329e-09  1.58476047e-07  9.73542873e-08  1.00000000e-01 
 1.10000000e-01  4.58941035e-01  4.58941035e-01  4.58941035e-01  4.58941035e-01  4.58941035e-01  4.58941035e-01  3.27198328e-09  1.58476032e-07  9.73539178e-08  1.10000000e-01 
 1.20000000e-01  4.58941033e-01  4.58941033e-01  4.58941033e-01  4.58941033e-01  4.58941033e-01  4.58941033e-01  3.27198329e-09  1.58476033e-07  9.73538006e-08  1.20000000e-01 
 1.30000000e-01  4.58941028e-01  4.58941028e-01  4.58941028e-01  4.58941028e-01  4.58941028e-01  4.58941028e-01  3.27198328e-09  1.58476023e-07  9.73535537e-08  1.30000000e-01 
 1.40000000e-01  4.58941052e-01  4.58941052e-01  4.58941052e-01  4.58941052e-01  4.58941052e-01  4.58941052e-01  3.27198329e-09  1.58476065e-07  9.73532988e-08  1.40000000e-01 
 1.50000000e-01  4.58941055e-01  4.58941055e-01  4.58941055e-01  4.58941055e-01  4.58941055e-01  4.58941055e-01  3.27198328e-09  1.58476063e-07  9.73531069e-08  1.50000000e-01 
 1.60000000e-01  4.58941076e-01  4.58941076e-01  4.58941076e-01  4.58941076e-01  4.58941076e-01  4.58941076e-01  3.27198329e-09  1.58476096e-07  9.73529257e-08  1.60000000e-01 
 1.70000000e-01  4.58941068e-01  4.58941068e-01  4.58941068e-01  4.58941068e-01  4.58941068e-01  4.58941068e-01  3.27198328e-09  1.58476074e-07  9.73526753e-08  1.70000000e-01 
 1.80000000e-01  4.58941039e-01  4.58941039e-01  4.58941039e-01  4.58941039e-01  4.58941039e-01  4.58941039e-01  3.27198329e-09  1.58476038e-07  9.73524283e-08  1.80000000e-01 
 1.90000000e-01  4.58941049e-01  4.58941049e-01  4.58941049e-01  4.58941049e-01  4.58941049e-01  4.58941049e-01  3.27198328e-09  1.58476056e-07  9.73523058e-08  1.90000000e-01 
 2.00000000e-01  4.58941035e-01  4.58941035e-01  4.58941035e-01  4.58941035e-01  4.58941035e-01  4.58941035e-01  3.27198329e-09  1.58476025e-07  9.73520802e-08  2.00000000e-01 
 2.10000000e-01  4.58941040e-01  4.58941040e-01  4.58941040e-01  4.58941040e-01  4.58941040e-01  4.58941040e-01  3.27198328e-09  1.58476041e-07  9.73519114e-08  2.10000000e-01 
 2.20000000e-01  4.58941063e-01  4.58941063e-01  4.58941063e-01  4.58941063e-01  4.58941063e-01  4.58941063e-01  3.27198329e-09  1.58476068e-07  9.73519523e-08  2.20000000e-01 
 2.30000000e-01  4.58941083e-01  4.58941082e-01  4.58941083e-01  4.58941083e-01  4.58941083e-01  4.58941083e-01  3.27198328e-09  1.58476100e-07  9.73517071e-08  2.30000000e-01 
 2.40000000e-01  4.58941056e-01  4.58941056e-01  4.58941056e-01  4.58941056e-01  4.58941056e-01  4.58941056e-01  3.27198329e-09  1.58476055e-07  9.73515615e-08  2.40000000e-01 
 2.50000000e-01  4.58941034e-01  4.58941034e-01  4.58941034e-01  4.58941034e-01  4.58941034e-01  4.58941034e-01  3.27198328e-09  1.58476030e-07  9.73512293e-08  2.50000000e-01 
 2.60000000e-01  4.58941077e-01  4.58941077e-01  4.58941077e-01  4.58941077e-01  4.58941077e-01  4.58941077e-01  3.27198329e-09  1.58476095e-07  9.73512098e-08  2.60000000e-01 
 2.70000000e-01  4.58941081e-01  4.58941081e-01  4.58941081e-01  4.58941081e-01  4.58941081e-01  4.58941081e-01  3.27198328e-09  1.58476103e-07  9.73512080e-08  2.70000000e-01 
 2.80000000e-01  4.58941066e-01  4.58941066e-01  4.58941066e-01  4.58941066e-01  4.58941066e-01  4.58941066e-01  3.27198329e-09  1.58476083e-07  9.73510197e-08  2.80000000e-01 
 2.90000000e-01  4.58941051e-01  4.58941051e-01  4.58941051e-01  4.58941051e-01  4.58941051e-01  4.58941051e-01  3.27198328e-09  1.58476055e-07  9.73508527e-08  2.90000000e-01 
 3.00000000e-01  4.58941020e-01  4.58941020e-01  4.58941020e-01  4.58941020e-01  4.58941020e-01  4.58941020e-01  3.27198328e-09  1.58476000e-07  9.73507390e-08  3.00000000e-01 
 3.10000000e-01  4.58941061e-01  4.58941061e-01  4.58941061e-01  4.58941061e-01  4.58941061e-01  4.58941061e-01  3.27198328e-09  1.58476072e-07  9.73506680e-08  3.10000000e-01 
 3.20000000e-01  4.58941051e-01  4.58941051e-01  4.58941051e-01  4.58941051e-01  4.58941051e-01  4.58941051e-01  3.27198329e-09  1.58476056e-07  9.73503980e-08  3.20000000e-01 
 3.30000000e-01  4.58941050e-01  4.58941050e-01  4.58941050e-01  4.58941050e-01  4.58941050e-01  4.58941050e-01  3.27198328e-09  1.58476045e-07  9.73503518e-08  3.30000000e-01 
 3.40000000e-01  4.58941048e-01  4.58941048e-01  4.58941048e-01  4.58941048e-01  4.58941048e-01  4.58941048e-01  3.27198329e-09  1.58476075e-07  9.73502310e-08  3.40000000e-01 
 3.50000000e-01  4.58941033e-01  4.58941033e-01  4.58941033e-01  4.58941033e-01  4.58941033e-01  4.58941033e-01  3.27198328e-09  1.58476032e-07  9.73501599e-08  3.50000000e-01 
 3.60000000e-01  4.58941064e-01  4.58941064e-01  4.58941064e-01  4.58941064e-01  4.58941064e-01  4.58941064e-01  3.27198329e-09  1.58476071e-07  9.73501528e-08  3.60000000e-01 
 3.70000000e-01  4.58941073e-01  4.58941073e-01  4.58941073e-01  4.58941073e-01  4.58941073e-01  4.58941073e-01  3.27198328e-09  1.58476095e-07  9.73500995e-08  3.70000000e-01 
 3.80000000e-01  4.58941044e-01  4.58941044e-01  4.58941044e-01  4.58941044e-01  4.58941044e-01  4.58941044e-01  3.27198329e-09  1.58476046e-07  9.73498011e-08  3.80000000e-01 
 3.90000000e-01  4.58941052e-01  4.58941052e-01  4.58941052e-01  4.58941052e-01  4.58941052e-01  4.58941052e-01  3.27198339e-09  1.58476057e-07  9.73498189e-08  3.90000000e-01 
 4.00000000e-01  4.58941069e-01  4.58941069e-01  4.58941069e-01  4.58941069e-01  4.58941069e-01  4.58941069e-01  3.27198328e-09  1.58476072e-07  9.73497443e-08  4.00000000e-01 
 4.10000000e-01  4.58941047e-01  4.58941047e-01  4.58941047e-01  4.58941047e-01  4.58941047e-01  4.58941047e-01  3.27198329e-09  1.58476063e-07  9.73495773e-08  4.10000000e-01 
 4.20000000e-01  4.58941049e-01  4.58941049e-01  4.58941049e-01  4.58941049e-01  4.58941049e-01  4.58941049e-01  3.27198339e-09  1.58476053e-07  9.73496022e-08  4.20000000e-01 
 4.30000000e-01  4.58941035e-01  4.58941035e-01  4.58941035e-01  4.58941035e-01  4.58941035e-01  4.58941035e-01  3.27198339e-09  1.58476036e-07  9.73493783e-08  4.30000000e-01 
 4.40000000e-01  4.58941062e-01  4.58941062e-01  4.58941062e-01  4.58941062e-01  4.58941062e-01  4.58941062e-01  3.27198328e-09  1.58476072e-07  9.73493606e-08  4.40000000e-01 
 4.50000000e-01  4.58941077e-01  4.58941077e-01  4.58941077e-01  4.58941077e-01  4.58941077e-01  4.58941077e-01  3.27198329e-09  1.58476090e-07  9.73492824e-08  4.50000000e-01 
 4.60000000e-01  4.58941063e-01  4.58941063e-01  4.58941063e-01  4.58941063e-01  4.58941063e-01  4.58941063e-01  3.27198328e-09  1.58476070e-07  9.73492327e-08  4.60000000e-01 
 4.70000000e-01  4.58941061e-01  4.58941061e-01  4.58941061e-01  4.58941061e-01  4.58941061e-01  4.58941061e-01  3.27198329e-09  1.58476084e-07  9.73490799e-08  4.70000000e-01 
 4.80000000e-01  4.58941032e-01  4.58941032e-01  4.58941032e-01  4.58941032e-01  4.58941032e-01  4.58941032e-01  3.27198328e-09  1.58476034e-07  9.73490444e-08  4.80000000e-01 
 4.90000000e-01  4.58941074e-01  4.58941074e-01  4.58941074e-01  4.58941074e-01  4.58941074e-01  4.58941074e-01  3.27198329e-09  1.58476092e-07  9.73490089e-08  4.90000000e-01 
 5.00000000e-01  4.58941073e-01  4.58941073e-01  4.58941073e-01  4.58941073e-01  4.58941073e-01  4.58941073e-01  3.27198328e-09  1.58476093e-07  9.73489236e-08  5.00000000e-01 
 5.10000000e-01  4.58941013e-01  4.58941013e-01  4.58941013e-01  4.58941013e-01  4.58941013e-01  4.58941013e-01  3.27198328e-09  1.58475999e-07  9.73487211e-08  5.10000000e-01 
 5.20000000e-01  4.58941065e-01  4.58941065e-01  4.58941065e-01  4.58941065e-01  4.58941065e-01  4.58941065e-01  3.27198328e-09  1.58476065e-07  9.73487744e-08  5.20000000e-01 
 5.30000000e-01  4.58941033e-01  4.58941033e-01  4.58941033e-01  4.58941033e-01  4.58941033e-01  4.58941033e-01  3.27198329e-09  1.58476027e-07  9.73487104e-08  5.30000000e-01 
 5.40000000e-01  4.58941073e-01  4.58941073e-01  4.58941073e-01  4.58941073e-01  4.58941073e-01  4.58941073e-01  3.27198328e-09  1.58476089e-07  9.73486074e-08  5.40000000e-01 
 5.50000000e-01  4.58941070e-01  4.58941070e-01  4.58941070e-01  4.58941070e-01  4.58941070e-01  4.58941070e-01  3.27198329e-09  1.58476084e-07  9.73485115e-08  5.50000000e-01 
 5.60000000e-01  4.58941060e-01  4.58941060e-01  4.58941060e-01  4.58941060e-01  4.58941060e-01  4.58941060e-01  3.27198328e-09  1.58476078e-07  9.73484902e-08  5.60000000e-01 
 5.70000000e-01  4.58941020e-01  4.58941020e-01  4.58941020e-01  4.58941020e-01  4.58941020e-01  4.58941020e-01  3.27198328e-09  1.58476017e-07  9.73482841e-08  5.70000000e-01 
 5.80000000e-01  4.58941060e-01  4.58941060e-01  4.58941060e-01  4.58941060e-01  4.58941060e-01  4.58941060e-01  3.27198328e-09  1.58476060e-07  9.73482344e-08  5.80000000e-01 
 5.90000000e-01  4.58941093e-01  4.58941093e-01  4.58941093e-01  4.58941093e-01  4.58941093e-01  4.58941093e-01  3.27198329e-09  1.58476119e-07  9.73483196e-08  5.90000000e-01 
 6.00000000e-01  4.58941033e-01  4.58941033e-01  4.58941033e-01  4.58941033e-01  4.58941033e-01  4.58941033e-01  3.27198328e-09  1.58476035e-07  9.73480923e-08  6.00000000e-01 
 6.10000000e-01  4.58941072e-01  4.58941072e-01  4.58941073e-01  4.58941073e-01  4.58941073e-01  4.58941073e-01  3.27198329e-09  1.58476081e-07  9.73482130e-08  6.10000000e-01 
 6.20000000e-01  4.58941042e-01  4.58941042e-01  4.58941042e-01  4.58941042e-01  4.58941042e-01  4.58941042e-01  3.27198339e-09  1.58476056e-07  9.73478507e-08  6.20000000e-01 
 6.30000000e-01  4.58941054e-01  4.58941054e-01  4.58941054e-01  4.58941054e-01  4.58941054e-01  4.58941054e-01  3.27198328e-09  1.58476058e-07  9.73478649e-08  6.30000000e-01 
 6.40000000e-01  4.58941063e-01  4.58941062e-01  4.58941063e-01  4.58941063e-01  4.58941063e-01  4.58941063e-01  3.27198329e-09  1.58476067e-07  9.73478933e-08  6.40000000e-01 
 6.50000000e-01  4.58941042e-01  4.58941042e-01  4.58941042e-01  4.58941042e-01  4.58941042e-01  4.58941042e-01  3.27198328e-09  1.58476053e-07  9.73478080e-08  6.50000000e-01 
 6.60000000e-01  4.58941057e-01  4.58941057e-01  4.58941057e-01  4.58941057e-01  4.58941057e-01  4.58941057e-01  3.27198329e-09  1.58476080e-07  9.73475949e-08  6.60000000e-01 
 6.70000000e-01  4.58941057e-01  4.58941057e-01  4.58941057e-01  4.58941057e-01  4.58941057e-01  4.58941057e-01  3.27198328e-09  1.58476069e-07  9.73475380e-08  6.70000000e-01 
 6.80000000e-01  4.58941050e-01  4.58941050e-01  4.58941050e-01  4.58941050e-01  4.58941050e-01  4.58941050e-01  3.27198329e-09  1.58476063e-07  9.73475167e-08  6.80000000e-01 
 6.90000000e-01  4.58941047e-01  4.58941047e-01  4.58941047e-01  4.58941047e-01  4.58941047e-01  4.58941047e-01  3.27198328e-09  1.58476039e-07  9.73474172e-08  6.90000000e-01 
 7.00000000e-01  4.58941028e-01  4.58941028e-01  4.58941028e-01  4.58941028e-01  4.58941028e-01  4.58941028e-01  3.27198329e-09  1.58476041e-07  9.73472893e-08  7.00000000e-01 
 7.10000000e-01  4.58941059e-01  4.58941059e-01  4.58941059e-01  4.58941059e-01  4.58941059e-01  4.58941059e-01  3.27198339e-09  1.58476071e-07  9.73472396e-08  7.10000000e-01 
 7.20000000e-01  4.58941043e-01  4.58941043e-01  4.58941043e-01  4.58941043e-01  4.58941043e-01  4.58941043e-01  3.27198328e-09  1.58476049e-07  9.73473675e-08  7.20000000e-01 
 7.30000000e-01  4.58941034e-01  4.58941034e-01  4.58941034e-01  4.58941034e-01  4.58941034e-01  4.58941034e-01  3.27198329e-09  1.58476046e-07  9.73471330e-08  7.30000000e-01 
 7.40000000e-01  4.58941050e-01  4.58941050e-01  4.58941050e-01  4.58941050e-01  4.58941050e-01  4.58941050e-01  3.27198328e-09  1.58476051e-07  9.73471117e-08  7.40000000e-01 
 7.50000000e-01  4.58941031e-01  4.58941031e-01  4.58941031e-01  4.58941031e-01  4.58941031e-01  4.58941031e-01  3.27198329e-09  1.58476025e-07  9.73469767e-08  7.50000000e-01 
 7.60000000e-01  4.58941057e-01  4.58941057e-01  4.58941057e-01  4.58941057e-01  4.58941057e-01  4.58941057e-01  3.27198328e-09  1.58476073e-07  9.73469980e-08  7.60000000e-01 
 7.70000000e-01  4.58941039e-01  4.58941039e-01  4.58941039e-01  4.58941039e-01  4.58941039e-01  4.58941039e-01  3.27198329e-09  1.58476040e-07  9.73468062e-08  7.70000000e-01 
 7.80000000e-01  4.58941053e-01  4.58941053e-01  4.58941053e-01  4.58941053e-01  4.58941053e-01  4.58941053e-01  3.27198339e-09  1.58476063e-07  9.73468204e-08  7.80000000e-01 
 7.90000000e-01  4.58941031e-01  4.58941031e-01  4.58941031e-01  4.58941031e-01  4.58941031e-01  4.58941031e-01  3.27198328e-09  1.58476034e-07  9.73467067e-08  7.90000000e-01 
 8.00000000e-01  4.58941040e-01  4.58941040e-01  4.58941040e-01  4.58941040e-01  4.58941040e-01  4.58941040e-01  3.27198329e-09  1.58476046e-07  9.73465575e-08  8.00000000e-01 
 8.10000000e-01  4.58941045e-01  4.58941045e-01  4.58941045e-01  4.58941045e-01  4.58941045e-01  4.58941045e-01  3.27198328e-09  1.58476051e-07  9.73465504e-08  8.10000000e-01 
 8.20000000e-01  4.58941040e-01  4.58941040e-01  4.58941040e-01  4.58941040e-01  4.58941040e-01  4.58941040e-01  3.27198329e-09  1.58476036e-07  9.73464793e-08  8.20000000e-01 
 8.30000000e-01  4.58941027e-01  4.58941027e-01  4.58941027e-01  4.58941027e-01  4.58941027e-01  4.58941027e-01  3.27198328e-09  1.58476023e-07  9.73462662e-08  8.30000000e-01 
 8.40000000e-01  4.58941030e-01  4.58941030e-01  4.58941030e-01  4.58941030e-01  4.58941030e-01  4.58941030e-01  3.27198329e-09  1.58476038e-07  9.73463443e-08  8.40000000e-01 
 8.50000000e-01  4.58941022e-01  4.58941022e-01  4.58941022e-01  4.58941022e-01  4.58941022e-01  4.58941022e-01  3.27198327e-09  1.58476010e-07  9.73462662e-08  8.50000000e-01 
 8.60000000e-01  4.58941039e-01  4.58941039e-01  4.58941039e-01  4.58941039e-01  4.58941039e-01  4.58941039e-01  3.27198329e-09  1.58476024e-07  9.73462946e-08  8.60000000e-01 
 8.70000000e-01  4.58941059e-01  4.58941059e-01  4.58941059e-01  4.58941059e-01  4.58941059e-01  4.58941059e-01  3.27198328e-09  1.58476067e-07  9.73461809e-08  8.70000000e-01 
 8.80000000e-01  4.58941044e-01  4.58941044e-01  4.58941044e-01  4.58941044e-01  4.58941044e-01  4.58941044e-01  3.27198329e-09  1.58476037e-07  9.73460530e-08  8.80000000e-01 
 8.90000000e-01  4.58941021e-01  4.58941021e-01  4.58941021e-01  4.58941021e-01  4.58941021e-01  4.58941021e-01  3.27198327e-09  1.58476026e-07  9.73458896e-08  8.90000000e-01 
 9.00000000e-01  4.58941081e-01  4.58941081e-01  4.58941081e-01  4.58941081e-01  4.58941081e-01  4.58941081e-01  3.27198329e-09  1.58476086e-07  9.73459535e-08  9.00000000e-01 
 9.10000000e-01  4.58941048e-01  4.58941048e-01  4.58941048e-01  4.58941048e-01  4.58941048e-01  4.58941048e-01  3.27198328e-09  1.58476052e-07  9.73458967e-08  9.10000000e-01 
 9.20000000e-01  4.58941066e-01  4.58941066e-01  4.58941066e-01  4.58941066e-01  4.58941066e-01  4.58941066e-01  3.27198329e-09  1.58476083e-07  9.73457546e-08  9.20000000e-01 
 9.30000000e-01  4.58941053e-01  4.58941053e-01  4.58941053e-01  4.58941053e-01  4.58941053e-01  4.58941053e-01  3.27198328e-09  1.58476059e-07  9.73457404e-08  9.30000000e-01 
 9.40000000e-01  4.58941055e-01  4.58941055e-01  4.58941055e-01  4.58941055e-01  4.58941055e-01  4.58941055e-01  3.27198329e-09  1.58476058e-07  9.73455698e-08  9.40000000e-01 
 9.50000000e-01  4.58941053e-01  4.58941053e-01  4.58941054e-01  4.58941054e-01  4.58941054e-01  4.58941054e-01  3.27198328e-09  1.58476062e-07  9.73455059e-08  9.50000000e-01 
 9.60000000e-01  4.58941053e-01  4.58941053e-01  4.58941053e-01  4.58941053e-01  4.58941053e-01  4.58941053e-01  3.27198329e-09  1.58476057e-07  9.73454064e-08  9.60000000e-01 
 9.70000000e-01  4.58941052e-01  4.58941052e-01  4.58941052e-01  4.58941052e-01  4.58941052e-01  4.58941052e-01  3.27198328e-09  1.58476064e-07  9.73453993e-08  9.70000000e-01 
 9.80000000e-01  4.58941044e-01  4.58941044e-01  4.58941044e-01  4.58941044e-01  4.58941044e-01  4.58941044e-01  3.27198329e-09  1.58476057e-07  9.73452998e-08  9.80000000e-01 
 9.90000000e-01  4.58941026e-01  4.58941026e-01  4.58941026e-01  4.58941026e-01  4.58941026e-01  4.58941026e-01  3.27198328e-09  1.58476013e-07  9.73452075e-08  9.90000000e-01 
 1.00000000e+00  4.58941061e-01  4.58941061e-01  4.58941061e-01  4.58941061e-01  4.58941061e-01  4.58941061e-01  3.27198329e-09  1.58476069e-07  9.73451790e-08  1.00000000e+00 
 1.01000000e+00  4.58941038e-01  4.58941038e-01  4.58941039e-01  4.58941039e-01  4.58941039e-01  4.58941039e-01  3.27198328e-09  1.58476032e-07  9.73450085e-08  1.01000000e+00 
 1.02000000e+00  4.58941055e-01  4.58941055e-01  4.58941055e-01  4.58941055e-01  4.58941055e-01  4.58941055e-01  3.27198329e-09  1.58476062e-07  9.73449517e-08  1.02000000e+00 
 1.03000000e+00  4.58941035e-01  4.58941035e-01  4.58941035e-01  4.58941035e-01  4.58941035e-01  4.58941035e-01  3.27198328e-09  1.58476037e-07  9.73448451e-08  1.03000000e+00 
 1.04000000e+00  4.58941056e-01  4.58941056e-01  4.58941056e-01  4.58941056e-01  4.58941056e-01  4.58941056e-01  3.27198329e-09  1.58476067e-07  9.73447456e-08  1.04000000e+00 
 1.05000000e+00  4.58941046e-01  4.58941046e-01  4.58941046e-01  4.58941046e-01  4.58941046e-01  4.58941046e-01  3.27198328e-09  1.58476067e-07  9.73446461e-08  1.05000000e+00 
 1.06000000e+00  4.58941040e-01  4.58941040e-01  4.58941040e-01  4.58941040e-01  4.58941040e-01  4.58941040e-01  3.27198329e-09  1.58476019e-07  9.73445324e-08  1.06000000e+00 
 1.07000000e+00  4.58941046e-01  4.58941046e-01  4.58941046e-01  4.58941046e-01  4.58941046e-01  4.58941046e-01  3.27198328e-09  1.58476053e-07  9.73444685e-08  1.07000000e+00 
 1.08000000e+00  4.58941039e-01  4.58941039e-01  4.58941039e-01  4.58941039e-01  4.58941039e-01  4.58941039e-01  3.27198329e-09  1.58476043e-07  9.73444614e-08  1.08000000e+00 
 1.09000000e+00  4.58941060e-01  4.58941060e-01  4.58941060e-01  4.58941060e-01  4.58941060e-01  4.58941060e-01  3.27198328e-09  1.58476071e-07  9.73443051e-08  1.09000000e+00 
 1.10000000e+00  4.58941093e-01  4.58941093e-01  4.58941093e-01  4.58941093e-01  4.58941093e-01  4.58941093e-01  3.27198329e-09  1.58476113e-07  9.73443122e-08  1.10000000e+00 
