 v-sweep         v(b0)           v(b1)           v(b2)           v(b3)           v(b4)           v(b5)           v(b6)           i(vbias)        i(viout)        v(vout)        
 0.00000000e+00  3.26960982e-09  4.57451012e-01  4.57451012e-01  4.57451012e-01  4.57451012e-01  3.28307446e-09  4.57451012e-01  1.56113611e-07  1.40866694e-07  0.00000000e+00 
 1.00000000e-02  3.26960982e-09  4.57450981e-01  4.57450981e-01  4.57450981e-01  4.57450981e-01  3.28307446e-09  4.57450981e-01  1.56113570e-07  1.40866226e-07  1.00000000e-02 
 2.00000000e-02  3.26960982e-09  4.57451015e-01  4.57451015e-01  4.57451015e-01  4.57451015e-01  3.28307446e-09  4.57451015e-01  1.56113617e-07  1.40865934e-07  2.00000000e-02 
 3.00000000e-02  3.26960994e-09  4.57450980e-01  4.57450980e-01  4.57450980e-01  4.57450980e-01  3.28307446e-09  4.57450980e-01  1.56113555e-07  1.40865437e-07  3.00000000e-02 
 4.00000000e-02  3.26960982e-09  4.57450981e-01  4.57450980e-01  4.57450981e-01  4.57450981e-01  3.28307446e-09  4.57450981e-01  1.56113557e-07  1.40865043e-07  4.00000000e-02 
 5.00000000e-02  3.26960982e-09  4.57451010e-01  4.57451010e-01  4.57451010e-01  4.57451010e-01  3.28307446e-09  4.57451010e-01  1.56113610e-07  1.40864671e-07  5.00000000e-02 
 6.00000000e-02  3.26960994e-09  4.57451018e-01  4.57451017e-01  4.57451018e-01  4.57451018e-01  3.28307446e-09  4.57451018e-01  1.56113617e-07  1.40864444e-07  6.00000000e-02 
 7.00000000e-02  3.26960982e-09  4.57450984e-01  4.57450984e-01  4.57450984e-01  4.57450984e-01  3.28307446e-09  4.57450984e-01  1.56113572e-07  1.40864059e-07  7.00000000e-02 
 8.00000000e-02  3.26960982e-09  4.57450984e-01  4.57450984e-01  4.57450984e-01  4.57450984e-01  3.28307446e-09  4.57450984e-01  1.56113556e-07  1.40863731e-07  8.00000000e-02 
 9.00000000e-02  3.26960982e-09  4.57450993e-01  4.57450993e-01  4.57450993e-01  4.57450993e-01  3.28307446e-09  4.57450993e-01  1.56113579e-07  1.40863401e-07  9.00000000e-02 
 1.00000000e-01  3.26960994e-09  4.57450995e-01  4.57450995e-01  4.57450995e-01  4.57450995e-01  3.28307446e-09  4.57450995e-01  1.56113584e-07  1.40863105e-07  1.00000000e-01 
 1.10000000e-01  3.26960994e-09  4.57451030e-01  4.57451030e-01  4.57451030e-01  4.57451030e-01  3.28307446e-09  4.57451030e-01  1.56113630e-07  1.40863011e-07  1.10000000e-01 
 1.20000000e-01  3.26960994e-09  4.57451016e-01  4.57451016e-01  4.57451016e-01  4.57451016e-01  3.28307446e-09  4.57451016e-01  1.56113617e-07  1.40862611e-07  1.20000000e-01 
 1.30000000e-01  3.26960982e-09  4.57451008e-01  4.57451008e-01  4.57451008e-01  4.57451008e-01  3.28307446e-09  4.57451008e-01  1.56113612e-07  1.40862458e-07  1.30000000e-01 
 1.40000000e-01  3.26960994e-09  4.57450989e-01  4.57450989e-01  4.57450989e-01  4.57450989e-01  3.28307446e-09  4.57450989e-01  1.56113577e-07  1.40862082e-07  1.40000000e-01 
 1.50000000e-01  3.26960994e-09  4.57451007e-01  4.57451007e-01  4.57451007e-01  4.57451007e-01  3.28307446e-09  4.57451007e-01  1.56113598e-07  1.40861914e-07  1.50000000e-01 
 1.60000000e-01  3.26960982e-09  4.57450991e-01  4.57450991e-01  4.57450991e-01  4.57450991e-01  3.28307446e-09  4.57450991e-01  1.56113577e-07  1.40861614e-07  1.60000000e-01 
 1.70000000e-01  3.26960982e-09  4.57451018e-01  4.57451018e-01  4.57451018e-01  4.57451018e-01  3.28307446e-09  4.57451018e-01  1.56113608e-07  1.40861525e-07  1.70000000e-01 
 1.80000000e-01  3.26960982e-09  4.57450989e-01  4.57450989e-01  4.57450989e-01  4.57450989e-01  3.28307446e-09  4.57450989e-01  1.56113578e-07  1.40861115e-07  1.80000000e-01 
 1.90000000e-01  3.26960982e-09  4.57451006e-01  4.57451006e-01  4.57451006e-01  4.57451006e-01  3.28307446e-09  4.57451006e-01  1.56113592e-07  1.40861061e-07  1.90000000e-01 
 2.00000000e-01  3.26960994e-09  4.57450959e-01  4.57450958e-01  4.57450959e-01  4.57450959e-01  3.28307446e-09  4.57450959e-01  1.56113536e-07  1.40860635e-07  2.00000000e-01 
 2.10000000e-01  3.26960982e-09  4.57451002e-01  4.57451002e-01  4.57451002e-01  4.57451002e-01  3.28307446e-09  4.57451002e-01  1.56113600e-07  1.40860694e-07  2.10000000e-01 
 2.20000000e-01  3.26960983e-09  4.57451028e-01  4.57451027e-01  4.57451028e-01  4.57451027e-01  3.28307446e-09  4.57451027e-01  1.56113637e-07  1.40860584e-07  2.20000000e-01 
 2.30000000e-01  3.26960982e-09  4.57451004e-01  4.57451004e-01  4.57451004e-01  4.57451004e-01  3.28307446e-09  4.57451004e-01  1.56113590e-07  1.40860292e-07  2.30000000e-01 
 2.40000000e-01  3.26960982e-09  4.57451008e-01  4.57451008e-01  4.57451008e-01  4.57451008e-01  3.28307446e-09  4.57451008e-01  1.56113594e-07  1.40860216e-07  2.40000000e-01 
 2.50000000e-01  3.26960982e-09  4.57450988e-01  4.57450988e-01  4.57450988e-01  4.57450988e-01  3.28307446e-09  4.57450988e-01  1.56113577e-07  1.40859957e-07  2.50000000e-01 
 2.60000000e-01  3.26960982e-09  4.57451006e-01  4.57451005e-01  4.57451006e-01  4.57451006e-01  3.28307446e-09  4.57451006e-01  1.56113595e-07  1.40859900e-07  2.60000000e-01 
 2.70000000e-01  3.26960982e-09  4.57450995e-01  4.57450994e-01  4.57450994e-01  4.57450994e-01  3.28307446e-09  4.57450994e-01  1.56113585e-07  1.40859683e-07  2.70000000e-01 
 2.80000000e-01  3.26960983e-09  4.57451034e-01  4.57451034e-01  4.57451034e-01  4.57451034e-01  3.28307446e-09  4.57451034e-01  1.56113635e-07  1.40859594e-07  2.80000000e-01 
 2.90000000e-01  3.26960983e-09  4.57451025e-01  4.57451024e-01  4.57451025e-01  4.57451025e-01  3.28307446e-09  4.57451025e-01  1.56113639e-07  1.40859484e-07  2.90000000e-01 
 3.00000000e-01  3.26960982e-09  4.57450999e-01  4.57450998e-01  4.57450999e-01  4.57450999e-01  3.28307446e-09  4.57450999e-01  1.56113587e-07  1.40859314e-07  3.00000000e-01 
 3.10000000e-01  3.26960983e-09  4.57451027e-01  4.57451027e-01  4.57451027e-01  4.57451027e-01  3.28307446e-09  4.57451027e-01  1.56113626e-07  1.40859235e-07  3.10000000e-01 
 3.20000000e-01  3.26960982e-09  4.57451002e-01  4.57451002e-01  4.57451002e-01  4.57451002e-01  3.28307446e-09  4.57451002e-01  1.56113580e-07  1.40858898e-07  3.20000000e-01 
 3.30000000e-01  3.26960983e-09  4.57451030e-01  4.57451030e-01  4.57451030e-01  4.57451030e-01  3.28307446e-09  4.57451030e-01  1.56113634e-07  1.40858937e-07  3.30000000e-01 
 3.40000000e-01  3.26960983e-09  4.57451032e-01  4.57451032e-01  4.57451032e-01  4.57451032e-01  3.28307446e-09  4.57451032e-01  1.56113633e-07  1.40858738e-07  3.40000000e-01 
 3.50000000e-01  3.26960994e-09  4.57450991e-01  4.57450991e-01  4.57450991e-01  4.57450991e-01  3.28307446e-09  4.57450991e-01  1.56113590e-07  1.40858532e-07  3.50000000e-01 
 3.60000000e-01  3.26960982e-09  4.57451016e-01  4.57451016e-01  4.57451016e-01  4.57451016e-01  3.28307446e-09  4.57451016e-01  1.56113618e-07  1.40858447e-07  3.60000000e-01 
 3.70000000e-01  3.26960994e-09  4.57451023e-01  4.57451023e-01  4.57451023e-01  4.57451023e-01  3.28307446e-09  4.57451023e-01  1.56113625e-07  1.40858354e-07  3.70000000e-01 
 3.80000000e-01  3.26960982e-09  4.57450979e-01  4.57450978e-01  4.57450979e-01  4.57450979e-01  3.28307446e-09  4.57450979e-01  1.56113575e-07  1.40858205e-07  3.80000000e-01 
 3.90000000e-01  3.26960982e-09  4.57450989e-01  4.57450989e-01  4.57450989e-01  4.57450989e-01  3.28307446e-09  4.57450989e-01  1.56113564e-07  1.40857981e-07  3.90000000e-01 
 4.00000000e-01  3.26960982e-09  4.57451015e-01  4.57451014e-01  4.57451015e-01  4.57451015e-01  3.28307446e-09  4.57451015e-01  1.56113603e-07  1.40858035e-07  4.00000000e-01 
 4.10000000e-01  3.26960982e-09  4.57450997e-01  4.57450997e-01  4.57450997e-01  4.57450997e-01  3.28307446e-09  4.57450997e-01  1.56113586e-07  1.40857878e-07  4.10000000e-01 
 4.20000000e-01  3.26960982e-09  4.57451012e-01  4.57451011e-01  4.57451012e-01  4.57451012e-01  3.28307446e-09  4.57451012e-01  1.56113607e-07  1.40857711e-07  4.20000000e-01 
 4.30000000e-01  3.26960994e-09  4.57451022e-01  4.57451022e-01  4.57451022e-01  4.57451022e-01  3.28307446e-09  4.57451022e-01  1.56113617e-07  1.40857740e-07  4.30000000e-01 
 4.40000000e-01  3.26960983e-09  4.57451041e-01  4.57451041e-01  4.57451041e-01  4.57451041e-01  3.28307446e-09  4.57451041e-01  1.56113644e-07  1.40857715e-07  4.40000000e-01 
 4.50000000e-01  3.26960982e-09  4.57450990e-01  4.57450990e-01  4.57450990e-01  4.57450990e-01  3.28307446e-09  4.57450990e-01  1.56113570e-07  1.40857402e-07  4.50000000e-01 
 4.60000000e-01  3.26960982e-09  4.57451014e-01  4.57451014e-01  4.57451014e-01  4.57451014e-01  3.28307446e-09  4.57451014e-01  1.56113591e-07  1.40857331e-07  4.60000000e-01 
 4.70000000e-01  3.26960982e-09  4.57451014e-01  4.57451014e-01  4.57451014e-01  4.57451014e-01  3.28307446e-09  4.57451014e-01  1.56113606e-07  1.40857299e-07  4.70000000e-01 
 4.80000000e-01  3.26960983e-09  4.57451032e-01  4.57451032e-01  4.57451032e-01  4.57451032e-01  3.28307446e-09  4.57451032e-01  1.56113635e-07  1.40857235e-07  4.80000000e-01 
 4.90000000e-01  3.26960982e-09  4.57450985e-01  4.57450985e-01  4.57450985e-01  4.57450985e-01  3.28307446e-09  4.57450985e-01  1.56113565e-07  1.40856862e-07  4.90000000e-01 
 5.00000000e-01  3.26960982e-09  4.57450985e-01  4.57450985e-01  4.57450985e-01  4.57450985e-01  3.28307446e-09  4.57450985e-01  1.56113573e-07  1.40856880e-07  5.00000000e-01 
 5.10000000e-01  3.26960982e-09  4.57451011e-01  4.57451011e-01  4.57451011e-01  4.57451011e-01  3.28307446e-09  4.57451011e-01  1.56113610e-07  1.40856773e-07  5.10000000e-01 
 5.20000000e-01  3.26960994e-09  4.57451007e-01  4.57451007e-01  4.57451007e-01  4.57451007e-01  3.28307446e-09  4.57451007e-01  1.56113602e-07  1.40856770e-07  5.20000000e-01 
 5.30000000e-01  3.26960994e-09  4.57451016e-01  4.57451016e-01  4.57451016e-01  4.57451016e-01  3.28307446e-09  4.57451016e-01  1.56113622e-07  1.40856709e-07  5.30000000e-01 
 5.40000000e-01  3.26960994e-09  4.57451001e-01  4.57451001e-01  4.57451001e-01  4.57451001e-01  3.28307446e-09  4.57451001e-01  1.56113591e-07  1.40856560e-07  5.40000000e-01 
 5.50000000e-01  3.26960982e-09  4.57451014e-01  4.57451014e-01  4.57451014e-01  4.57451014e-01  3.28307446e-09  4.57451014e-01  1.56113611e-07  1.40856443e-07  5.50000000e-01 
 5.60000000e-01  3.26960982e-09  4.57450994e-01  4.57450994e-01  4.57450994e-01  4.57450994e-01  3.28307446e-09  4.57450994e-01  1.56113589e-07  1.40856329e-07  5.60000000e-01 
 5.70000000e-01  3.26960982e-09  4.57451007e-01  4.57451007e-01  4.57451007e-01  4.57451007e-01  3.28307446e-09  4.57451007e-01  1.56113608e-07  1.40856226e-07  5.70000000e-01 
 5.80000000e-01  3.26960982e-09  4.57451003e-01  4.57451003e-01  4.57451003e-01  4.57451003e-01  3.28307446e-09  4.57451003e-01  1.56113602e-07  1.40856152e-07  5.80000000e-01 
 5.90000000e-01  3.26960982e-09  4.57451008e-01  4.57451008e-01  4.57451008e-01  4.57451008e-01  3.28307446e-09  4.57451008e-01  1.56113603e-07  1.40856137e-07  5.90000000e-01 
 6.00000000e-01  3.26960982e-09  4.57450996e-01  4.57450996e-01  4.57450996e-01  4.57450996e-01  3.28307446e-09  4.57450996e-01  1.56113589e-07  1.40855953e-07  6.00000000e-01 
 6.10000000e-01  3.26960983e-09  4.57451027e-01  4.57451027e-01  4.57451027e-01  4.57451027e-01  3.28307446e-09  4.57451027e-01  1.56113616e-07  1.40856038e-07  6.10000000e-01 
 6.20000000e-01  3.26960982e-09  4.57451015e-01  4.57451014e-01  4.57451015e-01  4.57451015e-01  3.28307446e-09  4.57451015e-01  1.56113622e-07  1.40855896e-07  6.20000000e-01 
 6.30000000e-01  3.26960994e-09  4.57451004e-01  4.57451004e-01  4.57451004e-01  4.57451004e-01  3.28307446e-09  4.57451004e-01  1.56113590e-07  1.40855782e-07  6.30000000e-01 
 6.40000000e-01  3.26960994e-09  4.57451008e-01  4.57451008e-01  4.57451008e-01  4.57451008e-01  3.28307446e-09  4.57451008e-01  1.56113602e-07  1.40855583e-07  6.40000000e-01 
 6.50000000e-01  3.26960982e-09  4.57451012e-01  4.57451012e-01  4.57451012e-01  4.57451012e-01  3.28307446e-09  4.57451012e-01  1.56113614e-07  1.40855519e-07  6.50000000e-01 
 6.60000000e-01  3.26960994e-09  4.57451005e-01  4.57451005e-01  4.57451005e-01  4.57451005e-01  3.28307446e-09  4.57451005e-01  1.56113599e-07  1.40855398e-07  6.60000000e-01 
 6.70000000e-01  3.26960983e-09  4.57451032e-01  4.57451032e-01  4.57451032e-01  4.57451032e-01  3.28307446e-09  4.57451032e-01  1.56113637e-07  1.40855413e-07  6.70000000e-01 
 6.80000000e-01  3.26960994e-09  4.57451017e-01  4.57451017e-01  4.57451017e-01  4.57451017e-01  3.28307446e-09  4.57451017e-01  1.56113612e-07  1.40855263e-07  6.80000000e-01 
 6.90000000e-01  3.26960994e-09  4.57450982e-01  4.57450982e-01  4.57450982e-01  4.57450982e-01  3.28307446e-09  4.57450982e-01  1.56113571e-07  1.40855043e-07  6.90000000e-01 
 7.00000000e-01  3.26960994e-09  4.57451001e-01  4.57451001e-01  4.57451001e-01  4.57451001e-01  3.28307446e-09  4.57451001e-01  1.56113597e-07  1.40855001e-07  7.00000000e-01 
 7.10000000e-01  3.26960982e-09  4.57451012e-01  4.57451012e-01  4.57451012e-01  4.57451012e-01  3.28307446e-09  4.57451012e-01  1.56113608e-07  1.40854993e-07  7.10000000e-01 
 7.20000000e-01  3.26960982e-09  4.57451002e-01  4.57451002e-01  4.57451002e-01  4.57451002e-01  3.28307446e-09  4.57451002e-01  1.56113598e-07  1.40854830e-07  7.20000000e-01 
 7.30000000e-01  3.26960982e-09  4.57451013e-01  4.57451013e-01  4.57451013e-01  4.57451013e-01  3.28307446e-09  4.57451013e-01  1.56113604e-07  1.40854723e-07  7.30000000e-01 
 7.40000000e-01  3.26960983e-09  4.57451027e-01  4.57451027e-01  4.57451027e-01  4.57451027e-01  3.28307446e-09  4.57451027e-01  1.56113623e-07  1.40854780e-07  7.40000000e-01 
 7.50000000e-01  3.26960982e-09  4.57450986e-01  4.57450986e-01  4.57450986e-01  4.57450986e-01  3.28307446e-09  4.57450986e-01  1.56113570e-07  1.40854489e-07  7.50000000e-01 
 7.60000000e-01  3.26960994e-09  4.57451011e-01  4.57451011e-01  4.57451011e-01  4.57451011e-01  3.28307446e-09  4.57451011e-01  1.56113598e-07  1.40854418e-07  7.60000000e-01 
 7.70000000e-01  3.26960982e-09  4.57451001e-01  4.57451001e-01  4.57451001e-01  4.57451001e-01  3.28307446e-09  4.57451001e-01  1.56113599e-07  1.40854333e-07  7.70000000e-01 
 7.80000000e-01  3.26960982e-09  4.57451003e-01  4.57451003e-01  4.57451003e-01  4.57451003e-01  3.28307446e-09  4.57451003e-01  1.56113587e-07  1.40854247e-07  7.80000000e-01 
 7.90000000e-01  3.26960983e-09  4.57451037e-01  4.57451037e-01  4.57451037e-01  4.57451037e-01  3.28307446e-09  4.57451037e-01  1.56113635e-07  1.40854212e-07  7.90000000e-01 
 8.00000000e-01  3.26960982e-09  4.57451018e-01  4.57451018e-01  4.57451018e-01  4.57451018e-01  3.28307446e-09  4.57451018e-01  1.56113624e-07  1.40854112e-07  8.00000000e-01 
 8.10000000e-01  3.26960982e-09  4.57451007e-01  4.57451006e-01  4.57451007e-01  4.57451007e-01  3.28307446e-09  4.57451007e-01  1.56113600e-07  1.40853949e-07  8.10000000e-01 
 8.20000000e-01  3.26960982e-09  4.57451015e-01  4.57451014e-01  4.57451015e-01  4.57451015e-01  3.28307446e-09  4.57451015e-01  1.56113624e-07  1.40853736e-07  8.20000000e-01 
 8.30000000e-01  3.26960994e-09  4.57450966e-01  4.57450966e-01  4.57450966e-01  4.57450966e-01  3.28307446e-09  4.57450966e-01  1.56113539e-07  1.40853537e-07  8.30000000e-01 
 8.40000000e-01  3.26960994e-09  4.57450991e-01  4.57450991e-01  4.57450991e-01  4.57450991e-01  3.28307446e-09  4.57450991e-01  1.56113588e-07  1.40853743e-07  8.40000000e-01 
 8.50000000e-01  3.26960982e-09  4.57450980e-01  4.57450980e-01  4.57450980e-01  4.57450980e-01  3.28307446e-09  4.57450980e-01  1.56113567e-07  1.40853501e-07  8.50000000e-01 
 8.60000000e-01  3.26960982e-09  4.57451003e-01  4.57451003e-01  4.57451003e-01  4.57451003e-01  3.28307446e-09  4.57451003e-01  1.56113606e-07  1.40853452e-07  8.60000000e-01 
 8.70000000e-01  3.26960994e-09  4.57451002e-01  4.57451002e-01  4.57451002e-01  4.57451002e-01  3.28307446e-09  4.57451002e-01  1.56113598e-07  1.40853388e-07  8.70000000e-01 
 8.80000000e-01  3.26960982e-09  4.57451010e-01  4.57451010e-01  4.57451010e-01  4.57451010e-01  3.28307446e-09  4.57451010e-01  1.56113606e-07  1.40853274e-07  8.80000000e-01 
 8.90000000e-01  3.26960982e-09  4.57450998e-01  4.57450998e-01  4.57450998e-01  4.57450998e-01  3.28307446e-09  4.57450998e-01  1.56113587e-07  1.40853146e-07  8.90000000e-01 
 9.00000000e-01  3.26960982e-09  4.57451007e-01  4.57451007e-01  4.57451007e-01  4.57451007e-01  3.28307446e-09  4.57451007e-01  1.56113601e-07  1.40852990e-07  9.00000000e-01 
 9.10000000e-01  3.26960982e-09  4.57450997e-01  4.57450997e-01  4.57450997e-01  4.57450997e-01  3.28307446e-09  4.57450997e-01  1.56113604e-07  1.40852805e-07  9.10000000e-01 
 9.20000000e-01  3.26960994e-09  4.57451010e-01  4.57451010e-01  4.57451010e-01  4.57451010e-01  3.28307446e-09  4.57451010e-01  1.56113603e-07  1.40852798e-07  9.20000000e-01 
 9.30000000e-01  3.26960982e-09  4.57451000e-01  4.57451000e-01  4.57451000e-01  4.57451000e-01  3.28307446e-09  4.57451000e-01  1.56113587e-07  1.40852613e-07  9.30000000e-01 
 9.40000000e-01  3.26960982e-09  4.57451012e-01  4.57451011e-01  4.57451012e-01  4.57451012e-01  3.28307446e-09  4.57451012e-01  1.56113604e-07  1.40852570e-07  9.40000000e-01 
 9.50000000e-01  3.26960982e-09  4.57451013e-01  4.57451013e-01  4.57451013e-01  4.57451013e-01  3.28307446e-09  4.57451013e-01  1.56113618e-07  1.40852535e-07  9.50000000e-01 
 9.60000000e-01  3.26960982e-09  4.57451006e-01  4.57451006e-01  4.57451006e-01  4.57451006e-01  3.28307446e-09  4.57451006e-01  1.56113610e-07  1.40852322e-07  9.60000000e-01 
 9.70000000e-01  3.26960982e-09  4.57451015e-01  4.57451015e-01  4.57451015e-01  4.57451015e-01  3.28307446e-09  4.57451015e-01  1.56113612e-07  1.40852286e-07  9.70000000e-01 
 9.80000000e-01  3.26960982e-09  4.57451011e-01  4.57451011e-01  4.57451011e-01  4.57451011e-01  3.28307446e-09  4.57451011e-01  1.56113613e-07  1.40852180e-07  9.80000000e-01 
 9.90000000e-01  3.26960982e-09  4.57451014e-01  4.57451014e-01  4.57451014e-01  4.57451014e-01  3.28307446e-09  4.57451014e-01  1.56113611e-07  1.40852059e-07  9.90000000e-01 
 1.00000000e+00  3.26960982e-09  4.57451015e-01  4.57451015e-01  4.57451015e-01  4.57451015e-01  3.28307446e-09  4.57451015e-01  1.56113621e-07  1.40851917e-07  1.00000000e+00 
 1.01000000e+00  3.26960982e-09  4.57451010e-01  4.57451009e-01  4.57451010e-01  4.57451010e-01  3.28307446e-09  4.57451010e-01  1.56113612e-07  1.40851789e-07  1.01000000e+00 
 1.02000000e+00  3.26960982e-09  4.57451008e-01  4.57451007e-01  4.57451008e-01  4.57451008e-01  3.28307446e-09  4.57451008e-01  1.56113613e-07  1.40851647e-07  1.02000000e+00 
 1.03000000e+00  3.26960982e-09  4.57451001e-01  4.57451001e-01  4.57451001e-01  4.57451001e-01  3.28307446e-09  4.57451001e-01  1.56113607e-07  1.40851562e-07  1.03000000e+00 
 1.04000000e+00  3.26960982e-09  4.57451015e-01  4.57451015e-01  4.57451015e-01  4.57451015e-01  3.28307446e-09  4.57451015e-01  1.56113609e-07  1.40851412e-07  1.04000000e+00 
 1.05000000e+00  3.26960983e-09  4.57451029e-01  4.57451029e-01  4.57451029e-01  4.57451029e-01  3.28307446e-09  4.57451029e-01  1.56113630e-07  1.40851363e-07  1.05000000e+00 
 1.06000000e+00  3.26960994e-09  4.57451000e-01  4.57450999e-01  4.57451000e-01  4.57450999e-01  3.28307446e-09  4.57450999e-01  1.56113597e-07  1.40851149e-07  1.06000000e+00 
 1.07000000e+00  3.26960982e-09  4.57450973e-01  4.57450973e-01  4.57450973e-01  4.57450973e-01  3.28307446e-09  4.57450973e-01  1.56113571e-07  1.40850950e-07  1.07000000e+00 
 1.08000000e+00  3.26960994e-09  4.57450988e-01  4.57450987e-01  4.57450988e-01  4.57450988e-01  3.28307446e-09  4.57450988e-01  1.56113582e-07  1.40850851e-07  1.08000000e+00 
 1.09000000e+00  3.26960994e-09  4.57451013e-01  4.57451012e-01  4.57451013e-01  4.57451013e-01  3.28307446e-09  4.57451013e-01  1.56113613e-07  1.40850801e-07  1.09000000e+00 
 1.10000000e+00  3.26960983e-09  4.57451031e-01  4.57451031e-01  4.57451031e-01  4.57451031e-01  3.28307446e-09  4.57451031e-01  1.56113652e-07  1.40850766e-07  1.10000000e+00 
