 v-sweep         v(b0)           v(b1)           v(b2)           v(b3)           v(b4)           v(b5)           v(b6)           i(vbias)        i(viout)        v(vout)        
 0.00000000e+00  3.28911054e-09  3.27048944e-09  3.32189056e-09  4.58462159e-01  4.58462159e-01  4.58462159e-01  3.28527967e-09  1.59153530e-07  8.68016047e-08  0.00000000e+00 
 1.00000000e-02  3.28911053e-09  3.27048942e-09  3.32189043e-09  4.58462162e-01  4.58462162e-01  4.58462162e-01  3.28527966e-09  1.59153522e-07  8.68012844e-08  1.00000000e-02 
 2.00000000e-02  3.28911053e-09  3.27048954e-09  3.32189044e-09  4.58462177e-01  4.58462176e-01  4.58462176e-01  3.28527966e-09  1.59153548e-07  8.68009065e-08  2.00000000e-02 
 3.00000000e-02  3.28911053e-09  3.27048954e-09  3.32189043e-09  4.58462167e-01  4.58462166e-01  4.58462167e-01  3.28527966e-09  1.59153518e-07  8.68005092e-08  3.00000000e-02 
 4.00000000e-02  3.28911053e-09  3.27048942e-09  3.32189043e-09  4.58462147e-01  4.58462147e-01  4.58462147e-01  3.28527966e-09  1.59153495e-07  8.68001293e-08  4.00000000e-02 
 5.00000000e-02  3.28911053e-09  3.27048954e-09  3.32189055e-09  4.58462182e-01  4.58462182e-01  4.58462182e-01  3.28527966e-09  1.59153556e-07  8.67998451e-08  5.00000000e-02 
 6.00000000e-02  3.28911053e-09  3.27048942e-09  3.32189054e-09  4.58462176e-01  4.58462175e-01  4.58462175e-01  3.28527966e-09  1.59153526e-07  8.67995182e-08  6.00000000e-02 
 7.00000000e-02  3.28911053e-09  3.27048942e-09  3.32189043e-09  4.58462172e-01  4.58462172e-01  4.58462172e-01  3.28527966e-09  1.59153532e-07  8.67991958e-08  7.00000000e-02 
 8.00000000e-02  3.28911053e-09  3.27048942e-09  3.32189044e-09  4.58462182e-01  4.58462182e-01  4.58462182e-01  3.28527966e-09  1.59153564e-07  8.67989094e-08  8.00000000e-02 
 9.00000000e-02  3.28911053e-09  3.27048942e-09  3.32189055e-09  4.58462191e-01  4.58462190e-01  4.58462190e-01  3.28527966e-09  1.59153559e-07  8.67986492e-08  9.00000000e-02 
 1.00000000e-01  3.28911053e-09  3.27048942e-09  3.32189054e-09  4.58462183e-01  4.58462183e-01  4.58462183e-01  3.28527966e-09  1.59153563e-07  8.67983569e-08  1.00000000e-01 
 1.10000000e-01  3.28911053e-09  3.27048954e-09  3.32189054e-09  4.58462155e-01  4.58462155e-01  4.58462155e-01  3.28527966e-09  1.59153515e-07  8.67979999e-08  1.10000000e-01 
 1.20000000e-01  3.28911053e-09  3.27048954e-09  3.32189043e-09  4.58462171e-01  4.58462171e-01  4.58462171e-01  3.28527966e-09  1.59153551e-07  8.67977787e-08  1.20000000e-01 
 1.30000000e-01  3.28911053e-09  3.27048942e-09  3.32189055e-09  4.58462191e-01  4.58462191e-01  4.58462191e-01  3.28527966e-09  1.59153562e-07  8.67976224e-08  1.30000000e-01 
 1.40000000e-01  3.28911053e-09  3.27048942e-09  3.32189054e-09  4.58462175e-01  4.58462174e-01  4.58462174e-01  3.28527966e-09  1.59153545e-07  8.67974057e-08  1.40000000e-01 
 1.50000000e-01  3.28911053e-09  3.27048954e-09  3.32189054e-09  4.58462170e-01  4.58462170e-01  4.58462170e-01  3.28527966e-09  1.59153529e-07  8.67971490e-08  1.50000000e-01 
 1.60000000e-01  3.28911053e-09  3.27048942e-09  3.32189055e-09  4.58462189e-01  4.58462189e-01  4.58462189e-01  3.28527966e-09  1.59153572e-07  8.67969678e-08  1.60000000e-01 
 1.70000000e-01  3.28911053e-09  3.27048942e-09  3.32189043e-09  4.58462179e-01  4.58462179e-01  4.58462179e-01  3.28527966e-09  1.59153542e-07  8.67968186e-08  1.70000000e-01 
 1.80000000e-01  3.28911053e-09  3.27048954e-09  3.32189055e-09  4.58462171e-01  4.58462171e-01  4.58462171e-01  3.28527966e-09  1.59153533e-07  8.67966179e-08  1.80000000e-01 
 1.90000000e-01  3.28911053e-09  3.27048942e-09  3.32189054e-09  4.58462165e-01  4.58462165e-01  4.58462165e-01  3.28527966e-09  1.59153516e-07  8.67964332e-08  1.90000000e-01 
 2.00000000e-01  3.28911053e-09  3.27048954e-09  3.32189054e-09  4.58462157e-01  4.58462157e-01  4.58462157e-01  3.28527966e-09  1.59153523e-07  8.67962662e-08  2.00000000e-01 
 2.10000000e-01  3.28911053e-09  3.27048954e-09  3.32189043e-09  4.58462161e-01  4.58462161e-01  4.58462161e-01  3.28527966e-09  1.59153520e-07  8.67960352e-08  2.10000000e-01 
 2.20000000e-01  3.28911053e-09  3.27048942e-09  3.32189044e-09  4.58462160e-01  4.58462160e-01  4.58462160e-01  3.28527966e-09  1.59153524e-07  8.67958683e-08  2.20000000e-01 
 2.30000000e-01  3.28911053e-09  3.27048954e-09  3.32189043e-09  4.58462149e-01  4.58462149e-01  4.58462149e-01  3.28527966e-09  1.59153507e-07  8.67957386e-08  2.30000000e-01 
 2.40000000e-01  3.28911053e-09  3.27048954e-09  3.32189043e-09  4.58462163e-01  4.58462163e-01  4.58462163e-01  3.28527966e-09  1.59153526e-07  8.67955432e-08  2.40000000e-01 
 2.50000000e-01  3.28911053e-09  3.27048942e-09  3.32189055e-09  4.58462169e-01  4.58462169e-01  4.58462169e-01  3.28527966e-09  1.59153528e-07  8.67954704e-08  2.50000000e-01 
 2.60000000e-01  3.28911053e-09  3.27048954e-09  3.32189043e-09  4.58462175e-01  4.58462175e-01  4.58462175e-01  3.28527966e-09  1.59153546e-07  8.67952750e-08  2.60000000e-01 
 2.70000000e-01  3.28911053e-09  3.27048942e-09  3.32189055e-09  4.58462177e-01  4.58462177e-01  4.58462177e-01  3.28527966e-09  1.59153539e-07  8.67952394e-08  2.70000000e-01 
 2.80000000e-01  3.28911053e-09  3.27048942e-09  3.32189043e-09  4.58462182e-01  4.58462182e-01  4.58462182e-01  3.28527966e-09  1.59153566e-07  8.67950831e-08  2.80000000e-01 
 2.90000000e-01  3.28911053e-09  3.27048954e-09  3.32189055e-09  4.58462214e-01  4.58462214e-01  4.58462214e-01  3.28527966e-09  1.59153597e-07  8.67950334e-08  2.90000000e-01 
 3.00000000e-01  3.28911053e-09  3.27048954e-09  3.32189043e-09  4.58462178e-01  4.58462178e-01  4.58462178e-01  3.28527966e-09  1.59153537e-07  8.67948025e-08  3.00000000e-01 
 3.10000000e-01  3.28911053e-09  3.27048954e-09  3.32189055e-09  4.58462169e-01  4.58462169e-01  4.58462169e-01  3.28527966e-09  1.59153538e-07  8.67947456e-08  3.10000000e-01 
 3.20000000e-01  3.28911053e-09  3.27048942e-09  3.32189043e-09  4.58462155e-01  4.58462155e-01  4.58462155e-01  3.28527966e-09  1.59153513e-07  8.67945857e-08  3.20000000e-01 
 3.30000000e-01  3.28911053e-09  3.27048942e-09  3.32189044e-09  4.58462168e-01  4.58462168e-01  4.58462168e-01  3.28527966e-09  1.59153527e-07  8.67944081e-08  3.30000000e-01 
 3.40000000e-01  3.28911053e-09  3.27048942e-09  3.32189055e-09  4.58462167e-01  4.58462167e-01  4.58462167e-01  3.28527966e-09  1.59153518e-07  8.67943797e-08  3.40000000e-01 
 3.50000000e-01  3.28911053e-09  3.27048942e-09  3.32189054e-09  4.58462174e-01  4.58462174e-01  4.58462174e-01  3.28527966e-09  1.59153553e-07  8.67943513e-08  3.50000000e-01 
 3.60000000e-01  3.28911053e-09  3.27048954e-09  3.32189043e-09  4.58462188e-01  4.58462188e-01  4.58462188e-01  3.28527966e-09  1.59153556e-07  8.67942695e-08  3.60000000e-01 
 3.70000000e-01  3.28911053e-09  3.27048942e-09  3.32189044e-09  4.58462173e-01  4.58462173e-01  4.58462173e-01  3.28527966e-09  1.59153534e-07  8.67941310e-08  3.70000000e-01 
 3.80000000e-01  3.28911053e-09  3.27048942e-09  3.32189043e-09  4.58462167e-01  4.58462166e-01  4.58462166e-01  3.28527966e-09  1.59153523e-07  8.67940457e-08  3.80000000e-01 
 3.90000000e-01  3.28911053e-09  3.27048942e-09  3.32189055e-09  4.58462167e-01  4.58462167e-01  4.58462167e-01  3.28527966e-09  1.59153539e-07  8.67938894e-08  3.90000000e-01 
 4.00000000e-01  3.28911053e-09  3.27048954e-09  3.32189054e-09  4.58462194e-01  4.58462193e-01  4.58462193e-01  3.28527966e-09  1.59153576e-07  8.67938290e-08  4.00000000e-01 
 4.10000000e-01  3.28911053e-09  3.27048954e-09  3.32189054e-09  4.58462165e-01  4.58462165e-01  4.58462165e-01  3.28527966e-09  1.59153527e-07  8.67938397e-08  4.10000000e-01 
 4.20000000e-01  3.28911053e-09  3.27048954e-09  3.32189054e-09  4.58462163e-01  4.58462163e-01  4.58462163e-01  3.28527966e-09  1.59153528e-07  8.67936620e-08  4.20000000e-01 
 4.30000000e-01  3.28911053e-09  3.27048954e-09  3.32189043e-09  4.58462175e-01  4.58462175e-01  4.58462175e-01  3.28527966e-09  1.59153554e-07  8.67936762e-08  4.30000000e-01 
 4.40000000e-01  3.28911053e-09  3.27048942e-09  3.32189044e-09  4.58462188e-01  4.58462187e-01  4.58462187e-01  3.28527966e-09  1.59153562e-07  8.67934773e-08  4.40000000e-01 
 4.50000000e-01  3.28911053e-09  3.27048942e-09  3.32189055e-09  4.58462175e-01  4.58462175e-01  4.58462175e-01  3.28527966e-09  1.59153534e-07  8.67934915e-08  4.50000000e-01 
 4.60000000e-01  3.28911053e-09  3.27048954e-09  3.32189054e-09  4.58462174e-01  4.58462173e-01  4.58462173e-01  3.28527966e-09  1.59153551e-07  8.67933529e-08  4.60000000e-01 
 4.70000000e-01  3.28911053e-09  3.27048954e-09  3.32189043e-09  4.58462189e-01  4.58462189e-01  4.58462189e-01  3.28527966e-09  1.59153562e-07  8.67933139e-08  4.70000000e-01 
 4.80000000e-01  3.28911053e-09  3.27048942e-09  3.32189044e-09  4.58462173e-01  4.58462173e-01  4.58462173e-01  3.28527966e-09  1.59153534e-07  8.67932286e-08  4.80000000e-01 
 4.90000000e-01  3.28911053e-09  3.27048942e-09  3.32189055e-09  4.58462158e-01  4.58462158e-01  4.58462158e-01  3.28527966e-09  1.59153516e-07  8.67931753e-08  4.90000000e-01 
 5.00000000e-01  3.28911053e-09  3.27048942e-09  3.32189054e-09  4.58462159e-01  4.58462159e-01  4.58462159e-01  3.28527966e-09  1.59153526e-07  8.67930225e-08  5.00000000e-01 
 5.10000000e-01  3.28911053e-09  3.27048954e-09  3.32189054e-09  4.58462162e-01  4.58462162e-01  4.58462162e-01  3.28527966e-09  1.59153523e-07  8.67929053e-08  5.10000000e-01 
 5.20000000e-01  3.28911053e-09  3.27048954e-09  3.32189043e-09  4.58462175e-01  4.58462175e-01  4.58462175e-01  3.28527966e-09  1.59153524e-07  8.67929302e-08  5.20000000e-01 
 5.30000000e-01  3.28911053e-09  3.27048954e-09  3.32189055e-09  4.58462181e-01  4.58462181e-01  4.58462181e-01  3.28527966e-09  1.59153548e-07  8.67927810e-08  5.30000000e-01 
 5.40000000e-01  3.28911053e-09  3.27048954e-09  3.32189043e-09  4.58462184e-01  4.58462184e-01  4.58462184e-01  3.28527966e-09  1.59153550e-07  8.67927668e-08  5.40000000e-01 
 5.50000000e-01  3.28911053e-09  3.27048942e-09  3.32189055e-09  4.58462183e-01  4.58462182e-01  4.58462182e-01  3.28527966e-09  1.59153561e-07  8.67925536e-08  5.50000000e-01 
 5.60000000e-01  3.28911053e-09  3.27048954e-09  3.32189054e-09  4.58462172e-01  4.58462172e-01  4.58462172e-01  3.28527966e-09  1.59153534e-07  8.67926531e-08  5.60000000e-01 
 5.70000000e-01  3.28911053e-09  3.27048942e-09  3.32189054e-09  4.58462165e-01  4.58462165e-01  4.58462165e-01  3.28527966e-09  1.59153528e-07  8.67925998e-08  5.70000000e-01 
 5.80000000e-01  3.28911053e-09  3.27048942e-09  3.32189054e-09  4.58462167e-01  4.58462167e-01  4.58462167e-01  3.28527966e-09  1.59153532e-07  8.67924967e-08  5.80000000e-01 
 5.90000000e-01  3.28911053e-09  3.27048942e-09  3.32189043e-09  4.58462172e-01  4.58462172e-01  4.58462172e-01  3.28527966e-09  1.59153532e-07  8.67924470e-08  5.90000000e-01 
 6.00000000e-01  3.28911053e-09  3.27048954e-09  3.32189044e-09  4.58462168e-01  4.58462168e-01  4.58462168e-01  3.28527966e-09  1.59153534e-07  8.67923831e-08  6.00000000e-01 
 6.10000000e-01  3.28911053e-09  3.27048954e-09  3.32189044e-09  4.58462180e-01  4.58462179e-01  4.58462179e-01  3.28527966e-09  1.59153560e-07  8.67923120e-08  6.10000000e-01 
 6.20000000e-01  3.28911053e-09  3.27048942e-09  3.32189055e-09  4.58462159e-01  4.58462159e-01  4.58462159e-01  3.28527966e-09  1.59153530e-07  8.67921699e-08  6.20000000e-01 
 6.30000000e-01  3.28911053e-09  3.27048942e-09  3.32189043e-09  4.58462167e-01  4.58462166e-01  4.58462167e-01  3.28527966e-09  1.59153540e-07  8.67921202e-08  6.30000000e-01 
 6.40000000e-01  3.28911053e-09  3.27048942e-09  3.32189044e-09  4.58462170e-01  4.58462170e-01  4.58462170e-01  3.28527966e-09  1.59153530e-07  8.67920988e-08  6.40000000e-01 
 6.50000000e-01  3.28911053e-09  3.27048954e-09  3.32189043e-09  4.58462164e-01  4.58462164e-01  4.58462164e-01  3.28527966e-09  1.59153518e-07  8.67919923e-08  6.50000000e-01 
 6.60000000e-01  3.28911053e-09  3.27048942e-09  3.32189055e-09  4.58462146e-01  4.58462146e-01  4.58462146e-01  3.28527966e-09  1.59153500e-07  8.67918644e-08  6.60000000e-01 
 6.70000000e-01  3.28911053e-09  3.27048954e-09  3.32189054e-09  4.58462171e-01  4.58462171e-01  4.58462171e-01  3.28527966e-09  1.59153549e-07  8.67918430e-08  6.70000000e-01 
 6.80000000e-01  3.28911053e-09  3.27048954e-09  3.32189043e-09  4.58462187e-01  4.58462187e-01  4.58462187e-01  3.28527966e-09  1.59153556e-07  8.67918573e-08  6.80000000e-01 
 6.90000000e-01  3.28911053e-09  3.27048942e-09  3.32189055e-09  4.58462154e-01  4.58462154e-01  4.58462154e-01  3.28527966e-09  1.59153509e-07  8.67915944e-08  6.90000000e-01 
 7.00000000e-01  3.28911053e-09  3.27048954e-09  3.32189054e-09  4.58462174e-01  4.58462174e-01  4.58462174e-01  3.28527966e-09  1.59153552e-07  8.67915517e-08  7.00000000e-01 
 7.10000000e-01  3.28911053e-09  3.27048954e-09  3.32189043e-09  4.58462177e-01  4.58462177e-01  4.58462177e-01  3.28527966e-09  1.59153544e-07  8.67916015e-08  7.10000000e-01 
 7.20000000e-01  3.28911053e-09  3.27048942e-09  3.32189055e-09  4.58462192e-01  4.58462192e-01  4.58462192e-01  3.28527966e-09  1.59153574e-07  8.67914949e-08  7.20000000e-01 
 7.30000000e-01  3.28911053e-09  3.27048942e-09  3.32189054e-09  4.58462171e-01  4.58462171e-01  4.58462171e-01  3.28527966e-09  1.59153530e-07  8.67914096e-08  7.30000000e-01 
 7.40000000e-01  3.28911053e-09  3.27048954e-09  3.32189054e-09  4.58462167e-01  4.58462167e-01  4.58462167e-01  3.28527966e-09  1.59153531e-07  8.67913954e-08  7.40000000e-01 
 7.50000000e-01  3.28911053e-09  3.27048954e-09  3.32189043e-09  4.58462153e-01  4.58462153e-01  4.58462153e-01  3.28527966e-09  1.59153502e-07  8.67911751e-08  7.50000000e-01 
 7.60000000e-01  3.28911053e-09  3.27048954e-09  3.32189055e-09  4.58462171e-01  4.58462171e-01  4.58462171e-01  3.28527966e-09  1.59153541e-07  8.67911396e-08  7.60000000e-01 
 7.70000000e-01  3.28911053e-09  3.27048954e-09  3.32189043e-09  4.58462184e-01  4.58462183e-01  4.58462183e-01  3.28527966e-09  1.59153551e-07  8.67911751e-08  7.70000000e-01 
 7.80000000e-01  3.28911053e-09  3.27048942e-09  3.32189044e-09  4.58462169e-01  4.58462169e-01  4.58462169e-01  3.28527966e-09  1.59153534e-07  8.67910970e-08  7.80000000e-01 
 7.90000000e-01  3.28911053e-09  3.27048942e-09  3.32189055e-09  4.58462178e-01  4.58462178e-01  4.58462178e-01  3.28527966e-09  1.59153543e-07  8.67909975e-08  7.90000000e-01 
 8.00000000e-01  3.28911053e-09  3.27048942e-09  3.32189054e-09  4.58462179e-01  4.58462179e-01  4.58462179e-01  3.28527966e-09  1.59153559e-07  8.67909478e-08  8.00000000e-01 
 8.10000000e-01  3.28911053e-09  3.27048954e-09  3.32189054e-09  4.58462171e-01  4.58462171e-01  4.58462171e-01  3.28527966e-09  1.59153546e-07  8.67908625e-08  8.10000000e-01 
 8.20000000e-01  3.28911053e-09  3.27048942e-09  3.32189054e-09  4.58462172e-01  4.58462172e-01  4.58462172e-01  3.28527966e-09  1.59153544e-07  8.67908341e-08  8.20000000e-01 
 8.30000000e-01  3.28911053e-09  3.27048954e-09  3.32189054e-09  4.58462165e-01  4.58462165e-01  4.58462165e-01  3.28527966e-09  1.59153528e-07  8.67905925e-08  8.30000000e-01 
 8.40000000e-01  3.28911053e-09  3.27048954e-09  3.32189054e-09  4.58462184e-01  4.58462184e-01  4.58462184e-01  3.28527966e-09  1.59153562e-07  8.67907488e-08  8.40000000e-01 
 8.50000000e-01  3.28911053e-09  3.27048942e-09  3.32189054e-09  4.58462185e-01  4.58462185e-01  4.58462185e-01  3.28527966e-09  1.59153563e-07  8.67907559e-08  8.50000000e-01 
 8.60000000e-01  3.28911053e-09  3.27048954e-09  3.32189054e-09  4.58462173e-01  4.58462173e-01  4.58462173e-01  3.28527966e-09  1.59153539e-07  8.67905356e-08  8.60000000e-01 
 8.70000000e-01  3.28911053e-09  3.27048942e-09  3.32189054e-09  4.58462159e-01  4.58462159e-01  4.58462159e-01  3.28527966e-09  1.59153518e-07  8.67903580e-08  8.70000000e-01 
 8.80000000e-01  3.28911053e-09  3.27048942e-09  3.32189054e-09  4.58462171e-01  4.58462171e-01  4.58462171e-01  3.28527966e-09  1.59153533e-07  8.67903367e-08  8.80000000e-01 
 8.90000000e-01  3.28911053e-09  3.27048954e-09  3.32189054e-09  4.58462162e-01  4.58462162e-01  4.58462162e-01  3.28527966e-09  1.59153516e-07  8.67902799e-08  8.90000000e-01 
 9.00000000e-01  3.28911053e-09  3.27048942e-09  3.32189054e-09  4.58462175e-01  4.58462175e-01  4.58462175e-01  3.28527966e-09  1.59153534e-07  8.67902941e-08  9.00000000e-01 
 9.10000000e-01  3.28911053e-09  3.27048954e-09  3.32189055e-09  4.58462191e-01  4.58462191e-01  4.58462191e-01  3.28527966e-09  1.59153572e-07  8.67901804e-08  9.10000000e-01 
 9.20000000e-01  3.28911053e-09  3.27048954e-09  3.32189043e-09  4.58462161e-01  4.58462161e-01  4.58462161e-01  3.28527966e-09  1.59153518e-07  8.67900951e-08  9.20000000e-01 
 9.30000000e-01  3.28911053e-09  3.27048954e-09  3.32189044e-09  4.58462158e-01  4.58462158e-01  4.58462158e-01  3.28527966e-09  1.59153525e-07  8.67899601e-08  9.30000000e-01 
 9.40000000e-01  3.28911053e-09  3.27048942e-09  3.32189043e-09  4.58462162e-01  4.58462162e-01  4.58462162e-01  3.28527966e-09  1.59153522e-07  8.67899601e-08  9.40000000e-01 
 9.50000000e-01  3.28911053e-09  3.27048942e-09  3.32189055e-09  4.58462177e-01  4.58462177e-01  4.58462177e-01  3.28527966e-09  1.59153535e-07  8.67898322e-08  9.50000000e-01 
 9.60000000e-01  3.28911053e-09  3.27048954e-09  3.32189043e-09  4.58462195e-01  4.58462195e-01  4.58462195e-01  3.28527966e-09  1.59153573e-07  8.67897967e-08  9.60000000e-01 
 9.70000000e-01  3.28911053e-09  3.27048954e-09  3.32189044e-09  4.58462198e-01  4.58462198e-01  4.58462198e-01  3.28527966e-09  1.59153558e-07  8.67897398e-08  9.70000000e-01 
 9.80000000e-01  3.28911053e-09  3.27048954e-09  3.32189044e-09  4.58462171e-01  4.58462171e-01  4.58462171e-01  3.28527966e-09  1.59153525e-07  8.67897896e-08  9.80000000e-01 
 9.90000000e-01  3.28911053e-09  3.27048942e-09  3.32189043e-09  4.58462164e-01  4.58462164e-01  4.58462164e-01  3.28527966e-09  1.59153534e-07  8.67894414e-08  9.90000000e-01 
 1.00000000e+00  3.28911053e-09  3.27048954e-09  3.32189055e-09  4.58462177e-01  4.58462177e-01  4.58462177e-01  3.28527966e-09  1.59153550e-07  8.67894983e-08  1.00000000e+00 
 1.01000000e+00  3.28911053e-09  3.27048954e-09  3.32189054e-09  4.58462170e-01  4.58462170e-01  4.58462170e-01  3.28527966e-09  1.59153533e-07  8.67893561e-08  1.01000000e+00 
 1.02000000e+00  3.28911053e-09  3.27048954e-09  3.32189043e-09  4.58462157e-01  4.58462157e-01  4.58462157e-01  3.28527966e-09  1.59153525e-07  8.67892638e-08  1.02000000e+00 
 1.03000000e+00  3.28911053e-09  3.27048954e-09  3.32189044e-09  4.58462178e-01  4.58462178e-01  4.58462178e-01  3.28527966e-09  1.59153553e-07  8.67892425e-08  1.03000000e+00 
 1.04000000e+00  3.28911053e-09  3.27048942e-09  3.32189044e-09  4.58462183e-01  4.58462183e-01  4.58462183e-01  3.28527966e-09  1.59153551e-07  8.67891998e-08  1.04000000e+00 
 1.05000000e+00  3.28911053e-09  3.27048942e-09  3.32189055e-09  4.58462179e-01  4.58462179e-01  4.58462179e-01  3.28527966e-09  1.59153549e-07  8.67890932e-08  1.05000000e+00 
 1.06000000e+00  3.28911053e-09  3.27048954e-09  3.32189054e-09  4.58462160e-01  4.58462160e-01  4.58462160e-01  3.28527966e-09  1.59153522e-07  8.67891643e-08  1.06000000e+00 
 1.07000000e+00  3.28911053e-09  3.27048942e-09  3.32189054e-09  4.58462162e-01  4.58462162e-01  4.58462162e-01  3.28527966e-09  1.59153520e-07  8.67889511e-08  1.07000000e+00 
 1.08000000e+00  3.28911053e-09  3.27048954e-09  3.32189054e-09  4.58462164e-01  4.58462163e-01  4.58462163e-01  3.28527966e-09  1.59153527e-07  8.67887451e-08  1.08000000e+00 
 1.09000000e+00  3.28911053e-09  3.27048942e-09  3.32189043e-09  4.58462159e-01  4.58462159e-01  4.58462159e-01  3.28527966e-09  1.59153512e-07  8.67887167e-08  1.09000000e+00 
 1.10000000e+00  3.28911053e-09  3.27048954e-09  3.32189044e-09  4.58462155e-01  4.58462155e-01  4.58462155e-01  3.28527966e-09  1.59153510e-07  8.67887806e-08  1.10000000e+00 
