 v-sweep         v(b0)           v(b1)           v(b2)           v(b3)           v(b4)           v(b5)           v(b6)           i(vbias)        i(viout)        v(vout)        
 0.00000000e+00  3.28911052e-09  3.27048953e-09  4.58461408e-01  3.24523764e-09  3.27601221e-09  4.58461408e-01  3.28527966e-09  1.59152511e-07  5.58258261e-08  0.00000000e+00 
 1.00000000e-02  3.28911051e-09  3.27048951e-09  4.58461416e-01  3.24523762e-09  3.27601220e-09  4.58461416e-01  3.28527964e-09  1.59152521e-07  5.58254536e-08  1.00000000e-02 
 2.00000000e-02  3.28911051e-09  3.27048951e-09  4.58461411e-01  3.24523762e-09  3.27601219e-09  4.58461411e-01  3.28527964e-09  1.59152508e-07  5.58250413e-08  2.00000000e-02 
 3.00000000e-02  3.28911051e-09  3.27048940e-09  4.58461414e-01  3.24523762e-09  3.27601231e-09  4.58461414e-01  3.28527964e-09  1.59152517e-07  5.58246522e-08  3.00000000e-02 
 4.00000000e-02  3.28911051e-09  3.27048951e-09  4.58461436e-01  3.24523762e-09  3.27601231e-09  4.58461437e-01  3.28527964e-09  1.59152541e-07  5.58244104e-08  4.00000000e-02 
 5.00000000e-02  3.28911051e-09  3.27048940e-09  4.58461424e-01  3.24523762e-09  3.27601220e-09  4.58461424e-01  3.28527964e-09  1.59152523e-07  5.58240996e-08  5.00000000e-02 
 6.00000000e-02  3.28911051e-09  3.27048940e-09  4.58461437e-01  3.24523762e-09  3.27601220e-09  4.58461437e-01  3.28527964e-09  1.59152543e-07  5.58236990e-08  6.00000000e-02 
 7.00000000e-02  3.28911051e-09  3.27048940e-09  4.58461417e-01  3.24523762e-09  3.27601231e-09  4.58461417e-01  3.28527964e-09  1.59152514e-07  5.58233362e-08  7.00000000e-02 
 8.00000000e-02  3.28911051e-09  3.27048940e-09  4.58461417e-01  3.24523762e-09  3.27601220e-09  4.58461417e-01  3.28527964e-09  1.59152535e-07  5.58230093e-08  8.00000000e-02 
 9.00000000e-02  3.28911051e-09  3.27048940e-09  4.58461433e-01  3.24523762e-09  3.27601220e-09  4.58461433e-01  3.28527964e-09  1.59152534e-07  5.58228184e-08  9.00000000e-02 
 1.00000000e-01  3.28911050e-09  3.27048951e-09  4.58461407e-01  3.24523762e-09  3.27601231e-09  4.58461407e-01  3.28527964e-09  1.59152500e-07  5.58224995e-08  1.00000000e-01 
 1.10000000e-01  3.28911051e-09  3.27048951e-09  4.58461425e-01  3.24523762e-09  3.27601220e-09  4.58461425e-01  3.28527964e-09  1.59152531e-07  5.58223565e-08  1.10000000e-01 
 1.20000000e-01  3.28911051e-09  3.27048940e-09  4.58461409e-01  3.24523762e-09  3.27601231e-09  4.58461409e-01  3.28527964e-09  1.59152496e-07  5.58220012e-08  1.20000000e-01 
 1.30000000e-01  3.28911051e-09  3.27048940e-09  4.58461413e-01  3.24523762e-09  3.27601219e-09  4.58461413e-01  3.28527964e-09  1.59152518e-07  5.58218680e-08  1.30000000e-01 
 1.40000000e-01  3.28911051e-09  3.27048951e-09  4.58461416e-01  3.24523762e-09  3.27601231e-09  4.58461416e-01  3.28527964e-09  1.59152516e-07  5.58215119e-08  1.40000000e-01 
 1.50000000e-01  3.28911050e-09  3.27048940e-09  4.58461404e-01  3.24523762e-09  3.27601219e-09  4.58461404e-01  3.28527964e-09  1.59152496e-07  5.58215110e-08  1.50000000e-01 
 1.60000000e-01  3.28911051e-09  3.27048940e-09  4.58461440e-01  3.24523762e-09  3.27601220e-09  4.58461440e-01  3.28527964e-09  1.59152560e-07  5.58211575e-08  1.60000000e-01 
 1.70000000e-01  3.28911051e-09  3.27048951e-09  4.58461429e-01  3.24523762e-09  3.27601231e-09  4.58461429e-01  3.28527964e-09  1.59152546e-07  5.58210633e-08  1.70000000e-01 
 1.80000000e-01  3.28911051e-09  3.27048951e-09  4.58461434e-01  3.24523762e-09  3.27601220e-09  4.58461434e-01  3.28527964e-09  1.59152538e-07  5.58208182e-08  1.80000000e-01 
 1.90000000e-01  3.28911050e-09  3.27048940e-09  4.58461401e-01  3.24523762e-09  3.27601231e-09  4.58461401e-01  3.28527964e-09  1.59152487e-07  5.58207400e-08  1.90000000e-01 
 2.00000000e-01  3.28911051e-09  3.27048951e-09  4.58461413e-01  3.24523762e-09  3.27601231e-09  4.58461413e-01  3.28527964e-09  1.59152513e-07  5.58205979e-08  2.00000000e-01 
 2.10000000e-01  3.28911050e-09  3.27048940e-09  4.58461408e-01  3.24523762e-09  3.27601231e-09  4.58461408e-01  3.28527964e-09  1.59152499e-07  5.58203936e-08  2.10000000e-01 
 2.20000000e-01  3.28911051e-09  3.27048951e-09  4.58461419e-01  3.24523762e-09  3.27601231e-09  4.58461419e-01  3.28527964e-09  1.59152521e-07  5.58202427e-08  2.20000000e-01 
 2.30000000e-01  3.28911051e-09  3.27048951e-09  4.58461422e-01  3.24523762e-09  3.27601231e-09  4.58461422e-01  3.28527964e-09  1.59152530e-07  5.58201538e-08  2.30000000e-01 
 2.40000000e-01  3.28911050e-09  3.27048940e-09  4.58461401e-01  3.24523762e-09  3.27601219e-09  4.58461401e-01  3.28527964e-09  1.59152482e-07  5.58198661e-08  2.40000000e-01 
 2.50000000e-01  3.28911050e-09  3.27048940e-09  4.58461408e-01  3.24523762e-09  3.27601219e-09  4.58461408e-01  3.28527964e-09  1.59152502e-07  5.58197808e-08  2.50000000e-01 
 2.60000000e-01  3.28911051e-09  3.27048940e-09  4.58461423e-01  3.24523762e-09  3.27601220e-09  4.58461424e-01  3.28527964e-09  1.59152513e-07  5.58197559e-08  2.60000000e-01 
 2.70000000e-01  3.28911050e-09  3.27048951e-09  4.58461396e-01  3.24523762e-09  3.27601219e-09  4.58461396e-01  3.28527964e-09  1.59152476e-07  5.58193722e-08  2.70000000e-01 
 2.80000000e-01  3.28911050e-09  3.27048940e-09  4.58461404e-01  3.24523762e-09  3.27601231e-09  4.58461404e-01  3.28527964e-09  1.59152497e-07  5.58193225e-08  2.80000000e-01 
 2.90000000e-01  3.28911051e-09  3.27048940e-09  4.58461436e-01  3.24523762e-09  3.27601220e-09  4.58461436e-01  3.28527964e-09  1.59152561e-07  5.58194131e-08  2.90000000e-01 
 3.00000000e-01  3.28911051e-09  3.27048951e-09  4.58461437e-01  3.24523762e-09  3.27601231e-09  4.58461437e-01  3.28527964e-09  1.59152544e-07  5.58192674e-08  3.00000000e-01 
 3.10000000e-01  3.28911050e-09  3.27048951e-09  4.58461406e-01  3.24523762e-09  3.27601231e-09  4.58461406e-01  3.28527964e-09  1.59152492e-07  5.58191502e-08  3.10000000e-01 
 3.20000000e-01  3.28911051e-09  3.27048951e-09  4.58461428e-01  3.24523762e-09  3.27601231e-09  4.58461428e-01  3.28527964e-09  1.59152546e-07  5.58190187e-08  3.20000000e-01 
 3.30000000e-01  3.28911051e-09  3.27048951e-09  4.58461425e-01  3.24523762e-09  3.27601220e-09  4.58461425e-01  3.28527964e-09  1.59152510e-07  5.58189832e-08  3.30000000e-01 
 3.40000000e-01  3.28911051e-09  3.27048940e-09  4.58461416e-01  3.24523762e-09  3.27601231e-09  4.58461416e-01  3.28527964e-09  1.59152529e-07  5.58188908e-08  3.40000000e-01 
 3.50000000e-01  3.28911051e-09  3.27048951e-09  4.58461417e-01  3.24523762e-09  3.27601220e-09  4.58461417e-01  3.28527964e-09  1.59152523e-07  5.58187558e-08  3.50000000e-01 
 3.60000000e-01  3.28911051e-09  3.27048940e-09  4.58461424e-01  3.24523762e-09  3.27601220e-09  4.58461424e-01  3.28527964e-09  1.59152519e-07  5.58186670e-08  3.60000000e-01 
 3.70000000e-01  3.28911050e-09  3.27048940e-09  4.58461408e-01  3.24523762e-09  3.27601231e-09  4.58461408e-01  3.28527964e-09  1.59152504e-07  5.58185356e-08  3.70000000e-01 
 3.80000000e-01  3.28911051e-09  3.27048951e-09  4.58461428e-01  3.24523762e-09  3.27601220e-09  4.58461428e-01  3.28527964e-09  1.59152525e-07  5.58184965e-08  3.80000000e-01 
 3.90000000e-01  3.28911051e-09  3.27048940e-09  4.58461421e-01  3.24523762e-09  3.27601231e-09  4.58461421e-01  3.28527964e-09  1.59152530e-07  5.58183473e-08  3.90000000e-01 
 4.00000000e-01  3.28911051e-09  3.27048940e-09  4.58461419e-01  3.24523762e-09  3.27601231e-09  4.58461419e-01  3.28527964e-09  1.59152524e-07  5.58182833e-08  4.00000000e-01 
 4.10000000e-01  3.28911051e-09  3.27048951e-09  4.58461433e-01  3.24523762e-09  3.27601231e-09  4.58461433e-01  3.28527964e-09  1.59152545e-07  5.58183650e-08  4.10000000e-01 
 4.20000000e-01  3.28911051e-09  3.27048951e-09  4.58461414e-01  3.24523762e-09  3.27601231e-09  4.58461414e-01  3.28527964e-09  1.59152501e-07  5.58182123e-08  4.20000000e-01 
 4.30000000e-01  3.28911051e-09  3.27048951e-09  4.58461415e-01  3.24523762e-09  3.27601220e-09  4.58461415e-01  3.28527964e-09  1.59152519e-07  5.58180702e-08  4.30000000e-01 
 4.40000000e-01  3.28911051e-09  3.27048940e-09  4.58461431e-01  3.24523762e-09  3.27601231e-09  4.58461431e-01  3.28527964e-09  1.59152539e-07  5.58180844e-08  4.40000000e-01 
 4.50000000e-01  3.28911051e-09  3.27048951e-09  4.58461412e-01  3.24523762e-09  3.27601219e-09  4.58461412e-01  3.28527964e-09  1.59152502e-07  5.58180027e-08  4.50000000e-01 
 4.60000000e-01  3.28911051e-09  3.27048951e-09  4.58461427e-01  3.24523762e-09  3.27601231e-09  4.58461427e-01  3.28527964e-09  1.59152539e-07  5.58179245e-08  4.60000000e-01 
 4.70000000e-01  3.28911051e-09  3.27048940e-09  4.58461422e-01  3.24523762e-09  3.27601231e-09  4.58461422e-01  3.28527964e-09  1.59152522e-07  5.58177931e-08  4.70000000e-01 
 4.80000000e-01  3.28911051e-09  3.27048951e-09  4.58461425e-01  3.24523762e-09  3.27601220e-09  4.58461426e-01  3.28527964e-09  1.59152529e-07  5.58177113e-08  4.80000000e-01 
 4.90000000e-01  3.28911050e-09  3.27048951e-09  4.58461406e-01  3.24523762e-09  3.27601231e-09  4.58461406e-01  3.28527964e-09  1.59152498e-07  5.58176900e-08  4.90000000e-01 
 5.00000000e-01  3.28911051e-09  3.27048951e-09  4.58461434e-01  3.24523762e-09  3.27601220e-09  4.58461434e-01  3.28527964e-09  1.59152533e-07  5.58176403e-08  5.00000000e-01 
 5.10000000e-01  3.28911051e-09  3.27048951e-09  4.58461422e-01  3.24523762e-09  3.27601220e-09  4.58461422e-01  3.28527964e-09  1.59152521e-07  5.58175479e-08  5.10000000e-01 
 5.20000000e-01  3.28911051e-09  3.27048951e-09  4.58461424e-01  3.24523762e-09  3.27601220e-09  4.58461424e-01  3.28527964e-09  1.59152532e-07  5.58174236e-08  5.20000000e-01 
 5.30000000e-01  3.28911050e-09  3.27048951e-09  4.58461389e-01  3.24523762e-09  3.27601219e-09  4.58461389e-01  3.28527964e-09  1.59152475e-07  5.58173419e-08  5.30000000e-01 
 5.40000000e-01  3.28911051e-09  3.27048951e-09  4.58461424e-01  3.24523762e-09  3.27601220e-09  4.58461424e-01  3.28527964e-09  1.59152536e-07  5.58174342e-08  5.40000000e-01 
 5.50000000e-01  3.28911051e-09  3.27048940e-09  4.58461426e-01  3.24523762e-09  3.27601220e-09  4.58461426e-01  3.28527964e-09  1.59152549e-07  5.58171891e-08  5.50000000e-01 
 5.60000000e-01  3.28911051e-09  3.27048940e-09  4.58461409e-01  3.24523762e-09  3.27601219e-09  4.58461410e-01  3.28527964e-09  1.59152503e-07  5.58172211e-08  5.60000000e-01 
 5.70000000e-01  3.28911051e-09  3.27048940e-09  4.58461432e-01  3.24523762e-09  3.27601231e-09  4.58461432e-01  3.28527964e-09  1.59152534e-07  5.58171180e-08  5.70000000e-01 
 5.80000000e-01  3.28911051e-09  3.27048951e-09  4.58461429e-01  3.24523762e-09  3.27601231e-09  4.58461429e-01  3.28527964e-09  1.59152533e-07  5.58171109e-08  5.80000000e-01 
 5.90000000e-01  3.28911051e-09  3.27048951e-09  4.58461411e-01  3.24523762e-09  3.27601219e-09  4.58461411e-01  3.28527964e-09  1.59152505e-07  5.58168480e-08  5.90000000e-01 
 6.00000000e-01  3.28911051e-09  3.27048951e-09  4.58461434e-01  3.24523762e-09  3.27601220e-09  4.58461434e-01  3.28527964e-09  1.59152555e-07  5.58170044e-08  6.00000000e-01 
 6.10000000e-01  3.28911050e-09  3.27048940e-09  4.58461408e-01  3.24523762e-09  3.27601231e-09  4.58461408e-01  3.28527964e-09  1.59152506e-07  5.58170186e-08  6.10000000e-01 
 6.20000000e-01  3.28911051e-09  3.27048951e-09  4.58461429e-01  3.24523762e-09  3.27601220e-09  4.58461429e-01  3.28527964e-09  1.59152531e-07  5.58168693e-08  6.20000000e-01 
 6.30000000e-01  3.28911051e-09  3.27048940e-09  4.58461442e-01  3.24523762e-09  3.27601231e-09  4.58461442e-01  3.28527964e-09  1.59152554e-07  5.58168409e-08  6.30000000e-01 
 6.40000000e-01  3.28911051e-09  3.27048940e-09  4.58461417e-01  3.24523762e-09  3.27601231e-09  4.58461417e-01  3.28527964e-09  1.59152517e-07  5.58168338e-08  6.40000000e-01 
 6.50000000e-01  3.28911051e-09  3.27048940e-09  4.58461426e-01  3.24523762e-09  3.27601220e-09  4.58461426e-01  3.28527964e-09  1.59152534e-07  5.58166988e-08  6.50000000e-01 
 6.60000000e-01  3.28911051e-09  3.27048951e-09  4.58461419e-01  3.24523762e-09  3.27601220e-09  4.58461419e-01  3.28527964e-09  1.59152516e-07  5.58165922e-08  6.60000000e-01 
 6.70000000e-01  3.28911051e-09  3.27048940e-09  4.58461418e-01  3.24523762e-09  3.27601220e-09  4.58461418e-01  3.28527964e-09  1.59152532e-07  5.58166491e-08  6.70000000e-01 
 6.80000000e-01  3.28911051e-09  3.27048951e-09  4.58461442e-01  3.24523762e-09  3.27601220e-09  4.58461442e-01  3.28527964e-09  1.59152557e-07  5.58165070e-08  6.80000000e-01 
 6.90000000e-01  3.28911051e-09  3.27048940e-09  4.58461420e-01  3.24523762e-09  3.27601220e-09  4.58461420e-01  3.28527964e-09  1.59152521e-07  5.58164786e-08  6.90000000e-01 
 7.00000000e-01  3.28911051e-09  3.27048940e-09  4.58461418e-01  3.24523762e-09  3.27601231e-09  4.58461418e-01  3.28527964e-09  1.59152520e-07  5.58162512e-08  7.00000000e-01 
 7.10000000e-01  3.28911051e-09  3.27048940e-09  4.58461423e-01  3.24523762e-09  3.27601220e-09  4.58461423e-01  3.28527964e-09  1.59152527e-07  5.58162796e-08  7.10000000e-01 
 7.20000000e-01  3.28911051e-09  3.27048940e-09  4.58461413e-01  3.24523762e-09  3.27601219e-09  4.58461413e-01  3.28527964e-09  1.59152498e-07  5.58162796e-08  7.20000000e-01 
 7.30000000e-01  3.28911050e-09  3.27048951e-09  4.58461408e-01  3.24523762e-09  3.27601219e-09  4.58461408e-01  3.28527964e-09  1.59152514e-07  5.58161517e-08  7.30000000e-01 
 7.40000000e-01  3.28911051e-09  3.27048940e-09  4.58461426e-01  3.24523762e-09  3.27601231e-09  4.58461426e-01  3.28527964e-09  1.59152524e-07  5.58160949e-08  7.40000000e-01 
 7.50000000e-01  3.28911051e-09  3.27048951e-09  4.58461409e-01  3.24523762e-09  3.27601219e-09  4.58461409e-01  3.28527964e-09  1.59152493e-07  5.58159599e-08  7.50000000e-01 
 7.60000000e-01  3.28911051e-09  3.27048951e-09  4.58461436e-01  3.24523762e-09  3.27601231e-09  4.58461436e-01  3.28527964e-09  1.59152549e-07  5.58161091e-08  7.60000000e-01 
 7.70000000e-01  3.28911051e-09  3.27048940e-09  4.58461417e-01  3.24523762e-09  3.27601220e-09  4.58461417e-01  3.28527964e-09  1.59152532e-07  5.58159812e-08  7.70000000e-01 
 7.80000000e-01  3.28911051e-09  3.27048940e-09  4.58461430e-01  3.24523762e-09  3.27601231e-09  4.58461430e-01  3.28527964e-09  1.59152543e-07  5.58159527e-08  7.80000000e-01 
 7.90000000e-01  3.28911051e-09  3.27048940e-09  4.58461432e-01  3.24523762e-09  3.27601231e-09  4.58461432e-01  3.28527964e-09  1.59152546e-07  5.58158533e-08  7.90000000e-01 
 8.00000000e-01  3.28911051e-09  3.27048940e-09  4.58461420e-01  3.24523762e-09  3.27601220e-09  4.58461420e-01  3.28527964e-09  1.59152513e-07  5.58158035e-08  8.00000000e-01 
 8.10000000e-01  3.28911051e-09  3.27048951e-09  4.58461427e-01  3.24523762e-09  3.27601231e-09  4.58461427e-01  3.28527964e-09  1.59152545e-07  5.58156685e-08  8.10000000e-01 
 8.20000000e-01  3.28911050e-09  3.27048940e-09  4.58461406e-01  3.24523762e-09  3.27601219e-09  4.58461406e-01  3.28527964e-09  1.59152499e-07  5.58156117e-08  8.20000000e-01 
 8.30000000e-01  3.28911051e-09  3.27048951e-09  4.58461426e-01  3.24523762e-09  3.27601220e-09  4.58461426e-01  3.28527964e-09  1.59152532e-07  5.58154696e-08  8.30000000e-01 
 8.40000000e-01  3.28911050e-09  3.27048940e-09  4.58461394e-01  3.24523762e-09  3.27601231e-09  4.58461394e-01  3.28527964e-09  1.59152486e-07  5.58155122e-08  8.40000000e-01 
 8.50000000e-01  3.28911051e-09  3.27048952e-09  4.58461436e-01  3.24523762e-09  3.27601220e-09  4.58461436e-01  3.28527964e-09  1.59152554e-07  5.58155548e-08  8.50000000e-01 
 8.60000000e-01  3.28911051e-09  3.27048951e-09  4.58461413e-01  3.24523762e-09  3.27601219e-09  4.58461413e-01  3.28527964e-09  1.59152513e-07  5.58154198e-08  8.60000000e-01 
 8.70000000e-01  3.28911051e-09  3.27048951e-09  4.58461440e-01  3.24523762e-09  3.27601231e-09  4.58461440e-01  3.28527964e-09  1.59152558e-07  5.58154269e-08  8.70000000e-01 
 8.80000000e-01  3.28911050e-09  3.27048940e-09  4.58461400e-01  3.24523762e-09  3.27601231e-09  4.58461400e-01  3.28527964e-09  1.59152495e-07  5.58151996e-08  8.80000000e-01 
 8.90000000e-01  3.28911051e-09  3.27048941e-09  4.58461427e-01  3.24523762e-09  3.27601231e-09  4.58461427e-01  3.28527964e-09  1.59152538e-07  5.58153062e-08  8.90000000e-01 
 9.00000000e-01  3.28911051e-09  3.27048940e-09  4.58461428e-01  3.24523762e-09  3.27601220e-09  4.58461428e-01  3.28527964e-09  1.59152543e-07  5.58151356e-08  9.00000000e-01 
 9.10000000e-01  3.28911051e-09  3.27048952e-09  4.58461415e-01  3.24523762e-09  3.27601231e-09  4.58461415e-01  3.28527964e-09  1.59152508e-07  5.58150859e-08  9.10000000e-01 
 9.20000000e-01  3.28911051e-09  3.27048951e-09  4.58461423e-01  3.24523762e-09  3.27601220e-09  4.58461423e-01  3.28527964e-09  1.59152525e-07  5.58151214e-08  9.20000000e-01 
 9.30000000e-01  3.28911050e-09  3.27048940e-09  4.58461402e-01  3.24523762e-09  3.27601231e-09  4.58461402e-01  3.28527964e-09  1.59152495e-07  5.58149580e-08  9.30000000e-01 
 9.40000000e-01  3.28911051e-09  3.27048940e-09  4.58461415e-01  3.24523762e-09  3.27601231e-09  4.58461415e-01  3.28527964e-09  1.59152530e-07  5.58149509e-08  9.40000000e-01 
 9.50000000e-01  3.28911050e-09  3.27048951e-09  4.58461405e-01  3.24523762e-09  3.27601219e-09  4.58461405e-01  3.28527964e-09  1.59152490e-07  5.58149509e-08  9.50000000e-01 
 9.60000000e-01  3.28911051e-09  3.27048940e-09  4.58461421e-01  3.24523762e-09  3.27601231e-09  4.58461421e-01  3.28527964e-09  1.59152531e-07  5.58148301e-08  9.60000000e-01 
 9.70000000e-01  3.28911050e-09  3.27048951e-09  4.58461406e-01  3.24523762e-09  3.27601231e-09  4.58461406e-01  3.28527964e-09  1.59152498e-07  5.58146382e-08  9.70000000e-01 
 9.80000000e-01  3.28911051e-09  3.27048940e-09  4.58461452e-01  3.24523762e-09  3.27601231e-09  4.58461452e-01  3.28527964e-09  1.59152581e-07  5.58146667e-08  9.80000000e-01 
 9.90000000e-01  3.28911051e-09  3.27048951e-09  4.58461420e-01  3.24523762e-09  3.27601231e-09  4.58461420e-01  3.28527964e-09  1.59152523e-07  5.58146027e-08  9.90000000e-01 
 1.00000000e+00  3.28911051e-09  3.27048940e-09  4.58461443e-01  3.24523762e-09  3.27601231e-09  4.58461443e-01  3.28527964e-09  1.59152557e-07  5.58145388e-08  1.00000000e+00 
 1.01000000e+00  3.28911050e-09  3.27048951e-09  4.58461402e-01  3.24523762e-09  3.27601219e-09  4.58461402e-01  3.28527964e-09  1.59152514e-07  5.58145103e-08  1.01000000e+00 
 1.02000000e+00  3.28911051e-09  3.27048940e-09  4.58461448e-01  3.24523762e-09  3.27601231e-09  4.58461448e-01  3.28527964e-09  1.59152570e-07  5.58143896e-08  1.02000000e+00 
 1.03000000e+00  3.28911051e-09  3.27048951e-09  4.58461423e-01  3.24523762e-09  3.27601220e-09  4.58461423e-01  3.28527964e-09  1.59152523e-07  5.58142972e-08  1.03000000e+00 
 1.04000000e+00  3.28911051e-09  3.27048951e-09  4.58461437e-01  3.24523762e-09  3.27601231e-09  4.58461437e-01  3.28527964e-09  1.59152550e-07  5.58142688e-08  1.04000000e+00 
 1.05000000e+00  3.28911051e-09  3.27048940e-09  4.58461410e-01  3.24523762e-09  3.27601219e-09  4.58461410e-01  3.28527964e-09  1.59152497e-07  5.58140840e-08  1.05000000e+00 
 1.06000000e+00  3.28911051e-09  3.27048940e-09  4.58461429e-01  3.24523762e-09  3.27601220e-09  4.58461429e-01  3.28527964e-09  1.59152547e-07  5.58141835e-08  1.06000000e+00 
 1.07000000e+00  3.28911050e-09  3.27048940e-09  4.58461405e-01  3.24523762e-09  3.27601231e-09  4.58461405e-01  3.28527964e-09  1.59152500e-07  5.58139206e-08  1.07000000e+00 
 1.08000000e+00  3.28911051e-09  3.27048940e-09  4.58461430e-01  3.24523762e-09  3.27601231e-09  4.58461431e-01  3.28527964e-09  1.59152559e-07  5.58139561e-08  1.08000000e+00 
 1.09000000e+00  3.28911051e-09  3.27048940e-09  4.58461445e-01  3.24523762e-09  3.27601220e-09  4.58461445e-01  3.28527964e-09  1.59152570e-07  5.58139988e-08  1.09000000e+00 
 1.10000000e+00  3.28911051e-09  3.27048951e-09  4.58461448e-01  3.24523762e-09  3.27601220e-09  4.58461448e-01  3.28527964e-09  1.59152561e-07  5.58138851e-08  1.10000000e+00 
