 v-sweep         v(b0)           v(b1)           v(b2)           v(b3)           v(b4)           v(b5)           v(b6)           i(vbias)        i(viout)        v(vout)        
 0.00000000e+00  3.24794359e-09  4.57134171e-01  3.29981297e-09  3.24681227e-09  3.28085844e-09  4.57134171e-01  3.27085571e-09  1.56547968e-07  4.88749244e-08  0.00000000e+00 
 1.00000000e-02  3.24794369e-09  4.57134136e-01  3.29981296e-09  3.24681237e-09  3.28085842e-09  4.57134136e-01  3.27085570e-09  1.56547932e-07  4.88743545e-08  1.00000000e-02 
 2.00000000e-02  3.24794358e-09  4.57134192e-01  3.29981296e-09  3.24681237e-09  3.28085842e-09  4.57134192e-01  3.27085570e-09  1.56548013e-07  4.88741696e-08  2.00000000e-02 
 3.00000000e-02  3.24794369e-09  4.57134166e-01  3.29981296e-09  3.24681237e-09  3.28085842e-09  4.57134166e-01  3.27085570e-09  1.56547987e-07  4.88736258e-08  3.00000000e-02 
 4.00000000e-02  3.24794369e-09  4.57134174e-01  3.29981296e-09  3.24681237e-09  3.28085842e-09  4.57134175e-01  3.27085570e-09  1.56547975e-07  4.88734520e-08  4.00000000e-02 
 5.00000000e-02  3.24794369e-09  4.57134158e-01  3.29981296e-09  3.24681237e-09  3.28085842e-09  4.57134158e-01  3.27085570e-09  1.56547954e-07  4.88730558e-08  5.00000000e-02 
 6.00000000e-02  3.24794369e-09  4.57134163e-01  3.29981296e-09  3.24681237e-09  3.28085842e-09  4.57134163e-01  3.27085570e-09  1.56547976e-07  4.88727996e-08  6.00000000e-02 
 7.00000000e-02  3.24794358e-09  4.57134178e-01  3.29981296e-09  3.24681237e-09  3.28085842e-09  4.57134178e-01  3.27085570e-09  1.56547983e-07  4.88724647e-08  7.00000000e-02 
 8.00000000e-02  3.24794369e-09  4.57134184e-01  3.29981296e-09  3.24681237e-09  3.28085854e-09  4.57134184e-01  3.27085570e-09  1.56547997e-07  4.88722014e-08  8.00000000e-02 
 9.00000000e-02  3.24794369e-09  4.57134179e-01  3.29981296e-09  3.24681237e-09  3.28085842e-09  4.57134179e-01  3.27085570e-09  1.56547981e-07  4.88719500e-08  9.00000000e-02 
 1.00000000e-01  3.24794358e-09  4.57134163e-01  3.29981296e-09  3.24681237e-09  3.28085842e-09  4.57134163e-01  3.27085570e-09  1.56547959e-07  4.88716321e-08  1.00000000e-01 
 1.10000000e-01  3.24794369e-09  4.57134184e-01  3.29981296e-09  3.24681237e-09  3.28085842e-09  4.57134184e-01  3.27085570e-09  1.56547991e-07  4.88714011e-08  1.10000000e-01 
 1.20000000e-01  3.24794358e-09  4.57134181e-01  3.29981296e-09  3.24681237e-09  3.28085842e-09  4.57134181e-01  3.27085570e-09  1.56547989e-07  4.88711871e-08  1.20000000e-01 
 1.30000000e-01  3.24794358e-09  4.57134163e-01  3.29981296e-09  3.24681237e-09  3.28085842e-09  4.57134163e-01  3.27085570e-09  1.56547962e-07  4.88709544e-08  1.30000000e-01 
 1.40000000e-01  3.24794358e-09  4.57134170e-01  3.29981296e-09  3.24681237e-09  3.28085842e-09  4.57134170e-01  3.27085570e-09  1.56547995e-07  4.88706426e-08  1.40000000e-01 
 1.50000000e-01  3.24794369e-09  4.57134178e-01  3.29981296e-09  3.24681237e-09  3.28085842e-09  4.57134179e-01  3.27085570e-09  1.56547975e-07  4.88706267e-08  1.50000000e-01 
 1.60000000e-01  3.24794358e-09  4.57134146e-01  3.29981296e-09  3.24681237e-09  3.28085842e-09  4.57134146e-01  3.27085570e-09  1.56547941e-07  4.88703122e-08  1.60000000e-01 
 1.70000000e-01  3.24794358e-09  4.57134188e-01  3.29981296e-09  3.24681237e-09  3.28085842e-09  4.57134189e-01  3.27085570e-09  1.56548008e-07  4.88701879e-08  1.70000000e-01 
 1.80000000e-01  3.24794358e-09  4.57134155e-01  3.29981296e-09  3.24681237e-09  3.28085842e-09  4.57134155e-01  3.27085570e-09  1.56547945e-07  4.88699374e-08  1.80000000e-01 
 1.90000000e-01  3.24794358e-09  4.57134191e-01  3.29981296e-09  3.24681237e-09  3.28085842e-09  4.57134191e-01  3.27085570e-09  1.56548000e-07  4.88698184e-08  1.90000000e-01 
 2.00000000e-01  3.24794369e-09  4.57134166e-01  3.29981296e-09  3.24681237e-09  3.28085842e-09  4.57134166e-01  3.27085570e-09  1.56547973e-07  4.88696177e-08  2.00000000e-01 
 2.10000000e-01  3.24794369e-09  4.57134170e-01  3.29981296e-09  3.24681237e-09  3.28085842e-09  4.57134170e-01  3.27085570e-09  1.56547977e-07  4.88693832e-08  2.10000000e-01 
 2.20000000e-01  3.24794358e-09  4.57134169e-01  3.29981296e-09  3.24681237e-09  3.28085842e-09  4.57134169e-01  3.27085570e-09  1.56547967e-07  4.88692891e-08  2.20000000e-01 
 2.30000000e-01  3.24794369e-09  4.57134170e-01  3.29981296e-09  3.24681237e-09  3.28085842e-09  4.57134170e-01  3.27085570e-09  1.56547970e-07  4.88692233e-08  2.30000000e-01 
 2.40000000e-01  3.24794358e-09  4.57134162e-01  3.29981296e-09  3.24681237e-09  3.28085842e-09  4.57134162e-01  3.27085570e-09  1.56547966e-07  4.88691860e-08  2.40000000e-01 
 2.50000000e-01  3.24794358e-09  4.57134181e-01  3.29981296e-09  3.24681237e-09  3.28085842e-09  4.57134181e-01  3.27085570e-09  1.56547975e-07  4.88690119e-08  2.50000000e-01 
 2.60000000e-01  3.24794369e-09  4.57134170e-01  3.29981296e-09  3.24681237e-09  3.28085842e-09  4.57134171e-01  3.27085570e-09  1.56547977e-07  4.88688396e-08  2.60000000e-01 
 2.70000000e-01  3.24794369e-09  4.57134169e-01  3.29981296e-09  3.24681237e-09  3.28085842e-09  4.57134169e-01  3.27085570e-09  1.56547974e-07  4.88686709e-08  2.70000000e-01 
 2.80000000e-01  3.24794358e-09  4.57134157e-01  3.29981296e-09  3.24681237e-09  3.28085842e-09  4.57134157e-01  3.27085570e-09  1.56547959e-07  4.88684950e-08  2.80000000e-01 
 2.90000000e-01  3.24794369e-09  4.57134174e-01  3.29981296e-09  3.24681237e-09  3.28085842e-09  4.57134174e-01  3.27085570e-09  1.56547987e-07  4.88685430e-08  2.90000000e-01 
 3.00000000e-01  3.24794369e-09  4.57134196e-01  3.29981296e-09  3.24681237e-09  3.28085842e-09  4.57134196e-01  3.27085570e-09  1.56548024e-07  4.88682979e-08  3.00000000e-01 
 3.10000000e-01  3.24794369e-09  4.57134130e-01  3.29981296e-09  3.24681237e-09  3.28085842e-09  4.57134130e-01  3.27085570e-09  1.56547916e-07  4.88682659e-08  3.10000000e-01 
 3.20000000e-01  3.24794358e-09  4.57134168e-01  3.29981296e-09  3.24681237e-09  3.28085842e-09  4.57134169e-01  3.27085570e-09  1.56547981e-07  4.88680989e-08  3.20000000e-01 
 3.30000000e-01  3.24794369e-09  4.57134180e-01  3.29981296e-09  3.24681237e-09  3.28085842e-09  4.57134180e-01  3.27085570e-09  1.56547980e-07  4.88680492e-08  3.30000000e-01 
 3.40000000e-01  3.24794358e-09  4.57134175e-01  3.29981296e-09  3.24681237e-09  3.28085842e-09  4.57134175e-01  3.27085570e-09  1.56547968e-07  4.88679639e-08  3.40000000e-01 
 3.50000000e-01  3.24794358e-09  4.57134154e-01  3.29981296e-09  3.24681237e-09  3.28085842e-09  4.57134154e-01  3.27085570e-09  1.56547955e-07  4.88678680e-08  3.50000000e-01 
 3.60000000e-01  3.24794369e-09  4.57134177e-01  3.29981296e-09  3.24681237e-09  3.28085854e-09  4.57134177e-01  3.27085570e-09  1.56548001e-07  4.88677827e-08  3.60000000e-01 
 3.70000000e-01  3.24794358e-09  4.57134151e-01  3.29981296e-09  3.24681237e-09  3.28085842e-09  4.57134151e-01  3.27085570e-09  1.56547945e-07  4.88676690e-08  3.70000000e-01 
 3.80000000e-01  3.24794358e-09  4.57134191e-01  3.29981296e-09  3.24681237e-09  3.28085842e-09  4.57134191e-01  3.27085570e-09  1.56548012e-07  4.88676584e-08  3.80000000e-01 
 3.90000000e-01  3.24794358e-09  4.57134167e-01  3.29981296e-09  3.24681237e-09  3.28085854e-09  4.57134167e-01  3.27085570e-09  1.56547950e-07  4.88675269e-08  3.90000000e-01 
 4.00000000e-01  3.24794358e-09  4.57134171e-01  3.29981296e-09  3.24681237e-09  3.28085842e-09  4.57134171e-01  3.27085570e-09  1.56547980e-07  4.88674452e-08  4.00000000e-01 
 4.10000000e-01  3.24794358e-09  4.57134174e-01  3.29981296e-09  3.24681237e-09  3.28085842e-09  4.57134174e-01  3.27085570e-09  1.56547976e-07  4.88674807e-08  4.10000000e-01 
 4.20000000e-01  3.24794358e-09  4.57134176e-01  3.29981296e-09  3.24681237e-09  3.28085842e-09  4.57134176e-01  3.27085570e-09  1.56547975e-07  4.88674239e-08  4.20000000e-01 
 4.30000000e-01  3.24794358e-09  4.57134187e-01  3.29981296e-09  3.24681237e-09  3.28085842e-09  4.57134187e-01  3.27085570e-09  1.56547988e-07  4.88672853e-08  4.30000000e-01 
 4.40000000e-01  3.24794358e-09  4.57134182e-01  3.29981296e-09  3.24681237e-09  3.28085854e-09  4.57134182e-01  3.27085570e-09  1.56547998e-07  4.88671468e-08  4.40000000e-01 
 4.50000000e-01  3.24794369e-09  4.57134168e-01  3.29981296e-09  3.24681237e-09  3.28085842e-09  4.57134168e-01  3.27085570e-09  1.56547966e-07  4.88671894e-08  4.50000000e-01 
 4.60000000e-01  3.24794369e-09  4.57134160e-01  3.29981296e-09  3.24681237e-09  3.28085842e-09  4.57134160e-01  3.27085570e-09  1.56547977e-07  4.88670544e-08  4.60000000e-01 
 4.70000000e-01  3.24794358e-09  4.57134174e-01  3.29981296e-09  3.24681237e-09  3.28085842e-09  4.57134174e-01  3.27085570e-09  1.56547990e-07  4.88670686e-08  4.70000000e-01 
 4.80000000e-01  3.24794358e-09  4.57134149e-01  3.29981296e-09  3.24681237e-09  3.28085842e-09  4.57134149e-01  3.27085570e-09  1.56547929e-07  4.88669336e-08  4.80000000e-01 
 4.90000000e-01  3.24794369e-09  4.57134174e-01  3.29981296e-09  3.24681237e-09  3.28085842e-09  4.57134174e-01  3.27085570e-09  1.56547974e-07  4.88669052e-08  4.90000000e-01 
 5.00000000e-01  3.24794358e-09  4.57134174e-01  3.29981296e-09  3.24681237e-09  3.28085842e-09  4.57134174e-01  3.27085570e-09  1.56547975e-07  4.88668057e-08  5.00000000e-01 
 5.10000000e-01  3.24794358e-09  4.57134198e-01  3.29981296e-09  3.24681237e-09  3.28085854e-09  4.57134198e-01  3.27085570e-09  1.56548014e-07  4.88667489e-08  5.10000000e-01 
 5.20000000e-01  3.24794358e-09  4.57134178e-01  3.29981296e-09  3.24681237e-09  3.28085842e-09  4.57134178e-01  3.27085570e-09  1.56547987e-07  4.88665712e-08  5.20000000e-01 
 5.30000000e-01  3.24794369e-09  4.57134163e-01  3.29981296e-09  3.24681237e-09  3.28085842e-09  4.57134163e-01  3.27085570e-09  1.56547971e-07  4.88665854e-08  5.30000000e-01 
 5.40000000e-01  3.24794358e-09  4.57134161e-01  3.29981296e-09  3.24681237e-09  3.28085842e-09  4.57134162e-01  3.27085570e-09  1.56547961e-07  4.88665428e-08  5.40000000e-01 
 5.50000000e-01  3.24794369e-09  4.57134158e-01  3.29981296e-09  3.24681237e-09  3.28085842e-09  4.57134158e-01  3.27085570e-09  1.56547962e-07  4.88664433e-08  5.50000000e-01 
 5.60000000e-01  3.24794369e-09  4.57134154e-01  3.29981296e-09  3.24681237e-09  3.28085842e-09  4.57134155e-01  3.27085570e-09  1.56547952e-07  4.88664647e-08  5.60000000e-01 
 5.70000000e-01  3.24794358e-09  4.57134185e-01  3.29981296e-09  3.24681237e-09  3.28085842e-09  4.57134185e-01  3.27085570e-09  1.56548003e-07  4.88663581e-08  5.70000000e-01 
 5.80000000e-01  3.24794358e-09  4.57134159e-01  3.29981296e-09  3.24681237e-09  3.28085842e-09  4.57134159e-01  3.27085570e-09  1.56547962e-07  4.88662408e-08  5.80000000e-01 
 5.90000000e-01  3.24794358e-09  4.57134179e-01  3.29981296e-09  3.24681237e-09  3.28085842e-09  4.57134179e-01  3.27085570e-09  1.56547985e-07  4.88662906e-08  5.90000000e-01 
 6.00000000e-01  3.24794358e-09  4.57134144e-01  3.29981296e-09  3.24681237e-09  3.28085842e-09  4.57134144e-01  3.27085570e-09  1.56547928e-07  4.88662195e-08  6.00000000e-01 
 6.10000000e-01  3.24794358e-09  4.57134182e-01  3.29981296e-09  3.24681237e-09  3.28085842e-09  4.57134182e-01  3.27085570e-09  1.56548003e-07  4.88660916e-08  6.10000000e-01 
 6.20000000e-01  3.24794369e-09  4.57134160e-01  3.29981296e-09  3.24681237e-09  3.28085842e-09  4.57134160e-01  3.27085570e-09  1.56547958e-07  4.88660277e-08  6.20000000e-01 
 6.30000000e-01  3.24794358e-09  4.57134175e-01  3.29981296e-09  3.24681237e-09  3.28085854e-09  4.57134175e-01  3.27085570e-09  1.56547996e-07  4.88659495e-08  6.30000000e-01 
 6.40000000e-01  3.24794369e-09  4.57134181e-01  3.29981296e-09  3.24681237e-09  3.28085842e-09  4.57134181e-01  3.27085570e-09  1.56547978e-07  4.88659637e-08  6.40000000e-01 
 6.50000000e-01  3.24794369e-09  4.57134161e-01  3.29981296e-09  3.24681237e-09  3.28085842e-09  4.57134161e-01  3.27085570e-09  1.56547956e-07  4.88658642e-08  6.50000000e-01 
 6.60000000e-01  3.24794369e-09  4.57134176e-01  3.29981296e-09  3.24681237e-09  3.28085842e-09  4.57134176e-01  3.27085570e-09  1.56547996e-07  4.88656937e-08  6.60000000e-01 
 6.70000000e-01  3.24794358e-09  4.57134193e-01  3.29981296e-09  3.24681237e-09  3.28085854e-09  4.57134193e-01  3.27085570e-09  1.56548008e-07  4.88657577e-08  6.70000000e-01 
 6.80000000e-01  3.24794358e-09  4.57134166e-01  3.29981296e-09  3.24681237e-09  3.28085842e-09  4.57134166e-01  3.27085570e-09  1.56547970e-07  4.88656156e-08  6.80000000e-01 
 6.90000000e-01  3.24794358e-09  4.57134168e-01  3.29981296e-09  3.24681237e-09  3.28085842e-09  4.57134168e-01  3.27085570e-09  1.56547965e-07  4.88656440e-08  6.90000000e-01 
 7.00000000e-01  3.24794369e-09  4.57134195e-01  3.29981296e-09  3.24681237e-09  3.28085854e-09  4.57134195e-01  3.27085570e-09  1.56548003e-07  4.88655019e-08  7.00000000e-01 
 7.10000000e-01  3.24794358e-09  4.57134169e-01  3.29981296e-09  3.24681237e-09  3.28085842e-09  4.57134169e-01  3.27085570e-09  1.56547973e-07  4.88654948e-08  7.10000000e-01 
 7.20000000e-01  3.24794369e-09  4.57134177e-01  3.29981296e-09  3.24681237e-09  3.28085842e-09  4.57134177e-01  3.27085570e-09  1.56547978e-07  4.88654379e-08  7.20000000e-01 
 7.30000000e-01  3.24794369e-09  4.57134177e-01  3.29981296e-09  3.24681237e-09  3.28085854e-09  4.57134178e-01  3.27085570e-09  1.56547973e-07  4.88653953e-08  7.30000000e-01 
 7.40000000e-01  3.24794369e-09  4.57134160e-01  3.29981296e-09  3.24681237e-09  3.28085854e-09  4.57134161e-01  3.27085570e-09  1.56547956e-07  4.88653100e-08  7.40000000e-01 
 7.50000000e-01  3.24794358e-09  4.57134166e-01  3.29981296e-09  3.24681237e-09  3.28085842e-09  4.57134166e-01  3.27085570e-09  1.56547983e-07  4.88652887e-08  7.50000000e-01 
 7.60000000e-01  3.24794358e-09  4.57134177e-01  3.29981296e-09  3.24681237e-09  3.28085842e-09  4.57134177e-01  3.27085570e-09  1.56547977e-07  4.88651963e-08  7.60000000e-01 
 7.70000000e-01  3.24794369e-09  4.57134163e-01  3.29981296e-09  3.24681237e-09  3.28085854e-09  4.57134163e-01  3.27085570e-09  1.56547948e-07  4.88651040e-08  7.70000000e-01 
 7.80000000e-01  3.24794369e-09  4.57134171e-01  3.29981296e-09  3.24681237e-09  3.28085842e-09  4.57134171e-01  3.27085570e-09  1.56547988e-07  4.88650116e-08  7.80000000e-01 
 7.90000000e-01  3.24794369e-09  4.57134176e-01  3.29981296e-09  3.24681237e-09  3.28085854e-09  4.57134176e-01  3.27085570e-09  1.56547978e-07  4.88650471e-08  7.90000000e-01 
 8.00000000e-01  3.24794369e-09  4.57134169e-01  3.29981296e-09  3.24681237e-09  3.28085842e-09  4.57134169e-01  3.27085570e-09  1.56547971e-07  4.88649690e-08  8.00000000e-01 
 8.10000000e-01  3.24794369e-09  4.57134160e-01  3.29981296e-09  3.24681237e-09  3.28085854e-09  4.57134160e-01  3.27085570e-09  1.56547953e-07  4.88648411e-08  8.10000000e-01 
 8.20000000e-01  3.24794358e-09  4.57134177e-01  3.29981296e-09  3.24681237e-09  3.28085842e-09  4.57134177e-01  3.27085570e-09  1.56547984e-07  4.88648695e-08  8.20000000e-01 
 8.30000000e-01  3.24794358e-09  4.57134163e-01  3.29981296e-09  3.24681237e-09  3.28085842e-09  4.57134163e-01  3.27085570e-09  1.56547959e-07  4.88648411e-08  8.30000000e-01 
 8.40000000e-01  3.24794358e-09  4.57134182e-01  3.29981296e-09  3.24681237e-09  3.28085842e-09  4.57134182e-01  3.27085570e-09  1.56548002e-07  4.88647842e-08  8.40000000e-01 
 8.50000000e-01  3.24794369e-09  4.57134182e-01  3.29981296e-09  3.24681237e-09  3.28085854e-09  4.57134182e-01  3.27085570e-09  1.56547989e-07  4.88647416e-08  8.50000000e-01 
 8.60000000e-01  3.24794358e-09  4.57134156e-01  3.29981296e-09  3.24681237e-09  3.28085854e-09  4.57134156e-01  3.27085570e-09  1.56547940e-07  4.88645568e-08  8.60000000e-01 
 8.70000000e-01  3.24794358e-09  4.57134161e-01  3.29981296e-09  3.24681237e-09  3.28085842e-09  4.57134161e-01  3.27085570e-09  1.56547959e-07  4.88645995e-08  8.70000000e-01 
 8.80000000e-01  3.24794358e-09  4.57134172e-01  3.29981296e-09  3.24681237e-09  3.28085842e-09  4.57134173e-01  3.27085570e-09  1.56547975e-07  4.88644574e-08  8.80000000e-01 
 8.90000000e-01  3.24794369e-09  4.57134182e-01  3.29981296e-09  3.24681237e-09  3.28085842e-09  4.57134182e-01  3.27085570e-09  1.56547983e-07  4.88645853e-08  8.90000000e-01 
 9.00000000e-01  3.24794358e-09  4.57134179e-01  3.29981296e-09  3.24681237e-09  3.28085842e-09  4.57134179e-01  3.27085570e-09  1.56547988e-07  4.88643934e-08  9.00000000e-01 
 9.10000000e-01  3.24794369e-09  4.57134179e-01  3.29981296e-09  3.24681237e-09  3.28085842e-09  4.57134179e-01  3.27085570e-09  1.56547976e-07  4.88643224e-08  9.10000000e-01 
 9.20000000e-01  3.24794369e-09  4.57134158e-01  3.29981296e-09  3.24681237e-09  3.28085842e-09  4.57134158e-01  3.27085570e-09  1.56547955e-07  4.88643792e-08  9.20000000e-01 
 9.30000000e-01  3.24794369e-09  4.57134167e-01  3.29981296e-09  3.24681237e-09  3.28085842e-09  4.57134167e-01  3.27085570e-09  1.56547974e-07  4.88641163e-08  9.30000000e-01 
 9.40000000e-01  3.24794358e-09  4.57134179e-01  3.29981296e-09  3.24681237e-09  3.28085842e-09  4.57134179e-01  3.27085570e-09  1.56547984e-07  4.88641518e-08  9.40000000e-01 
 9.50000000e-01  3.24794369e-09  4.57134173e-01  3.29981296e-09  3.24681237e-09  3.28085842e-09  4.57134173e-01  3.27085570e-09  1.56547973e-07  4.88640808e-08  9.50000000e-01 
 9.60000000e-01  3.24794369e-09  4.57134172e-01  3.29981296e-09  3.24681237e-09  3.28085842e-09  4.57134172e-01  3.27085570e-09  1.56547985e-07  4.88640879e-08  9.60000000e-01 
 9.70000000e-01  3.24794358e-09  4.57134161e-01  3.29981296e-09  3.24681237e-09  3.28085842e-09  4.57134161e-01  3.27085570e-09  1.56547964e-07  4.88639316e-08  9.70000000e-01 
 9.80000000e-01  3.24794369e-09  4.57134174e-01  3.29981296e-09  3.24681237e-09  3.28085842e-09  4.57134174e-01  3.27085570e-09  1.56547981e-07  4.88638818e-08  9.80000000e-01 
 9.90000000e-01  3.24794369e-09  4.57134151e-01  3.29981296e-09  3.24681237e-09  3.28085842e-09  4.57134151e-01  3.27085570e-09  1.56547945e-07  4.88637966e-08  9.90000000e-01 
 1.00000000e+00  3.24794369e-09  4.57134183e-01  3.29981296e-09  3.24681237e-09  3.28085842e-09  4.57134183e-01  3.27085570e-09  1.56547997e-07  4.88638037e-08  1.00000000e+00 
 1.01000000e+00  3.24794358e-09  4.57134151e-01  3.29981296e-09  3.24681237e-09  3.28085842e-09  4.57134151e-01  3.27085570e-09  1.56547945e-07  4.88637255e-08  1.01000000e+00 
 1.02000000e+00  3.24794369e-09  4.57134179e-01  3.29981296e-09  3.24681237e-09  3.28085842e-09  4.57134179e-01  3.27085570e-09  1.56547986e-07  4.88636900e-08  1.02000000e+00 
 1.03000000e+00  3.24794358e-09  4.57134176e-01  3.29981296e-09  3.24681237e-09  3.28085842e-09  4.57134176e-01  3.27085570e-09  1.56547979e-07  4.88636047e-08  1.03000000e+00 
 1.04000000e+00  3.24794358e-09  4.57134171e-01  3.29981296e-09  3.24681237e-09  3.28085842e-09  4.57134171e-01  3.27085570e-09  1.56547975e-07  4.88634555e-08  1.04000000e+00 
 1.05000000e+00  3.24794369e-09  4.57134152e-01  3.29981296e-09  3.24681237e-09  3.28085842e-09  4.57134152e-01  3.27085570e-09  1.56547946e-07  4.88633489e-08  1.05000000e+00 
 1.06000000e+00  3.24794358e-09  4.57134162e-01  3.29981296e-09  3.24681237e-09  3.28085842e-09  4.57134162e-01  3.27085570e-09  1.56547960e-07  4.88632708e-08  1.06000000e+00 
 1.07000000e+00  3.24794369e-09  4.57134154e-01  3.29981296e-09  3.24681237e-09  3.28085854e-09  4.57134154e-01  3.27085570e-09  1.56547950e-07  4.88632352e-08  1.07000000e+00 
 1.08000000e+00  3.24794358e-09  4.57134174e-01  3.29981296e-09  3.24681237e-09  3.28085842e-09  4.57134174e-01  3.27085570e-09  1.56547985e-07  4.88631713e-08  1.08000000e+00 
 1.09000000e+00  3.24794358e-09  4.57134164e-01  3.29981296e-09  3.24681237e-09  3.28085842e-09  4.57134164e-01  3.27085570e-09  1.56547952e-07  4.88631926e-08  1.09000000e+00 
 1.10000000e+00  3.24794358e-09  4.57134176e-01  3.29981296e-09  3.24681237e-09  3.28085842e-09  4.57134176e-01  3.27085570e-09  1.56547991e-07  4.88632139e-08  1.10000000e+00 
