 v-sweep         v(b0)           v(b1)           v(b2)           v(b3)           v(b4)           v(b5)           v(b6)           i(vbias)        i(viout)        v(vout)        
 0.00000000e+00  4.56742201e-01  3.21371308e-09  4.56742201e-01  4.56742201e-01  3.26306519e-09  3.22895961e-09  3.27060419e-09  1.56168590e-07  1.95688313e-08  0.00000000e+00 
 1.00000000e-02  4.56742175e-01  3.21371306e-09  4.56742175e-01  4.56742175e-01  3.26306506e-09  3.22895959e-09  3.27060418e-09  1.56168558e-07  1.95683812e-08  1.00000000e-02 
 2.00000000e-02  4.56742174e-01  3.21371306e-09  4.56742174e-01  4.56742174e-01  3.26306518e-09  3.22895959e-09  3.27060419e-09  1.56168566e-07  1.95680334e-08  2.00000000e-02 
 3.00000000e-02  4.56742202e-01  3.21371306e-09  4.56742202e-01  4.56742202e-01  3.26306506e-09  3.22895959e-09  3.27060429e-09  1.56168595e-07  1.95676937e-08  3.00000000e-02 
 4.00000000e-02  4.56742216e-01  3.21371306e-09  4.56742216e-01  4.56742216e-01  3.26306518e-09  3.22895959e-09  3.27060418e-09  1.56168616e-07  1.95673810e-08  4.00000000e-02 
 5.00000000e-02  4.56742187e-01  3.21371306e-09  4.56742187e-01  4.56742187e-01  3.26306517e-09  3.22895959e-09  3.27060419e-09  1.56168573e-07  1.95670604e-08  5.00000000e-02 
 6.00000000e-02  4.56742182e-01  3.21371306e-09  4.56742182e-01  4.56742182e-01  3.26306518e-09  3.22895959e-09  3.27060429e-09  1.56168564e-07  1.95667220e-08  6.00000000e-02 
 7.00000000e-02  4.56742193e-01  3.21371306e-09  4.56742193e-01  4.56742193e-01  3.26306506e-09  3.22895959e-09  3.27060418e-09  1.56168584e-07  1.95664400e-08  7.00000000e-02 
 8.00000000e-02  4.56742171e-01  3.21371306e-09  4.56742171e-01  4.56742171e-01  3.26306518e-09  3.22895959e-09  3.27060419e-09  1.56168568e-07  1.95662011e-08  8.00000000e-02 
 9.00000000e-02  4.56742171e-01  3.21371306e-09  4.56742171e-01  4.56742171e-01  3.26306506e-09  3.22895959e-09  3.27060418e-09  1.56168561e-07  1.95658316e-08  9.00000000e-02 
 1.00000000e-01  4.56742175e-01  3.21371306e-09  4.56742175e-01  4.56742175e-01  3.26306518e-09  3.22895959e-09  3.27060418e-09  1.56168565e-07  1.95655829e-08  1.00000000e-01 
 1.10000000e-01  4.56742190e-01  3.21371306e-09  4.56742190e-01  4.56742190e-01  3.26306517e-09  3.22895959e-09  3.27060418e-09  1.56168578e-07  1.95653032e-08  1.10000000e-01 
 1.20000000e-01  4.56742186e-01  3.21371306e-09  4.56742186e-01  4.56742186e-01  3.26306506e-09  3.22895959e-09  3.27060418e-09  1.56168587e-07  1.95651246e-08  1.20000000e-01 
 1.30000000e-01  4.56742169e-01  3.21371306e-09  4.56742169e-01  4.56742169e-01  3.26306507e-09  3.22895959e-09  3.27060418e-09  1.56168550e-07  1.95648786e-08  1.30000000e-01 
 1.40000000e-01  4.56742202e-01  3.21371306e-09  4.56742202e-01  4.56742202e-01  3.26306507e-09  3.22895959e-09  3.27060430e-09  1.56168601e-07  1.95647880e-08  1.40000000e-01 
 1.50000000e-01  4.56742172e-01  3.21371306e-09  4.56742172e-01  4.56742172e-01  3.26306507e-09  3.22895959e-09  3.27060418e-09  1.56168550e-07  1.95646095e-08  1.50000000e-01 
 1.60000000e-01  4.56742175e-01  3.21371306e-09  4.56742175e-01  4.56742175e-01  3.26306507e-09  3.22895959e-09  3.27060419e-09  1.56168550e-07  1.95644212e-08  1.60000000e-01 
 1.70000000e-01  4.56742205e-01  3.21371306e-09  4.56742205e-01  4.56742205e-01  3.26306507e-09  3.22895959e-09  3.27060418e-09  1.56168589e-07  1.95642276e-08  1.70000000e-01 
 1.80000000e-01  4.56742181e-01  3.21371306e-09  4.56742181e-01  4.56742181e-01  3.26306518e-09  3.22895959e-09  3.27060419e-09  1.56168562e-07  1.95640464e-08  1.80000000e-01 
 1.90000000e-01  4.56742200e-01  3.21371306e-09  4.56742200e-01  4.56742200e-01  3.26306506e-09  3.22895959e-09  3.27060418e-09  1.56168593e-07  1.95638261e-08  1.90000000e-01 
 2.00000000e-01  4.56742200e-01  3.21371306e-09  4.56742200e-01  4.56742200e-01  3.26306507e-09  3.22895959e-09  3.27060419e-09  1.56168600e-07  1.95636396e-08  2.00000000e-01 
 2.10000000e-01  4.56742166e-01  3.21371306e-09  4.56742166e-01  4.56742166e-01  3.26306507e-09  3.22895959e-09  3.27060418e-09  1.56168542e-07  1.95634495e-08  2.10000000e-01 
 2.20000000e-01  4.56742161e-01  3.21371306e-09  4.56742161e-01  4.56742161e-01  3.26306507e-09  3.22895959e-09  3.27060418e-09  1.56168539e-07  1.95634229e-08  2.20000000e-01 
 2.30000000e-01  4.56742222e-01  3.21371306e-09  4.56742222e-01  4.56742222e-01  3.26306507e-09  3.22895959e-09  3.27060418e-09  1.56168625e-07  1.95633696e-08  2.30000000e-01 
 2.40000000e-01  4.56742177e-01  3.21371306e-09  4.56742177e-01  4.56742177e-01  3.26306518e-09  3.22895959e-09  3.27060418e-09  1.56168550e-07  1.95630356e-08  2.40000000e-01 
 2.50000000e-01  4.56742191e-01  3.21371306e-09  4.56742191e-01  4.56742191e-01  3.26306517e-09  3.22895959e-09  3.27060430e-09  1.56168564e-07  1.95630392e-08  2.50000000e-01 
 2.60000000e-01  4.56742193e-01  3.21371306e-09  4.56742193e-01  4.56742193e-01  3.26306506e-09  3.22895959e-09  3.27060429e-09  1.56168572e-07  1.95630001e-08  2.60000000e-01 
 2.70000000e-01  4.56742189e-01  3.21371306e-09  4.56742189e-01  4.56742189e-01  3.26306507e-09  3.22895959e-09  3.27060429e-09  1.56168592e-07  1.95627443e-08  2.70000000e-01 
 2.80000000e-01  4.56742203e-01  3.21371306e-09  4.56742203e-01  4.56742203e-01  3.26306518e-09  3.22895959e-09  3.27060418e-09  1.56168598e-07  1.95626750e-08  2.80000000e-01 
 2.90000000e-01  4.56742211e-01  3.21371306e-09  4.56742211e-01  4.56742211e-01  3.26306506e-09  3.22895959e-09  3.27060419e-09  1.56168600e-07  1.95625880e-08  2.90000000e-01 
 3.00000000e-01  4.56742178e-01  3.21371306e-09  4.56742178e-01  4.56742178e-01  3.26306507e-09  3.22895959e-09  3.27060429e-09  1.56168566e-07  1.95624885e-08  3.00000000e-01 
 3.10000000e-01  4.56742183e-01  3.21371306e-09  4.56742183e-01  4.56742183e-01  3.26306507e-09  3.22895959e-09  3.27060429e-09  1.56168569e-07  1.95623358e-08  3.10000000e-01 
 3.20000000e-01  4.56742194e-01  3.21371306e-09  4.56742194e-01  4.56742194e-01  3.26306518e-09  3.22895959e-09  3.27060418e-09  1.56168580e-07  1.95623784e-08  3.20000000e-01 
 3.30000000e-01  4.56742170e-01  3.21371306e-09  4.56742170e-01  4.56742170e-01  3.26306506e-09  3.22895959e-09  3.27060419e-09  1.56168546e-07  1.95621475e-08  3.30000000e-01 
 3.40000000e-01  4.56742191e-01  3.21371306e-09  4.56742191e-01  4.56742191e-01  3.26306507e-09  3.22895959e-09  3.27060430e-09  1.56168573e-07  1.95620800e-08  3.40000000e-01 
 3.50000000e-01  4.56742207e-01  3.21371306e-09  4.56742207e-01  4.56742207e-01  3.26306518e-09  3.22895959e-09  3.27060429e-09  1.56168596e-07  1.95620196e-08  3.50000000e-01 
 3.60000000e-01  4.56742201e-01  3.21371306e-09  4.56742201e-01  4.56742201e-01  3.26306517e-09  3.22895959e-09  3.27060418e-09  1.56168592e-07  1.95618419e-08  3.60000000e-01 
 3.70000000e-01  4.56742176e-01  3.21371306e-09  4.56742176e-01  4.56742176e-01  3.26306518e-09  3.22895959e-09  3.27060419e-09  1.56168564e-07  1.95618917e-08  3.70000000e-01 
 3.80000000e-01  4.56742196e-01  3.21371306e-09  4.56742196e-01  4.56742196e-01  3.26306518e-09  3.22895959e-09  3.27060418e-09  1.56168596e-07  1.95617673e-08  3.80000000e-01 
 3.90000000e-01  4.56742200e-01  3.21371306e-09  4.56742200e-01  4.56742200e-01  3.26306518e-09  3.22895959e-09  3.27060430e-09  1.56168600e-07  1.95616856e-08  3.90000000e-01 
 4.00000000e-01  4.56742199e-01  3.21371306e-09  4.56742199e-01  4.56742199e-01  3.26306506e-09  3.22895959e-09  3.27060429e-09  1.56168604e-07  1.95616536e-08  4.00000000e-01 
 4.10000000e-01  4.56742204e-01  3.21371306e-09  4.56742204e-01  4.56742204e-01  3.26306507e-09  3.22895959e-09  3.27060418e-09  1.56168599e-07  1.95615080e-08  4.10000000e-01 
 4.20000000e-01  4.56742189e-01  3.21371306e-09  4.56742189e-01  4.56742189e-01  3.26306518e-09  3.22895959e-09  3.27060430e-09  1.56168580e-07  1.95614547e-08  4.20000000e-01 
 4.30000000e-01  4.56742171e-01  3.21371306e-09  4.56742171e-01  4.56742171e-01  3.26306506e-09  3.22895959e-09  3.27060418e-09  1.56168562e-07  1.95614547e-08  4.30000000e-01 
 4.40000000e-01  4.56742164e-01  3.21371306e-09  4.56742164e-01  4.56742164e-01  3.26306518e-09  3.22895959e-09  3.27060419e-09  1.56168553e-07  1.95614547e-08  4.40000000e-01 
 4.50000000e-01  4.56742173e-01  3.21371306e-09  4.56742173e-01  4.56742173e-01  3.26306517e-09  3.22895959e-09  3.27060418e-09  1.56168559e-07  1.95612060e-08  4.50000000e-01 
 4.60000000e-01  4.56742221e-01  3.21371306e-09  4.56742221e-01  4.56742221e-01  3.26306518e-09  3.22895959e-09  3.27060430e-09  1.56168631e-07  1.95612770e-08  4.60000000e-01 
 4.70000000e-01  4.56742206e-01  3.21371306e-09  4.56742206e-01  4.56742206e-01  3.26306506e-09  3.22895959e-09  3.27060429e-09  1.56168592e-07  1.95612557e-08  4.70000000e-01 
 4.80000000e-01  4.56742212e-01  3.21371306e-09  4.56742212e-01  4.56742212e-01  3.26306507e-09  3.22895959e-09  3.27060418e-09  1.56168603e-07  1.95612415e-08  4.80000000e-01 
 4.90000000e-01  4.56742197e-01  3.21371318e-09  4.56742197e-01  4.56742197e-01  3.26306507e-09  3.22895959e-09  3.27060419e-09  1.56168602e-07  1.95610639e-08  4.90000000e-01 
 5.00000000e-01  4.56742204e-01  3.21371306e-09  4.56742204e-01  4.56742204e-01  3.26306518e-09  3.22895959e-09  3.27060418e-09  1.56168599e-07  1.95609715e-08  5.00000000e-01 
 5.10000000e-01  4.56742201e-01  3.21371307e-09  4.56742201e-01  4.56742201e-01  3.26306517e-09  3.22895959e-09  3.27060419e-09  1.56168591e-07  1.95609609e-08  5.10000000e-01 
 5.20000000e-01  4.56742194e-01  3.21371306e-09  4.56742194e-01  4.56742194e-01  3.26306506e-09  3.22895959e-09  3.27060418e-09  1.56168584e-07  1.95608933e-08  5.20000000e-01 
 5.30000000e-01  4.56742186e-01  3.21371306e-09  4.56742186e-01  4.56742186e-01  3.26306507e-09  3.22895959e-09  3.27060419e-09  1.56168579e-07  1.95607974e-08  5.30000000e-01 
 5.40000000e-01  4.56742215e-01  3.21371306e-09  4.56742215e-01  4.56742215e-01  3.26306518e-09  3.22895959e-09  3.27060418e-09  1.56168615e-07  1.95607193e-08  5.40000000e-01 
 5.50000000e-01  4.56742182e-01  3.21371306e-09  4.56742182e-01  4.56742182e-01  3.26306506e-09  3.22895959e-09  3.27060419e-09  1.56168555e-07  1.95606695e-08  5.50000000e-01 
 5.60000000e-01  4.56742162e-01  3.21371306e-09  4.56742162e-01  4.56742162e-01  3.26306507e-09  3.22895959e-09  3.27060429e-09  1.56168540e-07  1.95605416e-08  5.60000000e-01 
 5.70000000e-01  4.56742141e-01  3.21371306e-09  4.56742141e-01  4.56742141e-01  3.26306507e-09  3.22895959e-09  3.27060418e-09  1.56168504e-07  1.95606269e-08  5.70000000e-01 
 5.80000000e-01  4.56742172e-01  3.21371306e-09  4.56742172e-01  4.56742172e-01  3.26306507e-09  3.22895959e-09  3.27060430e-09  1.56168556e-07  1.95604599e-08  5.80000000e-01 
 5.90000000e-01  4.56742188e-01  3.21371306e-09  4.56742188e-01  4.56742188e-01  3.26306507e-09  3.22895959e-09  3.27060418e-09  1.56168574e-07  1.95604883e-08  5.90000000e-01 
 6.00000000e-01  4.56742188e-01  3.21371306e-09  4.56742188e-01  4.56742188e-01  3.26306507e-09  3.22895959e-09  3.27060430e-09  1.56168580e-07  1.95603818e-08  6.00000000e-01 
 6.10000000e-01  4.56742174e-01  3.21371306e-09  4.56742174e-01  4.56742174e-01  3.26306518e-09  3.22895959e-09  3.27060418e-09  1.56168558e-07  1.95604741e-08  6.10000000e-01 
 6.20000000e-01  4.56742178e-01  3.21371306e-09  4.56742178e-01  4.56742178e-01  3.26306517e-09  3.22895959e-09  3.27060419e-09  1.56168569e-07  1.95602681e-08  6.20000000e-01 
 6.30000000e-01  4.56742173e-01  3.21371306e-09  4.56742173e-01  4.56742173e-01  3.26306518e-09  3.22895959e-09  3.27060418e-09  1.56168554e-07  1.95603533e-08  6.30000000e-01 
 6.40000000e-01  4.56742208e-01  3.21371306e-09  4.56742208e-01  4.56742208e-01  3.26306518e-09  3.22895959e-09  3.27060430e-09  1.56168608e-07  1.95603036e-08  6.40000000e-01 
 6.50000000e-01  4.56742192e-01  3.21371306e-09  4.56742192e-01  4.56742192e-01  3.26306518e-09  3.22895959e-09  3.27060418e-09  1.56168560e-07  1.95601544e-08  6.50000000e-01 
 6.60000000e-01  4.56742188e-01  3.21371306e-09  4.56742188e-01  4.56742188e-01  3.26306506e-09  3.22895959e-09  3.27060430e-09  1.56168565e-07  1.95601828e-08  6.60000000e-01 
 6.70000000e-01  4.56742207e-01  3.21371306e-09  4.56742207e-01  4.56742207e-01  3.26306518e-09  3.22895959e-09  3.27060429e-09  1.56168608e-07  1.95599270e-08  6.70000000e-01 
 6.80000000e-01  4.56742189e-01  3.21371306e-09  4.56742189e-01  4.56742189e-01  3.26306517e-09  3.22895959e-09  3.27060418e-09  1.56168584e-07  1.95600904e-08  6.80000000e-01 
 6.90000000e-01  4.56742205e-01  3.21371306e-09  4.56742205e-01  4.56742205e-01  3.26306518e-09  3.22895959e-09  3.27060430e-09  1.56168607e-07  1.95600904e-08  6.90000000e-01 
 7.00000000e-01  4.56742173e-01  3.21371306e-09  4.56742173e-01  4.56742173e-01  3.26306518e-09  3.22895959e-09  3.27060418e-09  1.56168563e-07  1.95598346e-08  7.00000000e-01 
 7.10000000e-01  4.56742181e-01  3.21371306e-09  4.56742181e-01  4.56742181e-01  3.26306506e-09  3.22895959e-09  3.27060419e-09  1.56168563e-07  1.95600407e-08  7.10000000e-01 
 7.20000000e-01  4.56742199e-01  3.21371306e-09  4.56742200e-01  4.56742199e-01  3.26306507e-09  3.22895959e-09  3.27060418e-09  1.56168594e-07  1.95599554e-08  7.20000000e-01 
 7.30000000e-01  4.56742160e-01  3.21371306e-09  4.56742160e-01  4.56742160e-01  3.26306518e-09  3.22895959e-09  3.27060418e-09  1.56168541e-07  1.95597565e-08  7.30000000e-01 
 7.40000000e-01  4.56742165e-01  3.21371306e-09  4.56742165e-01  4.56742165e-01  3.26306506e-09  3.22895959e-09  3.27060418e-09  1.56168525e-07  1.95597352e-08  7.40000000e-01 
 7.50000000e-01  4.56742186e-01  3.21371306e-09  4.56742186e-01  4.56742186e-01  3.26306507e-09  3.22895959e-09  3.27060429e-09  1.56168568e-07  1.95596144e-08  7.50000000e-01 
 7.60000000e-01  4.56742203e-01  3.21371306e-09  4.56742203e-01  4.56742203e-01  3.26306507e-09  3.22895959e-09  3.27060429e-09  1.56168607e-07  1.95596854e-08  7.60000000e-01 
 7.70000000e-01  4.56742212e-01  3.21371306e-09  4.56742212e-01  4.56742212e-01  3.26306507e-09  3.22895959e-09  3.27060429e-09  1.56168616e-07  1.95595931e-08  7.70000000e-01 
 7.80000000e-01  4.56742195e-01  3.21371306e-09  4.56742195e-01  4.56742195e-01  3.26306518e-09  3.22895959e-09  3.27060418e-09  1.56168597e-07  1.95595717e-08  7.80000000e-01 
 7.90000000e-01  4.56742169e-01  3.21371306e-09  4.56742169e-01  4.56742169e-01  3.26306506e-09  3.22895959e-09  3.27060419e-09  1.56168548e-07  1.95595788e-08  7.90000000e-01 
 8.00000000e-01  4.56742188e-01  3.21371306e-09  4.56742188e-01  4.56742188e-01  3.26306507e-09  3.22895959e-09  3.27060418e-09  1.56168573e-07  1.95593515e-08  8.00000000e-01 
 8.10000000e-01  4.56742197e-01  3.21371306e-09  4.56742197e-01  4.56742197e-01  3.26306507e-09  3.22895959e-09  3.27060418e-09  1.56168602e-07  1.95593586e-08  8.10000000e-01 
 8.20000000e-01  4.56742190e-01  3.21371306e-09  4.56742191e-01  4.56742191e-01  3.26306518e-09  3.22895959e-09  3.27060418e-09  1.56168593e-07  1.95592804e-08  8.20000000e-01 
 8.30000000e-01  4.56742189e-01  3.21371306e-09  4.56742189e-01  4.56742189e-01  3.26306517e-09  3.22895959e-09  3.27060418e-09  1.56168581e-07  1.95592023e-08  8.30000000e-01 
 8.40000000e-01  4.56742218e-01  3.21371306e-09  4.56742218e-01  4.56742218e-01  3.26306506e-09  3.22895959e-09  3.27060418e-09  1.56168625e-07  1.95592449e-08  8.40000000e-01 
 8.50000000e-01  4.56742164e-01  3.21371306e-09  4.56742164e-01  4.56742164e-01  3.26306507e-09  3.22895959e-09  3.27060418e-09  1.56168542e-07  1.95592733e-08  8.50000000e-01 
 8.60000000e-01  4.56742197e-01  3.21371306e-09  4.56742197e-01  4.56742197e-01  3.26306518e-09  3.22895959e-09  3.27060430e-09  1.56168591e-07  1.95591809e-08  8.60000000e-01 
 8.70000000e-01  4.56742207e-01  3.21371306e-09  4.56742207e-01  4.56742207e-01  3.26306517e-09  3.22895959e-09  3.27060418e-09  1.56168599e-07  1.95590601e-08  8.70000000e-01 
 8.80000000e-01  4.56742185e-01  3.21371306e-09  4.56742185e-01  4.56742185e-01  3.26306506e-09  3.22895959e-09  3.27060419e-09  1.56168573e-07  1.95590246e-08  8.80000000e-01 
 8.90000000e-01  4.56742185e-01  3.21371306e-09  4.56742185e-01  4.56742185e-01  3.26306507e-09  3.22895959e-09  3.27060429e-09  1.56168559e-07  1.95590175e-08  8.90000000e-01 
 9.00000000e-01  4.56742199e-01  3.21371306e-09  4.56742199e-01  4.56742199e-01  3.26306507e-09  3.22895959e-09  3.27060418e-09  1.56168583e-07  1.95588257e-08  9.00000000e-01 
 9.10000000e-01  4.56742205e-01  3.21371306e-09  4.56742205e-01  4.56742205e-01  3.26306518e-09  3.22895959e-09  3.27060419e-09  1.56168592e-07  1.95589109e-08  9.10000000e-01 
 9.20000000e-01  4.56742198e-01  3.21371306e-09  4.56742198e-01  4.56742198e-01  3.26306506e-09  3.22895959e-09  3.27060418e-09  1.56168603e-07  1.95588967e-08  9.20000000e-01 
 9.30000000e-01  4.56742189e-01  3.21371306e-09  4.56742189e-01  4.56742189e-01  3.26306507e-09  3.22895959e-09  3.27060419e-09  1.56168576e-07  1.95588044e-08  9.30000000e-01 
 9.40000000e-01  4.56742184e-01  3.21371306e-09  4.56742184e-01  4.56742184e-01  3.26306507e-09  3.22895959e-09  3.27060418e-09  1.56168569e-07  1.95586836e-08  9.40000000e-01 
 9.50000000e-01  4.56742186e-01  3.21371306e-09  4.56742186e-01  4.56742186e-01  3.26306507e-09  3.22895959e-09  3.27060430e-09  1.56168569e-07  1.95585272e-08  9.50000000e-01 
 9.60000000e-01  4.56742185e-01  3.21371306e-09  4.56742185e-01  4.56742185e-01  3.26306507e-09  3.22895959e-09  3.27060418e-09  1.56168588e-07  1.95585415e-08  9.60000000e-01 
 9.70000000e-01  4.56742215e-01  3.21371306e-09  4.56742215e-01  4.56742215e-01  3.26306518e-09  3.22895959e-09  3.27060419e-09  1.56168629e-07  1.95585841e-08  9.70000000e-01 
 9.80000000e-01  4.56742191e-01  3.21371306e-09  4.56742191e-01  4.56742191e-01  3.26306517e-09  3.22895959e-09  3.27060418e-09  1.56168581e-07  1.95586054e-08  9.80000000e-01 
 9.90000000e-01  4.56742198e-01  3.21371306e-09  4.56742198e-01  4.56742198e-01  3.26306506e-09  3.22895959e-09  3.27060419e-09  1.56168583e-07  1.95583567e-08  9.90000000e-01 
 1.00000000e+00  4.56742204e-01  3.21371306e-09  4.56742204e-01  4.56742204e-01  3.26306507e-09  3.22895959e-09  3.27060418e-09  1.56168596e-07  1.95584491e-08  1.00000000e+00 
 1.01000000e+00  4.56742189e-01  3.21371306e-09  4.56742189e-01  4.56742189e-01  3.26306518e-09  3.22895959e-09  3.27060419e-09  1.56168570e-07  1.95583354e-08  1.01000000e+00 
 1.02000000e+00  4.56742199e-01  3.21371306e-09  4.56742199e-01  4.56742199e-01  3.26306506e-09  3.22895959e-09  3.27060429e-09  1.56168589e-07  1.95583567e-08  1.02000000e+00 
 1.03000000e+00  4.56742185e-01  3.21371306e-09  4.56742185e-01  4.56742185e-01  3.26306518e-09  3.22895959e-09  3.27060429e-09  1.56168585e-07  1.95582572e-08  1.03000000e+00 
 1.04000000e+00  4.56742197e-01  3.21371306e-09  4.56742197e-01  4.56742197e-01  3.26306506e-09  3.22895959e-09  3.27060418e-09  1.56168588e-07  1.95581009e-08  1.04000000e+00 
 1.05000000e+00  4.56742209e-01  3.21371306e-09  4.56742209e-01  4.56742209e-01  3.26306507e-09  3.22895959e-09  3.27060419e-09  1.56168617e-07  1.95580441e-08  1.05000000e+00 
 1.06000000e+00  4.56742200e-01  3.21371306e-09  4.56742200e-01  4.56742200e-01  3.26306507e-09  3.22895959e-09  3.27060429e-09  1.56168601e-07  1.95581222e-08  1.06000000e+00 
 1.07000000e+00  4.56742194e-01  3.21371306e-09  4.56742194e-01  4.56742194e-01  3.26306507e-09  3.22895959e-09  3.27060418e-09  1.56168577e-07  1.95579659e-08  1.07000000e+00 
 1.08000000e+00  4.56742192e-01  3.21371306e-09  4.56742192e-01  4.56742192e-01  3.26306518e-09  3.22895959e-09  3.27060419e-09  1.56168593e-07  1.95578735e-08  1.08000000e+00 
 1.09000000e+00  4.56742176e-01  3.21371306e-09  4.56742176e-01  4.56742176e-01  3.26306517e-09  3.22895959e-09  3.27060429e-09  1.56168563e-07  1.95579233e-08  1.09000000e+00 
 1.10000000e+00  4.56742191e-01  3.21371306e-09  4.56742191e-01  4.56742191e-01  3.26306518e-09  3.22895959e-09  3.27060418e-09  1.56168574e-07  1.95578380e-08  1.10000000e+00 
