 v-sweep         v(b0)           v(b1)           v(b2)           v(b3)           v(b4)           v(b5)           v(b6)           i(vbias)        i(viout)        v(vout)        
 0.00000000e+00  4.57134965e-01  3.25094387e-09  4.57134965e-01  4.57134965e-01  3.28085846e-09  3.24676177e-09  3.27085573e-09  1.56549038e-07  1.92227899e-08  0.00000000e+00 
 1.00000000e-02  4.57134951e-01  3.25094374e-09  4.57134951e-01  4.57134951e-01  3.28085844e-09  3.24676175e-09  3.27085572e-09  1.56549018e-07  1.92225129e-08  1.00000000e-02 
 2.00000000e-02  4.57134951e-01  3.25094374e-09  4.57134951e-01  4.57134951e-01  3.28085844e-09  3.24676186e-09  3.27085572e-09  1.56549032e-07  1.92220520e-08  2.00000000e-02 
 3.00000000e-02  4.57134956e-01  3.25094386e-09  4.57134956e-01  4.57134956e-01  3.28085844e-09  3.24676186e-09  3.27085572e-09  1.56549026e-07  1.92218810e-08  3.00000000e-02 
 4.00000000e-02  4.57134955e-01  3.25094386e-09  4.57134955e-01  4.57134955e-01  3.28085856e-09  3.24676186e-09  3.27085572e-09  1.56549021e-07  1.92214391e-08  4.00000000e-02 
 5.00000000e-02  4.57134943e-01  3.25094374e-09  4.57134943e-01  4.57134943e-01  3.28085844e-09  3.24676186e-09  3.27085572e-09  1.56549008e-07  1.92209981e-08  5.00000000e-02 
 6.00000000e-02  4.57134964e-01  3.25094374e-09  4.57134964e-01  4.57134964e-01  3.28085845e-09  3.24676186e-09  3.27085572e-09  1.56549044e-07  1.92207623e-08  6.00000000e-02 
 7.00000000e-02  4.57134951e-01  3.25094386e-09  4.57134951e-01  4.57134951e-01  3.28085844e-09  3.24676175e-09  3.27085572e-09  1.56549014e-07  1.92204568e-08  7.00000000e-02 
 8.00000000e-02  4.57134965e-01  3.25094374e-09  4.57134965e-01  4.57134965e-01  3.28085844e-09  3.24676187e-09  3.27085561e-09  1.56549031e-07  1.92202645e-08  8.00000000e-02 
 9.00000000e-02  4.57134971e-01  3.25094374e-09  4.57134971e-01  4.57134971e-01  3.28085844e-09  3.24676175e-09  3.27085562e-09  1.56549046e-07  1.92199137e-08  9.00000000e-02 
 1.00000000e-01  4.57134951e-01  3.25094374e-09  4.57134951e-01  4.57134951e-01  3.28085844e-09  3.24676187e-09  3.27085572e-09  1.56549027e-07  1.92197005e-08  1.00000000e-01 
 1.10000000e-01  4.57134958e-01  3.25094374e-09  4.57134958e-01  4.57134958e-01  3.28085844e-09  3.24676175e-09  3.27085572e-09  1.56549033e-07  1.92193461e-08  1.10000000e-01 
 1.20000000e-01  4.57134975e-01  3.25094374e-09  4.57134975e-01  4.57134975e-01  3.28085844e-09  3.24676187e-09  3.27085572e-09  1.56549064e-07  1.92192520e-08  1.20000000e-01 
 1.30000000e-01  4.57134961e-01  3.25094386e-09  4.57134961e-01  4.57134961e-01  3.28085844e-09  3.24676186e-09  3.27085572e-09  1.56549046e-07  1.92189651e-08  1.30000000e-01 
 1.40000000e-01  4.57134960e-01  3.25094374e-09  4.57134960e-01  4.57134960e-01  3.28085844e-09  3.24676175e-09  3.27085572e-09  1.56549041e-07  1.92188301e-08  1.40000000e-01 
 1.50000000e-01  4.57134990e-01  3.25094374e-09  4.57134990e-01  4.57134990e-01  3.28085845e-09  3.24676187e-09  3.27085572e-09  1.56549081e-07  1.92186338e-08  1.50000000e-01 
 1.60000000e-01  4.57134941e-01  3.25094386e-09  4.57134941e-01  4.57134941e-01  3.28085856e-09  3.24676186e-09  3.27085572e-09  1.56549014e-07  1.92183141e-08  1.60000000e-01 
 1.70000000e-01  4.57134965e-01  3.25094386e-09  4.57134965e-01  4.57134965e-01  3.28085844e-09  3.24676175e-09  3.27085572e-09  1.56549045e-07  1.92182092e-08  1.70000000e-01 
 1.80000000e-01  4.57134976e-01  3.25094374e-09  4.57134976e-01  4.57134976e-01  3.28085845e-09  3.24676187e-09  3.27085572e-09  1.56549056e-07  1.92179748e-08  1.80000000e-01 
 1.90000000e-01  4.57134968e-01  3.25094386e-09  4.57134968e-01  4.57134968e-01  3.28085844e-09  3.24676186e-09  3.27085572e-09  1.56549038e-07  1.92178451e-08  1.90000000e-01 
 2.00000000e-01  4.57134969e-01  3.25094386e-09  4.57134969e-01  4.57134969e-01  3.28085844e-09  3.24676186e-09  3.27085572e-09  1.56549045e-07  1.92177971e-08  2.00000000e-01 
 2.10000000e-01  4.57134953e-01  3.25094374e-09  4.57134953e-01  4.57134953e-01  3.28085844e-09  3.24676186e-09  3.27085572e-09  1.56549020e-07  1.92176248e-08  2.10000000e-01 
 2.20000000e-01  4.57134960e-01  3.25094386e-09  4.57134961e-01  4.57134960e-01  3.28085844e-09  3.24676175e-09  3.27085572e-09  1.56549041e-07  1.92174916e-08  2.20000000e-01 
 2.30000000e-01  4.57134968e-01  3.25094374e-09  4.57134968e-01  4.57134968e-01  3.28085844e-09  3.24676176e-09  3.27085572e-09  1.56549042e-07  1.92173335e-08  2.30000000e-01 
 2.40000000e-01  4.57134956e-01  3.25094374e-09  4.57134956e-01  4.57134956e-01  3.28085844e-09  3.24676175e-09  3.27085572e-09  1.56549025e-07  1.92171647e-08  2.40000000e-01 
 2.50000000e-01  4.57134955e-01  3.25094386e-09  4.57134955e-01  4.57134955e-01  3.28085844e-09  3.24676175e-09  3.27085572e-09  1.56549033e-07  1.92170742e-08  2.50000000e-01 
 2.60000000e-01  4.57134977e-01  3.25094386e-09  4.57134977e-01  4.57134977e-01  3.28085845e-09  3.24676187e-09  3.27085572e-09  1.56549053e-07  1.92170244e-08  2.60000000e-01 
 2.70000000e-01  4.57134956e-01  3.25094374e-09  4.57134956e-01  4.57134956e-01  3.28085844e-09  3.24676175e-09  3.27085572e-09  1.56549033e-07  1.92168255e-08  2.70000000e-01 
 2.80000000e-01  4.57134951e-01  3.25094386e-09  4.57134951e-01  4.57134951e-01  3.28085844e-09  3.24676176e-09  3.27085572e-09  1.56549022e-07  1.92166816e-08  2.80000000e-01 
 2.90000000e-01  4.57134952e-01  3.25094386e-09  4.57134952e-01  4.57134952e-01  3.28085844e-09  3.24676175e-09  3.27085572e-09  1.56549035e-07  1.92165786e-08  2.90000000e-01 
 3.00000000e-01  4.57134949e-01  3.25094386e-09  4.57134949e-01  4.57134949e-01  3.28085844e-09  3.24676186e-09  3.27085572e-09  1.56549025e-07  1.92166105e-08  3.00000000e-01 
 3.10000000e-01  4.57134938e-01  3.25094386e-09  4.57134938e-01  4.57134938e-01  3.28085844e-09  3.24676186e-09  3.27085572e-09  1.56549007e-07  1.92163760e-08  3.10000000e-01 
 3.20000000e-01  4.57134947e-01  3.25094374e-09  4.57134947e-01  4.57134947e-01  3.28085844e-09  3.24676175e-09  3.27085572e-09  1.56549014e-07  1.92163085e-08  3.20000000e-01 
 3.30000000e-01  4.57134963e-01  3.25094386e-09  4.57134963e-01  4.57134963e-01  3.28085844e-09  3.24676187e-09  3.27085572e-09  1.56549042e-07  1.92162801e-08  3.30000000e-01 
 3.40000000e-01  4.57134981e-01  3.25094374e-09  4.57134981e-01  4.57134981e-01  3.28085845e-09  3.24676186e-09  3.27085572e-09  1.56549065e-07  1.92160385e-08  3.40000000e-01 
 3.50000000e-01  4.57134954e-01  3.25094386e-09  4.57134954e-01  4.57134954e-01  3.28085844e-09  3.24676186e-09  3.27085572e-09  1.56549021e-07  1.92160954e-08  3.50000000e-01 
 3.60000000e-01  4.57134954e-01  3.25094374e-09  4.57134954e-01  4.57134954e-01  3.28085844e-09  3.24676175e-09  3.27085572e-09  1.56549029e-07  1.92160954e-08  3.60000000e-01 
 3.70000000e-01  4.57134957e-01  3.25094386e-09  4.57134957e-01  4.57134957e-01  3.28085844e-09  3.24676187e-09  3.27085572e-09  1.56549028e-07  1.92159888e-08  3.70000000e-01 
 3.80000000e-01  4.57134965e-01  3.25094386e-09  4.57134965e-01  4.57134965e-01  3.28085844e-09  3.24676175e-09  3.27085572e-09  1.56549031e-07  1.92157792e-08  3.80000000e-01 
 3.90000000e-01  4.57134959e-01  3.25094374e-09  4.57134959e-01  4.57134959e-01  3.28085844e-09  3.24676187e-09  3.27085572e-09  1.56549035e-07  1.92157401e-08  3.90000000e-01 
 4.00000000e-01  4.57134966e-01  3.25094386e-09  4.57134966e-01  4.57134966e-01  3.28085844e-09  3.24676186e-09  3.27085572e-09  1.56549047e-07  1.92156904e-08  4.00000000e-01 
 4.10000000e-01  4.57134954e-01  3.25094386e-09  4.57134954e-01  4.57134954e-01  3.28085844e-09  3.24676186e-09  3.27085572e-09  1.56549034e-07  1.92155731e-08  4.10000000e-01 
 4.20000000e-01  4.57134953e-01  3.25094386e-09  4.57134953e-01  4.57134953e-01  3.28085844e-09  3.24676175e-09  3.27085572e-09  1.56549037e-07  1.92155731e-08  4.20000000e-01 
 4.30000000e-01  4.57134948e-01  3.25094374e-09  4.57134948e-01  4.57134948e-01  3.28085844e-09  3.24676187e-09  3.27085572e-09  1.56549021e-07  1.92153635e-08  4.30000000e-01 
 4.40000000e-01  4.57134944e-01  3.25094374e-09  4.57134944e-01  4.57134944e-01  3.28085844e-09  3.24676186e-09  3.27085572e-09  1.56549016e-07  1.92155021e-08  4.40000000e-01 
 4.50000000e-01  4.57134960e-01  3.25094386e-09  4.57134960e-01  4.57134960e-01  3.28085844e-09  3.24676186e-09  3.27085572e-09  1.56549047e-07  1.92152676e-08  4.50000000e-01 
 4.60000000e-01  4.57134962e-01  3.25094374e-09  4.57134962e-01  4.57134962e-01  3.28085844e-09  3.24676175e-09  3.27085572e-09  1.56549044e-07  1.92152463e-08  4.60000000e-01 
 4.70000000e-01  4.57134942e-01  3.25094374e-09  4.57134942e-01  4.57134942e-01  3.28085844e-09  3.24676176e-09  3.27085572e-09  1.56548999e-07  1.92151965e-08  4.70000000e-01 
 4.80000000e-01  4.57134924e-01  3.25094374e-09  4.57134924e-01  4.57134924e-01  3.28085856e-09  3.24676186e-09  3.27085572e-09  1.56548982e-07  1.92151965e-08  4.80000000e-01 
 4.90000000e-01  4.57134954e-01  3.25094374e-09  4.57134954e-01  4.57134954e-01  3.28085844e-09  3.24676186e-09  3.27085572e-09  1.56549036e-07  1.92150722e-08  4.90000000e-01 
 5.00000000e-01  4.57134959e-01  3.25094374e-09  4.57134959e-01  4.57134959e-01  3.28085845e-09  3.24676175e-09  3.27085572e-09  1.56549037e-07  1.92150651e-08  5.00000000e-01 
 5.10000000e-01  4.57134984e-01  3.25094386e-09  4.57134984e-01  4.57134984e-01  3.28085856e-09  3.24676187e-09  3.27085572e-09  1.56549069e-07  1.92149443e-08  5.10000000e-01 
 5.20000000e-01  4.57134962e-01  3.25094374e-09  4.57134962e-01  4.57134962e-01  3.28085855e-09  3.24676175e-09  3.27085572e-09  1.56549036e-07  1.92149088e-08  5.20000000e-01 
 5.30000000e-01  4.57134966e-01  3.25094374e-09  4.57134966e-01  4.57134966e-01  3.28085845e-09  3.24676187e-09  3.27085572e-09  1.56549035e-07  1.92148484e-08  5.30000000e-01 
 5.40000000e-01  4.57134967e-01  3.25094386e-09  4.57134967e-01  4.57134967e-01  3.28085844e-09  3.24676175e-09  3.27085572e-09  1.56549037e-07  1.92147951e-08  5.40000000e-01 
 5.50000000e-01  4.57134961e-01  3.25094374e-09  4.57134961e-01  4.57134961e-01  3.28085844e-09  3.24676176e-09  3.27085572e-09  1.56549031e-07  1.92146956e-08  5.50000000e-01 
 5.60000000e-01  4.57134969e-01  3.25094386e-09  4.57134969e-01  4.57134969e-01  3.28085844e-09  3.24676175e-09  3.27085572e-09  1.56549052e-07  1.92146956e-08  5.60000000e-01 
 5.70000000e-01  4.57134939e-01  3.25094386e-09  4.57134939e-01  4.57134939e-01  3.28085844e-09  3.24676186e-09  3.27085572e-09  1.56549010e-07  1.92146103e-08  5.70000000e-01 
 5.80000000e-01  4.57134955e-01  3.25094386e-09  4.57134955e-01  4.57134955e-01  3.28085856e-09  3.24676186e-09  3.27085572e-09  1.56549028e-07  1.92145748e-08  5.80000000e-01 
 5.90000000e-01  4.57134974e-01  3.25094386e-09  4.57134974e-01  4.57134974e-01  3.28085844e-09  3.24676175e-09  3.27085572e-09  1.56549059e-07  1.92145038e-08  5.90000000e-01 
 6.00000000e-01  4.57134975e-01  3.25094386e-09  4.57134975e-01  4.57134975e-01  3.28085845e-09  3.24676176e-09  3.27085572e-09  1.56549062e-07  1.92145393e-08  6.00000000e-01 
 6.10000000e-01  4.57134976e-01  3.25094374e-09  4.57134976e-01  4.57134976e-01  3.28085845e-09  3.24676187e-09  3.27085572e-09  1.56549060e-07  1.92144398e-08  6.10000000e-01 
 6.20000000e-01  4.57134956e-01  3.25094386e-09  4.57134956e-01  4.57134956e-01  3.28085844e-09  3.24676175e-09  3.27085572e-09  1.56549043e-07  1.92144398e-08  6.20000000e-01 
 6.30000000e-01  4.57134953e-01  3.25094386e-09  4.57134953e-01  4.57134953e-01  3.28085844e-09  3.24676187e-09  3.27085572e-09  1.56549020e-07  1.92142977e-08  6.30000000e-01 
 6.40000000e-01  4.57134950e-01  3.25094374e-09  4.57134950e-01  4.57134950e-01  3.28085844e-09  3.24676186e-09  3.27085572e-09  1.56549020e-07  1.92142764e-08  6.40000000e-01 
 6.50000000e-01  4.57134965e-01  3.25094386e-09  4.57134965e-01  4.57134965e-01  3.28085844e-09  3.24676186e-09  3.27085572e-09  1.56549038e-07  1.92141769e-08  6.50000000e-01 
 6.60000000e-01  4.57134971e-01  3.25094374e-09  4.57134971e-01  4.57134971e-01  3.28085856e-09  3.24676175e-09  3.27085572e-09  1.56549048e-07  1.92140917e-08  6.60000000e-01 
 6.70000000e-01  4.57134986e-01  3.25094374e-09  4.57134986e-01  4.57134986e-01  3.28085844e-09  3.24676176e-09  3.27085572e-09  1.56549073e-07  1.92141485e-08  6.70000000e-01 
 6.80000000e-01  4.57134959e-01  3.25094374e-09  4.57134959e-01  4.57134959e-01  3.28085845e-09  3.24676175e-09  3.27085572e-09  1.56549022e-07  1.92140206e-08  6.80000000e-01 
 6.90000000e-01  4.57134956e-01  3.25094386e-09  4.57134956e-01  4.57134956e-01  3.28085844e-09  3.24676186e-09  3.27085572e-09  1.56549024e-07  1.92141201e-08  6.90000000e-01 
 7.00000000e-01  4.57134951e-01  3.25094386e-09  4.57134951e-01  4.57134951e-01  3.28085844e-09  3.24676186e-09  3.27085572e-09  1.56549016e-07  1.92139851e-08  7.00000000e-01 
 7.10000000e-01  4.57134945e-01  3.25094386e-09  4.57134945e-01  4.57134945e-01  3.28085844e-09  3.24676175e-09  3.27085572e-09  1.56549011e-07  1.92139140e-08  7.10000000e-01 
 7.20000000e-01  4.57134956e-01  3.25094386e-09  4.57134956e-01  4.57134956e-01  3.28085844e-09  3.24676187e-09  3.27085572e-09  1.56549024e-07  1.92138643e-08  7.20000000e-01 
 7.30000000e-01  4.57134948e-01  3.25094374e-09  4.57134948e-01  4.57134948e-01  3.28085844e-09  3.24676186e-09  3.27085572e-09  1.56549025e-07  1.92136937e-08  7.30000000e-01 
 7.40000000e-01  4.57134954e-01  3.25094386e-09  4.57134954e-01  4.57134954e-01  3.28085844e-09  3.24676175e-09  3.27085572e-09  1.56549031e-07  1.92137009e-08  7.40000000e-01 
 7.50000000e-01  4.57134971e-01  3.25094374e-09  4.57134971e-01  4.57134971e-01  3.28085844e-09  3.24676176e-09  3.27085572e-09  1.56549057e-07  1.92137790e-08  7.50000000e-01 
 7.60000000e-01  4.57134956e-01  3.25094386e-09  4.57134956e-01  4.57134956e-01  3.28085844e-09  3.24676186e-09  3.27085572e-09  1.56549018e-07  1.92136937e-08  7.60000000e-01 
 7.70000000e-01  4.57134955e-01  3.25094374e-09  4.57134955e-01  4.57134955e-01  3.28085844e-09  3.24676175e-09  3.27085572e-09  1.56549037e-07  1.92136014e-08  7.70000000e-01 
 7.80000000e-01  4.57134964e-01  3.25094386e-09  4.57134964e-01  4.57134964e-01  3.28085844e-09  3.24676187e-09  3.27085572e-09  1.56549054e-07  1.92135943e-08  7.80000000e-01 
 7.90000000e-01  4.57134959e-01  3.25094374e-09  4.57134959e-01  4.57134959e-01  3.28085844e-09  3.24676186e-09  3.27085572e-09  1.56549031e-07  1.92136156e-08  7.90000000e-01 
 8.00000000e-01  4.57134953e-01  3.25094386e-09  4.57134953e-01  4.57134953e-01  3.28085844e-09  3.24676186e-09  3.27085572e-09  1.56549024e-07  1.92135516e-08  8.00000000e-01 
 8.10000000e-01  4.57134952e-01  3.25094374e-09  4.57134952e-01  4.57134952e-01  3.28085844e-09  3.24676186e-09  3.27085572e-09  1.56549011e-07  1.92134522e-08  8.10000000e-01 
 8.20000000e-01  4.57134944e-01  3.25094374e-09  4.57134944e-01  4.57134944e-01  3.28085844e-09  3.24676186e-09  3.27085572e-09  1.56549024e-07  1.92133740e-08  8.20000000e-01 
 8.30000000e-01  4.57134942e-01  3.25094374e-09  4.57134942e-01  4.57134942e-01  3.28085844e-09  3.24676186e-09  3.27085572e-09  1.56549009e-07  1.92134095e-08  8.30000000e-01 
 8.40000000e-01  4.57134979e-01  3.25094374e-09  4.57134979e-01  4.57134979e-01  3.28085845e-09  3.24676186e-09  3.27085572e-09  1.56549065e-07  1.92131466e-08  8.40000000e-01 
 8.50000000e-01  4.57134954e-01  3.25094374e-09  4.57134954e-01  4.57134954e-01  3.28085844e-09  3.24676175e-09  3.27085572e-09  1.56549024e-07  1.92132319e-08  8.50000000e-01 
 8.60000000e-01  4.57134947e-01  3.25094374e-09  4.57134947e-01  4.57134947e-01  3.28085856e-09  3.24676187e-09  3.27085572e-09  1.56549020e-07  1.92132035e-08  8.60000000e-01 
 8.70000000e-01  4.57134945e-01  3.25094374e-09  4.57134945e-01  4.57134945e-01  3.28085844e-09  3.24676175e-09  3.27085572e-09  1.56549016e-07  1.92130685e-08  8.70000000e-01 
 8.80000000e-01  4.57134944e-01  3.25094386e-09  4.57134944e-01  4.57134944e-01  3.28085845e-09  3.24676187e-09  3.27085572e-09  1.56549010e-07  1.92129619e-08  8.80000000e-01 
 8.90000000e-01  4.57134942e-01  3.25094386e-09  4.57134942e-01  4.57134942e-01  3.28085844e-09  3.24676175e-09  3.27085572e-09  1.56549004e-07  1.92129832e-08  8.90000000e-01 
 9.00000000e-01  4.57134981e-01  3.25094386e-09  4.57134981e-01  4.57134981e-01  3.28085856e-09  3.24676176e-09  3.27085572e-09  1.56549075e-07  1.92130045e-08  9.00000000e-01 
 9.10000000e-01  4.57134950e-01  3.25094386e-09  4.57134950e-01  4.57134950e-01  3.28085844e-09  3.24676186e-09  3.27085572e-09  1.56549013e-07  1.92128695e-08  9.10000000e-01 
 9.20000000e-01  4.57134942e-01  3.25094374e-09  4.57134942e-01  4.57134942e-01  3.28085845e-09  3.24676175e-09  3.27085572e-09  1.56549013e-07  1.92127487e-08  9.20000000e-01 
 9.30000000e-01  4.57134974e-01  3.25094374e-09  4.57134974e-01  4.57134974e-01  3.28085844e-09  3.24676176e-09  3.27085572e-09  1.56549069e-07  1.92127914e-08  9.30000000e-01 
 9.40000000e-01  4.57134966e-01  3.25094386e-09  4.57134966e-01  4.57134966e-01  3.28085856e-09  3.24676186e-09  3.27085572e-09  1.56549029e-07  1.92127629e-08  9.40000000e-01 
 9.50000000e-01  4.57134952e-01  3.25094374e-09  4.57134952e-01  4.57134952e-01  3.28085844e-09  3.24676186e-09  3.27085572e-09  1.56548999e-07  1.92127274e-08  9.50000000e-01 
 9.60000000e-01  4.57134935e-01  3.25094385e-09  4.57134935e-01  4.57134935e-01  3.28085845e-09  3.24676186e-09  3.27085572e-09  1.56549009e-07  1.92127061e-08  9.60000000e-01 
 9.70000000e-01  4.57134960e-01  3.25094386e-09  4.57134960e-01  4.57134960e-01  3.28085844e-09  3.24676186e-09  3.27085572e-09  1.56549039e-07  1.92125711e-08  9.70000000e-01 
 9.80000000e-01  4.57134966e-01  3.25094386e-09  4.57134966e-01  4.57134966e-01  3.28085844e-09  3.24676186e-09  3.27085572e-09  1.56549048e-07  1.92126208e-08  9.80000000e-01 
 9.90000000e-01  4.57134939e-01  3.25094386e-09  4.57134939e-01  4.57134939e-01  3.28085856e-09  3.24676186e-09  3.27085572e-09  1.56549006e-07  1.92124432e-08  9.90000000e-01 
 1.00000000e+00  4.57134940e-01  3.25094386e-09  4.57134940e-01  4.57134940e-01  3.28085844e-09  3.24676175e-09  3.27085561e-09  1.56549004e-07  1.92122940e-08  1.00000000e+00 
 1.01000000e+00  4.57134946e-01  3.25094374e-09  4.57134946e-01  4.57134946e-01  3.28085845e-09  3.24676187e-09  3.27085573e-09  1.56549019e-07  1.92123863e-08  1.01000000e+00 
 1.02000000e+00  4.57134967e-01  3.25094374e-09  4.57134967e-01  4.57134967e-01  3.28085844e-09  3.24676186e-09  3.27085572e-09  1.56549033e-07  1.92123224e-08  1.02000000e+00 
 1.03000000e+00  4.57134984e-01  3.25094374e-09  4.57134984e-01  4.57134984e-01  3.28085845e-09  3.24676175e-09  3.27085572e-09  1.56549055e-07  1.92122798e-08  1.03000000e+00 
 1.04000000e+00  4.57134950e-01  3.25094386e-09  4.57134950e-01  4.57134950e-01  3.28085844e-09  3.24676176e-09  3.27085572e-09  1.56549028e-07  1.92122158e-08  1.04000000e+00 
 1.05000000e+00  4.57134923e-01  3.25094385e-09  4.57134923e-01  4.57134923e-01  3.28085844e-09  3.24676175e-09  3.27085572e-09  1.56548978e-07  1.92121092e-08  1.05000000e+00 
 1.06000000e+00  4.57134950e-01  3.25094386e-09  4.57134950e-01  4.57134950e-01  3.28085844e-09  3.24676175e-09  3.27085572e-09  1.56549018e-07  1.92121092e-08  1.06000000e+00 
 1.07000000e+00  4.57134967e-01  3.25094374e-09  4.57134967e-01  4.57134967e-01  3.28085844e-09  3.24676175e-09  3.27085572e-09  1.56549038e-07  1.92120240e-08  1.07000000e+00 
 1.08000000e+00  4.57134967e-01  3.25094374e-09  4.57134967e-01  4.57134967e-01  3.28085844e-09  3.24676186e-09  3.27085572e-09  1.56549042e-07  1.92119387e-08  1.08000000e+00 
 1.09000000e+00  4.57134970e-01  3.25094386e-09  4.57134970e-01  4.57134970e-01  3.28085844e-09  3.24676175e-09  3.27085572e-09  1.56549034e-07  1.92120382e-08  1.09000000e+00 
 1.10000000e+00  4.57134953e-01  3.25094386e-09  4.57134953e-01  4.57134953e-01  3.28085844e-09  3.24676187e-09  3.27085572e-09  1.56549026e-07  1.92119103e-08  1.10000000e+00 
