 v-sweep         v(b0)           v(b1)           v(b2)           v(b3)           v(b4)           v(b5)           v(b6)           i(vbias)        i(viout)        v(vout)        
 0.00000000e+00  3.24038853e-09  4.58737750e-01  3.26332994e-09  4.58737750e-01  4.58737750e-01  4.58737750e-01  3.26570387e-09  1.58340420e-07  8.27738150e-08  0.00000000e+00 
 1.00000000e-02  3.24038851e-09  4.58737737e-01  3.26332992e-09  4.58737737e-01  4.58737737e-01  4.58737737e-01  3.26570386e-09  1.58340411e-07  8.27732828e-08  1.00000000e-02 
 2.00000000e-02  3.24038863e-09  4.58737753e-01  3.26332992e-09  4.58737753e-01  4.58737753e-01  4.58737752e-01  3.26570375e-09  1.58340438e-07  8.27729845e-08  2.00000000e-02 
 3.00000000e-02  3.24038863e-09  4.58737755e-01  3.26332992e-09  4.58737755e-01  4.58737755e-01  4.58737754e-01  3.26570387e-09  1.58340447e-07  8.27725306e-08  3.00000000e-02 
 4.00000000e-02  3.24038851e-09  4.58737732e-01  3.26332992e-09  4.58737732e-01  4.58737732e-01  4.58737732e-01  3.26570386e-09  1.58340400e-07  8.27722255e-08  4.00000000e-02 
 5.00000000e-02  3.24038863e-09  4.58737721e-01  3.26333004e-09  4.58737721e-01  4.58737721e-01  4.58737721e-01  3.26570375e-09  1.58340399e-07  8.27718041e-08  5.00000000e-02 
 6.00000000e-02  3.24038863e-09  4.58737730e-01  3.26332992e-09  4.58737730e-01  4.58737730e-01  4.58737730e-01  3.26570375e-09  1.58340401e-07  8.27714208e-08  6.00000000e-02 
 7.00000000e-02  3.24038851e-09  4.58737730e-01  3.26332992e-09  4.58737730e-01  4.58737730e-01  4.58737730e-01  3.26570386e-09  1.58340385e-07  8.27711748e-08  7.00000000e-02 
 8.00000000e-02  3.24038863e-09  4.58737735e-01  3.26332992e-09  4.58737735e-01  4.58737735e-01  4.58737735e-01  3.26570374e-09  1.58340404e-07  8.27709066e-08  8.00000000e-02 
 9.00000000e-02  3.24038863e-09  4.58737765e-01  3.26333004e-09  4.58737765e-01  4.58737765e-01  4.58737765e-01  3.26570387e-09  1.58340453e-07  8.27707529e-08  9.00000000e-02 
 1.00000000e-01  3.24038851e-09  4.58737734e-01  3.26332992e-09  4.58737734e-01  4.58737734e-01  4.58737734e-01  3.26570374e-09  1.58340409e-07  8.27703150e-08  1.00000000e-01 
 1.10000000e-01  3.24038863e-09  4.58737741e-01  3.26332992e-09  4.58737741e-01  4.58737741e-01  4.58737741e-01  3.26570375e-09  1.58340410e-07  8.27701587e-08  1.10000000e-01 
 1.20000000e-01  3.24038851e-09  4.58737737e-01  3.26332992e-09  4.58737737e-01  4.58737737e-01  4.58737737e-01  3.26570386e-09  1.58340418e-07  8.27699678e-08  1.20000000e-01 
 1.30000000e-01  3.24038851e-09  4.58737736e-01  3.26333004e-09  4.58737736e-01  4.58737736e-01  4.58737736e-01  3.26570386e-09  1.58340394e-07  8.27695814e-08  1.30000000e-01 
 1.40000000e-01  3.24038851e-09  4.58737744e-01  3.26332992e-09  4.58737744e-01  4.58737744e-01  4.58737744e-01  3.26570386e-09  1.58340427e-07  8.27694393e-08  1.40000000e-01 
 1.50000000e-01  3.24038863e-09  4.58737744e-01  3.26332992e-09  4.58737744e-01  4.58737744e-01  4.58737744e-01  3.26570386e-09  1.58340413e-07  8.27692066e-08  1.50000000e-01 
 1.60000000e-01  3.24038851e-09  4.58737729e-01  3.26333004e-09  4.58737729e-01  4.58737729e-01  4.58737729e-01  3.26570375e-09  1.58340398e-07  8.27689259e-08  1.60000000e-01 
 1.70000000e-01  3.24038863e-09  4.58737739e-01  3.26332992e-09  4.58737739e-01  4.58737739e-01  4.58737739e-01  3.26570387e-09  1.58340411e-07  8.27688265e-08  1.70000000e-01 
 1.80000000e-01  3.24038852e-09  4.58737765e-01  3.26332992e-09  4.58737765e-01  4.58737765e-01  4.58737765e-01  3.26570374e-09  1.58340455e-07  8.27687128e-08  1.80000000e-01 
 1.90000000e-01  3.24038851e-09  4.58737736e-01  3.26332992e-09  4.58737736e-01  4.58737736e-01  4.58737736e-01  3.26570375e-09  1.58340414e-07  8.27684019e-08  1.90000000e-01 
 2.00000000e-01  3.24038851e-09  4.58737739e-01  3.26332992e-09  4.58737739e-01  4.58737739e-01  4.58737739e-01  3.26570386e-09  1.58340417e-07  8.27682420e-08  2.00000000e-01 
 2.10000000e-01  3.24038863e-09  4.58737732e-01  3.26332992e-09  4.58737732e-01  4.58737732e-01  4.58737732e-01  3.26570374e-09  1.58340405e-07  8.27681834e-08  2.10000000e-01 
 2.20000000e-01  3.24038863e-09  4.58737723e-01  3.26332992e-09  4.58737723e-01  4.58737723e-01  4.58737723e-01  3.26570375e-09  1.58340396e-07  8.27679845e-08  2.20000000e-01 
 2.30000000e-01  3.24038863e-09  4.58737725e-01  3.26332992e-09  4.58737725e-01  4.58737725e-01  4.58737725e-01  3.26570386e-09  1.58340394e-07  8.27678441e-08  2.30000000e-01 
 2.40000000e-01  3.24038863e-09  4.58737723e-01  3.26332992e-09  4.58737723e-01  4.58737723e-01  4.58737723e-01  3.26570386e-09  1.58340393e-07  8.27675386e-08  2.40000000e-01 
 2.50000000e-01  3.24038863e-09  4.58737719e-01  3.26332992e-09  4.58737719e-01  4.58737719e-01  4.58737719e-01  3.26570386e-09  1.58340379e-07  8.27674960e-08  2.50000000e-01 
 2.60000000e-01  3.24038851e-09  4.58737751e-01  3.26333004e-09  4.58737751e-01  4.58737751e-01  4.58737751e-01  3.26570386e-09  1.58340446e-07  8.27674977e-08  2.60000000e-01 
 2.70000000e-01  3.24038863e-09  4.58737715e-01  3.26332992e-09  4.58737715e-01  4.58737715e-01  4.58737715e-01  3.26570386e-09  1.58340376e-07  8.27672100e-08  2.70000000e-01 
 2.80000000e-01  3.24038863e-09  4.58737749e-01  3.26332992e-09  4.58737749e-01  4.58737749e-01  4.58737749e-01  3.26570386e-09  1.58340429e-07  8.27670608e-08  2.80000000e-01 
 2.90000000e-01  3.24038863e-09  4.58737729e-01  3.26332992e-09  4.58737729e-01  4.58737729e-01  4.58737729e-01  3.26570375e-09  1.58340408e-07  8.27670910e-08  2.90000000e-01 
 3.00000000e-01  3.24038863e-09  4.58737750e-01  3.26332992e-09  4.58737750e-01  4.58737750e-01  4.58737750e-01  3.26570387e-09  1.58340438e-07  8.27669524e-08  3.00000000e-01 
 3.10000000e-01  3.24038863e-09  4.58737745e-01  3.26332992e-09  4.58737745e-01  4.58737745e-01  4.58737745e-01  3.26570386e-09  1.58340427e-07  8.27668103e-08  3.10000000e-01 
 3.20000000e-01  3.24038863e-09  4.58737720e-01  3.26332992e-09  4.58737720e-01  4.58737720e-01  4.58737720e-01  3.26570386e-09  1.58340376e-07  8.27666966e-08  3.20000000e-01 
 3.30000000e-01  3.24038863e-09  4.58737723e-01  3.26332992e-09  4.58737723e-01  4.58737723e-01  4.58737723e-01  3.26570386e-09  1.58340371e-07  8.27666398e-08  3.30000000e-01 
 3.40000000e-01  3.24038863e-09  4.58737754e-01  3.26332992e-09  4.58737754e-01  4.58737754e-01  4.58737754e-01  3.26570375e-09  1.58340440e-07  8.27665865e-08  3.40000000e-01 
 3.50000000e-01  3.24038863e-09  4.58737722e-01  3.26332992e-09  4.58737722e-01  4.58737722e-01  4.58737722e-01  3.26570387e-09  1.58340383e-07  8.27663520e-08  3.50000000e-01 
 3.60000000e-01  3.24038851e-09  4.58737731e-01  3.26332992e-09  4.58737731e-01  4.58737731e-01  4.58737731e-01  3.26570386e-09  1.58340402e-07  8.27662987e-08  3.60000000e-01 
 3.70000000e-01  3.24038863e-09  4.58737745e-01  3.26332992e-09  4.58737745e-01  4.58737745e-01  4.58737744e-01  3.26570386e-09  1.58340430e-07  8.27662667e-08  3.70000000e-01 
 3.80000000e-01  3.24038863e-09  4.58737747e-01  3.26332992e-09  4.58737747e-01  4.58737747e-01  4.58737747e-01  3.26570375e-09  1.58340422e-07  8.27662134e-08  3.80000000e-01 
 3.90000000e-01  3.24038863e-09  4.58737735e-01  3.26332992e-09  4.58737735e-01  4.58737735e-01  4.58737735e-01  3.26570375e-09  1.58340409e-07  8.27660394e-08  3.90000000e-01 
 4.00000000e-01  3.24038851e-09  4.58737722e-01  3.26332992e-09  4.58737722e-01  4.58737722e-01  4.58737722e-01  3.26570386e-09  1.58340377e-07  8.27658759e-08  4.00000000e-01 
 4.10000000e-01  3.24038863e-09  4.58737711e-01  3.26333004e-09  4.58737711e-01  4.58737711e-01  4.58737711e-01  3.26570385e-09  1.58340376e-07  8.27657765e-08  4.10000000e-01 
 4.20000000e-01  3.24038863e-09  4.58737752e-01  3.26332992e-09  4.58737752e-01  4.58737752e-01  4.58737752e-01  3.26570375e-09  1.58340435e-07  8.27657374e-08  4.20000000e-01 
 4.30000000e-01  3.24038863e-09  4.58737718e-01  3.26332992e-09  4.58737718e-01  4.58737718e-01  4.58737718e-01  3.26570387e-09  1.58340373e-07  8.27655349e-08  4.30000000e-01 
 4.40000000e-01  3.24038863e-09  4.58737728e-01  3.26332992e-09  4.58737728e-01  4.58737728e-01  4.58737728e-01  3.26570386e-09  1.58340403e-07  8.27656415e-08  4.40000000e-01 
 4.50000000e-01  3.24038851e-09  4.58737733e-01  3.26332992e-09  4.58737733e-01  4.58737733e-01  4.58737733e-01  3.26570375e-09  1.58340409e-07  8.27654070e-08  4.50000000e-01 
 4.60000000e-01  3.24038863e-09  4.58737713e-01  3.26332992e-09  4.58737713e-01  4.58737713e-01  4.58737713e-01  3.26570386e-09  1.58340376e-07  8.27654461e-08  4.60000000e-01 
 4.70000000e-01  3.24038863e-09  4.58737730e-01  3.26332992e-09  4.58737730e-01  4.58737730e-01  4.58737730e-01  3.26570386e-09  1.58340403e-07  8.27654070e-08  4.70000000e-01 
 4.80000000e-01  3.24038863e-09  4.58737742e-01  3.26332992e-09  4.58737742e-01  4.58737742e-01  4.58737742e-01  3.26570386e-09  1.58340423e-07  8.27653857e-08  4.80000000e-01 
 4.90000000e-01  3.24038851e-09  4.58737737e-01  3.26332992e-09  4.58737737e-01  4.58737737e-01  4.58737737e-01  3.26570386e-09  1.58340411e-07  8.27651760e-08  4.90000000e-01 
 5.00000000e-01  3.24038851e-09  4.58737702e-01  3.26332992e-09  4.58737702e-01  4.58737702e-01  4.58737702e-01  3.26570386e-09  1.58340360e-07  8.27650588e-08  5.00000000e-01 
 5.10000000e-01  3.24038863e-09  4.58737754e-01  3.26332992e-09  4.58737754e-01  4.58737754e-01  4.58737754e-01  3.26570375e-09  1.58340435e-07  8.27650979e-08  5.10000000e-01 
 5.20000000e-01  3.24038851e-09  4.58737729e-01  3.26332992e-09  4.58737729e-01  4.58737729e-01  4.58737729e-01  3.26570375e-09  1.58340403e-07  8.27649771e-08  5.20000000e-01 
 5.30000000e-01  3.24038863e-09  4.58737745e-01  3.26332992e-09  4.58737745e-01  4.58737745e-01  4.58737745e-01  3.26570386e-09  1.58340428e-07  8.27649167e-08  5.30000000e-01 
 5.40000000e-01  3.24038863e-09  4.58737730e-01  3.26332992e-09  4.58737730e-01  4.58737730e-01  4.58737730e-01  3.26570386e-09  1.58340406e-07  8.27648421e-08  5.40000000e-01 
 5.50000000e-01  3.24038851e-09  4.58737730e-01  3.26332992e-09  4.58737730e-01  4.58737730e-01  4.58737730e-01  3.26570386e-09  1.58340400e-07  8.27647035e-08  5.50000000e-01 
 5.60000000e-01  3.24038863e-09  4.58737759e-01  3.26333004e-09  4.58737759e-01  4.58737759e-01  4.58737759e-01  3.26570375e-09  1.58340457e-07  8.27647675e-08  5.60000000e-01 
 5.70000000e-01  3.24038851e-09  4.58737745e-01  3.26332992e-09  4.58737745e-01  4.58737745e-01  4.58737745e-01  3.26570387e-09  1.58340422e-07  8.27645827e-08  5.70000000e-01 
 5.80000000e-01  3.24038863e-09  4.58737716e-01  3.26333004e-09  4.58737716e-01  4.58737716e-01  4.58737716e-01  3.26570385e-09  1.58340391e-07  8.27644513e-08  5.80000000e-01 
 5.90000000e-01  3.24038851e-09  4.58737743e-01  3.26333004e-09  4.58737743e-01  4.58737743e-01  4.58737743e-01  3.26570386e-09  1.58340434e-07  8.27645508e-08  5.90000000e-01 
 6.00000000e-01  3.24038851e-09  4.58737764e-01  3.26332992e-09  4.58737764e-01  4.58737764e-01  4.58737764e-01  3.26570386e-09  1.58340453e-07  8.27645081e-08  6.00000000e-01 
 6.10000000e-01  3.24038863e-09  4.58737725e-01  3.26332992e-09  4.58737725e-01  4.58737725e-01  4.58737725e-01  3.26570386e-09  1.58340395e-07  8.27643944e-08  6.10000000e-01 
 6.20000000e-01  3.24038863e-09  4.58737719e-01  3.26332992e-09  4.58737719e-01  4.58737719e-01  4.58737719e-01  3.26570386e-09  1.58340396e-07  8.27642737e-08  6.20000000e-01 
 6.30000000e-01  3.24038863e-09  4.58737736e-01  3.26332992e-09  4.58737736e-01  4.58737736e-01  4.58737736e-01  3.26570386e-09  1.58340423e-07  8.27642737e-08  6.30000000e-01 
 6.40000000e-01  3.24038863e-09  4.58737767e-01  3.26332992e-09  4.58737767e-01  4.58737767e-01  4.58737767e-01  3.26570386e-09  1.58340467e-07  8.27642239e-08  6.40000000e-01 
 6.50000000e-01  3.24038863e-09  4.58737720e-01  3.26333004e-09  4.58737720e-01  4.58737720e-01  4.58737720e-01  3.26570386e-09  1.58340375e-07  8.27641031e-08  6.50000000e-01 
 6.60000000e-01  3.24038851e-09  4.58737756e-01  3.26332992e-09  4.58737756e-01  4.58737756e-01  4.58737756e-01  3.26570375e-09  1.58340448e-07  8.27640250e-08  6.60000000e-01 
 6.70000000e-01  3.24038863e-09  4.58737718e-01  3.26332992e-09  4.58737718e-01  4.58737718e-01  4.58737718e-01  3.26570387e-09  1.58340376e-07  8.27638900e-08  6.70000000e-01 
 6.80000000e-01  3.24038863e-09  4.58737741e-01  3.26332992e-09  4.58737741e-01  4.58737741e-01  4.58737741e-01  3.26570374e-09  1.58340428e-07  8.27638900e-08  6.80000000e-01 
 6.90000000e-01  3.24038863e-09  4.58737753e-01  3.26332992e-09  4.58737753e-01  4.58737753e-01  4.58737753e-01  3.26570387e-09  1.58340431e-07  8.27638829e-08  6.90000000e-01 
 7.00000000e-01  3.24038863e-09  4.58737738e-01  3.26333004e-09  4.58737738e-01  4.58737738e-01  4.58737738e-01  3.26570386e-09  1.58340401e-07  8.27637052e-08  7.00000000e-01 
 7.10000000e-01  3.24038863e-09  4.58737752e-01  3.26332992e-09  4.58737752e-01  4.58737752e-01  4.58737752e-01  3.26570386e-09  1.58340431e-07  8.27637407e-08  7.10000000e-01 
 7.20000000e-01  3.24038863e-09  4.58737731e-01  3.26332992e-09  4.58737731e-01  4.58737731e-01  4.58737731e-01  3.26570386e-09  1.58340401e-07  8.27636555e-08  7.20000000e-01 
 7.30000000e-01  3.24038863e-09  4.58737722e-01  3.26332992e-09  4.58737722e-01  4.58737722e-01  4.58737722e-01  3.26570386e-09  1.58340393e-07  8.27635560e-08  7.30000000e-01 
 7.40000000e-01  3.24038863e-09  4.58737727e-01  3.26332992e-09  4.58737727e-01  4.58737727e-01  4.58737727e-01  3.26570375e-09  1.58340407e-07  8.27635631e-08  7.40000000e-01 
 7.50000000e-01  3.24038851e-09  4.58737754e-01  3.26332992e-09  4.58737754e-01  4.58737754e-01  4.58737754e-01  3.26570387e-09  1.58340439e-07  8.27635418e-08  7.50000000e-01 
 7.60000000e-01  3.24038863e-09  4.58737761e-01  3.26332992e-09  4.58737761e-01  4.58737761e-01  4.58737761e-01  3.26570374e-09  1.58340447e-07  8.27634068e-08  7.60000000e-01 
 7.70000000e-01  3.24038863e-09  4.58737751e-01  3.26332992e-09  4.58737751e-01  4.58737751e-01  4.58737751e-01  3.26570375e-09  1.58340431e-07  8.27633215e-08  7.70000000e-01 
 7.80000000e-01  3.24038863e-09  4.58737736e-01  3.26332992e-09  4.58737736e-01  4.58737736e-01  4.58737736e-01  3.26570386e-09  1.58340412e-07  8.27632505e-08  7.80000000e-01 
 7.90000000e-01  3.24038851e-09  4.58737714e-01  3.26332992e-09  4.58737714e-01  4.58737714e-01  4.58737714e-01  3.26570385e-09  1.58340381e-07  8.27629734e-08  7.90000000e-01 
 8.00000000e-01  3.24038863e-09  4.58737721e-01  3.26332992e-09  4.58737721e-01  4.58737721e-01  4.58737721e-01  3.26570375e-09  1.58340388e-07  8.27629592e-08  8.00000000e-01 
 8.10000000e-01  3.24038863e-09  4.58737741e-01  3.26332992e-09  4.58737741e-01  4.58737741e-01  4.58737741e-01  3.26570387e-09  1.58340415e-07  8.27629592e-08  8.10000000e-01 
 8.20000000e-01  3.24038863e-09  4.58737727e-01  3.26332992e-09  4.58737727e-01  4.58737727e-01  4.58737727e-01  3.26570386e-09  1.58340387e-07  8.27629307e-08  8.20000000e-01 
 8.30000000e-01  3.24038863e-09  4.58737740e-01  3.26333004e-09  4.58737740e-01  4.58737740e-01  4.58737740e-01  3.26570375e-09  1.58340428e-07  8.27628099e-08  8.30000000e-01 
 8.40000000e-01  3.24038863e-09  4.58737764e-01  3.26332992e-09  4.58737764e-01  4.58737764e-01  4.58737764e-01  3.26570387e-09  1.58340452e-07  8.27628952e-08  8.40000000e-01 
 8.50000000e-01  3.24038851e-09  4.58737737e-01  3.26333004e-09  4.58737738e-01  4.58737738e-01  4.58737737e-01  3.26570374e-09  1.58340416e-07  8.27628384e-08  8.50000000e-01 
 8.60000000e-01  3.24038851e-09  4.58737716e-01  3.26332992e-09  4.58737716e-01  4.58737716e-01  4.58737716e-01  3.26570386e-09  1.58340391e-07  8.27624973e-08  8.60000000e-01 
 8.70000000e-01  3.24038863e-09  4.58737735e-01  3.26332992e-09  4.58737735e-01  4.58737735e-01  4.58737735e-01  3.26570374e-09  1.58340417e-07  8.27625826e-08  8.70000000e-01 
 8.80000000e-01  3.24038863e-09  4.58737730e-01  3.26332992e-09  4.58737730e-01  4.58737730e-01  4.58737730e-01  3.26570387e-09  1.58340417e-07  8.27624476e-08  8.80000000e-01 
 8.90000000e-01  3.24038863e-09  4.58737754e-01  3.26332992e-09  4.58737754e-01  4.58737754e-01  4.58737754e-01  3.26570374e-09  1.58340422e-07  8.27624618e-08  8.90000000e-01 
 9.00000000e-01  3.24038863e-09  4.58737750e-01  3.26332992e-09  4.58737750e-01  4.58737750e-01  4.58737750e-01  3.26570375e-09  1.58340423e-07  8.27624191e-08  9.00000000e-01 
 9.10000000e-01  3.24038851e-09  4.58737736e-01  3.26332992e-09  4.58737736e-01  4.58737736e-01  4.58737736e-01  3.26570386e-09  1.58340401e-07  8.27622699e-08  9.10000000e-01 
 9.20000000e-01  3.24038863e-09  4.58737746e-01  3.26332992e-09  4.58737746e-01  4.58737746e-01  4.58737746e-01  3.26570374e-09  1.58340429e-07  8.27622770e-08  9.20000000e-01 
 9.30000000e-01  3.24038851e-09  4.58737750e-01  3.26332992e-09  4.58737750e-01  4.58737750e-01  4.58737750e-01  3.26570375e-09  1.58340439e-07  8.27621705e-08  9.30000000e-01 
 9.40000000e-01  3.24038851e-09  4.58737763e-01  3.26333004e-09  4.58737763e-01  4.58737763e-01  4.58737762e-01  3.26570386e-09  1.58340446e-07  8.27620212e-08  9.40000000e-01 
 9.50000000e-01  3.24038851e-09  4.58737752e-01  3.26332992e-09  4.58737752e-01  4.58737752e-01  4.58737752e-01  3.26570374e-09  1.58340434e-07  8.27620426e-08  9.50000000e-01 
 9.60000000e-01  3.24038863e-09  4.58737744e-01  3.26332992e-09  4.58737744e-01  4.58737744e-01  4.58737744e-01  3.26570387e-09  1.58340447e-07  8.27618649e-08  9.60000000e-01 
 9.70000000e-01  3.24038863e-09  4.58737741e-01  3.26332992e-09  4.58737741e-01  4.58737741e-01  4.58737741e-01  3.26570374e-09  1.58340412e-07  8.27618862e-08  9.70000000e-01 
 9.80000000e-01  3.24038863e-09  4.58737734e-01  3.26332992e-09  4.58737734e-01  4.58737734e-01  4.58737733e-01  3.26570375e-09  1.58340399e-07  8.27617654e-08  9.80000000e-01 
 9.90000000e-01  3.24038851e-09  4.58737730e-01  3.26332992e-09  4.58737730e-01  4.58737730e-01  4.58737730e-01  3.26570386e-09  1.58340405e-07  8.27617015e-08  9.90000000e-01 
 1.00000000e+00  3.24038863e-09  4.58737733e-01  3.26332992e-09  4.58737733e-01  4.58737733e-01  4.58737733e-01  3.26570386e-09  1.58340404e-07  8.27617725e-08  1.00000000e+00 
 1.01000000e+00  3.24038851e-09  4.58737735e-01  3.26332992e-09  4.58737735e-01  4.58737735e-01  4.58737735e-01  3.26570375e-09  1.58340396e-07  8.27616020e-08  1.01000000e+00 
 1.02000000e+00  3.24038863e-09  4.58737755e-01  3.26333004e-09  4.58737755e-01  4.58737755e-01  4.58737754e-01  3.26570387e-09  1.58340451e-07  8.27615025e-08  1.02000000e+00 
 1.03000000e+00  3.24038863e-09  4.58737736e-01  3.26332992e-09  4.58737736e-01  4.58737736e-01  4.58737736e-01  3.26570386e-09  1.58340413e-07  8.27614812e-08  1.03000000e+00 
 1.04000000e+00  3.24038863e-09  4.58737728e-01  3.26332992e-09  4.58737728e-01  4.58737728e-01  4.58737728e-01  3.26570386e-09  1.58340395e-07  8.27613817e-08  1.04000000e+00 
 1.05000000e+00  3.24038863e-09  4.58737740e-01  3.26333004e-09  4.58737740e-01  4.58737740e-01  4.58737740e-01  3.26570386e-09  1.58340422e-07  8.27613889e-08  1.05000000e+00 
 1.06000000e+00  3.24038851e-09  4.58737761e-01  3.26332992e-09  4.58737761e-01  4.58737761e-01  4.58737761e-01  3.26570375e-09  1.58340437e-07  8.27613036e-08  1.06000000e+00 
 1.07000000e+00  3.24038863e-09  4.58737738e-01  3.26332992e-09  4.58737738e-01  4.58737738e-01  4.58737738e-01  3.26570387e-09  1.58340412e-07  8.27611331e-08  1.07000000e+00 
 1.08000000e+00  3.24038863e-09  4.58737698e-01  3.26332992e-09  4.58737698e-01  4.58737698e-01  4.58737698e-01  3.26570374e-09  1.58340349e-07  8.27609199e-08  1.08000000e+00 
 1.09000000e+00  3.24038852e-09  4.58737768e-01  3.26332992e-09  4.58737768e-01  4.58737768e-01  4.58737768e-01  3.26570375e-09  1.58340459e-07  8.27610478e-08  1.09000000e+00 
 1.10000000e+00  3.24038863e-09  4.58737739e-01  3.26333004e-09  4.58737739e-01  4.58737739e-01  4.58737739e-01  3.26570375e-09  1.58340404e-07  8.27608488e-08  1.10000000e+00 
