 v-sweep         v(b0)           v(b1)           v(b2)           v(b3)           v(b4)           v(b5)           v(b6)           i(vbias)        i(viout)        v(vout)        
 1.60000000e+00  4.58275819e-01  2.76577549e-09  4.58275819e-01  2.76577549e-09  2.76577549e-09  2.76577549e-09  2.76577549e-09  1.58916393e-07  7.69925634e-09  8.00000000e-01 
 1.60500000e+00  4.58275896e-01  2.77084975e-09  4.58275896e-01  2.77084975e-09  2.77084975e-09  2.77084975e-09  2.77084975e-09  1.58916555e-07  7.69378516e-09  8.00000000e-01 
 1.61000000e+00  4.58275917e-01  2.77663607e-09  4.58275917e-01  2.77663607e-09  2.77663607e-09  2.77663607e-09  2.77663607e-09  1.58916650e-07  7.68809372e-09  8.00000000e-01 
 1.61500000e+00  4.58275973e-01  2.78260901e-09  4.58275973e-01  2.78260901e-09  2.78260901e-09  2.78260901e-09  2.78260901e-09  1.58916808e-07  7.68260122e-09  8.00000000e-01 
 1.62000000e+00  4.58276033e-01  2.78895164e-09  4.58276033e-01  2.78895164e-09  2.78895164e-09  2.78895169e-09  2.78895169e-09  1.58916937e-07  7.67690267e-09  8.00000000e-01 
 1.62500000e+00  4.58276085e-01  2.79567009e-09  4.58276085e-01  2.79567015e-09  2.79567015e-09  2.79567009e-09  2.79567009e-09  1.58917067e-07  7.67116148e-09  8.00000000e-01 
 1.63000000e+00  4.58276137e-01  2.80277075e-09  4.58276137e-01  2.80277075e-09  2.80277075e-09  2.80277075e-09  2.80277075e-09  1.58917227e-07  7.66547714e-09  8.00000000e-01 
 1.63500000e+00  4.58276160e-01  2.81026003e-09  4.58276160e-01  2.81026003e-09  2.81026003e-09  2.81026003e-09  2.81026003e-09  1.58917310e-07  7.65975017e-09  8.00000000e-01 
 1.64000000e+00  4.58276222e-01  2.81814460e-09  4.58276222e-01  2.81814460e-09  2.81814460e-09  2.81814460e-09  2.81814460e-09  1.58917447e-07  7.65425057e-09  8.00000000e-01 
 1.64500000e+00  4.58276207e-01  2.82643131e-09  4.58276207e-01  2.82643131e-09  2.82643131e-09  2.82643131e-09  2.82643131e-09  1.58917488e-07  7.64845964e-09  8.00000000e-01 
 1.65000000e+00  4.58276270e-01  2.83512720e-09  4.58276270e-01  2.83512720e-09  2.83512720e-09  2.83512720e-09  2.83512720e-09  1.58917619e-07  7.64295294e-09  8.00000000e-01 
 1.65500000e+00  4.58276343e-01  2.84423946e-09  4.58276343e-01  2.84423946e-09  2.84423946e-09  2.84423946e-09  2.84423946e-09  1.58917796e-07  7.63721175e-09  8.00000000e-01 
 1.66000000e+00  4.58276410e-01  2.85377541e-09  4.58276410e-01  2.85377547e-09  2.85377547e-09  2.85377541e-09  2.85377547e-09  1.58917973e-07  7.63147057e-09  8.00000000e-01 
 1.66500000e+00  4.58276474e-01  2.86374270e-09  4.58276474e-01  2.86374270e-09  2.86374270e-09  2.86374270e-09  2.86374270e-09  1.58918093e-07  7.62589991e-09  8.00000000e-01 
 1.67000000e+00  4.58276487e-01  2.87414897e-09  4.58276487e-01  2.87414897e-09  2.87414897e-09  2.87414897e-09  2.87414897e-09  1.58918171e-07  7.62005925e-09  8.00000000e-01 
 1.67500000e+00  4.58276538e-01  2.88500219e-09  4.58276538e-01  2.88500219e-09  2.88500219e-09  2.88500213e-09  2.88500219e-09  1.58918321e-07  7.61448860e-09  8.00000000e-01 
 1.68000000e+00  4.58276587e-01  2.89631042e-09  4.58276587e-01  2.89631042e-09  2.89631042e-09  2.89631042e-09  2.89631042e-09  1.58918442e-07  7.60866925e-09  8.00000000e-01 
 1.68500000e+00  4.58276611e-01  2.90808195e-09  4.58276611e-01  2.90808200e-09  2.90808200e-09  2.90808195e-09  2.90808195e-09  1.58918526e-07  7.60305596e-09  8.00000000e-01 
 1.69000000e+00  4.58276718e-01  2.92032530e-09  4.58276718e-01  2.92032530e-09  2.92032530e-09  2.92032530e-09  2.92032530e-09  1.58918740e-07  7.59730057e-09  8.00000000e-01 
 1.69500000e+00  4.58276744e-01  2.93304905e-09  4.58276744e-01  2.93304905e-09  2.93304905e-09  2.93304905e-09  2.93304905e-09  1.58918838e-07  7.59186491e-09  8.00000000e-01 
 1.70000000e+00  4.58276769e-01  2.94626209e-09  4.58276769e-01  2.94626209e-09  2.94626209e-09  2.94626209e-09  2.94626209e-09  1.58918916e-07  7.58605978e-09  8.00000000e-01 
 1.70500000e+00  4.58276820e-01  2.95997352e-09  4.58276820e-01  2.95997352e-09  2.95997352e-09  2.95997352e-09  2.95997352e-09  1.58919051e-07  7.58055307e-09  8.00000000e-01 
 1.71000000e+00  4.58276881e-01  2.97419242e-09  4.58276881e-01  2.97419242e-09  2.97419242e-09  2.97419242e-09  2.97419242e-09  1.58919180e-07  7.57480478e-09  8.00000000e-01 
 1.71500000e+00  4.58276939e-01  2.98892833e-09  4.58276939e-01  2.98892833e-09  2.98892833e-09  2.98892833e-09  2.98892839e-09  1.58919335e-07  7.56917728e-09  8.00000000e-01 
 1.72000000e+00  4.58276930e-01  3.00419084e-09  4.58276930e-01  3.00419084e-09  3.00419084e-09  3.00419084e-09  3.00419083e-09  1.58919383e-07  7.56359952e-09  8.00000000e-01 
 1.72500000e+00  4.58276962e-01  3.01998970e-09  4.58276962e-01  3.01998970e-09  3.01998970e-09  3.01998970e-09  3.01998970e-09  1.58919479e-07  7.55781571e-09  8.00000000e-01 
 1.73000000e+00  4.58277092e-01  3.03633499e-09  4.58277092e-01  3.03633499e-09  3.03633499e-09  3.03633499e-09  3.03633499e-09  1.58919723e-07  7.55229479e-09  8.00000000e-01 
 1.73500000e+00  4.58277141e-01  3.05323686e-09  4.58277141e-01  3.05323686e-09  3.05323686e-09  3.05323686e-09  3.05323692e-09  1.58919849e-07  7.54662466e-09  8.00000000e-01 
 1.74000000e+00  4.58277174e-01  3.07070575e-09  4.58277174e-01  3.07070575e-09  3.07070575e-09  3.07070581e-09  3.07070581e-09  1.58919952e-07  7.54086216e-09  8.00000000e-01 
 1.74500000e+00  4.58277227e-01  3.08875229e-09  4.58277227e-01  3.08875235e-09  3.08875235e-09  3.08875235e-09  3.08875235e-09  1.58920078e-07  7.53537677e-09  8.00000000e-01 
 1.75000000e+00  4.58277278e-01  3.10738732e-09  4.58277278e-01  3.10738732e-09  3.10738732e-09  3.10738726e-09  3.10738732e-09  1.58920210e-07  7.52976348e-09  8.00000000e-01 
 1.75500000e+00  4.58277311e-01  3.12662173e-09  4.58277311e-01  3.12662173e-09  3.12662173e-09  3.12662168e-09  3.12662173e-09  1.58920328e-07  7.52413598e-09  8.00000000e-01 
 1.76000000e+00  4.58277387e-01  3.14646686e-09  4.58277387e-01  3.14646686e-09  3.14646686e-09  3.14646685e-09  3.14646680e-09  1.58920474e-07  7.51865770e-09  8.00000000e-01 
 1.76500000e+00  4.58277443e-01  3.16693409e-09  4.58277443e-01  3.16693409e-09  3.16693409e-09  3.16693403e-09  3.16693409e-09  1.58920610e-07  7.51290941e-09  8.00000000e-01 
 1.77000000e+00  4.58277462e-01  3.18803510e-09  4.58277462e-01  3.18803510e-09  3.18803510e-09  3.18803504e-09  3.18803504e-09  1.58920687e-07  7.50736717e-09  8.00000000e-01 
 1.77500000e+00  4.58277474e-01  3.20978167e-09  4.58277474e-01  3.20978167e-09  3.20978167e-09  3.20978168e-09  3.20978168e-09  1.58920778e-07  7.50185336e-09  8.00000000e-01 
 1.78000000e+00  4.58277538e-01  3.23218595e-09  4.58277538e-01  3.23218595e-09  3.23218595e-09  3.23218594e-09  3.23218594e-09  1.58920912e-07  7.49625428e-09  8.00000000e-01 
 1.78500000e+00  4.58277634e-01  3.25526023e-09  4.58277634e-01  3.25526018e-09  3.25526018e-09  3.25526023e-09  3.25526023e-09  1.58921084e-07  7.49082574e-09  8.00000000e-01 
 1.79000000e+00  4.58277692e-01  3.27901697e-09  4.58277692e-01  3.27901697e-09  3.27901697e-09  3.27901697e-09  3.27901697e-09  1.58921232e-07  7.48508455e-09  8.00000000e-01 
 1.79500000e+00  4.58277719e-01  3.30346895e-09  4.58277719e-01  3.30346889e-09  3.30346889e-09  3.30346889e-09  3.30346889e-09  1.58921329e-07  7.47930073e-09  8.00000000e-01 
 1.80000000e+00  4.58277754e-01  3.32862897e-09  4.58277754e-01  3.32862903e-09  3.32862903e-09  3.32862897e-09  3.32862897e-09  1.58921428e-07  7.47395745e-09  8.00000000e-01 
