 v-sweep         v(b0)           v(b1)           v(b2)           v(b3)           v(b4)           v(b5)           v(b6)           i(vbias)        i(viout)        v(vout)        
 0.00000000e+00  4.58129384e-01  4.58129384e-01  3.26838483e-09  3.26468988e-09  3.30709161e-09  4.58129384e-01  3.26160931e-09  1.59221935e-07  5.53709979e-08  0.00000000e+00 
 1.00000000e-02  4.58129392e-01  4.58129392e-01  3.26838481e-09  3.26468986e-09  3.30709159e-09  4.58129392e-01  3.26160930e-09  1.59221944e-07  5.53707130e-08  1.00000000e-02 
 2.00000000e-02  4.58129391e-01  4.58129391e-01  3.26838481e-09  3.26468986e-09  3.30709159e-09  4.58129391e-01  3.26160918e-09  1.59221940e-07  5.53703692e-08  2.00000000e-02 
 3.00000000e-02  4.58129397e-01  4.58129397e-01  3.26838481e-09  3.26468986e-09  3.30709159e-09  4.58129397e-01  3.26160930e-09  1.59221960e-07  5.53699109e-08  3.00000000e-02 
 4.00000000e-02  4.58129408e-01  4.58129408e-01  3.26838481e-09  3.26468987e-09  3.30709160e-09  4.58129408e-01  3.26160918e-09  1.59221978e-07  5.53697146e-08  4.00000000e-02 
 5.00000000e-02  4.58129400e-01  4.58129400e-01  3.26838481e-09  3.26468986e-09  3.30709159e-09  4.58129400e-01  3.26160930e-09  1.59221954e-07  5.53692634e-08  5.00000000e-02 
 6.00000000e-02  4.58129388e-01  4.58129388e-01  3.26838481e-09  3.26468998e-09  3.30709159e-09  4.58129388e-01  3.26160918e-09  1.59221950e-07  5.53689321e-08  6.00000000e-02 
 7.00000000e-02  4.58129399e-01  4.58129399e-01  3.26838481e-09  3.26468986e-09  3.30709159e-09  4.58129399e-01  3.26160918e-09  1.59221966e-07  5.53686439e-08  7.00000000e-02 
 8.00000000e-02  4.58129417e-01  4.58129417e-01  3.26838481e-09  3.26468987e-09  3.30709160e-09  4.58129417e-01  3.26160930e-09  1.59221981e-07  5.53682975e-08  8.00000000e-02 
 9.00000000e-02  4.58129409e-01  4.58129409e-01  3.26838481e-09  3.26468998e-09  3.30709160e-09  4.58129409e-01  3.26160930e-09  1.59221972e-07  5.53680524e-08  9.00000000e-02 
 1.00000000e-01  4.58129409e-01  4.58129409e-01  3.26838481e-09  3.26468987e-09  3.30709171e-09  4.58129409e-01  3.26160930e-09  1.59221963e-07  5.53678170e-08  1.00000000e-01 
 1.10000000e-01  4.58129408e-01  4.58129408e-01  3.26838493e-09  3.26468987e-09  3.30709159e-09  4.58129408e-01  3.26160918e-09  1.59221961e-07  5.53676021e-08  1.10000000e-01 
 1.20000000e-01  4.58129399e-01  4.58129399e-01  3.26838481e-09  3.26468986e-09  3.30709160e-09  4.58129399e-01  3.26160918e-09  1.59221958e-07  5.53672255e-08  1.20000000e-01 
 1.30000000e-01  4.58129417e-01  4.58129417e-01  3.26838481e-09  3.26468987e-09  3.30709160e-09  4.58129417e-01  3.26160918e-09  1.59221992e-07  5.53671846e-08  1.30000000e-01 
 1.40000000e-01  4.58129405e-01  4.58129405e-01  3.26838481e-09  3.26468987e-09  3.30709160e-09  4.58129405e-01  3.26160930e-09  1.59221966e-07  5.53668587e-08  1.40000000e-01 
 1.50000000e-01  4.58129397e-01  4.58129397e-01  3.26838481e-09  3.26468986e-09  3.30709159e-09  4.58129397e-01  3.26160918e-09  1.59221944e-07  5.53666801e-08  1.50000000e-01 
 1.60000000e-01  4.58129398e-01  4.58129399e-01  3.26838481e-09  3.26468998e-09  3.30709159e-09  4.58129398e-01  3.26160918e-09  1.59221948e-07  5.53664474e-08  1.60000000e-01 
 1.70000000e-01  4.58129392e-01  4.58129392e-01  3.26838481e-09  3.26468986e-09  3.30709159e-09  4.58129392e-01  3.26160918e-09  1.59221949e-07  5.53662574e-08  1.70000000e-01 
 1.80000000e-01  4.58129387e-01  4.58129387e-01  3.26838481e-09  3.26468986e-09  3.30709159e-09  4.58129387e-01  3.26160918e-09  1.59221927e-07  5.53661454e-08  1.80000000e-01 
 1.90000000e-01  4.58129419e-01  4.58129419e-01  3.26838481e-09  3.26468987e-09  3.30709160e-09  4.58129419e-01  3.26160918e-09  1.59221977e-07  5.53660140e-08  1.90000000e-01 
 2.00000000e-01  4.58129408e-01  4.58129408e-01  3.26838481e-09  3.26468987e-09  3.30709160e-09  4.58129408e-01  3.26160930e-09  1.59221963e-07  5.53658328e-08  2.00000000e-01 
 2.10000000e-01  4.58129397e-01  4.58129397e-01  3.26838481e-09  3.26468986e-09  3.30709171e-09  4.58129397e-01  3.26160918e-09  1.59221956e-07  5.53656676e-08  2.10000000e-01 
 2.20000000e-01  4.58129392e-01  4.58129392e-01  3.26838481e-09  3.26468986e-09  3.30709159e-09  4.58129392e-01  3.26160930e-09  1.59221937e-07  5.53654917e-08  2.20000000e-01 
 2.30000000e-01  4.58129395e-01  4.58129395e-01  3.26838481e-09  3.26468998e-09  3.30709160e-09  4.58129395e-01  3.26160930e-09  1.59221943e-07  5.53652999e-08  2.30000000e-01 
 2.40000000e-01  4.58129393e-01  4.58129393e-01  3.26838481e-09  3.26468986e-09  3.30709171e-09  4.58129393e-01  3.26160930e-09  1.59221943e-07  5.53651436e-08  2.40000000e-01 
 2.50000000e-01  4.58129392e-01  4.58129392e-01  3.26838481e-09  3.26468986e-09  3.30709159e-09  4.58129392e-01  3.26160930e-09  1.59221944e-07  5.53650921e-08  2.50000000e-01 
 2.60000000e-01  4.58129427e-01  4.58129427e-01  3.26838481e-09  3.26468998e-09  3.30709160e-09  4.58129427e-01  3.26160918e-09  1.59221983e-07  5.53649215e-08  2.60000000e-01 
 2.70000000e-01  4.58129423e-01  4.58129423e-01  3.26838481e-09  3.26468987e-09  3.30709160e-09  4.58129423e-01  3.26160930e-09  1.59222003e-07  5.53648309e-08  2.70000000e-01 
 2.80000000e-01  4.58129393e-01  4.58129393e-01  3.26838481e-09  3.26468998e-09  3.30709159e-09  4.58129393e-01  3.26160930e-09  1.59221945e-07  5.53647599e-08  2.80000000e-01 
 2.90000000e-01  4.58129388e-01  4.58129388e-01  3.26838481e-09  3.26468986e-09  3.30709159e-09  4.58129388e-01  3.26160930e-09  1.59221937e-07  5.53645556e-08  2.90000000e-01 
 3.00000000e-01  4.58129418e-01  4.58129418e-01  3.26838481e-09  3.26468998e-09  3.30709160e-09  4.58129418e-01  3.26160930e-09  1.59221974e-07  5.53644561e-08  3.00000000e-01 
 3.10000000e-01  4.58129429e-01  4.58129430e-01  3.26838481e-09  3.26468987e-09  3.30709160e-09  4.58129429e-01  3.26160930e-09  1.59221991e-07  5.53643495e-08  3.10000000e-01 
 3.20000000e-01  4.58129404e-01  4.58129404e-01  3.26838481e-09  3.26468987e-09  3.30709160e-09  4.58129404e-01  3.26160918e-09  1.59221957e-07  5.53642039e-08  3.20000000e-01 
 3.30000000e-01  4.58129403e-01  4.58129403e-01  3.26838481e-09  3.26468998e-09  3.30709160e-09  4.58129403e-01  3.26160918e-09  1.59221954e-07  5.53642359e-08  3.30000000e-01 
 3.40000000e-01  4.58129369e-01  4.58129369e-01  3.26838481e-09  3.26468986e-09  3.30709171e-09  4.58129369e-01  3.26160930e-09  1.59221909e-07  5.53639765e-08  3.40000000e-01 
 3.50000000e-01  4.58129386e-01  4.58129386e-01  3.26838481e-09  3.26468986e-09  3.30709170e-09  4.58129386e-01  3.26160930e-09  1.59221946e-07  5.53639374e-08  3.50000000e-01 
 3.60000000e-01  4.58129409e-01  4.58129409e-01  3.26838481e-09  3.26468998e-09  3.30709159e-09  4.58129409e-01  3.26160918e-09  1.59221953e-07  5.53639339e-08  3.60000000e-01 
 3.70000000e-01  4.58129396e-01  4.58129396e-01  3.26838481e-09  3.26468986e-09  3.30709160e-09  4.58129396e-01  3.26160918e-09  1.59221949e-07  5.53638415e-08  3.70000000e-01 
 3.80000000e-01  4.58129401e-01  4.58129401e-01  3.26838481e-09  3.26468986e-09  3.30709160e-09  4.58129401e-01  3.26160918e-09  1.59221957e-07  5.53637562e-08  3.80000000e-01 
 3.90000000e-01  4.58129403e-01  4.58129403e-01  3.26838481e-09  3.26468986e-09  3.30709160e-09  4.58129403e-01  3.26160930e-09  1.59221964e-07  5.53636035e-08  3.90000000e-01 
 4.00000000e-01  4.58129410e-01  4.58129410e-01  3.26838481e-09  3.26468987e-09  3.30709160e-09  4.58129410e-01  3.26160918e-09  1.59221979e-07  5.53635893e-08  4.00000000e-01 
 4.10000000e-01  4.58129402e-01  4.58129402e-01  3.26838481e-09  3.26468998e-09  3.30709160e-09  4.58129402e-01  3.26160918e-09  1.59221959e-07  5.53635111e-08  4.10000000e-01 
 4.20000000e-01  4.58129386e-01  4.58129387e-01  3.26838481e-09  3.26468998e-09  3.30709159e-09  4.58129386e-01  3.26160930e-09  1.59221934e-07  5.53632908e-08  4.20000000e-01 
 4.30000000e-01  4.58129394e-01  4.58129394e-01  3.26838481e-09  3.26468998e-09  3.30709159e-09  4.58129394e-01  3.26160930e-09  1.59221946e-07  5.53632695e-08  4.30000000e-01 
 4.40000000e-01  4.58129406e-01  4.58129406e-01  3.26838481e-09  3.26468987e-09  3.30709160e-09  4.58129406e-01  3.26160918e-09  1.59221966e-07  5.53631949e-08  4.40000000e-01 
 4.50000000e-01  4.58129414e-01  4.58129414e-01  3.26838481e-09  3.26468998e-09  3.30709160e-09  4.58129414e-01  3.26160918e-09  1.59221984e-07  5.53631523e-08  4.50000000e-01 
 4.60000000e-01  4.58129410e-01  4.58129411e-01  3.26838481e-09  3.26468987e-09  3.30709160e-09  4.58129410e-01  3.26160930e-09  1.59221975e-07  5.53631594e-08  4.60000000e-01 
 4.70000000e-01  4.58129396e-01  4.58129396e-01  3.26838481e-09  3.26468986e-09  3.30709159e-09  4.58129396e-01  3.26160930e-09  1.59221943e-07  5.53630422e-08  4.70000000e-01 
 4.80000000e-01  4.58129411e-01  4.58129411e-01  3.26838481e-09  3.26468987e-09  3.30709160e-09  4.58129411e-01  3.26160918e-09  1.59221963e-07  5.53629285e-08  4.80000000e-01 
 4.90000000e-01  4.58129387e-01  4.58129387e-01  3.26838481e-09  3.26468986e-09  3.30709159e-09  4.58129387e-01  3.26160918e-09  1.59221931e-07  5.53629249e-08  4.90000000e-01 
 5.00000000e-01  4.58129397e-01  4.58129397e-01  3.26838481e-09  3.26468986e-09  3.30709171e-09  4.58129397e-01  3.26160918e-09  1.59221944e-07  5.53627508e-08  5.00000000e-01 
 5.10000000e-01  4.58129411e-01  4.58129411e-01  3.26838481e-09  3.26468987e-09  3.30709170e-09  4.58129411e-01  3.26160930e-09  1.59221973e-07  5.53628432e-08  5.10000000e-01 
 5.20000000e-01  4.58129405e-01  4.58129405e-01  3.26838481e-09  3.26468987e-09  3.30709159e-09  4.58129405e-01  3.26160930e-09  1.59221967e-07  5.53627686e-08  5.20000000e-01 
 5.30000000e-01  4.58129414e-01  4.58129414e-01  3.26838481e-09  3.26468987e-09  3.30709160e-09  4.58129414e-01  3.26160918e-09  1.59221978e-07  5.53626727e-08  5.30000000e-01 
 5.40000000e-01  4.58129420e-01  4.58129420e-01  3.26838481e-09  3.26468987e-09  3.30709160e-09  4.58129420e-01  3.26160918e-09  1.59221992e-07  5.53626371e-08  5.40000000e-01 
 5.50000000e-01  4.58129417e-01  4.58129417e-01  3.26838481e-09  3.26468987e-09  3.30709160e-09  4.58129417e-01  3.26160930e-09  1.59221978e-07  5.53625306e-08  5.50000000e-01 
 5.60000000e-01  4.58129426e-01  4.58129426e-01  3.26838481e-09  3.26468987e-09  3.30709160e-09  4.58129426e-01  3.26160918e-09  1.59222008e-07  5.53625235e-08  5.60000000e-01 
 5.70000000e-01  4.58129409e-01  4.58129409e-01  3.26838481e-09  3.26468987e-09  3.30709160e-09  4.58129409e-01  3.26160918e-09  1.59221972e-07  5.53624453e-08  5.70000000e-01 
 5.80000000e-01  4.58129418e-01  4.58129418e-01  3.26838481e-09  3.26468987e-09  3.30709160e-09  4.58129418e-01  3.26160930e-09  1.59221971e-07  5.53622499e-08  5.80000000e-01 
 5.90000000e-01  4.58129391e-01  4.58129391e-01  3.26838481e-09  3.26468986e-09  3.30709159e-09  4.58129391e-01  3.26160918e-09  1.59221932e-07  5.53623138e-08  5.90000000e-01 
 6.00000000e-01  4.58129416e-01  4.58129416e-01  3.26838481e-09  3.26468987e-09  3.30709160e-09  4.58129416e-01  3.26160930e-09  1.59221972e-07  5.53621433e-08  6.00000000e-01 
 6.10000000e-01  4.58129418e-01  4.58129418e-01  3.26838481e-09  3.26468987e-09  3.30709160e-09  4.58129418e-01  3.26160930e-09  1.59221979e-07  5.53620296e-08  6.10000000e-01 
 6.20000000e-01  4.58129410e-01  4.58129410e-01  3.26838481e-09  3.26468987e-09  3.30709160e-09  4.58129410e-01  3.26160918e-09  1.59221990e-07  5.53620865e-08  6.20000000e-01 
 6.30000000e-01  4.58129393e-01  4.58129393e-01  3.26838481e-09  3.26468998e-09  3.30709159e-09  4.58129393e-01  3.26160918e-09  1.59221941e-07  5.53619515e-08  6.30000000e-01 
 6.40000000e-01  4.58129396e-01  4.58129396e-01  3.26838481e-09  3.26468986e-09  3.30709159e-09  4.58129396e-01  3.26160930e-09  1.59221945e-07  5.53620154e-08  6.40000000e-01 
 6.50000000e-01  4.58129394e-01  4.58129394e-01  3.26838481e-09  3.26468986e-09  3.30709159e-09  4.58129394e-01  3.26160930e-09  1.59221943e-07  5.53619230e-08  6.50000000e-01 
 6.60000000e-01  4.58129396e-01  4.58129396e-01  3.26838481e-09  3.26468986e-09  3.30709159e-09  4.58129396e-01  3.26160930e-09  1.59221962e-07  5.53617454e-08  6.60000000e-01 
 6.70000000e-01  4.58129408e-01  4.58129408e-01  3.26838481e-09  3.26468998e-09  3.30709160e-09  4.58129408e-01  3.26160930e-09  1.59221965e-07  5.53616957e-08  6.70000000e-01 
 6.80000000e-01  4.58129401e-01  4.58129401e-01  3.26838481e-09  3.26468986e-09  3.30709160e-09  4.58129401e-01  3.26160918e-09  1.59221948e-07  5.53617596e-08  6.80000000e-01 
 6.90000000e-01  4.58129407e-01  4.58129407e-01  3.26838481e-09  3.26468987e-09  3.30709171e-09  4.58129407e-01  3.26160918e-09  1.59221964e-07  5.53616530e-08  6.90000000e-01 
 7.00000000e-01  4.58129407e-01  4.58129407e-01  3.26838481e-09  3.26468987e-09  3.30709170e-09  4.58129407e-01  3.26160930e-09  1.59221966e-07  5.53616033e-08  7.00000000e-01 
 7.10000000e-01  4.58129422e-01  4.58129422e-01  3.26838481e-09  3.26468987e-09  3.30709159e-09  4.58129422e-01  3.26160930e-09  1.59221988e-07  5.53616388e-08  7.10000000e-01 
 7.20000000e-01  4.58129410e-01  4.58129410e-01  3.26838481e-09  3.26468987e-09  3.30709160e-09  4.58129410e-01  3.26160930e-09  1.59221969e-07  5.53615678e-08  7.20000000e-01 
 7.30000000e-01  4.58129411e-01  4.58129411e-01  3.26838481e-09  3.26468987e-09  3.30709160e-09  4.58129411e-01  3.26160918e-09  1.59221983e-07  5.53614825e-08  7.30000000e-01 
 7.40000000e-01  4.58129403e-01  4.58129403e-01  3.26838481e-09  3.26468998e-09  3.30709160e-09  4.58129403e-01  3.26160930e-09  1.59221956e-07  5.53614115e-08  7.40000000e-01 
 7.50000000e-01  4.58129393e-01  4.58129393e-01  3.26838481e-09  3.26468998e-09  3.30709159e-09  4.58129393e-01  3.26160918e-09  1.59221942e-07  5.53612267e-08  7.50000000e-01 
 7.60000000e-01  4.58129404e-01  4.58129404e-01  3.26838481e-09  3.26468998e-09  3.30709160e-09  4.58129404e-01  3.26160930e-09  1.59221956e-07  5.53613191e-08  7.60000000e-01 
 7.70000000e-01  4.58129384e-01  4.58129384e-01  3.26838481e-09  3.26468986e-09  3.30709159e-09  4.58129384e-01  3.26160918e-09  1.59221935e-07  5.53610917e-08  7.70000000e-01 
 7.80000000e-01  4.58129385e-01  4.58129385e-01  3.26838481e-09  3.26468998e-09  3.30709159e-09  4.58129385e-01  3.26160930e-09  1.59221928e-07  5.53611059e-08  7.80000000e-01 
 7.90000000e-01  4.58129394e-01  4.58129394e-01  3.26838481e-09  3.26468986e-09  3.30709159e-09  4.58129394e-01  3.26160918e-09  1.59221942e-07  5.53610207e-08  7.90000000e-01 
 8.00000000e-01  4.58129383e-01  4.58129383e-01  3.26838481e-09  3.26468986e-09  3.30709159e-09  4.58129383e-01  3.26160930e-09  1.59221928e-07  5.53609638e-08  8.00000000e-01 
 8.10000000e-01  4.58129387e-01  4.58129387e-01  3.26838481e-09  3.26468986e-09  3.30709159e-09  4.58129387e-01  3.26160918e-09  1.59221942e-07  5.53608075e-08  8.10000000e-01 
 8.20000000e-01  4.58129399e-01  4.58129399e-01  3.26838481e-09  3.26468986e-09  3.30709159e-09  4.58129399e-01  3.26160918e-09  1.59221957e-07  5.53609070e-08  8.20000000e-01 
 8.30000000e-01  4.58129408e-01  4.58129408e-01  3.26838481e-09  3.26468998e-09  3.30709160e-09  4.58129408e-01  3.26160930e-09  1.59221970e-07  5.53607080e-08  8.30000000e-01 
 8.40000000e-01  4.58129413e-01  4.58129413e-01  3.26838481e-09  3.26468987e-09  3.30709160e-09  4.58129412e-01  3.26160918e-09  1.59221969e-07  5.53607720e-08  8.40000000e-01 
 8.50000000e-01  4.58129393e-01  4.58129393e-01  3.26838481e-09  3.26468986e-09  3.30709159e-09  4.58129393e-01  3.26160930e-09  1.59221946e-07  5.53606654e-08  8.50000000e-01 
 8.60000000e-01  4.58129396e-01  4.58129396e-01  3.26838481e-09  3.26468986e-09  3.30709159e-09  4.58129396e-01  3.26160930e-09  1.59221946e-07  5.53606156e-08  8.60000000e-01 
 8.70000000e-01  4.58129407e-01  4.58129407e-01  3.26838481e-09  3.26468987e-09  3.30709160e-09  4.58129407e-01  3.26160918e-09  1.59221961e-07  5.53606299e-08  8.70000000e-01 
 8.80000000e-01  4.58129389e-01  4.58129389e-01  3.26838481e-09  3.26468986e-09  3.30709159e-09  4.58129389e-01  3.26160930e-09  1.59221932e-07  5.53605375e-08  8.80000000e-01 
 8.90000000e-01  4.58129399e-01  4.58129399e-01  3.26838481e-09  3.26468986e-09  3.30709159e-09  4.58129399e-01  3.26160930e-09  1.59221947e-07  5.53604735e-08  8.90000000e-01 
 9.00000000e-01  4.58129402e-01  4.58129402e-01  3.26838481e-09  3.26468998e-09  3.30709160e-09  4.58129402e-01  3.26160930e-09  1.59221947e-07  5.53604096e-08  9.00000000e-01 
 9.10000000e-01  4.58129420e-01  4.58129420e-01  3.26838481e-09  3.26468987e-09  3.30709171e-09  4.58129420e-01  3.26160918e-09  1.59221981e-07  5.53603030e-08  9.10000000e-01 
 9.20000000e-01  4.58129410e-01  4.58129411e-01  3.26838481e-09  3.26468998e-09  3.30709170e-09  4.58129410e-01  3.26160918e-09  1.59221971e-07  5.53602888e-08  9.20000000e-01 
 9.30000000e-01  4.58129403e-01  4.58129403e-01  3.26838481e-09  3.26468986e-09  3.30709159e-09  4.58129403e-01  3.26160930e-09  1.59221966e-07  5.53601254e-08  9.30000000e-01 
 9.40000000e-01  4.58129409e-01  4.58129409e-01  3.26838481e-09  3.26468987e-09  3.30709171e-09  4.58129409e-01  3.26160930e-09  1.59221981e-07  5.53601325e-08  9.40000000e-01 
 9.50000000e-01  4.58129400e-01  4.58129400e-01  3.26838481e-09  3.26468998e-09  3.30709159e-09  4.58129400e-01  3.26160930e-09  1.59221948e-07  5.53600472e-08  9.50000000e-01 
 9.60000000e-01  4.58129413e-01  4.58129413e-01  3.26838481e-09  3.26468987e-09  3.30709160e-09  4.58129413e-01  3.26160930e-09  1.59221978e-07  5.53600472e-08  9.60000000e-01 
 9.70000000e-01  4.58129394e-01  4.58129394e-01  3.26838481e-09  3.26468986e-09  3.30709159e-09  4.58129394e-01  3.26160930e-09  1.59221935e-07  5.53599548e-08  9.70000000e-01 
 9.80000000e-01  4.58129409e-01  4.58129409e-01  3.26838481e-09  3.26468987e-09  3.30709160e-09  4.58129409e-01  3.26160918e-09  1.59221956e-07  5.53598980e-08  9.80000000e-01 
 9.90000000e-01  4.58129401e-01  4.58129401e-01  3.26838481e-09  3.26468986e-09  3.30709171e-09  4.58129401e-01  3.26160930e-09  1.59221950e-07  5.53598269e-08  9.90000000e-01 
 1.00000000e+00  4.58129404e-01  4.58129404e-01  3.26838481e-09  3.26468987e-09  3.30709159e-09  4.58129404e-01  3.26160918e-09  1.59221965e-07  5.53597843e-08  1.00000000e+00 
 1.01000000e+00  4.58129398e-01  4.58129398e-01  3.26838481e-09  3.26468998e-09  3.30709160e-09  4.58129398e-01  3.26160930e-09  1.59221949e-07  5.53597630e-08  1.01000000e+00 
 1.02000000e+00  4.58129399e-01  4.58129399e-01  3.26838481e-09  3.26468986e-09  3.30709159e-09  4.58129399e-01  3.26160918e-09  1.59221951e-07  5.53595569e-08  1.02000000e+00 
 1.03000000e+00  4.58129416e-01  4.58129416e-01  3.26838481e-09  3.26468987e-09  3.30709160e-09  4.58129416e-01  3.26160930e-09  1.59221979e-07  5.53596422e-08  1.03000000e+00 
 1.04000000e+00  4.58129411e-01  4.58129411e-01  3.26838481e-09  3.26468987e-09  3.30709160e-09  4.58129411e-01  3.26160930e-09  1.59221970e-07  5.53595214e-08  1.04000000e+00 
 1.05000000e+00  4.58129416e-01  4.58129416e-01  3.26838493e-09  3.26468987e-09  3.30709160e-09  4.58129416e-01  3.26160918e-09  1.59222001e-07  5.53593438e-08  1.05000000e+00 
 1.06000000e+00  4.58129416e-01  4.58129417e-01  3.26838481e-09  3.26468987e-09  3.30709160e-09  4.58129416e-01  3.26160918e-09  1.59221976e-07  5.53593793e-08  1.06000000e+00 
 1.07000000e+00  4.58129421e-01  4.58129421e-01  3.26838481e-09  3.26468987e-09  3.30709160e-09  4.58129421e-01  3.26160930e-09  1.59221984e-07  5.53593864e-08  1.07000000e+00 
 1.08000000e+00  4.58129398e-01  4.58129399e-01  3.26838481e-09  3.26468998e-09  3.30709159e-09  4.58129398e-01  3.26160918e-09  1.59221952e-07  5.53592230e-08  1.08000000e+00 
 1.09000000e+00  4.58129392e-01  4.58129392e-01  3.26838481e-09  3.26468986e-09  3.30709159e-09  4.58129392e-01  3.26160930e-09  1.59221947e-07  5.53592088e-08  1.09000000e+00 
 1.10000000e+00  4.58129407e-01  4.58129407e-01  3.26838481e-09  3.26468987e-09  3.30709160e-09  4.58129407e-01  3.26160930e-09  1.59221956e-07  5.53590453e-08  1.10000000e+00 
