 v-sweep         v(b0)           v(b1)           v(b2)           v(b3)           v(b4)           v(b5)           v(b6)           i(vbias)        i(viout)        v(vout)        
 0.00000000e+00  3.26356316e-09  3.26420687e-09  4.59888913e-01  4.59888913e-01  3.27291624e-09  3.22569378e-09  3.27510991e-09  1.61499250e-07  1.89261776e-08  0.00000000e+00 
 1.00000000e-02  3.26356314e-09  3.26420685e-09  4.59888920e-01  4.59888920e-01  3.27291623e-09  3.22569377e-09  3.27510990e-09  1.61499272e-07  1.89257099e-08  1.00000000e-02 
 2.00000000e-02  3.26356314e-09  3.26420674e-09  4.59888915e-01  4.59888915e-01  3.27291623e-09  3.22569377e-09  3.27511001e-09  1.61499243e-07  1.89254235e-08  2.00000000e-02 
 3.00000000e-02  3.26356314e-09  3.26420674e-09  4.59888919e-01  4.59888919e-01  3.27291623e-09  3.22569377e-09  3.27511001e-09  1.61499258e-07  1.89249896e-08  3.00000000e-02 
 4.00000000e-02  3.26356314e-09  3.26420674e-09  4.59888924e-01  4.59888924e-01  3.27291623e-09  3.22569377e-09  3.27511001e-09  1.61499260e-07  1.89247693e-08  4.00000000e-02 
 5.00000000e-02  3.26356314e-09  3.26420674e-09  4.59888932e-01  4.59888932e-01  3.27291623e-09  3.22569377e-09  3.27510990e-09  1.61499270e-07  1.89243576e-08  5.00000000e-02 
 6.00000000e-02  3.26356314e-09  3.26420674e-09  4.59888928e-01  4.59888928e-01  3.27291623e-09  3.22569377e-09  3.27511001e-09  1.61499270e-07  1.89241049e-08  6.00000000e-02 
 7.00000000e-02  3.26356314e-09  3.26420674e-09  4.59888930e-01  4.59888931e-01  3.27291623e-09  3.22569377e-09  3.27511001e-09  1.61499286e-07  1.89236906e-08  7.00000000e-02 
 8.00000000e-02  3.26356314e-09  3.26420685e-09  4.59888929e-01  4.59888929e-01  3.27291623e-09  3.22569377e-09  3.27511001e-09  1.61499275e-07  1.89234015e-08  8.00000000e-02 
 9.00000000e-02  3.26356314e-09  3.26420674e-09  4.59888916e-01  4.59888916e-01  3.27291623e-09  3.22569377e-09  3.27510990e-09  1.61499249e-07  1.89232434e-08  9.00000000e-02 
 1.00000000e-01  3.26356314e-09  3.26420674e-09  4.59888933e-01  4.59888933e-01  3.27291623e-09  3.22569377e-09  3.27511001e-09  1.61499286e-07  1.89229530e-08  1.00000000e-01 
 1.10000000e-01  3.26356314e-09  3.26420686e-09  4.59888945e-01  4.59888945e-01  3.27291623e-09  3.22569377e-09  3.27511001e-09  1.61499302e-07  1.89226563e-08  1.10000000e-01 
 1.20000000e-01  3.26356314e-09  3.26420674e-09  4.59888925e-01  4.59888925e-01  3.27291623e-09  3.22569377e-09  3.27511001e-09  1.61499278e-07  1.89225107e-08  1.20000000e-01 
 1.30000000e-01  3.26356314e-09  3.26420674e-09  4.59888912e-01  4.59888912e-01  3.27291623e-09  3.22569377e-09  3.27510990e-09  1.61499251e-07  1.89222105e-08  1.30000000e-01 
 1.40000000e-01  3.26356314e-09  3.26420674e-09  4.59888922e-01  4.59888922e-01  3.27291623e-09  3.22569377e-09  3.27511001e-09  1.61499274e-07  1.89219982e-08  1.40000000e-01 
 1.50000000e-01  3.26356314e-09  3.26420685e-09  4.59888926e-01  4.59888926e-01  3.27291623e-09  3.22569377e-09  3.27511001e-09  1.61499274e-07  1.89218206e-08  1.50000000e-01 
 1.60000000e-01  3.26356314e-09  3.26420674e-09  4.59888931e-01  4.59888931e-01  3.27291623e-09  3.22569377e-09  3.27510990e-09  1.61499287e-07  1.89216198e-08  1.60000000e-01 
 1.70000000e-01  3.26356314e-09  3.26420685e-09  4.59888927e-01  4.59888927e-01  3.27291623e-09  3.22569377e-09  3.27511001e-09  1.61499282e-07  1.89214724e-08  1.70000000e-01 
 1.80000000e-01  3.26356314e-09  3.26420685e-09  4.59888926e-01  4.59888927e-01  3.27291623e-09  3.22569377e-09  3.27511001e-09  1.61499277e-07  1.89213907e-08  1.80000000e-01 
 1.90000000e-01  3.26356314e-09  3.26420674e-09  4.59888937e-01  4.59888937e-01  3.27291623e-09  3.22569377e-09  3.27511001e-09  1.61499289e-07  1.89213054e-08  1.90000000e-01 
 2.00000000e-01  3.26356314e-09  3.26420674e-09  4.59888925e-01  4.59888925e-01  3.27291623e-09  3.22569377e-09  3.27510990e-09  1.61499261e-07  1.89210638e-08  2.00000000e-01 
 2.10000000e-01  3.26356314e-09  3.26420686e-09  4.59888941e-01  4.59888941e-01  3.27291623e-09  3.22569377e-09  3.27511001e-09  1.61499294e-07  1.89208453e-08  2.10000000e-01 
 2.20000000e-01  3.26356314e-09  3.26420685e-09  4.59888922e-01  4.59888922e-01  3.27291623e-09  3.22569377e-09  3.27510990e-09  1.61499264e-07  1.89206677e-08  2.20000000e-01 
 2.30000000e-01  3.26356314e-09  3.26420685e-09  4.59888929e-01  4.59888929e-01  3.27291623e-09  3.22569377e-09  3.27511001e-09  1.61499281e-07  1.89205682e-08  2.30000000e-01 
 2.40000000e-01  3.26356314e-09  3.26420674e-09  4.59888921e-01  4.59888921e-01  3.27291623e-09  3.22569377e-09  3.27511001e-09  1.61499263e-07  1.89204474e-08  2.40000000e-01 
 2.50000000e-01  3.26356314e-09  3.26420685e-09  4.59888930e-01  4.59888930e-01  3.27291623e-09  3.22569377e-09  3.27511001e-09  1.61499282e-07  1.89202627e-08  2.50000000e-01 
 2.60000000e-01  3.26356314e-09  3.26420674e-09  4.59888931e-01  4.59888931e-01  3.27291623e-09  3.22569377e-09  3.27511001e-09  1.61499277e-07  1.89201170e-08  2.60000000e-01 
 2.70000000e-01  3.26356326e-09  3.26420686e-09  4.59888942e-01  4.59888942e-01  3.27291623e-09  3.22569377e-09  3.27511001e-09  1.61499298e-07  1.89201419e-08  2.70000000e-01 
 2.80000000e-01  3.26356314e-09  3.26420686e-09  4.59888946e-01  4.59888946e-01  3.27291623e-09  3.22569377e-09  3.27511001e-09  1.61499321e-07  1.89198079e-08  2.80000000e-01 
 2.90000000e-01  3.26356314e-09  3.26420674e-09  4.59888928e-01  4.59888929e-01  3.27291623e-09  3.22569377e-09  3.27511001e-09  1.61499273e-07  1.89197991e-08  2.90000000e-01 
 3.00000000e-01  3.26356314e-09  3.26420686e-09  4.59888940e-01  4.59888940e-01  3.27291623e-09  3.22569377e-09  3.27511001e-09  1.61499298e-07  1.89198737e-08  3.00000000e-01 
 3.10000000e-01  3.26356314e-09  3.26420685e-09  4.59888936e-01  4.59888936e-01  3.27291623e-09  3.22569377e-09  3.27510990e-09  1.61499293e-07  1.89196285e-08  3.10000000e-01 
 3.20000000e-01  3.26356314e-09  3.26420674e-09  4.59888921e-01  4.59888921e-01  3.27291623e-09  3.22569377e-09  3.27511001e-09  1.61499267e-07  1.89195681e-08  3.20000000e-01 
 3.30000000e-01  3.26356314e-09  3.26420674e-09  4.59888936e-01  4.59888936e-01  3.27291623e-09  3.22569377e-09  3.27511001e-09  1.61499276e-07  1.89195077e-08  3.30000000e-01 
 3.40000000e-01  3.26356314e-09  3.26420674e-09  4.59888944e-01  4.59888944e-01  3.27291623e-09  3.22569377e-09  3.27511001e-09  1.61499308e-07  1.89194012e-08  3.40000000e-01 
 3.50000000e-01  3.26356314e-09  3.26420674e-09  4.59888939e-01  4.59888939e-01  3.27291623e-09  3.22569377e-09  3.27510990e-09  1.61499280e-07  1.89192946e-08  3.50000000e-01 
 3.60000000e-01  3.26356314e-09  3.26420674e-09  4.59888924e-01  4.59888924e-01  3.27291623e-09  3.22569377e-09  3.27511001e-09  1.61499265e-07  1.89192519e-08  3.60000000e-01 
 3.70000000e-01  3.26356314e-09  3.26420685e-09  4.59888912e-01  4.59888912e-01  3.27291623e-09  3.22569377e-09  3.27511001e-09  1.61499263e-07  1.89191383e-08  3.70000000e-01 
 3.80000000e-01  3.26356314e-09  3.26420674e-09  4.59888904e-01  4.59888904e-01  3.27291623e-09  3.22569377e-09  3.27510990e-09  1.61499243e-07  1.89190494e-08  3.80000000e-01 
 3.90000000e-01  3.26356314e-09  3.26420685e-09  4.59888934e-01  4.59888934e-01  3.27291623e-09  3.22569377e-09  3.27511001e-09  1.61499294e-07  1.89189180e-08  3.90000000e-01 
 4.00000000e-01  3.26356314e-09  3.26420674e-09  4.59888905e-01  4.59888905e-01  3.27291623e-09  3.22569377e-09  3.27511001e-09  1.61499235e-07  1.89190139e-08  4.00000000e-01 
 4.10000000e-01  3.26356314e-09  3.26420674e-09  4.59888936e-01  4.59888936e-01  3.27291623e-09  3.22569377e-09  3.27511001e-09  1.61499291e-07  1.89188292e-08  4.10000000e-01 
 4.20000000e-01  3.26356314e-09  3.26420674e-09  4.59888929e-01  4.59888929e-01  3.27291623e-09  3.22569377e-09  3.27510990e-09  1.61499288e-07  1.89188292e-08  4.20000000e-01 
 4.30000000e-01  3.26356314e-09  3.26420685e-09  4.59888924e-01  4.59888924e-01  3.27291623e-09  3.22569377e-09  3.27511001e-09  1.61499264e-07  1.89185450e-08  4.30000000e-01 
 4.40000000e-01  3.26356314e-09  3.26420674e-09  4.59888921e-01  4.59888921e-01  3.27291623e-09  3.22569377e-09  3.27511001e-09  1.61499253e-07  1.89186444e-08  4.40000000e-01 
 4.50000000e-01  3.26356314e-09  3.26420685e-09  4.59888928e-01  4.59888928e-01  3.27291623e-09  3.22569377e-09  3.27511001e-09  1.61499273e-07  1.89185414e-08  4.50000000e-01 
 4.60000000e-01  3.26356314e-09  3.26420674e-09  4.59888911e-01  4.59888911e-01  3.27291623e-09  3.22569377e-09  3.27511001e-09  1.61499252e-07  1.89185450e-08  4.60000000e-01 
 4.70000000e-01  3.26356314e-09  3.26420686e-09  4.59888951e-01  4.59888951e-01  3.27291623e-09  3.22569377e-09  3.27511001e-09  1.61499304e-07  1.89184632e-08  4.70000000e-01 
 4.80000000e-01  3.26356314e-09  3.26420674e-09  4.59888929e-01  4.59888930e-01  3.27291623e-09  3.22569377e-09  3.27511001e-09  1.61499267e-07  1.89183922e-08  4.80000000e-01 
 4.90000000e-01  3.26356314e-09  3.26420674e-09  4.59888930e-01  4.59888930e-01  3.27291623e-09  3.22569377e-09  3.27511001e-09  1.61499277e-07  1.89183247e-08  4.90000000e-01 
 5.00000000e-01  3.26356314e-09  3.26420685e-09  4.59888924e-01  4.59888924e-01  3.27291623e-09  3.22569377e-09  3.27511001e-09  1.61499272e-07  1.89181115e-08  5.00000000e-01 
 5.10000000e-01  3.26356314e-09  3.26420685e-09  4.59888921e-01  4.59888921e-01  3.27291623e-09  3.22569377e-09  3.27510990e-09  1.61499256e-07  1.89181257e-08  5.10000000e-01 
 5.20000000e-01  3.26356326e-09  3.26420685e-09  4.59888938e-01  4.59888938e-01  3.27291623e-09  3.22569377e-09  3.27511001e-09  1.61499288e-07  1.89180902e-08  5.20000000e-01 
 5.30000000e-01  3.26356314e-09  3.26420685e-09  4.59888934e-01  4.59888934e-01  3.27291623e-09  3.22569377e-09  3.27511001e-09  1.61499280e-07  1.89180689e-08  5.30000000e-01 
 5.40000000e-01  3.26356314e-09  3.26420674e-09  4.59888943e-01  4.59888943e-01  3.27291623e-09  3.22569377e-09  3.27510990e-09  1.61499295e-07  1.89180476e-08  5.40000000e-01 
 5.50000000e-01  3.26356314e-09  3.26420685e-09  4.59888929e-01  4.59888929e-01  3.27291623e-09  3.22569377e-09  3.27510990e-09  1.61499280e-07  1.89179907e-08  5.50000000e-01 
 5.60000000e-01  3.26356326e-09  3.26420674e-09  4.59888922e-01  4.59888922e-01  3.27291623e-09  3.22569377e-09  3.27510990e-09  1.61499258e-07  1.89179694e-08  5.60000000e-01 
 5.70000000e-01  3.26356314e-09  3.26420685e-09  4.59888925e-01  4.59888925e-01  3.27291623e-09  3.22569377e-09  3.27511001e-09  1.61499277e-07  1.89179659e-08  5.70000000e-01 
 5.80000000e-01  3.26356314e-09  3.26420685e-09  4.59888938e-01  4.59888938e-01  3.27291623e-09  3.22569377e-09  3.27511001e-09  1.61499284e-07  1.89179019e-08  5.80000000e-01 
 5.90000000e-01  3.26356314e-09  3.26420686e-09  4.59888943e-01  4.59888943e-01  3.27291623e-09  3.22569377e-09  3.27511001e-09  1.61499305e-07  1.89177527e-08  5.90000000e-01 
 6.00000000e-01  3.26356314e-09  3.26420674e-09  4.59888932e-01  4.59888932e-01  3.27291623e-09  3.22569377e-09  3.27511001e-09  1.61499285e-07  1.89177882e-08  6.00000000e-01 
 6.10000000e-01  3.26356314e-09  3.26420674e-09  4.59888944e-01  4.59888944e-01  3.27291623e-09  3.22569377e-09  3.27511001e-09  1.61499290e-07  1.89177740e-08  6.10000000e-01 
 6.20000000e-01  3.26356314e-09  3.26420674e-09  4.59888928e-01  4.59888928e-01  3.27291623e-09  3.22569377e-09  3.27511001e-09  1.61499283e-07  1.89176745e-08  6.20000000e-01 
 6.30000000e-01  3.26356314e-09  3.26420674e-09  4.59888912e-01  4.59888912e-01  3.27291623e-09  3.22569377e-09  3.27511001e-09  1.61499244e-07  1.89176461e-08  6.30000000e-01 
 6.40000000e-01  3.26356326e-09  3.26420686e-09  4.59888940e-01  4.59888941e-01  3.27291623e-09  3.22569377e-09  3.27510990e-09  1.61499307e-07  1.89174969e-08  6.40000000e-01 
 6.50000000e-01  3.26356314e-09  3.26420674e-09  4.59888907e-01  4.59888907e-01  3.27291623e-09  3.22569377e-09  3.27511001e-09  1.61499263e-07  1.89174472e-08  6.50000000e-01 
 6.60000000e-01  3.26356314e-09  3.26420674e-09  4.59888930e-01  4.59888930e-01  3.27291623e-09  3.22569377e-09  3.27511001e-09  1.61499281e-07  1.89174045e-08  6.60000000e-01 
 6.70000000e-01  3.26356314e-09  3.26420686e-09  4.59888955e-01  4.59888955e-01  3.27291623e-09  3.22569377e-09  3.27511001e-09  1.61499318e-07  1.89173406e-08  6.70000000e-01 
 6.80000000e-01  3.26356314e-09  3.26420674e-09  4.59888898e-01  4.59888899e-01  3.27291623e-09  3.22569377e-09  3.27511001e-09  1.61499222e-07  1.89172695e-08  6.80000000e-01 
 6.90000000e-01  3.26356314e-09  3.26420685e-09  4.59888925e-01  4.59888925e-01  3.27291623e-09  3.22569377e-09  3.27511001e-09  1.61499257e-07  1.89172624e-08  6.90000000e-01 
 7.00000000e-01  3.26356314e-09  3.26420685e-09  4.59888921e-01  4.59888921e-01  3.27291623e-09  3.22569377e-09  3.27511001e-09  1.61499261e-07  1.89172411e-08  7.00000000e-01 
 7.10000000e-01  3.26356314e-09  3.26420685e-09  4.59888936e-01  4.59888936e-01  3.27291623e-09  3.22569377e-09  3.27511001e-09  1.61499287e-07  1.89171701e-08  7.10000000e-01 
 7.20000000e-01  3.26356314e-09  3.26420685e-09  4.59888934e-01  4.59888935e-01  3.27291623e-09  3.22569377e-09  3.27511001e-09  1.61499287e-07  1.89171558e-08  7.20000000e-01 
 7.30000000e-01  3.26356314e-09  3.26420685e-09  4.59888922e-01  4.59888922e-01  3.27291623e-09  3.22569377e-09  3.27511001e-09  1.61499270e-07  1.89170208e-08  7.30000000e-01 
 7.40000000e-01  3.26356314e-09  3.26420685e-09  4.59888921e-01  4.59888921e-01  3.27291623e-09  3.22569377e-09  3.27511001e-09  1.61499261e-07  1.89170350e-08  7.40000000e-01 
 7.50000000e-01  3.26356314e-09  3.26420674e-09  4.59888935e-01  4.59888935e-01  3.27291623e-09  3.22569377e-09  3.27510990e-09  1.61499290e-07  1.89169427e-08  7.50000000e-01 
 7.60000000e-01  3.26356314e-09  3.26420674e-09  4.59888931e-01  4.59888931e-01  3.27291623e-09  3.22569377e-09  3.27511001e-09  1.61499275e-07  1.89169498e-08  7.60000000e-01 
 7.70000000e-01  3.26356314e-09  3.26420685e-09  4.59888909e-01  4.59888909e-01  3.27291623e-09  3.22569377e-09  3.27511001e-09  1.61499243e-07  1.89168361e-08  7.70000000e-01 
 7.80000000e-01  3.26356314e-09  3.26420685e-09  4.59888938e-01  4.59888939e-01  3.27291623e-09  3.22569377e-09  3.27511001e-09  1.61499305e-07  1.89168858e-08  7.80000000e-01 
 7.90000000e-01  3.26356326e-09  3.26420685e-09  4.59888922e-01  4.59888922e-01  3.27291623e-09  3.22569377e-09  3.27510990e-09  1.61499266e-07  1.89167793e-08  7.90000000e-01 
 8.00000000e-01  3.26356314e-09  3.26420674e-09  4.59888915e-01  4.59888915e-01  3.27291623e-09  3.22569377e-09  3.27510990e-09  1.61499245e-07  1.89166656e-08  8.00000000e-01 
 8.10000000e-01  3.26356314e-09  3.26420685e-09  4.59888927e-01  4.59888927e-01  3.27291623e-09  3.22569377e-09  3.27511001e-09  1.61499267e-07  1.89167650e-08  8.10000000e-01 
 8.20000000e-01  3.26356314e-09  3.26420685e-09  4.59888919e-01  4.59888919e-01  3.27291623e-09  3.22569377e-09  3.27511001e-09  1.61499265e-07  1.89165377e-08  8.20000000e-01 
 8.30000000e-01  3.26356314e-09  3.26420685e-09  4.59888925e-01  4.59888926e-01  3.27291623e-09  3.22569377e-09  3.27510990e-09  1.61499261e-07  1.89164311e-08  8.30000000e-01 
 8.40000000e-01  3.26356314e-09  3.26420674e-09  4.59888923e-01  4.59888923e-01  3.27291623e-09  3.22569377e-09  3.27511001e-09  1.61499263e-07  1.89165164e-08  8.40000000e-01 
 8.50000000e-01  3.26356314e-09  3.26420674e-09  4.59888920e-01  4.59888920e-01  3.27291623e-09  3.22569377e-09  3.27511001e-09  1.61499271e-07  1.89163600e-08  8.50000000e-01 
 8.60000000e-01  3.26356314e-09  3.26420674e-09  4.59888930e-01  4.59888930e-01  3.27291623e-09  3.22569377e-09  3.27511001e-09  1.61499278e-07  1.89162748e-08  8.60000000e-01 
 8.70000000e-01  3.26356314e-09  3.26420674e-09  4.59888927e-01  4.59888927e-01  3.27291623e-09  3.22569377e-09  3.27510990e-09  1.61499267e-07  1.89163245e-08  8.70000000e-01 
 8.80000000e-01  3.26356314e-09  3.26420685e-09  4.59888912e-01  4.59888912e-01  3.27291623e-09  3.22569377e-09  3.27510990e-09  1.61499253e-07  1.89163316e-08  8.80000000e-01 
 8.90000000e-01  3.26356314e-09  3.26420686e-09  4.59888942e-01  4.59888942e-01  3.27291623e-09  3.22569377e-09  3.27511001e-09  1.61499298e-07  1.89162179e-08  8.90000000e-01 
 9.00000000e-01  3.26356314e-09  3.26420674e-09  4.59888933e-01  4.59888933e-01  3.27291623e-09  3.22569377e-09  3.27511001e-09  1.61499282e-07  1.89162890e-08  9.00000000e-01 
 9.10000000e-01  3.26356326e-09  3.26420685e-09  4.59888932e-01  4.59888932e-01  3.27291623e-09  3.22569377e-09  3.27510990e-09  1.61499296e-07  1.89162179e-08  9.10000000e-01 
 9.20000000e-01  3.26356314e-09  3.26420674e-09  4.59888917e-01  4.59888917e-01  3.27291623e-09  3.22569377e-09  3.27511001e-09  1.61499264e-07  1.89160971e-08  9.20000000e-01 
 9.30000000e-01  3.26356314e-09  3.26420685e-09  4.59888935e-01  4.59888935e-01  3.27291623e-09  3.22569377e-09  3.27511001e-09  1.61499279e-07  1.89161042e-08  9.30000000e-01 
 9.40000000e-01  3.26356314e-09  3.26420685e-09  4.59888929e-01  4.59888929e-01  3.27291623e-09  3.22569377e-09  3.27511001e-09  1.61499277e-07  1.89159621e-08  9.40000000e-01 
 9.50000000e-01  3.26356314e-09  3.26420674e-09  4.59888922e-01  4.59888922e-01  3.27291623e-09  3.22569377e-09  3.27511001e-09  1.61499268e-07  1.89158058e-08  9.50000000e-01 
 9.60000000e-01  3.26356314e-09  3.26420685e-09  4.59888923e-01  4.59888923e-01  3.27291623e-09  3.22569377e-09  3.27511001e-09  1.61499262e-07  1.89159621e-08  9.60000000e-01 
 9.70000000e-01  3.26356314e-09  3.26420674e-09  4.59888935e-01  4.59888935e-01  3.27291623e-09  3.22569377e-09  3.27511001e-09  1.61499285e-07  1.89158627e-08  9.70000000e-01 
 9.80000000e-01  3.26356314e-09  3.26420674e-09  4.59888913e-01  4.59888913e-01  3.27291623e-09  3.22569377e-09  3.27511001e-09  1.61499248e-07  1.89157561e-08  9.80000000e-01 
 9.90000000e-01  3.26356314e-09  3.26420674e-09  4.59888935e-01  4.59888935e-01  3.27291623e-09  3.22569377e-09  3.27511001e-09  1.61499296e-07  1.89157277e-08  9.90000000e-01 
 1.00000000e+00  3.26356314e-09  3.26420685e-09  4.59888939e-01  4.59888939e-01  3.27291623e-09  3.22569377e-09  3.27511001e-09  1.61499290e-07  1.89156069e-08  1.00000000e+00 
 1.01000000e+00  3.26356314e-09  3.26420674e-09  4.59888941e-01  4.59888941e-01  3.27291623e-09  3.22569377e-09  3.27511001e-09  1.61499295e-07  1.89155358e-08  1.01000000e+00 
 1.02000000e+00  3.26356314e-09  3.26420685e-09  4.59888930e-01  4.59888930e-01  3.27291623e-09  3.22569377e-09  3.27510990e-09  1.61499269e-07  1.89154648e-08  1.02000000e+00 
 1.03000000e+00  3.26356314e-09  3.26420685e-09  4.59888927e-01  4.59888927e-01  3.27291623e-09  3.22569377e-09  3.27511001e-09  1.61499271e-07  1.89155216e-08  1.03000000e+00 
 1.04000000e+00  3.26356314e-09  3.26420685e-09  4.59888934e-01  4.59888934e-01  3.27291623e-09  3.22569377e-09  3.27511001e-09  1.61499277e-07  1.89153937e-08  1.04000000e+00 
 1.05000000e+00  3.26356314e-09  3.26420685e-09  4.59888934e-01  4.59888935e-01  3.27291623e-09  3.22569377e-09  3.27511001e-09  1.61499283e-07  1.89153795e-08  1.05000000e+00 
 1.06000000e+00  3.26356314e-09  3.26420674e-09  4.59888918e-01  4.59888918e-01  3.27291623e-09  3.22569377e-09  3.27511001e-09  1.61499256e-07  1.89153226e-08  1.06000000e+00 
 1.07000000e+00  3.26356314e-09  3.26420674e-09  4.59888925e-01  4.59888925e-01  3.27291623e-09  3.22569377e-09  3.27510990e-09  1.61499289e-07  1.89152516e-08  1.07000000e+00 
 1.08000000e+00  3.26356326e-09  3.26420685e-09  4.59888928e-01  4.59888928e-01  3.27291623e-09  3.22569377e-09  3.27511001e-09  1.61499275e-07  1.89151450e-08  1.08000000e+00 
 1.09000000e+00  3.26356314e-09  3.26420685e-09  4.59888927e-01  4.59888927e-01  3.27291623e-09  3.22569377e-09  3.27510990e-09  1.61499285e-07  1.89152374e-08  1.09000000e+00 
 1.10000000e+00  3.26356314e-09  3.26420674e-09  4.59888928e-01  4.59888928e-01  3.27291623e-09  3.22569377e-09  3.27511001e-09  1.61499283e-07  1.89151308e-08  1.10000000e+00 
