 v-sweep         v(b0)           v(b1)           v(b2)           v(b3)           v(b4)           v(b5)           v(b6)           i(vbias)        i(viout)        v(vout)        
 0.00000000e+00  3.32805900e-09  3.23668783e-09  4.58848690e-01  4.58848690e-01  3.42684090e-09  4.58848690e-01  3.19127285e-09  1.61998621e-07  6.87921413e-08  0.00000000e+00 
 1.00000000e-02  3.32805898e-09  3.23668782e-09  4.58848713e-01  4.58848713e-01  3.42684088e-09  4.58848713e-01  3.19127284e-09  1.61998670e-07  6.87917243e-08  1.00000000e-02 
 2.00000000e-02  3.32805898e-09  3.23668782e-09  4.58848703e-01  4.58848703e-01  3.42684088e-09  4.58848703e-01  3.19127284e-09  1.61998644e-07  6.87913566e-08  2.00000000e-02 
 3.00000000e-02  3.32805892e-09  3.23668782e-09  4.58848703e-01  4.58848703e-01  3.42684088e-09  4.58848703e-01  3.19127278e-09  1.61998651e-07  6.87910475e-08  3.00000000e-02 
 4.00000000e-02  3.32805892e-09  3.23668787e-09  4.58848695e-01  4.58848695e-01  3.42684088e-09  4.58848695e-01  3.19127284e-09  1.61998645e-07  6.87906185e-08  4.00000000e-02 
 5.00000000e-02  3.32805898e-09  3.23668786e-09  4.58848697e-01  4.58848697e-01  3.42684088e-09  4.58848697e-01  3.19127278e-09  1.61998640e-07  6.87904067e-08  5.00000000e-02 
 6.00000000e-02  3.32805898e-09  3.23668787e-09  4.58848692e-01  4.58848692e-01  3.42684088e-09  4.58848692e-01  3.19127278e-09  1.61998637e-07  6.87898689e-08  6.00000000e-02 
 7.00000000e-02  3.32805892e-09  3.23668787e-09  4.58848706e-01  4.58848705e-01  3.42684088e-09  4.58848705e-01  3.19127284e-09  1.61998655e-07  6.87896491e-08  7.00000000e-02 
 8.00000000e-02  3.32805892e-09  3.23668781e-09  4.58848702e-01  4.58848702e-01  3.42684088e-09  4.58848702e-01  3.19127278e-09  1.61998644e-07  6.87893227e-08  8.00000000e-02 
 9.00000000e-02  3.32805892e-09  3.23668783e-09  4.58848722e-01  4.58848722e-01  3.42684088e-09  4.58848722e-01  3.19127278e-09  1.61998676e-07  6.87891850e-08  9.00000000e-02 
 1.00000000e-01  3.32805892e-09  3.23668782e-09  4.58848689e-01  4.58848689e-01  3.42684088e-09  4.58848689e-01  3.19127278e-09  1.61998626e-07  6.87888706e-08  1.00000000e-01 
 1.10000000e-01  3.32805892e-09  3.23668787e-09  4.58848703e-01  4.58848703e-01  3.42684088e-09  4.58848703e-01  3.19127284e-09  1.61998658e-07  6.87884958e-08  1.10000000e-01 
 1.20000000e-01  3.32805898e-09  3.23668786e-09  4.58848695e-01  4.58848695e-01  3.42684088e-09  4.58848695e-01  3.19127284e-09  1.61998633e-07  6.87884336e-08  1.20000000e-01 
 1.30000000e-01  3.32805892e-09  3.23668781e-09  4.58848697e-01  4.58848696e-01  3.42684088e-09  4.58848696e-01  3.19127278e-09  1.61998645e-07  6.87880846e-08  1.30000000e-01 
 1.40000000e-01  3.32805898e-09  3.23668782e-09  4.58848700e-01  4.58848700e-01  3.42684088e-09  4.58848700e-01  3.19127284e-09  1.61998641e-07  6.87878696e-08  1.40000000e-01 
 1.50000000e-01  3.32805892e-09  3.23668788e-09  4.58848712e-01  4.58848712e-01  3.42684088e-09  4.58848712e-01  3.19127284e-09  1.61998657e-07  6.87876600e-08  1.50000000e-01 
 1.60000000e-01  3.32805892e-09  3.23668786e-09  4.58848684e-01  4.58848684e-01  3.42684088e-09  4.58848684e-01  3.19127278e-09  1.61998625e-07  6.87874788e-08  1.60000000e-01 
 1.70000000e-01  3.32805892e-09  3.23668787e-09  4.58848679e-01  4.58848679e-01  3.42684088e-09  4.58848679e-01  3.19127284e-09  1.61998625e-07  6.87872230e-08  1.70000000e-01 
 1.80000000e-01  3.32805898e-09  3.23668787e-09  4.58848699e-01  4.58848699e-01  3.42684088e-09  4.58848699e-01  3.19127278e-09  1.61998655e-07  6.87870294e-08  1.80000000e-01 
 1.90000000e-01  3.32805898e-09  3.23668781e-09  4.58848700e-01  4.58848700e-01  3.42684088e-09  4.58848700e-01  3.19127284e-09  1.61998637e-07  6.87868820e-08  1.90000000e-01 
 2.00000000e-01  3.32805898e-09  3.23668782e-09  4.58848706e-01  4.58848706e-01  3.42684088e-09  4.58848706e-01  3.19127284e-09  1.61998652e-07  6.87867807e-08  2.00000000e-01 
 2.10000000e-01  3.32805898e-09  3.23668788e-09  4.58848714e-01  4.58848714e-01  3.42684088e-09  4.58848714e-01  3.19127278e-09  1.61998661e-07  6.87866084e-08  2.10000000e-01 
 2.20000000e-01  3.32805892e-09  3.23668786e-09  4.58848721e-01  4.58848720e-01  3.42684088e-09  4.58848721e-01  3.19127284e-09  1.61998674e-07  6.87865072e-08  2.20000000e-01 
 2.30000000e-01  3.32805898e-09  3.23668781e-09  4.58848695e-01  4.58848695e-01  3.42684088e-09  4.58848695e-01  3.19127278e-09  1.61998647e-07  6.87863899e-08  2.30000000e-01 
 2.40000000e-01  3.32805892e-09  3.23668782e-09  4.58848698e-01  4.58848698e-01  3.42684088e-09  4.58848698e-01  3.19127278e-09  1.61998645e-07  6.87862656e-08  2.40000000e-01 
 2.50000000e-01  3.32805892e-09  3.23668787e-09  4.58848701e-01  4.58848701e-01  3.42684088e-09  4.58848701e-01  3.19127278e-09  1.61998647e-07  6.87860275e-08  2.50000000e-01 
 2.60000000e-01  3.32805898e-09  3.23668786e-09  4.58848695e-01  4.58848695e-01  3.42684088e-09  4.58848695e-01  3.19127284e-09  1.61998636e-07  6.87858837e-08  2.60000000e-01 
 2.70000000e-01  3.32805892e-09  3.23668787e-09  4.58848708e-01  4.58848708e-01  3.42684088e-09  4.58848708e-01  3.19127284e-09  1.61998655e-07  6.87858197e-08  2.70000000e-01 
 2.80000000e-01  3.32805892e-09  3.23668787e-09  4.58848696e-01  4.58848696e-01  3.42684088e-09  4.58848696e-01  3.19127284e-09  1.61998629e-07  6.87856279e-08  2.80000000e-01 
 2.90000000e-01  3.32805898e-09  3.23668787e-09  4.58848711e-01  4.58848711e-01  3.42684088e-09  4.58848711e-01  3.19127284e-09  1.61998661e-07  6.87855675e-08  2.90000000e-01 
 3.00000000e-01  3.32805898e-09  3.23668781e-09  4.58848707e-01  4.58848707e-01  3.42684088e-09  4.58848707e-01  3.19127278e-09  1.61998647e-07  6.87853721e-08  3.00000000e-01 
 3.10000000e-01  3.32805898e-09  3.23668788e-09  4.58848700e-01  4.58848700e-01  3.42684088e-09  4.58848700e-01  3.19127278e-09  1.61998632e-07  6.87852548e-08  3.10000000e-01 
 3.20000000e-01  3.32805898e-09  3.23668786e-09  4.58848699e-01  4.58848699e-01  3.42684088e-09  4.58848699e-01  3.19127278e-09  1.61998639e-07  6.87852690e-08  3.20000000e-01 
 3.30000000e-01  3.32805898e-09  3.23668781e-09  4.58848699e-01  4.58848699e-01  3.42684088e-09  4.58848699e-01  3.19127284e-09  1.61998638e-07  6.87850843e-08  3.30000000e-01 
 3.40000000e-01  3.32805892e-09  3.23668782e-09  4.58848695e-01  4.58848695e-01  3.42684088e-09  4.58848695e-01  3.19127278e-09  1.61998642e-07  6.87850843e-08  3.40000000e-01 
 3.50000000e-01  3.32805893e-09  3.23668782e-09  4.58848726e-01  4.58848726e-01  3.42684088e-09  4.58848726e-01  3.19127278e-09  1.61998674e-07  6.87850630e-08  3.50000000e-01 
 3.60000000e-01  3.32805892e-09  3.23668787e-09  4.58848709e-01  4.58848709e-01  3.42684088e-09  4.58848709e-01  3.19127278e-09  1.61998645e-07  6.87848427e-08  3.60000000e-01 
 3.70000000e-01  3.32805898e-09  3.23668786e-09  4.58848694e-01  4.58848693e-01  3.42684088e-09  4.58848693e-01  3.19127278e-09  1.61998633e-07  6.87847965e-08  3.70000000e-01 
 3.80000000e-01  3.32805892e-09  3.23668786e-09  4.58848675e-01  4.58848675e-01  3.42684088e-09  4.58848675e-01  3.19127278e-09  1.61998606e-07  6.87844981e-08  3.80000000e-01 
 3.90000000e-01  3.32805892e-09  3.23668787e-09  4.58848705e-01  4.58848705e-01  3.42684088e-09  4.58848705e-01  3.19127284e-09  1.61998659e-07  6.87845407e-08  3.90000000e-01 
 4.00000000e-01  3.32805898e-09  3.23668781e-09  4.58848694e-01  4.58848694e-01  3.42684088e-09  4.58848694e-01  3.19127284e-09  1.61998621e-07  6.87844910e-08  4.00000000e-01 
 4.10000000e-01  3.32805898e-09  3.23668782e-09  4.58848695e-01  4.58848695e-01  3.42684088e-09  4.58848695e-01  3.19127278e-09  1.61998654e-07  6.87844270e-08  4.10000000e-01 
 4.20000000e-01  3.32805898e-09  3.23668787e-09  4.58848711e-01  4.58848711e-01  3.42684088e-09  4.58848711e-01  3.19127284e-09  1.61998657e-07  6.87844270e-08  4.20000000e-01 
 4.30000000e-01  3.32805898e-09  3.23668786e-09  4.58848695e-01  4.58848695e-01  3.42684088e-09  4.58848695e-01  3.19127278e-09  1.61998625e-07  6.87841712e-08  4.30000000e-01 
 4.40000000e-01  3.32805892e-09  3.23668781e-09  4.58848695e-01  4.58848695e-01  3.42684088e-09  4.58848695e-01  3.19127278e-09  1.61998642e-07  6.87841393e-08  4.40000000e-01 
 4.50000000e-01  3.32805898e-09  3.23668782e-09  4.58848694e-01  4.58848694e-01  3.42684088e-09  4.58848694e-01  3.19127284e-09  1.61998637e-07  6.87840540e-08  4.50000000e-01 
 4.60000000e-01  3.32805892e-09  3.23668787e-09  4.58848689e-01  4.58848689e-01  3.42684088e-09  4.58848689e-01  3.19127278e-09  1.61998632e-07  6.87839616e-08  4.60000000e-01 
 4.70000000e-01  3.32805898e-09  3.23668780e-09  4.58848697e-01  4.58848697e-01  3.42684088e-09  4.58848697e-01  3.19127278e-09  1.61998645e-07  6.87838835e-08  4.70000000e-01 
 4.80000000e-01  3.32805898e-09  3.23668782e-09  4.58848697e-01  4.58848697e-01  3.42684088e-09  4.58848697e-01  3.19127284e-09  1.61998637e-07  6.87839261e-08  4.80000000e-01 
 4.90000000e-01  3.32805893e-09  3.23668782e-09  4.58848727e-01  4.58848727e-01  3.42684088e-09  4.58848727e-01  3.19127278e-09  1.61998683e-07  6.87838053e-08  4.90000000e-01 
 5.00000000e-01  3.32805898e-09  3.23668787e-09  4.58848708e-01  4.58848708e-01  3.42684088e-09  4.58848708e-01  3.19127284e-09  1.61998641e-07  6.87837520e-08  5.00000000e-01 
 5.10000000e-01  3.32805898e-09  3.23668786e-09  4.58848717e-01  4.58848717e-01  3.42684088e-09  4.58848717e-01  3.19127278e-09  1.61998668e-07  6.87836241e-08  5.10000000e-01 
 5.20000000e-01  3.32805892e-09  3.23668787e-09  4.58848687e-01  4.58848687e-01  3.42684088e-09  4.58848687e-01  3.19127284e-09  1.61998635e-07  6.87835104e-08  5.20000000e-01 
 5.30000000e-01  3.32805898e-09  3.23668787e-09  4.58848700e-01  4.58848700e-01  3.42684088e-09  4.58848700e-01  3.19127284e-09  1.61998663e-07  6.87836099e-08  5.30000000e-01 
 5.40000000e-01  3.32805898e-09  3.23668781e-09  4.58848702e-01  4.58848702e-01  3.42684088e-09  4.58848702e-01  3.19127278e-09  1.61998636e-07  6.87834678e-08  5.40000000e-01 
 5.50000000e-01  3.32805898e-09  3.23668788e-09  4.58848685e-01  4.58848685e-01  3.42684088e-09  4.58848685e-01  3.19127284e-09  1.61998643e-07  6.87833470e-08  5.50000000e-01 
 5.60000000e-01  3.32805898e-09  3.23668786e-09  4.58848684e-01  4.58848684e-01  3.42684088e-09  4.58848684e-01  3.19127284e-09  1.61998619e-07  6.87832262e-08  5.60000000e-01 
 5.70000000e-01  3.32805898e-09  3.23668781e-09  4.58848706e-01  4.58848706e-01  3.42684088e-09  4.58848706e-01  3.19127284e-09  1.61998656e-07  6.87833044e-08  5.70000000e-01 
 5.80000000e-01  3.32805892e-09  3.23668782e-09  4.58848696e-01  4.58848696e-01  3.42684088e-09  4.58848696e-01  3.19127284e-09  1.61998634e-07  6.87831445e-08  5.80000000e-01 
 5.90000000e-01  3.32805892e-09  3.23668782e-09  4.58848699e-01  4.58848699e-01  3.42684088e-09  4.58848699e-01  3.19127284e-09  1.61998652e-07  6.87830948e-08  5.90000000e-01 
 6.00000000e-01  3.32805892e-09  3.23668781e-09  4.58848685e-01  4.58848685e-01  3.42684088e-09  4.58848685e-01  3.19127278e-09  1.61998626e-07  6.87829882e-08  6.00000000e-01 
 6.10000000e-01  3.32805892e-09  3.23668787e-09  4.58848697e-01  4.58848697e-01  3.42684088e-09  4.58848697e-01  3.19127278e-09  1.61998647e-07  6.87830024e-08  6.10000000e-01 
 6.20000000e-01  3.32805898e-09  3.23668786e-09  4.58848681e-01  4.58848681e-01  3.42684088e-09  4.58848681e-01  3.19127278e-09  1.61998621e-07  6.87829242e-08  6.20000000e-01 
 6.30000000e-01  3.32805897e-09  3.23668781e-09  4.58848671e-01  4.58848671e-01  3.42684088e-09  4.58848671e-01  3.19127278e-09  1.61998605e-07  6.87828035e-08  6.30000000e-01 
 6.40000000e-01  3.32805898e-09  3.23668788e-09  4.58848683e-01  4.58848683e-01  3.42684088e-09  4.58848683e-01  3.19127284e-09  1.61998627e-07  6.87828887e-08  6.40000000e-01 
 6.50000000e-01  3.32805898e-09  3.23668786e-09  4.58848693e-01  4.58848693e-01  3.42684088e-09  4.58848693e-01  3.19127284e-09  1.61998635e-07  6.87827537e-08  6.50000000e-01 
 6.60000000e-01  3.32805892e-09  3.23668781e-09  4.58848712e-01  4.58848712e-01  3.42684088e-09  4.58848712e-01  3.19127278e-09  1.61998657e-07  6.87827608e-08  6.60000000e-01 
 6.70000000e-01  3.32805892e-09  3.23668782e-09  4.58848705e-01  4.58848705e-01  3.42684088e-09  4.58848705e-01  3.19127284e-09  1.61998652e-07  6.87826542e-08  6.70000000e-01 
 6.80000000e-01  3.32805898e-09  3.23668787e-09  4.58848696e-01  4.58848696e-01  3.42684088e-09  4.58848696e-01  3.19127284e-09  1.61998634e-07  6.87825903e-08  6.80000000e-01 
 6.90000000e-01  3.32805892e-09  3.23668781e-09  4.58848706e-01  4.58848706e-01  3.42684088e-09  4.58848706e-01  3.19127278e-09  1.61998651e-07  6.87826400e-08  6.90000000e-01 
 7.00000000e-01  3.32805898e-09  3.23668782e-09  4.58848697e-01  4.58848697e-01  3.42684088e-09  4.58848697e-01  3.19127278e-09  1.61998642e-07  6.87824127e-08  7.00000000e-01 
 7.10000000e-01  3.32805898e-09  3.23668781e-09  4.58848680e-01  4.58848679e-01  3.42684088e-09  4.58848679e-01  3.19127278e-09  1.61998609e-07  6.87822848e-08  7.10000000e-01 
 7.20000000e-01  3.32805892e-09  3.23668787e-09  4.58848677e-01  4.58848677e-01  3.42684088e-09  4.58848677e-01  3.19127278e-09  1.61998610e-07  6.87823061e-08  7.20000000e-01 
 7.30000000e-01  3.32805892e-09  3.23668780e-09  4.58848705e-01  4.58848704e-01  3.42684088e-09  4.58848704e-01  3.19127284e-09  1.61998661e-07  6.87822990e-08  7.30000000e-01 
 7.40000000e-01  3.32805892e-09  3.23668788e-09  4.58848714e-01  4.58848713e-01  3.42684088e-09  4.58848714e-01  3.19127284e-09  1.61998663e-07  6.87820929e-08  7.40000000e-01 
 7.50000000e-01  3.32805892e-09  3.23668781e-09  4.58848713e-01  4.58848713e-01  3.42684088e-09  4.58848713e-01  3.19127284e-09  1.61998661e-07  6.87820574e-08  7.50000000e-01 
 7.60000000e-01  3.32805898e-09  3.23668782e-09  4.58848696e-01  4.58848696e-01  3.42684088e-09  4.58848696e-01  3.19127284e-09  1.61998614e-07  6.87820645e-08  7.60000000e-01 
 7.70000000e-01  3.32805898e-09  3.23668782e-09  4.58848701e-01  4.58848701e-01  3.42684088e-09  4.58848701e-01  3.19127284e-09  1.61998648e-07  6.87819650e-08  7.70000000e-01 
 7.80000000e-01  3.32805892e-09  3.23668787e-09  4.58848679e-01  4.58848679e-01  3.42684088e-09  4.58848679e-01  3.19127284e-09  1.61998610e-07  6.87817874e-08  7.80000000e-01 
 7.90000000e-01  3.32805898e-09  3.23668786e-09  4.58848694e-01  4.58848694e-01  3.42684088e-09  4.58848694e-01  3.19127278e-09  1.61998629e-07  6.87818655e-08  7.90000000e-01 
 8.00000000e-01  3.32805892e-09  3.23668787e-09  4.58848706e-01  4.58848706e-01  3.42684088e-09  4.58848706e-01  3.19127278e-09  1.61998636e-07  6.87817447e-08  8.00000000e-01 
 8.10000000e-01  3.32805898e-09  3.23668787e-09  4.58848714e-01  4.58848714e-01  3.42684088e-09  4.58848714e-01  3.19127284e-09  1.61998668e-07  6.87818513e-08  8.10000000e-01 
 8.20000000e-01  3.32805892e-09  3.23668781e-09  4.58848682e-01  4.58848682e-01  3.42684088e-09  4.58848682e-01  3.19127278e-09  1.61998611e-07  6.87816524e-08  8.20000000e-01 
 8.30000000e-01  3.32805898e-09  3.23668788e-09  4.58848685e-01  4.58848684e-01  3.42684088e-09  4.58848684e-01  3.19127278e-09  1.61998625e-07  6.87816382e-08  8.30000000e-01 
 8.40000000e-01  3.32805892e-09  3.23668780e-09  4.58848691e-01  4.58848691e-01  3.42684088e-09  4.58848691e-01  3.19127278e-09  1.61998650e-07  6.87815813e-08  8.40000000e-01 
 8.50000000e-01  3.32805898e-09  3.23668782e-09  4.58848694e-01  4.58848694e-01  3.42684088e-09  4.58848694e-01  3.19127284e-09  1.61998634e-07  6.87815529e-08  8.50000000e-01 
 8.60000000e-01  3.32805892e-09  3.23668782e-09  4.58848708e-01  4.58848708e-01  3.42684088e-09  4.58848708e-01  3.19127284e-09  1.61998644e-07  6.87814534e-08  8.60000000e-01 
 8.70000000e-01  3.32805898e-09  3.23668782e-09  4.58848689e-01  4.58848689e-01  3.42684088e-09  4.58848689e-01  3.19127284e-09  1.61998614e-07  6.87813468e-08  8.70000000e-01 
 8.80000000e-01  3.32805898e-09  3.23668787e-09  4.58848703e-01  4.58848703e-01  3.42684088e-09  4.58848703e-01  3.19127284e-09  1.61998661e-07  6.87813326e-08  8.80000000e-01 
 8.90000000e-01  3.32805898e-09  3.23668780e-09  4.58848687e-01  4.58848687e-01  3.42684088e-09  4.58848687e-01  3.19127284e-09  1.61998623e-07  6.87812545e-08  8.90000000e-01 
 9.00000000e-01  3.32805898e-09  3.23668788e-09  4.58848704e-01  4.58848704e-01  3.42684088e-09  4.58848704e-01  3.19127278e-09  1.61998658e-07  6.87811195e-08  9.00000000e-01 
 9.10000000e-01  3.32805892e-09  3.23668786e-09  4.58848703e-01  4.58848703e-01  3.42684088e-09  4.58848703e-01  3.19127278e-09  1.61998650e-07  6.87812332e-08  9.10000000e-01 
 9.20000000e-01  3.32805898e-09  3.23668781e-09  4.58848712e-01  4.58848712e-01  3.42684088e-09  4.58848712e-01  3.19127284e-09  1.61998663e-07  6.87810839e-08  9.20000000e-01 
 9.30000000e-01  3.32805892e-09  3.23668788e-09  4.58848704e-01  4.58848704e-01  3.42684088e-09  4.58848704e-01  3.19127284e-09  1.61998649e-07  6.87810413e-08  9.30000000e-01 
 9.40000000e-01  3.32805898e-09  3.23668781e-09  4.58848720e-01  4.58848720e-01  3.42684088e-09  4.58848720e-01  3.19127284e-09  1.61998672e-07  6.87809063e-08  9.40000000e-01 
 9.50000000e-01  3.32805892e-09  3.23668788e-09  4.58848685e-01  4.58848685e-01  3.42684088e-09  4.58848685e-01  3.19127278e-09  1.61998613e-07  6.87806576e-08  9.50000000e-01 
 9.60000000e-01  3.32805898e-09  3.23668786e-09  4.58848703e-01  4.58848703e-01  3.42684088e-09  4.58848703e-01  3.19127278e-09  1.61998661e-07  6.87807713e-08  9.60000000e-01 
 9.70000000e-01  3.32805898e-09  3.23668787e-09  4.58848698e-01  4.58848698e-01  3.42684088e-09  4.58848698e-01  3.19127284e-09  1.61998638e-07  6.87807358e-08  9.70000000e-01 
 9.80000000e-01  3.32805892e-09  3.23668781e-09  4.58848673e-01  4.58848672e-01  3.42684088e-09  4.58848672e-01  3.19127278e-09  1.61998604e-07  6.87806860e-08  9.80000000e-01 
 9.90000000e-01  3.32805892e-09  3.23668782e-09  4.58848708e-01  4.58848708e-01  3.42684088e-09  4.58848708e-01  3.19127284e-09  1.61998662e-07  6.87804942e-08  9.90000000e-01 
 1.00000000e+00  3.32805892e-09  3.23668782e-09  4.58848702e-01  4.58848702e-01  3.42684088e-09  4.58848702e-01  3.19127284e-09  1.61998643e-07  6.87803521e-08  1.00000000e+00 
 1.01000000e+00  3.32805892e-09  3.23668782e-09  4.58848704e-01  4.58848704e-01  3.42684088e-09  4.58848704e-01  3.19127278e-09  1.61998647e-07  6.87804516e-08  1.01000000e+00 
 1.02000000e+00  3.32805898e-09  3.23668782e-09  4.58848690e-01  4.58848690e-01  3.42684088e-09  4.58848690e-01  3.19127284e-09  1.61998622e-07  6.87803023e-08  1.02000000e+00 
 1.03000000e+00  3.32805892e-09  3.23668782e-09  4.58848697e-01  4.58848697e-01  3.42684088e-09  4.58848697e-01  3.19127278e-09  1.61998641e-07  6.87801816e-08  1.03000000e+00 
 1.04000000e+00  3.32805898e-09  3.23668782e-09  4.58848700e-01  4.58848700e-01  3.42684088e-09  4.58848700e-01  3.19127278e-09  1.61998643e-07  6.87802029e-08  1.04000000e+00 
 1.05000000e+00  3.32805898e-09  3.23668787e-09  4.58848696e-01  4.58848696e-01  3.42684088e-09  4.58848696e-01  3.19127278e-09  1.61998636e-07  6.87800963e-08  1.05000000e+00 
 1.06000000e+00  3.32805892e-09  3.23668781e-09  4.58848712e-01  4.58848712e-01  3.42684088e-09  4.58848712e-01  3.19127278e-09  1.61998673e-07  6.87800750e-08  1.06000000e+00 
 1.07000000e+00  3.32805898e-09  3.23668782e-09  4.58848691e-01  4.58848691e-01  3.42684088e-09  4.58848691e-01  3.19127278e-09  1.61998632e-07  6.87799826e-08  1.07000000e+00 
 1.08000000e+00  3.32805898e-09  3.23668787e-09  4.58848708e-01  4.58848708e-01  3.42684088e-09  4.58848708e-01  3.19127284e-09  1.61998659e-07  6.87798547e-08  1.08000000e+00 
 1.09000000e+00  3.32805898e-09  3.23668781e-09  4.58848708e-01  4.58848708e-01  3.42684088e-09  4.58848708e-01  3.19127284e-09  1.61998664e-07  6.87798760e-08  1.09000000e+00 
 1.10000000e+00  3.32805898e-09  3.23668782e-09  4.58848714e-01  4.58848714e-01  3.42684088e-09  4.58848714e-01  3.19127284e-09  1.61998664e-07  6.87797765e-08  1.10000000e+00 
