 v-sweep         v(b0)           v(b1)           v(b2)           v(b3)           v(b4)           v(b5)           v(b6)           i(vbias)        i(viout)        v(vout)        
 0.00000000e+00  4.59441130e-01  3.21047525e-09  4.59441130e-01  4.59441130e-01  4.59441130e-01  3.51204968e-09  3.25512400e-09  1.63045037e-07  4.57335525e-08  0.00000000e+00 
 1.00000000e-02  4.59441165e-01  3.21047529e-09  4.59441165e-01  4.59441165e-01  4.59441165e-01  3.51204972e-09  3.25512399e-09  1.63045094e-07  4.57331693e-08  1.00000000e-02 
 2.00000000e-02  4.59441149e-01  3.21047522e-09  4.59441149e-01  4.59441149e-01  4.59441149e-01  3.51204966e-09  3.25512404e-09  1.63045073e-07  4.57327407e-08  2.00000000e-02 
 3.00000000e-02  4.59441165e-01  3.21047524e-09  4.59441165e-01  4.59441165e-01  4.59441165e-01  3.51204966e-09  3.25512399e-09  1.63045090e-07  4.57323834e-08  3.00000000e-02 
 4.00000000e-02  4.59441134e-01  3.21047523e-09  4.59441134e-01  4.59441134e-01  4.59441134e-01  3.51204966e-09  3.25512398e-09  1.63045057e-07  4.57320630e-08  4.00000000e-02 
 5.00000000e-02  4.59441143e-01  3.21047523e-09  4.59441143e-01  4.59441143e-01  4.59441143e-01  3.51204966e-09  3.25512404e-09  1.63045054e-07  4.57316514e-08  5.00000000e-02 
 6.00000000e-02  4.59441153e-01  3.21047529e-09  4.59441153e-01  4.59441153e-01  4.59441153e-01  3.51204966e-09  3.25512404e-09  1.63045071e-07  4.57313800e-08  6.00000000e-02 
 7.00000000e-02  4.59441143e-01  3.21047528e-09  4.59441143e-01  4.59441143e-01  4.59441143e-01  3.51204966e-09  3.25512404e-09  1.63045055e-07  4.57310558e-08  7.00000000e-02 
 8.00000000e-02  4.59441144e-01  3.21047528e-09  4.59441144e-01  4.59441144e-01  4.59441144e-01  3.51204966e-09  3.25512404e-09  1.63045056e-07  4.57307978e-08  8.00000000e-02 
 9.00000000e-02  4.59441147e-01  3.21047528e-09  4.59441147e-01  4.59441147e-01  4.59441147e-01  3.51204966e-09  3.25512404e-09  1.63045058e-07  4.57305189e-08  9.00000000e-02 
 1.00000000e-01  4.59441163e-01  3.21047523e-09  4.59441163e-01  4.59441163e-01  4.59441163e-01  3.51204972e-09  3.25512399e-09  1.63045086e-07  4.57302392e-08  1.00000000e-01 
 1.10000000e-01  4.59441160e-01  3.21047530e-09  4.59441160e-01  4.59441160e-01  4.59441160e-01  3.51204966e-09  3.25512399e-09  1.63045091e-07  4.57299807e-08  1.10000000e-01 
 1.20000000e-01  4.59441125e-01  3.21047528e-09  4.59441125e-01  4.59441125e-01  4.59441125e-01  3.51204966e-09  3.25512404e-09  1.63045036e-07  4.57297391e-08  1.20000000e-01 
 1.30000000e-01  4.59441137e-01  3.21047523e-09  4.59441137e-01  4.59441137e-01  4.59441137e-01  3.51204966e-09  3.25512404e-09  1.63045064e-07  4.57295863e-08  1.30000000e-01 
 1.40000000e-01  4.59441133e-01  3.21047529e-09  4.59441133e-01  4.59441133e-01  4.59441133e-01  3.51204972e-09  3.25512404e-09  1.63045033e-07  4.57294060e-08  1.40000000e-01 
 1.50000000e-01  4.59441168e-01  3.21047528e-09  4.59441168e-01  4.59441168e-01  4.59441168e-01  3.51204966e-09  3.25512404e-09  1.63045089e-07  4.57292249e-08  1.50000000e-01 
 1.60000000e-01  4.59441143e-01  3.21047528e-09  4.59441143e-01  4.59441143e-01  4.59441143e-01  3.51204966e-09  3.25512398e-09  1.63045066e-07  4.57288571e-08  1.60000000e-01 
 1.70000000e-01  4.59441143e-01  3.21047523e-09  4.59441143e-01  4.59441143e-01  4.59441143e-01  3.51204966e-09  3.25512404e-09  1.63045070e-07  4.57287097e-08  1.70000000e-01 
 1.80000000e-01  4.59441160e-01  3.21047530e-09  4.59441160e-01  4.59441160e-01  4.59441160e-01  3.51204972e-09  3.25512404e-09  1.63045091e-07  4.57286067e-08  1.80000000e-01 
 1.90000000e-01  4.59441147e-01  3.21047522e-09  4.59441147e-01  4.59441147e-01  4.59441147e-01  3.51204972e-09  3.25512404e-09  1.63045066e-07  4.57284681e-08  1.90000000e-01 
 2.00000000e-01  4.59441130e-01  3.21047524e-09  4.59441130e-01  4.59441130e-01  4.59441130e-01  3.51204972e-09  3.25512398e-09  1.63045041e-07  4.57282781e-08  2.00000000e-01 
 2.10000000e-01  4.59441130e-01  3.21047529e-09  4.59441130e-01  4.59441130e-01  4.59441130e-01  3.51204972e-09  3.25512404e-09  1.63045052e-07  4.57281342e-08  2.10000000e-01 
 2.20000000e-01  4.59441155e-01  3.21047522e-09  4.59441155e-01  4.59441155e-01  4.59441155e-01  3.51204966e-09  3.25512404e-09  1.63045080e-07  4.57279423e-08  2.20000000e-01 
 2.30000000e-01  4.59441137e-01  3.21047524e-09  4.59441137e-01  4.59441137e-01  4.59441137e-01  3.51204972e-09  3.25512404e-09  1.63045058e-07  4.57277860e-08  2.30000000e-01 
 2.40000000e-01  4.59441128e-01  3.21047529e-09  4.59441128e-01  4.59441128e-01  4.59441128e-01  3.51204966e-09  3.25512404e-09  1.63045038e-07  4.57277025e-08  2.40000000e-01 
 2.50000000e-01  4.59441143e-01  3.21047522e-09  4.59441143e-01  4.59441143e-01  4.59441143e-01  3.51204966e-09  3.25512398e-09  1.63045057e-07  4.57274858e-08  2.50000000e-01 
 2.60000000e-01  4.59441136e-01  3.21047529e-09  4.59441136e-01  4.59441136e-01  4.59441136e-01  3.51204972e-09  3.25512398e-09  1.63045057e-07  4.57273686e-08  2.60000000e-01 
 2.70000000e-01  4.59441141e-01  3.21047522e-09  4.59441141e-01  4.59441141e-01  4.59441141e-01  3.51204972e-09  3.25512404e-09  1.63045064e-07  4.57272158e-08  2.70000000e-01 
 2.80000000e-01  4.59441136e-01  3.21047524e-09  4.59441136e-01  4.59441136e-01  4.59441136e-01  3.51204972e-09  3.25512404e-09  1.63045044e-07  4.57273170e-08  2.80000000e-01 
 2.90000000e-01  4.59441171e-01  3.21047523e-09  4.59441171e-01  4.59441171e-01  4.59441171e-01  3.51204972e-09  3.25512404e-09  1.63045090e-07  4.57271518e-08  2.90000000e-01 
 3.00000000e-01  4.59441167e-01  3.21047523e-09  4.59441167e-01  4.59441167e-01  4.59441167e-01  3.51204972e-09  3.25512399e-09  1.63045097e-07  4.57270346e-08  3.00000000e-01 
 3.10000000e-01  4.59441136e-01  3.21047523e-09  4.59441136e-01  4.59441136e-01  4.59441136e-01  3.51204972e-09  3.25512404e-09  1.63045053e-07  4.57268960e-08  3.10000000e-01 
 3.20000000e-01  4.59441156e-01  3.21047529e-09  4.59441156e-01  4.59441156e-01  4.59441156e-01  3.51204972e-09  3.25512404e-09  1.63045093e-07  4.57268214e-08  3.20000000e-01 
 3.30000000e-01  4.59441139e-01  3.21047528e-09  4.59441139e-01  4.59441139e-01  4.59441139e-01  3.51204966e-09  3.25512398e-09  1.63045040e-07  4.57267717e-08  3.30000000e-01 
 3.40000000e-01  4.59441151e-01  3.21047528e-09  4.59441151e-01  4.59441151e-01  4.59441151e-01  3.51204966e-09  3.25512404e-09  1.63045078e-07  4.57266331e-08  3.40000000e-01 
 3.50000000e-01  4.59441151e-01  3.21047523e-09  4.59441151e-01  4.59441151e-01  4.59441151e-01  3.51204972e-09  3.25512404e-09  1.63045077e-07  4.57265195e-08  3.50000000e-01 
 3.60000000e-01  4.59441167e-01  3.21047524e-09  4.59441167e-01  4.59441167e-01  4.59441167e-01  3.51204966e-09  3.25512404e-09  1.63045108e-07  4.57264058e-08  3.60000000e-01 
 3.70000000e-01  4.59441147e-01  3.21047529e-09  4.59441147e-01  4.59441147e-01  4.59441147e-01  3.51204972e-09  3.25512404e-09  1.63045064e-07  4.57263702e-08  3.70000000e-01 
 3.80000000e-01  4.59441157e-01  3.21047528e-09  4.59441157e-01  4.59441157e-01  4.59441157e-01  3.51204972e-09  3.25512404e-09  1.63045090e-07  4.57263667e-08  3.80000000e-01 
 3.90000000e-01  4.59441161e-01  3.21047528e-09  4.59441161e-01  4.59441161e-01  4.59441161e-01  3.51204972e-09  3.25512399e-09  1.63045085e-07  4.57262281e-08  3.90000000e-01 
 4.00000000e-01  4.59441151e-01  3.21047523e-09  4.59441151e-01  4.59441151e-01  4.59441151e-01  3.51204966e-09  3.25512404e-09  1.63045076e-07  4.57261216e-08  4.00000000e-01 
 4.10000000e-01  4.59441142e-01  3.21047524e-09  4.59441142e-01  4.59441142e-01  4.59441142e-01  3.51204966e-09  3.25512398e-09  1.63045068e-07  4.57259297e-08  4.10000000e-01 
 4.20000000e-01  4.59441167e-01  3.21047523e-09  4.59441167e-01  4.59441167e-01  4.59441167e-01  3.51204972e-09  3.25512399e-09  1.63045104e-07  4.57259155e-08  4.20000000e-01 
 4.30000000e-01  4.59441147e-01  3.21047529e-09  4.59441147e-01  4.59441147e-01  4.59441147e-01  3.51204972e-09  3.25512404e-09  1.63045059e-07  4.57258160e-08  4.30000000e-01 
 4.40000000e-01  4.59441152e-01  3.21047528e-09  4.59441152e-01  4.59441152e-01  4.59441152e-01  3.51204972e-09  3.25512404e-09  1.63045085e-07  4.57257734e-08  4.40000000e-01 
 4.50000000e-01  4.59441134e-01  3.21047528e-09  4.59441134e-01  4.59441134e-01  4.59441134e-01  3.51204966e-09  3.25512404e-09  1.63045061e-07  4.57256526e-08  4.50000000e-01 
 4.60000000e-01  4.59441169e-01  3.21047523e-09  4.59441169e-01  4.59441169e-01  4.59441169e-01  3.51204972e-09  3.25512399e-09  1.63045103e-07  4.57257379e-08  4.60000000e-01 
 4.70000000e-01  4.59441172e-01  3.21047524e-09  4.59441172e-01  4.59441172e-01  4.59441172e-01  3.51204972e-09  3.25512404e-09  1.63045114e-07  4.57255958e-08  4.70000000e-01 
 4.80000000e-01  4.59441176e-01  3.21047523e-09  4.59441176e-01  4.59441176e-01  4.59441176e-01  3.51204966e-09  3.25512404e-09  1.63045102e-07  4.57255922e-08  4.80000000e-01 
 4.90000000e-01  4.59441152e-01  3.21047523e-09  4.59441152e-01  4.59441152e-01  4.59441152e-01  3.51204966e-09  3.25512399e-09  1.63045076e-07  4.57254750e-08  4.90000000e-01 
 5.00000000e-01  4.59441141e-01  3.21047529e-09  4.59441140e-01  4.59441141e-01  4.59441140e-01  3.51204972e-09  3.25512404e-09  1.63045074e-07  4.57252973e-08  5.00000000e-01 
 5.10000000e-01  4.59441147e-01  3.21047522e-09  4.59441147e-01  4.59441147e-01  4.59441147e-01  3.51204972e-09  3.25512399e-09  1.63045069e-07  4.57253435e-08  5.10000000e-01 
 5.20000000e-01  4.59441148e-01  3.21047524e-09  4.59441148e-01  4.59441148e-01  4.59441148e-01  3.51204966e-09  3.25512404e-09  1.63045074e-07  4.57253080e-08  5.20000000e-01 
 5.30000000e-01  4.59441166e-01  3.21047529e-09  4.59441166e-01  4.59441166e-01  4.59441166e-01  3.51204966e-09  3.25512404e-09  1.63045102e-07  4.57253257e-08  5.30000000e-01 
 5.40000000e-01  4.59441157e-01  3.21047528e-09  4.59441157e-01  4.59441157e-01  4.59441157e-01  3.51204966e-09  3.25512404e-09  1.63045077e-07  4.57252654e-08  5.40000000e-01 
 5.50000000e-01  4.59441131e-01  3.21047528e-09  4.59441131e-01  4.59441131e-01  4.59441131e-01  3.51204972e-09  3.25512398e-09  1.63045037e-07  4.57250167e-08  5.50000000e-01 
 5.60000000e-01  4.59441172e-01  3.21047528e-09  4.59441172e-01  4.59441172e-01  4.59441172e-01  3.51204972e-09  3.25512404e-09  1.63045111e-07  4.57250664e-08  5.60000000e-01 
 5.70000000e-01  4.59441147e-01  3.21047523e-09  4.59441147e-01  4.59441147e-01  4.59441147e-01  3.51204972e-09  3.25512404e-09  1.63045068e-07  4.57249385e-08  5.70000000e-01 
 5.80000000e-01  4.59441152e-01  3.21047524e-09  4.59441152e-01  4.59441152e-01  4.59441152e-01  3.51204966e-09  3.25512404e-09  1.63045061e-07  4.57248177e-08  5.80000000e-01 
 5.90000000e-01  4.59441135e-01  3.21047523e-09  4.59441135e-01  4.59441135e-01  4.59441135e-01  3.51204972e-09  3.25512398e-09  1.63045039e-07  4.57249527e-08  5.90000000e-01 
 6.00000000e-01  4.59441142e-01  3.21047523e-09  4.59441142e-01  4.59441142e-01  4.59441142e-01  3.51204966e-09  3.25512398e-09  1.63045067e-07  4.57248106e-08  6.00000000e-01 
 6.10000000e-01  4.59441163e-01  3.21047529e-09  4.59441163e-01  4.59441163e-01  4.59441163e-01  3.51204966e-09  3.25512399e-09  1.63045090e-07  4.57247609e-08  6.10000000e-01 
 6.20000000e-01  4.59441151e-01  3.21047522e-09  4.59441151e-01  4.59441151e-01  4.59441151e-01  3.51204972e-09  3.25512404e-09  1.63045062e-07  4.57247253e-08  6.20000000e-01 
 6.30000000e-01  4.59441155e-01  3.21047524e-09  4.59441155e-01  4.59441155e-01  4.59441155e-01  3.51204966e-09  3.25512404e-09  1.63045076e-07  4.57245832e-08  6.30000000e-01 
 6.40000000e-01  4.59441133e-01  3.21047523e-09  4.59441133e-01  4.59441133e-01  4.59441133e-01  3.51204966e-09  3.25512404e-09  1.63045039e-07  4.57245903e-08  6.40000000e-01 
 6.50000000e-01  4.59441156e-01  3.21047523e-09  4.59441156e-01  4.59441156e-01  4.59441156e-01  3.51204966e-09  3.25512404e-09  1.63045077e-07  4.57245974e-08  6.50000000e-01 
 6.60000000e-01  4.59441144e-01  3.21047529e-09  4.59441144e-01  4.59441145e-01  4.59441144e-01  3.51204972e-09  3.25512404e-09  1.63045063e-07  4.57244340e-08  6.60000000e-01 
 6.70000000e-01  4.59441150e-01  3.21047528e-09  4.59441150e-01  4.59441150e-01  4.59441150e-01  3.51204966e-09  3.25512404e-09  1.63045077e-07  4.57243914e-08  6.70000000e-01 
 6.80000000e-01  4.59441157e-01  3.21047523e-09  4.59441157e-01  4.59441157e-01  4.59441157e-01  3.51204966e-09  3.25512404e-09  1.63045077e-07  4.57243559e-08  6.80000000e-01 
 6.90000000e-01  4.59441132e-01  3.21047529e-09  4.59441132e-01  4.59441132e-01  4.59441132e-01  3.51204966e-09  3.25512404e-09  1.63045041e-07  4.57242919e-08  6.90000000e-01 
 7.00000000e-01  4.59441173e-01  3.21047528e-09  4.59441173e-01  4.59441173e-01  4.59441173e-01  3.51204966e-09  3.25512404e-09  1.63045100e-07  4.57243843e-08  7.00000000e-01 
 7.10000000e-01  4.59441175e-01  3.21047523e-09  4.59441175e-01  4.59441175e-01  4.59441175e-01  3.51204966e-09  3.25512404e-09  1.63045102e-07  4.57241711e-08  7.10000000e-01 
 7.20000000e-01  4.59441150e-01  3.21047524e-09  4.59441150e-01  4.59441150e-01  4.59441150e-01  3.51204966e-09  3.25512404e-09  1.63045063e-07  4.57242137e-08  7.20000000e-01 
 7.30000000e-01  4.59441129e-01  3.21047529e-09  4.59441129e-01  4.59441129e-01  4.59441129e-01  3.51204966e-09  3.25512404e-09  1.63045034e-07  4.57240290e-08  7.30000000e-01 
 7.40000000e-01  4.59441173e-01  3.21047522e-09  4.59441173e-01  4.59441173e-01  4.59441173e-01  3.51204966e-09  3.25512399e-09  1.63045109e-07  4.57239295e-08  7.40000000e-01 
 7.50000000e-01  4.59441162e-01  3.21047524e-09  4.59441162e-01  4.59441162e-01  4.59441162e-01  3.51204972e-09  3.25512399e-09  1.63045072e-07  4.57240503e-08  7.50000000e-01 
 7.60000000e-01  4.59441121e-01  3.21047529e-09  4.59441121e-01  4.59441121e-01  4.59441121e-01  3.51204972e-09  3.25512398e-09  1.63045022e-07  4.57239224e-08  7.60000000e-01 
 7.70000000e-01  4.59441148e-01  3.21047528e-09  4.59441148e-01  4.59441148e-01  4.59441148e-01  3.51204972e-09  3.25512399e-09  1.63045080e-07  4.57238585e-08  7.70000000e-01 
 7.80000000e-01  4.59441151e-01  3.21047528e-09  4.59441151e-01  4.59441151e-01  4.59441151e-01  3.51204972e-09  3.25512404e-09  1.63045069e-07  4.57238016e-08  7.80000000e-01 
 7.90000000e-01  4.59441157e-01  3.21047528e-09  4.59441157e-01  4.59441157e-01  4.59441157e-01  3.51204966e-09  3.25512404e-09  1.63045085e-07  4.57237448e-08  7.90000000e-01 
 8.00000000e-01  4.59441147e-01  3.21047523e-09  4.59441147e-01  4.59441147e-01  4.59441147e-01  3.51204972e-09  3.25512404e-09  1.63045071e-07  4.57236240e-08  8.00000000e-01 
 8.10000000e-01  4.59441161e-01  3.21047524e-09  4.59441160e-01  4.59441161e-01  4.59441161e-01  3.51204972e-09  3.25512404e-09  1.63045070e-07  4.57235672e-08  8.10000000e-01 
 8.20000000e-01  4.59441169e-01  3.21047523e-09  4.59441169e-01  4.59441169e-01  4.59441169e-01  3.51204966e-09  3.25512399e-09  1.63045105e-07  4.57235529e-08  8.20000000e-01 
 8.30000000e-01  4.59441150e-01  3.21047529e-09  4.59441150e-01  4.59441150e-01  4.59441150e-01  3.51204966e-09  3.25512399e-09  1.63045067e-07  4.57235387e-08  8.30000000e-01 
 8.40000000e-01  4.59441129e-01  3.21047528e-09  4.59441129e-01  4.59441129e-01  4.59441129e-01  3.51204972e-09  3.25512404e-09  1.63045032e-07  4.57234037e-08  8.40000000e-01 
 8.50000000e-01  4.59441147e-01  3.21047528e-09  4.59441147e-01  4.59441147e-01  4.59441147e-01  3.51204966e-09  3.25512399e-09  1.63045086e-07  4.57234535e-08  8.50000000e-01 
 8.60000000e-01  4.59441176e-01  3.21047523e-09  4.59441176e-01  4.59441176e-01  4.59441176e-01  3.51204966e-09  3.25512404e-09  1.63045102e-07  4.57233327e-08  8.60000000e-01 
 8.70000000e-01  4.59441158e-01  3.21047524e-09  4.59441158e-01  4.59441158e-01  4.59441158e-01  3.51204972e-09  3.25512399e-09  1.63045071e-07  4.57231835e-08  8.70000000e-01 
 8.80000000e-01  4.59441152e-01  3.21047523e-09  4.59441152e-01  4.59441152e-01  4.59441152e-01  3.51204972e-09  3.25512399e-09  1.63045090e-07  4.57231195e-08  8.80000000e-01 
 8.90000000e-01  4.59441138e-01  3.21047529e-09  4.59441138e-01  4.59441138e-01  4.59441138e-01  3.51204972e-09  3.25512398e-09  1.63045068e-07  4.57231266e-08  8.90000000e-01 
 9.00000000e-01  4.59441123e-01  3.21047528e-09  4.59441123e-01  4.59441123e-01  4.59441123e-01  3.51204972e-09  3.25512404e-09  1.63045043e-07  4.57230698e-08  9.00000000e-01 
 9.10000000e-01  4.59441159e-01  3.21047523e-09  4.59441159e-01  4.59441159e-01  4.59441159e-01  3.51204966e-09  3.25512404e-09  1.63045083e-07  4.57229063e-08  9.10000000e-01 
 9.20000000e-01  4.59441147e-01  3.21047529e-09  4.59441147e-01  4.59441147e-01  4.59441147e-01  3.51204966e-09  3.25512404e-09  1.63045077e-07  4.57230058e-08  9.20000000e-01 
 9.30000000e-01  4.59441144e-01  3.21047522e-09  4.59441144e-01  4.59441144e-01  4.59441144e-01  3.51204972e-09  3.25512404e-09  1.63045053e-07  4.57228779e-08  9.30000000e-01 
 9.40000000e-01  4.59441145e-01  3.21047524e-09  4.59441145e-01  4.59441145e-01  4.59441145e-01  3.51204972e-09  3.25512404e-09  1.63045054e-07  4.57228637e-08  9.40000000e-01 
 9.50000000e-01  4.59441163e-01  3.21047529e-09  4.59441163e-01  4.59441163e-01  4.59441163e-01  3.51204972e-09  3.25512404e-09  1.63045097e-07  4.57227429e-08  9.50000000e-01 
 9.60000000e-01  4.59441167e-01  3.21047528e-09  4.59441167e-01  4.59441167e-01  4.59441167e-01  3.51204966e-09  3.25512399e-09  1.63045101e-07  4.57227571e-08  9.60000000e-01 
 9.70000000e-01  4.59441162e-01  3.21047523e-09  4.59441161e-01  4.59441162e-01  4.59441161e-01  3.51204966e-09  3.25512404e-09  1.63045090e-07  4.57228211e-08  9.70000000e-01 
 9.80000000e-01  4.59441139e-01  3.21047524e-09  4.59441139e-01  4.59441139e-01  4.59441139e-01  3.51204972e-09  3.25512404e-09  1.63045042e-07  4.57226719e-08  9.80000000e-01 
 9.90000000e-01  4.59441176e-01  3.21047529e-09  4.59441176e-01  4.59441176e-01  4.59441176e-01  3.51204966e-09  3.25512404e-09  1.63045122e-07  4.57224800e-08  9.90000000e-01 
 1.00000000e+00  4.59441166e-01  3.21047528e-09  4.59441166e-01  4.59441166e-01  4.59441166e-01  3.51204972e-09  3.25512404e-09  1.63045083e-07  4.57224090e-08  1.00000000e+00 
 1.01000000e+00  4.59441168e-01  3.21047528e-09  4.59441168e-01  4.59441168e-01  4.59441168e-01  3.51204972e-09  3.25512404e-09  1.63045093e-07  4.57224587e-08  1.01000000e+00 
 1.02000000e+00  4.59441152e-01  3.21047523e-09  4.59441152e-01  4.59441152e-01  4.59441152e-01  3.51204972e-09  3.25512404e-09  1.63045078e-07  4.57222598e-08  1.02000000e+00 
 1.03000000e+00  4.59441141e-01  3.21047524e-09  4.59441141e-01  4.59441141e-01  4.59441141e-01  3.51204966e-09  3.25512404e-09  1.63045051e-07  4.57222029e-08  1.03000000e+00 
 1.04000000e+00  4.59441169e-01  3.21047523e-09  4.59441169e-01  4.59441169e-01  4.59441169e-01  3.51204972e-09  3.25512404e-09  1.63045087e-07  4.57221745e-08  1.04000000e+00 
 1.05000000e+00  4.59441140e-01  3.21047529e-09  4.59441140e-01  4.59441140e-01  4.59441140e-01  3.51204966e-09  3.25512404e-09  1.63045053e-07  4.57221603e-08  1.05000000e+00 
 1.06000000e+00  4.59441177e-01  3.21047528e-09  4.59441177e-01  4.59441177e-01  4.59441177e-01  3.51204972e-09  3.25512404e-09  1.63045121e-07  4.57221034e-08  1.06000000e+00 
 1.07000000e+00  4.59441143e-01  3.21047528e-09  4.59441143e-01  4.59441143e-01  4.59441143e-01  3.51204966e-09  3.25512398e-09  1.63045065e-07  4.57219613e-08  1.07000000e+00 
 1.08000000e+00  4.59441123e-01  3.21047523e-09  4.59441123e-01  4.59441123e-01  4.59441123e-01  3.51204966e-09  3.25512404e-09  1.63045033e-07  4.57219329e-08  1.08000000e+00 
 1.09000000e+00  4.59441171e-01  3.21047524e-09  4.59441170e-01  4.59441171e-01  4.59441170e-01  3.51204966e-09  3.25512404e-09  1.63045101e-07  4.57220182e-08  1.09000000e+00 
 1.10000000e+00  4.59441163e-01  3.21047523e-09  4.59441163e-01  4.59441163e-01  4.59441163e-01  3.51204966e-09  3.25512404e-09  1.63045090e-07  4.57218903e-08  1.10000000e+00 
