 v-sweep         v(b0)           v(b1)           v(b2)           v(b3)           v(b4)           v(b5)           v(b6)           i(vbias)        i(viout)        v(vout)        
 0.00000000e+00  3.20719664e-09  4.59478338e-01  3.64998671e-09  4.59478338e-01  4.59478338e-01  4.59478338e-01  3.37390865e-09  1.63709818e-07  8.83421141e-08  0.00000000e+00 
 1.00000000e-02  3.20719662e-09  4.59478329e-01  3.64998663e-09  4.59478329e-01  4.59478329e-01  4.59478329e-01  3.37390863e-09  1.63709812e-07  8.83416451e-08  1.00000000e-02 
 2.00000000e-02  3.20719662e-09  4.59478336e-01  3.64998663e-09  4.59478336e-01  4.59478336e-01  4.59478336e-01  3.37390863e-09  1.63709823e-07  8.83413385e-08  2.00000000e-02 
 3.00000000e-02  3.20719668e-09  4.59478317e-01  3.64998663e-09  4.59478317e-01  4.59478317e-01  4.59478317e-01  3.37390863e-09  1.63709791e-07  8.83410067e-08  3.00000000e-02 
 4.00000000e-02  3.20719662e-09  4.59478341e-01  3.64998663e-09  4.59478341e-01  4.59478341e-01  4.59478341e-01  3.37390863e-09  1.63709833e-07  8.83405229e-08  4.00000000e-02 
 5.00000000e-02  3.20719668e-09  4.59478340e-01  3.64998669e-09  4.59478340e-01  4.59478341e-01  4.59478341e-01  3.37390863e-09  1.63709822e-07  8.83402103e-08  5.00000000e-02 
 6.00000000e-02  3.20719662e-09  4.59478342e-01  3.64998669e-09  4.59478342e-01  4.59478342e-01  4.59478342e-01  3.37390857e-09  1.63709822e-07  8.83398998e-08  6.00000000e-02 
 7.00000000e-02  3.20719662e-09  4.59478323e-01  3.64998663e-09  4.59478323e-01  4.59478323e-01  4.59478323e-01  3.37390863e-09  1.63709795e-07  8.83395601e-08  7.00000000e-02 
 8.00000000e-02  3.20719662e-09  4.59478340e-01  3.64998669e-09  4.59478339e-01  4.59478340e-01  4.59478340e-01  3.37390863e-09  1.63709826e-07  8.83392328e-08  8.00000000e-02 
 9.00000000e-02  3.20719662e-09  4.59478349e-01  3.64998663e-09  4.59478349e-01  4.59478349e-01  4.59478349e-01  3.37390863e-09  1.63709828e-07  8.83391245e-08  9.00000000e-02 
 1.00000000e-01  3.20719662e-09  4.59478332e-01  3.64998669e-09  4.59478332e-01  4.59478332e-01  4.59478332e-01  3.37390863e-09  1.63709803e-07  8.83387354e-08  1.00000000e-01 
 1.10000000e-01  3.20719662e-09  4.59478313e-01  3.64998663e-09  4.59478313e-01  4.59478313e-01  4.59478313e-01  3.37390857e-09  1.63709785e-07  8.83383908e-08  1.10000000e-01 
 1.20000000e-01  3.20719662e-09  4.59478343e-01  3.64998663e-09  4.59478343e-01  4.59478343e-01  4.59478343e-01  3.37390863e-09  1.63709821e-07  8.83382869e-08  1.20000000e-01 
 1.30000000e-01  3.20719662e-09  4.59478334e-01  3.64998663e-09  4.59478334e-01  4.59478334e-01  4.59478334e-01  3.37390863e-09  1.63709802e-07  8.83381936e-08  1.30000000e-01 
 1.40000000e-01  3.20719662e-09  4.59478311e-01  3.64998669e-09  4.59478311e-01  4.59478311e-01  4.59478311e-01  3.37390863e-09  1.63709784e-07  8.83377096e-08  1.40000000e-01 
 1.50000000e-01  3.20719668e-09  4.59478351e-01  3.64998669e-09  4.59478351e-01  4.59478351e-01  4.59478351e-01  3.37390863e-09  1.63709850e-07  8.83376448e-08  1.50000000e-01 
 1.60000000e-01  3.20719662e-09  4.59478322e-01  3.64998669e-09  4.59478322e-01  4.59478322e-01  4.59478322e-01  3.37390863e-09  1.63709802e-07  8.83373836e-08  1.60000000e-01 
 1.70000000e-01  3.20719668e-09  4.59478326e-01  3.64998669e-09  4.59478326e-01  4.59478326e-01  4.59478326e-01  3.37390863e-09  1.63709795e-07  8.83371740e-08  1.70000000e-01 
 1.80000000e-01  3.20719668e-09  4.59478324e-01  3.64998663e-09  4.59478324e-01  4.59478324e-01  4.59478324e-01  3.37390863e-09  1.63709793e-07  8.83369449e-08  1.80000000e-01 
 1.90000000e-01  3.20719662e-09  4.59478326e-01  3.64998669e-09  4.59478326e-01  4.59478326e-01  4.59478326e-01  3.37390863e-09  1.63709811e-07  8.83368472e-08  1.90000000e-01 
 2.00000000e-01  3.20719668e-09  4.59478344e-01  3.64998669e-09  4.59478344e-01  4.59478344e-01  4.59478344e-01  3.37390857e-09  1.63709817e-07  8.83366269e-08  2.00000000e-01 
 2.10000000e-01  3.20719662e-09  4.59478319e-01  3.64998663e-09  4.59478319e-01  4.59478319e-01  4.59478319e-01  3.37390857e-09  1.63709791e-07  8.83364866e-08  2.10000000e-01 
 2.20000000e-01  3.20719662e-09  4.59478340e-01  3.64998669e-09  4.59478339e-01  4.59478340e-01  4.59478340e-01  3.37390863e-09  1.63709819e-07  8.83363267e-08  2.20000000e-01 
 2.30000000e-01  3.20719662e-09  4.59478337e-01  3.64998663e-09  4.59478336e-01  4.59478337e-01  4.59478337e-01  3.37390863e-09  1.63709824e-07  8.83361739e-08  2.30000000e-01 
 2.40000000e-01  3.20719662e-09  4.59478318e-01  3.64998669e-09  4.59478318e-01  4.59478318e-01  4.59478318e-01  3.37390863e-09  1.63709789e-07  8.83359785e-08  2.40000000e-01 
 2.50000000e-01  3.20719662e-09  4.59478322e-01  3.64998669e-09  4.59478322e-01  4.59478322e-01  4.59478322e-01  3.37390863e-09  1.63709793e-07  8.83359075e-08  2.50000000e-01 
 2.60000000e-01  3.20719662e-09  4.59478327e-01  3.64998669e-09  4.59478327e-01  4.59478327e-01  4.59478327e-01  3.37390863e-09  1.63709800e-07  8.83358169e-08  2.60000000e-01 
 2.70000000e-01  3.20719662e-09  4.59478330e-01  3.64998669e-09  4.59478330e-01  4.59478330e-01  4.59478330e-01  3.37390863e-09  1.63709808e-07  8.83356996e-08  2.70000000e-01 
 2.80000000e-01  3.20719662e-09  4.59478339e-01  3.64998669e-09  4.59478339e-01  4.59478339e-01  4.59478339e-01  3.37390863e-09  1.63709820e-07  8.83355167e-08  2.80000000e-01 
 2.90000000e-01  3.20719662e-09  4.59478348e-01  3.64998669e-09  4.59478348e-01  4.59478348e-01  4.59478348e-01  3.37390863e-09  1.63709829e-07  8.83354971e-08  2.90000000e-01 
 3.00000000e-01  3.20719662e-09  4.59478319e-01  3.64998669e-09  4.59478319e-01  4.59478319e-01  4.59478319e-01  3.37390863e-09  1.63709802e-07  8.83352165e-08  3.00000000e-01 
 3.10000000e-01  3.20719662e-09  4.59478315e-01  3.64998669e-09  4.59478315e-01  4.59478315e-01  4.59478315e-01  3.37390863e-09  1.63709779e-07  8.83350566e-08  3.10000000e-01 
 3.20000000e-01  3.20719662e-09  4.59478342e-01  3.64998669e-09  4.59478342e-01  4.59478342e-01  4.59478342e-01  3.37390863e-09  1.63709828e-07  8.83350069e-08  3.20000000e-01 
 3.30000000e-01  3.20719662e-09  4.59478320e-01  3.64998669e-09  4.59478320e-01  4.59478320e-01  4.59478320e-01  3.37390857e-09  1.63709803e-07  8.83348328e-08  3.30000000e-01 
 3.40000000e-01  3.20719662e-09  4.59478358e-01  3.64998669e-09  4.59478358e-01  4.59478358e-01  4.59478358e-01  3.37390863e-09  1.63709857e-07  8.83348292e-08  3.40000000e-01 
 3.50000000e-01  3.20719662e-09  4.59478317e-01  3.64998669e-09  4.59478317e-01  4.59478317e-01  4.59478317e-01  3.37390863e-09  1.63709786e-07  8.83347369e-08  3.50000000e-01 
 3.60000000e-01  3.20719668e-09  4.59478326e-01  3.64998669e-09  4.59478326e-01  4.59478326e-01  4.59478326e-01  3.37390863e-09  1.63709797e-07  8.83345805e-08  3.60000000e-01 
 3.70000000e-01  3.20719662e-09  4.59478306e-01  3.64998669e-09  4.59478306e-01  4.59478307e-01  4.59478307e-01  3.37390863e-09  1.63709779e-07  8.83343887e-08  3.70000000e-01 
 3.80000000e-01  3.20719668e-09  4.59478336e-01  3.64998669e-09  4.59478336e-01  4.59478336e-01  4.59478336e-01  3.37390863e-09  1.63709805e-07  8.83344811e-08  3.80000000e-01 
 3.90000000e-01  3.20719668e-09  4.59478317e-01  3.64998669e-09  4.59478317e-01  4.59478317e-01  4.59478317e-01  3.37390863e-09  1.63709779e-07  8.83343958e-08  3.90000000e-01 
 4.00000000e-01  3.20719668e-09  4.59478344e-01  3.64998663e-09  4.59478344e-01  4.59478344e-01  4.59478344e-01  3.37390863e-09  1.63709835e-07  8.83342786e-08  4.00000000e-01 
 4.10000000e-01  3.20719662e-09  4.59478346e-01  3.64998663e-09  4.59478346e-01  4.59478346e-01  4.59478346e-01  3.37390863e-09  1.63709833e-07  8.83342324e-08  4.10000000e-01 
 4.20000000e-01  3.20719667e-09  4.59478313e-01  3.64998669e-09  4.59478312e-01  4.59478313e-01  4.59478313e-01  3.37390863e-09  1.63709779e-07  8.83340689e-08  4.20000000e-01 
 4.30000000e-01  3.20719662e-09  4.59478328e-01  3.64998663e-09  4.59478328e-01  4.59478329e-01  4.59478329e-01  3.37390863e-09  1.63709818e-07  8.83340761e-08  4.30000000e-01 
 4.40000000e-01  3.20719662e-09  4.59478328e-01  3.64998663e-09  4.59478327e-01  4.59478328e-01  4.59478328e-01  3.37390863e-09  1.63709805e-07  8.83338593e-08  4.40000000e-01 
 4.50000000e-01  3.20719662e-09  4.59478343e-01  3.64998669e-09  4.59478342e-01  4.59478343e-01  4.59478343e-01  3.37390863e-09  1.63709821e-07  8.83338807e-08  4.50000000e-01 
 4.60000000e-01  3.20719662e-09  4.59478323e-01  3.64998669e-09  4.59478323e-01  4.59478323e-01  4.59478323e-01  3.37390863e-09  1.63709784e-07  8.83338132e-08  4.60000000e-01 
 4.70000000e-01  3.20719668e-09  4.59478334e-01  3.64998669e-09  4.59478334e-01  4.59478334e-01  4.59478334e-01  3.37390863e-09  1.63709810e-07  8.83335929e-08  4.70000000e-01 
 4.80000000e-01  3.20719662e-09  4.59478329e-01  3.64998663e-09  4.59478329e-01  4.59478329e-01  4.59478329e-01  3.37390863e-09  1.63709803e-07  8.83336284e-08  4.80000000e-01 
 4.90000000e-01  3.20719662e-09  4.59478328e-01  3.64998663e-09  4.59478328e-01  4.59478328e-01  4.59478328e-01  3.37390863e-09  1.63709807e-07  8.83335751e-08  4.90000000e-01 
 5.00000000e-01  3.20719662e-09  4.59478336e-01  3.64998669e-09  4.59478336e-01  4.59478336e-01  4.59478336e-01  3.37390863e-09  1.63709817e-07  8.83334543e-08  5.00000000e-01 
 5.10000000e-01  3.20719662e-09  4.59478330e-01  3.64998669e-09  4.59478330e-01  4.59478330e-01  4.59478330e-01  3.37390863e-09  1.63709800e-07  8.83334117e-08  5.10000000e-01 
 5.20000000e-01  3.20719662e-09  4.59478342e-01  3.64998669e-09  4.59478342e-01  4.59478342e-01  4.59478342e-01  3.37390863e-09  1.63709826e-07  8.83333158e-08  5.20000000e-01 
 5.30000000e-01  3.20719662e-09  4.59478327e-01  3.64998669e-09  4.59478327e-01  4.59478327e-01  4.59478327e-01  3.37390863e-09  1.63709805e-07  8.83332909e-08  5.30000000e-01 
 5.40000000e-01  3.20719668e-09  4.59478316e-01  3.64998663e-09  4.59478316e-01  4.59478316e-01  4.59478316e-01  3.37390863e-09  1.63709788e-07  8.83331737e-08  5.40000000e-01 
 5.50000000e-01  3.20719668e-09  4.59478341e-01  3.64998663e-09  4.59478341e-01  4.59478341e-01  4.59478341e-01  3.37390863e-09  1.63709821e-07  8.83330991e-08  5.50000000e-01 
 5.60000000e-01  3.20719668e-09  4.59478330e-01  3.64998669e-09  4.59478330e-01  4.59478330e-01  4.59478330e-01  3.37390863e-09  1.63709806e-07  8.83329072e-08  5.60000000e-01 
 5.70000000e-01  3.20719662e-09  4.59478321e-01  3.64998669e-09  4.59478321e-01  4.59478321e-01  4.59478321e-01  3.37390863e-09  1.63709795e-07  8.83329392e-08  5.70000000e-01 
 5.80000000e-01  3.20719662e-09  4.59478334e-01  3.64998669e-09  4.59478334e-01  4.59478334e-01  4.59478334e-01  3.37390863e-09  1.63709813e-07  8.83328894e-08  5.80000000e-01 
 5.90000000e-01  3.20719662e-09  4.59478337e-01  3.64998663e-09  4.59478337e-01  4.59478337e-01  4.59478337e-01  3.37390863e-09  1.63709812e-07  8.83328184e-08  5.90000000e-01 
 6.00000000e-01  3.20719662e-09  4.59478320e-01  3.64998663e-09  4.59478320e-01  4.59478320e-01  4.59478320e-01  3.37390857e-09  1.63709793e-07  8.83327544e-08  6.00000000e-01 
 6.10000000e-01  3.20719662e-09  4.59478323e-01  3.64998669e-09  4.59478323e-01  4.59478323e-01  4.59478323e-01  3.37390863e-09  1.63709797e-07  8.83326408e-08  6.10000000e-01 
 6.20000000e-01  3.20719662e-09  4.59478355e-01  3.64998669e-09  4.59478355e-01  4.59478355e-01  4.59478355e-01  3.37390863e-09  1.63709836e-07  8.83326194e-08  6.20000000e-01 
 6.30000000e-01  3.20719662e-09  4.59478352e-01  3.64998669e-09  4.59478352e-01  4.59478353e-01  4.59478353e-01  3.37390863e-09  1.63709838e-07  8.83326337e-08  6.30000000e-01 
 6.40000000e-01  3.20719668e-09  4.59478332e-01  3.64998663e-09  4.59478332e-01  4.59478332e-01  4.59478332e-01  3.37390863e-09  1.63709810e-07  8.83325129e-08  6.40000000e-01 
 6.50000000e-01  3.20719668e-09  4.59478324e-01  3.64998669e-09  4.59478324e-01  4.59478324e-01  4.59478324e-01  3.37390863e-09  1.63709793e-07  8.83323139e-08  6.50000000e-01 
 6.60000000e-01  3.20719662e-09  4.59478328e-01  3.64998669e-09  4.59478328e-01  4.59478328e-01  4.59478328e-01  3.37390863e-09  1.63709804e-07  8.83322713e-08  6.60000000e-01 
 6.70000000e-01  3.20719662e-09  4.59478341e-01  3.64998669e-09  4.59478341e-01  4.59478341e-01  4.59478341e-01  3.37390857e-09  1.63709824e-07  8.83322855e-08  6.70000000e-01 
 6.80000000e-01  3.20719662e-09  4.59478336e-01  3.64998669e-09  4.59478335e-01  4.59478336e-01  4.59478336e-01  3.37390863e-09  1.63709808e-07  8.83321292e-08  6.80000000e-01 
 6.90000000e-01  3.20719668e-09  4.59478324e-01  3.64998669e-09  4.59478324e-01  4.59478324e-01  4.59478324e-01  3.37390857e-09  1.63709792e-07  8.83320865e-08  6.90000000e-01 
 7.00000000e-01  3.20719662e-09  4.59478332e-01  3.64998663e-09  4.59478332e-01  4.59478332e-01  4.59478332e-01  3.37390863e-09  1.63709811e-07  8.83320084e-08  7.00000000e-01 
 7.10000000e-01  3.20719662e-09  4.59478325e-01  3.64998663e-09  4.59478325e-01  4.59478325e-01  4.59478325e-01  3.37390863e-09  1.63709794e-07  8.83319444e-08  7.10000000e-01 
 7.20000000e-01  3.20719662e-09  4.59478354e-01  3.64998669e-09  4.59478354e-01  4.59478354e-01  4.59478354e-01  3.37390863e-09  1.63709843e-07  8.83319657e-08  7.20000000e-01 
 7.30000000e-01  3.20719662e-09  4.59478343e-01  3.64998663e-09  4.59478343e-01  4.59478343e-01  4.59478343e-01  3.37390863e-09  1.63709829e-07  8.83319089e-08  7.30000000e-01 
 7.40000000e-01  3.20719662e-09  4.59478325e-01  3.64998663e-09  4.59478325e-01  4.59478325e-01  4.59478325e-01  3.37390863e-09  1.63709804e-07  8.83317171e-08  7.40000000e-01 
 7.50000000e-01  3.20719662e-09  4.59478332e-01  3.64998669e-09  4.59478332e-01  4.59478332e-01  4.59478332e-01  3.37390863e-09  1.63709806e-07  8.83317242e-08  7.50000000e-01 
 7.60000000e-01  3.20719662e-09  4.59478339e-01  3.64998669e-09  4.59478339e-01  4.59478339e-01  4.59478339e-01  3.37390863e-09  1.63709814e-07  8.83317881e-08  7.60000000e-01 
 7.70000000e-01  3.20719662e-09  4.59478328e-01  3.64998669e-09  4.59478328e-01  4.59478328e-01  4.59478328e-01  3.37390863e-09  1.63709799e-07  8.83315892e-08  7.70000000e-01 
 7.80000000e-01  3.20719662e-09  4.59478342e-01  3.64998669e-09  4.59478342e-01  4.59478343e-01  4.59478343e-01  3.37390863e-09  1.63709822e-07  8.83315607e-08  7.80000000e-01 
 7.90000000e-01  3.20719662e-09  4.59478299e-01  3.64998669e-09  4.59478299e-01  4.59478299e-01  4.59478299e-01  3.37390863e-09  1.63709762e-07  8.83314613e-08  7.90000000e-01 
 8.00000000e-01  3.20719662e-09  4.59478333e-01  3.64998663e-09  4.59478333e-01  4.59478333e-01  4.59478333e-01  3.37390863e-09  1.63709805e-07  8.83312694e-08  8.00000000e-01 
 8.10000000e-01  3.20719662e-09  4.59478336e-01  3.64998669e-09  4.59478336e-01  4.59478336e-01  4.59478336e-01  3.37390863e-09  1.63709810e-07  8.83313760e-08  8.10000000e-01 
 8.20000000e-01  3.20719662e-09  4.59478343e-01  3.64998669e-09  4.59478343e-01  4.59478343e-01  4.59478343e-01  3.37390863e-09  1.63709834e-07  8.83311770e-08  8.20000000e-01 
 8.30000000e-01  3.20719668e-09  4.59478331e-01  3.64998663e-09  4.59478331e-01  4.59478331e-01  4.59478331e-01  3.37390863e-09  1.63709806e-07  8.83311273e-08  8.30000000e-01 
 8.40000000e-01  3.20719668e-09  4.59478324e-01  3.64998669e-09  4.59478324e-01  4.59478324e-01  4.59478324e-01  3.37390863e-09  1.63709793e-07  8.83311273e-08  8.40000000e-01 
 8.50000000e-01  3.20719662e-09  4.59478335e-01  3.64998669e-09  4.59478334e-01  4.59478335e-01  4.59478335e-01  3.37390863e-09  1.63709802e-07  8.83309710e-08  8.50000000e-01 
 8.60000000e-01  3.20719662e-09  4.59478331e-01  3.64998663e-09  4.59478331e-01  4.59478331e-01  4.59478331e-01  3.37390863e-09  1.63709807e-07  8.83308431e-08  8.60000000e-01 
 8.70000000e-01  3.20719668e-09  4.59478330e-01  3.64998663e-09  4.59478329e-01  4.59478330e-01  4.59478330e-01  3.37390857e-09  1.63709805e-07  8.83307791e-08  8.70000000e-01 
 8.80000000e-01  3.20719668e-09  4.59478335e-01  3.64998669e-09  4.59478335e-01  4.59478335e-01  4.59478335e-01  3.37390863e-09  1.63709816e-07  8.83308218e-08  8.80000000e-01 
 8.90000000e-01  3.20719662e-09  4.59478329e-01  3.64998669e-09  4.59478328e-01  4.59478329e-01  4.59478329e-01  3.37390863e-09  1.63709794e-07  8.83306583e-08  8.90000000e-01 
 9.00000000e-01  3.20719662e-09  4.59478326e-01  3.64998669e-09  4.59478326e-01  4.59478326e-01  4.59478326e-01  3.37390863e-09  1.63709800e-07  8.83306228e-08  9.00000000e-01 
 9.10000000e-01  3.20719662e-09  4.59478327e-01  3.64998669e-09  4.59478327e-01  4.59478328e-01  4.59478328e-01  3.37390863e-09  1.63709808e-07  8.83305731e-08  9.10000000e-01 
 9.20000000e-01  3.20719662e-09  4.59478326e-01  3.64998669e-09  4.59478326e-01  4.59478326e-01  4.59478326e-01  3.37390863e-09  1.63709806e-07  8.83304381e-08  9.20000000e-01 
 9.30000000e-01  3.20719662e-09  4.59478331e-01  3.64998669e-09  4.59478331e-01  4.59478331e-01  4.59478331e-01  3.37390863e-09  1.63709819e-07  8.83304949e-08  9.30000000e-01 
 9.40000000e-01  3.20719668e-09  4.59478316e-01  3.64998669e-09  4.59478316e-01  4.59478316e-01  4.59478316e-01  3.37390857e-09  1.63709776e-07  8.83302320e-08  9.40000000e-01 
 9.50000000e-01  3.20719662e-09  4.59478342e-01  3.64998669e-09  4.59478341e-01  4.59478342e-01  4.59478342e-01  3.37390863e-09  1.63709826e-07  8.83302036e-08  9.50000000e-01 
 9.60000000e-01  3.20719662e-09  4.59478315e-01  3.64998669e-09  4.59478315e-01  4.59478315e-01  4.59478315e-01  3.37390863e-09  1.63709778e-07  8.83301325e-08  9.60000000e-01 
 9.70000000e-01  3.20719668e-09  4.59478334e-01  3.64998669e-09  4.59478334e-01  4.59478334e-01  4.59478334e-01  3.37390863e-09  1.63709796e-07  8.83300828e-08  9.70000000e-01 
 9.80000000e-01  3.20719662e-09  4.59478329e-01  3.64998663e-09  4.59478329e-01  4.59478329e-01  4.59478329e-01  3.37390857e-09  1.63709815e-07  8.83300828e-08  9.80000000e-01 
 9.90000000e-01  3.20719668e-09  4.59478331e-01  3.64998669e-09  4.59478331e-01  4.59478331e-01  4.59478331e-01  3.37390857e-09  1.63709817e-07  8.83298483e-08  9.90000000e-01 
 1.00000000e+00  3.20719662e-09  4.59478327e-01  3.64998669e-09  4.59478327e-01  4.59478327e-01  4.59478327e-01  3.37390863e-09  1.63709806e-07  8.83298696e-08  1.00000000e+00 
 1.01000000e+00  3.20719662e-09  4.59478323e-01  3.64998669e-09  4.59478322e-01  4.59478323e-01  4.59478323e-01  3.37390863e-09  1.63709787e-07  8.83297773e-08  1.01000000e+00 
 1.02000000e+00  3.20719668e-09  4.59478330e-01  3.64998663e-09  4.59478330e-01  4.59478331e-01  4.59478331e-01  3.37390857e-09  1.63709817e-07  8.83296778e-08  1.02000000e+00 
 1.03000000e+00  3.20719668e-09  4.59478339e-01  3.64998669e-09  4.59478339e-01  4.59478339e-01  4.59478339e-01  3.37390863e-09  1.63709815e-07  8.83296067e-08  1.03000000e+00 
 1.04000000e+00  3.20719662e-09  4.59478336e-01  3.64998669e-09  4.59478336e-01  4.59478336e-01  4.59478336e-01  3.37390863e-09  1.63709817e-07  8.83295641e-08  1.04000000e+00 
 1.05000000e+00  3.20719662e-09  4.59478316e-01  3.64998669e-09  4.59478316e-01  4.59478316e-01  4.59478316e-01  3.37390863e-09  1.63709795e-07  8.83294078e-08  1.05000000e+00 
 1.06000000e+00  3.20719662e-09  4.59478349e-01  3.64998669e-09  4.59478349e-01  4.59478350e-01  4.59478350e-01  3.37390863e-09  1.63709829e-07  8.83293083e-08  1.06000000e+00 
 1.07000000e+00  3.20719662e-09  4.59478314e-01  3.64998663e-09  4.59478314e-01  4.59478314e-01  4.59478314e-01  3.37390863e-09  1.63709783e-07  8.83291662e-08  1.07000000e+00 
 1.08000000e+00  3.20719668e-09  4.59478330e-01  3.64998669e-09  4.59478330e-01  4.59478330e-01  4.59478330e-01  3.37390863e-09  1.63709811e-07  8.83291662e-08  1.08000000e+00 
 1.09000000e+00  3.20719662e-09  4.59478319e-01  3.64998669e-09  4.59478319e-01  4.59478319e-01  4.59478319e-01  3.37390863e-09  1.63709793e-07  8.83290951e-08  1.09000000e+00 
 1.10000000e+00  3.20719668e-09  4.59478341e-01  3.64998663e-09  4.59478341e-01  4.59478341e-01  4.59478341e-01  3.37390863e-09  1.63709814e-07  8.83290880e-08  1.10000000e+00 
