 v-sweep         v(b0)           v(b1)           v(b2)           v(b3)           v(b4)           v(b5)           v(b6)           i(vbias)        i(viout)        v(vout)        
 0.00000000e+00  4.56986678e-01  4.56986678e-01  3.77596060e-09  3.20888777e-09  3.43107536e-09  3.52540719e-09  3.43736644e-09  1.55862427e-07  4.10934523e-09  0.00000000e+00 
 1.00000000e-02  4.56986682e-01  4.56986682e-01  3.77596062e-09  3.20888780e-09  3.43107533e-09  3.52540716e-09  3.43736648e-09  1.55862431e-07  4.10899315e-09  1.00000000e-02 
 2.00000000e-02  4.56986698e-01  4.56986698e-01  3.77596062e-09  3.20888780e-09  3.43107539e-09  3.52540718e-09  3.43736646e-09  1.55862448e-07  4.10847245e-09  2.00000000e-02 
 3.00000000e-02  4.56986702e-01  4.56986701e-01  3.77596062e-09  3.20888775e-09  3.43107539e-09  3.52540717e-09  3.43736647e-09  1.55862457e-07  4.10818179e-09  3.00000000e-02 
 4.00000000e-02  4.56986709e-01  4.56986709e-01  3.77596062e-09  3.20888781e-09  3.43107539e-09  3.52540717e-09  3.43736641e-09  1.55862459e-07  4.10785361e-09  4.00000000e-02 
 5.00000000e-02  4.56986710e-01  4.56986709e-01  3.77596062e-09  3.20888775e-09  3.43107539e-09  3.52540717e-09  3.43736648e-09  1.55862468e-07  4.10746281e-09  5.00000000e-02 
 6.00000000e-02  4.56986693e-01  4.56986693e-01  3.77596062e-09  3.20888775e-09  3.43107533e-09  3.52540717e-09  3.43736646e-09  1.55862447e-07  4.10717016e-09  6.00000000e-02 
 7.00000000e-02  4.56986698e-01  4.56986698e-01  3.77596062e-09  3.20888775e-09  3.43107539e-09  3.52540717e-09  3.43736647e-09  1.55862444e-07  4.10696410e-09  7.00000000e-02 
 8.00000000e-02  4.56986714e-01  4.56986714e-01  3.77596062e-09  3.20888775e-09  3.43107534e-09  3.52540717e-09  3.43736641e-09  1.55862464e-07  4.10649381e-09  8.00000000e-02 
 9.00000000e-02  4.56986708e-01  4.56986708e-01  3.77596062e-09  3.20888781e-09  3.43107539e-09  3.52540717e-09  3.43736648e-09  1.55862475e-07  4.10623979e-09  9.00000000e-02 
 1.00000000e-01  4.56986720e-01  4.56986720e-01  3.77596062e-09  3.20888775e-09  3.43107534e-09  3.52540717e-09  3.43736647e-09  1.55862487e-07  4.10602397e-09  1.00000000e-01 
 1.10000000e-01  4.56986687e-01  4.56986687e-01  3.77596062e-09  3.20888780e-09  3.43107539e-09  3.52540717e-09  3.43736647e-09  1.55862444e-07  4.10582146e-09  1.10000000e-01 
 1.20000000e-01  4.56986689e-01  4.56986689e-01  3.77596062e-09  3.20888774e-09  3.43107533e-09  3.52540717e-09  3.43736641e-09  1.55862440e-07  4.10555323e-09  1.20000000e-01 
 1.30000000e-01  4.56986703e-01  4.56986703e-01  3.77596062e-09  3.20888780e-09  3.43107539e-09  3.52540717e-09  3.43736648e-09  1.55862450e-07  4.10536849e-09  1.30000000e-01 
 1.40000000e-01  4.56986682e-01  4.56986682e-01  3.77596062e-09  3.20888774e-09  3.43107539e-09  3.52540717e-09  3.43736646e-09  1.55862441e-07  4.10523437e-09  1.40000000e-01 
 1.50000000e-01  4.56986703e-01  4.56986703e-01  3.77596062e-09  3.20888775e-09  3.43107539e-09  3.52540717e-09  3.43736641e-09  1.55862471e-07  4.10490131e-09  1.50000000e-01 
 1.60000000e-01  4.56986698e-01  4.56986698e-01  3.77596062e-09  3.20888780e-09  3.43107534e-09  3.52540717e-09  3.43736648e-09  1.55862457e-07  4.10475209e-09  1.60000000e-01 
 1.70000000e-01  4.56986700e-01  4.56986699e-01  3.77596062e-09  3.20888775e-09  3.43107539e-09  3.52540717e-09  3.43736646e-09  1.55862449e-07  4.10446432e-09  1.70000000e-01 
 1.80000000e-01  4.56986715e-01  4.56986715e-01  3.77596062e-09  3.20888781e-09  3.43107539e-09  3.52540717e-09  3.43736647e-09  1.55862486e-07  4.10442524e-09  1.80000000e-01 
 1.90000000e-01  4.56986716e-01  4.56986716e-01  3.77596062e-09  3.20888775e-09  3.43107534e-09  3.52540717e-09  3.43736641e-09  1.55862493e-07  4.10411261e-09  1.90000000e-01 
 2.00000000e-01  4.56986714e-01  4.56986714e-01  3.77596062e-09  3.20888781e-09  3.43107534e-09  3.52540717e-09  3.43736648e-09  1.55862483e-07  4.10415169e-09  2.00000000e-01 
 2.10000000e-01  4.56986713e-01  4.56986713e-01  3.77596062e-09  3.20888781e-09  3.43107539e-09  3.52540717e-09  3.43736641e-09  1.55862478e-07  4.10401313e-09  2.10000000e-01 
 2.20000000e-01  4.56986700e-01  4.56986700e-01  3.77596062e-09  3.20888780e-09  3.43107539e-09  3.52540717e-09  3.43736648e-09  1.55862460e-07  4.10372181e-09  2.20000000e-01 
 2.30000000e-01  4.56986706e-01  4.56986706e-01  3.77596062e-09  3.20888780e-09  3.43107539e-09  3.52540717e-09  3.43736646e-09  1.55862468e-07  4.10359569e-09  2.30000000e-01 
 2.40000000e-01  4.56986686e-01  4.56986686e-01  3.77596062e-09  3.20888774e-09  3.43107533e-09  3.52540717e-09  3.43736641e-09  1.55862436e-07  4.10341627e-09  2.40000000e-01 
 2.50000000e-01  4.56986700e-01  4.56986700e-01  3.77596062e-09  3.20888780e-09  3.43107539e-09  3.52540717e-09  3.43736643e-09  1.55862464e-07  4.10331147e-09  2.50000000e-01 
 2.60000000e-01  4.56986706e-01  4.56986706e-01  3.77596062e-09  3.20888775e-09  3.43107534e-09  3.52540717e-09  3.43736642e-09  1.55862471e-07  4.10316225e-09  2.60000000e-01 
 2.70000000e-01  4.56986672e-01  4.56986672e-01  3.77596062e-09  3.20888774e-09  3.43107539e-09  3.52540717e-09  3.43736648e-09  1.55862419e-07  4.10306811e-09  2.70000000e-01 
 2.80000000e-01  4.56986719e-01  4.56986719e-01  3.77596062e-09  3.20888775e-09  3.43107539e-09  3.52540717e-09  3.43736647e-09  1.55862492e-07  4.10306811e-09  2.80000000e-01 
 2.90000000e-01  4.56986714e-01  4.56986714e-01  3.77596062e-09  3.20888775e-09  3.43107534e-09  3.52540717e-09  3.43736647e-09  1.55862481e-07  4.10289047e-09  2.90000000e-01 
 3.00000000e-01  4.56986711e-01  4.56986711e-01  3.77596062e-09  3.20888781e-09  3.43107534e-09  3.52540717e-09  3.43736647e-09  1.55862459e-07  4.10286560e-09  3.00000000e-01 
 3.10000000e-01  4.56986712e-01  4.56986712e-01  3.77596062e-09  3.20888775e-09  3.43107539e-09  3.52540717e-09  3.43736647e-09  1.55862463e-07  4.10261691e-09  3.10000000e-01 
 3.20000000e-01  4.56986679e-01  4.56986679e-01  3.77596062e-09  3.20888774e-09  3.43107533e-09  3.52540723e-09  3.43736647e-09  1.55862416e-07  4.10249967e-09  3.20000000e-01 
 3.30000000e-01  4.56986691e-01  4.56986690e-01  3.77596062e-09  3.20888780e-09  3.43107539e-09  3.52540722e-09  3.43736647e-09  1.55862450e-07  4.10242507e-09  3.30000000e-01 
 3.40000000e-01  4.56986693e-01  4.56986693e-01  3.77596062e-09  3.20888780e-09  3.43107539e-09  3.52540716e-09  3.43736647e-09  1.55862441e-07  4.10239309e-09  3.40000000e-01 
 3.50000000e-01  4.56986701e-01  4.56986701e-01  3.77596062e-09  3.20888775e-09  3.43107534e-09  3.52540718e-09  3.43736641e-09  1.55862444e-07  4.10232559e-09  3.50000000e-01 
 3.60000000e-01  4.56986710e-01  4.56986710e-01  3.77596062e-09  3.20888781e-09  3.43107534e-09  3.52540717e-09  3.43736648e-09  1.55862471e-07  4.10226519e-09  3.60000000e-01 
 3.70000000e-01  4.56986695e-01  4.56986694e-01  3.77596062e-09  3.20888780e-09  3.43107534e-09  3.52540717e-09  3.43736646e-09  1.55862459e-07  4.10217638e-09  3.70000000e-01 
 3.80000000e-01  4.56986688e-01  4.56986688e-01  3.77596062e-09  3.20888774e-09  3.43107539e-09  3.52540717e-09  3.43736647e-09  1.55862447e-07  4.10194190e-09  3.80000000e-01 
 3.90000000e-01  4.56986706e-01  4.56986706e-01  3.77596062e-09  3.20888780e-09  3.43107539e-09  3.52540717e-09  3.43736647e-09  1.55862473e-07  4.10195966e-09  3.90000000e-01 
 4.00000000e-01  4.56986689e-01  4.56986689e-01  3.77596062e-09  3.20888780e-09  3.43107539e-09  3.52540717e-09  3.43736641e-09  1.55862454e-07  4.10187084e-09  4.00000000e-01 
 4.10000000e-01  4.56986724e-01  4.56986724e-01  3.77596062e-09  3.20888781e-09  3.43107534e-09  3.52540717e-09  3.43736643e-09  1.55862497e-07  4.10189216e-09  4.10000000e-01 
 4.20000000e-01  4.56986695e-01  4.56986695e-01  3.77596062e-09  3.20888780e-09  3.43107539e-09  3.52540717e-09  3.43736648e-09  1.55862466e-07  4.10176426e-09  4.20000000e-01 
 4.30000000e-01  4.56986697e-01  4.56986697e-01  3.77596062e-09  3.20888775e-09  3.43107539e-09  3.52540717e-09  3.43736641e-09  1.55862461e-07  4.10173584e-09  4.30000000e-01 
 4.40000000e-01  4.56986705e-01  4.56986705e-01  3.77596062e-09  3.20888780e-09  3.43107539e-09  3.52540717e-09  3.43736643e-09  1.55862454e-07  4.10160794e-09  4.40000000e-01 
 4.50000000e-01  4.56986687e-01  4.56986687e-01  3.77596062e-09  3.20888774e-09  3.43107539e-09  3.52540717e-09  3.43736642e-09  1.55862440e-07  4.10147649e-09  4.50000000e-01 
 4.60000000e-01  4.56986696e-01  4.56986695e-01  3.77596062e-09  3.20888775e-09  3.43107534e-09  3.52540717e-09  3.43736642e-09  1.55862457e-07  4.10144807e-09  4.60000000e-01 
 4.70000000e-01  4.56986712e-01  4.56986711e-01  3.77596062e-09  3.20888781e-09  3.43107539e-09  3.52540717e-09  3.43736648e-09  1.55862482e-07  4.10133794e-09  4.70000000e-01 
 4.80000000e-01  4.56986700e-01  4.56986700e-01  3.77596062e-09  3.20888780e-09  3.43107534e-09  3.52540717e-09  3.43736641e-09  1.55862456e-07  4.10146583e-09  4.80000000e-01 
 4.90000000e-01  4.56986697e-01  4.56986696e-01  3.77596062e-09  3.20888780e-09  3.43107539e-09  3.52540717e-09  3.43736648e-09  1.55862458e-07  4.10142675e-09  4.90000000e-01 
 5.00000000e-01  4.56986695e-01  4.56986695e-01  3.77596062e-09  3.20888780e-09  3.43107539e-09  3.52540717e-09  3.43736646e-09  1.55862458e-07  4.10128820e-09  5.00000000e-01 
 5.10000000e-01  4.56986697e-01  4.56986696e-01  3.77596062e-09  3.20888775e-09  3.43107534e-09  3.52540717e-09  3.43736647e-09  1.55862461e-07  4.10108214e-09  5.10000000e-01 
 5.20000000e-01  4.56986703e-01  4.56986703e-01  3.77596062e-09  3.20888780e-09  3.43107539e-09  3.52540717e-09  3.43736641e-09  1.55862456e-07  4.10109635e-09  5.20000000e-01 
 5.30000000e-01  4.56986719e-01  4.56986718e-01  3.77596062e-09  3.20888775e-09  3.43107534e-09  3.52540717e-09  3.43736648e-09  1.55862468e-07  4.10098622e-09  5.30000000e-01 
 5.40000000e-01  4.56986712e-01  4.56986712e-01  3.77596062e-09  3.20888775e-09  3.43107539e-09  3.52540717e-09  3.43736647e-09  1.55862475e-07  4.10094003e-09  5.40000000e-01 
 5.50000000e-01  4.56986702e-01  4.56986702e-01  3.77596062e-09  3.20888780e-09  3.43107534e-09  3.52540717e-09  3.43736641e-09  1.55862455e-07  4.10081569e-09  5.50000000e-01 
 5.60000000e-01  4.56986707e-01  4.56986707e-01  3.77596062e-09  3.20888775e-09  3.43107539e-09  3.52540717e-09  3.43736648e-09  1.55862485e-07  4.10069489e-09  5.60000000e-01 
 5.70000000e-01  4.56986697e-01  4.56986697e-01  3.77596062e-09  3.20888775e-09  3.43107539e-09  3.52540717e-09  3.43736646e-09  1.55862469e-07  4.10087253e-09  5.70000000e-01 
 5.80000000e-01  4.56986703e-01  4.56986702e-01  3.77596062e-09  3.20888775e-09  3.43107539e-09  3.52540717e-09  3.43736647e-09  1.55862465e-07  4.10079082e-09  5.80000000e-01 
 5.90000000e-01  4.56986703e-01  4.56986703e-01  3.77596062e-09  3.20888775e-09  3.43107539e-09  3.52540717e-09  3.43736647e-09  1.55862466e-07  4.10072687e-09  5.90000000e-01 
 6.00000000e-01  4.56986714e-01  4.56986714e-01  3.77596062e-09  3.20888775e-09  3.43107539e-09  3.52540717e-09  3.43736647e-09  1.55862477e-07  4.10063450e-09  6.00000000e-01 
 6.10000000e-01  4.56986712e-01  4.56986712e-01  3.77596062e-09  3.20888775e-09  3.43107534e-09  3.52540717e-09  3.43736647e-09  1.55862468e-07  4.10051371e-09  6.10000000e-01 
 6.20000000e-01  4.56986722e-01  4.56986722e-01  3.77596062e-09  3.20888781e-09  3.43107539e-09  3.52540717e-09  3.43736647e-09  1.55862487e-07  4.10050660e-09  6.20000000e-01 
 6.30000000e-01  4.56986690e-01  4.56986690e-01  3.77596062e-09  3.20888780e-09  3.43107533e-09  3.52540717e-09  3.43736647e-09  1.55862453e-07  4.10035739e-09  6.30000000e-01 
 6.40000000e-01  4.56986698e-01  4.56986698e-01  3.77596062e-09  3.20888775e-09  3.43107534e-09  3.52540717e-09  3.43736647e-09  1.55862469e-07  4.10025791e-09  6.40000000e-01 
 6.50000000e-01  4.56986703e-01  4.56986703e-01  3.77596062e-09  3.20888780e-09  3.43107539e-09  3.52540717e-09  3.43736647e-09  1.55862463e-07  4.10026502e-09  6.50000000e-01 
 6.60000000e-01  4.56986714e-01  4.56986713e-01  3.77596062e-09  3.20888775e-09  3.43107539e-09  3.52540717e-09  3.43736647e-09  1.55862486e-07  4.10019396e-09  6.60000000e-01 
 6.70000000e-01  4.56986695e-01  4.56986695e-01  3.77596062e-09  3.20888775e-09  3.43107539e-09  3.52540717e-09  3.43736641e-09  1.55862455e-07  4.10003054e-09  6.70000000e-01 
 6.80000000e-01  4.56986712e-01  4.56986712e-01  3.77596062e-09  3.20888775e-09  3.43107539e-09  3.52540717e-09  3.43736648e-09  1.55862482e-07  4.10014422e-09  6.80000000e-01 
 6.90000000e-01  4.56986689e-01  4.56986689e-01  3.77596062e-09  3.20888780e-09  3.43107539e-09  3.52540717e-09  3.43736641e-09  1.55862446e-07  4.10008738e-09  6.90000000e-01 
 7.00000000e-01  4.56986694e-01  4.56986693e-01  3.77596062e-09  3.20888775e-09  3.43107533e-09  3.52540717e-09  3.43736643e-09  1.55862456e-07  4.09997369e-09  7.00000000e-01 
 7.10000000e-01  4.56986707e-01  4.56986707e-01  3.77596062e-09  3.20888775e-09  3.43107539e-09  3.52540717e-09  3.43736648e-09  1.55862458e-07  4.09982448e-09  7.10000000e-01 
 7.20000000e-01  4.56986697e-01  4.56986696e-01  3.77596062e-09  3.20888775e-09  3.43107539e-09  3.52540717e-09  3.43736641e-09  1.55862452e-07  4.09993106e-09  7.20000000e-01 
 7.30000000e-01  4.56986691e-01  4.56986691e-01  3.77596062e-09  3.20888780e-09  3.43107539e-09  3.52540717e-09  3.43736643e-09  1.55862435e-07  4.09969658e-09  7.30000000e-01 
 7.40000000e-01  4.56986702e-01  4.56986702e-01  3.77596062e-09  3.20888775e-09  3.43107539e-09  3.52540717e-09  3.43736648e-09  1.55862454e-07  4.09978185e-09  7.40000000e-01 
 7.50000000e-01  4.56986676e-01  4.56986675e-01  3.77596062e-09  3.20888774e-09  3.43107533e-09  3.52540717e-09  3.43736646e-09  1.55862422e-07  4.09971790e-09  7.50000000e-01 
 7.60000000e-01  4.56986677e-01  4.56986677e-01  3.77596062e-09  3.20888774e-09  3.43107539e-09  3.52540717e-09  3.43736648e-09  1.55862428e-07  4.09966816e-09  7.60000000e-01 
 7.70000000e-01  4.56986715e-01  4.56986715e-01  3.77596062e-09  3.20888781e-09  3.43107539e-09  3.52540717e-09  3.43736647e-09  1.55862488e-07  4.09970369e-09  7.70000000e-01 
 7.80000000e-01  4.56986689e-01  4.56986689e-01  3.77596062e-09  3.20888780e-09  3.43107533e-09  3.52540717e-09  3.43736647e-09  1.55862445e-07  4.09956158e-09  7.80000000e-01 
 7.90000000e-01  4.56986685e-01  4.56986684e-01  3.77596062e-09  3.20888774e-09  3.43107539e-09  3.52540723e-09  3.43736641e-09  1.55862436e-07  4.09958290e-09  7.90000000e-01 
 8.00000000e-01  4.56986695e-01  4.56986695e-01  3.77596062e-09  3.20888780e-09  3.43107539e-09  3.52540716e-09  3.43736643e-09  1.55862448e-07  4.09943368e-09  8.00000000e-01 
 8.10000000e-01  4.56986693e-01  4.56986693e-01  3.77596062e-09  3.20888780e-09  3.43107539e-09  3.52540718e-09  3.43736648e-09  1.55862441e-07  4.09938394e-09  8.10000000e-01 
 8.20000000e-01  4.56986705e-01  4.56986705e-01  3.77596062e-09  3.20888775e-09  3.43107534e-09  3.52540717e-09  3.43736646e-09  1.55862464e-07  4.09933421e-09  8.20000000e-01 
 8.30000000e-01  4.56986698e-01  4.56986698e-01  3.77596062e-09  3.20888780e-09  3.43107534e-09  3.52540717e-09  3.43736647e-09  1.55862460e-07  4.09928447e-09  8.30000000e-01 
 8.40000000e-01  4.56986687e-01  4.56986687e-01  3.77596062e-09  3.20888774e-09  3.43107539e-09  3.52540717e-09  3.43736647e-09  1.55862439e-07  4.09916368e-09  8.40000000e-01 
 8.50000000e-01  4.56986697e-01  4.56986697e-01  3.77596062e-09  3.20888775e-09  3.43107534e-09  3.52540717e-09  3.43736647e-09  1.55862447e-07  4.09907841e-09  8.50000000e-01 
 8.60000000e-01  4.56986705e-01  4.56986705e-01  3.77596062e-09  3.20888775e-09  3.43107539e-09  3.52540717e-09  3.43736647e-09  1.55862450e-07  4.09905709e-09  8.60000000e-01 
 8.70000000e-01  4.56986692e-01  4.56986692e-01  3.77596062e-09  3.20888780e-09  3.43107539e-09  3.52540717e-09  3.43736641e-09  1.55862462e-07  4.09909262e-09  8.70000000e-01 
 8.80000000e-01  4.56986708e-01  4.56986708e-01  3.77596062e-09  3.20888775e-09  3.43107539e-09  3.52540717e-09  3.43736643e-09  1.55862474e-07  4.09894341e-09  8.80000000e-01 
 8.90000000e-01  4.56986724e-01  4.56986724e-01  3.77596062e-09  3.20888775e-09  3.43107534e-09  3.52540717e-09  3.43736648e-09  1.55862495e-07  4.09895051e-09  8.90000000e-01 
 9.00000000e-01  4.56986698e-01  4.56986698e-01  3.77596062e-09  3.20888775e-09  3.43107534e-09  3.52540717e-09  3.43736646e-09  1.55862442e-07  4.09884393e-09  9.00000000e-01 
 9.10000000e-01  4.56986712e-01  4.56986712e-01  3.77596062e-09  3.20888775e-09  3.43107539e-09  3.52540717e-09  3.43736641e-09  1.55862470e-07  4.09876577e-09  9.10000000e-01 
 9.20000000e-01  4.56986681e-01  4.56986681e-01  3.77596062e-09  3.20888780e-09  3.43107533e-09  3.52540717e-09  3.43736642e-09  1.55862435e-07  4.09863077e-09  9.20000000e-01 
 9.30000000e-01  4.56986708e-01  4.56986707e-01  3.77596062e-09  3.20888775e-09  3.43107534e-09  3.52540717e-09  3.43736648e-09  1.55862475e-07  4.09857392e-09  9.30000000e-01 
 9.40000000e-01  4.56986707e-01  4.56986707e-01  3.77596062e-09  3.20888780e-09  3.43107539e-09  3.52540723e-09  3.43736641e-09  1.55862461e-07  4.09853129e-09  9.40000000e-01 
 9.50000000e-01  4.56986710e-01  4.56986710e-01  3.77596062e-09  3.20888775e-09  3.43107539e-09  3.52540716e-09  3.43736648e-09  1.55862476e-07  4.09861656e-09  9.50000000e-01 
 9.60000000e-01  4.56986675e-01  4.56986675e-01  3.77596062e-09  3.20888774e-09  3.43107533e-09  3.52540718e-09  3.43736646e-09  1.55862419e-07  4.09836076e-09  9.60000000e-01 
 9.70000000e-01  4.56986712e-01  4.56986712e-01  3.77596062e-09  3.20888775e-09  3.43107539e-09  3.52540717e-09  3.43736643e-09  1.55862475e-07  4.09849576e-09  9.70000000e-01 
 9.80000000e-01  4.56986694e-01  4.56986693e-01  3.77596062e-09  3.20888775e-09  3.43107533e-09  3.52540717e-09  3.43736648e-09  1.55862450e-07  4.09837497e-09  9.80000000e-01 
 9.90000000e-01  4.56986711e-01  4.56986711e-01  3.77596062e-09  3.20888775e-09  3.43107539e-09  3.52540717e-09  3.43736647e-09  1.55862479e-07  4.09823997e-09  9.90000000e-01 
 1.00000000e+00  4.56986704e-01  4.56986704e-01  3.77596062e-09  3.20888775e-09  3.43107539e-09  3.52540717e-09  3.43736647e-09  1.55862480e-07  4.09823997e-09  1.00000000e+00 
 1.01000000e+00  4.56986708e-01  4.56986708e-01  3.77596062e-09  3.20888775e-09  3.43107539e-09  3.52540717e-09  3.43736647e-09  1.55862473e-07  4.09808365e-09  1.01000000e+00 
 1.02000000e+00  4.56986679e-01  4.56986679e-01  3.77596062e-09  3.20888780e-09  3.43107539e-09  3.52540717e-09  3.43736641e-09  1.55862429e-07  4.09807654e-09  1.02000000e+00 
 1.03000000e+00  4.56986710e-01  4.56986710e-01  3.77596062e-09  3.20888781e-09  3.43107539e-09  3.52540717e-09  3.43736648e-09  1.55862465e-07  4.09808365e-09  1.03000000e+00 
 1.04000000e+00  4.56986711e-01  4.56986711e-01  3.77596062e-09  3.20888781e-09  3.43107539e-09  3.52540717e-09  3.43736647e-09  1.55862476e-07  4.09798417e-09  1.04000000e+00 
 1.05000000e+00  4.56986679e-01  4.56986679e-01  3.77596062e-09  3.20888774e-09  3.43107539e-09  3.52540717e-09  3.43736641e-09  1.55862415e-07  4.09791312e-09  1.05000000e+00 
 1.06000000e+00  4.56986684e-01  4.56986684e-01  3.77596062e-09  3.20888780e-09  3.43107533e-09  3.52540717e-09  3.43736648e-09  1.55862435e-07  4.09786338e-09  1.06000000e+00 
 1.07000000e+00  4.56986696e-01  4.56986696e-01  3.77596062e-09  3.20888780e-09  3.43107534e-09  3.52540717e-09  3.43736646e-09  1.55862447e-07  4.09778522e-09  1.07000000e+00 
 1.08000000e+00  4.56986692e-01  4.56986692e-01  3.77596062e-09  3.20888775e-09  3.43107539e-09  3.52540717e-09  3.43736647e-09  1.55862432e-07  4.09767154e-09  1.08000000e+00 
 1.09000000e+00  4.56986701e-01  4.56986701e-01  3.77596062e-09  3.20888780e-09  3.43107539e-09  3.52540717e-09  3.43736641e-09  1.55862463e-07  4.09772838e-09  1.09000000e+00 
 1.10000000e+00  4.56986735e-01  4.56986734e-01  3.77596062e-09  3.20888775e-09  3.43107540e-09  3.52540717e-09  3.43736643e-09  1.55862507e-07  4.09770706e-09  1.10000000e+00 
