 v-sweep         v(b0)           v(b1)           v(b2)           v(b3)           v(b4)           v(b5)           v(b6)           i(vbias)        i(viout)        v(vout)        
 0.00000000e+00  3.23178550e-09  4.57570528e-01  3.44697012e-09  3.20434982e-09  3.34085199e-09  3.54321040e-09  4.57570528e-01  1.58435677e-07  9.60490311e-08  0.00000000e+00 
 1.00000000e-02  3.23178548e-09  4.57570545e-01  3.44697016e-09  3.20434986e-09  3.34085198e-09  3.54321044e-09  4.57570546e-01  1.58435710e-07  9.60488300e-08  1.00000000e-02 
 2.00000000e-02  3.23178554e-09  4.57570543e-01  3.44697010e-09  3.20434986e-09  3.34085198e-09  3.54321044e-09  4.57570543e-01  1.58435710e-07  9.60482405e-08  2.00000000e-02 
 3.00000000e-02  3.23178548e-09  4.57570551e-01  3.44697016e-09  3.20434980e-09  3.34085198e-09  3.54321038e-09  4.57570551e-01  1.58435721e-07  9.60478728e-08  3.00000000e-02 
 4.00000000e-02  3.23178548e-09  4.57570549e-01  3.44697010e-09  3.20434980e-09  3.34085198e-09  3.54321044e-09  4.57570549e-01  1.58435706e-07  9.60474780e-08  4.00000000e-02 
 5.00000000e-02  3.23178554e-09  4.57570544e-01  3.44697016e-09  3.20434980e-09  3.34085198e-09  3.54321038e-09  4.57570544e-01  1.58435705e-07  9.60471649e-08  5.00000000e-02 
 6.00000000e-02  3.23178554e-09  4.57570539e-01  3.44697016e-09  3.20434986e-09  3.34085198e-09  3.54321038e-09  4.57570539e-01  1.58435706e-07  9.60468882e-08  6.00000000e-02 
 7.00000000e-02  3.23178554e-09  4.57570539e-01  3.44697016e-09  3.20434986e-09  3.34085198e-09  3.54321038e-09  4.57570539e-01  1.58435693e-07  9.60465560e-08  7.00000000e-02 
 8.00000000e-02  3.23178548e-09  4.57570534e-01  3.44697010e-09  3.20434980e-09  3.34085198e-09  3.54321038e-09  4.57570534e-01  1.58435705e-07  9.60462714e-08  8.00000000e-02 
 9.00000000e-02  3.23178554e-09  4.57570526e-01  3.44697016e-09  3.20434980e-09  3.34085203e-09  3.54321043e-09  4.57570526e-01  1.58435675e-07  9.60459179e-08  9.00000000e-02 
 1.00000000e-01  3.23178548e-09  4.57570534e-01  3.44697016e-09  3.20434986e-09  3.34085198e-09  3.54321038e-09  4.57570534e-01  1.58435692e-07  9.60456772e-08  1.00000000e-01 
 1.10000000e-01  3.23178554e-09  4.57570521e-01  3.44697010e-09  3.20434980e-09  3.34085198e-09  3.54321038e-09  4.57570521e-01  1.58435673e-07  9.60454170e-08  1.10000000e-01 
 1.20000000e-01  3.23178554e-09  4.57570532e-01  3.44697016e-09  3.20434986e-09  3.34085198e-09  3.54321038e-09  4.57570532e-01  1.58435689e-07  9.60451274e-08  1.20000000e-01 
 1.30000000e-01  3.23178554e-09  4.57570528e-01  3.44697016e-09  3.20434980e-09  3.34085203e-09  3.54321043e-09  4.57570529e-01  1.58435672e-07  9.60449045e-08  1.30000000e-01 
 1.40000000e-01  3.23178554e-09  4.57570547e-01  3.44697016e-09  3.20434980e-09  3.34085198e-09  3.54321038e-09  4.57570547e-01  1.58435719e-07  9.60448521e-08  1.40000000e-01 
 1.50000000e-01  3.23178548e-09  4.57570531e-01  3.44697016e-09  3.20434980e-09  3.34085198e-09  3.54321038e-09  4.57570531e-01  1.58435693e-07  9.60445004e-08  1.50000000e-01 
 1.60000000e-01  3.23178548e-09  4.57570553e-01  3.44697016e-09  3.20434980e-09  3.34085198e-09  3.54321038e-09  4.57570553e-01  1.58435718e-07  9.60444542e-08  1.60000000e-01 
 1.70000000e-01  3.23178554e-09  4.57570544e-01  3.44697016e-09  3.20434980e-09  3.34085198e-09  3.54321038e-09  4.57570544e-01  1.58435708e-07  9.60440794e-08  1.70000000e-01 
 1.80000000e-01  3.23178548e-09  4.57570530e-01  3.44697016e-09  3.20434986e-09  3.34085198e-09  3.54321043e-09  4.57570530e-01  1.58435695e-07  9.60440492e-08  1.80000000e-01 
 1.90000000e-01  3.23178548e-09  4.57570539e-01  3.44697016e-09  3.20434986e-09  3.34085198e-09  3.54321038e-09  4.57570539e-01  1.58435706e-07  9.60437756e-08  1.90000000e-01 
 2.00000000e-01  3.23178554e-09  4.57570553e-01  3.44697016e-09  3.20434980e-09  3.34085198e-09  3.54321038e-09  4.57570553e-01  1.58435714e-07  9.60437259e-08  2.00000000e-01 
 2.10000000e-01  3.23178548e-09  4.57570540e-01  3.44697016e-09  3.20434980e-09  3.34085198e-09  3.54321038e-09  4.57570540e-01  1.58435702e-07  9.60433120e-08  2.10000000e-01 
 2.20000000e-01  3.23178554e-09  4.57570549e-01  3.44697010e-09  3.20434986e-09  3.34085203e-09  3.54321038e-09  4.57570549e-01  1.58435725e-07  9.60432622e-08  2.20000000e-01 
 2.30000000e-01  3.23178548e-09  4.57570553e-01  3.44697010e-09  3.20434986e-09  3.34085198e-09  3.54321038e-09  4.57570554e-01  1.58435727e-07  9.60430633e-08  2.30000000e-01 
 2.40000000e-01  3.23178548e-09  4.57570536e-01  3.44697016e-09  3.20434980e-09  3.34085198e-09  3.54321038e-09  4.57570536e-01  1.58435683e-07  9.60430064e-08  2.40000000e-01 
 2.50000000e-01  3.23178554e-09  4.57570527e-01  3.44697010e-09  3.20434986e-09  3.34085198e-09  3.54321043e-09  4.57570527e-01  1.58435685e-07  9.60427915e-08  2.50000000e-01 
 2.60000000e-01  3.23178548e-09  4.57570548e-01  3.44697010e-09  3.20434986e-09  3.34085203e-09  3.54321044e-09  4.57570548e-01  1.58435726e-07  9.60427631e-08  2.60000000e-01 
 2.70000000e-01  3.23178554e-09  4.57570530e-01  3.44697016e-09  3.20434980e-09  3.34085198e-09  3.54321038e-09  4.57570530e-01  1.58435686e-07  9.60424540e-08  2.70000000e-01 
 2.80000000e-01  3.23178554e-09  4.57570528e-01  3.44697016e-09  3.20434980e-09  3.34085203e-09  3.54321038e-09  4.57570528e-01  1.58435678e-07  9.60423296e-08  2.80000000e-01 
 2.90000000e-01  3.23178554e-09  4.57570551e-01  3.44697016e-09  3.20434986e-09  3.34085198e-09  3.54321038e-09  4.57570551e-01  1.58435724e-07  9.60423421e-08  2.90000000e-01 
 3.00000000e-01  3.23178554e-09  4.57570528e-01  3.44697010e-09  3.20434980e-09  3.34085198e-09  3.54321038e-09  4.57570528e-01  1.58435695e-07  9.60422000e-08  3.00000000e-01 
 3.10000000e-01  3.23178554e-09  4.57570522e-01  3.44697010e-09  3.20434986e-09  3.34085198e-09  3.54321043e-09  4.57570522e-01  1.58435674e-07  9.60420330e-08  3.10000000e-01 
 3.20000000e-01  3.23178548e-09  4.57570549e-01  3.44697016e-09  3.20434986e-09  3.34085198e-09  3.54321044e-09  4.57570549e-01  1.58435721e-07  9.60418873e-08  3.20000000e-01 
 3.30000000e-01  3.23178548e-09  4.57570525e-01  3.44697016e-09  3.20434980e-09  3.34085198e-09  3.54321038e-09  4.57570525e-01  1.58435678e-07  9.60417950e-08  3.30000000e-01 
 3.40000000e-01  3.23178554e-09  4.57570536e-01  3.44697016e-09  3.20434986e-09  3.34085198e-09  3.54321038e-09  4.57570536e-01  1.58435705e-07  9.60416600e-08  3.40000000e-01 
 3.50000000e-01  3.23178554e-09  4.57570542e-01  3.44697010e-09  3.20434980e-09  3.34085203e-09  3.54321044e-09  4.57570542e-01  1.58435712e-07  9.60416777e-08  3.50000000e-01 
 3.60000000e-01  3.23178548e-09  4.57570554e-01  3.44697016e-09  3.20434980e-09  3.34085198e-09  3.54321038e-09  4.57570555e-01  1.58435709e-07  9.60416280e-08  3.60000000e-01 
 3.70000000e-01  3.23178548e-09  4.57570521e-01  3.44697016e-09  3.20434980e-09  3.34085198e-09  3.54321038e-09  4.57570521e-01  1.58435662e-07  9.60414646e-08  3.70000000e-01 
 3.80000000e-01  3.23178554e-09  4.57570558e-01  3.44697016e-09  3.20434986e-09  3.34085203e-09  3.54321038e-09  4.57570558e-01  1.58435737e-07  9.60414148e-08  3.80000000e-01 
 3.90000000e-01  3.23178554e-09  4.57570538e-01  3.44697016e-09  3.20434980e-09  3.34085198e-09  3.54321043e-09  4.57570538e-01  1.58435702e-07  9.60412905e-08  3.90000000e-01 
 4.00000000e-01  3.23178548e-09  4.57570552e-01  3.44697016e-09  3.20434980e-09  3.34085198e-09  3.54321038e-09  4.57570553e-01  1.58435732e-07  9.60412265e-08  4.00000000e-01 
 4.10000000e-01  3.23178548e-09  4.57570538e-01  3.44697016e-09  3.20434980e-09  3.34085198e-09  3.54321038e-09  4.57570539e-01  1.58435695e-07  9.60410809e-08  4.10000000e-01 
 4.20000000e-01  3.23178554e-09  4.57570542e-01  3.44697016e-09  3.20434986e-09  3.34085198e-09  3.54321038e-09  4.57570542e-01  1.58435709e-07  9.60410134e-08  4.20000000e-01 
 4.30000000e-01  3.23178554e-09  4.57570537e-01  3.44697010e-09  3.20434980e-09  3.34085198e-09  3.54321038e-09  4.57570537e-01  1.58435700e-07  9.60408642e-08  4.30000000e-01 
 4.40000000e-01  3.23178548e-09  4.57570543e-01  3.44697010e-09  3.20434980e-09  3.34085203e-09  3.54321038e-09  4.57570543e-01  1.58435713e-07  9.60407966e-08  4.40000000e-01 
 4.50000000e-01  3.23178554e-09  4.57570549e-01  3.44697016e-09  3.20434986e-09  3.34085198e-09  3.54321038e-09  4.57570549e-01  1.58435705e-07  9.60407860e-08  4.50000000e-01 
 4.60000000e-01  3.23178548e-09  4.57570557e-01  3.44697016e-09  3.20434980e-09  3.34085198e-09  3.54321038e-09  4.57570557e-01  1.58435732e-07  9.60406688e-08  4.60000000e-01 
 4.70000000e-01  3.23178554e-09  4.57570532e-01  3.44697016e-09  3.20434986e-09  3.34085203e-09  3.54321038e-09  4.57570532e-01  1.58435691e-07  9.60404769e-08  4.70000000e-01 
 4.80000000e-01  3.23178548e-09  4.57570543e-01  3.44697016e-09  3.20434986e-09  3.34085198e-09  3.54321038e-09  4.57570543e-01  1.58435708e-07  9.60404236e-08  4.80000000e-01 
 4.90000000e-01  3.23178548e-09  4.57570537e-01  3.44697016e-09  3.20434986e-09  3.34085198e-09  3.54321038e-09  4.57570537e-01  1.58435683e-07  9.60403561e-08  4.90000000e-01 
 5.00000000e-01  3.23178548e-09  4.57570543e-01  3.44697016e-09  3.20434986e-09  3.34085203e-09  3.54321038e-09  4.57570543e-01  1.58435714e-07  9.60402389e-08  5.00000000e-01 
 5.10000000e-01  3.23178548e-09  4.57570530e-01  3.44697016e-09  3.20434986e-09  3.34085198e-09  3.54321038e-09  4.57570530e-01  1.58435697e-07  9.60401714e-08  5.10000000e-01 
 5.20000000e-01  3.23178554e-09  4.57570556e-01  3.44697016e-09  3.20434986e-09  3.34085198e-09  3.54321038e-09  4.57570556e-01  1.58435732e-07  9.60402424e-08  5.20000000e-01 
 5.30000000e-01  3.23178554e-09  4.57570520e-01  3.44697016e-09  3.20434986e-09  3.34085198e-09  3.54321038e-09  4.57570520e-01  1.58435679e-07  9.60400968e-08  5.30000000e-01 
 5.40000000e-01  3.23178548e-09  4.57570541e-01  3.44697016e-09  3.20434980e-09  3.34085203e-09  3.54321038e-09  4.57570541e-01  1.58435696e-07  9.60400541e-08  5.40000000e-01 
 5.50000000e-01  3.23178554e-09  4.57570562e-01  3.44697010e-09  3.20434980e-09  3.34085198e-09  3.54321038e-09  4.57570562e-01  1.58435737e-07  9.60399973e-08  5.50000000e-01 
 5.60000000e-01  3.23178548e-09  4.57570534e-01  3.44697016e-09  3.20434986e-09  3.34085198e-09  3.54321038e-09  4.57570534e-01  1.58435693e-07  9.60398197e-08  5.60000000e-01 
 5.70000000e-01  3.23178554e-09  4.57570540e-01  3.44697016e-09  3.20434986e-09  3.34085198e-09  3.54321038e-09  4.57570541e-01  1.58435708e-07  9.60397841e-08  5.70000000e-01 
 5.80000000e-01  3.23178554e-09  4.57570532e-01  3.44697016e-09  3.20434980e-09  3.34085198e-09  3.54321038e-09  4.57570532e-01  1.58435696e-07  9.60396136e-08  5.80000000e-01 
 5.90000000e-01  3.23178554e-09  4.57570546e-01  3.44697016e-09  3.20434986e-09  3.34085198e-09  3.54321044e-09  4.57570546e-01  1.58435720e-07  9.60396420e-08  5.90000000e-01 
 6.00000000e-01  3.23178548e-09  4.57570538e-01  3.44697016e-09  3.20434980e-09  3.34085198e-09  3.54321038e-09  4.57570538e-01  1.58435693e-07  9.60394573e-08  6.00000000e-01 
 6.10000000e-01  3.23178548e-09  4.57570535e-01  3.44697016e-09  3.20434980e-09  3.34085198e-09  3.54321043e-09  4.57570535e-01  1.58435702e-07  9.60394715e-08  6.10000000e-01 
 6.20000000e-01  3.23178548e-09  4.57570531e-01  3.44697016e-09  3.20434986e-09  3.34085203e-09  3.54321038e-09  4.57570531e-01  1.58435688e-07  9.60393152e-08  6.20000000e-01 
 6.30000000e-01  3.23178548e-09  4.57570543e-01  3.44697016e-09  3.20434986e-09  3.34085198e-09  3.54321038e-09  4.57570543e-01  1.58435697e-07  9.60392939e-08  6.30000000e-01 
 6.40000000e-01  3.23178548e-09  4.57570545e-01  3.44697016e-09  3.20434980e-09  3.34085203e-09  3.54321038e-09  4.57570546e-01  1.58435705e-07  9.60392939e-08  6.40000000e-01 
 6.50000000e-01  3.23178554e-09  4.57570534e-01  3.44697016e-09  3.20434986e-09  3.34085203e-09  3.54321038e-09  4.57570534e-01  1.58435685e-07  9.60390167e-08  6.50000000e-01 
 6.60000000e-01  3.23178554e-09  4.57570541e-01  3.44697016e-09  3.20434986e-09  3.34085198e-09  3.54321038e-09  4.57570541e-01  1.58435700e-07  9.60391517e-08  6.60000000e-01 
 6.70000000e-01  3.23178548e-09  4.57570541e-01  3.44697010e-09  3.20434980e-09  3.34085198e-09  3.54321038e-09  4.57570541e-01  1.58435708e-07  9.60389883e-08  6.70000000e-01 
 6.80000000e-01  3.23178548e-09  4.57570530e-01  3.44697016e-09  3.20434980e-09  3.34085198e-09  3.54321038e-09  4.57570530e-01  1.58435682e-07  9.60389173e-08  6.80000000e-01 
 6.90000000e-01  3.23178548e-09  4.57570550e-01  3.44697016e-09  3.20434980e-09  3.34085198e-09  3.54321038e-09  4.57570550e-01  1.58435722e-07  9.60388817e-08  6.90000000e-01 
 7.00000000e-01  3.23178554e-09  4.57570520e-01  3.44697016e-09  3.20434980e-09  3.34085198e-09  3.54321043e-09  4.57570520e-01  1.58435677e-07  9.60388959e-08  7.00000000e-01 
 7.10000000e-01  3.23178554e-09  4.57570539e-01  3.44697016e-09  3.20434986e-09  3.34085198e-09  3.54321038e-09  4.57570539e-01  1.58435702e-07  9.60387538e-08  7.10000000e-01 
 7.20000000e-01  3.23178554e-09  4.57570561e-01  3.44697016e-09  3.20434980e-09  3.34085198e-09  3.54321038e-09  4.57570561e-01  1.58435727e-07  9.60386899e-08  7.20000000e-01 
 7.30000000e-01  3.23178548e-09  4.57570548e-01  3.44697016e-09  3.20434980e-09  3.34085203e-09  3.54321038e-09  4.57570548e-01  1.58435702e-07  9.60385407e-08  7.30000000e-01 
 7.40000000e-01  3.23178548e-09  4.57570536e-01  3.44697016e-09  3.20434980e-09  3.34085198e-09  3.54321038e-09  4.57570536e-01  1.58435713e-07  9.60384767e-08  7.40000000e-01 
 7.50000000e-01  3.23178554e-09  4.57570554e-01  3.44697016e-09  3.20434980e-09  3.34085198e-09  3.54321038e-09  4.57570554e-01  1.58435725e-07  9.60383773e-08  7.50000000e-01 
 7.60000000e-01  3.23178548e-09  4.57570534e-01  3.44697016e-09  3.20434980e-09  3.34085198e-09  3.54321038e-09  4.57570534e-01  1.58435700e-07  9.60383488e-08  7.60000000e-01 
 7.70000000e-01  3.23178554e-09  4.57570538e-01  3.44697016e-09  3.20434980e-09  3.34085203e-09  3.54321043e-09  4.57570538e-01  1.58435705e-07  9.60384057e-08  7.70000000e-01 
 7.80000000e-01  3.23178554e-09  4.57570535e-01  3.44697010e-09  3.20434980e-09  3.34085198e-09  3.54321043e-09  4.57570535e-01  1.58435701e-07  9.60382422e-08  7.80000000e-01 
 7.90000000e-01  3.23178554e-09  4.57570546e-01  3.44697016e-09  3.20434980e-09  3.34085203e-09  3.54321038e-09  4.57570546e-01  1.58435714e-07  9.60380433e-08  7.90000000e-01 
 8.00000000e-01  3.23178554e-09  4.57570538e-01  3.44697016e-09  3.20434986e-09  3.34085198e-09  3.54321038e-09  4.57570538e-01  1.58435704e-07  9.60379865e-08  8.00000000e-01 
 8.10000000e-01  3.23178548e-09  4.57570538e-01  3.44697016e-09  3.20434986e-09  3.34085198e-09  3.54321038e-09  4.57570538e-01  1.58435712e-07  9.60379225e-08  8.10000000e-01 
 8.20000000e-01  3.23178554e-09  4.57570535e-01  3.44697016e-09  3.20434980e-09  3.34085198e-09  3.54321038e-09  4.57570535e-01  1.58435695e-07  9.60378728e-08  8.20000000e-01 
 8.30000000e-01  3.23178548e-09  4.57570542e-01  3.44697016e-09  3.20434986e-09  3.34085198e-09  3.54321038e-09  4.57570542e-01  1.58435704e-07  9.60377662e-08  8.30000000e-01 
 8.40000000e-01  3.23178548e-09  4.57570563e-01  3.44697010e-09  3.20434986e-09  3.34085198e-09  3.54321038e-09  4.57570564e-01  1.58435741e-07  9.60378799e-08  8.40000000e-01 
 8.50000000e-01  3.23178554e-09  4.57570539e-01  3.44697016e-09  3.20434980e-09  3.34085198e-09  3.54321038e-09  4.57570540e-01  1.58435699e-07  9.60377022e-08  8.50000000e-01 
 8.60000000e-01  3.23178554e-09  4.57570524e-01  3.44697010e-09  3.20434980e-09  3.34085203e-09  3.54321038e-09  4.57570524e-01  1.58435685e-07  9.60375033e-08  8.60000000e-01 
 8.70000000e-01  3.23178554e-09  4.57570525e-01  3.44697016e-09  3.20434980e-09  3.34085198e-09  3.54321043e-09  4.57570525e-01  1.58435687e-07  9.60375388e-08  8.70000000e-01 
 8.80000000e-01  3.23178548e-09  4.57570549e-01  3.44697016e-09  3.20434986e-09  3.34085198e-09  3.54321044e-09  4.57570549e-01  1.58435725e-07  9.60374322e-08  8.80000000e-01 
 8.90000000e-01  3.23178554e-09  4.57570533e-01  3.44697010e-09  3.20434980e-09  3.34085203e-09  3.54321038e-09  4.57570533e-01  1.58435691e-07  9.60374180e-08  8.90000000e-01 
 9.00000000e-01  3.23178554e-09  4.57570524e-01  3.44697016e-09  3.20434986e-09  3.34085198e-09  3.54321038e-09  4.57570524e-01  1.58435674e-07  9.60372617e-08  9.00000000e-01 
 9.10000000e-01  3.23178554e-09  4.57570542e-01  3.44697016e-09  3.20434980e-09  3.34085198e-09  3.54321038e-09  4.57570542e-01  1.58435703e-07  9.60372475e-08  9.10000000e-01 
 9.20000000e-01  3.23178548e-09  4.57570551e-01  3.44697016e-09  3.20434980e-09  3.34085198e-09  3.54321038e-09  4.57570551e-01  1.58435720e-07  9.60371977e-08  9.20000000e-01 
 9.30000000e-01  3.23178554e-09  4.57570541e-01  3.44697010e-09  3.20434980e-09  3.34085198e-09  3.54321038e-09  4.57570541e-01  1.58435698e-07  9.60370983e-08  9.30000000e-01 
 9.40000000e-01  3.23178548e-09  4.57570558e-01  3.44697016e-09  3.20434980e-09  3.34085198e-09  3.54321038e-09  4.57570558e-01  1.58435739e-07  9.60369277e-08  9.40000000e-01 
 9.50000000e-01  3.23178548e-09  4.57570542e-01  3.44697010e-09  3.20434986e-09  3.34085198e-09  3.54321044e-09  4.57570542e-01  1.58435705e-07  9.60369562e-08  9.50000000e-01 
 9.60000000e-01  3.23178554e-09  4.57570531e-01  3.44697016e-09  3.20434986e-09  3.34085198e-09  3.54321038e-09  4.57570531e-01  1.58435692e-07  9.60368638e-08  9.60000000e-01 
 9.70000000e-01  3.23178548e-09  4.57570554e-01  3.44697010e-09  3.20434980e-09  3.34085198e-09  3.54321038e-09  4.57570554e-01  1.58435728e-07  9.60368496e-08  9.70000000e-01 
 9.80000000e-01  3.23178548e-09  4.57570517e-01  3.44697016e-09  3.20434980e-09  3.34085198e-09  3.54321038e-09  4.57570517e-01  1.58435678e-07  9.60366577e-08  9.80000000e-01 
 9.90000000e-01  3.23178548e-09  4.57570541e-01  3.44697016e-09  3.20434986e-09  3.34085203e-09  3.54321038e-09  4.57570541e-01  1.58435694e-07  9.60365512e-08  9.90000000e-01 
 1.00000000e+00  3.23178548e-09  4.57570515e-01  3.44697016e-09  3.20434980e-09  3.34085197e-09  3.54321038e-09  4.57570515e-01  1.58435661e-07  9.60364233e-08  1.00000000e+00 
 1.01000000e+00  3.23178548e-09  4.57570552e-01  3.44697016e-09  3.20434980e-09  3.34085198e-09  3.54321044e-09  4.57570552e-01  1.58435706e-07  9.60365369e-08  1.01000000e+00 
 1.02000000e+00  3.23178548e-09  4.57570527e-01  3.44697010e-09  3.20434986e-09  3.34085198e-09  3.54321038e-09  4.57570527e-01  1.58435690e-07  9.60363380e-08  1.02000000e+00 
 1.03000000e+00  3.23178554e-09  4.57570527e-01  3.44697016e-09  3.20434986e-09  3.34085198e-09  3.54321038e-09  4.57570527e-01  1.58435687e-07  9.60361817e-08  1.03000000e+00 
 1.04000000e+00  3.23178548e-09  4.57570539e-01  3.44697010e-09  3.20434980e-09  3.34085198e-09  3.54321038e-09  4.57570539e-01  1.58435707e-07  9.60360609e-08  1.04000000e+00 
 1.05000000e+00  3.23178548e-09  4.57570547e-01  3.44697016e-09  3.20434986e-09  3.34085198e-09  3.54321038e-09  4.57570548e-01  1.58435711e-07  9.60360111e-08  1.05000000e+00 
 1.06000000e+00  3.23178548e-09  4.57570535e-01  3.44697016e-09  3.20434980e-09  3.34085198e-09  3.54321038e-09  4.57570535e-01  1.58435697e-07  9.60361177e-08  1.06000000e+00 
 1.07000000e+00  3.23178554e-09  4.57570533e-01  3.44697016e-09  3.20434986e-09  3.34085198e-09  3.54321038e-09  4.57570533e-01  1.58435699e-07  9.60357482e-08  1.07000000e+00 
 1.08000000e+00  3.23178554e-09  4.57570538e-01  3.44697016e-09  3.20434980e-09  3.34085198e-09  3.54321038e-09  4.57570538e-01  1.58435698e-07  9.60358477e-08  1.08000000e+00 
 1.09000000e+00  3.23178548e-09  4.57570535e-01  3.44697016e-09  3.20434986e-09  3.34085198e-09  3.54321038e-09  4.57570535e-01  1.58435701e-07  9.60358193e-08  1.09000000e+00 
 1.10000000e+00  3.23178554e-09  4.57570552e-01  3.44697016e-09  3.20434986e-09  3.34085198e-09  3.54321038e-09  4.57570552e-01  1.58435725e-07  9.60356630e-08  1.10000000e+00 
