 v-sweep         v(b0)           v(b1)           v(b2)           v(b3)           v(b4)           v(b5)           v(b6)           i(vbias)        i(viout)        v(vout)        
 0.00000000e+00  3.31689370e-09  4.55841862e-01  3.46259851e-09  4.55841862e-01  4.55841862e-01  3.26943392e-09  4.55841862e-01  1.53929337e-07  1.35010613e-07  0.00000000e+00 
 1.00000000e-02  3.31689368e-09  4.55841869e-01  3.46259853e-09  4.55841869e-01  4.55841869e-01  3.26943395e-09  4.55841869e-01  1.53929346e-07  1.35010037e-07  1.00000000e-02 
 2.00000000e-02  3.31689374e-09  4.55841882e-01  3.46259853e-09  4.55841882e-01  4.55841882e-01  3.26943389e-09  4.55841882e-01  1.53929375e-07  1.35009617e-07  2.00000000e-02 
 3.00000000e-02  3.31689372e-09  4.55841850e-01  3.46259853e-09  4.55841850e-01  4.55841850e-01  3.26943395e-09  4.55841850e-01  1.53929326e-07  1.35009245e-07  3.00000000e-02 
 4.00000000e-02  3.31689373e-09  4.55841865e-01  3.46259847e-09  4.55841865e-01  4.55841865e-01  3.26943395e-09  4.55841865e-01  1.53929345e-07  1.35008857e-07  4.00000000e-02 
 5.00000000e-02  3.31689368e-09  4.55841880e-01  3.46259855e-09  4.55841880e-01  4.55841880e-01  3.26943395e-09  4.55841880e-01  1.53929367e-07  1.35008541e-07  5.00000000e-02 
 6.00000000e-02  3.31689374e-09  4.55841874e-01  3.46259847e-09  4.55841874e-01  4.55841874e-01  3.26943395e-09  4.55841874e-01  1.53929363e-07  1.35008212e-07  6.00000000e-02 
 7.00000000e-02  3.31689373e-09  4.55841873e-01  3.46259849e-09  4.55841873e-01  4.55841873e-01  3.26943395e-09  4.55841873e-01  1.53929355e-07  1.35007935e-07  7.00000000e-02 
 8.00000000e-02  3.31689373e-09  4.55841868e-01  3.46259848e-09  4.55841868e-01  4.55841868e-01  3.26943395e-09  4.55841868e-01  1.53929355e-07  1.35007496e-07  8.00000000e-02 
 9.00000000e-02  3.31689373e-09  4.55841885e-01  3.46259848e-09  4.55841885e-01  4.55841885e-01  3.26943389e-09  4.55841885e-01  1.53929379e-07  1.35007229e-07  9.00000000e-02 
 1.00000000e-01  3.31689373e-09  4.55841856e-01  3.46259854e-09  4.55841856e-01  4.55841856e-01  3.26943395e-09  4.55841856e-01  1.53929346e-07  1.35006949e-07  1.00000000e-01 
 1.10000000e-01  3.31689373e-09  4.55841856e-01  3.46259852e-09  4.55841856e-01  4.55841856e-01  3.26943395e-09  4.55841856e-01  1.53929339e-07  1.35006641e-07  1.10000000e-01 
 1.20000000e-01  3.31689373e-09  4.55841863e-01  3.46259853e-09  4.55841863e-01  4.55841863e-01  3.26943395e-09  4.55841863e-01  1.53929345e-07  1.35006430e-07  1.20000000e-01 
 1.30000000e-01  3.31689367e-09  4.55841865e-01  3.46259847e-09  4.55841865e-01  4.55841865e-01  3.26943395e-09  4.55841865e-01  1.53929342e-07  1.35006170e-07  1.30000000e-01 
 1.40000000e-01  3.31689374e-09  4.55841860e-01  3.46259849e-09  4.55841860e-01  4.55841860e-01  3.26943395e-09  4.55841860e-01  1.53929337e-07  1.35005918e-07  1.40000000e-01 
 1.50000000e-01  3.31689372e-09  4.55841841e-01  3.46259848e-09  4.55841841e-01  4.55841841e-01  3.26943395e-09  4.55841841e-01  1.53929300e-07  1.35005648e-07  1.50000000e-01 
 1.60000000e-01  3.31689373e-09  4.55841849e-01  3.46259848e-09  4.55841849e-01  4.55841849e-01  3.26943395e-09  4.55841849e-01  1.53929318e-07  1.35005454e-07  1.60000000e-01 
 1.70000000e-01  3.31689373e-09  4.55841870e-01  3.46259848e-09  4.55841870e-01  4.55841870e-01  3.26943389e-09  4.55841870e-01  1.53929353e-07  1.35005203e-07  1.70000000e-01 
 1.80000000e-01  3.31689373e-09  4.55841867e-01  3.46259854e-09  4.55841867e-01  4.55841867e-01  3.26943395e-09  4.55841867e-01  1.53929344e-07  1.35005058e-07  1.80000000e-01 
 1.90000000e-01  3.31689373e-09  4.55841856e-01  3.46259852e-09  4.55841856e-01  4.55841856e-01  3.26943389e-09  4.55841856e-01  1.53929332e-07  1.35004923e-07  1.90000000e-01 
 2.00000000e-01  3.31689368e-09  4.55841874e-01  3.46259848e-09  4.55841874e-01  4.55841874e-01  3.26943389e-09  4.55841874e-01  1.53929354e-07  1.35004660e-07  2.00000000e-01 
 2.10000000e-01  3.31689374e-09  4.55841882e-01  3.46259849e-09  4.55841882e-01  4.55841882e-01  3.26943395e-09  4.55841882e-01  1.53929384e-07  1.35004571e-07  2.10000000e-01 
 2.20000000e-01  3.31689372e-09  4.55841833e-01  3.46259853e-09  4.55841833e-01  4.55841833e-01  3.26943395e-09  4.55841833e-01  1.53929316e-07  1.35004226e-07  2.20000000e-01 
 2.30000000e-01  3.31689367e-09  4.55841856e-01  3.46259852e-09  4.55841856e-01  4.55841856e-01  3.26943395e-09  4.55841855e-01  1.53929329e-07  1.35004067e-07  2.30000000e-01 
 2.40000000e-01  3.31689369e-09  4.55841877e-01  3.46259848e-09  4.55841877e-01  4.55841877e-01  3.26943395e-09  4.55841877e-01  1.53929368e-07  1.35004017e-07  2.40000000e-01 
 2.50000000e-01  3.31689374e-09  4.55841839e-01  3.46259848e-09  4.55841839e-01  4.55841839e-01  3.26943389e-09  4.55841839e-01  1.53929315e-07  1.35003758e-07  2.50000000e-01 
 2.60000000e-01  3.31689373e-09  4.55841863e-01  3.46259848e-09  4.55841863e-01  4.55841863e-01  3.26943395e-09  4.55841863e-01  1.53929334e-07  1.35003637e-07  2.60000000e-01 
 2.70000000e-01  3.31689373e-09  4.55841890e-01  3.46259854e-09  4.55841890e-01  4.55841890e-01  3.26943395e-09  4.55841890e-01  1.53929389e-07  1.35003612e-07  2.70000000e-01 
 2.80000000e-01  3.31689373e-09  4.55841866e-01  3.46259853e-09  4.55841866e-01  4.55841866e-01  3.26943395e-09  4.55841866e-01  1.53929355e-07  1.35003447e-07  2.80000000e-01 
 2.90000000e-01  3.31689373e-09  4.55841861e-01  3.46259853e-09  4.55841861e-01  4.55841860e-01  3.26943389e-09  4.55841860e-01  1.53929338e-07  1.35003223e-07  2.90000000e-01 
 3.00000000e-01  3.31689373e-09  4.55841861e-01  3.46259853e-09  4.55841861e-01  4.55841861e-01  3.26943395e-09  4.55841861e-01  1.53929342e-07  1.35003180e-07  3.00000000e-01 
 3.10000000e-01  3.31689373e-09  4.55841889e-01  3.46259853e-09  4.55841889e-01  4.55841889e-01  3.26943395e-09  4.55841889e-01  1.53929369e-07  1.35003162e-07  3.10000000e-01 
 3.20000000e-01  3.31689373e-09  4.55841864e-01  3.46259853e-09  4.55841864e-01  4.55841864e-01  3.26943395e-09  4.55841864e-01  1.53929366e-07  1.35002765e-07  3.20000000e-01 
 3.30000000e-01  3.31689373e-09  4.55841847e-01  3.46259853e-09  4.55841847e-01  4.55841847e-01  3.26943395e-09  4.55841847e-01  1.53929322e-07  1.35002608e-07  3.30000000e-01 
 3.40000000e-01  3.31689367e-09  4.55841854e-01  3.46259853e-09  4.55841854e-01  4.55841854e-01  3.26943395e-09  4.55841854e-01  1.53929325e-07  1.35002626e-07  3.40000000e-01 
 3.50000000e-01  3.31689369e-09  4.55841858e-01  3.46259853e-09  4.55841858e-01  4.55841858e-01  3.26943395e-09  4.55841858e-01  1.53929326e-07  1.35002427e-07  3.50000000e-01 
 3.60000000e-01  3.31689374e-09  4.55841857e-01  3.46259853e-09  4.55841857e-01  4.55841857e-01  3.26943395e-09  4.55841857e-01  1.53929326e-07  1.35002367e-07  3.60000000e-01 
 3.70000000e-01  3.31689373e-09  4.55841855e-01  3.46259847e-09  4.55841855e-01  4.55841855e-01  3.26943389e-09  4.55841854e-01  1.53929333e-07  1.35002271e-07  3.70000000e-01 
 3.80000000e-01  3.31689367e-09  4.55841855e-01  3.46259849e-09  4.55841855e-01  4.55841855e-01  3.26943395e-09  4.55841855e-01  1.53929329e-07  1.35002196e-07  3.80000000e-01 
 3.90000000e-01  3.31689369e-09  4.55841863e-01  3.46259854e-09  4.55841863e-01  4.55841863e-01  3.26943395e-09  4.55841863e-01  1.53929336e-07  1.35001873e-07  3.90000000e-01 
 4.00000000e-01  3.31689374e-09  4.55841856e-01  3.46259852e-09  4.55841856e-01  4.55841856e-01  3.26943395e-09  4.55841856e-01  1.53929330e-07  1.35001901e-07  4.00000000e-01 
 4.10000000e-01  3.31689373e-09  4.55841879e-01  3.46259848e-09  4.55841879e-01  4.55841879e-01  3.26943395e-09  4.55841879e-01  1.53929366e-07  1.35001866e-07  4.10000000e-01 
 4.20000000e-01  3.31689373e-09  4.55841884e-01  3.46259855e-09  4.55841884e-01  4.55841883e-01  3.26943389e-09  4.55841883e-01  1.53929395e-07  1.35001699e-07  4.20000000e-01 
 4.30000000e-01  3.31689373e-09  4.55841871e-01  3.46259853e-09  4.55841871e-01  4.55841871e-01  3.26943395e-09  4.55841871e-01  1.53929372e-07  1.35001670e-07  4.30000000e-01 
 4.40000000e-01  3.31689373e-09  4.55841851e-01  3.46259853e-09  4.55841851e-01  4.55841851e-01  3.26943395e-09  4.55841851e-01  1.53929325e-07  1.35001507e-07  4.40000000e-01 
 4.50000000e-01  3.31689373e-09  4.55841855e-01  3.46259853e-09  4.55841855e-01  4.55841855e-01  3.26943395e-09  4.55841855e-01  1.53929326e-07  1.35001397e-07  4.50000000e-01 
 4.60000000e-01  3.31689373e-09  4.55841867e-01  3.46259853e-09  4.55841867e-01  4.55841867e-01  3.26943395e-09  4.55841866e-01  1.53929353e-07  1.35001340e-07  4.60000000e-01 
 4.70000000e-01  3.31689367e-09  4.55841851e-01  3.46259847e-09  4.55841851e-01  4.55841851e-01  3.26943395e-09  4.55841851e-01  1.53929331e-07  1.35001134e-07  4.70000000e-01 
 4.80000000e-01  3.31689369e-09  4.55841871e-01  3.46259854e-09  4.55841871e-01  4.55841871e-01  3.26943389e-09  4.55841871e-01  1.53929346e-07  1.35001095e-07  4.80000000e-01 
 4.90000000e-01  3.31689368e-09  4.55841868e-01  3.46259853e-09  4.55841868e-01  4.55841868e-01  3.26943395e-09  4.55841867e-01  1.53929357e-07  1.35001020e-07  4.90000000e-01 
 5.00000000e-01  3.31689374e-09  4.55841831e-01  3.46259853e-09  4.55841831e-01  4.55841831e-01  3.26943395e-09  4.55841831e-01  1.53929277e-07  1.35000739e-07  5.00000000e-01 
 5.10000000e-01  3.31689373e-09  4.55841867e-01  3.46259853e-09  4.55841867e-01  4.55841867e-01  3.26943395e-09  4.55841867e-01  1.53929345e-07  1.35000779e-07  5.10000000e-01 
 5.20000000e-01  3.31689373e-09  4.55841838e-01  3.46259853e-09  4.55841838e-01  4.55841838e-01  3.26943395e-09  4.55841838e-01  1.53929312e-07  1.35000668e-07  5.20000000e-01 
 5.30000000e-01  3.31689373e-09  4.55841875e-01  3.46259853e-09  4.55841875e-01  4.55841875e-01  3.26943389e-09  4.55841875e-01  1.53929343e-07  1.35000779e-07  5.30000000e-01 
 5.40000000e-01  3.31689373e-09  4.55841853e-01  3.46259853e-09  4.55841853e-01  4.55841853e-01  3.26943395e-09  4.55841853e-01  1.53929341e-07  1.35000498e-07  5.40000000e-01 
 5.50000000e-01  3.31689373e-09  4.55841858e-01  3.46259847e-09  4.55841858e-01  4.55841858e-01  3.26943395e-09  4.55841858e-01  1.53929340e-07  1.35000466e-07  5.50000000e-01 
 5.60000000e-01  3.31689373e-09  4.55841883e-01  3.46259849e-09  4.55841883e-01  4.55841883e-01  3.26943395e-09  4.55841883e-01  1.53929379e-07  1.35000484e-07  5.60000000e-01 
 5.70000000e-01  3.31689373e-09  4.55841872e-01  3.46259854e-09  4.55841872e-01  4.55841872e-01  3.26943395e-09  4.55841871e-01  1.53929380e-07  1.35000278e-07  5.70000000e-01 
 5.80000000e-01  3.31689373e-09  4.55841859e-01  3.46259852e-09  4.55841859e-01  4.55841859e-01  3.26943395e-09  4.55841859e-01  1.53929329e-07  1.35000157e-07  5.80000000e-01 
 5.90000000e-01  3.31689373e-09  4.55841868e-01  3.46259853e-09  4.55841868e-01  4.55841868e-01  3.26943395e-09  4.55841868e-01  1.53929357e-07  1.35000128e-07  5.90000000e-01 
 6.00000000e-01  3.31689367e-09  4.55841857e-01  3.46259853e-09  4.55841857e-01  4.55841857e-01  3.26943395e-09  4.55841857e-01  1.53929340e-07  1.34999873e-07  6.00000000e-01 
 6.10000000e-01  3.31689374e-09  4.55841853e-01  3.46259853e-09  4.55841853e-01  4.55841853e-01  3.26943395e-09  4.55841853e-01  1.53929317e-07  1.34999866e-07  6.10000000e-01 
 6.20000000e-01  3.31689372e-09  4.55841848e-01  3.46259847e-09  4.55841848e-01  4.55841848e-01  3.26943395e-09  4.55841848e-01  1.53929321e-07  1.34999787e-07  6.20000000e-01 
 6.30000000e-01  3.31689373e-09  4.55841884e-01  3.46259855e-09  4.55841884e-01  4.55841884e-01  3.26943389e-09  4.55841884e-01  1.53929366e-07  1.34999716e-07  6.30000000e-01 
 6.40000000e-01  3.31689373e-09  4.55841885e-01  3.46259853e-09  4.55841885e-01  4.55841885e-01  3.26943395e-09  4.55841885e-01  1.53929382e-07  1.34999716e-07  6.40000000e-01 
 6.50000000e-01  3.31689367e-09  4.55841851e-01  3.46259853e-09  4.55841851e-01  4.55841850e-01  3.26943395e-09  4.55841850e-01  1.53929338e-07  1.34999553e-07  6.50000000e-01 
 6.60000000e-01  3.31689369e-09  4.55841862e-01  3.46259853e-09  4.55841862e-01  4.55841862e-01  3.26943395e-09  4.55841862e-01  1.53929331e-07  1.34999468e-07  6.60000000e-01 
 6.70000000e-01  3.31689374e-09  4.55841861e-01  3.46259853e-09  4.55841861e-01  4.55841861e-01  3.26943395e-09  4.55841861e-01  1.53929335e-07  1.34999290e-07  6.70000000e-01 
 6.80000000e-01  3.31689373e-09  4.55841881e-01  3.46259853e-09  4.55841881e-01  4.55841881e-01  3.26943395e-09  4.55841881e-01  1.53929370e-07  1.34999333e-07  6.80000000e-01 
 6.90000000e-01  3.31689368e-09  4.55841877e-01  3.46259853e-09  4.55841877e-01  4.55841877e-01  3.26943395e-09  4.55841877e-01  1.53929373e-07  1.34999169e-07  6.90000000e-01 
 7.00000000e-01  3.31689374e-09  4.55841870e-01  3.46259853e-09  4.55841870e-01  4.55841869e-01  3.26943395e-09  4.55841869e-01  1.53929348e-07  1.34999063e-07  7.00000000e-01 
 7.10000000e-01  3.31689373e-09  4.55841872e-01  3.46259853e-09  4.55841872e-01  4.55841872e-01  3.26943395e-09  4.55841872e-01  1.53929361e-07  1.34998963e-07  7.10000000e-01 
 7.20000000e-01  3.31689373e-09  4.55841888e-01  3.46259853e-09  4.55841888e-01  4.55841888e-01  3.26943395e-09  4.55841888e-01  1.53929376e-07  1.34998984e-07  7.20000000e-01 
 7.30000000e-01  3.31689373e-09  4.55841855e-01  3.46259853e-09  4.55841855e-01  4.55841855e-01  3.26943395e-09  4.55841855e-01  1.53929358e-07  1.34998764e-07  7.30000000e-01 
 7.40000000e-01  3.31689373e-09  4.55841861e-01  3.46259853e-09  4.55841861e-01  4.55841861e-01  3.26943395e-09  4.55841861e-01  1.53929342e-07  1.34998793e-07  7.40000000e-01 
 7.50000000e-01  3.31689373e-09  4.55841874e-01  3.46259853e-09  4.55841874e-01  4.55841874e-01  3.26943395e-09  4.55841874e-01  1.53929354e-07  1.34998729e-07  7.50000000e-01 
 7.60000000e-01  3.31689373e-09  4.55841856e-01  3.46259853e-09  4.55841856e-01  4.55841856e-01  3.26943395e-09  4.55841856e-01  1.53929349e-07  1.34998530e-07  7.60000000e-01 
 7.70000000e-01  3.31689373e-09  4.55841854e-01  3.46259853e-09  4.55841854e-01  4.55841854e-01  3.26943395e-09  4.55841854e-01  1.53929314e-07  1.34998295e-07  7.70000000e-01 
 7.80000000e-01  3.31689367e-09  4.55841859e-01  3.46259853e-09  4.55841859e-01  4.55841859e-01  3.26943395e-09  4.55841859e-01  1.53929328e-07  1.34998302e-07  7.80000000e-01 
 7.90000000e-01  3.31689369e-09  4.55841850e-01  3.46259847e-09  4.55841850e-01  4.55841850e-01  3.26943395e-09  4.55841850e-01  1.53929319e-07  1.34998160e-07  7.90000000e-01 
 8.00000000e-01  3.31689374e-09  4.55841874e-01  3.46259849e-09  4.55841874e-01  4.55841874e-01  3.26943395e-09  4.55841874e-01  1.53929362e-07  1.34998182e-07  8.00000000e-01 
 8.10000000e-01  3.31689373e-09  4.55841869e-01  3.46259854e-09  4.55841869e-01  4.55841869e-01  3.26943395e-09  4.55841869e-01  1.53929368e-07  1.34997997e-07  8.10000000e-01 
 8.20000000e-01  3.31689373e-09  4.55841878e-01  3.46259853e-09  4.55841878e-01  4.55841878e-01  3.26943395e-09  4.55841878e-01  1.53929357e-07  1.34997983e-07  8.20000000e-01 
 8.30000000e-01  3.31689368e-09  4.55841882e-01  3.46259853e-09  4.55841882e-01  4.55841882e-01  3.26943389e-09  4.55841882e-01  1.53929368e-07  1.34997812e-07  8.30000000e-01 
 8.40000000e-01  3.31689374e-09  4.55841862e-01  3.46259853e-09  4.55841862e-01  4.55841862e-01  3.26943389e-09  4.55841862e-01  1.53929341e-07  1.34997698e-07  8.40000000e-01 
 8.50000000e-01  3.31689373e-09  4.55841860e-01  3.46259853e-09  4.55841860e-01  4.55841860e-01  3.26943395e-09  4.55841860e-01  1.53929335e-07  1.34997570e-07  8.50000000e-01 
 8.60000000e-01  3.31689367e-09  4.55841867e-01  3.46259853e-09  4.55841867e-01  4.55841867e-01  3.26943395e-09  4.55841867e-01  1.53929350e-07  1.34997556e-07  8.60000000e-01 
 8.70000000e-01  3.31689375e-09  4.55841895e-01  3.46259853e-09  4.55841895e-01  4.55841894e-01  3.26943389e-09  4.55841894e-01  1.53929389e-07  1.34997492e-07  8.70000000e-01 
 8.80000000e-01  3.31689372e-09  4.55841852e-01  3.46259853e-09  4.55841852e-01  4.55841852e-01  3.26943395e-09  4.55841851e-01  1.53929343e-07  1.34997279e-07  8.80000000e-01 
 8.90000000e-01  3.31689373e-09  4.55841838e-01  3.46259853e-09  4.55841838e-01  4.55841837e-01  3.26943395e-09  4.55841837e-01  1.53929316e-07  1.34997222e-07  8.90000000e-01 
 9.00000000e-01  3.31689373e-09  4.55841867e-01  3.46259847e-09  4.55841867e-01  4.55841867e-01  3.26943389e-09  4.55841867e-01  1.53929337e-07  1.34997208e-07  9.00000000e-01 
 9.10000000e-01  3.31689373e-09  4.55841871e-01  3.46259854e-09  4.55841871e-01  4.55841871e-01  3.26943389e-09  4.55841871e-01  1.53929351e-07  1.34997101e-07  9.10000000e-01 
 9.20000000e-01  3.31689373e-09  4.55841864e-01  3.46259853e-09  4.55841864e-01  4.55841864e-01  3.26943395e-09  4.55841863e-01  1.53929345e-07  1.34997002e-07  9.20000000e-01 
 9.30000000e-01  3.31689373e-09  4.55841867e-01  3.46259847e-09  4.55841867e-01  4.55841867e-01  3.26943395e-09  4.55841867e-01  1.53929341e-07  1.34996917e-07  9.30000000e-01 
 9.40000000e-01  3.31689373e-09  4.55841875e-01  3.46259854e-09  4.55841875e-01  4.55841875e-01  3.26943395e-09  4.55841875e-01  1.53929351e-07  1.34996796e-07  9.40000000e-01 
 9.50000000e-01  3.31689373e-09  4.55841838e-01  3.46259852e-09  4.55841838e-01  4.55841838e-01  3.26943389e-09  4.55841838e-01  1.53929311e-07  1.34996533e-07  9.50000000e-01 
 9.60000000e-01  3.31689367e-09  4.55841859e-01  3.46259853e-09  4.55841859e-01  4.55841859e-01  3.26943395e-09  4.55841859e-01  1.53929323e-07  1.34996526e-07  9.60000000e-01 
 9.70000000e-01  3.31689369e-09  4.55841865e-01  3.46259853e-09  4.55841865e-01  4.55841865e-01  3.26943395e-09  4.55841865e-01  1.53929356e-07  1.34996512e-07  9.70000000e-01 
 9.80000000e-01  3.31689374e-09  4.55841883e-01  3.46259853e-09  4.55841883e-01  4.55841883e-01  3.26943395e-09  4.55841882e-01  1.53929366e-07  1.34996355e-07  9.80000000e-01 
 9.90000000e-01  3.31689372e-09  4.55841852e-01  3.46259847e-09  4.55841852e-01  4.55841852e-01  3.26943395e-09  4.55841851e-01  1.53929334e-07  1.34996142e-07  9.90000000e-01 
 1.00000000e+00  3.31689373e-09  4.55841855e-01  3.46259854e-09  4.55841855e-01  4.55841855e-01  3.26943395e-09  4.55841855e-01  1.53929329e-07  1.34996093e-07  1.00000000e+00 
 1.01000000e+00  3.31689373e-09  4.55841884e-01  3.46259853e-09  4.55841884e-01  4.55841883e-01  3.26943395e-09  4.55841883e-01  1.53929370e-07  1.34995986e-07  1.01000000e+00 
 1.02000000e+00  3.31689373e-09  4.55841901e-01  3.46259853e-09  4.55841901e-01  4.55841901e-01  3.26943395e-09  4.55841901e-01  1.53929412e-07  1.34995972e-07  1.02000000e+00 
 1.03000000e+00  3.31689373e-09  4.55841849e-01  3.46259847e-09  4.55841849e-01  4.55841849e-01  3.26943395e-09  4.55841849e-01  1.53929316e-07  1.34995808e-07  1.03000000e+00 
 1.04000000e+00  3.31689373e-09  4.55841838e-01  3.46259848e-09  4.55841838e-01  4.55841838e-01  3.26943395e-09  4.55841838e-01  1.53929301e-07  1.34995666e-07  1.04000000e+00 
 1.05000000e+00  3.31689367e-09  4.55841831e-01  3.46259853e-09  4.55841831e-01  4.55841831e-01  3.26943395e-09  4.55841831e-01  1.53929298e-07  1.34995510e-07  1.05000000e+00 
 1.06000000e+00  3.31689374e-09  4.55841856e-01  3.46259852e-09  4.55841856e-01  4.55841856e-01  3.26943395e-09  4.55841856e-01  1.53929332e-07  1.34995481e-07  1.06000000e+00 
 1.07000000e+00  3.31689372e-09  4.55841852e-01  3.46259853e-09  4.55841852e-01  4.55841852e-01  3.26943395e-09  4.55841852e-01  1.53929322e-07  1.34995261e-07  1.07000000e+00 
 1.08000000e+00  3.31689373e-09  4.55841851e-01  3.46259853e-09  4.55841851e-01  4.55841851e-01  3.26943395e-09  4.55841851e-01  1.53929323e-07  1.34995268e-07  1.08000000e+00 
 1.09000000e+00  3.31689373e-09  4.55841847e-01  3.46259853e-09  4.55841847e-01  4.55841847e-01  3.26943395e-09  4.55841847e-01  1.53929331e-07  1.34995084e-07  1.09000000e+00 
 1.10000000e+00  3.31689373e-09  4.55841865e-01  3.46259853e-09  4.55841865e-01  4.55841865e-01  3.26943389e-09  4.55841865e-01  1.53929339e-07  1.34995062e-07  1.10000000e+00 
