 v-sweep         v(b0)           v(b1)           v(b2)           v(b3)           v(b4)           v(b5)           v(b6)           i(vbias)        i(viout)        v(vout)        
 0.00000000e+00  4.58577079e-01  3.45339255e-09  3.34472966e-09  3.61273837e-09  4.58577079e-01  4.58577079e-01  3.23052784e-09  1.61273519e-07  7.48417177e-08  0.00000000e+00 
 1.00000000e-02  4.58577103e-01  3.45339254e-09  3.34472959e-09  3.61273841e-09  4.58577103e-01  4.58577103e-01  3.23052783e-09  1.61273565e-07  7.48414712e-08  1.00000000e-02 
 2.00000000e-02  4.58577072e-01  3.45339259e-09  3.34472965e-09  3.61273835e-09  4.58577072e-01  4.58577072e-01  3.23052782e-09  1.61273513e-07  7.48409157e-08  2.00000000e-02 
 3.00000000e-02  4.58577085e-01  3.45339253e-09  3.34472965e-09  3.61273836e-09  4.58577085e-01  4.58577085e-01  3.23052782e-09  1.61273536e-07  7.48406412e-08  3.00000000e-02 
 4.00000000e-02  4.58577110e-01  3.45339254e-09  3.34472959e-09  3.61273841e-09  4.58577110e-01  4.58577110e-01  3.23052783e-09  1.61273577e-07  7.48403459e-08  4.00000000e-02 
 5.00000000e-02  4.58577097e-01  3.45339254e-09  3.34472965e-09  3.61273841e-09  4.58577097e-01  4.58577097e-01  3.23052783e-09  1.61273545e-07  7.48398761e-08  5.00000000e-02 
 6.00000000e-02  4.58577085e-01  3.45339253e-09  3.34472959e-09  3.61273835e-09  4.58577085e-01  4.58577085e-01  3.23052782e-09  1.61273533e-07  7.48396678e-08  6.00000000e-02 
 7.00000000e-02  4.58577106e-01  3.45339254e-09  3.34472965e-09  3.61273837e-09  4.58577106e-01  4.58577106e-01  3.23052783e-09  1.61273570e-07  7.48393192e-08  7.00000000e-02 
 8.00000000e-02  4.58577078e-01  3.45339253e-09  3.34472959e-09  3.61273840e-09  4.58577078e-01  4.58577078e-01  3.23052782e-09  1.61273521e-07  7.48390416e-08  8.00000000e-02 
 9.00000000e-02  4.58577094e-01  3.45339254e-09  3.34472965e-09  3.61273835e-09  4.58577094e-01  4.58577094e-01  3.23052783e-09  1.61273550e-07  7.48387805e-08  9.00000000e-02 
 1.00000000e-01  4.58577092e-01  3.45339254e-09  3.34472959e-09  3.61273837e-09  4.58577092e-01  4.58577092e-01  3.23052783e-09  1.61273546e-07  7.48383311e-08  1.00000000e-01 
 1.10000000e-01  4.58577090e-01  3.45339254e-09  3.34472959e-09  3.61273840e-09  4.58577090e-01  4.58577090e-01  3.23052782e-09  1.61273543e-07  7.48381668e-08  1.10000000e-01 
 1.20000000e-01  4.58577103e-01  3.45339259e-09  3.34472965e-09  3.61273835e-09  4.58577103e-01  4.58577103e-01  3.23052783e-09  1.61273558e-07  7.48379456e-08  1.20000000e-01 
 1.30000000e-01  4.58577105e-01  3.45339254e-09  3.34472965e-09  3.61273837e-09  4.58577105e-01  4.58577105e-01  3.23052783e-09  1.61273558e-07  7.48378044e-08  1.30000000e-01 
 1.40000000e-01  4.58577097e-01  3.45339254e-09  3.34472965e-09  3.61273835e-09  4.58577097e-01  4.58577097e-01  3.23052783e-09  1.61273542e-07  7.48375513e-08  1.40000000e-01 
 1.50000000e-01  4.58577106e-01  3.45339254e-09  3.34472965e-09  3.61273842e-09  4.58577106e-01  4.58577106e-01  3.23052783e-09  1.61273569e-07  7.48373683e-08  1.50000000e-01 
 1.60000000e-01  4.58577100e-01  3.45339254e-09  3.34472965e-09  3.61273841e-09  4.58577100e-01  4.58577100e-01  3.23052783e-09  1.61273552e-07  7.48371018e-08  1.60000000e-01 
 1.70000000e-01  4.58577094e-01  3.45339254e-09  3.34472965e-09  3.61273835e-09  4.58577094e-01  4.58577094e-01  3.23052783e-09  1.61273532e-07  7.48369384e-08  1.70000000e-01 
 1.80000000e-01  4.58577104e-01  3.45339254e-09  3.34472965e-09  3.61273837e-09  4.58577104e-01  4.58577104e-01  3.23052783e-09  1.61273556e-07  7.48368034e-08  1.80000000e-01 
 1.90000000e-01  4.58577110e-01  3.45339254e-09  3.34472959e-09  3.61273841e-09  4.58577110e-01  4.58577110e-01  3.23052783e-09  1.61273579e-07  7.48366187e-08  1.90000000e-01 
 2.00000000e-01  4.58577096e-01  3.45339254e-09  3.34472959e-09  3.61273841e-09  4.58577096e-01  4.58577096e-01  3.23052783e-09  1.61273532e-07  7.48364002e-08  2.00000000e-01 
 2.10000000e-01  4.58577075e-01  3.45339253e-09  3.34472959e-09  3.61273835e-09  4.58577075e-01  4.58577075e-01  3.23052782e-09  1.61273514e-07  7.48362474e-08  2.10000000e-01 
 2.20000000e-01  4.58577135e-01  3.45339260e-09  3.34472965e-09  3.61273837e-09  4.58577135e-01  4.58577134e-01  3.23052783e-09  1.61273611e-07  7.48361959e-08  2.20000000e-01 
 2.30000000e-01  4.58577069e-01  3.45339253e-09  3.34472965e-09  3.61273834e-09  4.58577069e-01  4.58577069e-01  3.23052782e-09  1.61273515e-07  7.48359206e-08  2.30000000e-01 
 2.40000000e-01  4.58577112e-01  3.45339254e-09  3.34472959e-09  3.61273837e-09  4.58577112e-01  4.58577112e-01  3.23052783e-09  1.61273581e-07  7.48359472e-08  2.40000000e-01 
 2.50000000e-01  4.58577080e-01  3.45339259e-09  3.34472959e-09  3.61273835e-09  4.58577080e-01  4.58577080e-01  3.23052782e-09  1.61273510e-07  7.48356488e-08  2.50000000e-01 
 2.60000000e-01  4.58577108e-01  3.45339254e-09  3.34472965e-09  3.61273842e-09  4.58577108e-01  4.58577108e-01  3.23052783e-09  1.61273569e-07  7.48355014e-08  2.60000000e-01 
 2.70000000e-01  4.58577098e-01  3.45339254e-09  3.34472965e-09  3.61273835e-09  4.58577098e-01  4.58577098e-01  3.23052783e-09  1.61273540e-07  7.48352988e-08  2.70000000e-01 
 2.80000000e-01  4.58577108e-01  3.45339254e-09  3.34472965e-09  3.61273837e-09  4.58577108e-01  4.58577108e-01  3.23052783e-09  1.61273550e-07  7.48353521e-08  2.80000000e-01 
 2.90000000e-01  4.58577094e-01  3.45339254e-09  3.34472965e-09  3.61273835e-09  4.58577094e-01  4.58577094e-01  3.23052783e-09  1.61273548e-07  7.48350359e-08  2.90000000e-01 
 3.00000000e-01  4.58577115e-01  3.45339254e-09  3.34472959e-09  3.61273843e-09  4.58577115e-01  4.58577115e-01  3.23052783e-09  1.61273573e-07  7.48352349e-08  3.00000000e-01 
 3.10000000e-01  4.58577110e-01  3.45339254e-09  3.34472959e-09  3.61273841e-09  4.58577110e-01  4.58577110e-01  3.23052783e-09  1.61273565e-07  7.48348761e-08  3.10000000e-01 
 3.20000000e-01  4.58577096e-01  3.45339254e-09  3.34472959e-09  3.61273835e-09  4.58577096e-01  4.58577096e-01  3.23052783e-09  1.61273548e-07  7.48347695e-08  3.20000000e-01 
 3.30000000e-01  4.58577076e-01  3.45339259e-09  3.34472959e-09  3.61273836e-09  4.58577076e-01  4.58577076e-01  3.23052782e-09  1.61273520e-07  7.48346878e-08  3.30000000e-01 
 3.40000000e-01  4.58577110e-01  3.45339254e-09  3.34472959e-09  3.61273835e-09  4.58577110e-01  4.58577110e-01  3.23052783e-09  1.61273566e-07  7.48345883e-08  3.40000000e-01 
 3.50000000e-01  4.58577105e-01  3.45339259e-09  3.34472959e-09  3.61273842e-09  4.58577105e-01  4.58577105e-01  3.23052783e-09  1.61273560e-07  7.48345315e-08  3.50000000e-01 
 3.60000000e-01  4.58577096e-01  3.45339254e-09  3.34472965e-09  3.61273835e-09  4.58577096e-01  4.58577096e-01  3.23052783e-09  1.61273545e-07  7.48344711e-08  3.60000000e-01 
 3.70000000e-01  4.58577077e-01  3.45339259e-09  3.34472959e-09  3.61273836e-09  4.58577077e-01  4.58577077e-01  3.23052782e-09  1.61273530e-07  7.48343219e-08  3.70000000e-01 
 3.80000000e-01  4.58577103e-01  3.45339254e-09  3.34472965e-09  3.61273841e-09  4.58577103e-01  4.58577103e-01  3.23052783e-09  1.61273562e-07  7.48343467e-08  3.80000000e-01 
 3.90000000e-01  4.58577116e-01  3.45339254e-09  3.34472965e-09  3.61273836e-09  4.58577116e-01  4.58577116e-01  3.23052783e-09  1.61273570e-07  7.48343147e-08  3.90000000e-01 
 4.00000000e-01  4.58577088e-01  3.45339253e-09  3.34472965e-09  3.61273837e-09  4.58577088e-01  4.58577088e-01  3.23052782e-09  1.61273530e-07  7.48340270e-08  4.00000000e-01 
 4.10000000e-01  4.58577089e-01  3.45339254e-09  3.34472965e-09  3.61273835e-09  4.58577089e-01  4.58577089e-01  3.23052782e-09  1.61273539e-07  7.48340234e-08  4.10000000e-01 
 4.20000000e-01  4.58577099e-01  3.45339259e-09  3.34472959e-09  3.61273837e-09  4.58577099e-01  4.58577099e-01  3.23052783e-09  1.61273556e-07  7.48339453e-08  4.20000000e-01 
 4.30000000e-01  4.58577083e-01  3.45339253e-09  3.34472965e-09  3.61273835e-09  4.58577083e-01  4.58577083e-01  3.23052782e-09  1.61273520e-07  7.48338174e-08  4.30000000e-01 
 4.40000000e-01  4.58577095e-01  3.45339254e-09  3.34472965e-09  3.61273837e-09  4.58577095e-01  4.58577095e-01  3.23052783e-09  1.61273546e-07  7.48337676e-08  4.40000000e-01 
 4.50000000e-01  4.58577113e-01  3.45339260e-09  3.34472965e-09  3.61273835e-09  4.58577113e-01  4.58577113e-01  3.23052783e-09  1.61273569e-07  7.48337463e-08  4.50000000e-01 
 4.60000000e-01  4.58577101e-01  3.45339254e-09  3.34472965e-09  3.61273842e-09  4.58577101e-01  4.58577101e-01  3.23052783e-09  1.61273570e-07  7.48336255e-08  4.60000000e-01 
 4.70000000e-01  4.58577089e-01  3.45339254e-09  3.34472965e-09  3.61273835e-09  4.58577089e-01  4.58577089e-01  3.23052782e-09  1.61273534e-07  7.48335758e-08  4.70000000e-01 
 4.80000000e-01  4.58577098e-01  3.45339254e-09  3.34472959e-09  3.61273837e-09  4.58577098e-01  4.58577098e-01  3.23052783e-09  1.61273556e-07  7.48335296e-08  4.80000000e-01 
 4.90000000e-01  4.58577101e-01  3.45339254e-09  3.34472965e-09  3.61273841e-09  4.58577101e-01  4.58577101e-01  3.23052783e-09  1.61273549e-07  7.48334408e-08  4.90000000e-01 
 5.00000000e-01  4.58577079e-01  3.45339253e-09  3.34472965e-09  3.61273835e-09  4.58577079e-01  4.58577079e-01  3.23052782e-09  1.61273524e-07  7.48333306e-08  5.00000000e-01 
 5.10000000e-01  4.58577104e-01  3.45339254e-09  3.34472965e-09  3.61273842e-09  4.58577104e-01  4.58577104e-01  3.23052783e-09  1.61273559e-07  7.48332987e-08  5.10000000e-01 
 5.20000000e-01  4.58577085e-01  3.45339253e-09  3.34472965e-09  3.61273840e-09  4.58577085e-01  4.58577085e-01  3.23052782e-09  1.61273527e-07  7.48331530e-08  5.20000000e-01 
 5.30000000e-01  4.58577114e-01  3.45339254e-09  3.34472959e-09  3.61273841e-09  4.58577114e-01  4.58577114e-01  3.23052783e-09  1.61273567e-07  7.48331139e-08  5.30000000e-01 
 5.40000000e-01  4.58577091e-01  3.45339259e-09  3.34472959e-09  3.61273835e-09  4.58577091e-01  4.58577091e-01  3.23052782e-09  1.61273535e-07  7.48329470e-08  5.40000000e-01 
 5.50000000e-01  4.58577111e-01  3.45339254e-09  3.34472959e-09  3.61273837e-09  4.58577111e-01  4.58577111e-01  3.23052783e-09  1.61273573e-07  7.48329541e-08  5.50000000e-01 
 5.60000000e-01  4.58577102e-01  3.45339254e-09  3.34472965e-09  3.61273841e-09  4.58577102e-01  4.58577102e-01  3.23052783e-09  1.61273560e-07  7.48329079e-08  5.60000000e-01 
 5.70000000e-01  4.58577125e-01  3.45339254e-09  3.34472965e-09  3.61273836e-09  4.58577125e-01  4.58577125e-01  3.23052783e-09  1.61273592e-07  7.48328617e-08  5.70000000e-01 
 5.80000000e-01  4.58577121e-01  3.45339260e-09  3.34472965e-09  3.61273843e-09  4.58577121e-01  4.58577121e-01  3.23052783e-09  1.61273574e-07  7.48328617e-08  5.80000000e-01 
 5.90000000e-01  4.58577077e-01  3.45339253e-09  3.34472965e-09  3.61273840e-09  4.58577077e-01  4.58577077e-01  3.23052782e-09  1.61273525e-07  7.48327764e-08  5.90000000e-01 
 6.00000000e-01  4.58577109e-01  3.45339254e-09  3.34472965e-09  3.61273841e-09  4.58577109e-01  4.58577109e-01  3.23052783e-09  1.61273583e-07  7.48326840e-08  6.00000000e-01 
 6.10000000e-01  4.58577112e-01  3.45339254e-09  3.34472965e-09  3.61273836e-09  4.58577112e-01  4.58577112e-01  3.23052783e-09  1.61273571e-07  7.48325917e-08  6.10000000e-01 
 6.20000000e-01  4.58577093e-01  3.45339254e-09  3.34472965e-09  3.61273837e-09  4.58577093e-01  4.58577093e-01  3.23052783e-09  1.61273555e-07  7.48325277e-08  6.20000000e-01 
 6.30000000e-01  4.58577096e-01  3.45339254e-09  3.34472965e-09  3.61273840e-09  4.58577096e-01  4.58577096e-01  3.23052783e-09  1.61273546e-07  7.48323998e-08  6.30000000e-01 
 6.40000000e-01  4.58577103e-01  3.45339254e-09  3.34472965e-09  3.61273841e-09  4.58577103e-01  4.58577103e-01  3.23052783e-09  1.61273548e-07  7.48324496e-08  6.40000000e-01 
 6.50000000e-01  4.58577089e-01  3.45339254e-09  3.34472965e-09  3.61273835e-09  4.58577089e-01  4.58577089e-01  3.23052782e-09  1.61273539e-07  7.48322861e-08  6.50000000e-01 
 6.60000000e-01  4.58577106e-01  3.45339254e-09  3.34472959e-09  3.61273837e-09  4.58577106e-01  4.58577106e-01  3.23052783e-09  1.61273562e-07  7.48323288e-08  6.60000000e-01 
 6.70000000e-01  4.58577096e-01  3.45339254e-09  3.34472965e-09  3.61273840e-09  4.58577096e-01  4.58577096e-01  3.23052783e-09  1.61273543e-07  7.48322222e-08  6.70000000e-01 
 6.80000000e-01  4.58577092e-01  3.45339254e-09  3.34472965e-09  3.61273841e-09  4.58577092e-01  4.58577092e-01  3.23052783e-09  1.61273543e-07  7.48321511e-08  6.80000000e-01 
 6.90000000e-01  4.58577094e-01  3.45339259e-09  3.34472965e-09  3.61273835e-09  4.58577094e-01  4.58577094e-01  3.23052783e-09  1.61273541e-07  7.48321014e-08  6.90000000e-01 
 7.00000000e-01  4.58577100e-01  3.45339254e-09  3.34472959e-09  3.61273837e-09  4.58577100e-01  4.58577100e-01  3.23052783e-09  1.61273558e-07  7.48319309e-08  7.00000000e-01 
 7.10000000e-01  4.58577103e-01  3.45339254e-09  3.34472959e-09  3.61273835e-09  4.58577103e-01  4.58577103e-01  3.23052783e-09  1.61273557e-07  7.48319664e-08  7.10000000e-01 
 7.20000000e-01  4.58577099e-01  3.45339254e-09  3.34472965e-09  3.61273837e-09  4.58577099e-01  4.58577099e-01  3.23052783e-09  1.61273561e-07  7.48317959e-08  7.20000000e-01 
 7.30000000e-01  4.58577091e-01  3.45339254e-09  3.34472959e-09  3.61273835e-09  4.58577091e-01  4.58577091e-01  3.23052782e-09  1.61273527e-07  7.48317746e-08  7.30000000e-01 
 7.40000000e-01  4.58577105e-01  3.45339254e-09  3.34472965e-09  3.61273842e-09  4.58577105e-01  4.58577105e-01  3.23052783e-09  1.61273557e-07  7.48317106e-08  7.40000000e-01 
 7.50000000e-01  4.58577100e-01  3.45339254e-09  3.34472959e-09  3.61273841e-09  4.58577100e-01  4.58577100e-01  3.23052783e-09  1.61273560e-07  7.48316751e-08  7.50000000e-01 
 7.60000000e-01  4.58577102e-01  3.45339259e-09  3.34472965e-09  3.61273841e-09  4.58577102e-01  4.58577102e-01  3.23052783e-09  1.61273557e-07  7.48316253e-08  7.60000000e-01 
 7.70000000e-01  4.58577118e-01  3.45339254e-09  3.34472959e-09  3.61273841e-09  4.58577118e-01  4.58577118e-01  3.23052783e-09  1.61273584e-07  7.48316324e-08  7.70000000e-01 
 7.80000000e-01  4.58577105e-01  3.45339254e-09  3.34472959e-09  3.61273841e-09  4.58577105e-01  4.58577105e-01  3.23052783e-09  1.61273562e-07  7.48313624e-08  7.80000000e-01 
 7.90000000e-01  4.58577108e-01  3.45339254e-09  3.34472965e-09  3.61273841e-09  4.58577108e-01  4.58577108e-01  3.23052783e-09  1.61273570e-07  7.48314903e-08  7.90000000e-01 
 8.00000000e-01  4.58577101e-01  3.45339254e-09  3.34472959e-09  3.61273841e-09  4.58577101e-01  4.58577101e-01  3.23052783e-09  1.61273542e-07  7.48313340e-08  8.00000000e-01 
 8.10000000e-01  4.58577081e-01  3.45339253e-09  3.34472965e-09  3.61273841e-09  4.58577081e-01  4.58577081e-01  3.23052782e-09  1.61273528e-07  7.48311564e-08  8.10000000e-01 
 8.20000000e-01  4.58577089e-01  3.45339253e-09  3.34472965e-09  3.61273835e-09  4.58577089e-01  4.58577089e-01  3.23052782e-09  1.61273542e-07  7.48311919e-08  8.20000000e-01 
 8.30000000e-01  4.58577101e-01  3.45339259e-09  3.34472965e-09  3.61273837e-09  4.58577101e-01  4.58577101e-01  3.23052783e-09  1.61273550e-07  7.48311066e-08  8.30000000e-01 
 8.40000000e-01  4.58577102e-01  3.45339254e-09  3.34472965e-09  3.61273835e-09  4.58577102e-01  4.58577102e-01  3.23052783e-09  1.61273540e-07  7.48310711e-08  8.40000000e-01 
 8.50000000e-01  4.58577090e-01  3.45339254e-09  3.34472965e-09  3.61273842e-09  4.58577090e-01  4.58577090e-01  3.23052782e-09  1.61273532e-07  7.48310853e-08  8.50000000e-01 
 8.60000000e-01  4.58577085e-01  3.45339259e-09  3.34472965e-09  3.61273840e-09  4.58577085e-01  4.58577085e-01  3.23052782e-09  1.61273527e-07  7.48308935e-08  8.60000000e-01 
 8.70000000e-01  4.58577075e-01  3.45339253e-09  3.34472965e-09  3.61273835e-09  4.58577075e-01  4.58577075e-01  3.23052782e-09  1.61273515e-07  7.48308295e-08  8.70000000e-01 
 8.80000000e-01  4.58577072e-01  3.45339259e-09  3.34472965e-09  3.61273842e-09  4.58577072e-01  4.58577072e-01  3.23052782e-09  1.61273518e-07  7.48307585e-08  8.80000000e-01 
 8.90000000e-01  4.58577116e-01  3.45339254e-09  3.34472965e-09  3.61273835e-09  4.58577116e-01  4.58577116e-01  3.23052783e-09  1.61273584e-07  7.48307656e-08  8.90000000e-01 
 9.00000000e-01  4.58577088e-01  3.45339253e-09  3.34472965e-09  3.61273837e-09  4.58577088e-01  4.58577088e-01  3.23052782e-09  1.61273525e-07  7.48305879e-08  9.00000000e-01 
 9.10000000e-01  4.58577099e-01  3.45339254e-09  3.34472965e-09  3.61273840e-09  4.58577099e-01  4.58577099e-01  3.23052783e-09  1.61273567e-07  7.48306093e-08  9.10000000e-01 
 9.20000000e-01  4.58577087e-01  3.45339253e-09  3.34472959e-09  3.61273841e-09  4.58577087e-01  4.58577087e-01  3.23052782e-09  1.61273537e-07  7.48305027e-08  9.20000000e-01 
 9.30000000e-01  4.58577097e-01  3.45339254e-09  3.34472959e-09  3.61273841e-09  4.58577097e-01  4.58577097e-01  3.23052783e-09  1.61273547e-07  7.48305240e-08  9.30000000e-01 
 9.40000000e-01  4.58577088e-01  3.45339253e-09  3.34472965e-09  3.61273841e-09  4.58577088e-01  4.58577088e-01  3.23052782e-09  1.61273533e-07  7.48304387e-08  9.40000000e-01 
 9.50000000e-01  4.58577090e-01  3.45339254e-09  3.34472959e-09  3.61273841e-09  4.58577090e-01  4.58577090e-01  3.23052782e-09  1.61273518e-07  7.48302327e-08  9.50000000e-01 
 9.60000000e-01  4.58577093e-01  3.45339254e-09  3.34472965e-09  3.61273841e-09  4.58577093e-01  4.58577093e-01  3.23052783e-09  1.61273534e-07  7.48301545e-08  9.60000000e-01 
 9.70000000e-01  4.58577097e-01  3.45339254e-09  3.34472959e-09  3.61273835e-09  4.58577097e-01  4.58577097e-01  3.23052783e-09  1.61273552e-07  7.48301119e-08  9.70000000e-01 
 9.80000000e-01  4.58577092e-01  3.45339254e-09  3.34472965e-09  3.61273842e-09  4.58577092e-01  4.58577092e-01  3.23052783e-09  1.61273549e-07  7.48301900e-08  9.80000000e-01 
 9.90000000e-01  4.58577079e-01  3.45339259e-09  3.34472959e-09  3.61273840e-09  4.58577079e-01  4.58577079e-01  3.23052782e-09  1.61273525e-07  7.48300835e-08  9.90000000e-01 
 1.00000000e+00  4.58577124e-01  3.45339254e-09  3.34472965e-09  3.61273841e-09  4.58577124e-01  4.58577124e-01  3.23052783e-09  1.61273592e-07  7.48300195e-08  1.00000000e+00 
 1.01000000e+00  4.58577098e-01  3.45339254e-09  3.34472959e-09  3.61273835e-09  4.58577098e-01  4.58577098e-01  3.23052783e-09  1.61273553e-07  7.48299058e-08  1.01000000e+00 
 1.02000000e+00  4.58577117e-01  3.45339260e-09  3.34472959e-09  3.61273837e-09  4.58577117e-01  4.58577117e-01  3.23052783e-09  1.61273580e-07  7.48299342e-08  1.02000000e+00 
 1.03000000e+00  4.58577089e-01  3.45339254e-09  3.34472965e-09  3.61273840e-09  4.58577089e-01  4.58577089e-01  3.23052782e-09  1.61273528e-07  7.48297282e-08  1.03000000e+00 
 1.04000000e+00  4.58577095e-01  3.45339254e-09  3.34472959e-09  3.61273841e-09  4.58577095e-01  4.58577095e-01  3.23052783e-09  1.61273559e-07  7.48296642e-08  1.04000000e+00 
 1.05000000e+00  4.58577109e-01  3.45339254e-09  3.34472965e-09  3.61273841e-09  4.58577109e-01  4.58577109e-01  3.23052783e-09  1.61273563e-07  7.48295221e-08  1.05000000e+00 
 1.06000000e+00  4.58577107e-01  3.45339254e-09  3.34472965e-09  3.61273841e-09  4.58577107e-01  4.58577107e-01  3.23052783e-09  1.61273550e-07  7.48294653e-08  1.06000000e+00 
 1.07000000e+00  4.58577117e-01  3.45339254e-09  3.34472965e-09  3.61273841e-09  4.58577117e-01  4.58577117e-01  3.23052783e-09  1.61273585e-07  7.48295079e-08  1.07000000e+00 
 1.08000000e+00  4.58577111e-01  3.45339254e-09  3.34472965e-09  3.61273836e-09  4.58577111e-01  4.58577111e-01  3.23052783e-09  1.61273562e-07  7.48293374e-08  1.08000000e+00 
 1.09000000e+00  4.58577108e-01  3.45339259e-09  3.34472959e-09  3.61273837e-09  4.58577108e-01  4.58577108e-01  3.23052783e-09  1.61273560e-07  7.48293090e-08  1.09000000e+00 
 1.10000000e+00  4.58577103e-01  3.45339254e-09  3.34472965e-09  3.61273835e-09  4.58577103e-01  4.58577103e-01  3.23052783e-09  1.61273556e-07  7.48291100e-08  1.10000000e+00 
