 v-sweep         v(b0)           v(b1)           v(b2)           v(b3)           v(b4)           v(b5)           v(b6)           i(vbias)        i(viout)        v(vout)        
 0.00000000e+00  3.18810105e-09  4.59956850e-01  4.59956849e-01  3.29631000e-09  3.08278228e-09  4.59956850e-01  3.23215019e-09  1.59884487e-07  6.11312547e-08  0.00000000e+00 
 1.00000000e-02  3.18810103e-09  4.59956859e-01  4.59956859e-01  3.29630998e-09  3.08278232e-09  4.59956859e-01  3.23215023e-09  1.59884509e-07  6.11308179e-08  1.00000000e-02 
 2.00000000e-02  3.18810103e-09  4.59956848e-01  4.59956848e-01  3.29630998e-09  3.08278226e-09  4.59956848e-01  3.23215022e-09  1.59884492e-07  6.11303628e-08  2.00000000e-02 
 3.00000000e-02  3.18810109e-09  4.59956845e-01  4.59956844e-01  3.29630998e-09  3.08278226e-09  4.59956844e-01  3.23215022e-09  1.59884486e-07  6.11300670e-08  3.00000000e-02 
 4.00000000e-02  3.18810103e-09  4.59956868e-01  4.59956867e-01  3.29630998e-09  3.08278226e-09  4.59956867e-01  3.23215023e-09  1.59884511e-07  6.11297541e-08  4.00000000e-02 
 5.00000000e-02  3.18810103e-09  4.59956838e-01  4.59956837e-01  3.29630998e-09  3.08278226e-09  4.59956838e-01  3.23215022e-09  1.59884473e-07  6.11293882e-08  5.00000000e-02 
 6.00000000e-02  3.18810103e-09  4.59956851e-01  4.59956851e-01  3.29630998e-09  3.08278226e-09  4.59956851e-01  3.23215022e-09  1.59884492e-07  6.11289988e-08  6.00000000e-02 
 7.00000000e-02  3.18810109e-09  4.59956873e-01  4.59956872e-01  3.29630998e-09  3.08278226e-09  4.59956873e-01  3.23215023e-09  1.59884522e-07  6.11288011e-08  7.00000000e-02 
 8.00000000e-02  3.18810103e-09  4.59956874e-01  4.59956874e-01  3.29630998e-09  3.08278226e-09  4.59956874e-01  3.23215023e-09  1.59884519e-07  6.11284809e-08  8.00000000e-02 
 9.00000000e-02  3.18810103e-09  4.59956871e-01  4.59956871e-01  3.29631003e-09  3.08278226e-09  4.59956871e-01  3.23215023e-09  1.59884535e-07  6.11282678e-08  9.00000000e-02 
 1.00000000e-01  3.18810109e-09  4.59956855e-01  4.59956855e-01  3.29630998e-09  3.08278226e-09  4.59956855e-01  3.23215022e-09  1.59884486e-07  6.11278947e-08  1.00000000e-01 
 1.10000000e-01  3.18810103e-09  4.59956842e-01  4.59956842e-01  3.29631003e-09  3.08278226e-09  4.59956842e-01  3.23215022e-09  1.59884475e-07  6.11277322e-08  1.10000000e-01 
 1.20000000e-01  3.18810103e-09  4.59956860e-01  4.59956860e-01  3.29631003e-09  3.08278226e-09  4.59956860e-01  3.23215023e-09  1.59884505e-07  6.11273814e-08  1.20000000e-01 
 1.30000000e-01  3.18810103e-09  4.59956857e-01  4.59956857e-01  3.29630998e-09  3.08278226e-09  4.59956857e-01  3.23215022e-09  1.59884496e-07  6.11271496e-08  1.30000000e-01 
 1.40000000e-01  3.18810103e-09  4.59956869e-01  4.59956869e-01  3.29630998e-09  3.08278226e-09  4.59956869e-01  3.23215023e-09  1.59884510e-07  6.11271034e-08  1.40000000e-01 
 1.50000000e-01  3.18810109e-09  4.59956868e-01  4.59956867e-01  3.29631003e-09  3.08278226e-09  4.59956868e-01  3.23215023e-09  1.59884509e-07  6.11268245e-08  1.50000000e-01 
 1.60000000e-01  3.18810109e-09  4.59956865e-01  4.59956865e-01  3.29631003e-09  3.08278226e-09  4.59956865e-01  3.23215023e-09  1.59884499e-07  6.11264959e-08  1.60000000e-01 
 1.70000000e-01  3.18810109e-09  4.59956850e-01  4.59956850e-01  3.29630998e-09  3.08278226e-09  4.59956850e-01  3.23215022e-09  1.59884487e-07  6.11263147e-08  1.70000000e-01 
 1.80000000e-01  3.18810103e-09  4.59956849e-01  4.59956849e-01  3.29631003e-09  3.08278232e-09  4.59956849e-01  3.23215022e-09  1.59884489e-07  6.11262028e-08  1.80000000e-01 
 1.90000000e-01  3.18810109e-09  4.59956845e-01  4.59956845e-01  3.29630998e-09  3.08278226e-09  4.59956845e-01  3.23215022e-09  1.59884468e-07  6.11260251e-08  1.90000000e-01 
 2.00000000e-01  3.18810103e-09  4.59956844e-01  4.59956844e-01  3.29631003e-09  3.08278226e-09  4.59956844e-01  3.23215022e-09  1.59884486e-07  6.11258688e-08  2.00000000e-01 
 2.10000000e-01  3.18810103e-09  4.59956862e-01  4.59956862e-01  3.29630998e-09  3.08278226e-09  4.59956862e-01  3.23215023e-09  1.59884502e-07  6.11256699e-08  2.10000000e-01 
 2.20000000e-01  3.18810103e-09  4.59956852e-01  4.59956852e-01  3.29630998e-09  3.08278226e-09  4.59956852e-01  3.23215022e-09  1.59884495e-07  6.11255722e-08  2.20000000e-01 
 2.30000000e-01  3.18810109e-09  4.59956849e-01  4.59956848e-01  3.29630998e-09  3.08278226e-09  4.59956849e-01  3.23215022e-09  1.59884489e-07  6.11254354e-08  2.30000000e-01 
 2.40000000e-01  3.18810103e-09  4.59956862e-01  4.59956862e-01  3.29630998e-09  3.08278226e-09  4.59956862e-01  3.23215023e-09  1.59884515e-07  6.11253199e-08  2.40000000e-01 
 2.50000000e-01  3.18810109e-09  4.59956856e-01  4.59956856e-01  3.29631003e-09  3.08278226e-09  4.59956856e-01  3.23215017e-09  1.59884490e-07  6.11250996e-08  2.50000000e-01 
 2.60000000e-01  3.18810103e-09  4.59956835e-01  4.59956834e-01  3.29631003e-09  3.08278226e-09  4.59956835e-01  3.23215022e-09  1.59884471e-07  6.11250783e-08  2.60000000e-01 
 2.70000000e-01  3.18810103e-09  4.59956856e-01  4.59956856e-01  3.29630998e-09  3.08278226e-09  4.59956856e-01  3.23215022e-09  1.59884500e-07  6.11249380e-08  2.70000000e-01 
 2.80000000e-01  3.18810103e-09  4.59956855e-01  4.59956855e-01  3.29630998e-09  3.08278226e-09  4.59956855e-01  3.23215022e-09  1.59884493e-07  6.11248172e-08  2.80000000e-01 
 2.90000000e-01  3.18810109e-09  4.59956846e-01  4.59956845e-01  3.29630998e-09  3.08278226e-09  4.59956845e-01  3.23215022e-09  1.59884469e-07  6.11247444e-08  2.90000000e-01 
 3.00000000e-01  3.18810103e-09  4.59956860e-01  4.59956860e-01  3.29630998e-09  3.08278226e-09  4.59956860e-01  3.23215023e-09  1.59884505e-07  6.11245952e-08  3.00000000e-01 
 3.10000000e-01  3.18810109e-09  4.59956851e-01  4.59956851e-01  3.29630998e-09  3.08278226e-09  4.59956851e-01  3.23215022e-09  1.59884476e-07  6.11243536e-08  3.10000000e-01 
 3.20000000e-01  3.18810109e-09  4.59956857e-01  4.59956857e-01  3.29630998e-09  3.08278226e-09  4.59956857e-01  3.23215017e-09  1.59884493e-07  6.11242825e-08  3.20000000e-01 
 3.30000000e-01  3.18810109e-09  4.59956860e-01  4.59956860e-01  3.29630998e-09  3.08278226e-09  4.59956860e-01  3.23215023e-09  1.59884499e-07  6.11242186e-08  3.30000000e-01 
 3.40000000e-01  3.18810109e-09  4.59956875e-01  4.59956874e-01  3.29630998e-09  3.08278226e-09  4.59956875e-01  3.23215023e-09  1.59884539e-07  6.11241191e-08  3.40000000e-01 
 3.50000000e-01  3.18810109e-09  4.59956859e-01  4.59956859e-01  3.29630998e-09  3.08278226e-09  4.59956859e-01  3.23215023e-09  1.59884504e-07  6.11240552e-08  3.50000000e-01 
 3.60000000e-01  3.18810109e-09  4.59956834e-01  4.59956833e-01  3.29630998e-09  3.08278226e-09  4.59956834e-01  3.23215022e-09  1.59884466e-07  6.11237994e-08  3.60000000e-01 
 3.70000000e-01  3.18810103e-09  4.59956856e-01  4.59956856e-01  3.29630998e-09  3.08278226e-09  4.59956856e-01  3.23215022e-09  1.59884505e-07  6.11239059e-08  3.70000000e-01 
 3.80000000e-01  3.18810109e-09  4.59956837e-01  4.59956837e-01  3.29630998e-09  3.08278226e-09  4.59956837e-01  3.23215022e-09  1.59884474e-07  6.11237390e-08  3.80000000e-01 
 3.90000000e-01  3.18810103e-09  4.59956863e-01  4.59956863e-01  3.29631003e-09  3.08278226e-09  4.59956863e-01  3.23215023e-09  1.59884506e-07  6.11236857e-08  3.90000000e-01 
 4.00000000e-01  3.18810109e-09  4.59956858e-01  4.59956858e-01  3.29630998e-09  3.08278226e-09  4.59956858e-01  3.23215023e-09  1.59884501e-07  6.11236750e-08  4.00000000e-01 
 4.10000000e-01  3.18810109e-09  4.59956872e-01  4.59956872e-01  3.29631003e-09  3.08278226e-09  4.59956872e-01  3.23215023e-09  1.59884523e-07  6.11235755e-08  4.10000000e-01 
 4.20000000e-01  3.18810109e-09  4.59956852e-01  4.59956852e-01  3.29631003e-09  3.08278232e-09  4.59956852e-01  3.23215022e-09  1.59884494e-07  6.11234334e-08  4.20000000e-01 
 4.30000000e-01  3.18810109e-09  4.59956840e-01  4.59956839e-01  3.29630998e-09  3.08278226e-09  4.59956840e-01  3.23215022e-09  1.59884483e-07  6.11233908e-08  4.30000000e-01 
 4.40000000e-01  3.18810109e-09  4.59956850e-01  4.59956850e-01  3.29630998e-09  3.08278226e-09  4.59956850e-01  3.23215022e-09  1.59884494e-07  6.11233268e-08  4.40000000e-01 
 4.50000000e-01  3.18810109e-09  4.59956890e-01  4.59956890e-01  3.29630998e-09  3.08278226e-09  4.59956890e-01  3.23215023e-09  1.59884540e-07  6.11232736e-08  4.50000000e-01 
 4.60000000e-01  3.18810103e-09  4.59956876e-01  4.59956876e-01  3.29631003e-09  3.08278226e-09  4.59956876e-01  3.23215023e-09  1.59884527e-07  6.11232593e-08  4.60000000e-01 
 4.70000000e-01  3.18810109e-09  4.59956881e-01  4.59956881e-01  3.29630998e-09  3.08278226e-09  4.59956881e-01  3.23215023e-09  1.59884523e-07  6.11231670e-08  4.70000000e-01 
 4.80000000e-01  3.18810109e-09  4.59956880e-01  4.59956880e-01  3.29631004e-09  3.08278226e-09  4.59956880e-01  3.23215023e-09  1.59884536e-07  6.11230924e-08  4.80000000e-01 
 4.90000000e-01  3.18810109e-09  4.59956873e-01  4.59956873e-01  3.29630998e-09  3.08278232e-09  4.59956873e-01  3.23215023e-09  1.59884520e-07  6.11229538e-08  4.90000000e-01 
 5.00000000e-01  3.18810109e-09  4.59956857e-01  4.59956856e-01  3.29630998e-09  3.08278226e-09  4.59956857e-01  3.23215022e-09  1.59884502e-07  6.11229041e-08  5.00000000e-01 
 5.10000000e-01  3.18810103e-09  4.59956868e-01  4.59956868e-01  3.29630998e-09  3.08278232e-09  4.59956868e-01  3.23215017e-09  1.59884515e-07  6.11229076e-08  5.10000000e-01 
 5.20000000e-01  3.18810103e-09  4.59956844e-01  4.59956844e-01  3.29631003e-09  3.08278226e-09  4.59956844e-01  3.23215022e-09  1.59884466e-07  6.11227406e-08  5.20000000e-01 
 5.30000000e-01  3.18810103e-09  4.59956844e-01  4.59956844e-01  3.29630998e-09  3.08278226e-09  4.59956844e-01  3.23215022e-09  1.59884496e-07  6.11226163e-08  5.30000000e-01 
 5.40000000e-01  3.18810109e-09  4.59956843e-01  4.59956843e-01  3.29630998e-09  3.08278226e-09  4.59956843e-01  3.23215022e-09  1.59884477e-07  6.11226270e-08  5.40000000e-01 
 5.50000000e-01  3.18810103e-09  4.59956875e-01  4.59956875e-01  3.29630998e-09  3.08278232e-09  4.59956875e-01  3.23215023e-09  1.59884525e-07  6.11226909e-08  5.50000000e-01 
 5.60000000e-01  3.18810109e-09  4.59956861e-01  4.59956861e-01  3.29630998e-09  3.08278226e-09  4.59956861e-01  3.23215023e-09  1.59884505e-07  6.11225630e-08  5.60000000e-01 
 5.70000000e-01  3.18810109e-09  4.59956852e-01  4.59956852e-01  3.29630998e-09  3.08278226e-09  4.59956852e-01  3.23215022e-09  1.59884506e-07  6.11225701e-08  5.70000000e-01 
 5.80000000e-01  3.18810109e-09  4.59956834e-01  4.59956833e-01  3.29630998e-09  3.08278226e-09  4.59956833e-01  3.23215022e-09  1.59884472e-07  6.11223072e-08  5.80000000e-01 
 5.90000000e-01  3.18810109e-09  4.59956848e-01  4.59956847e-01  3.29630998e-09  3.08278226e-09  4.59956847e-01  3.23215022e-09  1.59884490e-07  6.11223427e-08  5.90000000e-01 
 6.00000000e-01  3.18810109e-09  4.59956860e-01  4.59956860e-01  3.29630998e-09  3.08278232e-09  4.59956860e-01  3.23215023e-09  1.59884503e-07  6.11222220e-08  6.00000000e-01 
 6.10000000e-01  3.18810103e-09  4.59956843e-01  4.59956843e-01  3.29630998e-09  3.08278226e-09  4.59956843e-01  3.23215022e-09  1.59884475e-07  6.11221935e-08  6.10000000e-01 
 6.20000000e-01  3.18810103e-09  4.59956863e-01  4.59956863e-01  3.29631003e-09  3.08278232e-09  4.59956863e-01  3.23215023e-09  1.59884519e-07  6.11221012e-08  6.20000000e-01 
 6.30000000e-01  3.18810103e-09  4.59956869e-01  4.59956868e-01  3.29630998e-09  3.08278226e-09  4.59956868e-01  3.23215023e-09  1.59884515e-07  6.11221296e-08  6.30000000e-01 
 6.40000000e-01  3.18810109e-09  4.59956871e-01  4.59956871e-01  3.29630998e-09  3.08278226e-09  4.59956871e-01  3.23215023e-09  1.59884510e-07  6.11220798e-08  6.40000000e-01 
 6.50000000e-01  3.18810109e-09  4.59956839e-01  4.59956839e-01  3.29630998e-09  3.08278231e-09  4.59956839e-01  3.23215022e-09  1.59884465e-07  6.11219022e-08  6.50000000e-01 
 6.60000000e-01  3.18810109e-09  4.59956874e-01  4.59956873e-01  3.29630998e-09  3.08278232e-09  4.59956874e-01  3.23215023e-09  1.59884531e-07  6.11218596e-08  6.60000000e-01 
 6.70000000e-01  3.18810109e-09  4.59956835e-01  4.59956835e-01  3.29631003e-09  3.08278226e-09  4.59956835e-01  3.23215022e-09  1.59884464e-07  6.11217317e-08  6.70000000e-01 
 6.80000000e-01  3.18810103e-09  4.59956884e-01  4.59956884e-01  3.29630998e-09  3.08278226e-09  4.59956884e-01  3.23215023e-09  1.59884536e-07  6.11217672e-08  6.80000000e-01 
 6.90000000e-01  3.18810109e-09  4.59956857e-01  4.59956856e-01  3.29630998e-09  3.08278232e-09  4.59956857e-01  3.23215022e-09  1.59884509e-07  6.11215825e-08  6.90000000e-01 
 7.00000000e-01  3.18810109e-09  4.59956832e-01  4.59956832e-01  3.29631003e-09  3.08278226e-09  4.59956832e-01  3.23215022e-09  1.59884464e-07  6.11215114e-08  7.00000000e-01 
 7.10000000e-01  3.18810109e-09  4.59956868e-01  4.59956868e-01  3.29631003e-09  3.08278226e-09  4.59956868e-01  3.23215023e-09  1.59884506e-07  6.11215896e-08  7.10000000e-01 
 7.20000000e-01  3.18810103e-09  4.59956862e-01  4.59956862e-01  3.29630998e-09  3.08278226e-09  4.59956862e-01  3.23215023e-09  1.59884498e-07  6.11215683e-08  7.20000000e-01 
 7.30000000e-01  3.18810103e-09  4.59956860e-01  4.59956860e-01  3.29630998e-09  3.08278226e-09  4.59956860e-01  3.23215023e-09  1.59884497e-07  6.11214048e-08  7.30000000e-01 
 7.40000000e-01  3.18810103e-09  4.59956845e-01  4.59956845e-01  3.29631003e-09  3.08278226e-09  4.59956845e-01  3.23215022e-09  1.59884464e-07  6.11214119e-08  7.40000000e-01 
 7.50000000e-01  3.18810109e-09  4.59956856e-01  4.59956856e-01  3.29630998e-09  3.08278226e-09  4.59956856e-01  3.23215022e-09  1.59884498e-07  6.11213125e-08  7.50000000e-01 
 7.60000000e-01  3.18810103e-09  4.59956849e-01  4.59956849e-01  3.29631003e-09  3.08278226e-09  4.59956849e-01  3.23215022e-09  1.59884476e-07  6.11210993e-08  7.60000000e-01 
 7.70000000e-01  3.18810109e-09  4.59956849e-01  4.59956849e-01  3.29630998e-09  3.08278226e-09  4.59956849e-01  3.23215022e-09  1.59884482e-07  6.11211419e-08  7.70000000e-01 
 7.80000000e-01  3.18810103e-09  4.59956855e-01  4.59956855e-01  3.29630998e-09  3.08278226e-09  4.59956855e-01  3.23215022e-09  1.59884499e-07  6.11211561e-08  7.80000000e-01 
 7.90000000e-01  3.18810109e-09  4.59956849e-01  4.59956849e-01  3.29630998e-09  3.08278226e-09  4.59956849e-01  3.23215022e-09  1.59884482e-07  6.11210424e-08  7.90000000e-01 
 8.00000000e-01  3.18810103e-09  4.59956845e-01  4.59956845e-01  3.29631003e-09  3.08278226e-09  4.59956845e-01  3.23215017e-09  1.59884492e-07  6.11209430e-08  8.00000000e-01 
 8.10000000e-01  3.18810109e-09  4.59956862e-01  4.59956862e-01  3.29631003e-09  3.08278226e-09  4.59956862e-01  3.23215023e-09  1.59884503e-07  6.11208293e-08  8.10000000e-01 
 8.20000000e-01  3.18810109e-09  4.59956871e-01  4.59956871e-01  3.29630998e-09  3.08278226e-09  4.59956871e-01  3.23215023e-09  1.59884515e-07  6.11208932e-08  8.20000000e-01 
 8.30000000e-01  3.18810103e-09  4.59956865e-01  4.59956865e-01  3.29631003e-09  3.08278226e-09  4.59956865e-01  3.23215023e-09  1.59884508e-07  6.11208151e-08  8.30000000e-01 
 8.40000000e-01  3.18810109e-09  4.59956863e-01  4.59956863e-01  3.29630998e-09  3.08278226e-09  4.59956863e-01  3.23215023e-09  1.59884512e-07  6.11207369e-08  8.40000000e-01 
 8.50000000e-01  3.18810109e-09  4.59956860e-01  4.59956859e-01  3.29630998e-09  3.08278226e-09  4.59956860e-01  3.23215023e-09  1.59884510e-07  6.11207369e-08  8.50000000e-01 
 8.60000000e-01  3.18810103e-09  4.59956864e-01  4.59956864e-01  3.29630998e-09  3.08278226e-09  4.59956864e-01  3.23215023e-09  1.59884508e-07  6.11207085e-08  8.60000000e-01 
 8.70000000e-01  3.18810103e-09  4.59956876e-01  4.59956875e-01  3.29630998e-09  3.08278226e-09  4.59956875e-01  3.23215023e-09  1.59884520e-07  6.11205451e-08  8.70000000e-01 
 8.80000000e-01  3.18810109e-09  4.59956849e-01  4.59956849e-01  3.29630998e-09  3.08278226e-09  4.59956849e-01  3.23215022e-09  1.59884485e-07  6.11204740e-08  8.80000000e-01 
 8.90000000e-01  3.18810103e-09  4.59956845e-01  4.59956845e-01  3.29630998e-09  3.08278226e-09  4.59956845e-01  3.23215022e-09  1.59884472e-07  6.11203888e-08  8.90000000e-01 
 9.00000000e-01  3.18810109e-09  4.59956862e-01  4.59956862e-01  3.29630998e-09  3.08278226e-09  4.59956862e-01  3.23215023e-09  1.59884513e-07  6.11202893e-08  9.00000000e-01 
 9.10000000e-01  3.18810103e-09  4.59956856e-01  4.59956855e-01  3.29630998e-09  3.08278226e-09  4.59956855e-01  3.23215022e-09  1.59884497e-07  6.11202182e-08  9.10000000e-01 
 9.20000000e-01  3.18810109e-09  4.59956862e-01  4.59956862e-01  3.29630998e-09  3.08278226e-09  4.59956862e-01  3.23215023e-09  1.59884497e-07  6.11203248e-08  9.20000000e-01 
 9.30000000e-01  3.18810103e-09  4.59956892e-01  4.59956891e-01  3.29630998e-09  3.08278226e-09  4.59956891e-01  3.23215023e-09  1.59884539e-07  6.11203035e-08  9.30000000e-01 
 9.40000000e-01  3.18810109e-09  4.59956839e-01  4.59956839e-01  3.29631003e-09  3.08278231e-09  4.59956839e-01  3.23215022e-09  1.59884475e-07  6.11200477e-08  9.40000000e-01 
 9.50000000e-01  3.18810103e-09  4.59956893e-01  4.59956893e-01  3.29631004e-09  3.08278232e-09  4.59956893e-01  3.23215023e-09  1.59884552e-07  6.11200264e-08  9.50000000e-01 
 9.60000000e-01  3.18810103e-09  4.59956861e-01  4.59956861e-01  3.29631003e-09  3.08278232e-09  4.59956861e-01  3.23215023e-09  1.59884501e-07  6.11199766e-08  9.60000000e-01 
 9.70000000e-01  3.18810103e-09  4.59956872e-01  4.59956872e-01  3.29630998e-09  3.08278226e-09  4.59956872e-01  3.23215023e-09  1.59884520e-07  6.11200335e-08  9.70000000e-01 
 9.80000000e-01  3.18810109e-09  4.59956862e-01  4.59956862e-01  3.29631003e-09  3.08278226e-09  4.59956862e-01  3.23215023e-09  1.59884503e-07  6.11198914e-08  9.80000000e-01 
 9.90000000e-01  3.18810103e-09  4.59956852e-01  4.59956852e-01  3.29630998e-09  3.08278232e-09  4.59956852e-01  3.23215022e-09  1.59884493e-07  6.11196640e-08  9.90000000e-01 
 1.00000000e+00  3.18810103e-09  4.59956860e-01  4.59956860e-01  3.29630998e-09  3.08278226e-09  4.59956860e-01  3.23215023e-09  1.59884506e-07  6.11196995e-08  1.00000000e+00 
 1.01000000e+00  3.18810103e-09  4.59956861e-01  4.59956861e-01  3.29630998e-09  3.08278226e-09  4.59956861e-01  3.23215023e-09  1.59884503e-07  6.11195574e-08  1.01000000e+00 
 1.02000000e+00  3.18810109e-09  4.59956866e-01  4.59956865e-01  3.29631003e-09  3.08278226e-09  4.59956865e-01  3.23215023e-09  1.59884512e-07  6.11195574e-08  1.02000000e+00 
 1.03000000e+00  3.18810109e-09  4.59956858e-01  4.59956857e-01  3.29630998e-09  3.08278226e-09  4.59956858e-01  3.23215023e-09  1.59884499e-07  6.11193869e-08  1.03000000e+00 
 1.04000000e+00  3.18810103e-09  4.59956880e-01  4.59956880e-01  3.29631004e-09  3.08278226e-09  4.59956880e-01  3.23215023e-09  1.59884532e-07  6.11194011e-08  1.04000000e+00 
 1.05000000e+00  3.18810103e-09  4.59956841e-01  4.59956841e-01  3.29631003e-09  3.08278226e-09  4.59956841e-01  3.23215022e-09  1.59884474e-07  6.11193585e-08  1.05000000e+00 
 1.06000000e+00  3.18810103e-09  4.59956822e-01  4.59956822e-01  3.29630998e-09  3.08278226e-09  4.59956822e-01  3.23215022e-09  1.59884445e-07  6.11193158e-08  1.06000000e+00 
 1.07000000e+00  3.18810109e-09  4.59956850e-01  4.59956850e-01  3.29631003e-09  3.08278232e-09  4.59956850e-01  3.23215022e-09  1.59884478e-07  6.11192164e-08  1.07000000e+00 
 1.08000000e+00  3.18810109e-09  4.59956880e-01  4.59956880e-01  3.29630998e-09  3.08278226e-09  4.59956880e-01  3.23215023e-09  1.59884528e-07  6.11191666e-08  1.08000000e+00 
 1.09000000e+00  3.18810103e-09  4.59956839e-01  4.59956839e-01  3.29630998e-09  3.08278226e-09  4.59956839e-01  3.23215022e-09  1.59884458e-07  6.11190245e-08  1.09000000e+00 
 1.10000000e+00  3.18810103e-09  4.59956836e-01  4.59956836e-01  3.29631003e-09  3.08278226e-09  4.59956836e-01  3.23215022e-09  1.59884472e-07  6.11189890e-08  1.10000000e+00 
