 v-sweep         v(b0)           v(b1)           v(b2)           v(b3)           v(b4)           v(b5)           v(b6)           i(vbias)        i(viout)        v(vout)        
 0.00000000e+00  3.74285798e-09  4.57632744e-01  3.58096370e-09  4.57632744e-01  3.24529744e-09  3.22666907e-09  4.57632744e-01  1.60228139e-07  1.07964996e-07  0.00000000e+00 
 1.00000000e-02  3.74285796e-09  4.57632739e-01  3.58096375e-09  4.57632739e-01  3.24529743e-09  3.22666906e-09  4.57632739e-01  1.60228128e-07  1.07964600e-07  1.00000000e-02 
 2.00000000e-02  3.74285802e-09  4.57632742e-01  3.58096368e-09  4.57632742e-01  3.24529743e-09  3.22666906e-09  4.57632742e-01  1.60228126e-07  1.07964252e-07  2.00000000e-02 
 3.00000000e-02  3.74285796e-09  4.57632727e-01  3.58096370e-09  4.57632727e-01  3.24529743e-09  3.22666905e-09  4.57632727e-01  1.60228108e-07  1.07963709e-07  3.00000000e-02 
 4.00000000e-02  3.74285796e-09  4.57632733e-01  3.58096369e-09  4.57632733e-01  3.24529737e-09  3.22666906e-09  4.57632733e-01  1.60228110e-07  1.07963441e-07  4.00000000e-02 
 5.00000000e-02  3.74285802e-09  4.57632723e-01  3.58096369e-09  4.57632722e-01  3.24529743e-09  3.22666905e-09  4.57632722e-01  1.60228099e-07  1.07963102e-07  5.00000000e-02 
 6.00000000e-02  3.74285802e-09  4.57632750e-01  3.58096369e-09  4.57632750e-01  3.24529743e-09  3.22666906e-09  4.57632750e-01  1.60228135e-07  1.07962800e-07  6.00000000e-02 
 7.00000000e-02  3.74285796e-09  4.57632725e-01  3.58096375e-09  4.57632725e-01  3.24529743e-09  3.22666905e-09  4.57632725e-01  1.60228109e-07  1.07962371e-07  7.00000000e-02 
 8.00000000e-02  3.74285802e-09  4.57632736e-01  3.58096374e-09  4.57632736e-01  3.24529743e-09  3.22666906e-09  4.57632736e-01  1.60228119e-07  1.07962162e-07  8.00000000e-02 
 9.00000000e-02  3.74285796e-09  4.57632737e-01  3.58096368e-09  4.57632737e-01  3.24529737e-09  3.22666906e-09  4.57632737e-01  1.60228126e-07  1.07961903e-07  9.00000000e-02 
 1.00000000e-01  3.74285796e-09  4.57632723e-01  3.58096375e-09  4.57632722e-01  3.24529743e-09  3.22666905e-09  4.57632722e-01  1.60228109e-07  1.07961586e-07  1.00000000e-01 
 1.10000000e-01  3.74285802e-09  4.57632754e-01  3.58096374e-09  4.57632754e-01  3.24529743e-09  3.22666906e-09  4.57632754e-01  1.60228135e-07  1.07961377e-07  1.10000000e-01 
 1.20000000e-01  3.74285802e-09  4.57632735e-01  3.58096368e-09  4.57632735e-01  3.24529743e-09  3.22666906e-09  4.57632735e-01  1.60228115e-07  1.07961108e-07  1.20000000e-01 
 1.30000000e-01  3.74285796e-09  4.57632703e-01  3.58096370e-09  4.57632703e-01  3.24529737e-09  3.22666905e-09  4.57632703e-01  1.60228054e-07  1.07960802e-07  1.30000000e-01 
 1.40000000e-01  3.74285796e-09  4.57632742e-01  3.58096369e-09  4.57632742e-01  3.24529737e-09  3.22666906e-09  4.57632742e-01  1.60228116e-07  1.07960642e-07  1.40000000e-01 
 1.50000000e-01  3.74285796e-09  4.57632745e-01  3.58096369e-09  4.57632745e-01  3.24529743e-09  3.22666906e-09  4.57632745e-01  1.60228128e-07  1.07960487e-07  1.50000000e-01 
 1.60000000e-01  3.74285802e-09  4.57632733e-01  3.58096375e-09  4.57632733e-01  3.24529737e-09  3.22666906e-09  4.57632733e-01  1.60228119e-07  1.07960137e-07  1.60000000e-01 
 1.70000000e-01  3.74285796e-09  4.57632723e-01  3.58096373e-09  4.57632723e-01  3.24529743e-09  3.22666905e-09  4.57632723e-01  1.60228091e-07  1.07959893e-07  1.70000000e-01 
 1.80000000e-01  3.74285796e-09  4.57632720e-01  3.58096374e-09  4.57632720e-01  3.24529743e-09  3.22666905e-09  4.57632720e-01  1.60228094e-07  1.07959838e-07  1.80000000e-01 
 1.90000000e-01  3.74285802e-09  4.57632735e-01  3.58096368e-09  4.57632735e-01  3.24529737e-09  3.22666906e-09  4.57632735e-01  1.60228107e-07  1.07959671e-07  1.90000000e-01 
 2.00000000e-01  3.74285796e-09  4.57632722e-01  3.58096370e-09  4.57632722e-01  3.24529737e-09  3.22666905e-09  4.57632721e-01  1.60228093e-07  1.07959362e-07  2.00000000e-01 
 2.10000000e-01  3.74285796e-09  4.57632721e-01  3.58096369e-09  4.57632721e-01  3.24529743e-09  3.22666905e-09  4.57632721e-01  1.60228091e-07  1.07959295e-07  2.10000000e-01 
 2.20000000e-01  3.74285802e-09  4.57632731e-01  3.58096369e-09  4.57632731e-01  3.24529737e-09  3.22666905e-09  4.57632731e-01  1.60228111e-07  1.07959137e-07  2.20000000e-01 
 2.30000000e-01  3.74285802e-09  4.57632714e-01  3.58096369e-09  4.57632714e-01  3.24529743e-09  3.22666905e-09  4.57632714e-01  1.60228098e-07  1.07958934e-07  2.30000000e-01 
 2.40000000e-01  3.74285796e-09  4.57632744e-01  3.58096369e-09  4.57632744e-01  3.24529743e-09  3.22666906e-09  4.57632744e-01  1.60228126e-07  1.07958886e-07  2.40000000e-01 
 2.50000000e-01  3.74285796e-09  4.57632744e-01  3.58096369e-09  4.57632744e-01  3.24529743e-09  3.22666906e-09  4.57632744e-01  1.60228136e-07  1.07958606e-07  2.50000000e-01 
 2.60000000e-01  3.74285796e-09  4.57632739e-01  3.58096369e-09  4.57632738e-01  3.24529737e-09  3.22666906e-09  4.57632738e-01  1.60228125e-07  1.07958524e-07  2.60000000e-01 
 2.70000000e-01  3.74285796e-09  4.57632736e-01  3.58096369e-09  4.57632736e-01  3.24529743e-09  3.22666906e-09  4.57632736e-01  1.60228117e-07  1.07958352e-07  2.70000000e-01 
 2.80000000e-01  3.74285802e-09  4.57632747e-01  3.58096375e-09  4.57632747e-01  3.24529743e-09  3.22666906e-09  4.57632746e-01  1.60228144e-07  1.07958293e-07  2.80000000e-01 
 2.90000000e-01  3.74285802e-09  4.57632716e-01  3.58096373e-09  4.57632716e-01  3.24529743e-09  3.22666905e-09  4.57632716e-01  1.60228095e-07  1.07958108e-07  2.90000000e-01 
 3.00000000e-01  3.74285802e-09  4.57632723e-01  3.58096374e-09  4.57632723e-01  3.24529743e-09  3.22666905e-09  4.57632723e-01  1.60228092e-07  1.07957955e-07  3.00000000e-01 
 3.10000000e-01  3.74285796e-09  4.57632731e-01  3.58096374e-09  4.57632731e-01  3.24529737e-09  3.22666905e-09  4.57632731e-01  1.60228108e-07  1.07957948e-07  3.10000000e-01 
 3.20000000e-01  3.74285802e-09  4.57632726e-01  3.58096374e-09  4.57632726e-01  3.24529737e-09  3.22666905e-09  4.57632726e-01  1.60228119e-07  1.07957689e-07  3.20000000e-01 
 3.30000000e-01  3.74285802e-09  4.57632734e-01  3.58096374e-09  4.57632734e-01  3.24529743e-09  3.22666906e-09  4.57632734e-01  1.60228121e-07  1.07957600e-07  3.30000000e-01 
 3.40000000e-01  3.74285796e-09  4.57632726e-01  3.58096368e-09  4.57632726e-01  3.24529743e-09  3.22666905e-09  4.57632726e-01  1.60228100e-07  1.07957522e-07  3.40000000e-01 
 3.50000000e-01  3.74285802e-09  4.57632743e-01  3.58096370e-09  4.57632743e-01  3.24529737e-09  3.22666906e-09  4.57632743e-01  1.60228119e-07  1.07957401e-07  3.50000000e-01 
 3.60000000e-01  3.74285796e-09  4.57632745e-01  3.58096375e-09  4.57632745e-01  3.24529737e-09  3.22666906e-09  4.57632745e-01  1.60228135e-07  1.07957373e-07  3.60000000e-01 
 3.70000000e-01  3.74285796e-09  4.57632746e-01  3.58096374e-09  4.57632746e-01  3.24529743e-09  3.22666906e-09  4.57632746e-01  1.60228140e-07  1.07957234e-07  3.70000000e-01 
 3.80000000e-01  3.74285802e-09  4.57632735e-01  3.58096374e-09  4.57632735e-01  3.24529743e-09  3.22666906e-09  4.57632735e-01  1.60228134e-07  1.07957089e-07  3.80000000e-01 
 3.90000000e-01  3.74285802e-09  4.57632740e-01  3.58096374e-09  4.57632740e-01  3.24529743e-09  3.22666906e-09  4.57632740e-01  1.60228131e-07  1.07957096e-07  3.90000000e-01 
 4.00000000e-01  3.74285802e-09  4.57632723e-01  3.58096368e-09  4.57632723e-01  3.24529743e-09  3.22666905e-09  4.57632723e-01  1.60228118e-07  1.07956890e-07  4.00000000e-01 
 4.10000000e-01  3.74285802e-09  4.57632752e-01  3.58096370e-09  4.57632752e-01  3.24529743e-09  3.22666906e-09  4.57632752e-01  1.60228132e-07  1.07956847e-07  4.10000000e-01 
 4.20000000e-01  3.74285802e-09  4.57632760e-01  3.58096369e-09  4.57632760e-01  3.24529743e-09  3.22666906e-09  4.57632760e-01  1.60228157e-07  1.07956804e-07  4.20000000e-01 
 4.30000000e-01  3.74285796e-09  4.57632743e-01  3.58096375e-09  4.57632743e-01  3.24529737e-09  3.22666906e-09  4.57632742e-01  1.60228129e-07  1.07956609e-07  4.30000000e-01 
 4.40000000e-01  3.74285796e-09  4.57632754e-01  3.58096374e-09  4.57632754e-01  3.24529743e-09  3.22666906e-09  4.57632754e-01  1.60228143e-07  1.07956613e-07  4.40000000e-01 
 4.50000000e-01  3.74285796e-09  4.57632747e-01  3.58096374e-09  4.57632747e-01  3.24529743e-09  3.22666906e-09  4.57632747e-01  1.60228125e-07  1.07956602e-07  4.50000000e-01 
 4.60000000e-01  3.74285796e-09  4.57632732e-01  3.58096368e-09  4.57632732e-01  3.24529743e-09  3.22666905e-09  4.57632732e-01  1.60228106e-07  1.07956389e-07  4.60000000e-01 
 4.70000000e-01  3.74285802e-09  4.57632733e-01  3.58096370e-09  4.57632733e-01  3.24529743e-09  3.22666906e-09  4.57632733e-01  1.60228115e-07  1.07956286e-07  4.70000000e-01 
 4.80000000e-01  3.74285802e-09  4.57632722e-01  3.58096375e-09  4.57632721e-01  3.24529743e-09  3.22666905e-09  4.57632721e-01  1.60228099e-07  1.07956186e-07  4.80000000e-01 
 4.90000000e-01  3.74285796e-09  4.57632727e-01  3.58096373e-09  4.57632727e-01  3.24529743e-09  3.22666905e-09  4.57632727e-01  1.60228091e-07  1.07956158e-07  4.90000000e-01 
 5.00000000e-01  3.74285796e-09  4.57632735e-01  3.58096368e-09  4.57632735e-01  3.24529743e-09  3.22666906e-09  4.57632735e-01  1.60228111e-07  1.07956108e-07  5.00000000e-01 
 5.10000000e-01  3.74285796e-09  4.57632735e-01  3.58096370e-09  4.57632735e-01  3.24529743e-09  3.22666906e-09  4.57632735e-01  1.60228121e-07  1.07955913e-07  5.10000000e-01 
 5.20000000e-01  3.74285796e-09  4.57632730e-01  3.58096369e-09  4.57632730e-01  3.24529737e-09  3.22666905e-09  4.57632730e-01  1.60228100e-07  1.07955856e-07  5.20000000e-01 
 5.30000000e-01  3.74285802e-09  4.57632722e-01  3.58096369e-09  4.57632722e-01  3.24529743e-09  3.22666900e-09  4.57632722e-01  1.60228100e-07  1.07955781e-07  5.30000000e-01 
 5.40000000e-01  3.74285796e-09  4.57632728e-01  3.58096369e-09  4.57632728e-01  3.24529737e-09  3.22666905e-09  4.57632728e-01  1.60228109e-07  1.07955785e-07  5.40000000e-01 
 5.50000000e-01  3.74285796e-09  4.57632723e-01  3.58096369e-09  4.57632722e-01  3.24529743e-09  3.22666905e-09  4.57632722e-01  1.60228103e-07  1.07955607e-07  5.50000000e-01 
 5.60000000e-01  3.74285802e-09  4.57632729e-01  3.58096369e-09  4.57632729e-01  3.24529737e-09  3.22666905e-09  4.57632729e-01  1.60228098e-07  1.07955511e-07  5.60000000e-01 
 5.70000000e-01  3.74285802e-09  4.57632738e-01  3.58096375e-09  4.57632738e-01  3.24529743e-09  3.22666906e-09  4.57632738e-01  1.60228135e-07  1.07955476e-07  5.70000000e-01 
 5.80000000e-01  3.74285796e-09  4.57632739e-01  3.58096374e-09  4.57632739e-01  3.24529743e-09  3.22666906e-09  4.57632739e-01  1.60228117e-07  1.07955508e-07  5.80000000e-01 
 5.90000000e-01  3.74285802e-09  4.57632744e-01  3.58096374e-09  4.57632744e-01  3.24529737e-09  3.22666906e-09  4.57632744e-01  1.60228135e-07  1.07955472e-07  5.90000000e-01 
 6.00000000e-01  3.74285802e-09  4.57632752e-01  3.58096368e-09  4.57632752e-01  3.24529743e-09  3.22666906e-09  4.57632752e-01  1.60228138e-07  1.07955287e-07  6.00000000e-01 
 6.10000000e-01  3.74285802e-09  4.57632738e-01  3.58096370e-09  4.57632738e-01  3.24529743e-09  3.22666906e-09  4.57632738e-01  1.60228123e-07  1.07955223e-07  6.10000000e-01 
 6.20000000e-01  3.74285796e-09  4.57632746e-01  3.58096369e-09  4.57632746e-01  3.24529737e-09  3.22666906e-09  4.57632746e-01  1.60228130e-07  1.07955060e-07  6.20000000e-01 
 6.30000000e-01  3.74285796e-09  4.57632739e-01  3.58096369e-09  4.57632739e-01  3.24529743e-09  3.22666906e-09  4.57632739e-01  1.60228129e-07  1.07955067e-07  6.30000000e-01 
 6.40000000e-01  3.74285796e-09  4.57632726e-01  3.58096369e-09  4.57632726e-01  3.24529743e-09  3.22666900e-09  4.57632726e-01  1.60228106e-07  1.07955017e-07  6.40000000e-01 
 6.50000000e-01  3.74285796e-09  4.57632729e-01  3.58096369e-09  4.57632729e-01  3.24529743e-09  3.22666905e-09  4.57632729e-01  1.60228099e-07  1.07954982e-07  6.50000000e-01 
 6.60000000e-01  3.74285802e-09  4.57632729e-01  3.58096369e-09  4.57632729e-01  3.24529743e-09  3.22666905e-09  4.57632729e-01  1.60228103e-07  1.07954747e-07  6.60000000e-01 
 6.70000000e-01  3.74285802e-09  4.57632718e-01  3.58096369e-09  4.57632718e-01  3.24529743e-09  3.22666905e-09  4.57632718e-01  1.60228100e-07  1.07954655e-07  6.70000000e-01 
 6.80000000e-01  3.74285796e-09  4.57632718e-01  3.58096369e-09  4.57632718e-01  3.24529743e-09  3.22666905e-09  4.57632718e-01  1.60228083e-07  1.07954627e-07  6.80000000e-01 
 6.90000000e-01  3.74285802e-09  4.57632729e-01  3.58096369e-09  4.57632729e-01  3.24529737e-09  3.22666905e-09  4.57632729e-01  1.60228097e-07  1.07954513e-07  6.90000000e-01 
 7.00000000e-01  3.74285796e-09  4.57632740e-01  3.58096369e-09  4.57632740e-01  3.24529743e-09  3.22666906e-09  4.57632740e-01  1.60228121e-07  1.07954499e-07  7.00000000e-01 
 7.10000000e-01  3.74285796e-09  4.57632723e-01  3.58096369e-09  4.57632723e-01  3.24529743e-09  3.22666905e-09  4.57632723e-01  1.60228095e-07  1.07954385e-07  7.10000000e-01 
 7.20000000e-01  3.74285802e-09  4.57632741e-01  3.58096369e-09  4.57632741e-01  3.24529743e-09  3.22666906e-09  4.57632741e-01  1.60228115e-07  1.07954392e-07  7.20000000e-01 
 7.30000000e-01  3.74285796e-09  4.57632751e-01  3.58096369e-09  4.57632751e-01  3.24529743e-09  3.22666906e-09  4.57632751e-01  1.60228145e-07  1.07954349e-07  7.30000000e-01 
 7.40000000e-01  3.74285796e-09  4.57632746e-01  3.58096375e-09  4.57632746e-01  3.24529737e-09  3.22666906e-09  4.57632746e-01  1.60228142e-07  1.07954286e-07  7.40000000e-01 
 7.50000000e-01  3.74285796e-09  4.57632734e-01  3.58096368e-09  4.57632734e-01  3.24529743e-09  3.22666906e-09  4.57632734e-01  1.60228108e-07  1.07954186e-07  7.50000000e-01 
 7.60000000e-01  3.74285796e-09  4.57632737e-01  3.58096370e-09  4.57632736e-01  3.24529743e-09  3.22666906e-09  4.57632736e-01  1.60228130e-07  1.07954079e-07  7.60000000e-01 
 7.70000000e-01  3.74285796e-09  4.57632732e-01  3.58096369e-09  4.57632732e-01  3.24529743e-09  3.22666905e-09  4.57632732e-01  1.60228110e-07  1.07954044e-07  7.70000000e-01 
 7.80000000e-01  3.74285796e-09  4.57632745e-01  3.58096369e-09  4.57632745e-01  3.24529737e-09  3.22666906e-09  4.57632745e-01  1.60228115e-07  1.07953881e-07  7.80000000e-01 
 7.90000000e-01  3.74285802e-09  4.57632723e-01  3.58096369e-09  4.57632723e-01  3.24529743e-09  3.22666905e-09  4.57632723e-01  1.60228108e-07  1.07953745e-07  7.90000000e-01 
 8.00000000e-01  3.74285802e-09  4.57632746e-01  3.58096375e-09  4.57632746e-01  3.24529743e-09  3.22666900e-09  4.57632746e-01  1.60228127e-07  1.07953873e-07  8.00000000e-01 
 8.10000000e-01  3.74285796e-09  4.57632751e-01  3.58096374e-09  4.57632751e-01  3.24529743e-09  3.22666906e-09  4.57632751e-01  1.60228132e-07  1.07953682e-07  8.10000000e-01 
 8.20000000e-01  3.74285796e-09  4.57632732e-01  3.58096368e-09  4.57632732e-01  3.24529743e-09  3.22666905e-09  4.57632732e-01  1.60228108e-07  1.07953511e-07  8.20000000e-01 
 8.30000000e-01  3.74285802e-09  4.57632746e-01  3.58096370e-09  4.57632746e-01  3.24529743e-09  3.22666906e-09  4.57632746e-01  1.60228125e-07  1.07953561e-07  8.30000000e-01 
 8.40000000e-01  3.74285796e-09  4.57632737e-01  3.58096369e-09  4.57632737e-01  3.24529743e-09  3.22666906e-09  4.57632737e-01  1.60228124e-07  1.07953390e-07  8.40000000e-01 
 8.50000000e-01  3.74285796e-09  4.57632743e-01  3.58096369e-09  4.57632743e-01  3.24529743e-09  3.22666906e-09  4.57632743e-01  1.60228142e-07  1.07953490e-07  8.50000000e-01 
 8.60000000e-01  3.74285802e-09  4.57632733e-01  3.58096369e-09  4.57632733e-01  3.24529743e-09  3.22666906e-09  4.57632733e-01  1.60228123e-07  1.07953312e-07  8.60000000e-01 
 8.70000000e-01  3.74285802e-09  4.57632739e-01  3.58096369e-09  4.57632738e-01  3.24529737e-09  3.22666906e-09  4.57632738e-01  1.60228120e-07  1.07953142e-07  8.70000000e-01 
 8.80000000e-01  3.74285802e-09  4.57632732e-01  3.58096369e-09  4.57632732e-01  3.24529743e-09  3.22666905e-09  4.57632732e-01  1.60228115e-07  1.07953127e-07  8.80000000e-01 
 8.90000000e-01  3.74285802e-09  4.57632732e-01  3.58096375e-09  4.57632732e-01  3.24529737e-09  3.22666905e-09  4.57632732e-01  1.60228086e-07  1.07953021e-07  8.90000000e-01 
 9.00000000e-01  3.74285802e-09  4.57632736e-01  3.58096374e-09  4.57632736e-01  3.24529743e-09  3.22666906e-09  4.57632736e-01  1.60228111e-07  1.07952943e-07  9.00000000e-01 
 9.10000000e-01  3.74285802e-09  4.57632722e-01  3.58096374e-09  4.57632722e-01  3.24529737e-09  3.22666905e-09  4.57632722e-01  1.60228093e-07  1.07952786e-07  9.10000000e-01 
 9.20000000e-01  3.74285796e-09  4.57632741e-01  3.58096368e-09  4.57632741e-01  3.24529743e-09  3.22666906e-09  4.57632741e-01  1.60228125e-07  1.07952836e-07  9.20000000e-01 
 9.30000000e-01  3.74285796e-09  4.57632732e-01  3.58096370e-09  4.57632732e-01  3.24529743e-09  3.22666905e-09  4.57632732e-01  1.60228103e-07  1.07952651e-07  9.30000000e-01 
 9.40000000e-01  3.74285796e-09  4.57632730e-01  3.58096369e-09  4.57632730e-01  3.24529737e-09  3.22666905e-09  4.57632730e-01  1.60228100e-07  1.07952573e-07  9.40000000e-01 
 9.50000000e-01  3.74285796e-09  4.57632727e-01  3.58096369e-09  4.57632727e-01  3.24529743e-09  3.22666905e-09  4.57632727e-01  1.60228089e-07  1.07952424e-07  9.50000000e-01 
 9.60000000e-01  3.74285802e-09  4.57632720e-01  3.58096369e-09  4.57632720e-01  3.24529743e-09  3.22666905e-09  4.57632720e-01  1.60228076e-07  1.07952303e-07  9.60000000e-01 
 9.70000000e-01  3.74285802e-09  4.57632754e-01  3.58096369e-09  4.57632754e-01  3.24529743e-09  3.22666906e-09  4.57632754e-01  1.60228143e-07  1.07952381e-07  9.70000000e-01 
 9.80000000e-01  3.74285802e-09  4.57632726e-01  3.58096375e-09  4.57632726e-01  3.24529737e-09  3.22666900e-09  4.57632726e-01  1.60228096e-07  1.07952282e-07  9.80000000e-01 
 9.90000000e-01  3.74285802e-09  4.57632727e-01  3.58096368e-09  4.57632727e-01  3.24529743e-09  3.22666905e-09  4.57632727e-01  1.60228102e-07  1.07952026e-07  9.90000000e-01 
 1.00000000e+00  3.74285802e-09  4.57632729e-01  3.58096370e-09  4.57632729e-01  3.24529743e-09  3.22666905e-09  4.57632729e-01  1.60228100e-07  1.07952019e-07  1.00000000e+00 
 1.01000000e+00  3.74285796e-09  4.57632737e-01  3.58096369e-09  4.57632737e-01  3.24529737e-09  3.22666906e-09  4.57632737e-01  1.60228127e-07  1.07951955e-07  1.01000000e+00 
 1.02000000e+00  3.74285802e-09  4.57632728e-01  3.58096369e-09  4.57632728e-01  3.24529743e-09  3.22666905e-09  4.57632728e-01  1.60228113e-07  1.07951870e-07  1.02000000e+00 
 1.03000000e+00  3.74285796e-09  4.57632733e-01  3.58096375e-09  4.57632733e-01  3.24529737e-09  3.22666906e-09  4.57632733e-01  1.60228109e-07  1.07951792e-07  1.03000000e+00 
 1.04000000e+00  3.74285802e-09  4.57632737e-01  3.58096368e-09  4.57632737e-01  3.24529737e-09  3.22666906e-09  4.57632737e-01  1.60228120e-07  1.07951607e-07  1.04000000e+00 
 1.05000000e+00  3.74285796e-09  4.57632706e-01  3.58096370e-09  4.57632706e-01  3.24529737e-09  3.22666905e-09  4.57632706e-01  1.60228086e-07  1.07951593e-07  1.05000000e+00 
 1.06000000e+00  3.74285802e-09  4.57632753e-01  3.58096369e-09  4.57632753e-01  3.24529743e-09  3.22666906e-09  4.57632753e-01  1.60228156e-07  1.07951529e-07  1.06000000e+00 
 1.07000000e+00  3.74285802e-09  4.57632721e-01  3.58096369e-09  4.57632721e-01  3.24529743e-09  3.22666900e-09  4.57632721e-01  1.60228098e-07  1.07951344e-07  1.07000000e+00 
 1.08000000e+00  3.74285802e-09  4.57632727e-01  3.58096369e-09  4.57632726e-01  3.24529743e-09  3.22666905e-09  4.57632726e-01  1.60228091e-07  1.07951259e-07  1.08000000e+00 
 1.09000000e+00  3.74285802e-09  4.57632761e-01  3.58096375e-09  4.57632761e-01  3.24529743e-09  3.22666906e-09  4.57632761e-01  1.60228164e-07  1.07951337e-07  1.09000000e+00 
 1.10000000e+00  3.74285796e-09  4.57632748e-01  3.58096374e-09  4.57632748e-01  3.24529737e-09  3.22666906e-09  4.57632748e-01  1.60228122e-07  1.07951173e-07  1.10000000e+00 
