 v-sweep         v(b0)           v(b1)           v(b2)           v(b3)           v(b4)           v(b5)           v(b6)           i(vbias)        i(viout)        v(vout)        
 0.00000000e+00  3.41957023e-09  4.56988253e-01  3.77596073e-09  4.56988253e-01  4.56988253e-01  4.56988253e-01  3.43736658e-09  1.55864537e-07  8.15087620e-08  0.00000000e+00 
 1.00000000e-02  3.41957026e-09  4.56988233e-01  3.77596070e-09  4.56988233e-01  4.56988233e-01  4.56988233e-01  3.43736649e-09  1.55864498e-07  8.15083159e-08  1.00000000e-02 
 2.00000000e-02  3.41957025e-09  4.56988246e-01  3.77596070e-09  4.56988246e-01  4.56988246e-01  4.56988246e-01  3.43736649e-09  1.55864520e-07  8.15080610e-08  2.00000000e-02 
 3.00000000e-02  3.41957026e-09  4.56988251e-01  3.77596076e-09  4.56988251e-01  4.56988251e-01  4.56988251e-01  3.43736650e-09  1.55864540e-07  8.15077010e-08  3.00000000e-02 
 4.00000000e-02  3.41957026e-09  4.56988255e-01  3.77596070e-09  4.56988255e-01  4.56988255e-01  4.56988255e-01  3.43736655e-09  1.55864536e-07  8.15073355e-08  4.00000000e-02 
 5.00000000e-02  3.41957026e-09  4.56988241e-01  3.77596070e-09  4.56988241e-01  4.56988241e-01  4.56988241e-01  3.43736655e-09  1.55864520e-07  8.15069505e-08  5.00000000e-02 
 6.00000000e-02  3.41957026e-09  4.56988241e-01  3.77596070e-09  4.56988240e-01  4.56988241e-01  4.56988241e-01  3.43736655e-09  1.55864515e-07  8.15065881e-08  6.00000000e-02 
 7.00000000e-02  3.41957026e-09  4.56988253e-01  3.77596070e-09  4.56988253e-01  4.56988253e-01  4.56988253e-01  3.43736650e-09  1.55864525e-07  8.15064451e-08  7.00000000e-02 
 8.00000000e-02  3.41957026e-09  4.56988248e-01  3.77596070e-09  4.56988248e-01  4.56988248e-01  4.56988248e-01  3.43736655e-09  1.55864532e-07  8.15060517e-08  8.00000000e-02 
 9.00000000e-02  3.41957026e-09  4.56988236e-01  3.77596070e-09  4.56988236e-01  4.56988236e-01  4.56988236e-01  3.43736655e-09  1.55864500e-07  8.15057035e-08  9.00000000e-02 
 1.00000000e-01  3.41957026e-09  4.56988240e-01  3.77596076e-09  4.56988240e-01  4.56988240e-01  4.56988240e-01  3.43736655e-09  1.55864496e-07  8.15055845e-08  1.00000000e-01 
 1.10000000e-01  3.41957026e-09  4.56988240e-01  3.77596076e-09  4.56988240e-01  4.56988240e-01  4.56988240e-01  3.43736649e-09  1.55864489e-07  8.15052879e-08  1.10000000e-01 
 1.20000000e-01  3.41957026e-09  4.56988231e-01  3.77596070e-09  4.56988231e-01  4.56988231e-01  4.56988231e-01  3.43736655e-09  1.55864499e-07  8.15049193e-08  1.20000000e-01 
 1.30000000e-01  3.41957026e-09  4.56988229e-01  3.77596070e-09  4.56988229e-01  4.56988229e-01  4.56988229e-01  3.43736649e-09  1.55864490e-07  8.15047638e-08  1.30000000e-01 
 1.40000000e-01  3.41957026e-09  4.56988230e-01  3.77596070e-09  4.56988230e-01  4.56988230e-01  4.56988230e-01  3.43736655e-09  1.55864477e-07  8.15044716e-08  1.40000000e-01 
 1.50000000e-01  3.41957026e-09  4.56988250e-01  3.77596070e-09  4.56988250e-01  4.56988251e-01  4.56988250e-01  3.43736655e-09  1.55864523e-07  8.15043464e-08  1.50000000e-01 
 1.60000000e-01  3.41957026e-09  4.56988236e-01  3.77596070e-09  4.56988236e-01  4.56988236e-01  4.56988236e-01  3.43736649e-09  1.55864506e-07  8.15041172e-08  1.60000000e-01 
 1.70000000e-01  3.41957026e-09  4.56988250e-01  3.77596070e-09  4.56988250e-01  4.56988250e-01  4.56988250e-01  3.43736650e-09  1.55864520e-07  8.15038899e-08  1.70000000e-01 
 1.80000000e-01  3.41957025e-09  4.56988228e-01  3.77596075e-09  4.56988228e-01  4.56988228e-01  4.56988228e-01  3.43736655e-09  1.55864493e-07  8.15037353e-08  1.80000000e-01 
 1.90000000e-01  3.41957026e-09  4.56988245e-01  3.77596070e-09  4.56988245e-01  4.56988245e-01  4.56988245e-01  3.43736649e-09  1.55864506e-07  8.15036003e-08  1.90000000e-01 
 2.00000000e-01  3.41957026e-09  4.56988244e-01  3.77596070e-09  4.56988244e-01  4.56988244e-01  4.56988244e-01  3.43736649e-09  1.55864519e-07  8.15033570e-08  2.00000000e-01 
 2.10000000e-01  3.41957026e-09  4.56988229e-01  3.77596070e-09  4.56988229e-01  4.56988229e-01  4.56988229e-01  3.43736655e-09  1.55864499e-07  8.15033872e-08  2.10000000e-01 
 2.20000000e-01  3.41957025e-09  4.56988224e-01  3.77596070e-09  4.56988224e-01  4.56988224e-01  4.56988224e-01  3.43736655e-09  1.55864490e-07  8.15029999e-08  2.20000000e-01 
 2.30000000e-01  3.41957026e-09  4.56988252e-01  3.77596070e-09  4.56988252e-01  4.56988253e-01  4.56988252e-01  3.43736655e-09  1.55864517e-07  8.15029484e-08  2.30000000e-01 
 2.40000000e-01  3.41957026e-09  4.56988242e-01  3.77596070e-09  4.56988242e-01  4.56988242e-01  4.56988242e-01  3.43736649e-09  1.55864516e-07  8.15028187e-08  2.40000000e-01 
 2.50000000e-01  3.41957026e-09  4.56988237e-01  3.77596070e-09  4.56988237e-01  4.56988237e-01  4.56988237e-01  3.43736649e-09  1.55864504e-07  8.15026002e-08  2.50000000e-01 
 2.60000000e-01  3.41957026e-09  4.56988267e-01  3.77596070e-09  4.56988267e-01  4.56988267e-01  4.56988267e-01  3.43736650e-09  1.55864543e-07  8.15025984e-08  2.60000000e-01 
 2.70000000e-01  3.41957026e-09  4.56988250e-01  3.77596070e-09  4.56988250e-01  4.56988250e-01  4.56988250e-01  3.43736655e-09  1.55864520e-07  8.15024919e-08  2.70000000e-01 
 2.80000000e-01  3.41957025e-09  4.56988209e-01  3.77596070e-09  4.56988209e-01  4.56988209e-01  4.56988209e-01  3.43736655e-09  1.55864462e-07  8.15022219e-08  2.80000000e-01 
 2.90000000e-01  3.41957026e-09  4.56988237e-01  3.77596070e-09  4.56988237e-01  4.56988237e-01  4.56988237e-01  3.43736655e-09  1.55864497e-07  8.15023178e-08  2.90000000e-01 
 3.00000000e-01  3.41957026e-09  4.56988230e-01  3.77596075e-09  4.56988230e-01  4.56988230e-01  4.56988230e-01  3.43736649e-09  1.55864486e-07  8.15020975e-08  3.00000000e-01 
 3.10000000e-01  3.41957026e-09  4.56988234e-01  3.77596070e-09  4.56988234e-01  4.56988234e-01  4.56988234e-01  3.43736649e-09  1.55864498e-07  8.15018808e-08  3.10000000e-01 
 3.20000000e-01  3.41957031e-09  4.56988235e-01  3.77596070e-09  4.56988235e-01  4.56988235e-01  4.56988235e-01  3.43736655e-09  1.55864508e-07  8.15018808e-08  3.20000000e-01 
 3.30000000e-01  3.41957026e-09  4.56988249e-01  3.77596070e-09  4.56988249e-01  4.56988249e-01  4.56988249e-01  3.43736650e-09  1.55864523e-07  8.15016286e-08  3.30000000e-01 
 3.40000000e-01  3.41957026e-09  4.56988231e-01  3.77596070e-09  4.56988231e-01  4.56988231e-01  4.56988231e-01  3.43736655e-09  1.55864487e-07  8.15015326e-08  3.40000000e-01 
 3.50000000e-01  3.41957026e-09  4.56988232e-01  3.77596070e-09  4.56988232e-01  4.56988232e-01  4.56988232e-01  3.43736649e-09  1.55864496e-07  8.15014261e-08  3.50000000e-01 
 3.60000000e-01  3.41957026e-09  4.56988239e-01  3.77596070e-09  4.56988239e-01  4.56988239e-01  4.56988239e-01  3.43736655e-09  1.55864496e-07  8.15013514e-08  3.60000000e-01 
 3.70000000e-01  3.41957025e-09  4.56988226e-01  3.77596070e-09  4.56988226e-01  4.56988226e-01  4.56988226e-01  3.43736655e-09  1.55864473e-07  8.15013479e-08  3.70000000e-01 
 3.80000000e-01  3.41957025e-09  4.56988220e-01  3.77596070e-09  4.56988220e-01  4.56988220e-01  4.56988220e-01  3.43736655e-09  1.55864481e-07  8.15012200e-08  3.80000000e-01 
 3.90000000e-01  3.41957025e-09  4.56988224e-01  3.77596070e-09  4.56988224e-01  4.56988224e-01  4.56988224e-01  3.43736655e-09  1.55864484e-07  8.15010353e-08  3.90000000e-01 
 4.00000000e-01  3.41957026e-09  4.56988232e-01  3.77596070e-09  4.56988232e-01  4.56988232e-01  4.56988232e-01  3.43736655e-09  1.55864490e-07  8.15011560e-08  4.00000000e-01 
 4.10000000e-01  3.41957026e-09  4.56988243e-01  3.77596076e-09  4.56988243e-01  4.56988243e-01  4.56988243e-01  3.43736655e-09  1.55864516e-07  8.15009820e-08  4.10000000e-01 
 4.20000000e-01  3.41957025e-09  4.56988219e-01  3.77596070e-09  4.56988219e-01  4.56988219e-01  4.56988219e-01  3.43736655e-09  1.55864488e-07  8.15008114e-08  4.20000000e-01 
 4.30000000e-01  3.41957026e-09  4.56988228e-01  3.77596070e-09  4.56988228e-01  4.56988229e-01  4.56988228e-01  3.43736649e-09  1.55864490e-07  8.15007510e-08  4.30000000e-01 
 4.40000000e-01  3.41957026e-09  4.56988241e-01  3.77596076e-09  4.56988241e-01  4.56988241e-01  4.56988241e-01  3.43736655e-09  1.55864505e-07  8.15006516e-08  4.40000000e-01 
 4.50000000e-01  3.41957026e-09  4.56988232e-01  3.77596070e-09  4.56988231e-01  4.56988232e-01  4.56988232e-01  3.43736649e-09  1.55864493e-07  8.15006764e-08  4.50000000e-01 
 4.60000000e-01  3.41957025e-09  4.56988203e-01  3.77596070e-09  4.56988203e-01  4.56988203e-01  4.56988203e-01  3.43736655e-09  1.55864446e-07  8.15006125e-08  4.60000000e-01 
 4.70000000e-01  3.41957031e-09  4.56988207e-01  3.77596070e-09  4.56988207e-01  4.56988207e-01  4.56988207e-01  3.43736655e-09  1.55864465e-07  8.15004420e-08  4.70000000e-01 
 4.80000000e-01  3.41957025e-09  4.56988225e-01  3.77596070e-09  4.56988225e-01  4.56988225e-01  4.56988225e-01  3.43736655e-09  1.55864488e-07  8.15004277e-08  4.80000000e-01 
 4.90000000e-01  3.41957026e-09  4.56988242e-01  3.77596070e-09  4.56988242e-01  4.56988242e-01  4.56988242e-01  3.43736655e-09  1.55864512e-07  8.15003993e-08  4.90000000e-01 
 5.00000000e-01  3.41957031e-09  4.56988229e-01  3.77596070e-09  4.56988229e-01  4.56988229e-01  4.56988229e-01  3.43736655e-09  1.55864502e-07  8.15002785e-08  5.00000000e-01 
 5.10000000e-01  3.41957026e-09  4.56988246e-01  3.77596070e-09  4.56988246e-01  4.56988246e-01  4.56988246e-01  3.43736655e-09  1.55864495e-07  8.15002608e-08  5.10000000e-01 
 5.20000000e-01  3.41957026e-09  4.56988259e-01  3.77596070e-09  4.56988259e-01  4.56988259e-01  4.56988259e-01  3.43736650e-09  1.55864537e-07  8.15002075e-08  5.20000000e-01 
 5.30000000e-01  3.41957026e-09  4.56988247e-01  3.77596070e-09  4.56988247e-01  4.56988247e-01  4.56988247e-01  3.43736655e-09  1.55864518e-07  8.15001151e-08  5.30000000e-01 
 5.40000000e-01  3.41957026e-09  4.56988273e-01  3.77596070e-09  4.56988273e-01  4.56988273e-01  4.56988273e-01  3.43736650e-09  1.55864552e-07  8.15000050e-08  5.40000000e-01 
 5.50000000e-01  3.41957026e-09  4.56988231e-01  3.77596070e-09  4.56988231e-01  4.56988231e-01  4.56988231e-01  3.43736649e-09  1.55864500e-07  8.14998806e-08  5.50000000e-01 
 5.60000000e-01  3.41957026e-09  4.56988231e-01  3.77596070e-09  4.56988231e-01  4.56988231e-01  4.56988231e-01  3.43736655e-09  1.55864496e-07  8.14998877e-08  5.60000000e-01 
 5.70000000e-01  3.41957026e-09  4.56988266e-01  3.77596070e-09  4.56988266e-01  4.56988266e-01  4.56988266e-01  3.43736655e-09  1.55864524e-07  8.14998131e-08  5.70000000e-01 
 5.80000000e-01  3.41957025e-09  4.56988227e-01  3.77596070e-09  4.56988227e-01  4.56988227e-01  4.56988227e-01  3.43736649e-09  1.55864499e-07  8.14997563e-08  5.80000000e-01 
 5.90000000e-01  3.41957025e-09  4.56988216e-01  3.77596070e-09  4.56988215e-01  4.56988216e-01  4.56988216e-01  3.43736649e-09  1.55864466e-07  8.14997065e-08  5.90000000e-01 
 6.00000000e-01  3.41957025e-09  4.56988220e-01  3.77596070e-09  4.56988220e-01  4.56988220e-01  4.56988220e-01  3.43736655e-09  1.55864474e-07  8.14995502e-08  6.00000000e-01 
 6.10000000e-01  3.41957026e-09  4.56988251e-01  3.77596070e-09  4.56988251e-01  4.56988251e-01  4.56988251e-01  3.43736655e-09  1.55864519e-07  8.14995431e-08  6.10000000e-01 
 6.20000000e-01  3.41957026e-09  4.56988254e-01  3.77596070e-09  4.56988254e-01  4.56988254e-01  4.56988254e-01  3.43736655e-09  1.55864534e-07  8.14995005e-08  6.20000000e-01 
 6.30000000e-01  3.41957026e-09  4.56988230e-01  3.77596070e-09  4.56988230e-01  4.56988230e-01  4.56988230e-01  3.43736655e-09  1.55864507e-07  8.14993015e-08  6.30000000e-01 
 6.40000000e-01  3.41957026e-09  4.56988234e-01  3.77596070e-09  4.56988234e-01  4.56988234e-01  4.56988234e-01  3.43736655e-09  1.55864496e-07  8.14993655e-08  6.40000000e-01 
 6.50000000e-01  3.41957026e-09  4.56988246e-01  3.77596070e-09  4.56988246e-01  4.56988246e-01  4.56988246e-01  3.43736655e-09  1.55864506e-07  8.14992873e-08  6.50000000e-01 
 6.60000000e-01  3.41957026e-09  4.56988238e-01  3.77596070e-09  4.56988237e-01  4.56988238e-01  4.56988238e-01  3.43736655e-09  1.55864515e-07  8.14992660e-08  6.60000000e-01 
 6.70000000e-01  3.41957026e-09  4.56988249e-01  3.77596070e-09  4.56988249e-01  4.56988249e-01  4.56988249e-01  3.43736650e-09  1.55864526e-07  8.14992092e-08  6.70000000e-01 
 6.80000000e-01  3.41957026e-09  4.56988234e-01  3.77596070e-09  4.56988233e-01  4.56988234e-01  4.56988233e-01  3.43736655e-09  1.55864511e-07  8.14989676e-08  6.80000000e-01 
 6.90000000e-01  3.41957025e-09  4.56988227e-01  3.77596070e-09  4.56988226e-01  4.56988227e-01  4.56988227e-01  3.43736655e-09  1.55864479e-07  8.14989818e-08  6.90000000e-01 
 7.00000000e-01  3.41957026e-09  4.56988260e-01  3.77596070e-09  4.56988260e-01  4.56988260e-01  4.56988260e-01  3.43736650e-09  1.55864525e-07  8.14989392e-08  7.00000000e-01 
 7.10000000e-01  3.41957026e-09  4.56988234e-01  3.77596070e-09  4.56988234e-01  4.56988234e-01  4.56988234e-01  3.43736655e-09  1.55864491e-07  8.14988113e-08  7.10000000e-01 
 7.20000000e-01  3.41957025e-09  4.56988218e-01  3.77596070e-09  4.56988218e-01  4.56988218e-01  4.56988218e-01  3.43736655e-09  1.55864468e-07  8.14987615e-08  7.20000000e-01 
 7.30000000e-01  3.41957025e-09  4.56988228e-01  3.77596070e-09  4.56988227e-01  4.56988228e-01  4.56988228e-01  3.43736655e-09  1.55864484e-07  8.14986336e-08  7.30000000e-01 
 7.40000000e-01  3.41957026e-09  4.56988241e-01  3.77596070e-09  4.56988241e-01  4.56988241e-01  4.56988241e-01  3.43736649e-09  1.55864512e-07  8.14986905e-08  7.40000000e-01 
 7.50000000e-01  3.41957026e-09  4.56988254e-01  3.77596070e-09  4.56988254e-01  4.56988254e-01  4.56988254e-01  3.43736650e-09  1.55864537e-07  8.14986834e-08  7.50000000e-01 
 7.60000000e-01  3.41957031e-09  4.56988223e-01  3.77596070e-09  4.56988223e-01  4.56988223e-01  4.56988223e-01  3.43736655e-09  1.55864489e-07  8.14985128e-08  7.60000000e-01 
 7.70000000e-01  3.41957026e-09  4.56988230e-01  3.77596070e-09  4.56988230e-01  4.56988230e-01  4.56988230e-01  3.43736655e-09  1.55864496e-07  8.14983920e-08  7.70000000e-01 
 7.80000000e-01  3.41957026e-09  4.56988255e-01  3.77596070e-09  4.56988255e-01  4.56988255e-01  4.56988255e-01  3.43736650e-09  1.55864531e-07  8.14984276e-08  7.80000000e-01 
 7.90000000e-01  3.41957025e-09  4.56988218e-01  3.77596070e-09  4.56988218e-01  4.56988218e-01  4.56988218e-01  3.43736649e-09  1.55864479e-07  8.14982712e-08  7.90000000e-01 
 8.00000000e-01  3.41957025e-09  4.56988225e-01  3.77596070e-09  4.56988225e-01  4.56988225e-01  4.56988225e-01  3.43736655e-09  1.55864487e-07  8.14982357e-08  8.00000000e-01 
 8.10000000e-01  3.41957026e-09  4.56988244e-01  3.77596070e-09  4.56988244e-01  4.56988244e-01  4.56988244e-01  3.43736655e-09  1.55864508e-07  8.14981433e-08  8.10000000e-01 
 8.20000000e-01  3.41957026e-09  4.56988251e-01  3.77596070e-09  4.56988251e-01  4.56988251e-01  4.56988251e-01  3.43736650e-09  1.55864536e-07  8.14981931e-08  8.20000000e-01 
 8.30000000e-01  3.41957025e-09  4.56988212e-01  3.77596070e-09  4.56988212e-01  4.56988212e-01  4.56988212e-01  3.43736649e-09  1.55864477e-07  8.14980083e-08  8.30000000e-01 
 8.40000000e-01  3.41957025e-09  4.56988224e-01  3.77596070e-09  4.56988224e-01  4.56988224e-01  4.56988224e-01  3.43736655e-09  1.55864471e-07  8.14979018e-08  8.40000000e-01 
 8.50000000e-01  3.41957026e-09  4.56988246e-01  3.77596070e-09  4.56988246e-01  4.56988246e-01  4.56988246e-01  3.43736649e-09  1.55864526e-07  8.14979799e-08  8.50000000e-01 
 8.60000000e-01  3.41957025e-09  4.56988201e-01  3.77596070e-09  4.56988201e-01  4.56988201e-01  4.56988201e-01  3.43736655e-09  1.55864458e-07  8.14977739e-08  8.60000000e-01 
 8.70000000e-01  3.41957025e-09  4.56988223e-01  3.77596075e-09  4.56988223e-01  4.56988224e-01  4.56988223e-01  3.43736655e-09  1.55864477e-07  8.14977170e-08  8.70000000e-01 
 8.80000000e-01  3.41957026e-09  4.56988230e-01  3.77596070e-09  4.56988230e-01  4.56988230e-01  4.56988230e-01  3.43736649e-09  1.55864492e-07  8.14977312e-08  8.80000000e-01 
 8.90000000e-01  3.41957026e-09  4.56988252e-01  3.77596070e-09  4.56988252e-01  4.56988252e-01  4.56988252e-01  3.43736655e-09  1.55864526e-07  8.14977597e-08  8.90000000e-01 
 9.00000000e-01  3.41957026e-09  4.56988229e-01  3.77596070e-09  4.56988229e-01  4.56988229e-01  4.56988229e-01  3.43736649e-09  1.55864493e-07  8.14974683e-08  9.00000000e-01 
 9.10000000e-01  3.41957031e-09  4.56988216e-01  3.77596075e-09  4.56988216e-01  4.56988216e-01  4.56988216e-01  3.43736655e-09  1.55864467e-07  8.14972978e-08  9.10000000e-01 
 9.20000000e-01  3.41957025e-09  4.56988216e-01  3.77596070e-09  4.56988216e-01  4.56988216e-01  4.56988216e-01  3.43736655e-09  1.55864479e-07  8.14973333e-08  9.20000000e-01 
 9.30000000e-01  3.41957026e-09  4.56988253e-01  3.77596070e-09  4.56988253e-01  4.56988253e-01  4.56988253e-01  3.43736655e-09  1.55864512e-07  8.14973404e-08  9.30000000e-01 
 9.40000000e-01  3.41957026e-09  4.56988242e-01  3.77596070e-09  4.56988242e-01  4.56988242e-01  4.56988242e-01  3.43736655e-09  1.55864521e-07  8.14972481e-08  9.40000000e-01 
 9.50000000e-01  3.41957026e-09  4.56988231e-01  3.77596070e-09  4.56988231e-01  4.56988231e-01  4.56988231e-01  3.43736649e-09  1.55864496e-07  8.14970846e-08  9.50000000e-01 
 9.60000000e-01  3.41957025e-09  4.56988227e-01  3.77596070e-09  4.56988227e-01  4.56988227e-01  4.56988227e-01  3.43736655e-09  1.55864484e-07  8.14970207e-08  9.60000000e-01 
 9.70000000e-01  3.41957026e-09  4.56988259e-01  3.77596070e-09  4.56988259e-01  4.56988260e-01  4.56988259e-01  3.43736650e-09  1.55864537e-07  8.14970633e-08  9.70000000e-01 
 9.80000000e-01  3.41957026e-09  4.56988244e-01  3.77596070e-09  4.56988244e-01  4.56988244e-01  4.56988244e-01  3.43736649e-09  1.55864528e-07  8.14968288e-08  9.80000000e-01 
 9.90000000e-01  3.41957026e-09  4.56988238e-01  3.77596070e-09  4.56988238e-01  4.56988238e-01  4.56988238e-01  3.43736655e-09  1.55864503e-07  8.14968004e-08  9.90000000e-01 
 1.00000000e+00  3.41957026e-09  4.56988251e-01  3.77596070e-09  4.56988251e-01  4.56988251e-01  4.56988251e-01  3.43736650e-09  1.55864507e-07  8.14966796e-08  1.00000000e+00 
 1.01000000e+00  3.41957025e-09  4.56988225e-01  3.77596070e-09  4.56988225e-01  4.56988225e-01  4.56988225e-01  3.43736649e-09  1.55864490e-07  8.14966299e-08  1.01000000e+00 
 1.02000000e+00  3.41957025e-09  4.56988222e-01  3.77596070e-09  4.56988221e-01  4.56988222e-01  4.56988222e-01  3.43736649e-09  1.55864477e-07  8.14966512e-08  1.02000000e+00 
 1.03000000e+00  3.41957026e-09  4.56988256e-01  3.77596070e-09  4.56988256e-01  4.56988256e-01  4.56988256e-01  3.43736655e-09  1.55864517e-07  8.14966654e-08  1.03000000e+00 
 1.04000000e+00  3.41957025e-09  4.56988222e-01  3.77596070e-09  4.56988222e-01  4.56988222e-01  4.56988222e-01  3.43736655e-09  1.55864487e-07  8.14964309e-08  1.04000000e+00 
 1.05000000e+00  3.41957026e-09  4.56988245e-01  3.77596070e-09  4.56988245e-01  4.56988245e-01  4.56988245e-01  3.43736649e-09  1.55864510e-07  8.14964309e-08  1.05000000e+00 
 1.06000000e+00  3.41957025e-09  4.56988216e-01  3.77596070e-09  4.56988216e-01  4.56988216e-01  4.56988216e-01  3.43736649e-09  1.55864481e-07  8.14962817e-08  1.06000000e+00 
 1.07000000e+00  3.41957026e-09  4.56988258e-01  3.77596070e-09  4.56988258e-01  4.56988258e-01  4.56988258e-01  3.43736655e-09  1.55864539e-07  8.14963812e-08  1.07000000e+00 
 1.08000000e+00  3.41957026e-09  4.56988245e-01  3.77596070e-09  4.56988245e-01  4.56988245e-01  4.56988245e-01  3.43736655e-09  1.55864509e-07  8.14962604e-08  1.08000000e+00 
 1.09000000e+00  3.41957026e-09  4.56988247e-01  3.77596070e-09  4.56988247e-01  4.56988247e-01  4.56988247e-01  3.43736649e-09  1.55864517e-07  8.14961041e-08  1.09000000e+00 
 1.10000000e+00  3.41957026e-09  4.56988249e-01  3.77596076e-09  4.56988249e-01  4.56988249e-01  4.56988249e-01  3.43736655e-09  1.55864527e-07  8.14960757e-08  1.10000000e+00 
