 v-sweep         v(b0)           v(b1)           v(b2)           v(b3)           v(b4)           v(b5)           v(b6)           i(vbias)        i(viout)        v(vout)        
 0.00000000e+00  4.56695038e-01  3.59664803e-09  3.24860955e-09  4.56695038e-01  4.56695038e-01  4.56695038e-01  4.56695038e-01  1.55082134e-07  1.74399511e-07  0.00000000e+00 
 1.00000000e-02  4.56695025e-01  3.59664801e-09  3.24860959e-09  4.56695025e-01  4.56695025e-01  4.56695025e-01  4.56695025e-01  1.55082111e-07  1.74399023e-07  1.00000000e-02 
 2.00000000e-02  4.56695032e-01  3.59664806e-09  3.24860959e-09  4.56695032e-01  4.56695032e-01  4.56695032e-01  4.56695032e-01  1.55082114e-07  1.74398715e-07  2.00000000e-02 
 3.00000000e-02  4.56695023e-01  3.59664805e-09  3.24860953e-09  4.56695023e-01  4.56695023e-01  4.56695023e-01  4.56695023e-01  1.55082119e-07  1.74398128e-07  3.00000000e-02 
 4.00000000e-02  4.56695019e-01  3.59664801e-09  3.24860959e-09  4.56695019e-01  4.56695019e-01  4.56695019e-01  4.56695019e-01  1.55082089e-07  1.74397661e-07  4.00000000e-02 
 5.00000000e-02  4.56695034e-01  3.59664801e-09  3.24860953e-09  4.56695034e-01  4.56695034e-01  4.56695034e-01  4.56695034e-01  1.55082116e-07  1.74397330e-07  5.00000000e-02 
 6.00000000e-02  4.56695034e-01  3.59664807e-09  3.24860959e-09  4.56695033e-01  4.56695033e-01  4.56695034e-01  4.56695033e-01  1.55082128e-07  1.74396994e-07  6.00000000e-02 
 7.00000000e-02  4.56695018e-01  3.59664799e-09  3.24860959e-09  4.56695018e-01  4.56695018e-01  4.56695018e-01  4.56695018e-01  1.55082104e-07  1.74396628e-07  7.00000000e-02 
 8.00000000e-02  4.56695035e-01  3.59664801e-09  3.24860953e-09  4.56695035e-01  4.56695035e-01  4.56695035e-01  4.56695035e-01  1.55082128e-07  1.74396291e-07  8.00000000e-02 
 9.00000000e-02  4.56695030e-01  3.59664806e-09  3.24860959e-09  4.56695030e-01  4.56695030e-01  4.56695030e-01  4.56695030e-01  1.55082117e-07  1.74396014e-07  9.00000000e-02 
 1.00000000e-01  4.56695007e-01  3.59664805e-09  3.24860953e-09  4.56695007e-01  4.56695007e-01  4.56695007e-01  4.56695007e-01  1.55082079e-07  1.74395583e-07  1.00000000e-01 
 1.10000000e-01  4.56694980e-01  3.59664801e-09  3.24860953e-09  4.56694980e-01  4.56694980e-01  4.56694980e-01  4.56694980e-01  1.55082043e-07  1.74395139e-07  1.10000000e-01 
 1.20000000e-01  4.56695013e-01  3.59664801e-09  3.24860953e-09  4.56695013e-01  4.56695013e-01  4.56695013e-01  4.56695013e-01  1.55082099e-07  1.74395058e-07  1.20000000e-01 
 1.30000000e-01  4.56695045e-01  3.59664801e-09  3.24860953e-09  4.56695045e-01  4.56695045e-01  4.56695045e-01  4.56695045e-01  1.55082134e-07  1.74394924e-07  1.30000000e-01 
 1.40000000e-01  4.56695020e-01  3.59664806e-09  3.24860959e-09  4.56695020e-01  4.56695020e-01  4.56695020e-01  4.56695020e-01  1.55082105e-07  1.74394429e-07  1.40000000e-01 
 1.50000000e-01  4.56695018e-01  3.59664805e-09  3.24860953e-09  4.56695018e-01  4.56695018e-01  4.56695018e-01  4.56695018e-01  1.55082106e-07  1.74394158e-07  1.50000000e-01 
 1.60000000e-01  4.56695033e-01  3.59664807e-09  3.24860959e-09  4.56695033e-01  4.56695033e-01  4.56695033e-01  4.56695033e-01  1.55082120e-07  1.74394062e-07  1.60000000e-01 
 1.70000000e-01  4.56695022e-01  3.59664805e-09  3.24860953e-09  4.56695021e-01  4.56695021e-01  4.56695022e-01  4.56695021e-01  1.55082099e-07  1.74393694e-07  1.70000000e-01 
 1.80000000e-01  4.56694998e-01  3.59664801e-09  3.24860953e-09  4.56694998e-01  4.56694998e-01  4.56694998e-01  4.56694998e-01  1.55082060e-07  1.74393278e-07  1.80000000e-01 
 1.90000000e-01  4.56695026e-01  3.59664806e-09  3.24860953e-09  4.56695026e-01  4.56695026e-01  4.56695026e-01  4.56695026e-01  1.55082110e-07  1.74393302e-07  1.90000000e-01 
 2.00000000e-01  4.56695033e-01  3.59664800e-09  3.24860953e-09  4.56695033e-01  4.56695033e-01  4.56695033e-01  4.56695033e-01  1.55082139e-07  1.74393049e-07  2.00000000e-01 
 2.10000000e-01  4.56695026e-01  3.59664801e-09  3.24860959e-09  4.56695026e-01  4.56695026e-01  4.56695026e-01  4.56695026e-01  1.55082105e-07  1.74392783e-07  2.10000000e-01 
 2.20000000e-01  4.56695029e-01  3.59664801e-09  3.24860959e-09  4.56695029e-01  4.56695029e-01  4.56695029e-01  4.56695029e-01  1.55082113e-07  1.74392731e-07  2.20000000e-01 
 2.30000000e-01  4.56694999e-01  3.59664800e-09  3.24860959e-09  4.56694999e-01  4.56694999e-01  4.56694999e-01  4.56694999e-01  1.55082073e-07  1.74392307e-07  2.30000000e-01 
 2.40000000e-01  4.56695007e-01  3.59664800e-09  3.24860959e-09  4.56695007e-01  4.56695007e-01  4.56695007e-01  4.56695007e-01  1.55082086e-07  1.74392067e-07  2.40000000e-01 
 2.50000000e-01  4.56695000e-01  3.59664806e-09  3.24860959e-09  4.56695000e-01  4.56695000e-01  4.56695000e-01  4.56695000e-01  1.55082072e-07  1.74391976e-07  2.50000000e-01 
 2.60000000e-01  4.56695011e-01  3.59664800e-09  3.24860959e-09  4.56695011e-01  4.56695011e-01  4.56695011e-01  4.56695011e-01  1.55082093e-07  1.74391921e-07  2.60000000e-01 
 2.70000000e-01  4.56694982e-01  3.59664800e-09  3.24860953e-09  4.56694982e-01  4.56694982e-01  4.56694982e-01  4.56694982e-01  1.55082037e-07  1.74391499e-07  2.70000000e-01 
 2.80000000e-01  4.56695014e-01  3.59664801e-09  3.24860953e-09  4.56695014e-01  4.56695014e-01  4.56695014e-01  4.56695014e-01  1.55082094e-07  1.74391413e-07  2.80000000e-01 
 2.90000000e-01  4.56695021e-01  3.59664801e-09  3.24860953e-09  4.56695021e-01  4.56695021e-01  4.56695021e-01  4.56695021e-01  1.55082112e-07  1.74391399e-07  2.90000000e-01 
 3.00000000e-01  4.56695030e-01  3.59664801e-09  3.24860953e-09  4.56695030e-01  4.56695030e-01  4.56695030e-01  4.56695030e-01  1.55082115e-07  1.74391158e-07  3.00000000e-01 
 3.10000000e-01  4.56695011e-01  3.59664800e-09  3.24860959e-09  4.56695011e-01  4.56695011e-01  4.56695011e-01  4.56695011e-01  1.55082099e-07  1.74391097e-07  3.10000000e-01 
 3.20000000e-01  4.56695005e-01  3.59664800e-09  3.24860953e-09  4.56695005e-01  4.56695005e-01  4.56695005e-01  4.56695005e-01  1.55082090e-07  1.74390824e-07  3.20000000e-01 
 3.30000000e-01  4.56695017e-01  3.59664801e-09  3.24860953e-09  4.56695017e-01  4.56695017e-01  4.56695017e-01  4.56695017e-01  1.55082094e-07  1.74390589e-07  3.30000000e-01 
 3.40000000e-01  4.56695027e-01  3.59664806e-09  3.24860953e-09  4.56695027e-01  4.56695027e-01  4.56695027e-01  4.56695027e-01  1.55082108e-07  1.74390529e-07  3.40000000e-01 
 3.50000000e-01  4.56695013e-01  3.59664805e-09  3.24860953e-09  4.56695013e-01  4.56695013e-01  4.56695013e-01  4.56695013e-01  1.55082089e-07  1.74390344e-07  3.50000000e-01 
 3.60000000e-01  4.56695034e-01  3.59664801e-09  3.24860953e-09  4.56695034e-01  4.56695034e-01  4.56695034e-01  4.56695034e-01  1.55082129e-07  1.74390316e-07  3.60000000e-01 
 3.70000000e-01  4.56695051e-01  3.59664801e-09  3.24860953e-09  4.56695051e-01  4.56695051e-01  4.56695051e-01  4.56695051e-01  1.55082148e-07  1.74390205e-07  3.70000000e-01 
 3.80000000e-01  4.56694988e-01  3.59664800e-09  3.24860953e-09  4.56694988e-01  4.56694988e-01  4.56694988e-01  4.56694988e-01  1.55082061e-07  1.74389761e-07  3.80000000e-01 
 3.90000000e-01  4.56695022e-01  3.59664806e-09  3.24860953e-09  4.56695022e-01  4.56695022e-01  4.56695023e-01  4.56695022e-01  1.55082111e-07  1.74389822e-07  3.90000000e-01 
 4.00000000e-01  4.56695050e-01  3.59664800e-09  3.24860959e-09  4.56695050e-01  4.56695050e-01  4.56695050e-01  4.56695050e-01  1.55082160e-07  1.74389747e-07  4.00000000e-01 
 4.10000000e-01  4.56695016e-01  3.59664801e-09  3.24860953e-09  4.56695016e-01  4.56695016e-01  4.56695016e-01  4.56695016e-01  1.55082103e-07  1.74389534e-07  4.10000000e-01 
 4.20000000e-01  4.56695012e-01  3.59664801e-09  3.24860953e-09  4.56695012e-01  4.56695012e-01  4.56695012e-01  4.56695012e-01  1.55082084e-07  1.74389413e-07  4.20000000e-01 
 4.30000000e-01  4.56695013e-01  3.59664801e-09  3.24860959e-09  4.56695013e-01  4.56695013e-01  4.56695014e-01  4.56695013e-01  1.55082090e-07  1.74389125e-07  4.30000000e-01 
 4.40000000e-01  4.56695029e-01  3.59664806e-09  3.24860959e-09  4.56695029e-01  4.56695029e-01  4.56695029e-01  4.56695029e-01  1.55082117e-07  1.74389175e-07  4.40000000e-01 
 4.50000000e-01  4.56695058e-01  3.59664800e-09  3.24860953e-09  4.56695058e-01  4.56695058e-01  4.56695058e-01  4.56695058e-01  1.55082163e-07  1.74389122e-07  4.50000000e-01 
 4.60000000e-01  4.56695009e-01  3.59664807e-09  3.24860959e-09  4.56695009e-01  4.56695009e-01  4.56695009e-01  4.56695009e-01  1.55082096e-07  1.74388838e-07  4.60000000e-01 
 4.70000000e-01  4.56695033e-01  3.59664800e-09  3.24860953e-09  4.56695033e-01  4.56695033e-01  4.56695033e-01  4.56695033e-01  1.55082115e-07  1.74388745e-07  4.70000000e-01 
 4.80000000e-01  4.56695012e-01  3.59664801e-09  3.24860959e-09  4.56695012e-01  4.56695012e-01  4.56695012e-01  4.56695012e-01  1.55082100e-07  1.74388575e-07  4.80000000e-01 
 4.90000000e-01  4.56695000e-01  3.59664800e-09  3.24860953e-09  4.56695000e-01  4.56695000e-01  4.56695000e-01  4.56695000e-01  1.55082068e-07  1.74388351e-07  4.90000000e-01 
 5.00000000e-01  4.56695019e-01  3.59664806e-09  3.24860959e-09  4.56695019e-01  4.56695019e-01  4.56695019e-01  4.56695019e-01  1.55082102e-07  1.74388376e-07  5.00000000e-01 
 5.10000000e-01  4.56695017e-01  3.59664799e-09  3.24860953e-09  4.56695017e-01  4.56695017e-01  4.56695017e-01  4.56695017e-01  1.55082104e-07  1.74388092e-07  5.10000000e-01 
 5.20000000e-01  4.56695017e-01  3.59664801e-09  3.24860953e-09  4.56695017e-01  4.56695017e-01  4.56695017e-01  4.56695017e-01  1.55082104e-07  1.74388102e-07  5.20000000e-01 
 5.30000000e-01  4.56695011e-01  3.59664800e-09  3.24860959e-09  4.56695011e-01  4.56695011e-01  4.56695011e-01  4.56695011e-01  1.55082095e-07  1.74387900e-07  5.30000000e-01 
 5.40000000e-01  4.56695024e-01  3.59664806e-09  3.24860953e-09  4.56695024e-01  4.56695024e-01  4.56695025e-01  4.56695024e-01  1.55082107e-07  1.74387900e-07  5.40000000e-01 
 5.50000000e-01  4.56695005e-01  3.59664799e-09  3.24860959e-09  4.56695005e-01  4.56695005e-01  4.56695005e-01  4.56695005e-01  1.55082071e-07  1.74387619e-07  5.50000000e-01 
 5.60000000e-01  4.56694999e-01  3.59664801e-09  3.24860959e-09  4.56694999e-01  4.56694999e-01  4.56694999e-01  4.56694999e-01  1.55082071e-07  1.74387498e-07  5.60000000e-01 
 5.70000000e-01  4.56695028e-01  3.59664801e-09  3.24860953e-09  4.56695028e-01  4.56695028e-01  4.56695028e-01  4.56695028e-01  1.55082128e-07  1.74387541e-07  5.70000000e-01 
 5.80000000e-01  4.56694987e-01  3.59664806e-09  3.24860953e-09  4.56694987e-01  4.56694987e-01  4.56694987e-01  4.56694987e-01  1.55082059e-07  1.74387132e-07  5.80000000e-01 
 5.90000000e-01  4.56695019e-01  3.59664806e-09  3.24860959e-09  4.56695019e-01  4.56695019e-01  4.56695019e-01  4.56695019e-01  1.55082098e-07  1.74387154e-07  5.90000000e-01 
 6.00000000e-01  4.56695017e-01  3.59664805e-09  3.24860959e-09  4.56695017e-01  4.56695017e-01  4.56695017e-01  4.56695017e-01  1.55082107e-07  1.74387125e-07  6.00000000e-01 
 6.10000000e-01  4.56695006e-01  3.59664801e-09  3.24860959e-09  4.56695005e-01  4.56695005e-01  4.56695006e-01  4.56695005e-01  1.55082070e-07  1.74386891e-07  6.10000000e-01 
 6.20000000e-01  4.56695020e-01  3.59664801e-09  3.24860953e-09  4.56695019e-01  4.56695019e-01  4.56695020e-01  4.56695019e-01  1.55082117e-07  1.74386798e-07  6.20000000e-01 
 6.30000000e-01  4.56695012e-01  3.59664801e-09  3.24860959e-09  4.56695012e-01  4.56695012e-01  4.56695012e-01  4.56695012e-01  1.55082087e-07  1.74386699e-07  6.30000000e-01 
 6.40000000e-01  4.56695026e-01  3.59664801e-09  3.24860959e-09  4.56695026e-01  4.56695026e-01  4.56695026e-01  4.56695026e-01  1.55082118e-07  1.74386628e-07  6.40000000e-01 
 6.50000000e-01  4.56695043e-01  3.59664801e-09  3.24860959e-09  4.56695042e-01  4.56695042e-01  4.56695043e-01  4.56695042e-01  1.55082139e-07  1.74386514e-07  6.50000000e-01 
 6.60000000e-01  4.56695018e-01  3.59664806e-09  3.24860959e-09  4.56695018e-01  4.56695018e-01  4.56695018e-01  4.56695018e-01  1.55082114e-07  1.74386358e-07  6.60000000e-01 
 6.70000000e-01  4.56695020e-01  3.59664805e-09  3.24860953e-09  4.56695020e-01  4.56695020e-01  4.56695020e-01  4.56695020e-01  1.55082091e-07  1.74386173e-07  6.70000000e-01 
 6.80000000e-01  4.56694997e-01  3.59664801e-09  3.24860953e-09  4.56694997e-01  4.56694997e-01  4.56694997e-01  4.56694997e-01  1.55082067e-07  1.74385960e-07  6.80000000e-01 
 6.90000000e-01  4.56694987e-01  3.59664806e-09  3.24860953e-09  4.56694987e-01  4.56694987e-01  4.56694987e-01  4.56694987e-01  1.55082051e-07  1.74385846e-07  6.90000000e-01 
 7.00000000e-01  4.56695022e-01  3.59664806e-09  3.24860959e-09  4.56695022e-01  4.56695022e-01  4.56695022e-01  4.56695022e-01  1.55082104e-07  1.74385804e-07  7.00000000e-01 
 7.10000000e-01  4.56695013e-01  3.59664805e-09  3.24860959e-09  4.56695013e-01  4.56695013e-01  4.56695013e-01  4.56695013e-01  1.55082103e-07  1.74385548e-07  7.10000000e-01 
 7.20000000e-01  4.56695007e-01  3.59664801e-09  3.24860959e-09  4.56695007e-01  4.56695007e-01  4.56695007e-01  4.56695007e-01  1.55082085e-07  1.74385448e-07  7.20000000e-01 
 7.30000000e-01  4.56694998e-01  3.59664800e-09  3.24860959e-09  4.56694998e-01  4.56694998e-01  4.56694998e-01  4.56694998e-01  1.55082067e-07  1.74385228e-07  7.30000000e-01 
 7.40000000e-01  4.56695031e-01  3.59664801e-09  3.24860953e-09  4.56695030e-01  4.56695030e-01  4.56695031e-01  4.56695030e-01  1.55082121e-07  1.74385271e-07  7.40000000e-01 
 7.50000000e-01  4.56695006e-01  3.59664806e-09  3.24860953e-09  4.56695006e-01  4.56695006e-01  4.56695006e-01  4.56695006e-01  1.55082073e-07  1.74385079e-07  7.50000000e-01 
 7.60000000e-01  4.56695029e-01  3.59664800e-09  3.24860953e-09  4.56695029e-01  4.56695029e-01  4.56695029e-01  4.56695029e-01  1.55082116e-07  1.74385050e-07  7.60000000e-01 
 7.70000000e-01  4.56695054e-01  3.59664802e-09  3.24860959e-09  4.56695054e-01  4.56695054e-01  4.56695054e-01  4.56695054e-01  1.55082143e-07  1.74385022e-07  7.70000000e-01 
 7.80000000e-01  4.56695029e-01  3.59664801e-09  3.24860953e-09  4.56695029e-01  4.56695029e-01  4.56695029e-01  4.56695029e-01  1.55082125e-07  1.74384752e-07  7.80000000e-01 
 7.90000000e-01  4.56695016e-01  3.59664801e-09  3.24860953e-09  4.56695016e-01  4.56695016e-01  4.56695016e-01  4.56695016e-01  1.55082090e-07  1.74384482e-07  7.90000000e-01 
 8.00000000e-01  4.56695022e-01  3.59664801e-09  3.24860953e-09  4.56695022e-01  4.56695022e-01  4.56695022e-01  4.56695022e-01  1.55082091e-07  1.74384347e-07  8.00000000e-01 
 8.10000000e-01  4.56695007e-01  3.59664800e-09  3.24860959e-09  4.56695007e-01  4.56695007e-01  4.56695007e-01  4.56695007e-01  1.55082073e-07  1.74384269e-07  8.10000000e-01 
 8.20000000e-01  4.56695021e-01  3.59664801e-09  3.24860953e-09  4.56695021e-01  4.56695021e-01  4.56695021e-01  4.56695021e-01  1.55082084e-07  1.74384169e-07  8.20000000e-01 
 8.30000000e-01  4.56695025e-01  3.59664801e-09  3.24860959e-09  4.56695025e-01  4.56695025e-01  4.56695025e-01  4.56695025e-01  1.55082105e-07  1.74384041e-07  8.30000000e-01 
 8.40000000e-01  4.56695025e-01  3.59664801e-09  3.24860959e-09  4.56695025e-01  4.56695025e-01  4.56695025e-01  4.56695025e-01  1.55082101e-07  1.74383970e-07  8.40000000e-01 
 8.50000000e-01  4.56695029e-01  3.59664801e-09  3.24860953e-09  4.56695029e-01  4.56695029e-01  4.56695029e-01  4.56695029e-01  1.55082106e-07  1.74383800e-07  8.50000000e-01 
 8.60000000e-01  4.56695025e-01  3.59664801e-09  3.24860953e-09  4.56695025e-01  4.56695025e-01  4.56695025e-01  4.56695025e-01  1.55082116e-07  1.74383644e-07  8.60000000e-01 
 8.70000000e-01  4.56695008e-01  3.59664806e-09  3.24860953e-09  4.56695008e-01  4.56695008e-01  4.56695008e-01  4.56695008e-01  1.55082088e-07  1.74383445e-07  8.70000000e-01 
 8.80000000e-01  4.56695009e-01  3.59664805e-09  3.24860959e-09  4.56695009e-01  4.56695009e-01  4.56695009e-01  4.56695009e-01  1.55082082e-07  1.74383253e-07  8.80000000e-01 
 8.90000000e-01  4.56695035e-01  3.59664801e-09  3.24860953e-09  4.56695035e-01  4.56695035e-01  4.56695035e-01  4.56695035e-01  1.55082123e-07  1.74383317e-07  8.90000000e-01 
 9.00000000e-01  4.56694996e-01  3.59664800e-09  3.24860959e-09  4.56694996e-01  4.56694996e-01  4.56694996e-01  4.56694996e-01  1.55082071e-07  1.74382912e-07  9.00000000e-01 
 9.10000000e-01  4.56695005e-01  3.59664800e-09  3.24860953e-09  4.56695005e-01  4.56695005e-01  4.56695005e-01  4.56695005e-01  1.55082077e-07  1.74382834e-07  9.10000000e-01 
 9.20000000e-01  4.56695028e-01  3.59664806e-09  3.24860953e-09  4.56695028e-01  4.56695028e-01  4.56695028e-01  4.56695028e-01  1.55082113e-07  1.74382805e-07  9.20000000e-01 
 9.30000000e-01  4.56695055e-01  3.59664806e-09  3.24860953e-09  4.56695055e-01  4.56695055e-01  4.56695055e-01  4.56695055e-01  1.55082149e-07  1.74382784e-07  9.30000000e-01 
 9.40000000e-01  4.56695006e-01  3.59664807e-09  3.24860953e-09  4.56695006e-01  4.56695006e-01  4.56695006e-01  4.56695006e-01  1.55082084e-07  1.74382457e-07  9.40000000e-01 
 9.50000000e-01  4.56695000e-01  3.59664799e-09  3.24860953e-09  4.56695000e-01  4.56695000e-01  4.56695000e-01  4.56695000e-01  1.55082079e-07  1.74382166e-07  9.50000000e-01 
 9.60000000e-01  4.56694994e-01  3.59664807e-09  3.24860959e-09  4.56694994e-01  4.56694994e-01  4.56694994e-01  4.56694994e-01  1.55082065e-07  1.74382144e-07  9.60000000e-01 
 9.70000000e-01  4.56695015e-01  3.59664805e-09  3.24860953e-09  4.56695015e-01  4.56695014e-01  4.56695015e-01  4.56695014e-01  1.55082100e-07  1.74382016e-07  9.70000000e-01 
 9.80000000e-01  4.56695007e-01  3.59664807e-09  3.24860953e-09  4.56695007e-01  4.56695007e-01  4.56695007e-01  4.56695007e-01  1.55082079e-07  1.74381739e-07  9.80000000e-01 
 9.90000000e-01  4.56694999e-01  3.59664805e-09  3.24860959e-09  4.56694999e-01  4.56694999e-01  4.56695000e-01  4.56694999e-01  1.55082064e-07  1.74381512e-07  9.90000000e-01 
 1.00000000e+00  4.56695005e-01  3.59664807e-09  3.24860959e-09  4.56695005e-01  4.56695005e-01  4.56695005e-01  4.56695005e-01  1.55082087e-07  1.74381547e-07  1.00000000e+00 
 1.01000000e+00  4.56695003e-01  3.59664805e-09  3.24860953e-09  4.56695003e-01  4.56695003e-01  4.56695003e-01  4.56695003e-01  1.55082067e-07  1.74381221e-07  1.01000000e+00 
 1.02000000e+00  4.56695017e-01  3.59664807e-09  3.24860959e-09  4.56695017e-01  4.56695017e-01  4.56695017e-01  4.56695017e-01  1.55082100e-07  1.74381299e-07  1.02000000e+00 
 1.03000000e+00  4.56695015e-01  3.59664799e-09  3.24860953e-09  4.56695015e-01  4.56695015e-01  4.56695015e-01  4.56695014e-01  1.55082097e-07  1.74381064e-07  1.03000000e+00 
 1.04000000e+00  4.56695001e-01  3.59664807e-09  3.24860953e-09  4.56695001e-01  4.56695001e-01  4.56695001e-01  4.56695001e-01  1.55082065e-07  1.74380844e-07  1.04000000e+00 
 1.05000000e+00  4.56695021e-01  3.59664799e-09  3.24860953e-09  4.56695021e-01  4.56695021e-01  4.56695021e-01  4.56695021e-01  1.55082099e-07  1.74380723e-07  1.05000000e+00 
 1.06000000e+00  4.56695007e-01  3.59664801e-09  3.24860959e-09  4.56695007e-01  4.56695007e-01  4.56695007e-01  4.56695007e-01  1.55082087e-07  1.74380546e-07  1.06000000e+00 
 1.07000000e+00  4.56695007e-01  3.59664806e-09  3.24860953e-09  4.56695007e-01  4.56695007e-01  4.56695007e-01  4.56695007e-01  1.55082099e-07  1.74380382e-07  1.07000000e+00 
 1.08000000e+00  4.56695015e-01  3.59664799e-09  3.24860959e-09  4.56695015e-01  4.56695015e-01  4.56695015e-01  4.56695015e-01  1.55082085e-07  1.74380247e-07  1.08000000e+00 
 1.09000000e+00  4.56695020e-01  3.59664801e-09  3.24860959e-09  4.56695020e-01  4.56695020e-01  4.56695020e-01  4.56695020e-01  1.55082101e-07  1.74380126e-07  1.09000000e+00 
 1.10000000e+00  4.56695017e-01  3.59664801e-09  3.24860959e-09  4.56695017e-01  4.56695017e-01  4.56695017e-01  4.56695017e-01  1.55082098e-07  1.74379949e-07  1.10000000e+00 
