 v-sweep         v(b0)           v(b1)           v(b2)           v(b3)           v(b4)           v(b5)           v(b6)           i(vbias)        i(viout)        v(vout)        
 0.00000000e+00  4.59002439e-01  4.59002439e-01  4.59002439e-01  3.70863902e-09  3.37645132e-09  3.51793126e-09  4.59002439e-01  1.61432518e-07  1.11173136e-07  0.00000000e+00 
 1.00000000e-02  4.59002428e-01  4.59002428e-01  4.59002428e-01  3.70863904e-09  3.37645129e-09  3.51793128e-09  4.59002428e-01  1.61432490e-07  1.11172832e-07  1.00000000e-02 
 2.00000000e-02  4.59002440e-01  4.59002440e-01  4.59002440e-01  3.70863899e-09  3.37645129e-09  3.51793123e-09  4.59002440e-01  1.61432514e-07  1.11172367e-07  2.00000000e-02 
 3.00000000e-02  4.59002440e-01  4.59002439e-01  4.59002440e-01  3.70863899e-09  3.37645129e-09  3.51793128e-09  4.59002440e-01  1.61432521e-07  1.11171933e-07  3.00000000e-02 
 4.00000000e-02  4.59002431e-01  4.59002431e-01  4.59002432e-01  3.70863904e-09  3.37645129e-09  3.51793123e-09  4.59002431e-01  1.61432496e-07  1.11171633e-07  4.00000000e-02 
 5.00000000e-02  4.59002448e-01  4.59002448e-01  4.59002448e-01  3.70863904e-09  3.37645129e-09  3.51793123e-09  4.59002448e-01  1.61432531e-07  1.11171405e-07  5.00000000e-02 
 6.00000000e-02  4.59002425e-01  4.59002425e-01  4.59002425e-01  3.70863904e-09  3.37645129e-09  3.51793122e-09  4.59002425e-01  1.61432487e-07  1.11170929e-07  6.00000000e-02 
 7.00000000e-02  4.59002417e-01  4.59002416e-01  4.59002417e-01  3.70863904e-09  3.37645129e-09  3.51793122e-09  4.59002417e-01  1.61432467e-07  1.11170548e-07  7.00000000e-02 
 8.00000000e-02  4.59002433e-01  4.59002433e-01  4.59002433e-01  3.70863904e-09  3.37645129e-09  3.51793128e-09  4.59002433e-01  1.61432506e-07  1.11170271e-07  8.00000000e-02 
 9.00000000e-02  4.59002451e-01  4.59002451e-01  4.59002451e-01  3.70863904e-09  3.37645129e-09  3.51793123e-09  4.59002451e-01  1.61432540e-07  1.11170092e-07  9.00000000e-02 
 1.00000000e-01  4.59002425e-01  4.59002425e-01  4.59002425e-01  3.70863904e-09  3.37645135e-09  3.51793122e-09  4.59002425e-01  1.61432486e-07  1.11169665e-07  1.00000000e-01 
 1.10000000e-01  4.59002423e-01  4.59002423e-01  4.59002423e-01  3.70863904e-09  3.37645129e-09  3.51793122e-09  4.59002423e-01  1.61432480e-07  1.11169404e-07  1.10000000e-01 
 1.20000000e-01  4.59002412e-01  4.59002411e-01  4.59002412e-01  3.70863898e-09  3.37645135e-09  3.51793122e-09  4.59002412e-01  1.61432475e-07  1.11169062e-07  1.20000000e-01 
 1.30000000e-01  4.59002427e-01  4.59002427e-01  4.59002427e-01  3.70863904e-09  3.37645129e-09  3.51793128e-09  4.59002427e-01  1.61432485e-07  1.11168981e-07  1.30000000e-01 
 1.40000000e-01  4.59002436e-01  4.59002436e-01  4.59002437e-01  3.70863904e-09  3.37645129e-09  3.51793123e-09  4.59002436e-01  1.61432513e-07  1.11168817e-07  1.40000000e-01 
 1.50000000e-01  4.59002422e-01  4.59002422e-01  4.59002422e-01  3.70863904e-09  3.37645135e-09  3.51793128e-09  4.59002422e-01  1.61432496e-07  1.11168610e-07  1.50000000e-01 
 1.60000000e-01  4.59002446e-01  4.59002446e-01  4.59002447e-01  3.70863904e-09  3.37645129e-09  3.51793128e-09  4.59002446e-01  1.61432503e-07  1.11168394e-07  1.60000000e-01 
 1.70000000e-01  4.59002448e-01  4.59002448e-01  4.59002448e-01  3.70863904e-09  3.37645129e-09  3.51793128e-09  4.59002448e-01  1.61432534e-07  1.11168129e-07  1.70000000e-01 
 1.80000000e-01  4.59002451e-01  4.59002451e-01  4.59002451e-01  3.70863904e-09  3.37645135e-09  3.51793123e-09  4.59002451e-01  1.61432547e-07  1.11167985e-07  1.80000000e-01 
 1.90000000e-01  4.59002445e-01  4.59002445e-01  4.59002445e-01  3.70863904e-09  3.37645135e-09  3.51793128e-09  4.59002445e-01  1.61432529e-07  1.11167706e-07  1.90000000e-01 
 2.00000000e-01  4.59002430e-01  4.59002430e-01  4.59002430e-01  3.70863899e-09  3.37645129e-09  3.51793128e-09  4.59002430e-01  1.61432505e-07  1.11167463e-07  2.00000000e-01 
 2.10000000e-01  4.59002433e-01  4.59002433e-01  4.59002433e-01  3.70863904e-09  3.37645129e-09  3.51793128e-09  4.59002433e-01  1.61432508e-07  1.11167305e-07  2.10000000e-01 
 2.20000000e-01  4.59002414e-01  4.59002414e-01  4.59002414e-01  3.70863898e-09  3.37645129e-09  3.51793122e-09  4.59002414e-01  1.61432482e-07  1.11167221e-07  2.20000000e-01 
 2.30000000e-01  4.59002415e-01  4.59002415e-01  4.59002415e-01  3.70863904e-09  3.37645135e-09  3.51793128e-09  4.59002415e-01  1.61432488e-07  1.11167045e-07  2.30000000e-01 
 2.40000000e-01  4.59002420e-01  4.59002420e-01  4.59002420e-01  3.70863899e-09  3.37645129e-09  3.51793122e-09  4.59002420e-01  1.61432495e-07  1.11166887e-07  2.40000000e-01 
 2.50000000e-01  4.59002428e-01  4.59002428e-01  4.59002428e-01  3.70863904e-09  3.37645129e-09  3.51793128e-09  4.59002428e-01  1.61432499e-07  1.11166820e-07  2.50000000e-01 
 2.60000000e-01  4.59002438e-01  4.59002438e-01  4.59002438e-01  3.70863899e-09  3.37645135e-09  3.51793128e-09  4.59002438e-01  1.61432540e-07  1.11166583e-07  2.60000000e-01 
 2.70000000e-01  4.59002447e-01  4.59002447e-01  4.59002447e-01  3.70863899e-09  3.37645135e-09  3.51793123e-09  4.59002447e-01  1.61432540e-07  1.11166555e-07  2.70000000e-01 
 2.80000000e-01  4.59002416e-01  4.59002416e-01  4.59002416e-01  3.70863904e-09  3.37645135e-09  3.51793122e-09  4.59002416e-01  1.61432490e-07  1.11166319e-07  2.80000000e-01 
 2.90000000e-01  4.59002421e-01  4.59002421e-01  4.59002421e-01  3.70863904e-09  3.37645135e-09  3.51793122e-09  4.59002421e-01  1.61432495e-07  1.11166145e-07  2.90000000e-01 
 3.00000000e-01  4.59002448e-01  4.59002448e-01  4.59002449e-01  3.70863899e-09  3.37645135e-09  3.51793123e-09  4.59002448e-01  1.61432534e-07  1.11166223e-07  3.00000000e-01 
 3.10000000e-01  4.59002435e-01  4.59002435e-01  4.59002435e-01  3.70863904e-09  3.37645129e-09  3.51793123e-09  4.59002435e-01  1.61432501e-07  1.11165981e-07  3.10000000e-01 
 3.20000000e-01  4.59002424e-01  4.59002424e-01  4.59002424e-01  3.70863904e-09  3.37645135e-09  3.51793128e-09  4.59002424e-01  1.61432495e-07  1.11165861e-07  3.20000000e-01 
 3.30000000e-01  4.59002438e-01  4.59002437e-01  4.59002438e-01  3.70863904e-09  3.37645135e-09  3.51793123e-09  4.59002438e-01  1.61432503e-07  1.11165601e-07  3.30000000e-01 
 3.40000000e-01  4.59002415e-01  4.59002415e-01  4.59002415e-01  3.70863898e-09  3.37645129e-09  3.51793128e-09  4.59002415e-01  1.61432473e-07  1.11165530e-07  3.40000000e-01 
 3.50000000e-01  4.59002426e-01  4.59002426e-01  4.59002426e-01  3.70863904e-09  3.37645129e-09  3.51793128e-09  4.59002426e-01  1.61432491e-07  1.11165534e-07  3.50000000e-01 
 3.60000000e-01  4.59002417e-01  4.59002416e-01  4.59002417e-01  3.70863904e-09  3.37645129e-09  3.51793128e-09  4.59002416e-01  1.61432489e-07  1.11165512e-07  3.60000000e-01 
 3.70000000e-01  4.59002413e-01  4.59002413e-01  4.59002413e-01  3.70863904e-09  3.37645135e-09  3.51793122e-09  4.59002413e-01  1.61432482e-07  1.11165342e-07  3.70000000e-01 
 3.80000000e-01  4.59002420e-01  4.59002420e-01  4.59002420e-01  3.70863899e-09  3.37645129e-09  3.51793122e-09  4.59002420e-01  1.61432478e-07  1.11165139e-07  3.80000000e-01 
 3.90000000e-01  4.59002417e-01  4.59002417e-01  4.59002417e-01  3.70863904e-09  3.37645129e-09  3.51793122e-09  4.59002417e-01  1.61432478e-07  1.11165086e-07  3.90000000e-01 
 4.00000000e-01  4.59002419e-01  4.59002419e-01  4.59002419e-01  3.70863904e-09  3.37645129e-09  3.51793122e-09  4.59002419e-01  1.61432495e-07  1.11164915e-07  4.00000000e-01 
 4.10000000e-01  4.59002438e-01  4.59002438e-01  4.59002438e-01  3.70863899e-09  3.37645135e-09  3.51793128e-09  4.59002438e-01  1.61432517e-07  1.11164930e-07  4.10000000e-01 
 4.20000000e-01  4.59002425e-01  4.59002425e-01  4.59002425e-01  3.70863904e-09  3.37645129e-09  3.51793122e-09  4.59002425e-01  1.61432500e-07  1.11164841e-07  4.20000000e-01 
 4.30000000e-01  4.59002423e-01  4.59002422e-01  4.59002423e-01  3.70863904e-09  3.37645135e-09  3.51793128e-09  4.59002423e-01  1.61432491e-07  1.11164709e-07  4.30000000e-01 
 4.40000000e-01  4.59002435e-01  4.59002435e-01  4.59002435e-01  3.70863904e-09  3.37645129e-09  3.51793123e-09  4.59002435e-01  1.61432509e-07  1.11164649e-07  4.40000000e-01 
 4.50000000e-01  4.59002436e-01  4.59002436e-01  4.59002436e-01  3.70863904e-09  3.37645129e-09  3.51793123e-09  4.59002436e-01  1.61432512e-07  1.11164617e-07  4.50000000e-01 
 4.60000000e-01  4.59002431e-01  4.59002431e-01  4.59002431e-01  3.70863899e-09  3.37645129e-09  3.51793128e-09  4.59002431e-01  1.61432505e-07  1.11164404e-07  4.60000000e-01 
 4.70000000e-01  4.59002423e-01  4.59002423e-01  4.59002423e-01  3.70863904e-09  3.37645129e-09  3.51793128e-09  4.59002423e-01  1.61432489e-07  1.11164365e-07  4.70000000e-01 
 4.80000000e-01  4.59002435e-01  4.59002435e-01  4.59002435e-01  3.70863899e-09  3.37645129e-09  3.51793123e-09  4.59002435e-01  1.61432508e-07  1.11164262e-07  4.80000000e-01 
 4.90000000e-01  4.59002407e-01  4.59002407e-01  4.59002407e-01  3.70863904e-09  3.37645129e-09  3.51793122e-09  4.59002407e-01  1.61432467e-07  1.11164127e-07  4.90000000e-01 
 5.00000000e-01  4.59002442e-01  4.59002442e-01  4.59002442e-01  3.70863904e-09  3.37645135e-09  3.51793128e-09  4.59002442e-01  1.61432509e-07  1.11164251e-07  5.00000000e-01 
 5.10000000e-01  4.59002420e-01  4.59002420e-01  4.59002420e-01  3.70863899e-09  3.37645135e-09  3.51793122e-09  4.59002420e-01  1.61432486e-07  1.11163878e-07  5.10000000e-01 
 5.20000000e-01  4.59002426e-01  4.59002426e-01  4.59002426e-01  3.70863899e-09  3.37645129e-09  3.51793128e-09  4.59002426e-01  1.61432497e-07  1.11163999e-07  5.20000000e-01 
 5.30000000e-01  4.59002424e-01  4.59002424e-01  4.59002424e-01  3.70863899e-09  3.37645129e-09  3.51793122e-09  4.59002424e-01  1.61432496e-07  1.11163832e-07  5.30000000e-01 
 5.40000000e-01  4.59002429e-01  4.59002429e-01  4.59002429e-01  3.70863899e-09  3.37645129e-09  3.51793128e-09  4.59002429e-01  1.61432505e-07  1.11163828e-07  5.40000000e-01 
 5.50000000e-01  4.59002391e-01  4.59002390e-01  4.59002391e-01  3.70863904e-09  3.37645135e-09  3.51793122e-09  4.59002391e-01  1.61432453e-07  1.11163637e-07  5.50000000e-01 
 5.60000000e-01  4.59002434e-01  4.59002434e-01  4.59002434e-01  3.70863904e-09  3.37645129e-09  3.51793123e-09  4.59002434e-01  1.61432515e-07  1.11163676e-07  5.60000000e-01 
 5.70000000e-01  4.59002414e-01  4.59002414e-01  4.59002414e-01  3.70863904e-09  3.37645129e-09  3.51793122e-09  4.59002414e-01  1.61432475e-07  1.11163462e-07  5.70000000e-01 
 5.80000000e-01  4.59002440e-01  4.59002440e-01  4.59002440e-01  3.70863904e-09  3.37645129e-09  3.51793123e-09  4.59002440e-01  1.61432523e-07  1.11163516e-07  5.80000000e-01 
 5.90000000e-01  4.59002455e-01  4.59002455e-01  4.59002455e-01  3.70863904e-09  3.37645135e-09  3.51793123e-09  4.59002455e-01  1.61432539e-07  1.11163544e-07  5.90000000e-01 
 6.00000000e-01  4.59002426e-01  4.59002426e-01  4.59002426e-01  3.70863904e-09  3.37645129e-09  3.51793122e-09  4.59002426e-01  1.61432498e-07  1.11163310e-07  6.00000000e-01 
 6.10000000e-01  4.59002437e-01  4.59002437e-01  4.59002437e-01  3.70863904e-09  3.37645129e-09  3.51793128e-09  4.59002437e-01  1.61432505e-07  1.11163359e-07  6.10000000e-01 
 6.20000000e-01  4.59002436e-01  4.59002436e-01  4.59002436e-01  3.70863899e-09  3.37645129e-09  3.51793123e-09  4.59002436e-01  1.61432514e-07  1.11163182e-07  6.20000000e-01 
 6.30000000e-01  4.59002434e-01  4.59002434e-01  4.59002434e-01  3.70863904e-09  3.37645135e-09  3.51793123e-09  4.59002434e-01  1.61432505e-07  1.11163082e-07  6.30000000e-01 
 6.40000000e-01  4.59002429e-01  4.59002429e-01  4.59002429e-01  3.70863904e-09  3.37645135e-09  3.51793123e-09  4.59002429e-01  1.61432508e-07  1.11162969e-07  6.40000000e-01 
 6.50000000e-01  4.59002427e-01  4.59002427e-01  4.59002427e-01  3.70863899e-09  3.37645129e-09  3.51793122e-09  4.59002427e-01  1.61432507e-07  1.11162947e-07  6.50000000e-01 
 6.60000000e-01  4.59002418e-01  4.59002418e-01  4.59002418e-01  3.70863899e-09  3.37645135e-09  3.51793122e-09  4.59002418e-01  1.61432497e-07  1.11162784e-07  6.60000000e-01 
 6.70000000e-01  4.59002434e-01  4.59002434e-01  4.59002434e-01  3.70863904e-09  3.37645129e-09  3.51793128e-09  4.59002434e-01  1.61432497e-07  1.11162727e-07  6.70000000e-01 
 6.80000000e-01  4.59002421e-01  4.59002421e-01  4.59002421e-01  3.70863899e-09  3.37645129e-09  3.51793122e-09  4.59002421e-01  1.61432487e-07  1.11162720e-07  6.80000000e-01 
 6.90000000e-01  4.59002412e-01  4.59002412e-01  4.59002412e-01  3.70863904e-09  3.37645135e-09  3.51793122e-09  4.59002412e-01  1.61432487e-07  1.11162556e-07  6.90000000e-01 
 7.00000000e-01  4.59002446e-01  4.59002446e-01  4.59002446e-01  3.70863904e-09  3.37645135e-09  3.51793128e-09  4.59002446e-01  1.61432524e-07  1.11162578e-07  7.00000000e-01 
 7.10000000e-01  4.59002418e-01  4.59002418e-01  4.59002418e-01  3.70863899e-09  3.37645135e-09  3.51793122e-09  4.59002418e-01  1.61432478e-07  1.11162443e-07  7.10000000e-01 
 7.20000000e-01  4.59002410e-01  4.59002409e-01  4.59002410e-01  3.70863904e-09  3.37645135e-09  3.51793122e-09  4.59002410e-01  1.61432475e-07  1.11162279e-07  7.20000000e-01 
 7.30000000e-01  4.59002435e-01  4.59002435e-01  4.59002435e-01  3.70863904e-09  3.37645129e-09  3.51793123e-09  4.59002435e-01  1.61432507e-07  1.11162343e-07  7.30000000e-01 
 7.40000000e-01  4.59002426e-01  4.59002426e-01  4.59002426e-01  3.70863904e-09  3.37645129e-09  3.51793122e-09  4.59002426e-01  1.61432500e-07  1.11162123e-07  7.40000000e-01 
 7.50000000e-01  4.59002430e-01  4.59002430e-01  4.59002430e-01  3.70863904e-09  3.37645135e-09  3.51793128e-09  4.59002430e-01  1.61432515e-07  1.11162194e-07  7.50000000e-01 
 7.60000000e-01  4.59002418e-01  4.59002418e-01  4.59002418e-01  3.70863904e-09  3.37645129e-09  3.51793128e-09  4.59002418e-01  1.61432483e-07  1.11162159e-07  7.60000000e-01 
 7.70000000e-01  4.59002415e-01  4.59002415e-01  4.59002415e-01  3.70863904e-09  3.37645129e-09  3.51793128e-09  4.59002415e-01  1.61432467e-07  1.11162016e-07  7.70000000e-01 
 7.80000000e-01  4.59002452e-01  4.59002452e-01  4.59002452e-01  3.70863899e-09  3.37645135e-09  3.51793128e-09  4.59002452e-01  1.61432534e-07  1.11162059e-07  7.80000000e-01 
 7.90000000e-01  4.59002438e-01  4.59002438e-01  4.59002438e-01  3.70863904e-09  3.37645135e-09  3.51793128e-09  4.59002438e-01  1.61432505e-07  1.11161839e-07  7.90000000e-01 
 8.00000000e-01  4.59002422e-01  4.59002422e-01  4.59002422e-01  3.70863904e-09  3.37645129e-09  3.51793128e-09  4.59002422e-01  1.61432513e-07  1.11161661e-07  8.00000000e-01 
 8.10000000e-01  4.59002434e-01  4.59002434e-01  4.59002434e-01  3.70863904e-09  3.37645135e-09  3.51793128e-09  4.59002434e-01  1.61432508e-07  1.11161647e-07  8.10000000e-01 
 8.20000000e-01  4.59002420e-01  4.59002420e-01  4.59002421e-01  3.70863904e-09  3.37645129e-09  3.51793122e-09  4.59002420e-01  1.61432490e-07  1.11161548e-07  8.20000000e-01 
 8.30000000e-01  4.59002431e-01  4.59002431e-01  4.59002431e-01  3.70863904e-09  3.37645135e-09  3.51793123e-09  4.59002431e-01  1.61432504e-07  1.11161548e-07  8.30000000e-01 
 8.40000000e-01  4.59002417e-01  4.59002417e-01  4.59002417e-01  3.70863904e-09  3.37645129e-09  3.51793122e-09  4.59002417e-01  1.61432489e-07  1.11161434e-07  8.40000000e-01 
 8.50000000e-01  4.59002398e-01  4.59002398e-01  4.59002398e-01  3.70863898e-09  3.37645135e-09  3.51793122e-09  4.59002398e-01  1.61432457e-07  1.11161405e-07  8.50000000e-01 
 8.60000000e-01  4.59002402e-01  4.59002402e-01  4.59002402e-01  3.70863904e-09  3.37645135e-09  3.51793128e-09  4.59002402e-01  1.61432472e-07  1.11161114e-07  8.60000000e-01 
 8.70000000e-01  4.59002444e-01  4.59002444e-01  4.59002444e-01  3.70863904e-09  3.37645129e-09  3.51793123e-09  4.59002444e-01  1.61432520e-07  1.11161320e-07  8.70000000e-01 
 8.80000000e-01  4.59002430e-01  4.59002430e-01  4.59002430e-01  3.70863904e-09  3.37645135e-09  3.51793128e-09  4.59002430e-01  1.61432515e-07  1.11161064e-07  8.80000000e-01 
 8.90000000e-01  4.59002423e-01  4.59002423e-01  4.59002423e-01  3.70863899e-09  3.37645129e-09  3.51793122e-09  4.59002423e-01  1.61432497e-07  1.11161022e-07  8.90000000e-01 
 9.00000000e-01  4.59002426e-01  4.59002425e-01  4.59002426e-01  3.70863899e-09  3.37645135e-09  3.51793122e-09  4.59002426e-01  1.61432492e-07  1.11160908e-07  9.00000000e-01 
 9.10000000e-01  4.59002440e-01  4.59002440e-01  4.59002440e-01  3.70863904e-09  3.37645129e-09  3.51793123e-09  4.59002440e-01  1.61432525e-07  1.11160894e-07  9.10000000e-01 
 9.20000000e-01  4.59002426e-01  4.59002426e-01  4.59002426e-01  3.70863899e-09  3.37645129e-09  3.51793122e-09  4.59002426e-01  1.61432508e-07  1.11160801e-07  9.20000000e-01 
 9.30000000e-01  4.59002409e-01  4.59002408e-01  4.59002409e-01  3.70863904e-09  3.37645135e-09  3.51793128e-09  4.59002409e-01  1.61432478e-07  1.11160631e-07  9.30000000e-01 
 9.40000000e-01  4.59002438e-01  4.59002438e-01  4.59002438e-01  3.70863899e-09  3.37645135e-09  3.51793128e-09  4.59002438e-01  1.61432501e-07  1.11160588e-07  9.40000000e-01 
 9.50000000e-01  4.59002459e-01  4.59002459e-01  4.59002459e-01  3.70863899e-09  3.37645135e-09  3.51793123e-09  4.59002459e-01  1.61432554e-07  1.11160489e-07  9.50000000e-01 
 9.60000000e-01  4.59002420e-01  4.59002420e-01  4.59002420e-01  3.70863899e-09  3.37645135e-09  3.51793128e-09  4.59002420e-01  1.61432495e-07  1.11160418e-07  9.60000000e-01 
 9.70000000e-01  4.59002426e-01  4.59002426e-01  4.59002426e-01  3.70863899e-09  3.37645129e-09  3.51793122e-09  4.59002426e-01  1.61432501e-07  1.11160396e-07  9.70000000e-01 
 9.80000000e-01  4.59002451e-01  4.59002450e-01  4.59002451e-01  3.70863904e-09  3.37645129e-09  3.51793128e-09  4.59002451e-01  1.61432546e-07  1.11160297e-07  9.80000000e-01 
 9.90000000e-01  4.59002435e-01  4.59002435e-01  4.59002435e-01  3.70863899e-09  3.37645129e-09  3.51793128e-09  4.59002435e-01  1.61432510e-07  1.11160155e-07  9.90000000e-01 
 1.00000000e+00  4.59002422e-01  4.59002422e-01  4.59002422e-01  3.70863899e-09  3.37645129e-09  3.51793128e-09  4.59002422e-01  1.61432497e-07  1.11160027e-07  1.00000000e+00 
 1.01000000e+00  4.59002444e-01  4.59002444e-01  4.59002444e-01  3.70863899e-09  3.37645135e-09  3.51793123e-09  4.59002444e-01  1.61432537e-07  1.11160041e-07  1.01000000e+00 
 1.02000000e+00  4.59002440e-01  4.59002440e-01  4.59002440e-01  3.70863904e-09  3.37645135e-09  3.51793123e-09  4.59002440e-01  1.61432520e-07  1.11159949e-07  1.02000000e+00 
 1.03000000e+00  4.59002417e-01  4.59002417e-01  4.59002417e-01  3.70863904e-09  3.37645135e-09  3.51793122e-09  4.59002417e-01  1.61432487e-07  1.11159729e-07  1.03000000e+00 
 1.04000000e+00  4.59002448e-01  4.59002448e-01  4.59002448e-01  3.70863899e-09  3.37645129e-09  3.51793123e-09  4.59002448e-01  1.61432535e-07  1.11159707e-07  1.04000000e+00 
 1.05000000e+00  4.59002428e-01  4.59002427e-01  4.59002428e-01  3.70863904e-09  3.37645129e-09  3.51793123e-09  4.59002428e-01  1.61432499e-07  1.11159657e-07  1.05000000e+00 
 1.06000000e+00  4.59002417e-01  4.59002417e-01  4.59002417e-01  3.70863904e-09  3.37645135e-09  3.51793122e-09  4.59002417e-01  1.61432470e-07  1.11159430e-07  1.06000000e+00 
 1.07000000e+00  4.59002426e-01  4.59002426e-01  4.59002426e-01  3.70863904e-09  3.37645129e-09  3.51793122e-09  4.59002426e-01  1.61432501e-07  1.11159395e-07  1.07000000e+00 
 1.08000000e+00  4.59002426e-01  4.59002425e-01  4.59002426e-01  3.70863899e-09  3.37645129e-09  3.51793122e-09  4.59002426e-01  1.61432491e-07  1.11159260e-07  1.08000000e+00 
 1.09000000e+00  4.59002423e-01  4.59002423e-01  4.59002423e-01  3.70863904e-09  3.37645135e-09  3.51793128e-09  4.59002423e-01  1.61432491e-07  1.11159274e-07  1.09000000e+00 
 1.10000000e+00  4.59002440e-01  4.59002440e-01  4.59002440e-01  3.70863904e-09  3.37645135e-09  3.51793123e-09  4.59002440e-01  1.61432523e-07  1.11159260e-07  1.10000000e+00 
