 v-sweep         v(b0)           v(b1)           v(b2)           v(b3)           v(b4)           v(b5)           v(b6)           i(vbias)        i(viout)        v(vout)        
 0.00000000e+00  4.58577110e-01  3.45339256e-09  3.34472967e-09  4.58577110e-01  4.58577111e-01  3.45673943e-09  3.23052784e-09  1.61273553e-07  3.83371624e-08  0.00000000e+00 
 1.00000000e-02  4.58577090e-01  3.45339254e-09  3.34472959e-09  4.58577090e-01  4.58577090e-01  3.45673947e-09  3.23052782e-09  1.61273548e-07  3.83366233e-08  1.00000000e-02 
 2.00000000e-02  4.58577124e-01  3.45339254e-09  3.34472965e-09  4.58577124e-01  4.58577124e-01  3.45673947e-09  3.23052783e-09  1.61273602e-07  3.83362202e-08  2.00000000e-02 
 3.00000000e-02  4.58577104e-01  3.45339254e-09  3.34472959e-09  4.58577104e-01  4.58577104e-01  3.45673941e-09  3.23052783e-09  1.61273547e-07  3.83360572e-08  3.00000000e-02 
 4.00000000e-02  4.58577102e-01  3.45339254e-09  3.34472965e-09  4.58577102e-01  4.58577102e-01  3.45673943e-09  3.23052783e-09  1.61273561e-07  3.83356404e-08  4.00000000e-02 
 5.00000000e-02  4.58577114e-01  3.45339260e-09  3.34472965e-09  4.58577114e-01  4.58577114e-01  3.45673948e-09  3.23052783e-09  1.61273575e-07  3.83352625e-08  5.00000000e-02 
 6.00000000e-02  4.58577100e-01  3.45339254e-09  3.34472959e-09  4.58577100e-01  4.58577100e-01  3.45673941e-09  3.23052783e-09  1.61273546e-07  3.83350014e-08  6.00000000e-02 
 7.00000000e-02  4.58577115e-01  3.45339254e-09  3.34472965e-09  4.58577115e-01  4.58577115e-01  3.45673943e-09  3.23052783e-09  1.61273559e-07  3.83346754e-08  7.00000000e-02 
 8.00000000e-02  4.58577093e-01  3.45339254e-09  3.34472965e-09  4.58577093e-01  4.58577093e-01  3.45673942e-09  3.23052783e-09  1.61273548e-07  3.83342558e-08  8.00000000e-02 
 9.00000000e-02  4.58577076e-01  3.45339253e-09  3.34472959e-09  4.58577076e-01  4.58577076e-01  3.45673942e-09  3.23052782e-09  1.61273514e-07  3.83340479e-08  9.00000000e-02 
 1.00000000e-01  4.58577093e-01  3.45339254e-09  3.34472965e-09  4.58577093e-01  4.58577093e-01  3.45673948e-09  3.23052783e-09  1.61273552e-07  3.83337513e-08  1.00000000e-01 
 1.10000000e-01  4.58577121e-01  3.45339254e-09  3.34472959e-09  4.58577121e-01  4.58577121e-01  3.45673941e-09  3.23052783e-09  1.61273586e-07  3.83336287e-08  1.10000000e-01 
 1.20000000e-01  4.58577114e-01  3.45339254e-09  3.34472965e-09  4.58577114e-01  4.58577114e-01  3.45673943e-09  3.23052783e-09  1.61273557e-07  3.83333818e-08  1.20000000e-01 
 1.30000000e-01  4.58577082e-01  3.45339253e-09  3.34472959e-09  4.58577082e-01  4.58577082e-01  3.45673942e-09  3.23052782e-09  1.61273532e-07  3.83330425e-08  1.30000000e-01 
 1.40000000e-01  4.58577104e-01  3.45339259e-09  3.34472965e-09  4.58577104e-01  4.58577104e-01  3.45673942e-09  3.23052783e-09  1.61273568e-07  3.83329661e-08  1.40000000e-01 
 1.50000000e-01  4.58577111e-01  3.45339254e-09  3.34472965e-09  4.58577111e-01  4.58577111e-01  3.45673948e-09  3.23052783e-09  1.61273569e-07  3.83327361e-08  1.50000000e-01 
 1.60000000e-01  4.58577116e-01  3.45339254e-09  3.34472965e-09  4.58577116e-01  4.58577116e-01  3.45673947e-09  3.23052783e-09  1.61273570e-07  3.83325069e-08  1.60000000e-01 
 1.70000000e-01  4.58577115e-01  3.45339254e-09  3.34472965e-09  4.58577115e-01  4.58577115e-01  3.45673941e-09  3.23052783e-09  1.61273568e-07  3.83322210e-08  1.70000000e-01 
 1.80000000e-01  4.58577111e-01  3.45339254e-09  3.34472965e-09  4.58577111e-01  4.58577111e-01  3.45673943e-09  3.23052783e-09  1.61273562e-07  3.83321215e-08  1.80000000e-01 
 1.90000000e-01  4.58577094e-01  3.45339254e-09  3.34472965e-09  4.58577094e-01  4.58577094e-01  3.45673948e-09  3.23052783e-09  1.61273553e-07  3.83319403e-08  1.90000000e-01 
 2.00000000e-01  4.58577121e-01  3.45339254e-09  3.34472965e-09  4.58577121e-01  4.58577121e-01  3.45673947e-09  3.23052783e-09  1.61273585e-07  3.83318284e-08  2.00000000e-01 
 2.10000000e-01  4.58577103e-01  3.45339254e-09  3.34472965e-09  4.58577103e-01  4.58577103e-01  3.45673941e-09  3.23052783e-09  1.61273539e-07  3.83316898e-08  2.10000000e-01 
 2.20000000e-01  4.58577097e-01  3.45339254e-09  3.34472965e-09  4.58577097e-01  4.58577097e-01  3.45673948e-09  3.23052783e-09  1.61273539e-07  3.83315850e-08  2.20000000e-01 
 2.30000000e-01  4.58577100e-01  3.45339254e-09  3.34472965e-09  4.58577100e-01  4.58577100e-01  3.45673946e-09  3.23052783e-09  1.61273560e-07  3.83312884e-08  2.30000000e-01 
 2.40000000e-01  4.58577115e-01  3.45339254e-09  3.34472959e-09  4.58577115e-01  4.58577115e-01  3.45673947e-09  3.23052783e-09  1.61273575e-07  3.83312333e-08  2.40000000e-01 
 2.50000000e-01  4.58577116e-01  3.45339254e-09  3.34472965e-09  4.58577115e-01  4.58577116e-01  3.45673941e-09  3.23052783e-09  1.61273561e-07  3.83312297e-08  2.50000000e-01 
 2.60000000e-01  4.58577096e-01  3.45339254e-09  3.34472965e-09  4.58577096e-01  4.58577096e-01  3.45673942e-09  3.23052783e-09  1.61273560e-07  3.83309882e-08  2.60000000e-01 
 2.70000000e-01  4.58577130e-01  3.45339254e-09  3.34472959e-09  4.58577130e-01  4.58577130e-01  3.45673942e-09  3.23052783e-09  1.61273602e-07  3.83309011e-08  2.70000000e-01 
 2.80000000e-01  4.58577115e-01  3.45339254e-09  3.34472959e-09  4.58577115e-01  4.58577115e-01  3.45673942e-09  3.23052783e-09  1.61273565e-07  3.83306951e-08  2.80000000e-01 
 2.90000000e-01  4.58577108e-01  3.45339254e-09  3.34472965e-09  4.58577108e-01  4.58577108e-01  3.45673942e-09  3.23052783e-09  1.61273567e-07  3.83306222e-08  2.90000000e-01 
 3.00000000e-01  4.58577120e-01  3.45339254e-09  3.34472965e-09  4.58577120e-01  4.58577120e-01  3.45673942e-09  3.23052783e-09  1.61273582e-07  3.83305654e-08  3.00000000e-01 
 3.10000000e-01  4.58577107e-01  3.45339259e-09  3.34472959e-09  4.58577107e-01  4.58577107e-01  3.45673948e-09  3.23052783e-09  1.61273564e-07  3.83305476e-08  3.10000000e-01 
 3.20000000e-01  4.58577101e-01  3.45339259e-09  3.34472965e-09  4.58577101e-01  4.58577101e-01  3.45673941e-09  3.23052783e-09  1.61273553e-07  3.83303806e-08  3.20000000e-01 
 3.30000000e-01  4.58577114e-01  3.45339260e-09  3.34472965e-09  4.58577114e-01  4.58577114e-01  3.45673948e-09  3.23052783e-09  1.61273579e-07  3.83302954e-08  3.30000000e-01 
 3.40000000e-01  4.58577092e-01  3.45339254e-09  3.34472965e-09  4.58577092e-01  4.58577092e-01  3.45673946e-09  3.23052783e-09  1.61273520e-07  3.83301391e-08  3.40000000e-01 
 3.50000000e-01  4.58577134e-01  3.45339254e-09  3.34472965e-09  4.58577134e-01  4.58577134e-01  3.45673947e-09  3.23052783e-09  1.61273606e-07  3.83300645e-08  3.50000000e-01 
 3.60000000e-01  4.58577094e-01  3.45339254e-09  3.34472959e-09  4.58577094e-01  4.58577094e-01  3.45673941e-09  3.23052783e-09  1.61273533e-07  3.83299437e-08  3.60000000e-01 
 3.70000000e-01  4.58577112e-01  3.45339254e-09  3.34472959e-09  4.58577112e-01  4.58577112e-01  3.45673943e-09  3.23052783e-09  1.61273568e-07  3.83299366e-08  3.70000000e-01 
 3.80000000e-01  4.58577107e-01  3.45339254e-09  3.34472965e-09  4.58577107e-01  4.58577107e-01  3.45673942e-09  3.23052783e-09  1.61273569e-07  3.83297447e-08  3.80000000e-01 
 3.90000000e-01  4.58577116e-01  3.45339254e-09  3.34472965e-09  4.58577116e-01  4.58577116e-01  3.45673942e-09  3.23052783e-09  1.61273580e-07  3.83297838e-08  3.90000000e-01 
 4.00000000e-01  4.58577119e-01  3.45339254e-09  3.34472965e-09  4.58577119e-01  4.58577119e-01  3.45673948e-09  3.23052783e-09  1.61273574e-07  3.83297696e-08  4.00000000e-01 
 4.10000000e-01  4.58577098e-01  3.45339254e-09  3.34472965e-09  4.58577098e-01  4.58577098e-01  3.45673941e-09  3.23052783e-09  1.61273547e-07  3.83296808e-08  4.10000000e-01 
 4.20000000e-01  4.58577112e-01  3.45339254e-09  3.34472965e-09  4.58577111e-01  4.58577112e-01  3.45673943e-09  3.23052783e-09  1.61273570e-07  3.83294640e-08  4.20000000e-01 
 4.30000000e-01  4.58577116e-01  3.45339254e-09  3.34472965e-09  4.58577116e-01  4.58577116e-01  3.45673948e-09  3.23052783e-09  1.61273574e-07  3.83294712e-08  4.30000000e-01 
 4.40000000e-01  4.58577115e-01  3.45339254e-09  3.34472959e-09  4.58577115e-01  4.58577115e-01  3.45673941e-09  3.23052783e-09  1.61273563e-07  3.83294640e-08  4.40000000e-01 
 4.50000000e-01  4.58577123e-01  3.45339254e-09  3.34472965e-09  4.58577123e-01  4.58577123e-01  3.45673943e-09  3.23052783e-09  1.61273580e-07  3.83293930e-08  4.50000000e-01 
 4.60000000e-01  4.58577104e-01  3.45339254e-09  3.34472959e-09  4.58577104e-01  4.58577104e-01  3.45673942e-09  3.23052783e-09  1.61273563e-07  3.83292331e-08  4.60000000e-01 
 4.70000000e-01  4.58577132e-01  3.45339254e-09  3.34472965e-09  4.58577132e-01  4.58577132e-01  3.45673948e-09  3.23052783e-09  1.61273596e-07  3.83292083e-08  4.70000000e-01 
 4.80000000e-01  4.58577119e-01  3.45339254e-09  3.34472959e-09  4.58577119e-01  4.58577119e-01  3.45673947e-09  3.23052783e-09  1.61273580e-07  3.83291656e-08  4.80000000e-01 
 4.90000000e-01  4.58577103e-01  3.45339254e-09  3.34472965e-09  4.58577103e-01  4.58577103e-01  3.45673941e-09  3.23052783e-09  1.61273538e-07  3.83290555e-08  4.90000000e-01 
 5.00000000e-01  4.58577126e-01  3.45339254e-09  3.34472965e-09  4.58577126e-01  4.58577126e-01  3.45673943e-09  3.23052783e-09  1.61273605e-07  3.83289702e-08  5.00000000e-01 
 5.10000000e-01  4.58577111e-01  3.45339254e-09  3.34472965e-09  4.58577111e-01  4.58577111e-01  3.45673942e-09  3.23052783e-09  1.61273564e-07  3.83289347e-08  5.10000000e-01 
 5.20000000e-01  4.58577114e-01  3.45339254e-09  3.34472965e-09  4.58577114e-01  4.58577114e-01  3.45673948e-09  3.23052783e-09  1.61273574e-07  3.83289454e-08  5.20000000e-01 
 5.30000000e-01  4.58577111e-01  3.45339254e-09  3.34472959e-09  4.58577111e-01  4.58577111e-01  3.45673946e-09  3.23052783e-09  1.61273557e-07  3.83287500e-08  5.30000000e-01 
 5.40000000e-01  4.58577130e-01  3.45339254e-09  3.34472965e-09  4.58577130e-01  4.58577130e-01  3.45673947e-09  3.23052783e-09  1.61273604e-07  3.83288743e-08  5.40000000e-01 
 5.50000000e-01  4.58577115e-01  3.45339254e-09  3.34472965e-09  4.58577115e-01  4.58577115e-01  3.45673947e-09  3.23052783e-09  1.61273565e-07  3.83287677e-08  5.50000000e-01 
 5.60000000e-01  4.58577108e-01  3.45339259e-09  3.34472965e-09  4.58577108e-01  4.58577108e-01  3.45673947e-09  3.23052783e-09  1.61273569e-07  3.83285723e-08  5.60000000e-01 
 5.70000000e-01  4.58577117e-01  3.45339254e-09  3.34472959e-09  4.58577117e-01  4.58577117e-01  3.45673947e-09  3.23052777e-09  1.61273570e-07  3.83285546e-08  5.70000000e-01 
 5.80000000e-01  4.58577107e-01  3.45339259e-09  3.34472965e-09  4.58577107e-01  4.58577107e-01  3.45673947e-09  3.23052783e-09  1.61273575e-07  3.83285936e-08  5.80000000e-01 
 5.90000000e-01  4.58577122e-01  3.45339260e-09  3.34472965e-09  4.58577121e-01  4.58577122e-01  3.45673941e-09  3.23052783e-09  1.61273586e-07  3.83284871e-08  5.90000000e-01 
 6.00000000e-01  4.58577130e-01  3.45339254e-09  3.34472959e-09  4.58577130e-01  4.58577130e-01  3.45673948e-09  3.23052783e-09  1.61273603e-07  3.83284444e-08  6.00000000e-01 
 6.10000000e-01  4.58577131e-01  3.45339254e-09  3.34472959e-09  4.58577131e-01  4.58577131e-01  3.45673941e-09  3.23052783e-09  1.61273592e-07  3.83283734e-08  6.10000000e-01 
 6.20000000e-01  4.58577108e-01  3.45339254e-09  3.34472965e-09  4.58577108e-01  4.58577108e-01  3.45673943e-09  3.23052783e-09  1.61273572e-07  3.83283165e-08  6.20000000e-01 
 6.30000000e-01  4.58577104e-01  3.45339254e-09  3.34472965e-09  4.58577104e-01  4.58577104e-01  3.45673948e-09  3.23052783e-09  1.61273562e-07  3.83282881e-08  6.30000000e-01 
 6.40000000e-01  4.58577126e-01  3.45339254e-09  3.34472965e-09  4.58577126e-01  4.58577126e-01  3.45673947e-09  3.23052783e-09  1.61273595e-07  3.83281602e-08  6.40000000e-01 
 6.50000000e-01  4.58577123e-01  3.45339254e-09  3.34472959e-09  4.58577123e-01  4.58577123e-01  3.45673941e-09  3.23052783e-09  1.61273577e-07  3.83281886e-08  6.50000000e-01 
 6.60000000e-01  4.58577111e-01  3.45339260e-09  3.34472959e-09  4.58577111e-01  4.58577111e-01  3.45673943e-09  3.23052783e-09  1.61273581e-07  3.83281176e-08  6.60000000e-01 
 6.70000000e-01  4.58577105e-01  3.45339254e-09  3.34472965e-09  4.58577105e-01  4.58577105e-01  3.45673942e-09  3.23052783e-09  1.61273555e-07  3.83279684e-08  6.70000000e-01 
 6.80000000e-01  4.58577123e-01  3.45339254e-09  3.34472965e-09  4.58577123e-01  4.58577123e-01  3.45673942e-09  3.23052783e-09  1.61273589e-07  3.83279541e-08  6.80000000e-01 
 6.90000000e-01  4.58577118e-01  3.45339254e-09  3.34472965e-09  4.58577118e-01  4.58577118e-01  3.45673942e-09  3.23052783e-09  1.61273583e-07  3.83279328e-08  6.90000000e-01 
 7.00000000e-01  4.58577092e-01  3.45339254e-09  3.34472965e-09  4.58577092e-01  4.58577092e-01  3.45673942e-09  3.23052783e-09  1.61273533e-07  3.83277694e-08  7.00000000e-01 
 7.10000000e-01  4.58577110e-01  3.45339254e-09  3.34472965e-09  4.58577110e-01  4.58577110e-01  3.45673948e-09  3.23052783e-09  1.61273563e-07  3.83278405e-08  7.10000000e-01 
 7.20000000e-01  4.58577115e-01  3.45339254e-09  3.34472965e-09  4.58577115e-01  4.58577115e-01  3.45673947e-09  3.23052783e-09  1.61273572e-07  3.83277410e-08  7.20000000e-01 
 7.30000000e-01  4.58577106e-01  3.45339254e-09  3.34472965e-09  4.58577106e-01  4.58577106e-01  3.45673947e-09  3.23052783e-09  1.61273547e-07  3.83278049e-08  7.30000000e-01 
 7.40000000e-01  4.58577121e-01  3.45339254e-09  3.34472959e-09  4.58577121e-01  4.58577121e-01  3.45673947e-09  3.23052783e-09  1.61273574e-07  3.83276415e-08  7.40000000e-01 
 7.50000000e-01  4.58577125e-01  3.45339254e-09  3.34472965e-09  4.58577125e-01  4.58577125e-01  3.45673942e-09  3.23052783e-09  1.61273599e-07  3.83275776e-08  7.50000000e-01 
 7.60000000e-01  4.58577109e-01  3.45339254e-09  3.34472959e-09  4.58577109e-01  4.58577109e-01  3.45673943e-09  3.23052783e-09  1.61273552e-07  3.83275349e-08  7.60000000e-01 
 7.70000000e-01  4.58577108e-01  3.45339259e-09  3.34472965e-09  4.58577108e-01  4.58577108e-01  3.45673942e-09  3.23052783e-09  1.61273562e-07  3.83275065e-08  7.70000000e-01 
 7.80000000e-01  4.58577118e-01  3.45339254e-09  3.34472965e-09  4.58577118e-01  4.58577118e-01  3.45673942e-09  3.23052783e-09  1.61273571e-07  3.83274354e-08  7.80000000e-01 
 7.90000000e-01  4.58577116e-01  3.45339260e-09  3.34472965e-09  4.58577115e-01  4.58577116e-01  3.45673948e-09  3.23052783e-09  1.61273576e-07  3.83274497e-08  7.90000000e-01 
 8.00000000e-01  4.58577112e-01  3.45339254e-09  3.34472965e-09  4.58577112e-01  4.58577112e-01  3.45673946e-09  3.23052783e-09  1.61273561e-07  3.83272365e-08  8.00000000e-01 
 8.10000000e-01  4.58577100e-01  3.45339254e-09  3.34472959e-09  4.58577100e-01  4.58577100e-01  3.45673941e-09  3.23052783e-09  1.61273548e-07  3.83271939e-08  8.10000000e-01 
 8.20000000e-01  4.58577112e-01  3.45339254e-09  3.34472965e-09  4.58577112e-01  4.58577112e-01  3.45673943e-09  3.23052783e-09  1.61273563e-07  3.83272010e-08  8.20000000e-01 
 8.30000000e-01  4.58577116e-01  3.45339254e-09  3.34472965e-09  4.58577116e-01  4.58577116e-01  3.45673942e-09  3.23052783e-09  1.61273566e-07  3.83272081e-08  8.30000000e-01 
 8.40000000e-01  4.58577112e-01  3.45339254e-09  3.34472959e-09  4.58577112e-01  4.58577112e-01  3.45673948e-09  3.23052783e-09  1.61273559e-07  3.83270873e-08  8.40000000e-01 
 8.50000000e-01  4.58577110e-01  3.45339254e-09  3.34472959e-09  4.58577110e-01  4.58577110e-01  3.45673946e-09  3.23052783e-09  1.61273570e-07  3.83269878e-08  8.50000000e-01 
 8.60000000e-01  4.58577093e-01  3.45339259e-09  3.34472965e-09  4.58577093e-01  4.58577093e-01  3.45673947e-09  3.23052783e-09  1.61273545e-07  3.83269239e-08  8.60000000e-01 
 8.70000000e-01  4.58577113e-01  3.45339254e-09  3.34472965e-09  4.58577113e-01  4.58577113e-01  3.45673947e-09  3.23052783e-09  1.61273583e-07  3.83269025e-08  8.70000000e-01 
 8.80000000e-01  4.58577103e-01  3.45339254e-09  3.34472965e-09  4.58577103e-01  4.58577103e-01  3.45673941e-09  3.23052783e-09  1.61273561e-07  3.83267889e-08  8.80000000e-01 
 8.90000000e-01  4.58577099e-01  3.45339254e-09  3.34472965e-09  4.58577099e-01  4.58577099e-01  3.45673942e-09  3.23052783e-09  1.61273559e-07  3.83268528e-08  8.90000000e-01 
 9.00000000e-01  4.58577131e-01  3.45339254e-09  3.34472965e-09  4.58577131e-01  4.58577131e-01  3.45673948e-09  3.23052783e-09  1.61273605e-07  3.83267675e-08  9.00000000e-01 
 9.10000000e-01  4.58577098e-01  3.45339254e-09  3.34472965e-09  4.58577098e-01  4.58577098e-01  3.45673941e-09  3.23052783e-09  1.61273544e-07  3.83266254e-08  9.10000000e-01 
 9.20000000e-01  4.58577124e-01  3.45339254e-09  3.34472965e-09  4.58577124e-01  4.58577124e-01  3.45673943e-09  3.23052783e-09  1.61273596e-07  3.83265615e-08  9.20000000e-01 
 9.30000000e-01  4.58577097e-01  3.45339254e-09  3.34472965e-09  4.58577097e-01  4.58577097e-01  3.45673948e-09  3.23052783e-09  1.61273549e-07  3.83266325e-08  9.30000000e-01 
 9.40000000e-01  4.58577093e-01  3.45339254e-09  3.34472959e-09  4.58577093e-01  4.58577093e-01  3.45673941e-09  3.23052783e-09  1.61273542e-07  3.83264265e-08  9.40000000e-01 
 9.50000000e-01  4.58577117e-01  3.45339260e-09  3.34472965e-09  4.58577117e-01  4.58577117e-01  3.45673948e-09  3.23052783e-09  1.61273578e-07  3.83263909e-08  9.50000000e-01 
 9.60000000e-01  4.58577115e-01  3.45339254e-09  3.34472965e-09  4.58577115e-01  4.58577115e-01  3.45673947e-09  3.23052783e-09  1.61273571e-07  3.83263199e-08  9.60000000e-01 
 9.70000000e-01  4.58577113e-01  3.45339254e-09  3.34472959e-09  4.58577113e-01  4.58577113e-01  3.45673941e-09  3.23052783e-09  1.61273566e-07  3.83264762e-08  9.70000000e-01 
 9.80000000e-01  4.58577107e-01  3.45339254e-09  3.34472965e-09  4.58577106e-01  4.58577107e-01  3.45673943e-09  3.23052783e-09  1.61273564e-07  3.83263199e-08  9.80000000e-01 
 9.90000000e-01  4.58577125e-01  3.45339254e-09  3.34472959e-09  4.58577125e-01  4.58577125e-01  3.45673948e-09  3.23052783e-09  1.61273588e-07  3.83262204e-08  9.90000000e-01 
 1.00000000e+00  4.58577116e-01  3.45339254e-09  3.34472965e-09  4.58577116e-01  4.58577116e-01  3.45673947e-09  3.23052783e-09  1.61273570e-07  3.83260641e-08  1.00000000e+00 
 1.01000000e+00  4.58577123e-01  3.45339254e-09  3.34472965e-09  4.58577123e-01  4.58577123e-01  3.45673941e-09  3.23052783e-09  1.61273599e-07  3.83262062e-08  1.01000000e+00 
 1.02000000e+00  4.58577132e-01  3.45339254e-09  3.34472965e-09  4.58577131e-01  4.58577132e-01  3.45673943e-09  3.23052783e-09  1.61273583e-07  3.83261352e-08  1.02000000e+00 
 1.03000000e+00  4.58577120e-01  3.45339254e-09  3.34472965e-09  4.58577120e-01  4.58577120e-01  3.45673948e-09  3.23052783e-09  1.61273580e-07  3.83260357e-08  1.03000000e+00 
 1.04000000e+00  4.58577116e-01  3.45339254e-09  3.34472965e-09  4.58577116e-01  4.58577116e-01  3.45673947e-09  3.23052783e-09  1.61273571e-07  3.83259646e-08  1.04000000e+00 
 1.05000000e+00  4.58577132e-01  3.45339254e-09  3.34472965e-09  4.58577132e-01  4.58577132e-01  3.45673942e-09  3.23052783e-09  1.61273606e-07  3.83257799e-08  1.05000000e+00 
 1.06000000e+00  4.58577112e-01  3.45339260e-09  3.34472965e-09  4.58577112e-01  4.58577112e-01  3.45673948e-09  3.23052783e-09  1.61273567e-07  3.83258225e-08  1.06000000e+00 
 1.07000000e+00  4.58577116e-01  3.45339254e-09  3.34472959e-09  4.58577116e-01  4.58577116e-01  3.45673947e-09  3.23052783e-09  1.61273562e-07  3.83256875e-08  1.07000000e+00 
 1.08000000e+00  4.58577110e-01  3.45339254e-09  3.34472965e-09  4.58577110e-01  4.58577110e-01  3.45673941e-09  3.23052783e-09  1.61273567e-07  3.83255525e-08  1.08000000e+00 
 1.09000000e+00  4.58577104e-01  3.45339254e-09  3.34472965e-09  4.58577104e-01  4.58577104e-01  3.45673943e-09  3.23052783e-09  1.61273557e-07  3.83256165e-08  1.09000000e+00 
 1.10000000e+00  4.58577123e-01  3.45339254e-09  3.34472965e-09  4.58577123e-01  4.58577123e-01  3.45673948e-09  3.23052783e-09  1.61273586e-07  3.83256378e-08  1.10000000e+00 
