 v-sweep         v(b0)           v(b1)           v(b2)           v(b3)           v(b4)           v(b5)           v(b6)           i(vbias)        i(viout)        v(vout)        
 0.00000000e+00  3.24666847e-09  4.57839939e-01  3.23566996e-09  4.57839939e-01  4.57839939e-01  3.38154127e-09  3.37621465e-09  1.58547146e-07  3.91900377e-08  0.00000000e+00 
 1.00000000e-02  3.24666851e-09  4.57839946e-01  3.23566993e-09  4.57839946e-01  4.57839946e-01  3.38154131e-09  3.37621470e-09  1.58547157e-07  3.91896621e-08  1.00000000e-02 
 2.00000000e-02  3.24666851e-09  4.57839957e-01  3.23566995e-09  4.57839957e-01  4.57839957e-01  3.38154131e-09  3.37621470e-09  1.58547176e-07  3.91894686e-08  2.00000000e-02 
 3.00000000e-02  3.24666851e-09  4.57839954e-01  3.23566993e-09  4.57839954e-01  4.57839954e-01  3.38154131e-09  3.37621470e-09  1.58547172e-07  3.91890058e-08  3.00000000e-02 
 4.00000000e-02  3.24666851e-09  4.57839948e-01  3.23566995e-09  4.57839948e-01  4.57839948e-01  3.38154131e-09  3.37621470e-09  1.58547165e-07  3.91887451e-08  4.00000000e-02 
 5.00000000e-02  3.24666851e-09  4.57839967e-01  3.23566993e-09  4.57839967e-01  4.57839967e-01  3.38154131e-09  3.37621470e-09  1.58547181e-07  3.91882451e-08  5.00000000e-02 
 6.00000000e-02  3.24666851e-09  4.57839934e-01  3.23566995e-09  4.57839934e-01  4.57839934e-01  3.38154131e-09  3.37621470e-09  1.58547154e-07  3.91879742e-08  6.00000000e-02 
 7.00000000e-02  3.24666851e-09  4.57839961e-01  3.23566993e-09  4.57839961e-01  4.57839961e-01  3.38154131e-09  3.37621464e-09  1.58547173e-07  3.91877903e-08  7.00000000e-02 
 8.00000000e-02  3.24666851e-09  4.57839974e-01  3.23566995e-09  4.57839974e-01  4.57839974e-01  3.38154131e-09  3.37621470e-09  1.58547206e-07  3.91875057e-08  8.00000000e-02 
 9.00000000e-02  3.24666851e-09  4.57839970e-01  3.23566993e-09  4.57839970e-01  4.57839970e-01  3.38154131e-09  3.37621470e-09  1.58547186e-07  3.91871620e-08  9.00000000e-02 
 1.00000000e-01  3.24666851e-09  4.57839947e-01  3.23566995e-09  4.57839947e-01  4.57839947e-01  3.38154131e-09  3.37621470e-09  1.58547153e-07  3.91869115e-08  1.00000000e-01 
 1.10000000e-01  3.24666851e-09  4.57839953e-01  3.23566993e-09  4.57839953e-01  4.57839953e-01  3.38154131e-09  3.37621464e-09  1.58547168e-07  3.91867063e-08  1.10000000e-01 
 1.20000000e-01  3.24666851e-09  4.57839956e-01  3.23566995e-09  4.57839956e-01  4.57839956e-01  3.38154131e-09  3.37621464e-09  1.58547174e-07  3.91864088e-08  1.20000000e-01 
 1.30000000e-01  3.24666851e-09  4.57839959e-01  3.23566993e-09  4.57839959e-01  4.57839959e-01  3.38154131e-09  3.37621464e-09  1.58547172e-07  3.91862027e-08  1.30000000e-01 
 1.40000000e-01  3.24666851e-09  4.57839963e-01  3.23566995e-09  4.57839963e-01  4.57839963e-01  3.38154131e-09  3.37621470e-09  1.58547185e-07  3.91860393e-08  1.40000000e-01 
 1.50000000e-01  3.24666851e-09  4.57839960e-01  3.23566993e-09  4.57839960e-01  4.57839960e-01  3.38154131e-09  3.37621470e-09  1.58547182e-07  3.91858048e-08  1.50000000e-01 
 1.60000000e-01  3.24666851e-09  4.57839954e-01  3.23566995e-09  4.57839954e-01  4.57839954e-01  3.38154131e-09  3.37621470e-09  1.58547170e-07  3.91856609e-08  1.60000000e-01 
 1.70000000e-01  3.24666851e-09  4.57839945e-01  3.23566993e-09  4.57839945e-01  4.57839945e-01  3.38154131e-09  3.37621470e-09  1.58547144e-07  3.91854087e-08  1.70000000e-01 
 1.80000000e-01  3.24666851e-09  4.57839933e-01  3.23566995e-09  4.57839933e-01  4.57839933e-01  3.38154131e-09  3.37621464e-09  1.58547132e-07  3.91852861e-08  1.80000000e-01 
 1.90000000e-01  3.24666851e-09  4.57839973e-01  3.23566993e-09  4.57839973e-01  4.57839973e-01  3.38154131e-09  3.37621470e-09  1.58547187e-07  3.91850445e-08  1.90000000e-01 
 2.00000000e-01  3.24666851e-09  4.57839965e-01  3.23566995e-09  4.57839965e-01  4.57839965e-01  3.38154131e-09  3.37621470e-09  1.58547184e-07  3.91849042e-08  2.00000000e-01 
 2.10000000e-01  3.24666851e-09  4.57839953e-01  3.23566993e-09  4.57839953e-01  4.57839953e-01  3.38154131e-09  3.37621470e-09  1.58547174e-07  3.91846697e-08  2.10000000e-01 
 2.20000000e-01  3.24666857e-09  4.57839938e-01  3.23566995e-09  4.57839938e-01  4.57839938e-01  3.38154131e-09  3.37621464e-09  1.58547146e-07  3.91846200e-08  2.20000000e-01 
 2.30000000e-01  3.24666851e-09  4.57839949e-01  3.23566998e-09  4.57839949e-01  4.57839949e-01  3.38154131e-09  3.37621470e-09  1.58547172e-07  3.91844921e-08  2.30000000e-01 
 2.40000000e-01  3.24666851e-09  4.57839976e-01  3.23566993e-09  4.57839976e-01  4.57839976e-01  3.38154131e-09  3.37621470e-09  1.58547192e-07  3.91844779e-08  2.40000000e-01 
 2.50000000e-01  3.24666851e-09  4.57839971e-01  3.23566995e-09  4.57839971e-01  4.57839971e-01  3.38154131e-09  3.37621464e-09  1.58547197e-07  3.91842399e-08  2.50000000e-01 
 2.60000000e-01  3.24666851e-09  4.57839952e-01  3.23566993e-09  4.57839952e-01  4.57839952e-01  3.38154131e-09  3.37621470e-09  1.58547156e-07  3.91840516e-08  2.60000000e-01 
 2.70000000e-01  3.24666851e-09  4.57839947e-01  3.23566995e-09  4.57839947e-01  4.57839947e-01  3.38154131e-09  3.37621470e-09  1.58547147e-07  3.91839414e-08  2.70000000e-01 
 2.80000000e-01  3.24666851e-09  4.57839955e-01  3.23566993e-09  4.57839955e-01  4.57839955e-01  3.38154131e-09  3.37621470e-09  1.58547165e-07  3.91838526e-08  2.80000000e-01 
 2.90000000e-01  3.24666851e-09  4.57839956e-01  3.23566995e-09  4.57839956e-01  4.57839956e-01  3.38154131e-09  3.37621470e-09  1.58547172e-07  3.91838348e-08  2.90000000e-01 
 3.00000000e-01  3.24666851e-09  4.57839954e-01  3.23566993e-09  4.57839954e-01  4.57839954e-01  3.38154131e-09  3.37621464e-09  1.58547169e-07  3.91837496e-08  3.00000000e-01 
 3.10000000e-01  3.24666851e-09  4.57839951e-01  3.23566995e-09  4.57839951e-01  4.57839951e-01  3.38154131e-09  3.37621470e-09  1.58547161e-07  3.91835542e-08  3.10000000e-01 
 3.20000000e-01  3.24666851e-09  4.57839951e-01  3.23566998e-09  4.57839951e-01  4.57839951e-01  3.38154131e-09  3.37621470e-09  1.58547152e-07  3.91834440e-08  3.20000000e-01 
 3.30000000e-01  3.24666851e-09  4.57839928e-01  3.23566993e-09  4.57839928e-01  4.57839928e-01  3.38154131e-09  3.37621470e-09  1.58547128e-07  3.91833694e-08  3.30000000e-01 
 3.40000000e-01  3.24666851e-09  4.57839973e-01  3.23566995e-09  4.57839973e-01  4.57839973e-01  3.38154131e-09  3.37621470e-09  1.58547191e-07  3.91832771e-08  3.40000000e-01 
 3.50000000e-01  3.24666851e-09  4.57839960e-01  3.23566993e-09  4.57839960e-01  4.57839960e-01  3.38154131e-09  3.37621470e-09  1.58547171e-07  3.91832522e-08  3.50000000e-01 
 3.60000000e-01  3.24666851e-09  4.57839932e-01  3.23566995e-09  4.57839932e-01  4.57839932e-01  3.38154131e-09  3.37621470e-09  1.58547134e-07  3.91830959e-08  3.60000000e-01 
 3.70000000e-01  3.24666851e-09  4.57839935e-01  3.23566993e-09  4.57839935e-01  4.57839935e-01  3.38154131e-09  3.37621470e-09  1.58547139e-07  3.91829680e-08  3.70000000e-01 
 3.80000000e-01  3.24666851e-09  4.57839961e-01  3.23566995e-09  4.57839961e-01  4.57839961e-01  3.38154131e-09  3.37621470e-09  1.58547187e-07  3.91829893e-08  3.80000000e-01 
 3.90000000e-01  3.24666851e-09  4.57839953e-01  3.23566993e-09  4.57839953e-01  4.57839953e-01  3.38154131e-09  3.37621464e-09  1.58547165e-07  3.91828969e-08  3.90000000e-01 
 4.00000000e-01  3.24666851e-09  4.57839945e-01  3.23566995e-09  4.57839945e-01  4.57839945e-01  3.38154131e-09  3.37621470e-09  1.58547146e-07  3.91828543e-08  4.00000000e-01 
 4.10000000e-01  3.24666851e-09  4.57839968e-01  3.23566993e-09  4.57839968e-01  4.57839968e-01  3.38154131e-09  3.37621470e-09  1.58547181e-07  3.91828436e-08  4.10000000e-01 
 4.20000000e-01  3.24666851e-09  4.57839958e-01  3.23566995e-09  4.57839958e-01  4.57839958e-01  3.38154131e-09  3.37621470e-09  1.58547177e-07  3.91826269e-08  4.20000000e-01 
 4.30000000e-01  3.24666851e-09  4.57839967e-01  3.23566993e-09  4.57839967e-01  4.57839967e-01  3.38154131e-09  3.37621470e-09  1.58547195e-07  3.91827264e-08  4.30000000e-01 
 4.40000000e-01  3.24666851e-09  4.57839964e-01  3.23566995e-09  4.57839964e-01  4.57839964e-01  3.38154131e-09  3.37621470e-09  1.58547182e-07  3.91825346e-08  4.40000000e-01 
 4.50000000e-01  3.24666851e-09  4.57839979e-01  3.23566993e-09  4.57839979e-01  4.57839980e-01  3.38154131e-09  3.37621470e-09  1.58547210e-07  3.91825168e-08  4.50000000e-01 
 4.60000000e-01  3.24666851e-09  4.57839975e-01  3.23566995e-09  4.57839975e-01  4.57839975e-01  3.38154131e-09  3.37621470e-09  1.58547195e-07  3.91823605e-08  4.60000000e-01 
 4.70000000e-01  3.24666851e-09  4.57839963e-01  3.23566993e-09  4.57839963e-01  4.57839963e-01  3.38154131e-09  3.37621470e-09  1.58547196e-07  3.91822716e-08  4.70000000e-01 
 4.80000000e-01  3.24666851e-09  4.57839955e-01  3.23566995e-09  4.57839955e-01  4.57839955e-01  3.38154131e-09  3.37621464e-09  1.58547169e-07  3.91821935e-08  4.80000000e-01 
 4.90000000e-01  3.24666851e-09  4.57839952e-01  3.23566993e-09  4.57839952e-01  4.57839952e-01  3.38154131e-09  3.37621470e-09  1.58547174e-07  3.91822539e-08  4.90000000e-01 
 5.00000000e-01  3.24666851e-09  4.57839948e-01  3.23566995e-09  4.57839948e-01  4.57839948e-01  3.38154131e-09  3.37621470e-09  1.58547171e-07  3.91820834e-08  5.00000000e-01 
 5.10000000e-01  3.24666851e-09  4.57839942e-01  3.23566993e-09  4.57839942e-01  4.57839942e-01  3.38154131e-09  3.37621464e-09  1.58547158e-07  3.91820265e-08  5.10000000e-01 
 5.20000000e-01  3.24666851e-09  4.57839976e-01  3.23566995e-09  4.57839976e-01  4.57839976e-01  3.38154131e-09  3.37621470e-09  1.58547209e-07  3.91821047e-08  5.20000000e-01 
 5.30000000e-01  3.24666851e-09  4.57839984e-01  3.23566999e-09  4.57839984e-01  4.57839984e-01  3.38154131e-09  3.37621464e-09  1.58547194e-07  3.91818880e-08  5.30000000e-01 
 5.40000000e-01  3.24666851e-09  4.57839944e-01  3.23566993e-09  4.57839944e-01  4.57839944e-01  3.38154131e-09  3.37621464e-09  1.58547158e-07  3.91817991e-08  5.40000000e-01 
 5.50000000e-01  3.24666851e-09  4.57839943e-01  3.23566995e-09  4.57839943e-01  4.57839943e-01  3.38154131e-09  3.37621470e-09  1.58547150e-07  3.91816926e-08  5.50000000e-01 
 5.60000000e-01  3.24666851e-09  4.57839965e-01  3.23566993e-09  4.57839965e-01  4.57839965e-01  3.38154131e-09  3.37621470e-09  1.58547173e-07  3.91817494e-08  5.60000000e-01 
 5.70000000e-01  3.24666851e-09  4.57839957e-01  3.23566995e-09  4.57839957e-01  4.57839957e-01  3.38154131e-09  3.37621470e-09  1.58547179e-07  3.91816712e-08  5.70000000e-01 
 5.80000000e-01  3.24666851e-09  4.57839956e-01  3.23566993e-09  4.57839956e-01  4.57839957e-01  3.38154131e-09  3.37621470e-09  1.58547173e-07  3.91815718e-08  5.80000000e-01 
 5.90000000e-01  3.24666857e-09  4.57839936e-01  3.23566995e-09  4.57839936e-01  4.57839936e-01  3.38154131e-09  3.37621470e-09  1.58547135e-07  3.91814794e-08  5.90000000e-01 
 6.00000000e-01  3.24666851e-09  4.57839969e-01  3.23566993e-09  4.57839969e-01  4.57839969e-01  3.38154131e-09  3.37621470e-09  1.58547180e-07  3.91814865e-08  6.00000000e-01 
 6.10000000e-01  3.24666851e-09  4.57839949e-01  3.23566995e-09  4.57839949e-01  4.57839949e-01  3.38154131e-09  3.37621470e-09  1.58547166e-07  3.91813728e-08  6.10000000e-01 
 6.20000000e-01  3.24666851e-09  4.57839942e-01  3.23566993e-09  4.57839942e-01  4.57839942e-01  3.38154131e-09  3.37621470e-09  1.58547141e-07  3.91814297e-08  6.20000000e-01 
 6.30000000e-01  3.24666851e-09  4.57839960e-01  3.23566995e-09  4.57839960e-01  4.57839960e-01  3.38154131e-09  3.37621470e-09  1.58547162e-07  3.91812947e-08  6.30000000e-01 
 6.40000000e-01  3.24666851e-09  4.57839970e-01  3.23566993e-09  4.57839970e-01  4.57839970e-01  3.38154131e-09  3.37621464e-09  1.58547186e-07  3.91811881e-08  6.40000000e-01 
 6.50000000e-01  3.24666851e-09  4.57839964e-01  3.23566995e-09  4.57839964e-01  4.57839964e-01  3.38154131e-09  3.37621470e-09  1.58547192e-07  3.91812449e-08  6.50000000e-01 
 6.60000000e-01  3.24666851e-09  4.57839947e-01  3.23566998e-09  4.57839947e-01  4.57839947e-01  3.38154131e-09  3.37621470e-09  1.58547163e-07  3.91811383e-08  6.60000000e-01 
 6.70000000e-01  3.24666851e-09  4.57839940e-01  3.23566993e-09  4.57839940e-01  4.57839940e-01  3.38154131e-09  3.37621464e-09  1.58547149e-07  3.91811597e-08  6.70000000e-01 
 6.80000000e-01  3.24666851e-09  4.57839946e-01  3.23566995e-09  4.57839946e-01  4.57839946e-01  3.38154131e-09  3.37621470e-09  1.58547156e-07  3.91811028e-08  6.80000000e-01 
 6.90000000e-01  3.24666851e-09  4.57839963e-01  3.23566993e-09  4.57839963e-01  4.57839963e-01  3.38154131e-09  3.37621470e-09  1.58547188e-07  3.91810744e-08  6.90000000e-01 
 7.00000000e-01  3.24666851e-09  4.57839952e-01  3.23566995e-09  4.57839952e-01  4.57839952e-01  3.38154131e-09  3.37621470e-09  1.58547152e-07  3.91808541e-08  7.00000000e-01 
 7.10000000e-01  3.24666851e-09  4.57839956e-01  3.23566993e-09  4.57839956e-01  4.57839956e-01  3.38154131e-09  3.37621470e-09  1.58547158e-07  3.91809394e-08  7.10000000e-01 
 7.20000000e-01  3.24666851e-09  4.57839936e-01  3.23566995e-09  4.57839936e-01  4.57839936e-01  3.38154131e-09  3.37621470e-09  1.58547150e-07  3.91808044e-08  7.20000000e-01 
 7.30000000e-01  3.24666851e-09  4.57839947e-01  3.23566998e-09  4.57839947e-01  4.57839947e-01  3.38154131e-09  3.37621470e-09  1.58547165e-07  3.91807831e-08  7.30000000e-01 
 7.40000000e-01  3.24666851e-09  4.57839956e-01  3.23566993e-09  4.57839956e-01  4.57839956e-01  3.38154131e-09  3.37621470e-09  1.58547164e-07  3.91807760e-08  7.40000000e-01 
 7.50000000e-01  3.24666851e-09  4.57839956e-01  3.23566995e-09  4.57839956e-01  4.57839956e-01  3.38154131e-09  3.37621470e-09  1.58547166e-07  3.91806694e-08  7.50000000e-01 
 7.60000000e-01  3.24666851e-09  4.57839942e-01  3.23566993e-09  4.57839942e-01  4.57839942e-01  3.38154131e-09  3.37621470e-09  1.58547160e-07  3.91805628e-08  7.60000000e-01 
 7.70000000e-01  3.24666851e-09  4.57839951e-01  3.23566995e-09  4.57839951e-01  4.57839951e-01  3.38154131e-09  3.37621470e-09  1.58547156e-07  3.91805628e-08  7.70000000e-01 
 7.80000000e-01  3.24666851e-09  4.57839954e-01  3.23566993e-09  4.57839954e-01  4.57839954e-01  3.38154131e-09  3.37621470e-09  1.58547167e-07  3.91806054e-08  7.80000000e-01 
 7.90000000e-01  3.24666851e-09  4.57839941e-01  3.23566995e-09  4.57839941e-01  4.57839941e-01  3.38154131e-09  3.37621464e-09  1.58547152e-07  3.91804988e-08  7.90000000e-01 
 8.00000000e-01  3.24666851e-09  4.57839950e-01  3.23566993e-09  4.57839950e-01  4.57839950e-01  3.38154131e-09  3.37621464e-09  1.58547156e-07  3.91803141e-08  8.00000000e-01 
 8.10000000e-01  3.24666851e-09  4.57839957e-01  3.23566995e-09  4.57839957e-01  4.57839957e-01  3.38154131e-09  3.37621470e-09  1.58547180e-07  3.91802999e-08  8.10000000e-01 
 8.20000000e-01  3.24666851e-09  4.57839924e-01  3.23566993e-09  4.57839924e-01  4.57839924e-01  3.38154131e-09  3.37621470e-09  1.58547128e-07  3.91803354e-08  8.20000000e-01 
 8.30000000e-01  3.24666851e-09  4.57839952e-01  3.23566995e-09  4.57839952e-01  4.57839952e-01  3.38154131e-09  3.37621470e-09  1.58547168e-07  3.91802857e-08  8.30000000e-01 
 8.40000000e-01  3.24666851e-09  4.57839954e-01  3.23566993e-09  4.57839954e-01  4.57839954e-01  3.38154131e-09  3.37621470e-09  1.58547179e-07  3.91801791e-08  8.40000000e-01 
 8.50000000e-01  3.24666851e-09  4.57839956e-01  3.23566995e-09  4.57839956e-01  4.57839956e-01  3.38154131e-09  3.37621464e-09  1.58547180e-07  3.91801152e-08  8.50000000e-01 
 8.60000000e-01  3.24666851e-09  4.57839933e-01  3.23566993e-09  4.57839933e-01  4.57839934e-01  3.38154131e-09  3.37621464e-09  1.58547150e-07  3.91801080e-08  8.60000000e-01 
 8.70000000e-01  3.24666851e-09  4.57839964e-01  3.23566995e-09  4.57839964e-01  4.57839964e-01  3.38154131e-09  3.37621470e-09  1.58547171e-07  3.91799091e-08  8.70000000e-01 
 8.80000000e-01  3.24666851e-09  4.57839939e-01  3.23566993e-09  4.57839939e-01  4.57839939e-01  3.38154131e-09  3.37621470e-09  1.58547132e-07  3.91799873e-08  8.80000000e-01 
 8.90000000e-01  3.24666851e-09  4.57839956e-01  3.23566995e-09  4.57839956e-01  4.57839956e-01  3.38154131e-09  3.37621470e-09  1.58547171e-07  3.91798238e-08  8.90000000e-01 
 9.00000000e-01  3.24666851e-09  4.57839964e-01  3.23566998e-09  4.57839964e-01  4.57839964e-01  3.38154131e-09  3.37621464e-09  1.58547191e-07  3.91797741e-08  9.00000000e-01 
 9.10000000e-01  3.24666851e-09  4.57839965e-01  3.23566993e-09  4.57839965e-01  4.57839966e-01  3.38154131e-09  3.37621470e-09  1.58547186e-07  3.91798025e-08  9.10000000e-01 
 9.20000000e-01  3.24666851e-09  4.57839940e-01  3.23566995e-09  4.57839940e-01  4.57839940e-01  3.38154131e-09  3.37621470e-09  1.58547130e-07  3.91797528e-08  9.20000000e-01 
 9.30000000e-01  3.24666851e-09  4.57839956e-01  3.23566993e-09  4.57839956e-01  4.57839956e-01  3.38154131e-09  3.37621470e-09  1.58547167e-07  3.91796462e-08  9.30000000e-01 
 9.40000000e-01  3.24666851e-09  4.57839959e-01  3.23566995e-09  4.57839959e-01  4.57839959e-01  3.38154131e-09  3.37621470e-09  1.58547184e-07  3.91795680e-08  9.40000000e-01 
 9.50000000e-01  3.24666851e-09  4.57839970e-01  3.23566998e-09  4.57839970e-01  4.57839970e-01  3.38154131e-09  3.37621470e-09  1.58547180e-07  3.91795609e-08  9.50000000e-01 
 9.60000000e-01  3.24666851e-09  4.57839958e-01  3.23566993e-09  4.57839958e-01  4.57839958e-01  3.38154131e-09  3.37621470e-09  1.58547181e-07  3.91794330e-08  9.60000000e-01 
 9.70000000e-01  3.24666851e-09  4.57839951e-01  3.23566995e-09  4.57839951e-01  4.57839951e-01  3.38154131e-09  3.37621470e-09  1.58547172e-07  3.91793620e-08  9.70000000e-01 
 9.80000000e-01  3.24666851e-09  4.57839979e-01  3.23566993e-09  4.57839979e-01  4.57839979e-01  3.38154131e-09  3.37621470e-09  1.58547198e-07  3.91794970e-08  9.80000000e-01 
 9.90000000e-01  3.24666851e-09  4.57839967e-01  3.23566995e-09  4.57839967e-01  4.57839967e-01  3.38154131e-09  3.37621470e-09  1.58547186e-07  3.91793122e-08  9.90000000e-01 
 1.00000000e+00  3.24666851e-09  4.57839969e-01  3.23566993e-09  4.57839969e-01  4.57839969e-01  3.38154131e-09  3.37621470e-09  1.58547191e-07  3.91791204e-08  1.00000000e+00 
 1.01000000e+00  3.24666851e-09  4.57839968e-01  3.23566995e-09  4.57839968e-01  4.57839968e-01  3.38154131e-09  3.37621464e-09  1.58547182e-07  3.91792341e-08  1.01000000e+00 
 1.02000000e+00  3.24666851e-09  4.57839972e-01  3.23566993e-09  4.57839972e-01  4.57839972e-01  3.38154131e-09  3.37621464e-09  1.58547196e-07  3.91790920e-08  1.02000000e+00 
 1.03000000e+00  3.24666851e-09  4.57839979e-01  3.23566995e-09  4.57839979e-01  4.57839980e-01  3.38154131e-09  3.37621470e-09  1.58547202e-07  3.91790422e-08  1.03000000e+00 
 1.04000000e+00  3.24666851e-09  4.57839953e-01  3.23566993e-09  4.57839953e-01  4.57839953e-01  3.38154131e-09  3.37621464e-09  1.58547163e-07  3.91789214e-08  1.04000000e+00 
 1.05000000e+00  3.24666851e-09  4.57839925e-01  3.23566995e-09  4.57839925e-01  4.57839925e-01  3.38154131e-09  3.37621470e-09  1.58547124e-07  3.91789570e-08  1.05000000e+00 
 1.06000000e+00  3.24666857e-09  4.57839933e-01  3.23566998e-09  4.57839933e-01  4.57839933e-01  3.38154131e-09  3.37621470e-09  1.58547113e-07  3.91787722e-08  1.06000000e+00 
 1.07000000e+00  3.24666851e-09  4.57839968e-01  3.23566993e-09  4.57839968e-01  4.57839968e-01  3.38154131e-09  3.37621464e-09  1.58547187e-07  3.91788220e-08  1.07000000e+00 
 1.08000000e+00  3.24666851e-09  4.57839958e-01  3.23566995e-09  4.57839958e-01  4.57839958e-01  3.38154131e-09  3.37621464e-09  1.58547179e-07  3.91787509e-08  1.08000000e+00 
 1.09000000e+00  3.24666851e-09  4.57839955e-01  3.23566993e-09  4.57839955e-01  4.57839955e-01  3.38154131e-09  3.37621470e-09  1.58547176e-07  3.91786656e-08  1.09000000e+00 
 1.10000000e+00  3.24666851e-09  4.57839962e-01  3.23566989e-09  4.57839962e-01  4.57839962e-01  3.38154131e-09  3.37621470e-09  1.58547189e-07  3.91786585e-08  1.10000000e+00 
