 v-sweep         v(b0)           v(b1)           v(b2)           v(b3)           v(b4)           v(b5)           v(b6)           i(vbias)        i(viout)        v(vout)        
 0.00000000e+00  4.59087287e-01  4.59087287e-01  3.41303482e-09  4.59087288e-01  3.41078262e-09  3.30297995e-09  3.36523184e-09  1.61533066e-07  1.74537626e-08  0.00000000e+00 
 1.00000000e-02  4.59087292e-01  4.59087292e-01  3.41303480e-09  4.59087292e-01  3.41078260e-09  3.30297999e-09  3.36523182e-09  1.61533073e-07  1.74534225e-08  1.00000000e-02 
 2.00000000e-02  4.59087269e-01  4.59087269e-01  3.41303485e-09  4.59087269e-01  3.41078260e-09  3.30297999e-09  3.36523182e-09  1.61533059e-07  1.74528965e-08  2.00000000e-02 
 3.00000000e-02  4.59087273e-01  4.59087272e-01  3.41303480e-09  4.59087273e-01  3.41078260e-09  3.30297999e-09  3.36523182e-09  1.61533042e-07  1.74526196e-08  3.00000000e-02 
 4.00000000e-02  4.59087297e-01  4.59087297e-01  3.41303485e-09  4.59087297e-01  3.41078260e-09  3.30297999e-09  3.36523182e-09  1.61533093e-07  1.74521908e-08  4.00000000e-02 
 5.00000000e-02  4.59087290e-01  4.59087290e-01  3.41303485e-09  4.59087290e-01  3.41078260e-09  3.30297999e-09  3.36523182e-09  1.61533062e-07  1.74519115e-08  5.00000000e-02 
 6.00000000e-02  4.59087291e-01  4.59087291e-01  3.41303485e-09  4.59087291e-01  3.41078260e-09  3.30297999e-09  3.36523182e-09  1.61533096e-07  1.74515549e-08  6.00000000e-02 
 7.00000000e-02  4.59087265e-01  4.59087264e-01  3.41303480e-09  4.59087265e-01  3.41078260e-09  3.30297999e-09  3.36523181e-09  1.61533034e-07  1.74512640e-08  7.00000000e-02 
 8.00000000e-02  4.59087272e-01  4.59087272e-01  3.41303480e-09  4.59087272e-01  3.41078260e-09  3.30297993e-09  3.36523182e-09  1.61533052e-07  1.74511063e-08  8.00000000e-02 
 9.00000000e-02  4.59087287e-01  4.59087287e-01  3.41303485e-09  4.59087287e-01  3.41078260e-09  3.30297999e-09  3.36523182e-09  1.61533062e-07  1.74507502e-08  9.00000000e-02 
 1.00000000e-01  4.59087267e-01  4.59087267e-01  3.41303485e-09  4.59087267e-01  3.41078260e-09  3.30297993e-09  3.36523182e-09  1.61533038e-07  1.74505130e-08  1.00000000e-01 
 1.10000000e-01  4.59087273e-01  4.59087272e-01  3.41303485e-09  4.59087273e-01  3.41078260e-09  3.30297999e-09  3.36523182e-09  1.61533046e-07  1.74502057e-08  1.10000000e-01 
 1.20000000e-01  4.59087293e-01  4.59087293e-01  3.41303485e-09  4.59087293e-01  3.41078260e-09  3.30297999e-09  3.36523182e-09  1.61533076e-07  1.74500006e-08  1.20000000e-01 
 1.30000000e-01  4.59087301e-01  4.59087301e-01  3.41303485e-09  4.59087301e-01  3.41078261e-09  3.30297999e-09  3.36523182e-09  1.61533099e-07  1.74497794e-08  1.30000000e-01 
 1.40000000e-01  4.59087273e-01  4.59087273e-01  3.41303485e-09  4.59087273e-01  3.41078260e-09  3.30297999e-09  3.36523182e-09  1.61533047e-07  1.74496302e-08  1.40000000e-01 
 1.50000000e-01  4.59087300e-01  4.59087300e-01  3.41303485e-09  4.59087301e-01  3.41078261e-09  3.30297999e-09  3.36523182e-09  1.61533104e-07  1.74494943e-08  1.50000000e-01 
 1.60000000e-01  4.59087294e-01  4.59087294e-01  3.41303480e-09  4.59087294e-01  3.41078260e-09  3.30297999e-09  3.36523182e-09  1.61533082e-07  1.74492865e-08  1.60000000e-01 
 1.70000000e-01  4.59087306e-01  4.59087306e-01  3.41303485e-09  4.59087306e-01  3.41078261e-09  3.30297999e-09  3.36523182e-09  1.61533111e-07  1.74491834e-08  1.70000000e-01 
 1.80000000e-01  4.59087283e-01  4.59087283e-01  3.41303485e-09  4.59087283e-01  3.41078260e-09  3.30297999e-09  3.36523182e-09  1.61533065e-07  1.74489152e-08  1.80000000e-01 
 1.90000000e-01  4.59087290e-01  4.59087290e-01  3.41303480e-09  4.59087290e-01  3.41078260e-09  3.30297999e-09  3.36523182e-09  1.61533073e-07  1.74488974e-08  1.90000000e-01 
 2.00000000e-01  4.59087263e-01  4.59087263e-01  3.41303480e-09  4.59087263e-01  3.41078260e-09  3.30297999e-09  3.36523181e-09  1.61533034e-07  1.74486132e-08  2.00000000e-01 
 2.10000000e-01  4.59087299e-01  4.59087299e-01  3.41303485e-09  4.59087299e-01  3.41078260e-09  3.30297999e-09  3.36523182e-09  1.61533082e-07  1.74484160e-08  2.10000000e-01 
 2.20000000e-01  4.59087271e-01  4.59087271e-01  3.41303485e-09  4.59087271e-01  3.41078260e-09  3.30297999e-09  3.36523182e-09  1.61533034e-07  1.74483361e-08  2.20000000e-01 
 2.30000000e-01  4.59087296e-01  4.59087296e-01  3.41303485e-09  4.59087296e-01  3.41078260e-09  3.30297999e-09  3.36523182e-09  1.61533087e-07  1.74481087e-08  2.30000000e-01 
 2.40000000e-01  4.59087268e-01  4.59087268e-01  3.41303485e-09  4.59087268e-01  3.41078260e-09  3.30297999e-09  3.36523182e-09  1.61533035e-07  1.74479950e-08  2.40000000e-01 
 2.50000000e-01  4.59087290e-01  4.59087290e-01  3.41303480e-09  4.59087290e-01  3.41078260e-09  3.30297999e-09  3.36523182e-09  1.61533073e-07  1.74480501e-08  2.50000000e-01 
 2.60000000e-01  4.59087288e-01  4.59087288e-01  3.41303480e-09  4.59087288e-01  3.41078260e-09  3.30297993e-09  3.36523182e-09  1.61533063e-07  1.74478920e-08  2.60000000e-01 
 2.70000000e-01  4.59087282e-01  4.59087282e-01  3.41303485e-09  4.59087282e-01  3.41078260e-09  3.30297993e-09  3.36523182e-09  1.61533065e-07  1.74477677e-08  2.70000000e-01 
 2.80000000e-01  4.59087294e-01  4.59087294e-01  3.41303485e-09  4.59087295e-01  3.41078260e-09  3.30297999e-09  3.36523182e-09  1.61533080e-07  1.74476487e-08  2.80000000e-01 
 2.90000000e-01  4.59087288e-01  4.59087288e-01  3.41303485e-09  4.59087288e-01  3.41078266e-09  3.30297993e-09  3.36523182e-09  1.61533065e-07  1.74475332e-08  2.90000000e-01 
 3.00000000e-01  4.59087276e-01  4.59087276e-01  3.41303485e-09  4.59087276e-01  3.41078260e-09  3.30297999e-09  3.36523182e-09  1.61533062e-07  1.74474586e-08  3.00000000e-01 
 3.10000000e-01  4.59087278e-01  4.59087278e-01  3.41303485e-09  4.59087278e-01  3.41078260e-09  3.30297999e-09  3.36523182e-09  1.61533049e-07  1.74471708e-08  3.10000000e-01 
 3.20000000e-01  4.59087272e-01  4.59087272e-01  3.41303480e-09  4.59087272e-01  3.41078260e-09  3.30297993e-09  3.36523182e-09  1.61533046e-07  1.74471495e-08  3.20000000e-01 
 3.30000000e-01  4.59087278e-01  4.59087278e-01  3.41303485e-09  4.59087278e-01  3.41078260e-09  3.30297999e-09  3.36523182e-09  1.61533062e-07  1.74470109e-08  3.30000000e-01 
 3.40000000e-01  4.59087306e-01  4.59087306e-01  3.41303485e-09  4.59087306e-01  3.41078261e-09  3.30297999e-09  3.36523182e-09  1.61533090e-07  1.74469932e-08  3.40000000e-01 
 3.50000000e-01  4.59087266e-01  4.59087266e-01  3.41303485e-09  4.59087266e-01  3.41078260e-09  3.30297999e-09  3.36523181e-09  1.61533021e-07  1.74468298e-08  3.50000000e-01 
 3.60000000e-01  4.59087302e-01  4.59087302e-01  3.41303485e-09  4.59087302e-01  3.41078261e-09  3.30297993e-09  3.36523182e-09  1.61533087e-07  1.74469079e-08  3.60000000e-01 
 3.70000000e-01  4.59087284e-01  4.59087284e-01  3.41303480e-09  4.59087284e-01  3.41078260e-09  3.30297999e-09  3.36523182e-09  1.61533054e-07  1.74466948e-08  3.70000000e-01 
 3.80000000e-01  4.59087285e-01  4.59087285e-01  3.41303485e-09  4.59087285e-01  3.41078260e-09  3.30297993e-09  3.36523182e-09  1.61533067e-07  1.74466912e-08  3.80000000e-01 
 3.90000000e-01  4.59087290e-01  4.59087290e-01  3.41303485e-09  4.59087290e-01  3.41078260e-09  3.30297993e-09  3.36523182e-09  1.61533078e-07  1.74466486e-08  3.90000000e-01 
 4.00000000e-01  4.59087293e-01  4.59087293e-01  3.41303485e-09  4.59087293e-01  3.41078260e-09  3.30297999e-09  3.36523182e-09  1.61533078e-07  1.74464887e-08  4.00000000e-01 
 4.10000000e-01  4.59087248e-01  4.59087248e-01  3.41303480e-09  4.59087248e-01  3.41078260e-09  3.30297999e-09  3.36523181e-09  1.61533014e-07  1.74466095e-08  4.10000000e-01 
 4.20000000e-01  4.59087299e-01  4.59087299e-01  3.41303485e-09  4.59087300e-01  3.41078260e-09  3.30297999e-09  3.36523182e-09  1.61533083e-07  1.74463750e-08  4.20000000e-01 
 4.30000000e-01  4.59087288e-01  4.59087288e-01  3.41303485e-09  4.59087288e-01  3.41078260e-09  3.30297999e-09  3.36523182e-09  1.61533074e-07  1.74464247e-08  4.30000000e-01 
 4.40000000e-01  4.59087298e-01  4.59087298e-01  3.41303485e-09  4.59087299e-01  3.41078260e-09  3.30297999e-09  3.36523182e-09  1.61533087e-07  1.74462969e-08  4.40000000e-01 
 4.50000000e-01  4.59087291e-01  4.59087291e-01  3.41303485e-09  4.59087291e-01  3.41078260e-09  3.30297999e-09  3.36523182e-09  1.61533083e-07  1.74463146e-08  4.50000000e-01 
 4.60000000e-01  4.59087284e-01  4.59087284e-01  3.41303485e-09  4.59087284e-01  3.41078260e-09  3.30297999e-09  3.36523182e-09  1.61533070e-07  1.74461263e-08  4.60000000e-01 
 4.70000000e-01  4.59087307e-01  4.59087307e-01  3.41303485e-09  4.59087307e-01  3.41078261e-09  3.30297993e-09  3.36523182e-09  1.61533111e-07  1.74461050e-08  4.70000000e-01 
 4.80000000e-01  4.59087295e-01  4.59087295e-01  3.41303485e-09  4.59087295e-01  3.41078260e-09  3.30297999e-09  3.36523182e-09  1.61533080e-07  1.74459984e-08  4.80000000e-01 
 4.90000000e-01  4.59087271e-01  4.59087271e-01  3.41303485e-09  4.59087271e-01  3.41078260e-09  3.30297999e-09  3.36523182e-09  1.61533047e-07  1.74459593e-08  4.90000000e-01 
 5.00000000e-01  4.59087290e-01  4.59087290e-01  3.41303480e-09  4.59087290e-01  3.41078260e-09  3.30297993e-09  3.36523182e-09  1.61533073e-07  1.74460411e-08  5.00000000e-01 
 5.10000000e-01  4.59087287e-01  4.59087287e-01  3.41303480e-09  4.59087287e-01  3.41078260e-09  3.30297999e-09  3.36523182e-09  1.61533062e-07  1.74458634e-08  5.10000000e-01 
 5.20000000e-01  4.59087266e-01  4.59087266e-01  3.41303480e-09  4.59087266e-01  3.41078260e-09  3.30297999e-09  3.36523181e-09  1.61533040e-07  1.74459061e-08  5.20000000e-01 
 5.30000000e-01  4.59087286e-01  4.59087286e-01  3.41303480e-09  4.59087286e-01  3.41078260e-09  3.30297999e-09  3.36523182e-09  1.61533080e-07  1.74458492e-08  5.30000000e-01 
 5.40000000e-01  4.59087266e-01  4.59087265e-01  3.41303485e-09  4.59087266e-01  3.41078260e-09  3.30297999e-09  3.36523181e-09  1.61533027e-07  1.74457711e-08  5.40000000e-01 
 5.50000000e-01  4.59087286e-01  4.59087286e-01  3.41303485e-09  4.59087286e-01  3.41078260e-09  3.30297999e-09  3.36523182e-09  1.61533088e-07  1.74456183e-08  5.50000000e-01 
 5.60000000e-01  4.59087296e-01  4.59087296e-01  3.41303485e-09  4.59087296e-01  3.41078260e-09  3.30297999e-09  3.36523182e-09  1.61533088e-07  1.74455330e-08  5.60000000e-01 
 5.70000000e-01  4.59087299e-01  4.59087299e-01  3.41303480e-09  4.59087299e-01  3.41078266e-09  3.30297999e-09  3.36523182e-09  1.61533083e-07  1.74455543e-08  5.70000000e-01 
 5.80000000e-01  4.59087286e-01  4.59087286e-01  3.41303485e-09  4.59087286e-01  3.41078260e-09  3.30297999e-09  3.36523182e-09  1.61533062e-07  1.74454939e-08  5.80000000e-01 
 5.90000000e-01  4.59087267e-01  4.59087267e-01  3.41303480e-09  4.59087267e-01  3.41078260e-09  3.30297999e-09  3.36523182e-09  1.61533041e-07  1.74453731e-08  5.90000000e-01 
 6.00000000e-01  4.59087292e-01  4.59087292e-01  3.41303485e-09  4.59087292e-01  3.41078260e-09  3.30297999e-09  3.36523182e-09  1.61533077e-07  1.74453945e-08  6.00000000e-01 
 6.10000000e-01  4.59087278e-01  4.59087278e-01  3.41303485e-09  4.59087278e-01  3.41078260e-09  3.30297999e-09  3.36523182e-09  1.61533061e-07  1.74453234e-08  6.10000000e-01 
 6.20000000e-01  4.59087296e-01  4.59087296e-01  3.41303485e-09  4.59087296e-01  3.41078260e-09  3.30297999e-09  3.36523182e-09  1.61533080e-07  1.74452808e-08  6.20000000e-01 
 6.30000000e-01  4.59087285e-01  4.59087285e-01  3.41303485e-09  4.59087285e-01  3.41078260e-09  3.30297999e-09  3.36523182e-09  1.61533070e-07  1.74452666e-08  6.30000000e-01 
 6.40000000e-01  4.59087282e-01  4.59087282e-01  3.41303485e-09  4.59087282e-01  3.41078260e-09  3.30297999e-09  3.36523182e-09  1.61533064e-07  1.74451884e-08  6.40000000e-01 
 6.50000000e-01  4.59087282e-01  4.59087282e-01  3.41303485e-09  4.59087282e-01  3.41078260e-09  3.30297999e-09  3.36523182e-09  1.61533063e-07  1.74450534e-08  6.50000000e-01 
 6.60000000e-01  4.59087303e-01  4.59087303e-01  3.41303485e-09  4.59087304e-01  3.41078261e-09  3.30297999e-09  3.36523182e-09  1.61533099e-07  1.74450179e-08  6.60000000e-01 
 6.70000000e-01  4.59087280e-01  4.59087280e-01  3.41303485e-09  4.59087280e-01  3.41078260e-09  3.30297993e-09  3.36523182e-09  1.61533049e-07  1.74450321e-08  6.70000000e-01 
 6.80000000e-01  4.59087266e-01  4.59087266e-01  3.41303480e-09  4.59087266e-01  3.41078260e-09  3.30297999e-09  3.36523182e-09  1.61533037e-07  1.74448687e-08  6.80000000e-01 
 6.90000000e-01  4.59087289e-01  4.59087289e-01  3.41303485e-09  4.59087289e-01  3.41078260e-09  3.30297999e-09  3.36523182e-09  1.61533075e-07  1.74450037e-08  6.90000000e-01 
 7.00000000e-01  4.59087287e-01  4.59087287e-01  3.41303485e-09  4.59087287e-01  3.41078260e-09  3.30297999e-09  3.36523182e-09  1.61533060e-07  1.74448402e-08  7.00000000e-01 
 7.10000000e-01  4.59087297e-01  4.59087297e-01  3.41303485e-09  4.59087297e-01  3.41078260e-09  3.30297993e-09  3.36523182e-09  1.61533087e-07  1.74447692e-08  7.10000000e-01 
 7.20000000e-01  4.59087270e-01  4.59087270e-01  3.41303485e-09  4.59087270e-01  3.41078260e-09  3.30297993e-09  3.36523182e-09  1.61533040e-07  1.74447692e-08  7.20000000e-01 
 7.30000000e-01  4.59087305e-01  4.59087305e-01  3.41303485e-09  4.59087305e-01  3.41078261e-09  3.30297999e-09  3.36523182e-09  1.61533089e-07  1.74447834e-08  7.30000000e-01 
 7.40000000e-01  4.59087290e-01  4.59087290e-01  3.41303480e-09  4.59087290e-01  3.41078260e-09  3.30297999e-09  3.36523182e-09  1.61533069e-07  1.74446342e-08  7.40000000e-01 
 7.50000000e-01  4.59087293e-01  4.59087293e-01  3.41303485e-09  4.59087293e-01  3.41078260e-09  3.30297999e-09  3.36523182e-09  1.61533078e-07  1.74446839e-08  7.50000000e-01 
 7.60000000e-01  4.59087273e-01  4.59087273e-01  3.41303480e-09  4.59087273e-01  3.41078260e-09  3.30297999e-09  3.36523182e-09  1.61533040e-07  1.74447266e-08  7.60000000e-01 
 7.70000000e-01  4.59087291e-01  4.59087291e-01  3.41303485e-09  4.59087291e-01  3.41078260e-09  3.30297999e-09  3.36523182e-09  1.61533079e-07  1.74444992e-08  7.70000000e-01 
 7.80000000e-01  4.59087271e-01  4.59087271e-01  3.41303485e-09  4.59087271e-01  3.41078260e-09  3.30297999e-09  3.36523182e-09  1.61533051e-07  1.74444423e-08  7.80000000e-01 
 7.90000000e-01  4.59087275e-01  4.59087275e-01  3.41303480e-09  4.59087275e-01  3.41078260e-09  3.30297999e-09  3.36523182e-09  1.61533053e-07  1.74443855e-08  7.90000000e-01 
 8.00000000e-01  4.59087303e-01  4.59087303e-01  3.41303480e-09  4.59087303e-01  3.41078261e-09  3.30297999e-09  3.36523182e-09  1.61533094e-07  1.74443073e-08  8.00000000e-01 
 8.10000000e-01  4.59087291e-01  4.59087291e-01  3.41303485e-09  4.59087291e-01  3.41078260e-09  3.30297999e-09  3.36523182e-09  1.61533074e-07  1.74443286e-08  8.10000000e-01 
 8.20000000e-01  4.59087316e-01  4.59087316e-01  3.41303486e-09  4.59087316e-01  3.41078261e-09  3.30297993e-09  3.36523182e-09  1.61533109e-07  1.74443002e-08  8.20000000e-01 
 8.30000000e-01  4.59087279e-01  4.59087279e-01  3.41303485e-09  4.59087279e-01  3.41078260e-09  3.30297999e-09  3.36523182e-09  1.61533053e-07  1.74441581e-08  8.30000000e-01 
 8.40000000e-01  4.59087276e-01  4.59087276e-01  3.41303485e-09  4.59087276e-01  3.41078260e-09  3.30297993e-09  3.36523182e-09  1.61533050e-07  1.74441723e-08  8.40000000e-01 
 8.50000000e-01  4.59087299e-01  4.59087299e-01  3.41303485e-09  4.59087299e-01  3.41078260e-09  3.30297993e-09  3.36523182e-09  1.61533073e-07  1.74441084e-08  8.50000000e-01 
 8.60000000e-01  4.59087260e-01  4.59087260e-01  3.41303485e-09  4.59087260e-01  3.41078260e-09  3.30297993e-09  3.36523181e-09  1.61533026e-07  1.74440942e-08  8.60000000e-01 
 8.70000000e-01  4.59087290e-01  4.59087290e-01  3.41303485e-09  4.59087290e-01  3.41078260e-09  3.30297999e-09  3.36523182e-09  1.61533069e-07  1.74439592e-08  8.70000000e-01 
 8.80000000e-01  4.59087272e-01  4.59087272e-01  3.41303480e-09  4.59087272e-01  3.41078260e-09  3.30297993e-09  3.36523182e-09  1.61533054e-07  1.74438597e-08  8.80000000e-01 
 8.90000000e-01  4.59087274e-01  4.59087274e-01  3.41303480e-09  4.59087274e-01  3.41078260e-09  3.30297999e-09  3.36523182e-09  1.61533055e-07  1.74439805e-08  8.90000000e-01 
 9.00000000e-01  4.59087291e-01  4.59087291e-01  3.41303480e-09  4.59087291e-01  3.41078260e-09  3.30297999e-09  3.36523182e-09  1.61533079e-07  1.74439307e-08  9.00000000e-01 
 9.10000000e-01  4.59087288e-01  4.59087288e-01  3.41303480e-09  4.59087288e-01  3.41078260e-09  3.30297999e-09  3.36523182e-09  1.61533052e-07  1.74437531e-08  9.10000000e-01 
 9.20000000e-01  4.59087302e-01  4.59087302e-01  3.41303480e-09  4.59087302e-01  3.41078261e-09  3.30297999e-09  3.36523182e-09  1.61533095e-07  1.74436607e-08  9.20000000e-01 
 9.30000000e-01  4.59087285e-01  4.59087285e-01  3.41303485e-09  4.59087285e-01  3.41078260e-09  3.30297999e-09  3.36523182e-09  1.61533070e-07  1.74435897e-08  9.30000000e-01 
 9.40000000e-01  4.59087274e-01  4.59087274e-01  3.41303485e-09  4.59087274e-01  3.41078266e-09  3.30297999e-09  3.36523182e-09  1.61533051e-07  1.74435115e-08  9.40000000e-01 
 9.50000000e-01  4.59087277e-01  4.59087277e-01  3.41303485e-09  4.59087277e-01  3.41078260e-09  3.30297999e-09  3.36523182e-09  1.61533061e-07  1.74434902e-08  9.50000000e-01 
 9.60000000e-01  4.59087282e-01  4.59087282e-01  3.41303485e-09  4.59087283e-01  3.41078260e-09  3.30297999e-09  3.36523182e-09  1.61533061e-07  1.74435186e-08  9.60000000e-01 
 9.70000000e-01  4.59087296e-01  4.59087296e-01  3.41303485e-09  4.59087296e-01  3.41078260e-09  3.30297999e-09  3.36523182e-09  1.61533079e-07  1.74433907e-08  9.70000000e-01 
 9.80000000e-01  4.59087289e-01  4.59087289e-01  3.41303485e-09  4.59087289e-01  3.41078260e-09  3.30297999e-09  3.36523182e-09  1.61533064e-07  1.74434120e-08  9.80000000e-01 
 9.90000000e-01  4.59087315e-01  4.59087315e-01  3.41303486e-09  4.59087315e-01  3.41078261e-09  3.30297999e-09  3.36523182e-09  1.61533115e-07  1.74433339e-08  9.90000000e-01 
 1.00000000e+00  4.59087286e-01  4.59087286e-01  3.41303480e-09  4.59087286e-01  3.41078260e-09  3.30297993e-09  3.36523182e-09  1.61533069e-07  1.74432344e-08  1.00000000e+00 
 1.01000000e+00  4.59087273e-01  4.59087273e-01  3.41303485e-09  4.59087273e-01  3.41078260e-09  3.30297999e-09  3.36523182e-09  1.61533043e-07  1.74432344e-08  1.01000000e+00 
 1.02000000e+00  4.59087275e-01  4.59087275e-01  3.41303485e-09  4.59087275e-01  3.41078260e-09  3.30297999e-09  3.36523182e-09  1.61533046e-07  1.74431918e-08  1.02000000e+00 
 1.03000000e+00  4.59087299e-01  4.59087299e-01  3.41303480e-09  4.59087299e-01  3.41078260e-09  3.30297999e-09  3.36523182e-09  1.61533096e-07  1.74430852e-08  1.03000000e+00 
 1.04000000e+00  4.59087278e-01  4.59087278e-01  3.41303485e-09  4.59087279e-01  3.41078260e-09  3.30297999e-09  3.36523182e-09  1.61533050e-07  1.74431136e-08  1.04000000e+00 
 1.05000000e+00  4.59087275e-01  4.59087275e-01  3.41303485e-09  4.59087275e-01  3.41078260e-09  3.30297993e-09  3.36523182e-09  1.61533052e-07  1.74429147e-08  1.05000000e+00 
 1.06000000e+00  4.59087290e-01  4.59087290e-01  3.41303485e-09  4.59087290e-01  3.41078260e-09  3.30297999e-09  3.36523182e-09  1.61533070e-07  1.74429076e-08  1.06000000e+00 
 1.07000000e+00  4.59087280e-01  4.59087280e-01  3.41303485e-09  4.59087280e-01  3.41078260e-09  3.30297993e-09  3.36523182e-09  1.61533050e-07  1.74427939e-08  1.07000000e+00 
 1.08000000e+00  4.59087288e-01  4.59087288e-01  3.41303485e-09  4.59087288e-01  3.41078260e-09  3.30297999e-09  3.36523182e-09  1.61533074e-07  1.74428223e-08  1.08000000e+00 
 1.09000000e+00  4.59087267e-01  4.59087267e-01  3.41303485e-09  4.59087267e-01  3.41078260e-09  3.30297993e-09  3.36523182e-09  1.61533039e-07  1.74427228e-08  1.09000000e+00 
 1.10000000e+00  4.59087302e-01  4.59087302e-01  3.41303480e-09  4.59087302e-01  3.41078261e-09  3.30297993e-09  3.36523182e-09  1.61533091e-07  1.74428223e-08  1.10000000e+00 
