 v-sweep         v(b0)           v(b1)           v(b2)           v(b3)           v(b4)           v(b5)           v(b6)           i(vbias)        i(viout)        v(vout)        
 0.00000000e+00  3.13894711e-09  4.58006217e-01  3.49650048e-09  4.58006217e-01  4.58006217e-01  4.58006217e-01  3.44479410e-09  1.58518893e-07  9.25248632e-08  0.00000000e+00 
 1.00000000e-02  3.13894708e-09  4.58006239e-01  3.49650046e-09  4.58006239e-01  4.58006239e-01  4.58006239e-01  3.44479407e-09  1.58518945e-07  9.25244329e-08  1.00000000e-02 
 2.00000000e-02  3.13894708e-09  4.58006239e-01  3.49650046e-09  4.58006239e-01  4.58006239e-01  4.58006239e-01  3.44479413e-09  1.58518944e-07  9.25240760e-08  2.00000000e-02 
 3.00000000e-02  3.13894708e-09  4.58006213e-01  3.49650045e-09  4.58006214e-01  4.58006213e-01  4.58006214e-01  3.44479413e-09  1.58518902e-07  9.25236505e-08  3.00000000e-02 
 4.00000000e-02  3.13894708e-09  4.58006248e-01  3.49650046e-09  4.58006248e-01  4.58006248e-01  4.58006248e-01  3.44479407e-09  1.58518953e-07  9.25233246e-08  4.00000000e-02 
 5.00000000e-02  3.13894708e-09  4.58006227e-01  3.49650051e-09  4.58006227e-01  4.58006226e-01  4.58006227e-01  3.44479407e-09  1.58518905e-07  9.25229808e-08  5.00000000e-02 
 6.00000000e-02  3.13894708e-09  4.58006238e-01  3.49650046e-09  4.58006238e-01  4.58006238e-01  4.58006238e-01  3.44479413e-09  1.58518930e-07  9.25228005e-08  6.00000000e-02 
 7.00000000e-02  3.13894708e-09  4.58006212e-01  3.49650045e-09  4.58006212e-01  4.58006212e-01  4.58006212e-01  3.44479407e-09  1.58518894e-07  9.25223720e-08  7.00000000e-02 
 8.00000000e-02  3.13894708e-09  4.58006259e-01  3.49650046e-09  4.58006259e-01  4.58006259e-01  4.58006259e-01  3.44479413e-09  1.58518985e-07  9.25222281e-08  8.00000000e-02 
 9.00000000e-02  3.13894708e-09  4.58006246e-01  3.49650046e-09  4.58006246e-01  4.58006246e-01  4.58006246e-01  3.44479407e-09  1.58518929e-07  9.25218409e-08  9.00000000e-02 
 1.00000000e-01  3.13894708e-09  4.58006256e-01  3.49650046e-09  4.58006257e-01  4.58006256e-01  4.58006257e-01  3.44479407e-09  1.58518971e-07  9.25214696e-08  1.00000000e-01 
 1.10000000e-01  3.13894708e-09  4.58006238e-01  3.49650046e-09  4.58006238e-01  4.58006238e-01  4.58006239e-01  3.44479413e-09  1.58518926e-07  9.25212733e-08  1.10000000e-01 
 1.20000000e-01  3.13894708e-09  4.58006239e-01  3.49650046e-09  4.58006239e-01  4.58006239e-01  4.58006239e-01  3.44479413e-09  1.58518941e-07  9.25210353e-08  1.20000000e-01 
 1.30000000e-01  3.13894708e-09  4.58006250e-01  3.49650046e-09  4.58006250e-01  4.58006249e-01  4.58006250e-01  3.44479407e-09  1.58518945e-07  9.25207368e-08  1.30000000e-01 
 1.40000000e-01  3.13894708e-09  4.58006227e-01  3.49650046e-09  4.58006227e-01  4.58006227e-01  4.58006227e-01  3.44479407e-09  1.58518914e-07  9.25206232e-08  1.40000000e-01 
 1.50000000e-01  3.13894708e-09  4.58006236e-01  3.49650046e-09  4.58006236e-01  4.58006236e-01  4.58006236e-01  3.44479407e-09  1.58518930e-07  9.25202546e-08  1.50000000e-01 
 1.60000000e-01  3.13894708e-09  4.58006240e-01  3.49650046e-09  4.58006240e-01  4.58006240e-01  4.58006240e-01  3.44479407e-09  1.58518936e-07  9.25202048e-08  1.60000000e-01 
 1.70000000e-01  3.13894708e-09  4.58006254e-01  3.49650046e-09  4.58006254e-01  4.58006254e-01  4.58006254e-01  3.44479413e-09  1.58518966e-07  9.25199526e-08  1.70000000e-01 
 1.80000000e-01  3.13894708e-09  4.58006250e-01  3.49650046e-09  4.58006250e-01  4.58006250e-01  4.58006250e-01  3.44479413e-09  1.58518949e-07  9.25198442e-08  1.80000000e-01 
 1.90000000e-01  3.13894702e-09  4.58006223e-01  3.49650045e-09  4.58006223e-01  4.58006223e-01  4.58006223e-01  3.44479407e-09  1.58518900e-07  9.25195973e-08  1.90000000e-01 
 2.00000000e-01  3.13894708e-09  4.58006225e-01  3.49650046e-09  4.58006225e-01  4.58006225e-01  4.58006225e-01  3.44479407e-09  1.58518920e-07  9.25194392e-08  2.00000000e-01 
 2.10000000e-01  3.13894708e-09  4.58006232e-01  3.49650046e-09  4.58006232e-01  4.58006232e-01  4.58006232e-01  3.44479407e-09  1.58518928e-07  9.25192598e-08  2.10000000e-01 
 2.20000000e-01  3.13894708e-09  4.58006227e-01  3.49650046e-09  4.58006227e-01  4.58006227e-01  4.58006227e-01  3.44479407e-09  1.58518928e-07  9.25190413e-08  2.20000000e-01 
 2.30000000e-01  3.13894708e-09  4.58006246e-01  3.49650046e-09  4.58006246e-01  4.58006246e-01  4.58006246e-01  3.44479407e-09  1.58518958e-07  9.25188974e-08  2.30000000e-01 
 2.40000000e-01  3.13894708e-09  4.58006231e-01  3.49650046e-09  4.58006231e-01  4.58006231e-01  4.58006231e-01  3.44479413e-09  1.58518929e-07  9.25188193e-08  2.40000000e-01 
 2.50000000e-01  3.13894708e-09  4.58006238e-01  3.49650046e-09  4.58006238e-01  4.58006238e-01  4.58006238e-01  3.44479407e-09  1.58518938e-07  9.25185191e-08  2.50000000e-01 
 2.60000000e-01  3.13894708e-09  4.58006240e-01  3.49650046e-09  4.58006240e-01  4.58006240e-01  4.58006240e-01  3.44479407e-09  1.58518932e-07  9.25186008e-08  2.60000000e-01 
 2.70000000e-01  3.13894708e-09  4.58006238e-01  3.49650046e-09  4.58006238e-01  4.58006237e-01  4.58006238e-01  3.44479413e-09  1.58518940e-07  9.25183841e-08  2.70000000e-01 
 2.80000000e-01  3.13894707e-09  4.58006197e-01  3.49650045e-09  4.58006197e-01  4.58006197e-01  4.58006197e-01  3.44479413e-09  1.58518875e-07  9.25181567e-08  2.80000000e-01 
 2.90000000e-01  3.13894708e-09  4.58006258e-01  3.49650046e-09  4.58006258e-01  4.58006258e-01  4.58006258e-01  3.44479407e-09  1.58518970e-07  9.25182029e-08  2.90000000e-01 
 3.00000000e-01  3.13894708e-09  4.58006206e-01  3.49650045e-09  4.58006206e-01  4.58006206e-01  4.58006206e-01  3.44479407e-09  1.58518883e-07  9.25180075e-08  3.00000000e-01 
 3.10000000e-01  3.13894708e-09  4.58006230e-01  3.49650046e-09  4.58006230e-01  4.58006230e-01  4.58006230e-01  3.44479407e-09  1.58518918e-07  9.25178441e-08  3.10000000e-01 
 3.20000000e-01  3.13894708e-09  4.58006236e-01  3.49650046e-09  4.58006236e-01  4.58006236e-01  4.58006236e-01  3.44479413e-09  1.58518927e-07  9.25178512e-08  3.20000000e-01 
 3.30000000e-01  3.13894708e-09  4.58006253e-01  3.49650046e-09  4.58006253e-01  4.58006253e-01  4.58006253e-01  3.44479407e-09  1.58518969e-07  9.25177019e-08  3.30000000e-01 
 3.40000000e-01  3.13894708e-09  4.58006224e-01  3.49650045e-09  4.58006224e-01  4.58006224e-01  4.58006224e-01  3.44479407e-09  1.58518903e-07  9.25175598e-08  3.40000000e-01 
 3.50000000e-01  3.13894708e-09  4.58006224e-01  3.49650045e-09  4.58006224e-01  4.58006223e-01  4.58006224e-01  3.44479407e-09  1.58518909e-07  9.25173822e-08  3.50000000e-01 
 3.60000000e-01  3.13894708e-09  4.58006224e-01  3.49650045e-09  4.58006224e-01  4.58006224e-01  4.58006224e-01  3.44479413e-09  1.58518929e-07  9.25174177e-08  3.60000000e-01 
 3.70000000e-01  3.13894708e-09  4.58006222e-01  3.49650045e-09  4.58006222e-01  4.58006222e-01  4.58006222e-01  3.44479413e-09  1.58518916e-07  9.25172152e-08  3.70000000e-01 
 3.80000000e-01  3.13894708e-09  4.58006220e-01  3.49650045e-09  4.58006220e-01  4.58006220e-01  4.58006220e-01  3.44479407e-09  1.58518895e-07  9.25171122e-08  3.80000000e-01 
 3.90000000e-01  3.13894708e-09  4.58006216e-01  3.49650045e-09  4.58006216e-01  4.58006216e-01  4.58006216e-01  3.44479407e-09  1.58518904e-07  9.25171371e-08  3.90000000e-01 
 4.00000000e-01  3.13894708e-09  4.58006247e-01  3.49650046e-09  4.58006247e-01  4.58006247e-01  4.58006247e-01  3.44479413e-09  1.58518942e-07  9.25169026e-08  4.00000000e-01 
 4.10000000e-01  3.13894708e-09  4.58006231e-01  3.49650046e-09  4.58006231e-01  4.58006231e-01  4.58006231e-01  3.44479413e-09  1.58518931e-07  9.25168955e-08  4.10000000e-01 
 4.20000000e-01  3.13894708e-09  4.58006237e-01  3.49650051e-09  4.58006237e-01  4.58006237e-01  4.58006237e-01  3.44479407e-09  1.58518933e-07  9.25168528e-08  4.20000000e-01 
 4.30000000e-01  3.13894708e-09  4.58006226e-01  3.49650046e-09  4.58006227e-01  4.58006226e-01  4.58006227e-01  3.44479407e-09  1.58518918e-07  9.25166574e-08  4.30000000e-01 
 4.40000000e-01  3.13894708e-09  4.58006239e-01  3.49650046e-09  4.58006239e-01  4.58006239e-01  4.58006239e-01  3.44479413e-09  1.58518936e-07  9.25166610e-08  4.40000000e-01 
 4.50000000e-01  3.13894708e-09  4.58006251e-01  3.49650046e-09  4.58006252e-01  4.58006251e-01  4.58006252e-01  3.44479413e-09  1.58518959e-07  9.25166148e-08  4.50000000e-01 
 4.60000000e-01  3.13894708e-09  4.58006243e-01  3.49650046e-09  4.58006243e-01  4.58006243e-01  4.58006243e-01  3.44479407e-09  1.58518945e-07  9.25165082e-08  4.60000000e-01 
 4.70000000e-01  3.13894708e-09  4.58006214e-01  3.49650045e-09  4.58006214e-01  4.58006214e-01  4.58006214e-01  3.44479407e-09  1.58518903e-07  9.25164301e-08  4.70000000e-01 
 4.80000000e-01  3.13894708e-09  4.58006243e-01  3.49650046e-09  4.58006243e-01  4.58006243e-01  4.58006243e-01  3.44479407e-09  1.58518946e-07  9.25163732e-08  4.80000000e-01 
 4.90000000e-01  3.13894708e-09  4.58006239e-01  3.49650046e-09  4.58006240e-01  4.58006239e-01  4.58006240e-01  3.44479407e-09  1.58518939e-07  9.25163874e-08  4.90000000e-01 
 5.00000000e-01  3.13894708e-09  4.58006237e-01  3.49650046e-09  4.58006237e-01  4.58006237e-01  4.58006237e-01  3.44479407e-09  1.58518943e-07  9.25162489e-08  5.00000000e-01 
 5.10000000e-01  3.13894708e-09  4.58006256e-01  3.49650046e-09  4.58006256e-01  4.58006256e-01  4.58006256e-01  3.44479407e-09  1.58518969e-07  9.25161849e-08  5.10000000e-01 
 5.20000000e-01  3.13894708e-09  4.58006223e-01  3.49650045e-09  4.58006223e-01  4.58006223e-01  4.58006223e-01  3.44479407e-09  1.58518915e-07  9.25160855e-08  5.20000000e-01 
 5.30000000e-01  3.13894708e-09  4.58006234e-01  3.49650046e-09  4.58006234e-01  4.58006234e-01  4.58006234e-01  3.44479407e-09  1.58518921e-07  9.25158936e-08  5.30000000e-01 
 5.40000000e-01  3.13894708e-09  4.58006242e-01  3.49650046e-09  4.58006242e-01  4.58006242e-01  4.58006242e-01  3.44479407e-09  1.58518950e-07  9.25160109e-08  5.40000000e-01 
 5.50000000e-01  3.13894708e-09  4.58006243e-01  3.49650046e-09  4.58006243e-01  4.58006243e-01  4.58006243e-01  3.44479407e-09  1.58518941e-07  9.25158155e-08  5.50000000e-01 
 5.60000000e-01  3.13894708e-09  4.58006273e-01  3.49650046e-09  4.58006273e-01  4.58006272e-01  4.58006273e-01  3.44479407e-09  1.58518985e-07  9.25157835e-08  5.60000000e-01 
 5.70000000e-01  3.13894708e-09  4.58006214e-01  3.49650045e-09  4.58006214e-01  4.58006214e-01  4.58006214e-01  3.44479407e-09  1.58518884e-07  9.25156094e-08  5.70000000e-01 
 5.80000000e-01  3.13894708e-09  4.58006224e-01  3.49650045e-09  4.58006224e-01  4.58006224e-01  4.58006224e-01  3.44479407e-09  1.58518917e-07  9.25156058e-08  5.80000000e-01 
 5.90000000e-01  3.13894708e-09  4.58006232e-01  3.49650046e-09  4.58006232e-01  4.58006232e-01  4.58006233e-01  3.44479407e-09  1.58518927e-07  9.25154708e-08  5.90000000e-01 
 6.00000000e-01  3.13894708e-09  4.58006254e-01  3.49650046e-09  4.58006254e-01  4.58006254e-01  4.58006254e-01  3.44479413e-09  1.58518948e-07  9.25154993e-08  6.00000000e-01 
 6.10000000e-01  3.13894708e-09  4.58006242e-01  3.49650046e-09  4.58006242e-01  4.58006242e-01  4.58006242e-01  3.44479407e-09  1.58518943e-07  9.25153572e-08  6.10000000e-01 
 6.20000000e-01  3.13894708e-09  4.58006220e-01  3.49650045e-09  4.58006220e-01  4.58006220e-01  4.58006220e-01  3.44479407e-09  1.58518911e-07  9.25152577e-08  6.20000000e-01 
 6.30000000e-01  3.13894708e-09  4.58006218e-01  3.49650045e-09  4.58006218e-01  4.58006218e-01  4.58006218e-01  3.44479413e-09  1.58518893e-07  9.25152719e-08  6.30000000e-01 
 6.40000000e-01  3.13894708e-09  4.58006218e-01  3.49650045e-09  4.58006218e-01  4.58006218e-01  4.58006218e-01  3.44479407e-09  1.58518920e-07  9.25151298e-08  6.40000000e-01 
 6.50000000e-01  3.13894708e-09  4.58006243e-01  3.49650046e-09  4.58006243e-01  4.58006243e-01  4.58006243e-01  3.44479413e-09  1.58518955e-07  9.25150658e-08  6.50000000e-01 
 6.60000000e-01  3.13894708e-09  4.58006228e-01  3.49650046e-09  4.58006228e-01  4.58006228e-01  4.58006228e-01  3.44479407e-09  1.58518918e-07  9.25148740e-08  6.60000000e-01 
 6.70000000e-01  3.13894708e-09  4.58006232e-01  3.49650046e-09  4.58006232e-01  4.58006232e-01  4.58006232e-01  3.44479413e-09  1.58518931e-07  9.25149308e-08  6.70000000e-01 
 6.80000000e-01  3.13894708e-09  4.58006233e-01  3.49650046e-09  4.58006233e-01  4.58006233e-01  4.58006233e-01  3.44479407e-09  1.58518936e-07  9.25148953e-08  6.80000000e-01 
 6.90000000e-01  3.13894708e-09  4.58006221e-01  3.49650045e-09  4.58006221e-01  4.58006221e-01  4.58006221e-01  3.44479407e-09  1.58518912e-07  9.25147816e-08  6.90000000e-01 
 7.00000000e-01  3.13894708e-09  4.58006248e-01  3.49650046e-09  4.58006248e-01  4.58006248e-01  4.58006248e-01  3.44479407e-09  1.58518949e-07  9.25148171e-08  7.00000000e-01 
 7.10000000e-01  3.13894708e-09  4.58006230e-01  3.49650046e-09  4.58006230e-01  4.58006230e-01  4.58006230e-01  3.44479413e-09  1.58518924e-07  9.25145756e-08  7.10000000e-01 
 7.20000000e-01  3.13894708e-09  4.58006233e-01  3.49650046e-09  4.58006233e-01  4.58006233e-01  4.58006233e-01  3.44479407e-09  1.58518930e-07  9.25145969e-08  7.20000000e-01 
 7.30000000e-01  3.13894708e-09  4.58006229e-01  3.49650046e-09  4.58006229e-01  4.58006229e-01  4.58006229e-01  3.44479407e-09  1.58518915e-07  9.25144619e-08  7.30000000e-01 
 7.40000000e-01  3.13894708e-09  4.58006237e-01  3.49650051e-09  4.58006237e-01  4.58006237e-01  4.58006237e-01  3.44479407e-09  1.58518947e-07  9.25145471e-08  7.40000000e-01 
 7.50000000e-01  3.13894708e-09  4.58006223e-01  3.49650045e-09  4.58006223e-01  4.58006223e-01  4.58006223e-01  3.44479407e-09  1.58518912e-07  9.25144263e-08  7.50000000e-01 
 7.60000000e-01  3.13894702e-09  4.58006217e-01  3.49650045e-09  4.58006217e-01  4.58006217e-01  4.58006217e-01  3.44479407e-09  1.58518915e-07  9.25142984e-08  7.60000000e-01 
 7.70000000e-01  3.13894708e-09  4.58006242e-01  3.49650046e-09  4.58006242e-01  4.58006242e-01  4.58006242e-01  3.44479407e-09  1.58518945e-07  9.25141848e-08  7.70000000e-01 
 7.80000000e-01  3.13894708e-09  4.58006234e-01  3.49650046e-09  4.58006234e-01  4.58006234e-01  4.58006234e-01  3.44479407e-09  1.58518926e-07  9.25142558e-08  7.80000000e-01 
 7.90000000e-01  3.13894708e-09  4.58006221e-01  3.49650045e-09  4.58006221e-01  4.58006221e-01  4.58006221e-01  3.44479413e-09  1.58518918e-07  9.25140924e-08  7.90000000e-01 
 8.00000000e-01  3.13894708e-09  4.58006251e-01  3.49650046e-09  4.58006251e-01  4.58006251e-01  4.58006251e-01  3.44479413e-09  1.58518951e-07  9.25140142e-08  8.00000000e-01 
 8.10000000e-01  3.13894708e-09  4.58006212e-01  3.49650045e-09  4.58006212e-01  4.58006212e-01  4.58006212e-01  3.44479407e-09  1.58518902e-07  9.25138011e-08  8.10000000e-01 
 8.20000000e-01  3.13894708e-09  4.58006248e-01  3.49650046e-09  4.58006248e-01  4.58006248e-01  4.58006248e-01  3.44479413e-09  1.58518948e-07  9.25139858e-08  8.20000000e-01 
 8.30000000e-01  3.13894708e-09  4.58006246e-01  3.49650046e-09  4.58006246e-01  4.58006246e-01  4.58006246e-01  3.44479407e-09  1.58518934e-07  9.25137869e-08  8.30000000e-01 
 8.40000000e-01  3.13894708e-09  4.58006245e-01  3.49650046e-09  4.58006245e-01  4.58006245e-01  4.58006245e-01  3.44479413e-09  1.58518954e-07  9.25137513e-08  8.40000000e-01 
 8.50000000e-01  3.13894708e-09  4.58006223e-01  3.49650045e-09  4.58006223e-01  4.58006223e-01  4.58006223e-01  3.44479413e-09  1.58518913e-07  9.25136234e-08  8.50000000e-01 
 8.60000000e-01  3.13894708e-09  4.58006247e-01  3.49650046e-09  4.58006247e-01  4.58006247e-01  4.58006247e-01  3.44479413e-09  1.58518957e-07  9.25136092e-08  8.60000000e-01 
 8.70000000e-01  3.13894708e-09  4.58006254e-01  3.49650046e-09  4.58006254e-01  4.58006253e-01  4.58006254e-01  3.44479407e-09  1.58518960e-07  9.25134955e-08  8.70000000e-01 
 8.80000000e-01  3.13894708e-09  4.58006245e-01  3.49650046e-09  4.58006246e-01  4.58006245e-01  4.58006246e-01  3.44479407e-09  1.58518934e-07  9.25134529e-08  8.80000000e-01 
 8.90000000e-01  3.13894708e-09  4.58006220e-01  3.49650045e-09  4.58006220e-01  4.58006220e-01  4.58006220e-01  3.44479413e-09  1.58518918e-07  9.25133179e-08  8.90000000e-01 
 9.00000000e-01  3.13894708e-09  4.58006249e-01  3.49650046e-09  4.58006249e-01  4.58006249e-01  4.58006249e-01  3.44479413e-09  1.58518965e-07  9.25132753e-08  9.00000000e-01 
 9.10000000e-01  3.13894708e-09  4.58006253e-01  3.49650046e-09  4.58006253e-01  4.58006253e-01  4.58006253e-01  3.44479407e-09  1.58518948e-07  9.25132113e-08  9.10000000e-01 
 9.20000000e-01  3.13894708e-09  4.58006269e-01  3.49650046e-09  4.58006269e-01  4.58006269e-01  4.58006269e-01  3.44479407e-09  1.58518990e-07  9.25131829e-08  9.20000000e-01 
 9.30000000e-01  3.13894708e-09  4.58006223e-01  3.49650045e-09  4.58006223e-01  4.58006223e-01  4.58006224e-01  3.44479413e-09  1.58518911e-07  9.25129982e-08  9.30000000e-01 
 9.40000000e-01  3.13894708e-09  4.58006244e-01  3.49650046e-09  4.58006244e-01  4.58006244e-01  4.58006244e-01  3.44479407e-09  1.58518944e-07  9.25130692e-08  9.40000000e-01 
 9.50000000e-01  3.13894708e-09  4.58006232e-01  3.49650046e-09  4.58006232e-01  4.58006232e-01  4.58006232e-01  3.44479413e-09  1.58518927e-07  9.25128489e-08  9.50000000e-01 
 9.60000000e-01  3.13894708e-09  4.58006224e-01  3.49650045e-09  4.58006224e-01  4.58006224e-01  4.58006225e-01  3.44479407e-09  1.58518920e-07  9.25128347e-08  9.60000000e-01 
 9.70000000e-01  3.13894708e-09  4.58006227e-01  3.49650046e-09  4.58006227e-01  4.58006227e-01  4.58006227e-01  3.44479407e-09  1.58518913e-07  9.25126926e-08  9.70000000e-01 
 9.80000000e-01  3.13894708e-09  4.58006257e-01  3.49650046e-09  4.58006258e-01  4.58006257e-01  4.58006258e-01  3.44479407e-09  1.58518953e-07  9.25127566e-08  9.80000000e-01 
 9.90000000e-01  3.13894708e-09  4.58006244e-01  3.49650046e-09  4.58006244e-01  4.58006244e-01  4.58006244e-01  3.44479407e-09  1.58518940e-07  9.25125718e-08  9.90000000e-01 
 1.00000000e+00  3.13894708e-09  4.58006232e-01  3.49650046e-09  4.58006232e-01  4.58006232e-01  4.58006232e-01  3.44479407e-09  1.58518929e-07  9.25124723e-08  1.00000000e+00 
 1.01000000e+00  3.13894708e-09  4.58006247e-01  3.49650046e-09  4.58006247e-01  4.58006247e-01  4.58006247e-01  3.44479407e-09  1.58518965e-07  9.25124795e-08  1.01000000e+00 
 1.02000000e+00  3.13894708e-09  4.58006230e-01  3.49650046e-09  4.58006230e-01  4.58006230e-01  4.58006230e-01  3.44479407e-09  1.58518923e-07  9.25124155e-08  1.02000000e+00 
 1.03000000e+00  3.13894708e-09  4.58006225e-01  3.49650046e-09  4.58006225e-01  4.58006225e-01  4.58006225e-01  3.44479407e-09  1.58518918e-07  9.25122592e-08  1.03000000e+00 
 1.04000000e+00  3.13894708e-09  4.58006258e-01  3.49650046e-09  4.58006258e-01  4.58006258e-01  4.58006258e-01  3.44479413e-09  1.58518960e-07  9.25121597e-08  1.04000000e+00 
 1.05000000e+00  3.13894708e-09  4.58006213e-01  3.49650045e-09  4.58006213e-01  4.58006213e-01  4.58006213e-01  3.44479407e-09  1.58518904e-07  9.25120318e-08  1.05000000e+00 
 1.06000000e+00  3.13894708e-09  4.58006271e-01  3.49650046e-09  4.58006271e-01  4.58006271e-01  4.58006271e-01  3.44479413e-09  1.58518987e-07  9.25121313e-08  1.06000000e+00 
 1.07000000e+00  3.13894708e-09  4.58006242e-01  3.49650046e-09  4.58006242e-01  4.58006242e-01  4.58006242e-01  3.44479407e-09  1.58518930e-07  9.25120247e-08  1.07000000e+00 
 1.08000000e+00  3.13894702e-09  4.58006251e-01  3.49650046e-09  4.58006251e-01  4.58006251e-01  4.58006251e-01  3.44479407e-09  1.58518958e-07  9.25118613e-08  1.08000000e+00 
 1.09000000e+00  3.13894708e-09  4.58006224e-01  3.49650045e-09  4.58006224e-01  4.58006224e-01  4.58006224e-01  3.44479407e-09  1.58518919e-07  9.25117973e-08  1.09000000e+00 
 1.10000000e+00  3.13894708e-09  4.58006262e-01  3.49650046e-09  4.58006262e-01  4.58006262e-01  4.58006262e-01  3.44479407e-09  1.58518973e-07  9.25118258e-08  1.10000000e+00 
