 v-sweep         v(b0)           v(b1)           v(b2)           v(b3)           v(b4)           v(b5)           v(b6)           i(vbias)        i(viout)        v(vout)        
 0.00000000e+00  3.34761629e-09  3.29697608e-09  3.49071806e-09  4.55336010e-01  3.37043756e-09  4.55336010e-01  3.34802060e-09  1.52771917e-07  5.50563903e-08  0.00000000e+00 
 1.00000000e-02  3.34761628e-09  3.29697608e-09  3.49071806e-09  4.55336025e-01  3.37043756e-09  4.55336025e-01  3.34802060e-09  1.52771942e-07  5.50559595e-08  1.00000000e-02 
 2.00000000e-02  3.34761622e-09  3.29697608e-09  3.49071800e-09  4.55336030e-01  3.37043756e-09  4.55336030e-01  3.34802060e-09  1.52771948e-07  5.50555193e-08  2.00000000e-02 
 3.00000000e-02  3.34761622e-09  3.29697607e-09  3.49071805e-09  4.55335994e-01  3.37043756e-09  4.55335994e-01  3.34802060e-09  1.52771902e-07  5.50552057e-08  3.00000000e-02 
 4.00000000e-02  3.34761628e-09  3.29697607e-09  3.49071805e-09  4.55336003e-01  3.37043756e-09  4.55336003e-01  3.34802066e-09  1.52771918e-07  5.50549069e-08  4.00000000e-02 
 5.00000000e-02  3.34761628e-09  3.29697608e-09  3.49071800e-09  4.55336019e-01  3.37043756e-09  4.55336019e-01  3.34802059e-09  1.52771919e-07  5.50545778e-08  5.00000000e-02 
 6.00000000e-02  3.34761628e-09  3.29697608e-09  3.49071805e-09  4.55336006e-01  3.37043756e-09  4.55336006e-01  3.34802061e-09  1.52771913e-07  5.50542341e-08  6.00000000e-02 
 7.00000000e-02  3.34761628e-09  3.29697608e-09  3.49071805e-09  4.55336013e-01  3.37043756e-09  4.55336013e-01  3.34802060e-09  1.52771923e-07  5.50539405e-08  7.00000000e-02 
 8.00000000e-02  3.34761628e-09  3.29697608e-09  3.49071805e-09  4.55336009e-01  3.37043750e-09  4.55336009e-01  3.34802066e-09  1.52771915e-07  5.50536203e-08  8.00000000e-02 
 9.00000000e-02  3.34761628e-09  3.29697607e-09  3.49071800e-09  4.55335994e-01  3.37043757e-09  4.55335994e-01  3.34802059e-09  1.52771900e-07  5.50533086e-08  9.00000000e-02 
 1.00000000e-01  3.34761628e-09  3.29697607e-09  3.49071805e-09  4.55335993e-01  3.37043755e-09  4.55335993e-01  3.34802066e-09  1.52771891e-07  5.50531443e-08  1.00000000e-01 
 1.10000000e-01  3.34761628e-09  3.29697608e-09  3.49071806e-09  4.55336030e-01  3.37043757e-09  4.55336030e-01  3.34802059e-09  1.52771954e-07  5.50530146e-08  1.10000000e-01 
 1.20000000e-01  3.34761628e-09  3.29697608e-09  3.49071800e-09  4.55336019e-01  3.37043755e-09  4.55336019e-01  3.34802061e-09  1.52771927e-07  5.50525341e-08  1.20000000e-01 
 1.30000000e-01  3.34761628e-09  3.29697608e-09  3.49071805e-09  4.55336015e-01  3.37043757e-09  4.55336015e-01  3.34802066e-09  1.52771926e-07  5.50523653e-08  1.30000000e-01 
 1.40000000e-01  3.34761628e-09  3.29697608e-09  3.49071800e-09  4.55336012e-01  3.37043755e-09  4.55336012e-01  3.34802059e-09  1.52771919e-07  5.50522241e-08  1.40000000e-01 
 1.50000000e-01  3.34761628e-09  3.29697607e-09  3.49071800e-09  4.55336004e-01  3.37043757e-09  4.55336004e-01  3.34802061e-09  1.52771908e-07  5.50518795e-08  1.50000000e-01 
 1.60000000e-01  3.34761622e-09  3.29697607e-09  3.49071800e-09  4.55336005e-01  3.37043755e-09  4.55336004e-01  3.34802060e-09  1.52771939e-07  5.50517925e-08  1.60000000e-01 
 1.70000000e-01  3.34761628e-09  3.29697608e-09  3.49071800e-09  4.55336013e-01  3.37043757e-09  4.55336012e-01  3.34802066e-09  1.52771916e-07  5.50516841e-08  1.70000000e-01 
 1.80000000e-01  3.34761628e-09  3.29697607e-09  3.49071800e-09  4.55336000e-01  3.37043755e-09  4.55336000e-01  3.34802059e-09  1.52771905e-07  5.50513768e-08  1.80000000e-01 
 1.90000000e-01  3.34761628e-09  3.29697608e-09  3.49071805e-09  4.55336014e-01  3.37043751e-09  4.55336014e-01  3.34802061e-09  1.52771932e-07  5.50511903e-08  1.90000000e-01 
 2.00000000e-01  3.34761628e-09  3.29697607e-09  3.49071800e-09  4.55335998e-01  3.37043751e-09  4.55335997e-01  3.34802060e-09  1.52771912e-07  5.50510801e-08  2.00000000e-01 
 2.10000000e-01  3.34761622e-09  3.29697602e-09  3.49071805e-09  4.55336018e-01  3.37043756e-09  4.55336018e-01  3.34802060e-09  1.52771946e-07  5.50508794e-08  2.10000000e-01 
 2.20000000e-01  3.34761628e-09  3.29697609e-09  3.49071805e-09  4.55335997e-01  3.37043755e-09  4.55335997e-01  3.34802060e-09  1.52771894e-07  5.50506805e-08  2.20000000e-01 
 2.30000000e-01  3.34761628e-09  3.29697607e-09  3.49071800e-09  4.55336000e-01  3.37043757e-09  4.55336000e-01  3.34802066e-09  1.52771902e-07  5.50506254e-08  2.30000000e-01 
 2.40000000e-01  3.34761628e-09  3.29697609e-09  3.49071800e-09  4.55336014e-01  3.37043755e-09  4.55336014e-01  3.34802064e-09  1.52771920e-07  5.50504460e-08  2.40000000e-01 
 2.50000000e-01  3.34761628e-09  3.29697607e-09  3.49071800e-09  4.55335997e-01  3.37043757e-09  4.55335997e-01  3.34802065e-09  1.52771902e-07  5.50503536e-08  2.50000000e-01 
 2.60000000e-01  3.34761628e-09  3.29697609e-09  3.49071805e-09  4.55336006e-01  3.37043755e-09  4.55336006e-01  3.34802059e-09  1.52771924e-07  5.50500943e-08  2.60000000e-01 
 2.70000000e-01  3.34761628e-09  3.29697607e-09  3.49071800e-09  4.55335998e-01  3.37043757e-09  4.55335998e-01  3.34802061e-09  1.52771911e-07  5.50501493e-08  2.70000000e-01 
 2.80000000e-01  3.34761628e-09  3.29697609e-09  3.49071800e-09  4.55336007e-01  3.37043755e-09  4.55336006e-01  3.34802066e-09  1.52771928e-07  5.50499930e-08  2.80000000e-01 
 2.90000000e-01  3.34761628e-09  3.29697607e-09  3.49071805e-09  4.55336003e-01  3.37043757e-09  4.55336002e-01  3.34802064e-09  1.52771910e-07  5.50498598e-08  2.90000000e-01 
 3.00000000e-01  3.34761628e-09  3.29697603e-09  3.49071805e-09  4.55335988e-01  3.37043755e-09  4.55335988e-01  3.34802065e-09  1.52771882e-07  5.50497070e-08  3.00000000e-01 
 3.10000000e-01  3.34761628e-09  3.29697608e-09  3.49071800e-09  4.55336003e-01  3.37043751e-09  4.55336003e-01  3.34802059e-09  1.52771900e-07  5.50495542e-08  3.10000000e-01 
 3.20000000e-01  3.34761628e-09  3.29697607e-09  3.49071800e-09  4.55336013e-01  3.37043756e-09  4.55336013e-01  3.34802061e-09  1.52771928e-07  5.50495081e-08  3.20000000e-01 
 3.30000000e-01  3.34761628e-09  3.29697609e-09  3.49071800e-09  4.55336027e-01  3.37043755e-09  4.55336027e-01  3.34802060e-09  1.52771940e-07  5.50495010e-08  3.30000000e-01 
 3.40000000e-01  3.34761622e-09  3.29697607e-09  3.49071806e-09  4.55336022e-01  3.37043751e-09  4.55336022e-01  3.34802060e-09  1.52771957e-07  5.50494867e-08  3.40000000e-01 
 3.50000000e-01  3.34761628e-09  3.29697609e-09  3.49071805e-09  4.55336002e-01  3.37043751e-09  4.55336002e-01  3.34802060e-09  1.52771914e-07  5.50493695e-08  3.50000000e-01 
 3.60000000e-01  3.34761628e-09  3.29697607e-09  3.49071805e-09  4.55336021e-01  3.37043756e-09  4.55336020e-01  3.34802066e-09  1.52771928e-07  5.50492452e-08  3.60000000e-01 
 3.70000000e-01  3.34761628e-09  3.29697603e-09  3.49071805e-09  4.55336009e-01  3.37043755e-09  4.55336009e-01  3.34802059e-09  1.52771921e-07  5.50490391e-08  3.70000000e-01 
 3.80000000e-01  3.34761628e-09  3.29697608e-09  3.49071800e-09  4.55336028e-01  3.37043751e-09  4.55336028e-01  3.34802061e-09  1.52771955e-07  5.50491457e-08  3.80000000e-01 
 3.90000000e-01  3.34761628e-09  3.29697607e-09  3.49071805e-09  4.55336006e-01  3.37043756e-09  4.55336006e-01  3.34802060e-09  1.52771917e-07  5.50488970e-08  3.90000000e-01 
 4.00000000e-01  3.34761628e-09  3.29697603e-09  3.49071805e-09  4.55336013e-01  3.37043755e-09  4.55336013e-01  3.34802066e-09  1.52771926e-07  5.50488863e-08  4.00000000e-01 
 4.10000000e-01  3.34761628e-09  3.29697608e-09  3.49071800e-09  4.55336021e-01  3.37043751e-09  4.55336020e-01  3.34802064e-09  1.52771931e-07  5.50487762e-08  4.10000000e-01 
 4.20000000e-01  3.34761628e-09  3.29697607e-09  3.49071805e-09  4.55335998e-01  3.37043756e-09  4.55335998e-01  3.34802059e-09  1.52771903e-07  5.50487016e-08  4.20000000e-01 
 4.30000000e-01  3.34761628e-09  3.29697609e-09  3.49071800e-09  4.55336006e-01  3.37043755e-09  4.55336006e-01  3.34802061e-09  1.52771913e-07  5.50486270e-08  4.30000000e-01 
 4.40000000e-01  3.34761628e-09  3.29697607e-09  3.49071800e-09  4.55336014e-01  3.37043751e-09  4.55336014e-01  3.34802060e-09  1.52771922e-07  5.50484138e-08  4.40000000e-01 
 4.50000000e-01  3.34761628e-09  3.29697603e-09  3.49071800e-09  4.55335997e-01  3.37043756e-09  4.55335997e-01  3.34802060e-09  1.52771900e-07  5.50486412e-08  4.50000000e-01 
 4.60000000e-01  3.34761622e-09  3.29697608e-09  3.49071800e-09  4.55336003e-01  3.37043755e-09  4.55336003e-01  3.34802060e-09  1.52771920e-07  5.50483854e-08  4.60000000e-01 
 4.70000000e-01  3.34761628e-09  3.29697607e-09  3.49071805e-09  4.55336018e-01  3.37043757e-09  4.55336018e-01  3.34802066e-09  1.52771928e-07  5.50483890e-08  4.70000000e-01 
 4.80000000e-01  3.34761628e-09  3.29697609e-09  3.49071805e-09  4.55336011e-01  3.37043755e-09  4.55336011e-01  3.34802059e-09  1.52771928e-07  5.50483499e-08  4.80000000e-01 
 4.90000000e-01  3.34761628e-09  3.29697607e-09  3.49071805e-09  4.55335995e-01  3.37043757e-09  4.55335995e-01  3.34802061e-09  1.52771903e-07  5.50481438e-08  4.90000000e-01 
 5.00000000e-01  3.34761628e-09  3.29697609e-09  3.49071805e-09  4.55335996e-01  3.37043755e-09  4.55335996e-01  3.34802066e-09  1.52771905e-07  5.50481118e-08  5.00000000e-01 
 5.10000000e-01  3.34761628e-09  3.29697607e-09  3.49071800e-09  4.55335995e-01  3.37043757e-09  4.55335995e-01  3.34802064e-09  1.52771906e-07  5.50480976e-08  5.10000000e-01 
 5.20000000e-01  3.34761628e-09  3.29697603e-09  3.49071805e-09  4.55336016e-01  3.37043755e-09  4.55336015e-01  3.34802059e-09  1.52771944e-07  5.50481865e-08  5.20000000e-01 
 5.30000000e-01  3.34761628e-09  3.29697608e-09  3.49071800e-09  4.55336002e-01  3.37043757e-09  4.55336002e-01  3.34802061e-09  1.52771915e-07  5.50478880e-08  5.30000000e-01 
 5.40000000e-01  3.34761628e-09  3.29697607e-09  3.49071805e-09  4.55335995e-01  3.37043755e-09  4.55335994e-01  3.34802066e-09  1.52771907e-07  5.50478170e-08  5.40000000e-01 
 5.50000000e-01  3.34761628e-09  3.29697609e-09  3.49071805e-09  4.55335991e-01  3.37043751e-09  4.55335991e-01  3.34802064e-09  1.52771902e-07  5.50477885e-08  5.50000000e-01 
 5.60000000e-01  3.34761628e-09  3.29697607e-09  3.49071806e-09  4.55336026e-01  3.37043756e-09  4.55336026e-01  3.34802059e-09  1.52771952e-07  5.50477317e-08  5.60000000e-01 
 5.70000000e-01  3.34761628e-09  3.29697603e-09  3.49071800e-09  4.55336017e-01  3.37043755e-09  4.55336017e-01  3.34802061e-09  1.52771926e-07  5.50477175e-08  5.70000000e-01 
 5.80000000e-01  3.34761628e-09  3.29697608e-09  3.49071800e-09  4.55336005e-01  3.37043751e-09  4.55336005e-01  3.34802066e-09  1.52771906e-07  5.50476713e-08  5.80000000e-01 
 5.90000000e-01  3.34761628e-09  3.29697607e-09  3.49071800e-09  4.55335989e-01  3.37043756e-09  4.55335989e-01  3.34802064e-09  1.52771887e-07  5.50476003e-08  5.90000000e-01 
 6.00000000e-01  3.34761628e-09  3.29697603e-09  3.49071806e-09  4.55336034e-01  3.37043755e-09  4.55336034e-01  3.34802059e-09  1.52771954e-07  5.50474937e-08  6.00000000e-01 
 6.10000000e-01  3.34761622e-09  3.29697608e-09  3.49071805e-09  4.55336011e-01  3.37043757e-09  4.55336010e-01  3.34802061e-09  1.52771910e-07  5.50475292e-08  6.10000000e-01 
 6.20000000e-01  3.34761628e-09  3.29697607e-09  3.49071800e-09  4.55336015e-01  3.37043755e-09  4.55336014e-01  3.34802060e-09  1.52771934e-07  5.50473729e-08  6.20000000e-01 
 6.30000000e-01  3.34761628e-09  3.29697603e-09  3.49071805e-09  4.55336016e-01  3.37043757e-09  4.55336016e-01  3.34802066e-09  1.52771921e-07  5.50473445e-08  6.30000000e-01 
 6.40000000e-01  3.34761628e-09  3.29697608e-09  3.49071800e-09  4.55336000e-01  3.37043755e-09  4.55336000e-01  3.34802059e-09  1.52771900e-07  5.50473729e-08  6.40000000e-01 
 6.50000000e-01  3.34761628e-09  3.29697607e-09  3.49071800e-09  4.55336029e-01  3.37043757e-09  4.55336029e-01  3.34802061e-09  1.52771943e-07  5.50473018e-08  6.50000000e-01 
 6.60000000e-01  3.34761628e-09  3.29697609e-09  3.49071805e-09  4.55335983e-01  3.37043755e-09  4.55335983e-01  3.34802066e-09  1.52771871e-07  5.50471313e-08  6.60000000e-01 
 6.70000000e-01  3.34761628e-09  3.29697607e-09  3.49071805e-09  4.55336000e-01  3.37043757e-09  4.55335999e-01  3.34802059e-09  1.52771892e-07  5.50471100e-08  6.70000000e-01 
 6.80000000e-01  3.34761622e-09  3.29697603e-09  3.49071800e-09  4.55336008e-01  3.37043755e-09  4.55336008e-01  3.34802061e-09  1.52771919e-07  5.50471384e-08  6.80000000e-01 
 6.90000000e-01  3.34761622e-09  3.29697608e-09  3.49071805e-09  4.55336014e-01  3.37043757e-09  4.55336014e-01  3.34802060e-09  1.52771924e-07  5.50470176e-08  6.90000000e-01 
 7.00000000e-01  3.34761628e-09  3.29697607e-09  3.49071805e-09  4.55336017e-01  3.37043755e-09  4.55336017e-01  3.34802060e-09  1.52771927e-07  5.50469608e-08  7.00000000e-01 
 7.10000000e-01  3.34761628e-09  3.29697603e-09  3.49071800e-09  4.55336002e-01  3.37043751e-09  4.55336002e-01  3.34802060e-09  1.52771909e-07  5.50468542e-08  7.10000000e-01 
 7.20000000e-01  3.34761628e-09  3.29697608e-09  3.49071806e-09  4.55336022e-01  3.37043751e-09  4.55336022e-01  3.34802060e-09  1.52771948e-07  5.50468044e-08  7.20000000e-01 
 7.30000000e-01  3.34761628e-09  3.29697607e-09  3.49071800e-09  4.55336013e-01  3.37043751e-09  4.55336013e-01  3.34802066e-09  1.52771929e-07  5.50467902e-08  7.30000000e-01 
 7.40000000e-01  3.34761628e-09  3.29697603e-09  3.49071805e-09  4.55336003e-01  3.37043756e-09  4.55336003e-01  3.34802059e-09  1.52771901e-07  5.50467689e-08  7.40000000e-01 
 7.50000000e-01  3.34761628e-09  3.29697608e-09  3.49071805e-09  4.55336014e-01  3.37043755e-09  4.55336014e-01  3.34802061e-09  1.52771925e-07  5.50466623e-08  7.50000000e-01 
 7.60000000e-01  3.34761622e-09  3.29697607e-09  3.49071800e-09  4.55336000e-01  3.37043757e-09  4.55336000e-01  3.34802060e-09  1.52771905e-07  5.50465487e-08  7.60000000e-01 
 7.70000000e-01  3.34761628e-09  3.29697609e-09  3.49071806e-09  4.55336032e-01  3.37043755e-09  4.55336032e-01  3.34802060e-09  1.52771957e-07  5.50465629e-08  7.70000000e-01 
 7.80000000e-01  3.34761622e-09  3.29697607e-09  3.49071805e-09  4.55335983e-01  3.37043757e-09  4.55335983e-01  3.34802066e-09  1.52771862e-07  5.50463639e-08  7.80000000e-01 
 7.90000000e-01  3.34761628e-09  3.29697609e-09  3.49071800e-09  4.55336007e-01  3.37043755e-09  4.55336007e-01  3.34802059e-09  1.52771922e-07  5.50462573e-08  7.90000000e-01 
 8.00000000e-01  3.34761622e-09  3.29697607e-09  3.49071800e-09  4.55336001e-01  3.37043757e-09  4.55336001e-01  3.34802066e-09  1.52771906e-07  5.50463142e-08  8.00000000e-01 
 8.10000000e-01  3.34761628e-09  3.29697609e-09  3.49071800e-09  4.55336010e-01  3.37043755e-09  4.55336010e-01  3.34802059e-09  1.52771915e-07  5.50462502e-08  8.10000000e-01 
 8.20000000e-01  3.34761628e-09  3.29697607e-09  3.49071805e-09  4.55336016e-01  3.37043757e-09  4.55336015e-01  3.34802061e-09  1.52771936e-07  5.50463213e-08  8.20000000e-01 
 8.30000000e-01  3.34761622e-09  3.29697609e-09  3.49071806e-09  4.55336026e-01  3.37043755e-09  4.55336026e-01  3.34802060e-09  1.52771955e-07  5.50462218e-08  8.30000000e-01 
 8.40000000e-01  3.34761622e-09  3.29697607e-09  3.49071800e-09  4.55336023e-01  3.37043751e-09  4.55336022e-01  3.34802066e-09  1.52771946e-07  5.50462502e-08  8.40000000e-01 
 8.50000000e-01  3.34761628e-09  3.29697603e-09  3.49071800e-09  4.55336007e-01  3.37043751e-09  4.55336007e-01  3.34802064e-09  1.52771915e-07  5.50460868e-08  8.50000000e-01 
 8.60000000e-01  3.34761628e-09  3.29697608e-09  3.49071805e-09  4.55335997e-01  3.37043756e-09  4.55335997e-01  3.34802065e-09  1.52771915e-07  5.50461436e-08  8.60000000e-01 
 8.70000000e-01  3.34761628e-09  3.29697607e-09  3.49071800e-09  4.55336028e-01  3.37043755e-09  4.55336028e-01  3.34802059e-09  1.52771943e-07  5.50460157e-08  8.70000000e-01 
 8.80000000e-01  3.34761628e-09  3.29697609e-09  3.49071805e-09  4.55335994e-01  3.37043757e-09  4.55335994e-01  3.34802061e-09  1.52771891e-07  5.50457742e-08  8.80000000e-01 
 8.90000000e-01  3.34761628e-09  3.29697607e-09  3.49071800e-09  4.55336015e-01  3.37043755e-09  4.55336014e-01  3.34802060e-09  1.52771921e-07  5.50457884e-08  8.90000000e-01 
 9.00000000e-01  3.34761628e-09  3.29697609e-09  3.49071805e-09  4.55336006e-01  3.37043751e-09  4.55336006e-01  3.34802060e-09  1.52771926e-07  5.50455823e-08  9.00000000e-01 
 9.10000000e-01  3.34761628e-09  3.29697607e-09  3.49071800e-09  4.55336009e-01  3.37043756e-09  4.55336009e-01  3.34802060e-09  1.52771932e-07  5.50456534e-08  9.10000000e-01 
 9.20000000e-01  3.34761628e-09  3.29697609e-09  3.49071800e-09  4.55336003e-01  3.37043755e-09  4.55336003e-01  3.34802066e-09  1.52771898e-07  5.50456036e-08  9.20000000e-01 
 9.30000000e-01  3.34761628e-09  3.29697607e-09  3.49071800e-09  4.55336003e-01  3.37043757e-09  4.55336002e-01  3.34802064e-09  1.52771909e-07  5.50454544e-08  9.30000000e-01 
 9.40000000e-01  3.34761628e-09  3.29697603e-09  3.49071805e-09  4.55335984e-01  3.37043755e-09  4.55335983e-01  3.34802059e-09  1.52771888e-07  5.50453692e-08  9.40000000e-01 
 9.50000000e-01  3.34761622e-09  3.29697608e-09  3.49071800e-09  4.55336007e-01  3.37043751e-09  4.55336007e-01  3.34802061e-09  1.52771905e-07  5.50454544e-08  9.50000000e-01 
 9.60000000e-01  3.34761628e-09  3.29697607e-09  3.49071800e-09  4.55336006e-01  3.37043756e-09  4.55336006e-01  3.34802060e-09  1.52771911e-07  5.50453052e-08  9.60000000e-01 
 9.70000000e-01  3.34761628e-09  3.29697609e-09  3.49071805e-09  4.55336004e-01  3.37043755e-09  4.55336004e-01  3.34802060e-09  1.52771911e-07  5.50454260e-08  9.70000000e-01 
 9.80000000e-01  3.34761628e-09  3.29697607e-09  3.49071800e-09  4.55336003e-01  3.37043757e-09  4.55336003e-01  3.34802066e-09  1.52771909e-07  5.50453052e-08  9.80000000e-01 
 9.90000000e-01  3.34761628e-09  3.29697603e-09  3.49071805e-09  4.55336003e-01  3.37043755e-09  4.55336003e-01  3.34802059e-09  1.52771895e-07  5.50452199e-08  9.90000000e-01 
 1.00000000e+00  3.34761628e-09  3.29697608e-09  3.49071800e-09  4.55336007e-01  3.37043757e-09  4.55336007e-01  3.34802066e-09  1.52771915e-07  5.50450707e-08  1.00000000e+00 
 1.01000000e+00  3.34761628e-09  3.29697607e-09  3.49071806e-09  4.55336024e-01  3.37043755e-09  4.55336024e-01  3.34802065e-09  1.52771948e-07  5.50451205e-08  1.01000000e+00 
 1.02000000e+00  3.34761628e-09  3.29697603e-09  3.49071800e-09  4.55336012e-01  3.37043751e-09  4.55336012e-01  3.34802065e-09  1.52771920e-07  5.50448362e-08  1.02000000e+00 
 1.03000000e+00  3.34761628e-09  3.29697608e-09  3.49071805e-09  4.55335990e-01  3.37043756e-09  4.55335990e-01  3.34802059e-09  1.52771895e-07  5.50448362e-08  1.03000000e+00 
 1.04000000e+00  3.34761628e-09  3.29697607e-09  3.49071805e-09  4.55336006e-01  3.37043755e-09  4.55336006e-01  3.34802066e-09  1.52771919e-07  5.50448220e-08  1.04000000e+00 
 1.05000000e+00  3.34761628e-09  3.29697603e-09  3.49071800e-09  4.55335997e-01  3.37043757e-09  4.55335997e-01  3.34802064e-09  1.52771907e-07  5.50447581e-08  1.05000000e+00 
 1.06000000e+00  3.34761628e-09  3.29697608e-09  3.49071805e-09  4.55336004e-01  3.37043755e-09  4.55336004e-01  3.34802059e-09  1.52771924e-07  5.50447439e-08  1.06000000e+00 
 1.07000000e+00  3.34761628e-09  3.29697613e-09  3.49071800e-09  4.55336012e-01  3.37043757e-09  4.55336012e-01  3.34802061e-09  1.52771906e-07  5.50447083e-08  1.07000000e+00 
 1.08000000e+00  3.34761628e-09  3.29697608e-09  3.49071800e-09  4.55336027e-01  3.37043755e-09  4.55336027e-01  3.34802066e-09  1.52771942e-07  5.50446373e-08  1.08000000e+00 
 1.09000000e+00  3.34761628e-09  3.29697607e-09  3.49071805e-09  4.55336004e-01  3.37043751e-09  4.55336004e-01  3.34802064e-09  1.52771920e-07  5.50445733e-08  1.09000000e+00 
 1.10000000e+00  3.34761628e-09  3.29697607e-09  3.49071805e-09  4.55335997e-01  3.37043756e-09  4.55335997e-01  3.34802059e-09  1.52771914e-07  5.50444668e-08  1.10000000e+00 
