 v-sweep         v(b0)           v(b1)           v(b2)           v(b3)           v(b4)           v(b5)           v(b6)           i(vbias)        i(viout)        v(vout)        
 0.00000000e+00  3.29634934e-09  3.36972731e-09  4.58782961e-01  4.58782961e-01  3.40977404e-09  4.58782961e-01  4.58782961e-01  1.58589759e-07  1.61056936e-07  0.00000000e+00 
 1.00000000e-02  3.29634937e-09  3.36972733e-09  4.58782970e-01  4.58782971e-01  3.40977401e-09  4.58782970e-01  4.58782970e-01  1.58589775e-07  1.61056451e-07  1.00000000e-02 
 2.00000000e-02  3.29634937e-09  3.36972733e-09  4.58782984e-01  4.58782984e-01  3.40977401e-09  4.58782984e-01  4.58782984e-01  1.58589806e-07  1.61056173e-07  2.00000000e-02 
 3.00000000e-02  3.29634937e-09  3.36972734e-09  4.58783021e-01  4.58783022e-01  3.40977406e-09  4.58783022e-01  4.58783022e-01  1.58589857e-07  1.61055793e-07  3.00000000e-02 
 4.00000000e-02  3.29634937e-09  3.36972733e-09  4.58782958e-01  4.58782958e-01  3.40977401e-09  4.58782958e-01  4.58782958e-01  1.58589757e-07  1.61055242e-07  4.00000000e-02 
 5.00000000e-02  3.29634937e-09  3.36972734e-09  4.58783002e-01  4.58783002e-01  3.40977401e-09  4.58783002e-01  4.58783002e-01  1.58589822e-07  1.61054940e-07  5.00000000e-02 
 6.00000000e-02  3.29634937e-09  3.36972734e-09  4.58783007e-01  4.58783007e-01  3.40977406e-09  4.58783007e-01  4.58783007e-01  1.58589831e-07  1.61054601e-07  6.00000000e-02 
 7.00000000e-02  3.29634937e-09  3.36972733e-09  4.58782987e-01  4.58782987e-01  3.40977401e-09  4.58782987e-01  4.58782987e-01  1.58589797e-07  1.61054202e-07  7.00000000e-02 
 8.00000000e-02  3.29634937e-09  3.36972733e-09  4.58782984e-01  4.58782984e-01  3.40977406e-09  4.58782984e-01  4.58782984e-01  1.58589799e-07  1.61053886e-07  8.00000000e-02 
 9.00000000e-02  3.29634937e-09  3.36972734e-09  4.58782995e-01  4.58782996e-01  3.40977406e-09  4.58782995e-01  4.58782995e-01  1.58589815e-07  1.61053618e-07  9.00000000e-02 
 1.00000000e-01  3.29634937e-09  3.36972733e-09  4.58782990e-01  4.58782990e-01  3.40977406e-09  4.58782990e-01  4.58782990e-01  1.58589815e-07  1.61053221e-07  1.00000000e-01 
 1.10000000e-01  3.29634937e-09  3.36972733e-09  4.58782980e-01  4.58782980e-01  3.40977406e-09  4.58782980e-01  4.58782980e-01  1.58589791e-07  1.61052836e-07  1.10000000e-01 
 1.20000000e-01  3.29634937e-09  3.36972734e-09  4.58783004e-01  4.58783004e-01  3.40977401e-09  4.58783004e-01  4.58783004e-01  1.58589837e-07  1.61052781e-07  1.20000000e-01 
 1.30000000e-01  3.29634937e-09  3.36972733e-09  4.58782982e-01  4.58782982e-01  3.40977406e-09  4.58782982e-01  4.58782982e-01  1.58589790e-07  1.61052339e-07  1.30000000e-01 
 1.40000000e-01  3.29634937e-09  3.36972734e-09  4.58782994e-01  4.58782994e-01  3.40977406e-09  4.58782994e-01  4.58782994e-01  1.58589801e-07  1.61052125e-07  1.40000000e-01 
 1.50000000e-01  3.29634937e-09  3.36972734e-09  4.58783018e-01  4.58783018e-01  3.40977401e-09  4.58783018e-01  4.58783018e-01  1.58589853e-07  1.61052016e-07  1.50000000e-01 
 1.60000000e-01  3.29634937e-09  3.36972734e-09  4.58782993e-01  4.58782993e-01  3.40977401e-09  4.58782993e-01  4.58782993e-01  1.58589803e-07  1.61051636e-07  1.60000000e-01 
 1.70000000e-01  3.29634937e-09  3.36972734e-09  4.58783000e-01  4.58783001e-01  3.40977406e-09  4.58783001e-01  4.58783001e-01  1.58589820e-07  1.61051345e-07  1.70000000e-01 
 1.80000000e-01  3.29634937e-09  3.36972734e-09  4.58783001e-01  4.58783001e-01  3.40977401e-09  4.58783001e-01  4.58783001e-01  1.58589824e-07  1.61051208e-07  1.80000000e-01 
 1.90000000e-01  3.29634937e-09  3.36972733e-09  4.58782981e-01  4.58782981e-01  3.40977401e-09  4.58782981e-01  4.58782981e-01  1.58589794e-07  1.61050901e-07  1.90000000e-01 
 2.00000000e-01  3.29634937e-09  3.36972734e-09  4.58782995e-01  4.58782995e-01  3.40977401e-09  4.58782995e-01  4.58782995e-01  1.58589818e-07  1.61050796e-07  2.00000000e-01 
 2.10000000e-01  3.29634937e-09  3.36972734e-09  4.58782995e-01  4.58782995e-01  3.40977401e-09  4.58782995e-01  4.58782995e-01  1.58589813e-07  1.61050551e-07  2.10000000e-01 
 2.20000000e-01  3.29634937e-09  3.36972733e-09  4.58782993e-01  4.58782993e-01  3.40977401e-09  4.58782993e-01  4.58782993e-01  1.58589822e-07  1.61050263e-07  2.20000000e-01 
 2.30000000e-01  3.29634937e-09  3.36972734e-09  4.58783010e-01  4.58783010e-01  3.40977406e-09  4.58783010e-01  4.58783010e-01  1.58589840e-07  1.61050252e-07  2.30000000e-01 
 2.40000000e-01  3.29634937e-09  3.36972733e-09  4.58782979e-01  4.58782979e-01  3.40977401e-09  4.58782979e-01  4.58782979e-01  1.58589779e-07  1.61049941e-07  2.40000000e-01 
 2.50000000e-01  3.29634937e-09  3.36972733e-09  4.58782978e-01  4.58782978e-01  3.40977401e-09  4.58782978e-01  4.58782978e-01  1.58589801e-07  1.61049662e-07  2.50000000e-01 
 2.60000000e-01  3.29634937e-09  3.36972734e-09  4.58782994e-01  4.58782994e-01  3.40977401e-09  4.58782994e-01  4.58782994e-01  1.58589824e-07  1.61049632e-07  2.60000000e-01 
 2.70000000e-01  3.29634931e-09  3.36972733e-09  4.58782992e-01  4.58782992e-01  3.40977401e-09  4.58782992e-01  4.58782992e-01  1.58589803e-07  1.61049460e-07  2.70000000e-01 
 2.80000000e-01  3.29634931e-09  3.36972734e-09  4.58782999e-01  4.58782999e-01  3.40977401e-09  4.58782999e-01  4.58782999e-01  1.58589832e-07  1.61049325e-07  2.80000000e-01 
 2.90000000e-01  3.29634937e-09  3.36972734e-09  4.58782999e-01  4.58782999e-01  3.40977401e-09  4.58782999e-01  4.58782999e-01  1.58589825e-07  1.61049080e-07  2.90000000e-01 
 3.00000000e-01  3.29634937e-09  3.36972734e-09  4.58782997e-01  4.58782997e-01  3.40977401e-09  4.58782997e-01  4.58782997e-01  1.58589811e-07  1.61048835e-07  3.00000000e-01 
 3.10000000e-01  3.29634937e-09  3.36972733e-09  4.58782980e-01  4.58782980e-01  3.40977406e-09  4.58782980e-01  4.58782980e-01  1.58589785e-07  1.61048835e-07  3.10000000e-01 
 3.20000000e-01  3.29634931e-09  3.36972733e-09  4.58782973e-01  4.58782973e-01  3.40977401e-09  4.58782973e-01  4.58782973e-01  1.58589789e-07  1.61048643e-07  3.20000000e-01 
 3.30000000e-01  3.29634937e-09  3.36972733e-09  4.58782975e-01  4.58782975e-01  3.40977401e-09  4.58782975e-01  4.58782975e-01  1.58589781e-07  1.61048465e-07  3.30000000e-01 
 3.40000000e-01  3.29634937e-09  3.36972733e-09  4.58782983e-01  4.58782983e-01  3.40977401e-09  4.58782983e-01  4.58782983e-01  1.58589800e-07  1.61048355e-07  3.40000000e-01 
 3.50000000e-01  3.29634937e-09  3.36972734e-09  4.58782997e-01  4.58782997e-01  3.40977406e-09  4.58782997e-01  4.58782997e-01  1.58589827e-07  1.61048241e-07  3.50000000e-01 
 3.60000000e-01  3.29634937e-09  3.36972734e-09  4.58783000e-01  4.58783000e-01  3.40977401e-09  4.58783000e-01  4.58783000e-01  1.58589819e-07  1.61048085e-07  3.60000000e-01 
 3.70000000e-01  3.29634937e-09  3.36972734e-09  4.58782997e-01  4.58782997e-01  3.40977401e-09  4.58782997e-01  4.58782997e-01  1.58589811e-07  1.61047907e-07  3.70000000e-01 
 3.80000000e-01  3.29634931e-09  3.36972733e-09  4.58782976e-01  4.58782976e-01  3.40977401e-09  4.58782976e-01  4.58782976e-01  1.58589780e-07  1.61047669e-07  3.80000000e-01 
 3.90000000e-01  3.29634937e-09  3.36972733e-09  4.58782972e-01  4.58782973e-01  3.40977406e-09  4.58782973e-01  4.58782973e-01  1.58589770e-07  1.61047538e-07  3.90000000e-01 
 4.00000000e-01  3.29634937e-09  3.36972734e-09  4.58782994e-01  4.58782995e-01  3.40977406e-09  4.58782994e-01  4.58782994e-01  1.58589818e-07  1.61047446e-07  4.00000000e-01 
 4.10000000e-01  3.29634937e-09  3.36972734e-09  4.58783009e-01  4.58783010e-01  3.40977401e-09  4.58783010e-01  4.58783010e-01  1.58589829e-07  1.61047417e-07  4.10000000e-01 
 4.20000000e-01  3.29634937e-09  3.36972733e-09  4.58782965e-01  4.58782965e-01  3.40977401e-09  4.58782965e-01  4.58782965e-01  1.58589767e-07  1.61047137e-07  4.20000000e-01 
 4.30000000e-01  3.29634937e-09  3.36972733e-09  4.58782988e-01  4.58782988e-01  3.40977406e-09  4.58782988e-01  4.58782988e-01  1.58589801e-07  1.61047112e-07  4.30000000e-01 
 4.40000000e-01  3.29634937e-09  3.36972734e-09  4.58783011e-01  4.58783011e-01  3.40977406e-09  4.58783011e-01  4.58783011e-01  1.58589830e-07  1.61047115e-07  4.40000000e-01 
 4.50000000e-01  3.29634937e-09  3.36972733e-09  4.58782967e-01  4.58782967e-01  3.40977401e-09  4.58782967e-01  4.58782967e-01  1.58589778e-07  1.61046728e-07  4.50000000e-01 
 4.60000000e-01  3.29634937e-09  3.36972733e-09  4.58782978e-01  4.58782978e-01  3.40977406e-09  4.58782978e-01  4.58782978e-01  1.58589777e-07  1.61046739e-07  4.60000000e-01 
 4.70000000e-01  3.29634937e-09  3.36972733e-09  4.58782962e-01  4.58782962e-01  3.40977406e-09  4.58782962e-01  4.58782962e-01  1.58589770e-07  1.61046433e-07  4.70000000e-01 
 4.80000000e-01  3.29634937e-09  3.36972734e-09  4.58782995e-01  4.58782995e-01  3.40977401e-09  4.58782995e-01  4.58782995e-01  1.58589805e-07  1.61046476e-07  4.80000000e-01 
 4.90000000e-01  3.29634937e-09  3.36972734e-09  4.58782996e-01  4.58782996e-01  3.40977406e-09  4.58782996e-01  4.58782996e-01  1.58589789e-07  1.61046412e-07  4.90000000e-01 
 5.00000000e-01  3.29634937e-09  3.36972734e-09  4.58783006e-01  4.58783006e-01  3.40977401e-09  4.58783006e-01  4.58783006e-01  1.58589831e-07  1.61046287e-07  5.00000000e-01 
 5.10000000e-01  3.29634937e-09  3.36972734e-09  4.58782996e-01  4.58782996e-01  3.40977406e-09  4.58782996e-01  4.58782996e-01  1.58589809e-07  1.61046120e-07  5.10000000e-01 
 5.20000000e-01  3.29634937e-09  3.36972733e-09  4.58782973e-01  4.58782973e-01  3.40977406e-09  4.58782973e-01  4.58782973e-01  1.58589774e-07  1.61045989e-07  5.20000000e-01 
 5.30000000e-01  3.29634937e-09  3.36972734e-09  4.58783003e-01  4.58783004e-01  3.40977401e-09  4.58783003e-01  4.58783003e-01  1.58589828e-07  1.61045929e-07  5.30000000e-01 
 5.40000000e-01  3.29634937e-09  3.36972733e-09  4.58782982e-01  4.58782982e-01  3.40977401e-09  4.58782982e-01  4.58782982e-01  1.58589788e-07  1.61045794e-07  5.40000000e-01 
 5.50000000e-01  3.29634937e-09  3.36972734e-09  4.58782993e-01  4.58782993e-01  3.40977401e-09  4.58782993e-01  4.58782993e-01  1.58589802e-07  1.61045545e-07  5.50000000e-01 
 5.60000000e-01  3.29634937e-09  3.36972733e-09  4.58782991e-01  4.58782991e-01  3.40977401e-09  4.58782991e-01  4.58782991e-01  1.58589825e-07  1.61045502e-07  5.60000000e-01 
 5.70000000e-01  3.29634937e-09  3.36972733e-09  4.58782981e-01  4.58782981e-01  3.40977401e-09  4.58782981e-01  4.58782981e-01  1.58589787e-07  1.61045257e-07  5.70000000e-01 
 5.80000000e-01  3.29634937e-09  3.36972733e-09  4.58782984e-01  4.58782985e-01  3.40977401e-09  4.58782985e-01  4.58782985e-01  1.58589804e-07  1.61045193e-07  5.80000000e-01 
 5.90000000e-01  3.29634937e-09  3.36972733e-09  4.58782957e-01  4.58782957e-01  3.40977401e-09  4.58782957e-01  4.58782957e-01  1.58589761e-07  1.61045037e-07  5.90000000e-01 
 6.00000000e-01  3.29634937e-09  3.36972734e-09  4.58783001e-01  4.58783001e-01  3.40977401e-09  4.58783001e-01  4.58783001e-01  1.58589817e-07  1.61045079e-07  6.00000000e-01 
 6.10000000e-01  3.29634937e-09  3.36972734e-09  4.58783004e-01  4.58783004e-01  3.40977406e-09  4.58783004e-01  4.58783004e-01  1.58589820e-07  1.61044966e-07  6.10000000e-01 
 6.20000000e-01  3.29634937e-09  3.36972734e-09  4.58782995e-01  4.58782995e-01  3.40977406e-09  4.58782995e-01  4.58782995e-01  1.58589825e-07  1.61044753e-07  6.20000000e-01 
 6.30000000e-01  3.29634937e-09  3.36972733e-09  4.58782970e-01  4.58782970e-01  3.40977401e-09  4.58782970e-01  4.58782970e-01  1.58589790e-07  1.61044596e-07  6.30000000e-01 
 6.40000000e-01  3.29634937e-09  3.36972733e-09  4.58782972e-01  4.58782972e-01  3.40977401e-09  4.58782972e-01  4.58782972e-01  1.58589782e-07  1.61044561e-07  6.40000000e-01 
 6.50000000e-01  3.29634937e-09  3.36972734e-09  4.58782996e-01  4.58782996e-01  3.40977406e-09  4.58782996e-01  4.58782996e-01  1.58589820e-07  1.61044404e-07  6.50000000e-01 
 6.60000000e-01  3.29634937e-09  3.36972733e-09  4.58782983e-01  4.58782983e-01  3.40977401e-09  4.58782983e-01  4.58782983e-01  1.58589800e-07  1.61044234e-07  6.60000000e-01 
 6.70000000e-01  3.29634937e-09  3.36972734e-09  4.58783003e-01  4.58783003e-01  3.40977406e-09  4.58783003e-01  4.58783003e-01  1.58589841e-07  1.61044163e-07  6.70000000e-01 
 6.80000000e-01  3.29634937e-09  3.36972733e-09  4.58782969e-01  4.58782969e-01  3.40977401e-09  4.58782969e-01  4.58782969e-01  1.58589774e-07  1.61043999e-07  6.80000000e-01 
 6.90000000e-01  3.29634937e-09  3.36972733e-09  4.58782977e-01  4.58782977e-01  3.40977406e-09  4.58782977e-01  4.58782977e-01  1.58589786e-07  1.61043936e-07  6.90000000e-01 
 7.00000000e-01  3.29634937e-09  3.36972733e-09  4.58782974e-01  4.58782975e-01  3.40977401e-09  4.58782974e-01  4.58782974e-01  1.58589780e-07  1.61043779e-07  7.00000000e-01 
 7.10000000e-01  3.29634937e-09  3.36972734e-09  4.58783005e-01  4.58783005e-01  3.40977401e-09  4.58783005e-01  4.58783005e-01  1.58589834e-07  1.61043836e-07  7.10000000e-01 
 7.20000000e-01  3.29634937e-09  3.36972733e-09  4.58782990e-01  4.58782991e-01  3.40977406e-09  4.58782990e-01  4.58782990e-01  1.58589787e-07  1.61043559e-07  7.20000000e-01 
 7.30000000e-01  3.29634937e-09  3.36972734e-09  4.58782994e-01  4.58782994e-01  3.40977401e-09  4.58782994e-01  4.58782994e-01  1.58589822e-07  1.61043381e-07  7.30000000e-01 
 7.40000000e-01  3.29634937e-09  3.36972734e-09  4.58783012e-01  4.58783013e-01  3.40977406e-09  4.58783012e-01  4.58783012e-01  1.58589835e-07  1.61043381e-07  7.40000000e-01 
 7.50000000e-01  3.29634937e-09  3.36972734e-09  4.58783013e-01  4.58783013e-01  3.40977401e-09  4.58783013e-01  4.58783013e-01  1.58589833e-07  1.61043310e-07  7.50000000e-01 
 7.60000000e-01  3.29634931e-09  3.36972734e-09  4.58783014e-01  4.58783015e-01  3.40977401e-09  4.58783014e-01  4.58783014e-01  1.58589837e-07  1.61043218e-07  7.60000000e-01 
 7.70000000e-01  3.29634937e-09  3.36972734e-09  4.58782997e-01  4.58782997e-01  3.40977401e-09  4.58782997e-01  4.58782997e-01  1.58589817e-07  1.61043040e-07  7.70000000e-01 
 7.80000000e-01  3.29634937e-09  3.36972733e-09  4.58782967e-01  4.58782967e-01  3.40977401e-09  4.58782967e-01  4.58782967e-01  1.58589771e-07  1.61042792e-07  7.80000000e-01 
 7.90000000e-01  3.29634937e-09  3.36972734e-09  4.58782994e-01  4.58782994e-01  3.40977406e-09  4.58782994e-01  4.58782994e-01  1.58589806e-07  1.61042749e-07  7.90000000e-01 
 8.00000000e-01  3.29634937e-09  3.36972733e-09  4.58782991e-01  4.58782991e-01  3.40977406e-09  4.58782991e-01  4.58782991e-01  1.58589800e-07  1.61042486e-07  8.00000000e-01 
 8.10000000e-01  3.29634937e-09  3.36972733e-09  4.58782986e-01  4.58782987e-01  3.40977406e-09  4.58782986e-01  4.58782986e-01  1.58589815e-07  1.61042472e-07  8.10000000e-01 
 8.20000000e-01  3.29634937e-09  3.36972728e-09  4.58782983e-01  4.58782983e-01  3.40977401e-09  4.58782983e-01  4.58782983e-01  1.58589803e-07  1.61042273e-07  8.20000000e-01 
 8.30000000e-01  3.29634937e-09  3.36972734e-09  4.58783005e-01  4.58783005e-01  3.40977401e-09  4.58783005e-01  4.58783005e-01  1.58589842e-07  1.61042195e-07  8.30000000e-01 
 8.40000000e-01  3.29634937e-09  3.36972739e-09  4.58782989e-01  4.58782990e-01  3.40977401e-09  4.58782989e-01  4.58782989e-01  1.58589795e-07  1.61041967e-07  8.40000000e-01 
 8.50000000e-01  3.29634937e-09  3.36972733e-09  4.58782993e-01  4.58782993e-01  3.40977401e-09  4.58782993e-01  4.58782993e-01  1.58589815e-07  1.61042003e-07  8.50000000e-01 
 8.60000000e-01  3.29634937e-09  3.36972734e-09  4.58782999e-01  4.58782999e-01  3.40977406e-09  4.58782999e-01  4.58782999e-01  1.58589819e-07  1.61041882e-07  8.60000000e-01 
 8.70000000e-01  3.29634937e-09  3.36972733e-09  4.58782990e-01  4.58782990e-01  3.40977401e-09  4.58782990e-01  4.58782990e-01  1.58589811e-07  1.61041712e-07  8.70000000e-01 
 8.80000000e-01  3.29634937e-09  3.36972733e-09  4.58782982e-01  4.58782982e-01  3.40977406e-09  4.58782982e-01  4.58782982e-01  1.58589807e-07  1.61041385e-07  8.80000000e-01 
 8.90000000e-01  3.29634937e-09  3.36972733e-09  4.58782987e-01  4.58782987e-01  3.40977406e-09  4.58782987e-01  4.58782987e-01  1.58589811e-07  1.61041434e-07  8.90000000e-01 
 9.00000000e-01  3.29634937e-09  3.36972734e-09  4.58782994e-01  4.58782994e-01  3.40977401e-09  4.58782994e-01  4.58782994e-01  1.58589807e-07  1.61041321e-07  9.00000000e-01 
 9.10000000e-01  3.29634937e-09  3.36972733e-09  4.58782980e-01  4.58782981e-01  3.40977406e-09  4.58782981e-01  4.58782981e-01  1.58589792e-07  1.61041044e-07  9.10000000e-01 
 9.20000000e-01  3.29634937e-09  3.36972734e-09  4.58782998e-01  4.58782998e-01  3.40977401e-09  4.58782998e-01  4.58782998e-01  1.58589808e-07  1.61041037e-07  9.20000000e-01 
 9.30000000e-01  3.29634937e-09  3.36972733e-09  4.58782988e-01  4.58782988e-01  3.40977406e-09  4.58782988e-01  4.58782988e-01  1.58589817e-07  1.61040873e-07  9.30000000e-01 
 9.40000000e-01  3.29634937e-09  3.36972733e-09  4.58782972e-01  4.58782973e-01  3.40977401e-09  4.58782972e-01  4.58782972e-01  1.58589785e-07  1.61040688e-07  9.40000000e-01 
 9.50000000e-01  3.29634937e-09  3.36972733e-09  4.58782978e-01  4.58782978e-01  3.40977401e-09  4.58782978e-01  4.58782978e-01  1.58589781e-07  1.61040475e-07  9.50000000e-01 
 9.60000000e-01  3.29634937e-09  3.36972733e-09  4.58782980e-01  4.58782980e-01  3.40977401e-09  4.58782980e-01  4.58782980e-01  1.58589804e-07  1.61040347e-07  9.60000000e-01 
 9.70000000e-01  3.29634937e-09  3.36972733e-09  4.58782974e-01  4.58782974e-01  3.40977401e-09  4.58782974e-01  4.58782974e-01  1.58589790e-07  1.61040205e-07  9.70000000e-01 
 9.80000000e-01  3.29634937e-09  3.36972734e-09  4.58783000e-01  4.58783000e-01  3.40977401e-09  4.58783000e-01  4.58783000e-01  1.58589806e-07  1.61040226e-07  9.80000000e-01 
 9.90000000e-01  3.29634937e-09  3.36972733e-09  4.58782963e-01  4.58782963e-01  3.40977401e-09  4.58782963e-01  4.58782963e-01  1.58589764e-07  1.61039885e-07  9.90000000e-01 
 1.00000000e+00  3.29634937e-09  3.36972733e-09  4.58782993e-01  4.58782993e-01  3.40977401e-09  4.58782993e-01  4.58782993e-01  1.58589809e-07  1.61039836e-07  1.00000000e+00 
 1.01000000e+00  3.29634937e-09  3.36972733e-09  4.58782983e-01  4.58782983e-01  3.40977406e-09  4.58782983e-01  4.58782983e-01  1.58589782e-07  1.61039694e-07  1.01000000e+00 
 1.02000000e+00  3.29634937e-09  3.36972734e-09  4.58782993e-01  4.58782994e-01  3.40977406e-09  4.58782994e-01  4.58782994e-01  1.58589816e-07  1.61039608e-07  1.02000000e+00 
 1.03000000e+00  3.29634937e-09  3.36972734e-09  4.58782994e-01  4.58782994e-01  3.40977401e-09  4.58782994e-01  4.58782994e-01  1.58589797e-07  1.61039424e-07  1.03000000e+00 
 1.04000000e+00  3.29634937e-09  3.36972733e-09  4.58782971e-01  4.58782972e-01  3.40977401e-09  4.58782972e-01  4.58782972e-01  1.58589771e-07  1.61039253e-07  1.04000000e+00 
 1.05000000e+00  3.29634937e-09  3.36972733e-09  4.58782977e-01  4.58782977e-01  3.40977401e-09  4.58782977e-01  4.58782977e-01  1.58589785e-07  1.61039011e-07  1.05000000e+00 
 1.06000000e+00  3.29634937e-09  3.36972733e-09  4.58782983e-01  4.58782983e-01  3.40977401e-09  4.58782983e-01  4.58782983e-01  1.58589799e-07  1.61039011e-07  1.06000000e+00 
 1.07000000e+00  3.29634937e-09  3.36972734e-09  4.58783013e-01  4.58783013e-01  3.40977401e-09  4.58783013e-01  4.58783013e-01  1.58589853e-07  1.61038834e-07  1.07000000e+00 
 1.08000000e+00  3.29634937e-09  3.36972733e-09  4.58782987e-01  4.58782987e-01  3.40977401e-09  4.58782987e-01  4.58782987e-01  1.58589788e-07  1.61038685e-07  1.08000000e+00 
 1.09000000e+00  3.29634937e-09  3.36972734e-09  4.58783005e-01  4.58783005e-01  3.40977406e-09  4.58783005e-01  4.58783005e-01  1.58589830e-07  1.61038415e-07  1.09000000e+00 
 1.10000000e+00  3.29634937e-09  3.36972733e-09  4.58782968e-01  4.58782968e-01  3.40977401e-09  4.58782968e-01  4.58782968e-01  1.58589784e-07  1.61038209e-07  1.10000000e+00 
