 v-sweep         v(b0)           v(b1)           v(b2)           v(b3)           v(b4)           v(b5)           v(b6)           i(vbias)        i(viout)        v(vout)        
 0.00000000e+00  4.59965367e-01  4.59965367e-01  3.57842269e-09  4.59965367e-01  3.37160771e-09  4.59965367e-01  4.59965367e-01  1.60021305e-07  1.68280966e-07  0.00000000e+00 
 1.00000000e-02  4.59965361e-01  4.59965361e-01  3.57842273e-09  4.59965361e-01  3.37160769e-09  4.59965361e-01  4.59965361e-01  1.60021286e-07  1.68280522e-07  1.00000000e-02 
 2.00000000e-02  4.59965352e-01  4.59965352e-01  3.57842272e-09  4.59965352e-01  3.37160771e-09  4.59965352e-01  4.59965352e-01  1.60021273e-07  1.68280081e-07  2.00000000e-02 
 3.00000000e-02  4.59965386e-01  4.59965386e-01  3.57842273e-09  4.59965386e-01  3.37160769e-09  4.59965386e-01  4.59965386e-01  1.60021318e-07  1.68279729e-07  3.00000000e-02 
 4.00000000e-02  4.59965336e-01  4.59965336e-01  3.57842272e-09  4.59965336e-01  3.37160776e-09  4.59965336e-01  4.59965336e-01  1.60021244e-07  1.68279267e-07  4.00000000e-02 
 5.00000000e-02  4.59965336e-01  4.59965337e-01  3.57842272e-09  4.59965336e-01  3.37160769e-09  4.59965336e-01  4.59965337e-01  1.60021253e-07  1.68278878e-07  5.00000000e-02 
 6.00000000e-02  4.59965335e-01  4.59965336e-01  3.57842272e-09  4.59965335e-01  3.37160776e-09  4.59965335e-01  4.59965336e-01  1.60021262e-07  1.68278332e-07  6.00000000e-02 
 7.00000000e-02  4.59965379e-01  4.59965379e-01  3.57842273e-09  4.59965379e-01  3.37160775e-09  4.59965379e-01  4.59965379e-01  1.60021311e-07  1.68278202e-07  7.00000000e-02 
 8.00000000e-02  4.59965369e-01  4.59965369e-01  3.57842267e-09  4.59965369e-01  3.37160769e-09  4.59965369e-01  4.59965369e-01  1.60021295e-07  1.68277935e-07  8.00000000e-02 
 9.00000000e-02  4.59965353e-01  4.59965353e-01  3.57842272e-09  4.59965353e-01  3.37160776e-09  4.59965353e-01  4.59965353e-01  1.60021287e-07  1.68277457e-07  9.00000000e-02 
 1.00000000e-01  4.59965353e-01  4.59965353e-01  3.57842272e-09  4.59965353e-01  3.37160774e-09  4.59965353e-01  4.59965353e-01  1.60021274e-07  1.68277172e-07  1.00000000e-01 
 1.10000000e-01  4.59965377e-01  4.59965377e-01  3.57842273e-09  4.59965377e-01  3.37160770e-09  4.59965377e-01  4.59965377e-01  1.60021307e-07  1.68276891e-07  1.10000000e-01 
 1.20000000e-01  4.59965327e-01  4.59965327e-01  3.57842272e-09  4.59965327e-01  3.37160770e-09  4.59965327e-01  4.59965327e-01  1.60021253e-07  1.68276391e-07  1.20000000e-01 
 1.30000000e-01  4.59965350e-01  4.59965350e-01  3.57842272e-09  4.59965350e-01  3.37160774e-09  4.59965350e-01  4.59965350e-01  1.60021274e-07  1.68276212e-07  1.30000000e-01 
 1.40000000e-01  4.59965330e-01  4.59965330e-01  3.57842272e-09  4.59965329e-01  3.37160775e-09  4.59965329e-01  4.59965330e-01  1.60021244e-07  1.68275823e-07  1.40000000e-01 
 1.50000000e-01  4.59965369e-01  4.59965369e-01  3.57842273e-09  4.59965369e-01  3.37160775e-09  4.59965369e-01  4.59965369e-01  1.60021302e-07  1.68275823e-07  1.50000000e-01 
 1.60000000e-01  4.59965342e-01  4.59965342e-01  3.57842272e-09  4.59965342e-01  3.37160775e-09  4.59965342e-01  4.59965342e-01  1.60021269e-07  1.68275397e-07  1.60000000e-01 
 1.70000000e-01  4.59965344e-01  4.59965344e-01  3.57842272e-09  4.59965344e-01  3.37160769e-09  4.59965344e-01  4.59965344e-01  1.60021260e-07  1.68275102e-07  1.70000000e-01 
 1.80000000e-01  4.59965339e-01  4.59965339e-01  3.57842272e-09  4.59965338e-01  3.37160770e-09  4.59965338e-01  4.59965339e-01  1.60021255e-07  1.68274918e-07  1.80000000e-01 
 1.90000000e-01  4.59965378e-01  4.59965378e-01  3.57842273e-09  4.59965378e-01  3.37160775e-09  4.59965378e-01  4.59965378e-01  1.60021313e-07  1.68274894e-07  1.90000000e-01 
 2.00000000e-01  4.59965338e-01  4.59965338e-01  3.57842272e-09  4.59965337e-01  3.37160769e-09  4.59965337e-01  4.59965338e-01  1.60021245e-07  1.68274449e-07  2.00000000e-01 
 2.10000000e-01  4.59965305e-01  4.59965305e-01  3.57842272e-09  4.59965305e-01  3.37160770e-09  4.59965305e-01  4.59965305e-01  1.60021205e-07  1.68274166e-07  2.10000000e-01 
 2.20000000e-01  4.59965371e-01  4.59965371e-01  3.57842273e-09  4.59965371e-01  3.37160769e-09  4.59965371e-01  4.59965371e-01  1.60021305e-07  1.68274216e-07  2.20000000e-01 
 2.30000000e-01  4.59965360e-01  4.59965360e-01  3.57842273e-09  4.59965360e-01  3.37160776e-09  4.59965360e-01  4.59965360e-01  1.60021279e-07  1.68273935e-07  2.30000000e-01 
 2.40000000e-01  4.59965383e-01  4.59965383e-01  3.57842273e-09  4.59965383e-01  3.37160775e-09  4.59965383e-01  4.59965383e-01  1.60021320e-07  1.68273855e-07  2.40000000e-01 
 2.50000000e-01  4.59965365e-01  4.59965366e-01  3.57842273e-09  4.59965365e-01  3.37160775e-09  4.59965365e-01  4.59965366e-01  1.60021281e-07  1.68273564e-07  2.50000000e-01 
 2.60000000e-01  4.59965381e-01  4.59965382e-01  3.57842273e-09  4.59965381e-01  3.37160775e-09  4.59965381e-01  4.59965382e-01  1.60021307e-07  1.68273385e-07  2.60000000e-01 
 2.70000000e-01  4.59965363e-01  4.59965363e-01  3.57842273e-09  4.59965363e-01  3.37160775e-09  4.59965363e-01  4.59965363e-01  1.60021283e-07  1.68273179e-07  2.70000000e-01 
 2.80000000e-01  4.59965383e-01  4.59965383e-01  3.57842273e-09  4.59965383e-01  3.37160775e-09  4.59965383e-01  4.59965383e-01  1.60021312e-07  1.68272999e-07  2.80000000e-01 
 2.90000000e-01  4.59965363e-01  4.59965363e-01  3.57842273e-09  4.59965363e-01  3.37160769e-09  4.59965363e-01  4.59965363e-01  1.60021297e-07  1.68272827e-07  2.90000000e-01 
 3.00000000e-01  4.59965351e-01  4.59965351e-01  3.57842272e-09  4.59965351e-01  3.37160771e-09  4.59965351e-01  4.59965351e-01  1.60021269e-07  1.68272571e-07  3.00000000e-01 
 3.10000000e-01  4.59965360e-01  4.59965360e-01  3.57842272e-09  4.59965360e-01  3.37160769e-09  4.59965360e-01  4.59965360e-01  1.60021289e-07  1.68272432e-07  3.10000000e-01 
 3.20000000e-01  4.59965364e-01  4.59965364e-01  3.57842273e-09  4.59965364e-01  3.37160776e-09  4.59965364e-01  4.59965364e-01  1.60021288e-07  1.68272191e-07  3.20000000e-01 
 3.30000000e-01  4.59965338e-01  4.59965338e-01  3.57842272e-09  4.59965338e-01  3.37160774e-09  4.59965338e-01  4.59965338e-01  1.60021263e-07  1.68272020e-07  3.30000000e-01 
 3.40000000e-01  4.59965385e-01  4.59965385e-01  3.57842273e-09  4.59965385e-01  3.37160770e-09  4.59965385e-01  4.59965385e-01  1.60021328e-07  1.68272091e-07  3.40000000e-01 
 3.50000000e-01  4.59965336e-01  4.59965336e-01  3.57842272e-09  4.59965336e-01  3.37160769e-09  4.59965336e-01  4.59965336e-01  1.60021244e-07  1.68271683e-07  3.50000000e-01 
 3.60000000e-01  4.59965347e-01  4.59965348e-01  3.57842272e-09  4.59965347e-01  3.37160771e-09  4.59965347e-01  4.59965348e-01  1.60021265e-07  1.68271537e-07  3.60000000e-01 
 3.70000000e-01  4.59965356e-01  4.59965356e-01  3.57842272e-09  4.59965355e-01  3.37160769e-09  4.59965355e-01  4.59965356e-01  1.60021272e-07  1.68271590e-07  3.70000000e-01 
 3.80000000e-01  4.59965362e-01  4.59965362e-01  3.57842273e-09  4.59965362e-01  3.37160771e-09  4.59965362e-01  4.59965362e-01  1.60021300e-07  1.68271356e-07  3.80000000e-01 
 3.90000000e-01  4.59965352e-01  4.59965352e-01  3.57842272e-09  4.59965352e-01  3.37160774e-09  4.59965352e-01  4.59965352e-01  1.60021280e-07  1.68271232e-07  3.90000000e-01 
 4.00000000e-01  4.59965346e-01  4.59965346e-01  3.57842272e-09  4.59965346e-01  3.37160769e-09  4.59965346e-01  4.59965346e-01  1.60021270e-07  1.68271040e-07  4.00000000e-01 
 4.10000000e-01  4.59965365e-01  4.59965365e-01  3.57842273e-09  4.59965365e-01  3.37160776e-09  4.59965365e-01  4.59965365e-01  1.60021297e-07  1.68270972e-07  4.10000000e-01 
 4.20000000e-01  4.59965357e-01  4.59965357e-01  3.57842272e-09  4.59965357e-01  3.37160774e-09  4.59965357e-01  4.59965357e-01  1.60021282e-07  1.68270684e-07  4.20000000e-01 
 4.30000000e-01  4.59965353e-01  4.59965353e-01  3.57842272e-09  4.59965353e-01  3.37160775e-09  4.59965353e-01  4.59965353e-01  1.60021273e-07  1.68270610e-07  4.30000000e-01 
 4.40000000e-01  4.59965397e-01  4.59965397e-01  3.57842273e-09  4.59965397e-01  3.37160770e-09  4.59965397e-01  4.59965397e-01  1.60021338e-07  1.68270667e-07  4.40000000e-01 
 4.50000000e-01  4.59965329e-01  4.59965329e-01  3.57842272e-09  4.59965329e-01  3.37160775e-09  4.59965329e-01  4.59965329e-01  1.60021235e-07  1.68270237e-07  4.50000000e-01 
 4.60000000e-01  4.59965349e-01  4.59965349e-01  3.57842272e-09  4.59965349e-01  3.37160769e-09  4.59965349e-01  4.59965349e-01  1.60021283e-07  1.68270212e-07  4.60000000e-01 
 4.70000000e-01  4.59965354e-01  4.59965354e-01  3.57842272e-09  4.59965354e-01  3.37160771e-09  4.59965354e-01  4.59965354e-01  1.60021290e-07  1.68270073e-07  4.70000000e-01 
 4.80000000e-01  4.59965371e-01  4.59965371e-01  3.57842273e-09  4.59965370e-01  3.37160775e-09  4.59965370e-01  4.59965371e-01  1.60021301e-07  1.68270020e-07  4.80000000e-01 
 4.90000000e-01  4.59965348e-01  4.59965348e-01  3.57842272e-09  4.59965348e-01  3.37160769e-09  4.59965348e-01  4.59965348e-01  1.60021273e-07  1.68269768e-07  4.90000000e-01 
 5.00000000e-01  4.59965354e-01  4.59965354e-01  3.57842272e-09  4.59965354e-01  3.37160771e-09  4.59965354e-01  4.59965354e-01  1.60021264e-07  1.68269786e-07  5.00000000e-01 
 5.10000000e-01  4.59965369e-01  4.59965369e-01  3.57842273e-09  4.59965369e-01  3.37160775e-09  4.59965369e-01  4.59965369e-01  1.60021294e-07  1.68269640e-07  5.10000000e-01 
 5.20000000e-01  4.59965366e-01  4.59965366e-01  3.57842273e-09  4.59965366e-01  3.37160775e-09  4.59965366e-01  4.59965366e-01  1.60021308e-07  1.68269356e-07  5.20000000e-01 
 5.30000000e-01  4.59965332e-01  4.59965332e-01  3.57842272e-09  4.59965332e-01  3.37160775e-09  4.59965332e-01  4.59965332e-01  1.60021243e-07  1.68269253e-07  5.30000000e-01 
 5.40000000e-01  4.59965339e-01  4.59965339e-01  3.57842272e-09  4.59965339e-01  3.37160775e-09  4.59965339e-01  4.59965339e-01  1.60021255e-07  1.68269231e-07  5.40000000e-01 
 5.50000000e-01  4.59965344e-01  4.59965344e-01  3.57842272e-09  4.59965344e-01  3.37160775e-09  4.59965344e-01  4.59965344e-01  1.60021272e-07  1.68268965e-07  5.50000000e-01 
 5.60000000e-01  4.59965370e-01  4.59965370e-01  3.57842273e-09  4.59965370e-01  3.37160775e-09  4.59965370e-01  4.59965370e-01  1.60021297e-07  1.68268926e-07  5.60000000e-01 
 5.70000000e-01  4.59965336e-01  4.59965337e-01  3.57842272e-09  4.59965336e-01  3.37160775e-09  4.59965336e-01  4.59965337e-01  1.60021250e-07  1.68268592e-07  5.70000000e-01 
 5.80000000e-01  4.59965351e-01  4.59965351e-01  3.57842272e-09  4.59965351e-01  3.37160769e-09  4.59965351e-01  4.59965351e-01  1.60021282e-07  1.68268578e-07  5.80000000e-01 
 5.90000000e-01  4.59965333e-01  4.59965333e-01  3.57842272e-09  4.59965333e-01  3.37160776e-09  4.59965333e-01  4.59965333e-01  1.60021236e-07  1.68268329e-07  5.90000000e-01 
 6.00000000e-01  4.59965365e-01  4.59965365e-01  3.57842273e-09  4.59965365e-01  3.37160775e-09  4.59965365e-01  4.59965365e-01  1.60021310e-07  1.68268535e-07  6.00000000e-01 
 6.10000000e-01  4.59965367e-01  4.59965367e-01  3.57842273e-09  4.59965367e-01  3.37160775e-09  4.59965367e-01  4.59965367e-01  1.60021290e-07  1.68268301e-07  6.10000000e-01 
 6.20000000e-01  4.59965344e-01  4.59965344e-01  3.57842272e-09  4.59965344e-01  3.37160769e-09  4.59965344e-01  4.59965344e-01  1.60021260e-07  1.68268080e-07  6.20000000e-01 
 6.30000000e-01  4.59965337e-01  4.59965337e-01  3.57842272e-09  4.59965337e-01  3.37160776e-09  4.59965337e-01  4.59965337e-01  1.60021254e-07  1.68267903e-07  6.30000000e-01 
 6.40000000e-01  4.59965343e-01  4.59965343e-01  3.57842272e-09  4.59965343e-01  3.37160769e-09  4.59965343e-01  4.59965343e-01  1.60021262e-07  1.68267853e-07  6.40000000e-01 
 6.50000000e-01  4.59965359e-01  4.59965359e-01  3.57842272e-09  4.59965358e-01  3.37160776e-09  4.59965358e-01  4.59965359e-01  1.60021278e-07  1.68267789e-07  6.50000000e-01 
 6.60000000e-01  4.59965337e-01  4.59965337e-01  3.57842272e-09  4.59965337e-01  3.37160774e-09  4.59965337e-01  4.59965337e-01  1.60021249e-07  1.68267562e-07  6.60000000e-01 
 6.70000000e-01  4.59965348e-01  4.59965348e-01  3.57842272e-09  4.59965348e-01  3.37160769e-09  4.59965348e-01  4.59965348e-01  1.60021266e-07  1.68267334e-07  6.70000000e-01 
 6.80000000e-01  4.59965373e-01  4.59965373e-01  3.57842273e-09  4.59965373e-01  3.37160771e-09  4.59965373e-01  4.59965373e-01  1.60021297e-07  1.68267484e-07  6.80000000e-01 
 6.90000000e-01  4.59965359e-01  4.59965359e-01  3.57842272e-09  4.59965359e-01  3.37160769e-09  4.59965359e-01  4.59965359e-01  1.60021278e-07  1.68267270e-07  6.90000000e-01 
 7.00000000e-01  4.59965379e-01  4.59965379e-01  3.57842273e-09  4.59965379e-01  3.37160771e-09  4.59965379e-01  4.59965379e-01  1.60021304e-07  1.68267086e-07  7.00000000e-01 
 7.10000000e-01  4.59965355e-01  4.59965355e-01  3.57842272e-09  4.59965355e-01  3.37160774e-09  4.59965355e-01  4.59965355e-01  1.60021287e-07  1.68266915e-07  7.10000000e-01 
 7.20000000e-01  4.59965332e-01  4.59965332e-01  3.57842272e-09  4.59965331e-01  3.37160775e-09  4.59965331e-01  4.59965332e-01  1.60021242e-07  1.68266752e-07  7.20000000e-01 
 7.30000000e-01  4.59965372e-01  4.59965372e-01  3.57842267e-09  4.59965372e-01  3.37160770e-09  4.59965372e-01  4.59965372e-01  1.60021304e-07  1.68266709e-07  7.30000000e-01 
 7.40000000e-01  4.59965365e-01  4.59965365e-01  3.57842273e-09  4.59965365e-01  3.37160776e-09  4.59965365e-01  4.59965365e-01  1.60021291e-07  1.68266602e-07  7.40000000e-01 
 7.50000000e-01  4.59965364e-01  4.59965364e-01  3.57842273e-09  4.59965363e-01  3.37160775e-09  4.59965363e-01  4.59965364e-01  1.60021286e-07  1.68266467e-07  7.50000000e-01 
 7.60000000e-01  4.59965332e-01  4.59965332e-01  3.57842272e-09  4.59965332e-01  3.37160769e-09  4.59965332e-01  4.59965332e-01  1.60021235e-07  1.68266205e-07  7.60000000e-01 
 7.70000000e-01  4.59965348e-01  4.59965348e-01  3.57842272e-09  4.59965348e-01  3.37160771e-09  4.59965348e-01  4.59965348e-01  1.60021260e-07  1.68266148e-07  7.70000000e-01 
 7.80000000e-01  4.59965373e-01  4.59965373e-01  3.57842273e-09  4.59965372e-01  3.37160775e-09  4.59965372e-01  4.59965373e-01  1.60021303e-07  1.68266048e-07  7.80000000e-01 
 7.90000000e-01  4.59965328e-01  4.59965328e-01  3.57842272e-09  4.59965328e-01  3.37160775e-09  4.59965328e-01  4.59965328e-01  1.60021239e-07  1.68265800e-07  7.90000000e-01 
 8.00000000e-01  4.59965346e-01  4.59965346e-01  3.57842272e-09  4.59965346e-01  3.37160775e-09  4.59965346e-01  4.59965346e-01  1.60021275e-07  1.68265693e-07  8.00000000e-01 
 8.10000000e-01  4.59965359e-01  4.59965359e-01  3.57842272e-09  4.59965358e-01  3.37160775e-09  4.59965358e-01  4.59965359e-01  1.60021282e-07  1.68265650e-07  8.10000000e-01 
 8.20000000e-01  4.59965370e-01  4.59965370e-01  3.57842273e-09  4.59965370e-01  3.37160769e-09  4.59965370e-01  4.59965370e-01  1.60021282e-07  1.68265565e-07  8.20000000e-01 
 8.30000000e-01  4.59965348e-01  4.59965348e-01  3.57842272e-09  4.59965348e-01  3.37160776e-09  4.59965348e-01  4.59965348e-01  1.60021263e-07  1.68265309e-07  8.30000000e-01 
 8.40000000e-01  4.59965358e-01  4.59965358e-01  3.57842272e-09  4.59965358e-01  3.37160774e-09  4.59965358e-01  4.59965358e-01  1.60021287e-07  1.68265167e-07  8.40000000e-01 
 8.50000000e-01  4.59965379e-01  4.59965379e-01  3.57842273e-09  4.59965379e-01  3.37160775e-09  4.59965379e-01  4.59965379e-01  1.60021312e-07  1.68265117e-07  8.50000000e-01 
 8.60000000e-01  4.59965335e-01  4.59965335e-01  3.57842272e-09  4.59965335e-01  3.37160769e-09  4.59965335e-01  4.59965335e-01  1.60021245e-07  1.68264933e-07  8.60000000e-01 
 8.70000000e-01  4.59965322e-01  4.59965322e-01  3.57842272e-09  4.59965322e-01  3.37160770e-09  4.59965322e-01  4.59965322e-01  1.60021229e-07  1.68264535e-07  8.70000000e-01 
 8.80000000e-01  4.59965368e-01  4.59965368e-01  3.57842273e-09  4.59965368e-01  3.37160775e-09  4.59965368e-01  4.59965368e-01  1.60021292e-07  1.68264613e-07  8.80000000e-01 
 8.90000000e-01  4.59965352e-01  4.59965352e-01  3.57842267e-09  4.59965352e-01  3.37160769e-09  4.59965352e-01  4.59965352e-01  1.60021270e-07  1.68264535e-07  8.90000000e-01 
 9.00000000e-01  4.59965349e-01  4.59965349e-01  3.57842272e-09  4.59965349e-01  3.37160771e-09  4.59965349e-01  4.59965349e-01  1.60021278e-07  1.68264357e-07  9.00000000e-01 
 9.10000000e-01  4.59965381e-01  4.59965381e-01  3.57842273e-09  4.59965381e-01  3.37160775e-09  4.59965381e-01  4.59965381e-01  1.60021323e-07  1.68264201e-07  9.10000000e-01 
 9.20000000e-01  4.59965335e-01  4.59965335e-01  3.57842272e-09  4.59965335e-01  3.37160769e-09  4.59965335e-01  4.59965335e-01  1.60021249e-07  1.68264044e-07  9.20000000e-01 
 9.30000000e-01  4.59965323e-01  4.59965323e-01  3.57842272e-09  4.59965323e-01  3.37160776e-09  4.59965323e-01  4.59965323e-01  1.60021227e-07  1.68263689e-07  9.30000000e-01 
 9.40000000e-01  4.59965340e-01  4.59965340e-01  3.57842272e-09  4.59965339e-01  3.37160774e-09  4.59965339e-01  4.59965340e-01  1.60021267e-07  1.68263604e-07  9.40000000e-01 
 9.50000000e-01  4.59965353e-01  4.59965353e-01  3.57842272e-09  4.59965353e-01  3.37160775e-09  4.59965353e-01  4.59965353e-01  1.60021279e-07  1.68263540e-07  9.50000000e-01 
 9.60000000e-01  4.59965360e-01  4.59965360e-01  3.57842273e-09  4.59965360e-01  3.37160775e-09  4.59965360e-01  4.59965360e-01  1.60021290e-07  1.68263483e-07  9.60000000e-01 
 9.70000000e-01  4.59965353e-01  4.59965353e-01  3.57842272e-09  4.59965353e-01  3.37160769e-09  4.59965353e-01  4.59965353e-01  1.60021268e-07  1.68263270e-07  9.70000000e-01 
 9.80000000e-01  4.59965354e-01  4.59965354e-01  3.57842272e-09  4.59965354e-01  3.37160771e-09  4.59965354e-01  4.59965354e-01  1.60021274e-07  1.68263213e-07  9.80000000e-01 
 9.90000000e-01  4.59965352e-01  4.59965352e-01  3.57842272e-09  4.59965351e-01  3.37160774e-09  4.59965351e-01  4.59965352e-01  1.60021263e-07  1.68262922e-07  9.90000000e-01 
 1.00000000e+00  4.59965363e-01  4.59965363e-01  3.57842273e-09  4.59965363e-01  3.37160775e-09  4.59965363e-01  4.59965363e-01  1.60021284e-07  1.68262808e-07  1.00000000e+00 
 1.01000000e+00  4.59965350e-01  4.59965350e-01  3.57842267e-09  4.59965349e-01  3.37160769e-09  4.59965349e-01  4.59965350e-01  1.60021262e-07  1.68262567e-07  1.01000000e+00 
 1.02000000e+00  4.59965355e-01  4.59965355e-01  3.57842272e-09  4.59965355e-01  3.37160776e-09  4.59965355e-01  4.59965355e-01  1.60021270e-07  1.68262481e-07  1.02000000e+00 
 1.03000000e+00  4.59965342e-01  4.59965342e-01  3.57842272e-09  4.59965342e-01  3.37160774e-09  4.59965342e-01  4.59965342e-01  1.60021258e-07  1.68262339e-07  1.03000000e+00 
 1.04000000e+00  4.59965355e-01  4.59965356e-01  3.57842272e-09  4.59965355e-01  3.37160769e-09  4.59965355e-01  4.59965356e-01  1.60021277e-07  1.68262133e-07  1.04000000e+00 
 1.05000000e+00  4.59965333e-01  4.59965333e-01  3.57842267e-09  4.59965332e-01  3.37160770e-09  4.59965332e-01  4.59965333e-01  1.60021236e-07  1.68261892e-07  1.05000000e+00 
 1.06000000e+00  4.59965345e-01  4.59965345e-01  3.57842272e-09  4.59965345e-01  3.37160769e-09  4.59965345e-01  4.59965345e-01  1.60021264e-07  1.68261863e-07  1.06000000e+00 
 1.07000000e+00  4.59965354e-01  4.59965354e-01  3.57842272e-09  4.59965354e-01  3.37160771e-09  4.59965354e-01  4.59965354e-01  1.60021264e-07  1.68261685e-07  1.07000000e+00 
 1.08000000e+00  4.59965361e-01  4.59965361e-01  3.57842273e-09  4.59965361e-01  3.37160775e-09  4.59965361e-01  4.59965361e-01  1.60021278e-07  1.68261423e-07  1.08000000e+00 
 1.09000000e+00  4.59965367e-01  4.59965368e-01  3.57842273e-09  4.59965367e-01  3.37160775e-09  4.59965367e-01  4.59965368e-01  1.60021287e-07  1.68261394e-07  1.09000000e+00 
 1.10000000e+00  4.59965322e-01  4.59965322e-01  3.57842272e-09  4.59965322e-01  3.37160769e-09  4.59965322e-01  4.59965322e-01  1.60021231e-07  1.68261003e-07  1.10000000e+00 
