 v-sweep         v(b0)           v(b1)           v(b2)           v(b3)           v(b4)           v(b5)           v(b6)           i(vbias)        i(viout)        v(vout)        
 0.00000000e+00  4.59808311e-01  4.59808311e-01  3.37304311e-09  4.59808311e-01  3.25101779e-09  4.59808311e-01  3.30244679e-09  1.60616328e-07  6.97983458e-08  0.00000000e+00 
 1.00000000e-02  4.59808298e-01  4.59808298e-01  3.37304315e-09  4.59808298e-01  3.25101776e-09  4.59808298e-01  3.30244677e-09  1.60616305e-07  6.97978386e-08  1.00000000e-02 
 2.00000000e-02  4.59808285e-01  4.59808285e-01  3.37304320e-09  4.59808285e-01  3.25101782e-09  4.59808285e-01  3.30244677e-09  1.60616284e-07  6.97975180e-08  2.00000000e-02 
 3.00000000e-02  4.59808285e-01  4.59808285e-01  3.37304314e-09  4.59808285e-01  3.25101776e-09  4.59808285e-01  3.30244677e-09  1.60616285e-07  6.97971221e-08  3.00000000e-02 
 4.00000000e-02  4.59808288e-01  4.59808288e-01  3.37304314e-09  4.59808288e-01  3.25101782e-09  4.59808288e-01  3.30244677e-09  1.60616300e-07  6.97968248e-08  4.00000000e-02 
 5.00000000e-02  4.59808305e-01  4.59808305e-01  3.37304315e-09  4.59808305e-01  3.25101782e-09  4.59808305e-01  3.30244677e-09  1.60616311e-07  6.97964402e-08  5.00000000e-02 
 6.00000000e-02  4.59808317e-01  4.59808317e-01  3.37304315e-09  4.59808317e-01  3.25101782e-09  4.59808317e-01  3.30244677e-09  1.60616329e-07  6.97961244e-08  6.00000000e-02 
 7.00000000e-02  4.59808290e-01  4.59808290e-01  3.37304314e-09  4.59808290e-01  3.25101782e-09  4.59808290e-01  3.30244677e-09  1.60616283e-07  6.97958105e-08  7.00000000e-02 
 8.00000000e-02  4.59808293e-01  4.59808293e-01  3.37304314e-09  4.59808293e-01  3.25101782e-09  4.59808293e-01  3.30244677e-09  1.60616289e-07  6.97955249e-08  8.00000000e-02 
 9.00000000e-02  4.59808290e-01  4.59808290e-01  3.37304314e-09  4.59808290e-01  3.25101776e-09  4.59808290e-01  3.30244677e-09  1.60616282e-07  6.97951466e-08  9.00000000e-02 
 1.00000000e-01  4.59808291e-01  4.59808291e-01  3.37304314e-09  4.59808291e-01  3.25101782e-09  4.59808291e-01  3.30244677e-09  1.60616275e-07  6.97949645e-08  1.00000000e-01 
 1.10000000e-01  4.59808304e-01  4.59808304e-01  3.37304315e-09  4.59808304e-01  3.25101782e-09  4.59808304e-01  3.30244677e-09  1.60616313e-07  6.97947966e-08  1.10000000e-01 
 1.20000000e-01  4.59808311e-01  4.59808311e-01  3.37304315e-09  4.59808311e-01  3.25101782e-09  4.59808311e-01  3.30244677e-09  1.60616327e-07  6.97945559e-08  1.20000000e-01 
 1.30000000e-01  4.59808293e-01  4.59808293e-01  3.37304314e-09  4.59808293e-01  3.25101782e-09  4.59808293e-01  3.30244677e-09  1.60616295e-07  6.97943037e-08  1.30000000e-01 
 1.40000000e-01  4.59808316e-01  4.59808316e-01  3.37304315e-09  4.59808316e-01  3.25101777e-09  4.59808316e-01  3.30244677e-09  1.60616322e-07  6.97940603e-08  1.40000000e-01 
 1.50000000e-01  4.59808294e-01  4.59808293e-01  3.37304314e-09  4.59808294e-01  3.25101782e-09  4.59808294e-01  3.30244677e-09  1.60616296e-07  6.97939022e-08  1.50000000e-01 
 1.60000000e-01  4.59808289e-01  4.59808289e-01  3.37304314e-09  4.59808289e-01  3.25101776e-09  4.59808289e-01  3.30244677e-09  1.60616295e-07  6.97936358e-08  1.60000000e-01 
 1.70000000e-01  4.59808297e-01  4.59808297e-01  3.37304320e-09  4.59808297e-01  3.25101776e-09  4.59808297e-01  3.30244677e-09  1.60616303e-07  6.97935203e-08  1.70000000e-01 
 1.80000000e-01  4.59808283e-01  4.59808283e-01  3.37304314e-09  4.59808283e-01  3.25101776e-09  4.59808283e-01  3.30244677e-09  1.60616279e-07  6.97932805e-08  1.80000000e-01 
 1.90000000e-01  4.59808283e-01  4.59808282e-01  3.37304314e-09  4.59808283e-01  3.25101776e-09  4.59808283e-01  3.30244677e-09  1.60616273e-07  6.97930460e-08  1.90000000e-01 
 2.00000000e-01  4.59808302e-01  4.59808301e-01  3.37304315e-09  4.59808302e-01  3.25101776e-09  4.59808301e-01  3.30244677e-09  1.60616296e-07  6.97928861e-08  2.00000000e-01 
 2.10000000e-01  4.59808302e-01  4.59808302e-01  3.37304315e-09  4.59808302e-01  3.25101782e-09  4.59808302e-01  3.30244677e-09  1.60616308e-07  6.97928204e-08  2.10000000e-01 
 2.20000000e-01  4.59808295e-01  4.59808295e-01  3.37304320e-09  4.59808295e-01  3.25101776e-09  4.59808295e-01  3.30244677e-09  1.60616299e-07  6.97926392e-08  2.20000000e-01 
 2.30000000e-01  4.59808285e-01  4.59808285e-01  3.37304314e-09  4.59808285e-01  3.25101782e-09  4.59808285e-01  3.30244677e-09  1.60616281e-07  6.97925024e-08  2.30000000e-01 
 2.40000000e-01  4.59808279e-01  4.59808279e-01  3.37304314e-09  4.59808279e-01  3.25101782e-09  4.59808279e-01  3.30244677e-09  1.60616281e-07  6.97923088e-08  2.40000000e-01 
 2.50000000e-01  4.59808312e-01  4.59808312e-01  3.37304320e-09  4.59808312e-01  3.25101777e-09  4.59808312e-01  3.30244677e-09  1.60616322e-07  6.97921951e-08  2.50000000e-01 
 2.60000000e-01  4.59808295e-01  4.59808295e-01  3.37304314e-09  4.59808295e-01  3.25101782e-09  4.59808295e-01  3.30244677e-09  1.60616304e-07  6.97921578e-08  2.60000000e-01 
 2.70000000e-01  4.59808294e-01  4.59808294e-01  3.37304314e-09  4.59808294e-01  3.25101782e-09  4.59808294e-01  3.30244677e-09  1.60616297e-07  6.97920726e-08  2.70000000e-01 
 2.80000000e-01  4.59808302e-01  4.59808302e-01  3.37304315e-09  4.59808302e-01  3.25101776e-09  4.59808302e-01  3.30244677e-09  1.60616294e-07  6.97918487e-08  2.80000000e-01 
 2.90000000e-01  4.59808288e-01  4.59808288e-01  3.37304314e-09  4.59808288e-01  3.25101782e-09  4.59808288e-01  3.30244677e-09  1.60616276e-07  6.97916320e-08  2.90000000e-01 
 3.00000000e-01  4.59808286e-01  4.59808286e-01  3.37304314e-09  4.59808286e-01  3.25101776e-09  4.59808286e-01  3.30244677e-09  1.60616287e-07  6.97915432e-08  3.00000000e-01 
 3.10000000e-01  4.59808291e-01  4.59808291e-01  3.37304314e-09  4.59808291e-01  3.25101776e-09  4.59808291e-01  3.30244677e-09  1.60616295e-07  6.97914651e-08  3.10000000e-01 
 3.20000000e-01  4.59808301e-01  4.59808301e-01  3.37304315e-09  4.59808301e-01  3.25101782e-09  4.59808301e-01  3.30244677e-09  1.60616301e-07  6.97914331e-08  3.20000000e-01 
 3.30000000e-01  4.59808313e-01  4.59808313e-01  3.37304320e-09  4.59808313e-01  3.25101777e-09  4.59808313e-01  3.30244677e-09  1.60616330e-07  6.97913336e-08  3.30000000e-01 
 3.40000000e-01  4.59808316e-01  4.59808316e-01  3.37304315e-09  4.59808316e-01  3.25101782e-09  4.59808316e-01  3.30244677e-09  1.60616336e-07  6.97912199e-08  3.40000000e-01 
 3.50000000e-01  4.59808297e-01  4.59808297e-01  3.37304314e-09  4.59808297e-01  3.25101776e-09  4.59808297e-01  3.30244677e-09  1.60616298e-07  6.97911027e-08  3.50000000e-01 
 3.60000000e-01  4.59808293e-01  4.59808293e-01  3.37304314e-09  4.59808293e-01  3.25101776e-09  4.59808293e-01  3.30244677e-09  1.60616296e-07  6.97910316e-08  3.60000000e-01 
 3.70000000e-01  4.59808296e-01  4.59808295e-01  3.37304314e-09  4.59808295e-01  3.25101782e-09  4.59808295e-01  3.30244677e-09  1.60616291e-07  6.97908646e-08  3.70000000e-01 
 3.80000000e-01  4.59808297e-01  4.59808297e-01  3.37304314e-09  4.59808297e-01  3.25101782e-09  4.59808297e-01  3.30244677e-09  1.60616300e-07  6.97908540e-08  3.80000000e-01 
 3.90000000e-01  4.59808309e-01  4.59808309e-01  3.37304315e-09  4.59808309e-01  3.25101782e-09  4.59808309e-01  3.30244677e-09  1.60616312e-07  6.97908398e-08  3.90000000e-01 
 4.00000000e-01  4.59808313e-01  4.59808313e-01  3.37304315e-09  4.59808313e-01  3.25101782e-09  4.59808313e-01  3.30244677e-09  1.60616334e-07  6.97907083e-08  4.00000000e-01 
 4.10000000e-01  4.59808306e-01  4.59808306e-01  3.37304315e-09  4.59808306e-01  3.25101776e-09  4.59808306e-01  3.30244677e-09  1.60616323e-07  6.97905165e-08  4.10000000e-01 
 4.20000000e-01  4.59808295e-01  4.59808294e-01  3.37304314e-09  4.59808294e-01  3.25101776e-09  4.59808294e-01  3.30244677e-09  1.60616301e-07  6.97904277e-08  4.20000000e-01 
 4.30000000e-01  4.59808295e-01  4.59808295e-01  3.37304314e-09  4.59808295e-01  3.25101776e-09  4.59808295e-01  3.30244677e-09  1.60616293e-07  6.97903992e-08  4.30000000e-01 
 4.40000000e-01  4.59808289e-01  4.59808289e-01  3.37304314e-09  4.59808289e-01  3.25101782e-09  4.59808289e-01  3.30244677e-09  1.60616284e-07  6.97903566e-08  4.40000000e-01 
 4.50000000e-01  4.59808294e-01  4.59808293e-01  3.37304320e-09  4.59808294e-01  3.25101776e-09  4.59808293e-01  3.30244677e-09  1.60616297e-07  6.97902252e-08  4.50000000e-01 
 4.60000000e-01  4.59808291e-01  4.59808291e-01  3.37304314e-09  4.59808291e-01  3.25101776e-09  4.59808291e-01  3.30244677e-09  1.60616289e-07  6.97901612e-08  4.60000000e-01 
 4.70000000e-01  4.59808298e-01  4.59808298e-01  3.37304314e-09  4.59808298e-01  3.25101776e-09  4.59808298e-01  3.30244677e-09  1.60616302e-07  6.97901221e-08  4.70000000e-01 
 4.80000000e-01  4.59808289e-01  4.59808289e-01  3.37304314e-09  4.59808289e-01  3.25101776e-09  4.59808289e-01  3.30244677e-09  1.60616291e-07  6.97899907e-08  4.80000000e-01 
 4.90000000e-01  4.59808295e-01  4.59808295e-01  3.37304314e-09  4.59808295e-01  3.25101782e-09  4.59808295e-01  3.30244677e-09  1.60616298e-07  6.97899374e-08  4.90000000e-01 
 5.00000000e-01  4.59808297e-01  4.59808297e-01  3.37304314e-09  4.59808297e-01  3.25101782e-09  4.59808297e-01  3.30244677e-09  1.60616301e-07  6.97898557e-08  5.00000000e-01 
 5.10000000e-01  4.59808270e-01  4.59808269e-01  3.37304314e-09  4.59808269e-01  3.25101782e-09  4.59808269e-01  3.30244677e-09  1.60616269e-07  6.97897704e-08  5.10000000e-01 
 5.20000000e-01  4.59808299e-01  4.59808299e-01  3.37304315e-09  4.59808299e-01  3.25101776e-09  4.59808299e-01  3.30244677e-09  1.60616311e-07  6.97896390e-08  5.20000000e-01 
 5.30000000e-01  4.59808293e-01  4.59808293e-01  3.37304314e-09  4.59808293e-01  3.25101782e-09  4.59808293e-01  3.30244677e-09  1.60616291e-07  6.97897171e-08  5.30000000e-01 
 5.40000000e-01  4.59808305e-01  4.59808305e-01  3.37304320e-09  4.59808305e-01  3.25101782e-09  4.59808305e-01  3.30244677e-09  1.60616307e-07  6.97895999e-08  5.40000000e-01 
 5.50000000e-01  4.59808298e-01  4.59808298e-01  3.37304314e-09  4.59808298e-01  3.25101782e-09  4.59808298e-01  3.30244677e-09  1.60616307e-07  6.97896532e-08  5.50000000e-01 
 5.60000000e-01  4.59808305e-01  4.59808305e-01  3.37304315e-09  4.59808305e-01  3.25101782e-09  4.59808305e-01  3.30244677e-09  1.60616323e-07  6.97895040e-08  5.60000000e-01 
 5.70000000e-01  4.59808297e-01  4.59808297e-01  3.37304314e-09  4.59808297e-01  3.25101782e-09  4.59808297e-01  3.30244677e-09  1.60616295e-07  6.97893512e-08  5.70000000e-01 
 5.80000000e-01  4.59808302e-01  4.59808302e-01  3.37304315e-09  4.59808302e-01  3.25101782e-09  4.59808302e-01  3.30244677e-09  1.60616307e-07  6.97893014e-08  5.80000000e-01 
 5.90000000e-01  4.59808307e-01  4.59808307e-01  3.37304315e-09  4.59808307e-01  3.25101776e-09  4.59808307e-01  3.30244677e-09  1.60616321e-07  6.97894293e-08  5.90000000e-01 
 6.00000000e-01  4.59808319e-01  4.59808319e-01  3.37304315e-09  4.59808319e-01  3.25101782e-09  4.59808319e-01  3.30244677e-09  1.60616330e-07  6.97892091e-08  6.00000000e-01 
 6.10000000e-01  4.59808300e-01  4.59808300e-01  3.37304315e-09  4.59808300e-01  3.25101776e-09  4.59808300e-01  3.30244677e-09  1.60616309e-07  6.97891878e-08  6.10000000e-01 
 6.20000000e-01  4.59808298e-01  4.59808297e-01  3.37304314e-09  4.59808297e-01  3.25101776e-09  4.59808297e-01  3.30244677e-09  1.60616296e-07  6.97891593e-08  6.20000000e-01 
 6.30000000e-01  4.59808290e-01  4.59808290e-01  3.37304314e-09  4.59808290e-01  3.25101776e-09  4.59808290e-01  3.30244677e-09  1.60616289e-07  6.97890457e-08  6.30000000e-01 
 6.40000000e-01  4.59808284e-01  4.59808284e-01  3.37304314e-09  4.59808284e-01  3.25101782e-09  4.59808284e-01  3.30244677e-09  1.60616268e-07  6.97889035e-08  6.40000000e-01 
 6.50000000e-01  4.59808310e-01  4.59808310e-01  3.37304315e-09  4.59808310e-01  3.25101776e-09  4.59808310e-01  3.30244677e-09  1.60616320e-07  6.97889249e-08  6.50000000e-01 
 6.60000000e-01  4.59808288e-01  4.59808288e-01  3.37304314e-09  4.59808288e-01  3.25101782e-09  4.59808288e-01  3.30244677e-09  1.60616278e-07  6.97888964e-08  6.60000000e-01 
 6.70000000e-01  4.59808282e-01  4.59808282e-01  3.37304314e-09  4.59808282e-01  3.25101776e-09  4.59808282e-01  3.30244677e-09  1.60616266e-07  6.97886620e-08  6.70000000e-01 
 6.80000000e-01  4.59808272e-01  4.59808272e-01  3.37304314e-09  4.59808272e-01  3.25101782e-09  4.59808272e-01  3.30244677e-09  1.60616268e-07  6.97886691e-08  6.80000000e-01 
 6.90000000e-01  4.59808286e-01  4.59808286e-01  3.37304314e-09  4.59808286e-01  3.25101782e-09  4.59808286e-01  3.30244677e-09  1.60616285e-07  6.97886691e-08  6.90000000e-01 
 7.00000000e-01  4.59808281e-01  4.59808280e-01  3.37304314e-09  4.59808281e-01  3.25101782e-09  4.59808280e-01  3.30244677e-09  1.60616280e-07  6.97886193e-08  7.00000000e-01 
 7.10000000e-01  4.59808297e-01  4.59808297e-01  3.37304314e-09  4.59808297e-01  3.25101776e-09  4.59808297e-01  3.30244677e-09  1.60616304e-07  6.97885199e-08  7.10000000e-01 
 7.20000000e-01  4.59808289e-01  4.59808289e-01  3.37304314e-09  4.59808289e-01  3.25101776e-09  4.59808289e-01  3.30244677e-09  1.60616282e-07  6.97884914e-08  7.20000000e-01 
 7.30000000e-01  4.59808302e-01  4.59808302e-01  3.37304315e-09  4.59808302e-01  3.25101776e-09  4.59808302e-01  3.30244677e-09  1.60616313e-07  6.97884275e-08  7.30000000e-01 
 7.40000000e-01  4.59808305e-01  4.59808305e-01  3.37304315e-09  4.59808305e-01  3.25101776e-09  4.59808305e-01  3.30244677e-09  1.60616311e-07  6.97884062e-08  7.40000000e-01 
 7.50000000e-01  4.59808298e-01  4.59808298e-01  3.37304314e-09  4.59808298e-01  3.25101776e-09  4.59808298e-01  3.30244677e-09  1.60616306e-07  6.97883351e-08  7.50000000e-01 
 7.60000000e-01  4.59808300e-01  4.59808299e-01  3.37304315e-09  4.59808300e-01  3.25101782e-09  4.59808299e-01  3.30244677e-09  1.60616312e-07  6.97881433e-08  7.60000000e-01 
 7.70000000e-01  4.59808315e-01  4.59808315e-01  3.37304315e-09  4.59808315e-01  3.25101782e-09  4.59808315e-01  3.30244677e-09  1.60616322e-07  6.97881717e-08  7.70000000e-01 
 7.80000000e-01  4.59808302e-01  4.59808302e-01  3.37304315e-09  4.59808302e-01  3.25101776e-09  4.59808302e-01  3.30244677e-09  1.60616305e-07  6.97879727e-08  7.80000000e-01 
 7.90000000e-01  4.59808290e-01  4.59808290e-01  3.37304314e-09  4.59808290e-01  3.25101782e-09  4.59808290e-01  3.30244677e-09  1.60616285e-07  6.97880438e-08  7.90000000e-01 
 8.00000000e-01  4.59808305e-01  4.59808305e-01  3.37304315e-09  4.59808305e-01  3.25101776e-09  4.59808305e-01  3.30244677e-09  1.60616318e-07  6.97878519e-08  8.00000000e-01 
 8.10000000e-01  4.59808306e-01  4.59808306e-01  3.37304315e-09  4.59808306e-01  3.25101782e-09  4.59808306e-01  3.30244677e-09  1.60616316e-07  6.97878306e-08  8.10000000e-01 
 8.20000000e-01  4.59808305e-01  4.59808305e-01  3.37304315e-09  4.59808305e-01  3.25101782e-09  4.59808305e-01  3.30244677e-09  1.60616306e-07  6.97877027e-08  8.20000000e-01 
 8.30000000e-01  4.59808268e-01  4.59808268e-01  3.37304314e-09  4.59808268e-01  3.25101782e-09  4.59808268e-01  3.30244677e-09  1.60616260e-07  6.97876317e-08  8.30000000e-01 
 8.40000000e-01  4.59808294e-01  4.59808294e-01  3.37304314e-09  4.59808294e-01  3.25101776e-09  4.59808294e-01  3.30244677e-09  1.60616296e-07  6.97878164e-08  8.40000000e-01 
 8.50000000e-01  4.59808301e-01  4.59808301e-01  3.37304315e-09  4.59808301e-01  3.25101776e-09  4.59808301e-01  3.30244677e-09  1.60616316e-07  6.97876530e-08  8.50000000e-01 
 8.60000000e-01  4.59808301e-01  4.59808300e-01  3.37304315e-09  4.59808301e-01  3.25101776e-09  4.59808300e-01  3.30244677e-09  1.60616294e-07  6.97875109e-08  8.60000000e-01 
 8.70000000e-01  4.59808288e-01  4.59808288e-01  3.37304314e-09  4.59808288e-01  3.25101776e-09  4.59808288e-01  3.30244677e-09  1.60616298e-07  6.97874682e-08  8.70000000e-01 
 8.80000000e-01  4.59808292e-01  4.59808292e-01  3.37304314e-09  4.59808292e-01  3.25101782e-09  4.59808292e-01  3.30244677e-09  1.60616288e-07  6.97873759e-08  8.80000000e-01 
 8.90000000e-01  4.59808283e-01  4.59808283e-01  3.37304314e-09  4.59808283e-01  3.25101776e-09  4.59808283e-01  3.30244677e-09  1.60616288e-07  6.97872409e-08  8.90000000e-01 
 9.00000000e-01  4.59808301e-01  4.59808301e-01  3.37304315e-09  4.59808301e-01  3.25101776e-09  4.59808301e-01  3.30244677e-09  1.60616294e-07  6.97873475e-08  9.00000000e-01 
 9.10000000e-01  4.59808310e-01  4.59808310e-01  3.37304315e-09  4.59808310e-01  3.25101776e-09  4.59808310e-01  3.30244677e-09  1.60616326e-07  6.97872622e-08  9.10000000e-01 
 9.20000000e-01  4.59808316e-01  4.59808316e-01  3.37304315e-09  4.59808316e-01  3.25101777e-09  4.59808316e-01  3.30244677e-09  1.60616324e-07  6.97872267e-08  9.20000000e-01 
 9.30000000e-01  4.59808308e-01  4.59808308e-01  3.37304315e-09  4.59808308e-01  3.25101776e-09  4.59808308e-01  3.30244677e-09  1.60616308e-07  6.97872267e-08  9.30000000e-01 
 9.40000000e-01  4.59808267e-01  4.59808267e-01  3.37304314e-09  4.59808267e-01  3.25101782e-09  4.59808267e-01  3.30244677e-09  1.60616251e-07  6.97869709e-08  9.40000000e-01 
 9.50000000e-01  4.59808319e-01  4.59808318e-01  3.37304315e-09  4.59808319e-01  3.25101777e-09  4.59808318e-01  3.30244677e-09  1.60616351e-07  6.97868785e-08  9.50000000e-01 
 9.60000000e-01  4.59808294e-01  4.59808294e-01  3.37304320e-09  4.59808294e-01  3.25101782e-09  4.59808294e-01  3.30244677e-09  1.60616291e-07  6.97867222e-08  9.60000000e-01 
 9.70000000e-01  4.59808303e-01  4.59808303e-01  3.37304315e-09  4.59808303e-01  3.25101782e-09  4.59808303e-01  3.30244677e-09  1.60616319e-07  6.97868074e-08  9.70000000e-01 
 9.80000000e-01  4.59808300e-01  4.59808300e-01  3.37304315e-09  4.59808300e-01  3.25101776e-09  4.59808300e-01  3.30244677e-09  1.60616302e-07  6.97867293e-08  9.80000000e-01 
 9.90000000e-01  4.59808300e-01  4.59808300e-01  3.37304315e-09  4.59808300e-01  3.25101782e-09  4.59808300e-01  3.30244677e-09  1.60616301e-07  6.97866227e-08  9.90000000e-01 
 1.00000000e+00  4.59808285e-01  4.59808285e-01  3.37304314e-09  4.59808285e-01  3.25101782e-09  4.59808285e-01  3.30244677e-09  1.60616285e-07  6.97865232e-08  1.00000000e+00 
 1.01000000e+00  4.59808294e-01  4.59808293e-01  3.37304314e-09  4.59808293e-01  3.25101776e-09  4.59808293e-01  3.30244677e-09  1.60616300e-07  6.97865801e-08  1.01000000e+00 
 1.02000000e+00  4.59808301e-01  4.59808300e-01  3.37304315e-09  4.59808301e-01  3.25101776e-09  4.59808301e-01  3.30244677e-09  1.60616306e-07  6.97864024e-08  1.02000000e+00 
 1.03000000e+00  4.59808290e-01  4.59808290e-01  3.37304314e-09  4.59808290e-01  3.25101782e-09  4.59808290e-01  3.30244677e-09  1.60616278e-07  6.97864309e-08  1.03000000e+00 
 1.04000000e+00  4.59808301e-01  4.59808301e-01  3.37304315e-09  4.59808301e-01  3.25101782e-09  4.59808301e-01  3.30244677e-09  1.60616301e-07  6.97863527e-08  1.04000000e+00 
 1.05000000e+00  4.59808308e-01  4.59808308e-01  3.37304315e-09  4.59808308e-01  3.25101776e-09  4.59808308e-01  3.30244677e-09  1.60616317e-07  6.97863385e-08  1.05000000e+00 
 1.06000000e+00  4.59808287e-01  4.59808287e-01  3.37304314e-09  4.59808287e-01  3.25101776e-09  4.59808287e-01  3.30244677e-09  1.60616282e-07  6.97861822e-08  1.06000000e+00 
 1.07000000e+00  4.59808280e-01  4.59808280e-01  3.37304314e-09  4.59808280e-01  3.25101782e-09  4.59808280e-01  3.30244677e-09  1.60616264e-07  6.97860685e-08  1.07000000e+00 
 1.08000000e+00  4.59808283e-01  4.59808283e-01  3.37304314e-09  4.59808283e-01  3.25101776e-09  4.59808283e-01  3.30244677e-09  1.60616285e-07  6.97860187e-08  1.08000000e+00 
 1.09000000e+00  4.59808305e-01  4.59808305e-01  3.37304315e-09  4.59808305e-01  3.25101782e-09  4.59808305e-01  3.30244677e-09  1.60616306e-07  6.97859264e-08  1.09000000e+00 
 1.10000000e+00  4.59808304e-01  4.59808304e-01  3.37304315e-09  4.59808304e-01  3.25101782e-09  4.59808304e-01  3.30244677e-09  1.60616315e-07  6.97859548e-08  1.10000000e+00 
