 v-sweep         v(b0)           v(b1)           v(b2)           v(b3)           v(b4)           v(b5)           v(b6)           i(vbias)        i(viout)        v(vout)        
 0.00000000e+00  4.60007111e-01  4.60007111e-01  4.60007111e-01  4.60007110e-01  4.60007111e-01  3.29014127e-09  3.32461851e-09  1.61626803e-07  4.66730127e-08  0.00000000e+00 
 1.00000000e-02  4.60007102e-01  4.60007102e-01  4.60007102e-01  4.60007102e-01  4.60007102e-01  3.29014131e-09  3.32461849e-09  1.61626810e-07  4.66726408e-08  1.00000000e-02 
 2.00000000e-02  4.60007087e-01  4.60007088e-01  4.60007087e-01  4.60007087e-01  4.60007087e-01  3.29014130e-09  3.32461843e-09  1.61626792e-07  4.66721484e-08  2.00000000e-02 
 3.00000000e-02  4.60007114e-01  4.60007114e-01  4.60007114e-01  4.60007113e-01  4.60007114e-01  3.29014131e-09  3.32461850e-09  1.61626811e-07  4.66718513e-08  3.00000000e-02 
 4.00000000e-02  4.60007099e-01  4.60007099e-01  4.60007098e-01  4.60007098e-01  4.60007098e-01  3.29014130e-09  3.32461849e-09  1.61626802e-07  4.66714494e-08  4.00000000e-02 
 5.00000000e-02  4.60007104e-01  4.60007104e-01  4.60007104e-01  4.60007104e-01  4.60007104e-01  3.29014131e-09  3.32461849e-09  1.61626802e-07  4.66710888e-08  5.00000000e-02 
 6.00000000e-02  4.60007109e-01  4.60007109e-01  4.60007109e-01  4.60007109e-01  4.60007109e-01  3.29014131e-09  3.32461849e-09  1.61626810e-07  4.66709138e-08  6.00000000e-02 
 7.00000000e-02  4.60007112e-01  4.60007112e-01  4.60007112e-01  4.60007112e-01  4.60007112e-01  3.29014125e-09  3.32461849e-09  1.61626817e-07  4.66704213e-08  7.00000000e-02 
 8.00000000e-02  4.60007100e-01  4.60007100e-01  4.60007100e-01  4.60007100e-01  4.60007100e-01  3.29014130e-09  3.32461843e-09  1.61626791e-07  4.66701637e-08  8.00000000e-02 
 9.00000000e-02  4.60007107e-01  4.60007108e-01  4.60007107e-01  4.60007107e-01  4.60007107e-01  3.29014125e-09  3.32461850e-09  1.61626815e-07  4.66699976e-08  9.00000000e-02 
 1.00000000e-01  4.60007094e-01  4.60007094e-01  4.60007094e-01  4.60007094e-01  4.60007094e-01  3.29014125e-09  3.32461849e-09  1.61626781e-07  4.66696113e-08  1.00000000e-01 
 1.10000000e-01  4.60007135e-01  4.60007135e-01  4.60007135e-01  4.60007135e-01  4.60007135e-01  3.29014125e-09  3.32461844e-09  1.61626833e-07  4.66695056e-08  1.10000000e-01 
 1.20000000e-01  4.60007122e-01  4.60007123e-01  4.60007122e-01  4.60007122e-01  4.60007122e-01  3.29014125e-09  3.32461845e-09  1.61626813e-07  4.66692720e-08  1.20000000e-01 
 1.30000000e-01  4.60007109e-01  4.60007109e-01  4.60007109e-01  4.60007109e-01  4.60007109e-01  3.29014131e-09  3.32461850e-09  1.61626810e-07  4.66689620e-08  1.30000000e-01 
 1.40000000e-01  4.60007115e-01  4.60007115e-01  4.60007115e-01  4.60007115e-01  4.60007115e-01  3.29014125e-09  3.32461849e-09  1.61626819e-07  4.66687942e-08  1.40000000e-01 
 1.50000000e-01  4.60007097e-01  4.60007097e-01  4.60007097e-01  4.60007097e-01  4.60007097e-01  3.29014125e-09  3.32461849e-09  1.61626799e-07  4.66685357e-08  1.50000000e-01 
 1.60000000e-01  4.60007099e-01  4.60007099e-01  4.60007099e-01  4.60007099e-01  4.60007099e-01  3.29014125e-09  3.32461843e-09  1.61626810e-07  4.66683279e-08  1.60000000e-01 
 1.70000000e-01  4.60007113e-01  4.60007113e-01  4.60007113e-01  4.60007113e-01  4.60007113e-01  3.29014131e-09  3.32461850e-09  1.61626806e-07  4.66682639e-08  1.70000000e-01 
 1.80000000e-01  4.60007089e-01  4.60007089e-01  4.60007089e-01  4.60007089e-01  4.60007089e-01  3.29014130e-09  3.32461849e-09  1.61626779e-07  4.66680028e-08  1.80000000e-01 
 1.90000000e-01  4.60007112e-01  4.60007112e-01  4.60007112e-01  4.60007112e-01  4.60007112e-01  3.29014125e-09  3.32461849e-09  1.61626821e-07  4.66678589e-08  1.90000000e-01 
 2.00000000e-01  4.60007096e-01  4.60007096e-01  4.60007096e-01  4.60007096e-01  4.60007096e-01  3.29014125e-09  3.32461849e-09  1.61626790e-07  4.66676386e-08  2.00000000e-01 
 2.10000000e-01  4.60007109e-01  4.60007109e-01  4.60007109e-01  4.60007109e-01  4.60007109e-01  3.29014125e-09  3.32461849e-09  1.61626815e-07  4.66674770e-08  2.10000000e-01 
 2.20000000e-01  4.60007123e-01  4.60007123e-01  4.60007123e-01  4.60007123e-01  4.60007123e-01  3.29014131e-09  3.32461849e-09  1.61626826e-07  4.66674379e-08  2.20000000e-01 
 2.30000000e-01  4.60007116e-01  4.60007116e-01  4.60007116e-01  4.60007116e-01  4.60007116e-01  3.29014131e-09  3.32461849e-09  1.61626816e-07  4.66673402e-08  2.30000000e-01 
 2.40000000e-01  4.60007109e-01  4.60007109e-01  4.60007109e-01  4.60007109e-01  4.60007109e-01  3.29014131e-09  3.32461844e-09  1.61626806e-07  4.66671803e-08  2.40000000e-01 
 2.50000000e-01  4.60007123e-01  4.60007124e-01  4.60007123e-01  4.60007123e-01  4.60007123e-01  3.29014131e-09  3.32461851e-09  1.61626831e-07  4.66670222e-08  2.50000000e-01 
 2.60000000e-01  4.60007100e-01  4.60007100e-01  4.60007100e-01  4.60007100e-01  4.60007100e-01  3.29014125e-09  3.32461849e-09  1.61626801e-07  4.66668233e-08  2.60000000e-01 
 2.70000000e-01  4.60007117e-01  4.60007117e-01  4.60007116e-01  4.60007116e-01  4.60007116e-01  3.29014125e-09  3.32461844e-09  1.61626826e-07  4.66667078e-08  2.70000000e-01 
 2.80000000e-01  4.60007122e-01  4.60007122e-01  4.60007122e-01  4.60007122e-01  4.60007122e-01  3.29014131e-09  3.32461851e-09  1.61626822e-07  4.66666510e-08  2.80000000e-01 
 2.90000000e-01  4.60007103e-01  4.60007103e-01  4.60007103e-01  4.60007103e-01  4.60007103e-01  3.29014131e-09  3.32461849e-09  1.61626793e-07  4.66665284e-08  2.90000000e-01 
 3.00000000e-01  4.60007090e-01  4.60007090e-01  4.60007090e-01  4.60007090e-01  4.60007090e-01  3.29014125e-09  3.32461849e-09  1.61626778e-07  4.66664680e-08  3.00000000e-01 
 3.10000000e-01  4.60007112e-01  4.60007112e-01  4.60007112e-01  4.60007112e-01  4.60007112e-01  3.29014125e-09  3.32461849e-09  1.61626809e-07  4.66662193e-08  3.10000000e-01 
 3.20000000e-01  4.60007110e-01  4.60007110e-01  4.60007110e-01  4.60007110e-01  4.60007110e-01  3.29014131e-09  3.32461849e-09  1.61626820e-07  4.66662051e-08  3.20000000e-01 
 3.30000000e-01  4.60007137e-01  4.60007137e-01  4.60007137e-01  4.60007137e-01  4.60007137e-01  3.29014131e-09  3.32461844e-09  1.61626843e-07  4.66662051e-08  3.30000000e-01 
 3.40000000e-01  4.60007106e-01  4.60007106e-01  4.60007106e-01  4.60007106e-01  4.60007106e-01  3.29014131e-09  3.32461845e-09  1.61626807e-07  4.66660381e-08  3.40000000e-01 
 3.50000000e-01  4.60007094e-01  4.60007094e-01  4.60007094e-01  4.60007094e-01  4.60007094e-01  3.29014125e-09  3.32461850e-09  1.61626786e-07  4.66659316e-08  3.50000000e-01 
 3.60000000e-01  4.60007105e-01  4.60007105e-01  4.60007105e-01  4.60007105e-01  4.60007105e-01  3.29014125e-09  3.32461849e-09  1.61626799e-07  4.66658570e-08  3.60000000e-01 
 3.70000000e-01  4.60007087e-01  4.60007088e-01  4.60007087e-01  4.60007087e-01  4.60007087e-01  3.29014125e-09  3.32461849e-09  1.61626777e-07  4.66657717e-08  3.70000000e-01 
 3.80000000e-01  4.60007111e-01  4.60007112e-01  4.60007111e-01  4.60007111e-01  4.60007111e-01  3.29014131e-09  3.32461849e-09  1.61626818e-07  4.66657575e-08  3.80000000e-01 
 3.90000000e-01  4.60007100e-01  4.60007100e-01  4.60007100e-01  4.60007100e-01  4.60007100e-01  3.29014125e-09  3.32461849e-09  1.61626794e-07  4.66657042e-08  3.90000000e-01 
 4.00000000e-01  4.60007092e-01  4.60007092e-01  4.60007091e-01  4.60007091e-01  4.60007091e-01  3.29014130e-09  3.32461849e-09  1.61626787e-07  4.66655301e-08  4.00000000e-01 
 4.10000000e-01  4.60007109e-01  4.60007109e-01  4.60007109e-01  4.60007109e-01  4.60007109e-01  3.29014125e-09  3.32461849e-09  1.61626816e-07  4.66655692e-08  4.10000000e-01 
 4.20000000e-01  4.60007121e-01  4.60007121e-01  4.60007121e-01  4.60007121e-01  4.60007121e-01  3.29014125e-09  3.32461849e-09  1.61626829e-07  4.66652459e-08  4.20000000e-01 
 4.30000000e-01  4.60007082e-01  4.60007082e-01  4.60007082e-01  4.60007082e-01  4.60007082e-01  3.29014130e-09  3.32461849e-09  1.61626772e-07  4.66651358e-08  4.30000000e-01 
 4.40000000e-01  4.60007120e-01  4.60007120e-01  4.60007120e-01  4.60007119e-01  4.60007120e-01  3.29014131e-09  3.32461849e-09  1.61626841e-07  4.66651784e-08  4.40000000e-01 
 4.50000000e-01  4.60007081e-01  4.60007081e-01  4.60007081e-01  4.60007081e-01  4.60007081e-01  3.29014125e-09  3.32461849e-09  1.61626779e-07  4.66650718e-08  4.50000000e-01 
 4.60000000e-01  4.60007120e-01  4.60007120e-01  4.60007120e-01  4.60007120e-01  4.60007120e-01  3.29014131e-09  3.32461844e-09  1.61626831e-07  4.66651073e-08  4.60000000e-01 
 4.70000000e-01  4.60007088e-01  4.60007088e-01  4.60007088e-01  4.60007088e-01  4.60007088e-01  3.29014130e-09  3.32461850e-09  1.61626786e-07  4.66649404e-08  4.70000000e-01 
 4.80000000e-01  4.60007127e-01  4.60007127e-01  4.60007127e-01  4.60007127e-01  4.60007127e-01  3.29014125e-09  3.32461849e-09  1.61626843e-07  4.66649546e-08  4.80000000e-01 
 4.90000000e-01  4.60007095e-01  4.60007095e-01  4.60007095e-01  4.60007095e-01  4.60007095e-01  3.29014125e-09  3.32461849e-09  1.61626781e-07  4.66649581e-08  4.90000000e-01 
 5.00000000e-01  4.60007117e-01  4.60007117e-01  4.60007117e-01  4.60007117e-01  4.60007117e-01  3.29014125e-09  3.32461844e-09  1.61626821e-07  4.66648444e-08  5.00000000e-01 
 5.10000000e-01  4.60007076e-01  4.60007076e-01  4.60007076e-01  4.60007076e-01  4.60007076e-01  3.29014130e-09  3.32461850e-09  1.61626749e-07  4.66646561e-08  5.10000000e-01 
 5.20000000e-01  4.60007104e-01  4.60007104e-01  4.60007104e-01  4.60007104e-01  4.60007104e-01  3.29014131e-09  3.32461849e-09  1.61626810e-07  4.66647059e-08  5.20000000e-01 
 5.30000000e-01  4.60007076e-01  4.60007076e-01  4.60007076e-01  4.60007076e-01  4.60007076e-01  3.29014125e-09  3.32461849e-09  1.61626750e-07  4.66646313e-08  5.30000000e-01 
 5.40000000e-01  4.60007108e-01  4.60007108e-01  4.60007108e-01  4.60007108e-01  4.60007108e-01  3.29014131e-09  3.32461849e-09  1.61626818e-07  4.66645389e-08  5.40000000e-01 
 5.50000000e-01  4.60007090e-01  4.60007090e-01  4.60007090e-01  4.60007090e-01  4.60007090e-01  3.29014130e-09  3.32461843e-09  1.61626786e-07  4.66644892e-08  5.50000000e-01 
 5.60000000e-01  4.60007101e-01  4.60007101e-01  4.60007101e-01  4.60007101e-01  4.60007101e-01  3.29014125e-09  3.32461850e-09  1.61626796e-07  4.66645069e-08  5.60000000e-01 
 5.70000000e-01  4.60007081e-01  4.60007081e-01  4.60007081e-01  4.60007081e-01  4.60007081e-01  3.29014130e-09  3.32461849e-09  1.61626763e-07  4.66643328e-08  5.70000000e-01 
 5.80000000e-01  4.60007134e-01  4.60007134e-01  4.60007134e-01  4.60007134e-01  4.60007134e-01  3.29014125e-09  3.32461849e-09  1.61626845e-07  4.66644465e-08  5.80000000e-01 
 5.90000000e-01  4.60007087e-01  4.60007087e-01  4.60007087e-01  4.60007087e-01  4.60007087e-01  3.29014130e-09  3.32461849e-09  1.61626776e-07  4.66643826e-08  5.90000000e-01 
 6.00000000e-01  4.60007103e-01  4.60007103e-01  4.60007103e-01  4.60007102e-01  4.60007103e-01  3.29014131e-09  3.32461844e-09  1.61626817e-07  4.66641765e-08  6.00000000e-01 
 6.10000000e-01  4.60007098e-01  4.60007099e-01  4.60007098e-01  4.60007098e-01  4.60007098e-01  3.29014125e-09  3.32461850e-09  1.61626789e-07  4.66641907e-08  6.10000000e-01 
 6.20000000e-01  4.60007125e-01  4.60007125e-01  4.60007125e-01  4.60007125e-01  4.60007125e-01  3.29014131e-09  3.32461849e-09  1.61626828e-07  4.66641552e-08  6.20000000e-01 
 6.30000000e-01  4.60007070e-01  4.60007070e-01  4.60007070e-01  4.60007070e-01  4.60007070e-01  3.29014130e-09  3.32461849e-09  1.61626747e-07  4.66639634e-08  6.30000000e-01 
 6.40000000e-01  4.60007118e-01  4.60007118e-01  4.60007118e-01  4.60007118e-01  4.60007118e-01  3.29014125e-09  3.32461849e-09  1.61626837e-07  4.66640770e-08  6.40000000e-01 
 6.50000000e-01  4.60007108e-01  4.60007108e-01  4.60007108e-01  4.60007108e-01  4.60007108e-01  3.29014125e-09  3.32461849e-09  1.61626793e-07  4.66639136e-08  6.50000000e-01 
 6.60000000e-01  4.60007124e-01  4.60007124e-01  4.60007123e-01  4.60007123e-01  4.60007123e-01  3.29014131e-09  3.32461849e-09  1.61626832e-07  4.66638994e-08  6.60000000e-01 
 6.70000000e-01  4.60007100e-01  4.60007100e-01  4.60007100e-01  4.60007100e-01  4.60007100e-01  3.29014125e-09  3.32461849e-09  1.61626793e-07  4.66637644e-08  6.70000000e-01 
 6.80000000e-01  4.60007108e-01  4.60007108e-01  4.60007108e-01  4.60007107e-01  4.60007107e-01  3.29014125e-09  3.32461849e-09  1.61626813e-07  4.66638426e-08  6.80000000e-01 
 6.90000000e-01  4.60007100e-01  4.60007101e-01  4.60007100e-01  4.60007100e-01  4.60007100e-01  3.29014130e-09  3.32461849e-09  1.61626791e-07  4.66636720e-08  6.90000000e-01 
 7.00000000e-01  4.60007121e-01  4.60007121e-01  4.60007121e-01  4.60007121e-01  4.60007121e-01  3.29014125e-09  3.32461849e-09  1.61626821e-07  4.66637289e-08  7.00000000e-01 
 7.10000000e-01  4.60007096e-01  4.60007096e-01  4.60007096e-01  4.60007096e-01  4.60007096e-01  3.29014130e-09  3.32461849e-09  1.61626776e-07  4.66636081e-08  7.10000000e-01 
 7.20000000e-01  4.60007120e-01  4.60007120e-01  4.60007120e-01  4.60007120e-01  4.60007120e-01  3.29014125e-09  3.32461849e-09  1.61626840e-07  4.66634660e-08  7.20000000e-01 
 7.30000000e-01  4.60007087e-01  4.60007087e-01  4.60007086e-01  4.60007086e-01  4.60007086e-01  3.29014125e-09  3.32461849e-09  1.61626751e-07  4.66634305e-08  7.30000000e-01 
 7.40000000e-01  4.60007120e-01  4.60007120e-01  4.60007120e-01  4.60007120e-01  4.60007120e-01  3.29014131e-09  3.32461849e-09  1.61626836e-07  4.66634376e-08  7.40000000e-01 
 7.50000000e-01  4.60007095e-01  4.60007095e-01  4.60007095e-01  4.60007095e-01  4.60007095e-01  3.29014125e-09  3.32461849e-09  1.61626785e-07  4.66633523e-08  7.50000000e-01 
 7.60000000e-01  4.60007121e-01  4.60007121e-01  4.60007121e-01  4.60007121e-01  4.60007121e-01  3.29014125e-09  3.32461849e-09  1.61626823e-07  4.66633168e-08  7.60000000e-01 
 7.70000000e-01  4.60007110e-01  4.60007110e-01  4.60007110e-01  4.60007110e-01  4.60007110e-01  3.29014131e-09  3.32461849e-09  1.61626813e-07  4.66631818e-08  7.70000000e-01 
 7.80000000e-01  4.60007093e-01  4.60007093e-01  4.60007093e-01  4.60007093e-01  4.60007093e-01  3.29014130e-09  3.32461849e-09  1.61626792e-07  4.66632315e-08  7.80000000e-01 
 7.90000000e-01  4.60007120e-01  4.60007120e-01  4.60007120e-01  4.60007119e-01  4.60007119e-01  3.29014131e-09  3.32461849e-09  1.61626826e-07  4.66632173e-08  7.90000000e-01 
 8.00000000e-01  4.60007106e-01  4.60007106e-01  4.60007105e-01  4.60007105e-01  4.60007105e-01  3.29014125e-09  3.32461849e-09  1.61626790e-07  4.66630894e-08  8.00000000e-01 
 8.10000000e-01  4.60007109e-01  4.60007109e-01  4.60007109e-01  4.60007109e-01  4.60007109e-01  3.29014131e-09  3.32461849e-09  1.61626817e-07  4.66629757e-08  8.10000000e-01 
 8.20000000e-01  4.60007108e-01  4.60007108e-01  4.60007108e-01  4.60007108e-01  4.60007108e-01  3.29014125e-09  3.32461849e-09  1.61626817e-07  4.66629331e-08  8.20000000e-01 
 8.30000000e-01  4.60007124e-01  4.60007125e-01  4.60007124e-01  4.60007124e-01  4.60007124e-01  3.29014125e-09  3.32461849e-09  1.61626830e-07  4.66629544e-08  8.30000000e-01 
 8.40000000e-01  4.60007082e-01  4.60007082e-01  4.60007082e-01  4.60007081e-01  4.60007082e-01  3.29014130e-09  3.32461849e-09  1.61626769e-07  4.66628407e-08  8.40000000e-01 
 8.50000000e-01  4.60007116e-01  4.60007116e-01  4.60007116e-01  4.60007116e-01  4.60007116e-01  3.29014131e-09  3.32461849e-09  1.61626824e-07  4.66628407e-08  8.50000000e-01 
 8.60000000e-01  4.60007107e-01  4.60007107e-01  4.60007107e-01  4.60007107e-01  4.60007107e-01  3.29014131e-09  3.32461849e-09  1.61626803e-07  4.66627199e-08  8.60000000e-01 
 8.70000000e-01  4.60007113e-01  4.60007113e-01  4.60007113e-01  4.60007113e-01  4.60007113e-01  3.29014131e-09  3.32461849e-09  1.61626821e-07  4.66626204e-08  8.70000000e-01 
 8.80000000e-01  4.60007090e-01  4.60007090e-01  4.60007090e-01  4.60007090e-01  4.60007090e-01  3.29014125e-09  3.32461849e-09  1.61626774e-07  4.66625991e-08  8.80000000e-01 
 8.90000000e-01  4.60007097e-01  4.60007097e-01  4.60007097e-01  4.60007097e-01  4.60007097e-01  3.29014125e-09  3.32461849e-09  1.61626811e-07  4.66625423e-08  8.90000000e-01 
 9.00000000e-01  4.60007078e-01  4.60007078e-01  4.60007078e-01  4.60007078e-01  4.60007078e-01  3.29014125e-09  3.32461849e-09  1.61626763e-07  4.66624428e-08  9.00000000e-01 
 9.10000000e-01  4.60007108e-01  4.60007108e-01  4.60007108e-01  4.60007108e-01  4.60007108e-01  3.29014131e-09  3.32461849e-09  1.61626811e-07  4.66623931e-08  9.10000000e-01 
 9.20000000e-01  4.60007098e-01  4.60007098e-01  4.60007098e-01  4.60007098e-01  4.60007098e-01  3.29014125e-09  3.32461849e-09  1.61626789e-07  4.66623007e-08  9.20000000e-01 
 9.30000000e-01  4.60007088e-01  4.60007088e-01  4.60007088e-01  4.60007087e-01  4.60007088e-01  3.29014125e-09  3.32461849e-09  1.61626774e-07  4.66622723e-08  9.30000000e-01 
 9.40000000e-01  4.60007106e-01  4.60007106e-01  4.60007106e-01  4.60007106e-01  4.60007106e-01  3.29014131e-09  3.32461849e-09  1.61626808e-07  4.66621302e-08  9.40000000e-01 
 9.50000000e-01  4.60007083e-01  4.60007083e-01  4.60007083e-01  4.60007083e-01  4.60007083e-01  3.29014125e-09  3.32461849e-09  1.61626782e-07  4.66621088e-08  9.50000000e-01 
 9.60000000e-01  4.60007128e-01  4.60007128e-01  4.60007128e-01  4.60007128e-01  4.60007128e-01  3.29014131e-09  3.32461849e-09  1.61626839e-07  4.66622083e-08  9.60000000e-01 
 9.70000000e-01  4.60007108e-01  4.60007109e-01  4.60007108e-01  4.60007108e-01  4.60007108e-01  3.29014131e-09  3.32461849e-09  1.61626800e-07  4.66621231e-08  9.70000000e-01 
 9.80000000e-01  4.60007108e-01  4.60007108e-01  4.60007108e-01  4.60007108e-01  4.60007108e-01  3.29014125e-09  3.32461849e-09  1.61626807e-07  4.66620307e-08  9.80000000e-01 
 9.90000000e-01  4.60007116e-01  4.60007116e-01  4.60007116e-01  4.60007116e-01  4.60007116e-01  3.29014125e-09  3.32461849e-09  1.61626817e-07  4.66619809e-08  9.90000000e-01 
 1.00000000e+00  4.60007098e-01  4.60007098e-01  4.60007098e-01  4.60007098e-01  4.60007098e-01  3.29014125e-09  3.32461849e-09  1.61626790e-07  4.66617962e-08  1.00000000e+00 
 1.01000000e+00  4.60007095e-01  4.60007095e-01  4.60007095e-01  4.60007095e-01  4.60007095e-01  3.29014130e-09  3.32461843e-09  1.61626787e-07  4.66617536e-08  1.01000000e+00 
 1.02000000e+00  4.60007101e-01  4.60007101e-01  4.60007101e-01  4.60007100e-01  4.60007101e-01  3.29014125e-09  3.32461845e-09  1.61626796e-07  4.66617820e-08  1.02000000e+00 
 1.03000000e+00  4.60007117e-01  4.60007117e-01  4.60007116e-01  4.60007116e-01  4.60007116e-01  3.29014131e-09  3.32461844e-09  1.61626818e-07  4.66617038e-08  1.03000000e+00 
 1.04000000e+00  4.60007101e-01  4.60007101e-01  4.60007101e-01  4.60007101e-01  4.60007101e-01  3.29014131e-09  3.32461844e-09  1.61626819e-07  4.66615901e-08  1.04000000e+00 
 1.05000000e+00  4.60007094e-01  4.60007094e-01  4.60007094e-01  4.60007094e-01  4.60007094e-01  3.29014125e-09  3.32461850e-09  1.61626788e-07  4.66615475e-08  1.05000000e+00 
 1.06000000e+00  4.60007099e-01  4.60007099e-01  4.60007099e-01  4.60007099e-01  4.60007099e-01  3.29014130e-09  3.32461849e-09  1.61626796e-07  4.66614480e-08  1.06000000e+00 
 1.07000000e+00  4.60007101e-01  4.60007101e-01  4.60007101e-01  4.60007101e-01  4.60007101e-01  3.29014125e-09  3.32461849e-09  1.61626804e-07  4.66613344e-08  1.07000000e+00 
 1.08000000e+00  4.60007113e-01  4.60007113e-01  4.60007113e-01  4.60007113e-01  4.60007113e-01  3.29014131e-09  3.32461849e-09  1.61626817e-07  4.66614125e-08  1.08000000e+00 
 1.09000000e+00  4.60007098e-01  4.60007098e-01  4.60007098e-01  4.60007097e-01  4.60007097e-01  3.29014130e-09  3.32461849e-09  1.61626806e-07  4.66613130e-08  1.09000000e+00 
 1.10000000e+00  4.60007090e-01  4.60007090e-01  4.60007090e-01  4.60007090e-01  4.60007090e-01  3.29014130e-09  3.32461849e-09  1.61626790e-07  4.66612278e-08  1.10000000e+00 
