 v-sweep         v(b0)           v(b1)           v(b2)           v(b3)           v(b4)           v(b5)           v(b6)           i(vbias)        i(viout)        v(vout)        
 0.00000000e+00  4.57207392e-01  4.57207392e-01  3.47294390e-09  4.57207392e-01  3.58230553e-09  4.57207392e-01  4.57207391e-01  1.58163602e-07  1.55163857e-07  0.00000000e+00 
 1.00000000e-02  4.57207432e-01  4.57207432e-01  3.47294394e-09  4.57207432e-01  3.58230557e-09  4.57207432e-01  4.57207432e-01  1.58163658e-07  1.55163508e-07  1.00000000e-02 
 2.00000000e-02  4.57207400e-01  4.57207400e-01  3.47294394e-09  4.57207400e-01  3.58230557e-09  4.57207400e-01  4.57207400e-01  1.58163614e-07  1.55162982e-07  2.00000000e-02 
 3.00000000e-02  4.57207409e-01  4.57207409e-01  3.47294394e-09  4.57207409e-01  3.58230551e-09  4.57207409e-01  4.57207408e-01  1.58163617e-07  1.55162650e-07  3.00000000e-02 
 4.00000000e-02  4.57207395e-01  4.57207395e-01  3.47294394e-09  4.57207395e-01  3.58230557e-09  4.57207395e-01  4.57207395e-01  1.58163582e-07  1.55162177e-07  4.00000000e-02 
 5.00000000e-02  4.57207392e-01  4.57207392e-01  3.47294394e-09  4.57207392e-01  3.58230557e-09  4.57207392e-01  4.57207392e-01  1.58163584e-07  1.55161779e-07  5.00000000e-02 
 6.00000000e-02  4.57207434e-01  4.57207434e-01  3.47294394e-09  4.57207434e-01  3.58230551e-09  4.57207434e-01  4.57207434e-01  1.58163650e-07  1.55161639e-07  6.00000000e-02 
 7.00000000e-02  4.57207412e-01  4.57207412e-01  3.47294394e-09  4.57207412e-01  3.58230551e-09  4.57207412e-01  4.57207412e-01  1.58163624e-07  1.55161204e-07  7.00000000e-02 
 8.00000000e-02  4.57207418e-01  4.57207418e-01  3.47294394e-09  4.57207418e-01  3.58230551e-09  4.57207418e-01  4.57207418e-01  1.58163632e-07  1.55160856e-07  8.00000000e-02 
 9.00000000e-02  4.57207408e-01  4.57207408e-01  3.47294394e-09  4.57207408e-01  3.58230557e-09  4.57207408e-01  4.57207408e-01  1.58163611e-07  1.55160544e-07  9.00000000e-02 
 1.00000000e-01  4.57207430e-01  4.57207430e-01  3.47294394e-09  4.57207430e-01  3.58230557e-09  4.57207430e-01  4.57207429e-01  1.58163652e-07  1.55160372e-07  1.00000000e-01 
 1.10000000e-01  4.57207403e-01  4.57207403e-01  3.47294394e-09  4.57207403e-01  3.58230551e-09  4.57207403e-01  4.57207403e-01  1.58163607e-07  1.55159893e-07  1.10000000e-01 
 1.20000000e-01  4.57207416e-01  4.57207415e-01  3.47294394e-09  4.57207416e-01  3.58230557e-09  4.57207415e-01  4.57207415e-01  1.58163637e-07  1.55159638e-07  1.20000000e-01 
 1.30000000e-01  4.57207429e-01  4.57207429e-01  3.47294394e-09  4.57207429e-01  3.58230551e-09  4.57207429e-01  4.57207429e-01  1.58163650e-07  1.55159449e-07  1.30000000e-01 
 1.40000000e-01  4.57207398e-01  4.57207397e-01  3.47294394e-09  4.57207398e-01  3.58230551e-09  4.57207397e-01  4.57207397e-01  1.58163614e-07  1.55159144e-07  1.40000000e-01 
 1.50000000e-01  4.57207417e-01  4.57207417e-01  3.47294394e-09  4.57207417e-01  3.58230551e-09  4.57207417e-01  4.57207417e-01  1.58163631e-07  1.55158942e-07  1.50000000e-01 
 1.60000000e-01  4.57207395e-01  4.57207395e-01  3.47294394e-09  4.57207395e-01  3.58230557e-09  4.57207395e-01  4.57207395e-01  1.58163603e-07  1.55158528e-07  1.60000000e-01 
 1.70000000e-01  4.57207410e-01  4.57207410e-01  3.47294394e-09  4.57207410e-01  3.58230551e-09  4.57207410e-01  4.57207410e-01  1.58163612e-07  1.55158387e-07  1.70000000e-01 
 1.80000000e-01  4.57207415e-01  4.57207415e-01  3.47294394e-09  4.57207415e-01  3.58230557e-09  4.57207415e-01  4.57207415e-01  1.58163630e-07  1.55158165e-07  1.80000000e-01 
 1.90000000e-01  4.57207416e-01  4.57207416e-01  3.47294394e-09  4.57207416e-01  3.58230557e-09  4.57207416e-01  4.57207416e-01  1.58163629e-07  1.55158013e-07  1.90000000e-01 
 2.00000000e-01  4.57207399e-01  4.57207399e-01  3.47294399e-09  4.57207399e-01  3.58230551e-09  4.57207399e-01  4.57207399e-01  1.58163608e-07  1.55157789e-07  2.00000000e-01 
 2.10000000e-01  4.57207401e-01  4.57207401e-01  3.47294392e-09  4.57207401e-01  3.58230551e-09  4.57207401e-01  4.57207401e-01  1.58163615e-07  1.55157487e-07  2.10000000e-01 
 2.20000000e-01  4.57207426e-01  4.57207426e-01  3.47294394e-09  4.57207426e-01  3.58230557e-09  4.57207426e-01  4.57207426e-01  1.58163643e-07  1.55157519e-07  2.20000000e-01 
 2.30000000e-01  4.57207410e-01  4.57207410e-01  3.47294394e-09  4.57207410e-01  3.58230557e-09  4.57207410e-01  4.57207410e-01  1.58163623e-07  1.55157297e-07  2.30000000e-01 
 2.40000000e-01  4.57207410e-01  4.57207410e-01  3.47294394e-09  4.57207410e-01  3.58230551e-09  4.57207410e-01  4.57207410e-01  1.58163613e-07  1.55157046e-07  2.40000000e-01 
 2.50000000e-01  4.57207401e-01  4.57207401e-01  3.47294394e-09  4.57207401e-01  3.58230551e-09  4.57207401e-01  4.57207401e-01  1.58163610e-07  1.55156807e-07  2.50000000e-01 
 2.60000000e-01  4.57207398e-01  4.57207398e-01  3.47294394e-09  4.57207398e-01  3.58230551e-09  4.57207398e-01  4.57207398e-01  1.58163598e-07  1.55156792e-07  2.60000000e-01 
 2.70000000e-01  4.57207443e-01  4.57207443e-01  3.47294400e-09  4.57207443e-01  3.58230557e-09  4.57207443e-01  4.57207443e-01  1.58163686e-07  1.55156659e-07  2.70000000e-01 
 2.80000000e-01  4.57207401e-01  4.57207401e-01  3.47294398e-09  4.57207401e-01  3.58230551e-09  4.57207401e-01  4.57207401e-01  1.58163603e-07  1.55156425e-07  2.80000000e-01 
 2.90000000e-01  4.57207407e-01  4.57207407e-01  3.47294399e-09  4.57207407e-01  3.58230557e-09  4.57207407e-01  4.57207407e-01  1.58163622e-07  1.55156211e-07  2.90000000e-01 
 3.00000000e-01  4.57207412e-01  4.57207412e-01  3.47294393e-09  4.57207412e-01  3.58230557e-09  4.57207412e-01  4.57207412e-01  1.58163627e-07  1.55156084e-07  3.00000000e-01 
 3.10000000e-01  4.57207390e-01  4.57207389e-01  3.47294394e-09  4.57207390e-01  3.58230551e-09  4.57207389e-01  4.57207389e-01  1.58163589e-07  1.55155799e-07  3.10000000e-01 
 3.20000000e-01  4.57207418e-01  4.57207418e-01  3.47294394e-09  4.57207418e-01  3.58230551e-09  4.57207418e-01  4.57207418e-01  1.58163625e-07  1.55155803e-07  3.20000000e-01 
 3.30000000e-01  4.57207412e-01  4.57207412e-01  3.47294394e-09  4.57207412e-01  3.58230557e-09  4.57207412e-01  4.57207412e-01  1.58163623e-07  1.55155618e-07  3.30000000e-01 
 3.40000000e-01  4.57207412e-01  4.57207412e-01  3.47294394e-09  4.57207412e-01  3.58230551e-09  4.57207412e-01  4.57207412e-01  1.58163633e-07  1.55155536e-07  3.40000000e-01 
 3.50000000e-01  4.57207402e-01  4.57207402e-01  3.47294394e-09  4.57207402e-01  3.58230551e-09  4.57207402e-01  4.57207402e-01  1.58163605e-07  1.55155451e-07  3.50000000e-01 
 3.60000000e-01  4.57207414e-01  4.57207414e-01  3.47294394e-09  4.57207414e-01  3.58230551e-09  4.57207414e-01  4.57207414e-01  1.58163629e-07  1.55155281e-07  3.60000000e-01 
 3.70000000e-01  4.57207408e-01  4.57207408e-01  3.47294394e-09  4.57207408e-01  3.58230557e-09  4.57207408e-01  4.57207408e-01  1.58163609e-07  1.55155035e-07  3.70000000e-01 
 3.80000000e-01  4.57207397e-01  4.57207397e-01  3.47294394e-09  4.57207397e-01  3.58230551e-09  4.57207397e-01  4.57207396e-01  1.58163606e-07  1.55154911e-07  3.80000000e-01 
 3.90000000e-01  4.57207405e-01  4.57207405e-01  3.47294394e-09  4.57207405e-01  3.58230551e-09  4.57207405e-01  4.57207405e-01  1.58163612e-07  1.55154854e-07  3.90000000e-01 
 4.00000000e-01  4.57207410e-01  4.57207410e-01  3.47294394e-09  4.57207410e-01  3.58230557e-09  4.57207410e-01  4.57207410e-01  1.58163618e-07  1.55154684e-07  4.00000000e-01 
 4.10000000e-01  4.57207410e-01  4.57207410e-01  3.47294394e-09  4.57207410e-01  3.58230557e-09  4.57207410e-01  4.57207410e-01  1.58163613e-07  1.55154655e-07  4.10000000e-01 
 4.20000000e-01  4.57207419e-01  4.57207419e-01  3.47294394e-09  4.57207419e-01  3.58230557e-09  4.57207419e-01  4.57207418e-01  1.58163641e-07  1.55154424e-07  4.20000000e-01 
 4.30000000e-01  4.57207417e-01  4.57207417e-01  3.47294394e-09  4.57207417e-01  3.58230551e-09  4.57207417e-01  4.57207417e-01  1.58163626e-07  1.55154407e-07  4.30000000e-01 
 4.40000000e-01  4.57207422e-01  4.57207422e-01  3.47294394e-09  4.57207422e-01  3.58230551e-09  4.57207422e-01  4.57207422e-01  1.58163635e-07  1.55154268e-07  4.40000000e-01 
 4.50000000e-01  4.57207418e-01  4.57207418e-01  3.47294394e-09  4.57207418e-01  3.58230551e-09  4.57207418e-01  4.57207417e-01  1.58163628e-07  1.55154186e-07  4.50000000e-01 
 4.60000000e-01  4.57207401e-01  4.57207401e-01  3.47294394e-09  4.57207401e-01  3.58230551e-09  4.57207401e-01  4.57207401e-01  1.58163599e-07  1.55154012e-07  4.60000000e-01 
 4.70000000e-01  4.57207418e-01  4.57207418e-01  3.47294394e-09  4.57207418e-01  3.58230551e-09  4.57207418e-01  4.57207418e-01  1.58163637e-07  1.55153977e-07  4.70000000e-01 
 4.80000000e-01  4.57207381e-01  4.57207381e-01  3.47294394e-09  4.57207381e-01  3.58230557e-09  4.57207381e-01  4.57207381e-01  1.58163575e-07  1.55153721e-07  4.80000000e-01 
 4.90000000e-01  4.57207398e-01  4.57207398e-01  3.47294394e-09  4.57207398e-01  3.58230557e-09  4.57207398e-01  4.57207398e-01  1.58163612e-07  1.55153657e-07  4.90000000e-01 
 5.00000000e-01  4.57207409e-01  4.57207409e-01  3.47294394e-09  4.57207409e-01  3.58230551e-09  4.57207409e-01  4.57207408e-01  1.58163611e-07  1.55153614e-07  5.00000000e-01 
 5.10000000e-01  4.57207396e-01  4.57207396e-01  3.47294394e-09  4.57207396e-01  3.58230557e-09  4.57207396e-01  4.57207396e-01  1.58163604e-07  1.55153590e-07  5.10000000e-01 
 5.20000000e-01  4.57207418e-01  4.57207418e-01  3.47294394e-09  4.57207418e-01  3.58230557e-09  4.57207418e-01  4.57207418e-01  1.58163624e-07  1.55153405e-07  5.20000000e-01 
 5.30000000e-01  4.57207397e-01  4.57207397e-01  3.47294394e-09  4.57207397e-01  3.58230551e-09  4.57207397e-01  4.57207396e-01  1.58163615e-07  1.55153188e-07  5.30000000e-01 
 5.40000000e-01  4.57207388e-01  4.57207388e-01  3.47294394e-09  4.57207388e-01  3.58230557e-09  4.57207388e-01  4.57207388e-01  1.58163578e-07  1.55153050e-07  5.40000000e-01 
 5.50000000e-01  4.57207399e-01  4.57207399e-01  3.47294394e-09  4.57207400e-01  3.58230557e-09  4.57207399e-01  4.57207399e-01  1.58163612e-07  1.55153106e-07  5.50000000e-01 
 5.60000000e-01  4.57207413e-01  4.57207413e-01  3.47294394e-09  4.57207413e-01  3.58230557e-09  4.57207413e-01  4.57207413e-01  1.58163620e-07  1.55152961e-07  5.60000000e-01 
 5.70000000e-01  4.57207402e-01  4.57207402e-01  3.47294394e-09  4.57207402e-01  3.58230557e-09  4.57207402e-01  4.57207401e-01  1.58163608e-07  1.55152836e-07  5.70000000e-01 
 5.80000000e-01  4.57207426e-01  4.57207426e-01  3.47294394e-09  4.57207426e-01  3.58230557e-09  4.57207426e-01  4.57207426e-01  1.58163657e-07  1.55152804e-07  5.80000000e-01 
 5.90000000e-01  4.57207416e-01  4.57207416e-01  3.47294394e-09  4.57207416e-01  3.58230557e-09  4.57207416e-01  4.57207415e-01  1.58163639e-07  1.55152556e-07  5.90000000e-01 
 6.00000000e-01  4.57207421e-01  4.57207420e-01  3.47294394e-09  4.57207421e-01  3.58230551e-09  4.57207420e-01  4.57207420e-01  1.58163638e-07  1.55152648e-07  6.00000000e-01 
 6.10000000e-01  4.57207426e-01  4.57207426e-01  3.47294394e-09  4.57207426e-01  3.58230551e-09  4.57207426e-01  4.57207425e-01  1.58163649e-07  1.55152456e-07  6.10000000e-01 
 6.20000000e-01  4.57207419e-01  4.57207419e-01  3.47294394e-09  4.57207419e-01  3.58230551e-09  4.57207419e-01  4.57207418e-01  1.58163637e-07  1.55152343e-07  6.20000000e-01 
 6.30000000e-01  4.57207417e-01  4.57207417e-01  3.47294394e-09  4.57207417e-01  3.58230557e-09  4.57207417e-01  4.57207417e-01  1.58163635e-07  1.55152172e-07  6.30000000e-01 
 6.40000000e-01  4.57207381e-01  4.57207381e-01  3.47294394e-09  4.57207381e-01  3.58230557e-09  4.57207381e-01  4.57207381e-01  1.58163586e-07  1.55151902e-07  6.40000000e-01 
 6.50000000e-01  4.57207397e-01  4.57207397e-01  3.47294394e-09  4.57207397e-01  3.58230557e-09  4.57207397e-01  4.57207397e-01  1.58163599e-07  1.55151930e-07  6.50000000e-01 
 6.60000000e-01  4.57207402e-01  4.57207402e-01  3.47294394e-09  4.57207402e-01  3.58230551e-09  4.57207402e-01  4.57207402e-01  1.58163614e-07  1.55151874e-07  6.60000000e-01 
 6.70000000e-01  4.57207429e-01  4.57207429e-01  3.47294394e-09  4.57207429e-01  3.58230551e-09  4.57207429e-01  4.57207429e-01  1.58163652e-07  1.55151710e-07  6.70000000e-01 
 6.80000000e-01  4.57207415e-01  4.57207415e-01  3.47294394e-09  4.57207415e-01  3.58230551e-09  4.57207415e-01  4.57207415e-01  1.58163624e-07  1.55151717e-07  6.80000000e-01 
 6.90000000e-01  4.57207400e-01  4.57207400e-01  3.47294394e-09  4.57207400e-01  3.58230551e-09  4.57207400e-01  4.57207400e-01  1.58163605e-07  1.55151511e-07  6.90000000e-01 
 7.00000000e-01  4.57207451e-01  4.57207451e-01  3.47294394e-09  4.57207451e-01  3.58230557e-09  4.57207451e-01  4.57207450e-01  1.58163673e-07  1.55151476e-07  7.00000000e-01 
 7.10000000e-01  4.57207423e-01  4.57207423e-01  3.47294394e-09  4.57207423e-01  3.58230557e-09  4.57207423e-01  4.57207423e-01  1.58163644e-07  1.55151419e-07  7.10000000e-01 
 7.20000000e-01  4.57207432e-01  4.57207432e-01  3.47294394e-09  4.57207432e-01  3.58230551e-09  4.57207432e-01  4.57207432e-01  1.58163648e-07  1.55151298e-07  7.20000000e-01 
 7.30000000e-01  4.57207389e-01  4.57207389e-01  3.47294394e-09  4.57207389e-01  3.58230557e-09  4.57207389e-01  4.57207389e-01  1.58163590e-07  1.55151142e-07  7.30000000e-01 
 7.40000000e-01  4.57207401e-01  4.57207401e-01  3.47294394e-09  4.57207401e-01  3.58230557e-09  4.57207401e-01  4.57207401e-01  1.58163609e-07  1.55150907e-07  7.40000000e-01 
 7.50000000e-01  4.57207416e-01  4.57207416e-01  3.47294394e-09  4.57207416e-01  3.58230557e-09  4.57207416e-01  4.57207416e-01  1.58163636e-07  1.55151021e-07  7.50000000e-01 
 7.60000000e-01  4.57207404e-01  4.57207404e-01  3.47294394e-09  4.57207404e-01  3.58230557e-09  4.57207404e-01  4.57207403e-01  1.58163601e-07  1.55150765e-07  7.60000000e-01 
 7.70000000e-01  4.57207386e-01  4.57207386e-01  3.47294394e-09  4.57207386e-01  3.58230551e-09  4.57207386e-01  4.57207386e-01  1.58163588e-07  1.55150573e-07  7.70000000e-01 
 7.80000000e-01  4.57207413e-01  4.57207413e-01  3.47294394e-09  4.57207413e-01  3.58230557e-09  4.57207413e-01  4.57207413e-01  1.58163625e-07  1.55150545e-07  7.80000000e-01 
 7.90000000e-01  4.57207412e-01  4.57207412e-01  3.47294394e-09  4.57207412e-01  3.58230551e-09  4.57207412e-01  4.57207412e-01  1.58163636e-07  1.55150524e-07  7.90000000e-01 
 8.00000000e-01  4.57207411e-01  4.57207411e-01  3.47294394e-09  4.57207411e-01  3.58230551e-09  4.57207411e-01  4.57207411e-01  1.58163612e-07  1.55150296e-07  8.00000000e-01 
 8.10000000e-01  4.57207404e-01  4.57207404e-01  3.47294394e-09  4.57207404e-01  3.58230557e-09  4.57207404e-01  4.57207404e-01  1.58163621e-07  1.55150204e-07  8.10000000e-01 
 8.20000000e-01  4.57207396e-01  4.57207396e-01  3.47294394e-09  4.57207396e-01  3.58230557e-09  4.57207396e-01  4.57207396e-01  1.58163591e-07  1.55150047e-07  8.20000000e-01 
 8.30000000e-01  4.57207388e-01  4.57207388e-01  3.47294394e-09  4.57207388e-01  3.58230557e-09  4.57207388e-01  4.57207388e-01  1.58163595e-07  1.55149856e-07  8.30000000e-01 
 8.40000000e-01  4.57207398e-01  4.57207398e-01  3.47294394e-09  4.57207398e-01  3.58230551e-09  4.57207398e-01  4.57207398e-01  1.58163606e-07  1.55149891e-07  8.40000000e-01 
 8.50000000e-01  4.57207400e-01  4.57207400e-01  3.47294394e-09  4.57207400e-01  3.58230551e-09  4.57207400e-01  4.57207400e-01  1.58163613e-07  1.55149664e-07  8.50000000e-01 
 8.60000000e-01  4.57207413e-01  4.57207413e-01  3.47294394e-09  4.57207413e-01  3.58230557e-09  4.57207413e-01  4.57207413e-01  1.58163623e-07  1.55149685e-07  8.60000000e-01 
 8.70000000e-01  4.57207425e-01  4.57207425e-01  3.47294394e-09  4.57207425e-01  3.58230551e-09  4.57207425e-01  4.57207425e-01  1.58163636e-07  1.55149550e-07  8.70000000e-01 
 8.80000000e-01  4.57207389e-01  4.57207389e-01  3.47294394e-09  4.57207390e-01  3.58230557e-09  4.57207389e-01  4.57207389e-01  1.58163576e-07  1.55149344e-07  8.80000000e-01 
 8.90000000e-01  4.57207403e-01  4.57207403e-01  3.47294394e-09  4.57207403e-01  3.58230551e-09  4.57207403e-01  4.57207403e-01  1.58163600e-07  1.55149159e-07  8.90000000e-01 
 9.00000000e-01  4.57207399e-01  4.57207399e-01  3.47294394e-09  4.57207399e-01  3.58230557e-09  4.57207399e-01  4.57207399e-01  1.58163603e-07  1.55148989e-07  9.00000000e-01 
 9.10000000e-01  4.57207451e-01  4.57207451e-01  3.47294394e-09  4.57207451e-01  3.58230557e-09  4.57207451e-01  4.57207451e-01  1.58163673e-07  1.55149188e-07  9.10000000e-01 
 9.20000000e-01  4.57207403e-01  4.57207403e-01  3.47294394e-09  4.57207403e-01  3.58230551e-09  4.57207403e-01  4.57207403e-01  1.58163621e-07  1.55148868e-07  9.20000000e-01 
 9.30000000e-01  4.57207416e-01  4.57207416e-01  3.47294394e-09  4.57207416e-01  3.58230551e-09  4.57207416e-01  4.57207415e-01  1.58163633e-07  1.55148783e-07  9.30000000e-01 
 9.40000000e-01  4.57207424e-01  4.57207424e-01  3.47294399e-09  4.57207424e-01  3.58230557e-09  4.57207423e-01  4.57207423e-01  1.58163643e-07  1.55148804e-07  9.40000000e-01 
 9.50000000e-01  4.57207403e-01  4.57207403e-01  3.47294392e-09  4.57207403e-01  3.58230551e-09  4.57207403e-01  4.57207403e-01  1.58163602e-07  1.55148527e-07  9.50000000e-01 
 9.60000000e-01  4.57207420e-01  4.57207420e-01  3.47294394e-09  4.57207420e-01  3.58230551e-09  4.57207420e-01  4.57207420e-01  1.58163629e-07  1.55148342e-07  9.60000000e-01 
 9.70000000e-01  4.57207396e-01  4.57207396e-01  3.47294394e-09  4.57207396e-01  3.58230557e-09  4.57207396e-01  4.57207396e-01  1.58163590e-07  1.55148292e-07  9.70000000e-01 
 9.80000000e-01  4.57207413e-01  4.57207413e-01  3.47294394e-09  4.57207413e-01  3.58230551e-09  4.57207413e-01  4.57207413e-01  1.58163628e-07  1.55148243e-07  9.80000000e-01 
 9.90000000e-01  4.57207401e-01  4.57207401e-01  3.47294394e-09  4.57207401e-01  3.58230557e-09  4.57207401e-01  4.57207400e-01  1.58163609e-07  1.55147951e-07  9.90000000e-01 
 1.00000000e+00  4.57207392e-01  4.57207392e-01  3.47294394e-09  4.57207392e-01  3.58230557e-09  4.57207392e-01  4.57207391e-01  1.58163593e-07  1.55147760e-07  1.00000000e+00 
 1.01000000e+00  4.57207415e-01  4.57207415e-01  3.47294394e-09  4.57207415e-01  3.58230557e-09  4.57207415e-01  4.57207415e-01  1.58163624e-07  1.55147688e-07  1.01000000e+00 
 1.02000000e+00  4.57207390e-01  4.57207390e-01  3.47294394e-09  4.57207390e-01  3.58230557e-09  4.57207390e-01  4.57207390e-01  1.58163600e-07  1.55147582e-07  1.02000000e+00 
 1.03000000e+00  4.57207429e-01  4.57207429e-01  3.47294399e-09  4.57207429e-01  3.58230551e-09  4.57207429e-01  4.57207429e-01  1.58163643e-07  1.55147617e-07  1.03000000e+00 
 1.04000000e+00  4.57207390e-01  4.57207390e-01  3.47294398e-09  4.57207390e-01  3.58230557e-09  4.57207390e-01  4.57207390e-01  1.58163583e-07  1.55147383e-07  1.04000000e+00 
 1.05000000e+00  4.57207399e-01  4.57207399e-01  3.47294393e-09  4.57207399e-01  3.58230557e-09  4.57207399e-01  4.57207399e-01  1.58163592e-07  1.55147134e-07  1.05000000e+00 
 1.06000000e+00  4.57207407e-01  4.57207407e-01  3.47294394e-09  4.57207407e-01  3.58230551e-09  4.57207407e-01  4.57207407e-01  1.58163627e-07  1.55147021e-07  1.06000000e+00 
 1.07000000e+00  4.57207406e-01  4.57207406e-01  3.47294394e-09  4.57207406e-01  3.58230557e-09  4.57207406e-01  4.57207406e-01  1.58163607e-07  1.55146942e-07  1.07000000e+00 
 1.08000000e+00  4.57207408e-01  4.57207408e-01  3.47294394e-09  4.57207408e-01  3.58230557e-09  4.57207408e-01  4.57207408e-01  1.58163627e-07  1.55146864e-07  1.08000000e+00 
 1.09000000e+00  4.57207418e-01  4.57207418e-01  3.47294394e-09  4.57207418e-01  3.58230551e-09  4.57207418e-01  4.57207417e-01  1.58163631e-07  1.55146694e-07  1.09000000e+00 
 1.10000000e+00  4.57207398e-01  4.57207398e-01  3.47294394e-09  4.57207398e-01  3.58230551e-09  4.57207398e-01  4.57207398e-01  1.58163588e-07  1.55146559e-07  1.10000000e+00 
