 v-sweep         v(b0)           v(b1)           v(b2)           v(b3)           v(b4)           v(b5)           v(b6)           i(vbias)        i(viout)        v(vout)        
 0.00000000e+00  4.56988974e-01  4.56988974e-01  3.77596075e-09  4.56988973e-01  4.56988974e-01  3.52540731e-09  4.56988974e-01  1.55865488e-07  1.29168077e-07  0.00000000e+00 
 1.00000000e-02  4.56988987e-01  4.56988987e-01  3.77596074e-09  4.56988987e-01  4.56988987e-01  3.52540736e-09  4.56988987e-01  1.55865510e-07  1.29167810e-07  1.00000000e-02 
 2.00000000e-02  4.56988969e-01  4.56988969e-01  3.77596074e-09  4.56988969e-01  4.56988969e-01  3.52540731e-09  4.56988969e-01  1.55865476e-07  1.29167342e-07  2.00000000e-02 
 3.00000000e-02  4.56989003e-01  4.56989003e-01  3.77596074e-09  4.56989003e-01  4.56989003e-01  3.52540731e-09  4.56989003e-01  1.55865521e-07  1.29167091e-07  3.00000000e-02 
 4.00000000e-02  4.56988960e-01  4.56988960e-01  3.77596074e-09  4.56988960e-01  4.56988960e-01  3.52540731e-09  4.56988960e-01  1.55865467e-07  1.29166472e-07  4.00000000e-02 
 5.00000000e-02  4.56988983e-01  4.56988983e-01  3.77596079e-09  4.56988983e-01  4.56988983e-01  3.52540731e-09  4.56988983e-01  1.55865491e-07  1.29166299e-07  5.00000000e-02 
 6.00000000e-02  4.56988988e-01  4.56988988e-01  3.77596074e-09  4.56988988e-01  4.56988988e-01  3.52540736e-09  4.56988988e-01  1.55865508e-07  1.29165826e-07  6.00000000e-02 
 7.00000000e-02  4.56988970e-01  4.56988970e-01  3.77596074e-09  4.56988970e-01  4.56988970e-01  3.52540731e-09  4.56988970e-01  1.55865469e-07  1.29165552e-07  7.00000000e-02 
 8.00000000e-02  4.56988987e-01  4.56988986e-01  3.77596074e-09  4.56988986e-01  4.56988987e-01  3.52540731e-09  4.56988986e-01  1.55865493e-07  1.29165122e-07  8.00000000e-02 
 9.00000000e-02  4.56988977e-01  4.56988977e-01  3.77596074e-09  4.56988977e-01  4.56988977e-01  3.52540731e-09  4.56988977e-01  1.55865487e-07  1.29164882e-07  9.00000000e-02 
 1.00000000e-01  4.56988986e-01  4.56988986e-01  3.77596074e-09  4.56988986e-01  4.56988986e-01  3.52540731e-09  4.56988986e-01  1.55865515e-07  1.29164611e-07  1.00000000e-01 
 1.10000000e-01  4.56988974e-01  4.56988973e-01  3.77596074e-09  4.56988973e-01  4.56988974e-01  3.52540731e-09  4.56988973e-01  1.55865487e-07  1.29164468e-07  1.10000000e-01 
 1.20000000e-01  4.56988982e-01  4.56988982e-01  3.77596074e-09  4.56988982e-01  4.56988982e-01  3.52540731e-09  4.56988982e-01  1.55865504e-07  1.29164098e-07  1.20000000e-01 
 1.30000000e-01  4.56988962e-01  4.56988962e-01  3.77596074e-09  4.56988962e-01  4.56988962e-01  3.52540731e-09  4.56988962e-01  1.55865460e-07  1.29163739e-07  1.30000000e-01 
 1.40000000e-01  4.56988973e-01  4.56988973e-01  3.77596074e-09  4.56988973e-01  4.56988973e-01  3.52540731e-09  4.56988973e-01  1.55865498e-07  1.29163562e-07  1.40000000e-01 
 1.50000000e-01  4.56988976e-01  4.56988976e-01  3.77596074e-09  4.56988976e-01  4.56988976e-01  3.52540731e-09  4.56988976e-01  1.55865489e-07  1.29163308e-07  1.50000000e-01 
 1.60000000e-01  4.56988985e-01  4.56988985e-01  3.77596074e-09  4.56988985e-01  4.56988985e-01  3.52540731e-09  4.56988985e-01  1.55865502e-07  1.29163185e-07  1.60000000e-01 
 1.70000000e-01  4.56988969e-01  4.56988969e-01  3.77596074e-09  4.56988969e-01  4.56988969e-01  3.52540731e-09  4.56988969e-01  1.55865473e-07  1.29163041e-07  1.70000000e-01 
 1.80000000e-01  4.56988993e-01  4.56988992e-01  3.77596074e-09  4.56988992e-01  4.56988993e-01  3.52540731e-09  4.56988992e-01  1.55865510e-07  1.29162757e-07  1.80000000e-01 
 1.90000000e-01  4.56988993e-01  4.56988993e-01  3.77596074e-09  4.56988993e-01  4.56988993e-01  3.52540731e-09  4.56988993e-01  1.55865518e-07  1.29162601e-07  1.90000000e-01 
 2.00000000e-01  4.56988989e-01  4.56988989e-01  3.77596074e-09  4.56988989e-01  4.56988989e-01  3.52540736e-09  4.56988989e-01  1.55865513e-07  1.29162425e-07  2.00000000e-01 
 2.10000000e-01  4.56988972e-01  4.56988971e-01  3.77596074e-09  4.56988971e-01  4.56988972e-01  3.52540731e-09  4.56988971e-01  1.55865478e-07  1.29162069e-07  2.10000000e-01 
 2.20000000e-01  4.56988978e-01  4.56988978e-01  3.77596074e-09  4.56988978e-01  4.56988978e-01  3.52540736e-09  4.56988978e-01  1.55865487e-07  1.29162032e-07  2.20000000e-01 
 2.30000000e-01  4.56989000e-01  4.56989000e-01  3.77596074e-09  4.56989000e-01  4.56989000e-01  3.52540731e-09  4.56989000e-01  1.55865522e-07  1.29161922e-07  2.30000000e-01 
 2.40000000e-01  4.56988966e-01  4.56988966e-01  3.77596074e-09  4.56988966e-01  4.56988966e-01  3.52540731e-09  4.56988966e-01  1.55865476e-07  1.29161691e-07  2.40000000e-01 
 2.50000000e-01  4.56988992e-01  4.56988991e-01  3.77596074e-09  4.56988991e-01  4.56988991e-01  3.52540731e-09  4.56988991e-01  1.55865517e-07  1.29161599e-07  2.50000000e-01 
 2.60000000e-01  4.56988991e-01  4.56988991e-01  3.77596074e-09  4.56988991e-01  4.56988991e-01  3.52540731e-09  4.56988991e-01  1.55865513e-07  1.29161306e-07  2.60000000e-01 
 2.70000000e-01  4.56988974e-01  4.56988974e-01  3.77596079e-09  4.56988974e-01  4.56988974e-01  3.52540731e-09  4.56988974e-01  1.55865486e-07  1.29161293e-07  2.70000000e-01 
 2.80000000e-01  4.56988997e-01  4.56988997e-01  3.77596074e-09  4.56988997e-01  4.56988997e-01  3.52540731e-09  4.56988997e-01  1.55865520e-07  1.29161144e-07  2.80000000e-01 
 2.90000000e-01  4.56988971e-01  4.56988971e-01  3.77596074e-09  4.56988971e-01  4.56988971e-01  3.52540731e-09  4.56988971e-01  1.55865473e-07  1.29160814e-07  2.90000000e-01 
 3.00000000e-01  4.56988978e-01  4.56988977e-01  3.77596074e-09  4.56988977e-01  4.56988978e-01  3.52540731e-09  4.56988977e-01  1.55865496e-07  1.29160796e-07  3.00000000e-01 
 3.10000000e-01  4.56988998e-01  4.56988998e-01  3.77596074e-09  4.56988998e-01  4.56988998e-01  3.52540731e-09  4.56988998e-01  1.55865517e-07  1.29160792e-07  3.10000000e-01 
 3.20000000e-01  4.56988966e-01  4.56988966e-01  3.77596074e-09  4.56988966e-01  4.56988966e-01  3.52540731e-09  4.56988966e-01  1.55865476e-07  1.29160462e-07  3.20000000e-01 
 3.30000000e-01  4.56988968e-01  4.56988968e-01  3.77596074e-09  4.56988967e-01  4.56988968e-01  3.52540731e-09  4.56988968e-01  1.55865482e-07  1.29160330e-07  3.30000000e-01 
 3.40000000e-01  4.56988997e-01  4.56988996e-01  3.77596074e-09  4.56988996e-01  4.56988997e-01  3.52540731e-09  4.56988996e-01  1.55865529e-07  1.29160320e-07  3.40000000e-01 
 3.50000000e-01  4.56988999e-01  4.56988998e-01  3.77596074e-09  4.56988998e-01  4.56988998e-01  3.52540731e-09  4.56988998e-01  1.55865513e-07  1.29160117e-07  3.50000000e-01 
 3.60000000e-01  4.56988997e-01  4.56988997e-01  3.77596074e-09  4.56988997e-01  4.56988997e-01  3.52540731e-09  4.56988997e-01  1.55865515e-07  1.29160156e-07  3.60000000e-01 
 3.70000000e-01  4.56988975e-01  4.56988975e-01  3.77596074e-09  4.56988975e-01  4.56988975e-01  3.52540731e-09  4.56988975e-01  1.55865489e-07  1.29159861e-07  3.70000000e-01 
 3.80000000e-01  4.56988998e-01  4.56988998e-01  3.77596074e-09  4.56988998e-01  4.56988998e-01  3.52540737e-09  4.56988998e-01  1.55865520e-07  1.29159929e-07  3.80000000e-01 
 3.90000000e-01  4.56988998e-01  4.56988997e-01  3.77596074e-09  4.56988997e-01  4.56988997e-01  3.52540737e-09  4.56988997e-01  1.55865515e-07  1.29159751e-07  3.90000000e-01 
 4.00000000e-01  4.56988990e-01  4.56988990e-01  3.77596074e-09  4.56988990e-01  4.56988990e-01  3.52540731e-09  4.56988990e-01  1.55865502e-07  1.29159648e-07  4.00000000e-01 
 4.10000000e-01  4.56988982e-01  4.56988982e-01  3.77596074e-09  4.56988982e-01  4.56988982e-01  3.52540736e-09  4.56988982e-01  1.55865498e-07  1.29159570e-07  4.10000000e-01 
 4.20000000e-01  4.56988993e-01  4.56988993e-01  3.77596074e-09  4.56988992e-01  4.56988993e-01  3.52540731e-09  4.56988993e-01  1.55865507e-07  1.29159449e-07  4.20000000e-01 
 4.30000000e-01  4.56988945e-01  4.56988945e-01  3.77596074e-09  4.56988944e-01  4.56988945e-01  3.52540730e-09  4.56988945e-01  1.55865424e-07  1.29159265e-07  4.30000000e-01 
 4.40000000e-01  4.56988970e-01  4.56988970e-01  3.77596074e-09  4.56988969e-01  4.56988970e-01  3.52540731e-09  4.56988970e-01  1.55865462e-07  1.29159165e-07  4.40000000e-01 
 4.50000000e-01  4.56989004e-01  4.56989004e-01  3.77596080e-09  4.56989004e-01  4.56989004e-01  3.52540731e-09  4.56989004e-01  1.55865529e-07  1.29159218e-07  4.50000000e-01 
 4.60000000e-01  4.56988967e-01  4.56988967e-01  3.77596074e-09  4.56988967e-01  4.56988967e-01  3.52540731e-09  4.56988967e-01  1.55865476e-07  1.29159059e-07  4.60000000e-01 
 4.70000000e-01  4.56988977e-01  4.56988977e-01  3.77596079e-09  4.56988977e-01  4.56988977e-01  3.52540731e-09  4.56988977e-01  1.55865489e-07  1.29158870e-07  4.70000000e-01 
 4.80000000e-01  4.56988993e-01  4.56988992e-01  3.77596074e-09  4.56988992e-01  4.56988993e-01  3.52540736e-09  4.56988992e-01  1.55865512e-07  1.29158984e-07  4.80000000e-01 
 4.90000000e-01  4.56988979e-01  4.56988979e-01  3.77596074e-09  4.56988979e-01  4.56988979e-01  3.52540731e-09  4.56988979e-01  1.55865490e-07  1.29158728e-07  4.90000000e-01 
 5.00000000e-01  4.56988987e-01  4.56988987e-01  3.77596074e-09  4.56988987e-01  4.56988987e-01  3.52540731e-09  4.56988987e-01  1.55865502e-07  1.29158693e-07  5.00000000e-01 
 5.10000000e-01  4.56988984e-01  4.56988984e-01  3.77596074e-09  4.56988984e-01  4.56988984e-01  3.52540736e-09  4.56988984e-01  1.55865508e-07  1.29158696e-07  5.10000000e-01 
 5.20000000e-01  4.56988978e-01  4.56988978e-01  3.77596074e-09  4.56988977e-01  4.56988978e-01  3.52540731e-09  4.56988978e-01  1.55865499e-07  1.29158394e-07  5.20000000e-01 
 5.30000000e-01  4.56988991e-01  4.56988991e-01  3.77596074e-09  4.56988991e-01  4.56988991e-01  3.52540731e-09  4.56988991e-01  1.55865505e-07  1.29158419e-07  5.30000000e-01 
 5.40000000e-01  4.56988960e-01  4.56988959e-01  3.77596074e-09  4.56988959e-01  4.56988960e-01  3.52540731e-09  4.56988959e-01  1.55865481e-07  1.29158153e-07  5.40000000e-01 
 5.50000000e-01  4.56988989e-01  4.56988989e-01  3.77596074e-09  4.56988989e-01  4.56988989e-01  3.52540731e-09  4.56988989e-01  1.55865517e-07  1.29158213e-07  5.50000000e-01 
 5.60000000e-01  4.56988987e-01  4.56988987e-01  3.77596079e-09  4.56988987e-01  4.56988987e-01  3.52540736e-09  4.56988987e-01  1.55865488e-07  1.29158163e-07  5.60000000e-01 
 5.70000000e-01  4.56988993e-01  4.56988993e-01  3.77596080e-09  4.56988993e-01  4.56988993e-01  3.52540736e-09  4.56988993e-01  1.55865518e-07  1.29158018e-07  5.70000000e-01 
 5.80000000e-01  4.56988951e-01  4.56988950e-01  3.77596074e-09  4.56988950e-01  4.56988951e-01  3.52540731e-09  4.56988950e-01  1.55865457e-07  1.29157847e-07  5.80000000e-01 
 5.90000000e-01  4.56988986e-01  4.56988986e-01  3.77596074e-09  4.56988986e-01  4.56988986e-01  3.52540731e-09  4.56988986e-01  1.55865509e-07  1.29157741e-07  5.90000000e-01 
 6.00000000e-01  4.56988972e-01  4.56988972e-01  3.77596074e-09  4.56988972e-01  4.56988972e-01  3.52540731e-09  4.56988972e-01  1.55865482e-07  1.29157819e-07  6.00000000e-01 
 6.10000000e-01  4.56989002e-01  4.56989002e-01  3.77596074e-09  4.56989002e-01  4.56989002e-01  3.52540731e-09  4.56989002e-01  1.55865533e-07  1.29157755e-07  6.10000000e-01 
 6.20000000e-01  4.56988986e-01  4.56988986e-01  3.77596074e-09  4.56988986e-01  4.56988986e-01  3.52540736e-09  4.56988986e-01  1.55865494e-07  1.29157613e-07  6.20000000e-01 
 6.30000000e-01  4.56988987e-01  4.56988987e-01  3.77596074e-09  4.56988987e-01  4.56988987e-01  3.52540731e-09  4.56988987e-01  1.55865511e-07  1.29157428e-07  6.30000000e-01 
 6.40000000e-01  4.56988990e-01  4.56988990e-01  3.77596074e-09  4.56988990e-01  4.56988990e-01  3.52540736e-09  4.56988990e-01  1.55865517e-07  1.29157456e-07  6.40000000e-01 
 6.50000000e-01  4.56988939e-01  4.56988939e-01  3.77596079e-09  4.56988939e-01  4.56988939e-01  3.52540730e-09  4.56988939e-01  1.55865448e-07  1.29157129e-07  6.50000000e-01 
 6.60000000e-01  4.56988987e-01  4.56988986e-01  3.77596074e-09  4.56988986e-01  4.56988987e-01  3.52540736e-09  4.56988986e-01  1.55865504e-07  1.29157286e-07  6.60000000e-01 
 6.70000000e-01  4.56988987e-01  4.56988987e-01  3.77596074e-09  4.56988987e-01  4.56988987e-01  3.52540731e-09  4.56988987e-01  1.55865502e-07  1.29157193e-07  6.70000000e-01 
 6.80000000e-01  4.56988992e-01  4.56988992e-01  3.77596074e-09  4.56988992e-01  4.56988992e-01  3.52540731e-09  4.56988992e-01  1.55865509e-07  1.29157101e-07  6.80000000e-01 
 6.90000000e-01  4.56988985e-01  4.56988985e-01  3.77596074e-09  4.56988985e-01  4.56988985e-01  3.52540731e-09  4.56988985e-01  1.55865494e-07  1.29157080e-07  6.90000000e-01 
 7.00000000e-01  4.56988966e-01  4.56988966e-01  3.77596074e-09  4.56988966e-01  4.56988966e-01  3.52540731e-09  4.56988966e-01  1.55865477e-07  1.29156852e-07  7.00000000e-01 
 7.10000000e-01  4.56988971e-01  4.56988971e-01  3.77596074e-09  4.56988970e-01  4.56988971e-01  3.52540731e-09  4.56988971e-01  1.55865477e-07  1.29156632e-07  7.10000000e-01 
 7.20000000e-01  4.56988968e-01  4.56988968e-01  3.77596079e-09  4.56988968e-01  4.56988968e-01  3.52540731e-09  4.56988968e-01  1.55865468e-07  1.29156625e-07  7.20000000e-01 
 7.30000000e-01  4.56988979e-01  4.56988979e-01  3.77596074e-09  4.56988978e-01  4.56988979e-01  3.52540731e-09  4.56988979e-01  1.55865502e-07  1.29156646e-07  7.30000000e-01 
 7.40000000e-01  4.56988981e-01  4.56988981e-01  3.77596074e-09  4.56988981e-01  4.56988981e-01  3.52540731e-09  4.56988981e-01  1.55865505e-07  1.29156547e-07  7.40000000e-01 
 7.50000000e-01  4.56989001e-01  4.56989001e-01  3.77596074e-09  4.56989001e-01  4.56989001e-01  3.52540731e-09  4.56989001e-01  1.55865512e-07  1.29156440e-07  7.50000000e-01 
 7.60000000e-01  4.56988966e-01  4.56988966e-01  3.77596074e-09  4.56988965e-01  4.56988966e-01  3.52540736e-09  4.56988966e-01  1.55865470e-07  1.29156277e-07  7.60000000e-01 
 7.70000000e-01  4.56988970e-01  4.56988970e-01  3.77596074e-09  4.56988970e-01  4.56988970e-01  3.52540731e-09  4.56988970e-01  1.55865488e-07  1.29156263e-07  7.70000000e-01 
 7.80000000e-01  4.56989000e-01  4.56989000e-01  3.77596074e-09  4.56989000e-01  4.56989000e-01  3.52540731e-09  4.56989000e-01  1.55865533e-07  1.29156255e-07  7.80000000e-01 
 7.90000000e-01  4.56988962e-01  4.56988962e-01  3.77596074e-09  4.56988962e-01  4.56988962e-01  3.52540731e-09  4.56988962e-01  1.55865469e-07  1.29156028e-07  7.90000000e-01 
 8.00000000e-01  4.56988976e-01  4.56988976e-01  3.77596074e-09  4.56988976e-01  4.56988976e-01  3.52540731e-09  4.56988976e-01  1.55865499e-07  1.29155886e-07  8.00000000e-01 
 8.10000000e-01  4.56989035e-01  4.56989035e-01  3.77596074e-09  4.56989035e-01  4.56989035e-01  3.52540737e-09  4.56989035e-01  1.55865567e-07  1.29156106e-07  8.10000000e-01 
 8.20000000e-01  4.56988959e-01  4.56988959e-01  3.77596074e-09  4.56988959e-01  4.56988959e-01  3.52540731e-09  4.56988959e-01  1.55865455e-07  1.29155652e-07  8.20000000e-01 
 8.30000000e-01  4.56989013e-01  4.56989013e-01  3.77596074e-09  4.56989013e-01  4.56989013e-01  3.52540731e-09  4.56989013e-01  1.55865544e-07  1.29155687e-07  8.30000000e-01 
 8.40000000e-01  4.56988981e-01  4.56988981e-01  3.77596074e-09  4.56988981e-01  4.56988981e-01  3.52540736e-09  4.56988981e-01  1.55865490e-07  1.29155715e-07  8.40000000e-01 
 8.50000000e-01  4.56988996e-01  4.56988996e-01  3.77596074e-09  4.56988996e-01  4.56988996e-01  3.52540731e-09  4.56988996e-01  1.55865512e-07  1.29155552e-07  8.50000000e-01 
 8.60000000e-01  4.56988962e-01  4.56988962e-01  3.77596079e-09  4.56988961e-01  4.56988962e-01  3.52540731e-09  4.56988962e-01  1.55865475e-07  1.29155332e-07  8.60000000e-01 
 8.70000000e-01  4.56988995e-01  4.56988995e-01  3.77596074e-09  4.56988995e-01  4.56988995e-01  3.52540731e-09  4.56988995e-01  1.55865520e-07  1.29155318e-07  8.70000000e-01 
 8.80000000e-01  4.56988985e-01  4.56988984e-01  3.77596074e-09  4.56988984e-01  4.56988985e-01  3.52540736e-09  4.56988985e-01  1.55865500e-07  1.29155211e-07  8.80000000e-01 
 8.90000000e-01  4.56988983e-01  4.56988983e-01  3.77596074e-09  4.56988983e-01  4.56988983e-01  3.52540731e-09  4.56988983e-01  1.55865504e-07  1.29155019e-07  8.90000000e-01 
 9.00000000e-01  4.56988999e-01  4.56988999e-01  3.77596074e-09  4.56988999e-01  4.56988999e-01  3.52540731e-09  4.56988999e-01  1.55865539e-07  1.29154969e-07  9.00000000e-01 
 9.10000000e-01  4.56988967e-01  4.56988967e-01  3.77596074e-09  4.56988967e-01  4.56988967e-01  3.52540736e-09  4.56988967e-01  1.55865460e-07  1.29154856e-07  9.10000000e-01 
 9.20000000e-01  4.56988970e-01  4.56988970e-01  3.77596074e-09  4.56988970e-01  4.56988970e-01  3.52540731e-09  4.56988970e-01  1.55865481e-07  1.29154834e-07  9.20000000e-01 
 9.30000000e-01  4.56988985e-01  4.56988985e-01  3.77596074e-09  4.56988985e-01  4.56988985e-01  3.52540736e-09  4.56988985e-01  1.55865494e-07  1.29154721e-07  9.30000000e-01 
 9.40000000e-01  4.56988957e-01  4.56988957e-01  3.77596074e-09  4.56988957e-01  4.56988957e-01  3.52540731e-09  4.56988957e-01  1.55865463e-07  1.29154571e-07  9.40000000e-01 
 9.50000000e-01  4.56988974e-01  4.56988974e-01  3.77596074e-09  4.56988973e-01  4.56988974e-01  3.52540731e-09  4.56988974e-01  1.55865483e-07  1.29154458e-07  9.50000000e-01 
 9.60000000e-01  4.56988988e-01  4.56988988e-01  3.77596074e-09  4.56988988e-01  4.56988988e-01  3.52540731e-09  4.56988988e-01  1.55865514e-07  1.29154493e-07  9.60000000e-01 
 9.70000000e-01  4.56988971e-01  4.56988971e-01  3.77596079e-09  4.56988971e-01  4.56988971e-01  3.52540736e-09  4.56988971e-01  1.55865480e-07  1.29154259e-07  9.70000000e-01 
 9.80000000e-01  4.56988981e-01  4.56988981e-01  3.77596074e-09  4.56988981e-01  4.56988981e-01  3.52540731e-09  4.56988981e-01  1.55865491e-07  1.29154124e-07  9.80000000e-01 
 9.90000000e-01  4.56988987e-01  4.56988987e-01  3.77596074e-09  4.56988987e-01  4.56988987e-01  3.52540731e-09  4.56988987e-01  1.55865515e-07  1.29154181e-07  9.90000000e-01 
 1.00000000e+00  4.56988991e-01  4.56988991e-01  3.77596074e-09  4.56988991e-01  4.56988991e-01  3.52540731e-09  4.56988991e-01  1.55865516e-07  1.29154081e-07  1.00000000e+00 
 1.01000000e+00  4.56988964e-01  4.56988964e-01  3.77596074e-09  4.56988964e-01  4.56988964e-01  3.52540731e-09  4.56988964e-01  1.55865479e-07  1.29153904e-07  1.01000000e+00 
 1.02000000e+00  4.56988978e-01  4.56988978e-01  3.77596079e-09  4.56988977e-01  4.56988978e-01  3.52540736e-09  4.56988978e-01  1.55865493e-07  1.29153818e-07  1.02000000e+00 
 1.03000000e+00  4.56988989e-01  4.56988989e-01  3.77596074e-09  4.56988989e-01  4.56988989e-01  3.52540731e-09  4.56988989e-01  1.55865513e-07  1.29153676e-07  1.03000000e+00 
 1.04000000e+00  4.56988988e-01  4.56988987e-01  3.77596074e-09  4.56988987e-01  4.56988988e-01  3.52540731e-09  4.56988987e-01  1.55865502e-07  1.29153499e-07  1.04000000e+00 
 1.05000000e+00  4.56988984e-01  4.56988984e-01  3.77596074e-09  4.56988984e-01  4.56988984e-01  3.52540731e-09  4.56988984e-01  1.55865503e-07  1.29153499e-07  1.05000000e+00 
 1.06000000e+00  4.56988969e-01  4.56988969e-01  3.77596074e-09  4.56988969e-01  4.56988969e-01  3.52540731e-09  4.56988969e-01  1.55865487e-07  1.29153342e-07  1.06000000e+00 
 1.07000000e+00  4.56989003e-01  4.56989003e-01  3.77596074e-09  4.56989003e-01  4.56989003e-01  3.52540731e-09  4.56989003e-01  1.55865512e-07  1.29153278e-07  1.07000000e+00 
 1.08000000e+00  4.56988994e-01  4.56988994e-01  3.77596074e-09  4.56988994e-01  4.56988994e-01  3.52540731e-09  4.56988994e-01  1.55865519e-07  1.29153072e-07  1.08000000e+00 
 1.09000000e+00  4.56989002e-01  4.56989001e-01  3.77596074e-09  4.56989001e-01  4.56989002e-01  3.52540731e-09  4.56989001e-01  1.55865526e-07  1.29153015e-07  1.09000000e+00 
 1.10000000e+00  4.56988984e-01  4.56988984e-01  3.77596074e-09  4.56988984e-01  4.56988984e-01  3.52540731e-09  4.56988984e-01  1.55865498e-07  1.29152887e-07  1.10000000e+00 
