 v-sweep         v(b0)           v(b1)           v(b2)           v(b3)           v(b4)           v(b5)           v(b6)           i(vbias)        i(viout)        v(vout)        
 0.00000000e+00  3.21527867e-09  3.13393330e-09  3.33832475e-09  4.57584717e-01  4.57584717e-01  4.57584717e-01  3.04753168e-09  1.58717419e-07  8.08258323e-08  0.00000000e+00 
 1.00000000e-02  3.21527865e-09  3.13393327e-09  3.33832473e-09  4.57584690e-01  4.57584690e-01  4.57584690e-01  3.04753171e-09  1.58717376e-07  8.08252983e-08  1.00000000e-02 
 2.00000000e-02  3.21527865e-09  3.13393327e-09  3.33832473e-09  4.57584708e-01  4.57584708e-01  4.57584708e-01  3.04753171e-09  1.58717399e-07  8.08249401e-08  2.00000000e-02 
 3.00000000e-02  3.21527859e-09  3.13393333e-09  3.33832473e-09  4.57584722e-01  4.57584722e-01  4.57584722e-01  3.04753171e-09  1.58717436e-07  8.08247012e-08  3.00000000e-02 
 4.00000000e-02  3.21527859e-09  3.13393332e-09  3.33832473e-09  4.57584714e-01  4.57584713e-01  4.57584713e-01  3.04753171e-09  1.58717415e-07  8.08242548e-08  4.00000000e-02 
 5.00000000e-02  3.21527865e-09  3.13393327e-09  3.33832478e-09  4.57584704e-01  4.57584704e-01  4.57584704e-01  3.04753171e-09  1.58717412e-07  8.08238605e-08  5.00000000e-02 
 6.00000000e-02  3.21527865e-09  3.13393332e-09  3.33832473e-09  4.57584713e-01  4.57584713e-01  4.57584713e-01  3.04753171e-09  1.58717425e-07  8.08236469e-08  6.00000000e-02 
 7.00000000e-02  3.21527865e-09  3.13393327e-09  3.33832473e-09  4.57584708e-01  4.57584708e-01  4.57584708e-01  3.04753171e-09  1.58717422e-07  8.08231930e-08  7.00000000e-02 
 8.00000000e-02  3.21527865e-09  3.13393333e-09  3.33832478e-09  4.57584726e-01  4.57584726e-01  4.57584726e-01  3.04753171e-09  1.58717452e-07  8.08230922e-08  8.00000000e-02 
 9.00000000e-02  3.21527859e-09  3.13393332e-09  3.33832473e-09  4.57584701e-01  4.57584700e-01  4.57584700e-01  3.04753171e-09  1.58717399e-07  8.08226597e-08  9.00000000e-02 
 1.00000000e-01  3.21527865e-09  3.13393327e-09  3.33832473e-09  4.57584704e-01  4.57584704e-01  4.57584704e-01  3.04753171e-09  1.58717411e-07  8.08223692e-08  1.00000000e-01 
 1.10000000e-01  3.21527865e-09  3.13393332e-09  3.33832473e-09  4.57584710e-01  4.57584709e-01  4.57584709e-01  3.04753171e-09  1.58717422e-07  8.08221658e-08  1.10000000e-01 
 1.20000000e-01  3.21527859e-09  3.13393332e-09  3.33832473e-09  4.57584701e-01  4.57584701e-01  4.57584701e-01  3.04753171e-09  1.58717398e-07  8.08218727e-08  1.20000000e-01 
 1.30000000e-01  3.21527859e-09  3.13393327e-09  3.33832473e-09  4.57584707e-01  4.57584707e-01  4.57584707e-01  3.04753171e-09  1.58717402e-07  8.08217093e-08  1.30000000e-01 
 1.40000000e-01  3.21527859e-09  3.13393332e-09  3.33832473e-09  4.57584697e-01  4.57584697e-01  4.57584697e-01  3.04753171e-09  1.58717397e-07  8.08214722e-08  1.40000000e-01 
 1.50000000e-01  3.21527865e-09  3.13393332e-09  3.33832473e-09  4.57584706e-01  4.57584706e-01  4.57584706e-01  3.04753171e-09  1.58717427e-07  8.08211276e-08  1.50000000e-01 
 1.60000000e-01  3.21527865e-09  3.13393332e-09  3.33832473e-09  4.57584709e-01  4.57584709e-01  4.57584709e-01  3.04753171e-09  1.58717413e-07  8.08209570e-08  1.60000000e-01 
 1.70000000e-01  3.21527865e-09  3.13393332e-09  3.33832473e-09  4.57584692e-01  4.57584691e-01  4.57584691e-01  3.04753171e-09  1.58717407e-07  8.08208114e-08  1.70000000e-01 
 1.80000000e-01  3.21527859e-09  3.13393332e-09  3.33832478e-09  4.57584692e-01  4.57584691e-01  4.57584692e-01  3.04753171e-09  1.58717393e-07  8.08206355e-08  1.80000000e-01 
 1.90000000e-01  3.21527865e-09  3.13393333e-09  3.33832473e-09  4.57584722e-01  4.57584722e-01  4.57584722e-01  3.04753171e-09  1.58717427e-07  8.08204810e-08  1.90000000e-01 
 2.00000000e-01  3.21527859e-09  3.13393333e-09  3.33832473e-09  4.57584722e-01  4.57584722e-01  4.57584722e-01  3.04753171e-09  1.58717427e-07  8.08202945e-08  2.00000000e-01 
 2.10000000e-01  3.21527865e-09  3.13393333e-09  3.33832473e-09  4.57584720e-01  4.57584720e-01  4.57584720e-01  3.04753171e-09  1.58717434e-07  8.08202039e-08  2.10000000e-01 
 2.20000000e-01  3.21527865e-09  3.13393332e-09  3.33832473e-09  4.57584698e-01  4.57584698e-01  4.57584698e-01  3.04753171e-09  1.58717403e-07  8.08199516e-08  2.20000000e-01 
 2.30000000e-01  3.21527865e-09  3.13393332e-09  3.33832473e-09  4.57584696e-01  4.57584696e-01  4.57584696e-01  3.04753171e-09  1.58717389e-07  8.08198291e-08  2.30000000e-01 
 2.40000000e-01  3.21527865e-09  3.13393332e-09  3.33832473e-09  4.57584705e-01  4.57584705e-01  4.57584705e-01  3.04753171e-09  1.58717409e-07  8.08197100e-08  2.40000000e-01 
 2.50000000e-01  3.21527865e-09  3.13393327e-09  3.33832473e-09  4.57584693e-01  4.57584693e-01  4.57584693e-01  3.04753171e-09  1.58717385e-07  8.08194738e-08  2.50000000e-01 
 2.60000000e-01  3.21527865e-09  3.13393327e-09  3.33832473e-09  4.57584698e-01  4.57584697e-01  4.57584697e-01  3.04753171e-09  1.58717391e-07  8.08193725e-08  2.60000000e-01 
 2.70000000e-01  3.21527859e-09  3.13393332e-09  3.33832473e-09  4.57584712e-01  4.57584711e-01  4.57584711e-01  3.04753171e-09  1.58717419e-07  8.08192961e-08  2.70000000e-01 
 2.80000000e-01  3.21527865e-09  3.13393327e-09  3.33832473e-09  4.57584714e-01  4.57584713e-01  4.57584713e-01  3.04753171e-09  1.58717419e-07  8.08192464e-08  2.80000000e-01 
 2.90000000e-01  3.21527865e-09  3.13393327e-09  3.33832473e-09  4.57584706e-01  4.57584706e-01  4.57584706e-01  3.04753171e-09  1.58717415e-07  8.08190421e-08  2.90000000e-01 
 3.00000000e-01  3.21527865e-09  3.13393332e-09  3.33832473e-09  4.57584696e-01  4.57584696e-01  4.57584696e-01  3.04753171e-09  1.58717396e-07  8.08189462e-08  3.00000000e-01 
 3.10000000e-01  3.21527859e-09  3.13393332e-09  3.33832473e-09  4.57584684e-01  4.57584683e-01  4.57584683e-01  3.04753171e-09  1.58717387e-07  8.08187970e-08  3.10000000e-01 
 3.20000000e-01  3.21527864e-09  3.13393332e-09  3.33832473e-09  4.57584679e-01  4.57584679e-01  4.57584679e-01  3.04753171e-09  1.58717369e-07  8.08186975e-08  3.20000000e-01 
 3.30000000e-01  3.21527865e-09  3.13393332e-09  3.33832478e-09  4.57584705e-01  4.57584705e-01  4.57584705e-01  3.04753171e-09  1.58717408e-07  8.08186158e-08  3.30000000e-01 
 3.40000000e-01  3.21527865e-09  3.13393332e-09  3.33832478e-09  4.57584714e-01  4.57584714e-01  4.57584714e-01  3.04753171e-09  1.58717419e-07  8.08185412e-08  3.40000000e-01 
 3.50000000e-01  3.21527865e-09  3.13393332e-09  3.33832473e-09  4.57584694e-01  4.57584694e-01  4.57584694e-01  3.04753171e-09  1.58717387e-07  8.08183458e-08  3.50000000e-01 
 3.60000000e-01  3.21527859e-09  3.13393332e-09  3.33832473e-09  4.57584691e-01  4.57584691e-01  4.57584691e-01  3.04753171e-09  1.58717387e-07  8.08182712e-08  3.60000000e-01 
 3.70000000e-01  3.21527859e-09  3.13393327e-09  3.33832473e-09  4.57584710e-01  4.57584710e-01  4.57584710e-01  3.04753171e-09  1.58717407e-07  8.08182001e-08  3.70000000e-01 
 3.80000000e-01  3.21527865e-09  3.13393333e-09  3.33832473e-09  4.57584716e-01  4.57584715e-01  4.57584715e-01  3.04753171e-09  1.58717418e-07  8.08181788e-08  3.80000000e-01 
 3.90000000e-01  3.21527865e-09  3.13393327e-09  3.33832473e-09  4.57584692e-01  4.57584692e-01  4.57584692e-01  3.04753171e-09  1.58717376e-07  8.08180722e-08  3.90000000e-01 
 4.00000000e-01  3.21527859e-09  3.13393332e-09  3.33832473e-09  4.57584691e-01  4.57584691e-01  4.57584691e-01  3.04753171e-09  1.58717399e-07  8.08179728e-08  4.00000000e-01 
 4.10000000e-01  3.21527865e-09  3.13393332e-09  3.33832473e-09  4.57584708e-01  4.57584708e-01  4.57584708e-01  3.04753165e-09  1.58717412e-07  8.08177312e-08  4.10000000e-01 
 4.20000000e-01  3.21527865e-09  3.13393332e-09  3.33832473e-09  4.57584701e-01  4.57584701e-01  4.57584701e-01  3.04753171e-09  1.58717405e-07  8.08178413e-08  4.20000000e-01 
 4.30000000e-01  3.21527865e-09  3.13393332e-09  3.33832473e-09  4.57584702e-01  4.57584701e-01  4.57584701e-01  3.04753171e-09  1.58717401e-07  8.08177987e-08  4.30000000e-01 
 4.40000000e-01  3.21527865e-09  3.13393327e-09  3.33832473e-09  4.57584716e-01  4.57584716e-01  4.57584716e-01  3.04753171e-09  1.58717420e-07  8.08177028e-08  4.40000000e-01 
 4.50000000e-01  3.21527865e-09  3.13393327e-09  3.33832473e-09  4.57584703e-01  4.57584702e-01  4.57584702e-01  3.04753171e-09  1.58717404e-07  8.08175002e-08  4.50000000e-01 
 4.60000000e-01  3.21527859e-09  3.13393332e-09  3.33832478e-09  4.57584704e-01  4.57584704e-01  4.57584704e-01  3.04753171e-09  1.58717400e-07  8.08175571e-08  4.60000000e-01 
 4.70000000e-01  3.21527865e-09  3.13393332e-09  3.33832473e-09  4.57584687e-01  4.57584687e-01  4.57584687e-01  3.04753171e-09  1.58717377e-07  8.08174079e-08  4.70000000e-01 
 4.80000000e-01  3.21527859e-09  3.13393332e-09  3.33832473e-09  4.57584707e-01  4.57584707e-01  4.57584707e-01  3.04753171e-09  1.58717415e-07  8.08174647e-08  4.80000000e-01 
 4.90000000e-01  3.21527859e-09  3.13393332e-09  3.33832473e-09  4.57584695e-01  4.57584695e-01  4.57584695e-01  3.04753171e-09  1.58717383e-07  8.08171805e-08  4.90000000e-01 
 5.00000000e-01  3.21527865e-09  3.13393327e-09  3.33832473e-09  4.57584688e-01  4.57584688e-01  4.57584688e-01  3.04753171e-09  1.58717385e-07  8.08171841e-08  5.00000000e-01 
 5.10000000e-01  3.21527865e-09  3.13393327e-09  3.33832473e-09  4.57584710e-01  4.57584710e-01  4.57584710e-01  3.04753171e-09  1.58717420e-07  8.08170810e-08  5.10000000e-01 
 5.20000000e-01  3.21527859e-09  3.13393332e-09  3.33832473e-09  4.57584706e-01  4.57584705e-01  4.57584705e-01  3.04753171e-09  1.58717410e-07  8.08170739e-08  5.20000000e-01 
 5.30000000e-01  3.21527865e-09  3.13393333e-09  3.33832473e-09  4.57584720e-01  4.57584720e-01  4.57584720e-01  3.04753171e-09  1.58717428e-07  8.08170242e-08  5.30000000e-01 
 5.40000000e-01  3.21527859e-09  3.13393333e-09  3.33832478e-09  4.57584716e-01  4.57584716e-01  4.57584716e-01  3.04753171e-09  1.58717429e-07  8.08170206e-08  5.40000000e-01 
 5.50000000e-01  3.21527859e-09  3.13393332e-09  3.33832473e-09  4.57584706e-01  4.57584706e-01  4.57584706e-01  3.04753171e-09  1.58717421e-07  8.08168430e-08  5.50000000e-01 
 5.60000000e-01  3.21527859e-09  3.13393332e-09  3.33832473e-09  4.57584709e-01  4.57584709e-01  4.57584709e-01  3.04753171e-09  1.58717411e-07  8.08168039e-08  5.60000000e-01 
 5.70000000e-01  3.21527865e-09  3.13393332e-09  3.33832473e-09  4.57584711e-01  4.57584711e-01  4.57584711e-01  3.04753171e-09  1.58717429e-07  8.08166227e-08  5.70000000e-01 
 5.80000000e-01  3.21527865e-09  3.13393327e-09  3.33832473e-09  4.57584698e-01  4.57584698e-01  4.57584698e-01  3.04753171e-09  1.58717409e-07  8.08166050e-08  5.80000000e-01 
 5.90000000e-01  3.21527865e-09  3.13393327e-09  3.33832473e-09  4.57584687e-01  4.57584687e-01  4.57584687e-01  3.04753171e-09  1.58717382e-07  8.08165481e-08  5.90000000e-01 
 6.00000000e-01  3.21527865e-09  3.13393332e-09  3.33832478e-09  4.57584714e-01  4.57584714e-01  4.57584714e-01  3.04753171e-09  1.58717429e-07  8.08165268e-08  6.00000000e-01 
 6.10000000e-01  3.21527865e-09  3.13393333e-09  3.33832473e-09  4.57584723e-01  4.57584722e-01  4.57584722e-01  3.04753171e-09  1.58717451e-07  8.08164842e-08  6.10000000e-01 
 6.20000000e-01  3.21527865e-09  3.13393333e-09  3.33832473e-09  4.57584717e-01  4.57584717e-01  4.57584717e-01  3.04753171e-09  1.58717420e-07  8.08163207e-08  6.20000000e-01 
 6.30000000e-01  3.21527865e-09  3.13393332e-09  3.33832473e-09  4.57584707e-01  4.57584706e-01  4.57584706e-01  3.04753171e-09  1.58717412e-07  8.08163492e-08  6.30000000e-01 
 6.40000000e-01  3.21527865e-09  3.13393327e-09  3.33832473e-09  4.57584720e-01  4.57584719e-01  4.57584719e-01  3.04753171e-09  1.58717422e-07  8.08162497e-08  6.40000000e-01 
 6.50000000e-01  3.21527865e-09  3.13393333e-09  3.33832473e-09  4.57584731e-01  4.57584731e-01  4.57584731e-01  3.04753171e-09  1.58717446e-07  8.08162213e-08  6.50000000e-01 
 6.60000000e-01  3.21527859e-09  3.13393327e-09  3.33832478e-09  4.57584709e-01  4.57584709e-01  4.57584709e-01  3.04753171e-09  1.58717410e-07  8.08161431e-08  6.60000000e-01 
 6.70000000e-01  3.21527865e-09  3.13393332e-09  3.33832478e-09  4.57584713e-01  4.57584712e-01  4.57584712e-01  3.04753171e-09  1.58717421e-07  8.08159797e-08  6.70000000e-01 
 6.80000000e-01  3.21527865e-09  3.13393333e-09  3.33832473e-09  4.57584718e-01  4.57584718e-01  4.57584718e-01  3.04753171e-09  1.58717432e-07  8.08159939e-08  6.80000000e-01 
 6.90000000e-01  3.21527865e-09  3.13393327e-09  3.33832473e-09  4.57584716e-01  4.57584716e-01  4.57584716e-01  3.04753171e-09  1.58717426e-07  8.08159797e-08  6.90000000e-01 
 7.00000000e-01  3.21527859e-09  3.13393327e-09  3.33832473e-09  4.57584728e-01  4.57584728e-01  4.57584728e-01  3.04753171e-09  1.58717444e-07  8.08157665e-08  7.00000000e-01 
 7.10000000e-01  3.21527865e-09  3.13393332e-09  3.33832473e-09  4.57584693e-01  4.57584693e-01  4.57584693e-01  3.04753171e-09  1.58717390e-07  8.08156955e-08  7.10000000e-01 
 7.20000000e-01  3.21527865e-09  3.13393333e-09  3.33832473e-09  4.57584724e-01  4.57584724e-01  4.57584724e-01  3.04753171e-09  1.58717432e-07  8.08156244e-08  7.20000000e-01 
 7.30000000e-01  3.21527865e-09  3.13393333e-09  3.33832473e-09  4.57584724e-01  4.57584724e-01  4.57584724e-01  3.04753171e-09  1.58717430e-07  8.08156813e-08  7.30000000e-01 
 7.40000000e-01  3.21527865e-09  3.13393333e-09  3.33832473e-09  4.57584718e-01  4.57584717e-01  4.57584718e-01  3.04753171e-09  1.58717421e-07  8.08155747e-08  7.40000000e-01 
 7.50000000e-01  3.21527859e-09  3.13393332e-09  3.33832473e-09  4.57584699e-01  4.57584699e-01  4.57584699e-01  3.04753171e-09  1.58717402e-07  8.08154894e-08  7.50000000e-01 
 7.60000000e-01  3.21527859e-09  3.13393332e-09  3.33832473e-09  4.57584686e-01  4.57584686e-01  4.57584686e-01  3.04753171e-09  1.58717377e-07  8.08153473e-08  7.60000000e-01 
 7.70000000e-01  3.21527865e-09  3.13393332e-09  3.33832473e-09  4.57584701e-01  4.57584700e-01  4.57584700e-01  3.04753171e-09  1.58717398e-07  8.08152976e-08  7.70000000e-01 
 7.80000000e-01  3.21527865e-09  3.13393327e-09  3.33832473e-09  4.57584708e-01  4.57584708e-01  4.57584708e-01  3.04753171e-09  1.58717411e-07  8.08152549e-08  7.80000000e-01 
 7.90000000e-01  3.21527865e-09  3.13393327e-09  3.33832473e-09  4.57584686e-01  4.57584686e-01  4.57584686e-01  3.04753171e-09  1.58717379e-07  8.08152478e-08  7.90000000e-01 
 8.00000000e-01  3.21527859e-09  3.13393333e-09  3.33832478e-09  4.57584727e-01  4.57584727e-01  4.57584727e-01  3.04753171e-09  1.58717441e-07  8.08150986e-08  8.00000000e-01 
 8.10000000e-01  3.21527864e-09  3.13393332e-09  3.33832472e-09  4.57584678e-01  4.57584678e-01  4.57584678e-01  3.04753171e-09  1.58717361e-07  8.08150347e-08  8.10000000e-01 
 8.20000000e-01  3.21527865e-09  3.13393327e-09  3.33832473e-09  4.57584707e-01  4.57584706e-01  4.57584706e-01  3.04753171e-09  1.58717399e-07  8.08149778e-08  8.20000000e-01 
 8.30000000e-01  3.21527865e-09  3.13393333e-09  3.33832473e-09  4.57584721e-01  4.57584721e-01  4.57584721e-01  3.04753171e-09  1.58717423e-07  8.08149139e-08  8.30000000e-01 
 8.40000000e-01  3.21527865e-09  3.13393332e-09  3.33832473e-09  4.57584703e-01  4.57584703e-01  4.57584703e-01  3.04753171e-09  1.58717400e-07  8.08147789e-08  8.40000000e-01 
 8.50000000e-01  3.21527865e-09  3.13393332e-09  3.33832473e-09  4.57584691e-01  4.57584691e-01  4.57584691e-01  3.04753171e-09  1.58717398e-07  8.08147718e-08  8.50000000e-01 
 8.60000000e-01  3.21527865e-09  3.13393332e-09  3.33832473e-09  4.57584709e-01  4.57584709e-01  4.57584709e-01  3.04753171e-09  1.58717415e-07  8.08147576e-08  8.60000000e-01 
 8.70000000e-01  3.21527859e-09  3.13393332e-09  3.33832473e-09  4.57584706e-01  4.57584706e-01  4.57584706e-01  3.04753171e-09  1.58717413e-07  8.08146936e-08  8.70000000e-01 
 8.80000000e-01  3.21527859e-09  3.13393327e-09  3.33832478e-09  4.57584702e-01  4.57584702e-01  4.57584702e-01  3.04753171e-09  1.58717397e-07  8.08145089e-08  8.80000000e-01 
 8.90000000e-01  3.21527865e-09  3.13393332e-09  3.33832473e-09  4.57584690e-01  4.57584690e-01  4.57584690e-01  3.04753171e-09  1.58717388e-07  8.08144307e-08  8.90000000e-01 
 9.00000000e-01  3.21527865e-09  3.13393332e-09  3.33832473e-09  4.57584702e-01  4.57584702e-01  4.57584702e-01  3.04753171e-09  1.58717417e-07  8.08143952e-08  9.00000000e-01 
 9.10000000e-01  3.21527865e-09  3.13393333e-09  3.33832473e-09  4.57584717e-01  4.57584716e-01  4.57584716e-01  3.04753171e-09  1.58717434e-07  8.08144094e-08  9.10000000e-01 
 9.20000000e-01  3.21527859e-09  3.13393332e-09  3.33832473e-09  4.57584699e-01  4.57584699e-01  4.57584699e-01  3.04753171e-09  1.58717395e-07  8.08143241e-08  9.20000000e-01 
 9.30000000e-01  3.21527859e-09  3.13393333e-09  3.33832473e-09  4.57584725e-01  4.57584725e-01  4.57584725e-01  3.04753171e-09  1.58717444e-07  8.08143028e-08  9.30000000e-01 
 9.40000000e-01  3.21527865e-09  3.13393332e-09  3.33832478e-09  4.57584708e-01  4.57584708e-01  4.57584708e-01  3.04753171e-09  1.58717414e-07  8.08140541e-08  9.40000000e-01 
 9.50000000e-01  3.21527865e-09  3.13393332e-09  3.33832473e-09  4.57584710e-01  4.57584710e-01  4.57584710e-01  3.04753171e-09  1.58717414e-07  8.08140257e-08  9.50000000e-01 
 9.60000000e-01  3.21527865e-09  3.13393332e-09  3.33832473e-09  4.57584685e-01  4.57584685e-01  4.57584685e-01  3.04753171e-09  1.58717389e-07  8.08138552e-08  9.60000000e-01 
 9.70000000e-01  3.21527859e-09  3.13393332e-09  3.33832473e-09  4.57584691e-01  4.57584691e-01  4.57584691e-01  3.04753171e-09  1.58717382e-07  8.08139191e-08  9.70000000e-01 
 9.80000000e-01  3.21527865e-09  3.13393327e-09  3.33832473e-09  4.57584691e-01  4.57584691e-01  4.57584691e-01  3.04753171e-09  1.58717380e-07  8.08138765e-08  9.80000000e-01 
 9.90000000e-01  3.21527859e-09  3.13393332e-09  3.33832473e-09  4.57584706e-01  4.57584706e-01  4.57584706e-01  3.04753171e-09  1.58717416e-07  8.08137059e-08  9.90000000e-01 
 1.00000000e+00  3.21527865e-09  3.13393327e-09  3.33832473e-09  4.57584687e-01  4.57584687e-01  4.57584687e-01  3.04753171e-09  1.58717383e-07  8.08135638e-08  1.00000000e+00 
 1.01000000e+00  3.21527864e-09  3.13393332e-09  3.33832478e-09  4.57584671e-01  4.57584671e-01  4.57584671e-01  3.04753171e-09  1.58717352e-07  8.08135354e-08  1.01000000e+00 
 1.02000000e+00  3.21527859e-09  3.13393327e-09  3.33832473e-09  4.57584708e-01  4.57584708e-01  4.57584708e-01  3.04753171e-09  1.58717413e-07  8.08135781e-08  1.02000000e+00 
 1.03000000e+00  3.21527864e-09  3.13393332e-09  3.33832472e-09  4.57584671e-01  4.57584671e-01  4.57584671e-01  3.04753171e-09  1.58717348e-07  8.08133507e-08  1.03000000e+00 
 1.04000000e+00  3.21527859e-09  3.13393332e-09  3.33832473e-09  4.57584694e-01  4.57584693e-01  4.57584693e-01  3.04753171e-09  1.58717401e-07  8.08132796e-08  1.04000000e+00 
 1.05000000e+00  3.21527859e-09  3.13393333e-09  3.33832473e-09  4.57584725e-01  4.57584725e-01  4.57584725e-01  3.04753171e-09  1.58717443e-07  8.08133365e-08  1.05000000e+00 
 1.06000000e+00  3.21527859e-09  3.13393333e-09  3.33832473e-09  4.57584728e-01  4.57584728e-01  4.57584728e-01  3.04753171e-09  1.58717446e-07  8.08132512e-08  1.06000000e+00 
 1.07000000e+00  3.21527865e-09  3.13393332e-09  3.33832473e-09  4.57584715e-01  4.57584715e-01  4.57584715e-01  3.04753171e-09  1.58717429e-07  8.08131091e-08  1.07000000e+00 
 1.08000000e+00  3.21527865e-09  3.13393332e-09  3.33832473e-09  4.57584699e-01  4.57584699e-01  4.57584699e-01  3.04753171e-09  1.58717401e-07  8.08130665e-08  1.08000000e+00 
 1.09000000e+00  3.21527859e-09  3.13393332e-09  3.33832473e-09  4.57584696e-01  4.57584696e-01  4.57584696e-01  3.04753171e-09  1.58717391e-07  8.08129386e-08  1.09000000e+00 
 1.10000000e+00  3.21527865e-09  3.13393333e-09  3.33832473e-09  4.57584732e-01  4.57584732e-01  4.57584732e-01  3.04753171e-09  1.58717453e-07  8.08130025e-08  1.10000000e+00 
