 v-sweep         v(b0)           v(b1)           v(b2)           v(b3)           v(b4)           v(b5)           v(b6)           i(vbias)        i(viout)        v(vout)        
 0.00000000e+00  3.35058928e-09  3.28197482e-09  3.22570861e-09  3.22008765e-09  3.32090519e-09  3.10440658e-09  4.57131844e-01  1.56632726e-07  9.35452561e-08  0.00000000e+00 
 1.00000000e-02  3.35058931e-09  3.28197479e-09  3.22570858e-09  3.22008762e-09  3.32090516e-09  3.10440661e-09  4.57131865e-01  1.56632772e-07  9.35450937e-08  1.00000000e-02 
 2.00000000e-02  3.35058931e-09  3.28197479e-09  3.22570858e-09  3.22008762e-09  3.32090516e-09  3.10440661e-09  4.57131844e-01  1.56632736e-07  9.35445357e-08  2.00000000e-02 
 3.00000000e-02  3.35058926e-09  3.28197479e-09  3.22570858e-09  3.22008762e-09  3.32090516e-09  3.10440655e-09  4.57131869e-01  1.56632774e-07  9.35441791e-08  3.00000000e-02 
 4.00000000e-02  3.35058925e-09  3.28197479e-09  3.22570858e-09  3.22008762e-09  3.32090516e-09  3.10440661e-09  4.57131856e-01  1.56632765e-07  9.35437874e-08  4.00000000e-02 
 5.00000000e-02  3.35058931e-09  3.28197479e-09  3.22570858e-09  3.22008762e-09  3.32090516e-09  3.10440661e-09  4.57131839e-01  1.56632733e-07  9.35434357e-08  5.00000000e-02 
 6.00000000e-02  3.35058926e-09  3.28197479e-09  3.22570858e-09  3.22008762e-09  3.32090516e-09  3.10440661e-09  4.57131864e-01  1.56632763e-07  9.35431901e-08  6.00000000e-02 
 7.00000000e-02  3.35058931e-09  3.28197479e-09  3.22570858e-09  3.22008762e-09  3.32090516e-09  3.10440661e-09  4.57131858e-01  1.56632752e-07  9.35428344e-08  7.00000000e-02 
 8.00000000e-02  3.35058925e-09  3.28197479e-09  3.22570858e-09  3.22008762e-09  3.32090516e-09  3.10440655e-09  4.57131845e-01  1.56632739e-07  9.35425977e-08  8.00000000e-02 
 9.00000000e-02  3.35058925e-09  3.28197479e-09  3.22570858e-09  3.22008762e-09  3.32090516e-09  3.10440661e-09  4.57131848e-01  1.56632739e-07  9.35422566e-08  9.00000000e-02 
 1.00000000e-01  3.35058931e-09  3.28197479e-09  3.22570858e-09  3.22008762e-09  3.32090516e-09  3.10440661e-09  4.57131861e-01  1.56632764e-07  9.35419759e-08  1.00000000e-01 
 1.10000000e-01  3.35058925e-09  3.28197479e-09  3.22570858e-09  3.22008762e-09  3.32090516e-09  3.10440661e-09  4.57131846e-01  1.56632751e-07  9.35417379e-08  1.10000000e-01 
 1.20000000e-01  3.35058926e-09  3.28197480e-09  3.22570858e-09  3.22008762e-09  3.32090516e-09  3.10440661e-09  4.57131885e-01  1.56632800e-07  9.35414732e-08  1.20000000e-01 
 1.30000000e-01  3.35058925e-09  3.28197479e-09  3.22570858e-09  3.22008762e-09  3.32090516e-09  3.10440661e-09  4.57131857e-01  1.56632760e-07  9.35413613e-08  1.30000000e-01 
 1.40000000e-01  3.35058931e-09  3.28197479e-09  3.22570864e-09  3.22008762e-09  3.32090516e-09  3.10440661e-09  4.57131856e-01  1.56632741e-07  9.35410034e-08  1.40000000e-01 
 1.50000000e-01  3.35058931e-09  3.28197479e-09  3.22570858e-09  3.22008762e-09  3.32090516e-09  3.10440655e-09  4.57131842e-01  1.56632742e-07  9.35408728e-08  1.50000000e-01 
 1.60000000e-01  3.35058926e-09  3.28197479e-09  3.22570858e-09  3.22008762e-09  3.32090516e-09  3.10440661e-09  4.57131863e-01  1.56632766e-07  9.35405957e-08  1.60000000e-01 
 1.70000000e-01  3.35058925e-09  3.28197479e-09  3.22570864e-09  3.22008762e-09  3.32090516e-09  3.10440661e-09  4.57131849e-01  1.56632742e-07  9.35403790e-08  1.70000000e-01 
 1.80000000e-01  3.35058931e-09  3.28197479e-09  3.22570864e-09  3.22008762e-09  3.32090516e-09  3.10440660e-09  4.57131834e-01  1.56632718e-07  9.35400184e-08  1.80000000e-01 
 1.90000000e-01  3.35058926e-09  3.28197479e-09  3.22570858e-09  3.22008762e-09  3.32090516e-09  3.10440661e-09  4.57131869e-01  1.56632772e-07  9.35401303e-08  1.90000000e-01 
 2.00000000e-01  3.35058925e-09  3.28197479e-09  3.22570858e-09  3.22008762e-09  3.32090516e-09  3.10440661e-09  4.57131845e-01  1.56632744e-07  9.35398372e-08  2.00000000e-01 
 2.10000000e-01  3.35058926e-09  3.28197479e-09  3.22570858e-09  3.22008762e-09  3.32090516e-09  3.10440661e-09  4.57131866e-01  1.56632774e-07  9.35396560e-08  2.10000000e-01 
 2.20000000e-01  3.35058926e-09  3.28197479e-09  3.22570858e-09  3.22008762e-09  3.32090516e-09  3.10440661e-09  4.57131870e-01  1.56632770e-07  9.35395814e-08  2.20000000e-01 
 2.30000000e-01  3.35058926e-09  3.28197479e-09  3.22570864e-09  3.22008762e-09  3.32090516e-09  3.10440661e-09  4.57131869e-01  1.56632772e-07  9.35394056e-08  2.30000000e-01 
 2.40000000e-01  3.35058925e-09  3.28197479e-09  3.22570858e-09  3.22008768e-09  3.32090516e-09  3.10440661e-09  4.57131848e-01  1.56632741e-07  9.35392297e-08  2.40000000e-01 
 2.50000000e-01  3.35058931e-09  3.28197479e-09  3.22570858e-09  3.22008762e-09  3.32090516e-09  3.10440661e-09  4.57131859e-01  1.56632753e-07  9.35392457e-08  2.50000000e-01 
 2.60000000e-01  3.35058925e-09  3.28197479e-09  3.22570858e-09  3.22008762e-09  3.32090516e-09  3.10440655e-09  4.57131855e-01  1.56632755e-07  9.35389775e-08  2.60000000e-01 
 2.70000000e-01  3.35058931e-09  3.28197485e-09  3.22570858e-09  3.22008762e-09  3.32090516e-09  3.10440655e-09  4.57131834e-01  1.56632707e-07  9.35388638e-08  2.70000000e-01 
 2.80000000e-01  3.35058926e-09  3.28197479e-09  3.22570858e-09  3.22008762e-09  3.32090516e-09  3.10440655e-09  4.57131864e-01  1.56632757e-07  9.35387767e-08  2.80000000e-01 
 2.90000000e-01  3.35058926e-09  3.28197479e-09  3.22570858e-09  3.22008762e-09  3.32090516e-09  3.10440661e-09  4.57131871e-01  1.56632783e-07  9.35387305e-08  2.90000000e-01 
 3.00000000e-01  3.35058926e-09  3.28197485e-09  3.22570858e-09  3.22008762e-09  3.32090516e-09  3.10440661e-09  4.57131866e-01  1.56632780e-07  9.35385174e-08  3.00000000e-01 
 3.10000000e-01  3.35058925e-09  3.28197479e-09  3.22570858e-09  3.22008762e-09  3.32090516e-09  3.10440655e-09  4.57131853e-01  1.56632749e-07  9.35384037e-08  3.10000000e-01 
 3.20000000e-01  3.35058925e-09  3.28197479e-09  3.22570858e-09  3.22008762e-09  3.32090516e-09  3.10440660e-09  4.57131833e-01  1.56632720e-07  9.35380342e-08  3.20000000e-01 
 3.30000000e-01  3.35058931e-09  3.28197479e-09  3.22570858e-09  3.22008762e-09  3.32090516e-09  3.10440655e-09  4.57131847e-01  1.56632742e-07  9.35381692e-08  3.30000000e-01 
 3.40000000e-01  3.35058925e-09  3.28197479e-09  3.22570858e-09  3.22008762e-09  3.32090510e-09  3.10440661e-09  4.57131859e-01  1.56632777e-07  9.35380626e-08  3.40000000e-01 
 3.50000000e-01  3.35058931e-09  3.28197479e-09  3.22570858e-09  3.22008762e-09  3.32090516e-09  3.10440661e-09  4.57131867e-01  1.56632779e-07  9.35379738e-08  3.50000000e-01 
 3.60000000e-01  3.35058931e-09  3.28197479e-09  3.22570858e-09  3.22008762e-09  3.32090516e-09  3.10440661e-09  4.57131867e-01  1.56632776e-07  9.35378957e-08  3.60000000e-01 
 3.70000000e-01  3.35058925e-09  3.28197485e-09  3.22570858e-09  3.22008762e-09  3.32090516e-09  3.10440655e-09  4.57131852e-01  1.56632748e-07  9.35377962e-08  3.70000000e-01 
 3.80000000e-01  3.35058931e-09  3.28197479e-09  3.22570858e-09  3.22008762e-09  3.32090516e-09  3.10440655e-09  4.57131856e-01  1.56632755e-07  9.35376185e-08  3.80000000e-01 
 3.90000000e-01  3.35058931e-09  3.28197485e-09  3.22570858e-09  3.22008762e-09  3.32090516e-09  3.10440661e-09  4.57131854e-01  1.56632757e-07  9.35375262e-08  3.90000000e-01 
 4.00000000e-01  3.35058925e-09  3.28197479e-09  3.22570858e-09  3.22008762e-09  3.32090516e-09  3.10440661e-09  4.57131844e-01  1.56632727e-07  9.35373947e-08  4.00000000e-01 
 4.10000000e-01  3.35058925e-09  3.28197479e-09  3.22570858e-09  3.22008762e-09  3.32090516e-09  3.10440661e-09  4.57131845e-01  1.56632729e-07  9.35374125e-08  4.10000000e-01 
 4.20000000e-01  3.35058925e-09  3.28197479e-09  3.22570858e-09  3.22008762e-09  3.32090516e-09  3.10440655e-09  4.57131856e-01  1.56632753e-07  9.35372988e-08  4.20000000e-01 
 4.30000000e-01  3.35058925e-09  3.28197479e-09  3.22570858e-09  3.22008762e-09  3.32090516e-09  3.10440655e-09  4.57131835e-01  1.56632725e-07  9.35370643e-08  4.30000000e-01 
 4.40000000e-01  3.35058926e-09  3.28197479e-09  3.22570864e-09  3.22008762e-09  3.32090516e-09  3.10440655e-09  4.57131867e-01  1.56632785e-07  9.35372455e-08  4.40000000e-01 
 4.50000000e-01  3.35058926e-09  3.28197479e-09  3.22570858e-09  3.22008762e-09  3.32090516e-09  3.10440661e-09  4.57131867e-01  1.56632772e-07  9.35370288e-08  4.50000000e-01 
 4.60000000e-01  3.35058925e-09  3.28197479e-09  3.22570858e-09  3.22008762e-09  3.32090516e-09  3.10440661e-09  4.57131850e-01  1.56632749e-07  9.35370110e-08  4.60000000e-01 
 4.70000000e-01  3.35058925e-09  3.28197479e-09  3.22570858e-09  3.22008762e-09  3.32090516e-09  3.10440661e-09  4.57131845e-01  1.56632754e-07  9.35368334e-08  4.70000000e-01 
 4.80000000e-01  3.35058925e-09  3.28197479e-09  3.22570858e-09  3.22008762e-09  3.32090522e-09  3.10440655e-09  4.57131849e-01  1.56632745e-07  9.35368547e-08  4.80000000e-01 
 4.90000000e-01  3.35058931e-09  3.28197479e-09  3.22570858e-09  3.22008762e-09  3.32090516e-09  3.10440661e-09  4.57131853e-01  1.56632755e-07  9.35367019e-08  4.90000000e-01 
 5.00000000e-01  3.35058931e-09  3.28197479e-09  3.22570858e-09  3.22008762e-09  3.32090516e-09  3.10440661e-09  4.57131859e-01  1.56632750e-07  9.35367162e-08  5.00000000e-01 
 5.10000000e-01  3.35058931e-09  3.28197479e-09  3.22570858e-09  3.22008762e-09  3.32090516e-09  3.10440661e-09  4.57131853e-01  1.56632773e-07  9.35365065e-08  5.10000000e-01 
 5.20000000e-01  3.35058931e-09  3.28197485e-09  3.22570858e-09  3.22008762e-09  3.32090516e-09  3.10440655e-09  4.57131852e-01  1.56632739e-07  9.35365065e-08  5.20000000e-01 
 5.30000000e-01  3.35058925e-09  3.28197479e-09  3.22570858e-09  3.22008762e-09  3.32090516e-09  3.10440661e-09  4.57131853e-01  1.56632761e-07  9.35363076e-08  5.30000000e-01 
 5.40000000e-01  3.35058925e-09  3.28197479e-09  3.22570858e-09  3.22008762e-09  3.32090516e-09  3.10440661e-09  4.57131844e-01  1.56632731e-07  9.35363893e-08  5.40000000e-01 
 5.50000000e-01  3.35058925e-09  3.28197479e-09  3.22570858e-09  3.22008762e-09  3.32090516e-09  3.10440655e-09  4.57131835e-01  1.56632732e-07  9.35362543e-08  5.50000000e-01 
 5.60000000e-01  3.35058931e-09  3.28197485e-09  3.22570858e-09  3.22008762e-09  3.32090516e-09  3.10440655e-09  4.57131872e-01  1.56632788e-07  9.35362330e-08  5.60000000e-01 
 5.70000000e-01  3.35058925e-09  3.28197479e-09  3.22570858e-09  3.22008762e-09  3.32090516e-09  3.10440655e-09  4.57131847e-01  1.56632738e-07  9.35360767e-08  5.70000000e-01 
 5.80000000e-01  3.35058931e-09  3.28197479e-09  3.22570858e-09  3.22008757e-09  3.32090516e-09  3.10440661e-09  4.57131873e-01  1.56632785e-07  9.35360873e-08  5.80000000e-01 
 5.90000000e-01  3.35058925e-09  3.28197485e-09  3.22570858e-09  3.22008762e-09  3.32090516e-09  3.10440655e-09  4.57131850e-01  1.56632742e-07  9.35359736e-08  5.90000000e-01 
 6.00000000e-01  3.35058925e-09  3.28197479e-09  3.22570858e-09  3.22008762e-09  3.32090516e-09  3.10440655e-09  4.57131843e-01  1.56632731e-07  9.35358599e-08  6.00000000e-01 
 6.10000000e-01  3.35058926e-09  3.28197479e-09  3.22570858e-09  3.22008762e-09  3.32090516e-09  3.10440655e-09  4.57131862e-01  1.56632754e-07  9.35358813e-08  6.10000000e-01 
 6.20000000e-01  3.35058931e-09  3.28197479e-09  3.22570858e-09  3.22008762e-09  3.32090516e-09  3.10440655e-09  4.57131838e-01  1.56632726e-07  9.35356468e-08  6.20000000e-01 
 6.30000000e-01  3.35058931e-09  3.28197480e-09  3.22570858e-09  3.22008762e-09  3.32090516e-09  3.10440661e-09  4.57131880e-01  1.56632796e-07  9.35357036e-08  6.30000000e-01 
 6.40000000e-01  3.35058931e-09  3.28197479e-09  3.22570858e-09  3.22008762e-09  3.32090516e-09  3.10440655e-09  4.57131853e-01  1.56632747e-07  9.35356752e-08  6.40000000e-01 
 6.50000000e-01  3.35058926e-09  3.28197479e-09  3.22570858e-09  3.22008762e-09  3.32090516e-09  3.10440661e-09  4.57131869e-01  1.56632772e-07  9.35356752e-08  6.50000000e-01 
 6.60000000e-01  3.35058925e-09  3.28197479e-09  3.22570858e-09  3.22008762e-09  3.32090516e-09  3.10440661e-09  4.57131856e-01  1.56632768e-07  9.35354905e-08  6.60000000e-01 
 6.70000000e-01  3.35058925e-09  3.28197479e-09  3.22570858e-09  3.22008762e-09  3.32090516e-09  3.10440655e-09  4.57131852e-01  1.56632750e-07  9.35353910e-08  6.70000000e-01 
 6.80000000e-01  3.35058931e-09  3.28197479e-09  3.22570858e-09  3.22008762e-09  3.32090516e-09  3.10440655e-09  4.57131860e-01  1.56632763e-07  9.35352489e-08  6.80000000e-01 
 6.90000000e-01  3.35058926e-09  3.28197479e-09  3.22570858e-09  3.22008762e-09  3.32090516e-09  3.10440661e-09  4.57131860e-01  1.56632762e-07  9.35353626e-08  6.90000000e-01 
 7.00000000e-01  3.35058926e-09  3.28197479e-09  3.22570858e-09  3.22008762e-09  3.32090516e-09  3.10440655e-09  4.57131875e-01  1.56632788e-07  9.35351565e-08  7.00000000e-01 
 7.10000000e-01  3.35058925e-09  3.28197479e-09  3.22570858e-09  3.22008762e-09  3.32090516e-09  3.10440655e-09  4.57131855e-01  1.56632761e-07  9.35350357e-08  7.10000000e-01 
 7.20000000e-01  3.35058925e-09  3.28197479e-09  3.22570864e-09  3.22008762e-09  3.32090516e-09  3.10440655e-09  4.57131857e-01  1.56632756e-07  9.35350073e-08  7.20000000e-01 
 7.30000000e-01  3.35058925e-09  3.28197479e-09  3.22570858e-09  3.22008762e-09  3.32090516e-09  3.10440661e-09  4.57131853e-01  1.56632749e-07  9.35348936e-08  7.30000000e-01 
 7.40000000e-01  3.35058925e-09  3.28197479e-09  3.22570858e-09  3.22008762e-09  3.32090516e-09  3.10440661e-09  4.57131846e-01  1.56632739e-07  9.35348154e-08  7.40000000e-01 
 7.50000000e-01  3.35058925e-09  3.28197479e-09  3.22570858e-09  3.22008762e-09  3.32090516e-09  3.10440655e-09  4.57131844e-01  1.56632723e-07  9.35348297e-08  7.50000000e-01 
 7.60000000e-01  3.35058926e-09  3.28197479e-09  3.22570858e-09  3.22008762e-09  3.32090516e-09  3.10440661e-09  4.57131867e-01  1.56632767e-07  9.35348083e-08  7.60000000e-01 
 7.70000000e-01  3.35058925e-09  3.28197479e-09  3.22570858e-09  3.22008762e-09  3.32090516e-09  3.10440655e-09  4.57131846e-01  1.56632747e-07  9.35346662e-08  7.70000000e-01 
 7.80000000e-01  3.35058925e-09  3.28197479e-09  3.22570858e-09  3.22008762e-09  3.32090516e-09  3.10440661e-09  4.57131854e-01  1.56632746e-07  9.35346023e-08  7.80000000e-01 
 7.90000000e-01  3.35058925e-09  3.28197479e-09  3.22570858e-09  3.22008762e-09  3.32090516e-09  3.10440661e-09  4.57131840e-01  1.56632730e-07  9.35345739e-08  7.90000000e-01 
 8.00000000e-01  3.35058931e-09  3.28197479e-09  3.22570864e-09  3.22008762e-09  3.32090516e-09  3.10440661e-09  4.57131853e-01  1.56632763e-07  9.35343891e-08  8.00000000e-01 
 8.10000000e-01  3.35058931e-09  3.28197479e-09  3.22570858e-09  3.22008762e-09  3.32090516e-09  3.10440661e-09  4.57131848e-01  1.56632744e-07  9.35343323e-08  8.10000000e-01 
 8.20000000e-01  3.35058925e-09  3.28197479e-09  3.22570858e-09  3.22008762e-09  3.32090516e-09  3.10440655e-09  4.57131843e-01  1.56632727e-07  9.35343252e-08  8.20000000e-01 
 8.30000000e-01  3.35058931e-09  3.28197479e-09  3.22570858e-09  3.22008762e-09  3.32090516e-09  3.10440655e-09  4.57131839e-01  1.56632726e-07  9.35341831e-08  8.30000000e-01 
 8.40000000e-01  3.35058925e-09  3.28197479e-09  3.22570858e-09  3.22008762e-09  3.32090516e-09  3.10440661e-09  4.57131850e-01  1.56632744e-07  9.35341617e-08  8.40000000e-01 
 8.50000000e-01  3.35058931e-09  3.28197485e-09  3.22570858e-09  3.22008762e-09  3.32090516e-09  3.10440655e-09  4.57131857e-01  1.56632764e-07  9.35340694e-08  8.50000000e-01 
 8.60000000e-01  3.35058926e-09  3.28197479e-09  3.22570858e-09  3.22008762e-09  3.32090516e-09  3.10440655e-09  4.57131861e-01  1.56632773e-07  9.35340552e-08  8.60000000e-01 
 8.70000000e-01  3.35058926e-09  3.28197479e-09  3.22570858e-09  3.22008762e-09  3.32090516e-09  3.10440661e-09  4.57131866e-01  1.56632764e-07  9.35339415e-08  8.70000000e-01 
 8.80000000e-01  3.35058925e-09  3.28197479e-09  3.22570858e-09  3.22008762e-09  3.32090516e-09  3.10440661e-09  4.57131844e-01  1.56632739e-07  9.35338136e-08  8.80000000e-01 
 8.90000000e-01  3.35058925e-09  3.28197479e-09  3.22570858e-09  3.22008762e-09  3.32090516e-09  3.10440655e-09  4.57131847e-01  1.56632723e-07  9.35337070e-08  8.90000000e-01 
 9.00000000e-01  3.35058925e-09  3.28197479e-09  3.22570858e-09  3.22008762e-09  3.32090516e-09  3.10440655e-09  4.57131853e-01  1.56632763e-07  9.35337425e-08  9.00000000e-01 
 9.10000000e-01  3.35058926e-09  3.28197479e-09  3.22570858e-09  3.22008762e-09  3.32090516e-09  3.10440655e-09  4.57131865e-01  1.56632763e-07  9.35336786e-08  9.10000000e-01 
 9.20000000e-01  3.35058931e-09  3.28197479e-09  3.22570858e-09  3.22008762e-09  3.32090516e-09  3.10440655e-09  4.57131860e-01  1.56632763e-07  9.35335649e-08  9.20000000e-01 
 9.30000000e-01  3.35058925e-09  3.28197479e-09  3.22570858e-09  3.22008762e-09  3.32090516e-09  3.10440655e-09  4.57131851e-01  1.56632755e-07  9.35335294e-08  9.30000000e-01 
 9.40000000e-01  3.35058925e-09  3.28197479e-09  3.22570858e-09  3.22008762e-09  3.32090516e-09  3.10440661e-09  4.57131853e-01  1.56632749e-07  9.35334441e-08  9.40000000e-01 
 9.50000000e-01  3.35058931e-09  3.28197479e-09  3.22570858e-09  3.22008762e-09  3.32090516e-09  3.10440661e-09  4.57131864e-01  1.56632769e-07  9.35335009e-08  9.50000000e-01 
 9.60000000e-01  3.35058925e-09  3.28197479e-09  3.22570858e-09  3.22008762e-09  3.32090516e-09  3.10440661e-09  4.57131836e-01  1.56632734e-07  9.35331457e-08  9.60000000e-01 
 9.70000000e-01  3.35058931e-09  3.28197479e-09  3.22570858e-09  3.22008762e-09  3.32090516e-09  3.10440655e-09  4.57131863e-01  1.56632772e-07  9.35332949e-08  9.70000000e-01 
 9.80000000e-01  3.35058931e-09  3.28197479e-09  3.22570858e-09  3.22008762e-09  3.32090516e-09  3.10440655e-09  4.57131852e-01  1.56632749e-07  9.35331244e-08  9.80000000e-01 
 9.90000000e-01  3.35058925e-09  3.28197479e-09  3.22570858e-09  3.22008762e-09  3.32090516e-09  3.10440655e-09  4.57131844e-01  1.56632739e-07  9.35329965e-08  9.90000000e-01 
 1.00000000e+00  3.35058925e-09  3.28197479e-09  3.22570858e-09  3.22008762e-09  3.32090516e-09  3.10440655e-09  4.57131848e-01  1.56632740e-07  9.35328970e-08  1.00000000e+00 
 1.01000000e+00  3.35058925e-09  3.28197479e-09  3.22570858e-09  3.22008762e-09  3.32090516e-09  3.10440661e-09  4.57131845e-01  1.56632746e-07  9.35328828e-08  1.01000000e+00 
 1.02000000e+00  3.35058931e-09  3.28197485e-09  3.22570864e-09  3.22008762e-09  3.32090516e-09  3.10440660e-09  4.57131829e-01  1.56632721e-07  9.35327122e-08  1.02000000e+00 
 1.03000000e+00  3.35058926e-09  3.28197479e-09  3.22570858e-09  3.22008762e-09  3.32090516e-09  3.10440661e-09  4.57131864e-01  1.56632770e-07  9.35326980e-08  1.03000000e+00 
 1.04000000e+00  3.35058931e-09  3.28197479e-09  3.22570858e-09  3.22008762e-09  3.32090516e-09  3.10440661e-09  4.57131857e-01  1.56632767e-07  9.35325488e-08  1.04000000e+00 
 1.05000000e+00  3.35058931e-09  3.28197485e-09  3.22570858e-09  3.22008762e-09  3.32090516e-09  3.10440655e-09  4.57131853e-01  1.56632758e-07  9.35324991e-08  1.05000000e+00 
 1.06000000e+00  3.35058926e-09  3.28197479e-09  3.22570858e-09  3.22008762e-09  3.32090516e-09  3.10440655e-09  4.57131871e-01  1.56632788e-07  9.35324564e-08  1.06000000e+00 
 1.07000000e+00  3.35058925e-09  3.28197485e-09  3.22570858e-09  3.22008762e-09  3.32090516e-09  3.10440655e-09  4.57131845e-01  1.56632740e-07  9.35324351e-08  1.07000000e+00 
 1.08000000e+00  3.35058926e-09  3.28197480e-09  3.22570864e-09  3.22008762e-09  3.32090516e-09  3.10440655e-09  4.57131880e-01  1.56632797e-07  9.35323001e-08  1.08000000e+00 
 1.09000000e+00  3.35058931e-09  3.28197479e-09  3.22570858e-09  3.22008762e-09  3.32090516e-09  3.10440655e-09  4.57131827e-01  1.56632714e-07  9.35321225e-08  1.09000000e+00 
 1.10000000e+00  3.35058925e-09  3.28197479e-09  3.22570858e-09  3.22008762e-09  3.32090516e-09  3.10440661e-09  4.57131846e-01  1.56632733e-07  9.35320514e-08  1.10000000e+00 
