 v-sweep         v(b0)           v(b1)           v(b2)           v(b3)           v(b4)           v(b5)           v(b6)           i(vbias)        i(viout)        v(vout)        
 0.00000000e+00  3.13607345e-09  3.34907859e-09  3.23081855e-09  3.27678240e-09  3.22880294e-09  3.29014111e-09  4.60004333e-01  1.61623064e-07  1.00699846e-07  0.00000000e+00 
 1.00000000e-02  3.13607344e-09  3.34907857e-09  3.23081859e-09  3.27678238e-09  3.22880299e-09  3.29014115e-09  4.60004362e-01  1.61623113e-07  1.00699462e-07  1.00000000e-02 
 2.00000000e-02  3.13607338e-09  3.34907857e-09  3.23081853e-09  3.27678244e-09  3.22880298e-09  3.29014114e-09  4.60004329e-01  1.61623053e-07  1.00698989e-07  2.00000000e-02 
 3.00000000e-02  3.13607344e-09  3.34907857e-09  3.23081859e-09  3.27678238e-09  3.22880293e-09  3.29014115e-09  4.60004354e-01  1.61623106e-07  1.00698554e-07  3.00000000e-02 
 4.00000000e-02  3.13607344e-09  3.34907857e-09  3.23081859e-09  3.27678244e-09  3.22880293e-09  3.29014109e-09  4.60004346e-01  1.61623071e-07  1.00698226e-07  4.00000000e-02 
 5.00000000e-02  3.13607343e-09  3.34907857e-09  3.23081859e-09  3.27678238e-09  3.22880293e-09  3.29014109e-09  4.60004335e-01  1.61623070e-07  1.00697785e-07  5.00000000e-02 
 6.00000000e-02  3.13607343e-09  3.34907857e-09  3.23081859e-09  3.27678244e-09  3.22880293e-09  3.29014114e-09  4.60004326e-01  1.61623047e-07  1.00697527e-07  6.00000000e-02 
 7.00000000e-02  3.13607338e-09  3.34907857e-09  3.23081859e-09  3.27678244e-09  3.22880293e-09  3.29014114e-09  4.60004326e-01  1.61623063e-07  1.00697256e-07  7.00000000e-02 
 8.00000000e-02  3.13607343e-09  3.34907857e-09  3.23081859e-09  3.27678238e-09  3.22880298e-09  3.29014109e-09  4.60004337e-01  1.61623063e-07  1.00696975e-07  8.00000000e-02 
 9.00000000e-02  3.13607338e-09  3.34907857e-09  3.23081853e-09  3.27678244e-09  3.22880292e-09  3.29014109e-09  4.60004324e-01  1.61623048e-07  1.00696631e-07  9.00000000e-02 
 1.00000000e-01  3.13607338e-09  3.34907857e-09  3.23081859e-09  3.27678238e-09  3.22880293e-09  3.29014109e-09  4.60004338e-01  1.61623075e-07  1.00696309e-07  1.00000000e-01 
 1.10000000e-01  3.13607338e-09  3.34907857e-09  3.23081859e-09  3.27678244e-09  3.22880293e-09  3.29014114e-09  4.60004330e-01  1.61623064e-07  1.00696198e-07  1.10000000e-01 
 1.20000000e-01  3.13607343e-09  3.34907857e-09  3.23081859e-09  3.27678244e-09  3.22880293e-09  3.29014109e-09  4.60004328e-01  1.61623066e-07  1.00695859e-07  1.20000000e-01 
 1.30000000e-01  3.13607338e-09  3.34907857e-09  3.23081859e-09  3.27678244e-09  3.22880293e-09  3.29014114e-09  4.60004340e-01  1.61623072e-07  1.00695626e-07  1.30000000e-01 
 1.40000000e-01  3.13607343e-09  3.34907857e-09  3.23081853e-09  3.27678244e-09  3.22880298e-09  3.29014109e-09  4.60004335e-01  1.61623074e-07  1.00695353e-07  1.40000000e-01 
 1.50000000e-01  3.13607338e-09  3.34907857e-09  3.23081859e-09  3.27678238e-09  3.22880299e-09  3.29014109e-09  4.60004359e-01  1.61623097e-07  1.00695313e-07  1.50000000e-01 
 1.60000000e-01  3.13607344e-09  3.34907857e-09  3.23081859e-09  3.27678238e-09  3.22880293e-09  3.29014109e-09  4.60004358e-01  1.61623110e-07  1.00695077e-07  1.60000000e-01 
 1.70000000e-01  3.13607338e-09  3.34907857e-09  3.23081859e-09  3.27678244e-09  3.22880298e-09  3.29014109e-09  4.60004328e-01  1.61623064e-07  1.00694821e-07  1.70000000e-01 
 1.80000000e-01  3.13607343e-09  3.34907857e-09  3.23081853e-09  3.27678238e-09  3.22880298e-09  3.29014114e-09  4.60004335e-01  1.61623073e-07  1.00694535e-07  1.80000000e-01 
 1.90000000e-01  3.13607338e-09  3.34907857e-09  3.23081859e-09  3.27678244e-09  3.22880293e-09  3.29014109e-09  4.60004344e-01  1.61623077e-07  1.00694439e-07  1.90000000e-01 
 2.00000000e-01  3.13607338e-09  3.34907857e-09  3.23081859e-09  3.27678244e-09  3.22880293e-09  3.29014109e-09  4.60004342e-01  1.61623074e-07  1.00694216e-07  2.00000000e-01 
 2.10000000e-01  3.13607343e-09  3.34907857e-09  3.23081859e-09  3.27678238e-09  3.22880298e-09  3.29014109e-09  4.60004345e-01  1.61623082e-07  1.00694095e-07  2.10000000e-01 
 2.20000000e-01  3.13607338e-09  3.34907857e-09  3.23081859e-09  3.27678238e-09  3.22880298e-09  3.29014114e-09  4.60004341e-01  1.61623070e-07  1.00693889e-07  2.20000000e-01 
 2.30000000e-01  3.13607338e-09  3.34907857e-09  3.23081859e-09  3.27678238e-09  3.22880293e-09  3.29014114e-09  4.60004343e-01  1.61623081e-07  1.00693695e-07  2.30000000e-01 
 2.40000000e-01  3.13607343e-09  3.34907857e-09  3.23081859e-09  3.27678244e-09  3.22880298e-09  3.29014109e-09  4.60004317e-01  1.61623033e-07  1.00693505e-07  2.40000000e-01 
 2.50000000e-01  3.13607338e-09  3.34907857e-09  3.23081859e-09  3.27678244e-09  3.22880298e-09  3.29014109e-09  4.60004350e-01  1.61623104e-07  1.00693532e-07  2.50000000e-01 
 2.60000000e-01  3.13607338e-09  3.34907857e-09  3.23081859e-09  3.27678238e-09  3.22880293e-09  3.29014114e-09  4.60004326e-01  1.61623052e-07  1.00693306e-07  2.60000000e-01 
 2.70000000e-01  3.13607338e-09  3.34907857e-09  3.23081859e-09  3.27678238e-09  3.22880293e-09  3.29014109e-09  4.60004335e-01  1.61623070e-07  1.00693139e-07  2.70000000e-01 
 2.80000000e-01  3.13607343e-09  3.34907857e-09  3.23081853e-09  3.27678238e-09  3.22880298e-09  3.29014114e-09  4.60004338e-01  1.61623069e-07  1.00693054e-07  2.80000000e-01 
 2.90000000e-01  3.13607343e-09  3.34907857e-09  3.23081859e-09  3.27678244e-09  3.22880298e-09  3.29014109e-09  4.60004330e-01  1.61623060e-07  1.00692990e-07  2.90000000e-01 
 3.00000000e-01  3.13607338e-09  3.34907857e-09  3.23081853e-09  3.27678238e-09  3.22880298e-09  3.29014109e-09  4.60004349e-01  1.61623084e-07  1.00692858e-07  3.00000000e-01 
 3.10000000e-01  3.13607337e-09  3.34907857e-09  3.23081859e-09  3.27678244e-09  3.22880298e-09  3.29014109e-09  4.60004316e-01  1.61623032e-07  1.00692578e-07  3.10000000e-01 
 3.20000000e-01  3.13607343e-09  3.34907857e-09  3.23081859e-09  3.27678244e-09  3.22880293e-09  3.29014114e-09  4.60004329e-01  1.61623069e-07  1.00692645e-07  3.20000000e-01 
 3.30000000e-01  3.13607343e-09  3.34907857e-09  3.23081859e-09  3.27678238e-09  3.22880298e-09  3.29014114e-09  4.60004340e-01  1.61623076e-07  1.00692510e-07  3.30000000e-01 
 3.40000000e-01  3.13607338e-09  3.34907857e-09  3.23081859e-09  3.27678244e-09  3.22880293e-09  3.29014109e-09  4.60004337e-01  1.61623064e-07  1.00692343e-07  3.40000000e-01 
 3.50000000e-01  3.13607338e-09  3.34907857e-09  3.23081859e-09  3.27678244e-09  3.22880293e-09  3.29014115e-09  4.60004353e-01  1.61623090e-07  1.00692429e-07  3.50000000e-01 
 3.60000000e-01  3.13607338e-09  3.34907857e-09  3.23081853e-09  3.27678238e-09  3.22880298e-09  3.29014114e-09  4.60004334e-01  1.61623069e-07  1.00692194e-07  3.60000000e-01 
 3.70000000e-01  3.13607338e-09  3.34907857e-09  3.23081853e-09  3.27678238e-09  3.22880293e-09  3.29014109e-09  4.60004338e-01  1.61623083e-07  1.00692152e-07  3.70000000e-01 
 3.80000000e-01  3.13607338e-09  3.34907857e-09  3.23081859e-09  3.27678238e-09  3.22880292e-09  3.29014114e-09  4.60004323e-01  1.61623037e-07  1.00691889e-07  3.80000000e-01 
 3.90000000e-01  3.13607337e-09  3.34907857e-09  3.23081859e-09  3.27678238e-09  3.22880298e-09  3.29014109e-09  4.60004321e-01  1.61623063e-07  1.00691825e-07  3.90000000e-01 
 4.00000000e-01  3.13607338e-09  3.34907857e-09  3.23081859e-09  3.27678244e-09  3.22880292e-09  3.29014109e-09  4.60004324e-01  1.61623056e-07  1.00691736e-07  4.00000000e-01 
 4.10000000e-01  3.13607343e-09  3.34907857e-09  3.23081859e-09  3.27678244e-09  3.22880298e-09  3.29014109e-09  4.60004321e-01  1.61623047e-07  1.00691672e-07  4.10000000e-01 
 4.20000000e-01  3.13607343e-09  3.34907857e-09  3.23081859e-09  3.27678244e-09  3.22880293e-09  3.29014114e-09  4.60004332e-01  1.61623076e-07  1.00691647e-07  4.20000000e-01 
 4.30000000e-01  3.13607337e-09  3.34907857e-09  3.23081859e-09  3.27678244e-09  3.22880298e-09  3.29014114e-09  4.60004319e-01  1.61623045e-07  1.00691469e-07  4.30000000e-01 
 4.40000000e-01  3.13607343e-09  3.34907857e-09  3.23081859e-09  3.27678238e-09  3.22880298e-09  3.29014114e-09  4.60004331e-01  1.61623064e-07  1.00691384e-07  4.40000000e-01 
 4.50000000e-01  3.13607343e-09  3.34907857e-09  3.23081859e-09  3.27678238e-09  3.22880293e-09  3.29014109e-09  4.60004337e-01  1.61623074e-07  1.00691334e-07  4.50000000e-01 
 4.60000000e-01  3.13607338e-09  3.34907857e-09  3.23081859e-09  3.27678244e-09  3.22880298e-09  3.29014109e-09  4.60004331e-01  1.61623050e-07  1.00691171e-07  4.60000000e-01 
 4.70000000e-01  3.13607337e-09  3.34907857e-09  3.23081859e-09  3.27678244e-09  3.22880298e-09  3.29014114e-09  4.60004318e-01  1.61623047e-07  1.00691057e-07  4.70000000e-01 
 4.80000000e-01  3.13607338e-09  3.34907857e-09  3.23081859e-09  3.27678238e-09  3.22880293e-09  3.29014114e-09  4.60004332e-01  1.61623070e-07  1.00691004e-07  4.80000000e-01 
 4.90000000e-01  3.13607337e-09  3.34907857e-09  3.23081859e-09  3.27678238e-09  3.22880298e-09  3.29014114e-09  4.60004317e-01  1.61623040e-07  1.00690940e-07  4.90000000e-01 
 5.00000000e-01  3.13607338e-09  3.34907857e-09  3.23081859e-09  3.27678244e-09  3.22880293e-09  3.29014109e-09  4.60004330e-01  1.61623061e-07  1.00690922e-07  5.00000000e-01 
 5.10000000e-01  3.13607338e-09  3.34907857e-09  3.23081853e-09  3.27678244e-09  3.22880298e-09  3.29014109e-09  4.60004336e-01  1.61623074e-07  1.00690823e-07  5.10000000e-01 
 5.20000000e-01  3.13607338e-09  3.34907857e-09  3.23081853e-09  3.27678238e-09  3.22880298e-09  3.29014114e-09  4.60004338e-01  1.61623070e-07  1.00690798e-07  5.20000000e-01 
 5.30000000e-01  3.13607343e-09  3.34907857e-09  3.23081859e-09  3.27678244e-09  3.22880298e-09  3.29014109e-09  4.60004330e-01  1.61623059e-07  1.00690659e-07  5.30000000e-01 
 5.40000000e-01  3.13607343e-09  3.34907857e-09  3.23081859e-09  3.27678244e-09  3.22880293e-09  3.29014114e-09  4.60004330e-01  1.61623070e-07  1.00690691e-07  5.40000000e-01 
 5.50000000e-01  3.13607338e-09  3.34907857e-09  3.23081859e-09  3.27678238e-09  3.22880293e-09  3.29014109e-09  4.60004345e-01  1.61623086e-07  1.00690507e-07  5.50000000e-01 
 5.60000000e-01  3.13607338e-09  3.34907857e-09  3.23081859e-09  3.27678238e-09  3.22880293e-09  3.29014109e-09  4.60004338e-01  1.61623067e-07  1.00690453e-07  5.60000000e-01 
 5.70000000e-01  3.13607344e-09  3.34907857e-09  3.23081859e-09  3.27678244e-09  3.22880293e-09  3.29014109e-09  4.60004351e-01  1.61623098e-07  1.00690329e-07  5.70000000e-01 
 5.80000000e-01  3.13607343e-09  3.34907857e-09  3.23081859e-09  3.27678238e-09  3.22880298e-09  3.29014114e-09  4.60004331e-01  1.61623072e-07  1.00690336e-07  5.80000000e-01 
 5.90000000e-01  3.13607343e-09  3.34907863e-09  3.23081859e-09  3.27678238e-09  3.22880292e-09  3.29014114e-09  4.60004315e-01  1.61623037e-07  1.00690158e-07  5.90000000e-01 
 6.00000000e-01  3.13607343e-09  3.34907857e-09  3.23081859e-09  3.27678238e-09  3.22880298e-09  3.29014114e-09  4.60004330e-01  1.61623063e-07  1.00690151e-07  6.00000000e-01 
 6.10000000e-01  3.13607343e-09  3.34907857e-09  3.23081859e-09  3.27678238e-09  3.22880293e-09  3.29014109e-09  4.60004335e-01  1.61623059e-07  1.00690052e-07  6.10000000e-01 
 6.20000000e-01  3.13607343e-09  3.34907857e-09  3.23081859e-09  3.27678244e-09  3.22880292e-09  3.29014114e-09  4.60004321e-01  1.61623046e-07  1.00689938e-07  6.20000000e-01 
 6.30000000e-01  3.13607338e-09  3.34907857e-09  3.23081859e-09  3.27678244e-09  3.22880293e-09  3.29014114e-09  4.60004333e-01  1.61623078e-07  1.00689903e-07  6.30000000e-01 
 6.40000000e-01  3.13607338e-09  3.34907857e-09  3.23081859e-09  3.27678244e-09  3.22880293e-09  3.29014114e-09  4.60004333e-01  1.61623074e-07  1.00689959e-07  6.40000000e-01 
 6.50000000e-01  3.13607343e-09  3.34907857e-09  3.23081859e-09  3.27678244e-09  3.22880293e-09  3.29014114e-09  4.60004336e-01  1.61623075e-07  1.00689846e-07  6.50000000e-01 
 6.60000000e-01  3.13607338e-09  3.34907857e-09  3.23081859e-09  3.27678244e-09  3.22880293e-09  3.29014114e-09  4.60004333e-01  1.61623056e-07  1.00689810e-07  6.60000000e-01 
 6.70000000e-01  3.13607343e-09  3.34907857e-09  3.23081859e-09  3.27678244e-09  3.22880292e-09  3.29014109e-09  4.60004319e-01  1.61623064e-07  1.00689597e-07  6.70000000e-01 
 6.80000000e-01  3.13607338e-09  3.34907857e-09  3.23081859e-09  3.27678244e-09  3.22880293e-09  3.29014114e-09  4.60004329e-01  1.61623060e-07  1.00689519e-07  6.80000000e-01 
 6.90000000e-01  3.13607338e-09  3.34907857e-09  3.23081859e-09  3.27678244e-09  3.22880298e-09  3.29014109e-09  4.60004325e-01  1.61623059e-07  1.00689554e-07  6.90000000e-01 
 7.00000000e-01  3.13607343e-09  3.34907857e-09  3.23081859e-09  3.27678238e-09  3.22880298e-09  3.29014114e-09  4.60004311e-01  1.61623034e-07  1.00689356e-07  7.00000000e-01 
 7.10000000e-01  3.13607343e-09  3.34907857e-09  3.23081859e-09  3.27678238e-09  3.22880292e-09  3.29014109e-09  4.60004318e-01  1.61623051e-07  1.00689334e-07  7.10000000e-01 
 7.20000000e-01  3.13607337e-09  3.34907857e-09  3.23081859e-09  3.27678238e-09  3.22880292e-09  3.29014109e-09  4.60004320e-01  1.61623038e-07  1.00689228e-07  7.20000000e-01 
 7.30000000e-01  3.13607344e-09  3.34907857e-09  3.23081859e-09  3.27678244e-09  3.22880293e-09  3.29014109e-09  4.60004349e-01  1.61623091e-07  1.00689185e-07  7.30000000e-01 
 7.40000000e-01  3.13607338e-09  3.34907857e-09  3.23081853e-09  3.27678244e-09  3.22880298e-09  3.29014114e-09  4.60004344e-01  1.61623079e-07  1.00689071e-07  7.40000000e-01 
 7.50000000e-01  3.13607343e-09  3.34907857e-09  3.23081859e-09  3.27678238e-09  3.22880298e-09  3.29014114e-09  4.60004315e-01  1.61623041e-07  1.00688979e-07  7.50000000e-01 
 7.60000000e-01  3.13607338e-09  3.34907857e-09  3.23081859e-09  3.27678244e-09  3.22880293e-09  3.29014114e-09  4.60004345e-01  1.61623101e-07  1.00689043e-07  7.60000000e-01 
 7.70000000e-01  3.13607338e-09  3.34907857e-09  3.23081859e-09  3.27678244e-09  3.22880293e-09  3.29014109e-09  4.60004325e-01  1.61623061e-07  1.00688901e-07  7.70000000e-01 
 7.80000000e-01  3.13607338e-09  3.34907857e-09  3.23081859e-09  3.27678244e-09  3.22880298e-09  3.29014114e-09  4.60004322e-01  1.61623062e-07  1.00688759e-07  7.80000000e-01 
 7.90000000e-01  3.13607338e-09  3.34907857e-09  3.23081859e-09  3.27678238e-09  3.22880298e-09  3.29014114e-09  4.60004332e-01  1.61623069e-07  1.00688723e-07  7.90000000e-01 
 8.00000000e-01  3.13607338e-09  3.34907857e-09  3.23081859e-09  3.27678238e-09  3.22880298e-09  3.29014109e-09  4.60004332e-01  1.61623072e-07  1.00688602e-07  8.00000000e-01 
 8.10000000e-01  3.13607338e-09  3.34907857e-09  3.23081859e-09  3.27678238e-09  3.22880298e-09  3.29014114e-09  4.60004345e-01  1.61623085e-07  1.00688659e-07  8.10000000e-01 
 8.20000000e-01  3.13607337e-09  3.34907857e-09  3.23081859e-09  3.27678244e-09  3.22880298e-09  3.29014114e-09  4.60004318e-01  1.61623030e-07  1.00688474e-07  8.20000000e-01 
 8.30000000e-01  3.13607343e-09  3.34907857e-09  3.23081859e-09  3.27678244e-09  3.22880293e-09  3.29014109e-09  4.60004327e-01  1.61623060e-07  1.00688375e-07  8.30000000e-01 
 8.40000000e-01  3.13607338e-09  3.34907857e-09  3.23081853e-09  3.27678238e-09  3.22880298e-09  3.29014114e-09  4.60004336e-01  1.61623083e-07  1.00688283e-07  8.40000000e-01 
 8.50000000e-01  3.13607337e-09  3.34907857e-09  3.23081859e-09  3.27678244e-09  3.22880298e-09  3.29014109e-09  4.60004311e-01  1.61623027e-07  1.00688140e-07  8.50000000e-01 
 8.60000000e-01  3.13607343e-09  3.34907857e-09  3.23081853e-09  3.27678238e-09  3.22880293e-09  3.29014114e-09  4.60004342e-01  1.61623074e-07  1.00688212e-07  8.60000000e-01 
 8.70000000e-01  3.13607338e-09  3.34907857e-09  3.23081859e-09  3.27678238e-09  3.22880293e-09  3.29014109e-09  4.60004333e-01  1.61623061e-07  1.00688098e-07  8.70000000e-01 
 8.80000000e-01  3.13607338e-09  3.34907857e-09  3.23081859e-09  3.27678238e-09  3.22880293e-09  3.29014109e-09  4.60004328e-01  1.61623063e-07  1.00688020e-07  8.80000000e-01 
 8.90000000e-01  3.13607338e-09  3.34907857e-09  3.23081859e-09  3.27678244e-09  3.22880298e-09  3.29014115e-09  4.60004348e-01  1.61623079e-07  1.00688020e-07  8.90000000e-01 
 9.00000000e-01  3.13607338e-09  3.34907857e-09  3.23081859e-09  3.27678244e-09  3.22880293e-09  3.29014109e-09  4.60004351e-01  1.61623100e-07  1.00687899e-07  9.00000000e-01 
 9.10000000e-01  3.13607338e-09  3.34907857e-09  3.23081859e-09  3.27678238e-09  3.22880293e-09  3.29014115e-09  4.60004348e-01  1.61623092e-07  1.00687814e-07  9.10000000e-01 
 9.20000000e-01  3.13607338e-09  3.34907857e-09  3.23081859e-09  3.27678244e-09  3.22880298e-09  3.29014114e-09  4.60004341e-01  1.61623085e-07  1.00687693e-07  9.20000000e-01 
 9.30000000e-01  3.13607343e-09  3.34907857e-09  3.23081859e-09  3.27678238e-09  3.22880298e-09  3.29014109e-09  4.60004335e-01  1.61623071e-07  1.00687615e-07  9.30000000e-01 
 9.40000000e-01  3.13607337e-09  3.34907857e-09  3.23081859e-09  3.27678244e-09  3.22880298e-09  3.29014109e-09  4.60004320e-01  1.61623043e-07  1.00687501e-07  9.40000000e-01 
 9.50000000e-01  3.13607343e-09  3.34907857e-09  3.23081853e-09  3.27678238e-09  3.22880298e-09  3.29014114e-09  4.60004341e-01  1.61623083e-07  1.00687572e-07  9.50000000e-01 
 9.60000000e-01  3.13607344e-09  3.34907857e-09  3.23081859e-09  3.27678244e-09  3.22880298e-09  3.29014109e-09  4.60004354e-01  1.61623102e-07  1.00687501e-07  9.60000000e-01 
 9.70000000e-01  3.13607343e-09  3.34907857e-09  3.23081859e-09  3.27678244e-09  3.22880298e-09  3.29014109e-09  4.60004321e-01  1.61623047e-07  1.00687224e-07  9.70000000e-01 
 9.80000000e-01  3.13607343e-09  3.34907857e-09  3.23081859e-09  3.27678244e-09  3.22880298e-09  3.29014109e-09  4.60004310e-01  1.61623029e-07  1.00687124e-07  9.80000000e-01 
 9.90000000e-01  3.13607344e-09  3.34907857e-09  3.23081859e-09  3.27678244e-09  3.22880293e-09  3.29014109e-09  4.60004353e-01  1.61623095e-07  1.00687160e-07  9.90000000e-01 
 1.00000000e+00  3.13607343e-09  3.34907857e-09  3.23081859e-09  3.27678244e-09  3.22880292e-09  3.29014109e-09  4.60004320e-01  1.61623041e-07  1.00686997e-07  1.00000000e+00 
 1.01000000e+00  3.13607338e-09  3.34907857e-09  3.23081859e-09  3.27678238e-09  3.22880298e-09  3.29014109e-09  4.60004342e-01  1.61623089e-07  1.00687075e-07  1.01000000e+00 
 1.02000000e+00  3.13607343e-09  3.34907857e-09  3.23081859e-09  3.27678244e-09  3.22880298e-09  3.29014114e-09  4.60004331e-01  1.61623058e-07  1.00686833e-07  1.02000000e+00 
 1.03000000e+00  3.13607338e-09  3.34907857e-09  3.23081859e-09  3.27678244e-09  3.22880298e-09  3.29014109e-09  4.60004329e-01  1.61623061e-07  1.00686812e-07  1.03000000e+00 
 1.04000000e+00  3.13607338e-09  3.34907857e-09  3.23081859e-09  3.27678238e-09  3.22880299e-09  3.29014109e-09  4.60004357e-01  1.61623097e-07  1.00686798e-07  1.04000000e+00 
 1.05000000e+00  3.13607338e-09  3.34907857e-09  3.23081859e-09  3.27678238e-09  3.22880293e-09  3.29014109e-09  4.60004329e-01  1.61623045e-07  1.00686549e-07  1.05000000e+00 
 1.06000000e+00  3.13607343e-09  3.34907857e-09  3.23081859e-09  3.27678238e-09  3.22880292e-09  3.29014109e-09  4.60004325e-01  1.61623071e-07  1.00686499e-07  1.06000000e+00 
 1.07000000e+00  3.13607338e-09  3.34907857e-09  3.23081853e-09  3.27678244e-09  3.22880293e-09  3.29014115e-09  4.60004362e-01  1.61623112e-07  1.00686485e-07  1.07000000e+00 
 1.08000000e+00  3.13607343e-09  3.34907857e-09  3.23081859e-09  3.27678238e-09  3.22880293e-09  3.29014109e-09  4.60004335e-01  1.61623069e-07  1.00686300e-07  1.08000000e+00 
 1.09000000e+00  3.13607343e-09  3.34907857e-09  3.23081859e-09  3.27678238e-09  3.22880298e-09  3.29014109e-09  4.60004339e-01  1.61623075e-07  1.00686137e-07  1.09000000e+00 
 1.10000000e+00  3.13607343e-09  3.34907857e-09  3.23081853e-09  3.27678238e-09  3.22880298e-09  3.29014109e-09  4.60004343e-01  1.61623076e-07  1.00686186e-07  1.10000000e+00 
