 v-sweep         v(b0)           v(b1)           v(b2)           v(b3)           v(b4)           v(b5)           v(b6)           i(vbias)        i(viout)        v(vout)        
 0.00000000e+00  3.08922978e-09  4.59548432e-01  3.65771220e-09  3.30297948e-09  3.27784400e-09  3.21841250e-09  3.21303829e-09  1.60371682e-07  2.79124719e-09  0.00000000e+00 
 1.00000000e-02  3.08922976e-09  4.59548413e-01  3.65771224e-09  3.30297946e-09  3.27784398e-09  3.21841254e-09  3.21303833e-09  1.60371639e-07  2.79079926e-09  1.00000000e-02 
 2.00000000e-02  3.08922976e-09  4.59548415e-01  3.65771219e-09  3.30297951e-09  3.27784398e-09  3.21841254e-09  3.21303832e-09  1.60371654e-07  2.79032419e-09  2.00000000e-02 
 3.00000000e-02  3.08922976e-09  4.59548426e-01  3.65771224e-09  3.30297946e-09  3.27784392e-09  3.21841254e-09  3.21303828e-09  1.60371674e-07  2.78999623e-09  3.00000000e-02 
 4.00000000e-02  3.08922976e-09  4.59548404e-01  3.65771224e-09  3.30297946e-09  3.27784398e-09  3.21841254e-09  3.21303827e-09  1.60371630e-07  2.78965695e-09  4.00000000e-02 
 5.00000000e-02  3.08922976e-09  4.59548386e-01  3.65771224e-09  3.30297945e-09  3.27784397e-09  3.21841248e-09  3.21303827e-09  1.60371606e-07  2.78917911e-09  5.00000000e-02 
 6.00000000e-02  3.08922976e-09  4.59548424e-01  3.65771224e-09  3.30297946e-09  3.27784398e-09  3.21841254e-09  3.21303833e-09  1.60371665e-07  2.78885004e-09  6.00000000e-02 
 7.00000000e-02  3.08922976e-09  4.59548419e-01  3.65771224e-09  3.30297946e-09  3.27784392e-09  3.21841248e-09  3.21303826e-09  1.60371651e-07  2.78863865e-09  7.00000000e-02 
 8.00000000e-02  3.08922976e-09  4.59548433e-01  3.65771219e-09  3.30297946e-09  3.27784398e-09  3.21841254e-09  3.21303828e-09  1.60371677e-07  2.78833578e-09  8.00000000e-02 
 9.00000000e-02  3.08922976e-09  4.59548405e-01  3.65771219e-09  3.30297951e-09  3.27784398e-09  3.21841254e-09  3.21303833e-09  1.60371634e-07  2.78809065e-09  9.00000000e-02 
 1.00000000e-01  3.08922976e-09  4.59548409e-01  3.65771219e-09  3.30297946e-09  3.27784398e-09  3.21841248e-09  3.21303832e-09  1.60371636e-07  2.78770251e-09  1.00000000e-01 
 1.10000000e-01  3.08922976e-09  4.59548408e-01  3.65771224e-09  3.30297946e-09  3.27784398e-09  3.21841254e-09  3.21303828e-09  1.60371637e-07  2.78731704e-09  1.10000000e-01 
 1.20000000e-01  3.08922976e-09  4.59548391e-01  3.65771224e-09  3.30297945e-09  3.27784397e-09  3.21841248e-09  3.21303827e-09  1.60371613e-07  2.78716872e-09  1.20000000e-01 
 1.30000000e-01  3.08922976e-09  4.59548399e-01  3.65771219e-09  3.30297951e-09  3.27784392e-09  3.21841254e-09  3.21303833e-09  1.60371632e-07  2.78688006e-09  1.30000000e-01 
 1.40000000e-01  3.08922976e-09  4.59548414e-01  3.65771219e-09  3.30297951e-09  3.27784392e-09  3.21841248e-09  3.21303826e-09  1.60371648e-07  2.78673795e-09  1.40000000e-01 
 1.50000000e-01  3.08922976e-09  4.59548397e-01  3.65771224e-09  3.30297951e-09  3.27784398e-09  3.21841254e-09  3.21303828e-09  1.60371622e-07  2.78644130e-09  1.50000000e-01 
 1.60000000e-01  3.08922976e-09  4.59548396e-01  3.65771224e-09  3.30297945e-09  3.27784392e-09  3.21841254e-09  3.21303827e-09  1.60371621e-07  2.78616596e-09  1.60000000e-01 
 1.70000000e-01  3.08922976e-09  4.59548407e-01  3.65771219e-09  3.30297946e-09  3.27784398e-09  3.21841248e-09  3.21303827e-09  1.60371644e-07  2.78607004e-09  1.70000000e-01 
 1.80000000e-01  3.08922976e-09  4.59548404e-01  3.65771224e-09  3.30297951e-09  3.27784398e-09  3.21841254e-09  3.21303827e-09  1.60371634e-07  2.78583734e-09  1.80000000e-01 
 1.90000000e-01  3.08922976e-09  4.59548419e-01  3.65771224e-09  3.30297946e-09  3.27784398e-09  3.21841248e-09  3.21303833e-09  1.60371657e-07  2.78569701e-09  1.90000000e-01 
 2.00000000e-01  3.08922976e-09  4.59548424e-01  3.65771224e-09  3.30297946e-09  3.27784398e-09  3.21841254e-09  3.21303832e-09  1.60371662e-07  2.78539325e-09  2.00000000e-01 
 2.10000000e-01  3.08922976e-09  4.59548399e-01  3.65771219e-09  3.30297946e-09  3.27784398e-09  3.21841254e-09  3.21303828e-09  1.60371633e-07  2.78532220e-09  2.10000000e-01 
 2.20000000e-01  3.08922976e-09  4.59548416e-01  3.65771219e-09  3.30297946e-09  3.27784398e-09  3.21841248e-09  3.21303827e-09  1.60371657e-07  2.78515877e-09  2.20000000e-01 
 2.30000000e-01  3.08922976e-09  4.59548388e-01  3.65771224e-09  3.30297945e-09  3.27784397e-09  3.21841248e-09  3.21303833e-09  1.60371611e-07  2.78495271e-09  2.30000000e-01 
 2.40000000e-01  3.08922976e-09  4.59548394e-01  3.65771224e-09  3.30297951e-09  3.27784398e-09  3.21841248e-09  3.21303832e-09  1.60371635e-07  2.78488521e-09  2.40000000e-01 
 2.50000000e-01  3.08922976e-09  4.59548420e-01  3.65771224e-09  3.30297946e-09  3.27784398e-09  3.21841254e-09  3.21303834e-09  1.60371660e-07  2.78469336e-09  2.50000000e-01 
 2.60000000e-01  3.08922976e-09  4.59548418e-01  3.65771224e-09  3.30297951e-09  3.27784398e-09  3.21841248e-09  3.21303826e-09  1.60371654e-07  2.78455836e-09  2.60000000e-01 
 2.70000000e-01  3.08922976e-09  4.59548424e-01  3.65771219e-09  3.30297946e-09  3.27784398e-09  3.21841254e-09  3.21303828e-09  1.60371657e-07  2.78440204e-09  2.70000000e-01 
 2.80000000e-01  3.08922976e-09  4.59548405e-01  3.65771219e-09  3.30297946e-09  3.27784398e-09  3.21841254e-09  3.21303827e-09  1.60371633e-07  2.78429191e-09  2.80000000e-01 
 2.90000000e-01  3.08922976e-09  4.59548396e-01  3.65771224e-09  3.30297951e-09  3.27784398e-09  3.21841254e-09  3.21303827e-09  1.60371620e-07  2.78405921e-09  2.90000000e-01 
 3.00000000e-01  3.08922976e-09  4.59548391e-01  3.65771224e-09  3.30297945e-09  3.27784392e-09  3.21841254e-09  3.21303827e-09  1.60371610e-07  2.78394552e-09  3.00000000e-01 
 3.10000000e-01  3.08922976e-09  4.59548402e-01  3.65771219e-09  3.30297946e-09  3.27784392e-09  3.21841254e-09  3.21303827e-09  1.60371632e-07  2.78385315e-09  3.10000000e-01 
 3.20000000e-01  3.08922976e-09  4.59548406e-01  3.65771224e-09  3.30297946e-09  3.27784398e-09  3.21841254e-09  3.21303827e-09  1.60371630e-07  2.78367196e-09  3.20000000e-01 
 3.30000000e-01  3.08922976e-09  4.59548408e-01  3.65771219e-09  3.30297946e-09  3.27784398e-09  3.21841248e-09  3.21303827e-09  1.60371641e-07  2.78345169e-09  3.30000000e-01 
 3.40000000e-01  3.08922976e-09  4.59548423e-01  3.65771219e-09  3.30297946e-09  3.27784398e-09  3.21841248e-09  3.21303827e-09  1.60371655e-07  2.78333800e-09  3.40000000e-01 
 3.50000000e-01  3.08922976e-09  4.59548401e-01  3.65771224e-09  3.30297946e-09  3.27784398e-09  3.21841248e-09  3.21303827e-09  1.60371636e-07  2.78333090e-09  3.50000000e-01 
 3.60000000e-01  3.08922976e-09  4.59548406e-01  3.65771219e-09  3.30297951e-09  3.27784392e-09  3.21841248e-09  3.21303827e-09  1.60371648e-07  2.78332379e-09  3.60000000e-01 
 3.70000000e-01  3.08922982e-09  4.59548424e-01  3.65771224e-09  3.30297951e-09  3.27784398e-09  3.21841254e-09  3.21303833e-09  1.60371669e-07  2.78317458e-09  3.70000000e-01 
 3.80000000e-01  3.08922976e-09  4.59548411e-01  3.65771224e-09  3.30297946e-09  3.27784398e-09  3.21841254e-09  3.21303832e-09  1.60371647e-07  2.78307155e-09  3.80000000e-01 
 3.90000000e-01  3.08922976e-09  4.59548424e-01  3.65771224e-09  3.30297951e-09  3.27784398e-09  3.21841254e-09  3.21303828e-09  1.60371671e-07  2.78301115e-09  3.90000000e-01 
 4.00000000e-01  3.08922976e-09  4.59548390e-01  3.65771224e-09  3.30297945e-09  3.27784397e-09  3.21841248e-09  3.21303827e-09  1.60371603e-07  2.78283352e-09  4.00000000e-01 
 4.10000000e-01  3.08922976e-09  4.59548432e-01  3.65771224e-09  3.30297946e-09  3.27784398e-09  3.21841248e-09  3.21303833e-09  1.60371666e-07  2.78272339e-09  4.10000000e-01 
 4.20000000e-01  3.08922976e-09  4.59548421e-01  3.65771224e-09  3.30297946e-09  3.27784398e-09  3.21841248e-09  3.21303826e-09  1.60371650e-07  2.78260970e-09  4.20000000e-01 
 4.30000000e-01  3.08922976e-09  4.59548412e-01  3.65771224e-09  3.30297951e-09  3.27784398e-09  3.21841254e-09  3.21303828e-09  1.60371638e-07  2.78259904e-09  4.30000000e-01 
 4.40000000e-01  3.08922976e-09  4.59548394e-01  3.65771224e-09  3.30297945e-09  3.27784392e-09  3.21841248e-09  3.21303827e-09  1.60371624e-07  2.78247470e-09  4.40000000e-01 
 4.50000000e-01  3.08922976e-09  4.59548398e-01  3.65771224e-09  3.30297951e-09  3.27784398e-09  3.21841248e-09  3.21303827e-09  1.60371624e-07  2.78234324e-09  4.50000000e-01 
 4.60000000e-01  3.08922976e-09  4.59548408e-01  3.65771219e-09  3.30297946e-09  3.27784398e-09  3.21841248e-09  3.21303833e-09  1.60371635e-07  2.78226153e-09  4.60000000e-01 
 4.70000000e-01  3.08922976e-09  4.59548421e-01  3.65771219e-09  3.30297946e-09  3.27784398e-09  3.21841248e-09  3.21303832e-09  1.60371668e-07  2.78210521e-09  4.70000000e-01 
 4.80000000e-01  3.08922976e-09  4.59548400e-01  3.65771219e-09  3.30297946e-09  3.27784392e-09  3.21841254e-09  3.21303834e-09  1.60371628e-07  2.78201640e-09  4.80000000e-01 
 4.90000000e-01  3.08922976e-09  4.59548400e-01  3.65771219e-09  3.30297951e-09  3.27784398e-09  3.21841248e-09  3.21303826e-09  1.60371614e-07  2.78204837e-09  4.90000000e-01 
 5.00000000e-01  3.08922976e-09  4.59548419e-01  3.65771219e-09  3.30297946e-09  3.27784398e-09  3.21841248e-09  3.21303834e-09  1.60371664e-07  2.78194179e-09  5.00000000e-01 
 5.10000000e-01  3.08922976e-09  4.59548391e-01  3.65771224e-09  3.30297945e-09  3.27784392e-09  3.21841254e-09  3.21303826e-09  1.60371614e-07  2.78177481e-09  5.10000000e-01 
 5.20000000e-01  3.08922976e-09  4.59548409e-01  3.65771219e-09  3.30297946e-09  3.27784398e-09  3.21841248e-09  3.21303828e-09  1.60371645e-07  2.78173573e-09  5.20000000e-01 
 5.30000000e-01  3.08922976e-09  4.59548416e-01  3.65771224e-09  3.30297946e-09  3.27784392e-09  3.21841248e-09  3.21303833e-09  1.60371645e-07  2.78166468e-09  5.30000000e-01 
 5.40000000e-01  3.08922976e-09  4.59548393e-01  3.65771224e-09  3.30297945e-09  3.27784392e-09  3.21841254e-09  3.21303826e-09  1.60371630e-07  2.78153678e-09  5.40000000e-01 
 5.50000000e-01  3.08922976e-09  4.59548422e-01  3.65771224e-09  3.30297946e-09  3.27784398e-09  3.21841248e-09  3.21303828e-09  1.60371659e-07  2.78150836e-09  5.50000000e-01 
 5.60000000e-01  3.08922976e-09  4.59548389e-01  3.65771224e-09  3.30297945e-09  3.27784397e-09  3.21841248e-09  3.21303827e-09  1.60371613e-07  2.78139467e-09  5.60000000e-01 
 5.70000000e-01  3.08922976e-09  4.59548416e-01  3.65771224e-09  3.30297946e-09  3.27784392e-09  3.21841248e-09  3.21303827e-09  1.60371651e-07  2.78133783e-09  5.70000000e-01 
 5.80000000e-01  3.08922976e-09  4.59548403e-01  3.65771224e-09  3.30297946e-09  3.27784398e-09  3.21841248e-09  3.21303833e-09  1.60371634e-07  2.78124901e-09  5.80000000e-01 
 5.90000000e-01  3.08922976e-09  4.59548407e-01  3.65771224e-09  3.30297951e-09  3.27784398e-09  3.21841248e-09  3.21303826e-09  1.60371642e-07  2.78110690e-09  5.90000000e-01 
 6.00000000e-01  3.08922976e-09  4.59548429e-01  3.65771224e-09  3.30297946e-09  3.27784398e-09  3.21841254e-09  3.21303828e-09  1.60371673e-07  2.78101453e-09  6.00000000e-01 
 6.10000000e-01  3.08922976e-09  4.59548413e-01  3.65771224e-09  3.30297951e-09  3.27784398e-09  3.21841248e-09  3.21303833e-09  1.60371647e-07  2.78088663e-09  6.10000000e-01 
 6.20000000e-01  3.08922976e-09  4.59548399e-01  3.65771224e-09  3.30297951e-09  3.27784392e-09  3.21841248e-09  3.21303826e-09  1.60371630e-07  2.78083689e-09  6.20000000e-01 
 6.30000000e-01  3.08922976e-09  4.59548391e-01  3.65771224e-09  3.30297951e-09  3.27784397e-09  3.21841254e-09  3.21303828e-09  1.60371620e-07  2.78076584e-09  6.30000000e-01 
 6.40000000e-01  3.08922976e-09  4.59548415e-01  3.65771224e-09  3.30297946e-09  3.27784392e-09  3.21841248e-09  3.21303827e-09  1.60371656e-07  2.78072321e-09  6.40000000e-01 
 6.50000000e-01  3.08922976e-09  4.59548423e-01  3.65771219e-09  3.30297951e-09  3.27784398e-09  3.21841254e-09  3.21303827e-09  1.60371651e-07  2.78055268e-09  6.50000000e-01 
 6.60000000e-01  3.08922976e-09  4.59548399e-01  3.65771224e-09  3.30297946e-09  3.27784398e-09  3.21841248e-09  3.21303827e-09  1.60371635e-07  2.78051715e-09  6.60000000e-01 
 6.70000000e-01  3.08922976e-09  4.59548398e-01  3.65771224e-09  3.30297946e-09  3.27784392e-09  3.21841254e-09  3.21303827e-09  1.60371626e-07  2.78046031e-09  6.70000000e-01 
 6.80000000e-01  3.08922976e-09  4.59548391e-01  3.65771224e-09  3.30297951e-09  3.27784392e-09  3.21841248e-09  3.21303833e-09  1.60371618e-07  2.78043899e-09  6.80000000e-01 
 6.90000000e-01  3.08922976e-09  4.59548420e-01  3.65771224e-09  3.30297951e-09  3.27784392e-09  3.21841254e-09  3.21303832e-09  1.60371667e-07  2.78025425e-09  6.90000000e-01 
 7.00000000e-01  3.08922976e-09  4.59548392e-01  3.65771224e-09  3.30297945e-09  3.27784392e-09  3.21841248e-09  3.21303834e-09  1.60371624e-07  2.78025425e-09  7.00000000e-01 
 7.10000000e-01  3.08922976e-09  4.59548422e-01  3.65771224e-09  3.30297946e-09  3.27784392e-09  3.21841248e-09  3.21303826e-09  1.60371657e-07  2.78016188e-09  7.10000000e-01 
 7.20000000e-01  3.08922976e-09  4.59548416e-01  3.65771224e-09  3.30297951e-09  3.27784392e-09  3.21841248e-09  3.21303828e-09  1.60371648e-07  2.78002688e-09  7.20000000e-01 
 7.30000000e-01  3.08922976e-09  4.59548417e-01  3.65771224e-09  3.30297946e-09  3.27784392e-09  3.21841248e-09  3.21303833e-09  1.60371646e-07  2.78006951e-09  7.30000000e-01 
 7.40000000e-01  3.08922982e-09  4.59548411e-01  3.65771224e-09  3.30297946e-09  3.27784392e-09  3.21841254e-09  3.21303832e-09  1.60371644e-07  2.77993450e-09  7.40000000e-01 
 7.50000000e-01  3.08922976e-09  4.59548426e-01  3.65771224e-09  3.30297946e-09  3.27784398e-09  3.21841248e-09  3.21303834e-09  1.60371661e-07  2.77975687e-09  7.50000000e-01 
 7.60000000e-01  3.08922976e-09  4.59548403e-01  3.65771224e-09  3.30297946e-09  3.27784392e-09  3.21841254e-09  3.21303826e-09  1.60371627e-07  2.77972845e-09  7.60000000e-01 
 7.70000000e-01  3.08922976e-09  4.59548408e-01  3.65771224e-09  3.30297946e-09  3.27784392e-09  3.21841248e-09  3.21303834e-09  1.60371639e-07  2.77957213e-09  7.70000000e-01 
 7.80000000e-01  3.08922976e-09  4.59548408e-01  3.65771224e-09  3.30297946e-09  3.27784398e-09  3.21841254e-09  3.21303826e-09  1.60371638e-07  2.77951528e-09  7.80000000e-01 
 7.90000000e-01  3.08922976e-09  4.59548390e-01  3.65771224e-09  3.30297945e-09  3.27784392e-09  3.21841248e-09  3.21303828e-09  1.60371611e-07  2.77945134e-09  7.90000000e-01 
 8.00000000e-01  3.08922976e-09  4.59548415e-01  3.65771219e-09  3.30297951e-09  3.27784398e-09  3.21841248e-09  3.21303827e-09  1.60371651e-07  2.77940160e-09  8.00000000e-01 
 8.10000000e-01  3.08922976e-09  4.59548429e-01  3.65771224e-09  3.30297946e-09  3.27784392e-09  3.21841248e-09  3.21303827e-09  1.60371673e-07  2.77924528e-09  8.10000000e-01 
 8.20000000e-01  3.08922976e-09  4.59548397e-01  3.65771224e-09  3.30297946e-09  3.27784398e-09  3.21841248e-09  3.21303833e-09  1.60371627e-07  2.77920975e-09  8.20000000e-01 
 8.30000000e-01  3.08922976e-09  4.59548432e-01  3.65771224e-09  3.30297946e-09  3.27784392e-09  3.21841254e-09  3.21303832e-09  1.60371669e-07  2.77903212e-09  8.30000000e-01 
 8.40000000e-01  3.08922976e-09  4.59548426e-01  3.65771224e-09  3.30297951e-09  3.27784392e-09  3.21841248e-09  3.21303828e-09  1.60371661e-07  2.77908185e-09  8.40000000e-01 
 8.50000000e-01  3.08922976e-09  4.59548422e-01  3.65771224e-09  3.30297946e-09  3.27784398e-09  3.21841248e-09  3.21303827e-09  1.60371660e-07  2.77893264e-09  8.50000000e-01 
 8.60000000e-01  3.08922976e-09  4.59548426e-01  3.65771219e-09  3.30297946e-09  3.27784392e-09  3.21841248e-09  3.21303833e-09  1.60371667e-07  2.77883316e-09  8.60000000e-01 
 8.70000000e-01  3.08922976e-09  4.59548390e-01  3.65771219e-09  3.30297945e-09  3.27784392e-09  3.21841254e-09  3.21303826e-09  1.60371609e-07  2.77877632e-09  8.70000000e-01 
 8.80000000e-01  3.08922976e-09  4.59548416e-01  3.65771224e-09  3.30297946e-09  3.27784392e-09  3.21841248e-09  3.21303828e-09  1.60371648e-07  2.77866263e-09  8.80000000e-01 
 8.90000000e-01  3.08922976e-09  4.59548418e-01  3.65771224e-09  3.30297946e-09  3.27784398e-09  3.21841248e-09  3.21303827e-09  1.60371650e-07  2.77862000e-09  8.90000000e-01 
 9.00000000e-01  3.08922976e-09  4.59548415e-01  3.65771224e-09  3.30297946e-09  3.27784392e-09  3.21841248e-09  3.21303827e-09  1.60371655e-07  2.77854184e-09  9.00000000e-01 
 9.10000000e-01  3.08922976e-09  4.59548401e-01  3.65771219e-09  3.30297951e-09  3.27784398e-09  3.21841248e-09  3.21303827e-09  1.60371616e-07  2.77850631e-09  9.10000000e-01 
 9.20000000e-01  3.08922976e-09  4.59548418e-01  3.65771224e-09  3.30297946e-09  3.27784398e-09  3.21841254e-09  3.21303827e-09  1.60371677e-07  2.77839973e-09  9.20000000e-01 
 9.30000000e-01  3.08922976e-09  4.59548397e-01  3.65771219e-09  3.30297946e-09  3.27784392e-09  3.21841248e-09  3.21303827e-09  1.60371615e-07  2.77822210e-09  9.30000000e-01 
 9.40000000e-01  3.08922976e-09  4.59548395e-01  3.65771219e-09  3.30297945e-09  3.27784398e-09  3.21841254e-09  3.21303833e-09  1.60371626e-07  2.77826473e-09  9.40000000e-01 
 9.50000000e-01  3.08922976e-09  4.59548409e-01  3.65771224e-09  3.30297946e-09  3.27784392e-09  3.21841254e-09  3.21303832e-09  1.60371648e-07  2.77795920e-09  9.50000000e-01 
 9.60000000e-01  3.08922976e-09  4.59548421e-01  3.65771224e-09  3.30297946e-09  3.27784392e-09  3.21841248e-09  3.21303828e-09  1.60371658e-07  2.77794499e-09  9.60000000e-01 
 9.70000000e-01  3.08922976e-09  4.59548405e-01  3.65771224e-09  3.30297946e-09  3.27784398e-09  3.21841248e-09  3.21303827e-09  1.60371633e-07  2.77785261e-09  9.70000000e-01 
 9.80000000e-01  3.08922976e-09  4.59548398e-01  3.65771224e-09  3.30297951e-09  3.27784392e-09  3.21841254e-09  3.21303833e-09  1.60371630e-07  2.77783130e-09  9.80000000e-01 
 9.90000000e-01  3.08922976e-09  4.59548413e-01  3.65771224e-09  3.30297946e-09  3.27784398e-09  3.21841248e-09  3.21303832e-09  1.60371649e-07  2.77780998e-09  9.90000000e-01 
 1.00000000e+00  3.08922976e-09  4.59548397e-01  3.65771224e-09  3.30297946e-09  3.27784398e-09  3.21841248e-09  3.21303828e-09  1.60371623e-07  2.77752576e-09  1.00000000e+00 
 1.01000000e+00  3.08922976e-09  4.59548395e-01  3.65771224e-09  3.30297951e-09  3.27784398e-09  3.21841254e-09  3.21303827e-09  1.60371626e-07  2.77755419e-09  1.01000000e+00 
 1.02000000e+00  3.08922976e-09  4.59548413e-01  3.65771224e-09  3.30297946e-09  3.27784392e-09  3.21841248e-09  3.21303827e-09  1.60371653e-07  2.77736234e-09  1.02000000e+00 
 1.03000000e+00  3.08922976e-09  4.59548398e-01  3.65771224e-09  3.30297951e-09  3.27784392e-09  3.21841254e-09  3.21303827e-09  1.60371615e-07  2.77732681e-09  1.03000000e+00 
 1.04000000e+00  3.08922976e-09  4.59548433e-01  3.65771219e-09  3.30297946e-09  3.27784398e-09  3.21841248e-09  3.21303833e-09  1.60371678e-07  2.77717049e-09  1.04000000e+00 
 1.05000000e+00  3.08922976e-09  4.59548404e-01  3.65771224e-09  3.30297946e-09  3.27784398e-09  3.21841254e-09  3.21303832e-09  1.60371626e-07  2.77714207e-09  1.05000000e+00 
 1.06000000e+00  3.08922976e-09  4.59548393e-01  3.65771224e-09  3.30297951e-09  3.27784398e-09  3.21841248e-09  3.21303828e-09  1.60371620e-07  2.77717049e-09  1.06000000e+00 
 1.07000000e+00  3.08922976e-09  4.59548427e-01  3.65771224e-09  3.30297946e-09  3.27784398e-09  3.21841248e-09  3.21303827e-09  1.60371674e-07  2.77699996e-09  1.07000000e+00 
 1.08000000e+00  3.08922976e-09  4.59548412e-01  3.65771219e-09  3.30297951e-09  3.27784392e-09  3.21841254e-09  3.21303833e-09  1.60371644e-07  2.77681522e-09  1.08000000e+00 
 1.09000000e+00  3.08922976e-09  4.59548402e-01  3.65771224e-09  3.30297951e-09  3.27784392e-09  3.21841248e-09  3.21303832e-09  1.60371634e-07  2.77678680e-09  1.09000000e+00 
 1.10000000e+00  3.08922976e-09  4.59548405e-01  3.65771224e-09  3.30297946e-09  3.27784398e-09  3.21841248e-09  3.21303828e-09  1.60371651e-07  2.77668732e-09  1.10000000e+00 
