 v-sweep         v(b0)           v(b1)           v(b2)           v(b3)           v(b4)           v(b5)           v(b6)           i(vbias)        i(viout)        v(vout)        
 0.00000000e+00  3.41187122e-09  4.58576405e-01  3.34472961e-09  3.61273829e-09  4.58576405e-01  3.45673937e-09  3.23052781e-09  1.61272623e-07  2.72975097e-08  0.00000000e+00 
 1.00000000e-02  3.41187114e-09  4.58576383e-01  3.34472953e-09  3.61273833e-09  4.58576382e-01  3.45673941e-09  3.23052779e-09  1.61272559e-07  2.72971329e-08  1.00000000e-02 
 2.00000000e-02  3.41187115e-09  4.58576377e-01  3.34472958e-09  3.61273827e-09  4.58576377e-01  3.45673935e-09  3.23052779e-09  1.61272570e-07  2.72967347e-08  2.00000000e-02 
 3.00000000e-02  3.41187120e-09  4.58576408e-01  3.34472953e-09  3.61273827e-09  4.58576408e-01  3.45673935e-09  3.23052779e-09  1.61272610e-07  2.72964416e-08  3.00000000e-02 
 4.00000000e-02  3.41187113e-09  4.58576394e-01  3.34472959e-09  3.61273827e-09  4.58576394e-01  3.45673941e-09  3.23052779e-09  1.61272603e-07  2.72961502e-08  4.00000000e-02 
 5.00000000e-02  3.41187115e-09  4.58576388e-01  3.34472959e-09  3.61273827e-09  4.58576388e-01  3.45673941e-09  3.23052779e-09  1.61272598e-07  2.72958256e-08  5.00000000e-02 
 6.00000000e-02  3.41187115e-09  4.58576404e-01  3.34472953e-09  3.61273833e-09  4.58576404e-01  3.45673935e-09  3.23052779e-09  1.61272612e-07  2.72954552e-08  6.00000000e-02 
 7.00000000e-02  3.41187115e-09  4.58576395e-01  3.34472959e-09  3.61273827e-09  4.58576395e-01  3.45673941e-09  3.23052779e-09  1.61272613e-07  2.72951262e-08  7.00000000e-02 
 8.00000000e-02  3.41187114e-09  4.58576387e-01  3.34472959e-09  3.61273833e-09  4.58576387e-01  3.45673935e-09  3.23052779e-09  1.61272588e-07  2.72949050e-08  8.00000000e-02 
 9.00000000e-02  3.41187115e-09  4.58576404e-01  3.34472953e-09  3.61273833e-09  4.58576404e-01  3.45673935e-09  3.23052779e-09  1.61272609e-07  2.72946430e-08  9.00000000e-02 
 1.00000000e-01  3.41187115e-09  4.58576409e-01  3.34472959e-09  3.61273833e-09  4.58576409e-01  3.45673941e-09  3.23052779e-09  1.61272616e-07  2.72944298e-08  1.00000000e-01 
 1.10000000e-01  3.41187120e-09  4.58576398e-01  3.34472953e-09  3.61273827e-09  4.58576398e-01  3.45673935e-09  3.23052779e-09  1.61272601e-07  2.72941012e-08  1.10000000e-01 
 1.20000000e-01  3.41187119e-09  4.58576386e-01  3.34472959e-09  3.61273827e-09  4.58576386e-01  3.45673941e-09  3.23052779e-09  1.61272576e-07  2.72938792e-08  1.20000000e-01 
 1.30000000e-01  3.41187121e-09  4.58576382e-01  3.34472953e-09  3.61273833e-09  4.58576382e-01  3.45673935e-09  3.23052779e-09  1.61272576e-07  2.72936314e-08  1.30000000e-01 
 1.40000000e-01  3.41187119e-09  4.58576374e-01  3.34472958e-09  3.61273827e-09  4.58576374e-01  3.45673935e-09  3.23052779e-09  1.61272562e-07  2.72934830e-08  1.40000000e-01 
 1.50000000e-01  3.41187121e-09  4.58576370e-01  3.34472958e-09  3.61273827e-09  4.58576370e-01  3.45673940e-09  3.23052779e-09  1.61272563e-07  2.72932823e-08  1.50000000e-01 
 1.60000000e-01  3.41187119e-09  4.58576387e-01  3.34472959e-09  3.61273833e-09  4.58576387e-01  3.45673935e-09  3.23052779e-09  1.61272585e-07  2.72931757e-08  1.60000000e-01 
 1.70000000e-01  3.41187115e-09  4.58576392e-01  3.34472959e-09  3.61273827e-09  4.58576391e-01  3.45673941e-09  3.23052779e-09  1.61272593e-07  2.72929199e-08  1.70000000e-01 
 1.80000000e-01  3.41187120e-09  4.58576380e-01  3.34472958e-09  3.61273833e-09  4.58576380e-01  3.45673940e-09  3.23052779e-09  1.61272576e-07  2.72926357e-08  1.80000000e-01 
 1.90000000e-01  3.41187113e-09  4.58576388e-01  3.34472959e-09  3.61273827e-09  4.58576388e-01  3.45673941e-09  3.23052779e-09  1.61272574e-07  2.72924172e-08  1.90000000e-01 
 2.00000000e-01  3.41187121e-09  4.58576376e-01  3.34472958e-09  3.61273833e-09  4.58576376e-01  3.45673935e-09  3.23052779e-09  1.61272568e-07  2.72922964e-08  2.00000000e-01 
 2.10000000e-01  3.41187119e-09  4.58576391e-01  3.34472959e-09  3.61273833e-09  4.58576391e-01  3.45673935e-09  3.23052779e-09  1.61272583e-07  2.72921277e-08  2.10000000e-01 
 2.20000000e-01  3.41187115e-09  4.58576388e-01  3.34472959e-09  3.61273833e-09  4.58576388e-01  3.45673941e-09  3.23052779e-09  1.61272594e-07  2.72920690e-08  2.20000000e-01 
 2.30000000e-01  3.41187115e-09  4.58576416e-01  3.34472959e-09  3.61273833e-09  4.58576416e-01  3.45673935e-09  3.23052779e-09  1.61272638e-07  2.72919447e-08  2.30000000e-01 
 2.40000000e-01  3.41187120e-09  4.58576407e-01  3.34472953e-09  3.61273833e-09  4.58576406e-01  3.45673935e-09  3.23052779e-09  1.61272606e-07  2.72919287e-08  2.40000000e-01 
 2.50000000e-01  3.41187113e-09  4.58576382e-01  3.34472959e-09  3.61273833e-09  4.58576382e-01  3.45673935e-09  3.23052779e-09  1.61272585e-07  2.72916285e-08  2.50000000e-01 
 2.60000000e-01  3.41187115e-09  4.58576404e-01  3.34472959e-09  3.61273827e-09  4.58576404e-01  3.45673935e-09  3.23052779e-09  1.61272611e-07  2.72916125e-08  2.60000000e-01 
 2.70000000e-01  3.41187114e-09  4.58576386e-01  3.34472953e-09  3.61273827e-09  4.58576386e-01  3.45673935e-09  3.23052779e-09  1.61272589e-07  2.72914171e-08  2.70000000e-01 
 2.80000000e-01  3.41187120e-09  4.58576379e-01  3.34472953e-09  3.61273827e-09  4.58576379e-01  3.45673935e-09  3.23052779e-09  1.61272567e-07  2.72913994e-08  2.80000000e-01 
 2.90000000e-01  3.41187119e-09  4.58576391e-01  3.34472959e-09  3.61273827e-09  4.58576391e-01  3.45673935e-09  3.23052779e-09  1.61272597e-07  2.72912359e-08  2.90000000e-01 
 3.00000000e-01  3.41187121e-09  4.58576378e-01  3.34472958e-09  3.61273833e-09  4.58576378e-01  3.45673935e-09  3.23052779e-09  1.61272574e-07  2.72910263e-08  3.00000000e-01 
 3.10000000e-01  3.41187119e-09  4.58576393e-01  3.34472953e-09  3.61273827e-09  4.58576393e-01  3.45673941e-09  3.23052779e-09  1.61272595e-07  2.72909482e-08  3.10000000e-01 
 3.20000000e-01  3.41187115e-09  4.58576387e-01  3.34472959e-09  3.61273833e-09  4.58576387e-01  3.45673941e-09  3.23052779e-09  1.61272591e-07  2.72909340e-08  3.20000000e-01 
 3.30000000e-01  3.41187115e-09  4.58576411e-01  3.34472959e-09  3.61273833e-09  4.58576411e-01  3.45673941e-09  3.23052779e-09  1.61272629e-07  2.72908913e-08  3.30000000e-01 
 3.40000000e-01  3.41187115e-09  4.58576399e-01  3.34472959e-09  3.61273827e-09  4.58576399e-01  3.45673941e-09  3.23052779e-09  1.61272593e-07  2.72907599e-08  3.40000000e-01 
 3.50000000e-01  3.41187115e-09  4.58576413e-01  3.34472959e-09  3.61273833e-09  4.58576412e-01  3.45673935e-09  3.23052779e-09  1.61272634e-07  2.72906178e-08  3.50000000e-01 
 3.60000000e-01  3.41187120e-09  4.58576417e-01  3.34472953e-09  3.61273833e-09  4.58576417e-01  3.45673935e-09  3.23052779e-09  1.61272626e-07  2.72907528e-08  3.60000000e-01 
 3.70000000e-01  3.41187119e-09  4.58576410e-01  3.34472953e-09  3.61273827e-09  4.58576410e-01  3.45673935e-09  3.23052779e-09  1.61272611e-07  2.72905574e-08  3.70000000e-01 
 3.80000000e-01  3.41187115e-09  4.58576392e-01  3.34472959e-09  3.61273827e-09  4.58576392e-01  3.45673935e-09  3.23052779e-09  1.61272581e-07  2.72905929e-08  3.80000000e-01 
 3.90000000e-01  3.41187120e-09  4.58576379e-01  3.34472958e-09  3.61273827e-09  4.58576379e-01  3.45673935e-09  3.23052779e-09  1.61272585e-07  2.72903300e-08  3.90000000e-01 
 4.00000000e-01  3.41187119e-09  4.58576387e-01  3.34472959e-09  3.61273833e-09  4.58576387e-01  3.45673941e-09  3.23052779e-09  1.61272587e-07  2.72903300e-08  4.00000000e-01 
 4.10000000e-01  3.41187121e-09  4.58576392e-01  3.34472959e-09  3.61273833e-09  4.58576392e-01  3.45673935e-09  3.23052779e-09  1.61272593e-07  2.72903122e-08  4.10000000e-01 
 4.20000000e-01  3.41187119e-09  4.58576392e-01  3.34472959e-09  3.61273833e-09  4.58576391e-01  3.45673941e-09  3.23052779e-09  1.61272603e-07  2.72901239e-08  4.20000000e-01 
 4.30000000e-01  3.41187115e-09  4.58576394e-01  3.34472959e-09  3.61273827e-09  4.58576394e-01  3.45673941e-09  3.23052779e-09  1.61272597e-07  2.72901666e-08  4.30000000e-01 
 4.40000000e-01  3.41187114e-09  4.58576378e-01  3.34472953e-09  3.61273827e-09  4.58576378e-01  3.45673935e-09  3.23052779e-09  1.61272567e-07  2.72899641e-08  4.40000000e-01 
 4.50000000e-01  3.41187120e-09  4.58576369e-01  3.34472958e-09  3.61273827e-09  4.58576369e-01  3.45673940e-09  3.23052779e-09  1.61272557e-07  2.72900031e-08  4.50000000e-01 
 4.60000000e-01  3.41187113e-09  4.58576388e-01  3.34472953e-09  3.61273833e-09  4.58576388e-01  3.45673935e-09  3.23052779e-09  1.61272586e-07  2.72898824e-08  4.60000000e-01 
 4.70000000e-01  3.41187121e-09  4.58576399e-01  3.34472959e-09  3.61273827e-09  4.58576399e-01  3.45673941e-09  3.23052779e-09  1.61272593e-07  2.72898752e-08  4.70000000e-01 
 4.80000000e-01  3.41187113e-09  4.58576406e-01  3.34472953e-09  3.61273833e-09  4.58576406e-01  3.45673935e-09  3.23052779e-09  1.61272612e-07  2.72896514e-08  4.80000000e-01 
 4.90000000e-01  3.41187121e-09  4.58576380e-01  3.34472958e-09  3.61273827e-09  4.58576380e-01  3.45673940e-09  3.23052779e-09  1.61272566e-07  2.72896798e-08  4.90000000e-01 
 5.00000000e-01  3.41187113e-09  4.58576393e-01  3.34472959e-09  3.61273833e-09  4.58576393e-01  3.45673935e-09  3.23052779e-09  1.61272596e-07  2.72896621e-08  5.00000000e-01 
 5.10000000e-01  3.41187121e-09  4.58576369e-01  3.34472958e-09  3.61273827e-09  4.58576369e-01  3.45673935e-09  3.23052779e-09  1.61272550e-07  2.72896266e-08  5.10000000e-01 
 5.20000000e-01  3.41187119e-09  4.58576389e-01  3.34472959e-09  3.61273827e-09  4.58576389e-01  3.45673941e-09  3.23052779e-09  1.61272585e-07  2.72895555e-08  5.20000000e-01 
 5.30000000e-01  3.41187115e-09  4.58576400e-01  3.34472953e-09  3.61273827e-09  4.58576400e-01  3.45673935e-09  3.23052779e-09  1.61272599e-07  2.72895164e-08  5.30000000e-01 
 5.40000000e-01  3.41187120e-09  4.58576389e-01  3.34472959e-09  3.61273827e-09  4.58576389e-01  3.45673941e-09  3.23052779e-09  1.61272589e-07  2.72894205e-08  5.40000000e-01 
 5.50000000e-01  3.41187113e-09  4.58576376e-01  3.34472958e-09  3.61273827e-09  4.58576376e-01  3.45673935e-09  3.23052779e-09  1.61272568e-07  2.72894098e-08  5.50000000e-01 
 5.60000000e-01  3.41187115e-09  4.58576384e-01  3.34472959e-09  3.61273833e-09  4.58576384e-01  3.45673941e-09  3.23052779e-09  1.61272579e-07  2.72893104e-08  5.60000000e-01 
 5.70000000e-01  3.41187120e-09  4.58576404e-01  3.34472953e-09  3.61273827e-09  4.58576404e-01  3.45673941e-09  3.23052779e-09  1.61272607e-07  2.72893033e-08  5.70000000e-01 
 5.80000000e-01  3.41187119e-09  4.58576386e-01  3.34472959e-09  3.61273827e-09  4.58576385e-01  3.45673941e-09  3.23052779e-09  1.61272588e-07  2.72892606e-08  5.80000000e-01 
 5.90000000e-01  3.41187115e-09  4.58576401e-01  3.34472959e-09  3.61273827e-09  4.58576401e-01  3.45673935e-09  3.23052779e-09  1.61272629e-07  2.72890972e-08  5.90000000e-01 
 6.00000000e-01  3.41187115e-09  4.58576420e-01  3.34472953e-09  3.61273833e-09  4.58576420e-01  3.45673941e-09  3.23052779e-09  1.61272631e-07  2.72891469e-08  6.00000000e-01 
 6.10000000e-01  3.41187115e-09  4.58576410e-01  3.34472953e-09  3.61273833e-09  4.58576410e-01  3.45673941e-09  3.23052779e-09  1.61272606e-07  2.72891185e-08  6.10000000e-01 
 6.20000000e-01  3.41187115e-09  4.58576395e-01  3.34472959e-09  3.61273827e-09  4.58576395e-01  3.45673935e-09  3.23052779e-09  1.61272591e-07  2.72889338e-08  6.20000000e-01 
 6.30000000e-01  3.41187115e-09  4.58576398e-01  3.34472959e-09  3.61273827e-09  4.58576398e-01  3.45673941e-09  3.23052779e-09  1.61272597e-07  2.72890830e-08  6.30000000e-01 
 6.40000000e-01  3.41187120e-09  4.58576403e-01  3.34472959e-09  3.61273833e-09  4.58576403e-01  3.45673941e-09  3.23052779e-09  1.61272610e-07  2.72888627e-08  6.40000000e-01 
 6.50000000e-01  3.41187113e-09  4.58576386e-01  3.34472953e-09  3.61273833e-09  4.58576386e-01  3.45673935e-09  3.23052779e-09  1.61272594e-07  2.72888556e-08  6.50000000e-01 
 6.60000000e-01  3.41187115e-09  4.58576387e-01  3.34472953e-09  3.61273827e-09  4.58576387e-01  3.45673935e-09  3.23052779e-09  1.61272594e-07  2.72887775e-08  6.60000000e-01 
 6.70000000e-01  3.41187120e-09  4.58576398e-01  3.34472959e-09  3.61273827e-09  4.58576398e-01  3.45673935e-09  3.23052779e-09  1.61272589e-07  2.72887277e-08  6.70000000e-01 
 6.80000000e-01  3.41187113e-09  4.58576399e-01  3.34472959e-09  3.61273833e-09  4.58576399e-01  3.45673935e-09  3.23052779e-09  1.61272596e-07  2.72886282e-08  6.80000000e-01 
 6.90000000e-01  3.41187115e-09  4.58576388e-01  3.34472959e-09  3.61273833e-09  4.58576388e-01  3.45673935e-09  3.23052779e-09  1.61272590e-07  2.72886354e-08  6.90000000e-01 
 7.00000000e-01  3.41187120e-09  4.58576402e-01  3.34472959e-09  3.61273827e-09  4.58576402e-01  3.45673935e-09  3.23052779e-09  1.61272604e-07  2.72885146e-08  7.00000000e-01 
 7.10000000e-01  3.41187119e-09  4.58576386e-01  3.34472959e-09  3.61273833e-09  4.58576386e-01  3.45673941e-09  3.23052779e-09  1.61272585e-07  2.72884932e-08  7.10000000e-01 
 7.20000000e-01  3.41187121e-09  4.58576391e-01  3.34472959e-09  3.61273833e-09  4.58576391e-01  3.45673941e-09  3.23052779e-09  1.61272591e-07  2.72883867e-08  7.20000000e-01 
 7.30000000e-01  3.41187113e-09  4.58576393e-01  3.34472959e-09  3.61273833e-09  4.58576393e-01  3.45673935e-09  3.23052779e-09  1.61272597e-07  2.72884719e-08  7.30000000e-01 
 7.40000000e-01  3.41187121e-09  4.58576390e-01  3.34472953e-09  3.61273833e-09  4.58576390e-01  3.45673935e-09  3.23052779e-09  1.61272584e-07  2.72883725e-08  7.40000000e-01 
 7.50000000e-01  3.41187119e-09  4.58576393e-01  3.34472959e-09  3.61273827e-09  4.58576393e-01  3.45673935e-09  3.23052779e-09  1.61272597e-07  2.72884080e-08  7.50000000e-01 
 7.60000000e-01  3.41187115e-09  4.58576388e-01  3.34472953e-09  3.61273833e-09  4.58576388e-01  3.45673941e-09  3.23052779e-09  1.61272596e-07  2.72883014e-08  7.60000000e-01 
 7.70000000e-01  3.41187114e-09  4.58576384e-01  3.34472959e-09  3.61273827e-09  4.58576384e-01  3.45673935e-09  3.23052779e-09  1.61272588e-07  2.72881735e-08  7.70000000e-01 
 7.80000000e-01  3.41187120e-09  4.58576391e-01  3.34472959e-09  3.61273827e-09  4.58576391e-01  3.45673935e-09  3.23052779e-09  1.61272598e-07  2.72881664e-08  7.80000000e-01 
 7.90000000e-01  3.41187119e-09  4.58576372e-01  3.34472958e-09  3.61273833e-09  4.58576372e-01  3.45673940e-09  3.23052779e-09  1.61272567e-07  2.72880101e-08  7.90000000e-01 
 8.00000000e-01  3.41187121e-09  4.58576380e-01  3.34472958e-09  3.61273827e-09  4.58576380e-01  3.45673940e-09  3.23052779e-09  1.61272574e-07  2.72880314e-08  8.00000000e-01 
 8.10000000e-01  3.41187113e-09  4.58576389e-01  3.34472953e-09  3.61273827e-09  4.58576389e-01  3.45673935e-09  3.23052779e-09  1.61272587e-07  2.72879319e-08  8.10000000e-01 
 8.20000000e-01  3.41187115e-09  4.58576373e-01  3.34472958e-09  3.61273833e-09  4.58576373e-01  3.45673935e-09  3.23052779e-09  1.61272556e-07  2.72878040e-08  8.20000000e-01 
 8.30000000e-01  3.41187120e-09  4.58576407e-01  3.34472959e-09  3.61273833e-09  4.58576407e-01  3.45673935e-09  3.23052779e-09  1.61272612e-07  2.72878822e-08  8.30000000e-01 
 8.40000000e-01  3.41187119e-09  4.58576421e-01  3.34472953e-09  3.61273833e-09  4.58576421e-01  3.45673941e-09  3.23052779e-09  1.61272633e-07  2.72878609e-08  8.40000000e-01 
 8.50000000e-01  3.41187115e-09  4.58576374e-01  3.34472953e-09  3.61273827e-09  4.58576374e-01  3.45673940e-09  3.23052779e-09  1.61272557e-07  2.72877401e-08  8.50000000e-01 
 8.60000000e-01  3.41187120e-09  4.58576373e-01  3.34472958e-09  3.61273833e-09  4.58576373e-01  3.45673940e-09  3.23052779e-09  1.61272560e-07  2.72876690e-08  8.60000000e-01 
 8.70000000e-01  3.41187113e-09  4.58576388e-01  3.34472959e-09  3.61273827e-09  4.58576388e-01  3.45673941e-09  3.23052779e-09  1.61272574e-07  2.72876051e-08  8.70000000e-01 
 8.80000000e-01  3.41187121e-09  4.58576405e-01  3.34472959e-09  3.61273833e-09  4.58576405e-01  3.45673941e-09  3.23052779e-09  1.61272602e-07  2.72875837e-08  8.80000000e-01 
 8.90000000e-01  3.41187119e-09  4.58576384e-01  3.34472959e-09  3.61273833e-09  4.58576384e-01  3.45673935e-09  3.23052779e-09  1.61272596e-07  2.72874914e-08  8.90000000e-01 
 9.00000000e-01  3.41187115e-09  4.58576364e-01  3.34472958e-09  3.61273833e-09  4.58576363e-01  3.45673940e-09  3.23052779e-09  1.61272539e-07  2.72873706e-08  9.00000000e-01 
 9.10000000e-01  3.41187120e-09  4.58576390e-01  3.34472959e-09  3.61273827e-09  4.58576390e-01  3.45673935e-09  3.23052779e-09  1.61272572e-07  2.72874416e-08  9.10000000e-01 
 9.20000000e-01  3.41187113e-09  4.58576408e-01  3.34472959e-09  3.61273833e-09  4.58576408e-01  3.45673935e-09  3.23052779e-09  1.61272617e-07  2.72874914e-08  9.20000000e-01 
 9.30000000e-01  3.41187121e-09  4.58576409e-01  3.34472959e-09  3.61273833e-09  4.58576409e-01  3.45673941e-09  3.23052779e-09  1.61272620e-07  2.72873848e-08  9.30000000e-01 
 9.40000000e-01  3.41187113e-09  4.58576393e-01  3.34472953e-09  3.61273827e-09  4.58576393e-01  3.45673935e-09  3.23052779e-09  1.61272593e-07  2.72872427e-08  9.40000000e-01 
 9.50000000e-01  3.41187115e-09  4.58576394e-01  3.34472959e-09  3.61273833e-09  4.58576394e-01  3.45673941e-09  3.23052779e-09  1.61272596e-07  2.72872853e-08  9.50000000e-01 
 9.60000000e-01  3.41187120e-09  4.58576386e-01  3.34472959e-09  3.61273827e-09  4.58576386e-01  3.45673941e-09  3.23052779e-09  1.61272585e-07  2.72871432e-08  9.60000000e-01 
 9.70000000e-01  3.41187119e-09  4.58576413e-01  3.34472953e-09  3.61273827e-09  4.58576413e-01  3.45673935e-09  3.23052779e-09  1.61272629e-07  2.72870864e-08  9.70000000e-01 
 9.80000000e-01  3.41187115e-09  4.58576402e-01  3.34472959e-09  3.61273827e-09  4.58576402e-01  3.45673935e-09  3.23052779e-09  1.61272616e-07  2.72869229e-08  9.80000000e-01 
 9.90000000e-01  3.41187120e-09  4.58576388e-01  3.34472953e-09  3.61273827e-09  4.58576388e-01  3.45673941e-09  3.23052779e-09  1.61272575e-07  2.72869087e-08  9.90000000e-01 
 1.00000000e+00  3.41187119e-09  4.58576376e-01  3.34472958e-09  3.61273833e-09  4.58576376e-01  3.45673935e-09  3.23052779e-09  1.61272569e-07  2.72870153e-08  1.00000000e+00 
 1.01000000e+00  3.41187121e-09  4.58576399e-01  3.34472959e-09  3.61273833e-09  4.58576399e-01  3.45673935e-09  3.23052779e-09  1.61272602e-07  2.72869158e-08  1.01000000e+00 
 1.02000000e+00  3.41187119e-09  4.58576397e-01  3.34472959e-09  3.61273827e-09  4.58576397e-01  3.45673941e-09  3.23052779e-09  1.61272602e-07  2.72868803e-08  1.02000000e+00 
 1.03000000e+00  3.41187115e-09  4.58576386e-01  3.34472959e-09  3.61273833e-09  4.58576386e-01  3.45673941e-09  3.23052779e-09  1.61272589e-07  2.72868732e-08  1.03000000e+00 
 1.04000000e+00  3.41187115e-09  4.58576392e-01  3.34472959e-09  3.61273827e-09  4.58576392e-01  3.45673941e-09  3.23052779e-09  1.61272595e-07  2.72866671e-08  1.04000000e+00 
 1.05000000e+00  3.41187114e-09  4.58576382e-01  3.34472959e-09  3.61273833e-09  4.58576382e-01  3.45673935e-09  3.23052779e-09  1.61272574e-07  2.72866245e-08  1.05000000e+00 
 1.06000000e+00  3.41187120e-09  4.58576397e-01  3.34472959e-09  3.61273833e-09  4.58576396e-01  3.45673935e-09  3.23052779e-09  1.61272597e-07  2.72866245e-08  1.06000000e+00 
 1.07000000e+00  3.41187113e-09  4.58576391e-01  3.34472953e-09  3.61273833e-09  4.58576391e-01  3.45673935e-09  3.23052779e-09  1.61272580e-07  2.72865677e-08  1.07000000e+00 
 1.08000000e+00  3.41187121e-09  4.58576399e-01  3.34472959e-09  3.61273833e-09  4.58576399e-01  3.45673935e-09  3.23052779e-09  1.61272600e-07  2.72864540e-08  1.08000000e+00 
 1.09000000e+00  3.41187113e-09  4.58576391e-01  3.34472959e-09  3.61273827e-09  4.58576391e-01  3.45673935e-09  3.23052779e-09  1.61272590e-07  2.72864611e-08  1.09000000e+00 
 1.10000000e+00  3.41187115e-09  4.58576411e-01  3.34472959e-09  3.61273833e-09  4.58576411e-01  3.45673941e-09  3.23052779e-09  1.61272618e-07  2.72863900e-08  1.10000000e+00 
