 v-sweep         v(b0)           v(b1)           v(b2)           v(b3)           v(b4)           v(b5)           v(b6)           i(vbias)        i(viout)        v(vout)        
 0.00000000e+00  3.43529122e-09  4.59228337e-01  4.59228337e-01  4.59228337e-01  4.59228337e-01  4.59228337e-01  3.42932608e-09  1.62449573e-07  9.25318337e-08  0.00000000e+00 
 1.00000000e-02  3.43529120e-09  4.59228369e-01  4.59228368e-01  4.59228369e-01  4.59228369e-01  4.59228369e-01  3.42932605e-09  1.62449615e-07  9.25315043e-08  1.00000000e-02 
 2.00000000e-02  3.43529125e-09  4.59228350e-01  4.59228350e-01  4.59228351e-01  4.59228351e-01  4.59228350e-01  3.42932606e-09  1.62449584e-07  9.25309207e-08  2.00000000e-02 
 3.00000000e-02  3.43529125e-09  4.59228359e-01  4.59228359e-01  4.59228359e-01  4.59228359e-01  4.59228359e-01  3.42932605e-09  1.62449609e-07  9.25306594e-08  3.00000000e-02 
 4.00000000e-02  3.43529125e-09  4.59228356e-01  4.59228356e-01  4.59228356e-01  4.59228356e-01  4.59228356e-01  3.42932605e-09  1.62449584e-07  9.25303056e-08  4.00000000e-02 
 5.00000000e-02  3.43529126e-09  4.59228381e-01  4.59228381e-01  4.59228381e-01  4.59228381e-01  4.59228381e-01  3.42932605e-09  1.62449635e-07  9.25299539e-08  5.00000000e-02 
 6.00000000e-02  3.43529125e-09  4.59228363e-01  4.59228363e-01  4.59228363e-01  4.59228363e-01  4.59228363e-01  3.42932605e-09  1.62449602e-07  9.25297328e-08  6.00000000e-02 
 7.00000000e-02  3.43529125e-09  4.59228349e-01  4.59228348e-01  4.59228349e-01  4.59228349e-01  4.59228349e-01  3.42932605e-09  1.62449599e-07  9.25292887e-08  7.00000000e-02 
 8.00000000e-02  3.43529120e-09  4.59228363e-01  4.59228363e-01  4.59228363e-01  4.59228363e-01  4.59228363e-01  3.42932605e-09  1.62449614e-07  9.25290173e-08  8.00000000e-02 
 9.00000000e-02  3.43529120e-09  4.59228347e-01  4.59228347e-01  4.59228348e-01  4.59228348e-01  4.59228347e-01  3.42932611e-09  1.62449586e-07  9.25286354e-08  9.00000000e-02 
 1.00000000e-01  3.43529125e-09  4.59228356e-01  4.59228356e-01  4.59228356e-01  4.59228356e-01  4.59228356e-01  3.42932610e-09  1.62449597e-07  9.25284045e-08  1.00000000e-01 
 1.10000000e-01  3.43529120e-09  4.59228360e-01  4.59228360e-01  4.59228360e-01  4.59228360e-01  4.59228360e-01  3.42932610e-09  1.62449612e-07  9.25281158e-08  1.10000000e-01 
 1.20000000e-01  3.43529125e-09  4.59228357e-01  4.59228357e-01  4.59228357e-01  4.59228357e-01  4.59228357e-01  3.42932605e-09  1.62449598e-07  9.25279817e-08  1.20000000e-01 
 1.30000000e-01  3.43529120e-09  4.59228344e-01  4.59228344e-01  4.59228344e-01  4.59228344e-01  4.59228344e-01  3.42932606e-09  1.62449583e-07  9.25276549e-08  1.30000000e-01 
 1.40000000e-01  3.43529125e-09  4.59228362e-01  4.59228361e-01  4.59228362e-01  4.59228362e-01  4.59228362e-01  3.42932605e-09  1.62449620e-07  9.25274426e-08  1.40000000e-01 
 1.50000000e-01  3.43529125e-09  4.59228354e-01  4.59228354e-01  4.59228355e-01  4.59228355e-01  4.59228354e-01  3.42932605e-09  1.62449588e-07  9.25273032e-08  1.50000000e-01 
 1.60000000e-01  3.43529126e-09  4.59228373e-01  4.59228373e-01  4.59228373e-01  4.59228373e-01  4.59228373e-01  3.42932605e-09  1.62449635e-07  9.25271628e-08  1.60000000e-01 
 1.70000000e-01  3.43529125e-09  4.59228343e-01  4.59228343e-01  4.59228344e-01  4.59228344e-01  4.59228343e-01  3.42932605e-09  1.62449573e-07  9.25268626e-08  1.70000000e-01 
 1.80000000e-01  3.43529125e-09  4.59228337e-01  4.59228337e-01  4.59228338e-01  4.59228338e-01  4.59228337e-01  3.42932605e-09  1.62449568e-07  9.25266814e-08  1.80000000e-01 
 1.90000000e-01  3.43529125e-09  4.59228357e-01  4.59228357e-01  4.59228357e-01  4.59228357e-01  4.59228357e-01  3.42932611e-09  1.62449600e-07  9.25265109e-08  1.90000000e-01 
 2.00000000e-01  3.43529125e-09  4.59228359e-01  4.59228359e-01  4.59228360e-01  4.59228360e-01  4.59228359e-01  3.42932604e-09  1.62449590e-07  9.25264221e-08  2.00000000e-01 
 2.10000000e-01  3.43529125e-09  4.59228356e-01  4.59228356e-01  4.59228356e-01  4.59228356e-01  4.59228356e-01  3.42932606e-09  1.62449601e-07  9.25261965e-08  2.10000000e-01 
 2.20000000e-01  3.43529125e-09  4.59228347e-01  4.59228347e-01  4.59228347e-01  4.59228347e-01  4.59228347e-01  3.42932605e-09  1.62449591e-07  9.25260313e-08  2.20000000e-01 
 2.30000000e-01  3.43529120e-09  4.59228357e-01  4.59228357e-01  4.59228357e-01  4.59228357e-01  4.59228357e-01  3.42932611e-09  1.62449597e-07  9.25259407e-08  2.30000000e-01 
 2.40000000e-01  3.43529120e-09  4.59228357e-01  4.59228357e-01  4.59228357e-01  4.59228357e-01  4.59228357e-01  3.42932604e-09  1.62449603e-07  9.25257311e-08  2.40000000e-01 
 2.50000000e-01  3.43529125e-09  4.59228360e-01  4.59228360e-01  4.59228361e-01  4.59228361e-01  4.59228360e-01  3.42932606e-09  1.62449608e-07  9.25256192e-08  2.50000000e-01 
 2.60000000e-01  3.43529125e-09  4.59228348e-01  4.59228348e-01  4.59228348e-01  4.59228348e-01  4.59228348e-01  3.42932605e-09  1.62449579e-07  9.25253794e-08  2.60000000e-01 
 2.70000000e-01  3.43529120e-09  4.59228355e-01  4.59228355e-01  4.59228355e-01  4.59228355e-01  4.59228355e-01  3.42932605e-09  1.62449608e-07  9.25253527e-08  2.70000000e-01 
 2.80000000e-01  3.43529126e-09  4.59228391e-01  4.59228391e-01  4.59228391e-01  4.59228391e-01  4.59228391e-01  3.42932605e-09  1.62449662e-07  9.25253367e-08  2.80000000e-01 
 2.90000000e-01  3.43529120e-09  4.59228375e-01  4.59228375e-01  4.59228375e-01  4.59228375e-01  4.59228375e-01  3.42932611e-09  1.62449623e-07  9.25250596e-08  2.90000000e-01 
 3.00000000e-01  3.43529126e-09  4.59228367e-01  4.59228367e-01  4.59228368e-01  4.59228368e-01  4.59228367e-01  3.42932604e-09  1.62449615e-07  9.25250987e-08  3.00000000e-01 
 3.10000000e-01  3.43529120e-09  4.59228358e-01  4.59228358e-01  4.59228358e-01  4.59228358e-01  4.59228358e-01  3.42932606e-09  1.62449597e-07  9.25247896e-08  3.10000000e-01 
 3.20000000e-01  3.43529120e-09  4.59228346e-01  4.59228346e-01  4.59228346e-01  4.59228346e-01  4.59228346e-01  3.42932611e-09  1.62449580e-07  9.25247328e-08  3.20000000e-01 
 3.30000000e-01  3.43529120e-09  4.59228346e-01  4.59228346e-01  4.59228346e-01  4.59228346e-01  4.59228346e-01  3.42932610e-09  1.62449594e-07  9.25245800e-08  3.30000000e-01 
 3.40000000e-01  3.43529126e-09  4.59228371e-01  4.59228371e-01  4.59228372e-01  4.59228372e-01  4.59228371e-01  3.42932605e-09  1.62449632e-07  9.25245587e-08  3.40000000e-01 
 3.50000000e-01  3.43529125e-09  4.59228357e-01  4.59228357e-01  4.59228357e-01  4.59228357e-01  4.59228357e-01  3.42932606e-09  1.62449598e-07  9.25245267e-08  3.50000000e-01 
 3.60000000e-01  3.43529125e-09  4.59228357e-01  4.59228357e-01  4.59228357e-01  4.59228357e-01  4.59228357e-01  3.42932611e-09  1.62449618e-07  9.25243775e-08  3.60000000e-01 
 3.70000000e-01  3.43529126e-09  4.59228367e-01  4.59228367e-01  4.59228367e-01  4.59228367e-01  4.59228367e-01  3.42932610e-09  1.62449616e-07  9.25242212e-08  3.70000000e-01 
 3.80000000e-01  3.43529126e-09  4.59228380e-01  4.59228380e-01  4.59228380e-01  4.59228380e-01  4.59228380e-01  3.42932605e-09  1.62449632e-07  9.25242034e-08  3.80000000e-01 
 3.90000000e-01  3.43529126e-09  4.59228372e-01  4.59228372e-01  4.59228372e-01  4.59228372e-01  4.59228372e-01  3.42932606e-09  1.62449613e-07  9.25240649e-08  3.90000000e-01 
 4.00000000e-01  3.43529120e-09  4.59228373e-01  4.59228373e-01  4.59228373e-01  4.59228373e-01  4.59228373e-01  3.42932605e-09  1.62449626e-07  9.25240649e-08  4.00000000e-01 
 4.10000000e-01  3.43529120e-09  4.59228349e-01  4.59228349e-01  4.59228349e-01  4.59228349e-01  4.59228349e-01  3.42932605e-09  1.62449591e-07  9.25238908e-08  4.10000000e-01 
 4.20000000e-01  3.43529125e-09  4.59228362e-01  4.59228361e-01  4.59228362e-01  4.59228362e-01  4.59228362e-01  3.42932605e-09  1.62449608e-07  9.25237060e-08  4.20000000e-01 
 4.30000000e-01  3.43529125e-09  4.59228357e-01  4.59228357e-01  4.59228357e-01  4.59228357e-01  4.59228357e-01  3.42932605e-09  1.62449601e-07  9.25236421e-08  4.30000000e-01 
 4.40000000e-01  3.43529125e-09  4.59228354e-01  4.59228354e-01  4.59228354e-01  4.59228354e-01  4.59228354e-01  3.42932605e-09  1.62449602e-07  9.25235959e-08  4.40000000e-01 
 4.50000000e-01  3.43529125e-09  4.59228364e-01  4.59228364e-01  4.59228364e-01  4.59228364e-01  4.59228364e-01  3.42932605e-09  1.62449620e-07  9.25235817e-08  4.50000000e-01 
 4.60000000e-01  3.43529125e-09  4.59228352e-01  4.59228352e-01  4.59228352e-01  4.59228352e-01  4.59228352e-01  3.42932605e-09  1.62449586e-07  9.25235000e-08  4.60000000e-01 
 4.70000000e-01  3.43529125e-09  4.59228356e-01  4.59228356e-01  4.59228356e-01  4.59228356e-01  4.59228356e-01  3.42932605e-09  1.62449606e-07  9.25233543e-08  4.70000000e-01 
 4.80000000e-01  3.43529126e-09  4.59228372e-01  4.59228372e-01  4.59228372e-01  4.59228372e-01  4.59228372e-01  3.42932605e-09  1.62449610e-07  9.25233294e-08  4.80000000e-01 
 4.90000000e-01  3.43529120e-09  4.59228363e-01  4.59228363e-01  4.59228363e-01  4.59228363e-01  4.59228363e-01  3.42932605e-09  1.62449614e-07  9.25231944e-08  4.90000000e-01 
 5.00000000e-01  3.43529126e-09  4.59228379e-01  4.59228379e-01  4.59228379e-01  4.59228379e-01  4.59228379e-01  3.42932611e-09  1.62449629e-07  9.25231269e-08  5.00000000e-01 
 5.10000000e-01  3.43529120e-09  4.59228356e-01  4.59228356e-01  4.59228357e-01  4.59228357e-01  4.59228356e-01  3.42932610e-09  1.62449594e-07  9.25230985e-08  5.10000000e-01 
 5.20000000e-01  3.43529126e-09  4.59228365e-01  4.59228365e-01  4.59228366e-01  4.59228366e-01  4.59228366e-01  3.42932605e-09  1.62449613e-07  9.25230239e-08  5.20000000e-01 
 5.30000000e-01  3.43529126e-09  4.59228373e-01  4.59228373e-01  4.59228373e-01  4.59228373e-01  4.59228373e-01  3.42932606e-09  1.62449629e-07  9.25230594e-08  5.30000000e-01 
 5.40000000e-01  3.43529120e-09  4.59228346e-01  4.59228346e-01  4.59228346e-01  4.59228346e-01  4.59228346e-01  3.42932605e-09  1.62449587e-07  9.25228782e-08  5.40000000e-01 
 5.50000000e-01  3.43529125e-09  4.59228347e-01  4.59228347e-01  4.59228347e-01  4.59228347e-01  4.59228347e-01  3.42932605e-09  1.62449601e-07  9.25226402e-08  5.50000000e-01 
 5.60000000e-01  3.43529126e-09  4.59228376e-01  4.59228376e-01  4.59228377e-01  4.59228377e-01  4.59228376e-01  3.42932605e-09  1.62449618e-07  9.25226935e-08  5.60000000e-01 
 5.70000000e-01  3.43529120e-09  4.59228359e-01  4.59228359e-01  4.59228360e-01  4.59228360e-01  4.59228359e-01  3.42932605e-09  1.62449610e-07  9.25225478e-08  5.70000000e-01 
 5.80000000e-01  3.43529126e-09  4.59228372e-01  4.59228372e-01  4.59228373e-01  4.59228373e-01  4.59228372e-01  3.42932611e-09  1.62449618e-07  9.25225834e-08  5.80000000e-01 
 5.90000000e-01  3.43529126e-09  4.59228373e-01  4.59228373e-01  4.59228373e-01  4.59228373e-01  4.59228373e-01  3.42932610e-09  1.62449632e-07  9.25226047e-08  5.90000000e-01 
 6.00000000e-01  3.43529126e-09  4.59228372e-01  4.59228371e-01  4.59228372e-01  4.59228372e-01  4.59228372e-01  3.42932605e-09  1.62449611e-07  9.25224128e-08  6.00000000e-01 
 6.10000000e-01  3.43529125e-09  4.59228356e-01  4.59228356e-01  4.59228356e-01  4.59228356e-01  4.59228356e-01  3.42932606e-09  1.62449595e-07  9.25223205e-08  6.10000000e-01 
 6.20000000e-01  3.43529125e-09  4.59228364e-01  4.59228364e-01  4.59228365e-01  4.59228365e-01  4.59228364e-01  3.42932611e-09  1.62449611e-07  9.25221997e-08  6.20000000e-01 
 6.30000000e-01  3.43529125e-09  4.59228347e-01  4.59228347e-01  4.59228347e-01  4.59228347e-01  4.59228347e-01  3.42932610e-09  1.62449591e-07  9.25222281e-08  6.30000000e-01 
 6.40000000e-01  3.43529125e-09  4.59228338e-01  4.59228338e-01  4.59228338e-01  4.59228338e-01  4.59228338e-01  3.42932610e-09  1.62449577e-07  9.25220291e-08  6.40000000e-01 
 6.50000000e-01  3.43529120e-09  4.59228371e-01  4.59228371e-01  4.59228371e-01  4.59228371e-01  4.59228371e-01  3.42932610e-09  1.62449626e-07  9.25220505e-08  6.50000000e-01 
 6.60000000e-01  3.43529126e-09  4.59228366e-01  4.59228366e-01  4.59228366e-01  4.59228366e-01  4.59228366e-01  3.42932610e-09  1.62449602e-07  9.25219439e-08  6.60000000e-01 
 6.70000000e-01  3.43529125e-09  4.59228337e-01  4.59228337e-01  4.59228337e-01  4.59228337e-01  4.59228337e-01  3.42932610e-09  1.62449570e-07  9.25217876e-08  6.70000000e-01 
 6.80000000e-01  3.43529125e-09  4.59228332e-01  4.59228332e-01  4.59228333e-01  4.59228333e-01  4.59228332e-01  3.42932604e-09  1.62449577e-07  9.25217449e-08  6.80000000e-01 
 6.90000000e-01  3.43529119e-09  4.59228335e-01  4.59228335e-01  4.59228336e-01  4.59228336e-01  4.59228335e-01  3.42932606e-09  1.62449583e-07  9.25217236e-08  6.90000000e-01 
 7.00000000e-01  3.43529125e-09  4.59228350e-01  4.59228350e-01  4.59228350e-01  4.59228350e-01  4.59228350e-01  3.42932605e-09  1.62449587e-07  9.25216384e-08  7.00000000e-01 
 7.10000000e-01  3.43529120e-09  4.59228379e-01  4.59228379e-01  4.59228380e-01  4.59228380e-01  4.59228379e-01  3.42932605e-09  1.62449637e-07  9.25215744e-08  7.10000000e-01 
 7.20000000e-01  3.43529126e-09  4.59228378e-01  4.59228378e-01  4.59228378e-01  4.59228378e-01  4.59228378e-01  3.42932605e-09  1.62449621e-07  9.25215389e-08  7.20000000e-01 
 7.30000000e-01  3.43529126e-09  4.59228379e-01  4.59228379e-01  4.59228379e-01  4.59228379e-01  4.59228379e-01  3.42932605e-09  1.62449638e-07  9.25215744e-08  7.30000000e-01 
 7.40000000e-01  3.43529125e-09  4.59228360e-01  4.59228360e-01  4.59228361e-01  4.59228361e-01  4.59228360e-01  3.42932605e-09  1.62449600e-07  9.25213968e-08  7.40000000e-01 
 7.50000000e-01  3.43529126e-09  4.59228368e-01  4.59228368e-01  4.59228368e-01  4.59228368e-01  4.59228368e-01  3.42932605e-09  1.62449621e-07  9.25214465e-08  7.50000000e-01 
 7.60000000e-01  3.43529120e-09  4.59228360e-01  4.59228360e-01  4.59228360e-01  4.59228360e-01  4.59228360e-01  3.42932605e-09  1.62449598e-07  9.25213115e-08  7.60000000e-01 
 7.70000000e-01  3.43529125e-09  4.59228364e-01  4.59228364e-01  4.59228364e-01  4.59228364e-01  4.59228364e-01  3.42932605e-09  1.62449621e-07  9.25213115e-08  7.70000000e-01 
 7.80000000e-01  3.43529125e-09  4.59228361e-01  4.59228361e-01  4.59228361e-01  4.59228361e-01  4.59228361e-01  3.42932605e-09  1.62449606e-07  9.25210912e-08  7.80000000e-01 
 7.90000000e-01  3.43529125e-09  4.59228364e-01  4.59228364e-01  4.59228364e-01  4.59228364e-01  4.59228364e-01  3.42932605e-09  1.62449609e-07  9.25210770e-08  7.90000000e-01 
 8.00000000e-01  3.43529120e-09  4.59228387e-01  4.59228387e-01  4.59228388e-01  4.59228388e-01  4.59228387e-01  3.42932605e-09  1.62449641e-07  9.25209989e-08  8.00000000e-01 
 8.10000000e-01  3.43529125e-09  4.59228358e-01  4.59228358e-01  4.59228358e-01  4.59228358e-01  4.59228358e-01  3.42932605e-09  1.62449597e-07  9.25208710e-08  8.10000000e-01 
 8.20000000e-01  3.43529126e-09  4.59228367e-01  4.59228367e-01  4.59228367e-01  4.59228367e-01  4.59228367e-01  3.42932605e-09  1.62449620e-07  9.25208354e-08  8.20000000e-01 
 8.30000000e-01  3.43529125e-09  4.59228363e-01  4.59228363e-01  4.59228364e-01  4.59228364e-01  4.59228363e-01  3.42932611e-09  1.62449608e-07  9.25206862e-08  8.30000000e-01 
 8.40000000e-01  3.43529125e-09  4.59228337e-01  4.59228337e-01  4.59228337e-01  4.59228337e-01  4.59228337e-01  3.42932610e-09  1.62449563e-07  9.25206791e-08  8.40000000e-01 
 8.50000000e-01  3.43529125e-09  4.59228353e-01  4.59228353e-01  4.59228353e-01  4.59228353e-01  4.59228353e-01  3.42932605e-09  1.62449600e-07  9.25206507e-08  8.50000000e-01 
 8.60000000e-01  3.43529126e-09  4.59228377e-01  4.59228377e-01  4.59228378e-01  4.59228378e-01  4.59228377e-01  3.42932606e-09  1.62449624e-07  9.25206294e-08  8.60000000e-01 
 8.70000000e-01  3.43529126e-09  4.59228369e-01  4.59228369e-01  4.59228369e-01  4.59228369e-01  4.59228369e-01  3.42932605e-09  1.62449615e-07  9.25204944e-08  8.70000000e-01 
 8.80000000e-01  3.43529120e-09  4.59228384e-01  4.59228384e-01  4.59228384e-01  4.59228384e-01  4.59228384e-01  3.42932605e-09  1.62449635e-07  9.25204660e-08  8.80000000e-01 
 8.90000000e-01  3.43529120e-09  4.59228368e-01  4.59228367e-01  4.59228368e-01  4.59228368e-01  4.59228368e-01  3.42932605e-09  1.62449613e-07  9.25202386e-08  8.90000000e-01 
 9.00000000e-01  3.43529126e-09  4.59228366e-01  4.59228366e-01  4.59228367e-01  4.59228367e-01  4.59228366e-01  3.42932605e-09  1.62449603e-07  9.25201604e-08  9.00000000e-01 
 9.10000000e-01  3.43529120e-09  4.59228367e-01  4.59228367e-01  4.59228367e-01  4.59228367e-01  4.59228367e-01  3.42932605e-09  1.62449615e-07  9.25200965e-08  9.10000000e-01 
 9.20000000e-01  3.43529125e-09  4.59228363e-01  4.59228363e-01  4.59228363e-01  4.59228363e-01  4.59228363e-01  3.42932605e-09  1.62449605e-07  9.25202031e-08  9.20000000e-01 
 9.30000000e-01  3.43529126e-09  4.59228379e-01  4.59228379e-01  4.59228379e-01  4.59228379e-01  4.59228379e-01  3.42932605e-09  1.62449638e-07  9.25201107e-08  9.30000000e-01 
 9.40000000e-01  3.43529125e-09  4.59228362e-01  4.59228362e-01  4.59228363e-01  4.59228363e-01  4.59228362e-01  3.42932605e-09  1.62449597e-07  9.25198833e-08  9.40000000e-01 
 9.50000000e-01  3.43529125e-09  4.59228364e-01  4.59228364e-01  4.59228365e-01  4.59228365e-01  4.59228364e-01  3.42932611e-09  1.62449621e-07  9.25198336e-08  9.50000000e-01 
 9.60000000e-01  3.43529125e-09  4.59228356e-01  4.59228356e-01  4.59228357e-01  4.59228357e-01  4.59228356e-01  3.42932610e-09  1.62449612e-07  9.25196559e-08  9.60000000e-01 
 9.70000000e-01  3.43529125e-09  4.59228363e-01  4.59228363e-01  4.59228363e-01  4.59228363e-01  4.59228363e-01  3.42932605e-09  1.62449610e-07  9.25195920e-08  9.70000000e-01 
 9.80000000e-01  3.43529126e-09  4.59228393e-01  4.59228393e-01  4.59228393e-01  4.59228393e-01  4.59228393e-01  3.42932606e-09  1.62449650e-07  9.25197412e-08  9.80000000e-01 
 9.90000000e-01  3.43529120e-09  4.59228388e-01  4.59228387e-01  4.59228388e-01  4.59228388e-01  4.59228388e-01  3.42932605e-09  1.62449641e-07  9.25196630e-08  9.90000000e-01 
 1.00000000e+00  3.43529126e-09  4.59228375e-01  4.59228375e-01  4.59228375e-01  4.59228375e-01  4.59228375e-01  3.42932605e-09  1.62449618e-07  9.25193788e-08  1.00000000e+00 
 1.01000000e+00  3.43529125e-09  4.59228353e-01  4.59228353e-01  4.59228353e-01  4.59228353e-01  4.59228353e-01  3.42932605e-09  1.62449600e-07  9.25193717e-08  1.01000000e+00 
 1.02000000e+00  3.43529125e-09  4.59228361e-01  4.59228361e-01  4.59228361e-01  4.59228361e-01  4.59228361e-01  3.42932605e-09  1.62449599e-07  9.25192865e-08  1.02000000e+00 
 1.03000000e+00  3.43529120e-09  4.59228361e-01  4.59228361e-01  4.59228362e-01  4.59228362e-01  4.59228361e-01  3.42932605e-09  1.62449603e-07  9.25192012e-08  1.03000000e+00 
 1.04000000e+00  3.43529120e-09  4.59228371e-01  4.59228371e-01  4.59228371e-01  4.59228371e-01  4.59228371e-01  3.42932605e-09  1.62449623e-07  9.25190946e-08  1.04000000e+00 
 1.05000000e+00  3.43529126e-09  4.59228368e-01  4.59228368e-01  4.59228369e-01  4.59228369e-01  4.59228368e-01  3.42932605e-09  1.62449620e-07  9.25190378e-08  1.05000000e+00 
 1.06000000e+00  3.43529125e-09  4.59228360e-01  4.59228360e-01  4.59228360e-01  4.59228360e-01  4.59228360e-01  3.42932611e-09  1.62449606e-07  9.25189454e-08  1.06000000e+00 
 1.07000000e+00  3.43529126e-09  4.59228368e-01  4.59228368e-01  4.59228368e-01  4.59228368e-01  4.59228368e-01  3.42932604e-09  1.62449619e-07  9.25188601e-08  1.07000000e+00 
 1.08000000e+00  3.43529120e-09  4.59228369e-01  4.59228369e-01  4.59228369e-01  4.59228369e-01  4.59228369e-01  3.42932606e-09  1.62449617e-07  9.25187820e-08  1.08000000e+00 
 1.09000000e+00  3.43529120e-09  4.59228394e-01  4.59228394e-01  4.59228395e-01  4.59228395e-01  4.59228394e-01  3.42932605e-09  1.62449655e-07  9.25187180e-08  1.09000000e+00 
 1.10000000e+00  3.43529126e-09  4.59228366e-01  4.59228366e-01  4.59228366e-01  4.59228366e-01  4.59228366e-01  3.42932605e-09  1.62449612e-07  9.25185972e-08  1.10000000e+00 
