 v-sweep         v(b0)           v(b1)           v(b2)           v(b3)           v(b4)           v(b5)           v(b6)           i(vbias)        i(viout)        v(vout)        
 0.00000000e+00  4.58690808e-01  3.26512934e-09  4.58690808e-01  3.55253655e-09  4.58690808e-01  4.58690808e-01  4.58690808e-01  1.60013425e-07  1.71902725e-07  0.00000000e+00 
 1.00000000e-02  4.58690826e-01  3.26512931e-09  4.58690826e-01  3.55253664e-09  4.58690826e-01  4.58690826e-01  4.58690826e-01  1.60013454e-07  1.71902265e-07  1.00000000e-02 
 2.00000000e-02  4.58690793e-01  3.26512931e-09  4.58690793e-01  3.55253658e-09  4.58690793e-01  4.58690793e-01  4.58690793e-01  1.60013411e-07  1.71901676e-07  2.00000000e-02 
 3.00000000e-02  4.58690820e-01  3.26512931e-09  4.58690820e-01  3.55253658e-09  4.58690820e-01  4.58690820e-01  4.58690820e-01  1.60013456e-07  1.71901427e-07  3.00000000e-02 
 4.00000000e-02  4.58690841e-01  3.26512937e-09  4.58690841e-01  3.55253664e-09  4.58690841e-01  4.58690841e-01  4.58690841e-01  1.60013466e-07  1.71901010e-07  4.00000000e-02 
 5.00000000e-02  4.58690803e-01  3.26512937e-09  4.58690803e-01  3.55253658e-09  4.58690803e-01  4.58690803e-01  4.58690803e-01  1.60013406e-07  1.71900452e-07  5.00000000e-02 
 6.00000000e-02  4.58690810e-01  3.26512937e-09  4.58690810e-01  3.55253663e-09  4.58690810e-01  4.58690810e-01  4.58690810e-01  1.60013424e-07  1.71900176e-07  6.00000000e-02 
 7.00000000e-02  4.58690820e-01  3.26512931e-09  4.58690820e-01  3.55253664e-09  4.58690820e-01  4.58690820e-01  4.58690820e-01  1.60013448e-07  1.71899861e-07  7.00000000e-02 
 8.00000000e-02  4.58690817e-01  3.26512931e-09  4.58690817e-01  3.55253658e-09  4.58690817e-01  4.58690817e-01  4.58690817e-01  1.60013447e-07  1.71899472e-07  8.00000000e-02 
 9.00000000e-02  4.58690821e-01  3.26512931e-09  4.58690821e-01  3.55253658e-09  4.58690821e-01  4.58690821e-01  4.58690821e-01  1.60013453e-07  1.71899034e-07  9.00000000e-02 
 1.00000000e-01  4.58690802e-01  3.26512931e-09  4.58690802e-01  3.55253663e-09  4.58690802e-01  4.58690802e-01  4.58690802e-01  1.60013428e-07  1.71898658e-07  1.00000000e-01 
 1.10000000e-01  4.58690819e-01  3.26512931e-09  4.58690819e-01  3.55253664e-09  4.58690819e-01  4.58690819e-01  4.58690819e-01  1.60013447e-07  1.71898420e-07  1.10000000e-01 
 1.20000000e-01  4.58690808e-01  3.26512937e-09  4.58690808e-01  3.55253663e-09  4.58690808e-01  4.58690808e-01  4.58690808e-01  1.60013425e-07  1.71898048e-07  1.20000000e-01 
 1.30000000e-01  4.58690817e-01  3.26512931e-09  4.58690817e-01  3.55253658e-09  4.58690817e-01  4.58690817e-01  4.58690817e-01  1.60013438e-07  1.71897927e-07  1.30000000e-01 
 1.40000000e-01  4.58690802e-01  3.26512937e-09  4.58690802e-01  3.55253663e-09  4.58690802e-01  4.58690802e-01  4.58690802e-01  1.60013429e-07  1.71897537e-07  1.40000000e-01 
 1.50000000e-01  4.58690820e-01  3.26512931e-09  4.58690820e-01  3.55253664e-09  4.58690820e-01  4.58690820e-01  4.58690820e-01  1.60013452e-07  1.71897300e-07  1.50000000e-01 
 1.60000000e-01  4.58690800e-01  3.26512937e-09  4.58690800e-01  3.55253663e-09  4.58690800e-01  4.58690800e-01  4.58690800e-01  1.60013403e-07  1.71896918e-07  1.60000000e-01 
 1.70000000e-01  4.58690816e-01  3.26512931e-09  4.58690816e-01  3.55253658e-09  4.58690816e-01  4.58690816e-01  4.58690816e-01  1.60013455e-07  1.71896826e-07  1.70000000e-01 
 1.80000000e-01  4.58690814e-01  3.26512931e-09  4.58690814e-01  3.55253663e-09  4.58690814e-01  4.58690814e-01  4.58690814e-01  1.60013452e-07  1.71896449e-07  1.80000000e-01 
 1.90000000e-01  4.58690825e-01  3.26512931e-09  4.58690825e-01  3.55253664e-09  4.58690825e-01  4.58690825e-01  4.58690825e-01  1.60013449e-07  1.71896254e-07  1.90000000e-01 
 2.00000000e-01  4.58690824e-01  3.26512931e-09  4.58690825e-01  3.55253658e-09  4.58690824e-01  4.58690824e-01  4.58690824e-01  1.60013458e-07  1.71896151e-07  2.00000000e-01 
 2.10000000e-01  4.58690784e-01  3.26512931e-09  4.58690784e-01  3.55253658e-09  4.58690784e-01  4.58690784e-01  4.58690784e-01  1.60013402e-07  1.71895765e-07  2.10000000e-01 
 2.20000000e-01  4.58690785e-01  3.26512931e-09  4.58690786e-01  3.55253658e-09  4.58690785e-01  4.58690785e-01  4.58690785e-01  1.60013389e-07  1.71895534e-07  2.20000000e-01 
 2.30000000e-01  4.58690802e-01  3.26512937e-09  4.58690802e-01  3.55253658e-09  4.58690802e-01  4.58690802e-01  4.58690802e-01  1.60013416e-07  1.71895396e-07  2.30000000e-01 
 2.40000000e-01  4.58690800e-01  3.26512931e-09  4.58690800e-01  3.55253658e-09  4.58690800e-01  4.58690800e-01  4.58690800e-01  1.60013404e-07  1.71895206e-07  2.40000000e-01 
 2.50000000e-01  4.58690781e-01  3.26512937e-09  4.58690781e-01  3.55253658e-09  4.58690781e-01  4.58690781e-01  4.58690781e-01  1.60013398e-07  1.71894884e-07  2.50000000e-01 
 2.60000000e-01  4.58690814e-01  3.26512931e-09  4.58690814e-01  3.55253658e-09  4.58690814e-01  4.58690814e-01  4.58690814e-01  1.60013438e-07  1.71894827e-07  2.60000000e-01 
 2.70000000e-01  4.58690805e-01  3.26512931e-09  4.58690805e-01  3.55253663e-09  4.58690805e-01  4.58690805e-01  4.58690805e-01  1.60013418e-07  1.71894538e-07  2.70000000e-01 
 2.80000000e-01  4.58690797e-01  3.26512937e-09  4.58690797e-01  3.55253658e-09  4.58690797e-01  4.58690797e-01  4.58690797e-01  1.60013412e-07  1.71894360e-07  2.80000000e-01 
 2.90000000e-01  4.58690832e-01  3.26512931e-09  4.58690832e-01  3.55253658e-09  4.58690832e-01  4.58690832e-01  4.58690832e-01  1.60013459e-07  1.71894271e-07  2.90000000e-01 
 3.00000000e-01  4.58690799e-01  3.26512937e-09  4.58690799e-01  3.55253658e-09  4.58690799e-01  4.58690799e-01  4.58690799e-01  1.60013411e-07  1.71894012e-07  3.00000000e-01 
 3.10000000e-01  4.58690788e-01  3.26512937e-09  4.58690788e-01  3.55253658e-09  4.58690788e-01  4.58690788e-01  4.58690788e-01  1.60013398e-07  1.71893788e-07  3.10000000e-01 
 3.20000000e-01  4.58690820e-01  3.26512937e-09  4.58690821e-01  3.55253658e-09  4.58690821e-01  4.58690820e-01  4.58690820e-01  1.60013450e-07  1.71893799e-07  3.20000000e-01 
 3.30000000e-01  4.58690803e-01  3.26512931e-09  4.58690803e-01  3.55253663e-09  4.58690803e-01  4.58690803e-01  4.58690803e-01  1.60013416e-07  1.71893497e-07  3.30000000e-01 
 3.40000000e-01  4.58690807e-01  3.26512937e-09  4.58690807e-01  3.55253663e-09  4.58690807e-01  4.58690807e-01  4.58690807e-01  1.60013428e-07  1.71893301e-07  3.40000000e-01 
 3.50000000e-01  4.58690825e-01  3.26512931e-09  4.58690826e-01  3.55253658e-09  4.58690825e-01  4.58690825e-01  4.58690825e-01  1.60013449e-07  1.71893209e-07  3.50000000e-01 
 3.60000000e-01  4.58690787e-01  3.26512931e-09  4.58690787e-01  3.55253658e-09  4.58690787e-01  4.58690787e-01  4.58690787e-01  1.60013384e-07  1.71892886e-07  3.60000000e-01 
 3.70000000e-01  4.58690821e-01  3.26512931e-09  4.58690821e-01  3.55253664e-09  4.58690821e-01  4.58690821e-01  4.58690821e-01  1.60013444e-07  1.71892911e-07  3.70000000e-01 
 3.80000000e-01  4.58690794e-01  3.26512937e-09  4.58690795e-01  3.55253663e-09  4.58690795e-01  4.58690794e-01  4.58690794e-01  1.60013406e-07  1.71892758e-07  3.80000000e-01 
 3.90000000e-01  4.58690836e-01  3.26512937e-09  4.58690836e-01  3.55253658e-09  4.58690836e-01  4.58690836e-01  4.58690836e-01  1.60013457e-07  1.71892584e-07  3.90000000e-01 
 4.00000000e-01  4.58690818e-01  3.26512931e-09  4.58690818e-01  3.55253658e-09  4.58690818e-01  4.58690818e-01  4.58690818e-01  1.60013436e-07  1.71892374e-07  4.00000000e-01 
 4.10000000e-01  4.58690812e-01  3.26512931e-09  4.58690812e-01  3.55253658e-09  4.58690812e-01  4.58690812e-01  4.58690812e-01  1.60013424e-07  1.71892296e-07  4.10000000e-01 
 4.20000000e-01  4.58690812e-01  3.26512931e-09  4.58690812e-01  3.55253658e-09  4.58690812e-01  4.58690812e-01  4.58690812e-01  1.60013427e-07  1.71892083e-07  4.20000000e-01 
 4.30000000e-01  4.58690828e-01  3.26512937e-09  4.58690828e-01  3.55253658e-09  4.58690828e-01  4.58690828e-01  4.58690828e-01  1.60013463e-07  1.71892022e-07  4.30000000e-01 
 4.40000000e-01  4.58690791e-01  3.26512937e-09  4.58690792e-01  3.55253663e-09  4.58690791e-01  4.58690791e-01  4.58690791e-01  1.60013394e-07  1.71891752e-07  4.40000000e-01 
 4.50000000e-01  4.58690783e-01  3.26512931e-09  4.58690783e-01  3.55253663e-09  4.58690783e-01  4.58690783e-01  4.58690783e-01  1.60013391e-07  1.71891571e-07  4.50000000e-01 
 4.60000000e-01  4.58690802e-01  3.26512931e-09  4.58690802e-01  3.55253663e-09  4.58690802e-01  4.58690802e-01  4.58690802e-01  1.60013417e-07  1.71891568e-07  4.60000000e-01 
 4.70000000e-01  4.58690796e-01  3.26512937e-09  4.58690797e-01  3.55253658e-09  4.58690796e-01  4.58690796e-01  4.58690796e-01  1.60013420e-07  1.71891330e-07  4.70000000e-01 
 4.80000000e-01  4.58690824e-01  3.26512937e-09  4.58690824e-01  3.55253664e-09  4.58690824e-01  4.58690824e-01  4.58690824e-01  1.60013451e-07  1.71891298e-07  4.80000000e-01 
 4.90000000e-01  4.58690819e-01  3.26512931e-09  4.58690819e-01  3.55253658e-09  4.58690819e-01  4.58690819e-01  4.58690819e-01  1.60013438e-07  1.71891212e-07  4.90000000e-01 
 5.00000000e-01  4.58690792e-01  3.26512931e-09  4.58690792e-01  3.55253658e-09  4.58690792e-01  4.58690791e-01  4.58690792e-01  1.60013411e-07  1.71890871e-07  5.00000000e-01 
 5.10000000e-01  4.58690803e-01  3.26512931e-09  4.58690803e-01  3.55253658e-09  4.58690803e-01  4.58690803e-01  4.58690803e-01  1.60013414e-07  1.71890747e-07  5.10000000e-01 
 5.20000000e-01  4.58690783e-01  3.26512931e-09  4.58690783e-01  3.55253658e-09  4.58690783e-01  4.58690783e-01  4.58690783e-01  1.60013394e-07  1.71890584e-07  5.20000000e-01 
 5.30000000e-01  4.58690826e-01  3.26512931e-09  4.58690826e-01  3.55253658e-09  4.58690826e-01  4.58690826e-01  4.58690826e-01  1.60013460e-07  1.71890626e-07  5.30000000e-01 
 5.40000000e-01  4.58690804e-01  3.26512931e-09  4.58690805e-01  3.55253663e-09  4.58690804e-01  4.58690804e-01  4.58690804e-01  1.60013415e-07  1.71890353e-07  5.40000000e-01 
 5.50000000e-01  4.58690835e-01  3.26512937e-09  4.58690835e-01  3.55253658e-09  4.58690835e-01  4.58690835e-01  4.58690835e-01  1.60013457e-07  1.71890303e-07  5.50000000e-01 
 5.60000000e-01  4.58690803e-01  3.26512931e-09  4.58690803e-01  3.55253658e-09  4.58690803e-01  4.58690803e-01  4.58690803e-01  1.60013417e-07  1.71890019e-07  5.60000000e-01 
 5.70000000e-01  4.58690846e-01  3.26512937e-09  4.58690846e-01  3.55253664e-09  4.58690846e-01  4.58690846e-01  4.58690846e-01  1.60013485e-07  1.71890065e-07  5.70000000e-01 
 5.80000000e-01  4.58690815e-01  3.26512931e-09  4.58690815e-01  3.55253658e-09  4.58690815e-01  4.58690815e-01  4.58690815e-01  1.60013413e-07  1.71889866e-07  5.80000000e-01 
 5.90000000e-01  4.58690801e-01  3.26512931e-09  4.58690801e-01  3.55253658e-09  4.58690801e-01  4.58690801e-01  4.58690801e-01  1.60013417e-07  1.71889702e-07  5.90000000e-01 
 6.00000000e-01  4.58690831e-01  3.26512931e-09  4.58690831e-01  3.55253658e-09  4.58690831e-01  4.58690831e-01  4.58690831e-01  1.60013453e-07  1.71889781e-07  6.00000000e-01 
 6.10000000e-01  4.58690799e-01  3.26512937e-09  4.58690799e-01  3.55253658e-09  4.58690799e-01  4.58690799e-01  4.58690799e-01  1.60013409e-07  1.71889376e-07  6.10000000e-01 
 6.20000000e-01  4.58690803e-01  3.26512931e-09  4.58690803e-01  3.55253663e-09  4.58690803e-01  4.58690803e-01  4.58690803e-01  1.60013419e-07  1.71889312e-07  6.20000000e-01 
 6.30000000e-01  4.58690817e-01  3.26512931e-09  4.58690817e-01  3.55253658e-09  4.58690817e-01  4.58690817e-01  4.58690817e-01  1.60013439e-07  1.71889184e-07  6.30000000e-01 
 6.40000000e-01  4.58690809e-01  3.26512931e-09  4.58690809e-01  3.55253663e-09  4.58690809e-01  4.58690809e-01  4.58690809e-01  1.60013440e-07  1.71888999e-07  6.40000000e-01 
 6.50000000e-01  4.58690821e-01  3.26512931e-09  4.58690821e-01  3.55253664e-09  4.58690821e-01  4.58690821e-01  4.58690821e-01  1.60013459e-07  1.71888892e-07  6.50000000e-01 
 6.60000000e-01  4.58690811e-01  3.26512931e-09  4.58690811e-01  3.55253663e-09  4.58690811e-01  4.58690811e-01  4.58690811e-01  1.60013443e-07  1.71888637e-07  6.60000000e-01 
 6.70000000e-01  4.58690797e-01  3.26512931e-09  4.58690797e-01  3.55253663e-09  4.58690797e-01  4.58690797e-01  4.58690797e-01  1.60013416e-07  1.71888587e-07  6.70000000e-01 
 6.80000000e-01  4.58690814e-01  3.26512931e-09  4.58690815e-01  3.55253658e-09  4.58690815e-01  4.58690814e-01  4.58690814e-01  1.60013440e-07  1.71888459e-07  6.80000000e-01 
 6.90000000e-01  4.58690811e-01  3.26512937e-09  4.58690811e-01  3.55253663e-09  4.58690811e-01  4.58690811e-01  4.58690811e-01  1.60013424e-07  1.71888431e-07  6.90000000e-01 
 7.00000000e-01  4.58690810e-01  3.26512931e-09  4.58690810e-01  3.55253663e-09  4.58690810e-01  4.58690809e-01  4.58690810e-01  1.60013420e-07  1.71888018e-07  7.00000000e-01 
 7.10000000e-01  4.58690829e-01  3.26512937e-09  4.58690829e-01  3.55253658e-09  4.58690829e-01  4.58690829e-01  4.58690829e-01  1.60013454e-07  1.71888068e-07  7.10000000e-01 
 7.20000000e-01  4.58690824e-01  3.26512931e-09  4.58690824e-01  3.55253658e-09  4.58690824e-01  4.58690824e-01  4.58690824e-01  1.60013446e-07  1.71888026e-07  7.20000000e-01 
 7.30000000e-01  4.58690774e-01  3.26512936e-09  4.58690774e-01  3.55253658e-09  4.58690774e-01  4.58690774e-01  4.58690774e-01  1.60013370e-07  1.71887550e-07  7.30000000e-01 
 7.40000000e-01  4.58690808e-01  3.26512931e-09  4.58690809e-01  3.55253658e-09  4.58690808e-01  4.58690808e-01  4.58690808e-01  1.60013430e-07  1.71887578e-07  7.40000000e-01 
 7.50000000e-01  4.58690769e-01  3.26512936e-09  4.58690769e-01  3.55253658e-09  4.58690769e-01  4.58690768e-01  4.58690769e-01  1.60013363e-07  1.71887287e-07  7.50000000e-01 
 7.60000000e-01  4.58690773e-01  3.26512936e-09  4.58690773e-01  3.55253658e-09  4.58690773e-01  4.58690773e-01  4.58690773e-01  1.60013372e-07  1.71887088e-07  7.60000000e-01 
 7.70000000e-01  4.58690816e-01  3.26512937e-09  4.58690816e-01  3.55253658e-09  4.58690816e-01  4.58690816e-01  4.58690816e-01  1.60013437e-07  1.71887145e-07  7.70000000e-01 
 7.80000000e-01  4.58690822e-01  3.26512931e-09  4.58690822e-01  3.55253664e-09  4.58690822e-01  4.58690822e-01  4.58690822e-01  1.60013439e-07  1.71887081e-07  7.80000000e-01 
 7.90000000e-01  4.58690803e-01  3.26512931e-09  4.58690803e-01  3.55253658e-09  4.58690803e-01  4.58690803e-01  4.58690803e-01  1.60013426e-07  1.71886782e-07  7.90000000e-01 
 8.00000000e-01  4.58690845e-01  3.26512937e-09  4.58690845e-01  3.55253658e-09  4.58690845e-01  4.58690845e-01  4.58690845e-01  1.60013479e-07  1.71886860e-07  8.00000000e-01 
 8.10000000e-01  4.58690814e-01  3.26512931e-09  4.58690814e-01  3.55253663e-09  4.58690814e-01  4.58690814e-01  4.58690814e-01  1.60013426e-07  1.71886569e-07  8.10000000e-01 
 8.20000000e-01  4.58690810e-01  3.26512931e-09  4.58690810e-01  3.55253658e-09  4.58690810e-01  4.58690810e-01  4.58690810e-01  1.60013443e-07  1.71886413e-07  8.20000000e-01 
 8.30000000e-01  4.58690806e-01  3.26512937e-09  4.58690806e-01  3.55253663e-09  4.58690806e-01  4.58690806e-01  4.58690806e-01  1.60013436e-07  1.71886299e-07  8.30000000e-01 
 8.40000000e-01  4.58690806e-01  3.26512937e-09  4.58690806e-01  3.55253658e-09  4.58690806e-01  4.58690806e-01  4.58690806e-01  1.60013437e-07  1.71886093e-07  8.40000000e-01 
 8.50000000e-01  4.58690810e-01  3.26512937e-09  4.58690810e-01  3.55253663e-09  4.58690810e-01  4.58690810e-01  4.58690810e-01  1.60013441e-07  1.71885929e-07  8.50000000e-01 
 8.60000000e-01  4.58690830e-01  3.26512931e-09  4.58690830e-01  3.55253658e-09  4.58690830e-01  4.58690830e-01  4.58690830e-01  1.60013450e-07  1.71885929e-07  8.60000000e-01 
 8.70000000e-01  4.58690808e-01  3.26512937e-09  4.58690808e-01  3.55253663e-09  4.58690808e-01  4.58690807e-01  4.58690808e-01  1.60013442e-07  1.71885610e-07  8.70000000e-01 
 8.80000000e-01  4.58690818e-01  3.26512931e-09  4.58690818e-01  3.55253663e-09  4.58690818e-01  4.58690818e-01  4.58690818e-01  1.60013445e-07  1.71885588e-07  8.80000000e-01 
 8.90000000e-01  4.58690814e-01  3.26512931e-09  4.58690814e-01  3.55253658e-09  4.58690814e-01  4.58690814e-01  4.58690814e-01  1.60013435e-07  1.71885482e-07  8.90000000e-01 
 9.00000000e-01  4.58690808e-01  3.26512931e-09  4.58690808e-01  3.55253658e-09  4.58690808e-01  4.58690808e-01  4.58690808e-01  1.60013430e-07  1.71885198e-07  9.00000000e-01 
 9.10000000e-01  4.58690798e-01  3.26512931e-09  4.58690798e-01  3.55253663e-09  4.58690798e-01  4.58690798e-01  4.58690798e-01  1.60013414e-07  1.71884949e-07  9.10000000e-01 
 9.20000000e-01  4.58690813e-01  3.26512937e-09  4.58690813e-01  3.55253658e-09  4.58690813e-01  4.58690813e-01  4.58690813e-01  1.60013434e-07  1.71884906e-07  9.20000000e-01 
 9.30000000e-01  4.58690814e-01  3.26512931e-09  4.58690814e-01  3.55253663e-09  4.58690814e-01  4.58690814e-01  4.58690814e-01  1.60013433e-07  1.71884686e-07  9.30000000e-01 
 9.40000000e-01  4.58690788e-01  3.26512931e-09  4.58690788e-01  3.55253663e-09  4.58690788e-01  4.58690788e-01  4.58690788e-01  1.60013412e-07  1.71884345e-07  9.40000000e-01 
 9.50000000e-01  4.58690840e-01  3.26512932e-09  4.58690841e-01  3.55253664e-09  4.58690840e-01  4.58690840e-01  4.58690840e-01  1.60013484e-07  1.71884523e-07  9.50000000e-01 
 9.60000000e-01  4.58690814e-01  3.26512931e-09  4.58690814e-01  3.55253663e-09  4.58690814e-01  4.58690814e-01  4.58690814e-01  1.60013431e-07  1.71884217e-07  9.60000000e-01 
 9.70000000e-01  4.58690810e-01  3.26512937e-09  4.58690810e-01  3.55253663e-09  4.58690810e-01  4.58690810e-01  4.58690810e-01  1.60013432e-07  1.71884089e-07  9.70000000e-01 
 9.80000000e-01  4.58690813e-01  3.26512931e-09  4.58690813e-01  3.55253658e-09  4.58690813e-01  4.58690813e-01  4.58690813e-01  1.60013439e-07  1.71883777e-07  9.80000000e-01 
 9.90000000e-01  4.58690827e-01  3.26512931e-09  4.58690827e-01  3.55253664e-09  4.58690827e-01  4.58690827e-01  4.58690827e-01  1.60013460e-07  1.71883670e-07  9.90000000e-01 
 1.00000000e+00  4.58690790e-01  3.26512931e-09  4.58690790e-01  3.55253658e-09  4.58690790e-01  4.58690790e-01  4.58690790e-01  1.60013395e-07  1.71883350e-07  1.00000000e+00 
 1.01000000e+00  4.58690793e-01  3.26512931e-09  4.58690793e-01  3.55253663e-09  4.58690793e-01  4.58690793e-01  4.58690793e-01  1.60013414e-07  1.71883194e-07  1.01000000e+00 
 1.02000000e+00  4.58690775e-01  3.26512936e-09  4.58690775e-01  3.55253663e-09  4.58690775e-01  4.58690774e-01  4.58690775e-01  1.60013373e-07  1.71882981e-07  1.02000000e+00 
 1.03000000e+00  4.58690823e-01  3.26512931e-09  4.58690823e-01  3.55253664e-09  4.58690823e-01  4.58690823e-01  4.58690823e-01  1.60013460e-07  1.71883030e-07  1.03000000e+00 
 1.04000000e+00  4.58690818e-01  3.26512931e-09  4.58690818e-01  3.55253658e-09  4.58690818e-01  4.58690818e-01  4.58690818e-01  1.60013417e-07  1.71882860e-07  1.04000000e+00 
 1.05000000e+00  4.58690807e-01  3.26512937e-09  4.58690807e-01  3.55253658e-09  4.58690807e-01  4.58690807e-01  4.58690807e-01  1.60013422e-07  1.71882576e-07  1.05000000e+00 
 1.06000000e+00  4.58690802e-01  3.26512931e-09  4.58690802e-01  3.55253658e-09  4.58690802e-01  4.58690802e-01  4.58690802e-01  1.60013422e-07  1.71882412e-07  1.06000000e+00 
 1.07000000e+00  4.58690793e-01  3.26512937e-09  4.58690793e-01  3.55253663e-09  4.58690793e-01  4.58690793e-01  4.58690793e-01  1.60013405e-07  1.71882206e-07  1.07000000e+00 
 1.08000000e+00  4.58690823e-01  3.26512931e-09  4.58690823e-01  3.55253658e-09  4.58690823e-01  4.58690822e-01  4.58690823e-01  1.60013440e-07  1.71882121e-07  1.08000000e+00 
 1.09000000e+00  4.58690805e-01  3.26512931e-09  4.58690805e-01  3.55253658e-09  4.58690805e-01  4.58690805e-01  4.58690805e-01  1.60013424e-07  1.71881751e-07  1.09000000e+00 
 1.10000000e+00  4.58690834e-01  3.26512931e-09  4.58690834e-01  3.55253658e-09  4.58690834e-01  4.58690833e-01  4.58690834e-01  1.60013463e-07  1.71881744e-07  1.10000000e+00 
