 v-sweep         v(b0)           v(b1)           v(b2)           v(b3)           v(b4)           v(b5)           v(b6)           i(vbias)        i(viout)        v(vout)        
 0.00000000e+00  3.34577951e-09  3.17238142e-09  3.46940623e-09  3.32926962e-09  4.54464862e-01  3.32680852e-09  3.55379809e-09  1.53188735e-07  2.14788485e-08  0.00000000e+00 
 1.00000000e-02  3.34577949e-09  3.17238146e-09  3.46940620e-09  3.32926960e-09  4.54464850e-01  3.32680855e-09  3.55379806e-09  1.53188707e-07  2.14785045e-08  1.00000000e-02 
 2.00000000e-02  3.34577950e-09  3.17238140e-09  3.46940622e-09  3.32926960e-09  4.54464871e-01  3.32680855e-09  3.55379812e-09  1.53188743e-07  2.14780642e-08  2.00000000e-02 
 3.00000000e-02  3.34577949e-09  3.17238140e-09  3.46940621e-09  3.32926965e-09  4.54464862e-01  3.32680849e-09  3.55379806e-09  1.53188741e-07  2.14777949e-08  3.00000000e-02 
 4.00000000e-02  3.34577944e-09  3.17238140e-09  3.46940621e-09  3.32926960e-09  4.54464856e-01  3.32680856e-09  3.55379812e-09  1.53188718e-07  2.14773319e-08  4.00000000e-02 
 5.00000000e-02  3.34577945e-09  3.17238146e-09  3.46940621e-09  3.32926960e-09  4.54464852e-01  3.32680854e-09  3.55379806e-09  1.53188734e-07  2.14770810e-08  5.00000000e-02 
 6.00000000e-02  3.34577944e-09  3.17238140e-09  3.46940621e-09  3.32926965e-09  4.54464846e-01  3.32680849e-09  3.55379812e-09  1.53188714e-07  2.14767812e-08  6.00000000e-02 
 7.00000000e-02  3.34577944e-09  3.17238140e-09  3.46940621e-09  3.32926960e-09  4.54464854e-01  3.32680851e-09  3.55379806e-09  1.53188729e-07  2.14762812e-08  7.00000000e-02 
 8.00000000e-02  3.34577950e-09  3.17238140e-09  3.46940621e-09  3.32926960e-09  4.54464859e-01  3.32680850e-09  3.55379812e-09  1.53188740e-07  2.14761515e-08  8.00000000e-02 
 9.00000000e-02  3.34577949e-09  3.17238140e-09  3.46940621e-09  3.32926965e-09  4.54464866e-01  3.32680850e-09  3.55379806e-09  1.53188748e-07  2.14758984e-08  9.00000000e-02 
 1.00000000e-01  3.34577949e-09  3.17238146e-09  3.46940621e-09  3.32926960e-09  4.54464869e-01  3.32680856e-09  3.55379806e-09  1.53188749e-07  2.14755680e-08  1.00000000e-01 
 1.10000000e-01  3.34577949e-09  3.17238146e-09  3.46940621e-09  3.32926960e-09  4.54464849e-01  3.32680854e-09  3.55379806e-09  1.53188731e-07  2.14754197e-08  1.10000000e-01 
 1.20000000e-01  3.34577944e-09  3.17238146e-09  3.46940621e-09  3.32926960e-09  4.54464862e-01  3.32680855e-09  3.55379812e-09  1.53188733e-07  2.14751950e-08  1.20000000e-01 
 1.30000000e-01  3.34577951e-09  3.17238146e-09  3.46940621e-09  3.32926965e-09  4.54464871e-01  3.32680855e-09  3.55379806e-09  1.53188749e-07  2.14749249e-08  1.30000000e-01 
 1.40000000e-01  3.34577949e-09  3.17238140e-09  3.46940621e-09  3.32926960e-09  4.54464852e-01  3.32680855e-09  3.55379812e-09  1.53188725e-07  2.14746665e-08  1.40000000e-01 
 1.50000000e-01  3.34577950e-09  3.17238140e-09  3.46940627e-09  3.32926966e-09  4.54464878e-01  3.32680855e-09  3.55379806e-09  1.53188757e-07  2.14746372e-08  1.50000000e-01 
 1.60000000e-01  3.34577944e-09  3.17238140e-09  3.46940626e-09  3.32926960e-09  4.54464862e-01  3.32680855e-09  3.55379812e-09  1.53188728e-07  2.14743352e-08  1.60000000e-01 
 1.70000000e-01  3.34577951e-09  3.17238141e-09  3.46940621e-09  3.32926966e-09  4.54464888e-01  3.32680855e-09  3.55379806e-09  1.53188775e-07  2.14742641e-08  1.70000000e-01 
 1.80000000e-01  3.34577943e-09  3.17238140e-09  3.46940622e-09  3.32926960e-09  4.54464869e-01  3.32680855e-09  3.55379812e-09  1.53188751e-07  2.14740030e-08  1.80000000e-01 
 1.90000000e-01  3.34577945e-09  3.17238140e-09  3.46940621e-09  3.32926965e-09  4.54464855e-01  3.32680855e-09  3.55379806e-09  1.53188723e-07  2.14739639e-08  1.90000000e-01 
 2.00000000e-01  3.34577950e-09  3.17238140e-09  3.46940621e-09  3.32926965e-09  4.54464850e-01  3.32680855e-09  3.55379806e-09  1.53188736e-07  2.14738147e-08  2.00000000e-01 
 2.10000000e-01  3.34577943e-09  3.17238140e-09  3.46940621e-09  3.32926960e-09  4.54464840e-01  3.32680855e-09  3.55379812e-09  1.53188715e-07  2.14734293e-08  2.10000000e-01 
 2.20000000e-01  3.34577945e-09  3.17238140e-09  3.46940621e-09  3.32926965e-09  4.54464840e-01  3.32680855e-09  3.55379812e-09  1.53188700e-07  2.14734790e-08  2.20000000e-01 
 2.30000000e-01  3.34577944e-09  3.17238140e-09  3.46940621e-09  3.32926965e-09  4.54464862e-01  3.32680855e-09  3.55379806e-09  1.53188745e-07  2.14730687e-08  2.30000000e-01 
 2.40000000e-01  3.34577950e-09  3.17238146e-09  3.46940621e-09  3.32926965e-09  4.54464866e-01  3.32680855e-09  3.55379812e-09  1.53188743e-07  2.14731219e-08  2.40000000e-01 
 2.50000000e-01  3.34577949e-09  3.17238146e-09  3.46940621e-09  3.32926960e-09  4.54464850e-01  3.32680855e-09  3.55379806e-09  1.53188712e-07  2.14729692e-08  2.50000000e-01 
 2.60000000e-01  3.34577944e-09  3.17238140e-09  3.46940621e-09  3.32926960e-09  4.54464878e-01  3.32680855e-09  3.55379806e-09  1.53188751e-07  2.14728733e-08  2.60000000e-01 
 2.70000000e-01  3.34577951e-09  3.17238146e-09  3.46940621e-09  3.32926960e-09  4.54464853e-01  3.32680855e-09  3.55379812e-09  1.53188711e-07  2.14728697e-08  2.70000000e-01 
 2.80000000e-01  3.34577949e-09  3.17238140e-09  3.46940621e-09  3.32926960e-09  4.54464869e-01  3.32680855e-09  3.55379812e-09  1.53188736e-07  2.14726725e-08  2.80000000e-01 
 2.90000000e-01  3.34577949e-09  3.17238140e-09  3.46940621e-09  3.32926960e-09  4.54464862e-01  3.32680855e-09  3.55379806e-09  1.53188744e-07  2.14725411e-08  2.90000000e-01 
 3.00000000e-01  3.34577944e-09  3.17238140e-09  3.46940621e-09  3.32926960e-09  4.54464861e-01  3.32680855e-09  3.55379812e-09  1.53188741e-07  2.14725269e-08  3.00000000e-01 
 3.10000000e-01  3.34577951e-09  3.17238140e-09  3.46940621e-09  3.32926966e-09  4.54464876e-01  3.32680855e-09  3.55379806e-09  1.53188772e-07  2.14724132e-08  3.10000000e-01 
 3.20000000e-01  3.34577949e-09  3.17238140e-09  3.46940621e-09  3.32926965e-09  4.54464859e-01  3.32680855e-09  3.55379812e-09  1.53188734e-07  2.14722746e-08  3.20000000e-01 
 3.30000000e-01  3.34577950e-09  3.17238140e-09  3.46940621e-09  3.32926966e-09  4.54464878e-01  3.32680855e-09  3.55379806e-09  1.53188760e-07  2.14720757e-08  3.30000000e-01 
 3.40000000e-01  3.34577949e-09  3.17238140e-09  3.46940621e-09  3.32926960e-09  4.54464854e-01  3.32680855e-09  3.55379806e-09  1.53188719e-07  2.14720615e-08  3.40000000e-01 
 3.50000000e-01  3.34577950e-09  3.17238146e-09  3.46940621e-09  3.32926966e-09  4.54464894e-01  3.32680855e-09  3.55379806e-09  1.53188774e-07  2.14720650e-08  3.50000000e-01 
 3.60000000e-01  3.34577949e-09  3.17238140e-09  3.46940621e-09  3.32926960e-09  4.54464868e-01  3.32680855e-09  3.55379806e-09  1.53188737e-07  2.14718803e-08  3.60000000e-01 
 3.70000000e-01  3.34577950e-09  3.17238141e-09  3.46940621e-09  3.32926960e-09  4.54464881e-01  3.32680855e-09  3.55379812e-09  1.53188762e-07  2.14719336e-08  3.70000000e-01 
 3.80000000e-01  3.34577944e-09  3.17238146e-09  3.46940621e-09  3.32926960e-09  4.54464864e-01  3.32680849e-09  3.55379806e-09  1.53188737e-07  2.14717915e-08  3.80000000e-01 
 3.90000000e-01  3.34577945e-09  3.17238140e-09  3.46940621e-09  3.32926965e-09  4.54464861e-01  3.32680851e-09  3.55379806e-09  1.53188739e-07  2.14716067e-08  3.90000000e-01 
 4.00000000e-01  3.34577944e-09  3.17238140e-09  3.46940621e-09  3.32926965e-09  4.54464842e-01  3.32680856e-09  3.55379806e-09  1.53188693e-07  2.14715463e-08  4.00000000e-01 
 4.10000000e-01  3.34577944e-09  3.17238140e-09  3.46940621e-09  3.32926966e-09  4.54464876e-01  3.32680855e-09  3.55379812e-09  1.53188753e-07  2.14714753e-08  4.10000000e-01 
 4.20000000e-01  3.34577944e-09  3.17238140e-09  3.46940621e-09  3.32926960e-09  4.54464859e-01  3.32680849e-09  3.55379812e-09  1.53188739e-07  2.14715001e-08  4.20000000e-01 
 4.30000000e-01  3.34577944e-09  3.17238140e-09  3.46940621e-09  3.32926960e-09  4.54464866e-01  3.32680856e-09  3.55379806e-09  1.53188760e-07  2.14714717e-08  4.30000000e-01 
 4.40000000e-01  3.34577944e-09  3.17238141e-09  3.46940621e-09  3.32926960e-09  4.54464883e-01  3.32680855e-09  3.55379812e-09  1.53188777e-07  2.14714007e-08  4.40000000e-01 
 4.50000000e-01  3.34577950e-09  3.17238140e-09  3.46940621e-09  3.32926965e-09  4.54464874e-01  3.32680855e-09  3.55379806e-09  1.53188738e-07  2.14713793e-08  4.50000000e-01 
 4.60000000e-01  3.34577949e-09  3.17238146e-09  3.46940621e-09  3.32926965e-09  4.54464870e-01  3.32680855e-09  3.55379806e-09  1.53188746e-07  2.14712585e-08  4.60000000e-01 
 4.70000000e-01  3.34577949e-09  3.17238140e-09  3.46940627e-09  3.32926960e-09  4.54464857e-01  3.32680855e-09  3.55379812e-09  1.53188737e-07  2.14713438e-08  4.70000000e-01 
 4.80000000e-01  3.34577949e-09  3.17238146e-09  3.46940626e-09  3.32926965e-09  4.54464865e-01  3.32680855e-09  3.55379812e-09  1.53188752e-07  2.14710347e-08  4.80000000e-01 
 4.90000000e-01  3.34577949e-09  3.17238140e-09  3.46940626e-09  3.32926965e-09  4.54464869e-01  3.32680855e-09  3.55379812e-09  1.53188754e-07  2.14711235e-08  4.90000000e-01 
 5.00000000e-01  3.34577944e-09  3.17238140e-09  3.46940621e-09  3.32926966e-09  4.54464878e-01  3.32680855e-09  3.55379806e-09  1.53188757e-07  2.14711271e-08  5.00000000e-01 
 5.10000000e-01  3.34577945e-09  3.17238146e-09  3.46940622e-09  3.32926960e-09  4.54464877e-01  3.32680855e-09  3.55379812e-09  1.53188745e-07  2.14710560e-08  5.10000000e-01 
 5.20000000e-01  3.34577944e-09  3.17238140e-09  3.46940621e-09  3.32926960e-09  4.54464871e-01  3.32680855e-09  3.55379812e-09  1.53188757e-07  2.14708500e-08  5.20000000e-01 
 5.30000000e-01  3.34577944e-09  3.17238146e-09  3.46940621e-09  3.32926960e-09  4.54464836e-01  3.32680849e-09  3.55379812e-09  1.53188686e-07  2.14708109e-08  5.30000000e-01 
 5.40000000e-01  3.34577950e-09  3.17238140e-09  3.46940621e-09  3.32926965e-09  4.54464867e-01  3.32680856e-09  3.55379806e-09  1.53188740e-07  2.14707399e-08  5.40000000e-01 
 5.50000000e-01  3.34577949e-09  3.17238141e-09  3.46940621e-09  3.32926960e-09  4.54464882e-01  3.32680855e-09  3.55379812e-09  1.53188764e-07  2.14706937e-08  5.50000000e-01 
 5.60000000e-01  3.34577950e-09  3.17238140e-09  3.46940621e-09  3.32926965e-09  4.54464870e-01  3.32680849e-09  3.55379812e-09  1.53188739e-07  2.14707292e-08  5.60000000e-01 
 5.70000000e-01  3.34577944e-09  3.17238140e-09  3.46940621e-09  3.32926960e-09  4.54464867e-01  3.32680856e-09  3.55379812e-09  1.53188754e-07  2.14706972e-08  5.70000000e-01 
 5.80000000e-01  3.34577951e-09  3.17238140e-09  3.46940621e-09  3.32926960e-09  4.54464870e-01  3.32680855e-09  3.55379812e-09  1.53188726e-07  2.14705764e-08  5.80000000e-01 
 5.90000000e-01  3.34577943e-09  3.17238146e-09  3.46940621e-09  3.32926960e-09  4.54464863e-01  3.32680855e-09  3.55379806e-09  1.53188751e-07  2.14706191e-08  5.90000000e-01 
 6.00000000e-01  3.34577945e-09  3.17238140e-09  3.46940621e-09  3.32926960e-09  4.54464850e-01  3.32680855e-09  3.55379806e-09  1.53188695e-07  2.14704841e-08  6.00000000e-01 
 6.10000000e-01  3.34577950e-09  3.17238140e-09  3.46940621e-09  3.32926965e-09  4.54464860e-01  3.32680855e-09  3.55379806e-09  1.53188725e-07  2.14703348e-08  6.10000000e-01 
 6.20000000e-01  3.34577943e-09  3.17238146e-09  3.46940627e-09  3.32926960e-09  4.54464851e-01  3.32680855e-09  3.55379806e-09  1.53188730e-07  2.14704841e-08  6.20000000e-01 
 6.30000000e-01  3.34577945e-09  3.17238146e-09  3.46940625e-09  3.32926965e-09  4.54464846e-01  3.32680855e-09  3.55379806e-09  1.53188705e-07  2.14701785e-08  6.30000000e-01 
 6.40000000e-01  3.34577944e-09  3.17238140e-09  3.46940620e-09  3.32926960e-09  4.54464847e-01  3.32680855e-09  3.55379812e-09  1.53188723e-07  2.14703206e-08  6.40000000e-01 
 6.50000000e-01  3.34577944e-09  3.17238140e-09  3.46940622e-09  3.32926960e-09  4.54464852e-01  3.32680855e-09  3.55379812e-09  1.53188710e-07  2.14702283e-08  6.50000000e-01 
 6.60000000e-01  3.34577950e-09  3.17238146e-09  3.46940621e-09  3.32926966e-09  4.54464892e-01  3.32680855e-09  3.55379812e-09  1.53188780e-07  2.14701572e-08  6.60000000e-01 
 6.70000000e-01  3.34577943e-09  3.17238140e-09  3.46940621e-09  3.32926965e-09  4.54464863e-01  3.32680855e-09  3.55379806e-09  1.53188731e-07  2.14701004e-08  6.70000000e-01 
 6.80000000e-01  3.34577951e-09  3.17238140e-09  3.46940621e-09  3.32926960e-09  4.54464860e-01  3.32680855e-09  3.55379812e-09  1.53188726e-07  2.14700435e-08  6.80000000e-01 
 6.90000000e-01  3.34577949e-09  3.17238140e-09  3.46940621e-09  3.32926960e-09  4.54464874e-01  3.32680855e-09  3.55379806e-09  1.53188750e-07  2.14700222e-08  6.90000000e-01 
 7.00000000e-01  3.34577944e-09  3.17238140e-09  3.46940621e-09  3.32926960e-09  4.54464861e-01  3.32680855e-09  3.55379812e-09  1.53188729e-07  2.14699725e-08  7.00000000e-01 
 7.10000000e-01  3.34577951e-09  3.17238140e-09  3.46940621e-09  3.32926960e-09  4.54464871e-01  3.32680855e-09  3.55379812e-09  1.53188766e-07  2.14698943e-08  7.10000000e-01 
 7.20000000e-01  3.34577949e-09  3.17238140e-09  3.46940621e-09  3.32926965e-09  4.54464857e-01  3.32680855e-09  3.55379806e-09  1.53188736e-07  2.14697948e-08  7.20000000e-01 
 7.30000000e-01  3.34577950e-09  3.17238146e-09  3.46940627e-09  3.32926960e-09  4.54464885e-01  3.32680850e-09  3.55379806e-09  1.53188773e-07  2.14698446e-08  7.30000000e-01 
 7.40000000e-01  3.34577949e-09  3.17238146e-09  3.46940620e-09  3.32926960e-09  4.54464848e-01  3.32680851e-09  3.55379806e-09  1.53188706e-07  2.14697593e-08  7.40000000e-01 
 7.50000000e-01  3.34577944e-09  3.17238146e-09  3.46940622e-09  3.32926960e-09  4.54464884e-01  3.32680856e-09  3.55379806e-09  1.53188772e-07  2.14698233e-08  7.50000000e-01 
 7.60000000e-01  3.34577951e-09  3.17238140e-09  3.46940621e-09  3.32926966e-09  4.54464878e-01  3.32680855e-09  3.55379806e-09  1.53188756e-07  2.14697593e-08  7.60000000e-01 
 7.70000000e-01  3.34577949e-09  3.17238140e-09  3.46940627e-09  3.32926960e-09  4.54464871e-01  3.32680855e-09  3.55379812e-09  1.53188742e-07  2.14696882e-08  7.70000000e-01 
 7.80000000e-01  3.34577944e-09  3.17238146e-09  3.46940620e-09  3.32926960e-09  4.54464831e-01  3.32680855e-09  3.55379812e-09  1.53188697e-07  2.14695390e-08  7.80000000e-01 
 7.90000000e-01  3.34577951e-09  3.17238140e-09  3.46940622e-09  3.32926965e-09  4.54464872e-01  3.32680855e-09  3.55379806e-09  1.53188737e-07  2.14695035e-08  7.90000000e-01 
 8.00000000e-01  3.34577943e-09  3.17238140e-09  3.46940621e-09  3.32926960e-09  4.54464853e-01  3.32680849e-09  3.55379806e-09  1.53188716e-07  2.14693898e-08  8.00000000e-01 
 8.10000000e-01  3.34577945e-09  3.17238146e-09  3.46940621e-09  3.32926966e-09  4.54464887e-01  3.32680856e-09  3.55379806e-09  1.53188761e-07  2.14693188e-08  8.10000000e-01 
 8.20000000e-01  3.34577950e-09  3.17238146e-09  3.46940621e-09  3.32926965e-09  4.54464853e-01  3.32680854e-09  3.55379812e-09  1.53188712e-07  2.14692761e-08  8.20000000e-01 
 8.30000000e-01  3.34577943e-09  3.17238146e-09  3.46940621e-09  3.32926960e-09  4.54464858e-01  3.32680855e-09  3.55379806e-09  1.53188740e-07  2.14692619e-08  8.30000000e-01 
 8.40000000e-01  3.34577945e-09  3.17238146e-09  3.46940621e-09  3.32926960e-09  4.54464857e-01  3.32680849e-09  3.55379806e-09  1.53188729e-07  2.14691696e-08  8.40000000e-01 
 8.50000000e-01  3.34577950e-09  3.17238140e-09  3.46940621e-09  3.32926960e-09  4.54464875e-01  3.32680856e-09  3.55379806e-09  1.53188756e-07  2.14692193e-08  8.50000000e-01 
 8.60000000e-01  3.34577949e-09  3.17238140e-09  3.46940621e-09  3.32926960e-09  4.54464869e-01  3.32680855e-09  3.55379812e-09  1.53188736e-07  2.14690985e-08  8.60000000e-01 
 8.70000000e-01  3.34577949e-09  3.17238140e-09  3.46940621e-09  3.32926960e-09  4.54464867e-01  3.32680855e-09  3.55379812e-09  1.53188738e-07  2.14691624e-08  8.70000000e-01 
 8.80000000e-01  3.34577944e-09  3.17238141e-09  3.46940621e-09  3.32926966e-09  4.54464885e-01  3.32680855e-09  3.55379806e-09  1.53188769e-07  2.14691198e-08  8.80000000e-01 
 8.90000000e-01  3.34577951e-09  3.17238141e-09  3.46940627e-09  3.32926966e-09  4.54464882e-01  3.32680855e-09  3.55379812e-09  1.53188761e-07  2.14690701e-08  8.90000000e-01 
 9.00000000e-01  3.34577949e-09  3.17238140e-09  3.46940620e-09  3.32926960e-09  4.54464872e-01  3.32680855e-09  3.55379806e-09  1.53188743e-07  2.14689990e-08  9.00000000e-01 
 9.10000000e-01  3.34577944e-09  3.17238140e-09  3.46940622e-09  3.32926960e-09  4.54464868e-01  3.32680849e-09  3.55379812e-09  1.53188759e-07  2.14689635e-08  9.10000000e-01 
 9.20000000e-01  3.34577945e-09  3.17238140e-09  3.46940621e-09  3.32926960e-09  4.54464864e-01  3.32680856e-09  3.55379812e-09  1.53188740e-07  2.14688356e-08  9.20000000e-01 
 9.30000000e-01  3.34577944e-09  3.17238140e-09  3.46940621e-09  3.32926965e-09  4.54464851e-01  3.32680854e-09  3.55379812e-09  1.53188726e-07  2.14688782e-08  9.30000000e-01 
 9.40000000e-01  3.34577950e-09  3.17238140e-09  3.46940621e-09  3.32926965e-09  4.54464842e-01  3.32680855e-09  3.55379806e-09  1.53188707e-07  2.14686651e-08  9.40000000e-01 
 9.50000000e-01  3.34577949e-09  3.17238140e-09  3.46940621e-09  3.32926965e-09  4.54464870e-01  3.32680849e-09  3.55379812e-09  1.53188739e-07  2.14686509e-08  9.50000000e-01 
 9.60000000e-01  3.34577950e-09  3.17238140e-09  3.46940621e-09  3.32926960e-09  4.54464876e-01  3.32680856e-09  3.55379812e-09  1.53188759e-07  2.14687006e-08  9.60000000e-01 
 9.70000000e-01  3.34577944e-09  3.17238140e-09  3.46940621e-09  3.32926966e-09  4.54464877e-01  3.32680855e-09  3.55379806e-09  1.53188751e-07  2.14687503e-08  9.70000000e-01 
 9.80000000e-01  3.34577945e-09  3.17238140e-09  3.46940621e-09  3.32926966e-09  4.54464875e-01  3.32680855e-09  3.55379806e-09  1.53188753e-07  2.14685230e-08  9.80000000e-01 
 9.90000000e-01  3.34577950e-09  3.17238141e-09  3.46940621e-09  3.32926960e-09  4.54464890e-01  3.32680855e-09  3.55379806e-09  1.53188786e-07  2.14685301e-08  9.90000000e-01 
 1.00000000e+00  3.34577943e-09  3.17238140e-09  3.46940621e-09  3.32926960e-09  4.54464868e-01  3.32680855e-09  3.55379806e-09  1.53188745e-07  2.14684448e-08  1.00000000e+00 
 1.01000000e+00  3.34577945e-09  3.17238140e-09  3.46940621e-09  3.32926965e-09  4.54464857e-01  3.32680855e-09  3.55379806e-09  1.53188722e-07  2.14683524e-08  1.01000000e+00 
 1.02000000e+00  3.34577945e-09  3.17238141e-09  3.46940621e-09  3.32926960e-09  4.54464887e-01  3.32680855e-09  3.55379812e-09  1.53188765e-07  2.14682956e-08  1.02000000e+00 
 1.03000000e+00  3.34577944e-09  3.17238140e-09  3.46940621e-09  3.32926965e-09  4.54464865e-01  3.32680855e-09  3.55379812e-09  1.53188732e-07  2.14681677e-08  1.03000000e+00 
 1.04000000e+00  3.34577944e-09  3.17238140e-09  3.46940627e-09  3.32926960e-09  4.54464859e-01  3.32680855e-09  3.55379812e-09  1.53188743e-07  2.14682672e-08  1.04000000e+00 
 1.05000000e+00  3.34577944e-09  3.17238140e-09  3.46940620e-09  3.32926960e-09  4.54464869e-01  3.32680855e-09  3.55379812e-09  1.53188733e-07  2.14681393e-08  1.05000000e+00 
 1.06000000e+00  3.34577950e-09  3.17238146e-09  3.46940622e-09  3.32926965e-09  4.54464864e-01  3.32680855e-09  3.55379806e-09  1.53188736e-07  2.14680256e-08  1.06000000e+00 
 1.07000000e+00  3.34577949e-09  3.17238140e-09  3.46940621e-09  3.32926960e-09  4.54464869e-01  3.32680855e-09  3.55379812e-09  1.53188746e-07  2.14678906e-08  1.07000000e+00 
 1.08000000e+00  3.34577949e-09  3.17238146e-09  3.46940621e-09  3.32926960e-09  4.54464855e-01  3.32680855e-09  3.55379806e-09  1.53188717e-07  2.14679616e-08  1.08000000e+00 
 1.09000000e+00  3.34577949e-09  3.17238146e-09  3.46940621e-09  3.32926960e-09  4.54464860e-01  3.32680855e-09  3.55379812e-09  1.53188744e-07  2.14678408e-08  1.09000000e+00 
 1.10000000e+00  3.34577950e-09  3.17238140e-09  3.46940627e-09  3.32926965e-09  4.54464875e-01  3.32680855e-09  3.55379812e-09  1.53188741e-07  2.14679758e-08  1.10000000e+00 
