 v-sweep         v(b0)           v(b1)           v(b2)           v(b3)           v(b4)           v(b5)           v(b6)           i(vbias)        i(viout)        v(vout)        
 0.00000000e+00  3.31439705e-09  3.26149976e-09  4.56593001e-01  4.56593001e-01  4.56593001e-01  4.56593001e-01  3.18183053e-09  1.56792557e-07  9.19339632e-08  0.00000000e+00 
 1.00000000e-02  3.31439703e-09  3.26149979e-09  4.56592976e-01  4.56592976e-01  4.56592976e-01  4.56592976e-01  3.18183045e-09  1.56792522e-07  9.19335462e-08  1.00000000e-02 
 2.00000000e-02  3.31439703e-09  3.26149972e-09  4.56592981e-01  4.56592981e-01  4.56592981e-01  4.56592981e-01  3.18183050e-09  1.56792510e-07  9.19330332e-08  2.00000000e-02 
 3.00000000e-02  3.31439703e-09  3.26149974e-09  4.56592999e-01  4.56592999e-01  4.56592999e-01  4.56592999e-01  3.18183050e-09  1.56792531e-07  9.19327092e-08  3.00000000e-02 
 4.00000000e-02  3.31439703e-09  3.26149973e-09  4.56592996e-01  4.56592996e-01  4.56592996e-01  4.56592996e-01  3.18183045e-09  1.56792544e-07  9.19323577e-08  4.00000000e-02 
 5.00000000e-02  3.31439703e-09  3.26149979e-09  4.56593010e-01  4.56593010e-01  4.56593010e-01  4.56593010e-01  3.18183050e-09  1.56792573e-07  9.19320176e-08  5.00000000e-02 
 6.00000000e-02  3.31439708e-09  3.26149977e-09  4.56592975e-01  4.56592975e-01  4.56592975e-01  4.56592975e-01  3.18183050e-09  1.56792502e-07  9.19316836e-08  6.00000000e-02 
 7.00000000e-02  3.31439708e-09  3.26149972e-09  4.56592965e-01  4.56592965e-01  4.56592965e-01  4.56592965e-01  3.18183050e-09  1.56792481e-07  9.19313283e-08  7.00000000e-02 
 8.00000000e-02  3.31439703e-09  3.26149973e-09  4.56592955e-01  4.56592955e-01  4.56592955e-01  4.56592955e-01  3.18183050e-09  1.56792472e-07  9.19309624e-08  8.00000000e-02 
 9.00000000e-02  3.31439709e-09  3.26149979e-09  4.56593014e-01  4.56593014e-01  4.56593014e-01  4.56593014e-01  3.18183045e-09  1.56792571e-07  9.19308611e-08  9.00000000e-02 
 1.00000000e-01  3.31439703e-09  3.26149972e-09  4.56592970e-01  4.56592970e-01  4.56592970e-01  4.56592970e-01  3.18183050e-09  1.56792492e-07  9.19305592e-08  1.00000000e-01 
 1.10000000e-01  3.31439703e-09  3.26149974e-09  4.56592977e-01  4.56592977e-01  4.56592977e-01  4.56592977e-01  3.18183050e-09  1.56792500e-07  9.19302767e-08  1.10000000e-01 
 1.20000000e-01  3.31439709e-09  3.26149973e-09  4.56593005e-01  4.56593005e-01  4.56593005e-01  4.56593005e-01  3.18183050e-09  1.56792551e-07  9.19301772e-08  1.20000000e-01 
 1.30000000e-01  3.31439703e-09  3.26149973e-09  4.56592959e-01  4.56592959e-01  4.56592959e-01  4.56592959e-01  3.18183045e-09  1.56792468e-07  9.19296808e-08  1.30000000e-01 
 1.40000000e-01  3.31439708e-09  3.26149973e-09  4.56592986e-01  4.56592986e-01  4.56592986e-01  4.56592986e-01  3.18183045e-09  1.56792540e-07  9.19295724e-08  1.40000000e-01 
 1.50000000e-01  3.31439703e-09  3.26149973e-09  4.56593007e-01  4.56593007e-01  4.56593007e-01  4.56593008e-01  3.18183050e-09  1.56792546e-07  9.19293246e-08  1.50000000e-01 
 1.60000000e-01  3.31439703e-09  3.26149979e-09  4.56592984e-01  4.56592984e-01  4.56592984e-01  4.56592984e-01  3.18183050e-09  1.56792509e-07  9.19291914e-08  1.60000000e-01 
 1.70000000e-01  3.31439703e-09  3.26149977e-09  4.56592972e-01  4.56592972e-01  4.56592972e-01  4.56592972e-01  3.18183050e-09  1.56792492e-07  9.19289196e-08  1.70000000e-01 
 1.80000000e-01  3.31439703e-09  3.26149978e-09  4.56592983e-01  4.56592983e-01  4.56592983e-01  4.56592983e-01  3.18183045e-09  1.56792513e-07  9.19286638e-08  1.80000000e-01 
 1.90000000e-01  3.31439708e-09  3.26149972e-09  4.56592980e-01  4.56592980e-01  4.56592980e-01  4.56592980e-01  3.18183045e-09  1.56792499e-07  9.19285590e-08  1.90000000e-01 
 2.00000000e-01  3.31439703e-09  3.26149974e-09  4.56592990e-01  4.56592990e-01  4.56592990e-01  4.56592990e-01  3.18183050e-09  1.56792530e-07  9.19285004e-08  2.00000000e-01 
 2.10000000e-01  3.31439703e-09  3.26149979e-09  4.56592982e-01  4.56592982e-01  4.56592982e-01  4.56592982e-01  3.18183045e-09  1.56792527e-07  9.19282943e-08  2.10000000e-01 
 2.20000000e-01  3.31439703e-09  3.26149972e-09  4.56593004e-01  4.56593004e-01  4.56593004e-01  4.56593004e-01  3.18183045e-09  1.56792545e-07  9.19280492e-08  2.20000000e-01 
 2.30000000e-01  3.31439708e-09  3.26149980e-09  4.56592995e-01  4.56592995e-01  4.56592995e-01  4.56592995e-01  3.18183045e-09  1.56792539e-07  9.19279355e-08  2.30000000e-01 
 2.40000000e-01  3.31439703e-09  3.26149978e-09  4.56592994e-01  4.56592994e-01  4.56592994e-01  4.56592994e-01  3.18183045e-09  1.56792541e-07  9.19277472e-08  2.40000000e-01 
 2.50000000e-01  3.31439703e-09  3.26149973e-09  4.56593013e-01  4.56593013e-01  4.56593013e-01  4.56593013e-01  3.18183045e-09  1.56792564e-07  9.19277774e-08  2.50000000e-01 
 2.60000000e-01  3.31439703e-09  3.26149974e-09  4.56592980e-01  4.56592980e-01  4.56592980e-01  4.56592980e-01  3.18183045e-09  1.56792505e-07  9.19275074e-08  2.60000000e-01 
 2.70000000e-01  3.31439703e-09  3.26149973e-09  4.56592965e-01  4.56592965e-01  4.56592965e-01  4.56592965e-01  3.18183050e-09  1.56792478e-07  9.19272765e-08  2.70000000e-01 
 2.80000000e-01  3.31439703e-09  3.26149973e-09  4.56592979e-01  4.56592979e-01  4.56592979e-01  4.56592979e-01  3.18183045e-09  1.56792519e-07  9.19272267e-08  2.80000000e-01 
 2.90000000e-01  3.31439703e-09  3.26149973e-09  4.56592997e-01  4.56592997e-01  4.56592997e-01  4.56592997e-01  3.18183050e-09  1.56792530e-07  9.19271521e-08  2.90000000e-01 
 3.00000000e-01  3.31439703e-09  3.26149979e-09  4.56593006e-01  4.56593006e-01  4.56593006e-01  4.56593006e-01  3.18183045e-09  1.56792559e-07  9.19270349e-08  3.00000000e-01 
 3.10000000e-01  3.31439703e-09  3.26149977e-09  4.56592977e-01  4.56592977e-01  4.56592977e-01  4.56592977e-01  3.18183045e-09  1.56792511e-07  9.19268537e-08  3.10000000e-01 
 3.20000000e-01  3.31439708e-09  3.26149972e-09  4.56592968e-01  4.56592968e-01  4.56592968e-01  4.56592968e-01  3.18183045e-09  1.56792494e-07  9.19267826e-08  3.20000000e-01 
 3.30000000e-01  3.31439703e-09  3.26149974e-09  4.56592978e-01  4.56592978e-01  4.56592978e-01  4.56592978e-01  3.18183050e-09  1.56792510e-07  9.19266867e-08  3.30000000e-01 
 3.40000000e-01  3.31439703e-09  3.26149973e-09  4.56592987e-01  4.56592987e-01  4.56592987e-01  4.56592987e-01  3.18183050e-09  1.56792512e-07  9.19266441e-08  3.40000000e-01 
 3.50000000e-01  3.31439709e-09  3.26149979e-09  4.56593011e-01  4.56593011e-01  4.56593011e-01  4.56593011e-01  3.18183050e-09  1.56792563e-07  9.19265339e-08  3.50000000e-01 
 3.60000000e-01  3.31439703e-09  3.26149972e-09  4.56592981e-01  4.56592981e-01  4.56592981e-01  4.56592981e-01  3.18183050e-09  1.56792516e-07  9.19263705e-08  3.60000000e-01 
 3.70000000e-01  3.31439703e-09  3.26149973e-09  4.56592971e-01  4.56592971e-01  4.56592971e-01  4.56592971e-01  3.18183045e-09  1.56792502e-07  9.19262426e-08  3.70000000e-01 
 3.80000000e-01  3.31439703e-09  3.26149979e-09  4.56593002e-01  4.56593002e-01  4.56593002e-01  4.56593002e-01  3.18183045e-09  1.56792532e-07  9.19261893e-08  3.80000000e-01 
 3.90000000e-01  3.31439703e-09  3.26149972e-09  4.56593008e-01  4.56593008e-01  4.56593008e-01  4.56593008e-01  3.18183050e-09  1.56792566e-07  9.19261822e-08  3.90000000e-01 
 4.00000000e-01  3.31439703e-09  3.26149974e-09  4.56592978e-01  4.56592979e-01  4.56592979e-01  4.56592979e-01  3.18183045e-09  1.56792512e-07  9.19260081e-08  4.00000000e-01 
 4.10000000e-01  3.31439703e-09  3.26149973e-09  4.56593011e-01  4.56593011e-01  4.56593011e-01  4.56593011e-01  3.18183050e-09  1.56792559e-07  9.19261147e-08  4.10000000e-01 
 4.20000000e-01  3.31439703e-09  3.26149979e-09  4.56592972e-01  4.56592972e-01  4.56592972e-01  4.56592972e-01  3.18183050e-09  1.56792508e-07  9.19257666e-08  4.20000000e-01 
 4.30000000e-01  3.31439703e-09  3.26149972e-09  4.56592986e-01  4.56592986e-01  4.56592986e-01  4.56592986e-01  3.18183050e-09  1.56792526e-07  9.19256635e-08  4.30000000e-01 
 4.40000000e-01  3.31439703e-09  3.26149974e-09  4.56593000e-01  4.56593000e-01  4.56593000e-01  4.56593000e-01  3.18183050e-09  1.56792555e-07  9.19256848e-08  4.40000000e-01 
 4.50000000e-01  3.31439703e-09  3.26149979e-09  4.56593003e-01  4.56593003e-01  4.56593003e-01  4.56593003e-01  3.18183045e-09  1.56792553e-07  9.19256884e-08  4.50000000e-01 
 4.60000000e-01  3.31439703e-09  3.26149972e-09  4.56592962e-01  4.56592962e-01  4.56592962e-01  4.56592962e-01  3.18183050e-09  1.56792485e-07  9.19255250e-08  4.60000000e-01 
 4.70000000e-01  3.31439703e-09  3.26149974e-09  4.56592977e-01  4.56592977e-01  4.56592977e-01  4.56592977e-01  3.18183045e-09  1.56792505e-07  9.19254397e-08  4.70000000e-01 
 4.80000000e-01  3.31439703e-09  3.26149973e-09  4.56592994e-01  4.56592994e-01  4.56592994e-01  4.56592994e-01  3.18183045e-09  1.56792548e-07  9.19254184e-08  4.80000000e-01 
 4.90000000e-01  3.31439703e-09  3.26149979e-09  4.56592979e-01  4.56592979e-01  4.56592979e-01  4.56592979e-01  3.18183050e-09  1.56792512e-07  9.19252656e-08  4.90000000e-01 
 5.00000000e-01  3.31439703e-09  3.26149978e-09  4.56592986e-01  4.56592986e-01  4.56592986e-01  4.56592986e-01  3.18183050e-09  1.56792510e-07  9.19250382e-08  5.00000000e-01 
 5.10000000e-01  3.31439703e-09  3.26149973e-09  4.56593022e-01  4.56593022e-01  4.56593022e-01  4.56593022e-01  3.18183045e-09  1.56792572e-07  9.19251910e-08  5.10000000e-01 
 5.20000000e-01  3.31439703e-09  3.26149974e-09  4.56592990e-01  4.56592990e-01  4.56592990e-01  4.56592990e-01  3.18183045e-09  1.56792528e-07  9.19250667e-08  5.20000000e-01 
 5.30000000e-01  3.31439703e-09  3.26149973e-09  4.56592971e-01  4.56592971e-01  4.56592971e-01  4.56592971e-01  3.18183050e-09  1.56792491e-07  9.19248535e-08  5.30000000e-01 
 5.40000000e-01  3.31439703e-09  3.26149978e-09  4.56592955e-01  4.56592955e-01  4.56592955e-01  4.56592955e-01  3.18183050e-09  1.56792466e-07  9.19249601e-08  5.40000000e-01 
 5.50000000e-01  3.31439703e-09  3.26149972e-09  4.56592997e-01  4.56592997e-01  4.56592997e-01  4.56592997e-01  3.18183050e-09  1.56792540e-07  9.19248784e-08  5.50000000e-01 
 5.60000000e-01  3.31439703e-09  3.26149974e-09  4.56592978e-01  4.56592978e-01  4.56592978e-01  4.56592979e-01  3.18183050e-09  1.56792517e-07  9.19248038e-08  5.60000000e-01 
 5.70000000e-01  3.31439703e-09  3.26149973e-09  4.56592993e-01  4.56592993e-01  4.56592993e-01  4.56592993e-01  3.18183050e-09  1.56792520e-07  9.19247363e-08  5.70000000e-01 
 5.80000000e-01  3.31439703e-09  3.26149973e-09  4.56593003e-01  4.56593003e-01  4.56593003e-01  4.56593003e-01  3.18183050e-09  1.56792544e-07  9.19246403e-08  5.80000000e-01 
 5.90000000e-01  3.31439703e-09  3.26149979e-09  4.56592978e-01  4.56592978e-01  4.56592978e-01  4.56592978e-01  3.18183045e-09  1.56792511e-07  9.19245124e-08  5.90000000e-01 
 6.00000000e-01  3.31439703e-09  3.26149972e-09  4.56592982e-01  4.56592982e-01  4.56592982e-01  4.56592982e-01  3.18183050e-09  1.56792508e-07  9.19244627e-08  6.00000000e-01 
 6.10000000e-01  3.31439703e-09  3.26149974e-09  4.56592981e-01  4.56592981e-01  4.56592981e-01  4.56592981e-01  3.18183050e-09  1.56792519e-07  9.19243774e-08  6.10000000e-01 
 6.20000000e-01  3.31439703e-09  3.26149979e-09  4.56592983e-01  4.56592983e-01  4.56592983e-01  4.56592983e-01  3.18183045e-09  1.56792526e-07  9.19242993e-08  6.20000000e-01 
 6.30000000e-01  3.31439703e-09  3.26149972e-09  4.56592984e-01  4.56592984e-01  4.56592984e-01  4.56592984e-01  3.18183050e-09  1.56792531e-07  9.19242069e-08  6.30000000e-01 
 6.40000000e-01  3.31439703e-09  3.26149974e-09  4.56592993e-01  4.56592993e-01  4.56592993e-01  4.56592993e-01  3.18183050e-09  1.56792530e-07  9.19242069e-08  6.40000000e-01 
 6.50000000e-01  3.31439708e-09  3.26149979e-09  4.56592990e-01  4.56592990e-01  4.56592990e-01  4.56592990e-01  3.18183045e-09  1.56792513e-07  9.19242424e-08  6.50000000e-01 
 6.60000000e-01  3.31439703e-09  3.26149978e-09  4.56592995e-01  4.56592995e-01  4.56592995e-01  4.56592995e-01  3.18183045e-09  1.56792541e-07  9.19240435e-08  6.60000000e-01 
 6.70000000e-01  3.31439708e-09  3.26149978e-09  4.56592971e-01  4.56592971e-01  4.56592971e-01  4.56592971e-01  3.18183050e-09  1.56792505e-07  9.19240222e-08  6.70000000e-01 
 6.80000000e-01  3.31439703e-09  3.26149978e-09  4.56592963e-01  4.56592963e-01  4.56592963e-01  4.56592963e-01  3.18183045e-09  1.56792483e-07  9.19238303e-08  6.80000000e-01 
 6.90000000e-01  3.31439708e-09  3.26149978e-09  4.56592973e-01  4.56592973e-01  4.56592973e-01  4.56592973e-01  3.18183050e-09  1.56792494e-07  9.19238587e-08  6.90000000e-01 
 7.00000000e-01  3.31439703e-09  3.26149973e-09  4.56592990e-01  4.56592990e-01  4.56592990e-01  4.56592990e-01  3.18183050e-09  1.56792547e-07  9.19237380e-08  7.00000000e-01 
 7.10000000e-01  3.31439703e-09  3.26149974e-09  4.56592985e-01  4.56592985e-01  4.56592985e-01  4.56592985e-01  3.18183050e-09  1.56792539e-07  9.19236740e-08  7.10000000e-01 
 7.20000000e-01  3.31439703e-09  3.26149979e-09  4.56592980e-01  4.56592980e-01  4.56592980e-01  4.56592980e-01  3.18183045e-09  1.56792506e-07  9.19236243e-08  7.20000000e-01 
 7.30000000e-01  3.31439703e-09  3.26149971e-09  4.56592955e-01  4.56592955e-01  4.56592955e-01  4.56592955e-01  3.18183050e-09  1.56792470e-07  9.19235461e-08  7.30000000e-01 
 7.40000000e-01  3.31439708e-09  3.26149974e-09  4.56592985e-01  4.56592985e-01  4.56592985e-01  4.56592985e-01  3.18183045e-09  1.56792523e-07  9.19235532e-08  7.40000000e-01 
 7.50000000e-01  3.31439708e-09  3.26149979e-09  4.56592985e-01  4.56592985e-01  4.56592985e-01  4.56592985e-01  3.18183045e-09  1.56792532e-07  9.19233898e-08  7.50000000e-01 
 7.60000000e-01  3.31439703e-09  3.26149978e-09  4.56592992e-01  4.56592992e-01  4.56592992e-01  4.56592992e-01  3.18183045e-09  1.56792534e-07  9.19234608e-08  7.60000000e-01 
 7.70000000e-01  3.31439703e-09  3.26149972e-09  4.56592982e-01  4.56592982e-01  4.56592982e-01  4.56592982e-01  3.18183050e-09  1.56792520e-07  9.19232477e-08  7.70000000e-01 
 7.80000000e-01  3.31439703e-09  3.26149979e-09  4.56592983e-01  4.56592983e-01  4.56592983e-01  4.56592983e-01  3.18183045e-09  1.56792521e-07  9.19232477e-08  7.80000000e-01 
 7.90000000e-01  3.31439703e-09  3.26149978e-09  4.56592997e-01  4.56592997e-01  4.56592997e-01  4.56592998e-01  3.18183045e-09  1.56792546e-07  9.19231340e-08  7.90000000e-01 
 8.00000000e-01  3.31439703e-09  3.26149973e-09  4.56592989e-01  4.56592989e-01  4.56592989e-01  4.56592989e-01  3.18183045e-09  1.56792515e-07  9.19229848e-08  8.00000000e-01 
 8.10000000e-01  3.31439703e-09  3.26149974e-09  4.56592993e-01  4.56592993e-01  4.56592993e-01  4.56592993e-01  3.18183050e-09  1.56792535e-07  9.19229493e-08  8.10000000e-01 
 8.20000000e-01  3.31439703e-09  3.26149973e-09  4.56592982e-01  4.56592983e-01  4.56592983e-01  4.56592983e-01  3.18183045e-09  1.56792508e-07  9.19229919e-08  8.20000000e-01 
 8.30000000e-01  3.31439703e-09  3.26149973e-09  4.56592973e-01  4.56592973e-01  4.56592973e-01  4.56592973e-01  3.18183045e-09  1.56792500e-07  9.19227574e-08  8.30000000e-01 
 8.40000000e-01  3.31439703e-09  3.26149979e-09  4.56592977e-01  4.56592977e-01  4.56592977e-01  4.56592977e-01  3.18183050e-09  1.56792494e-07  9.19227574e-08  8.40000000e-01 
 8.50000000e-01  3.31439703e-09  3.26149972e-09  4.56592973e-01  4.56592973e-01  4.56592973e-01  4.56592973e-01  3.18183045e-09  1.56792503e-07  9.19226721e-08  8.50000000e-01 
 8.60000000e-01  3.31439708e-09  3.26149979e-09  4.56592977e-01  4.56592977e-01  4.56592977e-01  4.56592977e-01  3.18183050e-09  1.56792504e-07  9.19225940e-08  8.60000000e-01 
 8.70000000e-01  3.31439703e-09  3.26149978e-09  4.56592996e-01  4.56592996e-01  4.56592996e-01  4.56592996e-01  3.18183045e-09  1.56792542e-07  9.19224945e-08  8.70000000e-01 
 8.80000000e-01  3.31439703e-09  3.26149978e-09  4.56592968e-01  4.56592968e-01  4.56592968e-01  4.56592968e-01  3.18183050e-09  1.56792503e-07  9.19223879e-08  8.80000000e-01 
 8.90000000e-01  3.31439703e-09  3.26149972e-09  4.56592959e-01  4.56592959e-01  4.56592959e-01  4.56592959e-01  3.18183050e-09  1.56792481e-07  9.19223453e-08  8.90000000e-01 
 9.00000000e-01  3.31439703e-09  3.26149973e-09  4.56592964e-01  4.56592964e-01  4.56592964e-01  4.56592964e-01  3.18183050e-09  1.56792485e-07  9.19222245e-08  9.00000000e-01 
 9.10000000e-01  3.31439703e-09  3.26149973e-09  4.56592992e-01  4.56592992e-01  4.56592992e-01  4.56592992e-01  3.18183045e-09  1.56792506e-07  9.19221961e-08  9.10000000e-01 
 9.20000000e-01  3.31439703e-09  3.26149973e-09  4.56592987e-01  4.56592987e-01  4.56592987e-01  4.56592987e-01  3.18183050e-09  1.56792522e-07  9.19220824e-08  9.20000000e-01 
 9.30000000e-01  3.31439708e-09  3.26149973e-09  4.56592978e-01  4.56592978e-01  4.56592978e-01  4.56592978e-01  3.18183050e-09  1.56792514e-07  9.19221677e-08  9.30000000e-01 
 9.40000000e-01  3.31439703e-09  3.26149979e-09  4.56592991e-01  4.56592991e-01  4.56592991e-01  4.56592991e-01  3.18183050e-09  1.56792525e-07  9.19221108e-08  9.40000000e-01 
 9.50000000e-01  3.31439703e-09  3.26149972e-09  4.56592975e-01  4.56592975e-01  4.56592975e-01  4.56592975e-01  3.18183045e-09  1.56792508e-07  9.19218124e-08  9.50000000e-01 
 9.60000000e-01  3.31439703e-09  3.26149974e-09  4.56592987e-01  4.56592987e-01  4.56592987e-01  4.56592987e-01  3.18183045e-09  1.56792506e-07  9.19218621e-08  9.60000000e-01 
 9.70000000e-01  3.31439703e-09  3.26149973e-09  4.56593003e-01  4.56593004e-01  4.56593004e-01  4.56593004e-01  3.18183050e-09  1.56792552e-07  9.19218479e-08  9.70000000e-01 
 9.80000000e-01  3.31439703e-09  3.26149973e-09  4.56592983e-01  4.56592983e-01  4.56592983e-01  4.56592983e-01  3.18183045e-09  1.56792519e-07  9.19217626e-08  9.80000000e-01 
 9.90000000e-01  3.31439703e-09  3.26149973e-09  4.56593013e-01  4.56593013e-01  4.56593013e-01  4.56593013e-01  3.18183050e-09  1.56792553e-07  9.19217200e-08  9.90000000e-01 
 1.00000000e+00  3.31439708e-09  3.26149973e-09  4.56592966e-01  4.56592966e-01  4.56592966e-01  4.56592966e-01  3.18183050e-09  1.56792495e-07  9.19215282e-08  1.00000000e+00 
 1.01000000e+00  3.31439703e-09  3.26149973e-09  4.56592993e-01  4.56592993e-01  4.56592993e-01  4.56592993e-01  3.18183045e-09  1.56792526e-07  9.19214429e-08  1.01000000e+00 
 1.02000000e+00  3.31439703e-09  3.26149973e-09  4.56592987e-01  4.56592987e-01  4.56592987e-01  4.56592987e-01  3.18183045e-09  1.56792528e-07  9.19213434e-08  1.02000000e+00 
 1.03000000e+00  3.31439703e-09  3.26149979e-09  4.56592975e-01  4.56592975e-01  4.56592975e-01  4.56592975e-01  3.18183050e-09  1.56792501e-07  9.19212724e-08  1.03000000e+00 
 1.04000000e+00  3.31439703e-09  3.26149972e-09  4.56592978e-01  4.56592978e-01  4.56592978e-01  4.56592978e-01  3.18183045e-09  1.56792507e-07  9.19211089e-08  1.04000000e+00 
 1.05000000e+00  3.31439703e-09  3.26149974e-09  4.56593000e-01  4.56593000e-01  4.56593000e-01  4.56593000e-01  3.18183050e-09  1.56792543e-07  9.19211089e-08  1.05000000e+00 
 1.06000000e+00  3.31439703e-09  3.26149973e-09  4.56592964e-01  4.56592964e-01  4.56592964e-01  4.56592964e-01  3.18183045e-09  1.56792495e-07  9.19211303e-08  1.06000000e+00 
 1.07000000e+00  3.31439708e-09  3.26149979e-09  4.56592993e-01  4.56592993e-01  4.56592993e-01  4.56592993e-01  3.18183045e-09  1.56792537e-07  9.19209455e-08  1.07000000e+00 
 1.08000000e+00  3.31439703e-09  3.26149972e-09  4.56592978e-01  4.56592979e-01  4.56592979e-01  4.56592979e-01  3.18183050e-09  1.56792519e-07  9.19209384e-08  1.08000000e+00 
 1.09000000e+00  3.31439703e-09  3.26149973e-09  4.56592962e-01  4.56592962e-01  4.56592962e-01  4.56592962e-01  3.18183050e-09  1.56792482e-07  9.19208105e-08  1.09000000e+00 
 1.10000000e+00  3.31439708e-09  3.26149973e-09  4.56592981e-01  4.56592981e-01  4.56592981e-01  4.56592981e-01  3.18183050e-09  1.56792516e-07  9.19208034e-08  1.10000000e+00 
