 v-sweep         v(b0)           v(b1)           v(b2)           v(b3)           v(b4)           v(b5)           v(b6)           i(vbias)        i(viout)        v(vout)        
 0.00000000e+00  3.33798928e-09  3.19106603e-09  3.67233169e-09  3.24660845e-09  4.58970985e-01  3.18809688e-09  4.58970985e-01  1.60345413e-07  1.19586696e-07  0.00000000e+00 
 1.00000000e-02  3.33798925e-09  3.19106601e-09  3.67233173e-09  3.24660850e-09  4.58970985e-01  3.18809691e-09  4.58970985e-01  1.60345437e-07  1.19586322e-07  1.00000000e-02 
 2.00000000e-02  3.33798921e-09  3.19106607e-09  3.67233173e-09  3.24660850e-09  4.58970991e-01  3.18809692e-09  4.58970992e-01  1.60345430e-07  1.19585885e-07  2.00000000e-02 
 3.00000000e-02  3.33798926e-09  3.19106601e-09  3.67233173e-09  3.24660850e-09  4.58970987e-01  3.18809686e-09  4.58970987e-01  1.60345425e-07  1.19585559e-07  3.00000000e-02 
 4.00000000e-02  3.33798926e-09  3.19106601e-09  3.67233167e-09  3.24660850e-09  4.58970982e-01  3.18809686e-09  4.58970982e-01  1.60345406e-07  1.19585161e-07  4.00000000e-02 
 5.00000000e-02  3.33798926e-09  3.19106607e-09  3.67233167e-09  3.24660850e-09  4.58970992e-01  3.18809692e-09  4.58970992e-01  1.60345432e-07  1.19584836e-07  5.00000000e-02 
 6.00000000e-02  3.33798926e-09  3.19106601e-09  3.67233173e-09  3.24660850e-09  4.58970993e-01  3.18809692e-09  4.58970993e-01  1.60345432e-07  1.19584600e-07  6.00000000e-02 
 7.00000000e-02  3.33798926e-09  3.19106607e-09  3.67233167e-09  3.24660850e-09  4.58970985e-01  3.18809691e-09  4.58970985e-01  1.60345416e-07  1.19584111e-07  7.00000000e-02 
 8.00000000e-02  3.33798926e-09  3.19106607e-09  3.67233173e-09  3.24660850e-09  4.58970983e-01  3.18809686e-09  4.58970983e-01  1.60345426e-07  1.19583955e-07  8.00000000e-02 
 9.00000000e-02  3.33798926e-09  3.19106607e-09  3.67233167e-09  3.24660850e-09  4.58971002e-01  3.18809686e-09  4.58971002e-01  1.60345434e-07  1.19583418e-07  9.00000000e-02 
 1.00000000e-01  3.33798920e-09  3.19106607e-09  3.67233167e-09  3.24660850e-09  4.58970986e-01  3.18809691e-09  4.58970986e-01  1.60345422e-07  1.19583232e-07  1.00000000e-01 
 1.10000000e-01  3.33798920e-09  3.19106601e-09  3.67233173e-09  3.24660850e-09  4.58970992e-01  3.18809692e-09  4.58970992e-01  1.60345438e-07  1.19582891e-07  1.10000000e-01 
 1.20000000e-01  3.33798926e-09  3.19106606e-09  3.67233172e-09  3.24660850e-09  4.58970968e-01  3.18809691e-09  4.58970969e-01  1.60345392e-07  1.19582715e-07  1.20000000e-01 
 1.30000000e-01  3.33798926e-09  3.19106601e-09  3.67233167e-09  3.24660850e-09  4.58970983e-01  3.18809686e-09  4.58970983e-01  1.60345417e-07  1.19582398e-07  1.30000000e-01 
 1.40000000e-01  3.33798926e-09  3.19106606e-09  3.67233172e-09  3.24660850e-09  4.58970976e-01  3.18809686e-09  4.58970976e-01  1.60345401e-07  1.19582165e-07  1.40000000e-01 
 1.50000000e-01  3.33798926e-09  3.19106601e-09  3.67233167e-09  3.24660850e-09  4.58970980e-01  3.18809691e-09  4.58970980e-01  1.60345410e-07  1.19581998e-07  1.50000000e-01 
 1.60000000e-01  3.33798926e-09  3.19106606e-09  3.67233167e-09  3.24660850e-09  4.58970976e-01  3.18809686e-09  4.58970976e-01  1.60345395e-07  1.19581816e-07  1.60000000e-01 
 1.70000000e-01  3.33798926e-09  3.19106601e-09  3.67233173e-09  3.24660850e-09  4.58970989e-01  3.18809686e-09  4.58970990e-01  1.60345426e-07  1.19581669e-07  1.70000000e-01 
 1.80000000e-01  3.33798920e-09  3.19106607e-09  3.67233173e-09  3.24660850e-09  4.58970983e-01  3.18809691e-09  4.58970983e-01  1.60345411e-07  1.19581367e-07  1.80000000e-01 
 1.90000000e-01  3.33798920e-09  3.19106601e-09  3.67233173e-09  3.24660850e-09  4.58970981e-01  3.18809691e-09  4.58970981e-01  1.60345418e-07  1.19581268e-07  1.90000000e-01 
 2.00000000e-01  3.33798920e-09  3.19106607e-09  3.67233173e-09  3.24660850e-09  4.58970985e-01  3.18809686e-09  4.58970985e-01  1.60345424e-07  1.19580994e-07  2.00000000e-01 
 2.10000000e-01  3.33798926e-09  3.19106607e-09  3.67233167e-09  3.24660850e-09  4.58970979e-01  3.18809686e-09  4.58970979e-01  1.60345414e-07  1.19580731e-07  2.10000000e-01 
 2.20000000e-01  3.33798926e-09  3.19106607e-09  3.67233172e-09  3.24660850e-09  4.58970978e-01  3.18809691e-09  4.58970978e-01  1.60345411e-07  1.19580680e-07  2.20000000e-01 
 2.30000000e-01  3.33798926e-09  3.19106601e-09  3.67233173e-09  3.24660850e-09  4.58970981e-01  3.18809691e-09  4.58970981e-01  1.60345428e-07  1.19580450e-07  2.30000000e-01 
 2.40000000e-01  3.33798926e-09  3.19106601e-09  3.67233167e-09  3.24660850e-09  4.58970986e-01  3.18809686e-09  4.58970986e-01  1.60345413e-07  1.19580429e-07  2.40000000e-01 
 2.50000000e-01  3.33798920e-09  3.19106601e-09  3.67233173e-09  3.24660850e-09  4.58970995e-01  3.18809692e-09  4.58970995e-01  1.60345431e-07  1.19580239e-07  2.50000000e-01 
 2.60000000e-01  3.33798926e-09  3.19106601e-09  3.67233167e-09  3.24660850e-09  4.58970967e-01  3.18809691e-09  4.58970967e-01  1.60345391e-07  1.19579974e-07  2.60000000e-01 
 2.70000000e-01  3.33798920e-09  3.19106607e-09  3.67233167e-09  3.24660850e-09  4.58970994e-01  3.18809686e-09  4.58970994e-01  1.60345425e-07  1.19579903e-07  2.70000000e-01 
 2.80000000e-01  3.33798926e-09  3.19106601e-09  3.67233167e-09  3.24660850e-09  4.58970980e-01  3.18809686e-09  4.58970981e-01  1.60345420e-07  1.19579708e-07  2.80000000e-01 
 2.90000000e-01  3.33798920e-09  3.19106607e-09  3.67233173e-09  3.24660850e-09  4.58970993e-01  3.18809692e-09  4.58970993e-01  1.60345436e-07  1.19579642e-07  2.90000000e-01 
 3.00000000e-01  3.33798926e-09  3.19106601e-09  3.67233167e-09  3.24660850e-09  4.58970981e-01  3.18809691e-09  4.58970982e-01  1.60345418e-07  1.19579468e-07  3.00000000e-01 
 3.10000000e-01  3.33798926e-09  3.19106601e-09  3.67233167e-09  3.24660850e-09  4.58970986e-01  3.18809691e-09  4.58970986e-01  1.60345411e-07  1.19579386e-07  3.10000000e-01 
 3.20000000e-01  3.33798926e-09  3.19106601e-09  3.67233173e-09  3.24660850e-09  4.58970995e-01  3.18809692e-09  4.58970995e-01  1.60345426e-07  1.19579358e-07  3.20000000e-01 
 3.30000000e-01  3.33798926e-09  3.19106601e-09  3.67233167e-09  3.24660850e-09  4.58970976e-01  3.18809691e-09  4.58970976e-01  1.60345415e-07  1.19579042e-07  3.30000000e-01 
 3.40000000e-01  3.33798926e-09  3.19106601e-09  3.67233173e-09  3.24660850e-09  4.58970979e-01  3.18809686e-09  4.58970980e-01  1.60345397e-07  1.19579102e-07  3.40000000e-01 
 3.50000000e-01  3.33798926e-09  3.19106607e-09  3.67233173e-09  3.24660850e-09  4.58970992e-01  3.18809686e-09  4.58970993e-01  1.60345434e-07  1.19579035e-07  3.50000000e-01 
 3.60000000e-01  3.33798920e-09  3.19106607e-09  3.67233172e-09  3.24660850e-09  4.58970977e-01  3.18809691e-09  4.58970977e-01  1.60345397e-07  1.19578853e-07  3.60000000e-01 
 3.70000000e-01  3.33798926e-09  3.19106606e-09  3.67233172e-09  3.24660850e-09  4.58970971e-01  3.18809686e-09  4.58970971e-01  1.60345397e-07  1.19578623e-07  3.70000000e-01 
 3.80000000e-01  3.33798926e-09  3.19106607e-09  3.67233173e-09  3.24660850e-09  4.58970998e-01  3.18809686e-09  4.58970998e-01  1.60345419e-07  1.19578651e-07  3.80000000e-01 
 3.90000000e-01  3.33798926e-09  3.19106601e-09  3.67233167e-09  3.24660850e-09  4.58970975e-01  3.18809686e-09  4.58970975e-01  1.60345392e-07  1.19578413e-07  3.90000000e-01 
 4.00000000e-01  3.33798926e-09  3.19106607e-09  3.67233173e-09  3.24660850e-09  4.58970985e-01  3.18809686e-09  4.58970985e-01  1.60345406e-07  1.19578313e-07  4.00000000e-01 
 4.10000000e-01  3.33798926e-09  3.19106601e-09  3.67233173e-09  3.24660850e-09  4.58970981e-01  3.18809686e-09  4.58970981e-01  1.60345408e-07  1.19578239e-07  4.10000000e-01 
 4.20000000e-01  3.33798926e-09  3.19106607e-09  3.67233167e-09  3.24660850e-09  4.58970984e-01  3.18809686e-09  4.58970984e-01  1.60345410e-07  1.19578281e-07  4.20000000e-01 
 4.30000000e-01  3.33798920e-09  3.19106607e-09  3.67233173e-09  3.24660850e-09  4.58970989e-01  3.18809686e-09  4.58970989e-01  1.60345425e-07  1.19578129e-07  4.30000000e-01 
 4.40000000e-01  3.33798920e-09  3.19106601e-09  3.67233172e-09  3.24660850e-09  4.58970976e-01  3.18809691e-09  4.58970977e-01  1.60345411e-07  1.19577859e-07  4.40000000e-01 
 4.50000000e-01  3.33798926e-09  3.19106607e-09  3.67233167e-09  3.24660850e-09  4.58970991e-01  3.18809692e-09  4.58970991e-01  1.60345419e-07  1.19577880e-07  4.50000000e-01 
 4.60000000e-01  3.33798926e-09  3.19106601e-09  3.67233173e-09  3.24660850e-09  4.58970984e-01  3.18809691e-09  4.58970984e-01  1.60345411e-07  1.19577823e-07  4.60000000e-01 
 4.70000000e-01  3.33798926e-09  3.19106601e-09  3.67233173e-09  3.24660850e-09  4.58970995e-01  3.18809686e-09  4.58970995e-01  1.60345440e-07  1.19577717e-07  4.70000000e-01 
 4.80000000e-01  3.33798926e-09  3.19106606e-09  3.67233172e-09  3.24660850e-09  4.58970954e-01  3.18809691e-09  4.58970954e-01  1.60345363e-07  1.19577592e-07  4.80000000e-01 
 4.90000000e-01  3.33798926e-09  3.19106601e-09  3.67233173e-09  3.24660850e-09  4.58970995e-01  3.18809692e-09  4.58970996e-01  1.60345437e-07  1.19577532e-07  4.90000000e-01 
 5.00000000e-01  3.33798926e-09  3.19106601e-09  3.67233173e-09  3.24660850e-09  4.58970984e-01  3.18809691e-09  4.58970985e-01  1.60345419e-07  1.19577475e-07  5.00000000e-01 
 5.10000000e-01  3.33798920e-09  3.19106607e-09  3.67233167e-09  3.24660850e-09  4.58970992e-01  3.18809686e-09  4.58970992e-01  1.60345423e-07  1.19577475e-07  5.10000000e-01 
 5.20000000e-01  3.33798926e-09  3.19106607e-09  3.67233173e-09  3.24660850e-09  4.58970994e-01  3.18809686e-09  4.58970994e-01  1.60345433e-07  1.19577209e-07  5.20000000e-01 
 5.30000000e-01  3.33798920e-09  3.19106601e-09  3.67233167e-09  3.24660850e-09  4.58970972e-01  3.18809686e-09  4.58970972e-01  1.60345407e-07  1.19577216e-07  5.30000000e-01 
 5.40000000e-01  3.33798926e-09  3.19106601e-09  3.67233173e-09  3.24660850e-09  4.58970989e-01  3.18809691e-09  4.58970989e-01  1.60345435e-07  1.19577177e-07  5.40000000e-01 
 5.50000000e-01  3.33798926e-09  3.19106601e-09  3.67233167e-09  3.24660850e-09  4.58970994e-01  3.18809686e-09  4.58970994e-01  1.60345422e-07  1.19577120e-07  5.50000000e-01 
 5.60000000e-01  3.33798920e-09  3.19106606e-09  3.67233167e-09  3.24660850e-09  4.58970973e-01  3.18809691e-09  4.58970973e-01  1.60345397e-07  1.19576921e-07  5.60000000e-01 
 5.70000000e-01  3.33798920e-09  3.19106607e-09  3.67233173e-09  3.24660850e-09  4.58970983e-01  3.18809691e-09  4.58970983e-01  1.60345413e-07  1.19576899e-07  5.70000000e-01 
 5.80000000e-01  3.33798920e-09  3.19106601e-09  3.67233167e-09  3.24660850e-09  4.58970988e-01  3.18809686e-09  4.58970988e-01  1.60345421e-07  1.19576860e-07  5.80000000e-01 
 5.90000000e-01  3.33798926e-09  3.19106607e-09  3.67233173e-09  3.24660850e-09  4.58970986e-01  3.18809686e-09  4.58970986e-01  1.60345418e-07  1.19576733e-07  5.90000000e-01 
 6.00000000e-01  3.33798926e-09  3.19106606e-09  3.67233172e-09  3.24660850e-09  4.58970970e-01  3.18809691e-09  4.58970970e-01  1.60345399e-07  1.19576526e-07  6.00000000e-01 
 6.10000000e-01  3.33798926e-09  3.19106607e-09  3.67233167e-09  3.24660850e-09  4.58970987e-01  3.18809691e-09  4.58970987e-01  1.60345432e-07  1.19576612e-07  6.10000000e-01 
 6.20000000e-01  3.33798926e-09  3.19106607e-09  3.67233173e-09  3.24660850e-09  4.58970990e-01  3.18809692e-09  4.58970990e-01  1.60345418e-07  1.19576427e-07  6.20000000e-01 
 6.30000000e-01  3.33798926e-09  3.19106606e-09  3.67233172e-09  3.24660850e-09  4.58970956e-01  3.18809691e-09  4.58970956e-01  1.60345369e-07  1.19576228e-07  6.30000000e-01 
 6.40000000e-01  3.33798926e-09  3.19106601e-09  3.67233172e-09  3.24660850e-09  4.58970970e-01  3.18809691e-09  4.58970970e-01  1.60345395e-07  1.19576363e-07  6.40000000e-01 
 6.50000000e-01  3.33798920e-09  3.19106601e-09  3.67233173e-09  3.24660850e-09  4.58970979e-01  3.18809691e-09  4.58970980e-01  1.60345406e-07  1.19576242e-07  6.50000000e-01 
 6.60000000e-01  3.33798926e-09  3.19106606e-09  3.67233167e-09  3.24660850e-09  4.58970968e-01  3.18809691e-09  4.58970968e-01  1.60345406e-07  1.19576065e-07  6.60000000e-01 
 6.70000000e-01  3.33798926e-09  3.19106606e-09  3.67233172e-09  3.24660850e-09  4.58970969e-01  3.18809686e-09  4.58970969e-01  1.60345392e-07  1.19575965e-07  6.70000000e-01 
 6.80000000e-01  3.33798926e-09  3.19106607e-09  3.67233173e-09  3.24660850e-09  4.58970986e-01  3.18809686e-09  4.58970986e-01  1.60345412e-07  1.19575887e-07  6.80000000e-01 
 6.90000000e-01  3.33798926e-09  3.19106606e-09  3.67233172e-09  3.24660850e-09  4.58970964e-01  3.18809691e-09  4.58970964e-01  1.60345382e-07  1.19575787e-07  6.90000000e-01 
 7.00000000e-01  3.33798926e-09  3.19106606e-09  3.67233167e-09  3.24660850e-09  4.58970974e-01  3.18809686e-09  4.58970974e-01  1.60345400e-07  1.19575759e-07  7.00000000e-01 
 7.10000000e-01  3.33798920e-09  3.19106606e-09  3.67233167e-09  3.24660850e-09  4.58970971e-01  3.18809691e-09  4.58970971e-01  1.60345397e-07  1.19575645e-07  7.10000000e-01 
 7.20000000e-01  3.33798926e-09  3.19106601e-09  3.67233167e-09  3.24660850e-09  4.58970983e-01  3.18809691e-09  4.58970983e-01  1.60345401e-07  1.19575574e-07  7.20000000e-01 
 7.30000000e-01  3.33798920e-09  3.19106606e-09  3.67233167e-09  3.24660850e-09  4.58970974e-01  3.18809691e-09  4.58970974e-01  1.60345386e-07  1.19575439e-07  7.30000000e-01 
 7.40000000e-01  3.33798920e-09  3.19106607e-09  3.67233167e-09  3.24660850e-09  4.58970994e-01  3.18809692e-09  4.58970994e-01  1.60345421e-07  1.19575496e-07  7.40000000e-01 
 7.50000000e-01  3.33798926e-09  3.19106601e-09  3.67233173e-09  3.24660850e-09  4.58970983e-01  3.18809686e-09  4.58970983e-01  1.60345421e-07  1.19575411e-07  7.50000000e-01 
 7.60000000e-01  3.33798926e-09  3.19106606e-09  3.67233167e-09  3.24660850e-09  4.58970961e-01  3.18809691e-09  4.58970961e-01  1.60345379e-07  1.19575255e-07  7.60000000e-01 
 7.70000000e-01  3.33798926e-09  3.19106601e-09  3.67233167e-09  3.24660850e-09  4.58970981e-01  3.18809691e-09  4.58970981e-01  1.60345405e-07  1.19575184e-07  7.70000000e-01 
 7.80000000e-01  3.33798926e-09  3.19106601e-09  3.67233173e-09  3.24660855e-09  4.58970979e-01  3.18809686e-09  4.58970979e-01  1.60345415e-07  1.19575127e-07  7.80000000e-01 
 7.90000000e-01  3.33798926e-09  3.19106601e-09  3.67233167e-09  3.24660854e-09  4.58971001e-01  3.18809692e-09  4.58971001e-01  1.60345448e-07  1.19575034e-07  7.90000000e-01 
 8.00000000e-01  3.33798926e-09  3.19106601e-09  3.67233172e-09  3.24660849e-09  4.58970954e-01  3.18809691e-09  4.58970954e-01  1.60345370e-07  1.19574821e-07  8.00000000e-01 
 8.10000000e-01  3.33798926e-09  3.19106607e-09  3.67233173e-09  3.24660850e-09  4.58970981e-01  3.18809686e-09  4.58970981e-01  1.60345425e-07  1.19574814e-07  8.10000000e-01 
 8.20000000e-01  3.33798926e-09  3.19106601e-09  3.67233167e-09  3.24660850e-09  4.58970995e-01  3.18809686e-09  4.58970996e-01  1.60345431e-07  1.19574764e-07  8.20000000e-01 
 8.30000000e-01  3.33798920e-09  3.19106601e-09  3.67233167e-09  3.24660850e-09  4.58970979e-01  3.18809686e-09  4.58970979e-01  1.60345410e-07  1.19574679e-07  8.30000000e-01 
 8.40000000e-01  3.33798920e-09  3.19106601e-09  3.67233167e-09  3.24660850e-09  4.58970963e-01  3.18809691e-09  4.58970963e-01  1.60345375e-07  1.19574558e-07  8.40000000e-01 
 8.50000000e-01  3.33798920e-09  3.19106601e-09  3.67233172e-09  3.24660850e-09  4.58970977e-01  3.18809691e-09  4.58970977e-01  1.60345406e-07  1.19574501e-07  8.50000000e-01 
 8.60000000e-01  3.33798926e-09  3.19106606e-09  3.67233172e-09  3.24660850e-09  4.58970976e-01  3.18809691e-09  4.58970976e-01  1.60345412e-07  1.19574423e-07  8.60000000e-01 
 8.70000000e-01  3.33798926e-09  3.19106601e-09  3.67233167e-09  3.24660850e-09  4.58970975e-01  3.18809686e-09  4.58970975e-01  1.60345405e-07  1.19574288e-07  8.70000000e-01 
 8.80000000e-01  3.33798926e-09  3.19106601e-09  3.67233167e-09  3.24660850e-09  4.58970981e-01  3.18809691e-09  4.58970982e-01  1.60345415e-07  1.19574175e-07  8.80000000e-01 
 8.90000000e-01  3.33798920e-09  3.19106601e-09  3.67233167e-09  3.24660850e-09  4.58970982e-01  3.18809691e-09  4.58970982e-01  1.60345405e-07  1.19574231e-07  8.90000000e-01 
 9.00000000e-01  3.33798926e-09  3.19106607e-09  3.67233173e-09  3.24660850e-09  4.58970986e-01  3.18809686e-09  4.58970986e-01  1.60345430e-07  1.19574082e-07  9.00000000e-01 
 9.10000000e-01  3.33798926e-09  3.19106601e-09  3.67233167e-09  3.24660850e-09  4.58970980e-01  3.18809686e-09  4.58970980e-01  1.60345410e-07  1.19573869e-07  9.10000000e-01 
 9.20000000e-01  3.33798926e-09  3.19106601e-09  3.67233173e-09  3.24660850e-09  4.58970982e-01  3.18809691e-09  4.58970983e-01  1.60345427e-07  1.19573862e-07  9.20000000e-01 
 9.30000000e-01  3.33798926e-09  3.19106601e-09  3.67233172e-09  3.24660850e-09  4.58970964e-01  3.18809691e-09  4.58970965e-01  1.60345393e-07  1.19573748e-07  9.30000000e-01 
 9.40000000e-01  3.33798926e-09  3.19106601e-09  3.67233172e-09  3.24660850e-09  4.58970974e-01  3.18809686e-09  4.58970974e-01  1.60345405e-07  1.19573706e-07  9.40000000e-01 
 9.50000000e-01  3.33798926e-09  3.19106601e-09  3.67233173e-09  3.24660850e-09  4.58970996e-01  3.18809686e-09  4.58970996e-01  1.60345445e-07  1.19573691e-07  9.50000000e-01 
 9.60000000e-01  3.33798920e-09  3.19106607e-09  3.67233173e-09  3.24660850e-09  4.58970984e-01  3.18809686e-09  4.58970984e-01  1.60345418e-07  1.19573421e-07  9.60000000e-01 
 9.70000000e-01  3.33798926e-09  3.19106601e-09  3.67233172e-09  3.24660850e-09  4.58970967e-01  3.18809691e-09  4.58970968e-01  1.60345384e-07  1.19573350e-07  9.70000000e-01 
 9.80000000e-01  3.33798926e-09  3.19106606e-09  3.67233167e-09  3.24660850e-09  4.58970969e-01  3.18809686e-09  4.58970969e-01  1.60345398e-07  1.19573357e-07  9.80000000e-01 
 9.90000000e-01  3.33798920e-09  3.19106601e-09  3.67233167e-09  3.24660850e-09  4.58970968e-01  3.18809691e-09  4.58970968e-01  1.60345381e-07  1.19573251e-07  9.90000000e-01 
 1.00000000e+00  3.33798926e-09  3.19106607e-09  3.67233173e-09  3.24660850e-09  4.58970989e-01  3.18809686e-09  4.58970989e-01  1.60345417e-07  1.19573180e-07  1.00000000e+00 
 1.01000000e+00  3.33798926e-09  3.19106606e-09  3.67233172e-09  3.24660850e-09  4.58970973e-01  3.18809691e-09  4.58970973e-01  1.60345394e-07  1.19573031e-07  1.01000000e+00 
 1.02000000e+00  3.33798920e-09  3.19106606e-09  3.67233167e-09  3.24660850e-09  4.58970962e-01  3.18809691e-09  4.58970963e-01  1.60345398e-07  1.19572825e-07  1.02000000e+00 
 1.03000000e+00  3.33798920e-09  3.19106601e-09  3.67233167e-09  3.24660850e-09  4.58970965e-01  3.18809691e-09  4.58970965e-01  1.60345389e-07  1.19572832e-07  1.03000000e+00 
 1.04000000e+00  3.33798920e-09  3.19106607e-09  3.67233167e-09  3.24660850e-09  4.58970979e-01  3.18809691e-09  4.58970979e-01  1.60345406e-07  1.19572789e-07  1.04000000e+00 
 1.05000000e+00  3.33798926e-09  3.19106606e-09  3.67233167e-09  3.24660850e-09  4.58970976e-01  3.18809691e-09  4.58970976e-01  1.60345408e-07  1.19572569e-07  1.05000000e+00 
 1.06000000e+00  3.33798920e-09  3.19106601e-09  3.67233172e-09  3.24660850e-09  4.58970976e-01  3.18809691e-09  4.58970976e-01  1.60345404e-07  1.19572412e-07  1.06000000e+00 
 1.07000000e+00  3.33798920e-09  3.19106601e-09  3.67233167e-09  3.24660850e-09  4.58970968e-01  3.18809691e-09  4.58970969e-01  1.60345391e-07  1.19572405e-07  1.07000000e+00 
 1.08000000e+00  3.33798926e-09  3.19106606e-09  3.67233172e-09  3.24660850e-09  4.58970968e-01  3.18809691e-09  4.58970968e-01  1.60345391e-07  1.19572206e-07  1.08000000e+00 
 1.09000000e+00  3.33798926e-09  3.19106601e-09  3.67233173e-09  3.24660850e-09  4.58970989e-01  3.18809686e-09  4.58970989e-01  1.60345420e-07  1.19572292e-07  1.09000000e+00 
 1.10000000e+00  3.33798926e-09  3.19106607e-09  3.67233167e-09  3.24660850e-09  4.58970993e-01  3.18809692e-09  4.58970993e-01  1.60345424e-07  1.19572206e-07  1.10000000e+00 
