 v-sweep         v(b0)           v(b1)           v(b2)           v(b3)           v(b4)           v(b5)           v(b6)           i(vbias)        i(viout)        v(vout)        
 0.00000000e+00  4.56601256e-01  4.56601256e-01  4.56601256e-01  4.56601256e-01  4.56601256e-01  4.56601256e-01  4.56601256e-01  1.57153518e-07  1.87427356e-07  0.00000000e+00 
 1.00000000e-02  4.56601241e-01  4.56601241e-01  4.56601241e-01  4.56601241e-01  4.56601241e-01  4.56601241e-01  4.56601241e-01  1.57153506e-07  1.87426775e-07  1.00000000e-02 
 2.00000000e-02  4.56601237e-01  4.56601237e-01  4.56601237e-01  4.56601237e-01  4.56601237e-01  4.56601237e-01  4.56601237e-01  1.57153509e-07  1.87426335e-07  2.00000000e-02 
 3.00000000e-02  4.56601254e-01  4.56601254e-01  4.56601254e-01  4.56601254e-01  4.56601254e-01  4.56601254e-01  4.56601254e-01  1.57153540e-07  1.87425935e-07  3.00000000e-02 
 4.00000000e-02  4.56601272e-01  4.56601272e-01  4.56601272e-01  4.56601272e-01  4.56601272e-01  4.56601272e-01  4.56601272e-01  1.57153549e-07  1.87425629e-07  4.00000000e-02 
 5.00000000e-02  4.56601290e-01  4.56601290e-01  4.56601290e-01  4.56601290e-01  4.56601290e-01  4.56601290e-01  4.56601290e-01  1.57153580e-07  1.87425296e-07  5.00000000e-02 
 6.00000000e-02  4.56601265e-01  4.56601265e-01  4.56601265e-01  4.56601265e-01  4.56601265e-01  4.56601265e-01  4.56601265e-01  1.57153547e-07  1.87424829e-07  6.00000000e-02 
 7.00000000e-02  4.56601287e-01  4.56601287e-01  4.56601287e-01  4.56601286e-01  4.56601286e-01  4.56601287e-01  4.56601287e-01  1.57153579e-07  1.87424609e-07  7.00000000e-02 
 8.00000000e-02  4.56601264e-01  4.56601264e-01  4.56601264e-01  4.56601264e-01  4.56601264e-01  4.56601264e-01  4.56601264e-01  1.57153546e-07  1.87424023e-07  8.00000000e-02 
 9.00000000e-02  4.56601248e-01  4.56601247e-01  4.56601248e-01  4.56601247e-01  4.56601247e-01  4.56601248e-01  4.56601247e-01  1.57153529e-07  1.87423771e-07  9.00000000e-02 
 1.00000000e-01  4.56601257e-01  4.56601257e-01  4.56601257e-01  4.56601257e-01  4.56601257e-01  4.56601257e-01  4.56601257e-01  1.57153533e-07  1.87423423e-07  1.00000000e-01 
 1.10000000e-01  4.56601239e-01  4.56601239e-01  4.56601239e-01  4.56601239e-01  4.56601239e-01  4.56601239e-01  4.56601239e-01  1.57153512e-07  1.87423034e-07  1.10000000e-01 
 1.20000000e-01  4.56601275e-01  4.56601275e-01  4.56601275e-01  4.56601275e-01  4.56601275e-01  4.56601275e-01  4.56601275e-01  1.57153563e-07  1.87422756e-07  1.20000000e-01 
 1.30000000e-01  4.56601261e-01  4.56601261e-01  4.56601261e-01  4.56601261e-01  4.56601261e-01  4.56601261e-01  4.56601261e-01  1.57153526e-07  1.87422445e-07  1.30000000e-01 
 1.40000000e-01  4.56601253e-01  4.56601253e-01  4.56601253e-01  4.56601253e-01  4.56601253e-01  4.56601253e-01  4.56601253e-01  1.57153528e-07  1.87422158e-07  1.40000000e-01 
 1.50000000e-01  4.56601268e-01  4.56601268e-01  4.56601268e-01  4.56601268e-01  4.56601268e-01  4.56601268e-01  4.56601268e-01  1.57153559e-07  1.87421968e-07  1.50000000e-01 
 1.60000000e-01  4.56601261e-01  4.56601260e-01  4.56601260e-01  4.56601260e-01  4.56601260e-01  4.56601261e-01  4.56601260e-01  1.57153532e-07  1.87421648e-07  1.60000000e-01 
 1.70000000e-01  4.56601241e-01  4.56601241e-01  4.56601241e-01  4.56601241e-01  4.56601241e-01  4.56601241e-01  4.56601241e-01  1.57153508e-07  1.87421326e-07  1.70000000e-01 
 1.80000000e-01  4.56601266e-01  4.56601266e-01  4.56601266e-01  4.56601266e-01  4.56601266e-01  4.56601266e-01  4.56601266e-01  1.57153539e-07  1.87421291e-07  1.80000000e-01 
 1.90000000e-01  4.56601256e-01  4.56601256e-01  4.56601256e-01  4.56601256e-01  4.56601256e-01  4.56601256e-01  4.56601256e-01  1.57153531e-07  1.87420877e-07  1.90000000e-01 
 2.00000000e-01  4.56601266e-01  4.56601266e-01  4.56601266e-01  4.56601266e-01  4.56601266e-01  4.56601266e-01  4.56601266e-01  1.57153545e-07  1.87420776e-07  2.00000000e-01 
 2.10000000e-01  4.56601264e-01  4.56601264e-01  4.56601264e-01  4.56601264e-01  4.56601264e-01  4.56601264e-01  4.56601264e-01  1.57153555e-07  1.87420468e-07  2.10000000e-01 
 2.20000000e-01  4.56601257e-01  4.56601257e-01  4.56601257e-01  4.56601257e-01  4.56601257e-01  4.56601257e-01  4.56601257e-01  1.57153538e-07  1.87420355e-07  2.20000000e-01 
 2.30000000e-01  4.56601254e-01  4.56601254e-01  4.56601254e-01  4.56601254e-01  4.56601254e-01  4.56601254e-01  4.56601254e-01  1.57153538e-07  1.87420035e-07  2.30000000e-01 
 2.40000000e-01  4.56601273e-01  4.56601272e-01  4.56601272e-01  4.56601272e-01  4.56601272e-01  4.56601273e-01  4.56601272e-01  1.57153566e-07  1.87419785e-07  2.40000000e-01 
 2.50000000e-01  4.56601251e-01  4.56601251e-01  4.56601251e-01  4.56601251e-01  4.56601251e-01  4.56601251e-01  4.56601251e-01  1.57153523e-07  1.87419722e-07  2.50000000e-01 
 2.60000000e-01  4.56601261e-01  4.56601261e-01  4.56601261e-01  4.56601261e-01  4.56601261e-01  4.56601261e-01  4.56601261e-01  1.57153548e-07  1.87419539e-07  2.60000000e-01 
 2.70000000e-01  4.56601237e-01  4.56601237e-01  4.56601237e-01  4.56601237e-01  4.56601237e-01  4.56601237e-01  4.56601237e-01  1.57153511e-07  1.87419227e-07  2.70000000e-01 
 2.80000000e-01  4.56601254e-01  4.56601253e-01  4.56601254e-01  4.56601253e-01  4.56601253e-01  4.56601254e-01  4.56601253e-01  1.57153529e-07  1.87419028e-07  2.80000000e-01 
 2.90000000e-01  4.56601280e-01  4.56601280e-01  4.56601280e-01  4.56601280e-01  4.56601280e-01  4.56601280e-01  4.56601280e-01  1.57153563e-07  1.87418991e-07  2.90000000e-01 
 3.00000000e-01  4.56601246e-01  4.56601246e-01  4.56601246e-01  4.56601246e-01  4.56601246e-01  4.56601246e-01  4.56601246e-01  1.57153528e-07  1.87418607e-07  3.00000000e-01 
 3.10000000e-01  4.56601274e-01  4.56601274e-01  4.56601274e-01  4.56601274e-01  4.56601274e-01  4.56601274e-01  4.56601274e-01  1.57153559e-07  1.87418586e-07  3.10000000e-01 
 3.20000000e-01  4.56601269e-01  4.56601269e-01  4.56601269e-01  4.56601269e-01  4.56601269e-01  4.56601269e-01  4.56601269e-01  1.57153544e-07  1.87418472e-07  3.20000000e-01 
 3.30000000e-01  4.56601245e-01  4.56601245e-01  4.56601245e-01  4.56601245e-01  4.56601245e-01  4.56601245e-01  4.56601245e-01  1.57153529e-07  1.87418102e-07  3.30000000e-01 
 3.40000000e-01  4.56601255e-01  4.56601255e-01  4.56601255e-01  4.56601255e-01  4.56601255e-01  4.56601255e-01  4.56601255e-01  1.57153528e-07  1.87418056e-07  3.40000000e-01 
 3.50000000e-01  4.56601255e-01  4.56601255e-01  4.56601255e-01  4.56601255e-01  4.56601255e-01  4.56601255e-01  4.56601255e-01  1.57153535e-07  1.87417832e-07  3.50000000e-01 
 3.60000000e-01  4.56601272e-01  4.56601272e-01  4.56601272e-01  4.56601272e-01  4.56601272e-01  4.56601272e-01  4.56601272e-01  1.57153559e-07  1.87417818e-07  3.60000000e-01 
 3.70000000e-01  4.56601257e-01  4.56601256e-01  4.56601256e-01  4.56601256e-01  4.56601256e-01  4.56601256e-01  4.56601256e-01  1.57153527e-07  1.87417605e-07  3.70000000e-01 
 3.80000000e-01  4.56601243e-01  4.56601243e-01  4.56601243e-01  4.56601243e-01  4.56601243e-01  4.56601243e-01  4.56601243e-01  1.57153522e-07  1.87417346e-07  3.80000000e-01 
 3.90000000e-01  4.56601275e-01  4.56601275e-01  4.56601275e-01  4.56601275e-01  4.56601275e-01  4.56601275e-01  4.56601275e-01  1.57153567e-07  1.87417324e-07  3.90000000e-01 
 4.00000000e-01  4.56601230e-01  4.56601230e-01  4.56601230e-01  4.56601229e-01  4.56601229e-01  4.56601230e-01  4.56601230e-01  1.57153487e-07  1.87416969e-07  4.00000000e-01 
 4.10000000e-01  4.56601256e-01  4.56601256e-01  4.56601256e-01  4.56601256e-01  4.56601256e-01  4.56601256e-01  4.56601256e-01  1.57153536e-07  1.87416848e-07  4.10000000e-01 
 4.20000000e-01  4.56601244e-01  4.56601244e-01  4.56601244e-01  4.56601244e-01  4.56601244e-01  4.56601244e-01  4.56601244e-01  1.57153521e-07  1.87416731e-07  4.20000000e-01 
 4.30000000e-01  4.56601245e-01  4.56601245e-01  4.56601245e-01  4.56601245e-01  4.56601245e-01  4.56601245e-01  4.56601245e-01  1.57153515e-07  1.87416596e-07  4.30000000e-01 
 4.40000000e-01  4.56601273e-01  4.56601273e-01  4.56601273e-01  4.56601273e-01  4.56601273e-01  4.56601273e-01  4.56601273e-01  1.57153564e-07  1.87416632e-07  4.40000000e-01 
 4.50000000e-01  4.56601251e-01  4.56601251e-01  4.56601251e-01  4.56601251e-01  4.56601251e-01  4.56601251e-01  4.56601251e-01  1.57153526e-07  1.87416269e-07  4.50000000e-01 
 4.60000000e-01  4.56601296e-01  4.56601296e-01  4.56601296e-01  4.56601296e-01  4.56601296e-01  4.56601296e-01  4.56601296e-01  1.57153590e-07  1.87416262e-07  4.60000000e-01 
 4.70000000e-01  4.56601269e-01  4.56601269e-01  4.56601269e-01  4.56601269e-01  4.56601269e-01  4.56601269e-01  4.56601269e-01  1.57153535e-07  1.87416124e-07  4.70000000e-01 
 4.80000000e-01  4.56601266e-01  4.56601266e-01  4.56601266e-01  4.56601266e-01  4.56601266e-01  4.56601266e-01  4.56601266e-01  1.57153537e-07  1.87415949e-07  4.80000000e-01 
 4.90000000e-01  4.56601264e-01  4.56601264e-01  4.56601264e-01  4.56601264e-01  4.56601264e-01  4.56601264e-01  4.56601264e-01  1.57153548e-07  1.87415854e-07  4.90000000e-01 
 5.00000000e-01  4.56601274e-01  4.56601274e-01  4.56601274e-01  4.56601274e-01  4.56601274e-01  4.56601274e-01  4.56601274e-01  1.57153568e-07  1.87415818e-07  5.00000000e-01 
 5.10000000e-01  4.56601273e-01  4.56601273e-01  4.56601273e-01  4.56601272e-01  4.56601272e-01  4.56601273e-01  4.56601273e-01  1.57153559e-07  1.87415605e-07  5.10000000e-01 
 5.20000000e-01  4.56601245e-01  4.56601245e-01  4.56601245e-01  4.56601245e-01  4.56601245e-01  4.56601245e-01  4.56601245e-01  1.57153529e-07  1.87415374e-07  5.20000000e-01 
 5.30000000e-01  4.56601298e-01  4.56601298e-01  4.56601298e-01  4.56601298e-01  4.56601298e-01  4.56601298e-01  4.56601298e-01  1.57153589e-07  1.87415417e-07  5.30000000e-01 
 5.40000000e-01  4.56601281e-01  4.56601281e-01  4.56601281e-01  4.56601281e-01  4.56601281e-01  4.56601281e-01  4.56601281e-01  1.57153557e-07  1.87415260e-07  5.40000000e-01 
 5.50000000e-01  4.56601246e-01  4.56601246e-01  4.56601246e-01  4.56601246e-01  4.56601246e-01  4.56601246e-01  4.56601246e-01  1.57153531e-07  1.87414852e-07  5.50000000e-01 
 5.60000000e-01  4.56601256e-01  4.56601256e-01  4.56601256e-01  4.56601256e-01  4.56601256e-01  4.56601256e-01  4.56601256e-01  1.57153516e-07  1.87414830e-07  5.60000000e-01 
 5.70000000e-01  4.56601276e-01  4.56601276e-01  4.56601276e-01  4.56601276e-01  4.56601276e-01  4.56601276e-01  4.56601276e-01  1.57153556e-07  1.87414710e-07  5.70000000e-01 
 5.80000000e-01  4.56601244e-01  4.56601243e-01  4.56601243e-01  4.56601243e-01  4.56601243e-01  4.56601243e-01  4.56601243e-01  1.57153503e-07  1.87414464e-07  5.80000000e-01 
 5.90000000e-01  4.56601262e-01  4.56601262e-01  4.56601262e-01  4.56601262e-01  4.56601262e-01  4.56601262e-01  4.56601262e-01  1.57153535e-07  1.87414408e-07  5.90000000e-01 
 6.00000000e-01  4.56601278e-01  4.56601278e-01  4.56601278e-01  4.56601278e-01  4.56601278e-01  4.56601278e-01  4.56601278e-01  1.57153571e-07  1.87414336e-07  6.00000000e-01 
 6.10000000e-01  4.56601265e-01  4.56601265e-01  4.56601265e-01  4.56601265e-01  4.56601265e-01  4.56601265e-01  4.56601265e-01  1.57153534e-07  1.87414130e-07  6.10000000e-01 
 6.20000000e-01  4.56601267e-01  4.56601267e-01  4.56601267e-01  4.56601267e-01  4.56601267e-01  4.56601267e-01  4.56601267e-01  1.57153539e-07  1.87413860e-07  6.20000000e-01 
 6.30000000e-01  4.56601248e-01  4.56601248e-01  4.56601248e-01  4.56601248e-01  4.56601248e-01  4.56601248e-01  4.56601248e-01  1.57153527e-07  1.87413718e-07  6.30000000e-01 
 6.40000000e-01  4.56601265e-01  4.56601265e-01  4.56601265e-01  4.56601265e-01  4.56601265e-01  4.56601265e-01  4.56601265e-01  1.57153533e-07  1.87413690e-07  6.40000000e-01 
 6.50000000e-01  4.56601266e-01  4.56601266e-01  4.56601266e-01  4.56601266e-01  4.56601266e-01  4.56601266e-01  4.56601266e-01  1.57153558e-07  1.87413605e-07  6.50000000e-01 
 6.60000000e-01  4.56601265e-01  4.56601265e-01  4.56601265e-01  4.56601265e-01  4.56601265e-01  4.56601265e-01  4.56601265e-01  1.57153551e-07  1.87413434e-07  6.60000000e-01 
 6.70000000e-01  4.56601284e-01  4.56601284e-01  4.56601284e-01  4.56601284e-01  4.56601284e-01  4.56601284e-01  4.56601284e-01  1.57153575e-07  1.87413207e-07  6.70000000e-01 
 6.80000000e-01  4.56601254e-01  4.56601254e-01  4.56601254e-01  4.56601254e-01  4.56601254e-01  4.56601254e-01  4.56601254e-01  1.57153525e-07  1.87412994e-07  6.80000000e-01 
 6.90000000e-01  4.56601273e-01  4.56601273e-01  4.56601273e-01  4.56601273e-01  4.56601273e-01  4.56601273e-01  4.56601273e-01  1.57153553e-07  1.87413001e-07  6.90000000e-01 
 7.00000000e-01  4.56601265e-01  4.56601265e-01  4.56601265e-01  4.56601265e-01  4.56601265e-01  4.56601265e-01  4.56601265e-01  1.57153538e-07  1.87412894e-07  7.00000000e-01 
 7.10000000e-01  4.56601268e-01  4.56601268e-01  4.56601268e-01  4.56601268e-01  4.56601268e-01  4.56601268e-01  4.56601268e-01  1.57153555e-07  1.87412688e-07  7.10000000e-01 
 7.20000000e-01  4.56601286e-01  4.56601286e-01  4.56601286e-01  4.56601286e-01  4.56601286e-01  4.56601286e-01  4.56601286e-01  1.57153574e-07  1.87412766e-07  7.20000000e-01 
 7.30000000e-01  4.56601273e-01  4.56601273e-01  4.56601273e-01  4.56601273e-01  4.56601273e-01  4.56601273e-01  4.56601273e-01  1.57153554e-07  1.87412454e-07  7.30000000e-01 
 7.40000000e-01  4.56601235e-01  4.56601235e-01  4.56601235e-01  4.56601235e-01  4.56601235e-01  4.56601235e-01  4.56601235e-01  1.57153497e-07  1.87412205e-07  7.40000000e-01 
 7.50000000e-01  4.56601246e-01  4.56601246e-01  4.56601246e-01  4.56601246e-01  4.56601246e-01  4.56601246e-01  4.56601246e-01  1.57153528e-07  1.87412056e-07  7.50000000e-01 
 7.60000000e-01  4.56601284e-01  4.56601284e-01  4.56601284e-01  4.56601284e-01  4.56601284e-01  4.56601284e-01  4.56601284e-01  1.57153579e-07  1.87412091e-07  7.60000000e-01 
 7.70000000e-01  4.56601262e-01  4.56601262e-01  4.56601262e-01  4.56601262e-01  4.56601262e-01  4.56601262e-01  4.56601262e-01  1.57153547e-07  1.87411921e-07  7.70000000e-01 
 7.80000000e-01  4.56601214e-01  4.56601214e-01  4.56601214e-01  4.56601214e-01  4.56601214e-01  4.56601214e-01  4.56601214e-01  1.57153477e-07  1.87411565e-07  7.80000000e-01 
 7.90000000e-01  4.56601252e-01  4.56601252e-01  4.56601252e-01  4.56601252e-01  4.56601252e-01  4.56601252e-01  4.56601252e-01  1.57153530e-07  1.87411452e-07  7.90000000e-01 
 8.00000000e-01  4.56601272e-01  4.56601272e-01  4.56601272e-01  4.56601272e-01  4.56601272e-01  4.56601272e-01  4.56601272e-01  1.57153555e-07  1.87411459e-07  8.00000000e-01 
 8.10000000e-01  4.56601260e-01  4.56601260e-01  4.56601260e-01  4.56601260e-01  4.56601260e-01  4.56601260e-01  4.56601260e-01  1.57153527e-07  1.87411189e-07  8.10000000e-01 
 8.20000000e-01  4.56601238e-01  4.56601238e-01  4.56601238e-01  4.56601238e-01  4.56601238e-01  4.56601238e-01  4.56601238e-01  1.57153495e-07  1.87411047e-07  8.20000000e-01 
 8.30000000e-01  4.56601260e-01  4.56601260e-01  4.56601260e-01  4.56601260e-01  4.56601260e-01  4.56601260e-01  4.56601260e-01  1.57153531e-07  1.87411011e-07  8.30000000e-01 
 8.40000000e-01  4.56601273e-01  4.56601273e-01  4.56601273e-01  4.56601273e-01  4.56601273e-01  4.56601273e-01  4.56601273e-01  1.57153558e-07  1.87410876e-07  8.40000000e-01 
 8.50000000e-01  4.56601284e-01  4.56601284e-01  4.56601284e-01  4.56601284e-01  4.56601284e-01  4.56601284e-01  4.56601284e-01  1.57153575e-07  1.87410684e-07  8.50000000e-01 
 8.60000000e-01  4.56601261e-01  4.56601261e-01  4.56601261e-01  4.56601261e-01  4.56601261e-01  4.56601261e-01  4.56601261e-01  1.57153528e-07  1.87410436e-07  8.60000000e-01 
 8.70000000e-01  4.56601256e-01  4.56601255e-01  4.56601255e-01  4.56601255e-01  4.56601255e-01  4.56601256e-01  4.56601255e-01  1.57153535e-07  1.87410244e-07  8.70000000e-01 
 8.80000000e-01  4.56601261e-01  4.56601261e-01  4.56601261e-01  4.56601261e-01  4.56601261e-01  4.56601261e-01  4.56601261e-01  1.57153543e-07  1.87410173e-07  8.80000000e-01 
 8.90000000e-01  4.56601247e-01  4.56601247e-01  4.56601247e-01  4.56601247e-01  4.56601247e-01  4.56601247e-01  4.56601247e-01  1.57153534e-07  1.87409967e-07  8.90000000e-01 
 9.00000000e-01  4.56601247e-01  4.56601247e-01  4.56601247e-01  4.56601247e-01  4.56601247e-01  4.56601247e-01  4.56601247e-01  1.57153524e-07  1.87409697e-07  9.00000000e-01 
 9.10000000e-01  4.56601260e-01  4.56601260e-01  4.56601260e-01  4.56601260e-01  4.56601260e-01  4.56601260e-01  4.56601260e-01  1.57153534e-07  1.87409640e-07  9.10000000e-01 
 9.20000000e-01  4.56601254e-01  4.56601254e-01  4.56601254e-01  4.56601254e-01  4.56601254e-01  4.56601254e-01  4.56601254e-01  1.57153529e-07  1.87409420e-07  9.20000000e-01 
 9.30000000e-01  4.56601248e-01  4.56601248e-01  4.56601248e-01  4.56601248e-01  4.56601248e-01  4.56601248e-01  4.56601248e-01  1.57153522e-07  1.87409256e-07  9.30000000e-01 
 9.40000000e-01  4.56601278e-01  4.56601278e-01  4.56601278e-01  4.56601278e-01  4.56601278e-01  4.56601278e-01  4.56601278e-01  1.57153559e-07  1.87409270e-07  9.40000000e-01 
 9.50000000e-01  4.56601261e-01  4.56601261e-01  4.56601261e-01  4.56601261e-01  4.56601261e-01  4.56601261e-01  4.56601261e-01  1.57153539e-07  1.87408986e-07  9.50000000e-01 
 9.60000000e-01  4.56601286e-01  4.56601286e-01  4.56601286e-01  4.56601286e-01  4.56601286e-01  4.56601286e-01  4.56601286e-01  1.57153570e-07  1.87408887e-07  9.60000000e-01 
 9.70000000e-01  4.56601251e-01  4.56601251e-01  4.56601251e-01  4.56601251e-01  4.56601251e-01  4.56601251e-01  4.56601251e-01  1.57153515e-07  1.87408602e-07  9.70000000e-01 
 9.80000000e-01  4.56601263e-01  4.56601263e-01  4.56601263e-01  4.56601263e-01  4.56601263e-01  4.56601263e-01  4.56601263e-01  1.57153543e-07  1.87408531e-07  9.80000000e-01 
 9.90000000e-01  4.56601266e-01  4.56601266e-01  4.56601266e-01  4.56601266e-01  4.56601266e-01  4.56601266e-01  4.56601266e-01  1.57153549e-07  1.87408347e-07  9.90000000e-01 
 1.00000000e+00  4.56601276e-01  4.56601276e-01  4.56601276e-01  4.56601276e-01  4.56601276e-01  4.56601276e-01  4.56601276e-01  1.57153568e-07  1.87408162e-07  1.00000000e+00 
 1.01000000e+00  4.56601286e-01  4.56601285e-01  4.56601285e-01  4.56601285e-01  4.56601285e-01  4.56601286e-01  4.56601285e-01  1.57153561e-07  1.87408119e-07  1.01000000e+00 
 1.02000000e+00  4.56601274e-01  4.56601274e-01  4.56601274e-01  4.56601273e-01  4.56601273e-01  4.56601274e-01  4.56601274e-01  1.57153560e-07  1.87407835e-07  1.02000000e+00 
 1.03000000e+00  4.56601273e-01  4.56601273e-01  4.56601273e-01  4.56601273e-01  4.56601273e-01  4.56601273e-01  4.56601273e-01  1.57153552e-07  1.87407700e-07  1.03000000e+00 
 1.04000000e+00  4.56601277e-01  4.56601277e-01  4.56601277e-01  4.56601277e-01  4.56601277e-01  4.56601277e-01  4.56601277e-01  1.57153562e-07  1.87407515e-07  1.04000000e+00 
 1.05000000e+00  4.56601264e-01  4.56601264e-01  4.56601264e-01  4.56601264e-01  4.56601264e-01  4.56601264e-01  4.56601264e-01  1.57153527e-07  1.87407075e-07  1.05000000e+00 
 1.06000000e+00  4.56601277e-01  4.56601277e-01  4.56601277e-01  4.56601277e-01  4.56601277e-01  4.56601277e-01  4.56601277e-01  1.57153565e-07  1.87407196e-07  1.06000000e+00 
 1.07000000e+00  4.56601249e-01  4.56601249e-01  4.56601249e-01  4.56601249e-01  4.56601249e-01  4.56601249e-01  4.56601249e-01  1.57153527e-07  1.87406783e-07  1.07000000e+00 
 1.08000000e+00  4.56601285e-01  4.56601284e-01  4.56601284e-01  4.56601284e-01  4.56601284e-01  4.56601284e-01  4.56601284e-01  1.57153583e-07  1.87406719e-07  1.08000000e+00 
 1.09000000e+00  4.56601260e-01  4.56601260e-01  4.56601260e-01  4.56601260e-01  4.56601260e-01  4.56601260e-01  4.56601260e-01  1.57153543e-07  1.87406492e-07  1.09000000e+00 
 1.10000000e+00  4.56601265e-01  4.56601265e-01  4.56601265e-01  4.56601265e-01  4.56601265e-01  4.56601265e-01  4.56601265e-01  1.57153534e-07  1.87406378e-07  1.10000000e+00 
