 v-sweep         v(b0)           v(b1)           v(b2)           v(b3)           v(b4)           v(b5)           v(b6)           i(vbias)        i(viout)        v(vout)        
 0.00000000e+00  4.58400463e-01  3.11282874e-09  4.58400463e-01  4.58400463e-01  4.58400463e-01  4.58400463e-01  4.58400463e-01  1.60300200e-07  1.86642824e-07  0.00000000e+00 
 1.00000000e-02  4.58400456e-01  3.11282877e-09  4.58400456e-01  4.58400456e-01  4.58400456e-01  4.58400456e-01  4.58400456e-01  1.60300177e-07  1.86642250e-07  1.00000000e-02 
 2.00000000e-02  4.58400464e-01  3.11282871e-09  4.58400463e-01  4.58400463e-01  4.58400464e-01  4.58400464e-01  4.58400463e-01  1.60300198e-07  1.86641938e-07  2.00000000e-02 
 3.00000000e-02  4.58400485e-01  3.11282873e-09  4.58400485e-01  4.58400485e-01  4.58400485e-01  4.58400485e-01  4.58400485e-01  1.60300230e-07  1.86641456e-07  3.00000000e-02 
 4.00000000e-02  4.58400481e-01  3.11282878e-09  4.58400481e-01  4.58400480e-01  4.58400481e-01  4.58400481e-01  4.58400481e-01  1.60300213e-07  1.86641105e-07  4.00000000e-02 
 5.00000000e-02  4.58400484e-01  3.11282871e-09  4.58400484e-01  4.58400484e-01  4.58400484e-01  4.58400484e-01  4.58400484e-01  1.60300226e-07  1.86640692e-07  5.00000000e-02 
 6.00000000e-02  4.58400483e-01  3.11282873e-09  4.58400483e-01  4.58400483e-01  4.58400483e-01  4.58400483e-01  4.58400483e-01  1.60300208e-07  1.86640266e-07  6.00000000e-02 
 7.00000000e-02  4.58400504e-01  3.11282872e-09  4.58400504e-01  4.58400504e-01  4.58400504e-01  4.58400504e-01  4.58400504e-01  1.60300263e-07  1.86640153e-07  7.00000000e-02 
 8.00000000e-02  4.58400458e-01  3.11282878e-09  4.58400458e-01  4.58400457e-01  4.58400458e-01  4.58400458e-01  4.58400458e-01  1.60300193e-07  1.86639496e-07  8.00000000e-02 
 9.00000000e-02  4.58400486e-01  3.11282871e-09  4.58400486e-01  4.58400486e-01  4.58400486e-01  4.58400486e-01  4.58400486e-01  1.60300235e-07  1.86639340e-07  9.00000000e-02 
 1.00000000e-01  4.58400472e-01  3.11282873e-09  4.58400472e-01  4.58400472e-01  4.58400472e-01  4.58400472e-01  4.58400472e-01  1.60300204e-07  1.86638921e-07  1.00000000e-01 
 1.10000000e-01  4.58400476e-01  3.11282872e-09  4.58400475e-01  4.58400475e-01  4.58400476e-01  4.58400476e-01  4.58400475e-01  1.60300223e-07  1.86638603e-07  1.10000000e-01 
 1.20000000e-01  4.58400474e-01  3.11282878e-09  4.58400474e-01  4.58400474e-01  4.58400474e-01  4.58400474e-01  4.58400474e-01  1.60300213e-07  1.86638273e-07  1.20000000e-01 
 1.30000000e-01  4.58400478e-01  3.11282871e-09  4.58400477e-01  4.58400477e-01  4.58400478e-01  4.58400477e-01  4.58400477e-01  1.60300219e-07  1.86637953e-07  1.30000000e-01 
 1.40000000e-01  4.58400489e-01  3.11282873e-09  4.58400489e-01  4.58400489e-01  4.58400489e-01  4.58400489e-01  4.58400489e-01  1.60300243e-07  1.86637692e-07  1.40000000e-01 
 1.50000000e-01  4.58400482e-01  3.11282878e-09  4.58400482e-01  4.58400482e-01  4.58400482e-01  4.58400482e-01  4.58400482e-01  1.60300217e-07  1.86637473e-07  1.50000000e-01 
 1.60000000e-01  4.58400455e-01  3.11282871e-09  4.58400454e-01  4.58400454e-01  4.58400455e-01  4.58400455e-01  4.58400454e-01  1.60300180e-07  1.86637001e-07  1.60000000e-01 
 1.70000000e-01  4.58400461e-01  3.11282878e-09  4.58400461e-01  4.58400461e-01  4.58400461e-01  4.58400461e-01  4.58400461e-01  1.60300205e-07  1.86636731e-07  1.70000000e-01 
 1.80000000e-01  4.58400462e-01  3.11282876e-09  4.58400462e-01  4.58400462e-01  4.58400462e-01  4.58400462e-01  4.58400462e-01  1.60300194e-07  1.86636466e-07  1.80000000e-01 
 1.90000000e-01  4.58400469e-01  3.11282877e-09  4.58400469e-01  4.58400469e-01  4.58400469e-01  4.58400469e-01  4.58400469e-01  1.60300187e-07  1.86636244e-07  1.90000000e-01 
 2.00000000e-01  4.58400443e-01  3.11282871e-09  4.58400443e-01  4.58400443e-01  4.58400443e-01  4.58400443e-01  4.58400443e-01  1.60300173e-07  1.86635896e-07  2.00000000e-01 
 2.10000000e-01  4.58400454e-01  3.11282872e-09  4.58400454e-01  4.58400453e-01  4.58400454e-01  4.58400454e-01  4.58400454e-01  1.60300196e-07  1.86635724e-07  2.10000000e-01 
 2.20000000e-01  4.58400466e-01  3.11282872e-09  4.58400466e-01  4.58400466e-01  4.58400466e-01  4.58400466e-01  4.58400466e-01  1.60300193e-07  1.86635551e-07  2.20000000e-01 
 2.30000000e-01  4.58400489e-01  3.11282872e-09  4.58400489e-01  4.58400488e-01  4.58400489e-01  4.58400489e-01  4.58400489e-01  1.60300232e-07  1.86635502e-07  2.30000000e-01 
 2.40000000e-01  4.58400496e-01  3.11282878e-09  4.58400495e-01  4.58400495e-01  4.58400496e-01  4.58400495e-01  4.58400495e-01  1.60300246e-07  1.86635353e-07  2.40000000e-01 
 2.50000000e-01  4.58400464e-01  3.11282876e-09  4.58400464e-01  4.58400464e-01  4.58400464e-01  4.58400464e-01  4.58400464e-01  1.60300208e-07  1.86634939e-07  2.50000000e-01 
 2.60000000e-01  4.58400450e-01  3.11282877e-09  4.58400450e-01  4.58400450e-01  4.58400450e-01  4.58400450e-01  4.58400450e-01  1.60300176e-07  1.86634582e-07  2.60000000e-01 
 2.70000000e-01  4.58400460e-01  3.11282871e-09  4.58400460e-01  4.58400460e-01  4.58400460e-01  4.58400460e-01  4.58400460e-01  1.60300195e-07  1.86634407e-07  2.70000000e-01 
 2.80000000e-01  4.58400463e-01  3.11282872e-09  4.58400462e-01  4.58400462e-01  4.58400463e-01  4.58400462e-01  4.58400462e-01  1.60300209e-07  1.86634303e-07  2.80000000e-01 
 2.90000000e-01  4.58400484e-01  3.11282872e-09  4.58400484e-01  4.58400484e-01  4.58400484e-01  4.58400484e-01  4.58400484e-01  1.60300226e-07  1.86634164e-07  2.90000000e-01 
 3.00000000e-01  4.58400464e-01  3.11282878e-09  4.58400464e-01  4.58400464e-01  4.58400464e-01  4.58400464e-01  4.58400464e-01  1.60300195e-07  1.86633880e-07  3.00000000e-01 
 3.10000000e-01  4.58400450e-01  3.11282871e-09  4.58400450e-01  4.58400450e-01  4.58400450e-01  4.58400450e-01  4.58400450e-01  1.60300190e-07  1.86633713e-07  3.10000000e-01 
 3.20000000e-01  4.58400433e-01  3.11282878e-09  4.58400433e-01  4.58400433e-01  4.58400433e-01  4.58400433e-01  4.58400433e-01  1.60300145e-07  1.86633397e-07  3.20000000e-01 
 3.30000000e-01  4.58400441e-01  3.11282876e-09  4.58400441e-01  4.58400441e-01  4.58400441e-01  4.58400441e-01  4.58400441e-01  1.60300183e-07  1.86633262e-07  3.30000000e-01 
 3.40000000e-01  4.58400478e-01  3.11282871e-09  4.58400478e-01  4.58400478e-01  4.58400478e-01  4.58400478e-01  4.58400478e-01  1.60300210e-07  1.86633194e-07  3.40000000e-01 
 3.50000000e-01  4.58400461e-01  3.11282878e-09  4.58400461e-01  4.58400460e-01  4.58400461e-01  4.58400461e-01  4.58400461e-01  1.60300213e-07  1.86632963e-07  3.50000000e-01 
 3.60000000e-01  4.58400477e-01  3.11282876e-09  4.58400477e-01  4.58400477e-01  4.58400477e-01  4.58400477e-01  4.58400477e-01  1.60300229e-07  1.86632970e-07  3.60000000e-01 
 3.70000000e-01  4.58400451e-01  3.11282871e-09  4.58400451e-01  4.58400451e-01  4.58400451e-01  4.58400451e-01  4.58400451e-01  1.60300169e-07  1.86632626e-07  3.70000000e-01 
 3.80000000e-01  4.58400451e-01  3.11282872e-09  4.58400450e-01  4.58400450e-01  4.58400451e-01  4.58400450e-01  4.58400450e-01  1.60300194e-07  1.86632452e-07  3.80000000e-01 
 3.90000000e-01  4.58400489e-01  3.11282878e-09  4.58400488e-01  4.58400488e-01  4.58400489e-01  4.58400489e-01  4.58400489e-01  1.60300228e-07  1.86632509e-07  3.90000000e-01 
 4.00000000e-01  4.58400467e-01  3.11282871e-09  4.58400467e-01  4.58400467e-01  4.58400467e-01  4.58400467e-01  4.58400467e-01  1.60300205e-07  1.86632228e-07  4.00000000e-01 
 4.10000000e-01  4.58400440e-01  3.11282872e-09  4.58400440e-01  4.58400440e-01  4.58400440e-01  4.58400440e-01  4.58400440e-01  1.60300163e-07  1.86631876e-07  4.10000000e-01 
 4.20000000e-01  4.58400452e-01  3.11282878e-09  4.58400452e-01  4.58400452e-01  4.58400453e-01  4.58400452e-01  4.58400452e-01  1.60300189e-07  1.86631805e-07  4.20000000e-01 
 4.30000000e-01  4.58400474e-01  3.11282871e-09  4.58400473e-01  4.58400473e-01  4.58400474e-01  4.58400474e-01  4.58400473e-01  1.60300202e-07  1.86631709e-07  4.30000000e-01 
 4.40000000e-01  4.58400469e-01  3.11282873e-09  4.58400468e-01  4.58400468e-01  4.58400469e-01  4.58400469e-01  4.58400469e-01  1.60300206e-07  1.86631606e-07  4.40000000e-01 
 4.50000000e-01  4.58400458e-01  3.11282878e-09  4.58400458e-01  4.58400458e-01  4.58400458e-01  4.58400458e-01  4.58400458e-01  1.60300176e-07  1.86631333e-07  4.50000000e-01 
 4.60000000e-01  4.58400470e-01  3.11282871e-09  4.58400470e-01  4.58400470e-01  4.58400470e-01  4.58400470e-01  4.58400470e-01  1.60300208e-07  1.86631315e-07  4.60000000e-01 
 4.70000000e-01  4.58400485e-01  3.11282873e-09  4.58400485e-01  4.58400485e-01  4.58400485e-01  4.58400485e-01  4.58400485e-01  1.60300240e-07  1.86631162e-07  4.70000000e-01 
 4.80000000e-01  4.58400488e-01  3.11282872e-09  4.58400487e-01  4.58400487e-01  4.58400488e-01  4.58400488e-01  4.58400487e-01  1.60300225e-07  1.86631070e-07  4.80000000e-01 
 4.90000000e-01  4.58400461e-01  3.11282878e-09  4.58400461e-01  4.58400461e-01  4.58400461e-01  4.58400461e-01  4.58400461e-01  1.60300199e-07  1.86630846e-07  4.90000000e-01 
 5.00000000e-01  4.58400497e-01  3.11282871e-09  4.58400497e-01  4.58400496e-01  4.58400497e-01  4.58400497e-01  4.58400497e-01  1.60300244e-07  1.86630857e-07  5.00000000e-01 
 5.10000000e-01  4.58400466e-01  3.11282878e-09  4.58400466e-01  4.58400466e-01  4.58400466e-01  4.58400466e-01  4.58400466e-01  1.60300213e-07  1.86630469e-07  5.10000000e-01 
 5.20000000e-01  4.58400468e-01  3.11282871e-09  4.58400467e-01  4.58400467e-01  4.58400468e-01  4.58400467e-01  4.58400467e-01  1.60300195e-07  1.86630380e-07  5.20000000e-01 
 5.30000000e-01  4.58400450e-01  3.11282872e-09  4.58400449e-01  4.58400449e-01  4.58400450e-01  4.58400449e-01  4.58400449e-01  1.60300190e-07  1.86630086e-07  5.30000000e-01 
 5.40000000e-01  4.58400475e-01  3.11282872e-09  4.58400475e-01  4.58400474e-01  4.58400475e-01  4.58400475e-01  4.58400475e-01  1.60300204e-07  1.86630132e-07  5.40000000e-01 
 5.50000000e-01  4.58400493e-01  3.11282878e-09  4.58400493e-01  4.58400492e-01  4.58400493e-01  4.58400493e-01  4.58400493e-01  1.60300242e-07  1.86630000e-07  5.50000000e-01 
 5.60000000e-01  4.58400467e-01  3.11282876e-09  4.58400467e-01  4.58400466e-01  4.58400467e-01  4.58400467e-01  4.58400467e-01  1.60300209e-07  1.86629702e-07  5.60000000e-01 
 5.70000000e-01  4.58400461e-01  3.11282877e-09  4.58400461e-01  4.58400461e-01  4.58400461e-01  4.58400461e-01  4.58400461e-01  1.60300190e-07  1.86629553e-07  5.70000000e-01 
 5.80000000e-01  4.58400481e-01  3.11282871e-09  4.58400481e-01  4.58400480e-01  4.58400481e-01  4.58400481e-01  4.58400481e-01  1.60300235e-07  1.86629435e-07  5.80000000e-01 
 5.90000000e-01  4.58400473e-01  3.11282873e-09  4.58400473e-01  4.58400472e-01  4.58400473e-01  4.58400473e-01  4.58400473e-01  1.60300220e-07  1.86629251e-07  5.90000000e-01 
 6.00000000e-01  4.58400484e-01  3.11282878e-09  4.58400484e-01  4.58400483e-01  4.58400484e-01  4.58400484e-01  4.58400484e-01  1.60300236e-07  1.86629158e-07  6.00000000e-01 
 6.10000000e-01  4.58400469e-01  3.11282876e-09  4.58400469e-01  4.58400469e-01  4.58400469e-01  4.58400469e-01  4.58400469e-01  1.60300209e-07  1.86629045e-07  6.10000000e-01 
 6.20000000e-01  4.58400463e-01  3.11282871e-09  4.58400463e-01  4.58400463e-01  4.58400463e-01  4.58400463e-01  4.58400463e-01  1.60300206e-07  1.86628775e-07  6.20000000e-01 
 6.30000000e-01  4.58400474e-01  3.11282873e-09  4.58400474e-01  4.58400474e-01  4.58400474e-01  4.58400474e-01  4.58400474e-01  1.60300216e-07  1.86628732e-07  6.30000000e-01 
 6.40000000e-01  4.58400499e-01  3.11282872e-09  4.58400499e-01  4.58400499e-01  4.58400499e-01  4.58400499e-01  4.58400499e-01  1.60300248e-07  1.86628746e-07  6.40000000e-01 
 6.50000000e-01  4.58400480e-01  3.11282878e-09  4.58400479e-01  4.58400479e-01  4.58400480e-01  4.58400480e-01  4.58400480e-01  1.60300216e-07  1.86628377e-07  6.50000000e-01 
 6.60000000e-01  4.58400480e-01  3.11282876e-09  4.58400480e-01  4.58400480e-01  4.58400480e-01  4.58400480e-01  4.58400480e-01  1.60300211e-07  1.86628270e-07  6.60000000e-01 
 6.70000000e-01  4.58400479e-01  3.11282871e-09  4.58400479e-01  4.58400479e-01  4.58400479e-01  4.58400479e-01  4.58400479e-01  1.60300208e-07  1.86628029e-07  6.70000000e-01 
 6.80000000e-01  4.58400484e-01  3.11282873e-09  4.58400484e-01  4.58400484e-01  4.58400484e-01  4.58400484e-01  4.58400484e-01  1.60300238e-07  1.86628014e-07  6.80000000e-01 
 6.90000000e-01  4.58400492e-01  3.11282878e-09  4.58400492e-01  4.58400492e-01  4.58400492e-01  4.58400492e-01  4.58400492e-01  1.60300228e-07  1.86627858e-07  6.90000000e-01 
 7.00000000e-01  4.58400466e-01  3.11282876e-09  4.58400466e-01  4.58400466e-01  4.58400466e-01  4.58400466e-01  4.58400466e-01  1.60300184e-07  1.86627659e-07  7.00000000e-01 
 7.10000000e-01  4.58400454e-01  3.11282871e-09  4.58400454e-01  4.58400454e-01  4.58400454e-01  4.58400454e-01  4.58400454e-01  1.60300184e-07  1.86627368e-07  7.10000000e-01 
 7.20000000e-01  4.58400450e-01  3.11282872e-09  4.58400449e-01  4.58400449e-01  4.58400450e-01  4.58400450e-01  4.58400449e-01  1.60300182e-07  1.86627169e-07  7.20000000e-01 
 7.30000000e-01  4.58400464e-01  3.11282872e-09  4.58400464e-01  4.58400464e-01  4.58400464e-01  4.58400464e-01  4.58400464e-01  1.60300178e-07  1.86627119e-07  7.30000000e-01 
 7.40000000e-01  4.58400466e-01  3.11282872e-09  4.58400466e-01  4.58400466e-01  4.58400466e-01  4.58400466e-01  4.58400466e-01  1.60300196e-07  1.86626984e-07  7.40000000e-01 
 7.50000000e-01  4.58400467e-01  3.11282872e-09  4.58400467e-01  4.58400467e-01  4.58400467e-01  4.58400467e-01  4.58400467e-01  1.60300201e-07  1.86626764e-07  7.50000000e-01 
 7.60000000e-01  4.58400463e-01  3.11282872e-09  4.58400462e-01  4.58400462e-01  4.58400463e-01  4.58400463e-01  4.58400463e-01  1.60300191e-07  1.86626643e-07  7.60000000e-01 
 7.70000000e-01  4.58400476e-01  3.11282872e-09  4.58400475e-01  4.58400475e-01  4.58400476e-01  4.58400476e-01  4.58400476e-01  1.60300212e-07  1.86626529e-07  7.70000000e-01 
 7.80000000e-01  4.58400472e-01  3.11282878e-09  4.58400472e-01  4.58400472e-01  4.58400472e-01  4.58400472e-01  4.58400472e-01  1.60300206e-07  1.86626259e-07  7.80000000e-01 
 7.90000000e-01  4.58400467e-01  3.11282871e-09  4.58400466e-01  4.58400466e-01  4.58400467e-01  4.58400467e-01  4.58400466e-01  1.60300197e-07  1.86626117e-07  7.90000000e-01 
 8.00000000e-01  4.58400477e-01  3.11282873e-09  4.58400477e-01  4.58400477e-01  4.58400477e-01  4.58400477e-01  4.58400477e-01  1.60300217e-07  1.86625904e-07  8.00000000e-01 
 8.10000000e-01  4.58400462e-01  3.11282878e-09  4.58400462e-01  4.58400462e-01  4.58400462e-01  4.58400462e-01  4.58400462e-01  1.60300187e-07  1.86625805e-07  8.10000000e-01 
 8.20000000e-01  4.58400466e-01  3.11282871e-09  4.58400466e-01  4.58400466e-01  4.58400466e-01  4.58400466e-01  4.58400466e-01  1.60300205e-07  1.86625627e-07  8.20000000e-01 
 8.30000000e-01  4.58400492e-01  3.11282873e-09  4.58400492e-01  4.58400492e-01  4.58400492e-01  4.58400492e-01  4.58400492e-01  1.60300232e-07  1.86625599e-07  8.30000000e-01 
 8.40000000e-01  4.58400489e-01  3.11282878e-09  4.58400489e-01  4.58400489e-01  4.58400489e-01  4.58400489e-01  4.58400489e-01  1.60300241e-07  1.86625350e-07  8.40000000e-01 
 8.50000000e-01  4.58400481e-01  3.11282876e-09  4.58400480e-01  4.58400480e-01  4.58400481e-01  4.58400480e-01  4.58400480e-01  1.60300236e-07  1.86625222e-07  8.50000000e-01 
 8.60000000e-01  4.58400474e-01  3.11282871e-09  4.58400474e-01  4.58400474e-01  4.58400474e-01  4.58400474e-01  4.58400474e-01  1.60300202e-07  1.86625087e-07  8.60000000e-01 
 8.70000000e-01  4.58400483e-01  3.11282873e-09  4.58400483e-01  4.58400483e-01  4.58400483e-01  4.58400483e-01  4.58400483e-01  1.60300227e-07  1.86624888e-07  8.70000000e-01 
 8.80000000e-01  4.58400509e-01  3.11282878e-09  4.58400509e-01  4.58400509e-01  4.58400509e-01  4.58400509e-01  4.58400509e-01  1.60300256e-07  1.86624831e-07  8.80000000e-01 
 8.90000000e-01  4.58400484e-01  3.11282876e-09  4.58400483e-01  4.58400483e-01  4.58400484e-01  4.58400484e-01  4.58400483e-01  1.60300245e-07  1.86624597e-07  8.90000000e-01 
 9.00000000e-01  4.58400481e-01  3.11282871e-09  4.58400481e-01  4.58400481e-01  4.58400481e-01  4.58400481e-01  4.58400481e-01  1.60300221e-07  1.86624391e-07  9.00000000e-01 
 9.10000000e-01  4.58400475e-01  3.11282873e-09  4.58400475e-01  4.58400474e-01  4.58400475e-01  4.58400475e-01  4.58400475e-01  1.60300223e-07  1.86624185e-07  9.10000000e-01 
 9.20000000e-01  4.58400469e-01  3.11282878e-09  4.58400469e-01  4.58400469e-01  4.58400469e-01  4.58400469e-01  4.58400469e-01  1.60300202e-07  1.86623879e-07  9.20000000e-01 
 9.30000000e-01  4.58400482e-01  3.11282871e-09  4.58400482e-01  4.58400482e-01  4.58400482e-01  4.58400482e-01  4.58400482e-01  1.60300219e-07  1.86623950e-07  9.30000000e-01 
 9.40000000e-01  4.58400497e-01  3.11282878e-09  4.58400496e-01  4.58400496e-01  4.58400497e-01  4.58400496e-01  4.58400496e-01  1.60300239e-07  1.86623659e-07  9.40000000e-01 
 9.50000000e-01  4.58400465e-01  3.11282871e-09  4.58400465e-01  4.58400465e-01  4.58400465e-01  4.58400465e-01  4.58400465e-01  1.60300213e-07  1.86623282e-07  9.50000000e-01 
 9.60000000e-01  4.58400461e-01  3.11282872e-09  4.58400461e-01  4.58400461e-01  4.58400461e-01  4.58400461e-01  4.58400461e-01  1.60300190e-07  1.86623161e-07  9.60000000e-01 
 9.70000000e-01  4.58400449e-01  3.11282872e-09  4.58400449e-01  4.58400449e-01  4.58400449e-01  4.58400449e-01  4.58400449e-01  1.60300184e-07  1.86622920e-07  9.70000000e-01 
 9.80000000e-01  4.58400493e-01  3.11282878e-09  4.58400493e-01  4.58400493e-01  4.58400493e-01  4.58400493e-01  4.58400493e-01  1.60300239e-07  1.86623055e-07  9.80000000e-01 
 9.90000000e-01  4.58400481e-01  3.11282871e-09  4.58400480e-01  4.58400480e-01  4.58400481e-01  4.58400481e-01  4.58400480e-01  1.60300222e-07  1.86622657e-07  9.90000000e-01 
 1.00000000e+00  4.58400481e-01  3.11282878e-09  4.58400481e-01  4.58400481e-01  4.58400481e-01  4.58400481e-01  4.58400481e-01  1.60300217e-07  1.86622557e-07  1.00000000e+00 
 1.01000000e+00  4.58400481e-01  3.11282876e-09  4.58400481e-01  4.58400481e-01  4.58400481e-01  4.58400481e-01  4.58400481e-01  1.60300233e-07  1.86622380e-07  1.01000000e+00 
 1.02000000e+00  4.58400474e-01  3.11282877e-09  4.58400474e-01  4.58400473e-01  4.58400474e-01  4.58400474e-01  4.58400474e-01  1.60300205e-07  1.86622202e-07  1.02000000e+00 
 1.03000000e+00  4.58400460e-01  3.11282871e-09  4.58400460e-01  4.58400460e-01  4.58400460e-01  4.58400460e-01  4.58400460e-01  1.60300188e-07  1.86621861e-07  1.03000000e+00 
 1.04000000e+00  4.58400451e-01  3.11282878e-09  4.58400451e-01  4.58400451e-01  4.58400451e-01  4.58400451e-01  4.58400451e-01  1.60300175e-07  1.86621648e-07  1.04000000e+00 
 1.05000000e+00  4.58400482e-01  3.11282876e-09  4.58400482e-01  4.58400482e-01  4.58400482e-01  4.58400482e-01  4.58400482e-01  1.60300215e-07  1.86621477e-07  1.05000000e+00 
 1.06000000e+00  4.58400447e-01  3.11282871e-09  4.58400447e-01  4.58400447e-01  4.58400447e-01  4.58400447e-01  4.58400447e-01  1.60300177e-07  1.86621250e-07  1.06000000e+00 
 1.07000000e+00  4.58400489e-01  3.11282873e-09  4.58400488e-01  4.58400488e-01  4.58400489e-01  4.58400489e-01  4.58400489e-01  1.60300224e-07  1.86621122e-07  1.07000000e+00 
 1.08000000e+00  4.58400479e-01  3.11282878e-09  4.58400478e-01  4.58400478e-01  4.58400479e-01  4.58400478e-01  4.58400478e-01  1.60300227e-07  1.86620923e-07  1.08000000e+00 
 1.09000000e+00  4.58400457e-01  3.11282876e-09  4.58400457e-01  4.58400457e-01  4.58400457e-01  4.58400457e-01  4.58400457e-01  1.60300175e-07  1.86620674e-07  1.09000000e+00 
 1.10000000e+00  4.58400475e-01  3.11282877e-09  4.58400475e-01  4.58400474e-01  4.58400475e-01  4.58400475e-01  4.58400475e-01  1.60300205e-07  1.86620561e-07  1.10000000e+00 
