 v-sweep         v(b0)           v(b1)           v(b2)           v(b3)           v(b4)           v(b5)           v(b6)           i(vbias)        i(viout)        v(vout)        
 0.00000000e+00  3.50554902e-09  4.60381818e-01  3.19114744e-09  3.15347423e-09  4.60381818e-01  3.29351991e-09  3.15048777e-09  1.63300731e-07  3.12211824e-08  0.00000000e+00 
 1.00000000e-02  3.50554900e-09  4.60381816e-01  3.19114748e-09  3.15347416e-09  4.60381816e-01  3.29351994e-09  3.15048780e-09  1.63300729e-07  3.12208102e-08  1.00000000e-02 
 2.00000000e-02  3.50554900e-09  4.60381823e-01  3.19114748e-09  3.15347416e-09  4.60381822e-01  3.29351995e-09  3.15048780e-09  1.63300730e-07  3.12203678e-08  2.00000000e-02 
 3.00000000e-02  3.50554900e-09  4.60381832e-01  3.19114743e-09  3.15347416e-09  4.60381832e-01  3.29351995e-09  3.15048780e-09  1.63300744e-07  3.12199899e-08  3.00000000e-02 
 4.00000000e-02  3.50554900e-09  4.60381828e-01  3.19114748e-09  3.15347421e-09  4.60381828e-01  3.29351989e-09  3.15048780e-09  1.63300750e-07  3.12197197e-08  4.00000000e-02 
 5.00000000e-02  3.50554900e-09  4.60381845e-01  3.19114743e-09  3.15347416e-09  4.60381845e-01  3.29351989e-09  3.15048780e-09  1.63300759e-07  3.12193249e-08  5.00000000e-02 
 6.00000000e-02  3.50554900e-09  4.60381833e-01  3.19114748e-09  3.15347416e-09  4.60381833e-01  3.29351989e-09  3.15048780e-09  1.63300751e-07  3.12189767e-08  6.00000000e-02 
 7.00000000e-02  3.50554900e-09  4.60381827e-01  3.19114748e-09  3.15347416e-09  4.60381827e-01  3.29351989e-09  3.15048780e-09  1.63300747e-07  3.12187489e-08  7.00000000e-02 
 8.00000000e-02  3.50554900e-09  4.60381794e-01  3.19114748e-09  3.15347421e-09  4.60381794e-01  3.29351989e-09  3.15048780e-09  1.63300686e-07  3.12184181e-08  8.00000000e-02 
 9.00000000e-02  3.50554900e-09  4.60381833e-01  3.19114743e-09  3.15347422e-09  4.60381833e-01  3.29351989e-09  3.15048780e-09  1.63300737e-07  3.12181658e-08  9.00000000e-02 
 1.00000000e-01  3.50554900e-09  4.60381824e-01  3.19114743e-09  3.15347416e-09  4.60381824e-01  3.29351989e-09  3.15048780e-09  1.63300744e-07  3.12178932e-08  1.00000000e-01 
 1.10000000e-01  3.50554900e-09  4.60381837e-01  3.19114743e-09  3.15347422e-09  4.60381837e-01  3.29351989e-09  3.15048780e-09  1.63300747e-07  3.12176827e-08  1.10000000e-01 
 1.20000000e-01  3.50554900e-09  4.60381822e-01  3.19114748e-09  3.15347416e-09  4.60381822e-01  3.29351989e-09  3.15048780e-09  1.63300736e-07  3.12173842e-08  1.20000000e-01 
 1.30000000e-01  3.50554900e-09  4.60381829e-01  3.19114743e-09  3.15347421e-09  4.60381829e-01  3.29351989e-09  3.15048780e-09  1.63300735e-07  3.12171764e-08  1.30000000e-01 
 1.40000000e-01  3.50554900e-09  4.60381821e-01  3.19114743e-09  3.15347421e-09  4.60381821e-01  3.29351995e-09  3.15048780e-09  1.63300732e-07  3.12169961e-08  1.40000000e-01 
 1.50000000e-01  3.50554900e-09  4.60381833e-01  3.19114748e-09  3.15347416e-09  4.60381833e-01  3.29351995e-09  3.15048780e-09  1.63300734e-07  3.12167820e-08  1.50000000e-01 
 1.60000000e-01  3.50554900e-09  4.60381828e-01  3.19114748e-09  3.15347416e-09  4.60381828e-01  3.29351989e-09  3.15048780e-09  1.63300740e-07  3.12167092e-08  1.60000000e-01 
 1.70000000e-01  3.50554900e-09  4.60381824e-01  3.19114743e-09  3.15347416e-09  4.60381823e-01  3.29351995e-09  3.15048780e-09  1.63300734e-07  3.12164534e-08  1.70000000e-01 
 1.80000000e-01  3.50554900e-09  4.60381834e-01  3.19114743e-09  3.15347416e-09  4.60381834e-01  3.29351989e-09  3.15048780e-09  1.63300747e-07  3.12162189e-08  1.80000000e-01 
 1.90000000e-01  3.50554900e-09  4.60381826e-01  3.19114748e-09  3.15347421e-09  4.60381826e-01  3.29351995e-09  3.15048780e-09  1.63300744e-07  3.12161674e-08  1.90000000e-01 
 2.00000000e-01  3.50554900e-09  4.60381819e-01  3.19114743e-09  3.15347416e-09  4.60381819e-01  3.29351995e-09  3.15048780e-09  1.63300733e-07  3.12159578e-08  2.00000000e-01 
 2.10000000e-01  3.50554900e-09  4.60381829e-01  3.19114743e-09  3.15347421e-09  4.60381829e-01  3.29351995e-09  3.15048780e-09  1.63300728e-07  3.12157287e-08  2.10000000e-01 
 2.20000000e-01  3.50554900e-09  4.60381817e-01  3.19114748e-09  3.15347421e-09  4.60381817e-01  3.29351995e-09  3.15048780e-09  1.63300721e-07  3.12156754e-08  2.20000000e-01 
 2.30000000e-01  3.50554900e-09  4.60381807e-01  3.19114748e-09  3.15347416e-09  4.60381807e-01  3.29351994e-09  3.15048780e-09  1.63300707e-07  3.12155262e-08  2.30000000e-01 
 2.40000000e-01  3.50554900e-09  4.60381828e-01  3.19114743e-09  3.15347421e-09  4.60381828e-01  3.29351995e-09  3.15048780e-09  1.63300738e-07  3.12153592e-08  2.40000000e-01 
 2.50000000e-01  3.50554900e-09  4.60381833e-01  3.19114748e-09  3.15347416e-09  4.60381833e-01  3.29351989e-09  3.15048780e-09  1.63300757e-07  3.12152810e-08  2.50000000e-01 
 2.60000000e-01  3.50554900e-09  4.60381832e-01  3.19114748e-09  3.15347416e-09  4.60381831e-01  3.29351995e-09  3.15048780e-09  1.63300759e-07  3.12151727e-08  2.60000000e-01 
 2.70000000e-01  3.50554900e-09  4.60381828e-01  3.19114748e-09  3.15347416e-09  4.60381827e-01  3.29351995e-09  3.15048780e-09  1.63300752e-07  3.12149879e-08  2.70000000e-01 
 2.80000000e-01  3.50554900e-09  4.60381831e-01  3.19114743e-09  3.15347421e-09  4.60381831e-01  3.29351995e-09  3.15048780e-09  1.63300748e-07  3.12149400e-08  2.80000000e-01 
 2.90000000e-01  3.50554900e-09  4.60381821e-01  3.19114743e-09  3.15347416e-09  4.60381821e-01  3.29351989e-09  3.15048780e-09  1.63300726e-07  3.12147819e-08  2.90000000e-01 
 3.00000000e-01  3.50554900e-09  4.60381827e-01  3.19114748e-09  3.15347421e-09  4.60381827e-01  3.29351995e-09  3.15048780e-09  1.63300741e-07  3.12147286e-08  3.00000000e-01 
 3.10000000e-01  3.50554900e-09  4.60381807e-01  3.19114743e-09  3.15347421e-09  4.60381807e-01  3.29351989e-09  3.15048780e-09  1.63300706e-07  3.12146646e-08  3.10000000e-01 
 3.20000000e-01  3.50554900e-09  4.60381815e-01  3.19114748e-09  3.15347421e-09  4.60381815e-01  3.29351989e-09  3.15048780e-09  1.63300718e-07  3.12145652e-08  3.20000000e-01 
 3.30000000e-01  3.50554900e-09  4.60381832e-01  3.19114748e-09  3.15347422e-09  4.60381832e-01  3.29351989e-09  3.15048780e-09  1.63300747e-07  3.12144444e-08  3.30000000e-01 
 3.40000000e-01  3.50554900e-09  4.60381800e-01  3.19114748e-09  3.15347421e-09  4.60381800e-01  3.29351994e-09  3.15048780e-09  1.63300697e-07  3.12142951e-08  3.40000000e-01 
 3.50000000e-01  3.50554900e-09  4.60381830e-01  3.19114743e-09  3.15347416e-09  4.60381830e-01  3.29351989e-09  3.15048780e-09  1.63300752e-07  3.12142703e-08  3.50000000e-01 
 3.60000000e-01  3.50554900e-09  4.60381817e-01  3.19114743e-09  3.15347421e-09  4.60381817e-01  3.29351994e-09  3.15048780e-09  1.63300724e-07  3.12141886e-08  3.60000000e-01 
 3.70000000e-01  3.50554900e-09  4.60381809e-01  3.19114743e-09  3.15347416e-09  4.60381809e-01  3.29351994e-09  3.15048780e-09  1.63300734e-07  3.12140855e-08  3.70000000e-01 
 3.80000000e-01  3.50554900e-09  4.60381827e-01  3.19114748e-09  3.15347421e-09  4.60381827e-01  3.29351995e-09  3.15048780e-09  1.63300740e-07  3.12140997e-08  3.80000000e-01 
 3.90000000e-01  3.50554900e-09  4.60381825e-01  3.19114743e-09  3.15347416e-09  4.60381825e-01  3.29351995e-09  3.15048780e-09  1.63300736e-07  3.12140713e-08  3.90000000e-01 
 4.00000000e-01  3.50554900e-09  4.60381828e-01  3.19114743e-09  3.15347416e-09  4.60381828e-01  3.29351995e-09  3.15048780e-09  1.63300735e-07  3.12139505e-08  4.00000000e-01 
 4.10000000e-01  3.50554900e-09  4.60381834e-01  3.19114743e-09  3.15347416e-09  4.60381833e-01  3.29351995e-09  3.15048780e-09  1.63300744e-07  3.12138582e-08  4.10000000e-01 
 4.20000000e-01  3.50554900e-09  4.60381809e-01  3.19114743e-09  3.15347416e-09  4.60381808e-01  3.29351989e-09  3.15048780e-09  1.63300712e-07  3.12137693e-08  4.20000000e-01 
 4.30000000e-01  3.50554900e-09  4.60381819e-01  3.19114748e-09  3.15347416e-09  4.60381819e-01  3.29351989e-09  3.15048780e-09  1.63300730e-07  3.12137338e-08  4.30000000e-01 
 4.40000000e-01  3.50554900e-09  4.60381816e-01  3.19114743e-09  3.15347421e-09  4.60381816e-01  3.29351994e-09  3.15048780e-09  1.63300737e-07  3.12136841e-08  4.40000000e-01 
 4.50000000e-01  3.50554900e-09  4.60381806e-01  3.19114748e-09  3.15347416e-09  4.60381806e-01  3.29351994e-09  3.15048780e-09  1.63300697e-07  3.12134851e-08  4.50000000e-01 
 4.60000000e-01  3.50554900e-09  4.60381832e-01  3.19114748e-09  3.15347421e-09  4.60381832e-01  3.29351995e-09  3.15048780e-09  1.63300727e-07  3.12135953e-08  4.60000000e-01 
 4.70000000e-01  3.50554900e-09  4.60381825e-01  3.19114743e-09  3.15347421e-09  4.60381825e-01  3.29351989e-09  3.15048780e-09  1.63300745e-07  3.12133146e-08  4.70000000e-01 
 4.80000000e-01  3.50554900e-09  4.60381825e-01  3.19114748e-09  3.15347416e-09  4.60381825e-01  3.29351989e-09  3.15048780e-09  1.63300735e-07  3.12133537e-08  4.80000000e-01 
 4.90000000e-01  3.50554900e-09  4.60381829e-01  3.19114743e-09  3.15347421e-09  4.60381829e-01  3.29351989e-09  3.15048780e-09  1.63300744e-07  3.12132933e-08  4.90000000e-01 
 5.00000000e-01  3.50554901e-09  4.60381855e-01  3.19114749e-09  3.15347416e-09  4.60381855e-01  3.29351995e-09  3.15048780e-09  1.63300790e-07  3.12133288e-08  5.00000000e-01 
 5.10000000e-01  3.50554900e-09  4.60381839e-01  3.19114743e-09  3.15347416e-09  4.60381839e-01  3.29351995e-09  3.15048780e-09  1.63300751e-07  3.12131974e-08  5.10000000e-01 
 5.20000000e-01  3.50554900e-09  4.60381819e-01  3.19114748e-09  3.15347421e-09  4.60381819e-01  3.29351995e-09  3.15048780e-09  1.63300743e-07  3.12131050e-08  5.20000000e-01 
 5.30000000e-01  3.50554900e-09  4.60381831e-01  3.19114743e-09  3.15347416e-09  4.60381830e-01  3.29351995e-09  3.15048780e-09  1.63300735e-07  3.12130979e-08  5.30000000e-01 
 5.40000000e-01  3.50554900e-09  4.60381831e-01  3.19114748e-09  3.15347421e-09  4.60381830e-01  3.29351995e-09  3.15048780e-09  1.63300746e-07  3.12130624e-08  5.40000000e-01 
 5.50000000e-01  3.50554900e-09  4.60381842e-01  3.19114749e-09  3.15347416e-09  4.60381842e-01  3.29351989e-09  3.15048780e-09  1.63300766e-07  3.12130197e-08  5.50000000e-01 
 5.60000000e-01  3.50554900e-09  4.60381821e-01  3.19114748e-09  3.15347416e-09  4.60381821e-01  3.29351995e-09  3.15048780e-09  1.63300733e-07  3.12129025e-08  5.60000000e-01 
 5.70000000e-01  3.50554900e-09  4.60381831e-01  3.19114743e-09  3.15347416e-09  4.60381831e-01  3.29351989e-09  3.15048780e-09  1.63300744e-07  3.12128634e-08  5.70000000e-01 
 5.80000000e-01  3.50554900e-09  4.60381822e-01  3.19114748e-09  3.15347421e-09  4.60381822e-01  3.29351989e-09  3.15048780e-09  1.63300736e-07  3.12126858e-08  5.80000000e-01 
 5.90000000e-01  3.50554900e-09  4.60381819e-01  3.19114743e-09  3.15347421e-09  4.60381819e-01  3.29351995e-09  3.15048780e-09  1.63300734e-07  3.12127284e-08  5.90000000e-01 
 6.00000000e-01  3.50554900e-09  4.60381820e-01  3.19114748e-09  3.15347421e-09  4.60381820e-01  3.29351995e-09  3.15048780e-09  1.63300727e-07  3.12126360e-08  6.00000000e-01 
 6.10000000e-01  3.50554900e-09  4.60381827e-01  3.19114748e-09  3.15347416e-09  4.60381827e-01  3.29351995e-09  3.15048780e-09  1.63300745e-07  3.12125863e-08  6.10000000e-01 
 6.20000000e-01  3.50554900e-09  4.60381841e-01  3.19114743e-09  3.15347416e-09  4.60381841e-01  3.29351989e-09  3.15048780e-09  1.63300760e-07  3.12125721e-08  6.20000000e-01 
 6.30000000e-01  3.50554900e-09  4.60381811e-01  3.19114743e-09  3.15347416e-09  4.60381811e-01  3.29351994e-09  3.15048780e-09  1.63300709e-07  3.12125223e-08  6.30000000e-01 
 6.40000000e-01  3.50554900e-09  4.60381804e-01  3.19114743e-09  3.15347416e-09  4.60381804e-01  3.29351989e-09  3.15048780e-09  1.63300692e-07  3.12124442e-08  6.40000000e-01 
 6.50000000e-01  3.50554900e-09  4.60381822e-01  3.19114748e-09  3.15347416e-09  4.60381821e-01  3.29351989e-09  3.15048780e-09  1.63300737e-07  3.12124016e-08  6.50000000e-01 
 6.60000000e-01  3.50554900e-09  4.60381826e-01  3.19114743e-09  3.15347416e-09  4.60381826e-01  3.29351995e-09  3.15048780e-09  1.63300738e-07  3.12121813e-08  6.60000000e-01 
 6.70000000e-01  3.50554900e-09  4.60381830e-01  3.19114743e-09  3.15347421e-09  4.60381830e-01  3.29351989e-09  3.15048780e-09  1.63300739e-07  3.12122665e-08  6.70000000e-01 
 6.80000000e-01  3.50554900e-09  4.60381831e-01  3.19114748e-09  3.15347416e-09  4.60381831e-01  3.29351989e-09  3.15048780e-09  1.63300746e-07  3.12123944e-08  6.80000000e-01 
 6.90000000e-01  3.50554900e-09  4.60381817e-01  3.19114748e-09  3.15347416e-09  4.60381817e-01  3.29351995e-09  3.15048780e-09  1.63300728e-07  3.12122381e-08  6.90000000e-01 
 7.00000000e-01  3.50554900e-09  4.60381832e-01  3.19114748e-09  3.15347422e-09  4.60381832e-01  3.29351989e-09  3.15048780e-09  1.63300751e-07  3.12121884e-08  7.00000000e-01 
 7.10000000e-01  3.50554900e-09  4.60381816e-01  3.19114748e-09  3.15347421e-09  4.60381816e-01  3.29351989e-09  3.15048780e-09  1.63300736e-07  3.12120818e-08  7.10000000e-01 
 7.20000000e-01  3.50554900e-09  4.60381826e-01  3.19114748e-09  3.15347421e-09  4.60381826e-01  3.29351995e-09  3.15048780e-09  1.63300744e-07  3.12119326e-08  7.20000000e-01 
 7.30000000e-01  3.50554900e-09  4.60381795e-01  3.19114742e-09  3.15347421e-09  4.60381795e-01  3.29351989e-09  3.15048780e-09  1.63300704e-07  3.12119397e-08  7.30000000e-01 
 7.40000000e-01  3.50554900e-09  4.60381838e-01  3.19114743e-09  3.15347422e-09  4.60381838e-01  3.29351995e-09  3.15048780e-09  1.63300759e-07  3.12119255e-08  7.40000000e-01 
 7.50000000e-01  3.50554900e-09  4.60381817e-01  3.19114748e-09  3.15347421e-09  4.60381817e-01  3.29351989e-09  3.15048780e-09  1.63300716e-07  3.12117976e-08  7.50000000e-01 
 7.60000000e-01  3.50554900e-09  4.60381808e-01  3.19114748e-09  3.15347416e-09  4.60381808e-01  3.29351989e-09  3.15048780e-09  1.63300712e-07  3.12118047e-08  7.60000000e-01 
 7.70000000e-01  3.50554900e-09  4.60381843e-01  3.19114749e-09  3.15347422e-09  4.60381843e-01  3.29351989e-09  3.15048780e-09  1.63300767e-07  3.12119113e-08  7.70000000e-01 
 7.80000000e-01  3.50554900e-09  4.60381831e-01  3.19114748e-09  3.15347421e-09  4.60381831e-01  3.29351989e-09  3.15048780e-09  1.63300758e-07  3.12116484e-08  7.80000000e-01 
 7.90000000e-01  3.50554900e-09  4.60381843e-01  3.19114743e-09  3.15347416e-09  4.60381843e-01  3.29351989e-09  3.15048780e-09  1.63300764e-07  3.12116768e-08  7.90000000e-01 
 8.00000000e-01  3.50554900e-09  4.60381826e-01  3.19114748e-09  3.15347416e-09  4.60381826e-01  3.29351995e-09  3.15048780e-09  1.63300750e-07  3.12115986e-08  8.00000000e-01 
 8.10000000e-01  3.50554900e-09  4.60381821e-01  3.19114748e-09  3.15347416e-09  4.60381821e-01  3.29351995e-09  3.15048780e-09  1.63300732e-07  3.12114636e-08  8.10000000e-01 
 8.20000000e-01  3.50554900e-09  4.60381830e-01  3.19114743e-09  3.15347421e-09  4.60381830e-01  3.29351995e-09  3.15048780e-09  1.63300755e-07  3.12114281e-08  8.20000000e-01 
 8.30000000e-01  3.50554900e-09  4.60381816e-01  3.19114748e-09  3.15347416e-09  4.60381816e-01  3.29351994e-09  3.15048780e-09  1.63300714e-07  3.12113642e-08  8.30000000e-01 
 8.40000000e-01  3.50554906e-09  4.60381838e-01  3.19114748e-09  3.15347416e-09  4.60381838e-01  3.29351995e-09  3.15048780e-09  1.63300751e-07  3.12112505e-08  8.40000000e-01 
 8.50000000e-01  3.50554900e-09  4.60381830e-01  3.19114748e-09  3.15347416e-09  4.60381830e-01  3.29351995e-09  3.15048780e-09  1.63300762e-07  3.12112647e-08  8.50000000e-01 
 8.60000000e-01  3.50554900e-09  4.60381830e-01  3.19114743e-09  3.15347416e-09  4.60381830e-01  3.29351989e-09  3.15048780e-09  1.63300746e-07  3.12111652e-08  8.60000000e-01 
 8.70000000e-01  3.50554900e-09  4.60381841e-01  3.19114749e-09  3.15347422e-09  4.60381840e-01  3.29351995e-09  3.15048780e-09  1.63300765e-07  3.12111439e-08  8.70000000e-01 
 8.80000000e-01  3.50554900e-09  4.60381816e-01  3.19114748e-09  3.15347416e-09  4.60381815e-01  3.29351989e-09  3.15048780e-09  1.63300725e-07  3.12111013e-08  8.80000000e-01 
 8.90000000e-01  3.50554900e-09  4.60381822e-01  3.19114743e-09  3.15347416e-09  4.60381821e-01  3.29351995e-09  3.15048780e-09  1.63300737e-07  3.12109734e-08  8.90000000e-01 
 9.00000000e-01  3.50554900e-09  4.60381835e-01  3.19114748e-09  3.15347422e-09  4.60381835e-01  3.29351995e-09  3.15048775e-09  1.63300752e-07  3.12110302e-08  9.00000000e-01 
 9.10000000e-01  3.50554900e-09  4.60381832e-01  3.19114743e-09  3.15347422e-09  4.60381832e-01  3.29351995e-09  3.15048780e-09  1.63300754e-07  3.12110018e-08  9.10000000e-01 
 9.20000000e-01  3.50554900e-09  4.60381827e-01  3.19114748e-09  3.15347416e-09  4.60381827e-01  3.29351989e-09  3.15048780e-09  1.63300748e-07  3.12108597e-08  9.20000000e-01 
 9.30000000e-01  3.50554900e-09  4.60381814e-01  3.19114748e-09  3.15347421e-09  4.60381814e-01  3.29351989e-09  3.15048780e-09  1.63300720e-07  3.12109165e-08  9.30000000e-01 
 9.40000000e-01  3.50554900e-09  4.60381818e-01  3.19114748e-09  3.15347416e-09  4.60381818e-01  3.29351989e-09  3.15048780e-09  1.63300731e-07  3.12108241e-08  9.40000000e-01 
 9.50000000e-01  3.50554900e-09  4.60381812e-01  3.19114748e-09  3.15347416e-09  4.60381812e-01  3.29351989e-09  3.15048780e-09  1.63300711e-07  3.12106820e-08  9.50000000e-01 
 9.60000000e-01  3.50554900e-09  4.60381798e-01  3.19114748e-09  3.15347421e-09  4.60381798e-01  3.29351989e-09  3.15048780e-09  1.63300689e-07  3.12105684e-08  9.60000000e-01 
 9.70000000e-01  3.50554900e-09  4.60381813e-01  3.19114743e-09  3.15347421e-09  4.60381813e-01  3.29351989e-09  3.15048780e-09  1.63300716e-07  3.12106110e-08  9.70000000e-01 
 9.80000000e-01  3.50554900e-09  4.60381811e-01  3.19114748e-09  3.15347416e-09  4.60381811e-01  3.29351994e-09  3.15048780e-09  1.63300716e-07  3.12106678e-08  9.80000000e-01 
 9.90000000e-01  3.50554900e-09  4.60381816e-01  3.19114743e-09  3.15347416e-09  4.60381816e-01  3.29351994e-09  3.15048780e-09  1.63300716e-07  3.12104333e-08  9.90000000e-01 
 1.00000000e+00  3.50554900e-09  4.60381807e-01  3.19114748e-09  3.15347416e-09  4.60381807e-01  3.29351994e-09  3.15048780e-09  1.63300712e-07  3.12104689e-08  1.00000000e+00 
 1.01000000e+00  3.50554900e-09  4.60381836e-01  3.19114748e-09  3.15347416e-09  4.60381836e-01  3.29351995e-09  3.15048780e-09  1.63300762e-07  3.12104618e-08  1.01000000e+00 
 1.02000000e+00  3.50554900e-09  4.60381840e-01  3.19114749e-09  3.15347422e-09  4.60381840e-01  3.29351995e-09  3.15048780e-09  1.63300760e-07  3.12103765e-08  1.02000000e+00 
 1.03000000e+00  3.50554900e-09  4.60381830e-01  3.19114748e-09  3.15347416e-09  4.60381830e-01  3.29351995e-09  3.15048780e-09  1.63300748e-07  3.12103197e-08  1.03000000e+00 
 1.04000000e+00  3.50554900e-09  4.60381829e-01  3.19114743e-09  3.15347421e-09  4.60381829e-01  3.29351995e-09  3.15048780e-09  1.63300750e-07  3.12101562e-08  1.04000000e+00 
 1.05000000e+00  3.50554900e-09  4.60381812e-01  3.19114743e-09  3.15347421e-09  4.60381812e-01  3.29351994e-09  3.15048780e-09  1.63300727e-07  3.12100141e-08  1.05000000e+00 
 1.06000000e+00  3.50554900e-09  4.60381826e-01  3.19114743e-09  3.15347421e-09  4.60381826e-01  3.29351989e-09  3.15048780e-09  1.63300742e-07  3.12101420e-08  1.06000000e+00 
 1.07000000e+00  3.50554900e-09  4.60381816e-01  3.19114748e-09  3.15347421e-09  4.60381815e-01  3.29351989e-09  3.15048780e-09  1.63300718e-07  3.12099928e-08  1.07000000e+00 
 1.08000000e+00  3.50554900e-09  4.60381822e-01  3.19114743e-09  3.15347421e-09  4.60381822e-01  3.29351995e-09  3.15048780e-09  1.63300732e-07  3.12099999e-08  1.08000000e+00 
 1.09000000e+00  3.50554900e-09  4.60381835e-01  3.19114748e-09  3.15347422e-09  4.60381835e-01  3.29351995e-09  3.15048780e-09  1.63300753e-07  3.12099431e-08  1.09000000e+00 
 1.10000000e+00  3.50554900e-09  4.60381839e-01  3.19114743e-09  3.15347422e-09  4.60381839e-01  3.29351989e-09  3.15048780e-09  1.63300769e-07  3.12098720e-08  1.10000000e+00 
