 v-sweep         v(b0)           v(b1)           v(b2)           v(b3)           v(b4)           v(b5)           v(b6)           i(vbias)        i(viout)        v(vout)        
 0.00000000e+00  3.36844885e-09  4.58258256e-01  4.58258256e-01  4.58258256e-01  3.32018025e-09  4.58258256e-01  4.58258256e-01  1.59791912e-07  1.69529851e-07  0.00000000e+00 
 1.00000000e-02  3.36844889e-09  4.58258268e-01  4.58258268e-01  4.58258268e-01  3.32018029e-09  4.58258268e-01  4.58258268e-01  1.59791925e-07  1.69529552e-07  1.00000000e-02 
 2.00000000e-02  3.36844889e-09  4.58258269e-01  4.58258269e-01  4.58258269e-01  3.32018029e-09  4.58258269e-01  4.58258269e-01  1.59791923e-07  1.69529014e-07  2.00000000e-02 
 3.00000000e-02  3.36844889e-09  4.58258243e-01  4.58258243e-01  4.58258243e-01  3.32018029e-09  4.58258243e-01  4.58258243e-01  1.59791879e-07  1.69528519e-07  3.00000000e-02 
 4.00000000e-02  3.36844884e-09  4.58258264e-01  4.58258265e-01  4.58258265e-01  3.32018029e-09  4.58258264e-01  4.58258265e-01  1.59791914e-07  1.69528267e-07  4.00000000e-02 
 5.00000000e-02  3.36844883e-09  4.58258246e-01  4.58258246e-01  4.58258246e-01  3.32018029e-09  4.58258246e-01  4.58258246e-01  1.59791895e-07  1.69527866e-07  5.00000000e-02 
 6.00000000e-02  3.36844889e-09  4.58258244e-01  4.58258244e-01  4.58258244e-01  3.32018029e-09  4.58258244e-01  4.58258244e-01  1.59791892e-07  1.69527361e-07  6.00000000e-02 
 7.00000000e-02  3.36844889e-09  4.58258266e-01  4.58258266e-01  4.58258266e-01  3.32018029e-09  4.58258266e-01  4.58258266e-01  1.59791914e-07  1.69527163e-07  7.00000000e-02 
 8.00000000e-02  3.36844883e-09  4.58258223e-01  4.58258224e-01  4.58258224e-01  3.32018029e-09  4.58258224e-01  4.58258224e-01  1.59791859e-07  1.69526618e-07  8.00000000e-02 
 9.00000000e-02  3.36844884e-09  4.58258249e-01  4.58258249e-01  4.58258250e-01  3.32018029e-09  4.58258249e-01  4.58258249e-01  1.59791904e-07  1.69526372e-07  9.00000000e-02 
 1.00000000e-01  3.36844889e-09  4.58258239e-01  4.58258240e-01  4.58258240e-01  3.32018029e-09  4.58258239e-01  4.58258240e-01  1.59791873e-07  1.69526027e-07  1.00000000e-01 
 1.10000000e-01  3.36844884e-09  4.58258278e-01  4.58258278e-01  4.58258278e-01  3.32018029e-09  4.58258278e-01  4.58258278e-01  1.59791940e-07  1.69525844e-07  1.10000000e-01 
 1.20000000e-01  3.36844884e-09  4.58258251e-01  4.58258251e-01  4.58258252e-01  3.32018029e-09  4.58258251e-01  4.58258251e-01  1.59791913e-07  1.69525517e-07  1.20000000e-01 
 1.30000000e-01  3.36844884e-09  4.58258271e-01  4.58258272e-01  4.58258272e-01  3.32018029e-09  4.58258271e-01  4.58258272e-01  1.59791903e-07  1.69525268e-07  1.30000000e-01 
 1.40000000e-01  3.36844884e-09  4.58258254e-01  4.58258254e-01  4.58258254e-01  3.32018029e-09  4.58258254e-01  4.58258254e-01  1.59791892e-07  1.69524995e-07  1.40000000e-01 
 1.50000000e-01  3.36844884e-09  4.58258271e-01  4.58258271e-01  4.58258272e-01  3.32018029e-09  4.58258271e-01  4.58258271e-01  1.59791923e-07  1.69524707e-07  1.50000000e-01 
 1.60000000e-01  3.36844883e-09  4.58258224e-01  4.58258225e-01  4.58258225e-01  3.32018029e-09  4.58258224e-01  4.58258225e-01  1.59791857e-07  1.69524295e-07  1.60000000e-01 
 1.70000000e-01  3.36844889e-09  4.58258234e-01  4.58258234e-01  4.58258234e-01  3.32018029e-09  4.58258234e-01  4.58258234e-01  1.59791881e-07  1.69524082e-07  1.70000000e-01 
 1.80000000e-01  3.36844889e-09  4.58258282e-01  4.58258283e-01  4.58258283e-01  3.32018029e-09  4.58258283e-01  4.58258283e-01  1.59791940e-07  1.69524032e-07  1.80000000e-01 
 1.90000000e-01  3.36844889e-09  4.58258266e-01  4.58258266e-01  4.58258266e-01  3.32018029e-09  4.58258266e-01  4.58258266e-01  1.59791923e-07  1.69523840e-07  1.90000000e-01 
 2.00000000e-01  3.36844883e-09  4.58258238e-01  4.58258238e-01  4.58258239e-01  3.32018029e-09  4.58258238e-01  4.58258238e-01  1.59791877e-07  1.69523492e-07  2.00000000e-01 
 2.10000000e-01  3.36844889e-09  4.58258236e-01  4.58258236e-01  4.58258236e-01  3.32018029e-09  4.58258236e-01  4.58258236e-01  1.59791875e-07  1.69523265e-07  2.10000000e-01 
 2.20000000e-01  3.36844889e-09  4.58258292e-01  4.58258292e-01  4.58258292e-01  3.32018029e-09  4.58258292e-01  4.58258292e-01  1.59791966e-07  1.69523313e-07  2.20000000e-01 
 2.30000000e-01  3.36844884e-09  4.58258250e-01  4.58258250e-01  4.58258251e-01  3.32018029e-09  4.58258250e-01  4.58258250e-01  1.59791904e-07  1.69522997e-07  2.30000000e-01 
 2.40000000e-01  3.36844884e-09  4.58258276e-01  4.58258276e-01  4.58258276e-01  3.32018029e-09  4.58258276e-01  4.58258276e-01  1.59791938e-07  1.69522854e-07  2.40000000e-01 
 2.50000000e-01  3.36844889e-09  4.58258224e-01  4.58258224e-01  4.58258225e-01  3.32018029e-09  4.58258224e-01  4.58258224e-01  1.59791864e-07  1.69522478e-07  2.50000000e-01 
 2.60000000e-01  3.36844884e-09  4.58258248e-01  4.58258248e-01  4.58258248e-01  3.32018029e-09  4.58258248e-01  4.58258248e-01  1.59791901e-07  1.69522371e-07  2.60000000e-01 
 2.70000000e-01  3.36844883e-09  4.58258228e-01  4.58258228e-01  4.58258228e-01  3.32018029e-09  4.58258228e-01  4.58258228e-01  1.59791872e-07  1.69522078e-07  2.70000000e-01 
 2.80000000e-01  3.36844883e-09  4.58258237e-01  4.58258237e-01  4.58258238e-01  3.32018029e-09  4.58258237e-01  4.58258237e-01  1.59791875e-07  1.69521901e-07  2.80000000e-01 
 2.90000000e-01  3.36844889e-09  4.58258271e-01  4.58258271e-01  4.58258271e-01  3.32018029e-09  4.58258271e-01  4.58258271e-01  1.59791924e-07  1.69521964e-07  2.90000000e-01 
 3.00000000e-01  3.36844889e-09  4.58258235e-01  4.58258235e-01  4.58258235e-01  3.32018029e-09  4.58258235e-01  4.58258235e-01  1.59791864e-07  1.69521620e-07  3.00000000e-01 
 3.10000000e-01  3.36844883e-09  4.58258235e-01  4.58258235e-01  4.58258235e-01  3.32018029e-09  4.58258235e-01  4.58258235e-01  1.59791879e-07  1.69521538e-07  3.10000000e-01 
 3.20000000e-01  3.36844884e-09  4.58258280e-01  4.58258280e-01  4.58258280e-01  3.32018029e-09  4.58258280e-01  4.58258280e-01  1.59791933e-07  1.69521464e-07  3.20000000e-01 
 3.30000000e-01  3.36844889e-09  4.58258240e-01  4.58258240e-01  4.58258240e-01  3.32018029e-09  4.58258240e-01  4.58258240e-01  1.59791884e-07  1.69521140e-07  3.30000000e-01 
 3.40000000e-01  3.36844889e-09  4.58258228e-01  4.58258228e-01  4.58258228e-01  3.32018029e-09  4.58258228e-01  4.58258228e-01  1.59791868e-07  1.69520913e-07  3.40000000e-01 
 3.50000000e-01  3.36844889e-09  4.58258265e-01  4.58258265e-01  4.58258265e-01  3.32018029e-09  4.58258265e-01  4.58258265e-01  1.59791916e-07  1.69520906e-07  3.50000000e-01 
 3.60000000e-01  3.36844889e-09  4.58258232e-01  4.58258232e-01  4.58258232e-01  3.32018029e-09  4.58258232e-01  4.58258232e-01  1.59791874e-07  1.69520714e-07  3.60000000e-01 
 3.70000000e-01  3.36844889e-09  4.58258245e-01  4.58258246e-01  4.58258246e-01  3.32018029e-09  4.58258246e-01  4.58258246e-01  1.59791890e-07  1.69520629e-07  3.70000000e-01 
 3.80000000e-01  3.36844889e-09  4.58258241e-01  4.58258241e-01  4.58258241e-01  3.32018029e-09  4.58258241e-01  4.58258241e-01  1.59791878e-07  1.69520501e-07  3.80000000e-01 
 3.90000000e-01  3.36844889e-09  4.58258273e-01  4.58258273e-01  4.58258273e-01  3.32018029e-09  4.58258273e-01  4.58258273e-01  1.59791942e-07  1.69520494e-07  3.90000000e-01 
 4.00000000e-01  3.36844889e-09  4.58258253e-01  4.58258253e-01  4.58258253e-01  3.32018029e-09  4.58258253e-01  4.58258253e-01  1.59791884e-07  1.69520188e-07  4.00000000e-01 
 4.10000000e-01  3.36844889e-09  4.58258254e-01  4.58258254e-01  4.58258254e-01  3.32018029e-09  4.58258254e-01  4.58258254e-01  1.59791908e-07  1.69520128e-07  4.10000000e-01 
 4.20000000e-01  3.36844889e-09  4.58258257e-01  4.58258257e-01  4.58258257e-01  3.32018029e-09  4.58258257e-01  4.58258257e-01  1.59791908e-07  1.69520060e-07  4.20000000e-01 
 4.30000000e-01  3.36844889e-09  4.58258272e-01  4.58258272e-01  4.58258272e-01  3.32018029e-09  4.58258272e-01  4.58258272e-01  1.59791925e-07  1.69520057e-07  4.30000000e-01 
 4.40000000e-01  3.36844884e-09  4.58258253e-01  4.58258254e-01  4.58258254e-01  3.32018029e-09  4.58258253e-01  4.58258254e-01  1.59791884e-07  1.69519687e-07  4.40000000e-01 
 4.50000000e-01  3.36844884e-09  4.58258252e-01  4.58258253e-01  4.58258253e-01  3.32018029e-09  4.58258252e-01  4.58258253e-01  1.59791906e-07  1.69519581e-07  4.50000000e-01 
 4.60000000e-01  3.36844889e-09  4.58258278e-01  4.58258278e-01  4.58258278e-01  3.32018029e-09  4.58258278e-01  4.58258278e-01  1.59791924e-07  1.69519531e-07  4.60000000e-01 
 4.70000000e-01  3.36844884e-09  4.58258254e-01  4.58258254e-01  4.58258254e-01  3.32018029e-09  4.58258254e-01  4.58258254e-01  1.59791902e-07  1.69519371e-07  4.70000000e-01 
 4.80000000e-01  3.36844884e-09  4.58258253e-01  4.58258254e-01  4.58258254e-01  3.32018029e-09  4.58258253e-01  4.58258254e-01  1.59791898e-07  1.69519222e-07  4.80000000e-01 
 4.90000000e-01  3.36844889e-09  4.58258258e-01  4.58258258e-01  4.58258258e-01  3.32018029e-09  4.58258258e-01  4.58258258e-01  1.59791903e-07  1.69519140e-07  4.90000000e-01 
 5.00000000e-01  3.36844889e-09  4.58258246e-01  4.58258246e-01  4.58258246e-01  3.32018029e-09  4.58258246e-01  4.58258246e-01  1.59791889e-07  1.69518902e-07  5.00000000e-01 
 5.10000000e-01  3.36844884e-09  4.58258260e-01  4.58258260e-01  4.58258260e-01  3.32018029e-09  4.58258260e-01  4.58258260e-01  1.59791913e-07  1.69518977e-07  5.10000000e-01 
 5.20000000e-01  3.36844889e-09  4.58258250e-01  4.58258250e-01  4.58258250e-01  3.32018029e-09  4.58258250e-01  4.58258250e-01  1.59791904e-07  1.69518714e-07  5.20000000e-01 
 5.30000000e-01  3.36844884e-09  4.58258253e-01  4.58258253e-01  4.58258253e-01  3.32018029e-09  4.58258253e-01  4.58258253e-01  1.59791895e-07  1.69518664e-07  5.30000000e-01 
 5.40000000e-01  3.36844889e-09  4.58258239e-01  4.58258239e-01  4.58258239e-01  3.32018029e-09  4.58258239e-01  4.58258239e-01  1.59791876e-07  1.69518401e-07  5.40000000e-01 
 5.50000000e-01  3.36844889e-09  4.58258295e-01  4.58258295e-01  4.58258295e-01  3.32018029e-09  4.58258295e-01  4.58258295e-01  1.59791974e-07  1.69518604e-07  5.50000000e-01 
 5.60000000e-01  3.36844883e-09  4.58258237e-01  4.58258238e-01  4.58258238e-01  3.32018029e-09  4.58258237e-01  4.58258238e-01  1.59791879e-07  1.69518160e-07  5.60000000e-01 
 5.70000000e-01  3.36844889e-09  4.58258237e-01  4.58258238e-01  4.58258238e-01  3.32018029e-09  4.58258237e-01  4.58258238e-01  1.59791881e-07  1.69517971e-07  5.70000000e-01 
 5.80000000e-01  3.36844889e-09  4.58258251e-01  4.58258251e-01  4.58258251e-01  3.32018029e-09  4.58258251e-01  4.58258251e-01  1.59791890e-07  1.69518003e-07  5.80000000e-01 
 5.90000000e-01  3.36844889e-09  4.58258269e-01  4.58258269e-01  4.58258269e-01  3.32018029e-09  4.58258269e-01  4.58258269e-01  1.59791920e-07  1.69517925e-07  5.90000000e-01 
 6.00000000e-01  3.36844889e-09  4.58258258e-01  4.58258258e-01  4.58258258e-01  3.32018029e-09  4.58258258e-01  4.58258258e-01  1.59791907e-07  1.69517726e-07  6.00000000e-01 
 6.10000000e-01  3.36844883e-09  4.58258246e-01  4.58258246e-01  4.58258246e-01  3.32018029e-09  4.58258246e-01  4.58258246e-01  1.59791866e-07  1.69517577e-07  6.10000000e-01 
 6.20000000e-01  3.36844889e-09  4.58258262e-01  4.58258263e-01  4.58258263e-01  3.32018029e-09  4.58258263e-01  4.58258263e-01  1.59791919e-07  1.69517527e-07  6.20000000e-01 
 6.30000000e-01  3.36844883e-09  4.58258244e-01  4.58258244e-01  4.58258244e-01  3.32018029e-09  4.58258244e-01  4.58258244e-01  1.59791873e-07  1.69517385e-07  6.30000000e-01 
 6.40000000e-01  3.36844889e-09  4.58258273e-01  4.58258273e-01  4.58258273e-01  3.32018029e-09  4.58258273e-01  4.58258273e-01  1.59791929e-07  1.69517342e-07  6.40000000e-01 
 6.50000000e-01  3.36844884e-09  4.58258269e-01  4.58258270e-01  4.58258270e-01  3.32018029e-09  4.58258269e-01  4.58258270e-01  1.59791921e-07  1.69517236e-07  6.50000000e-01 
 6.60000000e-01  3.36844889e-09  4.58258257e-01  4.58258257e-01  4.58258258e-01  3.32018029e-09  4.58258257e-01  4.58258257e-01  1.59791916e-07  1.69516994e-07  6.60000000e-01 
 6.70000000e-01  3.36844889e-09  4.58258239e-01  4.58258239e-01  4.58258239e-01  3.32018029e-09  4.58258239e-01  4.58258239e-01  1.59791871e-07  1.69516817e-07  6.70000000e-01 
 6.80000000e-01  3.36844884e-09  4.58258262e-01  4.58258262e-01  4.58258262e-01  3.32018029e-09  4.58258262e-01  4.58258262e-01  1.59791907e-07  1.69516802e-07  6.80000000e-01 
 6.90000000e-01  3.36844889e-09  4.58258280e-01  4.58258280e-01  4.58258280e-01  3.32018029e-09  4.58258280e-01  4.58258280e-01  1.59791934e-07  1.69516781e-07  6.90000000e-01 
 7.00000000e-01  3.36844889e-09  4.58258244e-01  4.58258245e-01  4.58258245e-01  3.32018029e-09  4.58258245e-01  4.58258245e-01  1.59791877e-07  1.69516433e-07  7.00000000e-01 
 7.10000000e-01  3.36844884e-09  4.58258256e-01  4.58258256e-01  4.58258257e-01  3.32018029e-09  4.58258256e-01  4.58258256e-01  1.59791910e-07  1.69516355e-07  7.10000000e-01 
 7.20000000e-01  3.36844889e-09  4.58258265e-01  4.58258266e-01  4.58258266e-01  3.32018029e-09  4.58258266e-01  4.58258266e-01  1.59791928e-07  1.69516476e-07  7.20000000e-01 
 7.30000000e-01  3.36844884e-09  4.58258266e-01  4.58258266e-01  4.58258267e-01  3.32018029e-09  4.58258266e-01  4.58258266e-01  1.59791916e-07  1.69516269e-07  7.30000000e-01 
 7.40000000e-01  3.36844889e-09  4.58258237e-01  4.58258238e-01  4.58258238e-01  3.32018029e-09  4.58258238e-01  4.58258238e-01  1.59791884e-07  1.69515964e-07  7.40000000e-01 
 7.50000000e-01  3.36844889e-09  4.58258227e-01  4.58258227e-01  4.58258227e-01  3.32018029e-09  4.58258227e-01  4.58258227e-01  1.59791869e-07  1.69515808e-07  7.50000000e-01 
 7.60000000e-01  3.36844883e-09  4.58258238e-01  4.58258238e-01  4.58258238e-01  3.32018029e-09  4.58258238e-01  4.58258238e-01  1.59791885e-07  1.69515694e-07  7.60000000e-01 
 7.70000000e-01  3.36844884e-09  4.58258250e-01  4.58258251e-01  4.58258251e-01  3.32018029e-09  4.58258250e-01  4.58258251e-01  1.59791897e-07  1.69515744e-07  7.70000000e-01 
 7.80000000e-01  3.36844884e-09  4.58258251e-01  4.58258251e-01  4.58258251e-01  3.32018029e-09  4.58258251e-01  4.58258251e-01  1.59791911e-07  1.69515545e-07  7.80000000e-01 
 7.90000000e-01  3.36844884e-09  4.58258256e-01  4.58258256e-01  4.58258257e-01  3.32018029e-09  4.58258256e-01  4.58258256e-01  1.59791909e-07  1.69515417e-07  7.90000000e-01 
 8.00000000e-01  3.36844889e-09  4.58258260e-01  4.58258260e-01  4.58258260e-01  3.32018029e-09  4.58258260e-01  4.58258260e-01  1.59791908e-07  1.69515175e-07  8.00000000e-01 
 8.10000000e-01  3.36844889e-09  4.58258248e-01  4.58258248e-01  4.58258248e-01  3.32018029e-09  4.58258248e-01  4.58258248e-01  1.59791887e-07  1.69515054e-07  8.10000000e-01 
 8.20000000e-01  3.36844884e-09  4.58258276e-01  4.58258276e-01  4.58258276e-01  3.32018029e-09  4.58258276e-01  4.58258276e-01  1.59791930e-07  1.69515118e-07  8.20000000e-01 
 8.30000000e-01  3.36844884e-09  4.58258268e-01  4.58258269e-01  4.58258269e-01  3.32018029e-09  4.58258268e-01  4.58258269e-01  1.59791928e-07  1.69514934e-07  8.30000000e-01 
 8.40000000e-01  3.36844884e-09  4.58258268e-01  4.58258268e-01  4.58258268e-01  3.32018029e-09  4.58258268e-01  4.58258268e-01  1.59791923e-07  1.69514919e-07  8.40000000e-01 
 8.50000000e-01  3.36844889e-09  4.58258243e-01  4.58258243e-01  4.58258243e-01  3.32018029e-09  4.58258243e-01  4.58258243e-01  1.59791887e-07  1.69514649e-07  8.50000000e-01 
 8.60000000e-01  3.36844883e-09  4.58258241e-01  4.58258241e-01  4.58258241e-01  3.32018029e-09  4.58258241e-01  4.58258241e-01  1.59791879e-07  1.69514443e-07  8.60000000e-01 
 8.70000000e-01  3.36844884e-09  4.58258269e-01  4.58258269e-01  4.58258269e-01  3.32018029e-09  4.58258269e-01  4.58258269e-01  1.59791923e-07  1.69514401e-07  8.70000000e-01 
 8.80000000e-01  3.36844883e-09  4.58258242e-01  4.58258243e-01  4.58258243e-01  3.32018029e-09  4.58258242e-01  4.58258243e-01  1.59791875e-07  1.69514166e-07  8.80000000e-01 
 8.90000000e-01  3.36844884e-09  4.58258262e-01  4.58258262e-01  4.58258262e-01  3.32018029e-09  4.58258262e-01  4.58258262e-01  1.59791921e-07  1.69514202e-07  8.90000000e-01 
 9.00000000e-01  3.36844889e-09  4.58258240e-01  4.58258240e-01  4.58258240e-01  3.32018029e-09  4.58258240e-01  4.58258240e-01  1.59791864e-07  1.69514010e-07  9.00000000e-01 
 9.10000000e-01  3.36844889e-09  4.58258275e-01  4.58258276e-01  4.58258276e-01  3.32018023e-09  4.58258276e-01  4.58258276e-01  1.59791924e-07  1.69513910e-07  9.10000000e-01 
 9.20000000e-01  3.36844883e-09  4.58258240e-01  4.58258240e-01  4.58258241e-01  3.32018029e-09  4.58258240e-01  4.58258240e-01  1.59791881e-07  1.69513712e-07  9.20000000e-01 
 9.30000000e-01  3.36844884e-09  4.58258266e-01  4.58258266e-01  4.58258266e-01  3.32018029e-09  4.58258266e-01  4.58258266e-01  1.59791934e-07  1.69513648e-07  9.30000000e-01 
 9.40000000e-01  3.36844889e-09  4.58258252e-01  4.58258252e-01  4.58258252e-01  3.32018029e-09  4.58258252e-01  4.58258252e-01  1.59791892e-07  1.69513498e-07  9.40000000e-01 
 9.50000000e-01  3.36844884e-09  4.58258284e-01  4.58258284e-01  4.58258285e-01  3.32018029e-09  4.58258284e-01  4.58258284e-01  1.59791948e-07  1.69513399e-07  9.50000000e-01 
 9.60000000e-01  3.36844883e-09  4.58258241e-01  4.58258241e-01  4.58258241e-01  3.32018029e-09  4.58258241e-01  4.58258241e-01  1.59791884e-07  1.69513044e-07  9.60000000e-01 
 9.70000000e-01  3.36844883e-09  4.58258243e-01  4.58258243e-01  4.58258244e-01  3.32018029e-09  4.58258243e-01  4.58258243e-01  1.59791877e-07  1.69512944e-07  9.70000000e-01 
 9.80000000e-01  3.36844884e-09  4.58258272e-01  4.58258272e-01  4.58258273e-01  3.32018029e-09  4.58258272e-01  4.58258272e-01  1.59791927e-07  1.69512965e-07  9.80000000e-01 
 9.90000000e-01  3.36844889e-09  4.58258239e-01  4.58258239e-01  4.58258240e-01  3.32018029e-09  4.58258239e-01  4.58258239e-01  1.59791873e-07  1.69512596e-07  9.90000000e-01 
 1.00000000e+00  3.36844884e-09  4.58258250e-01  4.58258250e-01  4.58258250e-01  3.32018029e-09  4.58258250e-01  4.58258250e-01  1.59791893e-07  1.69512482e-07  1.00000000e+00 
 1.01000000e+00  3.36844884e-09  4.58258253e-01  4.58258253e-01  4.58258253e-01  3.32018029e-09  4.58258253e-01  4.58258253e-01  1.59791905e-07  1.69512298e-07  1.01000000e+00 
 1.02000000e+00  3.36844889e-09  4.58258269e-01  4.58258270e-01  4.58258270e-01  3.32018029e-09  4.58258269e-01  4.58258270e-01  1.59791926e-07  1.69512226e-07  1.02000000e+00 
 1.03000000e+00  3.36844889e-09  4.58258234e-01  4.58258234e-01  4.58258234e-01  3.32018029e-09  4.58258234e-01  4.58258234e-01  1.59791878e-07  1.69511971e-07  1.03000000e+00 
 1.04000000e+00  3.36844889e-09  4.58258258e-01  4.58258258e-01  4.58258258e-01  3.32018029e-09  4.58258258e-01  4.58258258e-01  1.59791916e-07  1.69511935e-07  1.04000000e+00 
 1.05000000e+00  3.36844889e-09  4.58258246e-01  4.58258246e-01  4.58258246e-01  3.32018029e-09  4.58258246e-01  4.58258246e-01  1.59791891e-07  1.69511729e-07  1.05000000e+00 
 1.06000000e+00  3.36844884e-09  4.58258269e-01  4.58258269e-01  4.58258269e-01  3.32018029e-09  4.58258269e-01  4.58258269e-01  1.59791915e-07  1.69511807e-07  1.06000000e+00 
 1.07000000e+00  3.36844889e-09  4.58258239e-01  4.58258240e-01  4.58258240e-01  3.32018029e-09  4.58258240e-01  4.58258240e-01  1.59791870e-07  1.69511409e-07  1.07000000e+00 
 1.08000000e+00  3.36844889e-09  4.58258243e-01  4.58258243e-01  4.58258243e-01  3.32018029e-09  4.58258243e-01  4.58258243e-01  1.59791889e-07  1.69511210e-07  1.08000000e+00 
 1.09000000e+00  3.36844884e-09  4.58258261e-01  4.58258262e-01  4.58258262e-01  3.32018029e-09  4.58258262e-01  4.58258262e-01  1.59791914e-07  1.69511210e-07  1.09000000e+00 
 1.10000000e+00  3.36844889e-09  4.58258218e-01  4.58258218e-01  4.58258219e-01  3.32018029e-09  4.58258218e-01  4.58258218e-01  1.59791848e-07  1.69510898e-07  1.10000000e+00 
