 v-sweep         v(b0)           v(b1)           v(b2)           v(b3)           v(b4)           v(b5)           v(b6)           i(vbias)        i(viout)        v(vout)        
 0.00000000e+00  4.58007730e-01  4.58007730e-01  4.58007730e-01  4.58007730e-01  4.58007730e-01  3.19374236e-09  4.58007730e-01  1.58520938e-07  1.43551198e-07  0.00000000e+00 
 1.00000000e-02  4.58007699e-01  4.58007700e-01  4.58007699e-01  4.58007700e-01  4.58007700e-01  3.19374239e-09  4.58007700e-01  1.58520877e-07  1.43550703e-07  1.00000000e-02 
 2.00000000e-02  4.58007698e-01  4.58007699e-01  4.58007698e-01  4.58007699e-01  4.58007698e-01  3.19374239e-09  4.58007698e-01  1.58520887e-07  1.43550177e-07  2.00000000e-02 
 3.00000000e-02  4.58007687e-01  4.58007688e-01  4.58007687e-01  4.58007688e-01  4.58007688e-01  3.19374239e-09  4.58007688e-01  1.58520869e-07  1.43549903e-07  3.00000000e-02 
 4.00000000e-02  4.58007678e-01  4.58007678e-01  4.58007678e-01  4.58007678e-01  4.58007678e-01  3.19374233e-09  4.58007678e-01  1.58520851e-07  1.43549383e-07  4.00000000e-02 
 5.00000000e-02  4.58007694e-01  4.58007694e-01  4.58007694e-01  4.58007694e-01  4.58007694e-01  3.19374239e-09  4.58007694e-01  1.58520877e-07  1.43549167e-07  5.00000000e-02 
 6.00000000e-02  4.58007722e-01  4.58007722e-01  4.58007722e-01  4.58007722e-01  4.58007722e-01  3.19374239e-09  4.58007722e-01  1.58520918e-07  1.43548827e-07  6.00000000e-02 
 7.00000000e-02  4.58007690e-01  4.58007690e-01  4.58007690e-01  4.58007690e-01  4.58007690e-01  3.19374239e-09  4.58007690e-01  1.58520878e-07  1.43548504e-07  7.00000000e-02 
 8.00000000e-02  4.58007675e-01  4.58007675e-01  4.58007675e-01  4.58007675e-01  4.58007675e-01  3.19374239e-09  4.58007675e-01  1.58520852e-07  1.43548101e-07  8.00000000e-02 
 9.00000000e-02  4.58007711e-01  4.58007711e-01  4.58007711e-01  4.58007711e-01  4.58007711e-01  3.19374239e-09  4.58007711e-01  1.58520904e-07  1.43547787e-07  9.00000000e-02 
 1.00000000e-01  4.58007709e-01  4.58007709e-01  4.58007709e-01  4.58007709e-01  4.58007709e-01  3.19374234e-09  4.58007709e-01  1.58520909e-07  1.43547547e-07  1.00000000e-01 
 1.10000000e-01  4.58007680e-01  4.58007680e-01  4.58007680e-01  4.58007680e-01  4.58007680e-01  3.19374239e-09  4.58007680e-01  1.58520859e-07  1.43547147e-07  1.10000000e-01 
 1.20000000e-01  4.58007702e-01  4.58007702e-01  4.58007702e-01  4.58007702e-01  4.58007702e-01  3.19374239e-09  4.58007702e-01  1.58520898e-07  1.43547084e-07  1.20000000e-01 
 1.30000000e-01  4.58007682e-01  4.58007682e-01  4.58007682e-01  4.58007682e-01  4.58007682e-01  3.19374239e-09  4.58007682e-01  1.58520873e-07  1.43546655e-07  1.30000000e-01 
 1.40000000e-01  4.58007691e-01  4.58007691e-01  4.58007691e-01  4.58007691e-01  4.58007691e-01  3.19374239e-09  4.58007691e-01  1.58520871e-07  1.43546433e-07  1.40000000e-01 
 1.50000000e-01  4.58007679e-01  4.58007679e-01  4.58007679e-01  4.58007679e-01  4.58007679e-01  3.19374239e-09  4.58007679e-01  1.58520867e-07  1.43546165e-07  1.50000000e-01 
 1.60000000e-01  4.58007708e-01  4.58007708e-01  4.58007708e-01  4.58007708e-01  4.58007708e-01  3.19374239e-09  4.58007708e-01  1.58520904e-07  1.43546185e-07  1.60000000e-01 
 1.70000000e-01  4.58007690e-01  4.58007690e-01  4.58007690e-01  4.58007690e-01  4.58007690e-01  3.19374239e-09  4.58007690e-01  1.58520880e-07  1.43545819e-07  1.70000000e-01 
 1.80000000e-01  4.58007695e-01  4.58007695e-01  4.58007695e-01  4.58007695e-01  4.58007695e-01  3.19374239e-09  4.58007695e-01  1.58520866e-07  1.43545627e-07  1.80000000e-01 
 1.90000000e-01  4.58007691e-01  4.58007691e-01  4.58007691e-01  4.58007691e-01  4.58007691e-01  3.19374239e-09  4.58007691e-01  1.58520864e-07  1.43545426e-07  1.90000000e-01 
 2.00000000e-01  4.58007692e-01  4.58007692e-01  4.58007692e-01  4.58007692e-01  4.58007692e-01  3.19374239e-09  4.58007692e-01  1.58520874e-07  1.43545185e-07  2.00000000e-01 
 2.10000000e-01  4.58007695e-01  4.58007696e-01  4.58007695e-01  4.58007696e-01  4.58007695e-01  3.19374239e-09  4.58007695e-01  1.58520890e-07  1.43545041e-07  2.10000000e-01 
 2.20000000e-01  4.58007673e-01  4.58007674e-01  4.58007673e-01  4.58007674e-01  4.58007674e-01  3.19374239e-09  4.58007674e-01  1.58520852e-07  1.43544847e-07  2.20000000e-01 
 2.30000000e-01  4.58007676e-01  4.58007676e-01  4.58007676e-01  4.58007676e-01  4.58007676e-01  3.19374239e-09  4.58007676e-01  1.58520854e-07  1.43544598e-07  2.30000000e-01 
 2.40000000e-01  4.58007667e-01  4.58007667e-01  4.58007667e-01  4.58007667e-01  4.58007667e-01  3.19374239e-09  4.58007667e-01  1.58520852e-07  1.43544383e-07  2.40000000e-01 
 2.50000000e-01  4.58007690e-01  4.58007690e-01  4.58007690e-01  4.58007690e-01  4.58007690e-01  3.19374239e-09  4.58007690e-01  1.58520880e-07  1.43544419e-07  2.50000000e-01 
 2.60000000e-01  4.58007704e-01  4.58007705e-01  4.58007704e-01  4.58007705e-01  4.58007705e-01  3.19374239e-09  4.58007705e-01  1.58520888e-07  1.43544220e-07  2.60000000e-01 
 2.70000000e-01  4.58007679e-01  4.58007680e-01  4.58007679e-01  4.58007680e-01  4.58007680e-01  3.19374233e-09  4.58007679e-01  1.58520862e-07  1.43543934e-07  2.70000000e-01 
 2.80000000e-01  4.58007674e-01  4.58007674e-01  4.58007674e-01  4.58007674e-01  4.58007674e-01  3.19374239e-09  4.58007674e-01  1.58520850e-07  1.43543881e-07  2.80000000e-01 
 2.90000000e-01  4.58007696e-01  4.58007697e-01  4.58007696e-01  4.58007697e-01  4.58007696e-01  3.19374239e-09  4.58007696e-01  1.58520876e-07  1.43543684e-07  2.90000000e-01 
 3.00000000e-01  4.58007700e-01  4.58007700e-01  4.58007700e-01  4.58007700e-01  4.58007700e-01  3.19374239e-09  4.58007700e-01  1.58520886e-07  1.43543598e-07  3.00000000e-01 
 3.10000000e-01  4.58007709e-01  4.58007709e-01  4.58007709e-01  4.58007709e-01  4.58007709e-01  3.19374239e-09  4.58007709e-01  1.58520905e-07  1.43543524e-07  3.10000000e-01 
 3.20000000e-01  4.58007694e-01  4.58007694e-01  4.58007694e-01  4.58007694e-01  4.58007694e-01  3.19374239e-09  4.58007694e-01  1.58520878e-07  1.43543410e-07  3.20000000e-01 
 3.30000000e-01  4.58007682e-01  4.58007682e-01  4.58007682e-01  4.58007682e-01  4.58007682e-01  3.19374239e-09  4.58007682e-01  1.58520856e-07  1.43543240e-07  3.30000000e-01 
 3.40000000e-01  4.58007704e-01  4.58007704e-01  4.58007704e-01  4.58007704e-01  4.58007704e-01  3.19374239e-09  4.58007704e-01  1.58520906e-07  1.43543147e-07  3.40000000e-01 
 3.50000000e-01  4.58007705e-01  4.58007705e-01  4.58007705e-01  4.58007706e-01  4.58007705e-01  3.19374239e-09  4.58007705e-01  1.58520902e-07  1.43542959e-07  3.50000000e-01 
 3.60000000e-01  4.58007699e-01  4.58007699e-01  4.58007699e-01  4.58007699e-01  4.58007699e-01  3.19374239e-09  4.58007699e-01  1.58520887e-07  1.43542799e-07  3.60000000e-01 
 3.70000000e-01  4.58007689e-01  4.58007690e-01  4.58007689e-01  4.58007690e-01  4.58007690e-01  3.19374239e-09  4.58007690e-01  1.58520878e-07  1.43542724e-07  3.70000000e-01 
 3.80000000e-01  4.58007688e-01  4.58007688e-01  4.58007688e-01  4.58007688e-01  4.58007688e-01  3.19374239e-09  4.58007688e-01  1.58520863e-07  1.43542504e-07  3.80000000e-01 
 3.90000000e-01  4.58007698e-01  4.58007698e-01  4.58007698e-01  4.58007698e-01  4.58007698e-01  3.19374239e-09  4.58007698e-01  1.58520883e-07  1.43542533e-07  3.90000000e-01 
 4.00000000e-01  4.58007713e-01  4.58007713e-01  4.58007713e-01  4.58007713e-01  4.58007713e-01  3.19374239e-09  4.58007713e-01  1.58520927e-07  1.43542483e-07  4.00000000e-01 
 4.10000000e-01  4.58007696e-01  4.58007696e-01  4.58007696e-01  4.58007696e-01  4.58007696e-01  3.19374239e-09  4.58007696e-01  1.58520887e-07  1.43542223e-07  4.10000000e-01 
 4.20000000e-01  4.58007650e-01  4.58007650e-01  4.58007650e-01  4.58007650e-01  4.58007650e-01  3.19374239e-09  4.58007650e-01  1.58520816e-07  1.43542163e-07  4.20000000e-01 
 4.30000000e-01  4.58007696e-01  4.58007696e-01  4.58007696e-01  4.58007696e-01  4.58007696e-01  3.19374239e-09  4.58007696e-01  1.58520903e-07  1.43542120e-07  4.30000000e-01 
 4.40000000e-01  4.58007673e-01  4.58007673e-01  4.58007673e-01  4.58007673e-01  4.58007673e-01  3.19374239e-09  4.58007673e-01  1.58520861e-07  1.43541961e-07  4.40000000e-01 
 4.50000000e-01  4.58007703e-01  4.58007703e-01  4.58007703e-01  4.58007703e-01  4.58007703e-01  3.19374239e-09  4.58007703e-01  1.58520900e-07  1.43541847e-07  4.50000000e-01 
 4.60000000e-01  4.58007678e-01  4.58007678e-01  4.58007678e-01  4.58007678e-01  4.58007678e-01  3.19374239e-09  4.58007678e-01  1.58520862e-07  1.43541698e-07  4.60000000e-01 
 4.70000000e-01  4.58007693e-01  4.58007693e-01  4.58007693e-01  4.58007693e-01  4.58007693e-01  3.19374239e-09  4.58007693e-01  1.58520870e-07  1.43541644e-07  4.70000000e-01 
 4.80000000e-01  4.58007681e-01  4.58007681e-01  4.58007681e-01  4.58007681e-01  4.58007681e-01  3.19374239e-09  4.58007681e-01  1.58520869e-07  1.43541470e-07  4.80000000e-01 
 4.90000000e-01  4.58007694e-01  4.58007694e-01  4.58007694e-01  4.58007694e-01  4.58007694e-01  3.19374239e-09  4.58007694e-01  1.58520879e-07  1.43541417e-07  4.90000000e-01 
 5.00000000e-01  4.58007697e-01  4.58007698e-01  4.58007697e-01  4.58007698e-01  4.58007697e-01  3.19374239e-09  4.58007697e-01  1.58520892e-07  1.43541314e-07  5.00000000e-01 
 5.10000000e-01  4.58007711e-01  4.58007711e-01  4.58007711e-01  4.58007711e-01  4.58007711e-01  3.19374239e-09  4.58007711e-01  1.58520886e-07  1.43541424e-07  5.10000000e-01 
 5.20000000e-01  4.58007701e-01  4.58007701e-01  4.58007701e-01  4.58007701e-01  4.58007701e-01  3.19374239e-09  4.58007701e-01  1.58520890e-07  1.43541126e-07  5.20000000e-01 
 5.30000000e-01  4.58007696e-01  4.58007696e-01  4.58007696e-01  4.58007696e-01  4.58007696e-01  3.19374239e-09  4.58007696e-01  1.58520881e-07  1.43541115e-07  5.30000000e-01 
 5.40000000e-01  4.58007685e-01  4.58007685e-01  4.58007685e-01  4.58007685e-01  4.58007685e-01  3.19374239e-09  4.58007685e-01  1.58520862e-07  1.43540987e-07  5.40000000e-01 
 5.50000000e-01  4.58007677e-01  4.58007677e-01  4.58007677e-01  4.58007677e-01  4.58007677e-01  3.19374233e-09  4.58007677e-01  1.58520867e-07  1.43540738e-07  5.50000000e-01 
 5.60000000e-01  4.58007670e-01  4.58007670e-01  4.58007670e-01  4.58007670e-01  4.58007670e-01  3.19374239e-09  4.58007670e-01  1.58520857e-07  1.43540728e-07  5.60000000e-01 
 5.70000000e-01  4.58007702e-01  4.58007703e-01  4.58007702e-01  4.58007703e-01  4.58007703e-01  3.19374239e-09  4.58007703e-01  1.58520894e-07  1.43540589e-07  5.70000000e-01 
 5.80000000e-01  4.58007698e-01  4.58007698e-01  4.58007698e-01  4.58007698e-01  4.58007698e-01  3.19374239e-09  4.58007698e-01  1.58520884e-07  1.43540561e-07  5.80000000e-01 
 5.90000000e-01  4.58007666e-01  4.58007666e-01  4.58007666e-01  4.58007667e-01  4.58007666e-01  3.19374239e-09  4.58007666e-01  1.58520844e-07  1.43540397e-07  5.90000000e-01 
 6.00000000e-01  4.58007718e-01  4.58007718e-01  4.58007718e-01  4.58007718e-01  4.58007718e-01  3.19374239e-09  4.58007718e-01  1.58520920e-07  1.43540504e-07  6.00000000e-01 
 6.10000000e-01  4.58007703e-01  4.58007703e-01  4.58007703e-01  4.58007703e-01  4.58007703e-01  3.19374239e-09  4.58007703e-01  1.58520907e-07  1.43540248e-07  6.10000000e-01 
 6.20000000e-01  4.58007673e-01  4.58007673e-01  4.58007673e-01  4.58007673e-01  4.58007673e-01  3.19374239e-09  4.58007673e-01  1.58520851e-07  1.43540070e-07  6.20000000e-01 
 6.30000000e-01  4.58007707e-01  4.58007707e-01  4.58007707e-01  4.58007707e-01  4.58007707e-01  3.19374239e-09  4.58007707e-01  1.58520913e-07  1.43540184e-07  6.30000000e-01 
 6.40000000e-01  4.58007707e-01  4.58007707e-01  4.58007707e-01  4.58007707e-01  4.58007707e-01  3.19374239e-09  4.58007707e-01  1.58520906e-07  1.43540078e-07  6.40000000e-01 
 6.50000000e-01  4.58007713e-01  4.58007713e-01  4.58007713e-01  4.58007713e-01  4.58007713e-01  3.19374239e-09  4.58007713e-01  1.58520912e-07  1.43540078e-07  6.50000000e-01 
 6.60000000e-01  4.58007681e-01  4.58007681e-01  4.58007681e-01  4.58007681e-01  4.58007681e-01  3.19374239e-09  4.58007681e-01  1.58520862e-07  1.43539737e-07  6.60000000e-01 
 6.70000000e-01  4.58007703e-01  4.58007703e-01  4.58007703e-01  4.58007703e-01  4.58007703e-01  3.19374239e-09  4.58007703e-01  1.58520896e-07  1.43539694e-07  6.70000000e-01 
 6.80000000e-01  4.58007693e-01  4.58007693e-01  4.58007693e-01  4.58007693e-01  4.58007693e-01  3.19374239e-09  4.58007693e-01  1.58520876e-07  1.43539530e-07  6.80000000e-01 
 6.90000000e-01  4.58007659e-01  4.58007660e-01  4.58007659e-01  4.58007660e-01  4.58007660e-01  3.19374239e-09  4.58007660e-01  1.58520829e-07  1.43539417e-07  6.90000000e-01 
 7.00000000e-01  4.58007692e-01  4.58007692e-01  4.58007692e-01  4.58007692e-01  4.58007692e-01  3.19374239e-09  4.58007692e-01  1.58520877e-07  1.43539395e-07  7.00000000e-01 
 7.10000000e-01  4.58007709e-01  4.58007709e-01  4.58007709e-01  4.58007709e-01  4.58007709e-01  3.19374239e-09  4.58007709e-01  1.58520899e-07  1.43539332e-07  7.10000000e-01 
 7.20000000e-01  4.58007702e-01  4.58007703e-01  4.58007702e-01  4.58007703e-01  4.58007703e-01  3.19374239e-09  4.58007703e-01  1.58520891e-07  1.43539204e-07  7.20000000e-01 
 7.30000000e-01  4.58007684e-01  4.58007685e-01  4.58007684e-01  4.58007685e-01  4.58007684e-01  3.19374239e-09  4.58007684e-01  1.58520878e-07  1.43539140e-07  7.30000000e-01 
 7.40000000e-01  4.58007700e-01  4.58007701e-01  4.58007700e-01  4.58007701e-01  4.58007700e-01  3.19374239e-09  4.58007700e-01  1.58520894e-07  1.43538998e-07  7.40000000e-01 
 7.50000000e-01  4.58007677e-01  4.58007677e-01  4.58007677e-01  4.58007677e-01  4.58007677e-01  3.19374239e-09  4.58007677e-01  1.58520856e-07  1.43538792e-07  7.50000000e-01 
 7.60000000e-01  4.58007714e-01  4.58007714e-01  4.58007714e-01  4.58007714e-01  4.58007714e-01  3.19374239e-09  4.58007714e-01  1.58520907e-07  1.43538962e-07  7.60000000e-01 
 7.70000000e-01  4.58007680e-01  4.58007680e-01  4.58007680e-01  4.58007680e-01  4.58007680e-01  3.19374239e-09  4.58007680e-01  1.58520859e-07  1.43538742e-07  7.70000000e-01 
 7.80000000e-01  4.58007693e-01  4.58007693e-01  4.58007693e-01  4.58007693e-01  4.58007693e-01  3.19374239e-09  4.58007693e-01  1.58520874e-07  1.43538649e-07  7.80000000e-01 
 7.90000000e-01  4.58007697e-01  4.58007698e-01  4.58007697e-01  4.58007698e-01  4.58007697e-01  3.19374239e-09  4.58007697e-01  1.58520888e-07  1.43538422e-07  7.90000000e-01 
 8.00000000e-01  4.58007697e-01  4.58007697e-01  4.58007697e-01  4.58007697e-01  4.58007697e-01  3.19374239e-09  4.58007697e-01  1.58520893e-07  1.43538351e-07  8.00000000e-01 
 8.10000000e-01  4.58007679e-01  4.58007679e-01  4.58007679e-01  4.58007679e-01  4.58007679e-01  3.19374239e-09  4.58007679e-01  1.58520860e-07  1.43538166e-07  8.10000000e-01 
 8.20000000e-01  4.58007684e-01  4.58007684e-01  4.58007684e-01  4.58007684e-01  4.58007684e-01  3.19374239e-09  4.58007684e-01  1.58520867e-07  1.43538131e-07  8.20000000e-01 
 8.30000000e-01  4.58007678e-01  4.58007678e-01  4.58007678e-01  4.58007678e-01  4.58007678e-01  3.19374239e-09  4.58007678e-01  1.58520860e-07  1.43537939e-07  8.30000000e-01 
 8.40000000e-01  4.58007700e-01  4.58007700e-01  4.58007700e-01  4.58007700e-01  4.58007700e-01  3.19374239e-09  4.58007700e-01  1.58520880e-07  1.43537996e-07  8.40000000e-01 
 8.50000000e-01  4.58007689e-01  4.58007689e-01  4.58007689e-01  4.58007690e-01  4.58007689e-01  3.19374239e-09  4.58007689e-01  1.58520883e-07  1.43537854e-07  8.50000000e-01 
 8.60000000e-01  4.58007672e-01  4.58007672e-01  4.58007672e-01  4.58007672e-01  4.58007672e-01  3.19374239e-09  4.58007672e-01  1.58520854e-07  1.43537669e-07  8.60000000e-01 
 8.70000000e-01  4.58007695e-01  4.58007695e-01  4.58007695e-01  4.58007695e-01  4.58007695e-01  3.19374239e-09  4.58007695e-01  1.58520883e-07  1.43537711e-07  8.70000000e-01 
 8.80000000e-01  4.58007699e-01  4.58007700e-01  4.58007699e-01  4.58007700e-01  4.58007700e-01  3.19374239e-09  4.58007700e-01  1.58520893e-07  1.43537484e-07  8.80000000e-01 
 8.90000000e-01  4.58007702e-01  4.58007702e-01  4.58007702e-01  4.58007702e-01  4.58007702e-01  3.19374239e-09  4.58007702e-01  1.58520899e-07  1.43537498e-07  8.90000000e-01 
 9.00000000e-01  4.58007708e-01  4.58007708e-01  4.58007708e-01  4.58007708e-01  4.58007708e-01  3.19374239e-09  4.58007708e-01  1.58520905e-07  1.43537456e-07  9.00000000e-01 
 9.10000000e-01  4.58007684e-01  4.58007684e-01  4.58007684e-01  4.58007684e-01  4.58007684e-01  3.19374239e-09  4.58007684e-01  1.58520880e-07  1.43537115e-07  9.10000000e-01 
 9.20000000e-01  4.58007666e-01  4.58007666e-01  4.58007666e-01  4.58007666e-01  4.58007666e-01  3.19374239e-09  4.58007666e-01  1.58520833e-07  1.43537150e-07  9.20000000e-01 
 9.30000000e-01  4.58007684e-01  4.58007684e-01  4.58007684e-01  4.58007685e-01  4.58007684e-01  3.19374239e-09  4.58007684e-01  1.58520882e-07  1.43537108e-07  9.30000000e-01 
 9.40000000e-01  4.58007683e-01  4.58007683e-01  4.58007683e-01  4.58007683e-01  4.58007683e-01  3.19374239e-09  4.58007683e-01  1.58520864e-07  1.43536845e-07  9.40000000e-01 
 9.50000000e-01  4.58007674e-01  4.58007675e-01  4.58007674e-01  4.58007675e-01  4.58007674e-01  3.19374239e-09  4.58007674e-01  1.58520855e-07  1.43536781e-07  9.50000000e-01 
 9.60000000e-01  4.58007699e-01  4.58007699e-01  4.58007699e-01  4.58007699e-01  4.58007699e-01  3.19374239e-09  4.58007699e-01  1.58520881e-07  1.43536752e-07  9.60000000e-01 
 9.70000000e-01  4.58007684e-01  4.58007684e-01  4.58007684e-01  4.58007684e-01  4.58007684e-01  3.19374239e-09  4.58007684e-01  1.58520875e-07  1.43536639e-07  9.70000000e-01 
 9.80000000e-01  4.58007676e-01  4.58007676e-01  4.58007676e-01  4.58007676e-01  4.58007676e-01  3.19374239e-09  4.58007676e-01  1.58520858e-07  1.43536390e-07  9.80000000e-01 
 9.90000000e-01  4.58007694e-01  4.58007694e-01  4.58007694e-01  4.58007694e-01  4.58007694e-01  3.19374239e-09  4.58007694e-01  1.58520882e-07  1.43536433e-07  9.90000000e-01 
 1.00000000e+00  4.58007740e-01  4.58007740e-01  4.58007740e-01  4.58007740e-01  4.58007740e-01  3.19374239e-09  4.58007740e-01  1.58520952e-07  1.43536447e-07  1.00000000e+00 
 1.01000000e+00  4.58007705e-01  4.58007705e-01  4.58007705e-01  4.58007705e-01  4.58007705e-01  3.19374239e-09  4.58007705e-01  1.58520903e-07  1.43536269e-07  1.01000000e+00 
 1.02000000e+00  4.58007660e-01  4.58007660e-01  4.58007660e-01  4.58007660e-01  4.58007660e-01  3.19374239e-09  4.58007660e-01  1.58520819e-07  1.43536006e-07  1.02000000e+00 
 1.03000000e+00  4.58007688e-01  4.58007688e-01  4.58007688e-01  4.58007688e-01  4.58007688e-01  3.19374239e-09  4.58007688e-01  1.58520890e-07  1.43535843e-07  1.03000000e+00 
 1.04000000e+00  4.58007688e-01  4.58007688e-01  4.58007688e-01  4.58007688e-01  4.58007688e-01  3.19374239e-09  4.58007688e-01  1.58520888e-07  1.43535779e-07  1.04000000e+00 
 1.05000000e+00  4.58007686e-01  4.58007686e-01  4.58007686e-01  4.58007686e-01  4.58007686e-01  3.19374239e-09  4.58007686e-01  1.58520860e-07  1.43535665e-07  1.05000000e+00 
 1.06000000e+00  4.58007694e-01  4.58007694e-01  4.58007694e-01  4.58007694e-01  4.58007694e-01  3.19374239e-09  4.58007694e-01  1.58520871e-07  1.43535622e-07  1.06000000e+00 
 1.07000000e+00  4.58007685e-01  4.58007685e-01  4.58007685e-01  4.58007685e-01  4.58007685e-01  3.19374239e-09  4.58007685e-01  1.58520876e-07  1.43535381e-07  1.07000000e+00 
 1.08000000e+00  4.58007681e-01  4.58007681e-01  4.58007681e-01  4.58007682e-01  4.58007681e-01  3.19374239e-09  4.58007681e-01  1.58520864e-07  1.43535274e-07  1.08000000e+00 
 1.09000000e+00  4.58007708e-01  4.58007708e-01  4.58007708e-01  4.58007708e-01  4.58007708e-01  3.19374239e-09  4.58007708e-01  1.58520896e-07  1.43535281e-07  1.09000000e+00 
 1.10000000e+00  4.58007707e-01  4.58007707e-01  4.58007707e-01  4.58007707e-01  4.58007707e-01  3.19374239e-09  4.58007707e-01  1.58520909e-07  1.43535154e-07  1.10000000e+00 
