 v-sweep         v(b0)           v(b1)           v(b2)           v(b3)           v(b4)           v(b5)           v(b6)           i(vbias)        i(viout)        v(vout)        
 0.00000000e+00  4.58235224e-01  4.58235224e-01  3.28717799e-09  3.13529046e-09  4.58235224e-01  4.58235224e-01  4.58235224e-01  1.57120260e-07  1.71440700e-07  0.00000000e+00 
 1.00000000e-02  4.58235249e-01  4.58235249e-01  3.28717796e-09  3.13529050e-09  4.58235249e-01  4.58235250e-01  4.58235249e-01  1.57120307e-07  1.71440312e-07  1.00000000e-02 
 2.00000000e-02  4.58235249e-01  4.58235249e-01  3.28717802e-09  3.13529044e-09  4.58235249e-01  4.58235249e-01  4.58235249e-01  1.57120307e-07  1.71439899e-07  2.00000000e-02 
 3.00000000e-02  4.58235270e-01  4.58235270e-01  3.28717802e-09  3.13529050e-09  4.58235270e-01  4.58235270e-01  4.58235270e-01  1.57120321e-07  1.71439542e-07  3.00000000e-02 
 4.00000000e-02  4.58235249e-01  4.58235249e-01  3.28717802e-09  3.13529050e-09  4.58235249e-01  4.58235249e-01  4.58235249e-01  1.57120299e-07  1.71439020e-07  4.00000000e-02 
 5.00000000e-02  4.58235249e-01  4.58235249e-01  3.28717796e-09  3.13529050e-09  4.58235249e-01  4.58235249e-01  4.58235249e-01  1.57120292e-07  1.71438598e-07  5.00000000e-02 
 6.00000000e-02  4.58235248e-01  4.58235248e-01  3.28717802e-09  3.13529044e-09  4.58235247e-01  4.58235248e-01  4.58235248e-01  1.57120300e-07  1.71438328e-07  6.00000000e-02 
 7.00000000e-02  4.58235264e-01  4.58235264e-01  3.28717802e-09  3.13529044e-09  4.58235264e-01  4.58235264e-01  4.58235264e-01  1.57120330e-07  1.71438019e-07  7.00000000e-02 
 8.00000000e-02  4.58235259e-01  4.58235259e-01  3.28717802e-09  3.13529044e-09  4.58235259e-01  4.58235260e-01  4.58235259e-01  1.57120311e-07  1.71437638e-07  8.00000000e-02 
 9.00000000e-02  4.58235243e-01  4.58235243e-01  3.28717796e-09  3.13529050e-09  4.58235243e-01  4.58235243e-01  4.58235243e-01  1.57120303e-07  1.71437186e-07  9.00000000e-02 
 1.00000000e-01  4.58235260e-01  4.58235260e-01  3.28717802e-09  3.13529044e-09  4.58235260e-01  4.58235260e-01  4.58235260e-01  1.57120318e-07  1.71436954e-07  1.00000000e-01 
 1.10000000e-01  4.58235244e-01  4.58235244e-01  3.28717802e-09  3.13529050e-09  4.58235244e-01  4.58235244e-01  4.58235244e-01  1.57120294e-07  1.71436664e-07  1.10000000e-01 
 1.20000000e-01  4.58235245e-01  4.58235245e-01  3.28717796e-09  3.13529044e-09  4.58235245e-01  4.58235245e-01  4.58235245e-01  1.57120294e-07  1.71436277e-07  1.20000000e-01 
 1.30000000e-01  4.58235259e-01  4.58235259e-01  3.28717802e-09  3.13529050e-09  4.58235259e-01  4.58235259e-01  4.58235259e-01  1.57120311e-07  1.71436099e-07  1.30000000e-01 
 1.40000000e-01  4.58235253e-01  4.58235253e-01  3.28717796e-09  3.13529050e-09  4.58235253e-01  4.58235253e-01  4.58235253e-01  1.57120311e-07  1.71435816e-07  1.40000000e-01 
 1.50000000e-01  4.58235257e-01  4.58235257e-01  3.28717802e-09  3.13529050e-09  4.58235257e-01  4.58235257e-01  4.58235257e-01  1.57120309e-07  1.71435556e-07  1.50000000e-01 
 1.60000000e-01  4.58235244e-01  4.58235244e-01  3.28717802e-09  3.13529044e-09  4.58235244e-01  4.58235244e-01  4.58235244e-01  1.57120300e-07  1.71435294e-07  1.60000000e-01 
 1.70000000e-01  4.58235256e-01  4.58235256e-01  3.28717802e-09  3.13529044e-09  4.58235256e-01  4.58235256e-01  4.58235256e-01  1.57120303e-07  1.71434985e-07  1.70000000e-01 
 1.80000000e-01  4.58235244e-01  4.58235244e-01  3.28717796e-09  3.13529044e-09  4.58235244e-01  4.58235245e-01  4.58235244e-01  1.57120302e-07  1.71434802e-07  1.80000000e-01 
 1.90000000e-01  4.58235227e-01  4.58235227e-01  3.28717796e-09  3.13529050e-09  4.58235227e-01  4.58235227e-01  4.58235227e-01  1.57120277e-07  1.71434435e-07  1.90000000e-01 
 2.00000000e-01  4.58235246e-01  4.58235246e-01  3.28717796e-09  3.13529044e-09  4.58235246e-01  4.58235246e-01  4.58235246e-01  1.57120289e-07  1.71434406e-07  2.00000000e-01 
 2.10000000e-01  4.58235241e-01  4.58235241e-01  3.28717802e-09  3.13529050e-09  4.58235241e-01  4.58235241e-01  4.58235241e-01  1.57120295e-07  1.71434205e-07  2.10000000e-01 
 2.20000000e-01  4.58235267e-01  4.58235267e-01  3.28717802e-09  3.13529050e-09  4.58235267e-01  4.58235267e-01  4.58235267e-01  1.57120327e-07  1.71434030e-07  2.20000000e-01 
 2.30000000e-01  4.58235224e-01  4.58235224e-01  3.28717802e-09  3.13529050e-09  4.58235224e-01  4.58235224e-01  4.58235224e-01  1.57120266e-07  1.71433545e-07  2.30000000e-01 
 2.40000000e-01  4.58235259e-01  4.58235259e-01  3.28717802e-09  3.13529050e-09  4.58235259e-01  4.58235259e-01  4.58235259e-01  1.57120311e-07  1.71433655e-07  2.40000000e-01 
 2.50000000e-01  4.58235240e-01  4.58235240e-01  3.28717802e-09  3.13529044e-09  4.58235240e-01  4.58235240e-01  4.58235240e-01  1.57120289e-07  1.71433408e-07  2.50000000e-01 
 2.60000000e-01  4.58235270e-01  4.58235270e-01  3.28717802e-09  3.13529050e-09  4.58235270e-01  4.58235270e-01  4.58235270e-01  1.57120318e-07  1.71433291e-07  2.60000000e-01 
 2.70000000e-01  4.58235247e-01  4.58235247e-01  3.28717802e-09  3.13529050e-09  4.58235247e-01  4.58235247e-01  4.58235247e-01  1.57120315e-07  1.71432950e-07  2.70000000e-01 
 2.80000000e-01  4.58235218e-01  4.58235218e-01  3.28717802e-09  3.13529050e-09  4.58235218e-01  4.58235218e-01  4.58235218e-01  1.57120259e-07  1.71432736e-07  2.80000000e-01 
 2.90000000e-01  4.58235230e-01  4.58235230e-01  3.28717802e-09  3.13529050e-09  4.58235230e-01  4.58235230e-01  4.58235230e-01  1.57120272e-07  1.71432564e-07  2.90000000e-01 
 3.00000000e-01  4.58235251e-01  4.58235252e-01  3.28717802e-09  3.13529050e-09  4.58235251e-01  4.58235252e-01  4.58235251e-01  1.57120290e-07  1.71432536e-07  3.00000000e-01 
 3.10000000e-01  4.58235239e-01  4.58235239e-01  3.28717796e-09  3.13529050e-09  4.58235239e-01  4.58235239e-01  4.58235239e-01  1.57120294e-07  1.71432298e-07  3.10000000e-01 
 3.20000000e-01  4.58235241e-01  4.58235242e-01  3.28717802e-09  3.13529050e-09  4.58235241e-01  4.58235242e-01  4.58235242e-01  1.57120295e-07  1.71432177e-07  3.20000000e-01 
 3.30000000e-01  4.58235280e-01  4.58235280e-01  3.28717796e-09  3.13529044e-09  4.58235280e-01  4.58235280e-01  4.58235280e-01  1.57120338e-07  1.71432145e-07  3.30000000e-01 
 3.40000000e-01  4.58235263e-01  4.58235263e-01  3.28717796e-09  3.13529050e-09  4.58235263e-01  4.58235263e-01  4.58235263e-01  1.57120319e-07  1.71431974e-07  3.40000000e-01 
 3.50000000e-01  4.58235274e-01  4.58235274e-01  3.28717802e-09  3.13529044e-09  4.58235274e-01  4.58235274e-01  4.58235274e-01  1.57120341e-07  1.71431804e-07  3.50000000e-01 
 3.60000000e-01  4.58235254e-01  4.58235254e-01  3.28717802e-09  3.13529050e-09  4.58235254e-01  4.58235254e-01  4.58235254e-01  1.57120314e-07  1.71431456e-07  3.60000000e-01 
 3.70000000e-01  4.58235227e-01  4.58235228e-01  3.28717802e-09  3.13529044e-09  4.58235227e-01  4.58235228e-01  4.58235227e-01  1.57120264e-07  1.71431292e-07  3.70000000e-01 
 3.80000000e-01  4.58235241e-01  4.58235241e-01  3.28717796e-09  3.13529044e-09  4.58235241e-01  4.58235241e-01  4.58235241e-01  1.57120279e-07  1.71431285e-07  3.80000000e-01 
 3.90000000e-01  4.58235242e-01  4.58235242e-01  3.28717802e-09  3.13529044e-09  4.58235242e-01  4.58235242e-01  4.58235242e-01  1.57120285e-07  1.71431072e-07  3.90000000e-01 
 4.00000000e-01  4.58235247e-01  4.58235247e-01  3.28717802e-09  3.13529050e-09  4.58235247e-01  4.58235247e-01  4.58235247e-01  1.57120299e-07  1.71431005e-07  4.00000000e-01 
 4.10000000e-01  4.58235246e-01  4.58235246e-01  3.28717796e-09  3.13529044e-09  4.58235246e-01  4.58235247e-01  4.58235246e-01  1.57120289e-07  1.71430884e-07  4.10000000e-01 
 4.20000000e-01  4.58235254e-01  4.58235254e-01  3.28717802e-09  3.13529044e-09  4.58235254e-01  4.58235254e-01  4.58235254e-01  1.57120302e-07  1.71430802e-07  4.20000000e-01 
 4.30000000e-01  4.58235235e-01  4.58235235e-01  3.28717796e-09  3.13529044e-09  4.58235235e-01  4.58235235e-01  4.58235235e-01  1.57120273e-07  1.71430504e-07  4.30000000e-01 
 4.40000000e-01  4.58235241e-01  4.58235241e-01  3.28717796e-09  3.13529050e-09  4.58235241e-01  4.58235241e-01  4.58235241e-01  1.57120285e-07  1.71430539e-07  4.40000000e-01 
 4.50000000e-01  4.58235279e-01  4.58235279e-01  3.28717802e-09  3.13529044e-09  4.58235279e-01  4.58235279e-01  4.58235279e-01  1.57120333e-07  1.71430504e-07  4.50000000e-01 
 4.60000000e-01  4.58235254e-01  4.58235254e-01  3.28717802e-09  3.13529050e-09  4.58235254e-01  4.58235254e-01  4.58235254e-01  1.57120293e-07  1.71430258e-07  4.60000000e-01 
 4.70000000e-01  4.58235242e-01  4.58235242e-01  3.28717802e-09  3.13529044e-09  4.58235242e-01  4.58235242e-01  4.58235242e-01  1.57120292e-07  1.71429996e-07  4.70000000e-01 
 4.80000000e-01  4.58235267e-01  4.58235267e-01  3.28717802e-09  3.13529044e-09  4.58235267e-01  4.58235267e-01  4.58235267e-01  1.57120335e-07  1.71429988e-07  4.80000000e-01 
 4.90000000e-01  4.58235231e-01  4.58235231e-01  3.28717802e-09  3.13529050e-09  4.58235231e-01  4.58235231e-01  4.58235231e-01  1.57120258e-07  1.71429789e-07  4.90000000e-01 
 5.00000000e-01  4.58235253e-01  4.58235253e-01  3.28717802e-09  3.13529044e-09  4.58235252e-01  4.58235253e-01  4.58235253e-01  1.57120301e-07  1.71429697e-07  5.00000000e-01 
 5.10000000e-01  4.58235268e-01  4.58235268e-01  3.28717802e-09  3.13529044e-09  4.58235268e-01  4.58235268e-01  4.58235268e-01  1.57120326e-07  1.71429548e-07  5.10000000e-01 
 5.20000000e-01  4.58235271e-01  4.58235271e-01  3.28717796e-09  3.13529050e-09  4.58235271e-01  4.58235271e-01  4.58235271e-01  1.57120336e-07  1.71429566e-07  5.20000000e-01 
 5.30000000e-01  4.58235234e-01  4.58235234e-01  3.28717796e-09  3.13529044e-09  4.58235234e-01  4.58235234e-01  4.58235234e-01  1.57120266e-07  1.71429221e-07  5.30000000e-01 
 5.40000000e-01  4.58235234e-01  4.58235234e-01  3.28717802e-09  3.13529050e-09  4.58235234e-01  4.58235235e-01  4.58235234e-01  1.57120269e-07  1.71429125e-07  5.40000000e-01 
 5.50000000e-01  4.58235250e-01  4.58235250e-01  3.28717802e-09  3.13529050e-09  4.58235250e-01  4.58235250e-01  4.58235250e-01  1.57120291e-07  1.71429061e-07  5.50000000e-01 
 5.60000000e-01  4.58235252e-01  4.58235252e-01  3.28717796e-09  3.13529050e-09  4.58235252e-01  4.58235252e-01  4.58235252e-01  1.57120302e-07  1.71428969e-07  5.60000000e-01 
 5.70000000e-01  4.58235238e-01  4.58235238e-01  3.28717802e-09  3.13529044e-09  4.58235238e-01  4.58235238e-01  4.58235238e-01  1.57120273e-07  1.71428823e-07  5.70000000e-01 
 5.80000000e-01  4.58235232e-01  4.58235232e-01  3.28717802e-09  3.13529044e-09  4.58235232e-01  4.58235232e-01  4.58235232e-01  1.57120272e-07  1.71428624e-07  5.80000000e-01 
 5.90000000e-01  4.58235216e-01  4.58235216e-01  3.28717802e-09  3.13529050e-09  4.58235216e-01  4.58235216e-01  4.58235216e-01  1.57120250e-07  1.71428397e-07  5.90000000e-01 
 6.00000000e-01  4.58235263e-01  4.58235263e-01  3.28717802e-09  3.13529050e-09  4.58235263e-01  4.58235264e-01  4.58235263e-01  1.57120319e-07  1.71428397e-07  6.00000000e-01 
 6.10000000e-01  4.58235236e-01  4.58235236e-01  3.28717796e-09  3.13529044e-09  4.58235236e-01  4.58235236e-01  4.58235236e-01  1.57120283e-07  1.71428177e-07  6.10000000e-01 
 6.20000000e-01  4.58235248e-01  4.58235248e-01  3.28717796e-09  3.13529044e-09  4.58235248e-01  4.58235248e-01  4.58235248e-01  1.57120290e-07  1.71428098e-07  6.20000000e-01 
 6.30000000e-01  4.58235252e-01  4.58235252e-01  3.28717802e-09  3.13529050e-09  4.58235252e-01  4.58235252e-01  4.58235252e-01  1.57120288e-07  1.71428155e-07  6.30000000e-01 
 6.40000000e-01  4.58235270e-01  4.58235270e-01  3.28717802e-09  3.13529050e-09  4.58235270e-01  4.58235270e-01  4.58235270e-01  1.57120326e-07  1.71427978e-07  6.40000000e-01 
 6.50000000e-01  4.58235254e-01  4.58235255e-01  3.28717802e-09  3.13529050e-09  4.58235254e-01  4.58235255e-01  4.58235255e-01  1.57120306e-07  1.71427914e-07  6.50000000e-01 
 6.60000000e-01  4.58235241e-01  4.58235241e-01  3.28717796e-09  3.13529044e-09  4.58235241e-01  4.58235241e-01  4.58235241e-01  1.57120304e-07  1.71427601e-07  6.60000000e-01 
 6.70000000e-01  4.58235267e-01  4.58235267e-01  3.28717802e-09  3.13529044e-09  4.58235267e-01  4.58235267e-01  4.58235267e-01  1.57120331e-07  1.71427601e-07  6.70000000e-01 
 6.80000000e-01  4.58235230e-01  4.58235230e-01  3.28717802e-09  3.13529050e-09  4.58235230e-01  4.58235230e-01  4.58235230e-01  1.57120270e-07  1.71427381e-07  6.80000000e-01 
 6.90000000e-01  4.58235254e-01  4.58235254e-01  3.28717802e-09  3.13529044e-09  4.58235254e-01  4.58235254e-01  4.58235254e-01  1.57120305e-07  1.71427267e-07  6.90000000e-01 
 7.00000000e-01  4.58235253e-01  4.58235253e-01  3.28717802e-09  3.13529050e-09  4.58235253e-01  4.58235253e-01  4.58235253e-01  1.57120309e-07  1.71427153e-07  7.00000000e-01 
 7.10000000e-01  4.58235250e-01  4.58235250e-01  3.28717802e-09  3.13529050e-09  4.58235250e-01  4.58235251e-01  4.58235250e-01  1.57120310e-07  1.71427004e-07  7.10000000e-01 
 7.20000000e-01  4.58235254e-01  4.58235254e-01  3.28717802e-09  3.13529044e-09  4.58235254e-01  4.58235254e-01  4.58235254e-01  1.57120308e-07  1.71426841e-07  7.20000000e-01 
 7.30000000e-01  4.58235266e-01  4.58235266e-01  3.28717796e-09  3.13529044e-09  4.58235266e-01  4.58235266e-01  4.58235266e-01  1.57120333e-07  1.71426841e-07  7.30000000e-01 
 7.40000000e-01  4.58235238e-01  4.58235238e-01  3.28717802e-09  3.13529050e-09  4.58235238e-01  4.58235238e-01  4.58235238e-01  1.57120271e-07  1.71426436e-07  7.40000000e-01 
 7.50000000e-01  4.58235265e-01  4.58235265e-01  3.28717802e-09  3.13529044e-09  4.58235265e-01  4.58235265e-01  4.58235265e-01  1.57120318e-07  1.71426564e-07  7.50000000e-01 
 7.60000000e-01  4.58235251e-01  4.58235251e-01  3.28717796e-09  3.13529044e-09  4.58235251e-01  4.58235251e-01  4.58235251e-01  1.57120306e-07  1.71426322e-07  7.60000000e-01 
 7.70000000e-01  4.58235253e-01  4.58235253e-01  3.28717802e-09  3.13529050e-09  4.58235253e-01  4.58235253e-01  4.58235253e-01  1.57120301e-07  1.71426180e-07  7.70000000e-01 
 7.80000000e-01  4.58235258e-01  4.58235258e-01  3.28717802e-09  3.13529044e-09  4.58235258e-01  4.58235258e-01  4.58235258e-01  1.57120318e-07  1.71426194e-07  7.80000000e-01 
 7.90000000e-01  4.58235259e-01  4.58235259e-01  3.28717802e-09  3.13529050e-09  4.58235259e-01  4.58235259e-01  4.58235259e-01  1.57120318e-07  1.71426009e-07  7.90000000e-01 
 8.00000000e-01  4.58235238e-01  4.58235238e-01  3.28717802e-09  3.13529044e-09  4.58235238e-01  4.58235238e-01  4.58235238e-01  1.57120285e-07  1.71425647e-07  8.00000000e-01 
 8.10000000e-01  4.58235257e-01  4.58235257e-01  3.28717796e-09  3.13529044e-09  4.58235256e-01  4.58235257e-01  4.58235257e-01  1.57120314e-07  1.71425640e-07  8.10000000e-01 
 8.20000000e-01  4.58235260e-01  4.58235260e-01  3.28717802e-09  3.13529050e-09  4.58235260e-01  4.58235260e-01  4.58235260e-01  1.57120310e-07  1.71425576e-07  8.20000000e-01 
 8.30000000e-01  4.58235245e-01  4.58235245e-01  3.28717796e-09  3.13529044e-09  4.58235245e-01  4.58235245e-01  4.58235245e-01  1.57120283e-07  1.71425405e-07  8.30000000e-01 
 8.40000000e-01  4.58235250e-01  4.58235250e-01  3.28717796e-09  3.13529050e-09  4.58235250e-01  4.58235250e-01  4.58235250e-01  1.57120309e-07  1.71425285e-07  8.40000000e-01 
 8.50000000e-01  4.58235248e-01  4.58235248e-01  3.28717796e-09  3.13529050e-09  4.58235248e-01  4.58235248e-01  4.58235248e-01  1.57120309e-07  1.71425128e-07  8.50000000e-01 
 8.60000000e-01  4.58235261e-01  4.58235261e-01  3.28717796e-09  3.13529044e-09  4.58235261e-01  4.58235261e-01  4.58235261e-01  1.57120313e-07  1.71425114e-07  8.60000000e-01 
 8.70000000e-01  4.58235253e-01  4.58235253e-01  3.28717802e-09  3.13529050e-09  4.58235253e-01  4.58235253e-01  4.58235253e-01  1.57120308e-07  1.71424894e-07  8.70000000e-01 
 8.80000000e-01  4.58235268e-01  4.58235268e-01  3.28717802e-09  3.13529044e-09  4.58235268e-01  4.58235268e-01  4.58235268e-01  1.57120315e-07  1.71424730e-07  8.80000000e-01 
 8.90000000e-01  4.58235265e-01  4.58235265e-01  3.28717802e-09  3.13529050e-09  4.58235265e-01  4.58235265e-01  4.58235265e-01  1.57120317e-07  1.71424567e-07  8.90000000e-01 
 9.00000000e-01  4.58235249e-01  4.58235249e-01  3.28717796e-09  3.13529044e-09  4.58235248e-01  4.58235249e-01  4.58235249e-01  1.57120305e-07  1.71424524e-07  9.00000000e-01 
 9.10000000e-01  4.58235228e-01  4.58235228e-01  3.28717796e-09  3.13529050e-09  4.58235228e-01  4.58235228e-01  4.58235228e-01  1.57120281e-07  1.71424155e-07  9.10000000e-01 
 9.20000000e-01  4.58235246e-01  4.58235246e-01  3.28717802e-09  3.13529050e-09  4.58235246e-01  4.58235246e-01  4.58235246e-01  1.57120283e-07  1.71424183e-07  9.20000000e-01 
 9.30000000e-01  4.58235265e-01  4.58235265e-01  3.28717802e-09  3.13529044e-09  4.58235265e-01  4.58235265e-01  4.58235265e-01  1.57120321e-07  1.71424141e-07  9.30000000e-01 
 9.40000000e-01  4.58235260e-01  4.58235260e-01  3.28717802e-09  3.13529050e-09  4.58235260e-01  4.58235260e-01  4.58235260e-01  1.57120316e-07  1.71423807e-07  9.40000000e-01 
 9.50000000e-01  4.58235250e-01  4.58235250e-01  3.28717802e-09  3.13529050e-09  4.58235250e-01  4.58235250e-01  4.58235250e-01  1.57120302e-07  1.71423714e-07  9.50000000e-01 
 9.60000000e-01  4.58235263e-01  4.58235263e-01  3.28717802e-09  3.13529044e-09  4.58235263e-01  4.58235263e-01  4.58235263e-01  1.57120328e-07  1.71423601e-07  9.60000000e-01 
 9.70000000e-01  4.58235285e-01  4.58235285e-01  3.28717802e-09  3.13529050e-09  4.58235285e-01  4.58235286e-01  4.58235285e-01  1.57120353e-07  1.71423451e-07  9.70000000e-01 
 9.80000000e-01  4.58235241e-01  4.58235241e-01  3.28717802e-09  3.13529050e-09  4.58235241e-01  4.58235241e-01  4.58235241e-01  1.57120283e-07  1.71423210e-07  9.80000000e-01 
 9.90000000e-01  4.58235240e-01  4.58235240e-01  3.28717802e-09  3.13529050e-09  4.58235240e-01  4.58235240e-01  4.58235240e-01  1.57120287e-07  1.71423125e-07  9.90000000e-01 
 1.00000000e+00  4.58235234e-01  4.58235234e-01  3.28717796e-09  3.13529050e-09  4.58235234e-01  4.58235234e-01  4.58235234e-01  1.57120281e-07  1.71422847e-07  1.00000000e+00 
 1.01000000e+00  4.58235250e-01  4.58235250e-01  3.28717796e-09  3.13529044e-09  4.58235250e-01  4.58235250e-01  4.58235250e-01  1.57120302e-07  1.71422840e-07  1.01000000e+00 
 1.02000000e+00  4.58235246e-01  4.58235246e-01  3.28717802e-09  3.13529050e-09  4.58235246e-01  4.58235246e-01  4.58235246e-01  1.57120291e-07  1.71422634e-07  1.02000000e+00 
 1.03000000e+00  4.58235241e-01  4.58235241e-01  3.28717802e-09  3.13529050e-09  4.58235241e-01  4.58235241e-01  4.58235241e-01  1.57120293e-07  1.71422435e-07  1.03000000e+00 
 1.04000000e+00  4.58235233e-01  4.58235233e-01  3.28717802e-09  3.13529050e-09  4.58235233e-01  4.58235233e-01  4.58235233e-01  1.57120272e-07  1.71422272e-07  1.04000000e+00 
 1.05000000e+00  4.58235236e-01  4.58235237e-01  3.28717796e-09  3.13529050e-09  4.58235236e-01  4.58235237e-01  4.58235237e-01  1.57120282e-07  1.71422094e-07  1.05000000e+00 
 1.06000000e+00  4.58235261e-01  4.58235261e-01  3.28717796e-09  3.13529050e-09  4.58235261e-01  4.58235261e-01  4.58235261e-01  1.57120326e-07  1.71422066e-07  1.06000000e+00 
 1.07000000e+00  4.58235247e-01  4.58235247e-01  3.28717802e-09  3.13529044e-09  4.58235247e-01  4.58235247e-01  4.58235247e-01  1.57120292e-07  1.71421810e-07  1.07000000e+00 
 1.08000000e+00  4.58235250e-01  4.58235250e-01  3.28717796e-09  3.13529044e-09  4.58235250e-01  4.58235250e-01  4.58235250e-01  1.57120307e-07  1.71421604e-07  1.08000000e+00 
 1.09000000e+00  4.58235235e-01  4.58235235e-01  3.28717802e-09  3.13529050e-09  4.58235235e-01  4.58235235e-01  4.58235235e-01  1.57120282e-07  1.71421512e-07  1.09000000e+00 
 1.10000000e+00  4.58235239e-01  4.58235239e-01  3.28717802e-09  3.13529044e-09  4.58235239e-01  4.58235239e-01  4.58235239e-01  1.57120290e-07  1.71421199e-07  1.10000000e+00 
