 v-sweep         v(b0)           v(b1)           v(b2)           v(b3)           v(b4)           v(b5)           v(b6)           i(vbias)        i(viout)        v(vout)        
 0.00000000e+00  4.58978602e-01  4.58978602e-01  3.53022017e-09  3.47779924e-09  4.58978602e-01  4.58978602e-01  3.21866075e-09  1.59674097e-07  7.32738766e-08  0.00000000e+00 
 1.00000000e-02  4.58978592e-01  4.58978592e-01  3.53022014e-09  3.47779927e-09  4.58978592e-01  4.58978592e-01  3.21866072e-09  1.59674077e-07  7.32734564e-08  1.00000000e-02 
 2.00000000e-02  4.58978603e-01  4.58978603e-01  3.53022014e-09  3.47779927e-09  4.58978603e-01  4.58978603e-01  3.21866066e-09  1.59674083e-07  7.32729422e-08  2.00000000e-02 
 3.00000000e-02  4.58978625e-01  4.58978625e-01  3.53022020e-09  3.47779921e-09  4.58978625e-01  4.58978625e-01  3.21866074e-09  1.59674115e-07  7.32727161e-08  3.00000000e-02 
 4.00000000e-02  4.58978631e-01  4.58978631e-01  3.53022020e-09  3.47779922e-09  4.58978631e-01  4.58978631e-01  3.21866072e-09  1.59674131e-07  7.32724796e-08  4.00000000e-02 
 5.00000000e-02  4.58978611e-01  4.58978611e-01  3.53022014e-09  3.47779926e-09  4.58978611e-01  4.58978611e-01  3.21866072e-09  1.59674104e-07  7.32719823e-08  5.00000000e-02 
 6.00000000e-02  4.58978628e-01  4.58978628e-01  3.53022014e-09  3.47779927e-09  4.58978628e-01  4.58978628e-01  3.21866073e-09  1.59674130e-07  7.32717487e-08  6.00000000e-02 
 7.00000000e-02  4.58978638e-01  4.58978638e-01  3.53022015e-09  3.47779927e-09  4.58978638e-01  4.58978639e-01  3.21866073e-09  1.59674140e-07  7.32713969e-08  7.00000000e-02 
 8.00000000e-02  4.58978622e-01  4.58978622e-01  3.53022014e-09  3.47779927e-09  4.58978622e-01  4.58978622e-01  3.21866072e-09  1.59674126e-07  7.32710408e-08  8.00000000e-02 
 9.00000000e-02  4.58978633e-01  4.58978633e-01  3.53022020e-09  3.47779927e-09  4.58978633e-01  4.58978633e-01  3.21866073e-09  1.59674127e-07  7.32708783e-08  9.00000000e-02 
 1.00000000e-01  4.58978627e-01  4.58978627e-01  3.53022014e-09  3.47779921e-09  4.58978627e-01  4.58978627e-01  3.21866072e-09  1.59674128e-07  7.32705505e-08  1.00000000e-01 
 1.10000000e-01  4.58978626e-01  4.58978626e-01  3.53022014e-09  3.47779928e-09  4.58978626e-01  4.58978626e-01  3.21866072e-09  1.59674126e-07  7.32703009e-08  1.10000000e-01 
 1.20000000e-01  4.58978622e-01  4.58978622e-01  3.53022014e-09  3.47779926e-09  4.58978622e-01  4.58978622e-01  3.21866072e-09  1.59674137e-07  7.32700816e-08  1.20000000e-01 
 1.30000000e-01  4.58978640e-01  4.58978640e-01  3.53022015e-09  3.47779927e-09  4.58978640e-01  4.58978640e-01  3.21866073e-09  1.59674158e-07  7.32698027e-08  1.30000000e-01 
 1.40000000e-01  4.58978602e-01  4.58978602e-01  3.53022014e-09  3.47779921e-09  4.58978602e-01  4.58978602e-01  3.21866072e-09  1.59674097e-07  7.32694811e-08  1.40000000e-01 
 1.50000000e-01  4.58978598e-01  4.58978598e-01  3.53022014e-09  3.47779922e-09  4.58978598e-01  4.58978598e-01  3.21866072e-09  1.59674090e-07  7.32693692e-08  1.50000000e-01 
 1.60000000e-01  4.58978604e-01  4.58978604e-01  3.53022020e-09  3.47779926e-09  4.58978604e-01  4.58978604e-01  3.21866072e-09  1.59674091e-07  7.32691543e-08  1.60000000e-01 
 1.70000000e-01  4.58978633e-01  4.58978633e-01  3.53022014e-09  3.47779927e-09  4.58978633e-01  4.58978633e-01  3.21866073e-09  1.59674139e-07  7.32691365e-08  1.70000000e-01 
 1.80000000e-01  4.58978612e-01  4.58978612e-01  3.53022014e-09  3.47779927e-09  4.58978612e-01  4.58978612e-01  3.21866072e-09  1.59674108e-07  7.32687155e-08  1.80000000e-01 
 1.90000000e-01  4.58978601e-01  4.58978601e-01  3.53022014e-09  3.47779927e-09  4.58978601e-01  4.58978601e-01  3.21866072e-09  1.59674079e-07  7.32686800e-08  1.90000000e-01 
 2.00000000e-01  4.58978620e-01  4.58978620e-01  3.53022014e-09  3.47779927e-09  4.58978620e-01  4.58978620e-01  3.21866072e-09  1.59674111e-07  7.32685006e-08  2.00000000e-01 
 2.10000000e-01  4.58978603e-01  4.58978603e-01  3.53022014e-09  3.47779927e-09  4.58978603e-01  4.58978603e-01  3.21866072e-09  1.59674090e-07  7.32682199e-08  2.10000000e-01 
 2.20000000e-01  4.58978637e-01  4.58978637e-01  3.53022015e-09  3.47779921e-09  4.58978637e-01  4.58978637e-01  3.21866073e-09  1.59674144e-07  7.32682501e-08  2.20000000e-01 
 2.30000000e-01  4.58978615e-01  4.58978615e-01  3.53022014e-09  3.47779922e-09  4.58978615e-01  4.58978615e-01  3.21866072e-09  1.59674123e-07  7.32679410e-08  2.30000000e-01 
 2.40000000e-01  4.58978592e-01  4.58978593e-01  3.53022020e-09  3.47779926e-09  4.58978593e-01  4.58978593e-01  3.21866072e-09  1.59674075e-07  7.32677758e-08  2.40000000e-01 
 2.50000000e-01  4.58978611e-01  4.58978611e-01  3.53022014e-09  3.47779921e-09  4.58978611e-01  4.58978611e-01  3.21866067e-09  1.59674105e-07  7.32676178e-08  2.50000000e-01 
 2.60000000e-01  4.58978625e-01  4.58978625e-01  3.53022014e-09  3.47779928e-09  4.58978625e-01  4.58978625e-01  3.21866074e-09  1.59674138e-07  7.32675698e-08  2.60000000e-01 
 2.70000000e-01  4.58978600e-01  4.58978600e-01  3.53022020e-09  3.47779926e-09  4.58978600e-01  4.58978600e-01  3.21866072e-09  1.59674103e-07  7.32674561e-08  2.70000000e-01 
 2.80000000e-01  4.58978624e-01  4.58978624e-01  3.53022014e-09  3.47779927e-09  4.58978624e-01  4.58978624e-01  3.21866068e-09  1.59674121e-07  7.32673957e-08  2.80000000e-01 
 2.90000000e-01  4.58978628e-01  4.58978628e-01  3.53022014e-09  3.47779921e-09  4.58978628e-01  4.58978628e-01  3.21866073e-09  1.59674123e-07  7.32671772e-08  2.90000000e-01 
 3.00000000e-01  4.58978625e-01  4.58978625e-01  3.53022014e-09  3.47779928e-09  4.58978625e-01  4.58978625e-01  3.21866072e-09  1.59674135e-07  7.32671097e-08  3.00000000e-01 
 3.10000000e-01  4.58978625e-01  4.58978625e-01  3.53022014e-09  3.47779920e-09  4.58978625e-01  4.58978625e-01  3.21866074e-09  1.59674130e-07  7.32670102e-08  3.10000000e-01 
 3.20000000e-01  4.58978641e-01  4.58978641e-01  3.53022015e-09  3.47779922e-09  4.58978641e-01  4.58978641e-01  3.21866072e-09  1.59674146e-07  7.32669143e-08  3.20000000e-01 
 3.30000000e-01  4.58978612e-01  4.58978612e-01  3.53022014e-09  3.47779926e-09  4.58978612e-01  4.58978612e-01  3.21866072e-09  1.59674103e-07  7.32667473e-08  3.30000000e-01 
 3.40000000e-01  4.58978609e-01  4.58978609e-01  3.53022014e-09  3.47779927e-09  4.58978609e-01  4.58978609e-01  3.21866072e-09  1.59674105e-07  7.32666479e-08  3.40000000e-01 
 3.50000000e-01  4.58978600e-01  4.58978600e-01  3.53022014e-09  3.47779921e-09  4.58978600e-01  4.58978600e-01  3.21866072e-09  1.59674092e-07  7.32665981e-08  3.50000000e-01 
 3.60000000e-01  4.58978621e-01  4.58978621e-01  3.53022014e-09  3.47779922e-09  4.58978621e-01  4.58978621e-01  3.21866072e-09  1.59674108e-07  7.32664596e-08  3.60000000e-01 
 3.70000000e-01  4.58978599e-01  4.58978599e-01  3.53022020e-09  3.47779926e-09  4.58978599e-01  4.58978599e-01  3.21866072e-09  1.59674089e-07  7.32663672e-08  3.70000000e-01 
 3.80000000e-01  4.58978622e-01  4.58978622e-01  3.53022014e-09  3.47779921e-09  4.58978622e-01  4.58978622e-01  3.21866072e-09  1.59674118e-07  7.32662322e-08  3.80000000e-01 
 3.90000000e-01  4.58978630e-01  4.58978630e-01  3.53022014e-09  3.47779928e-09  4.58978630e-01  4.58978630e-01  3.21866073e-09  1.59674140e-07  7.32663281e-08  3.90000000e-01 
 4.00000000e-01  4.58978616e-01  4.58978616e-01  3.53022014e-09  3.47779926e-09  4.58978616e-01  4.58978616e-01  3.21866072e-09  1.59674114e-07  7.32661434e-08  4.00000000e-01 
 4.10000000e-01  4.58978617e-01  4.58978617e-01  3.53022020e-09  3.47779927e-09  4.58978617e-01  4.58978618e-01  3.21866067e-09  1.59674107e-07  7.32659977e-08  4.10000000e-01 
 4.20000000e-01  4.58978621e-01  4.58978621e-01  3.53022020e-09  3.47779921e-09  4.58978621e-01  4.58978621e-01  3.21866068e-09  1.59674118e-07  7.32659977e-08  4.20000000e-01 
 4.30000000e-01  4.58978616e-01  4.58978616e-01  3.53022014e-09  3.47779928e-09  4.58978616e-01  4.58978616e-01  3.21866073e-09  1.59674112e-07  7.32659480e-08  4.30000000e-01 
 4.40000000e-01  4.58978612e-01  4.58978612e-01  3.53022014e-09  3.47779926e-09  4.58978612e-01  4.58978612e-01  3.21866072e-09  1.59674117e-07  7.32658059e-08  4.40000000e-01 
 4.50000000e-01  4.58978614e-01  4.58978615e-01  3.53022020e-09  3.47779927e-09  4.58978614e-01  4.58978615e-01  3.21866068e-09  1.59674102e-07  7.32658165e-08  4.50000000e-01 
 4.60000000e-01  4.58978631e-01  4.58978631e-01  3.53022014e-09  3.47779927e-09  4.58978631e-01  4.58978631e-01  3.21866073e-09  1.59674136e-07  7.32657206e-08  4.60000000e-01 
 4.70000000e-01  4.58978600e-01  4.58978600e-01  3.53022014e-09  3.47779921e-09  4.58978600e-01  4.58978600e-01  3.21866072e-09  1.59674085e-07  7.32655003e-08  4.70000000e-01 
 4.80000000e-01  4.58978623e-01  4.58978623e-01  3.53022014e-09  3.47779928e-09  4.58978623e-01  4.58978623e-01  3.21866074e-09  1.59674121e-07  7.32654755e-08  4.80000000e-01 
 4.90000000e-01  4.58978637e-01  4.58978637e-01  3.53022015e-09  3.47779926e-09  4.58978637e-01  4.58978637e-01  3.21866072e-09  1.59674144e-07  7.32654506e-08  4.90000000e-01 
 5.00000000e-01  4.58978624e-01  4.58978624e-01  3.53022014e-09  3.47779927e-09  4.58978624e-01  4.58978624e-01  3.21866072e-09  1.59674109e-07  7.32654222e-08  5.00000000e-01 
 5.10000000e-01  4.58978629e-01  4.58978630e-01  3.53022014e-09  3.47779921e-09  4.58978630e-01  4.58978630e-01  3.21866073e-09  1.59674129e-07  7.32652445e-08  5.10000000e-01 
 5.20000000e-01  4.58978634e-01  4.58978634e-01  3.53022014e-09  3.47779922e-09  4.58978634e-01  4.58978634e-01  3.21866073e-09  1.59674133e-07  7.32653440e-08  5.20000000e-01 
 5.30000000e-01  4.58978619e-01  4.58978619e-01  3.53022014e-09  3.47779926e-09  4.58978619e-01  4.58978619e-01  3.21866072e-09  1.59674119e-07  7.32651699e-08  5.30000000e-01 
 5.40000000e-01  4.58978607e-01  4.58978607e-01  3.53022014e-09  3.47779927e-09  4.58978607e-01  4.58978607e-01  3.21866072e-09  1.59674111e-07  7.32650598e-08  5.40000000e-01 
 5.50000000e-01  4.58978611e-01  4.58978611e-01  3.53022020e-09  3.47779927e-09  4.58978611e-01  4.58978611e-01  3.21866072e-09  1.59674113e-07  7.32649248e-08  5.50000000e-01 
 5.60000000e-01  4.58978632e-01  4.58978632e-01  3.53022014e-09  3.47779927e-09  4.58978632e-01  4.58978632e-01  3.21866073e-09  1.59674142e-07  7.32650385e-08  5.60000000e-01 
 5.70000000e-01  4.58978617e-01  4.58978617e-01  3.53022014e-09  3.47779927e-09  4.58978617e-01  4.58978617e-01  3.21866072e-09  1.59674126e-07  7.32649212e-08  5.70000000e-01 
 5.80000000e-01  4.58978602e-01  4.58978602e-01  3.53022020e-09  3.47779927e-09  4.58978602e-01  4.58978602e-01  3.21866072e-09  1.59674104e-07  7.32647365e-08  5.80000000e-01 
 5.90000000e-01  4.58978611e-01  4.58978611e-01  3.53022014e-09  3.47779927e-09  4.58978611e-01  4.58978611e-01  3.21866067e-09  1.59674097e-07  7.32648289e-08  5.90000000e-01 
 6.00000000e-01  4.58978646e-01  4.58978646e-01  3.53022020e-09  3.47779927e-09  4.58978646e-01  4.58978646e-01  3.21866068e-09  1.59674138e-07  7.32647507e-08  6.00000000e-01 
 6.10000000e-01  4.58978584e-01  4.58978584e-01  3.53022020e-09  3.47779921e-09  4.58978584e-01  4.58978584e-01  3.21866073e-09  1.59674065e-07  7.32646086e-08  6.10000000e-01 
 6.20000000e-01  4.58978609e-01  4.58978610e-01  3.53022014e-09  3.47779928e-09  4.58978610e-01  4.58978610e-01  3.21866072e-09  1.59674107e-07  7.32646512e-08  6.20000000e-01 
 6.30000000e-01  4.58978617e-01  4.58978617e-01  3.53022014e-09  3.47779926e-09  4.58978617e-01  4.58978617e-01  3.21866074e-09  1.59674115e-07  7.32645304e-08  6.30000000e-01 
 6.40000000e-01  4.58978636e-01  4.58978636e-01  3.53022015e-09  3.47779927e-09  4.58978636e-01  4.58978636e-01  3.21866072e-09  1.59674138e-07  7.32644523e-08  6.40000000e-01 
 6.50000000e-01  4.58978603e-01  4.58978603e-01  3.53022014e-09  3.47779927e-09  4.58978603e-01  4.58978603e-01  3.21866072e-09  1.59674095e-07  7.32642818e-08  6.50000000e-01 
 6.60000000e-01  4.58978601e-01  4.58978601e-01  3.53022014e-09  3.47779927e-09  4.58978601e-01  4.58978601e-01  3.21866072e-09  1.59674081e-07  7.32642391e-08  6.60000000e-01 
 6.70000000e-01  4.58978607e-01  4.58978607e-01  3.53022014e-09  3.47779927e-09  4.58978607e-01  4.58978607e-01  3.21866072e-09  1.59674108e-07  7.32641965e-08  6.70000000e-01 
 6.80000000e-01  4.58978616e-01  4.58978616e-01  3.53022014e-09  3.47779927e-09  4.58978616e-01  4.58978616e-01  3.21866072e-09  1.59674121e-07  7.32642036e-08  6.80000000e-01 
 6.90000000e-01  4.58978637e-01  4.58978637e-01  3.53022015e-09  3.47779927e-09  4.58978637e-01  4.58978637e-01  3.21866073e-09  1.59674153e-07  7.32641183e-08  6.90000000e-01 
 7.00000000e-01  4.58978618e-01  4.58978618e-01  3.53022014e-09  3.47779927e-09  4.58978618e-01  4.58978618e-01  3.21866072e-09  1.59674109e-07  7.32640686e-08  7.00000000e-01 
 7.10000000e-01  4.58978620e-01  4.58978620e-01  3.53022014e-09  3.47779927e-09  4.58978620e-01  4.58978620e-01  3.21866072e-09  1.59674127e-07  7.32641112e-08  7.10000000e-01 
 7.20000000e-01  4.58978612e-01  4.58978612e-01  3.53022014e-09  3.47779921e-09  4.58978612e-01  4.58978612e-01  3.21866072e-09  1.59674121e-07  7.32638981e-08  7.20000000e-01 
 7.30000000e-01  4.58978629e-01  4.58978629e-01  3.53022014e-09  3.47779922e-09  4.58978629e-01  4.58978629e-01  3.21866073e-09  1.59674118e-07  7.32638910e-08  7.30000000e-01 
 7.40000000e-01  4.58978627e-01  4.58978627e-01  3.53022014e-09  3.47779926e-09  4.58978627e-01  4.58978627e-01  3.21866072e-09  1.59674134e-07  7.32638057e-08  7.40000000e-01 
 7.50000000e-01  4.58978613e-01  4.58978613e-01  3.53022020e-09  3.47779927e-09  4.58978613e-01  4.58978613e-01  3.21866072e-09  1.59674116e-07  7.32637417e-08  7.50000000e-01 
 7.60000000e-01  4.58978606e-01  4.58978606e-01  3.53022014e-09  3.47779927e-09  4.58978606e-01  4.58978606e-01  3.21866072e-09  1.59674088e-07  7.32636778e-08  7.60000000e-01 
 7.70000000e-01  4.58978617e-01  4.58978617e-01  3.53022020e-09  3.47779921e-09  4.58978617e-01  4.58978617e-01  3.21866072e-09  1.59674117e-07  7.32635570e-08  7.70000000e-01 
 7.80000000e-01  4.58978624e-01  4.58978624e-01  3.53022014e-09  3.47779922e-09  4.58978624e-01  4.58978624e-01  3.21866072e-09  1.59674124e-07  7.32635357e-08  7.80000000e-01 
 7.90000000e-01  4.58978626e-01  4.58978626e-01  3.53022014e-09  3.47779926e-09  4.58978626e-01  4.58978626e-01  3.21866072e-09  1.59674131e-07  7.32635073e-08  7.90000000e-01 
 8.00000000e-01  4.58978621e-01  4.58978621e-01  3.53022020e-09  3.47779927e-09  4.58978621e-01  4.58978621e-01  3.21866072e-09  1.59674115e-07  7.32632728e-08  8.00000000e-01 
 8.10000000e-01  4.58978626e-01  4.58978626e-01  3.53022020e-09  3.47779927e-09  4.58978626e-01  4.58978626e-01  3.21866072e-09  1.59674129e-07  7.32633367e-08  8.10000000e-01 
 8.20000000e-01  4.58978618e-01  4.58978618e-01  3.53022014e-09  3.47779927e-09  4.58978618e-01  4.58978618e-01  3.21866072e-09  1.59674115e-07  7.32632870e-08  8.20000000e-01 
 8.30000000e-01  4.58978614e-01  4.58978614e-01  3.53022014e-09  3.47779921e-09  4.58978614e-01  4.58978614e-01  3.21866072e-09  1.59674097e-07  7.32632088e-08  8.30000000e-01 
 8.40000000e-01  4.58978646e-01  4.58978646e-01  3.53022015e-09  3.47779922e-09  4.58978646e-01  4.58978646e-01  3.21866073e-09  1.59674148e-07  7.32632515e-08  8.40000000e-01 
 8.50000000e-01  4.58978618e-01  4.58978619e-01  3.53022014e-09  3.47779926e-09  4.58978618e-01  4.58978619e-01  3.21866072e-09  1.59674114e-07  7.32629815e-08  8.50000000e-01 
 8.60000000e-01  4.58978607e-01  4.58978607e-01  3.53022020e-09  3.47779927e-09  4.58978607e-01  4.58978607e-01  3.21866072e-09  1.59674097e-07  7.32629815e-08  8.60000000e-01 
 8.70000000e-01  4.58978620e-01  4.58978620e-01  3.53022014e-09  3.47779927e-09  4.58978620e-01  4.58978620e-01  3.21866072e-09  1.59674117e-07  7.32629033e-08  8.70000000e-01 
 8.80000000e-01  4.58978616e-01  4.58978616e-01  3.53022014e-09  3.47779921e-09  4.58978616e-01  4.58978616e-01  3.21866072e-09  1.59674118e-07  7.32628465e-08  8.80000000e-01 
 8.90000000e-01  4.58978631e-01  4.58978631e-01  3.53022014e-09  3.47779922e-09  4.58978631e-01  4.58978631e-01  3.21866073e-09  1.59674126e-07  7.32628891e-08  8.90000000e-01 
 9.00000000e-01  4.58978608e-01  4.58978608e-01  3.53022020e-09  3.47779926e-09  4.58978608e-01  4.58978608e-01  3.21866067e-09  1.59674099e-07  7.32627612e-08  9.00000000e-01 
 9.10000000e-01  4.58978609e-01  4.58978609e-01  3.53022014e-09  3.47779927e-09  4.58978609e-01  4.58978609e-01  3.21866073e-09  1.59674088e-07  7.32625978e-08  9.10000000e-01 
 9.20000000e-01  4.58978636e-01  4.58978636e-01  3.53022020e-09  3.47779927e-09  4.58978636e-01  4.58978636e-01  3.21866072e-09  1.59674141e-07  7.32626617e-08  9.20000000e-01 
 9.30000000e-01  4.58978617e-01  4.58978617e-01  3.53022014e-09  3.47779927e-09  4.58978617e-01  4.58978618e-01  3.21866072e-09  1.59674127e-07  7.32624841e-08  9.30000000e-01 
 9.40000000e-01  4.58978613e-01  4.58978613e-01  3.53022020e-09  3.47779927e-09  4.58978613e-01  4.58978613e-01  3.21866072e-09  1.59674106e-07  7.32623846e-08  9.40000000e-01 
 9.50000000e-01  4.58978623e-01  4.58978623e-01  3.53022014e-09  3.47779921e-09  4.58978623e-01  4.58978623e-01  3.21866072e-09  1.59674133e-07  7.32624557e-08  9.50000000e-01 
 9.60000000e-01  4.58978623e-01  4.58978623e-01  3.53022014e-09  3.47779922e-09  4.58978623e-01  4.58978623e-01  3.21866072e-09  1.59674140e-07  7.32622638e-08  9.60000000e-01 
 9.70000000e-01  4.58978633e-01  4.58978633e-01  3.53022014e-09  3.47779926e-09  4.58978633e-01  4.58978633e-01  3.21866073e-09  1.59674144e-07  7.32622070e-08  9.70000000e-01 
 9.80000000e-01  4.58978629e-01  4.58978629e-01  3.53022014e-09  3.47779927e-09  4.58978629e-01  4.58978629e-01  3.21866073e-09  1.59674133e-07  7.32622212e-08  9.80000000e-01 
 9.90000000e-01  4.58978598e-01  4.58978598e-01  3.53022020e-09  3.47779927e-09  4.58978598e-01  4.58978598e-01  3.21866072e-09  1.59674086e-07  7.32620720e-08  9.90000000e-01 
 1.00000000e+00  4.58978617e-01  4.58978617e-01  3.53022014e-09  3.47779927e-09  4.58978617e-01  4.58978617e-01  3.21866072e-09  1.59674105e-07  7.32619867e-08  1.00000000e+00 
 1.01000000e+00  4.58978611e-01  4.58978611e-01  3.53022014e-09  3.47779927e-09  4.58978611e-01  4.58978611e-01  3.21866072e-09  1.59674107e-07  7.32619370e-08  1.01000000e+00 
 1.02000000e+00  4.58978614e-01  4.58978614e-01  3.53022014e-09  3.47779921e-09  4.58978614e-01  4.58978614e-01  3.21866072e-09  1.59674099e-07  7.32619014e-08  1.02000000e+00 
 1.03000000e+00  4.58978624e-01  4.58978624e-01  3.53022014e-09  3.47779922e-09  4.58978624e-01  4.58978624e-01  3.21866067e-09  1.59674110e-07  7.32617096e-08  1.03000000e+00 
 1.04000000e+00  4.58978619e-01  4.58978619e-01  3.53022020e-09  3.47779920e-09  4.58978619e-01  4.58978619e-01  3.21866074e-09  1.59674113e-07  7.32616101e-08  1.04000000e+00 
 1.05000000e+00  4.58978622e-01  4.58978622e-01  3.53022014e-09  3.47779928e-09  4.58978622e-01  4.58978622e-01  3.21866072e-09  1.59674122e-07  7.32615746e-08  1.05000000e+00 
 1.06000000e+00  4.58978610e-01  4.58978610e-01  3.53022014e-09  3.47779926e-09  4.58978610e-01  4.58978610e-01  3.21866073e-09  1.59674131e-07  7.32615391e-08  1.06000000e+00 
 1.07000000e+00  4.58978613e-01  4.58978613e-01  3.53022014e-09  3.47779927e-09  4.58978613e-01  4.58978613e-01  3.21866072e-09  1.59674115e-07  7.32615106e-08  1.07000000e+00 
 1.08000000e+00  4.58978625e-01  4.58978626e-01  3.53022020e-09  3.47779927e-09  4.58978626e-01  4.58978626e-01  3.21866074e-09  1.59674123e-07  7.32614538e-08  1.08000000e+00 
 1.09000000e+00  4.58978623e-01  4.58978623e-01  3.53022014e-09  3.47779927e-09  4.58978623e-01  4.58978623e-01  3.21866072e-09  1.59674135e-07  7.32613543e-08  1.09000000e+00 
 1.10000000e+00  4.58978639e-01  4.58978639e-01  3.53022015e-09  3.47779927e-09  4.58978639e-01  4.58978639e-01  3.21866074e-09  1.59674144e-07  7.32613472e-08  1.10000000e+00 
