 v-sweep         v(b0)           v(b1)           v(b2)           v(b3)           v(b4)           v(b5)           v(b6)           i(vbias)        i(viout)        v(vout)        
 0.00000000e+00  4.59538258e-01  4.59538258e-01  4.59538258e-01  3.37871876e-09  4.59538258e-01  3.30635869e-09  3.46464067e-09  1.61317910e-07  3.37414901e-08  0.00000000e+00 
 1.00000000e-02  4.59538270e-01  4.59538270e-01  4.59538270e-01  3.37871876e-09  4.59538270e-01  3.30635869e-09  3.46464068e-09  1.61317932e-07  3.37410695e-08  1.00000000e-02 
 2.00000000e-02  4.59538273e-01  4.59538273e-01  4.59538273e-01  3.37871876e-09  4.59538273e-01  3.30635869e-09  3.46464068e-09  1.61317938e-07  3.37407866e-08  2.00000000e-02 
 3.00000000e-02  4.59538271e-01  4.59538271e-01  4.59538271e-01  3.37871876e-09  4.59538271e-01  3.30635869e-09  3.46464068e-09  1.61317935e-07  3.37403465e-08  3.00000000e-02 
 4.00000000e-02  4.59538258e-01  4.59538258e-01  4.59538258e-01  3.37871876e-09  4.59538258e-01  3.30635869e-09  3.46464067e-09  1.61317919e-07  3.37398487e-08  4.00000000e-02 
 5.00000000e-02  4.59538266e-01  4.59538266e-01  4.59538266e-01  3.37871882e-09  4.59538266e-01  3.30635869e-09  3.46464068e-09  1.61317939e-07  3.37395041e-08  5.00000000e-02 
 6.00000000e-02  4.59538261e-01  4.59538261e-01  4.59538261e-01  3.37871876e-09  4.59538261e-01  3.30635863e-09  3.46464067e-09  1.61317923e-07  3.37393167e-08  6.00000000e-02 
 7.00000000e-02  4.59538253e-01  4.59538253e-01  4.59538253e-01  3.37871882e-09  4.59538253e-01  3.30635869e-09  3.46464067e-09  1.61317923e-07  3.37390178e-08  7.00000000e-02 
 8.00000000e-02  4.59538259e-01  4.59538259e-01  4.59538259e-01  3.37871876e-09  4.59538259e-01  3.30635869e-09  3.46464067e-09  1.61317920e-07  3.37385808e-08  8.00000000e-02 
 9.00000000e-02  4.59538252e-01  4.59538251e-01  4.59538251e-01  3.37871876e-09  4.59538251e-01  3.30635869e-09  3.46464067e-09  1.61317908e-07  3.37383712e-08  9.00000000e-02 
 1.00000000e-01  4.59538238e-01  4.59538238e-01  4.59538238e-01  3.37871882e-09  4.59538238e-01  3.30635869e-09  3.46464067e-09  1.61317891e-07  3.37382007e-08  1.00000000e-01 
 1.10000000e-01  4.59538264e-01  4.59538264e-01  4.59538264e-01  3.37871882e-09  4.59538264e-01  3.30635869e-09  3.46464068e-09  1.61317920e-07  3.37379378e-08  1.10000000e-01 
 1.20000000e-01  4.59538265e-01  4.59538265e-01  4.59538265e-01  3.37871882e-09  4.59538265e-01  3.30635869e-09  3.46464068e-09  1.61317935e-07  3.37376864e-08  1.20000000e-01 
 1.30000000e-01  4.59538262e-01  4.59538262e-01  4.59538262e-01  3.37871882e-09  4.59538262e-01  3.30635869e-09  3.46464068e-09  1.61317928e-07  3.37375212e-08  1.30000000e-01 
 1.40000000e-01  4.59538285e-01  4.59538285e-01  4.59538285e-01  3.37871882e-09  4.59538285e-01  3.30635864e-09  3.46464068e-09  1.61317958e-07  3.37373258e-08  1.40000000e-01 
 1.50000000e-01  4.59538264e-01  4.59538264e-01  4.59538264e-01  3.37871875e-09  4.59538264e-01  3.30635869e-09  3.46464068e-09  1.61317921e-07  3.37370842e-08  1.50000000e-01 
 1.60000000e-01  4.59538262e-01  4.59538262e-01  4.59538262e-01  3.37871877e-09  4.59538262e-01  3.30635869e-09  3.46464068e-09  1.61317919e-07  3.37368196e-08  1.60000000e-01 
 1.70000000e-01  4.59538269e-01  4.59538269e-01  4.59538269e-01  3.37871876e-09  4.59538269e-01  3.30635869e-09  3.46464068e-09  1.61317932e-07  3.37366295e-08  1.70000000e-01 
 1.80000000e-01  4.59538267e-01  4.59538267e-01  4.59538267e-01  3.37871876e-09  4.59538267e-01  3.30635869e-09  3.46464068e-09  1.61317937e-07  3.37365247e-08  1.80000000e-01 
 1.90000000e-01  4.59538265e-01  4.59538265e-01  4.59538265e-01  3.37871876e-09  4.59538265e-01  3.30635869e-09  3.46464068e-09  1.61317929e-07  3.37363559e-08  1.90000000e-01 
 2.00000000e-01  4.59538270e-01  4.59538270e-01  4.59538270e-01  3.37871882e-09  4.59538270e-01  3.30635869e-09  3.46464068e-09  1.61317924e-07  3.37361428e-08  2.00000000e-01 
 2.10000000e-01  4.59538266e-01  4.59538266e-01  4.59538266e-01  3.37871882e-09  4.59538266e-01  3.30635869e-09  3.46464068e-09  1.61317919e-07  3.37359900e-08  2.10000000e-01 
 2.20000000e-01  4.59538292e-01  4.59538292e-01  4.59538292e-01  3.37871877e-09  4.59538292e-01  3.30635869e-09  3.46464068e-09  1.61317958e-07  3.37358710e-08  2.20000000e-01 
 2.30000000e-01  4.59538260e-01  4.59538259e-01  4.59538259e-01  3.37871882e-09  4.59538260e-01  3.30635869e-09  3.46464067e-09  1.61317918e-07  3.37355921e-08  2.30000000e-01 
 2.40000000e-01  4.59538232e-01  4.59538232e-01  4.59538232e-01  3.37871882e-09  4.59538232e-01  3.30635869e-09  3.46464067e-09  1.61317865e-07  3.37355655e-08  2.40000000e-01 
 2.50000000e-01  4.59538246e-01  4.59538246e-01  4.59538246e-01  3.37871882e-09  4.59538246e-01  3.30635869e-09  3.46464067e-09  1.61317902e-07  3.37355122e-08  2.50000000e-01 
 2.60000000e-01  4.59538280e-01  4.59538280e-01  4.59538280e-01  3.37871876e-09  4.59538280e-01  3.30635869e-09  3.46464068e-09  1.61317950e-07  3.37354571e-08  2.60000000e-01 
 2.70000000e-01  4.59538267e-01  4.59538267e-01  4.59538267e-01  3.37871876e-09  4.59538267e-01  3.30635869e-09  3.46464068e-09  1.61317919e-07  3.37352599e-08  2.70000000e-01 
 2.80000000e-01  4.59538228e-01  4.59538228e-01  4.59538228e-01  3.37871876e-09  4.59538228e-01  3.30635869e-09  3.46464067e-09  1.61317871e-07  3.37352368e-08  2.80000000e-01 
 2.90000000e-01  4.59538267e-01  4.59538267e-01  4.59538267e-01  3.37871876e-09  4.59538267e-01  3.30635869e-09  3.46464068e-09  1.61317922e-07  3.37351409e-08  2.90000000e-01 
 3.00000000e-01  4.59538275e-01  4.59538275e-01  4.59538275e-01  3.37871876e-09  4.59538275e-01  3.30635869e-09  3.46464068e-09  1.61317937e-07  3.37348673e-08  3.00000000e-01 
 3.10000000e-01  4.59538282e-01  4.59538282e-01  4.59538281e-01  3.37871876e-09  4.59538282e-01  3.30635869e-09  3.46464068e-09  1.61317961e-07  3.37350130e-08  3.10000000e-01 
 3.20000000e-01  4.59538280e-01  4.59538280e-01  4.59538280e-01  3.37871882e-09  4.59538280e-01  3.30635869e-09  3.46464068e-09  1.61317936e-07  3.37348247e-08  3.20000000e-01 
 3.30000000e-01  4.59538288e-01  4.59538288e-01  4.59538288e-01  3.37871881e-09  4.59538288e-01  3.30635869e-09  3.46464068e-09  1.61317951e-07  3.37347110e-08  3.30000000e-01 
 3.40000000e-01  4.59538277e-01  4.59538277e-01  4.59538277e-01  3.37871877e-09  4.59538277e-01  3.30635869e-09  3.46464068e-09  1.61317954e-07  3.37345476e-08  3.40000000e-01 
 3.50000000e-01  4.59538241e-01  4.59538241e-01  4.59538241e-01  3.37871876e-09  4.59538241e-01  3.30635869e-09  3.46464062e-09  1.61317890e-07  3.37344872e-08  3.50000000e-01 
 3.60000000e-01  4.59538261e-01  4.59538261e-01  4.59538261e-01  3.37871876e-09  4.59538261e-01  3.30635869e-09  3.46464067e-09  1.61317927e-07  3.37343877e-08  3.60000000e-01 
 3.70000000e-01  4.59538289e-01  4.59538289e-01  4.59538289e-01  3.37871882e-09  4.59538289e-01  3.30635869e-09  3.46464062e-09  1.61317960e-07  3.37343131e-08  3.70000000e-01 
 3.80000000e-01  4.59538265e-01  4.59538265e-01  4.59538265e-01  3.37871875e-09  4.59538265e-01  3.30635869e-09  3.46464068e-09  1.61317936e-07  3.37341817e-08  3.80000000e-01 
 3.90000000e-01  4.59538257e-01  4.59538257e-01  4.59538257e-01  3.37871877e-09  4.59538257e-01  3.30635863e-09  3.46464067e-09  1.61317913e-07  3.37341852e-08  3.90000000e-01 
 4.00000000e-01  4.59538247e-01  4.59538247e-01  4.59538247e-01  3.37871882e-09  4.59538247e-01  3.30635869e-09  3.46464067e-09  1.61317900e-07  3.37341000e-08  4.00000000e-01 
 4.10000000e-01  4.59538271e-01  4.59538270e-01  4.59538270e-01  3.37871882e-09  4.59538270e-01  3.30635869e-09  3.46464068e-09  1.61317935e-07  3.37339330e-08  4.10000000e-01 
 4.20000000e-01  4.59538273e-01  4.59538273e-01  4.59538273e-01  3.37871876e-09  4.59538273e-01  3.30635869e-09  3.46464068e-09  1.61317913e-07  3.37339152e-08  4.20000000e-01 
 4.30000000e-01  4.59538267e-01  4.59538267e-01  4.59538267e-01  3.37871882e-09  4.59538267e-01  3.30635869e-09  3.46464068e-09  1.61317944e-07  3.37339081e-08  4.30000000e-01 
 4.40000000e-01  4.59538274e-01  4.59538274e-01  4.59538274e-01  3.37871882e-09  4.59538274e-01  3.30635869e-09  3.46464068e-09  1.61317933e-07  3.37337909e-08  4.40000000e-01 
 4.50000000e-01  4.59538286e-01  4.59538285e-01  4.59538285e-01  3.37871876e-09  4.59538285e-01  3.30635869e-09  3.46464062e-09  1.61317952e-07  3.37337092e-08  4.50000000e-01 
 4.60000000e-01  4.59538285e-01  4.59538285e-01  4.59538285e-01  3.37871882e-09  4.59538285e-01  3.30635869e-09  3.46464068e-09  1.61317949e-07  3.37336878e-08  4.60000000e-01 
 4.70000000e-01  4.59538257e-01  4.59538256e-01  4.59538256e-01  3.37871881e-09  4.59538256e-01  3.30635869e-09  3.46464062e-09  1.61317925e-07  3.37336168e-08  4.70000000e-01 
 4.80000000e-01  4.59538252e-01  4.59538252e-01  4.59538252e-01  3.37871877e-09  4.59538252e-01  3.30635869e-09  3.46464067e-09  1.61317901e-07  3.37335386e-08  4.80000000e-01 
 4.90000000e-01  4.59538266e-01  4.59538266e-01  4.59538266e-01  3.37871882e-09  4.59538266e-01  3.30635869e-09  3.46464068e-09  1.61317928e-07  3.37334178e-08  4.90000000e-01 
 5.00000000e-01  4.59538272e-01  4.59538272e-01  4.59538272e-01  3.37871876e-09  4.59538272e-01  3.30635869e-09  3.46464068e-09  1.61317947e-07  3.37334711e-08  5.00000000e-01 
 5.10000000e-01  4.59538271e-01  4.59538271e-01  4.59538271e-01  3.37871876e-09  4.59538271e-01  3.30635869e-09  3.46464068e-09  1.61317933e-07  3.37334569e-08  5.10000000e-01 
 5.20000000e-01  4.59538288e-01  4.59538288e-01  4.59538288e-01  3.37871876e-09  4.59538288e-01  3.30635864e-09  3.46464068e-09  1.61317955e-07  3.37333539e-08  5.20000000e-01 
 5.30000000e-01  4.59538243e-01  4.59538243e-01  4.59538243e-01  3.37871876e-09  4.59538243e-01  3.30635869e-09  3.46464067e-09  1.61317895e-07  3.37332970e-08  5.30000000e-01 
 5.40000000e-01  4.59538258e-01  4.59538258e-01  4.59538258e-01  3.37871882e-09  4.59538258e-01  3.30635869e-09  3.46464067e-09  1.61317917e-07  3.37332118e-08  5.40000000e-01 
 5.50000000e-01  4.59538258e-01  4.59538258e-01  4.59538258e-01  3.37871882e-09  4.59538258e-01  3.30635869e-09  3.46464067e-09  1.61317910e-07  3.37331407e-08  5.50000000e-01 
 5.60000000e-01  4.59538282e-01  4.59538282e-01  4.59538282e-01  3.37871876e-09  4.59538282e-01  3.30635863e-09  3.46464068e-09  1.61317956e-07  3.37331798e-08  5.60000000e-01 
 5.70000000e-01  4.59538260e-01  4.59538260e-01  4.59538260e-01  3.37871882e-09  4.59538260e-01  3.30635869e-09  3.46464067e-09  1.61317923e-07  3.37329951e-08  5.70000000e-01 
 5.80000000e-01  4.59538239e-01  4.59538239e-01  4.59538239e-01  3.37871876e-09  4.59538239e-01  3.30635869e-09  3.46464067e-09  1.61317892e-07  3.37328530e-08  5.80000000e-01 
 5.90000000e-01  4.59538239e-01  4.59538239e-01  4.59538239e-01  3.37871876e-09  4.59538239e-01  3.30635869e-09  3.46464067e-09  1.61317896e-07  3.37329169e-08  5.90000000e-01 
 6.00000000e-01  4.59538273e-01  4.59538273e-01  4.59538273e-01  3.37871882e-09  4.59538273e-01  3.30635869e-09  3.46464068e-09  1.61317932e-07  3.37328885e-08  6.00000000e-01 
 6.10000000e-01  4.59538271e-01  4.59538271e-01  4.59538271e-01  3.37871882e-09  4.59538271e-01  3.30635869e-09  3.46464068e-09  1.61317942e-07  3.37327890e-08  6.10000000e-01 
 6.20000000e-01  4.59538256e-01  4.59538256e-01  4.59538256e-01  3.37871882e-09  4.59538256e-01  3.30635869e-09  3.46464067e-09  1.61317919e-07  3.37327961e-08  6.20000000e-01 
 6.30000000e-01  4.59538258e-01  4.59538258e-01  4.59538258e-01  3.37871876e-09  4.59538258e-01  3.30635869e-09  3.46464067e-09  1.61317906e-07  3.37327037e-08  6.30000000e-01 
 6.40000000e-01  4.59538263e-01  4.59538263e-01  4.59538263e-01  3.37871882e-09  4.59538263e-01  3.30635869e-09  3.46464068e-09  1.61317916e-07  3.37326753e-08  6.40000000e-01 
 6.50000000e-01  4.59538267e-01  4.59538267e-01  4.59538267e-01  3.37871882e-09  4.59538267e-01  3.30635869e-09  3.46464068e-09  1.61317916e-07  3.37326185e-08  6.50000000e-01 
 6.60000000e-01  4.59538272e-01  4.59538272e-01  4.59538272e-01  3.37871882e-09  4.59538272e-01  3.30635869e-09  3.46464068e-09  1.61317936e-07  3.37325758e-08  6.60000000e-01 
 6.70000000e-01  4.59538283e-01  4.59538283e-01  4.59538283e-01  3.37871882e-09  4.59538283e-01  3.30635869e-09  3.46464068e-09  1.61317942e-07  3.37324693e-08  6.70000000e-01 
 6.80000000e-01  4.59538283e-01  4.59538283e-01  4.59538283e-01  3.37871881e-09  4.59538283e-01  3.30635869e-09  3.46464068e-09  1.61317956e-07  3.37324479e-08  6.80000000e-01 
 6.90000000e-01  4.59538251e-01  4.59538251e-01  4.59538250e-01  3.37871883e-09  4.59538251e-01  3.30635869e-09  3.46464067e-09  1.61317897e-07  3.37322703e-08  6.90000000e-01 
 7.00000000e-01  4.59538281e-01  4.59538281e-01  4.59538281e-01  3.37871881e-09  4.59538281e-01  3.30635869e-09  3.46464068e-09  1.61317952e-07  3.37322348e-08  7.00000000e-01 
 7.10000000e-01  4.59538265e-01  4.59538265e-01  4.59538265e-01  3.37871883e-09  4.59538265e-01  3.30635869e-09  3.46464068e-09  1.61317932e-07  3.37321566e-08  7.10000000e-01 
 7.20000000e-01  4.59538251e-01  4.59538251e-01  4.59538251e-01  3.37871881e-09  4.59538251e-01  3.30635869e-09  3.46464067e-09  1.61317906e-07  3.37322561e-08  7.20000000e-01 
 7.30000000e-01  4.59538255e-01  4.59538255e-01  4.59538255e-01  3.37871877e-09  4.59538255e-01  3.30635869e-09  3.46464067e-09  1.61317909e-07  3.37320287e-08  7.30000000e-01 
 7.40000000e-01  4.59538290e-01  4.59538290e-01  4.59538290e-01  3.37871882e-09  4.59538290e-01  3.30635869e-09  3.46464068e-09  1.61317961e-07  3.37320785e-08  7.40000000e-01 
 7.50000000e-01  4.59538269e-01  4.59538269e-01  4.59538269e-01  3.37871881e-09  4.59538269e-01  3.30635869e-09  3.46464068e-09  1.61317925e-07  3.37319506e-08  7.50000000e-01 
 7.60000000e-01  4.59538242e-01  4.59538241e-01  4.59538241e-01  3.37871877e-09  4.59538242e-01  3.30635869e-09  3.46464067e-09  1.61317898e-07  3.37320216e-08  7.60000000e-01 
 7.70000000e-01  4.59538244e-01  4.59538244e-01  4.59538244e-01  3.37871882e-09  4.59538244e-01  3.30635869e-09  3.46464067e-09  1.61317899e-07  3.37319150e-08  7.70000000e-01 
 7.80000000e-01  4.59538294e-01  4.59538294e-01  4.59538293e-01  3.37871877e-09  4.59538294e-01  3.30635869e-09  3.46464068e-09  1.61317949e-07  3.37318085e-08  7.80000000e-01 
 7.90000000e-01  4.59538279e-01  4.59538279e-01  4.59538279e-01  3.37871882e-09  4.59538279e-01  3.30635863e-09  3.46464068e-09  1.61317957e-07  3.37318156e-08  7.90000000e-01 
 8.00000000e-01  4.59538262e-01  4.59538262e-01  4.59538262e-01  3.37871881e-09  4.59538262e-01  3.30635863e-09  3.46464068e-09  1.61317905e-07  3.37316521e-08  8.00000000e-01 
 8.10000000e-01  4.59538278e-01  4.59538278e-01  4.59538278e-01  3.37871877e-09  4.59538278e-01  3.30635869e-09  3.46464068e-09  1.61317935e-07  3.37317019e-08  8.10000000e-01 
 8.20000000e-01  4.59538265e-01  4.59538265e-01  4.59538265e-01  3.37871882e-09  4.59538265e-01  3.30635869e-09  3.46464068e-09  1.61317926e-07  3.37316308e-08  8.20000000e-01 
 8.30000000e-01  4.59538283e-01  4.59538283e-01  4.59538282e-01  3.37871882e-09  4.59538283e-01  3.30635869e-09  3.46464068e-09  1.61317946e-07  3.37316450e-08  8.30000000e-01 
 8.40000000e-01  4.59538258e-01  4.59538258e-01  4.59538258e-01  3.37871881e-09  4.59538258e-01  3.30635869e-09  3.46464067e-09  1.61317931e-07  3.37315171e-08  8.40000000e-01 
 8.50000000e-01  4.59538265e-01  4.59538265e-01  4.59538265e-01  3.37871883e-09  4.59538265e-01  3.30635869e-09  3.46464068e-09  1.61317930e-07  3.37314248e-08  8.50000000e-01 
 8.60000000e-01  4.59538250e-01  4.59538250e-01  4.59538250e-01  3.37871881e-09  4.59538250e-01  3.30635869e-09  3.46464067e-09  1.61317894e-07  3.37314816e-08  8.60000000e-01 
 8.70000000e-01  4.59538267e-01  4.59538267e-01  4.59538267e-01  3.37871883e-09  4.59538267e-01  3.30635863e-09  3.46464068e-09  1.61317923e-07  3.37313608e-08  8.70000000e-01 
 8.80000000e-01  4.59538272e-01  4.59538272e-01  4.59538272e-01  3.37871881e-09  4.59538272e-01  3.30635869e-09  3.46464068e-09  1.61317940e-07  3.37312400e-08  8.80000000e-01 
 8.90000000e-01  4.59538275e-01  4.59538275e-01  4.59538275e-01  3.37871883e-09  4.59538275e-01  3.30635869e-09  3.46464068e-09  1.61317956e-07  3.37312827e-08  8.90000000e-01 
 9.00000000e-01  4.59538275e-01  4.59538275e-01  4.59538275e-01  3.37871875e-09  4.59538275e-01  3.30635863e-09  3.46464068e-09  1.61317950e-07  3.37311548e-08  9.00000000e-01 
 9.10000000e-01  4.59538268e-01  4.59538268e-01  4.59538268e-01  3.37871883e-09  4.59538268e-01  3.30635869e-09  3.46464068e-09  1.61317936e-07  3.37310837e-08  9.10000000e-01 
 9.20000000e-01  4.59538297e-01  4.59538297e-01  4.59538297e-01  3.37871881e-09  4.59538297e-01  3.30635869e-09  3.46464068e-09  1.61317971e-07  3.37310269e-08  9.20000000e-01 
 9.30000000e-01  4.59538270e-01  4.59538270e-01  4.59538270e-01  3.37871877e-09  4.59538270e-01  3.30635869e-09  3.46464068e-09  1.61317940e-07  3.37309913e-08  9.30000000e-01 
 9.40000000e-01  4.59538253e-01  4.59538253e-01  4.59538253e-01  3.37871876e-09  4.59538253e-01  3.30635869e-09  3.46464067e-09  1.61317909e-07  3.37311050e-08  9.40000000e-01 
 9.50000000e-01  4.59538262e-01  4.59538262e-01  4.59538262e-01  3.37871882e-09  4.59538262e-01  3.30635869e-09  3.46464067e-09  1.61317907e-07  3.37308066e-08  9.50000000e-01 
 9.60000000e-01  4.59538271e-01  4.59538270e-01  4.59538270e-01  3.37871876e-09  4.59538271e-01  3.30635869e-09  3.46464068e-09  1.61317927e-07  3.37308492e-08  9.60000000e-01 
 9.70000000e-01  4.59538271e-01  4.59538271e-01  4.59538271e-01  3.37871876e-09  4.59538271e-01  3.30635869e-09  3.46464068e-09  1.61317932e-07  3.37308421e-08  9.70000000e-01 
 9.80000000e-01  4.59538260e-01  4.59538260e-01  4.59538260e-01  3.37871882e-09  4.59538260e-01  3.30635869e-09  3.46464067e-09  1.61317913e-07  3.37307711e-08  9.80000000e-01 
 9.90000000e-01  4.59538263e-01  4.59538263e-01  4.59538263e-01  3.37871882e-09  4.59538263e-01  3.30635869e-09  3.46464068e-09  1.61317906e-07  3.37307213e-08  9.90000000e-01 
 1.00000000e+00  4.59538258e-01  4.59538258e-01  4.59538258e-01  3.37871876e-09  4.59538258e-01  3.30635869e-09  3.46464067e-09  1.61317905e-07  3.37305863e-08  1.00000000e+00 
 1.01000000e+00  4.59538251e-01  4.59538251e-01  4.59538251e-01  3.37871882e-09  4.59538251e-01  3.30635869e-09  3.46464067e-09  1.61317911e-07  3.37304940e-08  1.01000000e+00 
 1.02000000e+00  4.59538243e-01  4.59538243e-01  4.59538243e-01  3.37871882e-09  4.59538243e-01  3.30635869e-09  3.46464067e-09  1.61317889e-07  3.37303661e-08  1.02000000e+00 
 1.03000000e+00  4.59538232e-01  4.59538232e-01  4.59538232e-01  3.37871882e-09  4.59538232e-01  3.30635869e-09  3.46464067e-09  1.61317887e-07  3.37304371e-08  1.03000000e+00 
 1.04000000e+00  4.59538262e-01  4.59538262e-01  4.59538262e-01  3.37871876e-09  4.59538262e-01  3.30635869e-09  3.46464068e-09  1.61317928e-07  3.37303945e-08  1.04000000e+00 
 1.05000000e+00  4.59538265e-01  4.59538265e-01  4.59538265e-01  3.37871882e-09  4.59538265e-01  3.30635869e-09  3.46464068e-09  1.61317941e-07  3.37303092e-08  1.05000000e+00 
 1.06000000e+00  4.59538261e-01  4.59538261e-01  4.59538261e-01  3.37871882e-09  4.59538261e-01  3.30635869e-09  3.46464067e-09  1.61317915e-07  3.37302808e-08  1.06000000e+00 
 1.07000000e+00  4.59538253e-01  4.59538253e-01  4.59538253e-01  3.37871882e-09  4.59538253e-01  3.30635869e-09  3.46464067e-09  1.61317909e-07  3.37301955e-08  1.07000000e+00 
 1.08000000e+00  4.59538255e-01  4.59538255e-01  4.59538255e-01  3.37871876e-09  4.59538255e-01  3.30635869e-09  3.46464067e-09  1.61317912e-07  3.37301387e-08  1.08000000e+00 
 1.09000000e+00  4.59538271e-01  4.59538271e-01  4.59538271e-01  3.37871876e-09  4.59538271e-01  3.30635869e-09  3.46464068e-09  1.61317938e-07  3.37300676e-08  1.09000000e+00 
 1.10000000e+00  4.59538272e-01  4.59538272e-01  4.59538272e-01  3.37871876e-09  4.59538272e-01  3.30635869e-09  3.46464068e-09  1.61317936e-07  3.37300392e-08  1.10000000e+00 
