 v-sweep         v(b0)           v(b1)           v(b2)           v(b3)           v(b4)           v(b5)           v(b6)           i(vbias)        i(viout)        v(vout)        
 0.00000000e+00  4.56828766e-01  3.29800142e-09  3.46448531e-09  4.56828766e-01  3.33970848e-09  4.56828766e-01  3.13281329e-09  1.57440950e-07  6.15067553e-08  0.00000000e+00 
 1.00000000e-02  4.56828762e-01  3.29800145e-09  3.46448529e-09  4.56828762e-01  3.33970850e-09  4.56828762e-01  3.13281333e-09  1.57440947e-07  6.15062107e-08  1.00000000e-02 
 2.00000000e-02  4.56828736e-01  3.29800150e-09  3.46448534e-09  4.56828736e-01  3.33970845e-09  4.56828736e-01  3.13281333e-09  1.57440895e-07  6.15057831e-08  2.00000000e-02 
 3.00000000e-02  4.56828735e-01  3.29800144e-09  3.46448534e-09  4.56828735e-01  3.33970850e-09  4.56828735e-01  3.13281333e-09  1.57440895e-07  6.15054174e-08  3.00000000e-02 
 4.00000000e-02  4.56828755e-01  3.29800145e-09  3.46448529e-09  4.56828755e-01  3.33970845e-09  4.56828755e-01  3.13281333e-09  1.57440928e-07  6.15050313e-08  4.00000000e-02 
 5.00000000e-02  4.56828761e-01  3.29800145e-09  3.46448534e-09  4.56828761e-01  3.33970845e-09  4.56828761e-01  3.13281333e-09  1.57440934e-07  6.15047795e-08  5.00000000e-02 
 6.00000000e-02  4.56828750e-01  3.29800145e-09  3.46448529e-09  4.56828750e-01  3.33970850e-09  4.56828750e-01  3.13281333e-09  1.57440933e-07  6.15045597e-08  6.00000000e-02 
 7.00000000e-02  4.56828748e-01  3.29800145e-09  3.46448529e-09  4.56828748e-01  3.33970845e-09  4.56828748e-01  3.13281333e-09  1.57440921e-07  6.15040876e-08  7.00000000e-02 
 8.00000000e-02  4.56828733e-01  3.29800144e-09  3.46448534e-09  4.56828733e-01  3.33970850e-09  4.56828733e-01  3.13281333e-09  1.57440903e-07  6.15038926e-08  8.00000000e-02 
 9.00000000e-02  4.56828734e-01  3.29800144e-09  3.46448534e-09  4.56828734e-01  3.33970845e-09  4.56828734e-01  3.13281333e-09  1.57440884e-07  6.15036004e-08  9.00000000e-02 
 1.00000000e-01  4.56828753e-01  3.29800145e-09  3.46448529e-09  4.56828753e-01  3.33970845e-09  4.56828753e-01  3.13281333e-09  1.57440929e-07  6.15033802e-08  1.00000000e-01 
 1.10000000e-01  4.56828753e-01  3.29800145e-09  3.46448529e-09  4.56828753e-01  3.33970845e-09  4.56828753e-01  3.13281333e-09  1.57440926e-07  6.15031155e-08  1.10000000e-01 
 1.20000000e-01  4.56828743e-01  3.29800145e-09  3.46448528e-09  4.56828743e-01  3.33970850e-09  4.56828743e-01  3.13281333e-09  1.57440907e-07  6.15028659e-08  1.20000000e-01 
 1.30000000e-01  4.56828751e-01  3.29800145e-09  3.46448534e-09  4.56828751e-01  3.33970850e-09  4.56828751e-01  3.13281333e-09  1.57440920e-07  6.15024511e-08  1.30000000e-01 
 1.40000000e-01  4.56828743e-01  3.29800145e-09  3.46448534e-09  4.56828743e-01  3.33970845e-09  4.56828743e-01  3.13281333e-09  1.57440910e-07  6.15024067e-08  1.40000000e-01 
 1.50000000e-01  4.56828753e-01  3.29800145e-09  3.46448529e-09  4.56828753e-01  3.33970850e-09  4.56828753e-01  3.13281333e-09  1.57440927e-07  6.15021847e-08  1.50000000e-01 
 1.60000000e-01  4.56828739e-01  3.29800144e-09  3.46448534e-09  4.56828739e-01  3.33970845e-09  4.56828739e-01  3.13281333e-09  1.57440903e-07  6.15019804e-08  1.60000000e-01 
 1.70000000e-01  4.56828746e-01  3.29800145e-09  3.46448529e-09  4.56828746e-01  3.33970845e-09  4.56828746e-01  3.13281333e-09  1.57440912e-07  6.15018489e-08  1.70000000e-01 
 1.80000000e-01  4.56828747e-01  3.29800145e-09  3.46448534e-09  4.56828748e-01  3.33970850e-09  4.56828748e-01  3.13281333e-09  1.57440930e-07  6.15016962e-08  1.80000000e-01 
 1.90000000e-01  4.56828755e-01  3.29800145e-09  3.46448529e-09  4.56828756e-01  3.33970850e-09  4.56828755e-01  3.13281339e-09  1.57440926e-07  6.15015168e-08  1.90000000e-01 
 2.00000000e-01  4.56828749e-01  3.29800145e-09  3.46448529e-09  4.56828749e-01  3.33970850e-09  4.56828749e-01  3.13281332e-09  1.57440917e-07  6.15011864e-08  2.00000000e-01 
 2.10000000e-01  4.56828754e-01  3.29800139e-09  3.46448534e-09  4.56828754e-01  3.33970850e-09  4.56828754e-01  3.13281334e-09  1.57440914e-07  6.15012468e-08  2.10000000e-01 
 2.20000000e-01  4.56828717e-01  3.29800146e-09  3.46448528e-09  4.56828718e-01  3.33970844e-09  4.56828717e-01  3.13281333e-09  1.57440889e-07  6.15010087e-08  2.20000000e-01 
 2.30000000e-01  4.56828733e-01  3.29800144e-09  3.46448528e-09  4.56828733e-01  3.33970845e-09  4.56828733e-01  3.13281339e-09  1.57440896e-07  6.15007760e-08  2.30000000e-01 
 2.40000000e-01  4.56828748e-01  3.29800146e-09  3.46448529e-09  4.56828749e-01  3.33970850e-09  4.56828748e-01  3.13281338e-09  1.57440914e-07  6.15007352e-08  2.40000000e-01 
 2.50000000e-01  4.56828741e-01  3.29800144e-09  3.46448528e-09  4.56828742e-01  3.33970845e-09  4.56828741e-01  3.13281333e-09  1.57440913e-07  6.15006410e-08  2.50000000e-01 
 2.60000000e-01  4.56828745e-01  3.29800146e-09  3.46448529e-09  4.56828745e-01  3.33970850e-09  4.56828745e-01  3.13281334e-09  1.57440905e-07  6.15003550e-08  2.60000000e-01 
 2.70000000e-01  4.56828757e-01  3.29800144e-09  3.46448529e-09  4.56828757e-01  3.33970845e-09  4.56828757e-01  3.13281339e-09  1.57440940e-07  6.15003160e-08  2.70000000e-01 
 2.80000000e-01  4.56828759e-01  3.29800145e-09  3.46448529e-09  4.56828759e-01  3.33970845e-09  4.56828759e-01  3.13281332e-09  1.57440937e-07  6.15002218e-08  2.80000000e-01 
 2.90000000e-01  4.56828737e-01  3.29800144e-09  3.46448534e-09  4.56828737e-01  3.33970845e-09  4.56828737e-01  3.13281334e-09  1.57440895e-07  6.15000388e-08  2.90000000e-01 
 3.00000000e-01  4.56828733e-01  3.29800144e-09  3.46448534e-09  4.56828734e-01  3.33970845e-09  4.56828733e-01  3.13281339e-09  1.57440900e-07  6.14999216e-08  3.00000000e-01 
 3.10000000e-01  4.56828734e-01  3.29800144e-09  3.46448528e-09  4.56828735e-01  3.33970845e-09  4.56828734e-01  3.13281332e-09  1.57440910e-07  6.14998363e-08  3.10000000e-01 
 3.20000000e-01  4.56828737e-01  3.29800144e-09  3.46448528e-09  4.56828737e-01  3.33970845e-09  4.56828737e-01  3.13281334e-09  1.57440903e-07  6.14997724e-08  3.20000000e-01 
 3.30000000e-01  4.56828745e-01  3.29800145e-09  3.46448529e-09  4.56828746e-01  3.33970845e-09  4.56828745e-01  3.13281333e-09  1.57440912e-07  6.14997155e-08  3.30000000e-01 
 3.40000000e-01  4.56828762e-01  3.29800145e-09  3.46448534e-09  4.56828763e-01  3.33970851e-09  4.56828762e-01  3.13281333e-09  1.57440953e-07  6.14995983e-08  3.40000000e-01 
 3.50000000e-01  4.56828749e-01  3.29800145e-09  3.46448529e-09  4.56828749e-01  3.33970845e-09  4.56828749e-01  3.13281333e-09  1.57440908e-07  6.14995486e-08  3.50000000e-01 
 3.60000000e-01  4.56828739e-01  3.29800144e-09  3.46448528e-09  4.56828739e-01  3.33970850e-09  4.56828739e-01  3.13281333e-09  1.57440896e-07  6.14995379e-08  3.60000000e-01 
 3.70000000e-01  4.56828743e-01  3.29800145e-09  3.46448534e-09  4.56828743e-01  3.33970850e-09  4.56828743e-01  3.13281339e-09  1.57440913e-07  6.14992928e-08  3.70000000e-01 
 3.80000000e-01  4.56828757e-01  3.29800145e-09  3.46448529e-09  4.56828757e-01  3.33970845e-09  4.56828757e-01  3.13281338e-09  1.57440936e-07  6.14991826e-08  3.80000000e-01 
 3.90000000e-01  4.56828728e-01  3.29800144e-09  3.46448534e-09  4.56828728e-01  3.33970845e-09  4.56828728e-01  3.13281332e-09  1.57440880e-07  6.14991507e-08  3.90000000e-01 
 4.00000000e-01  4.56828737e-01  3.29800144e-09  3.46448534e-09  4.56828737e-01  3.33970845e-09  4.56828737e-01  3.13281334e-09  1.57440895e-07  6.14990192e-08  4.00000000e-01 
 4.10000000e-01  4.56828755e-01  3.29800145e-09  3.46448534e-09  4.56828755e-01  3.33970845e-09  4.56828755e-01  3.13281333e-09  1.57440933e-07  6.14990476e-08  4.10000000e-01 
 4.20000000e-01  4.56828760e-01  3.29800150e-09  3.46448529e-09  4.56828760e-01  3.33970845e-09  4.56828760e-01  3.13281339e-09  1.57440921e-07  6.14988949e-08  4.20000000e-01 
 4.30000000e-01  4.56828759e-01  3.29800145e-09  3.46448534e-09  4.56828759e-01  3.33970845e-09  4.56828759e-01  3.13281338e-09  1.57440934e-07  6.14988700e-08  4.30000000e-01 
 4.40000000e-01  4.56828741e-01  3.29800145e-09  3.46448534e-09  4.56828741e-01  3.33970845e-09  4.56828741e-01  3.13281333e-09  1.57440905e-07  6.14986568e-08  4.40000000e-01 
 4.50000000e-01  4.56828737e-01  3.29800144e-09  3.46448534e-09  4.56828737e-01  3.33970850e-09  4.56828737e-01  3.13281334e-09  1.57440903e-07  6.14986426e-08  4.50000000e-01 
 4.60000000e-01  4.56828768e-01  3.29800145e-09  3.46448529e-09  4.56828768e-01  3.33970851e-09  4.56828768e-01  3.13281333e-09  1.57440945e-07  6.14985787e-08  4.60000000e-01 
 4.70000000e-01  4.56828735e-01  3.29800144e-09  3.46448534e-09  4.56828735e-01  3.33970845e-09  4.56828735e-01  3.13281339e-09  1.57440898e-07  6.14985396e-08  4.70000000e-01 
 4.80000000e-01  4.56828732e-01  3.29800144e-09  3.46448534e-09  4.56828732e-01  3.33970845e-09  4.56828732e-01  3.13281332e-09  1.57440878e-07  6.14984330e-08  4.80000000e-01 
 4.90000000e-01  4.56828719e-01  3.29800144e-09  3.46448534e-09  4.56828719e-01  3.33970844e-09  4.56828719e-01  3.13281339e-09  1.57440873e-07  6.14984792e-08  4.90000000e-01 
 5.00000000e-01  4.56828756e-01  3.29800145e-09  3.46448529e-09  4.56828756e-01  3.33970850e-09  4.56828756e-01  3.13281332e-09  1.57440920e-07  6.14983691e-08  5.00000000e-01 
 5.10000000e-01  4.56828749e-01  3.29800145e-09  3.46448529e-09  4.56828749e-01  3.33970850e-09  4.56828749e-01  3.13281334e-09  1.57440922e-07  6.14983513e-08  5.10000000e-01 
 5.20000000e-01  4.56828753e-01  3.29800145e-09  3.46448529e-09  4.56828753e-01  3.33970845e-09  4.56828753e-01  3.13281339e-09  1.57440925e-07  6.14982731e-08  5.20000000e-01 
 5.30000000e-01  4.56828751e-01  3.29800145e-09  3.46448529e-09  4.56828751e-01  3.33970845e-09  4.56828751e-01  3.13281332e-09  1.57440916e-07  6.14981808e-08  5.30000000e-01 
 5.40000000e-01  4.56828758e-01  3.29800145e-09  3.46448529e-09  4.56828758e-01  3.33970845e-09  4.56828758e-01  3.13281334e-09  1.57440930e-07  6.14981168e-08  5.40000000e-01 
 5.50000000e-01  4.56828755e-01  3.29800145e-09  3.46448529e-09  4.56828755e-01  3.33970845e-09  4.56828755e-01  3.13281333e-09  1.57440922e-07  6.14979534e-08  5.50000000e-01 
 5.60000000e-01  4.56828748e-01  3.29800145e-09  3.46448529e-09  4.56828748e-01  3.33970845e-09  4.56828748e-01  3.13281333e-09  1.57440917e-07  6.14979392e-08  5.60000000e-01 
 5.70000000e-01  4.56828726e-01  3.29800144e-09  3.46448528e-09  4.56828726e-01  3.33970845e-09  4.56828726e-01  3.13281333e-09  1.57440876e-07  6.14978788e-08  5.70000000e-01 
 5.80000000e-01  4.56828744e-01  3.29800145e-09  3.46448528e-09  4.56828745e-01  3.33970845e-09  4.56828744e-01  3.13281333e-09  1.57440914e-07  6.14978362e-08  5.80000000e-01 
 5.90000000e-01  4.56828754e-01  3.29800145e-09  3.46448534e-09  4.56828755e-01  3.33970845e-09  4.56828755e-01  3.13281333e-09  1.57440928e-07  6.14977651e-08  5.90000000e-01 
 6.00000000e-01  4.56828733e-01  3.29800144e-09  3.46448528e-09  4.56828733e-01  3.33970845e-09  4.56828733e-01  3.13281333e-09  1.57440901e-07  6.14977083e-08  6.00000000e-01 
 6.10000000e-01  4.56828737e-01  3.29800144e-09  3.46448534e-09  4.56828737e-01  3.33970845e-09  4.56828737e-01  3.13281333e-09  1.57440895e-07  6.14976301e-08  6.10000000e-01 
 6.20000000e-01  4.56828750e-01  3.29800145e-09  3.46448529e-09  4.56828750e-01  3.33970845e-09  4.56828750e-01  3.13281339e-09  1.57440917e-07  6.14977012e-08  6.20000000e-01 
 6.30000000e-01  4.56828754e-01  3.29800145e-09  3.46448529e-09  4.56828754e-01  3.33970845e-09  4.56828754e-01  3.13281332e-09  1.57440925e-07  6.14975804e-08  6.30000000e-01 
 6.40000000e-01  4.56828731e-01  3.29800144e-09  3.46448528e-09  4.56828731e-01  3.33970845e-09  4.56828731e-01  3.13281334e-09  1.57440890e-07  6.14974311e-08  6.40000000e-01 
 6.50000000e-01  4.56828740e-01  3.29800145e-09  3.46448534e-09  4.56828740e-01  3.33970850e-09  4.56828740e-01  3.13281333e-09  1.57440895e-07  6.14974454e-08  6.50000000e-01 
 6.60000000e-01  4.56828727e-01  3.29800144e-09  3.46448534e-09  4.56828727e-01  3.33970850e-09  4.56828727e-01  3.13281333e-09  1.57440883e-07  6.14973956e-08  6.60000000e-01 
 6.70000000e-01  4.56828706e-01  3.29800144e-09  3.46448528e-09  4.56828706e-01  3.33970844e-09  4.56828706e-01  3.13281333e-09  1.57440845e-07  6.14971825e-08  6.70000000e-01 
 6.80000000e-01  4.56828755e-01  3.29800145e-09  3.46448529e-09  4.56828755e-01  3.33970845e-09  4.56828755e-01  3.13281333e-09  1.57440930e-07  6.14972748e-08  6.80000000e-01 
 6.90000000e-01  4.56828757e-01  3.29800145e-09  3.46448529e-09  4.56828757e-01  3.33970845e-09  4.56828757e-01  3.13281333e-09  1.57440928e-07  6.14970688e-08  6.90000000e-01 
 7.00000000e-01  4.56828743e-01  3.29800145e-09  3.46448534e-09  4.56828743e-01  3.33970845e-09  4.56828743e-01  3.13281339e-09  1.57440913e-07  6.14969977e-08  7.00000000e-01 
 7.10000000e-01  4.56828739e-01  3.29800144e-09  3.46448528e-09  4.56828739e-01  3.33970850e-09  4.56828739e-01  3.13281332e-09  1.57440904e-07  6.14968698e-08  7.10000000e-01 
 7.20000000e-01  4.56828750e-01  3.29800145e-09  3.46448534e-09  4.56828750e-01  3.33970850e-09  4.56828750e-01  3.13281334e-09  1.57440925e-07  6.14969267e-08  7.20000000e-01 
 7.30000000e-01  4.56828752e-01  3.29800145e-09  3.46448529e-09  4.56828752e-01  3.33970845e-09  4.56828752e-01  3.13281333e-09  1.57440915e-07  6.14968130e-08  7.30000000e-01 
 7.40000000e-01  4.56828745e-01  3.29800145e-09  3.46448528e-09  4.56828745e-01  3.33970845e-09  4.56828745e-01  3.13281333e-09  1.57440915e-07  6.14968485e-08  7.40000000e-01 
 7.50000000e-01  4.56828771e-01  3.29800145e-09  3.46448529e-09  4.56828771e-01  3.33970851e-09  4.56828771e-01  3.13281333e-09  1.57440956e-07  6.14968556e-08  7.50000000e-01 
 7.60000000e-01  4.56828734e-01  3.29800144e-09  3.46448528e-09  4.56828734e-01  3.33970845e-09  4.56828734e-01  3.13281339e-09  1.57440892e-07  6.14967632e-08  7.60000000e-01 
 7.70000000e-01  4.56828768e-01  3.29800145e-09  3.46448529e-09  4.56828769e-01  3.33970845e-09  4.56828768e-01  3.13281332e-09  1.57440952e-07  6.14967703e-08  7.70000000e-01 
 7.80000000e-01  4.56828739e-01  3.29800144e-09  3.46448534e-09  4.56828739e-01  3.33970845e-09  4.56828739e-01  3.13281334e-09  1.57440907e-07  6.14965927e-08  7.80000000e-01 
 7.90000000e-01  4.56828756e-01  3.29800145e-09  3.46448529e-09  4.56828757e-01  3.33970850e-09  4.56828756e-01  3.13281333e-09  1.57440925e-07  6.14965927e-08  7.90000000e-01 
 8.00000000e-01  4.56828742e-01  3.29800145e-09  3.46448528e-09  4.56828742e-01  3.33970845e-09  4.56828742e-01  3.13281333e-09  1.57440914e-07  6.14965003e-08  8.00000000e-01 
 8.10000000e-01  4.56828745e-01  3.29800145e-09  3.46448528e-09  4.56828745e-01  3.33970845e-09  4.56828745e-01  3.13281333e-09  1.57440915e-07  6.14964293e-08  8.10000000e-01 
 8.20000000e-01  4.56828735e-01  3.29800144e-09  3.46448528e-09  4.56828735e-01  3.33970845e-09  4.56828735e-01  3.13281333e-09  1.57440888e-07  6.14963511e-08  8.20000000e-01 
 8.30000000e-01  4.56828761e-01  3.29800145e-09  3.46448529e-09  4.56828761e-01  3.33970845e-09  4.56828761e-01  3.13281333e-09  1.57440929e-07  6.14963866e-08  8.30000000e-01 
 8.40000000e-01  4.56828732e-01  3.29800144e-09  3.46448528e-09  4.56828732e-01  3.33970845e-09  4.56828732e-01  3.13281333e-09  1.57440884e-07  6.14962588e-08  8.40000000e-01 
 8.50000000e-01  4.56828725e-01  3.29800144e-09  3.46448528e-09  4.56828725e-01  3.33970850e-09  4.56828725e-01  3.13281339e-09  1.57440880e-07  6.14960669e-08  8.50000000e-01 
 8.60000000e-01  4.56828733e-01  3.29800144e-09  3.46448534e-09  4.56828733e-01  3.33970850e-09  4.56828733e-01  3.13281332e-09  1.57440888e-07  6.14959603e-08  8.60000000e-01 
 8.70000000e-01  4.56828775e-01  3.29800145e-09  3.46448529e-09  4.56828776e-01  3.33970845e-09  4.56828775e-01  3.13281334e-09  1.57440953e-07  6.14960811e-08  8.70000000e-01 
 8.80000000e-01  4.56828756e-01  3.29800145e-09  3.46448529e-09  4.56828756e-01  3.33970845e-09  4.56828756e-01  3.13281339e-09  1.57440922e-07  6.14958893e-08  8.80000000e-01 
 8.90000000e-01  4.56828755e-01  3.29800145e-09  3.46448529e-09  4.56828755e-01  3.33970845e-09  4.56828755e-01  3.13281338e-09  1.57440931e-07  6.14959106e-08  8.90000000e-01 
 9.00000000e-01  4.56828762e-01  3.29800145e-09  3.46448529e-09  4.56828762e-01  3.33970850e-09  4.56828762e-01  3.13281333e-09  1.57440938e-07  6.14959106e-08  9.00000000e-01 
 9.10000000e-01  4.56828768e-01  3.29800145e-09  3.46448534e-09  4.56828769e-01  3.33970845e-09  4.56828769e-01  3.13281334e-09  1.57440942e-07  6.14958466e-08  9.10000000e-01 
 9.20000000e-01  4.56828762e-01  3.29800145e-09  3.46448534e-09  4.56828763e-01  3.33970845e-09  4.56828762e-01  3.13281333e-09  1.57440939e-07  6.14957685e-08  9.20000000e-01 
 9.30000000e-01  4.56828745e-01  3.29800145e-09  3.46448528e-09  4.56828745e-01  3.33970845e-09  4.56828745e-01  3.13281339e-09  1.57440915e-07  6.14957045e-08  9.30000000e-01 
 9.40000000e-01  4.56828762e-01  3.29800145e-09  3.46448534e-09  4.56828763e-01  3.33970845e-09  4.56828762e-01  3.13281338e-09  1.57440936e-07  6.14955482e-08  9.40000000e-01 
 9.50000000e-01  4.56828750e-01  3.29800145e-09  3.46448534e-09  4.56828750e-01  3.33970845e-09  4.56828750e-01  3.13281333e-09  1.57440915e-07  6.14954558e-08  9.50000000e-01 
 9.60000000e-01  4.56828742e-01  3.29800145e-09  3.46448534e-09  4.56828742e-01  3.33970845e-09  4.56828742e-01  3.13281334e-09  1.57440906e-07  6.14954700e-08  9.60000000e-01 
 9.70000000e-01  4.56828742e-01  3.29800145e-09  3.46448528e-09  4.56828742e-01  3.33970845e-09  4.56828742e-01  3.13281333e-09  1.57440903e-07  6.14953635e-08  9.70000000e-01 
 9.80000000e-01  4.56828762e-01  3.29800145e-09  3.46448534e-09  4.56828762e-01  3.33970845e-09  4.56828762e-01  3.13281333e-09  1.57440919e-07  6.14952356e-08  9.80000000e-01 
 9.90000000e-01  4.56828734e-01  3.29800144e-09  3.46448528e-09  4.56828734e-01  3.33970850e-09  4.56828734e-01  3.13281333e-09  1.57440904e-07  6.14952711e-08  9.90000000e-01 
 1.00000000e+00  4.56828756e-01  3.29800145e-09  3.46448529e-09  4.56828757e-01  3.33970845e-09  4.56828756e-01  3.13281333e-09  1.57440928e-07  6.14950721e-08  1.00000000e+00 
 1.01000000e+00  4.56828741e-01  3.29800145e-09  3.46448528e-09  4.56828741e-01  3.33970845e-09  4.56828741e-01  3.13281333e-09  1.57440899e-07  6.14950082e-08  1.01000000e+00 
 1.02000000e+00  4.56828739e-01  3.29800144e-09  3.46448528e-09  4.56828740e-01  3.33970850e-09  4.56828740e-01  3.13281333e-09  1.57440902e-07  6.14950579e-08  1.02000000e+00 
 1.03000000e+00  4.56828760e-01  3.29800145e-09  3.46448529e-09  4.56828761e-01  3.33970850e-09  4.56828761e-01  3.13281333e-09  1.57440931e-07  6.14950366e-08  1.03000000e+00 
 1.04000000e+00  4.56828742e-01  3.29800145e-09  3.46448534e-09  4.56828742e-01  3.33970850e-09  4.56828742e-01  3.13281333e-09  1.57440903e-07  6.14948874e-08  1.04000000e+00 
 1.05000000e+00  4.56828737e-01  3.29800144e-09  3.46448528e-09  4.56828737e-01  3.33970845e-09  4.56828737e-01  3.13281333e-09  1.57440892e-07  6.14947524e-08  1.05000000e+00 
 1.06000000e+00  4.56828750e-01  3.29800145e-09  3.46448529e-09  4.56828750e-01  3.33970845e-09  4.56828750e-01  3.13281333e-09  1.57440899e-07  6.14948448e-08  1.06000000e+00 
 1.07000000e+00  4.56828769e-01  3.29800145e-09  3.46448529e-09  4.56828770e-01  3.33970851e-09  4.56828769e-01  3.13281333e-09  1.57440962e-07  6.14947879e-08  1.07000000e+00 
 1.08000000e+00  4.56828735e-01  3.29800144e-09  3.46448534e-09  4.56828736e-01  3.33970845e-09  4.56828736e-01  3.13281333e-09  1.57440892e-07  6.14944895e-08  1.08000000e+00 
 1.09000000e+00  4.56828748e-01  3.29800145e-09  3.46448529e-09  4.56828749e-01  3.33970845e-09  4.56828748e-01  3.13281333e-09  1.57440903e-07  6.14945463e-08  1.09000000e+00 
 1.10000000e+00  4.56828741e-01  3.29800145e-09  3.46448534e-09  4.56828742e-01  3.33970845e-09  4.56828741e-01  3.13281333e-09  1.57440913e-07  6.14945748e-08  1.10000000e+00 
