 v-sweep         v(b0)           v(b1)           v(b2)           v(b3)           v(b4)           v(b5)           v(b6)           i(vbias)        i(viout)        v(vout)        
 0.00000000e+00  4.58607305e-01  3.59069766e-09  3.22691267e-09  4.58607305e-01  3.25679316e-09  3.09344107e-09  3.40252062e-09  1.58872843e-07  1.35914187e-08  0.00000000e+00 
 1.00000000e-02  4.58607311e-01  3.59069769e-09  3.22691264e-09  4.58607311e-01  3.25679319e-09  3.09344110e-09  3.40252058e-09  1.58872850e-07  1.35910859e-08  1.00000000e-02 
 2.00000000e-02  4.58607301e-01  3.59069763e-09  3.22691265e-09  4.58607301e-01  3.25679313e-09  3.09344110e-09  3.40252058e-09  1.58872837e-07  1.35906852e-08  2.00000000e-02 
 3.00000000e-02  4.58607314e-01  3.59069769e-09  3.22691265e-09  4.58607314e-01  3.25679313e-09  3.09344104e-09  3.40252059e-09  1.58872848e-07  1.35902731e-08  3.00000000e-02 
 4.00000000e-02  4.58607291e-01  3.59069769e-09  3.22691264e-09  4.58607291e-01  3.25679313e-09  3.09344105e-09  3.40252058e-09  1.58872824e-07  1.35899239e-08  4.00000000e-02 
 5.00000000e-02  4.58607275e-01  3.59069769e-09  3.22691264e-09  4.58607275e-01  3.25679319e-09  3.09344104e-09  3.40252058e-09  1.58872797e-07  1.35895877e-08  5.00000000e-02 
 6.00000000e-02  4.58607302e-01  3.59069769e-09  3.22691270e-09  4.58607302e-01  3.25679313e-09  3.09344105e-09  3.40252058e-09  1.58872839e-07  1.35893825e-08  6.00000000e-02 
 7.00000000e-02  4.58607307e-01  3.59069769e-09  3.22691263e-09  4.58607307e-01  3.25679313e-09  3.09344105e-09  3.40252058e-09  1.58872851e-07  1.35890135e-08  7.00000000e-02 
 8.00000000e-02  4.58607309e-01  3.59069769e-09  3.22691265e-09  4.58607309e-01  3.25679313e-09  3.09344110e-09  3.40252058e-09  1.58872847e-07  1.35887559e-08  8.00000000e-02 
 9.00000000e-02  4.58607285e-01  3.59069769e-09  3.22691264e-09  4.58607284e-01  3.25679319e-09  3.09344103e-09  3.40252058e-09  1.58872807e-07  1.35884592e-08  9.00000000e-02 
 1.00000000e-01  4.58607284e-01  3.59069769e-09  3.22691264e-09  4.58607284e-01  3.25679319e-09  3.09344105e-09  3.40252058e-09  1.58872809e-07  1.35882399e-08  1.00000000e-01 
 1.10000000e-01  4.58607294e-01  3.59069763e-09  3.22691264e-09  4.58607294e-01  3.25679313e-09  3.09344110e-09  3.40252058e-09  1.58872830e-07  1.35879601e-08  1.10000000e-01 
 1.20000000e-01  4.58607292e-01  3.59069769e-09  3.22691264e-09  4.58607292e-01  3.25679319e-09  3.09344103e-09  3.40252064e-09  1.58872820e-07  1.35878073e-08  1.20000000e-01 
 1.30000000e-01  4.58607302e-01  3.59069769e-09  3.22691264e-09  4.58607302e-01  3.25679319e-09  3.09344111e-09  3.40252064e-09  1.58872837e-07  1.35875693e-08  1.30000000e-01 
 1.40000000e-01  4.58607306e-01  3.59069769e-09  3.22691265e-09  4.58607306e-01  3.25679319e-09  3.09344109e-09  3.40252058e-09  1.58872844e-07  1.35873419e-08  1.40000000e-01 
 1.50000000e-01  4.58607288e-01  3.59069769e-09  3.22691264e-09  4.58607288e-01  3.25679319e-09  3.09344110e-09  3.40252058e-09  1.58872822e-07  1.35871865e-08  1.50000000e-01 
 1.60000000e-01  4.58607314e-01  3.59069769e-09  3.22691265e-09  4.58607314e-01  3.25679313e-09  3.09344110e-09  3.40252059e-09  1.58872854e-07  1.35870604e-08  1.60000000e-01 
 1.70000000e-01  4.58607303e-01  3.59069769e-09  3.22691265e-09  4.58607303e-01  3.25679319e-09  3.09344110e-09  3.40252064e-09  1.58872847e-07  1.35868152e-08  1.70000000e-01 
 1.80000000e-01  4.58607307e-01  3.59069769e-09  3.22691265e-09  4.58607307e-01  3.25679313e-09  3.09344104e-09  3.40252058e-09  1.58872829e-07  1.35865665e-08  1.80000000e-01 
 1.90000000e-01  4.58607287e-01  3.59069769e-09  3.22691264e-09  4.58607287e-01  3.25679313e-09  3.09344111e-09  3.40252058e-09  1.58872811e-07  1.35864973e-08  1.90000000e-01 
 2.00000000e-01  4.58607302e-01  3.59069769e-09  3.22691264e-09  4.58607302e-01  3.25679319e-09  3.09344109e-09  3.40252058e-09  1.58872843e-07  1.35863125e-08  2.00000000e-01 
 2.10000000e-01  4.58607285e-01  3.59069769e-09  3.22691270e-09  4.58607285e-01  3.25679319e-09  3.09344110e-09  3.40252058e-09  1.58872819e-07  1.35859448e-08  2.10000000e-01 
 2.20000000e-01  4.58607289e-01  3.59069769e-09  3.22691269e-09  4.58607288e-01  3.25679319e-09  3.09344110e-09  3.40252058e-09  1.58872820e-07  1.35858844e-08  2.20000000e-01 
 2.30000000e-01  4.58607304e-01  3.59069769e-09  3.22691264e-09  4.58607304e-01  3.25679319e-09  3.09344104e-09  3.40252058e-09  1.58872830e-07  1.35859484e-08  2.30000000e-01 
 2.40000000e-01  4.58607311e-01  3.59069764e-09  3.22691265e-09  4.58607311e-01  3.25679319e-09  3.09344105e-09  3.40252058e-09  1.58872853e-07  1.35857299e-08  2.40000000e-01 
 2.50000000e-01  4.58607311e-01  3.59069769e-09  3.22691270e-09  4.58607311e-01  3.25679313e-09  3.09344110e-09  3.40252058e-09  1.58872850e-07  1.35855203e-08  2.50000000e-01 
 2.60000000e-01  4.58607300e-01  3.59069769e-09  3.22691263e-09  4.58607300e-01  3.25679313e-09  3.09344109e-09  3.40252058e-09  1.58872825e-07  1.35854439e-08  2.60000000e-01 
 2.70000000e-01  4.58607298e-01  3.59069769e-09  3.22691265e-09  4.58607298e-01  3.25679313e-09  3.09344104e-09  3.40252058e-09  1.58872825e-07  1.35854243e-08  2.70000000e-01 
 2.80000000e-01  4.58607296e-01  3.59069769e-09  3.22691264e-09  4.58607295e-01  3.25679313e-09  3.09344111e-09  3.40252058e-09  1.58872830e-07  1.35852307e-08  2.80000000e-01 
 2.90000000e-01  4.58607308e-01  3.59069769e-09  3.22691265e-09  4.58607308e-01  3.25679313e-09  3.09344109e-09  3.40252058e-09  1.58872840e-07  1.35852112e-08  2.90000000e-01 
 3.00000000e-01  4.58607309e-01  3.59069763e-09  3.22691265e-09  4.58607309e-01  3.25679313e-09  3.09344110e-09  3.40252058e-09  1.58872840e-07  1.35850797e-08  3.00000000e-01 
 3.10000000e-01  4.58607296e-01  3.59069769e-09  3.22691264e-09  4.58607296e-01  3.25679319e-09  3.09344104e-09  3.40252058e-09  1.58872829e-07  1.35850300e-08  3.10000000e-01 
 3.20000000e-01  4.58607301e-01  3.59069769e-09  3.22691264e-09  4.58607301e-01  3.25679313e-09  3.09344111e-09  3.40252058e-09  1.58872842e-07  1.35849696e-08  3.20000000e-01 
 3.30000000e-01  4.58607307e-01  3.59069769e-09  3.22691265e-09  4.58607306e-01  3.25679313e-09  3.09344109e-09  3.40252058e-09  1.58872840e-07  1.35847671e-08  3.30000000e-01 
 3.40000000e-01  4.58607316e-01  3.59069769e-09  3.22691265e-09  4.58607316e-01  3.25679319e-09  3.09344104e-09  3.40252059e-09  1.58872863e-07  1.35846854e-08  3.40000000e-01 
 3.50000000e-01  4.58607291e-01  3.59069769e-09  3.22691264e-09  4.58607291e-01  3.25679319e-09  3.09344111e-09  3.40252058e-09  1.58872823e-07  1.35846001e-08  3.50000000e-01 
 3.60000000e-01  4.58607297e-01  3.59069769e-09  3.22691264e-09  4.58607297e-01  3.25679319e-09  3.09344109e-09  3.40252058e-09  1.58872831e-07  1.35845113e-08  3.60000000e-01 
 3.70000000e-01  4.58607286e-01  3.59069769e-09  3.22691270e-09  4.58607286e-01  3.25679313e-09  3.09344110e-09  3.40252058e-09  1.58872813e-07  1.35844154e-08  3.70000000e-01 
 3.80000000e-01  4.58607283e-01  3.59069769e-09  3.22691263e-09  4.58607283e-01  3.25679319e-09  3.09344110e-09  3.40252058e-09  1.58872812e-07  1.35844047e-08  3.80000000e-01 
 3.90000000e-01  4.58607295e-01  3.59069763e-09  3.22691265e-09  4.58607295e-01  3.25679319e-09  3.09344110e-09  3.40252058e-09  1.58872811e-07  1.35843834e-08  3.90000000e-01 
 4.00000000e-01  4.58607295e-01  3.59069769e-09  3.22691264e-09  4.58607295e-01  3.25679313e-09  3.09344104e-09  3.40252058e-09  1.58872819e-07  1.35843372e-08  4.00000000e-01 
 4.10000000e-01  4.58607301e-01  3.59069769e-09  3.22691264e-09  4.58607301e-01  3.25679319e-09  3.09344105e-09  3.40252058e-09  1.58872832e-07  1.35842235e-08  4.10000000e-01 
 4.20000000e-01  4.58607297e-01  3.59069763e-09  3.22691264e-09  4.58607297e-01  3.25679313e-09  3.09344110e-09  3.40252058e-09  1.58872831e-07  1.35840637e-08  4.20000000e-01 
 4.30000000e-01  4.58607301e-01  3.59069769e-09  3.22691264e-09  4.58607301e-01  3.25679313e-09  3.09344103e-09  3.40252058e-09  1.58872838e-07  1.35841560e-08  4.30000000e-01 
 4.40000000e-01  4.58607306e-01  3.59069769e-09  3.22691265e-09  4.58607306e-01  3.25679313e-09  3.09344111e-09  3.40252058e-09  1.58872843e-07  1.35840814e-08  4.40000000e-01 
 4.50000000e-01  4.58607276e-01  3.59069769e-09  3.22691264e-09  4.58607275e-01  3.25679319e-09  3.09344109e-09  3.40252058e-09  1.58872787e-07  1.35839677e-08  4.50000000e-01 
 4.60000000e-01  4.58607318e-01  3.59069769e-09  3.22691265e-09  4.58607318e-01  3.25679314e-09  3.09344110e-09  3.40252059e-09  1.58872863e-07  1.35837617e-08  4.60000000e-01 
 4.70000000e-01  4.58607314e-01  3.59069769e-09  3.22691270e-09  4.58607314e-01  3.25679319e-09  3.09344110e-09  3.40252059e-09  1.58872860e-07  1.35838292e-08  4.70000000e-01 
 4.80000000e-01  4.58607297e-01  3.59069763e-09  3.22691269e-09  4.58607297e-01  3.25679313e-09  3.09344110e-09  3.40252058e-09  1.58872826e-07  1.35837652e-08  4.80000000e-01 
 4.90000000e-01  4.58607310e-01  3.59069769e-09  3.22691264e-09  4.58607310e-01  3.25679313e-09  3.09344110e-09  3.40252058e-09  1.58872861e-07  1.35837261e-08  4.90000000e-01 
 5.00000000e-01  4.58607315e-01  3.59069769e-09  3.22691265e-09  4.58607315e-01  3.25679313e-09  3.09344110e-09  3.40252059e-09  1.58872865e-07  1.35837439e-08  5.00000000e-01 
 5.10000000e-01  4.58607301e-01  3.59069769e-09  3.22691270e-09  4.58607301e-01  3.25679313e-09  3.09344110e-09  3.40252058e-09  1.58872843e-07  1.35836302e-08  5.10000000e-01 
 5.20000000e-01  4.58607307e-01  3.59069769e-09  3.22691269e-09  4.58607307e-01  3.25679319e-09  3.09344110e-09  3.40252058e-09  1.58872844e-07  1.35835592e-08  5.20000000e-01 
 5.30000000e-01  4.58607292e-01  3.59069769e-09  3.22691264e-09  4.58607292e-01  3.25679313e-09  3.09344110e-09  3.40252058e-09  1.58872825e-07  1.35833709e-08  5.30000000e-01 
 5.40000000e-01  4.58607298e-01  3.59069769e-09  3.22691265e-09  4.58607297e-01  3.25679313e-09  3.09344110e-09  3.40252058e-09  1.58872825e-07  1.35834952e-08  5.40000000e-01 
 5.50000000e-01  4.58607303e-01  3.59069769e-09  3.22691265e-09  4.58607302e-01  3.25679313e-09  3.09344104e-09  3.40252064e-09  1.58872831e-07  1.35833815e-08  5.50000000e-01 
 5.60000000e-01  4.58607288e-01  3.59069763e-09  3.22691264e-09  4.58607288e-01  3.25679313e-09  3.09344105e-09  3.40252058e-09  1.58872826e-07  1.35832856e-08  5.60000000e-01 
 5.70000000e-01  4.58607312e-01  3.59069764e-09  3.22691265e-09  4.58607312e-01  3.25679313e-09  3.09344110e-09  3.40252064e-09  1.58872847e-07  1.35831684e-08  5.70000000e-01 
 5.80000000e-01  4.58607289e-01  3.59069769e-09  3.22691264e-09  4.58607288e-01  3.25679319e-09  3.09344103e-09  3.40252058e-09  1.58872820e-07  1.35831684e-08  5.80000000e-01 
 5.90000000e-01  4.58607287e-01  3.59069763e-09  3.22691264e-09  4.58607287e-01  3.25679313e-09  3.09344105e-09  3.40252058e-09  1.58872818e-07  1.35831328e-08  5.90000000e-01 
 6.00000000e-01  4.58607307e-01  3.59069769e-09  3.22691265e-09  4.58607307e-01  3.25679313e-09  3.09344110e-09  3.40252058e-09  1.58872860e-07  1.35831186e-08  6.00000000e-01 
 6.10000000e-01  4.58607312e-01  3.59069769e-09  3.22691265e-09  4.58607312e-01  3.25679319e-09  3.09344103e-09  3.40252058e-09  1.58872862e-07  1.35829623e-08  6.10000000e-01 
 6.20000000e-01  4.58607308e-01  3.59069769e-09  3.22691265e-09  4.58607308e-01  3.25679313e-09  3.09344105e-09  3.40252058e-09  1.58872848e-07  1.35829623e-08  6.20000000e-01 
 6.30000000e-01  4.58607297e-01  3.59069769e-09  3.22691264e-09  4.58607297e-01  3.25679319e-09  3.09344110e-09  3.40252058e-09  1.58872829e-07  1.35828486e-08  6.30000000e-01 
 6.40000000e-01  4.58607302e-01  3.59069769e-09  3.22691264e-09  4.58607302e-01  3.25679313e-09  3.09344109e-09  3.40252058e-09  1.58872847e-07  1.35830334e-08  6.40000000e-01 
 6.50000000e-01  4.58607312e-01  3.59069769e-09  3.22691265e-09  4.58607312e-01  3.25679313e-09  3.09344110e-09  3.40252058e-09  1.58872850e-07  1.35828557e-08  6.50000000e-01 
 6.60000000e-01  4.58607306e-01  3.59069769e-09  3.22691265e-09  4.58607306e-01  3.25679319e-09  3.09344110e-09  3.40252058e-09  1.58872847e-07  1.35826852e-08  6.60000000e-01 
 6.70000000e-01  4.58607275e-01  3.59069769e-09  3.22691264e-09  4.58607274e-01  3.25679313e-09  3.09344104e-09  3.40252058e-09  1.58872804e-07  1.35827065e-08  6.70000000e-01 
 6.80000000e-01  4.58607314e-01  3.59069769e-09  3.22691265e-09  4.58607314e-01  3.25679313e-09  3.09344111e-09  3.40252059e-09  1.58872870e-07  1.35827563e-08  6.80000000e-01 
 6.90000000e-01  4.58607273e-01  3.59069769e-09  3.22691264e-09  4.58607273e-01  3.25679313e-09  3.09344109e-09  3.40252058e-09  1.58872789e-07  1.35827136e-08  6.90000000e-01 
 7.00000000e-01  4.58607303e-01  3.59069769e-09  3.22691265e-09  4.58607303e-01  3.25679313e-09  3.09344110e-09  3.40252058e-09  1.58872848e-07  1.35825928e-08  7.00000000e-01 
 7.10000000e-01  4.58607277e-01  3.59069763e-09  3.22691264e-09  4.58607277e-01  3.25679313e-09  3.09344104e-09  3.40252058e-09  1.58872807e-07  1.35824934e-08  7.10000000e-01 
 7.20000000e-01  4.58607304e-01  3.59069763e-09  3.22691265e-09  4.58607304e-01  3.25679319e-09  3.09344105e-09  3.40252058e-09  1.58872850e-07  1.35826070e-08  7.20000000e-01 
 7.30000000e-01  4.58607309e-01  3.59069769e-09  3.22691270e-09  4.58607309e-01  3.25679313e-09  3.09344110e-09  3.40252058e-09  1.58872848e-07  1.35823655e-08  7.30000000e-01 
 7.40000000e-01  4.58607308e-01  3.59069769e-09  3.22691269e-09  4.58607308e-01  3.25679313e-09  3.09344109e-09  3.40252058e-09  1.58872836e-07  1.35824365e-08  7.40000000e-01 
 7.50000000e-01  4.58607289e-01  3.59069769e-09  3.22691270e-09  4.58607289e-01  3.25679313e-09  3.09344104e-09  3.40252058e-09  1.58872811e-07  1.35823157e-08  7.50000000e-01 
 7.60000000e-01  4.58607293e-01  3.59069769e-09  3.22691264e-09  4.58607293e-01  3.25679313e-09  3.09344111e-09  3.40252064e-09  1.58872822e-07  1.35823299e-08  7.60000000e-01 
 7.70000000e-01  4.58607299e-01  3.59069769e-09  3.22691265e-09  4.58607298e-01  3.25679313e-09  3.09344103e-09  3.40252058e-09  1.58872829e-07  1.35821878e-08  7.70000000e-01 
 7.80000000e-01  4.58607277e-01  3.59069769e-09  3.22691264e-09  4.58607277e-01  3.25679313e-09  3.09344105e-09  3.40252058e-09  1.58872790e-07  1.35822020e-08  7.80000000e-01 
 7.90000000e-01  4.58607307e-01  3.59069769e-09  3.22691265e-09  4.58607307e-01  3.25679319e-09  3.09344105e-09  3.40252058e-09  1.58872853e-07  1.35821239e-08  7.90000000e-01 
 8.00000000e-01  4.58607302e-01  3.59069769e-09  3.22691265e-09  4.58607302e-01  3.25679313e-09  3.09344110e-09  3.40252058e-09  1.58872838e-07  1.35820102e-08  8.00000000e-01 
 8.10000000e-01  4.58607281e-01  3.59069763e-09  3.22691264e-09  4.58607281e-01  3.25679319e-09  3.09344109e-09  3.40252058e-09  1.58872808e-07  1.35820244e-08  8.10000000e-01 
 8.20000000e-01  4.58607289e-01  3.59069769e-09  3.22691264e-09  4.58607289e-01  3.25679313e-09  3.09344110e-09  3.40252064e-09  1.58872825e-07  1.35819604e-08  8.20000000e-01 
 8.30000000e-01  4.58607306e-01  3.59069769e-09  3.22691265e-09  4.58607306e-01  3.25679313e-09  3.09344110e-09  3.40252058e-09  1.58872845e-07  1.35819036e-08  8.30000000e-01 
 8.40000000e-01  4.58607290e-01  3.59069763e-09  3.22691264e-09  4.58607290e-01  3.25679313e-09  3.09344104e-09  3.40252058e-09  1.58872812e-07  1.35818681e-08  8.40000000e-01 
 8.50000000e-01  4.58607314e-01  3.59069769e-09  3.22691265e-09  4.58607314e-01  3.25679313e-09  3.09344111e-09  3.40252059e-09  1.58872854e-07  1.35818183e-08  8.50000000e-01 
 8.60000000e-01  4.58607285e-01  3.59069769e-09  3.22691264e-09  4.58607285e-01  3.25679319e-09  3.09344109e-09  3.40252058e-09  1.58872817e-07  1.35817686e-08  8.60000000e-01 
 8.70000000e-01  4.58607300e-01  3.59069769e-09  3.22691264e-09  4.58607299e-01  3.25679313e-09  3.09344104e-09  3.40252058e-09  1.58872831e-07  1.35817331e-08  8.70000000e-01 
 8.80000000e-01  4.58607288e-01  3.59069769e-09  3.22691264e-09  4.58607288e-01  3.25679319e-09  3.09344111e-09  3.40252058e-09  1.58872804e-07  1.35816833e-08  8.80000000e-01 
 8.90000000e-01  4.58607306e-01  3.59069769e-09  3.22691270e-09  4.58607306e-01  3.25679313e-09  3.09344103e-09  3.40252058e-09  1.58872849e-07  1.35815483e-08  8.90000000e-01 
 9.00000000e-01  4.58607305e-01  3.59069769e-09  3.22691263e-09  4.58607305e-01  3.25679319e-09  3.09344111e-09  3.40252058e-09  1.58872849e-07  1.35815696e-08  9.00000000e-01 
 9.10000000e-01  4.58607290e-01  3.59069769e-09  3.22691265e-09  4.58607289e-01  3.25679313e-09  3.09344103e-09  3.40252058e-09  1.58872821e-07  1.35814702e-08  9.10000000e-01 
 9.20000000e-01  4.58607293e-01  3.59069769e-09  3.22691264e-09  4.58607293e-01  3.25679319e-09  3.09344105e-09  3.40252058e-09  1.58872822e-07  1.35814346e-08  9.20000000e-01 
 9.30000000e-01  4.58607287e-01  3.59069769e-09  3.22691264e-09  4.58607287e-01  3.25679313e-09  3.09344110e-09  3.40252058e-09  1.58872813e-07  1.35814062e-08  9.30000000e-01 
 9.40000000e-01  4.58607306e-01  3.59069763e-09  3.22691265e-09  4.58607306e-01  3.25679313e-09  3.09344109e-09  3.40252058e-09  1.58872854e-07  1.35813281e-08  9.40000000e-01 
 9.50000000e-01  4.58607294e-01  3.59069769e-09  3.22691264e-09  4.58607293e-01  3.25679319e-09  3.09344104e-09  3.40252058e-09  1.58872827e-07  1.35812925e-08  9.50000000e-01 
 9.60000000e-01  4.58607283e-01  3.59069769e-09  3.22691264e-09  4.58607282e-01  3.25679313e-09  3.09344111e-09  3.40252064e-09  1.58872813e-07  1.35812499e-08  9.60000000e-01 
 9.70000000e-01  4.58607307e-01  3.59069769e-09  3.22691265e-09  4.58607307e-01  3.25679313e-09  3.09344109e-09  3.40252058e-09  1.58872851e-07  1.35810936e-08  9.70000000e-01 
 9.80000000e-01  4.58607282e-01  3.59069763e-09  3.22691264e-09  4.58607282e-01  3.25679313e-09  3.09344110e-09  3.40252064e-09  1.58872816e-07  1.35811149e-08  9.80000000e-01 
 9.90000000e-01  4.58607274e-01  3.59069769e-09  3.22691264e-09  4.58607274e-01  3.25679319e-09  3.09344110e-09  3.40252058e-09  1.58872781e-07  1.35811220e-08  9.90000000e-01 
 1.00000000e+00  4.58607295e-01  3.59069769e-09  3.22691264e-09  4.58607295e-01  3.25679319e-09  3.09344104e-09  3.40252064e-09  1.58872831e-07  1.35810936e-08  1.00000000e+00 
 1.01000000e+00  4.58607313e-01  3.59069764e-09  3.22691265e-09  4.58607313e-01  3.25679313e-09  3.09344111e-09  3.40252059e-09  1.58872854e-07  1.35809302e-08  1.01000000e+00 
 1.02000000e+00  4.58607303e-01  3.59069769e-09  3.22691265e-09  4.58607303e-01  3.25679313e-09  3.09344103e-09  3.40252058e-09  1.58872832e-07  1.35809799e-08  1.02000000e+00 
 1.03000000e+00  4.58607304e-01  3.59069769e-09  3.22691265e-09  4.58607304e-01  3.25679313e-09  3.09344105e-09  3.40252058e-09  1.58872841e-07  1.35808804e-08  1.03000000e+00 
 1.04000000e+00  4.58607312e-01  3.59069769e-09  3.22691265e-09  4.58607312e-01  3.25679313e-09  3.09344105e-09  3.40252058e-09  1.58872861e-07  1.35809088e-08  1.04000000e+00 
 1.05000000e+00  4.58607293e-01  3.59069769e-09  3.22691264e-09  4.58607293e-01  3.25679313e-09  3.09344104e-09  3.40252058e-09  1.58872821e-07  1.35808946e-08  1.05000000e+00 
 1.06000000e+00  4.58607269e-01  3.59069769e-09  3.22691270e-09  4.58607269e-01  3.25679319e-09  3.09344110e-09  3.40252058e-09  1.58872793e-07  1.35807028e-08  1.06000000e+00 
 1.07000000e+00  4.58607298e-01  3.59069763e-09  3.22691263e-09  4.58607298e-01  3.25679319e-09  3.09344109e-09  3.40252058e-09  1.58872821e-07  1.35806388e-08  1.07000000e+00 
 1.08000000e+00  4.58607300e-01  3.59069769e-09  3.22691265e-09  4.58607299e-01  3.25679313e-09  3.09344110e-09  3.40252064e-09  1.58872843e-07  1.35806459e-08  1.08000000e+00 
 1.09000000e+00  4.58607286e-01  3.59069763e-09  3.22691264e-09  4.58607285e-01  3.25679313e-09  3.09344110e-09  3.40252058e-09  1.58872798e-07  1.35806175e-08  1.09000000e+00 
 1.10000000e+00  4.58607306e-01  3.59069769e-09  3.22691265e-09  4.58607306e-01  3.25679313e-09  3.09344110e-09  3.40252058e-09  1.58872845e-07  1.35804967e-08  1.10000000e+00 
