 v-sweep         v(b0)           v(b1)           v(b2)           v(b3)           v(b4)           v(b5)           v(b6)           i(vbias)        i(viout)        v(vout)        
 0.00000000e+00  3.38855843e-09  4.59122345e-01  4.59122345e-01  4.59122345e-01  4.59122345e-01  3.30001934e-09  3.31824235e-09  1.59710849e-07  4.57138174e-08  0.00000000e+00 
 1.00000000e-02  3.38855841e-09  4.59122348e-01  4.59122348e-01  4.59122348e-01  4.59122348e-01  3.30001932e-09  3.31824233e-09  1.59710866e-07  4.57133861e-08  1.00000000e-02 
 2.00000000e-02  3.38855847e-09  4.59122345e-01  4.59122345e-01  4.59122345e-01  4.59122345e-01  3.30001932e-09  3.31824238e-09  1.59710858e-07  4.57130018e-08  2.00000000e-02 
 3.00000000e-02  3.38855841e-09  4.59122364e-01  4.59122364e-01  4.59122364e-01  4.59122364e-01  3.30001932e-09  3.31824233e-09  1.59710874e-07  4.57125908e-08  3.00000000e-02 
 4.00000000e-02  3.38855841e-09  4.59122358e-01  4.59122358e-01  4.59122358e-01  4.59122358e-01  3.30001932e-09  3.31824233e-09  1.59710881e-07  4.57123468e-08  4.00000000e-02 
 5.00000000e-02  3.38855847e-09  4.59122370e-01  4.59122370e-01  4.59122370e-01  4.59122370e-01  3.30001932e-09  3.31824233e-09  1.59710880e-07  4.57120271e-08  5.00000000e-02 
 6.00000000e-02  3.38855847e-09  4.59122346e-01  4.59122346e-01  4.59122346e-01  4.59122346e-01  3.30001932e-09  3.31824233e-09  1.59710853e-07  4.57116744e-08  6.00000000e-02 
 7.00000000e-02  3.38855841e-09  4.59122328e-01  4.59122328e-01  4.59122328e-01  4.59122328e-01  3.30001932e-09  3.31824233e-09  1.59710857e-07  4.57113041e-08  7.00000000e-02 
 8.00000000e-02  3.38855841e-09  4.59122341e-01  4.59122341e-01  4.59122341e-01  4.59122341e-01  3.30001932e-09  3.31824233e-09  1.59710853e-07  4.57112623e-08  8.00000000e-02 
 9.00000000e-02  3.38855847e-09  4.59122362e-01  4.59122362e-01  4.59122362e-01  4.59122362e-01  3.30001932e-09  3.31824233e-09  1.59710883e-07  4.57108822e-08  9.00000000e-02 
 1.00000000e-01  3.38855847e-09  4.59122360e-01  4.59122360e-01  4.59122360e-01  4.59122360e-01  3.30001932e-09  3.31824233e-09  1.59710882e-07  4.57105989e-08  1.00000000e-01 
 1.10000000e-01  3.38855841e-09  4.59122352e-01  4.59122352e-01  4.59122352e-01  4.59122352e-01  3.30001932e-09  3.31824233e-09  1.59710868e-07  4.57102667e-08  1.10000000e-01 
 1.20000000e-01  3.38855841e-09  4.59122354e-01  4.59122354e-01  4.59122353e-01  4.59122354e-01  3.30001932e-09  3.31824233e-09  1.59710865e-07  4.57101379e-08  1.20000000e-01 
 1.30000000e-01  3.38855847e-09  4.59122360e-01  4.59122360e-01  4.59122359e-01  4.59122359e-01  3.30001932e-09  3.31824233e-09  1.59710890e-07  4.57098777e-08  1.30000000e-01 
 1.40000000e-01  3.38855841e-09  4.59122339e-01  4.59122339e-01  4.59122338e-01  4.59122338e-01  3.30001932e-09  3.31824238e-09  1.59710851e-07  4.57095961e-08  1.40000000e-01 
 1.50000000e-01  3.38855847e-09  4.59122349e-01  4.59122349e-01  4.59122348e-01  4.59122349e-01  3.30001932e-09  3.31824239e-09  1.59710861e-07  4.57094878e-08  1.50000000e-01 
 1.60000000e-01  3.38855841e-09  4.59122366e-01  4.59122366e-01  4.59122366e-01  4.59122366e-01  3.30001932e-09  3.31824233e-09  1.59710897e-07  4.57092550e-08  1.60000000e-01 
 1.70000000e-01  3.38855841e-09  4.59122371e-01  4.59122371e-01  4.59122371e-01  4.59122371e-01  3.30001932e-09  3.31824233e-09  1.59710901e-07  4.57091218e-08  1.70000000e-01 
 1.80000000e-01  3.38855847e-09  4.59122337e-01  4.59122337e-01  4.59122337e-01  4.59122337e-01  3.30001932e-09  3.31824233e-09  1.59710849e-07  4.57088518e-08  1.80000000e-01 
 1.90000000e-01  3.38855841e-09  4.59122328e-01  4.59122328e-01  4.59122328e-01  4.59122328e-01  3.30001932e-09  3.31824233e-09  1.59710833e-07  4.57086404e-08  1.90000000e-01 
 2.00000000e-01  3.38855841e-09  4.59122352e-01  4.59122352e-01  4.59122352e-01  4.59122352e-01  3.30001932e-09  3.31824233e-09  1.59710868e-07  4.57085552e-08  2.00000000e-01 
 2.10000000e-01  3.38855847e-09  4.59122346e-01  4.59122346e-01  4.59122346e-01  4.59122346e-01  3.30001932e-09  3.31824233e-09  1.59710861e-07  4.57084166e-08  2.10000000e-01 
 2.20000000e-01  3.38855841e-09  4.59122334e-01  4.59122334e-01  4.59122334e-01  4.59122334e-01  3.30001932e-09  3.31824233e-09  1.59710835e-07  4.57081750e-08  2.20000000e-01 
 2.30000000e-01  3.38855847e-09  4.59122375e-01  4.59122375e-01  4.59122375e-01  4.59122375e-01  3.30001932e-09  3.31824233e-09  1.59710924e-07  4.57081057e-08  2.30000000e-01 
 2.40000000e-01  3.38855841e-09  4.59122341e-01  4.59122341e-01  4.59122341e-01  4.59122341e-01  3.30001932e-09  3.31824233e-09  1.59710843e-07  4.57080205e-08  2.40000000e-01 
 2.50000000e-01  3.38855841e-09  4.59122346e-01  4.59122346e-01  4.59122346e-01  4.59122346e-01  3.30001932e-09  3.31824239e-09  1.59710854e-07  4.57077700e-08  2.50000000e-01 
 2.60000000e-01  3.38855841e-09  4.59122335e-01  4.59122335e-01  4.59122334e-01  4.59122335e-01  3.30001932e-09  3.31824233e-09  1.59710855e-07  4.57076759e-08  2.60000000e-01 
 2.70000000e-01  3.38855847e-09  4.59122356e-01  4.59122356e-01  4.59122356e-01  4.59122356e-01  3.30001932e-09  3.31824233e-09  1.59710876e-07  4.57076155e-08  2.70000000e-01 
 2.80000000e-01  3.38855841e-09  4.59122358e-01  4.59122358e-01  4.59122358e-01  4.59122358e-01  3.30001932e-09  3.31824233e-09  1.59710885e-07  4.57074734e-08  2.80000000e-01 
 2.90000000e-01  3.38855847e-09  4.59122355e-01  4.59122355e-01  4.59122355e-01  4.59122355e-01  3.30001932e-09  3.31824233e-09  1.59710863e-07  4.57073988e-08  2.90000000e-01 
 3.00000000e-01  3.38855847e-09  4.59122338e-01  4.59122338e-01  4.59122338e-01  4.59122338e-01  3.30001932e-09  3.31824233e-09  1.59710852e-07  4.57073170e-08  3.00000000e-01 
 3.10000000e-01  3.38855841e-09  4.59122351e-01  4.59122351e-01  4.59122351e-01  4.59122351e-01  3.30001932e-09  3.31824233e-09  1.59710864e-07  4.57071536e-08  3.10000000e-01 
 3.20000000e-01  3.38855841e-09  4.59122351e-01  4.59122351e-01  4.59122351e-01  4.59122351e-01  3.30001932e-09  3.31824233e-09  1.59710869e-07  4.57070612e-08  3.20000000e-01 
 3.30000000e-01  3.38855841e-09  4.59122368e-01  4.59122368e-01  4.59122368e-01  4.59122368e-01  3.30001932e-09  3.31824233e-09  1.59710892e-07  4.57069262e-08  3.30000000e-01 
 3.40000000e-01  3.38855847e-09  4.59122342e-01  4.59122342e-01  4.59122342e-01  4.59122342e-01  3.30001932e-09  3.31824233e-09  1.59710843e-07  4.57068552e-08  3.40000000e-01 
 3.50000000e-01  3.38855847e-09  4.59122338e-01  4.59122338e-01  4.59122338e-01  4.59122338e-01  3.30001932e-09  3.31824233e-09  1.59710854e-07  4.57068303e-08  3.50000000e-01 
 3.60000000e-01  3.38855847e-09  4.59122368e-01  4.59122368e-01  4.59122368e-01  4.59122368e-01  3.30001932e-09  3.31824233e-09  1.59710897e-07  4.57068019e-08  3.60000000e-01 
 3.70000000e-01  3.38855847e-09  4.59122330e-01  4.59122330e-01  4.59122330e-01  4.59122330e-01  3.30001932e-09  3.31824233e-09  1.59710833e-07  4.57065852e-08  3.70000000e-01 
 3.80000000e-01  3.38855847e-09  4.59122362e-01  4.59122362e-01  4.59122362e-01  4.59122362e-01  3.30001932e-09  3.31824233e-09  1.59710886e-07  4.57065461e-08  3.80000000e-01 
 3.90000000e-01  3.38855847e-09  4.59122339e-01  4.59122339e-01  4.59122339e-01  4.59122339e-01  3.30001932e-09  3.31824233e-09  1.59710854e-07  4.57065710e-08  3.90000000e-01 
 4.00000000e-01  3.38855841e-09  4.59122340e-01  4.59122340e-01  4.59122340e-01  4.59122340e-01  3.30001932e-09  3.31824233e-09  1.59710837e-07  4.57062939e-08  4.00000000e-01 
 4.10000000e-01  3.38855847e-09  4.59122343e-01  4.59122343e-01  4.59122343e-01  4.59122343e-01  3.30001932e-09  3.31824233e-09  1.59710846e-07  4.57062868e-08  4.10000000e-01 
 4.20000000e-01  3.38855841e-09  4.59122349e-01  4.59122349e-01  4.59122348e-01  4.59122348e-01  3.30001932e-09  3.31824233e-09  1.59710863e-07  4.57060771e-08  4.20000000e-01 
 4.30000000e-01  3.38855841e-09  4.59122349e-01  4.59122349e-01  4.59122349e-01  4.59122349e-01  3.30001932e-09  3.31824233e-09  1.59710846e-07  4.57061589e-08  4.30000000e-01 
 4.40000000e-01  3.38855841e-09  4.59122341e-01  4.59122341e-01  4.59122341e-01  4.59122341e-01  3.30001932e-09  3.31824233e-09  1.59710854e-07  4.57060736e-08  4.40000000e-01 
 4.50000000e-01  3.38855847e-09  4.59122351e-01  4.59122351e-01  4.59122351e-01  4.59122351e-01  3.30001932e-09  3.31824239e-09  1.59710865e-07  4.57060239e-08  4.50000000e-01 
 4.60000000e-01  3.38855841e-09  4.59122342e-01  4.59122342e-01  4.59122341e-01  4.59122342e-01  3.30001932e-09  3.31824233e-09  1.59710862e-07  4.57059528e-08  4.60000000e-01 
 4.70000000e-01  3.38855847e-09  4.59122350e-01  4.59122350e-01  4.59122350e-01  4.59122350e-01  3.30001932e-09  3.31824239e-09  1.59710865e-07  4.57058249e-08  4.70000000e-01 
 4.80000000e-01  3.38855841e-09  4.59122339e-01  4.59122339e-01  4.59122339e-01  4.59122339e-01  3.30001932e-09  3.31824238e-09  1.59710851e-07  4.57057894e-08  4.80000000e-01 
 4.90000000e-01  3.38855841e-09  4.59122361e-01  4.59122361e-01  4.59122361e-01  4.59122361e-01  3.30001932e-09  3.31824233e-09  1.59710894e-07  4.57058569e-08  4.90000000e-01 
 5.00000000e-01  3.38855841e-09  4.59122348e-01  4.59122348e-01  4.59122348e-01  4.59122348e-01  3.30001932e-09  3.31824233e-09  1.59710859e-07  4.57057894e-08  5.00000000e-01 
 5.10000000e-01  3.38855841e-09  4.59122355e-01  4.59122355e-01  4.59122355e-01  4.59122355e-01  3.30001926e-09  3.31824233e-09  1.59710871e-07  4.57056366e-08  5.10000000e-01 
 5.20000000e-01  3.38855847e-09  4.59122345e-01  4.59122345e-01  4.59122345e-01  4.59122345e-01  3.30001927e-09  3.31824233e-09  1.59710855e-07  4.57055727e-08  5.20000000e-01 
 5.30000000e-01  3.38855841e-09  4.59122358e-01  4.59122358e-01  4.59122357e-01  4.59122358e-01  3.30001933e-09  3.31824233e-09  1.59710880e-07  4.57054590e-08  5.30000000e-01 
 5.40000000e-01  3.38855847e-09  4.59122329e-01  4.59122329e-01  4.59122329e-01  4.59122329e-01  3.30001931e-09  3.31824233e-09  1.59710827e-07  4.57053062e-08  5.40000000e-01 
 5.50000000e-01  3.38855841e-09  4.59122365e-01  4.59122365e-01  4.59122365e-01  4.59122365e-01  3.30001932e-09  3.31824233e-09  1.59710878e-07  4.57053630e-08  5.50000000e-01 
 5.60000000e-01  3.38855841e-09  4.59122366e-01  4.59122366e-01  4.59122366e-01  4.59122366e-01  3.30001932e-09  3.31824239e-09  1.59710881e-07  4.57052600e-08  5.60000000e-01 
 5.70000000e-01  3.38855847e-09  4.59122357e-01  4.59122357e-01  4.59122357e-01  4.59122357e-01  3.30001932e-09  3.31824233e-09  1.59710877e-07  4.57053027e-08  5.70000000e-01 
 5.80000000e-01  3.38855847e-09  4.59122350e-01  4.59122350e-01  4.59122350e-01  4.59122350e-01  3.30001932e-09  3.31824233e-09  1.59710868e-07  4.57051570e-08  5.80000000e-01 
 5.90000000e-01  3.38855841e-09  4.59122353e-01  4.59122353e-01  4.59122353e-01  4.59122353e-01  3.30001932e-09  3.31824233e-09  1.59710880e-07  4.57051996e-08  5.90000000e-01 
 6.00000000e-01  3.38855841e-09  4.59122356e-01  4.59122356e-01  4.59122356e-01  4.59122356e-01  3.30001932e-09  3.31824233e-09  1.59710884e-07  4.57051570e-08  6.00000000e-01 
 6.10000000e-01  3.38855841e-09  4.59122343e-01  4.59122343e-01  4.59122343e-01  4.59122343e-01  3.30001932e-09  3.31824233e-09  1.59710846e-07  4.57050646e-08  6.10000000e-01 
 6.20000000e-01  3.38855847e-09  4.59122351e-01  4.59122351e-01  4.59122351e-01  4.59122351e-01  3.30001932e-09  3.31824233e-09  1.59710876e-07  4.57050433e-08  6.20000000e-01 
 6.30000000e-01  3.38855847e-09  4.59122352e-01  4.59122352e-01  4.59122352e-01  4.59122352e-01  3.30001932e-09  3.31824233e-09  1.59710867e-07  4.57049865e-08  6.30000000e-01 
 6.40000000e-01  3.38855841e-09  4.59122345e-01  4.59122345e-01  4.59122345e-01  4.59122345e-01  3.30001932e-09  3.31824238e-09  1.59710864e-07  4.57048372e-08  6.40000000e-01 
 6.50000000e-01  3.38855841e-09  4.59122348e-01  4.59122348e-01  4.59122348e-01  4.59122348e-01  3.30001932e-09  3.31824233e-09  1.59710869e-07  4.57048088e-08  6.50000000e-01 
 6.60000000e-01  3.38855847e-09  4.59122376e-01  4.59122376e-01  4.59122376e-01  4.59122376e-01  3.30001932e-09  3.31824233e-09  1.59710910e-07  4.57047662e-08  6.60000000e-01 
 6.70000000e-01  3.38855847e-09  4.59122359e-01  4.59122359e-01  4.59122359e-01  4.59122359e-01  3.30001932e-09  3.31824239e-09  1.59710877e-07  4.57046951e-08  6.70000000e-01 
 6.80000000e-01  3.38855847e-09  4.59122343e-01  4.59122343e-01  4.59122342e-01  4.59122342e-01  3.30001932e-09  3.31824238e-09  1.59710851e-07  4.57047022e-08  6.80000000e-01 
 6.90000000e-01  3.38855841e-09  4.59122356e-01  4.59122356e-01  4.59122356e-01  4.59122356e-01  3.30001932e-09  3.31824233e-09  1.59710872e-07  4.57046596e-08  6.90000000e-01 
 7.00000000e-01  3.38855841e-09  4.59122340e-01  4.59122340e-01  4.59122340e-01  4.59122340e-01  3.30001932e-09  3.31824233e-09  1.59710845e-07  4.57044820e-08  7.00000000e-01 
 7.10000000e-01  3.38855847e-09  4.59122332e-01  4.59122332e-01  4.59122332e-01  4.59122332e-01  3.30001932e-09  3.31824233e-09  1.59710842e-07  4.57043683e-08  7.10000000e-01 
 7.20000000e-01  3.38855847e-09  4.59122347e-01  4.59122347e-01  4.59122347e-01  4.59122347e-01  3.30001932e-09  3.31824233e-09  1.59710862e-07  4.57043896e-08  7.20000000e-01 
 7.30000000e-01  3.38855841e-09  4.59122358e-01  4.59122358e-01  4.59122358e-01  4.59122358e-01  3.30001932e-09  3.31824233e-09  1.59710873e-07  4.57043399e-08  7.30000000e-01 
 7.40000000e-01  3.38855841e-09  4.59122355e-01  4.59122355e-01  4.59122354e-01  4.59122354e-01  3.30001932e-09  3.31824239e-09  1.59710871e-07  4.57042404e-08  7.40000000e-01 
 7.50000000e-01  3.38855841e-09  4.59122358e-01  4.59122358e-01  4.59122358e-01  4.59122358e-01  3.30001932e-09  3.31824233e-09  1.59710885e-07  4.57042404e-08  7.50000000e-01 
 7.60000000e-01  3.38855847e-09  4.59122330e-01  4.59122330e-01  4.59122330e-01  4.59122330e-01  3.30001932e-09  3.31824233e-09  1.59710830e-07  4.57041409e-08  7.60000000e-01 
 7.70000000e-01  3.38855847e-09  4.59122345e-01  4.59122345e-01  4.59122345e-01  4.59122345e-01  3.30001932e-09  3.31824238e-09  1.59710856e-07  4.57040983e-08  7.70000000e-01 
 7.80000000e-01  3.38855841e-09  4.59122366e-01  4.59122366e-01  4.59122366e-01  4.59122366e-01  3.30001932e-09  3.31824233e-09  1.59710890e-07  4.57041054e-08  7.80000000e-01 
 7.90000000e-01  3.38855841e-09  4.59122343e-01  4.59122343e-01  4.59122343e-01  4.59122343e-01  3.30001932e-09  3.31824233e-09  1.59710864e-07  4.57039917e-08  7.90000000e-01 
 8.00000000e-01  3.38855841e-09  4.59122359e-01  4.59122359e-01  4.59122359e-01  4.59122359e-01  3.30001932e-09  3.31824233e-09  1.59710871e-07  4.57038567e-08  8.00000000e-01 
 8.10000000e-01  3.38855847e-09  4.59122328e-01  4.59122328e-01  4.59122328e-01  4.59122328e-01  3.30001932e-09  3.31824238e-09  1.59710839e-07  4.57037714e-08  8.10000000e-01 
 8.20000000e-01  3.38855841e-09  4.59122350e-01  4.59122350e-01  4.59122350e-01  4.59122350e-01  3.30001932e-09  3.31824233e-09  1.59710857e-07  4.57039206e-08  8.20000000e-01 
 8.30000000e-01  3.38855847e-09  4.59122356e-01  4.59122356e-01  4.59122356e-01  4.59122356e-01  3.30001932e-09  3.31824233e-09  1.59710883e-07  4.57036933e-08  8.30000000e-01 
 8.40000000e-01  3.38855841e-09  4.59122349e-01  4.59122349e-01  4.59122349e-01  4.59122349e-01  3.30001932e-09  3.31824233e-09  1.59710869e-07  4.57036720e-08  8.40000000e-01 
 8.50000000e-01  3.38855847e-09  4.59122331e-01  4.59122331e-01  4.59122331e-01  4.59122331e-01  3.30001932e-09  3.31824233e-09  1.59710839e-07  4.57036151e-08  8.50000000e-01 
 8.60000000e-01  3.38855841e-09  4.59122345e-01  4.59122345e-01  4.59122345e-01  4.59122345e-01  3.30001932e-09  3.31824233e-09  1.59710864e-07  4.57035370e-08  8.60000000e-01 
 8.70000000e-01  3.38855847e-09  4.59122339e-01  4.59122339e-01  4.59122339e-01  4.59122339e-01  3.30001932e-09  3.31824233e-09  1.59710834e-07  4.57035583e-08  8.70000000e-01 
 8.80000000e-01  3.38855841e-09  4.59122340e-01  4.59122340e-01  4.59122340e-01  4.59122340e-01  3.30001932e-09  3.31824233e-09  1.59710862e-07  4.57033877e-08  8.80000000e-01 
 8.90000000e-01  3.38855847e-09  4.59122353e-01  4.59122353e-01  4.59122353e-01  4.59122353e-01  3.30001932e-09  3.31824233e-09  1.59710862e-07  4.57033522e-08  8.90000000e-01 
 9.00000000e-01  3.38855841e-09  4.59122350e-01  4.59122350e-01  4.59122350e-01  4.59122350e-01  3.30001932e-09  3.31824233e-09  1.59710868e-07  4.57034233e-08  9.00000000e-01 
 9.10000000e-01  3.38855847e-09  4.59122342e-01  4.59122342e-01  4.59122342e-01  4.59122342e-01  3.30001932e-09  3.31824238e-09  1.59710858e-07  4.57031746e-08  9.10000000e-01 
 9.20000000e-01  3.38855841e-09  4.59122343e-01  4.59122343e-01  4.59122343e-01  4.59122343e-01  3.30001932e-09  3.31824238e-09  1.59710863e-07  4.57031746e-08  9.20000000e-01 
 9.30000000e-01  3.38855847e-09  4.59122352e-01  4.59122352e-01  4.59122352e-01  4.59122352e-01  3.30001932e-09  3.31824233e-09  1.59710873e-07  4.57031462e-08  9.30000000e-01 
 9.40000000e-01  3.38855847e-09  4.59122337e-01  4.59122337e-01  4.59122337e-01  4.59122337e-01  3.30001932e-09  3.31824233e-09  1.59710832e-07  4.57030751e-08  9.40000000e-01 
 9.50000000e-01  3.38855841e-09  4.59122341e-01  4.59122341e-01  4.59122341e-01  4.59122341e-01  3.30001932e-09  3.31824238e-09  1.59710859e-07  4.57029969e-08  9.50000000e-01 
 9.60000000e-01  3.38855847e-09  4.59122365e-01  4.59122365e-01  4.59122364e-01  4.59122364e-01  3.30001932e-09  3.31824233e-09  1.59710890e-07  4.57028335e-08  9.60000000e-01 
 9.70000000e-01  3.38855847e-09  4.59122345e-01  4.59122345e-01  4.59122345e-01  4.59122345e-01  3.30001932e-09  3.31824233e-09  1.59710854e-07  4.57028975e-08  9.70000000e-01 
 9.80000000e-01  3.38855847e-09  4.59122364e-01  4.59122364e-01  4.59122364e-01  4.59122364e-01  3.30001932e-09  3.31824233e-09  1.59710889e-07  4.57028051e-08  9.80000000e-01 
 9.90000000e-01  3.38855841e-09  4.59122359e-01  4.59122359e-01  4.59122359e-01  4.59122359e-01  3.30001932e-09  3.31824233e-09  1.59710883e-07  4.57027980e-08  9.90000000e-01 
 1.00000000e+00  3.38855841e-09  4.59122337e-01  4.59122337e-01  4.59122337e-01  4.59122337e-01  3.30001932e-09  3.31824233e-09  1.59710848e-07  4.57026985e-08  1.00000000e+00 
 1.01000000e+00  3.38855841e-09  4.59122345e-01  4.59122345e-01  4.59122345e-01  4.59122345e-01  3.30001932e-09  3.31824233e-09  1.59710873e-07  4.57026488e-08  1.01000000e+00 
 1.02000000e+00  3.38855841e-09  4.59122350e-01  4.59122350e-01  4.59122350e-01  4.59122350e-01  3.30001932e-09  3.31824233e-09  1.59710869e-07  4.57026204e-08  1.02000000e+00 
 1.03000000e+00  3.38855841e-09  4.59122350e-01  4.59122350e-01  4.59122349e-01  4.59122350e-01  3.30001932e-09  3.31824239e-09  1.59710868e-07  4.57025209e-08  1.03000000e+00 
 1.04000000e+00  3.38855841e-09  4.59122346e-01  4.59122346e-01  4.59122346e-01  4.59122346e-01  3.30001932e-09  3.31824233e-09  1.59710861e-07  4.57023717e-08  1.04000000e+00 
 1.05000000e+00  3.38855841e-09  4.59122324e-01  4.59122324e-01  4.59122324e-01  4.59122324e-01  3.30001932e-09  3.31824238e-09  1.59710826e-07  4.57022651e-08  1.05000000e+00 
 1.06000000e+00  3.38855841e-09  4.59122346e-01  4.59122346e-01  4.59122346e-01  4.59122346e-01  3.30001932e-09  3.31824233e-09  1.59710855e-07  4.57022722e-08  1.06000000e+00 
 1.07000000e+00  3.38855847e-09  4.59122357e-01  4.59122357e-01  4.59122357e-01  4.59122357e-01  3.30001932e-09  3.31824233e-09  1.59710870e-07  4.57022225e-08  1.07000000e+00 
 1.08000000e+00  3.38855847e-09  4.59122355e-01  4.59122355e-01  4.59122355e-01  4.59122355e-01  3.30001932e-09  3.31824233e-09  1.59710866e-07  4.57022296e-08  1.08000000e+00 
 1.09000000e+00  3.38855841e-09  4.59122343e-01  4.59122343e-01  4.59122343e-01  4.59122343e-01  3.30001932e-09  3.31824238e-09  1.59710865e-07  4.57021585e-08  1.09000000e+00 
 1.10000000e+00  3.38855847e-09  4.59122344e-01  4.59122344e-01  4.59122344e-01  4.59122344e-01  3.30001932e-09  3.31824233e-09  1.59710863e-07  4.57021656e-08  1.10000000e+00 
