 v-sweep         v(b0)           v(b1)           v(b2)           v(b3)           v(b4)           v(b5)           v(b6)           i(vbias)        i(viout)        v(vout)        
 0.00000000e+00  3.33582387e-09  4.57855470e-01  4.57855470e-01  3.24031121e-09  4.57855470e-01  4.57855470e-01  4.57855470e-01  1.57769196e-07  1.82189588e-07  0.00000000e+00 
 1.00000000e-02  3.33582386e-09  4.57855479e-01  4.57855479e-01  3.24031119e-09  4.57855479e-01  4.57855479e-01  4.57855479e-01  1.57769204e-07  1.82188975e-07  1.00000000e-02 
 2.00000000e-02  3.33582386e-09  4.57855469e-01  4.57855469e-01  3.24031114e-09  4.57855469e-01  4.57855469e-01  4.57855469e-01  1.57769191e-07  1.82188504e-07  2.00000000e-02 
 3.00000000e-02  3.33582386e-09  4.57855474e-01  4.57855474e-01  3.24031121e-09  4.57855474e-01  4.57855474e-01  4.57855474e-01  1.57769208e-07  1.82188121e-07  3.00000000e-02 
 4.00000000e-02  3.33582386e-09  4.57855465e-01  4.57855465e-01  3.24031119e-09  4.57855465e-01  4.57855465e-01  4.57855465e-01  1.57769175e-07  1.82187677e-07  4.00000000e-02 
 5.00000000e-02  3.33582386e-09  4.57855497e-01  4.57855497e-01  3.24031119e-09  4.57855497e-01  4.57855497e-01  4.57855497e-01  1.57769234e-07  1.82187316e-07  5.00000000e-02 
 6.00000000e-02  3.33582386e-09  4.57855453e-01  4.57855453e-01  3.24031119e-09  4.57855453e-01  4.57855453e-01  4.57855453e-01  1.57769175e-07  1.82186822e-07  6.00000000e-02 
 7.00000000e-02  3.33582386e-09  4.57855483e-01  4.57855483e-01  3.24031114e-09  4.57855483e-01  4.57855483e-01  4.57855483e-01  1.57769205e-07  1.82186705e-07  7.00000000e-02 
 8.00000000e-02  3.33582386e-09  4.57855473e-01  4.57855473e-01  3.24031115e-09  4.57855473e-01  4.57855473e-01  4.57855473e-01  1.57769191e-07  1.82186155e-07  8.00000000e-02 
 9.00000000e-02  3.33582386e-09  4.57855482e-01  4.57855482e-01  3.24031114e-09  4.57855482e-01  4.57855482e-01  4.57855482e-01  1.57769203e-07  1.82185922e-07  9.00000000e-02 
 1.00000000e-01  3.33582386e-09  4.57855455e-01  4.57855455e-01  3.24031120e-09  4.57855455e-01  4.57855455e-01  4.57855455e-01  1.57769157e-07  1.82185441e-07  1.00000000e-01 
 1.10000000e-01  3.33582386e-09  4.57855469e-01  4.57855469e-01  3.24031119e-09  4.57855469e-01  4.57855469e-01  4.57855469e-01  1.57769185e-07  1.82185061e-07  1.10000000e-01 
 1.20000000e-01  3.33582386e-09  4.57855491e-01  4.57855491e-01  3.24031119e-09  4.57855491e-01  4.57855491e-01  4.57855491e-01  1.57769220e-07  1.82184873e-07  1.20000000e-01 
 1.30000000e-01  3.33582386e-09  4.57855474e-01  4.57855474e-01  3.24031114e-09  4.57855474e-01  4.57855474e-01  4.57855474e-01  1.57769197e-07  1.82184512e-07  1.30000000e-01 
 1.40000000e-01  3.33582386e-09  4.57855459e-01  4.57855459e-01  3.24031120e-09  4.57855459e-01  4.57855459e-01  4.57855459e-01  1.57769182e-07  1.82184285e-07  1.40000000e-01 
 1.50000000e-01  3.33582386e-09  4.57855465e-01  4.57855465e-01  3.24031119e-09  4.57855465e-01  4.57855465e-01  4.57855465e-01  1.57769174e-07  1.82184014e-07  1.50000000e-01 
 1.60000000e-01  3.33582386e-09  4.57855478e-01  4.57855478e-01  3.24031114e-09  4.57855478e-01  4.57855478e-01  4.57855478e-01  1.57769193e-07  1.82183785e-07  1.60000000e-01 
 1.70000000e-01  3.33582386e-09  4.57855446e-01  4.57855446e-01  3.24031120e-09  4.57855446e-01  4.57855446e-01  4.57855446e-01  1.57769149e-07  1.82183369e-07  1.70000000e-01 
 1.80000000e-01  3.33582386e-09  4.57855461e-01  4.57855461e-01  3.24031119e-09  4.57855461e-01  4.57855461e-01  4.57855461e-01  1.57769163e-07  1.82183129e-07  1.80000000e-01 
 1.90000000e-01  3.33582386e-09  4.57855472e-01  4.57855472e-01  3.24031119e-09  4.57855472e-01  4.57855472e-01  4.57855472e-01  1.57769176e-07  1.82182980e-07  1.90000000e-01 
 2.00000000e-01  3.33582386e-09  4.57855464e-01  4.57855464e-01  3.24031114e-09  4.57855464e-01  4.57855464e-01  4.57855464e-01  1.57769186e-07  1.82182704e-07  2.00000000e-01 
 2.10000000e-01  3.33582386e-09  4.57855471e-01  4.57855471e-01  3.24031115e-09  4.57855471e-01  4.57855471e-01  4.57855471e-01  1.57769180e-07  1.82182522e-07  2.10000000e-01 
 2.20000000e-01  3.33582386e-09  4.57855466e-01  4.57855466e-01  3.24031120e-09  4.57855466e-01  4.57855466e-01  4.57855466e-01  1.57769178e-07  1.82182267e-07  2.20000000e-01 
 2.30000000e-01  3.33582386e-09  4.57855488e-01  4.57855488e-01  3.24031113e-09  4.57855488e-01  4.57855488e-01  4.57855488e-01  1.57769213e-07  1.82182129e-07  2.30000000e-01 
 2.40000000e-01  3.33582386e-09  4.57855455e-01  4.57855455e-01  3.24031120e-09  4.57855455e-01  4.57855455e-01  4.57855455e-01  1.57769163e-07  1.82181893e-07  2.40000000e-01 
 2.50000000e-01  3.33582386e-09  4.57855463e-01  4.57855463e-01  3.24031119e-09  4.57855463e-01  4.57855463e-01  4.57855463e-01  1.57769172e-07  1.82181664e-07  2.50000000e-01 
 2.60000000e-01  3.33582386e-09  4.57855460e-01  4.57855460e-01  3.24031114e-09  4.57855460e-01  4.57855460e-01  4.57855460e-01  1.57769182e-07  1.82181514e-07  2.60000000e-01 
 2.70000000e-01  3.33582386e-09  4.57855493e-01  4.57855493e-01  3.24031115e-09  4.57855493e-01  4.57855493e-01  4.57855493e-01  1.57769224e-07  1.82181333e-07  2.70000000e-01 
 2.80000000e-01  3.33582386e-09  4.57855465e-01  4.57855465e-01  3.24031114e-09  4.57855465e-01  4.57855465e-01  4.57855465e-01  1.57769185e-07  1.82180955e-07  2.80000000e-01 
 2.90000000e-01  3.33582386e-09  4.57855474e-01  4.57855474e-01  3.24031120e-09  4.57855474e-01  4.57855474e-01  4.57855474e-01  1.57769195e-07  1.82180838e-07  2.90000000e-01 
 3.00000000e-01  3.33582386e-09  4.57855455e-01  4.57855455e-01  3.24031119e-09  4.57855455e-01  4.57855455e-01  4.57855455e-01  1.57769161e-07  1.82180688e-07  3.00000000e-01 
 3.10000000e-01  3.33582386e-09  4.57855459e-01  4.57855459e-01  3.24031119e-09  4.57855459e-01  4.57855459e-01  4.57855459e-01  1.57769172e-07  1.82180344e-07  3.10000000e-01 
 3.20000000e-01  3.33582386e-09  4.57855487e-01  4.57855487e-01  3.24031119e-09  4.57855487e-01  4.57855487e-01  4.57855487e-01  1.57769222e-07  1.82180390e-07  3.20000000e-01 
 3.30000000e-01  3.33582386e-09  4.57855476e-01  4.57855476e-01  3.24031119e-09  4.57855476e-01  4.57855476e-01  4.57855476e-01  1.57769206e-07  1.82180315e-07  3.30000000e-01 
 3.40000000e-01  3.33582386e-09  4.57855468e-01  4.57855468e-01  3.24031114e-09  4.57855468e-01  4.57855468e-01  4.57855468e-01  1.57769196e-07  1.82179992e-07  3.40000000e-01 
 3.50000000e-01  3.33582386e-09  4.57855486e-01  4.57855486e-01  3.24031121e-09  4.57855486e-01  4.57855486e-01  4.57855486e-01  1.57769206e-07  1.82179978e-07  3.50000000e-01 
 3.60000000e-01  3.33582386e-09  4.57855450e-01  4.57855450e-01  3.24031119e-09  4.57855450e-01  4.57855450e-01  4.57855450e-01  1.57769156e-07  1.82179615e-07  3.60000000e-01 
 3.70000000e-01  3.33582386e-09  4.57855451e-01  4.57855451e-01  3.24031119e-09  4.57855451e-01  4.57855451e-01  4.57855451e-01  1.57769166e-07  1.82179495e-07  3.70000000e-01 
 3.80000000e-01  3.33582385e-09  4.57855435e-01  4.57855435e-01  3.24031113e-09  4.57855435e-01  4.57855435e-01  4.57855435e-01  1.57769143e-07  1.82179200e-07  3.80000000e-01 
 3.90000000e-01  3.33582386e-09  4.57855488e-01  4.57855488e-01  3.24031121e-09  4.57855488e-01  4.57855488e-01  4.57855488e-01  1.57769201e-07  1.82179381e-07  3.90000000e-01 
 4.00000000e-01  3.33582386e-09  4.57855463e-01  4.57855463e-01  3.24031119e-09  4.57855463e-01  4.57855463e-01  4.57855463e-01  1.57769192e-07  1.82179086e-07  4.00000000e-01 
 4.10000000e-01  3.33582386e-09  4.57855457e-01  4.57855457e-01  3.24031119e-09  4.57855457e-01  4.57855457e-01  4.57855457e-01  1.57769175e-07  1.82178955e-07  4.10000000e-01 
 4.20000000e-01  3.33582386e-09  4.57855477e-01  4.57855477e-01  3.24031119e-09  4.57855477e-01  4.57855477e-01  4.57855477e-01  1.57769196e-07  1.82178805e-07  4.20000000e-01 
 4.30000000e-01  3.33582386e-09  4.57855454e-01  4.57855454e-01  3.24031119e-09  4.57855454e-01  4.57855454e-01  4.57855454e-01  1.57769160e-07  1.82178528e-07  4.30000000e-01 
 4.40000000e-01  3.33582386e-09  4.57855473e-01  4.57855473e-01  3.24031119e-09  4.57855473e-01  4.57855473e-01  4.57855473e-01  1.57769185e-07  1.82178461e-07  4.40000000e-01 
 4.50000000e-01  3.33582386e-09  4.57855475e-01  4.57855475e-01  3.24031119e-09  4.57855475e-01  4.57855475e-01  4.57855475e-01  1.57769209e-07  1.82178379e-07  4.50000000e-01 
 4.60000000e-01  3.33582386e-09  4.57855452e-01  4.57855452e-01  3.24031119e-09  4.57855452e-01  4.57855452e-01  4.57855452e-01  1.57769162e-07  1.82178063e-07  4.60000000e-01 
 4.70000000e-01  3.33582386e-09  4.57855457e-01  4.57855457e-01  3.24031119e-09  4.57855457e-01  4.57855457e-01  4.57855457e-01  1.57769169e-07  1.82178031e-07  4.70000000e-01 
 4.80000000e-01  3.33582386e-09  4.57855483e-01  4.57855483e-01  3.24031114e-09  4.57855483e-01  4.57855483e-01  4.57855483e-01  1.57769208e-07  1.82177921e-07  4.80000000e-01 
 4.90000000e-01  3.33582386e-09  4.57855446e-01  4.57855446e-01  3.24031115e-09  4.57855446e-01  4.57855446e-01  4.57855446e-01  1.57769166e-07  1.82177622e-07  4.90000000e-01 
 5.00000000e-01  3.33582386e-09  4.57855468e-01  4.57855468e-01  3.24031120e-09  4.57855468e-01  4.57855468e-01  4.57855468e-01  1.57769186e-07  1.82177626e-07  5.00000000e-01 
 5.10000000e-01  3.33582386e-09  4.57855466e-01  4.57855466e-01  3.24031119e-09  4.57855466e-01  4.57855466e-01  4.57855466e-01  1.57769178e-07  1.82177406e-07  5.10000000e-01 
 5.20000000e-01  3.33582386e-09  4.57855487e-01  4.57855487e-01  3.24031119e-09  4.57855487e-01  4.57855487e-01  4.57855487e-01  1.57769216e-07  1.82177391e-07  5.20000000e-01 
 5.30000000e-01  3.33582386e-09  4.57855480e-01  4.57855480e-01  3.24031119e-09  4.57855480e-01  4.57855480e-01  4.57855480e-01  1.57769208e-07  1.82177352e-07  5.30000000e-01 
 5.40000000e-01  3.33582386e-09  4.57855462e-01  4.57855462e-01  3.24031119e-09  4.57855462e-01  4.57855462e-01  4.57855462e-01  1.57769190e-07  1.82177150e-07  5.40000000e-01 
 5.50000000e-01  3.33582386e-09  4.57855485e-01  4.57855485e-01  3.24031114e-09  4.57855485e-01  4.57855485e-01  4.57855485e-01  1.57769207e-07  1.82176894e-07  5.50000000e-01 
 5.60000000e-01  3.33582386e-09  4.57855459e-01  4.57855459e-01  3.24031120e-09  4.57855459e-01  4.57855459e-01  4.57855459e-01  1.57769158e-07  1.82176798e-07  5.60000000e-01 
 5.70000000e-01  3.33582386e-09  4.57855458e-01  4.57855458e-01  3.24031119e-09  4.57855458e-01  4.57855458e-01  4.57855458e-01  1.57769168e-07  1.82176738e-07  5.70000000e-01 
 5.80000000e-01  3.33582386e-09  4.57855486e-01  4.57855486e-01  3.24031114e-09  4.57855486e-01  4.57855486e-01  4.57855486e-01  1.57769205e-07  1.82176571e-07  5.80000000e-01 
 5.90000000e-01  3.33582386e-09  4.57855456e-01  4.57855456e-01  3.24031120e-09  4.57855456e-01  4.57855456e-01  4.57855456e-01  1.57769168e-07  1.82176237e-07  5.90000000e-01 
 6.00000000e-01  3.33582386e-09  4.57855450e-01  4.57855450e-01  3.24031119e-09  4.57855450e-01  4.57855450e-01  4.57855450e-01  1.57769144e-07  1.82176123e-07  6.00000000e-01 
 6.10000000e-01  3.33582386e-09  4.57855482e-01  4.57855482e-01  3.24031114e-09  4.57855482e-01  4.57855482e-01  4.57855482e-01  1.57769195e-07  1.82176109e-07  6.10000000e-01 
 6.20000000e-01  3.33582386e-09  4.57855449e-01  4.57855449e-01  3.24031115e-09  4.57855449e-01  4.57855449e-01  4.57855449e-01  1.57769161e-07  1.82175846e-07  6.20000000e-01 
 6.30000000e-01  3.33582386e-09  4.57855464e-01  4.57855464e-01  3.24031114e-09  4.57855464e-01  4.57855464e-01  4.57855464e-01  1.57769171e-07  1.82175761e-07  6.30000000e-01 
 6.40000000e-01  3.33582386e-09  4.57855479e-01  4.57855479e-01  3.24031120e-09  4.57855479e-01  4.57855479e-01  4.57855479e-01  1.57769200e-07  1.82175746e-07  6.40000000e-01 
 6.50000000e-01  3.33582386e-09  4.57855469e-01  4.57855469e-01  3.24031113e-09  4.57855469e-01  4.57855469e-01  4.57855469e-01  1.57769198e-07  1.82175540e-07  6.50000000e-01 
 6.60000000e-01  3.33582386e-09  4.57855477e-01  4.57855477e-01  3.24031121e-09  4.57855477e-01  4.57855477e-01  4.57855477e-01  1.57769204e-07  1.82175299e-07  6.60000000e-01 
 6.70000000e-01  3.33582386e-09  4.57855463e-01  4.57855463e-01  3.24031119e-09  4.57855463e-01  4.57855463e-01  4.57855463e-01  1.57769176e-07  1.82175228e-07  6.70000000e-01 
 6.80000000e-01  3.33582386e-09  4.57855462e-01  4.57855462e-01  3.24031119e-09  4.57855462e-01  4.57855462e-01  4.57855462e-01  1.57769173e-07  1.82175100e-07  6.80000000e-01 
 6.90000000e-01  3.33582386e-09  4.57855457e-01  4.57855457e-01  3.24031119e-09  4.57855457e-01  4.57855457e-01  4.57855457e-01  1.57769176e-07  1.82174873e-07  6.90000000e-01 
 7.00000000e-01  3.33582386e-09  4.57855447e-01  4.57855447e-01  3.24031113e-09  4.57855447e-01  4.57855447e-01  4.57855447e-01  1.57769157e-07  1.82174709e-07  7.00000000e-01 
 7.10000000e-01  3.33582386e-09  4.57855468e-01  4.57855468e-01  3.24031115e-09  4.57855468e-01  4.57855468e-01  4.57855468e-01  1.57769178e-07  1.82174581e-07  7.10000000e-01 
 7.20000000e-01  3.33582386e-09  4.57855477e-01  4.57855477e-01  3.24031114e-09  4.57855477e-01  4.57855477e-01  4.57855477e-01  1.57769190e-07  1.82174595e-07  7.20000000e-01 
 7.30000000e-01  3.33582385e-09  4.57855436e-01  4.57855436e-01  3.24031114e-09  4.57855436e-01  4.57855436e-01  4.57855436e-01  1.57769129e-07  1.82174169e-07  7.30000000e-01 
 7.40000000e-01  3.33582386e-09  4.57855462e-01  4.57855462e-01  3.24031120e-09  4.57855462e-01  4.57855462e-01  4.57855462e-01  1.57769188e-07  1.82174134e-07  7.40000000e-01 
 7.50000000e-01  3.33582386e-09  4.57855473e-01  4.57855473e-01  3.24031119e-09  4.57855473e-01  4.57855473e-01  4.57855473e-01  1.57769191e-07  1.82174041e-07  7.50000000e-01 
 7.60000000e-01  3.33582386e-09  4.57855492e-01  4.57855492e-01  3.24031114e-09  4.57855492e-01  4.57855492e-01  4.57855492e-01  1.57769221e-07  1.82174055e-07  7.60000000e-01 
 7.70000000e-01  3.33582386e-09  4.57855454e-01  4.57855454e-01  3.24031120e-09  4.57855454e-01  4.57855454e-01  4.57855454e-01  1.57769164e-07  1.82173650e-07  7.70000000e-01 
 7.80000000e-01  3.33582386e-09  4.57855464e-01  4.57855464e-01  3.24031119e-09  4.57855464e-01  4.57855464e-01  4.57855464e-01  1.57769165e-07  1.82173494e-07  7.80000000e-01 
 7.90000000e-01  3.33582386e-09  4.57855470e-01  4.57855470e-01  3.24031114e-09  4.57855470e-01  4.57855470e-01  4.57855470e-01  1.57769181e-07  1.82173437e-07  7.90000000e-01 
 8.00000000e-01  3.33582386e-09  4.57855476e-01  4.57855476e-01  3.24031121e-09  4.57855476e-01  4.57855476e-01  4.57855476e-01  1.57769191e-07  1.82173181e-07  8.00000000e-01 
 8.10000000e-01  3.33582386e-09  4.57855467e-01  4.57855467e-01  3.24031119e-09  4.57855467e-01  4.57855467e-01  4.57855467e-01  1.57769175e-07  1.82173096e-07  8.10000000e-01 
 8.20000000e-01  3.33582386e-09  4.57855480e-01  4.57855480e-01  3.24031114e-09  4.57855480e-01  4.57855480e-01  4.57855480e-01  1.57769204e-07  1.82173125e-07  8.20000000e-01 
 8.30000000e-01  3.33582386e-09  4.57855477e-01  4.57855477e-01  3.24031121e-09  4.57855477e-01  4.57855477e-01  4.57855477e-01  1.57769190e-07  1.82172862e-07  8.30000000e-01 
 8.40000000e-01  3.33582386e-09  4.57855472e-01  4.57855472e-01  3.24031119e-09  4.57855472e-01  4.57855472e-01  4.57855472e-01  1.57769195e-07  1.82172649e-07  8.40000000e-01 
 8.50000000e-01  3.33582386e-09  4.57855468e-01  4.57855468e-01  3.24031119e-09  4.57855468e-01  4.57855468e-01  4.57855468e-01  1.57769191e-07  1.82172492e-07  8.50000000e-01 
 8.60000000e-01  3.33582386e-09  4.57855482e-01  4.57855482e-01  3.24031119e-09  4.57855482e-01  4.57855482e-01  4.57855482e-01  1.57769216e-07  1.82172336e-07  8.60000000e-01 
 8.70000000e-01  3.33582386e-09  4.57855481e-01  4.57855481e-01  3.24031114e-09  4.57855481e-01  4.57855481e-01  4.57855481e-01  1.57769205e-07  1.82172336e-07  8.70000000e-01 
 8.80000000e-01  3.33582386e-09  4.57855482e-01  4.57855482e-01  3.24031115e-09  4.57855482e-01  4.57855482e-01  4.57855482e-01  1.57769208e-07  1.82172037e-07  8.80000000e-01 
 8.90000000e-01  3.33582386e-09  4.57855482e-01  4.57855482e-01  3.24031120e-09  4.57855482e-01  4.57855482e-01  4.57855482e-01  1.57769201e-07  1.82171945e-07  8.90000000e-01 
 9.00000000e-01  3.33582386e-09  4.57855469e-01  4.57855469e-01  3.24031119e-09  4.57855469e-01  4.57855469e-01  4.57855469e-01  1.57769178e-07  1.82171703e-07  9.00000000e-01 
 9.10000000e-01  3.33582386e-09  4.57855467e-01  4.57855467e-01  3.24031119e-09  4.57855467e-01  4.57855467e-01  4.57855467e-01  1.57769177e-07  1.82171561e-07  9.10000000e-01 
 9.20000000e-01  3.33582386e-09  4.57855467e-01  4.57855467e-01  3.24031119e-09  4.57855467e-01  4.57855467e-01  4.57855467e-01  1.57769193e-07  1.82171405e-07  9.20000000e-01 
 9.30000000e-01  3.33582386e-09  4.57855458e-01  4.57855458e-01  3.24031114e-09  4.57855458e-01  4.57855458e-01  4.57855458e-01  1.57769168e-07  1.82171171e-07  9.30000000e-01 
 9.40000000e-01  3.33582386e-09  4.57855492e-01  4.57855492e-01  3.24031121e-09  4.57855492e-01  4.57855492e-01  4.57855492e-01  1.57769209e-07  1.82171078e-07  9.40000000e-01 
 9.50000000e-01  3.33582386e-09  4.57855443e-01  4.57855443e-01  3.24031119e-09  4.57855443e-01  4.57855443e-01  4.57855443e-01  1.57769152e-07  1.82170815e-07  9.50000000e-01 
 9.60000000e-01  3.33582386e-09  4.57855457e-01  4.57855457e-01  3.24031119e-09  4.57855457e-01  4.57855457e-01  4.57855457e-01  1.57769163e-07  1.82170645e-07  9.60000000e-01 
 9.70000000e-01  3.33582386e-09  4.57855458e-01  4.57855458e-01  3.24031119e-09  4.57855458e-01  4.57855458e-01  4.57855458e-01  1.57769159e-07  1.82170481e-07  9.70000000e-01 
 9.80000000e-01  3.33582386e-09  4.57855480e-01  4.57855480e-01  3.24031119e-09  4.57855480e-01  4.57855480e-01  4.57855480e-01  1.57769197e-07  1.82170353e-07  9.80000000e-01 
 9.90000000e-01  3.33582386e-09  4.57855458e-01  4.57855458e-01  3.24031119e-09  4.57855458e-01  4.57855458e-01  4.57855458e-01  1.57769170e-07  1.82170112e-07  9.90000000e-01 
 1.00000000e+00  3.33582386e-09  4.57855475e-01  4.57855475e-01  3.24031114e-09  4.57855475e-01  4.57855475e-01  4.57855475e-01  1.57769205e-07  1.82169977e-07  1.00000000e+00 
 1.01000000e+00  3.33582386e-09  4.57855466e-01  4.57855466e-01  3.24031120e-09  4.57855466e-01  4.57855466e-01  4.57855466e-01  1.57769187e-07  1.82169778e-07  1.01000000e+00 
 1.02000000e+00  3.33582391e-09  4.57855449e-01  4.57855449e-01  3.24031119e-09  4.57855449e-01  4.57855449e-01  4.57855449e-01  1.57769155e-07  1.82169565e-07  1.02000000e+00 
 1.03000000e+00  3.33582386e-09  4.57855459e-01  4.57855459e-01  3.24031119e-09  4.57855459e-01  4.57855459e-01  4.57855459e-01  1.57769157e-07  1.82169380e-07  1.03000000e+00 
 1.04000000e+00  3.33582386e-09  4.57855462e-01  4.57855462e-01  3.24031119e-09  4.57855462e-01  4.57855462e-01  4.57855462e-01  1.57769171e-07  1.82169202e-07  1.04000000e+00 
 1.05000000e+00  3.33582386e-09  4.57855457e-01  4.57855457e-01  3.24031119e-09  4.57855457e-01  4.57855457e-01  4.57855457e-01  1.57769168e-07  1.82169011e-07  1.05000000e+00 
 1.06000000e+00  3.33582386e-09  4.57855478e-01  4.57855478e-01  3.24031119e-09  4.57855478e-01  4.57855478e-01  4.57855478e-01  1.57769199e-07  1.82168918e-07  1.06000000e+00 
 1.07000000e+00  3.33582386e-09  4.57855481e-01  4.57855481e-01  3.24031119e-09  4.57855481e-01  4.57855481e-01  4.57855481e-01  1.57769200e-07  1.82168705e-07  1.07000000e+00 
 1.08000000e+00  3.33582386e-09  4.57855455e-01  4.57855455e-01  3.24031119e-09  4.57855455e-01  4.57855455e-01  4.57855455e-01  1.57769159e-07  1.82168435e-07  1.08000000e+00 
 1.09000000e+00  3.33582386e-09  4.57855473e-01  4.57855473e-01  3.24031119e-09  4.57855473e-01  4.57855473e-01  4.57855473e-01  1.57769181e-07  1.82168399e-07  1.09000000e+00 
 1.10000000e+00  3.33582386e-09  4.57855476e-01  4.57855476e-01  3.24031119e-09  4.57855476e-01  4.57855476e-01  4.57855476e-01  1.57769198e-07  1.82168179e-07  1.10000000e+00 
