 v-sweep         v(b0)           v(b1)           v(b2)           v(b3)           v(b4)           v(b5)           v(b6)           i(vbias)        i(viout)        v(vout)        
 0.00000000e+00  4.56151383e-01  3.48513149e-09  4.56151383e-01  3.32916197e-09  3.23226504e-09  4.56151382e-01  4.56151383e-01  1.54508687e-07  1.44163740e-07  0.00000000e+00 
 1.00000000e-02  4.56151391e-01  3.48513153e-09  4.56151391e-01  3.32916201e-09  3.23226502e-09  4.56151391e-01  4.56151391e-01  1.54508686e-07  1.44163578e-07  1.00000000e-02 
 2.00000000e-02  4.56151366e-01  3.48513153e-09  4.56151366e-01  3.32916200e-09  3.23226502e-09  4.56151366e-01  4.56151366e-01  1.54508648e-07  1.44163047e-07  2.00000000e-02 
 3.00000000e-02  4.56151389e-01  3.48513148e-09  4.56151389e-01  3.32916195e-09  3.23226502e-09  4.56151389e-01  4.56151389e-01  1.54508710e-07  1.44162585e-07  3.00000000e-02 
 4.00000000e-02  4.56151364e-01  3.48513147e-09  4.56151364e-01  3.32916201e-09  3.23226502e-09  4.56151364e-01  4.56151364e-01  1.54508653e-07  1.44162144e-07  4.00000000e-02 
 5.00000000e-02  4.56151385e-01  3.48513148e-09  4.56151385e-01  3.32916194e-09  3.23226502e-09  4.56151385e-01  4.56151385e-01  1.54508701e-07  1.44161905e-07  5.00000000e-02 
 6.00000000e-02  4.56151384e-01  3.48513153e-09  4.56151384e-01  3.32916196e-09  3.23226502e-09  4.56151383e-01  4.56151384e-01  1.54508688e-07  1.44161566e-07  6.00000000e-02 
 7.00000000e-02  4.56151383e-01  3.48513148e-09  4.56151383e-01  3.32916195e-09  3.23226502e-09  4.56151383e-01  4.56151383e-01  1.54508679e-07  1.44161217e-07  7.00000000e-02 
 8.00000000e-02  4.56151387e-01  3.48513153e-09  4.56151387e-01  3.32916201e-09  3.23226502e-09  4.56151387e-01  4.56151387e-01  1.54508681e-07  1.44160916e-07  8.00000000e-02 
 9.00000000e-02  4.56151347e-01  3.48513147e-09  4.56151347e-01  3.32916200e-09  3.23226501e-09  4.56151347e-01  4.56151347e-01  1.54508628e-07  1.44160405e-07  9.00000000e-02 
 1.00000000e-01  4.56151387e-01  3.48513153e-09  4.56151387e-01  3.32916200e-09  3.23226507e-09  4.56151387e-01  4.56151387e-01  1.54508689e-07  1.44160343e-07  1.00000000e-01 
 1.10000000e-01  4.56151370e-01  3.48513147e-09  4.56151370e-01  3.32916195e-09  3.23226502e-09  4.56151370e-01  4.56151370e-01  1.54508665e-07  1.44159968e-07  1.10000000e-01 
 1.20000000e-01  4.56151377e-01  3.48513147e-09  4.56151377e-01  3.32916196e-09  3.23226502e-09  4.56151377e-01  4.56151377e-01  1.54508665e-07  1.44159714e-07  1.20000000e-01 
 1.30000000e-01  4.56151374e-01  3.48513153e-09  4.56151374e-01  3.32916195e-09  3.23226502e-09  4.56151374e-01  4.56151374e-01  1.54508664e-07  1.44159514e-07  1.30000000e-01 
 1.40000000e-01  4.56151375e-01  3.48513147e-09  4.56151375e-01  3.32916201e-09  3.23226502e-09  4.56151375e-01  4.56151375e-01  1.54508673e-07  1.44159189e-07  1.40000000e-01 
 1.50000000e-01  4.56151369e-01  3.48513147e-09  4.56151369e-01  3.32916200e-09  3.23226502e-09  4.56151369e-01  4.56151369e-01  1.54508645e-07  1.44159028e-07  1.50000000e-01 
 1.60000000e-01  4.56151363e-01  3.48513153e-09  4.56151363e-01  3.32916200e-09  3.23226502e-09  4.56151363e-01  4.56151363e-01  1.54508640e-07  1.44158751e-07  1.60000000e-01 
 1.70000000e-01  4.56151376e-01  3.48513147e-09  4.56151376e-01  3.32916200e-09  3.23226502e-09  4.56151376e-01  4.56151376e-01  1.54508666e-07  1.44158603e-07  1.70000000e-01 
 1.80000000e-01  4.56151375e-01  3.48513147e-09  4.56151375e-01  3.32916200e-09  3.23226502e-09  4.56151375e-01  4.56151375e-01  1.54508666e-07  1.44158433e-07  1.80000000e-01 
 1.90000000e-01  4.56151386e-01  3.48513153e-09  4.56151386e-01  3.32916195e-09  3.23226502e-09  4.56151386e-01  4.56151386e-01  1.54508683e-07  1.44158211e-07  1.90000000e-01 
 2.00000000e-01  4.56151379e-01  3.48513147e-09  4.56151379e-01  3.32916196e-09  3.23226502e-09  4.56151379e-01  4.56151379e-01  1.54508671e-07  1.44157910e-07  2.00000000e-01 
 2.10000000e-01  4.56151381e-01  3.48513153e-09  4.56151381e-01  3.32916195e-09  3.23226502e-09  4.56151381e-01  4.56151381e-01  1.54508686e-07  1.44157770e-07  2.10000000e-01 
 2.20000000e-01  4.56151385e-01  3.48513153e-09  4.56151385e-01  3.32916201e-09  3.23226502e-09  4.56151384e-01  4.56151385e-01  1.54508680e-07  1.44157640e-07  2.20000000e-01 
 2.30000000e-01  4.56151350e-01  3.48513147e-09  4.56151350e-01  3.32916200e-09  3.23226501e-09  4.56151349e-01  4.56151350e-01  1.54508632e-07  1.44157330e-07  2.30000000e-01 
 2.40000000e-01  4.56151347e-01  3.48513147e-09  4.56151347e-01  3.32916200e-09  3.23226501e-09  4.56151347e-01  4.56151347e-01  1.54508631e-07  1.44157122e-07  2.40000000e-01 
 2.50000000e-01  4.56151382e-01  3.48513148e-09  4.56151382e-01  3.32916200e-09  3.23226502e-09  4.56151382e-01  4.56151382e-01  1.54508690e-07  1.44157042e-07  2.50000000e-01 
 2.60000000e-01  4.56151372e-01  3.48513147e-09  4.56151372e-01  3.32916195e-09  3.23226502e-09  4.56151372e-01  4.56151372e-01  1.54508666e-07  1.44156942e-07  2.60000000e-01 
 2.70000000e-01  4.56151357e-01  3.48513147e-09  4.56151357e-01  3.32916196e-09  3.23226501e-09  4.56151357e-01  4.56151357e-01  1.54508632e-07  1.44156662e-07  2.70000000e-01 
 2.80000000e-01  4.56151371e-01  3.48513147e-09  4.56151371e-01  3.32916195e-09  3.23226502e-09  4.56151371e-01  4.56151371e-01  1.54508675e-07  1.44156683e-07  2.80000000e-01 
 2.90000000e-01  4.56151382e-01  3.48513148e-09  4.56151382e-01  3.32916195e-09  3.23226502e-09  4.56151382e-01  4.56151382e-01  1.54508676e-07  1.44156459e-07  2.90000000e-01 
 3.00000000e-01  4.56151375e-01  3.48513147e-09  4.56151375e-01  3.32916201e-09  3.23226502e-09  4.56151375e-01  4.56151375e-01  1.54508664e-07  1.44156278e-07  3.00000000e-01 
 3.10000000e-01  4.56151383e-01  3.48513153e-09  4.56151383e-01  3.32916200e-09  3.23226502e-09  4.56151383e-01  4.56151383e-01  1.54508675e-07  1.44156232e-07  3.10000000e-01 
 3.20000000e-01  4.56151377e-01  3.48513147e-09  4.56151377e-01  3.32916195e-09  3.23226502e-09  4.56151376e-01  4.56151377e-01  1.54508666e-07  1.44156036e-07  3.20000000e-01 
 3.30000000e-01  4.56151400e-01  3.48513148e-09  4.56151400e-01  3.32916202e-09  3.23226502e-09  4.56151399e-01  4.56151400e-01  1.54508703e-07  1.44155944e-07  3.30000000e-01 
 3.40000000e-01  4.56151356e-01  3.48513153e-09  4.56151356e-01  3.32916194e-09  3.23226501e-09  4.56151356e-01  4.56151356e-01  1.54508664e-07  1.44155617e-07  3.40000000e-01 
 3.50000000e-01  4.56151394e-01  3.48513148e-09  4.56151394e-01  3.32916196e-09  3.23226502e-09  4.56151394e-01  4.56151394e-01  1.54508701e-07  1.44155724e-07  3.50000000e-01 
 3.60000000e-01  4.56151389e-01  3.48513148e-09  4.56151389e-01  3.32916201e-09  3.23226502e-09  4.56151388e-01  4.56151389e-01  1.54508706e-07  1.44155461e-07  3.60000000e-01 
 3.70000000e-01  4.56151359e-01  3.48513153e-09  4.56151359e-01  3.32916194e-09  3.23226501e-09  4.56151359e-01  4.56151359e-01  1.54508643e-07  1.44155376e-07  3.70000000e-01 
 3.80000000e-01  4.56151399e-01  3.48513148e-09  4.56151399e-01  3.32916196e-09  3.23226502e-09  4.56151399e-01  4.56151399e-01  1.54508713e-07  1.44155329e-07  3.80000000e-01 
 3.90000000e-01  4.56151397e-01  3.48513148e-09  4.56151397e-01  3.32916195e-09  3.23226502e-09  4.56151396e-01  4.56151397e-01  1.54508710e-07  1.44155322e-07  3.90000000e-01 
 4.00000000e-01  4.56151378e-01  3.48513153e-09  4.56151378e-01  3.32916201e-09  3.23226502e-09  4.56151378e-01  4.56151378e-01  1.54508678e-07  1.44155027e-07  4.00000000e-01 
 4.10000000e-01  4.56151390e-01  3.48513153e-09  4.56151390e-01  3.32916194e-09  3.23226502e-09  4.56151390e-01  4.56151390e-01  1.54508705e-07  1.44154921e-07  4.10000000e-01 
 4.20000000e-01  4.56151368e-01  3.48513147e-09  4.56151368e-01  3.32916196e-09  3.23226502e-09  4.56151368e-01  4.56151368e-01  1.54508657e-07  1.44154708e-07  4.20000000e-01 
 4.30000000e-01  4.56151367e-01  3.48513147e-09  4.56151367e-01  3.32916195e-09  3.23226502e-09  4.56151367e-01  4.56151367e-01  1.54508672e-07  1.44154711e-07  4.30000000e-01 
 4.40000000e-01  4.56151387e-01  3.48513153e-09  4.56151387e-01  3.32916195e-09  3.23226502e-09  4.56151387e-01  4.56151387e-01  1.54508680e-07  1.44154736e-07  4.40000000e-01 
 4.50000000e-01  4.56151368e-01  3.48513147e-09  4.56151368e-01  3.32916201e-09  3.23226502e-09  4.56151368e-01  4.56151368e-01  1.54508646e-07  1.44154498e-07  4.50000000e-01 
 4.60000000e-01  4.56151394e-01  3.48513148e-09  4.56151394e-01  3.32916200e-09  3.23226502e-09  4.56151393e-01  4.56151394e-01  1.54508694e-07  1.44154413e-07  4.60000000e-01 
 4.70000000e-01  4.56151393e-01  3.48513148e-09  4.56151393e-01  3.32916200e-09  3.23226502e-09  4.56151393e-01  4.56151393e-01  1.54508713e-07  1.44154352e-07  4.70000000e-01 
 4.80000000e-01  4.56151389e-01  3.48513153e-09  4.56151389e-01  3.32916200e-09  3.23226502e-09  4.56151389e-01  4.56151389e-01  1.54508685e-07  1.44154253e-07  4.80000000e-01 
 4.90000000e-01  4.56151362e-01  3.48513147e-09  4.56151362e-01  3.32916200e-09  3.23226502e-09  4.56151362e-01  4.56151362e-01  1.54508644e-07  1.44154111e-07  4.90000000e-01 
 5.00000000e-01  4.56151389e-01  3.48513148e-09  4.56151389e-01  3.32916200e-09  3.23226502e-09  4.56151389e-01  4.56151389e-01  1.54508689e-07  1.44154100e-07  5.00000000e-01 
 5.10000000e-01  4.56151373e-01  3.48513147e-09  4.56151373e-01  3.32916200e-09  3.23226502e-09  4.56151373e-01  4.56151373e-01  1.54508665e-07  1.44153859e-07  5.10000000e-01 
 5.20000000e-01  4.56151373e-01  3.48513147e-09  4.56151373e-01  3.32916200e-09  3.23226502e-09  4.56151373e-01  4.56151373e-01  1.54508667e-07  1.44153741e-07  5.20000000e-01 
 5.30000000e-01  4.56151359e-01  3.48513147e-09  4.56151359e-01  3.32916200e-09  3.23226501e-09  4.56151359e-01  4.56151359e-01  1.54508645e-07  1.44153713e-07  5.30000000e-01 
 5.40000000e-01  4.56151373e-01  3.48513153e-09  4.56151373e-01  3.32916200e-09  3.23226502e-09  4.56151373e-01  4.56151373e-01  1.54508667e-07  1.44153621e-07  5.40000000e-01 
 5.50000000e-01  4.56151358e-01  3.48513147e-09  4.56151358e-01  3.32916194e-09  3.23226501e-09  4.56151358e-01  4.56151358e-01  1.54508637e-07  1.44153464e-07  5.50000000e-01 
 5.60000000e-01  4.56151396e-01  3.48513148e-09  4.56151396e-01  3.32916196e-09  3.23226502e-09  4.56151396e-01  4.56151396e-01  1.54508723e-07  1.44153567e-07  5.60000000e-01 
 5.70000000e-01  4.56151365e-01  3.48513147e-09  4.56151365e-01  3.32916201e-09  3.23226502e-09  4.56151365e-01  4.56151365e-01  1.54508659e-07  1.44153272e-07  5.70000000e-01 
 5.80000000e-01  4.56151378e-01  3.48513153e-09  4.56151378e-01  3.32916200e-09  3.23226502e-09  4.56151378e-01  4.56151378e-01  1.54508673e-07  1.44153248e-07  5.80000000e-01 
 5.90000000e-01  4.56151364e-01  3.48513147e-09  4.56151364e-01  3.32916200e-09  3.23226502e-09  4.56151364e-01  4.56151364e-01  1.54508639e-07  1.44153006e-07  5.90000000e-01 
 6.00000000e-01  4.56151382e-01  3.48513153e-09  4.56151382e-01  3.32916200e-09  3.23226502e-09  4.56151382e-01  4.56151382e-01  1.54508689e-07  1.44153042e-07  6.00000000e-01 
 6.10000000e-01  4.56151376e-01  3.48513153e-09  4.56151376e-01  3.32916200e-09  3.23226502e-09  4.56151375e-01  4.56151376e-01  1.54508666e-07  1.44152828e-07  6.10000000e-01 
 6.20000000e-01  4.56151387e-01  3.48513148e-09  4.56151387e-01  3.32916195e-09  3.23226502e-09  4.56151387e-01  4.56151387e-01  1.54508683e-07  1.44152779e-07  6.20000000e-01 
 6.30000000e-01  4.56151390e-01  3.48513153e-09  4.56151390e-01  3.32916202e-09  3.23226502e-09  4.56151390e-01  4.56151390e-01  1.54508681e-07  1.44152828e-07  6.30000000e-01 
 6.40000000e-01  4.56151376e-01  3.48513147e-09  4.56151376e-01  3.32916200e-09  3.23226502e-09  4.56151375e-01  4.56151376e-01  1.54508660e-07  1.44152565e-07  6.40000000e-01 
 6.50000000e-01  4.56151394e-01  3.48513153e-09  4.56151394e-01  3.32916200e-09  3.23226502e-09  4.56151394e-01  4.56151394e-01  1.54508698e-07  1.44152530e-07  6.50000000e-01 
 6.60000000e-01  4.56151380e-01  3.48513147e-09  4.56151380e-01  3.32916200e-09  3.23226502e-09  4.56151380e-01  4.56151380e-01  1.54508683e-07  1.44152388e-07  6.60000000e-01 
 6.70000000e-01  4.56151389e-01  3.48513148e-09  4.56151389e-01  3.32916195e-09  3.23226502e-09  4.56151389e-01  4.56151389e-01  1.54508682e-07  1.44152239e-07  6.70000000e-01 
 6.80000000e-01  4.56151374e-01  3.48513147e-09  4.56151374e-01  3.32916196e-09  3.23226502e-09  4.56151374e-01  4.56151374e-01  1.54508665e-07  1.44152125e-07  6.80000000e-01 
 6.90000000e-01  4.56151371e-01  3.48513147e-09  4.56151371e-01  3.32916195e-09  3.23226502e-09  4.56151371e-01  4.56151371e-01  1.54508661e-07  1.44152104e-07  6.90000000e-01 
 7.00000000e-01  4.56151382e-01  3.48513148e-09  4.56151382e-01  3.32916201e-09  3.23226502e-09  4.56151382e-01  4.56151382e-01  1.54508673e-07  1.44151969e-07  7.00000000e-01 
 7.10000000e-01  4.56151389e-01  3.48513148e-09  4.56151389e-01  3.32916200e-09  3.23226502e-09  4.56151389e-01  4.56151389e-01  1.54508694e-07  1.44151805e-07  7.10000000e-01 
 7.20000000e-01  4.56151375e-01  3.48513153e-09  4.56151375e-01  3.32916195e-09  3.23226502e-09  4.56151375e-01  4.56151375e-01  1.54508662e-07  1.44151819e-07  7.20000000e-01 
 7.30000000e-01  4.56151377e-01  3.48513153e-09  4.56151377e-01  3.32916201e-09  3.23226502e-09  4.56151376e-01  4.56151377e-01  1.54508660e-07  1.44151670e-07  7.30000000e-01 
 7.40000000e-01  4.56151378e-01  3.48513147e-09  4.56151378e-01  3.32916194e-09  3.23226502e-09  4.56151378e-01  4.56151378e-01  1.54508676e-07  1.44151592e-07  7.40000000e-01 
 7.50000000e-01  4.56151405e-01  3.48513153e-09  4.56151405e-01  3.32916202e-09  3.23226502e-09  4.56151405e-01  4.56151405e-01  1.54508712e-07  1.44151535e-07  7.50000000e-01 
 7.60000000e-01  4.56151376e-01  3.48513147e-09  4.56151376e-01  3.32916200e-09  3.23226502e-09  4.56151376e-01  4.56151376e-01  1.54508681e-07  1.44151400e-07  7.60000000e-01 
 7.70000000e-01  4.56151362e-01  3.48513153e-09  4.56151362e-01  3.32916200e-09  3.23226502e-09  4.56151362e-01  4.56151362e-01  1.54508650e-07  1.44151350e-07  7.70000000e-01 
 7.80000000e-01  4.56151374e-01  3.48513147e-09  4.56151374e-01  3.32916200e-09  3.23226502e-09  4.56151374e-01  4.56151374e-01  1.54508667e-07  1.44151223e-07  7.80000000e-01 
 7.90000000e-01  4.56151364e-01  3.48513147e-09  4.56151364e-01  3.32916200e-09  3.23226502e-09  4.56151363e-01  4.56151364e-01  1.54508642e-07  1.44150995e-07  7.90000000e-01 
 8.00000000e-01  4.56151370e-01  3.48513147e-09  4.56151370e-01  3.32916200e-09  3.23226502e-09  4.56151370e-01  4.56151370e-01  1.54508672e-07  1.44150818e-07  8.00000000e-01 
 8.10000000e-01  4.56151395e-01  3.48513148e-09  4.56151395e-01  3.32916195e-09  3.23226502e-09  4.56151395e-01  4.56151395e-01  1.54508698e-07  1.44150988e-07  8.10000000e-01 
 8.20000000e-01  4.56151372e-01  3.48513147e-09  4.56151372e-01  3.32916201e-09  3.23226502e-09  4.56151372e-01  4.56151372e-01  1.54508680e-07  1.44150761e-07  8.20000000e-01 
 8.30000000e-01  4.56151367e-01  3.48513153e-09  4.56151367e-01  3.32916194e-09  3.23226502e-09  4.56151367e-01  4.56151367e-01  1.54508662e-07  1.44150675e-07  8.30000000e-01 
 8.40000000e-01  4.56151366e-01  3.48513153e-09  4.56151366e-01  3.32916201e-09  3.23226502e-09  4.56151366e-01  4.56151366e-01  1.54508638e-07  1.44150498e-07  8.40000000e-01 
 8.50000000e-01  4.56151378e-01  3.48513153e-09  4.56151378e-01  3.32916200e-09  3.23226502e-09  4.56151378e-01  4.56151378e-01  1.54508669e-07  1.44150441e-07  8.50000000e-01 
 8.60000000e-01  4.56151371e-01  3.48513147e-09  4.56151371e-01  3.32916200e-09  3.23226502e-09  4.56151371e-01  4.56151371e-01  1.54508667e-07  1.44150320e-07  8.60000000e-01 
 8.70000000e-01  4.56151387e-01  3.48513148e-09  4.56151387e-01  3.32916200e-09  3.23226502e-09  4.56151387e-01  4.56151387e-01  1.54508685e-07  1.44150185e-07  8.70000000e-01 
 8.80000000e-01  4.56151372e-01  3.48513147e-09  4.56151372e-01  3.32916200e-09  3.23226502e-09  4.56151372e-01  4.56151372e-01  1.54508653e-07  1.44150093e-07  8.80000000e-01 
 8.90000000e-01  4.56151362e-01  3.48513147e-09  4.56151362e-01  3.32916200e-09  3.23226502e-09  4.56151362e-01  4.56151362e-01  1.54508647e-07  1.44149929e-07  8.90000000e-01 
 9.00000000e-01  4.56151356e-01  3.48513147e-09  4.56151356e-01  3.32916200e-09  3.23226501e-09  4.56151356e-01  4.56151356e-01  1.54508644e-07  1.44149837e-07  9.00000000e-01 
 9.10000000e-01  4.56151398e-01  3.48513148e-09  4.56151398e-01  3.32916195e-09  3.23226502e-09  4.56151398e-01  4.56151398e-01  1.54508706e-07  1.44149922e-07  9.10000000e-01 
 9.20000000e-01  4.56151373e-01  3.48513153e-09  4.56151373e-01  3.32916201e-09  3.23226502e-09  4.56151373e-01  4.56151373e-01  1.54508665e-07  1.44149581e-07  9.20000000e-01 
 9.30000000e-01  4.56151377e-01  3.48513147e-09  4.56151377e-01  3.32916200e-09  3.23226502e-09  4.56151376e-01  4.56151377e-01  1.54508687e-07  1.44149588e-07  9.30000000e-01 
 9.40000000e-01  4.56151370e-01  3.48513147e-09  4.56151370e-01  3.32916195e-09  3.23226502e-09  4.56151370e-01  4.56151370e-01  1.54508666e-07  1.44149418e-07  9.40000000e-01 
 9.50000000e-01  4.56151374e-01  3.48513147e-09  4.56151374e-01  3.32916201e-09  3.23226502e-09  4.56151374e-01  4.56151374e-01  1.54508652e-07  1.44149297e-07  9.50000000e-01 
 9.60000000e-01  4.56151368e-01  3.48513147e-09  4.56151368e-01  3.32916200e-09  3.23226502e-09  4.56151368e-01  4.56151368e-01  1.54508657e-07  1.44149162e-07  9.60000000e-01 
 9.70000000e-01  4.56151365e-01  3.48513147e-09  4.56151365e-01  3.32916200e-09  3.23226502e-09  4.56151365e-01  4.56151365e-01  1.54508649e-07  1.44149070e-07  9.70000000e-01 
 9.80000000e-01  4.56151352e-01  3.48513153e-09  4.56151352e-01  3.32916200e-09  3.23226501e-09  4.56151352e-01  4.56151352e-01  1.54508637e-07  1.44149006e-07  9.80000000e-01 
 9.90000000e-01  4.56151370e-01  3.48513153e-09  4.56151370e-01  3.32916195e-09  3.23226502e-09  4.56151370e-01  4.56151370e-01  1.54508659e-07  1.44148899e-07  9.90000000e-01 
 1.00000000e+00  4.56151384e-01  3.48513153e-09  4.56151384e-01  3.32916202e-09  3.23226502e-09  4.56151383e-01  4.56151384e-01  1.54508689e-07  1.44148835e-07  1.00000000e+00 
 1.01000000e+00  4.56151386e-01  3.48513153e-09  4.56151386e-01  3.32916200e-09  3.23226502e-09  4.56151386e-01  4.56151386e-01  1.54508683e-07  1.44148672e-07  1.01000000e+00 
 1.02000000e+00  4.56151382e-01  3.48513153e-09  4.56151382e-01  3.32916200e-09  3.23226502e-09  4.56151382e-01  4.56151382e-01  1.54508679e-07  1.44148672e-07  1.02000000e+00 
 1.03000000e+00  4.56151371e-01  3.48513153e-09  4.56151371e-01  3.32916200e-09  3.23226502e-09  4.56151371e-01  4.56151371e-01  1.54508656e-07  1.44148451e-07  1.03000000e+00 
 1.04000000e+00  4.56151403e-01  3.48513153e-09  4.56151403e-01  3.32916200e-09  3.23226502e-09  4.56151403e-01  4.56151403e-01  1.54508697e-07  1.44148352e-07  1.04000000e+00 
 1.05000000e+00  4.56151385e-01  3.48513148e-09  4.56151385e-01  3.32916195e-09  3.23226502e-09  4.56151385e-01  4.56151385e-01  1.54508696e-07  1.44148110e-07  1.05000000e+00 
 1.06000000e+00  4.56151389e-01  3.48513148e-09  4.56151389e-01  3.32916196e-09  3.23226502e-09  4.56151388e-01  4.56151389e-01  1.54508679e-07  1.44148153e-07  1.06000000e+00 
 1.07000000e+00  4.56151382e-01  3.48513153e-09  4.56151382e-01  3.32916201e-09  3.23226502e-09  4.56151382e-01  4.56151382e-01  1.54508670e-07  1.44147883e-07  1.07000000e+00 
 1.08000000e+00  4.56151395e-01  3.48513153e-09  4.56151395e-01  3.32916200e-09  3.23226502e-09  4.56151395e-01  4.56151395e-01  1.54508706e-07  1.44147883e-07  1.08000000e+00 
 1.09000000e+00  4.56151366e-01  3.48513153e-09  4.56151366e-01  3.32916195e-09  3.23226502e-09  4.56151366e-01  4.56151366e-01  1.54508660e-07  1.44147741e-07  1.09000000e+00 
 1.10000000e+00  4.56151370e-01  3.48513147e-09  4.56151370e-01  3.32916196e-09  3.23226502e-09  4.56151370e-01  4.56151370e-01  1.54508681e-07  1.44147478e-07  1.10000000e+00 
