 v-sweep         v(b0)           v(b1)           v(b2)           v(b3)           v(b4)           v(b5)           v(b6)           i(vbias)        i(viout)        v(vout)        
 0.00000000e+00  4.55179063e-01  4.55179063e-01  3.32793349e-09  4.55179063e-01  4.55179063e-01  4.55179063e-01  3.49362874e-09  1.53078701e-07  8.24671313e-08  0.00000000e+00 
 1.00000000e-02  4.55179023e-01  4.55179023e-01  3.32793347e-09  4.55179023e-01  4.55179023e-01  4.55179023e-01  3.49362871e-09  1.53078612e-07  8.24666549e-08  1.00000000e-02 
 2.00000000e-02  4.55179029e-01  4.55179029e-01  3.32793353e-09  4.55179029e-01  4.55179029e-01  4.55179029e-01  3.49362871e-09  1.53078636e-07  8.24662736e-08  2.00000000e-02 
 3.00000000e-02  4.55179035e-01  4.55179035e-01  3.32793353e-09  4.55179035e-01  4.55179035e-01  4.55179035e-01  3.49362871e-09  1.53078639e-07  8.24659219e-08  3.00000000e-02 
 4.00000000e-02  4.55179051e-01  4.55179051e-01  3.32793347e-09  4.55179051e-01  4.55179051e-01  4.55179051e-01  3.49362871e-09  1.53078670e-07  8.24655313e-08  4.00000000e-02 
 5.00000000e-02  4.55179036e-01  4.55179036e-01  3.32793353e-09  4.55179036e-01  4.55179036e-01  4.55179036e-01  3.49362871e-09  1.53078646e-07  8.24652564e-08  5.00000000e-02 
 6.00000000e-02  4.55179075e-01  4.55179075e-01  3.32793353e-09  4.55179075e-01  4.55179075e-01  4.55179075e-01  3.49362872e-09  1.53078693e-07  8.24650330e-08  6.00000000e-02 
 7.00000000e-02  4.55179036e-01  4.55179036e-01  3.32793347e-09  4.55179036e-01  4.55179036e-01  4.55179036e-01  3.49362871e-09  1.53078639e-07  8.24646578e-08  7.00000000e-02 
 8.00000000e-02  4.55179043e-01  4.55179043e-01  3.32793347e-09  4.55179043e-01  4.55179043e-01  4.55179043e-01  3.49362871e-09  1.53078659e-07  8.24644193e-08  8.00000000e-02 
 9.00000000e-02  4.55179079e-01  4.55179079e-01  3.32793347e-09  4.55179079e-01  4.55179079e-01  4.55179079e-01  3.49362872e-09  1.53078694e-07  8.24641360e-08  9.00000000e-02 
 1.00000000e-01  4.55179062e-01  4.55179062e-01  3.32793347e-09  4.55179062e-01  4.55179062e-01  4.55179062e-01  3.49362871e-09  1.53078685e-07  8.24638731e-08  1.00000000e-01 
 1.10000000e-01  4.55179062e-01  4.55179062e-01  3.32793347e-09  4.55179062e-01  4.55179062e-01  4.55179062e-01  3.49362871e-09  1.53078675e-07  8.24635560e-08  1.10000000e-01 
 1.20000000e-01  4.55179072e-01  4.55179072e-01  3.32793347e-09  4.55179072e-01  4.55179072e-01  4.55179072e-01  3.49362866e-09  1.53078678e-07  8.24632655e-08  1.20000000e-01 
 1.30000000e-01  4.55179037e-01  4.55179037e-01  3.32793353e-09  4.55179037e-01  4.55179037e-01  4.55179037e-01  3.49362872e-09  1.53078641e-07  8.24630986e-08  1.30000000e-01 
 1.40000000e-01  4.55179082e-01  4.55179082e-01  3.32793347e-09  4.55179082e-01  4.55179082e-01  4.55179082e-01  3.49362871e-09  1.53078708e-07  8.24629200e-08  1.40000000e-01 
 1.50000000e-01  4.55179064e-01  4.55179064e-01  3.32793347e-09  4.55179064e-01  4.55179064e-01  4.55179064e-01  3.49362866e-09  1.53078672e-07  8.24627744e-08  1.50000000e-01 
 1.60000000e-01  4.55179068e-01  4.55179068e-01  3.32793347e-09  4.55179068e-01  4.55179068e-01  4.55179068e-01  3.49362873e-09  1.53078683e-07  8.24624262e-08  1.60000000e-01 
 1.70000000e-01  4.55179042e-01  4.55179042e-01  3.32793353e-09  4.55179042e-01  4.55179042e-01  4.55179042e-01  3.49362871e-09  1.53078648e-07  8.24622060e-08  1.70000000e-01 
 1.80000000e-01  4.55179048e-01  4.55179048e-01  3.32793347e-09  4.55179048e-01  4.55179048e-01  4.55179048e-01  3.49362871e-09  1.53078665e-07  8.24620408e-08  1.80000000e-01 
 1.90000000e-01  4.55179071e-01  4.55179071e-01  3.32793353e-09  4.55179071e-01  4.55179071e-01  4.55179071e-01  3.49362872e-09  1.53078681e-07  8.24619129e-08  1.90000000e-01 
 2.00000000e-01  4.55179060e-01  4.55179061e-01  3.32793353e-09  4.55179061e-01  4.55179061e-01  4.55179061e-01  3.49362871e-09  1.53078682e-07  8.24617654e-08  2.00000000e-01 
 2.10000000e-01  4.55179068e-01  4.55179068e-01  3.32793347e-09  4.55179068e-01  4.55179068e-01  4.55179068e-01  3.49362871e-09  1.53078678e-07  8.24615487e-08  2.10000000e-01 
 2.20000000e-01  4.55179075e-01  4.55179075e-01  3.32793353e-09  4.55179075e-01  4.55179075e-01  4.55179075e-01  3.49362872e-09  1.53078706e-07  8.24613675e-08  2.20000000e-01 
 2.30000000e-01  4.55179025e-01  4.55179025e-01  3.32793347e-09  4.55179025e-01  4.55179025e-01  4.55179025e-01  3.49362871e-09  1.53078619e-07  8.24610940e-08  2.30000000e-01 
 2.40000000e-01  4.55179074e-01  4.55179074e-01  3.32793347e-09  4.55179074e-01  4.55179074e-01  4.55179074e-01  3.49362872e-09  1.53078698e-07  8.24610673e-08  2.40000000e-01 
 2.50000000e-01  4.55179044e-01  4.55179044e-01  3.32793347e-09  4.55179044e-01  4.55179044e-01  4.55179044e-01  3.49362871e-09  1.53078664e-07  8.24609927e-08  2.50000000e-01 
 2.60000000e-01  4.55179067e-01  4.55179067e-01  3.32793347e-09  4.55179067e-01  4.55179067e-01  4.55179067e-01  3.49362871e-09  1.53078680e-07  8.24609270e-08  2.60000000e-01 
 2.70000000e-01  4.55179051e-01  4.55179051e-01  3.32793353e-09  4.55179051e-01  4.55179051e-01  4.55179051e-01  3.49362871e-09  1.53078664e-07  8.24606854e-08  2.70000000e-01 
 2.80000000e-01  4.55179054e-01  4.55179054e-01  3.32793353e-09  4.55179054e-01  4.55179054e-01  4.55179054e-01  3.49362871e-09  1.53078668e-07  8.24605255e-08  2.80000000e-01 
 2.90000000e-01  4.55179031e-01  4.55179031e-01  3.32793353e-09  4.55179031e-01  4.55179031e-01  4.55179031e-01  3.49362871e-09  1.53078618e-07  8.24604136e-08  2.90000000e-01 
 3.00000000e-01  4.55179070e-01  4.55179070e-01  3.32793347e-09  4.55179070e-01  4.55179070e-01  4.55179070e-01  3.49362872e-09  1.53078692e-07  8.24603639e-08  3.00000000e-01 
 3.10000000e-01  4.55179027e-01  4.55179027e-01  3.32793352e-09  4.55179027e-01  4.55179028e-01  4.55179027e-01  3.49362871e-09  1.53078628e-07  8.24602004e-08  3.10000000e-01 
 3.20000000e-01  4.55179067e-01  4.55179067e-01  3.32793353e-09  4.55179067e-01  4.55179067e-01  4.55179067e-01  3.49362871e-09  1.53078685e-07  8.24601862e-08  3.20000000e-01 
 3.30000000e-01  4.55179048e-01  4.55179048e-01  3.32793353e-09  4.55179048e-01  4.55179048e-01  4.55179048e-01  3.49362871e-09  1.53078668e-07  8.24599766e-08  3.30000000e-01 
 3.40000000e-01  4.55179033e-01  4.55179033e-01  3.32793353e-09  4.55179033e-01  4.55179033e-01  4.55179033e-01  3.49362866e-09  1.53078642e-07  8.24599589e-08  3.40000000e-01 
 3.50000000e-01  4.55179034e-01  4.55179034e-01  3.32793353e-09  4.55179034e-01  4.55179034e-01  4.55179034e-01  3.49362872e-09  1.53078631e-07  8.24596853e-08  3.50000000e-01 
 3.60000000e-01  4.55179069e-01  4.55179069e-01  3.32793353e-09  4.55179069e-01  4.55179069e-01  4.55179069e-01  3.49362871e-09  1.53078689e-07  8.24598985e-08  3.60000000e-01 
 3.70000000e-01  4.55179054e-01  4.55179054e-01  3.32793347e-09  4.55179054e-01  4.55179054e-01  4.55179054e-01  3.49362871e-09  1.53078668e-07  8.24595752e-08  3.70000000e-01 
 3.80000000e-01  4.55179048e-01  4.55179048e-01  3.32793353e-09  4.55179048e-01  4.55179048e-01  4.55179048e-01  3.49362871e-09  1.53078652e-07  8.24595610e-08  3.80000000e-01 
 3.90000000e-01  4.55179064e-01  4.55179064e-01  3.32793347e-09  4.55179064e-01  4.55179064e-01  4.55179064e-01  3.49362871e-09  1.53078684e-07  8.24594402e-08  3.90000000e-01 
 4.00000000e-01  4.55179069e-01  4.55179069e-01  3.32793347e-09  4.55179069e-01  4.55179069e-01  4.55179069e-01  3.49362872e-09  1.53078689e-07  8.24594366e-08  4.00000000e-01 
 4.10000000e-01  4.55179059e-01  4.55179059e-01  3.32793347e-09  4.55179059e-01  4.55179059e-01  4.55179059e-01  3.49362871e-09  1.53078681e-07  8.24592661e-08  4.10000000e-01 
 4.20000000e-01  4.55179035e-01  4.55179035e-01  3.32793353e-09  4.55179035e-01  4.55179035e-01  4.55179035e-01  3.49362871e-09  1.53078642e-07  8.24590671e-08  4.20000000e-01 
 4.30000000e-01  4.55179056e-01  4.55179056e-01  3.32793353e-09  4.55179056e-01  4.55179056e-01  4.55179056e-01  3.49362871e-09  1.53078671e-07  8.24591169e-08  4.30000000e-01 
 4.40000000e-01  4.55179020e-01  4.55179020e-01  3.32793352e-09  4.55179020e-01  4.55179020e-01  4.55179020e-01  3.49362871e-09  1.53078620e-07  8.24590494e-08  4.40000000e-01 
 4.50000000e-01  4.55179030e-01  4.55179030e-01  3.32793353e-09  4.55179030e-01  4.55179030e-01  4.55179030e-01  3.49362871e-09  1.53078630e-07  8.24589357e-08  4.50000000e-01 
 4.60000000e-01  4.55179049e-01  4.55179050e-01  3.32793347e-09  4.55179050e-01  4.55179050e-01  4.55179050e-01  3.49362871e-09  1.53078665e-07  8.24589925e-08  4.60000000e-01 
 4.70000000e-01  4.55179059e-01  4.55179059e-01  3.32793347e-09  4.55179059e-01  4.55179059e-01  4.55179059e-01  3.49362871e-09  1.53078667e-07  8.24588575e-08  4.70000000e-01 
 4.80000000e-01  4.55179039e-01  4.55179039e-01  3.32793353e-09  4.55179039e-01  4.55179039e-01  4.55179039e-01  3.49362871e-09  1.53078651e-07  8.24587332e-08  4.80000000e-01 
 4.90000000e-01  4.55179046e-01  4.55179046e-01  3.32793347e-09  4.55179046e-01  4.55179046e-01  4.55179046e-01  3.49362871e-09  1.53078657e-07  8.24587865e-08  4.90000000e-01 
 5.00000000e-01  4.55179076e-01  4.55179076e-01  3.32793353e-09  4.55179076e-01  4.55179076e-01  4.55179076e-01  3.49362872e-09  1.53078697e-07  8.24585733e-08  5.00000000e-01 
 5.10000000e-01  4.55179051e-01  4.55179051e-01  3.32793347e-09  4.55179051e-01  4.55179051e-01  4.55179051e-01  3.49362871e-09  1.53078659e-07  8.24585236e-08  5.10000000e-01 
 5.20000000e-01  4.55179048e-01  4.55179048e-01  3.32793347e-09  4.55179048e-01  4.55179048e-01  4.55179048e-01  3.49362871e-09  1.53078647e-07  8.24583104e-08  5.20000000e-01 
 5.30000000e-01  4.55179059e-01  4.55179059e-01  3.32793347e-09  4.55179059e-01  4.55179059e-01  4.55179059e-01  3.49362871e-09  1.53078669e-07  8.24582607e-08  5.30000000e-01 
 5.40000000e-01  4.55179066e-01  4.55179066e-01  3.32793353e-09  4.55179066e-01  4.55179066e-01  4.55179066e-01  3.49362871e-09  1.53078672e-07  8.24583601e-08  5.40000000e-01 
 5.50000000e-01  4.55179055e-01  4.55179055e-01  3.32793347e-09  4.55179055e-01  4.55179055e-01  4.55179055e-01  3.49362866e-09  1.53078666e-07  8.24581967e-08  5.50000000e-01 
 5.60000000e-01  4.55179058e-01  4.55179058e-01  3.32793353e-09  4.55179058e-01  4.55179058e-01  4.55179058e-01  3.49362873e-09  1.53078678e-07  8.24580901e-08  5.60000000e-01 
 5.70000000e-01  4.55179042e-01  4.55179042e-01  3.32793353e-09  4.55179042e-01  4.55179042e-01  4.55179042e-01  3.49362871e-09  1.53078642e-07  8.24580049e-08  5.70000000e-01 
 5.80000000e-01  4.55179070e-01  4.55179070e-01  3.32793347e-09  4.55179070e-01  4.55179070e-01  4.55179070e-01  3.49362872e-09  1.53078685e-07  8.24580937e-08  5.80000000e-01 
 5.90000000e-01  4.55179047e-01  4.55179047e-01  3.32793353e-09  4.55179047e-01  4.55179047e-01  4.55179047e-01  3.49362871e-09  1.53078660e-07  8.24579587e-08  5.90000000e-01 
 6.00000000e-01  4.55179039e-01  4.55179040e-01  3.32793347e-09  4.55179040e-01  4.55179040e-01  4.55179039e-01  3.49362871e-09  1.53078644e-07  8.24579445e-08  6.00000000e-01 
 6.10000000e-01  4.55179040e-01  4.55179041e-01  3.32793347e-09  4.55179041e-01  4.55179041e-01  4.55179041e-01  3.49362871e-09  1.53078641e-07  8.24577313e-08  6.10000000e-01 
 6.20000000e-01  4.55179054e-01  4.55179054e-01  3.32793347e-09  4.55179054e-01  4.55179054e-01  4.55179054e-01  3.49362871e-09  1.53078667e-07  8.24578308e-08  6.20000000e-01 
 6.30000000e-01  4.55179041e-01  4.55179041e-01  3.32793353e-09  4.55179041e-01  4.55179041e-01  4.55179041e-01  3.49362871e-09  1.53078631e-07  8.24576745e-08  6.30000000e-01 
 6.40000000e-01  4.55179043e-01  4.55179043e-01  3.32793353e-09  4.55179043e-01  4.55179043e-01  4.55179043e-01  3.49362871e-09  1.53078645e-07  8.24575750e-08  6.40000000e-01 
 6.50000000e-01  4.55179064e-01  4.55179064e-01  3.32793347e-09  4.55179064e-01  4.55179064e-01  4.55179064e-01  3.49362866e-09  1.53078672e-07  8.24575253e-08  6.50000000e-01 
 6.60000000e-01  4.55179047e-01  4.55179047e-01  3.32793347e-09  4.55179047e-01  4.55179047e-01  4.55179047e-01  3.49362873e-09  1.53078667e-07  8.24575324e-08  6.60000000e-01 
 6.70000000e-01  4.55179036e-01  4.55179036e-01  3.32793353e-09  4.55179036e-01  4.55179036e-01  4.55179036e-01  3.49362871e-09  1.53078643e-07  8.24574116e-08  6.70000000e-01 
 6.80000000e-01  4.55179053e-01  4.55179053e-01  3.32793347e-09  4.55179053e-01  4.55179053e-01  4.55179053e-01  3.49362871e-09  1.53078662e-07  8.24573760e-08  6.80000000e-01 
 6.90000000e-01  4.55179071e-01  4.55179071e-01  3.32793353e-09  4.55179071e-01  4.55179071e-01  4.55179071e-01  3.49362872e-09  1.53078691e-07  8.24573476e-08  6.90000000e-01 
 7.00000000e-01  4.55179041e-01  4.55179041e-01  3.32793347e-09  4.55179041e-01  4.55179042e-01  4.55179041e-01  3.49362871e-09  1.53078651e-07  8.24571984e-08  7.00000000e-01 
 7.10000000e-01  4.55179044e-01  4.55179044e-01  3.32793353e-09  4.55179044e-01  4.55179044e-01  4.55179044e-01  3.49362871e-09  1.53078649e-07  8.24571345e-08  7.10000000e-01 
 7.20000000e-01  4.55179040e-01  4.55179040e-01  3.32793347e-09  4.55179040e-01  4.55179040e-01  4.55179040e-01  3.49362871e-09  1.53078640e-07  8.24570634e-08  7.20000000e-01 
 7.30000000e-01  4.55179072e-01  4.55179072e-01  3.32793347e-09  4.55179072e-01  4.55179072e-01  4.55179072e-01  3.49362872e-09  1.53078695e-07  8.24571202e-08  7.30000000e-01 
 7.40000000e-01  4.55179075e-01  4.55179076e-01  3.32793353e-09  4.55179075e-01  4.55179076e-01  4.55179075e-01  3.49362872e-09  1.53078700e-07  8.24570137e-08  7.40000000e-01 
 7.50000000e-01  4.55179045e-01  4.55179045e-01  3.32793347e-09  4.55179045e-01  4.55179045e-01  4.55179045e-01  3.49362871e-09  1.53078646e-07  8.24569071e-08  7.50000000e-01 
 7.60000000e-01  4.55179042e-01  4.55179042e-01  3.32793353e-09  4.55179042e-01  4.55179042e-01  4.55179042e-01  3.49362871e-09  1.53078642e-07  8.24568005e-08  7.60000000e-01 
 7.70000000e-01  4.55179042e-01  4.55179042e-01  3.32793347e-09  4.55179042e-01  4.55179042e-01  4.55179042e-01  3.49362871e-09  1.53078635e-07  8.24567437e-08  7.70000000e-01 
 7.80000000e-01  4.55179067e-01  4.55179067e-01  3.32793353e-09  4.55179067e-01  4.55179067e-01  4.55179067e-01  3.49362871e-09  1.53078686e-07  8.24565873e-08  7.80000000e-01 
 7.90000000e-01  4.55179067e-01  4.55179067e-01  3.32793347e-09  4.55179067e-01  4.55179067e-01  4.55179067e-01  3.49362871e-09  1.53078685e-07  8.24566015e-08  7.90000000e-01 
 8.00000000e-01  4.55179053e-01  4.55179053e-01  3.32793347e-09  4.55179053e-01  4.55179053e-01  4.55179053e-01  3.49362871e-09  1.53078662e-07  8.24565802e-08  8.00000000e-01 
 8.10000000e-01  4.55179043e-01  4.55179043e-01  3.32793347e-09  4.55179043e-01  4.55179043e-01  4.55179043e-01  3.49362871e-09  1.53078644e-07  8.24564950e-08  8.10000000e-01 
 8.20000000e-01  4.55179052e-01  4.55179052e-01  3.32793353e-09  4.55179052e-01  4.55179052e-01  4.55179052e-01  3.49362871e-09  1.53078648e-07  8.24565021e-08  8.20000000e-01 
 8.30000000e-01  4.55179069e-01  4.55179069e-01  3.32793353e-09  4.55179069e-01  4.55179069e-01  4.55179069e-01  3.49362872e-09  1.53078673e-07  8.24562605e-08  8.30000000e-01 
 8.40000000e-01  4.55179030e-01  4.55179031e-01  3.32793347e-09  4.55179030e-01  4.55179031e-01  4.55179030e-01  3.49362871e-09  1.53078634e-07  8.24563315e-08  8.40000000e-01 
 8.50000000e-01  4.55179040e-01  4.55179040e-01  3.32793347e-09  4.55179040e-01  4.55179040e-01  4.55179040e-01  3.49362871e-09  1.53078632e-07  8.24562321e-08  8.50000000e-01 
 8.60000000e-01  4.55179061e-01  4.55179061e-01  3.32793347e-09  4.55179061e-01  4.55179061e-01  4.55179061e-01  3.49362871e-09  1.53078670e-07  8.24560829e-08  8.60000000e-01 
 8.70000000e-01  4.55179032e-01  4.55179032e-01  3.32793353e-09  4.55179032e-01  4.55179032e-01  4.55179032e-01  3.49362871e-09  1.53078626e-07  8.24560189e-08  8.70000000e-01 
 8.80000000e-01  4.55179025e-01  4.55179026e-01  3.32793347e-09  4.55179026e-01  4.55179026e-01  4.55179026e-01  3.49362871e-09  1.53078626e-07  8.24559336e-08  8.80000000e-01 
 8.90000000e-01  4.55179054e-01  4.55179054e-01  3.32793347e-09  4.55179054e-01  4.55179054e-01  4.55179054e-01  3.49362871e-09  1.53078672e-07  8.24559763e-08  8.90000000e-01 
 9.00000000e-01  4.55179055e-01  4.55179055e-01  3.32793353e-09  4.55179055e-01  4.55179055e-01  4.55179055e-01  3.49362871e-09  1.53078661e-07  8.24558910e-08  9.00000000e-01 
 9.10000000e-01  4.55179031e-01  4.55179032e-01  3.32793347e-09  4.55179032e-01  4.55179032e-01  4.55179032e-01  3.49362871e-09  1.53078636e-07  8.24556778e-08  9.10000000e-01 
 9.20000000e-01  4.55179038e-01  4.55179038e-01  3.32793353e-09  4.55179038e-01  4.55179038e-01  4.55179038e-01  3.49362871e-09  1.53078633e-07  8.24557276e-08  9.20000000e-01 
 9.30000000e-01  4.55179041e-01  4.55179041e-01  3.32793353e-09  4.55179041e-01  4.55179041e-01  4.55179041e-01  3.49362871e-09  1.53078652e-07  8.24555570e-08  9.30000000e-01 
 9.40000000e-01  4.55179037e-01  4.55179037e-01  3.32793347e-09  4.55179037e-01  4.55179037e-01  4.55179037e-01  3.49362871e-09  1.53078637e-07  8.24556068e-08  9.40000000e-01 
 9.50000000e-01  4.55179045e-01  4.55179045e-01  3.32793347e-09  4.55179045e-01  4.55179045e-01  4.55179045e-01  3.49362871e-09  1.53078649e-07  8.24554789e-08  9.50000000e-01 
 9.60000000e-01  4.55179032e-01  4.55179032e-01  3.32793353e-09  4.55179032e-01  4.55179032e-01  4.55179032e-01  3.49362871e-09  1.53078622e-07  8.24552728e-08  9.60000000e-01 
 9.70000000e-01  4.55179055e-01  4.55179055e-01  3.32793353e-09  4.55179055e-01  4.55179055e-01  4.55179055e-01  3.49362871e-09  1.53078662e-07  8.24552586e-08  9.70000000e-01 
 9.80000000e-01  4.55179031e-01  4.55179031e-01  3.32793347e-09  4.55179031e-01  4.55179031e-01  4.55179031e-01  3.49362871e-09  1.53078623e-07  8.24553297e-08  9.80000000e-01 
 9.90000000e-01  4.55179061e-01  4.55179061e-01  3.32793347e-09  4.55179061e-01  4.55179061e-01  4.55179061e-01  3.49362871e-09  1.53078679e-07  8.24551805e-08  9.90000000e-01 
 1.00000000e+00  4.55179035e-01  4.55179036e-01  3.32793353e-09  4.55179036e-01  4.55179036e-01  4.55179035e-01  3.49362871e-09  1.53078623e-07  8.24550668e-08  1.00000000e+00 
 1.01000000e+00  4.55179071e-01  4.55179071e-01  3.32793347e-09  4.55179071e-01  4.55179071e-01  4.55179071e-01  3.49362872e-09  1.53078688e-07  8.24550952e-08  1.01000000e+00 
 1.02000000e+00  4.55179076e-01  4.55179076e-01  3.32793353e-09  4.55179076e-01  4.55179076e-01  4.55179076e-01  3.49362872e-09  1.53078683e-07  8.24549744e-08  1.02000000e+00 
 1.03000000e+00  4.55179032e-01  4.55179032e-01  3.32793353e-09  4.55179032e-01  4.55179032e-01  4.55179032e-01  3.49362871e-09  1.53078652e-07  8.24549531e-08  1.03000000e+00 
 1.04000000e+00  4.55179041e-01  4.55179041e-01  3.32793353e-09  4.55179041e-01  4.55179041e-01  4.55179041e-01  3.49362871e-09  1.53078648e-07  8.24547186e-08  1.04000000e+00 
 1.05000000e+00  4.55179073e-01  4.55179073e-01  3.32793353e-09  4.55179073e-01  4.55179073e-01  4.55179073e-01  3.49362872e-09  1.53078694e-07  8.24547826e-08  1.05000000e+00 
 1.06000000e+00  4.55179064e-01  4.55179064e-01  3.32793353e-09  4.55179064e-01  4.55179064e-01  4.55179064e-01  3.49362871e-09  1.53078674e-07  8.24547399e-08  1.06000000e+00 
 1.07000000e+00  4.55179040e-01  4.55179040e-01  3.32793347e-09  4.55179040e-01  4.55179040e-01  4.55179040e-01  3.49362871e-09  1.53078643e-07  8.24545836e-08  1.07000000e+00 
 1.08000000e+00  4.55179033e-01  4.55179033e-01  3.32793353e-09  4.55179033e-01  4.55179033e-01  4.55179033e-01  3.49362871e-09  1.53078626e-07  8.24544344e-08  1.08000000e+00 
 1.09000000e+00  4.55179045e-01  4.55179045e-01  3.32793347e-09  4.55179045e-01  4.55179045e-01  4.55179045e-01  3.49362871e-09  1.53078649e-07  8.24543918e-08  1.09000000e+00 
 1.10000000e+00  4.55179039e-01  4.55179039e-01  3.32793353e-09  4.55179039e-01  4.55179039e-01  4.55179039e-01  3.49362871e-09  1.53078632e-07  8.24543491e-08  1.10000000e+00 
