 v-sweep         v(b0)           v(b1)           v(b2)           v(b3)           v(b4)           v(b5)           v(b6)           i(vbias)        i(viout)        v(vout)        
 0.00000000e+00  4.59805665e-01  3.19569704e-09  3.22949424e-09  4.59805665e-01  4.59805665e-01  3.34884638e-09  4.59805665e-01  1.60040239e-07  1.36222320e-07  0.00000000e+00 
 1.00000000e-02  4.59805674e-01  3.19569708e-09  3.22949428e-09  4.59805674e-01  4.59805674e-01  3.34884641e-09  4.59805674e-01  1.60040267e-07  1.36221851e-07  1.00000000e-02 
 2.00000000e-02  4.59805681e-01  3.19569708e-09  3.22949428e-09  4.59805682e-01  4.59805682e-01  3.34884641e-09  4.59805681e-01  1.60040283e-07  1.36221495e-07  2.00000000e-02 
 3.00000000e-02  4.59805663e-01  3.19569708e-09  3.22949428e-09  4.59805663e-01  4.59805663e-01  3.34884635e-09  4.59805663e-01  1.60040262e-07  1.36221084e-07  3.00000000e-02 
 4.00000000e-02  4.59805681e-01  3.19569708e-09  3.22949422e-09  4.59805681e-01  4.59805681e-01  3.34884635e-09  4.59805681e-01  1.60040277e-07  1.36220824e-07  4.00000000e-02 
 5.00000000e-02  4.59805646e-01  3.19569708e-09  3.22949428e-09  4.59805646e-01  4.59805646e-01  3.34884641e-09  4.59805646e-01  1.60040237e-07  1.36220298e-07  5.00000000e-02 
 6.00000000e-02  4.59805654e-01  3.19569708e-09  3.22949428e-09  4.59805654e-01  4.59805654e-01  3.34884635e-09  4.59805654e-01  1.60040247e-07  1.36219953e-07  6.00000000e-02 
 7.00000000e-02  4.59805691e-01  3.19569708e-09  3.22949428e-09  4.59805691e-01  4.59805691e-01  3.34884641e-09  4.59805691e-01  1.60040288e-07  1.36219773e-07  7.00000000e-02 
 8.00000000e-02  4.59805644e-01  3.19569708e-09  3.22949428e-09  4.59805644e-01  4.59805644e-01  3.34884635e-09  4.59805644e-01  1.60040220e-07  1.36219168e-07  8.00000000e-02 
 9.00000000e-02  4.59805639e-01  3.19569708e-09  3.22949428e-09  4.59805639e-01  4.59805639e-01  3.34884640e-09  4.59805639e-01  1.60040230e-07  1.36218950e-07  9.00000000e-02 
 1.00000000e-01  4.59805657e-01  3.19569708e-09  3.22949428e-09  4.59805657e-01  4.59805657e-01  3.34884641e-09  4.59805657e-01  1.60040239e-07  1.36218773e-07  1.00000000e-01 
 1.10000000e-01  4.59805641e-01  3.19569713e-09  3.22949422e-09  4.59805641e-01  4.59805641e-01  3.34884640e-09  4.59805641e-01  1.60040218e-07  1.36218406e-07  1.10000000e-01 
 1.20000000e-01  4.59805681e-01  3.19569712e-09  3.22949428e-09  4.59805681e-01  4.59805681e-01  3.34884635e-09  4.59805681e-01  1.60040283e-07  1.36218245e-07  1.20000000e-01 
 1.30000000e-01  4.59805651e-01  3.19569707e-09  3.22949428e-09  4.59805652e-01  4.59805652e-01  3.34884641e-09  4.59805651e-01  1.60040228e-07  1.36217902e-07  1.30000000e-01 
 1.40000000e-01  4.59805670e-01  3.19569708e-09  3.22949428e-09  4.59805670e-01  4.59805670e-01  3.34884641e-09  4.59805670e-01  1.60040255e-07  1.36217657e-07  1.40000000e-01 
 1.50000000e-01  4.59805682e-01  3.19569708e-09  3.22949428e-09  4.59805682e-01  4.59805682e-01  3.34884635e-09  4.59805682e-01  1.60040275e-07  1.36217409e-07  1.50000000e-01 
 1.60000000e-01  4.59805692e-01  3.19569708e-09  3.22949428e-09  4.59805692e-01  4.59805692e-01  3.34884641e-09  4.59805692e-01  1.60040285e-07  1.36217276e-07  1.60000000e-01 
 1.70000000e-01  4.59805665e-01  3.19569708e-09  3.22949428e-09  4.59805665e-01  4.59805665e-01  3.34884641e-09  4.59805665e-01  1.60040251e-07  1.36217100e-07  1.70000000e-01 
 1.80000000e-01  4.59805667e-01  3.19569708e-09  3.22949428e-09  4.59805667e-01  4.59805667e-01  3.34884635e-09  4.59805667e-01  1.60040268e-07  1.36216830e-07  1.80000000e-01 
 1.90000000e-01  4.59805650e-01  3.19569713e-09  3.22949428e-09  4.59805650e-01  4.59805650e-01  3.34884641e-09  4.59805650e-01  1.60040230e-07  1.36216594e-07  1.90000000e-01 
 2.00000000e-01  4.59805669e-01  3.19569707e-09  3.22949428e-09  4.59805669e-01  4.59805669e-01  3.34884641e-09  4.59805669e-01  1.60040266e-07  1.36216357e-07  2.00000000e-01 
 2.10000000e-01  4.59805687e-01  3.19569709e-09  3.22949422e-09  4.59805688e-01  4.59805688e-01  3.34884641e-09  4.59805687e-01  1.60040298e-07  1.36216281e-07  2.10000000e-01 
 2.20000000e-01  4.59805635e-01  3.19569708e-09  3.22949422e-09  4.59805635e-01  4.59805635e-01  3.34884635e-09  4.59805635e-01  1.60040204e-07  1.36215968e-07  2.20000000e-01 
 2.30000000e-01  4.59805673e-01  3.19569708e-09  3.22949428e-09  4.59805673e-01  4.59805673e-01  3.34884641e-09  4.59805673e-01  1.60040272e-07  1.36215997e-07  2.30000000e-01 
 2.40000000e-01  4.59805642e-01  3.19569708e-09  3.22949428e-09  4.59805642e-01  4.59805642e-01  3.34884635e-09  4.59805642e-01  1.60040227e-07  1.36215622e-07  2.40000000e-01 
 2.50000000e-01  4.59805682e-01  3.19569708e-09  3.22949422e-09  4.59805682e-01  4.59805682e-01  3.34884641e-09  4.59805682e-01  1.60040294e-07  1.36215716e-07  2.50000000e-01 
 2.60000000e-01  4.59805657e-01  3.19569708e-09  3.22949428e-09  4.59805657e-01  4.59805657e-01  3.34884635e-09  4.59805657e-01  1.60040246e-07  1.36215405e-07  2.60000000e-01 
 2.70000000e-01  4.59805667e-01  3.19569708e-09  3.22949428e-09  4.59805667e-01  4.59805667e-01  3.34884641e-09  4.59805667e-01  1.60040256e-07  1.36215322e-07  2.70000000e-01 
 2.80000000e-01  4.59805679e-01  3.19569708e-09  3.22949428e-09  4.59805679e-01  4.59805679e-01  3.34884641e-09  4.59805679e-01  1.60040272e-07  1.36215149e-07  2.80000000e-01 
 2.90000000e-01  4.59805681e-01  3.19569708e-09  3.22949428e-09  4.59805681e-01  4.59805681e-01  3.34884641e-09  4.59805681e-01  1.60040281e-07  1.36215057e-07  2.90000000e-01 
 3.00000000e-01  4.59805655e-01  3.19569708e-09  3.22949428e-09  4.59805655e-01  4.59805655e-01  3.34884635e-09  4.59805655e-01  1.60040240e-07  1.36214751e-07  3.00000000e-01 
 3.10000000e-01  4.59805662e-01  3.19569708e-09  3.22949428e-09  4.59805662e-01  4.59805662e-01  3.34884641e-09  4.59805662e-01  1.60040247e-07  1.36214705e-07  3.10000000e-01 
 3.20000000e-01  4.59805646e-01  3.19569708e-09  3.22949428e-09  4.59805646e-01  4.59805646e-01  3.34884641e-09  4.59805646e-01  1.60040221e-07  1.36214485e-07  3.20000000e-01 
 3.30000000e-01  4.59805664e-01  3.19569708e-09  3.22949428e-09  4.59805664e-01  4.59805664e-01  3.34884641e-09  4.59805664e-01  1.60040262e-07  1.36214503e-07  3.30000000e-01 
 3.40000000e-01  4.59805676e-01  3.19569708e-09  3.22949428e-09  4.59805676e-01  4.59805676e-01  3.34884635e-09  4.59805676e-01  1.60040276e-07  1.36214375e-07  3.40000000e-01 
 3.50000000e-01  4.59805701e-01  3.19569708e-09  3.22949428e-09  4.59805701e-01  4.59805701e-01  3.34884641e-09  4.59805701e-01  1.60040311e-07  1.36214389e-07  3.50000000e-01 
 3.60000000e-01  4.59805666e-01  3.19569708e-09  3.22949422e-09  4.59805666e-01  4.59805666e-01  3.34884641e-09  4.59805666e-01  1.60040263e-07  1.36214158e-07  3.60000000e-01 
 3.70000000e-01  4.59805660e-01  3.19569708e-09  3.22949422e-09  4.59805660e-01  4.59805660e-01  3.34884641e-09  4.59805660e-01  1.60040253e-07  1.36213966e-07  3.70000000e-01 
 3.80000000e-01  4.59805691e-01  3.19569708e-09  3.22949428e-09  4.59805691e-01  4.59805691e-01  3.34884636e-09  4.59805691e-01  1.60040296e-07  1.36214044e-07  3.80000000e-01 
 3.90000000e-01  4.59805666e-01  3.19569708e-09  3.22949428e-09  4.59805666e-01  4.59805666e-01  3.34884635e-09  4.59805666e-01  1.60040260e-07  1.36213789e-07  3.90000000e-01 
 4.00000000e-01  4.59805664e-01  3.19569708e-09  3.22949428e-09  4.59805664e-01  4.59805664e-01  3.34884641e-09  4.59805664e-01  1.60040264e-07  1.36213757e-07  4.00000000e-01 
 4.10000000e-01  4.59805658e-01  3.19569708e-09  3.22949428e-09  4.59805658e-01  4.59805658e-01  3.34884641e-09  4.59805658e-01  1.60040232e-07  1.36213533e-07  4.10000000e-01 
 4.20000000e-01  4.59805668e-01  3.19569708e-09  3.22949422e-09  4.59805668e-01  4.59805668e-01  3.34884635e-09  4.59805668e-01  1.60040249e-07  1.36213533e-07  4.20000000e-01 
 4.30000000e-01  4.59805674e-01  3.19569714e-09  3.22949428e-09  4.59805674e-01  4.59805674e-01  3.34884641e-09  4.59805674e-01  1.60040268e-07  1.36213348e-07  4.30000000e-01 
 4.40000000e-01  4.59805669e-01  3.19569707e-09  3.22949428e-09  4.59805669e-01  4.59805669e-01  3.34884641e-09  4.59805669e-01  1.60040269e-07  1.36213163e-07  4.40000000e-01 
 4.50000000e-01  4.59805663e-01  3.19569708e-09  3.22949422e-09  4.59805663e-01  4.59805663e-01  3.34884641e-09  4.59805663e-01  1.60040243e-07  1.36213107e-07  4.50000000e-01 
 4.60000000e-01  4.59805685e-01  3.19569708e-09  3.22949428e-09  4.59805685e-01  4.59805685e-01  3.34884641e-09  4.59805685e-01  1.60040281e-07  1.36213032e-07  4.60000000e-01 
 4.70000000e-01  4.59805649e-01  3.19569713e-09  3.22949428e-09  4.59805649e-01  4.59805649e-01  3.34884635e-09  4.59805649e-01  1.60040226e-07  1.36212865e-07  4.70000000e-01 
 4.80000000e-01  4.59805677e-01  3.19569712e-09  3.22949428e-09  4.59805677e-01  4.59805677e-01  3.34884635e-09  4.59805677e-01  1.60040279e-07  1.36212840e-07  4.80000000e-01 
 4.90000000e-01  4.59805640e-01  3.19569713e-09  3.22949428e-09  4.59805640e-01  4.59805640e-01  3.34884640e-09  4.59805640e-01  1.60040207e-07  1.36212730e-07  4.90000000e-01 
 5.00000000e-01  4.59805675e-01  3.19569713e-09  3.22949422e-09  4.59805675e-01  4.59805675e-01  3.34884635e-09  4.59805675e-01  1.60040267e-07  1.36212780e-07  5.00000000e-01 
 5.10000000e-01  4.59805662e-01  3.19569713e-09  3.22949428e-09  4.59805662e-01  4.59805662e-01  3.34884635e-09  4.59805662e-01  1.60040254e-07  1.36212552e-07  5.10000000e-01 
 5.20000000e-01  4.59805670e-01  3.19569707e-09  3.22949428e-09  4.59805670e-01  4.59805670e-01  3.34884635e-09  4.59805670e-01  1.60040266e-07  1.36212542e-07  5.20000000e-01 
 5.30000000e-01  4.59805668e-01  3.19569708e-09  3.22949428e-09  4.59805668e-01  4.59805668e-01  3.34884641e-09  4.59805668e-01  1.60040257e-07  1.36212378e-07  5.30000000e-01 
 5.40000000e-01  4.59805652e-01  3.19569713e-09  3.22949428e-09  4.59805652e-01  4.59805652e-01  3.34884635e-09  4.59805652e-01  1.60040230e-07  1.36212279e-07  5.40000000e-01 
 5.50000000e-01  4.59805653e-01  3.19569707e-09  3.22949428e-09  4.59805654e-01  4.59805654e-01  3.34884635e-09  4.59805654e-01  1.60040256e-07  1.36212194e-07  5.50000000e-01 
 5.60000000e-01  4.59805670e-01  3.19569708e-09  3.22949428e-09  4.59805670e-01  4.59805670e-01  3.34884635e-09  4.59805670e-01  1.60040258e-07  1.36212225e-07  5.60000000e-01 
 5.70000000e-01  4.59805676e-01  3.19569708e-09  3.22949422e-09  4.59805677e-01  4.59805677e-01  3.34884641e-09  4.59805676e-01  1.60040267e-07  1.36212016e-07  5.70000000e-01 
 5.80000000e-01  4.59805655e-01  3.19569708e-09  3.22949428e-09  4.59805655e-01  4.59805655e-01  3.34884641e-09  4.59805655e-01  1.60040247e-07  1.36211860e-07  5.80000000e-01 
 5.90000000e-01  4.59805658e-01  3.19569708e-09  3.22949422e-09  4.59805658e-01  4.59805658e-01  3.34884635e-09  4.59805658e-01  1.60040251e-07  1.36211831e-07  5.90000000e-01 
 6.00000000e-01  4.59805698e-01  3.19569708e-09  3.22949428e-09  4.59805698e-01  4.59805698e-01  3.34884641e-09  4.59805698e-01  1.60040308e-07  1.36211760e-07  6.00000000e-01 
 6.10000000e-01  4.59805663e-01  3.19569708e-09  3.22949422e-09  4.59805663e-01  4.59805663e-01  3.34884635e-09  4.59805663e-01  1.60040248e-07  1.36211575e-07  6.10000000e-01 
 6.20000000e-01  4.59805670e-01  3.19569708e-09  3.22949428e-09  4.59805670e-01  4.59805670e-01  3.34884635e-09  4.59805670e-01  1.60040270e-07  1.36211568e-07  6.20000000e-01 
 6.30000000e-01  4.59805666e-01  3.19569708e-09  3.22949422e-09  4.59805666e-01  4.59805666e-01  3.34884635e-09  4.59805666e-01  1.60040253e-07  1.36211533e-07  6.30000000e-01 
 6.40000000e-01  4.59805682e-01  3.19569708e-09  3.22949428e-09  4.59805682e-01  4.59805682e-01  3.34884641e-09  4.59805682e-01  1.60040275e-07  1.36211483e-07  6.40000000e-01 
 6.50000000e-01  4.59805679e-01  3.19569708e-09  3.22949428e-09  4.59805679e-01  4.59805679e-01  3.34884635e-09  4.59805679e-01  1.60040275e-07  1.36211348e-07  6.50000000e-01 
 6.60000000e-01  4.59805640e-01  3.19569708e-09  3.22949422e-09  4.59805640e-01  4.59805640e-01  3.34884635e-09  4.59805640e-01  1.60040222e-07  1.36211050e-07  6.60000000e-01 
 6.70000000e-01  4.59805644e-01  3.19569713e-09  3.22949428e-09  4.59805644e-01  4.59805644e-01  3.34884641e-09  4.59805644e-01  1.60040241e-07  1.36210971e-07  6.70000000e-01 
 6.80000000e-01  4.59805675e-01  3.19569707e-09  3.22949428e-09  4.59805675e-01  4.59805675e-01  3.34884641e-09  4.59805675e-01  1.60040269e-07  1.36210993e-07  6.80000000e-01 
 6.90000000e-01  4.59805649e-01  3.19569708e-09  3.22949422e-09  4.59805649e-01  4.59805649e-01  3.34884641e-09  4.59805649e-01  1.60040240e-07  1.36210843e-07  6.90000000e-01 
 7.00000000e-01  4.59805682e-01  3.19569708e-09  3.22949428e-09  4.59805682e-01  4.59805682e-01  3.34884635e-09  4.59805682e-01  1.60040278e-07  1.36210765e-07  7.00000000e-01 
 7.10000000e-01  4.59805678e-01  3.19569708e-09  3.22949428e-09  4.59805678e-01  4.59805678e-01  3.34884641e-09  4.59805678e-01  1.60040279e-07  1.36210616e-07  7.10000000e-01 
 7.20000000e-01  4.59805667e-01  3.19569708e-09  3.22949422e-09  4.59805667e-01  4.59805667e-01  3.34884635e-09  4.59805667e-01  1.60040260e-07  1.36210602e-07  7.20000000e-01 
 7.30000000e-01  4.59805694e-01  3.19569708e-09  3.22949428e-09  4.59805695e-01  4.59805695e-01  3.34884641e-09  4.59805694e-01  1.60040294e-07  1.36210623e-07  7.30000000e-01 
 7.40000000e-01  4.59805667e-01  3.19569708e-09  3.22949428e-09  4.59805667e-01  4.59805667e-01  3.34884641e-09  4.59805667e-01  1.60040249e-07  1.36210339e-07  7.40000000e-01 
 7.50000000e-01  4.59805667e-01  3.19569714e-09  3.22949422e-09  4.59805668e-01  4.59805668e-01  3.34884635e-09  4.59805667e-01  1.60040268e-07  1.36210332e-07  7.50000000e-01 
 7.60000000e-01  4.59805670e-01  3.19569707e-09  3.22949428e-09  4.59805670e-01  4.59805670e-01  3.34884641e-09  4.59805670e-01  1.60040262e-07  1.36210275e-07  7.60000000e-01 
 7.70000000e-01  4.59805660e-01  3.19569708e-09  3.22949428e-09  4.59805660e-01  4.59805660e-01  3.34884641e-09  4.59805660e-01  1.60040258e-07  1.36210183e-07  7.70000000e-01 
 7.80000000e-01  4.59805666e-01  3.19569708e-09  3.22949428e-09  4.59805666e-01  4.59805666e-01  3.34884635e-09  4.59805666e-01  1.60040259e-07  1.36210090e-07  7.80000000e-01 
 7.90000000e-01  4.59805682e-01  3.19569714e-09  3.22949422e-09  4.59805682e-01  4.59805682e-01  3.34884635e-09  4.59805682e-01  1.60040278e-07  1.36210090e-07  7.90000000e-01 
 8.00000000e-01  4.59805663e-01  3.19569707e-09  3.22949428e-09  4.59805663e-01  4.59805663e-01  3.34884635e-09  4.59805663e-01  1.60040243e-07  1.36209785e-07  8.00000000e-01 
 8.10000000e-01  4.59805661e-01  3.19569708e-09  3.22949428e-09  4.59805661e-01  4.59805661e-01  3.34884641e-09  4.59805661e-01  1.60040262e-07  1.36209792e-07  8.10000000e-01 
 8.20000000e-01  4.59805665e-01  3.19569708e-09  3.22949428e-09  4.59805665e-01  4.59805665e-01  3.34884635e-09  4.59805665e-01  1.60040260e-07  1.36209607e-07  8.20000000e-01 
 8.30000000e-01  4.59805671e-01  3.19569708e-09  3.22949422e-09  4.59805671e-01  4.59805671e-01  3.34884641e-09  4.59805671e-01  1.60040256e-07  1.36209557e-07  8.30000000e-01 
 8.40000000e-01  4.59805646e-01  3.19569713e-09  3.22949422e-09  4.59805646e-01  4.59805646e-01  3.34884635e-09  4.59805646e-01  1.60040243e-07  1.36209493e-07  8.40000000e-01 
 8.50000000e-01  4.59805667e-01  3.19569707e-09  3.22949428e-09  4.59805667e-01  4.59805667e-01  3.34884641e-09  4.59805667e-01  1.60040260e-07  1.36209401e-07  8.50000000e-01 
 8.60000000e-01  4.59805663e-01  3.19569708e-09  3.22949422e-09  4.59805663e-01  4.59805663e-01  3.34884641e-09  4.59805663e-01  1.60040260e-07  1.36209309e-07  8.60000000e-01 
 8.70000000e-01  4.59805669e-01  3.19569714e-09  3.22949428e-09  4.59805669e-01  4.59805669e-01  3.34884641e-09  4.59805669e-01  1.60040266e-07  1.36209181e-07  8.70000000e-01 
 8.80000000e-01  4.59805678e-01  3.19569707e-09  3.22949428e-09  4.59805679e-01  4.59805679e-01  3.34884641e-09  4.59805678e-01  1.60040274e-07  1.36209124e-07  8.80000000e-01 
 8.90000000e-01  4.59805668e-01  3.19569708e-09  3.22949428e-09  4.59805668e-01  4.59805668e-01  3.34884641e-09  4.59805668e-01  1.60040269e-07  1.36209053e-07  8.90000000e-01 
 9.00000000e-01  4.59805667e-01  3.19569708e-09  3.22949428e-09  4.59805667e-01  4.59805667e-01  3.34884641e-09  4.59805667e-01  1.60040257e-07  1.36208932e-07  9.00000000e-01 
 9.10000000e-01  4.59805677e-01  3.19569708e-09  3.22949428e-09  4.59805677e-01  4.59805677e-01  3.34884641e-09  4.59805677e-01  1.60040270e-07  1.36208776e-07  9.10000000e-01 
 9.20000000e-01  4.59805659e-01  3.19569708e-09  3.22949428e-09  4.59805659e-01  4.59805659e-01  3.34884641e-09  4.59805659e-01  1.60040247e-07  1.36208733e-07  9.20000000e-01 
 9.30000000e-01  4.59805682e-01  3.19569708e-09  3.22949422e-09  4.59805682e-01  4.59805682e-01  3.34884641e-09  4.59805682e-01  1.60040273e-07  1.36208648e-07  9.30000000e-01 
 9.40000000e-01  4.59805645e-01  3.19569708e-09  3.22949428e-09  4.59805645e-01  4.59805645e-01  3.34884641e-09  4.59805645e-01  1.60040224e-07  1.36208456e-07  9.40000000e-01 
 9.50000000e-01  4.59805650e-01  3.19569708e-09  3.22949428e-09  4.59805650e-01  4.59805650e-01  3.34884641e-09  4.59805650e-01  1.60040241e-07  1.36208307e-07  9.50000000e-01 
 9.60000000e-01  4.59805677e-01  3.19569708e-09  3.22949428e-09  4.59805677e-01  4.59805677e-01  3.34884641e-09  4.59805677e-01  1.60040259e-07  1.36208371e-07  9.60000000e-01 
 9.70000000e-01  4.59805658e-01  3.19569708e-09  3.22949428e-09  4.59805658e-01  4.59805658e-01  3.34884641e-09  4.59805658e-01  1.60040244e-07  1.36208172e-07  9.70000000e-01 
 9.80000000e-01  4.59805664e-01  3.19569708e-09  3.22949428e-09  4.59805664e-01  4.59805664e-01  3.34884641e-09  4.59805664e-01  1.60040262e-07  1.36208136e-07  9.80000000e-01 
 9.90000000e-01  4.59805658e-01  3.19569708e-09  3.22949428e-09  4.59805658e-01  4.59805658e-01  3.34884641e-09  4.59805658e-01  1.60040246e-07  1.36207930e-07  9.90000000e-01 
 1.00000000e+00  4.59805658e-01  3.19569708e-09  3.22949422e-09  4.59805658e-01  4.59805658e-01  3.34884635e-09  4.59805658e-01  1.60040236e-07  1.36207746e-07  1.00000000e+00 
 1.01000000e+00  4.59805662e-01  3.19569708e-09  3.22949428e-09  4.59805662e-01  4.59805662e-01  3.34884635e-09  4.59805662e-01  1.60040241e-07  1.36207795e-07  1.01000000e+00 
 1.02000000e+00  4.59805681e-01  3.19569708e-09  3.22949428e-09  4.59805681e-01  4.59805681e-01  3.34884641e-09  4.59805681e-01  1.60040282e-07  1.36207696e-07  1.02000000e+00 
 1.03000000e+00  4.59805659e-01  3.19569708e-09  3.22949422e-09  4.59805659e-01  4.59805659e-01  3.34884641e-09  4.59805659e-01  1.60040241e-07  1.36207468e-07  1.03000000e+00 
 1.04000000e+00  4.59805669e-01  3.19569708e-09  3.22949428e-09  4.59805669e-01  4.59805669e-01  3.34884635e-09  4.59805669e-01  1.60040269e-07  1.36207476e-07  1.04000000e+00 
 1.05000000e+00  4.59805691e-01  3.19569708e-09  3.22949428e-09  4.59805691e-01  4.59805691e-01  3.34884641e-09  4.59805691e-01  1.60040293e-07  1.36207220e-07  1.05000000e+00 
 1.06000000e+00  4.59805691e-01  3.19569708e-09  3.22949428e-09  4.59805691e-01  4.59805691e-01  3.34884641e-09  4.59805691e-01  1.60040284e-07  1.36207269e-07  1.06000000e+00 
 1.07000000e+00  4.59805673e-01  3.19569714e-09  3.22949428e-09  4.59805673e-01  4.59805673e-01  3.34884641e-09  4.59805673e-01  1.60040271e-07  1.36207156e-07  1.07000000e+00 
 1.08000000e+00  4.59805672e-01  3.19569707e-09  3.22949428e-09  4.59805672e-01  4.59805672e-01  3.34884641e-09  4.59805672e-01  1.60040262e-07  1.36206928e-07  1.08000000e+00 
 1.09000000e+00  4.59805682e-01  3.19569709e-09  3.22949428e-09  4.59805682e-01  4.59805682e-01  3.34884635e-09  4.59805682e-01  1.60040270e-07  1.36207021e-07  1.09000000e+00 
 1.10000000e+00  4.59805697e-01  3.19569708e-09  3.22949422e-09  4.59805697e-01  4.59805697e-01  3.34884636e-09  4.59805697e-01  1.60040305e-07  1.36206992e-07  1.10000000e+00 
