 v-sweep         v(b0)           v(b1)           v(b2)           v(b3)           v(b4)           v(b5)           v(b6)           i(vbias)        i(viout)        v(vout)        
 0.00000000e+00  3.20719656e-09  3.26305719e-09  3.64998662e-09  4.59477672e-01  3.07579696e-09  4.59477672e-01  4.59477672e-01  1.63708918e-07  1.60035753e-07  0.00000000e+00 
 1.00000000e-02  3.20719654e-09  3.26305717e-09  3.64998660e-09  4.59477650e-01  3.07579694e-09  4.59477650e-01  4.59477650e-01  1.63708892e-07  1.60035192e-07  1.00000000e-02 
 2.00000000e-02  3.20719660e-09  3.26305717e-09  3.64998666e-09  4.59477642e-01  3.07579700e-09  4.59477642e-01  4.59477642e-01  1.63708879e-07  1.60034776e-07  2.00000000e-02 
 3.00000000e-02  3.20719654e-09  3.26305717e-09  3.64998666e-09  4.59477651e-01  3.07579694e-09  4.59477651e-01  4.59477651e-01  1.63708892e-07  1.60034374e-07  3.00000000e-02 
 4.00000000e-02  3.20719654e-09  3.26305723e-09  3.64998666e-09  4.59477654e-01  3.07579694e-09  4.59477654e-01  4.59477654e-01  1.63708890e-07  1.60033995e-07  4.00000000e-02 
 5.00000000e-02  3.20719660e-09  3.26305717e-09  3.64998666e-09  4.59477646e-01  3.07579700e-09  4.59477646e-01  4.59477646e-01  1.63708878e-07  1.60033623e-07  5.00000000e-02 
 6.00000000e-02  3.20719654e-09  3.26305717e-09  3.64998660e-09  4.59477632e-01  3.07579700e-09  4.59477632e-01  4.59477632e-01  1.63708859e-07  1.60033179e-07  6.00000000e-02 
 7.00000000e-02  3.20719655e-09  3.26305723e-09  3.64998660e-09  4.59477666e-01  3.07579700e-09  4.59477667e-01  4.59477666e-01  1.63708928e-07  1.60032956e-07  7.00000000e-02 
 8.00000000e-02  3.20719654e-09  3.26305716e-09  3.64998660e-09  4.59477631e-01  3.07579694e-09  4.59477631e-01  4.59477631e-01  1.63708868e-07  1.60032492e-07  8.00000000e-02 
 9.00000000e-02  3.20719654e-09  3.26305723e-09  3.64998666e-09  4.59477640e-01  3.07579694e-09  4.59477640e-01  4.59477640e-01  1.63708877e-07  1.60032182e-07  9.00000000e-02 
 1.00000000e-01  3.20719660e-09  3.26305721e-09  3.64998666e-09  4.59477639e-01  3.07579694e-09  4.59477639e-01  4.59477639e-01  1.63708884e-07  1.60031903e-07  1.00000000e-01 
 1.10000000e-01  3.20719660e-09  3.26305723e-09  3.64998660e-09  4.59477656e-01  3.07579700e-09  4.59477656e-01  4.59477656e-01  1.63708895e-07  1.60031608e-07  1.10000000e-01 
 1.20000000e-01  3.20719654e-09  3.26305721e-09  3.64998665e-09  4.59477636e-01  3.07579694e-09  4.59477636e-01  4.59477636e-01  1.63708861e-07  1.60031271e-07  1.20000000e-01 
 1.30000000e-01  3.20719660e-09  3.26305718e-09  3.64998666e-09  4.59477658e-01  3.07579700e-09  4.59477658e-01  4.59477658e-01  1.63708901e-07  1.60031012e-07  1.30000000e-01 
 1.40000000e-01  3.20719660e-09  3.26305723e-09  3.64998666e-09  4.59477651e-01  3.07579700e-09  4.59477651e-01  4.59477651e-01  1.63708892e-07  1.60030817e-07  1.40000000e-01 
 1.50000000e-01  3.20719660e-09  3.26305717e-09  3.64998660e-09  4.59477668e-01  3.07579694e-09  4.59477668e-01  4.59477668e-01  1.63708907e-07  1.60030657e-07  1.50000000e-01 
 1.60000000e-01  3.20719655e-09  3.26305723e-09  3.64998666e-09  4.59477675e-01  3.07579694e-09  4.59477676e-01  4.59477675e-01  1.63708924e-07  1.60030289e-07  1.60000000e-01 
 1.70000000e-01  3.20719654e-09  3.26305721e-09  3.64998666e-09  4.59477652e-01  3.07579694e-09  4.59477652e-01  4.59477652e-01  1.63708904e-07  1.60030128e-07  1.70000000e-01 
 1.80000000e-01  3.20719660e-09  3.26305723e-09  3.64998665e-09  4.59477620e-01  3.07579694e-09  4.59477620e-01  4.59477620e-01  1.63708835e-07  1.60029717e-07  1.80000000e-01 
 1.90000000e-01  3.20719654e-09  3.26305721e-09  3.64998666e-09  4.59477652e-01  3.07579694e-09  4.59477652e-01  4.59477652e-01  1.63708887e-07  1.60029742e-07  1.90000000e-01 
 2.00000000e-01  3.20719654e-09  3.26305723e-09  3.64998666e-09  4.59477644e-01  3.07579694e-09  4.59477644e-01  4.59477644e-01  1.63708879e-07  1.60029410e-07  2.00000000e-01 
 2.10000000e-01  3.20719654e-09  3.26305716e-09  3.64998660e-09  4.59477639e-01  3.07579694e-09  4.59477639e-01  4.59477639e-01  1.63708877e-07  1.60029058e-07  2.10000000e-01 
 2.20000000e-01  3.20719655e-09  3.26305723e-09  3.64998660e-09  4.59477664e-01  3.07579700e-09  4.59477664e-01  4.59477664e-01  1.63708904e-07  1.60029115e-07  2.20000000e-01 
 2.30000000e-01  3.20719660e-09  3.26305721e-09  3.64998666e-09  4.59477642e-01  3.07579694e-09  4.59477642e-01  4.59477642e-01  1.63708889e-07  1.60028609e-07  2.30000000e-01 
 2.40000000e-01  3.20719660e-09  3.26305723e-09  3.64998660e-09  4.59477649e-01  3.07579694e-09  4.59477649e-01  4.59477649e-01  1.63708898e-07  1.60028549e-07  2.40000000e-01 
 2.50000000e-01  3.20719655e-09  3.26305721e-09  3.64998666e-09  4.59477658e-01  3.07579700e-09  4.59477658e-01  4.59477658e-01  1.63708886e-07  1.60028415e-07  2.50000000e-01 
 2.60000000e-01  3.20719654e-09  3.26305723e-09  3.64998665e-09  4.59477622e-01  3.07579694e-09  4.59477622e-01  4.59477622e-01  1.63708846e-07  1.60028080e-07  2.60000000e-01 
 2.70000000e-01  3.20719655e-09  3.26305722e-09  3.64998666e-09  4.59477669e-01  3.07579694e-09  4.59477669e-01  4.59477669e-01  1.63708915e-07  1.60028074e-07  2.70000000e-01 
 2.80000000e-01  3.20719660e-09  3.26305723e-09  3.64998660e-09  4.59477647e-01  3.07579694e-09  4.59477647e-01  4.59477647e-01  1.63708879e-07  1.60027929e-07  2.80000000e-01 
 2.90000000e-01  3.20719660e-09  3.26305716e-09  3.64998666e-09  4.59477672e-01  3.07579694e-09  4.59477673e-01  4.59477673e-01  1.63708924e-07  1.60027845e-07  2.90000000e-01 
 3.00000000e-01  3.20719660e-09  3.26305718e-09  3.64998660e-09  4.59477671e-01  3.07579700e-09  4.59477671e-01  4.59477671e-01  1.63708926e-07  1.60027639e-07  3.00000000e-01 
 3.10000000e-01  3.20719654e-09  3.26305717e-09  3.64998660e-09  4.59477653e-01  3.07579694e-09  4.59477653e-01  4.59477653e-01  1.63708881e-07  1.60027529e-07  3.10000000e-01 
 3.20000000e-01  3.20719654e-09  3.26305717e-09  3.64998660e-09  4.59477635e-01  3.07579694e-09  4.59477635e-01  4.59477635e-01  1.63708864e-07  1.60027174e-07  3.20000000e-01 
 3.30000000e-01  3.20719654e-09  3.26305717e-09  3.64998666e-09  4.59477651e-01  3.07579694e-09  4.59477651e-01  4.59477651e-01  1.63708892e-07  1.60027149e-07  3.30000000e-01 
 3.40000000e-01  3.20719660e-09  3.26305723e-09  3.64998660e-09  4.59477651e-01  3.07579700e-09  4.59477651e-01  4.59477651e-01  1.63708889e-07  1.60027000e-07  3.40000000e-01 
 3.50000000e-01  3.20719655e-09  3.26305717e-09  3.64998660e-09  4.59477657e-01  3.07579694e-09  4.59477657e-01  4.59477657e-01  1.63708889e-07  1.60026900e-07  3.50000000e-01 
 3.60000000e-01  3.20719655e-09  3.26305723e-09  3.64998666e-09  4.59477662e-01  3.07579694e-09  4.59477662e-01  4.59477662e-01  1.63708908e-07  1.60026698e-07  3.60000000e-01 
 3.70000000e-01  3.20719654e-09  3.26305721e-09  3.64998666e-09  4.59477651e-01  3.07579694e-09  4.59477651e-01  4.59477651e-01  1.63708895e-07  1.60026431e-07  3.70000000e-01 
 3.80000000e-01  3.20719654e-09  3.26305717e-09  3.64998666e-09  4.59477641e-01  3.07579694e-09  4.59477641e-01  4.59477641e-01  1.63708873e-07  1.60026321e-07  3.80000000e-01 
 3.90000000e-01  3.20719654e-09  3.26305717e-09  3.64998666e-09  4.59477641e-01  3.07579694e-09  4.59477641e-01  4.59477641e-01  1.63708883e-07  1.60026246e-07  3.90000000e-01 
 4.00000000e-01  3.20719660e-09  3.26305717e-09  3.64998666e-09  4.59477644e-01  3.07579694e-09  4.59477644e-01  4.59477644e-01  1.63708877e-07  1.60026048e-07  4.00000000e-01 
 4.10000000e-01  3.20719655e-09  3.26305717e-09  3.64998660e-09  4.59477660e-01  3.07579694e-09  4.59477660e-01  4.59477660e-01  1.63708894e-07  1.60026072e-07  4.10000000e-01 
 4.20000000e-01  3.20719654e-09  3.26305723e-09  3.64998666e-09  4.59477647e-01  3.07579694e-09  4.59477647e-01  4.59477647e-01  1.63708889e-07  1.60025827e-07  4.20000000e-01 
 4.30000000e-01  3.20719660e-09  3.26305722e-09  3.64998665e-09  4.59477628e-01  3.07579700e-09  4.59477628e-01  4.59477628e-01  1.63708853e-07  1.60025625e-07  4.30000000e-01 
 4.40000000e-01  3.20719654e-09  3.26305723e-09  3.64998660e-09  4.59477650e-01  3.07579700e-09  4.59477650e-01  4.59477650e-01  1.63708883e-07  1.60025706e-07  4.40000000e-01 
 4.50000000e-01  3.20719660e-09  3.26305723e-09  3.64998660e-09  4.59477653e-01  3.07579700e-09  4.59477653e-01  4.59477653e-01  1.63708896e-07  1.60025472e-07  4.50000000e-01 
 4.60000000e-01  3.20719655e-09  3.26305723e-09  3.64998660e-09  4.59477661e-01  3.07579694e-09  4.59477661e-01  4.59477661e-01  1.63708904e-07  1.60025412e-07  4.60000000e-01 
 4.70000000e-01  3.20719660e-09  3.26305721e-09  3.64998665e-09  4.59477636e-01  3.07579694e-09  4.59477637e-01  4.59477636e-01  1.63708869e-07  1.60025181e-07  4.70000000e-01 
 4.80000000e-01  3.20719654e-09  3.26305718e-09  3.64998660e-09  4.59477654e-01  3.07579700e-09  4.59477655e-01  4.59477654e-01  1.63708893e-07  1.60025049e-07  4.80000000e-01 
 4.90000000e-01  3.20719655e-09  3.26305717e-09  3.64998666e-09  4.59477664e-01  3.07579694e-09  4.59477664e-01  4.59477664e-01  1.63708907e-07  1.60025067e-07  4.90000000e-01 
 5.00000000e-01  3.20719655e-09  3.26305717e-09  3.64998660e-09  4.59477665e-01  3.07579694e-09  4.59477665e-01  4.59477665e-01  1.63708917e-07  1.60024999e-07  5.00000000e-01 
 5.10000000e-01  3.20719654e-09  3.26305717e-09  3.64998660e-09  4.59477650e-01  3.07579694e-09  4.59477650e-01  4.59477650e-01  1.63708889e-07  1.60024715e-07  5.10000000e-01 
 5.20000000e-01  3.20719655e-09  3.26305717e-09  3.64998660e-09  4.59477661e-01  3.07579694e-09  4.59477661e-01  4.59477661e-01  1.63708917e-07  1.60024616e-07  5.20000000e-01 
 5.30000000e-01  3.20719654e-09  3.26305723e-09  3.64998660e-09  4.59477650e-01  3.07579694e-09  4.59477650e-01  4.59477650e-01  1.63708895e-07  1.60024474e-07  5.30000000e-01 
 5.40000000e-01  3.20719660e-09  3.26305723e-09  3.64998666e-09  4.59477654e-01  3.07579694e-09  4.59477654e-01  4.59477654e-01  1.63708902e-07  1.60024481e-07  5.40000000e-01 
 5.50000000e-01  3.20719660e-09  3.26305717e-09  3.64998660e-09  4.59477641e-01  3.07579694e-09  4.59477641e-01  4.59477641e-01  1.63708875e-07  1.60024300e-07  5.50000000e-01 
 5.60000000e-01  3.20719654e-09  3.26305717e-09  3.64998666e-09  4.59477643e-01  3.07579700e-09  4.59477643e-01  4.59477643e-01  1.63708882e-07  1.60024083e-07  5.60000000e-01 
 5.70000000e-01  3.20719660e-09  3.26305723e-09  3.64998660e-09  4.59477658e-01  3.07579700e-09  4.59477658e-01  4.59477658e-01  1.63708898e-07  1.60024005e-07  5.70000000e-01 
 5.80000000e-01  3.20719660e-09  3.26305721e-09  3.64998666e-09  4.59477653e-01  3.07579694e-09  4.59477654e-01  4.59477654e-01  1.63708884e-07  1.60023930e-07  5.80000000e-01 
 5.90000000e-01  3.20719660e-09  3.26305723e-09  3.64998666e-09  4.59477670e-01  3.07579694e-09  4.59477670e-01  4.59477670e-01  1.63708908e-07  1.60023852e-07  5.90000000e-01 
 6.00000000e-01  3.20719660e-09  3.26305716e-09  3.64998666e-09  4.59477652e-01  3.07579700e-09  4.59477652e-01  4.59477652e-01  1.63708890e-07  1.60023696e-07  6.00000000e-01 
 6.10000000e-01  3.20719660e-09  3.26305717e-09  3.64998666e-09  4.59477645e-01  3.07579700e-09  4.59477645e-01  4.59477645e-01  1.63708884e-07  1.60023603e-07  6.10000000e-01 
 6.20000000e-01  3.20719655e-09  3.26305723e-09  3.64998666e-09  4.59477659e-01  3.07579700e-09  4.59477659e-01  4.59477659e-01  1.63708905e-07  1.60023468e-07  6.20000000e-01 
 6.30000000e-01  3.20719654e-09  3.26305721e-09  3.64998666e-09  4.59477649e-01  3.07579694e-09  4.59477649e-01  4.59477649e-01  1.63708897e-07  1.60023326e-07  6.30000000e-01 
 6.40000000e-01  3.20719660e-09  3.26305717e-09  3.64998666e-09  4.59477645e-01  3.07579694e-09  4.59477645e-01  4.59477645e-01  1.63708880e-07  1.60023255e-07  6.40000000e-01 
 6.50000000e-01  3.20719654e-09  3.26305717e-09  3.64998660e-09  4.59477651e-01  3.07579694e-09  4.59477651e-01  4.59477651e-01  1.63708895e-07  1.60023184e-07  6.50000000e-01 
 6.60000000e-01  3.20719660e-09  3.26305717e-09  3.64998666e-09  4.59477659e-01  3.07579700e-09  4.59477659e-01  4.59477659e-01  1.63708907e-07  1.60023014e-07  6.60000000e-01 
 6.70000000e-01  3.20719655e-09  3.26305717e-09  3.64998666e-09  4.59477661e-01  3.07579700e-09  4.59477661e-01  4.59477661e-01  1.63708905e-07  1.60022864e-07  6.70000000e-01 
 6.80000000e-01  3.20719660e-09  3.26305717e-09  3.64998666e-09  4.59477668e-01  3.07579694e-09  4.59477668e-01  4.59477668e-01  1.63708913e-07  1.60022942e-07  6.80000000e-01 
 6.90000000e-01  3.20719660e-09  3.26305717e-09  3.64998666e-09  4.59477646e-01  3.07579694e-09  4.59477646e-01  4.59477646e-01  1.63708890e-07  1.60022594e-07  6.90000000e-01 
 7.00000000e-01  3.20719660e-09  3.26305717e-09  3.64998666e-09  4.59477651e-01  3.07579694e-09  4.59477651e-01  4.59477651e-01  1.63708897e-07  1.60022502e-07  7.00000000e-01 
 7.10000000e-01  3.20719654e-09  3.26305723e-09  3.64998666e-09  4.59477641e-01  3.07579700e-09  4.59477641e-01  4.59477641e-01  1.63708878e-07  1.60022402e-07  7.10000000e-01 
 7.20000000e-01  3.20719654e-09  3.26305722e-09  3.64998665e-09  4.59477636e-01  3.07579694e-09  4.59477636e-01  4.59477636e-01  1.63708869e-07  1.60022225e-07  7.20000000e-01 
 7.30000000e-01  3.20719654e-09  3.26305723e-09  3.64998660e-09  4.59477647e-01  3.07579700e-09  4.59477648e-01  4.59477648e-01  1.63708879e-07  1.60022076e-07  7.30000000e-01 
 7.40000000e-01  3.20719660e-09  3.26305723e-09  3.64998660e-09  4.59477656e-01  3.07579694e-09  4.59477657e-01  4.59477656e-01  1.63708893e-07  1.60022019e-07  7.40000000e-01 
 7.50000000e-01  3.20719655e-09  3.26305717e-09  3.64998660e-09  4.59477659e-01  3.07579700e-09  4.59477659e-01  4.59477659e-01  1.63708902e-07  1.60021997e-07  7.50000000e-01 
 7.60000000e-01  3.20719660e-09  3.26305723e-09  3.64998666e-09  4.59477642e-01  3.07579694e-09  4.59477642e-01  4.59477642e-01  1.63708876e-07  1.60021663e-07  7.60000000e-01 
 7.70000000e-01  3.20719655e-09  3.26305723e-09  3.64998660e-09  4.59477660e-01  3.07579694e-09  4.59477660e-01  4.59477660e-01  1.63708910e-07  1.60021663e-07  7.70000000e-01 
 7.80000000e-01  3.20719655e-09  3.26305722e-09  3.64998660e-09  4.59477668e-01  3.07579700e-09  4.59477669e-01  4.59477669e-01  1.63708912e-07  1.60021578e-07  7.80000000e-01 
 7.90000000e-01  3.20719660e-09  3.26305717e-09  3.64998660e-09  4.59477631e-01  3.07579694e-09  4.59477631e-01  4.59477631e-01  1.63708851e-07  1.60021315e-07  7.90000000e-01 
 8.00000000e-01  3.20719660e-09  3.26305717e-09  3.64998666e-09  4.59477643e-01  3.07579694e-09  4.59477643e-01  4.59477643e-01  1.63708882e-07  1.60021173e-07  8.00000000e-01 
 8.10000000e-01  3.20719654e-09  3.26305717e-09  3.64998666e-09  4.59477643e-01  3.07579694e-09  4.59477643e-01  4.59477643e-01  1.63708874e-07  1.60021116e-07  8.10000000e-01 
 8.20000000e-01  3.20719654e-09  3.26305723e-09  3.64998666e-09  4.59477648e-01  3.07579694e-09  4.59477648e-01  4.59477648e-01  1.63708885e-07  1.60021031e-07  8.20000000e-01 
 8.30000000e-01  3.20719655e-09  3.26305723e-09  3.64998666e-09  4.59477668e-01  3.07579694e-09  4.59477668e-01  4.59477668e-01  1.63708903e-07  1.60020988e-07  8.30000000e-01 
 8.40000000e-01  3.20719654e-09  3.26305721e-09  3.64998660e-09  4.59477638e-01  3.07579694e-09  4.59477638e-01  4.59477638e-01  1.63708870e-07  1.60020804e-07  8.40000000e-01 
 8.50000000e-01  3.20719655e-09  3.26305718e-09  3.64998666e-09  4.59477657e-01  3.07579694e-09  4.59477657e-01  4.59477657e-01  1.63708896e-07  1.60020626e-07  8.50000000e-01 
 8.60000000e-01  3.20719655e-09  3.26305717e-09  3.64998666e-09  4.59477657e-01  3.07579694e-09  4.59477657e-01  4.59477657e-01  1.63708892e-07  1.60020498e-07  8.60000000e-01 
 8.70000000e-01  3.20719655e-09  3.26305717e-09  3.64998660e-09  4.59477669e-01  3.07579694e-09  4.59477669e-01  4.59477669e-01  1.63708896e-07  1.60020420e-07  8.70000000e-01 
 8.80000000e-01  3.20719660e-09  3.26305723e-09  3.64998666e-09  4.59477647e-01  3.07579694e-09  4.59477647e-01  4.59477647e-01  1.63708873e-07  1.60020292e-07  8.80000000e-01 
 8.90000000e-01  3.20719654e-09  3.26305723e-09  3.64998660e-09  4.59477654e-01  3.07579694e-09  4.59477654e-01  4.59477654e-01  1.63708905e-07  1.60020143e-07  8.90000000e-01 
 9.00000000e-01  3.20719654e-09  3.26305717e-09  3.64998665e-09  4.59477635e-01  3.07579694e-09  4.59477635e-01  4.59477635e-01  1.63708861e-07  1.60019894e-07  9.00000000e-01 
 9.10000000e-01  3.20719655e-09  3.26305723e-09  3.64998666e-09  4.59477658e-01  3.07579694e-09  4.59477658e-01  4.59477658e-01  1.63708905e-07  1.60019908e-07  9.10000000e-01 
 9.20000000e-01  3.20719655e-09  3.26305721e-09  3.64998666e-09  4.59477656e-01  3.07579694e-09  4.59477656e-01  4.59477656e-01  1.63708898e-07  1.60019717e-07  9.20000000e-01 
 9.30000000e-01  3.20719660e-09  3.26305723e-09  3.64998666e-09  4.59477667e-01  3.07579694e-09  4.59477667e-01  4.59477667e-01  1.63708915e-07  1.60019731e-07  9.30000000e-01 
 9.40000000e-01  3.20719654e-09  3.26305721e-09  3.64998660e-09  4.59477628e-01  3.07579694e-09  4.59477628e-01  4.59477628e-01  1.63708854e-07  1.60019340e-07  9.40000000e-01 
 9.50000000e-01  3.20719654e-09  3.26305717e-09  3.64998665e-09  4.59477634e-01  3.07579694e-09  4.59477634e-01  4.59477634e-01  1.63708864e-07  1.60019326e-07  9.50000000e-01 
 9.60000000e-01  3.20719654e-09  3.26305723e-09  3.64998666e-09  4.59477650e-01  3.07579694e-09  4.59477650e-01  4.59477650e-01  1.63708882e-07  1.60019191e-07  9.60000000e-01 
 9.70000000e-01  3.20719654e-09  3.26305717e-09  3.64998666e-09  4.59477642e-01  3.07579694e-09  4.59477642e-01  4.59477642e-01  1.63708873e-07  1.60018978e-07  9.70000000e-01 
 9.80000000e-01  3.20719654e-09  3.26305723e-09  3.64998660e-09  4.59477653e-01  3.07579694e-09  4.59477653e-01  4.59477653e-01  1.63708899e-07  1.60018928e-07  9.80000000e-01 
 9.90000000e-01  3.20719655e-09  3.26305723e-09  3.64998660e-09  4.59477667e-01  3.07579694e-09  4.59477667e-01  4.59477667e-01  1.63708905e-07  1.60018800e-07  9.90000000e-01 
 1.00000000e+00  3.20719660e-09  3.26305721e-09  3.64998666e-09  4.59477649e-01  3.07579700e-09  4.59477649e-01  4.59477649e-01  1.63708888e-07  1.60018622e-07  1.00000000e+00 
 1.01000000e+00  3.20719654e-09  3.26305723e-09  3.64998665e-09  4.59477631e-01  3.07579700e-09  4.59477631e-01  4.59477631e-01  1.63708868e-07  1.60018445e-07  1.01000000e+00 
 1.02000000e+00  3.20719654e-09  3.26305716e-09  3.64998666e-09  4.59477654e-01  3.07579694e-09  4.59477654e-01  4.59477654e-01  1.63708892e-07  1.60018374e-07  1.02000000e+00 
 1.03000000e+00  3.20719660e-09  3.26305717e-09  3.64998666e-09  4.59477638e-01  3.07579694e-09  4.59477638e-01  4.59477638e-01  1.63708869e-07  1.60018118e-07  1.03000000e+00 
 1.04000000e+00  3.20719654e-09  3.26305723e-09  3.64998660e-09  4.59477649e-01  3.07579694e-09  4.59477649e-01  4.59477649e-01  1.63708906e-07  1.60018104e-07  1.04000000e+00 
 1.05000000e+00  3.20719655e-09  3.26305723e-09  3.64998666e-09  4.59477659e-01  3.07579694e-09  4.59477659e-01  4.59477659e-01  1.63708885e-07  1.60017862e-07  1.05000000e+00 
 1.06000000e+00  3.20719654e-09  3.26305716e-09  3.64998666e-09  4.59477655e-01  3.07579694e-09  4.59477655e-01  4.59477655e-01  1.63708885e-07  1.60017770e-07  1.06000000e+00 
 1.07000000e+00  3.20719660e-09  3.26305723e-09  3.64998660e-09  4.59477629e-01  3.07579694e-09  4.59477629e-01  4.59477629e-01  1.63708863e-07  1.60017613e-07  1.07000000e+00 
 1.08000000e+00  3.20719654e-09  3.26305716e-09  3.64998666e-09  4.59477637e-01  3.07579700e-09  4.59477637e-01  4.59477637e-01  1.63708876e-07  1.60017279e-07  1.08000000e+00 
 1.09000000e+00  3.20719660e-09  3.26305718e-09  3.64998666e-09  4.59477662e-01  3.07579694e-09  4.59477662e-01  4.59477662e-01  1.63708904e-07  1.60017322e-07  1.09000000e+00 
 1.10000000e+00  3.20719655e-09  3.26305723e-09  3.64998666e-09  4.59477673e-01  3.07579694e-09  4.59477673e-01  4.59477673e-01  1.63708924e-07  1.60017244e-07  1.10000000e+00 
