 v-sweep         v(b0)           v(b1)           v(b2)           v(b3)           v(b4)           v(b5)           v(b6)           i(vbias)        i(viout)        v(vout)        
 0.00000000e+00  3.33798922e-09  3.19106603e-09  3.67233174e-09  4.58970994e-01  3.31871912e-09  4.58970994e-01  3.18334139e-09  1.60345428e-07  6.04854786e-08  0.00000000e+00 
 1.00000000e-02  3.33798926e-09  3.19106607e-09  3.67233166e-09  4.58971007e-01  3.31871910e-09  4.58971007e-01  3.18334137e-09  1.60345445e-07  6.04851080e-08  1.00000000e-02 
 2.00000000e-02  3.33798926e-09  3.19106601e-09  3.67233168e-09  4.58971038e-01  3.31871911e-09  4.58971038e-01  3.18334132e-09  1.60345499e-07  6.04848764e-08  2.00000000e-02 
 3.00000000e-02  3.33798920e-09  3.19106607e-09  3.67233167e-09  4.58970999e-01  3.31871910e-09  4.58970999e-01  3.18334131e-09  1.60345431e-07  6.04843751e-08  3.00000000e-02 
 4.00000000e-02  3.33798926e-09  3.19106601e-09  3.67233167e-09  4.58971019e-01  3.31871916e-09  4.58971019e-01  3.18334137e-09  1.60345467e-07  6.04840418e-08  4.00000000e-02 
 5.00000000e-02  3.33798926e-09  3.19106601e-09  3.67233167e-09  4.58971018e-01  3.31871916e-09  4.58971018e-01  3.18334136e-09  1.60345448e-07  6.04837340e-08  5.00000000e-02 
 6.00000000e-02  3.33798920e-09  3.19106607e-09  3.67233167e-09  4.58971001e-01  3.31871910e-09  4.58971001e-01  3.18334138e-09  1.60345426e-07  6.04834107e-08  6.00000000e-02 
 7.00000000e-02  3.33798926e-09  3.19106601e-09  3.67233167e-09  4.58971026e-01  3.31871916e-09  4.58971026e-01  3.18334136e-09  1.60345485e-07  6.04832002e-08  7.00000000e-02 
 8.00000000e-02  3.33798920e-09  3.19106607e-09  3.67233173e-09  4.58971033e-01  3.31871911e-09  4.58971033e-01  3.18334132e-09  1.60345484e-07  6.04828836e-08  8.00000000e-02 
 9.00000000e-02  3.33798926e-09  3.19106607e-09  3.67233173e-09  4.58971024e-01  3.31871911e-09  4.58971024e-01  3.18334131e-09  1.60345468e-07  6.04825745e-08  9.00000000e-02 
 1.00000000e-01  3.33798926e-09  3.19106607e-09  3.67233173e-09  4.58971022e-01  3.31871916e-09  4.58971022e-01  3.18334137e-09  1.60345459e-07  6.04823169e-08  1.00000000e-01 
 1.10000000e-01  3.33798926e-09  3.19106601e-09  3.67233167e-09  4.58971026e-01  3.31871911e-09  4.58971026e-01  3.18334136e-09  1.60345470e-07  6.04820007e-08  1.10000000e-01 
 1.20000000e-01  3.33798926e-09  3.19106601e-09  3.67233173e-09  4.58970994e-01  3.31871910e-09  4.58970994e-01  3.18334138e-09  1.60345432e-07  6.04817272e-08  1.20000000e-01 
 1.30000000e-01  3.33798926e-09  3.19106607e-09  3.67233167e-09  4.58971008e-01  3.31871916e-09  4.58971008e-01  3.18334136e-09  1.60345453e-07  6.04816321e-08  1.30000000e-01 
 1.40000000e-01  3.33798920e-09  3.19106607e-09  3.67233167e-09  4.58971009e-01  3.31871916e-09  4.58971009e-01  3.18334138e-09  1.60345448e-07  6.04812858e-08  1.40000000e-01 
 1.50000000e-01  3.33798926e-09  3.19106601e-09  3.67233167e-09  4.58971009e-01  3.31871910e-09  4.58971009e-01  3.18334136e-09  1.60345444e-07  6.04811010e-08  1.50000000e-01 
 1.60000000e-01  3.33798920e-09  3.19106607e-09  3.67233167e-09  4.58971012e-01  3.31871910e-09  4.58971012e-01  3.18334132e-09  1.60345462e-07  6.04808843e-08  1.60000000e-01 
 1.70000000e-01  3.33798926e-09  3.19106607e-09  3.67233167e-09  4.58970987e-01  3.31871910e-09  4.58970987e-01  3.18334137e-09  1.60345420e-07  6.04807120e-08  1.70000000e-01 
 1.80000000e-01  3.33798926e-09  3.19106601e-09  3.67233173e-09  4.58971006e-01  3.31871916e-09  4.58971006e-01  3.18334136e-09  1.60345439e-07  6.04805681e-08  1.80000000e-01 
 1.90000000e-01  3.33798920e-09  3.19106607e-09  3.67233173e-09  4.58971012e-01  3.31871910e-09  4.58971012e-01  3.18334138e-09  1.60345454e-07  6.04804509e-08  1.90000000e-01 
 2.00000000e-01  3.33798920e-09  3.19106601e-09  3.67233173e-09  4.58971015e-01  3.31871911e-09  4.58971015e-01  3.18334136e-09  1.60345460e-07  6.04803034e-08  2.00000000e-01 
 2.10000000e-01  3.33798920e-09  3.19106607e-09  3.67233167e-09  4.58971028e-01  3.31871916e-09  4.58971028e-01  3.18334132e-09  1.60345479e-07  6.04801258e-08  2.10000000e-01 
 2.20000000e-01  3.33798926e-09  3.19106601e-09  3.67233167e-09  4.58971007e-01  3.31871910e-09  4.58971007e-01  3.18334137e-09  1.60345435e-07  6.04798629e-08  2.20000000e-01 
 2.30000000e-01  3.33798926e-09  3.19106607e-09  3.67233167e-09  4.58971027e-01  3.31871911e-09  4.58971027e-01  3.18334130e-09  1.60345472e-07  6.04797759e-08  2.30000000e-01 
 2.40000000e-01  3.33798920e-09  3.19106601e-09  3.67233167e-09  4.58971019e-01  3.31871911e-09  4.58971019e-01  3.18334138e-09  1.60345455e-07  6.04795662e-08  2.40000000e-01 
 2.50000000e-01  3.33798926e-09  3.19106607e-09  3.67233167e-09  4.58971021e-01  3.31871916e-09  4.58971021e-01  3.18334136e-09  1.60345467e-07  6.04794579e-08  2.50000000e-01 
 2.60000000e-01  3.33798920e-09  3.19106601e-09  3.67233167e-09  4.58971025e-01  3.31871911e-09  4.58971025e-01  3.18334132e-09  1.60345481e-07  6.04794863e-08  2.60000000e-01 
 2.70000000e-01  3.33798920e-09  3.19106601e-09  3.67233167e-09  4.58971020e-01  3.31871911e-09  4.58971020e-01  3.18334137e-09  1.60345453e-07  6.04792714e-08  2.70000000e-01 
 2.80000000e-01  3.33798926e-09  3.19106607e-09  3.67233173e-09  4.58971025e-01  3.31871911e-09  4.58971025e-01  3.18334136e-09  1.60345471e-07  6.04791328e-08  2.80000000e-01 
 2.90000000e-01  3.33798920e-09  3.19106601e-09  3.67233167e-09  4.58971009e-01  3.31871910e-09  4.58971009e-01  3.18334138e-09  1.60345439e-07  6.04789783e-08  2.90000000e-01 
 3.00000000e-01  3.33798926e-09  3.19106601e-09  3.67233173e-09  4.58971026e-01  3.31871911e-09  4.58971026e-01  3.18334136e-09  1.60345479e-07  6.04789143e-08  3.00000000e-01 
 3.10000000e-01  3.33798926e-09  3.19106601e-09  3.67233173e-09  4.58971023e-01  3.31871916e-09  4.58971023e-01  3.18334138e-09  1.60345465e-07  6.04788006e-08  3.10000000e-01 
 3.20000000e-01  3.33798926e-09  3.19106607e-09  3.67233173e-09  4.58971010e-01  3.31871910e-09  4.58971010e-01  3.18334130e-09  1.60345442e-07  6.04786834e-08  3.20000000e-01 
 3.30000000e-01  3.33798926e-09  3.19106607e-09  3.67233173e-09  4.58971029e-01  3.31871911e-09  4.58971029e-01  3.18334138e-09  1.60345487e-07  6.04785804e-08  3.30000000e-01 
 3.40000000e-01  3.33798926e-09  3.19106601e-09  3.67233173e-09  4.58970998e-01  3.31871910e-09  4.58970998e-01  3.18334130e-09  1.60345424e-07  6.04784738e-08  3.40000000e-01 
 3.50000000e-01  3.33798926e-09  3.19106601e-09  3.67233167e-09  4.58971010e-01  3.31871910e-09  4.58971010e-01  3.18334132e-09  1.60345441e-07  6.04782748e-08  3.50000000e-01 
 3.60000000e-01  3.33798926e-09  3.19106607e-09  3.67233167e-09  4.58971028e-01  3.31871911e-09  4.58971028e-01  3.18334131e-09  1.60345484e-07  6.04783885e-08  3.60000000e-01 
 3.70000000e-01  3.33798926e-09  3.19106601e-09  3.67233173e-09  4.58971025e-01  3.31871911e-09  4.58971025e-01  3.18334137e-09  1.60345467e-07  6.04783210e-08  3.70000000e-01 
 3.80000000e-01  3.33798926e-09  3.19106601e-09  3.67233167e-09  4.58971018e-01  3.31871911e-09  4.58971018e-01  3.18334136e-09  1.60345473e-07  6.04780332e-08  3.80000000e-01 
 3.90000000e-01  3.33798926e-09  3.19106601e-09  3.67233167e-09  4.58971008e-01  3.31871910e-09  4.58971008e-01  3.18334132e-09  1.60345452e-07  6.04779657e-08  3.90000000e-01 
 4.00000000e-01  3.33798926e-09  3.19106607e-09  3.67233173e-09  4.58971012e-01  3.31871910e-09  4.58971012e-01  3.18334131e-09  1.60345464e-07  6.04780439e-08  4.00000000e-01 
 4.10000000e-01  3.33798926e-09  3.19106607e-09  3.67233173e-09  4.58971017e-01  3.31871911e-09  4.58971017e-01  3.18334131e-09  1.60345479e-07  6.04779302e-08  4.10000000e-01 
 4.20000000e-01  3.33798920e-09  3.19106607e-09  3.67233167e-09  4.58971015e-01  3.31871911e-09  4.58971015e-01  3.18334131e-09  1.60345460e-07  6.04778023e-08  4.20000000e-01 
 4.30000000e-01  3.33798920e-09  3.19106601e-09  3.67233173e-09  4.58971023e-01  3.31871916e-09  4.58971023e-01  3.18334137e-09  1.60345465e-07  6.04778840e-08  4.30000000e-01 
 4.40000000e-01  3.33798920e-09  3.19106601e-09  3.67233173e-09  4.58970998e-01  3.31871910e-09  4.58970998e-01  3.18334136e-09  1.60345447e-07  6.04776780e-08  4.40000000e-01 
 4.50000000e-01  3.33798926e-09  3.19106601e-09  3.67233167e-09  4.58971025e-01  3.31871911e-09  4.58971025e-01  3.18334132e-09  1.60345473e-07  6.04775572e-08  4.50000000e-01 
 4.60000000e-01  3.33798926e-09  3.19106607e-09  3.67233167e-09  4.58971026e-01  3.31871916e-09  4.58971026e-01  3.18334131e-09  1.60345471e-07  6.04774968e-08  4.60000000e-01 
 4.70000000e-01  3.33798920e-09  3.19106607e-09  3.67233167e-09  4.58971013e-01  3.31871916e-09  4.58971013e-01  3.18334131e-09  1.60345450e-07  6.04775430e-08  4.70000000e-01 
 4.80000000e-01  3.33798926e-09  3.19106607e-09  3.67233173e-09  4.58971020e-01  3.31871911e-09  4.58971020e-01  3.18334137e-09  1.60345462e-07  6.04773902e-08  4.80000000e-01 
 4.90000000e-01  3.33798920e-09  3.19106601e-09  3.67233173e-09  4.58971008e-01  3.31871910e-09  4.58971008e-01  3.18334136e-09  1.60345443e-07  6.04773405e-08  4.90000000e-01 
 5.00000000e-01  3.33798926e-09  3.19106607e-09  3.67233173e-09  4.58971026e-01  3.31871911e-09  4.58971026e-01  3.18334132e-09  1.60345459e-07  6.04772730e-08  5.00000000e-01 
 5.10000000e-01  3.33798926e-09  3.19106601e-09  3.67233167e-09  4.58971030e-01  3.31871911e-09  4.58971030e-01  3.18334131e-09  1.60345466e-07  6.04772552e-08  5.10000000e-01 
 5.20000000e-01  3.33798926e-09  3.19106607e-09  3.67233173e-09  4.58970999e-01  3.31871916e-09  4.58970999e-01  3.18334131e-09  1.60345440e-07  6.04770740e-08  5.20000000e-01 
 5.30000000e-01  3.33798926e-09  3.19106607e-09  3.67233173e-09  4.58971019e-01  3.31871911e-09  4.58971019e-01  3.18334137e-09  1.60345462e-07  6.04770456e-08  5.30000000e-01 
 5.40000000e-01  3.33798926e-09  3.19106607e-09  3.67233167e-09  4.58971013e-01  3.31871910e-09  4.58971013e-01  3.18334136e-09  1.60345447e-07  6.04769141e-08  5.40000000e-01 
 5.50000000e-01  3.33798926e-09  3.19106607e-09  3.67233173e-09  4.58971017e-01  3.31871916e-09  4.58971017e-01  3.18334138e-09  1.60345459e-07  6.04768751e-08  5.50000000e-01 
 5.60000000e-01  3.33798920e-09  3.19106601e-09  3.67233167e-09  4.58971013e-01  3.31871916e-09  4.58971013e-01  3.18334130e-09  1.60345468e-07  6.04768395e-08  5.60000000e-01 
 5.70000000e-01  3.33798926e-09  3.19106601e-09  3.67233167e-09  4.58970999e-01  3.31871910e-09  4.58970999e-01  3.18334138e-09  1.60345430e-07  6.04768005e-08  5.70000000e-01 
 5.80000000e-01  3.33798926e-09  3.19106607e-09  3.67233167e-09  4.58971001e-01  3.31871910e-09  4.58971001e-01  3.18334136e-09  1.60345447e-07  6.04766583e-08  5.80000000e-01 
 5.90000000e-01  3.33798926e-09  3.19106601e-09  3.67233173e-09  4.58970997e-01  3.31871910e-09  4.58970997e-01  3.18334132e-09  1.60345429e-07  6.04765020e-08  5.90000000e-01 
 6.00000000e-01  3.33798926e-09  3.19106601e-09  3.67233173e-09  4.58971031e-01  3.31871916e-09  4.58971031e-01  3.18334131e-09  1.60345481e-07  6.04765518e-08  6.00000000e-01 
 6.10000000e-01  3.33798926e-09  3.19106607e-09  3.67233173e-09  4.58970998e-01  3.31871910e-09  4.58970998e-01  3.18334137e-09  1.60345429e-07  6.04765518e-08  6.10000000e-01 
 6.20000000e-01  3.33798920e-09  3.19106607e-09  3.67233167e-09  4.58971026e-01  3.31871911e-09  4.58971026e-01  3.18334136e-09  1.60345476e-07  6.04764452e-08  6.20000000e-01 
 6.30000000e-01  3.33798926e-09  3.19106601e-09  3.67233167e-09  4.58971023e-01  3.31871916e-09  4.58971023e-01  3.18334138e-09  1.60345476e-07  6.04764594e-08  6.30000000e-01 
 6.40000000e-01  3.33798926e-09  3.19106607e-09  3.67233167e-09  4.58971028e-01  3.31871916e-09  4.58971028e-01  3.18334136e-09  1.60345471e-07  6.04764168e-08  6.40000000e-01 
 6.50000000e-01  3.33798920e-09  3.19106607e-09  3.67233173e-09  4.58970999e-01  3.31871916e-09  4.58970999e-01  3.18334132e-09  1.60345440e-07  6.04763599e-08  6.50000000e-01 
 6.60000000e-01  3.33798926e-09  3.19106601e-09  3.67233173e-09  4.58971017e-01  3.31871911e-09  4.58971017e-01  3.18334137e-09  1.60345451e-07  6.04762604e-08  6.60000000e-01 
 6.70000000e-01  3.33798926e-09  3.19106607e-09  3.67233173e-09  4.58971025e-01  3.31871911e-09  4.58971025e-01  3.18334130e-09  1.60345471e-07  6.04763315e-08  6.70000000e-01 
 6.80000000e-01  3.33798926e-09  3.19106607e-09  3.67233173e-09  4.58971005e-01  3.31871910e-09  4.58971005e-01  3.18334138e-09  1.60345440e-07  6.04760757e-08  6.80000000e-01 
 6.90000000e-01  3.33798926e-09  3.19106601e-09  3.67233173e-09  4.58971019e-01  3.31871911e-09  4.58971019e-01  3.18334136e-09  1.60345470e-07  6.04760686e-08  6.90000000e-01 
 7.00000000e-01  3.33798926e-09  3.19106601e-09  3.67233173e-09  4.58971015e-01  3.31871911e-09  4.58971015e-01  3.18334132e-09  1.60345457e-07  6.04759123e-08  7.00000000e-01 
 7.10000000e-01  3.33798926e-09  3.19106601e-09  3.67233173e-09  4.58971042e-01  3.31871911e-09  4.58971042e-01  3.18334131e-09  1.60345493e-07  6.04759762e-08  7.10000000e-01 
 7.20000000e-01  3.33798926e-09  3.19106607e-09  3.67233173e-09  4.58971018e-01  3.31871911e-09  4.58971018e-01  3.18334131e-09  1.60345462e-07  6.04759265e-08  7.20000000e-01 
 7.30000000e-01  3.33798920e-09  3.19106607e-09  3.67233173e-09  4.58971008e-01  3.31871910e-09  4.58971008e-01  3.18334131e-09  1.60345448e-07  6.04758128e-08  7.30000000e-01 
 7.40000000e-01  3.33798926e-09  3.19106601e-09  3.67233167e-09  4.58971032e-01  3.31871911e-09  4.58971032e-01  3.18334137e-09  1.60345488e-07  6.04757489e-08  7.40000000e-01 
 7.50000000e-01  3.33798926e-09  3.19106601e-09  3.67233173e-09  4.58971026e-01  3.31871916e-09  4.58971026e-01  3.18334136e-09  1.60345479e-07  6.04756778e-08  7.50000000e-01 
 7.60000000e-01  3.33798920e-09  3.19106601e-09  3.67233173e-09  4.58971019e-01  3.31871911e-09  4.58971019e-01  3.18334138e-09  1.60345465e-07  6.04756139e-08  7.60000000e-01 
 7.70000000e-01  3.33798926e-09  3.19106607e-09  3.67233167e-09  4.58971029e-01  3.31871911e-09  4.58971029e-01  3.18334136e-09  1.60345478e-07  6.04755499e-08  7.70000000e-01 
 7.80000000e-01  3.33798920e-09  3.19106601e-09  3.67233173e-09  4.58971025e-01  3.31871911e-09  4.58971025e-01  3.18334138e-09  1.60345466e-07  6.04755002e-08  7.80000000e-01 
 7.90000000e-01  3.33798920e-09  3.19106601e-09  3.67233173e-09  4.58971024e-01  3.31871911e-09  4.58971024e-01  3.18334130e-09  1.60345473e-07  6.04754575e-08  7.90000000e-01 
 8.00000000e-01  3.33798920e-09  3.19106601e-09  3.67233173e-09  4.58971023e-01  3.31871911e-09  4.58971023e-01  3.18334132e-09  1.60345457e-07  6.04753367e-08  8.00000000e-01 
 8.10000000e-01  3.33798920e-09  3.19106601e-09  3.67233167e-09  4.58971010e-01  3.31871916e-09  4.58971010e-01  3.18334131e-09  1.60345443e-07  6.04753225e-08  8.10000000e-01 
 8.20000000e-01  3.33798926e-09  3.19106601e-09  3.67233167e-09  4.58971026e-01  3.31871911e-09  4.58971026e-01  3.18334137e-09  1.60345467e-07  6.04753652e-08  8.20000000e-01 
 8.30000000e-01  3.33798926e-09  3.19106607e-09  3.67233173e-09  4.58971016e-01  3.31871911e-09  4.58971016e-01  3.18334130e-09  1.60345456e-07  6.04751804e-08  8.30000000e-01 
 8.40000000e-01  3.33798926e-09  3.19106601e-09  3.67233167e-09  4.58971011e-01  3.31871910e-09  4.58971011e-01  3.18334132e-09  1.60345458e-07  6.04750880e-08  8.40000000e-01 
 8.50000000e-01  3.33798920e-09  3.19106607e-09  3.67233167e-09  4.58970991e-01  3.31871910e-09  4.58970991e-01  3.18334137e-09  1.60345424e-07  6.04750383e-08  8.50000000e-01 
 8.60000000e-01  3.33798920e-09  3.19106607e-09  3.67233173e-09  4.58971040e-01  3.31871916e-09  4.58971040e-01  3.18334130e-09  1.60345497e-07  6.04750028e-08  8.60000000e-01 
 8.70000000e-01  3.33798920e-09  3.19106607e-09  3.67233173e-09  4.58971019e-01  3.31871911e-09  4.58971019e-01  3.18334132e-09  1.60345453e-07  6.04749388e-08  8.70000000e-01 
 8.80000000e-01  3.33798926e-09  3.19106607e-09  3.67233167e-09  4.58971021e-01  3.31871916e-09  4.58971021e-01  3.18334131e-09  1.60345473e-07  6.04747754e-08  8.80000000e-01 
 8.90000000e-01  3.33798926e-09  3.19106607e-09  3.67233173e-09  4.58971015e-01  3.31871911e-09  4.58971015e-01  3.18334131e-09  1.60345460e-07  6.04748251e-08  8.90000000e-01 
 9.00000000e-01  3.33798920e-09  3.19106607e-09  3.67233173e-09  4.58971003e-01  3.31871910e-09  4.58971003e-01  3.18334137e-09  1.60345436e-07  6.04747896e-08  9.00000000e-01 
 9.10000000e-01  3.33798926e-09  3.19106607e-09  3.67233167e-09  4.58971020e-01  3.31871911e-09  4.58971020e-01  3.18334136e-09  1.60345478e-07  6.04747257e-08  9.10000000e-01 
 9.20000000e-01  3.33798920e-09  3.19106607e-09  3.67233173e-09  4.58971023e-01  3.31871911e-09  4.58971023e-01  3.18334132e-09  1.60345453e-07  6.04744628e-08  9.20000000e-01 
 9.30000000e-01  3.33798926e-09  3.19106601e-09  3.67233173e-09  4.58970992e-01  3.31871910e-09  4.58970992e-01  3.18334137e-09  1.60345427e-07  6.04745694e-08  9.30000000e-01 
 9.40000000e-01  3.33798926e-09  3.19106607e-09  3.67233173e-09  4.58971031e-01  3.31871911e-09  4.58971031e-01  3.18334130e-09  1.60345490e-07  6.04744201e-08  9.40000000e-01 
 9.50000000e-01  3.33798926e-09  3.19106601e-09  3.67233167e-09  4.58971013e-01  3.31871916e-09  4.58971013e-01  3.18334138e-09  1.60345469e-07  6.04743633e-08  9.50000000e-01 
 9.60000000e-01  3.33798926e-09  3.19106601e-09  3.67233173e-09  4.58971044e-01  3.31871911e-09  4.58971044e-01  3.18334136e-09  1.60345492e-07  6.04743988e-08  9.60000000e-01 
 9.70000000e-01  3.33798926e-09  3.19106601e-09  3.67233173e-09  4.58971017e-01  3.31871911e-09  4.58971017e-01  3.18334132e-09  1.60345459e-07  6.04742922e-08  9.70000000e-01 
 9.80000000e-01  3.33798926e-09  3.19106601e-09  3.67233167e-09  4.58971022e-01  3.31871916e-09  4.58971022e-01  3.18334137e-09  1.60345472e-07  6.04742425e-08  9.80000000e-01 
 9.90000000e-01  3.33798926e-09  3.19106601e-09  3.67233167e-09  4.58971007e-01  3.31871910e-09  4.58971007e-01  3.18334130e-09  1.60345444e-07  6.04741146e-08  9.90000000e-01 
 1.00000000e+00  3.33798926e-09  3.19106601e-09  3.67233173e-09  4.58971022e-01  3.31871911e-09  4.58971022e-01  3.18334138e-09  1.60345472e-07  6.04740507e-08  1.00000000e+00 
 1.01000000e+00  3.33798926e-09  3.19106601e-09  3.67233173e-09  4.58970986e-01  3.31871916e-09  4.58970986e-01  3.18334130e-09  1.60345405e-07  6.04740293e-08  1.01000000e+00 
 1.02000000e+00  3.33798920e-09  3.19106607e-09  3.67233167e-09  4.58971011e-01  3.31871910e-09  4.58971011e-01  3.18334138e-09  1.60345439e-07  6.04739583e-08  1.02000000e+00 
 1.03000000e+00  3.33798926e-09  3.19106607e-09  3.67233173e-09  4.58971016e-01  3.31871911e-09  4.58971016e-01  3.18334136e-09  1.60345462e-07  6.04737522e-08  1.03000000e+00 
 1.04000000e+00  3.33798920e-09  3.19106607e-09  3.67233173e-09  4.58971002e-01  3.31871910e-09  4.58971002e-01  3.18334138e-09  1.60345437e-07  6.04738375e-08  1.04000000e+00 
 1.05000000e+00  3.33798926e-09  3.19106601e-09  3.67233167e-09  4.58971002e-01  3.31871910e-09  4.58971002e-01  3.18334136e-09  1.60345442e-07  6.04736172e-08  1.05000000e+00 
 1.06000000e+00  3.33798920e-09  3.19106601e-09  3.67233173e-09  4.58971025e-01  3.31871916e-09  4.58971025e-01  3.18334132e-09  1.60345469e-07  6.04735533e-08  1.06000000e+00 
 1.07000000e+00  3.33798926e-09  3.19106607e-09  3.67233167e-09  4.58971009e-01  3.31871910e-09  4.58971009e-01  3.18334131e-09  1.60345440e-07  6.04736101e-08  1.07000000e+00 
 1.08000000e+00  3.33798926e-09  3.19106601e-09  3.67233167e-09  4.58971011e-01  3.31871910e-09  4.58971011e-01  3.18334137e-09  1.60345454e-07  6.04733543e-08  1.08000000e+00 
 1.09000000e+00  3.33798920e-09  3.19106601e-09  3.67233173e-09  4.58971024e-01  3.31871911e-09  4.58971024e-01  3.18334130e-09  1.60345459e-07  6.04735106e-08  1.09000000e+00 
 1.10000000e+00  3.33798926e-09  3.19106601e-09  3.67233173e-09  4.58971017e-01  3.31871911e-09  4.58971017e-01  3.18334132e-09  1.60345459e-07  6.04732904e-08  1.10000000e+00 
