 v-sweep         v(b0)           v(b1)           v(b2)           v(b3)           v(b4)           v(b5)           v(b6)           i(vbias)        i(viout)        v(vout)        
 0.00000000e+00  4.58820396e-01  3.35346104e-09  4.58820397e-01  4.58820396e-01  3.46940179e-09  3.45431920e-09  3.36638564e-09  1.62378310e-07  2.07815180e-08  0.00000000e+00 
 1.00000000e-02  4.58820403e-01  3.35346101e-09  4.58820403e-01  4.58820403e-01  3.46940183e-09  3.45431923e-09  3.36638573e-09  1.62378332e-07  2.07811560e-08  1.00000000e-02 
 2.00000000e-02  4.58820409e-01  3.35346101e-09  4.58820409e-01  4.58820408e-01  3.46940187e-09  3.45431917e-09  3.36638567e-09  1.62378328e-07  2.07808439e-08  2.00000000e-02 
 3.00000000e-02  4.58820403e-01  3.35346101e-09  4.58820403e-01  4.58820403e-01  3.46940182e-09  3.45431923e-09  3.36638567e-09  1.62378316e-07  2.07803494e-08  3.00000000e-02 
 4.00000000e-02  4.58820394e-01  3.35346101e-09  4.58820394e-01  4.58820394e-01  3.46940182e-09  3.45431917e-09  3.36638567e-09  1.62378305e-07  2.07801083e-08  4.00000000e-02 
 5.00000000e-02  4.58820412e-01  3.35346101e-09  4.58820412e-01  4.58820411e-01  3.46940182e-09  3.45431918e-09  3.36638573e-09  1.62378333e-07  2.07796926e-08  5.00000000e-02 
 6.00000000e-02  4.58820411e-01  3.35346101e-09  4.58820412e-01  4.58820411e-01  3.46940182e-09  3.45431923e-09  3.36638567e-09  1.62378342e-07  2.07794701e-08  6.00000000e-02 
 7.00000000e-02  4.58820407e-01  3.35346101e-09  4.58820408e-01  4.58820407e-01  3.46940182e-09  3.45431923e-09  3.36638573e-09  1.62378332e-07  2.07791477e-08  7.00000000e-02 
 8.00000000e-02  4.58820392e-01  3.35346101e-09  4.58820392e-01  4.58820392e-01  3.46940188e-09  3.45431923e-09  3.36638573e-09  1.62378306e-07  2.07788036e-08  8.00000000e-02 
 9.00000000e-02  4.58820425e-01  3.35346101e-09  4.58820425e-01  4.58820425e-01  3.46940188e-09  3.45431918e-09  3.36638567e-09  1.62378349e-07  2.07786233e-08  9.00000000e-02 
 1.00000000e-01  4.58820410e-01  3.35346101e-09  4.58820411e-01  4.58820410e-01  3.46940182e-09  3.45431923e-09  3.36638567e-09  1.62378340e-07  2.07783870e-08  1.00000000e-01 
 1.10000000e-01  4.58820430e-01  3.35346101e-09  4.58820430e-01  4.58820430e-01  3.46940182e-09  3.45431918e-09  3.36638573e-09  1.62378365e-07  2.07779776e-08  1.10000000e-01 
 1.20000000e-01  4.58820414e-01  3.35346101e-09  4.58820414e-01  4.58820414e-01  3.46940182e-09  3.45431923e-09  3.36638567e-09  1.62378349e-07  2.07780007e-08  1.20000000e-01 
 1.30000000e-01  4.58820421e-01  3.35346101e-09  4.58820421e-01  4.58820421e-01  3.46940182e-09  3.45431923e-09  3.36638567e-09  1.62378360e-07  2.07776365e-08  1.30000000e-01 
 1.40000000e-01  4.58820402e-01  3.35346101e-09  4.58820402e-01  4.58820402e-01  3.46940182e-09  3.45431917e-09  3.36638573e-09  1.62378330e-07  2.07774713e-08  1.40000000e-01 
 1.50000000e-01  4.58820397e-01  3.35346101e-09  4.58820397e-01  4.58820397e-01  3.46940182e-09  3.45431917e-09  3.36638573e-09  1.62378313e-07  2.07772821e-08  1.50000000e-01 
 1.60000000e-01  4.58820405e-01  3.35346101e-09  4.58820405e-01  4.58820405e-01  3.46940182e-09  3.45431923e-09  3.36638567e-09  1.62378313e-07  2.07771418e-08  1.60000000e-01 
 1.70000000e-01  4.58820407e-01  3.35346101e-09  4.58820407e-01  4.58820407e-01  3.46940182e-09  3.45431923e-09  3.36638567e-09  1.62378325e-07  2.07768949e-08  1.70000000e-01 
 1.80000000e-01  4.58820429e-01  3.35346101e-09  4.58820430e-01  4.58820429e-01  3.46940182e-09  3.45431918e-09  3.36638567e-09  1.62378357e-07  2.07766853e-08  1.80000000e-01 
 1.90000000e-01  4.58820425e-01  3.35346101e-09  4.58820425e-01  4.58820425e-01  3.46940182e-09  3.45431923e-09  3.36638573e-09  1.62378372e-07  2.07765680e-08  1.90000000e-01 
 2.00000000e-01  4.58820405e-01  3.35346101e-09  4.58820405e-01  4.58820405e-01  3.46940188e-09  3.45431923e-09  3.36638567e-09  1.62378325e-07  2.07764845e-08  2.00000000e-01 
 2.10000000e-01  4.58820386e-01  3.35346101e-09  4.58820386e-01  4.58820386e-01  3.46940182e-09  3.45431917e-09  3.36638573e-09  1.62378289e-07  2.07762323e-08  2.10000000e-01 
 2.20000000e-01  4.58820418e-01  3.35346101e-09  4.58820418e-01  4.58820418e-01  3.46940188e-09  3.45431923e-09  3.36638567e-09  1.62378343e-07  2.07761186e-08  2.20000000e-01 
 2.30000000e-01  4.58820411e-01  3.35346101e-09  4.58820411e-01  4.58820411e-01  3.46940182e-09  3.45431923e-09  3.36638573e-09  1.62378329e-07  2.07759605e-08  2.30000000e-01 
 2.40000000e-01  4.58820419e-01  3.35346101e-09  4.58820419e-01  4.58820419e-01  3.46940182e-09  3.45431923e-09  3.36638573e-09  1.62378345e-07  2.07759943e-08  2.40000000e-01 
 2.50000000e-01  4.58820426e-01  3.35346101e-09  4.58820427e-01  4.58820426e-01  3.46940188e-09  3.45431918e-09  3.36638567e-09  1.62378359e-07  2.07757278e-08  2.50000000e-01 
 2.60000000e-01  4.58820399e-01  3.35346101e-09  4.58820399e-01  4.58820399e-01  3.46940182e-09  3.45431917e-09  3.36638567e-09  1.62378327e-07  2.07755964e-08  2.60000000e-01 
 2.70000000e-01  4.58820419e-01  3.35346101e-09  4.58820419e-01  4.58820419e-01  3.46940182e-09  3.45431923e-09  3.36638573e-09  1.62378348e-07  2.07754827e-08  2.70000000e-01 
 2.80000000e-01  4.58820409e-01  3.35346101e-09  4.58820409e-01  4.58820409e-01  3.46940182e-09  3.45431917e-09  3.36638573e-09  1.62378332e-07  2.07753992e-08  2.80000000e-01 
 2.90000000e-01  4.58820403e-01  3.35346101e-09  4.58820403e-01  4.58820403e-01  3.46940182e-09  3.45431923e-09  3.36638573e-09  1.62378320e-07  2.07752819e-08  2.90000000e-01 
 3.00000000e-01  4.58820399e-01  3.35346101e-09  4.58820400e-01  4.58820399e-01  3.46940182e-09  3.45431917e-09  3.36638573e-09  1.62378328e-07  2.07751505e-08  3.00000000e-01 
 3.10000000e-01  4.58820412e-01  3.35346101e-09  4.58820412e-01  4.58820412e-01  3.46940182e-09  3.45431923e-09  3.36638567e-09  1.62378336e-07  2.07752251e-08  3.10000000e-01 
 3.20000000e-01  4.58820398e-01  3.35346101e-09  4.58820398e-01  4.58820398e-01  3.46940182e-09  3.45431917e-09  3.36638573e-09  1.62378325e-07  2.07749231e-08  3.20000000e-01 
 3.30000000e-01  4.58820420e-01  3.35346101e-09  4.58820420e-01  4.58820420e-01  3.46940182e-09  3.45431923e-09  3.36638573e-09  1.62378349e-07  2.07748592e-08  3.30000000e-01 
 3.40000000e-01  4.58820416e-01  3.35346101e-09  4.58820416e-01  4.58820416e-01  3.46940182e-09  3.45431918e-09  3.36638573e-09  1.62378348e-07  2.07748094e-08  3.40000000e-01 
 3.50000000e-01  4.58820423e-01  3.35346101e-09  4.58820424e-01  4.58820423e-01  3.46940182e-09  3.45431918e-09  3.36638573e-09  1.62378356e-07  2.07746993e-08  3.50000000e-01 
 3.60000000e-01  4.58820409e-01  3.35346101e-09  4.58820409e-01  4.58820409e-01  3.46940182e-09  3.45431923e-09  3.36638573e-09  1.62378321e-07  2.07745359e-08  3.60000000e-01 
 3.70000000e-01  4.58820426e-01  3.35346101e-09  4.58820426e-01  4.58820426e-01  3.46940188e-09  3.45431918e-09  3.36638567e-09  1.62378346e-07  2.07745749e-08  3.70000000e-01 
 3.80000000e-01  4.58820405e-01  3.35346101e-09  4.58820405e-01  4.58820405e-01  3.46940182e-09  3.45431923e-09  3.36638573e-09  1.62378333e-07  2.07745146e-08  3.80000000e-01 
 3.90000000e-01  4.58820420e-01  3.35346101e-09  4.58820420e-01  4.58820420e-01  3.46940182e-09  3.45431918e-09  3.36638567e-09  1.62378349e-07  2.07744186e-08  3.90000000e-01 
 4.00000000e-01  4.58820395e-01  3.35346101e-09  4.58820395e-01  4.58820395e-01  3.46940182e-09  3.45431917e-09  3.36638573e-09  1.62378313e-07  2.07743334e-08  4.00000000e-01 
 4.10000000e-01  4.58820416e-01  3.35346107e-09  4.58820416e-01  4.58820416e-01  3.46940182e-09  3.45431918e-09  3.36638567e-09  1.62378345e-07  2.07742730e-08  4.10000000e-01 
 4.20000000e-01  4.58820414e-01  3.35346101e-09  4.58820414e-01  4.58820414e-01  3.46940182e-09  3.45431923e-09  3.36638573e-09  1.62378353e-07  2.07742445e-08  4.20000000e-01 
 4.30000000e-01  4.58820406e-01  3.35346101e-09  4.58820406e-01  4.58820406e-01  3.46940188e-09  3.45431917e-09  3.36638567e-09  1.62378326e-07  2.07741806e-08  4.30000000e-01 
 4.40000000e-01  4.58820395e-01  3.35346101e-09  4.58820396e-01  4.58820395e-01  3.46940182e-09  3.45431917e-09  3.36638567e-09  1.62378315e-07  2.07739888e-08  4.40000000e-01 
 4.50000000e-01  4.58820406e-01  3.35346101e-09  4.58820406e-01  4.58820406e-01  3.46940182e-09  3.45431923e-09  3.36638573e-09  1.62378323e-07  2.07740030e-08  4.50000000e-01 
 4.60000000e-01  4.58820413e-01  3.35346101e-09  4.58820413e-01  4.58820413e-01  3.46940182e-09  3.45431923e-09  3.36638573e-09  1.62378338e-07  2.07739177e-08  4.60000000e-01 
 4.70000000e-01  4.58820411e-01  3.35346101e-09  4.58820411e-01  4.58820411e-01  3.46940182e-09  3.45431923e-09  3.36638567e-09  1.62378327e-07  2.07737969e-08  4.70000000e-01 
 4.80000000e-01  4.58820408e-01  3.35346101e-09  4.58820408e-01  4.58820408e-01  3.46940182e-09  3.45431917e-09  3.36638573e-09  1.62378330e-07  2.07737294e-08  4.80000000e-01 
 4.90000000e-01  4.58820421e-01  3.35346101e-09  4.58820421e-01  4.58820421e-01  3.46940182e-09  3.45431923e-09  3.36638573e-09  1.62378336e-07  2.07738751e-08  4.90000000e-01 
 5.00000000e-01  4.58820423e-01  3.35346101e-09  4.58820423e-01  4.58820423e-01  3.46940182e-09  3.45431918e-09  3.36638573e-09  1.62378359e-07  2.07737685e-08  5.00000000e-01 
 5.10000000e-01  4.58820422e-01  3.35346101e-09  4.58820422e-01  4.58820422e-01  3.46940182e-09  3.45431918e-09  3.36638567e-09  1.62378340e-07  2.07735908e-08  5.10000000e-01 
 5.20000000e-01  4.58820406e-01  3.35346101e-09  4.58820406e-01  4.58820406e-01  3.46940182e-09  3.45431917e-09  3.36638573e-09  1.62378323e-07  2.07736690e-08  5.20000000e-01 
 5.30000000e-01  4.58820417e-01  3.35346101e-09  4.58820417e-01  4.58820417e-01  3.46940182e-09  3.45431918e-09  3.36638567e-09  1.62378339e-07  2.07735233e-08  5.30000000e-01 
 5.40000000e-01  4.58820392e-01  3.35346101e-09  4.58820393e-01  4.58820392e-01  3.46940182e-09  3.45431917e-09  3.36638573e-09  1.62378299e-07  2.07734345e-08  5.40000000e-01 
 5.50000000e-01  4.58820401e-01  3.35346101e-09  4.58820401e-01  4.58820401e-01  3.46940182e-09  3.45431917e-09  3.36638573e-09  1.62378320e-07  2.07733635e-08  5.50000000e-01 
 5.60000000e-01  4.58820427e-01  3.35346101e-09  4.58820427e-01  4.58820427e-01  3.46940182e-09  3.45431918e-09  3.36638567e-09  1.62378360e-07  2.07734132e-08  5.60000000e-01 
 5.70000000e-01  4.58820437e-01  3.35346101e-09  4.58820437e-01  4.58820437e-01  3.46940182e-09  3.45431918e-09  3.36638567e-09  1.62378382e-07  2.07733777e-08  5.70000000e-01 
 5.80000000e-01  4.58820419e-01  3.35346101e-09  4.58820419e-01  4.58820419e-01  3.46940182e-09  3.45431918e-09  3.36638573e-09  1.62378365e-07  2.07731219e-08  5.80000000e-01 
 5.90000000e-01  4.58820386e-01  3.35346101e-09  4.58820387e-01  4.58820386e-01  3.46940182e-09  3.45431923e-09  3.36638573e-09  1.62378295e-07  2.07732072e-08  5.90000000e-01 
 6.00000000e-01  4.58820395e-01  3.35346101e-09  4.58820395e-01  4.58820395e-01  3.46940182e-09  3.45431923e-09  3.36638567e-09  1.62378310e-07  2.07730508e-08  6.00000000e-01 
 6.10000000e-01  4.58820421e-01  3.35346101e-09  4.58820422e-01  4.58820421e-01  3.46940182e-09  3.45431918e-09  3.36638573e-09  1.62378341e-07  2.07731503e-08  6.10000000e-01 
 6.20000000e-01  4.58820407e-01  3.35346101e-09  4.58820407e-01  4.58820407e-01  3.46940182e-09  3.45431917e-09  3.36638573e-09  1.62378340e-07  2.07730935e-08  6.20000000e-01 
 6.30000000e-01  4.58820408e-01  3.35346101e-09  4.58820408e-01  4.58820408e-01  3.46940182e-09  3.45431917e-09  3.36638567e-09  1.62378329e-07  2.07730295e-08  6.30000000e-01 
 6.40000000e-01  4.58820407e-01  3.35346101e-09  4.58820407e-01  4.58820407e-01  3.46940188e-09  3.45431917e-09  3.36638573e-09  1.62378325e-07  2.07729727e-08  6.40000000e-01 
 6.50000000e-01  4.58820412e-01  3.35346101e-09  4.58820412e-01  4.58820412e-01  3.46940182e-09  3.45431918e-09  3.36638567e-09  1.62378335e-07  2.07729300e-08  6.50000000e-01 
 6.60000000e-01  4.58820405e-01  3.35346101e-09  4.58820406e-01  4.58820405e-01  3.46940182e-09  3.45431923e-09  3.36638573e-09  1.62378323e-07  2.07728093e-08  6.60000000e-01 
 6.70000000e-01  4.58820397e-01  3.35346101e-09  4.58820397e-01  4.58820397e-01  3.46940182e-09  3.45431917e-09  3.36638573e-09  1.62378313e-07  2.07727879e-08  6.70000000e-01 
 6.80000000e-01  4.58820409e-01  3.35346101e-09  4.58820409e-01  4.58820409e-01  3.46940182e-09  3.45431923e-09  3.36638567e-09  1.62378328e-07  2.07726956e-08  6.80000000e-01 
 6.90000000e-01  4.58820414e-01  3.35346101e-09  4.58820414e-01  4.58820414e-01  3.46940182e-09  3.45431918e-09  3.36638567e-09  1.62378334e-07  2.07727666e-08  6.90000000e-01 
 7.00000000e-01  4.58820399e-01  3.35346101e-09  4.58820399e-01  4.58820399e-01  3.46940188e-09  3.45431923e-09  3.36638573e-09  1.62378322e-07  2.07725961e-08  7.00000000e-01 
 7.10000000e-01  4.58820417e-01  3.35346101e-09  4.58820417e-01  4.58820417e-01  3.46940182e-09  3.45431918e-09  3.36638567e-09  1.62378330e-07  2.07725250e-08  7.10000000e-01 
 7.20000000e-01  4.58820429e-01  3.35346101e-09  4.58820429e-01  4.58820429e-01  3.46940182e-09  3.45431918e-09  3.36638573e-09  1.62378374e-07  2.07725961e-08  7.20000000e-01 
 7.30000000e-01  4.58820401e-01  3.35346101e-09  4.58820401e-01  4.58820401e-01  3.46940182e-09  3.45431917e-09  3.36638573e-09  1.62378323e-07  2.07724540e-08  7.30000000e-01 
 7.40000000e-01  4.58820410e-01  3.35346101e-09  4.58820411e-01  4.58820410e-01  3.46940182e-09  3.45431918e-09  3.36638573e-09  1.62378328e-07  2.07723403e-08  7.40000000e-01 
 7.50000000e-01  4.58820402e-01  3.35346101e-09  4.58820402e-01  4.58820402e-01  3.46940182e-09  3.45431917e-09  3.36638567e-09  1.62378314e-07  2.07724895e-08  7.50000000e-01 
 7.60000000e-01  4.58820396e-01  3.35346101e-09  4.58820396e-01  4.58820396e-01  3.46940182e-09  3.45431923e-09  3.36638567e-09  1.62378303e-07  2.07723687e-08  7.60000000e-01 
 7.70000000e-01  4.58820397e-01  3.35346101e-09  4.58820397e-01  4.58820397e-01  3.46940188e-09  3.45431923e-09  3.36638573e-09  1.62378318e-07  2.07722550e-08  7.70000000e-01 
 7.80000000e-01  4.58820407e-01  3.35346101e-09  4.58820407e-01  4.58820407e-01  3.46940182e-09  3.45431923e-09  3.36638567e-09  1.62378329e-07  2.07722266e-08  7.80000000e-01 
 7.90000000e-01  4.58820410e-01  3.35346101e-09  4.58820410e-01  4.58820410e-01  3.46940182e-09  3.45431918e-09  3.36638567e-09  1.62378335e-07  2.07721484e-08  7.90000000e-01 
 8.00000000e-01  4.58820416e-01  3.35346101e-09  4.58820416e-01  4.58820416e-01  3.46940182e-09  3.45431918e-09  3.36638573e-09  1.62378342e-07  2.07721129e-08  8.00000000e-01 
 8.10000000e-01  4.58820413e-01  3.35346101e-09  4.58820413e-01  4.58820413e-01  3.46940182e-09  3.45431918e-09  3.36638573e-09  1.62378344e-07  2.07720490e-08  8.10000000e-01 
 8.20000000e-01  4.58820414e-01  3.35346101e-09  4.58820415e-01  4.58820414e-01  3.46940182e-09  3.45431923e-09  3.36638573e-09  1.62378346e-07  2.07719992e-08  8.20000000e-01 
 8.30000000e-01  4.58820415e-01  3.35346101e-09  4.58820415e-01  4.58820415e-01  3.46940182e-09  3.45431923e-09  3.36638567e-09  1.62378336e-07  2.07719282e-08  8.30000000e-01 
 8.40000000e-01  4.58820411e-01  3.35346101e-09  4.58820411e-01  4.58820411e-01  3.46940182e-09  3.45431918e-09  3.36638573e-09  1.62378334e-07  2.07719353e-08  8.40000000e-01 
 8.50000000e-01  4.58820404e-01  3.35346101e-09  4.58820404e-01  4.58820404e-01  3.46940182e-09  3.45431917e-09  3.36638567e-09  1.62378318e-07  2.07718784e-08  8.50000000e-01 
 8.60000000e-01  4.58820427e-01  3.35346101e-09  4.58820427e-01  4.58820426e-01  3.46940182e-09  3.45431923e-09  3.36638567e-09  1.62378352e-07  2.07717861e-08  8.60000000e-01 
 8.70000000e-01  4.58820432e-01  3.35346101e-09  4.58820432e-01  4.58820432e-01  3.46940182e-09  3.45431918e-09  3.36638567e-09  1.62378366e-07  2.07717576e-08  8.70000000e-01 
 8.80000000e-01  4.58820411e-01  3.35346101e-09  4.58820411e-01  4.58820411e-01  3.46940182e-09  3.45431923e-09  3.36638573e-09  1.62378339e-07  2.07717079e-08  8.80000000e-01 
 8.90000000e-01  4.58820403e-01  3.35346101e-09  4.58820403e-01  4.58820403e-01  3.46940182e-09  3.45431923e-09  3.36638573e-09  1.62378334e-07  2.07716724e-08  8.90000000e-01 
 9.00000000e-01  4.58820425e-01  3.35346101e-09  4.58820425e-01  4.58820425e-01  3.46940188e-09  3.45431923e-09  3.36638573e-09  1.62378361e-07  2.07716226e-08  9.00000000e-01 
 9.10000000e-01  4.58820422e-01  3.35346101e-09  4.58820422e-01  4.58820422e-01  3.46940182e-09  3.45431923e-09  3.36638567e-09  1.62378361e-07  2.07715374e-08  9.10000000e-01 
 9.20000000e-01  4.58820409e-01  3.35346101e-09  4.58820409e-01  4.58820409e-01  3.46940182e-09  3.45431917e-09  3.36638573e-09  1.62378331e-07  2.07713597e-08  9.20000000e-01 
 9.30000000e-01  4.58820413e-01  3.35346101e-09  4.58820413e-01  4.58820413e-01  3.46940182e-09  3.45431918e-09  3.36638567e-09  1.62378334e-07  2.07714876e-08  9.30000000e-01 
 9.40000000e-01  4.58820414e-01  3.35346101e-09  4.58820414e-01  4.58820414e-01  3.46940182e-09  3.45431923e-09  3.36638573e-09  1.62378350e-07  2.07712745e-08  9.40000000e-01 
 9.50000000e-01  4.58820413e-01  3.35346101e-09  4.58820413e-01  4.58820412e-01  3.46940182e-09  3.45431918e-09  3.36638567e-09  1.62378335e-07  2.07713953e-08  9.50000000e-01 
 9.60000000e-01  4.58820426e-01  3.35346107e-09  4.58820426e-01  4.58820426e-01  3.46940182e-09  3.45431918e-09  3.36638567e-09  1.62378348e-07  2.07712176e-08  9.60000000e-01 
 9.70000000e-01  4.58820407e-01  3.35346101e-09  4.58820407e-01  4.58820407e-01  3.46940182e-09  3.45431923e-09  3.36638567e-09  1.62378335e-07  2.07711963e-08  9.70000000e-01 
 9.80000000e-01  4.58820417e-01  3.35346101e-09  4.58820417e-01  4.58820417e-01  3.46940182e-09  3.45431918e-09  3.36638567e-09  1.62378346e-07  2.07711537e-08  9.80000000e-01 
 9.90000000e-01  4.58820426e-01  3.35346101e-09  4.58820426e-01  4.58820426e-01  3.46940182e-09  3.45431923e-09  3.36638573e-09  1.62378358e-07  2.07710897e-08  9.90000000e-01 
 1.00000000e+00  4.58820417e-01  3.35346101e-09  4.58820418e-01  4.58820417e-01  3.46940182e-09  3.45431923e-09  3.36638573e-09  1.62378351e-07  2.07710116e-08  1.00000000e+00 
 1.01000000e+00  4.58820420e-01  3.35346101e-09  4.58820420e-01  4.58820420e-01  3.46940182e-09  3.45431918e-09  3.36638567e-09  1.62378340e-07  2.07710542e-08  1.01000000e+00 
 1.02000000e+00  4.58820395e-01  3.35346101e-09  4.58820395e-01  4.58820395e-01  3.46940182e-09  3.45431917e-09  3.36638573e-09  1.62378315e-07  2.07709547e-08  1.02000000e+00 
 1.03000000e+00  4.58820397e-01  3.35346101e-09  4.58820398e-01  4.58820397e-01  3.46940188e-09  3.45431917e-09  3.36638567e-09  1.62378308e-07  2.07708268e-08  1.03000000e+00 
 1.04000000e+00  4.58820411e-01  3.35346101e-09  4.58820411e-01  4.58820411e-01  3.46940182e-09  3.45431923e-09  3.36638567e-09  1.62378344e-07  2.07707131e-08  1.04000000e+00 
 1.05000000e+00  4.58820406e-01  3.35346101e-09  4.58820406e-01  4.58820406e-01  3.46940182e-09  3.45431923e-09  3.36638573e-09  1.62378319e-07  2.07708410e-08  1.05000000e+00 
 1.06000000e+00  4.58820416e-01  3.35346101e-09  4.58820416e-01  4.58820416e-01  3.46940182e-09  3.45431923e-09  3.36638573e-09  1.62378340e-07  2.07707842e-08  1.06000000e+00 
 1.07000000e+00  4.58820424e-01  3.35346101e-09  4.58820425e-01  4.58820424e-01  3.46940182e-09  3.45431918e-09  3.36638573e-09  1.62378357e-07  2.07707131e-08  1.07000000e+00 
 1.08000000e+00  4.58820428e-01  3.35346107e-09  4.58820428e-01  4.58820427e-01  3.46940182e-09  3.45431918e-09  3.36638567e-09  1.62378372e-07  2.07705995e-08  1.08000000e+00 
 1.09000000e+00  4.58820417e-01  3.35346101e-09  4.58820417e-01  4.58820417e-01  3.46940182e-09  3.45431918e-09  3.36638573e-09  1.62378346e-07  2.07706563e-08  1.09000000e+00 
 1.10000000e+00  4.58820420e-01  3.35346101e-09  4.58820420e-01  4.58820420e-01  3.46940182e-09  3.45431918e-09  3.36638573e-09  1.62378343e-07  2.07704574e-08  1.10000000e+00 
