 v-sweep         v(b0)           v(b1)           v(b2)           v(b3)           v(b4)           v(b5)           v(b6)           i(vbias)        i(viout)        v(vout)        
 0.00000000e+00  3.51711121e-09  3.20313188e-09  3.35784313e-09  3.29270744e-09  4.56142004e-01  4.56142004e-01  4.56142004e-01  1.52754497e-07  1.65769351e-07  0.00000000e+00 
 1.00000000e-02  3.51711119e-09  3.20313186e-09  3.35784317e-09  3.29270736e-09  4.56142012e-01  4.56142012e-01  4.56142012e-01  1.52754517e-07  1.65768967e-07  1.00000000e-02 
 2.00000000e-02  3.51711125e-09  3.20313186e-09  3.35784316e-09  3.29270737e-09  4.56142002e-01  4.56142002e-01  4.56142002e-01  1.52754501e-07  1.65768570e-07  2.00000000e-02 
 3.00000000e-02  3.51711125e-09  3.20313186e-09  3.35784316e-09  3.29270737e-09  4.56141986e-01  4.56141986e-01  4.56141986e-01  1.52754466e-07  1.65768006e-07  3.00000000e-02 
 4.00000000e-02  3.51711125e-09  3.20313186e-09  3.35784311e-09  3.29270737e-09  4.56142014e-01  4.56142014e-01  4.56142014e-01  1.52754505e-07  1.65767633e-07  4.00000000e-02 
 5.00000000e-02  3.51711125e-09  3.20313186e-09  3.35784311e-09  3.29270737e-09  4.56142000e-01  4.56142000e-01  4.56142000e-01  1.52754484e-07  1.65767263e-07  5.00000000e-02 
 6.00000000e-02  3.51711125e-09  3.20313186e-09  3.35784317e-09  3.29270737e-09  4.56142033e-01  4.56142033e-01  4.56142033e-01  1.52754533e-07  1.65767057e-07  6.00000000e-02 
 7.00000000e-02  3.51711125e-09  3.20313186e-09  3.35784316e-09  3.29270743e-09  4.56142037e-01  4.56142037e-01  4.56142037e-01  1.52754536e-07  1.65766730e-07  7.00000000e-02 
 8.00000000e-02  3.51711125e-09  3.20313186e-09  3.35784312e-09  3.29270741e-09  4.56142016e-01  4.56142016e-01  4.56142016e-01  1.52754506e-07  1.65766304e-07  8.00000000e-02 
 9.00000000e-02  3.51711125e-09  3.20313186e-09  3.35784317e-09  3.29270742e-09  4.56142032e-01  4.56142032e-01  4.56142031e-01  1.52754545e-07  1.65766084e-07  9.00000000e-02 
 1.00000000e-01  3.51711125e-09  3.20313180e-09  3.35784316e-09  3.29270736e-09  4.56142019e-01  4.56142019e-01  4.56142019e-01  1.52754517e-07  1.65765659e-07  1.00000000e-01 
 1.10000000e-01  3.51711125e-09  3.20313180e-09  3.35784317e-09  3.29270737e-09  4.56142004e-01  4.56142004e-01  4.56142004e-01  1.52754503e-07  1.65765201e-07  1.10000000e-01 
 1.20000000e-01  3.51711125e-09  3.20313186e-09  3.35784315e-09  3.29270742e-09  4.56142012e-01  4.56142012e-01  4.56142012e-01  1.52754499e-07  1.65765048e-07  1.20000000e-01 
 1.30000000e-01  3.51711125e-09  3.20313186e-09  3.35784317e-09  3.29270741e-09  4.56141994e-01  4.56141994e-01  4.56141994e-01  1.52754470e-07  1.65764743e-07  1.30000000e-01 
 1.40000000e-01  3.51711125e-09  3.20313186e-09  3.35784315e-09  3.29270742e-09  4.56142007e-01  4.56142007e-01  4.56142007e-01  1.52754495e-07  1.65764568e-07  1.40000000e-01 
 1.50000000e-01  3.51711125e-09  3.20313186e-09  3.35784317e-09  3.29270736e-09  4.56142014e-01  4.56142014e-01  4.56142014e-01  1.52754519e-07  1.65764304e-07  1.50000000e-01 
 1.60000000e-01  3.51711119e-09  3.20313186e-09  3.35784315e-09  3.29270737e-09  4.56141980e-01  4.56141980e-01  4.56141980e-01  1.52754449e-07  1.65763877e-07  1.60000000e-01 
 1.70000000e-01  3.51711125e-09  3.20313186e-09  3.35784317e-09  3.29270737e-09  4.56142015e-01  4.56142015e-01  4.56142015e-01  1.52754508e-07  1.65763799e-07  1.70000000e-01 
 1.80000000e-01  3.51711125e-09  3.20313186e-09  3.35784315e-09  3.29270737e-09  4.56142011e-01  4.56142011e-01  4.56142011e-01  1.52754501e-07  1.65763597e-07  1.80000000e-01 
 1.90000000e-01  3.51711125e-09  3.20313186e-09  3.35784317e-09  3.29270737e-09  4.56142016e-01  4.56142016e-01  4.56142016e-01  1.52754506e-07  1.65763286e-07  1.90000000e-01 
 2.00000000e-01  3.51711125e-09  3.20313180e-09  3.35784315e-09  3.29270737e-09  4.56142018e-01  4.56142018e-01  4.56142018e-01  1.52754507e-07  1.65763176e-07  2.00000000e-01 
 2.10000000e-01  3.51711119e-09  3.20313186e-09  3.35784317e-09  3.29270737e-09  4.56142000e-01  4.56142000e-01  4.56142000e-01  1.52754480e-07  1.65762920e-07  2.10000000e-01 
 2.20000000e-01  3.51711125e-09  3.20313186e-09  3.35784316e-09  3.29270737e-09  4.56142026e-01  4.56142026e-01  4.56142026e-01  1.52754527e-07  1.65762836e-07  2.20000000e-01 
 2.30000000e-01  3.51711120e-09  3.20313186e-09  3.35784318e-09  3.29270737e-09  4.56142047e-01  4.56142047e-01  4.56142047e-01  1.52754555e-07  1.65762732e-07  2.30000000e-01 
 2.40000000e-01  3.51711125e-09  3.20313186e-09  3.35784316e-09  3.29270737e-09  4.56142033e-01  4.56142033e-01  4.56142033e-01  1.52754538e-07  1.65762508e-07  2.40000000e-01 
 2.50000000e-01  3.51711125e-09  3.20313186e-09  3.35784312e-09  3.29270737e-09  4.56142031e-01  4.56142031e-01  4.56142031e-01  1.52754538e-07  1.65762211e-07  2.50000000e-01 
 2.60000000e-01  3.51711125e-09  3.20313186e-09  3.35784316e-09  3.29270737e-09  4.56142001e-01  4.56142001e-01  4.56142001e-01  1.52754478e-07  1.65761920e-07  2.60000000e-01 
 2.70000000e-01  3.51711125e-09  3.20313186e-09  3.35784317e-09  3.29270737e-09  4.56142026e-01  4.56142026e-01  4.56142026e-01  1.52754522e-07  1.65761801e-07  2.70000000e-01 
 2.80000000e-01  3.51711125e-09  3.20313186e-09  3.35784315e-09  3.29270737e-09  4.56142000e-01  4.56142000e-01  4.56142000e-01  1.52754481e-07  1.65761746e-07  2.80000000e-01 
 2.90000000e-01  3.51711125e-09  3.20313186e-09  3.35784312e-09  3.29270743e-09  4.56142024e-01  4.56142024e-01  4.56142024e-01  1.52754522e-07  1.65761520e-07  2.90000000e-01 
 3.00000000e-01  3.51711125e-09  3.20313186e-09  3.35784316e-09  3.29270741e-09  4.56141994e-01  4.56141994e-01  4.56141994e-01  1.52754481e-07  1.65761268e-07  3.00000000e-01 
 3.10000000e-01  3.51711125e-09  3.20313186e-09  3.35784317e-09  3.29270742e-09  4.56142007e-01  4.56142007e-01  4.56142007e-01  1.52754494e-07  1.65761154e-07  3.10000000e-01 
 3.20000000e-01  3.51711119e-09  3.20313186e-09  3.35784316e-09  3.29270742e-09  4.56141999e-01  4.56142000e-01  4.56141999e-01  1.52754494e-07  1.65760941e-07  3.20000000e-01 
 3.30000000e-01  3.51711125e-09  3.20313186e-09  3.35784317e-09  3.29270742e-09  4.56142006e-01  4.56142006e-01  4.56142005e-01  1.52754493e-07  1.65760802e-07  3.30000000e-01 
 3.40000000e-01  3.51711125e-09  3.20313186e-09  3.35784317e-09  3.29270742e-09  4.56142015e-01  4.56142015e-01  4.56142015e-01  1.52754507e-07  1.65760753e-07  3.40000000e-01 
 3.50000000e-01  3.51711119e-09  3.20313186e-09  3.35784315e-09  3.29270742e-09  4.56141990e-01  4.56141990e-01  4.56141990e-01  1.52754477e-07  1.65760550e-07  3.50000000e-01 
 3.60000000e-01  3.51711125e-09  3.20313186e-09  3.35784317e-09  3.29270736e-09  4.56142013e-01  4.56142013e-01  4.56142013e-01  1.52754505e-07  1.65760440e-07  3.60000000e-01 
 3.70000000e-01  3.51711125e-09  3.20313186e-09  3.35784315e-09  3.29270737e-09  4.56142000e-01  4.56142000e-01  4.56142000e-01  1.52754479e-07  1.65760326e-07  3.70000000e-01 
 3.80000000e-01  3.51711125e-09  3.20313186e-09  3.35784317e-09  3.29270737e-09  4.56142023e-01  4.56142023e-01  4.56142022e-01  1.52754526e-07  1.65760206e-07  3.80000000e-01 
 3.90000000e-01  3.51711125e-09  3.20313186e-09  3.35784315e-09  3.29270737e-09  4.56142004e-01  4.56142004e-01  4.56142004e-01  1.52754483e-07  1.65760063e-07  3.90000000e-01 
 4.00000000e-01  3.51711125e-09  3.20313186e-09  3.35784317e-09  3.29270742e-09  4.56142004e-01  4.56142004e-01  4.56142004e-01  1.52754505e-07  1.65759751e-07  4.00000000e-01 
 4.10000000e-01  3.51711119e-09  3.20313186e-09  3.35784316e-09  3.29270736e-09  4.56142021e-01  4.56142021e-01  4.56142020e-01  1.52754511e-07  1.65759943e-07  4.10000000e-01 
 4.20000000e-01  3.51711125e-09  3.20313186e-09  3.35784317e-09  3.29270743e-09  4.56141994e-01  4.56141994e-01  4.56141994e-01  1.52754479e-07  1.65759534e-07  4.20000000e-01 
 4.30000000e-01  3.51711125e-09  3.20313186e-09  3.35784316e-09  3.29270741e-09  4.56142022e-01  4.56142022e-01  4.56142022e-01  1.52754514e-07  1.65759747e-07  4.30000000e-01 
 4.40000000e-01  3.51711125e-09  3.20313186e-09  3.35784317e-09  3.29270742e-09  4.56142021e-01  4.56142021e-01  4.56142021e-01  1.52754527e-07  1.65759406e-07  4.40000000e-01 
 4.50000000e-01  3.51711119e-09  3.20313186e-09  3.35784316e-09  3.29270742e-09  4.56142020e-01  4.56142020e-01  4.56142020e-01  1.52754522e-07  1.65759303e-07  4.50000000e-01 
 4.60000000e-01  3.51711119e-09  3.20313186e-09  3.35784317e-09  3.29270742e-09  4.56142007e-01  4.56142007e-01  4.56142007e-01  1.52754482e-07  1.65759122e-07  4.60000000e-01 
 4.70000000e-01  3.51711120e-09  3.20313186e-09  3.35784316e-09  3.29270736e-09  4.56142036e-01  4.56142036e-01  4.56142036e-01  1.52754536e-07  1.65759122e-07  4.70000000e-01 
 4.80000000e-01  3.51711125e-09  3.20313186e-09  3.35784312e-09  3.29270737e-09  4.56142026e-01  4.56142026e-01  4.56142026e-01  1.52754528e-07  1.65759040e-07  4.80000000e-01 
 4.90000000e-01  3.51711125e-09  3.20313186e-09  3.35784311e-09  3.29270737e-09  4.56142022e-01  4.56142022e-01  4.56142022e-01  1.52754520e-07  1.65758937e-07  4.90000000e-01 
 5.00000000e-01  3.51711125e-09  3.20313186e-09  3.35784317e-09  3.29270737e-09  4.56142032e-01  4.56142032e-01  4.56142032e-01  1.52754534e-07  1.65758834e-07  5.00000000e-01 
 5.10000000e-01  3.51711119e-09  3.20313186e-09  3.35784315e-09  3.29270742e-09  4.56142005e-01  4.56142005e-01  4.56142005e-01  1.52754492e-07  1.65758461e-07  5.10000000e-01 
 5.20000000e-01  3.51711125e-09  3.20313186e-09  3.35784317e-09  3.29270741e-09  4.56142007e-01  4.56142007e-01  4.56142007e-01  1.52754484e-07  1.65758369e-07  5.20000000e-01 
 5.30000000e-01  3.51711125e-09  3.20313186e-09  3.35784315e-09  3.29270736e-09  4.56142016e-01  4.56142016e-01  4.56142016e-01  1.52754498e-07  1.65758376e-07  5.30000000e-01 
 5.40000000e-01  3.51711125e-09  3.20313186e-09  3.35784317e-09  3.29270743e-09  4.56141984e-01  4.56141984e-01  4.56141984e-01  1.52754472e-07  1.65758141e-07  5.40000000e-01 
 5.50000000e-01  3.51711125e-09  3.20313186e-09  3.35784315e-09  3.29270741e-09  4.56142007e-01  4.56142007e-01  4.56142007e-01  1.52754504e-07  1.65758095e-07  5.50000000e-01 
 5.60000000e-01  3.51711125e-09  3.20313186e-09  3.35784317e-09  3.29270742e-09  4.56142016e-01  4.56142016e-01  4.56142016e-01  1.52754504e-07  1.65757999e-07  5.60000000e-01 
 5.70000000e-01  3.51711125e-09  3.20313180e-09  3.35784315e-09  3.29270742e-09  4.56142017e-01  4.56142017e-01  4.56142017e-01  1.52754508e-07  1.65757946e-07  5.70000000e-01 
 5.80000000e-01  3.51711125e-09  3.20313186e-09  3.35784318e-09  3.29270736e-09  4.56142035e-01  4.56142035e-01  4.56142035e-01  1.52754533e-07  1.65757939e-07  5.80000000e-01 
 5.90000000e-01  3.51711125e-09  3.20313186e-09  3.35784315e-09  3.29270743e-09  4.56141999e-01  4.56141999e-01  4.56141999e-01  1.52754479e-07  1.65757591e-07  5.90000000e-01 
 6.00000000e-01  3.51711125e-09  3.20313186e-09  3.35784312e-09  3.29270736e-09  4.56142019e-01  4.56142019e-01  4.56142019e-01  1.52754531e-07  1.65757555e-07  6.00000000e-01 
 6.10000000e-01  3.51711125e-09  3.20313186e-09  3.35784316e-09  3.29270737e-09  4.56142000e-01  4.56142000e-01  4.56142000e-01  1.52754481e-07  1.65757434e-07  6.10000000e-01 
 6.20000000e-01  3.51711125e-09  3.20313186e-09  3.35784311e-09  3.29270737e-09  4.56142017e-01  4.56142017e-01  4.56142017e-01  1.52754498e-07  1.65757385e-07  6.20000000e-01 
 6.30000000e-01  3.51711125e-09  3.20313186e-09  3.35784316e-09  3.29270742e-09  4.56141990e-01  4.56141990e-01  4.56141990e-01  1.52754467e-07  1.65757108e-07  6.30000000e-01 
 6.40000000e-01  3.51711125e-09  3.20313186e-09  3.35784317e-09  3.29270741e-09  4.56142015e-01  4.56142015e-01  4.56142015e-01  1.52754523e-07  1.65757179e-07  6.40000000e-01 
 6.50000000e-01  3.51711125e-09  3.20313186e-09  3.35784315e-09  3.29270742e-09  4.56142014e-01  4.56142014e-01  4.56142014e-01  1.52754505e-07  1.65756994e-07  6.50000000e-01 
 6.60000000e-01  3.51711125e-09  3.20313186e-09  3.35784311e-09  3.29270736e-09  4.56142009e-01  4.56142009e-01  4.56142009e-01  1.52754500e-07  1.65756873e-07  6.60000000e-01 
 6.70000000e-01  3.51711119e-09  3.20313186e-09  3.35784316e-09  3.29270737e-09  4.56141991e-01  4.56141991e-01  4.56141991e-01  1.52754468e-07  1.65756717e-07  6.70000000e-01 
 6.80000000e-01  3.51711119e-09  3.20313186e-09  3.35784317e-09  3.29270737e-09  4.56142013e-01  4.56142013e-01  4.56142013e-01  1.52754515e-07  1.65756674e-07  6.80000000e-01 
 6.90000000e-01  3.51711125e-09  3.20313186e-09  3.35784316e-09  3.29270743e-09  4.56142041e-01  4.56142041e-01  4.56142041e-01  1.52754547e-07  1.65756752e-07  6.90000000e-01 
 7.00000000e-01  3.51711125e-09  3.20313186e-09  3.35784318e-09  3.29270741e-09  4.56142032e-01  4.56142033e-01  4.56142032e-01  1.52754528e-07  1.65756504e-07  7.00000000e-01 
 7.10000000e-01  3.51711125e-09  3.20313186e-09  3.35784316e-09  3.29270742e-09  4.56142025e-01  4.56142025e-01  4.56142025e-01  1.52754530e-07  1.65756319e-07  7.10000000e-01 
 7.20000000e-01  3.51711119e-09  3.20313186e-09  3.35784317e-09  3.29270742e-09  4.56142014e-01  4.56142014e-01  4.56142014e-01  1.52754502e-07  1.65756113e-07  7.20000000e-01 
 7.30000000e-01  3.51711125e-09  3.20313186e-09  3.35784315e-09  3.29270742e-09  4.56141995e-01  4.56141995e-01  4.56141995e-01  1.52754478e-07  1.65756028e-07  7.30000000e-01 
 7.40000000e-01  3.51711125e-09  3.20313186e-09  3.35784312e-09  3.29270742e-09  4.56142021e-01  4.56142021e-01  4.56142021e-01  1.52754504e-07  1.65755900e-07  7.40000000e-01 
 7.50000000e-01  3.51711125e-09  3.20313186e-09  3.35784317e-09  3.29270736e-09  4.56142013e-01  4.56142013e-01  4.56142013e-01  1.52754491e-07  1.65755765e-07  7.50000000e-01 
 7.60000000e-01  3.51711125e-09  3.20313186e-09  3.35784316e-09  3.29270743e-09  4.56141989e-01  4.56141989e-01  4.56141989e-01  1.52754454e-07  1.65755559e-07  7.60000000e-01 
 7.70000000e-01  3.51711126e-09  3.20313186e-09  3.35784317e-09  3.29270741e-09  4.56142043e-01  4.56142043e-01  4.56142043e-01  1.52754543e-07  1.65755694e-07  7.70000000e-01 
 7.80000000e-01  3.51711120e-09  3.20313186e-09  3.35784316e-09  3.29270742e-09  4.56142032e-01  4.56142032e-01  4.56142032e-01  1.52754535e-07  1.65755630e-07  7.80000000e-01 
 7.90000000e-01  3.51711125e-09  3.20313186e-09  3.35784317e-09  3.29270742e-09  4.56142002e-01  4.56142002e-01  4.56142002e-01  1.52754481e-07  1.65755303e-07  7.90000000e-01 
 8.00000000e-01  3.51711125e-09  3.20313186e-09  3.35784315e-09  3.29270742e-09  4.56142010e-01  4.56142010e-01  4.56142009e-01  1.52754498e-07  1.65755225e-07  8.00000000e-01 
 8.10000000e-01  3.51711125e-09  3.20313186e-09  3.35784312e-09  3.29270742e-09  4.56142030e-01  4.56142030e-01  4.56142029e-01  1.52754528e-07  1.65755068e-07  8.10000000e-01 
 8.20000000e-01  3.51711125e-09  3.20313186e-09  3.35784317e-09  3.29270736e-09  4.56142018e-01  4.56142018e-01  4.56142018e-01  1.52754518e-07  1.65754976e-07  8.20000000e-01 
 8.30000000e-01  3.51711125e-09  3.20313186e-09  3.35784315e-09  3.29270743e-09  4.56142018e-01  4.56142018e-01  4.56142018e-01  1.52754516e-07  1.65754876e-07  8.30000000e-01 
 8.40000000e-01  3.51711119e-09  3.20313186e-09  3.35784317e-09  3.29270736e-09  4.56142015e-01  4.56142015e-01  4.56142015e-01  1.52754517e-07  1.65754699e-07  8.40000000e-01 
 8.50000000e-01  3.51711125e-09  3.20313186e-09  3.35784316e-09  3.29270737e-09  4.56142029e-01  4.56142029e-01  4.56142029e-01  1.52754522e-07  1.65754805e-07  8.50000000e-01 
 8.60000000e-01  3.51711119e-09  3.20313186e-09  3.35784317e-09  3.29270737e-09  4.56142005e-01  4.56142005e-01  4.56142005e-01  1.52754488e-07  1.65754429e-07  8.60000000e-01 
 8.70000000e-01  3.51711125e-09  3.20313180e-09  3.35784316e-09  3.29270743e-09  4.56142033e-01  4.56142033e-01  4.56142033e-01  1.52754530e-07  1.65754464e-07  8.70000000e-01 
 8.80000000e-01  3.51711125e-09  3.20313186e-09  3.35784317e-09  3.29270736e-09  4.56142020e-01  4.56142020e-01  4.56142020e-01  1.52754510e-07  1.65754201e-07  8.80000000e-01 
 8.90000000e-01  3.51711125e-09  3.20313186e-09  3.35784316e-09  3.29270743e-09  4.56142036e-01  4.56142036e-01  4.56142036e-01  1.52754543e-07  1.65754209e-07  8.90000000e-01 
 9.00000000e-01  3.51711125e-09  3.20313186e-09  3.35784317e-09  3.29270735e-09  4.56141996e-01  4.56141996e-01  4.56141996e-01  1.52754475e-07  1.65753832e-07  9.00000000e-01 
 9.10000000e-01  3.51711125e-09  3.20313186e-09  3.35784316e-09  3.29270737e-09  4.56142025e-01  4.56142025e-01  4.56142025e-01  1.52754526e-07  1.65753804e-07  9.10000000e-01 
 9.20000000e-01  3.51711125e-09  3.20313186e-09  3.35784317e-09  3.29270742e-09  4.56142003e-01  4.56142003e-01  4.56142003e-01  1.52754488e-07  1.65753647e-07  9.20000000e-01 
 9.30000000e-01  3.51711125e-09  3.20313186e-09  3.35784315e-09  3.29270736e-09  4.56142017e-01  4.56142017e-01  4.56142017e-01  1.52754493e-07  1.65753555e-07  9.30000000e-01 
 9.40000000e-01  3.51711125e-09  3.20313186e-09  3.35784312e-09  3.29270737e-09  4.56142026e-01  4.56142026e-01  4.56142026e-01  1.52754519e-07  1.65753519e-07  9.40000000e-01 
 9.50000000e-01  3.51711125e-09  3.20313186e-09  3.35784317e-09  3.29270742e-09  4.56142018e-01  4.56142018e-01  4.56142018e-01  1.52754513e-07  1.65753313e-07  9.50000000e-01 
 9.60000000e-01  3.51711125e-09  3.20313186e-09  3.35784315e-09  3.29270736e-09  4.56142007e-01  4.56142007e-01  4.56142007e-01  1.52754503e-07  1.65753008e-07  9.60000000e-01 
 9.70000000e-01  3.51711120e-09  3.20313186e-09  3.35784317e-09  3.29270737e-09  4.56142025e-01  4.56142025e-01  4.56142025e-01  1.52754516e-07  1.65752986e-07  9.70000000e-01 
 9.80000000e-01  3.51711125e-09  3.20313186e-09  3.35784316e-09  3.29270743e-09  4.56142018e-01  4.56142018e-01  4.56142018e-01  1.52754508e-07  1.65752873e-07  9.80000000e-01 
 9.90000000e-01  3.51711125e-09  3.20313186e-09  3.35784312e-09  3.29270741e-09  4.56142018e-01  4.56142018e-01  4.56142018e-01  1.52754496e-07  1.65752709e-07  9.90000000e-01 
 1.00000000e+00  3.51711119e-09  3.20313180e-09  3.35784317e-09  3.29270736e-09  4.56142020e-01  4.56142020e-01  4.56142020e-01  1.52754525e-07  1.65752596e-07  1.00000000e+00 
 1.01000000e+00  3.51711124e-09  3.20313186e-09  3.35784315e-09  3.29270737e-09  4.56141969e-01  4.56141969e-01  4.56141969e-01  1.52754436e-07  1.65752283e-07  1.01000000e+00 
 1.02000000e+00  3.51711125e-09  3.20313186e-09  3.35784317e-09  3.29270742e-09  4.56141996e-01  4.56141996e-01  4.56141996e-01  1.52754479e-07  1.65752233e-07  1.02000000e+00 
 1.03000000e+00  3.51711125e-09  3.20313186e-09  3.35784315e-09  3.29270741e-09  4.56141999e-01  4.56141999e-01  4.56141999e-01  1.52754492e-07  1.65752205e-07  1.03000000e+00 
 1.04000000e+00  3.51711125e-09  3.20313186e-09  3.35784318e-09  3.29270742e-09  4.56142035e-01  4.56142035e-01  4.56142035e-01  1.52754532e-07  1.65752098e-07  1.04000000e+00 
 1.05000000e+00  3.51711125e-09  3.20313186e-09  3.35784316e-09  3.29270742e-09  4.56142029e-01  4.56142029e-01  4.56142029e-01  1.52754520e-07  1.65751899e-07  1.05000000e+00 
 1.06000000e+00  3.51711125e-09  3.20313186e-09  3.35784311e-09  3.29270742e-09  4.56141990e-01  4.56141990e-01  4.56141990e-01  1.52754455e-07  1.65751615e-07  1.06000000e+00 
 1.07000000e+00  3.51711125e-09  3.20313186e-09  3.35784317e-09  3.29270742e-09  4.56142029e-01  4.56142030e-01  4.56142029e-01  1.52754523e-07  1.65751651e-07  1.07000000e+00 
 1.08000000e+00  3.51711125e-09  3.20313186e-09  3.35784316e-09  3.29270736e-09  4.56142022e-01  4.56142022e-01  4.56142022e-01  1.52754525e-07  1.65751537e-07  1.08000000e+00 
 1.09000000e+00  3.51711125e-09  3.20313186e-09  3.35784317e-09  3.29270743e-09  4.56142021e-01  4.56142021e-01  4.56142021e-01  1.52754513e-07  1.65751281e-07  1.09000000e+00 
 1.10000000e+00  3.51711125e-09  3.20313186e-09  3.35784315e-09  3.29270741e-09  4.56141993e-01  4.56141993e-01  4.56141993e-01  1.52754482e-07  1.65751082e-07  1.10000000e+00 
