 v-sweep         v(b0)           v(b1)           v(b2)           v(b3)           v(b4)           v(b5)           v(b6)           i(vbias)        i(viout)        v(vout)        
 0.00000000e+00  3.30360367e-09  4.60703218e-01  3.28872330e-09  4.60703218e-01  4.60703218e-01  4.60703218e-01  4.60703218e-01  1.63674834e-07  1.88441319e-07  0.00000000e+00 
 1.00000000e-02  3.30360375e-09  4.60703199e-01  3.28872333e-09  4.60703199e-01  4.60703199e-01  4.60703199e-01  4.60703199e-01  1.63674826e-07  1.88440657e-07  1.00000000e-02 
 2.00000000e-02  3.30360375e-09  4.60703190e-01  3.28872333e-09  4.60703190e-01  4.60703190e-01  4.60703190e-01  4.60703190e-01  1.63674796e-07  1.88440149e-07  2.00000000e-02 
 3.00000000e-02  3.30360369e-09  4.60703200e-01  3.28872333e-09  4.60703200e-01  4.60703200e-01  4.60703200e-01  4.60703200e-01  1.63674823e-07  1.88439744e-07  3.00000000e-02 
 4.00000000e-02  3.30360375e-09  4.60703206e-01  3.28872333e-09  4.60703206e-01  4.60703206e-01  4.60703206e-01  4.60703206e-01  1.63674822e-07  1.88439293e-07  4.00000000e-02 
 5.00000000e-02  3.30360375e-09  4.60703212e-01  3.28872333e-09  4.60703212e-01  4.60703213e-01  4.60703212e-01  4.60703212e-01  1.63674844e-07  1.88438948e-07  5.00000000e-02 
 6.00000000e-02  3.30360370e-09  4.60703212e-01  3.28872333e-09  4.60703212e-01  4.60703212e-01  4.60703212e-01  4.60703212e-01  1.63674824e-07  1.88438487e-07  6.00000000e-02 
 7.00000000e-02  3.30360369e-09  4.60703172e-01  3.28872333e-09  4.60703172e-01  4.60703172e-01  4.60703172e-01  4.60703172e-01  1.63674780e-07  1.88438073e-07  7.00000000e-02 
 8.00000000e-02  3.30360369e-09  4.60703199e-01  3.28872333e-09  4.60703199e-01  4.60703199e-01  4.60703199e-01  4.60703199e-01  1.63674812e-07  1.88437722e-07  8.00000000e-02 
 9.00000000e-02  3.30360375e-09  4.60703200e-01  3.28872333e-09  4.60703200e-01  4.60703200e-01  4.60703200e-01  4.60703200e-01  1.63674805e-07  1.88437434e-07  9.00000000e-02 
 1.00000000e-01  3.30360375e-09  4.60703200e-01  3.28872333e-09  4.60703200e-01  4.60703201e-01  4.60703201e-01  4.60703200e-01  1.63674816e-07  1.88437020e-07  1.00000000e-01 
 1.10000000e-01  3.30360375e-09  4.60703221e-01  3.28872333e-09  4.60703221e-01  4.60703221e-01  4.60703221e-01  4.60703221e-01  1.63674862e-07  1.88436871e-07  1.10000000e-01 
 1.20000000e-01  3.30360369e-09  4.60703185e-01  3.28872333e-09  4.60703185e-01  4.60703185e-01  4.60703185e-01  4.60703185e-01  1.63674792e-07  1.88436272e-07  1.20000000e-01 
 1.30000000e-01  3.30360375e-09  4.60703199e-01  3.28872333e-09  4.60703199e-01  4.60703199e-01  4.60703199e-01  4.60703199e-01  1.63674825e-07  1.88436132e-07  1.30000000e-01 
 1.40000000e-01  3.30360375e-09  4.60703210e-01  3.28872333e-09  4.60703210e-01  4.60703211e-01  4.60703211e-01  4.60703210e-01  1.63674835e-07  1.88435780e-07  1.40000000e-01 
 1.50000000e-01  3.30360369e-09  4.60703198e-01  3.28872333e-09  4.60703198e-01  4.60703198e-01  4.60703198e-01  4.60703198e-01  1.63674810e-07  1.88435482e-07  1.50000000e-01 
 1.60000000e-01  3.30360375e-09  4.60703219e-01  3.28872333e-09  4.60703219e-01  4.60703219e-01  4.60703219e-01  4.60703219e-01  1.63674842e-07  1.88435390e-07  1.60000000e-01 
 1.70000000e-01  3.30360375e-09  4.60703203e-01  3.28872333e-09  4.60703203e-01  4.60703203e-01  4.60703203e-01  4.60703203e-01  1.63674810e-07  1.88435038e-07  1.70000000e-01 
 1.80000000e-01  3.30360369e-09  4.60703200e-01  3.28872333e-09  4.60703200e-01  4.60703200e-01  4.60703200e-01  4.60703200e-01  1.63674827e-07  1.88434681e-07  1.80000000e-01 
 1.90000000e-01  3.30360375e-09  4.60703218e-01  3.28872333e-09  4.60703218e-01  4.60703218e-01  4.60703218e-01  4.60703218e-01  1.63674841e-07  1.88434530e-07  1.90000000e-01 
 2.00000000e-01  3.30360369e-09  4.60703202e-01  3.28872333e-09  4.60703202e-01  4.60703202e-01  4.60703202e-01  4.60703202e-01  1.63674837e-07  1.88434194e-07  2.00000000e-01 
 2.10000000e-01  3.30360369e-09  4.60703204e-01  3.28872333e-09  4.60703204e-01  4.60703204e-01  4.60703204e-01  4.60703204e-01  1.63674834e-07  1.88434003e-07  2.10000000e-01 
 2.20000000e-01  3.30360369e-09  4.60703194e-01  3.28872333e-09  4.60703194e-01  4.60703194e-01  4.60703194e-01  4.60703194e-01  1.63674815e-07  1.88433811e-07  2.20000000e-01 
 2.30000000e-01  3.30360369e-09  4.60703204e-01  3.28872333e-09  4.60703204e-01  4.60703205e-01  4.60703204e-01  4.60703204e-01  1.63674829e-07  1.88433592e-07  2.30000000e-01 
 2.40000000e-01  3.30360369e-09  4.60703199e-01  3.28872333e-09  4.60703199e-01  4.60703199e-01  4.60703199e-01  4.60703199e-01  1.63674822e-07  1.88433308e-07  2.40000000e-01 
 2.50000000e-01  3.30360369e-09  4.60703182e-01  3.28872333e-09  4.60703182e-01  4.60703182e-01  4.60703182e-01  4.60703182e-01  1.63674795e-07  1.88433003e-07  2.50000000e-01 
 2.60000000e-01  3.30360369e-09  4.60703196e-01  3.28872333e-09  4.60703196e-01  4.60703197e-01  4.60703196e-01  4.60703196e-01  1.63674803e-07  1.88432749e-07  2.60000000e-01 
 2.70000000e-01  3.30360369e-09  4.60703191e-01  3.28872333e-09  4.60703191e-01  4.60703191e-01  4.60703191e-01  4.60703191e-01  1.63674807e-07  1.88432701e-07  2.70000000e-01 
 2.80000000e-01  3.30360370e-09  4.60703212e-01  3.28872333e-09  4.60703212e-01  4.60703213e-01  4.60703213e-01  4.60703212e-01  1.63674848e-07  1.88432391e-07  2.80000000e-01 
 2.90000000e-01  3.30360369e-09  4.60703202e-01  3.28872333e-09  4.60703202e-01  4.60703202e-01  4.60703202e-01  4.60703202e-01  1.63674832e-07  1.88432288e-07  2.90000000e-01 
 3.00000000e-01  3.30360375e-09  4.60703204e-01  3.28872333e-09  4.60703204e-01  4.60703204e-01  4.60703204e-01  4.60703204e-01  1.63674824e-07  1.88431976e-07  3.00000000e-01 
 3.10000000e-01  3.30360375e-09  4.60703202e-01  3.28872333e-09  4.60703202e-01  4.60703202e-01  4.60703202e-01  4.60703202e-01  1.63674827e-07  1.88431908e-07  3.10000000e-01 
 3.20000000e-01  3.30360369e-09  4.60703197e-01  3.28872333e-09  4.60703197e-01  4.60703197e-01  4.60703197e-01  4.60703197e-01  1.63674822e-07  1.88431684e-07  3.20000000e-01 
 3.30000000e-01  3.30360375e-09  4.60703213e-01  3.28872333e-09  4.60703213e-01  4.60703213e-01  4.60703213e-01  4.60703213e-01  1.63674837e-07  1.88431578e-07  3.30000000e-01 
 3.40000000e-01  3.30360375e-09  4.60703222e-01  3.28872333e-09  4.60703222e-01  4.60703222e-01  4.60703222e-01  4.60703222e-01  1.63674842e-07  1.88431535e-07  3.40000000e-01 
 3.50000000e-01  3.30360370e-09  4.60703228e-01  3.28872333e-09  4.60703228e-01  4.60703228e-01  4.60703228e-01  4.60703228e-01  1.63674847e-07  1.88431208e-07  3.50000000e-01 
 3.60000000e-01  3.30360369e-09  4.60703206e-01  3.28872333e-09  4.60703206e-01  4.60703206e-01  4.60703206e-01  4.60703206e-01  1.63674830e-07  1.88431091e-07  3.60000000e-01 
 3.70000000e-01  3.30360375e-09  4.60703199e-01  3.28872333e-09  4.60703199e-01  4.60703200e-01  4.60703199e-01  4.60703199e-01  1.63674823e-07  1.88430842e-07  3.70000000e-01 
 3.80000000e-01  3.30360370e-09  4.60703216e-01  3.28872333e-09  4.60703216e-01  4.60703216e-01  4.60703216e-01  4.60703216e-01  1.63674835e-07  1.88430707e-07  3.80000000e-01 
 3.90000000e-01  3.30360370e-09  4.60703215e-01  3.28872333e-09  4.60703215e-01  4.60703215e-01  4.60703215e-01  4.60703215e-01  1.63674846e-07  1.88430583e-07  3.90000000e-01 
 4.00000000e-01  3.30360370e-09  4.60703212e-01  3.28872333e-09  4.60703212e-01  4.60703212e-01  4.60703212e-01  4.60703212e-01  1.63674842e-07  1.88430420e-07  4.00000000e-01 
 4.10000000e-01  3.30360369e-09  4.60703204e-01  3.28872333e-09  4.60703204e-01  4.60703204e-01  4.60703204e-01  4.60703204e-01  1.63674829e-07  1.88430196e-07  4.10000000e-01 
 4.20000000e-01  3.30360375e-09  4.60703178e-01  3.28872333e-09  4.60703178e-01  4.60703178e-01  4.60703178e-01  4.60703178e-01  1.63674789e-07  1.88429915e-07  4.20000000e-01 
 4.30000000e-01  3.30360375e-09  4.60703198e-01  3.28872333e-09  4.60703198e-01  4.60703198e-01  4.60703198e-01  4.60703198e-01  1.63674813e-07  1.88429908e-07  4.30000000e-01 
 4.40000000e-01  3.30360370e-09  4.60703216e-01  3.28872333e-09  4.60703216e-01  4.60703216e-01  4.60703216e-01  4.60703216e-01  1.63674832e-07  1.88429802e-07  4.40000000e-01 
 4.50000000e-01  3.30360369e-09  4.60703195e-01  3.28872333e-09  4.60703195e-01  4.60703195e-01  4.60703195e-01  4.60703195e-01  1.63674811e-07  1.88429443e-07  4.50000000e-01 
 4.60000000e-01  3.30360375e-09  4.60703207e-01  3.28872333e-09  4.60703207e-01  4.60703207e-01  4.60703207e-01  4.60703207e-01  1.63674818e-07  1.88429411e-07  4.60000000e-01 
 4.70000000e-01  3.30360375e-09  4.60703194e-01  3.28872333e-09  4.60703194e-01  4.60703194e-01  4.60703194e-01  4.60703194e-01  1.63674813e-07  1.88429230e-07  4.70000000e-01 
 4.80000000e-01  3.30360369e-09  4.60703209e-01  3.28872333e-09  4.60703209e-01  4.60703209e-01  4.60703209e-01  4.60703209e-01  1.63674830e-07  1.88429077e-07  4.80000000e-01 
 4.90000000e-01  3.30360375e-09  4.60703215e-01  3.28872333e-09  4.60703215e-01  4.60703215e-01  4.60703215e-01  4.60703215e-01  1.63674842e-07  1.88428960e-07  4.90000000e-01 
 5.00000000e-01  3.30360375e-09  4.60703201e-01  3.28872333e-09  4.60703201e-01  4.60703201e-01  4.60703201e-01  4.60703201e-01  1.63674822e-07  1.88428761e-07  5.00000000e-01 
 5.10000000e-01  3.30360375e-09  4.60703229e-01  3.28872333e-09  4.60703229e-01  4.60703229e-01  4.60703229e-01  4.60703229e-01  1.63674860e-07  1.88428697e-07  5.10000000e-01 
 5.20000000e-01  3.30360375e-09  4.60703176e-01  3.28872333e-09  4.60703176e-01  4.60703176e-01  4.60703176e-01  4.60703176e-01  1.63674776e-07  1.88428373e-07  5.20000000e-01 
 5.30000000e-01  3.30360369e-09  4.60703186e-01  3.28872333e-09  4.60703186e-01  4.60703186e-01  4.60703186e-01  4.60703186e-01  1.63674780e-07  1.88428281e-07  5.30000000e-01 
 5.40000000e-01  3.30360375e-09  4.60703192e-01  3.28872333e-09  4.60703192e-01  4.60703192e-01  4.60703192e-01  4.60703192e-01  1.63674803e-07  1.88428103e-07  5.40000000e-01 
 5.50000000e-01  3.30360375e-09  4.60703205e-01  3.28872328e-09  4.60703205e-01  4.60703205e-01  4.60703205e-01  4.60703205e-01  1.63674834e-07  1.88427943e-07  5.50000000e-01 
 5.60000000e-01  3.30360369e-09  4.60703203e-01  3.28872333e-09  4.60703203e-01  4.60703203e-01  4.60703203e-01  4.60703203e-01  1.63674820e-07  1.88427869e-07  5.60000000e-01 
 5.70000000e-01  3.30360375e-09  4.60703201e-01  3.28872333e-09  4.60703201e-01  4.60703202e-01  4.60703202e-01  4.60703201e-01  1.63674826e-07  1.88427698e-07  5.70000000e-01 
 5.80000000e-01  3.30360369e-09  4.60703208e-01  3.28872333e-09  4.60703208e-01  4.60703208e-01  4.60703208e-01  4.60703208e-01  1.63674832e-07  1.88427599e-07  5.80000000e-01 
 5.90000000e-01  3.30360369e-09  4.60703185e-01  3.28872333e-09  4.60703185e-01  4.60703185e-01  4.60703185e-01  4.60703185e-01  1.63674789e-07  1.88427180e-07  5.90000000e-01 
 6.00000000e-01  3.30360370e-09  4.60703214e-01  3.28872333e-09  4.60703214e-01  4.60703214e-01  4.60703214e-01  4.60703214e-01  1.63674830e-07  1.88427293e-07  6.00000000e-01 
 6.10000000e-01  3.30360369e-09  4.60703200e-01  3.28872333e-09  4.60703200e-01  4.60703200e-01  4.60703200e-01  4.60703200e-01  1.63674828e-07  1.88427023e-07  6.10000000e-01 
 6.20000000e-01  3.30360375e-09  4.60703194e-01  3.28872333e-09  4.60703194e-01  4.60703194e-01  4.60703194e-01  4.60703194e-01  1.63674815e-07  1.88426945e-07  6.20000000e-01 
 6.30000000e-01  3.30360375e-09  4.60703197e-01  3.28872333e-09  4.60703197e-01  4.60703197e-01  4.60703197e-01  4.60703197e-01  1.63674820e-07  1.88426753e-07  6.30000000e-01 
 6.40000000e-01  3.30360370e-09  4.60703213e-01  3.28872333e-09  4.60703213e-01  4.60703213e-01  4.60703213e-01  4.60703213e-01  1.63674835e-07  1.88426711e-07  6.40000000e-01 
 6.50000000e-01  3.30360375e-09  4.60703214e-01  3.28872333e-09  4.60703214e-01  4.60703214e-01  4.60703214e-01  4.60703214e-01  1.63674843e-07  1.88426533e-07  6.50000000e-01 
 6.60000000e-01  3.30360375e-09  4.60703197e-01  3.28872333e-09  4.60703197e-01  4.60703197e-01  4.60703197e-01  4.60703197e-01  1.63674817e-07  1.88426213e-07  6.60000000e-01 
 6.70000000e-01  3.30360370e-09  4.60703214e-01  3.28872333e-09  4.60703214e-01  4.60703214e-01  4.60703214e-01  4.60703214e-01  1.63674845e-07  1.88426128e-07  6.70000000e-01 
 6.80000000e-01  3.30360375e-09  4.60703204e-01  3.28872333e-09  4.60703204e-01  4.60703204e-01  4.60703204e-01  4.60703204e-01  1.63674818e-07  1.88425929e-07  6.80000000e-01 
 6.90000000e-01  3.30360375e-09  4.60703203e-01  3.28872333e-09  4.60703203e-01  4.60703203e-01  4.60703203e-01  4.60703203e-01  1.63674820e-07  1.88425709e-07  6.90000000e-01 
 7.00000000e-01  3.30360375e-09  4.60703191e-01  3.28872333e-09  4.60703191e-01  4.60703191e-01  4.60703191e-01  4.60703191e-01  1.63674803e-07  1.88425631e-07  7.00000000e-01 
 7.10000000e-01  3.30360375e-09  4.60703198e-01  3.28872333e-09  4.60703198e-01  4.60703198e-01  4.60703198e-01  4.60703198e-01  1.63674814e-07  1.88425446e-07  7.10000000e-01 
 7.20000000e-01  3.30360369e-09  4.60703208e-01  3.28872333e-09  4.60703208e-01  4.60703208e-01  4.60703208e-01  4.60703208e-01  1.63674836e-07  1.88425282e-07  7.20000000e-01 
 7.30000000e-01  3.30360369e-09  4.60703203e-01  3.28872328e-09  4.60703203e-01  4.60703203e-01  4.60703203e-01  4.60703203e-01  1.63674828e-07  1.88425226e-07  7.30000000e-01 
 7.40000000e-01  3.30360370e-09  4.60703222e-01  3.28872333e-09  4.60703222e-01  4.60703222e-01  4.60703222e-01  4.60703222e-01  1.63674852e-07  1.88425069e-07  7.40000000e-01 
 7.50000000e-01  3.30360375e-09  4.60703181e-01  3.28872333e-09  4.60703181e-01  4.60703181e-01  4.60703181e-01  4.60703181e-01  1.63674787e-07  1.88424735e-07  7.50000000e-01 
 7.60000000e-01  3.30360375e-09  4.60703202e-01  3.28872333e-09  4.60703202e-01  4.60703202e-01  4.60703202e-01  4.60703202e-01  1.63674824e-07  1.88424686e-07  7.60000000e-01 
 7.70000000e-01  3.30360369e-09  4.60703201e-01  3.28872333e-09  4.60703201e-01  4.60703201e-01  4.60703201e-01  4.60703201e-01  1.63674813e-07  1.88424487e-07  7.70000000e-01 
 7.80000000e-01  3.30360370e-09  4.60703213e-01  3.28872333e-09  4.60703213e-01  4.60703213e-01  4.60703213e-01  4.60703213e-01  1.63674832e-07  1.88424437e-07  7.80000000e-01 
 7.90000000e-01  3.30360369e-09  4.60703191e-01  3.28872333e-09  4.60703191e-01  4.60703192e-01  4.60703192e-01  4.60703191e-01  1.63674796e-07  1.88424202e-07  7.90000000e-01 
 8.00000000e-01  3.30360369e-09  4.60703194e-01  3.28872333e-09  4.60703194e-01  4.60703194e-01  4.60703194e-01  4.60703194e-01  1.63674804e-07  1.88423940e-07  8.00000000e-01 
 8.10000000e-01  3.30360369e-09  4.60703207e-01  3.28872333e-09  4.60703207e-01  4.60703207e-01  4.60703207e-01  4.60703207e-01  1.63674835e-07  1.88423826e-07  8.10000000e-01 
 8.20000000e-01  3.30360370e-09  4.60703217e-01  3.28872333e-09  4.60703217e-01  4.60703217e-01  4.60703217e-01  4.60703217e-01  1.63674840e-07  1.88423776e-07  8.20000000e-01 
 8.30000000e-01  3.30360375e-09  4.60703225e-01  3.28872333e-09  4.60703225e-01  4.60703225e-01  4.60703225e-01  4.60703225e-01  1.63674859e-07  1.88423655e-07  8.30000000e-01 
 8.40000000e-01  3.30360375e-09  4.60703218e-01  3.28872333e-09  4.60703218e-01  4.60703218e-01  4.60703218e-01  4.60703218e-01  1.63674840e-07  1.88423407e-07  8.40000000e-01 
 8.50000000e-01  3.30360370e-09  4.60703217e-01  3.28872333e-09  4.60703217e-01  4.60703217e-01  4.60703217e-01  4.60703217e-01  1.63674834e-07  1.88423243e-07  8.50000000e-01 
 8.60000000e-01  3.30360375e-09  4.60703215e-01  3.28872333e-09  4.60703215e-01  4.60703215e-01  4.60703215e-01  4.60703215e-01  1.63674846e-07  1.88423044e-07  8.60000000e-01 
 8.70000000e-01  3.30360375e-09  4.60703194e-01  3.28872333e-09  4.60703194e-01  4.60703194e-01  4.60703194e-01  4.60703194e-01  1.63674812e-07  1.88422767e-07  8.70000000e-01 
 8.80000000e-01  3.30360369e-09  4.60703197e-01  3.28872333e-09  4.60703197e-01  4.60703197e-01  4.60703197e-01  4.60703197e-01  1.63674817e-07  1.88422554e-07  8.80000000e-01 
 8.90000000e-01  3.30360370e-09  4.60703218e-01  3.28872333e-09  4.60703218e-01  4.60703218e-01  4.60703218e-01  4.60703218e-01  1.63674853e-07  1.88422455e-07  8.90000000e-01 
 9.00000000e-01  3.30360369e-09  4.60703202e-01  3.28872333e-09  4.60703202e-01  4.60703202e-01  4.60703202e-01  4.60703202e-01  1.63674802e-07  1.88422270e-07  9.00000000e-01 
 9.10000000e-01  3.30360370e-09  4.60703223e-01  3.28872333e-09  4.60703223e-01  4.60703223e-01  4.60703223e-01  4.60703223e-01  1.63674857e-07  1.88422192e-07  9.10000000e-01 
 9.20000000e-01  3.30360369e-09  4.60703197e-01  3.28872333e-09  4.60703197e-01  4.60703197e-01  4.60703197e-01  4.60703197e-01  1.63674807e-07  1.88421993e-07  9.20000000e-01 
 9.30000000e-01  3.30360375e-09  4.60703189e-01  3.28872333e-09  4.60703189e-01  4.60703189e-01  4.60703189e-01  4.60703189e-01  1.63674806e-07  1.88421787e-07  9.30000000e-01 
 9.40000000e-01  3.30360375e-09  4.60703182e-01  3.28872333e-09  4.60703182e-01  4.60703183e-01  4.60703183e-01  4.60703182e-01  1.63674797e-07  1.88421481e-07  9.40000000e-01 
 9.50000000e-01  3.30360375e-09  4.60703211e-01  3.28872333e-09  4.60703211e-01  4.60703211e-01  4.60703211e-01  4.60703211e-01  1.63674829e-07  1.88421375e-07  9.50000000e-01 
 9.60000000e-01  3.30360370e-09  4.60703224e-01  3.28872333e-09  4.60703224e-01  4.60703225e-01  4.60703225e-01  4.60703224e-01  1.63674850e-07  1.88421239e-07  9.60000000e-01 
 9.70000000e-01  3.30360369e-09  4.60703205e-01  3.28872333e-09  4.60703205e-01  4.60703205e-01  4.60703205e-01  4.60703205e-01  1.63674828e-07  1.88421119e-07  9.70000000e-01 
 9.80000000e-01  3.30360375e-09  4.60703197e-01  3.28872333e-09  4.60703197e-01  4.60703197e-01  4.60703197e-01  4.60703197e-01  1.63674822e-07  1.88420820e-07  9.80000000e-01 
 9.90000000e-01  3.30360375e-09  4.60703211e-01  3.28872333e-09  4.60703211e-01  4.60703211e-01  4.60703211e-01  4.60703211e-01  1.63674844e-07  1.88420636e-07  9.90000000e-01 
 1.00000000e+00  3.30360375e-09  4.60703210e-01  3.28872333e-09  4.60703210e-01  4.60703210e-01  4.60703210e-01  4.60703210e-01  1.63674830e-07  1.88420422e-07  1.00000000e+00 
 1.01000000e+00  3.30360369e-09  4.60703168e-01  3.28872333e-09  4.60703168e-01  4.60703168e-01  4.60703168e-01  4.60703168e-01  1.63674772e-07  1.88420103e-07  1.01000000e+00 
 1.02000000e+00  3.30360370e-09  4.60703223e-01  3.28872333e-09  4.60703223e-01  4.60703223e-01  4.60703223e-01  4.60703223e-01  1.63674863e-07  1.88420181e-07  1.02000000e+00 
 1.03000000e+00  3.30360369e-09  4.60703178e-01  3.28872333e-09  4.60703178e-01  4.60703178e-01  4.60703178e-01  4.60703178e-01  1.63674769e-07  1.88419676e-07  1.03000000e+00 
 1.04000000e+00  3.30360375e-09  4.60703179e-01  3.28872333e-09  4.60703179e-01  4.60703179e-01  4.60703179e-01  4.60703179e-01  1.63674787e-07  1.88419499e-07  1.04000000e+00 
 1.05000000e+00  3.30360375e-09  4.60703205e-01  3.28872333e-09  4.60703205e-01  4.60703205e-01  4.60703205e-01  4.60703205e-01  1.63674838e-07  1.88419364e-07  1.05000000e+00 
 1.06000000e+00  3.30360375e-09  4.60703191e-01  3.28872333e-09  4.60703191e-01  4.60703191e-01  4.60703191e-01  4.60703191e-01  1.63674800e-07  1.88419229e-07  1.06000000e+00 
 1.07000000e+00  3.30360369e-09  4.60703177e-01  3.28872333e-09  4.60703177e-01  4.60703177e-01  4.60703177e-01  4.60703177e-01  1.63674789e-07  1.88418923e-07  1.07000000e+00 
 1.08000000e+00  3.30360375e-09  4.60703215e-01  3.28872333e-09  4.60703215e-01  4.60703215e-01  4.60703215e-01  4.60703215e-01  1.63674843e-07  1.88418937e-07  1.08000000e+00 
 1.09000000e+00  3.30360369e-09  4.60703210e-01  3.28872333e-09  4.60703210e-01  4.60703210e-01  4.60703210e-01  4.60703210e-01  1.63674832e-07  1.88418596e-07  1.09000000e+00 
 1.10000000e+00  3.30360370e-09  4.60703214e-01  3.28872333e-09  4.60703214e-01  4.60703214e-01  4.60703214e-01  4.60703214e-01  1.63674841e-07  1.88418383e-07  1.10000000e+00 
