 v-sweep         v(b0)           v(b1)           v(b2)           v(b3)           v(b4)           v(b5)           v(b6)           i(vbias)        i(viout)        v(vout)        
 0.00000000e+00  4.59120904e-01  4.59120904e-01  3.35365376e-09  3.33907755e-09  3.42579728e-09  3.30001913e-09  3.31824222e-09  1.59708923e-07  4.47132191e-09  0.00000000e+00 
 1.00000000e-02  4.59120905e-01  4.59120905e-01  3.35365374e-09  3.33907759e-09  3.42579732e-09  3.30001917e-09  3.31824220e-09  1.59708919e-07  4.47095805e-09  1.00000000e-02 
 2.00000000e-02  4.59120896e-01  4.59120896e-01  3.35365374e-09  3.33907752e-09  3.42579726e-09  3.30001917e-09  3.31824220e-09  1.59708908e-07  4.47046666e-09  2.00000000e-02 
 3.00000000e-02  4.59120919e-01  4.59120919e-01  3.35365380e-09  3.33907760e-09  3.42579732e-09  3.30001917e-09  3.31824220e-09  1.59708934e-07  4.47004522e-09  3.00000000e-02 
 4.00000000e-02  4.59120922e-01  4.59120922e-01  3.35365374e-09  3.33907758e-09  3.42579732e-09  3.30001917e-09  3.31824220e-09  1.59708940e-07  4.46969617e-09  4.00000000e-02 
 5.00000000e-02  4.59120910e-01  4.59120910e-01  3.35365374e-09  3.33907759e-09  3.42579732e-09  3.30001917e-09  3.31824220e-09  1.59708925e-07  4.46942305e-09  5.00000000e-02 
 6.00000000e-02  4.59120904e-01  4.59120904e-01  3.35365380e-09  3.33907753e-09  3.42579732e-09  3.30001917e-09  3.31824220e-09  1.59708917e-07  4.46920589e-09  6.00000000e-02 
 7.00000000e-02  4.59120884e-01  4.59120884e-01  3.35365379e-09  3.33907760e-09  3.42579732e-09  3.30001917e-09  3.31824220e-09  1.59708865e-07  4.46874893e-09  7.00000000e-02 
 8.00000000e-02  4.59120898e-01  4.59120898e-01  3.35365374e-09  3.33907752e-09  3.42579726e-09  3.30001917e-09  3.31824220e-09  1.59708919e-07  4.46851001e-09  8.00000000e-02 
 9.00000000e-02  4.59120893e-01  4.59120893e-01  3.35365374e-09  3.33907754e-09  3.42579732e-09  3.30001917e-09  3.31824220e-09  1.59708892e-07  4.46825421e-09  9.00000000e-02 
 1.00000000e-01  4.59120891e-01  4.59120891e-01  3.35365380e-09  3.33907753e-09  3.42579732e-09  3.30001917e-09  3.31824220e-09  1.59708898e-07  4.46790160e-09  1.00000000e-01 
 1.10000000e-01  4.59120913e-01  4.59120913e-01  3.35365380e-09  3.33907759e-09  3.42579726e-09  3.30001917e-09  3.31824220e-09  1.59708927e-07  4.46772308e-09  1.10000000e-01 
 1.20000000e-01  4.59120915e-01  4.59120915e-01  3.35365374e-09  3.33907758e-09  3.42579732e-09  3.30001917e-09  3.31824220e-09  1.59708934e-07  4.46741577e-09  1.20000000e-01 
 1.30000000e-01  4.59120915e-01  4.59120915e-01  3.35365380e-09  3.33907759e-09  3.42579732e-09  3.30001917e-09  3.31824220e-09  1.59708921e-07  4.46731008e-09  1.30000000e-01 
 1.40000000e-01  4.59120903e-01  4.59120903e-01  3.35365374e-09  3.33907758e-09  3.42579732e-09  3.30001911e-09  3.31824220e-09  1.59708903e-07  4.46704806e-09  1.40000000e-01 
 1.50000000e-01  4.59120908e-01  4.59120908e-01  3.35365380e-09  3.33907753e-09  3.42579726e-09  3.30001917e-09  3.31824220e-09  1.59708911e-07  4.46686954e-09  1.50000000e-01 
 1.60000000e-01  4.59120920e-01  4.59120919e-01  3.35365374e-09  3.33907754e-09  3.42579732e-09  3.30001917e-09  3.31824220e-09  1.59708937e-07  4.46664927e-09  1.60000000e-01 
 1.70000000e-01  4.59120896e-01  4.59120896e-01  3.35365374e-09  3.33907753e-09  3.42579732e-09  3.30001917e-09  3.31824220e-09  1.59708900e-07  4.46641657e-09  1.70000000e-01 
 1.80000000e-01  4.59120920e-01  4.59120919e-01  3.35365374e-09  3.33907754e-09  3.42579732e-09  3.30001917e-09  3.31824220e-09  1.59708927e-07  4.46639703e-09  1.80000000e-01 
 1.90000000e-01  4.59120903e-01  4.59120903e-01  3.35365380e-09  3.33907759e-09  3.42579726e-09  3.30001911e-09  3.31824220e-09  1.59708910e-07  4.46621939e-09  1.90000000e-01 
 2.00000000e-01  4.59120901e-01  4.59120901e-01  3.35365380e-09  3.33907752e-09  3.42579732e-09  3.30001917e-09  3.31824220e-09  1.59708911e-07  4.46590853e-09  2.00000000e-01 
 2.10000000e-01  4.59120900e-01  4.59120899e-01  3.35365380e-09  3.33907760e-09  3.42579732e-09  3.30001917e-09  3.31824220e-09  1.59708896e-07  4.46566162e-09  2.10000000e-01 
 2.20000000e-01  4.59120922e-01  4.59120922e-01  3.35365380e-09  3.33907758e-09  3.42579726e-09  3.30001917e-09  3.31824220e-09  1.59708948e-07  4.46577175e-09  2.20000000e-01 
 2.30000000e-01  4.59120914e-01  4.59120914e-01  3.35365374e-09  3.33907759e-09  3.42579732e-09  3.30001917e-09  3.31824220e-09  1.59708936e-07  4.46531168e-09  2.30000000e-01 
 2.40000000e-01  4.59120910e-01  4.59120910e-01  3.35365374e-09  3.33907753e-09  3.42579732e-09  3.30001917e-09  3.31824220e-09  1.59708929e-07  4.46526016e-09  2.40000000e-01 
 2.50000000e-01  4.59120913e-01  4.59120913e-01  3.35365380e-09  3.33907754e-09  3.42579732e-09  3.30001917e-09  3.31824220e-09  1.59708924e-07  4.46528503e-09  2.50000000e-01 
 2.60000000e-01  4.59120890e-01  4.59120890e-01  3.35365374e-09  3.33907759e-09  3.42579732e-09  3.30001917e-09  3.31824220e-09  1.59708908e-07  4.46508608e-09  2.60000000e-01 
 2.70000000e-01  4.59120922e-01  4.59120922e-01  3.35365380e-09  3.33907758e-09  3.42579732e-09  3.30001912e-09  3.31824220e-09  1.59708951e-07  4.46487292e-09  2.70000000e-01 
 2.80000000e-01  4.59120902e-01  4.59120902e-01  3.35365374e-09  3.33907753e-09  3.42579726e-09  3.30001917e-09  3.31824220e-09  1.59708906e-07  4.46490489e-09  2.80000000e-01 
 2.90000000e-01  4.59120904e-01  4.59120904e-01  3.35365374e-09  3.33907754e-09  3.42579726e-09  3.30001917e-09  3.31824220e-09  1.59708925e-07  4.46476633e-09  2.90000000e-01 
 3.00000000e-01  4.59120910e-01  4.59120910e-01  3.35365374e-09  3.33907759e-09  3.42579732e-09  3.30001917e-09  3.31824220e-09  1.59708924e-07  4.46463133e-09  3.00000000e-01 
 3.10000000e-01  4.59120895e-01  4.59120895e-01  3.35365374e-09  3.33907758e-09  3.42579726e-09  3.30001917e-09  3.31824220e-09  1.59708896e-07  4.46452475e-09  3.10000000e-01 
 3.20000000e-01  4.59120898e-01  4.59120897e-01  3.35365374e-09  3.33907758e-09  3.42579732e-09  3.30001917e-09  3.31824226e-09  1.59708906e-07  4.46439330e-09  3.20000000e-01 
 3.30000000e-01  4.59120884e-01  4.59120884e-01  3.35365379e-09  3.33907758e-09  3.42579732e-09  3.30001917e-09  3.31824220e-09  1.59708890e-07  4.46435777e-09  3.30000000e-01 
 3.40000000e-01  4.59120916e-01  4.59120916e-01  3.35365374e-09  3.33907759e-09  3.42579726e-09  3.30001912e-09  3.31824220e-09  1.59708932e-07  4.46417658e-09  3.40000000e-01 
 3.50000000e-01  4.59120893e-01  4.59120893e-01  3.35365380e-09  3.33907758e-09  3.42579726e-09  3.30001917e-09  3.31824220e-09  1.59708898e-07  4.46410908e-09  3.50000000e-01 
 3.60000000e-01  4.59120904e-01  4.59120904e-01  3.35365380e-09  3.33907753e-09  3.42579726e-09  3.30001917e-09  3.31824220e-09  1.59708913e-07  4.46405579e-09  3.60000000e-01 
 3.70000000e-01  4.59120898e-01  4.59120898e-01  3.35365374e-09  3.33907754e-09  3.42579726e-09  3.30001917e-09  3.31824220e-09  1.59708915e-07  4.46382131e-09  3.70000000e-01 
 3.80000000e-01  4.59120921e-01  4.59120921e-01  3.35365374e-09  3.33907754e-09  3.42579732e-09  3.30001917e-09  3.31824220e-09  1.59708939e-07  4.46393500e-09  3.80000000e-01 
 3.90000000e-01  4.59120900e-01  4.59120900e-01  3.35365380e-09  3.33907753e-09  3.42579726e-09  3.30001917e-09  3.31824220e-09  1.59708911e-07  4.46386039e-09  3.90000000e-01 
 4.00000000e-01  4.59120890e-01  4.59120890e-01  3.35365374e-09  3.33907759e-09  3.42579732e-09  3.30001917e-09  3.31824220e-09  1.59708903e-07  4.46367920e-09  4.00000000e-01 
 4.10000000e-01  4.59120914e-01  4.59120914e-01  3.35365374e-09  3.33907758e-09  3.42579732e-09  3.30001917e-09  3.31824220e-09  1.59708934e-07  4.46356552e-09  4.10000000e-01 
 4.20000000e-01  4.59120905e-01  4.59120905e-01  3.35365380e-09  3.33907753e-09  3.42579726e-09  3.30001917e-09  3.31824220e-09  1.59708926e-07  4.46360460e-09  4.20000000e-01 
 4.30000000e-01  4.59120914e-01  4.59120914e-01  3.35365380e-09  3.33907760e-09  3.42579732e-09  3.30001917e-09  3.31824220e-09  1.59708934e-07  4.46345538e-09  4.30000000e-01 
 4.40000000e-01  4.59120909e-01  4.59120908e-01  3.35365374e-09  3.33907758e-09  3.42579726e-09  3.30001917e-09  3.31824220e-09  1.59708918e-07  4.46345538e-09  4.40000000e-01 
 4.50000000e-01  4.59120902e-01  4.59120902e-01  3.35365374e-09  3.33907758e-09  3.42579732e-09  3.30001917e-09  3.31824220e-09  1.59708915e-07  4.46323156e-09  4.50000000e-01 
 4.60000000e-01  4.59120906e-01  4.59120906e-01  3.35365374e-09  3.33907753e-09  3.42579726e-09  3.30001917e-09  3.31824220e-09  1.59708917e-07  4.46328130e-09  4.60000000e-01 
 4.70000000e-01  4.59120899e-01  4.59120899e-01  3.35365374e-09  3.33907754e-09  3.42579732e-09  3.30001911e-09  3.31824220e-09  1.59708921e-07  4.46313919e-09  4.70000000e-01 
 4.80000000e-01  4.59120902e-01  4.59120902e-01  3.35365374e-09  3.33907759e-09  3.42579726e-09  3.30001917e-09  3.31824220e-09  1.59708916e-07  4.46298998e-09  4.80000000e-01 
 4.90000000e-01  4.59120904e-01  4.59120904e-01  3.35365380e-09  3.33907752e-09  3.42579732e-09  3.30001917e-09  3.31824220e-09  1.59708896e-07  4.46311788e-09  4.90000000e-01 
 5.00000000e-01  4.59120902e-01  4.59120901e-01  3.35365374e-09  3.33907754e-09  3.42579726e-09  3.30001917e-09  3.31824226e-09  1.59708904e-07  4.46306458e-09  5.00000000e-01 
 5.10000000e-01  4.59120907e-01  4.59120907e-01  3.35365374e-09  3.33907753e-09  3.42579726e-09  3.30001912e-09  3.31824220e-09  1.59708917e-07  4.46299708e-09  5.10000000e-01 
 5.20000000e-01  4.59120899e-01  4.59120899e-01  3.35365374e-09  3.33907753e-09  3.42579732e-09  3.30001917e-09  3.31824220e-09  1.59708918e-07  4.46278037e-09  5.20000000e-01 
 5.30000000e-01  4.59120907e-01  4.59120907e-01  3.35365380e-09  3.33907753e-09  3.42579732e-09  3.30001917e-09  3.31824220e-09  1.59708916e-07  4.46273063e-09  5.30000000e-01 
 5.40000000e-01  4.59120896e-01  4.59120896e-01  3.35365374e-09  3.33907759e-09  3.42579732e-09  3.30001917e-09  3.31824220e-09  1.59708914e-07  4.46275550e-09  5.40000000e-01 
 5.50000000e-01  4.59120883e-01  4.59120883e-01  3.35365374e-09  3.33907752e-09  3.42579732e-09  3.30001917e-09  3.31824220e-09  1.59708883e-07  4.46259207e-09  5.50000000e-01 
 5.60000000e-01  4.59120916e-01  4.59120916e-01  3.35365374e-09  3.33907760e-09  3.42579732e-09  3.30001917e-09  3.31824220e-09  1.59708936e-07  4.46258852e-09  5.60000000e-01 
 5.70000000e-01  4.59120916e-01  4.59120916e-01  3.35365380e-09  3.33907752e-09  3.42579726e-09  3.30001917e-09  3.31824220e-09  1.59708934e-07  4.46249260e-09  5.70000000e-01 
 5.80000000e-01  4.59120903e-01  4.59120902e-01  3.35365374e-09  3.33907754e-09  3.42579726e-09  3.30001917e-09  3.31824220e-09  1.59708918e-07  4.46243575e-09  5.80000000e-01 
 5.90000000e-01  4.59120924e-01  4.59120924e-01  3.35365374e-09  3.33907754e-09  3.42579726e-09  3.30001912e-09  3.31824220e-09  1.59708950e-07  4.46241444e-09  5.90000000e-01 
 6.00000000e-01  4.59120911e-01  4.59120911e-01  3.35365374e-09  3.33907759e-09  3.42579732e-09  3.30001917e-09  3.31824220e-09  1.59708920e-07  4.46225812e-09  6.00000000e-01 
 6.10000000e-01  4.59120898e-01  4.59120898e-01  3.35365374e-09  3.33907752e-09  3.42579732e-09  3.30001917e-09  3.31824220e-09  1.59708896e-07  4.46231496e-09  6.10000000e-01 
 6.20000000e-01  4.59120891e-01  4.59120890e-01  3.35365380e-09  3.33907760e-09  3.42579732e-09  3.30001917e-09  3.31824220e-09  1.59708883e-07  4.46219417e-09  6.20000000e-01 
 6.30000000e-01  4.59120910e-01  4.59120910e-01  3.35365380e-09  3.33907752e-09  3.42579732e-09  3.30001917e-09  3.31824220e-09  1.59708924e-07  4.46210890e-09  6.30000000e-01 
 6.40000000e-01  4.59120914e-01  4.59120914e-01  3.35365380e-09  3.33907754e-09  3.42579732e-09  3.30001917e-09  3.31824220e-09  1.59708944e-07  4.46230075e-09  6.40000000e-01 
 6.50000000e-01  4.59120911e-01  4.59120911e-01  3.35365374e-09  3.33907759e-09  3.42579726e-09  3.30001917e-09  3.31824220e-09  1.59708922e-07  4.46201653e-09  6.50000000e-01 
 6.60000000e-01  4.59120911e-01  4.59120911e-01  3.35365380e-09  3.33907758e-09  3.42579726e-09  3.30001917e-09  3.31824220e-09  1.59708928e-07  4.46192416e-09  6.60000000e-01 
 6.70000000e-01  4.59120904e-01  4.59120903e-01  3.35365380e-09  3.33907758e-09  3.42579732e-09  3.30001911e-09  3.31824220e-09  1.59708922e-07  4.46178205e-09  6.70000000e-01 
 6.80000000e-01  4.59120906e-01  4.59120906e-01  3.35365380e-09  3.33907759e-09  3.42579732e-09  3.30001917e-09  3.31824220e-09  1.59708920e-07  4.46181048e-09  6.80000000e-01 
 6.90000000e-01  4.59120892e-01  4.59120892e-01  3.35365374e-09  3.33907758e-09  3.42579732e-09  3.30001917e-09  3.31824226e-09  1.59708892e-07  4.46166126e-09  6.90000000e-01 
 7.00000000e-01  4.59120887e-01  4.59120887e-01  3.35365379e-09  3.33907758e-09  3.42579732e-09  3.30001917e-09  3.31824220e-09  1.59708891e-07  4.46158310e-09  7.00000000e-01 
 7.10000000e-01  4.59120901e-01  4.59120901e-01  3.35365380e-09  3.33907758e-09  3.42579726e-09  3.30001917e-09  3.31824220e-09  1.59708904e-07  4.46164705e-09  7.10000000e-01 
 7.20000000e-01  4.59120896e-01  4.59120896e-01  3.35365374e-09  3.33907758e-09  3.42579726e-09  3.30001917e-09  3.31824220e-09  1.59708893e-07  4.46159021e-09  7.20000000e-01 
 7.30000000e-01  4.59120929e-01  4.59120929e-01  3.35365374e-09  3.33907759e-09  3.42579732e-09  3.30001917e-09  3.31824220e-09  1.59708946e-07  4.46154047e-09  7.30000000e-01 
 7.40000000e-01  4.59120920e-01  4.59120920e-01  3.35365374e-09  3.33907759e-09  3.42579726e-09  3.30001917e-09  3.31824220e-09  1.59708947e-07  4.46155468e-09  7.40000000e-01 
 7.50000000e-01  4.59120904e-01  4.59120904e-01  3.35365380e-09  3.33907753e-09  3.42579732e-09  3.30001917e-09  3.31824220e-09  1.59708911e-07  4.46130599e-09  7.50000000e-01 
 7.60000000e-01  4.59120908e-01  4.59120908e-01  3.35365380e-09  3.33907754e-09  3.42579732e-09  3.30001917e-09  3.31824226e-09  1.59708915e-07  4.46138415e-09  7.60000000e-01 
 7.70000000e-01  4.59120902e-01  4.59120902e-01  3.35365374e-09  3.33907753e-09  3.42579726e-09  3.30001917e-09  3.31824220e-09  1.59708915e-07  4.46136283e-09  7.70000000e-01 
 7.80000000e-01  4.59120898e-01  4.59120898e-01  3.35365380e-09  3.33907759e-09  3.42579732e-09  3.30001917e-09  3.31824220e-09  1.59708913e-07  4.46136283e-09  7.80000000e-01 
 7.90000000e-01  4.59120905e-01  4.59120905e-01  3.35365380e-09  3.33907758e-09  3.42579732e-09  3.30001917e-09  3.31824220e-09  1.59708929e-07  4.46111414e-09  7.90000000e-01 
 8.00000000e-01  4.59120897e-01  4.59120897e-01  3.35365380e-09  3.33907753e-09  3.42579732e-09  3.30001917e-09  3.31824220e-09  1.59708902e-07  4.46105730e-09  8.00000000e-01 
 8.10000000e-01  4.59120911e-01  4.59120911e-01  3.35365380e-09  3.33907754e-09  3.42579732e-09  3.30001917e-09  3.31824220e-09  1.59708918e-07  4.46092230e-09  8.10000000e-01 
 8.20000000e-01  4.59120918e-01  4.59120917e-01  3.35365374e-09  3.33907754e-09  3.42579732e-09  3.30001917e-09  3.31824220e-09  1.59708939e-07  4.46097914e-09  8.20000000e-01 
 8.30000000e-01  4.59120922e-01  4.59120922e-01  3.35365380e-09  3.33907759e-09  3.42579732e-09  3.30001917e-09  3.31824220e-09  1.59708945e-07  4.46082282e-09  8.30000000e-01 
 8.40000000e-01  4.59120912e-01  4.59120912e-01  3.35365380e-09  3.33907758e-09  3.42579732e-09  3.30001917e-09  3.31824220e-09  1.59708935e-07  4.46087967e-09  8.40000000e-01 
 8.50000000e-01  4.59120907e-01  4.59120907e-01  3.35365380e-09  3.33907753e-09  3.42579726e-09  3.30001917e-09  3.31824220e-09  1.59708919e-07  4.46082993e-09  8.50000000e-01 
 8.60000000e-01  4.59120892e-01  4.59120892e-01  3.35365380e-09  3.33907760e-09  3.42579726e-09  3.30001917e-09  3.31824220e-09  1.59708902e-07  4.46068782e-09  8.60000000e-01 
 8.70000000e-01  4.59120913e-01  4.59120913e-01  3.35365374e-09  3.33907752e-09  3.42579732e-09  3.30001917e-09  3.31824220e-09  1.59708926e-07  4.46068782e-09  8.70000000e-01 
 8.80000000e-01  4.59120916e-01  4.59120916e-01  3.35365374e-09  3.33907754e-09  3.42579726e-09  3.30001917e-09  3.31824220e-09  1.59708938e-07  4.46055992e-09  8.80000000e-01 
 8.90000000e-01  4.59120906e-01  4.59120905e-01  3.35365380e-09  3.33907759e-09  3.42579726e-09  3.30001917e-09  3.31824220e-09  1.59708907e-07  4.46056703e-09  8.90000000e-01 
 9.00000000e-01  4.59120909e-01  4.59120909e-01  3.35365374e-09  3.33907752e-09  3.42579726e-09  3.30001917e-09  3.31824220e-09  1.59708923e-07  4.46051729e-09  9.00000000e-01 
 9.10000000e-01  4.59120907e-01  4.59120907e-01  3.35365374e-09  3.33907754e-09  3.42579732e-09  3.30001917e-09  3.31824220e-09  1.59708922e-07  4.46044623e-09  9.10000000e-01 
 9.20000000e-01  4.59120910e-01  4.59120910e-01  3.35365380e-09  3.33907759e-09  3.42579732e-09  3.30001917e-09  3.31824220e-09  1.59708927e-07  4.46024018e-09  9.20000000e-01 
 9.30000000e-01  4.59120890e-01  4.59120890e-01  3.35365374e-09  3.33907752e-09  3.42579732e-09  3.30001917e-09  3.31824220e-09  1.59708893e-07  4.46021886e-09  9.30000000e-01 
 9.40000000e-01  4.59120904e-01  4.59120904e-01  3.35365380e-09  3.33907754e-09  3.42579732e-09  3.30001917e-09  3.31824220e-09  1.59708913e-07  4.46022597e-09  9.40000000e-01 
 9.50000000e-01  4.59120903e-01  4.59120903e-01  3.35365380e-09  3.33907753e-09  3.42579732e-09  3.30001917e-09  3.31824220e-09  1.59708916e-07  4.46024728e-09  9.50000000e-01 
 9.60000000e-01  4.59120900e-01  4.59120900e-01  3.35365374e-09  3.33907753e-09  3.42579732e-09  3.30001917e-09  3.31824220e-09  1.59708900e-07  4.46012649e-09  9.60000000e-01 
 9.70000000e-01  4.59120899e-01  4.59120899e-01  3.35365380e-09  3.33907759e-09  3.42579726e-09  3.30001917e-09  3.31824220e-09  1.59708907e-07  4.45997728e-09  9.70000000e-01 
 9.80000000e-01  4.59120896e-01  4.59120896e-01  3.35365374e-09  3.33907752e-09  3.42579726e-09  3.30001917e-09  3.31824220e-09  1.59708906e-07  4.45992754e-09  9.80000000e-01 
 9.90000000e-01  4.59120910e-01  4.59120910e-01  3.35365374e-09  3.33907760e-09  3.42579726e-09  3.30001917e-09  3.31824220e-09  1.59708929e-07  4.45977832e-09  9.90000000e-01 
 1.00000000e+00  4.59120904e-01  4.59120904e-01  3.35365374e-09  3.33907752e-09  3.42579732e-09  3.30001917e-09  3.31824220e-09  1.59708920e-07  4.45965043e-09  1.00000000e+00 
 1.01000000e+00  4.59120875e-01  4.59120875e-01  3.35365374e-09  3.33907754e-09  3.42579732e-09  3.30001917e-09  3.31824220e-09  1.59708862e-07  4.45987780e-09  1.01000000e+00 
 1.02000000e+00  4.59120922e-01  4.59120922e-01  3.35365380e-09  3.33907754e-09  3.42579732e-09  3.30001917e-09  3.31824220e-09  1.59708943e-07  4.45972859e-09  1.02000000e+00 
 1.03000000e+00  4.59120914e-01  4.59120914e-01  3.35365374e-09  3.33907759e-09  3.42579732e-09  3.30001917e-09  3.31824220e-09  1.59708934e-07  4.45972148e-09  1.03000000e+00 
 1.04000000e+00  4.59120902e-01  4.59120902e-01  3.35365380e-09  3.33907752e-09  3.42579732e-09  3.30001917e-09  3.31824220e-09  1.59708923e-07  4.45946569e-09  1.04000000e+00 
 1.05000000e+00  4.59120894e-01  4.59120894e-01  3.35365380e-09  3.33907754e-09  3.42579732e-09  3.30001917e-09  3.31824220e-09  1.59708912e-07  4.45945147e-09  1.05000000e+00 
 1.06000000e+00  4.59120901e-01  4.59120901e-01  3.35365380e-09  3.33907759e-09  3.42579726e-09  3.30001917e-09  3.31824220e-09  1.59708910e-07  4.45950832e-09  1.06000000e+00 
 1.07000000e+00  4.59120894e-01  4.59120894e-01  3.35365374e-09  3.33907758e-09  3.42579732e-09  3.30001917e-09  3.31824220e-09  1.59708903e-07  4.45922410e-09  1.07000000e+00 
 1.08000000e+00  4.59120896e-01  4.59120896e-01  3.35365374e-09  3.33907758e-09  3.42579732e-09  3.30001917e-09  3.31824220e-09  1.59708897e-07  4.45930937e-09  1.08000000e+00 
 1.09000000e+00  4.59120906e-01  4.59120906e-01  3.35365380e-09  3.33907759e-09  3.42579732e-09  3.30001917e-09  3.31824220e-09  1.59708918e-07  4.45914594e-09  1.09000000e+00 
 1.10000000e+00  4.59120900e-01  4.59120900e-01  3.35365380e-09  3.33907753e-09  3.42579726e-09  3.30001917e-09  3.31824220e-09  1.59708916e-07  4.45915305e-09  1.10000000e+00 
