 v-sweep         v(b0)           v(b1)           v(b2)           v(b3)           v(b4)           v(b5)           v(b6)           i(vbias)        i(viout)        v(vout)        
 0.00000000e+00  4.57132612e-01  3.28197486e-09  3.22570857e-09  3.22008769e-09  3.32090516e-09  4.57132612e-01  3.24128893e-09  1.56633769e-07  4.53151190e-08  0.00000000e+00 
 1.00000000e-02  4.57132629e-01  3.28197484e-09  3.22570860e-09  3.22008766e-09  3.32090519e-09  4.57132629e-01  3.24128890e-09  1.56633785e-07  4.53146888e-08  1.00000000e-02 
 2.00000000e-02  4.57132631e-01  3.28197484e-09  3.22570860e-09  3.22008768e-09  3.32090519e-09  4.57132631e-01  3.24128886e-09  1.56633787e-07  4.53143112e-08  2.00000000e-02 
 3.00000000e-02  4.57132629e-01  3.28197484e-09  3.22570860e-09  3.22008767e-09  3.32090519e-09  4.57132629e-01  3.24128891e-09  1.56633793e-07  4.53139641e-08  3.00000000e-02 
 4.00000000e-02  4.57132602e-01  3.28197484e-09  3.22570860e-09  3.22008767e-09  3.32090519e-09  4.57132602e-01  3.24128889e-09  1.56633758e-07  4.53135853e-08  4.00000000e-02 
 5.00000000e-02  4.57132603e-01  3.28197484e-09  3.22570860e-09  3.22008767e-09  3.32090519e-09  4.57132603e-01  3.24128886e-09  1.56633745e-07  4.53132762e-08  5.00000000e-02 
 6.00000000e-02  4.57132627e-01  3.28197484e-09  3.22570860e-09  3.22008767e-09  3.32090519e-09  4.57132627e-01  3.24128891e-09  1.56633782e-07  4.53129170e-08  6.00000000e-02 
 7.00000000e-02  4.57132598e-01  3.28197490e-09  3.22570860e-09  3.22008767e-09  3.32090519e-09  4.57132598e-01  3.24128884e-09  1.56633745e-07  4.53125812e-08  7.00000000e-02 
 8.00000000e-02  4.57132604e-01  3.28197483e-09  3.22570860e-09  3.22008767e-09  3.32090519e-09  4.57132604e-01  3.24128891e-09  1.56633757e-07  4.53123494e-08  8.00000000e-02 
 9.00000000e-02  4.57132608e-01  3.28197485e-09  3.22570860e-09  3.22008767e-09  3.32090519e-09  4.57132608e-01  3.24128889e-09  1.56633743e-07  4.53121105e-08  9.00000000e-02 
 1.00000000e-01  4.57132608e-01  3.28197490e-09  3.22570860e-09  3.22008767e-09  3.32090519e-09  4.57132608e-01  3.24128891e-09  1.56633740e-07  4.53117588e-08  1.00000000e-01 
 1.10000000e-01  4.57132618e-01  3.28197489e-09  3.22570860e-09  3.22008767e-09  3.32090519e-09  4.57132618e-01  3.24128889e-09  1.56633764e-07  4.53114710e-08  1.10000000e-01 
 1.20000000e-01  4.57132599e-01  3.28197489e-09  3.22570860e-09  3.22008767e-09  3.32090519e-09  4.57132599e-01  3.24128886e-09  1.56633744e-07  4.53112925e-08  1.20000000e-01 
 1.30000000e-01  4.57132580e-01  3.28197483e-09  3.22570860e-09  3.22008767e-09  3.32090519e-09  4.57132580e-01  3.24128891e-09  1.56633714e-07  4.53110589e-08  1.30000000e-01 
 1.40000000e-01  4.57132604e-01  3.28197485e-09  3.22570860e-09  3.22008767e-09  3.32090519e-09  4.57132604e-01  3.24128889e-09  1.56633744e-07  4.53108466e-08  1.40000000e-01 
 1.50000000e-01  4.57132592e-01  3.28197490e-09  3.22570866e-09  3.22008767e-09  3.32090519e-09  4.57132592e-01  3.24128886e-09  1.56633734e-07  4.53105748e-08  1.50000000e-01 
 1.60000000e-01  4.57132613e-01  3.28197488e-09  3.22570860e-09  3.22008767e-09  3.32090519e-09  4.57132613e-01  3.24128891e-09  1.56633764e-07  4.53105038e-08  1.60000000e-01 
 1.70000000e-01  4.57132610e-01  3.28197489e-09  3.22570860e-09  3.22008767e-09  3.32090519e-09  4.57132610e-01  3.24128889e-09  1.56633763e-07  4.53103315e-08  1.70000000e-01 
 1.80000000e-01  4.57132612e-01  3.28197483e-09  3.22570860e-09  3.22008767e-09  3.32090519e-09  4.57132612e-01  3.24128886e-09  1.56633765e-07  4.53101752e-08  1.80000000e-01 
 1.90000000e-01  4.57132605e-01  3.28197485e-09  3.22570860e-09  3.22008767e-09  3.32090519e-09  4.57132605e-01  3.24128891e-09  1.56633762e-07  4.53099886e-08  1.90000000e-01 
 2.00000000e-01  4.57132620e-01  3.28197484e-09  3.22570860e-09  3.22008767e-09  3.32090519e-09  4.57132620e-01  3.24128889e-09  1.56633777e-07  4.53098412e-08  2.00000000e-01 
 2.10000000e-01  4.57132632e-01  3.28197490e-09  3.22570860e-09  3.22008767e-09  3.32090519e-09  4.57132632e-01  3.24128891e-09  1.56633808e-07  4.53096369e-08  2.10000000e-01 
 2.20000000e-01  4.57132626e-01  3.28197483e-09  3.22570860e-09  3.22008767e-09  3.32090525e-09  4.57132626e-01  3.24128889e-09  1.56633777e-07  4.53096245e-08  2.20000000e-01 
 2.30000000e-01  4.57132606e-01  3.28197485e-09  3.22570860e-09  3.22008767e-09  3.32090519e-09  4.57132606e-01  3.24128886e-09  1.56633761e-07  4.53094362e-08  2.30000000e-01 
 2.40000000e-01  4.57132619e-01  3.28197484e-09  3.22570860e-09  3.22008761e-09  3.32090525e-09  4.57132619e-01  3.24128891e-09  1.56633775e-07  4.53092976e-08  2.40000000e-01 
 2.50000000e-01  4.57132586e-01  3.28197484e-09  3.22570860e-09  3.22008767e-09  3.32090519e-09  4.57132586e-01  3.24128889e-09  1.56633724e-07  4.53091946e-08  2.50000000e-01 
 2.60000000e-01  4.57132625e-01  3.28197484e-09  3.22570860e-09  3.22008767e-09  3.32090519e-09  4.57132625e-01  3.24128886e-09  1.56633779e-07  4.53090134e-08  2.60000000e-01 
 2.70000000e-01  4.57132628e-01  3.28197484e-09  3.22570860e-09  3.22008767e-09  3.32090519e-09  4.57132628e-01  3.24128891e-09  1.56633796e-07  4.53089228e-08  2.70000000e-01 
 2.80000000e-01  4.57132627e-01  3.28197484e-09  3.22570860e-09  3.22008761e-09  3.32090519e-09  4.57132628e-01  3.24128889e-09  1.56633799e-07  4.53088056e-08  2.80000000e-01 
 2.90000000e-01  4.57132594e-01  3.28197484e-09  3.22570860e-09  3.22008767e-09  3.32090519e-09  4.57132594e-01  3.24128886e-09  1.56633736e-07  4.53085214e-08  2.90000000e-01 
 3.00000000e-01  4.57132612e-01  3.28197490e-09  3.22570860e-09  3.22008767e-09  3.32090519e-09  4.57132612e-01  3.24128885e-09  1.56633765e-07  4.53085640e-08  3.00000000e-01 
 3.10000000e-01  4.57132605e-01  3.28197483e-09  3.22570860e-09  3.22008767e-09  3.32090519e-09  4.57132605e-01  3.24128885e-09  1.56633760e-07  4.53084610e-08  3.10000000e-01 
 3.20000000e-01  4.57132616e-01  3.28197485e-09  3.22570860e-09  3.22008767e-09  3.32090525e-09  4.57132616e-01  3.24128885e-09  1.56633761e-07  4.53084290e-08  3.20000000e-01 
 3.30000000e-01  4.57132608e-01  3.28197484e-09  3.22570860e-09  3.22008767e-09  3.32090519e-09  4.57132609e-01  3.24128885e-09  1.56633760e-07  4.53083047e-08  3.30000000e-01 
 3.40000000e-01  4.57132598e-01  3.28197484e-09  3.22570860e-09  3.22008767e-09  3.32090519e-09  4.57132599e-01  3.24128885e-09  1.56633749e-07  4.53081981e-08  3.40000000e-01 
 3.50000000e-01  4.57132622e-01  3.28197490e-09  3.22570860e-09  3.22008767e-09  3.32090519e-09  4.57132622e-01  3.24128891e-09  1.56633780e-07  4.53081661e-08  3.50000000e-01 
 3.60000000e-01  4.57132634e-01  3.28197489e-09  3.22570860e-09  3.22008767e-09  3.32090519e-09  4.57132634e-01  3.24128890e-09  1.56633800e-07  4.53080666e-08  3.60000000e-01 
 3.70000000e-01  4.57132618e-01  3.28197483e-09  3.22570860e-09  3.22008767e-09  3.32090519e-09  4.57132618e-01  3.24128891e-09  1.56633791e-07  4.53079743e-08  3.70000000e-01 
 3.80000000e-01  4.57132578e-01  3.28197484e-09  3.22570860e-09  3.22008767e-09  3.32090519e-09  4.57132578e-01  3.24128889e-09  1.56633715e-07  4.53077007e-08  3.80000000e-01 
 3.90000000e-01  4.57132596e-01  3.28197484e-09  3.22570860e-09  3.22008767e-09  3.32090519e-09  4.57132596e-01  3.24128886e-09  1.56633751e-07  4.53077327e-08  3.90000000e-01 
 4.00000000e-01  4.57132617e-01  3.28197484e-09  3.22570860e-09  3.22008767e-09  3.32090519e-09  4.57132617e-01  3.24128885e-09  1.56633773e-07  4.53076829e-08  4.00000000e-01 
 4.10000000e-01  4.57132583e-01  3.28197484e-09  3.22570860e-09  3.22008767e-09  3.32090519e-09  4.57132583e-01  3.24128891e-09  1.56633733e-07  4.53075550e-08  4.10000000e-01 
 4.20000000e-01  4.57132614e-01  3.28197484e-09  3.22570860e-09  3.22008767e-09  3.32090519e-09  4.57132614e-01  3.24128889e-09  1.56633766e-07  4.53074591e-08  4.20000000e-01 
 4.30000000e-01  4.57132627e-01  3.28197490e-09  3.22570860e-09  3.22008767e-09  3.32090519e-09  4.57132627e-01  3.24128891e-09  1.56633786e-07  4.53074733e-08  4.30000000e-01 
 4.40000000e-01  4.57132593e-01  3.28197483e-09  3.22570860e-09  3.22008767e-09  3.32090519e-09  4.57132593e-01  3.24128889e-09  1.56633737e-07  4.53074200e-08  4.40000000e-01 
 4.50000000e-01  4.57132612e-01  3.28197485e-09  3.22570860e-09  3.22008767e-09  3.32090519e-09  4.57132612e-01  3.24128886e-09  1.56633786e-07  4.53072708e-08  4.50000000e-01 
 4.60000000e-01  4.57132619e-01  3.28197484e-09  3.22570860e-09  3.22008767e-09  3.32090519e-09  4.57132619e-01  3.24128885e-09  1.56633785e-07  4.53073348e-08  4.60000000e-01 
 4.70000000e-01  4.57132610e-01  3.28197484e-09  3.22570860e-09  3.22008767e-09  3.32090519e-09  4.57132610e-01  3.24128891e-09  1.56633778e-07  4.53071145e-08  4.70000000e-01 
 4.80000000e-01  4.57132607e-01  3.28197484e-09  3.22570860e-09  3.22008767e-09  3.32090519e-09  4.57132607e-01  3.24128889e-09  1.56633742e-07  4.53071820e-08  4.80000000e-01 
 4.90000000e-01  4.57132594e-01  3.28197484e-09  3.22570860e-09  3.22008767e-09  3.32090519e-09  4.57132594e-01  3.24128891e-09  1.56633734e-07  4.53069653e-08  4.90000000e-01 
 5.00000000e-01  4.57132609e-01  3.28197484e-09  3.22570866e-09  3.22008767e-09  3.32090519e-09  4.57132609e-01  3.24128889e-09  1.56633754e-07  4.53070008e-08  5.00000000e-01 
 5.10000000e-01  4.57132609e-01  3.28197484e-09  3.22570860e-09  3.22008767e-09  3.32090519e-09  4.57132609e-01  3.24128886e-09  1.56633763e-07  4.53068516e-08  5.10000000e-01 
 5.20000000e-01  4.57132626e-01  3.28197484e-09  3.22570860e-09  3.22008767e-09  3.32090519e-09  4.57132626e-01  3.24128885e-09  1.56633779e-07  4.53068090e-08  5.20000000e-01 
 5.30000000e-01  4.57132589e-01  3.28197484e-09  3.22570866e-09  3.22008767e-09  3.32090519e-09  4.57132589e-01  3.24128891e-09  1.56633732e-07  4.53068054e-08  5.30000000e-01 
 5.40000000e-01  4.57132617e-01  3.28197490e-09  3.22570860e-09  3.22008767e-09  3.32090519e-09  4.57132617e-01  3.24128889e-09  1.56633777e-07  4.53067592e-08  5.40000000e-01 
 5.50000000e-01  4.57132618e-01  3.28197489e-09  3.22570860e-09  3.22008767e-09  3.32090519e-09  4.57132619e-01  3.24128886e-09  1.56633785e-07  4.53068161e-08  5.50000000e-01 
 5.60000000e-01  4.57132604e-01  3.28197483e-09  3.22570860e-09  3.22008767e-09  3.32090519e-09  4.57132604e-01  3.24128891e-09  1.56633757e-07  4.53065603e-08  5.60000000e-01 
 5.70000000e-01  4.57132606e-01  3.28197485e-09  3.22570860e-09  3.22008773e-09  3.32090519e-09  4.57132606e-01  3.24128889e-09  1.56633755e-07  4.53065390e-08  5.70000000e-01 
 5.80000000e-01  4.57132614e-01  3.28197484e-09  3.22570860e-09  3.22008766e-09  3.32090519e-09  4.57132614e-01  3.24128891e-09  1.56633782e-07  4.53065638e-08  5.80000000e-01 
 5.90000000e-01  4.57132618e-01  3.28197484e-09  3.22570860e-09  3.22008768e-09  3.32090519e-09  4.57132619e-01  3.24128889e-09  1.56633774e-07  4.53064501e-08  5.90000000e-01 
 6.00000000e-01  4.57132616e-01  3.28197484e-09  3.22570860e-09  3.22008773e-09  3.32090519e-09  4.57132616e-01  3.24128886e-09  1.56633773e-07  4.53062867e-08  6.00000000e-01 
 6.10000000e-01  4.57132627e-01  3.28197484e-09  3.22570866e-09  3.22008766e-09  3.32090519e-09  4.57132627e-01  3.24128885e-09  1.56633785e-07  4.53062938e-08  6.10000000e-01 
 6.20000000e-01  4.57132626e-01  3.28197484e-09  3.22570860e-09  3.22008768e-09  3.32090519e-09  4.57132626e-01  3.24128885e-09  1.56633799e-07  4.53063009e-08  6.20000000e-01 
 6.30000000e-01  4.57132615e-01  3.28197490e-09  3.22570860e-09  3.22008767e-09  3.32090519e-09  4.57132615e-01  3.24128885e-09  1.56633769e-07  4.53062086e-08  6.30000000e-01 
 6.40000000e-01  4.57132613e-01  3.28197483e-09  3.22570860e-09  3.22008767e-09  3.32090519e-09  4.57132613e-01  3.24128891e-09  1.56633761e-07  4.53062299e-08  6.40000000e-01 
 6.50000000e-01  4.57132619e-01  3.28197485e-09  3.22570860e-09  3.22008767e-09  3.32090519e-09  4.57132619e-01  3.24128889e-09  1.56633767e-07  4.53060025e-08  6.50000000e-01 
 6.60000000e-01  4.57132595e-01  3.28197484e-09  3.22570860e-09  3.22008767e-09  3.32090519e-09  4.57132595e-01  3.24128891e-09  1.56633746e-07  4.53059315e-08  6.60000000e-01 
 6.70000000e-01  4.57132611e-01  3.28197484e-09  3.22570860e-09  3.22008767e-09  3.32090519e-09  4.57132611e-01  3.24128889e-09  1.56633763e-07  4.53059741e-08  6.70000000e-01 
 6.80000000e-01  4.57132604e-01  3.28197484e-09  3.22570860e-09  3.22008767e-09  3.32090525e-09  4.57132604e-01  3.24128891e-09  1.56633757e-07  4.53059457e-08  6.80000000e-01 
 6.90000000e-01  4.57132613e-01  3.28197484e-09  3.22570860e-09  3.22008767e-09  3.32090519e-09  4.57132613e-01  3.24128889e-09  1.56633761e-07  4.53058391e-08  6.90000000e-01 
 7.00000000e-01  4.57132591e-01  3.28197484e-09  3.22570860e-09  3.22008767e-09  3.32090519e-09  4.57132591e-01  3.24128891e-09  1.56633736e-07  4.53058533e-08  7.00000000e-01 
 7.10000000e-01  4.57132590e-01  3.28197484e-09  3.22570860e-09  3.22008767e-09  3.32090519e-09  4.57132590e-01  3.24128889e-09  1.56633725e-07  4.53056757e-08  7.10000000e-01 
 7.20000000e-01  4.57132582e-01  3.28197484e-09  3.22570860e-09  3.22008767e-09  3.32090519e-09  4.57132582e-01  3.24128891e-09  1.56633715e-07  4.53056188e-08  7.20000000e-01 
 7.30000000e-01  4.57132630e-01  3.28197484e-09  3.22570860e-09  3.22008767e-09  3.32090519e-09  4.57132630e-01  3.24128890e-09  1.56633782e-07  4.53057183e-08  7.30000000e-01 
 7.40000000e-01  4.57132622e-01  3.28197484e-09  3.22570860e-09  3.22008767e-09  3.32090519e-09  4.57132622e-01  3.24128886e-09  1.56633787e-07  4.53056046e-08  7.40000000e-01 
 7.50000000e-01  4.57132607e-01  3.28197484e-09  3.22570860e-09  3.22008767e-09  3.32090519e-09  4.57132607e-01  3.24128885e-09  1.56633760e-07  4.53055335e-08  7.50000000e-01 
 7.60000000e-01  4.57132616e-01  3.28197484e-09  3.22570860e-09  3.22008767e-09  3.32090519e-09  4.57132616e-01  3.24128891e-09  1.56633770e-07  4.53054696e-08  7.60000000e-01 
 7.70000000e-01  4.57132583e-01  3.28197484e-09  3.22570860e-09  3.22008767e-09  3.32090519e-09  4.57132583e-01  3.24128889e-09  1.56633716e-07  4.53054412e-08  7.70000000e-01 
 7.80000000e-01  4.57132616e-01  3.28197484e-09  3.22570860e-09  3.22008767e-09  3.32090519e-09  4.57132616e-01  3.24128886e-09  1.56633769e-07  4.53054625e-08  7.80000000e-01 
 7.90000000e-01  4.57132611e-01  3.28197484e-09  3.22570860e-09  3.22008767e-09  3.32090519e-09  4.57132611e-01  3.24128885e-09  1.56633754e-07  4.53053346e-08  7.90000000e-01 
 8.00000000e-01  4.57132584e-01  3.28197484e-09  3.22570860e-09  3.22008767e-09  3.32090519e-09  4.57132585e-01  3.24128885e-09  1.56633714e-07  4.53051356e-08  8.00000000e-01 
 8.10000000e-01  4.57132600e-01  3.28197490e-09  3.22570866e-09  3.22008767e-09  3.32090519e-09  4.57132601e-01  3.24128885e-09  1.56633733e-07  4.53050788e-08  8.10000000e-01 
 8.20000000e-01  4.57132607e-01  3.28197483e-09  3.22570860e-09  3.22008767e-09  3.32090519e-09  4.57132607e-01  3.24128891e-09  1.56633761e-07  4.53051001e-08  8.20000000e-01 
 8.30000000e-01  4.57132625e-01  3.28197485e-09  3.22570860e-09  3.22008767e-09  3.32090519e-09  4.57132625e-01  3.24128889e-09  1.56633778e-07  4.53050859e-08  8.30000000e-01 
 8.40000000e-01  4.57132594e-01  3.28197484e-09  3.22570860e-09  3.22008767e-09  3.32090519e-09  4.57132595e-01  3.24128886e-09  1.56633749e-07  4.53049793e-08  8.40000000e-01 
 8.50000000e-01  4.57132594e-01  3.28197484e-09  3.22570860e-09  3.22008767e-09  3.32090519e-09  4.57132594e-01  3.24128891e-09  1.56633731e-07  4.53049012e-08  8.50000000e-01 
 8.60000000e-01  4.57132602e-01  3.28197490e-09  3.22570860e-09  3.22008767e-09  3.32090519e-09  4.57132602e-01  3.24128889e-09  1.56633745e-07  4.53049012e-08  8.60000000e-01 
 8.70000000e-01  4.57132583e-01  3.28197483e-09  3.22570860e-09  3.22008767e-09  3.32090519e-09  4.57132583e-01  3.24128891e-09  1.56633716e-07  4.53047306e-08  8.70000000e-01 
 8.80000000e-01  4.57132608e-01  3.28197485e-09  3.22570860e-09  3.22008767e-09  3.32090519e-09  4.57132608e-01  3.24128889e-09  1.56633752e-07  4.53046454e-08  8.80000000e-01 
 8.90000000e-01  4.57132624e-01  3.28197484e-09  3.22570860e-09  3.22008767e-09  3.32090519e-09  4.57132624e-01  3.24128886e-09  1.56633798e-07  4.53047519e-08  8.90000000e-01 
 9.00000000e-01  4.57132627e-01  3.28197484e-09  3.22570860e-09  3.22008767e-09  3.32090519e-09  4.57132627e-01  3.24128885e-09  1.56633800e-07  4.53046027e-08  9.00000000e-01 
 9.10000000e-01  4.57132615e-01  3.28197484e-09  3.22570860e-09  3.22008767e-09  3.32090519e-09  4.57132615e-01  3.24128885e-09  1.56633778e-07  4.53045885e-08  9.10000000e-01 
 9.20000000e-01  4.57132613e-01  3.28197484e-09  3.22570860e-09  3.22008767e-09  3.32090519e-09  4.57132613e-01  3.24128885e-09  1.56633777e-07  4.53045530e-08  9.20000000e-01 
 9.30000000e-01  4.57132609e-01  3.28197484e-09  3.22570860e-09  3.22008767e-09  3.32090519e-09  4.57132609e-01  3.24128891e-09  1.56633762e-07  4.53045601e-08  9.30000000e-01 
 9.40000000e-01  4.57132625e-01  3.28197490e-09  3.22570860e-09  3.22008767e-09  3.32090519e-09  4.57132625e-01  3.24128889e-09  1.56633784e-07  4.53044748e-08  9.40000000e-01 
 9.50000000e-01  4.57132585e-01  3.28197483e-09  3.22570860e-09  3.22008767e-09  3.32090519e-09  4.57132585e-01  3.24128886e-09  1.56633733e-07  4.53042759e-08  9.50000000e-01 
 9.60000000e-01  4.57132619e-01  3.28197485e-09  3.22570860e-09  3.22008767e-09  3.32090519e-09  4.57132619e-01  3.24128885e-09  1.56633778e-07  4.53043185e-08  9.60000000e-01 
 9.70000000e-01  4.57132607e-01  3.28197484e-09  3.22570860e-09  3.22008767e-09  3.32090519e-09  4.57132607e-01  3.24128885e-09  1.56633754e-07  4.53041480e-08  9.70000000e-01 
 9.80000000e-01  4.57132589e-01  3.28197484e-09  3.22570860e-09  3.22008767e-09  3.32090519e-09  4.57132589e-01  3.24128891e-09  1.56633724e-07  4.53041338e-08  9.80000000e-01 
 9.90000000e-01  4.57132596e-01  3.28197484e-09  3.22570860e-09  3.22008767e-09  3.32090519e-09  4.57132596e-01  3.24128889e-09  1.56633737e-07  4.53040911e-08  9.90000000e-01 
 1.00000000e+00  4.57132603e-01  3.28197484e-09  3.22570860e-09  3.22008767e-09  3.32090519e-09  4.57132603e-01  3.24128886e-09  1.56633756e-07  4.53039632e-08  1.00000000e+00 
 1.01000000e+00  4.57132599e-01  3.28197484e-09  3.22570860e-09  3.22008767e-09  3.32090519e-09  4.57132599e-01  3.24128891e-09  1.56633741e-07  4.53039775e-08  1.01000000e+00 
 1.02000000e+00  4.57132589e-01  3.28197490e-09  3.22570860e-09  3.22008767e-09  3.32090519e-09  4.57132590e-01  3.24128889e-09  1.56633736e-07  4.53040201e-08  1.02000000e+00 
 1.03000000e+00  4.57132610e-01  3.28197483e-09  3.22570860e-09  3.22008767e-09  3.32090519e-09  4.57132610e-01  3.24128891e-09  1.56633762e-07  4.53039064e-08  1.03000000e+00 
 1.04000000e+00  4.57132610e-01  3.28197485e-09  3.22570860e-09  3.22008767e-09  3.32090519e-09  4.57132610e-01  3.24128889e-09  1.56633752e-07  4.53037003e-08  1.04000000e+00 
 1.05000000e+00  4.57132616e-01  3.28197490e-09  3.22570860e-09  3.22008767e-09  3.32090519e-09  4.57132616e-01  3.24128891e-09  1.56633771e-07  4.53036506e-08  1.05000000e+00 
 1.06000000e+00  4.57132602e-01  3.28197488e-09  3.22570860e-09  3.22008767e-09  3.32090519e-09  4.57132602e-01  3.24128889e-09  1.56633754e-07  4.53036364e-08  1.06000000e+00 
 1.07000000e+00  4.57132582e-01  3.28197483e-09  3.22570860e-09  3.22008767e-09  3.32090519e-09  4.57132582e-01  3.24128886e-09  1.56633717e-07  4.53035511e-08  1.07000000e+00 
 1.08000000e+00  4.57132614e-01  3.28197485e-09  3.22570866e-09  3.22008767e-09  3.32090519e-09  4.57132614e-01  3.24128891e-09  1.56633763e-07  4.53035227e-08  1.08000000e+00 
 1.09000000e+00  4.57132604e-01  3.28197484e-09  3.22570860e-09  3.22008767e-09  3.32090519e-09  4.57132604e-01  3.24128889e-09  1.56633758e-07  4.53033877e-08  1.09000000e+00 
 1.10000000e+00  4.57132613e-01  3.28197484e-09  3.22570860e-09  3.22008767e-09  3.32090519e-09  4.57132613e-01  3.24128886e-09  1.56633767e-07  4.53034517e-08  1.10000000e+00 
