 v-sweep         v(b0)           v(b1)           v(b2)           v(b3)           v(b4)           v(b5)           v(b6)           i(vbias)        i(viout)        v(vout)        
 0.00000000e+00  3.40892062e-09  4.56149893e-01  4.56149893e-01  3.32916196e-09  3.23226486e-09  3.66879529e-09  3.21878795e-09  1.54506709e-07  8.02287137e-09  0.00000000e+00 
 1.00000000e-02  3.40892066e-09  4.56149897e-01  4.56149897e-01  3.32916194e-09  3.23226490e-09  3.66879533e-09  3.21878794e-09  1.54506719e-07  8.02258027e-09  1.00000000e-02 
 2.00000000e-02  3.40892066e-09  4.56149874e-01  4.56149874e-01  3.32916194e-09  3.23226490e-09  3.66879526e-09  3.21878800e-09  1.54506695e-07  8.02207789e-09  2.00000000e-02 
 3.00000000e-02  3.40892066e-09  4.56149887e-01  4.56149887e-01  3.32916194e-09  3.23226490e-09  3.66879532e-09  3.21878793e-09  1.54506700e-07  8.02178146e-09  3.00000000e-02 
 4.00000000e-02  3.40892066e-09  4.56149886e-01  4.56149887e-01  3.32916194e-09  3.23226490e-09  3.66879532e-09  3.21878795e-09  1.54506715e-07  8.02143552e-09  4.00000000e-02 
 5.00000000e-02  3.40892060e-09  4.56149880e-01  4.56149881e-01  3.32916194e-09  3.23226490e-09  3.66879532e-09  3.21878793e-09  1.54506694e-07  8.02111755e-09  5.00000000e-02 
 6.00000000e-02  3.40892066e-09  4.56149886e-01  4.56149886e-01  3.32916194e-09  3.23226490e-09  3.66879532e-09  3.21878801e-09  1.54506711e-07  8.02084266e-09  6.00000000e-02 
 7.00000000e-02  3.40892066e-09  4.56149886e-01  4.56149886e-01  3.32916194e-09  3.23226490e-09  3.66879532e-09  3.21878793e-09  1.54506700e-07  8.02048428e-09  7.00000000e-02 
 8.00000000e-02  3.40892066e-09  4.56149890e-01  4.56149890e-01  3.32916188e-09  3.23226490e-09  3.66879527e-09  3.21878795e-09  1.54506729e-07  8.02020761e-09  8.00000000e-02 
 9.00000000e-02  3.40892066e-09  4.56149885e-01  4.56149886e-01  3.32916194e-09  3.23226490e-09  3.66879527e-09  3.21878799e-09  1.54506721e-07  8.02001310e-09  9.00000000e-02 
 1.00000000e-01  3.40892066e-09  4.56149874e-01  4.56149874e-01  3.32916194e-09  3.23226490e-09  3.66879526e-09  3.21878799e-09  1.54506694e-07  8.01975908e-09  1.00000000e-01 
 1.10000000e-01  3.40892066e-09  4.56149879e-01  4.56149879e-01  3.32916194e-09  3.23226490e-09  3.66879532e-09  3.21878794e-09  1.54506697e-07  8.01944200e-09  1.10000000e-01 
 1.20000000e-01  3.40892066e-09  4.56149871e-01  4.56149871e-01  3.32916188e-09  3.23226490e-09  3.66879532e-09  3.21878795e-09  1.54506689e-07  8.01924127e-09  1.20000000e-01 
 1.30000000e-01  3.40892066e-09  4.56149878e-01  4.56149878e-01  3.32916194e-09  3.23226490e-09  3.66879527e-09  3.21878794e-09  1.54506701e-07  8.01902278e-09  1.30000000e-01 
 1.40000000e-01  3.40892066e-09  4.56149873e-01  4.56149873e-01  3.32916188e-09  3.23226490e-09  3.66879526e-09  3.21878794e-09  1.54506705e-07  8.01887623e-09  1.40000000e-01 
 1.50000000e-01  3.40892066e-09  4.56149888e-01  4.56149888e-01  3.32916194e-09  3.23226490e-09  3.66879527e-09  3.21878794e-09  1.54506711e-07  8.01870037e-09  1.50000000e-01 
 1.60000000e-01  3.40892066e-09  4.56149892e-01  4.56149892e-01  3.32916188e-09  3.23226490e-09  3.66879527e-09  3.21878794e-09  1.54506719e-07  8.01852984e-09  1.60000000e-01 
 1.70000000e-01  3.40892066e-09  4.56149892e-01  4.56149892e-01  3.32916194e-09  3.23226490e-09  3.66879532e-09  3.21878794e-09  1.54506738e-07  8.01822253e-09  1.70000000e-01 
 1.80000000e-01  3.40892066e-09  4.56149896e-01  4.56149896e-01  3.32916194e-09  3.23226490e-09  3.66879533e-09  3.21878800e-09  1.54506721e-07  8.01812305e-09  1.80000000e-01 
 1.90000000e-01  3.40892066e-09  4.56149892e-01  4.56149892e-01  3.32916194e-09  3.23226490e-09  3.66879527e-09  3.21878793e-09  1.54506726e-07  8.01792410e-09  1.90000000e-01 
 2.00000000e-01  3.40892066e-09  4.56149896e-01  4.56149896e-01  3.32916188e-09  3.23226490e-09  3.66879527e-09  3.21878801e-09  1.54506725e-07  8.01776245e-09  2.00000000e-01 
 2.10000000e-01  3.40892066e-09  4.56149884e-01  4.56149884e-01  3.32916194e-09  3.23226490e-09  3.66879532e-09  3.21878793e-09  1.54506715e-07  8.01773226e-09  2.10000000e-01 
 2.20000000e-01  3.40892060e-09  4.56149888e-01  4.56149888e-01  3.32916188e-09  3.23226490e-09  3.66879532e-09  3.21878795e-09  1.54506725e-07  8.01745870e-09  2.20000000e-01 
 2.30000000e-01  3.40892066e-09  4.56149881e-01  4.56149881e-01  3.32916188e-09  3.23226490e-09  3.66879532e-09  3.21878799e-09  1.54506712e-07  8.01724021e-09  2.30000000e-01 
 2.40000000e-01  3.40892066e-09  4.56149887e-01  4.56149887e-01  3.32916194e-09  3.23226490e-09  3.66879527e-09  3.21878799e-09  1.54506720e-07  8.01729705e-09  2.40000000e-01 
 2.50000000e-01  3.40892066e-09  4.56149858e-01  4.56149858e-01  3.32916194e-09  3.23226490e-09  3.66879526e-09  3.21878794e-09  1.54506677e-07  8.01716027e-09  2.50000000e-01 
 2.60000000e-01  3.40892066e-09  4.56149901e-01  4.56149902e-01  3.32916194e-09  3.23226490e-09  3.66879527e-09  3.21878795e-09  1.54506724e-07  8.01712297e-09  2.60000000e-01 
 2.70000000e-01  3.40892066e-09  4.56149878e-01  4.56149878e-01  3.32916194e-09  3.23226490e-09  3.66879527e-09  3.21878793e-09  1.54506701e-07  8.01678013e-09  2.70000000e-01 
 2.80000000e-01  3.40892066e-09  4.56149880e-01  4.56149881e-01  3.32916188e-09  3.23226490e-09  3.66879527e-09  3.21878795e-09  1.54506702e-07  8.01675881e-09  2.80000000e-01 
 2.90000000e-01  3.40892066e-09  4.56149894e-01  4.56149894e-01  3.32916194e-09  3.23226490e-09  3.66879527e-09  3.21878800e-09  1.54506729e-07  8.01659183e-09  2.90000000e-01 
 3.00000000e-01  3.40892066e-09  4.56149900e-01  4.56149900e-01  3.32916188e-09  3.23226490e-09  3.66879533e-09  3.21878793e-09  1.54506724e-07  8.01658473e-09  3.00000000e-01 
 3.10000000e-01  3.40892066e-09  4.56149913e-01  4.56149913e-01  3.32916188e-09  3.23226490e-09  3.66879527e-09  3.21878795e-09  1.54506742e-07  8.01647815e-09  3.10000000e-01 
 3.20000000e-01  3.40892066e-09  4.56149914e-01  4.56149914e-01  3.32916188e-09  3.23226490e-09  3.66879533e-09  3.21878799e-09  1.54506745e-07  8.01651723e-09  3.20000000e-01 
 3.30000000e-01  3.40892066e-09  4.56149879e-01  4.56149880e-01  3.32916188e-09  3.23226490e-09  3.66879532e-09  3.21878794e-09  1.54506712e-07  8.01639288e-09  3.30000000e-01 
 3.40000000e-01  3.40892066e-09  4.56149887e-01  4.56149887e-01  3.32916188e-09  3.23226490e-09  3.66879532e-09  3.21878801e-09  1.54506702e-07  8.01617617e-09  3.40000000e-01 
 3.50000000e-01  3.40892066e-09  4.56149875e-01  4.56149875e-01  3.32916188e-09  3.23226490e-09  3.66879532e-09  3.21878799e-09  1.54506706e-07  8.01621169e-09  3.50000000e-01 
 3.60000000e-01  3.40892066e-09  4.56149891e-01  4.56149891e-01  3.32916188e-09  3.23226490e-09  3.66879527e-09  3.21878799e-09  1.54506721e-07  8.01604472e-09  3.60000000e-01 
 3.70000000e-01  3.40892066e-09  4.56149873e-01  4.56149873e-01  3.32916194e-09  3.23226490e-09  3.66879532e-09  3.21878794e-09  1.54506679e-07  8.01590971e-09  3.70000000e-01 
 3.80000000e-01  3.40892066e-09  4.56149893e-01  4.56149893e-01  3.32916194e-09  3.23226490e-09  3.66879527e-09  3.21878795e-09  1.54506725e-07  8.01600208e-09  3.80000000e-01 
 3.90000000e-01  3.40892066e-09  4.56149898e-01  4.56149899e-01  3.32916194e-09  3.23226490e-09  3.66879533e-09  3.21878799e-09  1.54506724e-07  8.01577826e-09  3.90000000e-01 
 4.00000000e-01  3.40892066e-09  4.56149886e-01  4.56149886e-01  3.32916194e-09  3.23226490e-09  3.66879532e-09  3.21878799e-09  1.54506713e-07  8.01576050e-09  4.00000000e-01 
 4.10000000e-01  3.40892066e-09  4.56149894e-01  4.56149894e-01  3.32916188e-09  3.23226490e-09  3.66879532e-09  3.21878799e-09  1.54506729e-07  8.01572497e-09  4.10000000e-01 
 4.20000000e-01  3.40892066e-09  4.56149896e-01  4.56149896e-01  3.32916188e-09  3.23226490e-09  3.66879527e-09  3.21878799e-09  1.54506729e-07  8.01555089e-09  4.20000000e-01 
 4.30000000e-01  3.40892066e-09  4.56149890e-01  4.56149890e-01  3.32916194e-09  3.23226490e-09  3.66879532e-09  3.21878799e-09  1.54506721e-07  8.01545497e-09  4.30000000e-01 
 4.40000000e-01  3.40892066e-09  4.56149894e-01  4.56149895e-01  3.32916194e-09  3.23226490e-09  3.66879527e-09  3.21878794e-09  1.54506731e-07  8.01540168e-09  4.40000000e-01 
 4.50000000e-01  3.40892066e-09  4.56149883e-01  4.56149883e-01  3.32916194e-09  3.23226490e-09  3.66879532e-09  3.21878801e-09  1.54506695e-07  8.01555089e-09  4.50000000e-01 
 4.60000000e-01  3.40892060e-09  4.56149885e-01  4.56149885e-01  3.32916188e-09  3.23226490e-09  3.66879527e-09  3.21878799e-09  1.54506701e-07  8.01539457e-09  4.60000000e-01 
 4.70000000e-01  3.40892066e-09  4.56149874e-01  4.56149874e-01  3.32916194e-09  3.23226490e-09  3.66879526e-09  3.21878799e-09  1.54506701e-07  8.01528444e-09  4.70000000e-01 
 4.80000000e-01  3.40892066e-09  4.56149897e-01  4.56149897e-01  3.32916188e-09  3.23226490e-09  3.66879527e-09  3.21878794e-09  1.54506731e-07  8.01523470e-09  4.80000000e-01 
 4.90000000e-01  3.40892066e-09  4.56149909e-01  4.56149909e-01  3.32916188e-09  3.23226490e-09  3.66879527e-09  3.21878795e-09  1.54506749e-07  8.01523470e-09  4.90000000e-01 
 5.00000000e-01  3.40892066e-09  4.56149902e-01  4.56149902e-01  3.32916188e-09  3.23226490e-09  3.66879533e-09  3.21878799e-09  1.54506739e-07  8.01523470e-09  5.00000000e-01 
 5.10000000e-01  3.40892066e-09  4.56149886e-01  4.56149886e-01  3.32916194e-09  3.23226485e-09  3.66879532e-09  3.21878794e-09  1.54506709e-07  8.01509614e-09  5.10000000e-01 
 5.20000000e-01  3.40892066e-09  4.56149885e-01  4.56149885e-01  3.32916188e-09  3.23226490e-09  3.66879532e-09  3.21878795e-09  1.54506709e-07  8.01509614e-09  5.20000000e-01 
 5.30000000e-01  3.40892066e-09  4.56149878e-01  4.56149878e-01  3.32916188e-09  3.23226490e-09  3.66879527e-09  3.21878793e-09  1.54506712e-07  8.01498956e-09  5.30000000e-01 
 5.40000000e-01  3.40892066e-09  4.56149884e-01  4.56149884e-01  3.32916188e-09  3.23226490e-09  3.66879532e-09  3.21878795e-09  1.54506705e-07  8.01490430e-09  5.40000000e-01 
 5.50000000e-01  3.40892066e-09  4.56149882e-01  4.56149882e-01  3.32916194e-09  3.23226490e-09  3.66879532e-09  3.21878793e-09  1.54506712e-07  8.01473377e-09  5.50000000e-01 
 5.60000000e-01  3.40892066e-09  4.56149878e-01  4.56149878e-01  3.32916194e-09  3.23226490e-09  3.66879532e-09  3.21878800e-09  1.54506705e-07  8.01472311e-09  5.60000000e-01 
 5.70000000e-01  3.40892066e-09  4.56149893e-01  4.56149893e-01  3.32916194e-09  3.23226490e-09  3.66879527e-09  3.21878793e-09  1.54506726e-07  8.01469113e-09  5.70000000e-01 
 5.80000000e-01  3.40892066e-09  4.56149893e-01  4.56149893e-01  3.32916194e-09  3.23226490e-09  3.66879527e-09  3.21878801e-09  1.54506719e-07  8.01464495e-09  5.80000000e-01 
 5.90000000e-01  3.40892066e-09  4.56149894e-01  4.56149894e-01  3.32916194e-09  3.23226490e-09  3.66879527e-09  3.21878799e-09  1.54506722e-07  8.01473732e-09  5.90000000e-01 
 6.00000000e-01  3.40892066e-09  4.56149894e-01  4.56149895e-01  3.32916194e-09  3.23226490e-09  3.66879532e-09  3.21878799e-09  1.54506736e-07  8.01466626e-09  6.00000000e-01 
 6.10000000e-01  3.40892066e-09  4.56149893e-01  4.56149893e-01  3.32916194e-09  3.23226490e-09  3.66879532e-09  3.21878799e-09  1.54506725e-07  8.01454547e-09  6.10000000e-01 
 6.20000000e-01  3.40892066e-09  4.56149905e-01  4.56149905e-01  3.32916194e-09  3.23226490e-09  3.66879527e-09  3.21878794e-09  1.54506726e-07  8.01455968e-09  6.20000000e-01 
 6.30000000e-01  3.40892066e-09  4.56149892e-01  4.56149892e-01  3.32916194e-09  3.23226490e-09  3.66879527e-09  3.21878795e-09  1.54506709e-07  8.01437494e-09  6.30000000e-01 
 6.40000000e-01  3.40892066e-09  4.56149904e-01  4.56149904e-01  3.32916194e-09  3.23226490e-09  3.66879533e-09  3.21878799e-09  1.54506742e-07  8.01443178e-09  6.40000000e-01 
 6.50000000e-01  3.40892066e-09  4.56149873e-01  4.56149873e-01  3.32916188e-09  3.23226490e-09  3.66879532e-09  3.21878799e-09  1.54506673e-07  8.01433231e-09  6.50000000e-01 
 6.60000000e-01  3.40892066e-09  4.56149881e-01  4.56149881e-01  3.32916194e-09  3.23226490e-09  3.66879532e-09  3.21878799e-09  1.54506702e-07  8.01435363e-09  6.60000000e-01 
 6.70000000e-01  3.40892066e-09  4.56149894e-01  4.56149894e-01  3.32916188e-09  3.23226490e-09  3.66879532e-09  3.21878794e-09  1.54506721e-07  8.01425415e-09  6.70000000e-01 
 6.80000000e-01  3.40892066e-09  4.56149875e-01  4.56149875e-01  3.32916194e-09  3.23226490e-09  3.66879526e-09  3.21878795e-09  1.54506698e-07  8.01412625e-09  6.80000000e-01 
 6.90000000e-01  3.40892066e-09  4.56149892e-01  4.56149892e-01  3.32916194e-09  3.23226490e-09  3.66879532e-09  3.21878794e-09  1.54506725e-07  8.01414757e-09  6.90000000e-01 
 7.00000000e-01  3.40892066e-09  4.56149887e-01  4.56149887e-01  3.32916194e-09  3.23226490e-09  3.66879532e-09  3.21878800e-09  1.54506716e-07  8.01404099e-09  7.00000000e-01 
 7.10000000e-01  3.40892066e-09  4.56149882e-01  4.56149882e-01  3.32916188e-09  3.23226490e-09  3.66879527e-09  3.21878799e-09  1.54506716e-07  8.01402678e-09  7.10000000e-01 
 7.20000000e-01  3.40892066e-09  4.56149886e-01  4.56149887e-01  3.32916194e-09  3.23226490e-09  3.66879532e-09  3.21878799e-09  1.54506717e-07  8.01382782e-09  7.20000000e-01 
 7.30000000e-01  3.40892066e-09  4.56149875e-01  4.56149875e-01  3.32916194e-09  3.23226490e-09  3.66879526e-09  3.21878799e-09  1.54506710e-07  8.01387756e-09  7.30000000e-01 
 7.40000000e-01  3.40892066e-09  4.56149885e-01  4.56149885e-01  3.32916188e-09  3.23226490e-09  3.66879527e-09  3.21878799e-09  1.54506706e-07  8.01388467e-09  7.40000000e-01 
 7.50000000e-01  3.40892066e-09  4.56149896e-01  4.56149896e-01  3.32916194e-09  3.23226490e-09  3.66879527e-09  3.21878794e-09  1.54506737e-07  8.01388467e-09  7.50000000e-01 
 7.60000000e-01  3.40892066e-09  4.56149866e-01  4.56149867e-01  3.32916194e-09  3.23226490e-09  3.66879532e-09  3.21878800e-09  1.54506667e-07  8.01377098e-09  7.60000000e-01 
 7.70000000e-01  3.40892066e-09  4.56149870e-01  4.56149870e-01  3.32916188e-09  3.23226490e-09  3.66879532e-09  3.21878793e-09  1.54506691e-07  8.01380651e-09  7.70000000e-01 
 7.80000000e-01  3.40892066e-09  4.56149882e-01  4.56149882e-01  3.32916188e-09  3.23226490e-09  3.66879527e-09  3.21878801e-09  1.54506711e-07  8.01369282e-09  7.80000000e-01 
 7.90000000e-01  3.40892066e-09  4.56149911e-01  4.56149911e-01  3.32916194e-09  3.23226490e-09  3.66879533e-09  3.21878799e-09  1.54506755e-07  8.01374256e-09  7.90000000e-01 
 8.00000000e-01  3.40892066e-09  4.56149891e-01  4.56149891e-01  3.32916194e-09  3.23226490e-09  3.66879527e-09  3.21878794e-09  1.54506717e-07  8.01352940e-09  8.00000000e-01 
 8.10000000e-01  3.40892066e-09  4.56149885e-01  4.56149885e-01  3.32916194e-09  3.23226490e-09  3.66879532e-09  3.21878801e-09  1.54506715e-07  8.01335176e-09  8.10000000e-01 
 8.20000000e-01  3.40892060e-09  4.56149895e-01  4.56149895e-01  3.32916188e-09  3.23226490e-09  3.66879527e-09  3.21878799e-09  1.54506729e-07  8.01342992e-09  8.20000000e-01 
 8.30000000e-01  3.40892066e-09  4.56149907e-01  4.56149908e-01  3.32916188e-09  3.23226490e-09  3.66879533e-09  3.21878799e-09  1.54506740e-07  8.01333044e-09  8.30000000e-01 
 8.40000000e-01  3.40892066e-09  4.56149892e-01  4.56149892e-01  3.32916194e-09  3.23226490e-09  3.66879532e-09  3.21878794e-09  1.54506718e-07  8.01336597e-09  8.40000000e-01 
 8.50000000e-01  3.40892060e-09  4.56149888e-01  4.56149888e-01  3.32916194e-09  3.23226490e-09  3.66879532e-09  3.21878795e-09  1.54506719e-07  8.01333755e-09  8.50000000e-01 
 8.60000000e-01  3.40892066e-09  4.56149881e-01  4.56149881e-01  3.32916194e-09  3.23226490e-09  3.66879527e-09  3.21878793e-09  1.54506696e-07  8.01328071e-09  8.60000000e-01 
 8.70000000e-01  3.40892066e-09  4.56149888e-01  4.56149888e-01  3.32916188e-09  3.23226490e-09  3.66879527e-09  3.21878801e-09  1.54506715e-07  8.01320255e-09  8.70000000e-01 
 8.80000000e-01  3.40892066e-09  4.56149888e-01  4.56149888e-01  3.32916194e-09  3.23226490e-09  3.66879532e-09  3.21878799e-09  1.54506732e-07  8.01311728e-09  8.80000000e-01 
 8.90000000e-01  3.40892066e-09  4.56149877e-01  4.56149877e-01  3.32916194e-09  3.23226490e-09  3.66879532e-09  3.21878794e-09  1.54506700e-07  8.01305333e-09  8.90000000e-01 
 9.00000000e-01  3.40892066e-09  4.56149871e-01  4.56149871e-01  3.32916194e-09  3.23226490e-09  3.66879532e-09  3.21878795e-09  1.54506687e-07  8.01308886e-09  9.00000000e-01 
 9.10000000e-01  3.40892060e-09  4.56149898e-01  4.56149898e-01  3.32916194e-09  3.23226490e-09  3.66879533e-09  3.21878794e-09  1.54506732e-07  8.01304623e-09  9.10000000e-01 
 9.20000000e-01  3.40892066e-09  4.56149887e-01  4.56149887e-01  3.32916188e-09  3.23226490e-09  3.66879532e-09  3.21878800e-09  1.54506701e-07  8.01296807e-09  9.20000000e-01 
 9.30000000e-01  3.40892066e-09  4.56149883e-01  4.56149883e-01  3.32916194e-09  3.23226490e-09  3.66879532e-09  3.21878793e-09  1.54506715e-07  8.01295386e-09  9.30000000e-01 
 9.40000000e-01  3.40892066e-09  4.56149912e-01  4.56149912e-01  3.32916194e-09  3.23226490e-09  3.66879527e-09  3.21878795e-09  1.54506761e-07  8.01281885e-09  9.40000000e-01 
 9.50000000e-01  3.40892066e-09  4.56149900e-01  4.56149901e-01  3.32916194e-09  3.23226490e-09  3.66879533e-09  3.21878793e-09  1.54506723e-07  8.01279043e-09  9.50000000e-01 
 9.60000000e-01  3.40892066e-09  4.56149872e-01  4.56149873e-01  3.32916188e-09  3.23226490e-09  3.66879526e-09  3.21878795e-09  1.54506682e-07  8.01280464e-09  9.60000000e-01 
 9.70000000e-01  3.40892066e-09  4.56149889e-01  4.56149889e-01  3.32916188e-09  3.23226490e-09  3.66879527e-09  3.21878800e-09  1.54506714e-07  8.01269806e-09  9.70000000e-01 
 9.80000000e-01  3.40892066e-09  4.56149890e-01  4.56149890e-01  3.32916188e-09  3.23226490e-09  3.66879527e-09  3.21878799e-09  1.54506714e-07  8.01249200e-09  9.80000000e-01 
 9.90000000e-01  3.40892066e-09  4.56149885e-01  4.56149885e-01  3.32916194e-09  3.23226490e-09  3.66879532e-09  3.21878799e-09  1.54506718e-07  8.01254885e-09  9.90000000e-01 
 1.00000000e+00  3.40892060e-09  4.56149884e-01  4.56149884e-01  3.32916188e-09  3.23226490e-09  3.66879532e-09  3.21878794e-09  1.54506718e-07  8.01241384e-09  1.00000000e+00 
 1.01000000e+00  3.40892066e-09  4.56149886e-01  4.56149886e-01  3.32916188e-09  3.23226490e-09  3.66879532e-09  3.21878795e-09  1.54506720e-07  8.01254885e-09  1.01000000e+00 
 1.02000000e+00  3.40892066e-09  4.56149871e-01  4.56149871e-01  3.32916194e-09  3.23226490e-09  3.66879532e-09  3.21878793e-09  1.54506682e-07  8.01238542e-09  1.02000000e+00 
 1.03000000e+00  3.40892066e-09  4.56149872e-01  4.56149872e-01  3.32916188e-09  3.23226490e-09  3.66879526e-09  3.21878795e-09  1.54506691e-07  8.01233568e-09  1.03000000e+00 
 1.04000000e+00  3.40892066e-09  4.56149874e-01  4.56149874e-01  3.32916194e-09  3.23226490e-09  3.66879526e-09  3.21878794e-09  1.54506692e-07  8.01233568e-09  1.04000000e+00 
 1.05000000e+00  3.40892066e-09  4.56149907e-01  4.56149907e-01  3.32916188e-09  3.23226490e-09  3.66879527e-09  3.21878794e-09  1.54506756e-07  8.01231437e-09  1.05000000e+00 
 1.06000000e+00  3.40892066e-09  4.56149911e-01  4.56149911e-01  3.32916188e-09  3.23226490e-09  3.66879527e-09  3.21878800e-09  1.54506732e-07  8.01227173e-09  1.06000000e+00 
 1.07000000e+00  3.40892066e-09  4.56149891e-01  4.56149891e-01  3.32916188e-09  3.23226490e-09  3.66879527e-09  3.21878799e-09  1.54506725e-07  8.01208699e-09  1.07000000e+00 
 1.08000000e+00  3.40892060e-09  4.56149901e-01  4.56149901e-01  3.32916194e-09  3.23226490e-09  3.66879527e-09  3.21878794e-09  1.54506729e-07  8.01210120e-09  1.08000000e+00 
 1.09000000e+00  3.40892066e-09  4.56149875e-01  4.56149876e-01  3.32916194e-09  3.23226490e-09  3.66879526e-09  3.21878795e-09  1.54506704e-07  8.01212963e-09  1.09000000e+00 
 1.10000000e+00  3.40892066e-09  4.56149880e-01  4.56149880e-01  3.32916194e-09  3.23226490e-09  3.66879527e-09  3.21878794e-09  1.54506685e-07  8.01198041e-09  1.10000000e+00 
