 v-sweep         v(b0)           v(b1)           v(b2)           v(b3)           v(b4)           v(b5)           v(b6)           i(vbias)        i(viout)        v(vout)        
 0.00000000e+00  3.21527860e-09  3.13393329e-09  3.33832472e-09  3.21041979e-09  3.53292103e-09  4.57584051e-01  4.57584051e-01  1.58716537e-07  1.36631809e-07  0.00000000e+00 
 1.00000000e-02  3.21527863e-09  3.13393331e-09  3.33832469e-09  3.21041976e-09  3.53292106e-09  4.57584029e-01  4.57584029e-01  1.58716499e-07  1.36631348e-07  1.00000000e-02 
 2.00000000e-02  3.21527863e-09  3.13393331e-09  3.33832474e-09  3.21041976e-09  3.53292106e-09  4.57584028e-01  4.57584028e-01  1.58716501e-07  1.36630893e-07  2.00000000e-02 
 3.00000000e-02  3.21527863e-09  3.13393325e-09  3.33832468e-09  3.21041976e-09  3.53292106e-09  4.57584007e-01  4.57584007e-01  1.58716468e-07  1.36630338e-07  3.00000000e-02 
 4.00000000e-02  3.21527863e-09  3.13393331e-09  3.33832469e-09  3.21041977e-09  3.53292106e-09  4.57584032e-01  4.57584032e-01  1.58716513e-07  1.36630157e-07  4.00000000e-02 
 5.00000000e-02  3.21527863e-09  3.13393331e-09  3.33832474e-09  3.21041975e-09  3.53292100e-09  4.57584041e-01  4.57584041e-01  1.58716517e-07  1.36629836e-07  5.00000000e-02 
 6.00000000e-02  3.21527863e-09  3.13393326e-09  3.33832469e-09  3.21041977e-09  3.53292106e-09  4.57584057e-01  4.57584057e-01  1.58716549e-07  1.36629527e-07  6.00000000e-02 
 7.00000000e-02  3.21527857e-09  3.13393325e-09  3.33832468e-09  3.21041981e-09  3.53292106e-09  4.57584009e-01  4.57584009e-01  1.58716463e-07  1.36628966e-07  7.00000000e-02 
 8.00000000e-02  3.21527857e-09  3.13393331e-09  3.33832468e-09  3.21041976e-09  3.53292105e-09  4.57584002e-01  4.57584002e-01  1.58716452e-07  1.36628649e-07  8.00000000e-02 
 9.00000000e-02  3.21527863e-09  3.13393326e-09  3.33832469e-09  3.21041983e-09  3.53292106e-09  4.57584033e-01  4.57584033e-01  1.58716503e-07  1.36628551e-07  9.00000000e-02 
 1.00000000e-01  3.21527863e-09  3.13393325e-09  3.33832468e-09  3.21041981e-09  3.53292106e-09  4.57584009e-01  4.57584009e-01  1.58716467e-07  1.36628078e-07  1.00000000e-01 
 1.10000000e-01  3.21527863e-09  3.13393331e-09  3.33832469e-09  3.21041976e-09  3.53292100e-09  4.57584034e-01  4.57584034e-01  1.58716505e-07  1.36627986e-07  1.10000000e-01 
 1.20000000e-01  3.21527863e-09  3.13393331e-09  3.33832469e-09  3.21041981e-09  3.53292106e-09  4.57584038e-01  4.57584038e-01  1.58716518e-07  1.36627681e-07  1.20000000e-01 
 1.30000000e-01  3.21527857e-09  3.13393331e-09  3.33832469e-09  3.21041981e-09  3.53292106e-09  4.57584023e-01  4.57584023e-01  1.58716505e-07  1.36627378e-07  1.30000000e-01 
 1.40000000e-01  3.21527863e-09  3.13393331e-09  3.33832469e-09  3.21041981e-09  3.53292106e-09  4.57584027e-01  4.57584028e-01  1.58716489e-07  1.36627090e-07  1.40000000e-01 
 1.50000000e-01  3.21527863e-09  3.13393331e-09  3.33832469e-09  3.21041982e-09  3.53292106e-09  4.57584054e-01  4.57584054e-01  1.58716550e-07  1.36627012e-07  1.50000000e-01 
 1.60000000e-01  3.21527863e-09  3.13393331e-09  3.33832469e-09  3.21041976e-09  3.53292106e-09  4.57584029e-01  4.57584029e-01  1.58716515e-07  1.36626625e-07  1.60000000e-01 
 1.70000000e-01  3.21527863e-09  3.13393331e-09  3.33832469e-09  3.21041976e-09  3.53292106e-09  4.57584045e-01  4.57584045e-01  1.58716535e-07  1.36626463e-07  1.70000000e-01 
 1.80000000e-01  3.21527863e-09  3.13393331e-09  3.33832469e-09  3.21041981e-09  3.53292106e-09  4.57584026e-01  4.57584026e-01  1.58716503e-07  1.36626278e-07  1.80000000e-01 
 1.90000000e-01  3.21527857e-09  3.13393331e-09  3.33832469e-09  3.21041976e-09  3.53292106e-09  4.57584032e-01  4.57584032e-01  1.58716509e-07  1.36626003e-07  1.90000000e-01 
 2.00000000e-01  3.21527863e-09  3.13393331e-09  3.33832469e-09  3.21041981e-09  3.53292106e-09  4.57584029e-01  4.57584029e-01  1.58716509e-07  1.36625964e-07  2.00000000e-01 
 2.10000000e-01  3.21527863e-09  3.13393326e-09  3.33832469e-09  3.21041976e-09  3.53292106e-09  4.57584019e-01  4.57584019e-01  1.58716483e-07  1.36625763e-07  2.10000000e-01 
 2.20000000e-01  3.21527863e-09  3.13393331e-09  3.33832469e-09  3.21041976e-09  3.53292106e-09  4.57584036e-01  4.57584036e-01  1.58716519e-07  1.36625635e-07  2.20000000e-01 
 2.30000000e-01  3.21527863e-09  3.13393331e-09  3.33832469e-09  3.21041976e-09  3.53292106e-09  4.57584042e-01  4.57584042e-01  1.58716519e-07  1.36625376e-07  2.30000000e-01 
 2.40000000e-01  3.21527863e-09  3.13393326e-09  3.33832469e-09  3.21041976e-09  3.53292100e-09  4.57584040e-01  4.57584040e-01  1.58716517e-07  1.36625198e-07  2.40000000e-01 
 2.50000000e-01  3.21527863e-09  3.13393331e-09  3.33832469e-09  3.21041976e-09  3.53292100e-09  4.57584039e-01  4.57584039e-01  1.58716524e-07  1.36625079e-07  2.50000000e-01 
 2.60000000e-01  3.21527863e-09  3.13393331e-09  3.33832469e-09  3.21041981e-09  3.53292100e-09  4.57584026e-01  4.57584026e-01  1.58716509e-07  1.36624925e-07  2.60000000e-01 
 2.70000000e-01  3.21527863e-09  3.13393326e-09  3.33832469e-09  3.21041981e-09  3.53292100e-09  4.57584041e-01  4.57584041e-01  1.58716514e-07  1.36624809e-07  2.70000000e-01 
 2.80000000e-01  3.21527863e-09  3.13393331e-09  3.33832469e-09  3.21041976e-09  3.53292106e-09  4.57584035e-01  4.57584035e-01  1.58716515e-07  1.36624662e-07  2.80000000e-01 
 2.90000000e-01  3.21527863e-09  3.13393331e-09  3.33832469e-09  3.21041981e-09  3.53292106e-09  4.57584016e-01  4.57584016e-01  1.58716502e-07  1.36624351e-07  2.90000000e-01 
 3.00000000e-01  3.21527863e-09  3.13393331e-09  3.33832474e-09  3.21041976e-09  3.53292106e-09  4.57584021e-01  4.57584021e-01  1.58716497e-07  1.36624319e-07  3.00000000e-01 
 3.10000000e-01  3.21527857e-09  3.13393331e-09  3.33832469e-09  3.21041976e-09  3.53292106e-09  4.57584029e-01  4.57584029e-01  1.58716513e-07  1.36624188e-07  3.10000000e-01 
 3.20000000e-01  3.21527863e-09  3.13393331e-09  3.33832469e-09  3.21041976e-09  3.53292106e-09  4.57584024e-01  4.57584025e-01  1.58716492e-07  1.36624081e-07  3.20000000e-01 
 3.30000000e-01  3.21527857e-09  3.13393326e-09  3.33832474e-09  3.21041981e-09  3.53292106e-09  4.57584032e-01  4.57584032e-01  1.58716515e-07  1.36623914e-07  3.30000000e-01 
 3.40000000e-01  3.21527857e-09  3.13393331e-09  3.33832469e-09  3.21041981e-09  3.53292106e-09  4.57584023e-01  4.57584023e-01  1.58716497e-07  1.36623726e-07  3.40000000e-01 
 3.50000000e-01  3.21527863e-09  3.13393326e-09  3.33832469e-09  3.21041981e-09  3.53292100e-09  4.57584026e-01  4.57584026e-01  1.58716498e-07  1.36623783e-07  3.50000000e-01 
 3.60000000e-01  3.21527857e-09  3.13393331e-09  3.33832469e-09  3.21041982e-09  3.53292106e-09  4.57584055e-01  4.57584055e-01  1.58716548e-07  1.36623569e-07  3.60000000e-01 
 3.70000000e-01  3.21527863e-09  3.13393331e-09  3.33832469e-09  3.21041982e-09  3.53292106e-09  4.57584046e-01  4.57584046e-01  1.58716531e-07  1.36623370e-07  3.70000000e-01 
 3.80000000e-01  3.21527863e-09  3.13393326e-09  3.33832469e-09  3.21041981e-09  3.53292106e-09  4.57584032e-01  4.57584032e-01  1.58716512e-07  1.36623409e-07  3.80000000e-01 
 3.90000000e-01  3.21527857e-09  3.13393331e-09  3.33832469e-09  3.21041981e-09  3.53292100e-09  4.57584039e-01  4.57584039e-01  1.58716509e-07  1.36623207e-07  3.90000000e-01 
 4.00000000e-01  3.21527863e-09  3.13393325e-09  3.33832469e-09  3.21041976e-09  3.53292106e-09  4.57584016e-01  4.57584016e-01  1.58716508e-07  1.36623107e-07  4.00000000e-01 
 4.10000000e-01  3.21527863e-09  3.13393331e-09  3.33832469e-09  3.21041981e-09  3.53292106e-09  4.57584013e-01  4.57584013e-01  1.58716480e-07  1.36622891e-07  4.10000000e-01 
 4.20000000e-01  3.21527863e-09  3.13393331e-09  3.33832474e-09  3.21041976e-09  3.53292106e-09  4.57584022e-01  4.57584022e-01  1.58716495e-07  1.36622859e-07  4.20000000e-01 
 4.30000000e-01  3.21527857e-09  3.13393331e-09  3.33832469e-09  3.21041981e-09  3.53292100e-09  4.57584032e-01  4.57584032e-01  1.58716506e-07  1.36622752e-07  4.30000000e-01 
 4.40000000e-01  3.21527857e-09  3.13393331e-09  3.33832469e-09  3.21041981e-09  3.53292100e-09  4.57584027e-01  4.57584027e-01  1.58716510e-07  1.36622610e-07  4.40000000e-01 
 4.50000000e-01  3.21527857e-09  3.13393326e-09  3.33832469e-09  3.21041976e-09  3.53292106e-09  4.57584031e-01  4.57584032e-01  1.58716493e-07  1.36622567e-07  4.50000000e-01 
 4.60000000e-01  3.21527857e-09  3.13393326e-09  3.33832469e-09  3.21041981e-09  3.53292100e-09  4.57584035e-01  4.57584035e-01  1.58716519e-07  1.36622447e-07  4.60000000e-01 
 4.70000000e-01  3.21527857e-09  3.13393331e-09  3.33832474e-09  3.21041976e-09  3.53292100e-09  4.57584045e-01  4.57584045e-01  1.58716526e-07  1.36622312e-07  4.70000000e-01 
 4.80000000e-01  3.21527863e-09  3.13393331e-09  3.33832469e-09  3.21041976e-09  3.53292106e-09  4.57584030e-01  4.57584030e-01  1.58716504e-07  1.36622255e-07  4.80000000e-01 
 4.90000000e-01  3.21527863e-09  3.13393326e-09  3.33832469e-09  3.21041976e-09  3.53292106e-09  4.57584051e-01  4.57584051e-01  1.58716536e-07  1.36622287e-07  4.90000000e-01 
 5.00000000e-01  3.21527857e-09  3.13393331e-09  3.33832469e-09  3.21041982e-09  3.53292106e-09  4.57584056e-01  4.57584056e-01  1.58716548e-07  1.36622159e-07  5.00000000e-01 
 5.10000000e-01  3.21527863e-09  3.13393331e-09  3.33832468e-09  3.21041976e-09  3.53292106e-09  4.57584007e-01  4.57584007e-01  1.58716479e-07  1.36621832e-07  5.10000000e-01 
 5.20000000e-01  3.21527857e-09  3.13393326e-09  3.33832469e-09  3.21041983e-09  3.53292106e-09  4.57584019e-01  4.57584019e-01  1.58716476e-07  1.36621782e-07  5.20000000e-01 
 5.30000000e-01  3.21527857e-09  3.13393331e-09  3.33832474e-09  3.21041981e-09  3.53292106e-09  4.57584005e-01  4.57584005e-01  1.58716481e-07  1.36621676e-07  5.30000000e-01 
 5.40000000e-01  3.21527857e-09  3.13393331e-09  3.33832469e-09  3.21041976e-09  3.53292106e-09  4.57584022e-01  4.57584022e-01  1.58716491e-07  1.36621725e-07  5.40000000e-01 
 5.50000000e-01  3.21527857e-09  3.13393331e-09  3.33832469e-09  3.21041976e-09  3.53292100e-09  4.57584038e-01  4.57584038e-01  1.58716517e-07  1.36621626e-07  5.50000000e-01 
 5.60000000e-01  3.21527857e-09  3.13393326e-09  3.33832469e-09  3.21041976e-09  3.53292106e-09  4.57584022e-01  4.57584022e-01  1.58716501e-07  1.36621466e-07  5.60000000e-01 
 5.70000000e-01  3.21527863e-09  3.13393331e-09  3.33832469e-09  3.21041981e-09  3.53292100e-09  4.57584028e-01  4.57584028e-01  1.58716505e-07  1.36621477e-07  5.70000000e-01 
 5.80000000e-01  3.21527857e-09  3.13393331e-09  3.33832469e-09  3.21041981e-09  3.53292106e-09  4.57584036e-01  4.57584036e-01  1.58716516e-07  1.36621352e-07  5.80000000e-01 
 5.90000000e-01  3.21527857e-09  3.13393331e-09  3.33832469e-09  3.21041976e-09  3.53292106e-09  4.57584043e-01  4.57584043e-01  1.58716524e-07  1.36621367e-07  5.90000000e-01 
 6.00000000e-01  3.21527857e-09  3.13393326e-09  3.33832469e-09  3.21041981e-09  3.53292106e-09  4.57584021e-01  4.57584021e-01  1.58716499e-07  1.36621203e-07  6.00000000e-01 
 6.10000000e-01  3.21527863e-09  3.13393326e-09  3.33832469e-09  3.21041981e-09  3.53292100e-09  4.57584041e-01  4.57584041e-01  1.58716534e-07  1.36621090e-07  6.10000000e-01 
 6.20000000e-01  3.21527857e-09  3.13393331e-09  3.33832468e-09  3.21041981e-09  3.53292106e-09  4.57584006e-01  4.57584006e-01  1.58716460e-07  1.36620848e-07  6.20000000e-01 
 6.30000000e-01  3.21527863e-09  3.13393331e-09  3.33832469e-09  3.21041982e-09  3.53292106e-09  4.57584049e-01  4.57584049e-01  1.58716531e-07  1.36620926e-07  6.30000000e-01 
 6.40000000e-01  3.21527857e-09  3.13393326e-09  3.33832469e-09  3.21041981e-09  3.53292100e-09  4.57584035e-01  4.57584035e-01  1.58716500e-07  1.36620841e-07  6.40000000e-01 
 6.50000000e-01  3.21527857e-09  3.13393326e-09  3.33832469e-09  3.21041981e-09  3.53292106e-09  4.57584031e-01  4.57584031e-01  1.58716504e-07  1.36620756e-07  6.50000000e-01 
 6.60000000e-01  3.21527857e-09  3.13393331e-09  3.33832469e-09  3.21041982e-09  3.53292106e-09  4.57584056e-01  4.57584056e-01  1.58716545e-07  1.36620748e-07  6.60000000e-01 
 6.70000000e-01  3.21527863e-09  3.13393326e-09  3.33832469e-09  3.21041976e-09  3.53292106e-09  4.57584033e-01  4.57584033e-01  1.58716501e-07  1.36620571e-07  6.70000000e-01 
 6.80000000e-01  3.21527857e-09  3.13393331e-09  3.33832469e-09  3.21041981e-09  3.53292106e-09  4.57584041e-01  4.57584041e-01  1.58716519e-07  1.36620436e-07  6.80000000e-01 
 6.90000000e-01  3.21527863e-09  3.13393331e-09  3.33832474e-09  3.21041976e-09  3.53292100e-09  4.57584024e-01  4.57584024e-01  1.58716482e-07  1.36620329e-07  6.90000000e-01 
 7.00000000e-01  3.21527863e-09  3.13393331e-09  3.33832474e-09  3.21041976e-09  3.53292100e-09  4.57584008e-01  4.57584008e-01  1.58716469e-07  1.36620095e-07  7.00000000e-01 
 7.10000000e-01  3.21527857e-09  3.13393325e-09  3.33832469e-09  3.21041977e-09  3.53292106e-09  4.57584013e-01  4.57584013e-01  1.58716471e-07  1.36620066e-07  7.10000000e-01 
 7.20000000e-01  3.21527863e-09  3.13393331e-09  3.33832469e-09  3.21041981e-09  3.53292106e-09  4.57584046e-01  4.57584046e-01  1.58716524e-07  1.36620052e-07  7.20000000e-01 
 7.30000000e-01  3.21527863e-09  3.13393331e-09  3.33832469e-09  3.21041976e-09  3.53292100e-09  4.57584012e-01  4.57584012e-01  1.58716471e-07  1.36619875e-07  7.30000000e-01 
 7.40000000e-01  3.21527863e-09  3.13393331e-09  3.33832469e-09  3.21041976e-09  3.53292106e-09  4.57584025e-01  4.57584025e-01  1.58716483e-07  1.36619889e-07  7.40000000e-01 
 7.50000000e-01  3.21527857e-09  3.13393331e-09  3.33832468e-09  3.21041976e-09  3.53292100e-09  4.57584001e-01  4.57584001e-01  1.58716469e-07  1.36619512e-07  7.50000000e-01 
 7.60000000e-01  3.21527857e-09  3.13393331e-09  3.33832469e-09  3.21041977e-09  3.53292100e-09  4.57584044e-01  4.57584044e-01  1.58716529e-07  1.36619668e-07  7.60000000e-01 
 7.70000000e-01  3.21527857e-09  3.13393331e-09  3.33832469e-09  3.21041975e-09  3.53292106e-09  4.57584035e-01  4.57584035e-01  1.58716504e-07  1.36619583e-07  7.70000000e-01 
 7.80000000e-01  3.21527857e-09  3.13393326e-09  3.33832474e-09  3.21041977e-09  3.53292100e-09  4.57584043e-01  4.57584043e-01  1.58716533e-07  1.36619498e-07  7.80000000e-01 
 7.90000000e-01  3.21527863e-09  3.13393326e-09  3.33832469e-09  3.21041975e-09  3.53292106e-09  4.57584021e-01  4.57584021e-01  1.58716489e-07  1.36619349e-07  7.90000000e-01 
 8.00000000e-01  3.21527863e-09  3.13393331e-09  3.33832469e-09  3.21041977e-09  3.53292106e-09  4.57584036e-01  4.57584036e-01  1.58716516e-07  1.36619306e-07  8.00000000e-01 
 8.10000000e-01  3.21527857e-09  3.13393331e-09  3.33832474e-09  3.21041981e-09  3.53292100e-09  4.57584052e-01  4.57584052e-01  1.58716535e-07  1.36619185e-07  8.10000000e-01 
 8.20000000e-01  3.21527863e-09  3.13393326e-09  3.33832469e-09  3.21041981e-09  3.53292106e-09  4.57584023e-01  4.57584023e-01  1.58716479e-07  1.36619050e-07  8.20000000e-01 
 8.30000000e-01  3.21527863e-09  3.13393326e-09  3.33832469e-09  3.21041982e-09  3.53292106e-09  4.57584050e-01  4.57584051e-01  1.58716534e-07  1.36619015e-07  8.30000000e-01 
 8.40000000e-01  3.21527863e-09  3.13393331e-09  3.33832469e-09  3.21041981e-09  3.53292100e-09  4.57584017e-01  4.57584017e-01  1.58716481e-07  1.36618873e-07  8.40000000e-01 
 8.50000000e-01  3.21527863e-09  3.13393325e-09  3.33832469e-09  3.21041976e-09  3.53292106e-09  4.57584014e-01  4.57584014e-01  1.58716477e-07  1.36618752e-07  8.50000000e-01 
 8.60000000e-01  3.21527863e-09  3.13393331e-09  3.33832469e-09  3.21041976e-09  3.53292106e-09  4.57584035e-01  4.57584035e-01  1.58716518e-07  1.36618574e-07  8.60000000e-01 
 8.70000000e-01  3.21527863e-09  3.13393331e-09  3.33832469e-09  3.21041981e-09  3.53292106e-09  4.57584017e-01  4.57584017e-01  1.58716471e-07  1.36618539e-07  8.70000000e-01 
 8.80000000e-01  3.21527857e-09  3.13393331e-09  3.33832469e-09  3.21041976e-09  3.53292106e-09  4.57584014e-01  4.57584014e-01  1.58716489e-07  1.36618361e-07  8.80000000e-01 
 8.90000000e-01  3.21527863e-09  3.13393326e-09  3.33832469e-09  3.21041976e-09  3.53292106e-09  4.57584028e-01  4.57584028e-01  1.58716494e-07  1.36618432e-07  8.90000000e-01 
 9.00000000e-01  3.21527863e-09  3.13393331e-09  3.33832469e-09  3.21041976e-09  3.53292106e-09  4.57584015e-01  4.57584015e-01  1.58716486e-07  1.36618247e-07  9.00000000e-01 
 9.10000000e-01  3.21527863e-09  3.13393331e-09  3.33832469e-09  3.21041976e-09  3.53292106e-09  4.57584049e-01  4.57584049e-01  1.58716531e-07  1.36618283e-07  9.10000000e-01 
 9.20000000e-01  3.21527863e-09  3.13393331e-09  3.33832468e-09  3.21041981e-09  3.53292100e-09  4.57584008e-01  4.57584008e-01  1.58716465e-07  1.36618098e-07  9.20000000e-01 
 9.30000000e-01  3.21527863e-09  3.13393326e-09  3.33832469e-09  3.21041976e-09  3.53292106e-09  4.57584028e-01  4.57584029e-01  1.58716496e-07  1.36617992e-07  9.30000000e-01 
 9.40000000e-01  3.21527863e-09  3.13393331e-09  3.33832469e-09  3.21041976e-09  3.53292106e-09  4.57584027e-01  4.57584027e-01  1.58716511e-07  1.36617842e-07  9.40000000e-01 
 9.50000000e-01  3.21527863e-09  3.13393326e-09  3.33832469e-09  3.21041981e-09  3.53292106e-09  4.57584042e-01  4.57584042e-01  1.58716527e-07  1.36617807e-07  9.50000000e-01 
 9.60000000e-01  3.21527857e-09  3.13393326e-09  3.33832469e-09  3.21041981e-09  3.53292106e-09  4.57584043e-01  4.57584043e-01  1.58716533e-07  1.36617665e-07  9.60000000e-01 
 9.70000000e-01  3.21527857e-09  3.13393331e-09  3.33832469e-09  3.21041976e-09  3.53292106e-09  4.57584034e-01  4.57584034e-01  1.58716500e-07  1.36617530e-07  9.70000000e-01 
 9.80000000e-01  3.21527857e-09  3.13393326e-09  3.33832469e-09  3.21041976e-09  3.53292106e-09  4.57584043e-01  4.57584043e-01  1.58716533e-07  1.36617558e-07  9.80000000e-01 
 9.90000000e-01  3.21527863e-09  3.13393326e-09  3.33832469e-09  3.21041981e-09  3.53292106e-09  4.57584034e-01  4.57584034e-01  1.58716510e-07  1.36617381e-07  9.90000000e-01 
 1.00000000e+00  3.21527863e-09  3.13393331e-09  3.33832469e-09  3.21041976e-09  3.53292100e-09  4.57584015e-01  4.57584015e-01  1.58716481e-07  1.36617167e-07  1.00000000e+00 
 1.01000000e+00  3.21527863e-09  3.13393331e-09  3.33832469e-09  3.21041976e-09  3.53292106e-09  4.57584014e-01  4.57584014e-01  1.58716481e-07  1.36617203e-07  1.01000000e+00 
 1.02000000e+00  3.21527857e-09  3.13393331e-09  3.33832469e-09  3.21041976e-09  3.53292106e-09  4.57584042e-01  4.57584042e-01  1.58716523e-07  1.36617167e-07  1.02000000e+00 
 1.03000000e+00  3.21527863e-09  3.13393331e-09  3.33832469e-09  3.21041976e-09  3.53292100e-09  4.57584012e-01  4.57584012e-01  1.58716475e-07  1.36616968e-07  1.03000000e+00 
 1.04000000e+00  3.21527857e-09  3.13393325e-09  3.33832469e-09  3.21041981e-09  3.53292100e-09  4.57584016e-01  4.57584016e-01  1.58716479e-07  1.36616791e-07  1.04000000e+00 
 1.05000000e+00  3.21527863e-09  3.13393326e-09  3.33832469e-09  3.21041981e-09  3.53292106e-09  4.57584027e-01  4.57584028e-01  1.58716499e-07  1.36616691e-07  1.05000000e+00 
 1.06000000e+00  3.21527863e-09  3.13393331e-09  3.33832469e-09  3.21041976e-09  3.53292100e-09  4.57584031e-01  4.57584031e-01  1.58716518e-07  1.36616542e-07  1.06000000e+00 
 1.07000000e+00  3.21527857e-09  3.13393331e-09  3.33832469e-09  3.21041981e-09  3.53292106e-09  4.57584023e-01  4.57584023e-01  1.58716491e-07  1.36616443e-07  1.07000000e+00 
 1.08000000e+00  3.21527857e-09  3.13393331e-09  3.33832469e-09  3.21041981e-09  3.53292106e-09  4.57584042e-01  4.57584042e-01  1.58716521e-07  1.36616329e-07  1.08000000e+00 
 1.09000000e+00  3.21527857e-09  3.13393331e-09  3.33832469e-09  3.21041976e-09  3.53292106e-09  4.57584013e-01  4.57584013e-01  1.58716480e-07  1.36616244e-07  1.09000000e+00 
 1.10000000e+00  3.21527857e-09  3.13393331e-09  3.33832469e-09  3.21041981e-09  3.53292106e-09  4.57584038e-01  4.57584039e-01  1.58716509e-07  1.36616130e-07  1.10000000e+00 
