 v-sweep         v(b0)           v(b1)           v(b2)           v(b3)           v(b4)           v(b5)           v(b6)           i(vbias)        i(viout)        v(vout)        
 0.00000000e+00  3.20092439e-09  3.24133505e-09  3.14033981e-09  3.48094878e-09  3.12374169e-09  4.60193143e-01  4.60193143e-01  1.62501732e-07  1.49686166e-07  0.00000000e+00 
 1.00000000e-02  3.20092437e-09  3.24133503e-09  3.14033979e-09  3.48094876e-09  3.12374173e-09  4.60193162e-01  4.60193162e-01  1.62501755e-07  1.49685625e-07  1.00000000e-02 
 2.00000000e-02  3.20092436e-09  3.24133503e-09  3.14033985e-09  3.48094876e-09  3.12374173e-09  4.60193147e-01  4.60193147e-01  1.62501731e-07  1.49685411e-07  2.00000000e-02 
 3.00000000e-02  3.20092436e-09  3.24133503e-09  3.14033985e-09  3.48094882e-09  3.12374167e-09  4.60193150e-01  4.60193150e-01  1.62501735e-07  1.49685016e-07  3.00000000e-02 
 4.00000000e-02  3.20092436e-09  3.24133503e-09  3.14033985e-09  3.48094881e-09  3.12374167e-09  4.60193149e-01  4.60193149e-01  1.62501733e-07  1.49684526e-07  4.00000000e-02 
 5.00000000e-02  3.20092437e-09  3.24133503e-09  3.14033985e-09  3.48094876e-09  3.12374173e-09  4.60193154e-01  4.60193154e-01  1.62501741e-07  1.49684228e-07  5.00000000e-02 
 6.00000000e-02  3.20092437e-09  3.24133504e-09  3.14033985e-09  3.48094877e-09  3.12374168e-09  4.60193179e-01  4.60193179e-01  1.62501791e-07  1.49683822e-07  6.00000000e-02 
 7.00000000e-02  3.20092436e-09  3.24133503e-09  3.14033985e-09  3.48094876e-09  3.12374167e-09  4.60193149e-01  4.60193149e-01  1.62501732e-07  1.49683479e-07  7.00000000e-02 
 8.00000000e-02  3.20092436e-09  3.24133503e-09  3.14033979e-09  3.48094876e-09  3.12374173e-09  4.60193140e-01  4.60193140e-01  1.62501725e-07  1.49683229e-07  8.00000000e-02 
 9.00000000e-02  3.20092436e-09  3.24133503e-09  3.14033985e-09  3.48094876e-09  3.12374173e-09  4.60193147e-01  4.60193147e-01  1.62501739e-07  1.49682967e-07  9.00000000e-02 
 1.00000000e-01  3.20092437e-09  3.24133503e-09  3.14033985e-09  3.48094876e-09  3.12374168e-09  4.60193160e-01  4.60193160e-01  1.62501760e-07  1.49682611e-07  1.00000000e-01 
 1.10000000e-01  3.20092437e-09  3.24133503e-09  3.14033979e-09  3.48094876e-09  3.12374168e-09  4.60193159e-01  4.60193159e-01  1.62501751e-07  1.49682322e-07  1.10000000e-01 
 1.20000000e-01  3.20092437e-09  3.24133503e-09  3.14033985e-09  3.48094876e-09  3.12374168e-09  4.60193167e-01  4.60193167e-01  1.62501767e-07  1.49682087e-07  1.20000000e-01 
 1.30000000e-01  3.20092436e-09  3.24133503e-09  3.14033979e-09  3.48094876e-09  3.12374167e-09  4.60193139e-01  4.60193139e-01  1.62501711e-07  1.49681672e-07  1.30000000e-01 
 1.40000000e-01  3.20092437e-09  3.24133503e-09  3.14033985e-09  3.48094876e-09  3.12374168e-09  4.60193164e-01  4.60193164e-01  1.62501758e-07  1.49681595e-07  1.40000000e-01 
 1.50000000e-01  3.20092436e-09  3.24133503e-09  3.14033985e-09  3.48094876e-09  3.12374167e-09  4.60193149e-01  4.60193149e-01  1.62501732e-07  1.49681286e-07  1.50000000e-01 
 1.60000000e-01  3.20092437e-09  3.24133503e-09  3.14033985e-09  3.48094876e-09  3.12374168e-09  4.60193160e-01  4.60193161e-01  1.62501765e-07  1.49681091e-07  1.60000000e-01 
 1.70000000e-01  3.20092436e-09  3.24133503e-09  3.14033985e-09  3.48094876e-09  3.12374173e-09  4.60193143e-01  4.60193143e-01  1.62501720e-07  1.49680904e-07  1.70000000e-01 
 1.80000000e-01  3.20092436e-09  3.24133503e-09  3.14033985e-09  3.48094876e-09  3.12374167e-09  4.60193139e-01  4.60193139e-01  1.62501727e-07  1.49680591e-07  1.80000000e-01 
 1.90000000e-01  3.20092437e-09  3.24133503e-09  3.14033979e-09  3.48094876e-09  3.12374173e-09  4.60193156e-01  4.60193156e-01  1.62501749e-07  1.49680440e-07  1.90000000e-01 
 2.00000000e-01  3.20092437e-09  3.24133503e-09  3.14033985e-09  3.48094876e-09  3.12374168e-09  4.60193165e-01  4.60193165e-01  1.62501762e-07  1.49680341e-07  2.00000000e-01 
 2.10000000e-01  3.20092436e-09  3.24133503e-09  3.14033985e-09  3.48094876e-09  3.12374167e-09  4.60193149e-01  4.60193149e-01  1.62501735e-07  1.49680051e-07  2.10000000e-01 
 2.20000000e-01  3.20092437e-09  3.24133503e-09  3.14033979e-09  3.48094876e-09  3.12374173e-09  4.60193160e-01  4.60193160e-01  1.62501759e-07  1.49679890e-07  2.20000000e-01 
 2.30000000e-01  3.20092437e-09  3.24133503e-09  3.14033985e-09  3.48094876e-09  3.12374168e-09  4.60193156e-01  4.60193156e-01  1.62501756e-07  1.49679648e-07  2.30000000e-01 
 2.40000000e-01  3.20092436e-09  3.24133503e-09  3.14033985e-09  3.48094876e-09  3.12374167e-09  4.60193142e-01  4.60193142e-01  1.62501737e-07  1.49679376e-07  2.40000000e-01 
 2.50000000e-01  3.20092437e-09  3.24133503e-09  3.14033985e-09  3.48094876e-09  3.12374173e-09  4.60193155e-01  4.60193155e-01  1.62501733e-07  1.49679325e-07  2.50000000e-01 
 2.60000000e-01  3.20092436e-09  3.24133503e-09  3.14033979e-09  3.48094876e-09  3.12374173e-09  4.60193152e-01  4.60193152e-01  1.62501743e-07  1.49679176e-07  2.60000000e-01 
 2.70000000e-01  3.20092437e-09  3.24133503e-09  3.14033985e-09  3.48094876e-09  3.12374168e-09  4.60193166e-01  4.60193166e-01  1.62501756e-07  1.49679177e-07  2.70000000e-01 
 2.80000000e-01  3.20092436e-09  3.24133503e-09  3.14033985e-09  3.48094876e-09  3.12374167e-09  4.60193151e-01  4.60193151e-01  1.62501740e-07  1.49678840e-07  2.80000000e-01 
 2.90000000e-01  3.20092437e-09  3.24133504e-09  3.14033985e-09  3.48094876e-09  3.12374173e-09  4.60193173e-01  4.60193173e-01  1.62501777e-07  1.49678780e-07  2.90000000e-01 
 3.00000000e-01  3.20092437e-09  3.24133503e-09  3.14033979e-09  3.48094876e-09  3.12374173e-09  4.60193153e-01  4.60193153e-01  1.62501744e-07  1.49678531e-07  3.00000000e-01 
 3.10000000e-01  3.20092437e-09  3.24133503e-09  3.14033985e-09  3.48094876e-09  3.12374168e-09  4.60193158e-01  4.60193158e-01  1.62501753e-07  1.49678424e-07  3.10000000e-01 
 3.20000000e-01  3.20092437e-09  3.24133503e-09  3.14033985e-09  3.48094876e-09  3.12374173e-09  4.60193160e-01  4.60193160e-01  1.62501759e-07  1.49678328e-07  3.20000000e-01 
 3.30000000e-01  3.20092437e-09  3.24133503e-09  3.14033979e-09  3.48094876e-09  3.12374168e-09  4.60193167e-01  4.60193167e-01  1.62501766e-07  1.49678154e-07  3.30000000e-01 
 3.40000000e-01  3.20092437e-09  3.24133504e-09  3.14033985e-09  3.48094876e-09  3.12374168e-09  4.60193181e-01  4.60193182e-01  1.62501775e-07  1.49677977e-07  3.40000000e-01 
 3.50000000e-01  3.20092436e-09  3.24133503e-09  3.14033985e-09  3.48094876e-09  3.12374167e-09  4.60193151e-01  4.60193151e-01  1.62501731e-07  1.49677998e-07  3.50000000e-01 
 3.60000000e-01  3.20092436e-09  3.24133503e-09  3.14033985e-09  3.48094876e-09  3.12374167e-09  4.60193150e-01  4.60193151e-01  1.62501745e-07  1.49677849e-07  3.60000000e-01 
 3.70000000e-01  3.20092436e-09  3.24133503e-09  3.14033985e-09  3.48094882e-09  3.12374173e-09  4.60193148e-01  4.60193148e-01  1.62501729e-07  1.49677636e-07  3.70000000e-01 
 3.80000000e-01  3.20092437e-09  3.24133503e-09  3.14033979e-09  3.48094875e-09  3.12374173e-09  4.60193153e-01  4.60193154e-01  1.62501751e-07  1.49677486e-07  3.80000000e-01 
 3.90000000e-01  3.20092436e-09  3.24133503e-09  3.14033985e-09  3.48094877e-09  3.12374167e-09  4.60193142e-01  4.60193142e-01  1.62501717e-07  1.49677426e-07  3.90000000e-01 
 4.00000000e-01  3.20092437e-09  3.24133503e-09  3.14033985e-09  3.48094876e-09  3.12374168e-09  4.60193156e-01  4.60193156e-01  1.62501746e-07  1.49677259e-07  4.00000000e-01 
 4.10000000e-01  3.20092437e-09  3.24133503e-09  3.14033985e-09  3.48094876e-09  3.12374173e-09  4.60193166e-01  4.60193166e-01  1.62501767e-07  1.49677284e-07  4.10000000e-01 
 4.20000000e-01  3.20092436e-09  3.24133503e-09  3.14033985e-09  3.48094876e-09  3.12374167e-09  4.60193150e-01  4.60193150e-01  1.62501738e-07  1.49677067e-07  4.20000000e-01 
 4.30000000e-01  3.20092436e-09  3.24133503e-09  3.14033985e-09  3.48094876e-09  3.12374167e-09  4.60193138e-01  4.60193139e-01  1.62501721e-07  1.49676922e-07  4.30000000e-01 
 4.40000000e-01  3.20092437e-09  3.24133503e-09  3.14033985e-09  3.48094876e-09  3.12374168e-09  4.60193159e-01  4.60193160e-01  1.62501752e-07  1.49676897e-07  4.40000000e-01 
 4.50000000e-01  3.20092436e-09  3.24133503e-09  3.14033979e-09  3.48094876e-09  3.12374173e-09  4.60193150e-01  4.60193150e-01  1.62501730e-07  1.49676545e-07  4.50000000e-01 
 4.60000000e-01  3.20092436e-09  3.24133503e-09  3.14033985e-09  3.48094876e-09  3.12374167e-09  4.60193138e-01  4.60193138e-01  1.62501723e-07  1.49676584e-07  4.60000000e-01 
 4.70000000e-01  3.20092437e-09  3.24133504e-09  3.14033985e-09  3.48094876e-09  3.12374168e-09  4.60193171e-01  4.60193171e-01  1.62501783e-07  1.49676588e-07  4.70000000e-01 
 4.80000000e-01  3.20092436e-09  3.24133503e-09  3.14033985e-09  3.48094876e-09  3.12374173e-09  4.60193142e-01  4.60193142e-01  1.62501723e-07  1.49676367e-07  4.80000000e-01 
 4.90000000e-01  3.20092437e-09  3.24133504e-09  3.14033979e-09  3.48094876e-09  3.12374168e-09  4.60193174e-01  4.60193174e-01  1.62501773e-07  1.49676378e-07  4.90000000e-01 
 5.00000000e-01  3.20092437e-09  3.24133503e-09  3.14033985e-09  3.48094876e-09  3.12374168e-09  4.60193162e-01  4.60193162e-01  1.62501756e-07  1.49676151e-07  5.00000000e-01 
 5.10000000e-01  3.20092437e-09  3.24133503e-09  3.14033985e-09  3.48094876e-09  3.12374168e-09  4.60193159e-01  4.60193159e-01  1.62501746e-07  1.49675991e-07  5.10000000e-01 
 5.20000000e-01  3.20092437e-09  3.24133503e-09  3.14033979e-09  3.48094876e-09  3.12374168e-09  4.60193156e-01  4.60193156e-01  1.62501737e-07  1.49676019e-07  5.20000000e-01 
 5.30000000e-01  3.20092437e-09  3.24133503e-09  3.14033985e-09  3.48094876e-09  3.12374173e-09  4.60193153e-01  4.60193154e-01  1.62501750e-07  1.49675966e-07  5.30000000e-01 
 5.40000000e-01  3.20092436e-09  3.24133503e-09  3.14033985e-09  3.48094876e-09  3.12374167e-09  4.60193149e-01  4.60193149e-01  1.62501731e-07  1.49675774e-07  5.40000000e-01 
 5.50000000e-01  3.20092436e-09  3.24133503e-09  3.14033985e-09  3.48094876e-09  3.12374173e-09  4.60193144e-01  4.60193144e-01  1.62501728e-07  1.49675675e-07  5.50000000e-01 
 5.60000000e-01  3.20092436e-09  3.24133503e-09  3.14033979e-09  3.48094876e-09  3.12374173e-09  4.60193140e-01  4.60193140e-01  1.62501729e-07  1.49675543e-07  5.60000000e-01 
 5.70000000e-01  3.20092437e-09  3.24133503e-09  3.14033979e-09  3.48094876e-09  3.12374168e-09  4.60193162e-01  4.60193162e-01  1.62501749e-07  1.49675483e-07  5.70000000e-01 
 5.80000000e-01  3.20092437e-09  3.24133503e-09  3.14033985e-09  3.48094876e-09  3.12374173e-09  4.60193156e-01  4.60193156e-01  1.62501742e-07  1.49675408e-07  5.80000000e-01 
 5.90000000e-01  3.20092436e-09  3.24133503e-09  3.14033985e-09  3.48094882e-09  3.12374167e-09  4.60193149e-01  4.60193149e-01  1.62501718e-07  1.49675316e-07  5.90000000e-01 
 6.00000000e-01  3.20092437e-09  3.24133503e-09  3.14033985e-09  3.48094875e-09  3.12374167e-09  4.60193155e-01  4.60193155e-01  1.62501741e-07  1.49675074e-07  6.00000000e-01 
 6.10000000e-01  3.20092436e-09  3.24133503e-09  3.14033979e-09  3.48094877e-09  3.12374173e-09  4.60193139e-01  4.60193139e-01  1.62501724e-07  1.49674953e-07  6.10000000e-01 
 6.20000000e-01  3.20092436e-09  3.24133503e-09  3.14033985e-09  3.48094876e-09  3.12374173e-09  4.60193146e-01  4.60193146e-01  1.62501737e-07  1.49674847e-07  6.20000000e-01 
 6.30000000e-01  3.20092436e-09  3.24133503e-09  3.14033985e-09  3.48094876e-09  3.12374167e-09  4.60193141e-01  4.60193142e-01  1.62501729e-07  1.49674833e-07  6.30000000e-01 
 6.40000000e-01  3.20092436e-09  3.24133503e-09  3.14033985e-09  3.48094876e-09  3.12374167e-09  4.60193147e-01  4.60193147e-01  1.62501729e-07  1.49674726e-07  6.40000000e-01 
 6.50000000e-01  3.20092437e-09  3.24133503e-09  3.14033979e-09  3.48094876e-09  3.12374168e-09  4.60193158e-01  4.60193158e-01  1.62501749e-07  1.49674669e-07  6.50000000e-01 
 6.60000000e-01  3.20092437e-09  3.24133504e-09  3.14033985e-09  3.48094876e-09  3.12374173e-09  4.60193171e-01  4.60193171e-01  1.62501771e-07  1.49674598e-07  6.60000000e-01 
 6.70000000e-01  3.20092436e-09  3.24133503e-09  3.14033985e-09  3.48094876e-09  3.12374173e-09  4.60193146e-01  4.60193146e-01  1.62501717e-07  1.49674406e-07  6.70000000e-01 
 6.80000000e-01  3.20092436e-09  3.24133503e-09  3.14033985e-09  3.48094876e-09  3.12374173e-09  4.60193148e-01  4.60193148e-01  1.62501749e-07  1.49674307e-07  6.80000000e-01 
 6.90000000e-01  3.20092436e-09  3.24133503e-09  3.14033985e-09  3.48094876e-09  3.12374173e-09  4.60193140e-01  4.60193140e-01  1.62501738e-07  1.49674257e-07  6.90000000e-01 
 7.00000000e-01  3.20092436e-09  3.24133503e-09  3.14033985e-09  3.48094876e-09  3.12374167e-09  4.60193152e-01  4.60193152e-01  1.62501728e-07  1.49674030e-07  7.00000000e-01 
 7.10000000e-01  3.20092436e-09  3.24133503e-09  3.14033979e-09  3.48094876e-09  3.12374167e-09  4.60193142e-01  4.60193142e-01  1.62501721e-07  1.49674008e-07  7.10000000e-01 
 7.20000000e-01  3.20092437e-09  3.24133503e-09  3.14033979e-09  3.48094876e-09  3.12374173e-09  4.60193154e-01  4.60193154e-01  1.62501743e-07  1.49673959e-07  7.20000000e-01 
 7.30000000e-01  3.20092437e-09  3.24133503e-09  3.14033985e-09  3.48094876e-09  3.12374173e-09  4.60193156e-01  4.60193156e-01  1.62501741e-07  1.49673824e-07  7.30000000e-01 
 7.40000000e-01  3.20092437e-09  3.24133503e-09  3.14033985e-09  3.48094876e-09  3.12374173e-09  4.60193162e-01  4.60193162e-01  1.62501751e-07  1.49673795e-07  7.40000000e-01 
 7.50000000e-01  3.20092436e-09  3.24133503e-09  3.14033985e-09  3.48094876e-09  3.12374167e-09  4.60193152e-01  4.60193152e-01  1.62501738e-07  1.49673667e-07  7.50000000e-01 
 7.60000000e-01  3.20092436e-09  3.24133503e-09  3.14033979e-09  3.48094876e-09  3.12374173e-09  4.60193140e-01  4.60193140e-01  1.62501712e-07  1.49673419e-07  7.60000000e-01 
 7.70000000e-01  3.20092437e-09  3.24133504e-09  3.14033985e-09  3.48094876e-09  3.12374168e-09  4.60193173e-01  4.60193173e-01  1.62501763e-07  1.49673490e-07  7.70000000e-01 
 7.80000000e-01  3.20092436e-09  3.24133503e-09  3.14033985e-09  3.48094876e-09  3.12374167e-09  4.60193150e-01  4.60193151e-01  1.62501732e-07  1.49673198e-07  7.80000000e-01 
 7.90000000e-01  3.20092436e-09  3.24133503e-09  3.14033979e-09  3.48094876e-09  3.12374173e-09  4.60193138e-01  4.60193138e-01  1.62501720e-07  1.49673127e-07  7.90000000e-01 
 8.00000000e-01  3.20092436e-09  3.24133503e-09  3.14033985e-09  3.48094876e-09  3.12374173e-09  4.60193152e-01  4.60193152e-01  1.62501744e-07  1.49673042e-07  8.00000000e-01 
 8.10000000e-01  3.20092437e-09  3.24133503e-09  3.14033985e-09  3.48094876e-09  3.12374168e-09  4.60193158e-01  4.60193159e-01  1.62501750e-07  1.49673070e-07  8.10000000e-01 
 8.20000000e-01  3.20092437e-09  3.24133503e-09  3.14033985e-09  3.48094876e-09  3.12374173e-09  4.60193167e-01  4.60193167e-01  1.62501762e-07  1.49672843e-07  8.20000000e-01 
 8.30000000e-01  3.20092436e-09  3.24133503e-09  3.14033985e-09  3.48094876e-09  3.12374167e-09  4.60193145e-01  4.60193145e-01  1.62501725e-07  1.49672800e-07  8.30000000e-01 
 8.40000000e-01  3.20092437e-09  3.24133503e-09  3.14033985e-09  3.48094876e-09  3.12374168e-09  4.60193157e-01  4.60193157e-01  1.62501749e-07  1.49672694e-07  8.40000000e-01 
 8.50000000e-01  3.20092436e-09  3.24133503e-09  3.14033985e-09  3.48094876e-09  3.12374173e-09  4.60193138e-01  4.60193138e-01  1.62501742e-07  1.49672545e-07  8.50000000e-01 
 8.60000000e-01  3.20092436e-09  3.24133503e-09  3.14033985e-09  3.48094876e-09  3.12374173e-09  4.60193138e-01  4.60193138e-01  1.62501720e-07  1.49672381e-07  8.60000000e-01 
 8.70000000e-01  3.20092436e-09  3.24133503e-09  3.14033985e-09  3.48094876e-09  3.12374173e-09  4.60193148e-01  4.60193148e-01  1.62501737e-07  1.49672331e-07  8.70000000e-01 
 8.80000000e-01  3.20092437e-09  3.24133504e-09  3.14033985e-09  3.48094876e-09  3.12374168e-09  4.60193170e-01  4.60193170e-01  1.62501757e-07  1.49672239e-07  8.80000000e-01 
 8.90000000e-01  3.20092436e-09  3.24133503e-09  3.14033979e-09  3.48094876e-09  3.12374173e-09  4.60193150e-01  4.60193150e-01  1.62501738e-07  1.49672061e-07  8.90000000e-01 
 9.00000000e-01  3.20092437e-09  3.24133504e-09  3.14033985e-09  3.48094876e-09  3.12374173e-09  4.60193171e-01  4.60193171e-01  1.62501771e-07  1.49672033e-07  9.00000000e-01 
 9.10000000e-01  3.20092437e-09  3.24133504e-09  3.14033985e-09  3.48094876e-09  3.12374168e-09  4.60193177e-01  4.60193177e-01  1.62501776e-07  1.49672019e-07  9.10000000e-01 
 9.20000000e-01  3.20092436e-09  3.24133503e-09  3.14033985e-09  3.48094876e-09  3.12374167e-09  4.60193153e-01  4.60193153e-01  1.62501738e-07  1.49671770e-07  9.20000000e-01 
 9.30000000e-01  3.20092436e-09  3.24133503e-09  3.14033979e-09  3.48094876e-09  3.12374167e-09  4.60193152e-01  4.60193152e-01  1.62501743e-07  1.49671607e-07  9.30000000e-01 
 9.40000000e-01  3.20092436e-09  3.24133503e-09  3.14033979e-09  3.48094876e-09  3.12374173e-09  4.60193147e-01  4.60193147e-01  1.62501736e-07  1.49671486e-07  9.40000000e-01 
 9.50000000e-01  3.20092437e-09  3.24133503e-09  3.14033985e-09  3.48094876e-09  3.12374168e-09  4.60193167e-01  4.60193167e-01  1.62501769e-07  1.49671358e-07  9.50000000e-01 
 9.60000000e-01  3.20092436e-09  3.24133503e-09  3.14033985e-09  3.48094876e-09  3.12374173e-09  4.60193143e-01  4.60193143e-01  1.62501729e-07  1.49671386e-07  9.60000000e-01 
 9.70000000e-01  3.20092437e-09  3.24133503e-09  3.14033985e-09  3.48094876e-09  3.12374168e-09  4.60193167e-01  4.60193167e-01  1.62501777e-07  1.49671251e-07  9.70000000e-01 
 9.80000000e-01  3.20092436e-09  3.24133503e-09  3.14033985e-09  3.48094876e-09  3.12374167e-09  4.60193145e-01  4.60193145e-01  1.62501731e-07  1.49671088e-07  9.80000000e-01 
 9.90000000e-01  3.20092436e-09  3.24133503e-09  3.14033985e-09  3.48094876e-09  3.12374167e-09  4.60193147e-01  4.60193147e-01  1.62501724e-07  1.49670925e-07  9.90000000e-01 
 1.00000000e+00  3.20092436e-09  3.24133503e-09  3.14033985e-09  3.48094876e-09  3.12374167e-09  4.60193148e-01  4.60193149e-01  1.62501744e-07  1.49670804e-07  1.00000000e+00 
 1.01000000e+00  3.20092437e-09  3.24133503e-09  3.14033985e-09  3.48094876e-09  3.12374167e-09  4.60193154e-01  4.60193154e-01  1.62501749e-07  1.49670825e-07  1.01000000e+00 
 1.02000000e+00  3.20092437e-09  3.24133503e-09  3.14033985e-09  3.48094876e-09  3.12374173e-09  4.60193161e-01  4.60193162e-01  1.62501755e-07  1.49670676e-07  1.02000000e+00 
 1.03000000e+00  3.20092437e-09  3.24133503e-09  3.14033985e-09  3.48094876e-09  3.12374168e-09  4.60193165e-01  4.60193165e-01  1.62501768e-07  1.49670484e-07  1.03000000e+00 
 1.04000000e+00  3.20092437e-09  3.24133503e-09  3.14033985e-09  3.48094876e-09  3.12374167e-09  4.60193154e-01  4.60193154e-01  1.62501742e-07  1.49670427e-07  1.04000000e+00 
 1.05000000e+00  3.20092437e-09  3.24133503e-09  3.14033985e-09  3.48094876e-09  3.12374173e-09  4.60193157e-01  4.60193157e-01  1.62501748e-07  1.49670278e-07  1.05000000e+00 
 1.06000000e+00  3.20092437e-09  3.24133504e-09  3.14033985e-09  3.48094882e-09  3.12374173e-09  4.60193169e-01  4.60193169e-01  1.62501764e-07  1.49670186e-07  1.06000000e+00 
 1.07000000e+00  3.20092437e-09  3.24133503e-09  3.14033985e-09  3.48094881e-09  3.12374173e-09  4.60193154e-01  4.60193154e-01  1.62501750e-07  1.49670029e-07  1.07000000e+00 
 1.08000000e+00  3.20092436e-09  3.24133503e-09  3.14033985e-09  3.48094875e-09  3.12374167e-09  4.60193127e-01  4.60193127e-01  1.62501703e-07  1.49669738e-07  1.08000000e+00 
 1.09000000e+00  3.20092437e-09  3.24133503e-09  3.14033985e-09  3.48094877e-09  3.12374168e-09  4.60193164e-01  4.60193164e-01  1.62501762e-07  1.49669809e-07  1.09000000e+00 
 1.10000000e+00  3.20092437e-09  3.24133504e-09  3.14033985e-09  3.48094876e-09  3.12374173e-09  4.60193169e-01  4.60193169e-01  1.62501746e-07  1.49669830e-07  1.10000000e+00 
