 v-sweep         v(b0)           v(b1)           v(b2)           v(b3)           v(b4)           v(b5)           v(b6)           i(vbias)        i(viout)        v(vout)        
 0.00000000e+00  4.59502252e-01  4.59502252e-01  4.59502252e-01  3.27474457e-09  3.29004403e-09  3.19913060e-09  4.59502252e-01  1.61917738e-07  1.12526334e-07  0.00000000e+00 
 1.00000000e-02  4.59502253e-01  4.59502253e-01  4.59502253e-01  3.27474454e-09  3.29004407e-09  3.19913063e-09  4.59502253e-01  1.61917733e-07  1.12526001e-07  1.00000000e-02 
 2.00000000e-02  4.59502265e-01  4.59502265e-01  4.59502265e-01  3.27474454e-09  3.29004401e-09  3.19913064e-09  4.59502265e-01  1.61917748e-07  1.12525590e-07  2.00000000e-02 
 3.00000000e-02  4.59502243e-01  4.59502243e-01  4.59502243e-01  3.27474454e-09  3.29004401e-09  3.19913063e-09  4.59502243e-01  1.61917727e-07  1.12525246e-07  3.00000000e-02 
 4.00000000e-02  4.59502251e-01  4.59502251e-01  4.59502251e-01  3.27474454e-09  3.29004401e-09  3.19913063e-09  4.59502251e-01  1.61917736e-07  1.12524816e-07  4.00000000e-02 
 5.00000000e-02  4.59502244e-01  4.59502244e-01  4.59502244e-01  3.27474454e-09  3.29004401e-09  3.19913063e-09  4.59502244e-01  1.61917732e-07  1.12524400e-07  5.00000000e-02 
 6.00000000e-02  4.59502278e-01  4.59502278e-01  4.59502278e-01  3.27474454e-09  3.29004401e-09  3.19913064e-09  4.59502278e-01  1.61917770e-07  1.12524270e-07  6.00000000e-02 
 7.00000000e-02  4.59502262e-01  4.59502262e-01  4.59502262e-01  3.27474454e-09  3.29004401e-09  3.19913064e-09  4.59502262e-01  1.61917760e-07  1.12523884e-07  7.00000000e-02 
 8.00000000e-02  4.59502258e-01  4.59502258e-01  4.59502259e-01  3.27474454e-09  3.29004401e-09  3.19913063e-09  4.59502258e-01  1.61917748e-07  1.12523589e-07  8.00000000e-02 
 9.00000000e-02  4.59502249e-01  4.59502249e-01  4.59502249e-01  3.27474454e-09  3.29004401e-09  3.19913063e-09  4.59502249e-01  1.61917749e-07  1.12523243e-07  9.00000000e-02 
 1.00000000e-01  4.59502235e-01  4.59502235e-01  4.59502235e-01  3.27474454e-09  3.29004401e-09  3.19913063e-09  4.59502235e-01  1.61917715e-07  1.12522874e-07  1.00000000e-01 
 1.10000000e-01  4.59502249e-01  4.59502249e-01  4.59502249e-01  3.27474454e-09  3.29004401e-09  3.19913069e-09  4.59502249e-01  1.61917726e-07  1.12522690e-07  1.10000000e-01 
 1.20000000e-01  4.59502246e-01  4.59502246e-01  4.59502246e-01  3.27474454e-09  3.29004401e-09  3.19913063e-09  4.59502246e-01  1.61917720e-07  1.12522486e-07  1.20000000e-01 
 1.30000000e-01  4.59502233e-01  4.59502233e-01  4.59502233e-01  3.27474454e-09  3.29004401e-09  3.19913063e-09  4.59502233e-01  1.61917721e-07  1.12522207e-07  1.30000000e-01 
 1.40000000e-01  4.59502248e-01  4.59502248e-01  4.59502249e-01  3.27474454e-09  3.29004401e-09  3.19913069e-09  4.59502248e-01  1.61917728e-07  1.12522102e-07  1.40000000e-01 
 1.50000000e-01  4.59502263e-01  4.59502263e-01  4.59502263e-01  3.27474454e-09  3.29004401e-09  3.19913069e-09  4.59502263e-01  1.61917756e-07  1.12521757e-07  1.50000000e-01 
 1.60000000e-01  4.59502232e-01  4.59502232e-01  4.59502233e-01  3.27474460e-09  3.29004401e-09  3.19913063e-09  4.59502232e-01  1.61917708e-07  1.12521599e-07  1.60000000e-01 
 1.70000000e-01  4.59502262e-01  4.59502262e-01  4.59502262e-01  3.27474454e-09  3.29004401e-09  3.19913064e-09  4.59502262e-01  1.61917737e-07  1.12521507e-07  1.70000000e-01 
 1.80000000e-01  4.59502276e-01  4.59502276e-01  4.59502276e-01  3.27474454e-09  3.29004401e-09  3.19913064e-09  4.59502276e-01  1.61917786e-07  1.12521214e-07  1.80000000e-01 
 1.90000000e-01  4.59502234e-01  4.59502234e-01  4.59502234e-01  3.27474454e-09  3.29004401e-09  3.19913063e-09  4.59502234e-01  1.61917718e-07  1.12520970e-07  1.90000000e-01 
 2.00000000e-01  4.59502273e-01  4.59502273e-01  4.59502273e-01  3.27474460e-09  3.29004401e-09  3.19913064e-09  4.59502273e-01  1.61917756e-07  1.12520917e-07  2.00000000e-01 
 2.10000000e-01  4.59502227e-01  4.59502227e-01  4.59502227e-01  3.27474454e-09  3.29004401e-09  3.19913063e-09  4.59502227e-01  1.61917692e-07  1.12520482e-07  2.10000000e-01 
 2.20000000e-01  4.59502242e-01  4.59502242e-01  4.59502242e-01  3.27474454e-09  3.29004401e-09  3.19913063e-09  4.59502242e-01  1.61917718e-07  1.12520436e-07  2.20000000e-01 
 2.30000000e-01  4.59502280e-01  4.59502280e-01  4.59502280e-01  3.27474454e-09  3.29004401e-09  3.19913064e-09  4.59502280e-01  1.61917777e-07  1.12520308e-07  2.30000000e-01 
 2.40000000e-01  4.59502246e-01  4.59502246e-01  4.59502246e-01  3.27474454e-09  3.29004401e-09  3.19913069e-09  4.59502246e-01  1.61917731e-07  1.12520087e-07  2.40000000e-01 
 2.50000000e-01  4.59502234e-01  4.59502234e-01  4.59502234e-01  3.27474454e-09  3.29004401e-09  3.19913063e-09  4.59502234e-01  1.61917709e-07  1.12519905e-07  2.50000000e-01 
 2.60000000e-01  4.59502227e-01  4.59502227e-01  4.59502227e-01  3.27474454e-09  3.29004401e-09  3.19913063e-09  4.59502227e-01  1.61917696e-07  1.12519796e-07  2.60000000e-01 
 2.70000000e-01  4.59502230e-01  4.59502230e-01  4.59502230e-01  3.27474454e-09  3.29004401e-09  3.19913063e-09  4.59502230e-01  1.61917697e-07  1.12519716e-07  2.70000000e-01 
 2.80000000e-01  4.59502231e-01  4.59502232e-01  4.59502232e-01  3.27474454e-09  3.29004401e-09  3.19913069e-09  4.59502231e-01  1.61917707e-07  1.12519540e-07  2.80000000e-01 
 2.90000000e-01  4.59502264e-01  4.59502264e-01  4.59502264e-01  3.27474454e-09  3.29004401e-09  3.19913064e-09  4.59502264e-01  1.61917766e-07  1.12519416e-07  2.90000000e-01 
 3.00000000e-01  4.59502247e-01  4.59502247e-01  4.59502247e-01  3.27474454e-09  3.29004401e-09  3.19913063e-09  4.59502247e-01  1.61917738e-07  1.12519274e-07  3.00000000e-01 
 3.10000000e-01  4.59502253e-01  4.59502253e-01  4.59502253e-01  3.27474454e-09  3.29004401e-09  3.19913063e-09  4.59502253e-01  1.61917745e-07  1.12519253e-07  3.10000000e-01 
 3.20000000e-01  4.59502249e-01  4.59502249e-01  4.59502249e-01  3.27474454e-09  3.29004401e-09  3.19913063e-09  4.59502249e-01  1.61917742e-07  1.12519118e-07  3.20000000e-01 
 3.30000000e-01  4.59502224e-01  4.59502225e-01  4.59502225e-01  3.27474454e-09  3.29004401e-09  3.19913063e-09  4.59502224e-01  1.61917717e-07  1.12518837e-07  3.30000000e-01 
 3.40000000e-01  4.59502243e-01  4.59502243e-01  4.59502243e-01  3.27474454e-09  3.29004401e-09  3.19913063e-09  4.59502243e-01  1.61917719e-07  1.12518851e-07  3.40000000e-01 
 3.50000000e-01  4.59502255e-01  4.59502255e-01  4.59502255e-01  3.27474454e-09  3.29004401e-09  3.19913063e-09  4.59502255e-01  1.61917736e-07  1.12518819e-07  3.50000000e-01 
 3.60000000e-01  4.59502242e-01  4.59502242e-01  4.59502242e-01  3.27474454e-09  3.29004401e-09  3.19913063e-09  4.59502242e-01  1.61917719e-07  1.12518652e-07  3.60000000e-01 
 3.70000000e-01  4.59502256e-01  4.59502256e-01  4.59502256e-01  3.27474454e-09  3.29004401e-09  3.19913063e-09  4.59502256e-01  1.61917753e-07  1.12518578e-07  3.70000000e-01 
 3.80000000e-01  4.59502262e-01  4.59502262e-01  4.59502262e-01  3.27474454e-09  3.29004401e-09  3.19913064e-09  4.59502262e-01  1.61917750e-07  1.12518421e-07  3.80000000e-01 
 3.90000000e-01  4.59502251e-01  4.59502251e-01  4.59502252e-01  3.27474454e-09  3.29004401e-09  3.19913069e-09  4.59502251e-01  1.61917746e-07  1.12518372e-07  3.90000000e-01 
 4.00000000e-01  4.59502249e-01  4.59502249e-01  4.59502249e-01  3.27474454e-09  3.29004401e-09  3.19913063e-09  4.59502249e-01  1.61917744e-07  1.12518251e-07  4.00000000e-01 
 4.10000000e-01  4.59502245e-01  4.59502245e-01  4.59502245e-01  3.27474454e-09  3.29004401e-09  3.19913063e-09  4.59502245e-01  1.61917721e-07  1.12518098e-07  4.10000000e-01 
 4.20000000e-01  4.59502246e-01  4.59502246e-01  4.59502246e-01  3.27474454e-09  3.29004401e-09  3.19913063e-09  4.59502246e-01  1.61917724e-07  1.12518027e-07  4.20000000e-01 
 4.30000000e-01  4.59502241e-01  4.59502241e-01  4.59502241e-01  3.27474454e-09  3.29004401e-09  3.19913063e-09  4.59502241e-01  1.61917721e-07  1.12517831e-07  4.30000000e-01 
 4.40000000e-01  4.59502251e-01  4.59502251e-01  4.59502251e-01  3.27474454e-09  3.29004401e-09  3.19913063e-09  4.59502251e-01  1.61917738e-07  1.12517942e-07  4.40000000e-01 
 4.50000000e-01  4.59502255e-01  4.59502255e-01  4.59502255e-01  3.27474454e-09  3.29004401e-09  3.19913063e-09  4.59502255e-01  1.61917740e-07  1.12517785e-07  4.50000000e-01 
 4.60000000e-01  4.59502265e-01  4.59502265e-01  4.59502265e-01  3.27474454e-09  3.29004407e-09  3.19913064e-09  4.59502265e-01  1.61917761e-07  1.12517643e-07  4.60000000e-01 
 4.70000000e-01  4.59502241e-01  4.59502241e-01  4.59502241e-01  3.27474454e-09  3.29004401e-09  3.19913063e-09  4.59502241e-01  1.61917719e-07  1.12517480e-07  4.70000000e-01 
 4.80000000e-01  4.59502249e-01  4.59502249e-01  4.59502249e-01  3.27474454e-09  3.29004401e-09  3.19913063e-09  4.59502249e-01  1.61917739e-07  1.12517487e-07  4.80000000e-01 
 4.90000000e-01  4.59502272e-01  4.59502272e-01  4.59502272e-01  3.27474454e-09  3.29004401e-09  3.19913064e-09  4.59502272e-01  1.61917767e-07  1.12517508e-07  4.90000000e-01 
 5.00000000e-01  4.59502243e-01  4.59502243e-01  4.59502243e-01  3.27474454e-09  3.29004401e-09  3.19913063e-09  4.59502243e-01  1.61917727e-07  1.12517334e-07  5.00000000e-01 
 5.10000000e-01  4.59502227e-01  4.59502227e-01  4.59502227e-01  3.27474454e-09  3.29004401e-09  3.19913063e-09  4.59502227e-01  1.61917697e-07  1.12517089e-07  5.10000000e-01 
 5.20000000e-01  4.59502259e-01  4.59502259e-01  4.59502259e-01  3.27474454e-09  3.29004401e-09  3.19913063e-09  4.59502259e-01  1.61917746e-07  1.12517146e-07  5.20000000e-01 
 5.30000000e-01  4.59502259e-01  4.59502259e-01  4.59502259e-01  3.27474454e-09  3.29004401e-09  3.19913063e-09  4.59502259e-01  1.61917748e-07  1.12517167e-07  5.30000000e-01 
 5.40000000e-01  4.59502255e-01  4.59502256e-01  4.59502256e-01  3.27474454e-09  3.29004401e-09  3.19913063e-09  4.59502255e-01  1.61917748e-07  1.12517071e-07  5.40000000e-01 
 5.50000000e-01  4.59502260e-01  4.59502260e-01  4.59502260e-01  3.27474454e-09  3.29004401e-09  3.19913063e-09  4.59502260e-01  1.61917752e-07  1.12516855e-07  5.50000000e-01 
 5.60000000e-01  4.59502238e-01  4.59502238e-01  4.59502238e-01  3.27474454e-09  3.29004401e-09  3.19913063e-09  4.59502238e-01  1.61917717e-07  1.12516759e-07  5.60000000e-01 
 5.70000000e-01  4.59502233e-01  4.59502233e-01  4.59502233e-01  3.27474454e-09  3.29004401e-09  3.19913069e-09  4.59502233e-01  1.61917706e-07  1.12516663e-07  5.70000000e-01 
 5.80000000e-01  4.59502243e-01  4.59502243e-01  4.59502243e-01  3.27474454e-09  3.29004401e-09  3.19913063e-09  4.59502243e-01  1.61917726e-07  1.12516553e-07  5.80000000e-01 
 5.90000000e-01  4.59502240e-01  4.59502240e-01  4.59502240e-01  3.27474454e-09  3.29004401e-09  3.19913063e-09  4.59502240e-01  1.61917717e-07  1.12516574e-07  5.90000000e-01 
 6.00000000e-01  4.59502266e-01  4.59502266e-01  4.59502266e-01  3.27474454e-09  3.29004401e-09  3.19913064e-09  4.59502266e-01  1.61917758e-07  1.12516638e-07  6.00000000e-01 
 6.10000000e-01  4.59502265e-01  4.59502265e-01  4.59502265e-01  3.27474454e-09  3.29004401e-09  3.19913064e-09  4.59502265e-01  1.61917762e-07  1.12516517e-07  6.10000000e-01 
 6.20000000e-01  4.59502261e-01  4.59502261e-01  4.59502261e-01  3.27474454e-09  3.29004401e-09  3.19913064e-09  4.59502261e-01  1.61917751e-07  1.12516311e-07  6.20000000e-01 
 6.30000000e-01  4.59502257e-01  4.59502257e-01  4.59502257e-01  3.27474454e-09  3.29004401e-09  3.19913063e-09  4.59502257e-01  1.61917749e-07  1.12516332e-07  6.30000000e-01 
 6.40000000e-01  4.59502259e-01  4.59502259e-01  4.59502259e-01  3.27474454e-09  3.29004401e-09  3.19913063e-09  4.59502259e-01  1.61917742e-07  1.12516290e-07  6.40000000e-01 
 6.50000000e-01  4.59502261e-01  4.59502261e-01  4.59502261e-01  3.27474454e-09  3.29004401e-09  3.19913064e-09  4.59502261e-01  1.61917745e-07  1.12516084e-07  6.50000000e-01 
 6.60000000e-01  4.59502229e-01  4.59502230e-01  4.59502230e-01  3.27474454e-09  3.29004401e-09  3.19913063e-09  4.59502229e-01  1.61917712e-07  1.12515927e-07  6.60000000e-01 
 6.70000000e-01  4.59502250e-01  4.59502250e-01  4.59502250e-01  3.27474454e-09  3.29004407e-09  3.19913063e-09  4.59502250e-01  1.61917730e-07  1.12515920e-07  6.70000000e-01 
 6.80000000e-01  4.59502229e-01  4.59502229e-01  4.59502229e-01  3.27474454e-09  3.29004401e-09  3.19913063e-09  4.59502229e-01  1.61917720e-07  1.12515707e-07  6.80000000e-01 
 6.90000000e-01  4.59502231e-01  4.59502231e-01  4.59502232e-01  3.27474454e-09  3.29004401e-09  3.19913063e-09  4.59502231e-01  1.61917717e-07  1.12515650e-07  6.90000000e-01 
 7.00000000e-01  4.59502251e-01  4.59502251e-01  4.59502251e-01  3.27474454e-09  3.29004407e-09  3.19913063e-09  4.59502251e-01  1.61917737e-07  1.12515679e-07  7.00000000e-01 
 7.10000000e-01  4.59502246e-01  4.59502246e-01  4.59502246e-01  3.27474454e-09  3.29004401e-09  3.19913063e-09  4.59502246e-01  1.61917734e-07  1.12515600e-07  7.10000000e-01 
 7.20000000e-01  4.59502238e-01  4.59502238e-01  4.59502238e-01  3.27474454e-09  3.29004401e-09  3.19913063e-09  4.59502238e-01  1.61917722e-07  1.12515472e-07  7.20000000e-01 
 7.30000000e-01  4.59502225e-01  4.59502225e-01  4.59502225e-01  3.27474454e-09  3.29004401e-09  3.19913063e-09  4.59502225e-01  1.61917705e-07  1.12515416e-07  7.30000000e-01 
 7.40000000e-01  4.59502214e-01  4.59502214e-01  4.59502214e-01  3.27474454e-09  3.29004401e-09  3.19913063e-09  4.59502214e-01  1.61917680e-07  1.12515274e-07  7.40000000e-01 
 7.50000000e-01  4.59502260e-01  4.59502260e-01  4.59502260e-01  3.27474454e-09  3.29004401e-09  3.19913063e-09  4.59502260e-01  1.61917742e-07  1.12515366e-07  7.50000000e-01 
 7.60000000e-01  4.59502262e-01  4.59502262e-01  4.59502262e-01  3.27474454e-09  3.29004401e-09  3.19913064e-09  4.59502262e-01  1.61917750e-07  1.12515274e-07  7.60000000e-01 
 7.70000000e-01  4.59502233e-01  4.59502233e-01  4.59502233e-01  3.27474454e-09  3.29004401e-09  3.19913063e-09  4.59502233e-01  1.61917718e-07  1.12515131e-07  7.70000000e-01 
 7.80000000e-01  4.59502218e-01  4.59502218e-01  4.59502219e-01  3.27474454e-09  3.29004401e-09  3.19913063e-09  4.59502218e-01  1.61917683e-07  1.12514968e-07  7.80000000e-01 
 7.90000000e-01  4.59502234e-01  4.59502234e-01  4.59502234e-01  3.27474454e-09  3.29004401e-09  3.19913063e-09  4.59502234e-01  1.61917717e-07  1.12514940e-07  7.90000000e-01 
 8.00000000e-01  4.59502245e-01  4.59502245e-01  4.59502245e-01  3.27474454e-09  3.29004401e-09  3.19913063e-09  4.59502245e-01  1.61917724e-07  1.12514783e-07  8.00000000e-01 
 8.10000000e-01  4.59502244e-01  4.59502244e-01  4.59502244e-01  3.27474454e-09  3.29004401e-09  3.19913063e-09  4.59502244e-01  1.61917721e-07  1.12514819e-07  8.10000000e-01 
 8.20000000e-01  4.59502237e-01  4.59502237e-01  4.59502237e-01  3.27474454e-09  3.29004401e-09  3.19913063e-09  4.59502237e-01  1.61917725e-07  1.12514726e-07  8.20000000e-01 
 8.30000000e-01  4.59502250e-01  4.59502250e-01  4.59502251e-01  3.27474460e-09  3.29004401e-09  3.19913063e-09  4.59502250e-01  1.61917741e-07  1.12514606e-07  8.30000000e-01 
 8.40000000e-01  4.59502241e-01  4.59502241e-01  4.59502241e-01  3.27474454e-09  3.29004401e-09  3.19913063e-09  4.59502241e-01  1.61917723e-07  1.12514599e-07  8.40000000e-01 
 8.50000000e-01  4.59502241e-01  4.59502241e-01  4.59502241e-01  3.27474454e-09  3.29004401e-09  3.19913069e-09  4.59502241e-01  1.61917712e-07  1.12514499e-07  8.50000000e-01 
 8.60000000e-01  4.59502247e-01  4.59502247e-01  4.59502247e-01  3.27474454e-09  3.29004401e-09  3.19913063e-09  4.59502247e-01  1.61917732e-07  1.12514336e-07  8.60000000e-01 
 8.70000000e-01  4.59502251e-01  4.59502251e-01  4.59502251e-01  3.27474454e-09  3.29004401e-09  3.19913063e-09  4.59502251e-01  1.61917739e-07  1.12514329e-07  8.70000000e-01 
 8.80000000e-01  4.59502246e-01  4.59502246e-01  4.59502247e-01  3.27474454e-09  3.29004401e-09  3.19913063e-09  4.59502246e-01  1.61917723e-07  1.12514151e-07  8.80000000e-01 
 8.90000000e-01  4.59502250e-01  4.59502250e-01  4.59502251e-01  3.27474454e-09  3.29004401e-09  3.19913063e-09  4.59502250e-01  1.61917743e-07  1.12514144e-07  8.90000000e-01 
 9.00000000e-01  4.59502235e-01  4.59502235e-01  4.59502236e-01  3.27474454e-09  3.29004401e-09  3.19913063e-09  4.59502235e-01  1.61917716e-07  1.12514080e-07  9.00000000e-01 
 9.10000000e-01  4.59502264e-01  4.59502264e-01  4.59502264e-01  3.27474454e-09  3.29004401e-09  3.19913064e-09  4.59502264e-01  1.61917747e-07  1.12514037e-07  9.10000000e-01 
 9.20000000e-01  4.59502231e-01  4.59502231e-01  4.59502231e-01  3.27474454e-09  3.29004401e-09  3.19913063e-09  4.59502231e-01  1.61917710e-07  1.12513931e-07  9.20000000e-01 
 9.30000000e-01  4.59502250e-01  4.59502250e-01  4.59502250e-01  3.27474454e-09  3.29004401e-09  3.19913063e-09  4.59502250e-01  1.61917730e-07  1.12513781e-07  9.30000000e-01 
 9.40000000e-01  4.59502252e-01  4.59502252e-01  4.59502252e-01  3.27474454e-09  3.29004401e-09  3.19913063e-09  4.59502252e-01  1.61917743e-07  1.12513717e-07  9.40000000e-01 
 9.50000000e-01  4.59502263e-01  4.59502263e-01  4.59502263e-01  3.27474454e-09  3.29004401e-09  3.19913064e-09  4.59502263e-01  1.61917763e-07  1.12513689e-07  9.50000000e-01 
 9.60000000e-01  4.59502249e-01  4.59502250e-01  4.59502250e-01  3.27474454e-09  3.29004401e-09  3.19913063e-09  4.59502249e-01  1.61917742e-07  1.12513526e-07  9.60000000e-01 
 9.70000000e-01  4.59502261e-01  4.59502261e-01  4.59502261e-01  3.27474454e-09  3.29004401e-09  3.19913069e-09  4.59502261e-01  1.61917751e-07  1.12513447e-07  9.70000000e-01 
 9.80000000e-01  4.59502240e-01  4.59502240e-01  4.59502240e-01  3.27474454e-09  3.29004401e-09  3.19913063e-09  4.59502240e-01  1.61917715e-07  1.12513362e-07  9.80000000e-01 
 9.90000000e-01  4.59502261e-01  4.59502261e-01  4.59502261e-01  3.27474454e-09  3.29004401e-09  3.19913064e-09  4.59502261e-01  1.61917757e-07  1.12513320e-07  9.90000000e-01 
 1.00000000e+00  4.59502251e-01  4.59502251e-01  4.59502251e-01  3.27474454e-09  3.29004401e-09  3.19913063e-09  4.59502251e-01  1.61917743e-07  1.12513185e-07  1.00000000e+00 
 1.01000000e+00  4.59502257e-01  4.59502257e-01  4.59502257e-01  3.27474454e-09  3.29004401e-09  3.19913069e-09  4.59502257e-01  1.61917745e-07  1.12513142e-07  1.01000000e+00 
 1.02000000e+00  4.59502257e-01  4.59502257e-01  4.59502257e-01  3.27474454e-09  3.29004401e-09  3.19913063e-09  4.59502257e-01  1.61917752e-07  1.12512978e-07  1.02000000e+00 
 1.03000000e+00  4.59502251e-01  4.59502251e-01  4.59502251e-01  3.27474454e-09  3.29004401e-09  3.19913063e-09  4.59502251e-01  1.61917745e-07  1.12512886e-07  1.03000000e+00 
 1.04000000e+00  4.59502246e-01  4.59502246e-01  4.59502246e-01  3.27474454e-09  3.29004401e-09  3.19913063e-09  4.59502246e-01  1.61917743e-07  1.12512780e-07  1.04000000e+00 
 1.05000000e+00  4.59502242e-01  4.59502242e-01  4.59502243e-01  3.27474454e-09  3.29004401e-09  3.19913063e-09  4.59502242e-01  1.61917731e-07  1.12512637e-07  1.05000000e+00 
 1.06000000e+00  4.59502260e-01  4.59502260e-01  4.59502260e-01  3.27474454e-09  3.29004401e-09  3.19913064e-09  4.59502260e-01  1.61917745e-07  1.12512659e-07  1.06000000e+00 
 1.07000000e+00  4.59502218e-01  4.59502218e-01  4.59502218e-01  3.27474454e-09  3.29004401e-09  3.19913063e-09  4.59502218e-01  1.61917695e-07  1.12512453e-07  1.07000000e+00 
 1.08000000e+00  4.59502247e-01  4.59502247e-01  4.59502247e-01  3.27474460e-09  3.29004401e-09  3.19913063e-09  4.59502247e-01  1.61917715e-07  1.12512438e-07  1.08000000e+00 
 1.09000000e+00  4.59502230e-01  4.59502230e-01  4.59502230e-01  3.27474454e-09  3.29004401e-09  3.19913063e-09  4.59502230e-01  1.61917709e-07  1.12512375e-07  1.09000000e+00 
 1.10000000e+00  4.59502269e-01  4.59502269e-01  4.59502269e-01  3.27474454e-09  3.29004401e-09  3.19913064e-09  4.59502269e-01  1.61917763e-07  1.12512339e-07  1.10000000e+00 
