 v-sweep         v(b0)           v(b1)           v(b2)           v(b3)           v(b4)           v(b5)           v(b6)           i(vbias)        i(viout)        v(vout)        
 0.00000000e+00  4.57006497e-01  3.19745898e-09  4.57006497e-01  4.57006497e-01  4.57006497e-01  3.21884411e-09  4.57006497e-01  1.55102855e-07  1.36696026e-07  0.00000000e+00 
 1.00000000e-02  4.57006510e-01  3.19745890e-09  4.57006510e-01  4.57006510e-01  4.57006510e-01  3.21884409e-09  4.57006510e-01  1.55102856e-07  1.36695655e-07  1.00000000e-02 
 2.00000000e-02  4.57006500e-01  3.19745896e-09  4.57006500e-01  4.57006500e-01  4.57006500e-01  3.21884403e-09  4.57006500e-01  1.55102865e-07  1.36695107e-07  2.00000000e-02 
 3.00000000e-02  4.57006520e-01  3.19745896e-09  4.57006520e-01  4.57006520e-01  4.57006520e-01  3.21884409e-09  4.57006520e-01  1.55102880e-07  1.36694961e-07  3.00000000e-02 
 4.00000000e-02  4.57006527e-01  3.19745896e-09  4.57006527e-01  4.57006527e-01  4.57006527e-01  3.21884403e-09  4.57006527e-01  1.55102886e-07  1.36694543e-07  4.00000000e-02 
 5.00000000e-02  4.57006526e-01  3.19745890e-09  4.57006526e-01  4.57006526e-01  4.57006526e-01  3.21884403e-09  4.57006526e-01  1.55102900e-07  1.36694229e-07  5.00000000e-02 
 6.00000000e-02  4.57006532e-01  3.19745896e-09  4.57006532e-01  4.57006532e-01  4.57006532e-01  3.21884409e-09  4.57006532e-01  1.55102911e-07  1.36693809e-07  6.00000000e-02 
 7.00000000e-02  4.57006510e-01  3.19745896e-09  4.57006510e-01  4.57006510e-01  4.57006510e-01  3.21884409e-09  4.57006510e-01  1.55102869e-07  1.36693506e-07  7.00000000e-02 
 8.00000000e-02  4.57006499e-01  3.19745896e-09  4.57006499e-01  4.57006499e-01  4.57006498e-01  3.21884409e-09  4.57006498e-01  1.55102837e-07  1.36693183e-07  8.00000000e-02 
 9.00000000e-02  4.57006490e-01  3.19745896e-09  4.57006490e-01  4.57006490e-01  4.57006490e-01  3.21884409e-09  4.57006490e-01  1.55102830e-07  1.36692844e-07  9.00000000e-02 
 1.00000000e-01  4.57006515e-01  3.19745896e-09  4.57006515e-01  4.57006515e-01  4.57006515e-01  3.21884409e-09  4.57006515e-01  1.55102866e-07  1.36692667e-07  1.00000000e-01 
 1.10000000e-01  4.57006513e-01  3.19745896e-09  4.57006513e-01  4.57006513e-01  4.57006513e-01  3.21884409e-09  4.57006513e-01  1.55102876e-07  1.36692293e-07  1.10000000e-01 
 1.20000000e-01  4.57006502e-01  3.19745896e-09  4.57006502e-01  4.57006502e-01  4.57006502e-01  3.21884409e-09  4.57006502e-01  1.55102857e-07  1.36692042e-07  1.20000000e-01 
 1.30000000e-01  4.57006516e-01  3.19745896e-09  4.57006516e-01  4.57006516e-01  4.57006516e-01  3.21884409e-09  4.57006515e-01  1.55102886e-07  1.36691805e-07  1.30000000e-01 
 1.40000000e-01  4.57006499e-01  3.19745896e-09  4.57006499e-01  4.57006499e-01  4.57006499e-01  3.21884403e-09  4.57006499e-01  1.55102847e-07  1.36691473e-07  1.40000000e-01 
 1.50000000e-01  4.57006509e-01  3.19745890e-09  4.57006509e-01  4.57006509e-01  4.57006509e-01  3.21884403e-09  4.57006509e-01  1.55102866e-07  1.36691380e-07  1.50000000e-01 
 1.60000000e-01  4.57006517e-01  3.19745896e-09  4.57006517e-01  4.57006517e-01  4.57006517e-01  3.21884409e-09  4.57006517e-01  1.55102886e-07  1.36691177e-07  1.60000000e-01 
 1.70000000e-01  4.57006549e-01  3.19745896e-09  4.57006549e-01  4.57006549e-01  4.57006549e-01  3.21884409e-09  4.57006549e-01  1.55102931e-07  1.36691074e-07  1.70000000e-01 
 1.80000000e-01  4.57006512e-01  3.19745896e-09  4.57006512e-01  4.57006513e-01  4.57006512e-01  3.21884403e-09  4.57006512e-01  1.55102877e-07  1.36690726e-07  1.80000000e-01 
 1.90000000e-01  4.57006523e-01  3.19745896e-09  4.57006523e-01  4.57006523e-01  4.57006523e-01  3.21884409e-09  4.57006523e-01  1.55102894e-07  1.36690483e-07  1.90000000e-01 
 2.00000000e-01  4.57006514e-01  3.19745896e-09  4.57006514e-01  4.57006514e-01  4.57006514e-01  3.21884409e-09  4.57006514e-01  1.55102874e-07  1.36690277e-07  2.00000000e-01 
 2.10000000e-01  4.57006532e-01  3.19745890e-09  4.57006532e-01  4.57006532e-01  4.57006532e-01  3.21884409e-09  4.57006532e-01  1.55102887e-07  1.36690163e-07  2.10000000e-01 
 2.20000000e-01  4.57006514e-01  3.19745896e-09  4.57006514e-01  4.57006514e-01  4.57006514e-01  3.21884403e-09  4.57006514e-01  1.55102866e-07  1.36689946e-07  2.20000000e-01 
 2.30000000e-01  4.57006508e-01  3.19745896e-09  4.57006508e-01  4.57006509e-01  4.57006508e-01  3.21884409e-09  4.57006508e-01  1.55102871e-07  1.36689765e-07  2.30000000e-01 
 2.40000000e-01  4.57006526e-01  3.19745896e-09  4.57006526e-01  4.57006526e-01  4.57006526e-01  3.21884409e-09  4.57006526e-01  1.55102887e-07  1.36689636e-07  2.40000000e-01 
 2.50000000e-01  4.57006524e-01  3.19745890e-09  4.57006524e-01  4.57006524e-01  4.57006524e-01  3.21884403e-09  4.57006524e-01  1.55102889e-07  1.36689586e-07  2.50000000e-01 
 2.60000000e-01  4.57006534e-01  3.19745896e-09  4.57006534e-01  4.57006534e-01  4.57006534e-01  3.21884409e-09  4.57006534e-01  1.55102897e-07  1.36689378e-07  2.60000000e-01 
 2.70000000e-01  4.57006541e-01  3.19745896e-09  4.57006541e-01  4.57006541e-01  4.57006541e-01  3.21884409e-09  4.57006541e-01  1.55102913e-07  1.36689229e-07  2.70000000e-01 
 2.80000000e-01  4.57006504e-01  3.19745896e-09  4.57006504e-01  4.57006504e-01  4.57006504e-01  3.21884409e-09  4.57006504e-01  1.55102868e-07  1.36689028e-07  2.80000000e-01 
 2.90000000e-01  4.57006511e-01  3.19745896e-09  4.57006511e-01  4.57006512e-01  4.57006511e-01  3.21884403e-09  4.57006511e-01  1.55102861e-07  1.36688815e-07  2.90000000e-01 
 3.00000000e-01  4.57006496e-01  3.19745896e-09  4.57006496e-01  4.57006496e-01  4.57006496e-01  3.21884409e-09  4.57006496e-01  1.55102845e-07  1.36688730e-07  3.00000000e-01 
 3.10000000e-01  4.57006508e-01  3.19745896e-09  4.57006508e-01  4.57006508e-01  4.57006508e-01  3.21884409e-09  4.57006508e-01  1.55102864e-07  1.36688456e-07  3.10000000e-01 
 3.20000000e-01  4.57006508e-01  3.19745896e-09  4.57006508e-01  4.57006509e-01  4.57006508e-01  3.21884409e-09  4.57006508e-01  1.55102877e-07  1.36688389e-07  3.20000000e-01 
 3.30000000e-01  4.57006525e-01  3.19745890e-09  4.57006525e-01  4.57006525e-01  4.57006525e-01  3.21884403e-09  4.57006525e-01  1.55102885e-07  1.36688325e-07  3.30000000e-01 
 3.40000000e-01  4.57006517e-01  3.19745896e-09  4.57006517e-01  4.57006517e-01  4.57006517e-01  3.21884403e-09  4.57006517e-01  1.55102878e-07  1.36688229e-07  3.40000000e-01 
 3.50000000e-01  4.57006522e-01  3.19745896e-09  4.57006522e-01  4.57006522e-01  4.57006522e-01  3.21884409e-09  4.57006522e-01  1.55102874e-07  1.36688037e-07  3.50000000e-01 
 3.60000000e-01  4.57006507e-01  3.19745896e-09  4.57006507e-01  4.57006508e-01  4.57006507e-01  3.21884409e-09  4.57006507e-01  1.55102881e-07  1.36687927e-07  3.60000000e-01 
 3.70000000e-01  4.57006520e-01  3.19745896e-09  4.57006521e-01  4.57006521e-01  4.57006520e-01  3.21884409e-09  4.57006520e-01  1.55102887e-07  1.36687870e-07  3.70000000e-01 
 3.80000000e-01  4.57006504e-01  3.19745896e-09  4.57006504e-01  4.57006504e-01  4.57006504e-01  3.21884403e-09  4.57006504e-01  1.55102846e-07  1.36687795e-07  3.80000000e-01 
 3.90000000e-01  4.57006495e-01  3.19745896e-09  4.57006495e-01  4.57006495e-01  4.57006495e-01  3.21884409e-09  4.57006495e-01  1.55102850e-07  1.36687525e-07  3.90000000e-01 
 4.00000000e-01  4.57006517e-01  3.19745896e-09  4.57006517e-01  4.57006518e-01  4.57006517e-01  3.21884409e-09  4.57006517e-01  1.55102883e-07  1.36687557e-07  4.00000000e-01 
 4.10000000e-01  4.57006508e-01  3.19745896e-09  4.57006508e-01  4.57006508e-01  4.57006508e-01  3.21884403e-09  4.57006508e-01  1.55102867e-07  1.36687458e-07  4.10000000e-01 
 4.20000000e-01  4.57006540e-01  3.19745896e-09  4.57006541e-01  4.57006541e-01  4.57006540e-01  3.21884403e-09  4.57006540e-01  1.55102909e-07  1.36687376e-07  4.20000000e-01 
 4.30000000e-01  4.57006511e-01  3.19745896e-09  4.57006511e-01  4.57006511e-01  4.57006511e-01  3.21884409e-09  4.57006511e-01  1.55102878e-07  1.36687060e-07  4.30000000e-01 
 4.40000000e-01  4.57006508e-01  3.19745896e-09  4.57006508e-01  4.57006508e-01  4.57006508e-01  3.21884403e-09  4.57006508e-01  1.55102872e-07  1.36687039e-07  4.40000000e-01 
 4.50000000e-01  4.57006521e-01  3.19745890e-09  4.57006521e-01  4.57006521e-01  4.57006521e-01  3.21884409e-09  4.57006521e-01  1.55102884e-07  1.36686992e-07  4.50000000e-01 
 4.60000000e-01  4.57006510e-01  3.19745896e-09  4.57006510e-01  4.57006510e-01  4.57006510e-01  3.21884403e-09  4.57006510e-01  1.55102871e-07  1.36686918e-07  4.60000000e-01 
 4.70000000e-01  4.57006506e-01  3.19745890e-09  4.57006506e-01  4.57006506e-01  4.57006506e-01  3.21884409e-09  4.57006506e-01  1.55102868e-07  1.36686630e-07  4.70000000e-01 
 4.80000000e-01  4.57006502e-01  3.19745896e-09  4.57006502e-01  4.57006503e-01  4.57006502e-01  3.21884409e-09  4.57006502e-01  1.55102849e-07  1.36686637e-07  4.80000000e-01 
 4.90000000e-01  4.57006498e-01  3.19745896e-09  4.57006498e-01  4.57006498e-01  4.57006498e-01  3.21884403e-09  4.57006498e-01  1.55102854e-07  1.36686506e-07  4.90000000e-01 
 5.00000000e-01  4.57006511e-01  3.19745896e-09  4.57006511e-01  4.57006512e-01  4.57006511e-01  3.21884403e-09  4.57006511e-01  1.55102873e-07  1.36686548e-07  5.00000000e-01 
 5.10000000e-01  4.57006493e-01  3.19745896e-09  4.57006493e-01  4.57006494e-01  4.57006493e-01  3.21884409e-09  4.57006493e-01  1.55102850e-07  1.36686353e-07  5.10000000e-01 
 5.20000000e-01  4.57006501e-01  3.19745896e-09  4.57006501e-01  4.57006501e-01  4.57006501e-01  3.21884409e-09  4.57006501e-01  1.55102854e-07  1.36686310e-07  5.20000000e-01 
 5.30000000e-01  4.57006518e-01  3.19745896e-09  4.57006518e-01  4.57006518e-01  4.57006518e-01  3.21884409e-09  4.57006518e-01  1.55102885e-07  1.36686204e-07  5.30000000e-01 
 5.40000000e-01  4.57006517e-01  3.19745896e-09  4.57006517e-01  4.57006517e-01  4.57006517e-01  3.21884409e-09  4.57006517e-01  1.55102872e-07  1.36686126e-07  5.40000000e-01 
 5.50000000e-01  4.57006520e-01  3.19745896e-09  4.57006520e-01  4.57006520e-01  4.57006520e-01  3.21884403e-09  4.57006520e-01  1.55102884e-07  1.36686044e-07  5.50000000e-01 
 5.60000000e-01  4.57006532e-01  3.19745890e-09  4.57006532e-01  4.57006532e-01  4.57006532e-01  3.21884409e-09  4.57006532e-01  1.55102894e-07  1.36685966e-07  5.60000000e-01 
 5.70000000e-01  4.57006543e-01  3.19745896e-09  4.57006543e-01  4.57006543e-01  4.57006543e-01  3.21884409e-09  4.57006543e-01  1.55102915e-07  1.36685934e-07  5.70000000e-01 
 5.80000000e-01  4.57006535e-01  3.19745896e-09  4.57006535e-01  4.57006535e-01  4.57006535e-01  3.21884409e-09  4.57006535e-01  1.55102913e-07  1.36685742e-07  5.80000000e-01 
 5.90000000e-01  4.57006534e-01  3.19745896e-09  4.57006534e-01  4.57006534e-01  4.57006534e-01  3.21884403e-09  4.57006534e-01  1.55102896e-07  1.36685735e-07  5.90000000e-01 
 6.00000000e-01  4.57006505e-01  3.19745896e-09  4.57006505e-01  4.57006505e-01  4.57006505e-01  3.21884409e-09  4.57006505e-01  1.55102863e-07  1.36685628e-07  6.00000000e-01 
 6.10000000e-01  4.57006518e-01  3.19745896e-09  4.57006518e-01  4.57006518e-01  4.57006518e-01  3.21884409e-09  4.57006518e-01  1.55102878e-07  1.36685408e-07  6.10000000e-01 
 6.20000000e-01  4.57006526e-01  3.19745896e-09  4.57006526e-01  4.57006527e-01  4.57006526e-01  3.21884403e-09  4.57006526e-01  1.55102892e-07  1.36685493e-07  6.20000000e-01 
 6.30000000e-01  4.57006509e-01  3.19745896e-09  4.57006509e-01  4.57006509e-01  4.57006509e-01  3.21884409e-09  4.57006509e-01  1.55102878e-07  1.36685280e-07  6.30000000e-01 
 6.40000000e-01  4.57006513e-01  3.19745896e-09  4.57006513e-01  4.57006514e-01  4.57006513e-01  3.21884409e-09  4.57006513e-01  1.55102880e-07  1.36685344e-07  6.40000000e-01 
 6.50000000e-01  4.57006494e-01  3.19745896e-09  4.57006494e-01  4.57006494e-01  4.57006494e-01  3.21884409e-09  4.57006494e-01  1.55102839e-07  1.36684939e-07  6.50000000e-01 
 6.60000000e-01  4.57006511e-01  3.19745896e-09  4.57006511e-01  4.57006511e-01  4.57006511e-01  3.21884409e-09  4.57006511e-01  1.55102863e-07  1.36684982e-07  6.60000000e-01 
 6.70000000e-01  4.57006506e-01  3.19745896e-09  4.57006506e-01  4.57006506e-01  4.57006506e-01  3.21884409e-09  4.57006506e-01  1.55102856e-07  1.36684868e-07  6.70000000e-01 
 6.80000000e-01  4.57006505e-01  3.19745896e-09  4.57006505e-01  4.57006505e-01  4.57006505e-01  3.21884403e-09  4.57006505e-01  1.55102867e-07  1.36684882e-07  6.80000000e-01 
 6.90000000e-01  4.57006508e-01  3.19745896e-09  4.57006508e-01  4.57006509e-01  4.57006508e-01  3.21884403e-09  4.57006508e-01  1.55102869e-07  1.36684797e-07  6.90000000e-01 
 7.00000000e-01  4.57006519e-01  3.19745890e-09  4.57006519e-01  4.57006519e-01  4.57006519e-01  3.21884409e-09  4.57006519e-01  1.55102886e-07  1.36684676e-07  7.00000000e-01 
 7.10000000e-01  4.57006512e-01  3.19745896e-09  4.57006512e-01  4.57006512e-01  4.57006512e-01  3.21884409e-09  4.57006512e-01  1.55102875e-07  1.36684498e-07  7.10000000e-01 
 7.20000000e-01  4.57006515e-01  3.19745890e-09  4.57006515e-01  4.57006515e-01  4.57006515e-01  3.21884409e-09  4.57006515e-01  1.55102874e-07  1.36684498e-07  7.20000000e-01 
 7.30000000e-01  4.57006505e-01  3.19745896e-09  4.57006505e-01  4.57006505e-01  4.57006505e-01  3.21884403e-09  4.57006505e-01  1.55102869e-07  1.36684278e-07  7.30000000e-01 
 7.40000000e-01  4.57006492e-01  3.19745896e-09  4.57006492e-01  4.57006492e-01  4.57006492e-01  3.21884403e-09  4.57006492e-01  1.55102827e-07  1.36684122e-07  7.40000000e-01 
 7.50000000e-01  4.57006527e-01  3.19745896e-09  4.57006527e-01  4.57006527e-01  4.57006527e-01  3.21884409e-09  4.57006527e-01  1.55102875e-07  1.36684264e-07  7.50000000e-01 
 7.60000000e-01  4.57006539e-01  3.19745896e-09  4.57006539e-01  4.57006539e-01  4.57006539e-01  3.21884409e-09  4.57006539e-01  1.55102929e-07  1.36684093e-07  7.60000000e-01 
 7.70000000e-01  4.57006535e-01  3.19745896e-09  4.57006535e-01  4.57006535e-01  4.57006535e-01  3.21884409e-09  4.57006535e-01  1.55102904e-07  1.36684001e-07  7.70000000e-01 
 7.80000000e-01  4.57006498e-01  3.19745896e-09  4.57006498e-01  4.57006498e-01  4.57006498e-01  3.21884409e-09  4.57006498e-01  1.55102854e-07  1.36683852e-07  7.80000000e-01 
 7.90000000e-01  4.57006518e-01  3.19745896e-09  4.57006518e-01  4.57006518e-01  4.57006518e-01  3.21884403e-09  4.57006518e-01  1.55102874e-07  1.36683830e-07  7.90000000e-01 
 8.00000000e-01  4.57006527e-01  3.19745896e-09  4.57006527e-01  4.57006527e-01  4.57006527e-01  3.21884409e-09  4.57006527e-01  1.55102888e-07  1.36683759e-07  8.00000000e-01 
 8.10000000e-01  4.57006513e-01  3.19745890e-09  4.57006513e-01  4.57006513e-01  4.57006513e-01  3.21884409e-09  4.57006513e-01  1.55102868e-07  1.36683546e-07  8.10000000e-01 
 8.20000000e-01  4.57006500e-01  3.19745896e-09  4.57006500e-01  4.57006500e-01  4.57006500e-01  3.21884409e-09  4.57006500e-01  1.55102847e-07  1.36683504e-07  8.20000000e-01 
 8.30000000e-01  4.57006482e-01  3.19745896e-09  4.57006482e-01  4.57006482e-01  4.57006482e-01  3.21884409e-09  4.57006482e-01  1.55102838e-07  1.36683205e-07  8.30000000e-01 
 8.40000000e-01  4.57006510e-01  3.19745896e-09  4.57006510e-01  4.57006510e-01  4.57006510e-01  3.21884409e-09  4.57006510e-01  1.55102856e-07  1.36683227e-07  8.40000000e-01 
 8.50000000e-01  4.57006530e-01  3.19745896e-09  4.57006530e-01  4.57006530e-01  4.57006530e-01  3.21884409e-09  4.57006530e-01  1.55102901e-07  1.36683227e-07  8.50000000e-01 
 8.60000000e-01  4.57006536e-01  3.19745896e-09  4.57006536e-01  4.57006536e-01  4.57006536e-01  3.21884403e-09  4.57006536e-01  1.55102915e-07  1.36683198e-07  8.60000000e-01 
 8.70000000e-01  4.57006507e-01  3.19745896e-09  4.57006507e-01  4.57006508e-01  4.57006507e-01  3.21884409e-09  4.57006507e-01  1.55102856e-07  1.36682900e-07  8.70000000e-01 
 8.80000000e-01  4.57006506e-01  3.19745896e-09  4.57006506e-01  4.57006507e-01  4.57006506e-01  3.21884409e-09  4.57006506e-01  1.55102860e-07  1.36682878e-07  8.80000000e-01 
 8.90000000e-01  4.57006513e-01  3.19745896e-09  4.57006513e-01  4.57006513e-01  4.57006513e-01  3.21884409e-09  4.57006513e-01  1.55102876e-07  1.36682893e-07  8.90000000e-01 
 9.00000000e-01  4.57006501e-01  3.19745896e-09  4.57006501e-01  4.57006501e-01  4.57006501e-01  3.21884403e-09  4.57006501e-01  1.55102840e-07  1.36682601e-07  9.00000000e-01 
 9.10000000e-01  4.57006515e-01  3.19745896e-09  4.57006515e-01  4.57006516e-01  4.57006515e-01  3.21884409e-09  4.57006515e-01  1.55102871e-07  1.36682637e-07  9.10000000e-01 
 9.20000000e-01  4.57006512e-01  3.19745896e-09  4.57006512e-01  4.57006512e-01  4.57006512e-01  3.21884409e-09  4.57006512e-01  1.55102875e-07  1.36682466e-07  9.20000000e-01 
 9.30000000e-01  4.57006526e-01  3.19745896e-09  4.57006526e-01  4.57006526e-01  4.57006526e-01  3.21884409e-09  4.57006526e-01  1.55102903e-07  1.36682459e-07  9.30000000e-01 
 9.40000000e-01  4.57006525e-01  3.19745896e-09  4.57006525e-01  4.57006525e-01  4.57006525e-01  3.21884409e-09  4.57006525e-01  1.55102883e-07  1.36682388e-07  9.40000000e-01 
 9.50000000e-01  4.57006516e-01  3.19745896e-09  4.57006516e-01  4.57006516e-01  4.57006516e-01  3.21884403e-09  4.57006516e-01  1.55102895e-07  1.36682296e-07  9.50000000e-01 
 9.60000000e-01  4.57006505e-01  3.19745896e-09  4.57006505e-01  4.57006505e-01  4.57006505e-01  3.21884409e-09  4.57006505e-01  1.55102851e-07  1.36682118e-07  9.60000000e-01 
 9.70000000e-01  4.57006488e-01  3.19745896e-09  4.57006488e-01  4.57006488e-01  4.57006488e-01  3.21884409e-09  4.57006488e-01  1.55102832e-07  1.36681848e-07  9.70000000e-01 
 9.80000000e-01  4.57006514e-01  3.19745896e-09  4.57006514e-01  4.57006514e-01  4.57006514e-01  3.21884403e-09  4.57006514e-01  1.55102874e-07  1.36681933e-07  9.80000000e-01 
 9.90000000e-01  4.57006520e-01  3.19745890e-09  4.57006520e-01  4.57006520e-01  4.57006520e-01  3.21884409e-09  4.57006520e-01  1.55102880e-07  1.36681855e-07  9.90000000e-01 
 1.00000000e+00  4.57006509e-01  3.19745896e-09  4.57006509e-01  4.57006509e-01  4.57006509e-01  3.21884403e-09  4.57006509e-01  1.55102877e-07  1.36681642e-07  1.00000000e+00 
 1.01000000e+00  4.57006501e-01  3.19745896e-09  4.57006501e-01  4.57006501e-01  4.57006501e-01  3.21884409e-09  4.57006501e-01  1.55102861e-07  1.36681543e-07  1.01000000e+00 
 1.02000000e+00  4.57006515e-01  3.19745896e-09  4.57006515e-01  4.57006515e-01  4.57006514e-01  3.21884409e-09  4.57006514e-01  1.55102874e-07  1.36681507e-07  1.02000000e+00 
 1.03000000e+00  4.57006524e-01  3.19745896e-09  4.57006524e-01  4.57006524e-01  4.57006524e-01  3.21884409e-09  4.57006524e-01  1.55102890e-07  1.36681322e-07  1.03000000e+00 
 1.04000000e+00  4.57006554e-01  3.19745896e-09  4.57006554e-01  4.57006554e-01  4.57006554e-01  3.21884403e-09  4.57006554e-01  1.55102920e-07  1.36681294e-07  1.04000000e+00 
 1.05000000e+00  4.57006514e-01  3.19745896e-09  4.57006514e-01  4.57006514e-01  4.57006514e-01  3.21884403e-09  4.57006514e-01  1.55102881e-07  1.36681116e-07  1.05000000e+00 
 1.06000000e+00  4.57006516e-01  3.19745896e-09  4.57006516e-01  4.57006516e-01  4.57006516e-01  3.21884409e-09  4.57006516e-01  1.55102878e-07  1.36681017e-07  1.06000000e+00 
 1.07000000e+00  4.57006518e-01  3.19745896e-09  4.57006518e-01  4.57006518e-01  4.57006518e-01  3.21884409e-09  4.57006517e-01  1.55102885e-07  1.36680974e-07  1.07000000e+00 
 1.08000000e+00  4.57006498e-01  3.19745896e-09  4.57006498e-01  4.57006498e-01  4.57006498e-01  3.21884403e-09  4.57006498e-01  1.55102845e-07  1.36680754e-07  1.08000000e+00 
 1.09000000e+00  4.57006494e-01  3.19745890e-09  4.57006494e-01  4.57006494e-01  4.57006494e-01  3.21884409e-09  4.57006494e-01  1.55102850e-07  1.36680683e-07  1.09000000e+00 
 1.10000000e+00  4.57006510e-01  3.19745896e-09  4.57006510e-01  4.57006510e-01  4.57006510e-01  3.21884409e-09  4.57006510e-01  1.55102863e-07  1.36680576e-07  1.10000000e+00 
