 v-sweep         v(b0)           v(b1)           v(b2)           v(b3)           v(b4)           v(b5)           v(b6)           i(vbias)        i(viout)        v(vout)        
 0.00000000e+00  3.44080293e-09  4.59026809e-01  4.59026809e-01  3.49590204e-09  3.41535951e-09  4.59026809e-01  3.44602766e-09  1.61428401e-07  6.02685728e-08  0.00000000e+00 
 1.00000000e-02  3.44080297e-09  4.59026826e-01  4.59026826e-01  3.49590202e-09  3.41535949e-09  4.59026826e-01  3.44602763e-09  1.61428430e-07  6.02682243e-08  1.00000000e-02 
 2.00000000e-02  3.44080291e-09  4.59026832e-01  4.59026832e-01  3.49590208e-09  3.41535949e-09  4.59026832e-01  3.44602765e-09  1.61428432e-07  6.02679344e-08  2.00000000e-02 
 3.00000000e-02  3.44080291e-09  4.59026834e-01  4.59026834e-01  3.49590208e-09  3.41535949e-09  4.59026834e-01  3.44602763e-09  1.61428451e-07  6.02674237e-08  3.00000000e-02 
 4.00000000e-02  3.44080291e-09  4.59026843e-01  4.59026843e-01  3.49590202e-09  3.41535949e-09  4.59026842e-01  3.44602765e-09  1.61428452e-07  6.02670398e-08  4.00000000e-02 
 5.00000000e-02  3.44080291e-09  4.59026851e-01  4.59026851e-01  3.49590202e-09  3.41535949e-09  4.59026851e-01  3.44602769e-09  1.61428465e-07  6.02667849e-08  5.00000000e-02 
 6.00000000e-02  3.44080291e-09  4.59026838e-01  4.59026838e-01  3.49590202e-09  3.41535949e-09  4.59026838e-01  3.44602769e-09  1.61428453e-07  6.02664914e-08  6.00000000e-02 
 7.00000000e-02  3.44080297e-09  4.59026820e-01  4.59026820e-01  3.49590208e-09  3.41535949e-09  4.59026820e-01  3.44602763e-09  1.61428423e-07  6.02661796e-08  7.00000000e-02 
 8.00000000e-02  3.44080291e-09  4.59026831e-01  4.59026831e-01  3.49590202e-09  3.41535949e-09  4.59026830e-01  3.44602765e-09  1.61428442e-07  6.02659345e-08  8.00000000e-02 
 9.00000000e-02  3.44080291e-09  4.59026817e-01  4.59026817e-01  3.49590202e-09  3.41535949e-09  4.59026817e-01  3.44602763e-09  1.61428421e-07  6.02655357e-08  9.00000000e-02 
 1.00000000e-01  3.44080291e-09  4.59026834e-01  4.59026834e-01  3.49590202e-09  3.41535949e-09  4.59026834e-01  3.44602765e-09  1.61428444e-07  6.02654113e-08  1.00000000e-01 
 1.10000000e-01  3.44080291e-09  4.59026850e-01  4.59026850e-01  3.49590208e-09  3.41535949e-09  4.59026850e-01  3.44602769e-09  1.61428473e-07  6.02651857e-08  1.10000000e-01 
 1.20000000e-01  3.44080297e-09  4.59026818e-01  4.59026818e-01  3.49590202e-09  3.41535949e-09  4.59026818e-01  3.44602769e-09  1.61428420e-07  6.02648473e-08  1.20000000e-01 
 1.30000000e-01  3.44080291e-09  4.59026827e-01  4.59026827e-01  3.49590202e-09  3.41535949e-09  4.59026827e-01  3.44602763e-09  1.61428446e-07  6.02645960e-08  1.30000000e-01 
 1.40000000e-01  3.44080291e-09  4.59026840e-01  4.59026840e-01  3.49590202e-09  3.41535949e-09  4.59026840e-01  3.44602765e-09  1.61428465e-07  6.02643686e-08  1.40000000e-01 
 1.50000000e-01  3.44080297e-09  4.59026845e-01  4.59026845e-01  3.49590208e-09  3.41535949e-09  4.59026845e-01  3.44602763e-09  1.61428462e-07  6.02641990e-08  1.50000000e-01 
 1.60000000e-01  3.44080291e-09  4.59026823e-01  4.59026823e-01  3.49590202e-09  3.41535949e-09  4.59026823e-01  3.44602765e-09  1.61428437e-07  6.02640018e-08  1.60000000e-01 
 1.70000000e-01  3.44080291e-09  4.59026861e-01  4.59026861e-01  3.49590202e-09  3.41535955e-09  4.59026861e-01  3.44602769e-09  1.61428476e-07  6.02638845e-08  1.70000000e-01 
 1.80000000e-01  3.44080291e-09  4.59026839e-01  4.59026839e-01  3.49590202e-09  3.41535949e-09  4.59026839e-01  3.44602769e-09  1.61428454e-07  6.02636607e-08  1.80000000e-01 
 1.90000000e-01  3.44080291e-09  4.59026828e-01  4.59026828e-01  3.49590202e-09  3.41535949e-09  4.59026828e-01  3.44602763e-09  1.61428430e-07  6.02634831e-08  1.90000000e-01 
 2.00000000e-01  3.44080291e-09  4.59026849e-01  4.59026849e-01  3.49590208e-09  3.41535949e-09  4.59026849e-01  3.44602765e-09  1.61428461e-07  6.02633587e-08  2.00000000e-01 
 2.10000000e-01  3.44080291e-09  4.59026830e-01  4.59026830e-01  3.49590202e-09  3.41535955e-09  4.59026830e-01  3.44602763e-09  1.61428434e-07  6.02631438e-08  2.10000000e-01 
 2.20000000e-01  3.44080291e-09  4.59026837e-01  4.59026837e-01  3.49590202e-09  3.41535949e-09  4.59026836e-01  3.44602765e-09  1.61428454e-07  6.02630017e-08  2.20000000e-01 
 2.30000000e-01  3.44080291e-09  4.59026839e-01  4.59026839e-01  3.49590202e-09  3.41535949e-09  4.59026839e-01  3.44602769e-09  1.61428452e-07  6.02628507e-08  2.30000000e-01 
 2.40000000e-01  3.44080291e-09  4.59026842e-01  4.59026842e-01  3.49590202e-09  3.41535949e-09  4.59026842e-01  3.44602769e-09  1.61428450e-07  6.02626713e-08  2.40000000e-01 
 2.50000000e-01  3.44080291e-09  4.59026828e-01  4.59026828e-01  3.49590208e-09  3.41535949e-09  4.59026828e-01  3.44602763e-09  1.61428454e-07  6.02624652e-08  2.50000000e-01 
 2.60000000e-01  3.44080291e-09  4.59026827e-01  4.59026827e-01  3.49590208e-09  3.41535949e-09  4.59026827e-01  3.44602765e-09  1.61428441e-07  6.02623942e-08  2.60000000e-01 
 2.70000000e-01  3.44080291e-09  4.59026826e-01  4.59026826e-01  3.49590208e-09  3.41535949e-09  4.59026826e-01  3.44602769e-09  1.61428424e-07  6.02622627e-08  2.70000000e-01 
 2.80000000e-01  3.44080291e-09  4.59026831e-01  4.59026831e-01  3.49590208e-09  3.41535949e-09  4.59026831e-01  3.44602764e-09  1.61428439e-07  6.02622308e-08  2.80000000e-01 
 2.90000000e-01  3.44080297e-09  4.59026821e-01  4.59026821e-01  3.49590202e-09  3.41535949e-09  4.59026821e-01  3.44602765e-09  1.61428425e-07  6.02620958e-08  2.90000000e-01 
 3.00000000e-01  3.44080291e-09  4.59026831e-01  4.59026831e-01  3.49590202e-09  3.41535955e-09  4.59026830e-01  3.44602769e-09  1.61428446e-07  6.02619536e-08  3.00000000e-01 
 3.10000000e-01  3.44080291e-09  4.59026845e-01  4.59026845e-01  3.49590202e-09  3.41535949e-09  4.59026845e-01  3.44602764e-09  1.61428470e-07  6.02618933e-08  3.10000000e-01 
 3.20000000e-01  3.44080291e-09  4.59026838e-01  4.59026838e-01  3.49590202e-09  3.41535949e-09  4.59026838e-01  3.44602765e-09  1.61428441e-07  6.02617121e-08  3.20000000e-01 
 3.30000000e-01  3.44080291e-09  4.59026837e-01  4.59026837e-01  3.49590202e-09  3.41535949e-09  4.59026837e-01  3.44602769e-09  1.61428455e-07  6.02616765e-08  3.30000000e-01 
 3.40000000e-01  3.44080291e-09  4.59026855e-01  4.59026855e-01  3.49590202e-09  3.41535949e-09  4.59026855e-01  3.44602764e-09  1.61428468e-07  6.02614989e-08  3.40000000e-01 
 3.50000000e-01  3.44080291e-09  4.59026838e-01  4.59026838e-01  3.49590208e-09  3.41535949e-09  4.59026838e-01  3.44602765e-09  1.61428452e-07  6.02614136e-08  3.50000000e-01 
 3.60000000e-01  3.44080291e-09  4.59026822e-01  4.59026822e-01  3.49590202e-09  3.41535949e-09  4.59026822e-01  3.44602763e-09  1.61428426e-07  6.02612467e-08  3.60000000e-01 
 3.70000000e-01  3.44080297e-09  4.59026831e-01  4.59026831e-01  3.49590208e-09  3.41535949e-09  4.59026831e-01  3.44602765e-09  1.61428441e-07  6.02612680e-08  3.70000000e-01 
 3.80000000e-01  3.44080291e-09  4.59026825e-01  4.59026825e-01  3.49590202e-09  3.41535949e-09  4.59026825e-01  3.44602769e-09  1.61428426e-07  6.02611934e-08  3.80000000e-01 
 3.90000000e-01  3.44080291e-09  4.59026826e-01  4.59026826e-01  3.49590202e-09  3.41535949e-09  4.59026826e-01  3.44602763e-09  1.61428440e-07  6.02610797e-08  3.90000000e-01 
 4.00000000e-01  3.44080291e-09  4.59026839e-01  4.59026839e-01  3.49590208e-09  3.41535949e-09  4.59026838e-01  3.44602765e-09  1.61428451e-07  6.02610299e-08  4.00000000e-01 
 4.10000000e-01  3.44080291e-09  4.59026824e-01  4.59026824e-01  3.49590202e-09  3.41535949e-09  4.59026824e-01  3.44602769e-09  1.61428436e-07  6.02610548e-08  4.10000000e-01 
 4.20000000e-01  3.44080291e-09  4.59026815e-01  4.59026815e-01  3.49590208e-09  3.41535949e-09  4.59026815e-01  3.44602769e-09  1.61428411e-07  6.02607884e-08  4.20000000e-01 
 4.30000000e-01  3.44080291e-09  4.59026828e-01  4.59026829e-01  3.49590202e-09  3.41535949e-09  4.59026828e-01  3.44602763e-09  1.61428440e-07  6.02608203e-08  4.30000000e-01 
 4.40000000e-01  3.44080291e-09  4.59026853e-01  4.59026853e-01  3.49590208e-09  3.41535949e-09  4.59026852e-01  3.44602771e-09  1.61428485e-07  6.02607813e-08  4.40000000e-01 
 4.50000000e-01  3.44080291e-09  4.59026807e-01  4.59026807e-01  3.49590208e-09  3.41535949e-09  4.59026806e-01  3.44602763e-09  1.61428407e-07  6.02606995e-08  4.50000000e-01 
 4.60000000e-01  3.44080291e-09  4.59026813e-01  4.59026813e-01  3.49590202e-09  3.41535949e-09  4.59026813e-01  3.44602765e-09  1.61428406e-07  6.02605645e-08  4.60000000e-01 
 4.70000000e-01  3.44080291e-09  4.59026797e-01  4.59026797e-01  3.49590202e-09  3.41535949e-09  4.59026797e-01  3.44602768e-09  1.61428388e-07  6.02605361e-08  4.70000000e-01 
 4.80000000e-01  3.44080291e-09  4.59026826e-01  4.59026826e-01  3.49590202e-09  3.41535949e-09  4.59026826e-01  3.44602769e-09  1.61428429e-07  6.02603585e-08  4.80000000e-01 
 4.90000000e-01  3.44080291e-09  4.59026832e-01  4.59026832e-01  3.49590202e-09  3.41535949e-09  4.59026832e-01  3.44602769e-09  1.61428451e-07  6.02603620e-08  4.90000000e-01 
 5.00000000e-01  3.44080291e-09  4.59026832e-01  4.59026832e-01  3.49590208e-09  3.41535949e-09  4.59026832e-01  3.44602764e-09  1.61428444e-07  6.02603514e-08  5.00000000e-01 
 5.10000000e-01  3.44080291e-09  4.59026827e-01  4.59026827e-01  3.49590208e-09  3.41535949e-09  4.59026827e-01  3.44602765e-09  1.61428435e-07  6.02602057e-08  5.10000000e-01 
 5.20000000e-01  3.44080291e-09  4.59026834e-01  4.59026834e-01  3.49590208e-09  3.41535949e-09  4.59026834e-01  3.44602769e-09  1.61428421e-07  6.02601773e-08  5.20000000e-01 
 5.30000000e-01  3.44080297e-09  4.59026847e-01  4.59026847e-01  3.49590202e-09  3.41535949e-09  4.59026847e-01  3.44602769e-09  1.61428468e-07  6.02600991e-08  5.30000000e-01 
 5.40000000e-01  3.44080291e-09  4.59026839e-01  4.59026839e-01  3.49590202e-09  3.41535949e-09  4.59026839e-01  3.44602764e-09  1.61428455e-07  6.02600139e-08  5.40000000e-01 
 5.50000000e-01  3.44080291e-09  4.59026849e-01  4.59026849e-01  3.49590208e-09  3.41535949e-09  4.59026849e-01  3.44602765e-09  1.61428464e-07  6.02600210e-08  5.50000000e-01 
 5.60000000e-01  3.44080291e-09  4.59026819e-01  4.59026819e-01  3.49590202e-09  3.41535949e-09  4.59026819e-01  3.44602763e-09  1.61428415e-07  6.02599322e-08  5.60000000e-01 
 5.70000000e-01  3.44080291e-09  4.59026832e-01  4.59026832e-01  3.49590202e-09  3.41535949e-09  4.59026832e-01  3.44602770e-09  1.61428442e-07  6.02597368e-08  5.70000000e-01 
 5.80000000e-01  3.44080297e-09  4.59026835e-01  4.59026835e-01  3.49590208e-09  3.41535949e-09  4.59026834e-01  3.44602763e-09  1.61428452e-07  6.02598078e-08  5.80000000e-01 
 5.90000000e-01  3.44080291e-09  4.59026825e-01  4.59026825e-01  3.49590202e-09  3.41535949e-09  4.59026825e-01  3.44602765e-09  1.61428433e-07  6.02597368e-08  5.90000000e-01 
 6.00000000e-01  3.44080291e-09  4.59026840e-01  4.59026840e-01  3.49590202e-09  3.41535949e-09  4.59026840e-01  3.44602769e-09  1.61428456e-07  6.02597225e-08  6.00000000e-01 
 6.10000000e-01  3.44080291e-09  4.59026838e-01  4.59026838e-01  3.49590208e-09  3.41535949e-09  4.59026838e-01  3.44602764e-09  1.61428448e-07  6.02596302e-08  6.10000000e-01 
 6.20000000e-01  3.44080291e-09  4.59026828e-01  4.59026828e-01  3.49590202e-09  3.41535949e-09  4.59026828e-01  3.44602765e-09  1.61428441e-07  6.02595591e-08  6.20000000e-01 
 6.30000000e-01  3.44080291e-09  4.59026832e-01  4.59026832e-01  3.49590202e-09  3.41535949e-09  4.59026832e-01  3.44602769e-09  1.61428430e-07  6.02594881e-08  6.30000000e-01 
 6.40000000e-01  3.44080291e-09  4.59026827e-01  4.59026827e-01  3.49590202e-09  3.41535955e-09  4.59026827e-01  3.44602769e-09  1.61428441e-07  6.02593886e-08  6.40000000e-01 
 6.50000000e-01  3.44080291e-09  4.59026821e-01  4.59026822e-01  3.49590208e-09  3.41535949e-09  4.59026821e-01  3.44602763e-09  1.61428431e-07  6.02592820e-08  6.50000000e-01 
 6.60000000e-01  3.44080291e-09  4.59026811e-01  4.59026811e-01  3.49590202e-09  3.41535949e-09  4.59026811e-01  3.44602770e-09  1.61428420e-07  6.02592607e-08  6.60000000e-01 
 6.70000000e-01  3.44080291e-09  4.59026849e-01  4.59026849e-01  3.49590202e-09  3.41535949e-09  4.59026848e-01  3.44602769e-09  1.61428472e-07  6.02592038e-08  6.70000000e-01 
 6.80000000e-01  3.44080291e-09  4.59026817e-01  4.59026817e-01  3.49590208e-09  3.41535949e-09  4.59026817e-01  3.44602763e-09  1.61428418e-07  6.02591612e-08  6.80000000e-01 
 6.90000000e-01  3.44080291e-09  4.59026849e-01  4.59026849e-01  3.49590202e-09  3.41535949e-09  4.59026849e-01  3.44602765e-09  1.61428467e-07  6.02591825e-08  6.90000000e-01 
 7.00000000e-01  3.44080291e-09  4.59026817e-01  4.59026817e-01  3.49590202e-09  3.41535949e-09  4.59026817e-01  3.44602769e-09  1.61428417e-07  6.02590333e-08  7.00000000e-01 
 7.10000000e-01  3.44080291e-09  4.59026837e-01  4.59026837e-01  3.49590202e-09  3.41535949e-09  4.59026837e-01  3.44602769e-09  1.61428462e-07  6.02589978e-08  7.10000000e-01 
 7.20000000e-01  3.44080291e-09  4.59026816e-01  4.59026816e-01  3.49590202e-09  3.41535955e-09  4.59026816e-01  3.44602763e-09  1.61428417e-07  6.02588912e-08  7.20000000e-01 
 7.30000000e-01  3.44080291e-09  4.59026822e-01  4.59026822e-01  3.49590202e-09  3.41535949e-09  4.59026822e-01  3.44602765e-09  1.61428421e-07  6.02588557e-08  7.30000000e-01 
 7.40000000e-01  3.44080291e-09  4.59026820e-01  4.59026820e-01  3.49590202e-09  3.41535949e-09  4.59026820e-01  3.44602769e-09  1.61428421e-07  6.02587349e-08  7.40000000e-01 
 7.50000000e-01  3.44080291e-09  4.59026818e-01  4.59026818e-01  3.49590202e-09  3.41535949e-09  4.59026818e-01  3.44602769e-09  1.61428427e-07  6.02587420e-08  7.50000000e-01 
 7.60000000e-01  3.44080291e-09  4.59026831e-01  4.59026831e-01  3.49590208e-09  3.41535949e-09  4.59026831e-01  3.44602764e-09  1.61428428e-07  6.02587562e-08  7.60000000e-01 
 7.70000000e-01  3.44080291e-09  4.59026827e-01  4.59026827e-01  3.49590202e-09  3.41535949e-09  4.59026827e-01  3.44602765e-09  1.61428431e-07  6.02585999e-08  7.70000000e-01 
 7.80000000e-01  3.44080291e-09  4.59026828e-01  4.59026828e-01  3.49590208e-09  3.41535949e-09  4.59026828e-01  3.44602763e-09  1.61428430e-07  6.02585075e-08  7.80000000e-01 
 7.90000000e-01  3.44080297e-09  4.59026822e-01  4.59026822e-01  3.49590202e-09  3.41535949e-09  4.59026822e-01  3.44602765e-09  1.61428430e-07  6.02585715e-08  7.90000000e-01 
 8.00000000e-01  3.44080291e-09  4.59026843e-01  4.59026843e-01  3.49590202e-09  3.41535949e-09  4.59026843e-01  3.44602769e-09  1.61428454e-07  6.02584436e-08  8.00000000e-01 
 8.10000000e-01  3.44080291e-09  4.59026829e-01  4.59026829e-01  3.49590202e-09  3.41535949e-09  4.59026829e-01  3.44602769e-09  1.61428426e-07  6.02583370e-08  8.10000000e-01 
 8.20000000e-01  3.44080291e-09  4.59026841e-01  4.59026841e-01  3.49590202e-09  3.41535949e-09  4.59026841e-01  3.44602764e-09  1.61428444e-07  6.02583299e-08  8.20000000e-01 
 8.30000000e-01  3.44080291e-09  4.59026828e-01  4.59026828e-01  3.49590202e-09  3.41535949e-09  4.59026827e-01  3.44602765e-09  1.61428427e-07  6.02583370e-08  8.30000000e-01 
 8.40000000e-01  3.44080291e-09  4.59026825e-01  4.59026825e-01  3.49590202e-09  3.41535949e-09  4.59026825e-01  3.44602763e-09  1.61428428e-07  6.02581949e-08  8.40000000e-01 
 8.50000000e-01  3.44080291e-09  4.59026834e-01  4.59026834e-01  3.49590202e-09  3.41535949e-09  4.59026833e-01  3.44602765e-09  1.61428441e-07  6.02581167e-08  8.50000000e-01 
 8.60000000e-01  3.44080291e-09  4.59026808e-01  4.59026808e-01  3.49590202e-09  3.41535949e-09  4.59026807e-01  3.44602768e-09  1.61428417e-07  6.02580101e-08  8.60000000e-01 
 8.70000000e-01  3.44080291e-09  4.59026820e-01  4.59026820e-01  3.49590202e-09  3.41535949e-09  4.59026820e-01  3.44602769e-09  1.61428420e-07  6.02579888e-08  8.70000000e-01 
 8.80000000e-01  3.44080291e-09  4.59026835e-01  4.59026835e-01  3.49590208e-09  3.41535949e-09  4.59026835e-01  3.44602769e-09  1.61428445e-07  6.02579391e-08  8.80000000e-01 
 8.90000000e-01  3.44080291e-09  4.59026843e-01  4.59026843e-01  3.49590208e-09  3.41535949e-09  4.59026843e-01  3.44602769e-09  1.61428459e-07  6.02578609e-08  8.90000000e-01 
 9.00000000e-01  3.44080291e-09  4.59026818e-01  4.59026818e-01  3.49590202e-09  3.41535949e-09  4.59026818e-01  3.44602763e-09  1.61428438e-07  6.02578041e-08  9.00000000e-01 
 9.10000000e-01  3.44080297e-09  4.59026842e-01  4.59026842e-01  3.49590202e-09  3.41535949e-09  4.59026842e-01  3.44602765e-09  1.61428456e-07  6.02577757e-08  9.10000000e-01 
 9.20000000e-01  3.44080291e-09  4.59026825e-01  4.59026825e-01  3.49590202e-09  3.41535949e-09  4.59026825e-01  3.44602763e-09  1.61428436e-07  6.02575270e-08  9.20000000e-01 
 9.30000000e-01  3.44080291e-09  4.59026834e-01  4.59026834e-01  3.49590202e-09  3.41535949e-09  4.59026834e-01  3.44602765e-09  1.61428454e-07  6.02575980e-08  9.30000000e-01 
 9.40000000e-01  3.44080297e-09  4.59026830e-01  4.59026830e-01  3.49590202e-09  3.41535949e-09  4.59026830e-01  3.44602769e-09  1.61428442e-07  6.02574204e-08  9.40000000e-01 
 9.50000000e-01  3.44080291e-09  4.59026843e-01  4.59026843e-01  3.49590202e-09  3.41535949e-09  4.59026842e-01  3.44602769e-09  1.61428439e-07  6.02574488e-08  9.50000000e-01 
 9.60000000e-01  3.44080291e-09  4.59026833e-01  4.59026833e-01  3.49590202e-09  3.41535949e-09  4.59026833e-01  3.44602764e-09  1.61428442e-07  6.02573849e-08  9.60000000e-01 
 9.70000000e-01  3.44080291e-09  4.59026811e-01  4.59026811e-01  3.49590202e-09  3.41535949e-09  4.59026811e-01  3.44602765e-09  1.61428405e-07  6.02572570e-08  9.70000000e-01 
 9.80000000e-01  3.44080291e-09  4.59026828e-01  4.59026828e-01  3.49590208e-09  3.41535955e-09  4.59026828e-01  3.44602763e-09  1.61428431e-07  6.02572356e-08  9.80000000e-01 
 9.90000000e-01  3.44080297e-09  4.59026822e-01  4.59026822e-01  3.49590202e-09  3.41535949e-09  4.59026822e-01  3.44602765e-09  1.61428428e-07  6.02571362e-08  9.90000000e-01 
 1.00000000e+00  3.44080291e-09  4.59026817e-01  4.59026817e-01  3.49590202e-09  3.41535949e-09  4.59026817e-01  3.44602763e-09  1.61428421e-07  6.02570154e-08  1.00000000e+00 
 1.01000000e+00  3.44080291e-09  4.59026838e-01  4.59026838e-01  3.49590202e-09  3.41535949e-09  4.59026838e-01  3.44602765e-09  1.61428451e-07  6.02570793e-08  1.01000000e+00 
 1.02000000e+00  3.44080291e-09  4.59026846e-01  4.59026846e-01  3.49590208e-09  3.41535949e-09  4.59026846e-01  3.44602763e-09  1.61428461e-07  6.02570367e-08  1.02000000e+00 
 1.03000000e+00  3.44080291e-09  4.59026827e-01  4.59026827e-01  3.49590202e-09  3.41535949e-09  4.59026827e-01  3.44602770e-09  1.61428441e-07  6.02569656e-08  1.03000000e+00 
 1.04000000e+00  3.44080291e-09  4.59026841e-01  4.59026841e-01  3.49590208e-09  3.41535949e-09  4.59026840e-01  3.44602763e-09  1.61428461e-07  6.02569230e-08  1.04000000e+00 
 1.05000000e+00  3.44080291e-09  4.59026823e-01  4.59026823e-01  3.49590208e-09  3.41535949e-09  4.59026823e-01  3.44602765e-09  1.61428437e-07  6.02568306e-08  1.05000000e+00 
 1.06000000e+00  3.44080291e-09  4.59026833e-01  4.59026833e-01  3.49590208e-09  3.41535949e-09  4.59026833e-01  3.44602769e-09  1.61428444e-07  6.02567738e-08  1.06000000e+00 
 1.07000000e+00  3.44080291e-09  4.59026817e-01  4.59026817e-01  3.49590208e-09  3.41535949e-09  4.59026817e-01  3.44602769e-09  1.61428425e-07  6.02566317e-08  1.07000000e+00 
 1.08000000e+00  3.44080291e-09  4.59026834e-01  4.59026834e-01  3.49590202e-09  3.41535949e-09  4.59026834e-01  3.44602764e-09  1.61428439e-07  6.02564540e-08  1.08000000e+00 
 1.09000000e+00  3.44080291e-09  4.59026823e-01  4.59026823e-01  3.49590202e-09  3.41535949e-09  4.59026823e-01  3.44602765e-09  1.61428429e-07  6.02565251e-08  1.09000000e+00 
 1.10000000e+00  3.44080291e-09  4.59026837e-01  4.59026837e-01  3.49590202e-09  3.41535949e-09  4.59026837e-01  3.44602763e-09  1.61428443e-07  6.02565180e-08  1.10000000e+00 
