 v-sweep         v(b0)           v(b1)           v(b2)           v(b3)           v(b4)           v(b5)           v(b6)           i(vbias)        i(viout)        v(vout)        
 0.00000000e+00  4.58709391e-01  3.29796085e-09  3.19793038e-09  4.58709391e-01  3.04693514e-09  4.58709391e-01  4.58709391e-01  1.61404714e-07  1.60589990e-07  0.00000000e+00 
 1.00000000e-02  4.58709364e-01  3.29796090e-09  3.19793032e-09  4.58709364e-01  3.04693520e-09  4.58709364e-01  4.58709364e-01  1.61404670e-07  1.60589460e-07  1.00000000e-02 
 2.00000000e-02  4.58709368e-01  3.29796084e-09  3.19793032e-09  4.58709368e-01  3.04693520e-09  4.58709368e-01  4.58709368e-01  1.61404689e-07  1.60588939e-07  2.00000000e-02 
 3.00000000e-02  4.58709389e-01  3.29796090e-09  3.19793032e-09  4.58709389e-01  3.04693520e-09  4.58709389e-01  4.58709389e-01  1.61404724e-07  1.60588709e-07  3.00000000e-02 
 4.00000000e-02  4.58709387e-01  3.29796085e-09  3.19793032e-09  4.58709387e-01  3.04693520e-09  4.58709387e-01  4.58709387e-01  1.61404702e-07  1.60588254e-07  4.00000000e-02 
 5.00000000e-02  4.58709405e-01  3.29796090e-09  3.19793032e-09  4.58709405e-01  3.04693520e-09  4.58709405e-01  4.58709405e-01  1.61404744e-07  1.60588001e-07  5.00000000e-02 
 6.00000000e-02  4.58709378e-01  3.29796084e-09  3.19793032e-09  4.58709378e-01  3.04693520e-09  4.58709378e-01  4.58709378e-01  1.61404698e-07  1.60587518e-07  6.00000000e-02 
 7.00000000e-02  4.58709388e-01  3.29796085e-09  3.19793032e-09  4.58709388e-01  3.04693520e-09  4.58709388e-01  4.58709388e-01  1.61404721e-07  1.60587108e-07  7.00000000e-02 
 8.00000000e-02  4.58709382e-01  3.29796084e-09  3.19793032e-09  4.58709382e-01  3.04693520e-09  4.58709382e-01  4.58709382e-01  1.61404703e-07  1.60586745e-07  8.00000000e-02 
 9.00000000e-02  4.58709370e-01  3.29796084e-09  3.19793032e-09  4.58709370e-01  3.04693520e-09  4.58709370e-01  4.58709370e-01  1.61404686e-07  1.60586467e-07  9.00000000e-02 
 1.00000000e-01  4.58709388e-01  3.29796085e-09  3.19793032e-09  4.58709388e-01  3.04693520e-09  4.58709388e-01  4.58709388e-01  1.61404717e-07  1.60586167e-07  1.00000000e-01 
 1.10000000e-01  4.58709366e-01  3.29796084e-09  3.19793038e-09  4.58709366e-01  3.04693520e-09  4.58709366e-01  4.58709366e-01  1.61404674e-07  1.60585749e-07  1.10000000e-01 
 1.20000000e-01  4.58709384e-01  3.29796084e-09  3.19793032e-09  4.58709384e-01  3.04693514e-09  4.58709384e-01  4.58709384e-01  1.61404724e-07  1.60585568e-07  1.20000000e-01 
 1.30000000e-01  4.58709389e-01  3.29796085e-09  3.19793038e-09  4.58709389e-01  3.04693514e-09  4.58709389e-01  4.58709389e-01  1.61404710e-07  1.60585300e-07  1.30000000e-01 
 1.40000000e-01  4.58709366e-01  3.29796084e-09  3.19793032e-09  4.58709366e-01  3.04693520e-09  4.58709366e-01  4.58709366e-01  1.61404678e-07  1.60584890e-07  1.40000000e-01 
 1.50000000e-01  4.58709392e-01  3.29796090e-09  3.19793032e-09  4.58709392e-01  3.04693520e-09  4.58709392e-01  4.58709392e-01  1.61404720e-07  1.60584857e-07  1.50000000e-01 
 1.60000000e-01  4.58709401e-01  3.29796085e-09  3.19793038e-09  4.58709401e-01  3.04693520e-09  4.58709401e-01  4.58709401e-01  1.61404740e-07  1.60584680e-07  1.60000000e-01 
 1.70000000e-01  4.58709396e-01  3.29796085e-09  3.19793032e-09  4.58709396e-01  3.04693520e-09  4.58709396e-01  4.58709396e-01  1.61404719e-07  1.60584298e-07  1.70000000e-01 
 1.80000000e-01  4.58709371e-01  3.29796084e-09  3.19793032e-09  4.58709371e-01  3.04693520e-09  4.58709371e-01  4.58709371e-01  1.61404690e-07  1.60584072e-07  1.80000000e-01 
 1.90000000e-01  4.58709392e-01  3.29796085e-09  3.19793032e-09  4.58709392e-01  3.04693520e-09  4.58709392e-01  4.58709392e-01  1.61404721e-07  1.60583969e-07  1.90000000e-01 
 2.00000000e-01  4.58709399e-01  3.29796085e-09  3.19793038e-09  4.58709399e-01  3.04693520e-09  4.58709399e-01  4.58709399e-01  1.61404736e-07  1.60583824e-07  2.00000000e-01 
 2.10000000e-01  4.58709392e-01  3.29796085e-09  3.19793032e-09  4.58709392e-01  3.04693520e-09  4.58709391e-01  4.58709392e-01  1.61404725e-07  1.60583548e-07  2.10000000e-01 
 2.20000000e-01  4.58709391e-01  3.29796090e-09  3.19793032e-09  4.58709391e-01  3.04693520e-09  4.58709391e-01  4.58709391e-01  1.61404711e-07  1.60583362e-07  2.20000000e-01 
 2.30000000e-01  4.58709368e-01  3.29796084e-09  3.19793032e-09  4.58709368e-01  3.04693514e-09  4.58709368e-01  4.58709368e-01  1.61404689e-07  1.60583076e-07  2.30000000e-01 
 2.40000000e-01  4.58709383e-01  3.29796090e-09  3.19793038e-09  4.58709383e-01  3.04693520e-09  4.58709383e-01  4.58709383e-01  1.61404710e-07  1.60582955e-07  2.40000000e-01 
 2.50000000e-01  4.58709385e-01  3.29796085e-09  3.19793032e-09  4.58709385e-01  3.04693520e-09  4.58709385e-01  4.58709385e-01  1.61404700e-07  1.60582781e-07  2.50000000e-01 
 2.60000000e-01  4.58709394e-01  3.29796085e-09  3.19793038e-09  4.58709394e-01  3.04693520e-09  4.58709394e-01  4.58709394e-01  1.61404727e-07  1.60582665e-07  2.60000000e-01 
 2.70000000e-01  4.58709364e-01  3.29796084e-09  3.19793032e-09  4.58709364e-01  3.04693520e-09  4.58709364e-01  4.58709364e-01  1.61404679e-07  1.60582394e-07  2.70000000e-01 
 2.80000000e-01  4.58709399e-01  3.29796085e-09  3.19793032e-09  4.58709399e-01  3.04693520e-09  4.58709399e-01  4.58709399e-01  1.61404735e-07  1.60582365e-07  2.80000000e-01 
 2.90000000e-01  4.58709387e-01  3.29796085e-09  3.19793032e-09  4.58709387e-01  3.04693520e-09  4.58709387e-01  4.58709387e-01  1.61404717e-07  1.60582097e-07  2.90000000e-01 
 3.00000000e-01  4.58709377e-01  3.29796084e-09  3.19793032e-09  4.58709377e-01  3.04693520e-09  4.58709377e-01  4.58709377e-01  1.61404693e-07  1.60581980e-07  3.00000000e-01 
 3.10000000e-01  4.58709411e-01  3.29796085e-09  3.19793032e-09  4.58709411e-01  3.04693520e-09  4.58709411e-01  4.58709411e-01  1.61404735e-07  1.60581905e-07  3.10000000e-01 
 3.20000000e-01  4.58709373e-01  3.29796090e-09  3.19793032e-09  4.58709373e-01  3.04693520e-09  4.58709373e-01  4.58709373e-01  1.61404683e-07  1.60581759e-07  3.20000000e-01 
 3.30000000e-01  4.58709385e-01  3.29796090e-09  3.19793038e-09  4.58709385e-01  3.04693520e-09  4.58709385e-01  4.58709385e-01  1.61404705e-07  1.60581564e-07  3.30000000e-01 
 3.40000000e-01  4.58709382e-01  3.29796084e-09  3.19793032e-09  4.58709382e-01  3.04693520e-09  4.58709382e-01  4.58709382e-01  1.61404691e-07  1.60581425e-07  3.40000000e-01 
 3.50000000e-01  4.58709386e-01  3.29796085e-09  3.19793038e-09  4.58709386e-01  3.04693520e-09  4.58709386e-01  4.58709386e-01  1.61404712e-07  1.60581251e-07  3.50000000e-01 
 3.60000000e-01  4.58709377e-01  3.29796084e-09  3.19793038e-09  4.58709377e-01  3.04693520e-09  4.58709377e-01  4.58709377e-01  1.61404708e-07  1.60581120e-07  3.60000000e-01 
 3.70000000e-01  4.58709382e-01  3.29796084e-09  3.19793032e-09  4.58709382e-01  3.04693520e-09  4.58709382e-01  4.58709382e-01  1.61404708e-07  1.60581013e-07  3.70000000e-01 
 3.80000000e-01  4.58709353e-01  3.29796084e-09  3.19793032e-09  4.58709353e-01  3.04693520e-09  4.58709353e-01  4.58709353e-01  1.61404661e-07  1.60580715e-07  3.80000000e-01 
 3.90000000e-01  4.58709389e-01  3.29796085e-09  3.19793032e-09  4.58709389e-01  3.04693520e-09  4.58709389e-01  4.58709389e-01  1.61404707e-07  1.60580818e-07  3.90000000e-01 
 4.00000000e-01  4.58709369e-01  3.29796084e-09  3.19793038e-09  4.58709369e-01  3.04693520e-09  4.58709369e-01  4.58709369e-01  1.61404691e-07  1.60580605e-07  4.00000000e-01 
 4.10000000e-01  4.58709390e-01  3.29796085e-09  3.19793032e-09  4.58709390e-01  3.04693520e-09  4.58709390e-01  4.58709390e-01  1.61404735e-07  1.60580477e-07  4.10000000e-01 
 4.20000000e-01  4.58709395e-01  3.29796090e-09  3.19793032e-09  4.58709395e-01  3.04693520e-09  4.58709395e-01  4.58709395e-01  1.61404728e-07  1.60580392e-07  4.20000000e-01 
 4.30000000e-01  4.58709356e-01  3.29796084e-09  3.19793032e-09  4.58709356e-01  3.04693520e-09  4.58709355e-01  4.58709356e-01  1.61404659e-07  1.60580157e-07  4.30000000e-01 
 4.40000000e-01  4.58709374e-01  3.29796084e-09  3.19793032e-09  4.58709374e-01  3.04693520e-09  4.58709374e-01  4.58709374e-01  1.61404692e-07  1.60580168e-07  4.40000000e-01 
 4.50000000e-01  4.58709351e-01  3.29796084e-09  3.19793032e-09  4.58709351e-01  3.04693520e-09  4.58709351e-01  4.58709351e-01  1.61404657e-07  1.60579908e-07  4.50000000e-01 
 4.60000000e-01  4.58709363e-01  3.29796084e-09  3.19793032e-09  4.58709363e-01  3.04693520e-09  4.58709363e-01  4.58709363e-01  1.61404680e-07  1.60579834e-07  4.60000000e-01 
 4.70000000e-01  4.58709394e-01  3.29796085e-09  3.19793032e-09  4.58709394e-01  3.04693520e-09  4.58709394e-01  4.58709394e-01  1.61404717e-07  1.60579763e-07  4.70000000e-01 
 4.80000000e-01  4.58709369e-01  3.29796084e-09  3.19793032e-09  4.58709369e-01  3.04693520e-09  4.58709369e-01  4.58709369e-01  1.61404691e-07  1.60579610e-07  4.80000000e-01 
 4.90000000e-01  4.58709403e-01  3.29796085e-09  3.19793032e-09  4.58709403e-01  3.04693520e-09  4.58709403e-01  4.58709403e-01  1.61404726e-07  1.60579670e-07  4.90000000e-01 
 5.00000000e-01  4.58709377e-01  3.29796084e-09  3.19793032e-09  4.58709377e-01  3.04693520e-09  4.58709377e-01  4.58709377e-01  1.61404678e-07  1.60579368e-07  5.00000000e-01 
 5.10000000e-01  4.58709414e-01  3.29796085e-09  3.19793032e-09  4.58709414e-01  3.04693520e-09  4.58709414e-01  4.58709414e-01  1.61404745e-07  1.60579557e-07  5.10000000e-01 
 5.20000000e-01  4.58709405e-01  3.29796085e-09  3.19793032e-09  4.58709405e-01  3.04693520e-09  4.58709405e-01  4.58709405e-01  1.61404736e-07  1.60579201e-07  5.20000000e-01 
 5.30000000e-01  4.58709366e-01  3.29796084e-09  3.19793038e-09  4.58709366e-01  3.04693520e-09  4.58709366e-01  4.58709366e-01  1.61404690e-07  1.60578992e-07  5.30000000e-01 
 5.40000000e-01  4.58709355e-01  3.29796084e-09  3.19793032e-09  4.58709355e-01  3.04693520e-09  4.58709355e-01  4.58709355e-01  1.61404681e-07  1.60578868e-07  5.40000000e-01 
 5.50000000e-01  4.58709365e-01  3.29796084e-09  3.19793032e-09  4.58709365e-01  3.04693520e-09  4.58709365e-01  4.58709365e-01  1.61404678e-07  1.60578754e-07  5.50000000e-01 
 5.60000000e-01  4.58709357e-01  3.29796084e-09  3.19793032e-09  4.58709357e-01  3.04693520e-09  4.58709357e-01  4.58709357e-01  1.61404653e-07  1.60578594e-07  5.60000000e-01 
 5.70000000e-01  4.58709398e-01  3.29796085e-09  3.19793032e-09  4.58709398e-01  3.04693520e-09  4.58709398e-01  4.58709398e-01  1.61404738e-07  1.60578704e-07  5.70000000e-01 
 5.80000000e-01  4.58709374e-01  3.29796084e-09  3.19793032e-09  4.58709373e-01  3.04693520e-09  4.58709373e-01  4.58709374e-01  1.61404684e-07  1.60578438e-07  5.80000000e-01 
 5.90000000e-01  4.58709385e-01  3.29796085e-09  3.19793032e-09  4.58709385e-01  3.04693520e-09  4.58709385e-01  4.58709385e-01  1.61404714e-07  1.60578310e-07  5.90000000e-01 
 6.00000000e-01  4.58709356e-01  3.29796084e-09  3.19793032e-09  4.58709356e-01  3.04693514e-09  4.58709355e-01  4.58709356e-01  1.61404669e-07  1.60578288e-07  6.00000000e-01 
 6.10000000e-01  4.58709352e-01  3.29796084e-09  3.19793032e-09  4.58709352e-01  3.04693520e-09  4.58709352e-01  4.58709352e-01  1.61404666e-07  1.60578068e-07  6.10000000e-01 
 6.20000000e-01  4.58709405e-01  3.29796090e-09  3.19793032e-09  4.58709405e-01  3.04693520e-09  4.58709405e-01  4.58709405e-01  1.61404741e-07  1.60578196e-07  6.20000000e-01 
 6.30000000e-01  4.58709401e-01  3.29796085e-09  3.19793032e-09  4.58709401e-01  3.04693520e-09  4.58709401e-01  4.58709401e-01  1.61404727e-07  1.60577976e-07  6.30000000e-01 
 6.40000000e-01  4.58709394e-01  3.29796090e-09  3.19793032e-09  4.58709394e-01  3.04693520e-09  4.58709394e-01  4.58709394e-01  1.61404716e-07  1.60577883e-07  6.40000000e-01 
 6.50000000e-01  4.58709374e-01  3.29796084e-09  3.19793032e-09  4.58709374e-01  3.04693520e-09  4.58709374e-01  4.58709374e-01  1.61404702e-07  1.60577649e-07  6.50000000e-01 
 6.60000000e-01  4.58709377e-01  3.29796084e-09  3.19793032e-09  4.58709377e-01  3.04693520e-09  4.58709377e-01  4.58709377e-01  1.61404693e-07  1.60577571e-07  6.60000000e-01 
 6.70000000e-01  4.58709405e-01  3.29796085e-09  3.19793032e-09  4.58709405e-01  3.04693520e-09  4.58709405e-01  4.58709405e-01  1.61404752e-07  1.60577571e-07  6.70000000e-01 
 6.80000000e-01  4.58709385e-01  3.29796085e-09  3.19793032e-09  4.58709385e-01  3.04693520e-09  4.58709385e-01  4.58709385e-01  1.61404714e-07  1.60577329e-07  6.80000000e-01 
 6.90000000e-01  4.58709373e-01  3.29796084e-09  3.19793032e-09  4.58709373e-01  3.04693520e-09  4.58709373e-01  4.58709373e-01  1.61404691e-07  1.60577272e-07  6.90000000e-01 
 7.00000000e-01  4.58709396e-01  3.29796085e-09  3.19793032e-09  4.58709396e-01  3.04693520e-09  4.58709396e-01  4.58709396e-01  1.61404720e-07  1.60577216e-07  7.00000000e-01 
 7.10000000e-01  4.58709366e-01  3.29796084e-09  3.19793032e-09  4.58709366e-01  3.04693520e-09  4.58709366e-01  4.58709366e-01  1.61404686e-07  1.60577059e-07  7.10000000e-01 
 7.20000000e-01  4.58709381e-01  3.29796084e-09  3.19793038e-09  4.58709381e-01  3.04693520e-09  4.58709381e-01  4.58709381e-01  1.61404710e-07  1.60576910e-07  7.20000000e-01 
 7.30000000e-01  4.58709401e-01  3.29796085e-09  3.19793038e-09  4.58709401e-01  3.04693520e-09  4.58709401e-01  4.58709401e-01  1.61404726e-07  1.60576946e-07  7.30000000e-01 
 7.40000000e-01  4.58709395e-01  3.29796085e-09  3.19793038e-09  4.58709395e-01  3.04693520e-09  4.58709395e-01  4.58709395e-01  1.61404725e-07  1.60576725e-07  7.40000000e-01 
 7.50000000e-01  4.58709402e-01  3.29796085e-09  3.19793032e-09  4.58709402e-01  3.04693515e-09  4.58709402e-01  4.58709402e-01  1.61404744e-07  1.60576690e-07  7.50000000e-01 
 7.60000000e-01  4.58709394e-01  3.29796085e-09  3.19793032e-09  4.58709394e-01  3.04693520e-09  4.58709394e-01  4.58709394e-01  1.61404710e-07  1.60576548e-07  7.60000000e-01 
 7.70000000e-01  4.58709381e-01  3.29796084e-09  3.19793032e-09  4.58709381e-01  3.04693520e-09  4.58709381e-01  4.58709381e-01  1.61404702e-07  1.60576327e-07  7.70000000e-01 
 7.80000000e-01  4.58709385e-01  3.29796085e-09  3.19793032e-09  4.58709385e-01  3.04693520e-09  4.58709385e-01  4.58709385e-01  1.61404714e-07  1.60576235e-07  7.80000000e-01 
 7.90000000e-01  4.58709350e-01  3.29796084e-09  3.19793038e-09  4.58709350e-01  3.04693520e-09  4.58709350e-01  4.58709350e-01  1.61404656e-07  1.60576015e-07  7.90000000e-01 
 8.00000000e-01  4.58709399e-01  3.29796090e-09  3.19793032e-09  4.58709399e-01  3.04693520e-09  4.58709399e-01  4.58709399e-01  1.61404731e-07  1.60575922e-07  8.00000000e-01 
 8.10000000e-01  4.58709404e-01  3.29796085e-09  3.19793032e-09  4.58709404e-01  3.04693520e-09  4.58709404e-01  4.58709404e-01  1.61404747e-07  1.60575922e-07  8.10000000e-01 
 8.20000000e-01  4.58709402e-01  3.29796085e-09  3.19793032e-09  4.58709401e-01  3.04693520e-09  4.58709401e-01  4.58709402e-01  1.61404721e-07  1.60575738e-07  8.20000000e-01 
 8.30000000e-01  4.58709390e-01  3.29796085e-09  3.19793032e-09  4.58709390e-01  3.04693520e-09  4.58709390e-01  4.58709390e-01  1.61404717e-07  1.60575759e-07  8.30000000e-01 
 8.40000000e-01  4.58709403e-01  3.29796085e-09  3.19793032e-09  4.58709403e-01  3.04693520e-09  4.58709403e-01  4.58709403e-01  1.61404735e-07  1.60575610e-07  8.40000000e-01 
 8.50000000e-01  4.58709407e-01  3.29796085e-09  3.19793032e-09  4.58709407e-01  3.04693520e-09  4.58709407e-01  4.58709407e-01  1.61404742e-07  1.60575510e-07  8.50000000e-01 
 8.60000000e-01  4.58709368e-01  3.29796084e-09  3.19793032e-09  4.58709368e-01  3.04693520e-09  4.58709368e-01  4.58709368e-01  1.61404689e-07  1.60575226e-07  8.60000000e-01 
 8.70000000e-01  4.58709393e-01  3.29796085e-09  3.19793032e-09  4.58709393e-01  3.04693520e-09  4.58709393e-01  4.58709393e-01  1.61404725e-07  1.60575105e-07  8.70000000e-01 
 8.80000000e-01  4.58709381e-01  3.29796084e-09  3.19793032e-09  4.58709381e-01  3.04693520e-09  4.58709381e-01  4.58709381e-01  1.61404714e-07  1.60575027e-07  8.80000000e-01 
 8.90000000e-01  4.58709369e-01  3.29796084e-09  3.19793032e-09  4.58709369e-01  3.04693520e-09  4.58709369e-01  4.58709369e-01  1.61404687e-07  1.60574778e-07  8.90000000e-01 
 9.00000000e-01  4.58709387e-01  3.29796085e-09  3.19793032e-09  4.58709387e-01  3.04693520e-09  4.58709387e-01  4.58709387e-01  1.61404711e-07  1.60574793e-07  9.00000000e-01 
 9.10000000e-01  4.58709398e-01  3.29796085e-09  3.19793032e-09  4.58709398e-01  3.04693520e-09  4.58709398e-01  4.58709398e-01  1.61404729e-07  1.60574686e-07  9.10000000e-01 
 9.20000000e-01  4.58709373e-01  3.29796084e-09  3.19793032e-09  4.58709373e-01  3.04693520e-09  4.58709373e-01  4.58709373e-01  1.61404688e-07  1.60574544e-07  9.20000000e-01 
 9.30000000e-01  4.58709413e-01  3.29796085e-09  3.19793038e-09  4.58709413e-01  3.04693520e-09  4.58709413e-01  4.58709413e-01  1.61404753e-07  1.60574572e-07  9.30000000e-01 
 9.40000000e-01  4.58709401e-01  3.29796085e-09  3.19793032e-09  4.58709401e-01  3.04693520e-09  4.58709401e-01  4.58709401e-01  1.61404733e-07  1.60574260e-07  9.40000000e-01 
 9.50000000e-01  4.58709374e-01  3.29796084e-09  3.19793032e-09  4.58709374e-01  3.04693520e-09  4.58709374e-01  4.58709374e-01  1.61404683e-07  1.60574004e-07  9.50000000e-01 
 9.60000000e-01  4.58709397e-01  3.29796085e-09  3.19793032e-09  4.58709397e-01  3.04693520e-09  4.58709397e-01  4.58709397e-01  1.61404736e-07  1.60574061e-07  9.60000000e-01 
 9.70000000e-01  4.58709390e-01  3.29796085e-09  3.19793032e-09  4.58709390e-01  3.04693520e-09  4.58709390e-01  4.58709390e-01  1.61404715e-07  1.60573947e-07  9.70000000e-01 
 9.80000000e-01  4.58709395e-01  3.29796085e-09  3.19793038e-09  4.58709395e-01  3.04693520e-09  4.58709395e-01  4.58709395e-01  1.61404726e-07  1.60573919e-07  9.80000000e-01 
 9.90000000e-01  4.58709381e-01  3.29796084e-09  3.19793032e-09  4.58709381e-01  3.04693514e-09  4.58709381e-01  4.58709381e-01  1.61404708e-07  1.60573471e-07  9.90000000e-01 
 1.00000000e+00  4.58709374e-01  3.29796084e-09  3.19793032e-09  4.58709374e-01  3.04693520e-09  4.58709374e-01  4.58709374e-01  1.61404692e-07  1.60573492e-07  1.00000000e+00 
 1.01000000e+00  4.58709379e-01  3.29796084e-09  3.19793038e-09  4.58709379e-01  3.04693520e-09  4.58709379e-01  4.58709379e-01  1.61404704e-07  1.60573471e-07  1.01000000e+00 
 1.02000000e+00  4.58709402e-01  3.29796085e-09  3.19793032e-09  4.58709402e-01  3.04693520e-09  4.58709402e-01  4.58709402e-01  1.61404738e-07  1.60573308e-07  1.02000000e+00 
 1.03000000e+00  4.58709385e-01  3.29796085e-09  3.19793032e-09  4.58709385e-01  3.04693520e-09  4.58709385e-01  4.58709385e-01  1.61404710e-07  1.60573052e-07  1.03000000e+00 
 1.04000000e+00  4.58709394e-01  3.29796085e-09  3.19793032e-09  4.58709394e-01  3.04693520e-09  4.58709394e-01  4.58709394e-01  1.61404721e-07  1.60573002e-07  1.04000000e+00 
 1.05000000e+00  4.58709388e-01  3.29796085e-09  3.19793032e-09  4.58709388e-01  3.04693520e-09  4.58709388e-01  4.58709388e-01  1.61404720e-07  1.60572796e-07  1.05000000e+00 
 1.06000000e+00  4.58709413e-01  3.29796085e-09  3.19793032e-09  4.58709413e-01  3.04693520e-09  4.58709413e-01  4.58709413e-01  1.61404742e-07  1.60572696e-07  1.06000000e+00 
 1.07000000e+00  4.58709360e-01  3.29796090e-09  3.19793032e-09  4.58709360e-01  3.04693514e-09  4.58709360e-01  4.58709360e-01  1.61404660e-07  1.60572327e-07  1.07000000e+00 
 1.08000000e+00  4.58709375e-01  3.29796084e-09  3.19793032e-09  4.58709375e-01  3.04693520e-09  4.58709375e-01  4.58709375e-01  1.61404705e-07  1.60572434e-07  1.08000000e+00 
 1.09000000e+00  4.58709382e-01  3.29796084e-09  3.19793032e-09  4.58709382e-01  3.04693520e-09  4.58709382e-01  4.58709382e-01  1.61404702e-07  1.60572178e-07  1.09000000e+00 
 1.10000000e+00  4.58709370e-01  3.29796084e-09  3.19793032e-09  4.58709370e-01  3.04693520e-09  4.58709370e-01  4.58709370e-01  1.61404683e-07  1.60572078e-07  1.10000000e+00 
