 v-sweep         v(b0)           v(b1)           v(b2)           v(b3)           v(b4)           v(b5)           v(b6)           i(vbias)        i(viout)        v(vout)        
 0.00000000e+00  3.30299363e-09  3.59069775e-09  3.22691271e-09  4.58607949e-01  4.58607949e-01  4.58607949e-01  3.40252067e-09  1.58873711e-07  8.26286241e-08  0.00000000e+00 
 1.00000000e-02  3.30299366e-09  3.59069772e-09  3.22691268e-09  4.58607952e-01  4.58607952e-01  4.58607952e-01  3.40252063e-09  1.58873704e-07  8.26283402e-08  1.00000000e-02 
 2.00000000e-02  3.30299366e-09  3.59069772e-09  3.22691274e-09  4.58607976e-01  4.58607976e-01  4.58607976e-01  3.40252064e-09  1.58873720e-07  8.26279756e-08  2.00000000e-02 
 3.00000000e-02  3.30299366e-09  3.59069772e-09  3.22691268e-09  4.58607994e-01  4.58607994e-01  4.58607994e-01  3.40252064e-09  1.58873777e-07  8.26275954e-08  3.00000000e-02 
 4.00000000e-02  3.30299366e-09  3.59069772e-09  3.22691268e-09  4.58607939e-01  4.58607939e-01  4.58607939e-01  3.40252063e-09  1.58873682e-07  8.26270554e-08  4.00000000e-02 
 5.00000000e-02  3.30299366e-09  3.59069772e-09  3.22691268e-09  4.58607966e-01  4.58607966e-01  4.58607966e-01  3.40252064e-09  1.58873720e-07  8.26269289e-08  5.00000000e-02 
 6.00000000e-02  3.30299366e-09  3.59069772e-09  3.22691268e-09  4.58607974e-01  4.58607974e-01  4.58607974e-01  3.40252069e-09  1.58873722e-07  8.26266273e-08  6.00000000e-02 
 7.00000000e-02  3.30299366e-09  3.59069772e-09  3.22691268e-09  4.58607958e-01  4.58607958e-01  4.58607958e-01  3.40252064e-09  1.58873700e-07  8.26262374e-08  7.00000000e-02 
 8.00000000e-02  3.30299366e-09  3.59069772e-09  3.22691268e-09  4.58607982e-01  4.58607982e-01  4.58607982e-01  3.40252064e-09  1.58873744e-07  8.26260376e-08  8.00000000e-02 
 9.00000000e-02  3.30299366e-09  3.59069772e-09  3.22691268e-09  4.58607940e-01  4.58607940e-01  4.58607940e-01  3.40252069e-09  1.58873679e-07  8.26256574e-08  9.00000000e-02 
 1.00000000e-01  3.30299366e-09  3.59069772e-09  3.22691274e-09  4.58607970e-01  4.58607970e-01  4.58607970e-01  3.40252064e-09  1.58873732e-07  8.26253963e-08  1.00000000e-01 
 1.10000000e-01  3.30299366e-09  3.59069772e-09  3.22691274e-09  4.58607957e-01  4.58607957e-01  4.58607957e-01  3.40252064e-09  1.58873713e-07  8.26251041e-08  1.10000000e-01 
 1.20000000e-01  3.30299366e-09  3.59069772e-09  3.22691268e-09  4.58607950e-01  4.58607950e-01  4.58607950e-01  3.40252063e-09  1.58873699e-07  8.26248590e-08  1.20000000e-01 
 1.30000000e-01  3.30299366e-09  3.59069772e-09  3.22691268e-09  4.58607974e-01  4.58607974e-01  4.58607974e-01  3.40252064e-09  1.58873735e-07  8.26246538e-08  1.30000000e-01 
 1.40000000e-01  3.30299372e-09  3.59069772e-09  3.22691268e-09  4.58607959e-01  4.58607959e-01  4.58607959e-01  3.40252069e-09  1.58873718e-07  8.26244353e-08  1.40000000e-01 
 1.50000000e-01  3.30299366e-09  3.59069772e-09  3.22691268e-09  4.58607941e-01  4.58607941e-01  4.58607941e-01  3.40252063e-09  1.58873665e-07  8.26241653e-08  1.50000000e-01 
 1.60000000e-01  3.30299366e-09  3.59069772e-09  3.22691268e-09  4.58607973e-01  4.58607973e-01  4.58607973e-01  3.40252064e-09  1.58873735e-07  8.26240836e-08  1.60000000e-01 
 1.70000000e-01  3.30299366e-09  3.59069772e-09  3.22691274e-09  4.58607953e-01  4.58607953e-01  4.58607953e-01  3.40252064e-09  1.58873706e-07  8.26236928e-08  1.70000000e-01 
 1.80000000e-01  3.30299366e-09  3.59069772e-09  3.22691274e-09  4.58607960e-01  4.58607960e-01  4.58607960e-01  3.40252064e-09  1.58873717e-07  8.26235791e-08  1.80000000e-01 
 1.90000000e-01  3.30299366e-09  3.59069772e-09  3.22691274e-09  4.58607964e-01  4.58607964e-01  4.58607964e-01  3.40252064e-09  1.58873729e-07  8.26234459e-08  1.90000000e-01 
 2.00000000e-01  3.30299366e-09  3.59069772e-09  3.22691268e-09  4.58607937e-01  4.58607937e-01  4.58607937e-01  3.40252063e-09  1.58873680e-07  8.26231918e-08  2.00000000e-01 
 2.10000000e-01  3.30299366e-09  3.59069772e-09  3.22691268e-09  4.58607984e-01  4.58607984e-01  4.58607984e-01  3.40252064e-09  1.58873750e-07  8.26232878e-08  2.10000000e-01 
 2.20000000e-01  3.30299366e-09  3.59069772e-09  3.22691274e-09  4.58607962e-01  4.58607962e-01  4.58607962e-01  3.40252064e-09  1.58873696e-07  8.26229982e-08  2.20000000e-01 
 2.30000000e-01  3.30299366e-09  3.59069772e-09  3.22691268e-09  4.58607962e-01  4.58607962e-01  4.58607962e-01  3.40252064e-09  1.58873710e-07  8.26227957e-08  2.30000000e-01 
 2.40000000e-01  3.30299366e-09  3.59069772e-09  3.22691268e-09  4.58607945e-01  4.58607945e-01  4.58607945e-01  3.40252069e-09  1.58873685e-07  8.26226234e-08  2.40000000e-01 
 2.50000000e-01  3.30299366e-09  3.59069772e-09  3.22691274e-09  4.58607972e-01  4.58607972e-01  4.58607972e-01  3.40252064e-09  1.58873720e-07  8.26225541e-08  2.50000000e-01 
 2.60000000e-01  3.30299366e-09  3.59069772e-09  3.22691274e-09  4.58607974e-01  4.58607974e-01  4.58607974e-01  3.40252064e-09  1.58873745e-07  8.26224298e-08  2.60000000e-01 
 2.70000000e-01  3.30299366e-09  3.59069772e-09  3.22691273e-09  4.58607939e-01  4.58607939e-01  4.58607939e-01  3.40252063e-09  1.58873692e-07  8.26222539e-08  2.70000000e-01 
 2.80000000e-01  3.30299366e-09  3.59069772e-09  3.22691274e-09  4.58607977e-01  4.58607977e-01  4.58607977e-01  3.40252064e-09  1.58873742e-07  8.26223072e-08  2.80000000e-01 
 2.90000000e-01  3.30299366e-09  3.59069772e-09  3.22691268e-09  4.58607964e-01  4.58607964e-01  4.58607964e-01  3.40252064e-09  1.58873715e-07  8.26220301e-08  2.90000000e-01 
 3.00000000e-01  3.30299366e-09  3.59069772e-09  3.22691268e-09  4.58607967e-01  4.58607967e-01  4.58607967e-01  3.40252064e-09  1.58873719e-07  8.26218916e-08  3.00000000e-01 
 3.10000000e-01  3.30299366e-09  3.59069772e-09  3.22691268e-09  4.58607969e-01  4.58607969e-01  4.58607969e-01  3.40252064e-09  1.58873714e-07  8.26218098e-08  3.10000000e-01 
 3.20000000e-01  3.30299366e-09  3.59069772e-09  3.22691268e-09  4.58607940e-01  4.58607940e-01  4.58607940e-01  3.40252063e-09  1.58873678e-07  8.26216251e-08  3.20000000e-01 
 3.30000000e-01  3.30299366e-09  3.59069772e-09  3.22691268e-09  4.58607965e-01  4.58607965e-01  4.58607965e-01  3.40252069e-09  1.58873720e-07  8.26216251e-08  3.30000000e-01 
 3.40000000e-01  3.30299366e-09  3.59069772e-09  3.22691268e-09  4.58607964e-01  4.58607964e-01  4.58607964e-01  3.40252064e-09  1.58873709e-07  8.26215327e-08  3.40000000e-01 
 3.50000000e-01  3.30299366e-09  3.59069772e-09  3.22691274e-09  4.58607956e-01  4.58607956e-01  4.58607956e-01  3.40252064e-09  1.58873714e-07  8.26214013e-08  3.50000000e-01 
 3.60000000e-01  3.30299366e-09  3.59069772e-09  3.22691268e-09  4.58607974e-01  4.58607974e-01  4.58607974e-01  3.40252064e-09  1.58873734e-07  8.26213515e-08  3.60000000e-01 
 3.70000000e-01  3.30299366e-09  3.59069772e-09  3.22691274e-09  4.58607972e-01  4.58607972e-01  4.58607972e-01  3.40252064e-09  1.58873728e-07  8.26212734e-08  3.70000000e-01 
 3.80000000e-01  3.30299366e-09  3.59069772e-09  3.22691268e-09  4.58607962e-01  4.58607962e-01  4.58607962e-01  3.40252064e-09  1.58873707e-07  8.26211703e-08  3.80000000e-01 
 3.90000000e-01  3.30299366e-09  3.59069772e-09  3.22691268e-09  4.58607979e-01  4.58607979e-01  4.58607979e-01  3.40252069e-09  1.58873745e-07  8.26211739e-08  3.90000000e-01 
 4.00000000e-01  3.30299366e-09  3.59069772e-09  3.22691268e-09  4.58607959e-01  4.58607959e-01  4.58607959e-01  3.40252064e-09  1.58873716e-07  8.26209288e-08  4.00000000e-01 
 4.10000000e-01  3.30299366e-09  3.59069772e-09  3.22691274e-09  4.58607960e-01  4.58607960e-01  4.58607960e-01  3.40252064e-09  1.58873727e-07  8.26208577e-08  4.10000000e-01 
 4.20000000e-01  3.30299366e-09  3.59069772e-09  3.22691274e-09  4.58607968e-01  4.58607968e-01  4.58607969e-01  3.40252064e-09  1.58873710e-07  8.26206872e-08  4.20000000e-01 
 4.30000000e-01  3.30299366e-09  3.59069772e-09  3.22691274e-09  4.58607950e-01  4.58607950e-01  4.58607950e-01  3.40252063e-09  1.58873698e-07  8.26207049e-08  4.30000000e-01 
 4.40000000e-01  3.30299366e-09  3.59069772e-09  3.22691268e-09  4.58607952e-01  4.58607952e-01  4.58607952e-01  3.40252063e-09  1.58873704e-07  8.26206836e-08  4.40000000e-01 
 4.50000000e-01  3.30299366e-09  3.59069772e-09  3.22691268e-09  4.58607956e-01  4.58607956e-01  4.58607956e-01  3.40252064e-09  1.58873715e-07  8.26205167e-08  4.50000000e-01 
 4.60000000e-01  3.30299366e-09  3.59069772e-09  3.22691274e-09  4.58607973e-01  4.58607973e-01  4.58607973e-01  3.40252069e-09  1.58873723e-07  8.26205522e-08  4.60000000e-01 
 4.70000000e-01  3.30299366e-09  3.59069772e-09  3.22691268e-09  4.58607948e-01  4.58607948e-01  4.58607948e-01  3.40252063e-09  1.58873686e-07  8.26203497e-08  4.70000000e-01 
 4.80000000e-01  3.30299366e-09  3.59069772e-09  3.22691268e-09  4.58607966e-01  4.58607966e-01  4.58607966e-01  3.40252064e-09  1.58873719e-07  8.26203816e-08  4.80000000e-01 
 4.90000000e-01  3.30299371e-09  3.59069772e-09  3.22691274e-09  4.58607949e-01  4.58607949e-01  4.58607949e-01  3.40252063e-09  1.58873689e-07  8.26202040e-08  4.90000000e-01 
 5.00000000e-01  3.30299366e-09  3.59069772e-09  3.22691268e-09  4.58607976e-01  4.58607976e-01  4.58607976e-01  3.40252064e-09  1.58873740e-07  8.26201791e-08  5.00000000e-01 
 5.10000000e-01  3.30299366e-09  3.59069772e-09  3.22691268e-09  4.58607944e-01  4.58607944e-01  4.58607944e-01  3.40252063e-09  1.58873684e-07  8.26200157e-08  5.10000000e-01 
 5.20000000e-01  3.30299366e-09  3.59069772e-09  3.22691268e-09  4.58607977e-01  4.58607977e-01  4.58607977e-01  3.40252064e-09  1.58873741e-07  8.26200441e-08  5.20000000e-01 
 5.30000000e-01  3.30299366e-09  3.59069772e-09  3.22691268e-09  4.58607956e-01  4.58607956e-01  4.58607956e-01  3.40252064e-09  1.58873689e-07  8.26198807e-08  5.30000000e-01 
 5.40000000e-01  3.30299366e-09  3.59069772e-09  3.22691274e-09  4.58607956e-01  4.58607956e-01  4.58607956e-01  3.40252064e-09  1.58873710e-07  8.26198523e-08  5.40000000e-01 
 5.50000000e-01  3.30299366e-09  3.59069772e-09  3.22691268e-09  4.58607964e-01  4.58607964e-01  4.58607964e-01  3.40252064e-09  1.58873699e-07  8.26198807e-08  5.50000000e-01 
 5.60000000e-01  3.30299366e-09  3.59069772e-09  3.22691268e-09  4.58607971e-01  4.58607971e-01  4.58607971e-01  3.40252069e-09  1.58873725e-07  8.26197351e-08  5.60000000e-01 
 5.70000000e-01  3.30299366e-09  3.59069772e-09  3.22691274e-09  4.58607943e-01  4.58607943e-01  4.58607943e-01  3.40252063e-09  1.58873684e-07  8.26196391e-08  5.70000000e-01 
 5.80000000e-01  3.30299366e-09  3.59069772e-09  3.22691268e-09  4.58607947e-01  4.58607947e-01  4.58607947e-01  3.40252063e-09  1.58873707e-07  8.26195290e-08  5.80000000e-01 
 5.90000000e-01  3.30299366e-09  3.59069772e-09  3.22691274e-09  4.58607956e-01  4.58607956e-01  4.58607956e-01  3.40252064e-09  1.58873712e-07  8.26195077e-08  5.90000000e-01 
 6.00000000e-01  3.30299366e-09  3.59069772e-09  3.22691274e-09  4.58607946e-01  4.58607946e-01  4.58607946e-01  3.40252063e-09  1.58873685e-07  8.26194793e-08  6.00000000e-01 
 6.10000000e-01  3.30299366e-09  3.59069772e-09  3.22691268e-09  4.58607946e-01  4.58607946e-01  4.58607946e-01  3.40252063e-09  1.58873691e-07  8.26194650e-08  6.10000000e-01 
 6.20000000e-01  3.30299371e-09  3.59069772e-09  3.22691268e-09  4.58607950e-01  4.58607950e-01  4.58607950e-01  3.40252063e-09  1.58873687e-07  8.26193300e-08  6.20000000e-01 
 6.30000000e-01  3.30299366e-09  3.59069772e-09  3.22691268e-09  4.58607940e-01  4.58607940e-01  4.58607940e-01  3.40252063e-09  1.58873672e-07  8.26193300e-08  6.30000000e-01 
 6.40000000e-01  3.30299366e-09  3.59069772e-09  3.22691268e-09  4.58607961e-01  4.58607961e-01  4.58607961e-01  3.40252064e-09  1.58873706e-07  8.26192377e-08  6.40000000e-01 
 6.50000000e-01  3.30299366e-09  3.59069772e-09  3.22691274e-09  4.58607947e-01  4.58607947e-01  4.58607947e-01  3.40252063e-09  1.58873684e-07  8.26191382e-08  6.50000000e-01 
 6.60000000e-01  3.30299366e-09  3.59069772e-09  3.22691268e-09  4.58607957e-01  4.58607957e-01  4.58607957e-01  3.40252064e-09  1.58873711e-07  8.26189890e-08  6.60000000e-01 
 6.70000000e-01  3.30299366e-09  3.59069772e-09  3.22691274e-09  4.58607957e-01  4.58607957e-01  4.58607957e-01  3.40252064e-09  1.58873706e-07  8.26188469e-08  6.70000000e-01 
 6.80000000e-01  3.30299366e-09  3.59069772e-09  3.22691268e-09  4.58607969e-01  4.58607969e-01  4.58607969e-01  3.40252064e-09  1.58873724e-07  8.26189179e-08  6.80000000e-01 
 6.90000000e-01  3.30299366e-09  3.59069772e-09  3.22691268e-09  4.58607955e-01  4.58607955e-01  4.58607955e-01  3.40252064e-09  1.58873697e-07  8.26188966e-08  6.90000000e-01 
 7.00000000e-01  3.30299366e-09  3.59069772e-09  3.22691268e-09  4.58607960e-01  4.58607960e-01  4.58607960e-01  3.40252064e-09  1.58873701e-07  8.26187971e-08  7.00000000e-01 
 7.10000000e-01  3.30299366e-09  3.59069772e-09  3.22691268e-09  4.58607953e-01  4.58607953e-01  4.58607953e-01  3.40252064e-09  1.58873697e-07  8.26185627e-08  7.10000000e-01 
 7.20000000e-01  3.30299366e-09  3.59069772e-09  3.22691274e-09  4.58607976e-01  4.58607976e-01  4.58607976e-01  3.40252064e-09  1.58873747e-07  8.26188185e-08  7.20000000e-01 
 7.30000000e-01  3.30299366e-09  3.59069772e-09  3.22691268e-09  4.58607945e-01  4.58607945e-01  4.58607945e-01  3.40252063e-09  1.58873700e-07  8.26185200e-08  7.30000000e-01 
 7.40000000e-01  3.30299366e-09  3.59069772e-09  3.22691268e-09  4.58607978e-01  4.58607978e-01  4.58607978e-01  3.40252069e-09  1.58873726e-07  8.26185556e-08  7.40000000e-01 
 7.50000000e-01  3.30299366e-09  3.59069772e-09  3.22691268e-09  4.58607963e-01  4.58607963e-01  4.58607963e-01  3.40252064e-09  1.58873715e-07  8.26184419e-08  7.50000000e-01 
 7.60000000e-01  3.30299366e-09  3.59069772e-09  3.22691268e-09  4.58607960e-01  4.58607960e-01  4.58607960e-01  3.40252064e-09  1.58873708e-07  8.26183566e-08  7.60000000e-01 
 7.70000000e-01  3.30299366e-09  3.59069772e-09  3.22691268e-09  4.58607969e-01  4.58607969e-01  4.58607969e-01  3.40252069e-09  1.58873734e-07  8.26182571e-08  7.70000000e-01 
 7.80000000e-01  3.30299366e-09  3.59069772e-09  3.22691268e-09  4.58607959e-01  4.58607959e-01  4.58607959e-01  3.40252064e-09  1.58873715e-07  8.26181790e-08  7.80000000e-01 
 7.90000000e-01  3.30299366e-09  3.59069772e-09  3.22691268e-09  4.58607963e-01  4.58607963e-01  4.58607963e-01  3.40252064e-09  1.58873702e-07  8.26181079e-08  7.90000000e-01 
 8.00000000e-01  3.30299366e-09  3.59069772e-09  3.22691268e-09  4.58607943e-01  4.58607943e-01  4.58607943e-01  3.40252063e-09  1.58873701e-07  8.26179516e-08  8.00000000e-01 
 8.10000000e-01  3.30299366e-09  3.59069772e-09  3.22691268e-09  4.58607956e-01  4.58607956e-01  4.58607956e-01  3.40252069e-09  1.58873687e-07  8.26180013e-08  8.10000000e-01 
 8.20000000e-01  3.30299366e-09  3.59069772e-09  3.22691268e-09  4.58607947e-01  4.58607947e-01  4.58607947e-01  3.40252063e-09  1.58873705e-07  8.26178947e-08  8.20000000e-01 
 8.30000000e-01  3.30299366e-09  3.59069772e-09  3.22691268e-09  4.58607949e-01  4.58607949e-01  4.58607949e-01  3.40252063e-09  1.58873695e-07  8.26177313e-08  8.30000000e-01 
 8.40000000e-01  3.30299366e-09  3.59069772e-09  3.22691268e-09  4.58607953e-01  4.58607953e-01  4.58607953e-01  3.40252063e-09  1.58873696e-07  8.26177740e-08  8.40000000e-01 
 8.50000000e-01  3.30299366e-09  3.59069772e-09  3.22691268e-09  4.58607960e-01  4.58607960e-01  4.58607960e-01  3.40252064e-09  1.58873710e-07  8.26178237e-08  8.50000000e-01 
 8.60000000e-01  3.30299366e-09  3.59069772e-09  3.22691268e-09  4.58607965e-01  4.58607965e-01  4.58607965e-01  3.40252064e-09  1.58873719e-07  8.26176390e-08  8.60000000e-01 
 8.70000000e-01  3.30299366e-09  3.59069772e-09  3.22691274e-09  4.58607967e-01  4.58607967e-01  4.58607967e-01  3.40252069e-09  1.58873724e-07  8.26175750e-08  8.70000000e-01 
 8.80000000e-01  3.30299366e-09  3.59069772e-09  3.22691274e-09  4.58607959e-01  4.58607959e-01  4.58607959e-01  3.40252064e-09  1.58873708e-07  8.26175253e-08  8.80000000e-01 
 8.90000000e-01  3.30299366e-09  3.59069772e-09  3.22691268e-09  4.58607976e-01  4.58607976e-01  4.58607976e-01  3.40252064e-09  1.58873735e-07  8.26173832e-08  8.90000000e-01 
 9.00000000e-01  3.30299366e-09  3.59069772e-09  3.22691274e-09  4.58607969e-01  4.58607969e-01  4.58607969e-01  3.40252064e-09  1.58873719e-07  8.26172624e-08  9.00000000e-01 
 9.10000000e-01  3.30299366e-09  3.59069772e-09  3.22691274e-09  4.58607949e-01  4.58607949e-01  4.58607950e-01  3.40252063e-09  1.58873691e-07  8.26171984e-08  9.10000000e-01 
 9.20000000e-01  3.30299366e-09  3.59069772e-09  3.22691274e-09  4.58607969e-01  4.58607969e-01  4.58607969e-01  3.40252064e-09  1.58873731e-07  8.26172482e-08  9.20000000e-01 
 9.30000000e-01  3.30299366e-09  3.59069772e-09  3.22691268e-09  4.58607947e-01  4.58607947e-01  4.58607947e-01  3.40252063e-09  1.58873688e-07  8.26171984e-08  9.30000000e-01 
 9.40000000e-01  3.30299366e-09  3.59069772e-09  3.22691274e-09  4.58607992e-01  4.58607992e-01  4.58607992e-01  3.40252070e-09  1.58873764e-07  8.26169924e-08  9.40000000e-01 
 9.50000000e-01  3.30299366e-09  3.59069772e-09  3.22691268e-09  4.58607952e-01  4.58607952e-01  4.58607952e-01  3.40252063e-09  1.58873699e-07  8.26170137e-08  9.50000000e-01 
 9.60000000e-01  3.30299366e-09  3.59069772e-09  3.22691274e-09  4.58607982e-01  4.58607982e-01  4.58607982e-01  3.40252064e-09  1.58873750e-07  8.26169995e-08  9.60000000e-01 
 9.70000000e-01  3.30299366e-09  3.59069772e-09  3.22691268e-09  4.58607979e-01  4.58607979e-01  4.58607979e-01  3.40252064e-09  1.58873729e-07  8.26169639e-08  9.70000000e-01 
 9.80000000e-01  3.30299366e-09  3.59069772e-09  3.22691268e-09  4.58607974e-01  4.58607974e-01  4.58607974e-01  3.40252064e-09  1.58873743e-07  8.26168645e-08  9.80000000e-01 
 9.90000000e-01  3.30299366e-09  3.59069772e-09  3.22691268e-09  4.58607931e-01  4.58607931e-01  4.58607931e-01  3.40252069e-09  1.58873682e-07  8.26166087e-08  9.90000000e-01 
 1.00000000e+00  3.30299366e-09  3.59069772e-09  3.22691268e-09  4.58607962e-01  4.58607962e-01  4.58607962e-01  3.40252069e-09  1.58873716e-07  8.26166513e-08  1.00000000e+00 
 1.01000000e+00  3.30299366e-09  3.59069772e-09  3.22691274e-09  4.58607947e-01  4.58607947e-01  4.58607947e-01  3.40252063e-09  1.58873686e-07  8.26164666e-08  1.01000000e+00 
 1.02000000e+00  3.30299366e-09  3.59069772e-09  3.22691268e-09  4.58607959e-01  4.58607959e-01  4.58607959e-01  3.40252064e-09  1.58873709e-07  8.26165234e-08  1.02000000e+00 
 1.03000000e+00  3.30299366e-09  3.59069772e-09  3.22691268e-09  4.58607957e-01  4.58607957e-01  4.58607957e-01  3.40252064e-09  1.58873721e-07  8.26163955e-08  1.03000000e+00 
 1.04000000e+00  3.30299366e-09  3.59069772e-09  3.22691268e-09  4.58607963e-01  4.58607963e-01  4.58607963e-01  3.40252064e-09  1.58873710e-07  8.26162463e-08  1.04000000e+00 
 1.05000000e+00  3.30299366e-09  3.59069772e-09  3.22691268e-09  4.58607979e-01  4.58607979e-01  4.58607979e-01  3.40252064e-09  1.58873745e-07  8.26162108e-08  1.05000000e+00 
 1.06000000e+00  3.30299366e-09  3.59069772e-09  3.22691274e-09  4.58607958e-01  4.58607958e-01  4.58607958e-01  3.40252064e-09  1.58873695e-07  8.26160331e-08  1.06000000e+00 
 1.07000000e+00  3.30299366e-09  3.59069772e-09  3.22691268e-09  4.58607939e-01  4.58607939e-01  4.58607940e-01  3.40252063e-09  1.58873692e-07  8.26160615e-08  1.07000000e+00 
 1.08000000e+00  3.30299366e-09  3.59069772e-09  3.22691268e-09  4.58607978e-01  4.58607978e-01  4.58607978e-01  3.40252064e-09  1.58873755e-07  8.26160615e-08  1.08000000e+00 
 1.09000000e+00  3.30299366e-09  3.59069772e-09  3.22691268e-09  4.58607986e-01  4.58607986e-01  4.58607986e-01  3.40252064e-09  1.58873740e-07  8.26159550e-08  1.09000000e+00 
 1.10000000e+00  3.30299366e-09  3.59069772e-09  3.22691268e-09  4.58607964e-01  4.58607964e-01  4.58607964e-01  3.40252064e-09  1.58873712e-07  8.26158413e-08  1.10000000e+00 
