 v-sweep         v(b0)           v(b1)           v(b2)           v(b3)           v(b4)           v(b5)           v(b6)           i(vbias)        i(viout)        v(vout)        
 0.00000000e+00  3.56951409e-09  3.31054236e-09  4.60016139e-01  3.34650945e-09  3.37350752e-09  3.29624373e-09  3.36352334e-09  1.63339016e-07  6.31032068e-09  0.00000000e+00 
 1.00000000e-02  3.56951407e-09  3.31054240e-09  4.60016128e-01  3.34650942e-09  3.37350750e-09  3.29624370e-09  3.36352338e-09  1.63338998e-07  6.30973995e-09  1.00000000e-02 
 2.00000000e-02  3.56951407e-09  3.31054234e-09  4.60016124e-01  3.34650942e-09  3.37350755e-09  3.29624364e-09  3.36352338e-09  1.63338991e-07  6.30943364e-09  2.00000000e-02 
 3.00000000e-02  3.56951407e-09  3.31054240e-09  4.60016114e-01  3.34650937e-09  3.37350750e-09  3.29624365e-09  3.36352332e-09  1.63338966e-07  6.30911345e-09  3.00000000e-02 
 4.00000000e-02  3.56951407e-09  3.31054234e-09  4.60016119e-01  3.34650942e-09  3.37350755e-09  3.29624371e-09  3.36352338e-09  1.63338976e-07  6.30871400e-09  4.00000000e-02 
 5.00000000e-02  3.56951407e-09  3.31054240e-09  4.60016121e-01  3.34650942e-09  3.37350755e-09  3.29624369e-09  3.36352338e-09  1.63338987e-07  6.30860786e-09  5.00000000e-02 
 6.00000000e-02  3.56951408e-09  3.31054240e-09  4.60016136e-01  3.34650942e-09  3.37350755e-09  3.29624370e-09  3.36352332e-09  1.63339003e-07  6.30815888e-09  6.00000000e-02 
 7.00000000e-02  3.56951408e-09  3.31054235e-09  4.60016137e-01  3.34650942e-09  3.37350750e-09  3.29624370e-09  3.36352332e-09  1.63339008e-07  6.30791597e-09  7.00000000e-02 
 8.00000000e-02  3.56951407e-09  3.31054234e-09  4.60016118e-01  3.34650942e-09  3.37350750e-09  3.29624370e-09  3.36352332e-09  1.63338972e-07  6.30765307e-09  8.00000000e-02 
 9.00000000e-02  3.56951407e-09  3.31054235e-09  4.60016126e-01  3.34650942e-09  3.37350750e-09  3.29624370e-09  3.36352332e-09  1.63339006e-07  6.30729158e-09  9.00000000e-02 
 1.00000000e-01  3.56951408e-09  3.31054235e-09  4.60016151e-01  3.34650942e-09  3.37350756e-09  3.29624370e-09  3.36352332e-09  1.63339019e-07  6.30710240e-09  1.00000000e-01 
 1.10000000e-01  3.56951407e-09  3.31054240e-09  4.60016123e-01  3.34650937e-09  3.37350750e-09  3.29624370e-09  3.36352332e-09  1.63338986e-07  6.30690433e-09  1.10000000e-01 
 1.20000000e-01  3.56951408e-09  3.31054235e-09  4.60016135e-01  3.34650942e-09  3.37350755e-09  3.29624370e-09  3.36352338e-09  1.63339005e-07  6.30662811e-09  1.20000000e-01 
 1.30000000e-01  3.56951408e-09  3.31054240e-09  4.60016143e-01  3.34650942e-09  3.37350750e-09  3.29624370e-09  3.36352332e-09  1.63339010e-07  6.30630659e-09  1.30000000e-01 
 1.40000000e-01  3.56951408e-09  3.31054240e-09  4.60016159e-01  3.34650943e-09  3.37350756e-09  3.29624370e-09  3.36352338e-09  1.63339034e-07  6.30612096e-09  1.40000000e-01 
 1.50000000e-01  3.56951408e-09  3.31054235e-09  4.60016138e-01  3.34650942e-09  3.37350750e-09  3.29624370e-09  3.36352332e-09  1.63339014e-07  6.30585717e-09  1.50000000e-01 
 1.60000000e-01  3.56951408e-09  3.31054235e-09  4.60016134e-01  3.34650942e-09  3.37350750e-09  3.29624364e-09  3.36352338e-09  1.63338994e-07  6.30572750e-09  1.60000000e-01 
 1.70000000e-01  3.56951408e-09  3.31054240e-09  4.60016136e-01  3.34650942e-09  3.37350755e-09  3.29624366e-09  3.36352332e-09  1.63339009e-07  6.30549835e-09  1.70000000e-01 
 1.80000000e-01  3.56951407e-09  3.31054240e-09  4.60016127e-01  3.34650937e-09  3.37350750e-09  3.29624371e-09  3.36352338e-09  1.63338995e-07  6.30542196e-09  1.80000000e-01 
 1.90000000e-01  3.56951407e-09  3.31054240e-09  4.60016121e-01  3.34650937e-09  3.37350750e-09  3.29624369e-09  3.36352332e-09  1.63338983e-07  6.30519104e-09  1.90000000e-01 
 2.00000000e-01  3.56951407e-09  3.31054240e-09  4.60016121e-01  3.34650942e-09  3.37350755e-09  3.29624370e-09  3.36352332e-09  1.63338980e-07  6.30504182e-09  2.00000000e-01 
 2.10000000e-01  3.56951407e-09  3.31054240e-09  4.60016120e-01  3.34650942e-09  3.37350750e-09  3.29624370e-09  3.36352338e-09  1.63338985e-07  6.30486419e-09  2.10000000e-01 
 2.20000000e-01  3.56951407e-09  3.31054234e-09  4.60016122e-01  3.34650942e-09  3.37350750e-09  3.29624370e-09  3.36352332e-09  1.63338999e-07  6.30471320e-09  2.20000000e-01 
 2.30000000e-01  3.56951407e-09  3.31054240e-09  4.60016121e-01  3.34650942e-09  3.37350750e-09  3.29624364e-09  3.36352332e-09  1.63338971e-07  6.30456753e-09  2.30000000e-01 
 2.40000000e-01  3.56951407e-09  3.31054234e-09  4.60016117e-01  3.34650942e-09  3.37350755e-09  3.29624371e-09  3.36352332e-09  1.63338990e-07  6.30454622e-09  2.40000000e-01 
 2.50000000e-01  3.56951408e-09  3.31054240e-09  4.60016147e-01  3.34650937e-09  3.37350755e-09  3.29624370e-09  3.36352332e-09  1.63339037e-07  6.30435792e-09  2.50000000e-01 
 2.60000000e-01  3.56951408e-09  3.31054240e-09  4.60016129e-01  3.34650942e-09  3.37350755e-09  3.29624370e-09  3.36352338e-09  1.63338992e-07  6.30414831e-09  2.60000000e-01 
 2.70000000e-01  3.56951408e-09  3.31054240e-09  4.60016131e-01  3.34650942e-09  3.37350755e-09  3.29624370e-09  3.36352332e-09  1.63339012e-07  6.30404706e-09  2.70000000e-01 
 2.80000000e-01  3.56951407e-09  3.31054240e-09  4.60016123e-01  3.34650942e-09  3.37350750e-09  3.29624364e-09  3.36352332e-09  1.63338987e-07  6.30404706e-09  2.80000000e-01 
 2.90000000e-01  3.56951408e-09  3.31054235e-09  4.60016132e-01  3.34650942e-09  3.37350750e-09  3.29624366e-09  3.36352338e-09  1.63338999e-07  6.30391384e-09  2.90000000e-01 
 3.00000000e-01  3.56951407e-09  3.31054234e-09  4.60016124e-01  3.34650942e-09  3.37350750e-09  3.29624365e-09  3.36352338e-09  1.63338989e-07  6.30369357e-09  3.00000000e-01 
 3.10000000e-01  3.56951407e-09  3.31054240e-09  4.60016111e-01  3.34650942e-09  3.37350749e-09  3.29624370e-09  3.36352332e-09  1.63338973e-07  6.30372909e-09  3.10000000e-01 
 3.20000000e-01  3.56951408e-09  3.31054235e-09  4.60016137e-01  3.34650942e-09  3.37350750e-09  3.29624369e-09  3.36352332e-09  1.63339031e-07  6.30363317e-09  3.20000000e-01 
 3.30000000e-01  3.56951407e-09  3.31054234e-09  4.60016118e-01  3.34650942e-09  3.37350750e-09  3.29624364e-09  3.36352338e-09  1.63338988e-07  6.30345554e-09  3.30000000e-01 
 3.40000000e-01  3.56951407e-09  3.31054234e-09  4.60016123e-01  3.34650942e-09  3.37350755e-09  3.29624371e-09  3.36352338e-09  1.63338986e-07  6.30332053e-09  3.40000000e-01 
 3.50000000e-01  3.56951408e-09  3.31054240e-09  4.60016129e-01  3.34650942e-09  3.37350755e-09  3.29624369e-09  3.36352338e-09  1.63338998e-07  6.30339514e-09  3.50000000e-01 
 3.60000000e-01  3.56951408e-09  3.31054235e-09  4.60016142e-01  3.34650942e-09  3.37350750e-09  3.29624364e-09  3.36352332e-09  1.63339018e-07  6.30323527e-09  3.60000000e-01 
 3.70000000e-01  3.56951408e-09  3.31054235e-09  4.60016130e-01  3.34650942e-09  3.37350750e-09  3.29624366e-09  3.36352332e-09  1.63338998e-07  6.30321040e-09  3.70000000e-01 
 3.80000000e-01  3.56951408e-09  3.31054240e-09  4.60016145e-01  3.34650937e-09  3.37350755e-09  3.29624371e-09  3.36352338e-09  1.63339031e-07  6.30302921e-09  3.80000000e-01 
 3.90000000e-01  3.56951408e-09  3.31054240e-09  4.60016130e-01  3.34650937e-09  3.37350755e-09  3.29624369e-09  3.36352332e-09  1.63339003e-07  6.30301145e-09  3.90000000e-01 
 4.00000000e-01  3.56951407e-09  3.31054240e-09  4.60016125e-01  3.34650942e-09  3.37350750e-09  3.29624364e-09  3.36352332e-09  1.63338997e-07  6.30284802e-09  4.00000000e-01 
 4.10000000e-01  3.56951407e-09  3.31054240e-09  4.60016123e-01  3.34650937e-09  3.37350750e-09  3.29624371e-09  3.36352332e-09  1.63338992e-07  6.30285513e-09  4.10000000e-01 
 4.20000000e-01  3.56951407e-09  3.31054235e-09  4.60016127e-01  3.34650937e-09  3.37350750e-09  3.29624369e-09  3.36352332e-09  1.63338994e-07  6.30284802e-09  4.20000000e-01 
 4.30000000e-01  3.56951407e-09  3.31054240e-09  4.60016127e-01  3.34650942e-09  3.37350755e-09  3.29624370e-09  3.36352332e-09  1.63338989e-07  6.30267394e-09  4.30000000e-01 
 4.40000000e-01  3.56951408e-09  3.31054235e-09  4.60016130e-01  3.34650942e-09  3.37350755e-09  3.29624364e-09  3.36352332e-09  1.63338999e-07  6.30257802e-09  4.40000000e-01 
 4.50000000e-01  3.56951408e-09  3.31054235e-09  4.60016139e-01  3.34650942e-09  3.37350755e-09  3.29624371e-09  3.36352332e-09  1.63339018e-07  6.30261354e-09  4.50000000e-01 
 4.60000000e-01  3.56951407e-09  3.31054240e-09  4.60016124e-01  3.34650942e-09  3.37350755e-09  3.29624369e-09  3.36352332e-09  1.63338973e-07  6.30248209e-09  4.60000000e-01 
 4.70000000e-01  3.56951407e-09  3.31054235e-09  4.60016125e-01  3.34650942e-09  3.37350750e-09  3.29624370e-09  3.36352338e-09  1.63339000e-07  6.30240748e-09  4.70000000e-01 
 4.80000000e-01  3.56951408e-09  3.31054235e-09  4.60016134e-01  3.34650942e-09  3.37350755e-09  3.29624370e-09  3.36352338e-09  1.63338999e-07  6.30238972e-09  4.80000000e-01 
 4.90000000e-01  3.56951407e-09  3.31054240e-09  4.60016121e-01  3.34650942e-09  3.37350750e-09  3.29624370e-09  3.36352332e-09  1.63338981e-07  6.30236130e-09  4.90000000e-01 
 5.00000000e-01  3.56951407e-09  3.31054234e-09  4.60016118e-01  3.34650942e-09  3.37350755e-09  3.29624370e-09  3.36352338e-09  1.63338976e-07  6.30224051e-09  5.00000000e-01 
 5.10000000e-01  3.56951407e-09  3.31054234e-09  4.60016114e-01  3.34650942e-09  3.37350755e-09  3.29624370e-09  3.36352332e-09  1.63338977e-07  6.30218366e-09  5.10000000e-01 
 5.20000000e-01  3.56951402e-09  3.31054240e-09  4.60016128e-01  3.34650942e-09  3.37350750e-09  3.29624364e-09  3.36352332e-09  1.63339000e-07  6.30210550e-09  5.20000000e-01 
 5.30000000e-01  3.56951408e-09  3.31054240e-09  4.60016131e-01  3.34650937e-09  3.37350755e-09  3.29624371e-09  3.36352338e-09  1.63339000e-07  6.30211261e-09  5.30000000e-01 
 5.40000000e-01  3.56951407e-09  3.31054234e-09  4.60016118e-01  3.34650942e-09  3.37350750e-09  3.29624369e-09  3.36352332e-09  1.63338982e-07  6.30199537e-09  5.40000000e-01 
 5.50000000e-01  3.56951407e-09  3.31054234e-09  4.60016118e-01  3.34650942e-09  3.37350750e-09  3.29624370e-09  3.36352332e-09  1.63338984e-07  6.30193142e-09  5.50000000e-01 
 5.60000000e-01  3.56951407e-09  3.31054240e-09  4.60016127e-01  3.34650942e-09  3.37350755e-09  3.29624370e-09  3.36352332e-09  1.63338983e-07  6.30183195e-09  5.60000000e-01 
 5.70000000e-01  3.56951408e-09  3.31054235e-09  4.60016134e-01  3.34650937e-09  3.37350750e-09  3.29624364e-09  3.36352332e-09  1.63339008e-07  6.30173957e-09  5.70000000e-01 
 5.80000000e-01  3.56951407e-09  3.31054234e-09  4.60016112e-01  3.34650942e-09  3.37350755e-09  3.29624365e-09  3.36352332e-09  1.63338960e-07  6.30176800e-09  5.80000000e-01 
 5.90000000e-01  3.56951408e-09  3.31054235e-09  4.60016146e-01  3.34650942e-09  3.37350755e-09  3.29624371e-09  3.36352338e-09  1.63339025e-07  6.30168984e-09  5.90000000e-01 
 6.00000000e-01  3.56951408e-09  3.31054235e-09  4.60016137e-01  3.34650942e-09  3.37350755e-09  3.29624369e-09  3.36352332e-09  1.63339017e-07  6.30159747e-09  6.00000000e-01 
 6.10000000e-01  3.56951407e-09  3.31054235e-09  4.60016126e-01  3.34650942e-09  3.37350750e-09  3.29624370e-09  3.36352338e-09  1.63339000e-07  6.30166852e-09  6.10000000e-01 
 6.20000000e-01  3.56951408e-09  3.31054240e-09  4.60016149e-01  3.34650942e-09  3.37350755e-09  3.29624370e-09  3.36352332e-09  1.63339034e-07  6.30151220e-09  6.20000000e-01 
 6.30000000e-01  3.56951408e-09  3.31054235e-09  4.60016142e-01  3.34650942e-09  3.37350755e-09  3.29624370e-09  3.36352332e-09  1.63339025e-07  6.30139851e-09  6.30000000e-01 
 6.40000000e-01  3.56951408e-09  3.31054235e-09  4.60016140e-01  3.34650942e-09  3.37350750e-09  3.29624370e-09  3.36352338e-09  1.63339019e-07  6.30139141e-09  6.40000000e-01 
 6.50000000e-01  3.56951407e-09  3.31054234e-09  4.60016102e-01  3.34650936e-09  3.37350749e-09  3.29624370e-09  3.36352337e-09  1.63338953e-07  6.30132746e-09  6.50000000e-01 
 6.60000000e-01  3.56951408e-09  3.31054240e-09  4.60016143e-01  3.34650937e-09  3.37350750e-09  3.29624370e-09  3.36352338e-09  1.63339024e-07  6.30127772e-09  6.60000000e-01 
 6.70000000e-01  3.56951408e-09  3.31054240e-09  4.60016140e-01  3.34650937e-09  3.37350750e-09  3.29624364e-09  3.36352332e-09  1.63339024e-07  6.30112851e-09  6.70000000e-01 
 6.80000000e-01  3.56951407e-09  3.31054240e-09  4.60016107e-01  3.34650942e-09  3.37350749e-09  3.29624371e-09  3.36352338e-09  1.63338965e-07  6.30112140e-09  6.80000000e-01 
 6.90000000e-01  3.56951408e-09  3.31054240e-09  4.60016129e-01  3.34650942e-09  3.37350755e-09  3.29624369e-09  3.36352332e-09  1.63339000e-07  6.30114272e-09  6.90000000e-01 
 7.00000000e-01  3.56951408e-09  3.31054240e-09  4.60016133e-01  3.34650942e-09  3.37350750e-09  3.29624370e-09  3.36352332e-09  1.63338990e-07  6.30121377e-09  7.00000000e-01 
 7.10000000e-01  3.56951408e-09  3.31054240e-09  4.60016141e-01  3.34650942e-09  3.37350755e-09  3.29624370e-09  3.36352338e-09  1.63339016e-07  6.30107166e-09  7.10000000e-01 
 7.20000000e-01  3.56951407e-09  3.31054235e-09  4.60016126e-01  3.34650942e-09  3.37350750e-09  3.29624370e-09  3.36352338e-09  1.63338988e-07  6.30095087e-09  7.20000000e-01 
 7.30000000e-01  3.56951407e-09  3.31054234e-09  4.60016125e-01  3.34650942e-09  3.37350750e-09  3.29624370e-09  3.36352332e-09  1.63338988e-07  6.30086561e-09  7.30000000e-01 
 7.40000000e-01  3.56951407e-09  3.31054235e-09  4.60016125e-01  3.34650942e-09  3.37350750e-09  3.29624370e-09  3.36352332e-09  1.63338983e-07  6.30086561e-09  7.40000000e-01 
 7.50000000e-01  3.56951407e-09  3.31054240e-09  4.60016113e-01  3.34650942e-09  3.37350750e-09  3.29624370e-09  3.36352338e-09  1.63338980e-07  6.30088692e-09  7.50000000e-01 
 7.60000000e-01  3.56951408e-09  3.31054240e-09  4.60016142e-01  3.34650937e-09  3.37350755e-09  3.29624370e-09  3.36352332e-09  1.63339026e-07  6.30067376e-09  7.60000000e-01 
 7.70000000e-01  3.56951402e-09  3.31054235e-09  4.60016135e-01  3.34650942e-09  3.37350755e-09  3.29624370e-09  3.36352338e-09  1.63339017e-07  6.30065244e-09  7.70000000e-01 
 7.80000000e-01  3.56951408e-09  3.31054235e-09  4.60016142e-01  3.34650942e-09  3.37350750e-09  3.29624370e-09  3.36352332e-09  1.63339012e-07  6.30059560e-09  7.80000000e-01 
 7.90000000e-01  3.56951407e-09  3.31054240e-09  4.60016124e-01  3.34650942e-09  3.37350750e-09  3.29624370e-09  3.36352332e-09  1.63338976e-07  6.30052455e-09  7.90000000e-01 
 8.00000000e-01  3.56951408e-09  3.31054235e-09  4.60016131e-01  3.34650942e-09  3.37350750e-09  3.29624370e-09  3.36352332e-09  1.63338992e-07  6.30034691e-09  8.00000000e-01 
 8.10000000e-01  3.56951407e-09  3.31054234e-09  4.60016107e-01  3.34650942e-09  3.37350755e-09  3.29624370e-09  3.36352338e-09  1.63338966e-07  6.30044639e-09  8.10000000e-01 
 8.20000000e-01  3.56951407e-09  3.31054240e-09  4.60016117e-01  3.34650942e-09  3.37350755e-09  3.29624370e-09  3.36352332e-09  1.63338978e-07  6.30030428e-09  8.20000000e-01 
 8.30000000e-01  3.56951408e-09  3.31054235e-09  4.60016163e-01  3.34650943e-09  3.37350756e-09  3.29624370e-09  3.36352332e-09  1.63339050e-07  6.30035402e-09  8.30000000e-01 
 8.40000000e-01  3.56951408e-09  3.31054235e-09  4.60016135e-01  3.34650942e-09  3.37350750e-09  3.29624370e-09  3.36352332e-09  1.63339008e-07  6.30033981e-09  8.40000000e-01 
 8.50000000e-01  3.56951407e-09  3.31054235e-09  4.60016128e-01  3.34650937e-09  3.37350750e-09  3.29624370e-09  3.36352332e-09  1.63338988e-07  6.30022612e-09  8.50000000e-01 
 8.60000000e-01  3.56951408e-09  3.31054235e-09  4.60016129e-01  3.34650937e-09  3.37350750e-09  3.29624370e-09  3.36352332e-09  1.63338994e-07  6.30013375e-09  8.60000000e-01 
 8.70000000e-01  3.56951407e-09  3.31054240e-09  4.60016125e-01  3.34650942e-09  3.37350755e-09  3.29624370e-09  3.36352338e-09  1.63338985e-07  6.30004848e-09  8.70000000e-01 
 8.80000000e-01  3.56951407e-09  3.31054240e-09  4.60016122e-01  3.34650937e-09  3.37350750e-09  3.29624370e-09  3.36352338e-09  1.63338989e-07  6.29993480e-09  8.80000000e-01 
 8.90000000e-01  3.56951407e-09  3.31054234e-09  4.60016110e-01  3.34650942e-09  3.37350755e-09  3.29624370e-09  3.36352338e-09  1.63338962e-07  6.29996322e-09  8.90000000e-01 
 9.00000000e-01  3.56951408e-09  3.31054235e-09  4.60016142e-01  3.34650942e-09  3.37350755e-09  3.29624370e-09  3.36352338e-09  1.63339013e-07  6.29992769e-09  9.00000000e-01 
 9.10000000e-01  3.56951407e-09  3.31054235e-09  4.60016126e-01  3.34650942e-09  3.37350750e-09  3.29624370e-09  3.36352332e-09  1.63338999e-07  6.29999874e-09  9.10000000e-01 
 9.20000000e-01  3.56951408e-09  3.31054240e-09  4.60016143e-01  3.34650942e-09  3.37350755e-09  3.29624370e-09  3.36352332e-09  1.63339028e-07  6.29990637e-09  9.20000000e-01 
 9.30000000e-01  3.56951408e-09  3.31054240e-09  4.60016133e-01  3.34650942e-09  3.37350750e-09  3.29624370e-09  3.36352332e-09  1.63339004e-07  6.29980690e-09  9.30000000e-01 
 9.40000000e-01  3.56951407e-09  3.31054234e-09  4.60016121e-01  3.34650942e-09  3.37350750e-09  3.29624370e-09  3.36352332e-09  1.63338988e-07  6.29962926e-09  9.40000000e-01 
 9.50000000e-01  3.56951407e-09  3.31054240e-09  4.60016127e-01  3.34650942e-09  3.37350755e-09  3.29624370e-09  3.36352332e-09  1.63339005e-07  6.29958663e-09  9.50000000e-01 
 9.60000000e-01  3.56951407e-09  3.31054234e-09  4.60016120e-01  3.34650942e-09  3.37350750e-09  3.29624370e-09  3.36352332e-09  1.63338988e-07  6.29950847e-09  9.60000000e-01 
 9.70000000e-01  3.56951407e-09  3.31054234e-09  4.60016124e-01  3.34650942e-09  3.37350755e-09  3.29624370e-09  3.36352332e-09  1.63338998e-07  6.29951558e-09  9.70000000e-01 
 9.80000000e-01  3.56951408e-09  3.31054235e-09  4.60016137e-01  3.34650942e-09  3.37350750e-09  3.29624370e-09  3.36352332e-09  1.63338998e-07  6.29944452e-09  9.80000000e-01 
 9.90000000e-01  3.56951408e-09  3.31054235e-09  4.60016143e-01  3.34650937e-09  3.37350750e-09  3.29624370e-09  3.36352332e-09  1.63339025e-07  6.29939478e-09  9.90000000e-01 
 1.00000000e+00  3.56951407e-09  3.31054240e-09  4.60016119e-01  3.34650942e-09  3.37350750e-09  3.29624364e-09  3.36352332e-09  1.63338971e-07  6.29924557e-09  1.00000000e+00 
 1.01000000e+00  3.56951407e-09  3.31054240e-09  4.60016110e-01  3.34650942e-09  3.37350749e-09  3.29624371e-09  3.36352332e-09  1.63338964e-07  6.29920294e-09  1.01000000e+00 
 1.02000000e+00  3.56951407e-09  3.31054240e-09  4.60016121e-01  3.34650942e-09  3.37350750e-09  3.29624369e-09  3.36352338e-09  1.63338989e-07  6.29907504e-09  1.02000000e+00 
 1.03000000e+00  3.56951408e-09  3.31054235e-09  4.60016135e-01  3.34650937e-09  3.37350750e-09  3.29624364e-09  3.36352338e-09  1.63339020e-07  6.29923136e-09  1.03000000e+00 
 1.04000000e+00  3.56951407e-09  3.31054234e-09  4.60016114e-01  3.34650942e-09  3.37350755e-09  3.29624371e-09  3.36352332e-09  1.63338969e-07  6.29896135e-09  1.04000000e+00 
 1.05000000e+00  3.56951408e-09  3.31054235e-09  4.60016149e-01  3.34650942e-09  3.37350750e-09  3.29624370e-09  3.36352332e-09  1.63339033e-07  6.29897556e-09  1.05000000e+00 
 1.06000000e+00  3.56951408e-09  3.31054240e-09  4.60016133e-01  3.34650942e-09  3.37350750e-09  3.29624370e-09  3.36352332e-09  1.63339003e-07  6.29886898e-09  1.06000000e+00 
 1.07000000e+00  3.56951408e-09  3.31054240e-09  4.60016133e-01  3.34650942e-09  3.37350755e-09  3.29624370e-09  3.36352332e-09  1.63339006e-07  6.29884767e-09  1.07000000e+00 
 1.08000000e+00  3.56951408e-09  3.31054240e-09  4.60016137e-01  3.34650942e-09  3.37350750e-09  3.29624364e-09  3.36352338e-09  1.63339003e-07  6.29883345e-09  1.08000000e+00 
 1.09000000e+00  3.56951407e-09  3.31054235e-09  4.60016128e-01  3.34650942e-09  3.37350755e-09  3.29624371e-09  3.36352332e-09  1.63339008e-07  6.29879082e-09  1.09000000e+00 
 1.10000000e+00  3.56951408e-09  3.31054240e-09  4.60016139e-01  3.34650942e-09  3.37350755e-09  3.29624370e-09  3.36352338e-09  1.63339005e-07  6.29881924e-09  1.10000000e+00 
