 v-sweep         v(b0)           v(b1)           v(b2)           v(b3)           v(b4)           v(b5)           v(b6)           i(vbias)        i(viout)        v(vout)        
 0.00000000e+00  3.35862160e-09  4.57635494e-01  4.57635494e-01  4.57635494e-01  4.57635494e-01  4.57635494e-01  4.57635494e-01  1.59729397e-07  1.80688166e-07  0.00000000e+00 
 1.00000000e-02  3.35862157e-09  4.57635529e-01  4.57635529e-01  4.57635529e-01  4.57635529e-01  4.57635529e-01  4.57635529e-01  1.59729442e-07  1.80687771e-07  1.00000000e-02 
 2.00000000e-02  3.35862153e-09  4.57635507e-01  4.57635507e-01  4.57635507e-01  4.57635507e-01  4.57635507e-01  4.57635507e-01  1.59729412e-07  1.80687184e-07  2.00000000e-02 
 3.00000000e-02  3.35862158e-09  4.57635505e-01  4.57635505e-01  4.57635505e-01  4.57635505e-01  4.57635505e-01  4.57635505e-01  1.59729413e-07  1.80686812e-07  3.00000000e-02 
 4.00000000e-02  3.35862158e-09  4.57635507e-01  4.57635507e-01  4.57635507e-01  4.57635507e-01  4.57635507e-01  4.57635507e-01  1.59729409e-07  1.80686426e-07  4.00000000e-02 
 5.00000000e-02  3.35862152e-09  4.57635518e-01  4.57635518e-01  4.57635518e-01  4.57635518e-01  4.57635518e-01  4.57635518e-01  1.59729440e-07  1.80686067e-07  5.00000000e-02 
 6.00000000e-02  3.35862158e-09  4.57635470e-01  4.57635470e-01  4.57635470e-01  4.57635470e-01  4.57635470e-01  4.57635470e-01  1.59729363e-07  1.80685456e-07  6.00000000e-02 
 7.00000000e-02  3.35862158e-09  4.57635498e-01  4.57635498e-01  4.57635498e-01  4.57635498e-01  4.57635498e-01  4.57635498e-01  1.59729415e-07  1.80685183e-07  7.00000000e-02 
 8.00000000e-02  3.35862158e-09  4.57635475e-01  4.57635475e-01  4.57635475e-01  4.57635475e-01  4.57635475e-01  4.57635475e-01  1.59729365e-07  1.80684709e-07  8.00000000e-02 
 9.00000000e-02  3.35862152e-09  4.57635504e-01  4.57635504e-01  4.57635504e-01  4.57635504e-01  4.57635504e-01  4.57635504e-01  1.59729412e-07  1.80684405e-07  9.00000000e-02 
 1.00000000e-01  3.35862158e-09  4.57635473e-01  4.57635473e-01  4.57635473e-01  4.57635473e-01  4.57635473e-01  4.57635473e-01  1.59729368e-07  1.80684069e-07  1.00000000e-01 
 1.10000000e-01  3.35862158e-09  4.57635489e-01  4.57635488e-01  4.57635489e-01  4.57635489e-01  4.57635488e-01  4.57635488e-01  1.59729390e-07  1.80683717e-07  1.10000000e-01 
 1.20000000e-01  3.35862158e-09  4.57635500e-01  4.57635500e-01  4.57635500e-01  4.57635500e-01  4.57635500e-01  4.57635500e-01  1.59729414e-07  1.80683490e-07  1.20000000e-01 
 1.30000000e-01  3.35862158e-09  4.57635483e-01  4.57635483e-01  4.57635483e-01  4.57635483e-01  4.57635483e-01  4.57635483e-01  1.59729374e-07  1.80683164e-07  1.30000000e-01 
 1.40000000e-01  3.35862158e-09  4.57635494e-01  4.57635494e-01  4.57635494e-01  4.57635494e-01  4.57635494e-01  4.57635494e-01  1.59729394e-07  1.80682893e-07  1.40000000e-01 
 1.50000000e-01  3.35862158e-09  4.57635490e-01  4.57635490e-01  4.57635490e-01  4.57635490e-01  4.57635490e-01  4.57635490e-01  1.59729399e-07  1.80682516e-07  1.50000000e-01 
 1.60000000e-01  3.35862158e-09  4.57635504e-01  4.57635504e-01  4.57635504e-01  4.57635504e-01  4.57635504e-01  4.57635504e-01  1.59729411e-07  1.80682493e-07  1.60000000e-01 
 1.70000000e-01  3.35862158e-09  4.57635493e-01  4.57635493e-01  4.57635493e-01  4.57635493e-01  4.57635493e-01  4.57635493e-01  1.59729397e-07  1.80682131e-07  1.70000000e-01 
 1.80000000e-01  3.35862158e-09  4.57635524e-01  4.57635524e-01  4.57635524e-01  4.57635524e-01  4.57635524e-01  4.57635524e-01  1.59729450e-07  1.80681933e-07  1.80000000e-01 
 1.90000000e-01  3.35862158e-09  4.57635505e-01  4.57635505e-01  4.57635505e-01  4.57635505e-01  4.57635505e-01  4.57635505e-01  1.59729415e-07  1.80681624e-07  1.90000000e-01 
 2.00000000e-01  3.35862158e-09  4.57635515e-01  4.57635514e-01  4.57635515e-01  4.57635515e-01  4.57635514e-01  4.57635514e-01  1.59729422e-07  1.80681358e-07  2.00000000e-01 
 2.10000000e-01  3.35862158e-09  4.57635527e-01  4.57635527e-01  4.57635527e-01  4.57635527e-01  4.57635527e-01  4.57635527e-01  1.59729440e-07  1.80681210e-07  2.10000000e-01 
 2.20000000e-01  3.35862158e-09  4.57635506e-01  4.57635506e-01  4.57635506e-01  4.57635506e-01  4.57635506e-01  4.57635506e-01  1.59729410e-07  1.80681003e-07  2.20000000e-01 
 2.30000000e-01  3.35862158e-09  4.57635518e-01  4.57635518e-01  4.57635518e-01  4.57635518e-01  4.57635518e-01  4.57635518e-01  1.59729423e-07  1.80680695e-07  2.30000000e-01 
 2.40000000e-01  3.35862152e-09  4.57635487e-01  4.57635487e-01  4.57635487e-01  4.57635487e-01  4.57635487e-01  4.57635487e-01  1.59729379e-07  1.80680320e-07  2.40000000e-01 
 2.50000000e-01  3.35862158e-09  4.57635497e-01  4.57635497e-01  4.57635497e-01  4.57635497e-01  4.57635497e-01  4.57635497e-01  1.59729397e-07  1.80680257e-07  2.50000000e-01 
 2.60000000e-01  3.35862152e-09  4.57635512e-01  4.57635512e-01  4.57635512e-01  4.57635512e-01  4.57635512e-01  4.57635512e-01  1.59729424e-07  1.80680132e-07  2.60000000e-01 
 2.70000000e-01  3.35862158e-09  4.57635474e-01  4.57635474e-01  4.57635474e-01  4.57635474e-01  4.57635474e-01  4.57635474e-01  1.59729353e-07  1.80679752e-07  2.70000000e-01 
 2.80000000e-01  3.35862158e-09  4.57635493e-01  4.57635493e-01  4.57635493e-01  4.57635493e-01  4.57635493e-01  4.57635493e-01  1.59729404e-07  1.80679683e-07  2.80000000e-01 
 2.90000000e-01  3.35862158e-09  4.57635502e-01  4.57635502e-01  4.57635502e-01  4.57635502e-01  4.57635502e-01  4.57635502e-01  1.59729409e-07  1.80679400e-07  2.90000000e-01 
 3.00000000e-01  3.35862158e-09  4.57635481e-01  4.57635481e-01  4.57635481e-01  4.57635481e-01  4.57635481e-01  4.57635481e-01  1.59729388e-07  1.80679201e-07  3.00000000e-01 
 3.10000000e-01  3.35862158e-09  4.57635511e-01  4.57635511e-01  4.57635511e-01  4.57635511e-01  4.57635511e-01  4.57635511e-01  1.59729419e-07  1.80679208e-07  3.10000000e-01 
 3.20000000e-01  3.35862158e-09  4.57635501e-01  4.57635501e-01  4.57635501e-01  4.57635501e-01  4.57635501e-01  4.57635501e-01  1.59729404e-07  1.80678999e-07  3.20000000e-01 
 3.30000000e-01  3.35862158e-09  4.57635527e-01  4.57635527e-01  4.57635528e-01  4.57635528e-01  4.57635527e-01  4.57635527e-01  1.59729439e-07  1.80678988e-07  3.30000000e-01 
 3.40000000e-01  3.35862158e-09  4.57635497e-01  4.57635497e-01  4.57635497e-01  4.57635497e-01  4.57635497e-01  4.57635497e-01  1.59729402e-07  1.80678658e-07  3.40000000e-01 
 3.50000000e-01  3.35862158e-09  4.57635485e-01  4.57635485e-01  4.57635485e-01  4.57635485e-01  4.57635485e-01  4.57635485e-01  1.59729376e-07  1.80678402e-07  3.50000000e-01 
 3.60000000e-01  3.35862158e-09  4.57635507e-01  4.57635507e-01  4.57635507e-01  4.57635507e-01  4.57635507e-01  4.57635507e-01  1.59729420e-07  1.80678292e-07  3.60000000e-01 
 3.70000000e-01  3.35862158e-09  4.57635505e-01  4.57635505e-01  4.57635505e-01  4.57635505e-01  4.57635505e-01  4.57635505e-01  1.59729407e-07  1.80678132e-07  3.70000000e-01 
 3.80000000e-01  3.35862158e-09  4.57635518e-01  4.57635518e-01  4.57635518e-01  4.57635518e-01  4.57635518e-01  4.57635518e-01  1.59729429e-07  1.80677965e-07  3.80000000e-01 
 3.90000000e-01  3.35862152e-09  4.57635496e-01  4.57635496e-01  4.57635496e-01  4.57635496e-01  4.57635496e-01  4.57635496e-01  1.59729379e-07  1.80677823e-07  3.90000000e-01 
 4.00000000e-01  3.35862158e-09  4.57635498e-01  4.57635498e-01  4.57635498e-01  4.57635498e-01  4.57635498e-01  4.57635498e-01  1.59729398e-07  1.80677681e-07  4.00000000e-01 
 4.10000000e-01  3.35862158e-09  4.57635515e-01  4.57635514e-01  4.57635515e-01  4.57635515e-01  4.57635514e-01  4.57635514e-01  1.59729432e-07  1.80677603e-07  4.10000000e-01 
 4.20000000e-01  3.35862158e-09  4.57635491e-01  4.57635490e-01  4.57635491e-01  4.57635491e-01  4.57635490e-01  4.57635490e-01  1.59729382e-07  1.80677240e-07  4.20000000e-01 
 4.30000000e-01  3.35862158e-09  4.57635498e-01  4.57635498e-01  4.57635498e-01  4.57635498e-01  4.57635498e-01  4.57635498e-01  1.59729396e-07  1.80677169e-07  4.30000000e-01 
 4.40000000e-01  3.35862158e-09  4.57635519e-01  4.57635519e-01  4.57635519e-01  4.57635519e-01  4.57635519e-01  4.57635519e-01  1.59729434e-07  1.80677176e-07  4.40000000e-01 
 4.50000000e-01  3.35862158e-09  4.57635524e-01  4.57635524e-01  4.57635524e-01  4.57635524e-01  4.57635524e-01  4.57635524e-01  1.59729438e-07  1.80677112e-07  4.50000000e-01 
 4.60000000e-01  3.35862158e-09  4.57635506e-01  4.57635506e-01  4.57635506e-01  4.57635506e-01  4.57635506e-01  4.57635506e-01  1.59729405e-07  1.80676857e-07  4.60000000e-01 
 4.70000000e-01  3.35862152e-09  4.57635507e-01  4.57635507e-01  4.57635507e-01  4.57635507e-01  4.57635507e-01  4.57635507e-01  1.59729416e-07  1.80676601e-07  4.70000000e-01 
 4.80000000e-01  3.35862158e-09  4.57635479e-01  4.57635479e-01  4.57635479e-01  4.57635479e-01  4.57635479e-01  4.57635479e-01  1.59729359e-07  1.80676423e-07  4.80000000e-01 
 4.90000000e-01  3.35862158e-09  4.57635497e-01  4.57635497e-01  4.57635497e-01  4.57635497e-01  4.57635497e-01  4.57635497e-01  1.59729396e-07  1.80676349e-07  4.90000000e-01 
 5.00000000e-01  3.35862152e-09  4.57635480e-01  4.57635480e-01  4.57635480e-01  4.57635480e-01  4.57635480e-01  4.57635480e-01  1.59729378e-07  1.80676007e-07  5.00000000e-01 
 5.10000000e-01  3.35862158e-09  4.57635503e-01  4.57635503e-01  4.57635503e-01  4.57635503e-01  4.57635503e-01  4.57635503e-01  1.59729405e-07  1.80675997e-07  5.10000000e-01 
 5.20000000e-01  3.35862158e-09  4.57635466e-01  4.57635466e-01  4.57635466e-01  4.57635466e-01  4.57635466e-01  4.57635466e-01  1.59729365e-07  1.80675702e-07  5.20000000e-01 
 5.30000000e-01  3.35862152e-09  4.57635513e-01  4.57635513e-01  4.57635513e-01  4.57635513e-01  4.57635513e-01  4.57635513e-01  1.59729420e-07  1.80675713e-07  5.30000000e-01 
 5.40000000e-01  3.35862158e-09  4.57635492e-01  4.57635492e-01  4.57635492e-01  4.57635492e-01  4.57635492e-01  4.57635492e-01  1.59729388e-07  1.80675485e-07  5.40000000e-01 
 5.50000000e-01  3.35862158e-09  4.57635502e-01  4.57635502e-01  4.57635502e-01  4.57635502e-01  4.57635502e-01  4.57635502e-01  1.59729396e-07  1.80675421e-07  5.50000000e-01 
 5.60000000e-01  3.35862158e-09  4.57635493e-01  4.57635493e-01  4.57635493e-01  4.57635493e-01  4.57635493e-01  4.57635493e-01  1.59729379e-07  1.80675080e-07  5.60000000e-01 
 5.70000000e-01  3.35862158e-09  4.57635530e-01  4.57635530e-01  4.57635531e-01  4.57635531e-01  4.57635530e-01  4.57635530e-01  1.59729432e-07  1.80675173e-07  5.70000000e-01 
 5.80000000e-01  3.35862158e-09  4.57635504e-01  4.57635504e-01  4.57635504e-01  4.57635504e-01  4.57635504e-01  4.57635504e-01  1.59729402e-07  1.80674952e-07  5.80000000e-01 
 5.90000000e-01  3.35862158e-09  4.57635528e-01  4.57635528e-01  4.57635528e-01  4.57635528e-01  4.57635528e-01  4.57635528e-01  1.59729457e-07  1.80674895e-07  5.90000000e-01 
 6.00000000e-01  3.35862152e-09  4.57635513e-01  4.57635513e-01  4.57635513e-01  4.57635513e-01  4.57635513e-01  4.57635513e-01  1.59729409e-07  1.80674697e-07  6.00000000e-01 
 6.10000000e-01  3.35862152e-09  4.57635485e-01  4.57635485e-01  4.57635485e-01  4.57635485e-01  4.57635485e-01  4.57635485e-01  1.59729385e-07  1.80674455e-07  6.10000000e-01 
 6.20000000e-01  3.35862158e-09  4.57635481e-01  4.57635481e-01  4.57635482e-01  4.57635482e-01  4.57635481e-01  4.57635481e-01  1.59729386e-07  1.80674192e-07  6.20000000e-01 
 6.30000000e-01  3.35862158e-09  4.57635510e-01  4.57635510e-01  4.57635510e-01  4.57635510e-01  4.57635510e-01  4.57635510e-01  1.59729424e-07  1.80674242e-07  6.30000000e-01 
 6.40000000e-01  3.35862152e-09  4.57635520e-01  4.57635520e-01  4.57635521e-01  4.57635521e-01  4.57635520e-01  4.57635520e-01  1.59729448e-07  1.80674121e-07  6.40000000e-01 
 6.50000000e-01  3.35862152e-09  4.57635506e-01  4.57635506e-01  4.57635506e-01  4.57635506e-01  4.57635506e-01  4.57635506e-01  1.59729404e-07  1.80673958e-07  6.50000000e-01 
 6.60000000e-01  3.35862158e-09  4.57635515e-01  4.57635515e-01  4.57635515e-01  4.57635515e-01  4.57635515e-01  4.57635515e-01  1.59729408e-07  1.80673823e-07  6.60000000e-01 
 6.70000000e-01  3.35862158e-09  4.57635496e-01  4.57635496e-01  4.57635496e-01  4.57635496e-01  4.57635496e-01  4.57635496e-01  1.59729404e-07  1.80673645e-07  6.70000000e-01 
 6.80000000e-01  3.35862152e-09  4.57635498e-01  4.57635498e-01  4.57635498e-01  4.57635498e-01  4.57635498e-01  4.57635498e-01  1.59729400e-07  1.80673467e-07  6.80000000e-01 
 6.90000000e-01  3.35862152e-09  4.57635493e-01  4.57635492e-01  4.57635493e-01  4.57635493e-01  4.57635492e-01  4.57635492e-01  1.59729400e-07  1.80673254e-07  6.90000000e-01 
 7.00000000e-01  3.35862158e-09  4.57635532e-01  4.57635532e-01  4.57635532e-01  4.57635532e-01  4.57635532e-01  4.57635532e-01  1.59729454e-07  1.80673290e-07  7.00000000e-01 
 7.10000000e-01  3.35862158e-09  4.57635478e-01  4.57635478e-01  4.57635478e-01  4.57635478e-01  4.57635478e-01  4.57635478e-01  1.59729356e-07  1.80672934e-07  7.10000000e-01 
 7.20000000e-01  3.35862158e-09  4.57635496e-01  4.57635496e-01  4.57635496e-01  4.57635496e-01  4.57635496e-01  4.57635496e-01  1.59729402e-07  1.80672892e-07  7.20000000e-01 
 7.30000000e-01  3.35862152e-09  4.57635467e-01  4.57635467e-01  4.57635468e-01  4.57635468e-01  4.57635467e-01  4.57635467e-01  1.59729357e-07  1.80672608e-07  7.30000000e-01 
 7.40000000e-01  3.35862158e-09  4.57635498e-01  4.57635498e-01  4.57635498e-01  4.57635498e-01  4.57635498e-01  4.57635498e-01  1.59729400e-07  1.80672572e-07  7.40000000e-01 
 7.50000000e-01  3.35862158e-09  4.57635482e-01  4.57635482e-01  4.57635482e-01  4.57635482e-01  4.57635482e-01  4.57635482e-01  1.59729378e-07  1.80672345e-07  7.50000000e-01 
 7.60000000e-01  3.35862158e-09  4.57635513e-01  4.57635513e-01  4.57635513e-01  4.57635513e-01  4.57635513e-01  4.57635513e-01  1.59729423e-07  1.80672359e-07  7.60000000e-01 
 7.70000000e-01  3.35862158e-09  4.57635492e-01  4.57635492e-01  4.57635493e-01  4.57635493e-01  4.57635492e-01  4.57635492e-01  1.59729402e-07  1.80672046e-07  7.70000000e-01 
 7.80000000e-01  3.35862158e-09  4.57635490e-01  4.57635490e-01  4.57635490e-01  4.57635490e-01  4.57635490e-01  4.57635490e-01  1.59729403e-07  1.80671826e-07  7.80000000e-01 
 7.90000000e-01  3.35862158e-09  4.57635498e-01  4.57635498e-01  4.57635498e-01  4.57635498e-01  4.57635498e-01  4.57635498e-01  1.59729402e-07  1.80671776e-07  7.90000000e-01 
 8.00000000e-01  3.35862158e-09  4.57635489e-01  4.57635489e-01  4.57635489e-01  4.57635489e-01  4.57635489e-01  4.57635489e-01  1.59729386e-07  1.80671627e-07  8.00000000e-01 
 8.10000000e-01  3.35862158e-09  4.57635510e-01  4.57635510e-01  4.57635510e-01  4.57635510e-01  4.57635510e-01  4.57635510e-01  1.59729406e-07  1.80671449e-07  8.10000000e-01 
 8.20000000e-01  3.35862158e-09  4.57635485e-01  4.57635485e-01  4.57635485e-01  4.57635485e-01  4.57635485e-01  4.57635485e-01  1.59729375e-07  1.80671279e-07  8.20000000e-01 
 8.30000000e-01  3.35862158e-09  4.57635507e-01  4.57635507e-01  4.57635507e-01  4.57635507e-01  4.57635507e-01  4.57635507e-01  1.59729421e-07  1.80671236e-07  8.30000000e-01 
 8.40000000e-01  3.35862158e-09  4.57635500e-01  4.57635499e-01  4.57635500e-01  4.57635500e-01  4.57635499e-01  4.57635499e-01  1.59729391e-07  1.80670938e-07  8.40000000e-01 
 8.50000000e-01  3.35862158e-09  4.57635499e-01  4.57635499e-01  4.57635499e-01  4.57635499e-01  4.57635499e-01  4.57635499e-01  1.59729403e-07  1.80670753e-07  8.50000000e-01 
 8.60000000e-01  3.35862152e-09  4.57635490e-01  4.57635490e-01  4.57635490e-01  4.57635490e-01  4.57635490e-01  4.57635490e-01  1.59729398e-07  1.80670582e-07  8.60000000e-01 
 8.70000000e-01  3.35862158e-09  4.57635485e-01  4.57635485e-01  4.57635485e-01  4.57635485e-01  4.57635485e-01  4.57635485e-01  1.59729374e-07  1.80670490e-07  8.70000000e-01 
 8.80000000e-01  3.35862158e-09  4.57635497e-01  4.57635497e-01  4.57635497e-01  4.57635497e-01  4.57635497e-01  4.57635497e-01  1.59729406e-07  1.80670234e-07  8.80000000e-01 
 8.90000000e-01  3.35862158e-09  4.57635484e-01  4.57635484e-01  4.57635484e-01  4.57635484e-01  4.57635484e-01  4.57635484e-01  1.59729370e-07  1.80670057e-07  8.90000000e-01 
 9.00000000e-01  3.35862152e-09  4.57635493e-01  4.57635493e-01  4.57635493e-01  4.57635493e-01  4.57635493e-01  4.57635493e-01  1.59729397e-07  1.80669943e-07  9.00000000e-01 
 9.10000000e-01  3.35862152e-09  4.57635477e-01  4.57635477e-01  4.57635477e-01  4.57635477e-01  4.57635477e-01  4.57635477e-01  1.59729372e-07  1.80669588e-07  9.10000000e-01 
 9.20000000e-01  3.35862158e-09  4.57635471e-01  4.57635471e-01  4.57635471e-01  4.57635471e-01  4.57635471e-01  4.57635471e-01  1.59729364e-07  1.80669552e-07  9.20000000e-01 
 9.30000000e-01  3.35862158e-09  4.57635501e-01  4.57635500e-01  4.57635501e-01  4.57635501e-01  4.57635500e-01  4.57635500e-01  1.59729412e-07  1.80669389e-07  9.30000000e-01 
 9.40000000e-01  3.35862158e-09  4.57635491e-01  4.57635491e-01  4.57635491e-01  4.57635491e-01  4.57635491e-01  4.57635491e-01  1.59729387e-07  1.80669197e-07  9.40000000e-01 
 9.50000000e-01  3.35862158e-09  4.57635510e-01  4.57635510e-01  4.57635510e-01  4.57635510e-01  4.57635510e-01  4.57635510e-01  1.59729418e-07  1.80669126e-07  9.50000000e-01 
 9.60000000e-01  3.35862158e-09  4.57635516e-01  4.57635516e-01  4.57635516e-01  4.57635516e-01  4.57635516e-01  4.57635516e-01  1.59729421e-07  1.80668977e-07  9.60000000e-01 
 9.70000000e-01  3.35862158e-09  4.57635497e-01  4.57635497e-01  4.57635497e-01  4.57635497e-01  4.57635497e-01  4.57635497e-01  1.59729402e-07  1.80668749e-07  9.70000000e-01 
 9.80000000e-01  3.35862152e-09  4.57635493e-01  4.57635493e-01  4.57635493e-01  4.57635493e-01  4.57635493e-01  4.57635493e-01  1.59729385e-07  1.80668671e-07  9.80000000e-01 
 9.90000000e-01  3.35862158e-09  4.57635504e-01  4.57635504e-01  4.57635504e-01  4.57635504e-01  4.57635504e-01  4.57635504e-01  1.59729413e-07  1.80668387e-07  9.90000000e-01 
 1.00000000e+00  3.35862158e-09  4.57635474e-01  4.57635474e-01  4.57635474e-01  4.57635474e-01  4.57635474e-01  4.57635474e-01  1.59729353e-07  1.80668067e-07  1.00000000e+00 
 1.01000000e+00  3.35862158e-09  4.57635507e-01  4.57635507e-01  4.57635507e-01  4.57635507e-01  4.57635507e-01  4.57635507e-01  1.59729422e-07  1.80668039e-07  1.01000000e+00 
 1.02000000e+00  3.35862158e-09  4.57635504e-01  4.57635504e-01  4.57635504e-01  4.57635504e-01  4.57635504e-01  4.57635504e-01  1.59729417e-07  1.80667932e-07  1.02000000e+00 
 1.03000000e+00  3.35862158e-09  4.57635496e-01  4.57635496e-01  4.57635496e-01  4.57635496e-01  4.57635496e-01  4.57635496e-01  1.59729404e-07  1.80667655e-07  1.03000000e+00 
 1.04000000e+00  3.35862158e-09  4.57635501e-01  4.57635501e-01  4.57635501e-01  4.57635501e-01  4.57635501e-01  4.57635501e-01  1.59729417e-07  1.80667492e-07  1.04000000e+00 
 1.05000000e+00  3.35862158e-09  4.57635513e-01  4.57635513e-01  4.57635513e-01  4.57635513e-01  4.57635513e-01  4.57635513e-01  1.59729429e-07  1.80667300e-07  1.05000000e+00 
 1.06000000e+00  3.35862152e-09  4.57635480e-01  4.57635480e-01  4.57635480e-01  4.57635480e-01  4.57635480e-01  4.57635480e-01  1.59729369e-07  1.80666973e-07  1.06000000e+00 
 1.07000000e+00  3.35862158e-09  4.57635487e-01  4.57635487e-01  4.57635487e-01  4.57635487e-01  4.57635487e-01  4.57635487e-01  1.59729385e-07  1.80666831e-07  1.07000000e+00 
 1.08000000e+00  3.35862158e-09  4.57635501e-01  4.57635501e-01  4.57635501e-01  4.57635501e-01  4.57635501e-01  4.57635501e-01  1.59729409e-07  1.80666710e-07  1.08000000e+00 
 1.09000000e+00  3.35862158e-09  4.57635511e-01  4.57635511e-01  4.57635511e-01  4.57635511e-01  4.57635511e-01  4.57635511e-01  1.59729429e-07  1.80666497e-07  1.09000000e+00 
 1.10000000e+00  3.35862158e-09  4.57635491e-01  4.57635490e-01  4.57635491e-01  4.57635491e-01  4.57635490e-01  4.57635490e-01  1.59729390e-07  1.80666191e-07  1.10000000e+00 
