 v-sweep         v(b0)           v(b1)           v(b2)           v(b3)           v(b4)           v(b5)           v(b6)           i(vbias)        i(viout)        v(vout)        
 0.00000000e+00  4.56592970e-01  3.26149975e-09  3.46032602e-09  4.56592970e-01  4.56592970e-01  4.56592970e-01  3.18183047e-09  1.56792495e-07  8.75399691e-08  0.00000000e+00 
 1.00000000e-02  4.56592961e-01  3.26149978e-09  3.46032605e-09  4.56592961e-01  4.56592961e-01  4.56592961e-01  3.18183045e-09  1.56792467e-07  8.75395342e-08  1.00000000e-02 
 2.00000000e-02  4.56592968e-01  3.26149977e-09  3.46032605e-09  4.56592968e-01  4.56592968e-01  4.56592968e-01  3.18183050e-09  1.56792495e-07  8.75392103e-08  2.00000000e-02 
 3.00000000e-02  4.56592987e-01  3.26149972e-09  3.46032605e-09  4.56592986e-01  4.56592986e-01  4.56592987e-01  3.18183045e-09  1.56792508e-07  8.75388513e-08  3.00000000e-02 
 4.00000000e-02  4.56592977e-01  3.26149974e-09  3.46032605e-09  4.56592977e-01  4.56592977e-01  4.56592977e-01  3.18183050e-09  1.56792505e-07  8.75384942e-08  4.00000000e-02 
 5.00000000e-02  4.56592978e-01  3.26149979e-09  3.46032605e-09  4.56592978e-01  4.56592978e-01  4.56592978e-01  3.18183045e-09  1.56792506e-07  8.75380781e-08  5.00000000e-02 
 6.00000000e-02  4.56592973e-01  3.26149972e-09  3.46032600e-09  4.56592973e-01  4.56592973e-01  4.56592973e-01  3.18183045e-09  1.56792513e-07  8.75377832e-08  6.00000000e-02 
 7.00000000e-02  4.56592970e-01  3.26149973e-09  3.46032605e-09  4.56592970e-01  4.56592970e-01  4.56592970e-01  3.18183050e-09  1.56792486e-07  8.75374133e-08  7.00000000e-02 
 8.00000000e-02  4.56592977e-01  3.26149979e-09  3.46032600e-09  4.56592977e-01  4.56592977e-01  4.56592977e-01  3.18183050e-09  1.56792500e-07  8.75371908e-08  8.00000000e-02 
 9.00000000e-02  4.56592985e-01  3.26149978e-09  3.46032600e-09  4.56592985e-01  4.56592985e-01  4.56592985e-01  3.18183050e-09  1.56792523e-07  8.75369173e-08  9.00000000e-02 
 1.00000000e-01  4.56592982e-01  3.26149972e-09  3.46032600e-09  4.56592982e-01  4.56592982e-01  4.56592982e-01  3.18183045e-09  1.56792526e-07  8.75367041e-08  1.00000000e-01 
 1.10000000e-01  4.56593005e-01  3.26149974e-09  3.46032606e-09  4.56593005e-01  4.56593005e-01  4.56593005e-01  3.18183050e-09  1.56792548e-07  8.75364314e-08  1.10000000e-01 
 1.20000000e-01  4.56592994e-01  3.26149973e-09  3.46032600e-09  4.56592994e-01  4.56592994e-01  4.56592994e-01  3.18183050e-09  1.56792525e-07  8.75361614e-08  1.20000000e-01 
 1.30000000e-01  4.56592996e-01  3.26149973e-09  3.46032606e-09  4.56592996e-01  4.56592996e-01  4.56592996e-01  3.18183045e-09  1.56792543e-07  8.75360273e-08  1.30000000e-01 
 1.40000000e-01  4.56593013e-01  3.26149973e-09  3.46032600e-09  4.56593013e-01  4.56593013e-01  4.56593013e-01  3.18183045e-09  1.56792574e-07  8.75358337e-08  1.40000000e-01 
 1.50000000e-01  4.56593000e-01  3.26149973e-09  3.46032606e-09  4.56593000e-01  4.56593000e-01  4.56593000e-01  3.18183050e-09  1.56792549e-07  8.75354793e-08  1.50000000e-01 
 1.60000000e-01  4.56592984e-01  3.26149973e-09  3.46032600e-09  4.56592984e-01  4.56592984e-01  4.56592984e-01  3.18183045e-09  1.56792513e-07  8.75352679e-08  1.60000000e-01 
 1.70000000e-01  4.56592971e-01  3.26149973e-09  3.46032600e-09  4.56592971e-01  4.56592971e-01  4.56592971e-01  3.18183050e-09  1.56792491e-07  8.75350565e-08  1.70000000e-01 
 1.80000000e-01  4.56592981e-01  3.26149973e-09  3.46032605e-09  4.56592981e-01  4.56592981e-01  4.56592981e-01  3.18183045e-09  1.56792505e-07  8.75349411e-08  1.80000000e-01 
 1.90000000e-01  4.56592998e-01  3.26149973e-09  3.46032606e-09  4.56592998e-01  4.56592998e-01  4.56592998e-01  3.18183045e-09  1.56792544e-07  8.75348540e-08  1.90000000e-01 
 2.00000000e-01  4.56592969e-01  3.26149973e-09  3.46032605e-09  4.56592969e-01  4.56592969e-01  4.56592969e-01  3.18183050e-09  1.56792496e-07  8.75345059e-08  2.00000000e-01 
 2.10000000e-01  4.56592997e-01  3.26149973e-09  3.46032606e-09  4.56592997e-01  4.56592997e-01  4.56592997e-01  3.18183050e-09  1.56792549e-07  8.75344099e-08  2.10000000e-01 
 2.20000000e-01  4.56592989e-01  3.26149973e-09  3.46032600e-09  4.56592989e-01  4.56592989e-01  4.56592989e-01  3.18183045e-09  1.56792527e-07  8.75342323e-08  2.20000000e-01 
 2.30000000e-01  4.56592996e-01  3.26149973e-09  3.46032606e-09  4.56592996e-01  4.56592996e-01  4.56592996e-01  3.18183050e-09  1.56792537e-07  8.75340618e-08  2.30000000e-01 
 2.40000000e-01  4.56592972e-01  3.26149979e-09  3.46032605e-09  4.56592972e-01  4.56592972e-01  4.56592972e-01  3.18183045e-09  1.56792496e-07  8.75338593e-08  2.40000000e-01 
 2.50000000e-01  4.56592970e-01  3.26149972e-09  3.46032600e-09  4.56592970e-01  4.56592970e-01  4.56592970e-01  3.18183045e-09  1.56792496e-07  8.75337474e-08  2.50000000e-01 
 2.60000000e-01  4.56592973e-01  3.26149974e-09  3.46032600e-09  4.56592973e-01  4.56592973e-01  4.56592973e-01  3.18183050e-09  1.56792500e-07  8.75335928e-08  2.60000000e-01 
 2.70000000e-01  4.56592975e-01  3.26149973e-09  3.46032600e-09  4.56592975e-01  4.56592975e-01  4.56592975e-01  3.18183050e-09  1.56792503e-07  8.75335111e-08  2.70000000e-01 
 2.80000000e-01  4.56592994e-01  3.26149979e-09  3.46032606e-09  4.56592994e-01  4.56592994e-01  4.56592994e-01  3.18183045e-09  1.56792537e-07  8.75335040e-08  2.80000000e-01 
 2.90000000e-01  4.56592987e-01  3.26149978e-09  3.46032600e-09  4.56592987e-01  4.56592987e-01  4.56592987e-01  3.18183045e-09  1.56792521e-07  8.75332269e-08  2.90000000e-01 
 3.00000000e-01  4.56592969e-01  3.26149972e-09  3.46032605e-09  4.56592969e-01  4.56592969e-01  4.56592969e-01  3.18183045e-09  1.56792493e-07  8.75331168e-08  3.00000000e-01 
 3.10000000e-01  4.56592974e-01  3.26149974e-09  3.46032600e-09  4.56592974e-01  4.56592974e-01  4.56592974e-01  3.18183050e-09  1.56792505e-07  8.75330635e-08  3.10000000e-01 
 3.20000000e-01  4.56592980e-01  3.26149973e-09  3.46032600e-09  4.56592980e-01  4.56592980e-01  4.56592980e-01  3.18183050e-09  1.56792523e-07  8.75327864e-08  3.20000000e-01 
 3.30000000e-01  4.56592979e-01  3.26149973e-09  3.46032605e-09  4.56592979e-01  4.56592979e-01  4.56592979e-01  3.18183050e-09  1.56792514e-07  8.75328645e-08  3.30000000e-01 
 3.40000000e-01  4.56592979e-01  3.26149979e-09  3.46032600e-09  4.56592979e-01  4.56592979e-01  4.56592979e-01  3.18183050e-09  1.56792531e-07  8.75327011e-08  3.40000000e-01 
 3.50000000e-01  4.56592974e-01  3.26149977e-09  3.46032605e-09  4.56592974e-01  4.56592974e-01  4.56592974e-01  3.18183045e-09  1.56792518e-07  8.75326052e-08  3.50000000e-01 
 3.60000000e-01  4.56592979e-01  3.26149978e-09  3.46032605e-09  4.56592979e-01  4.56592979e-01  4.56592979e-01  3.18183050e-09  1.56792499e-07  8.75325803e-08  3.60000000e-01 
 3.70000000e-01  4.56592978e-01  3.26149972e-09  3.46032605e-09  4.56592978e-01  4.56592978e-01  4.56592978e-01  3.18183050e-09  1.56792511e-07  8.75325021e-08  3.70000000e-01 
 3.80000000e-01  4.56592977e-01  3.26149974e-09  3.46032600e-09  4.56592977e-01  4.56592977e-01  4.56592977e-01  3.18183045e-09  1.56792514e-07  8.75323742e-08  3.80000000e-01 
 3.90000000e-01  4.56592982e-01  3.26149973e-09  3.46032600e-09  4.56592982e-01  4.56592982e-01  4.56592982e-01  3.18183050e-09  1.56792519e-07  8.75323174e-08  3.90000000e-01 
 4.00000000e-01  4.56592985e-01  3.26149973e-09  3.46032600e-09  4.56592985e-01  4.56592985e-01  4.56592985e-01  3.18183045e-09  1.56792529e-07  8.75322392e-08  4.00000000e-01 
 4.10000000e-01  4.56593001e-01  3.26149979e-09  3.46032606e-09  4.56593001e-01  4.56593001e-01  4.56593001e-01  3.18183050e-09  1.56792536e-07  8.75321540e-08  4.10000000e-01 
 4.20000000e-01  4.56592987e-01  3.26149978e-09  3.46032600e-09  4.56592987e-01  4.56592987e-01  4.56592987e-01  3.18183050e-09  1.56792529e-07  8.75319657e-08  4.20000000e-01 
 4.30000000e-01  4.56592996e-01  3.26149973e-09  3.46032606e-09  4.56592996e-01  4.56592996e-01  4.56592996e-01  3.18183045e-09  1.56792527e-07  8.75320261e-08  4.30000000e-01 
 4.40000000e-01  4.56592975e-01  3.26149974e-09  3.46032605e-09  4.56592975e-01  4.56592975e-01  4.56592975e-01  3.18183050e-09  1.56792513e-07  8.75317916e-08  4.40000000e-01 
 4.50000000e-01  4.56592968e-01  3.26149973e-09  3.46032605e-09  4.56592968e-01  4.56592968e-01  4.56592968e-01  3.18183045e-09  1.56792492e-07  8.75316957e-08  4.50000000e-01 
 4.60000000e-01  4.56592972e-01  3.26149973e-09  3.46032600e-09  4.56592972e-01  4.56592972e-01  4.56592972e-01  3.18183050e-09  1.56792502e-07  8.75316495e-08  4.60000000e-01 
 4.70000000e-01  4.56592982e-01  3.26149973e-09  3.46032605e-09  4.56592982e-01  4.56592982e-01  4.56592982e-01  3.18183050e-09  1.56792519e-07  8.75316637e-08  4.70000000e-01 
 4.80000000e-01  4.56592968e-01  3.26149973e-09  3.46032600e-09  4.56592968e-01  4.56592968e-01  4.56592968e-01  3.18183045e-09  1.56792503e-07  8.75315642e-08  4.80000000e-01 
 4.90000000e-01  4.56592974e-01  3.26149973e-09  3.46032605e-09  4.56592974e-01  4.56592974e-01  4.56592974e-01  3.18183050e-09  1.56792487e-07  8.75314541e-08  4.90000000e-01 
 5.00000000e-01  4.56592992e-01  3.26149973e-09  3.46032606e-09  4.56592991e-01  4.56592991e-01  4.56592992e-01  3.18183045e-09  1.56792534e-07  8.75314115e-08  5.00000000e-01 
 5.10000000e-01  4.56592991e-01  3.26149973e-09  3.46032600e-09  4.56592991e-01  4.56592991e-01  4.56592991e-01  3.18183050e-09  1.56792522e-07  8.75312764e-08  5.10000000e-01 
 5.20000000e-01  4.56592964e-01  3.26149973e-09  3.46032605e-09  4.56592964e-01  4.56592964e-01  4.56592964e-01  3.18183050e-09  1.56792496e-07  8.75311983e-08  5.20000000e-01 
 5.30000000e-01  4.56592956e-01  3.26149973e-09  3.46032600e-09  4.56592956e-01  4.56592956e-01  4.56592956e-01  3.18183045e-09  1.56792482e-07  8.75311557e-08  5.30000000e-01 
 5.40000000e-01  4.56592985e-01  3.26149973e-09  3.46032600e-09  4.56592985e-01  4.56592985e-01  4.56592985e-01  3.18183045e-09  1.56792525e-07  8.75310064e-08  5.40000000e-01 
 5.50000000e-01  4.56592991e-01  3.26149973e-09  3.46032606e-09  4.56592991e-01  4.56592991e-01  4.56592991e-01  3.18183050e-09  1.56792542e-07  8.75310633e-08  5.50000000e-01 
 5.60000000e-01  4.56592976e-01  3.26149973e-09  3.46032600e-09  4.56592975e-01  4.56592975e-01  4.56592976e-01  3.18183045e-09  1.56792511e-07  8.75308537e-08  5.60000000e-01 
 5.70000000e-01  4.56592970e-01  3.26149973e-09  3.46032600e-09  4.56592970e-01  4.56592970e-01  4.56592970e-01  3.18183050e-09  1.56792489e-07  8.75308679e-08  5.70000000e-01 
 5.80000000e-01  4.56592974e-01  3.26149973e-09  3.46032600e-09  4.56592974e-01  4.56592974e-01  4.56592974e-01  3.18183045e-09  1.56792491e-07  8.75307862e-08  5.80000000e-01 
 5.90000000e-01  4.56592993e-01  3.26149973e-09  3.46032600e-09  4.56592993e-01  4.56592993e-01  4.56592993e-01  3.18183050e-09  1.56792534e-07  8.75308146e-08  5.90000000e-01 
 6.00000000e-01  4.56592994e-01  3.26149973e-09  3.46032606e-09  4.56592994e-01  4.56592994e-01  4.56592994e-01  3.18183050e-09  1.56792538e-07  8.75307506e-08  6.00000000e-01 
 6.10000000e-01  4.56592971e-01  3.26149973e-09  3.46032600e-09  4.56592971e-01  4.56592971e-01  4.56592971e-01  3.18183050e-09  1.56792501e-07  8.75305872e-08  6.10000000e-01 
 6.20000000e-01  4.56592988e-01  3.26149979e-09  3.46032605e-09  4.56592988e-01  4.56592988e-01  4.56592988e-01  3.18183045e-09  1.56792514e-07  8.75306085e-08  6.20000000e-01 
 6.30000000e-01  4.56592965e-01  3.26149977e-09  3.46032600e-09  4.56592965e-01  4.56592965e-01  4.56592965e-01  3.18183045e-09  1.56792499e-07  8.75304309e-08  6.30000000e-01 
 6.40000000e-01  4.56592979e-01  3.26149972e-09  3.46032600e-09  4.56592979e-01  4.56592979e-01  4.56592979e-01  3.18183050e-09  1.56792516e-07  8.75302177e-08  6.40000000e-01 
 6.50000000e-01  4.56592990e-01  3.26149974e-09  3.46032605e-09  4.56592990e-01  4.56592990e-01  4.56592990e-01  3.18183045e-09  1.56792523e-07  8.75304309e-08  6.50000000e-01 
 6.60000000e-01  4.56592954e-01  3.26149973e-09  3.46032605e-09  4.56592954e-01  4.56592954e-01  4.56592954e-01  3.18183050e-09  1.56792479e-07  8.75302106e-08  6.60000000e-01 
 6.70000000e-01  4.56592981e-01  3.26149973e-09  3.46032600e-09  4.56592981e-01  4.56592981e-01  4.56592981e-01  3.18183045e-09  1.56792518e-07  8.75301183e-08  6.70000000e-01 
 6.80000000e-01  4.56592994e-01  3.26149979e-09  3.46032606e-09  4.56592994e-01  4.56592994e-01  4.56592994e-01  3.18183050e-09  1.56792528e-07  8.75302035e-08  6.80000000e-01 
 6.90000000e-01  4.56593009e-01  3.26149978e-09  3.46032600e-09  4.56593009e-01  4.56593009e-01  4.56593009e-01  3.18183045e-09  1.56792557e-07  8.75301112e-08  6.90000000e-01 
 7.00000000e-01  4.56592996e-01  3.26149973e-09  3.46032600e-09  4.56592996e-01  4.56592996e-01  4.56592996e-01  3.18183045e-09  1.56792539e-07  8.75299975e-08  7.00000000e-01 
 7.10000000e-01  4.56592974e-01  3.26149974e-09  3.46032605e-09  4.56592974e-01  4.56592974e-01  4.56592974e-01  3.18183045e-09  1.56792527e-07  8.75299477e-08  7.10000000e-01 
 7.20000000e-01  4.56593003e-01  3.26149973e-09  3.46032606e-09  4.56593003e-01  4.56593003e-01  4.56593003e-01  3.18183050e-09  1.56792539e-07  8.75298554e-08  7.20000000e-01 
 7.30000000e-01  4.56592988e-01  3.26149973e-09  3.46032605e-09  4.56592988e-01  4.56592988e-01  4.56592988e-01  3.18183050e-09  1.56792533e-07  8.75297204e-08  7.30000000e-01 
 7.40000000e-01  4.56592981e-01  3.26149979e-09  3.46032605e-09  4.56592981e-01  4.56592981e-01  4.56592981e-01  3.18183045e-09  1.56792510e-07  8.75296493e-08  7.40000000e-01 
 7.50000000e-01  4.56592992e-01  3.26149972e-09  3.46032606e-09  4.56592992e-01  4.56592992e-01  4.56592992e-01  3.18183045e-09  1.56792521e-07  8.75296209e-08  7.50000000e-01 
 7.60000000e-01  4.56592996e-01  3.26149974e-09  3.46032606e-09  4.56592996e-01  4.56592996e-01  4.56592996e-01  3.18183045e-09  1.56792547e-07  8.75295640e-08  7.60000000e-01 
 7.70000000e-01  4.56592954e-01  3.26149973e-09  3.46032600e-09  4.56592954e-01  4.56592954e-01  4.56592954e-01  3.18183050e-09  1.56792471e-07  8.75293438e-08  7.70000000e-01 
 7.80000000e-01  4.56592985e-01  3.26149973e-09  3.46032600e-09  4.56592985e-01  4.56592985e-01  4.56592985e-01  3.18183045e-09  1.56792518e-07  8.75293793e-08  7.80000000e-01 
 7.90000000e-01  4.56592980e-01  3.26149973e-09  3.46032600e-09  4.56592980e-01  4.56592980e-01  4.56592980e-01  3.18183050e-09  1.56792512e-07  8.75291661e-08  7.90000000e-01 
 8.00000000e-01  4.56592988e-01  3.26149973e-09  3.46032600e-09  4.56592988e-01  4.56592988e-01  4.56592988e-01  3.18183050e-09  1.56792532e-07  8.75292940e-08  8.00000000e-01 
 8.10000000e-01  4.56592990e-01  3.26149973e-09  3.46032605e-09  4.56592989e-01  4.56592989e-01  4.56592989e-01  3.18183045e-09  1.56792537e-07  8.75292798e-08  8.10000000e-01 
 8.20000000e-01  4.56592997e-01  3.26149973e-09  3.46032600e-09  4.56592997e-01  4.56592997e-01  4.56592997e-01  3.18183050e-09  1.56792541e-07  8.75291590e-08  8.20000000e-01 
 8.30000000e-01  4.56592975e-01  3.26149973e-09  3.46032605e-09  4.56592975e-01  4.56592975e-01  4.56592975e-01  3.18183045e-09  1.56792518e-07  8.75290169e-08  8.30000000e-01 
 8.40000000e-01  4.56592994e-01  3.26149973e-09  3.46032606e-09  4.56592994e-01  4.56592994e-01  4.56592994e-01  3.18183050e-09  1.56792526e-07  8.75289317e-08  8.40000000e-01 
 8.50000000e-01  4.56592970e-01  3.26149973e-09  3.46032600e-09  4.56592970e-01  4.56592970e-01  4.56592970e-01  3.18183050e-09  1.56792502e-07  8.75288464e-08  8.50000000e-01 
 8.60000000e-01  4.56592972e-01  3.26149973e-09  3.46032600e-09  4.56592972e-01  4.56592972e-01  4.56592972e-01  3.18183045e-09  1.56792488e-07  8.75288748e-08  8.60000000e-01 
 8.70000000e-01  4.56592975e-01  3.26149973e-09  3.46032600e-09  4.56592975e-01  4.56592975e-01  4.56592975e-01  3.18183050e-09  1.56792502e-07  8.75287540e-08  8.70000000e-01 
 8.80000000e-01  4.56592967e-01  3.26149973e-09  3.46032605e-09  4.56592967e-01  4.56592967e-01  4.56592967e-01  3.18183050e-09  1.56792478e-07  8.75286332e-08  8.80000000e-01 
 8.90000000e-01  4.56592964e-01  3.26149978e-09  3.46032600e-09  4.56592964e-01  4.56592964e-01  4.56592964e-01  3.18183045e-09  1.56792475e-07  8.75285551e-08  8.90000000e-01 
 9.00000000e-01  4.56592975e-01  3.26149977e-09  3.46032605e-09  4.56592974e-01  4.56592974e-01  4.56592974e-01  3.18183045e-09  1.56792496e-07  8.75285409e-08  9.00000000e-01 
 9.10000000e-01  4.56592989e-01  3.26149973e-09  3.46032605e-09  4.56592989e-01  4.56592989e-01  4.56592989e-01  3.18183050e-09  1.56792516e-07  8.75285338e-08  9.10000000e-01 
 9.20000000e-01  4.56592981e-01  3.26149974e-09  3.46032605e-09  4.56592981e-01  4.56592981e-01  4.56592981e-01  3.18183050e-09  1.56792518e-07  8.75283490e-08  9.20000000e-01 
 9.30000000e-01  4.56592990e-01  3.26149973e-09  3.46032605e-09  4.56592990e-01  4.56592990e-01  4.56592990e-01  3.18183045e-09  1.56792505e-07  8.75283064e-08  9.30000000e-01 
 9.40000000e-01  4.56592948e-01  3.26149973e-09  3.46032599e-09  4.56592948e-01  4.56592948e-01  4.56592948e-01  3.18183045e-09  1.56792475e-07  8.75282069e-08  9.40000000e-01 
 9.50000000e-01  4.56592989e-01  3.26149973e-09  3.46032600e-09  4.56592989e-01  4.56592989e-01  4.56592989e-01  3.18183045e-09  1.56792507e-07  8.75281003e-08  9.50000000e-01 
 9.60000000e-01  4.56592952e-01  3.26149973e-09  3.46032605e-09  4.56592952e-01  4.56592952e-01  4.56592952e-01  3.18183045e-09  1.56792476e-07  8.75279582e-08  9.60000000e-01 
 9.70000000e-01  4.56592973e-01  3.26149973e-09  3.46032600e-09  4.56592973e-01  4.56592973e-01  4.56592973e-01  3.18183050e-09  1.56792510e-07  8.75279724e-08  9.70000000e-01 
 9.80000000e-01  4.56592970e-01  3.26149973e-09  3.46032605e-09  4.56592970e-01  4.56592970e-01  4.56592970e-01  3.18183045e-09  1.56792506e-07  8.75279511e-08  9.80000000e-01 
 9.90000000e-01  4.56592975e-01  3.26149973e-09  3.46032600e-09  4.56592975e-01  4.56592975e-01  4.56592975e-01  3.18183045e-09  1.56792501e-07  8.75278303e-08  9.90000000e-01 
 1.00000000e+00  4.56592968e-01  3.26149973e-09  3.46032605e-09  4.56592968e-01  4.56592968e-01  4.56592968e-01  3.18183050e-09  1.56792505e-07  8.75277237e-08  1.00000000e+00 
 1.01000000e+00  4.56592986e-01  3.26149973e-09  3.46032605e-09  4.56592986e-01  4.56592986e-01  4.56592986e-01  3.18183050e-09  1.56792517e-07  8.75277948e-08  1.01000000e+00 
 1.02000000e+00  4.56592975e-01  3.26149973e-09  3.46032605e-09  4.56592975e-01  4.56592975e-01  4.56592975e-01  3.18183050e-09  1.56792512e-07  8.75276527e-08  1.02000000e+00 
 1.03000000e+00  4.56592982e-01  3.26149979e-09  3.46032605e-09  4.56592982e-01  4.56592982e-01  4.56592982e-01  3.18183045e-09  1.56792503e-07  8.75274324e-08  1.03000000e+00 
 1.04000000e+00  4.56593006e-01  3.26149978e-09  3.46032600e-09  4.56593006e-01  4.56593006e-01  4.56593006e-01  3.18183045e-09  1.56792569e-07  8.75275319e-08  1.04000000e+00 
 1.05000000e+00  4.56593006e-01  3.26149973e-09  3.46032606e-09  4.56593006e-01  4.56593006e-01  4.56593006e-01  3.18183045e-09  1.56792553e-07  8.75274395e-08  1.05000000e+00 
 1.06000000e+00  4.56592990e-01  3.26149974e-09  3.46032600e-09  4.56592990e-01  4.56592990e-01  4.56592990e-01  3.18183050e-09  1.56792542e-07  8.75273898e-08  1.06000000e+00 
 1.07000000e+00  4.56592975e-01  3.26149973e-09  3.46032605e-09  4.56592975e-01  4.56592975e-01  4.56592975e-01  3.18183050e-09  1.56792510e-07  8.75272903e-08  1.07000000e+00 
 1.08000000e+00  4.56592980e-01  3.26149973e-09  3.46032600e-09  4.56592980e-01  4.56592980e-01  4.56592980e-01  3.18183045e-09  1.56792501e-07  8.75271837e-08  1.08000000e+00 
 1.09000000e+00  4.56592992e-01  3.26149973e-09  3.46032600e-09  4.56592992e-01  4.56592992e-01  4.56592992e-01  3.18183045e-09  1.56792538e-07  8.75270061e-08  1.09000000e+00 
 1.10000000e+00  4.56592980e-01  3.26149973e-09  3.46032605e-09  4.56592980e-01  4.56592980e-01  4.56592980e-01  3.18183045e-09  1.56792520e-07  8.75270274e-08  1.10000000e+00 
