 v-sweep         v(b0)           v(b1)           v(b2)           v(b3)           v(b4)           v(b5)           v(b6)           i(vbias)        i(viout)        v(vout)        
 0.00000000e+00  4.59806210e-01  3.34486614e-09  3.37304308e-09  3.16121766e-09  3.25101770e-09  3.25930786e-09  3.30244670e-09  1.60613496e-07  1.69099640e-09  0.00000000e+00 
 1.00000000e-02  4.59806207e-01  3.34486618e-09  3.37304306e-09  3.16121763e-09  3.25101769e-09  3.25930784e-09  3.30244668e-09  1.60613499e-07  1.69054648e-09  1.00000000e-02 
 2.00000000e-02  4.59806222e-01  3.34486617e-09  3.37304306e-09  3.16121765e-09  3.25101769e-09  3.25930790e-09  3.30244668e-09  1.60613521e-07  1.69010606e-09  2.00000000e-02 
 3.00000000e-02  4.59806201e-01  3.34486613e-09  3.37304306e-09  3.16121763e-09  3.25101769e-09  3.25930790e-09  3.30244668e-09  1.60613481e-07  1.68968461e-09  3.00000000e-02 
 4.00000000e-02  4.59806198e-01  3.34486613e-09  3.37304306e-09  3.16121770e-09  3.25101774e-09  3.25930784e-09  3.30244668e-09  1.60613483e-07  1.68927716e-09  4.00000000e-02 
 5.00000000e-02  4.59806213e-01  3.34486613e-09  3.37304306e-09  3.16121763e-09  3.25101769e-09  3.25930784e-09  3.30244668e-09  1.60613501e-07  1.68890057e-09  5.00000000e-02 
 6.00000000e-02  4.59806207e-01  3.34486613e-09  3.37304306e-09  3.16121765e-09  3.25101769e-09  3.25930784e-09  3.30244668e-09  1.60613510e-07  1.68845338e-09  6.00000000e-02 
 7.00000000e-02  4.59806217e-01  3.34486618e-09  3.37304306e-09  3.16121768e-09  3.25101769e-09  3.25930784e-09  3.30244668e-09  1.60613522e-07  1.68817182e-09  7.00000000e-02 
 8.00000000e-02  4.59806219e-01  3.34486617e-09  3.37304306e-09  3.16121769e-09  3.25101769e-09  3.25930784e-09  3.30244662e-09  1.60613515e-07  1.68777969e-09  8.00000000e-02 
 9.00000000e-02  4.59806206e-01  3.34486613e-09  3.37304306e-09  3.16121763e-09  3.25101774e-09  3.25930790e-09  3.30244668e-09  1.60613481e-07  1.68749281e-09  9.00000000e-02 
 1.00000000e-01  4.59806216e-01  3.34486613e-09  3.37304306e-09  3.16121770e-09  3.25101769e-09  3.25930790e-09  3.30244662e-09  1.60613498e-07  1.68718817e-09  1.00000000e-01 
 1.10000000e-01  4.59806203e-01  3.34486613e-09  3.37304306e-09  3.16121763e-09  3.25101774e-09  3.25930784e-09  3.30244668e-09  1.60613496e-07  1.68688619e-09  1.10000000e-01 
 1.20000000e-01  4.59806196e-01  3.34486613e-09  3.37304306e-09  3.16121764e-09  3.25101774e-09  3.25930784e-09  3.30244668e-09  1.60613480e-07  1.68652203e-09  1.20000000e-01 
 1.30000000e-01  4.59806195e-01  3.34486613e-09  3.37304306e-09  3.16121763e-09  3.25101774e-09  3.25930784e-09  3.30244668e-09  1.60613476e-07  1.68634173e-09  1.30000000e-01 
 1.40000000e-01  4.59806239e-01  3.34486613e-09  3.37304306e-09  3.16121765e-09  3.25101769e-09  3.25930784e-09  3.30244668e-09  1.60613542e-07  1.68598824e-09  1.40000000e-01 
 1.50000000e-01  4.59806206e-01  3.34486613e-09  3.37304306e-09  3.16121768e-09  3.25101769e-09  3.25930784e-09  3.30244668e-09  1.60613491e-07  1.68575198e-09  1.50000000e-01 
 1.60000000e-01  4.59806215e-01  3.34486613e-09  3.37304306e-09  3.16121769e-09  3.25101769e-09  3.25930784e-09  3.30244668e-09  1.60613502e-07  1.68551928e-09  1.60000000e-01 
 1.70000000e-01  4.59806200e-01  3.34486613e-09  3.37304306e-09  3.16121763e-09  3.25101769e-09  3.25930784e-09  3.30244662e-09  1.60613492e-07  1.68531322e-09  1.70000000e-01 
 1.80000000e-01  4.59806212e-01  3.34486613e-09  3.37304306e-09  3.16121765e-09  3.25101769e-09  3.25930784e-09  3.30244668e-09  1.60613511e-07  1.68506276e-09  1.80000000e-01 
 1.90000000e-01  4.59806215e-01  3.34486613e-09  3.37304306e-09  3.16121763e-09  3.25101769e-09  3.25930790e-09  3.30244668e-09  1.60613510e-07  1.68483538e-09  1.90000000e-01 
 2.00000000e-01  4.59806213e-01  3.34486613e-09  3.37304306e-09  3.16121765e-09  3.25101774e-09  3.25930790e-09  3.30244668e-09  1.60613509e-07  1.68451209e-09  2.00000000e-01 
 2.10000000e-01  4.59806207e-01  3.34486613e-09  3.37304306e-09  3.16121768e-09  3.25101769e-09  3.25930784e-09  3.30244668e-09  1.60613497e-07  1.68432202e-09  2.10000000e-01 
 2.20000000e-01  4.59806213e-01  3.34486613e-09  3.37304306e-09  3.16121763e-09  3.25101774e-09  3.25930784e-09  3.30244668e-09  1.60613520e-07  1.68419412e-09  2.20000000e-01 
 2.30000000e-01  4.59806223e-01  3.34486613e-09  3.37304306e-09  3.16121770e-09  3.25101769e-09  3.25930784e-09  3.30244668e-09  1.60613513e-07  1.68402536e-09  2.30000000e-01 
 2.40000000e-01  4.59806203e-01  3.34486618e-09  3.37304306e-09  3.16121763e-09  3.25101769e-09  3.25930784e-09  3.30244668e-09  1.60613491e-07  1.68375536e-09  2.40000000e-01 
 2.50000000e-01  4.59806181e-01  3.34486617e-09  3.37304306e-09  3.16121770e-09  3.25101768e-09  3.25930789e-09  3.30244668e-09  1.60613448e-07  1.68359371e-09  2.50000000e-01 
 2.60000000e-01  4.59806214e-01  3.34486613e-09  3.37304306e-09  3.16121763e-09  3.25101769e-09  3.25930784e-09  3.30244668e-09  1.60613507e-07  1.68343739e-09  2.60000000e-01 
 2.70000000e-01  4.59806212e-01  3.34486613e-09  3.37304306e-09  3.16121765e-09  3.25101769e-09  3.25930784e-09  3.30244668e-09  1.60613510e-07  1.68322600e-09  2.70000000e-01 
 2.80000000e-01  4.59806203e-01  3.34486613e-09  3.37304306e-09  3.16121768e-09  3.25101774e-09  3.25930784e-09  3.30244668e-09  1.60613491e-07  1.68304837e-09  2.80000000e-01 
 2.90000000e-01  4.59806210e-01  3.34486618e-09  3.37304306e-09  3.16121763e-09  3.25101769e-09  3.25930784e-09  3.30244668e-09  1.60613502e-07  1.68298797e-09  2.90000000e-01 
 3.00000000e-01  4.59806202e-01  3.34486611e-09  3.37304306e-09  3.16121770e-09  3.25101774e-09  3.25930790e-09  3.30244668e-09  1.60613483e-07  1.68267889e-09  3.00000000e-01 
 3.10000000e-01  4.59806223e-01  3.34486619e-09  3.37304306e-09  3.16121763e-09  3.25101769e-09  3.25930784e-09  3.30244668e-09  1.60613512e-07  1.68250125e-09  3.10000000e-01 
 3.20000000e-01  4.59806216e-01  3.34486617e-09  3.37304306e-09  3.16121765e-09  3.25101769e-09  3.25930784e-09  3.30244668e-09  1.60613506e-07  1.68241243e-09  3.20000000e-01 
 3.30000000e-01  4.59806206e-01  3.34486613e-09  3.37304306e-09  3.16121768e-09  3.25101774e-09  3.25930784e-09  3.30244668e-09  1.60613485e-07  1.68222414e-09  3.30000000e-01 
 3.40000000e-01  4.59806218e-01  3.34486613e-09  3.37304306e-09  3.16121763e-09  3.25101769e-09  3.25930784e-09  3.30244668e-09  1.60613527e-07  1.68212466e-09  3.40000000e-01 
 3.50000000e-01  4.59806208e-01  3.34486618e-09  3.37304306e-09  3.16121770e-09  3.25101774e-09  3.25930790e-09  3.30244668e-09  1.60613496e-07  1.68197545e-09  3.50000000e-01 
 3.60000000e-01  4.59806238e-01  3.34486612e-09  3.37304306e-09  3.16121769e-09  3.25101769e-09  3.25930790e-09  3.30244668e-09  1.60613535e-07  1.68178360e-09  3.60000000e-01 
 3.70000000e-01  4.59806199e-01  3.34486619e-09  3.37304306e-09  3.16121769e-09  3.25101769e-09  3.25930784e-09  3.30244668e-09  1.60613484e-07  1.68162373e-09  3.70000000e-01 
 3.80000000e-01  4.59806213e-01  3.34486617e-09  3.37304306e-09  3.16121763e-09  3.25101774e-09  3.25930784e-09  3.30244668e-09  1.60613494e-07  1.68151715e-09  3.80000000e-01 
 3.90000000e-01  4.59806214e-01  3.34486619e-09  3.37304306e-09  3.16121765e-09  3.25101769e-09  3.25930784e-09  3.30244668e-09  1.60613513e-07  1.68138925e-09  3.90000000e-01 
 4.00000000e-01  4.59806226e-01  3.34486617e-09  3.37304306e-09  3.16121769e-09  3.25101774e-09  3.25930784e-09  3.30244668e-09  1.60613517e-07  1.68119385e-09  4.00000000e-01 
 4.10000000e-01  4.59806211e-01  3.34486613e-09  3.37304306e-09  3.16121769e-09  3.25101769e-09  3.25930784e-09  3.30244668e-09  1.60613500e-07  1.68107306e-09  4.10000000e-01 
 4.20000000e-01  4.59806220e-01  3.34486613e-09  3.37304306e-09  3.16121763e-09  3.25101769e-09  3.25930784e-09  3.30244668e-09  1.60613519e-07  1.68086700e-09  4.20000000e-01 
 4.30000000e-01  4.59806208e-01  3.34486618e-09  3.37304306e-09  3.16121770e-09  3.25101769e-09  3.25930790e-09  3.30244668e-09  1.60613496e-07  1.68071068e-09  4.30000000e-01 
 4.40000000e-01  4.59806239e-01  3.34486617e-09  3.37304306e-09  3.16121769e-09  3.25101769e-09  3.25930790e-09  3.30244668e-09  1.60613548e-07  1.68068581e-09  4.40000000e-01 
 4.50000000e-01  4.59806206e-01  3.34486613e-09  3.37304306e-09  3.16121763e-09  3.25101769e-09  3.25930784e-09  3.30244662e-09  1.60613487e-07  1.68054015e-09  4.50000000e-01 
 4.60000000e-01  4.59806218e-01  3.34486613e-09  3.37304306e-09  3.16121765e-09  3.25101769e-09  3.25930784e-09  3.30244668e-09  1.60613504e-07  1.68041225e-09  4.60000000e-01 
 4.70000000e-01  4.59806205e-01  3.34486618e-09  3.37304306e-09  3.16121768e-09  3.25101774e-09  3.25930784e-09  3.30244668e-09  1.60613489e-07  1.68027725e-09  4.70000000e-01 
 4.80000000e-01  4.59806229e-01  3.34486611e-09  3.37304306e-09  3.16121763e-09  3.25101769e-09  3.25930784e-09  3.30244668e-09  1.60613516e-07  1.68017067e-09  4.80000000e-01 
 4.90000000e-01  4.59806200e-01  3.34486613e-09  3.37304306e-09  3.16121763e-09  3.25101769e-09  3.25930784e-09  3.30244668e-09  1.60613480e-07  1.68007119e-09  4.90000000e-01 
 5.00000000e-01  4.59806215e-01  3.34486618e-09  3.37304306e-09  3.16121765e-09  3.25101769e-09  3.25930784e-09  3.30244668e-09  1.60613495e-07  1.67987579e-09  5.00000000e-01 
 5.10000000e-01  4.59806213e-01  3.34486611e-09  3.37304306e-09  3.16121763e-09  3.25101769e-09  3.25930784e-09  3.30244668e-09  1.60613496e-07  1.67976566e-09  5.10000000e-01 
 5.20000000e-01  4.59806209e-01  3.34486619e-09  3.37304306e-09  3.16121770e-09  3.25101769e-09  3.25930790e-09  3.30244668e-09  1.60613500e-07  1.67965553e-09  5.20000000e-01 
 5.30000000e-01  4.59806222e-01  3.34486617e-09  3.37304306e-09  3.16121763e-09  3.25101769e-09  3.25930790e-09  3.30244668e-09  1.60613513e-07  1.67944236e-09  5.30000000e-01 
 5.40000000e-01  4.59806211e-01  3.34486613e-09  3.37304306e-09  3.16121770e-09  3.25101774e-09  3.25930790e-09  3.30244668e-09  1.60613495e-07  1.67939262e-09  5.40000000e-01 
 5.50000000e-01  4.59806233e-01  3.34486613e-09  3.37304306e-09  3.16121769e-09  3.25101774e-09  3.25930790e-09  3.30244662e-09  1.60613536e-07  1.67930736e-09  5.50000000e-01 
 5.60000000e-01  4.59806218e-01  3.34486613e-09  3.37304306e-09  3.16121769e-09  3.25101774e-09  3.25930784e-09  3.30244668e-09  1.60613514e-07  1.67908709e-09  5.60000000e-01 
 5.70000000e-01  4.59806223e-01  3.34486618e-09  3.37304306e-09  3.16121763e-09  3.25101769e-09  3.25930784e-09  3.30244668e-09  1.60613520e-07  1.67903380e-09  5.70000000e-01 
 5.80000000e-01  4.59806212e-01  3.34486617e-09  3.37304306e-09  3.16121763e-09  3.25101769e-09  3.25930784e-09  3.30244668e-09  1.60613513e-07  1.67899117e-09  5.80000000e-01 
 5.90000000e-01  4.59806207e-01  3.34486613e-09  3.37304306e-09  3.16121765e-09  3.25101769e-09  3.25930790e-09  3.30244668e-09  1.60613497e-07  1.67878511e-09  5.90000000e-01 
 6.00000000e-01  4.59806223e-01  3.34486613e-09  3.37304306e-09  3.16121769e-09  3.25101769e-09  3.25930784e-09  3.30244668e-09  1.60613524e-07  1.67878511e-09  6.00000000e-01 
 6.10000000e-01  4.59806201e-01  3.34486613e-09  3.37304306e-09  3.16121763e-09  3.25101769e-09  3.25930784e-09  3.30244668e-09  1.60613480e-07  1.67850800e-09  6.10000000e-01 
 6.20000000e-01  4.59806210e-01  3.34486613e-09  3.37304306e-09  3.16121770e-09  3.25101769e-09  3.25930790e-09  3.30244668e-09  1.60613492e-07  1.67837300e-09  6.20000000e-01 
 6.30000000e-01  4.59806213e-01  3.34486618e-09  3.37304306e-09  3.16121768e-09  3.25101769e-09  3.25930784e-09  3.30244668e-09  1.60613501e-07  1.67833036e-09  6.30000000e-01 
 6.40000000e-01  4.59806205e-01  3.34486611e-09  3.37304306e-09  3.16121763e-09  3.25101769e-09  3.25930784e-09  3.30244668e-09  1.60613497e-07  1.67815983e-09  6.40000000e-01 
 6.50000000e-01  4.59806214e-01  3.34486619e-09  3.37304306e-09  3.16121770e-09  3.25101769e-09  3.25930790e-09  3.30244668e-09  1.60613498e-07  1.67804615e-09  6.50000000e-01 
 6.60000000e-01  4.59806227e-01  3.34486617e-09  3.37304306e-09  3.16121763e-09  3.25101769e-09  3.25930790e-09  3.30244668e-09  1.60613525e-07  1.67789693e-09  6.60000000e-01 
 6.70000000e-01  4.59806206e-01  3.34486619e-09  3.37304312e-09  3.16121770e-09  3.25101769e-09  3.25930784e-09  3.30244662e-09  1.60613490e-07  1.67778325e-09  6.70000000e-01 
 6.80000000e-01  4.59806208e-01  3.34486611e-09  3.37304306e-09  3.16121768e-09  3.25101769e-09  3.25930784e-09  3.30244668e-09  1.60613501e-07  1.67762693e-09  6.80000000e-01 
 6.90000000e-01  4.59806219e-01  3.34486619e-09  3.37304306e-09  3.16121763e-09  3.25101769e-09  3.25930784e-09  3.30244668e-09  1.60613513e-07  1.67755587e-09  6.90000000e-01 
 7.00000000e-01  4.59806217e-01  3.34486617e-09  3.37304306e-09  3.16121770e-09  3.25101769e-09  3.25930790e-09  3.30244668e-09  1.60613510e-07  1.67739245e-09  7.00000000e-01 
 7.10000000e-01  4.59806213e-01  3.34486619e-09  3.37304306e-09  3.16121768e-09  3.25101769e-09  3.25930784e-09  3.30244668e-09  1.60613494e-07  1.67723613e-09  7.10000000e-01 
 7.20000000e-01  4.59806210e-01  3.34486611e-09  3.37304306e-09  3.16121763e-09  3.25101769e-09  3.25930784e-09  3.30244668e-09  1.60613499e-07  1.67710112e-09  7.20000000e-01 
 7.30000000e-01  4.59806208e-01  3.34486619e-09  3.37304306e-09  3.16121765e-09  3.25101769e-09  3.25930784e-09  3.30244668e-09  1.60613493e-07  1.67700875e-09  7.30000000e-01 
 7.40000000e-01  4.59806225e-01  3.34486611e-09  3.37304306e-09  3.16121769e-09  3.25101774e-09  3.25930790e-09  3.30244668e-09  1.60613510e-07  1.67690928e-09  7.40000000e-01 
 7.50000000e-01  4.59806213e-01  3.34486613e-09  3.37304306e-09  3.16121769e-09  3.25101774e-09  3.25930784e-09  3.30244662e-09  1.60613503e-07  1.67676006e-09  7.50000000e-01 
 7.60000000e-01  4.59806214e-01  3.34486613e-09  3.37304306e-09  3.16121763e-09  3.25101774e-09  3.25930790e-09  3.30244668e-09  1.60613507e-07  1.67666769e-09  7.60000000e-01 
 7.70000000e-01  4.59806202e-01  3.34486618e-09  3.37304306e-09  3.16121770e-09  3.25101769e-09  3.25930790e-09  3.30244668e-09  1.60613499e-07  1.67651137e-09  7.70000000e-01 
 7.80000000e-01  4.59806203e-01  3.34486617e-09  3.37304306e-09  3.16121768e-09  3.25101774e-09  3.25930790e-09  3.30244662e-09  1.60613487e-07  1.67641190e-09  7.80000000e-01 
 7.90000000e-01  4.59806211e-01  3.34486613e-09  3.37304306e-09  3.16121763e-09  3.25101774e-09  3.25930790e-09  3.30244668e-09  1.60613506e-07  1.67624137e-09  7.90000000e-01 
 8.00000000e-01  4.59806217e-01  3.34486613e-09  3.37304306e-09  3.16121770e-09  3.25101769e-09  3.25930784e-09  3.30244668e-09  1.60613517e-07  1.67613479e-09  8.00000000e-01 
 8.10000000e-01  4.59806212e-01  3.34486613e-09  3.37304306e-09  3.16121763e-09  3.25101769e-09  3.25930784e-09  3.30244668e-09  1.60613502e-07  1.67599268e-09  8.10000000e-01 
 8.20000000e-01  4.59806212e-01  3.34486613e-09  3.37304306e-09  3.16121770e-09  3.25101769e-09  3.25930784e-09  3.30244668e-09  1.60613506e-07  1.67588610e-09  8.20000000e-01 
 8.30000000e-01  4.59806202e-01  3.34486618e-09  3.37304306e-09  3.16121768e-09  3.25101774e-09  3.25930790e-09  3.30244668e-09  1.60613500e-07  1.67573688e-09  8.30000000e-01 
 8.40000000e-01  4.59806221e-01  3.34486617e-09  3.37304306e-09  3.16121769e-09  3.25101769e-09  3.25930784e-09  3.30244668e-09  1.60613522e-07  1.67560188e-09  8.40000000e-01 
 8.50000000e-01  4.59806218e-01  3.34486613e-09  3.37304306e-09  3.16121769e-09  3.25101769e-09  3.25930784e-09  3.30244662e-09  1.60613498e-07  1.67546688e-09  8.50000000e-01 
 8.60000000e-01  4.59806229e-01  3.34486613e-09  3.37304306e-09  3.16121763e-09  3.25101769e-09  3.25930784e-09  3.30244668e-09  1.60613530e-07  1.67530345e-09  8.60000000e-01 
 8.70000000e-01  4.59806203e-01  3.34486613e-09  3.37304306e-09  3.16121763e-09  3.25101769e-09  3.25930784e-09  3.30244668e-09  1.60613488e-07  1.67519687e-09  8.70000000e-01 
 8.80000000e-01  4.59806183e-01  3.34486612e-09  3.37304306e-09  3.16121770e-09  3.25101768e-09  3.25930784e-09  3.30244668e-09  1.60613464e-07  1.67504055e-09  8.80000000e-01 
 8.90000000e-01  4.59806213e-01  3.34486613e-09  3.37304306e-09  3.16121768e-09  3.25101774e-09  3.25930784e-09  3.30244668e-09  1.60613497e-07  1.67490555e-09  8.90000000e-01 
 9.00000000e-01  4.59806204e-01  3.34486613e-09  3.37304306e-09  3.16121763e-09  3.25101769e-09  3.25930784e-09  3.30244668e-09  1.60613488e-07  1.67484870e-09  9.00000000e-01 
 9.10000000e-01  4.59806202e-01  3.34486613e-09  3.37304306e-09  3.16121764e-09  3.25101769e-09  3.25930790e-09  3.30244668e-09  1.60613488e-07  1.67462133e-09  9.10000000e-01 
 9.20000000e-01  4.59806210e-01  3.34486618e-09  3.37304306e-09  3.16121763e-09  3.25101769e-09  3.25930784e-09  3.30244668e-09  1.60613494e-07  1.67453607e-09  9.20000000e-01 
 9.30000000e-01  4.59806212e-01  3.34486611e-09  3.37304306e-09  3.16121770e-09  3.25101769e-09  3.25930784e-09  3.30244668e-09  1.60613490e-07  1.67442948e-09  9.30000000e-01 
 9.40000000e-01  4.59806219e-01  3.34486613e-09  3.37304306e-09  3.16121763e-09  3.25101774e-09  3.25930784e-09  3.30244668e-09  1.60613506e-07  1.67425895e-09  9.40000000e-01 
 9.50000000e-01  4.59806212e-01  3.34486613e-09  3.37304306e-09  3.16121765e-09  3.25101774e-09  3.25930784e-09  3.30244668e-09  1.60613501e-07  1.67410263e-09  9.50000000e-01 
 9.60000000e-01  4.59806209e-01  3.34486618e-09  3.37304306e-09  3.16121763e-09  3.25101769e-09  3.25930790e-09  3.30244668e-09  1.60613494e-07  1.67403158e-09  9.60000000e-01 
 9.70000000e-01  4.59806220e-01  3.34486617e-09  3.37304306e-09  3.16121765e-09  3.25101769e-09  3.25930790e-09  3.30244668e-09  1.60613508e-07  1.67383263e-09  9.70000000e-01 
 9.80000000e-01  4.59806204e-01  3.34486613e-09  3.37304306e-09  3.16121763e-09  3.25101769e-09  3.25930790e-09  3.30244668e-09  1.60613494e-07  1.67371894e-09  9.80000000e-01 
 9.90000000e-01  4.59806205e-01  3.34486618e-09  3.37304306e-09  3.16121765e-09  3.25101769e-09  3.25930790e-09  3.30244668e-09  1.60613504e-07  1.67355552e-09  9.90000000e-01 
 1.00000000e+00  4.59806205e-01  3.34486611e-09  3.37304306e-09  3.16121763e-09  3.25101774e-09  3.25930784e-09  3.30244668e-09  1.60613500e-07  1.67337788e-09  1.00000000e+00 
 1.01000000e+00  4.59806202e-01  3.34486613e-09  3.37304306e-09  3.16121770e-09  3.25101769e-09  3.25930784e-09  3.30244668e-09  1.60613487e-07  1.67332104e-09  1.01000000e+00 
 1.02000000e+00  4.59806218e-01  3.34486618e-09  3.37304306e-09  3.16121768e-09  3.25101769e-09  3.25930790e-09  3.30244668e-09  1.60613513e-07  1.67313630e-09  1.02000000e+00 
 1.03000000e+00  4.59806220e-01  3.34486617e-09  3.37304306e-09  3.16121769e-09  3.25101774e-09  3.25930790e-09  3.30244668e-09  1.60613516e-07  1.67297287e-09  1.03000000e+00 
 1.04000000e+00  4.59806205e-01  3.34486619e-09  3.37304306e-09  3.16121769e-09  3.25101769e-09  3.25930784e-09  3.30244668e-09  1.60613494e-07  1.67286629e-09  1.04000000e+00 
 1.05000000e+00  4.59806226e-01  3.34486617e-09  3.37304306e-09  3.16121763e-09  3.25101769e-09  3.25930790e-09  3.30244668e-09  1.60613520e-07  1.67266734e-09  1.05000000e+00 
 1.06000000e+00  4.59806228e-01  3.34486619e-09  3.37304306e-09  3.16121763e-09  3.25101774e-09  3.25930790e-09  3.30244668e-09  1.60613518e-07  1.67257497e-09  1.06000000e+00 
 1.07000000e+00  4.59806225e-01  3.34486611e-09  3.37304306e-09  3.16121763e-09  3.25101774e-09  3.25930784e-09  3.30244668e-09  1.60613521e-07  1.67243996e-09  1.07000000e+00 
 1.08000000e+00  4.59806222e-01  3.34486619e-09  3.37304306e-09  3.16121769e-09  3.25101769e-09  3.25930784e-09  3.30244668e-09  1.60613525e-07  1.67226943e-09  1.08000000e+00 
 1.09000000e+00  4.59806195e-01  3.34486617e-09  3.37304312e-09  3.16121769e-09  3.25101774e-09  3.25930790e-09  3.30244668e-09  1.60613473e-07  1.67214154e-09  1.09000000e+00 
 1.10000000e+00  4.59806204e-01  3.34486613e-09  3.37304306e-09  3.16121763e-09  3.25101774e-09  3.25930784e-09  3.30244668e-09  1.60613486e-07  1.67195680e-09  1.10000000e+00 
