 v-sweep         v(b0)           v(b1)           v(b2)           v(b3)           v(b4)           v(b5)           v(b6)           i(vbias)        i(viout)        v(vout)        
 0.00000000e+00  3.09996963e-09  3.19745878e-09  3.34182791e-09  3.39607602e-09  3.40129847e-09  4.57003556e-01  3.42729488e-09  1.55098902e-07  4.45694963e-08  0.00000000e+00 
 1.00000000e-02  3.09996967e-09  3.19745881e-09  3.34182794e-09  3.39607599e-09  3.40129844e-09  4.57003568e-01  3.42729486e-09  1.55098950e-07  4.45691206e-08  1.00000000e-02 
 2.00000000e-02  3.09996967e-09  3.19745881e-09  3.34182794e-09  3.39607600e-09  3.40129845e-09  4.57003557e-01  3.42729486e-09  1.55098917e-07  4.45687898e-08  2.00000000e-02 
 3.00000000e-02  3.09996967e-09  3.19745881e-09  3.34182794e-09  3.39607594e-09  3.40129845e-09  4.57003553e-01  3.42729486e-09  1.55098907e-07  4.45683259e-08  3.00000000e-02 
 4.00000000e-02  3.09996967e-09  3.19745881e-09  3.34182794e-09  3.39607594e-09  3.40129845e-09  4.57003562e-01  3.42729486e-09  1.55098934e-07  4.45680279e-08  4.00000000e-02 
 5.00000000e-02  3.09996967e-09  3.19745881e-09  3.34182794e-09  3.39607600e-09  3.40129845e-09  4.57003563e-01  3.42729492e-09  1.55098934e-07  4.45676416e-08  5.00000000e-02 
 6.00000000e-02  3.09996967e-09  3.19745881e-09  3.34182794e-09  3.39607594e-09  3.40129845e-09  4.57003570e-01  3.42729486e-09  1.55098935e-07  4.45672854e-08  6.00000000e-02 
 7.00000000e-02  3.09996967e-09  3.19745875e-09  3.34182794e-09  3.39607600e-09  3.40129845e-09  4.57003564e-01  3.42729486e-09  1.55098935e-07  4.45671136e-08  7.00000000e-02 
 8.00000000e-02  3.09996967e-09  3.19745881e-09  3.34182794e-09  3.39607600e-09  3.40129850e-09  4.57003559e-01  3.42729486e-09  1.55098938e-07  4.45667059e-08  8.00000000e-02 
 9.00000000e-02  3.09996967e-09  3.19745881e-09  3.34182794e-09  3.39607600e-09  3.40129844e-09  4.57003570e-01  3.42729486e-09  1.55098951e-07  4.45665398e-08  9.00000000e-02 
 1.00000000e-01  3.09996967e-09  3.19745881e-09  3.34182794e-09  3.39607600e-09  3.40129845e-09  4.57003556e-01  3.42729486e-09  1.55098904e-07  4.45661419e-08  1.00000000e-01 
 1.10000000e-01  3.09996967e-09  3.19745875e-09  3.34182794e-09  3.39607594e-09  3.40129845e-09  4.57003564e-01  3.42729486e-09  1.55098920e-07  4.45659927e-08  1.10000000e-01 
 1.20000000e-01  3.09996967e-09  3.19745875e-09  3.34182794e-09  3.39607600e-09  3.40129850e-09  4.57003565e-01  3.42729486e-09  1.55098936e-07  4.45657964e-08  1.20000000e-01 
 1.30000000e-01  3.09996967e-09  3.19745881e-09  3.34182794e-09  3.39607600e-09  3.40129843e-09  4.57003541e-01  3.42729486e-09  1.55098909e-07  4.45654740e-08  1.30000000e-01 
 1.40000000e-01  3.09996967e-09  3.19745875e-09  3.34182794e-09  3.39607600e-09  3.40129845e-09  4.57003546e-01  3.42729486e-09  1.55098898e-07  4.45653550e-08  1.40000000e-01 
 1.50000000e-01  3.09996967e-09  3.19745881e-09  3.34182794e-09  3.39607600e-09  3.40129845e-09  4.57003588e-01  3.42729492e-09  1.55098969e-07  4.45651533e-08  1.50000000e-01 
 1.60000000e-01  3.09996967e-09  3.19745875e-09  3.34182788e-09  3.39607600e-09  3.40129845e-09  4.57003580e-01  3.42729486e-09  1.55098954e-07  4.45649366e-08  1.60000000e-01 
 1.70000000e-01  3.09996972e-09  3.19745881e-09  3.34182789e-09  3.39607600e-09  3.40129845e-09  4.57003561e-01  3.42729486e-09  1.55098936e-07  4.45646862e-08  1.70000000e-01 
 1.80000000e-01  3.09996972e-09  3.19745875e-09  3.34182793e-09  3.39607600e-09  3.40129845e-09  4.57003557e-01  3.42729486e-09  1.55098927e-07  4.45645103e-08  1.80000000e-01 
 1.90000000e-01  3.09996967e-09  3.19745881e-09  3.34182794e-09  3.39607600e-09  3.40129845e-09  4.57003573e-01  3.42729486e-09  1.55098962e-07  4.45644002e-08  1.90000000e-01 
 2.00000000e-01  3.09996967e-09  3.19745881e-09  3.34182794e-09  3.39607600e-09  3.40129845e-09  4.57003552e-01  3.42729486e-09  1.55098926e-07  4.45642421e-08  2.00000000e-01 
 2.10000000e-01  3.09996967e-09  3.19745875e-09  3.34182794e-09  3.39607600e-09  3.40129845e-09  4.57003563e-01  3.42729486e-09  1.55098932e-07  4.45640875e-08  2.10000000e-01 
 2.20000000e-01  3.09996967e-09  3.19745881e-09  3.34182794e-09  3.39607600e-09  3.40129845e-09  4.57003557e-01  3.42729486e-09  1.55098927e-07  4.45639294e-08  2.20000000e-01 
 2.30000000e-01  3.09996967e-09  3.19745881e-09  3.34182794e-09  3.39607600e-09  3.40129845e-09  4.57003575e-01  3.42729486e-09  1.55098948e-07  4.45637145e-08  2.30000000e-01 
 2.40000000e-01  3.09996967e-09  3.19745875e-09  3.34182794e-09  3.39607600e-09  3.40129845e-09  4.57003538e-01  3.42729486e-09  1.55098902e-07  4.45636523e-08  2.40000000e-01 
 2.50000000e-01  3.09996967e-09  3.19745881e-09  3.34182794e-09  3.39607594e-09  3.40129845e-09  4.57003561e-01  3.42729486e-09  1.55098947e-07  4.45634694e-08  2.50000000e-01 
 2.60000000e-01  3.09996967e-09  3.19745881e-09  3.34182794e-09  3.39607600e-09  3.40129845e-09  4.57003554e-01  3.42729486e-09  1.55098916e-07  4.45633876e-08  2.60000000e-01 
 2.70000000e-01  3.09996967e-09  3.19745881e-09  3.34182794e-09  3.39607600e-09  3.40129851e-09  4.57003576e-01  3.42729486e-09  1.55098941e-07  4.45632562e-08  2.70000000e-01 
 2.80000000e-01  3.09996967e-09  3.19745881e-09  3.34182794e-09  3.39607600e-09  3.40129843e-09  4.57003551e-01  3.42729492e-09  1.55098927e-07  4.45632313e-08  2.80000000e-01 
 2.90000000e-01  3.09996967e-09  3.19745875e-09  3.34182794e-09  3.39607594e-09  3.40129845e-09  4.57003555e-01  3.42729486e-09  1.55098923e-07  4.45631478e-08  2.90000000e-01 
 3.00000000e-01  3.09996967e-09  3.19745881e-09  3.34182794e-09  3.39607594e-09  3.40129845e-09  4.57003563e-01  3.42729486e-09  1.55098938e-07  4.45629773e-08  3.00000000e-01 
 3.10000000e-01  3.09996967e-09  3.19745875e-09  3.34182794e-09  3.39607600e-09  3.40129845e-09  4.57003558e-01  3.42729486e-09  1.55098918e-07  4.45629169e-08  3.10000000e-01 
 3.20000000e-01  3.09996967e-09  3.19745881e-09  3.34182794e-09  3.39607600e-09  3.40129845e-09  4.57003551e-01  3.42729486e-09  1.55098904e-07  4.45628032e-08  3.20000000e-01 
 3.30000000e-01  3.09996967e-09  3.19745881e-09  3.34182794e-09  3.39607600e-09  3.40129845e-09  4.57003561e-01  3.42729486e-09  1.55098917e-07  4.45626576e-08  3.30000000e-01 
 3.40000000e-01  3.09996967e-09  3.19745881e-09  3.34182794e-09  3.39607600e-09  3.40129845e-09  4.57003559e-01  3.42729486e-09  1.55098924e-07  4.45625759e-08  3.40000000e-01 
 3.50000000e-01  3.09996967e-09  3.19745875e-09  3.34182794e-09  3.39607594e-09  3.40129845e-09  4.57003563e-01  3.42729486e-09  1.55098928e-07  4.45626078e-08  3.50000000e-01 
 3.60000000e-01  3.09996967e-09  3.19745881e-09  3.34182794e-09  3.39607600e-09  3.40129850e-09  4.57003548e-01  3.42729486e-09  1.55098901e-07  4.45624089e-08  3.60000000e-01 
 3.70000000e-01  3.09996967e-09  3.19745881e-09  3.34182794e-09  3.39607600e-09  3.40129849e-09  4.57003542e-01  3.42729486e-09  1.55098895e-07  4.45623201e-08  3.70000000e-01 
 3.80000000e-01  3.09996967e-09  3.19745881e-09  3.34182794e-09  3.39607600e-09  3.40129850e-09  4.57003551e-01  3.42729486e-09  1.55098919e-07  4.45622597e-08  3.80000000e-01 
 3.90000000e-01  3.09996967e-09  3.19745881e-09  3.34182794e-09  3.39607600e-09  3.40129844e-09  4.57003549e-01  3.42729492e-09  1.55098907e-07  4.45621602e-08  3.90000000e-01 
 4.00000000e-01  3.09996967e-09  3.19745881e-09  3.34182794e-09  3.39607600e-09  3.40129851e-09  4.57003557e-01  3.42729486e-09  1.55098921e-07  4.45620891e-08  4.00000000e-01 
 4.10000000e-01  3.09996967e-09  3.19745881e-09  3.34182794e-09  3.39607600e-09  3.40129849e-09  4.57003587e-01  3.42729486e-09  1.55098967e-07  4.45620252e-08  4.10000000e-01 
 4.20000000e-01  3.09996967e-09  3.19745875e-09  3.34182794e-09  3.39607600e-09  3.40129844e-09  4.57003568e-01  3.42729486e-09  1.55098940e-07  4.45618866e-08  4.20000000e-01 
 4.30000000e-01  3.09996967e-09  3.19745881e-09  3.34182794e-09  3.39607600e-09  3.40129845e-09  4.57003566e-01  3.42729492e-09  1.55098935e-07  4.45617658e-08  4.30000000e-01 
 4.40000000e-01  3.09996967e-09  3.19745881e-09  3.34182794e-09  3.39607600e-09  3.40129845e-09  4.57003544e-01  3.42729486e-09  1.55098897e-07  4.45617090e-08  4.40000000e-01 
 4.50000000e-01  3.09996967e-09  3.19745881e-09  3.34182794e-09  3.39607600e-09  3.40129845e-09  4.57003568e-01  3.42729486e-09  1.55098947e-07  4.45618333e-08  4.50000000e-01 
 4.60000000e-01  3.09996967e-09  3.19745875e-09  3.34182794e-09  3.39607600e-09  3.40129845e-09  4.57003571e-01  3.42729486e-09  1.55098940e-07  4.45616202e-08  4.60000000e-01 
 4.70000000e-01  3.09996967e-09  3.19745881e-09  3.34182794e-09  3.39607594e-09  3.40129845e-09  4.57003542e-01  3.42729486e-09  1.55098904e-07  4.45616131e-08  4.70000000e-01 
 4.80000000e-01  3.09996967e-09  3.19745881e-09  3.34182794e-09  3.39607600e-09  3.40129845e-09  4.57003548e-01  3.42729486e-09  1.55098894e-07  4.45616202e-08  4.80000000e-01 
 4.90000000e-01  3.09996967e-09  3.19745881e-09  3.34182794e-09  3.39607600e-09  3.40129845e-09  4.57003591e-01  3.42729486e-09  1.55098984e-07  4.45615633e-08  4.90000000e-01 
 5.00000000e-01  3.09996967e-09  3.19745881e-09  3.34182794e-09  3.39607600e-09  3.40129845e-09  4.57003570e-01  3.42729486e-09  1.55098941e-07  4.45613928e-08  5.00000000e-01 
 5.10000000e-01  3.09996967e-09  3.19745881e-09  3.34182794e-09  3.39607600e-09  3.40129845e-09  4.57003559e-01  3.42729486e-09  1.55098935e-07  4.45613644e-08  5.10000000e-01 
 5.20000000e-01  3.09996967e-09  3.19745881e-09  3.34182794e-09  3.39607600e-09  3.40129845e-09  4.57003550e-01  3.42729486e-09  1.55098915e-07  4.45612436e-08  5.20000000e-01 
 5.30000000e-01  3.09996967e-09  3.19745875e-09  3.34182788e-09  3.39607600e-09  3.40129845e-09  4.57003562e-01  3.42729486e-09  1.55098927e-07  4.45611370e-08  5.30000000e-01 
 5.40000000e-01  3.09996967e-09  3.19745875e-09  3.34182795e-09  3.39607594e-09  3.40129850e-09  4.57003544e-01  3.42729486e-09  1.55098896e-07  4.45610766e-08  5.40000000e-01 
 5.50000000e-01  3.09996967e-09  3.19745875e-09  3.34182793e-09  3.39607600e-09  3.40129849e-09  4.57003559e-01  3.42729486e-09  1.55098931e-07  4.45610624e-08  5.50000000e-01 
 5.60000000e-01  3.09996967e-09  3.19745881e-09  3.34182794e-09  3.39607600e-09  3.40129844e-09  4.57003570e-01  3.42729486e-09  1.55098945e-07  4.45611299e-08  5.60000000e-01 
 5.70000000e-01  3.09996972e-09  3.19745881e-09  3.34182794e-09  3.39607600e-09  3.40129845e-09  4.57003562e-01  3.42729486e-09  1.55098919e-07  4.45608990e-08  5.70000000e-01 
 5.80000000e-01  3.09996967e-09  3.19745881e-09  3.34182794e-09  3.39607600e-09  3.40129845e-09  4.57003566e-01  3.42729486e-09  1.55098948e-07  4.45609558e-08  5.80000000e-01 
 5.90000000e-01  3.09996967e-09  3.19745881e-09  3.34182794e-09  3.39607600e-09  3.40129845e-09  4.57003559e-01  3.42729486e-09  1.55098922e-07  4.45608563e-08  5.90000000e-01 
 6.00000000e-01  3.09996967e-09  3.19745881e-09  3.34182794e-09  3.39607600e-09  3.40129845e-09  4.57003562e-01  3.42729486e-09  1.55098936e-07  4.45607711e-08  6.00000000e-01 
 6.10000000e-01  3.09996967e-09  3.19745881e-09  3.34182794e-09  3.39607600e-09  3.40129850e-09  4.57003553e-01  3.42729486e-09  1.55098923e-07  4.45608634e-08  6.10000000e-01 
 6.20000000e-01  3.09996967e-09  3.19745881e-09  3.34182794e-09  3.39607600e-09  3.40129844e-09  4.57003573e-01  3.42729492e-09  1.55098945e-07  4.45606787e-08  6.20000000e-01 
 6.30000000e-01  3.09996967e-09  3.19745881e-09  3.34182794e-09  3.39607600e-09  3.40129845e-09  4.57003547e-01  3.42729486e-09  1.55098894e-07  4.45606290e-08  6.30000000e-01 
 6.40000000e-01  3.09996967e-09  3.19745881e-09  3.34182794e-09  3.39607600e-09  3.40129851e-09  4.57003573e-01  3.42729486e-09  1.55098943e-07  4.45606076e-08  6.40000000e-01 
 6.50000000e-01  3.09996967e-09  3.19745881e-09  3.34182794e-09  3.39607594e-09  3.40129844e-09  4.57003565e-01  3.42729486e-09  1.55098934e-07  4.45605650e-08  6.50000000e-01 
 6.60000000e-01  3.09996967e-09  3.19745881e-09  3.34182794e-09  3.39607600e-09  3.40129845e-09  4.57003543e-01  3.42729486e-09  1.55098898e-07  4.45604655e-08  6.60000000e-01 
 6.70000000e-01  3.09996967e-09  3.19745881e-09  3.34182794e-09  3.39607600e-09  3.40129845e-09  4.57003562e-01  3.42729486e-09  1.55098928e-07  4.45603234e-08  6.70000000e-01 
 6.80000000e-01  3.09996967e-09  3.19745881e-09  3.34182794e-09  3.39607600e-09  3.40129845e-09  4.57003573e-01  3.42729486e-09  1.55098939e-07  4.45601813e-08  6.80000000e-01 
 6.90000000e-01  3.09996967e-09  3.19745881e-09  3.34182794e-09  3.39607600e-09  3.40129845e-09  4.57003559e-01  3.42729486e-09  1.55098921e-07  4.45603376e-08  6.90000000e-01 
 7.00000000e-01  3.09996967e-09  3.19745881e-09  3.34182794e-09  3.39607600e-09  3.40129845e-09  4.57003543e-01  3.42729486e-09  1.55098907e-07  4.45602168e-08  7.00000000e-01 
 7.10000000e-01  3.09996967e-09  3.19745881e-09  3.34182794e-09  3.39607594e-09  3.40129850e-09  4.57003545e-01  3.42729486e-09  1.55098899e-07  4.45600890e-08  7.10000000e-01 
 7.20000000e-01  3.09996967e-09  3.19745881e-09  3.34182794e-09  3.39607600e-09  3.40129844e-09  4.57003573e-01  3.42729486e-09  1.55098940e-07  4.45600676e-08  7.20000000e-01 
 7.30000000e-01  3.09996967e-09  3.19745881e-09  3.34182794e-09  3.39607600e-09  3.40129845e-09  4.57003550e-01  3.42729486e-09  1.55098908e-07  4.45599966e-08  7.30000000e-01 
 7.40000000e-01  3.09996967e-09  3.19745875e-09  3.34182794e-09  3.39607600e-09  3.40129845e-09  4.57003559e-01  3.42729486e-09  1.55098917e-07  4.45601174e-08  7.40000000e-01 
 7.50000000e-01  3.09996967e-09  3.19745881e-09  3.34182794e-09  3.39607600e-09  3.40129845e-09  4.57003558e-01  3.42729486e-09  1.55098924e-07  4.45599255e-08  7.50000000e-01 
 7.60000000e-01  3.09996967e-09  3.19745875e-09  3.34182794e-09  3.39607600e-09  3.40129845e-09  4.57003572e-01  3.42729486e-09  1.55098939e-07  4.45599611e-08  7.60000000e-01 
 7.70000000e-01  3.09996967e-09  3.19745881e-09  3.34182794e-09  3.39607600e-09  3.40129845e-09  4.57003560e-01  3.42729492e-09  1.55098931e-07  4.45597763e-08  7.70000000e-01 
 7.80000000e-01  3.09996967e-09  3.19745881e-09  3.34182788e-09  3.39607594e-09  3.40129845e-09  4.57003563e-01  3.42729486e-09  1.55098946e-07  4.45597834e-08  7.80000000e-01 
 7.90000000e-01  3.09996967e-09  3.19745881e-09  3.34182795e-09  3.39607600e-09  3.40129845e-09  4.57003534e-01  3.42729486e-09  1.55098886e-07  4.45597195e-08  7.90000000e-01 
 8.00000000e-01  3.09996967e-09  3.19745881e-09  3.34182793e-09  3.39607600e-09  3.40129845e-09  4.57003552e-01  3.42729486e-09  1.55098911e-07  4.45596484e-08  8.00000000e-01 
 8.10000000e-01  3.09996967e-09  3.19745881e-09  3.34182794e-09  3.39607600e-09  3.40129850e-09  4.57003547e-01  3.42729486e-09  1.55098916e-07  4.45595560e-08  8.10000000e-01 
 8.20000000e-01  3.09996967e-09  3.19745881e-09  3.34182794e-09  3.39607600e-09  3.40129844e-09  4.57003568e-01  3.42729486e-09  1.55098944e-07  4.45595063e-08  8.20000000e-01 
 8.30000000e-01  3.09996967e-09  3.19745875e-09  3.34182794e-09  3.39607600e-09  3.40129845e-09  4.57003564e-01  3.42729486e-09  1.55098931e-07  4.45594992e-08  8.30000000e-01 
 8.40000000e-01  3.09996972e-09  3.19745881e-09  3.34182794e-09  3.39607600e-09  3.40129845e-09  4.57003569e-01  3.42729486e-09  1.55098957e-07  4.45594424e-08  8.40000000e-01 
 8.50000000e-01  3.09996967e-09  3.19745875e-09  3.34182794e-09  3.39607600e-09  3.40129850e-09  4.57003557e-01  3.42729486e-09  1.55098923e-07  4.45593642e-08  8.50000000e-01 
 8.60000000e-01  3.09996967e-09  3.19745881e-09  3.34182794e-09  3.39607600e-09  3.40129849e-09  4.57003580e-01  3.42729486e-09  1.55098956e-07  4.45592718e-08  8.60000000e-01 
 8.70000000e-01  3.09996967e-09  3.19745881e-09  3.34182794e-09  3.39607600e-09  3.40129844e-09  4.57003541e-01  3.42729492e-09  1.55098903e-07  4.45592292e-08  8.70000000e-01 
 8.80000000e-01  3.09996967e-09  3.19745875e-09  3.34182794e-09  3.39607600e-09  3.40129845e-09  4.57003549e-01  3.42729486e-09  1.55098907e-07  4.45591013e-08  8.80000000e-01 
 8.90000000e-01  3.09996967e-09  3.19745881e-09  3.34182794e-09  3.39607600e-09  3.40129845e-09  4.57003580e-01  3.42729492e-09  1.55098962e-07  4.45592079e-08  8.90000000e-01 
 9.00000000e-01  3.09996967e-09  3.19745875e-09  3.34182794e-09  3.39607600e-09  3.40129845e-09  4.57003543e-01  3.42729486e-09  1.55098904e-07  4.45590942e-08  9.00000000e-01 
 9.10000000e-01  3.09996967e-09  3.19745881e-09  3.34182794e-09  3.39607600e-09  3.40129851e-09  4.57003574e-01  3.42729486e-09  1.55098955e-07  4.45589521e-08  9.10000000e-01 
 9.20000000e-01  3.09996967e-09  3.19745881e-09  3.34182794e-09  3.39607594e-09  3.40129843e-09  4.57003544e-01  3.42729486e-09  1.55098908e-07  4.45589592e-08  9.20000000e-01 
 9.30000000e-01  3.09996967e-09  3.19745875e-09  3.34182794e-09  3.39607600e-09  3.40129845e-09  4.57003581e-01  3.42729486e-09  1.55098954e-07  4.45589805e-08  9.30000000e-01 
 9.40000000e-01  3.09996967e-09  3.19745881e-09  3.34182794e-09  3.39607600e-09  3.40129845e-09  4.57003572e-01  3.42729486e-09  1.55098950e-07  4.45588810e-08  9.40000000e-01 
 9.50000000e-01  3.09996967e-09  3.19745881e-09  3.34182794e-09  3.39607600e-09  3.40129850e-09  4.57003556e-01  3.42729492e-09  1.55098920e-07  4.45588100e-08  9.50000000e-01 
 9.60000000e-01  3.09996967e-09  3.19745875e-09  3.34182794e-09  3.39607594e-09  3.40129849e-09  4.57003559e-01  3.42729486e-09  1.55098919e-07  4.45586537e-08  9.60000000e-01 
 9.70000000e-01  3.09996967e-09  3.19745881e-09  3.34182794e-09  3.39607600e-09  3.40129850e-09  4.57003566e-01  3.42729486e-09  1.55098943e-07  4.45586679e-08  9.70000000e-01 
 9.80000000e-01  3.09996967e-09  3.19745875e-09  3.34182794e-09  3.39607600e-09  3.40129850e-09  4.57003575e-01  3.42729486e-09  1.55098946e-07  4.45586537e-08  9.80000000e-01 
 9.90000000e-01  3.09996967e-09  3.19745881e-09  3.34182794e-09  3.39607594e-09  3.40129844e-09  4.57003566e-01  3.42729492e-09  1.55098930e-07  4.45585258e-08  9.90000000e-01 
 1.00000000e+00  3.09996967e-09  3.19745881e-09  3.34182794e-09  3.39607600e-09  3.40129851e-09  4.57003582e-01  3.42729492e-09  1.55098970e-07  4.45584618e-08  1.00000000e+00 
 1.01000000e+00  3.09996967e-09  3.19745875e-09  3.34182794e-09  3.39607600e-09  3.40129849e-09  4.57003561e-01  3.42729486e-09  1.55098923e-07  4.45582558e-08  1.01000000e+00 
 1.02000000e+00  3.09996967e-09  3.19745875e-09  3.34182794e-09  3.39607600e-09  3.40129850e-09  4.57003547e-01  3.42729486e-09  1.55098904e-07  4.45583268e-08  1.02000000e+00 
 1.03000000e+00  3.09996967e-09  3.19745881e-09  3.34182794e-09  3.39607600e-09  3.40129844e-09  4.57003567e-01  3.42729486e-09  1.55098945e-07  4.45582700e-08  1.03000000e+00 
 1.04000000e+00  3.09996967e-09  3.19745875e-09  3.34182794e-09  3.39607600e-09  3.40129845e-09  4.57003565e-01  3.42729486e-09  1.55098920e-07  4.45582131e-08  1.04000000e+00 
 1.05000000e+00  3.09996967e-09  3.19745881e-09  3.34182794e-09  3.39607600e-09  3.40129845e-09  4.57003563e-01  3.42729492e-09  1.55098938e-07  4.45580852e-08  1.05000000e+00 
 1.06000000e+00  3.09996967e-09  3.19745881e-09  3.34182794e-09  3.39607600e-09  3.40129845e-09  4.57003546e-01  3.42729486e-09  1.55098917e-07  4.45580568e-08  1.06000000e+00 
 1.07000000e+00  3.09996967e-09  3.19745881e-09  3.34182794e-09  3.39607600e-09  3.40129845e-09  4.57003554e-01  3.42729486e-09  1.55098913e-07  4.45579929e-08  1.07000000e+00 
 1.08000000e+00  3.09996967e-09  3.19745875e-09  3.34182794e-09  3.39607600e-09  3.40129845e-09  4.57003548e-01  3.42729486e-09  1.55098922e-07  4.45580142e-08  1.08000000e+00 
 1.09000000e+00  3.09996967e-09  3.19745881e-09  3.34182794e-09  3.39607600e-09  3.40129845e-09  4.57003566e-01  3.42729486e-09  1.55098936e-07  4.45578294e-08  1.09000000e+00 
 1.10000000e+00  3.09996967e-09  3.19745881e-09  3.34182794e-09  3.39607600e-09  3.40129845e-09  4.57003543e-01  3.42729486e-09  1.55098895e-07  4.45578010e-08  1.10000000e+00 
