 v-sweep         v(b0)           v(b1)           v(b2)           v(b3)           v(b4)           v(b5)           v(b6)           i(vbias)        i(viout)        v(vout)        
 0.00000000e+00  3.79527196e-09  4.58838248e-01  3.41387682e-09  3.36279170e-09  4.58838248e-01  3.35664591e-09  4.58838248e-01  1.59499183e-07  1.25265425e-07  0.00000000e+00 
 1.00000000e-02  3.79527193e-09  4.58838254e-01  3.41387685e-09  3.36279173e-09  4.58838254e-01  3.35664593e-09  4.58838254e-01  1.59499186e-07  1.25264940e-07  1.00000000e-02 
 2.00000000e-02  3.79527193e-09  4.58838235e-01  3.41387684e-09  3.36279172e-09  4.58838235e-01  3.35664587e-09  4.58838235e-01  1.59499146e-07  1.25264516e-07  2.00000000e-02 
 3.00000000e-02  3.79527193e-09  4.58838207e-01  3.41387685e-09  3.36279173e-09  4.58838207e-01  3.35664587e-09  4.58838207e-01  1.59499113e-07  1.25264014e-07  3.00000000e-02 
 4.00000000e-02  3.79527195e-09  4.58838248e-01  3.41387685e-09  3.36279172e-09  4.58838248e-01  3.35664588e-09  4.58838248e-01  1.59499172e-07  1.25263683e-07  4.00000000e-02 
 5.00000000e-02  3.79527193e-09  4.58838227e-01  3.41387685e-09  3.36279173e-09  4.58838227e-01  3.35664587e-09  4.58838227e-01  1.59499149e-07  1.25263310e-07  5.00000000e-02 
 6.00000000e-02  3.79527194e-09  4.58838224e-01  3.41387685e-09  3.36279172e-09  4.58838224e-01  3.35664587e-09  4.58838224e-01  1.59499139e-07  1.25262865e-07  6.00000000e-02 
 7.00000000e-02  3.79527198e-09  4.58838219e-01  3.41387685e-09  3.36279168e-09  4.58838219e-01  3.35664593e-09  4.58838219e-01  1.59499136e-07  1.25262650e-07  7.00000000e-02 
 8.00000000e-02  3.79527199e-09  4.58838255e-01  3.41387685e-09  3.36279173e-09  4.58838255e-01  3.35664593e-09  4.58838255e-01  1.59499189e-07  1.25262321e-07  8.00000000e-02 
 9.00000000e-02  3.79527193e-09  4.58838236e-01  3.41387685e-09  3.36279172e-09  4.58838236e-01  3.35664593e-09  4.58838236e-01  1.59499149e-07  1.25262137e-07  9.00000000e-02 
 1.00000000e-01  3.79527193e-09  4.58838221e-01  3.41387685e-09  3.36279168e-09  4.58838221e-01  3.35664587e-09  4.58838221e-01  1.59499144e-07  1.25261677e-07  1.00000000e-01 
 1.10000000e-01  3.79527195e-09  4.58838250e-01  3.41387685e-09  3.36279167e-09  4.58838250e-01  3.35664593e-09  4.58838250e-01  1.59499185e-07  1.25261593e-07  1.10000000e-01 
 1.20000000e-01  3.79527198e-09  4.58838251e-01  3.41387685e-09  3.36279173e-09  4.58838251e-01  3.35664593e-09  4.58838251e-01  1.59499173e-07  1.25261295e-07  1.20000000e-01 
 1.30000000e-01  3.79527199e-09  4.58838242e-01  3.41387685e-09  3.36279172e-09  4.58838242e-01  3.35664593e-09  4.58838242e-01  1.59499174e-07  1.25261014e-07  1.30000000e-01 
 1.40000000e-01  3.79527193e-09  4.58838245e-01  3.41387685e-09  3.36279168e-09  4.58838245e-01  3.35664588e-09  4.58838245e-01  1.59499175e-07  1.25260773e-07  1.40000000e-01 
 1.50000000e-01  3.79527193e-09  4.58838252e-01  3.41387685e-09  3.36279173e-09  4.58838252e-01  3.35664588e-09  4.58838252e-01  1.59499184e-07  1.25260504e-07  1.50000000e-01 
 1.60000000e-01  3.79527193e-09  4.58838225e-01  3.41387685e-09  3.36279172e-09  4.58838225e-01  3.35664587e-09  4.58838225e-01  1.59499149e-07  1.25260335e-07  1.60000000e-01 
 1.70000000e-01  3.79527194e-09  4.58838230e-01  3.41387685e-09  3.36279168e-09  4.58838230e-01  3.35664593e-09  4.58838230e-01  1.59499147e-07  1.25260174e-07  1.70000000e-01 
 1.80000000e-01  3.79527198e-09  4.58838222e-01  3.41387685e-09  3.36279173e-09  4.58838222e-01  3.35664593e-09  4.58838222e-01  1.59499132e-07  1.25259879e-07  1.80000000e-01 
 1.90000000e-01  3.79527193e-09  4.58838236e-01  3.41387685e-09  3.36279172e-09  4.58838236e-01  3.35664593e-09  4.58838236e-01  1.59499164e-07  1.25259676e-07  1.90000000e-01 
 2.00000000e-01  3.79527199e-09  4.58838245e-01  3.41387685e-09  3.36279168e-09  4.58838245e-01  3.35664593e-09  4.58838245e-01  1.59499181e-07  1.25259602e-07  2.00000000e-01 
 2.10000000e-01  3.79527199e-09  4.58838254e-01  3.41387685e-09  3.36279167e-09  4.58838254e-01  3.35664593e-09  4.58838254e-01  1.59499194e-07  1.25259367e-07  2.10000000e-01 
 2.20000000e-01  3.79527193e-09  4.58838233e-01  3.41387685e-09  3.36279167e-09  4.58838233e-01  3.35664587e-09  4.58838233e-01  1.59499159e-07  1.25259170e-07  2.20000000e-01 
 2.30000000e-01  3.79527193e-09  4.58838234e-01  3.41387685e-09  3.36279167e-09  4.58838234e-01  3.35664593e-09  4.58838234e-01  1.59499168e-07  1.25259097e-07  2.30000000e-01 
 2.40000000e-01  3.79527199e-09  4.58838219e-01  3.41387685e-09  3.36279173e-09  4.58838219e-01  3.35664593e-09  4.58838219e-01  1.59499139e-07  1.25258794e-07  2.40000000e-01 
 2.50000000e-01  3.79527193e-09  4.58838236e-01  3.41387679e-09  3.36279166e-09  4.58838236e-01  3.35664587e-09  4.58838236e-01  1.59499166e-07  1.25258618e-07  2.50000000e-01 
 2.60000000e-01  3.79527193e-09  4.58838254e-01  3.41387680e-09  3.36279174e-09  4.58838254e-01  3.35664593e-09  4.58838254e-01  1.59499198e-07  1.25258554e-07  2.60000000e-01 
 2.70000000e-01  3.79527193e-09  4.58838252e-01  3.41387680e-09  3.36279172e-09  4.58838252e-01  3.35664593e-09  4.58838252e-01  1.59499185e-07  1.25258468e-07  2.70000000e-01 
 2.80000000e-01  3.79527199e-09  4.58838213e-01  3.41387685e-09  3.36279173e-09  4.58838213e-01  3.35664593e-09  4.58838213e-01  1.59499125e-07  1.25258280e-07  2.80000000e-01 
 2.90000000e-01  3.79527199e-09  4.58838233e-01  3.41387684e-09  3.36279172e-09  4.58838233e-01  3.35664593e-09  4.58838233e-01  1.59499139e-07  1.25258083e-07  2.90000000e-01 
 3.00000000e-01  3.79527193e-09  4.58838240e-01  3.41387679e-09  3.36279168e-09  4.58838240e-01  3.35664588e-09  4.58838240e-01  1.59499177e-07  1.25257973e-07  3.00000000e-01 
 3.10000000e-01  3.79527193e-09  4.58838234e-01  3.41387686e-09  3.36279167e-09  4.58838234e-01  3.35664587e-09  4.58838234e-01  1.59499160e-07  1.25257888e-07  3.10000000e-01 
 3.20000000e-01  3.79527199e-09  4.58838247e-01  3.41387684e-09  3.36279173e-09  4.58838247e-01  3.35664593e-09  4.58838247e-01  1.59499190e-07  1.25257799e-07  3.20000000e-01 
 3.30000000e-01  3.79527193e-09  4.58838245e-01  3.41387685e-09  3.36279172e-09  4.58838245e-01  3.35664593e-09  4.58838245e-01  1.59499177e-07  1.25257646e-07  3.30000000e-01 
 3.40000000e-01  3.79527199e-09  4.58838230e-01  3.41387685e-09  3.36279173e-09  4.58838230e-01  3.35664587e-09  4.58838230e-01  1.59499151e-07  1.25257486e-07  3.40000000e-01 
 3.50000000e-01  3.79527193e-09  4.58838239e-01  3.41387685e-09  3.36279172e-09  4.58838239e-01  3.35664593e-09  4.58838239e-01  1.59499162e-07  1.25257404e-07  3.50000000e-01 
 3.60000000e-01  3.79527193e-09  4.58838238e-01  3.41387685e-09  3.36279174e-09  4.58838238e-01  3.35664593e-09  4.58838238e-01  1.59499170e-07  1.25257273e-07  3.60000000e-01 
 3.70000000e-01  3.79527193e-09  4.58838219e-01  3.41387685e-09  3.36279171e-09  4.58838219e-01  3.35664593e-09  4.58838219e-01  1.59499134e-07  1.25257085e-07  3.70000000e-01 
 3.80000000e-01  3.79527195e-09  4.58838242e-01  3.41387685e-09  3.36279168e-09  4.58838242e-01  3.35664588e-09  4.58838242e-01  1.59499160e-07  1.25257142e-07  3.80000000e-01 
 3.90000000e-01  3.79527198e-09  4.58838241e-01  3.41387685e-09  3.36279173e-09  4.58838241e-01  3.35664588e-09  4.58838241e-01  1.59499173e-07  1.25256914e-07  3.90000000e-01 
 4.00000000e-01  3.79527193e-09  4.58838241e-01  3.41387685e-09  3.36279172e-09  4.58838241e-01  3.35664588e-09  4.58838241e-01  1.59499174e-07  1.25256879e-07  4.00000000e-01 
 4.10000000e-01  3.79527193e-09  4.58838242e-01  3.41387685e-09  3.36279174e-09  4.58838242e-01  3.35664593e-09  4.58838242e-01  1.59499164e-07  1.25256712e-07  4.10000000e-01 
 4.20000000e-01  3.79527193e-09  4.58838234e-01  3.41387685e-09  3.36279172e-09  4.58838234e-01  3.35664587e-09  4.58838234e-01  1.59499157e-07  1.25256761e-07  4.20000000e-01 
 4.30000000e-01  3.79527199e-09  4.58838241e-01  3.41387685e-09  3.36279174e-09  4.58838241e-01  3.35664588e-09  4.58838241e-01  1.59499167e-07  1.25256538e-07  4.30000000e-01 
 4.40000000e-01  3.79527193e-09  4.58838236e-01  3.41387685e-09  3.36279172e-09  4.58838236e-01  3.35664587e-09  4.58838236e-01  1.59499168e-07  1.25256488e-07  4.40000000e-01 
 4.50000000e-01  3.79527193e-09  4.58838219e-01  3.41387685e-09  3.36279168e-09  4.58838219e-01  3.35664587e-09  4.58838219e-01  1.59499135e-07  1.25256381e-07  4.50000000e-01 
 4.60000000e-01  3.79527194e-09  4.58838233e-01  3.41387685e-09  3.36279173e-09  4.58838233e-01  3.35664593e-09  4.58838233e-01  1.59499152e-07  1.25256271e-07  4.60000000e-01 
 4.70000000e-01  3.79527193e-09  4.58838230e-01  3.41387685e-09  3.36279172e-09  4.58838230e-01  3.35664587e-09  4.58838230e-01  1.59499156e-07  1.25256093e-07  4.70000000e-01 
 4.80000000e-01  3.79527195e-09  4.58838243e-01  3.41387685e-09  3.36279168e-09  4.58838243e-01  3.35664588e-09  4.58838243e-01  1.59499171e-07  1.25256189e-07  4.80000000e-01 
 4.90000000e-01  3.79527193e-09  4.58838223e-01  3.41387685e-09  3.36279173e-09  4.58838223e-01  3.35664587e-09  4.58838223e-01  1.59499142e-07  1.25255941e-07  4.90000000e-01 
 5.00000000e-01  3.79527194e-09  4.58838236e-01  3.41387685e-09  3.36279172e-09  4.58838236e-01  3.35664587e-09  4.58838236e-01  1.59499149e-07  1.25255973e-07  5.00000000e-01 
 5.10000000e-01  3.79527198e-09  4.58838225e-01  3.41387685e-09  3.36279173e-09  4.58838225e-01  3.35664593e-09  4.58838225e-01  1.59499158e-07  1.25255749e-07  5.10000000e-01 
 5.20000000e-01  3.79527193e-09  4.58838216e-01  3.41387685e-09  3.36279171e-09  4.58838216e-01  3.35664593e-09  4.58838216e-01  1.59499124e-07  1.25255649e-07  5.20000000e-01 
 5.30000000e-01  3.79527195e-09  4.58838258e-01  3.41387685e-09  3.36279174e-09  4.58838258e-01  3.35664588e-09  4.58838258e-01  1.59499190e-07  1.25255657e-07  5.30000000e-01 
 5.40000000e-01  3.79527198e-09  4.58838224e-01  3.41387685e-09  3.36279172e-09  4.58838224e-01  3.35664593e-09  4.58838224e-01  1.59499138e-07  1.25255575e-07  5.40000000e-01 
 5.50000000e-01  3.79527193e-09  4.58838229e-01  3.41387685e-09  3.36279173e-09  4.58838229e-01  3.35664587e-09  4.58838229e-01  1.59499150e-07  1.25255440e-07  5.50000000e-01 
 5.60000000e-01  3.79527193e-09  4.58838265e-01  3.41387685e-09  3.36279172e-09  4.58838265e-01  3.35664593e-09  4.58838265e-01  1.59499215e-07  1.25255514e-07  5.60000000e-01 
 5.70000000e-01  3.79527193e-09  4.58838231e-01  3.41387685e-09  3.36279167e-09  4.58838231e-01  3.35664587e-09  4.58838231e-01  1.59499162e-07  1.25255255e-07  5.70000000e-01 
 5.80000000e-01  3.79527193e-09  4.58838238e-01  3.41387685e-09  3.36279168e-09  4.58838238e-01  3.35664593e-09  4.58838238e-01  1.59499165e-07  1.25255156e-07  5.80000000e-01 
 5.90000000e-01  3.79527193e-09  4.58838245e-01  3.41387685e-09  3.36279167e-09  4.58838245e-01  3.35664593e-09  4.58838245e-01  1.59499185e-07  1.25255134e-07  5.90000000e-01 
 6.00000000e-01  3.79527199e-09  4.58838248e-01  3.41387685e-09  3.36279167e-09  4.58838248e-01  3.35664588e-09  4.58838248e-01  1.59499171e-07  1.25255148e-07  6.00000000e-01 
 6.10000000e-01  3.79527193e-09  4.58838248e-01  3.41387685e-09  3.36279167e-09  4.58838247e-01  3.35664588e-09  4.58838248e-01  1.59499178e-07  1.25255056e-07  6.10000000e-01 
 6.20000000e-01  3.79527193e-09  4.58838234e-01  3.41387679e-09  3.36279167e-09  4.58838234e-01  3.35664587e-09  4.58838234e-01  1.59499157e-07  1.25254815e-07  6.20000000e-01 
 6.30000000e-01  3.79527199e-09  4.58838238e-01  3.41387686e-09  3.36279173e-09  4.58838238e-01  3.35664593e-09  4.58838238e-01  1.59499167e-07  1.25254850e-07  6.30000000e-01 
 6.40000000e-01  3.79527193e-09  4.58838224e-01  3.41387684e-09  3.36279172e-09  4.58838224e-01  3.35664587e-09  4.58838224e-01  1.59499139e-07  1.25254651e-07  6.40000000e-01 
 6.50000000e-01  3.79527194e-09  4.58838230e-01  3.41387685e-09  3.36279168e-09  4.58838230e-01  3.35664593e-09  4.58838230e-01  1.59499153e-07  1.25254580e-07  6.50000000e-01 
 6.60000000e-01  3.79527193e-09  4.58838229e-01  3.41387685e-09  3.36279167e-09  4.58838229e-01  3.35664587e-09  4.58838229e-01  1.59499149e-07  1.25254516e-07  6.60000000e-01 
 6.70000000e-01  3.79527195e-09  4.58838251e-01  3.41387685e-09  3.36279173e-09  4.58838251e-01  3.35664588e-09  4.58838251e-01  1.59499197e-07  1.25254438e-07  6.70000000e-01 
 6.80000000e-01  3.79527193e-09  4.58838238e-01  3.41387685e-09  3.36279166e-09  4.58838238e-01  3.35664593e-09  4.58838238e-01  1.59499162e-07  1.25254324e-07  6.80000000e-01 
 6.90000000e-01  3.79527195e-09  4.58838247e-01  3.41387685e-09  3.36279174e-09  4.58838247e-01  3.35664593e-09  4.58838247e-01  1.59499189e-07  1.25254388e-07  6.90000000e-01 
 7.00000000e-01  3.79527193e-09  4.58838251e-01  3.41387685e-09  3.36279172e-09  4.58838251e-01  3.35664593e-09  4.58838251e-01  1.59499191e-07  1.25254211e-07  7.00000000e-01 
 7.10000000e-01  3.79527200e-09  4.58838221e-01  3.41387685e-09  3.36279173e-09  4.58838221e-01  3.35664587e-09  4.58838221e-01  1.59499126e-07  1.25253955e-07  7.10000000e-01 
 7.20000000e-01  3.79527198e-09  4.58838211e-01  3.41387685e-09  3.36279171e-09  4.58838211e-01  3.35664587e-09  4.58838211e-01  1.59499118e-07  1.25253855e-07  7.20000000e-01 
 7.30000000e-01  3.79527193e-09  4.58838260e-01  3.41387685e-09  3.36279168e-09  4.58838260e-01  3.35664588e-09  4.58838260e-01  1.59499197e-07  1.25253990e-07  7.30000000e-01 
 7.40000000e-01  3.79527199e-09  4.58838225e-01  3.41387685e-09  3.36279173e-09  4.58838225e-01  3.35664593e-09  4.58838225e-01  1.59499145e-07  1.25253855e-07  7.40000000e-01 
 7.50000000e-01  3.79527193e-09  4.58838227e-01  3.41387685e-09  3.36279172e-09  4.58838227e-01  3.35664593e-09  4.58838227e-01  1.59499151e-07  1.25253699e-07  7.50000000e-01 
 7.60000000e-01  3.79527193e-09  4.58838250e-01  3.41387685e-09  3.36279174e-09  4.58838250e-01  3.35664588e-09  4.58838250e-01  1.59499182e-07  1.25253720e-07  7.60000000e-01 
 7.70000000e-01  3.79527193e-09  4.58838251e-01  3.41387685e-09  3.36279172e-09  4.58838251e-01  3.35664593e-09  4.58838251e-01  1.59499181e-07  1.25253486e-07  7.70000000e-01 
 7.80000000e-01  3.79527199e-09  4.58838229e-01  3.41387685e-09  3.36279173e-09  4.58838229e-01  3.35664593e-09  4.58838229e-01  1.59499139e-07  1.25253472e-07  7.80000000e-01 
 7.90000000e-01  3.79527193e-09  4.58838250e-01  3.41387685e-09  3.36279172e-09  4.58838250e-01  3.35664593e-09  4.58838250e-01  1.59499179e-07  1.25253415e-07  7.90000000e-01 
 8.00000000e-01  3.79527199e-09  4.58838249e-01  3.41387685e-09  3.36279174e-09  4.58838249e-01  3.35664593e-09  4.58838249e-01  1.59499173e-07  1.25253308e-07  8.00000000e-01 
 8.10000000e-01  3.79527193e-09  4.58838234e-01  3.41387685e-09  3.36279172e-09  4.58838234e-01  3.35664587e-09  4.58838234e-01  1.59499156e-07  1.25253116e-07  8.10000000e-01 
 8.20000000e-01  3.79527193e-09  4.58838249e-01  3.41387685e-09  3.36279168e-09  4.58838249e-01  3.35664593e-09  4.58838249e-01  1.59499186e-07  1.25253166e-07  8.20000000e-01 
 8.30000000e-01  3.79527199e-09  4.58838241e-01  3.41387685e-09  3.36279173e-09  4.58838241e-01  3.35664588e-09  4.58838241e-01  1.59499176e-07  1.25253003e-07  8.30000000e-01 
 8.40000000e-01  3.79527193e-09  4.58838217e-01  3.41387685e-09  3.36279171e-09  4.58838217e-01  3.35664593e-09  4.58838217e-01  1.59499124e-07  1.25252818e-07  8.40000000e-01 
 8.50000000e-01  3.79527195e-09  4.58838244e-01  3.41387685e-09  3.36279174e-09  4.58838244e-01  3.35664593e-09  4.58838244e-01  1.59499168e-07  1.25252946e-07  8.50000000e-01 
 8.60000000e-01  3.79527198e-09  4.58838242e-01  3.41387685e-09  3.36279172e-09  4.58838242e-01  3.35664593e-09  4.58838242e-01  1.59499171e-07  1.25252797e-07  8.60000000e-01 
 8.70000000e-01  3.79527193e-09  4.58838240e-01  3.41387685e-09  3.36279174e-09  4.58838240e-01  3.35664587e-09  4.58838240e-01  1.59499154e-07  1.25252591e-07  8.70000000e-01 
 8.80000000e-01  3.79527199e-09  4.58838248e-01  3.41387685e-09  3.36279172e-09  4.58838248e-01  3.35664588e-09  4.58838248e-01  1.59499174e-07  1.25252534e-07  8.80000000e-01 
 8.90000000e-01  3.79527193e-09  4.58838210e-01  3.41387685e-09  3.36279168e-09  4.58838210e-01  3.35664587e-09  4.58838210e-01  1.59499124e-07  1.25252306e-07  8.90000000e-01 
 9.00000000e-01  3.79527195e-09  4.58838244e-01  3.41387685e-09  3.36279173e-09  4.58838244e-01  3.35664593e-09  4.58838244e-01  1.59499167e-07  1.25252349e-07  9.00000000e-01 
 9.10000000e-01  3.79527193e-09  4.58838240e-01  3.41387685e-09  3.36279172e-09  4.58838240e-01  3.35664593e-09  4.58838240e-01  1.59499163e-07  1.25252178e-07  9.10000000e-01 
 9.20000000e-01  3.79527195e-09  4.58838251e-01  3.41387685e-09  3.36279168e-09  4.58838251e-01  3.35664593e-09  4.58838251e-01  1.59499191e-07  1.25252164e-07  9.20000000e-01 
 9.30000000e-01  3.79527198e-09  4.58838256e-01  3.41387685e-09  3.36279173e-09  4.58838256e-01  3.35664593e-09  4.58838256e-01  1.59499182e-07  1.25252065e-07  9.30000000e-01 
 9.40000000e-01  3.79527193e-09  4.58838234e-01  3.41387685e-09  3.36279172e-09  4.58838233e-01  3.35664587e-09  4.58838233e-01  1.59499156e-07  1.25251994e-07  9.40000000e-01 
 9.50000000e-01  3.79527199e-09  4.58838224e-01  3.41387685e-09  3.36279173e-09  4.58838224e-01  3.35664593e-09  4.58838224e-01  1.59499131e-07  1.25251866e-07  9.50000000e-01 
 9.60000000e-01  3.79527193e-09  4.58838238e-01  3.41387685e-09  3.36279172e-09  4.58838238e-01  3.35664593e-09  4.58838238e-01  1.59499162e-07  1.25251802e-07  9.60000000e-01 
 9.70000000e-01  3.79527193e-09  4.58838227e-01  3.41387685e-09  3.36279168e-09  4.58838227e-01  3.35664587e-09  4.58838227e-01  1.59499152e-07  1.25251724e-07  9.70000000e-01 
 9.80000000e-01  3.79527193e-09  4.58838243e-01  3.41387685e-09  3.36279173e-09  4.58838243e-01  3.35664588e-09  4.58838243e-01  1.59499172e-07  1.25251631e-07  9.80000000e-01 
 9.90000000e-01  3.79527193e-09  4.58838259e-01  3.41387685e-09  3.36279172e-09  4.58838259e-01  3.35664588e-09  4.58838259e-01  1.59499184e-07  1.25251574e-07  9.90000000e-01 
 1.00000000e+00  3.79527199e-09  4.58838244e-01  3.41387685e-09  3.36279168e-09  4.58838244e-01  3.35664588e-09  4.58838244e-01  1.59499171e-07  1.25251404e-07  1.00000000e+00 
 1.01000000e+00  3.79527193e-09  4.58838229e-01  3.41387685e-09  3.36279173e-09  4.58838229e-01  3.35664587e-09  4.58838229e-01  1.59499152e-07  1.25251404e-07  1.01000000e+00 
 1.02000000e+00  3.79527193e-09  4.58838227e-01  3.41387685e-09  3.36279172e-09  4.58838227e-01  3.35664593e-09  4.58838227e-01  1.59499152e-07  1.25251113e-07  1.02000000e+00 
 1.03000000e+00  3.79527199e-09  4.58838243e-01  3.41387685e-09  3.36279168e-09  4.58838243e-01  3.35664588e-09  4.58838243e-01  1.59499173e-07  1.25251091e-07  1.03000000e+00 
 1.04000000e+00  3.79527193e-09  4.58838265e-01  3.41387685e-09  3.36279167e-09  4.58838265e-01  3.35664588e-09  4.58838265e-01  1.59499189e-07  1.25251042e-07  1.04000000e+00 
 1.05000000e+00  3.79527199e-09  4.58838225e-01  3.41387685e-09  3.36279173e-09  4.58838225e-01  3.35664587e-09  4.58838225e-01  1.59499148e-07  1.25250750e-07  1.05000000e+00 
 1.06000000e+00  3.79527193e-09  4.58838240e-01  3.41387685e-09  3.36279172e-09  4.58838240e-01  3.35664587e-09  4.58838240e-01  1.59499165e-07  1.25250764e-07  1.06000000e+00 
 1.07000000e+00  3.79527199e-09  4.58838240e-01  3.41387679e-09  3.36279168e-09  4.58838240e-01  3.35664593e-09  4.58838240e-01  1.59499158e-07  1.25250679e-07  1.07000000e+00 
 1.08000000e+00  3.79527193e-09  4.58838236e-01  3.41387680e-09  3.36279167e-09  4.58838236e-01  3.35664593e-09  4.58838236e-01  1.59499163e-07  1.25250558e-07  1.08000000e+00 
 1.09000000e+00  3.79527199e-09  4.58838234e-01  3.41387685e-09  3.36279173e-09  4.58838234e-01  3.35664593e-09  4.58838234e-01  1.59499155e-07  1.25250480e-07  1.09000000e+00 
 1.10000000e+00  3.79527193e-09  4.58838237e-01  3.41387684e-09  3.36279172e-09  4.58838237e-01  3.35664587e-09  4.58838237e-01  1.59499160e-07  1.25250395e-07  1.10000000e+00 
