 v-sweep         v(b0)           v(b1)           v(b2)           v(b3)           v(b4)           v(b5)           v(b6)           i(vbias)        i(viout)        v(vout)        
 0.00000000e+00  3.21527860e-09  4.57584006e-01  3.33832466e-09  3.21041979e-09  3.53292103e-09  4.57584006e-01  3.04753164e-09  1.58716481e-07  4.92600047e-08  0.00000000e+00 
 1.00000000e-02  3.21527863e-09  4.57584043e-01  3.33832469e-09  3.21041981e-09  3.53292106e-09  4.57584043e-01  3.04753168e-09  1.58716533e-07  4.92595797e-08  1.00000000e-02 
 2.00000000e-02  3.21527857e-09  4.57584027e-01  3.33832469e-09  3.21041981e-09  3.53292106e-09  4.57584027e-01  3.04753167e-09  1.58716490e-07  4.92592280e-08  2.00000000e-02 
 3.00000000e-02  3.21527863e-09  4.57584022e-01  3.33832474e-09  3.21041976e-09  3.53292100e-09  4.57584021e-01  3.04753167e-09  1.58716481e-07  4.92587688e-08  3.00000000e-02 
 4.00000000e-02  3.21527863e-09  4.57584044e-01  3.33832469e-09  3.21041976e-09  3.53292106e-09  4.57584044e-01  3.04753167e-09  1.58716525e-07  4.92585768e-08  4.00000000e-02 
 5.00000000e-02  3.21527863e-09  4.57584042e-01  3.33832469e-09  3.21041981e-09  3.53292100e-09  4.57584042e-01  3.04753167e-09  1.58716517e-07  4.92582544e-08  5.00000000e-02 
 6.00000000e-02  3.21527857e-09  4.57584024e-01  3.33832469e-09  3.21041976e-09  3.53292106e-09  4.57584024e-01  3.04753167e-09  1.58716492e-07  4.92579004e-08  6.00000000e-02 
 7.00000000e-02  3.21527863e-09  4.57584026e-01  3.33832469e-09  3.21041976e-09  3.53292106e-09  4.57584025e-01  3.04753167e-09  1.58716504e-07  4.92576335e-08  7.00000000e-02 
 8.00000000e-02  3.21527857e-09  4.57584036e-01  3.33832469e-09  3.21041976e-09  3.53292106e-09  4.57584036e-01  3.04753167e-09  1.58716520e-07  4.92573378e-08  8.00000000e-02 
 9.00000000e-02  3.21527863e-09  4.57584023e-01  3.33832474e-09  3.21041976e-09  3.53292100e-09  4.57584022e-01  3.04753167e-09  1.58716496e-07  4.92571361e-08  9.00000000e-02 
 1.00000000e-01  3.21527857e-09  4.57584037e-01  3.33832469e-09  3.21041976e-09  3.53292106e-09  4.57584036e-01  3.04753167e-09  1.58716510e-07  4.92568404e-08  1.00000000e-01 
 1.10000000e-01  3.21527863e-09  4.57584012e-01  3.33832469e-09  3.21041981e-09  3.53292106e-09  4.57584011e-01  3.04753167e-09  1.58716477e-07  4.92565873e-08  1.10000000e-01 
 1.20000000e-01  3.21527857e-09  4.57584019e-01  3.33832469e-09  3.21041976e-09  3.53292106e-09  4.57584019e-01  3.04753167e-09  1.58716484e-07  4.92562799e-08  1.20000000e-01 
 1.30000000e-01  3.21527857e-09  4.57584001e-01  3.33832468e-09  3.21041981e-09  3.53292100e-09  4.57584001e-01  3.04753167e-09  1.58716461e-07  4.92562018e-08  1.30000000e-01 
 1.40000000e-01  3.21527863e-09  4.57584010e-01  3.33832474e-09  3.21041981e-09  3.53292106e-09  4.57584010e-01  3.04753167e-09  1.58716474e-07  4.92559407e-08  1.40000000e-01 
 1.50000000e-01  3.21527857e-09  4.57584018e-01  3.33832469e-09  3.21041981e-09  3.53292106e-09  4.57584018e-01  3.04753167e-09  1.58716484e-07  4.92557088e-08  1.50000000e-01 
 1.60000000e-01  3.21527857e-09  4.57584041e-01  3.33832469e-09  3.21041981e-09  3.53292106e-09  4.57584041e-01  3.04753167e-09  1.58716522e-07  4.92555134e-08  1.60000000e-01 
 1.70000000e-01  3.21527857e-09  4.57584033e-01  3.33832469e-09  3.21041976e-09  3.53292106e-09  4.57584033e-01  3.04753167e-09  1.58716518e-07  4.92554424e-08  1.70000000e-01 
 1.80000000e-01  3.21527863e-09  4.57583999e-01  3.33832468e-09  3.21041981e-09  3.53292100e-09  4.57583999e-01  3.04753167e-09  1.58716464e-07  4.92551333e-08  1.80000000e-01 
 1.90000000e-01  3.21527863e-09  4.57584023e-01  3.33832469e-09  3.21041981e-09  3.53292106e-09  4.57584022e-01  3.04753167e-09  1.58716502e-07  4.92548633e-08  1.90000000e-01 
 2.00000000e-01  3.21527863e-09  4.57584010e-01  3.33832468e-09  3.21041981e-09  3.53292100e-09  4.57584010e-01  3.04753167e-09  1.58716476e-07  4.92548384e-08  2.00000000e-01 
 2.10000000e-01  3.21527857e-09  4.57584022e-01  3.33832469e-09  3.21041976e-09  3.53292100e-09  4.57584021e-01  3.04753167e-09  1.58716491e-07  4.92546377e-08  2.10000000e-01 
 2.20000000e-01  3.21527863e-09  4.57584046e-01  3.33832469e-09  3.21041976e-09  3.53292106e-09  4.57584046e-01  3.04753167e-09  1.58716528e-07  4.92544974e-08  2.20000000e-01 
 2.30000000e-01  3.21527857e-09  4.57584009e-01  3.33832468e-09  3.21041981e-09  3.53292106e-09  4.57584008e-01  3.04753167e-09  1.58716465e-07  4.92542913e-08  2.30000000e-01 
 2.40000000e-01  3.21527857e-09  4.57584010e-01  3.33832468e-09  3.21041981e-09  3.53292100e-09  4.57584010e-01  3.04753167e-09  1.58716471e-07  4.92541794e-08  2.40000000e-01 
 2.50000000e-01  3.21527863e-09  4.57584021e-01  3.33832469e-09  3.21041976e-09  3.53292100e-09  4.57584021e-01  3.04753167e-09  1.58716491e-07  4.92541492e-08  2.50000000e-01 
 2.60000000e-01  3.21527857e-09  4.57584052e-01  3.33832469e-09  3.21041982e-09  3.53292106e-09  4.57584052e-01  3.04753167e-09  1.58716539e-07  4.92539538e-08  2.60000000e-01 
 2.70000000e-01  3.21527863e-09  4.57583998e-01  3.33832468e-09  3.21041975e-09  3.53292100e-09  4.57583998e-01  3.04753167e-09  1.58716455e-07  4.92537868e-08  2.70000000e-01 
 2.80000000e-01  3.21527857e-09  4.57584015e-01  3.33832469e-09  3.21041977e-09  3.53292100e-09  4.57584015e-01  3.04753167e-09  1.58716492e-07  4.92537229e-08  2.80000000e-01 
 2.90000000e-01  3.21527863e-09  4.57584013e-01  3.33832469e-09  3.21041981e-09  3.53292106e-09  4.57584013e-01  3.04753167e-09  1.58716472e-07  4.92535221e-08  2.90000000e-01 
 3.00000000e-01  3.21527863e-09  4.57584030e-01  3.33832474e-09  3.21041976e-09  3.53292106e-09  4.57584029e-01  3.04753167e-09  1.58716500e-07  4.92534511e-08  3.00000000e-01 
 3.10000000e-01  3.21527863e-09  4.57584018e-01  3.33832469e-09  3.21041976e-09  3.53292106e-09  4.57584018e-01  3.04753167e-09  1.58716495e-07  4.92534014e-08  3.10000000e-01 
 3.20000000e-01  3.21527863e-09  4.57584014e-01  3.33832469e-09  3.21041981e-09  3.53292106e-09  4.57584014e-01  3.04753167e-09  1.58716479e-07  4.92532237e-08  3.20000000e-01 
 3.30000000e-01  3.21527863e-09  4.57584052e-01  3.33832469e-09  3.21041982e-09  3.53292106e-09  4.57584051e-01  3.04753167e-09  1.58716531e-07  4.92531953e-08  3.30000000e-01 
 3.40000000e-01  3.21527863e-09  4.57584010e-01  3.33832468e-09  3.21041981e-09  3.53292106e-09  4.57584009e-01  3.04753167e-09  1.58716477e-07  4.92530390e-08  3.40000000e-01 
 3.50000000e-01  3.21527863e-09  4.57584044e-01  3.33832469e-09  3.21041981e-09  3.53292106e-09  4.57584043e-01  3.04753167e-09  1.58716527e-07  4.92530354e-08  3.50000000e-01 
 3.60000000e-01  3.21527863e-09  4.57583997e-01  3.33832468e-09  3.21041975e-09  3.53292105e-09  4.57583997e-01  3.04753167e-09  1.58716457e-07  4.92528827e-08  3.60000000e-01 
 3.70000000e-01  3.21527863e-09  4.57584004e-01  3.33832468e-09  3.21041977e-09  3.53292105e-09  4.57584003e-01  3.04753167e-09  1.58716471e-07  4.92526908e-08  3.70000000e-01 
 3.80000000e-01  3.21527857e-09  4.57584042e-01  3.33832469e-09  3.21041981e-09  3.53292106e-09  4.57584041e-01  3.04753167e-09  1.58716520e-07  4.92527796e-08  3.80000000e-01 
 3.90000000e-01  3.21527863e-09  4.57584020e-01  3.33832469e-09  3.21041981e-09  3.53292100e-09  4.57584020e-01  3.04753167e-09  1.58716483e-07  4.92526482e-08  3.90000000e-01 
 4.00000000e-01  3.21527863e-09  4.57584009e-01  3.33832468e-09  3.21041976e-09  3.53292100e-09  4.57584008e-01  3.04753167e-09  1.58716475e-07  4.92524990e-08  4.00000000e-01 
 4.10000000e-01  3.21527863e-09  4.57584007e-01  3.33832468e-09  3.21041977e-09  3.53292106e-09  4.57584007e-01  3.04753167e-09  1.58716476e-07  4.92524634e-08  4.10000000e-01 
 4.20000000e-01  3.21527857e-09  4.57584033e-01  3.33832469e-09  3.21041981e-09  3.53292106e-09  4.57584032e-01  3.04753167e-09  1.58716511e-07  4.92525487e-08  4.20000000e-01 
 4.30000000e-01  3.21527863e-09  4.57584026e-01  3.33832469e-09  3.21041981e-09  3.53292100e-09  4.57584026e-01  3.04753167e-09  1.58716495e-07  4.92523604e-08  4.30000000e-01 
 4.40000000e-01  3.21527863e-09  4.57584022e-01  3.33832469e-09  3.21041981e-09  3.53292100e-09  4.57584022e-01  3.04753167e-09  1.58716494e-07  4.92522503e-08  4.40000000e-01 
 4.50000000e-01  3.21527857e-09  4.57583995e-01  3.33832468e-09  3.21041975e-09  3.53292105e-09  4.57583995e-01  3.04753167e-09  1.58716441e-07  4.92522467e-08  4.50000000e-01 
 4.60000000e-01  3.21527863e-09  4.57584034e-01  3.33832469e-09  3.21041977e-09  3.53292106e-09  4.57584033e-01  3.04753167e-09  1.58716506e-07  4.92521863e-08  4.60000000e-01 
 4.70000000e-01  3.21527863e-09  4.57584026e-01  3.33832474e-09  3.21041975e-09  3.53292106e-09  4.57584026e-01  3.04753167e-09  1.58716488e-07  4.92520940e-08  4.70000000e-01 
 4.80000000e-01  3.21527863e-09  4.57584015e-01  3.33832469e-09  3.21041977e-09  3.53292106e-09  4.57584014e-01  3.04753167e-09  1.58716489e-07  4.92520869e-08  4.80000000e-01 
 4.90000000e-01  3.21527857e-09  4.57584022e-01  3.33832469e-09  3.21041981e-09  3.53292106e-09  4.57584021e-01  3.04753167e-09  1.58716503e-07  4.92519554e-08  4.90000000e-01 
 5.00000000e-01  3.21527863e-09  4.57584024e-01  3.33832469e-09  3.21041981e-09  3.53292106e-09  4.57584024e-01  3.04753167e-09  1.58716494e-07  4.92520265e-08  5.00000000e-01 
 5.10000000e-01  3.21527857e-09  4.57584018e-01  3.33832469e-09  3.21041976e-09  3.53292100e-09  4.57584017e-01  3.04753167e-09  1.58716497e-07  4.92517636e-08  5.10000000e-01 
 5.20000000e-01  3.21527863e-09  4.57584001e-01  3.33832468e-09  3.21041976e-09  3.53292100e-09  4.57584001e-01  3.04753167e-09  1.58716463e-07  4.92518275e-08  5.20000000e-01 
 5.30000000e-01  3.21527863e-09  4.57584003e-01  3.33832468e-09  3.21041977e-09  3.53292105e-09  4.57584003e-01  3.04753167e-09  1.58716460e-07  4.92516357e-08  5.30000000e-01 
 5.40000000e-01  3.21527857e-09  4.57584020e-01  3.33832469e-09  3.21041975e-09  3.53292100e-09  4.57584020e-01  3.04753167e-09  1.58716490e-07  4.92516499e-08  5.40000000e-01 
 5.50000000e-01  3.21527863e-09  4.57584017e-01  3.33832469e-09  3.21041977e-09  3.53292106e-09  4.57584017e-01  3.04753167e-09  1.58716488e-07  4.92516712e-08  5.50000000e-01 
 5.60000000e-01  3.21527857e-09  4.57584044e-01  3.33832469e-09  3.21041975e-09  3.53292100e-09  4.57584044e-01  3.04753162e-09  1.58716541e-07  4.92515930e-08  5.60000000e-01 
 5.70000000e-01  3.21527857e-09  4.57583999e-01  3.33832468e-09  3.21041977e-09  3.53292105e-09  4.57583999e-01  3.04753163e-09  1.58716449e-07  4.92514296e-08  5.70000000e-01 
 5.80000000e-01  3.21527863e-09  4.57584040e-01  3.33832469e-09  3.21041975e-09  3.53292106e-09  4.57584040e-01  3.04753168e-09  1.58716532e-07  4.92514474e-08  5.80000000e-01 
 5.90000000e-01  3.21527863e-09  4.57584015e-01  3.33832469e-09  3.21041977e-09  3.53292106e-09  4.57584014e-01  3.04753166e-09  1.58716479e-07  4.92513621e-08  5.90000000e-01 
 6.00000000e-01  3.21527857e-09  4.57584028e-01  3.33832469e-09  3.21041981e-09  3.53292106e-09  4.57584028e-01  3.04753167e-09  1.58716493e-07  4.92512200e-08  6.00000000e-01 
 6.10000000e-01  3.21527863e-09  4.57584000e-01  3.33832468e-09  3.21041976e-09  3.53292105e-09  4.57584000e-01  3.04753167e-09  1.58716461e-07  4.92512129e-08  6.10000000e-01 
 6.20000000e-01  3.21527863e-09  4.57584045e-01  3.33832469e-09  3.21041977e-09  3.53292106e-09  4.57584045e-01  3.04753167e-09  1.58716539e-07  4.92511347e-08  6.20000000e-01 
 6.30000000e-01  3.21527863e-09  4.57584028e-01  3.33832474e-09  3.21041975e-09  3.53292100e-09  4.57584028e-01  3.04753167e-09  1.58716505e-07  4.92510779e-08  6.30000000e-01 
 6.40000000e-01  3.21527863e-09  4.57584029e-01  3.33832469e-09  3.21041983e-09  3.53292106e-09  4.57584028e-01  3.04753167e-09  1.58716492e-07  4.92511276e-08  6.40000000e-01 
 6.50000000e-01  3.21527857e-09  4.57584039e-01  3.33832469e-09  3.21041975e-09  3.53292106e-09  4.57584038e-01  3.04753167e-09  1.58716527e-07  4.92509855e-08  6.50000000e-01 
 6.60000000e-01  3.21527863e-09  4.57584020e-01  3.33832469e-09  3.21041983e-09  3.53292100e-09  4.57584020e-01  3.04753167e-09  1.58716484e-07  4.92508647e-08  6.60000000e-01 
 6.70000000e-01  3.21527857e-09  4.57584008e-01  3.33832468e-09  3.21041981e-09  3.53292106e-09  4.57584008e-01  3.04753167e-09  1.58716470e-07  4.92508860e-08  6.70000000e-01 
 6.80000000e-01  3.21527857e-09  4.57584030e-01  3.33832469e-09  3.21041981e-09  3.53292106e-09  4.57584030e-01  3.04753167e-09  1.58716501e-07  4.92507723e-08  6.80000000e-01 
 6.90000000e-01  3.21527857e-09  4.57583997e-01  3.33832468e-09  3.21041981e-09  3.53292105e-09  4.57583997e-01  3.04753167e-09  1.58716452e-07  4.92507795e-08  6.90000000e-01 
 7.00000000e-01  3.21527863e-09  4.57584014e-01  3.33832469e-09  3.21041981e-09  3.53292106e-09  4.57584014e-01  3.04753167e-09  1.58716490e-07  4.92506373e-08  7.00000000e-01 
 7.10000000e-01  3.21527863e-09  4.57584018e-01  3.33832469e-09  3.21041976e-09  3.53292106e-09  4.57584018e-01  3.04753167e-09  1.58716481e-07  4.92505876e-08  7.10000000e-01 
 7.20000000e-01  3.21527863e-09  4.57584002e-01  3.33832468e-09  3.21041976e-09  3.53292105e-09  4.57584002e-01  3.04753167e-09  1.58716461e-07  4.92505166e-08  7.20000000e-01 
 7.30000000e-01  3.21527863e-09  4.57584004e-01  3.33832468e-09  3.21041977e-09  3.53292105e-09  4.57584004e-01  3.04753167e-09  1.58716471e-07  4.92505094e-08  7.30000000e-01 
 7.40000000e-01  3.21527857e-09  4.57584047e-01  3.33832469e-09  3.21041975e-09  3.53292106e-09  4.57584047e-01  3.04753167e-09  1.58716538e-07  4.92505237e-08  7.40000000e-01 
 7.50000000e-01  3.21527863e-09  4.57584001e-01  3.33832468e-09  3.21041977e-09  3.53292100e-09  4.57584000e-01  3.04753167e-09  1.58716465e-07  4.92503318e-08  7.50000000e-01 
 7.60000000e-01  3.21527863e-09  4.57584014e-01  3.33832469e-09  3.21041975e-09  3.53292100e-09  4.57584014e-01  3.04753167e-09  1.58716474e-07  4.92503176e-08  7.60000000e-01 
 7.70000000e-01  3.21527857e-09  4.57584017e-01  3.33832469e-09  3.21041977e-09  3.53292106e-09  4.57584017e-01  3.04753167e-09  1.58716492e-07  4.92502679e-08  7.70000000e-01 
 7.80000000e-01  3.21527857e-09  4.57584024e-01  3.33832469e-09  3.21041981e-09  3.53292106e-09  4.57584023e-01  3.04753161e-09  1.58716488e-07  4.92502892e-08  7.80000000e-01 
 7.90000000e-01  3.21527863e-09  4.57584014e-01  3.33832469e-09  3.21041981e-09  3.53292106e-09  4.57584014e-01  3.04753168e-09  1.58716486e-07  4.92500405e-08  7.90000000e-01 
 8.00000000e-01  3.21527863e-09  4.57584028e-01  3.33832469e-09  3.21041981e-09  3.53292106e-09  4.57584028e-01  3.04753167e-09  1.58716492e-07  4.92501542e-08  8.00000000e-01 
 8.10000000e-01  3.21527857e-09  4.57584024e-01  3.33832469e-09  3.21041981e-09  3.53292106e-09  4.57584024e-01  3.04753167e-09  1.58716496e-07  4.92499979e-08  8.10000000e-01 
 8.20000000e-01  3.21527863e-09  4.57584026e-01  3.33832469e-09  3.21041981e-09  3.53292106e-09  4.57584026e-01  3.04753167e-09  1.58716503e-07  4.92500050e-08  8.20000000e-01 
 8.30000000e-01  3.21527863e-09  4.57584045e-01  3.33832469e-09  3.21041976e-09  3.53292106e-09  4.57584045e-01  3.04753167e-09  1.58716536e-07  4.92500050e-08  8.30000000e-01 
 8.40000000e-01  3.21527857e-09  4.57584043e-01  3.33832469e-09  3.21041976e-09  3.53292100e-09  4.57584043e-01  3.04753167e-09  1.58716526e-07  4.92499126e-08  8.40000000e-01 
 8.50000000e-01  3.21527863e-09  4.57584024e-01  3.33832469e-09  3.21041976e-09  3.53292106e-09  4.57584023e-01  3.04753167e-09  1.58716507e-07  4.92498344e-08  8.50000000e-01 
 8.60000000e-01  3.21527863e-09  4.57584007e-01  3.33832468e-09  3.21041976e-09  3.53292106e-09  4.57584007e-01  3.04753167e-09  1.58716462e-07  4.92497279e-08  8.60000000e-01 
 8.70000000e-01  3.21527863e-09  4.57584010e-01  3.33832468e-09  3.21041977e-09  3.53292100e-09  4.57584009e-01  3.04753167e-09  1.58716475e-07  4.92495644e-08  8.70000000e-01 
 8.80000000e-01  3.21527863e-09  4.57584014e-01  3.33832469e-09  3.21041981e-09  3.53292100e-09  4.57584014e-01  3.04753167e-09  1.58716483e-07  4.92496142e-08  8.80000000e-01 
 8.90000000e-01  3.21527857e-09  4.57584021e-01  3.33832469e-09  3.21041981e-09  3.53292106e-09  4.57584020e-01  3.04753167e-09  1.58716483e-07  4.92496426e-08  8.90000000e-01 
 9.00000000e-01  3.21527863e-09  4.57584035e-01  3.33832474e-09  3.21041981e-09  3.53292106e-09  4.57584035e-01  3.04753167e-09  1.58716509e-07  4.92495005e-08  9.00000000e-01 
 9.10000000e-01  3.21527863e-09  4.57583999e-01  3.33832468e-09  3.21041975e-09  3.53292105e-09  4.57583999e-01  3.04753167e-09  1.58716462e-07  4.92494223e-08  9.10000000e-01 
 9.20000000e-01  3.21527863e-09  4.57584005e-01  3.33832468e-09  3.21041977e-09  3.53292106e-09  4.57584005e-01  3.04753167e-09  1.58716476e-07  4.92494081e-08  9.20000000e-01 
 9.30000000e-01  3.21527863e-09  4.57584016e-01  3.33832469e-09  3.21041981e-09  3.53292100e-09  4.57584016e-01  3.04753167e-09  1.58716482e-07  4.92493228e-08  9.30000000e-01 
 9.40000000e-01  3.21527857e-09  4.57584014e-01  3.33832469e-09  3.21041981e-09  3.53292106e-09  4.57584014e-01  3.04753167e-09  1.58716481e-07  4.92494081e-08  9.40000000e-01 
 9.50000000e-01  3.21527863e-09  4.57584013e-01  3.33832474e-09  3.21041981e-09  3.53292100e-09  4.57584013e-01  3.04753167e-09  1.58716474e-07  4.92492518e-08  9.50000000e-01 
 9.60000000e-01  3.21527863e-09  4.57584012e-01  3.33832474e-09  3.21041981e-09  3.53292106e-09  4.57584012e-01  3.04753167e-09  1.58716475e-07  4.92491310e-08  9.60000000e-01 
 9.70000000e-01  3.21527863e-09  4.57584038e-01  3.33832469e-09  3.21041976e-09  3.53292100e-09  4.57584038e-01  3.04753167e-09  1.58716520e-07  4.92491523e-08  9.70000000e-01 
 9.80000000e-01  3.21527863e-09  4.57584029e-01  3.33832469e-09  3.21041976e-09  3.53292106e-09  4.57584029e-01  3.04753167e-09  1.58716493e-07  4.92490457e-08  9.80000000e-01 
 9.90000000e-01  3.21527857e-09  4.57584018e-01  3.33832469e-09  3.21041976e-09  3.53292106e-09  4.57584018e-01  3.04753167e-09  1.58716483e-07  4.92489036e-08  9.90000000e-01 
 1.00000000e+00  3.21527863e-09  4.57584033e-01  3.33832469e-09  3.21041976e-09  3.53292106e-09  4.57584032e-01  3.04753167e-09  1.58716515e-07  4.92489178e-08  1.00000000e+00 
 1.01000000e+00  3.21527863e-09  4.57584027e-01  3.33832469e-09  3.21041976e-09  3.53292100e-09  4.57584026e-01  3.04753167e-09  1.58716503e-07  4.92488326e-08  1.01000000e+00 
 1.02000000e+00  3.21527863e-09  4.57584014e-01  3.33832469e-09  3.21041981e-09  3.53292106e-09  4.57584014e-01  3.04753167e-09  1.58716475e-07  4.92487615e-08  1.02000000e+00 
 1.03000000e+00  3.21527863e-09  4.57584007e-01  3.33832468e-09  3.21041976e-09  3.53292106e-09  4.57584007e-01  3.04753167e-09  1.58716475e-07  4.92486052e-08  1.03000000e+00 
 1.04000000e+00  3.21527857e-09  4.57584028e-01  3.33832469e-09  3.21041977e-09  3.53292100e-09  4.57584028e-01  3.04753167e-09  1.58716503e-07  4.92485981e-08  1.04000000e+00 
 1.05000000e+00  3.21527863e-09  4.57584027e-01  3.33832469e-09  3.21041975e-09  3.53292106e-09  4.57584026e-01  3.04753167e-09  1.58716498e-07  4.92484347e-08  1.05000000e+00 
 1.06000000e+00  3.21527863e-09  4.57584021e-01  3.33832469e-09  3.21041977e-09  3.53292100e-09  4.57584021e-01  3.04753167e-09  1.58716490e-07  4.92485626e-08  1.06000000e+00 
 1.07000000e+00  3.21527863e-09  4.57584023e-01  3.33832469e-09  3.21041975e-09  3.53292106e-09  4.57584023e-01  3.04753167e-09  1.58716491e-07  4.92483778e-08  1.07000000e+00 
 1.08000000e+00  3.21527863e-09  4.57584059e-01  3.33832469e-09  3.21041977e-09  3.53292106e-09  4.57584059e-01  3.04753167e-09  1.58716546e-07  4.92482926e-08  1.08000000e+00 
 1.09000000e+00  3.21527857e-09  4.57584017e-01  3.33832469e-09  3.21041975e-09  3.53292106e-09  4.57584016e-01  3.04753167e-09  1.58716471e-07  4.92483352e-08  1.09000000e+00 
 1.10000000e+00  3.21527863e-09  4.57584006e-01  3.33832468e-09  3.21041977e-09  3.53292106e-09  4.57584006e-01  3.04753167e-09  1.58716471e-07  4.92482499e-08  1.10000000e+00 
