 v-sweep         v(b0)           v(b1)           v(b2)           v(b3)           v(b4)           v(b5)           v(b6)           i(vbias)        i(viout)        v(vout)        
 0.00000000e+00  4.60383199e-01  3.19691974e-09  4.60383199e-01  4.60383199e-01  4.60383199e-01  3.29352003e-09  3.15048780e-09  1.63302604e-07  4.95748559e-08  0.00000000e+00 
 1.00000000e-02  4.60383208e-01  3.19691972e-09  4.60383208e-01  4.60383208e-01  4.60383208e-01  3.29352001e-09  3.15048784e-09  1.63302616e-07  4.95744422e-08  1.00000000e-02 
 2.00000000e-02  4.60383203e-01  3.19691972e-09  4.60383203e-01  4.60383203e-01  4.60383203e-01  3.29352002e-09  3.15048784e-09  1.63302597e-07  4.95742027e-08  2.00000000e-02 
 3.00000000e-02  4.60383184e-01  3.19691972e-09  4.60383184e-01  4.60383184e-01  4.60383184e-01  3.29352001e-09  3.15048784e-09  1.63302580e-07  4.95736387e-08  3.00000000e-02 
 4.00000000e-02  4.60383199e-01  3.19691972e-09  4.60383199e-01  4.60383199e-01  4.60383199e-01  3.29352002e-09  3.15048784e-09  1.63302603e-07  4.95734294e-08  4.00000000e-02 
 5.00000000e-02  4.60383167e-01  3.19691978e-09  4.60383167e-01  4.60383167e-01  4.60383167e-01  3.29351996e-09  3.15048784e-09  1.63302556e-07  4.95729542e-08  5.00000000e-02 
 6.00000000e-02  4.60383214e-01  3.19691978e-09  4.60383214e-01  4.60383214e-01  4.60383214e-01  3.29351996e-09  3.15048784e-09  1.63302617e-07  4.95727237e-08  6.00000000e-02 
 7.00000000e-02  4.60383187e-01  3.19691978e-09  4.60383187e-01  4.60383187e-01  4.60383187e-01  3.29352001e-09  3.15048784e-09  1.63302584e-07  4.95723689e-08  7.00000000e-02 
 8.00000000e-02  4.60383195e-01  3.19691972e-09  4.60383195e-01  4.60383195e-01  4.60383195e-01  3.29351996e-09  3.15048784e-09  1.63302606e-07  4.95721055e-08  8.00000000e-02 
 9.00000000e-02  4.60383205e-01  3.19691972e-09  4.60383205e-01  4.60383205e-01  4.60383205e-01  3.29352002e-09  3.15048784e-09  1.63302610e-07  4.95718897e-08  9.00000000e-02 
 1.00000000e-01  4.60383196e-01  3.19691972e-09  4.60383196e-01  4.60383196e-01  4.60383196e-01  3.29351996e-09  3.15048784e-09  1.63302594e-07  4.95716579e-08  1.00000000e-01 
 1.10000000e-01  4.60383182e-01  3.19691972e-09  4.60383182e-01  4.60383182e-01  4.60383182e-01  3.29352001e-09  3.15048784e-09  1.63302575e-07  4.95713479e-08  1.10000000e-01 
 1.20000000e-01  4.60383186e-01  3.19691972e-09  4.60383186e-01  4.60383186e-01  4.60383186e-01  3.29352001e-09  3.15048784e-09  1.63302592e-07  4.95711525e-08  1.20000000e-01 
 1.30000000e-01  4.60383200e-01  3.19691978e-09  4.60383200e-01  4.60383200e-01  4.60383200e-01  3.29352002e-09  3.15048784e-09  1.63302605e-07  4.95708230e-08  1.30000000e-01 
 1.40000000e-01  4.60383180e-01  3.19691978e-09  4.60383180e-01  4.60383180e-01  4.60383180e-01  3.29351996e-09  3.15048784e-09  1.63302575e-07  4.95706658e-08  1.40000000e-01 
 1.50000000e-01  4.60383194e-01  3.19691972e-09  4.60383194e-01  4.60383194e-01  4.60383194e-01  3.29351996e-09  3.15048784e-09  1.63302594e-07  4.95704970e-08  1.50000000e-01 
 1.60000000e-01  4.60383185e-01  3.19691978e-09  4.60383185e-01  4.60383185e-01  4.60383185e-01  3.29352001e-09  3.15048784e-09  1.63302583e-07  4.95702572e-08  1.60000000e-01 
 1.70000000e-01  4.60383201e-01  3.19691978e-09  4.60383201e-01  4.60383201e-01  4.60383201e-01  3.29351996e-09  3.15048784e-09  1.63302608e-07  4.95701649e-08  1.70000000e-01 
 1.80000000e-01  4.60383190e-01  3.19691972e-09  4.60383190e-01  4.60383190e-01  4.60383190e-01  3.29352001e-09  3.15048784e-09  1.63302585e-07  4.95698718e-08  1.80000000e-01 
 1.90000000e-01  4.60383186e-01  3.19691972e-09  4.60383186e-01  4.60383186e-01  4.60383186e-01  3.29352001e-09  3.15048784e-09  1.63302578e-07  4.95697812e-08  1.90000000e-01 
 2.00000000e-01  4.60383170e-01  3.19691978e-09  4.60383170e-01  4.60383170e-01  4.60383170e-01  3.29351996e-09  3.15048784e-09  1.63302561e-07  4.95695929e-08  2.00000000e-01 
 2.10000000e-01  4.60383186e-01  3.19691978e-09  4.60383186e-01  4.60383186e-01  4.60383186e-01  3.29352001e-09  3.15048784e-09  1.63302583e-07  4.95693921e-08  2.10000000e-01 
 2.20000000e-01  4.60383184e-01  3.19691978e-09  4.60383184e-01  4.60383184e-01  4.60383184e-01  3.29352001e-09  3.15048784e-09  1.63302577e-07  4.95693975e-08  2.20000000e-01 
 2.30000000e-01  4.60383186e-01  3.19691972e-09  4.60383186e-01  4.60383186e-01  4.60383186e-01  3.29352001e-09  3.15048784e-09  1.63302584e-07  4.95691754e-08  2.30000000e-01 
 2.40000000e-01  4.60383194e-01  3.19691972e-09  4.60383195e-01  4.60383194e-01  4.60383195e-01  3.29352002e-09  3.15048784e-09  1.63302607e-07  4.95690919e-08  2.40000000e-01 
 2.50000000e-01  4.60383195e-01  3.19691972e-09  4.60383195e-01  4.60383195e-01  4.60383195e-01  3.29352002e-09  3.15048784e-09  1.63302604e-07  4.95688983e-08  2.50000000e-01 
 2.60000000e-01  4.60383201e-01  3.19691978e-09  4.60383201e-01  4.60383201e-01  4.60383201e-01  3.29351996e-09  3.15048784e-09  1.63302609e-07  4.95688646e-08  2.60000000e-01 
 2.70000000e-01  4.60383210e-01  3.19691972e-09  4.60383210e-01  4.60383210e-01  4.60383210e-01  3.29351996e-09  3.15048784e-09  1.63302620e-07  4.95687171e-08  2.70000000e-01 
 2.80000000e-01  4.60383211e-01  3.19691972e-09  4.60383211e-01  4.60383211e-01  4.60383211e-01  3.29352002e-09  3.15048784e-09  1.63302621e-07  4.95686070e-08  2.80000000e-01 
 2.90000000e-01  4.60383175e-01  3.19691972e-09  4.60383175e-01  4.60383175e-01  4.60383175e-01  3.29351996e-09  3.15048784e-09  1.63302559e-07  4.95683636e-08  2.90000000e-01 
 3.00000000e-01  4.60383189e-01  3.19691972e-09  4.60383189e-01  4.60383189e-01  4.60383189e-01  3.29352001e-09  3.15048784e-09  1.63302581e-07  4.95683565e-08  3.00000000e-01 
 3.10000000e-01  4.60383191e-01  3.19691972e-09  4.60383191e-01  4.60383191e-01  4.60383191e-01  3.29351996e-09  3.15048784e-09  1.63302589e-07  4.95682428e-08  3.10000000e-01 
 3.20000000e-01  4.60383201e-01  3.19691972e-09  4.60383201e-01  4.60383201e-01  4.60383201e-01  3.29352002e-09  3.15048784e-09  1.63302611e-07  4.95680759e-08  3.20000000e-01 
 3.30000000e-01  4.60383180e-01  3.19691972e-09  4.60383180e-01  4.60383180e-01  4.60383180e-01  3.29351996e-09  3.15048784e-09  1.63302575e-07  4.95679551e-08  3.30000000e-01 
 3.40000000e-01  4.60383192e-01  3.19691972e-09  4.60383192e-01  4.60383192e-01  4.60383192e-01  3.29351996e-09  3.15048784e-09  1.63302602e-07  4.95679124e-08  3.40000000e-01 
 3.50000000e-01  4.60383203e-01  3.19691978e-09  4.60383203e-01  4.60383203e-01  4.60383203e-01  3.29352002e-09  3.15048784e-09  1.63302615e-07  4.95678059e-08  3.50000000e-01 
 3.60000000e-01  4.60383201e-01  3.19691978e-09  4.60383201e-01  4.60383201e-01  4.60383201e-01  3.29351996e-09  3.15048784e-09  1.63302604e-07  4.95677988e-08  3.60000000e-01 
 3.70000000e-01  4.60383206e-01  3.19691978e-09  4.60383206e-01  4.60383206e-01  4.60383206e-01  3.29351996e-09  3.15048784e-09  1.63302602e-07  4.95677490e-08  3.70000000e-01 
 3.80000000e-01  4.60383198e-01  3.19691972e-09  4.60383198e-01  4.60383198e-01  4.60383198e-01  3.29351996e-09  3.15048784e-09  1.63302585e-07  4.95674755e-08  3.80000000e-01 
 3.90000000e-01  4.60383191e-01  3.19691972e-09  4.60383191e-01  4.60383191e-01  4.60383191e-01  3.29351996e-09  3.15048784e-09  1.63302592e-07  4.95675074e-08  3.90000000e-01 
 4.00000000e-01  4.60383184e-01  3.19691978e-09  4.60383184e-01  4.60383184e-01  4.60383184e-01  3.29351996e-09  3.15048784e-09  1.63302581e-07  4.95673227e-08  4.00000000e-01 
 4.10000000e-01  4.60383178e-01  3.19691978e-09  4.60383178e-01  4.60383178e-01  4.60383178e-01  3.29351996e-09  3.15048784e-09  1.63302574e-07  4.95673049e-08  4.10000000e-01 
 4.20000000e-01  4.60383173e-01  3.19691972e-09  4.60383173e-01  4.60383173e-01  4.60383173e-01  3.29352001e-09  3.15048784e-09  1.63302567e-07  4.95672197e-08  4.20000000e-01 
 4.30000000e-01  4.60383184e-01  3.19691972e-09  4.60383185e-01  4.60383184e-01  4.60383184e-01  3.29351996e-09  3.15048784e-09  1.63302572e-07  4.95672055e-08  4.30000000e-01 
 4.40000000e-01  4.60383196e-01  3.19691978e-09  4.60383196e-01  4.60383196e-01  4.60383196e-01  3.29352002e-09  3.15048784e-09  1.63302604e-07  4.95670243e-08  4.40000000e-01 
 4.50000000e-01  4.60383182e-01  3.19691972e-09  4.60383182e-01  4.60383182e-01  4.60383182e-01  3.29351996e-09  3.15048784e-09  1.63302575e-07  4.95669994e-08  4.50000000e-01 
 4.60000000e-01  4.60383187e-01  3.19691972e-09  4.60383188e-01  4.60383187e-01  4.60383188e-01  3.29351996e-09  3.15048784e-09  1.63302594e-07  4.95670633e-08  4.60000000e-01 
 4.70000000e-01  4.60383203e-01  3.19691972e-09  4.60383203e-01  4.60383203e-01  4.60383203e-01  3.29351996e-09  3.15048784e-09  1.63302607e-07  4.95669070e-08  4.70000000e-01 
 4.80000000e-01  4.60383197e-01  3.19691972e-09  4.60383197e-01  4.60383197e-01  4.60383197e-01  3.29352002e-09  3.15048784e-09  1.63302589e-07  4.95668502e-08  4.80000000e-01 
 4.90000000e-01  4.60383206e-01  3.19691972e-09  4.60383207e-01  4.60383206e-01  4.60383207e-01  3.29352002e-09  3.15048784e-09  1.63302605e-07  4.95667436e-08  4.90000000e-01 
 5.00000000e-01  4.60383179e-01  3.19691978e-09  4.60383179e-01  4.60383179e-01  4.60383179e-01  3.29352001e-09  3.15048784e-09  1.63302576e-07  4.95666583e-08  5.00000000e-01 
 5.10000000e-01  4.60383207e-01  3.19691972e-09  4.60383207e-01  4.60383207e-01  4.60383207e-01  3.29352002e-09  3.15048784e-09  1.63302619e-07  4.95667010e-08  5.10000000e-01 
 5.20000000e-01  4.60383175e-01  3.19691972e-09  4.60383175e-01  4.60383175e-01  4.60383175e-01  3.29352001e-09  3.15048784e-09  1.63302566e-07  4.95664736e-08  5.20000000e-01 
 5.30000000e-01  4.60383193e-01  3.19691972e-09  4.60383193e-01  4.60383193e-01  4.60383193e-01  3.29351996e-09  3.15048784e-09  1.63302591e-07  4.95666974e-08  5.30000000e-01 
 5.40000000e-01  4.60383197e-01  3.19691978e-09  4.60383197e-01  4.60383197e-01  4.60383197e-01  3.29352002e-09  3.15048784e-09  1.63302600e-07  4.95664594e-08  5.40000000e-01 
 5.50000000e-01  4.60383200e-01  3.19691978e-09  4.60383200e-01  4.60383200e-01  4.60383200e-01  3.29351996e-09  3.15048784e-09  1.63302610e-07  4.95664132e-08  5.50000000e-01 
 5.60000000e-01  4.60383163e-01  3.19691972e-09  4.60383163e-01  4.60383163e-01  4.60383163e-01  3.29351996e-09  3.15048784e-09  1.63302552e-07  4.95663137e-08  5.60000000e-01 
 5.70000000e-01  4.60383192e-01  3.19691972e-09  4.60383192e-01  4.60383192e-01  4.60383192e-01  3.29351996e-09  3.15048784e-09  1.63302588e-07  4.95663812e-08  5.70000000e-01 
 5.80000000e-01  4.60383197e-01  3.19691972e-09  4.60383197e-01  4.60383197e-01  4.60383197e-01  3.29352002e-09  3.15048784e-09  1.63302590e-07  4.95662960e-08  5.80000000e-01 
 5.90000000e-01  4.60383191e-01  3.19691972e-09  4.60383191e-01  4.60383191e-01  4.60383191e-01  3.29352001e-09  3.15048784e-09  1.63302595e-07  4.95660544e-08  5.90000000e-01 
 6.00000000e-01  4.60383212e-01  3.19691972e-09  4.60383212e-01  4.60383212e-01  4.60383212e-01  3.29351996e-09  3.15048784e-09  1.63302624e-07  4.95661538e-08  6.00000000e-01 
 6.10000000e-01  4.60383183e-01  3.19691972e-09  4.60383184e-01  4.60383184e-01  4.60383184e-01  3.29351996e-09  3.15048784e-09  1.63302569e-07  4.95659620e-08  6.10000000e-01 
 6.20000000e-01  4.60383199e-01  3.19691972e-09  4.60383200e-01  4.60383199e-01  4.60383200e-01  3.29351996e-09  3.15048784e-09  1.63302600e-07  4.95659407e-08  6.20000000e-01 
 6.30000000e-01  4.60383189e-01  3.19691978e-09  4.60383189e-01  4.60383189e-01  4.60383189e-01  3.29351996e-09  3.15048784e-09  1.63302589e-07  4.95659336e-08  6.30000000e-01 
 6.40000000e-01  4.60383202e-01  3.19691972e-09  4.60383202e-01  4.60383202e-01  4.60383202e-01  3.29351996e-09  3.15048784e-09  1.63302591e-07  4.95658767e-08  6.40000000e-01 
 6.50000000e-01  4.60383198e-01  3.19691972e-09  4.60383198e-01  4.60383198e-01  4.60383198e-01  3.29351996e-09  3.15048784e-09  1.63302603e-07  4.95657488e-08  6.50000000e-01 
 6.60000000e-01  4.60383198e-01  3.19691972e-09  4.60383198e-01  4.60383198e-01  4.60383198e-01  3.29352002e-09  3.15048784e-09  1.63302601e-07  4.95658767e-08  6.60000000e-01 
 6.70000000e-01  4.60383212e-01  3.19691978e-09  4.60383212e-01  4.60383212e-01  4.60383212e-01  3.29352002e-09  3.15048784e-09  1.63302622e-07  4.95656494e-08  6.70000000e-01 
 6.80000000e-01  4.60383209e-01  3.19691978e-09  4.60383209e-01  4.60383209e-01  4.60383209e-01  3.29352002e-09  3.15048784e-09  1.63302611e-07  4.95656352e-08  6.80000000e-01 
 6.90000000e-01  4.60383185e-01  3.19691972e-09  4.60383185e-01  4.60383185e-01  4.60383185e-01  3.29352001e-09  3.15048784e-09  1.63302583e-07  4.95656494e-08  6.90000000e-01 
 7.00000000e-01  4.60383197e-01  3.19691978e-09  4.60383197e-01  4.60383197e-01  4.60383197e-01  3.29351996e-09  3.15048784e-09  1.63302603e-07  4.95654362e-08  7.00000000e-01 
 7.10000000e-01  4.60383188e-01  3.19691972e-09  4.60383189e-01  4.60383188e-01  4.60383189e-01  3.29352001e-09  3.15048784e-09  1.63302596e-07  4.95654859e-08  7.10000000e-01 
 7.20000000e-01  4.60383194e-01  3.19691972e-09  4.60383194e-01  4.60383194e-01  4.60383194e-01  3.29351996e-09  3.15048784e-09  1.63302584e-07  4.95654291e-08  7.20000000e-01 
 7.30000000e-01  4.60383188e-01  3.19691978e-09  4.60383188e-01  4.60383188e-01  4.60383188e-01  3.29351996e-09  3.15048784e-09  1.63302577e-07  4.95652728e-08  7.30000000e-01 
 7.40000000e-01  4.60383194e-01  3.19691972e-09  4.60383194e-01  4.60383194e-01  4.60383194e-01  3.29352002e-09  3.15048784e-09  1.63302588e-07  4.95653083e-08  7.40000000e-01 
 7.50000000e-01  4.60383182e-01  3.19691972e-09  4.60383182e-01  4.60383182e-01  4.60383182e-01  3.29352001e-09  3.15048784e-09  1.63302587e-07  4.95652728e-08  7.50000000e-01 
 7.60000000e-01  4.60383173e-01  3.19691972e-09  4.60383173e-01  4.60383173e-01  4.60383173e-01  3.29351996e-09  3.15048784e-09  1.63302566e-07  4.95652017e-08  7.60000000e-01 
 7.70000000e-01  4.60383190e-01  3.19691972e-09  4.60383190e-01  4.60383190e-01  4.60383190e-01  3.29352001e-09  3.15048784e-09  1.63302602e-07  4.95652088e-08  7.70000000e-01 
 7.80000000e-01  4.60383196e-01  3.19691972e-09  4.60383196e-01  4.60383196e-01  4.60383196e-01  3.29351996e-09  3.15048784e-09  1.63302589e-07  4.95650170e-08  7.80000000e-01 
 7.90000000e-01  4.60383173e-01  3.19691978e-09  4.60383173e-01  4.60383173e-01  4.60383173e-01  3.29351996e-09  3.15048784e-09  1.63302572e-07  4.95650809e-08  7.90000000e-01 
 8.00000000e-01  4.60383206e-01  3.19691972e-09  4.60383206e-01  4.60383206e-01  4.60383206e-01  3.29351996e-09  3.15048784e-09  1.63302608e-07  4.95649459e-08  8.00000000e-01 
 8.10000000e-01  4.60383181e-01  3.19691972e-09  4.60383181e-01  4.60383181e-01  4.60383181e-01  3.29352001e-09  3.15048784e-09  1.63302568e-07  4.95648678e-08  8.10000000e-01 
 8.20000000e-01  4.60383169e-01  3.19691972e-09  4.60383169e-01  4.60383169e-01  4.60383169e-01  3.29352001e-09  3.15048784e-09  1.63302567e-07  4.95648678e-08  8.20000000e-01 
 8.30000000e-01  4.60383197e-01  3.19691978e-09  4.60383197e-01  4.60383197e-01  4.60383197e-01  3.29351996e-09  3.15048784e-09  1.63302593e-07  4.95647754e-08  8.30000000e-01 
 8.40000000e-01  4.60383187e-01  3.19691972e-09  4.60383187e-01  4.60383187e-01  4.60383187e-01  3.29352001e-09  3.15048784e-09  1.63302578e-07  4.95646333e-08  8.40000000e-01 
 8.50000000e-01  4.60383183e-01  3.19691978e-09  4.60383183e-01  4.60383183e-01  4.60383183e-01  3.29351996e-09  3.15048784e-09  1.63302582e-07  4.95646617e-08  8.50000000e-01 
 8.60000000e-01  4.60383178e-01  3.19691972e-09  4.60383178e-01  4.60383178e-01  4.60383178e-01  3.29351996e-09  3.15048784e-09  1.63302574e-07  4.95645907e-08  8.60000000e-01 
 8.70000000e-01  4.60383182e-01  3.19691978e-09  4.60383182e-01  4.60383182e-01  4.60383182e-01  3.29351996e-09  3.15048784e-09  1.63302582e-07  4.95644841e-08  8.70000000e-01 
 8.80000000e-01  4.60383191e-01  3.19691972e-09  4.60383191e-01  4.60383191e-01  4.60383191e-01  3.29351996e-09  3.15048784e-09  1.63302600e-07  4.95642993e-08  8.80000000e-01 
 8.90000000e-01  4.60383186e-01  3.19691978e-09  4.60383186e-01  4.60383186e-01  4.60383186e-01  3.29352001e-09  3.15048784e-09  1.63302599e-07  4.95644201e-08  8.90000000e-01 
 9.00000000e-01  4.60383189e-01  3.19691972e-09  4.60383189e-01  4.60383189e-01  4.60383189e-01  3.29352001e-09  3.15048784e-09  1.63302584e-07  4.95642567e-08  9.00000000e-01 
 9.10000000e-01  4.60383187e-01  3.19691978e-09  4.60383187e-01  4.60383187e-01  4.60383187e-01  3.29352001e-09  3.15048784e-09  1.63302586e-07  4.95642496e-08  9.10000000e-01 
 9.20000000e-01  4.60383199e-01  3.19691972e-09  4.60383199e-01  4.60383199e-01  4.60383199e-01  3.29352002e-09  3.15048784e-09  1.63302596e-07  4.95642851e-08  9.20000000e-01 
 9.30000000e-01  4.60383182e-01  3.19691978e-09  4.60383182e-01  4.60383182e-01  4.60383182e-01  3.29352001e-09  3.15048784e-09  1.63302573e-07  4.95641928e-08  9.30000000e-01 
 9.40000000e-01  4.60383200e-01  3.19691972e-09  4.60383200e-01  4.60383200e-01  4.60383200e-01  3.29352002e-09  3.15048784e-09  1.63302607e-07  4.95640933e-08  9.40000000e-01 
 9.50000000e-01  4.60383178e-01  3.19691972e-09  4.60383178e-01  4.60383178e-01  4.60383178e-01  3.29351996e-09  3.15048784e-09  1.63302571e-07  4.95638872e-08  9.50000000e-01 
 9.60000000e-01  4.60383223e-01  3.19691978e-09  4.60383223e-01  4.60383223e-01  4.60383223e-01  3.29352002e-09  3.15048784e-09  1.63302640e-07  4.95640364e-08  9.60000000e-01 
 9.70000000e-01  4.60383196e-01  3.19691972e-09  4.60383196e-01  4.60383196e-01  4.60383196e-01  3.29351996e-09  3.15048784e-09  1.63302594e-07  4.95639583e-08  9.70000000e-01 
 9.80000000e-01  4.60383184e-01  3.19691972e-09  4.60383184e-01  4.60383184e-01  4.60383184e-01  3.29352001e-09  3.15048784e-09  1.63302584e-07  4.95638375e-08  9.80000000e-01 
 9.90000000e-01  4.60383195e-01  3.19691972e-09  4.60383195e-01  4.60383195e-01  4.60383195e-01  3.29351996e-09  3.15048784e-09  1.63302592e-07  4.95638588e-08  9.90000000e-01 
 1.00000000e+00  4.60383173e-01  3.19691972e-09  4.60383173e-01  4.60383173e-01  4.60383173e-01  3.29352001e-09  3.15048784e-09  1.63302568e-07  4.95635888e-08  1.00000000e+00 
 1.01000000e+00  4.60383208e-01  3.19691978e-09  4.60383208e-01  4.60383208e-01  4.60383208e-01  3.29352002e-09  3.15048784e-09  1.63302612e-07  4.95636314e-08  1.01000000e+00 
 1.02000000e+00  4.60383189e-01  3.19691978e-09  4.60383189e-01  4.60383189e-01  4.60383189e-01  3.29351996e-09  3.15048784e-09  1.63302573e-07  4.95635817e-08  1.02000000e+00 
 1.03000000e+00  4.60383185e-01  3.19691972e-09  4.60383185e-01  4.60383185e-01  4.60383185e-01  3.29352001e-09  3.15048784e-09  1.63302592e-07  4.95635604e-08  1.03000000e+00 
 1.04000000e+00  4.60383169e-01  3.19691972e-09  4.60383169e-01  4.60383169e-01  4.60383169e-01  3.29351996e-09  3.15048784e-09  1.63302555e-07  4.95634396e-08  1.04000000e+00 
 1.05000000e+00  4.60383181e-01  3.19691972e-09  4.60383181e-01  4.60383181e-01  4.60383181e-01  3.29351996e-09  3.15048784e-09  1.63302576e-07  4.95633898e-08  1.05000000e+00 
 1.06000000e+00  4.60383193e-01  3.19691972e-09  4.60383193e-01  4.60383193e-01  4.60383193e-01  3.29352001e-09  3.15048784e-09  1.63302596e-07  4.95633259e-08  1.06000000e+00 
 1.07000000e+00  4.60383173e-01  3.19691978e-09  4.60383173e-01  4.60383173e-01  4.60383173e-01  3.29352001e-09  3.15048784e-09  1.63302550e-07  4.95632548e-08  1.07000000e+00 
 1.08000000e+00  4.60383197e-01  3.19691978e-09  4.60383197e-01  4.60383197e-01  4.60383197e-01  3.29352002e-09  3.15048784e-09  1.63302594e-07  4.95631340e-08  1.08000000e+00 
 1.09000000e+00  4.60383197e-01  3.19691972e-09  4.60383197e-01  4.60383197e-01  4.60383197e-01  3.29351996e-09  3.15048784e-09  1.63302596e-07  4.95630630e-08  1.09000000e+00 
 1.10000000e+00  4.60383184e-01  3.19691978e-09  4.60383184e-01  4.60383184e-01  4.60383184e-01  3.29352001e-09  3.15048784e-09  1.63302579e-07  4.95629777e-08  1.10000000e+00 
