 v-sweep         v(b0)           v(b1)           v(b2)           v(b3)           v(b4)           v(b5)           v(b6)           i(vbias)        i(viout)        v(vout)        
 0.00000000e+00  3.42585769e-09  3.39328583e-09  4.57462971e-01  4.57462972e-01  4.57462972e-01  4.57462972e-01  3.03026830e-09  1.55824358e-07  8.92437269e-08  0.00000000e+00 
 1.00000000e-02  3.42585767e-09  3.39328586e-09  4.57462952e-01  4.57462952e-01  4.57462953e-01  4.57462953e-01  3.03026828e-09  1.55824329e-07  8.92433184e-08  1.00000000e-02 
 2.00000000e-02  3.42585772e-09  3.39328586e-09  4.57462985e-01  4.57462985e-01  4.57462985e-01  4.57462985e-01  3.03026822e-09  1.55824383e-07  8.92429466e-08  2.00000000e-02 
 3.00000000e-02  3.42585772e-09  3.39328586e-09  4.57462938e-01  4.57462938e-01  4.57462938e-01  4.57462938e-01  3.03026828e-09  1.55824310e-07  8.92424168e-08  3.00000000e-02 
 4.00000000e-02  3.42585772e-09  3.39328580e-09  4.57462963e-01  4.57462963e-01  4.57462963e-01  4.57462963e-01  3.03026822e-09  1.55824351e-07  8.92422154e-08  4.00000000e-02 
 5.00000000e-02  3.42585772e-09  3.39328586e-09  4.57462964e-01  4.57462965e-01  4.57462965e-01  4.57462965e-01  3.03026828e-09  1.55824348e-07  8.92419054e-08  5.00000000e-02 
 6.00000000e-02  3.42585767e-09  3.39328580e-09  4.57462974e-01  4.57462974e-01  4.57462974e-01  4.57462974e-01  3.03026828e-09  1.55824367e-07  8.92414351e-08  6.00000000e-02 
 7.00000000e-02  3.42585772e-09  3.39328586e-09  4.57462962e-01  4.57462962e-01  4.57462962e-01  4.57462962e-01  3.03026828e-09  1.55824339e-07  8.92411935e-08  7.00000000e-02 
 8.00000000e-02  3.42585772e-09  3.39328586e-09  4.57462995e-01  4.57462995e-01  4.57462995e-01  4.57462995e-01  3.03026828e-09  1.55824405e-07  8.92410350e-08  8.00000000e-02 
 9.00000000e-02  3.42585772e-09  3.39328580e-09  4.57462952e-01  4.57462952e-01  4.57462952e-01  4.57462952e-01  3.03026828e-09  1.55824332e-07  8.92406371e-08  9.00000000e-02 
 1.00000000e-01  3.42585772e-09  3.39328580e-09  4.57462977e-01  4.57462977e-01  4.57462977e-01  4.57462977e-01  3.03026828e-09  1.55824368e-07  8.92403920e-08  1.00000000e-01 
 1.10000000e-01  3.42585766e-09  3.39328580e-09  4.57462925e-01  4.57462925e-01  4.57462925e-01  4.57462925e-01  3.03026828e-09  1.55824298e-07  8.92399195e-08  1.10000000e-01 
 1.20000000e-01  3.42585772e-09  3.39328580e-09  4.57462966e-01  4.57462966e-01  4.57462966e-01  4.57462966e-01  3.03026828e-09  1.55824337e-07  8.92398422e-08  1.20000000e-01 
 1.30000000e-01  3.42585772e-09  3.39328580e-09  4.57462955e-01  4.57462955e-01  4.57462955e-01  4.57462955e-01  3.03026828e-09  1.55824341e-07  8.92396947e-08  1.30000000e-01 
 1.40000000e-01  3.42585772e-09  3.39328580e-09  4.57462961e-01  4.57462961e-01  4.57462961e-01  4.57462961e-01  3.03026822e-09  1.55824349e-07  8.92393714e-08  1.40000000e-01 
 1.50000000e-01  3.42585772e-09  3.39328586e-09  4.57462947e-01  4.57462947e-01  4.57462947e-01  4.57462947e-01  3.03026828e-09  1.55824325e-07  8.92392027e-08  1.50000000e-01 
 1.60000000e-01  3.42585772e-09  3.39328580e-09  4.57462979e-01  4.57462979e-01  4.57462979e-01  4.57462979e-01  3.03026828e-09  1.55824374e-07  8.92389966e-08  1.60000000e-01 
 1.70000000e-01  3.42585772e-09  3.39328580e-09  4.57462958e-01  4.57462958e-01  4.57462958e-01  4.57462958e-01  3.03026828e-09  1.55824337e-07  8.92387622e-08  1.70000000e-01 
 1.80000000e-01  3.42585772e-09  3.39328586e-09  4.57462984e-01  4.57462984e-01  4.57462984e-01  4.57462984e-01  3.03026828e-09  1.55824386e-07  8.92386414e-08  1.80000000e-01 
 1.90000000e-01  3.42585767e-09  3.39328586e-09  4.57462974e-01  4.57462974e-01  4.57462974e-01  4.57462974e-01  3.03026822e-09  1.55824355e-07  8.92383500e-08  1.90000000e-01 
 2.00000000e-01  3.42585772e-09  3.39328586e-09  4.57462949e-01  4.57462949e-01  4.57462949e-01  4.57462949e-01  3.03026828e-09  1.55824333e-07  8.92381902e-08  2.00000000e-01 
 2.10000000e-01  3.42585772e-09  3.39328586e-09  4.57462962e-01  4.57462962e-01  4.57462962e-01  4.57462962e-01  3.03026828e-09  1.55824352e-07  8.92380552e-08  2.10000000e-01 
 2.20000000e-01  3.42585772e-09  3.39328586e-09  4.57462971e-01  4.57462971e-01  4.57462971e-01  4.57462971e-01  3.03026828e-09  1.55824366e-07  8.92379202e-08  2.20000000e-01 
 2.30000000e-01  3.42585772e-09  3.39328586e-09  4.57462956e-01  4.57462956e-01  4.57462956e-01  4.57462956e-01  3.03026828e-09  1.55824325e-07  8.92377816e-08  2.30000000e-01 
 2.40000000e-01  3.42585772e-09  3.39328586e-09  4.57462982e-01  4.57462983e-01  4.57462983e-01  4.57462983e-01  3.03026828e-09  1.55824376e-07  8.92376857e-08  2.40000000e-01 
 2.50000000e-01  3.42585772e-09  3.39328586e-09  4.57462959e-01  4.57462959e-01  4.57462959e-01  4.57462959e-01  3.03026828e-09  1.55824342e-07  8.92374690e-08  2.50000000e-01 
 2.60000000e-01  3.42585767e-09  3.39328580e-09  4.57462967e-01  4.57462968e-01  4.57462968e-01  4.57462968e-01  3.03026828e-09  1.55824360e-07  8.92373180e-08  2.60000000e-01 
 2.70000000e-01  3.42585772e-09  3.39328586e-09  4.57462948e-01  4.57462948e-01  4.57462948e-01  4.57462948e-01  3.03026828e-09  1.55824329e-07  8.92370906e-08  2.70000000e-01 
 2.80000000e-01  3.42585772e-09  3.39328580e-09  4.57462941e-01  4.57462941e-01  4.57462941e-01  4.57462941e-01  3.03026828e-09  1.55824326e-07  8.92370462e-08  2.80000000e-01 
 2.90000000e-01  3.42585772e-09  3.39328580e-09  4.57462944e-01  4.57462944e-01  4.57462944e-01  4.57462944e-01  3.03026828e-09  1.55824337e-07  8.92369023e-08  2.90000000e-01 
 3.00000000e-01  3.42585772e-09  3.39328586e-09  4.57462979e-01  4.57462979e-01  4.57462979e-01  4.57462979e-01  3.03026822e-09  1.55824389e-07  8.92368774e-08  3.00000000e-01 
 3.10000000e-01  3.42585772e-09  3.39328580e-09  4.57462959e-01  4.57462959e-01  4.57462959e-01  4.57462959e-01  3.03026828e-09  1.55824349e-07  8.92367069e-08  3.10000000e-01 
 3.20000000e-01  3.42585772e-09  3.39328580e-09  4.57462963e-01  4.57462963e-01  4.57462963e-01  4.57462963e-01  3.03026828e-09  1.55824359e-07  8.92365506e-08  3.20000000e-01 
 3.30000000e-01  3.42585772e-09  3.39328580e-09  4.57462960e-01  4.57462960e-01  4.57462960e-01  4.57462960e-01  3.03026828e-09  1.55824349e-07  8.92364440e-08  3.30000000e-01 
 3.40000000e-01  3.42585772e-09  3.39328586e-09  4.57462944e-01  4.57462944e-01  4.57462944e-01  4.57462944e-01  3.03026828e-09  1.55824323e-07  8.92362522e-08  3.40000000e-01 
 3.50000000e-01  3.42585772e-09  3.39328586e-09  4.57462958e-01  4.57462958e-01  4.57462958e-01  4.57462958e-01  3.03026828e-09  1.55824337e-07  8.92363623e-08  3.50000000e-01 
 3.60000000e-01  3.42585772e-09  3.39328586e-09  4.57462955e-01  4.57462955e-01  4.57462955e-01  4.57462955e-01  3.03026822e-09  1.55824333e-07  8.92362237e-08  3.60000000e-01 
 3.70000000e-01  3.42585767e-09  3.39328586e-09  4.57462950e-01  4.57462950e-01  4.57462950e-01  4.57462950e-01  3.03026828e-09  1.55824347e-07  8.92361314e-08  3.70000000e-01 
 3.80000000e-01  3.42585772e-09  3.39328586e-09  4.57462981e-01  4.57462981e-01  4.57462981e-01  4.57462981e-01  3.03026828e-09  1.55824388e-07  8.92361101e-08  3.80000000e-01 
 3.90000000e-01  3.42585772e-09  3.39328586e-09  4.57462963e-01  4.57462963e-01  4.57462963e-01  4.57462963e-01  3.03026828e-09  1.55824340e-07  8.92357903e-08  3.90000000e-01 
 4.00000000e-01  3.42585772e-09  3.39328586e-09  4.57462974e-01  4.57462974e-01  4.57462974e-01  4.57462974e-01  3.03026828e-09  1.55824363e-07  8.92358401e-08  4.00000000e-01 
 4.10000000e-01  3.42585772e-09  3.39328586e-09  4.57462968e-01  4.57462968e-01  4.57462968e-01  4.57462968e-01  3.03026828e-09  1.55824353e-07  8.92356873e-08  4.10000000e-01 
 4.20000000e-01  3.42585772e-09  3.39328580e-09  4.57462968e-01  4.57462968e-01  4.57462968e-01  4.57462968e-01  3.03026828e-09  1.55824362e-07  8.92357441e-08  4.20000000e-01 
 4.30000000e-01  3.42585772e-09  3.39328580e-09  4.57462951e-01  4.57462951e-01  4.57462951e-01  4.57462951e-01  3.03026822e-09  1.55824332e-07  8.92355025e-08  4.30000000e-01 
 4.40000000e-01  3.42585767e-09  3.39328580e-09  4.57462978e-01  4.57462978e-01  4.57462978e-01  4.57462978e-01  3.03026828e-09  1.55824380e-07  8.92355168e-08  4.40000000e-01 
 4.50000000e-01  3.42585772e-09  3.39328586e-09  4.57462952e-01  4.57462952e-01  4.57462952e-01  4.57462952e-01  3.03026828e-09  1.55824347e-07  8.92353995e-08  4.50000000e-01 
 4.60000000e-01  3.42585772e-09  3.39328580e-09  4.57462984e-01  4.57462984e-01  4.57462984e-01  4.57462984e-01  3.03026828e-09  1.55824379e-07  8.92353249e-08  4.60000000e-01 
 4.70000000e-01  3.42585772e-09  3.39328580e-09  4.57462944e-01  4.57462944e-01  4.57462944e-01  4.57462944e-01  3.03026828e-09  1.55824321e-07  8.92352112e-08  4.70000000e-01 
 4.80000000e-01  3.42585766e-09  3.39328580e-09  4.57462929e-01  4.57462929e-01  4.57462929e-01  4.57462929e-01  3.03026828e-09  1.55824300e-07  8.92351437e-08  4.80000000e-01 
 4.90000000e-01  3.42585772e-09  3.39328586e-09  4.57462945e-01  4.57462945e-01  4.57462945e-01  4.57462945e-01  3.03026828e-09  1.55824322e-07  8.92350336e-08  4.90000000e-01 
 5.00000000e-01  3.42585772e-09  3.39328586e-09  4.57462921e-01  4.57462921e-01  4.57462921e-01  4.57462921e-01  3.03026827e-09  1.55824282e-07  8.92348879e-08  5.00000000e-01 
 5.10000000e-01  3.42585772e-09  3.39328580e-09  4.57462946e-01  4.57462946e-01  4.57462946e-01  4.57462946e-01  3.03026828e-09  1.55824320e-07  8.92348382e-08  5.10000000e-01 
 5.20000000e-01  3.42585772e-09  3.39328580e-09  4.57462969e-01  4.57462970e-01  4.57462970e-01  4.57462970e-01  3.03026828e-09  1.55824365e-07  8.92349554e-08  5.20000000e-01 
 5.30000000e-01  3.42585772e-09  3.39328586e-09  4.57462963e-01  4.57462963e-01  4.57462963e-01  4.57462963e-01  3.03026828e-09  1.55824353e-07  8.92348844e-08  5.30000000e-01 
 5.40000000e-01  3.42585767e-09  3.39328586e-09  4.57462947e-01  4.57462947e-01  4.57462947e-01  4.57462947e-01  3.03026828e-09  1.55824334e-07  8.92346215e-08  5.40000000e-01 
 5.50000000e-01  3.42585772e-09  3.39328586e-09  4.57462949e-01  4.57462949e-01  4.57462949e-01  4.57462949e-01  3.03026828e-09  1.55824337e-07  8.92345078e-08  5.50000000e-01 
 5.60000000e-01  3.42585772e-09  3.39328586e-09  4.57462943e-01  4.57462943e-01  4.57462943e-01  4.57462943e-01  3.03026828e-09  1.55824320e-07  8.92345433e-08  5.60000000e-01 
 5.70000000e-01  3.42585772e-09  3.39328586e-09  4.57462973e-01  4.57462973e-01  4.57462973e-01  4.57462973e-01  3.03026828e-09  1.55824374e-07  8.92345149e-08  5.70000000e-01 
 5.80000000e-01  3.42585772e-09  3.39328586e-09  4.57462957e-01  4.57462957e-01  4.57462957e-01  4.57462957e-01  3.03026828e-09  1.55824338e-07  8.92343763e-08  5.80000000e-01 
 5.90000000e-01  3.42585772e-09  3.39328580e-09  4.57462980e-01  4.57462980e-01  4.57462980e-01  4.57462980e-01  3.03026828e-09  1.55824388e-07  8.92343408e-08  5.90000000e-01 
 6.00000000e-01  3.42585772e-09  3.39328586e-09  4.57462968e-01  4.57462968e-01  4.57462968e-01  4.57462968e-01  3.03026828e-09  1.55824372e-07  8.92342342e-08  6.00000000e-01 
 6.10000000e-01  3.42585767e-09  3.39328586e-09  4.57462941e-01  4.57462942e-01  4.57462942e-01  4.57462942e-01  3.03026828e-09  1.55824321e-07  8.92342058e-08  6.10000000e-01 
 6.20000000e-01  3.42585772e-09  3.39328586e-09  4.57462951e-01  4.57462951e-01  4.57462951e-01  4.57462951e-01  3.03026822e-09  1.55824335e-07  8.92340921e-08  6.20000000e-01 
 6.30000000e-01  3.42585772e-09  3.39328586e-09  4.57462951e-01  4.57462951e-01  4.57462951e-01  4.57462951e-01  3.03026828e-09  1.55824333e-07  8.92340069e-08  6.30000000e-01 
 6.40000000e-01  3.42585772e-09  3.39328586e-09  4.57462961e-01  4.57462962e-01  4.57462962e-01  4.57462962e-01  3.03026828e-09  1.55824349e-07  8.92340566e-08  6.40000000e-01 
 6.50000000e-01  3.42585772e-09  3.39328586e-09  4.57462988e-01  4.57462988e-01  4.57462988e-01  4.57462988e-01  3.03026828e-09  1.55824380e-07  8.92339500e-08  6.50000000e-01 
 6.60000000e-01  3.42585772e-09  3.39328586e-09  4.57462931e-01  4.57462931e-01  4.57462931e-01  4.57462931e-01  3.03026828e-09  1.55824295e-07  8.92337368e-08  6.60000000e-01 
 6.70000000e-01  3.42585772e-09  3.39328580e-09  4.57462963e-01  4.57462964e-01  4.57462964e-01  4.57462964e-01  3.03026828e-09  1.55824348e-07  8.92337368e-08  6.70000000e-01 
 6.80000000e-01  3.42585772e-09  3.39328580e-09  4.57462953e-01  4.57462953e-01  4.57462953e-01  4.57462953e-01  3.03026828e-09  1.55824333e-07  8.92337226e-08  6.80000000e-01 
 6.90000000e-01  3.42585772e-09  3.39328586e-09  4.57462980e-01  4.57462980e-01  4.57462980e-01  4.57462980e-01  3.03026828e-09  1.55824380e-07  8.92336729e-08  6.90000000e-01 
 7.00000000e-01  3.42585772e-09  3.39328580e-09  4.57462943e-01  4.57462943e-01  4.57462943e-01  4.57462943e-01  3.03026828e-09  1.55824323e-07  8.92335663e-08  7.00000000e-01 
 7.10000000e-01  3.42585772e-09  3.39328586e-09  4.57462961e-01  4.57462961e-01  4.57462961e-01  4.57462961e-01  3.03026828e-09  1.55824348e-07  8.92334810e-08  7.10000000e-01 
 7.20000000e-01  3.42585772e-09  3.39328580e-09  4.57462931e-01  4.57462931e-01  4.57462931e-01  4.57462931e-01  3.03026828e-09  1.55824302e-07  8.92334029e-08  7.20000000e-01 
 7.30000000e-01  3.42585772e-09  3.39328580e-09  4.57462983e-01  4.57462983e-01  4.57462983e-01  4.57462983e-01  3.03026828e-09  1.55824374e-07  8.92333816e-08  7.30000000e-01 
 7.40000000e-01  3.42585772e-09  3.39328586e-09  4.57462964e-01  4.57462964e-01  4.57462964e-01  4.57462964e-01  3.03026828e-09  1.55824351e-07  8.92332253e-08  7.40000000e-01 
 7.50000000e-01  3.42585772e-09  3.39328586e-09  4.57462971e-01  4.57462971e-01  4.57462971e-01  4.57462971e-01  3.03026822e-09  1.55824364e-07  8.92332039e-08  7.50000000e-01 
 7.60000000e-01  3.42585772e-09  3.39328586e-09  4.57462972e-01  4.57462972e-01  4.57462972e-01  4.57462972e-01  3.03026828e-09  1.55824348e-07  8.92332110e-08  7.60000000e-01 
 7.70000000e-01  3.42585772e-09  3.39328580e-09  4.57462948e-01  4.57462949e-01  4.57462949e-01  4.57462949e-01  3.03026828e-09  1.55824330e-07  8.92330476e-08  7.70000000e-01 
 7.80000000e-01  3.42585772e-09  3.39328580e-09  4.57462980e-01  4.57462980e-01  4.57462980e-01  4.57462980e-01  3.03026828e-09  1.55824370e-07  8.92331187e-08  7.80000000e-01 
 7.90000000e-01  3.42585772e-09  3.39328586e-09  4.57462959e-01  4.57462959e-01  4.57462959e-01  4.57462959e-01  3.03026828e-09  1.55824334e-07  8.92329552e-08  7.90000000e-01 
 8.00000000e-01  3.42585772e-09  3.39328586e-09  4.57462951e-01  4.57462951e-01  4.57462951e-01  4.57462951e-01  3.03026828e-09  1.55824318e-07  8.92327705e-08  8.00000000e-01 
 8.10000000e-01  3.42585772e-09  3.39328580e-09  4.57462971e-01  4.57462971e-01  4.57462971e-01  4.57462971e-01  3.03026828e-09  1.55824345e-07  8.92328131e-08  8.10000000e-01 
 8.20000000e-01  3.42585772e-09  3.39328586e-09  4.57462945e-01  4.57462945e-01  4.57462945e-01  4.57462945e-01  3.03026828e-09  1.55824323e-07  8.92326284e-08  8.20000000e-01 
 8.30000000e-01  3.42585772e-09  3.39328580e-09  4.57462962e-01  4.57462962e-01  4.57462962e-01  4.57462962e-01  3.03026828e-09  1.55824337e-07  8.92326781e-08  8.30000000e-01 
 8.40000000e-01  3.42585772e-09  3.39328580e-09  4.57462947e-01  4.57462947e-01  4.57462947e-01  4.57462947e-01  3.03026822e-09  1.55824326e-07  8.92324934e-08  8.40000000e-01 
 8.50000000e-01  3.42585772e-09  3.39328580e-09  4.57462971e-01  4.57462971e-01  4.57462971e-01  4.57462971e-01  3.03026822e-09  1.55824365e-07  8.92324792e-08  8.50000000e-01 
 8.60000000e-01  3.42585772e-09  3.39328586e-09  4.57462961e-01  4.57462961e-01  4.57462961e-01  4.57462961e-01  3.03026828e-09  1.55824338e-07  8.92324437e-08  8.60000000e-01 
 8.70000000e-01  3.42585772e-09  3.39328580e-09  4.57462951e-01  4.57462951e-01  4.57462951e-01  4.57462951e-01  3.03026828e-09  1.55824326e-07  8.92322447e-08  8.70000000e-01 
 8.80000000e-01  3.42585772e-09  3.39328580e-09  4.57462975e-01  4.57462975e-01  4.57462975e-01  4.57462975e-01  3.03026828e-09  1.55824363e-07  8.92322873e-08  8.80000000e-01 
 8.90000000e-01  3.42585772e-09  3.39328586e-09  4.57462936e-01  4.57462936e-01  4.57462936e-01  4.57462936e-01  3.03026828e-09  1.55824291e-07  8.92322021e-08  8.90000000e-01 
 9.00000000e-01  3.42585772e-09  3.39328586e-09  4.57462970e-01  4.57462970e-01  4.57462970e-01  4.57462970e-01  3.03026828e-09  1.55824361e-07  8.92322163e-08  9.00000000e-01 
 9.10000000e-01  3.42585772e-09  3.39328580e-09  4.57462963e-01  4.57462963e-01  4.57462963e-01  4.57462963e-01  3.03026828e-09  1.55824337e-07  8.92320742e-08  9.10000000e-01 
 9.20000000e-01  3.42585767e-09  3.39328586e-09  4.57462957e-01  4.57462958e-01  4.57462958e-01  4.57462958e-01  3.03026828e-09  1.55824345e-07  8.92319534e-08  9.20000000e-01 
 9.30000000e-01  3.42585772e-09  3.39328586e-09  4.57462949e-01  4.57462950e-01  4.57462950e-01  4.57462950e-01  3.03026828e-09  1.55824332e-07  8.92318965e-08  9.30000000e-01 
 9.40000000e-01  3.42585772e-09  3.39328580e-09  4.57462987e-01  4.57462987e-01  4.57462987e-01  4.57462987e-01  3.03026828e-09  1.55824387e-07  8.92318326e-08  9.40000000e-01 
 9.50000000e-01  3.42585766e-09  3.39328580e-09  4.57462926e-01  4.57462926e-01  4.57462926e-01  4.57462926e-01  3.03026828e-09  1.55824292e-07  8.92316834e-08  9.50000000e-01 
 9.60000000e-01  3.42585772e-09  3.39328580e-09  4.57462942e-01  4.57462942e-01  4.57462942e-01  4.57462942e-01  3.03026828e-09  1.55824313e-07  8.92316976e-08  9.60000000e-01 
 9.70000000e-01  3.42585772e-09  3.39328586e-09  4.57462938e-01  4.57462938e-01  4.57462938e-01  4.57462938e-01  3.03026828e-09  1.55824312e-07  8.92314915e-08  9.70000000e-01 
 9.80000000e-01  3.42585772e-09  3.39328580e-09  4.57462965e-01  4.57462965e-01  4.57462965e-01  4.57462965e-01  3.03026822e-09  1.55824348e-07  8.92315200e-08  9.80000000e-01 
 9.90000000e-01  3.42585767e-09  3.39328586e-09  4.57462952e-01  4.57462952e-01  4.57462952e-01  4.57462952e-01  3.03026828e-09  1.55824319e-07  8.92314276e-08  9.90000000e-01 
 1.00000000e+00  3.42585772e-09  3.39328580e-09  4.57462944e-01  4.57462944e-01  4.57462944e-01  4.57462944e-01  3.03026822e-09  1.55824320e-07  8.92312286e-08  1.00000000e+00 
 1.01000000e+00  3.42585767e-09  3.39328586e-09  4.57462972e-01  4.57462972e-01  4.57462972e-01  4.57462972e-01  3.03026822e-09  1.55824367e-07  8.92313636e-08  1.01000000e+00 
 1.02000000e+00  3.42585772e-09  3.39328580e-09  4.57462949e-01  4.57462949e-01  4.57462949e-01  4.57462949e-01  3.03026828e-09  1.55824326e-07  8.92311647e-08  1.02000000e+00 
 1.03000000e+00  3.42585772e-09  3.39328580e-09  4.57462954e-01  4.57462954e-01  4.57462954e-01  4.57462954e-01  3.03026822e-09  1.55824323e-07  8.92311078e-08  1.03000000e+00 
 1.04000000e+00  3.42585772e-09  3.39328586e-09  4.57462959e-01  4.57462959e-01  4.57462959e-01  4.57462959e-01  3.03026828e-09  1.55824338e-07  8.92310084e-08  1.04000000e+00 
 1.05000000e+00  3.42585772e-09  3.39328586e-09  4.57462957e-01  4.57462957e-01  4.57462957e-01  4.57462957e-01  3.03026828e-09  1.55824340e-07  8.92308876e-08  1.05000000e+00 
 1.06000000e+00  3.42585772e-09  3.39328580e-09  4.57462972e-01  4.57462972e-01  4.57462972e-01  4.57462972e-01  3.03026828e-09  1.55824369e-07  8.92308663e-08  1.06000000e+00 
 1.07000000e+00  3.42585772e-09  3.39328580e-09  4.57462975e-01  4.57462975e-01  4.57462975e-01  4.57462975e-01  3.03026828e-09  1.55824362e-07  8.92309373e-08  1.07000000e+00 
 1.08000000e+00  3.42585772e-09  3.39328580e-09  4.57462983e-01  4.57462983e-01  4.57462983e-01  4.57462983e-01  3.03026828e-09  1.55824369e-07  8.92307810e-08  1.08000000e+00 
 1.09000000e+00  3.42585767e-09  3.39328586e-09  4.57462954e-01  4.57462955e-01  4.57462955e-01  4.57462955e-01  3.03026828e-09  1.55824343e-07  8.92306957e-08  1.09000000e+00 
 1.10000000e+00  3.42585772e-09  3.39328580e-09  4.57462953e-01  4.57462953e-01  4.57462953e-01  4.57462953e-01  3.03026828e-09  1.55824343e-07  8.92306673e-08  1.10000000e+00 
