 v-sweep         v(b0)           v(b1)           v(b2)           v(b3)           v(b4)           v(b5)           v(b6)           i(vbias)        i(viout)        v(vout)        
 0.00000000e+00  3.35058932e-09  4.57132585e-01  3.22570857e-09  3.22008769e-09  4.57132585e-01  3.10440671e-09  3.24128893e-09  1.56633728e-07  2.50800339e-08  0.00000000e+00 
 1.00000000e-02  3.35058935e-09  4.57132574e-01  3.22570860e-09  3.22008766e-09  4.57132575e-01  3.10440663e-09  3.24128890e-09  1.56633716e-07  2.50796607e-08  1.00000000e-02 
 2.00000000e-02  3.35058930e-09  4.57132579e-01  3.22570860e-09  3.22008767e-09  4.57132579e-01  3.10440668e-09  3.24128886e-09  1.56633722e-07  2.50792525e-08  2.00000000e-02 
 3.00000000e-02  3.35058935e-09  4.57132560e-01  3.22570860e-09  3.22008767e-09  4.57132560e-01  3.10440668e-09  3.24128891e-09  1.56633689e-07  2.50788743e-08  3.00000000e-02 
 4.00000000e-02  3.35058930e-09  4.57132582e-01  3.22570860e-09  3.22008767e-09  4.57132582e-01  3.10440663e-09  3.24128889e-09  1.56633713e-07  2.50785557e-08  4.00000000e-02 
 5.00000000e-02  3.35058930e-09  4.57132570e-01  3.22570860e-09  3.22008767e-09  4.57132570e-01  3.10440668e-09  3.24128886e-09  1.56633693e-07  2.50782239e-08  5.00000000e-02 
 6.00000000e-02  3.35058930e-09  4.57132588e-01  3.22570860e-09  3.22008767e-09  4.57132588e-01  3.10440663e-09  3.24128891e-09  1.56633724e-07  2.50779277e-08  6.00000000e-02 
 7.00000000e-02  3.35058930e-09  4.57132596e-01  3.22570860e-09  3.22008767e-09  4.57132596e-01  3.10440668e-09  3.24128884e-09  1.56633752e-07  2.50775942e-08  7.00000000e-02 
 8.00000000e-02  3.35058935e-09  4.57132577e-01  3.22570860e-09  3.22008767e-09  4.57132577e-01  3.10440663e-09  3.24128891e-09  1.56633721e-07  2.50772612e-08  8.00000000e-02 
 9.00000000e-02  3.35058930e-09  4.57132570e-01  3.22570860e-09  3.22008767e-09  4.57132570e-01  3.10440662e-09  3.24128889e-09  1.56633699e-07  2.50770693e-08  9.00000000e-02 
 1.00000000e-01  3.35058930e-09  4.57132571e-01  3.22570860e-09  3.22008767e-09  4.57132571e-01  3.10440668e-09  3.24128891e-09  1.56633698e-07  2.50768633e-08  1.00000000e-01 
 1.10000000e-01  3.35058930e-09  4.57132577e-01  3.22570860e-09  3.22008767e-09  4.57132577e-01  3.10440668e-09  3.24128889e-09  1.56633710e-07  2.50765542e-08  1.10000000e-01 
 1.20000000e-01  3.35058930e-09  4.57132562e-01  3.22570860e-09  3.22008767e-09  4.57132562e-01  3.10440662e-09  3.24128886e-09  1.56633699e-07  2.50763419e-08  1.20000000e-01 
 1.30000000e-01  3.35058935e-09  4.57132576e-01  3.22570860e-09  3.22008767e-09  4.57132576e-01  3.10440668e-09  3.24128891e-09  1.56633719e-07  2.50761980e-08  1.30000000e-01 
 1.40000000e-01  3.35058930e-09  4.57132586e-01  3.22570860e-09  3.22008767e-09  4.57132586e-01  3.10440668e-09  3.24128889e-09  1.56633731e-07  2.50760603e-08  1.40000000e-01 
 1.50000000e-01  3.35058930e-09  4.57132576e-01  3.22570866e-09  3.22008767e-09  4.57132576e-01  3.10440668e-09  3.24128886e-09  1.56633713e-07  2.50757477e-08  1.50000000e-01 
 1.60000000e-01  3.35058930e-09  4.57132594e-01  3.22570860e-09  3.22008767e-09  4.57132594e-01  3.10440663e-09  3.24128891e-09  1.56633738e-07  2.50756553e-08  1.60000000e-01 
 1.70000000e-01  3.35058930e-09  4.57132583e-01  3.22570860e-09  3.22008767e-09  4.57132584e-01  3.10440663e-09  3.24128889e-09  1.56633728e-07  2.50752983e-08  1.70000000e-01 
 1.80000000e-01  3.35058935e-09  4.57132566e-01  3.22570860e-09  3.22008767e-09  4.57132566e-01  3.10440662e-09  3.24128886e-09  1.56633705e-07  2.50751278e-08  1.80000000e-01 
 1.90000000e-01  3.35058930e-09  4.57132566e-01  3.22570860e-09  3.22008767e-09  4.57132566e-01  3.10440662e-09  3.24128891e-09  1.56633695e-07  2.50749252e-08  1.90000000e-01 
 2.00000000e-01  3.35058930e-09  4.57132585e-01  3.22570860e-09  3.22008767e-09  4.57132585e-01  3.10440663e-09  3.24128889e-09  1.56633740e-07  2.50749927e-08  2.00000000e-01 
 2.10000000e-01  3.35058935e-09  4.57132554e-01  3.22570860e-09  3.22008767e-09  4.57132554e-01  3.10440668e-09  3.24128891e-09  1.56633684e-07  2.50747441e-08  2.10000000e-01 
 2.20000000e-01  3.35058930e-09  4.57132577e-01  3.22570860e-09  3.22008767e-09  4.57132577e-01  3.10440663e-09  3.24128889e-09  1.56633708e-07  2.50745504e-08  2.20000000e-01 
 2.30000000e-01  3.35058930e-09  4.57132581e-01  3.22570860e-09  3.22008767e-09  4.57132581e-01  3.10440668e-09  3.24128886e-09  1.56633716e-07  2.50744367e-08  2.30000000e-01 
 2.40000000e-01  3.35058930e-09  4.57132579e-01  3.22570860e-09  3.22008761e-09  4.57132579e-01  3.10440663e-09  3.24128891e-09  1.56633715e-07  2.50743621e-08  2.40000000e-01 
 2.50000000e-01  3.35058930e-09  4.57132576e-01  3.22570860e-09  3.22008767e-09  4.57132576e-01  3.10440663e-09  3.24128889e-09  1.56633713e-07  2.50741277e-08  2.50000000e-01 
 2.60000000e-01  3.35058930e-09  4.57132567e-01  3.22570860e-09  3.22008767e-09  4.57132567e-01  3.10440662e-09  3.24128886e-09  1.56633697e-07  2.50739713e-08  2.60000000e-01 
 2.70000000e-01  3.35058930e-09  4.57132574e-01  3.22570860e-09  3.22008767e-09  4.57132574e-01  3.10440663e-09  3.24128891e-09  1.56633709e-07  2.50739376e-08  2.70000000e-01 
 2.80000000e-01  3.35058930e-09  4.57132596e-01  3.22570860e-09  3.22008761e-09  4.57132596e-01  3.10440663e-09  3.24128889e-09  1.56633746e-07  2.50738594e-08  2.80000000e-01 
 2.90000000e-01  3.35058930e-09  4.57132554e-01  3.22570860e-09  3.22008767e-09  4.57132554e-01  3.10440662e-09  3.24128885e-09  1.56633684e-07  2.50737280e-08  2.90000000e-01 
 3.00000000e-01  3.35058930e-09  4.57132556e-01  3.22570860e-09  3.22008767e-09  4.57132556e-01  3.10440662e-09  3.24128885e-09  1.56633685e-07  2.50736285e-08  3.00000000e-01 
 3.10000000e-01  3.35058930e-09  4.57132574e-01  3.22570860e-09  3.22008767e-09  4.57132574e-01  3.10440663e-09  3.24128885e-09  1.56633701e-07  2.50735788e-08  3.10000000e-01 
 3.20000000e-01  3.35058930e-09  4.57132580e-01  3.22570860e-09  3.22008767e-09  4.57132580e-01  3.10440663e-09  3.24128885e-09  1.56633722e-07  2.50733905e-08  3.20000000e-01 
 3.30000000e-01  3.35058930e-09  4.57132592e-01  3.22570860e-09  3.22008767e-09  4.57132592e-01  3.10440668e-09  3.24128885e-09  1.56633726e-07  2.50732626e-08  3.30000000e-01 
 3.40000000e-01  3.35058930e-09  4.57132573e-01  3.22570860e-09  3.22008767e-09  4.57132573e-01  3.10440668e-09  3.24128885e-09  1.56633712e-07  2.50733123e-08  3.40000000e-01 
 3.50000000e-01  3.35058935e-09  4.57132566e-01  3.22570860e-09  3.22008767e-09  4.57132566e-01  3.10440662e-09  3.24128891e-09  1.56633708e-07  2.50731773e-08  3.50000000e-01 
 3.60000000e-01  3.35058935e-09  4.57132573e-01  3.22570860e-09  3.22008767e-09  4.57132573e-01  3.10440668e-09  3.24128889e-09  1.56633715e-07  2.50731063e-08  3.60000000e-01 
 3.70000000e-01  3.35058930e-09  4.57132582e-01  3.22570860e-09  3.22008767e-09  4.57132582e-01  3.10440663e-09  3.24128891e-09  1.56633730e-07  2.50730778e-08  3.70000000e-01 
 3.80000000e-01  3.35058930e-09  4.57132559e-01  3.22570860e-09  3.22008767e-09  4.57132559e-01  3.10440662e-09  3.24128889e-09  1.56633691e-07  2.50728895e-08  3.80000000e-01 
 3.90000000e-01  3.35058930e-09  4.57132544e-01  3.22570860e-09  3.22008767e-09  4.57132544e-01  3.10440668e-09  3.24128885e-09  1.56633683e-07  2.50729286e-08  3.90000000e-01 
 4.00000000e-01  3.35058930e-09  4.57132577e-01  3.22570860e-09  3.22008767e-09  4.57132577e-01  3.10440663e-09  3.24128885e-09  1.56633705e-07  2.50727403e-08  4.00000000e-01 
 4.10000000e-01  3.35058935e-09  4.57132570e-01  3.22570860e-09  3.22008767e-09  4.57132570e-01  3.10440662e-09  3.24128891e-09  1.56633710e-07  2.50727474e-08  4.10000000e-01 
 4.20000000e-01  3.35058930e-09  4.57132570e-01  3.22570860e-09  3.22008767e-09  4.57132570e-01  3.10440662e-09  3.24128889e-09  1.56633710e-07  2.50726586e-08  4.20000000e-01 
 4.30000000e-01  3.35058935e-09  4.57132566e-01  3.22570860e-09  3.22008767e-09  4.57132566e-01  3.10440668e-09  3.24128891e-09  1.56633690e-07  2.50726551e-08  4.30000000e-01 
 4.40000000e-01  3.35058936e-09  4.57132579e-01  3.22570860e-09  3.22008767e-09  4.57132580e-01  3.10440668e-09  3.24128889e-09  1.56633715e-07  2.50726409e-08  4.40000000e-01 
 4.50000000e-01  3.35058930e-09  4.57132590e-01  3.22570860e-09  3.22008767e-09  4.57132590e-01  3.10440668e-09  3.24128886e-09  1.56633732e-07  2.50724312e-08  4.50000000e-01 
 4.60000000e-01  3.35058930e-09  4.57132571e-01  3.22570860e-09  3.22008767e-09  4.57132571e-01  3.10440668e-09  3.24128885e-09  1.56633707e-07  2.50723602e-08  4.60000000e-01 
 4.70000000e-01  3.35058935e-09  4.57132573e-01  3.22570860e-09  3.22008767e-09  4.57132573e-01  3.10440668e-09  3.24128891e-09  1.56633695e-07  2.50722181e-08  4.70000000e-01 
 4.80000000e-01  3.35058930e-09  4.57132567e-01  3.22570860e-09  3.22008767e-09  4.57132567e-01  3.10440668e-09  3.24128889e-09  1.56633706e-07  2.50722252e-08  4.80000000e-01 
 4.90000000e-01  3.35058930e-09  4.57132591e-01  3.22570860e-09  3.22008767e-09  4.57132591e-01  3.10440663e-09  3.24128891e-09  1.56633735e-07  2.50722607e-08  4.90000000e-01 
 5.00000000e-01  3.35058935e-09  4.57132574e-01  3.22570866e-09  3.22008767e-09  4.57132574e-01  3.10440663e-09  3.24128889e-09  1.56633712e-07  2.50722181e-08  5.00000000e-01 
 5.10000000e-01  3.35058930e-09  4.57132558e-01  3.22570860e-09  3.22008767e-09  4.57132558e-01  3.10440662e-09  3.24128885e-09  1.56633688e-07  2.50720404e-08  5.10000000e-01 
 5.20000000e-01  3.35058930e-09  4.57132572e-01  3.22570860e-09  3.22008767e-09  4.57132572e-01  3.10440668e-09  3.24128885e-09  1.56633701e-07  2.50721222e-08  5.20000000e-01 
 5.30000000e-01  3.35058930e-09  4.57132581e-01  3.22570866e-09  3.22008767e-09  4.57132581e-01  3.10440668e-09  3.24128891e-09  1.56633716e-07  2.50719872e-08  5.30000000e-01 
 5.40000000e-01  3.35058930e-09  4.57132550e-01  3.22570860e-09  3.22008767e-09  4.57132550e-01  3.10440668e-09  3.24128889e-09  1.56633680e-07  2.50719268e-08  5.40000000e-01 
 5.50000000e-01  3.35058930e-09  4.57132576e-01  3.22570860e-09  3.22008767e-09  4.57132576e-01  3.10440668e-09  3.24128886e-09  1.56633716e-07  2.50719161e-08  5.50000000e-01 
 5.60000000e-01  3.35058930e-09  4.57132573e-01  3.22570860e-09  3.22008767e-09  4.57132573e-01  3.10440663e-09  3.24128891e-09  1.56633707e-07  2.50718877e-08  5.60000000e-01 
 5.70000000e-01  3.35058935e-09  4.57132574e-01  3.22570860e-09  3.22008772e-09  4.57132574e-01  3.10440668e-09  3.24128889e-09  1.56633715e-07  2.50717918e-08  5.70000000e-01 
 5.80000000e-01  3.35058930e-09  4.57132590e-01  3.22570860e-09  3.22008766e-09  4.57132590e-01  3.10440668e-09  3.24128891e-09  1.56633739e-07  2.50717633e-08  5.80000000e-01 
 5.90000000e-01  3.35058930e-09  4.57132594e-01  3.22570860e-09  3.22008767e-09  4.57132594e-01  3.10440663e-09  3.24128889e-09  1.56633731e-07  2.50716852e-08  5.90000000e-01 
 6.00000000e-01  3.35058930e-09  4.57132573e-01  3.22570860e-09  3.22008772e-09  4.57132573e-01  3.10440663e-09  3.24128886e-09  1.56633710e-07  2.50716425e-08  6.00000000e-01 
 6.10000000e-01  3.35058935e-09  4.57132570e-01  3.22570866e-09  3.22008765e-09  4.57132570e-01  3.10440662e-09  3.24128885e-09  1.56633700e-07  2.50714578e-08  6.10000000e-01 
 6.20000000e-01  3.35058930e-09  4.57132571e-01  3.22570860e-09  3.22008767e-09  4.57132571e-01  3.10440668e-09  3.24128885e-09  1.56633712e-07  2.50715075e-08  6.20000000e-01 
 6.30000000e-01  3.35058930e-09  4.57132583e-01  3.22570860e-09  3.22008767e-09  4.57132583e-01  3.10440668e-09  3.24128885e-09  1.56633732e-07  2.50715146e-08  6.30000000e-01 
 6.40000000e-01  3.35058930e-09  4.57132582e-01  3.22570860e-09  3.22008767e-09  4.57132582e-01  3.10440668e-09  3.24128891e-09  1.56633729e-07  2.50715999e-08  6.40000000e-01 
 6.50000000e-01  3.35058930e-09  4.57132579e-01  3.22570860e-09  3.22008767e-09  4.57132579e-01  3.10440668e-09  3.24128889e-09  1.56633719e-07  2.50712802e-08  6.50000000e-01 
 6.60000000e-01  3.35058930e-09  4.57132567e-01  3.22570860e-09  3.22008767e-09  4.57132567e-01  3.10440668e-09  3.24128891e-09  1.56633701e-07  2.50712944e-08  6.60000000e-01 
 6.70000000e-01  3.35058930e-09  4.57132572e-01  3.22570860e-09  3.22008767e-09  4.57132572e-01  3.10440663e-09  3.24128889e-09  1.56633694e-07  2.50712517e-08  6.70000000e-01 
 6.80000000e-01  3.35058930e-09  4.57132573e-01  3.22570860e-09  3.22008767e-09  4.57132574e-01  3.10440663e-09  3.24128891e-09  1.56633712e-07  2.50712446e-08  6.80000000e-01 
 6.90000000e-01  3.35058930e-09  4.57132581e-01  3.22570860e-09  3.22008767e-09  4.57132581e-01  3.10440668e-09  3.24128889e-09  1.56633711e-07  2.50711381e-08  6.90000000e-01 
 7.00000000e-01  3.35058930e-09  4.57132569e-01  3.22570860e-09  3.22008767e-09  4.57132570e-01  3.10440662e-09  3.24128891e-09  1.56633698e-07  2.50710883e-08  7.00000000e-01 
 7.10000000e-01  3.35058930e-09  4.57132572e-01  3.22570860e-09  3.22008767e-09  4.57132572e-01  3.10440668e-09  3.24128889e-09  1.56633696e-07  2.50709888e-08  7.10000000e-01 
 7.20000000e-01  3.35058936e-09  4.57132585e-01  3.22570860e-09  3.22008767e-09  4.57132586e-01  3.10440668e-09  3.24128891e-09  1.56633707e-07  2.50709675e-08  7.20000000e-01 
 7.30000000e-01  3.35058930e-09  4.57132574e-01  3.22570860e-09  3.22008767e-09  4.57132575e-01  3.10440663e-09  3.24128889e-09  1.56633704e-07  2.50708396e-08  7.30000000e-01 
 7.40000000e-01  3.35058930e-09  4.57132558e-01  3.22570860e-09  3.22008767e-09  4.57132558e-01  3.10440662e-09  3.24128885e-09  1.56633690e-07  2.50708680e-08  7.40000000e-01 
 7.50000000e-01  3.35058930e-09  4.57132566e-01  3.22570860e-09  3.22008767e-09  4.57132566e-01  3.10440662e-09  3.24128885e-09  1.56633709e-07  2.50707899e-08  7.50000000e-01 
 7.60000000e-01  3.35058930e-09  4.57132574e-01  3.22570860e-09  3.22008767e-09  4.57132574e-01  3.10440663e-09  3.24128891e-09  1.56633707e-07  2.50708041e-08  7.60000000e-01 
 7.70000000e-01  3.35058930e-09  4.57132578e-01  3.22570860e-09  3.22008767e-09  4.57132578e-01  3.10440668e-09  3.24128889e-09  1.56633714e-07  2.50707330e-08  7.70000000e-01 
 7.80000000e-01  3.35058935e-09  4.57132566e-01  3.22570860e-09  3.22008767e-09  4.57132566e-01  3.10440668e-09  3.24128886e-09  1.56633693e-07  2.50706407e-08  7.80000000e-01 
 7.90000000e-01  3.35058930e-09  4.57132569e-01  3.22570860e-09  3.22008767e-09  4.57132569e-01  3.10440662e-09  3.24128885e-09  1.56633700e-07  2.50706691e-08  7.90000000e-01 
 8.00000000e-01  3.35058930e-09  4.57132573e-01  3.22570860e-09  3.22008767e-09  4.57132573e-01  3.10440668e-09  3.24128885e-09  1.56633716e-07  2.50706051e-08  8.00000000e-01 
 8.10000000e-01  3.35058930e-09  4.57132583e-01  3.22570866e-09  3.22008767e-09  4.57132583e-01  3.10440668e-09  3.24128885e-09  1.56633730e-07  2.50705341e-08  8.10000000e-01 
 8.20000000e-01  3.35058930e-09  4.57132590e-01  3.22570860e-09  3.22008767e-09  4.57132590e-01  3.10440668e-09  3.24128891e-09  1.56633723e-07  2.50704417e-08  8.20000000e-01 
 8.30000000e-01  3.35058930e-09  4.57132609e-01  3.22570860e-09  3.22008767e-09  4.57132609e-01  3.10440669e-09  3.24128889e-09  1.56633759e-07  2.50703565e-08  8.30000000e-01 
 8.40000000e-01  3.35058930e-09  4.57132586e-01  3.22570860e-09  3.22008767e-09  4.57132586e-01  3.10440668e-09  3.24128886e-09  1.56633738e-07  2.50703351e-08  8.40000000e-01 
 8.50000000e-01  3.35058936e-09  4.57132580e-01  3.22570860e-09  3.22008767e-09  4.57132580e-01  3.10440663e-09  3.24128891e-09  1.56633729e-07  2.50702854e-08  8.50000000e-01 
 8.60000000e-01  3.35058935e-09  4.57132564e-01  3.22570860e-09  3.22008767e-09  4.57132564e-01  3.10440668e-09  3.24128889e-09  1.56633695e-07  2.50703778e-08  8.60000000e-01 
 8.70000000e-01  3.35058930e-09  4.57132575e-01  3.22570860e-09  3.22008767e-09  4.57132575e-01  3.10440663e-09  3.24128891e-09  1.56633717e-07  2.50701646e-08  8.70000000e-01 
 8.80000000e-01  3.35058930e-09  4.57132574e-01  3.22570860e-09  3.22008767e-09  4.57132574e-01  3.10440668e-09  3.24128889e-09  1.56633706e-07  2.50700793e-08  8.80000000e-01 
 8.90000000e-01  3.35058930e-09  4.57132554e-01  3.22570860e-09  3.22008767e-09  4.57132554e-01  3.10440668e-09  3.24128885e-09  1.56633671e-07  2.50701504e-08  8.90000000e-01 
 9.00000000e-01  3.35058930e-09  4.57132568e-01  3.22570860e-09  3.22008767e-09  4.57132568e-01  3.10440662e-09  3.24128885e-09  1.56633705e-07  2.50699799e-08  9.00000000e-01 
 9.10000000e-01  3.35058935e-09  4.57132573e-01  3.22570860e-09  3.22008767e-09  4.57132573e-01  3.10440663e-09  3.24128885e-09  1.56633700e-07  2.50699799e-08  9.10000000e-01 
 9.20000000e-01  3.35058930e-09  4.57132582e-01  3.22570860e-09  3.22008767e-09  4.57132582e-01  3.10440668e-09  3.24128885e-09  1.56633728e-07  2.50699301e-08  9.20000000e-01 
 9.30000000e-01  3.35058930e-09  4.57132571e-01  3.22570860e-09  3.22008767e-09  4.57132571e-01  3.10440663e-09  3.24128891e-09  1.56633714e-07  2.50699017e-08  9.30000000e-01 
 9.40000000e-01  3.35058930e-09  4.57132573e-01  3.22570860e-09  3.22008767e-09  4.57132573e-01  3.10440668e-09  3.24128889e-09  1.56633708e-07  2.50698520e-08  9.40000000e-01 
 9.50000000e-01  3.35058935e-09  4.57132564e-01  3.22570860e-09  3.22008767e-09  4.57132564e-01  3.10440668e-09  3.24128886e-09  1.56633690e-07  2.50698164e-08  9.50000000e-01 
 9.60000000e-01  3.35058930e-09  4.57132559e-01  3.22570860e-09  3.22008767e-09  4.57132559e-01  3.10440668e-09  3.24128885e-09  1.56633685e-07  2.50695820e-08  9.60000000e-01 
 9.70000000e-01  3.35058930e-09  4.57132586e-01  3.22570860e-09  3.22008767e-09  4.57132587e-01  3.10440668e-09  3.24128885e-09  1.56633737e-07  2.50697028e-08  9.70000000e-01 
 9.80000000e-01  3.35058930e-09  4.57132573e-01  3.22570860e-09  3.22008767e-09  4.57132574e-01  3.10440663e-09  3.24128891e-09  1.56633699e-07  2.50696317e-08  9.80000000e-01 
 9.90000000e-01  3.35058930e-09  4.57132585e-01  3.22570860e-09  3.22008767e-09  4.57132585e-01  3.10440668e-09  3.24128889e-09  1.56633734e-07  2.50695749e-08  9.90000000e-01 
 1.00000000e+00  3.35058936e-09  4.57132585e-01  3.22570860e-09  3.22008767e-09  4.57132585e-01  3.10440663e-09  3.24128886e-09  1.56633727e-07  2.50694683e-08  1.00000000e+00 
 1.01000000e+00  3.35058930e-09  4.57132570e-01  3.22570860e-09  3.22008767e-09  4.57132570e-01  3.10440662e-09  3.24128891e-09  1.56633699e-07  2.50694256e-08  1.01000000e+00 
 1.02000000e+00  3.35058930e-09  4.57132565e-01  3.22570860e-09  3.22008767e-09  4.57132565e-01  3.10440668e-09  3.24128889e-09  1.56633702e-07  2.50693404e-08  1.02000000e+00 
 1.03000000e+00  3.35058930e-09  4.57132569e-01  3.22570860e-09  3.22008767e-09  4.57132569e-01  3.10440668e-09  3.24128891e-09  1.56633709e-07  2.50693049e-08  1.03000000e+00 
 1.04000000e+00  3.35058930e-09  4.57132574e-01  3.22570860e-09  3.22008767e-09  4.57132575e-01  3.10440663e-09  3.24128889e-09  1.56633719e-07  2.50693262e-08  1.04000000e+00 
 1.05000000e+00  3.35058930e-09  4.57132572e-01  3.22570860e-09  3.22008767e-09  4.57132572e-01  3.10440663e-09  3.24128891e-09  1.56633715e-07  2.50691272e-08  1.05000000e+00 
 1.06000000e+00  3.35058930e-09  4.57132552e-01  3.22570860e-09  3.22008767e-09  4.57132552e-01  3.10440662e-09  3.24128889e-09  1.56633675e-07  2.50691556e-08  1.06000000e+00 
 1.07000000e+00  3.35058935e-09  4.57132576e-01  3.22570860e-09  3.22008767e-09  4.57132576e-01  3.10440668e-09  3.24128886e-09  1.56633725e-07  2.50691130e-08  1.07000000e+00 
 1.08000000e+00  3.35058936e-09  4.57132584e-01  3.22570866e-09  3.22008767e-09  4.57132584e-01  3.10440668e-09  3.24128891e-09  1.56633732e-07  2.50689851e-08  1.08000000e+00 
 1.09000000e+00  3.35058930e-09  4.57132568e-01  3.22570860e-09  3.22008767e-09  4.57132568e-01  3.10440662e-09  3.24128889e-09  1.56633710e-07  2.50689425e-08  1.09000000e+00 
 1.10000000e+00  3.35058935e-09  4.57132549e-01  3.22570860e-09  3.22008767e-09  4.57132549e-01  3.10440662e-09  3.24128885e-09  1.56633666e-07  2.50689070e-08  1.10000000e+00 
