 v-sweep         v(b0)           v(b1)           v(b2)           v(b3)           v(b4)           v(b5)           v(b6)           i(vbias)        i(viout)        v(vout)        
 0.00000000e+00  3.30299365e-09  3.59069772e-09  3.22691261e-09  3.08694053e-09  4.58607307e-01  3.09344107e-09  4.58607307e-01  1.58872853e-07  1.19384283e-07  0.00000000e+00 
 1.00000000e-02  3.30299362e-09  3.59069769e-09  3.22691270e-09  3.08694050e-09  4.58607314e-01  3.09344110e-09  4.58607314e-01  1.58872851e-07  1.19383845e-07  1.00000000e-02 
 2.00000000e-02  3.30299362e-09  3.59069764e-09  3.22691269e-09  3.08694056e-09  4.58607311e-01  3.09344104e-09  4.58607311e-01  1.58872850e-07  1.19383533e-07  2.00000000e-02 
 3.00000000e-02  3.30299362e-09  3.59069769e-09  3.22691264e-09  3.08694049e-09  4.58607301e-01  3.09344111e-09  4.58607301e-01  1.58872833e-07  1.19383050e-07  3.00000000e-02 
 4.00000000e-02  3.30299362e-09  3.59069769e-09  3.22691265e-09  3.08694051e-09  4.58607309e-01  3.09344109e-09  4.58607309e-01  1.58872843e-07  1.19382804e-07  4.00000000e-02 
 5.00000000e-02  3.30299362e-09  3.59069769e-09  3.22691270e-09  3.08694050e-09  4.58607315e-01  3.09344110e-09  4.58607315e-01  1.58872855e-07  1.19382426e-07  5.00000000e-02 
 6.00000000e-02  3.30299362e-09  3.59069769e-09  3.22691269e-09  3.08694050e-09  4.58607318e-01  3.09344110e-09  4.58607319e-01  1.58872859e-07  1.19382143e-07  6.00000000e-02 
 7.00000000e-02  3.30299362e-09  3.59069769e-09  3.22691270e-09  3.08694056e-09  4.58607301e-01  3.09344110e-09  4.58607301e-01  1.58872826e-07  1.19381689e-07  7.00000000e-02 
 8.00000000e-02  3.30299362e-09  3.59069769e-09  3.22691270e-09  3.08694055e-09  4.58607323e-01  3.09344104e-09  4.58607323e-01  1.58872863e-07  1.19381536e-07  8.00000000e-02 
 9.00000000e-02  3.30299362e-09  3.59069769e-09  3.22691264e-09  3.08694050e-09  4.58607315e-01  3.09344111e-09  4.58607315e-01  1.58872844e-07  1.19381198e-07  9.00000000e-02 
 1.00000000e-01  3.30299362e-09  3.59069769e-09  3.22691265e-09  3.08694051e-09  4.58607300e-01  3.09344109e-09  4.58607300e-01  1.58872829e-07  1.19380786e-07  1.00000000e-01 
 1.10000000e-01  3.30299362e-09  3.59069769e-09  3.22691270e-09  3.08694050e-09  4.58607311e-01  3.09344110e-09  4.58607311e-01  1.58872847e-07  1.19380629e-07  1.10000000e-01 
 1.20000000e-01  3.30299362e-09  3.59069763e-09  3.22691263e-09  3.08694056e-09  4.58607285e-01  3.09344104e-09  4.58607285e-01  1.58872816e-07  1.19380286e-07  1.20000000e-01 
 1.30000000e-01  3.30299362e-09  3.59069769e-09  3.22691265e-09  3.08694055e-09  4.58607286e-01  3.09344111e-09  4.58607287e-01  1.58872818e-07  1.19380078e-07  1.30000000e-01 
 1.40000000e-01  3.30299362e-09  3.59069769e-09  3.22691265e-09  3.08694056e-09  4.58607321e-01  3.09344109e-09  4.58607322e-01  1.58872859e-07  1.19379894e-07  1.40000000e-01 
 1.50000000e-01  3.30299368e-09  3.59069763e-09  3.22691265e-09  3.08694050e-09  4.58607305e-01  3.09344104e-09  4.58607305e-01  1.58872838e-07  1.19379694e-07  1.50000000e-01 
 1.60000000e-01  3.30299362e-09  3.59069763e-09  3.22691265e-09  3.08694051e-09  4.58607307e-01  3.09344105e-09  4.58607307e-01  1.58872847e-07  1.19379424e-07  1.60000000e-01 
 1.70000000e-01  3.30299362e-09  3.59069769e-09  3.22691265e-09  3.08694050e-09  4.58607318e-01  3.09344110e-09  4.58607318e-01  1.58872866e-07  1.19379319e-07  1.70000000e-01 
 1.80000000e-01  3.30299362e-09  3.59069769e-09  3.22691265e-09  3.08694050e-09  4.58607316e-01  3.09344109e-09  4.58607316e-01  1.58872857e-07  1.19379106e-07  1.80000000e-01 
 1.90000000e-01  3.30299362e-09  3.59069764e-09  3.22691265e-09  3.08694051e-09  4.58607326e-01  3.09344110e-09  4.58607326e-01  1.58872862e-07  1.19378848e-07  1.90000000e-01 
 2.00000000e-01  3.30299362e-09  3.59069769e-09  3.22691264e-09  3.08694056e-09  4.58607291e-01  3.09344110e-09  4.58607291e-01  1.58872808e-07  1.19378694e-07  2.00000000e-01 
 2.10000000e-01  3.30299362e-09  3.59069769e-09  3.22691265e-09  3.08694055e-09  4.58607305e-01  3.09344110e-09  4.58607305e-01  1.58872838e-07  1.19378393e-07  2.10000000e-01 
 2.20000000e-01  3.30299362e-09  3.59069769e-09  3.22691264e-09  3.08694050e-09  4.58607300e-01  3.09344110e-09  4.58607300e-01  1.58872838e-07  1.19378257e-07  2.20000000e-01 
 2.30000000e-01  3.30299362e-09  3.59069769e-09  3.22691265e-09  3.08694051e-09  4.58607310e-01  3.09344110e-09  4.58607311e-01  1.58872856e-07  1.19378244e-07  2.30000000e-01 
 2.40000000e-01  3.30299362e-09  3.59069769e-09  3.22691265e-09  3.08694056e-09  4.58607328e-01  3.09344110e-09  4.58607328e-01  1.58872874e-07  1.19378125e-07  2.40000000e-01 
 2.50000000e-01  3.30299362e-09  3.59069769e-09  3.22691265e-09  3.08694055e-09  4.58607308e-01  3.09344104e-09  4.58607308e-01  1.58872832e-07  1.19377988e-07  2.50000000e-01 
 2.60000000e-01  3.30299362e-09  3.59069769e-09  3.22691264e-09  3.08694050e-09  4.58607301e-01  3.09344105e-09  4.58607302e-01  1.58872827e-07  1.19377789e-07  2.60000000e-01 
 2.70000000e-01  3.30299362e-09  3.59069769e-09  3.22691265e-09  3.08694051e-09  4.58607309e-01  3.09344105e-09  4.58607309e-01  1.58872839e-07  1.19377546e-07  2.70000000e-01 
 2.80000000e-01  3.30299362e-09  3.59069769e-09  3.22691265e-09  3.08694056e-09  4.58607310e-01  3.09344105e-09  4.58607310e-01  1.58872844e-07  1.19377443e-07  2.80000000e-01 
 2.90000000e-01  3.30299362e-09  3.59069769e-09  3.22691264e-09  3.08694055e-09  4.58607301e-01  3.09344110e-09  4.58607301e-01  1.58872833e-07  1.19377308e-07  2.90000000e-01 
 3.00000000e-01  3.30299362e-09  3.59069769e-09  3.22691265e-09  3.08694050e-09  4.58607317e-01  3.09344103e-09  4.58607317e-01  1.58872856e-07  1.19377159e-07  3.00000000e-01 
 3.10000000e-01  3.30299362e-09  3.59069764e-09  3.22691265e-09  3.08694051e-09  4.58607313e-01  3.09344105e-09  4.58607313e-01  1.58872872e-07  1.19377198e-07  3.10000000e-01 
 3.20000000e-01  3.30299362e-09  3.59069769e-09  3.22691265e-09  3.08694056e-09  4.58607320e-01  3.09344105e-09  4.58607320e-01  1.58872873e-07  1.19377031e-07  3.20000000e-01 
 3.30000000e-01  3.30299362e-09  3.59069763e-09  3.22691264e-09  3.08694055e-09  4.58607299e-01  3.09344110e-09  4.58607299e-01  1.58872832e-07  1.19376729e-07  3.30000000e-01 
 3.40000000e-01  3.30299362e-09  3.59069769e-09  3.22691265e-09  3.08694050e-09  4.58607311e-01  3.09344109e-09  4.58607311e-01  1.58872853e-07  1.19376786e-07  3.40000000e-01 
 3.50000000e-01  3.30299362e-09  3.59069769e-09  3.22691265e-09  3.08694051e-09  4.58607305e-01  3.09344110e-09  4.58607305e-01  1.58872853e-07  1.19376640e-07  3.50000000e-01 
 3.60000000e-01  3.30299362e-09  3.59069769e-09  3.22691265e-09  3.08694050e-09  4.58607321e-01  3.09344104e-09  4.58607321e-01  1.58872859e-07  1.19376590e-07  3.60000000e-01 
 3.70000000e-01  3.30299362e-09  3.59069769e-09  3.22691264e-09  3.08694050e-09  4.58607293e-01  3.09344105e-09  4.58607293e-01  1.58872834e-07  1.19376310e-07  3.70000000e-01 
 3.80000000e-01  3.30299362e-09  3.59069769e-09  3.22691270e-09  3.08694050e-09  4.58607314e-01  3.09344105e-09  4.58607314e-01  1.58872840e-07  1.19376249e-07  3.80000000e-01 
 3.90000000e-01  3.30299362e-09  3.59069769e-09  3.22691263e-09  3.08694050e-09  4.58607315e-01  3.09344110e-09  4.58607315e-01  1.58872848e-07  1.19376192e-07  3.90000000e-01 
 4.00000000e-01  3.30299362e-09  3.59069764e-09  3.22691265e-09  3.08694050e-09  4.58607319e-01  3.09344103e-09  4.58607319e-01  1.58872861e-07  1.19376164e-07  4.00000000e-01 
 4.10000000e-01  3.30299362e-09  3.59069764e-09  3.22691265e-09  3.08694051e-09  4.58607335e-01  3.09344105e-09  4.58607335e-01  1.58872889e-07  1.19376100e-07  4.10000000e-01 
 4.20000000e-01  3.30299362e-09  3.59069769e-09  3.22691265e-09  3.08694050e-09  4.58607314e-01  3.09344105e-09  4.58607314e-01  1.58872859e-07  1.19375940e-07  4.20000000e-01 
 4.30000000e-01  3.30299362e-09  3.59069769e-09  3.22691265e-09  3.08694056e-09  4.58607308e-01  3.09344110e-09  4.58607308e-01  1.58872848e-07  1.19375798e-07  4.30000000e-01 
 4.40000000e-01  3.30299362e-09  3.59069764e-09  3.22691265e-09  3.08694049e-09  4.58607309e-01  3.09344103e-09  4.58607309e-01  1.58872854e-07  1.19375716e-07  4.40000000e-01 
 4.50000000e-01  3.30299362e-09  3.59069769e-09  3.22691265e-09  3.08694051e-09  4.58607303e-01  3.09344105e-09  4.58607303e-01  1.58872840e-07  1.19375521e-07  4.50000000e-01 
 4.60000000e-01  3.30299362e-09  3.59069769e-09  3.22691264e-09  3.08694050e-09  4.58607296e-01  3.09344104e-09  4.58607296e-01  1.58872830e-07  1.19375390e-07  4.60000000e-01 
 4.70000000e-01  3.30299362e-09  3.59069769e-09  3.22691265e-09  3.08694050e-09  4.58607313e-01  3.09344105e-09  4.58607314e-01  1.58872844e-07  1.19375422e-07  4.70000000e-01 
 4.80000000e-01  3.30299362e-09  3.59069769e-09  3.22691264e-09  3.08694050e-09  4.58607295e-01  3.09344110e-09  4.58607295e-01  1.58872820e-07  1.19375372e-07  4.80000000e-01 
 4.90000000e-01  3.30299362e-09  3.59069769e-09  3.22691265e-09  3.08694051e-09  4.58607337e-01  3.09344109e-09  4.58607337e-01  1.58872902e-07  1.19375379e-07  4.90000000e-01 
 5.00000000e-01  3.30299362e-09  3.59069769e-09  3.22691265e-09  3.08694050e-09  4.58607315e-01  3.09344110e-09  4.58607315e-01  1.58872835e-07  1.19375095e-07  5.00000000e-01 
 5.10000000e-01  3.30299362e-09  3.59069769e-09  3.22691264e-09  3.08694056e-09  4.58607301e-01  3.09344104e-09  4.58607301e-01  1.58872832e-07  1.19375017e-07  5.10000000e-01 
 5.20000000e-01  3.30299362e-09  3.59069769e-09  3.22691265e-09  3.08694055e-09  4.58607310e-01  3.09344111e-09  4.58607310e-01  1.58872842e-07  1.19374935e-07  5.20000000e-01 
 5.30000000e-01  3.30299362e-09  3.59069769e-09  3.22691265e-09  3.08694056e-09  4.58607313e-01  3.09344109e-09  4.58607313e-01  1.58872864e-07  1.19374963e-07  5.30000000e-01 
 5.40000000e-01  3.30299362e-09  3.59069769e-09  3.22691265e-09  3.08694050e-09  4.58607309e-01  3.09344104e-09  4.58607309e-01  1.58872844e-07  1.19374832e-07  5.40000000e-01 
 5.50000000e-01  3.30299362e-09  3.59069769e-09  3.22691265e-09  3.08694051e-09  4.58607327e-01  3.09344105e-09  4.58607328e-01  1.58872872e-07  1.19374818e-07  5.50000000e-01 
 5.60000000e-01  3.30299362e-09  3.59069769e-09  3.22691265e-09  3.08694056e-09  4.58607325e-01  3.09344105e-09  4.58607325e-01  1.58872870e-07  1.19374810e-07  5.60000000e-01 
 5.70000000e-01  3.30299362e-09  3.59069769e-09  3.22691265e-09  3.08694055e-09  4.58607311e-01  3.09344110e-09  4.58607311e-01  1.58872851e-07  1.19374612e-07  5.70000000e-01 
 5.80000000e-01  3.30299362e-09  3.59069769e-09  3.22691265e-09  3.08694050e-09  4.58607305e-01  3.09344109e-09  4.58607305e-01  1.58872847e-07  1.19374505e-07  5.80000000e-01 
 5.90000000e-01  3.30299362e-09  3.59069769e-09  3.22691265e-09  3.08694057e-09  4.58607314e-01  3.09344104e-09  4.58607314e-01  1.58872853e-07  1.19374540e-07  5.90000000e-01 
 6.00000000e-01  3.30299362e-09  3.59069769e-09  3.22691265e-09  3.08694055e-09  4.58607320e-01  3.09344111e-09  4.58607320e-01  1.58872863e-07  1.19374420e-07  6.00000000e-01 
 6.10000000e-01  3.30299362e-09  3.59069769e-09  3.22691265e-09  3.08694056e-09  4.58607307e-01  3.09344109e-09  4.58607308e-01  1.58872844e-07  1.19374221e-07  6.10000000e-01 
 6.20000000e-01  3.30299362e-09  3.59069769e-09  3.22691265e-09  3.08694056e-09  4.58607316e-01  3.09344110e-09  4.58607316e-01  1.58872851e-07  1.19374221e-07  6.20000000e-01 
 6.30000000e-01  3.30299362e-09  3.59069769e-09  3.22691265e-09  3.08694050e-09  4.58607303e-01  3.09344110e-09  4.58607303e-01  1.58872847e-07  1.19373979e-07  6.30000000e-01 
 6.40000000e-01  3.30299362e-09  3.59069769e-09  3.22691270e-09  3.08694051e-09  4.58607315e-01  3.09344110e-09  4.58607315e-01  1.58872844e-07  1.19374121e-07  6.40000000e-01 
 6.50000000e-01  3.30299362e-09  3.59069769e-09  3.22691269e-09  3.08694056e-09  4.58607311e-01  3.09344104e-09  4.58607311e-01  1.58872849e-07  1.19373951e-07  6.50000000e-01 
 6.60000000e-01  3.30299362e-09  3.59069769e-09  3.22691264e-09  3.08694049e-09  4.58607329e-01  3.09344111e-09  4.58607329e-01  1.58872862e-07  1.19373901e-07  6.60000000e-01 
 6.70000000e-01  3.30299362e-09  3.59069769e-09  3.22691265e-09  3.08694051e-09  4.58607301e-01  3.09344109e-09  4.58607301e-01  1.58872820e-07  1.19373816e-07  6.70000000e-01 
 6.80000000e-01  3.30299362e-09  3.59069769e-09  3.22691265e-09  3.08694050e-09  4.58607310e-01  3.09344110e-09  4.58607311e-01  1.58872858e-07  1.19373667e-07  6.80000000e-01 
 6.90000000e-01  3.30299362e-09  3.59069769e-09  3.22691265e-09  3.08694056e-09  4.58607314e-01  3.09344110e-09  4.58607314e-01  1.58872875e-07  1.19373695e-07  6.90000000e-01 
 7.00000000e-01  3.30299362e-09  3.59069769e-09  3.22691270e-09  3.08694055e-09  4.58607323e-01  3.09344104e-09  4.58607323e-01  1.58872862e-07  1.19373532e-07  7.00000000e-01 
 7.10000000e-01  3.30299362e-09  3.59069769e-09  3.22691269e-09  3.08694050e-09  4.58607312e-01  3.09344111e-09  4.58607312e-01  1.58872859e-07  1.19373460e-07  7.10000000e-01 
 7.20000000e-01  3.30299362e-09  3.59069769e-09  3.22691264e-09  3.08694051e-09  4.58607321e-01  3.09344109e-09  4.58607321e-01  1.58872865e-07  1.19373333e-07  7.20000000e-01 
 7.30000000e-01  3.30299362e-09  3.59069769e-09  3.22691265e-09  3.08694050e-09  4.58607310e-01  3.09344110e-09  4.58607310e-01  1.58872852e-07  1.19373254e-07  7.30000000e-01 
 7.40000000e-01  3.30299362e-09  3.59069763e-09  3.22691264e-09  3.08694056e-09  4.58607292e-01  3.09344110e-09  4.58607292e-01  1.58872825e-07  1.19373141e-07  7.40000000e-01 
 7.50000000e-01  3.30299362e-09  3.59069769e-09  3.22691265e-09  3.08694055e-09  4.58607305e-01  3.09344104e-09  4.58607305e-01  1.58872841e-07  1.19373212e-07  7.50000000e-01 
 7.60000000e-01  3.30299362e-09  3.59069769e-09  3.22691265e-09  3.08694050e-09  4.58607321e-01  3.09344105e-09  4.58607321e-01  1.58872871e-07  1.19373098e-07  7.60000000e-01 
 7.70000000e-01  3.30299362e-09  3.59069769e-09  3.22691265e-09  3.08694051e-09  4.58607322e-01  3.09344105e-09  4.58607322e-01  1.58872851e-07  1.19373070e-07  7.70000000e-01 
 7.80000000e-01  3.30299362e-09  3.59069769e-09  3.22691264e-09  3.08694050e-09  4.58607294e-01  3.09344104e-09  4.58607294e-01  1.58872821e-07  1.19372920e-07  7.80000000e-01 
 7.90000000e-01  3.30299362e-09  3.59069769e-09  3.22691264e-09  3.08694050e-09  4.58607301e-01  3.09344110e-09  4.58607301e-01  1.58872834e-07  1.19372743e-07  7.90000000e-01 
 8.00000000e-01  3.30299362e-09  3.59069763e-09  3.22691264e-09  3.08694056e-09  4.58607300e-01  3.09344109e-09  4.58607300e-01  1.58872844e-07  1.19372594e-07  8.00000000e-01 
 8.10000000e-01  3.30299362e-09  3.59069769e-09  3.22691264e-09  3.08694049e-09  4.58607295e-01  3.09344110e-09  4.58607295e-01  1.58872814e-07  1.19372601e-07  8.10000000e-01 
 8.20000000e-01  3.30299362e-09  3.59069769e-09  3.22691265e-09  3.08694051e-09  4.58607326e-01  3.09344104e-09  4.58607326e-01  1.58872879e-07  1.19372579e-07  8.20000000e-01 
 8.30000000e-01  3.30299362e-09  3.59069769e-09  3.22691264e-09  3.08694050e-09  4.58607296e-01  3.09344105e-09  4.58607296e-01  1.58872815e-07  1.19372373e-07  8.30000000e-01 
 8.40000000e-01  3.30299362e-09  3.59069769e-09  3.22691265e-09  3.08694050e-09  4.58607311e-01  3.09344110e-09  4.58607311e-01  1.58872847e-07  1.19372459e-07  8.40000000e-01 
 8.50000000e-01  3.30299362e-09  3.59069769e-09  3.22691264e-09  3.08694056e-09  4.58607288e-01  3.09344109e-09  4.58607288e-01  1.58872804e-07  1.19372224e-07  8.50000000e-01 
 8.60000000e-01  3.30299362e-09  3.59069769e-09  3.22691264e-09  3.08694055e-09  4.58607297e-01  3.09344110e-09  4.58607297e-01  1.58872822e-07  1.19372231e-07  8.60000000e-01 
 8.70000000e-01  3.30299362e-09  3.59069764e-09  3.22691265e-09  3.08694050e-09  4.58607327e-01  3.09344104e-09  4.58607327e-01  1.58872859e-07  1.19372103e-07  8.70000000e-01 
 8.80000000e-01  3.30299362e-09  3.59069769e-09  3.22691265e-09  3.08694051e-09  4.58607311e-01  3.09344105e-09  4.58607311e-01  1.58872841e-07  1.19372011e-07  8.80000000e-01 
 8.90000000e-01  3.30299362e-09  3.59069763e-09  3.22691264e-09  3.08694050e-09  4.58607289e-01  3.09344104e-09  4.58607289e-01  1.58872810e-07  1.19371883e-07  8.90000000e-01 
 9.00000000e-01  3.30299362e-09  3.59069769e-09  3.22691264e-09  3.08694050e-09  4.58607292e-01  3.09344104e-09  4.58607292e-01  1.58872824e-07  1.19371869e-07  9.00000000e-01 
 9.10000000e-01  3.30299362e-09  3.59069763e-09  3.22691264e-09  3.08694050e-09  4.58607301e-01  3.09344105e-09  4.58607301e-01  1.58872840e-07  1.19371748e-07  9.10000000e-01 
 9.20000000e-01  3.30299362e-09  3.59069763e-09  3.22691265e-09  3.08694050e-09  4.58607308e-01  3.09344110e-09  4.58607308e-01  1.58872846e-07  1.19371805e-07  9.20000000e-01 
 9.30000000e-01  3.30299362e-09  3.59069769e-09  3.22691265e-09  3.08694056e-09  4.58607323e-01  3.09344103e-09  4.58607324e-01  1.58872874e-07  1.19371570e-07  9.30000000e-01 
 9.40000000e-01  3.30299362e-09  3.59069769e-09  3.22691265e-09  3.08694055e-09  4.58607313e-01  3.09344111e-09  4.58607314e-01  1.58872854e-07  1.19371627e-07  9.40000000e-01 
 9.50000000e-01  3.30299362e-09  3.59069769e-09  3.22691264e-09  3.08694056e-09  4.58607297e-01  3.09344109e-09  4.58607297e-01  1.58872816e-07  1.19371350e-07  9.50000000e-01 
 9.60000000e-01  3.30299362e-09  3.59069769e-09  3.22691265e-09  3.08694056e-09  4.58607312e-01  3.09344110e-09  4.58607312e-01  1.58872865e-07  1.19371308e-07  9.60000000e-01 
 9.70000000e-01  3.30299362e-09  3.59069769e-09  3.22691265e-09  3.08694050e-09  4.58607306e-01  3.09344104e-09  4.58607306e-01  1.58872843e-07  1.19371265e-07  9.70000000e-01 
 9.80000000e-01  3.30299362e-09  3.59069769e-09  3.22691265e-09  3.08694051e-09  4.58607331e-01  3.09344105e-09  4.58607332e-01  1.58872879e-07  1.19371258e-07  9.80000000e-01 
 9.90000000e-01  3.30299362e-09  3.59069769e-09  3.22691270e-09  3.08694051e-09  4.58607327e-01  3.09344110e-09  4.58607327e-01  1.58872873e-07  1.19371123e-07  9.90000000e-01 
 1.00000000e+00  3.30299362e-09  3.59069769e-09  3.22691263e-09  3.08694056e-09  4.58607309e-01  3.09344109e-09  4.58607309e-01  1.58872852e-07  1.19370959e-07  1.00000000e+00 
 1.01000000e+00  3.30299362e-09  3.59069769e-09  3.22691265e-09  3.08694055e-09  4.58607315e-01  3.09344104e-09  4.58607315e-01  1.58872857e-07  1.19370945e-07  1.01000000e+00 
 1.02000000e+00  3.30299362e-09  3.59069769e-09  3.22691265e-09  3.08694050e-09  4.58607333e-01  3.09344105e-09  4.58607334e-01  1.58872884e-07  1.19370860e-07  1.02000000e+00 
 1.03000000e+00  3.30299362e-09  3.59069769e-09  3.22691265e-09  3.08694051e-09  4.58607331e-01  3.09344105e-09  4.58607331e-01  1.58872875e-07  1.19370675e-07  1.03000000e+00 
 1.04000000e+00  3.30299362e-09  3.59069769e-09  3.22691265e-09  3.08694050e-09  4.58607311e-01  3.09344110e-09  4.58607311e-01  1.58872844e-07  1.19370576e-07  1.04000000e+00 
 1.05000000e+00  3.30299362e-09  3.59069769e-09  3.22691265e-09  3.08694056e-09  4.58607318e-01  3.09344103e-09  4.58607318e-01  1.58872855e-07  1.19370412e-07  1.05000000e+00 
 1.06000000e+00  3.30299362e-09  3.59069769e-09  3.22691264e-09  3.08694049e-09  4.58607300e-01  3.09344111e-09  4.58607300e-01  1.58872838e-07  1.19370277e-07  1.06000000e+00 
 1.07000000e+00  3.30299362e-09  3.59069769e-09  3.22691265e-09  3.08694051e-09  4.58607322e-01  3.09344103e-09  4.58607322e-01  1.58872870e-07  1.19370313e-07  1.07000000e+00 
 1.08000000e+00  3.30299362e-09  3.59069769e-09  3.22691265e-09  3.08694050e-09  4.58607313e-01  3.09344111e-09  4.58607313e-01  1.58872860e-07  1.19370178e-07  1.08000000e+00 
 1.09000000e+00  3.30299362e-09  3.59069769e-09  3.22691265e-09  3.08694051e-09  4.58607324e-01  3.09344109e-09  4.58607324e-01  1.58872867e-07  1.19370064e-07  1.09000000e+00 
 1.10000000e+00  3.30299362e-09  3.59069769e-09  3.22691265e-09  3.08694050e-09  4.58607311e-01  3.09344110e-09  4.58607312e-01  1.58872865e-07  1.19369950e-07  1.10000000e+00 
