 v-sweep         v(b0)           v(b1)           v(b2)           v(b3)           v(b4)           v(b5)           v(b6)           i(vbias)        i(viout)        v(vout)        
 0.00000000e+00  3.40372138e-09  3.38703493e-09  3.45427010e-09  4.58268075e-01  3.23751241e-09  3.26474072e-09  4.58268075e-01  1.59043928e-07  1.09608882e-07  0.00000000e+00 
 1.00000000e-02  3.40372136e-09  3.38703490e-09  3.45427007e-09  4.58268097e-01  3.23751244e-09  3.26474075e-09  4.58268097e-01  1.59043965e-07  1.09608611e-07  1.00000000e-02 
 2.00000000e-02  3.40372141e-09  3.38703490e-09  3.45427008e-09  4.58268080e-01  3.23751238e-09  3.26474069e-09  4.58268080e-01  1.59043937e-07  1.09607937e-07  2.00000000e-02 
 3.00000000e-02  3.40372142e-09  3.38703490e-09  3.45427007e-09  4.58268099e-01  3.23751239e-09  3.26474069e-09  4.58268099e-01  1.59043965e-07  1.09607726e-07  3.00000000e-02 
 4.00000000e-02  3.40372141e-09  3.38703490e-09  3.45427007e-09  4.58268095e-01  3.23751237e-09  3.26474069e-09  4.58268095e-01  1.59043956e-07  1.09607320e-07  4.00000000e-02 
 5.00000000e-02  3.40372141e-09  3.38703484e-09  3.45427007e-09  4.58268098e-01  3.23751239e-09  3.26474069e-09  4.58268098e-01  1.59043957e-07  1.09607017e-07  5.00000000e-02 
 6.00000000e-02  3.40372136e-09  3.38703486e-09  3.45427007e-09  4.58268116e-01  3.23751243e-09  3.26474069e-09  4.58268116e-01  1.59043998e-07  1.09606644e-07  6.00000000e-02 
 7.00000000e-02  3.40372142e-09  3.38703489e-09  3.45427007e-09  4.58268100e-01  3.23751238e-09  3.26474069e-09  4.58268100e-01  1.59043962e-07  1.09606233e-07  7.00000000e-02 
 8.00000000e-02  3.40372142e-09  3.38703484e-09  3.45427007e-09  4.58268102e-01  3.23751239e-09  3.26474069e-09  4.58268102e-01  1.59043975e-07  1.09606076e-07  8.00000000e-02 
 9.00000000e-02  3.40372136e-09  3.38703485e-09  3.45427007e-09  4.58268069e-01  3.23751243e-09  3.26474074e-09  4.58268069e-01  1.59043921e-07  1.09605625e-07  9.00000000e-02 
 1.00000000e-01  3.40372142e-09  3.38703485e-09  3.45427007e-09  4.58268102e-01  3.23751244e-09  3.26474069e-09  4.58268101e-01  1.59043969e-07  1.09605441e-07  1.00000000e-01 
 1.10000000e-01  3.40372136e-09  3.38703490e-09  3.45427007e-09  4.58268071e-01  3.23751243e-09  3.26474069e-09  4.58268071e-01  1.59043920e-07  1.09605178e-07  1.10000000e-01 
 1.20000000e-01  3.40372141e-09  3.38703489e-09  3.45427007e-09  4.58268083e-01  3.23751238e-09  3.26474075e-09  4.58268083e-01  1.59043932e-07  1.09604931e-07  1.20000000e-01 
 1.30000000e-01  3.40372142e-09  3.38703490e-09  3.45427007e-09  4.58268100e-01  3.23751245e-09  3.26474069e-09  4.58268100e-01  1.59043969e-07  1.09604608e-07  1.30000000e-01 
 1.40000000e-01  3.40372136e-09  3.38703484e-09  3.45427007e-09  4.58268086e-01  3.23751243e-09  3.26474075e-09  4.58268086e-01  1.59043936e-07  1.09604388e-07  1.40000000e-01 
 1.50000000e-01  3.40372136e-09  3.38703485e-09  3.45427007e-09  4.58268094e-01  3.23751244e-09  3.26474069e-09  4.58268094e-01  1.59043959e-07  1.09604276e-07  1.50000000e-01 
 1.60000000e-01  3.40372136e-09  3.38703490e-09  3.45427007e-09  4.58268091e-01  3.23751244e-09  3.26474069e-09  4.58268090e-01  1.59043951e-07  1.09603961e-07  1.60000000e-01 
 1.70000000e-01  3.40372136e-09  3.38703489e-09  3.45427007e-09  4.58268105e-01  3.23751244e-09  3.26474069e-09  4.58268105e-01  1.59043978e-07  1.09603864e-07  1.70000000e-01 
 1.80000000e-01  3.40372136e-09  3.38703490e-09  3.45427007e-09  4.58268093e-01  3.23751244e-09  3.26474075e-09  4.58268093e-01  1.59043950e-07  1.09603636e-07  1.80000000e-01 
 1.90000000e-01  3.40372136e-09  3.38703484e-09  3.45427007e-09  4.58268103e-01  3.23751244e-09  3.26474069e-09  4.58268103e-01  1.59043974e-07  1.09603469e-07  1.90000000e-01 
 2.00000000e-01  3.40372136e-09  3.38703486e-09  3.45427007e-09  4.58268116e-01  3.23751244e-09  3.26474069e-09  4.58268116e-01  1.59043982e-07  1.09603278e-07  2.00000000e-01 
 2.10000000e-01  3.40372136e-09  3.38703484e-09  3.45427007e-09  4.58268101e-01  3.23751244e-09  3.26474075e-09  4.58268101e-01  1.59043956e-07  1.09603098e-07  2.10000000e-01 
 2.20000000e-01  3.40372136e-09  3.38703486e-09  3.45427008e-09  4.58268142e-01  3.23751238e-09  3.26474069e-09  4.58268142e-01  1.59044033e-07  1.09603093e-07  2.20000000e-01 
 2.30000000e-01  3.40372142e-09  3.38703489e-09  3.45427007e-09  4.58268109e-01  3.23751245e-09  3.26474069e-09  4.58268109e-01  1.59043975e-07  1.09602794e-07  2.30000000e-01 
 2.40000000e-01  3.40372136e-09  3.38703490e-09  3.45427007e-09  4.58268091e-01  3.23751237e-09  3.26474069e-09  4.58268091e-01  1.59043955e-07  1.09602645e-07  2.40000000e-01 
 2.50000000e-01  3.40372142e-09  3.38703484e-09  3.45427007e-09  4.58268111e-01  3.23751245e-09  3.26474069e-09  4.58268111e-01  1.59043990e-07  1.09602482e-07  2.50000000e-01 
 2.60000000e-01  3.40372141e-09  3.38703491e-09  3.45427007e-09  4.58268099e-01  3.23751243e-09  3.26474069e-09  4.58268099e-01  1.59043953e-07  1.09602379e-07  2.60000000e-01 
 2.70000000e-01  3.40372141e-09  3.38703489e-09  3.45427007e-09  4.58268098e-01  3.23751244e-09  3.26474069e-09  4.58268098e-01  1.59043969e-07  1.09602180e-07  2.70000000e-01 
 2.80000000e-01  3.40372142e-09  3.38703490e-09  3.45427007e-09  4.58268115e-01  3.23751244e-09  3.26474069e-09  4.58268115e-01  1.59043977e-07  1.09602146e-07  2.80000000e-01 
 2.90000000e-01  3.40372136e-09  3.38703484e-09  3.45427007e-09  4.58268091e-01  3.23751244e-09  3.26474069e-09  4.58268091e-01  1.59043952e-07  1.09601984e-07  2.90000000e-01 
 3.00000000e-01  3.40372141e-09  3.38703491e-09  3.45427007e-09  4.58268095e-01  3.23751244e-09  3.26474069e-09  4.58268095e-01  1.59043969e-07  1.09601856e-07  3.00000000e-01 
 3.10000000e-01  3.40372141e-09  3.38703489e-09  3.45427007e-09  4.58268085e-01  3.23751244e-09  3.26474069e-09  4.58268085e-01  1.59043930e-07  1.09601643e-07  3.10000000e-01 
 3.20000000e-01  3.40372136e-09  3.38703490e-09  3.45427007e-09  4.58268113e-01  3.23751244e-09  3.26474069e-09  4.58268113e-01  1.59043981e-07  1.09601615e-07  3.20000000e-01 
 3.30000000e-01  3.40372136e-09  3.38703490e-09  3.45427007e-09  4.58268081e-01  3.23751243e-09  3.26474069e-09  4.58268081e-01  1.59043937e-07  1.09601359e-07  3.30000000e-01 
 3.40000000e-01  3.40372136e-09  3.38703490e-09  3.45427007e-09  4.58268089e-01  3.23751244e-09  3.26474069e-09  4.58268089e-01  1.59043949e-07  1.09601373e-07  3.40000000e-01 
 3.50000000e-01  3.40372136e-09  3.38703490e-09  3.45427001e-09  4.58268090e-01  3.23751244e-09  3.26474069e-09  4.58268090e-01  1.59043952e-07  1.09601281e-07  3.50000000e-01 
 3.60000000e-01  3.40372141e-09  3.38703490e-09  3.45427007e-09  4.58268093e-01  3.23751238e-09  3.26474069e-09  4.58268093e-01  1.59043963e-07  1.09601100e-07  3.60000000e-01 
 3.70000000e-01  3.40372142e-09  3.38703490e-09  3.45427007e-09  4.58268110e-01  3.23751245e-09  3.26474069e-09  4.58268110e-01  1.59043981e-07  1.09601089e-07  3.70000000e-01 
 3.80000000e-01  3.40372141e-09  3.38703484e-09  3.45427007e-09  4.58268088e-01  3.23751243e-09  3.26474069e-09  4.58268088e-01  1.59043958e-07  1.09600862e-07  3.80000000e-01 
 3.90000000e-01  3.40372142e-09  3.38703485e-09  3.45427007e-09  4.58268103e-01  3.23751244e-09  3.26474069e-09  4.58268103e-01  1.59043970e-07  1.09600812e-07  3.90000000e-01 
 4.00000000e-01  3.40372141e-09  3.38703490e-09  3.45427007e-09  4.58268095e-01  3.23751244e-09  3.26474075e-09  4.58268095e-01  1.59043963e-07  1.09600720e-07  4.00000000e-01 
 4.10000000e-01  3.40372136e-09  3.38703489e-09  3.45427007e-09  4.58268090e-01  3.23751244e-09  3.26474069e-09  4.58268090e-01  1.59043956e-07  1.09600627e-07  4.10000000e-01 
 4.20000000e-01  3.40372136e-09  3.38703484e-09  3.45427007e-09  4.58268080e-01  3.23751243e-09  3.26474075e-09  4.58268080e-01  1.59043936e-07  1.09600485e-07  4.20000000e-01 
 4.30000000e-01  3.40372136e-09  3.38703491e-09  3.45427007e-09  4.58268101e-01  3.23751244e-09  3.26474069e-09  4.58268101e-01  1.59043979e-07  1.09600471e-07  4.30000000e-01 
 4.40000000e-01  3.40372136e-09  3.38703489e-09  3.45427007e-09  4.58268119e-01  3.23751238e-09  3.26474069e-09  4.58268119e-01  1.59043987e-07  1.09600457e-07  4.40000000e-01 
 4.50000000e-01  3.40372141e-09  3.38703484e-09  3.45427007e-09  4.58268090e-01  3.23751245e-09  3.26474075e-09  4.58268089e-01  1.59043947e-07  1.09600258e-07  4.50000000e-01 
 4.60000000e-01  3.40372136e-09  3.38703491e-09  3.45427007e-09  4.58268093e-01  3.23751243e-09  3.26474069e-09  4.58268093e-01  1.59043955e-07  1.09600258e-07  4.60000000e-01 
 4.70000000e-01  3.40372136e-09  3.38703489e-09  3.45427007e-09  4.58268102e-01  3.23751244e-09  3.26474069e-09  4.58268102e-01  1.59043976e-07  1.09600077e-07  4.70000000e-01 
 4.80000000e-01  3.40372141e-09  3.38703490e-09  3.45427002e-09  4.58268093e-01  3.23751244e-09  3.26474075e-09  4.58268093e-01  1.59043956e-07  1.09600059e-07  4.80000000e-01 
 4.90000000e-01  3.40372136e-09  3.38703490e-09  3.45427007e-09  4.58268079e-01  3.23751243e-09  3.26474069e-09  4.58268079e-01  1.59043947e-07  1.09599878e-07  4.90000000e-01 
 5.00000000e-01  3.40372136e-09  3.38703484e-09  3.45427007e-09  4.58268115e-01  3.23751244e-09  3.26474069e-09  4.58268115e-01  1.59043979e-07  1.09599963e-07  5.00000000e-01 
 5.10000000e-01  3.40372136e-09  3.38703485e-09  3.45427007e-09  4.58268081e-01  3.23751243e-09  3.26474075e-09  4.58268081e-01  1.59043933e-07  1.09599714e-07  5.10000000e-01 
 5.20000000e-01  3.40372141e-09  3.38703490e-09  3.45427007e-09  4.58268092e-01  3.23751244e-09  3.26474069e-09  4.58268092e-01  1.59043963e-07  1.09599675e-07  5.20000000e-01 
 5.30000000e-01  3.40372136e-09  3.38703489e-09  3.45427007e-09  4.58268076e-01  3.23751243e-09  3.26474069e-09  4.58268076e-01  1.59043944e-07  1.09599554e-07  5.30000000e-01 
 5.40000000e-01  3.40372142e-09  3.38703484e-09  3.45427007e-09  4.58268107e-01  3.23751238e-09  3.26474075e-09  4.58268107e-01  1.59043987e-07  1.09599632e-07  5.40000000e-01 
 5.50000000e-01  3.40372136e-09  3.38703491e-09  3.45427007e-09  4.58268072e-01  3.23751239e-09  3.26474069e-09  4.58268072e-01  1.59043918e-07  1.09599394e-07  5.50000000e-01 
 5.60000000e-01  3.40372136e-09  3.38703489e-09  3.45427007e-09  4.58268078e-01  3.23751237e-09  3.26474069e-09  4.58268078e-01  1.59043935e-07  1.09599362e-07  5.60000000e-01 
 5.70000000e-01  3.40372142e-09  3.38703490e-09  3.45427007e-09  4.58268106e-01  3.23751239e-09  3.26474069e-09  4.58268105e-01  1.59043971e-07  1.09599259e-07  5.70000000e-01 
 5.80000000e-01  3.40372136e-09  3.38703490e-09  3.45427007e-09  4.58268084e-01  3.23751243e-09  3.26474069e-09  4.58268084e-01  1.59043945e-07  1.09599164e-07  5.80000000e-01 
 5.90000000e-01  3.40372136e-09  3.38703490e-09  3.45427007e-09  4.58268117e-01  3.23751244e-09  3.26474069e-09  4.58268116e-01  1.59044004e-07  1.09599135e-07  5.90000000e-01 
 6.00000000e-01  3.40372141e-09  3.38703490e-09  3.45427007e-09  4.58268075e-01  3.23751238e-09  3.26474069e-09  4.58268075e-01  1.59043909e-07  1.09599071e-07  6.00000000e-01 
 6.10000000e-01  3.40372136e-09  3.38703484e-09  3.45427007e-09  4.58268094e-01  3.23751239e-09  3.26474069e-09  4.58268094e-01  1.59043967e-07  1.09598979e-07  6.10000000e-01 
 6.20000000e-01  3.40372136e-09  3.38703485e-09  3.45427007e-09  4.58268087e-01  3.23751243e-09  3.26474075e-09  4.58268087e-01  1.59043939e-07  1.09598830e-07  6.20000000e-01 
 6.30000000e-01  3.40372136e-09  3.38703485e-09  3.45427007e-09  4.58268091e-01  3.23751238e-09  3.26474069e-09  4.58268091e-01  1.59043962e-07  1.09598808e-07  6.30000000e-01 
 6.40000000e-01  3.40372136e-09  3.38703485e-09  3.45427007e-09  4.58268096e-01  3.23751245e-09  3.26474069e-09  4.58268096e-01  1.59043965e-07  1.09598801e-07  6.40000000e-01 
 6.50000000e-01  3.40372136e-09  3.38703491e-09  3.45427007e-09  4.58268112e-01  3.23751243e-09  3.26474069e-09  4.58268112e-01  1.59043983e-07  1.09598716e-07  6.50000000e-01 
 6.60000000e-01  3.40372141e-09  3.38703489e-09  3.45427007e-09  4.58268096e-01  3.23751244e-09  3.26474069e-09  4.58268096e-01  1.59043949e-07  1.09598645e-07  6.60000000e-01 
 6.70000000e-01  3.40372136e-09  3.38703490e-09  3.45427007e-09  4.58268124e-01  3.23751244e-09  3.26474075e-09  4.58268124e-01  1.59044006e-07  1.09598638e-07  6.70000000e-01 
 6.80000000e-01  3.40372136e-09  3.38703490e-09  3.45427007e-09  4.58268091e-01  3.23751238e-09  3.26474069e-09  4.58268090e-01  1.59043941e-07  1.09598375e-07  6.80000000e-01 
 6.90000000e-01  3.40372136e-09  3.38703484e-09  3.45427007e-09  4.58268081e-01  3.23751245e-09  3.26474075e-09  4.58268081e-01  1.59043942e-07  1.09598474e-07  6.90000000e-01 
 7.00000000e-01  3.40372136e-09  3.38703485e-09  3.45427007e-09  4.58268100e-01  3.23751243e-09  3.26474075e-09  4.58268100e-01  1.59043956e-07  1.09598311e-07  7.00000000e-01 
 7.10000000e-01  3.40372136e-09  3.38703490e-09  3.45427007e-09  4.58268070e-01  3.23751243e-09  3.26474069e-09  4.58268070e-01  1.59043925e-07  1.09598183e-07  7.10000000e-01 
 7.20000000e-01  3.40372136e-09  3.38703489e-09  3.45427007e-09  4.58268092e-01  3.23751244e-09  3.26474069e-09  4.58268092e-01  1.59043955e-07  1.09598069e-07  7.20000000e-01 
 7.30000000e-01  3.40372136e-09  3.38703484e-09  3.45427007e-09  4.58268095e-01  3.23751244e-09  3.26474069e-09  4.58268095e-01  1.59043959e-07  1.09598105e-07  7.30000000e-01 
 7.40000000e-01  3.40372136e-09  3.38703491e-09  3.45427007e-09  4.58268102e-01  3.23751238e-09  3.26474075e-09  4.58268102e-01  1.59043980e-07  1.09598062e-07  7.40000000e-01 
 7.50000000e-01  3.40372136e-09  3.38703489e-09  3.45427007e-09  4.58268108e-01  3.23751245e-09  3.26474075e-09  4.58268108e-01  1.59043977e-07  1.09597877e-07  7.50000000e-01 
 7.60000000e-01  3.40372141e-09  3.38703484e-09  3.45427007e-09  4.58268087e-01  3.23751243e-09  3.26474075e-09  4.58268087e-01  1.59043941e-07  1.09597863e-07  7.60000000e-01 
 7.70000000e-01  3.40372136e-09  3.38703485e-09  3.45427007e-09  4.58268096e-01  3.23751244e-09  3.26474069e-09  4.58268096e-01  1.59043970e-07  1.09597735e-07  7.70000000e-01 
 7.80000000e-01  3.40372141e-09  3.38703490e-09  3.45427007e-09  4.58268088e-01  3.23751238e-09  3.26474069e-09  4.58268088e-01  1.59043938e-07  1.09597629e-07  7.80000000e-01 
 7.90000000e-01  3.40372136e-09  3.38703489e-09  3.45427007e-09  4.58268118e-01  3.23751239e-09  3.26474069e-09  4.58268118e-01  1.59044010e-07  1.09597586e-07  7.90000000e-01 
 8.00000000e-01  3.40372136e-09  3.38703490e-09  3.45427007e-09  4.58268100e-01  3.23751237e-09  3.26474075e-09  4.58268100e-01  1.59043959e-07  1.09597472e-07  8.00000000e-01 
 8.10000000e-01  3.40372142e-09  3.38703484e-09  3.45427007e-09  4.58268103e-01  3.23751245e-09  3.26474069e-09  4.58268103e-01  1.59043969e-07  1.09597423e-07  8.10000000e-01 
 8.20000000e-01  3.40372141e-09  3.38703491e-09  3.45427007e-09  4.58268092e-01  3.23751243e-09  3.26474069e-09  4.58268092e-01  1.59043962e-07  1.09597380e-07  8.20000000e-01 
 8.30000000e-01  3.40372136e-09  3.38703489e-09  3.45427007e-09  4.58268119e-01  3.23751244e-09  3.26474075e-09  4.58268119e-01  1.59043997e-07  1.09597259e-07  8.30000000e-01 
 8.40000000e-01  3.40372136e-09  3.38703490e-09  3.45427007e-09  4.58268101e-01  3.23751238e-09  3.26474069e-09  4.58268101e-01  1.59043959e-07  1.09597188e-07  8.40000000e-01 
 8.50000000e-01  3.40372136e-09  3.38703490e-09  3.45427007e-09  4.58268101e-01  3.23751239e-09  3.26474075e-09  4.58268101e-01  1.59043958e-07  1.09597124e-07  8.50000000e-01 
 8.60000000e-01  3.40372136e-09  3.38703484e-09  3.45427007e-09  4.58268083e-01  3.23751243e-09  3.26474069e-09  4.58268083e-01  1.59043944e-07  1.09596947e-07  8.60000000e-01 
 8.70000000e-01  3.40372136e-09  3.38703491e-09  3.45427007e-09  4.58268096e-01  3.23751244e-09  3.26474075e-09  4.58268096e-01  1.59043960e-07  1.09596861e-07  8.70000000e-01 
 8.80000000e-01  3.40372142e-09  3.38703489e-09  3.45427007e-09  4.58268104e-01  3.23751238e-09  3.26474075e-09  4.58268104e-01  1.59043965e-07  1.09596876e-07  8.80000000e-01 
 8.90000000e-01  3.40372136e-09  3.38703490e-09  3.45427007e-09  4.58268093e-01  3.23751245e-09  3.26474069e-09  4.58268093e-01  1.59043952e-07  1.09596776e-07  8.90000000e-01 
 9.00000000e-01  3.40372142e-09  3.38703490e-09  3.45427007e-09  4.58268107e-01  3.23751243e-09  3.26474075e-09  4.58268107e-01  1.59043994e-07  1.09596627e-07  9.00000000e-01 
 9.10000000e-01  3.40372136e-09  3.38703490e-09  3.45427007e-09  4.58268085e-01  3.23751244e-09  3.26474069e-09  4.58268085e-01  1.59043941e-07  1.09596435e-07  9.10000000e-01 
 9.20000000e-01  3.40372136e-09  3.38703490e-09  3.45427007e-09  4.58268096e-01  3.23751244e-09  3.26474069e-09  4.58268095e-01  1.59043960e-07  1.09596549e-07  9.20000000e-01 
 9.30000000e-01  3.40372136e-09  3.38703484e-09  3.45427007e-09  4.58268106e-01  3.23751244e-09  3.26474069e-09  4.58268106e-01  1.59043966e-07  1.09596428e-07  9.30000000e-01 
 9.40000000e-01  3.40372136e-09  3.38703485e-09  3.45427007e-09  4.58268093e-01  3.23751244e-09  3.26474069e-09  4.58268093e-01  1.59043956e-07  1.09596307e-07  9.40000000e-01 
 9.50000000e-01  3.40372141e-09  3.38703490e-09  3.45427007e-09  4.58268087e-01  3.23751238e-09  3.26474069e-09  4.58268087e-01  1.59043939e-07  1.09596293e-07  9.50000000e-01 
 9.60000000e-01  3.40372136e-09  3.38703490e-09  3.45427007e-09  4.58268122e-01  3.23751245e-09  3.26474069e-09  4.58268122e-01  1.59043995e-07  1.09596293e-07  9.60000000e-01 
 9.70000000e-01  3.40372141e-09  3.38703490e-09  3.45427007e-09  4.58268091e-01  3.23751243e-09  3.26474069e-09  4.58268091e-01  1.59043957e-07  1.09596016e-07  9.70000000e-01 
 9.80000000e-01  3.40372142e-09  3.38703484e-09  3.45427007e-09  4.58268103e-01  3.23751244e-09  3.26474069e-09  4.58268103e-01  1.59043988e-07  1.09595966e-07  9.80000000e-01 
 9.90000000e-01  3.40372136e-09  3.38703486e-09  3.45427007e-09  4.58268113e-01  3.23751244e-09  3.26474069e-09  4.58268113e-01  1.59043979e-07  1.09595909e-07  9.90000000e-01 
 1.00000000e+00  3.40372136e-09  3.38703489e-09  3.45427007e-09  4.58268084e-01  3.23751243e-09  3.26474069e-09  4.58268084e-01  1.59043938e-07  1.09595767e-07  1.00000000e+00 
 1.01000000e+00  3.40372141e-09  3.38703490e-09  3.45427007e-09  4.58268098e-01  3.23751244e-09  3.26474069e-09  4.58268098e-01  1.59043960e-07  1.09595774e-07  1.01000000e+00 
 1.02000000e+00  3.40372136e-09  3.38703490e-09  3.45427007e-09  4.58268113e-01  3.23751238e-09  3.26474069e-09  4.58268113e-01  1.59043981e-07  1.09595739e-07  1.02000000e+00 
 1.03000000e+00  3.40372136e-09  3.38703490e-09  3.45427007e-09  4.58268087e-01  3.23751239e-09  3.26474069e-09  4.58268087e-01  1.59043951e-07  1.09595497e-07  1.03000000e+00 
 1.04000000e+00  3.40372141e-09  3.38703490e-09  3.45427007e-09  4.58268096e-01  3.23751243e-09  3.26474069e-09  4.58268096e-01  1.59043956e-07  1.09595476e-07  1.04000000e+00 
 1.05000000e+00  3.40372142e-09  3.38703490e-09  3.45427007e-09  4.58268112e-01  3.23751244e-09  3.26474069e-09  4.58268112e-01  1.59043989e-07  1.09595348e-07  1.05000000e+00 
 1.06000000e+00  3.40372136e-09  3.38703490e-09  3.45427007e-09  4.58268091e-01  3.23751244e-09  3.26474075e-09  4.58268090e-01  1.59043948e-07  1.09595277e-07  1.06000000e+00 
 1.07000000e+00  3.40372136e-09  3.38703490e-09  3.45427007e-09  4.58268100e-01  3.23751244e-09  3.26474069e-09  4.58268100e-01  1.59043972e-07  1.09595220e-07  1.07000000e+00 
 1.08000000e+00  3.40372136e-09  3.38703490e-09  3.45427007e-09  4.58268082e-01  3.23751243e-09  3.26474069e-09  4.58268082e-01  1.59043939e-07  1.09595064e-07  1.08000000e+00 
 1.09000000e+00  3.40372136e-09  3.38703490e-09  3.45427007e-09  4.58268099e-01  3.23751244e-09  3.26474069e-09  4.58268098e-01  1.59043963e-07  1.09594986e-07  1.09000000e+00 
 1.10000000e+00  3.40372142e-09  3.38703490e-09  3.45427007e-09  4.58268100e-01  3.23751244e-09  3.26474069e-09  4.58268100e-01  1.59043968e-07  1.09594886e-07  1.10000000e+00 
