 v-sweep         v(b0)           v(b1)           v(b2)           v(b3)           v(b4)           v(b5)           v(b6)           i(vbias)        i(viout)        v(vout)        
 0.00000000e+00  3.08086639e-09  3.02172818e-09  3.05562951e-09  4.56475647e-01  4.56475647e-01  3.35004456e-09  4.56475647e-01  1.54550023e-07  1.31287899e-07  0.00000000e+00 
 1.00000000e-02  3.08086643e-09  3.02172816e-09  3.05562949e-09  4.56475637e-01  4.56475637e-01  3.35004454e-09  4.56475637e-01  1.54550026e-07  1.31287535e-07  1.00000000e-02 
 2.00000000e-02  3.08086637e-09  3.02172817e-09  3.05562949e-09  4.56475658e-01  4.56475658e-01  3.35004460e-09  4.56475658e-01  1.54550037e-07  1.31287076e-07  2.00000000e-02 
 3.00000000e-02  3.08086637e-09  3.02172822e-09  3.05562949e-09  4.56475621e-01  4.56475621e-01  3.35004460e-09  4.56475621e-01  1.54549991e-07  1.31286682e-07  3.00000000e-02 
 4.00000000e-02  3.08086643e-09  3.02172822e-09  3.05562949e-09  4.56475641e-01  4.56475641e-01  3.35004460e-09  4.56475641e-01  1.54550037e-07  1.31286327e-07  4.00000000e-02 
 5.00000000e-02  3.08086643e-09  3.02172816e-09  3.05562954e-09  4.56475631e-01  4.56475631e-01  3.35004454e-09  4.56475631e-01  1.54550014e-07  1.31285997e-07  5.00000000e-02 
 6.00000000e-02  3.08086637e-09  3.02172822e-09  3.05562949e-09  4.56475629e-01  4.56475629e-01  3.35004460e-09  4.56475629e-01  1.54550003e-07  1.31285595e-07  6.00000000e-02 
 7.00000000e-02  3.08086643e-09  3.02172816e-09  3.05562949e-09  4.56475637e-01  4.56475637e-01  3.35004454e-09  4.56475637e-01  1.54550018e-07  1.31285232e-07  7.00000000e-02 
 8.00000000e-02  3.08086637e-09  3.02172822e-09  3.05562954e-09  4.56475626e-01  4.56475626e-01  3.35004460e-09  4.56475626e-01  1.54550006e-07  1.31284984e-07  8.00000000e-02 
 9.00000000e-02  3.08086643e-09  3.02172822e-09  3.05562949e-09  4.56475650e-01  4.56475650e-01  3.35004454e-09  4.56475650e-01  1.54550035e-07  1.31284728e-07  9.00000000e-02 
 1.00000000e-01  3.08086643e-09  3.02172816e-09  3.05562949e-09  4.56475633e-01  4.56475633e-01  3.35004454e-09  4.56475633e-01  1.54550016e-07  1.31284398e-07  1.00000000e-01 
 1.10000000e-01  3.08086637e-09  3.02172816e-09  3.05562954e-09  4.56475641e-01  4.56475640e-01  3.35004454e-09  4.56475641e-01  1.54550034e-07  1.31284082e-07  1.10000000e-01 
 1.20000000e-01  3.08086643e-09  3.02172816e-09  3.05562954e-09  4.56475641e-01  4.56475641e-01  3.35004454e-09  4.56475641e-01  1.54550034e-07  1.31283922e-07  1.20000000e-01 
 1.30000000e-01  3.08086643e-09  3.02172816e-09  3.05562949e-09  4.56475634e-01  4.56475634e-01  3.35004454e-09  4.56475634e-01  1.54550020e-07  1.31283691e-07  1.30000000e-01 
 1.40000000e-01  3.08086637e-09  3.02172816e-09  3.05562954e-09  4.56475627e-01  4.56475627e-01  3.35004460e-09  4.56475627e-01  1.54550006e-07  1.31283337e-07  1.40000000e-01 
 1.50000000e-01  3.08086643e-09  3.02172822e-09  3.05562954e-09  4.56475638e-01  4.56475637e-01  3.35004460e-09  4.56475638e-01  1.54550028e-07  1.31283208e-07  1.50000000e-01 
 1.60000000e-01  3.08086643e-09  3.02172816e-09  3.05562954e-09  4.56475635e-01  4.56475635e-01  3.35004454e-09  4.56475635e-01  1.54550017e-07  1.31282885e-07  1.60000000e-01 
 1.70000000e-01  3.08086643e-09  3.02172816e-09  3.05562954e-09  4.56475643e-01  4.56475643e-01  3.35004454e-09  4.56475643e-01  1.54550027e-07  1.31282839e-07  1.70000000e-01 
 1.80000000e-01  3.08086643e-09  3.02172822e-09  3.05562949e-09  4.56475627e-01  4.56475626e-01  3.35004460e-09  4.56475627e-01  1.54549996e-07  1.31282514e-07  1.80000000e-01 
 1.90000000e-01  3.08086643e-09  3.02172816e-09  3.05562954e-09  4.56475626e-01  4.56475626e-01  3.35004460e-09  4.56475626e-01  1.54550008e-07  1.31282304e-07  1.90000000e-01 
 2.00000000e-01  3.08086637e-09  3.02172817e-09  3.05562949e-09  4.56475652e-01  4.56475652e-01  3.35004460e-09  4.56475652e-01  1.54550041e-07  1.31282221e-07  2.00000000e-01 
 2.10000000e-01  3.08086643e-09  3.02172816e-09  3.05562954e-09  4.56475635e-01  4.56475635e-01  3.35004460e-09  4.56475635e-01  1.54550013e-07  1.31281995e-07  2.10000000e-01 
 2.20000000e-01  3.08086637e-09  3.02172822e-09  3.05562955e-09  4.56475657e-01  4.56475656e-01  3.35004460e-09  4.56475657e-01  1.54550051e-07  1.31281874e-07  2.20000000e-01 
 2.30000000e-01  3.08086643e-09  3.02172822e-09  3.05562949e-09  4.56475659e-01  4.56475659e-01  3.35004454e-09  4.56475659e-01  1.54550058e-07  1.31281764e-07  2.30000000e-01 
 2.40000000e-01  3.08086637e-09  3.02172816e-09  3.05562954e-09  4.56475633e-01  4.56475633e-01  3.35004454e-09  4.56475633e-01  1.54550018e-07  1.31281482e-07  2.40000000e-01 
 2.50000000e-01  3.08086643e-09  3.02172822e-09  3.05562949e-09  4.56475634e-01  4.56475634e-01  3.35004454e-09  4.56475634e-01  1.54550017e-07  1.31281331e-07  2.50000000e-01 
 2.60000000e-01  3.08086643e-09  3.02172822e-09  3.05562954e-09  4.56475638e-01  4.56475637e-01  3.35004460e-09  4.56475638e-01  1.54550029e-07  1.31281116e-07  2.60000000e-01 
 2.70000000e-01  3.08086637e-09  3.02172822e-09  3.05562949e-09  4.56475641e-01  4.56475641e-01  3.35004454e-09  4.56475641e-01  1.54550043e-07  1.31280990e-07  2.70000000e-01 
 2.80000000e-01  3.08086643e-09  3.02172816e-09  3.05562949e-09  4.56475619e-01  4.56475619e-01  3.35004454e-09  4.56475619e-01  1.54549999e-07  1.31280837e-07  2.80000000e-01 
 2.90000000e-01  3.08086637e-09  3.02172822e-09  3.05562954e-09  4.56475640e-01  4.56475639e-01  3.35004460e-09  4.56475640e-01  1.54550033e-07  1.31280704e-07  2.90000000e-01 
 3.00000000e-01  3.08086637e-09  3.02172822e-09  3.05562954e-09  4.56475643e-01  4.56475643e-01  3.35004460e-09  4.56475643e-01  1.54550035e-07  1.31280640e-07  3.00000000e-01 
 3.10000000e-01  3.08086637e-09  3.02172822e-09  3.05562954e-09  4.56475631e-01  4.56475631e-01  3.35004454e-09  4.56475631e-01  1.54550022e-07  1.31280331e-07  3.10000000e-01 
 3.20000000e-01  3.08086643e-09  3.02172816e-09  3.05562954e-09  4.56475623e-01  4.56475623e-01  3.35004460e-09  4.56475623e-01  1.54550006e-07  1.31280348e-07  3.20000000e-01 
 3.30000000e-01  3.08086637e-09  3.02172816e-09  3.05562949e-09  4.56475617e-01  4.56475616e-01  3.35004454e-09  4.56475617e-01  1.54550004e-07  1.31280213e-07  3.30000000e-01 
 3.40000000e-01  3.08086643e-09  3.02172822e-09  3.05562949e-09  4.56475628e-01  4.56475628e-01  3.35004454e-09  4.56475628e-01  1.54550021e-07  1.31280075e-07  3.40000000e-01 
 3.50000000e-01  3.08086637e-09  3.02172816e-09  3.05562954e-09  4.56475639e-01  4.56475639e-01  3.35004454e-09  4.56475639e-01  1.54550025e-07  1.31279979e-07  3.50000000e-01 
 3.60000000e-01  3.08086643e-09  3.02172816e-09  3.05562949e-09  4.56475641e-01  4.56475641e-01  3.35004454e-09  4.56475641e-01  1.54550032e-07  1.31279986e-07  3.60000000e-01 
 3.70000000e-01  3.08086643e-09  3.02172816e-09  3.05562954e-09  4.56475631e-01  4.56475631e-01  3.35004460e-09  4.56475631e-01  1.54550008e-07  1.31279755e-07  3.70000000e-01 
 3.80000000e-01  3.08086643e-09  3.02172816e-09  3.05562954e-09  4.56475636e-01  4.56475636e-01  3.35004454e-09  4.56475636e-01  1.54550022e-07  1.31279638e-07  3.80000000e-01 
 3.90000000e-01  3.08086643e-09  3.02172816e-09  3.05562954e-09  4.56475624e-01  4.56475624e-01  3.35004454e-09  4.56475624e-01  1.54550003e-07  1.31279460e-07  3.90000000e-01 
 4.00000000e-01  3.08086643e-09  3.02172816e-09  3.05562949e-09  4.56475619e-01  4.56475619e-01  3.35004454e-09  4.56475619e-01  1.54549997e-07  1.31279371e-07  4.00000000e-01 
 4.10000000e-01  3.08086637e-09  3.02172816e-09  3.05562949e-09  4.56475613e-01  4.56475613e-01  3.35004460e-09  4.56475613e-01  1.54549979e-07  1.31279297e-07  4.10000000e-01 
 4.20000000e-01  3.08086637e-09  3.02172822e-09  3.05562949e-09  4.56475636e-01  4.56475636e-01  3.35004454e-09  4.56475636e-01  1.54550012e-07  1.31279332e-07  4.20000000e-01 
 4.30000000e-01  3.08086643e-09  3.02172816e-09  3.05562949e-09  4.56475617e-01  4.56475617e-01  3.35004454e-09  4.56475617e-01  1.54549989e-07  1.31279052e-07  4.30000000e-01 
 4.40000000e-01  3.08086637e-09  3.02172816e-09  3.05562949e-09  4.56475640e-01  4.56475639e-01  3.35004454e-09  4.56475640e-01  1.54550027e-07  1.31279034e-07  4.40000000e-01 
 4.50000000e-01  3.08086643e-09  3.02172816e-09  3.05562954e-09  4.56475629e-01  4.56475629e-01  3.35004454e-09  4.56475629e-01  1.54550009e-07  1.31278920e-07  4.50000000e-01 
 4.60000000e-01  3.08086643e-09  3.02172816e-09  3.05562949e-09  4.56475633e-01  4.56475633e-01  3.35004454e-09  4.56475633e-01  1.54550006e-07  1.31278902e-07  4.60000000e-01 
 4.70000000e-01  3.08086637e-09  3.02172816e-09  3.05562949e-09  4.56475625e-01  4.56475625e-01  3.35004460e-09  4.56475625e-01  1.54550008e-07  1.31278703e-07  4.70000000e-01 
 4.80000000e-01  3.08086643e-09  3.02172822e-09  3.05562954e-09  4.56475639e-01  4.56475639e-01  3.35004460e-09  4.56475639e-01  1.54550023e-07  1.31278600e-07  4.80000000e-01 
 4.90000000e-01  3.08086643e-09  3.02172822e-09  3.05562954e-09  4.56475630e-01  4.56475630e-01  3.35004460e-09  4.56475630e-01  1.54550015e-07  1.31278490e-07  4.90000000e-01 
 5.00000000e-01  3.08086643e-09  3.02172822e-09  3.05562949e-09  4.56475638e-01  4.56475638e-01  3.35004460e-09  4.56475638e-01  1.54550022e-07  1.31278465e-07  5.00000000e-01 
 5.10000000e-01  3.08086643e-09  3.02172822e-09  3.05562949e-09  4.56475638e-01  4.56475638e-01  3.35004454e-09  4.56475638e-01  1.54550026e-07  1.31278505e-07  5.10000000e-01 
 5.20000000e-01  3.08086637e-09  3.02172822e-09  3.05562949e-09  4.56475624e-01  4.56475624e-01  3.35004454e-09  4.56475624e-01  1.54550007e-07  1.31278213e-07  5.20000000e-01 
 5.30000000e-01  3.08086637e-09  3.02172816e-09  3.05562954e-09  4.56475615e-01  4.56475615e-01  3.35004454e-09  4.56475615e-01  1.54549994e-07  1.31278025e-07  5.30000000e-01 
 5.40000000e-01  3.08086637e-09  3.02172816e-09  3.05562954e-09  4.56475626e-01  4.56475626e-01  3.35004460e-09  4.56475626e-01  1.54550001e-07  1.31277918e-07  5.40000000e-01 
 5.50000000e-01  3.08086643e-09  3.02172816e-09  3.05562954e-09  4.56475639e-01  4.56475639e-01  3.35004454e-09  4.56475639e-01  1.54550038e-07  1.31277925e-07  5.50000000e-01 
 5.60000000e-01  3.08086643e-09  3.02172817e-09  3.05562949e-09  4.56475654e-01  4.56475654e-01  3.35004454e-09  4.56475654e-01  1.54550063e-07  1.31277957e-07  5.60000000e-01 
 5.70000000e-01  3.08086643e-09  3.02172817e-09  3.05562949e-09  4.56475656e-01  4.56475656e-01  3.35004454e-09  4.56475656e-01  1.54550053e-07  1.31277929e-07  5.70000000e-01 
 5.80000000e-01  3.08086643e-09  3.02172816e-09  3.05562949e-09  4.56475641e-01  4.56475641e-01  3.35004454e-09  4.56475641e-01  1.54550045e-07  1.31277808e-07  5.80000000e-01 
 5.90000000e-01  3.08086643e-09  3.02172817e-09  3.05562955e-09  4.56475648e-01  4.56475648e-01  3.35004454e-09  4.56475648e-01  1.54550045e-07  1.31277744e-07  5.90000000e-01 
 6.00000000e-01  3.08086637e-09  3.02172816e-09  3.05562949e-09  4.56475632e-01  4.56475632e-01  3.35004454e-09  4.56475632e-01  1.54550013e-07  1.31277659e-07  6.00000000e-01 
 6.10000000e-01  3.08086637e-09  3.02172817e-09  3.05562949e-09  4.56475649e-01  4.56475648e-01  3.35004460e-09  4.56475649e-01  1.54550035e-07  1.31277510e-07  6.10000000e-01 
 6.20000000e-01  3.08086637e-09  3.02172822e-09  3.05562949e-09  4.56475642e-01  4.56475642e-01  3.35004454e-09  4.56475642e-01  1.54550020e-07  1.31277396e-07  6.20000000e-01 
 6.30000000e-01  3.08086643e-09  3.02172817e-09  3.05562949e-09  4.56475649e-01  4.56475649e-01  3.35004454e-09  4.56475649e-01  1.54550046e-07  1.31277297e-07  6.30000000e-01 
 6.40000000e-01  3.08086643e-09  3.02172816e-09  3.05562949e-09  4.56475633e-01  4.56475633e-01  3.35004460e-09  4.56475633e-01  1.54550008e-07  1.31277197e-07  6.40000000e-01 
 6.50000000e-01  3.08086643e-09  3.02172822e-09  3.05562955e-09  4.56475648e-01  4.56475648e-01  3.35004454e-09  4.56475648e-01  1.54550053e-07  1.31277169e-07  6.50000000e-01 
 6.60000000e-01  3.08086637e-09  3.02172817e-09  3.05562955e-09  4.56475651e-01  4.56475651e-01  3.35004460e-09  4.56475651e-01  1.54550040e-07  1.31277041e-07  6.60000000e-01 
 6.70000000e-01  3.08086637e-09  3.02172816e-09  3.05562955e-09  4.56475644e-01  4.56475644e-01  3.35004460e-09  4.56475644e-01  1.54550030e-07  1.31276977e-07  6.70000000e-01 
 6.80000000e-01  3.08086643e-09  3.02172822e-09  3.05562954e-09  4.56475637e-01  4.56475637e-01  3.35004454e-09  4.56475637e-01  1.54550021e-07  1.31276835e-07  6.80000000e-01 
 6.90000000e-01  3.08086637e-09  3.02172822e-09  3.05562949e-09  4.56475648e-01  4.56475647e-01  3.35004460e-09  4.56475648e-01  1.54550047e-07  1.31276771e-07  6.90000000e-01 
 7.00000000e-01  3.08086643e-09  3.02172816e-09  3.05562949e-09  4.56475644e-01  4.56475643e-01  3.35004454e-09  4.56475643e-01  1.54550037e-07  1.31276657e-07  7.00000000e-01 
 7.10000000e-01  3.08086643e-09  3.02172817e-09  3.05562955e-09  4.56475650e-01  4.56475650e-01  3.35004454e-09  4.56475650e-01  1.54550034e-07  1.31276600e-07  7.10000000e-01 
 7.20000000e-01  3.08086643e-09  3.02172816e-09  3.05562949e-09  4.56475645e-01  4.56475645e-01  3.35004454e-09  4.56475645e-01  1.54550046e-07  1.31276558e-07  7.20000000e-01 
 7.30000000e-01  3.08086637e-09  3.02172816e-09  3.05562949e-09  4.56475620e-01  4.56475620e-01  3.35004454e-09  4.56475620e-01  1.54549999e-07  1.31276401e-07  7.30000000e-01 
 7.40000000e-01  3.08086643e-09  3.02172816e-09  3.05562949e-09  4.56475627e-01  4.56475626e-01  3.35004460e-09  4.56475627e-01  1.54550014e-07  1.31276337e-07  7.40000000e-01 
 7.50000000e-01  3.08086643e-09  3.02172822e-09  3.05562954e-09  4.56475633e-01  4.56475633e-01  3.35004454e-09  4.56475633e-01  1.54550008e-07  1.31276316e-07  7.50000000e-01 
 7.60000000e-01  3.08086643e-09  3.02172817e-09  3.05562949e-09  4.56475650e-01  4.56475650e-01  3.35004460e-09  4.56475650e-01  1.54550041e-07  1.31276209e-07  7.60000000e-01 
 7.70000000e-01  3.08086643e-09  3.02172817e-09  3.05562949e-09  4.56475648e-01  4.56475647e-01  3.35004460e-09  4.56475648e-01  1.54550035e-07  1.31276067e-07  7.70000000e-01 
 7.80000000e-01  3.08086643e-09  3.02172822e-09  3.05562955e-09  4.56475644e-01  4.56475644e-01  3.35004460e-09  4.56475644e-01  1.54550036e-07  1.31275932e-07  7.80000000e-01 
 7.90000000e-01  3.08086643e-09  3.02172816e-09  3.05562954e-09  4.56475637e-01  4.56475636e-01  3.35004460e-09  4.56475637e-01  1.54550023e-07  1.31275840e-07  7.90000000e-01 
 8.00000000e-01  3.08086643e-09  3.02172822e-09  3.05562954e-09  4.56475630e-01  4.56475630e-01  3.35004460e-09  4.56475630e-01  1.54550003e-07  1.31275769e-07  8.00000000e-01 
 8.10000000e-01  3.08086637e-09  3.02172816e-09  3.05562949e-09  4.56475622e-01  4.56475621e-01  3.35004454e-09  4.56475622e-01  1.54550004e-07  1.31275463e-07  8.10000000e-01 
 8.20000000e-01  3.08086637e-09  3.02172816e-09  3.05562949e-09  4.56475611e-01  4.56475610e-01  3.35004460e-09  4.56475611e-01  1.54549989e-07  1.31275556e-07  8.20000000e-01 
 8.30000000e-01  3.08086643e-09  3.02172816e-09  3.05562949e-09  4.56475636e-01  4.56475636e-01  3.35004454e-09  4.56475636e-01  1.54550034e-07  1.31275499e-07  8.30000000e-01 
 8.40000000e-01  3.08086643e-09  3.02172816e-09  3.05562949e-09  4.56475647e-01  4.56475647e-01  3.35004454e-09  4.56475647e-01  1.54550037e-07  1.31275513e-07  8.40000000e-01 
 8.50000000e-01  3.08086637e-09  3.02172817e-09  3.05562955e-09  4.56475665e-01  4.56475665e-01  3.35004454e-09  4.56475665e-01  1.54550070e-07  1.31275414e-07  8.50000000e-01 
 8.60000000e-01  3.08086643e-09  3.02172822e-09  3.05562954e-09  4.56475627e-01  4.56475627e-01  3.35004454e-09  4.56475627e-01  1.54550010e-07  1.31275215e-07  8.60000000e-01 
 8.70000000e-01  3.08086643e-09  3.02172817e-09  3.05562949e-09  4.56475649e-01  4.56475649e-01  3.35004454e-09  4.56475649e-01  1.54550038e-07  1.31275144e-07  8.70000000e-01 
 8.80000000e-01  3.08086643e-09  3.02172816e-09  3.05562954e-09  4.56475637e-01  4.56475637e-01  3.35004454e-09  4.56475637e-01  1.54550004e-07  1.31274987e-07  8.80000000e-01 
 8.90000000e-01  3.08086637e-09  3.02172816e-09  3.05562954e-09  4.56475625e-01  4.56475625e-01  3.35004454e-09  4.56475625e-01  1.54550018e-07  1.31274895e-07  8.90000000e-01 
 9.00000000e-01  3.08086643e-09  3.02172816e-09  3.05562954e-09  4.56475633e-01  4.56475633e-01  3.35004460e-09  4.56475633e-01  1.54550013e-07  1.31274881e-07  9.00000000e-01 
 9.10000000e-01  3.08086637e-09  3.02172816e-09  3.05562954e-09  4.56475637e-01  4.56475637e-01  3.35004454e-09  4.56475637e-01  1.54550021e-07  1.31274767e-07  9.10000000e-01 
 9.20000000e-01  3.08086637e-09  3.02172816e-09  3.05562949e-09  4.56475627e-01  4.56475627e-01  3.35004460e-09  4.56475627e-01  1.54550018e-07  1.31274625e-07  9.20000000e-01 
 9.30000000e-01  3.08086637e-09  3.02172816e-09  3.05562949e-09  4.56475638e-01  4.56475638e-01  3.35004460e-09  4.56475638e-01  1.54550016e-07  1.31274632e-07  9.30000000e-01 
 9.40000000e-01  3.08086643e-09  3.02172816e-09  3.05562949e-09  4.56475641e-01  4.56475641e-01  3.35004454e-09  4.56475641e-01  1.54550034e-07  1.31274483e-07  9.40000000e-01 
 9.50000000e-01  3.08086637e-09  3.02172816e-09  3.05562949e-09  4.56475637e-01  4.56475637e-01  3.35004460e-09  4.56475637e-01  1.54550017e-07  1.31274405e-07  9.50000000e-01 
 9.60000000e-01  3.08086637e-09  3.02172816e-09  3.05562949e-09  4.56475624e-01  4.56475624e-01  3.35004454e-09  4.56475624e-01  1.54550016e-07  1.31274184e-07  9.60000000e-01 
 9.70000000e-01  3.08086643e-09  3.02172816e-09  3.05562949e-09  4.56475631e-01  4.56475631e-01  3.35004454e-09  4.56475631e-01  1.54550008e-07  1.31274149e-07  9.70000000e-01 
 9.80000000e-01  3.08086643e-09  3.02172816e-09  3.05562949e-09  4.56475628e-01  4.56475627e-01  3.35004460e-09  4.56475628e-01  1.54550010e-07  1.31274113e-07  9.80000000e-01 
 9.90000000e-01  3.08086643e-09  3.02172816e-09  3.05562949e-09  4.56475635e-01  4.56475634e-01  3.35004460e-09  4.56475635e-01  1.54550021e-07  1.31274028e-07  9.90000000e-01 
 1.00000000e+00  3.08086643e-09  3.02172816e-09  3.05562949e-09  4.56475607e-01  4.56475607e-01  3.35004460e-09  4.56475607e-01  1.54549981e-07  1.31273680e-07  1.00000000e+00 
 1.01000000e+00  3.08086643e-09  3.02172822e-09  3.05562949e-09  4.56475631e-01  4.56475631e-01  3.35004454e-09  4.56475631e-01  1.54550009e-07  1.31273787e-07  1.01000000e+00 
 1.02000000e+00  3.08086643e-09  3.02172822e-09  3.05562949e-09  4.56475641e-01  4.56475641e-01  3.35004454e-09  4.56475641e-01  1.54550020e-07  1.31273737e-07  1.02000000e+00 
 1.03000000e+00  3.08086643e-09  3.02172816e-09  3.05562954e-09  4.56475637e-01  4.56475637e-01  3.35004454e-09  4.56475637e-01  1.54550041e-07  1.31273580e-07  1.03000000e+00 
 1.04000000e+00  3.08086643e-09  3.02172816e-09  3.05562949e-09  4.56475637e-01  4.56475637e-01  3.35004460e-09  4.56475637e-01  1.54550022e-07  1.31273481e-07  1.04000000e+00 
 1.05000000e+00  3.08086643e-09  3.02172816e-09  3.05562949e-09  4.56475642e-01  4.56475641e-01  3.35004454e-09  4.56475641e-01  1.54550025e-07  1.31273211e-07  1.05000000e+00 
 1.06000000e+00  3.08086637e-09  3.02172816e-09  3.05562949e-09  4.56475614e-01  4.56475614e-01  3.35004460e-09  4.56475614e-01  1.54549982e-07  1.31273254e-07  1.06000000e+00 
 1.07000000e+00  3.08086643e-09  3.02172816e-09  3.05562954e-09  4.56475620e-01  4.56475619e-01  3.35004460e-09  4.56475620e-01  1.54550008e-07  1.31273062e-07  1.07000000e+00 
 1.08000000e+00  3.08086643e-09  3.02172816e-09  3.05562954e-09  4.56475636e-01  4.56475636e-01  3.35004460e-09  4.56475636e-01  1.54550028e-07  1.31272998e-07  1.08000000e+00 
 1.09000000e+00  3.08086643e-09  3.02172816e-09  3.05562954e-09  4.56475631e-01  4.56475631e-01  3.35004454e-09  4.56475631e-01  1.54550007e-07  1.31272955e-07  1.09000000e+00 
 1.10000000e+00  3.08086643e-09  3.02172816e-09  3.05562949e-09  4.56475634e-01  4.56475634e-01  3.35004454e-09  4.56475634e-01  1.54550017e-07  1.31272799e-07  1.10000000e+00 
