 v-sweep         v(b0)           v(b1)           v(b2)           v(b3)           v(b4)           v(b5)           v(b6)           i(vbias)        i(viout)        v(vout)        
 0.00000000e+00  3.20719663e-09  4.59478290e-01  4.59478291e-01  3.34065823e-09  4.59478291e-01  3.50726507e-09  4.59478290e-01  1.63709747e-07  1.34712665e-07  0.00000000e+00 
 1.00000000e-02  3.20719661e-09  4.59478275e-01  4.59478275e-01  3.34065827e-09  4.59478275e-01  3.50726505e-09  4.59478275e-01  1.63709731e-07  1.34712156e-07  1.00000000e-02 
 2.00000000e-02  3.20719667e-09  4.59478304e-01  4.59478304e-01  3.34065827e-09  4.59478304e-01  3.50726505e-09  4.59478304e-01  1.63709774e-07  1.34711786e-07  2.00000000e-02 
 3.00000000e-02  3.20719661e-09  4.59478280e-01  4.59478280e-01  3.34065827e-09  4.59478280e-01  3.50726505e-09  4.59478280e-01  1.63709743e-07  1.34711352e-07  3.00000000e-02 
 4.00000000e-02  3.20719662e-09  4.59478297e-01  4.59478297e-01  3.34065827e-09  4.59478297e-01  3.50726511e-09  4.59478297e-01  1.63709760e-07  1.34711026e-07  4.00000000e-02 
 5.00000000e-02  3.20719667e-09  4.59478279e-01  4.59478279e-01  3.34065827e-09  4.59478279e-01  3.50726511e-09  4.59478279e-01  1.63709744e-07  1.34710628e-07  5.00000000e-02 
 6.00000000e-02  3.20719661e-09  4.59478281e-01  4.59478281e-01  3.34065827e-09  4.59478281e-01  3.50726505e-09  4.59478281e-01  1.63709739e-07  1.34710355e-07  6.00000000e-02 
 7.00000000e-02  3.20719667e-09  4.59478285e-01  4.59478285e-01  3.34065827e-09  4.59478285e-01  3.50726511e-09  4.59478285e-01  1.63709751e-07  1.34709872e-07  7.00000000e-02 
 8.00000000e-02  3.20719662e-09  4.59478293e-01  4.59478293e-01  3.34065827e-09  4.59478293e-01  3.50726511e-09  4.59478293e-01  1.63709761e-07  1.34709697e-07  8.00000000e-02 
 9.00000000e-02  3.20719662e-09  4.59478300e-01  4.59478300e-01  3.34065827e-09  4.59478300e-01  3.50726511e-09  4.59478300e-01  1.63709757e-07  1.34709380e-07  9.00000000e-02 
 1.00000000e-01  3.20719667e-09  4.59478287e-01  4.59478287e-01  3.34065827e-09  4.59478287e-01  3.50726511e-09  4.59478287e-01  1.63709748e-07  1.34708996e-07  1.00000000e-01 
 1.10000000e-01  3.20719662e-09  4.59478314e-01  4.59478314e-01  3.34065827e-09  4.59478314e-01  3.50726511e-09  4.59478314e-01  1.63709797e-07  1.34708870e-07  1.10000000e-01 
 1.20000000e-01  3.20719667e-09  4.59478293e-01  4.59478293e-01  3.34065827e-09  4.59478293e-01  3.50726505e-09  4.59478293e-01  1.63709753e-07  1.34708428e-07  1.20000000e-01 
 1.30000000e-01  3.20719667e-09  4.59478311e-01  4.59478311e-01  3.34065827e-09  4.59478311e-01  3.50726511e-09  4.59478311e-01  1.63709788e-07  1.34708304e-07  1.30000000e-01 
 1.40000000e-01  3.20719667e-09  4.59478294e-01  4.59478294e-01  3.34065827e-09  4.59478294e-01  3.50726505e-09  4.59478294e-01  1.63709758e-07  1.34708064e-07  1.40000000e-01 
 1.50000000e-01  3.20719662e-09  4.59478295e-01  4.59478295e-01  3.34065827e-09  4.59478295e-01  3.50726511e-09  4.59478295e-01  1.63709751e-07  1.34707792e-07  1.50000000e-01 
 1.60000000e-01  3.20719661e-09  4.59478280e-01  4.59478280e-01  3.34065827e-09  4.59478280e-01  3.50726505e-09  4.59478280e-01  1.63709731e-07  1.34707603e-07  1.60000000e-01 
 1.70000000e-01  3.20719662e-09  4.59478298e-01  4.59478298e-01  3.34065827e-09  4.59478298e-01  3.50726505e-09  4.59478298e-01  1.63709761e-07  1.34707292e-07  1.70000000e-01 
 1.80000000e-01  3.20719667e-09  4.59478275e-01  4.59478275e-01  3.34065827e-09  4.59478275e-01  3.50726511e-09  4.59478275e-01  1.63709732e-07  1.34707150e-07  1.80000000e-01 
 1.90000000e-01  3.20719662e-09  4.59478292e-01  4.59478292e-01  3.34065827e-09  4.59478292e-01  3.50726505e-09  4.59478292e-01  1.63709766e-07  1.34707021e-07  1.90000000e-01 
 2.00000000e-01  3.20719661e-09  4.59478283e-01  4.59478283e-01  3.34065827e-09  4.59478283e-01  3.50726511e-09  4.59478283e-01  1.63709747e-07  1.34706791e-07  2.00000000e-01 
 2.10000000e-01  3.20719662e-09  4.59478308e-01  4.59478308e-01  3.34065827e-09  4.59478308e-01  3.50726511e-09  4.59478308e-01  1.63709782e-07  1.34706646e-07  2.10000000e-01 
 2.20000000e-01  3.20719662e-09  4.59478305e-01  4.59478305e-01  3.34065827e-09  4.59478305e-01  3.50726511e-09  4.59478305e-01  1.63709769e-07  1.34706463e-07  2.20000000e-01 
 2.30000000e-01  3.20719667e-09  4.59478302e-01  4.59478302e-01  3.34065827e-09  4.59478302e-01  3.50726505e-09  4.59478302e-01  1.63709763e-07  1.34706285e-07  2.30000000e-01 
 2.40000000e-01  3.20719667e-09  4.59478307e-01  4.59478307e-01  3.34065827e-09  4.59478307e-01  3.50726511e-09  4.59478307e-01  1.63709768e-07  1.34706234e-07  2.40000000e-01 
 2.50000000e-01  3.20719662e-09  4.59478313e-01  4.59478313e-01  3.34065827e-09  4.59478313e-01  3.50726511e-09  4.59478313e-01  1.63709789e-07  1.34705985e-07  2.50000000e-01 
 2.60000000e-01  3.20719662e-09  4.59478295e-01  4.59478296e-01  3.34065827e-09  4.59478295e-01  3.50726505e-09  4.59478295e-01  1.63709761e-07  1.34705745e-07  2.60000000e-01 
 2.70000000e-01  3.20719661e-09  4.59478280e-01  4.59478280e-01  3.34065827e-09  4.59478280e-01  3.50726511e-09  4.59478280e-01  1.63709731e-07  1.34705488e-07  2.70000000e-01 
 2.80000000e-01  3.20719667e-09  4.59478296e-01  4.59478296e-01  3.34065827e-09  4.59478296e-01  3.50726505e-09  4.59478296e-01  1.63709757e-07  1.34705424e-07  2.80000000e-01 
 2.90000000e-01  3.20719667e-09  4.59478291e-01  4.59478291e-01  3.34065827e-09  4.59478291e-01  3.50726511e-09  4.59478291e-01  1.63709745e-07  1.34705278e-07  2.90000000e-01 
 3.00000000e-01  3.20719667e-09  4.59478280e-01  4.59478280e-01  3.34065827e-09  4.59478280e-01  3.50726505e-09  4.59478280e-01  1.63709725e-07  1.34705108e-07  3.00000000e-01 
 3.10000000e-01  3.20719662e-09  4.59478304e-01  4.59478304e-01  3.34065827e-09  4.59478304e-01  3.50726505e-09  4.59478304e-01  1.63709775e-07  1.34705093e-07  3.10000000e-01 
 3.20000000e-01  3.20719662e-09  4.59478298e-01  4.59478298e-01  3.34065827e-09  4.59478298e-01  3.50726511e-09  4.59478298e-01  1.63709764e-07  1.34704926e-07  3.20000000e-01 
 3.30000000e-01  3.20719662e-09  4.59478298e-01  4.59478298e-01  3.34065827e-09  4.59478298e-01  3.50726511e-09  4.59478298e-01  1.63709759e-07  1.34704795e-07  3.30000000e-01 
 3.40000000e-01  3.20719667e-09  4.59478303e-01  4.59478304e-01  3.34065827e-09  4.59478304e-01  3.50726505e-09  4.59478303e-01  1.63709761e-07  1.34704774e-07  3.40000000e-01 
 3.50000000e-01  3.20719662e-09  4.59478293e-01  4.59478293e-01  3.34065827e-09  4.59478293e-01  3.50726511e-09  4.59478293e-01  1.63709765e-07  1.34704639e-07  3.50000000e-01 
 3.60000000e-01  3.20719662e-09  4.59478309e-01  4.59478309e-01  3.34065827e-09  4.59478309e-01  3.50726511e-09  4.59478309e-01  1.63709794e-07  1.34704539e-07  3.60000000e-01 
 3.70000000e-01  3.20719662e-09  4.59478306e-01  4.59478306e-01  3.34065827e-09  4.59478306e-01  3.50726505e-09  4.59478306e-01  1.63709766e-07  1.34704319e-07  3.70000000e-01 
 3.80000000e-01  3.20719662e-09  4.59478309e-01  4.59478309e-01  3.34065827e-09  4.59478309e-01  3.50726511e-09  4.59478309e-01  1.63709785e-07  1.34704372e-07  3.80000000e-01 
 3.90000000e-01  3.20719662e-09  4.59478316e-01  4.59478316e-01  3.34065827e-09  4.59478316e-01  3.50726505e-09  4.59478316e-01  1.63709782e-07  1.34704141e-07  3.90000000e-01 
 4.00000000e-01  3.20719667e-09  4.59478295e-01  4.59478295e-01  3.34065827e-09  4.59478295e-01  3.50726505e-09  4.59478295e-01  1.63709755e-07  1.34703956e-07  4.00000000e-01 
 4.10000000e-01  3.20719667e-09  4.59478286e-01  4.59478286e-01  3.34065827e-09  4.59478286e-01  3.50726505e-09  4.59478286e-01  1.63709748e-07  1.34703903e-07  4.10000000e-01 
 4.20000000e-01  3.20719667e-09  4.59478277e-01  4.59478277e-01  3.34065827e-09  4.59478277e-01  3.50726511e-09  4.59478277e-01  1.63709720e-07  1.34703726e-07  4.20000000e-01 
 4.30000000e-01  3.20719667e-09  4.59478312e-01  4.59478312e-01  3.34065827e-09  4.59478312e-01  3.50726511e-09  4.59478312e-01  1.63709780e-07  1.34703665e-07  4.30000000e-01 
 4.40000000e-01  3.20719662e-09  4.59478288e-01  4.59478288e-01  3.34065827e-09  4.59478288e-01  3.50726511e-09  4.59478288e-01  1.63709747e-07  1.34703662e-07  4.40000000e-01 
 4.50000000e-01  3.20719662e-09  4.59478290e-01  4.59478290e-01  3.34065827e-09  4.59478290e-01  3.50726505e-09  4.59478289e-01  1.63709754e-07  1.34703416e-07  4.50000000e-01 
 4.60000000e-01  3.20719661e-09  4.59478286e-01  4.59478286e-01  3.34065827e-09  4.59478286e-01  3.50726505e-09  4.59478286e-01  1.63709753e-07  1.34703388e-07  4.60000000e-01 
 4.70000000e-01  3.20719667e-09  4.59478291e-01  4.59478291e-01  3.34065827e-09  4.59478291e-01  3.50726505e-09  4.59478291e-01  1.63709764e-07  1.34703360e-07  4.70000000e-01 
 4.80000000e-01  3.20719661e-09  4.59478280e-01  4.59478280e-01  3.34065827e-09  4.59478280e-01  3.50726505e-09  4.59478280e-01  1.63709737e-07  1.34703161e-07  4.80000000e-01 
 4.90000000e-01  3.20719667e-09  4.59478306e-01  4.59478306e-01  3.34065827e-09  4.59478306e-01  3.50726511e-09  4.59478306e-01  1.63709783e-07  1.34703203e-07  4.90000000e-01 
 5.00000000e-01  3.20719661e-09  4.59478282e-01  4.59478282e-01  3.34065827e-09  4.59478282e-01  3.50726511e-09  4.59478282e-01  1.63709740e-07  1.34702908e-07  5.00000000e-01 
 5.10000000e-01  3.20719661e-09  4.59478275e-01  4.59478275e-01  3.34065827e-09  4.59478275e-01  3.50726511e-09  4.59478275e-01  1.63709739e-07  1.34702866e-07  5.10000000e-01 
 5.20000000e-01  3.20719662e-09  4.59478303e-01  4.59478304e-01  3.34065827e-09  4.59478303e-01  3.50726505e-09  4.59478303e-01  1.63709779e-07  1.34702816e-07  5.20000000e-01 
 5.30000000e-01  3.20719662e-09  4.59478300e-01  4.59478300e-01  3.34065827e-09  4.59478300e-01  3.50726505e-09  4.59478300e-01  1.63709768e-07  1.34702656e-07  5.30000000e-01 
 5.40000000e-01  3.20719667e-09  4.59478308e-01  4.59478308e-01  3.34065827e-09  4.59478308e-01  3.50726505e-09  4.59478308e-01  1.63709779e-07  1.34702752e-07  5.40000000e-01 
 5.50000000e-01  3.20719667e-09  4.59478288e-01  4.59478288e-01  3.34065827e-09  4.59478288e-01  3.50726511e-09  4.59478288e-01  1.63709752e-07  1.34702486e-07  5.50000000e-01 
 5.60000000e-01  3.20719661e-09  4.59478285e-01  4.59478285e-01  3.34065827e-09  4.59478285e-01  3.50726511e-09  4.59478285e-01  1.63709759e-07  1.34702486e-07  5.60000000e-01 
 5.70000000e-01  3.20719667e-09  4.59478303e-01  4.59478304e-01  3.34065827e-09  4.59478304e-01  3.50726505e-09  4.59478303e-01  1.63709779e-07  1.34702294e-07  5.70000000e-01 
 5.80000000e-01  3.20719662e-09  4.59478287e-01  4.59478287e-01  3.34065827e-09  4.59478287e-01  3.50726505e-09  4.59478287e-01  1.63709756e-07  1.34702134e-07  5.80000000e-01 
 5.90000000e-01  3.20719667e-09  4.59478303e-01  4.59478303e-01  3.34065827e-09  4.59478303e-01  3.50726505e-09  4.59478302e-01  1.63709766e-07  1.34702219e-07  5.90000000e-01 
 6.00000000e-01  3.20719662e-09  4.59478291e-01  4.59478291e-01  3.34065827e-09  4.59478291e-01  3.50726505e-09  4.59478291e-01  1.63709754e-07  1.34701963e-07  6.00000000e-01 
 6.10000000e-01  3.20719667e-09  4.59478306e-01  4.59478306e-01  3.34065827e-09  4.59478306e-01  3.50726511e-09  4.59478306e-01  1.63709776e-07  1.34701999e-07  6.10000000e-01 
 6.20000000e-01  3.20719661e-09  4.59478265e-01  4.59478265e-01  3.34065827e-09  4.59478265e-01  3.50726511e-09  4.59478265e-01  1.63709724e-07  1.34701736e-07  6.20000000e-01 
 6.30000000e-01  3.20719662e-09  4.59478307e-01  4.59478307e-01  3.34065827e-09  4.59478307e-01  3.50726505e-09  4.59478307e-01  1.63709767e-07  1.34701807e-07  6.30000000e-01 
 6.40000000e-01  3.20719667e-09  4.59478274e-01  4.59478274e-01  3.34065827e-09  4.59478274e-01  3.50726511e-09  4.59478274e-01  1.63709725e-07  1.34701594e-07  6.40000000e-01 
 6.50000000e-01  3.20719662e-09  4.59478299e-01  4.59478299e-01  3.34065827e-09  4.59478299e-01  3.50726511e-09  4.59478299e-01  1.63709770e-07  1.34701658e-07  6.50000000e-01 
 6.60000000e-01  3.20719667e-09  4.59478287e-01  4.59478287e-01  3.34065827e-09  4.59478287e-01  3.50726511e-09  4.59478287e-01  1.63709744e-07  1.34701502e-07  6.60000000e-01 
 6.70000000e-01  3.20719667e-09  4.59478292e-01  4.59478292e-01  3.34065827e-09  4.59478292e-01  3.50726505e-09  4.59478291e-01  1.63709757e-07  1.34701367e-07  6.70000000e-01 
 6.80000000e-01  3.20719667e-09  4.59478305e-01  4.59478305e-01  3.34065827e-09  4.59478305e-01  3.50726505e-09  4.59478305e-01  1.63709771e-07  1.34701409e-07  6.80000000e-01 
 6.90000000e-01  3.20719667e-09  4.59478303e-01  4.59478303e-01  3.34065827e-09  4.59478303e-01  3.50726505e-09  4.59478303e-01  1.63709775e-07  1.34701303e-07  6.90000000e-01 
 7.00000000e-01  3.20719662e-09  4.59478301e-01  4.59478301e-01  3.34065827e-09  4.59478301e-01  3.50726511e-09  4.59478301e-01  1.63709764e-07  1.34701160e-07  7.00000000e-01 
 7.10000000e-01  3.20719667e-09  4.59478300e-01  4.59478300e-01  3.34065827e-09  4.59478300e-01  3.50726511e-09  4.59478300e-01  1.63709757e-07  1.34701004e-07  7.10000000e-01 
 7.20000000e-01  3.20719662e-09  4.59478312e-01  4.59478312e-01  3.34065833e-09  4.59478312e-01  3.50726505e-09  4.59478312e-01  1.63709785e-07  1.34701025e-07  7.20000000e-01 
 7.30000000e-01  3.20719662e-09  4.59478288e-01  4.59478288e-01  3.34065827e-09  4.59478288e-01  3.50726505e-09  4.59478288e-01  1.63709759e-07  1.34700834e-07  7.30000000e-01 
 7.40000000e-01  3.20719667e-09  4.59478304e-01  4.59478304e-01  3.34065827e-09  4.59478304e-01  3.50726511e-09  4.59478304e-01  1.63709788e-07  1.34700784e-07  7.40000000e-01 
 7.50000000e-01  3.20719662e-09  4.59478293e-01  4.59478293e-01  3.34065833e-09  4.59478293e-01  3.50726505e-09  4.59478293e-01  1.63709768e-07  1.34700741e-07  7.50000000e-01 
 7.60000000e-01  3.20719667e-09  4.59478297e-01  4.59478297e-01  3.34065827e-09  4.59478297e-01  3.50726511e-09  4.59478297e-01  1.63709762e-07  1.34700663e-07  7.60000000e-01 
 7.70000000e-01  3.20719667e-09  4.59478310e-01  4.59478310e-01  3.34065827e-09  4.59478310e-01  3.50726505e-09  4.59478310e-01  1.63709785e-07  1.34700592e-07  7.70000000e-01 
 7.80000000e-01  3.20719662e-09  4.59478296e-01  4.59478296e-01  3.34065827e-09  4.59478296e-01  3.50726511e-09  4.59478296e-01  1.63709755e-07  1.34700393e-07  7.80000000e-01 
 7.90000000e-01  3.20719667e-09  4.59478276e-01  4.59478276e-01  3.34065833e-09  4.59478276e-01  3.50726505e-09  4.59478276e-01  1.63709746e-07  1.34700223e-07  7.90000000e-01 
 8.00000000e-01  3.20719661e-09  4.59478285e-01  4.59478285e-01  3.34065827e-09  4.59478285e-01  3.50726511e-09  4.59478285e-01  1.63709759e-07  1.34700215e-07  8.00000000e-01 
 8.10000000e-01  3.20719662e-09  4.59478308e-01  4.59478308e-01  3.34065827e-09  4.59478308e-01  3.50726511e-09  4.59478307e-01  1.63709782e-07  1.34700080e-07  8.10000000e-01 
 8.20000000e-01  3.20719662e-09  4.59478315e-01  4.59478315e-01  3.34065827e-09  4.59478315e-01  3.50726511e-09  4.59478315e-01  1.63709791e-07  1.34700016e-07  8.20000000e-01 
 8.30000000e-01  3.20719661e-09  4.59478283e-01  4.59478283e-01  3.34065827e-09  4.59478283e-01  3.50726511e-09  4.59478283e-01  1.63709746e-07  1.34699846e-07  8.30000000e-01 
 8.40000000e-01  3.20719662e-09  4.59478308e-01  4.59478308e-01  3.34065827e-09  4.59478308e-01  3.50726505e-09  4.59478307e-01  1.63709783e-07  1.34699903e-07  8.40000000e-01 
 8.50000000e-01  3.20719662e-09  4.59478289e-01  4.59478289e-01  3.34065827e-09  4.59478289e-01  3.50726511e-09  4.59478289e-01  1.63709746e-07  1.34699683e-07  8.50000000e-01 
 8.60000000e-01  3.20719662e-09  4.59478304e-01  4.59478304e-01  3.34065827e-09  4.59478304e-01  3.50726511e-09  4.59478304e-01  1.63709770e-07  1.34699626e-07  8.60000000e-01 
 8.70000000e-01  3.20719662e-09  4.59478287e-01  4.59478287e-01  3.34065833e-09  4.59478287e-01  3.50726505e-09  4.59478287e-01  1.63709751e-07  1.34699548e-07  8.70000000e-01 
 8.80000000e-01  3.20719667e-09  4.59478277e-01  4.59478277e-01  3.34065827e-09  4.59478277e-01  3.50726505e-09  4.59478277e-01  1.63709739e-07  1.34699384e-07  8.80000000e-01 
 8.90000000e-01  3.20719662e-09  4.59478306e-01  4.59478306e-01  3.34065827e-09  4.59478306e-01  3.50726505e-09  4.59478306e-01  1.63709783e-07  1.34699370e-07  8.90000000e-01 
 9.00000000e-01  3.20719662e-09  4.59478302e-01  4.59478303e-01  3.34065827e-09  4.59478302e-01  3.50726505e-09  4.59478302e-01  1.63709776e-07  1.34699285e-07  9.00000000e-01 
 9.10000000e-01  3.20719662e-09  4.59478304e-01  4.59478305e-01  3.34065827e-09  4.59478304e-01  3.50726505e-09  4.59478304e-01  1.63709757e-07  1.34699164e-07  9.10000000e-01 
 9.20000000e-01  3.20719662e-09  4.59478332e-01  4.59478332e-01  3.34065828e-09  4.59478332e-01  3.50726506e-09  4.59478332e-01  1.63709814e-07  1.34699093e-07  9.20000000e-01 
 9.30000000e-01  3.20719667e-09  4.59478296e-01  4.59478296e-01  3.34065827e-09  4.59478296e-01  3.50726505e-09  4.59478296e-01  1.63709762e-07  1.34699121e-07  9.30000000e-01 
 9.40000000e-01  3.20719662e-09  4.59478289e-01  4.59478289e-01  3.34065827e-09  4.59478289e-01  3.50726511e-09  4.59478289e-01  1.63709751e-07  1.34698773e-07  9.40000000e-01 
 9.50000000e-01  3.20719662e-09  4.59478320e-01  4.59478320e-01  3.34065828e-09  4.59478320e-01  3.50726511e-09  4.59478320e-01  1.63709796e-07  1.34698887e-07  9.50000000e-01 
 9.60000000e-01  3.20719662e-09  4.59478287e-01  4.59478287e-01  3.34065827e-09  4.59478287e-01  3.50726511e-09  4.59478287e-01  1.63709745e-07  1.34698602e-07  9.60000000e-01 
 9.70000000e-01  3.20719662e-09  4.59478297e-01  4.59478297e-01  3.34065827e-09  4.59478297e-01  3.50726511e-09  4.59478297e-01  1.63709777e-07  1.34698539e-07  9.70000000e-01 
 9.80000000e-01  3.20719662e-09  4.59478297e-01  4.59478297e-01  3.34065827e-09  4.59478297e-01  3.50726505e-09  4.59478297e-01  1.63709762e-07  1.34698425e-07  9.80000000e-01 
 9.90000000e-01  3.20719662e-09  4.59478288e-01  4.59478288e-01  3.34065827e-09  4.59478288e-01  3.50726505e-09  4.59478288e-01  1.63709743e-07  1.34698226e-07  9.90000000e-01 
 1.00000000e+00  3.20719667e-09  4.59478297e-01  4.59478297e-01  3.34065827e-09  4.59478297e-01  3.50726505e-09  4.59478297e-01  1.63709764e-07  1.34698176e-07  1.00000000e+00 
 1.01000000e+00  3.20719662e-09  4.59478294e-01  4.59478294e-01  3.34065827e-09  4.59478294e-01  3.50726511e-09  4.59478294e-01  1.63709751e-07  1.34698169e-07  1.01000000e+00 
 1.02000000e+00  3.20719662e-09  4.59478298e-01  4.59478298e-01  3.34065827e-09  4.59478298e-01  3.50726505e-09  4.59478298e-01  1.63709765e-07  1.34697999e-07  1.02000000e+00 
 1.03000000e+00  3.20719667e-09  4.59478302e-01  4.59478302e-01  3.34065827e-09  4.59478302e-01  3.50726511e-09  4.59478301e-01  1.63709776e-07  1.34697892e-07  1.03000000e+00 
 1.04000000e+00  3.20719662e-09  4.59478303e-01  4.59478303e-01  3.34065827e-09  4.59478303e-01  3.50726505e-09  4.59478303e-01  1.63709786e-07  1.34697878e-07  1.04000000e+00 
 1.05000000e+00  3.20719661e-09  4.59478283e-01  4.59478284e-01  3.34065827e-09  4.59478283e-01  3.50726505e-09  4.59478283e-01  1.63709737e-07  1.34697537e-07  1.05000000e+00 
 1.06000000e+00  3.20719662e-09  4.59478302e-01  4.59478302e-01  3.34065827e-09  4.59478302e-01  3.50726511e-09  4.59478302e-01  1.63709776e-07  1.34697608e-07  1.06000000e+00 
 1.07000000e+00  3.20719667e-09  4.59478296e-01  4.59478296e-01  3.34065827e-09  4.59478296e-01  3.50726511e-09  4.59478296e-01  1.63709757e-07  1.34697501e-07  1.07000000e+00 
 1.08000000e+00  3.20719662e-09  4.59478305e-01  4.59478305e-01  3.34065827e-09  4.59478305e-01  3.50726505e-09  4.59478305e-01  1.63709768e-07  1.34697210e-07  1.08000000e+00 
 1.09000000e+00  3.20719662e-09  4.59478304e-01  4.59478304e-01  3.34065827e-09  4.59478304e-01  3.50726511e-09  4.59478304e-01  1.63709783e-07  1.34697231e-07  1.09000000e+00 
 1.10000000e+00  3.20719662e-09  4.59478294e-01  4.59478294e-01  3.34065827e-09  4.59478294e-01  3.50726511e-09  4.59478294e-01  1.63709750e-07  1.34697181e-07  1.10000000e+00 
