 v-sweep         v(b0)           v(b1)           v(b2)           v(b3)           v(b4)           v(b5)           v(b6)           i(vbias)        i(viout)        v(vout)        
 0.00000000e+00  4.55841102e-01  3.41332273e-09  4.55841102e-01  3.34062730e-09  4.55841102e-01  3.26943389e-09  3.32315033e-09  1.53928341e-07  2.93327985e-08  0.00000000e+00 
 1.00000000e-02  4.55841134e-01  3.41332276e-09  4.55841134e-01  3.34062733e-09  4.55841133e-01  3.26943392e-09  3.32315030e-09  1.53928382e-07  2.93325085e-08  1.00000000e-02 
 2.00000000e-02  4.55841146e-01  3.41332275e-09  4.55841146e-01  3.34062727e-09  4.55841146e-01  3.26943386e-09  3.32315036e-09  1.53928398e-07  2.93321361e-08  2.00000000e-02 
 3.00000000e-02  4.55841161e-01  3.41332276e-09  4.55841161e-01  3.34062727e-09  4.55841161e-01  3.26943386e-09  3.32315031e-09  1.53928421e-07  2.93318145e-08  3.00000000e-02 
 4.00000000e-02  4.55841126e-01  3.41332276e-09  4.55841126e-01  3.34062733e-09  4.55841126e-01  3.26943386e-09  3.32315030e-09  1.53928375e-07  2.93313636e-08  4.00000000e-02 
 5.00000000e-02  4.55841114e-01  3.41332276e-09  4.55841114e-01  3.34062727e-09  4.55841114e-01  3.26943386e-09  3.32315030e-09  1.53928355e-07  2.93310420e-08  5.00000000e-02 
 6.00000000e-02  4.55841140e-01  3.41332276e-09  4.55841140e-01  3.34062733e-09  4.55841140e-01  3.26943392e-09  3.32315031e-09  1.53928384e-07  2.93306450e-08  6.00000000e-02 
 7.00000000e-02  4.55841130e-01  3.41332276e-09  4.55841130e-01  3.34062733e-09  4.55841130e-01  3.26943392e-09  3.32315036e-09  1.53928367e-07  2.93305615e-08  7.00000000e-02 
 8.00000000e-02  4.55841108e-01  3.41332276e-09  4.55841108e-01  3.34062727e-09  4.55841108e-01  3.26943392e-09  3.32315030e-09  1.53928355e-07  2.93301428e-08  8.00000000e-02 
 9.00000000e-02  4.55841124e-01  3.41332276e-09  4.55841124e-01  3.34062727e-09  4.55841124e-01  3.26943392e-09  3.32315030e-09  1.53928365e-07  2.93298870e-08  9.00000000e-02 
 1.00000000e-01  4.55841111e-01  3.41332276e-09  4.55841111e-01  3.34062733e-09  4.55841110e-01  3.26943392e-09  3.32315030e-09  1.53928356e-07  2.93297031e-08  1.00000000e-01 
 1.10000000e-01  4.55841101e-01  3.41332276e-09  4.55841101e-01  3.34062727e-09  4.55841101e-01  3.26943392e-09  3.32315030e-09  1.53928327e-07  2.93293523e-08  1.10000000e-01 
 1.20000000e-01  4.55841131e-01  3.41332276e-09  4.55841131e-01  3.34062733e-09  4.55841131e-01  3.26943392e-09  3.32315030e-09  1.53928373e-07  2.93292342e-08  1.20000000e-01 
 1.30000000e-01  4.55841107e-01  3.41332276e-09  4.55841107e-01  3.34062733e-09  4.55841107e-01  3.26943392e-09  3.32315030e-09  1.53928339e-07  2.93289606e-08  1.30000000e-01 
 1.40000000e-01  4.55841124e-01  3.41332276e-09  4.55841124e-01  3.34062733e-09  4.55841123e-01  3.26943386e-09  3.32315030e-09  1.53928365e-07  2.93288220e-08  1.40000000e-01 
 1.50000000e-01  4.55841120e-01  3.41332276e-09  4.55841120e-01  3.34062733e-09  4.55841120e-01  3.26943386e-09  3.32315030e-09  1.53928363e-07  2.93285147e-08  1.50000000e-01 
 1.60000000e-01  4.55841148e-01  3.41332276e-09  4.55841148e-01  3.34062727e-09  4.55841148e-01  3.26943392e-09  3.32315031e-09  1.53928400e-07  2.93283087e-08  1.60000000e-01 
 1.70000000e-01  4.55841118e-01  3.41332276e-09  4.55841118e-01  3.34062727e-09  4.55841118e-01  3.26943392e-09  3.32315030e-09  1.53928348e-07  2.93280156e-08  1.70000000e-01 
 1.80000000e-01  4.55841115e-01  3.41332276e-09  4.55841115e-01  3.34062733e-09  4.55841115e-01  3.26943392e-09  3.32315030e-09  1.53928350e-07  2.93280085e-08  1.80000000e-01 
 1.90000000e-01  4.55841140e-01  3.41332276e-09  4.55841140e-01  3.34062733e-09  4.55841140e-01  3.26943392e-09  3.32315031e-09  1.53928392e-07  2.93278077e-08  1.90000000e-01 
 2.00000000e-01  4.55841146e-01  3.41332276e-09  4.55841146e-01  3.34062733e-09  4.55841146e-01  3.26943386e-09  3.32315031e-09  1.53928399e-07  2.93277065e-08  2.00000000e-01 
 2.10000000e-01  4.55841127e-01  3.41332276e-09  4.55841127e-01  3.34062733e-09  4.55841127e-01  3.26943392e-09  3.32315030e-09  1.53928371e-07  2.93275804e-08  2.10000000e-01 
 2.20000000e-01  4.55841124e-01  3.41332276e-09  4.55841124e-01  3.34062727e-09  4.55841124e-01  3.26943392e-09  3.32315030e-09  1.53928375e-07  2.93274542e-08  2.20000000e-01 
 2.30000000e-01  4.55841115e-01  3.41332276e-09  4.55841115e-01  3.34062727e-09  4.55841115e-01  3.26943386e-09  3.32315030e-09  1.53928365e-07  2.93273033e-08  2.30000000e-01 
 2.40000000e-01  4.55841099e-01  3.41332276e-09  4.55841099e-01  3.34062727e-09  4.55841099e-01  3.26943392e-09  3.32315030e-09  1.53928322e-07  2.93270244e-08  2.40000000e-01 
 2.50000000e-01  4.55841086e-01  3.41332276e-09  4.55841086e-01  3.34062727e-09  4.55841086e-01  3.26943392e-09  3.32315030e-09  1.53928308e-07  2.93269942e-08  2.50000000e-01 
 2.60000000e-01  4.55841099e-01  3.41332276e-09  4.55841099e-01  3.34062727e-09  4.55841099e-01  3.26943392e-09  3.32315030e-09  1.53928318e-07  2.93268663e-08  2.60000000e-01 
 2.70000000e-01  4.55841110e-01  3.41332276e-09  4.55841110e-01  3.34062727e-09  4.55841110e-01  3.26943392e-09  3.32315030e-09  1.53928347e-07  2.93267846e-08  2.70000000e-01 
 2.80000000e-01  4.55841107e-01  3.41332276e-09  4.55841108e-01  3.34062733e-09  4.55841107e-01  3.26943392e-09  3.32315036e-09  1.53928349e-07  2.93267455e-08  2.80000000e-01 
 2.90000000e-01  4.55841115e-01  3.41332276e-09  4.55841115e-01  3.34062727e-09  4.55841115e-01  3.26943392e-09  3.32315030e-09  1.53928364e-07  2.93265110e-08  2.90000000e-01 
 3.00000000e-01  4.55841135e-01  3.41332276e-09  4.55841135e-01  3.34062727e-09  4.55841135e-01  3.26943392e-09  3.32315030e-09  1.53928374e-07  2.93265359e-08  3.00000000e-01 
 3.10000000e-01  4.55841100e-01  3.41332276e-09  4.55841100e-01  3.34062733e-09  4.55841100e-01  3.26943392e-09  3.32315030e-09  1.53928341e-07  2.93263582e-08  3.10000000e-01 
 3.20000000e-01  4.55841102e-01  3.41332276e-09  4.55841102e-01  3.34062727e-09  4.55841102e-01  3.26943392e-09  3.32315030e-09  1.53928327e-07  2.93262872e-08  3.20000000e-01 
 3.30000000e-01  4.55841121e-01  3.41332276e-09  4.55841121e-01  3.34062733e-09  4.55841121e-01  3.26943392e-09  3.32315030e-09  1.53928364e-07  2.93262197e-08  3.30000000e-01 
 3.40000000e-01  4.55841128e-01  3.41332276e-09  4.55841128e-01  3.34062733e-09  4.55841128e-01  3.26943392e-09  3.32315030e-09  1.53928375e-07  2.93260527e-08  3.40000000e-01 
 3.50000000e-01  4.55841120e-01  3.41332276e-09  4.55841120e-01  3.34062727e-09  4.55841120e-01  3.26943392e-09  3.32315030e-09  1.53928368e-07  2.93260101e-08  3.50000000e-01 
 3.60000000e-01  4.55841110e-01  3.41332276e-09  4.55841110e-01  3.34062727e-09  4.55841110e-01  3.26943392e-09  3.32315030e-09  1.53928363e-07  2.93258466e-08  3.60000000e-01 
 3.70000000e-01  4.55841142e-01  3.41332276e-09  4.55841142e-01  3.34062733e-09  4.55841141e-01  3.26943392e-09  3.32315031e-09  1.53928401e-07  2.93259106e-08  3.70000000e-01 
 3.80000000e-01  4.55841135e-01  3.41332276e-09  4.55841135e-01  3.34062727e-09  4.55841135e-01  3.26943392e-09  3.32315036e-09  1.53928384e-07  2.93258076e-08  3.80000000e-01 
 3.90000000e-01  4.55841085e-01  3.41332276e-09  4.55841085e-01  3.34062733e-09  4.55841085e-01  3.26943392e-09  3.32315030e-09  1.53928319e-07  2.93255802e-08  3.90000000e-01 
 4.00000000e-01  4.55841111e-01  3.41332276e-09  4.55841111e-01  3.34062727e-09  4.55841111e-01  3.26943386e-09  3.32315030e-09  1.53928346e-07  2.93255695e-08  4.00000000e-01 
 4.10000000e-01  4.55841117e-01  3.41332276e-09  4.55841117e-01  3.34062733e-09  4.55841117e-01  3.26943386e-09  3.32315030e-09  1.53928359e-07  2.93255447e-08  4.10000000e-01 
 4.20000000e-01  4.55841119e-01  3.41332276e-09  4.55841119e-01  3.34062733e-09  4.55841119e-01  3.26943392e-09  3.32315030e-09  1.53928372e-07  2.93255091e-08  4.20000000e-01 
 4.30000000e-01  4.55841119e-01  3.41332276e-09  4.55841119e-01  3.34062733e-09  4.55841119e-01  3.26943392e-09  3.32315030e-09  1.53928360e-07  2.93253528e-08  4.30000000e-01 
 4.40000000e-01  4.55841078e-01  3.41332276e-09  4.55841078e-01  3.34062733e-09  4.55841078e-01  3.26943386e-09  3.32315036e-09  1.53928311e-07  2.93253741e-08  4.40000000e-01 
 4.50000000e-01  4.55841132e-01  3.41332276e-09  4.55841132e-01  3.34062733e-09  4.55841132e-01  3.26943392e-09  3.32315030e-09  1.53928378e-07  2.93253279e-08  4.50000000e-01 
 4.60000000e-01  4.55841144e-01  3.41332276e-09  4.55841144e-01  3.34062727e-09  4.55841144e-01  3.26943392e-09  3.32315031e-09  1.53928384e-07  2.93252143e-08  4.60000000e-01 
 4.70000000e-01  4.55841106e-01  3.41332276e-09  4.55841106e-01  3.34062733e-09  4.55841106e-01  3.26943386e-09  3.32315030e-09  1.53928345e-07  2.93250011e-08  4.70000000e-01 
 4.80000000e-01  4.55841117e-01  3.41332276e-09  4.55841117e-01  3.34062733e-09  4.55841117e-01  3.26943392e-09  3.32315036e-09  1.53928351e-07  2.93251112e-08  4.80000000e-01 
 4.90000000e-01  4.55841101e-01  3.41332276e-09  4.55841101e-01  3.34062733e-09  4.55841101e-01  3.26943392e-09  3.32315036e-09  1.53928330e-07  2.93249762e-08  4.90000000e-01 
 5.00000000e-01  4.55841125e-01  3.41332276e-09  4.55841125e-01  3.34062727e-09  4.55841125e-01  3.26943392e-09  3.32315036e-09  1.53928371e-07  2.93249123e-08  5.00000000e-01 
 5.10000000e-01  4.55841142e-01  3.41332276e-09  4.55841142e-01  3.34062727e-09  4.55841142e-01  3.26943392e-09  3.32315036e-09  1.53928395e-07  2.93249052e-08  5.10000000e-01 
 5.20000000e-01  4.55841129e-01  3.41332276e-09  4.55841129e-01  3.34062733e-09  4.55841129e-01  3.26943392e-09  3.32315030e-09  1.53928372e-07  2.93247702e-08  5.20000000e-01 
 5.30000000e-01  4.55841090e-01  3.41332276e-09  4.55841091e-01  3.34062733e-09  4.55841090e-01  3.26943392e-09  3.32315030e-09  1.53928328e-07  2.93247275e-08  5.30000000e-01 
 5.40000000e-01  4.55841125e-01  3.41332276e-09  4.55841125e-01  3.34062733e-09  4.55841124e-01  3.26943386e-09  3.32315030e-09  1.53928367e-07  2.93246494e-08  5.40000000e-01 
 5.50000000e-01  4.55841140e-01  3.41332276e-09  4.55841140e-01  3.34062733e-09  4.55841140e-01  3.26943392e-09  3.32315031e-09  1.53928387e-07  2.93245748e-08  5.50000000e-01 
 5.60000000e-01  4.55841123e-01  3.41332276e-09  4.55841123e-01  3.34062727e-09  4.55841122e-01  3.26943392e-09  3.32315030e-09  1.53928360e-07  2.93246174e-08  5.60000000e-01 
 5.70000000e-01  4.55841129e-01  3.41332276e-09  4.55841129e-01  3.34062727e-09  4.55841129e-01  3.26943392e-09  3.32315030e-09  1.53928367e-07  2.93244966e-08  5.70000000e-01 
 5.80000000e-01  4.55841123e-01  3.41332276e-09  4.55841123e-01  3.34062727e-09  4.55841123e-01  3.26943392e-09  3.32315030e-09  1.53928364e-07  2.93245108e-08  5.80000000e-01 
 5.90000000e-01  4.55841113e-01  3.41332276e-09  4.55841113e-01  3.34062727e-09  4.55841113e-01  3.26943392e-09  3.32315030e-09  1.53928360e-07  2.93244753e-08  5.90000000e-01 
 6.00000000e-01  4.55841132e-01  3.41332276e-09  4.55841132e-01  3.34062733e-09  4.55841132e-01  3.26943392e-09  3.32315030e-09  1.53928382e-07  2.93244682e-08  6.00000000e-01 
 6.10000000e-01  4.55841122e-01  3.41332276e-09  4.55841122e-01  3.34062727e-09  4.55841122e-01  3.26943392e-09  3.32315030e-09  1.53928367e-07  2.93243687e-08  6.10000000e-01 
 6.20000000e-01  4.55841149e-01  3.41332276e-09  4.55841149e-01  3.34062727e-09  4.55841149e-01  3.26943392e-09  3.32315031e-09  1.53928417e-07  2.93242124e-08  6.20000000e-01 
 6.30000000e-01  4.55841121e-01  3.41332276e-09  4.55841121e-01  3.34062733e-09  4.55841121e-01  3.26943392e-09  3.32315030e-09  1.53928351e-07  2.93242124e-08  6.30000000e-01 
 6.40000000e-01  4.55841124e-01  3.41332276e-09  4.55841124e-01  3.34062727e-09  4.55841124e-01  3.26943392e-09  3.32315036e-09  1.53928362e-07  2.93242479e-08  6.40000000e-01 
 6.50000000e-01  4.55841130e-01  3.41332276e-09  4.55841130e-01  3.34062733e-09  4.55841130e-01  3.26943392e-09  3.32315030e-09  1.53928375e-07  2.93240703e-08  6.50000000e-01 
 6.60000000e-01  4.55841118e-01  3.41332276e-09  4.55841118e-01  3.34062727e-09  4.55841118e-01  3.26943392e-09  3.32315030e-09  1.53928363e-07  2.93240490e-08  6.60000000e-01 
 6.70000000e-01  4.55841118e-01  3.41332276e-09  4.55841118e-01  3.34062727e-09  4.55841118e-01  3.26943392e-09  3.32315030e-09  1.53928352e-07  2.93240134e-08  6.70000000e-01 
 6.80000000e-01  4.55841146e-01  3.41332276e-09  4.55841146e-01  3.34062727e-09  4.55841146e-01  3.26943392e-09  3.32315031e-09  1.53928392e-07  2.93240205e-08  6.80000000e-01 
 6.90000000e-01  4.55841134e-01  3.41332276e-09  4.55841134e-01  3.34062733e-09  4.55841134e-01  3.26943392e-09  3.32315030e-09  1.53928370e-07  2.93239637e-08  6.90000000e-01 
 7.00000000e-01  4.55841137e-01  3.41332276e-09  4.55841137e-01  3.34062733e-09  4.55841137e-01  3.26943392e-09  3.32315030e-09  1.53928389e-07  2.93238998e-08  7.00000000e-01 
 7.10000000e-01  4.55841132e-01  3.41332276e-09  4.55841132e-01  3.34062727e-09  4.55841132e-01  3.26943392e-09  3.32315030e-09  1.53928379e-07  2.93238784e-08  7.10000000e-01 
 7.20000000e-01  4.55841100e-01  3.41332276e-09  4.55841100e-01  3.34062727e-09  4.55841100e-01  3.26943392e-09  3.32315030e-09  1.53928338e-07  2.93237790e-08  7.20000000e-01 
 7.30000000e-01  4.55841118e-01  3.41332276e-09  4.55841118e-01  3.34062733e-09  4.55841118e-01  3.26943392e-09  3.32315030e-09  1.53928350e-07  2.93237434e-08  7.30000000e-01 
 7.40000000e-01  4.55841118e-01  3.41332276e-09  4.55841118e-01  3.34062733e-09  4.55841118e-01  3.26943392e-09  3.32315030e-09  1.53928369e-07  2.93237292e-08  7.40000000e-01 
 7.50000000e-01  4.55841157e-01  3.41332276e-09  4.55841157e-01  3.34062727e-09  4.55841157e-01  3.26943392e-09  3.32315031e-09  1.53928423e-07  2.93237292e-08  7.50000000e-01 
 7.60000000e-01  4.55841136e-01  3.41332276e-09  4.55841136e-01  3.34062727e-09  4.55841136e-01  3.26943392e-09  3.32315030e-09  1.53928388e-07  2.93236440e-08  7.60000000e-01 
 7.70000000e-01  4.55841121e-01  3.41332276e-09  4.55841121e-01  3.34062727e-09  4.55841121e-01  3.26943392e-09  3.32315030e-09  1.53928376e-07  2.93235161e-08  7.70000000e-01 
 7.80000000e-01  4.55841120e-01  3.41332276e-09  4.55841120e-01  3.34062733e-09  4.55841120e-01  3.26943392e-09  3.32315030e-09  1.53928359e-07  2.93234663e-08  7.80000000e-01 
 7.90000000e-01  4.55841117e-01  3.41332276e-09  4.55841117e-01  3.34062727e-09  4.55841117e-01  3.26943392e-09  3.32315030e-09  1.53928358e-07  2.93233597e-08  7.90000000e-01 
 8.00000000e-01  4.55841117e-01  3.41332276e-09  4.55841117e-01  3.34062727e-09  4.55841117e-01  3.26943392e-09  3.32315030e-09  1.53928357e-07  2.93232674e-08  8.00000000e-01 
 8.10000000e-01  4.55841117e-01  3.41332276e-09  4.55841117e-01  3.34062727e-09  4.55841117e-01  3.26943392e-09  3.32315030e-09  1.53928366e-07  2.93232389e-08  8.10000000e-01 
 8.20000000e-01  4.55841133e-01  3.41332276e-09  4.55841133e-01  3.34062733e-09  4.55841133e-01  3.26943392e-09  3.32315030e-09  1.53928380e-07  2.93232816e-08  8.20000000e-01 
 8.30000000e-01  4.55841111e-01  3.41332276e-09  4.55841111e-01  3.34062733e-09  4.55841111e-01  3.26943392e-09  3.32315030e-09  1.53928343e-07  2.93230755e-08  8.30000000e-01 
 8.40000000e-01  4.55841124e-01  3.41332276e-09  4.55841124e-01  3.34062733e-09  4.55841124e-01  3.26943392e-09  3.32315030e-09  1.53928370e-07  2.93232461e-08  8.40000000e-01 
 8.50000000e-01  4.55841132e-01  3.41332276e-09  4.55841132e-01  3.34062727e-09  4.55841132e-01  3.26943392e-09  3.32315030e-09  1.53928384e-07  2.93231182e-08  8.50000000e-01 
 8.60000000e-01  4.55841103e-01  3.41332276e-09  4.55841103e-01  3.34062733e-09  4.55841103e-01  3.26943386e-09  3.32315030e-09  1.53928334e-07  2.93230542e-08  8.60000000e-01 
 8.70000000e-01  4.55841115e-01  3.41332276e-09  4.55841115e-01  3.34062727e-09  4.55841115e-01  3.26943392e-09  3.32315030e-09  1.53928338e-07  2.93229192e-08  8.70000000e-01 
 8.80000000e-01  4.55841123e-01  3.41332276e-09  4.55841123e-01  3.34062733e-09  4.55841123e-01  3.26943392e-09  3.32315030e-09  1.53928378e-07  2.93230116e-08  8.80000000e-01 
 8.90000000e-01  4.55841082e-01  3.41332276e-09  4.55841082e-01  3.34062733e-09  4.55841082e-01  3.26943392e-09  3.32315030e-09  1.53928301e-07  2.93227700e-08  8.90000000e-01 
 9.00000000e-01  4.55841122e-01  3.41332276e-09  4.55841122e-01  3.34062727e-09  4.55841122e-01  3.26943386e-09  3.32315030e-09  1.53928373e-07  2.93227842e-08  9.00000000e-01 
 9.10000000e-01  4.55841097e-01  3.41332276e-09  4.55841097e-01  3.34062727e-09  4.55841097e-01  3.26943386e-09  3.32315030e-09  1.53928317e-07  2.93227558e-08  9.10000000e-01 
 9.20000000e-01  4.55841110e-01  3.41332276e-09  4.55841110e-01  3.34062727e-09  4.55841110e-01  3.26943392e-09  3.32315030e-09  1.53928348e-07  2.93227771e-08  9.20000000e-01 
 9.30000000e-01  4.55841129e-01  3.41332276e-09  4.55841129e-01  3.34062727e-09  4.55841129e-01  3.26943392e-09  3.32315030e-09  1.53928382e-07  2.93227274e-08  9.30000000e-01 
 9.40000000e-01  4.55841096e-01  3.41332276e-09  4.55841096e-01  3.34062733e-09  4.55841096e-01  3.26943386e-09  3.32315036e-09  1.53928337e-07  2.93225639e-08  9.40000000e-01 
 9.50000000e-01  4.55841117e-01  3.41332276e-09  4.55841117e-01  3.34062733e-09  4.55841117e-01  3.26943392e-09  3.32315030e-09  1.53928361e-07  2.93225852e-08  9.50000000e-01 
 9.60000000e-01  4.55841125e-01  3.41332276e-09  4.55841125e-01  3.34062733e-09  4.55841125e-01  3.26943392e-09  3.32315036e-09  1.53928374e-07  2.93225568e-08  9.60000000e-01 
 9.70000000e-01  4.55841132e-01  3.41332276e-09  4.55841132e-01  3.34062733e-09  4.55841131e-01  3.26943392e-09  3.32315030e-09  1.53928368e-07  2.93223437e-08  9.70000000e-01 
 9.80000000e-01  4.55841131e-01  3.41332276e-09  4.55841131e-01  3.34062733e-09  4.55841131e-01  3.26943392e-09  3.32315030e-09  1.53928376e-07  2.93223934e-08  9.80000000e-01 
 9.90000000e-01  4.55841102e-01  3.41332276e-09  4.55841102e-01  3.34062733e-09  4.55841102e-01  3.26943392e-09  3.32315030e-09  1.53928336e-07  2.93223081e-08  9.90000000e-01 
 1.00000000e+00  4.55841122e-01  3.41332276e-09  4.55841122e-01  3.34062727e-09  4.55841122e-01  3.26943392e-09  3.32315030e-09  1.53928381e-07  2.93222726e-08  1.00000000e+00 
 1.01000000e+00  4.55841117e-01  3.41332276e-09  4.55841117e-01  3.34062733e-09  4.55841117e-01  3.26943392e-09  3.32315036e-09  1.53928363e-07  2.93221731e-08  1.01000000e+00 
 1.02000000e+00  4.55841130e-01  3.41332276e-09  4.55841130e-01  3.34062727e-09  4.55841130e-01  3.26943392e-09  3.32315030e-09  1.53928384e-07  2.93222087e-08  1.02000000e+00 
 1.03000000e+00  4.55841105e-01  3.41332276e-09  4.55841105e-01  3.34062727e-09  4.55841105e-01  3.26943392e-09  3.32315030e-09  1.53928341e-07  2.93221163e-08  1.03000000e+00 
 1.04000000e+00  4.55841110e-01  3.41332276e-09  4.55841110e-01  3.34062727e-09  4.55841110e-01  3.26943392e-09  3.32315030e-09  1.53928348e-07  2.93219600e-08  1.04000000e+00 
 1.05000000e+00  4.55841125e-01  3.41332276e-09  4.55841125e-01  3.34062727e-09  4.55841125e-01  3.26943392e-09  3.32315030e-09  1.53928377e-07  2.93218321e-08  1.05000000e+00 
 1.06000000e+00  4.55841104e-01  3.41332276e-09  4.55841104e-01  3.34062727e-09  4.55841103e-01  3.26943392e-09  3.32315030e-09  1.53928349e-07  2.93218605e-08  1.06000000e+00 
 1.07000000e+00  4.55841112e-01  3.41332276e-09  4.55841112e-01  3.34062733e-09  4.55841111e-01  3.26943392e-09  3.32315036e-09  1.53928349e-07  2.93218179e-08  1.07000000e+00 
 1.08000000e+00  4.55841114e-01  3.41332276e-09  4.55841114e-01  3.34062733e-09  4.55841114e-01  3.26943392e-09  3.32315030e-09  1.53928353e-07  2.93216686e-08  1.08000000e+00 
 1.09000000e+00  4.55841142e-01  3.41332276e-09  4.55841142e-01  3.34062733e-09  4.55841142e-01  3.26943392e-09  3.32315031e-09  1.53928389e-07  2.93218605e-08  1.09000000e+00 
 1.10000000e+00  4.55841150e-01  3.41332276e-09  4.55841150e-01  3.34062733e-09  4.55841150e-01  3.26943392e-09  3.32315031e-09  1.53928394e-07  2.93216615e-08  1.10000000e+00 
