 v-sweep         v(b0)           v(b1)           v(b2)           v(b3)           v(b4)           v(b5)           v(b6)           i(vbias)        i(viout)        v(vout)        
 0.00000000e+00  3.49749052e-09  3.50827556e-09  4.60018100e-01  3.34873799e-09  3.27443978e-09  3.47716336e-09  3.32594605e-09  1.63093228e-07  6.32436516e-09  0.00000000e+00 
 1.00000000e-02  3.49749049e-09  3.50827554e-09  4.60018097e-01  3.34873801e-09  3.27443975e-09  3.47716339e-09  3.32594602e-09  1.63093237e-07  6.32393382e-09  1.00000000e-02 
 2.00000000e-02  3.49749049e-09  3.50827554e-09  4.60018107e-01  3.34873801e-09  3.27443977e-09  3.47716339e-09  3.32594603e-09  1.63093240e-07  6.32356190e-09  2.00000000e-02 
 3.00000000e-02  3.49749049e-09  3.50827548e-09  4.60018095e-01  3.34873801e-09  3.27443976e-09  3.47716339e-09  3.32594602e-09  1.63093217e-07  6.32321462e-09  3.00000000e-02 
 4.00000000e-02  3.49749049e-09  3.50827548e-09  4.60018102e-01  3.34873801e-09  3.27443976e-09  3.47716339e-09  3.32594602e-09  1.63093231e-07  6.32287334e-09  4.00000000e-02 
 5.00000000e-02  3.49749049e-09  3.50827548e-09  4.60018096e-01  3.34873801e-09  3.27443976e-09  3.47716345e-09  3.32594602e-09  1.63093225e-07  6.32259800e-09  5.00000000e-02 
 6.00000000e-02  3.49749049e-09  3.50827554e-09  4.60018106e-01  3.34873801e-09  3.27443976e-09  3.47716339e-09  3.32594602e-09  1.63093236e-07  6.32224406e-09  6.00000000e-02 
 7.00000000e-02  3.49749049e-09  3.50827554e-09  4.60018095e-01  3.34873801e-09  3.27443982e-09  3.47716339e-09  3.32594602e-09  1.63093238e-07  6.32197983e-09  7.00000000e-02 
 8.00000000e-02  3.49749049e-09  3.50827554e-09  4.60018095e-01  3.34873801e-09  3.27443975e-09  3.47716339e-09  3.32594602e-09  1.63093218e-07  6.32167474e-09  8.00000000e-02 
 9.00000000e-02  3.49749049e-09  3.50827554e-09  4.60018100e-01  3.34873801e-09  3.27443977e-09  3.47716339e-09  3.32594602e-09  1.63093224e-07  6.32140207e-09  9.00000000e-02 
 1.00000000e-01  3.49749049e-09  3.50827554e-09  4.60018095e-01  3.34873801e-09  3.27443976e-09  3.47716339e-09  3.32594602e-09  1.63093228e-07  6.32110719e-09  1.00000000e-01 
 1.10000000e-01  3.49749049e-09  3.50827554e-09  4.60018100e-01  3.34873801e-09  3.27443982e-09  3.47716339e-09  3.32594602e-09  1.63093236e-07  6.32089936e-09  1.10000000e-01 
 1.20000000e-01  3.49749049e-09  3.50827548e-09  4.60018097e-01  3.34873801e-09  3.27443975e-09  3.47716339e-09  3.32594602e-09  1.63093233e-07  6.32081676e-09  1.20000000e-01 
 1.30000000e-01  3.49749043e-09  3.50827554e-09  4.60018081e-01  3.34873801e-09  3.27443976e-09  3.47716339e-09  3.32594602e-09  1.63093209e-07  6.32033181e-09  1.30000000e-01 
 1.40000000e-01  3.49749049e-09  3.50827554e-09  4.60018083e-01  3.34873801e-09  3.27443982e-09  3.47716339e-09  3.32594602e-09  1.63093216e-07  6.32012132e-09  1.40000000e-01 
 1.50000000e-01  3.49749049e-09  3.50827548e-09  4.60018106e-01  3.34873801e-09  3.27443981e-09  3.47716339e-09  3.32594602e-09  1.63093237e-07  6.31991526e-09  1.50000000e-01 
 1.60000000e-01  3.49749049e-09  3.50827554e-09  4.60018093e-01  3.34873801e-09  3.27443975e-09  3.47716339e-09  3.32594602e-09  1.63093221e-07  6.31984420e-09  1.60000000e-01 
 1.70000000e-01  3.49749049e-09  3.50827548e-09  4.60018100e-01  3.34873801e-09  3.27443977e-09  3.47716339e-09  3.32594602e-09  1.63093224e-07  6.31966124e-09  1.70000000e-01 
 1.80000000e-01  3.49749049e-09  3.50827554e-09  4.60018093e-01  3.34873801e-09  3.27443976e-09  3.47716339e-09  3.32594602e-09  1.63093219e-07  6.31938413e-09  1.80000000e-01 
 1.90000000e-01  3.49749049e-09  3.50827548e-09  4.60018099e-01  3.34873801e-09  3.27443976e-09  3.47716339e-09  3.32594602e-09  1.63093237e-07  6.31929709e-09  1.90000000e-01 
 2.00000000e-01  3.49749049e-09  3.50827554e-09  4.60018109e-01  3.34873801e-09  3.27443976e-09  3.47716339e-09  3.32594602e-09  1.63093243e-07  6.31919050e-09  2.00000000e-01 
 2.10000000e-01  3.49749049e-09  3.50827554e-09  4.60018101e-01  3.34873801e-09  3.27443976e-09  3.47716339e-09  3.32594602e-09  1.63093242e-07  6.31895958e-09  2.10000000e-01 
 2.20000000e-01  3.49749049e-09  3.50827548e-09  4.60018111e-01  3.34873801e-09  3.27443976e-09  3.47716339e-09  3.32594602e-09  1.63093252e-07  6.31888497e-09  2.20000000e-01 
 2.30000000e-01  3.49749049e-09  3.50827554e-09  4.60018092e-01  3.34873801e-09  3.27443976e-09  3.47716339e-09  3.32594602e-09  1.63093226e-07  6.31869490e-09  2.30000000e-01 
 2.40000000e-01  3.49749049e-09  3.50827548e-09  4.60018111e-01  3.34873801e-09  3.27443976e-09  3.47716339e-09  3.32594602e-09  1.63093269e-07  6.31854569e-09  2.40000000e-01 
 2.50000000e-01  3.49749049e-09  3.50827554e-09  4.60018109e-01  3.34873801e-09  3.27443982e-09  3.47716339e-09  3.32594602e-09  1.63093251e-07  6.31846575e-09  2.50000000e-01 
 2.60000000e-01  3.49749049e-09  3.50827548e-09  4.60018104e-01  3.34873801e-09  3.27443975e-09  3.47716339e-09  3.32594602e-09  1.63093244e-07  6.31821706e-09  2.60000000e-01 
 2.70000000e-01  3.49749049e-09  3.50827554e-09  4.60018114e-01  3.34873801e-09  3.27443977e-09  3.47716339e-09  3.32594602e-09  1.63093263e-07  6.31818864e-09  2.70000000e-01 
 2.80000000e-01  3.49749049e-09  3.50827548e-09  4.60018118e-01  3.34873801e-09  3.27443976e-09  3.47716339e-09  3.32594602e-09  1.63093254e-07  6.31808561e-09  2.80000000e-01 
 2.90000000e-01  3.49749049e-09  3.50827554e-09  4.60018089e-01  3.34873801e-09  3.27443976e-09  3.47716339e-09  3.32594602e-09  1.63093223e-07  6.31795771e-09  2.90000000e-01 
 3.00000000e-01  3.49749049e-09  3.50827554e-09  4.60018108e-01  3.34873801e-09  3.27443982e-09  3.47716339e-09  3.32594602e-09  1.63093255e-07  6.31792219e-09  3.00000000e-01 
 3.10000000e-01  3.49749049e-09  3.50827554e-09  4.60018093e-01  3.34873801e-09  3.27443975e-09  3.47716345e-09  3.32594602e-09  1.63093228e-07  6.31783692e-09  3.10000000e-01 
 3.20000000e-01  3.49749049e-09  3.50827554e-09  4.60018100e-01  3.34873801e-09  3.27443977e-09  3.47716345e-09  3.32594602e-09  1.63093237e-07  6.31783337e-09  3.20000000e-01 
 3.30000000e-01  3.49749049e-09  3.50827548e-09  4.60018094e-01  3.34873801e-09  3.27443976e-09  3.47716339e-09  3.32594602e-09  1.63093232e-07  6.31758823e-09  3.30000000e-01 
 3.40000000e-01  3.49749049e-09  3.50827554e-09  4.60018090e-01  3.34873801e-09  3.27443976e-09  3.47716339e-09  3.32594602e-09  1.63093222e-07  6.31756336e-09  3.40000000e-01 
 3.50000000e-01  3.49749049e-09  3.50827554e-09  4.60018088e-01  3.34873801e-09  3.27443976e-09  3.47716339e-09  3.32594602e-09  1.63093217e-07  6.31747099e-09  3.50000000e-01 
 3.60000000e-01  3.49749049e-09  3.50827554e-09  4.60018092e-01  3.34873801e-09  3.27443976e-09  3.47716339e-09  3.32594602e-09  1.63093224e-07  6.31741059e-09  3.60000000e-01 
 3.70000000e-01  3.49749049e-09  3.50827554e-09  4.60018101e-01  3.34873801e-09  3.27443976e-09  3.47716339e-09  3.32594602e-09  1.63093246e-07  6.31731822e-09  3.70000000e-01 
 3.80000000e-01  3.49749049e-09  3.50827554e-09  4.60018097e-01  3.34873801e-09  3.27443982e-09  3.47716339e-09  3.32594602e-09  1.63093223e-07  6.31721164e-09  3.80000000e-01 
 3.90000000e-01  3.49749049e-09  3.50827554e-09  4.60018100e-01  3.34873801e-09  3.27443980e-09  3.47716339e-09  3.32594602e-09  1.63093231e-07  6.31707664e-09  3.90000000e-01 
 4.00000000e-01  3.49749049e-09  3.50827554e-09  4.60018085e-01  3.34873801e-09  3.27443981e-09  3.47716339e-09  3.32594602e-09  1.63093217e-07  6.31695585e-09  4.00000000e-01 
 4.10000000e-01  3.49749049e-09  3.50827554e-09  4.60018102e-01  3.34873801e-09  3.27443975e-09  3.47716339e-09  3.32594602e-09  1.63093245e-07  6.31695940e-09  4.10000000e-01 
 4.20000000e-01  3.49749049e-09  3.50827554e-09  4.60018066e-01  3.34873801e-09  3.27443976e-09  3.47716339e-09  3.32594602e-09  1.63093171e-07  6.31687769e-09  4.20000000e-01 
 4.30000000e-01  3.49749049e-09  3.50827548e-09  4.60018094e-01  3.34873801e-09  3.27443976e-09  3.47716339e-09  3.32594602e-09  1.63093230e-07  6.31680308e-09  4.30000000e-01 
 4.40000000e-01  3.49749049e-09  3.50827554e-09  4.60018107e-01  3.34873801e-09  3.27443982e-09  3.47716339e-09  3.32594602e-09  1.63093257e-07  6.31671782e-09  4.40000000e-01 
 4.50000000e-01  3.49749049e-09  3.50827554e-09  4.60018129e-01  3.34873801e-09  3.27443981e-09  3.47716339e-09  3.32594602e-09  1.63093273e-07  6.31674268e-09  4.50000000e-01 
 4.60000000e-01  3.49749049e-09  3.50827554e-09  4.60018084e-01  3.34873801e-09  3.27443975e-09  3.47716339e-09  3.32594602e-09  1.63093219e-07  6.31667163e-09  4.60000000e-01 
 4.70000000e-01  3.49749049e-09  3.50827554e-09  4.60018103e-01  3.34873801e-09  3.27443977e-09  3.47716345e-09  3.32594602e-09  1.63093257e-07  6.31653663e-09  4.70000000e-01 
 4.80000000e-01  3.49749049e-09  3.50827554e-09  4.60018108e-01  3.34873801e-09  3.27443982e-09  3.47716339e-09  3.32594602e-09  1.63093248e-07  6.31649044e-09  4.80000000e-01 
 4.90000000e-01  3.49749049e-09  3.50827554e-09  4.60018103e-01  3.34873801e-09  3.27443981e-09  3.47716339e-09  3.32594602e-09  1.63093239e-07  6.31647268e-09  4.90000000e-01 
 5.00000000e-01  3.49749049e-09  3.50827548e-09  4.60018089e-01  3.34873801e-09  3.27443975e-09  3.47716339e-09  3.32594602e-09  1.63093226e-07  6.31630215e-09  5.00000000e-01 
 5.10000000e-01  3.49749049e-09  3.50827554e-09  4.60018107e-01  3.34873801e-09  3.27443977e-09  3.47716339e-09  3.32594602e-09  1.63093241e-07  6.31624175e-09  5.10000000e-01 
 5.20000000e-01  3.49749049e-09  3.50827548e-09  4.60018102e-01  3.34873801e-09  3.27443976e-09  3.47716339e-09  3.32594602e-09  1.63093240e-07  6.31628083e-09  5.20000000e-01 
 5.30000000e-01  3.49749049e-09  3.50827548e-09  4.60018111e-01  3.34873801e-09  3.27443982e-09  3.47716339e-09  3.32594602e-09  1.63093245e-07  6.31614583e-09  5.30000000e-01 
 5.40000000e-01  3.49749049e-09  3.50827554e-09  4.60018107e-01  3.34873801e-09  3.27443975e-09  3.47716339e-09  3.32594602e-09  1.63093242e-07  6.31596464e-09  5.40000000e-01 
 5.50000000e-01  3.49749049e-09  3.50827554e-09  4.60018091e-01  3.34873801e-09  3.27443977e-09  3.47716339e-09  3.32594602e-09  1.63093215e-07  6.31602504e-09  5.50000000e-01 
 5.60000000e-01  3.49749049e-09  3.50827554e-09  4.60018099e-01  3.34873801e-09  3.27443976e-09  3.47716339e-09  3.32594602e-09  1.63093241e-07  6.31601793e-09  5.60000000e-01 
 5.70000000e-01  3.49749049e-09  3.50827554e-09  4.60018096e-01  3.34873801e-09  3.27443976e-09  3.47716339e-09  3.32594602e-09  1.63093221e-07  6.31598240e-09  5.70000000e-01 
 5.80000000e-01  3.49749049e-09  3.50827548e-09  4.60018090e-01  3.34873801e-09  3.27443976e-09  3.47716339e-09  3.32594602e-09  1.63093220e-07  6.31587938e-09  5.80000000e-01 
 5.90000000e-01  3.49749049e-09  3.50827554e-09  4.60018102e-01  3.34873801e-09  3.27443976e-09  3.47716339e-09  3.32594602e-09  1.63093225e-07  6.31577990e-09  5.90000000e-01 
 6.00000000e-01  3.49749049e-09  3.50827554e-09  4.60018106e-01  3.34873801e-09  3.27443982e-09  3.47716339e-09  3.32594602e-09  1.63093244e-07  6.31582253e-09  6.00000000e-01 
 6.10000000e-01  3.49749049e-09  3.50827548e-09  4.60018107e-01  3.34873801e-09  3.27443975e-09  3.47716339e-09  3.32594602e-09  1.63093243e-07  6.31587938e-09  6.10000000e-01 
 6.20000000e-01  3.49749049e-09  3.50827554e-09  4.60018097e-01  3.34873801e-09  3.27443977e-09  3.47716339e-09  3.32594602e-09  1.63093224e-07  6.31570174e-09  6.20000000e-01 
 6.30000000e-01  3.49749049e-09  3.50827548e-09  4.60018103e-01  3.34873801e-09  3.27443976e-09  3.47716339e-09  3.32594602e-09  1.63093237e-07  6.31560226e-09  6.30000000e-01 
 6.40000000e-01  3.49749049e-09  3.50827554e-09  4.60018112e-01  3.34873801e-09  3.27443976e-09  3.47716339e-09  3.32594602e-09  1.63093256e-07  6.31555253e-09  6.40000000e-01 
 6.50000000e-01  3.49749049e-09  3.50827554e-09  4.60018109e-01  3.34873801e-09  3.27443976e-09  3.47716339e-09  3.32594602e-09  1.63093247e-07  6.31559516e-09  6.50000000e-01 
 6.60000000e-01  3.49749049e-09  3.50827554e-09  4.60018084e-01  3.34873801e-09  3.27443982e-09  3.47716339e-09  3.32594602e-09  1.63093208e-07  6.31541752e-09  6.60000000e-01 
 6.70000000e-01  3.49749049e-09  3.50827554e-09  4.60018077e-01  3.34873801e-09  3.27443980e-09  3.47716339e-09  3.32594602e-09  1.63093191e-07  6.31542463e-09  6.70000000e-01 
 6.80000000e-01  3.49749049e-09  3.50827554e-09  4.60018079e-01  3.34873801e-09  3.27443975e-09  3.47716339e-09  3.32594602e-09  1.63093208e-07  6.31536068e-09  6.80000000e-01 
 6.90000000e-01  3.49749049e-09  3.50827554e-09  4.60018107e-01  3.34873801e-09  3.27443977e-09  3.47716339e-09  3.32594602e-09  1.63093241e-07  6.31527541e-09  6.90000000e-01 
 7.00000000e-01  3.49749049e-09  3.50827548e-09  4.60018088e-01  3.34873801e-09  3.27443982e-09  3.47716339e-09  3.32594602e-09  1.63093216e-07  6.31521146e-09  7.00000000e-01 
 7.10000000e-01  3.49749049e-09  3.50827548e-09  4.60018090e-01  3.34873801e-09  3.27443980e-09  3.47716339e-09  3.32594602e-09  1.63093227e-07  6.31525410e-09  7.10000000e-01 
 7.20000000e-01  3.49749049e-09  3.50827554e-09  4.60018091e-01  3.34873801e-09  3.27443975e-09  3.47716339e-09  3.32594602e-09  1.63093224e-07  6.31510488e-09  7.20000000e-01 
 7.30000000e-01  3.49749049e-09  3.50827548e-09  4.60018091e-01  3.34873801e-09  3.27443977e-09  3.47716344e-09  3.32594602e-09  1.63093224e-07  6.31509067e-09  7.30000000e-01 
 7.40000000e-01  3.49749049e-09  3.50827554e-09  4.60018081e-01  3.34873801e-09  3.27443976e-09  3.47716339e-09  3.32594602e-09  1.63093205e-07  6.31501962e-09  7.40000000e-01 
 7.50000000e-01  3.49749049e-09  3.50827554e-09  4.60018110e-01  3.34873801e-09  3.27443976e-09  3.47716339e-09  3.32594602e-09  1.63093256e-07  6.31492014e-09  7.50000000e-01 
 7.60000000e-01  3.49749049e-09  3.50827554e-09  4.60018101e-01  3.34873801e-09  3.27443982e-09  3.47716339e-09  3.32594602e-09  1.63093241e-07  6.31487040e-09  7.60000000e-01 
 7.70000000e-01  3.49749049e-09  3.50827548e-09  4.60018100e-01  3.34873801e-09  3.27443980e-09  3.47716339e-09  3.32594602e-09  1.63093224e-07  6.31482777e-09  7.70000000e-01 
 7.80000000e-01  3.49749049e-09  3.50827554e-09  4.60018096e-01  3.34873801e-09  3.27443981e-09  3.47716339e-09  3.32594602e-09  1.63093224e-07  6.31475672e-09  7.80000000e-01 
 7.90000000e-01  3.49749049e-09  3.50827554e-09  4.60018106e-01  3.34873801e-09  3.27443975e-09  3.47716339e-09  3.32594602e-09  1.63093251e-07  6.31476382e-09  7.90000000e-01 
 8.00000000e-01  3.49749049e-09  3.50827554e-09  4.60018112e-01  3.34873801e-09  3.27443977e-09  3.47716339e-09  3.32594602e-09  1.63093255e-07  6.31462171e-09  8.00000000e-01 
 8.10000000e-01  3.49749043e-09  3.50827548e-09  4.60018099e-01  3.34873801e-09  3.27443976e-09  3.47716339e-09  3.32594602e-09  1.63093239e-07  6.31446540e-09  8.10000000e-01 
 8.20000000e-01  3.49749049e-09  3.50827554e-09  4.60018100e-01  3.34873801e-09  3.27443976e-09  3.47716339e-09  3.32594602e-09  1.63093227e-07  6.31462171e-09  8.20000000e-01 
 8.30000000e-01  3.49749049e-09  3.50827548e-09  4.60018091e-01  3.34873801e-09  3.27443982e-09  3.47716344e-09  3.32594602e-09  1.63093221e-07  6.31458619e-09  8.30000000e-01 
 8.40000000e-01  3.49749049e-09  3.50827548e-09  4.60018097e-01  3.34873801e-09  3.27443975e-09  3.47716339e-09  3.32594602e-09  1.63093227e-07  6.31443697e-09  8.40000000e-01 
 8.50000000e-01  3.49749049e-09  3.50827554e-09  4.60018104e-01  3.34873801e-09  3.27443977e-09  3.47716339e-09  3.32594602e-09  1.63093235e-07  6.31445118e-09  8.50000000e-01 
 8.60000000e-01  3.49749049e-09  3.50827554e-09  4.60018102e-01  3.34873801e-09  3.27443976e-09  3.47716339e-09  3.32594602e-09  1.63093239e-07  6.31429486e-09  8.60000000e-01 
 8.70000000e-01  3.49749049e-09  3.50827554e-09  4.60018104e-01  3.34873801e-09  3.27443982e-09  3.47716339e-09  3.32594602e-09  1.63093230e-07  6.31446540e-09  8.70000000e-01 
 8.80000000e-01  3.49749049e-09  3.50827548e-09  4.60018109e-01  3.34873801e-09  3.27443975e-09  3.47716339e-09  3.32594602e-09  1.63093251e-07  6.31420960e-09  8.80000000e-01 
 8.90000000e-01  3.49749049e-09  3.50827548e-09  4.60018120e-01  3.34873801e-09  3.27443977e-09  3.47716339e-09  3.32594602e-09  1.63093264e-07  6.31417407e-09  8.90000000e-01 
 9.00000000e-01  3.49749049e-09  3.50827554e-09  4.60018114e-01  3.34873801e-09  3.27443976e-09  3.47716339e-09  3.32594602e-09  1.63093255e-07  6.31404617e-09  9.00000000e-01 
 9.10000000e-01  3.49749049e-09  3.50827548e-09  4.60018100e-01  3.34873801e-09  3.27443976e-09  3.47716339e-09  3.32594602e-09  1.63093224e-07  6.31403907e-09  9.10000000e-01 
 9.20000000e-01  3.49749049e-09  3.50827554e-09  4.60018111e-01  3.34873801e-09  3.27443976e-09  3.47716339e-09  3.32594602e-09  1.63093250e-07  6.31410302e-09  9.20000000e-01 
 9.30000000e-01  3.49749049e-09  3.50827554e-09  4.60018084e-01  3.34873801e-09  3.27443976e-09  3.47716339e-09  3.32594602e-09  1.63093213e-07  6.31396091e-09  9.30000000e-01 
 9.40000000e-01  3.49749049e-09  3.50827548e-09  4.60018101e-01  3.34873801e-09  3.27443982e-09  3.47716339e-09  3.32594602e-09  1.63093242e-07  6.31388986e-09  9.40000000e-01 
 9.50000000e-01  3.49749049e-09  3.50827554e-09  4.60018095e-01  3.34873801e-09  3.27443975e-09  3.47716339e-09  3.32594602e-09  1.63093225e-07  6.31383301e-09  9.50000000e-01 
 9.60000000e-01  3.49749049e-09  3.50827548e-09  4.60018119e-01  3.34873796e-09  3.27443977e-09  3.47716339e-09  3.32594602e-09  1.63093252e-07  6.31366959e-09  9.60000000e-01 
 9.70000000e-01  3.49749049e-09  3.50827554e-09  4.60018114e-01  3.34873797e-09  3.27443976e-09  3.47716339e-09  3.32594602e-09  1.63093259e-07  6.31373354e-09  9.70000000e-01 
 9.80000000e-01  3.49749049e-09  3.50827548e-09  4.60018109e-01  3.34873801e-09  3.27443976e-09  3.47716339e-09  3.32594602e-09  1.63093248e-07  6.31374064e-09  9.80000000e-01 
 9.90000000e-01  3.49749049e-09  3.50827554e-09  4.60018102e-01  3.34873801e-09  3.27443982e-09  3.47716339e-09  3.32594602e-09  1.63093232e-07  6.31355590e-09  9.90000000e-01 
 1.00000000e+00  3.49749049e-09  3.50827554e-09  4.60018090e-01  3.34873801e-09  3.27443980e-09  3.47716339e-09  3.32594602e-09  1.63093219e-07  6.31358432e-09  1.00000000e+00 
 1.01000000e+00  3.49749049e-09  3.50827554e-09  4.60018090e-01  3.34873801e-09  3.27443975e-09  3.47716339e-09  3.32594602e-09  1.63093217e-07  6.31353458e-09  1.01000000e+00 
 1.02000000e+00  3.49749049e-09  3.50827554e-09  4.60018107e-01  3.34873801e-09  3.27443977e-09  3.47716339e-09  3.32594602e-09  1.63093249e-07  6.31339248e-09  1.02000000e+00 
 1.03000000e+00  3.49749049e-09  3.50827554e-09  4.60018104e-01  3.34873801e-09  3.27443976e-09  3.47716345e-09  3.32594602e-09  1.63093224e-07  6.31342800e-09  1.03000000e+00 
 1.04000000e+00  3.49749049e-09  3.50827554e-09  4.60018095e-01  3.34873801e-09  3.27443976e-09  3.47716339e-09  3.32594602e-09  1.63093228e-07  6.31324326e-09  1.04000000e+00 
 1.05000000e+00  3.49749049e-09  3.50827554e-09  4.60018085e-01  3.34873801e-09  3.27443982e-09  3.47716339e-09  3.32594602e-09  1.63093211e-07  6.31318642e-09  1.05000000e+00 
 1.06000000e+00  3.49749049e-09  3.50827554e-09  4.60018103e-01  3.34873801e-09  3.27443975e-09  3.47716339e-09  3.32594602e-09  1.63093240e-07  6.31324326e-09  1.06000000e+00 
 1.07000000e+00  3.49749049e-09  3.50827548e-09  4.60018124e-01  3.34873801e-09  3.27443977e-09  3.47716339e-09  3.32594602e-09  1.63093272e-07  6.31305852e-09  1.07000000e+00 
 1.08000000e+00  3.49749049e-09  3.50827554e-09  4.60018086e-01  3.34873801e-09  3.27443975e-09  3.47716339e-09  3.32594602e-09  1.63093207e-07  6.31299457e-09  1.08000000e+00 
 1.09000000e+00  3.49749049e-09  3.50827554e-09  4.60018115e-01  3.34873801e-09  3.27443977e-09  3.47716339e-09  3.32594602e-09  1.63093258e-07  6.31290220e-09  1.09000000e+00 
 1.10000000e+00  3.49749049e-09  3.50827554e-09  4.60018091e-01  3.34873801e-09  3.27443976e-09  3.47716339e-09  3.32594602e-09  1.63093224e-07  6.31297326e-09  1.10000000e+00 
