 v-sweep         v(b0)           v(b1)           v(b2)           v(b3)           v(b4)           v(b5)           v(b6)           i(vbias)        i(viout)        v(vout)        
 0.00000000e+00  3.13607348e-09  3.34907861e-09  4.60005035e-01  3.27678243e-09  3.22880301e-09  4.60005035e-01  3.32461843e-09  1.61624026e-07  5.55272527e-08  0.00000000e+00 
 1.00000000e-02  3.13607346e-09  3.34907859e-09  4.60005042e-01  3.27678241e-09  3.22880305e-09  4.60005042e-01  3.32461841e-09  1.61624013e-07  5.55267556e-08  1.00000000e-02 
 2.00000000e-02  3.13607346e-09  3.34907859e-09  4.60005030e-01  3.27678247e-09  3.22880304e-09  4.60005030e-01  3.32461835e-09  1.61623991e-07  5.55265711e-08  2.00000000e-02 
 3.00000000e-02  3.13607352e-09  3.34907859e-09  4.60005034e-01  3.27678240e-09  3.22880305e-09  4.60005035e-01  3.32461841e-09  1.61624021e-07  5.55261082e-08  3.00000000e-02 
 4.00000000e-02  3.13607352e-09  3.34907859e-09  4.60005044e-01  3.27678248e-09  3.22880305e-09  4.60005044e-01  3.32461835e-09  1.61624024e-07  5.55257507e-08  4.00000000e-02 
 5.00000000e-02  3.13607346e-09  3.34907859e-09  4.60005061e-01  3.27678240e-09  3.22880299e-09  4.60005061e-01  3.32461836e-09  1.61624041e-07  5.55254722e-08  5.00000000e-02 
 6.00000000e-02  3.13607352e-09  3.34907865e-09  4.60005033e-01  3.27678248e-09  3.22880300e-09  4.60005033e-01  3.32461835e-09  1.61624021e-07  5.55250899e-08  6.00000000e-02 
 7.00000000e-02  3.13607352e-09  3.34907859e-09  4.60005020e-01  3.27678246e-09  3.22880305e-09  4.60005020e-01  3.32461841e-09  1.61623981e-07  5.55247408e-08  7.00000000e-02 
 8.00000000e-02  3.13607346e-09  3.34907859e-09  4.60005027e-01  3.27678241e-09  3.22880298e-09  4.60005027e-01  3.32461841e-09  1.61623993e-07  5.55244215e-08  8.00000000e-02 
 9.00000000e-02  3.13607346e-09  3.34907859e-09  4.60005037e-01  3.27678242e-09  3.22880306e-09  4.60005038e-01  3.32461835e-09  1.61624006e-07  5.55241915e-08  9.00000000e-02 
 1.00000000e-01  3.13607346e-09  3.34907859e-09  4.60005033e-01  3.27678241e-09  3.22880298e-09  4.60005033e-01  3.32461841e-09  1.61624019e-07  5.55239712e-08  1.00000000e-01 
 1.10000000e-01  3.13607346e-09  3.34907859e-09  4.60005062e-01  3.27678241e-09  3.22880306e-09  4.60005062e-01  3.32461841e-09  1.61624055e-07  5.55236932e-08  1.10000000e-01 
 1.20000000e-01  3.13607346e-09  3.34907859e-09  4.60005054e-01  3.27678241e-09  3.22880304e-09  4.60005054e-01  3.32461836e-09  1.61624035e-07  5.55235138e-08  1.20000000e-01 
 1.30000000e-01  3.13607352e-09  3.34907859e-09  4.60005022e-01  3.27678241e-09  3.22880304e-09  4.60005022e-01  3.32461841e-09  1.61623986e-07  5.55232864e-08  1.30000000e-01 
 1.40000000e-01  3.13607346e-09  3.34907859e-09  4.60005050e-01  3.27678247e-09  3.22880305e-09  4.60005050e-01  3.32461841e-09  1.61624031e-07  5.55230741e-08  1.40000000e-01 
 1.50000000e-01  3.13607352e-09  3.34907859e-09  4.60005041e-01  3.27678240e-09  3.22880305e-09  4.60005042e-01  3.32461841e-09  1.61624038e-07  5.55229427e-08  1.50000000e-01 
 1.60000000e-01  3.13607346e-09  3.34907859e-09  4.60005048e-01  3.27678242e-09  3.22880305e-09  4.60005048e-01  3.32461836e-09  1.61624035e-07  5.55226070e-08  1.60000000e-01 
 1.70000000e-01  3.13607352e-09  3.34907865e-09  4.60005054e-01  3.27678241e-09  3.22880299e-09  4.60005054e-01  3.32461841e-09  1.61624015e-07  5.55225057e-08  1.70000000e-01 
 1.80000000e-01  3.13607352e-09  3.34907859e-09  4.60005059e-01  3.27678241e-09  3.22880306e-09  4.60005059e-01  3.32461841e-09  1.61624031e-07  5.55222552e-08  1.80000000e-01 
 1.90000000e-01  3.13607352e-09  3.34907859e-09  4.60005061e-01  3.27678241e-09  3.22880299e-09  4.60005061e-01  3.32461836e-09  1.61624055e-07  5.55220794e-08  1.90000000e-01 
 2.00000000e-01  3.13607346e-09  3.34907859e-09  4.60005035e-01  3.27678241e-09  3.22880300e-09  4.60005035e-01  3.32461835e-09  1.61624004e-07  5.55218893e-08  2.00000000e-01 
 2.10000000e-01  3.13607346e-09  3.34907859e-09  4.60005044e-01  3.27678241e-09  3.22880300e-09  4.60005044e-01  3.32461835e-09  1.61624020e-07  5.55217046e-08  2.10000000e-01 
 2.20000000e-01  3.13607352e-09  3.34907859e-09  4.60005063e-01  3.27678241e-09  3.22880306e-09  4.60005063e-01  3.32461836e-09  1.61624054e-07  5.55216708e-08  2.20000000e-01 
 2.30000000e-01  3.13607346e-09  3.34907859e-09  4.60005032e-01  3.27678241e-09  3.22880304e-09  4.60005033e-01  3.32461841e-09  1.61624011e-07  5.55214097e-08  2.30000000e-01 
 2.40000000e-01  3.13607346e-09  3.34907859e-09  4.60005056e-01  3.27678241e-09  3.22880305e-09  4.60005056e-01  3.32461841e-09  1.61624037e-07  5.55212694e-08  2.40000000e-01 
 2.50000000e-01  3.13607352e-09  3.34907859e-09  4.60005057e-01  3.27678247e-09  3.22880305e-09  4.60005057e-01  3.32461841e-09  1.61624052e-07  5.55212516e-08  2.50000000e-01 
 2.60000000e-01  3.13607352e-09  3.34907859e-09  4.60005037e-01  3.27678246e-09  3.22880299e-09  4.60005037e-01  3.32461841e-09  1.61624005e-07  5.55211361e-08  2.60000000e-01 
 2.70000000e-01  3.13607346e-09  3.34907859e-09  4.60005032e-01  3.27678246e-09  3.22880306e-09  4.60005032e-01  3.32461835e-09  1.61624010e-07  5.55209301e-08  2.70000000e-01 
 2.80000000e-01  3.13607352e-09  3.34907859e-09  4.60005040e-01  3.27678246e-09  3.22880304e-09  4.60005040e-01  3.32461841e-09  1.61624022e-07  5.55209443e-08  2.80000000e-01 
 2.90000000e-01  3.13607352e-09  3.34907859e-09  4.60005028e-01  3.27678241e-09  3.22880305e-09  4.60005029e-01  3.32461841e-09  1.61623998e-07  5.55206618e-08  2.90000000e-01 
 3.00000000e-01  3.13607346e-09  3.34907859e-09  4.60005041e-01  3.27678242e-09  3.22880299e-09  4.60005041e-01  3.32461841e-09  1.61624019e-07  5.55207151e-08  3.00000000e-01 
 3.10000000e-01  3.13607352e-09  3.34907859e-09  4.60005053e-01  3.27678247e-09  3.22880300e-09  4.60005053e-01  3.32461836e-09  1.61624026e-07  5.55205553e-08  3.10000000e-01 
 3.20000000e-01  3.13607351e-09  3.34907859e-09  4.60005015e-01  3.27678240e-09  3.22880305e-09  4.60005015e-01  3.32461841e-09  1.61623971e-07  5.55203421e-08  3.20000000e-01 
 3.30000000e-01  3.13607346e-09  3.34907859e-09  4.60005026e-01  3.27678242e-09  3.22880298e-09  4.60005026e-01  3.32461841e-09  1.61624004e-07  5.55202959e-08  3.30000000e-01 
 3.40000000e-01  3.13607346e-09  3.34907859e-09  4.60005031e-01  3.27678241e-09  3.22880306e-09  4.60005031e-01  3.32461841e-09  1.61624004e-07  5.55202853e-08  3.40000000e-01 
 3.50000000e-01  3.13607352e-09  3.34907859e-09  4.60005046e-01  3.27678247e-09  3.22880298e-09  4.60005046e-01  3.32461841e-09  1.61624027e-07  5.55201716e-08  3.50000000e-01 
 3.60000000e-01  3.13607352e-09  3.34907859e-09  4.60005046e-01  3.27678240e-09  3.22880306e-09  4.60005046e-01  3.32461835e-09  1.61624025e-07  5.55199939e-08  3.60000000e-01 
 3.70000000e-01  3.13607346e-09  3.34907859e-09  4.60005039e-01  3.27678248e-09  3.22880304e-09  4.60005039e-01  3.32461841e-09  1.61624012e-07  5.55198838e-08  3.70000000e-01 
 3.80000000e-01  3.13607346e-09  3.34907859e-09  4.60005046e-01  3.27678240e-09  3.22880299e-09  4.60005046e-01  3.32461841e-09  1.61624018e-07  5.55198874e-08  3.80000000e-01 
 3.90000000e-01  3.13607346e-09  3.34907859e-09  4.60005045e-01  3.27678242e-09  3.22880306e-09  4.60005045e-01  3.32461835e-09  1.61624011e-07  5.55198660e-08  3.90000000e-01 
 4.00000000e-01  3.13607352e-09  3.34907859e-09  4.60005026e-01  3.27678241e-09  3.22880298e-09  4.60005026e-01  3.32461841e-09  1.61623987e-07  5.55197843e-08  4.00000000e-01 
 4.10000000e-01  3.13607346e-09  3.34907859e-09  4.60005036e-01  3.27678247e-09  3.22880300e-09  4.60005036e-01  3.32461835e-09  1.61623997e-07  5.55196706e-08  4.10000000e-01 
 4.20000000e-01  3.13607346e-09  3.34907859e-09  4.60005046e-01  3.27678240e-09  3.22880305e-09  4.60005046e-01  3.32461841e-09  1.61624017e-07  5.55194752e-08  4.20000000e-01 
 4.30000000e-01  3.13607352e-09  3.34907859e-09  4.60005045e-01  3.27678242e-09  3.22880298e-09  4.60005045e-01  3.32461841e-09  1.61624017e-07  5.55194397e-08  4.30000000e-01 
 4.40000000e-01  3.13607351e-09  3.34907859e-09  4.60005014e-01  3.27678241e-09  3.22880300e-09  4.60005014e-01  3.32461841e-09  1.61623972e-07  5.55194788e-08  4.40000000e-01 
 4.50000000e-01  3.13607352e-09  3.34907859e-09  4.60005050e-01  3.27678247e-09  3.22880300e-09  4.60005050e-01  3.32461841e-09  1.61624027e-07  5.55193473e-08  4.50000000e-01 
 4.60000000e-01  3.13607352e-09  3.34907859e-09  4.60005038e-01  3.27678240e-09  3.22880305e-09  4.60005039e-01  3.32461841e-09  1.61624023e-07  5.55193331e-08  4.60000000e-01 
 4.70000000e-01  3.13607352e-09  3.34907859e-09  4.60005025e-01  3.27678242e-09  3.22880304e-09  4.60005025e-01  3.32461841e-09  1.61623996e-07  5.55191519e-08  4.70000000e-01 
 4.80000000e-01  3.13607352e-09  3.34907859e-09  4.60005030e-01  3.27678241e-09  3.22880305e-09  4.60005030e-01  3.32461841e-09  1.61623989e-07  5.55190667e-08  4.80000000e-01 
 4.90000000e-01  3.13607346e-09  3.34907859e-09  4.60005042e-01  3.27678241e-09  3.22880299e-09  4.60005042e-01  3.32461841e-09  1.61624014e-07  5.55190454e-08  4.90000000e-01 
 5.00000000e-01  3.13607346e-09  3.34907859e-09  4.60005042e-01  3.27678247e-09  3.22880300e-09  4.60005043e-01  3.32461835e-09  1.61624021e-07  5.55189423e-08  5.00000000e-01 
 5.10000000e-01  3.13607352e-09  3.34907859e-09  4.60005030e-01  3.27678246e-09  3.22880305e-09  4.60005030e-01  3.32461841e-09  1.61623991e-07  5.55188784e-08  5.10000000e-01 
 5.20000000e-01  3.13607352e-09  3.34907859e-09  4.60005054e-01  3.27678247e-09  3.22880304e-09  4.60005054e-01  3.32461836e-09  1.61624043e-07  5.55189352e-08  5.20000000e-01 
 5.30000000e-01  3.13607346e-09  3.34907859e-09  4.60005031e-01  3.27678241e-09  3.22880305e-09  4.60005031e-01  3.32461841e-09  1.61624007e-07  5.55188002e-08  5.30000000e-01 
 5.40000000e-01  3.13607346e-09  3.34907859e-09  4.60005028e-01  3.27678242e-09  3.22880299e-09  4.60005028e-01  3.32461841e-09  1.61624007e-07  5.55187896e-08  5.40000000e-01 
 5.50000000e-01  3.13607346e-09  3.34907859e-09  4.60005036e-01  3.27678241e-09  3.22880306e-09  4.60005036e-01  3.32461841e-09  1.61624002e-07  5.55186830e-08  5.50000000e-01 
 5.60000000e-01  3.13607352e-09  3.34907859e-09  4.60005050e-01  3.27678241e-09  3.22880304e-09  4.60005050e-01  3.32461841e-09  1.61624039e-07  5.55186901e-08  5.60000000e-01 
 5.70000000e-01  3.13607346e-09  3.34907859e-09  4.60005063e-01  3.27678241e-09  3.22880305e-09  4.60005063e-01  3.32461836e-09  1.61624049e-07  5.55184876e-08  5.70000000e-01 
 5.80000000e-01  3.13607352e-09  3.34907859e-09  4.60005046e-01  3.27678241e-09  3.22880305e-09  4.60005047e-01  3.32461841e-09  1.61624030e-07  5.55184556e-08  5.80000000e-01 
 5.90000000e-01  3.13607346e-09  3.34907859e-09  4.60005046e-01  3.27678241e-09  3.22880305e-09  4.60005046e-01  3.32461841e-09  1.61623999e-07  5.55183490e-08  5.90000000e-01 
 6.00000000e-01  3.13607346e-09  3.34907859e-09  4.60005034e-01  3.27678241e-09  3.22880299e-09  4.60005034e-01  3.32461835e-09  1.61624007e-07  5.55183561e-08  6.00000000e-01 
 6.10000000e-01  3.13607346e-09  3.34907859e-09  4.60005035e-01  3.27678247e-09  3.22880300e-09  4.60005035e-01  3.32461835e-09  1.61624009e-07  5.55183490e-08  6.10000000e-01 
 6.20000000e-01  3.13607352e-09  3.34907859e-09  4.60005026e-01  3.27678240e-09  3.22880305e-09  4.60005027e-01  3.32461835e-09  1.61623991e-07  5.55181998e-08  6.20000000e-01 
 6.30000000e-01  3.13607352e-09  3.34907859e-09  4.60005040e-01  3.27678248e-09  3.22880298e-09  4.60005041e-01  3.32461841e-09  1.61624027e-07  5.55182851e-08  6.30000000e-01 
 6.40000000e-01  3.13607346e-09  3.34907859e-09  4.60005055e-01  3.27678240e-09  3.22880306e-09  4.60005056e-01  3.32461841e-09  1.61624033e-07  5.55182780e-08  6.40000000e-01 
 6.50000000e-01  3.13607352e-09  3.34907859e-09  4.60005024e-01  3.27678242e-09  3.22880304e-09  4.60005024e-01  3.32461841e-09  1.61623993e-07  5.55180932e-08  6.50000000e-01 
 6.60000000e-01  3.13607346e-09  3.34907859e-09  4.60005054e-01  3.27678247e-09  3.22880305e-09  4.60005054e-01  3.32461841e-09  1.61624020e-07  5.55179938e-08  6.60000000e-01 
 6.70000000e-01  3.13607352e-09  3.34907859e-09  4.60005042e-01  3.27678246e-09  3.22880299e-09  4.60005042e-01  3.32461841e-09  1.61624029e-07  5.55179724e-08  6.70000000e-01 
 6.80000000e-01  3.13607346e-09  3.34907859e-09  4.60005039e-01  3.27678246e-09  3.22880300e-09  4.60005039e-01  3.32461841e-09  1.61624015e-07  5.55178872e-08  6.80000000e-01 
 6.90000000e-01  3.13607352e-09  3.34907859e-09  4.60005039e-01  3.27678241e-09  3.22880305e-09  4.60005039e-01  3.32461841e-09  1.61624007e-07  5.55179724e-08  6.90000000e-01 
 7.00000000e-01  3.13607346e-09  3.34907859e-09  4.60005050e-01  3.27678248e-09  3.22880298e-09  4.60005050e-01  3.32461841e-09  1.61624015e-07  5.55176882e-08  7.00000000e-01 
 7.10000000e-01  3.13607346e-09  3.34907865e-09  4.60005054e-01  3.27678246e-09  3.22880306e-09  4.60005054e-01  3.32461841e-09  1.61624032e-07  5.55177664e-08  7.10000000e-01 
 7.20000000e-01  3.13607352e-09  3.34907859e-09  4.60005037e-01  3.27678241e-09  3.22880304e-09  4.60005037e-01  3.32461841e-09  1.61624008e-07  5.55176456e-08  7.20000000e-01 
 7.30000000e-01  3.13607346e-09  3.34907859e-09  4.60005054e-01  3.27678242e-09  3.22880305e-09  4.60005054e-01  3.32461841e-09  1.61624050e-07  5.55176740e-08  7.30000000e-01 
 7.40000000e-01  3.13607352e-09  3.34907859e-09  4.60005058e-01  3.27678241e-09  3.22880305e-09  4.60005058e-01  3.32461841e-09  1.61624040e-07  5.55175674e-08  7.40000000e-01 
 7.50000000e-01  3.13607346e-09  3.34907859e-09  4.60005037e-01  3.27678247e-09  3.22880305e-09  4.60005037e-01  3.32461841e-09  1.61624030e-07  5.55174111e-08  7.50000000e-01 
 7.60000000e-01  3.13607352e-09  3.34907859e-09  4.60005038e-01  3.27678240e-09  3.22880305e-09  4.60005038e-01  3.32461835e-09  1.61624005e-07  5.55174893e-08  7.60000000e-01 
 7.70000000e-01  3.13607352e-09  3.34907859e-09  4.60005030e-01  3.27678242e-09  3.22880299e-09  4.60005030e-01  3.32461841e-09  1.61624006e-07  5.55172832e-08  7.70000000e-01 
 7.80000000e-01  3.13607346e-09  3.34907859e-09  4.60005064e-01  3.27678247e-09  3.22880300e-09  4.60005064e-01  3.32461836e-09  1.61624047e-07  5.55174253e-08  7.80000000e-01 
 7.90000000e-01  3.13607352e-09  3.34907859e-09  4.60005074e-01  3.27678240e-09  3.22880306e-09  4.60005074e-01  3.32461836e-09  1.61624079e-07  5.55173258e-08  7.90000000e-01 
 8.00000000e-01  3.13607346e-09  3.34907859e-09  4.60005038e-01  3.27678242e-09  3.22880304e-09  4.60005038e-01  3.32461835e-09  1.61624024e-07  5.55170985e-08  8.00000000e-01 
 8.10000000e-01  3.13607346e-09  3.34907859e-09  4.60005045e-01  3.27678241e-09  3.22880305e-09  4.60005045e-01  3.32461841e-09  1.61624019e-07  5.55171198e-08  8.10000000e-01 
 8.20000000e-01  3.13607346e-09  3.34907859e-09  4.60005045e-01  3.27678241e-09  3.22880305e-09  4.60005045e-01  3.32461841e-09  1.61624017e-07  5.55170843e-08  8.20000000e-01 
 8.30000000e-01  3.13607351e-09  3.34907859e-09  4.60005015e-01  3.27678247e-09  3.22880304e-09  4.60005015e-01  3.32461835e-09  1.61623975e-07  5.55169777e-08  8.30000000e-01 
 8.40000000e-01  3.13607352e-09  3.34907859e-09  4.60005065e-01  3.27678246e-09  3.22880305e-09  4.60005065e-01  3.32461841e-09  1.61624049e-07  5.55170345e-08  8.40000000e-01 
 8.50000000e-01  3.13607352e-09  3.34907859e-09  4.60005061e-01  3.27678247e-09  3.22880299e-09  4.60005062e-01  3.32461841e-09  1.61624063e-07  5.55170558e-08  8.50000000e-01 
 8.60000000e-01  3.13607346e-09  3.34907859e-09  4.60005047e-01  3.27678241e-09  3.22880300e-09  4.60005047e-01  3.32461841e-09  1.61624035e-07  5.55168498e-08  8.60000000e-01 
 8.70000000e-01  3.13607346e-09  3.34907859e-09  4.60005030e-01  3.27678242e-09  3.22880299e-09  4.60005030e-01  3.32461835e-09  1.61623999e-07  5.55165940e-08  8.70000000e-01 
 8.80000000e-01  3.13607346e-09  3.34907859e-09  4.60005026e-01  3.27678241e-09  3.22880305e-09  4.60005026e-01  3.32461835e-09  1.61623997e-07  5.55165940e-08  8.80000000e-01 
 8.90000000e-01  3.13607352e-09  3.34907859e-09  4.60005062e-01  3.27678241e-09  3.22880304e-09  4.60005062e-01  3.32461841e-09  1.61624036e-07  5.55166082e-08  8.90000000e-01 
 9.00000000e-01  3.13607352e-09  3.34907859e-09  4.60005063e-01  3.27678241e-09  3.22880299e-09  4.60005063e-01  3.32461841e-09  1.61624057e-07  5.55166082e-08  9.00000000e-01 
 9.10000000e-01  3.13607352e-09  3.34907859e-09  4.60005059e-01  3.27678241e-09  3.22880300e-09  4.60005060e-01  3.32461841e-09  1.61624052e-07  5.55164661e-08  9.10000000e-01 
 9.20000000e-01  3.13607346e-09  3.34907859e-09  4.60005044e-01  3.27678241e-09  3.22880300e-09  4.60005044e-01  3.32461841e-09  1.61624017e-07  5.55163240e-08  9.20000000e-01 
 9.30000000e-01  3.13607352e-09  3.34907859e-09  4.60005048e-01  3.27678247e-09  3.22880300e-09  4.60005048e-01  3.32461836e-09  1.61624032e-07  5.55163950e-08  9.30000000e-01 
 9.40000000e-01  3.13607346e-09  3.34907859e-09  4.60005046e-01  3.27678240e-09  3.22880305e-09  4.60005046e-01  3.32461835e-09  1.61624018e-07  5.55163098e-08  9.40000000e-01 
 9.50000000e-01  3.13607352e-09  3.34907859e-09  4.60005026e-01  3.27678242e-09  3.22880304e-09  4.60005027e-01  3.32461835e-09  1.61623987e-07  5.55162316e-08  9.50000000e-01 
 9.60000000e-01  3.13607352e-09  3.34907859e-09  4.60005044e-01  3.27678247e-09  3.22880299e-09  4.60005044e-01  3.32461835e-09  1.61624010e-07  5.55161890e-08  9.60000000e-01 
 9.70000000e-01  3.13607346e-09  3.34907859e-09  4.60005023e-01  3.27678240e-09  3.22880300e-09  4.60005023e-01  3.32461835e-09  1.61623974e-07  5.55161392e-08  9.70000000e-01 
 9.80000000e-01  3.13607346e-09  3.34907859e-09  4.60005044e-01  3.27678242e-09  3.22880300e-09  4.60005044e-01  3.32461841e-09  1.61624020e-07  5.55161250e-08  9.80000000e-01 
 9.90000000e-01  3.13607346e-09  3.34907859e-09  4.60005030e-01  3.27678247e-09  3.22880299e-09  4.60005030e-01  3.32461835e-09  1.61624001e-07  5.55160256e-08  9.90000000e-01 
 1.00000000e+00  3.13607346e-09  3.34907859e-09  4.60005053e-01  3.27678240e-09  3.22880300e-09  4.60005053e-01  3.32461841e-09  1.61624029e-07  5.55159545e-08  1.00000000e+00 
 1.01000000e+00  3.13607352e-09  3.34907859e-09  4.60005045e-01  3.27678248e-09  3.22880305e-09  4.60005045e-01  3.32461835e-09  1.61624040e-07  5.55159616e-08  1.01000000e+00 
 1.02000000e+00  3.13607352e-09  3.34907859e-09  4.60005021e-01  3.27678246e-09  3.22880298e-09  4.60005021e-01  3.32461841e-09  1.61623988e-07  5.55158195e-08  1.02000000e+00 
 1.03000000e+00  3.13607352e-09  3.34907859e-09  4.60005076e-01  3.27678241e-09  3.22880306e-09  4.60005076e-01  3.32461836e-09  1.61624066e-07  5.55157555e-08  1.03000000e+00 
 1.04000000e+00  3.13607346e-09  3.34907859e-09  4.60005058e-01  3.27678242e-09  3.22880304e-09  4.60005058e-01  3.32461841e-09  1.61624053e-07  5.55156561e-08  1.04000000e+00 
 1.05000000e+00  3.13607346e-09  3.34907859e-09  4.60005031e-01  3.27678241e-09  3.22880305e-09  4.60005031e-01  3.32461841e-09  1.61624001e-07  5.55155992e-08  1.05000000e+00 
 1.06000000e+00  3.13607352e-09  3.34907859e-09  4.60005045e-01  3.27678247e-09  3.22880305e-09  4.60005045e-01  3.32461835e-09  1.61624028e-07  5.55155424e-08  1.06000000e+00 
 1.07000000e+00  3.13607346e-09  3.34907859e-09  4.60005062e-01  3.27678246e-09  3.22880305e-09  4.60005062e-01  3.32461841e-09  1.61624048e-07  5.55154571e-08  1.07000000e+00 
 1.08000000e+00  3.13607346e-09  3.34907859e-09  4.60005030e-01  3.27678241e-09  3.22880305e-09  4.60005030e-01  3.32461841e-09  1.61624014e-07  5.55153576e-08  1.08000000e+00 
 1.09000000e+00  3.13607346e-09  3.34907859e-09  4.60005044e-01  3.27678242e-09  3.22880299e-09  4.60005044e-01  3.32461841e-09  1.61624029e-07  5.55154998e-08  1.09000000e+00 
 1.10000000e+00  3.13607346e-09  3.34907859e-09  4.60005060e-01  3.27678241e-09  3.22880300e-09  4.60005060e-01  3.32461841e-09  1.61624040e-07  5.55154216e-08  1.10000000e+00 
