 v-sweep         v(b0)           v(b1)           v(b2)           v(b3)           v(b4)           v(b5)           v(b6)           i(vbias)        i(viout)        v(vout)        
 0.00000000e+00  4.58422585e-01  4.58422585e-01  3.37549989e-09  3.52848059e-09  4.58422585e-01  3.22726812e-09  3.44258869e-09  1.59416249e-07  2.72563851e-08  0.00000000e+00 
 1.00000000e-02  4.58422573e-01  4.58422573e-01  3.37549992e-09  3.52848056e-09  4.58422572e-01  3.22726809e-09  3.44258872e-09  1.59416227e-07  2.72558447e-08  1.00000000e-02 
 2.00000000e-02  4.58422562e-01  4.58422562e-01  3.37549992e-09  3.52848055e-09  4.58422562e-01  3.22726810e-09  3.44258872e-09  1.59416207e-07  2.72555765e-08  2.00000000e-02 
 3.00000000e-02  4.58422590e-01  4.58422590e-01  3.37549993e-09  3.52848056e-09  4.58422590e-01  3.22726810e-09  3.44258872e-09  1.59416249e-07  2.72551590e-08  3.00000000e-02 
 4.00000000e-02  4.58422588e-01  4.58422588e-01  3.37549993e-09  3.52848056e-09  4.58422588e-01  3.22726810e-09  3.44258872e-09  1.59416253e-07  2.72548242e-08  4.00000000e-02 
 5.00000000e-02  4.58422597e-01  4.58422597e-01  3.37549987e-09  3.52848056e-09  4.58422597e-01  3.22726810e-09  3.44258872e-09  1.59416263e-07  2.72545968e-08  5.00000000e-02 
 6.00000000e-02  4.58422612e-01  4.58422612e-01  3.37549993e-09  3.52848056e-09  4.58422611e-01  3.22726810e-09  3.44258872e-09  1.59416288e-07  2.72541785e-08  6.00000000e-02 
 7.00000000e-02  4.58422614e-01  4.58422614e-01  3.37549993e-09  3.52848056e-09  4.58422614e-01  3.22726810e-09  3.44258872e-09  1.59416295e-07  2.72539880e-08  7.00000000e-02 
 8.00000000e-02  4.58422581e-01  4.58422581e-01  3.37549992e-09  3.52848056e-09  4.58422581e-01  3.22726810e-09  3.44258872e-09  1.59416248e-07  2.72536660e-08  8.00000000e-02 
 9.00000000e-02  4.58422590e-01  4.58422590e-01  3.37549993e-09  3.52848056e-09  4.58422590e-01  3.22726810e-09  3.44258872e-09  1.59416254e-07  2.72534546e-08  9.00000000e-02 
 1.00000000e-01  4.58422565e-01  4.58422565e-01  3.37549987e-09  3.52848055e-09  4.58422565e-01  3.22726810e-09  3.44258872e-09  1.59416220e-07  2.72531180e-08  1.00000000e-01 
 1.10000000e-01  4.58422608e-01  4.58422608e-01  3.37549993e-09  3.52848056e-09  4.58422608e-01  3.22726810e-09  3.44258872e-09  1.59416289e-07  2.72528977e-08  1.10000000e-01 
 1.20000000e-01  4.58422581e-01  4.58422581e-01  3.37549992e-09  3.52848056e-09  4.58422581e-01  3.22726810e-09  3.44258872e-09  1.59416249e-07  2.72526721e-08  1.20000000e-01 
 1.30000000e-01  4.58422589e-01  4.58422589e-01  3.37549987e-09  3.52848056e-09  4.58422589e-01  3.22726810e-09  3.44258872e-09  1.59416249e-07  2.72523710e-08  1.30000000e-01 
 1.40000000e-01  4.58422598e-01  4.58422598e-01  3.37549993e-09  3.52848056e-09  4.58422598e-01  3.22726810e-09  3.44258866e-09  1.59416278e-07  2.72521667e-08  1.40000000e-01 
 1.50000000e-01  4.58422602e-01  4.58422602e-01  3.37549993e-09  3.52848056e-09  4.58422601e-01  3.22726810e-09  3.44258872e-09  1.59416285e-07  2.72521028e-08  1.50000000e-01 
 1.60000000e-01  4.58422600e-01  4.58422600e-01  3.37549993e-09  3.52848056e-09  4.58422599e-01  3.22726810e-09  3.44258872e-09  1.59416278e-07  2.72519252e-08  1.60000000e-01 
 1.70000000e-01  4.58422582e-01  4.58422582e-01  3.37549993e-09  3.52848056e-09  4.58422582e-01  3.22726810e-09  3.44258872e-09  1.59416239e-07  2.72516552e-08  1.70000000e-01 
 1.80000000e-01  4.58422580e-01  4.58422580e-01  3.37549992e-09  3.52848056e-09  4.58422580e-01  3.22726810e-09  3.44258872e-09  1.59416247e-07  2.72514740e-08  1.80000000e-01 
 1.90000000e-01  4.58422580e-01  4.58422580e-01  3.37549987e-09  3.52848056e-09  4.58422580e-01  3.22726810e-09  3.44258872e-09  1.59416243e-07  2.72512128e-08  1.90000000e-01 
 2.00000000e-01  4.58422583e-01  4.58422583e-01  3.37549993e-09  3.52848056e-09  4.58422583e-01  3.22726810e-09  3.44258872e-09  1.59416245e-07  2.72513194e-08  2.00000000e-01 
 2.10000000e-01  4.58422588e-01  4.58422588e-01  3.37549993e-09  3.52848061e-09  4.58422588e-01  3.22726804e-09  3.44258872e-09  1.59416264e-07  2.72511098e-08  2.10000000e-01 
 2.20000000e-01  4.58422605e-01  4.58422605e-01  3.37549993e-09  3.52848056e-09  4.58422605e-01  3.22726810e-09  3.44258872e-09  1.59416272e-07  2.72508771e-08  2.20000000e-01 
 2.30000000e-01  4.58422588e-01  4.58422588e-01  3.37549993e-09  3.52848056e-09  4.58422588e-01  3.22726810e-09  3.44258872e-09  1.59416276e-07  2.72507013e-08  2.30000000e-01 
 2.40000000e-01  4.58422575e-01  4.58422575e-01  3.37549987e-09  3.52848056e-09  4.58422574e-01  3.22726810e-09  3.44258872e-09  1.59416231e-07  2.72506018e-08  2.40000000e-01 
 2.50000000e-01  4.58422574e-01  4.58422574e-01  3.37549992e-09  3.52848056e-09  4.58422574e-01  3.22726810e-09  3.44258872e-09  1.59416233e-07  2.72504685e-08  2.50000000e-01 
 2.60000000e-01  4.58422593e-01  4.58422593e-01  3.37549993e-09  3.52848056e-09  4.58422592e-01  3.22726816e-09  3.44258872e-09  1.59416260e-07  2.72504987e-08  2.60000000e-01 
 2.70000000e-01  4.58422592e-01  4.58422592e-01  3.37549993e-09  3.52848056e-09  4.58422592e-01  3.22726809e-09  3.44258872e-09  1.59416271e-07  2.72502803e-08  2.70000000e-01 
 2.80000000e-01  4.58422577e-01  4.58422578e-01  3.37549992e-09  3.52848056e-09  4.58422577e-01  3.22726811e-09  3.44258872e-09  1.59416231e-07  2.72502287e-08  2.80000000e-01 
 2.90000000e-01  4.58422594e-01  4.58422594e-01  3.37549987e-09  3.52848056e-09  4.58422594e-01  3.22726810e-09  3.44258872e-09  1.59416270e-07  2.72500991e-08  2.90000000e-01 
 3.00000000e-01  4.58422597e-01  4.58422597e-01  3.37549993e-09  3.52848056e-09  4.58422597e-01  3.22726810e-09  3.44258872e-09  1.59416272e-07  2.72498788e-08  3.00000000e-01 
 3.10000000e-01  4.58422587e-01  4.58422587e-01  3.37549993e-09  3.52848056e-09  4.58422587e-01  3.22726810e-09  3.44258872e-09  1.59416248e-07  2.72498468e-08  3.10000000e-01 
 3.20000000e-01  4.58422599e-01  4.58422599e-01  3.37549993e-09  3.52848056e-09  4.58422599e-01  3.22726810e-09  3.44258872e-09  1.59416282e-07  2.72497012e-08  3.20000000e-01 
 3.30000000e-01  4.58422608e-01  4.58422608e-01  3.37549993e-09  3.52848056e-09  4.58422608e-01  3.22726810e-09  3.44258872e-09  1.59416287e-07  2.72497225e-08  3.30000000e-01 
 3.40000000e-01  4.58422596e-01  4.58422596e-01  3.37549993e-09  3.52848056e-09  4.58422596e-01  3.22726810e-09  3.44258872e-09  1.59416255e-07  2.72495448e-08  3.40000000e-01 
 3.50000000e-01  4.58422577e-01  4.58422577e-01  3.37549992e-09  3.52848056e-09  4.58422577e-01  3.22726810e-09  3.44258872e-09  1.59416241e-07  2.72495235e-08  3.50000000e-01 
 3.60000000e-01  4.58422582e-01  4.58422582e-01  3.37549993e-09  3.52848061e-09  4.58422582e-01  3.22726810e-09  3.44258872e-09  1.59416240e-07  2.72493956e-08  3.60000000e-01 
 3.70000000e-01  4.58422580e-01  4.58422580e-01  3.37549992e-09  3.52848056e-09  4.58422579e-01  3.22726810e-09  3.44258872e-09  1.59416250e-07  2.72494205e-08  3.70000000e-01 
 3.80000000e-01  4.58422601e-01  4.58422602e-01  3.37549993e-09  3.52848056e-09  4.58422601e-01  3.22726810e-09  3.44258872e-09  1.59416273e-07  2.72492819e-08  3.80000000e-01 
 3.90000000e-01  4.58422585e-01  4.58422585e-01  3.37549993e-09  3.52848056e-09  4.58422585e-01  3.22726810e-09  3.44258872e-09  1.59416257e-07  2.72491611e-08  3.90000000e-01 
 4.00000000e-01  4.58422573e-01  4.58422574e-01  3.37549992e-09  3.52848056e-09  4.58422573e-01  3.22726810e-09  3.44258872e-09  1.59416232e-07  2.72490688e-08  4.00000000e-01 
 4.10000000e-01  4.58422590e-01  4.58422590e-01  3.37549993e-09  3.52848056e-09  4.58422590e-01  3.22726810e-09  3.44258872e-09  1.59416257e-07  2.72490617e-08  4.10000000e-01 
 4.20000000e-01  4.58422586e-01  4.58422586e-01  3.37549993e-09  3.52848056e-09  4.58422586e-01  3.22726810e-09  3.44258872e-09  1.59416248e-07  2.72488805e-08  4.20000000e-01 
 4.30000000e-01  4.58422574e-01  4.58422574e-01  3.37549992e-09  3.52848056e-09  4.58422574e-01  3.22726810e-09  3.44258872e-09  1.59416235e-07  2.72488805e-08  4.30000000e-01 
 4.40000000e-01  4.58422573e-01  4.58422573e-01  3.37549992e-09  3.52848056e-09  4.58422573e-01  3.22726810e-09  3.44258872e-09  1.59416241e-07  2.72488769e-08  4.40000000e-01 
 4.50000000e-01  4.58422602e-01  4.58422602e-01  3.37549993e-09  3.52848056e-09  4.58422602e-01  3.22726810e-09  3.44258872e-09  1.59416274e-07  2.72486460e-08  4.50000000e-01 
 4.60000000e-01  4.58422619e-01  4.58422619e-01  3.37549993e-09  3.52848056e-09  4.58422619e-01  3.22726810e-09  3.44258872e-09  1.59416298e-07  2.72486673e-08  4.60000000e-01 
 4.70000000e-01  4.58422583e-01  4.58422583e-01  3.37549993e-09  3.52848056e-09  4.58422583e-01  3.22726810e-09  3.44258872e-09  1.59416253e-07  2.72486389e-08  4.70000000e-01 
 4.80000000e-01  4.58422613e-01  4.58422613e-01  3.37549993e-09  3.52848056e-09  4.58422613e-01  3.22726810e-09  3.44258872e-09  1.59416287e-07  2.72485607e-08  4.80000000e-01 
 4.90000000e-01  4.58422590e-01  4.58422590e-01  3.37549993e-09  3.52848056e-09  4.58422590e-01  3.22726810e-09  3.44258872e-09  1.59416258e-07  2.72485607e-08  4.90000000e-01 
 5.00000000e-01  4.58422581e-01  4.58422581e-01  3.37549992e-09  3.52848061e-09  4.58422581e-01  3.22726810e-09  3.44258872e-09  1.59416222e-07  2.72484080e-08  5.00000000e-01 
 5.10000000e-01  4.58422590e-01  4.58422590e-01  3.37549993e-09  3.52848056e-09  4.58422590e-01  3.22726810e-09  3.44258872e-09  1.59416255e-07  2.72482836e-08  5.10000000e-01 
 5.20000000e-01  4.58422596e-01  4.58422596e-01  3.37549987e-09  3.52848056e-09  4.58422595e-01  3.22726810e-09  3.44258872e-09  1.59416270e-07  2.72484222e-08  5.20000000e-01 
 5.30000000e-01  4.58422585e-01  4.58422585e-01  3.37549993e-09  3.52848056e-09  4.58422585e-01  3.22726810e-09  3.44258872e-09  1.59416254e-07  2.72482126e-08  5.30000000e-01 
 5.40000000e-01  4.58422590e-01  4.58422590e-01  3.37549993e-09  3.52848056e-09  4.58422590e-01  3.22726810e-09  3.44258872e-09  1.59416265e-07  2.72482090e-08  5.40000000e-01 
 5.50000000e-01  4.58422601e-01  4.58422601e-01  3.37549987e-09  3.52848056e-09  4.58422601e-01  3.22726810e-09  3.44258872e-09  1.59416286e-07  2.72480563e-08  5.50000000e-01 
 5.60000000e-01  4.58422593e-01  4.58422594e-01  3.37549993e-09  3.52848056e-09  4.58422593e-01  3.22726810e-09  3.44258872e-09  1.59416269e-07  2.72481415e-08  5.60000000e-01 
 5.70000000e-01  4.58422586e-01  4.58422586e-01  3.37549993e-09  3.52848056e-09  4.58422586e-01  3.22726810e-09  3.44258872e-09  1.59416241e-07  2.72479888e-08  5.70000000e-01 
 5.80000000e-01  4.58422576e-01  4.58422577e-01  3.37549992e-09  3.52848056e-09  4.58422576e-01  3.22726810e-09  3.44258872e-09  1.59416224e-07  2.72480136e-08  5.80000000e-01 
 5.90000000e-01  4.58422590e-01  4.58422590e-01  3.37549993e-09  3.52848056e-09  4.58422590e-01  3.22726810e-09  3.44258872e-09  1.59416265e-07  2.72479070e-08  5.90000000e-01 
 6.00000000e-01  4.58422590e-01  4.58422590e-01  3.37549993e-09  3.52848056e-09  4.58422589e-01  3.22726810e-09  3.44258872e-09  1.59416260e-07  2.72478786e-08  6.00000000e-01 
 6.10000000e-01  4.58422597e-01  4.58422597e-01  3.37549993e-09  3.52848056e-09  4.58422596e-01  3.22726810e-09  3.44258872e-09  1.59416259e-07  2.72478857e-08  6.10000000e-01 
 6.20000000e-01  4.58422577e-01  4.58422577e-01  3.37549987e-09  3.52848056e-09  4.58422577e-01  3.22726810e-09  3.44258872e-09  1.59416233e-07  2.72478005e-08  6.20000000e-01 
 6.30000000e-01  4.58422579e-01  4.58422579e-01  3.37549992e-09  3.52848056e-09  4.58422579e-01  3.22726810e-09  3.44258872e-09  1.59416229e-07  2.72477649e-08  6.30000000e-01 
 6.40000000e-01  4.58422579e-01  4.58422579e-01  3.37549992e-09  3.52848056e-09  4.58422579e-01  3.22726810e-09  3.44258866e-09  1.59416247e-07  2.72477081e-08  6.40000000e-01 
 6.50000000e-01  4.58422613e-01  4.58422613e-01  3.37549993e-09  3.52848056e-09  4.58422613e-01  3.22726810e-09  3.44258872e-09  1.59416290e-07  2.72476868e-08  6.50000000e-01 
 6.60000000e-01  4.58422587e-01  4.58422587e-01  3.37549993e-09  3.52848056e-09  4.58422586e-01  3.22726810e-09  3.44258872e-09  1.59416258e-07  2.72476512e-08  6.60000000e-01 
 6.70000000e-01  4.58422598e-01  4.58422598e-01  3.37549993e-09  3.52848056e-09  4.58422598e-01  3.22726810e-09  3.44258872e-09  1.59416271e-07  2.72474239e-08  6.70000000e-01 
 6.80000000e-01  4.58422571e-01  4.58422571e-01  3.37549992e-09  3.52848056e-09  4.58422571e-01  3.22726810e-09  3.44258872e-09  1.59416235e-07  2.72473173e-08  6.80000000e-01 
 6.90000000e-01  4.58422568e-01  4.58422568e-01  3.37549992e-09  3.52848055e-09  4.58422568e-01  3.22726810e-09  3.44258872e-09  1.59416216e-07  2.72475020e-08  6.90000000e-01 
 7.00000000e-01  4.58422574e-01  4.58422574e-01  3.37549992e-09  3.52848056e-09  4.58422573e-01  3.22726810e-09  3.44258872e-09  1.59416239e-07  2.72472107e-08  7.00000000e-01 
 7.10000000e-01  4.58422608e-01  4.58422609e-01  3.37549993e-09  3.52848056e-09  4.58422608e-01  3.22726810e-09  3.44258872e-09  1.59416284e-07  2.72472462e-08  7.10000000e-01 
 7.20000000e-01  4.58422595e-01  4.58422595e-01  3.37549993e-09  3.52848056e-09  4.58422595e-01  3.22726810e-09  3.44258872e-09  1.59416271e-07  2.72472676e-08  7.20000000e-01 
 7.30000000e-01  4.58422594e-01  4.58422594e-01  3.37549993e-09  3.52848061e-09  4.58422594e-01  3.22726810e-09  3.44258872e-09  1.59416265e-07  2.72473244e-08  7.30000000e-01 
 7.40000000e-01  4.58422588e-01  4.58422588e-01  3.37549993e-09  3.52848056e-09  4.58422588e-01  3.22726810e-09  3.44258872e-09  1.59416269e-07  2.72472036e-08  7.40000000e-01 
 7.50000000e-01  4.58422589e-01  4.58422589e-01  3.37549993e-09  3.52848056e-09  4.58422589e-01  3.22726810e-09  3.44258872e-09  1.59416242e-07  2.72471254e-08  7.50000000e-01 
 7.60000000e-01  4.58422559e-01  4.58422559e-01  3.37549992e-09  3.52848055e-09  4.58422559e-01  3.22726810e-09  3.44258872e-09  1.59416214e-07  2.72470331e-08  7.60000000e-01 
 7.70000000e-01  4.58422572e-01  4.58422572e-01  3.37549992e-09  3.52848061e-09  4.58422572e-01  3.22726810e-09  3.44258872e-09  1.59416218e-07  2.72469549e-08  7.70000000e-01 
 7.80000000e-01  4.58422584e-01  4.58422584e-01  3.37549993e-09  3.52848056e-09  4.58422584e-01  3.22726810e-09  3.44258872e-09  1.59416251e-07  2.72469833e-08  7.80000000e-01 
 7.90000000e-01  4.58422575e-01  4.58422575e-01  3.37549992e-09  3.52848056e-09  4.58422575e-01  3.22726810e-09  3.44258872e-09  1.59416241e-07  2.72467346e-08  7.90000000e-01 
 8.00000000e-01  4.58422587e-01  4.58422587e-01  3.37549993e-09  3.52848061e-09  4.58422587e-01  3.22726810e-09  3.44258872e-09  1.59416255e-07  2.72467702e-08  8.00000000e-01 
 8.10000000e-01  4.58422588e-01  4.58422588e-01  3.37549987e-09  3.52848056e-09  4.58422588e-01  3.22726810e-09  3.44258872e-09  1.59416261e-07  2.72467702e-08  8.10000000e-01 
 8.20000000e-01  4.58422559e-01  4.58422559e-01  3.37549992e-09  3.52848055e-09  4.58422558e-01  3.22726810e-09  3.44258872e-09  1.59416204e-07  2.72467204e-08  8.20000000e-01 
 8.30000000e-01  4.58422602e-01  4.58422602e-01  3.37549993e-09  3.52848056e-09  4.58422602e-01  3.22726810e-09  3.44258872e-09  1.59416272e-07  2.72467915e-08  8.30000000e-01 
 8.40000000e-01  4.58422565e-01  4.58422565e-01  3.37549992e-09  3.52848055e-09  4.58422565e-01  3.22726810e-09  3.44258872e-09  1.59416222e-07  2.72465854e-08  8.40000000e-01 
 8.50000000e-01  4.58422591e-01  4.58422591e-01  3.37549993e-09  3.52848056e-09  4.58422591e-01  3.22726810e-09  3.44258872e-09  1.59416259e-07  2.72465854e-08  8.50000000e-01 
 8.60000000e-01  4.58422565e-01  4.58422565e-01  3.37549992e-09  3.52848055e-09  4.58422564e-01  3.22726810e-09  3.44258872e-09  1.59416216e-07  2.72465428e-08  8.60000000e-01 
 8.70000000e-01  4.58422594e-01  4.58422594e-01  3.37549993e-09  3.52848056e-09  4.58422594e-01  3.22726810e-09  3.44258872e-09  1.59416254e-07  2.72464931e-08  8.70000000e-01 
 8.80000000e-01  4.58422577e-01  4.58422577e-01  3.37549992e-09  3.52848056e-09  4.58422577e-01  3.22726810e-09  3.44258872e-09  1.59416244e-07  2.72464007e-08  8.80000000e-01 
 8.90000000e-01  4.58422577e-01  4.58422578e-01  3.37549992e-09  3.52848056e-09  4.58422577e-01  3.22726810e-09  3.44258872e-09  1.59416233e-07  2.72464504e-08  8.90000000e-01 
 9.00000000e-01  4.58422591e-01  4.58422591e-01  3.37549993e-09  3.52848056e-09  4.58422591e-01  3.22726810e-09  3.44258872e-09  1.59416270e-07  2.72462515e-08  9.00000000e-01 
 9.10000000e-01  4.58422583e-01  4.58422584e-01  3.37549993e-09  3.52848056e-09  4.58422583e-01  3.22726810e-09  3.44258872e-09  1.59416237e-07  2.72462088e-08  9.10000000e-01 
 9.20000000e-01  4.58422578e-01  4.58422578e-01  3.37549992e-09  3.52848061e-09  4.58422578e-01  3.22726810e-09  3.44258872e-09  1.59416248e-07  2.72462799e-08  9.20000000e-01 
 9.30000000e-01  4.58422605e-01  4.58422605e-01  3.37549993e-09  3.52848056e-09  4.58422605e-01  3.22726810e-09  3.44258872e-09  1.59416271e-07  2.72461875e-08  9.30000000e-01 
 9.40000000e-01  4.58422588e-01  4.58422588e-01  3.37549993e-09  3.52848056e-09  4.58422587e-01  3.22726810e-09  3.44258872e-09  1.59416257e-07  2.72460738e-08  9.40000000e-01 
 9.50000000e-01  4.58422605e-01  4.58422605e-01  3.37549993e-09  3.52848056e-09  4.58422605e-01  3.22726810e-09  3.44258872e-09  1.59416286e-07  2.72459246e-08  9.50000000e-01 
 9.60000000e-01  4.58422576e-01  4.58422576e-01  3.37549992e-09  3.52848056e-09  4.58422576e-01  3.22726810e-09  3.44258872e-09  1.59416237e-07  2.72460241e-08  9.60000000e-01 
 9.70000000e-01  4.58422580e-01  4.58422581e-01  3.37549992e-09  3.52848056e-09  4.58422580e-01  3.22726810e-09  3.44258872e-09  1.59416240e-07  2.72458820e-08  9.70000000e-01 
 9.80000000e-01  4.58422587e-01  4.58422587e-01  3.37549993e-09  3.52848056e-09  4.58422587e-01  3.22726810e-09  3.44258872e-09  1.59416237e-07  2.72459104e-08  9.80000000e-01 
 9.90000000e-01  4.58422580e-01  4.58422580e-01  3.37549992e-09  3.52848056e-09  4.58422580e-01  3.22726810e-09  3.44258872e-09  1.59416235e-07  2.72456688e-08  9.90000000e-01 
 1.00000000e+00  4.58422576e-01  4.58422576e-01  3.37549992e-09  3.52848056e-09  4.58422576e-01  3.22726810e-09  3.44258872e-09  1.59416235e-07  2.72457186e-08  1.00000000e+00 
 1.01000000e+00  4.58422600e-01  4.58422600e-01  3.37549987e-09  3.52848056e-09  4.58422600e-01  3.22726810e-09  3.44258872e-09  1.59416270e-07  2.72458038e-08  1.01000000e+00 
 1.02000000e+00  4.58422595e-01  4.58422595e-01  3.37549993e-09  3.52848056e-09  4.58422595e-01  3.22726810e-09  3.44258872e-09  1.59416268e-07  2.72455978e-08  1.02000000e+00 
 1.03000000e+00  4.58422592e-01  4.58422592e-01  3.37549993e-09  3.52848056e-09  4.58422592e-01  3.22726810e-09  3.44258872e-09  1.59416257e-07  2.72455338e-08  1.03000000e+00 
 1.04000000e+00  4.58422596e-01  4.58422596e-01  3.37549987e-09  3.52848056e-09  4.58422596e-01  3.22726810e-09  3.44258872e-09  1.59416262e-07  2.72455267e-08  1.04000000e+00 
 1.05000000e+00  4.58422606e-01  4.58422606e-01  3.37549993e-09  3.52848056e-09  4.58422606e-01  3.22726810e-09  3.44258872e-09  1.59416283e-07  2.72453775e-08  1.05000000e+00 
 1.06000000e+00  4.58422601e-01  4.58422601e-01  3.37549993e-09  3.52848056e-09  4.58422601e-01  3.22726810e-09  3.44258872e-09  1.59416272e-07  2.72454983e-08  1.06000000e+00 
 1.07000000e+00  4.58422571e-01  4.58422571e-01  3.37549992e-09  3.52848056e-09  4.58422570e-01  3.22726810e-09  3.44258872e-09  1.59416236e-07  2.72452922e-08  1.07000000e+00 
 1.08000000e+00  4.58422580e-01  4.58422580e-01  3.37549992e-09  3.52848056e-09  4.58422580e-01  3.22726810e-09  3.44258872e-09  1.59416238e-07  2.72452070e-08  1.08000000e+00 
 1.09000000e+00  4.58422611e-01  4.58422611e-01  3.37549993e-09  3.52848056e-09  4.58422610e-01  3.22726810e-09  3.44258872e-09  1.59416303e-07  2.72452354e-08  1.09000000e+00 
 1.10000000e+00  4.58422574e-01  4.58422574e-01  3.37549987e-09  3.52848056e-09  4.58422573e-01  3.22726810e-09  3.44258872e-09  1.59416241e-07  2.72451786e-08  1.10000000e+00 
