 v-sweep         v(b0)           v(b1)           v(b2)           v(b3)           v(b4)           v(b5)           v(b6)           i(vbias)        i(viout)        v(vout)        
 0.00000000e+00  4.56142824e-01  3.20313192e-09  4.56142824e-01  4.56142824e-01  4.56142824e-01  3.21419295e-09  3.34801306e-09  1.52755585e-07  4.31645359e-08  0.00000000e+00 
 1.00000000e-02  4.56142858e-01  3.20313189e-09  4.56142858e-01  4.56142858e-01  4.56142858e-01  3.21419292e-09  3.34801310e-09  1.52755620e-07  4.31640945e-08  1.00000000e-02 
 2.00000000e-02  4.56142863e-01  3.20313191e-09  4.56142863e-01  4.56142863e-01  4.56142863e-01  3.21419294e-09  3.34801305e-09  1.52755637e-07  4.31638139e-08  2.00000000e-02 
 3.00000000e-02  4.56142842e-01  3.20313189e-09  4.56142842e-01  4.56142842e-01  4.56142842e-01  3.21419292e-09  3.34801305e-09  1.52755595e-07  4.31633542e-08  3.00000000e-02 
 4.00000000e-02  4.56142845e-01  3.20313191e-09  4.56142845e-01  4.56142846e-01  4.56142846e-01  3.21419294e-09  3.34801310e-09  1.52755605e-07  4.31630363e-08  4.00000000e-02 
 5.00000000e-02  4.56142873e-01  3.20313189e-09  4.56142873e-01  4.56142873e-01  4.56142873e-01  3.21419298e-09  3.34801311e-09  1.52755643e-07  4.31626748e-08  5.00000000e-02 
 6.00000000e-02  4.56142848e-01  3.20313191e-09  4.56142848e-01  4.56142848e-01  4.56142848e-01  3.21419292e-09  3.34801305e-09  1.52755608e-07  4.31624554e-08  6.00000000e-02 
 7.00000000e-02  4.56142858e-01  3.20313195e-09  4.56142858e-01  4.56142859e-01  4.56142859e-01  3.21419294e-09  3.34801310e-09  1.52755623e-07  4.31621152e-08  7.00000000e-02 
 8.00000000e-02  4.56142849e-01  3.20313189e-09  4.56142849e-01  4.56142849e-01  4.56142849e-01  3.21419292e-09  3.34801310e-09  1.52755605e-07  4.31618883e-08  8.00000000e-02 
 9.00000000e-02  4.56142866e-01  3.20313191e-09  4.56142867e-01  4.56142867e-01  4.56142867e-01  3.21419294e-09  3.34801305e-09  1.52755631e-07  4.31617053e-08  9.00000000e-02 
 1.00000000e-01  4.56142869e-01  3.20313189e-09  4.56142869e-01  4.56142869e-01  4.56142869e-01  3.21419292e-09  3.34801311e-09  1.52755644e-07  4.31614327e-08  1.00000000e-01 
 1.10000000e-01  4.56142883e-01  3.20313191e-09  4.56142883e-01  4.56142883e-01  4.56142883e-01  3.21419294e-09  3.34801311e-09  1.52755656e-07  4.31610676e-08  1.10000000e-01 
 1.20000000e-01  4.56142875e-01  3.20313189e-09  4.56142875e-01  4.56142875e-01  4.56142875e-01  3.21419292e-09  3.34801311e-09  1.52755650e-07  4.31608127e-08  1.20000000e-01 
 1.30000000e-01  4.56142861e-01  3.20313191e-09  4.56142861e-01  4.56142861e-01  4.56142861e-01  3.21419294e-09  3.34801310e-09  1.52755620e-07  4.31606653e-08  1.30000000e-01 
 1.40000000e-01  4.56142849e-01  3.20313189e-09  4.56142850e-01  4.56142850e-01  4.56142850e-01  3.21419297e-09  3.34801305e-09  1.52755608e-07  4.31603935e-08  1.40000000e-01 
 1.50000000e-01  4.56142852e-01  3.20313191e-09  4.56142852e-01  4.56142853e-01  4.56142852e-01  3.21419298e-09  3.34801310e-09  1.52755610e-07  4.31602007e-08  1.50000000e-01 
 1.60000000e-01  4.56142864e-01  3.20313189e-09  4.56142865e-01  4.56142865e-01  4.56142865e-01  3.21419298e-09  3.34801305e-09  1.52755639e-07  4.31600178e-08  1.60000000e-01 
 1.70000000e-01  4.56142867e-01  3.20313191e-09  4.56142867e-01  4.56142867e-01  4.56142867e-01  3.21419292e-09  3.34801311e-09  1.52755638e-07  4.31598952e-08  1.70000000e-01 
 1.80000000e-01  4.56142876e-01  3.20313189e-09  4.56142876e-01  4.56142876e-01  4.56142876e-01  3.21419294e-09  3.34801311e-09  1.52755647e-07  4.31597265e-08  1.80000000e-01 
 1.90000000e-01  4.56142856e-01  3.20313191e-09  4.56142856e-01  4.56142856e-01  4.56142856e-01  3.21419298e-09  3.34801305e-09  1.52755617e-07  4.31594973e-08  1.90000000e-01 
 2.00000000e-01  4.56142857e-01  3.20313189e-09  4.56142857e-01  4.56142857e-01  4.56142857e-01  3.21419292e-09  3.34801310e-09  1.52755619e-07  4.31593854e-08  2.00000000e-01 
 2.10000000e-01  4.56142868e-01  3.20313191e-09  4.56142868e-01  4.56142868e-01  4.56142868e-01  3.21419294e-09  3.34801311e-09  1.52755636e-07  4.31592202e-08  2.10000000e-01 
 2.20000000e-01  4.56142862e-01  3.20313189e-09  4.56142862e-01  4.56142862e-01  4.56142862e-01  3.21419292e-09  3.34801310e-09  1.52755630e-07  4.31590852e-08  2.20000000e-01 
 2.30000000e-01  4.56142881e-01  3.20313191e-09  4.56142881e-01  4.56142881e-01  4.56142881e-01  3.21419294e-09  3.34801305e-09  1.52755652e-07  4.31589147e-08  2.30000000e-01 
 2.40000000e-01  4.56142869e-01  3.20313189e-09  4.56142869e-01  4.56142870e-01  4.56142870e-01  3.21419292e-09  3.34801305e-09  1.52755638e-07  4.31588063e-08  2.40000000e-01 
 2.50000000e-01  4.56142864e-01  3.20313191e-09  4.56142864e-01  4.56142864e-01  4.56142864e-01  3.21419294e-09  3.34801305e-09  1.52755622e-07  4.31585558e-08  2.50000000e-01 
 2.60000000e-01  4.56142882e-01  3.20313195e-09  4.56142882e-01  4.56142882e-01  4.56142882e-01  3.21419298e-09  3.34801305e-09  1.52755662e-07  4.31586553e-08  2.60000000e-01 
 2.70000000e-01  4.56142892e-01  3.20313190e-09  4.56142892e-01  4.56142892e-01  4.56142892e-01  3.21419293e-09  3.34801311e-09  1.52755674e-07  4.31585114e-08  2.70000000e-01 
 2.80000000e-01  4.56142863e-01  3.20313191e-09  4.56142863e-01  4.56142863e-01  4.56142863e-01  3.21419292e-09  3.34801310e-09  1.52755620e-07  4.31581881e-08  2.80000000e-01 
 2.90000000e-01  4.56142860e-01  3.20313189e-09  4.56142860e-01  4.56142860e-01  4.56142860e-01  3.21419294e-09  3.34801305e-09  1.52755618e-07  4.31581704e-08  2.90000000e-01 
 3.00000000e-01  4.56142870e-01  3.20313191e-09  4.56142871e-01  4.56142871e-01  4.56142871e-01  3.21419292e-09  3.34801311e-09  1.52755627e-07  4.31581100e-08  3.00000000e-01 
 3.10000000e-01  4.56142854e-01  3.20313189e-09  4.56142854e-01  4.56142854e-01  4.56142854e-01  3.21419294e-09  3.34801310e-09  1.52755621e-07  4.31579572e-08  3.10000000e-01 
 3.20000000e-01  4.56142849e-01  3.20313191e-09  4.56142849e-01  4.56142849e-01  4.56142849e-01  3.21419292e-09  3.34801305e-09  1.52755604e-07  4.31578293e-08  3.20000000e-01 
 3.30000000e-01  4.56142867e-01  3.20313189e-09  4.56142867e-01  4.56142867e-01  4.56142867e-01  3.21419294e-09  3.34801305e-09  1.52755620e-07  4.31577156e-08  3.30000000e-01 
 3.40000000e-01  4.56142866e-01  3.20313191e-09  4.56142866e-01  4.56142866e-01  4.56142866e-01  3.21419292e-09  3.34801305e-09  1.52755625e-07  4.31577156e-08  3.40000000e-01 
 3.50000000e-01  4.56142884e-01  3.20313195e-09  4.56142884e-01  4.56142884e-01  4.56142884e-01  3.21419294e-09  3.34801311e-09  1.52755656e-07  4.31576233e-08  3.50000000e-01 
 3.60000000e-01  4.56142865e-01  3.20313190e-09  4.56142865e-01  4.56142865e-01  4.56142865e-01  3.21419292e-09  3.34801311e-09  1.52755631e-07  4.31574918e-08  3.60000000e-01 
 3.70000000e-01  4.56142840e-01  3.20313191e-09  4.56142840e-01  4.56142840e-01  4.56142840e-01  3.21419294e-09  3.34801304e-09  1.52755589e-07  4.31574030e-08  3.70000000e-01 
 3.80000000e-01  4.56142880e-01  3.20313195e-09  4.56142880e-01  4.56142880e-01  4.56142880e-01  3.21419292e-09  3.34801311e-09  1.52755675e-07  4.31574207e-08  3.80000000e-01 
 3.90000000e-01  4.56142856e-01  3.20313189e-09  4.56142856e-01  4.56142856e-01  4.56142856e-01  3.21419294e-09  3.34801310e-09  1.52755621e-07  4.31573142e-08  3.90000000e-01 
 4.00000000e-01  4.56142855e-01  3.20313191e-09  4.56142855e-01  4.56142856e-01  4.56142855e-01  3.21419292e-09  3.34801305e-09  1.52755617e-07  4.31571010e-08  4.00000000e-01 
 4.10000000e-01  4.56142859e-01  3.20313189e-09  4.56142859e-01  4.56142859e-01  4.56142859e-01  3.21419294e-09  3.34801305e-09  1.52755620e-07  4.31571863e-08  4.10000000e-01 
 4.20000000e-01  4.56142865e-01  3.20313191e-09  4.56142865e-01  4.56142865e-01  4.56142865e-01  3.21419292e-09  3.34801305e-09  1.52755627e-07  4.31570406e-08  4.20000000e-01 
 4.30000000e-01  4.56142850e-01  3.20313189e-09  4.56142850e-01  4.56142850e-01  4.56142850e-01  3.21419294e-09  3.34801310e-09  1.52755609e-07  4.31570015e-08  4.30000000e-01 
 4.40000000e-01  4.56142860e-01  3.20313185e-09  4.56142860e-01  4.56142860e-01  4.56142860e-01  3.21419292e-09  3.34801310e-09  1.52755617e-07  4.31569624e-08  4.40000000e-01 
 4.50000000e-01  4.56142880e-01  3.20313190e-09  4.56142880e-01  4.56142880e-01  4.56142880e-01  3.21419294e-09  3.34801311e-09  1.52755653e-07  4.31569269e-08  4.50000000e-01 
 4.60000000e-01  4.56142859e-01  3.20313190e-09  4.56142859e-01  4.56142860e-01  4.56142860e-01  3.21419292e-09  3.34801310e-09  1.52755622e-07  4.31568594e-08  4.60000000e-01 
 4.70000000e-01  4.56142873e-01  3.20313190e-09  4.56142873e-01  4.56142873e-01  4.56142873e-01  3.21419294e-09  3.34801311e-09  1.52755641e-07  4.31566889e-08  4.70000000e-01 
 4.80000000e-01  4.56142856e-01  3.20313190e-09  4.56142856e-01  4.56142856e-01  4.56142856e-01  3.21419292e-09  3.34801305e-09  1.52755627e-07  4.31566747e-08  4.80000000e-01 
 4.90000000e-01  4.56142839e-01  3.20313190e-09  4.56142839e-01  4.56142839e-01  4.56142839e-01  3.21419294e-09  3.34801304e-09  1.52755592e-07  4.31566001e-08  4.90000000e-01 
 5.00000000e-01  4.56142859e-01  3.20313190e-09  4.56142859e-01  4.56142859e-01  4.56142859e-01  3.21419292e-09  3.34801310e-09  1.52755625e-07  4.31566001e-08  5.00000000e-01 
 5.10000000e-01  4.56142870e-01  3.20313190e-09  4.56142870e-01  4.56142870e-01  4.56142870e-01  3.21419294e-09  3.34801311e-09  1.52755641e-07  4.31564153e-08  5.10000000e-01 
 5.20000000e-01  4.56142856e-01  3.20313190e-09  4.56142856e-01  4.56142856e-01  4.56142856e-01  3.21419298e-09  3.34801305e-09  1.52755625e-07  4.31563656e-08  5.20000000e-01 
 5.30000000e-01  4.56142863e-01  3.20313190e-09  4.56142863e-01  4.56142863e-01  4.56142863e-01  3.21419292e-09  3.34801305e-09  1.52755632e-07  4.31563159e-08  5.30000000e-01 
 5.40000000e-01  4.56142855e-01  3.20313190e-09  4.56142855e-01  4.56142855e-01  4.56142855e-01  3.21419294e-09  3.34801305e-09  1.52755613e-07  4.31562839e-08  5.40000000e-01 
 5.50000000e-01  4.56142848e-01  3.20313184e-09  4.56142848e-01  4.56142848e-01  4.56142848e-01  3.21419292e-09  3.34801305e-09  1.52755599e-07  4.31562377e-08  5.50000000e-01 
 5.60000000e-01  4.56142852e-01  3.20313190e-09  4.56142852e-01  4.56142852e-01  4.56142852e-01  3.21419294e-09  3.34801310e-09  1.52755622e-07  4.31561595e-08  5.60000000e-01 
 5.70000000e-01  4.56142854e-01  3.20313190e-09  4.56142854e-01  4.56142854e-01  4.56142854e-01  3.21419292e-09  3.34801305e-09  1.52755620e-07  4.31560245e-08  5.70000000e-01 
 5.80000000e-01  4.56142853e-01  3.20313190e-09  4.56142853e-01  4.56142853e-01  4.56142853e-01  3.21419294e-09  3.34801310e-09  1.52755614e-07  4.31560494e-08  5.80000000e-01 
 5.90000000e-01  4.56142842e-01  3.20313190e-09  4.56142842e-01  4.56142842e-01  4.56142842e-01  3.21419297e-09  3.34801310e-09  1.52755596e-07  4.31559286e-08  5.90000000e-01 
 6.00000000e-01  4.56142868e-01  3.20313190e-09  4.56142868e-01  4.56142868e-01  4.56142868e-01  3.21419292e-09  3.34801305e-09  1.52755627e-07  4.31559499e-08  6.00000000e-01 
 6.10000000e-01  4.56142853e-01  3.20313190e-09  4.56142853e-01  4.56142853e-01  4.56142853e-01  3.21419294e-09  3.34801310e-09  1.52755633e-07  4.31559499e-08  6.10000000e-01 
 6.20000000e-01  4.56142852e-01  3.20313190e-09  4.56142852e-01  4.56142852e-01  4.56142852e-01  3.21419292e-09  3.34801305e-09  1.52755607e-07  4.31558007e-08  6.20000000e-01 
 6.30000000e-01  4.56142848e-01  3.20313190e-09  4.56142848e-01  4.56142848e-01  4.56142848e-01  3.21419294e-09  3.34801305e-09  1.52755599e-07  4.31557723e-08  6.30000000e-01 
 6.40000000e-01  4.56142856e-01  3.20313190e-09  4.56142856e-01  4.56142856e-01  4.56142856e-01  3.21419292e-09  3.34801305e-09  1.52755607e-07  4.31556870e-08  6.40000000e-01 
 6.50000000e-01  4.56142892e-01  3.20313190e-09  4.56142892e-01  4.56142892e-01  4.56142892e-01  3.21419294e-09  3.34801311e-09  1.52755669e-07  4.31556728e-08  6.50000000e-01 
 6.60000000e-01  4.56142875e-01  3.20313190e-09  4.56142875e-01  4.56142875e-01  4.56142875e-01  3.21419292e-09  3.34801311e-09  1.52755639e-07  4.31556728e-08  6.60000000e-01 
 6.70000000e-01  4.56142874e-01  3.20313190e-09  4.56142874e-01  4.56142874e-01  4.56142874e-01  3.21419294e-09  3.34801305e-09  1.52755659e-07  4.31554597e-08  6.70000000e-01 
 6.80000000e-01  4.56142851e-01  3.20313190e-09  4.56142851e-01  4.56142851e-01  4.56142851e-01  3.21419298e-09  3.34801305e-09  1.52755609e-07  4.31554881e-08  6.80000000e-01 
 6.90000000e-01  4.56142871e-01  3.20313190e-09  4.56142871e-01  4.56142871e-01  4.56142871e-01  3.21419293e-09  3.34801305e-09  1.52755647e-07  4.31554312e-08  6.90000000e-01 
 7.00000000e-01  4.56142852e-01  3.20313190e-09  4.56142853e-01  4.56142853e-01  4.56142853e-01  3.21419294e-09  3.34801305e-09  1.52755624e-07  4.31552323e-08  7.00000000e-01 
 7.10000000e-01  4.56142869e-01  3.20313190e-09  4.56142869e-01  4.56142870e-01  4.56142869e-01  3.21419292e-09  3.34801305e-09  1.52755624e-07  4.31552181e-08  7.10000000e-01 
 7.20000000e-01  4.56142852e-01  3.20313190e-09  4.56142852e-01  4.56142853e-01  4.56142852e-01  3.21419294e-09  3.34801310e-09  1.52755607e-07  4.31552465e-08  7.20000000e-01 
 7.30000000e-01  4.56142888e-01  3.20313190e-09  4.56142888e-01  4.56142888e-01  4.56142888e-01  3.21419292e-09  3.34801305e-09  1.52755676e-07  4.31552110e-08  7.30000000e-01 
 7.40000000e-01  4.56142845e-01  3.20313190e-09  4.56142845e-01  4.56142845e-01  4.56142845e-01  3.21419294e-09  3.34801310e-09  1.52755605e-07  4.31551541e-08  7.40000000e-01 
 7.50000000e-01  4.56142869e-01  3.20313190e-09  4.56142869e-01  4.56142869e-01  4.56142869e-01  3.21419298e-09  3.34801311e-09  1.52755633e-07  4.31551967e-08  7.50000000e-01 
 7.60000000e-01  4.56142870e-01  3.20313190e-09  4.56142870e-01  4.56142871e-01  4.56142870e-01  3.21419293e-09  3.34801305e-09  1.52755645e-07  4.31550191e-08  7.60000000e-01 
 7.70000000e-01  4.56142845e-01  3.20313190e-09  4.56142845e-01  4.56142845e-01  4.56142845e-01  3.21419294e-09  3.34801305e-09  1.52755594e-07  4.31549765e-08  7.70000000e-01 
 7.80000000e-01  4.56142865e-01  3.20313190e-09  4.56142865e-01  4.56142865e-01  4.56142865e-01  3.21419292e-09  3.34801311e-09  1.52755635e-07  4.31548770e-08  7.80000000e-01 
 7.90000000e-01  4.56142869e-01  3.20313190e-09  4.56142869e-01  4.56142869e-01  4.56142869e-01  3.21419294e-09  3.34801311e-09  1.52755642e-07  4.31549054e-08  7.90000000e-01 
 8.00000000e-01  4.56142856e-01  3.20313190e-09  4.56142856e-01  4.56142857e-01  4.56142856e-01  3.21419292e-09  3.34801305e-09  1.52755612e-07  4.31548415e-08  8.00000000e-01 
 8.10000000e-01  4.56142870e-01  3.20313190e-09  4.56142870e-01  4.56142870e-01  4.56142870e-01  3.21419294e-09  3.34801305e-09  1.52755634e-07  4.31547917e-08  8.10000000e-01 
 8.20000000e-01  4.56142864e-01  3.20313190e-09  4.56142864e-01  4.56142864e-01  4.56142864e-01  3.21419292e-09  3.34801311e-09  1.52755629e-07  4.31546638e-08  8.20000000e-01 
 8.30000000e-01  4.56142859e-01  3.20313190e-09  4.56142859e-01  4.56142859e-01  4.56142859e-01  3.21419294e-09  3.34801310e-09  1.52755625e-07  4.31545217e-08  8.30000000e-01 
 8.40000000e-01  4.56142864e-01  3.20313190e-09  4.56142865e-01  4.56142865e-01  4.56142865e-01  3.21419292e-09  3.34801311e-09  1.52755648e-07  4.31546638e-08  8.40000000e-01 
 8.50000000e-01  4.56142871e-01  3.20313190e-09  4.56142871e-01  4.56142872e-01  4.56142871e-01  3.21419294e-09  3.34801305e-09  1.52755645e-07  4.31544294e-08  8.50000000e-01 
 8.60000000e-01  4.56142852e-01  3.20313190e-09  4.56142852e-01  4.56142852e-01  4.56142852e-01  3.21419292e-09  3.34801310e-09  1.52755617e-07  4.31544862e-08  8.60000000e-01 
 8.70000000e-01  4.56142878e-01  3.20313190e-09  4.56142878e-01  4.56142878e-01  4.56142878e-01  3.21419294e-09  3.34801311e-09  1.52755646e-07  4.31543512e-08  8.70000000e-01 
 8.80000000e-01  4.56142850e-01  3.20313190e-09  4.56142850e-01  4.56142850e-01  4.56142850e-01  3.21419298e-09  3.34801310e-09  1.52755612e-07  4.31543228e-08  8.80000000e-01 
 8.90000000e-01  4.56142880e-01  3.20313190e-09  4.56142880e-01  4.56142880e-01  4.56142880e-01  3.21419293e-09  3.34801305e-09  1.52755654e-07  4.31542801e-08  8.90000000e-01 
 9.00000000e-01  4.56142864e-01  3.20313190e-09  4.56142864e-01  4.56142865e-01  4.56142864e-01  3.21419298e-09  3.34801311e-09  1.52755643e-07  4.31542517e-08  9.00000000e-01 
 9.10000000e-01  4.56142841e-01  3.20313190e-09  4.56142841e-01  4.56142841e-01  4.56142841e-01  3.21419298e-09  3.34801304e-09  1.52755598e-07  4.31541096e-08  9.10000000e-01 
 9.20000000e-01  4.56142872e-01  3.20313190e-09  4.56142872e-01  4.56142872e-01  4.56142872e-01  3.21419293e-09  3.34801311e-09  1.52755643e-07  4.31540030e-08  9.20000000e-01 
 9.30000000e-01  4.56142862e-01  3.20313190e-09  4.56142862e-01  4.56142862e-01  4.56142862e-01  3.21419294e-09  3.34801305e-09  1.52755628e-07  4.31540528e-08  9.30000000e-01 
 9.40000000e-01  4.56142875e-01  3.20313190e-09  4.56142875e-01  4.56142875e-01  4.56142875e-01  3.21419292e-09  3.34801305e-09  1.52755653e-07  4.31540599e-08  9.40000000e-01 
 9.50000000e-01  4.56142855e-01  3.20313190e-09  4.56142855e-01  4.56142855e-01  4.56142855e-01  3.21419294e-09  3.34801310e-09  1.52755614e-07  4.31539817e-08  9.50000000e-01 
 9.60000000e-01  4.56142879e-01  3.20313190e-09  4.56142879e-01  4.56142879e-01  4.56142879e-01  3.21419292e-09  3.34801311e-09  1.52755649e-07  4.31539675e-08  9.60000000e-01 
 9.70000000e-01  4.56142878e-01  3.20313190e-09  4.56142878e-01  4.56142878e-01  4.56142878e-01  3.21419294e-09  3.34801311e-09  1.52755651e-07  4.31538609e-08  9.70000000e-01 
 9.80000000e-01  4.56142860e-01  3.20313190e-09  4.56142860e-01  4.56142860e-01  4.56142860e-01  3.21419292e-09  3.34801305e-09  1.52755610e-07  4.31536904e-08  9.80000000e-01 
 9.90000000e-01  4.56142861e-01  3.20313190e-09  4.56142861e-01  4.56142861e-01  4.56142861e-01  3.21419294e-09  3.34801305e-09  1.52755630e-07  4.31536122e-08  9.90000000e-01 
 1.00000000e+00  4.56142852e-01  3.20313190e-09  4.56142852e-01  4.56142852e-01  4.56142852e-01  3.21419292e-09  3.34801305e-09  1.52755601e-07  4.31536478e-08  1.00000000e+00 
 1.01000000e+00  4.56142859e-01  3.20313190e-09  4.56142859e-01  4.56142859e-01  4.56142859e-01  3.21419294e-09  3.34801310e-09  1.52755612e-07  4.31535767e-08  1.01000000e+00 
 1.02000000e+00  4.56142854e-01  3.20313190e-09  4.56142854e-01  4.56142854e-01  4.56142854e-01  3.21419292e-09  3.34801305e-09  1.52755613e-07  4.31534630e-08  1.02000000e+00 
 1.03000000e+00  4.56142842e-01  3.20313190e-09  4.56142842e-01  4.56142842e-01  4.56142842e-01  3.21419294e-09  3.34801310e-09  1.52755609e-07  4.31534488e-08  1.03000000e+00 
 1.04000000e+00  4.56142871e-01  3.20313184e-09  4.56142871e-01  4.56142871e-01  4.56142871e-01  3.21419292e-09  3.34801305e-09  1.52755638e-07  4.31533280e-08  1.04000000e+00 
 1.05000000e+00  4.56142853e-01  3.20313190e-09  4.56142853e-01  4.56142853e-01  4.56142853e-01  3.21419294e-09  3.34801310e-09  1.52755630e-07  4.31533067e-08  1.05000000e+00 
 1.06000000e+00  4.56142856e-01  3.20313190e-09  4.56142856e-01  4.56142856e-01  4.56142856e-01  3.21419292e-09  3.34801305e-09  1.52755629e-07  4.31533351e-08  1.06000000e+00 
 1.07000000e+00  4.56142859e-01  3.20313190e-09  4.56142860e-01  4.56142860e-01  4.56142860e-01  3.21419294e-09  3.34801305e-09  1.52755619e-07  4.31532428e-08  1.07000000e+00 
 1.08000000e+00  4.56142873e-01  3.20313190e-09  4.56142873e-01  4.56142873e-01  4.56142873e-01  3.21419298e-09  3.34801305e-09  1.52755629e-07  4.31531078e-08  1.08000000e+00 
 1.09000000e+00  4.56142863e-01  3.20313190e-09  4.56142863e-01  4.56142863e-01  4.56142863e-01  3.21419298e-09  3.34801310e-09  1.52755622e-07  4.31530580e-08  1.09000000e+00 
 1.10000000e+00  4.56142866e-01  3.20313190e-09  4.56142866e-01  4.56142866e-01  4.56142866e-01  3.21419292e-09  3.34801311e-09  1.52755630e-07  4.31530722e-08  1.10000000e+00 
