 v-sweep         v(b0)           v(b1)           v(b2)           v(b3)           v(b4)           v(b5)           v(b6)           i(vbias)        i(viout)        v(vout)        
 0.00000000e+00  3.35862145e-09  4.57633290e-01  3.28835644e-09  4.57633290e-01  4.57633290e-01  3.46720543e-09  3.37966726e-09  1.59726433e-07  3.90085128e-08  0.00000000e+00 
 1.00000000e-02  3.35862149e-09  4.57633292e-01  3.28835647e-09  4.57633292e-01  4.57633292e-01  3.46720547e-09  3.37966724e-09  1.59726443e-07  3.90080598e-08  1.00000000e-02 
 2.00000000e-02  3.35862149e-09  4.57633275e-01  3.28835647e-09  4.57633275e-01  4.57633275e-01  3.46720552e-09  3.37966729e-09  1.59726414e-07  3.90076156e-08  2.00000000e-02 
 3.00000000e-02  3.35862149e-09  4.57633268e-01  3.28835647e-09  4.57633268e-01  4.57633268e-01  3.46720546e-09  3.37966729e-09  1.59726406e-07  3.90072921e-08  3.00000000e-02 
 4.00000000e-02  3.35862149e-09  4.57633262e-01  3.28835641e-09  4.57633262e-01  4.57633262e-01  3.46720546e-09  3.37966729e-09  1.59726396e-07  3.90070078e-08  4.00000000e-02 
 5.00000000e-02  3.35862149e-09  4.57633278e-01  3.28835642e-09  4.57633278e-01  4.57633278e-01  3.46720546e-09  3.37966729e-09  1.59726426e-07  3.90066055e-08  5.00000000e-02 
 6.00000000e-02  3.35862149e-09  4.57633289e-01  3.28835647e-09  4.57633289e-01  4.57633289e-01  3.46720552e-09  3.37966729e-09  1.59726438e-07  3.90062009e-08  6.00000000e-02 
 7.00000000e-02  3.35862149e-09  4.57633285e-01  3.28835647e-09  4.57633285e-01  4.57633285e-01  3.46720546e-09  3.37966724e-09  1.59726437e-07  3.90059203e-08  7.00000000e-02 
 8.00000000e-02  3.35862149e-09  4.57633280e-01  3.28835642e-09  4.57633280e-01  4.57633280e-01  3.46720546e-09  3.37966729e-09  1.59726417e-07  3.90057799e-08  8.00000000e-02 
 9.00000000e-02  3.35862149e-09  4.57633280e-01  3.28835642e-09  4.57633280e-01  4.57633280e-01  3.46720546e-09  3.37966729e-09  1.59726432e-07  3.90055170e-08  9.00000000e-02 
 1.00000000e-01  3.35862149e-09  4.57633274e-01  3.28835647e-09  4.57633274e-01  4.57633274e-01  3.46720546e-09  3.37966729e-09  1.59726421e-07  3.90051831e-08  1.00000000e-01 
 1.10000000e-01  3.35862149e-09  4.57633287e-01  3.28835642e-09  4.57633287e-01  4.57633287e-01  3.46720546e-09  3.37966729e-09  1.59726438e-07  3.90050898e-08  1.10000000e-01 
 1.20000000e-01  3.35862143e-09  4.57633271e-01  3.28835641e-09  4.57633271e-01  4.57633271e-01  3.46720546e-09  3.37966724e-09  1.59726409e-07  3.90046804e-08  1.20000000e-01 
 1.30000000e-01  3.35862149e-09  4.57633300e-01  3.28835648e-09  4.57633300e-01  4.57633300e-01  3.46720547e-09  3.37966729e-09  1.59726453e-07  3.90045383e-08  1.30000000e-01 
 1.40000000e-01  3.35862149e-09  4.57633286e-01  3.28835642e-09  4.57633286e-01  4.57633286e-01  3.46720552e-09  3.37966724e-09  1.59726438e-07  3.90043287e-08  1.40000000e-01 
 1.50000000e-01  3.35862149e-09  4.57633278e-01  3.28835647e-09  4.57633278e-01  4.57633278e-01  3.46720552e-09  3.37966729e-09  1.59726429e-07  3.90041173e-08  1.50000000e-01 
 1.60000000e-01  3.35862149e-09  4.57633277e-01  3.28835647e-09  4.57633277e-01  4.57633277e-01  3.46720546e-09  3.37966729e-09  1.59726412e-07  3.90039894e-08  1.60000000e-01 
 1.70000000e-01  3.35862149e-09  4.57633279e-01  3.28835642e-09  4.57633280e-01  4.57633280e-01  3.46720546e-09  3.37966729e-09  1.59726433e-07  3.90036838e-08  1.70000000e-01 
 1.80000000e-01  3.35862149e-09  4.57633293e-01  3.28835647e-09  4.57633293e-01  4.57633293e-01  3.46720552e-09  3.37966724e-09  1.59726457e-07  3.90035737e-08  1.80000000e-01 
 1.90000000e-01  3.35862149e-09  4.57633268e-01  3.28835647e-09  4.57633268e-01  4.57633268e-01  3.46720546e-09  3.37966724e-09  1.59726408e-07  3.90034991e-08  1.90000000e-01 
 2.00000000e-01  3.35862149e-09  4.57633278e-01  3.28835647e-09  4.57633278e-01  4.57633278e-01  3.46720546e-09  3.37966729e-09  1.59726425e-07  3.90033659e-08  2.00000000e-01 
 2.10000000e-01  3.35862149e-09  4.57633286e-01  3.28835642e-09  4.57633286e-01  4.57633286e-01  3.46720546e-09  3.37966724e-09  1.59726444e-07  3.90029733e-08  2.10000000e-01 
 2.20000000e-01  3.35862149e-09  4.57633285e-01  3.28835642e-09  4.57633285e-01  4.57633285e-01  3.46720546e-09  3.37966724e-09  1.59726426e-07  3.90029840e-08  2.20000000e-01 
 2.30000000e-01  3.35862149e-09  4.57633284e-01  3.28835642e-09  4.57633284e-01  4.57633284e-01  3.46720546e-09  3.37966724e-09  1.59726431e-07  3.90027690e-08  2.30000000e-01 
 2.40000000e-01  3.35862149e-09  4.57633264e-01  3.28835641e-09  4.57633264e-01  4.57633264e-01  3.46720546e-09  3.37966729e-09  1.59726410e-07  3.90026926e-08  2.40000000e-01 
 2.50000000e-01  3.35862149e-09  4.57633281e-01  3.28835647e-09  4.57633281e-01  4.57633281e-01  3.46720546e-09  3.37966729e-09  1.59726420e-07  3.90025860e-08  2.50000000e-01 
 2.60000000e-01  3.35862149e-09  4.57633257e-01  3.28835647e-09  4.57633257e-01  4.57633257e-01  3.46720546e-09  3.37966724e-09  1.59726391e-07  3.90022752e-08  2.60000000e-01 
 2.70000000e-01  3.35862149e-09  4.57633288e-01  3.28835642e-09  4.57633288e-01  4.57633288e-01  3.46720552e-09  3.37966729e-09  1.59726434e-07  3.90023658e-08  2.70000000e-01 
 2.80000000e-01  3.35862149e-09  4.57633271e-01  3.28835647e-09  4.57633271e-01  4.57633271e-01  3.46720546e-09  3.37966729e-09  1.59726408e-07  3.90021793e-08  2.80000000e-01 
 2.90000000e-01  3.35862143e-09  4.57633285e-01  3.28835642e-09  4.57633285e-01  4.57633285e-01  3.46720546e-09  3.37966724e-09  1.59726423e-07  3.90019999e-08  2.90000000e-01 
 3.00000000e-01  3.35862143e-09  4.57633280e-01  3.28835647e-09  4.57633280e-01  4.57633280e-01  3.46720546e-09  3.37966724e-09  1.59726433e-07  3.90018826e-08  3.00000000e-01 
 3.10000000e-01  3.35862149e-09  4.57633264e-01  3.28835641e-09  4.57633264e-01  4.57633264e-01  3.46720546e-09  3.37966729e-09  1.59726401e-07  3.90019608e-08  3.10000000e-01 
 3.20000000e-01  3.35862149e-09  4.57633280e-01  3.28835647e-09  4.57633280e-01  4.57633280e-01  3.46720546e-09  3.37966724e-09  1.59726417e-07  3.90018009e-08  3.20000000e-01 
 3.30000000e-01  3.35862149e-09  4.57633266e-01  3.28835647e-09  4.57633266e-01  4.57633266e-01  3.46720546e-09  3.37966724e-09  1.59726411e-07  3.90015700e-08  3.30000000e-01 
 3.40000000e-01  3.35862149e-09  4.57633289e-01  3.28835647e-09  4.57633289e-01  4.57633289e-01  3.46720552e-09  3.37966724e-09  1.59726453e-07  3.90016304e-08  3.40000000e-01 
 3.50000000e-01  3.35862149e-09  4.57633273e-01  3.28835642e-09  4.57633273e-01  4.57633273e-01  3.46720552e-09  3.37966729e-09  1.59726424e-07  3.90013817e-08  3.50000000e-01 
 3.60000000e-01  3.35862149e-09  4.57633296e-01  3.28835647e-09  4.57633296e-01  4.57633296e-01  3.46720552e-09  3.37966729e-09  1.59726452e-07  3.90015025e-08  3.60000000e-01 
 3.70000000e-01  3.35862143e-09  4.57633267e-01  3.28835641e-09  4.57633267e-01  4.57633267e-01  3.46720546e-09  3.37966729e-09  1.59726410e-07  3.90012644e-08  3.70000000e-01 
 3.80000000e-01  3.35862149e-09  4.57633305e-01  3.28835648e-09  4.57633305e-01  4.57633305e-01  3.46720552e-09  3.37966730e-09  1.59726459e-07  3.90012538e-08  3.80000000e-01 
 3.90000000e-01  3.35862143e-09  4.57633300e-01  3.28835648e-09  4.57633300e-01  4.57633300e-01  3.46720552e-09  3.37966729e-09  1.59726460e-07  3.90011792e-08  3.90000000e-01 
 4.00000000e-01  3.35862149e-09  4.57633280e-01  3.28835642e-09  4.57633280e-01  4.57633280e-01  3.46720546e-09  3.37966724e-09  1.59726433e-07  3.90011152e-08  4.00000000e-01 
 4.10000000e-01  3.35862149e-09  4.57633278e-01  3.28835647e-09  4.57633279e-01  4.57633279e-01  3.46720546e-09  3.37966724e-09  1.59726431e-07  3.90010406e-08  4.10000000e-01 
 4.20000000e-01  3.35862143e-09  4.57633268e-01  3.28835647e-09  4.57633268e-01  4.57633268e-01  3.46720552e-09  3.37966729e-09  1.59726411e-07  3.90009873e-08  4.20000000e-01 
 4.30000000e-01  3.35862149e-09  4.57633291e-01  3.28835642e-09  4.57633291e-01  4.57633291e-01  3.46720547e-09  3.37966729e-09  1.59726440e-07  3.90008239e-08  4.30000000e-01 
 4.40000000e-01  3.35862149e-09  4.57633269e-01  3.28835647e-09  4.57633269e-01  4.57633269e-01  3.46720546e-09  3.37966729e-09  1.59726409e-07  3.90007671e-08  4.40000000e-01 
 4.50000000e-01  3.35862149e-09  4.57633297e-01  3.28835647e-09  4.57633297e-01  4.57633297e-01  3.46720547e-09  3.37966729e-09  1.59726448e-07  3.90007528e-08  4.50000000e-01 
 4.60000000e-01  3.35862143e-09  4.57633271e-01  3.28835647e-09  4.57633271e-01  4.57633271e-01  3.46720546e-09  3.37966729e-09  1.59726401e-07  3.90006925e-08  4.60000000e-01 
 4.70000000e-01  3.35862149e-09  4.57633276e-01  3.28835647e-09  4.57633276e-01  4.57633276e-01  3.46720546e-09  3.37966729e-09  1.59726403e-07  3.90006001e-08  4.70000000e-01 
 4.80000000e-01  3.35862149e-09  4.57633263e-01  3.28835647e-09  4.57633263e-01  4.57633263e-01  3.46720546e-09  3.37966724e-09  1.59726400e-07  3.90005717e-08  4.80000000e-01 
 4.90000000e-01  3.35862149e-09  4.57633266e-01  3.28835647e-09  4.57633266e-01  4.57633266e-01  3.46720546e-09  3.37966729e-09  1.59726413e-07  3.90004260e-08  4.90000000e-01 
 5.00000000e-01  3.35862149e-09  4.57633258e-01  3.28835647e-09  4.57633258e-01  4.57633258e-01  3.46720552e-09  3.37966729e-09  1.59726403e-07  3.90004580e-08  5.00000000e-01 
 5.10000000e-01  3.35862143e-09  4.57633291e-01  3.28835642e-09  4.57633291e-01  4.57633291e-01  3.46720547e-09  3.37966724e-09  1.59726449e-07  3.90003834e-08  5.10000000e-01 
 5.20000000e-01  3.35862149e-09  4.57633262e-01  3.28835647e-09  4.57633262e-01  4.57633262e-01  3.46720546e-09  3.37966729e-09  1.59726402e-07  3.90002057e-08  5.20000000e-01 
 5.30000000e-01  3.35862149e-09  4.57633302e-01  3.28835642e-09  4.57633302e-01  4.57633302e-01  3.46720547e-09  3.37966730e-09  1.59726452e-07  3.90002839e-08  5.30000000e-01 
 5.40000000e-01  3.35862149e-09  4.57633284e-01  3.28835642e-09  4.57633285e-01  4.57633285e-01  3.46720552e-09  3.37966729e-09  1.59726446e-07  3.90002839e-08  5.40000000e-01 
 5.50000000e-01  3.35862149e-09  4.57633286e-01  3.28835647e-09  4.57633286e-01  4.57633286e-01  3.46720546e-09  3.37966724e-09  1.59726428e-07  3.90000956e-08  5.50000000e-01 
 5.60000000e-01  3.35862149e-09  4.57633283e-01  3.28835647e-09  4.57633283e-01  4.57633283e-01  3.46720546e-09  3.37966729e-09  1.59726423e-07  3.89999713e-08  5.60000000e-01 
 5.70000000e-01  3.35862149e-09  4.57633266e-01  3.28835641e-09  4.57633266e-01  4.57633266e-01  3.46720546e-09  3.37966729e-09  1.59726407e-07  3.89999535e-08  5.70000000e-01 
 5.80000000e-01  3.35862143e-09  4.57633259e-01  3.28835641e-09  4.57633259e-01  4.57633259e-01  3.46720546e-09  3.37966729e-09  1.59726401e-07  3.90000920e-08  5.80000000e-01 
 5.90000000e-01  3.35862143e-09  4.57633278e-01  3.28835647e-09  4.57633278e-01  4.57633278e-01  3.46720552e-09  3.37966729e-09  1.59726415e-07  3.89999784e-08  5.90000000e-01 
 6.00000000e-01  3.35862149e-09  4.57633268e-01  3.28835647e-09  4.57633269e-01  4.57633269e-01  3.46720546e-09  3.37966729e-09  1.59726402e-07  3.89998860e-08  6.00000000e-01 
 6.10000000e-01  3.35862149e-09  4.57633286e-01  3.28835647e-09  4.57633286e-01  4.57633286e-01  3.46720546e-09  3.37966724e-09  1.59726437e-07  3.89997510e-08  6.10000000e-01 
 6.20000000e-01  3.35862149e-09  4.57633281e-01  3.28835642e-09  4.57633281e-01  4.57633281e-01  3.46720546e-09  3.37966729e-09  1.59726440e-07  3.89997439e-08  6.20000000e-01 
 6.30000000e-01  3.35862148e-09  4.57633242e-01  3.28835647e-09  4.57633242e-01  4.57633242e-01  3.46720552e-09  3.37966724e-09  1.59726361e-07  3.89996941e-08  6.30000000e-01 
 6.40000000e-01  3.35862149e-09  4.57633290e-01  3.28835647e-09  4.57633290e-01  4.57633290e-01  3.46720552e-09  3.37966724e-09  1.59726435e-07  3.89996941e-08  6.40000000e-01 
 6.50000000e-01  3.35862149e-09  4.57633297e-01  3.28835647e-09  4.57633297e-01  4.57633297e-01  3.46720552e-09  3.37966724e-09  1.59726444e-07  3.89996302e-08  6.50000000e-01 
 6.60000000e-01  3.35862143e-09  4.57633284e-01  3.28835647e-09  4.57633284e-01  4.57633284e-01  3.46720546e-09  3.37966724e-09  1.59726436e-07  3.89995236e-08  6.60000000e-01 
 6.70000000e-01  3.35862149e-09  4.57633275e-01  3.28835647e-09  4.57633275e-01  4.57633275e-01  3.46720546e-09  3.37966729e-09  1.59726417e-07  3.89994170e-08  6.70000000e-01 
 6.80000000e-01  3.35862149e-09  4.57633280e-01  3.28835642e-09  4.57633280e-01  4.57633280e-01  3.46720546e-09  3.37966729e-09  1.59726421e-07  3.89993815e-08  6.80000000e-01 
 6.90000000e-01  3.35862143e-09  4.57633285e-01  3.28835647e-09  4.57633285e-01  4.57633285e-01  3.46720546e-09  3.37966729e-09  1.59726434e-07  3.89993815e-08  6.90000000e-01 
 7.00000000e-01  3.35862149e-09  4.57633283e-01  3.28835642e-09  4.57633283e-01  4.57633283e-01  3.46720546e-09  3.37966729e-09  1.59726445e-07  3.89993176e-08  7.00000000e-01 
 7.10000000e-01  3.35862149e-09  4.57633263e-01  3.28835647e-09  4.57633263e-01  4.57633263e-01  3.46720546e-09  3.37966729e-09  1.59726402e-07  3.89992181e-08  7.10000000e-01 
 7.20000000e-01  3.35862149e-09  4.57633277e-01  3.28835642e-09  4.57633277e-01  4.57633277e-01  3.46720546e-09  3.37966724e-09  1.59726422e-07  3.89992181e-08  7.20000000e-01 
 7.30000000e-01  3.35862149e-09  4.57633260e-01  3.28835641e-09  4.57633260e-01  4.57633260e-01  3.46720552e-09  3.37966729e-09  1.59726409e-07  3.89991541e-08  7.30000000e-01 
 7.40000000e-01  3.35862149e-09  4.57633305e-01  3.28835648e-09  4.57633305e-01  4.57633305e-01  3.46720547e-09  3.37966724e-09  1.59726465e-07  3.89991683e-08  7.40000000e-01 
 7.50000000e-01  3.35862149e-09  4.57633274e-01  3.28835647e-09  4.57633274e-01  4.57633274e-01  3.46720546e-09  3.37966724e-09  1.59726422e-07  3.89990547e-08  7.50000000e-01 
 7.60000000e-01  3.35862149e-09  4.57633288e-01  3.28835647e-09  4.57633288e-01  4.57633288e-01  3.46720547e-09  3.37966729e-09  1.59726446e-07  3.89989623e-08  7.60000000e-01 
 7.70000000e-01  3.35862149e-09  4.57633280e-01  3.28835642e-09  4.57633280e-01  4.57633280e-01  3.46720546e-09  3.37966724e-09  1.59726424e-07  3.89988273e-08  7.70000000e-01 
 7.80000000e-01  3.35862149e-09  4.57633272e-01  3.28835647e-09  4.57633272e-01  4.57633272e-01  3.46720552e-09  3.37966724e-09  1.59726406e-07  3.89988344e-08  7.80000000e-01 
 7.90000000e-01  3.35862149e-09  4.57633275e-01  3.28835647e-09  4.57633275e-01  4.57633275e-01  3.46720552e-09  3.37966724e-09  1.59726420e-07  3.89988557e-08  7.90000000e-01 
 8.00000000e-01  3.35862149e-09  4.57633276e-01  3.28835647e-09  4.57633276e-01  4.57633276e-01  3.46720546e-09  3.37966724e-09  1.59726417e-07  3.89986567e-08  8.00000000e-01 
 8.10000000e-01  3.35862149e-09  4.57633273e-01  3.28835647e-09  4.57633273e-01  4.57633273e-01  3.46720546e-09  3.37966724e-09  1.59726417e-07  3.89987491e-08  8.10000000e-01 
 8.20000000e-01  3.35862143e-09  4.57633272e-01  3.28835641e-09  4.57633272e-01  4.57633272e-01  3.46720546e-09  3.37966724e-09  1.59726420e-07  3.89986710e-08  8.20000000e-01 
 8.30000000e-01  3.35862149e-09  4.57633291e-01  3.28835642e-09  4.57633291e-01  4.57633291e-01  3.46720547e-09  3.37966724e-09  1.59726446e-07  3.89986283e-08  8.30000000e-01 
 8.40000000e-01  3.35862149e-09  4.57633285e-01  3.28835647e-09  4.57633285e-01  4.57633285e-01  3.46720546e-09  3.37966729e-09  1.59726430e-07  3.89984720e-08  8.40000000e-01 
 8.50000000e-01  3.35862149e-09  4.57633278e-01  3.28835642e-09  4.57633278e-01  4.57633278e-01  3.46720546e-09  3.37966724e-09  1.59726420e-07  3.89984152e-08  8.50000000e-01 
 8.60000000e-01  3.35862149e-09  4.57633283e-01  3.28835642e-09  4.57633284e-01  4.57633284e-01  3.46720552e-09  3.37966729e-09  1.59726431e-07  3.89983157e-08  8.60000000e-01 
 8.70000000e-01  3.35862149e-09  4.57633268e-01  3.28835647e-09  4.57633268e-01  4.57633268e-01  3.46720552e-09  3.37966729e-09  1.59726414e-07  3.89982375e-08  8.70000000e-01 
 8.80000000e-01  3.35862149e-09  4.57633277e-01  3.28835642e-09  4.57633277e-01  4.57633277e-01  3.46720546e-09  3.37966724e-09  1.59726421e-07  3.89983157e-08  8.80000000e-01 
 8.90000000e-01  3.35862149e-09  4.57633263e-01  3.28835647e-09  4.57633263e-01  4.57633263e-01  3.46720546e-09  3.37966724e-09  1.59726408e-07  3.89982446e-08  8.90000000e-01 
 9.00000000e-01  3.35862149e-09  4.57633279e-01  3.28835642e-09  4.57633279e-01  4.57633279e-01  3.46720546e-09  3.37966729e-09  1.59726427e-07  3.89981523e-08  9.00000000e-01 
 9.10000000e-01  3.35862149e-09  4.57633263e-01  3.28835647e-09  4.57633263e-01  4.57633263e-01  3.46720546e-09  3.37966729e-09  1.59726386e-07  3.89981025e-08  9.10000000e-01 
 9.20000000e-01  3.35862149e-09  4.57633286e-01  3.28835647e-09  4.57633286e-01  4.57633286e-01  3.46720546e-09  3.37966729e-09  1.59726432e-07  3.89981523e-08  9.20000000e-01 
 9.30000000e-01  3.35862149e-09  4.57633293e-01  3.28835642e-09  4.57633293e-01  4.57633293e-01  3.46720547e-09  3.37966729e-09  1.59726449e-07  3.89979888e-08  9.30000000e-01 
 9.40000000e-01  3.35862149e-09  4.57633279e-01  3.28835647e-09  4.57633279e-01  4.57633279e-01  3.46720546e-09  3.37966729e-09  1.59726420e-07  3.89980030e-08  9.40000000e-01 
 9.50000000e-01  3.35862143e-09  4.57633282e-01  3.28835647e-09  4.57633283e-01  4.57633283e-01  3.46720546e-09  3.37966724e-09  1.59726427e-07  3.89979959e-08  9.50000000e-01 
 9.60000000e-01  3.35862149e-09  4.57633252e-01  3.28835647e-09  4.57633252e-01  4.57633252e-01  3.46720546e-09  3.37966724e-09  1.59726393e-07  3.89978609e-08  9.60000000e-01 
 9.70000000e-01  3.35862149e-09  4.57633284e-01  3.28835642e-09  4.57633284e-01  4.57633284e-01  3.46720546e-09  3.37966729e-09  1.59726422e-07  3.89978467e-08  9.70000000e-01 
 9.80000000e-01  3.35862143e-09  4.57633286e-01  3.28835647e-09  4.57633286e-01  4.57633286e-01  3.46720546e-09  3.37966724e-09  1.59726456e-07  3.89977046e-08  9.80000000e-01 
 9.90000000e-01  3.35862143e-09  4.57633273e-01  3.28835647e-09  4.57633273e-01  4.57633273e-01  3.46720552e-09  3.37966729e-09  1.59726415e-07  3.89975554e-08  9.90000000e-01 
 1.00000000e+00  3.35862149e-09  4.57633280e-01  3.28835642e-09  4.57633280e-01  4.57633280e-01  3.46720546e-09  3.37966729e-09  1.59726431e-07  3.89975412e-08  1.00000000e+00 
 1.01000000e+00  3.35862149e-09  4.57633282e-01  3.28835647e-09  4.57633282e-01  4.57633282e-01  3.46720546e-09  3.37966729e-09  1.59726439e-07  3.89975199e-08  1.01000000e+00 
 1.02000000e+00  3.35862149e-09  4.57633271e-01  3.28835641e-09  4.57633271e-01  4.57633271e-01  3.46720546e-09  3.37966729e-09  1.59726420e-07  3.89974275e-08  1.02000000e+00 
 1.03000000e+00  3.35862149e-09  4.57633276e-01  3.28835642e-09  4.57633276e-01  4.57633276e-01  3.46720546e-09  3.37966729e-09  1.59726425e-07  3.89973493e-08  1.03000000e+00 
 1.04000000e+00  3.35862149e-09  4.57633262e-01  3.28835641e-09  4.57633262e-01  4.57633262e-01  3.46720552e-09  3.37966724e-09  1.59726395e-07  3.89972570e-08  1.04000000e+00 
 1.05000000e+00  3.35862143e-09  4.57633291e-01  3.28835642e-09  4.57633291e-01  4.57633291e-01  3.46720547e-09  3.37966729e-09  1.59726434e-07  3.89973209e-08  1.05000000e+00 
 1.06000000e+00  3.35862149e-09  4.57633265e-01  3.28835641e-09  4.57633265e-01  4.57633265e-01  3.46720546e-09  3.37966729e-09  1.59726413e-07  3.89972783e-08  1.06000000e+00 
 1.07000000e+00  3.35862149e-09  4.57633301e-01  3.28835648e-09  4.57633301e-01  4.57633301e-01  3.46720547e-09  3.37966730e-09  1.59726461e-07  3.89972357e-08  1.07000000e+00 
 1.08000000e+00  3.35862149e-09  4.57633283e-01  3.28835642e-09  4.57633283e-01  4.57633283e-01  3.46720546e-09  3.37966729e-09  1.59726433e-07  3.89971149e-08  1.08000000e+00 
 1.09000000e+00  3.35862149e-09  4.57633271e-01  3.28835641e-09  4.57633271e-01  4.57633271e-01  3.46720552e-09  3.37966724e-09  1.59726413e-07  3.89971078e-08  1.09000000e+00 
 1.10000000e+00  3.35862149e-09  4.57633274e-01  3.28835642e-09  4.57633274e-01  4.57633274e-01  3.46720546e-09  3.37966729e-09  1.59726426e-07  3.89969657e-08  1.10000000e+00 
