 v-sweep         v(b0)           v(b1)           v(b2)           v(b3)           v(b4)           v(b5)           v(b6)           i(vbias)        i(viout)        v(vout)        
 0.00000000e+00  4.57529448e-01  4.57529448e-01  3.40346861e-09  4.57529448e-01  3.39534676e-09  3.40805397e-09  3.17479892e-09  1.60957545e-07  1.62367627e-08  0.00000000e+00 
 1.00000000e-02  4.57529452e-01  4.57529452e-01  3.40346858e-09  4.57529452e-01  3.39534674e-09  3.40805389e-09  3.17479896e-09  1.60957556e-07  1.62363498e-08  1.00000000e-02 
 2.00000000e-02  4.57529443e-01  4.57529443e-01  3.40346858e-09  4.57529443e-01  3.39534674e-09  3.40805394e-09  3.17479890e-09  1.60957540e-07  1.62359235e-08  2.00000000e-02 
 3.00000000e-02  4.57529437e-01  4.57529437e-01  3.40346858e-09  4.57529437e-01  3.39534674e-09  3.40805394e-09  3.17479895e-09  1.60957529e-07  1.62355278e-08  3.00000000e-02 
 4.00000000e-02  4.57529462e-01  4.57529462e-01  3.40346858e-09  4.57529462e-01  3.39534674e-09  3.40805395e-09  3.17479890e-09  1.60957563e-07  1.62350742e-08  4.00000000e-02 
 5.00000000e-02  4.57529454e-01  4.57529454e-01  3.40346858e-09  4.57529454e-01  3.39534674e-09  3.40805395e-09  3.17479890e-09  1.60957557e-07  1.62348917e-08  5.00000000e-02 
 6.00000000e-02  4.57529469e-01  4.57529469e-01  3.40346858e-09  4.57529469e-01  3.39534680e-09  3.40805389e-09  3.17479896e-09  1.60957586e-07  1.62345448e-08  6.00000000e-02 
 7.00000000e-02  4.57529452e-01  4.57529452e-01  3.40346858e-09  4.57529452e-01  3.39534674e-09  3.40805395e-09  3.17479890e-09  1.60957564e-07  1.62342770e-08  7.00000000e-02 
 8.00000000e-02  4.57529458e-01  4.57529458e-01  3.40346858e-09  4.57529458e-01  3.39534674e-09  3.40805395e-09  3.17479896e-09  1.60957557e-07  1.62340337e-08  8.00000000e-02 
 9.00000000e-02  4.57529442e-01  4.57529442e-01  3.40346858e-09  4.57529442e-01  3.39534674e-09  3.40805394e-09  3.17479895e-09  1.60957545e-07  1.62336669e-08  9.00000000e-02 
 1.00000000e-01  4.57529450e-01  4.57529450e-01  3.40346858e-09  4.57529450e-01  3.39534674e-09  3.40805395e-09  3.17479890e-09  1.60957547e-07  1.62334439e-08  1.00000000e-01 
 1.10000000e-01  4.57529463e-01  4.57529463e-01  3.40346858e-09  4.57529463e-01  3.39534674e-09  3.40805395e-09  3.17479896e-09  1.60957565e-07  1.62332450e-08  1.10000000e-01 
 1.20000000e-01  4.57529465e-01  4.57529465e-01  3.40346858e-09  4.57529465e-01  3.39534674e-09  3.40805395e-09  3.17479896e-09  1.60957579e-07  1.62330149e-08  1.20000000e-01 
 1.30000000e-01  4.57529454e-01  4.57529454e-01  3.40346858e-09  4.57529454e-01  3.39534674e-09  3.40805389e-09  3.17479890e-09  1.60957555e-07  1.62327334e-08  1.30000000e-01 
 1.40000000e-01  4.57529458e-01  4.57529458e-01  3.40346858e-09  4.57529457e-01  3.39534674e-09  3.40805395e-09  3.17479890e-09  1.60957558e-07  1.62326099e-08  1.40000000e-01 
 1.50000000e-01  4.57529436e-01  4.57529436e-01  3.40346858e-09  4.57529436e-01  3.39534674e-09  3.40805394e-09  3.17479890e-09  1.60957525e-07  1.62323950e-08  1.50000000e-01 
 1.60000000e-01  4.57529445e-01  4.57529445e-01  3.40346858e-09  4.57529445e-01  3.39534674e-09  3.40805394e-09  3.17479890e-09  1.60957544e-07  1.62322333e-08  1.60000000e-01 
 1.70000000e-01  4.57529459e-01  4.57529459e-01  3.40346858e-09  4.57529459e-01  3.39534674e-09  3.40805395e-09  3.17479890e-09  1.60957564e-07  1.62319349e-08  1.70000000e-01 
 1.80000000e-01  4.57529465e-01  4.57529465e-01  3.40346858e-09  4.57529464e-01  3.39534674e-09  3.40805395e-09  3.17479890e-09  1.60957572e-07  1.62318479e-08  1.80000000e-01 
 1.90000000e-01  4.57529464e-01  4.57529464e-01  3.40346858e-09  4.57529464e-01  3.39534674e-09  3.40805395e-09  3.17479896e-09  1.60957572e-07  1.62318408e-08  1.90000000e-01 
 2.00000000e-01  4.57529458e-01  4.57529458e-01  3.40346858e-09  4.57529458e-01  3.39534680e-09  3.40805395e-09  3.17479896e-09  1.60957569e-07  1.62315086e-08  2.00000000e-01 
 2.10000000e-01  4.57529470e-01  4.57529470e-01  3.40346858e-09  4.57529470e-01  3.39534674e-09  3.40805395e-09  3.17479896e-09  1.60957576e-07  1.62313114e-08  2.10000000e-01 
 2.20000000e-01  4.57529433e-01  4.57529433e-01  3.40346858e-09  4.57529433e-01  3.39534674e-09  3.40805394e-09  3.17479890e-09  1.60957521e-07  1.62312634e-08  2.20000000e-01 
 2.30000000e-01  4.57529460e-01  4.57529460e-01  3.40346858e-09  4.57529460e-01  3.39534674e-09  3.40805395e-09  3.17479896e-09  1.60957554e-07  1.62311480e-08  2.30000000e-01 
 2.40000000e-01  4.57529450e-01  4.57529450e-01  3.40346858e-09  4.57529450e-01  3.39534674e-09  3.40805389e-09  3.17479890e-09  1.60957557e-07  1.62308673e-08  2.40000000e-01 
 2.50000000e-01  4.57529448e-01  4.57529448e-01  3.40346858e-09  4.57529448e-01  3.39534680e-09  3.40805394e-09  3.17479890e-09  1.60957547e-07  1.62307394e-08  2.50000000e-01 
 2.60000000e-01  4.57529424e-01  4.57529424e-01  3.40346858e-09  4.57529424e-01  3.39534674e-09  3.40805394e-09  3.17479890e-09  1.60957507e-07  1.62306950e-08  2.60000000e-01 
 2.70000000e-01  4.57529449e-01  4.57529449e-01  3.40346858e-09  4.57529449e-01  3.39534674e-09  3.40805395e-09  3.17479896e-09  1.60957555e-07  1.62305351e-08  2.70000000e-01 
 2.80000000e-01  4.57529459e-01  4.57529459e-01  3.40346858e-09  4.57529459e-01  3.39534674e-09  3.40805395e-09  3.17479896e-09  1.60957563e-07  1.62304890e-08  2.80000000e-01 
 2.90000000e-01  4.57529445e-01  4.57529445e-01  3.40346858e-09  4.57529445e-01  3.39534674e-09  3.40805389e-09  3.17479890e-09  1.60957532e-07  1.62303522e-08  2.90000000e-01 
 3.00000000e-01  4.57529439e-01  4.57529439e-01  3.40346858e-09  4.57529439e-01  3.39534674e-09  3.40805394e-09  3.17479890e-09  1.60957539e-07  1.62303593e-08  3.00000000e-01 
 3.10000000e-01  4.57529459e-01  4.57529459e-01  3.40346858e-09  4.57529458e-01  3.39534674e-09  3.40805395e-09  3.17479896e-09  1.60957556e-07  1.62302243e-08  3.10000000e-01 
 3.20000000e-01  4.57529450e-01  4.57529450e-01  3.40346858e-09  4.57529450e-01  3.39534680e-09  3.40805395e-09  3.17479890e-09  1.60957542e-07  1.62301603e-08  3.20000000e-01 
 3.30000000e-01  4.57529451e-01  4.57529451e-01  3.40346858e-09  4.57529451e-01  3.39534674e-09  3.40805389e-09  3.17479890e-09  1.60957535e-07  1.62299862e-08  3.30000000e-01 
 3.40000000e-01  4.57529446e-01  4.57529446e-01  3.40346858e-09  4.57529446e-01  3.39534674e-09  3.40805394e-09  3.17479890e-09  1.60957532e-07  1.62299152e-08  3.40000000e-01 
 3.50000000e-01  4.57529465e-01  4.57529465e-01  3.40346858e-09  4.57529465e-01  3.39534674e-09  3.40805395e-09  3.17479890e-09  1.60957560e-07  1.62298157e-08  3.50000000e-01 
 3.60000000e-01  4.57529454e-01  4.57529454e-01  3.40346858e-09  4.57529454e-01  3.39534674e-09  3.40805395e-09  3.17479896e-09  1.60957548e-07  1.62298228e-08  3.60000000e-01 
 3.70000000e-01  4.57529426e-01  4.57529426e-01  3.40346858e-09  4.57529426e-01  3.39534674e-09  3.40805394e-09  3.17479890e-09  1.60957506e-07  1.62296701e-08  3.70000000e-01 
 3.80000000e-01  4.57529460e-01  4.57529460e-01  3.40346858e-09  4.57529460e-01  3.39534674e-09  3.40805395e-09  3.17479890e-09  1.60957553e-07  1.62296381e-08  3.80000000e-01 
 3.90000000e-01  4.57529456e-01  4.57529456e-01  3.40346858e-09  4.57529456e-01  3.39534674e-09  3.40805395e-09  3.17479896e-09  1.60957565e-07  1.62295137e-08  3.90000000e-01 
 4.00000000e-01  4.57529462e-01  4.57529462e-01  3.40346858e-09  4.57529462e-01  3.39534674e-09  3.40805395e-09  3.17479890e-09  1.60957554e-07  1.62293894e-08  4.00000000e-01 
 4.10000000e-01  4.57529463e-01  4.57529463e-01  3.40346858e-09  4.57529463e-01  3.39534674e-09  3.40805395e-09  3.17479896e-09  1.60957566e-07  1.62295102e-08  4.10000000e-01 
 4.20000000e-01  4.57529453e-01  4.57529453e-01  3.40346858e-09  4.57529453e-01  3.39534674e-09  3.40805395e-09  3.17479890e-09  1.60957551e-07  1.62292935e-08  4.20000000e-01 
 4.30000000e-01  4.57529451e-01  4.57529451e-01  3.40346858e-09  4.57529451e-01  3.39534674e-09  3.40805389e-09  3.17479896e-09  1.60957550e-07  1.62291514e-08  4.30000000e-01 
 4.40000000e-01  4.57529456e-01  4.57529456e-01  3.40346858e-09  4.57529456e-01  3.39534674e-09  3.40805395e-09  3.17479896e-09  1.60957552e-07  1.62292899e-08  4.40000000e-01 
 4.50000000e-01  4.57529463e-01  4.57529463e-01  3.40346858e-09  4.57529463e-01  3.39534680e-09  3.40805395e-09  3.17479896e-09  1.60957566e-07  1.62292224e-08  4.50000000e-01 
 4.60000000e-01  4.57529460e-01  4.57529460e-01  3.40346858e-09  4.57529460e-01  3.39534674e-09  3.40805395e-09  3.17479890e-09  1.60957562e-07  1.62289950e-08  4.60000000e-01 
 4.70000000e-01  4.57529428e-01  4.57529428e-01  3.40346858e-09  4.57529428e-01  3.39534680e-09  3.40805394e-09  3.17479895e-09  1.60957507e-07  1.62290128e-08  4.70000000e-01 
 4.80000000e-01  4.57529425e-01  4.57529425e-01  3.40346858e-09  4.57529425e-01  3.39534674e-09  3.40805394e-09  3.17479890e-09  1.60957518e-07  1.62288778e-08  4.80000000e-01 
 4.90000000e-01  4.57529429e-01  4.57529429e-01  3.40346858e-09  4.57529429e-01  3.39534674e-09  3.40805394e-09  3.17479890e-09  1.60957500e-07  1.62288210e-08  4.90000000e-01 
 5.00000000e-01  4.57529431e-01  4.57529431e-01  3.40346858e-09  4.57529431e-01  3.39534680e-09  3.40805394e-09  3.17479890e-09  1.60957521e-07  1.62288423e-08  5.00000000e-01 
 5.10000000e-01  4.57529464e-01  4.57529464e-01  3.40346858e-09  4.57529464e-01  3.39534674e-09  3.40805395e-09  3.17479890e-09  1.60957555e-07  1.62288387e-08  5.10000000e-01 
 5.20000000e-01  4.57529459e-01  4.57529459e-01  3.40346858e-09  4.57529459e-01  3.39534674e-09  3.40805395e-09  3.17479896e-09  1.60957567e-07  1.62287712e-08  5.20000000e-01 
 5.30000000e-01  4.57529448e-01  4.57529448e-01  3.40346858e-09  4.57529448e-01  3.39534674e-09  3.40805394e-09  3.17479890e-09  1.60957546e-07  1.62286646e-08  5.30000000e-01 
 5.40000000e-01  4.57529452e-01  4.57529452e-01  3.40346858e-09  4.57529452e-01  3.39534674e-09  3.40805395e-09  3.17479896e-09  1.60957535e-07  1.62287073e-08  5.40000000e-01 
 5.50000000e-01  4.57529442e-01  4.57529442e-01  3.40346858e-09  4.57529442e-01  3.39534674e-09  3.40805394e-09  3.17479890e-09  1.60957536e-07  1.62284124e-08  5.50000000e-01 
 5.60000000e-01  4.57529449e-01  4.57529449e-01  3.40346858e-09  4.57529449e-01  3.39534674e-09  3.40805395e-09  3.17479896e-09  1.60957543e-07  1.62285474e-08  5.60000000e-01 
 5.70000000e-01  4.57529448e-01  4.57529448e-01  3.40346858e-09  4.57529448e-01  3.39534674e-09  3.40805389e-09  3.17479890e-09  1.60957545e-07  1.62284941e-08  5.70000000e-01 
 5.80000000e-01  4.57529458e-01  4.57529458e-01  3.40346858e-09  4.57529458e-01  3.39534674e-09  3.40805395e-09  3.17479896e-09  1.60957569e-07  1.62283698e-08  5.80000000e-01 
 5.90000000e-01  4.57529451e-01  4.57529451e-01  3.40346858e-09  4.57529451e-01  3.39534674e-09  3.40805395e-09  3.17479890e-09  1.60957540e-07  1.62284692e-08  5.90000000e-01 
 6.00000000e-01  4.57529454e-01  4.57529454e-01  3.40346858e-09  4.57529454e-01  3.39534674e-09  3.40805395e-09  3.17479890e-09  1.60957566e-07  1.62282348e-08  6.00000000e-01 
 6.10000000e-01  4.57529461e-01  4.57529461e-01  3.40346858e-09  4.57529461e-01  3.39534674e-09  3.40805395e-09  3.17479890e-09  1.60957570e-07  1.62283840e-08  6.10000000e-01 
 6.20000000e-01  4.57529437e-01  4.57529437e-01  3.40346858e-09  4.57529437e-01  3.39534674e-09  3.40805394e-09  3.17479890e-09  1.60957537e-07  1.62280998e-08  6.20000000e-01 
 6.30000000e-01  4.57529446e-01  4.57529446e-01  3.40346858e-09  4.57529446e-01  3.39534674e-09  3.40805394e-09  3.17479896e-09  1.60957545e-07  1.62281992e-08  6.30000000e-01 
 6.40000000e-01  4.57529475e-01  4.57529475e-01  3.40346858e-09  4.57529475e-01  3.39534674e-09  3.40805395e-09  3.17479896e-09  1.60957570e-07  1.62281211e-08  6.40000000e-01 
 6.50000000e-01  4.57529445e-01  4.57529445e-01  3.40346858e-09  4.57529445e-01  3.39534674e-09  3.40805394e-09  3.17479896e-09  1.60957535e-07  1.62281069e-08  6.50000000e-01 
 6.60000000e-01  4.57529467e-01  4.57529467e-01  3.40346858e-09  4.57529467e-01  3.39534674e-09  3.40805395e-09  3.17479896e-09  1.60957559e-07  1.62280926e-08  6.60000000e-01 
 6.70000000e-01  4.57529451e-01  4.57529451e-01  3.40346858e-09  4.57529451e-01  3.39534674e-09  3.40805395e-09  3.17479896e-09  1.60957551e-07  1.62280287e-08  6.70000000e-01 
 6.80000000e-01  4.57529452e-01  4.57529452e-01  3.40346858e-09  4.57529452e-01  3.39534674e-09  3.40805395e-09  3.17479896e-09  1.60957545e-07  1.62279861e-08  6.80000000e-01 
 6.90000000e-01  4.57529463e-01  4.57529463e-01  3.40346858e-09  4.57529462e-01  3.39534674e-09  3.40805395e-09  3.17479890e-09  1.60957573e-07  1.62278866e-08  6.90000000e-01 
 7.00000000e-01  4.57529467e-01  4.57529467e-01  3.40346858e-09  4.57529467e-01  3.39534674e-09  3.40805395e-09  3.17479890e-09  1.60957575e-07  1.62278084e-08  7.00000000e-01 
 7.10000000e-01  4.57529437e-01  4.57529437e-01  3.40346858e-09  4.57529437e-01  3.39534674e-09  3.40805394e-09  3.17479895e-09  1.60957527e-07  1.62277232e-08  7.10000000e-01 
 7.20000000e-01  4.57529455e-01  4.57529455e-01  3.40346858e-09  4.57529455e-01  3.39534680e-09  3.40805395e-09  3.17479896e-09  1.60957556e-07  1.62278084e-08  7.20000000e-01 
 7.30000000e-01  4.57529459e-01  4.57529459e-01  3.40346858e-09  4.57529459e-01  3.39534680e-09  3.40805389e-09  3.17479896e-09  1.60957573e-07  1.62277374e-08  7.30000000e-01 
 7.40000000e-01  4.57529454e-01  4.57529454e-01  3.40346858e-09  4.57529454e-01  3.39534674e-09  3.40805395e-09  3.17479890e-09  1.60957553e-07  1.62276166e-08  7.40000000e-01 
 7.50000000e-01  4.57529441e-01  4.57529441e-01  3.40346858e-09  4.57529441e-01  3.39534680e-09  3.40805389e-09  3.17479895e-09  1.60957529e-07  1.62275100e-08  7.50000000e-01 
 7.60000000e-01  4.57529469e-01  4.57529469e-01  3.40346858e-09  4.57529469e-01  3.39534674e-09  3.40805395e-09  3.17479890e-09  1.60957577e-07  1.62275313e-08  7.60000000e-01 
 7.70000000e-01  4.57529469e-01  4.57529469e-01  3.40346858e-09  4.57529469e-01  3.39534674e-09  3.40805395e-09  3.17479896e-09  1.60957564e-07  1.62273963e-08  7.70000000e-01 
 7.80000000e-01  4.57529452e-01  4.57529452e-01  3.40346858e-09  4.57529452e-01  3.39534674e-09  3.40805395e-09  3.17479890e-09  1.60957550e-07  1.62273963e-08  7.80000000e-01 
 7.90000000e-01  4.57529451e-01  4.57529451e-01  3.40346858e-09  4.57529451e-01  3.39534674e-09  3.40805395e-09  3.17479890e-09  1.60957553e-07  1.62273395e-08  7.90000000e-01 
 8.00000000e-01  4.57529448e-01  4.57529448e-01  3.40346858e-09  4.57529448e-01  3.39534674e-09  3.40805395e-09  3.17479896e-09  1.60957543e-07  1.62272471e-08  8.00000000e-01 
 8.10000000e-01  4.57529447e-01  4.57529447e-01  3.40346858e-09  4.57529447e-01  3.39534674e-09  3.40805394e-09  3.17479896e-09  1.60957549e-07  1.62271832e-08  8.10000000e-01 
 8.20000000e-01  4.57529467e-01  4.57529467e-01  3.40346858e-09  4.57529467e-01  3.39534674e-09  3.40805395e-09  3.17479890e-09  1.60957565e-07  1.62271334e-08  8.20000000e-01 
 8.30000000e-01  4.57529437e-01  4.57529437e-01  3.40346858e-09  4.57529437e-01  3.39534674e-09  3.40805394e-09  3.17479895e-09  1.60957532e-07  1.62270410e-08  8.30000000e-01 
 8.40000000e-01  4.57529465e-01  4.57529465e-01  3.40346858e-09  4.57529465e-01  3.39534674e-09  3.40805395e-09  3.17479890e-09  1.60957572e-07  1.62271050e-08  8.40000000e-01 
 8.50000000e-01  4.57529437e-01  4.57529437e-01  3.40346858e-09  4.57529437e-01  3.39534674e-09  3.40805394e-09  3.17479895e-09  1.60957522e-07  1.62270339e-08  8.50000000e-01 
 8.60000000e-01  4.57529474e-01  4.57529474e-01  3.40346858e-09  4.57529474e-01  3.39534674e-09  3.40805395e-09  3.17479890e-09  1.60957569e-07  1.62269984e-08  8.60000000e-01 
 8.70000000e-01  4.57529442e-01  4.57529442e-01  3.40346858e-09  4.57529442e-01  3.39534674e-09  3.40805389e-09  3.17479895e-09  1.60957530e-07  1.62268705e-08  8.70000000e-01 
 8.80000000e-01  4.57529473e-01  4.57529473e-01  3.40346858e-09  4.57529473e-01  3.39534674e-09  3.40805395e-09  3.17479890e-09  1.60957569e-07  1.62268066e-08  8.80000000e-01 
 8.90000000e-01  4.57529447e-01  4.57529447e-01  3.40346858e-09  4.57529446e-01  3.39534674e-09  3.40805394e-09  3.17479890e-09  1.60957530e-07  1.62267710e-08  8.90000000e-01 
 9.00000000e-01  4.57529443e-01  4.57529443e-01  3.40346858e-09  4.57529443e-01  3.39534674e-09  3.40805394e-09  3.17479895e-09  1.60957535e-07  1.62267568e-08  9.00000000e-01 
 9.10000000e-01  4.57529465e-01  4.57529465e-01  3.40346858e-09  4.57529464e-01  3.39534674e-09  3.40805389e-09  3.17479890e-09  1.60957576e-07  1.62267995e-08  9.10000000e-01 
 9.20000000e-01  4.57529441e-01  4.57529441e-01  3.40346858e-09  4.57529441e-01  3.39534674e-09  3.40805394e-09  3.17479895e-09  1.60957540e-07  1.62267071e-08  9.20000000e-01 
 9.30000000e-01  4.57529448e-01  4.57529448e-01  3.40346858e-09  4.57529448e-01  3.39534674e-09  3.40805394e-09  3.17479890e-09  1.60957561e-07  1.62265223e-08  9.30000000e-01 
 9.40000000e-01  4.57529458e-01  4.57529458e-01  3.40346858e-09  4.57529458e-01  3.39534674e-09  3.40805395e-09  3.17479890e-09  1.60957558e-07  1.62265863e-08  9.40000000e-01 
 9.50000000e-01  4.57529433e-01  4.57529434e-01  3.40346858e-09  4.57529433e-01  3.39534674e-09  3.40805394e-09  3.17479890e-09  1.60957514e-07  1.62264797e-08  9.50000000e-01 
 9.60000000e-01  4.57529461e-01  4.57529461e-01  3.40346858e-09  4.57529461e-01  3.39534674e-09  3.40805395e-09  3.17479896e-09  1.60957563e-07  1.62263021e-08  9.60000000e-01 
 9.70000000e-01  4.57529452e-01  4.57529452e-01  3.40346858e-09  4.57529452e-01  3.39534674e-09  3.40805389e-09  3.17479890e-09  1.60957556e-07  1.62263376e-08  9.70000000e-01 
 9.80000000e-01  4.57529480e-01  4.57529480e-01  3.40346858e-09  4.57529480e-01  3.39534680e-09  3.40805395e-09  3.17479890e-09  1.60957583e-07  1.62262808e-08  9.80000000e-01 
 9.90000000e-01  4.57529447e-01  4.57529447e-01  3.40346858e-09  4.57529447e-01  3.39534674e-09  3.40805394e-09  3.17479896e-09  1.60957540e-07  1.62261315e-08  9.90000000e-01 
 1.00000000e+00  4.57529475e-01  4.57529475e-01  3.40346858e-09  4.57529475e-01  3.39534674e-09  3.40805395e-09  3.17479896e-09  1.60957591e-07  1.62261529e-08  1.00000000e+00 
 1.01000000e+00  4.57529461e-01  4.57529461e-01  3.40346858e-09  4.57529461e-01  3.39534674e-09  3.40805395e-09  3.17479896e-09  1.60957566e-07  1.62261315e-08  1.01000000e+00 
 1.02000000e+00  4.57529416e-01  4.57529416e-01  3.40346858e-09  4.57529416e-01  3.39534674e-09  3.40805394e-09  3.17479890e-09  1.60957488e-07  1.62260108e-08  1.02000000e+00 
 1.03000000e+00  4.57529481e-01  4.57529481e-01  3.40346858e-09  4.57529481e-01  3.39534675e-09  3.40805389e-09  3.17479890e-09  1.60957599e-07  1.62261031e-08  1.03000000e+00 
 1.04000000e+00  4.57529453e-01  4.57529453e-01  3.40346858e-09  4.57529453e-01  3.39534674e-09  3.40805395e-09  3.17479890e-09  1.60957535e-07  1.62259468e-08  1.04000000e+00 
 1.05000000e+00  4.57529458e-01  4.57529458e-01  3.40346858e-09  4.57529458e-01  3.39534674e-09  3.40805395e-09  3.17479890e-09  1.60957555e-07  1.62260179e-08  1.05000000e+00 
 1.06000000e+00  4.57529457e-01  4.57529457e-01  3.40346858e-09  4.57529457e-01  3.39534674e-09  3.40805389e-09  3.17479890e-09  1.60957558e-07  1.62259468e-08  1.06000000e+00 
 1.07000000e+00  4.57529417e-01  4.57529417e-01  3.40346858e-09  4.57529417e-01  3.39534674e-09  3.40805394e-09  3.17479890e-09  1.60957490e-07  1.62257408e-08  1.07000000e+00 
 1.08000000e+00  4.57529446e-01  4.57529446e-01  3.40346858e-09  4.57529446e-01  3.39534674e-09  3.40805394e-09  3.17479890e-09  1.60957550e-07  1.62257621e-08  1.08000000e+00 
 1.09000000e+00  4.57529440e-01  4.57529440e-01  3.40346858e-09  4.57529440e-01  3.39534674e-09  3.40805394e-09  3.17479890e-09  1.60957542e-07  1.62257834e-08  1.09000000e+00 
 1.10000000e+00  4.57529447e-01  4.57529447e-01  3.40346858e-09  4.57529447e-01  3.39534674e-09  3.40805394e-09  3.17479890e-09  1.60957535e-07  1.62256626e-08  1.10000000e+00 
