 v-sweep         v(b0)           v(b1)           v(b2)           v(b3)           v(b4)           v(b5)           v(b6)           i(vbias)        i(viout)        v(vout)        
 0.00000000e+00  4.60194583e-01  3.24133533e-09  4.60194583e-01  3.48094891e-09  4.60194583e-01  3.18569178e-09  4.60194583e-01  1.62503689e-07  1.34431169e-07  0.00000000e+00 
 1.00000000e-02  4.60194586e-01  3.24133531e-09  4.60194586e-01  3.48094889e-09  4.60194586e-01  3.18569176e-09  4.60194586e-01  1.62503683e-07  1.34430744e-07  1.00000000e-02 
 2.00000000e-02  4.60194590e-01  3.24133531e-09  4.60194590e-01  3.48094890e-09  4.60194590e-01  3.18569176e-09  4.60194590e-01  1.62503692e-07  1.34430325e-07  2.00000000e-02 
 3.00000000e-02  4.60194576e-01  3.24133531e-09  4.60194576e-01  3.48094889e-09  4.60194576e-01  3.18569176e-09  4.60194576e-01  1.62503671e-07  1.34429836e-07  3.00000000e-02 
 4.00000000e-02  4.60194601e-01  3.24133531e-09  4.60194601e-01  3.48094890e-09  4.60194601e-01  3.18569176e-09  4.60194601e-01  1.62503704e-07  1.34429666e-07  4.00000000e-02 
 5.00000000e-02  4.60194569e-01  3.24133530e-09  4.60194569e-01  3.48094889e-09  4.60194569e-01  3.18569176e-09  4.60194569e-01  1.62503659e-07  1.34429111e-07  5.00000000e-02 
 6.00000000e-02  4.60194585e-01  3.24133531e-09  4.60194585e-01  3.48094889e-09  4.60194585e-01  3.18569181e-09  4.60194585e-01  1.62503696e-07  1.34428863e-07  6.00000000e-02 
 7.00000000e-02  4.60194565e-01  3.24133530e-09  4.60194565e-01  3.48094889e-09  4.60194565e-01  3.18569176e-09  4.60194565e-01  1.62503658e-07  1.34428433e-07  7.00000000e-02 
 8.00000000e-02  4.60194592e-01  3.24133531e-09  4.60194592e-01  3.48094890e-09  4.60194592e-01  3.18569176e-09  4.60194592e-01  1.62503701e-07  1.34428255e-07  8.00000000e-02 
 9.00000000e-02  4.60194583e-01  3.24133531e-09  4.60194583e-01  3.48094889e-09  4.60194584e-01  3.18569181e-09  4.60194584e-01  1.62503678e-07  1.34427957e-07  9.00000000e-02 
 1.00000000e-01  4.60194570e-01  3.24133530e-09  4.60194570e-01  3.48094889e-09  4.60194570e-01  3.18569176e-09  4.60194571e-01  1.62503664e-07  1.34427561e-07  1.00000000e-01 
 1.10000000e-01  4.60194568e-01  3.24133530e-09  4.60194568e-01  3.48094889e-09  4.60194568e-01  3.18569176e-09  4.60194568e-01  1.62503676e-07  1.34427286e-07  1.10000000e-01 
 1.20000000e-01  4.60194571e-01  3.24133530e-09  4.60194571e-01  3.48094889e-09  4.60194571e-01  3.18569176e-09  4.60194571e-01  1.62503675e-07  1.34427060e-07  1.20000000e-01 
 1.30000000e-01  4.60194577e-01  3.24133531e-09  4.60194577e-01  3.48094889e-09  4.60194578e-01  3.18569181e-09  4.60194578e-01  1.62503684e-07  1.34426839e-07  1.30000000e-01 
 1.40000000e-01  4.60194583e-01  3.24133531e-09  4.60194583e-01  3.48094889e-09  4.60194583e-01  3.18569176e-09  4.60194583e-01  1.62503672e-07  1.34426525e-07  1.40000000e-01 
 1.50000000e-01  4.60194606e-01  3.24133531e-09  4.60194606e-01  3.48094890e-09  4.60194606e-01  3.18569182e-09  4.60194607e-01  1.62503725e-07  1.34426358e-07  1.50000000e-01 
 1.60000000e-01  4.60194575e-01  3.24133531e-09  4.60194575e-01  3.48094895e-09  4.60194575e-01  3.18569176e-09  4.60194576e-01  1.62503659e-07  1.34426152e-07  1.60000000e-01 
 1.70000000e-01  4.60194577e-01  3.24133531e-09  4.60194577e-01  3.48094889e-09  4.60194577e-01  3.18569176e-09  4.60194578e-01  1.62503680e-07  1.34425870e-07  1.70000000e-01 
 1.80000000e-01  4.60194572e-01  3.24133530e-09  4.60194572e-01  3.48094889e-09  4.60194572e-01  3.18569176e-09  4.60194572e-01  1.62503658e-07  1.34425671e-07  1.80000000e-01 
 1.90000000e-01  4.60194564e-01  3.24133530e-09  4.60194564e-01  3.48094889e-09  4.60194564e-01  3.18569176e-09  4.60194564e-01  1.62503653e-07  1.34425385e-07  1.90000000e-01 
 2.00000000e-01  4.60194583e-01  3.24133531e-09  4.60194583e-01  3.48094889e-09  4.60194583e-01  3.18569181e-09  4.60194583e-01  1.62503675e-07  1.34425319e-07  2.00000000e-01 
 2.10000000e-01  4.60194567e-01  3.24133530e-09  4.60194567e-01  3.48094889e-09  4.60194567e-01  3.18569176e-09  4.60194567e-01  1.62503657e-07  1.34425099e-07  2.10000000e-01 
 2.20000000e-01  4.60194590e-01  3.24133531e-09  4.60194589e-01  3.48094889e-09  4.60194590e-01  3.18569176e-09  4.60194590e-01  1.62503685e-07  1.34425093e-07  2.20000000e-01 
 2.30000000e-01  4.60194598e-01  3.24133537e-09  4.60194598e-01  3.48094890e-09  4.60194598e-01  3.18569176e-09  4.60194598e-01  1.62503692e-07  1.34424901e-07  2.30000000e-01 
 2.40000000e-01  4.60194586e-01  3.24133531e-09  4.60194585e-01  3.48094889e-09  4.60194586e-01  3.18569176e-09  4.60194586e-01  1.62503687e-07  1.34424681e-07  2.40000000e-01 
 2.50000000e-01  4.60194584e-01  3.24133531e-09  4.60194584e-01  3.48094889e-09  4.60194584e-01  3.18569176e-09  4.60194584e-01  1.62503691e-07  1.34424514e-07  2.50000000e-01 
 2.60000000e-01  4.60194584e-01  3.24133531e-09  4.60194583e-01  3.48094895e-09  4.60194584e-01  3.18569176e-09  4.60194584e-01  1.62503685e-07  1.34424388e-07  2.60000000e-01 
 2.70000000e-01  4.60194594e-01  3.24133531e-09  4.60194594e-01  3.48094890e-09  4.60194594e-01  3.18569182e-09  4.60194594e-01  1.62503714e-07  1.34424198e-07  2.70000000e-01 
 2.80000000e-01  4.60194564e-01  3.24133530e-09  4.60194563e-01  3.48094889e-09  4.60194564e-01  3.18569176e-09  4.60194564e-01  1.62503662e-07  1.34423956e-07  2.80000000e-01 
 2.90000000e-01  4.60194575e-01  3.24133530e-09  4.60194575e-01  3.48094889e-09  4.60194575e-01  3.18569176e-09  4.60194575e-01  1.62503677e-07  1.34423843e-07  2.90000000e-01 
 3.00000000e-01  4.60194583e-01  3.24133531e-09  4.60194583e-01  3.48094895e-09  4.60194583e-01  3.18569176e-09  4.60194583e-01  1.62503686e-07  1.34423797e-07  3.00000000e-01 
 3.10000000e-01  4.60194584e-01  3.24133531e-09  4.60194584e-01  3.48094889e-09  4.60194584e-01  3.18569176e-09  4.60194585e-01  1.62503693e-07  1.34423484e-07  3.10000000e-01 
 3.20000000e-01  4.60194581e-01  3.24133531e-09  4.60194581e-01  3.48094889e-09  4.60194581e-01  3.18569176e-09  4.60194581e-01  1.62503669e-07  1.34423548e-07  3.20000000e-01 
 3.30000000e-01  4.60194571e-01  3.24133530e-09  4.60194571e-01  3.48094889e-09  4.60194571e-01  3.18569181e-09  4.60194571e-01  1.62503659e-07  1.34423424e-07  3.30000000e-01 
 3.40000000e-01  4.60194587e-01  3.24133531e-09  4.60194587e-01  3.48094889e-09  4.60194587e-01  3.18569176e-09  4.60194587e-01  1.62503691e-07  1.34423260e-07  3.40000000e-01 
 3.50000000e-01  4.60194600e-01  3.24133531e-09  4.60194600e-01  3.48094890e-09  4.60194600e-01  3.18569176e-09  4.60194600e-01  1.62503705e-07  1.34423164e-07  3.50000000e-01 
 3.60000000e-01  4.60194584e-01  3.24133531e-09  4.60194584e-01  3.48094895e-09  4.60194584e-01  3.18569181e-09  4.60194584e-01  1.62503688e-07  1.34423033e-07  3.60000000e-01 
 3.70000000e-01  4.60194583e-01  3.24133531e-09  4.60194583e-01  3.48094889e-09  4.60194583e-01  3.18569181e-09  4.60194583e-01  1.62503690e-07  1.34422873e-07  3.70000000e-01 
 3.80000000e-01  4.60194575e-01  3.24133536e-09  4.60194575e-01  3.48094889e-09  4.60194575e-01  3.18569176e-09  4.60194575e-01  1.62503670e-07  1.34422827e-07  3.80000000e-01 
 3.90000000e-01  4.60194586e-01  3.24133531e-09  4.60194586e-01  3.48094889e-09  4.60194586e-01  3.18569181e-09  4.60194586e-01  1.62503688e-07  1.34422777e-07  3.90000000e-01 
 4.00000000e-01  4.60194577e-01  3.24133531e-09  4.60194577e-01  3.48094889e-09  4.60194577e-01  3.18569181e-09  4.60194577e-01  1.62503676e-07  1.34422610e-07  4.00000000e-01 
 4.10000000e-01  4.60194599e-01  3.24133531e-09  4.60194599e-01  3.48094890e-09  4.60194599e-01  3.18569182e-09  4.60194599e-01  1.62503722e-07  1.34422550e-07  4.10000000e-01 
 4.20000000e-01  4.60194564e-01  3.24133530e-09  4.60194564e-01  3.48094889e-09  4.60194564e-01  3.18569176e-09  4.60194564e-01  1.62503653e-07  1.34422194e-07  4.20000000e-01 
 4.30000000e-01  4.60194572e-01  3.24133530e-09  4.60194572e-01  3.48094889e-09  4.60194572e-01  3.18569181e-09  4.60194573e-01  1.62503667e-07  1.34422230e-07  4.30000000e-01 
 4.40000000e-01  4.60194595e-01  3.24133531e-09  4.60194595e-01  3.48094895e-09  4.60194595e-01  3.18569176e-09  4.60194595e-01  1.62503705e-07  1.34422265e-07  4.40000000e-01 
 4.50000000e-01  4.60194590e-01  3.24133531e-09  4.60194590e-01  3.48094890e-09  4.60194590e-01  3.18569182e-09  4.60194590e-01  1.62503676e-07  1.34421981e-07  4.50000000e-01 
 4.60000000e-01  4.60194579e-01  3.24133531e-09  4.60194578e-01  3.48094889e-09  4.60194579e-01  3.18569176e-09  4.60194579e-01  1.62503672e-07  1.34421985e-07  4.60000000e-01 
 4.70000000e-01  4.60194594e-01  3.24133531e-09  4.60194594e-01  3.48094890e-09  4.60194594e-01  3.18569176e-09  4.60194594e-01  1.62503707e-07  1.34421835e-07  4.70000000e-01 
 4.80000000e-01  4.60194604e-01  3.24133531e-09  4.60194604e-01  3.48094890e-09  4.60194604e-01  3.18569182e-09  4.60194604e-01  1.62503722e-07  1.34421853e-07  4.80000000e-01 
 4.90000000e-01  4.60194542e-01  3.24133530e-09  4.60194542e-01  3.48094889e-09  4.60194542e-01  3.18569181e-09  4.60194542e-01  1.62503612e-07  1.34421569e-07  4.90000000e-01 
 5.00000000e-01  4.60194577e-01  3.24133531e-09  4.60194577e-01  3.48094889e-09  4.60194577e-01  3.18569181e-09  4.60194577e-01  1.62503664e-07  1.34421626e-07  5.00000000e-01 
 5.10000000e-01  4.60194593e-01  3.24133531e-09  4.60194593e-01  3.48094890e-09  4.60194593e-01  3.18569182e-09  4.60194593e-01  1.62503702e-07  1.34421477e-07  5.10000000e-01 
 5.20000000e-01  4.60194568e-01  3.24133530e-09  4.60194568e-01  3.48094889e-09  4.60194568e-01  3.18569176e-09  4.60194568e-01  1.62503665e-07  1.34421231e-07  5.20000000e-01 
 5.30000000e-01  4.60194601e-01  3.24133531e-09  4.60194601e-01  3.48094890e-09  4.60194601e-01  3.18569176e-09  4.60194601e-01  1.62503712e-07  1.34421391e-07  5.30000000e-01 
 5.40000000e-01  4.60194576e-01  3.24133531e-09  4.60194576e-01  3.48094889e-09  4.60194576e-01  3.18569181e-09  4.60194577e-01  1.62503677e-07  1.34421242e-07  5.40000000e-01 
 5.50000000e-01  4.60194566e-01  3.24133530e-09  4.60194566e-01  3.48094895e-09  4.60194566e-01  3.18569176e-09  4.60194566e-01  1.62503655e-07  1.34421136e-07  5.50000000e-01 
 5.60000000e-01  4.60194605e-01  3.24133531e-09  4.60194604e-01  3.48094890e-09  4.60194605e-01  3.18569176e-09  4.60194605e-01  1.62503717e-07  1.34421107e-07  5.60000000e-01 
 5.70000000e-01  4.60194584e-01  3.24133531e-09  4.60194584e-01  3.48094889e-09  4.60194584e-01  3.18569176e-09  4.60194584e-01  1.62503692e-07  1.34420951e-07  5.70000000e-01 
 5.80000000e-01  4.60194585e-01  3.24133531e-09  4.60194585e-01  3.48094889e-09  4.60194585e-01  3.18569176e-09  4.60194585e-01  1.62503682e-07  1.34420858e-07  5.80000000e-01 
 5.90000000e-01  4.60194582e-01  3.24133531e-09  4.60194582e-01  3.48094889e-09  4.60194582e-01  3.18569176e-09  4.60194582e-01  1.62503691e-07  1.34420752e-07  5.90000000e-01 
 6.00000000e-01  4.60194603e-01  3.24133531e-09  4.60194602e-01  3.48094890e-09  4.60194603e-01  3.18569176e-09  4.60194603e-01  1.62503704e-07  1.34420759e-07  6.00000000e-01 
 6.10000000e-01  4.60194584e-01  3.24133531e-09  4.60194584e-01  3.48094889e-09  4.60194584e-01  3.18569181e-09  4.60194584e-01  1.62503682e-07  1.34420603e-07  6.10000000e-01 
 6.20000000e-01  4.60194566e-01  3.24133530e-09  4.60194566e-01  3.48094889e-09  4.60194566e-01  3.18569181e-09  4.60194566e-01  1.62503666e-07  1.34420340e-07  6.20000000e-01 
 6.30000000e-01  4.60194570e-01  3.24133530e-09  4.60194570e-01  3.48094889e-09  4.60194570e-01  3.18569181e-09  4.60194570e-01  1.62503663e-07  1.34420297e-07  6.30000000e-01 
 6.40000000e-01  4.60194582e-01  3.24133531e-09  4.60194581e-01  3.48094895e-09  4.60194582e-01  3.18569176e-09  4.60194582e-01  1.62503678e-07  1.34420361e-07  6.40000000e-01 
 6.50000000e-01  4.60194569e-01  3.24133530e-09  4.60194569e-01  3.48094889e-09  4.60194569e-01  3.18569181e-09  4.60194569e-01  1.62503663e-07  1.34420205e-07  6.50000000e-01 
 6.60000000e-01  4.60194589e-01  3.24133531e-09  4.60194589e-01  3.48094895e-09  4.60194589e-01  3.18569182e-09  4.60194589e-01  1.62503703e-07  1.34420112e-07  6.60000000e-01 
 6.70000000e-01  4.60194581e-01  3.24133531e-09  4.60194581e-01  3.48094889e-09  4.60194581e-01  3.18569176e-09  4.60194581e-01  1.62503677e-07  1.34419984e-07  6.70000000e-01 
 6.80000000e-01  4.60194601e-01  3.24133531e-09  4.60194601e-01  3.48094890e-09  4.60194601e-01  3.18569182e-09  4.60194601e-01  1.62503718e-07  1.34420098e-07  6.80000000e-01 
 6.90000000e-01  4.60194597e-01  3.24133531e-09  4.60194597e-01  3.48094890e-09  4.60194597e-01  3.18569176e-09  4.60194597e-01  1.62503708e-07  1.34419892e-07  6.90000000e-01 
 7.00000000e-01  4.60194576e-01  3.24133531e-09  4.60194576e-01  3.48094889e-09  4.60194576e-01  3.18569181e-09  4.60194576e-01  1.62503676e-07  1.34419672e-07  7.00000000e-01 
 7.10000000e-01  4.60194567e-01  3.24133530e-09  4.60194567e-01  3.48094889e-09  4.60194567e-01  3.18569176e-09  4.60194567e-01  1.62503664e-07  1.34419579e-07  7.10000000e-01 
 7.20000000e-01  4.60194577e-01  3.24133531e-09  4.60194577e-01  3.48094889e-09  4.60194577e-01  3.18569181e-09  4.60194578e-01  1.62503683e-07  1.34419658e-07  7.20000000e-01 
 7.30000000e-01  4.60194598e-01  3.24133531e-09  4.60194598e-01  3.48094890e-09  4.60194598e-01  3.18569182e-09  4.60194598e-01  1.62503705e-07  1.34419530e-07  7.30000000e-01 
 7.40000000e-01  4.60194542e-01  3.24133530e-09  4.60194542e-01  3.48094889e-09  4.60194542e-01  3.18569176e-09  4.60194543e-01  1.62503634e-07  1.34419210e-07  7.40000000e-01 
 7.50000000e-01  4.60194571e-01  3.24133530e-09  4.60194571e-01  3.48094889e-09  4.60194571e-01  3.18569181e-09  4.60194571e-01  1.62503657e-07  1.34419267e-07  7.50000000e-01 
 7.60000000e-01  4.60194563e-01  3.24133530e-09  4.60194563e-01  3.48094889e-09  4.60194563e-01  3.18569176e-09  4.60194564e-01  1.62503655e-07  1.34419217e-07  7.60000000e-01 
 7.70000000e-01  4.60194585e-01  3.24133531e-09  4.60194585e-01  3.48094889e-09  4.60194585e-01  3.18569181e-09  4.60194585e-01  1.62503687e-07  1.34419054e-07  7.70000000e-01 
 7.80000000e-01  4.60194591e-01  3.24133531e-09  4.60194591e-01  3.48094890e-09  4.60194591e-01  3.18569176e-09  4.60194591e-01  1.62503693e-07  1.34419032e-07  7.80000000e-01 
 7.90000000e-01  4.60194602e-01  3.24133531e-09  4.60194602e-01  3.48094895e-09  4.60194602e-01  3.18569182e-09  4.60194602e-01  1.62503715e-07  1.34418947e-07  7.90000000e-01 
 8.00000000e-01  4.60194555e-01  3.24133530e-09  4.60194555e-01  3.48094889e-09  4.60194555e-01  3.18569181e-09  4.60194555e-01  1.62503649e-07  1.34418798e-07  8.00000000e-01 
 8.10000000e-01  4.60194598e-01  3.24133531e-09  4.60194598e-01  3.48094890e-09  4.60194598e-01  3.18569182e-09  4.60194598e-01  1.62503703e-07  1.34418670e-07  8.10000000e-01 
 8.20000000e-01  4.60194573e-01  3.24133530e-09  4.60194572e-01  3.48094889e-09  4.60194573e-01  3.18569176e-09  4.60194573e-01  1.62503688e-07  1.34418606e-07  8.20000000e-01 
 8.30000000e-01  4.60194585e-01  3.24133536e-09  4.60194585e-01  3.48094889e-09  4.60194585e-01  3.18569181e-09  4.60194585e-01  1.62503696e-07  1.34418585e-07  8.30000000e-01 
 8.40000000e-01  4.60194583e-01  3.24133531e-09  4.60194583e-01  3.48094889e-09  4.60194583e-01  3.18569181e-09  4.60194584e-01  1.62503676e-07  1.34418535e-07  8.40000000e-01 
 8.50000000e-01  4.60194581e-01  3.24133531e-09  4.60194581e-01  3.48094889e-09  4.60194581e-01  3.18569176e-09  4.60194581e-01  1.62503679e-07  1.34418308e-07  8.50000000e-01 
 8.60000000e-01  4.60194603e-01  3.24133531e-09  4.60194603e-01  3.48094890e-09  4.60194603e-01  3.18569176e-09  4.60194603e-01  1.62503710e-07  1.34418336e-07  8.60000000e-01 
 8.70000000e-01  4.60194573e-01  3.24133530e-09  4.60194573e-01  3.48094889e-09  4.60194573e-01  3.18569181e-09  4.60194573e-01  1.62503660e-07  1.34418087e-07  8.70000000e-01 
 8.80000000e-01  4.60194576e-01  3.24133531e-09  4.60194576e-01  3.48094889e-09  4.60194576e-01  3.18569181e-09  4.60194576e-01  1.62503675e-07  1.34418030e-07  8.80000000e-01 
 8.90000000e-01  4.60194574e-01  3.24133530e-09  4.60194574e-01  3.48094895e-09  4.60194574e-01  3.18569181e-09  4.60194574e-01  1.62503674e-07  1.34417881e-07  8.90000000e-01 
 9.00000000e-01  4.60194599e-01  3.24133531e-09  4.60194599e-01  3.48094890e-09  4.60194599e-01  3.18569176e-09  4.60194599e-01  1.62503696e-07  1.34417867e-07  9.00000000e-01 
 9.10000000e-01  4.60194567e-01  3.24133530e-09  4.60194567e-01  3.48094889e-09  4.60194567e-01  3.18569176e-09  4.60194567e-01  1.62503655e-07  1.34417711e-07  9.10000000e-01 
 9.20000000e-01  4.60194593e-01  3.24133537e-09  4.60194593e-01  3.48094895e-09  4.60194593e-01  3.18569182e-09  4.60194593e-01  1.62503713e-07  1.34417689e-07  9.20000000e-01 
 9.30000000e-01  4.60194600e-01  3.24133531e-09  4.60194600e-01  3.48094890e-09  4.60194600e-01  3.18569182e-09  4.60194600e-01  1.62503705e-07  1.34417654e-07  9.30000000e-01 
 9.40000000e-01  4.60194581e-01  3.24133531e-09  4.60194581e-01  3.48094895e-09  4.60194581e-01  3.18569176e-09  4.60194581e-01  1.62503682e-07  1.34417540e-07  9.40000000e-01 
 9.50000000e-01  4.60194574e-01  3.24133530e-09  4.60194574e-01  3.48094889e-09  4.60194574e-01  3.18569181e-09  4.60194574e-01  1.62503671e-07  1.34417441e-07  9.50000000e-01 
 9.60000000e-01  4.60194588e-01  3.24133531e-09  4.60194588e-01  3.48094895e-09  4.60194588e-01  3.18569182e-09  4.60194588e-01  1.62503689e-07  1.34417235e-07  9.60000000e-01 
 9.70000000e-01  4.60194581e-01  3.24133531e-09  4.60194581e-01  3.48094889e-09  4.60194581e-01  3.18569181e-09  4.60194581e-01  1.62503684e-07  1.34417171e-07  9.70000000e-01 
 9.80000000e-01  4.60194587e-01  3.24133531e-09  4.60194587e-01  3.48094889e-09  4.60194587e-01  3.18569176e-09  4.60194587e-01  1.62503680e-07  1.34417164e-07  9.80000000e-01 
 9.90000000e-01  4.60194598e-01  3.24133531e-09  4.60194598e-01  3.48094890e-09  4.60194598e-01  3.18569182e-09  4.60194598e-01  1.62503705e-07  1.34417029e-07  9.90000000e-01 
 1.00000000e+00  4.60194557e-01  3.24133530e-09  4.60194557e-01  3.48094889e-09  4.60194557e-01  3.18569176e-09  4.60194557e-01  1.62503634e-07  1.34416695e-07  1.00000000e+00 
 1.01000000e+00  4.60194589e-01  3.24133531e-09  4.60194589e-01  3.48094889e-09  4.60194589e-01  3.18569182e-09  4.60194589e-01  1.62503687e-07  1.34416830e-07  1.01000000e+00 
 1.02000000e+00  4.60194561e-01  3.24133530e-09  4.60194561e-01  3.48094889e-09  4.60194561e-01  3.18569176e-09  4.60194561e-01  1.62503651e-07  1.34416602e-07  1.02000000e+00 
 1.03000000e+00  4.60194604e-01  3.24133531e-09  4.60194604e-01  3.48094890e-09  4.60194604e-01  3.18569176e-09  4.60194604e-01  1.62503709e-07  1.34416503e-07  1.03000000e+00 
 1.04000000e+00  4.60194589e-01  3.24133531e-09  4.60194588e-01  3.48094889e-09  4.60194589e-01  3.18569176e-09  4.60194589e-01  1.62503704e-07  1.34416460e-07  1.04000000e+00 
 1.05000000e+00  4.60194569e-01  3.24133530e-09  4.60194569e-01  3.48094895e-09  4.60194569e-01  3.18569181e-09  4.60194569e-01  1.62503651e-07  1.34416339e-07  1.05000000e+00 
 1.06000000e+00  4.60194586e-01  3.24133531e-09  4.60194586e-01  3.48094895e-09  4.60194586e-01  3.18569176e-09  4.60194586e-01  1.62503685e-07  1.34416133e-07  1.06000000e+00 
 1.07000000e+00  4.60194555e-01  3.24133530e-09  4.60194555e-01  3.48094889e-09  4.60194555e-01  3.18569176e-09  4.60194555e-01  1.62503627e-07  1.34415927e-07  1.07000000e+00 
 1.08000000e+00  4.60194600e-01  3.24133531e-09  4.60194600e-01  3.48094890e-09  4.60194600e-01  3.18569176e-09  4.60194600e-01  1.62503713e-07  1.34415998e-07  1.08000000e+00 
 1.09000000e+00  4.60194568e-01  3.24133530e-09  4.60194568e-01  3.48094889e-09  4.60194568e-01  3.18569181e-09  4.60194568e-01  1.62503677e-07  1.34415956e-07  1.09000000e+00 
 1.10000000e+00  4.60194588e-01  3.24133531e-09  4.60194588e-01  3.48094889e-09  4.60194588e-01  3.18569176e-09  4.60194588e-01  1.62503699e-07  1.34415821e-07  1.10000000e+00 
