 v-sweep         v(b0)           v(b1)           v(b2)           v(b3)           v(b4)           v(b5)           v(b6)           i(vbias)        i(viout)        v(vout)        
 0.00000000e+00  3.40486882e-09  3.40023760e-09  4.58977888e-01  3.47779921e-09  3.15754703e-09  4.58977888e-01  4.58977888e-01  1.59673132e-07  1.49234359e-07  0.00000000e+00 
 1.00000000e-02  3.40486886e-09  3.40023757e-09  4.58977938e-01  3.47779924e-09  3.15754706e-09  4.58977938e-01  4.58977938e-01  1.59673201e-07  1.49234213e-07  1.00000000e-02 
 2.00000000e-02  3.40486886e-09  3.40023757e-09  4.58977920e-01  3.47779923e-09  3.15754700e-09  4.58977920e-01  4.58977920e-01  1.59673175e-07  1.49233636e-07  2.00000000e-02 
 3.00000000e-02  3.40486880e-09  3.40023757e-09  4.58977895e-01  3.47779923e-09  3.15754700e-09  4.58977895e-01  4.58977895e-01  1.59673133e-07  1.49233215e-07  3.00000000e-02 
 4.00000000e-02  3.40486880e-09  3.40023763e-09  4.58977920e-01  3.47779918e-09  3.15754706e-09  4.58977920e-01  4.58977920e-01  1.59673161e-07  1.49232957e-07  4.00000000e-02 
 5.00000000e-02  3.40486880e-09  3.40023757e-09  4.58977909e-01  3.47779925e-09  3.15754706e-09  4.58977909e-01  4.58977909e-01  1.59673155e-07  1.49232465e-07  5.00000000e-02 
 6.00000000e-02  3.40486880e-09  3.40023757e-09  4.58977896e-01  3.47779923e-09  3.15754700e-09  4.58977896e-01  4.58977896e-01  1.59673138e-07  1.49232088e-07  6.00000000e-02 
 7.00000000e-02  3.40486880e-09  3.40023763e-09  4.58977916e-01  3.47779923e-09  3.15754706e-09  4.58977916e-01  4.58977916e-01  1.59673157e-07  1.49231897e-07  7.00000000e-02 
 8.00000000e-02  3.40486886e-09  3.40023763e-09  4.58977910e-01  3.47779923e-09  3.15754706e-09  4.58977910e-01  4.58977910e-01  1.59673156e-07  1.49231432e-07  8.00000000e-02 
 9.00000000e-02  3.40486880e-09  3.40023763e-09  4.58977923e-01  3.47779923e-09  3.15754700e-09  4.58977923e-01  4.58977923e-01  1.59673181e-07  1.49231141e-07  9.00000000e-02 
 1.00000000e-01  3.40486880e-09  3.40023763e-09  4.58977902e-01  3.47779923e-09  3.15754706e-09  4.58977902e-01  4.58977902e-01  1.59673151e-07  1.49230792e-07  1.00000000e-01 
 1.10000000e-01  3.40486885e-09  3.40023763e-09  4.58977899e-01  3.47779923e-09  3.15754706e-09  4.58977899e-01  4.58977899e-01  1.59673139e-07  1.49230585e-07  1.10000000e-01 
 1.20000000e-01  3.40486880e-09  3.40023763e-09  4.58977917e-01  3.47779918e-09  3.15754700e-09  4.58977917e-01  4.58977917e-01  1.59673170e-07  1.49230392e-07  1.20000000e-01 
 1.30000000e-01  3.40486880e-09  3.40023757e-09  4.58977903e-01  3.47779919e-09  3.15754700e-09  4.58977903e-01  4.58977903e-01  1.59673147e-07  1.49229979e-07  1.30000000e-01 
 1.40000000e-01  3.40486885e-09  3.40023757e-09  4.58977902e-01  3.47779924e-09  3.15754706e-09  4.58977903e-01  4.58977903e-01  1.59673134e-07  1.49229819e-07  1.40000000e-01 
 1.50000000e-01  3.40486886e-09  3.40023757e-09  4.58977925e-01  3.47779923e-09  3.15754706e-09  4.58977925e-01  4.58977925e-01  1.59673185e-07  1.49229521e-07  1.50000000e-01 
 1.60000000e-01  3.40486885e-09  3.40023763e-09  4.58977888e-01  3.47779923e-09  3.15754706e-09  4.58977888e-01  4.58977888e-01  1.59673109e-07  1.49229290e-07  1.60000000e-01 
 1.70000000e-01  3.40486880e-09  3.40023757e-09  4.58977929e-01  3.47779923e-09  3.15754700e-09  4.58977930e-01  4.58977929e-01  1.59673173e-07  1.49229193e-07  1.70000000e-01 
 1.80000000e-01  3.40486880e-09  3.40023757e-09  4.58977912e-01  3.47779923e-09  3.15754706e-09  4.58977912e-01  4.58977912e-01  1.59673141e-07  1.49228963e-07  1.80000000e-01 
 1.90000000e-01  3.40486885e-09  3.40023763e-09  4.58977875e-01  3.47779923e-09  3.15754706e-09  4.58977875e-01  4.58977875e-01  1.59673110e-07  1.49228661e-07  1.90000000e-01 
 2.00000000e-01  3.40486886e-09  3.40023757e-09  4.58977918e-01  3.47779923e-09  3.15754706e-09  4.58977918e-01  4.58977918e-01  1.59673153e-07  1.49228534e-07  2.00000000e-01 
 2.10000000e-01  3.40486886e-09  3.40023763e-09  4.58977911e-01  3.47779923e-09  3.15754706e-09  4.58977911e-01  4.58977911e-01  1.59673157e-07  1.49228294e-07  2.10000000e-01 
 2.20000000e-01  3.40486885e-09  3.40023757e-09  4.58977902e-01  3.47779923e-09  3.15754706e-09  4.58977903e-01  4.58977902e-01  1.59673152e-07  1.49228050e-07  2.20000000e-01 
 2.30000000e-01  3.40486880e-09  3.40023757e-09  4.58977886e-01  3.47779923e-09  3.15754700e-09  4.58977886e-01  4.58977886e-01  1.59673124e-07  1.49227850e-07  2.30000000e-01 
 2.40000000e-01  3.40486886e-09  3.40023763e-09  4.58977912e-01  3.47779923e-09  3.15754706e-09  4.58977912e-01  4.58977912e-01  1.59673168e-07  1.49227793e-07  2.40000000e-01 
 2.50000000e-01  3.40486880e-09  3.40023763e-09  4.58977890e-01  3.47779918e-09  3.15754706e-09  4.58977890e-01  4.58977890e-01  1.59673144e-07  1.49227635e-07  2.50000000e-01 
 2.60000000e-01  3.40486885e-09  3.40023763e-09  4.58977885e-01  3.47779924e-09  3.15754700e-09  4.58977885e-01  4.58977885e-01  1.59673122e-07  1.49227366e-07  2.60000000e-01 
 2.70000000e-01  3.40486880e-09  3.40023763e-09  4.58977901e-01  3.47779917e-09  3.15754706e-09  4.58977901e-01  4.58977901e-01  1.59673145e-07  1.49227230e-07  2.70000000e-01 
 2.80000000e-01  3.40486880e-09  3.40023757e-09  4.58977880e-01  3.47779919e-09  3.15754706e-09  4.58977880e-01  4.58977880e-01  1.59673117e-07  1.49227002e-07  2.80000000e-01 
 2.90000000e-01  3.40486880e-09  3.40023757e-09  4.58977907e-01  3.47779924e-09  3.15754706e-09  4.58977907e-01  4.58977907e-01  1.59673151e-07  1.49227002e-07  2.90000000e-01 
 3.00000000e-01  3.40486880e-09  3.40023763e-09  4.58977898e-01  3.47779923e-09  3.15754700e-09  4.58977898e-01  4.58977898e-01  1.59673137e-07  1.49226711e-07  3.00000000e-01 
 3.10000000e-01  3.40486886e-09  3.40023757e-09  4.58977910e-01  3.47779918e-09  3.15754706e-09  4.58977910e-01  4.58977910e-01  1.59673158e-07  1.49226647e-07  3.10000000e-01 
 3.20000000e-01  3.40486880e-09  3.40023757e-09  4.58977891e-01  3.47779919e-09  3.15754700e-09  4.58977891e-01  4.58977891e-01  1.59673137e-07  1.49226477e-07  3.20000000e-01 
 3.30000000e-01  3.40486880e-09  3.40023763e-09  4.58977907e-01  3.47779924e-09  3.15754706e-09  4.58977907e-01  4.58977907e-01  1.59673144e-07  1.49226384e-07  3.30000000e-01 
 3.40000000e-01  3.40486880e-09  3.40023757e-09  4.58977893e-01  3.47779923e-09  3.15754706e-09  4.58977893e-01  4.58977893e-01  1.59673129e-07  1.49226210e-07  3.40000000e-01 
 3.50000000e-01  3.40486880e-09  3.40023757e-09  4.58977902e-01  3.47779923e-09  3.15754706e-09  4.58977902e-01  4.58977902e-01  1.59673143e-07  1.49226210e-07  3.50000000e-01 
 3.60000000e-01  3.40486885e-09  3.40023757e-09  4.58977899e-01  3.47779923e-09  3.15754706e-09  4.58977899e-01  4.58977899e-01  1.59673142e-07  1.49225965e-07  3.60000000e-01 
 3.70000000e-01  3.40486880e-09  3.40023757e-09  4.58977905e-01  3.47779923e-09  3.15754700e-09  4.58977905e-01  4.58977905e-01  1.59673156e-07  1.49225951e-07  3.70000000e-01 
 3.80000000e-01  3.40486880e-09  3.40023763e-09  4.58977888e-01  3.47779923e-09  3.15754700e-09  4.58977888e-01  4.58977888e-01  1.59673122e-07  1.49225670e-07  3.80000000e-01 
 3.90000000e-01  3.40486880e-09  3.40023757e-09  4.58977905e-01  3.47779923e-09  3.15754706e-09  4.58977905e-01  4.58977905e-01  1.59673142e-07  1.49225723e-07  3.90000000e-01 
 4.00000000e-01  3.40486886e-09  3.40023763e-09  4.58977922e-01  3.47779923e-09  3.15754706e-09  4.58977923e-01  4.58977922e-01  1.59673174e-07  1.49225670e-07  4.00000000e-01 
 4.10000000e-01  3.40486886e-09  3.40023757e-09  4.58977928e-01  3.47779918e-09  3.15754700e-09  4.58977929e-01  4.58977929e-01  1.59673184e-07  1.49225531e-07  4.10000000e-01 
 4.20000000e-01  3.40486885e-09  3.40023763e-09  4.58977896e-01  3.47779924e-09  3.15754706e-09  4.58977896e-01  4.58977896e-01  1.59673143e-07  1.49225372e-07  4.20000000e-01 
 4.30000000e-01  3.40486880e-09  3.40023757e-09  4.58977901e-01  3.47779923e-09  3.15754706e-09  4.58977901e-01  4.58977901e-01  1.59673140e-07  1.49225283e-07  4.30000000e-01 
 4.40000000e-01  3.40486880e-09  3.40023757e-09  4.58977923e-01  3.47779923e-09  3.15754706e-09  4.58977923e-01  4.58977923e-01  1.59673172e-07  1.49225084e-07  4.40000000e-01 
 4.50000000e-01  3.40486880e-09  3.40023757e-09  4.58977910e-01  3.47779923e-09  3.15754706e-09  4.58977910e-01  4.58977910e-01  1.59673147e-07  1.49225041e-07  4.50000000e-01 
 4.60000000e-01  3.40486885e-09  3.40023757e-09  4.58977891e-01  3.47779918e-09  3.15754700e-09  4.58977891e-01  4.58977891e-01  1.59673127e-07  1.49224807e-07  4.60000000e-01 
 4.70000000e-01  3.40486885e-09  3.40023757e-09  4.58977900e-01  3.47779924e-09  3.15754700e-09  4.58977900e-01  4.58977900e-01  1.59673139e-07  1.49224654e-07  4.70000000e-01 
 4.80000000e-01  3.40486880e-09  3.40023763e-09  4.58977888e-01  3.47779923e-09  3.15754706e-09  4.58977888e-01  4.58977888e-01  1.59673125e-07  1.49224604e-07  4.80000000e-01 
 4.90000000e-01  3.40486880e-09  3.40023757e-09  4.58977894e-01  3.47779923e-09  3.15754706e-09  4.58977894e-01  4.58977894e-01  1.59673134e-07  1.49224441e-07  4.90000000e-01 
 5.00000000e-01  3.40486880e-09  3.40023757e-09  4.58977898e-01  3.47779923e-09  3.15754706e-09  4.58977898e-01  4.58977898e-01  1.59673149e-07  1.49224345e-07  5.00000000e-01 
 5.10000000e-01  3.40486885e-09  3.40023763e-09  4.58977895e-01  3.47779923e-09  3.15754700e-09  4.58977895e-01  4.58977895e-01  1.59673134e-07  1.49224320e-07  5.10000000e-01 
 5.20000000e-01  3.40486885e-09  3.40023763e-09  4.58977898e-01  3.47779918e-09  3.15754706e-09  4.58977898e-01  4.58977898e-01  1.59673146e-07  1.49224118e-07  5.20000000e-01 
 5.30000000e-01  3.40486880e-09  3.40023757e-09  4.58977904e-01  3.47779919e-09  3.15754700e-09  4.58977904e-01  4.58977904e-01  1.59673154e-07  1.49224164e-07  5.30000000e-01 
 5.40000000e-01  3.40486885e-09  3.40023763e-09  4.58977899e-01  3.47779924e-09  3.15754706e-09  4.58977899e-01  4.58977899e-01  1.59673144e-07  1.49224000e-07  5.40000000e-01 
 5.50000000e-01  3.40486880e-09  3.40023763e-09  4.58977916e-01  3.47779923e-09  3.15754706e-09  4.58977916e-01  4.58977916e-01  1.59673157e-07  1.49223840e-07  5.50000000e-01 
 5.60000000e-01  3.40486880e-09  3.40023757e-09  4.58977904e-01  3.47779923e-09  3.15754706e-09  4.58977904e-01  4.58977904e-01  1.59673149e-07  1.49223879e-07  5.60000000e-01 
 5.70000000e-01  3.40486886e-09  3.40023757e-09  4.58977915e-01  3.47779918e-09  3.15754706e-09  4.58977915e-01  4.58977915e-01  1.59673168e-07  1.49223748e-07  5.70000000e-01 
 5.80000000e-01  3.40486886e-09  3.40023757e-09  4.58977905e-01  3.47779919e-09  3.15754706e-09  4.58977905e-01  4.58977905e-01  1.59673146e-07  1.49223581e-07  5.80000000e-01 
 5.90000000e-01  3.40486886e-09  3.40023757e-09  4.58977909e-01  3.47779918e-09  3.15754706e-09  4.58977909e-01  4.58977909e-01  1.59673154e-07  1.49223382e-07  5.90000000e-01 
 6.00000000e-01  3.40486885e-09  3.40023763e-09  4.58977886e-01  3.47779924e-09  3.15754700e-09  4.58977886e-01  4.58977886e-01  1.59673126e-07  1.49223290e-07  6.00000000e-01 
 6.10000000e-01  3.40486880e-09  3.40023757e-09  4.58977897e-01  3.47779923e-09  3.15754700e-09  4.58977898e-01  4.58977897e-01  1.59673133e-07  1.49223155e-07  6.10000000e-01 
 6.20000000e-01  3.40486880e-09  3.40023763e-09  4.58977946e-01  3.47779918e-09  3.15754706e-09  4.58977946e-01  4.58977946e-01  1.59673209e-07  1.49223297e-07  6.20000000e-01 
 6.30000000e-01  3.40486880e-09  3.40023757e-09  4.58977914e-01  3.47779925e-09  3.15754706e-09  4.58977914e-01  4.58977914e-01  1.59673156e-07  1.49223062e-07  6.30000000e-01 
 6.40000000e-01  3.40486885e-09  3.40023757e-09  4.58977902e-01  3.47779923e-09  3.15754706e-09  4.58977902e-01  4.58977902e-01  1.59673140e-07  1.49222920e-07  6.40000000e-01 
 6.50000000e-01  3.40486880e-09  3.40023763e-09  4.58977923e-01  3.47779918e-09  3.15754700e-09  4.58977923e-01  4.58977923e-01  1.59673179e-07  1.49222963e-07  6.50000000e-01 
 6.60000000e-01  3.40486885e-09  3.40023763e-09  4.58977893e-01  3.47779924e-09  3.15754706e-09  4.58977893e-01  4.58977893e-01  1.59673130e-07  1.49222750e-07  6.60000000e-01 
 6.70000000e-01  3.40486885e-09  3.40023757e-09  4.58977902e-01  3.47779917e-09  3.15754706e-09  4.58977902e-01  4.58977902e-01  1.59673143e-07  1.49222700e-07  6.70000000e-01 
 6.80000000e-01  3.40486880e-09  3.40023757e-09  4.58977903e-01  3.47779919e-09  3.15754700e-09  4.58977903e-01  4.58977903e-01  1.59673147e-07  1.49222544e-07  6.80000000e-01 
 6.90000000e-01  3.40486880e-09  3.40023763e-09  4.58977882e-01  3.47779924e-09  3.15754706e-09  4.58977882e-01  4.58977882e-01  1.59673125e-07  1.49222394e-07  6.90000000e-01 
 7.00000000e-01  3.40486885e-09  3.40023763e-09  4.58977900e-01  3.47779923e-09  3.15754706e-09  4.58977900e-01  4.58977900e-01  1.59673142e-07  1.49222359e-07  7.00000000e-01 
 7.10000000e-01  3.40486886e-09  3.40023763e-09  4.58977912e-01  3.47779918e-09  3.15754706e-09  4.58977912e-01  4.58977912e-01  1.59673165e-07  1.49222359e-07  7.10000000e-01 
 7.20000000e-01  3.40486885e-09  3.40023763e-09  4.58977905e-01  3.47779925e-09  3.15754706e-09  4.58977905e-01  4.58977905e-01  1.59673146e-07  1.49222195e-07  7.20000000e-01 
 7.30000000e-01  3.40486880e-09  3.40023763e-09  4.58977922e-01  3.47779923e-09  3.15754706e-09  4.58977922e-01  4.58977922e-01  1.59673164e-07  1.49222160e-07  7.30000000e-01 
 7.40000000e-01  3.40486880e-09  3.40023763e-09  4.58977919e-01  3.47779923e-09  3.15754706e-09  4.58977919e-01  4.58977919e-01  1.59673172e-07  1.49222032e-07  7.40000000e-01 
 7.50000000e-01  3.40486885e-09  3.40023757e-09  4.58977898e-01  3.47779923e-09  3.15754706e-09  4.58977898e-01  4.58977898e-01  1.59673143e-07  1.49221904e-07  7.50000000e-01 
 7.60000000e-01  3.40486886e-09  3.40023763e-09  4.58977921e-01  3.47779923e-09  3.15754706e-09  4.58977921e-01  4.58977921e-01  1.59673171e-07  1.49221876e-07  7.60000000e-01 
 7.70000000e-01  3.40486886e-09  3.40023757e-09  4.58977918e-01  3.47779918e-09  3.15754706e-09  4.58977918e-01  4.58977918e-01  1.59673176e-07  1.49221734e-07  7.70000000e-01 
 7.80000000e-01  3.40486880e-09  3.40023757e-09  4.58977904e-01  3.47779919e-09  3.15754706e-09  4.58977904e-01  4.58977904e-01  1.59673143e-07  1.49221492e-07  7.80000000e-01 
 7.90000000e-01  3.40486885e-09  3.40023757e-09  4.58977888e-01  3.47779918e-09  3.15754706e-09  4.58977888e-01  4.58977888e-01  1.59673115e-07  1.49221314e-07  7.90000000e-01 
 8.00000000e-01  3.40486886e-09  3.40023757e-09  4.58977914e-01  3.47779924e-09  3.15754706e-09  4.58977914e-01  4.58977914e-01  1.59673158e-07  1.49221307e-07  8.00000000e-01 
 8.10000000e-01  3.40486885e-09  3.40023757e-09  4.58977878e-01  3.47779923e-09  3.15754706e-09  4.58977878e-01  4.58977878e-01  1.59673094e-07  1.49221030e-07  8.10000000e-01 
 8.20000000e-01  3.40486885e-09  3.40023757e-09  4.58977889e-01  3.47779923e-09  3.15754706e-09  4.58977889e-01  4.58977889e-01  1.59673111e-07  1.49220995e-07  8.20000000e-01 
 8.30000000e-01  3.40486886e-09  3.40023763e-09  4.58977911e-01  3.47779923e-09  3.15754706e-09  4.58977911e-01  4.58977911e-01  1.59673157e-07  1.49221052e-07  8.30000000e-01 
 8.40000000e-01  3.40486880e-09  3.40023757e-09  4.58977894e-01  3.47779923e-09  3.15754700e-09  4.58977894e-01  4.58977894e-01  1.59673137e-07  1.49220824e-07  8.40000000e-01 
 8.50000000e-01  3.40486880e-09  3.40023757e-09  4.58977904e-01  3.47779918e-09  3.15754706e-09  4.58977904e-01  4.58977904e-01  1.59673137e-07  1.49220760e-07  8.50000000e-01 
 8.60000000e-01  3.40486886e-09  3.40023757e-09  4.58977923e-01  3.47779919e-09  3.15754700e-09  4.58977923e-01  4.58977923e-01  1.59673180e-07  1.49220739e-07  8.60000000e-01 
 8.70000000e-01  3.40486885e-09  3.40023757e-09  4.58977885e-01  3.47779918e-09  3.15754706e-09  4.58977885e-01  4.58977885e-01  1.59673111e-07  1.49220448e-07  8.70000000e-01 
 8.80000000e-01  3.40486880e-09  3.40023757e-09  4.58977891e-01  3.47779924e-09  3.15754706e-09  4.58977891e-01  4.58977891e-01  1.59673124e-07  1.49220483e-07  8.80000000e-01 
 8.90000000e-01  3.40486885e-09  3.40023763e-09  4.58977897e-01  3.47779923e-09  3.15754706e-09  4.58977897e-01  4.58977897e-01  1.59673132e-07  1.49220376e-07  8.90000000e-01 
 9.00000000e-01  3.40486885e-09  3.40023757e-09  4.58977887e-01  3.47779923e-09  3.15754700e-09  4.58977887e-01  4.58977887e-01  1.59673127e-07  1.49220234e-07  9.00000000e-01 
 9.10000000e-01  3.40486880e-09  3.40023757e-09  4.58977888e-01  3.47779923e-09  3.15754706e-09  4.58977888e-01  4.58977888e-01  1.59673122e-07  1.49220106e-07  9.10000000e-01 
 9.20000000e-01  3.40486880e-09  3.40023757e-09  4.58977891e-01  3.47779923e-09  3.15754706e-09  4.58977891e-01  4.58977891e-01  1.59673135e-07  1.49219872e-07  9.20000000e-01 
 9.30000000e-01  3.40486880e-09  3.40023757e-09  4.58977888e-01  3.47779923e-09  3.15754706e-09  4.58977888e-01  4.58977888e-01  1.59673120e-07  1.49219879e-07  9.30000000e-01 
 9.40000000e-01  3.40486886e-09  3.40023757e-09  4.58977909e-01  3.47779923e-09  3.15754706e-09  4.58977909e-01  4.58977909e-01  1.59673150e-07  1.49219723e-07  9.40000000e-01 
 9.50000000e-01  3.40486885e-09  3.40023757e-09  4.58977899e-01  3.47779923e-09  3.15754706e-09  4.58977899e-01  4.58977899e-01  1.59673136e-07  1.49219602e-07  9.50000000e-01 
 9.60000000e-01  3.40486885e-09  3.40023757e-09  4.58977895e-01  3.47779923e-09  3.15754706e-09  4.58977895e-01  4.58977895e-01  1.59673122e-07  1.49219517e-07  9.60000000e-01 
 9.70000000e-01  3.40486886e-09  3.40023757e-09  4.58977912e-01  3.47779923e-09  3.15754706e-09  4.58977912e-01  4.58977912e-01  1.59673172e-07  1.49219503e-07  9.70000000e-01 
 9.80000000e-01  3.40486885e-09  3.40023763e-09  4.58977902e-01  3.47779923e-09  3.15754706e-09  4.58977902e-01  4.58977902e-01  1.59673146e-07  1.49219275e-07  9.80000000e-01 
 9.90000000e-01  3.40486886e-09  3.40023757e-09  4.58977926e-01  3.47779923e-09  3.15754706e-09  4.58977926e-01  4.58977926e-01  1.59673182e-07  1.49219254e-07  9.90000000e-01 
 1.00000000e+00  3.40486886e-09  3.40023757e-09  4.58977905e-01  3.47779923e-09  3.15754706e-09  4.58977905e-01  4.58977905e-01  1.59673155e-07  1.49219105e-07  1.00000000e+00 
 1.01000000e+00  3.40486880e-09  3.40023763e-09  4.58977903e-01  3.47779918e-09  3.15754706e-09  4.58977903e-01  4.58977903e-01  1.59673142e-07  1.49218941e-07  1.01000000e+00 
 1.02000000e+00  3.40486880e-09  3.40023757e-09  4.58977915e-01  3.47779925e-09  3.15754700e-09  4.58977915e-01  4.58977915e-01  1.59673161e-07  1.49218920e-07  1.02000000e+00 
 1.03000000e+00  3.40486885e-09  3.40023757e-09  4.58977903e-01  3.47779923e-09  3.15754706e-09  4.58977903e-01  4.58977903e-01  1.59673151e-07  1.49218742e-07  1.03000000e+00 
 1.04000000e+00  3.40486886e-09  3.40023757e-09  4.58977910e-01  3.47779923e-09  3.15754706e-09  4.58977910e-01  4.58977910e-01  1.59673160e-07  1.49218607e-07  1.04000000e+00 
 1.05000000e+00  3.40486880e-09  3.40023757e-09  4.58977889e-01  3.47779918e-09  3.15754706e-09  4.58977889e-01  4.58977889e-01  1.59673129e-07  1.49218309e-07  1.05000000e+00 
 1.06000000e+00  3.40486886e-09  3.40023757e-09  4.58977906e-01  3.47779919e-09  3.15754706e-09  4.58977906e-01  4.58977906e-01  1.59673147e-07  1.49218451e-07  1.06000000e+00 
 1.07000000e+00  3.40486880e-09  3.40023763e-09  4.58977909e-01  3.47779924e-09  3.15754706e-09  4.58977909e-01  4.58977909e-01  1.59673158e-07  1.49218209e-07  1.07000000e+00 
 1.08000000e+00  3.40486880e-09  3.40023757e-09  4.58977898e-01  3.47779923e-09  3.15754706e-09  4.58977898e-01  4.58977898e-01  1.59673137e-07  1.49217911e-07  1.08000000e+00 
 1.09000000e+00  3.40486886e-09  3.40023757e-09  4.58977913e-01  3.47779923e-09  3.15754706e-09  4.58977913e-01  4.58977913e-01  1.59673151e-07  1.49217897e-07  1.09000000e+00 
 1.10000000e+00  3.40486880e-09  3.40023763e-09  4.58977919e-01  3.47779923e-09  3.15754706e-09  4.58977919e-01  4.58977919e-01  1.59673183e-07  1.49217840e-07  1.10000000e+00 
