 v-sweep         v(b0)           v(b1)           v(b2)           v(b3)           v(b4)           v(b5)           v(b6)           i(vbias)        i(viout)        v(vout)        
 0.00000000e+00  3.79527205e-09  4.58839657e-01  4.58839657e-01  3.36279182e-09  4.58839657e-01  4.58839657e-01  4.58839657e-01  1.59501059e-07  1.79972623e-07  0.00000000e+00 
 1.00000000e-02  3.79527203e-09  4.58839653e-01  4.58839653e-01  3.36279185e-09  4.58839653e-01  4.58839653e-01  4.58839653e-01  1.59501057e-07  1.79971968e-07  1.00000000e-02 
 2.00000000e-02  3.79527203e-09  4.58839660e-01  4.58839660e-01  3.36279185e-09  4.58839660e-01  4.58839660e-01  4.58839660e-01  1.59501063e-07  1.79971597e-07  2.00000000e-02 
 3.00000000e-02  3.79527203e-09  4.58839652e-01  4.58839652e-01  3.36279185e-09  4.58839652e-01  4.58839652e-01  4.58839652e-01  1.59501050e-07  1.79971205e-07  3.00000000e-02 
 4.00000000e-02  3.79527203e-09  4.58839658e-01  4.58839659e-01  3.36279179e-09  4.58839658e-01  4.58839658e-01  4.58839658e-01  1.59501058e-07  1.79970716e-07  4.00000000e-02 
 5.00000000e-02  3.79527203e-09  4.58839664e-01  4.58839664e-01  3.36279179e-09  4.58839664e-01  4.58839664e-01  4.58839664e-01  1.59501075e-07  1.79970379e-07  5.00000000e-02 
 6.00000000e-02  3.79527203e-09  4.58839625e-01  4.58839625e-01  3.36279179e-09  4.58839625e-01  4.58839625e-01  4.58839625e-01  1.59501011e-07  1.79969732e-07  6.00000000e-02 
 7.00000000e-02  3.79527203e-09  4.58839636e-01  4.58839636e-01  3.36279179e-09  4.58839635e-01  4.58839636e-01  4.58839635e-01  1.59501056e-07  1.79969552e-07  7.00000000e-02 
 8.00000000e-02  3.79527203e-09  4.58839637e-01  4.58839637e-01  3.36279185e-09  4.58839637e-01  4.58839637e-01  4.58839637e-01  1.59501032e-07  1.79969116e-07  8.00000000e-02 
 9.00000000e-02  3.79527208e-09  4.58839664e-01  4.58839664e-01  3.36279185e-09  4.58839664e-01  4.58839664e-01  4.58839664e-01  1.59501066e-07  1.79968911e-07  9.00000000e-02 
 1.00000000e-01  3.79527203e-09  4.58839636e-01  4.58839636e-01  3.36279185e-09  4.58839636e-01  4.58839636e-01  4.58839636e-01  1.59501025e-07  1.79968368e-07  1.00000000e-01 
 1.10000000e-01  3.79527208e-09  4.58839619e-01  4.58839619e-01  3.36279185e-09  4.58839619e-01  4.58839619e-01  4.58839619e-01  1.59501003e-07  1.79967960e-07  1.10000000e-01 
 1.20000000e-01  3.79527203e-09  4.58839651e-01  4.58839651e-01  3.36279185e-09  4.58839651e-01  4.58839651e-01  4.58839651e-01  1.59501046e-07  1.79967888e-07  1.20000000e-01 
 1.30000000e-01  3.79527208e-09  4.58839635e-01  4.58839635e-01  3.36279185e-09  4.58839635e-01  4.58839635e-01  4.58839635e-01  1.59501034e-07  1.79967375e-07  1.30000000e-01 
 1.40000000e-01  3.79527203e-09  4.58839641e-01  4.58839641e-01  3.36279179e-09  4.58839641e-01  4.58839641e-01  4.58839641e-01  1.59501053e-07  1.79967172e-07  1.40000000e-01 
 1.50000000e-01  3.79527203e-09  4.58839649e-01  4.58839649e-01  3.36279185e-09  4.58839649e-01  4.58839649e-01  4.58839649e-01  1.59501058e-07  1.79966843e-07  1.50000000e-01 
 1.60000000e-01  3.79527208e-09  4.58839642e-01  4.58839642e-01  3.36279179e-09  4.58839642e-01  4.58839642e-01  4.58839642e-01  1.59501027e-07  1.79966527e-07  1.60000000e-01 
 1.70000000e-01  3.79527203e-09  4.58839678e-01  4.58839678e-01  3.36279185e-09  4.58839678e-01  4.58839678e-01  4.58839678e-01  1.59501094e-07  1.79966456e-07  1.70000000e-01 
 1.80000000e-01  3.79527208e-09  4.58839651e-01  4.58839651e-01  3.36279185e-09  4.58839651e-01  4.58839651e-01  4.58839651e-01  1.59501062e-07  1.79966147e-07  1.80000000e-01 
 1.90000000e-01  3.79527203e-09  4.58839658e-01  4.58839658e-01  3.36279185e-09  4.58839658e-01  4.58839658e-01  4.58839658e-01  1.59501066e-07  1.79965889e-07  1.90000000e-01 
 2.00000000e-01  3.79527203e-09  4.58839671e-01  4.58839671e-01  3.36279185e-09  4.58839671e-01  4.58839671e-01  4.58839671e-01  1.59501082e-07  1.79965737e-07  2.00000000e-01 
 2.10000000e-01  3.79527203e-09  4.58839670e-01  4.58839670e-01  3.36279185e-09  4.58839670e-01  4.58839670e-01  4.58839670e-01  1.59501067e-07  1.79965555e-07  2.10000000e-01 
 2.20000000e-01  3.79527203e-09  4.58839642e-01  4.58839642e-01  3.36279185e-09  4.58839642e-01  4.58839642e-01  4.58839642e-01  1.59501029e-07  1.79965145e-07  2.20000000e-01 
 2.30000000e-01  3.79527203e-09  4.58839648e-01  4.58839648e-01  3.36279185e-09  4.58839648e-01  4.58839648e-01  4.58839648e-01  1.59501042e-07  1.79965015e-07  2.30000000e-01 
 2.40000000e-01  3.79527203e-09  4.58839633e-01  4.58839633e-01  3.36279179e-09  4.58839633e-01  4.58839633e-01  4.58839633e-01  1.59501024e-07  1.79964724e-07  2.40000000e-01 
 2.50000000e-01  3.79527208e-09  4.58839641e-01  4.58839641e-01  3.36279185e-09  4.58839641e-01  4.58839641e-01  4.58839641e-01  1.59501036e-07  1.79964475e-07  2.50000000e-01 
 2.60000000e-01  3.79527203e-09  4.58839643e-01  4.58839643e-01  3.36279185e-09  4.58839643e-01  4.58839643e-01  4.58839643e-01  1.59501048e-07  1.79964278e-07  2.60000000e-01 
 2.70000000e-01  3.79527208e-09  4.58839666e-01  4.58839666e-01  3.36279185e-09  4.58839666e-01  4.58839666e-01  4.58839666e-01  1.59501078e-07  1.79964280e-07  2.70000000e-01 
 2.80000000e-01  3.79527203e-09  4.58839658e-01  4.58839658e-01  3.36279185e-09  4.58839658e-01  4.58839658e-01  4.58839658e-01  1.59501079e-07  1.79963987e-07  2.80000000e-01 
 2.90000000e-01  3.79527203e-09  4.58839637e-01  4.58839637e-01  3.36279185e-09  4.58839636e-01  4.58839637e-01  4.58839636e-01  1.59501044e-07  1.79963642e-07  2.90000000e-01 
 3.00000000e-01  3.79527203e-09  4.58839662e-01  4.58839662e-01  3.36279185e-09  4.58839662e-01  4.58839662e-01  4.58839662e-01  1.59501055e-07  1.79963575e-07  3.00000000e-01 
 3.10000000e-01  3.79527203e-09  4.58839625e-01  4.58839625e-01  3.36279185e-09  4.58839625e-01  4.58839625e-01  4.58839625e-01  1.59501016e-07  1.79963248e-07  3.10000000e-01 
 3.20000000e-01  3.79527203e-09  4.58839660e-01  4.58839660e-01  3.36279185e-09  4.58839660e-01  4.58839660e-01  4.58839660e-01  1.59501060e-07  1.79963159e-07  3.20000000e-01 
 3.30000000e-01  3.79527208e-09  4.58839644e-01  4.58839644e-01  3.36279185e-09  4.58839644e-01  4.58839644e-01  4.58839644e-01  1.59501036e-07  1.79963020e-07  3.30000000e-01 
 3.40000000e-01  3.79527203e-09  4.58839640e-01  4.58839641e-01  3.36279185e-09  4.58839640e-01  4.58839641e-01  4.58839640e-01  1.59501037e-07  1.79962761e-07  3.40000000e-01 
 3.50000000e-01  3.79527203e-09  4.58839667e-01  4.58839667e-01  3.36279185e-09  4.58839667e-01  4.58839667e-01  4.58839667e-01  1.59501082e-07  1.79962846e-07  3.50000000e-01 
 3.60000000e-01  3.79527203e-09  4.58839634e-01  4.58839635e-01  3.36279185e-09  4.58839634e-01  4.58839635e-01  4.58839634e-01  1.59501037e-07  1.79962434e-07  3.60000000e-01 
 3.70000000e-01  3.79527203e-09  4.58839659e-01  4.58839659e-01  3.36279185e-09  4.58839659e-01  4.58839659e-01  4.58839659e-01  1.59501069e-07  1.79962285e-07  3.70000000e-01 
 3.80000000e-01  3.79527202e-09  4.58839620e-01  4.58839620e-01  3.36279179e-09  4.58839620e-01  4.58839620e-01  4.58839620e-01  1.59501012e-07  1.79962022e-07  3.80000000e-01 
 3.90000000e-01  3.79527203e-09  4.58839648e-01  4.58839649e-01  3.36279179e-09  4.58839648e-01  4.58839648e-01  4.58839648e-01  1.59501040e-07  1.79961919e-07  3.90000000e-01 
 4.00000000e-01  3.79527203e-09  4.58839668e-01  4.58839668e-01  3.36279185e-09  4.58839668e-01  4.58839668e-01  4.58839668e-01  1.59501052e-07  1.79961848e-07  4.00000000e-01 
 4.10000000e-01  3.79527203e-09  4.58839638e-01  4.58839638e-01  3.36279179e-09  4.58839638e-01  4.58839638e-01  4.58839638e-01  1.59501035e-07  1.79961674e-07  4.10000000e-01 
 4.20000000e-01  3.79527203e-09  4.58839646e-01  4.58839646e-01  3.36279185e-09  4.58839646e-01  4.58839646e-01  4.58839646e-01  1.59501043e-07  1.79961582e-07  4.20000000e-01 
 4.30000000e-01  3.79527208e-09  4.58839654e-01  4.58839654e-01  3.36279185e-09  4.58839654e-01  4.58839654e-01  4.58839654e-01  1.59501063e-07  1.79961383e-07  4.30000000e-01 
 4.40000000e-01  3.79527203e-09  4.58839649e-01  4.58839650e-01  3.36279185e-09  4.58839649e-01  4.58839649e-01  4.58839649e-01  1.59501048e-07  1.79961177e-07  4.40000000e-01 
 4.50000000e-01  3.79527203e-09  4.58839641e-01  4.58839641e-01  3.36279179e-09  4.58839641e-01  4.58839641e-01  4.58839641e-01  1.59501035e-07  1.79960978e-07  4.50000000e-01 
 4.60000000e-01  3.79527203e-09  4.58839640e-01  4.58839640e-01  3.36279185e-09  4.58839640e-01  4.58839640e-01  4.58839640e-01  1.59501050e-07  1.79960853e-07  4.60000000e-01 
 4.70000000e-01  3.79527203e-09  4.58839664e-01  4.58839665e-01  3.36279185e-09  4.58839664e-01  4.58839665e-01  4.58839664e-01  1.59501073e-07  1.79960892e-07  4.70000000e-01 
 4.80000000e-01  3.79527203e-09  4.58839647e-01  4.58839647e-01  3.36279185e-09  4.58839647e-01  4.58839647e-01  4.58839647e-01  1.59501036e-07  1.79960569e-07  4.80000000e-01 
 4.90000000e-01  3.79527203e-09  4.58839653e-01  4.58839653e-01  3.36279185e-09  4.58839652e-01  4.58839653e-01  4.58839653e-01  1.59501051e-07  1.79960427e-07  4.90000000e-01 
 5.00000000e-01  3.79527208e-09  4.58839640e-01  4.58839640e-01  3.36279185e-09  4.58839640e-01  4.58839640e-01  4.58839640e-01  1.59501031e-07  1.79960189e-07  5.00000000e-01 
 5.10000000e-01  3.79527208e-09  4.58839639e-01  4.58839640e-01  3.36279185e-09  4.58839639e-01  4.58839639e-01  4.58839639e-01  1.59501049e-07  1.79960068e-07  5.10000000e-01 
 5.20000000e-01  3.79527203e-09  4.58839649e-01  4.58839649e-01  3.36279185e-09  4.58839649e-01  4.58839649e-01  4.58839649e-01  1.59501058e-07  1.79959937e-07  5.20000000e-01 
 5.30000000e-01  3.79527203e-09  4.58839665e-01  4.58839665e-01  3.36279185e-09  4.58839665e-01  4.58839665e-01  4.58839665e-01  1.59501080e-07  1.79959798e-07  5.30000000e-01 
 5.40000000e-01  3.79527203e-09  4.58839661e-01  4.58839661e-01  3.36279185e-09  4.58839661e-01  4.58839661e-01  4.58839661e-01  1.59501059e-07  1.79959699e-07  5.40000000e-01 
 5.50000000e-01  3.79527203e-09  4.58839642e-01  4.58839642e-01  3.36279185e-09  4.58839642e-01  4.58839642e-01  4.58839642e-01  1.59501045e-07  1.79959443e-07  5.50000000e-01 
 5.60000000e-01  3.79527208e-09  4.58839666e-01  4.58839666e-01  3.36279185e-09  4.58839666e-01  4.58839666e-01  4.58839666e-01  1.59501086e-07  1.79959446e-07  5.60000000e-01 
 5.70000000e-01  3.79527208e-09  4.58839647e-01  4.58839647e-01  3.36279185e-09  4.58839647e-01  4.58839647e-01  4.58839647e-01  1.59501036e-07  1.79959130e-07  5.70000000e-01 
 5.80000000e-01  3.79527203e-09  4.58839641e-01  4.58839641e-01  3.36279185e-09  4.58839641e-01  4.58839641e-01  4.58839641e-01  1.59501039e-07  1.79958924e-07  5.80000000e-01 
 5.90000000e-01  3.79527203e-09  4.58839653e-01  4.58839653e-01  3.36279185e-09  4.58839653e-01  4.58839653e-01  4.58839653e-01  1.59501058e-07  1.79958988e-07  5.90000000e-01 
 6.00000000e-01  3.79527203e-09  4.58839669e-01  4.58839669e-01  3.36279179e-09  4.58839669e-01  4.58839669e-01  4.58839669e-01  1.59501087e-07  1.79958789e-07  6.00000000e-01 
 6.10000000e-01  3.79527203e-09  4.58839657e-01  4.58839657e-01  3.36279185e-09  4.58839657e-01  4.58839657e-01  4.58839657e-01  1.59501047e-07  1.79958640e-07  6.10000000e-01 
 6.20000000e-01  3.79527203e-09  4.58839638e-01  4.58839638e-01  3.36279185e-09  4.58839638e-01  4.58839638e-01  4.58839638e-01  1.59501032e-07  1.79958391e-07  6.20000000e-01 
 6.30000000e-01  3.79527203e-09  4.58839651e-01  4.58839651e-01  3.36279179e-09  4.58839651e-01  4.58839651e-01  4.58839651e-01  1.59501058e-07  1.79958157e-07  6.30000000e-01 
 6.40000000e-01  3.79527203e-09  4.58839628e-01  4.58839628e-01  3.36279185e-09  4.58839628e-01  4.58839628e-01  4.58839628e-01  1.59501020e-07  1.79958114e-07  6.40000000e-01 
 6.50000000e-01  3.79527203e-09  4.58839624e-01  4.58839624e-01  3.36279179e-09  4.58839623e-01  4.58839624e-01  4.58839623e-01  1.59501019e-07  1.79957908e-07  6.50000000e-01 
 6.60000000e-01  3.79527203e-09  4.58839674e-01  4.58839674e-01  3.36279185e-09  4.58839674e-01  4.58839674e-01  4.58839674e-01  1.59501081e-07  1.79958001e-07  6.60000000e-01 
 6.70000000e-01  3.79527203e-09  4.58839665e-01  4.58839665e-01  3.36279185e-09  4.58839665e-01  4.58839665e-01  4.58839665e-01  1.59501072e-07  1.79957780e-07  6.70000000e-01 
 6.80000000e-01  3.79527208e-09  4.58839663e-01  4.58839663e-01  3.36279179e-09  4.58839663e-01  4.58839663e-01  4.58839663e-01  1.59501058e-07  1.79957631e-07  6.80000000e-01 
 6.90000000e-01  3.79527203e-09  4.58839653e-01  4.58839653e-01  3.36279185e-09  4.58839653e-01  4.58839653e-01  4.58839653e-01  1.59501064e-07  1.79957418e-07  6.90000000e-01 
 7.00000000e-01  3.79527203e-09  4.58839672e-01  4.58839672e-01  3.36279185e-09  4.58839672e-01  4.58839672e-01  4.58839672e-01  1.59501087e-07  1.79957233e-07  7.00000000e-01 
 7.10000000e-01  3.79527203e-09  4.58839634e-01  4.58839634e-01  3.36279185e-09  4.58839634e-01  4.58839634e-01  4.58839634e-01  1.59501025e-07  1.79956956e-07  7.10000000e-01 
 7.20000000e-01  3.79527203e-09  4.58839653e-01  4.58839654e-01  3.36279185e-09  4.58839653e-01  4.58839653e-01  4.58839653e-01  1.59501052e-07  1.79956984e-07  7.20000000e-01 
 7.30000000e-01  3.79527203e-09  4.58839658e-01  4.58839658e-01  3.36279185e-09  4.58839658e-01  4.58839658e-01  4.58839658e-01  1.59501053e-07  1.79956778e-07  7.30000000e-01 
 7.40000000e-01  3.79527208e-09  4.58839643e-01  4.58839643e-01  3.36279179e-09  4.58839643e-01  4.58839643e-01  4.58839643e-01  1.59501048e-07  1.79956587e-07  7.40000000e-01 
 7.50000000e-01  3.79527203e-09  4.58839657e-01  4.58839657e-01  3.36279185e-09  4.58839657e-01  4.58839657e-01  4.58839657e-01  1.59501054e-07  1.79956480e-07  7.50000000e-01 
 7.60000000e-01  3.79527208e-09  4.58839651e-01  4.58839651e-01  3.36279185e-09  4.58839651e-01  4.58839651e-01  4.58839651e-01  1.59501048e-07  1.79956203e-07  7.60000000e-01 
 7.70000000e-01  3.79527203e-09  4.58839627e-01  4.58839627e-01  3.36279185e-09  4.58839627e-01  4.58839627e-01  4.58839627e-01  1.59501016e-07  1.79956068e-07  7.70000000e-01 
 7.80000000e-01  3.79527203e-09  4.58839654e-01  4.58839654e-01  3.36279185e-09  4.58839654e-01  4.58839654e-01  4.58839654e-01  1.59501049e-07  1.79955926e-07  7.80000000e-01 
 7.90000000e-01  3.79527203e-09  4.58839645e-01  4.58839645e-01  3.36279179e-09  4.58839645e-01  4.58839645e-01  4.58839645e-01  1.59501048e-07  1.79955826e-07  7.90000000e-01 
 8.00000000e-01  3.79527203e-09  4.58839649e-01  4.58839649e-01  3.36279185e-09  4.58839649e-01  4.58839649e-01  4.58839649e-01  1.59501063e-07  1.79955585e-07  8.00000000e-01 
 8.10000000e-01  3.79527208e-09  4.58839642e-01  4.58839642e-01  3.36279185e-09  4.58839642e-01  4.58839642e-01  4.58839642e-01  1.59501042e-07  1.79955506e-07  8.10000000e-01 
 8.20000000e-01  3.79527203e-09  4.58839660e-01  4.58839660e-01  3.36279179e-09  4.58839660e-01  4.58839660e-01  4.58839660e-01  1.59501070e-07  1.79955315e-07  8.20000000e-01 
 8.30000000e-01  3.79527203e-09  4.58839668e-01  4.58839668e-01  3.36279185e-09  4.58839668e-01  4.58839668e-01  4.58839668e-01  1.59501072e-07  1.79955173e-07  8.30000000e-01 
 8.40000000e-01  3.79527202e-09  4.58839619e-01  4.58839619e-01  3.36279185e-09  4.58839619e-01  4.58839619e-01  4.58839619e-01  1.59501006e-07  1.79954860e-07  8.40000000e-01 
 8.50000000e-01  3.79527208e-09  4.58839631e-01  4.58839631e-01  3.36279185e-09  4.58839631e-01  4.58839631e-01  4.58839631e-01  1.59501020e-07  1.79954689e-07  8.50000000e-01 
 8.60000000e-01  3.79527203e-09  4.58839652e-01  4.58839652e-01  3.36279185e-09  4.58839652e-01  4.58839652e-01  4.58839652e-01  1.59501052e-07  1.79954590e-07  8.60000000e-01 
 8.70000000e-01  3.79527203e-09  4.58839644e-01  4.58839644e-01  3.36279179e-09  4.58839644e-01  4.58839644e-01  4.58839644e-01  1.59501041e-07  1.79954405e-07  8.70000000e-01 
 8.80000000e-01  3.79527203e-09  4.58839666e-01  4.58839666e-01  3.36279185e-09  4.58839666e-01  4.58839666e-01  4.58839666e-01  1.59501083e-07  1.79954235e-07  8.80000000e-01 
 8.90000000e-01  3.79527203e-09  4.58839653e-01  4.58839653e-01  3.36279185e-09  4.58839653e-01  4.58839653e-01  4.58839653e-01  1.59501057e-07  1.79954178e-07  8.90000000e-01 
 9.00000000e-01  3.79527208e-09  4.58839651e-01  4.58839651e-01  3.36279185e-09  4.58839651e-01  4.58839651e-01  4.58839651e-01  1.59501055e-07  1.79953929e-07  9.00000000e-01 
 9.10000000e-01  3.79527203e-09  4.58839669e-01  4.58839669e-01  3.36279185e-09  4.58839669e-01  4.58839669e-01  4.58839669e-01  1.59501091e-07  1.79953837e-07  9.10000000e-01 
 9.20000000e-01  3.79527203e-09  4.58839666e-01  4.58839666e-01  3.36279185e-09  4.58839666e-01  4.58839666e-01  4.58839666e-01  1.59501076e-07  1.79953652e-07  9.20000000e-01 
 9.30000000e-01  3.79527203e-09  4.58839633e-01  4.58839634e-01  3.36279179e-09  4.58839633e-01  4.58839633e-01  4.58839633e-01  1.59501023e-07  1.79953382e-07  9.30000000e-01 
 9.40000000e-01  3.79527203e-09  4.58839642e-01  4.58839642e-01  3.36279185e-09  4.58839642e-01  4.58839642e-01  4.58839642e-01  1.59501033e-07  1.79953297e-07  9.40000000e-01 
 9.50000000e-01  3.79527203e-09  4.58839625e-01  4.58839625e-01  3.36279185e-09  4.58839625e-01  4.58839625e-01  4.58839625e-01  1.59501032e-07  1.79952828e-07  9.50000000e-01 
 9.60000000e-01  3.79527203e-09  4.58839644e-01  4.58839644e-01  3.36279185e-09  4.58839644e-01  4.58839644e-01  4.58839644e-01  1.59501047e-07  1.79952792e-07  9.60000000e-01 
 9.70000000e-01  3.79527203e-09  4.58839663e-01  4.58839663e-01  3.36279185e-09  4.58839663e-01  4.58839663e-01  4.58839663e-01  1.59501076e-07  1.79952764e-07  9.70000000e-01 
 9.80000000e-01  3.79527203e-09  4.58839626e-01  4.58839626e-01  3.36279185e-09  4.58839626e-01  4.58839626e-01  4.58839626e-01  1.59501004e-07  1.79952359e-07  9.80000000e-01 
 9.90000000e-01  3.79527203e-09  4.58839665e-01  4.58839665e-01  3.36279179e-09  4.58839665e-01  4.58839665e-01  4.58839665e-01  1.59501081e-07  1.79952487e-07  9.90000000e-01 
 1.00000000e+00  3.79527202e-09  4.58839620e-01  4.58839620e-01  3.36279185e-09  4.58839620e-01  4.58839620e-01  4.58839620e-01  1.59501007e-07  1.79951904e-07  1.00000000e+00 
 1.01000000e+00  3.79527208e-09  4.58839656e-01  4.58839656e-01  3.36279179e-09  4.58839656e-01  4.58839656e-01  4.58839656e-01  1.59501056e-07  1.79952046e-07  1.01000000e+00 
 1.02000000e+00  3.79527203e-09  4.58839649e-01  4.58839649e-01  3.36279179e-09  4.58839649e-01  4.58839649e-01  4.58839649e-01  1.59501046e-07  1.79951833e-07  1.02000000e+00 
 1.03000000e+00  3.79527203e-09  4.58839635e-01  4.58839635e-01  3.36279185e-09  4.58839635e-01  4.58839635e-01  4.58839635e-01  1.59501033e-07  1.79951407e-07  1.03000000e+00 
 1.04000000e+00  3.79527203e-09  4.58839655e-01  4.58839655e-01  3.36279185e-09  4.58839655e-01  4.58839655e-01  4.58839655e-01  1.59501066e-07  1.79951421e-07  1.04000000e+00 
 1.05000000e+00  3.79527203e-09  4.58839660e-01  4.58839660e-01  3.36279185e-09  4.58839660e-01  4.58839660e-01  4.58839660e-01  1.59501053e-07  1.79951236e-07  1.05000000e+00 
 1.06000000e+00  3.79527203e-09  4.58839657e-01  4.58839657e-01  3.36279185e-09  4.58839657e-01  4.58839657e-01  4.58839657e-01  1.59501055e-07  1.79951023e-07  1.06000000e+00 
 1.07000000e+00  3.79527203e-09  4.58839643e-01  4.58839643e-01  3.36279185e-09  4.58839642e-01  4.58839643e-01  4.58839643e-01  1.59501039e-07  1.79950653e-07  1.07000000e+00 
 1.08000000e+00  3.79527208e-09  4.58839659e-01  4.58839659e-01  3.36279179e-09  4.58839658e-01  4.58839659e-01  4.58839659e-01  1.59501074e-07  1.79950433e-07  1.08000000e+00 
 1.09000000e+00  3.79527208e-09  4.58839659e-01  4.58839660e-01  3.36279185e-09  4.58839659e-01  4.58839659e-01  4.58839659e-01  1.59501060e-07  1.79950398e-07  1.09000000e+00 
 1.10000000e+00  3.79527203e-09  4.58839666e-01  4.58839666e-01  3.36279185e-09  4.58839666e-01  4.58839666e-01  4.58839666e-01  1.59501085e-07  1.79950113e-07  1.10000000e+00 
