 v-sweep         v(b0)           v(b1)           v(b2)           v(b3)           v(b4)           v(b5)           v(b6)           i(vbias)        i(viout)        v(vout)        
 0.00000000e+00  4.57904213e-01  4.57904212e-01  4.57904213e-01  3.57021845e-09  4.57904212e-01  3.26427688e-09  3.33708855e-09  1.56296593e-07  3.40060203e-08  0.00000000e+00 
 1.00000000e-02  4.57904233e-01  4.57904232e-01  4.57904233e-01  3.57021837e-09  4.57904232e-01  3.26427686e-09  3.33708854e-09  1.56296632e-07  3.40056859e-08  1.00000000e-02 
 2.00000000e-02  4.57904210e-01  4.57904210e-01  4.57904210e-01  3.57021842e-09  4.57904210e-01  3.26427686e-09  3.33708859e-09  1.56296593e-07  3.40052666e-08  2.00000000e-02 
 3.00000000e-02  4.57904218e-01  4.57904218e-01  4.57904218e-01  3.57021837e-09  4.57904218e-01  3.26427686e-09  3.33708859e-09  1.56296620e-07  3.40050090e-08  3.00000000e-02 
 4.00000000e-02  4.57904234e-01  4.57904234e-01  4.57904234e-01  3.57021843e-09  4.57904234e-01  3.26427686e-09  3.33708859e-09  1.56296640e-07  3.40045951e-08  4.00000000e-02 
 5.00000000e-02  4.57904219e-01  4.57904219e-01  4.57904219e-01  3.57021842e-09  4.57904219e-01  3.26427686e-09  3.33708859e-09  1.56296612e-07  3.40042425e-08  5.00000000e-02 
 6.00000000e-02  4.57904214e-01  4.57904214e-01  4.57904214e-01  3.57021842e-09  4.57904213e-01  3.26427686e-09  3.33708854e-09  1.56296598e-07  3.40037762e-08  6.00000000e-02 
 7.00000000e-02  4.57904220e-01  4.57904220e-01  4.57904220e-01  3.57021842e-09  4.57904220e-01  3.26427686e-09  3.33708854e-09  1.56296611e-07  3.40037216e-08  7.00000000e-02 
 8.00000000e-02  4.57904199e-01  4.57904199e-01  4.57904199e-01  3.57021837e-09  4.57904199e-01  3.26427686e-09  3.33708859e-09  1.56296575e-07  3.40032571e-08  8.00000000e-02 
 9.00000000e-02  4.57904237e-01  4.57904237e-01  4.57904237e-01  3.57021843e-09  4.57904237e-01  3.26427686e-09  3.33708859e-09  1.56296653e-07  3.40029800e-08  9.00000000e-02 
 1.00000000e-01  4.57904220e-01  4.57904220e-01  4.57904220e-01  3.57021837e-09  4.57904220e-01  3.26427686e-09  3.33708859e-09  1.56296596e-07  3.40029169e-08  1.00000000e-01 
 1.10000000e-01  4.57904229e-01  4.57904229e-01  4.57904229e-01  3.57021837e-09  4.57904229e-01  3.26427686e-09  3.33708859e-09  1.56296623e-07  3.40025332e-08  1.10000000e-01 
 1.20000000e-01  4.57904216e-01  4.57904216e-01  4.57904216e-01  3.57021842e-09  4.57904216e-01  3.26427686e-09  3.33708859e-09  1.56296605e-07  3.40023183e-08  1.20000000e-01 
 1.30000000e-01  4.57904213e-01  4.57904213e-01  4.57904213e-01  3.57021842e-09  4.57904213e-01  3.26427686e-09  3.33708859e-09  1.56296594e-07  3.40020527e-08  1.30000000e-01 
 1.40000000e-01  4.57904231e-01  4.57904231e-01  4.57904231e-01  3.57021837e-09  4.57904231e-01  3.26427686e-09  3.33708854e-09  1.56296633e-07  3.40019426e-08  1.40000000e-01 
 1.50000000e-01  4.57904211e-01  4.57904211e-01  4.57904211e-01  3.57021837e-09  4.57904211e-01  3.26427686e-09  3.33708854e-09  1.56296603e-07  3.40016939e-08  1.50000000e-01 
 1.60000000e-01  4.57904252e-01  4.57904252e-01  4.57904252e-01  3.57021837e-09  4.57904251e-01  3.26427686e-09  3.33708859e-09  1.56296659e-07  3.40015216e-08  1.60000000e-01 
 1.70000000e-01  4.57904178e-01  4.57904178e-01  4.57904178e-01  3.57021842e-09  4.57904177e-01  3.26427686e-09  3.33708853e-09  1.56296544e-07  3.40012321e-08  1.70000000e-01 
 1.80000000e-01  4.57904225e-01  4.57904225e-01  4.57904225e-01  3.57021842e-09  4.57904225e-01  3.26427686e-09  3.33708854e-09  1.56296626e-07  3.40011912e-08  1.80000000e-01 
 1.90000000e-01  4.57904206e-01  4.57904206e-01  4.57904206e-01  3.57021837e-09  4.57904206e-01  3.26427686e-09  3.33708859e-09  1.56296582e-07  3.40010686e-08  1.90000000e-01 
 2.00000000e-01  4.57904209e-01  4.57904209e-01  4.57904209e-01  3.57021837e-09  4.57904209e-01  3.26427686e-09  3.33708854e-09  1.56296603e-07  3.40008857e-08  2.00000000e-01 
 2.10000000e-01  4.57904190e-01  4.57904190e-01  4.57904190e-01  3.57021837e-09  4.57904190e-01  3.26427686e-09  3.33708859e-09  1.56296553e-07  3.40006050e-08  2.10000000e-01 
 2.20000000e-01  4.57904247e-01  4.57904247e-01  4.57904247e-01  3.57021843e-09  4.57904247e-01  3.26427686e-09  3.33708859e-09  1.56296648e-07  3.40005020e-08  2.20000000e-01 
 2.30000000e-01  4.57904224e-01  4.57904224e-01  4.57904224e-01  3.57021842e-09  4.57904224e-01  3.26427686e-09  3.33708859e-09  1.56296613e-07  3.40004274e-08  2.30000000e-01 
 2.40000000e-01  4.57904215e-01  4.57904215e-01  4.57904215e-01  3.57021837e-09  4.57904215e-01  3.26427686e-09  3.33708859e-09  1.56296604e-07  3.40002728e-08  2.40000000e-01 
 2.50000000e-01  4.57904234e-01  4.57904234e-01  4.57904234e-01  3.57021843e-09  4.57904234e-01  3.26427686e-09  3.33708859e-09  1.56296627e-07  3.40002604e-08  2.50000000e-01 
 2.60000000e-01  4.57904223e-01  4.57904223e-01  4.57904223e-01  3.57021837e-09  4.57904223e-01  3.26427692e-09  3.33708854e-09  1.56296613e-07  3.40000099e-08  2.60000000e-01 
 2.70000000e-01  4.57904201e-01  4.57904201e-01  4.57904201e-01  3.57021842e-09  4.57904201e-01  3.26427686e-09  3.33708859e-09  1.56296585e-07  3.39998891e-08  2.70000000e-01 
 2.80000000e-01  4.57904235e-01  4.57904235e-01  4.57904235e-01  3.57021843e-09  4.57904235e-01  3.26427686e-09  3.33708859e-09  1.56296636e-07  3.39998731e-08  2.80000000e-01 
 2.90000000e-01  4.57904215e-01  4.57904215e-01  4.57904215e-01  3.57021837e-09  4.57904215e-01  3.26427686e-09  3.33708859e-09  1.56296583e-07  3.39998039e-08  2.90000000e-01 
 3.00000000e-01  4.57904245e-01  4.57904245e-01  4.57904245e-01  3.57021837e-09  4.57904245e-01  3.26427686e-09  3.33708859e-09  1.56296644e-07  3.39995303e-08  3.00000000e-01 
 3.10000000e-01  4.57904236e-01  4.57904236e-01  4.57904236e-01  3.57021837e-09  4.57904236e-01  3.26427686e-09  3.33708859e-09  1.56296632e-07  3.39995658e-08  3.10000000e-01 
 3.20000000e-01  4.57904235e-01  4.57904235e-01  4.57904235e-01  3.57021843e-09  4.57904235e-01  3.26427686e-09  3.33708854e-09  1.56296633e-07  3.39994628e-08  3.20000000e-01 
 3.30000000e-01  4.57904231e-01  4.57904231e-01  4.57904231e-01  3.57021837e-09  4.57904231e-01  3.26427686e-09  3.33708854e-09  1.56296624e-07  3.39993775e-08  3.30000000e-01 
 3.40000000e-01  4.57904227e-01  4.57904227e-01  4.57904227e-01  3.57021842e-09  4.57904227e-01  3.26427686e-09  3.33708854e-09  1.56296629e-07  3.39992567e-08  3.40000000e-01 
 3.50000000e-01  4.57904213e-01  4.57904213e-01  4.57904213e-01  3.57021837e-09  4.57904213e-01  3.26427686e-09  3.33708859e-09  1.56296607e-07  3.39991324e-08  3.50000000e-01 
 3.60000000e-01  4.57904245e-01  4.57904245e-01  4.57904245e-01  3.57021843e-09  4.57904245e-01  3.26427686e-09  3.33708854e-09  1.56296652e-07  3.39990791e-08  3.60000000e-01 
 3.70000000e-01  4.57904244e-01  4.57904243e-01  4.57904244e-01  3.57021837e-09  4.57904243e-01  3.26427686e-09  3.33708859e-09  1.56296632e-07  3.39990613e-08  3.70000000e-01 
 3.80000000e-01  4.57904227e-01  4.57904227e-01  4.57904227e-01  3.57021842e-09  4.57904227e-01  3.26427686e-09  3.33708854e-09  1.56296633e-07  3.39989619e-08  3.80000000e-01 
 3.90000000e-01  4.57904225e-01  4.57904225e-01  4.57904225e-01  3.57021842e-09  4.57904224e-01  3.26427686e-09  3.33708859e-09  1.56296616e-07  3.39989299e-08  3.90000000e-01 
 4.00000000e-01  4.57904212e-01  4.57904212e-01  4.57904212e-01  3.57021837e-09  4.57904212e-01  3.26427686e-09  3.33708859e-09  1.56296610e-07  3.39987771e-08  4.00000000e-01 
 4.10000000e-01  4.57904210e-01  4.57904210e-01  4.57904210e-01  3.57021837e-09  4.57904210e-01  3.26427686e-09  3.33708859e-09  1.56296599e-07  3.39985071e-08  4.10000000e-01 
 4.20000000e-01  4.57904225e-01  4.57904225e-01  4.57904225e-01  3.57021837e-09  4.57904225e-01  3.26427686e-09  3.33708859e-09  1.56296618e-07  3.39986705e-08  4.20000000e-01 
 4.30000000e-01  4.57904203e-01  4.57904203e-01  4.57904203e-01  3.57021837e-09  4.57904203e-01  3.26427686e-09  3.33708853e-09  1.56296588e-07  3.39985107e-08  4.30000000e-01 
 4.40000000e-01  4.57904233e-01  4.57904233e-01  4.57904233e-01  3.57021843e-09  4.57904233e-01  3.26427686e-09  3.33708859e-09  1.56296638e-07  3.39985569e-08  4.40000000e-01 
 4.50000000e-01  4.57904215e-01  4.57904215e-01  4.57904215e-01  3.57021837e-09  4.57904215e-01  3.26427686e-09  3.33708859e-09  1.56296604e-07  3.39983544e-08  4.50000000e-01 
 4.60000000e-01  4.57904216e-01  4.57904216e-01  4.57904216e-01  3.57021837e-09  4.57904216e-01  3.26427686e-09  3.33708854e-09  1.56296603e-07  3.39983046e-08  4.60000000e-01 
 4.70000000e-01  4.57904188e-01  4.57904188e-01  4.57904188e-01  3.57021842e-09  4.57904188e-01  3.26427686e-09  3.33708853e-09  1.56296571e-07  3.39982726e-08  4.70000000e-01 
 4.80000000e-01  4.57904230e-01  4.57904230e-01  4.57904230e-01  3.57021842e-09  4.57904230e-01  3.26427686e-09  3.33708859e-09  1.56296630e-07  3.39983721e-08  4.80000000e-01 
 4.90000000e-01  4.57904222e-01  4.57904222e-01  4.57904222e-01  3.57021842e-09  4.57904222e-01  3.26427686e-09  3.33708854e-09  1.56296605e-07  3.39981696e-08  4.90000000e-01 
 5.00000000e-01  4.57904218e-01  4.57904218e-01  4.57904218e-01  3.57021837e-09  4.57904217e-01  3.26427686e-09  3.33708859e-09  1.56296608e-07  3.39980346e-08  5.00000000e-01 
 5.10000000e-01  4.57904219e-01  4.57904219e-01  4.57904219e-01  3.57021837e-09  4.57904219e-01  3.26427686e-09  3.33708854e-09  1.56296609e-07  3.39980240e-08  5.10000000e-01 
 5.20000000e-01  4.57904237e-01  4.57904237e-01  4.57904237e-01  3.57021843e-09  4.57904237e-01  3.26427686e-09  3.33708859e-09  1.56296625e-07  3.39978747e-08  5.20000000e-01 
 5.30000000e-01  4.57904201e-01  4.57904201e-01  4.57904201e-01  3.57021837e-09  4.57904201e-01  3.26427686e-09  3.33708859e-09  1.56296592e-07  3.39978783e-08  5.30000000e-01 
 5.40000000e-01  4.57904220e-01  4.57904220e-01  4.57904220e-01  3.57021842e-09  4.57904220e-01  3.26427686e-09  3.33708859e-09  1.56296628e-07  3.39978854e-08  5.40000000e-01 
 5.50000000e-01  4.57904206e-01  4.57904205e-01  4.57904206e-01  3.57021842e-09  4.57904205e-01  3.26427686e-09  3.33708859e-09  1.56296580e-07  3.39977788e-08  5.50000000e-01 
 5.60000000e-01  4.57904214e-01  4.57904214e-01  4.57904214e-01  3.57021842e-09  4.57904213e-01  3.26427686e-09  3.33708854e-09  1.56296601e-07  3.39977753e-08  5.60000000e-01 
 5.70000000e-01  4.57904213e-01  4.57904213e-01  4.57904213e-01  3.57021842e-09  4.57904213e-01  3.26427686e-09  3.33708859e-09  1.56296609e-07  3.39976687e-08  5.70000000e-01 
 5.80000000e-01  4.57904245e-01  4.57904244e-01  4.57904245e-01  3.57021843e-09  4.57904244e-01  3.26427686e-09  3.33708859e-09  1.56296647e-07  3.39976225e-08  5.80000000e-01 
 5.90000000e-01  4.57904214e-01  4.57904214e-01  4.57904214e-01  3.57021842e-09  4.57904213e-01  3.26427686e-09  3.33708859e-09  1.56296593e-07  3.39976012e-08  5.90000000e-01 
 6.00000000e-01  4.57904227e-01  4.57904227e-01  4.57904227e-01  3.57021842e-09  4.57904227e-01  3.26427686e-09  3.33708854e-09  1.56296628e-07  3.39975159e-08  6.00000000e-01 
 6.10000000e-01  4.57904223e-01  4.57904223e-01  4.57904223e-01  3.57021842e-09  4.57904223e-01  3.26427686e-09  3.33708854e-09  1.56296609e-07  3.39973738e-08  6.10000000e-01 
 6.20000000e-01  4.57904215e-01  4.57904214e-01  4.57904215e-01  3.57021842e-09  4.57904214e-01  3.26427686e-09  3.33708859e-09  1.56296604e-07  3.39973525e-08  6.20000000e-01 
 6.30000000e-01  4.57904217e-01  4.57904216e-01  4.57904217e-01  3.57021842e-09  4.57904216e-01  3.26427686e-09  3.33708859e-09  1.56296610e-07  3.39973809e-08  6.30000000e-01 
 6.40000000e-01  4.57904197e-01  4.57904197e-01  4.57904197e-01  3.57021837e-09  4.57904197e-01  3.26427686e-09  3.33708853e-09  1.56296569e-07  3.39973454e-08  6.40000000e-01 
 6.50000000e-01  4.57904241e-01  4.57904241e-01  4.57904241e-01  3.57021837e-09  4.57904241e-01  3.26427686e-09  3.33708859e-09  1.56296634e-07  3.39972956e-08  6.50000000e-01 
 6.60000000e-01  4.57904200e-01  4.57904200e-01  4.57904200e-01  3.57021842e-09  4.57904200e-01  3.26427686e-09  3.33708859e-09  1.56296589e-07  3.39971109e-08  6.60000000e-01 
 6.70000000e-01  4.57904225e-01  4.57904225e-01  4.57904225e-01  3.57021842e-09  4.57904224e-01  3.26427686e-09  3.33708859e-09  1.56296624e-07  3.39970896e-08  6.70000000e-01 
 6.80000000e-01  4.57904223e-01  4.57904223e-01  4.57904223e-01  3.57021842e-09  4.57904223e-01  3.26427686e-09  3.33708854e-09  1.56296614e-07  3.39970043e-08  6.80000000e-01 
 6.90000000e-01  4.57904235e-01  4.57904235e-01  4.57904235e-01  3.57021837e-09  4.57904235e-01  3.26427686e-09  3.33708854e-09  1.56296641e-07  3.39970612e-08  6.90000000e-01 
 7.00000000e-01  4.57904216e-01  4.57904216e-01  4.57904216e-01  3.57021842e-09  4.57904216e-01  3.26427686e-09  3.33708854e-09  1.56296607e-07  3.39968338e-08  7.00000000e-01 
 7.10000000e-01  4.57904256e-01  4.57904256e-01  4.57904256e-01  3.57021843e-09  4.57904256e-01  3.26427692e-09  3.33708859e-09  1.56296669e-07  3.39969475e-08  7.10000000e-01 
 7.20000000e-01  4.57904218e-01  4.57904218e-01  4.57904218e-01  3.57021837e-09  4.57904218e-01  3.26427686e-09  3.33708859e-09  1.56296605e-07  3.39969048e-08  7.20000000e-01 
 7.30000000e-01  4.57904220e-01  4.57904220e-01  4.57904220e-01  3.57021842e-09  4.57904220e-01  3.26427686e-09  3.33708854e-09  1.56296619e-07  3.39967983e-08  7.30000000e-01 
 7.40000000e-01  4.57904233e-01  4.57904233e-01  4.57904233e-01  3.57021837e-09  4.57904233e-01  3.26427686e-09  3.33708859e-09  1.56296628e-07  3.39968409e-08  7.40000000e-01 
 7.50000000e-01  4.57904204e-01  4.57904204e-01  4.57904204e-01  3.57021842e-09  4.57904204e-01  3.26427686e-09  3.33708859e-09  1.56296592e-07  3.39966562e-08  7.50000000e-01 
 7.60000000e-01  4.57904214e-01  4.57904214e-01  4.57904214e-01  3.57021837e-09  4.57904214e-01  3.26427686e-09  3.33708854e-09  1.56296612e-07  3.39966775e-08  7.60000000e-01 
 7.70000000e-01  4.57904199e-01  4.57904199e-01  4.57904199e-01  3.57021837e-09  4.57904199e-01  3.26427686e-09  3.33708853e-09  1.56296590e-07  3.39965354e-08  7.70000000e-01 
 7.80000000e-01  4.57904227e-01  4.57904227e-01  4.57904227e-01  3.57021842e-09  4.57904227e-01  3.26427686e-09  3.33708854e-09  1.56296626e-07  3.39965140e-08  7.80000000e-01 
 7.90000000e-01  4.57904214e-01  4.57904214e-01  4.57904214e-01  3.57021837e-09  4.57904214e-01  3.26427686e-09  3.33708859e-09  1.56296593e-07  3.39965069e-08  7.90000000e-01 
 8.00000000e-01  4.57904207e-01  4.57904207e-01  4.57904207e-01  3.57021842e-09  4.57904207e-01  3.26427686e-09  3.33708853e-09  1.56296598e-07  3.39963435e-08  8.00000000e-01 
 8.10000000e-01  4.57904215e-01  4.57904215e-01  4.57904215e-01  3.57021842e-09  4.57904215e-01  3.26427686e-09  3.33708854e-09  1.56296604e-07  3.39963293e-08  8.10000000e-01 
 8.20000000e-01  4.57904236e-01  4.57904236e-01  4.57904236e-01  3.57021837e-09  4.57904236e-01  3.26427686e-09  3.33708854e-09  1.56296647e-07  3.39962867e-08  8.20000000e-01 
 8.30000000e-01  4.57904216e-01  4.57904216e-01  4.57904216e-01  3.57021842e-09  4.57904216e-01  3.26427686e-09  3.33708854e-09  1.56296592e-07  3.39962725e-08  8.30000000e-01 
 8.40000000e-01  4.57904238e-01  4.57904238e-01  4.57904239e-01  3.57021843e-09  4.57904238e-01  3.26427686e-09  3.33708859e-09  1.56296643e-07  3.39961872e-08  8.40000000e-01 
 8.50000000e-01  4.57904236e-01  4.57904236e-01  4.57904236e-01  3.57021843e-09  4.57904236e-01  3.26427686e-09  3.33708854e-09  1.56296621e-07  3.39961304e-08  8.50000000e-01 
 8.60000000e-01  4.57904255e-01  4.57904255e-01  4.57904255e-01  3.57021843e-09  4.57904255e-01  3.26427686e-09  3.33708854e-09  1.56296669e-07  3.39960593e-08  8.60000000e-01 
 8.70000000e-01  4.57904210e-01  4.57904210e-01  4.57904210e-01  3.57021837e-09  4.57904210e-01  3.26427686e-09  3.33708859e-09  1.56296589e-07  3.39960238e-08  8.70000000e-01 
 8.80000000e-01  4.57904222e-01  4.57904222e-01  4.57904222e-01  3.57021842e-09  4.57904222e-01  3.26427686e-09  3.33708859e-09  1.56296606e-07  3.39958746e-08  8.80000000e-01 
 8.90000000e-01  4.57904213e-01  4.57904213e-01  4.57904213e-01  3.57021842e-09  4.57904213e-01  3.26427686e-09  3.33708859e-09  1.56296602e-07  3.39959172e-08  8.90000000e-01 
 9.00000000e-01  4.57904221e-01  4.57904220e-01  4.57904221e-01  3.57021837e-09  4.57904220e-01  3.26427686e-09  3.33708854e-09  1.56296604e-07  3.39958959e-08  9.00000000e-01 
 9.10000000e-01  4.57904242e-01  4.57904241e-01  4.57904242e-01  3.57021843e-09  4.57904241e-01  3.26427686e-09  3.33708859e-09  1.56296635e-07  3.39957964e-08  9.10000000e-01 
 9.20000000e-01  4.57904220e-01  4.57904220e-01  4.57904220e-01  3.57021842e-09  4.57904220e-01  3.26427686e-09  3.33708854e-09  1.56296601e-07  3.39957822e-08  9.20000000e-01 
 9.30000000e-01  4.57904202e-01  4.57904202e-01  4.57904202e-01  3.57021842e-09  4.57904202e-01  3.26427686e-09  3.33708853e-09  1.56296588e-07  3.39957680e-08  9.30000000e-01 
 9.40000000e-01  4.57904231e-01  4.57904231e-01  4.57904231e-01  3.57021842e-09  4.57904231e-01  3.26427686e-09  3.33708854e-09  1.56296636e-07  3.39955477e-08  9.40000000e-01 
 9.50000000e-01  4.57904228e-01  4.57904228e-01  4.57904228e-01  3.57021837e-09  4.57904227e-01  3.26427686e-09  3.33708859e-09  1.56296601e-07  3.39956401e-08  9.50000000e-01 
 9.60000000e-01  4.57904226e-01  4.57904226e-01  4.57904227e-01  3.57021837e-09  4.57904226e-01  3.26427686e-09  3.33708854e-09  1.56296628e-07  3.39954553e-08  9.60000000e-01 
 9.70000000e-01  4.57904231e-01  4.57904231e-01  4.57904231e-01  3.57021837e-09  4.57904231e-01  3.26427686e-09  3.33708854e-09  1.56296634e-07  3.39955406e-08  9.70000000e-01 
 9.80000000e-01  4.57904238e-01  4.57904238e-01  4.57904238e-01  3.57021843e-09  4.57904238e-01  3.26427686e-09  3.33708854e-09  1.56296636e-07  3.39955193e-08  9.80000000e-01 
 9.90000000e-01  4.57904211e-01  4.57904211e-01  4.57904211e-01  3.57021837e-09  4.57904211e-01  3.26427686e-09  3.33708859e-09  1.56296607e-07  3.39953203e-08  9.90000000e-01 
 1.00000000e+00  4.57904236e-01  4.57904236e-01  4.57904236e-01  3.57021837e-09  4.57904236e-01  3.26427686e-09  3.33708854e-09  1.56296637e-07  3.39953203e-08  1.00000000e+00 
 1.01000000e+00  4.57904237e-01  4.57904237e-01  4.57904237e-01  3.57021837e-09  4.57904237e-01  3.26427686e-09  3.33708859e-09  1.56296620e-07  3.39951569e-08  1.01000000e+00 
 1.02000000e+00  4.57904218e-01  4.57904218e-01  4.57904218e-01  3.57021837e-09  4.57904218e-01  3.26427686e-09  3.33708854e-09  1.56296623e-07  3.39951356e-08  1.02000000e+00 
 1.03000000e+00  4.57904227e-01  4.57904227e-01  4.57904227e-01  3.57021837e-09  4.57904227e-01  3.26427686e-09  3.33708854e-09  1.56296633e-07  3.39952209e-08  1.03000000e+00 
 1.04000000e+00  4.57904239e-01  4.57904239e-01  4.57904239e-01  3.57021843e-09  4.57904239e-01  3.26427686e-09  3.33708854e-09  1.56296639e-07  3.39951356e-08  1.04000000e+00 
 1.05000000e+00  4.57904218e-01  4.57904218e-01  4.57904218e-01  3.57021842e-09  4.57904218e-01  3.26427686e-09  3.33708854e-09  1.56296614e-07  3.39949864e-08  1.05000000e+00 
 1.06000000e+00  4.57904229e-01  4.57904229e-01  4.57904229e-01  3.57021842e-09  4.57904229e-01  3.26427686e-09  3.33708859e-09  1.56296637e-07  3.39950148e-08  1.06000000e+00 
 1.07000000e+00  4.57904233e-01  4.57904233e-01  4.57904233e-01  3.57021843e-09  4.57904233e-01  3.26427686e-09  3.33708859e-09  1.56296623e-07  3.39948727e-08  1.07000000e+00 
 1.08000000e+00  4.57904232e-01  4.57904232e-01  4.57904232e-01  3.57021837e-09  4.57904231e-01  3.26427686e-09  3.33708859e-09  1.56296627e-07  3.39948159e-08  1.08000000e+00 
 1.09000000e+00  4.57904224e-01  4.57904224e-01  4.57904224e-01  3.57021837e-09  4.57904224e-01  3.26427686e-09  3.33708854e-09  1.56296614e-07  3.39947661e-08  1.09000000e+00 
 1.10000000e+00  4.57904209e-01  4.57904209e-01  4.57904209e-01  3.57021837e-09  4.57904209e-01  3.26427686e-09  3.33708859e-09  1.56296609e-07  3.39946311e-08  1.10000000e+00 
