 v-sweep         v(b0)           v(b1)           v(b2)           v(b3)           v(b4)           v(b5)           v(b6)           i(vbias)        i(viout)        v(vout)        
 0.00000000e+00  3.43529128e-09  4.59229062e-01  4.59229062e-01  4.59229062e-01  4.59229062e-01  4.59229062e-01  4.59229062e-01  1.62450565e-07  1.82230042e-07  0.00000000e+00 
 1.00000000e-02  3.43529133e-09  4.59229076e-01  4.59229076e-01  4.59229077e-01  4.59229077e-01  4.59229076e-01  4.59229076e-01  1.62450569e-07  1.82229714e-07  1.00000000e-02 
 2.00000000e-02  3.43529131e-09  4.59229033e-01  4.59229033e-01  4.59229033e-01  4.59229033e-01  4.59229033e-01  4.59229033e-01  1.62450526e-07  1.82228991e-07  2.00000000e-02 
 3.00000000e-02  3.43529132e-09  4.59229065e-01  4.59229065e-01  4.59229065e-01  4.59229065e-01  4.59229065e-01  4.59229065e-01  1.62450561e-07  1.82228669e-07  3.00000000e-02 
 4.00000000e-02  3.43529132e-09  4.59229041e-01  4.59229041e-01  4.59229041e-01  4.59229041e-01  4.59229041e-01  4.59229041e-01  1.62450541e-07  1.82228047e-07  4.00000000e-02 
 5.00000000e-02  3.43529132e-09  4.59229072e-01  4.59229072e-01  4.59229073e-01  4.59229073e-01  4.59229072e-01  4.59229073e-01  1.62450585e-07  1.82227904e-07  5.00000000e-02 
 6.00000000e-02  3.43529132e-09  4.59229060e-01  4.59229059e-01  4.59229060e-01  4.59229060e-01  4.59229060e-01  4.59229060e-01  1.62450555e-07  1.82227386e-07  6.00000000e-02 
 7.00000000e-02  3.43529132e-09  4.59229060e-01  4.59229059e-01  4.59229060e-01  4.59229060e-01  4.59229060e-01  4.59229060e-01  1.62450549e-07  1.82227093e-07  7.00000000e-02 
 8.00000000e-02  3.43529132e-09  4.59229045e-01  4.59229045e-01  4.59229045e-01  4.59229045e-01  4.59229045e-01  4.59229045e-01  1.62450529e-07  1.82226647e-07  8.00000000e-02 
 9.00000000e-02  3.43529126e-09  4.59229046e-01  4.59229046e-01  4.59229047e-01  4.59229047e-01  4.59229046e-01  4.59229047e-01  1.62450540e-07  1.82226398e-07  9.00000000e-02 
 1.00000000e-01  3.43529133e-09  4.59229051e-01  4.59229051e-01  4.59229052e-01  4.59229052e-01  4.59229051e-01  4.59229051e-01  1.62450541e-07  1.82225970e-07  1.00000000e-01 
 1.10000000e-01  3.43529132e-09  4.59229053e-01  4.59229053e-01  4.59229053e-01  4.59229053e-01  4.59229053e-01  4.59229053e-01  1.62450545e-07  1.82225700e-07  1.10000000e-01 
 1.20000000e-01  3.43529132e-09  4.59229067e-01  4.59229067e-01  4.59229068e-01  4.59229068e-01  4.59229067e-01  4.59229067e-01  1.62450569e-07  1.82225525e-07  1.20000000e-01 
 1.30000000e-01  3.43529132e-09  4.59229070e-01  4.59229070e-01  4.59229070e-01  4.59229070e-01  4.59229070e-01  4.59229070e-01  1.62450572e-07  1.82225193e-07  1.30000000e-01 
 1.40000000e-01  3.43529133e-09  4.59229087e-01  4.59229087e-01  4.59229087e-01  4.59229087e-01  4.59229087e-01  4.59229087e-01  1.62450593e-07  1.82224926e-07  1.40000000e-01 
 1.50000000e-01  3.43529132e-09  4.59229038e-01  4.59229038e-01  4.59229038e-01  4.59229038e-01  4.59229038e-01  4.59229038e-01  1.62450529e-07  1.82224417e-07  1.50000000e-01 
 1.60000000e-01  3.43529127e-09  4.59229056e-01  4.59229056e-01  4.59229056e-01  4.59229056e-01  4.59229056e-01  4.59229056e-01  1.62450531e-07  1.82224250e-07  1.60000000e-01 
 1.70000000e-01  3.43529128e-09  4.59229067e-01  4.59229067e-01  4.59229067e-01  4.59229067e-01  4.59229067e-01  4.59229067e-01  1.62450570e-07  1.82224129e-07  1.70000000e-01 
 1.80000000e-01  3.43529133e-09  4.59229058e-01  4.59229058e-01  4.59229058e-01  4.59229058e-01  4.59229058e-01  4.59229058e-01  1.62450548e-07  1.82223779e-07  1.80000000e-01 
 1.90000000e-01  3.43529132e-09  4.59229052e-01  4.59229052e-01  4.59229052e-01  4.59229052e-01  4.59229052e-01  4.59229052e-01  1.62450543e-07  1.82223507e-07  1.90000000e-01 
 2.00000000e-01  3.43529132e-09  4.59229070e-01  4.59229070e-01  4.59229070e-01  4.59229070e-01  4.59229070e-01  4.59229070e-01  1.62450569e-07  1.82223335e-07  2.00000000e-01 
 2.10000000e-01  3.43529132e-09  4.59229060e-01  4.59229059e-01  4.59229060e-01  4.59229060e-01  4.59229060e-01  4.59229060e-01  1.62450541e-07  1.82223157e-07  2.10000000e-01 
 2.20000000e-01  3.43529132e-09  4.59229048e-01  4.59229048e-01  4.59229048e-01  4.59229048e-01  4.59229048e-01  4.59229048e-01  1.62450541e-07  1.82222816e-07  2.20000000e-01 
 2.30000000e-01  3.43529132e-09  4.59229063e-01  4.59229063e-01  4.59229063e-01  4.59229063e-01  4.59229063e-01  4.59229063e-01  1.62450565e-07  1.82222651e-07  2.30000000e-01 
 2.40000000e-01  3.43529132e-09  4.59229067e-01  4.59229067e-01  4.59229068e-01  4.59229068e-01  4.59229067e-01  4.59229068e-01  1.62450563e-07  1.82222447e-07  2.40000000e-01 
 2.50000000e-01  3.43529132e-09  4.59229050e-01  4.59229050e-01  4.59229050e-01  4.59229050e-01  4.59229050e-01  4.59229050e-01  1.62450531e-07  1.82222196e-07  2.50000000e-01 
 2.60000000e-01  3.43529127e-09  4.59229054e-01  4.59229054e-01  4.59229054e-01  4.59229054e-01  4.59229054e-01  4.59229054e-01  1.62450553e-07  1.82222090e-07  2.60000000e-01 
 2.70000000e-01  3.43529134e-09  4.59229067e-01  4.59229067e-01  4.59229067e-01  4.59229067e-01  4.59229067e-01  4.59229067e-01  1.62450568e-07  1.82221907e-07  2.70000000e-01 
 2.80000000e-01  3.43529132e-09  4.59229078e-01  4.59229078e-01  4.59229079e-01  4.59229079e-01  4.59229078e-01  4.59229079e-01  1.62450577e-07  1.82221752e-07  2.80000000e-01 
 2.90000000e-01  3.43529126e-09  4.59229048e-01  4.59229048e-01  4.59229048e-01  4.59229048e-01  4.59229048e-01  4.59229048e-01  1.62450528e-07  1.82221488e-07  2.90000000e-01 
 3.00000000e-01  3.43529128e-09  4.59229065e-01  4.59229065e-01  4.59229065e-01  4.59229065e-01  4.59229065e-01  4.59229065e-01  1.62450573e-07  1.82221299e-07  3.00000000e-01 
 3.10000000e-01  3.43529133e-09  4.59229068e-01  4.59229068e-01  4.59229068e-01  4.59229068e-01  4.59229068e-01  4.59229068e-01  1.62450561e-07  1.82221203e-07  3.10000000e-01 
 3.20000000e-01  3.43529132e-09  4.59229074e-01  4.59229074e-01  4.59229074e-01  4.59229074e-01  4.59229074e-01  4.59229074e-01  1.62450562e-07  1.82220987e-07  3.20000000e-01 
 3.30000000e-01  3.43529132e-09  4.59229069e-01  4.59229069e-01  4.59229069e-01  4.59229069e-01  4.59229069e-01  4.59229069e-01  1.62450564e-07  1.82220820e-07  3.30000000e-01 
 3.40000000e-01  3.43529132e-09  4.59229077e-01  4.59229077e-01  4.59229078e-01  4.59229078e-01  4.59229077e-01  4.59229077e-01  1.62450579e-07  1.82220685e-07  3.40000000e-01 
 3.50000000e-01  3.43529132e-09  4.59229057e-01  4.59229056e-01  4.59229057e-01  4.59229057e-01  4.59229057e-01  4.59229057e-01  1.62450543e-07  1.82220447e-07  3.50000000e-01 
 3.60000000e-01  3.43529132e-09  4.59229038e-01  4.59229038e-01  4.59229038e-01  4.59229038e-01  4.59229038e-01  4.59229038e-01  1.62450535e-07  1.82220127e-07  3.60000000e-01 
 3.70000000e-01  3.43529132e-09  4.59229039e-01  4.59229039e-01  4.59229039e-01  4.59229039e-01  4.59229039e-01  4.59229039e-01  1.62450527e-07  1.82220056e-07  3.70000000e-01 
 3.80000000e-01  3.43529132e-09  4.59229075e-01  4.59229075e-01  4.59229075e-01  4.59229075e-01  4.59229075e-01  4.59229075e-01  1.62450585e-07  1.82220059e-07  3.80000000e-01 
 3.90000000e-01  3.43529132e-09  4.59229063e-01  4.59229063e-01  4.59229063e-01  4.59229063e-01  4.59229063e-01  4.59229063e-01  1.62450564e-07  1.82219768e-07  3.90000000e-01 
 4.00000000e-01  3.43529132e-09  4.59229047e-01  4.59229047e-01  4.59229047e-01  4.59229047e-01  4.59229047e-01  4.59229047e-01  1.62450534e-07  1.82219598e-07  4.00000000e-01 
 4.10000000e-01  3.43529132e-09  4.59229037e-01  4.59229037e-01  4.59229037e-01  4.59229037e-01  4.59229037e-01  4.59229037e-01  1.62450523e-07  1.82219470e-07  4.10000000e-01 
 4.20000000e-01  3.43529132e-09  4.59229056e-01  4.59229056e-01  4.59229056e-01  4.59229056e-01  4.59229056e-01  4.59229056e-01  1.62450556e-07  1.82219296e-07  4.20000000e-01 
 4.30000000e-01  3.43529132e-09  4.59229050e-01  4.59229050e-01  4.59229050e-01  4.59229050e-01  4.59229050e-01  4.59229050e-01  1.62450553e-07  1.82219196e-07  4.30000000e-01 
 4.40000000e-01  3.43529132e-09  4.59229061e-01  4.59229060e-01  4.59229061e-01  4.59229061e-01  4.59229061e-01  4.59229061e-01  1.62450561e-07  1.82218990e-07  4.40000000e-01 
 4.50000000e-01  3.43529132e-09  4.59229071e-01  4.59229071e-01  4.59229071e-01  4.59229071e-01  4.59229071e-01  4.59229071e-01  1.62450564e-07  1.82218976e-07  4.50000000e-01 
 4.60000000e-01  3.43529132e-09  4.59229050e-01  4.59229049e-01  4.59229050e-01  4.59229050e-01  4.59229050e-01  4.59229050e-01  1.62450552e-07  1.82218702e-07  4.60000000e-01 
 4.70000000e-01  3.43529132e-09  4.59229042e-01  4.59229042e-01  4.59229042e-01  4.59229042e-01  4.59229042e-01  4.59229042e-01  1.62450543e-07  1.82218574e-07  4.70000000e-01 
 4.80000000e-01  3.43529127e-09  4.59229055e-01  4.59229055e-01  4.59229055e-01  4.59229055e-01  4.59229055e-01  4.59229055e-01  1.62450538e-07  1.82218450e-07  4.80000000e-01 
 4.90000000e-01  3.43529133e-09  4.59229050e-01  4.59229050e-01  4.59229050e-01  4.59229050e-01  4.59229050e-01  4.59229050e-01  1.62450531e-07  1.82218230e-07  4.90000000e-01 
 5.00000000e-01  3.43529131e-09  4.59229043e-01  4.59229043e-01  4.59229043e-01  4.59229043e-01  4.59229043e-01  4.59229043e-01  1.62450533e-07  1.82218020e-07  5.00000000e-01 
 5.10000000e-01  3.43529132e-09  4.59229079e-01  4.59229079e-01  4.59229079e-01  4.59229079e-01  4.59229079e-01  4.59229079e-01  1.62450585e-07  1.82218194e-07  5.10000000e-01 
 5.20000000e-01  3.43529132e-09  4.59229071e-01  4.59229070e-01  4.59229071e-01  4.59229071e-01  4.59229071e-01  4.59229071e-01  1.62450583e-07  1.82218034e-07  5.20000000e-01 
 5.30000000e-01  3.43529132e-09  4.59229046e-01  4.59229046e-01  4.59229046e-01  4.59229046e-01  4.59229046e-01  4.59229046e-01  1.62450528e-07  1.82217594e-07  5.30000000e-01 
 5.40000000e-01  3.43529133e-09  4.59229081e-01  4.59229081e-01  4.59229081e-01  4.59229081e-01  4.59229081e-01  4.59229081e-01  1.62450588e-07  1.82217750e-07  5.40000000e-01 
 5.50000000e-01  3.43529132e-09  4.59229057e-01  4.59229057e-01  4.59229057e-01  4.59229057e-01  4.59229057e-01  4.59229057e-01  1.62450551e-07  1.82217420e-07  5.50000000e-01 
 5.60000000e-01  3.43529132e-09  4.59229071e-01  4.59229071e-01  4.59229071e-01  4.59229071e-01  4.59229071e-01  4.59229071e-01  1.62450583e-07  1.82217420e-07  5.60000000e-01 
 5.70000000e-01  3.43529132e-09  4.59229063e-01  4.59229063e-01  4.59229063e-01  4.59229063e-01  4.59229063e-01  4.59229063e-01  1.62450549e-07  1.82217317e-07  5.70000000e-01 
 5.80000000e-01  3.43529132e-09  4.59229052e-01  4.59229052e-01  4.59229053e-01  4.59229053e-01  4.59229052e-01  4.59229053e-01  1.62450548e-07  1.82217072e-07  5.80000000e-01 
 5.90000000e-01  3.43529132e-09  4.59229041e-01  4.59229041e-01  4.59229042e-01  4.59229042e-01  4.59229041e-01  4.59229042e-01  1.62450530e-07  1.82216837e-07  5.90000000e-01 
 6.00000000e-01  3.43529132e-09  4.59229037e-01  4.59229037e-01  4.59229037e-01  4.59229037e-01  4.59229037e-01  4.59229037e-01  1.62450518e-07  1.82216652e-07  6.00000000e-01 
 6.10000000e-01  3.43529132e-09  4.59229069e-01  4.59229069e-01  4.59229069e-01  4.59229069e-01  4.59229069e-01  4.59229069e-01  1.62450567e-07  1.82216745e-07  6.10000000e-01 
 6.20000000e-01  3.43529132e-09  4.59229043e-01  4.59229043e-01  4.59229043e-01  4.59229043e-01  4.59229043e-01  4.59229043e-01  1.62450529e-07  1.82216475e-07  6.20000000e-01 
 6.30000000e-01  3.43529127e-09  4.59229069e-01  4.59229069e-01  4.59229069e-01  4.59229069e-01  4.59229069e-01  4.59229069e-01  1.62450576e-07  1.82216390e-07  6.30000000e-01 
 6.40000000e-01  3.43529134e-09  4.59229067e-01  4.59229067e-01  4.59229067e-01  4.59229067e-01  4.59229067e-01  4.59229067e-01  1.62450578e-07  1.82216276e-07  6.40000000e-01 
 6.50000000e-01  3.43529132e-09  4.59229059e-01  4.59229058e-01  4.59229059e-01  4.59229059e-01  4.59229059e-01  4.59229059e-01  1.62450554e-07  1.82216070e-07  6.50000000e-01 
 6.60000000e-01  3.43529132e-09  4.59229058e-01  4.59229058e-01  4.59229058e-01  4.59229058e-01  4.59229058e-01  4.59229058e-01  1.62450550e-07  1.82215871e-07  6.60000000e-01 
 6.70000000e-01  3.43529133e-09  4.59229089e-01  4.59229089e-01  4.59229089e-01  4.59229089e-01  4.59229089e-01  4.59229089e-01  1.62450587e-07  1.82215878e-07  6.70000000e-01 
 6.80000000e-01  3.43529132e-09  4.59229054e-01  4.59229054e-01  4.59229054e-01  4.59229054e-01  4.59229054e-01  4.59229054e-01  1.62450552e-07  1.82215679e-07  6.80000000e-01 
 6.90000000e-01  3.43529132e-09  4.59229074e-01  4.59229074e-01  4.59229074e-01  4.59229074e-01  4.59229074e-01  4.59229074e-01  1.62450580e-07  1.82215587e-07  6.90000000e-01 
 7.00000000e-01  3.43529132e-09  4.59229040e-01  4.59229040e-01  4.59229040e-01  4.59229040e-01  4.59229040e-01  4.59229040e-01  1.62450518e-07  1.82215210e-07  7.00000000e-01 
 7.10000000e-01  3.43529132e-09  4.59229072e-01  4.59229072e-01  4.59229072e-01  4.59229072e-01  4.59229072e-01  4.59229072e-01  1.62450581e-07  1.82215238e-07  7.10000000e-01 
 7.20000000e-01  3.43529132e-09  4.59229048e-01  4.59229047e-01  4.59229048e-01  4.59229048e-01  4.59229048e-01  4.59229048e-01  1.62450531e-07  1.82214997e-07  7.20000000e-01 
 7.30000000e-01  3.43529127e-09  4.59229053e-01  4.59229053e-01  4.59229054e-01  4.59229054e-01  4.59229053e-01  4.59229053e-01  1.62450545e-07  1.82214954e-07  7.30000000e-01 
 7.40000000e-01  3.43529134e-09  4.59229068e-01  4.59229068e-01  4.59229069e-01  4.59229069e-01  4.59229068e-01  4.59229069e-01  1.62450573e-07  1.82214826e-07  7.40000000e-01 
 7.50000000e-01  3.43529132e-09  4.59229063e-01  4.59229063e-01  4.59229063e-01  4.59229063e-01  4.59229063e-01  4.59229063e-01  1.62450552e-07  1.82214734e-07  7.50000000e-01 
 7.60000000e-01  3.43529132e-09  4.59229062e-01  4.59229062e-01  4.59229062e-01  4.59229062e-01  4.59229062e-01  4.59229062e-01  1.62450555e-07  1.82214414e-07  7.60000000e-01 
 7.70000000e-01  3.43529132e-09  4.59229065e-01  4.59229065e-01  4.59229065e-01  4.59229065e-01  4.59229065e-01  4.59229065e-01  1.62450573e-07  1.82214286e-07  7.70000000e-01 
 7.80000000e-01  3.43529132e-09  4.59229050e-01  4.59229050e-01  4.59229051e-01  4.59229051e-01  4.59229050e-01  4.59229050e-01  1.62450530e-07  1.82214151e-07  7.80000000e-01 
 7.90000000e-01  3.43529132e-09  4.59229069e-01  4.59229069e-01  4.59229070e-01  4.59229070e-01  4.59229070e-01  4.59229070e-01  1.62450569e-07  1.82213981e-07  7.90000000e-01 
 8.00000000e-01  3.43529126e-09  4.59229046e-01  4.59229046e-01  4.59229046e-01  4.59229046e-01  4.59229046e-01  4.59229046e-01  1.62450533e-07  1.82213597e-07  8.00000000e-01 
 8.10000000e-01  3.43529134e-09  4.59229066e-01  4.59229066e-01  4.59229066e-01  4.59229066e-01  4.59229066e-01  4.59229066e-01  1.62450572e-07  1.82213640e-07  8.10000000e-01 
 8.20000000e-01  3.43529132e-09  4.59229060e-01  4.59229060e-01  4.59229060e-01  4.59229060e-01  4.59229060e-01  4.59229060e-01  1.62450550e-07  1.82213604e-07  8.20000000e-01 
 8.30000000e-01  3.43529133e-09  4.59229089e-01  4.59229089e-01  4.59229090e-01  4.59229090e-01  4.59229089e-01  4.59229089e-01  1.62450601e-07  1.82213540e-07  8.30000000e-01 
 8.40000000e-01  3.43529132e-09  4.59229069e-01  4.59229068e-01  4.59229069e-01  4.59229069e-01  4.59229069e-01  4.59229069e-01  1.62450575e-07  1.82213199e-07  8.40000000e-01 
 8.50000000e-01  3.43529132e-09  4.59229056e-01  4.59229056e-01  4.59229056e-01  4.59229056e-01  4.59229056e-01  4.59229056e-01  1.62450545e-07  1.82212972e-07  8.50000000e-01 
 8.60000000e-01  3.43529127e-09  4.59229078e-01  4.59229078e-01  4.59229078e-01  4.59229078e-01  4.59229078e-01  4.59229078e-01  1.62450579e-07  1.82213064e-07  8.60000000e-01 
 8.70000000e-01  3.43529133e-09  4.59229042e-01  4.59229042e-01  4.59229042e-01  4.59229043e-01  4.59229042e-01  4.59229042e-01  1.62450525e-07  1.82212680e-07  8.70000000e-01 
 8.80000000e-01  3.43529132e-09  4.59229067e-01  4.59229067e-01  4.59229067e-01  4.59229067e-01  4.59229067e-01  4.59229067e-01  1.62450571e-07  1.82212617e-07  8.80000000e-01 
 8.90000000e-01  3.43529132e-09  4.59229057e-01  4.59229057e-01  4.59229057e-01  4.59229057e-01  4.59229057e-01  4.59229057e-01  1.62450560e-07  1.82212418e-07  8.90000000e-01 
 9.00000000e-01  3.43529132e-09  4.59229069e-01  4.59229069e-01  4.59229069e-01  4.59229069e-01  4.59229069e-01  4.59229069e-01  1.62450562e-07  1.82212297e-07  9.00000000e-01 
 9.10000000e-01  3.43529132e-09  4.59229058e-01  4.59229058e-01  4.59229058e-01  4.59229058e-01  4.59229058e-01  4.59229058e-01  1.62450545e-07  1.82212162e-07  9.10000000e-01 
 9.20000000e-01  3.43529132e-09  4.59229071e-01  4.59229071e-01  4.59229071e-01  4.59229071e-01  4.59229071e-01  4.59229071e-01  1.62450579e-07  1.82211927e-07  9.20000000e-01 
 9.30000000e-01  3.43529132e-09  4.59229062e-01  4.59229062e-01  4.59229062e-01  4.59229062e-01  4.59229062e-01  4.59229062e-01  1.62450556e-07  1.82211735e-07  9.30000000e-01 
 9.40000000e-01  3.43529127e-09  4.59229069e-01  4.59229069e-01  4.59229069e-01  4.59229069e-01  4.59229069e-01  4.59229069e-01  1.62450559e-07  1.82211672e-07  9.40000000e-01 
 9.50000000e-01  3.43529134e-09  4.59229058e-01  4.59229058e-01  4.59229059e-01  4.59229059e-01  4.59229059e-01  4.59229059e-01  1.62450565e-07  1.82211487e-07  9.50000000e-01 
 9.60000000e-01  3.43529132e-09  4.59229058e-01  4.59229058e-01  4.59229058e-01  4.59229058e-01  4.59229058e-01  4.59229058e-01  1.62450556e-07  1.82211238e-07  9.60000000e-01 
 9.70000000e-01  3.43529132e-09  4.59229057e-01  4.59229057e-01  4.59229057e-01  4.59229057e-01  4.59229057e-01  4.59229057e-01  1.62450548e-07  1.82211089e-07  9.70000000e-01 
 9.80000000e-01  3.43529132e-09  4.59229067e-01  4.59229067e-01  4.59229067e-01  4.59229067e-01  4.59229067e-01  4.59229067e-01  1.62450567e-07  1.82210862e-07  9.80000000e-01 
 9.90000000e-01  3.43529133e-09  4.59229091e-01  4.59229091e-01  4.59229091e-01  4.59229091e-01  4.59229091e-01  4.59229091e-01  1.62450600e-07  1.82210918e-07  9.90000000e-01 
 1.00000000e+00  3.43529132e-09  4.59229076e-01  4.59229076e-01  4.59229076e-01  4.59229076e-01  4.59229076e-01  4.59229076e-01  1.62450587e-07  1.82210691e-07  1.00000000e+00 
 1.01000000e+00  3.43529132e-09  4.59229076e-01  4.59229076e-01  4.59229076e-01  4.59229076e-01  4.59229076e-01  4.59229076e-01  1.62450584e-07  1.82210457e-07  1.01000000e+00 
 1.02000000e+00  3.43529132e-09  4.59229071e-01  4.59229071e-01  4.59229071e-01  4.59229071e-01  4.59229071e-01  4.59229071e-01  1.62450564e-07  1.82210321e-07  1.02000000e+00 
 1.03000000e+00  3.43529132e-09  4.59229076e-01  4.59229076e-01  4.59229076e-01  4.59229076e-01  4.59229076e-01  4.59229076e-01  1.62450577e-07  1.82210144e-07  1.03000000e+00 
 1.04000000e+00  3.43529132e-09  4.59229057e-01  4.59229057e-01  4.59229057e-01  4.59229057e-01  4.59229057e-01  4.59229057e-01  1.62450550e-07  1.82209888e-07  1.04000000e+00 
 1.05000000e+00  3.43529132e-09  4.59229064e-01  4.59229064e-01  4.59229064e-01  4.59229064e-01  4.59229064e-01  4.59229064e-01  1.62450551e-07  1.82209753e-07  1.05000000e+00 
 1.06000000e+00  3.43529132e-09  4.59229051e-01  4.59229051e-01  4.59229052e-01  4.59229052e-01  4.59229052e-01  4.59229052e-01  1.62450548e-07  1.82209376e-07  1.06000000e+00 
 1.07000000e+00  3.43529132e-09  4.59229063e-01  4.59229063e-01  4.59229063e-01  4.59229063e-01  4.59229063e-01  4.59229063e-01  1.62450561e-07  1.82209355e-07  1.07000000e+00 
 1.08000000e+00  3.43529132e-09  4.59229060e-01  4.59229059e-01  4.59229060e-01  4.59229060e-01  4.59229060e-01  4.59229060e-01  1.62450543e-07  1.82209007e-07  1.08000000e+00 
 1.09000000e+00  3.43529132e-09  4.59229055e-01  4.59229055e-01  4.59229055e-01  4.59229055e-01  4.59229055e-01  4.59229055e-01  1.62450553e-07  1.82208836e-07  1.09000000e+00 
 1.10000000e+00  3.43529126e-09  4.59229047e-01  4.59229047e-01  4.59229047e-01  4.59229047e-01  4.59229047e-01  4.59229047e-01  1.62450536e-07  1.82208694e-07  1.10000000e+00 
