 v-sweep         v(b0)           v(b1)           v(b2)           v(b3)           v(b4)           v(b5)           v(b6)           i(vbias)        i(viout)        v(vout)        
 0.00000000e+00  3.13705896e-09  3.31465418e-09  4.58222777e-01  3.58198880e-09  4.58222777e-01  4.58222777e-01  4.58222777e-01  1.59252236e-07  1.75429355e-07  0.00000000e+00 
 1.00000000e-02  3.13705896e-09  3.31465410e-09  4.58222723e-01  3.58198880e-09  4.58222723e-01  4.58222723e-01  4.58222723e-01  1.59252149e-07  1.75428593e-07  1.00000000e-02 
 2.00000000e-02  3.13705896e-09  3.31465412e-09  4.58222748e-01  3.58198886e-09  4.58222748e-01  4.58222748e-01  4.58222748e-01  1.59252188e-07  1.75428245e-07  2.00000000e-02 
 3.00000000e-02  3.13705896e-09  3.31465416e-09  4.58222754e-01  3.58198886e-09  4.58222755e-01  4.58222754e-01  4.58222754e-01  1.59252179e-07  1.75427836e-07  3.00000000e-02 
 4.00000000e-02  3.13705896e-09  3.31465411e-09  4.58222738e-01  3.58198880e-09  4.58222739e-01  4.58222738e-01  4.58222738e-01  1.59252166e-07  1.75427362e-07  4.00000000e-02 
 5.00000000e-02  3.13705896e-09  3.31465412e-09  4.58222747e-01  3.58198880e-09  4.58222747e-01  4.58222747e-01  4.58222747e-01  1.59252194e-07  1.75427127e-07  5.00000000e-02 
 6.00000000e-02  3.13705896e-09  3.31465409e-09  4.58222715e-01  3.58198885e-09  4.58222715e-01  4.58222714e-01  4.58222714e-01  1.59252139e-07  1.75426521e-07  6.00000000e-02 
 7.00000000e-02  3.13705896e-09  3.31465412e-09  4.58222759e-01  3.58198880e-09  4.58222759e-01  4.58222758e-01  4.58222758e-01  1.59252207e-07  1.75426397e-07  7.00000000e-02 
 8.00000000e-02  3.13705896e-09  3.31465410e-09  4.58222737e-01  3.58198880e-09  4.58222738e-01  4.58222737e-01  4.58222737e-01  1.59252170e-07  1.75426030e-07  8.00000000e-02 
 9.00000000e-02  3.13705896e-09  3.31465412e-09  4.58222744e-01  3.58198880e-09  4.58222744e-01  4.58222744e-01  4.58222744e-01  1.59252181e-07  1.75425590e-07  9.00000000e-02 
 1.00000000e-01  3.13705896e-09  3.31465416e-09  4.58222756e-01  3.58198880e-09  4.58222756e-01  4.58222756e-01  4.58222756e-01  1.59252191e-07  1.75425263e-07  1.00000000e-01 
 1.10000000e-01  3.13705896e-09  3.31465416e-09  4.58222748e-01  3.58198886e-09  4.58222748e-01  4.58222748e-01  4.58222748e-01  1.59252179e-07  1.75424915e-07  1.10000000e-01 
 1.20000000e-01  3.13705896e-09  3.31465410e-09  4.58222722e-01  3.58198885e-09  4.58222722e-01  4.58222722e-01  4.58222722e-01  1.59252149e-07  1.75424480e-07  1.20000000e-01 
 1.30000000e-01  3.13705896e-09  3.31465418e-09  4.58222755e-01  3.58198880e-09  4.58222755e-01  4.58222755e-01  4.58222755e-01  1.59252219e-07  1.75424403e-07  1.30000000e-01 
 1.40000000e-01  3.13705896e-09  3.31465410e-09  4.58222747e-01  3.58198880e-09  4.58222747e-01  4.58222747e-01  4.58222747e-01  1.59252182e-07  1.75424078e-07  1.40000000e-01 
 1.50000000e-01  3.13705896e-09  3.31465412e-09  4.58222744e-01  3.58198886e-09  4.58222744e-01  4.58222743e-01  4.58222743e-01  1.59252181e-07  1.75423718e-07  1.50000000e-01 
 1.60000000e-01  3.13705896e-09  3.31465416e-09  4.58222737e-01  3.58198880e-09  4.58222737e-01  4.58222737e-01  4.58222737e-01  1.59252168e-07  1.75423578e-07  1.60000000e-01 
 1.70000000e-01  3.13705896e-09  3.31465416e-09  4.58222723e-01  3.58198880e-09  4.58222723e-01  4.58222723e-01  4.58222723e-01  1.59252146e-07  1.75423223e-07  1.70000000e-01 
 1.80000000e-01  3.13705896e-09  3.31465411e-09  4.58222744e-01  3.58198880e-09  4.58222745e-01  4.58222744e-01  4.58222744e-01  1.59252187e-07  1.75423056e-07  1.80000000e-01 
 1.90000000e-01  3.13705896e-09  3.31465411e-09  4.58222724e-01  3.58198885e-09  4.58222725e-01  4.58222724e-01  4.58222724e-01  1.59252138e-07  1.75422722e-07  1.90000000e-01 
 2.00000000e-01  3.13705896e-09  3.31465410e-09  4.58222752e-01  3.58198886e-09  4.58222752e-01  4.58222752e-01  4.58222752e-01  1.59252193e-07  1.75422588e-07  2.00000000e-01 
 2.10000000e-01  3.13705896e-09  3.31465412e-09  4.58222735e-01  3.58198880e-09  4.58222735e-01  4.58222735e-01  4.58222735e-01  1.59252161e-07  1.75422278e-07  2.10000000e-01 
 2.20000000e-01  3.13705896e-09  3.31465416e-09  4.58222748e-01  3.58198880e-09  4.58222748e-01  4.58222748e-01  4.58222748e-01  1.59252189e-07  1.75422130e-07  2.20000000e-01 
 2.30000000e-01  3.13705896e-09  3.31465411e-09  4.58222741e-01  3.58198886e-09  4.58222741e-01  4.58222741e-01  4.58222741e-01  1.59252173e-07  1.75421981e-07  2.30000000e-01 
 2.40000000e-01  3.13705896e-09  3.31465412e-09  4.58222729e-01  3.58198880e-09  4.58222729e-01  4.58222729e-01  4.58222729e-01  1.59252153e-07  1.75421665e-07  2.40000000e-01 
 2.50000000e-01  3.13705896e-09  3.31465410e-09  4.58222756e-01  3.58198880e-09  4.58222756e-01  4.58222756e-01  4.58222756e-01  1.59252196e-07  1.75421514e-07  2.50000000e-01 
 2.60000000e-01  3.13705896e-09  3.31465412e-09  4.58222758e-01  3.58198886e-09  4.58222758e-01  4.58222757e-01  4.58222757e-01  1.59252195e-07  1.75421288e-07  2.60000000e-01 
 2.70000000e-01  3.13705896e-09  3.31465410e-09  4.58222759e-01  3.58198886e-09  4.58222760e-01  4.58222759e-01  4.58222759e-01  1.59252208e-07  1.75421281e-07  2.70000000e-01 
 2.80000000e-01  3.13705896e-09  3.31465412e-09  4.58222738e-01  3.58198880e-09  4.58222738e-01  4.58222737e-01  4.58222737e-01  1.59252169e-07  1.75420727e-07  2.80000000e-01 
 2.90000000e-01  3.13705896e-09  3.31465410e-09  4.58222745e-01  3.58198886e-09  4.58222745e-01  4.58222745e-01  4.58222745e-01  1.59252194e-07  1.75420716e-07  2.90000000e-01 
 3.00000000e-01  3.13705896e-09  3.31465412e-09  4.58222757e-01  3.58198886e-09  4.58222757e-01  4.58222757e-01  4.58222757e-01  1.59252194e-07  1.75420670e-07  3.00000000e-01 
 3.10000000e-01  3.13705896e-09  3.31465415e-09  4.58222726e-01  3.58198880e-09  4.58222726e-01  4.58222726e-01  4.58222726e-01  1.59252144e-07  1.75420247e-07  3.10000000e-01 
 3.20000000e-01  3.13705902e-09  3.31465417e-09  4.58222757e-01  3.58198880e-09  4.58222757e-01  4.58222757e-01  4.58222757e-01  1.59252202e-07  1.75420237e-07  3.20000000e-01 
 3.30000000e-01  3.13705896e-09  3.31465411e-09  4.58222747e-01  3.58198886e-09  4.58222747e-01  4.58222747e-01  4.58222747e-01  1.59252171e-07  1.75420126e-07  3.30000000e-01 
 3.40000000e-01  3.13705896e-09  3.31465417e-09  4.58222757e-01  3.58198886e-09  4.58222757e-01  4.58222757e-01  4.58222757e-01  1.59252194e-07  1.75419828e-07  3.40000000e-01 
 3.50000000e-01  3.13705896e-09  3.31465411e-09  4.58222752e-01  3.58198880e-09  4.58222753e-01  4.58222752e-01  4.58222752e-01  1.59252178e-07  1.75419736e-07  3.50000000e-01 
 3.60000000e-01  3.13705896e-09  3.31465411e-09  4.58222751e-01  3.58198880e-09  4.58222751e-01  4.58222751e-01  4.58222751e-01  1.59252193e-07  1.75419636e-07  3.60000000e-01 
 3.70000000e-01  3.13705896e-09  3.31465417e-09  4.58222765e-01  3.58198886e-09  4.58222765e-01  4.58222765e-01  4.58222765e-01  1.59252198e-07  1.75419466e-07  3.70000000e-01 
 3.80000000e-01  3.13705896e-09  3.31465411e-09  4.58222739e-01  3.58198880e-09  4.58222739e-01  4.58222739e-01  4.58222739e-01  1.59252170e-07  1.75419167e-07  3.80000000e-01 
 3.90000000e-01  3.13705896e-09  3.31465412e-09  4.58222750e-01  3.58198880e-09  4.58222750e-01  4.58222750e-01  4.58222750e-01  1.59252187e-07  1.75419082e-07  3.90000000e-01 
 4.00000000e-01  3.13705896e-09  3.31465416e-09  4.58222738e-01  3.58198885e-09  4.58222738e-01  4.58222738e-01  4.58222738e-01  1.59252174e-07  1.75418958e-07  4.00000000e-01 
 4.10000000e-01  3.13705902e-09  3.31465410e-09  4.58222728e-01  3.58198880e-09  4.58222729e-01  4.58222728e-01  4.58222728e-01  1.59252157e-07  1.75418666e-07  4.10000000e-01 
 4.20000000e-01  3.13705896e-09  3.31465418e-09  4.58222750e-01  3.58198880e-09  4.58222750e-01  4.58222750e-01  4.58222750e-01  1.59252187e-07  1.75418688e-07  4.20000000e-01 
 4.30000000e-01  3.13705896e-09  3.31465410e-09  4.58222748e-01  3.58198880e-09  4.58222748e-01  4.58222748e-01  4.58222748e-01  1.59252186e-07  1.75418453e-07  4.30000000e-01 
 4.40000000e-01  3.13705896e-09  3.31465412e-09  4.58222737e-01  3.58198880e-09  4.58222737e-01  4.58222737e-01  4.58222737e-01  1.59252166e-07  1.75418304e-07  4.40000000e-01 
 4.50000000e-01  3.13705901e-09  3.31465415e-09  4.58222712e-01  3.58198879e-09  4.58222712e-01  4.58222712e-01  4.58222712e-01  1.59252132e-07  1.75418045e-07  4.50000000e-01 
 4.60000000e-01  3.13705896e-09  3.31465416e-09  4.58222722e-01  3.58198881e-09  4.58222722e-01  4.58222722e-01  4.58222722e-01  1.59252157e-07  1.75417956e-07  4.60000000e-01 
 4.70000000e-01  3.13705896e-09  3.31465410e-09  4.58222730e-01  3.58198885e-09  4.58222730e-01  4.58222730e-01  4.58222730e-01  1.59252145e-07  1.75417767e-07  4.70000000e-01 
 4.80000000e-01  3.13705896e-09  3.31465412e-09  4.58222736e-01  3.58198880e-09  4.58222737e-01  4.58222736e-01  4.58222736e-01  1.59252157e-07  1.75417679e-07  4.80000000e-01 
 4.90000000e-01  3.13705896e-09  3.31465410e-09  4.58222730e-01  3.58198880e-09  4.58222730e-01  4.58222730e-01  4.58222730e-01  1.59252170e-07  1.75417455e-07  4.90000000e-01 
 5.00000000e-01  3.13705896e-09  3.31465412e-09  4.58222736e-01  3.58198880e-09  4.58222736e-01  4.58222736e-01  4.58222736e-01  1.59252162e-07  1.75417426e-07  5.00000000e-01 
 5.10000000e-01  3.13705896e-09  3.31465410e-09  4.58222719e-01  3.58198880e-09  4.58222719e-01  4.58222719e-01  4.58222719e-01  1.59252139e-07  1.75417167e-07  5.10000000e-01 
 5.20000000e-01  3.13705896e-09  3.31465412e-09  4.58222755e-01  3.58198880e-09  4.58222755e-01  4.58222755e-01  4.58222755e-01  1.59252199e-07  1.75417139e-07  5.20000000e-01 
 5.30000000e-01  3.13705896e-09  3.31465410e-09  4.58222750e-01  3.58198880e-09  4.58222750e-01  4.58222750e-01  4.58222750e-01  1.59252182e-07  1.75417050e-07  5.30000000e-01 
 5.40000000e-01  3.13705896e-09  3.31465417e-09  4.58222737e-01  3.58198880e-09  4.58222737e-01  4.58222737e-01  4.58222737e-01  1.59252170e-07  1.75416940e-07  5.40000000e-01 
 5.50000000e-01  3.13705896e-09  3.31465416e-09  4.58222743e-01  3.58198886e-09  4.58222743e-01  4.58222743e-01  4.58222743e-01  1.59252172e-07  1.75416687e-07  5.50000000e-01 
 5.60000000e-01  3.13705896e-09  3.31465416e-09  4.58222731e-01  3.58198880e-09  4.58222731e-01  4.58222731e-01  4.58222731e-01  1.59252171e-07  1.75416520e-07  5.60000000e-01 
 5.70000000e-01  3.13705902e-09  3.31465410e-09  4.58222734e-01  3.58198885e-09  4.58222734e-01  4.58222734e-01  4.58222734e-01  1.59252160e-07  1.75416375e-07  5.70000000e-01 
 5.80000000e-01  3.13705896e-09  3.31465412e-09  4.58222735e-01  3.58198880e-09  4.58222735e-01  4.58222735e-01  4.58222735e-01  1.59252171e-07  1.75416240e-07  5.80000000e-01 
 5.90000000e-01  3.13705896e-09  3.31465410e-09  4.58222730e-01  3.58198880e-09  4.58222730e-01  4.58222730e-01  4.58222730e-01  1.59252170e-07  1.75416112e-07  5.90000000e-01 
 6.00000000e-01  3.13705896e-09  3.31465412e-09  4.58222735e-01  3.58198880e-09  4.58222735e-01  4.58222735e-01  4.58222735e-01  1.59252170e-07  1.75415991e-07  6.00000000e-01 
 6.10000000e-01  3.13705896e-09  3.31465410e-09  4.58222736e-01  3.58198880e-09  4.58222736e-01  4.58222736e-01  4.58222736e-01  1.59252161e-07  1.75415892e-07  6.10000000e-01 
 6.20000000e-01  3.13705896e-09  3.31465412e-09  4.58222748e-01  3.58198886e-09  4.58222748e-01  4.58222748e-01  4.58222748e-01  1.59252183e-07  1.75415785e-07  6.20000000e-01 
 6.30000000e-01  3.13705902e-09  3.31465415e-09  4.58222725e-01  3.58198880e-09  4.58222725e-01  4.58222725e-01  4.58222725e-01  1.59252133e-07  1.75415416e-07  6.30000000e-01 
 6.40000000e-01  3.13705896e-09  3.31465416e-09  4.58222731e-01  3.58198885e-09  4.58222731e-01  4.58222731e-01  4.58222731e-01  1.59252171e-07  1.75415323e-07  6.40000000e-01 
 6.50000000e-01  3.13705896e-09  3.31465416e-09  4.58222712e-01  3.58198885e-09  4.58222712e-01  4.58222712e-01  4.58222712e-01  1.59252120e-07  1.75415060e-07  6.50000000e-01 
 6.60000000e-01  3.13705896e-09  3.31465411e-09  4.58222767e-01  3.58198880e-09  4.58222767e-01  4.58222767e-01  4.58222767e-01  1.59252200e-07  1.75415352e-07  6.60000000e-01 
 6.70000000e-01  3.13705896e-09  3.31465411e-09  4.58222763e-01  3.58198886e-09  4.58222763e-01  4.58222763e-01  4.58222763e-01  1.59252218e-07  1.75415174e-07  6.70000000e-01 
 6.80000000e-01  3.13705896e-09  3.31465411e-09  4.58222741e-01  3.58198886e-09  4.58222741e-01  4.58222741e-01  4.58222741e-01  1.59252161e-07  1.75414897e-07  6.80000000e-01 
 6.90000000e-01  3.13705896e-09  3.31465412e-09  4.58222739e-01  3.58198885e-09  4.58222739e-01  4.58222739e-01  4.58222739e-01  1.59252184e-07  1.75414762e-07  6.90000000e-01 
 7.00000000e-01  3.13705896e-09  3.31465416e-09  4.58222734e-01  3.58198885e-09  4.58222735e-01  4.58222734e-01  4.58222734e-01  1.59252167e-07  1.75414641e-07  7.00000000e-01 
 7.10000000e-01  3.13705896e-09  3.31465410e-09  4.58222736e-01  3.58198880e-09  4.58222736e-01  4.58222736e-01  4.58222736e-01  1.59252160e-07  1.75414577e-07  7.10000000e-01 
 7.20000000e-01  3.13705896e-09  3.31465412e-09  4.58222740e-01  3.58198880e-09  4.58222740e-01  4.58222740e-01  4.58222740e-01  1.59252169e-07  1.75414272e-07  7.20000000e-01 
 7.30000000e-01  3.13705896e-09  3.31465416e-09  4.58222757e-01  3.58198880e-09  4.58222757e-01  4.58222756e-01  4.58222756e-01  1.59252180e-07  1.75414129e-07  7.30000000e-01 
 7.40000000e-01  3.13705896e-09  3.31465416e-09  4.58222744e-01  3.58198880e-09  4.58222744e-01  4.58222744e-01  4.58222744e-01  1.59252170e-07  1.75413852e-07  7.40000000e-01 
 7.50000000e-01  3.13705896e-09  3.31465411e-09  4.58222743e-01  3.58198880e-09  4.58222743e-01  4.58222743e-01  4.58222743e-01  1.59252193e-07  1.75413831e-07  7.50000000e-01 
 7.60000000e-01  3.13705896e-09  3.31465412e-09  4.58222735e-01  3.58198880e-09  4.58222735e-01  4.58222735e-01  4.58222735e-01  1.59252162e-07  1.75413696e-07  7.60000000e-01 
 7.70000000e-01  3.13705896e-09  3.31465415e-09  4.58222717e-01  3.58198879e-09  4.58222717e-01  4.58222717e-01  4.58222717e-01  1.59252134e-07  1.75413398e-07  7.70000000e-01 
 7.80000000e-01  3.13705896e-09  3.31465416e-09  4.58222733e-01  3.58198880e-09  4.58222734e-01  4.58222733e-01  4.58222733e-01  1.59252168e-07  1.75413334e-07  7.80000000e-01 
 7.90000000e-01  3.13705896e-09  3.31465417e-09  4.58222758e-01  3.58198886e-09  4.58222758e-01  4.58222758e-01  4.58222758e-01  1.59252205e-07  1.75413383e-07  7.90000000e-01 
 8.00000000e-01  3.13705896e-09  3.31465411e-09  4.58222746e-01  3.58198880e-09  4.58222746e-01  4.58222746e-01  4.58222746e-01  1.59252175e-07  1.75413071e-07  8.00000000e-01 
 8.10000000e-01  3.13705896e-09  3.31465410e-09  4.58222730e-01  3.58198880e-09  4.58222730e-01  4.58222730e-01  4.58222729e-01  1.59252154e-07  1.75412858e-07  8.10000000e-01 
 8.20000000e-01  3.13705896e-09  3.31465411e-09  4.58222724e-01  3.58198885e-09  4.58222724e-01  4.58222724e-01  4.58222723e-01  1.59252160e-07  1.75412772e-07  8.20000000e-01 
 8.30000000e-01  3.13705896e-09  3.31465410e-09  4.58222758e-01  3.58198880e-09  4.58222758e-01  4.58222758e-01  4.58222757e-01  1.59252206e-07  1.75412580e-07  8.30000000e-01 
 8.40000000e-01  3.13705896e-09  3.31465412e-09  4.58222738e-01  3.58198880e-09  4.58222738e-01  4.58222738e-01  4.58222738e-01  1.59252163e-07  1.75412502e-07  8.40000000e-01 
 8.50000000e-01  3.13705896e-09  3.31465410e-09  4.58222741e-01  3.58198886e-09  4.58222742e-01  4.58222741e-01  4.58222741e-01  1.59252194e-07  1.75412310e-07  8.50000000e-01 
 8.60000000e-01  3.13705896e-09  3.31465412e-09  4.58222750e-01  3.58198880e-09  4.58222750e-01  4.58222750e-01  4.58222750e-01  1.59252180e-07  1.75412268e-07  8.60000000e-01 
 8.70000000e-01  3.13705902e-09  3.31465416e-09  4.58222741e-01  3.58198880e-09  4.58222741e-01  4.58222741e-01  4.58222741e-01  1.59252176e-07  1.75412033e-07  8.70000000e-01 
 8.80000000e-01  3.13705896e-09  3.31465411e-09  4.58222760e-01  3.58198880e-09  4.58222761e-01  4.58222760e-01  4.58222760e-01  1.59252213e-07  1.75411927e-07  8.80000000e-01 
 8.90000000e-01  3.13705896e-09  3.31465411e-09  4.58222749e-01  3.58198880e-09  4.58222749e-01  4.58222749e-01  4.58222749e-01  1.59252187e-07  1.75411820e-07  8.90000000e-01 
 9.00000000e-01  3.13705896e-09  3.31465411e-09  4.58222752e-01  3.58198886e-09  4.58222752e-01  4.58222752e-01  4.58222752e-01  1.59252194e-07  1.75411671e-07  9.00000000e-01 
 9.10000000e-01  3.13705896e-09  3.31465417e-09  4.58222758e-01  3.58198880e-09  4.58222758e-01  4.58222758e-01  4.58222758e-01  1.59252192e-07  1.75411515e-07  9.10000000e-01 
 9.20000000e-01  3.13705896e-09  3.31465411e-09  4.58222739e-01  3.58198885e-09  4.58222739e-01  4.58222739e-01  4.58222739e-01  1.59252158e-07  1.75411230e-07  9.20000000e-01 
 9.30000000e-01  3.13705896e-09  3.31465412e-09  4.58222765e-01  3.58198886e-09  4.58222766e-01  4.58222765e-01  4.58222765e-01  1.59252215e-07  1.75411287e-07  9.30000000e-01 
 9.40000000e-01  3.13705896e-09  3.31465410e-09  4.58222744e-01  3.58198880e-09  4.58222744e-01  4.58222744e-01  4.58222744e-01  1.59252188e-07  1.75411010e-07  9.40000000e-01 
 9.50000000e-01  3.13705896e-09  3.31465411e-09  4.58222722e-01  3.58198880e-09  4.58222722e-01  4.58222722e-01  4.58222722e-01  1.59252157e-07  1.75410591e-07  9.50000000e-01 
 9.60000000e-01  3.13705896e-09  3.31465416e-09  4.58222747e-01  3.58198886e-09  4.58222747e-01  4.58222747e-01  4.58222747e-01  1.59252173e-07  1.75410491e-07  9.60000000e-01 
 9.70000000e-01  3.13705896e-09  3.31465410e-09  4.58222714e-01  3.58198885e-09  4.58222714e-01  4.58222714e-01  4.58222714e-01  1.59252137e-07  1.75410257e-07  9.70000000e-01 
 9.80000000e-01  3.13705896e-09  3.31465412e-09  4.58222775e-01  3.58198880e-09  4.58222775e-01  4.58222775e-01  4.58222775e-01  1.59252235e-07  1.75410321e-07  9.80000000e-01 
 9.90000000e-01  3.13705896e-09  3.31465410e-09  4.58222733e-01  3.58198880e-09  4.58222733e-01  4.58222733e-01  4.58222733e-01  1.59252167e-07  1.75409951e-07  9.90000000e-01 
 1.00000000e+00  3.13705902e-09  3.31465412e-09  4.58222751e-01  3.58198880e-09  4.58222751e-01  4.58222751e-01  4.58222751e-01  1.59252189e-07  1.75409895e-07  1.00000000e+00 
 1.01000000e+00  3.13705896e-09  3.31465416e-09  4.58222741e-01  3.58198880e-09  4.58222741e-01  4.58222741e-01  4.58222741e-01  1.59252158e-07  1.75409717e-07  1.01000000e+00 
 1.02000000e+00  3.13705896e-09  3.31465411e-09  4.58222744e-01  3.58198880e-09  4.58222744e-01  4.58222744e-01  4.58222744e-01  1.59252195e-07  1.75409660e-07  1.02000000e+00 
 1.03000000e+00  3.13705896e-09  3.31465412e-09  4.58222760e-01  3.58198886e-09  4.58222760e-01  4.58222760e-01  4.58222760e-01  1.59252212e-07  1.75409433e-07  1.03000000e+00 
 1.04000000e+00  3.13705896e-09  3.31465416e-09  4.58222743e-01  3.58198886e-09  4.58222743e-01  4.58222743e-01  4.58222743e-01  1.59252160e-07  1.75409184e-07  1.04000000e+00 
 1.05000000e+00  3.13705896e-09  3.31465411e-09  4.58222748e-01  3.58198880e-09  4.58222748e-01  4.58222748e-01  4.58222748e-01  1.59252186e-07  1.75408928e-07  1.05000000e+00 
 1.06000000e+00  3.13705896e-09  3.31465411e-09  4.58222748e-01  3.58198880e-09  4.58222749e-01  4.58222748e-01  4.58222748e-01  1.59252181e-07  1.75408921e-07  1.06000000e+00 
 1.07000000e+00  3.13705896e-09  3.31465411e-09  4.58222745e-01  3.58198886e-09  4.58222745e-01  4.58222745e-01  4.58222745e-01  1.59252165e-07  1.75408537e-07  1.07000000e+00 
 1.08000000e+00  3.13705896e-09  3.31465412e-09  4.58222744e-01  3.58198886e-09  4.58222744e-01  4.58222744e-01  4.58222744e-01  1.59252176e-07  1.75408395e-07  1.08000000e+00 
 1.09000000e+00  3.13705896e-09  3.31465415e-09  4.58222731e-01  3.58198885e-09  4.58222731e-01  4.58222731e-01  4.58222731e-01  1.59252147e-07  1.75408196e-07  1.09000000e+00 
 1.10000000e+00  3.13705896e-09  3.31465411e-09  4.58222758e-01  3.58198880e-09  4.58222759e-01  4.58222758e-01  4.58222758e-01  1.59252201e-07  1.75408104e-07  1.10000000e+00 
