 v-sweep         v(b0)           v(b1)           v(b2)           v(b3)           v(b4)           v(b5)           v(b6)           i(vbias)        i(viout)        v(vout)        
 0.00000000e+00  4.58969318e-01  4.58969318e-01  4.58969318e-01  3.27781924e-09  3.71592943e-09  4.58969318e-01  3.15216612e-09  1.61916788e-07  5.56290573e-08  0.00000000e+00 
 1.00000000e-02  4.58969309e-01  4.58969309e-01  4.58969309e-01  3.27781922e-09  3.71592941e-09  4.58969309e-01  3.15216616e-09  1.61916773e-07  5.56285705e-08  1.00000000e-02 
 2.00000000e-02  4.58969327e-01  4.58969327e-01  4.58969327e-01  3.27781928e-09  3.71592935e-09  4.58969327e-01  3.15216616e-09  1.61916800e-07  5.56281174e-08  2.00000000e-02 
 3.00000000e-02  4.58969322e-01  4.58969322e-01  4.58969322e-01  3.27781927e-09  3.71592941e-09  4.58969322e-01  3.15216616e-09  1.61916778e-07  5.56278605e-08  3.00000000e-02 
 4.00000000e-02  4.58969335e-01  4.58969335e-01  4.58969335e-01  3.27781922e-09  3.71592941e-09  4.58969335e-01  3.15216611e-09  1.61916813e-07  5.56275439e-08  4.00000000e-02 
 5.00000000e-02  4.58969334e-01  4.58969334e-01  4.58969334e-01  3.27781923e-09  3.71592941e-09  4.58969334e-01  3.15216611e-09  1.61916809e-07  5.56271678e-08  5.00000000e-02 
 6.00000000e-02  4.58969311e-01  4.58969311e-01  4.58969311e-01  3.27781928e-09  3.71592941e-09  4.58969311e-01  3.15216616e-09  1.61916778e-07  5.56267996e-08  6.00000000e-02 
 7.00000000e-02  4.58969309e-01  4.58969309e-01  4.58969309e-01  3.27781921e-09  3.71592941e-09  4.58969309e-01  3.15216611e-09  1.61916778e-07  5.56264781e-08  7.00000000e-02 
 8.00000000e-02  4.58969320e-01  4.58969320e-01  4.58969320e-01  3.27781923e-09  3.71592941e-09  4.58969320e-01  3.15216611e-09  1.61916794e-07  5.56262005e-08  8.00000000e-02 
 9.00000000e-02  4.58969296e-01  4.58969296e-01  4.58969296e-01  3.27781922e-09  3.71592935e-09  4.58969296e-01  3.15216610e-09  1.61916757e-07  5.56258453e-08  9.00000000e-02 
 1.00000000e-01  4.58969318e-01  4.58969318e-01  4.58969318e-01  3.27781922e-09  3.71592941e-09  4.58969318e-01  3.15216616e-09  1.61916773e-07  5.56256357e-08  1.00000000e-01 
 1.10000000e-01  4.58969358e-01  4.58969358e-01  4.58969358e-01  3.27781922e-09  3.71592935e-09  4.58969358e-01  3.15216617e-09  1.61916841e-07  5.56254216e-08  1.10000000e-01 
 1.20000000e-01  4.58969303e-01  4.58969303e-01  4.58969303e-01  3.27781922e-09  3.71592941e-09  4.58969302e-01  3.15216616e-09  1.61916767e-07  5.56252751e-08  1.20000000e-01 
 1.30000000e-01  4.58969315e-01  4.58969315e-01  4.58969315e-01  3.27781922e-09  3.71592941e-09  4.58969315e-01  3.15216616e-09  1.61916777e-07  5.56249642e-08  1.30000000e-01 
 1.40000000e-01  4.58969367e-01  4.58969367e-01  4.58969367e-01  3.27781923e-09  3.71592941e-09  4.58969367e-01  3.15216617e-09  1.61916859e-07  5.56249047e-08  1.40000000e-01 
 1.50000000e-01  4.58969309e-01  4.58969309e-01  4.58969309e-01  3.27781922e-09  3.71592941e-09  4.58969309e-01  3.15216611e-09  1.61916767e-07  5.56245823e-08  1.50000000e-01 
 1.60000000e-01  4.58969333e-01  4.58969333e-01  4.58969333e-01  3.27781922e-09  3.71592935e-09  4.58969333e-01  3.15216617e-09  1.61916817e-07  5.56244686e-08  1.60000000e-01 
 1.70000000e-01  4.58969315e-01  4.58969315e-01  4.58969315e-01  3.27781922e-09  3.71592941e-09  4.58969315e-01  3.15216611e-09  1.61916778e-07  5.56242110e-08  1.70000000e-01 
 1.80000000e-01  4.58969314e-01  4.58969314e-01  4.58969314e-01  3.27781922e-09  3.71592935e-09  4.58969313e-01  3.15216611e-09  1.61916778e-07  5.56239410e-08  1.80000000e-01 
 1.90000000e-01  4.58969329e-01  4.58969329e-01  4.58969329e-01  3.27781928e-09  3.71592935e-09  4.58969329e-01  3.15216611e-09  1.61916803e-07  5.56239126e-08  1.90000000e-01 
 2.00000000e-01  4.58969323e-01  4.58969323e-01  4.58969323e-01  3.27781921e-09  3.71592941e-09  4.58969323e-01  3.15216616e-09  1.61916806e-07  5.56237136e-08  2.00000000e-01 
 2.10000000e-01  4.58969327e-01  4.58969327e-01  4.58969327e-01  3.27781923e-09  3.71592941e-09  4.58969327e-01  3.15216616e-09  1.61916792e-07  5.56234596e-08  2.10000000e-01 
 2.20000000e-01  4.58969349e-01  4.58969349e-01  4.58969349e-01  3.27781922e-09  3.71592941e-09  4.58969349e-01  3.15216611e-09  1.61916836e-07  5.56233744e-08  2.20000000e-01 
 2.30000000e-01  4.58969320e-01  4.58969320e-01  4.58969320e-01  3.27781922e-09  3.71592941e-09  4.58969320e-01  3.15216611e-09  1.61916791e-07  5.56232642e-08  2.30000000e-01 
 2.40000000e-01  4.58969321e-01  4.58969321e-01  4.58969321e-01  3.27781922e-09  3.71592935e-09  4.58969321e-01  3.15216616e-09  1.61916801e-07  5.56231612e-08  2.40000000e-01 
 2.50000000e-01  4.58969338e-01  4.58969338e-01  4.58969338e-01  3.27781922e-09  3.71592941e-09  4.58969338e-01  3.15216617e-09  1.61916813e-07  5.56230901e-08  2.50000000e-01 
 2.60000000e-01  4.58969305e-01  4.58969305e-01  4.58969305e-01  3.27781922e-09  3.71592941e-09  4.58969305e-01  3.15216616e-09  1.61916761e-07  5.56228468e-08  2.60000000e-01 
 2.70000000e-01  4.58969323e-01  4.58969323e-01  4.58969323e-01  3.27781928e-09  3.71592941e-09  4.58969323e-01  3.15216616e-09  1.61916790e-07  5.56226691e-08  2.70000000e-01 
 2.80000000e-01  4.58969323e-01  4.58969323e-01  4.58969323e-01  3.27781921e-09  3.71592941e-09  4.58969322e-01  3.15216611e-09  1.61916797e-07  5.56226354e-08  2.80000000e-01 
 2.90000000e-01  4.58969346e-01  4.58969345e-01  4.58969345e-01  3.27781923e-09  3.71592941e-09  4.58969345e-01  3.15216617e-09  1.61916819e-07  5.56225999e-08  2.90000000e-01 
 3.00000000e-01  4.58969316e-01  4.58969316e-01  4.58969316e-01  3.27781922e-09  3.71592935e-09  4.58969316e-01  3.15216616e-09  1.61916780e-07  5.56221700e-08  3.00000000e-01 
 3.10000000e-01  4.58969315e-01  4.58969315e-01  4.58969315e-01  3.27781928e-09  3.71592935e-09  4.58969315e-01  3.15216611e-09  1.61916773e-07  5.56221700e-08  3.10000000e-01 
 3.20000000e-01  4.58969326e-01  4.58969326e-01  4.58969326e-01  3.27781927e-09  3.71592941e-09  4.58969326e-01  3.15216611e-09  1.61916811e-07  5.56221593e-08  3.20000000e-01 
 3.30000000e-01  4.58969320e-01  4.58969320e-01  4.58969320e-01  3.27781927e-09  3.71592935e-09  4.58969319e-01  3.15216616e-09  1.61916787e-07  5.56221131e-08  3.30000000e-01 
 3.40000000e-01  4.58969316e-01  4.58969316e-01  4.58969316e-01  3.27781927e-09  3.71592935e-09  4.58969316e-01  3.15216611e-09  1.61916789e-07  5.56220456e-08  3.40000000e-01 
 3.50000000e-01  4.58969344e-01  4.58969344e-01  4.58969344e-01  3.27781927e-09  3.71592941e-09  4.58969344e-01  3.15216611e-09  1.61916827e-07  5.56217472e-08  3.50000000e-01 
 3.60000000e-01  4.58969322e-01  4.58969322e-01  4.58969322e-01  3.27781927e-09  3.71592935e-09  4.58969322e-01  3.15216616e-09  1.61916783e-07  5.56218325e-08  3.60000000e-01 
 3.70000000e-01  4.58969338e-01  4.58969338e-01  4.58969338e-01  3.27781927e-09  3.71592935e-09  4.58969338e-01  3.15216611e-09  1.61916821e-07  5.56217827e-08  3.70000000e-01 
 3.80000000e-01  4.58969340e-01  4.58969340e-01  4.58969340e-01  3.27781922e-09  3.71592941e-09  4.58969340e-01  3.15216611e-09  1.61916809e-07  5.56217010e-08  3.80000000e-01 
 3.90000000e-01  4.58969322e-01  4.58969322e-01  4.58969322e-01  3.27781923e-09  3.71592941e-09  4.58969322e-01  3.15216616e-09  1.61916797e-07  5.56214701e-08  3.90000000e-01 
 4.00000000e-01  4.58969336e-01  4.58969336e-01  4.58969336e-01  3.27781928e-09  3.71592941e-09  4.58969336e-01  3.15216617e-09  1.61916816e-07  5.56215198e-08  4.00000000e-01 
 4.10000000e-01  4.58969309e-01  4.58969309e-01  4.58969309e-01  3.27781921e-09  3.71592941e-09  4.58969309e-01  3.15216616e-09  1.61916775e-07  5.56214168e-08  4.10000000e-01 
 4.20000000e-01  4.58969303e-01  4.58969303e-01  4.58969303e-01  3.27781923e-09  3.71592941e-09  4.58969303e-01  3.15216616e-09  1.61916763e-07  5.56213209e-08  4.20000000e-01 
 4.30000000e-01  4.58969334e-01  4.58969334e-01  4.58969334e-01  3.27781922e-09  3.71592935e-09  4.58969333e-01  3.15216611e-09  1.61916807e-07  5.56212463e-08  4.30000000e-01 
 4.40000000e-01  4.58969332e-01  4.58969332e-01  4.58969332e-01  3.27781922e-09  3.71592941e-09  4.58969332e-01  3.15216617e-09  1.61916813e-07  5.56211575e-08  4.40000000e-01 
 4.50000000e-01  4.58969312e-01  4.58969312e-01  4.58969312e-01  3.27781922e-09  3.71592935e-09  4.58969312e-01  3.15216616e-09  1.61916787e-07  5.56211077e-08  4.50000000e-01 
 4.60000000e-01  4.58969338e-01  4.58969338e-01  4.58969338e-01  3.27781922e-09  3.71592935e-09  4.58969338e-01  3.15216611e-09  1.61916814e-07  5.56210651e-08  4.60000000e-01 
 4.70000000e-01  4.58969287e-01  4.58969287e-01  4.58969287e-01  3.27781922e-09  3.71592941e-09  4.58969287e-01  3.15216616e-09  1.61916744e-07  5.56209585e-08  4.70000000e-01 
 4.80000000e-01  4.58969310e-01  4.58969310e-01  4.58969310e-01  3.27781922e-09  3.71592935e-09  4.58969310e-01  3.15216611e-09  1.61916770e-07  5.56209017e-08  4.80000000e-01 
 4.90000000e-01  4.58969325e-01  4.58969325e-01  4.58969325e-01  3.27781922e-09  3.71592941e-09  4.58969325e-01  3.15216611e-09  1.61916799e-07  5.56208590e-08  4.90000000e-01 
 5.00000000e-01  4.58969336e-01  4.58969336e-01  4.58969336e-01  3.27781922e-09  3.71592941e-09  4.58969336e-01  3.15216611e-09  1.61916808e-07  5.56208555e-08  5.00000000e-01 
 5.10000000e-01  4.58969349e-01  4.58969349e-01  4.58969349e-01  3.27781922e-09  3.71592941e-09  4.58969349e-01  3.15216617e-09  1.61916838e-07  5.56206921e-08  5.10000000e-01 
 5.20000000e-01  4.58969351e-01  4.58969351e-01  4.58969351e-01  3.27781922e-09  3.71592941e-09  4.58969351e-01  3.15216617e-09  1.61916825e-07  5.56207667e-08  5.20000000e-01 
 5.30000000e-01  4.58969329e-01  4.58969329e-01  4.58969329e-01  3.27781922e-09  3.71592935e-09  4.58969329e-01  3.15216616e-09  1.61916802e-07  5.56205109e-08  5.30000000e-01 
 5.40000000e-01  4.58969336e-01  4.58969336e-01  4.58969336e-01  3.27781922e-09  3.71592941e-09  4.58969336e-01  3.15216617e-09  1.61916807e-07  5.56206423e-08  5.40000000e-01 
 5.50000000e-01  4.58969340e-01  4.58969340e-01  4.58969339e-01  3.27781922e-09  3.71592941e-09  4.58969339e-01  3.15216617e-09  1.61916813e-07  5.56203545e-08  5.50000000e-01 
 5.60000000e-01  4.58969331e-01  4.58969331e-01  4.58969331e-01  3.27781922e-09  3.71592941e-09  4.58969331e-01  3.15216617e-09  1.61916794e-07  5.56203155e-08  5.60000000e-01 
 5.70000000e-01  4.58969334e-01  4.58969334e-01  4.58969334e-01  3.27781922e-09  3.71592941e-09  4.58969334e-01  3.15216617e-09  1.61916822e-07  5.56202302e-08  5.70000000e-01 
 5.80000000e-01  4.58969316e-01  4.58969316e-01  4.58969316e-01  3.27781922e-09  3.71592941e-09  4.58969316e-01  3.15216616e-09  1.61916786e-07  5.56202693e-08  5.80000000e-01 
 5.90000000e-01  4.58969317e-01  4.58969317e-01  4.58969317e-01  3.27781922e-09  3.71592941e-09  4.58969317e-01  3.15216616e-09  1.61916793e-07  5.56201059e-08  5.90000000e-01 
 6.00000000e-01  4.58969346e-01  4.58969346e-01  4.58969346e-01  3.27781928e-09  3.71592941e-09  4.58969346e-01  3.15216611e-09  1.61916832e-07  5.56201627e-08  6.00000000e-01 
 6.10000000e-01  4.58969325e-01  4.58969325e-01  4.58969325e-01  3.27781927e-09  3.71592935e-09  4.58969324e-01  3.15216616e-09  1.61916787e-07  5.56201272e-08  6.10000000e-01 
 6.20000000e-01  4.58969330e-01  4.58969330e-01  4.58969330e-01  3.27781927e-09  3.71592941e-09  4.58969330e-01  3.15216616e-09  1.61916800e-07  5.56198998e-08  6.20000000e-01 
 6.30000000e-01  4.58969317e-01  4.58969317e-01  4.58969317e-01  3.27781922e-09  3.71592941e-09  4.58969317e-01  3.15216611e-09  1.61916789e-07  5.56199140e-08  6.30000000e-01 
 6.40000000e-01  4.58969328e-01  4.58969328e-01  4.58969328e-01  3.27781923e-09  3.71592941e-09  4.58969328e-01  3.15216616e-09  1.61916806e-07  5.56199495e-08  6.40000000e-01 
 6.50000000e-01  4.58969347e-01  4.58969347e-01  4.58969347e-01  3.27781922e-09  3.71592941e-09  4.58969347e-01  3.15216617e-09  1.61916830e-07  5.56198358e-08  6.50000000e-01 
 6.60000000e-01  4.58969333e-01  4.58969333e-01  4.58969333e-01  3.27781928e-09  3.71592941e-09  4.58969333e-01  3.15216611e-09  1.61916802e-07  5.56198003e-08  6.60000000e-01 
 6.70000000e-01  4.58969313e-01  4.58969313e-01  4.58969313e-01  3.27781927e-09  3.71592941e-09  4.58969313e-01  3.15216611e-09  1.61916770e-07  5.56197648e-08  6.70000000e-01 
 6.80000000e-01  4.58969328e-01  4.58969328e-01  4.58969328e-01  3.27781927e-09  3.71592935e-09  4.58969328e-01  3.15216616e-09  1.61916798e-07  5.56195587e-08  6.80000000e-01 
 6.90000000e-01  4.58969316e-01  4.58969316e-01  4.58969316e-01  3.27781927e-09  3.71592941e-09  4.58969316e-01  3.15216611e-09  1.61916770e-07  5.56195587e-08  6.90000000e-01 
 7.00000000e-01  4.58969329e-01  4.58969329e-01  4.58969329e-01  3.27781922e-09  3.71592941e-09  4.58969329e-01  3.15216616e-09  1.61916809e-07  5.56195943e-08  7.00000000e-01 
 7.10000000e-01  4.58969342e-01  4.58969342e-01  4.58969342e-01  3.27781923e-09  3.71592935e-09  4.58969342e-01  3.15216617e-09  1.61916817e-07  5.56194877e-08  7.10000000e-01 
 7.20000000e-01  4.58969324e-01  4.58969324e-01  4.58969324e-01  3.27781922e-09  3.71592941e-09  4.58969323e-01  3.15216616e-09  1.61916809e-07  5.56193882e-08  7.20000000e-01 
 7.30000000e-01  4.58969325e-01  4.58969325e-01  4.58969325e-01  3.27781922e-09  3.71592941e-09  4.58969325e-01  3.15216616e-09  1.61916808e-07  5.56193669e-08  7.30000000e-01 
 7.40000000e-01  4.58969314e-01  4.58969314e-01  4.58969314e-01  3.27781922e-09  3.71592941e-09  4.58969314e-01  3.15216611e-09  1.61916794e-07  5.56191324e-08  7.40000000e-01 
 7.50000000e-01  4.58969322e-01  4.58969322e-01  4.58969322e-01  3.27781928e-09  3.71592935e-09  4.58969322e-01  3.15216616e-09  1.61916801e-07  5.56193385e-08  7.50000000e-01 
 7.60000000e-01  4.58969322e-01  4.58969322e-01  4.58969322e-01  3.27781921e-09  3.71592935e-09  4.58969322e-01  3.15216611e-09  1.61916796e-07  5.56191324e-08  7.60000000e-01 
 7.70000000e-01  4.58969338e-01  4.58969338e-01  4.58969338e-01  3.27781923e-09  3.71592941e-09  4.58969337e-01  3.15216617e-09  1.61916815e-07  5.56190756e-08  7.70000000e-01 
 7.80000000e-01  4.58969328e-01  4.58969328e-01  4.58969328e-01  3.27781922e-09  3.71592941e-09  4.58969328e-01  3.15216611e-09  1.61916793e-07  5.56190400e-08  7.80000000e-01 
 7.90000000e-01  4.58969329e-01  4.58969329e-01  4.58969329e-01  3.27781922e-09  3.71592941e-09  4.58969329e-01  3.15216611e-09  1.61916808e-07  5.56190898e-08  7.90000000e-01 
 8.00000000e-01  4.58969305e-01  4.58969305e-01  4.58969305e-01  3.27781922e-09  3.71592935e-09  4.58969305e-01  3.15216610e-09  1.61916775e-07  5.56188553e-08  8.00000000e-01 
 8.10000000e-01  4.58969319e-01  4.58969319e-01  4.58969319e-01  3.27781922e-09  3.71592941e-09  4.58969319e-01  3.15216616e-09  1.61916797e-07  5.56186635e-08  8.10000000e-01 
 8.20000000e-01  4.58969329e-01  4.58969329e-01  4.58969329e-01  3.27781928e-09  3.71592935e-09  4.58969329e-01  3.15216611e-09  1.61916814e-07  5.56187771e-08  8.20000000e-01 
 8.30000000e-01  4.58969345e-01  4.58969345e-01  4.58969345e-01  3.27781921e-09  3.71592941e-09  4.58969345e-01  3.15216617e-09  1.61916839e-07  5.56186919e-08  8.30000000e-01 
 8.40000000e-01  4.58969313e-01  4.58969313e-01  4.58969313e-01  3.27781923e-09  3.71592935e-09  4.58969313e-01  3.15216616e-09  1.61916785e-07  5.56187132e-08  8.40000000e-01 
 8.50000000e-01  4.58969325e-01  4.58969325e-01  4.58969325e-01  3.27781922e-09  3.71592935e-09  4.58969325e-01  3.15216611e-09  1.61916794e-07  5.56186492e-08  8.50000000e-01 
 8.60000000e-01  4.58969313e-01  4.58969313e-01  4.58969313e-01  3.27781922e-09  3.71592935e-09  4.58969313e-01  3.15216616e-09  1.61916781e-07  5.56185000e-08  8.60000000e-01 
 8.70000000e-01  4.58969332e-01  4.58969332e-01  4.58969332e-01  3.27781928e-09  3.71592941e-09  4.58969332e-01  3.15216611e-09  1.61916814e-07  5.56183792e-08  8.70000000e-01 
 8.80000000e-01  4.58969318e-01  4.58969318e-01  4.58969318e-01  3.27781921e-09  3.71592941e-09  4.58969318e-01  3.15216616e-09  1.61916785e-07  5.56183508e-08  8.80000000e-01 
 8.90000000e-01  4.58969344e-01  4.58969344e-01  4.58969344e-01  3.27781923e-09  3.71592941e-09  4.58969344e-01  3.15216617e-09  1.61916823e-07  5.56183437e-08  8.90000000e-01 
 9.00000000e-01  4.58969327e-01  4.58969327e-01  4.58969327e-01  3.27781928e-09  3.71592941e-09  4.58969327e-01  3.15216611e-09  1.61916798e-07  5.56183863e-08  9.00000000e-01 
 9.10000000e-01  4.58969358e-01  4.58969358e-01  4.58969358e-01  3.27781927e-09  3.71592941e-09  4.58969358e-01  3.15216617e-09  1.61916845e-07  5.56182371e-08  9.10000000e-01 
 9.20000000e-01  4.58969315e-01  4.58969315e-01  4.58969315e-01  3.27781922e-09  3.71592941e-09  4.58969315e-01  3.15216611e-09  1.61916785e-07  5.56181590e-08  9.20000000e-01 
 9.30000000e-01  4.58969304e-01  4.58969304e-01  4.58969304e-01  3.27781923e-09  3.71592935e-09  4.58969304e-01  3.15216616e-09  1.61916761e-07  5.56180666e-08  9.30000000e-01 
 9.40000000e-01  4.58969338e-01  4.58969337e-01  4.58969337e-01  3.27781922e-09  3.71592941e-09  4.58969337e-01  3.15216617e-09  1.61916814e-07  5.56180737e-08  9.40000000e-01 
 9.50000000e-01  4.58969328e-01  4.58969328e-01  4.58969328e-01  3.27781928e-09  3.71592941e-09  4.58969328e-01  3.15216616e-09  1.61916791e-07  5.56179387e-08  9.50000000e-01 
 9.60000000e-01  4.58969323e-01  4.58969323e-01  4.58969323e-01  3.27781921e-09  3.71592935e-09  4.58969323e-01  3.15216616e-09  1.61916814e-07  5.56178748e-08  9.60000000e-01 
 9.70000000e-01  4.58969335e-01  4.58969335e-01  4.58969335e-01  3.27781923e-09  3.71592941e-09  4.58969335e-01  3.15216617e-09  1.61916813e-07  5.56178748e-08  9.70000000e-01 
 9.80000000e-01  4.58969342e-01  4.58969342e-01  4.58969342e-01  3.27781922e-09  3.71592941e-09  4.58969342e-01  3.15216617e-09  1.61916828e-07  5.56178037e-08  9.80000000e-01 
 9.90000000e-01  4.58969332e-01  4.58969332e-01  4.58969332e-01  3.27781922e-09  3.71592941e-09  4.58969332e-01  3.15216617e-09  1.61916817e-07  5.56177255e-08  9.90000000e-01 
 1.00000000e+00  4.58969321e-01  4.58969321e-01  4.58969321e-01  3.27781922e-09  3.71592941e-09  4.58969321e-01  3.15216611e-09  1.61916789e-07  5.56176616e-08  1.00000000e+00 
 1.01000000e+00  4.58969317e-01  4.58969317e-01  4.58969317e-01  3.27781922e-09  3.71592935e-09  4.58969317e-01  3.15216611e-09  1.61916785e-07  5.56175621e-08  1.01000000e+00 
 1.02000000e+00  4.58969323e-01  4.58969323e-01  4.58969323e-01  3.27781922e-09  3.71592935e-09  4.58969323e-01  3.15216616e-09  1.61916791e-07  5.56174626e-08  1.02000000e+00 
 1.03000000e+00  4.58969337e-01  4.58969337e-01  4.58969337e-01  3.27781922e-09  3.71592941e-09  4.58969337e-01  3.15216611e-09  1.61916814e-07  5.56174129e-08  1.03000000e+00 
 1.04000000e+00  4.58969329e-01  4.58969329e-01  4.58969329e-01  3.27781922e-09  3.71592941e-09  4.58969329e-01  3.15216616e-09  1.61916796e-07  5.56173063e-08  1.04000000e+00 
 1.05000000e+00  4.58969333e-01  4.58969333e-01  4.58969333e-01  3.27781928e-09  3.71592941e-09  4.58969333e-01  3.15216617e-09  1.61916812e-07  5.56172779e-08  1.05000000e+00 
 1.06000000e+00  4.58969321e-01  4.58969321e-01  4.58969321e-01  3.27781921e-09  3.71592941e-09  4.58969321e-01  3.15216611e-09  1.61916792e-07  5.56173845e-08  1.06000000e+00 
 1.07000000e+00  4.58969346e-01  4.58969346e-01  4.58969346e-01  3.27781923e-09  3.71592941e-09  4.58969346e-01  3.15216617e-09  1.61916832e-07  5.56173205e-08  1.07000000e+00 
 1.08000000e+00  4.58969331e-01  4.58969331e-01  4.58969331e-01  3.27781922e-09  3.71592941e-09  4.58969331e-01  3.15216617e-09  1.61916804e-07  5.56170150e-08  1.08000000e+00 
 1.09000000e+00  4.58969317e-01  4.58969317e-01  4.58969317e-01  3.27781922e-09  3.71592935e-09  4.58969317e-01  3.15216611e-09  1.61916781e-07  5.56171500e-08  1.09000000e+00 
 1.10000000e+00  4.58969321e-01  4.58969321e-01  4.58969321e-01  3.27781928e-09  3.71592941e-09  4.58969321e-01  3.15216616e-09  1.61916796e-07  5.56170221e-08  1.10000000e+00 
