 v-sweep         v(b0)           v(b1)           v(b2)           v(b3)           v(b4)           v(b5)           v(b6)           i(vbias)        i(viout)        v(vout)        
 0.00000000e+00  3.23178554e-09  3.31399996e-09  4.57571319e-01  3.20434984e-09  4.57571319e-01  3.54321042e-09  4.57571319e-01  1.58436755e-07  1.21444248e-07  0.00000000e+00 
 1.00000000e-02  3.23178552e-09  3.31399994e-09  4.57571303e-01  3.20434983e-09  4.57571303e-01  3.54321040e-09  4.57571303e-01  1.58436737e-07  1.21443795e-07  1.00000000e-02 
 2.00000000e-02  3.23178553e-09  3.31399994e-09  4.57571324e-01  3.20434983e-09  4.57571324e-01  3.54321041e-09  4.57571324e-01  1.58436761e-07  1.21443434e-07  2.00000000e-02 
 3.00000000e-02  3.23178558e-09  3.31399994e-09  4.57571303e-01  3.20434988e-09  4.57571303e-01  3.54321040e-09  4.57571303e-01  1.58436728e-07  1.21443049e-07  3.00000000e-02 
 4.00000000e-02  3.23178558e-09  3.31399994e-09  4.57571303e-01  3.20434988e-09  4.57571303e-01  3.54321040e-09  4.57571303e-01  1.58436724e-07  1.21442666e-07  4.00000000e-02 
 5.00000000e-02  3.23178558e-09  3.31399994e-09  4.57571298e-01  3.20434983e-09  4.57571298e-01  3.54321040e-09  4.57571298e-01  1.58436720e-07  1.21442244e-07  5.00000000e-02 
 6.00000000e-02  3.23178552e-09  3.31399994e-09  4.57571304e-01  3.20434983e-09  4.57571304e-01  3.54321040e-09  4.57571304e-01  1.58436727e-07  1.21441999e-07  6.00000000e-02 
 7.00000000e-02  3.23178552e-09  3.31399994e-09  4.57571296e-01  3.20434988e-09  4.57571296e-01  3.54321040e-09  4.57571296e-01  1.58436722e-07  1.21441607e-07  7.00000000e-02 
 8.00000000e-02  3.23178558e-09  3.31399994e-09  4.57571311e-01  3.20434983e-09  4.57571311e-01  3.54321041e-09  4.57571311e-01  1.58436750e-07  1.21441261e-07  8.00000000e-02 
 9.00000000e-02  3.23178558e-09  3.31399994e-09  4.57571326e-01  3.20434988e-09  4.57571326e-01  3.54321041e-09  4.57571326e-01  1.58436754e-07  1.21441110e-07  9.00000000e-02 
 1.00000000e-01  3.23178558e-09  3.31399994e-09  4.57571310e-01  3.20434988e-09  4.57571310e-01  3.54321041e-09  4.57571310e-01  1.58436735e-07  1.21440785e-07  1.00000000e-01 
 1.10000000e-01  3.23178552e-09  3.31400000e-09  4.57571319e-01  3.20434983e-09  4.57571319e-01  3.54321046e-09  4.57571319e-01  1.58436745e-07  1.21440442e-07  1.10000000e-01 
 1.20000000e-01  3.23178552e-09  3.31399994e-09  4.57571299e-01  3.20434983e-09  4.57571299e-01  3.54321040e-09  4.57571299e-01  1.58436714e-07  1.21440200e-07  1.20000000e-01 
 1.30000000e-01  3.23178552e-09  3.31400000e-09  4.57571296e-01  3.20434983e-09  4.57571296e-01  3.54321040e-09  4.57571297e-01  1.58436719e-07  1.21439913e-07  1.30000000e-01 
 1.40000000e-01  3.23178552e-09  3.31399994e-09  4.57571315e-01  3.20434983e-09  4.57571315e-01  3.54321041e-09  4.57571315e-01  1.58436740e-07  1.21439808e-07  1.40000000e-01 
 1.50000000e-01  3.23178553e-09  3.31399994e-09  4.57571325e-01  3.20434983e-09  4.57571325e-01  3.54321041e-09  4.57571325e-01  1.58436762e-07  1.21439616e-07  1.50000000e-01 
 1.60000000e-01  3.23178558e-09  3.31399994e-09  4.57571306e-01  3.20434983e-09  4.57571306e-01  3.54321040e-09  4.57571306e-01  1.58436736e-07  1.21439209e-07  1.60000000e-01 
 1.70000000e-01  3.23178558e-09  3.31399994e-09  4.57571317e-01  3.20434983e-09  4.57571317e-01  3.54321041e-09  4.57571317e-01  1.58436752e-07  1.21439127e-07  1.70000000e-01 
 1.80000000e-01  3.23178558e-09  3.31399994e-09  4.57571313e-01  3.20434988e-09  4.57571313e-01  3.54321041e-09  4.57571313e-01  1.58436733e-07  1.21438850e-07  1.80000000e-01 
 1.90000000e-01  3.23178558e-09  3.31400000e-09  4.57571315e-01  3.20434983e-09  4.57571315e-01  3.54321041e-09  4.57571315e-01  1.58436741e-07  1.21438728e-07  1.90000000e-01 
 2.00000000e-01  3.23178553e-09  3.31399994e-09  4.57571327e-01  3.20434983e-09  4.57571327e-01  3.54321041e-09  4.57571327e-01  1.58436766e-07  1.21438587e-07  2.00000000e-01 
 2.10000000e-01  3.23178558e-09  3.31399994e-09  4.57571315e-01  3.20434988e-09  4.57571315e-01  3.54321046e-09  4.57571315e-01  1.58436742e-07  1.21438243e-07  2.10000000e-01 
 2.20000000e-01  3.23178552e-09  3.31399994e-09  4.57571317e-01  3.20434983e-09  4.57571317e-01  3.54321041e-09  4.57571317e-01  1.58436747e-07  1.21438157e-07  2.20000000e-01 
 2.30000000e-01  3.23178552e-09  3.31399994e-09  4.57571324e-01  3.20434988e-09  4.57571324e-01  3.54321041e-09  4.57571324e-01  1.58436758e-07  1.21438061e-07  2.30000000e-01 
 2.40000000e-01  3.23178552e-09  3.31399994e-09  4.57571289e-01  3.20434983e-09  4.57571289e-01  3.54321040e-09  4.57571289e-01  1.58436704e-07  1.21437699e-07  2.40000000e-01 
 2.50000000e-01  3.23178558e-09  3.31400000e-09  4.57571307e-01  3.20434983e-09  4.57571307e-01  3.54321040e-09  4.57571307e-01  1.58436725e-07  1.21437683e-07  2.50000000e-01 
 2.60000000e-01  3.23178558e-09  3.31399994e-09  4.57571330e-01  3.20434983e-09  4.57571330e-01  3.54321041e-09  4.57571330e-01  1.58436774e-07  1.21437685e-07  2.60000000e-01 
 2.70000000e-01  3.23178558e-09  3.31399994e-09  4.57571313e-01  3.20434983e-09  4.57571313e-01  3.54321046e-09  4.57571313e-01  1.58436748e-07  1.21437440e-07  2.70000000e-01 
 2.80000000e-01  3.23178558e-09  3.31399994e-09  4.57571298e-01  3.20434983e-09  4.57571298e-01  3.54321040e-09  4.57571298e-01  1.58436715e-07  1.21437340e-07  2.80000000e-01 
 2.90000000e-01  3.23178558e-09  3.31399994e-09  4.57571303e-01  3.20434983e-09  4.57571303e-01  3.54321040e-09  4.57571303e-01  1.58436724e-07  1.21437139e-07  2.90000000e-01 
 3.00000000e-01  3.23178558e-09  3.31399994e-09  4.57571297e-01  3.20434983e-09  4.57571297e-01  3.54321040e-09  4.57571297e-01  1.58436726e-07  1.21436976e-07  3.00000000e-01 
 3.10000000e-01  3.23178552e-09  3.31399994e-09  4.57571310e-01  3.20434983e-09  4.57571310e-01  3.54321041e-09  4.57571310e-01  1.58436733e-07  1.21436877e-07  3.10000000e-01 
 3.20000000e-01  3.23178552e-09  3.31399994e-09  4.57571309e-01  3.20434988e-09  4.57571309e-01  3.54321040e-09  4.57571309e-01  1.58436737e-07  1.21436742e-07  3.20000000e-01 
 3.30000000e-01  3.23178558e-09  3.31399994e-09  4.57571303e-01  3.20434988e-09  4.57571303e-01  3.54321040e-09  4.57571303e-01  1.58436730e-07  1.21436628e-07  3.30000000e-01 
 3.40000000e-01  3.23178558e-09  3.31399994e-09  4.57571308e-01  3.20434988e-09  4.57571308e-01  3.54321040e-09  4.57571308e-01  1.58436739e-07  1.21436557e-07  3.40000000e-01 
 3.50000000e-01  3.23178552e-09  3.31400000e-09  4.57571304e-01  3.20434988e-09  4.57571304e-01  3.54321040e-09  4.57571304e-01  1.58436729e-07  1.21436393e-07  3.50000000e-01 
 3.60000000e-01  3.23178552e-09  3.31399994e-09  4.57571300e-01  3.20434988e-09  4.57571300e-01  3.54321040e-09  4.57571300e-01  1.58436720e-07  1.21436244e-07  3.60000000e-01 
 3.70000000e-01  3.23178552e-09  3.31399994e-09  4.57571304e-01  3.20434988e-09  4.57571304e-01  3.54321046e-09  4.57571304e-01  1.58436735e-07  1.21436241e-07  3.70000000e-01 
 3.80000000e-01  3.23178558e-09  3.31399994e-09  4.57571323e-01  3.20434988e-09  4.57571323e-01  3.54321041e-09  4.57571323e-01  1.58436754e-07  1.21436134e-07  3.80000000e-01 
 3.90000000e-01  3.23178552e-09  3.31399994e-09  4.57571292e-01  3.20434983e-09  4.57571292e-01  3.54321040e-09  4.57571292e-01  1.58436728e-07  1.21435967e-07  3.90000000e-01 
 4.00000000e-01  3.23178553e-09  3.31399994e-09  4.57571325e-01  3.20434983e-09  4.57571325e-01  3.54321041e-09  4.57571325e-01  1.58436744e-07  1.21435960e-07  4.00000000e-01 
 4.10000000e-01  3.23178558e-09  3.31399994e-09  4.57571297e-01  3.20434988e-09  4.57571297e-01  3.54321046e-09  4.57571297e-01  1.58436718e-07  1.21435786e-07  4.10000000e-01 
 4.20000000e-01  3.23178558e-09  3.31399994e-09  4.57571298e-01  3.20434983e-09  4.57571298e-01  3.54321046e-09  4.57571298e-01  1.58436721e-07  1.21435654e-07  4.20000000e-01 
 4.30000000e-01  3.23178552e-09  3.31399994e-09  4.57571290e-01  3.20434988e-09  4.57571290e-01  3.54321040e-09  4.57571290e-01  1.58436706e-07  1.21435473e-07  4.30000000e-01 
 4.40000000e-01  3.23178558e-09  3.31399994e-09  4.57571301e-01  3.20434983e-09  4.57571301e-01  3.54321040e-09  4.57571302e-01  1.58436731e-07  1.21435392e-07  4.40000000e-01 
 4.50000000e-01  3.23178552e-09  3.31399994e-09  4.57571298e-01  3.20434983e-09  4.57571298e-01  3.54321040e-09  4.57571298e-01  1.58436715e-07  1.21435360e-07  4.50000000e-01 
 4.60000000e-01  3.23178558e-09  3.31399994e-09  4.57571291e-01  3.20434988e-09  4.57571291e-01  3.54321040e-09  4.57571291e-01  1.58436706e-07  1.21435278e-07  4.60000000e-01 
 4.70000000e-01  3.23178552e-09  3.31399994e-09  4.57571298e-01  3.20434983e-09  4.57571298e-01  3.54321040e-09  4.57571299e-01  1.58436718e-07  1.21435189e-07  4.70000000e-01 
 4.80000000e-01  3.23178558e-09  3.31399994e-09  4.57571303e-01  3.20434988e-09  4.57571303e-01  3.54321040e-09  4.57571303e-01  1.58436713e-07  1.21435029e-07  4.80000000e-01 
 4.90000000e-01  3.23178558e-09  3.31399994e-09  4.57571325e-01  3.20434988e-09  4.57571325e-01  3.54321041e-09  4.57571325e-01  1.58436760e-07  1.21434994e-07  4.90000000e-01 
 5.00000000e-01  3.23178552e-09  3.31399994e-09  4.57571316e-01  3.20434983e-09  4.57571316e-01  3.54321046e-09  4.57571316e-01  1.58436750e-07  1.21434969e-07  5.00000000e-01 
 5.10000000e-01  3.23178558e-09  3.31399994e-09  4.57571320e-01  3.20434983e-09  4.57571320e-01  3.54321041e-09  4.57571320e-01  1.58436759e-07  1.21434976e-07  5.10000000e-01 
 5.20000000e-01  3.23178552e-09  3.31399994e-09  4.57571312e-01  3.20434983e-09  4.57571312e-01  3.54321041e-09  4.57571312e-01  1.58436740e-07  1.21434834e-07  5.20000000e-01 
 5.30000000e-01  3.23178558e-09  3.31399994e-09  4.57571282e-01  3.20434983e-09  4.57571282e-01  3.54321046e-09  4.57571282e-01  1.58436678e-07  1.21434603e-07  5.30000000e-01 
 5.40000000e-01  3.23178552e-09  3.31399994e-09  4.57571314e-01  3.20434983e-09  4.57571314e-01  3.54321041e-09  4.57571314e-01  1.58436754e-07  1.21434596e-07  5.40000000e-01 
 5.50000000e-01  3.23178558e-09  3.31399994e-09  4.57571285e-01  3.20434988e-09  4.57571285e-01  3.54321040e-09  4.57571285e-01  1.58436696e-07  1.21434475e-07  5.50000000e-01 
 5.60000000e-01  3.23178552e-09  3.31400000e-09  4.57571305e-01  3.20434983e-09  4.57571305e-01  3.54321040e-09  4.57571305e-01  1.58436719e-07  1.21434322e-07  5.60000000e-01 
 5.70000000e-01  3.23178558e-09  3.31400000e-09  4.57571291e-01  3.20434988e-09  4.57571291e-01  3.54321040e-09  4.57571291e-01  1.58436721e-07  1.21434180e-07  5.70000000e-01 
 5.80000000e-01  3.23178558e-09  3.31399994e-09  4.57571309e-01  3.20434983e-09  4.57571309e-01  3.54321040e-09  4.57571309e-01  1.58436741e-07  1.21434248e-07  5.80000000e-01 
 5.90000000e-01  3.23178558e-09  3.31399994e-09  4.57571298e-01  3.20434983e-09  4.57571298e-01  3.54321040e-09  4.57571298e-01  1.58436719e-07  1.21434027e-07  5.90000000e-01 
 6.00000000e-01  3.23178552e-09  3.31399994e-09  4.57571300e-01  3.20434983e-09  4.57571300e-01  3.54321040e-09  4.57571300e-01  1.58436714e-07  1.21434013e-07  6.00000000e-01 
 6.10000000e-01  3.23178558e-09  3.31399994e-09  4.57571307e-01  3.20434983e-09  4.57571307e-01  3.54321040e-09  4.57571307e-01  1.58436730e-07  1.21433970e-07  6.10000000e-01 
 6.20000000e-01  3.23178558e-09  3.31399994e-09  4.57571301e-01  3.20434988e-09  4.57571301e-01  3.54321046e-09  4.57571301e-01  1.58436722e-07  1.21433871e-07  6.20000000e-01 
 6.30000000e-01  3.23178558e-09  3.31400000e-09  4.57571310e-01  3.20434988e-09  4.57571310e-01  3.54321041e-09  4.57571310e-01  1.58436732e-07  1.21433793e-07  6.30000000e-01 
 6.40000000e-01  3.23178558e-09  3.31399994e-09  4.57571319e-01  3.20434988e-09  4.57571319e-01  3.54321041e-09  4.57571319e-01  1.58436760e-07  1.21433700e-07  6.40000000e-01 
 6.50000000e-01  3.23178552e-09  3.31399994e-09  4.57571321e-01  3.20434988e-09  4.57571321e-01  3.54321046e-09  4.57571321e-01  1.58436757e-07  1.21433729e-07  6.50000000e-01 
 6.60000000e-01  3.23178558e-09  3.31399994e-09  4.57571297e-01  3.20434983e-09  4.57571297e-01  3.54321040e-09  4.57571297e-01  1.58436723e-07  1.21433516e-07  6.60000000e-01 
 6.70000000e-01  3.23178552e-09  3.31399994e-09  4.57571318e-01  3.20434983e-09  4.57571318e-01  3.54321041e-09  4.57571318e-01  1.58436762e-07  1.21433615e-07  6.70000000e-01 
 6.80000000e-01  3.23178558e-09  3.31399994e-09  4.57571294e-01  3.20434988e-09  4.57571294e-01  3.54321040e-09  4.57571294e-01  1.58436704e-07  1.21433310e-07  6.80000000e-01 
 6.90000000e-01  3.23178552e-09  3.31399994e-09  4.57571316e-01  3.20434988e-09  4.57571316e-01  3.54321046e-09  4.57571316e-01  1.58436755e-07  1.21433352e-07  6.90000000e-01 
 7.00000000e-01  3.23178552e-09  3.31399994e-09  4.57571311e-01  3.20434988e-09  4.57571311e-01  3.54321041e-09  4.57571311e-01  1.58436746e-07  1.21433217e-07  7.00000000e-01 
 7.10000000e-01  3.23178552e-09  3.31399994e-09  4.57571305e-01  3.20434983e-09  4.57571305e-01  3.54321046e-09  4.57571306e-01  1.58436723e-07  1.21433089e-07  7.10000000e-01 
 7.20000000e-01  3.23178558e-09  3.31399994e-09  4.57571309e-01  3.20434988e-09  4.57571309e-01  3.54321040e-09  4.57571309e-01  1.58436737e-07  1.21433068e-07  7.20000000e-01 
 7.30000000e-01  3.23178552e-09  3.31399994e-09  4.57571317e-01  3.20434988e-09  4.57571317e-01  3.54321041e-09  4.57571317e-01  1.58436753e-07  1.21432976e-07  7.30000000e-01 
 7.40000000e-01  3.23178558e-09  3.31399994e-09  4.57571325e-01  3.20434983e-09  4.57571325e-01  3.54321041e-09  4.57571325e-01  1.58436752e-07  1.21433047e-07  7.40000000e-01 
 7.50000000e-01  3.23178558e-09  3.31400000e-09  4.57571320e-01  3.20434988e-09  4.57571320e-01  3.54321041e-09  4.57571320e-01  1.58436748e-07  1.21432826e-07  7.50000000e-01 
 7.60000000e-01  3.23178552e-09  3.31399994e-09  4.57571302e-01  3.20434983e-09  4.57571302e-01  3.54321040e-09  4.57571302e-01  1.58436723e-07  1.21432606e-07  7.60000000e-01 
 7.70000000e-01  3.23178558e-09  3.31399994e-09  4.57571312e-01  3.20434988e-09  4.57571312e-01  3.54321041e-09  4.57571312e-01  1.58436732e-07  1.21432620e-07  7.70000000e-01 
 7.80000000e-01  3.23178558e-09  3.31399994e-09  4.57571307e-01  3.20434983e-09  4.57571307e-01  3.54321040e-09  4.57571307e-01  1.58436729e-07  1.21432457e-07  7.80000000e-01 
 7.90000000e-01  3.23178552e-09  3.31399994e-09  4.57571308e-01  3.20434983e-09  4.57571308e-01  3.54321040e-09  4.57571308e-01  1.58436730e-07  1.21432528e-07  7.90000000e-01 
 8.00000000e-01  3.23178552e-09  3.31399994e-09  4.57571308e-01  3.20434988e-09  4.57571308e-01  3.54321040e-09  4.57571308e-01  1.58436733e-07  1.21432350e-07  8.00000000e-01 
 8.10000000e-01  3.23178552e-09  3.31399994e-09  4.57571302e-01  3.20434988e-09  4.57571302e-01  3.54321040e-09  4.57571302e-01  1.58436728e-07  1.21432144e-07  8.10000000e-01 
 8.20000000e-01  3.23178552e-09  3.31399994e-09  4.57571317e-01  3.20434988e-09  4.57571317e-01  3.54321041e-09  4.57571317e-01  1.58436755e-07  1.21432201e-07  8.20000000e-01 
 8.30000000e-01  3.23178552e-09  3.31399994e-09  4.57571318e-01  3.20434983e-09  4.57571318e-01  3.54321041e-09  4.57571318e-01  1.58436748e-07  1.21432080e-07  8.30000000e-01 
 8.40000000e-01  3.23178552e-09  3.31399994e-09  4.57571310e-01  3.20434988e-09  4.57571310e-01  3.54321040e-09  4.57571310e-01  1.58436741e-07  1.21431974e-07  8.40000000e-01 
 8.50000000e-01  3.23178558e-09  3.31400000e-09  4.57571312e-01  3.20434988e-09  4.57571312e-01  3.54321041e-09  4.57571313e-01  1.58436747e-07  1.21432009e-07  8.50000000e-01 
 8.60000000e-01  3.23178558e-09  3.31399994e-09  4.57571317e-01  3.20434988e-09  4.57571317e-01  3.54321041e-09  4.57571317e-01  1.58436741e-07  1.21431839e-07  8.60000000e-01 
 8.70000000e-01  3.23178552e-09  3.31400000e-09  4.57571295e-01  3.20434988e-09  4.57571295e-01  3.54321040e-09  4.57571295e-01  1.58436724e-07  1.21431739e-07  8.70000000e-01 
 8.80000000e-01  3.23178553e-09  3.31399994e-09  4.57571329e-01  3.20434988e-09  4.57571329e-01  3.54321041e-09  4.57571329e-01  1.58436767e-07  1.21431711e-07  8.80000000e-01 
 8.90000000e-01  3.23178558e-09  3.31399994e-09  4.57571308e-01  3.20434988e-09  4.57571308e-01  3.54321040e-09  4.57571308e-01  1.58436739e-07  1.21431626e-07  8.90000000e-01 
 9.00000000e-01  3.23178552e-09  3.31399994e-09  4.57571322e-01  3.20434983e-09  4.57571322e-01  3.54321046e-09  4.57571322e-01  1.58436758e-07  1.21431512e-07  9.00000000e-01 
 9.10000000e-01  3.23178558e-09  3.31399994e-09  4.57571316e-01  3.20434988e-09  4.57571316e-01  3.54321041e-09  4.57571316e-01  1.58436741e-07  1.21431405e-07  9.10000000e-01 
 9.20000000e-01  3.23178552e-09  3.31399994e-09  4.57571289e-01  3.20434988e-09  4.57571289e-01  3.54321040e-09  4.57571289e-01  1.58436711e-07  1.21431235e-07  9.20000000e-01 
 9.30000000e-01  3.23178552e-09  3.31399994e-09  4.57571318e-01  3.20434988e-09  4.57571318e-01  3.54321041e-09  4.57571318e-01  1.58436743e-07  1.21431313e-07  9.30000000e-01 
 9.40000000e-01  3.23178552e-09  3.31399994e-09  4.57571309e-01  3.20434988e-09  4.57571309e-01  3.54321040e-09  4.57571309e-01  1.58436734e-07  1.21431043e-07  9.40000000e-01 
 9.50000000e-01  3.23178552e-09  3.31399994e-09  4.57571284e-01  3.20434988e-09  4.57571284e-01  3.54321040e-09  4.57571284e-01  1.58436690e-07  1.21430901e-07  9.50000000e-01 
 9.60000000e-01  3.23178558e-09  3.31399994e-09  4.57571321e-01  3.20434988e-09  4.57571321e-01  3.54321041e-09  4.57571321e-01  1.58436760e-07  1.21430922e-07  9.60000000e-01 
 9.70000000e-01  3.23178552e-09  3.31399994e-09  4.57571300e-01  3.20434983e-09  4.57571300e-01  3.54321040e-09  4.57571300e-01  1.58436724e-07  1.21430766e-07  9.70000000e-01 
 9.80000000e-01  3.23178558e-09  3.31399994e-09  4.57571312e-01  3.20434988e-09  4.57571312e-01  3.54321041e-09  4.57571312e-01  1.58436741e-07  1.21430631e-07  9.80000000e-01 
 9.90000000e-01  3.23178552e-09  3.31399994e-09  4.57571308e-01  3.20434988e-09  4.57571308e-01  3.54321040e-09  4.57571308e-01  1.58436732e-07  1.21430595e-07  9.90000000e-01 
 1.00000000e+00  3.23178558e-09  3.31399994e-09  4.57571339e-01  3.20434983e-09  4.57571339e-01  3.54321041e-09  4.57571339e-01  1.58436775e-07  1.21430638e-07  1.00000000e+00 
 1.01000000e+00  3.23178558e-09  3.31400000e-09  4.57571295e-01  3.20434988e-09  4.57571295e-01  3.54321040e-09  4.57571295e-01  1.58436729e-07  1.21430375e-07  1.01000000e+00 
 1.02000000e+00  3.23178558e-09  3.31400000e-09  4.57571300e-01  3.20434988e-09  4.57571300e-01  3.54321040e-09  4.57571300e-01  1.58436731e-07  1.21430404e-07  1.02000000e+00 
 1.03000000e+00  3.23178552e-09  3.31399994e-09  4.57571314e-01  3.20434983e-09  4.57571314e-01  3.54321041e-09  4.57571314e-01  1.58436743e-07  1.21430247e-07  1.03000000e+00 
 1.04000000e+00  3.23178552e-09  3.31399994e-09  4.57571317e-01  3.20434988e-09  4.57571317e-01  3.54321041e-09  4.57571317e-01  1.58436745e-07  1.21430119e-07  1.04000000e+00 
 1.05000000e+00  3.23178553e-09  3.31399994e-09  4.57571326e-01  3.20434988e-09  4.57571326e-01  3.54321041e-09  4.57571326e-01  1.58436766e-07  1.21429999e-07  1.05000000e+00 
 1.06000000e+00  3.23178552e-09  3.31399994e-09  4.57571311e-01  3.20434983e-09  4.57571311e-01  3.54321041e-09  4.57571311e-01  1.58436738e-07  1.21429856e-07  1.06000000e+00 
 1.07000000e+00  3.23178552e-09  3.31400000e-09  4.57571320e-01  3.20434983e-09  4.57571320e-01  3.54321041e-09  4.57571320e-01  1.58436750e-07  1.21429935e-07  1.07000000e+00 
 1.08000000e+00  3.23178552e-09  3.31399994e-09  4.57571317e-01  3.20434983e-09  4.57571317e-01  3.54321046e-09  4.57571317e-01  1.58436745e-07  1.21429693e-07  1.08000000e+00 
 1.09000000e+00  3.23178552e-09  3.31399994e-09  4.57571296e-01  3.20434983e-09  4.57571296e-01  3.54321040e-09  4.57571296e-01  1.58436718e-07  1.21429565e-07  1.09000000e+00 
 1.10000000e+00  3.23178552e-09  3.31399994e-09  4.57571285e-01  3.20434983e-09  4.57571285e-01  3.54321040e-09  4.57571285e-01  1.58436708e-07  1.21429359e-07  1.10000000e+00 
