 v-sweep         v(b0)           v(b1)           v(b2)           v(b3)           v(b4)           v(b5)           v(b6)           i(vbias)        i(viout)        v(vout)        
 0.00000000e+00  4.56988151e-01  4.56988151e-01  4.56988151e-01  4.56988151e-01  4.56988151e-01  3.45893020e-09  3.35013499e-09  1.55586314e-07  4.59695446e-08  0.00000000e+00 
 1.00000000e-02  4.56988137e-01  4.56988137e-01  4.56988137e-01  4.56988137e-01  4.56988137e-01  3.45893012e-09  3.35013497e-09  1.55586286e-07  4.59691074e-08  1.00000000e-02 
 2.00000000e-02  4.56988134e-01  4.56988134e-01  4.56988134e-01  4.56988134e-01  4.56988134e-01  3.45893018e-09  3.35013491e-09  1.55586282e-07  4.59686968e-08  2.00000000e-02 
 3.00000000e-02  4.56988148e-01  4.56988148e-01  4.56988148e-01  4.56988148e-01  4.56988148e-01  3.45893017e-09  3.35013492e-09  1.55586309e-07  4.59684435e-08  3.00000000e-02 
 4.00000000e-02  4.56988148e-01  4.56988148e-01  4.56988148e-01  4.56988148e-01  4.56988148e-01  3.45893018e-09  3.35013496e-09  1.55586290e-07  4.59679677e-08  4.00000000e-02 
 5.00000000e-02  4.56988142e-01  4.56988142e-01  4.56988142e-01  4.56988142e-01  4.56988142e-01  3.45893017e-09  3.35013497e-09  1.55586286e-07  4.59676812e-08  5.00000000e-02 
 6.00000000e-02  4.56988157e-01  4.56988157e-01  4.56988157e-01  4.56988157e-01  4.56988157e-01  3.45893013e-09  3.35013491e-09  1.55586315e-07  4.59674889e-08  6.00000000e-02 
 7.00000000e-02  4.56988161e-01  4.56988161e-01  4.56988161e-01  4.56988161e-01  4.56988161e-01  3.45893018e-09  3.35013498e-09  1.55586324e-07  4.59670946e-08  7.00000000e-02 
 8.00000000e-02  4.56988137e-01  4.56988137e-01  4.56988137e-01  4.56988137e-01  4.56988137e-01  3.45893012e-09  3.35013496e-09  1.55586278e-07  4.59668996e-08  8.00000000e-02 
 9.00000000e-02  4.56988136e-01  4.56988136e-01  4.56988136e-01  4.56988136e-01  4.56988136e-01  3.45893012e-09  3.35013491e-09  1.55586274e-07  4.59665435e-08  9.00000000e-02 
 1.00000000e-01  4.56988151e-01  4.56988151e-01  4.56988151e-01  4.56988151e-01  4.56988151e-01  3.45893012e-09  3.35013498e-09  1.55586312e-07  4.59662273e-08  1.00000000e-01 
 1.10000000e-01  4.56988145e-01  4.56988145e-01  4.56988145e-01  4.56988145e-01  4.56988145e-01  3.45893012e-09  3.35013496e-09  1.55586305e-07  4.59660283e-08  1.10000000e-01 
 1.20000000e-01  4.56988146e-01  4.56988146e-01  4.56988146e-01  4.56988146e-01  4.56988146e-01  3.45893018e-09  3.35013497e-09  1.55586297e-07  4.59658418e-08  1.20000000e-01 
 1.30000000e-01  4.56988154e-01  4.56988154e-01  4.56988154e-01  4.56988154e-01  4.56988154e-01  3.45893018e-09  3.35013491e-09  1.55586309e-07  4.59656535e-08  1.30000000e-01 
 1.40000000e-01  4.56988120e-01  4.56988120e-01  4.56988120e-01  4.56988120e-01  4.56988120e-01  3.45893012e-09  3.35013498e-09  1.55586261e-07  4.59654235e-08  1.40000000e-01 
 1.50000000e-01  4.56988149e-01  4.56988149e-01  4.56988149e-01  4.56988149e-01  4.56988149e-01  3.45893018e-09  3.35013496e-09  1.55586302e-07  4.59652068e-08  1.50000000e-01 
 1.60000000e-01  4.56988125e-01  4.56988125e-01  4.56988125e-01  4.56988125e-01  4.56988125e-01  3.45893012e-09  3.35013496e-09  1.55586284e-07  4.59649403e-08  1.60000000e-01 
 1.70000000e-01  4.56988151e-01  4.56988151e-01  4.56988151e-01  4.56988151e-01  4.56988151e-01  3.45893018e-09  3.35013497e-09  1.55586301e-07  4.59646881e-08  1.70000000e-01 
 1.80000000e-01  4.56988128e-01  4.56988128e-01  4.56988128e-01  4.56988128e-01  4.56988128e-01  3.45893012e-09  3.35013496e-09  1.55586262e-07  4.59646738e-08  1.80000000e-01 
 1.90000000e-01  4.56988135e-01  4.56988135e-01  4.56988135e-01  4.56988135e-01  4.56988135e-01  3.45893012e-09  3.35013497e-09  1.55586264e-07  4.59644021e-08  1.90000000e-01 
 2.00000000e-01  4.56988129e-01  4.56988129e-01  4.56988129e-01  4.56988129e-01  4.56988129e-01  3.45893012e-09  3.35013496e-09  1.55586274e-07  4.59643097e-08  2.00000000e-01 
 2.10000000e-01  4.56988142e-01  4.56988142e-01  4.56988142e-01  4.56988142e-01  4.56988142e-01  3.45893018e-09  3.35013497e-09  1.55586289e-07  4.59641250e-08  2.10000000e-01 
 2.20000000e-01  4.56988127e-01  4.56988127e-01  4.56988127e-01  4.56988127e-01  4.56988127e-01  3.45893018e-09  3.35013496e-09  1.55586261e-07  4.59640006e-08  2.20000000e-01 
 2.30000000e-01  4.56988132e-01  4.56988132e-01  4.56988132e-01  4.56988132e-01  4.56988132e-01  3.45893018e-09  3.35013497e-09  1.55586273e-07  4.59638620e-08  2.30000000e-01 
 2.40000000e-01  4.56988135e-01  4.56988135e-01  4.56988135e-01  4.56988135e-01  4.56988135e-01  3.45893018e-09  3.35013497e-09  1.55586290e-07  4.59637057e-08  2.40000000e-01 
 2.50000000e-01  4.56988160e-01  4.56988160e-01  4.56988160e-01  4.56988160e-01  4.56988160e-01  3.45893012e-09  3.35013497e-09  1.55586322e-07  4.59635565e-08  2.50000000e-01 
 2.60000000e-01  4.56988150e-01  4.56988150e-01  4.56988150e-01  4.56988150e-01  4.56988150e-01  3.45893018e-09  3.35013497e-09  1.55586291e-07  4.59635174e-08  2.60000000e-01 
 2.70000000e-01  4.56988127e-01  4.56988128e-01  4.56988128e-01  4.56988128e-01  4.56988128e-01  3.45893012e-09  3.35013496e-09  1.55586278e-07  4.59633078e-08  2.70000000e-01 
 2.80000000e-01  4.56988147e-01  4.56988147e-01  4.56988147e-01  4.56988147e-01  4.56988147e-01  3.45893012e-09  3.35013497e-09  1.55586298e-07  4.59633025e-08  2.80000000e-01 
 2.90000000e-01  4.56988119e-01  4.56988119e-01  4.56988119e-01  4.56988119e-01  4.56988119e-01  3.45893018e-09  3.35013496e-09  1.55586263e-07  4.59630840e-08  2.90000000e-01 
 3.00000000e-01  4.56988114e-01  4.56988114e-01  4.56988114e-01  4.56988114e-01  4.56988114e-01  3.45893018e-09  3.35013496e-09  1.55586257e-07  4.59630414e-08  3.00000000e-01 
 3.10000000e-01  4.56988129e-01  4.56988129e-01  4.56988129e-01  4.56988129e-01  4.56988129e-01  3.45893012e-09  3.35013491e-09  1.55586281e-07  4.59629312e-08  3.10000000e-01 
 3.20000000e-01  4.56988144e-01  4.56988144e-01  4.56988144e-01  4.56988144e-01  4.56988144e-01  3.45893012e-09  3.35013492e-09  1.55586292e-07  4.59628566e-08  3.20000000e-01 
 3.30000000e-01  4.56988133e-01  4.56988133e-01  4.56988133e-01  4.56988133e-01  4.56988133e-01  3.45893018e-09  3.35013496e-09  1.55586264e-07  4.59627252e-08  3.30000000e-01 
 3.40000000e-01  4.56988143e-01  4.56988143e-01  4.56988143e-01  4.56988143e-01  4.56988143e-01  3.45893018e-09  3.35013497e-09  1.55586319e-07  4.59625937e-08  3.40000000e-01 
 3.50000000e-01  4.56988125e-01  4.56988125e-01  4.56988125e-01  4.56988125e-01  4.56988125e-01  3.45893018e-09  3.35013496e-09  1.55586258e-07  4.59625618e-08  3.50000000e-01 
 3.60000000e-01  4.56988121e-01  4.56988121e-01  4.56988121e-01  4.56988121e-01  4.56988121e-01  3.45893012e-09  3.35013496e-09  1.55586248e-07  4.59624943e-08  3.60000000e-01 
 3.70000000e-01  4.56988151e-01  4.56988151e-01  4.56988151e-01  4.56988151e-01  4.56988151e-01  3.45893012e-09  3.35013497e-09  1.55586314e-07  4.59624623e-08  3.70000000e-01 
 3.80000000e-01  4.56988109e-01  4.56988109e-01  4.56988109e-01  4.56988109e-01  4.56988109e-01  3.45893018e-09  3.35013496e-09  1.55586246e-07  4.59622456e-08  3.80000000e-01 
 3.90000000e-01  4.56988142e-01  4.56988142e-01  4.56988142e-01  4.56988142e-01  4.56988142e-01  3.45893018e-09  3.35013497e-09  1.55586298e-07  4.59621887e-08  3.90000000e-01 
 4.00000000e-01  4.56988129e-01  4.56988129e-01  4.56988129e-01  4.56988129e-01  4.56988129e-01  3.45893012e-09  3.35013496e-09  1.55586267e-07  4.59620253e-08  4.00000000e-01 
 4.10000000e-01  4.56988123e-01  4.56988123e-01  4.56988123e-01  4.56988123e-01  4.56988123e-01  3.45893012e-09  3.35013496e-09  1.55586257e-07  4.59619933e-08  4.10000000e-01 
 4.20000000e-01  4.56988153e-01  4.56988153e-01  4.56988153e-01  4.56988153e-01  4.56988153e-01  3.45893012e-09  3.35013497e-09  1.55586313e-07  4.59619969e-08  4.20000000e-01 
 4.30000000e-01  4.56988158e-01  4.56988158e-01  4.56988158e-01  4.56988158e-01  4.56988158e-01  3.45893012e-09  3.35013497e-09  1.55586310e-07  4.59618512e-08  4.30000000e-01 
 4.40000000e-01  4.56988130e-01  4.56988130e-01  4.56988130e-01  4.56988130e-01  4.56988130e-01  3.45893012e-09  3.35013491e-09  1.55586261e-07  4.59617695e-08  4.40000000e-01 
 4.50000000e-01  4.56988131e-01  4.56988131e-01  4.56988131e-01  4.56988131e-01  4.56988131e-01  3.45893012e-09  3.35013498e-09  1.55586271e-07  4.59617304e-08  4.50000000e-01 
 4.60000000e-01  4.56988119e-01  4.56988119e-01  4.56988119e-01  4.56988119e-01  4.56988119e-01  3.45893018e-09  3.35013496e-09  1.55586258e-07  4.59616345e-08  4.60000000e-01 
 4.70000000e-01  4.56988127e-01  4.56988127e-01  4.56988128e-01  4.56988127e-01  4.56988127e-01  3.45893012e-09  3.35013496e-09  1.55586258e-07  4.59615030e-08  4.70000000e-01 
 4.80000000e-01  4.56988153e-01  4.56988153e-01  4.56988153e-01  4.56988153e-01  4.56988153e-01  3.45893012e-09  3.35013497e-09  1.55586321e-07  4.59616452e-08  4.80000000e-01 
 4.90000000e-01  4.56988137e-01  4.56988137e-01  4.56988137e-01  4.56988137e-01  4.56988137e-01  3.45893018e-09  3.35013497e-09  1.55586286e-07  4.59616523e-08  4.90000000e-01 
 5.00000000e-01  4.56988150e-01  4.56988150e-01  4.56988150e-01  4.56988150e-01  4.56988150e-01  3.45893012e-09  3.35013497e-09  1.55586315e-07  4.59614640e-08  5.00000000e-01 
 5.10000000e-01  4.56988157e-01  4.56988157e-01  4.56988157e-01  4.56988157e-01  4.56988157e-01  3.45893018e-09  3.35013497e-09  1.55586300e-07  4.59614640e-08  5.10000000e-01 
 5.20000000e-01  4.56988133e-01  4.56988133e-01  4.56988133e-01  4.56988133e-01  4.56988133e-01  3.45893018e-09  3.35013497e-09  1.55586284e-07  4.59613716e-08  5.20000000e-01 
 5.30000000e-01  4.56988136e-01  4.56988136e-01  4.56988137e-01  4.56988136e-01  4.56988136e-01  3.45893012e-09  3.35013497e-09  1.55586286e-07  4.59612828e-08  5.30000000e-01 
 5.40000000e-01  4.56988155e-01  4.56988155e-01  4.56988155e-01  4.56988155e-01  4.56988155e-01  3.45893012e-09  3.35013491e-09  1.55586305e-07  4.59612401e-08  5.40000000e-01 
 5.50000000e-01  4.56988138e-01  4.56988138e-01  4.56988138e-01  4.56988138e-01  4.56988138e-01  3.45893012e-09  3.35013492e-09  1.55586283e-07  4.59611691e-08  5.50000000e-01 
 5.60000000e-01  4.56988163e-01  4.56988163e-01  4.56988163e-01  4.56988163e-01  4.56988163e-01  3.45893012e-09  3.35013496e-09  1.55586334e-07  4.59610803e-08  5.60000000e-01 
 5.70000000e-01  4.56988149e-01  4.56988149e-01  4.56988149e-01  4.56988149e-01  4.56988149e-01  3.45893012e-09  3.35013497e-09  1.55586303e-07  4.59609950e-08  5.70000000e-01 
 5.80000000e-01  4.56988150e-01  4.56988150e-01  4.56988150e-01  4.56988150e-01  4.56988150e-01  3.45893012e-09  3.35013497e-09  1.55586291e-07  4.59609311e-08  5.80000000e-01 
 5.90000000e-01  4.56988137e-01  4.56988137e-01  4.56988137e-01  4.56988137e-01  4.56988137e-01  3.45893012e-09  3.35013497e-09  1.55586284e-07  4.59608813e-08  5.90000000e-01 
 6.00000000e-01  4.56988136e-01  4.56988136e-01  4.56988136e-01  4.56988136e-01  4.56988136e-01  3.45893012e-09  3.35013491e-09  1.55586278e-07  4.59608245e-08  6.00000000e-01 
 6.10000000e-01  4.56988151e-01  4.56988151e-01  4.56988151e-01  4.56988151e-01  4.56988151e-01  3.45893012e-09  3.35013498e-09  1.55586300e-07  4.59607961e-08  6.10000000e-01 
 6.20000000e-01  4.56988146e-01  4.56988146e-01  4.56988146e-01  4.56988146e-01  4.56988146e-01  3.45893018e-09  3.35013496e-09  1.55586299e-07  4.59607179e-08  6.20000000e-01 
 6.30000000e-01  4.56988138e-01  4.56988138e-01  4.56988138e-01  4.56988138e-01  4.56988138e-01  3.45893012e-09  3.35013497e-09  1.55586291e-07  4.59606255e-08  6.30000000e-01 
 6.40000000e-01  4.56988140e-01  4.56988140e-01  4.56988140e-01  4.56988140e-01  4.56988140e-01  3.45893012e-09  3.35013497e-09  1.55586277e-07  4.59605900e-08  6.40000000e-01 
 6.50000000e-01  4.56988163e-01  4.56988163e-01  4.56988163e-01  4.56988163e-01  4.56988163e-01  3.45893018e-09  3.35013497e-09  1.55586326e-07  4.59605971e-08  6.50000000e-01 
 6.60000000e-01  4.56988137e-01  4.56988137e-01  4.56988137e-01  4.56988137e-01  4.56988137e-01  3.45893018e-09  3.35013497e-09  1.55586275e-07  4.59604692e-08  6.60000000e-01 
 6.70000000e-01  4.56988121e-01  4.56988121e-01  4.56988121e-01  4.56988121e-01  4.56988121e-01  3.45893012e-09  3.35013496e-09  1.55586257e-07  4.59604408e-08  6.70000000e-01 
 6.80000000e-01  4.56988133e-01  4.56988133e-01  4.56988133e-01  4.56988133e-01  4.56988133e-01  3.45893018e-09  3.35013497e-09  1.55586277e-07  4.59603626e-08  6.80000000e-01 
 6.90000000e-01  4.56988132e-01  4.56988132e-01  4.56988132e-01  4.56988132e-01  4.56988132e-01  3.45893018e-09  3.35013497e-09  1.55586284e-07  4.59603555e-08  6.90000000e-01 
 7.00000000e-01  4.56988137e-01  4.56988137e-01  4.56988137e-01  4.56988137e-01  4.56988137e-01  3.45893018e-09  3.35013497e-09  1.55586287e-07  4.59602560e-08  7.00000000e-01 
 7.10000000e-01  4.56988139e-01  4.56988139e-01  4.56988139e-01  4.56988139e-01  4.56988139e-01  3.45893018e-09  3.35013491e-09  1.55586295e-07  4.59601992e-08  7.10000000e-01 
 7.20000000e-01  4.56988148e-01  4.56988148e-01  4.56988148e-01  4.56988148e-01  4.56988148e-01  3.45893018e-09  3.35013498e-09  1.55586299e-07  4.59602347e-08  7.20000000e-01 
 7.30000000e-01  4.56988126e-01  4.56988126e-01  4.56988127e-01  4.56988126e-01  4.56988126e-01  3.45893018e-09  3.35013496e-09  1.55586269e-07  4.59599789e-08  7.30000000e-01 
 7.40000000e-01  4.56988133e-01  4.56988133e-01  4.56988133e-01  4.56988133e-01  4.56988133e-01  3.45893018e-09  3.35013497e-09  1.55586276e-07  4.59600713e-08  7.40000000e-01 
 7.50000000e-01  4.56988137e-01  4.56988137e-01  4.56988137e-01  4.56988137e-01  4.56988137e-01  3.45893012e-09  3.35013497e-09  1.55586284e-07  4.59599221e-08  7.50000000e-01 
 7.60000000e-01  4.56988161e-01  4.56988161e-01  4.56988161e-01  4.56988161e-01  4.56988161e-01  3.45893012e-09  3.35013497e-09  1.55586317e-07  4.59598439e-08  7.60000000e-01 
 7.70000000e-01  4.56988142e-01  4.56988142e-01  4.56988142e-01  4.56988142e-01  4.56988142e-01  3.45893012e-09  3.35013497e-09  1.55586281e-07  4.59599860e-08  7.70000000e-01 
 7.80000000e-01  4.56988146e-01  4.56988146e-01  4.56988146e-01  4.56988146e-01  4.56988146e-01  3.45893012e-09  3.35013497e-09  1.55586305e-07  4.59597800e-08  7.80000000e-01 
 7.90000000e-01  4.56988155e-01  4.56988155e-01  4.56988155e-01  4.56988155e-01  4.56988155e-01  3.45893018e-09  3.35013497e-09  1.55586314e-07  4.59597516e-08  7.90000000e-01 
 8.00000000e-01  4.56988134e-01  4.56988134e-01  4.56988134e-01  4.56988134e-01  4.56988134e-01  3.45893012e-09  3.35013497e-09  1.55586270e-07  4.59597373e-08  8.00000000e-01 
 8.10000000e-01  4.56988131e-01  4.56988131e-01  4.56988131e-01  4.56988131e-01  4.56988131e-01  3.45893012e-09  3.35013497e-09  1.55586265e-07  4.59596308e-08  8.10000000e-01 
 8.20000000e-01  4.56988148e-01  4.56988148e-01  4.56988148e-01  4.56988148e-01  4.56988148e-01  3.45893018e-09  3.35013497e-09  1.55586313e-07  4.59595810e-08  8.20000000e-01 
 8.30000000e-01  4.56988137e-01  4.56988137e-01  4.56988137e-01  4.56988137e-01  4.56988137e-01  3.45893018e-09  3.35013497e-09  1.55586282e-07  4.59596095e-08  8.30000000e-01 
 8.40000000e-01  4.56988138e-01  4.56988138e-01  4.56988138e-01  4.56988138e-01  4.56988138e-01  3.45893018e-09  3.35013497e-09  1.55586284e-07  4.59595455e-08  8.40000000e-01 
 8.50000000e-01  4.56988145e-01  4.56988145e-01  4.56988145e-01  4.56988145e-01  4.56988145e-01  3.45893012e-09  3.35013497e-09  1.55586300e-07  4.59595100e-08  8.50000000e-01 
 8.60000000e-01  4.56988136e-01  4.56988136e-01  4.56988136e-01  4.56988136e-01  4.56988136e-01  3.45893012e-09  3.35013497e-09  1.55586288e-07  4.59593394e-08  8.60000000e-01 
 8.70000000e-01  4.56988131e-01  4.56988131e-01  4.56988131e-01  4.56988131e-01  4.56988131e-01  3.45893012e-09  3.35013491e-09  1.55586276e-07  4.59593110e-08  8.70000000e-01 
 8.80000000e-01  4.56988150e-01  4.56988150e-01  4.56988150e-01  4.56988150e-01  4.56988150e-01  3.45893012e-09  3.35013498e-09  1.55586321e-07  4.59592471e-08  8.80000000e-01 
 8.90000000e-01  4.56988146e-01  4.56988146e-01  4.56988146e-01  4.56988146e-01  4.56988146e-01  3.45893012e-09  3.35013496e-09  1.55586289e-07  4.59591831e-08  8.90000000e-01 
 9.00000000e-01  4.56988149e-01  4.56988149e-01  4.56988149e-01  4.56988149e-01  4.56988149e-01  3.45893018e-09  3.35013497e-09  1.55586301e-07  4.59591121e-08  9.00000000e-01 
 9.10000000e-01  4.56988141e-01  4.56988141e-01  4.56988141e-01  4.56988141e-01  4.56988141e-01  3.45893018e-09  3.35013497e-09  1.55586279e-07  4.59589842e-08  9.10000000e-01 
 9.20000000e-01  4.56988142e-01  4.56988142e-01  4.56988142e-01  4.56988142e-01  4.56988142e-01  3.45893018e-09  3.35013491e-09  1.55586300e-07  4.59590268e-08  9.20000000e-01 
 9.30000000e-01  4.56988127e-01  4.56988127e-01  4.56988127e-01  4.56988127e-01  4.56988127e-01  3.45893018e-09  3.35013498e-09  1.55586258e-07  4.59589060e-08  9.30000000e-01 
 9.40000000e-01  4.56988154e-01  4.56988154e-01  4.56988154e-01  4.56988154e-01  4.56988154e-01  3.45893012e-09  3.35013496e-09  1.55586305e-07  4.59588989e-08  9.40000000e-01 
 9.50000000e-01  4.56988137e-01  4.56988137e-01  4.56988137e-01  4.56988137e-01  4.56988137e-01  3.45893012e-09  3.35013491e-09  1.55586289e-07  4.59587923e-08  9.50000000e-01 
 9.60000000e-01  4.56988151e-01  4.56988151e-01  4.56988151e-01  4.56988151e-01  4.56988151e-01  3.45893018e-09  3.35013498e-09  1.55586308e-07  4.59586715e-08  9.60000000e-01 
 9.70000000e-01  4.56988128e-01  4.56988128e-01  4.56988128e-01  4.56988128e-01  4.56988128e-01  3.45893018e-09  3.35013496e-09  1.55586272e-07  4.59586005e-08  9.70000000e-01 
 9.80000000e-01  4.56988162e-01  4.56988162e-01  4.56988162e-01  4.56988162e-01  4.56988162e-01  3.45893012e-09  3.35013497e-09  1.55586327e-07  4.59586147e-08  9.80000000e-01 
 9.90000000e-01  4.56988126e-01  4.56988126e-01  4.56988126e-01  4.56988126e-01  4.56988126e-01  3.45893012e-09  3.35013496e-09  1.55586264e-07  4.59584939e-08  9.90000000e-01 
 1.00000000e+00  4.56988158e-01  4.56988158e-01  4.56988159e-01  4.56988158e-01  4.56988158e-01  3.45893012e-09  3.35013497e-09  1.55586316e-07  4.59585152e-08  1.00000000e+00 
 1.01000000e+00  4.56988150e-01  4.56988150e-01  4.56988150e-01  4.56988150e-01  4.56988150e-01  3.45893012e-09  3.35013497e-09  1.55586306e-07  4.59584442e-08  1.01000000e+00 
 1.02000000e+00  4.56988140e-01  4.56988140e-01  4.56988141e-01  4.56988140e-01  4.56988140e-01  3.45893012e-09  3.35013497e-09  1.55586294e-07  4.59583873e-08  1.02000000e+00 
 1.03000000e+00  4.56988140e-01  4.56988140e-01  4.56988140e-01  4.56988140e-01  4.56988140e-01  3.45893012e-09  3.35013497e-09  1.55586296e-07  4.59582026e-08  1.03000000e+00 
 1.04000000e+00  4.56988129e-01  4.56988129e-01  4.56988129e-01  4.56988129e-01  4.56988129e-01  3.45893018e-09  3.35013491e-09  1.55586259e-07  4.59581102e-08  1.04000000e+00 
 1.05000000e+00  4.56988153e-01  4.56988153e-01  4.56988153e-01  4.56988153e-01  4.56988153e-01  3.45893012e-09  3.35013498e-09  1.55586307e-07  4.59582310e-08  1.05000000e+00 
 1.06000000e+00  4.56988151e-01  4.56988151e-01  4.56988151e-01  4.56988151e-01  4.56988151e-01  3.45893012e-09  3.35013496e-09  1.55586317e-07  4.59580676e-08  1.06000000e+00 
 1.07000000e+00  4.56988155e-01  4.56988155e-01  4.56988155e-01  4.56988155e-01  4.56988155e-01  3.45893018e-09  3.35013497e-09  1.55586304e-07  4.59580249e-08  1.07000000e+00 
 1.08000000e+00  4.56988131e-01  4.56988131e-01  4.56988131e-01  4.56988131e-01  4.56988131e-01  3.45893018e-09  3.35013497e-09  1.55586265e-07  4.59578473e-08  1.08000000e+00 
 1.09000000e+00  4.56988138e-01  4.56988138e-01  4.56988138e-01  4.56988138e-01  4.56988138e-01  3.45893012e-09  3.35013497e-09  1.55586284e-07  4.59578544e-08  1.09000000e+00 
 1.10000000e+00  4.56988112e-01  4.56988112e-01  4.56988112e-01  4.56988112e-01  4.56988112e-01  3.45893018e-09  3.35013496e-09  1.55586244e-07  4.59579184e-08  1.10000000e+00 
