 v-sweep         v(b0)           v(b1)           v(b2)           v(b3)           v(b4)           v(b5)           v(b6)           i(vbias)        i(viout)        v(vout)        
 0.00000000e+00  3.22699682e-09  3.37106774e-09  3.50420076e-09  3.57021835e-09  4.57903315e-01  4.57903315e-01  4.57903315e-01  1.56295389e-07  1.73846364e-07  0.00000000e+00 
 1.00000000e-02  3.22699686e-09  3.37106779e-09  3.50420074e-09  3.57021839e-09  4.57903367e-01  4.57903367e-01  4.57903367e-01  1.56295483e-07  1.73845990e-07  1.00000000e-02 
 2.00000000e-02  3.22699686e-09  3.37106779e-09  3.50420074e-09  3.57021839e-09  4.57903341e-01  4.57903341e-01  4.57903341e-01  1.56295446e-07  1.73845508e-07  2.00000000e-02 
 3.00000000e-02  3.22699680e-09  3.37106785e-09  3.50420074e-09  3.57021833e-09  4.57903356e-01  4.57903357e-01  4.57903357e-01  1.56295462e-07  1.73845073e-07  3.00000000e-02 
 4.00000000e-02  3.22699686e-09  3.37106779e-09  3.50420074e-09  3.57021834e-09  4.57903347e-01  4.57903347e-01  4.57903348e-01  1.56295446e-07  1.73844669e-07  4.00000000e-02 
 5.00000000e-02  3.22699681e-09  3.37106785e-09  3.50420074e-09  3.57021839e-09  4.57903380e-01  4.57903380e-01  4.57903380e-01  1.56295500e-07  1.73844381e-07  5.00000000e-02 
 6.00000000e-02  3.22699680e-09  3.37106779e-09  3.50420074e-09  3.57021838e-09  4.57903342e-01  4.57903342e-01  4.57903343e-01  1.56295453e-07  1.73843894e-07  6.00000000e-02 
 7.00000000e-02  3.22699686e-09  3.37106779e-09  3.50420074e-09  3.57021839e-09  4.57903363e-01  4.57903363e-01  4.57903363e-01  1.56295474e-07  1.73843576e-07  7.00000000e-02 
 8.00000000e-02  3.22699680e-09  3.37106779e-09  3.50420074e-09  3.57021839e-09  4.57903354e-01  4.57903354e-01  4.57903354e-01  1.56295466e-07  1.73843277e-07  8.00000000e-02 
 9.00000000e-02  3.22699680e-09  3.37106785e-09  3.50420074e-09  3.57021833e-09  4.57903357e-01  4.57903357e-01  4.57903357e-01  1.56295473e-07  1.73842785e-07  9.00000000e-02 
 1.00000000e-01  3.22699680e-09  3.37106779e-09  3.50420069e-09  3.57021840e-09  4.57903355e-01  4.57903355e-01  4.57903355e-01  1.56295465e-07  1.73842523e-07  1.00000000e-01 
 1.10000000e-01  3.22699681e-09  3.37106779e-09  3.50420074e-09  3.57021832e-09  4.57903390e-01  4.57903390e-01  4.57903390e-01  1.56295507e-07  1.73842341e-07  1.10000000e-01 
 1.20000000e-01  3.22699680e-09  3.37106779e-09  3.50420074e-09  3.57021834e-09  4.57903342e-01  4.57903342e-01  4.57903342e-01  1.56295437e-07  1.73841843e-07  1.20000000e-01 
 1.30000000e-01  3.22699686e-09  3.37106779e-09  3.50420074e-09  3.57021834e-09  4.57903375e-01  4.57903375e-01  4.57903375e-01  1.56295494e-07  1.73841696e-07  1.30000000e-01 
 1.40000000e-01  3.22699680e-09  3.37106779e-09  3.50420074e-09  3.57021833e-09  4.57903335e-01  4.57903335e-01  4.57903335e-01  1.56295434e-07  1.73841351e-07  1.40000000e-01 
 1.50000000e-01  3.22699680e-09  3.37106785e-09  3.50420074e-09  3.57021839e-09  4.57903363e-01  4.57903363e-01  4.57903363e-01  1.56295472e-07  1.73841226e-07  1.50000000e-01 
 1.60000000e-01  3.22699686e-09  3.37106779e-09  3.50420074e-09  3.57021832e-09  4.57903335e-01  4.57903335e-01  4.57903336e-01  1.56295436e-07  1.73840697e-07  1.60000000e-01 
 1.70000000e-01  3.22699680e-09  3.37106779e-09  3.50420074e-09  3.57021834e-09  4.57903357e-01  4.57903357e-01  4.57903357e-01  1.56295465e-07  1.73840597e-07  1.70000000e-01 
 1.80000000e-01  3.22699680e-09  3.37106779e-09  3.50420069e-09  3.57021833e-09  4.57903354e-01  4.57903354e-01  4.57903355e-01  1.56295470e-07  1.73840364e-07  1.80000000e-01 
 1.90000000e-01  3.22699686e-09  3.37106779e-09  3.50420074e-09  3.57021834e-09  4.57903361e-01  4.57903361e-01  4.57903361e-01  1.56295474e-07  1.73840167e-07  1.90000000e-01 
 2.00000000e-01  3.22699681e-09  3.37106785e-09  3.50420074e-09  3.57021834e-09  4.57903387e-01  4.57903387e-01  4.57903387e-01  1.56295505e-07  1.73840062e-07  2.00000000e-01 
 2.10000000e-01  3.22699686e-09  3.37106779e-09  3.50420074e-09  3.57021833e-09  4.57903348e-01  4.57903349e-01  4.57903349e-01  1.56295442e-07  1.73839691e-07  2.10000000e-01 
 2.20000000e-01  3.22699680e-09  3.37106779e-09  3.50420074e-09  3.57021839e-09  4.57903364e-01  4.57903364e-01  4.57903364e-01  1.56295474e-07  1.73839469e-07  2.20000000e-01 
 2.30000000e-01  3.22699680e-09  3.37106785e-09  3.50420074e-09  3.57021832e-09  4.57903363e-01  4.57903363e-01  4.57903363e-01  1.56295481e-07  1.73839371e-07  2.30000000e-01 
 2.40000000e-01  3.22699680e-09  3.37106779e-09  3.50420074e-09  3.57021834e-09  4.57903355e-01  4.57903355e-01  4.57903355e-01  1.56295467e-07  1.73839091e-07  2.40000000e-01 
 2.50000000e-01  3.22699680e-09  3.37106779e-09  3.50420074e-09  3.57021839e-09  4.57903369e-01  4.57903369e-01  4.57903369e-01  1.56295476e-07  1.73838981e-07  2.50000000e-01 
 2.60000000e-01  3.22699680e-09  3.37106779e-09  3.50420074e-09  3.57021838e-09  4.57903363e-01  4.57903363e-01  4.57903363e-01  1.56295476e-07  1.73838714e-07  2.60000000e-01 
 2.70000000e-01  3.22699680e-09  3.37106779e-09  3.50420074e-09  3.57021833e-09  4.57903366e-01  4.57903367e-01  4.57903367e-01  1.56295481e-07  1.73838574e-07  2.70000000e-01 
 2.80000000e-01  3.22699686e-09  3.37106779e-09  3.50420074e-09  3.57021834e-09  4.57903359e-01  4.57903360e-01  4.57903360e-01  1.56295475e-07  1.73838338e-07  2.80000000e-01 
 2.90000000e-01  3.22699680e-09  3.37106779e-09  3.50420074e-09  3.57021833e-09  4.57903353e-01  4.57903353e-01  4.57903353e-01  1.56295464e-07  1.73838117e-07  2.90000000e-01 
 3.00000000e-01  3.22699686e-09  3.37106779e-09  3.50420074e-09  3.57021834e-09  4.57903365e-01  4.57903365e-01  4.57903365e-01  1.56295470e-07  1.73838014e-07  3.00000000e-01 
 3.10000000e-01  3.22699686e-09  3.37106779e-09  3.50420074e-09  3.57021834e-09  4.57903364e-01  4.57903364e-01  4.57903364e-01  1.56295480e-07  1.73837847e-07  3.10000000e-01 
 3.20000000e-01  3.22699681e-09  3.37106779e-09  3.50420074e-09  3.57021834e-09  4.57903389e-01  4.57903389e-01  4.57903389e-01  1.56295502e-07  1.73837741e-07  3.20000000e-01 
 3.30000000e-01  3.22699680e-09  3.37106778e-09  3.50420074e-09  3.57021839e-09  4.57903330e-01  4.57903331e-01  4.57903331e-01  1.56295423e-07  1.73837261e-07  3.30000000e-01 
 3.40000000e-01  3.22699686e-09  3.37106778e-09  3.50420074e-09  3.57021838e-09  4.57903326e-01  4.57903326e-01  4.57903326e-01  1.56295423e-07  1.73837201e-07  3.40000000e-01 
 3.50000000e-01  3.22699680e-09  3.37106779e-09  3.50420074e-09  3.57021833e-09  4.57903354e-01  4.57903354e-01  4.57903354e-01  1.56295455e-07  1.73837144e-07  3.50000000e-01 
 3.60000000e-01  3.22699680e-09  3.37106779e-09  3.50420074e-09  3.57021834e-09  4.57903353e-01  4.57903353e-01  4.57903353e-01  1.56295463e-07  1.73837030e-07  3.60000000e-01 
 3.70000000e-01  3.22699686e-09  3.37106779e-09  3.50420069e-09  3.57021834e-09  4.57903396e-01  4.57903397e-01  4.57903397e-01  1.56295523e-07  1.73837051e-07  3.70000000e-01 
 3.80000000e-01  3.22699681e-09  3.37106785e-09  3.50420069e-09  3.57021834e-09  4.57903374e-01  4.57903374e-01  4.57903374e-01  1.56295481e-07  1.73836742e-07  3.80000000e-01 
 3.90000000e-01  3.22699680e-09  3.37106785e-09  3.50420074e-09  3.57021839e-09  4.57903362e-01  4.57903362e-01  4.57903362e-01  1.56295475e-07  1.73836519e-07  3.90000000e-01 
 4.00000000e-01  3.22699680e-09  3.37106779e-09  3.50420074e-09  3.57021838e-09  4.57903353e-01  4.57903353e-01  4.57903353e-01  1.56295456e-07  1.73836291e-07  4.00000000e-01 
 4.10000000e-01  3.22699686e-09  3.37106779e-09  3.50420074e-09  3.57021833e-09  4.57903372e-01  4.57903373e-01  4.57903373e-01  1.56295494e-07  1.73836362e-07  4.10000000e-01 
 4.20000000e-01  3.22699680e-09  3.37106779e-09  3.50420074e-09  3.57021840e-09  4.57903356e-01  4.57903356e-01  4.57903356e-01  1.56295475e-07  1.73836167e-07  4.20000000e-01 
 4.30000000e-01  3.22699686e-09  3.37106779e-09  3.50420074e-09  3.57021832e-09  4.57903351e-01  4.57903352e-01  4.57903352e-01  1.56295464e-07  1.73835947e-07  4.30000000e-01 
 4.40000000e-01  3.22699681e-09  3.37106779e-09  3.50420074e-09  3.57021834e-09  4.57903399e-01  4.57903399e-01  4.57903399e-01  1.56295535e-07  1.73835996e-07  4.40000000e-01 
 4.50000000e-01  3.22699686e-09  3.37106779e-09  3.50420074e-09  3.57021834e-09  4.57903385e-01  4.57903385e-01  4.57903386e-01  1.56295502e-07  1.73835769e-07  4.50000000e-01 
 4.60000000e-01  3.22699680e-09  3.37106779e-09  3.50420074e-09  3.57021834e-09  4.57903366e-01  4.57903367e-01  4.57903367e-01  1.56295476e-07  1.73835573e-07  4.60000000e-01 
 4.70000000e-01  3.22699686e-09  3.37106779e-09  3.50420074e-09  3.57021834e-09  4.57903355e-01  4.57903355e-01  4.57903355e-01  1.56295458e-07  1.73835424e-07  4.70000000e-01 
 4.80000000e-01  3.22699686e-09  3.37106779e-09  3.50420074e-09  3.57021834e-09  4.57903361e-01  4.57903361e-01  4.57903361e-01  1.56295469e-07  1.73835254e-07  4.80000000e-01 
 4.90000000e-01  3.22699686e-09  3.37106779e-09  3.50420074e-09  3.57021833e-09  4.57903355e-01  4.57903355e-01  4.57903355e-01  1.56295485e-07  1.73835218e-07  4.90000000e-01 
 5.00000000e-01  3.22699680e-09  3.37106785e-09  3.50420074e-09  3.57021839e-09  4.57903362e-01  4.57903362e-01  4.57903362e-01  1.56295451e-07  1.73835058e-07  5.00000000e-01 
 5.10000000e-01  3.22699680e-09  3.37106779e-09  3.50420068e-09  3.57021832e-09  4.57903349e-01  4.57903350e-01  4.57903350e-01  1.56295468e-07  1.73834852e-07  5.10000000e-01 
 5.20000000e-01  3.22699680e-09  3.37106779e-09  3.50420074e-09  3.57021834e-09  4.57903354e-01  4.57903355e-01  4.57903355e-01  1.56295466e-07  1.73834820e-07  5.20000000e-01 
 5.30000000e-01  3.22699681e-09  3.37106779e-09  3.50420074e-09  3.57021834e-09  4.57903370e-01  4.57903370e-01  4.57903370e-01  1.56295496e-07  1.73834614e-07  5.30000000e-01 
 5.40000000e-01  3.22699680e-09  3.37106779e-09  3.50420074e-09  3.57021833e-09  4.57903353e-01  4.57903353e-01  4.57903353e-01  1.56295456e-07  1.73834412e-07  5.40000000e-01 
 5.50000000e-01  3.22699680e-09  3.37106779e-09  3.50420074e-09  3.57021839e-09  4.57903351e-01  4.57903351e-01  4.57903351e-01  1.56295465e-07  1.73834255e-07  5.50000000e-01 
 5.60000000e-01  3.22699681e-09  3.37106779e-09  3.50420074e-09  3.57021838e-09  4.57903375e-01  4.57903375e-01  4.57903375e-01  1.56295480e-07  1.73834295e-07  5.60000000e-01 
 5.70000000e-01  3.22699686e-09  3.37106779e-09  3.50420074e-09  3.57021833e-09  4.57903361e-01  4.57903361e-01  4.57903361e-01  1.56295464e-07  1.73834025e-07  5.70000000e-01 
 5.80000000e-01  3.22699686e-09  3.37106779e-09  3.50420074e-09  3.57021840e-09  4.57903354e-01  4.57903354e-01  4.57903354e-01  1.56295465e-07  1.73834025e-07  5.80000000e-01 
 5.90000000e-01  3.22699681e-09  3.37106779e-09  3.50420074e-09  3.57021838e-09  4.57903375e-01  4.57903375e-01  4.57903375e-01  1.56295502e-07  1.73833868e-07  5.90000000e-01 
 6.00000000e-01  3.22699680e-09  3.37106784e-09  3.50420069e-09  3.57021839e-09  4.57903355e-01  4.57903355e-01  4.57903355e-01  1.56295473e-07  1.73833655e-07  6.00000000e-01 
 6.10000000e-01  3.22699680e-09  3.37106779e-09  3.50420068e-09  3.57021839e-09  4.57903350e-01  4.57903350e-01  4.57903350e-01  1.56295460e-07  1.73833520e-07  6.10000000e-01 
 6.20000000e-01  3.22699680e-09  3.37106779e-09  3.50420074e-09  3.57021833e-09  4.57903351e-01  4.57903351e-01  4.57903352e-01  1.56295470e-07  1.73833357e-07  6.20000000e-01 
 6.30000000e-01  3.22699680e-09  3.37106779e-09  3.50420074e-09  3.57021834e-09  4.57903367e-01  4.57903367e-01  4.57903367e-01  1.56295482e-07  1.73833300e-07  6.30000000e-01 
 6.40000000e-01  3.22699680e-09  3.37106785e-09  3.50420074e-09  3.57021839e-09  4.57903367e-01  4.57903367e-01  4.57903367e-01  1.56295491e-07  1.73833186e-07  6.40000000e-01 
 6.50000000e-01  3.22699680e-09  3.37106779e-09  3.50420074e-09  3.57021838e-09  4.57903352e-01  4.57903352e-01  4.57903352e-01  1.56295455e-07  1.73832959e-07  6.50000000e-01 
 6.60000000e-01  3.22699680e-09  3.37106779e-09  3.50420074e-09  3.57021833e-09  4.57903341e-01  4.57903341e-01  4.57903341e-01  1.56295455e-07  1.73832838e-07  6.60000000e-01 
 6.70000000e-01  3.22699680e-09  3.37106779e-09  3.50420068e-09  3.57021834e-09  4.57903341e-01  4.57903341e-01  4.57903342e-01  1.56295444e-07  1.73832611e-07  6.70000000e-01 
 6.80000000e-01  3.22699686e-09  3.37106779e-09  3.50420069e-09  3.57021839e-09  4.57903387e-01  4.57903387e-01  4.57903387e-01  1.56295509e-07  1.73832632e-07  6.80000000e-01 
 6.90000000e-01  3.22699680e-09  3.37106779e-09  3.50420074e-09  3.57021838e-09  4.57903346e-01  4.57903347e-01  4.57903347e-01  1.56295449e-07  1.73832497e-07  6.90000000e-01 
 7.00000000e-01  3.22699686e-09  3.37106785e-09  3.50420074e-09  3.57021839e-09  4.57903372e-01  4.57903372e-01  4.57903372e-01  1.56295508e-07  1.73832490e-07  7.00000000e-01 
 7.10000000e-01  3.22699680e-09  3.37106779e-09  3.50420074e-09  3.57021839e-09  4.57903369e-01  4.57903369e-01  4.57903369e-01  1.56295491e-07  1.73832284e-07  7.10000000e-01 
 7.20000000e-01  3.22699680e-09  3.37106779e-09  3.50420069e-09  3.57021839e-09  4.57903356e-01  4.57903356e-01  4.57903356e-01  1.56295467e-07  1.73832007e-07  7.20000000e-01 
 7.30000000e-01  3.22699686e-09  3.37106779e-09  3.50420074e-09  3.57021839e-09  4.57903356e-01  4.57903356e-01  4.57903356e-01  1.56295479e-07  1.73831808e-07  7.30000000e-01 
 7.40000000e-01  3.22699680e-09  3.37106779e-09  3.50420074e-09  3.57021833e-09  4.57903368e-01  4.57903368e-01  4.57903368e-01  1.56295490e-07  1.73831765e-07  7.40000000e-01 
 7.50000000e-01  3.22699680e-09  3.37106778e-09  3.50420074e-09  3.57021834e-09  4.57903331e-01  4.57903331e-01  4.57903331e-01  1.56295430e-07  1.73831495e-07  7.50000000e-01 
 7.60000000e-01  3.22699681e-09  3.37106779e-09  3.50420074e-09  3.57021839e-09  4.57903377e-01  4.57903378e-01  4.57903378e-01  1.56295508e-07  1.73831609e-07  7.60000000e-01 
 7.70000000e-01  3.22699680e-09  3.37106778e-09  3.50420074e-09  3.57021832e-09  4.57903324e-01  4.57903324e-01  4.57903324e-01  1.56295419e-07  1.73831204e-07  7.70000000e-01 
 7.80000000e-01  3.22699680e-09  3.37106779e-09  3.50420074e-09  3.57021834e-09  4.57903342e-01  4.57903342e-01  4.57903342e-01  1.56295450e-07  1.73831076e-07  7.80000000e-01 
 7.90000000e-01  3.22699680e-09  3.37106779e-09  3.50420074e-09  3.57021833e-09  4.57903348e-01  4.57903348e-01  4.57903348e-01  1.56295446e-07  1.73831012e-07  7.90000000e-01 
 8.00000000e-01  3.22699680e-09  3.37106779e-09  3.50420074e-09  3.57021839e-09  4.57903337e-01  4.57903337e-01  4.57903337e-01  1.56295436e-07  1.73830792e-07  8.00000000e-01 
 8.10000000e-01  3.22699680e-09  3.37106779e-09  3.50420074e-09  3.57021838e-09  4.57903355e-01  4.57903355e-01  4.57903355e-01  1.56295475e-07  1.73830827e-07  8.10000000e-01 
 8.20000000e-01  3.22699680e-09  3.37106784e-09  3.50420074e-09  3.57021839e-09  4.57903337e-01  4.57903337e-01  4.57903338e-01  1.56295433e-07  1.73830493e-07  8.20000000e-01 
 8.30000000e-01  3.22699680e-09  3.37106779e-09  3.50420068e-09  3.57021839e-09  4.57903348e-01  4.57903348e-01  4.57903348e-01  1.56295443e-07  1.73830472e-07  8.30000000e-01 
 8.40000000e-01  3.22699686e-09  3.37106779e-09  3.50420069e-09  3.57021839e-09  4.57903364e-01  4.57903364e-01  4.57903364e-01  1.56295471e-07  1.73830394e-07  8.40000000e-01 
 8.50000000e-01  3.22699680e-09  3.37106784e-09  3.50420068e-09  3.57021839e-09  4.57903344e-01  4.57903344e-01  4.57903344e-01  1.56295447e-07  1.73830195e-07  8.50000000e-01 
 8.60000000e-01  3.22699680e-09  3.37106778e-09  3.50420074e-09  3.57021833e-09  4.57903334e-01  4.57903334e-01  4.57903334e-01  1.56295413e-07  1.73829918e-07  8.60000000e-01 
 8.70000000e-01  3.22699680e-09  3.37106779e-09  3.50420074e-09  3.57021834e-09  4.57903339e-01  4.57903339e-01  4.57903339e-01  1.56295441e-07  1.73829882e-07  8.70000000e-01 
 8.80000000e-01  3.22699686e-09  3.37106785e-09  3.50420074e-09  3.57021834e-09  4.57903391e-01  4.57903391e-01  4.57903391e-01  1.56295520e-07  1.73829918e-07  8.80000000e-01 
 8.90000000e-01  3.22699680e-09  3.37106785e-09  3.50420074e-09  3.57021839e-09  4.57903365e-01  4.57903365e-01  4.57903365e-01  1.56295469e-07  1.73829640e-07  8.90000000e-01 
 9.00000000e-01  3.22699680e-09  3.37106785e-09  3.50420069e-09  3.57021832e-09  4.57903357e-01  4.57903357e-01  4.57903357e-01  1.56295461e-07  1.73829420e-07  9.00000000e-01 
 9.10000000e-01  3.22699680e-09  3.37106785e-09  3.50420069e-09  3.57021840e-09  4.57903357e-01  4.57903357e-01  4.57903357e-01  1.56295462e-07  1.73829321e-07  9.10000000e-01 
 9.20000000e-01  3.22699680e-09  3.37106779e-09  3.50420074e-09  3.57021838e-09  4.57903352e-01  4.57903352e-01  4.57903352e-01  1.56295451e-07  1.73829129e-07  9.20000000e-01 
 9.30000000e-01  3.22699686e-09  3.37106779e-09  3.50420074e-09  3.57021833e-09  4.57903353e-01  4.57903353e-01  4.57903353e-01  1.56295474e-07  1.73829015e-07  9.30000000e-01 
 9.40000000e-01  3.22699686e-09  3.37106779e-09  3.50420074e-09  3.57021834e-09  4.57903380e-01  4.57903380e-01  4.57903380e-01  1.56295499e-07  1.73829022e-07  9.40000000e-01 
 9.50000000e-01  3.22699680e-09  3.37106779e-09  3.50420074e-09  3.57021839e-09  4.57903346e-01  4.57903346e-01  4.57903346e-01  1.56295453e-07  1.73828596e-07  9.50000000e-01 
 9.60000000e-01  3.22699680e-09  3.37106779e-09  3.50420074e-09  3.57021832e-09  4.57903363e-01  4.57903363e-01  4.57903364e-01  1.56295466e-07  1.73828568e-07  9.60000000e-01 
 9.70000000e-01  3.22699680e-09  3.37106779e-09  3.50420074e-09  3.57021834e-09  4.57903346e-01  4.57903346e-01  4.57903346e-01  1.56295457e-07  1.73828305e-07  9.70000000e-01 
 9.80000000e-01  3.22699680e-09  3.37106779e-09  3.50420074e-09  3.57021833e-09  4.57903336e-01  4.57903336e-01  4.57903336e-01  1.56295433e-07  1.73828134e-07  9.80000000e-01 
 9.90000000e-01  3.22699680e-09  3.37106779e-09  3.50420074e-09  3.57021833e-09  4.57903336e-01  4.57903336e-01  4.57903337e-01  1.56295435e-07  1.73827935e-07  9.90000000e-01 
 1.00000000e+00  3.22699686e-09  3.37106779e-09  3.50420074e-09  3.57021834e-09  4.57903379e-01  4.57903379e-01  4.57903379e-01  1.56295490e-07  1.73827914e-07  1.00000000e+00 
 1.01000000e+00  3.22699680e-09  3.37106779e-09  3.50420074e-09  3.57021839e-09  4.57903348e-01  4.57903348e-01  4.57903348e-01  1.56295448e-07  1.73827573e-07  1.01000000e+00 
 1.02000000e+00  3.22699681e-09  3.37106779e-09  3.50420074e-09  3.57021838e-09  4.57903381e-01  4.57903381e-01  4.57903381e-01  1.56295496e-07  1.73827672e-07  1.02000000e+00 
 1.03000000e+00  3.22699680e-09  3.37106784e-09  3.50420074e-09  3.57021833e-09  4.57903339e-01  4.57903339e-01  4.57903339e-01  1.56295443e-07  1.73827360e-07  1.03000000e+00 
 1.04000000e+00  3.22699680e-09  3.37106779e-09  3.50420074e-09  3.57021834e-09  4.57903367e-01  4.57903367e-01  4.57903367e-01  1.56295491e-07  1.73827260e-07  1.04000000e+00 
 1.05000000e+00  3.22699680e-09  3.37106779e-09  3.50420074e-09  3.57021833e-09  4.57903346e-01  4.57903346e-01  4.57903346e-01  1.56295436e-07  1.73826905e-07  1.05000000e+00 
 1.06000000e+00  3.22699686e-09  3.37106779e-09  3.50420074e-09  3.57021839e-09  4.57903342e-01  4.57903342e-01  4.57903342e-01  1.56295445e-07  1.73826812e-07  1.06000000e+00 
 1.07000000e+00  3.22699680e-09  3.37106779e-09  3.50420074e-09  3.57021838e-09  4.57903363e-01  4.57903364e-01  4.57903364e-01  1.56295475e-07  1.73826649e-07  1.07000000e+00 
 1.08000000e+00  3.22699680e-09  3.37106779e-09  3.50420074e-09  3.57021833e-09  4.57903352e-01  4.57903352e-01  4.57903352e-01  1.56295461e-07  1.73826379e-07  1.08000000e+00 
 1.09000000e+00  3.22699681e-09  3.37106779e-09  3.50420074e-09  3.57021834e-09  4.57903387e-01  4.57903387e-01  4.57903387e-01  1.56295518e-07  1.73826436e-07  1.09000000e+00 
 1.10000000e+00  3.22699680e-09  3.37106784e-09  3.50420074e-09  3.57021833e-09  4.57903351e-01  4.57903351e-01  4.57903351e-01  1.56295459e-07  1.73826187e-07  1.10000000e+00 
