 v-sweep         v(b0)           v(b1)           v(b2)           v(b3)           v(b4)           v(b5)           v(b6)           i(vbias)        i(viout)        v(vout)        
 0.00000000e+00  4.59766978e-01  4.59766978e-01  3.56620397e-09  3.15131822e-09  3.48247198e-09  3.58848893e-09  4.59766979e-01  1.60241785e-07  1.00710572e-07  0.00000000e+00 
 1.00000000e-02  4.59767004e-01  4.59767004e-01  3.56620395e-09  3.15131827e-09  3.48247191e-09  3.58848891e-09  4.59767004e-01  1.60241800e-07  1.00710314e-07  1.00000000e-02 
 2.00000000e-02  4.59767014e-01  4.59767014e-01  3.56620395e-09  3.15131826e-09  3.48247191e-09  3.58848891e-09  4.59767014e-01  1.60241816e-07  1.00709798e-07  2.00000000e-02 
 3.00000000e-02  4.59766981e-01  4.59766981e-01  3.56620395e-09  3.15131826e-09  3.48247196e-09  3.58848891e-09  4.59766981e-01  1.60241779e-07  1.00709394e-07  3.00000000e-02 
 4.00000000e-02  4.59766995e-01  4.59766995e-01  3.56620395e-09  3.15131826e-09  3.48247191e-09  3.58848891e-09  4.59766995e-01  1.60241788e-07  1.00709061e-07  4.00000000e-02 
 5.00000000e-02  4.59767004e-01  4.59767004e-01  3.56620395e-09  3.15131821e-09  3.48247196e-09  3.58848891e-09  4.59767004e-01  1.60241804e-07  1.00708698e-07  5.00000000e-02 
 6.00000000e-02  4.59766989e-01  4.59766989e-01  3.56620395e-09  3.15131828e-09  3.48247196e-09  3.58848891e-09  4.59766989e-01  1.60241776e-07  1.00708383e-07  6.00000000e-02 
 7.00000000e-02  4.59767000e-01  4.59767000e-01  3.56620401e-09  3.15131826e-09  3.48247196e-09  3.58848891e-09  4.59767000e-01  1.60241803e-07  1.00708148e-07  7.00000000e-02 
 8.00000000e-02  4.59766976e-01  4.59766976e-01  3.56620395e-09  3.15131826e-09  3.48247191e-09  3.58848891e-09  4.59766976e-01  1.60241768e-07  1.00707778e-07  8.00000000e-02 
 9.00000000e-02  4.59766982e-01  4.59766982e-01  3.56620395e-09  3.15131826e-09  3.48247196e-09  3.58848891e-09  4.59766982e-01  1.60241767e-07  1.00707438e-07  9.00000000e-02 
 1.00000000e-01  4.59767012e-01  4.59767012e-01  3.56620395e-09  3.15131827e-09  3.48247197e-09  3.58848891e-09  4.59767013e-01  1.60241821e-07  1.00707249e-07  1.00000000e-01 
 1.10000000e-01  4.59766991e-01  4.59766991e-01  3.56620395e-09  3.15131826e-09  3.48247196e-09  3.58848891e-09  4.59766991e-01  1.60241790e-07  1.00706945e-07  1.10000000e-01 
 1.20000000e-01  4.59766964e-01  4.59766965e-01  3.56620395e-09  3.15131826e-09  3.48247196e-09  3.58848891e-09  4.59766965e-01  1.60241741e-07  1.00706687e-07  1.20000000e-01 
 1.30000000e-01  4.59766987e-01  4.59766987e-01  3.56620395e-09  3.15131826e-09  3.48247191e-09  3.58848891e-09  4.59766987e-01  1.60241784e-07  1.00706446e-07  1.30000000e-01 
 1.40000000e-01  4.59766970e-01  4.59766970e-01  3.56620395e-09  3.15131826e-09  3.48247190e-09  3.58848891e-09  4.59766971e-01  1.60241761e-07  1.00706166e-07  1.40000000e-01 
 1.50000000e-01  4.59767000e-01  4.59767000e-01  3.56620395e-09  3.15131826e-09  3.48247196e-09  3.58848891e-09  4.59767000e-01  1.60241801e-07  1.00705982e-07  1.50000000e-01 
 1.60000000e-01  4.59767003e-01  4.59767003e-01  3.56620395e-09  3.15131821e-09  3.48247196e-09  3.58848891e-09  4.59767003e-01  1.60241806e-07  1.00705773e-07  1.60000000e-01 
 1.70000000e-01  4.59766981e-01  4.59766981e-01  3.56620395e-09  3.15131827e-09  3.48247191e-09  3.58848891e-09  4.59766981e-01  1.60241781e-07  1.00705604e-07  1.70000000e-01 
 1.80000000e-01  4.59766978e-01  4.59766978e-01  3.56620395e-09  3.15131826e-09  3.48247196e-09  3.58848891e-09  4.59766978e-01  1.60241762e-07  1.00705394e-07  1.80000000e-01 
 1.90000000e-01  4.59767004e-01  4.59767004e-01  3.56620395e-09  3.15131826e-09  3.48247196e-09  3.58848891e-09  4.59767004e-01  1.60241800e-07  1.00705272e-07  1.90000000e-01 
 2.00000000e-01  4.59766971e-01  4.59766971e-01  3.56620395e-09  3.15131826e-09  3.48247190e-09  3.58848891e-09  4.59766971e-01  1.60241754e-07  1.00705089e-07  2.00000000e-01 
 2.10000000e-01  4.59766984e-01  4.59766984e-01  3.56620395e-09  3.15131826e-09  3.48247196e-09  3.58848891e-09  4.59766985e-01  1.60241801e-07  1.00704822e-07  2.10000000e-01 
 2.20000000e-01  4.59767008e-01  4.59767008e-01  3.56620395e-09  3.15131826e-09  3.48247191e-09  3.58848891e-09  4.59767008e-01  1.60241803e-07  1.00704746e-07  2.20000000e-01 
 2.30000000e-01  4.59766993e-01  4.59766993e-01  3.56620395e-09  3.15131826e-09  3.48247196e-09  3.58848891e-09  4.59766994e-01  1.60241794e-07  1.00704675e-07  2.30000000e-01 
 2.40000000e-01  4.59766999e-01  4.59766999e-01  3.56620395e-09  3.15131826e-09  3.48247196e-09  3.58848891e-09  4.59766999e-01  1.60241802e-07  1.00704375e-07  2.40000000e-01 
 2.50000000e-01  4.59767000e-01  4.59767000e-01  3.56620395e-09  3.15131826e-09  3.48247191e-09  3.58848891e-09  4.59767001e-01  1.60241800e-07  1.00704359e-07  2.50000000e-01 
 2.60000000e-01  4.59767003e-01  4.59767003e-01  3.56620395e-09  3.15131826e-09  3.48247191e-09  3.58848891e-09  4.59767003e-01  1.60241804e-07  1.00704165e-07  2.60000000e-01 
 2.70000000e-01  4.59766993e-01  4.59766993e-01  3.56620395e-09  3.15131826e-09  3.48247191e-09  3.58848891e-09  4.59766993e-01  1.60241775e-07  1.00703989e-07  2.70000000e-01 
 2.80000000e-01  4.59766993e-01  4.59766993e-01  3.56620395e-09  3.15131826e-09  3.48247191e-09  3.58848891e-09  4.59766993e-01  1.60241780e-07  1.00703955e-07  2.80000000e-01 
 2.90000000e-01  4.59767005e-01  4.59767005e-01  3.56620395e-09  3.15131826e-09  3.48247191e-09  3.58848891e-09  4.59767006e-01  1.60241818e-07  1.00703687e-07  2.90000000e-01 
 3.00000000e-01  4.59766984e-01  4.59766984e-01  3.56620395e-09  3.15131826e-09  3.48247191e-09  3.58848885e-09  4.59766985e-01  1.60241790e-07  1.00703623e-07  3.00000000e-01 
 3.10000000e-01  4.59766985e-01  4.59766985e-01  3.56620395e-09  3.15131826e-09  3.48247191e-09  3.58848891e-09  4.59766985e-01  1.60241772e-07  1.00703481e-07  3.10000000e-01 
 3.20000000e-01  4.59767004e-01  4.59767004e-01  3.56620395e-09  3.15131826e-09  3.48247196e-09  3.58848891e-09  4.59767004e-01  1.60241806e-07  1.00703431e-07  3.20000000e-01 
 3.30000000e-01  4.59767001e-01  4.59767002e-01  3.56620395e-09  3.15131826e-09  3.48247191e-09  3.58848891e-09  4.59767002e-01  1.60241794e-07  1.00703293e-07  3.30000000e-01 
 3.40000000e-01  4.59766976e-01  4.59766976e-01  3.56620395e-09  3.15131826e-09  3.48247196e-09  3.58848891e-09  4.59766976e-01  1.60241762e-07  1.00703275e-07  3.40000000e-01 
 3.50000000e-01  4.59766972e-01  4.59766972e-01  3.56620395e-09  3.15131826e-09  3.48247191e-09  3.58848891e-09  4.59766972e-01  1.60241758e-07  1.00703055e-07  3.50000000e-01 
 3.60000000e-01  4.59766991e-01  4.59766991e-01  3.56620395e-09  3.15131826e-09  3.48247191e-09  3.58848891e-09  4.59766991e-01  1.60241787e-07  1.00702955e-07  3.60000000e-01 
 3.70000000e-01  4.59766969e-01  4.59766969e-01  3.56620395e-09  3.15131826e-09  3.48247190e-09  3.58848891e-09  4.59766969e-01  1.60241761e-07  1.00702788e-07  3.70000000e-01 
 3.80000000e-01  4.59766983e-01  4.59766983e-01  3.56620395e-09  3.15131826e-09  3.48247191e-09  3.58848891e-09  4.59766983e-01  1.60241790e-07  1.00702795e-07  3.80000000e-01 
 3.90000000e-01  4.59766971e-01  4.59766971e-01  3.56620395e-09  3.15131826e-09  3.48247190e-09  3.58848891e-09  4.59766971e-01  1.60241764e-07  1.00702700e-07  3.90000000e-01 
 4.00000000e-01  4.59766994e-01  4.59766995e-01  3.56620395e-09  3.15131826e-09  3.48247196e-09  3.58848891e-09  4.59766995e-01  1.60241784e-07  1.00702636e-07  4.00000000e-01 
 4.10000000e-01  4.59766996e-01  4.59766996e-01  3.56620395e-09  3.15131826e-09  3.48247191e-09  3.58848891e-09  4.59766996e-01  1.60241805e-07  1.00702614e-07  4.10000000e-01 
 4.20000000e-01  4.59766974e-01  4.59766974e-01  3.56620395e-09  3.15131821e-09  3.48247191e-09  3.58848891e-09  4.59766975e-01  1.60241765e-07  1.00702323e-07  4.20000000e-01 
 4.30000000e-01  4.59767008e-01  4.59767008e-01  3.56620395e-09  3.15131822e-09  3.48247191e-09  3.58848891e-09  4.59767009e-01  1.60241798e-07  1.00702422e-07  4.30000000e-01 
 4.40000000e-01  4.59766983e-01  4.59766983e-01  3.56620395e-09  3.15131821e-09  3.48247191e-09  3.58848891e-09  4.59766983e-01  1.60241775e-07  1.00702213e-07  4.40000000e-01 
 4.50000000e-01  4.59767013e-01  4.59767013e-01  3.56620395e-09  3.15131827e-09  3.48247191e-09  3.58848891e-09  4.59767014e-01  1.60241831e-07  1.00702191e-07  4.50000000e-01 
 4.60000000e-01  4.59766992e-01  4.59766992e-01  3.56620395e-09  3.15131826e-09  3.48247196e-09  3.58848891e-09  4.59766992e-01  1.60241791e-07  1.00702113e-07  4.60000000e-01 
 4.70000000e-01  4.59766966e-01  4.59766966e-01  3.56620395e-09  3.15131826e-09  3.48247190e-09  3.58848891e-09  4.59766966e-01  1.60241758e-07  1.00702028e-07  4.70000000e-01 
 4.80000000e-01  4.59767025e-01  4.59767025e-01  3.56620395e-09  3.15131827e-09  3.48247197e-09  3.58848891e-09  4.59767025e-01  1.60241839e-07  1.00701996e-07  4.80000000e-01 
 4.90000000e-01  4.59766982e-01  4.59766982e-01  3.56620395e-09  3.15131821e-09  3.48247191e-09  3.58848885e-09  4.59766982e-01  1.60241775e-07  1.00701929e-07  4.90000000e-01 
 5.00000000e-01  4.59766995e-01  4.59766995e-01  3.56620395e-09  3.15131828e-09  3.48247196e-09  3.58848891e-09  4.59766995e-01  1.60241803e-07  1.00701801e-07  5.00000000e-01 
 5.10000000e-01  4.59766987e-01  4.59766987e-01  3.56620395e-09  3.15131826e-09  3.48247196e-09  3.58848891e-09  4.59766987e-01  1.60241776e-07  1.00701723e-07  5.10000000e-01 
 5.20000000e-01  4.59766996e-01  4.59766996e-01  3.56620395e-09  3.15131826e-09  3.48247191e-09  3.58848891e-09  4.59766996e-01  1.60241787e-07  1.00701676e-07  5.20000000e-01 
 5.30000000e-01  4.59767011e-01  4.59767011e-01  3.56620395e-09  3.15131827e-09  3.48247197e-09  3.58848891e-09  4.59767012e-01  1.60241802e-07  1.00701612e-07  5.30000000e-01 
 5.40000000e-01  4.59767005e-01  4.59767005e-01  3.56620395e-09  3.15131826e-09  3.48247191e-09  3.58848891e-09  4.59767006e-01  1.60241822e-07  1.00701556e-07  5.40000000e-01 
 5.50000000e-01  4.59766989e-01  4.59766989e-01  3.56620395e-09  3.15131826e-09  3.48247196e-09  3.58848891e-09  4.59766989e-01  1.60241780e-07  1.00701396e-07  5.50000000e-01 
 5.60000000e-01  4.59766991e-01  4.59766991e-01  3.56620395e-09  3.15131826e-09  3.48247191e-09  3.58848891e-09  4.59766991e-01  1.60241779e-07  1.00701303e-07  5.60000000e-01 
 5.70000000e-01  4.59767015e-01  4.59767015e-01  3.56620395e-09  3.15131827e-09  3.48247197e-09  3.58848891e-09  4.59767015e-01  1.60241831e-07  1.00701257e-07  5.70000000e-01 
 5.80000000e-01  4.59766998e-01  4.59766998e-01  3.56620395e-09  3.15131826e-09  3.48247196e-09  3.58848891e-09  4.59766998e-01  1.60241808e-07  1.00701200e-07  5.80000000e-01 
 5.90000000e-01  4.59767002e-01  4.59767002e-01  3.56620395e-09  3.15131826e-09  3.48247191e-09  3.58848891e-09  4.59767002e-01  1.60241805e-07  1.00701058e-07  5.90000000e-01 
 6.00000000e-01  4.59766999e-01  4.59766999e-01  3.56620395e-09  3.15131821e-09  3.48247191e-09  3.58848891e-09  4.59766999e-01  1.60241794e-07  1.00701058e-07  6.00000000e-01 
 6.10000000e-01  4.59767011e-01  4.59767011e-01  3.56620395e-09  3.15131822e-09  3.48247197e-09  3.58848891e-09  4.59767011e-01  1.60241818e-07  1.00700895e-07  6.10000000e-01 
 6.20000000e-01  4.59766982e-01  4.59766982e-01  3.56620395e-09  3.15131827e-09  3.48247191e-09  3.58848891e-09  4.59766983e-01  1.60241766e-07  1.00700859e-07  6.20000000e-01 
 6.30000000e-01  4.59766974e-01  4.59766974e-01  3.56620395e-09  3.15131820e-09  3.48247191e-09  3.58848891e-09  4.59766974e-01  1.60241759e-07  1.00700646e-07  6.30000000e-01 
 6.40000000e-01  4.59766978e-01  4.59766978e-01  3.56620395e-09  3.15131827e-09  3.48247191e-09  3.58848891e-09  4.59766978e-01  1.60241769e-07  1.00700774e-07  6.40000000e-01 
 6.50000000e-01  4.59766990e-01  4.59766990e-01  3.56620395e-09  3.15131826e-09  3.48247196e-09  3.58848891e-09  4.59766990e-01  1.60241783e-07  1.00700603e-07  6.50000000e-01 
 6.60000000e-01  4.59767005e-01  4.59767005e-01  3.56620395e-09  3.15131826e-09  3.48247191e-09  3.58848891e-09  4.59767006e-01  1.60241817e-07  1.00700554e-07  6.60000000e-01 
 6.70000000e-01  4.59767002e-01  4.59767002e-01  3.56620401e-09  3.15131826e-09  3.48247191e-09  3.58848891e-09  4.59767002e-01  1.60241803e-07  1.00700461e-07  6.70000000e-01 
 6.80000000e-01  4.59766994e-01  4.59766995e-01  3.56620395e-09  3.15131826e-09  3.48247191e-09  3.58848891e-09  4.59766995e-01  1.60241798e-07  1.00700319e-07  6.80000000e-01 
 6.90000000e-01  4.59766986e-01  4.59766986e-01  3.56620395e-09  3.15131826e-09  3.48247191e-09  3.58848891e-09  4.59766987e-01  1.60241782e-07  1.00700284e-07  6.90000000e-01 
 7.00000000e-01  4.59766991e-01  4.59766991e-01  3.56620395e-09  3.15131826e-09  3.48247191e-09  3.58848891e-09  4.59766991e-01  1.60241793e-07  1.00700220e-07  7.00000000e-01 
 7.10000000e-01  4.59766997e-01  4.59766997e-01  3.56620395e-09  3.15131826e-09  3.48247191e-09  3.58848891e-09  4.59766997e-01  1.60241791e-07  1.00700149e-07  7.10000000e-01 
 7.20000000e-01  4.59766987e-01  4.59766987e-01  3.56620395e-09  3.15131821e-09  3.48247196e-09  3.58848891e-09  4.59766987e-01  1.60241793e-07  1.00700049e-07  7.20000000e-01 
 7.30000000e-01  4.59767013e-01  4.59767013e-01  3.56620395e-09  3.15131822e-09  3.48247191e-09  3.58848891e-09  4.59767014e-01  1.60241814e-07  1.00700014e-07  7.30000000e-01 
 7.40000000e-01  4.59766974e-01  4.59766974e-01  3.56620395e-09  3.15131821e-09  3.48247191e-09  3.58848891e-09  4.59766974e-01  1.60241766e-07  1.00699921e-07  7.40000000e-01 
 7.50000000e-01  4.59766981e-01  4.59766981e-01  3.56620395e-09  3.15131827e-09  3.48247196e-09  3.58848891e-09  4.59766981e-01  1.60241777e-07  1.00699928e-07  7.50000000e-01 
 7.60000000e-01  4.59766985e-01  4.59766985e-01  3.56620395e-09  3.15131826e-09  3.48247191e-09  3.58848891e-09  4.59766985e-01  1.60241792e-07  1.00699793e-07  7.60000000e-01 
 7.70000000e-01  4.59766998e-01  4.59766998e-01  3.56620395e-09  3.15131826e-09  3.48247191e-09  3.58848891e-09  4.59766998e-01  1.60241802e-07  1.00699779e-07  7.70000000e-01 
 7.80000000e-01  4.59766982e-01  4.59766982e-01  3.56620395e-09  3.15131826e-09  3.48247196e-09  3.58848891e-09  4.59766983e-01  1.60241769e-07  1.00699545e-07  7.80000000e-01 
 7.90000000e-01  4.59766991e-01  4.59766991e-01  3.56620395e-09  3.15131826e-09  3.48247196e-09  3.58848891e-09  4.59766991e-01  1.60241781e-07  1.00699609e-07  7.90000000e-01 
 8.00000000e-01  4.59766995e-01  4.59766995e-01  3.56620395e-09  3.15131826e-09  3.48247196e-09  3.58848891e-09  4.59766995e-01  1.60241804e-07  1.00699481e-07  8.00000000e-01 
 8.10000000e-01  4.59766982e-01  4.59766982e-01  3.56620395e-09  3.15131826e-09  3.48247191e-09  3.58848891e-09  4.59766983e-01  1.60241778e-07  1.00699395e-07  8.10000000e-01 
 8.20000000e-01  4.59766971e-01  4.59766971e-01  3.56620395e-09  3.15131826e-09  3.48247196e-09  3.58848891e-09  4.59766971e-01  1.60241771e-07  1.00699225e-07  8.20000000e-01 
 8.30000000e-01  4.59766998e-01  4.59766998e-01  3.56620395e-09  3.15131826e-09  3.48247191e-09  3.58848891e-09  4.59766998e-01  1.60241789e-07  1.00699189e-07  8.30000000e-01 
 8.40000000e-01  4.59766994e-01  4.59766994e-01  3.56620395e-09  3.15131826e-09  3.48247191e-09  3.58848891e-09  4.59766994e-01  1.60241789e-07  1.00699168e-07  8.40000000e-01 
 8.50000000e-01  4.59767018e-01  4.59767018e-01  3.56620395e-09  3.15131827e-09  3.48247197e-09  3.58848891e-09  4.59767018e-01  1.60241828e-07  1.00699218e-07  8.50000000e-01 
 8.60000000e-01  4.59766999e-01  4.59766999e-01  3.56620395e-09  3.15131826e-09  3.48247196e-09  3.58848885e-09  4.59766999e-01  1.60241810e-07  1.00699026e-07  8.60000000e-01 
 8.70000000e-01  4.59767000e-01  4.59767000e-01  3.56620395e-09  3.15131826e-09  3.48247191e-09  3.58848891e-09  4.59767001e-01  1.60241811e-07  1.00698941e-07  8.70000000e-01 
 8.80000000e-01  4.59766986e-01  4.59766986e-01  3.56620395e-09  3.15131826e-09  3.48247191e-09  3.58848891e-09  4.59766986e-01  1.60241769e-07  1.00698848e-07  8.80000000e-01 
 8.90000000e-01  4.59766990e-01  4.59766990e-01  3.56620395e-09  3.15131826e-09  3.48247196e-09  3.58848891e-09  4.59766990e-01  1.60241781e-07  1.00698777e-07  8.90000000e-01 
 9.00000000e-01  4.59767008e-01  4.59767008e-01  3.56620395e-09  3.15131821e-09  3.48247197e-09  3.58848891e-09  4.59767008e-01  1.60241817e-07  1.00698713e-07  9.00000000e-01 
 9.10000000e-01  4.59766976e-01  4.59766976e-01  3.56620395e-09  3.15131827e-09  3.48247196e-09  3.58848891e-09  4.59766976e-01  1.60241757e-07  1.00698585e-07  9.10000000e-01 
 9.20000000e-01  4.59766994e-01  4.59766994e-01  3.56620395e-09  3.15131826e-09  3.48247196e-09  3.58848891e-09  4.59766994e-01  1.60241794e-07  1.00698500e-07  9.20000000e-01 
 9.30000000e-01  4.59767014e-01  4.59767014e-01  3.56620395e-09  3.15131827e-09  3.48247197e-09  3.58848891e-09  4.59767014e-01  1.60241814e-07  1.00698593e-07  9.30000000e-01 
 9.40000000e-01  4.59766982e-01  4.59766982e-01  3.56620395e-09  3.15131826e-09  3.48247196e-09  3.58848891e-09  4.59766982e-01  1.60241766e-07  1.00698315e-07  9.40000000e-01 
 9.50000000e-01  4.59767004e-01  4.59767004e-01  3.56620395e-09  3.15131826e-09  3.48247196e-09  3.58848891e-09  4.59767004e-01  1.60241808e-07  1.00698344e-07  9.50000000e-01 
 9.60000000e-01  4.59766983e-01  4.59766983e-01  3.56620395e-09  3.15131826e-09  3.48247196e-09  3.58848891e-09  4.59766984e-01  1.60241776e-07  1.00698209e-07  9.60000000e-01 
 9.70000000e-01  4.59767000e-01  4.59767000e-01  3.56620395e-09  3.15131826e-09  3.48247196e-09  3.58848891e-09  4.59767000e-01  1.60241805e-07  1.00698152e-07  9.70000000e-01 
 9.80000000e-01  4.59767019e-01  4.59767020e-01  3.56620395e-09  3.15131827e-09  3.48247191e-09  3.58848891e-09  4.59767020e-01  1.60241826e-07  1.00698088e-07  9.80000000e-01 
 9.90000000e-01  4.59766975e-01  4.59766975e-01  3.56620395e-09  3.15131826e-09  3.48247196e-09  3.58848891e-09  4.59766975e-01  1.60241775e-07  1.00697939e-07  9.90000000e-01 
 1.00000000e+00  4.59766989e-01  4.59766989e-01  3.56620395e-09  3.15131821e-09  3.48247196e-09  3.58848891e-09  4.59766989e-01  1.60241784e-07  1.00697875e-07  1.00000000e+00 
 1.01000000e+00  4.59766994e-01  4.59766994e-01  3.56620395e-09  3.15131828e-09  3.48247191e-09  3.58848891e-09  4.59766994e-01  1.60241792e-07  1.00697903e-07  1.01000000e+00 
 1.02000000e+00  4.59766988e-01  4.59766988e-01  3.56620395e-09  3.15131826e-09  3.48247196e-09  3.58848891e-09  4.59766989e-01  1.60241785e-07  1.00697811e-07  1.02000000e+00 
 1.03000000e+00  4.59766972e-01  4.59766972e-01  3.56620395e-09  3.15131820e-09  3.48247196e-09  3.58848891e-09  4.59766972e-01  1.60241763e-07  1.00697584e-07  1.03000000e+00 
 1.04000000e+00  4.59766991e-01  4.59766991e-01  3.56620395e-09  3.15131828e-09  3.48247191e-09  3.58848891e-09  4.59766991e-01  1.60241796e-07  1.00697513e-07  1.04000000e+00 
 1.05000000e+00  4.59767001e-01  4.59767001e-01  3.56620395e-09  3.15131826e-09  3.48247196e-09  3.58848891e-09  4.59767002e-01  1.60241800e-07  1.00697520e-07  1.05000000e+00 
 1.06000000e+00  4.59767009e-01  4.59767009e-01  3.56620395e-09  3.15131826e-09  3.48247197e-09  3.58848891e-09  4.59767009e-01  1.60241815e-07  1.00697399e-07  1.06000000e+00 
 1.07000000e+00  4.59767000e-01  4.59767000e-01  3.56620395e-09  3.15131826e-09  3.48247191e-09  3.58848891e-09  4.59767000e-01  1.60241809e-07  1.00697235e-07  1.07000000e+00 
 1.08000000e+00  4.59766974e-01  4.59766974e-01  3.56620395e-09  3.15131826e-09  3.48247191e-09  3.58848891e-09  4.59766974e-01  1.60241756e-07  1.00697193e-07  1.08000000e+00 
 1.09000000e+00  4.59767026e-01  4.59767026e-01  3.56620395e-09  3.15131827e-09  3.48247197e-09  3.58848891e-09  4.59767027e-01  1.60241843e-07  1.00697299e-07  1.09000000e+00 
 1.10000000e+00  4.59766976e-01  4.59766976e-01  3.56620395e-09  3.15131826e-09  3.48247191e-09  3.58848891e-09  4.59766976e-01  1.60241767e-07  1.00696909e-07  1.10000000e+00 
