 v-sweep         v(b0)           v(b1)           v(b2)           v(b3)           v(b4)           v(b5)           v(b6)           i(vbias)        i(viout)        v(vout)        
 0.00000000e+00  3.28034538e-09  3.53243892e-09  4.56985898e-01  3.24594504e-09  4.56985898e-01  3.45893007e-09  3.35013472e-09  1.55583300e-07  2.99167892e-08  0.00000000e+00 
 1.00000000e-02  3.28034537e-09  3.53243895e-09  4.56985911e-01  3.24594508e-09  4.56985911e-01  3.45893006e-09  3.35013476e-09  1.55583316e-07  2.99165276e-08  1.00000000e-02 
 2.00000000e-02  3.28034542e-09  3.53243890e-09  4.56985893e-01  3.24594502e-09  4.56985893e-01  3.45893011e-09  3.35013476e-09  1.55583290e-07  2.99160747e-08  2.00000000e-02 
 3.00000000e-02  3.28034537e-09  3.53243891e-09  4.56985906e-01  3.24594502e-09  4.56985906e-01  3.45893006e-09  3.35013476e-09  1.55583318e-07  2.99157465e-08  3.00000000e-02 
 4.00000000e-02  3.28034537e-09  3.53243895e-09  4.56985914e-01  3.24594502e-09  4.56985914e-01  3.45893011e-09  3.35013476e-09  1.55583324e-07  2.99153911e-08  4.00000000e-02 
 5.00000000e-02  3.28034537e-09  3.53243890e-09  4.56985913e-01  3.24594502e-09  4.56985913e-01  3.45893006e-09  3.35013470e-09  1.55583318e-07  2.99150917e-08  5.00000000e-02 
 6.00000000e-02  3.28034542e-09  3.53243891e-09  4.56985907e-01  3.24594502e-09  4.56985907e-01  3.45893011e-09  3.35013470e-09  1.55583317e-07  2.99146325e-08  6.00000000e-02 
 7.00000000e-02  3.28034542e-09  3.53243889e-09  4.56985899e-01  3.24594502e-09  4.56985899e-01  3.45893011e-09  3.35013470e-09  1.55583314e-07  2.99145442e-08  7.00000000e-02 
 8.00000000e-02  3.28034543e-09  3.53243897e-09  4.56985926e-01  3.24594503e-09  4.56985926e-01  3.45893011e-09  3.35013476e-09  1.55583356e-07  2.99141432e-08  8.00000000e-02 
 9.00000000e-02  3.28034542e-09  3.53243889e-09  4.56985918e-01  3.24594502e-09  4.56985918e-01  3.45893006e-09  3.35013476e-09  1.55583331e-07  2.99138900e-08  9.00000000e-02 
 1.00000000e-01  3.28034542e-09  3.53243897e-09  4.56985913e-01  3.24594502e-09  4.56985913e-01  3.45893011e-09  3.35013476e-09  1.55583316e-07  2.99137888e-08  1.00000000e-01 
 1.10000000e-01  3.28034542e-09  3.53243895e-09  4.56985897e-01  3.24594502e-09  4.56985897e-01  3.45893006e-09  3.35013470e-09  1.55583305e-07  2.99134815e-08  1.10000000e-01 
 1.20000000e-01  3.28034537e-09  3.53243890e-09  4.56985896e-01  3.24594502e-09  4.56985896e-01  3.45893011e-09  3.35013470e-09  1.55583294e-07  2.99131759e-08  1.20000000e-01 
 1.30000000e-01  3.28034537e-09  3.53243891e-09  4.56985918e-01  3.24594502e-09  4.56985918e-01  3.45893006e-09  3.35013476e-09  1.55583342e-07  2.99130551e-08  1.30000000e-01 
 1.40000000e-01  3.28034542e-09  3.53243895e-09  4.56985900e-01  3.24594508e-09  4.56985900e-01  3.45893011e-09  3.35013476e-09  1.55583302e-07  2.99127541e-08  1.40000000e-01 
 1.50000000e-01  3.28034542e-09  3.53243896e-09  4.56985920e-01  3.24594502e-09  4.56985920e-01  3.45893011e-09  3.35013476e-09  1.55583347e-07  2.99125720e-08  1.50000000e-01 
 1.60000000e-01  3.28034537e-09  3.53243890e-09  4.56985926e-01  3.24594503e-09  4.56985926e-01  3.45893011e-09  3.35013476e-09  1.55583346e-07  2.99124512e-08  1.60000000e-01 
 1.70000000e-01  3.28034542e-09  3.53243891e-09  4.56985923e-01  3.24594502e-09  4.56985923e-01  3.45893011e-09  3.35013476e-09  1.55583345e-07  2.99121403e-08  1.70000000e-01 
 1.80000000e-01  3.28034537e-09  3.53243889e-09  4.56985909e-01  3.24594508e-09  4.56985909e-01  3.45893006e-09  3.35013476e-09  1.55583321e-07  2.99120249e-08  1.80000000e-01 
 1.90000000e-01  3.28034537e-09  3.53243891e-09  4.56985922e-01  3.24594502e-09  4.56985922e-01  3.45893011e-09  3.35013476e-09  1.55583340e-07  2.99118774e-08  1.90000000e-01 
 2.00000000e-01  3.28034537e-09  3.53243895e-09  4.56985896e-01  3.24594502e-09  4.56985896e-01  3.45893006e-09  3.35013470e-09  1.55583289e-07  2.99116856e-08  2.00000000e-01 
 2.10000000e-01  3.28034537e-09  3.53243895e-09  4.56985906e-01  3.24594502e-09  4.56985906e-01  3.45893011e-09  3.35013476e-09  1.55583324e-07  2.99115417e-08  2.10000000e-01 
 2.20000000e-01  3.28034537e-09  3.53243890e-09  4.56985911e-01  3.24594508e-09  4.56985911e-01  3.45893006e-09  3.35013476e-09  1.55583317e-07  2.99114298e-08  2.20000000e-01 
 2.30000000e-01  3.28034542e-09  3.53243897e-09  4.56985891e-01  3.24594502e-09  4.56985891e-01  3.45893006e-09  3.35013475e-09  1.55583290e-07  2.99113676e-08  2.30000000e-01 
 2.40000000e-01  3.28034542e-09  3.53243889e-09  4.56985879e-01  3.24594508e-09  4.56985879e-01  3.45893006e-09  3.35013470e-09  1.55583266e-07  2.99111775e-08  2.40000000e-01 
 2.50000000e-01  3.28034537e-09  3.53243891e-09  4.56985908e-01  3.24594502e-09  4.56985908e-01  3.45893006e-09  3.35013470e-09  1.55583308e-07  2.99109484e-08  2.50000000e-01 
 2.60000000e-01  3.28034537e-09  3.53243895e-09  4.56985924e-01  3.24594503e-09  4.56985924e-01  3.45893011e-09  3.35013476e-09  1.55583333e-07  2.99108169e-08  2.60000000e-01 
 2.70000000e-01  3.28034542e-09  3.53243890e-09  4.56985912e-01  3.24594502e-09  4.56985912e-01  3.45893006e-09  3.35013470e-09  1.55583312e-07  2.99108098e-08  2.70000000e-01 
 2.80000000e-01  3.28034537e-09  3.53243891e-09  4.56985898e-01  3.24594502e-09  4.56985898e-01  3.45893006e-09  3.35013476e-09  1.55583300e-07  2.99107352e-08  2.80000000e-01 
 2.90000000e-01  3.28034542e-09  3.53243895e-09  4.56985892e-01  3.24594502e-09  4.56985892e-01  3.45893006e-09  3.35013470e-09  1.55583283e-07  2.99105096e-08  2.90000000e-01 
 3.00000000e-01  3.28034537e-09  3.53243895e-09  4.56985890e-01  3.24594502e-09  4.56985890e-01  3.45893006e-09  3.35013470e-09  1.55583293e-07  2.99105416e-08  3.00000000e-01 
 3.10000000e-01  3.28034542e-09  3.53243895e-09  4.56985894e-01  3.24594502e-09  4.56985894e-01  3.45893011e-09  3.35013470e-09  1.55583289e-07  2.99103817e-08  3.10000000e-01 
 3.20000000e-01  3.28034542e-09  3.53243896e-09  4.56985916e-01  3.24594502e-09  4.56985916e-01  3.45893011e-09  3.35013476e-09  1.55583331e-07  2.99102609e-08  3.20000000e-01 
 3.30000000e-01  3.28034542e-09  3.53243890e-09  4.56985922e-01  3.24594502e-09  4.56985922e-01  3.45893011e-09  3.35013476e-09  1.55583341e-07  2.99102929e-08  3.30000000e-01 
 3.40000000e-01  3.28034537e-09  3.53243897e-09  4.56985891e-01  3.24594502e-09  4.56985891e-01  3.45893011e-09  3.35013475e-09  1.55583287e-07  2.99101366e-08  3.40000000e-01 
 3.50000000e-01  3.28034542e-09  3.53243889e-09  4.56985903e-01  3.24594502e-09  4.56985903e-01  3.45893006e-09  3.35013476e-09  1.55583296e-07  2.99099767e-08  3.50000000e-01 
 3.60000000e-01  3.28034542e-09  3.53243891e-09  4.56985907e-01  3.24594502e-09  4.56985907e-01  3.45893006e-09  3.35013476e-09  1.55583322e-07  2.99098737e-08  3.60000000e-01 
 3.70000000e-01  3.28034537e-09  3.53243895e-09  4.56985902e-01  3.24594502e-09  4.56985902e-01  3.45893006e-09  3.35013476e-09  1.55583299e-07  2.99098524e-08  3.70000000e-01 
 3.80000000e-01  3.28034537e-09  3.53243895e-09  4.56985906e-01  3.24594502e-09  4.56985906e-01  3.45893011e-09  3.35013470e-09  1.55583317e-07  2.99096499e-08  3.80000000e-01 
 3.90000000e-01  3.28034542e-09  3.53243890e-09  4.56985907e-01  3.24594508e-09  4.56985907e-01  3.45893006e-09  3.35013470e-09  1.55583310e-07  2.99096641e-08  3.90000000e-01 
 4.00000000e-01  3.28034542e-09  3.53243891e-09  4.56985903e-01  3.24594502e-09  4.56985903e-01  3.45893006e-09  3.35013470e-09  1.55583313e-07  2.99096783e-08  4.00000000e-01 
 4.10000000e-01  3.28034537e-09  3.53243895e-09  4.56985899e-01  3.24594502e-09  4.56985899e-01  3.45893006e-09  3.35013476e-09  1.55583306e-07  2.99095113e-08  4.10000000e-01 
 4.20000000e-01  3.28034537e-09  3.53243895e-09  4.56985888e-01  3.24594508e-09  4.56985888e-01  3.45893006e-09  3.35013475e-09  1.55583284e-07  2.99093834e-08  4.20000000e-01 
 4.30000000e-01  3.28034537e-09  3.53243890e-09  4.56985908e-01  3.24594502e-09  4.56985908e-01  3.45893011e-09  3.35013476e-09  1.55583318e-07  2.99094758e-08  4.30000000e-01 
 4.40000000e-01  3.28034542e-09  3.53243897e-09  4.56985914e-01  3.24594502e-09  4.56985914e-01  3.45893011e-09  3.35013476e-09  1.55583317e-07  2.99092449e-08  4.40000000e-01 
 4.50000000e-01  3.28034537e-09  3.53243889e-09  4.56985918e-01  3.24594508e-09  4.56985918e-01  3.45893011e-09  3.35013476e-09  1.55583314e-07  2.99093266e-08  4.50000000e-01 
 4.60000000e-01  3.28034542e-09  3.53243897e-09  4.56985911e-01  3.24594502e-09  4.56985911e-01  3.45893006e-09  3.35013476e-09  1.55583331e-07  2.99092235e-08  4.60000000e-01 
 4.70000000e-01  3.28034537e-09  3.53243889e-09  4.56985883e-01  3.24594508e-09  4.56985883e-01  3.45893011e-09  3.35013470e-09  1.55583278e-07  2.99091987e-08  4.70000000e-01 
 4.80000000e-01  3.28034537e-09  3.53243891e-09  4.56985914e-01  3.24594502e-09  4.56985914e-01  3.45893006e-09  3.35013476e-09  1.55583324e-07  2.99091205e-08  4.80000000e-01 
 4.90000000e-01  3.28034537e-09  3.53243895e-09  4.56985918e-01  3.24594502e-09  4.56985918e-01  3.45893006e-09  3.35013470e-09  1.55583328e-07  2.99089820e-08  4.90000000e-01 
 5.00000000e-01  3.28034542e-09  3.53243890e-09  4.56985901e-01  3.24594502e-09  4.56985901e-01  3.45893006e-09  3.35013470e-09  1.55583306e-07  2.99089038e-08  5.00000000e-01 
 5.10000000e-01  3.28034537e-09  3.53243891e-09  4.56985909e-01  3.24594502e-09  4.56985909e-01  3.45893006e-09  3.35013470e-09  1.55583336e-07  2.99089855e-08  5.10000000e-01 
 5.20000000e-01  3.28034542e-09  3.53243889e-09  4.56985909e-01  3.24594508e-09  4.56985909e-01  3.45893006e-09  3.35013476e-09  1.55583308e-07  2.99088931e-08  5.20000000e-01 
 5.30000000e-01  3.28034537e-09  3.53243891e-09  4.56985894e-01  3.24594502e-09  4.56985894e-01  3.45893006e-09  3.35013476e-09  1.55583304e-07  2.99088185e-08  5.30000000e-01 
 5.40000000e-01  3.28034537e-09  3.53243895e-09  4.56985906e-01  3.24594502e-09  4.56985905e-01  3.45893006e-09  3.35013476e-09  1.55583322e-07  2.99088327e-08  5.40000000e-01 
 5.50000000e-01  3.28034537e-09  3.53243896e-09  4.56985923e-01  3.24594502e-09  4.56985923e-01  3.45893011e-09  3.35013470e-09  1.55583331e-07  2.99086977e-08  5.50000000e-01 
 5.60000000e-01  3.28034542e-09  3.53243896e-09  4.56985917e-01  3.24594502e-09  4.56985917e-01  3.45893011e-09  3.35013476e-09  1.55583342e-07  2.99086764e-08  5.60000000e-01 
 5.70000000e-01  3.28034542e-09  3.53243890e-09  4.56985906e-01  3.24594502e-09  4.56985906e-01  3.45893006e-09  3.35013476e-09  1.55583314e-07  2.99085876e-08  5.70000000e-01 
 5.80000000e-01  3.28034537e-09  3.53243891e-09  4.56985914e-01  3.24594508e-09  4.56985914e-01  3.45893011e-09  3.35013470e-09  1.55583322e-07  2.99085841e-08  5.80000000e-01 
 5.90000000e-01  3.28034537e-09  3.53243889e-09  4.56985882e-01  3.24594502e-09  4.56985882e-01  3.45893006e-09  3.35013475e-09  1.55583272e-07  2.99084348e-08  5.90000000e-01 
 6.00000000e-01  3.28034537e-09  3.53243891e-09  4.56985910e-01  3.24594502e-09  4.56985910e-01  3.45893006e-09  3.35013476e-09  1.55583320e-07  2.99085272e-08  6.00000000e-01 
 6.10000000e-01  3.28034542e-09  3.53243895e-09  4.56985903e-01  3.24594508e-09  4.56985903e-01  3.45893006e-09  3.35013476e-09  1.55583314e-07  2.99083212e-08  6.10000000e-01 
 6.20000000e-01  3.28034542e-09  3.53243890e-09  4.56985908e-01  3.24594502e-09  4.56985908e-01  3.45893006e-09  3.35013476e-09  1.55583322e-07  2.99083069e-08  6.20000000e-01 
 6.30000000e-01  3.28034537e-09  3.53243891e-09  4.56985901e-01  3.24594502e-09  4.56985900e-01  3.45893006e-09  3.35013476e-09  1.55583303e-07  2.99081933e-08  6.30000000e-01 
 6.40000000e-01  3.28034537e-09  3.53243889e-09  4.56985889e-01  3.24594508e-09  4.56985889e-01  3.45893006e-09  3.35013475e-09  1.55583282e-07  2.99081719e-08  6.40000000e-01 
 6.50000000e-01  3.28034542e-09  3.53243897e-09  4.56985885e-01  3.24594508e-09  4.56985885e-01  3.45893011e-09  3.35013475e-09  1.55583272e-07  2.99081293e-08  6.50000000e-01 
 6.60000000e-01  3.28034537e-09  3.53243889e-09  4.56985929e-01  3.24594508e-09  4.56985929e-01  3.45893011e-09  3.35013476e-09  1.55583365e-07  2.99080583e-08  6.60000000e-01 
 6.70000000e-01  3.28034537e-09  3.53243891e-09  4.56985919e-01  3.24594502e-09  4.56985919e-01  3.45893011e-09  3.35013476e-09  1.55583320e-07  2.99081080e-08  6.70000000e-01 
 6.80000000e-01  3.28034537e-09  3.53243889e-09  4.56985914e-01  3.24594508e-09  4.56985914e-01  3.45893006e-09  3.35013476e-09  1.55583328e-07  2.99080156e-08  6.80000000e-01 
 6.90000000e-01  3.28034542e-09  3.53243891e-09  4.56985913e-01  3.24594502e-09  4.56985913e-01  3.45893011e-09  3.35013476e-09  1.55583310e-07  2.99078238e-08  6.90000000e-01 
 7.00000000e-01  3.28034537e-09  3.53243889e-09  4.56985911e-01  3.24594502e-09  4.56985911e-01  3.45893011e-09  3.35013476e-09  1.55583318e-07  2.99078593e-08  7.00000000e-01 
 7.10000000e-01  3.28034542e-09  3.53243897e-09  4.56985920e-01  3.24594502e-09  4.56985920e-01  3.45893006e-09  3.35013476e-09  1.55583325e-07  2.99078025e-08  7.10000000e-01 
 7.20000000e-01  3.28034537e-09  3.53243889e-09  4.56985926e-01  3.24594503e-09  4.56985926e-01  3.45893006e-09  3.35013470e-09  1.55583335e-07  2.99077954e-08  7.20000000e-01 
 7.30000000e-01  3.28034537e-09  3.53243891e-09  4.56985911e-01  3.24594502e-09  4.56985911e-01  3.45893011e-09  3.35013476e-09  1.55583326e-07  2.99076888e-08  7.30000000e-01 
 7.40000000e-01  3.28034542e-09  3.53243895e-09  4.56985922e-01  3.24594502e-09  4.56985922e-01  3.45893011e-09  3.35013476e-09  1.55583336e-07  2.99076675e-08  7.40000000e-01 
 7.50000000e-01  3.28034537e-09  3.53243895e-09  4.56985907e-01  3.24594508e-09  4.56985907e-01  3.45893006e-09  3.35013476e-09  1.55583311e-07  2.99075893e-08  7.50000000e-01 
 7.60000000e-01  3.28034537e-09  3.53243890e-09  4.56985945e-01  3.24594503e-09  4.56985945e-01  3.45893011e-09  3.35013476e-09  1.55583371e-07  2.99076248e-08  7.60000000e-01 
 7.70000000e-01  3.28034542e-09  3.53243891e-09  4.56985893e-01  3.24594502e-09  4.56985893e-01  3.45893006e-09  3.35013476e-09  1.55583300e-07  2.99074614e-08  7.70000000e-01 
 7.80000000e-01  3.28034537e-09  3.53243895e-09  4.56985904e-01  3.24594508e-09  4.56985904e-01  3.45893006e-09  3.35013476e-09  1.55583325e-07  2.99075751e-08  7.80000000e-01 
 7.90000000e-01  3.28034537e-09  3.53243896e-09  4.56985925e-01  3.24594503e-09  4.56985925e-01  3.45893006e-09  3.35013470e-09  1.55583333e-07  2.99074472e-08  7.90000000e-01 
 8.00000000e-01  3.28034537e-09  3.53243895e-09  4.56985894e-01  3.24594508e-09  4.56985894e-01  3.45893006e-09  3.35013476e-09  1.55583295e-07  2.99073619e-08  8.00000000e-01 
 8.10000000e-01  3.28034542e-09  3.53243895e-09  4.56985897e-01  3.24594502e-09  4.56985897e-01  3.45893006e-09  3.35013470e-09  1.55583302e-07  2.99072340e-08  8.10000000e-01 
 8.20000000e-01  3.28034537e-09  3.53243890e-09  4.56985902e-01  3.24594502e-09  4.56985902e-01  3.45893006e-09  3.35013470e-09  1.55583317e-07  2.99071772e-08  8.20000000e-01 
 8.30000000e-01  3.28034537e-09  3.53243891e-09  4.56985913e-01  3.24594502e-09  4.56985913e-01  3.45893011e-09  3.35013470e-09  1.55583328e-07  2.99071701e-08  8.30000000e-01 
 8.40000000e-01  3.28034537e-09  3.53243889e-09  4.56985925e-01  3.24594503e-09  4.56985925e-01  3.45893006e-09  3.35013470e-09  1.55583350e-07  2.99071345e-08  8.40000000e-01 
 8.50000000e-01  3.28034537e-09  3.53243891e-09  4.56985915e-01  3.24594502e-09  4.56985915e-01  3.45893011e-09  3.35013476e-09  1.55583324e-07  2.99071559e-08  8.50000000e-01 
 8.60000000e-01  3.28034542e-09  3.53243895e-09  4.56985892e-01  3.24594508e-09  4.56985892e-01  3.45893011e-09  3.35013470e-09  1.55583295e-07  2.99070138e-08  8.60000000e-01 
 8.70000000e-01  3.28034542e-09  3.53243890e-09  4.56985893e-01  3.24594502e-09  4.56985892e-01  3.45893006e-09  3.35013470e-09  1.55583292e-07  2.99069143e-08  8.70000000e-01 
 8.80000000e-01  3.28034537e-09  3.53243891e-09  4.56985889e-01  3.24594508e-09  4.56985889e-01  3.45893011e-09  3.35013470e-09  1.55583291e-07  2.99068859e-08  8.80000000e-01 
 8.90000000e-01  3.28034537e-09  3.53243889e-09  4.56985893e-01  3.24594502e-09  4.56985893e-01  3.45893011e-09  3.35013476e-09  1.55583304e-07  2.99069143e-08  8.90000000e-01 
 9.00000000e-01  3.28034542e-09  3.53243891e-09  4.56985904e-01  3.24594508e-09  4.56985904e-01  3.45893006e-09  3.35013476e-09  1.55583310e-07  2.99068574e-08  9.00000000e-01 
 9.10000000e-01  3.28034542e-09  3.53243895e-09  4.56985906e-01  3.24594502e-09  4.56985906e-01  3.45893006e-09  3.35013470e-09  1.55583306e-07  2.99067509e-08  9.10000000e-01 
 9.20000000e-01  3.28034537e-09  3.53243895e-09  4.56985901e-01  3.24594502e-09  4.56985901e-01  3.45893006e-09  3.35013476e-09  1.55583308e-07  2.99066656e-08  9.20000000e-01 
 9.30000000e-01  3.28034537e-09  3.53243895e-09  4.56985899e-01  3.24594502e-09  4.56985899e-01  3.45893006e-09  3.35013470e-09  1.55583298e-07  2.99065803e-08  9.30000000e-01 
 9.40000000e-01  3.28034537e-09  3.53243895e-09  4.56985899e-01  3.24594502e-09  4.56985899e-01  3.45893006e-09  3.35013476e-09  1.55583316e-07  2.99066016e-08  9.40000000e-01 
 9.50000000e-01  3.28034542e-09  3.53243895e-09  4.56985909e-01  3.24594502e-09  4.56985909e-01  3.45893006e-09  3.35013476e-09  1.55583316e-07  2.99064240e-08  9.50000000e-01 
 9.60000000e-01  3.28034542e-09  3.53243895e-09  4.56985909e-01  3.24594502e-09  4.56985909e-01  3.45893006e-09  3.35013476e-09  1.55583328e-07  2.99064666e-08  9.60000000e-01 
 9.70000000e-01  3.28034537e-09  3.53243890e-09  4.56985905e-01  3.24594502e-09  4.56985905e-01  3.45893011e-09  3.35013470e-09  1.55583316e-07  2.99064595e-08  9.70000000e-01 
 9.80000000e-01  3.28034537e-09  3.53243891e-09  4.56985912e-01  3.24594508e-09  4.56985912e-01  3.45893011e-09  3.35013476e-09  1.55583321e-07  2.99063529e-08  9.80000000e-01 
 9.90000000e-01  3.28034537e-09  3.53243889e-09  4.56985913e-01  3.24594502e-09  4.56985913e-01  3.45893006e-09  3.35013470e-09  1.55583314e-07  2.99062890e-08  9.90000000e-01 
 1.00000000e+00  3.28034537e-09  3.53243897e-09  4.56985905e-01  3.24594502e-09  4.56985905e-01  3.45893006e-09  3.35013476e-09  1.55583296e-07  2.99062322e-08  1.00000000e+00 
 1.01000000e+00  3.28034542e-09  3.53243889e-09  4.56985914e-01  3.24594502e-09  4.56985914e-01  3.45893011e-09  3.35013470e-09  1.55583335e-07  2.99061398e-08  1.01000000e+00 
 1.02000000e+00  3.28034537e-09  3.53243891e-09  4.56985908e-01  3.24594502e-09  4.56985908e-01  3.45893006e-09  3.35013470e-09  1.55583311e-07  2.99062251e-08  1.02000000e+00 
 1.03000000e+00  3.28034537e-09  3.53243895e-09  4.56985894e-01  3.24594502e-09  4.56985894e-01  3.45893006e-09  3.35013476e-09  1.55583305e-07  2.99061114e-08  1.03000000e+00 
 1.04000000e+00  3.28034542e-09  3.53243895e-09  4.56985876e-01  3.24594502e-09  4.56985876e-01  3.45893011e-09  3.35013475e-09  1.55583275e-07  2.99059408e-08  1.04000000e+00 
 1.05000000e+00  3.28034537e-09  3.53243890e-09  4.56985910e-01  3.24594508e-09  4.56985910e-01  3.45893006e-09  3.35013470e-09  1.55583323e-07  2.99059479e-08  1.05000000e+00 
 1.06000000e+00  3.28034537e-09  3.53243891e-09  4.56985895e-01  3.24594502e-09  4.56985895e-01  3.45893006e-09  3.35013470e-09  1.55583303e-07  2.99058840e-08  1.06000000e+00 
 1.07000000e+00  3.28034542e-09  3.53243895e-09  4.56985896e-01  3.24594502e-09  4.56985896e-01  3.45893006e-09  3.35013476e-09  1.55583298e-07  2.99059337e-08  1.07000000e+00 
 1.08000000e+00  3.28034537e-09  3.53243890e-09  4.56985918e-01  3.24594502e-09  4.56985918e-01  3.45893006e-09  3.35013476e-09  1.55583331e-07  2.99057206e-08  1.08000000e+00 
 1.09000000e+00  3.28034542e-09  3.53243891e-09  4.56985918e-01  3.24594502e-09  4.56985918e-01  3.45893006e-09  3.35013476e-09  1.55583325e-07  2.99058769e-08  1.09000000e+00 
 1.10000000e+00  3.28034542e-09  3.53243889e-09  4.56985918e-01  3.24594508e-09  4.56985918e-01  3.45893011e-09  3.35013476e-09  1.55583328e-07  2.99056637e-08  1.10000000e+00 
