 v-sweep         v(b0)           v(b1)           v(b2)           v(b3)           v(b4)           v(b5)           v(b6)           i(vbias)        i(viout)        v(vout)        
 0.00000000e+00  3.37890257e-09  3.20059242e-09  3.30973298e-09  3.40028754e-09  4.56743523e-01  4.56743523e-01  4.56743523e-01  1.54612785e-07  1.57472863e-07  0.00000000e+00 
 1.00000000e-02  3.37890255e-09  3.20059240e-09  3.30973301e-09  3.40028758e-09  4.56743504e-01  4.56743504e-01  4.56743504e-01  1.54612761e-07  1.57472304e-07  1.00000000e-02 
 2.00000000e-02  3.37890262e-09  3.20059240e-09  3.30973295e-09  3.40028758e-09  4.56743514e-01  4.56743514e-01  4.56743514e-01  1.54612761e-07  1.57471960e-07  2.00000000e-02 
 3.00000000e-02  3.37890261e-09  3.20059240e-09  3.30973297e-09  3.40028752e-09  4.56743512e-01  4.56743512e-01  4.56743512e-01  1.54612762e-07  1.57471484e-07  3.00000000e-02 
 4.00000000e-02  3.37890255e-09  3.20059240e-09  3.30973302e-09  3.40028758e-09  4.56743475e-01  4.56743475e-01  4.56743475e-01  1.54612708e-07  1.57471001e-07  4.00000000e-02 
 5.00000000e-02  3.37890256e-09  3.20059240e-09  3.30973295e-09  3.40028752e-09  4.56743492e-01  4.56743492e-01  4.56743492e-01  1.54612734e-07  1.57470735e-07  5.00000000e-02 
 6.00000000e-02  3.37890256e-09  3.20059240e-09  3.30973302e-09  3.40028752e-09  4.56743507e-01  4.56743507e-01  4.56743507e-01  1.54612752e-07  1.57470374e-07  6.00000000e-02 
 7.00000000e-02  3.37890256e-09  3.20059240e-09  3.30973300e-09  3.40028758e-09  4.56743486e-01  4.56743486e-01  4.56743486e-01  1.54612734e-07  1.57469900e-07  7.00000000e-02 
 8.00000000e-02  3.37890261e-09  3.20059240e-09  3.30973295e-09  3.40028752e-09  4.56743492e-01  4.56743492e-01  4.56743492e-01  1.54612722e-07  1.57469580e-07  8.00000000e-02 
 9.00000000e-02  3.37890260e-09  3.20059240e-09  3.30973302e-09  3.40028758e-09  4.56743498e-01  4.56743498e-01  4.56743498e-01  1.54612743e-07  1.57469199e-07  9.00000000e-02 
 1.00000000e-01  3.37890261e-09  3.20059240e-09  3.30973300e-09  3.40028758e-09  4.56743498e-01  4.56743498e-01  4.56743498e-01  1.54612731e-07  1.57469000e-07  1.00000000e-01 
 1.10000000e-01  3.37890255e-09  3.20059240e-09  3.30973301e-09  3.40028752e-09  4.56743510e-01  4.56743510e-01  4.56743510e-01  1.54612752e-07  1.57468764e-07  1.10000000e-01 
 1.20000000e-01  3.37890256e-09  3.20059240e-09  3.30973301e-09  3.40028752e-09  4.56743501e-01  4.56743501e-01  4.56743501e-01  1.54612751e-07  1.57468490e-07  1.20000000e-01 
 1.30000000e-01  3.37890262e-09  3.20059240e-09  3.30973301e-09  3.40028758e-09  4.56743499e-01  4.56743499e-01  4.56743499e-01  1.54612736e-07  1.57468190e-07  1.30000000e-01 
 1.40000000e-01  3.37890260e-09  3.20059240e-09  3.30973301e-09  3.40028758e-09  4.56743498e-01  4.56743498e-01  4.56743498e-01  1.54612741e-07  1.57467975e-07  1.40000000e-01 
 1.50000000e-01  3.37890255e-09  3.20059240e-09  3.30973295e-09  3.40028758e-09  4.56743497e-01  4.56743497e-01  4.56743497e-01  1.54612739e-07  1.57467696e-07  1.50000000e-01 
 1.60000000e-01  3.37890256e-09  3.20059240e-09  3.30973302e-09  3.40028758e-09  4.56743501e-01  4.56743502e-01  4.56743501e-01  1.54612751e-07  1.57467456e-07  1.60000000e-01 
 1.70000000e-01  3.37890256e-09  3.20059240e-09  3.30973301e-09  3.40028758e-09  4.56743520e-01  4.56743520e-01  4.56743520e-01  1.54612756e-07  1.57467303e-07  1.70000000e-01 
 1.80000000e-01  3.37890256e-09  3.20059240e-09  3.30973296e-09  3.40028758e-09  4.56743520e-01  4.56743520e-01  4.56743520e-01  1.54612777e-07  1.57467094e-07  1.80000000e-01 
 1.90000000e-01  3.37890256e-09  3.20059240e-09  3.30973302e-09  3.40028758e-09  4.56743513e-01  4.56743513e-01  4.56743513e-01  1.54612743e-07  1.57466896e-07  1.90000000e-01 
 2.00000000e-01  3.37890262e-09  3.20059240e-09  3.30973295e-09  3.40028752e-09  4.56743534e-01  4.56743534e-01  4.56743534e-01  1.54612796e-07  1.57466706e-07  2.00000000e-01 
 2.10000000e-01  3.37890255e-09  3.20059240e-09  3.30973302e-09  3.40028758e-09  4.56743502e-01  4.56743502e-01  4.56743502e-01  1.54612739e-07  1.57466376e-07  2.10000000e-01 
 2.20000000e-01  3.37890257e-09  3.20059240e-09  3.30973301e-09  3.40028752e-09  4.56743514e-01  4.56743514e-01  4.56743514e-01  1.54612753e-07  1.57466209e-07  2.20000000e-01 
 2.30000000e-01  3.37890256e-09  3.20059240e-09  3.30973295e-09  3.40028758e-09  4.56743494e-01  4.56743494e-01  4.56743494e-01  1.54612735e-07  1.57466079e-07  2.30000000e-01 
 2.40000000e-01  3.37890256e-09  3.20059240e-09  3.30973297e-09  3.40028758e-09  4.56743524e-01  4.56743524e-01  4.56743524e-01  1.54612782e-07  1.57465967e-07  2.40000000e-01 
 2.50000000e-01  3.37890255e-09  3.20059240e-09  3.30973302e-09  3.40028758e-09  4.56743475e-01  4.56743475e-01  4.56743475e-01  1.54612707e-07  1.57465523e-07  2.50000000e-01 
 2.60000000e-01  3.37890256e-09  3.20059240e-09  3.30973300e-09  3.40028758e-09  4.56743496e-01  4.56743496e-01  4.56743496e-01  1.54612731e-07  1.57465507e-07  2.60000000e-01 
 2.70000000e-01  3.37890256e-09  3.20059240e-09  3.30973295e-09  3.40028758e-09  4.56743505e-01  4.56743505e-01  4.56743505e-01  1.54612742e-07  1.57465271e-07  2.70000000e-01 
 2.80000000e-01  3.37890256e-09  3.20059240e-09  3.30973302e-09  3.40028758e-09  4.56743506e-01  4.56743506e-01  4.56743506e-01  1.54612755e-07  1.57465221e-07  2.80000000e-01 
 2.90000000e-01  3.37890262e-09  3.20059240e-09  3.30973301e-09  3.40028758e-09  4.56743502e-01  4.56743502e-01  4.56743502e-01  1.54612738e-07  1.57465010e-07  2.90000000e-01 
 3.00000000e-01  3.37890254e-09  3.20059234e-09  3.30973301e-09  3.40028758e-09  4.56743492e-01  4.56743492e-01  4.56743492e-01  1.54612724e-07  1.57464864e-07  3.00000000e-01 
 3.10000000e-01  3.37890257e-09  3.20059240e-09  3.30973295e-09  3.40028758e-09  4.56743512e-01  4.56743512e-01  4.56743512e-01  1.54612760e-07  1.57464729e-07  3.10000000e-01 
 3.20000000e-01  3.37890256e-09  3.20059240e-09  3.30973302e-09  3.40028758e-09  4.56743483e-01  4.56743483e-01  4.56743483e-01  1.54612710e-07  1.57464513e-07  3.20000000e-01 
 3.30000000e-01  3.37890256e-09  3.20059240e-09  3.30973301e-09  3.40028752e-09  4.56743507e-01  4.56743507e-01  4.56743507e-01  1.54612756e-07  1.57464477e-07  3.30000000e-01 
 3.40000000e-01  3.37890261e-09  3.20059240e-09  3.30973295e-09  3.40028758e-09  4.56743489e-01  4.56743489e-01  4.56743489e-01  1.54612731e-07  1.57464200e-07  3.40000000e-01 
 3.50000000e-01  3.37890255e-09  3.20059240e-09  3.30973302e-09  3.40028758e-09  4.56743516e-01  4.56743516e-01  4.56743516e-01  1.54612762e-07  1.57464186e-07  3.50000000e-01 
 3.60000000e-01  3.37890257e-09  3.20059240e-09  3.30973301e-09  3.40028758e-09  4.56743519e-01  4.56743519e-01  4.56743519e-01  1.54612770e-07  1.57464100e-07  3.60000000e-01 
 3.70000000e-01  3.37890261e-09  3.20059240e-09  3.30973295e-09  3.40028752e-09  4.56743486e-01  4.56743486e-01  4.56743486e-01  1.54612725e-07  1.57463923e-07  3.70000000e-01 
 3.80000000e-01  3.37890261e-09  3.20059240e-09  3.30973297e-09  3.40028758e-09  4.56743512e-01  4.56743512e-01  4.56743512e-01  1.54612748e-07  1.57463756e-07  3.80000000e-01 
 3.90000000e-01  3.37890261e-09  3.20059240e-09  3.30973296e-09  3.40028758e-09  4.56743514e-01  4.56743514e-01  4.56743514e-01  1.54612769e-07  1.57463713e-07  3.90000000e-01 
 4.00000000e-01  3.37890255e-09  3.20059240e-09  3.30973296e-09  3.40028758e-09  4.56743500e-01  4.56743500e-01  4.56743500e-01  1.54612727e-07  1.57463461e-07  4.00000000e-01 
 4.10000000e-01  3.37890257e-09  3.20059240e-09  3.30973302e-09  3.40028758e-09  4.56743506e-01  4.56743506e-01  4.56743506e-01  1.54612750e-07  1.57463493e-07  4.10000000e-01 
 4.20000000e-01  3.37890256e-09  3.20059240e-09  3.30973295e-09  3.40028758e-09  4.56743511e-01  4.56743511e-01  4.56743511e-01  1.54612754e-07  1.57463219e-07  4.20000000e-01 
 4.30000000e-01  3.37890255e-09  3.20059240e-09  3.30973296e-09  3.40028758e-09  4.56743481e-01  4.56743481e-01  4.56743481e-01  1.54612711e-07  1.57463106e-07  4.30000000e-01 
 4.40000000e-01  3.37890256e-09  3.20059240e-09  3.30973296e-09  3.40028758e-09  4.56743510e-01  4.56743510e-01  4.56743510e-01  1.54612756e-07  1.57463059e-07  4.40000000e-01 
 4.50000000e-01  3.37890256e-09  3.20059240e-09  3.30973296e-09  3.40028758e-09  4.56743511e-01  4.56743511e-01  4.56743511e-01  1.54612764e-07  1.57462978e-07  4.50000000e-01 
 4.60000000e-01  3.37890256e-09  3.20059240e-09  3.30973296e-09  3.40028758e-09  4.56743497e-01  4.56743497e-01  4.56743497e-01  1.54612752e-07  1.57462807e-07  4.60000000e-01 
 4.70000000e-01  3.37890256e-09  3.20059240e-09  3.30973296e-09  3.40028758e-09  4.56743505e-01  4.56743505e-01  4.56743505e-01  1.54612756e-07  1.57462647e-07  4.70000000e-01 
 4.80000000e-01  3.37890261e-09  3.20059240e-09  3.30973296e-09  3.40028758e-09  4.56743478e-01  4.56743478e-01  4.56743478e-01  1.54612708e-07  1.57462583e-07  4.80000000e-01 
 4.90000000e-01  3.37890260e-09  3.20059240e-09  3.30973302e-09  3.40028752e-09  4.56743490e-01  4.56743491e-01  4.56743490e-01  1.54612740e-07  1.57462480e-07  4.90000000e-01 
 5.00000000e-01  3.37890261e-09  3.20059240e-09  3.30973301e-09  3.40028752e-09  4.56743512e-01  4.56743512e-01  4.56743512e-01  1.54612766e-07  1.57462427e-07  5.00000000e-01 
 5.10000000e-01  3.37890255e-09  3.20059240e-09  3.30973301e-09  3.40028758e-09  4.56743501e-01  4.56743501e-01  4.56743501e-01  1.54612728e-07  1.57462321e-07  5.10000000e-01 
 5.20000000e-01  3.37890256e-09  3.20059240e-09  3.30973301e-09  3.40028752e-09  4.56743490e-01  4.56743490e-01  4.56743490e-01  1.54612729e-07  1.57462104e-07  5.20000000e-01 
 5.30000000e-01  3.37890256e-09  3.20059240e-09  3.30973301e-09  3.40028758e-09  4.56743494e-01  4.56743494e-01  4.56743494e-01  1.54612747e-07  1.57462011e-07  5.30000000e-01 
 5.40000000e-01  3.37890256e-09  3.20059240e-09  3.30973301e-09  3.40028758e-09  4.56743511e-01  4.56743511e-01  4.56743511e-01  1.54612754e-07  1.57461933e-07  5.40000000e-01 
 5.50000000e-01  3.37890256e-09  3.20059240e-09  3.30973295e-09  3.40028758e-09  4.56743506e-01  4.56743506e-01  4.56743506e-01  1.54612749e-07  1.57461720e-07  5.50000000e-01 
 5.60000000e-01  3.37890262e-09  3.20059240e-09  3.30973297e-09  3.40028758e-09  4.56743512e-01  4.56743512e-01  4.56743512e-01  1.54612769e-07  1.57461667e-07  5.60000000e-01 
 5.70000000e-01  3.37890255e-09  3.20059240e-09  3.30973296e-09  3.40028758e-09  4.56743513e-01  4.56743513e-01  4.56743513e-01  1.54612760e-07  1.57461667e-07  5.70000000e-01 
 5.80000000e-01  3.37890257e-09  3.20059240e-09  3.30973296e-09  3.40028758e-09  4.56743509e-01  4.56743509e-01  4.56743509e-01  1.54612763e-07  1.57461528e-07  5.80000000e-01 
 5.90000000e-01  3.37890256e-09  3.20059240e-09  3.30973302e-09  3.40028758e-09  4.56743516e-01  4.56743516e-01  4.56743516e-01  1.54612774e-07  1.57461422e-07  5.90000000e-01 
 6.00000000e-01  3.37890261e-09  3.20059240e-09  3.30973295e-09  3.40028752e-09  4.56743492e-01  4.56743493e-01  4.56743492e-01  1.54612720e-07  1.57461152e-07  6.00000000e-01 
 6.10000000e-01  3.37890255e-09  3.20059240e-09  3.30973297e-09  3.40028758e-09  4.56743494e-01  4.56743494e-01  4.56743494e-01  1.54612727e-07  1.57461095e-07  6.10000000e-01 
 6.20000000e-01  3.37890256e-09  3.20059240e-09  3.30973296e-09  3.40028758e-09  4.56743480e-01  4.56743480e-01  4.56743480e-01  1.54612719e-07  1.57460931e-07  6.20000000e-01 
 6.30000000e-01  3.37890255e-09  3.20059240e-09  3.30973296e-09  3.40028758e-09  4.56743479e-01  4.56743479e-01  4.56743479e-01  1.54612710e-07  1.57460768e-07  6.30000000e-01 
 6.40000000e-01  3.37890262e-09  3.20059240e-09  3.30973302e-09  3.40028758e-09  4.56743504e-01  4.56743504e-01  4.56743504e-01  1.54612740e-07  1.57460825e-07  6.40000000e-01 
 6.50000000e-01  3.37890260e-09  3.20059240e-09  3.30973295e-09  3.40028758e-09  4.56743509e-01  4.56743509e-01  4.56743509e-01  1.54612754e-07  1.57460690e-07  6.50000000e-01 
 6.60000000e-01  3.37890261e-09  3.20059240e-09  3.30973297e-09  3.40028758e-09  4.56743490e-01  4.56743490e-01  4.56743490e-01  1.54612725e-07  1.57460612e-07  6.60000000e-01 
 6.70000000e-01  3.37890261e-09  3.20059240e-09  3.30973296e-09  3.40028758e-09  4.56743503e-01  4.56743503e-01  4.56743503e-01  1.54612742e-07  1.57460505e-07  6.70000000e-01 
 6.80000000e-01  3.37890255e-09  3.20059240e-09  3.30973302e-09  3.40028758e-09  4.56743502e-01  4.56743502e-01  4.56743502e-01  1.54612758e-07  1.57460363e-07  6.80000000e-01 
 6.90000000e-01  3.37890257e-09  3.20059240e-09  3.30973301e-09  3.40028758e-09  4.56743512e-01  4.56743512e-01  4.56743512e-01  1.54612746e-07  1.57460313e-07  6.90000000e-01 
 7.00000000e-01  3.37890256e-09  3.20059240e-09  3.30973301e-09  3.40028758e-09  4.56743498e-01  4.56743498e-01  4.56743498e-01  1.54612752e-07  1.57460086e-07  7.00000000e-01 
 7.10000000e-01  3.37890261e-09  3.20059240e-09  3.30973295e-09  3.40028752e-09  4.56743490e-01  4.56743490e-01  4.56743490e-01  1.54612722e-07  1.57459993e-07  7.10000000e-01 
 7.20000000e-01  3.37890255e-09  3.20059240e-09  3.30973297e-09  3.40028758e-09  4.56743504e-01  4.56743504e-01  4.56743504e-01  1.54612738e-07  1.57459851e-07  7.20000000e-01 
 7.30000000e-01  3.37890257e-09  3.20059240e-09  3.30973302e-09  3.40028758e-09  4.56743513e-01  4.56743513e-01  4.56743513e-01  1.54612756e-07  1.57459880e-07  7.30000000e-01 
 7.40000000e-01  3.37890256e-09  3.20059240e-09  3.30973301e-09  3.40028758e-09  4.56743518e-01  4.56743519e-01  4.56743518e-01  1.54612758e-07  1.57459745e-07  7.40000000e-01 
 7.50000000e-01  3.37890256e-09  3.20059240e-09  3.30973296e-09  3.40028758e-09  4.56743521e-01  4.56743522e-01  4.56743521e-01  1.54612782e-07  1.57459553e-07  7.50000000e-01 
 7.60000000e-01  3.37890256e-09  3.20059240e-09  3.30973296e-09  3.40028752e-09  4.56743482e-01  4.56743482e-01  4.56743482e-01  1.54612709e-07  1.57459446e-07  7.60000000e-01 
 7.70000000e-01  3.37890256e-09  3.20059234e-09  3.30973296e-09  3.40028758e-09  4.56743522e-01  4.56743522e-01  4.56743522e-01  1.54612777e-07  1.57459453e-07  7.70000000e-01 
 7.80000000e-01  3.37890256e-09  3.20059240e-09  3.30973296e-09  3.40028758e-09  4.56743498e-01  4.56743498e-01  4.56743498e-01  1.54612739e-07  1.57459212e-07  7.80000000e-01 
 7.90000000e-01  3.37890256e-09  3.20059240e-09  3.30973296e-09  3.40028758e-09  4.56743518e-01  4.56743518e-01  4.56743518e-01  1.54612765e-07  1.57459141e-07  7.90000000e-01 
 8.00000000e-01  3.37890262e-09  3.20059240e-09  3.30973296e-09  3.40028758e-09  4.56743513e-01  4.56743513e-01  4.56743513e-01  1.54612753e-07  1.57459056e-07  8.00000000e-01 
 8.10000000e-01  3.37890255e-09  3.20059240e-09  3.30973302e-09  3.40028758e-09  4.56743493e-01  4.56743493e-01  4.56743493e-01  1.54612732e-07  1.57458928e-07  8.10000000e-01 
 8.20000000e-01  3.37890262e-09  3.20059240e-09  3.30973300e-09  3.40028758e-09  4.56743492e-01  4.56743492e-01  4.56743492e-01  1.54612730e-07  1.57458601e-07  8.20000000e-01 
 8.30000000e-01  3.37890260e-09  3.20059240e-09  3.30973295e-09  3.40028752e-09  4.56743499e-01  4.56743499e-01  4.56743499e-01  1.54612734e-07  1.57458580e-07  8.30000000e-01 
 8.40000000e-01  3.37890261e-09  3.20059240e-09  3.30973297e-09  3.40028758e-09  4.56743504e-01  4.56743504e-01  4.56743504e-01  1.54612749e-07  1.57458587e-07  8.40000000e-01 
 8.50000000e-01  3.37890255e-09  3.20059240e-09  3.30973296e-09  3.40028758e-09  4.56743512e-01  4.56743512e-01  4.56743512e-01  1.54612746e-07  1.57458487e-07  8.50000000e-01 
 8.60000000e-01  3.37890257e-09  3.20059240e-09  3.30973302e-09  3.40028752e-09  4.56743504e-01  4.56743504e-01  4.56743504e-01  1.54612753e-07  1.57458317e-07  8.60000000e-01 
 8.70000000e-01  3.37890256e-09  3.20059234e-09  3.30973300e-09  3.40028758e-09  4.56743492e-01  4.56743492e-01  4.56743492e-01  1.54612723e-07  1.57458018e-07  8.70000000e-01 
 8.80000000e-01  3.37890256e-09  3.20059240e-09  3.30973295e-09  3.40028758e-09  4.56743488e-01  4.56743488e-01  4.56743488e-01  1.54612718e-07  1.57457855e-07  8.80000000e-01 
 8.90000000e-01  3.37890256e-09  3.20059240e-09  3.30973297e-09  3.40028758e-09  4.56743511e-01  4.56743511e-01  4.56743511e-01  1.54612754e-07  1.57458054e-07  8.90000000e-01 
 9.00000000e-01  3.37890256e-09  3.20059240e-09  3.30973296e-09  3.40028758e-09  4.56743495e-01  4.56743496e-01  4.56743495e-01  1.54612739e-07  1.57457791e-07  9.00000000e-01 
 9.10000000e-01  3.37890256e-09  3.20059240e-09  3.30973296e-09  3.40028758e-09  4.56743524e-01  4.56743524e-01  4.56743524e-01  1.54612777e-07  1.57457762e-07  9.10000000e-01 
 9.20000000e-01  3.37890256e-09  3.20059240e-09  3.30973296e-09  3.40028758e-09  4.56743496e-01  4.56743496e-01  4.56743496e-01  1.54612738e-07  1.57457528e-07  9.20000000e-01 
 9.30000000e-01  3.37890255e-09  3.20059240e-09  3.30973296e-09  3.40028758e-09  4.56743479e-01  4.56743479e-01  4.56743479e-01  1.54612720e-07  1.57457315e-07  9.30000000e-01 
 9.40000000e-01  3.37890256e-09  3.20059240e-09  3.30973296e-09  3.40028758e-09  4.56743524e-01  4.56743524e-01  4.56743524e-01  1.54612769e-07  1.57457471e-07  9.40000000e-01 
 9.50000000e-01  3.37890256e-09  3.20059240e-09  3.30973296e-09  3.40028758e-09  4.56743491e-01  4.56743491e-01  4.56743491e-01  1.54612731e-07  1.57457258e-07  9.50000000e-01 
 9.60000000e-01  3.37890261e-09  3.20059240e-09  3.30973296e-09  3.40028752e-09  4.56743488e-01  4.56743488e-01  4.56743488e-01  1.54612708e-07  1.57457002e-07  9.60000000e-01 
 9.70000000e-01  3.37890255e-09  3.20059240e-09  3.30973302e-09  3.40028758e-09  4.56743513e-01  4.56743513e-01  4.56743513e-01  1.54612777e-07  1.57457031e-07  9.70000000e-01 
 9.80000000e-01  3.37890257e-09  3.20059240e-09  3.30973301e-09  3.40028752e-09  4.56743507e-01  4.56743507e-01  4.56743507e-01  1.54612741e-07  1.57456839e-07  9.80000000e-01 
 9.90000000e-01  3.37890256e-09  3.20059240e-09  3.30973295e-09  3.40028758e-09  4.56743503e-01  4.56743503e-01  4.56743503e-01  1.54612755e-07  1.57456704e-07  9.90000000e-01 
 1.00000000e+00  3.37890256e-09  3.20059240e-09  3.30973297e-09  3.40028758e-09  4.56743509e-01  4.56743509e-01  4.56743509e-01  1.54612755e-07  1.57456569e-07  1.00000000e+00 
 1.01000000e+00  3.37890256e-09  3.20059240e-09  3.30973296e-09  3.40028758e-09  4.56743534e-01  4.56743534e-01  4.56743534e-01  1.54612797e-07  1.57456626e-07  1.01000000e+00 
 1.02000000e+00  3.37890256e-09  3.20059240e-09  3.30973302e-09  3.40028758e-09  4.56743499e-01  4.56743499e-01  4.56743499e-01  1.54612732e-07  1.57456306e-07  1.02000000e+00 
 1.03000000e+00  3.37890262e-09  3.20059234e-09  3.30973301e-09  3.40028758e-09  4.56743513e-01  4.56743513e-01  4.56743513e-01  1.54612776e-07  1.57456107e-07  1.03000000e+00 
 1.04000000e+00  3.37890255e-09  3.20059240e-09  3.30973301e-09  3.40028758e-09  4.56743509e-01  4.56743509e-01  4.56743509e-01  1.54612740e-07  1.57455979e-07  1.04000000e+00 
 1.05000000e+00  3.37890257e-09  3.20059240e-09  3.30973301e-09  3.40028758e-09  4.56743505e-01  4.56743505e-01  4.56743505e-01  1.54612746e-07  1.57455851e-07  1.05000000e+00 
 1.06000000e+00  3.37890262e-09  3.20059240e-09  3.30973295e-09  3.40028758e-09  4.56743505e-01  4.56743505e-01  4.56743505e-01  1.54612746e-07  1.57455766e-07  1.06000000e+00 
 1.07000000e+00  3.37890254e-09  3.20059240e-09  3.30973302e-09  3.40028758e-09  4.56743488e-01  4.56743488e-01  4.56743488e-01  1.54612726e-07  1.57455567e-07  1.07000000e+00 
 1.08000000e+00  3.37890262e-09  3.20059240e-09  3.30973295e-09  3.40028758e-09  4.56743499e-01  4.56743499e-01  4.56743499e-01  1.54612736e-07  1.57455460e-07  1.08000000e+00 
 1.09000000e+00  3.37890254e-09  3.20059240e-09  3.30973297e-09  3.40028758e-09  4.56743489e-01  4.56743489e-01  4.56743489e-01  1.54612715e-07  1.57455339e-07  1.09000000e+00 
 1.10000000e+00  3.37890256e-09  3.20059240e-09  3.30973302e-09  3.40028758e-09  4.56743494e-01  4.56743494e-01  4.56743494e-01  1.54612740e-07  1.57455133e-07  1.10000000e+00 
