 v-sweep         v(b0)           v(b1)           v(b2)           v(b3)           v(b4)           v(b5)           v(b6)           i(vbias)        i(viout)        v(vout)        
 0.00000000e+00  4.58399779e-01  3.11282870e-09  4.58399779e-01  3.27962984e-09  4.58399779e-01  4.58399779e-01  4.58399779e-01  1.60299272e-07  1.74715158e-07  0.00000000e+00 
 1.00000000e-02  4.58399791e-01  3.11282874e-09  4.58399791e-01  3.27962982e-09  4.58399791e-01  4.58399791e-01  4.58399791e-01  1.60299302e-07  1.74714733e-07  1.00000000e-02 
 2.00000000e-02  4.58399801e-01  3.11282867e-09  4.58399801e-01  3.27962982e-09  4.58399801e-01  4.58399801e-01  4.58399801e-01  1.60299311e-07  1.74714366e-07  2.00000000e-02 
 3.00000000e-02  4.58399788e-01  3.11282869e-09  4.58399788e-01  3.27962982e-09  4.58399788e-01  4.58399788e-01  4.58399788e-01  1.60299290e-07  1.74713884e-07  3.00000000e-02 
 4.00000000e-02  4.58399777e-01  3.11282874e-09  4.58399777e-01  3.27962982e-09  4.58399777e-01  4.58399777e-01  4.58399777e-01  1.60299285e-07  1.74713369e-07  4.00000000e-02 
 5.00000000e-02  4.58399789e-01  3.11282872e-09  4.58399788e-01  3.27962982e-09  4.58399789e-01  4.58399788e-01  4.58399788e-01  1.60299288e-07  1.74713093e-07  5.00000000e-02 
 6.00000000e-02  4.58399786e-01  3.11282869e-09  4.58399786e-01  3.27962982e-09  4.58399786e-01  4.58399786e-01  4.58399786e-01  1.60299283e-07  1.74712590e-07  6.00000000e-02 
 7.00000000e-02  4.58399805e-01  3.11282874e-09  4.58399805e-01  3.27962982e-09  4.58399805e-01  4.58399805e-01  4.58399805e-01  1.60299328e-07  1.74712325e-07  7.00000000e-02 
 8.00000000e-02  4.58399786e-01  3.11282872e-09  4.58399786e-01  3.27962982e-09  4.58399786e-01  4.58399786e-01  4.58399786e-01  1.60299302e-07  1.74711936e-07  8.00000000e-02 
 9.00000000e-02  4.58399794e-01  3.11282874e-09  4.58399794e-01  3.27962988e-09  4.58399794e-01  4.58399794e-01  4.58399794e-01  1.60299306e-07  1.74711564e-07  9.00000000e-02 
 1.00000000e-01  4.58399796e-01  3.11282872e-09  4.58399796e-01  3.27962988e-09  4.58399796e-01  4.58399796e-01  4.58399796e-01  1.60299287e-07  1.74711166e-07  1.00000000e-01 
 1.10000000e-01  4.58399783e-01  3.11282869e-09  4.58399783e-01  3.27962982e-09  4.58399783e-01  4.58399783e-01  4.58399783e-01  1.60299294e-07  1.74711028e-07  1.10000000e-01 
 1.20000000e-01  4.58399769e-01  3.11282868e-09  4.58399769e-01  3.27962982e-09  4.58399769e-01  4.58399769e-01  4.58399769e-01  1.60299254e-07  1.74710672e-07  1.20000000e-01 
 1.30000000e-01  4.58399780e-01  3.11282874e-09  4.58399779e-01  3.27962988e-09  4.58399780e-01  4.58399779e-01  4.58399779e-01  1.60299285e-07  1.74710404e-07  1.30000000e-01 
 1.40000000e-01  4.58399790e-01  3.11282867e-09  4.58399790e-01  3.27962982e-09  4.58399790e-01  4.58399790e-01  4.58399790e-01  1.60299302e-07  1.74710070e-07  1.40000000e-01 
 1.50000000e-01  4.58399804e-01  3.11282869e-09  4.58399804e-01  3.27962982e-09  4.58399804e-01  4.58399804e-01  4.58399804e-01  1.60299316e-07  1.74709802e-07  1.50000000e-01 
 1.60000000e-01  4.58399797e-01  3.11282868e-09  4.58399796e-01  3.27962988e-09  4.58399797e-01  4.58399797e-01  4.58399796e-01  1.60299301e-07  1.74709664e-07  1.60000000e-01 
 1.70000000e-01  4.58399790e-01  3.11282868e-09  4.58399790e-01  3.27962982e-09  4.58399790e-01  4.58399790e-01  4.58399790e-01  1.60299298e-07  1.74709164e-07  1.70000000e-01 
 1.80000000e-01  4.58399784e-01  3.11282868e-09  4.58399784e-01  3.27962982e-09  4.58399784e-01  4.58399784e-01  4.58399784e-01  1.60299299e-07  1.74709081e-07  1.80000000e-01 
 1.90000000e-01  4.58399789e-01  3.11282874e-09  4.58399788e-01  3.27962988e-09  4.58399789e-01  4.58399788e-01  4.58399788e-01  1.60299298e-07  1.74708916e-07  1.90000000e-01 
 2.00000000e-01  4.58399765e-01  3.11282867e-09  4.58399765e-01  3.27962982e-09  4.58399765e-01  4.58399765e-01  4.58399765e-01  1.60299252e-07  1.74708621e-07  2.00000000e-01 
 2.10000000e-01  4.58399797e-01  3.11282874e-09  4.58399797e-01  3.27962982e-09  4.58399797e-01  4.58399797e-01  4.58399797e-01  1.60299316e-07  1.74708473e-07  2.10000000e-01 
 2.20000000e-01  4.58399786e-01  3.11282867e-09  4.58399786e-01  3.27962982e-09  4.58399786e-01  4.58399786e-01  4.58399786e-01  1.60299297e-07  1.74708209e-07  2.20000000e-01 
 2.30000000e-01  4.58399789e-01  3.11282874e-09  4.58399789e-01  3.27962982e-09  4.58399789e-01  4.58399789e-01  4.58399789e-01  1.60299302e-07  1.74708113e-07  2.30000000e-01 
 2.40000000e-01  4.58399787e-01  3.11282872e-09  4.58399787e-01  3.27962988e-09  4.58399787e-01  4.58399787e-01  4.58399787e-01  1.60299288e-07  1.74707935e-07  2.40000000e-01 
 2.50000000e-01  4.58399786e-01  3.11282874e-09  4.58399785e-01  3.27962982e-09  4.58399786e-01  4.58399785e-01  4.58399785e-01  1.60299293e-07  1.74707655e-07  2.50000000e-01 
 2.60000000e-01  4.58399779e-01  3.11282867e-09  4.58399779e-01  3.27962982e-09  4.58399779e-01  4.58399779e-01  4.58399779e-01  1.60299280e-07  1.74707422e-07  2.60000000e-01 
 2.70000000e-01  4.58399778e-01  3.11282869e-09  4.58399778e-01  3.27962988e-09  4.58399778e-01  4.58399778e-01  4.58399778e-01  1.60299284e-07  1.74707074e-07  2.70000000e-01 
 2.80000000e-01  4.58399770e-01  3.11282868e-09  4.58399770e-01  3.27962982e-09  4.58399770e-01  4.58399770e-01  4.58399770e-01  1.60299278e-07  1.74706981e-07  2.80000000e-01 
 2.90000000e-01  4.58399792e-01  3.11282874e-09  4.58399791e-01  3.27962982e-09  4.58399792e-01  4.58399792e-01  4.58399792e-01  1.60299294e-07  1.74706901e-07  2.90000000e-01 
 3.00000000e-01  4.58399798e-01  3.11282872e-09  4.58399798e-01  3.27962982e-09  4.58399798e-01  4.58399798e-01  4.58399798e-01  1.60299294e-07  1.74706674e-07  3.00000000e-01 
 3.10000000e-01  4.58399810e-01  3.11282869e-09  4.58399810e-01  3.27962988e-09  4.58399810e-01  4.58399810e-01  4.58399810e-01  1.60299324e-07  1.74706599e-07  3.10000000e-01 
 3.20000000e-01  4.58399777e-01  3.11282868e-09  4.58399777e-01  3.27962982e-09  4.58399777e-01  4.58399777e-01  4.58399777e-01  1.60299265e-07  1.74706251e-07  3.20000000e-01 
 3.30000000e-01  4.58399769e-01  3.11282868e-09  4.58399769e-01  3.27962982e-09  4.58399769e-01  4.58399769e-01  4.58399769e-01  1.60299266e-07  1.74706145e-07  3.30000000e-01 
 3.40000000e-01  4.58399775e-01  3.11282868e-09  4.58399775e-01  3.27962987e-09  4.58399775e-01  4.58399775e-01  4.58399775e-01  1.60299269e-07  1.74706017e-07  3.40000000e-01 
 3.50000000e-01  4.58399800e-01  3.11282874e-09  4.58399800e-01  3.27962982e-09  4.58399800e-01  4.58399800e-01  4.58399800e-01  1.60299322e-07  1.74705974e-07  3.50000000e-01 
 3.60000000e-01  4.58399783e-01  3.11282872e-09  4.58399783e-01  3.27962988e-09  4.58399783e-01  4.58399783e-01  4.58399783e-01  1.60299283e-07  1.74705661e-07  3.60000000e-01 
 3.70000000e-01  4.58399805e-01  3.11282874e-09  4.58399805e-01  3.27962982e-09  4.58399805e-01  4.58399805e-01  4.58399805e-01  1.60299315e-07  1.74705697e-07  3.70000000e-01 
 3.80000000e-01  4.58399784e-01  3.11282867e-09  4.58399784e-01  3.27962982e-09  4.58399784e-01  4.58399784e-01  4.58399784e-01  1.60299280e-07  1.74705356e-07  3.80000000e-01 
 3.90000000e-01  4.58399785e-01  3.11282869e-09  4.58399784e-01  3.27962982e-09  4.58399785e-01  4.58399785e-01  4.58399784e-01  1.60299292e-07  1.74705242e-07  3.90000000e-01 
 4.00000000e-01  4.58399783e-01  3.11282868e-09  4.58399782e-01  3.27962988e-09  4.58399783e-01  4.58399783e-01  4.58399783e-01  1.60299285e-07  1.74705061e-07  4.00000000e-01 
 4.10000000e-01  4.58399776e-01  3.11282868e-09  4.58399776e-01  3.27962982e-09  4.58399776e-01  4.58399776e-01  4.58399776e-01  1.60299272e-07  1.74704898e-07  4.10000000e-01 
 4.20000000e-01  4.58399797e-01  3.11282874e-09  4.58399797e-01  3.27962982e-09  4.58399797e-01  4.58399797e-01  4.58399797e-01  1.60299304e-07  1.74704859e-07  4.20000000e-01 
 4.30000000e-01  4.58399788e-01  3.11282867e-09  4.58399788e-01  3.27962982e-09  4.58399788e-01  4.58399788e-01  4.58399788e-01  1.60299290e-07  1.74704795e-07  4.30000000e-01 
 4.40000000e-01  4.58399780e-01  3.11282869e-09  4.58399780e-01  3.27962982e-09  4.58399780e-01  4.58399780e-01  4.58399780e-01  1.60299285e-07  1.74704518e-07  4.40000000e-01 
 4.50000000e-01  4.58399803e-01  3.11282868e-09  4.58399803e-01  3.27962982e-09  4.58399803e-01  4.58399803e-01  4.58399803e-01  1.60299327e-07  1.74704621e-07  4.50000000e-01 
 4.60000000e-01  4.58399789e-01  3.11282874e-09  4.58399789e-01  3.27962982e-09  4.58399789e-01  4.58399789e-01  4.58399789e-01  1.60299302e-07  1.74704379e-07  4.60000000e-01 
 4.70000000e-01  4.58399805e-01  3.11282867e-09  4.58399805e-01  3.27962982e-09  4.58399805e-01  4.58399805e-01  4.58399805e-01  1.60299315e-07  1.74704230e-07  4.70000000e-01 
 4.80000000e-01  4.58399781e-01  3.11282869e-09  4.58399781e-01  3.27962982e-09  4.58399781e-01  4.58399781e-01  4.58399781e-01  1.60299281e-07  1.74704002e-07  4.80000000e-01 
 4.90000000e-01  4.58399817e-01  3.11282868e-09  4.58399817e-01  3.27962982e-09  4.58399817e-01  4.58399817e-01  4.58399817e-01  1.60299327e-07  1.74704002e-07  4.90000000e-01 
 5.00000000e-01  4.58399792e-01  3.11282868e-09  4.58399792e-01  3.27962988e-09  4.58399792e-01  4.58399792e-01  4.58399792e-01  1.60299313e-07  1.74703654e-07  5.00000000e-01 
 5.10000000e-01  4.58399771e-01  3.11282868e-09  4.58399771e-01  3.27962982e-09  4.58399771e-01  4.58399771e-01  4.58399771e-01  1.60299259e-07  1.74703519e-07  5.10000000e-01 
 5.20000000e-01  4.58399772e-01  3.11282868e-09  4.58399772e-01  3.27962982e-09  4.58399772e-01  4.58399772e-01  4.58399772e-01  1.60299271e-07  1.74703523e-07  5.20000000e-01 
 5.30000000e-01  4.58399793e-01  3.11282874e-09  4.58399792e-01  3.27962988e-09  4.58399793e-01  4.58399793e-01  4.58399792e-01  1.60299316e-07  1.74703310e-07  5.30000000e-01 
 5.40000000e-01  4.58399797e-01  3.11282867e-09  4.58399797e-01  3.27962982e-09  4.58399797e-01  4.58399797e-01  4.58399797e-01  1.60299305e-07  1.74703260e-07  5.40000000e-01 
 5.50000000e-01  4.58399796e-01  3.11282869e-09  4.58399796e-01  3.27962982e-09  4.58399796e-01  4.58399796e-01  4.58399796e-01  1.60299303e-07  1.74703192e-07  5.50000000e-01 
 5.60000000e-01  4.58399797e-01  3.11282868e-09  4.58399796e-01  3.27962982e-09  4.58399797e-01  4.58399797e-01  4.58399796e-01  1.60299303e-07  1.74703082e-07  5.60000000e-01 
 5.70000000e-01  4.58399779e-01  3.11282868e-09  4.58399779e-01  3.27962988e-09  4.58399779e-01  4.58399779e-01  4.58399779e-01  1.60299267e-07  1.74702777e-07  5.70000000e-01 
 5.80000000e-01  4.58399761e-01  3.11282874e-09  4.58399761e-01  3.27962982e-09  4.58399761e-01  4.58399761e-01  4.58399761e-01  1.60299259e-07  1.74702443e-07  5.80000000e-01 
 5.90000000e-01  4.58399774e-01  3.11282872e-09  4.58399774e-01  3.27962982e-09  4.58399774e-01  4.58399774e-01  4.58399774e-01  1.60299268e-07  1.74702443e-07  5.90000000e-01 
 6.00000000e-01  4.58399772e-01  3.11282868e-09  4.58399772e-01  3.27962982e-09  4.58399772e-01  4.58399772e-01  4.58399772e-01  1.60299275e-07  1.74702443e-07  6.00000000e-01 
 6.10000000e-01  4.58399761e-01  3.11282868e-09  4.58399761e-01  3.27962982e-09  4.58399761e-01  4.58399761e-01  4.58399761e-01  1.60299250e-07  1.74702102e-07  6.10000000e-01 
 6.20000000e-01  4.58399773e-01  3.11282868e-09  4.58399773e-01  3.27962982e-09  4.58399773e-01  4.58399773e-01  4.58399773e-01  1.60299277e-07  1.74702095e-07  6.20000000e-01 
 6.30000000e-01  4.58399787e-01  3.11282874e-09  4.58399787e-01  3.27962982e-09  4.58399787e-01  4.58399787e-01  4.58399787e-01  1.60299297e-07  1.74702087e-07  6.30000000e-01 
 6.40000000e-01  4.58399785e-01  3.11282867e-09  4.58399784e-01  3.27962988e-09  4.58399785e-01  4.58399784e-01  4.58399784e-01  1.60299296e-07  1.74701796e-07  6.40000000e-01 
 6.50000000e-01  4.58399782e-01  3.11282874e-09  4.58399782e-01  3.27962982e-09  4.58399782e-01  4.58399782e-01  4.58399782e-01  1.60299290e-07  1.74701782e-07  6.50000000e-01 
 6.60000000e-01  4.58399763e-01  3.11282872e-09  4.58399763e-01  3.27962982e-09  4.58399763e-01  4.58399763e-01  4.58399763e-01  1.60299264e-07  1.74701505e-07  6.60000000e-01 
 6.70000000e-01  4.58399803e-01  3.11282869e-09  4.58399802e-01  3.27962982e-09  4.58399803e-01  4.58399803e-01  4.58399802e-01  1.60299312e-07  1.74701540e-07  6.70000000e-01 
 6.80000000e-01  4.58399803e-01  3.11282874e-09  4.58399803e-01  3.27962982e-09  4.58399803e-01  4.58399803e-01  4.58399803e-01  1.60299325e-07  1.74701341e-07  6.80000000e-01 
 6.90000000e-01  4.58399797e-01  3.11282867e-09  4.58399797e-01  3.27962988e-09  4.58399797e-01  4.58399797e-01  4.58399797e-01  1.60299306e-07  1.74701221e-07  6.90000000e-01 
 7.00000000e-01  4.58399784e-01  3.11282869e-09  4.58399783e-01  3.27962982e-09  4.58399784e-01  4.58399784e-01  4.58399784e-01  1.60299294e-07  1.74701064e-07  7.00000000e-01 
 7.10000000e-01  4.58399773e-01  3.11282868e-09  4.58399772e-01  3.27962982e-09  4.58399773e-01  4.58399773e-01  4.58399772e-01  1.60299268e-07  1.74700901e-07  7.10000000e-01 
 7.20000000e-01  4.58399791e-01  3.11282868e-09  4.58399791e-01  3.27962982e-09  4.58399791e-01  4.58399791e-01  4.58399791e-01  1.60299292e-07  1.74700766e-07  7.20000000e-01 
 7.30000000e-01  4.58399799e-01  3.11282874e-09  4.58399799e-01  3.27962982e-09  4.58399799e-01  4.58399799e-01  4.58399799e-01  1.60299308e-07  1.74700638e-07  7.30000000e-01 
 7.40000000e-01  4.58399802e-01  3.11282873e-09  4.58399802e-01  3.27962982e-09  4.58399802e-01  4.58399802e-01  4.58399802e-01  1.60299315e-07  1.74700595e-07  7.40000000e-01 
 7.50000000e-01  4.58399802e-01  3.11282869e-09  4.58399801e-01  3.27962988e-09  4.58399802e-01  4.58399802e-01  4.58399801e-01  1.60299308e-07  1.74700432e-07  7.50000000e-01 
 7.60000000e-01  4.58399789e-01  3.11282874e-09  4.58399789e-01  3.27962982e-09  4.58399789e-01  4.58399789e-01  4.58399789e-01  1.60299289e-07  1.74700226e-07  7.60000000e-01 
 7.70000000e-01  4.58399787e-01  3.11282867e-09  4.58399786e-01  3.27962982e-09  4.58399787e-01  4.58399787e-01  4.58399787e-01  1.60299293e-07  1.74700020e-07  7.70000000e-01 
 7.80000000e-01  4.58399788e-01  3.11282869e-09  4.58399788e-01  3.27962982e-09  4.58399788e-01  4.58399788e-01  4.58399788e-01  1.60299299e-07  1.74699885e-07  7.80000000e-01 
 7.90000000e-01  4.58399790e-01  3.11282874e-09  4.58399790e-01  3.27962982e-09  4.58399790e-01  4.58399790e-01  4.58399790e-01  1.60299288e-07  1.74699899e-07  7.90000000e-01 
 8.00000000e-01  4.58399799e-01  3.11282867e-09  4.58399799e-01  3.27962982e-09  4.58399799e-01  4.58399799e-01  4.58399799e-01  1.60299312e-07  1.74699707e-07  8.00000000e-01 
 8.10000000e-01  4.58399805e-01  3.11282869e-09  4.58399805e-01  3.27962982e-09  4.58399805e-01  4.58399805e-01  4.58399805e-01  1.60299321e-07  1.74699515e-07  8.10000000e-01 
 8.20000000e-01  4.58399793e-01  3.11282874e-09  4.58399793e-01  3.27962982e-09  4.58399793e-01  4.58399793e-01  4.58399793e-01  1.60299294e-07  1.74699395e-07  8.20000000e-01 
 8.30000000e-01  4.58399785e-01  3.11282872e-09  4.58399785e-01  3.27962982e-09  4.58399785e-01  4.58399785e-01  4.58399785e-01  1.60299285e-07  1.74699267e-07  8.30000000e-01 
 8.40000000e-01  4.58399799e-01  3.11282869e-09  4.58399799e-01  3.27962982e-09  4.58399799e-01  4.58399799e-01  4.58399799e-01  1.60299321e-07  1.74699210e-07  8.40000000e-01 
 8.50000000e-01  4.58399818e-01  3.11282868e-09  4.58399818e-01  3.27962982e-09  4.58399818e-01  4.58399818e-01  4.58399818e-01  1.60299342e-07  1.74699025e-07  8.50000000e-01 
 8.60000000e-01  4.58399804e-01  3.11282874e-09  4.58399804e-01  3.27962982e-09  4.58399804e-01  4.58399804e-01  4.58399804e-01  1.60299315e-07  1.74698890e-07  8.60000000e-01 
 8.70000000e-01  4.58399768e-01  3.11282872e-09  4.58399767e-01  3.27962982e-09  4.58399768e-01  4.58399768e-01  4.58399767e-01  1.60299257e-07  1.74698577e-07  8.70000000e-01 
 8.80000000e-01  4.58399782e-01  3.11282869e-09  4.58399782e-01  3.27962982e-09  4.58399782e-01  4.58399782e-01  4.58399782e-01  1.60299272e-07  1.74698528e-07  8.80000000e-01 
 8.90000000e-01  4.58399786e-01  3.11282874e-09  4.58399786e-01  3.27962982e-09  4.58399786e-01  4.58399786e-01  4.58399786e-01  1.60299303e-07  1.74698322e-07  8.90000000e-01 
 9.00000000e-01  4.58399797e-01  3.11282867e-09  4.58399797e-01  3.27962982e-09  4.58399797e-01  4.58399797e-01  4.58399797e-01  1.60299306e-07  1.74698279e-07  9.00000000e-01 
 9.10000000e-01  4.58399768e-01  3.11282868e-09  4.58399768e-01  3.27962982e-09  4.58399768e-01  4.58399768e-01  4.58399768e-01  1.60299266e-07  1.74698087e-07  9.10000000e-01 
 9.20000000e-01  4.58399809e-01  3.11282874e-09  4.58399809e-01  3.27962982e-09  4.58399809e-01  4.58399809e-01  4.58399809e-01  1.60299318e-07  1.74697938e-07  9.20000000e-01 
 9.30000000e-01  4.58399822e-01  3.11282867e-09  4.58399822e-01  3.27962988e-09  4.58399822e-01  4.58399822e-01  4.58399822e-01  1.60299348e-07  1.74697966e-07  9.30000000e-01 
 9.40000000e-01  4.58399801e-01  3.11282869e-09  4.58399801e-01  3.27962988e-09  4.58399801e-01  4.58399801e-01  4.58399801e-01  1.60299314e-07  1.74697753e-07  9.40000000e-01 
 9.50000000e-01  4.58399766e-01  3.11282874e-09  4.58399766e-01  3.27962982e-09  4.58399766e-01  4.58399766e-01  4.58399766e-01  1.60299269e-07  1.74697334e-07  9.50000000e-01 
 9.60000000e-01  4.58399812e-01  3.11282867e-09  4.58399812e-01  3.27962982e-09  4.58399812e-01  4.58399812e-01  4.58399812e-01  1.60299334e-07  1.74697412e-07  9.60000000e-01 
 9.70000000e-01  4.58399792e-01  3.11282869e-09  4.58399792e-01  3.27962988e-09  4.58399792e-01  4.58399792e-01  4.58399792e-01  1.60299299e-07  1.74697163e-07  9.70000000e-01 
 9.80000000e-01  4.58399783e-01  3.11282874e-09  4.58399783e-01  3.27962982e-09  4.58399783e-01  4.58399783e-01  4.58399783e-01  1.60299300e-07  1.74696901e-07  9.80000000e-01 
 9.90000000e-01  4.58399789e-01  3.11282872e-09  4.58399789e-01  3.27962982e-09  4.58399789e-01  4.58399789e-01  4.58399789e-01  1.60299291e-07  1.74696787e-07  9.90000000e-01 
 1.00000000e+00  4.58399766e-01  3.11282868e-09  4.58399766e-01  3.27962982e-09  4.58399766e-01  4.58399766e-01  4.58399766e-01  1.60299261e-07  1.74696488e-07  1.00000000e+00 
 1.01000000e+00  4.58399784e-01  3.11282874e-09  4.58399784e-01  3.27962982e-09  4.58399784e-01  4.58399784e-01  4.58399784e-01  1.60299290e-07  1.74696481e-07  1.01000000e+00 
 1.02000000e+00  4.58399802e-01  3.11282873e-09  4.58399802e-01  3.27962982e-09  4.58399802e-01  4.58399802e-01  4.58399802e-01  1.60299331e-07  1.74696325e-07  1.02000000e+00 
 1.03000000e+00  4.58399785e-01  3.11282869e-09  4.58399785e-01  3.27962982e-09  4.58399785e-01  4.58399785e-01  4.58399785e-01  1.60299297e-07  1.74696119e-07  1.03000000e+00 
 1.04000000e+00  4.58399806e-01  3.11282868e-09  4.58399806e-01  3.27962982e-09  4.58399806e-01  4.58399806e-01  4.58399806e-01  1.60299311e-07  1.74695955e-07  1.04000000e+00 
 1.05000000e+00  4.58399787e-01  3.11282868e-09  4.58399786e-01  3.27962982e-09  4.58399787e-01  4.58399787e-01  4.58399786e-01  1.60299286e-07  1.74695813e-07  1.05000000e+00 
 1.06000000e+00  4.58399766e-01  3.11282874e-09  4.58399765e-01  3.27962982e-09  4.58399766e-01  4.58399766e-01  4.58399765e-01  1.60299261e-07  1.74695607e-07  1.06000000e+00 
 1.07000000e+00  4.58399799e-01  3.11282873e-09  4.58399799e-01  3.27962982e-09  4.58399799e-01  4.58399799e-01  4.58399799e-01  1.60299320e-07  1.74695508e-07  1.07000000e+00 
 1.08000000e+00  4.58399797e-01  3.11282869e-09  4.58399797e-01  3.27962982e-09  4.58399797e-01  4.58399797e-01  4.58399797e-01  1.60299320e-07  1.74695330e-07  1.08000000e+00 
 1.09000000e+00  4.58399809e-01  3.11282874e-09  4.58399809e-01  3.27962982e-09  4.58399809e-01  4.58399809e-01  4.58399809e-01  1.60299328e-07  1.74695117e-07  1.09000000e+00 
 1.10000000e+00  4.58399804e-01  3.11282873e-09  4.58399803e-01  3.27962982e-09  4.58399804e-01  4.58399804e-01  4.58399804e-01  1.60299328e-07  1.74694918e-07  1.10000000e+00 
