 v-sweep         v(b0)           v(b1)           v(b2)           v(b3)           v(b4)           v(b5)           v(b6)           i(vbias)        i(viout)        v(vout)        
 0.00000000e+00  4.58977248e-01  3.40023757e-09  3.53022007e-09  3.47779917e-09  3.15754699e-09  3.29972206e-09  4.58977248e-01  1.59672268e-07  9.94734898e-08  0.00000000e+00 
 1.00000000e-02  4.58977207e-01  3.40023754e-09  3.53022004e-09  3.47779921e-09  3.15754702e-09  3.29972203e-09  4.58977207e-01  1.59672217e-07  9.94729502e-08  1.00000000e-02 
 2.00000000e-02  4.58977203e-01  3.40023754e-09  3.53022004e-09  3.47779921e-09  3.15754696e-09  3.29972208e-09  4.58977203e-01  1.59672195e-07  9.94726661e-08  2.00000000e-02 
 3.00000000e-02  4.58977202e-01  3.40023754e-09  3.53022010e-09  3.47779915e-09  3.15754696e-09  3.29972203e-09  4.58977202e-01  1.59672206e-07  9.94721818e-08  3.00000000e-02 
 4.00000000e-02  4.58977196e-01  3.40023753e-09  3.53022010e-09  3.47779915e-09  3.15754702e-09  3.29972203e-09  4.58977196e-01  1.59672184e-07  9.94717824e-08  4.00000000e-02 
 5.00000000e-02  4.58977201e-01  3.40023754e-09  3.53022004e-09  3.47779921e-09  3.15754702e-09  3.29972208e-09  4.58977201e-01  1.59672191e-07  9.94714360e-08  5.00000000e-02 
 6.00000000e-02  4.58977199e-01  3.40023759e-09  3.53022004e-09  3.47779921e-09  3.15754702e-09  3.29972203e-09  4.58977199e-01  1.59672192e-07  9.94710789e-08  6.00000000e-02 
 7.00000000e-02  4.58977212e-01  3.40023754e-09  3.53022004e-09  3.47779921e-09  3.15754702e-09  3.29972203e-09  4.58977212e-01  1.59672214e-07  9.94707383e-08  7.00000000e-02 
 8.00000000e-02  4.58977209e-01  3.40023759e-09  3.53022004e-09  3.47779921e-09  3.15754702e-09  3.29972203e-09  4.58977209e-01  1.59672216e-07  9.94704843e-08  8.00000000e-02 
 9.00000000e-02  4.58977204e-01  3.40023759e-09  3.53022010e-09  3.47779921e-09  3.15754702e-09  3.29972208e-09  4.58977204e-01  1.59672201e-07  9.94703004e-08  9.00000000e-02 
 1.00000000e-01  4.58977189e-01  3.40023753e-09  3.53022004e-09  3.47779915e-09  3.15754702e-09  3.29972203e-09  4.58977189e-01  1.59672185e-07  9.94699079e-08  1.00000000e-01 
 1.10000000e-01  4.58977215e-01  3.40023754e-09  3.53022004e-09  3.47779921e-09  3.15754702e-09  3.29972209e-09  4.58977215e-01  1.59672230e-07  9.94697933e-08  1.10000000e-01 
 1.20000000e-01  4.58977185e-01  3.40023753e-09  3.53022004e-09  3.47779920e-09  3.15754702e-09  3.29972208e-09  4.58977185e-01  1.59672175e-07  9.94693687e-08  1.20000000e-01 
 1.30000000e-01  4.58977205e-01  3.40023754e-09  3.53022004e-09  3.47779921e-09  3.15754702e-09  3.29972208e-09  4.58977205e-01  1.59672200e-07  9.94691334e-08  1.30000000e-01 
 1.40000000e-01  4.58977199e-01  3.40023753e-09  3.53022004e-09  3.47779915e-09  3.15754702e-09  3.29972203e-09  4.58977199e-01  1.59672196e-07  9.94689673e-08  1.40000000e-01 
 1.50000000e-01  4.58977222e-01  3.40023759e-09  3.53022004e-09  3.47779921e-09  3.15754702e-09  3.29972209e-09  4.58977222e-01  1.59672227e-07  9.94687746e-08  1.50000000e-01 
 1.60000000e-01  4.58977209e-01  3.40023754e-09  3.53022010e-09  3.47779921e-09  3.15754702e-09  3.29972203e-09  4.58977209e-01  1.59672208e-07  9.94685863e-08  1.60000000e-01 
 1.70000000e-01  4.58977214e-01  3.40023754e-09  3.53022004e-09  3.47779921e-09  3.15754696e-09  3.29972203e-09  4.58977214e-01  1.59672224e-07  9.94684157e-08  1.70000000e-01 
 1.80000000e-01  4.58977209e-01  3.40023754e-09  3.53022004e-09  3.47779915e-09  3.15754702e-09  3.29972203e-09  4.58977209e-01  1.59672202e-07  9.94682043e-08  1.80000000e-01 
 1.90000000e-01  4.58977215e-01  3.40023754e-09  3.53022004e-09  3.47779921e-09  3.15754702e-09  3.29972203e-09  4.58977215e-01  1.59672239e-07  9.94680409e-08  1.90000000e-01 
 2.00000000e-01  4.58977187e-01  3.40023753e-09  3.53022004e-09  3.47779920e-09  3.15754702e-09  3.29972208e-09  4.58977187e-01  1.59672176e-07  9.94677727e-08  2.00000000e-01 
 2.10000000e-01  4.58977198e-01  3.40023753e-09  3.53022004e-09  3.47779915e-09  3.15754696e-09  3.29972203e-09  4.58977198e-01  1.59672201e-07  9.94676022e-08  2.10000000e-01 
 2.20000000e-01  4.58977207e-01  3.40023759e-09  3.53022004e-09  3.47779915e-09  3.15754696e-09  3.29972208e-09  4.58977208e-01  1.59672209e-07  9.94674725e-08  2.20000000e-01 
 2.30000000e-01  4.58977197e-01  3.40023753e-09  3.53022004e-09  3.47779915e-09  3.15754702e-09  3.29972203e-09  4.58977197e-01  1.59672195e-07  9.94672842e-08  2.30000000e-01 
 2.40000000e-01  4.58977201e-01  3.40023759e-09  3.53022010e-09  3.47779921e-09  3.15754702e-09  3.29972203e-09  4.58977201e-01  1.59672206e-07  9.94672114e-08  2.40000000e-01 
 2.50000000e-01  4.58977188e-01  3.40023759e-09  3.53022004e-09  3.47779915e-09  3.15754696e-09  3.29972203e-09  4.58977188e-01  1.59672182e-07  9.94670479e-08  2.50000000e-01 
 2.60000000e-01  4.58977198e-01  3.40023753e-09  3.53022004e-09  3.47779920e-09  3.15754702e-09  3.29972208e-09  4.58977198e-01  1.59672190e-07  9.94668206e-08  2.60000000e-01 
 2.70000000e-01  4.58977202e-01  3.40023759e-09  3.53022010e-09  3.47779915e-09  3.15754702e-09  3.29972203e-09  4.58977202e-01  1.59672198e-07  9.94666891e-08  2.70000000e-01 
 2.80000000e-01  4.58977192e-01  3.40023753e-09  3.53022004e-09  3.47779920e-09  3.15754702e-09  3.29972208e-09  4.58977192e-01  1.59672190e-07  9.94665772e-08  2.80000000e-01 
 2.90000000e-01  4.58977195e-01  3.40023753e-09  3.53022004e-09  3.47779915e-09  3.15754702e-09  3.29972208e-09  4.58977195e-01  1.59672198e-07  9.94665790e-08  2.90000000e-01 
 3.00000000e-01  4.58977218e-01  3.40023754e-09  3.53022004e-09  3.47779921e-09  3.15754696e-09  3.29972209e-09  4.58977218e-01  1.59672223e-07  9.94664013e-08  3.00000000e-01 
 3.10000000e-01  4.58977199e-01  3.40023753e-09  3.53022004e-09  3.47779915e-09  3.15754696e-09  3.29972208e-09  4.58977199e-01  1.59672191e-07  9.94662130e-08  3.10000000e-01 
 3.20000000e-01  4.58977205e-01  3.40023759e-09  3.53022004e-09  3.47779915e-09  3.15754702e-09  3.29972203e-09  4.58977205e-01  1.59672202e-07  9.94661740e-08  3.20000000e-01 
 3.30000000e-01  4.58977220e-01  3.40023754e-09  3.53022004e-09  3.47779921e-09  3.15754702e-09  3.29972203e-09  4.58977220e-01  1.59672225e-07  9.94660674e-08  3.30000000e-01 
 3.40000000e-01  4.58977184e-01  3.40023753e-09  3.53022004e-09  3.47779920e-09  3.15754702e-09  3.29972203e-09  4.58977184e-01  1.59672173e-07  9.94658755e-08  3.40000000e-01 
 3.50000000e-01  4.58977184e-01  3.40023753e-09  3.53022004e-09  3.47779915e-09  3.15754702e-09  3.29972208e-09  4.58977184e-01  1.59672167e-07  9.94658009e-08  3.50000000e-01 
 3.60000000e-01  4.58977204e-01  3.40023754e-09  3.53022004e-09  3.47779915e-09  3.15754696e-09  3.29972203e-09  4.58977204e-01  1.59672210e-07  9.94657015e-08  3.60000000e-01 
 3.70000000e-01  4.58977207e-01  3.40023754e-09  3.53022010e-09  3.47779915e-09  3.15754702e-09  3.29972203e-09  4.58977207e-01  1.59672221e-07  9.94656872e-08  3.70000000e-01 
 3.80000000e-01  4.58977209e-01  3.40023759e-09  3.53022004e-09  3.47779915e-09  3.15754702e-09  3.29972208e-09  4.58977209e-01  1.59672211e-07  9.94655949e-08  3.80000000e-01 
 3.90000000e-01  4.58977214e-01  3.40023754e-09  3.53022004e-09  3.47779921e-09  3.15754696e-09  3.29972203e-09  4.58977214e-01  1.59672207e-07  9.94654421e-08  3.90000000e-01 
 4.00000000e-01  4.58977215e-01  3.40023759e-09  3.53022004e-09  3.47779915e-09  3.15754702e-09  3.29972203e-09  4.58977215e-01  1.59672212e-07  9.94653817e-08  4.00000000e-01 
 4.10000000e-01  4.58977209e-01  3.40023759e-09  3.53022010e-09  3.47779921e-09  3.15754696e-09  3.29972208e-09  4.58977209e-01  1.59672210e-07  9.94653249e-08  4.10000000e-01 
 4.20000000e-01  4.58977201e-01  3.40023753e-09  3.53022010e-09  3.47779915e-09  3.15754696e-09  3.29972208e-09  4.58977201e-01  1.59672199e-07  9.94651721e-08  4.20000000e-01 
 4.30000000e-01  4.58977189e-01  3.40023759e-09  3.53022004e-09  3.47779920e-09  3.15754702e-09  3.29972208e-09  4.58977189e-01  1.59672183e-07  9.94650478e-08  4.30000000e-01 
 4.40000000e-01  4.58977192e-01  3.40023759e-09  3.53022004e-09  3.47779920e-09  3.15754702e-09  3.29972208e-09  4.58977192e-01  1.59672190e-07  9.94649483e-08  4.40000000e-01 
 4.50000000e-01  4.58977200e-01  3.40023753e-09  3.53022010e-09  3.47779921e-09  3.15754702e-09  3.29972203e-09  4.58977200e-01  1.59672196e-07  9.94648914e-08  4.50000000e-01 
 4.60000000e-01  4.58977212e-01  3.40023754e-09  3.53022004e-09  3.47779915e-09  3.15754702e-09  3.29972203e-09  4.58977212e-01  1.59672219e-07  9.94648381e-08  4.60000000e-01 
 4.70000000e-01  4.58977195e-01  3.40023759e-09  3.53022004e-09  3.47779915e-09  3.15754702e-09  3.29972203e-09  4.58977195e-01  1.59672192e-07  9.94647209e-08  4.70000000e-01 
 4.80000000e-01  4.58977211e-01  3.40023754e-09  3.53022004e-09  3.47779921e-09  3.15754702e-09  3.29972208e-09  4.58977211e-01  1.59672213e-07  9.94647245e-08  4.80000000e-01 
 4.90000000e-01  4.58977219e-01  3.40023754e-09  3.53022004e-09  3.47779921e-09  3.15754702e-09  3.29972203e-09  4.58977219e-01  1.59672219e-07  9.94646001e-08  4.90000000e-01 
 5.00000000e-01  4.58977192e-01  3.40023759e-09  3.53022004e-09  3.47779915e-09  3.15754696e-09  3.29972208e-09  4.58977192e-01  1.59672183e-07  9.94645148e-08  5.00000000e-01 
 5.10000000e-01  4.58977194e-01  3.40023753e-09  3.53022004e-09  3.47779915e-09  3.15754702e-09  3.29972203e-09  4.58977194e-01  1.59672188e-07  9.94644687e-08  5.10000000e-01 
 5.20000000e-01  4.58977195e-01  3.40023759e-09  3.53022004e-09  3.47779915e-09  3.15754702e-09  3.29972203e-09  4.58977195e-01  1.59672192e-07  9.94643230e-08  5.20000000e-01 
 5.30000000e-01  4.58977207e-01  3.40023754e-09  3.53022004e-09  3.47779921e-09  3.15754702e-09  3.29972203e-09  4.58977207e-01  1.59672204e-07  9.94642626e-08  5.30000000e-01 
 5.40000000e-01  4.58977201e-01  3.40023759e-09  3.53022004e-09  3.47779915e-09  3.15754702e-09  3.29972208e-09  4.58977201e-01  1.59672193e-07  9.94642519e-08  5.40000000e-01 
 5.50000000e-01  4.58977211e-01  3.40023759e-09  3.53022010e-09  3.47779921e-09  3.15754702e-09  3.29972203e-09  4.58977211e-01  1.59672210e-07  9.94640921e-08  5.50000000e-01 
 5.60000000e-01  4.58977214e-01  3.40023754e-09  3.53022004e-09  3.47779915e-09  3.15754702e-09  3.29972203e-09  4.58977214e-01  1.59672213e-07  9.94641098e-08  5.60000000e-01 
 5.70000000e-01  4.58977210e-01  3.40023759e-09  3.53022004e-09  3.47779921e-09  3.15754696e-09  3.29972208e-09  4.58977210e-01  1.59672214e-07  9.94639464e-08  5.70000000e-01 
 5.80000000e-01  4.58977182e-01  3.40023753e-09  3.53022010e-09  3.47779920e-09  3.15754702e-09  3.29972208e-09  4.58977182e-01  1.59672169e-07  9.94638754e-08  5.80000000e-01 
 5.90000000e-01  4.58977218e-01  3.40023759e-09  3.53022004e-09  3.47779921e-09  3.15754696e-09  3.29972203e-09  4.58977218e-01  1.59672223e-07  9.94639251e-08  5.90000000e-01 
 6.00000000e-01  4.58977198e-01  3.40023759e-09  3.53022010e-09  3.47779920e-09  3.15754696e-09  3.29972203e-09  4.58977198e-01  1.59672190e-07  9.94637332e-08  6.00000000e-01 
 6.10000000e-01  4.58977198e-01  3.40023753e-09  3.53022010e-09  3.47779915e-09  3.15754702e-09  3.29972208e-09  4.58977198e-01  1.59672205e-07  9.94636693e-08  6.10000000e-01 
 6.20000000e-01  4.58977193e-01  3.40023759e-09  3.53022004e-09  3.47779920e-09  3.15754702e-09  3.29972203e-09  4.58977193e-01  1.59672185e-07  9.94635556e-08  6.20000000e-01 
 6.30000000e-01  4.58977198e-01  3.40023753e-09  3.53022004e-09  3.47779920e-09  3.15754702e-09  3.29972203e-09  4.58977198e-01  1.59672196e-07  9.94634988e-08  6.30000000e-01 
 6.40000000e-01  4.58977206e-01  3.40023754e-09  3.53022004e-09  3.47779915e-09  3.15754702e-09  3.29972208e-09  4.58977207e-01  1.59672202e-07  9.94634490e-08  6.40000000e-01 
 6.50000000e-01  4.58977217e-01  3.40023754e-09  3.53022004e-09  3.47779921e-09  3.15754696e-09  3.29972209e-09  4.58977217e-01  1.59672208e-07  9.94634632e-08  6.50000000e-01 
 6.60000000e-01  4.58977223e-01  3.40023754e-09  3.53022004e-09  3.47779921e-09  3.15754702e-09  3.29972203e-09  4.58977223e-01  1.59672224e-07  9.94634206e-08  6.60000000e-01 
 6.70000000e-01  4.58977199e-01  3.40023753e-09  3.53022004e-09  3.47779921e-09  3.15754696e-09  3.29972203e-09  4.58977199e-01  1.59672184e-07  9.94632501e-08  6.70000000e-01 
 6.80000000e-01  4.58977198e-01  3.40023753e-09  3.53022004e-09  3.47779920e-09  3.15754702e-09  3.29972208e-09  4.58977198e-01  1.59672186e-07  9.94631648e-08  6.80000000e-01 
 6.90000000e-01  4.58977204e-01  3.40023759e-09  3.53022004e-09  3.47779921e-09  3.15754696e-09  3.29972208e-09  4.58977204e-01  1.59672199e-07  9.94631577e-08  6.90000000e-01 
 7.00000000e-01  4.58977228e-01  3.40023754e-09  3.53022004e-09  3.47779921e-09  3.15754702e-09  3.29972209e-09  4.58977228e-01  1.59672255e-07  9.94631577e-08  7.00000000e-01 
 7.10000000e-01  4.58977214e-01  3.40023754e-09  3.53022004e-09  3.47779921e-09  3.15754696e-09  3.29972208e-09  4.58977214e-01  1.59672217e-07  9.94629943e-08  7.10000000e-01 
 7.20000000e-01  4.58977213e-01  3.40023754e-09  3.53022004e-09  3.47779915e-09  3.15754696e-09  3.29972203e-09  4.58977213e-01  1.59672223e-07  9.94628806e-08  7.20000000e-01 
 7.30000000e-01  4.58977227e-01  3.40023754e-09  3.53022004e-09  3.47779915e-09  3.15754702e-09  3.29972203e-09  4.58977227e-01  1.59672249e-07  9.94629232e-08  7.30000000e-01 
 7.40000000e-01  4.58977205e-01  3.40023759e-09  3.53022004e-09  3.47779915e-09  3.15754702e-09  3.29972208e-09  4.58977205e-01  1.59672209e-07  9.94627101e-08  7.40000000e-01 
 7.50000000e-01  4.58977196e-01  3.40023753e-09  3.53022010e-09  3.47779920e-09  3.15754702e-09  3.29972208e-09  4.58977196e-01  1.59672194e-07  9.94626106e-08  7.50000000e-01 
 7.60000000e-01  4.58977217e-01  3.40023754e-09  3.53022004e-09  3.47779921e-09  3.15754696e-09  3.29972209e-09  4.58977217e-01  1.59672222e-07  9.94626248e-08  7.60000000e-01 
 7.70000000e-01  4.58977206e-01  3.40023754e-09  3.53022010e-09  3.47779915e-09  3.15754702e-09  3.29972203e-09  4.58977206e-01  1.59672199e-07  9.94625964e-08  7.70000000e-01 
 7.80000000e-01  4.58977187e-01  3.40023753e-09  3.53022004e-09  3.47779915e-09  3.15754696e-09  3.29972203e-09  4.58977188e-01  1.59672170e-07  9.94624401e-08  7.80000000e-01 
 7.90000000e-01  4.58977190e-01  3.40023753e-09  3.53022004e-09  3.47779915e-09  3.15754702e-09  3.29972208e-09  4.58977190e-01  1.59672176e-07  9.94623335e-08  7.90000000e-01 
 8.00000000e-01  4.58977200e-01  3.40023759e-09  3.53022010e-09  3.47779921e-09  3.15754702e-09  3.29972208e-09  4.58977200e-01  1.59672188e-07  9.94622553e-08  8.00000000e-01 
 8.10000000e-01  4.58977200e-01  3.40023753e-09  3.53022010e-09  3.47779921e-09  3.15754702e-09  3.29972208e-09  4.58977200e-01  1.59672197e-07  9.94621630e-08  8.10000000e-01 
 8.20000000e-01  4.58977186e-01  3.40023753e-09  3.53022004e-09  3.47779920e-09  3.15754702e-09  3.29972208e-09  4.58977186e-01  1.59672168e-07  9.94620919e-08  8.20000000e-01 
 8.30000000e-01  4.58977204e-01  3.40023759e-09  3.53022004e-09  3.47779915e-09  3.15754702e-09  3.29972208e-09  4.58977204e-01  1.59672207e-07  9.94621132e-08  8.30000000e-01 
 8.40000000e-01  4.58977207e-01  3.40023754e-09  3.53022004e-09  3.47779915e-09  3.15754702e-09  3.29972203e-09  4.58977207e-01  1.59672212e-07  9.94619924e-08  8.40000000e-01 
 8.50000000e-01  4.58977215e-01  3.40023759e-09  3.53022004e-09  3.47779921e-09  3.15754702e-09  3.29972203e-09  4.58977215e-01  1.59672215e-07  9.94619853e-08  8.50000000e-01 
 8.60000000e-01  4.58977198e-01  3.40023753e-09  3.53022010e-09  3.47779920e-09  3.15754702e-09  3.29972208e-09  4.58977198e-01  1.59672196e-07  9.94618716e-08  8.60000000e-01 
 8.70000000e-01  4.58977217e-01  3.40023754e-09  3.53022004e-09  3.47779921e-09  3.15754696e-09  3.29972203e-09  4.58977217e-01  1.59672219e-07  9.94618077e-08  8.70000000e-01 
 8.80000000e-01  4.58977208e-01  3.40023759e-09  3.53022004e-09  3.47779915e-09  3.15754702e-09  3.29972208e-09  4.58977208e-01  1.59672204e-07  9.94617722e-08  8.80000000e-01 
 8.90000000e-01  4.58977218e-01  3.40023759e-09  3.53022004e-09  3.47779915e-09  3.15754702e-09  3.29972209e-09  4.58977218e-01  1.59672227e-07  9.94616727e-08  8.90000000e-01 
 9.00000000e-01  4.58977201e-01  3.40023753e-09  3.53022010e-09  3.47779921e-09  3.15754702e-09  3.29972208e-09  4.58977201e-01  1.59672198e-07  9.94614879e-08  9.00000000e-01 
 9.10000000e-01  4.58977199e-01  3.40023753e-09  3.53022004e-09  3.47779921e-09  3.15754702e-09  3.29972208e-09  4.58977199e-01  1.59672184e-07  9.94614382e-08  9.10000000e-01 
 9.20000000e-01  4.58977192e-01  3.40023753e-09  3.53022010e-09  3.47779920e-09  3.15754696e-09  3.29972203e-09  4.58977192e-01  1.59672193e-07  9.94613885e-08  9.20000000e-01 
 9.30000000e-01  4.58977192e-01  3.40023759e-09  3.53022004e-09  3.47779920e-09  3.15754696e-09  3.29972208e-09  4.58977192e-01  1.59672183e-07  9.94613742e-08  9.30000000e-01 
 9.40000000e-01  4.58977214e-01  3.40023754e-09  3.53022010e-09  3.47779921e-09  3.15754702e-09  3.29972209e-09  4.58977214e-01  1.59672216e-07  9.94612108e-08  9.40000000e-01 
 9.50000000e-01  4.58977219e-01  3.40023754e-09  3.53022004e-09  3.47779915e-09  3.15754702e-09  3.29972203e-09  4.58977219e-01  1.59672223e-07  9.94611256e-08  9.50000000e-01 
 9.60000000e-01  4.58977201e-01  3.40023753e-09  3.53022004e-09  3.47779915e-09  3.15754702e-09  3.29972203e-09  4.58977201e-01  1.59672200e-07  9.94610190e-08  9.60000000e-01 
 9.70000000e-01  4.58977206e-01  3.40023754e-09  3.53022004e-09  3.47779921e-09  3.15754702e-09  3.29972208e-09  4.58977206e-01  1.59672202e-07  9.94609621e-08  9.70000000e-01 
 9.80000000e-01  4.58977190e-01  3.40023753e-09  3.53022004e-09  3.47779920e-09  3.15754702e-09  3.29972208e-09  4.58977190e-01  1.59672187e-07  9.94608200e-08  9.80000000e-01 
 9.90000000e-01  4.58977216e-01  3.40023759e-09  3.53022010e-09  3.47779915e-09  3.15754702e-09  3.29972209e-09  4.58977216e-01  1.59672228e-07  9.94608129e-08  9.90000000e-01 
 1.00000000e+00  4.58977220e-01  3.40023759e-09  3.53022004e-09  3.47779921e-09  3.15754702e-09  3.29972209e-09  4.58977220e-01  1.59672205e-07  9.94606708e-08  1.00000000e+00 
 1.01000000e+00  4.58977201e-01  3.40023753e-09  3.53022004e-09  3.47779921e-09  3.15754696e-09  3.29972208e-09  4.58977201e-01  1.59672205e-07  9.94605500e-08  1.01000000e+00 
 1.02000000e+00  4.58977193e-01  3.40023759e-09  3.53022004e-09  3.47779915e-09  3.15754702e-09  3.29972203e-09  4.58977193e-01  1.59672178e-07  9.94605074e-08  1.02000000e+00 
 1.03000000e+00  4.58977213e-01  3.40023754e-09  3.53022004e-09  3.47779915e-09  3.15754702e-09  3.29972203e-09  4.58977213e-01  1.59672209e-07  9.94604932e-08  1.03000000e+00 
 1.04000000e+00  4.58977203e-01  3.40023759e-09  3.53022010e-09  3.47779915e-09  3.15754702e-09  3.29972203e-09  4.58977203e-01  1.59672212e-07  9.94602516e-08  1.04000000e+00 
 1.05000000e+00  4.58977196e-01  3.40023753e-09  3.53022004e-09  3.47779920e-09  3.15754696e-09  3.29972208e-09  4.58977196e-01  1.59672186e-07  9.94602019e-08  1.05000000e+00 
 1.06000000e+00  4.58977221e-01  3.40023759e-09  3.53022004e-09  3.47779915e-09  3.15754696e-09  3.29972209e-09  4.58977221e-01  1.59672234e-07  9.94602232e-08  1.06000000e+00 
 1.07000000e+00  4.58977204e-01  3.40023759e-09  3.53022004e-09  3.47779921e-09  3.15754702e-09  3.29972203e-09  4.58977204e-01  1.59672198e-07  9.94601308e-08  1.07000000e+00 
 1.08000000e+00  4.58977207e-01  3.40023754e-09  3.53022010e-09  3.47779921e-09  3.15754696e-09  3.29972203e-09  4.58977207e-01  1.59672212e-07  9.94599674e-08  1.08000000e+00 
 1.09000000e+00  4.58977211e-01  3.40023759e-09  3.53022004e-09  3.47779921e-09  3.15754702e-09  3.29972208e-09  4.58977211e-01  1.59672211e-07  9.94599034e-08  1.09000000e+00 
 1.10000000e+00  4.58977181e-01  3.40023759e-09  3.53022004e-09  3.47779920e-09  3.15754702e-09  3.29972208e-09  4.58977181e-01  1.59672164e-07  9.94597968e-08  1.10000000e+00 
