 v-sweep         v(b0)           v(b1)           v(b2)           v(b3)           v(b4)           v(b5)           v(b6)           i(vbias)        i(viout)        v(vout)        
 0.00000000e+00  3.41989867e-09  4.57025597e-01  4.57025597e-01  4.57025597e-01  3.24098401e-09  3.43394823e-09  3.24272193e-09  1.56648536e-07  2.09076882e-08  0.00000000e+00 
 1.00000000e-02  3.41989859e-09  4.57025586e-01  4.57025586e-01  4.57025586e-01  3.24098399e-09  3.43394821e-09  3.24272192e-09  1.56648530e-07  2.09071691e-08  1.00000000e-02 
 2.00000000e-02  3.41989859e-09  4.57025579e-01  4.57025579e-01  4.57025579e-01  3.24098399e-09  3.43394821e-09  3.24272186e-09  1.56648525e-07  2.09068631e-08  2.00000000e-02 
 3.00000000e-02  3.41989860e-09  4.57025596e-01  4.57025596e-01  4.57025596e-01  3.24098399e-09  3.43394816e-09  3.24272192e-09  1.56648540e-07  2.09065969e-08  3.00000000e-02 
 4.00000000e-02  3.41989859e-09  4.57025590e-01  4.57025590e-01  4.57025590e-01  3.24098399e-09  3.43394821e-09  3.24272192e-09  1.56648552e-07  2.09061994e-08  4.00000000e-02 
 5.00000000e-02  3.41989865e-09  4.57025592e-01  4.57025592e-01  4.57025592e-01  3.24098399e-09  3.43394821e-09  3.24272186e-09  1.56648546e-07  2.09059059e-08  5.00000000e-02 
 6.00000000e-02  3.41989865e-09  4.57025589e-01  4.57025589e-01  4.57025589e-01  3.24098399e-09  3.43394821e-09  3.24272186e-09  1.56648539e-07  2.09055844e-08  6.00000000e-02 
 7.00000000e-02  3.41989865e-09  4.57025574e-01  4.57025574e-01  4.57025574e-01  3.24098399e-09  3.43394821e-09  3.24272192e-09  1.56648517e-07  2.09052864e-08  7.00000000e-02 
 8.00000000e-02  3.41989860e-09  4.57025593e-01  4.57025593e-01  4.57025593e-01  3.24098399e-09  3.43394821e-09  3.24272186e-09  1.56648539e-07  2.09049693e-08  8.00000000e-02 
 9.00000000e-02  3.41989860e-09  4.57025594e-01  4.57025594e-01  4.57025594e-01  3.24098399e-09  3.43394821e-09  3.24272186e-09  1.56648546e-07  2.09046869e-08  9.00000000e-02 
 1.00000000e-01  3.41989859e-09  4.57025577e-01  4.57025577e-01  4.57025577e-01  3.24098399e-09  3.43394821e-09  3.24272192e-09  1.56648518e-07  2.09044186e-08  1.00000000e-01 
 1.10000000e-01  3.41989865e-09  4.57025589e-01  4.57025589e-01  4.57025589e-01  3.24098399e-09  3.43394821e-09  3.24272186e-09  1.56648537e-07  2.09042295e-08  1.10000000e-01 
 1.20000000e-01  3.41989860e-09  4.57025595e-01  4.57025595e-01  4.57025595e-01  3.24098399e-09  3.43394821e-09  3.24272192e-09  1.56648540e-07  2.09039124e-08  1.20000000e-01 
 1.30000000e-01  3.41989865e-09  4.57025592e-01  4.57025592e-01  4.57025592e-01  3.24098399e-09  3.43394821e-09  3.24272192e-09  1.56648526e-07  2.09038049e-08  1.30000000e-01 
 1.40000000e-01  3.41989865e-09  4.57025616e-01  4.57025616e-01  4.57025616e-01  3.24098405e-09  3.43394822e-09  3.24272192e-09  1.56648576e-07  2.09035074e-08  1.40000000e-01 
 1.50000000e-01  3.41989859e-09  4.57025577e-01  4.57025577e-01  4.57025577e-01  3.24098399e-09  3.43394815e-09  3.24272186e-09  1.56648515e-07  2.09033626e-08  1.50000000e-01 
 1.60000000e-01  3.41989865e-09  4.57025583e-01  4.57025583e-01  4.57025583e-01  3.24098399e-09  3.43394821e-09  3.24272186e-09  1.56648529e-07  2.09030944e-08  1.60000000e-01 
 1.70000000e-01  3.41989859e-09  4.57025574e-01  4.57025574e-01  4.57025574e-01  3.24098405e-09  3.43394821e-09  3.24272186e-09  1.56648521e-07  2.09030642e-08  1.70000000e-01 
 1.80000000e-01  3.41989865e-09  4.57025574e-01  4.57025574e-01  4.57025574e-01  3.24098405e-09  3.43394815e-09  3.24272192e-09  1.56648531e-07  2.09028244e-08  1.80000000e-01 
 1.90000000e-01  3.41989859e-09  4.57025583e-01  4.57025583e-01  4.57025583e-01  3.24098405e-09  3.43394821e-09  3.24272192e-09  1.56648530e-07  2.09026449e-08  1.90000000e-01 
 2.00000000e-01  3.41989865e-09  4.57025577e-01  4.57025577e-01  4.57025577e-01  3.24098399e-09  3.43394821e-09  3.24272192e-09  1.56648515e-07  2.09025117e-08  2.00000000e-01 
 2.10000000e-01  3.41989865e-09  4.57025592e-01  4.57025592e-01  4.57025592e-01  3.24098399e-09  3.43394816e-09  3.24272192e-09  1.56648540e-07  2.09023092e-08  2.10000000e-01 
 2.20000000e-01  3.41989865e-09  4.57025599e-01  4.57025599e-01  4.57025599e-01  3.24098399e-09  3.43394821e-09  3.24272186e-09  1.56648545e-07  2.09021724e-08  2.20000000e-01 
 2.30000000e-01  3.41989860e-09  4.57025629e-01  4.57025629e-01  4.57025629e-01  3.24098399e-09  3.43394822e-09  3.24272192e-09  1.56648602e-07  2.09022151e-08  2.30000000e-01 
 2.40000000e-01  3.41989865e-09  4.57025575e-01  4.57025575e-01  4.57025575e-01  3.24098399e-09  3.43394821e-09  3.24272192e-09  1.56648524e-07  2.09019664e-08  2.40000000e-01 
 2.50000000e-01  3.41989860e-09  4.57025597e-01  4.57025597e-01  4.57025597e-01  3.24098399e-09  3.43394821e-09  3.24272186e-09  1.56648541e-07  2.09018598e-08  2.50000000e-01 
 2.60000000e-01  3.41989859e-09  4.57025587e-01  4.57025587e-01  4.57025587e-01  3.24098399e-09  3.43394821e-09  3.24272186e-09  1.56648541e-07  2.09017283e-08  2.60000000e-01 
 2.70000000e-01  3.41989866e-09  4.57025623e-01  4.57025623e-01  4.57025623e-01  3.24098399e-09  3.43394816e-09  3.24272192e-09  1.56648594e-07  2.09017177e-08  2.70000000e-01 
 2.80000000e-01  3.41989859e-09  4.57025578e-01  4.57025578e-01  4.57025578e-01  3.24098399e-09  3.43394815e-09  3.24272192e-09  1.56648511e-07  2.09013891e-08  2.80000000e-01 
 2.90000000e-01  3.41989865e-09  4.57025579e-01  4.57025579e-01  4.57025579e-01  3.24098399e-09  3.43394821e-09  3.24272192e-09  1.56648515e-07  2.09013109e-08  2.90000000e-01 
 3.00000000e-01  3.41989859e-09  4.57025588e-01  4.57025588e-01  4.57025588e-01  3.24098399e-09  3.43394821e-09  3.24272186e-09  1.56648531e-07  2.09012789e-08  3.00000000e-01 
 3.10000000e-01  3.41989860e-09  4.57025598e-01  4.57025598e-01  4.57025598e-01  3.24098399e-09  3.43394821e-09  3.24272192e-09  1.56648551e-07  2.09011439e-08  3.10000000e-01 
 3.20000000e-01  3.41989865e-09  4.57025588e-01  4.57025588e-01  4.57025588e-01  3.24098399e-09  3.43394821e-09  3.24272186e-09  1.56648550e-07  2.09011439e-08  3.20000000e-01 
 3.30000000e-01  3.41989865e-09  4.57025578e-01  4.57025578e-01  4.57025578e-01  3.24098399e-09  3.43394821e-09  3.24272192e-09  1.56648518e-07  2.09009769e-08  3.30000000e-01 
 3.40000000e-01  3.41989859e-09  4.57025579e-01  4.57025579e-01  4.57025579e-01  3.24098399e-09  3.43394821e-09  3.24272186e-09  1.56648522e-07  2.09009805e-08  3.40000000e-01 
 3.50000000e-01  3.41989859e-09  4.57025590e-01  4.57025590e-01  4.57025590e-01  3.24098405e-09  3.43394821e-09  3.24272192e-09  1.56648531e-07  2.09006892e-08  3.50000000e-01 
 3.60000000e-01  3.41989865e-09  4.57025568e-01  4.57025568e-01  4.57025568e-01  3.24098399e-09  3.43394821e-09  3.24272192e-09  1.56648499e-07  2.09007602e-08  3.60000000e-01 
 3.70000000e-01  3.41989859e-09  4.57025581e-01  4.57025581e-01  4.57025581e-01  3.24098399e-09  3.43394821e-09  3.24272186e-09  1.56648537e-07  2.09006998e-08  3.70000000e-01 
 3.80000000e-01  3.41989860e-09  4.57025598e-01  4.57025597e-01  4.57025598e-01  3.24098399e-09  3.43394821e-09  3.24272186e-09  1.56648544e-07  2.09005862e-08  3.80000000e-01 
 3.90000000e-01  3.41989865e-09  4.57025595e-01  4.57025595e-01  4.57025595e-01  3.24098399e-09  3.43394821e-09  3.24272186e-09  1.56648536e-07  2.09005009e-08  3.90000000e-01 
 4.00000000e-01  3.41989865e-09  4.57025558e-01  4.57025558e-01  4.57025558e-01  3.24098399e-09  3.43394815e-09  3.24272186e-09  1.56648499e-07  2.09004369e-08  4.00000000e-01 
 4.10000000e-01  3.41989865e-09  4.57025567e-01  4.57025567e-01  4.57025568e-01  3.24098399e-09  3.43394821e-09  3.24272192e-09  1.56648505e-07  2.09003979e-08  4.10000000e-01 
 4.20000000e-01  3.41989865e-09  4.57025596e-01  4.57025596e-01  4.57025596e-01  3.24098399e-09  3.43394816e-09  3.24272186e-09  1.56648550e-07  2.09003055e-08  4.20000000e-01 
 4.30000000e-01  3.41989865e-09  4.57025578e-01  4.57025578e-01  4.57025578e-01  3.24098399e-09  3.43394821e-09  3.24272192e-09  1.56648513e-07  2.09002344e-08  4.30000000e-01 
 4.40000000e-01  3.41989859e-09  4.57025592e-01  4.57025592e-01  4.57025592e-01  3.24098399e-09  3.43394821e-09  3.24272186e-09  1.56648537e-07  2.09001669e-08  4.40000000e-01 
 4.50000000e-01  3.41989859e-09  4.57025584e-01  4.57025584e-01  4.57025584e-01  3.24098399e-09  3.43394821e-09  3.24272186e-09  1.56648530e-07  2.09000603e-08  4.50000000e-01 
 4.60000000e-01  3.41989859e-09  4.57025586e-01  4.57025586e-01  4.57025586e-01  3.24098399e-09  3.43394816e-09  3.24272186e-09  1.56648534e-07  2.09000355e-08  4.60000000e-01 
 4.70000000e-01  3.41989865e-09  4.57025592e-01  4.57025592e-01  4.57025592e-01  3.24098399e-09  3.43394816e-09  3.24272192e-09  1.56648540e-07  2.09000284e-08  4.70000000e-01 
 4.80000000e-01  3.41989865e-09  4.57025594e-01  4.57025594e-01  4.57025594e-01  3.24098399e-09  3.43394816e-09  3.24272192e-09  1.56648535e-07  2.08999325e-08  4.80000000e-01 
 4.90000000e-01  3.41989860e-09  4.57025596e-01  4.57025596e-01  4.57025596e-01  3.24098399e-09  3.43394816e-09  3.24272192e-09  1.56648542e-07  2.08999111e-08  4.90000000e-01 
 5.00000000e-01  3.41989865e-09  4.57025585e-01  4.57025585e-01  4.57025585e-01  3.24098399e-09  3.43394816e-09  3.24272186e-09  1.56648540e-07  2.08998436e-08  5.00000000e-01 
 5.10000000e-01  3.41989865e-09  4.57025599e-01  4.57025599e-01  4.57025599e-01  3.24098399e-09  3.43394821e-09  3.24272192e-09  1.56648541e-07  2.08996838e-08  5.10000000e-01 
 5.20000000e-01  3.41989860e-09  4.57025603e-01  4.57025603e-01  4.57025603e-01  3.24098399e-09  3.43394822e-09  3.24272192e-09  1.56648570e-07  2.08996127e-08  5.20000000e-01 
 5.30000000e-01  3.41989865e-09  4.57025587e-01  4.57025587e-01  4.57025587e-01  3.24098399e-09  3.43394821e-09  3.24272192e-09  1.56648536e-07  2.08997122e-08  5.30000000e-01 
 5.40000000e-01  3.41989859e-09  4.57025578e-01  4.57025578e-01  4.57025578e-01  3.24098399e-09  3.43394815e-09  3.24272186e-09  1.56648520e-07  2.08994351e-08  5.40000000e-01 
 5.50000000e-01  3.41989859e-09  4.57025583e-01  4.57025583e-01  4.57025583e-01  3.24098399e-09  3.43394821e-09  3.24272192e-09  1.56648526e-07  2.08995132e-08  5.50000000e-01 
 5.60000000e-01  3.41989865e-09  4.57025590e-01  4.57025590e-01  4.57025590e-01  3.24098399e-09  3.43394821e-09  3.24272192e-09  1.56648535e-07  2.08995132e-08  5.60000000e-01 
 5.70000000e-01  3.41989865e-09  4.57025587e-01  4.57025587e-01  4.57025587e-01  3.24098399e-09  3.43394821e-09  3.24272192e-09  1.56648520e-07  2.08994066e-08  5.70000000e-01 
 5.80000000e-01  3.41989859e-09  4.57025580e-01  4.57025580e-01  4.57025580e-01  3.24098399e-09  3.43394821e-09  3.24272192e-09  1.56648527e-07  2.08993498e-08  5.80000000e-01 
 5.90000000e-01  3.41989865e-09  4.57025588e-01  4.57025588e-01  4.57025589e-01  3.24098399e-09  3.43394821e-09  3.24272192e-09  1.56648539e-07  2.08993995e-08  5.90000000e-01 
 6.00000000e-01  3.41989865e-09  4.57025593e-01  4.57025593e-01  4.57025593e-01  3.24098399e-09  3.43394821e-09  3.24272192e-09  1.56648544e-07  2.08992006e-08  6.00000000e-01 
 6.10000000e-01  3.41989860e-09  4.57025596e-01  4.57025596e-01  4.57025596e-01  3.24098399e-09  3.43394821e-09  3.24272186e-09  1.56648554e-07  2.08992290e-08  6.10000000e-01 
 6.20000000e-01  3.41989865e-09  4.57025601e-01  4.57025601e-01  4.57025601e-01  3.24098399e-09  3.43394822e-09  3.24272192e-09  1.56648545e-07  2.08991011e-08  6.20000000e-01 
 6.30000000e-01  3.41989865e-09  4.57025614e-01  4.57025614e-01  4.57025614e-01  3.24098399e-09  3.43394822e-09  3.24272186e-09  1.56648570e-07  2.08991224e-08  6.30000000e-01 
 6.40000000e-01  3.41989865e-09  4.57025592e-01  4.57025592e-01  4.57025592e-01  3.24098399e-09  3.43394821e-09  3.24272186e-09  1.56648525e-07  2.08990656e-08  6.40000000e-01 
 6.50000000e-01  3.41989865e-09  4.57025576e-01  4.57025576e-01  4.57025576e-01  3.24098399e-09  3.43394821e-09  3.24272192e-09  1.56648521e-07  2.08989732e-08  6.50000000e-01 
 6.60000000e-01  3.41989860e-09  4.57025602e-01  4.57025602e-01  4.57025602e-01  3.24098399e-09  3.43394822e-09  3.24272186e-09  1.56648559e-07  2.08989519e-08  6.60000000e-01 
 6.70000000e-01  3.41989859e-09  4.57025577e-01  4.57025577e-01  4.57025577e-01  3.24098399e-09  3.43394821e-09  3.24272192e-09  1.56648506e-07  2.08989448e-08  6.70000000e-01 
 6.80000000e-01  3.41989865e-09  4.57025588e-01  4.57025588e-01  4.57025588e-01  3.24098405e-09  3.43394821e-09  3.24272192e-09  1.56648545e-07  2.08988027e-08  6.80000000e-01 
 6.90000000e-01  3.41989860e-09  4.57025595e-01  4.57025595e-01  4.57025595e-01  3.24098399e-09  3.43394821e-09  3.24272192e-09  1.56648539e-07  2.08987743e-08  6.90000000e-01 
 7.00000000e-01  3.41989859e-09  4.57025590e-01  4.57025590e-01  4.57025590e-01  3.24098399e-09  3.43394816e-09  3.24272192e-09  1.56648534e-07  2.08988382e-08  7.00000000e-01 
 7.10000000e-01  3.41989859e-09  4.57025562e-01  4.57025562e-01  4.57025562e-01  3.24098399e-09  3.43394821e-09  3.24272186e-09  1.56648491e-07  2.08986393e-08  7.10000000e-01 
 7.20000000e-01  3.41989865e-09  4.57025583e-01  4.57025583e-01  4.57025583e-01  3.24098399e-09  3.43394816e-09  3.24272192e-09  1.56648531e-07  2.08986179e-08  7.20000000e-01 
 7.30000000e-01  3.41989865e-09  4.57025592e-01  4.57025592e-01  4.57025592e-01  3.24098405e-09  3.43394821e-09  3.24272186e-09  1.56648549e-07  2.08985398e-08  7.30000000e-01 
 7.40000000e-01  3.41989859e-09  4.57025584e-01  4.57025584e-01  4.57025584e-01  3.24098399e-09  3.43394821e-09  3.24272186e-09  1.56648537e-07  2.08985043e-08  7.40000000e-01 
 7.50000000e-01  3.41989865e-09  4.57025592e-01  4.57025592e-01  4.57025592e-01  3.24098399e-09  3.43394816e-09  3.24272186e-09  1.56648553e-07  2.08985966e-08  7.50000000e-01 
 7.60000000e-01  3.41989865e-09  4.57025605e-01  4.57025605e-01  4.57025606e-01  3.24098399e-09  3.43394822e-09  3.24272192e-09  1.56648556e-07  2.08984190e-08  7.60000000e-01 
 7.70000000e-01  3.41989860e-09  4.57025596e-01  4.57025596e-01  4.57025596e-01  3.24098399e-09  3.43394821e-09  3.24272186e-09  1.56648552e-07  2.08984119e-08  7.70000000e-01 
 7.80000000e-01  3.41989860e-09  4.57025604e-01  4.57025604e-01  4.57025604e-01  3.24098399e-09  3.43394822e-09  3.24272192e-09  1.56648562e-07  2.08983835e-08  7.80000000e-01 
 7.90000000e-01  3.41989859e-09  4.57025592e-01  4.57025592e-01  4.57025592e-01  3.24098399e-09  3.43394821e-09  3.24272192e-09  1.56648551e-07  2.08982769e-08  7.90000000e-01 
 8.00000000e-01  3.41989865e-09  4.57025582e-01  4.57025582e-01  4.57025582e-01  3.24098399e-09  3.43394816e-09  3.24272192e-09  1.56648524e-07  2.08982627e-08  8.00000000e-01 
 8.10000000e-01  3.41989859e-09  4.57025571e-01  4.57025571e-01  4.57025571e-01  3.24098399e-09  3.43394815e-09  3.24272192e-09  1.56648516e-07  2.08980566e-08  8.10000000e-01 
 8.20000000e-01  3.41989865e-09  4.57025586e-01  4.57025586e-01  4.57025586e-01  3.24098399e-09  3.43394821e-09  3.24272192e-09  1.56648532e-07  2.08981348e-08  8.20000000e-01 
 8.30000000e-01  3.41989859e-09  4.57025575e-01  4.57025575e-01  4.57025575e-01  3.24098399e-09  3.43394815e-09  3.24272186e-09  1.56648519e-07  2.08980069e-08  8.30000000e-01 
 8.40000000e-01  3.41989865e-09  4.57025595e-01  4.57025595e-01  4.57025595e-01  3.24098399e-09  3.43394821e-09  3.24272186e-09  1.56648545e-07  2.08979785e-08  8.40000000e-01 
 8.50000000e-01  3.41989865e-09  4.57025595e-01  4.57025595e-01  4.57025595e-01  3.24098399e-09  3.43394821e-09  3.24272186e-09  1.56648547e-07  2.08979216e-08  8.50000000e-01 
 8.60000000e-01  3.41989865e-09  4.57025582e-01  4.57025582e-01  4.57025582e-01  3.24098399e-09  3.43394816e-09  3.24272192e-09  1.56648514e-07  2.08978364e-08  8.60000000e-01 
 8.70000000e-01  3.41989865e-09  4.57025596e-01  4.57025596e-01  4.57025596e-01  3.24098399e-09  3.43394821e-09  3.24272192e-09  1.56648546e-07  2.08978364e-08  8.70000000e-01 
 8.80000000e-01  3.41989865e-09  4.57025592e-01  4.57025592e-01  4.57025592e-01  3.24098399e-09  3.43394816e-09  3.24272192e-09  1.56648550e-07  2.08978079e-08  8.80000000e-01 
 8.90000000e-01  3.41989865e-09  4.57025591e-01  4.57025591e-01  4.57025591e-01  3.24098399e-09  3.43394816e-09  3.24272192e-09  1.56648541e-07  2.08977440e-08  8.90000000e-01 
 9.00000000e-01  3.41989865e-09  4.57025589e-01  4.57025589e-01  4.57025589e-01  3.24098405e-09  3.43394821e-09  3.24272186e-09  1.56648535e-07  2.08977866e-08  9.00000000e-01 
 9.10000000e-01  3.41989865e-09  4.57025594e-01  4.57025594e-01  4.57025595e-01  3.24098399e-09  3.43394821e-09  3.24272186e-09  1.56648544e-07  2.08976729e-08  9.10000000e-01 
 9.20000000e-01  3.41989859e-09  4.57025588e-01  4.57025588e-01  4.57025588e-01  3.24098399e-09  3.43394821e-09  3.24272186e-09  1.56648539e-07  2.08975663e-08  9.20000000e-01 
 9.30000000e-01  3.41989859e-09  4.57025580e-01  4.57025580e-01  4.57025580e-01  3.24098399e-09  3.43394821e-09  3.24272186e-09  1.56648531e-07  2.08975521e-08  9.30000000e-01 
 9.40000000e-01  3.41989859e-09  4.57025587e-01  4.57025587e-01  4.57025587e-01  3.24098399e-09  3.43394821e-09  3.24272186e-09  1.56648532e-07  2.08974527e-08  9.40000000e-01 
 9.50000000e-01  3.41989860e-09  4.57025601e-01  4.57025601e-01  4.57025601e-01  3.24098399e-09  3.43394822e-09  3.24272186e-09  1.56648546e-07  2.08974669e-08  9.50000000e-01 
 9.60000000e-01  3.41989865e-09  4.57025592e-01  4.57025592e-01  4.57025592e-01  3.24098399e-09  3.43394821e-09  3.24272192e-09  1.56648555e-07  2.08974598e-08  9.60000000e-01 
 9.70000000e-01  3.41989859e-09  4.57025590e-01  4.57025590e-01  4.57025590e-01  3.24098399e-09  3.43394821e-09  3.24272192e-09  1.56648543e-07  2.08973248e-08  9.70000000e-01 
 9.80000000e-01  3.41989860e-09  4.57025607e-01  4.57025607e-01  4.57025607e-01  3.24098405e-09  3.43394822e-09  3.24272186e-09  1.56648558e-07  2.08973816e-08  9.80000000e-01 
 9.90000000e-01  3.41989865e-09  4.57025583e-01  4.57025582e-01  4.57025583e-01  3.24098405e-09  3.43394816e-09  3.24272192e-09  1.56648533e-07  2.08972608e-08  9.90000000e-01 
 1.00000000e+00  3.41989860e-09  4.57025601e-01  4.57025601e-01  4.57025601e-01  3.24098405e-09  3.43394816e-09  3.24272186e-09  1.56648551e-07  2.08971898e-08  1.00000000e+00 
 1.01000000e+00  3.41989865e-09  4.57025591e-01  4.57025591e-01  4.57025591e-01  3.24098399e-09  3.43394821e-09  3.24272192e-09  1.56648541e-07  2.08970548e-08  1.01000000e+00 
 1.02000000e+00  3.41989865e-09  4.57025604e-01  4.57025604e-01  4.57025604e-01  3.24098399e-09  3.43394816e-09  3.24272186e-09  1.56648568e-07  2.08971400e-08  1.02000000e+00 
 1.03000000e+00  3.41989865e-09  4.57025590e-01  4.57025590e-01  4.57025590e-01  3.24098399e-09  3.43394816e-09  3.24272192e-09  1.56648541e-07  2.08969624e-08  1.03000000e+00 
 1.04000000e+00  3.41989865e-09  4.57025585e-01  4.57025585e-01  4.57025585e-01  3.24098405e-09  3.43394821e-09  3.24272192e-09  1.56648528e-07  2.08968700e-08  1.04000000e+00 
 1.05000000e+00  3.41989865e-09  4.57025581e-01  4.57025581e-01  4.57025581e-01  3.24098399e-09  3.43394821e-09  3.24272186e-09  1.56648528e-07  2.08968700e-08  1.05000000e+00 
 1.06000000e+00  3.41989860e-09  4.57025596e-01  4.57025596e-01  4.57025596e-01  3.24098399e-09  3.43394821e-09  3.24272192e-09  1.56648538e-07  2.08968203e-08  1.06000000e+00 
 1.07000000e+00  3.41989859e-09  4.57025587e-01  4.57025587e-01  4.57025587e-01  3.24098399e-09  3.43394816e-09  3.24272186e-09  1.56648527e-07  2.08967137e-08  1.07000000e+00 
 1.08000000e+00  3.41989865e-09  4.57025609e-01  4.57025609e-01  4.57025609e-01  3.24098399e-09  3.43394822e-09  3.24272186e-09  1.56648561e-07  2.08967421e-08  1.08000000e+00 
 1.09000000e+00  3.41989865e-09  4.57025612e-01  4.57025612e-01  4.57025612e-01  3.24098399e-09  3.43394822e-09  3.24272192e-09  1.56648563e-07  2.08967847e-08  1.09000000e+00 
 1.10000000e+00  3.41989859e-09  4.57025585e-01  4.57025585e-01  4.57025585e-01  3.24098399e-09  3.43394816e-09  3.24272192e-09  1.56648533e-07  2.08966426e-08  1.10000000e+00 
