 v-sweep         v(b0)           v(b1)           v(b2)           v(b3)           v(b4)           v(b5)           v(b6)           i(vbias)        i(viout)        v(vout)        
 0.00000000e+00  3.18810103e-09  3.43242664e-09  3.15430600e-09  4.59956155e-01  3.08278225e-09  4.59956155e-01  3.23215013e-09  1.59883545e-07  6.42334791e-08  0.00000000e+00 
 1.00000000e-02  3.18810106e-09  3.43242662e-09  3.15430604e-09  4.59956131e-01  3.08278223e-09  4.59956131e-01  3.23215011e-09  1.59883514e-07  6.42330812e-08  1.00000000e-02 
 2.00000000e-02  3.18810106e-09  3.43242662e-09  3.15430598e-09  4.59956153e-01  3.08278223e-09  4.59956153e-01  3.23215017e-09  1.59883552e-07  6.42327260e-08  2.00000000e-02 
 3.00000000e-02  3.18810101e-09  3.43242662e-09  3.15430604e-09  4.59956168e-01  3.08278223e-09  4.59956168e-01  3.23215016e-09  1.59883581e-07  6.42323752e-08  3.00000000e-02 
 4.00000000e-02  3.18810106e-09  3.43242662e-09  3.15430604e-09  4.59956112e-01  3.08278223e-09  4.59956112e-01  3.23215016e-09  1.59883505e-07  6.42319096e-08  4.00000000e-02 
 5.00000000e-02  3.18810106e-09  3.43242662e-09  3.15430604e-09  4.59956139e-01  3.08278229e-09  4.59956139e-01  3.23215016e-09  1.59883536e-07  6.42316476e-08  5.00000000e-02 
 6.00000000e-02  3.18810107e-09  3.43242662e-09  3.15430604e-09  4.59956155e-01  3.08278229e-09  4.59956155e-01  3.23215017e-09  1.59883557e-07  6.42312896e-08  6.00000000e-02 
 7.00000000e-02  3.18810106e-09  3.43242662e-09  3.15430604e-09  4.59956149e-01  3.08278223e-09  4.59956149e-01  3.23215016e-09  1.59883544e-07  6.42310720e-08  7.00000000e-02 
 8.00000000e-02  3.18810106e-09  3.43242662e-09  3.15430604e-09  4.59956135e-01  3.08278223e-09  4.59956135e-01  3.23215011e-09  1.59883531e-07  6.42307558e-08  8.00000000e-02 
 9.00000000e-02  3.18810106e-09  3.43242662e-09  3.15430604e-09  4.59956149e-01  3.08278223e-09  4.59956149e-01  3.23215018e-09  1.59883550e-07  6.42304760e-08  9.00000000e-02 
 1.00000000e-01  3.18810101e-09  3.43242662e-09  3.15430604e-09  4.59956147e-01  3.08278229e-09  4.59956147e-01  3.23215016e-09  1.59883555e-07  6.42302709e-08  1.00000000e-01 
 1.10000000e-01  3.18810101e-09  3.43242662e-09  3.15430604e-09  4.59956119e-01  3.08278223e-09  4.59956119e-01  3.23215012e-09  1.59883500e-07  6.42299289e-08  1.10000000e-01 
 1.20000000e-01  3.18810106e-09  3.43242662e-09  3.15430604e-09  4.59956132e-01  3.08278223e-09  4.59956132e-01  3.23215011e-09  1.59883517e-07  6.42297389e-08  1.20000000e-01 
 1.30000000e-01  3.18810101e-09  3.43242662e-09  3.15430604e-09  4.59956112e-01  3.08278223e-09  4.59956112e-01  3.23215017e-09  1.59883491e-07  6.42293854e-08  1.30000000e-01 
 1.40000000e-01  3.18810101e-09  3.43242662e-09  3.15430604e-09  4.59956129e-01  3.08278223e-09  4.59956129e-01  3.23215016e-09  1.59883525e-07  6.42292353e-08  1.40000000e-01 
 1.50000000e-01  3.18810106e-09  3.43242662e-09  3.15430604e-09  4.59956140e-01  3.08278229e-09  4.59956140e-01  3.23215012e-09  1.59883536e-07  6.42290079e-08  1.50000000e-01 
 1.60000000e-01  3.18810106e-09  3.43242662e-09  3.15430604e-09  4.59956139e-01  3.08278223e-09  4.59956139e-01  3.23215011e-09  1.59883535e-07  6.42289422e-08  1.60000000e-01 
 1.70000000e-01  3.18810101e-09  3.43242662e-09  3.15430598e-09  4.59956133e-01  3.08278223e-09  4.59956133e-01  3.23215017e-09  1.59883513e-07  6.42286970e-08  1.70000000e-01 
 1.80000000e-01  3.18810101e-09  3.43242662e-09  3.15430604e-09  4.59956125e-01  3.08278223e-09  4.59956125e-01  3.23215021e-09  1.59883516e-07  6.42285123e-08  1.80000000e-01 
 1.90000000e-01  3.18810101e-09  3.43242668e-09  3.15430604e-09  4.59956134e-01  3.08278223e-09  4.59956134e-01  3.23215016e-09  1.59883524e-07  6.42282654e-08  1.90000000e-01 
 2.00000000e-01  3.18810107e-09  3.43242662e-09  3.15430604e-09  4.59956156e-01  3.08278223e-09  4.59956156e-01  3.23215017e-09  1.59883578e-07  6.42281321e-08  2.00000000e-01 
 2.10000000e-01  3.18810101e-09  3.43242662e-09  3.15430604e-09  4.59956127e-01  3.08278223e-09  4.59956127e-01  3.23215016e-09  1.59883511e-07  6.42279385e-08  2.10000000e-01 
 2.20000000e-01  3.18810106e-09  3.43242662e-09  3.15430604e-09  4.59956147e-01  3.08278223e-09  4.59956147e-01  3.23215016e-09  1.59883555e-07  6.42278604e-08  2.20000000e-01 
 2.30000000e-01  3.18810101e-09  3.43242662e-09  3.15430604e-09  4.59956142e-01  3.08278223e-09  4.59956142e-01  3.23215016e-09  1.59883537e-07  6.42276241e-08  2.30000000e-01 
 2.40000000e-01  3.18810106e-09  3.43242662e-09  3.15430604e-09  4.59956116e-01  3.08278223e-09  4.59956116e-01  3.23215016e-09  1.59883496e-07  6.42275300e-08  2.40000000e-01 
 2.50000000e-01  3.18810106e-09  3.43242662e-09  3.15430604e-09  4.59956131e-01  3.08278229e-09  4.59956131e-01  3.23215016e-09  1.59883530e-07  6.42273914e-08  2.50000000e-01 
 2.60000000e-01  3.18810101e-09  3.43242662e-09  3.15430604e-09  4.59956122e-01  3.08278223e-09  4.59956122e-01  3.23215016e-09  1.59883512e-07  6.42271765e-08  2.60000000e-01 
 2.70000000e-01  3.18810101e-09  3.43242662e-09  3.15430604e-09  4.59956126e-01  3.08278229e-09  4.59956126e-01  3.23215016e-09  1.59883514e-07  6.42271214e-08  2.70000000e-01 
 2.80000000e-01  3.18810106e-09  3.43242662e-09  3.15430604e-09  4.59956121e-01  3.08278223e-09  4.59956121e-01  3.23215016e-09  1.59883502e-07  6.42271125e-08  2.80000000e-01 
 2.90000000e-01  3.18810106e-09  3.43242662e-09  3.15430604e-09  4.59956141e-01  3.08278223e-09  4.59956141e-01  3.23215016e-09  1.59883544e-07  6.42269029e-08  2.90000000e-01 
 3.00000000e-01  3.18810101e-09  3.43242662e-09  3.15430604e-09  4.59956113e-01  3.08278223e-09  4.59956113e-01  3.23215016e-09  1.59883498e-07  6.42268105e-08  3.00000000e-01 
 3.10000000e-01  3.18810106e-09  3.43242662e-09  3.15430604e-09  4.59956120e-01  3.08278223e-09  4.59956120e-01  3.23215016e-09  1.59883510e-07  6.42266400e-08  3.10000000e-01 
 3.20000000e-01  3.18810106e-09  3.43242662e-09  3.15430604e-09  4.59956140e-01  3.08278223e-09  4.59956140e-01  3.23215016e-09  1.59883536e-07  6.42265796e-08  3.20000000e-01 
 3.30000000e-01  3.18810106e-09  3.43242662e-09  3.15430604e-09  4.59956134e-01  3.08278223e-09  4.59956134e-01  3.23215016e-09  1.59883535e-07  6.42264801e-08  3.30000000e-01 
 3.40000000e-01  3.18810106e-09  3.43242662e-09  3.15430604e-09  4.59956134e-01  3.08278223e-09  4.59956134e-01  3.23215016e-09  1.59883525e-07  6.42263664e-08  3.40000000e-01 
 3.50000000e-01  3.18810106e-09  3.43242662e-09  3.15430604e-09  4.59956140e-01  3.08278223e-09  4.59956140e-01  3.23215016e-09  1.59883524e-07  6.42261924e-08  3.50000000e-01 
 3.60000000e-01  3.18810101e-09  3.43242662e-09  3.15430604e-09  4.59956142e-01  3.08278223e-09  4.59956142e-01  3.23215016e-09  1.59883540e-07  6.42262030e-08  3.60000000e-01 
 3.70000000e-01  3.18810101e-09  3.43242668e-09  3.15430604e-09  4.59956143e-01  3.08278223e-09  4.59956143e-01  3.23215011e-09  1.59883543e-07  6.42261107e-08  3.70000000e-01 
 3.80000000e-01  3.18810106e-09  3.43242662e-09  3.15430604e-09  4.59956145e-01  3.08278223e-09  4.59956145e-01  3.23215012e-09  1.59883547e-07  6.42261000e-08  3.80000000e-01 
 3.90000000e-01  3.18810106e-09  3.43242662e-09  3.15430604e-09  4.59956133e-01  3.08278223e-09  4.59956133e-01  3.23215011e-09  1.59883522e-07  6.42259366e-08  3.90000000e-01 
 4.00000000e-01  3.18810101e-09  3.43242662e-09  3.15430604e-09  4.59956120e-01  3.08278223e-09  4.59956120e-01  3.23215017e-09  1.59883498e-07  6.42259543e-08  4.00000000e-01 
 4.10000000e-01  3.18810106e-09  3.43242662e-09  3.15430604e-09  4.59956126e-01  3.08278223e-09  4.59956126e-01  3.23215016e-09  1.59883503e-07  6.42258016e-08  4.10000000e-01 
 4.20000000e-01  3.18810106e-09  3.43242662e-09  3.15430604e-09  4.59956138e-01  3.08278223e-09  4.59956138e-01  3.23215012e-09  1.59883528e-07  6.42257056e-08  4.20000000e-01 
 4.30000000e-01  3.18810106e-09  3.43242662e-09  3.15430604e-09  4.59956148e-01  3.08278223e-09  4.59956148e-01  3.23215017e-09  1.59883557e-07  6.42255173e-08  4.30000000e-01 
 4.40000000e-01  3.18810101e-09  3.43242662e-09  3.15430604e-09  4.59956127e-01  3.08278223e-09  4.59956127e-01  3.23215016e-09  1.59883527e-07  6.42254534e-08  4.40000000e-01 
 4.50000000e-01  3.18810106e-09  3.43242662e-09  3.15430604e-09  4.59956123e-01  3.08278223e-09  4.59956123e-01  3.23215017e-09  1.59883501e-07  6.42254783e-08  4.50000000e-01 
 4.60000000e-01  3.18810101e-09  3.43242662e-09  3.15430604e-09  4.59956132e-01  3.08278223e-09  4.59956132e-01  3.23215016e-09  1.59883514e-07  6.42254392e-08  4.60000000e-01 
 4.70000000e-01  3.18810101e-09  3.43242662e-09  3.15430604e-09  4.59956127e-01  3.08278223e-09  4.59956127e-01  3.23215018e-09  1.59883525e-07  6.42252935e-08  4.70000000e-01 
 4.80000000e-01  3.18810106e-09  3.43242662e-09  3.15430604e-09  4.59956140e-01  3.08278223e-09  4.59956140e-01  3.23215016e-09  1.59883527e-07  6.42252118e-08  4.80000000e-01 
 4.90000000e-01  3.18810101e-09  3.43242662e-09  3.15430604e-09  4.59956131e-01  3.08278223e-09  4.59956131e-01  3.23215018e-09  1.59883531e-07  6.42252225e-08  4.90000000e-01 
 5.00000000e-01  3.18810106e-09  3.43242662e-09  3.15430604e-09  4.59956141e-01  3.08278223e-09  4.59956141e-01  3.23215016e-09  1.59883536e-07  6.42250804e-08  5.00000000e-01 
 5.10000000e-01  3.18810101e-09  3.43242662e-09  3.15430604e-09  4.59956144e-01  3.08278223e-09  4.59956144e-01  3.23215018e-09  1.59883549e-07  6.42249844e-08  5.10000000e-01 
 5.20000000e-01  3.18810101e-09  3.43242662e-09  3.15430604e-09  4.59956131e-01  3.08278229e-09  4.59956131e-01  3.23215016e-09  1.59883529e-07  6.42250129e-08  5.20000000e-01 
 5.30000000e-01  3.18810101e-09  3.43242662e-09  3.15430604e-09  4.59956129e-01  3.08278223e-09  4.59956129e-01  3.23215012e-09  1.59883510e-07  6.42249525e-08  5.30000000e-01 
 5.40000000e-01  3.18810101e-09  3.43242662e-09  3.15430604e-09  4.59956150e-01  3.08278223e-09  4.59956150e-01  3.23215017e-09  1.59883548e-07  6.42249347e-08  5.40000000e-01 
 5.50000000e-01  3.18810101e-09  3.43242662e-09  3.15430604e-09  4.59956133e-01  3.08278223e-09  4.59956133e-01  3.23215016e-09  1.59883530e-07  6.42248317e-08  5.50000000e-01 
 5.60000000e-01  3.18810101e-09  3.43242662e-09  3.15430598e-09  4.59956139e-01  3.08278229e-09  4.59956139e-01  3.23215018e-09  1.59883536e-07  6.42246825e-08  5.60000000e-01 
 5.70000000e-01  3.18810101e-09  3.43242662e-09  3.15430604e-09  4.59956147e-01  3.08278223e-09  4.59956147e-01  3.23215016e-09  1.59883552e-07  6.42246611e-08  5.70000000e-01 
 5.80000000e-01  3.18810106e-09  3.43242662e-09  3.15430604e-09  4.59956123e-01  3.08278223e-09  4.59956123e-01  3.23215017e-09  1.59883518e-07  6.42246576e-08  5.80000000e-01 
 5.90000000e-01  3.18810106e-09  3.43242662e-09  3.15430604e-09  4.59956126e-01  3.08278223e-09  4.59956126e-01  3.23215016e-09  1.59883518e-07  6.42244729e-08  5.90000000e-01 
 6.00000000e-01  3.18810101e-09  3.43242662e-09  3.15430604e-09  4.59956156e-01  3.08278223e-09  4.59956156e-01  3.23215018e-09  1.59883560e-07  6.42244515e-08  6.00000000e-01 
 6.10000000e-01  3.18810101e-09  3.43242662e-09  3.15430604e-09  4.59956131e-01  3.08278229e-09  4.59956131e-01  3.23215016e-09  1.59883525e-07  6.42244302e-08  6.10000000e-01 
 6.20000000e-01  3.18810101e-09  3.43242662e-09  3.15430604e-09  4.59956142e-01  3.08278223e-09  4.59956142e-01  3.23215018e-09  1.59883541e-07  6.42244018e-08  6.20000000e-01 
 6.30000000e-01  3.18810101e-09  3.43242662e-09  3.15430604e-09  4.59956135e-01  3.08278223e-09  4.59956135e-01  3.23215016e-09  1.59883542e-07  6.42242028e-08  6.30000000e-01 
 6.40000000e-01  3.18810101e-09  3.43242662e-09  3.15430604e-09  4.59956117e-01  3.08278223e-09  4.59956117e-01  3.23215017e-09  1.59883492e-07  6.42241815e-08  6.40000000e-01 
 6.50000000e-01  3.18810106e-09  3.43242662e-09  3.15430604e-09  4.59956127e-01  3.08278223e-09  4.59956127e-01  3.23215016e-09  1.59883505e-07  6.42241460e-08  6.50000000e-01 
 6.60000000e-01  3.18810106e-09  3.43242662e-09  3.15430604e-09  4.59956135e-01  3.08278223e-09  4.59956135e-01  3.23215018e-09  1.59883525e-07  6.42240607e-08  6.60000000e-01 
 6.70000000e-01  3.18810101e-09  3.43242662e-09  3.15430604e-09  4.59956146e-01  3.08278223e-09  4.59956146e-01  3.23215016e-09  1.59883547e-07  6.42239755e-08  6.70000000e-01 
 6.80000000e-01  3.18810106e-09  3.43242662e-09  3.15430604e-09  4.59956142e-01  3.08278223e-09  4.59956142e-01  3.23215012e-09  1.59883540e-07  6.42239186e-08  6.80000000e-01 
 6.90000000e-01  3.18810106e-09  3.43242662e-09  3.15430604e-09  4.59956123e-01  3.08278223e-09  4.59956123e-01  3.23215017e-09  1.59883502e-07  6.42238902e-08  6.90000000e-01 
 7.00000000e-01  3.18810101e-09  3.43242662e-09  3.15430604e-09  4.59956129e-01  3.08278223e-09  4.59956129e-01  3.23215016e-09  1.59883522e-07  6.42238120e-08  7.00000000e-01 
 7.10000000e-01  3.18810101e-09  3.43242662e-09  3.15430604e-09  4.59956119e-01  3.08278223e-09  4.59956119e-01  3.23215017e-09  1.59883498e-07  6.42236841e-08  7.10000000e-01 
 7.20000000e-01  3.18810106e-09  3.43242662e-09  3.15430604e-09  4.59956127e-01  3.08278223e-09  4.59956127e-01  3.23215016e-09  1.59883510e-07  6.42237623e-08  7.20000000e-01 
 7.30000000e-01  3.18810106e-09  3.43242662e-09  3.15430604e-09  4.59956115e-01  3.08278223e-09  4.59956115e-01  3.23215017e-09  1.59883505e-07  6.42235847e-08  7.30000000e-01 
 7.40000000e-01  3.18810106e-09  3.43242662e-09  3.15430604e-09  4.59956133e-01  3.08278223e-09  4.59956133e-01  3.23215016e-09  1.59883530e-07  6.42234852e-08  7.40000000e-01 
 7.50000000e-01  3.18810106e-09  3.43242662e-09  3.15430604e-09  4.59956146e-01  3.08278223e-09  4.59956146e-01  3.23215018e-09  1.59883542e-07  6.42235563e-08  7.50000000e-01 
 7.60000000e-01  3.18810106e-09  3.43242662e-09  3.15430604e-09  4.59956132e-01  3.08278223e-09  4.59956132e-01  3.23215016e-09  1.59883536e-07  6.42234852e-08  7.60000000e-01 
 7.70000000e-01  3.18810106e-09  3.43242662e-09  3.15430604e-09  4.59956129e-01  3.08278229e-09  4.59956129e-01  3.23215012e-09  1.59883512e-07  6.42233360e-08  7.70000000e-01 
 7.80000000e-01  3.18810106e-09  3.43242662e-09  3.15430604e-09  4.59956134e-01  3.08278223e-09  4.59956134e-01  3.23215017e-09  1.59883528e-07  6.42233502e-08  7.80000000e-01 
 7.90000000e-01  3.18810106e-09  3.43242662e-09  3.15430604e-09  4.59956126e-01  3.08278223e-09  4.59956126e-01  3.23215016e-09  1.59883520e-07  6.42231868e-08  7.90000000e-01 
 8.00000000e-01  3.18810106e-09  3.43242662e-09  3.15430604e-09  4.59956136e-01  3.08278223e-09  4.59956136e-01  3.23215012e-09  1.59883526e-07  6.42231370e-08  8.00000000e-01 
 8.10000000e-01  3.18810101e-09  3.43242662e-09  3.15430604e-09  4.59956154e-01  3.08278223e-09  4.59956154e-01  3.23215011e-09  1.59883548e-07  6.42231868e-08  8.10000000e-01 
 8.20000000e-01  3.18810106e-09  3.43242662e-09  3.15430604e-09  4.59956110e-01  3.08278223e-09  4.59956110e-01  3.23215017e-09  1.59883494e-07  6.42230802e-08  8.20000000e-01 
 8.30000000e-01  3.18810106e-09  3.43242662e-09  3.15430604e-09  4.59956130e-01  3.08278223e-09  4.59956130e-01  3.23215016e-09  1.59883525e-07  6.42229736e-08  8.30000000e-01 
 8.40000000e-01  3.18810101e-09  3.43242662e-09  3.15430604e-09  4.59956138e-01  3.08278223e-09  4.59956138e-01  3.23215018e-09  1.59883537e-07  6.42229097e-08  8.40000000e-01 
 8.50000000e-01  3.18810106e-09  3.43242662e-09  3.15430604e-09  4.59956122e-01  3.08278229e-09  4.59956122e-01  3.23215016e-09  1.59883512e-07  6.42229594e-08  8.50000000e-01 
 8.60000000e-01  3.18810101e-09  3.43242662e-09  3.15430604e-09  4.59956138e-01  3.08278223e-09  4.59956138e-01  3.23215012e-09  1.59883532e-07  6.42227889e-08  8.60000000e-01 
 8.70000000e-01  3.18810101e-09  3.43242662e-09  3.15430604e-09  4.59956149e-01  3.08278223e-09  4.59956149e-01  3.23215011e-09  1.59883549e-07  6.42227818e-08  8.70000000e-01 
 8.80000000e-01  3.18810106e-09  3.43242662e-09  3.15430604e-09  4.59956142e-01  3.08278223e-09  4.59956142e-01  3.23215017e-09  1.59883538e-07  6.42226254e-08  8.80000000e-01 
 8.90000000e-01  3.18810101e-09  3.43242662e-09  3.15430604e-09  4.59956148e-01  3.08278223e-09  4.59956148e-01  3.23215016e-09  1.59883537e-07  6.42225970e-08  8.90000000e-01 
 9.00000000e-01  3.18810101e-09  3.43242662e-09  3.15430604e-09  4.59956132e-01  3.08278223e-09  4.59956132e-01  3.23215018e-09  1.59883529e-07  6.42225260e-08  9.00000000e-01 
 9.10000000e-01  3.18810106e-09  3.43242662e-09  3.15430598e-09  4.59956130e-01  3.08278223e-09  4.59956130e-01  3.23215016e-09  1.59883530e-07  6.42225544e-08  9.10000000e-01 
 9.20000000e-01  3.18810101e-09  3.43242662e-09  3.15430604e-09  4.59956145e-01  3.08278223e-09  4.59956145e-01  3.23215018e-09  1.59883537e-07  6.42224549e-08  9.20000000e-01 
 9.30000000e-01  3.18810106e-09  3.43242662e-09  3.15430604e-09  4.59956128e-01  3.08278223e-09  4.59956128e-01  3.23215016e-09  1.59883512e-07  6.42222773e-08  9.30000000e-01 
 9.40000000e-01  3.18810101e-09  3.43242662e-09  3.15430604e-09  4.59956130e-01  3.08278223e-09  4.59956130e-01  3.23215012e-09  1.59883527e-07  6.42222915e-08  9.40000000e-01 
 9.50000000e-01  3.18810101e-09  3.43242662e-09  3.15430604e-09  4.59956126e-01  3.08278229e-09  4.59956126e-01  3.23215017e-09  1.59883511e-07  6.42222133e-08  9.50000000e-01 
 9.60000000e-01  3.18810101e-09  3.43242662e-09  3.15430604e-09  4.59956148e-01  3.08278223e-09  4.59956148e-01  3.23215016e-09  1.59883548e-07  6.42221920e-08  9.60000000e-01 
 9.70000000e-01  3.18810106e-09  3.43242662e-09  3.15430604e-09  4.59956143e-01  3.08278223e-09  4.59956143e-01  3.23215012e-09  1.59883527e-07  6.42220428e-08  9.70000000e-01 
 9.80000000e-01  3.18810101e-09  3.43242662e-09  3.15430604e-09  4.59956144e-01  3.08278223e-09  4.59956144e-01  3.23215017e-09  1.59883536e-07  6.42220144e-08  9.80000000e-01 
 9.90000000e-01  3.18810107e-09  3.43242662e-09  3.15430604e-09  4.59956166e-01  3.08278223e-09  4.59956166e-01  3.23215016e-09  1.59883585e-07  6.42219362e-08  9.90000000e-01 
 1.00000000e+00  3.18810106e-09  3.43242662e-09  3.15430604e-09  4.59956127e-01  3.08278223e-09  4.59956127e-01  3.23215016e-09  1.59883507e-07  6.42218012e-08  1.00000000e+00 
 1.01000000e+00  3.18810106e-09  3.43242662e-09  3.15430604e-09  4.59956128e-01  3.08278223e-09  4.59956128e-01  3.23215016e-09  1.59883521e-07  6.42217870e-08  1.01000000e+00 
 1.02000000e+00  3.18810106e-09  3.43242662e-09  3.15430604e-09  4.59956137e-01  3.08278223e-09  4.59956137e-01  3.23215016e-09  1.59883529e-07  6.42217870e-08  1.02000000e+00 
 1.03000000e+00  3.18810106e-09  3.43242662e-09  3.15430604e-09  4.59956130e-01  3.08278223e-09  4.59956130e-01  3.23215016e-09  1.59883523e-07  6.42216449e-08  1.03000000e+00 
 1.04000000e+00  3.18810101e-09  3.43242662e-09  3.15430604e-09  4.59956125e-01  3.08278223e-09  4.59956125e-01  3.23215016e-09  1.59883516e-07  6.42215809e-08  1.04000000e+00 
 1.05000000e+00  3.18810106e-09  3.43242662e-09  3.15430604e-09  4.59956116e-01  3.08278223e-09  4.59956116e-01  3.23215016e-09  1.59883501e-07  6.42214530e-08  1.05000000e+00 
 1.06000000e+00  3.18810106e-09  3.43242662e-09  3.15430604e-09  4.59956139e-01  3.08278223e-09  4.59956139e-01  3.23215016e-09  1.59883522e-07  6.42215312e-08  1.06000000e+00 
 1.07000000e+00  3.18810106e-09  3.43242662e-09  3.15430598e-09  4.59956140e-01  3.08278229e-09  4.59956140e-01  3.23215016e-09  1.59883535e-07  6.42213251e-08  1.07000000e+00 
 1.08000000e+00  3.18810107e-09  3.43242668e-09  3.15430598e-09  4.59956156e-01  3.08278223e-09  4.59956156e-01  3.23215017e-09  1.59883564e-07  6.42213323e-08  1.08000000e+00 
 1.09000000e+00  3.18810101e-09  3.43242662e-09  3.15430604e-09  4.59956118e-01  3.08278223e-09  4.59956118e-01  3.23215016e-09  1.59883498e-07  6.42212115e-08  1.09000000e+00 
 1.10000000e+00  3.18810106e-09  3.43242662e-09  3.15430604e-09  4.59956138e-01  3.08278223e-09  4.59956138e-01  3.23215016e-09  1.59883537e-07  6.42212257e-08  1.10000000e+00 
