 v-sweep         v(b0)           v(b1)           v(b2)           v(b3)           v(b4)           v(b5)           v(b6)           i(vbias)        i(viout)        v(vout)        
 0.00000000e+00  3.27170272e-09  3.05359074e-09  4.58368698e-01  3.59595580e-09  4.58368698e-01  4.58368698e-01  4.58368698e-01  1.60213505e-07  1.77161213e-07  0.00000000e+00 
 1.00000000e-02  3.27170269e-09  3.05359077e-09  4.58368717e-01  3.59595577e-09  4.58368717e-01  4.58368717e-01  4.58368717e-01  1.60213544e-07  1.77160857e-07  1.00000000e-02 
 2.00000000e-02  3.27170269e-09  3.05359077e-09  4.58368699e-01  3.59595577e-09  4.58368699e-01  4.58368699e-01  4.58368699e-01  1.60213509e-07  1.77160310e-07  2.00000000e-02 
 3.00000000e-02  3.27170275e-09  3.05359077e-09  4.58368732e-01  3.59595577e-09  4.58368732e-01  4.58368732e-01  4.58368732e-01  1.60213553e-07  1.77160077e-07  3.00000000e-02 
 4.00000000e-02  3.27170274e-09  3.05359077e-09  4.58368719e-01  3.59595577e-09  4.58368719e-01  4.58368719e-01  4.58368719e-01  1.60213527e-07  1.77159613e-07  4.00000000e-02 
 5.00000000e-02  3.27170269e-09  3.05359077e-09  4.58368725e-01  3.59595577e-09  4.58368725e-01  4.58368725e-01  4.58368725e-01  1.60213552e-07  1.77159186e-07  5.00000000e-02 
 6.00000000e-02  3.27170269e-09  3.05359077e-09  4.58368720e-01  3.59595577e-09  4.58368720e-01  4.58368720e-01  4.58368721e-01  1.60213531e-07  1.77158737e-07  6.00000000e-02 
 7.00000000e-02  3.27170274e-09  3.05359077e-09  4.58368692e-01  3.59595582e-09  4.58368692e-01  4.58368692e-01  4.58368692e-01  1.60213499e-07  1.77158415e-07  7.00000000e-02 
 8.00000000e-02  3.27170269e-09  3.05359077e-09  4.58368701e-01  3.59595577e-09  4.58368701e-01  4.58368701e-01  4.58368701e-01  1.60213523e-07  1.77157948e-07  8.00000000e-02 
 9.00000000e-02  3.27170274e-09  3.05359077e-09  4.58368697e-01  3.59595577e-09  4.58368697e-01  4.58368697e-01  4.58368697e-01  1.60213501e-07  1.77157684e-07  9.00000000e-02 
 1.00000000e-01  3.27170274e-09  3.05359077e-09  4.58368705e-01  3.59595577e-09  4.58368705e-01  4.58368705e-01  4.58368705e-01  1.60213517e-07  1.77157346e-07  1.00000000e-01 
 1.10000000e-01  3.27170274e-09  3.05359077e-09  4.58368721e-01  3.59595577e-09  4.58368721e-01  4.58368721e-01  4.58368721e-01  1.60213536e-07  1.77157139e-07  1.10000000e-01 
 1.20000000e-01  3.27170274e-09  3.05359077e-09  4.58368693e-01  3.59595577e-09  4.58368693e-01  4.58368693e-01  4.58368693e-01  1.60213482e-07  1.77156692e-07  1.20000000e-01 
 1.30000000e-01  3.27170274e-09  3.05359077e-09  4.58368688e-01  3.59595577e-09  4.58368688e-01  4.58368688e-01  4.58368688e-01  1.60213491e-07  1.77156347e-07  1.30000000e-01 
 1.40000000e-01  3.27170269e-09  3.05359077e-09  4.58368704e-01  3.59595583e-09  4.58368704e-01  4.58368704e-01  4.58368704e-01  1.60213519e-07  1.77156153e-07  1.40000000e-01 
 1.50000000e-01  3.27170269e-09  3.05359077e-09  4.58368719e-01  3.59595577e-09  4.58368719e-01  4.58368719e-01  4.58368719e-01  1.60213523e-07  1.77156048e-07  1.50000000e-01 
 1.60000000e-01  3.27170269e-09  3.05359077e-09  4.58368710e-01  3.59595577e-09  4.58368710e-01  4.58368710e-01  4.58368710e-01  1.60213511e-07  1.77155668e-07  1.60000000e-01 
 1.70000000e-01  3.27170274e-09  3.05359077e-09  4.58368698e-01  3.59595577e-09  4.58368698e-01  4.58368697e-01  4.58368698e-01  1.60213493e-07  1.77155336e-07  1.70000000e-01 
 1.80000000e-01  3.27170274e-09  3.05359077e-09  4.58368698e-01  3.59595577e-09  4.58368698e-01  4.58368698e-01  4.58368698e-01  1.60213506e-07  1.77155172e-07  1.80000000e-01 
 1.90000000e-01  3.27170269e-09  3.05359077e-09  4.58368708e-01  3.59595577e-09  4.58368708e-01  4.58368708e-01  4.58368708e-01  1.60213512e-07  1.77154824e-07  1.90000000e-01 
 2.00000000e-01  3.27170274e-09  3.05359077e-09  4.58368694e-01  3.59595583e-09  4.58368694e-01  4.58368694e-01  4.58368694e-01  1.60213486e-07  1.77154552e-07  2.00000000e-01 
 2.10000000e-01  3.27170274e-09  3.05359077e-09  4.58368710e-01  3.59595577e-09  4.58368710e-01  4.58368710e-01  4.58368710e-01  1.60213525e-07  1.77154352e-07  2.10000000e-01 
 2.20000000e-01  3.27170269e-09  3.05359077e-09  4.58368694e-01  3.59595583e-09  4.58368694e-01  4.58368694e-01  4.58368694e-01  1.60213495e-07  1.77154202e-07  2.20000000e-01 
 2.30000000e-01  3.27170269e-09  3.05359077e-09  4.58368708e-01  3.59595577e-09  4.58368708e-01  4.58368708e-01  4.58368708e-01  1.60213526e-07  1.77154035e-07  2.30000000e-01 
 2.40000000e-01  3.27170274e-09  3.05359077e-09  4.58368692e-01  3.59595577e-09  4.58368692e-01  4.58368692e-01  4.58368692e-01  1.60213495e-07  1.77153638e-07  2.40000000e-01 
 2.50000000e-01  3.27170274e-09  3.05359077e-09  4.58368697e-01  3.59595583e-09  4.58368697e-01  4.58368697e-01  4.58368697e-01  1.60213505e-07  1.77153645e-07  2.50000000e-01 
 2.60000000e-01  3.27170269e-09  3.05359077e-09  4.58368702e-01  3.59595577e-09  4.58368702e-01  4.58368702e-01  4.58368702e-01  1.60213514e-07  1.77153320e-07  2.60000000e-01 
 2.70000000e-01  3.27170274e-09  3.05359077e-09  4.58368687e-01  3.59595577e-09  4.58368687e-01  4.58368687e-01  4.58368687e-01  1.60213479e-07  1.77153039e-07  2.70000000e-01 
 2.80000000e-01  3.27170274e-09  3.05359077e-09  4.58368717e-01  3.59595577e-09  4.58368717e-01  4.58368717e-01  4.58368717e-01  1.60213526e-07  1.77152998e-07  2.80000000e-01 
 2.90000000e-01  3.27170269e-09  3.05359077e-09  4.58368704e-01  3.59595577e-09  4.58368704e-01  4.58368704e-01  4.58368704e-01  1.60213512e-07  1.77152707e-07  2.90000000e-01 
 3.00000000e-01  3.27170269e-09  3.05359077e-09  4.58368696e-01  3.59595577e-09  4.58368696e-01  4.58368696e-01  4.58368697e-01  1.60213511e-07  1.77152643e-07  3.00000000e-01 
 3.10000000e-01  3.27170269e-09  3.05359077e-09  4.58368691e-01  3.59595582e-09  4.58368691e-01  4.58368690e-01  4.58368691e-01  1.60213489e-07  1.77152359e-07  3.10000000e-01 
 3.20000000e-01  3.27170269e-09  3.05359077e-09  4.58368724e-01  3.59595577e-09  4.58368724e-01  4.58368724e-01  4.58368724e-01  1.60213532e-07  1.77152319e-07  3.20000000e-01 
 3.30000000e-01  3.27170269e-09  3.05359077e-09  4.58368727e-01  3.59595583e-09  4.58368727e-01  4.58368727e-01  4.58368727e-01  1.60213547e-07  1.77152224e-07  3.30000000e-01 
 3.40000000e-01  3.27170269e-09  3.05359077e-09  4.58368702e-01  3.59595577e-09  4.58368702e-01  4.58368702e-01  4.58368702e-01  1.60213522e-07  1.77151907e-07  3.40000000e-01 
 3.50000000e-01  3.27170269e-09  3.05359077e-09  4.58368720e-01  3.59595577e-09  4.58368720e-01  4.58368720e-01  4.58368720e-01  1.60213547e-07  1.77151769e-07  3.50000000e-01 
 3.60000000e-01  3.27170269e-09  3.05359077e-09  4.58368712e-01  3.59595577e-09  4.58368712e-01  4.58368712e-01  4.58368712e-01  1.60213521e-07  1.77151634e-07  3.60000000e-01 
 3.70000000e-01  3.27170269e-09  3.05359077e-09  4.58368694e-01  3.59595577e-09  4.58368694e-01  4.58368694e-01  4.58368694e-01  1.60213489e-07  1.77151367e-07  3.70000000e-01 
 3.80000000e-01  3.27170269e-09  3.05359077e-09  4.58368708e-01  3.59595583e-09  4.58368708e-01  4.58368707e-01  4.58368708e-01  1.60213520e-07  1.77151250e-07  3.80000000e-01 
 3.90000000e-01  3.27170274e-09  3.05359077e-09  4.58368705e-01  3.59595577e-09  4.58368705e-01  4.58368705e-01  4.58368705e-01  1.60213503e-07  1.77151172e-07  3.90000000e-01 
 4.00000000e-01  3.27170269e-09  3.05359077e-09  4.58368687e-01  3.59595577e-09  4.58368687e-01  4.58368687e-01  4.58368687e-01  1.60213511e-07  1.77150955e-07  4.00000000e-01 
 4.10000000e-01  3.27170269e-09  3.05359077e-09  4.58368709e-01  3.59595577e-09  4.58368709e-01  4.58368709e-01  4.58368709e-01  1.60213509e-07  1.77150866e-07  4.10000000e-01 
 4.20000000e-01  3.27170269e-09  3.05359077e-09  4.58368709e-01  3.59595583e-09  4.58368709e-01  4.58368709e-01  4.58368709e-01  1.60213514e-07  1.77150717e-07  4.20000000e-01 
 4.30000000e-01  3.27170274e-09  3.05359077e-09  4.58368714e-01  3.59595577e-09  4.58368714e-01  4.58368714e-01  4.58368714e-01  1.60213530e-07  1.77150625e-07  4.30000000e-01 
 4.40000000e-01  3.27170269e-09  3.05359077e-09  4.58368715e-01  3.59595583e-09  4.58368715e-01  4.58368715e-01  4.58368715e-01  1.60213519e-07  1.77150405e-07  4.40000000e-01 
 4.50000000e-01  3.27170274e-09  3.05359077e-09  4.58368685e-01  3.59595577e-09  4.58368685e-01  4.58368685e-01  4.58368685e-01  1.60213482e-07  1.77150064e-07  4.50000000e-01 
 4.60000000e-01  3.27170274e-09  3.05359077e-09  4.58368726e-01  3.59595577e-09  4.58368726e-01  4.58368726e-01  4.58368726e-01  1.60213562e-07  1.77150298e-07  4.60000000e-01 
 4.70000000e-01  3.27170269e-09  3.05359077e-09  4.58368693e-01  3.59595577e-09  4.58368693e-01  4.58368693e-01  4.58368693e-01  1.60213488e-07  1.77149854e-07  4.70000000e-01 
 4.80000000e-01  3.27170274e-09  3.05359077e-09  4.58368694e-01  3.59595577e-09  4.58368694e-01  4.58368694e-01  4.58368694e-01  1.60213508e-07  1.77149889e-07  4.80000000e-01 
 4.90000000e-01  3.27170274e-09  3.05359077e-09  4.58368701e-01  3.59595577e-09  4.58368701e-01  4.58368701e-01  4.58368701e-01  1.60213507e-07  1.77149680e-07  4.90000000e-01 
 5.00000000e-01  3.27170274e-09  3.05359077e-09  4.58368705e-01  3.59595577e-09  4.58368705e-01  4.58368704e-01  4.58368705e-01  1.60213499e-07  1.77149513e-07  5.00000000e-01 
 5.10000000e-01  3.27170274e-09  3.05359071e-09  4.58368708e-01  3.59595583e-09  4.58368708e-01  4.58368708e-01  4.58368708e-01  1.60213520e-07  1.77149467e-07  5.10000000e-01 
 5.20000000e-01  3.27170275e-09  3.05359077e-09  4.58368733e-01  3.59595583e-09  4.58368733e-01  4.58368733e-01  4.58368733e-01  1.60213551e-07  1.77149371e-07  5.20000000e-01 
 5.30000000e-01  3.27170269e-09  3.05359077e-09  4.58368686e-01  3.59595577e-09  4.58368686e-01  4.58368686e-01  4.58368686e-01  1.60213498e-07  1.77149104e-07  5.30000000e-01 
 5.40000000e-01  3.27170274e-09  3.05359077e-09  4.58368708e-01  3.59595577e-09  4.58368708e-01  4.58368708e-01  4.58368708e-01  1.60213522e-07  1.77149019e-07  5.40000000e-01 
 5.50000000e-01  3.27170274e-09  3.05359077e-09  4.58368703e-01  3.59595577e-09  4.58368703e-01  4.58368702e-01  4.58368703e-01  1.60213508e-07  1.77148742e-07  5.50000000e-01 
 5.60000000e-01  3.27170274e-09  3.05359077e-09  4.58368704e-01  3.59595577e-09  4.58368704e-01  4.58368704e-01  4.58368704e-01  1.60213519e-07  1.77148678e-07  5.60000000e-01 
 5.70000000e-01  3.27170269e-09  3.05359077e-09  4.58368709e-01  3.59595577e-09  4.58368709e-01  4.58368709e-01  4.58368709e-01  1.60213515e-07  1.77148500e-07  5.70000000e-01 
 5.80000000e-01  3.27170269e-09  3.05359077e-09  4.58368713e-01  3.59595577e-09  4.58368713e-01  4.58368713e-01  4.58368713e-01  1.60213527e-07  1.77148294e-07  5.80000000e-01 
 5.90000000e-01  3.27170269e-09  3.05359077e-09  4.58368712e-01  3.59595577e-09  4.58368712e-01  4.58368712e-01  4.58368712e-01  1.60213525e-07  1.77148230e-07  5.90000000e-01 
 6.00000000e-01  3.27170269e-09  3.05359077e-09  4.58368696e-01  3.59595583e-09  4.58368696e-01  4.58368696e-01  4.58368696e-01  1.60213496e-07  1.77148024e-07  6.00000000e-01 
 6.10000000e-01  3.27170269e-09  3.05359077e-09  4.58368708e-01  3.59595577e-09  4.58368708e-01  4.58368708e-01  4.58368708e-01  1.60213521e-07  1.77148102e-07  6.10000000e-01 
 6.20000000e-01  3.27170269e-09  3.05359077e-09  4.58368695e-01  3.59595577e-09  4.58368695e-01  4.58368695e-01  4.58368695e-01  1.60213485e-07  1.77147811e-07  6.20000000e-01 
 6.30000000e-01  3.27170269e-09  3.05359077e-09  4.58368709e-01  3.59595577e-09  4.58368709e-01  4.58368709e-01  4.58368709e-01  1.60213506e-07  1.77147761e-07  6.30000000e-01 
 6.40000000e-01  3.27170269e-09  3.05359077e-09  4.58368705e-01  3.59595577e-09  4.58368705e-01  4.58368705e-01  4.58368705e-01  1.60213514e-07  1.77147648e-07  6.40000000e-01 
 6.50000000e-01  3.27170274e-09  3.05359077e-09  4.58368690e-01  3.59595577e-09  4.58368690e-01  4.58368690e-01  4.58368690e-01  1.60213505e-07  1.77147363e-07  6.50000000e-01 
 6.60000000e-01  3.27170269e-09  3.05359077e-09  4.58368694e-01  3.59595577e-09  4.58368694e-01  4.58368694e-01  4.58368694e-01  1.60213514e-07  1.77147179e-07  6.60000000e-01 
 6.70000000e-01  3.27170274e-09  3.05359077e-09  4.58368718e-01  3.59595583e-09  4.58368718e-01  4.58368718e-01  4.58368718e-01  1.60213542e-07  1.77147072e-07  6.70000000e-01 
 6.80000000e-01  3.27170274e-09  3.05359077e-09  4.58368721e-01  3.59595577e-09  4.58368721e-01  4.58368721e-01  4.58368721e-01  1.60213536e-07  1.77147015e-07  6.80000000e-01 
 6.90000000e-01  3.27170269e-09  3.05359077e-09  4.58368689e-01  3.59595577e-09  4.58368689e-01  4.58368689e-01  4.58368689e-01  1.60213501e-07  1.77146809e-07  6.90000000e-01 
 7.00000000e-01  3.27170274e-09  3.05359077e-09  4.58368709e-01  3.59595577e-09  4.58368709e-01  4.58368709e-01  4.58368709e-01  1.60213534e-07  1.77146802e-07  7.00000000e-01 
 7.10000000e-01  3.27170269e-09  3.05359071e-09  4.58368709e-01  3.59595577e-09  4.58368709e-01  4.58368709e-01  4.58368709e-01  1.60213510e-07  1.77146674e-07  7.10000000e-01 
 7.20000000e-01  3.27170274e-09  3.05359077e-09  4.58368720e-01  3.59595583e-09  4.58368720e-01  4.58368719e-01  4.58368720e-01  1.60213532e-07  1.77146582e-07  7.20000000e-01 
 7.30000000e-01  3.27170274e-09  3.05359077e-09  4.58368714e-01  3.59595583e-09  4.58368714e-01  4.58368714e-01  4.58368714e-01  1.60213522e-07  1.77146333e-07  7.30000000e-01 
 7.40000000e-01  3.27170269e-09  3.05359077e-09  4.58368714e-01  3.59595577e-09  4.58368714e-01  4.58368714e-01  4.58368714e-01  1.60213514e-07  1.77146177e-07  7.40000000e-01 
 7.50000000e-01  3.27170269e-09  3.05359077e-09  4.58368713e-01  3.59595577e-09  4.58368713e-01  4.58368713e-01  4.58368713e-01  1.60213522e-07  1.77146013e-07  7.50000000e-01 
 7.60000000e-01  3.27170274e-09  3.05359077e-09  4.58368713e-01  3.59595577e-09  4.58368713e-01  4.58368713e-01  4.58368713e-01  1.60213517e-07  1.77145907e-07  7.60000000e-01 
 7.70000000e-01  3.27170269e-09  3.05359077e-09  4.58368700e-01  3.59595583e-09  4.58368700e-01  4.58368700e-01  4.58368700e-01  1.60213499e-07  1.77145658e-07  7.70000000e-01 
 7.80000000e-01  3.27170269e-09  3.05359077e-09  4.58368713e-01  3.59595577e-09  4.58368713e-01  4.58368713e-01  4.58368713e-01  1.60213525e-07  1.77145544e-07  7.80000000e-01 
 7.90000000e-01  3.27170269e-09  3.05359077e-09  4.58368700e-01  3.59595577e-09  4.58368700e-01  4.58368700e-01  4.58368700e-01  1.60213497e-07  1.77145424e-07  7.90000000e-01 
 8.00000000e-01  3.27170274e-09  3.05359077e-09  4.58368702e-01  3.59595577e-09  4.58368702e-01  4.58368702e-01  4.58368702e-01  1.60213506e-07  1.77145211e-07  8.00000000e-01 
 8.10000000e-01  3.27170274e-09  3.05359077e-09  4.58368708e-01  3.59595583e-09  4.58368708e-01  4.58368708e-01  4.58368708e-01  1.60213507e-07  1.77145139e-07  8.10000000e-01 
 8.20000000e-01  3.27170269e-09  3.05359077e-09  4.58368700e-01  3.59595577e-09  4.58368700e-01  4.58368700e-01  4.58368700e-01  1.60213500e-07  1.77144898e-07  8.20000000e-01 
 8.30000000e-01  3.27170269e-09  3.05359077e-09  4.58368724e-01  3.59595583e-09  4.58368724e-01  4.58368724e-01  4.58368724e-01  1.60213529e-07  1.77144834e-07  8.30000000e-01 
 8.40000000e-01  3.27170269e-09  3.05359077e-09  4.58368707e-01  3.59595577e-09  4.58368707e-01  4.58368707e-01  4.58368707e-01  1.60213505e-07  1.77144720e-07  8.40000000e-01 
 8.50000000e-01  3.27170269e-09  3.05359077e-09  4.58368703e-01  3.59595577e-09  4.58368703e-01  4.58368703e-01  4.58368703e-01  1.60213521e-07  1.77144621e-07  8.50000000e-01 
 8.60000000e-01  3.27170269e-09  3.05359077e-09  4.58368706e-01  3.59595577e-09  4.58368706e-01  4.58368706e-01  4.58368706e-01  1.60213518e-07  1.77144337e-07  8.60000000e-01 
 8.70000000e-01  3.27170274e-09  3.05359077e-09  4.58368705e-01  3.59595577e-09  4.58368705e-01  4.58368705e-01  4.58368705e-01  1.60213515e-07  1.77144038e-07  8.70000000e-01 
 8.80000000e-01  3.27170269e-09  3.05359077e-09  4.58368701e-01  3.59595583e-09  4.58368701e-01  4.58368700e-01  4.58368701e-01  1.60213510e-07  1.77143981e-07  8.80000000e-01 
 8.90000000e-01  3.27170274e-09  3.05359077e-09  4.58368718e-01  3.59595583e-09  4.58368718e-01  4.58368718e-01  4.58368718e-01  1.60213528e-07  1.77144017e-07  8.90000000e-01 
 9.00000000e-01  3.27170274e-09  3.05359077e-09  4.58368687e-01  3.59595582e-09  4.58368687e-01  4.58368687e-01  4.58368687e-01  1.60213478e-07  1.77143640e-07  9.00000000e-01 
 9.10000000e-01  3.27170269e-09  3.05359077e-09  4.58368716e-01  3.59595577e-09  4.58368716e-01  4.58368716e-01  4.58368716e-01  1.60213530e-07  1.77143548e-07  9.10000000e-01 
 9.20000000e-01  3.27170269e-09  3.05359077e-09  4.58368698e-01  3.59595577e-09  4.58368698e-01  4.58368698e-01  4.58368698e-01  1.60213500e-07  1.77143370e-07  9.20000000e-01 
 9.30000000e-01  3.27170269e-09  3.05359077e-09  4.58368723e-01  3.59595577e-09  4.58368723e-01  4.58368723e-01  4.58368723e-01  1.60213540e-07  1.77143299e-07  9.30000000e-01 
 9.40000000e-01  3.27170274e-09  3.05359077e-09  4.58368712e-01  3.59595583e-09  4.58368712e-01  4.58368711e-01  4.58368712e-01  1.60213522e-07  1.77143008e-07  9.40000000e-01 
 9.50000000e-01  3.27170269e-09  3.05359077e-09  4.58368706e-01  3.59595583e-09  4.58368706e-01  4.58368706e-01  4.58368706e-01  1.60213515e-07  1.77142866e-07  9.50000000e-01 
 9.60000000e-01  3.27170269e-09  3.05359077e-09  4.58368689e-01  3.59595577e-09  4.58368689e-01  4.58368689e-01  4.58368689e-01  1.60213499e-07  1.77142624e-07  9.60000000e-01 
 9.70000000e-01  3.27170274e-09  3.05359077e-09  4.58368715e-01  3.59595577e-09  4.58368715e-01  4.58368715e-01  4.58368715e-01  1.60213533e-07  1.77142610e-07  9.70000000e-01 
 9.80000000e-01  3.27170274e-09  3.05359077e-09  4.58368686e-01  3.59595577e-09  4.58368686e-01  4.58368686e-01  4.58368686e-01  1.60213482e-07  1.77142347e-07  9.80000000e-01 
 9.90000000e-01  3.27170274e-09  3.05359077e-09  4.58368708e-01  3.59595577e-09  4.58368708e-01  4.58368708e-01  4.58368708e-01  1.60213523e-07  1.77142233e-07  9.90000000e-01 
 1.00000000e+00  3.27170269e-09  3.05359077e-09  4.58368713e-01  3.59595583e-09  4.58368713e-01  4.58368713e-01  4.58368713e-01  1.60213524e-07  1.77141978e-07  1.00000000e+00 
 1.01000000e+00  3.27170269e-09  3.05359077e-09  4.58368698e-01  3.59595577e-09  4.58368698e-01  4.58368697e-01  4.58368698e-01  1.60213499e-07  1.77141850e-07  1.01000000e+00 
 1.02000000e+00  3.27170274e-09  3.05359077e-09  4.58368695e-01  3.59595577e-09  4.58368695e-01  4.58368695e-01  4.58368695e-01  1.60213504e-07  1.77141615e-07  1.02000000e+00 
 1.03000000e+00  3.27170274e-09  3.05359077e-09  4.58368700e-01  3.59595577e-09  4.58368700e-01  4.58368699e-01  4.58368700e-01  1.60213495e-07  1.77141366e-07  1.03000000e+00 
 1.04000000e+00  3.27170274e-09  3.05359077e-09  4.58368724e-01  3.59595583e-09  4.58368724e-01  4.58368724e-01  4.58368724e-01  1.60213552e-07  1.77141345e-07  1.04000000e+00 
 1.05000000e+00  3.27170269e-09  3.05359077e-09  4.58368729e-01  3.59595577e-09  4.58368729e-01  4.58368729e-01  4.58368729e-01  1.60213557e-07  1.77141139e-07  1.05000000e+00 
 1.06000000e+00  3.27170274e-09  3.05359077e-09  4.58368695e-01  3.59595577e-09  4.58368695e-01  4.58368695e-01  4.58368695e-01  1.60213499e-07  1.77140933e-07  1.06000000e+00 
 1.07000000e+00  3.27170274e-09  3.05359077e-09  4.58368711e-01  3.59595577e-09  4.58368711e-01  4.58368711e-01  4.58368711e-01  1.60213521e-07  1.77140684e-07  1.07000000e+00 
 1.08000000e+00  3.27170269e-09  3.05359077e-09  4.58368707e-01  3.59595577e-09  4.58368707e-01  4.58368706e-01  4.58368707e-01  1.60213514e-07  1.77140549e-07  1.08000000e+00 
 1.09000000e+00  3.27170269e-09  3.05359077e-09  4.58368696e-01  3.59595577e-09  4.58368696e-01  4.58368696e-01  4.58368696e-01  1.60213502e-07  1.77140350e-07  1.09000000e+00 
 1.10000000e+00  3.27170274e-09  3.05359077e-09  4.58368728e-01  3.59595577e-09  4.58368728e-01  4.58368728e-01  4.58368728e-01  1.60213544e-07  1.77140279e-07  1.10000000e+00 
