 v-sweep         v(b0)           v(b1)           v(b2)           v(b3)           v(b4)           v(b5)           v(b6)           i(vbias)        i(viout)        v(vout)        
 0.00000000e+00  4.59804933e-01  3.19569706e-09  4.59804933e-01  3.21674408e-09  4.59804933e-01  3.34884626e-09  3.58639740e-09  1.60039266e-07  3.28163232e-08  0.00000000e+00 
 1.00000000e-02  4.59804955e-01  3.19569710e-09  4.59804955e-01  3.21674412e-09  4.59804955e-01  3.34884630e-09  3.58639738e-09  1.60039284e-07  3.28159905e-08  1.00000000e-02 
 2.00000000e-02  4.59804954e-01  3.19569704e-09  4.59804954e-01  3.21674411e-09  4.59804954e-01  3.34884624e-09  3.58639738e-09  1.60039299e-07  3.28155652e-08  2.00000000e-02 
 3.00000000e-02  4.59804951e-01  3.19569704e-09  4.59804951e-01  3.21674407e-09  4.59804951e-01  3.34884630e-09  3.58639732e-09  1.60039282e-07  3.28152323e-08  3.00000000e-02 
 4.00000000e-02  4.59804926e-01  3.19569704e-09  4.59804926e-01  3.21674407e-09  4.59804926e-01  3.34884629e-09  3.58639733e-09  1.60039263e-07  3.28148202e-08  4.00000000e-02 
 5.00000000e-02  4.59804941e-01  3.19569704e-09  4.59804941e-01  3.21674412e-09  4.59804941e-01  3.34884624e-09  3.58639733e-09  1.60039267e-07  3.28145928e-08  5.00000000e-02 
 6.00000000e-02  4.59804935e-01  3.19569704e-09  4.59804935e-01  3.21674405e-09  4.59804935e-01  3.34884624e-09  3.58639733e-09  1.60039269e-07  3.28142473e-08  6.00000000e-02 
 7.00000000e-02  4.59804919e-01  3.19569704e-09  4.59804919e-01  3.21674407e-09  4.59804920e-01  3.34884624e-09  3.58639732e-09  1.60039231e-07  3.28138863e-08  7.00000000e-02 
 8.00000000e-02  4.59804935e-01  3.19569704e-09  4.59804935e-01  3.21674407e-09  4.59804935e-01  3.34884624e-09  3.58639738e-09  1.60039272e-07  3.28136558e-08  8.00000000e-02 
 9.00000000e-02  4.59804944e-01  3.19569704e-09  4.59804944e-01  3.21674412e-09  4.59804944e-01  3.34884624e-09  3.58639737e-09  1.60039278e-07  3.28134506e-08  9.00000000e-02 
 1.00000000e-01  4.59804941e-01  3.19569704e-09  4.59804941e-01  3.21674405e-09  4.59804941e-01  3.34884624e-09  3.58639738e-09  1.60039268e-07  3.28131762e-08  1.00000000e-01 
 1.10000000e-01  4.59804938e-01  3.19569710e-09  4.59804938e-01  3.21674407e-09  4.59804938e-01  3.34884630e-09  3.58639738e-09  1.60039275e-07  3.28128493e-08  1.10000000e-01 
 1.20000000e-01  4.59804927e-01  3.19569704e-09  4.59804928e-01  3.21674407e-09  4.59804928e-01  3.34884624e-09  3.58639738e-09  1.60039247e-07  3.28126637e-08  1.20000000e-01 
 1.30000000e-01  4.59804934e-01  3.19569704e-09  4.59804934e-01  3.21674407e-09  4.59804934e-01  3.34884624e-09  3.58639738e-09  1.60039268e-07  3.28124328e-08  1.30000000e-01 
 1.40000000e-01  4.59804927e-01  3.19569704e-09  4.59804927e-01  3.21674407e-09  4.59804927e-01  3.34884629e-09  3.58639738e-09  1.60039254e-07  3.28122454e-08  1.40000000e-01 
 1.50000000e-01  4.59804943e-01  3.19569704e-09  4.59804943e-01  3.21674407e-09  4.59804943e-01  3.34884630e-09  3.58639732e-09  1.60039292e-07  3.28121157e-08  1.50000000e-01 
 1.60000000e-01  4.59804944e-01  3.19569704e-09  4.59804944e-01  3.21674407e-09  4.59804945e-01  3.34884630e-09  3.58639733e-09  1.60039275e-07  3.28118599e-08  1.60000000e-01 
 1.70000000e-01  4.59804930e-01  3.19569710e-09  4.59804930e-01  3.21674407e-09  4.59804930e-01  3.34884629e-09  3.58639738e-09  1.60039266e-07  3.28117427e-08  1.70000000e-01 
 1.80000000e-01  4.59804937e-01  3.19569704e-09  4.59804937e-01  3.21674412e-09  4.59804937e-01  3.34884624e-09  3.58639737e-09  1.60039265e-07  3.28115171e-08  1.80000000e-01 
 1.90000000e-01  4.59804939e-01  3.19569704e-09  4.59804939e-01  3.21674411e-09  4.59804939e-01  3.34884624e-09  3.58639738e-09  1.60039273e-07  3.28113448e-08  1.90000000e-01 
 2.00000000e-01  4.59804945e-01  3.19569704e-09  4.59804945e-01  3.21674407e-09  4.59804945e-01  3.34884624e-09  3.58639732e-09  1.60039283e-07  3.28111298e-08  2.00000000e-01 
 2.10000000e-01  4.59804931e-01  3.19569704e-09  4.59804931e-01  3.21674407e-09  4.59804931e-01  3.34884624e-09  3.58639739e-09  1.60039264e-07  3.28110712e-08  2.10000000e-01 
 2.20000000e-01  4.59804934e-01  3.19569704e-09  4.59804934e-01  3.21674407e-09  4.59804934e-01  3.34884630e-09  3.58639737e-09  1.60039262e-07  3.28108580e-08  2.20000000e-01 
 2.30000000e-01  4.59804928e-01  3.19569704e-09  4.59804928e-01  3.21674412e-09  4.59804928e-01  3.34884624e-09  3.58639738e-09  1.60039259e-07  3.28107852e-08  2.30000000e-01 
 2.40000000e-01  4.59804928e-01  3.19569704e-09  4.59804928e-01  3.21674411e-09  4.59804928e-01  3.34884624e-09  3.58639738e-09  1.60039244e-07  3.28105880e-08  2.40000000e-01 
 2.50000000e-01  4.59804926e-01  3.19569704e-09  4.59804926e-01  3.21674413e-09  4.59804926e-01  3.34884629e-09  3.58639732e-09  1.60039255e-07  3.28104282e-08  2.50000000e-01 
 2.60000000e-01  4.59804930e-01  3.19569704e-09  4.59804930e-01  3.21674405e-09  4.59804930e-01  3.34884624e-09  3.58639733e-09  1.60039258e-07  3.28103589e-08  2.60000000e-01 
 2.70000000e-01  4.59804939e-01  3.19569704e-09  4.59804940e-01  3.21674407e-09  4.59804940e-01  3.34884630e-09  3.58639733e-09  1.60039272e-07  3.28102079e-08  2.70000000e-01 
 2.80000000e-01  4.59804955e-01  3.19569704e-09  4.59804955e-01  3.21674407e-09  4.59804955e-01  3.34884630e-09  3.58639738e-09  1.60039286e-07  3.28101279e-08  2.80000000e-01 
 2.90000000e-01  4.59804935e-01  3.19569704e-09  4.59804935e-01  3.21674407e-09  4.59804935e-01  3.34884624e-09  3.58639731e-09  1.60039263e-07  3.28099148e-08  2.90000000e-01 
 3.00000000e-01  4.59804930e-01  3.19569704e-09  4.59804930e-01  3.21674407e-09  4.59804930e-01  3.34884629e-09  3.58639733e-09  1.60039258e-07  3.28098970e-08  3.00000000e-01 
 3.10000000e-01  4.59804924e-01  3.19569704e-09  4.59804924e-01  3.21674407e-09  4.59804925e-01  3.34884629e-09  3.58639738e-09  1.60039240e-07  3.28097549e-08  3.10000000e-01 
 3.20000000e-01  4.59804943e-01  3.19569704e-09  4.59804943e-01  3.21674407e-09  4.59804943e-01  3.34884630e-09  3.58639737e-09  1.60039280e-07  3.28096945e-08  3.20000000e-01 
 3.30000000e-01  4.59804954e-01  3.19569704e-09  4.59804954e-01  3.21674407e-09  4.59804954e-01  3.34884630e-09  3.58639738e-09  1.60039293e-07  3.28095986e-08  3.30000000e-01 
 3.40000000e-01  4.59804943e-01  3.19569704e-09  4.59804943e-01  3.21674412e-09  4.59804943e-01  3.34884624e-09  3.58639738e-09  1.60039270e-07  3.28095737e-08  3.40000000e-01 
 3.50000000e-01  4.59804949e-01  3.19569710e-09  4.59804949e-01  3.21674405e-09  4.59804949e-01  3.34884630e-09  3.58639738e-09  1.60039294e-07  3.28094849e-08  3.50000000e-01 
 3.60000000e-01  4.59804924e-01  3.19569704e-09  4.59804924e-01  3.21674407e-09  4.59804924e-01  3.34884629e-09  3.58639732e-09  1.60039238e-07  3.28093677e-08  3.60000000e-01 
 3.70000000e-01  4.59804927e-01  3.19569704e-09  4.59804927e-01  3.21674407e-09  4.59804927e-01  3.34884629e-09  3.58639739e-09  1.60039248e-07  3.28092575e-08  3.70000000e-01 
 3.80000000e-01  4.59804927e-01  3.19569704e-09  4.59804927e-01  3.21674407e-09  4.59804927e-01  3.34884629e-09  3.58639737e-09  1.60039252e-07  3.28091758e-08  3.80000000e-01 
 3.90000000e-01  4.59804928e-01  3.19569704e-09  4.59804928e-01  3.21674407e-09  4.59804928e-01  3.34884629e-09  3.58639738e-09  1.60039256e-07  3.28091758e-08  3.90000000e-01 
 4.00000000e-01  4.59804939e-01  3.19569704e-09  4.59804939e-01  3.21674407e-09  4.59804939e-01  3.34884630e-09  3.58639738e-09  1.60039261e-07  3.28089591e-08  4.00000000e-01 
 4.10000000e-01  4.59804944e-01  3.19569704e-09  4.59804944e-01  3.21674407e-09  4.59804944e-01  3.34884630e-09  3.58639738e-09  1.60039278e-07  3.28090302e-08  4.10000000e-01 
 4.20000000e-01  4.59804928e-01  3.19569710e-09  4.59804928e-01  3.21674407e-09  4.59804928e-01  3.34884629e-09  3.58639738e-09  1.60039249e-07  3.28088703e-08  4.20000000e-01 
 4.30000000e-01  4.59804933e-01  3.19569704e-09  4.59804933e-01  3.21674407e-09  4.59804933e-01  3.34884630e-09  3.58639738e-09  1.60039262e-07  3.28087850e-08  4.30000000e-01 
 4.40000000e-01  4.59804937e-01  3.19569704e-09  4.59804937e-01  3.21674407e-09  4.59804937e-01  3.34884624e-09  3.58639738e-09  1.60039272e-07  3.28087957e-08  4.40000000e-01 
 4.50000000e-01  4.59804916e-01  3.19569704e-09  4.59804916e-01  3.21674406e-09  4.59804916e-01  3.34884629e-09  3.58639737e-09  1.60039232e-07  3.28086962e-08  4.50000000e-01 
 4.60000000e-01  4.59804935e-01  3.19569704e-09  4.59804935e-01  3.21674412e-09  4.59804935e-01  3.34884624e-09  3.58639738e-09  1.60039248e-07  3.28085932e-08  4.60000000e-01 
 4.70000000e-01  4.59804929e-01  3.19569704e-09  4.59804930e-01  3.21674411e-09  4.59804930e-01  3.34884624e-09  3.58639732e-09  1.60039258e-07  3.28085932e-08  4.70000000e-01 
 4.80000000e-01  4.59804931e-01  3.19569704e-09  4.59804931e-01  3.21674407e-09  4.59804931e-01  3.34884624e-09  3.58639739e-09  1.60039260e-07  3.28086074e-08  4.80000000e-01 
 4.90000000e-01  4.59804959e-01  3.19569704e-09  4.59804959e-01  3.21674407e-09  4.59804959e-01  3.34884630e-09  3.58639737e-09  1.60039299e-07  3.28085470e-08  4.90000000e-01 
 5.00000000e-01  4.59804921e-01  3.19569704e-09  4.59804921e-01  3.21674407e-09  4.59804921e-01  3.34884629e-09  3.58639732e-09  1.60039239e-07  3.28084084e-08  5.00000000e-01 
 5.10000000e-01  4.59804936e-01  3.19569704e-09  4.59804936e-01  3.21674412e-09  4.59804936e-01  3.34884630e-09  3.58639733e-09  1.60039261e-07  3.28083729e-08  5.10000000e-01 
 5.20000000e-01  4.59804935e-01  3.19569704e-09  4.59804935e-01  3.21674405e-09  4.59804935e-01  3.34884624e-09  3.58639738e-09  1.60039257e-07  3.28082557e-08  5.20000000e-01 
 5.30000000e-01  4.59804930e-01  3.19569704e-09  4.59804931e-01  3.21674413e-09  4.59804931e-01  3.34884629e-09  3.58639737e-09  1.60039254e-07  3.28082486e-08  5.30000000e-01 
 5.40000000e-01  4.59804943e-01  3.19569704e-09  4.59804943e-01  3.21674411e-09  4.59804943e-01  3.34884630e-09  3.58639738e-09  1.60039268e-07  3.28081278e-08  5.40000000e-01 
 5.50000000e-01  4.59804921e-01  3.19569704e-09  4.59804921e-01  3.21674407e-09  4.59804921e-01  3.34884624e-09  3.58639738e-09  1.60039242e-07  3.28080318e-08  5.50000000e-01 
 5.60000000e-01  4.59804951e-01  3.19569704e-09  4.59804951e-01  3.21674407e-09  4.59804951e-01  3.34884630e-09  3.58639738e-09  1.60039290e-07  3.28081455e-08  5.60000000e-01 
 5.70000000e-01  4.59804926e-01  3.19569704e-09  4.59804926e-01  3.21674407e-09  4.59804927e-01  3.34884624e-09  3.58639738e-09  1.60039248e-07  3.28079786e-08  5.70000000e-01 
 5.80000000e-01  4.59804928e-01  3.19569704e-09  4.59804928e-01  3.21674407e-09  4.59804928e-01  3.34884629e-09  3.58639738e-09  1.60039246e-07  3.28079039e-08  5.80000000e-01 
 5.90000000e-01  4.59804955e-01  3.19569704e-09  4.59804955e-01  3.21674407e-09  4.59804955e-01  3.34884630e-09  3.58639738e-09  1.60039280e-07  3.28078968e-08  5.90000000e-01 
 6.00000000e-01  4.59804914e-01  3.19569704e-09  4.59804914e-01  3.21674406e-09  4.59804914e-01  3.34884629e-09  3.58639737e-09  1.60039229e-07  3.28077761e-08  6.00000000e-01 
 6.10000000e-01  4.59804918e-01  3.19569704e-09  4.59804918e-01  3.21674406e-09  4.59804918e-01  3.34884629e-09  3.58639737e-09  1.60039239e-07  3.28076837e-08  6.10000000e-01 
 6.20000000e-01  4.59804932e-01  3.19569704e-09  4.59804932e-01  3.21674407e-09  4.59804932e-01  3.34884624e-09  3.58639732e-09  1.60039261e-07  3.28076766e-08  6.20000000e-01 
 6.30000000e-01  4.59804936e-01  3.19569704e-09  4.59804936e-01  3.21674407e-09  4.59804937e-01  3.34884624e-09  3.58639733e-09  1.60039262e-07  3.28076695e-08  6.30000000e-01 
 6.40000000e-01  4.59804942e-01  3.19569704e-09  4.59804942e-01  3.21674407e-09  4.59804942e-01  3.34884630e-09  3.58639738e-09  1.60039281e-07  3.28075132e-08  6.40000000e-01 
 6.50000000e-01  4.59804971e-01  3.19569704e-09  4.59804971e-01  3.21674407e-09  4.59804971e-01  3.34884624e-09  3.58639737e-09  1.60039310e-07  3.28076055e-08  6.50000000e-01 
 6.60000000e-01  4.59804918e-01  3.19569704e-09  4.59804918e-01  3.21674412e-09  4.59804918e-01  3.34884624e-09  3.58639737e-09  1.60039244e-07  3.28073710e-08  6.60000000e-01 
 6.70000000e-01  4.59804937e-01  3.19569704e-09  4.59804937e-01  3.21674405e-09  4.59804937e-01  3.34884624e-09  3.58639738e-09  1.60039276e-07  3.28074421e-08  6.70000000e-01 
 6.80000000e-01  4.59804935e-01  3.19569704e-09  4.59804935e-01  3.21674407e-09  4.59804935e-01  3.34884624e-09  3.58639738e-09  1.60039251e-07  3.28073568e-08  6.80000000e-01 
 6.90000000e-01  4.59804942e-01  3.19569704e-09  4.59804942e-01  3.21674407e-09  4.59804942e-01  3.34884624e-09  3.58639738e-09  1.60039279e-07  3.28073284e-08  6.90000000e-01 
 7.00000000e-01  4.59804938e-01  3.19569704e-09  4.59804938e-01  3.21674407e-09  4.59804938e-01  3.34884630e-09  3.58639738e-09  1.60039263e-07  3.28072005e-08  7.00000000e-01 
 7.10000000e-01  4.59804923e-01  3.19569704e-09  4.59804923e-01  3.21674412e-09  4.59804923e-01  3.34884629e-09  3.58639732e-09  1.60039246e-07  3.28071437e-08  7.10000000e-01 
 7.20000000e-01  4.59804955e-01  3.19569704e-09  4.59804955e-01  3.21674411e-09  4.59804955e-01  3.34884630e-09  3.58639739e-09  1.60039312e-07  3.28072147e-08  7.20000000e-01 
 7.30000000e-01  4.59804938e-01  3.19569704e-09  4.59804938e-01  3.21674407e-09  4.59804938e-01  3.34884624e-09  3.58639731e-09  1.60039276e-07  3.28072076e-08  7.30000000e-01 
 7.40000000e-01  4.59804926e-01  3.19569704e-09  4.59804926e-01  3.21674407e-09  4.59804926e-01  3.34884624e-09  3.58639739e-09  1.60039264e-07  3.28070442e-08  7.40000000e-01 
 7.50000000e-01  4.59804932e-01  3.19569704e-09  4.59804932e-01  3.21674407e-09  4.59804932e-01  3.34884630e-09  3.58639737e-09  1.60039264e-07  3.28070371e-08  7.50000000e-01 
 7.60000000e-01  4.59804957e-01  3.19569704e-09  4.59804957e-01  3.21674407e-09  4.59804957e-01  3.34884624e-09  3.58639732e-09  1.60039282e-07  3.28070158e-08  7.60000000e-01 
 7.70000000e-01  4.59804910e-01  3.19569704e-09  4.59804910e-01  3.21674412e-09  4.59804910e-01  3.34884623e-09  3.58639733e-09  1.60039220e-07  3.28069945e-08  7.70000000e-01 
 7.80000000e-01  4.59804931e-01  3.19569704e-09  4.59804931e-01  3.21674405e-09  4.59804931e-01  3.34884629e-09  3.58639738e-09  1.60039254e-07  3.28068310e-08  7.80000000e-01 
 7.90000000e-01  4.59804946e-01  3.19569704e-09  4.59804946e-01  3.21674407e-09  4.59804946e-01  3.34884630e-09  3.58639737e-09  1.60039279e-07  3.28067173e-08  7.90000000e-01 
 8.00000000e-01  4.59804916e-01  3.19569704e-09  4.59804916e-01  3.21674406e-09  4.59804916e-01  3.34884629e-09  3.58639737e-09  1.60039246e-07  3.28066463e-08  8.00000000e-01 
 8.10000000e-01  4.59804934e-01  3.19569704e-09  4.59804934e-01  3.21674407e-09  4.59804935e-01  3.34884624e-09  3.58639732e-09  1.60039263e-07  3.28066889e-08  8.10000000e-01 
 8.20000000e-01  4.59804945e-01  3.19569704e-09  4.59804945e-01  3.21674412e-09  4.59804945e-01  3.34884630e-09  3.58639733e-09  1.60039269e-07  3.28067671e-08  8.20000000e-01 
 8.30000000e-01  4.59804951e-01  3.19569704e-09  4.59804951e-01  3.21674411e-09  4.59804952e-01  3.34884630e-09  3.58639733e-09  1.60039283e-07  3.28065468e-08  8.30000000e-01 
 8.40000000e-01  4.59804949e-01  3.19569704e-09  4.59804949e-01  3.21674407e-09  4.59804949e-01  3.34884624e-09  3.58639738e-09  1.60039280e-07  3.28065610e-08  8.40000000e-01 
 8.50000000e-01  4.59804950e-01  3.19569704e-09  4.59804950e-01  3.21674407e-09  4.59804951e-01  3.34884624e-09  3.58639737e-09  1.60039298e-07  3.28065255e-08  8.50000000e-01 
 8.60000000e-01  4.59804937e-01  3.19569710e-09  4.59804937e-01  3.21674407e-09  4.59804937e-01  3.34884630e-09  3.58639738e-09  1.60039267e-07  3.28062981e-08  8.60000000e-01 
 8.70000000e-01  4.59804924e-01  3.19569704e-09  4.59804924e-01  3.21674407e-09  4.59804924e-01  3.34884624e-09  3.58639738e-09  1.60039251e-07  3.28062555e-08  8.70000000e-01 
 8.80000000e-01  4.59804953e-01  3.19569704e-09  4.59804953e-01  3.21674412e-09  4.59804953e-01  3.34884624e-09  3.58639732e-09  1.60039288e-07  3.28062981e-08  8.80000000e-01 
 8.90000000e-01  4.59804952e-01  3.19569704e-09  4.59804952e-01  3.21674405e-09  4.59804952e-01  3.34884630e-09  3.58639739e-09  1.60039304e-07  3.28061986e-08  8.90000000e-01 
 9.00000000e-01  4.59804941e-01  3.19569704e-09  4.59804941e-01  3.21674407e-09  4.59804941e-01  3.34884624e-09  3.58639737e-09  1.60039267e-07  3.28061347e-08  9.00000000e-01 
 9.10000000e-01  4.59804961e-01  3.19569704e-09  4.59804961e-01  3.21674412e-09  4.59804961e-01  3.34884624e-09  3.58639732e-09  1.60039286e-07  3.28060210e-08  9.10000000e-01 
 9.20000000e-01  4.59804943e-01  3.19569704e-09  4.59804943e-01  3.21674411e-09  4.59804943e-01  3.34884630e-09  3.58639733e-09  1.60039274e-07  3.28060850e-08  9.20000000e-01 
 9.30000000e-01  4.59804937e-01  3.19569704e-09  4.59804937e-01  3.21674407e-09  4.59804937e-01  3.34884624e-09  3.58639738e-09  1.60039271e-07  3.28059713e-08  9.30000000e-01 
 9.40000000e-01  4.59804919e-01  3.19569704e-09  4.59804919e-01  3.21674406e-09  4.59804920e-01  3.34884624e-09  3.58639737e-09  1.60039246e-07  3.28059286e-08  9.40000000e-01 
 9.50000000e-01  4.59804920e-01  3.19569704e-09  4.59804920e-01  3.21674407e-09  4.59804920e-01  3.34884629e-09  3.58639738e-09  1.60039240e-07  3.28058718e-08  9.50000000e-01 
 9.60000000e-01  4.59804952e-01  3.19569704e-09  4.59804952e-01  3.21674407e-09  4.59804952e-01  3.34884624e-09  3.58639738e-09  1.60039283e-07  3.28058221e-08  9.60000000e-01 
 9.70000000e-01  4.59804938e-01  3.19569710e-09  4.59804938e-01  3.21674412e-09  4.59804938e-01  3.34884624e-09  3.58639738e-09  1.60039259e-07  3.28057865e-08  9.70000000e-01 
 9.80000000e-01  4.59804927e-01  3.19569704e-09  4.59804927e-01  3.21674405e-09  4.59804928e-01  3.34884629e-09  3.58639738e-09  1.60039254e-07  3.28058150e-08  9.80000000e-01 
 9.90000000e-01  4.59804906e-01  3.19569704e-09  4.59804906e-01  3.21674407e-09  4.59804906e-01  3.34884623e-09  3.58639737e-09  1.60039213e-07  3.28055592e-08  9.90000000e-01 
 1.00000000e+00  4.59804937e-01  3.19569704e-09  4.59804937e-01  3.21674407e-09  4.59804937e-01  3.34884630e-09  3.58639738e-09  1.60039266e-07  3.28056231e-08  1.00000000e+00 
 1.01000000e+00  4.59804945e-01  3.19569704e-09  4.59804945e-01  3.21674412e-09  4.59804945e-01  3.34884624e-09  3.58639738e-09  1.60039285e-07  3.28054952e-08  1.01000000e+00 
 1.02000000e+00  4.59804943e-01  3.19569710e-09  4.59804943e-01  3.21674405e-09  4.59804943e-01  3.34884630e-09  3.58639738e-09  1.60039264e-07  3.28053815e-08  1.02000000e+00 
 1.03000000e+00  4.59804935e-01  3.19569704e-09  4.59804935e-01  3.21674407e-09  4.59804935e-01  3.34884630e-09  3.58639738e-09  1.60039262e-07  3.28053815e-08  1.03000000e+00 
 1.04000000e+00  4.59804926e-01  3.19569704e-09  4.59804926e-01  3.21674407e-09  4.59804926e-01  3.34884624e-09  3.58639738e-09  1.60039250e-07  3.28053176e-08  1.04000000e+00 
 1.05000000e+00  4.59804903e-01  3.19569704e-09  4.59804903e-01  3.21674406e-09  4.59804903e-01  3.34884629e-09  3.58639732e-09  1.60039208e-07  3.28052323e-08  1.05000000e+00 
 1.06000000e+00  4.59804948e-01  3.19569710e-09  4.59804948e-01  3.21674412e-09  4.59804948e-01  3.34884630e-09  3.58639733e-09  1.60039282e-07  3.28052820e-08  1.06000000e+00 
 1.07000000e+00  4.59804919e-01  3.19569704e-09  4.59804919e-01  3.21674411e-09  4.59804920e-01  3.34884629e-09  3.58639738e-09  1.60039241e-07  3.28051470e-08  1.07000000e+00 
 1.08000000e+00  4.59804916e-01  3.19569704e-09  4.59804916e-01  3.21674407e-09  4.59804916e-01  3.34884624e-09  3.58639737e-09  1.60039239e-07  3.28050049e-08  1.08000000e+00 
 1.09000000e+00  4.59804931e-01  3.19569704e-09  4.59804931e-01  3.21674407e-09  4.59804931e-01  3.34884629e-09  3.58639738e-09  1.60039264e-07  3.28050618e-08  1.09000000e+00 
 1.10000000e+00  4.59804943e-01  3.19569704e-09  4.59804943e-01  3.21674407e-09  4.59804943e-01  3.34884630e-09  3.58639738e-09  1.60039271e-07  3.28050263e-08  1.10000000e+00 
