 v-sweep         v(b0)           v(b1)           v(b2)           v(b3)           v(b4)           v(b5)           v(b6)           i(vbias)        i(viout)        v(vout)        
 0.00000000e+00  4.58246034e-01  3.38115302e-09  4.58246034e-01  4.58246034e-01  4.58246034e-01  3.23937750e-09  3.49118397e-09  1.56326771e-07  4.42825723e-08  0.00000000e+00 
 1.00000000e-02  4.58246043e-01  3.38115306e-09  4.58246043e-01  4.58246043e-01  4.58246043e-01  3.23937748e-09  3.49118401e-09  1.56326780e-07  4.42821945e-08  1.00000000e-02 
 2.00000000e-02  4.58246058e-01  3.38115306e-09  4.58246058e-01  4.58246058e-01  4.58246058e-01  3.23937748e-09  3.49118401e-09  1.56326801e-07  4.42818817e-08  2.00000000e-02 
 3.00000000e-02  4.58246035e-01  3.38115306e-09  4.58246035e-01  4.58246035e-01  4.58246035e-01  3.23937748e-09  3.49118401e-09  1.56326779e-07  4.42815198e-08  3.00000000e-02 
 4.00000000e-02  4.58246051e-01  3.38115306e-09  4.58246051e-01  4.58246051e-01  4.58246051e-01  3.23937754e-09  3.49118401e-09  1.56326786e-07  4.42810637e-08  4.00000000e-02 
 5.00000000e-02  4.58246066e-01  3.38115306e-09  4.58246066e-01  4.58246066e-01  4.58246066e-01  3.23937754e-09  3.49118395e-09  1.56326816e-07  4.42808523e-08  5.00000000e-02 
 6.00000000e-02  4.58246076e-01  3.38115306e-09  4.58246076e-01  4.58246076e-01  4.58246076e-01  3.23937749e-09  3.49118395e-09  1.56326828e-07  4.42805965e-08  6.00000000e-02 
 7.00000000e-02  4.58246067e-01  3.38115306e-09  4.58246067e-01  4.58246067e-01  4.58246067e-01  3.23937748e-09  3.49118395e-09  1.56326825e-07  4.42802657e-08  7.00000000e-02 
 8.00000000e-02  4.58246056e-01  3.38115306e-09  4.58246056e-01  4.58246056e-01  4.58246056e-01  3.23937748e-09  3.49118401e-09  1.56326817e-07  4.42799486e-08  8.00000000e-02 
 9.00000000e-02  4.58246053e-01  3.38115306e-09  4.58246053e-01  4.58246053e-01  4.58246053e-01  3.23937748e-09  3.49118401e-09  1.56326803e-07  4.42796999e-08  9.00000000e-02 
 1.00000000e-01  4.58246036e-01  3.38115306e-09  4.58246036e-01  4.58246036e-01  4.58246036e-01  3.23937748e-09  3.49118401e-09  1.56326782e-07  4.42793180e-08  1.00000000e-01 
 1.10000000e-01  4.58246058e-01  3.38115306e-09  4.58246058e-01  4.58246058e-01  4.58246058e-01  3.23937748e-09  3.49118401e-09  1.56326810e-07  4.42791697e-08  1.10000000e-01 
 1.20000000e-01  4.58246053e-01  3.38115306e-09  4.58246053e-01  4.58246053e-01  4.58246053e-01  3.23937748e-09  3.49118395e-09  1.56326813e-07  4.42788979e-08  1.20000000e-01 
 1.30000000e-01  4.58246055e-01  3.38115306e-09  4.58246054e-01  4.58246054e-01  4.58246054e-01  3.23937748e-09  3.49118395e-09  1.56326808e-07  4.42787247e-08  1.30000000e-01 
 1.40000000e-01  4.58246042e-01  3.38115306e-09  4.58246042e-01  4.58246042e-01  4.58246042e-01  3.23937748e-09  3.49118395e-09  1.56326785e-07  4.42785018e-08  1.40000000e-01 
 1.50000000e-01  4.58246072e-01  3.38115306e-09  4.58246072e-01  4.58246072e-01  4.58246072e-01  3.23937749e-09  3.49118401e-09  1.56326821e-07  4.42782451e-08  1.50000000e-01 
 1.60000000e-01  4.58246080e-01  3.38115306e-09  4.58246080e-01  4.58246079e-01  4.58246080e-01  3.23937749e-09  3.49118401e-09  1.56326829e-07  4.42781438e-08  1.60000000e-01 
 1.70000000e-01  4.58246077e-01  3.38115306e-09  4.58246077e-01  4.58246077e-01  4.58246077e-01  3.23937754e-09  3.49118401e-09  1.56326835e-07  4.42779307e-08  1.70000000e-01 
 1.80000000e-01  4.58246043e-01  3.38115306e-09  4.58246043e-01  4.58246043e-01  4.58246043e-01  3.23937748e-09  3.49118401e-09  1.56326784e-07  4.42778259e-08  1.80000000e-01 
 1.90000000e-01  4.58246031e-01  3.38115306e-09  4.58246031e-01  4.58246031e-01  4.58246031e-01  3.23937748e-09  3.49118395e-09  1.56326765e-07  4.42775345e-08  1.90000000e-01 
 2.00000000e-01  4.58246025e-01  3.38115306e-09  4.58246025e-01  4.58246025e-01  4.58246025e-01  3.23937754e-09  3.49118401e-09  1.56326750e-07  4.42773693e-08  2.00000000e-01 
 2.10000000e-01  4.58246036e-01  3.38115306e-09  4.58246036e-01  4.58246035e-01  4.58246035e-01  3.23937748e-09  3.49118395e-09  1.56326767e-07  4.42773072e-08  2.10000000e-01 
 2.20000000e-01  4.58246045e-01  3.38115306e-09  4.58246045e-01  4.58246045e-01  4.58246045e-01  3.23937748e-09  3.49118401e-09  1.56326788e-07  4.42771988e-08  2.20000000e-01 
 2.30000000e-01  4.58246042e-01  3.38115306e-09  4.58246042e-01  4.58246042e-01  4.58246042e-01  3.23937748e-09  3.49118401e-09  1.56326790e-07  4.42770229e-08  2.30000000e-01 
 2.40000000e-01  4.58246037e-01  3.38115306e-09  4.58246037e-01  4.58246037e-01  4.58246037e-01  3.23937748e-09  3.49118401e-09  1.56326769e-07  4.42768826e-08  2.40000000e-01 
 2.50000000e-01  4.58246063e-01  3.38115306e-09  4.58246063e-01  4.58246063e-01  4.58246063e-01  3.23937748e-09  3.49118395e-09  1.56326805e-07  4.42766837e-08  2.50000000e-01 
 2.60000000e-01  4.58246045e-01  3.38115306e-09  4.58246044e-01  4.58246044e-01  4.58246044e-01  3.23937748e-09  3.49118401e-09  1.56326792e-07  4.42766357e-08  2.60000000e-01 
 2.70000000e-01  4.58246046e-01  3.38115306e-09  4.58246046e-01  4.58246046e-01  4.58246046e-01  3.23937748e-09  3.49118395e-09  1.56326806e-07  4.42764687e-08  2.70000000e-01 
 2.80000000e-01  4.58246042e-01  3.38115306e-09  4.58246042e-01  4.58246042e-01  4.58246042e-01  3.23937748e-09  3.49118395e-09  1.56326783e-07  4.42763017e-08  2.80000000e-01 
 2.90000000e-01  4.58246039e-01  3.38115306e-09  4.58246039e-01  4.58246039e-01  4.58246039e-01  3.23937748e-09  3.49118401e-09  1.56326787e-07  4.42762484e-08  2.90000000e-01 
 3.00000000e-01  4.58246064e-01  3.38115306e-09  4.58246064e-01  4.58246064e-01  4.58246064e-01  3.23937754e-09  3.49118401e-09  1.56326832e-07  4.42760992e-08  3.00000000e-01 
 3.10000000e-01  4.58246041e-01  3.38115306e-09  4.58246041e-01  4.58246041e-01  4.58246041e-01  3.23937748e-09  3.49118395e-09  1.56326776e-07  4.42760637e-08  3.10000000e-01 
 3.20000000e-01  4.58246052e-01  3.38115306e-09  4.58246052e-01  4.58246052e-01  4.58246052e-01  3.23937748e-09  3.49118395e-09  1.56326806e-07  4.42759038e-08  3.20000000e-01 
 3.30000000e-01  4.58246056e-01  3.38115300e-09  4.58246056e-01  4.58246056e-01  4.58246056e-01  3.23937748e-09  3.49118395e-09  1.56326802e-07  4.42758399e-08  3.30000000e-01 
 3.40000000e-01  4.58246054e-01  3.38115306e-09  4.58246053e-01  4.58246053e-01  4.58246053e-01  3.23937754e-09  3.49118401e-09  1.56326802e-07  4.42757511e-08  3.40000000e-01 
 3.50000000e-01  4.58246045e-01  3.38115306e-09  4.58246045e-01  4.58246044e-01  4.58246045e-01  3.23937754e-09  3.49118395e-09  1.56326796e-07  4.42756729e-08  3.50000000e-01 
 3.60000000e-01  4.58246067e-01  3.38115306e-09  4.58246067e-01  4.58246067e-01  4.58246067e-01  3.23937748e-09  3.49118401e-09  1.56326819e-07  4.42755628e-08  3.60000000e-01 
 3.70000000e-01  4.58246064e-01  3.38115306e-09  4.58246064e-01  4.58246064e-01  4.58246064e-01  3.23937754e-09  3.49118395e-09  1.56326826e-07  4.42754811e-08  3.70000000e-01 
 3.80000000e-01  4.58246057e-01  3.38115306e-09  4.58246057e-01  4.58246057e-01  4.58246057e-01  3.23937748e-09  3.49118395e-09  1.56326810e-07  4.42753674e-08  3.80000000e-01 
 3.90000000e-01  4.58246043e-01  3.38115306e-09  4.58246043e-01  4.58246043e-01  4.58246043e-01  3.23937748e-09  3.49118401e-09  1.56326791e-07  4.42753496e-08  3.90000000e-01 
 4.00000000e-01  4.58246053e-01  3.38115306e-09  4.58246053e-01  4.58246053e-01  4.58246053e-01  3.23937754e-09  3.49118395e-09  1.56326802e-07  4.42752537e-08  4.00000000e-01 
 4.10000000e-01  4.58246048e-01  3.38115306e-09  4.58246048e-01  4.58246048e-01  4.58246048e-01  3.23937748e-09  3.49118401e-09  1.56326800e-07  4.42752146e-08  4.10000000e-01 
 4.20000000e-01  4.58246053e-01  3.38115306e-09  4.58246053e-01  4.58246052e-01  4.58246053e-01  3.23937748e-09  3.49118395e-09  1.56326812e-07  4.42751471e-08  4.20000000e-01 
 4.30000000e-01  4.58246060e-01  3.38115306e-09  4.58246060e-01  4.58246060e-01  4.58246060e-01  3.23937754e-09  3.49118395e-09  1.56326810e-07  4.42750370e-08  4.30000000e-01 
 4.40000000e-01  4.58246056e-01  3.38115306e-09  4.58246056e-01  4.58246056e-01  4.58246056e-01  3.23937748e-09  3.49118395e-09  1.56326815e-07  4.42749766e-08  4.40000000e-01 
 4.50000000e-01  4.58246062e-01  3.38115300e-09  4.58246062e-01  4.58246062e-01  4.58246062e-01  3.23937748e-09  3.49118401e-09  1.56326811e-07  4.42748451e-08  4.50000000e-01 
 4.60000000e-01  4.58246049e-01  3.38115306e-09  4.58246049e-01  4.58246049e-01  4.58246049e-01  3.23937748e-09  3.49118395e-09  1.56326797e-07  4.42747741e-08  4.60000000e-01 
 4.70000000e-01  4.58246074e-01  3.38115306e-09  4.58246074e-01  4.58246074e-01  4.58246074e-01  3.23937749e-09  3.49118401e-09  1.56326827e-07  4.42746924e-08  4.70000000e-01 
 4.80000000e-01  4.58246078e-01  3.38115306e-09  4.58246078e-01  4.58246078e-01  4.58246078e-01  3.23937754e-09  3.49118401e-09  1.56326839e-07  4.42746781e-08  4.80000000e-01 
 4.90000000e-01  4.58246056e-01  3.38115306e-09  4.58246056e-01  4.58246056e-01  4.58246056e-01  3.23937754e-09  3.49118401e-09  1.56326796e-07  4.42746604e-08  4.90000000e-01 
 5.00000000e-01  4.58246034e-01  3.38115300e-09  4.58246034e-01  4.58246034e-01  4.58246034e-01  3.23937754e-09  3.49118401e-09  1.56326771e-07  4.42746817e-08  5.00000000e-01 
 5.10000000e-01  4.58246072e-01  3.38115306e-09  4.58246072e-01  4.58246072e-01  4.58246072e-01  3.23937749e-09  3.49118401e-09  1.56326829e-07  4.42745680e-08  5.10000000e-01 
 5.20000000e-01  4.58246026e-01  3.38115300e-09  4.58246026e-01  4.58246026e-01  4.58246026e-01  3.23937748e-09  3.49118401e-09  1.56326759e-07  4.42745041e-08  5.20000000e-01 
 5.30000000e-01  4.58246041e-01  3.38115306e-09  4.58246041e-01  4.58246041e-01  4.58246041e-01  3.23937748e-09  3.49118401e-09  1.56326778e-07  4.42743477e-08  5.30000000e-01 
 5.40000000e-01  4.58246032e-01  3.38115306e-09  4.58246032e-01  4.58246032e-01  4.58246032e-01  3.23937754e-09  3.49118401e-09  1.56326766e-07  4.42742731e-08  5.40000000e-01 
 5.50000000e-01  4.58246042e-01  3.38115306e-09  4.58246042e-01  4.58246042e-01  4.58246042e-01  3.23937754e-09  3.49118395e-09  1.56326782e-07  4.42742554e-08  5.50000000e-01 
 5.60000000e-01  4.58246057e-01  3.38115306e-09  4.58246057e-01  4.58246057e-01  4.58246057e-01  3.23937754e-09  3.49118401e-09  1.56326816e-07  4.42742056e-08  5.60000000e-01 
 5.70000000e-01  4.58246045e-01  3.38115300e-09  4.58246045e-01  4.58246045e-01  4.58246045e-01  3.23937748e-09  3.49118401e-09  1.56326788e-07  4.42742021e-08  5.70000000e-01 
 5.80000000e-01  4.58246058e-01  3.38115306e-09  4.58246058e-01  4.58246058e-01  4.58246058e-01  3.23937748e-09  3.49118395e-09  1.56326804e-07  4.42741381e-08  5.80000000e-01 
 5.90000000e-01  4.58246065e-01  3.38115306e-09  4.58246064e-01  4.58246064e-01  4.58246064e-01  3.23937748e-09  3.49118401e-09  1.56326816e-07  4.42739676e-08  5.90000000e-01 
 6.00000000e-01  4.58246051e-01  3.38115306e-09  4.58246051e-01  4.58246051e-01  4.58246051e-01  3.23937748e-09  3.49118401e-09  1.56326807e-07  4.42739108e-08  6.00000000e-01 
 6.10000000e-01  4.58246034e-01  3.38115300e-09  4.58246034e-01  4.58246034e-01  4.58246034e-01  3.23937754e-09  3.49118401e-09  1.56326780e-07  4.42740244e-08  6.10000000e-01 
 6.20000000e-01  4.58246035e-01  3.38115306e-09  4.58246035e-01  4.58246035e-01  4.58246035e-01  3.23937748e-09  3.49118401e-09  1.56326771e-07  4.42738610e-08  6.20000000e-01 
 6.30000000e-01  4.58246049e-01  3.38115306e-09  4.58246049e-01  4.58246049e-01  4.58246049e-01  3.23937748e-09  3.49118401e-09  1.56326777e-07  4.42738539e-08  6.30000000e-01 
 6.40000000e-01  4.58246066e-01  3.38115306e-09  4.58246066e-01  4.58246066e-01  4.58246066e-01  3.23937754e-09  3.49118401e-09  1.56326816e-07  4.42737260e-08  6.40000000e-01 
 6.50000000e-01  4.58246069e-01  3.38115306e-09  4.58246069e-01  4.58246068e-01  4.58246069e-01  3.23937754e-09  3.49118395e-09  1.56326823e-07  4.42737615e-08  6.50000000e-01 
 6.60000000e-01  4.58246066e-01  3.38115306e-09  4.58246066e-01  4.58246066e-01  4.58246066e-01  3.23937748e-09  3.49118395e-09  1.56326813e-07  4.42736550e-08  6.60000000e-01 
 6.70000000e-01  4.58246081e-01  3.38115306e-09  4.58246080e-01  4.58246080e-01  4.58246080e-01  3.23937749e-09  3.49118401e-09  1.56326840e-07  4.42736479e-08  6.70000000e-01 
 6.80000000e-01  4.58246054e-01  3.38115300e-09  4.58246054e-01  4.58246054e-01  4.58246054e-01  3.23937748e-09  3.49118395e-09  1.56326799e-07  4.42734205e-08  6.80000000e-01 
 6.90000000e-01  4.58246055e-01  3.38115306e-09  4.58246055e-01  4.58246055e-01  4.58246055e-01  3.23937748e-09  3.49118395e-09  1.56326807e-07  4.42735200e-08  6.90000000e-01 
 7.00000000e-01  4.58246034e-01  3.38115306e-09  4.58246034e-01  4.58246034e-01  4.58246034e-01  3.23937748e-09  3.49118395e-09  1.56326778e-07  4.42733565e-08  7.00000000e-01 
 7.10000000e-01  4.58246039e-01  3.38115306e-09  4.58246039e-01  4.58246038e-01  4.58246039e-01  3.23937754e-09  3.49118401e-09  1.56326784e-07  4.42733139e-08  7.10000000e-01 
 7.20000000e-01  4.58246029e-01  3.38115306e-09  4.58246029e-01  4.58246029e-01  4.58246029e-01  3.23937754e-09  3.49118395e-09  1.56326766e-07  4.42732642e-08  7.20000000e-01 
 7.30000000e-01  4.58246055e-01  3.38115306e-09  4.58246055e-01  4.58246055e-01  4.58246055e-01  3.23937748e-09  3.49118395e-09  1.56326795e-07  4.42732215e-08  7.30000000e-01 
 7.40000000e-01  4.58246047e-01  3.38115300e-09  4.58246047e-01  4.58246047e-01  4.58246047e-01  3.23937748e-09  3.49118401e-09  1.56326784e-07  4.42732002e-08  7.40000000e-01 
 7.50000000e-01  4.58246030e-01  3.38115306e-09  4.58246030e-01  4.58246030e-01  4.58246030e-01  3.23937754e-09  3.49118395e-09  1.56326779e-07  4.42730510e-08  7.50000000e-01 
 7.60000000e-01  4.58246049e-01  3.38115306e-09  4.58246049e-01  4.58246049e-01  4.58246049e-01  3.23937748e-09  3.49118401e-09  1.56326787e-07  4.42731647e-08  7.60000000e-01 
 7.70000000e-01  4.58246059e-01  3.38115306e-09  4.58246058e-01  4.58246058e-01  4.58246058e-01  3.23937748e-09  3.49118395e-09  1.56326798e-07  4.42728947e-08  7.70000000e-01 
 7.80000000e-01  4.58246058e-01  3.38115306e-09  4.58246058e-01  4.58246058e-01  4.58246058e-01  3.23937748e-09  3.49118401e-09  1.56326807e-07  4.42730084e-08  7.80000000e-01 
 7.90000000e-01  4.58246041e-01  3.38115306e-09  4.58246041e-01  4.58246041e-01  4.58246041e-01  3.23937748e-09  3.49118395e-09  1.56326780e-07  4.42727668e-08  7.90000000e-01 
 8.00000000e-01  4.58246046e-01  3.38115306e-09  4.58246046e-01  4.58246046e-01  4.58246046e-01  3.23937754e-09  3.49118395e-09  1.56326789e-07  4.42728023e-08  8.00000000e-01 
 8.10000000e-01  4.58246036e-01  3.38115306e-09  4.58246036e-01  4.58246036e-01  4.58246036e-01  3.23937754e-09  3.49118395e-09  1.56326778e-07  4.42726815e-08  8.10000000e-01 
 8.20000000e-01  4.58246048e-01  3.38115306e-09  4.58246048e-01  4.58246048e-01  4.58246048e-01  3.23937748e-09  3.49118395e-09  1.56326796e-07  4.42726744e-08  8.20000000e-01 
 8.30000000e-01  4.58246060e-01  3.38115306e-09  4.58246060e-01  4.58246060e-01  4.58246060e-01  3.23937754e-09  3.49118401e-09  1.56326801e-07  4.42725607e-08  8.30000000e-01 
 8.40000000e-01  4.58246039e-01  3.38115306e-09  4.58246039e-01  4.58246039e-01  4.58246039e-01  3.23937754e-09  3.49118401e-09  1.56326781e-07  4.42725963e-08  8.40000000e-01 
 8.50000000e-01  4.58246052e-01  3.38115306e-09  4.58246052e-01  4.58246052e-01  4.58246052e-01  3.23937748e-09  3.49118395e-09  1.56326802e-07  4.42725536e-08  8.50000000e-01 
 8.60000000e-01  4.58246061e-01  3.38115306e-09  4.58246061e-01  4.58246061e-01  4.58246061e-01  3.23937754e-09  3.49118395e-09  1.56326810e-07  4.42724044e-08  8.60000000e-01 
 8.70000000e-01  4.58246079e-01  3.38115306e-09  4.58246079e-01  4.58246079e-01  4.58246079e-01  3.23937749e-09  3.49118395e-09  1.56326842e-07  4.42723405e-08  8.70000000e-01 
 8.80000000e-01  4.58246041e-01  3.38115306e-09  4.58246041e-01  4.58246041e-01  4.58246041e-01  3.23937748e-09  3.49118401e-09  1.56326787e-07  4.42723262e-08  8.80000000e-01 
 8.90000000e-01  4.58246058e-01  3.38115306e-09  4.58246058e-01  4.58246058e-01  4.58246058e-01  3.23937748e-09  3.49118395e-09  1.56326807e-07  4.42722623e-08  8.90000000e-01 
 9.00000000e-01  4.58246036e-01  3.38115306e-09  4.58246036e-01  4.58246036e-01  4.58246036e-01  3.23937748e-09  3.49118401e-09  1.56326777e-07  4.42722694e-08  9.00000000e-01 
 9.10000000e-01  4.58246037e-01  3.38115306e-09  4.58246037e-01  4.58246037e-01  4.58246037e-01  3.23937748e-09  3.49118401e-09  1.56326776e-07  4.42721486e-08  9.10000000e-01 
 9.20000000e-01  4.58246048e-01  3.38115300e-09  4.58246048e-01  4.58246048e-01  4.58246048e-01  3.23937748e-09  3.49118395e-09  1.56326802e-07  4.42720420e-08  9.20000000e-01 
 9.30000000e-01  4.58246051e-01  3.38115306e-09  4.58246051e-01  4.58246050e-01  4.58246051e-01  3.23937748e-09  3.49118401e-09  1.56326803e-07  4.42721202e-08  9.30000000e-01 
 9.40000000e-01  4.58246049e-01  3.38115306e-09  4.58246049e-01  4.58246048e-01  4.58246049e-01  3.23937754e-09  3.49118395e-09  1.56326813e-07  4.42719639e-08  9.40000000e-01 
 9.50000000e-01  4.58246062e-01  3.38115300e-09  4.58246062e-01  4.58246062e-01  4.58246062e-01  3.23937748e-09  3.49118401e-09  1.56326827e-07  4.42718999e-08  9.50000000e-01 
 9.60000000e-01  4.58246041e-01  3.38115306e-09  4.58246041e-01  4.58246041e-01  4.58246041e-01  3.23937754e-09  3.49118401e-09  1.56326775e-07  4.42718076e-08  9.60000000e-01 
 9.70000000e-01  4.58246051e-01  3.38115306e-09  4.58246051e-01  4.58246051e-01  4.58246051e-01  3.23937748e-09  3.49118395e-09  1.56326795e-07  4.42718502e-08  9.70000000e-01 
 9.80000000e-01  4.58246051e-01  3.38115306e-09  4.58246050e-01  4.58246050e-01  4.58246050e-01  3.23937748e-09  3.49118401e-09  1.56326797e-07  4.42718786e-08  9.80000000e-01 
 9.90000000e-01  4.58246036e-01  3.38115306e-09  4.58246036e-01  4.58246036e-01  4.58246036e-01  3.23937748e-09  3.49118395e-09  1.56326785e-07  4.42716370e-08  9.90000000e-01 
 1.00000000e+00  4.58246060e-01  3.38115306e-09  4.58246060e-01  4.58246060e-01  4.58246060e-01  3.23937748e-09  3.49118395e-09  1.56326814e-07  4.42715447e-08  1.00000000e+00 
 1.01000000e+00  4.58246051e-01  3.38115306e-09  4.58246051e-01  4.58246051e-01  4.58246051e-01  3.23937748e-09  3.49118395e-09  1.56326802e-07  4.42714949e-08  1.01000000e+00 
 1.02000000e+00  4.58246026e-01  3.38115306e-09  4.58246025e-01  4.58246025e-01  4.58246025e-01  3.23937754e-09  3.49118395e-09  1.56326759e-07  4.42714949e-08  1.02000000e+00 
 1.03000000e+00  4.58246074e-01  3.38115306e-09  4.58246074e-01  4.58246074e-01  4.58246074e-01  3.23937754e-09  3.49118395e-09  1.56326825e-07  4.42714949e-08  1.03000000e+00 
 1.04000000e+00  4.58246025e-01  3.38115306e-09  4.58246025e-01  4.58246025e-01  4.58246025e-01  3.23937748e-09  3.49118401e-09  1.56326753e-07  4.42712675e-08  1.04000000e+00 
 1.05000000e+00  4.58246066e-01  3.38115306e-09  4.58246066e-01  4.58246066e-01  4.58246066e-01  3.23937754e-09  3.49118395e-09  1.56326823e-07  4.42712533e-08  1.05000000e+00 
 1.06000000e+00  4.58246028e-01  3.38115306e-09  4.58246028e-01  4.58246028e-01  4.58246028e-01  3.23937754e-09  3.49118395e-09  1.56326774e-07  4.42711183e-08  1.06000000e+00 
 1.07000000e+00  4.58246053e-01  3.38115306e-09  4.58246053e-01  4.58246053e-01  4.58246053e-01  3.23937748e-09  3.49118395e-09  1.56326799e-07  4.42712818e-08  1.07000000e+00 
 1.08000000e+00  4.58246035e-01  3.38115306e-09  4.58246035e-01  4.58246034e-01  4.58246034e-01  3.23937754e-09  3.49118395e-09  1.56326776e-07  4.42710331e-08  1.08000000e+00 
 1.09000000e+00  4.58246059e-01  3.38115300e-09  4.58246059e-01  4.58246059e-01  4.58246059e-01  3.23937748e-09  3.49118395e-09  1.56326805e-07  4.42709052e-08  1.09000000e+00 
 1.10000000e+00  4.58246067e-01  3.38115306e-09  4.58246067e-01  4.58246067e-01  4.58246067e-01  3.23937754e-09  3.49118401e-09  1.56326819e-07  4.42709336e-08  1.10000000e+00 
