 v-sweep         v(b0)           v(b1)           v(b2)           v(b3)           v(b4)           v(b5)           v(b6)           i(vbias)        i(viout)        v(vout)        
 0.00000000e+00  4.57462914e-01  3.39328582e-09  3.44764499e-09  4.57462914e-01  4.57462914e-01  3.32052965e-09  4.57462914e-01  1.55824286e-07  1.32523292e-07  0.00000000e+00 
 1.00000000e-02  4.57462877e-01  3.39328586e-09  3.44764496e-09  4.57462877e-01  4.57462877e-01  3.32052962e-09  4.57462877e-01  1.55824239e-07  1.32522625e-07  1.00000000e-02 
 2.00000000e-02  4.57462875e-01  3.39328586e-09  3.44764496e-09  4.57462875e-01  4.57462875e-01  3.32052969e-09  4.57462875e-01  1.55824213e-07  1.32522057e-07  2.00000000e-02 
 3.00000000e-02  4.57462869e-01  3.39328580e-09  3.44764496e-09  4.57462869e-01  4.57462869e-01  3.32052967e-09  4.57462869e-01  1.55824229e-07  1.32521833e-07  3.00000000e-02 
 4.00000000e-02  4.57462862e-01  3.39328586e-09  3.44764496e-09  4.57462862e-01  4.57462862e-01  3.32052968e-09  4.57462862e-01  1.55824213e-07  1.32521381e-07  4.00000000e-02 
 5.00000000e-02  4.57462904e-01  3.39328586e-09  3.44764502e-09  4.57462904e-01  4.57462904e-01  3.32052968e-09  4.57462903e-01  1.55824267e-07  1.32521154e-07  5.00000000e-02 
 6.00000000e-02  4.57462890e-01  3.39328586e-09  3.44764502e-09  4.57462890e-01  4.57462890e-01  3.32052968e-09  4.57462890e-01  1.55824230e-07  1.32520789e-07  6.00000000e-02 
 7.00000000e-02  4.57462866e-01  3.39328586e-09  3.44764496e-09  4.57462866e-01  4.57462866e-01  3.32052962e-09  4.57462866e-01  1.55824229e-07  1.32520420e-07  7.00000000e-02 
 8.00000000e-02  4.57462887e-01  3.39328586e-09  3.44764502e-09  4.57462887e-01  4.57462887e-01  3.32052969e-09  4.57462887e-01  1.55824238e-07  1.32520190e-07  8.00000000e-02 
 9.00000000e-02  4.57462902e-01  3.39328586e-09  3.44764502e-09  4.57462902e-01  4.57462902e-01  3.32052962e-09  4.57462902e-01  1.55824277e-07  1.32519868e-07  9.00000000e-02 
 1.00000000e-01  4.57462875e-01  3.39328586e-09  3.44764501e-09  4.57462875e-01  4.57462875e-01  3.32052969e-09  4.57462875e-01  1.55824229e-07  1.32519529e-07  1.00000000e-01 
 1.10000000e-01  4.57462884e-01  3.39328580e-09  3.44764502e-09  4.57462884e-01  4.57462884e-01  3.32052961e-09  4.57462884e-01  1.55824229e-07  1.32519300e-07  1.10000000e-01 
 1.20000000e-01  4.57462868e-01  3.39328580e-09  3.44764501e-09  4.57462868e-01  4.57462868e-01  3.32052969e-09  4.57462868e-01  1.55824207e-07  1.32518919e-07  1.20000000e-01 
 1.30000000e-01  4.57462883e-01  3.39328580e-09  3.44764502e-09  4.57462883e-01  4.57462883e-01  3.32052961e-09  4.57462883e-01  1.55824228e-07  1.32518603e-07  1.30000000e-01 
 1.40000000e-01  4.57462878e-01  3.39328580e-09  3.44764496e-09  4.57462878e-01  4.57462878e-01  3.32052969e-09  4.57462878e-01  1.55824224e-07  1.32518563e-07  1.40000000e-01 
 1.50000000e-01  4.57462871e-01  3.39328580e-09  3.44764496e-09  4.57462871e-01  4.57462871e-01  3.32052967e-09  4.57462870e-01  1.55824220e-07  1.32518208e-07  1.50000000e-01 
 1.60000000e-01  4.57462891e-01  3.39328580e-09  3.44764496e-09  4.57462891e-01  4.57462891e-01  3.32052968e-09  4.57462891e-01  1.55824239e-07  1.32518036e-07  1.60000000e-01 
 1.70000000e-01  4.57462900e-01  3.39328586e-09  3.44764502e-09  4.57462900e-01  4.57462900e-01  3.32052968e-09  4.57462900e-01  1.55824275e-07  1.32517940e-07  1.70000000e-01 
 1.80000000e-01  4.57462924e-01  3.39328586e-09  3.44764502e-09  4.57462924e-01  4.57462924e-01  3.32052962e-09  4.57462924e-01  1.55824305e-07  1.32517792e-07  1.80000000e-01 
 1.90000000e-01  4.57462917e-01  3.39328580e-09  3.44764496e-09  4.57462917e-01  4.57462917e-01  3.32052969e-09  4.57462917e-01  1.55824285e-07  1.32517563e-07  1.90000000e-01 
 2.00000000e-01  4.57462870e-01  3.39328586e-09  3.44764501e-09  4.57462870e-01  4.57462870e-01  3.32052967e-09  4.57462870e-01  1.55824226e-07  1.32517220e-07  2.00000000e-01 
 2.10000000e-01  4.57462874e-01  3.39328580e-09  3.44764501e-09  4.57462874e-01  4.57462874e-01  3.32052968e-09  4.57462874e-01  1.55824228e-07  1.32517084e-07  2.10000000e-01 
 2.20000000e-01  4.57462878e-01  3.39328580e-09  3.44764502e-09  4.57462878e-01  4.57462878e-01  3.32052962e-09  4.57462878e-01  1.55824226e-07  1.32516851e-07  2.20000000e-01 
 2.30000000e-01  4.57462863e-01  3.39328586e-09  3.44764501e-09  4.57462863e-01  4.57462863e-01  3.32052969e-09  4.57462863e-01  1.55824209e-07  1.32516607e-07  2.30000000e-01 
 2.40000000e-01  4.57462885e-01  3.39328580e-09  3.44764502e-09  4.57462884e-01  4.57462884e-01  3.32052967e-09  4.57462884e-01  1.55824246e-07  1.32516607e-07  2.40000000e-01 
 2.50000000e-01  4.57462883e-01  3.39328580e-09  3.44764502e-09  4.57462883e-01  4.57462883e-01  3.32052962e-09  4.57462882e-01  1.55824252e-07  1.32516437e-07  2.50000000e-01 
 2.60000000e-01  4.57462897e-01  3.39328586e-09  3.44764502e-09  4.57462897e-01  4.57462897e-01  3.32052969e-09  4.57462897e-01  1.55824265e-07  1.32516305e-07  2.60000000e-01 
 2.70000000e-01  4.57462887e-01  3.39328586e-09  3.44764502e-09  4.57462887e-01  4.57462887e-01  3.32052967e-09  4.57462887e-01  1.55824248e-07  1.32516167e-07  2.70000000e-01 
 2.80000000e-01  4.57462883e-01  3.39328586e-09  3.44764502e-09  4.57462883e-01  4.57462883e-01  3.32052968e-09  4.57462883e-01  1.55824251e-07  1.32516011e-07  2.80000000e-01 
 2.90000000e-01  4.57462896e-01  3.39328586e-09  3.44764502e-09  4.57462896e-01  4.57462896e-01  3.32052968e-09  4.57462896e-01  1.55824259e-07  1.32515851e-07  2.90000000e-01 
 3.00000000e-01  4.57462913e-01  3.39328580e-09  3.44764496e-09  4.57462913e-01  4.57462913e-01  3.32052968e-09  4.57462913e-01  1.55824290e-07  1.32515726e-07  3.00000000e-01 
 3.10000000e-01  4.57462892e-01  3.39328586e-09  3.44764502e-09  4.57462892e-01  4.57462892e-01  3.32052968e-09  4.57462892e-01  1.55824250e-07  1.32515588e-07  3.10000000e-01 
 3.20000000e-01  4.57462895e-01  3.39328586e-09  3.44764502e-09  4.57462895e-01  4.57462895e-01  3.32052962e-09  4.57462895e-01  1.55824261e-07  1.32515339e-07  3.20000000e-01 
 3.30000000e-01  4.57462876e-01  3.39328580e-09  3.44764496e-09  4.57462876e-01  4.57462876e-01  3.32052963e-09  4.57462876e-01  1.55824232e-07  1.32515183e-07  3.30000000e-01 
 3.40000000e-01  4.57462910e-01  3.39328580e-09  3.44764502e-09  4.57462910e-01  4.57462910e-01  3.32052967e-09  4.57462910e-01  1.55824271e-07  1.32515236e-07  3.40000000e-01 
 3.50000000e-01  4.57462905e-01  3.39328586e-09  3.44764502e-09  4.57462905e-01  4.57462905e-01  3.32052968e-09  4.57462905e-01  1.55824265e-07  1.32515016e-07  3.50000000e-01 
 3.60000000e-01  4.57462876e-01  3.39328580e-09  3.44764502e-09  4.57462876e-01  4.57462876e-01  3.32052968e-09  4.57462876e-01  1.55824227e-07  1.32514870e-07  3.60000000e-01 
 3.70000000e-01  4.57462880e-01  3.39328586e-09  3.44764502e-09  4.57462880e-01  4.57462880e-01  3.32052962e-09  4.57462880e-01  1.55824233e-07  1.32514867e-07  3.70000000e-01 
 3.80000000e-01  4.57462906e-01  3.39328586e-09  3.44764502e-09  4.57462906e-01  4.57462906e-01  3.32052969e-09  4.57462906e-01  1.55824277e-07  1.32514764e-07  3.80000000e-01 
 3.90000000e-01  4.57462900e-01  3.39328586e-09  3.44764496e-09  4.57462900e-01  4.57462900e-01  3.32052967e-09  4.57462900e-01  1.55824265e-07  1.32514653e-07  3.90000000e-01 
 4.00000000e-01  4.57462903e-01  3.39328580e-09  3.44764502e-09  4.57462903e-01  4.57462903e-01  3.32052968e-09  4.57462903e-01  1.55824255e-07  1.32514618e-07  4.00000000e-01 
 4.10000000e-01  4.57462879e-01  3.39328586e-09  3.44764502e-09  4.57462879e-01  4.57462879e-01  3.32052968e-09  4.57462879e-01  1.55824226e-07  1.32514419e-07  4.10000000e-01 
 4.20000000e-01  4.57462900e-01  3.39328586e-09  3.44764496e-09  4.57462900e-01  4.57462900e-01  3.32052962e-09  4.57462900e-01  1.55824263e-07  1.32514348e-07  4.20000000e-01 
 4.30000000e-01  4.57462869e-01  3.39328586e-09  3.44764501e-09  4.57462868e-01  4.57462869e-01  3.32052969e-09  4.57462868e-01  1.55824234e-07  1.32514188e-07  4.30000000e-01 
 4.40000000e-01  4.57462894e-01  3.39328580e-09  3.44764496e-09  4.57462894e-01  4.57462894e-01  3.32052961e-09  4.57462894e-01  1.55824238e-07  1.32514142e-07  4.40000000e-01 
 4.50000000e-01  4.57462880e-01  3.39328586e-09  3.44764496e-09  4.57462880e-01  4.57462880e-01  3.32052969e-09  4.57462880e-01  1.55824225e-07  1.32513932e-07  4.50000000e-01 
 4.60000000e-01  4.57462873e-01  3.39328586e-09  3.44764496e-09  4.57462873e-01  4.57462873e-01  3.32052967e-09  4.57462873e-01  1.55824215e-07  1.32513897e-07  4.60000000e-01 
 4.70000000e-01  4.57462875e-01  3.39328586e-09  3.44764496e-09  4.57462875e-01  4.57462875e-01  3.32052968e-09  4.57462875e-01  1.55824219e-07  1.32513780e-07  4.70000000e-01 
 4.80000000e-01  4.57462883e-01  3.39328586e-09  3.44764502e-09  4.57462883e-01  4.57462883e-01  3.32052968e-09  4.57462883e-01  1.55824235e-07  1.32513645e-07  4.80000000e-01 
 4.90000000e-01  4.57462904e-01  3.39328580e-09  3.44764502e-09  4.57462904e-01  4.57462904e-01  3.32052962e-09  4.57462904e-01  1.55824268e-07  1.32513598e-07  4.90000000e-01 
 5.00000000e-01  4.57462883e-01  3.39328580e-09  3.44764502e-09  4.57462883e-01  4.57462883e-01  3.32052963e-09  4.57462883e-01  1.55824241e-07  1.32513460e-07  5.00000000e-01 
 5.10000000e-01  4.57462886e-01  3.39328586e-09  3.44764496e-09  4.57462885e-01  4.57462886e-01  3.32052967e-09  4.57462885e-01  1.55824257e-07  1.32513335e-07  5.10000000e-01 
 5.20000000e-01  4.57462885e-01  3.39328580e-09  3.44764502e-09  4.57462885e-01  4.57462885e-01  3.32052962e-09  4.57462885e-01  1.55824247e-07  1.32513286e-07  5.20000000e-01 
 5.30000000e-01  4.57462858e-01  3.39328586e-09  3.44764496e-09  4.57462858e-01  4.57462858e-01  3.32052969e-09  4.57462858e-01  1.55824202e-07  1.32513073e-07  5.30000000e-01 
 5.40000000e-01  4.57462928e-01  3.39328586e-09  3.44764502e-09  4.57462928e-01  4.57462928e-01  3.32052967e-09  4.57462928e-01  1.55824313e-07  1.32513293e-07  5.40000000e-01 
 5.50000000e-01  4.57462873e-01  3.39328586e-09  3.44764496e-09  4.57462873e-01  4.57462873e-01  3.32052968e-09  4.57462873e-01  1.55824223e-07  1.32512909e-07  5.50000000e-01 
 5.60000000e-01  4.57462905e-01  3.39328580e-09  3.44764502e-09  4.57462905e-01  4.57462905e-01  3.32052968e-09  4.57462905e-01  1.55824275e-07  1.32512994e-07  5.60000000e-01 
 5.70000000e-01  4.57462874e-01  3.39328586e-09  3.44764501e-09  4.57462874e-01  4.57462874e-01  3.32052968e-09  4.57462874e-01  1.55824243e-07  1.32512799e-07  5.70000000e-01 
 5.80000000e-01  4.57462880e-01  3.39328580e-09  3.44764496e-09  4.57462880e-01  4.57462880e-01  3.32052968e-09  4.57462880e-01  1.55824225e-07  1.32512703e-07  5.80000000e-01 
 5.90000000e-01  4.57462893e-01  3.39328586e-09  3.44764502e-09  4.57462893e-01  4.57462893e-01  3.32052968e-09  4.57462893e-01  1.55824254e-07  1.32512724e-07  5.90000000e-01 
 6.00000000e-01  4.57462888e-01  3.39328586e-09  3.44764502e-09  4.57462888e-01  4.57462888e-01  3.32052968e-09  4.57462888e-01  1.55824246e-07  1.32512596e-07  6.00000000e-01 
 6.10000000e-01  4.57462879e-01  3.39328580e-09  3.44764502e-09  4.57462879e-01  4.57462879e-01  3.32052968e-09  4.57462879e-01  1.55824240e-07  1.32512504e-07  6.10000000e-01 
 6.20000000e-01  4.57462891e-01  3.39328586e-09  3.44764496e-09  4.57462891e-01  4.57462891e-01  3.32052968e-09  4.57462891e-01  1.55824242e-07  1.32512490e-07  6.20000000e-01 
 6.30000000e-01  4.57462903e-01  3.39328586e-09  3.44764502e-09  4.57462903e-01  4.57462903e-01  3.32052968e-09  4.57462903e-01  1.55824270e-07  1.32512326e-07  6.30000000e-01 
 6.40000000e-01  4.57462871e-01  3.39328580e-09  3.44764501e-09  4.57462871e-01  4.57462871e-01  3.32052968e-09  4.57462871e-01  1.55824226e-07  1.32512199e-07  6.40000000e-01 
 6.50000000e-01  4.57462919e-01  3.39328586e-09  3.44764502e-09  4.57462919e-01  4.57462919e-01  3.32052962e-09  4.57462919e-01  1.55824287e-07  1.32512291e-07  6.50000000e-01 
 6.60000000e-01  4.57462876e-01  3.39328586e-09  3.44764502e-09  4.57462876e-01  4.57462876e-01  3.32052963e-09  4.57462876e-01  1.55824233e-07  1.32512028e-07  6.60000000e-01 
 6.70000000e-01  4.57462887e-01  3.39328586e-09  3.44764502e-09  4.57462887e-01  4.57462887e-01  3.32052967e-09  4.57462887e-01  1.55824244e-07  1.32511900e-07  6.70000000e-01 
 6.80000000e-01  4.57462895e-01  3.39328580e-09  3.44764496e-09  4.57462895e-01  4.57462895e-01  3.32052968e-09  4.57462895e-01  1.55824258e-07  1.32511815e-07  6.80000000e-01 
 6.90000000e-01  4.57462888e-01  3.39328586e-09  3.44764496e-09  4.57462888e-01  4.57462888e-01  3.32052962e-09  4.57462888e-01  1.55824261e-07  1.32511772e-07  6.90000000e-01 
 7.00000000e-01  4.57462886e-01  3.39328586e-09  3.44764502e-09  4.57462886e-01  4.57462886e-01  3.32052963e-09  4.57462886e-01  1.55824250e-07  1.32511666e-07  7.00000000e-01 
 7.10000000e-01  4.57462904e-01  3.39328586e-09  3.44764502e-09  4.57462904e-01  4.57462904e-01  3.32052967e-09  4.57462904e-01  1.55824277e-07  1.32511602e-07  7.10000000e-01 
 7.20000000e-01  4.57462880e-01  3.39328586e-09  3.44764496e-09  4.57462880e-01  4.57462880e-01  3.32052962e-09  4.57462880e-01  1.55824231e-07  1.32511488e-07  7.20000000e-01 
 7.30000000e-01  4.57462888e-01  3.39328580e-09  3.44764496e-09  4.57462888e-01  4.57462888e-01  3.32052969e-09  4.57462888e-01  1.55824253e-07  1.32511346e-07  7.30000000e-01 
 7.40000000e-01  4.57462885e-01  3.39328580e-09  3.44764502e-09  4.57462885e-01  4.57462885e-01  3.32052967e-09  4.57462885e-01  1.55824232e-07  1.32511389e-07  7.40000000e-01 
 7.50000000e-01  4.57462894e-01  3.39328586e-09  3.44764502e-09  4.57462894e-01  4.57462894e-01  3.32052968e-09  4.57462894e-01  1.55824257e-07  1.32511332e-07  7.50000000e-01 
 7.60000000e-01  4.57462891e-01  3.39328580e-09  3.44764496e-09  4.57462891e-01  4.57462891e-01  3.32052968e-09  4.57462891e-01  1.55824248e-07  1.32511204e-07  7.60000000e-01 
 7.70000000e-01  4.57462872e-01  3.39328586e-09  3.44764501e-09  4.57462872e-01  4.57462872e-01  3.32052968e-09  4.57462872e-01  1.55824222e-07  1.32510905e-07  7.70000000e-01 
 7.80000000e-01  4.57462895e-01  3.39328580e-09  3.44764502e-09  4.57462895e-01  4.57462895e-01  3.32052968e-09  4.57462895e-01  1.55824250e-07  1.32510962e-07  7.80000000e-01 
 7.90000000e-01  4.57462894e-01  3.39328586e-09  3.44764502e-09  4.57462894e-01  4.57462894e-01  3.32052968e-09  4.57462894e-01  1.55824254e-07  1.32510927e-07  7.90000000e-01 
 8.00000000e-01  4.57462901e-01  3.39328586e-09  3.44764502e-09  4.57462900e-01  4.57462901e-01  3.32052962e-09  4.57462900e-01  1.55824256e-07  1.32510785e-07  8.00000000e-01 
 8.10000000e-01  4.57462875e-01  3.39328586e-09  3.44764501e-09  4.57462875e-01  4.57462875e-01  3.32052969e-09  4.57462875e-01  1.55824229e-07  1.32510600e-07  8.10000000e-01 
 8.20000000e-01  4.57462886e-01  3.39328580e-09  3.44764502e-09  4.57462886e-01  4.57462886e-01  3.32052967e-09  4.57462885e-01  1.55824237e-07  1.32510557e-07  8.20000000e-01 
 8.30000000e-01  4.57462892e-01  3.39328586e-09  3.44764502e-09  4.57462892e-01  4.57462892e-01  3.32052968e-09  4.57462892e-01  1.55824240e-07  1.32510515e-07  8.30000000e-01 
 8.40000000e-01  4.57462877e-01  3.39328586e-09  3.44764502e-09  4.57462877e-01  4.57462877e-01  3.32052968e-09  4.57462877e-01  1.55824237e-07  1.32510380e-07  8.40000000e-01 
 8.50000000e-01  4.57462864e-01  3.39328586e-09  3.44764501e-09  4.57462864e-01  4.57462864e-01  3.32052968e-09  4.57462864e-01  1.55824205e-07  1.32510245e-07  8.50000000e-01 
 8.60000000e-01  4.57462871e-01  3.39328586e-09  3.44764501e-09  4.57462871e-01  4.57462871e-01  3.32052968e-09  4.57462871e-01  1.55824214e-07  1.32510131e-07  8.60000000e-01 
 8.70000000e-01  4.57462893e-01  3.39328580e-09  3.44764496e-09  4.57462893e-01  4.57462893e-01  3.32052962e-09  4.57462893e-01  1.55824267e-07  1.32510060e-07  8.70000000e-01 
 8.80000000e-01  4.57462874e-01  3.39328586e-09  3.44764496e-09  4.57462874e-01  4.57462874e-01  3.32052963e-09  4.57462874e-01  1.55824236e-07  1.32509882e-07  8.80000000e-01 
 8.90000000e-01  4.57462896e-01  3.39328580e-09  3.44764496e-09  4.57462896e-01  4.57462896e-01  3.32052967e-09  4.57462896e-01  1.55824247e-07  1.32510003e-07  8.90000000e-01 
 9.00000000e-01  4.57462861e-01  3.39328586e-09  3.44764501e-09  4.57462861e-01  4.57462861e-01  3.32052968e-09  4.57462861e-01  1.55824218e-07  1.32509648e-07  9.00000000e-01 
 9.10000000e-01  4.57462909e-01  3.39328586e-09  3.44764502e-09  4.57462909e-01  4.57462909e-01  3.32052962e-09  4.57462909e-01  1.55824274e-07  1.32509612e-07  9.10000000e-01 
 9.20000000e-01  4.57462891e-01  3.39328580e-09  3.44764496e-09  4.57462891e-01  4.57462891e-01  3.32052963e-09  4.57462891e-01  1.55824252e-07  1.32509570e-07  9.20000000e-01 
 9.30000000e-01  4.57462852e-01  3.39328585e-09  3.44764496e-09  4.57462852e-01  4.57462852e-01  3.32052967e-09  4.57462851e-01  1.55824195e-07  1.32509392e-07  9.30000000e-01 
 9.40000000e-01  4.57462888e-01  3.39328586e-09  3.44764502e-09  4.57462888e-01  4.57462888e-01  3.32052968e-09  4.57462888e-01  1.55824257e-07  1.32509363e-07  9.40000000e-01 
 9.50000000e-01  4.57462894e-01  3.39328580e-09  3.44764502e-09  4.57462894e-01  4.57462894e-01  3.32052962e-09  4.57462894e-01  1.55824269e-07  1.32509307e-07  9.50000000e-01 
 9.60000000e-01  4.57462876e-01  3.39328586e-09  3.44764496e-09  4.57462876e-01  4.57462876e-01  3.32052963e-09  4.57462876e-01  1.55824224e-07  1.32509143e-07  9.60000000e-01 
 9.70000000e-01  4.57462918e-01  3.39328586e-09  3.44764502e-09  4.57462918e-01  4.57462918e-01  3.32052967e-09  4.57462918e-01  1.55824282e-07  1.32509193e-07  9.70000000e-01 
 9.80000000e-01  4.57462891e-01  3.39328586e-09  3.44764502e-09  4.57462891e-01  4.57462891e-01  3.32052968e-09  4.57462891e-01  1.55824246e-07  1.32508937e-07  9.80000000e-01 
 9.90000000e-01  4.57462882e-01  3.39328586e-09  3.44764502e-09  4.57462882e-01  4.57462882e-01  3.32052962e-09  4.57462882e-01  1.55824235e-07  1.32508788e-07  9.90000000e-01 
 1.00000000e+00  4.57462884e-01  3.39328586e-09  3.44764496e-09  4.57462884e-01  4.57462884e-01  3.32052963e-09  4.57462884e-01  1.55824236e-07  1.32508724e-07  1.00000000e+00 
 1.01000000e+00  4.57462858e-01  3.39328586e-09  3.44764501e-09  4.57462858e-01  4.57462858e-01  3.32052967e-09  4.57462858e-01  1.55824203e-07  1.32508532e-07  1.01000000e+00 
 1.02000000e+00  4.57462893e-01  3.39328580e-09  3.44764496e-09  4.57462893e-01  4.57462893e-01  3.32052968e-09  4.57462893e-01  1.55824248e-07  1.32508561e-07  1.02000000e+00 
 1.03000000e+00  4.57462883e-01  3.39328580e-09  3.44764496e-09  4.57462883e-01  4.57462883e-01  3.32052962e-09  4.57462883e-01  1.55824247e-07  1.32508333e-07  1.03000000e+00 
 1.04000000e+00  4.57462900e-01  3.39328586e-09  3.44764502e-09  4.57462900e-01  4.57462900e-01  3.32052963e-09  4.57462900e-01  1.55824265e-07  1.32508291e-07  1.04000000e+00 
 1.05000000e+00  4.57462873e-01  3.39328586e-09  3.44764496e-09  4.57462873e-01  4.57462873e-01  3.32052967e-09  4.57462873e-01  1.55824227e-07  1.32508021e-07  1.05000000e+00 
 1.06000000e+00  4.57462886e-01  3.39328580e-09  3.44764502e-09  4.57462886e-01  4.57462886e-01  3.32052968e-09  4.57462886e-01  1.55824235e-07  1.32507957e-07  1.06000000e+00 
 1.07000000e+00  4.57462886e-01  3.39328586e-09  3.44764502e-09  4.57462886e-01  4.57462886e-01  3.32052962e-09  4.57462886e-01  1.55824243e-07  1.32507971e-07  1.07000000e+00 
 1.08000000e+00  4.57462893e-01  3.39328586e-09  3.44764502e-09  4.57462892e-01  4.57462892e-01  3.32052963e-09  4.57462892e-01  1.55824255e-07  1.32507822e-07  1.08000000e+00 
 1.09000000e+00  4.57462901e-01  3.39328586e-09  3.44764496e-09  4.57462901e-01  4.57462901e-01  3.32052967e-09  4.57462901e-01  1.55824272e-07  1.32507850e-07  1.09000000e+00 
 1.10000000e+00  4.57462895e-01  3.39328580e-09  3.44764496e-09  4.57462895e-01  4.57462895e-01  3.32052968e-09  4.57462895e-01  1.55824254e-07  1.32507616e-07  1.10000000e+00 
