 v-sweep         v(b0)           v(b1)           v(b2)           v(b3)           v(b4)           v(b5)           v(b6)           i(vbias)        i(viout)        v(vout)        
 0.00000000e+00  3.39664525e-09  3.60143983e-09  3.85323375e-09  3.27356227e-09  4.61183114e-01  4.61183113e-01  3.39352437e-09  1.64086821e-07  7.70183659e-08  0.00000000e+00 
 1.00000000e-02  3.39664522e-09  3.60143980e-09  3.85323379e-09  3.27356231e-09  4.61183121e-01  4.61183121e-01  3.39352429e-09  1.64086844e-07  7.70179764e-08  1.00000000e-02 
 2.00000000e-02  3.39664516e-09  3.60143975e-09  3.85323379e-09  3.27356230e-09  4.61183099e-01  4.61183099e-01  3.39352436e-09  1.64086800e-07  7.70175010e-08  2.00000000e-02 
 3.00000000e-02  3.39664523e-09  3.60143982e-09  3.85323379e-09  3.27356225e-09  4.61183085e-01  4.61183085e-01  3.39352435e-09  1.64086775e-07  7.70170796e-08  3.00000000e-02 
 4.00000000e-02  3.39664522e-09  3.60143980e-09  3.85323373e-09  3.27356225e-09  4.61183121e-01  4.61183121e-01  3.39352429e-09  1.64086830e-07  7.70169071e-08  4.00000000e-02 
 5.00000000e-02  3.39664522e-09  3.60143975e-09  3.85323373e-09  3.27356225e-09  4.61183122e-01  4.61183122e-01  3.39352435e-09  1.64086841e-07  7.70164315e-08  5.00000000e-02 
 6.00000000e-02  3.39664522e-09  3.60143982e-09  3.85323379e-09  3.27356225e-09  4.61183113e-01  4.61183113e-01  3.39352435e-09  1.64086843e-07  7.70160042e-08  6.00000000e-02 
 7.00000000e-02  3.39664522e-09  3.60143980e-09  3.85323379e-09  3.27356230e-09  4.61183103e-01  4.61183103e-01  3.39352435e-09  1.64086800e-07  7.70158368e-08  7.00000000e-02 
 8.00000000e-02  3.39664522e-09  3.60143980e-09  3.85323379e-09  3.27356225e-09  4.61183101e-01  4.61183101e-01  3.39352429e-09  1.64086800e-07  7.70155593e-08  8.00000000e-02 
 9.00000000e-02  3.39664522e-09  3.60143975e-09  3.85323379e-09  3.27356225e-09  4.61183122e-01  4.61183122e-01  3.39352435e-09  1.64086839e-07  7.70152928e-08  9.00000000e-02 
 1.00000000e-01  3.39664522e-09  3.60143981e-09  3.85323379e-09  3.27356225e-09  4.61183076e-01  4.61183076e-01  3.39352429e-09  1.64086765e-07  7.70150228e-08  1.00000000e-01 
 1.10000000e-01  3.39664522e-09  3.60143980e-09  3.85323373e-09  3.27356231e-09  4.61183114e-01  4.61183113e-01  3.39352435e-09  1.64086828e-07  7.70146906e-08  1.10000000e-01 
 1.20000000e-01  3.39664522e-09  3.60143980e-09  3.85323379e-09  3.27356230e-09  4.61183110e-01  4.61183110e-01  3.39352429e-09  1.64086830e-07  7.70145023e-08  1.20000000e-01 
 1.30000000e-01  3.39664522e-09  3.60143975e-09  3.85323373e-09  3.27356225e-09  4.61183112e-01  4.61183112e-01  3.39352435e-09  1.64086827e-07  7.70142705e-08  1.30000000e-01 
 1.40000000e-01  3.39664522e-09  3.60143976e-09  3.85323379e-09  3.27356230e-09  4.61183099e-01  4.61183099e-01  3.39352429e-09  1.64086806e-07  7.70139854e-08  1.40000000e-01 
 1.50000000e-01  3.39664522e-09  3.60143975e-09  3.85323379e-09  3.27356230e-09  4.61183089e-01  4.61183089e-01  3.39352429e-09  1.64086781e-07  7.70138318e-08  1.50000000e-01 
 1.60000000e-01  3.39664522e-09  3.60143975e-09  3.85323379e-09  3.27356225e-09  4.61183100e-01  4.61183100e-01  3.39352435e-09  1.64086803e-07  7.70136790e-08  1.60000000e-01 
 1.70000000e-01  3.39664522e-09  3.60143981e-09  3.85323379e-09  3.27356230e-09  4.61183106e-01  4.61183106e-01  3.39352435e-09  1.64086819e-07  7.70135227e-08  1.70000000e-01 
 1.80000000e-01  3.39664522e-09  3.60143974e-09  3.85323379e-09  3.27356225e-09  4.61183111e-01  4.61183111e-01  3.39352429e-09  1.64086824e-07  7.70133060e-08  1.80000000e-01 
 1.90000000e-01  3.39664522e-09  3.60143982e-09  3.85323373e-09  3.27356230e-09  4.61183108e-01  4.61183108e-01  3.39352435e-09  1.64086822e-07  7.70131425e-08  1.90000000e-01 
 2.00000000e-01  3.39664522e-09  3.60143980e-09  3.85323373e-09  3.27356225e-09  4.61183120e-01  4.61183120e-01  3.39352429e-09  1.64086836e-07  7.70129702e-08  2.00000000e-01 
 2.10000000e-01  3.39664522e-09  3.60143975e-09  3.85323373e-09  3.27356231e-09  4.61183124e-01  4.61183124e-01  3.39352435e-09  1.64086839e-07  7.70126807e-08  2.10000000e-01 
 2.20000000e-01  3.39664522e-09  3.60143982e-09  3.85323373e-09  3.27356231e-09  4.61183113e-01  4.61183113e-01  3.39352429e-09  1.64086822e-07  7.70125919e-08  2.20000000e-01 
 2.30000000e-01  3.39664522e-09  3.60143980e-09  3.85323379e-09  3.27356225e-09  4.61183123e-01  4.61183122e-01  3.39352429e-09  1.64086840e-07  7.70123556e-08  2.30000000e-01 
 2.40000000e-01  3.39664522e-09  3.60143975e-09  3.85323373e-09  3.27356225e-09  4.61183118e-01  4.61183118e-01  3.39352435e-09  1.64086834e-07  7.70122455e-08  2.40000000e-01 
 2.50000000e-01  3.39664522e-09  3.60143976e-09  3.85323379e-09  3.27356225e-09  4.61183132e-01  4.61183132e-01  3.39352435e-09  1.64086844e-07  7.70121105e-08  2.50000000e-01 
 2.60000000e-01  3.39664522e-09  3.60143981e-09  3.85323373e-09  3.27356225e-09  4.61183094e-01  4.61183094e-01  3.39352429e-09  1.64086794e-07  7.70120092e-08  2.60000000e-01 
 2.70000000e-01  3.39664522e-09  3.60143980e-09  3.85323373e-09  3.27356225e-09  4.61183105e-01  4.61183105e-01  3.39352435e-09  1.64086812e-07  7.70118049e-08  2.70000000e-01 
 2.80000000e-01  3.39664522e-09  3.60143980e-09  3.85323379e-09  3.27356230e-09  4.61183103e-01  4.61183103e-01  3.39352429e-09  1.64086814e-07  7.70117552e-08  2.80000000e-01 
 2.90000000e-01  3.39664522e-09  3.60143980e-09  3.85323379e-09  3.27356231e-09  4.61183113e-01  4.61183113e-01  3.39352435e-09  1.64086832e-07  7.70116095e-08  2.90000000e-01 
 3.00000000e-01  3.39664522e-09  3.60143980e-09  3.85323379e-09  3.27356231e-09  4.61183120e-01  4.61183120e-01  3.39352435e-09  1.64086837e-07  7.70116202e-08  3.00000000e-01 
 3.10000000e-01  3.39664522e-09  3.60143980e-09  3.85323373e-09  3.27356225e-09  4.61183108e-01  4.61183108e-01  3.39352429e-09  1.64086816e-07  7.70114532e-08  3.10000000e-01 
 3.20000000e-01  3.39664522e-09  3.60143980e-09  3.85323379e-09  3.27356225e-09  4.61183112e-01  4.61183112e-01  3.39352429e-09  1.64086831e-07  7.70114141e-08  3.20000000e-01 
 3.30000000e-01  3.39664522e-09  3.60143980e-09  3.85323373e-09  3.27356230e-09  4.61183109e-01  4.61183109e-01  3.39352429e-09  1.64086809e-07  7.70112116e-08  3.30000000e-01 
 3.40000000e-01  3.39664522e-09  3.60143980e-09  3.85323373e-09  3.27356225e-09  4.61183119e-01  4.61183119e-01  3.39352435e-09  1.64086826e-07  7.70111370e-08  3.40000000e-01 
 3.50000000e-01  3.39664522e-09  3.60143975e-09  3.85323379e-09  3.27356231e-09  4.61183128e-01  4.61183127e-01  3.39352435e-09  1.64086834e-07  7.70110944e-08  3.50000000e-01 
 3.60000000e-01  3.39664522e-09  3.60143982e-09  3.85323373e-09  3.27356225e-09  4.61183099e-01  4.61183099e-01  3.39352429e-09  1.64086806e-07  7.70109096e-08  3.60000000e-01 
 3.70000000e-01  3.39664522e-09  3.60143980e-09  3.85323379e-09  3.27356225e-09  4.61183113e-01  4.61183113e-01  3.39352435e-09  1.64086826e-07  7.70108031e-08  3.70000000e-01 
 3.80000000e-01  3.39664522e-09  3.60143980e-09  3.85323379e-09  3.27356225e-09  4.61183105e-01  4.61183105e-01  3.39352435e-09  1.64086822e-07  7.70107071e-08  3.80000000e-01 
 3.90000000e-01  3.39664522e-09  3.60143980e-09  3.85323373e-09  3.27356230e-09  4.61183104e-01  4.61183104e-01  3.39352435e-09  1.64086816e-07  7.70106823e-08  3.90000000e-01 
 4.00000000e-01  3.39664522e-09  3.60143975e-09  3.85323379e-09  3.27356225e-09  4.61183105e-01  4.61183105e-01  3.39352435e-09  1.64086816e-07  7.70105295e-08  4.00000000e-01 
 4.10000000e-01  3.39664522e-09  3.60143982e-09  3.85323379e-09  3.27356231e-09  4.61183114e-01  4.61183114e-01  3.39352435e-09  1.64086820e-07  7.70105437e-08  4.10000000e-01 
 4.20000000e-01  3.39664516e-09  3.60143980e-09  3.85323373e-09  3.27356230e-09  4.61183102e-01  4.61183102e-01  3.39352435e-09  1.64086805e-07  7.70103128e-08  4.20000000e-01 
 4.30000000e-01  3.39664523e-09  3.60143975e-09  3.85323379e-09  3.27356225e-09  4.61183111e-01  4.61183110e-01  3.39352435e-09  1.64086838e-07  7.70102666e-08  4.30000000e-01 
 4.40000000e-01  3.39664522e-09  3.60143982e-09  3.85323373e-09  3.27356231e-09  4.61183111e-01  4.61183111e-01  3.39352435e-09  1.64086824e-07  7.70102950e-08  4.40000000e-01 
 4.50000000e-01  3.39664522e-09  3.60143974e-09  3.85323379e-09  3.27356230e-09  4.61183098e-01  4.61183097e-01  3.39352429e-09  1.64086795e-07  7.70101884e-08  4.50000000e-01 
 4.60000000e-01  3.39664516e-09  3.60143976e-09  3.85323379e-09  3.27356231e-09  4.61183114e-01  4.61183113e-01  3.39352429e-09  1.64086830e-07  7.70100712e-08  4.60000000e-01 
 4.70000000e-01  3.39664522e-09  3.60143975e-09  3.85323373e-09  3.27356225e-09  4.61183090e-01  4.61183090e-01  3.39352435e-09  1.64086801e-07  7.70100250e-08  4.70000000e-01 
 4.80000000e-01  3.39664516e-09  3.60143981e-09  3.85323379e-09  3.27356225e-09  4.61183102e-01  4.61183102e-01  3.39352435e-09  1.64086815e-07  7.70099362e-08  4.80000000e-01 
 4.90000000e-01  3.39664523e-09  3.60143980e-09  3.85323373e-09  3.27356230e-09  4.61183098e-01  4.61183098e-01  3.39352429e-09  1.64086795e-07  7.70099469e-08  4.90000000e-01 
 5.00000000e-01  3.39664522e-09  3.60143975e-09  3.85323373e-09  3.27356225e-09  4.61183115e-01  4.61183115e-01  3.39352429e-09  1.64086837e-07  7.70097905e-08  5.00000000e-01 
 5.10000000e-01  3.39664522e-09  3.60143976e-09  3.85323373e-09  3.27356225e-09  4.61183123e-01  4.61183123e-01  3.39352435e-09  1.64086840e-07  7.70096982e-08  5.10000000e-01 
 5.20000000e-01  3.39664522e-09  3.60143975e-09  3.85323379e-09  3.27356225e-09  4.61183133e-01  4.61183133e-01  3.39352435e-09  1.64086862e-07  7.70096200e-08  5.20000000e-01 
 5.30000000e-01  3.39664522e-09  3.60143975e-09  3.85323379e-09  3.27356230e-09  4.61183103e-01  4.61183103e-01  3.39352435e-09  1.64086805e-07  7.70095667e-08  5.30000000e-01 
 5.40000000e-01  3.39664522e-09  3.60143975e-09  3.85323379e-09  3.27356225e-09  4.61183117e-01  4.61183117e-01  3.39352435e-09  1.64086831e-07  7.70094672e-08  5.40000000e-01 
 5.50000000e-01  3.39664522e-09  3.60143981e-09  3.85323379e-09  3.27356225e-09  4.61183087e-01  4.61183087e-01  3.39352435e-09  1.64086798e-07  7.70095063e-08  5.50000000e-01 
 5.60000000e-01  3.39664522e-09  3.60143980e-09  3.85323379e-09  3.27356225e-09  4.61183115e-01  4.61183115e-01  3.39352435e-09  1.64086823e-07  7.70093251e-08  5.60000000e-01 
 5.70000000e-01  3.39664522e-09  3.60143975e-09  3.85323373e-09  3.27356225e-09  4.61183101e-01  4.61183100e-01  3.39352435e-09  1.64086811e-07  7.70092328e-08  5.70000000e-01 
 5.80000000e-01  3.39664522e-09  3.60143976e-09  3.85323379e-09  3.27356225e-09  4.61183102e-01  4.61183102e-01  3.39352429e-09  1.64086812e-07  7.70091049e-08  5.80000000e-01 
 5.90000000e-01  3.39664522e-09  3.60143981e-09  3.85323379e-09  3.27356231e-09  4.61183131e-01  4.61183131e-01  3.39352435e-09  1.64086856e-07  7.70091475e-08  5.90000000e-01 
 6.00000000e-01  3.39664522e-09  3.60143980e-09  3.85323379e-09  3.27356230e-09  4.61183101e-01  4.61183101e-01  3.39352435e-09  1.64086805e-07  7.70090622e-08  6.00000000e-01 
 6.10000000e-01  3.39664522e-09  3.60143980e-09  3.85323379e-09  3.27356225e-09  4.61183106e-01  4.61183106e-01  3.39352435e-09  1.64086817e-07  7.70090693e-08  6.10000000e-01 
 6.20000000e-01  3.39664522e-09  3.60143980e-09  3.85323379e-09  3.27356230e-09  4.61183109e-01  4.61183109e-01  3.39352429e-09  1.64086817e-07  7.70089272e-08  6.20000000e-01 
 6.30000000e-01  3.39664522e-09  3.60143980e-09  3.85323373e-09  3.27356230e-09  4.61183103e-01  4.61183102e-01  3.39352435e-09  1.64086814e-07  7.70088491e-08  6.30000000e-01 
 6.40000000e-01  3.39664522e-09  3.60143980e-09  3.85323379e-09  3.27356230e-09  4.61183104e-01  4.61183104e-01  3.39352435e-09  1.64086823e-07  7.70088278e-08  6.40000000e-01 
 6.50000000e-01  3.39664522e-09  3.60143975e-09  3.85323373e-09  3.27356225e-09  4.61183091e-01  4.61183091e-01  3.39352435e-09  1.64086785e-07  7.70087638e-08  6.50000000e-01 
 6.60000000e-01  3.39664522e-09  3.60143976e-09  3.85323379e-09  3.27356225e-09  4.61183104e-01  4.61183104e-01  3.39352435e-09  1.64086806e-07  7.70086928e-08  6.60000000e-01 
 6.70000000e-01  3.39664522e-09  3.60143975e-09  3.85323379e-09  3.27356225e-09  4.61183112e-01  4.61183112e-01  3.39352429e-09  1.64086827e-07  7.70086217e-08  6.70000000e-01 
 6.80000000e-01  3.39664516e-09  3.60143975e-09  3.85323373e-09  3.27356231e-09  4.61183114e-01  4.61183114e-01  3.39352435e-09  1.64086834e-07  7.70084441e-08  6.80000000e-01 
 6.90000000e-01  3.39664522e-09  3.60143975e-09  3.85323379e-09  3.27356230e-09  4.61183099e-01  4.61183099e-01  3.39352435e-09  1.64086800e-07  7.70084938e-08  6.90000000e-01 
 7.00000000e-01  3.39664522e-09  3.60143975e-09  3.85323373e-09  3.27356230e-09  4.61183108e-01  4.61183108e-01  3.39352435e-09  1.64086813e-07  7.70083517e-08  7.00000000e-01 
 7.10000000e-01  3.39664522e-09  3.60143975e-09  3.85323379e-09  3.27356225e-09  4.61183095e-01  4.61183094e-01  3.39352429e-09  1.64086801e-07  7.70083659e-08  7.10000000e-01 
 7.20000000e-01  3.39664522e-09  3.60143981e-09  3.85323379e-09  3.27356225e-09  4.61183094e-01  4.61183093e-01  3.39352435e-09  1.64086796e-07  7.70082167e-08  7.20000000e-01 
 7.30000000e-01  3.39664516e-09  3.60143980e-09  3.85323379e-09  3.27356231e-09  4.61183112e-01  4.61183112e-01  3.39352429e-09  1.64086827e-07  7.70081456e-08  7.30000000e-01 
 7.40000000e-01  3.39664523e-09  3.60143975e-09  3.85323379e-09  3.27356225e-09  4.61183111e-01  4.61183111e-01  3.39352435e-09  1.64086817e-07  7.70082593e-08  7.40000000e-01 
 7.50000000e-01  3.39664521e-09  3.60143976e-09  3.85323379e-09  3.27356230e-09  4.61183085e-01  4.61183085e-01  3.39352435e-09  1.64086783e-07  7.70080035e-08  7.50000000e-01 
 7.60000000e-01  3.39664522e-09  3.60143975e-09  3.85323373e-09  3.27356230e-09  4.61183096e-01  4.61183096e-01  3.39352435e-09  1.64086802e-07  7.70080959e-08  7.60000000e-01 
 7.70000000e-01  3.39664522e-09  3.60143981e-09  3.85323379e-09  3.27356225e-09  4.61183081e-01  4.61183081e-01  3.39352435e-09  1.64086784e-07  7.70078756e-08  7.70000000e-01 
 7.80000000e-01  3.39664522e-09  3.60143980e-09  3.85323379e-09  3.27356231e-09  4.61183119e-01  4.61183118e-01  3.39352435e-09  1.64086834e-07  7.70079822e-08  7.80000000e-01 
 7.90000000e-01  3.39664522e-09  3.60143980e-09  3.85323379e-09  3.27356225e-09  4.61183081e-01  4.61183081e-01  3.39352435e-09  1.64086778e-07  7.70077122e-08  7.90000000e-01 
 8.00000000e-01  3.39664522e-09  3.60143980e-09  3.85323373e-09  3.27356230e-09  4.61183080e-01  4.61183080e-01  3.39352429e-09  1.64086777e-07  7.70076554e-08  8.00000000e-01 
 8.10000000e-01  3.39664522e-09  3.60143980e-09  3.85323379e-09  3.27356230e-09  4.61183098e-01  4.61183098e-01  3.39352429e-09  1.64086803e-07  7.70075488e-08  8.10000000e-01 
 8.20000000e-01  3.39664522e-09  3.60143980e-09  3.85323379e-09  3.27356225e-09  4.61183097e-01  4.61183097e-01  3.39352429e-09  1.64086807e-07  7.70075346e-08  8.20000000e-01 
 8.30000000e-01  3.39664522e-09  3.60143980e-09  3.85323379e-09  3.27356225e-09  4.61183111e-01  4.61183111e-01  3.39352429e-09  1.64086820e-07  7.70074635e-08  8.30000000e-01 
 8.40000000e-01  3.39664522e-09  3.60143975e-09  3.85323373e-09  3.27356225e-09  4.61183105e-01  4.61183105e-01  3.39352429e-09  1.64086815e-07  7.70074493e-08  8.40000000e-01 
 8.50000000e-01  3.39664522e-09  3.60143976e-09  3.85323379e-09  3.27356231e-09  4.61183131e-01  4.61183131e-01  3.39352435e-09  1.64086861e-07  7.70074706e-08  8.50000000e-01 
 8.60000000e-01  3.39664522e-09  3.60143981e-09  3.85323373e-09  3.27356231e-09  4.61183120e-01  4.61183120e-01  3.39352435e-09  1.64086835e-07  7.70072717e-08  8.60000000e-01 
 8.70000000e-01  3.39664522e-09  3.60143980e-09  3.85323373e-09  3.27356225e-09  4.61183116e-01  4.61183116e-01  3.39352435e-09  1.64086833e-07  7.70071154e-08  8.70000000e-01 
 8.80000000e-01  3.39664522e-09  3.60143980e-09  3.85323379e-09  3.27356225e-09  4.61183104e-01  4.61183104e-01  3.39352435e-09  1.64086817e-07  7.70072432e-08  8.80000000e-01 
 8.90000000e-01  3.39664522e-09  3.60143980e-09  3.85323379e-09  3.27356230e-09  4.61183109e-01  4.61183109e-01  3.39352429e-09  1.64086822e-07  7.70071864e-08  8.90000000e-01 
 9.00000000e-01  3.39664522e-09  3.60143980e-09  3.85323373e-09  3.27356230e-09  4.61183093e-01  4.61183093e-01  3.39352435e-09  1.64086786e-07  7.70069590e-08  9.00000000e-01 
 9.10000000e-01  3.39664522e-09  3.60143975e-09  3.85323379e-09  3.27356225e-09  4.61183120e-01  4.61183120e-01  3.39352429e-09  1.64086833e-07  7.70070159e-08  9.10000000e-01 
 9.20000000e-01  3.39664522e-09  3.60143982e-09  3.85323373e-09  3.27356230e-09  4.61183104e-01  4.61183104e-01  3.39352429e-09  1.64086807e-07  7.70069946e-08  9.20000000e-01 
 9.30000000e-01  3.39664522e-09  3.60143974e-09  3.85323379e-09  3.27356230e-09  4.61183092e-01  4.61183092e-01  3.39352429e-09  1.64086787e-07  7.70068098e-08  9.30000000e-01 
 9.40000000e-01  3.39664516e-09  3.60143976e-09  3.85323379e-09  3.27356225e-09  4.61183096e-01  4.61183096e-01  3.39352435e-09  1.64086809e-07  7.70068098e-08  9.40000000e-01 
 9.50000000e-01  3.39664523e-09  3.60143981e-09  3.85323379e-09  3.27356230e-09  4.61183103e-01  4.61183103e-01  3.39352435e-09  1.64086812e-07  7.70066677e-08  9.50000000e-01 
 9.60000000e-01  3.39664521e-09  3.60143974e-09  3.85323379e-09  3.27356230e-09  4.61183101e-01  4.61183101e-01  3.39352429e-09  1.64086801e-07  7.70065540e-08  9.60000000e-01 
 9.70000000e-01  3.39664522e-09  3.60143976e-09  3.85323379e-09  3.27356230e-09  4.61183108e-01  4.61183108e-01  3.39352435e-09  1.64086818e-07  7.70066464e-08  9.70000000e-01 
 9.80000000e-01  3.39664522e-09  3.60143975e-09  3.85323373e-09  3.27356230e-09  4.61183108e-01  4.61183107e-01  3.39352435e-09  1.64086816e-07  7.70064688e-08  9.80000000e-01 
 9.90000000e-01  3.39664522e-09  3.60143981e-09  3.85323379e-09  3.27356225e-09  4.61183097e-01  4.61183097e-01  3.39352429e-09  1.64086802e-07  7.70063338e-08  9.90000000e-01 
 1.00000000e+00  3.39664522e-09  3.60143980e-09  3.85323373e-09  3.27356230e-09  4.61183105e-01  4.61183105e-01  3.39352435e-09  1.64086812e-07  7.70063195e-08  1.00000000e+00 
 1.01000000e+00  3.39664522e-09  3.60143975e-09  3.85323379e-09  3.27356230e-09  4.61183099e-01  4.61183099e-01  3.39352435e-09  1.64086796e-07  7.70062769e-08  1.01000000e+00 
 1.02000000e+00  3.39664522e-09  3.60143976e-09  3.85323379e-09  3.27356225e-09  4.61183109e-01  4.61183109e-01  3.39352435e-09  1.64086825e-07  7.70061703e-08  1.02000000e+00 
 1.03000000e+00  3.39664522e-09  3.60143981e-09  3.85323373e-09  3.27356230e-09  4.61183088e-01  4.61183088e-01  3.39352435e-09  1.64086790e-07  7.70060709e-08  1.03000000e+00 
 1.04000000e+00  3.39664522e-09  3.60143974e-09  3.85323379e-09  3.27356231e-09  4.61183119e-01  4.61183119e-01  3.39352435e-09  1.64086834e-07  7.70059998e-08  1.04000000e+00 
 1.05000000e+00  3.39664522e-09  3.60143976e-09  3.85323379e-09  3.27356225e-09  4.61183096e-01  4.61183095e-01  3.39352435e-09  1.64086792e-07  7.70057866e-08  1.05000000e+00 
 1.06000000e+00  3.39664522e-09  3.60143981e-09  3.85323379e-09  3.27356230e-09  4.61183085e-01  4.61183085e-01  3.39352435e-09  1.64086783e-07  7.70059074e-08  1.06000000e+00 
 1.07000000e+00  3.39664522e-09  3.60143980e-09  3.85323379e-09  3.27356225e-09  4.61183112e-01  4.61183112e-01  3.39352435e-09  1.64086824e-07  7.70057440e-08  1.07000000e+00 
 1.08000000e+00  3.39664522e-09  3.60143980e-09  3.85323379e-09  3.27356225e-09  4.61183105e-01  4.61183105e-01  3.39352435e-09  1.64086800e-07  7.70056161e-08  1.08000000e+00 
 1.09000000e+00  3.39664516e-09  3.60143980e-09  3.85323379e-09  3.27356230e-09  4.61183105e-01  4.61183105e-01  3.39352435e-09  1.64086816e-07  7.70056445e-08  1.09000000e+00 
 1.10000000e+00  3.39664518e-09  3.60143975e-09  3.85323379e-09  3.27356225e-09  4.61183102e-01  4.61183102e-01  3.39352435e-09  1.64086801e-07  7.70055166e-08  1.10000000e+00 
