 v-sweep         v(b0)           v(b1)           v(b2)           v(b3)           v(b4)           v(b5)           v(b6)           i(vbias)        i(viout)        v(vout)        
 0.00000000e+00  3.33074089e-09  3.22087489e-09  3.52019189e-09  3.44273946e-09  4.58554809e-01  4.58554809e-01  4.58554809e-01  1.59024677e-07  1.67475393e-07  0.00000000e+00 
 1.00000000e-02  3.33074087e-09  3.22087487e-09  3.52019193e-09  3.44273944e-09  4.58554839e-01  4.58554839e-01  4.58554839e-01  1.59024737e-07  1.67474917e-07  1.00000000e-02 
 2.00000000e-02  3.33074093e-09  3.22087487e-09  3.52019193e-09  3.44273944e-09  4.58554829e-01  4.58554829e-01  4.58554829e-01  1.59024712e-07  1.67474546e-07  2.00000000e-02 
 3.00000000e-02  3.33074093e-09  3.22087493e-09  3.52019193e-09  3.44273944e-09  4.58554822e-01  4.58554822e-01  4.58554822e-01  1.59024705e-07  1.67474037e-07  3.00000000e-02 
 4.00000000e-02  3.33074093e-09  3.22087487e-09  3.52019193e-09  3.44273944e-09  4.58554819e-01  4.58554819e-01  4.58554819e-01  1.59024701e-07  1.67473608e-07  4.00000000e-02 
 5.00000000e-02  3.33074093e-09  3.22087487e-09  3.52019193e-09  3.44273944e-09  4.58554815e-01  4.58554815e-01  4.58554815e-01  1.59024684e-07  1.67473170e-07  5.00000000e-02 
 6.00000000e-02  3.33074093e-09  3.22087492e-09  3.52019193e-09  3.44273944e-09  4.58554804e-01  4.58554804e-01  4.58554804e-01  1.59024677e-07  1.67472800e-07  6.00000000e-02 
 7.00000000e-02  3.33074093e-09  3.22087487e-09  3.52019193e-09  3.44273950e-09  4.58554830e-01  4.58554830e-01  4.58554830e-01  1.59024719e-07  1.67472545e-07  7.00000000e-02 
 8.00000000e-02  3.33074093e-09  3.22087487e-09  3.52019193e-09  3.44273944e-09  4.58554812e-01  4.58554812e-01  4.58554812e-01  1.59024686e-07  1.67472055e-07  8.00000000e-02 
 9.00000000e-02  3.33074093e-09  3.22087493e-09  3.52019193e-09  3.44273944e-09  4.58554821e-01  4.58554821e-01  4.58554821e-01  1.59024712e-07  1.67471759e-07  9.00000000e-02 
 1.00000000e-01  3.33074087e-09  3.22087493e-09  3.52019193e-09  3.44273944e-09  4.58554815e-01  4.58554815e-01  4.58554815e-01  1.59024697e-07  1.67471370e-07  1.00000000e-01 
 1.10000000e-01  3.33074093e-09  3.22087492e-09  3.52019193e-09  3.44273949e-09  4.58554807e-01  4.58554808e-01  4.58554808e-01  1.59024680e-07  1.67471095e-07  1.10000000e-01 
 1.20000000e-01  3.33074087e-09  3.22087492e-09  3.52019193e-09  3.44273944e-09  4.58554806e-01  4.58554806e-01  4.58554806e-01  1.59024690e-07  1.67470803e-07  1.20000000e-01 
 1.30000000e-01  3.33074093e-09  3.22087487e-09  3.52019193e-09  3.44273944e-09  4.58554846e-01  4.58554846e-01  4.58554846e-01  1.59024733e-07  1.67470684e-07  1.30000000e-01 
 1.40000000e-01  3.33074087e-09  3.22087493e-09  3.52019193e-09  3.44273950e-09  4.58554826e-01  4.58554826e-01  4.58554826e-01  1.59024710e-07  1.67470217e-07  1.40000000e-01 
 1.50000000e-01  3.33074087e-09  3.22087487e-09  3.52019193e-09  3.44273944e-09  4.58554842e-01  4.58554842e-01  4.58554842e-01  1.59024742e-07  1.67470116e-07  1.50000000e-01 
 1.60000000e-01  3.33074093e-09  3.22087487e-09  3.52019193e-09  3.44273944e-09  4.58554842e-01  4.58554842e-01  4.58554842e-01  1.59024731e-07  1.67469880e-07  1.60000000e-01 
 1.70000000e-01  3.33074093e-09  3.22087493e-09  3.52019193e-09  3.44273944e-09  4.58554820e-01  4.58554820e-01  4.58554820e-01  1.59024699e-07  1.67469576e-07  1.70000000e-01 
 1.80000000e-01  3.33074087e-09  3.22087487e-09  3.52019193e-09  3.44273944e-09  4.58554854e-01  4.58554854e-01  4.58554854e-01  1.59024754e-07  1.67469354e-07  1.80000000e-01 
 1.90000000e-01  3.33074087e-09  3.22087487e-09  3.52019193e-09  3.44273950e-09  4.58554824e-01  4.58554825e-01  4.58554824e-01  1.59024707e-07  1.67468974e-07  1.90000000e-01 
 2.00000000e-01  3.33074093e-09  3.22087493e-09  3.52019193e-09  3.44273944e-09  4.58554828e-01  4.58554828e-01  4.58554828e-01  1.59024715e-07  1.67468778e-07  2.00000000e-01 
 2.10000000e-01  3.33074087e-09  3.22087487e-09  3.52019193e-09  3.44273950e-09  4.58554835e-01  4.58554836e-01  4.58554835e-01  1.59024728e-07  1.67468562e-07  2.10000000e-01 
 2.20000000e-01  3.33074087e-09  3.22087487e-09  3.52019193e-09  3.44273944e-09  4.58554804e-01  4.58554804e-01  4.58554804e-01  1.59024665e-07  1.67468240e-07  2.20000000e-01 
 2.30000000e-01  3.33074093e-09  3.22087493e-09  3.52019193e-09  3.44273944e-09  4.58554835e-01  4.58554835e-01  4.58554835e-01  1.59024734e-07  1.67468219e-07  2.30000000e-01 
 2.40000000e-01  3.33074093e-09  3.22087493e-09  3.52019193e-09  3.44273944e-09  4.58554833e-01  4.58554833e-01  4.58554833e-01  1.59024726e-07  1.67467935e-07  2.40000000e-01 
 2.50000000e-01  3.33074087e-09  3.22087487e-09  3.52019193e-09  3.44273944e-09  4.58554818e-01  4.58554818e-01  4.58554818e-01  1.59024703e-07  1.67467668e-07  2.50000000e-01 
 2.60000000e-01  3.33074087e-09  3.22087487e-09  3.52019193e-09  3.44273944e-09  4.58554817e-01  4.58554817e-01  4.58554817e-01  1.59024710e-07  1.67467478e-07  2.60000000e-01 
 2.70000000e-01  3.33074087e-09  3.22087493e-09  3.52019193e-09  3.44273944e-09  4.58554819e-01  4.58554819e-01  4.58554819e-01  1.59024710e-07  1.67467267e-07  2.70000000e-01 
 2.80000000e-01  3.33074093e-09  3.22087487e-09  3.52019193e-09  3.44273944e-09  4.58554808e-01  4.58554808e-01  4.58554808e-01  1.59024683e-07  1.67467217e-07  2.80000000e-01 
 2.90000000e-01  3.33074093e-09  3.22087493e-09  3.52019193e-09  3.44273944e-09  4.58554827e-01  4.58554828e-01  4.58554828e-01  1.59024713e-07  1.67467039e-07  2.90000000e-01 
 3.00000000e-01  3.33074093e-09  3.22087487e-09  3.52019193e-09  3.44273950e-09  4.58554817e-01  4.58554817e-01  4.58554817e-01  1.59024702e-07  1.67466904e-07  3.00000000e-01 
 3.10000000e-01  3.33074093e-09  3.22087493e-09  3.52019193e-09  3.44273944e-09  4.58554819e-01  4.58554819e-01  4.58554819e-01  1.59024699e-07  1.67466641e-07  3.10000000e-01 
 3.20000000e-01  3.33074093e-09  3.22087492e-09  3.52019192e-09  3.44273949e-09  4.58554797e-01  4.58554797e-01  4.58554797e-01  1.59024669e-07  1.67466357e-07  3.20000000e-01 
 3.30000000e-01  3.33074087e-09  3.22087493e-09  3.52019193e-09  3.44273944e-09  4.58554812e-01  4.58554812e-01  4.58554812e-01  1.59024709e-07  1.67466318e-07  3.30000000e-01 
 3.40000000e-01  3.33074093e-09  3.22087493e-09  3.52019193e-09  3.44273944e-09  4.58554826e-01  4.58554826e-01  4.58554826e-01  1.59024705e-07  1.67466176e-07  3.40000000e-01 
 3.50000000e-01  3.33074087e-09  3.22087487e-09  3.52019193e-09  3.44273944e-09  4.58554835e-01  4.58554835e-01  4.58554835e-01  1.59024724e-07  1.67465959e-07  3.50000000e-01 
 3.60000000e-01  3.33074093e-09  3.22087493e-09  3.52019193e-09  3.44273944e-09  4.58554832e-01  4.58554832e-01  4.58554832e-01  1.59024719e-07  1.67465927e-07  3.60000000e-01 
 3.70000000e-01  3.33074093e-09  3.22087487e-09  3.52019193e-09  3.44273950e-09  4.58554820e-01  4.58554820e-01  4.58554820e-01  1.59024705e-07  1.67465704e-07  3.70000000e-01 
 3.80000000e-01  3.33074093e-09  3.22087493e-09  3.52019193e-09  3.44273950e-09  4.58554836e-01  4.58554836e-01  4.58554836e-01  1.59024721e-07  1.67465572e-07  3.80000000e-01 
 3.90000000e-01  3.33074093e-09  3.22087487e-09  3.52019193e-09  3.44273949e-09  4.58554811e-01  4.58554811e-01  4.58554811e-01  1.59024664e-07  1.67465341e-07  3.90000000e-01 
 4.00000000e-01  3.33074087e-09  3.22087493e-09  3.52019193e-09  3.44273950e-09  4.58554827e-01  4.58554827e-01  4.58554827e-01  1.59024706e-07  1.67465334e-07  4.00000000e-01 
 4.10000000e-01  3.33074093e-09  3.22087487e-09  3.52019193e-09  3.44273950e-09  4.58554819e-01  4.58554820e-01  4.58554819e-01  1.59024694e-07  1.67465075e-07  4.10000000e-01 
 4.20000000e-01  3.33074093e-09  3.22087487e-09  3.52019193e-09  3.44273950e-09  4.58554830e-01  4.58554830e-01  4.58554830e-01  1.59024708e-07  1.67464961e-07  4.20000000e-01 
 4.30000000e-01  3.33074093e-09  3.22087493e-09  3.52019193e-09  3.44273950e-09  4.58554827e-01  4.58554827e-01  4.58554827e-01  1.59024708e-07  1.67464851e-07  4.30000000e-01 
 4.40000000e-01  3.33074093e-09  3.22087493e-09  3.52019193e-09  3.44273944e-09  4.58554825e-01  4.58554825e-01  4.58554825e-01  1.59024718e-07  1.67464659e-07  4.40000000e-01 
 4.50000000e-01  3.33074093e-09  3.22087493e-09  3.52019193e-09  3.44273949e-09  4.58554812e-01  4.58554812e-01  4.58554812e-01  1.59024699e-07  1.67464403e-07  4.50000000e-01 
 4.60000000e-01  3.33074087e-09  3.22087493e-09  3.52019193e-09  3.44273944e-09  4.58554837e-01  4.58554837e-01  4.58554837e-01  1.59024722e-07  1.67464403e-07  4.60000000e-01 
 4.70000000e-01  3.33074093e-09  3.22087493e-09  3.52019193e-09  3.44273949e-09  4.58554810e-01  4.58554810e-01  4.58554810e-01  1.59024683e-07  1.67464204e-07  4.70000000e-01 
 4.80000000e-01  3.33074093e-09  3.22087493e-09  3.52019193e-09  3.44273944e-09  4.58554831e-01  4.58554831e-01  4.58554831e-01  1.59024724e-07  1.67464101e-07  4.80000000e-01 
 4.90000000e-01  3.33074093e-09  3.22087487e-09  3.52019193e-09  3.44273949e-09  4.58554813e-01  4.58554813e-01  4.58554813e-01  1.59024692e-07  1.67463909e-07  4.90000000e-01 
 5.00000000e-01  3.33074087e-09  3.22087487e-09  3.52019193e-09  3.44273944e-09  4.58554837e-01  4.58554838e-01  4.58554837e-01  1.59024727e-07  1.67463927e-07  5.00000000e-01 
 5.10000000e-01  3.33074087e-09  3.22087487e-09  3.52019193e-09  3.44273944e-09  4.58554800e-01  4.58554800e-01  4.58554800e-01  1.59024684e-07  1.67463572e-07  5.10000000e-01 
 5.20000000e-01  3.33074093e-09  3.22087493e-09  3.52019193e-09  3.44273944e-09  4.58554827e-01  4.58554827e-01  4.58554827e-01  1.59024717e-07  1.67463494e-07  5.20000000e-01 
 5.30000000e-01  3.33074093e-09  3.22087487e-09  3.52019193e-09  3.44273944e-09  4.58554800e-01  4.58554800e-01  4.58554800e-01  1.59024662e-07  1.67463210e-07  5.30000000e-01 
 5.40000000e-01  3.33074093e-09  3.22087493e-09  3.52019193e-09  3.44273944e-09  4.58554846e-01  4.58554846e-01  4.58554846e-01  1.59024726e-07  1.67463426e-07  5.40000000e-01 
 5.50000000e-01  3.33074093e-09  3.22087493e-09  3.52019193e-09  3.44273944e-09  4.58554829e-01  4.58554829e-01  4.58554829e-01  1.59024724e-07  1.67463110e-07  5.50000000e-01 
 5.60000000e-01  3.33074087e-09  3.22087493e-09  3.52019193e-09  3.44273950e-09  4.58554824e-01  4.58554824e-01  4.58554824e-01  1.59024711e-07  1.67463106e-07  5.60000000e-01 
 5.70000000e-01  3.33074087e-09  3.22087487e-09  3.52019193e-09  3.44273944e-09  4.58554831e-01  4.58554831e-01  4.58554831e-01  1.59024729e-07  1.67462932e-07  5.70000000e-01 
 5.80000000e-01  3.33074087e-09  3.22087487e-09  3.52019193e-09  3.44273944e-09  4.58554812e-01  4.58554813e-01  4.58554812e-01  1.59024685e-07  1.67462701e-07  5.80000000e-01 
 5.90000000e-01  3.33074093e-09  3.22087492e-09  3.52019193e-09  3.44273944e-09  4.58554808e-01  4.58554808e-01  4.58554808e-01  1.59024687e-07  1.67462595e-07  5.90000000e-01 
 6.00000000e-01  3.33074087e-09  3.22087493e-09  3.52019193e-09  3.44273944e-09  4.58554821e-01  4.58554821e-01  4.58554821e-01  1.59024703e-07  1.67462481e-07  6.00000000e-01 
 6.10000000e-01  3.33074087e-09  3.22087487e-09  3.52019193e-09  3.44273950e-09  4.58554824e-01  4.58554825e-01  4.58554824e-01  1.59024706e-07  1.67462368e-07  6.10000000e-01 
 6.20000000e-01  3.33074087e-09  3.22087493e-09  3.52019193e-09  3.44273944e-09  4.58554833e-01  4.58554833e-01  4.58554833e-01  1.59024714e-07  1.67462218e-07  6.20000000e-01 
 6.30000000e-01  3.33074093e-09  3.22087487e-09  3.52019193e-09  3.44273950e-09  4.58554823e-01  4.58554823e-01  4.58554823e-01  1.59024696e-07  1.67462161e-07  6.30000000e-01 
 6.40000000e-01  3.33074087e-09  3.22087493e-09  3.52019193e-09  3.44273950e-09  4.58554822e-01  4.58554823e-01  4.58554822e-01  1.59024713e-07  1.67461963e-07  6.40000000e-01 
 6.50000000e-01  3.33074087e-09  3.22087493e-09  3.52019193e-09  3.44273949e-09  4.58554813e-01  4.58554813e-01  4.58554813e-01  1.59024690e-07  1.67461664e-07  6.50000000e-01 
 6.60000000e-01  3.33074087e-09  3.22087487e-09  3.52019193e-09  3.44273950e-09  4.58554837e-01  4.58554838e-01  4.58554838e-01  1.59024722e-07  1.67461735e-07  6.60000000e-01 
 6.70000000e-01  3.33074093e-09  3.22087487e-09  3.52019193e-09  3.44273944e-09  4.58554824e-01  4.58554825e-01  4.58554825e-01  1.59024694e-07  1.67461565e-07  6.70000000e-01 
 6.80000000e-01  3.33074087e-09  3.22087493e-09  3.52019193e-09  3.44273950e-09  4.58554823e-01  4.58554823e-01  4.58554823e-01  1.59024697e-07  1.67461408e-07  6.80000000e-01 
 6.90000000e-01  3.33074093e-09  3.22087487e-09  3.52019193e-09  3.44273944e-09  4.58554813e-01  4.58554813e-01  4.58554813e-01  1.59024687e-07  1.67461252e-07  6.90000000e-01 
 7.00000000e-01  3.33074093e-09  3.22087493e-09  3.52019193e-09  3.44273944e-09  4.58554818e-01  4.58554818e-01  4.58554818e-01  1.59024704e-07  1.67461160e-07  7.00000000e-01 
 7.10000000e-01  3.33074087e-09  3.22087487e-09  3.52019187e-09  3.44273950e-09  4.58554836e-01  4.58554836e-01  4.58554836e-01  1.59024723e-07  1.67461010e-07  7.10000000e-01 
 7.20000000e-01  3.33074093e-09  3.22087493e-09  3.52019193e-09  3.44273949e-09  4.58554815e-01  4.58554815e-01  4.58554815e-01  1.59024689e-07  1.67460776e-07  7.20000000e-01 
 7.30000000e-01  3.33074087e-09  3.22087493e-09  3.52019193e-09  3.44273944e-09  4.58554830e-01  4.58554830e-01  4.58554830e-01  1.59024709e-07  1.67460634e-07  7.30000000e-01 
 7.40000000e-01  3.33074093e-09  3.22087487e-09  3.52019193e-09  3.44273944e-09  4.58554812e-01  4.58554812e-01  4.58554812e-01  1.59024681e-07  1.67460456e-07  7.40000000e-01 
 7.50000000e-01  3.33074087e-09  3.22087487e-09  3.52019193e-09  3.44273944e-09  4.58554819e-01  4.58554819e-01  4.58554819e-01  1.59024699e-07  1.67460378e-07  7.50000000e-01 
 7.60000000e-01  3.33074093e-09  3.22087493e-09  3.52019193e-09  3.44273944e-09  4.58554823e-01  4.58554823e-01  4.58554823e-01  1.59024701e-07  1.67460222e-07  7.60000000e-01 
 7.70000000e-01  3.33074093e-09  3.22087487e-09  3.52019193e-09  3.44273949e-09  4.58554800e-01  4.58554801e-01  4.58554800e-01  1.59024667e-07  1.67459980e-07  7.70000000e-01 
 7.80000000e-01  3.33074093e-09  3.22087487e-09  3.52019193e-09  3.44273950e-09  4.58554826e-01  4.58554827e-01  4.58554826e-01  1.59024722e-07  1.67459987e-07  7.80000000e-01 
 7.90000000e-01  3.33074087e-09  3.22087492e-09  3.52019193e-09  3.44273944e-09  4.58554809e-01  4.58554810e-01  4.58554809e-01  1.59024681e-07  1.67459739e-07  7.90000000e-01 
 8.00000000e-01  3.33074093e-09  3.22087492e-09  3.52019193e-09  3.44273944e-09  4.58554805e-01  4.58554805e-01  4.58554805e-01  1.59024689e-07  1.67459525e-07  8.00000000e-01 
 8.10000000e-01  3.33074093e-09  3.22087493e-09  3.52019193e-09  3.44273944e-09  4.58554851e-01  4.58554851e-01  4.58554851e-01  1.59024748e-07  1.67459646e-07  8.10000000e-01 
 8.20000000e-01  3.33074087e-09  3.22087487e-09  3.52019193e-09  3.44273944e-09  4.58554817e-01  4.58554817e-01  4.58554817e-01  1.59024693e-07  1.67459390e-07  8.20000000e-01 
 8.30000000e-01  3.33074087e-09  3.22087493e-09  3.52019193e-09  3.44273950e-09  4.58554828e-01  4.58554828e-01  4.58554828e-01  1.59024724e-07  1.67459284e-07  8.30000000e-01 
 8.40000000e-01  3.33074087e-09  3.22087487e-09  3.52019193e-09  3.44273944e-09  4.58554813e-01  4.58554813e-01  4.58554813e-01  1.59024682e-07  1.67458992e-07  8.40000000e-01 
 8.50000000e-01  3.33074087e-09  3.22087493e-09  3.52019193e-09  3.44273944e-09  4.58554833e-01  4.58554833e-01  4.58554833e-01  1.59024705e-07  1.67458879e-07  8.50000000e-01 
 8.60000000e-01  3.33074093e-09  3.22087493e-09  3.52019193e-09  3.44273944e-09  4.58554820e-01  4.58554820e-01  4.58554820e-01  1.59024697e-07  1.67458673e-07  8.60000000e-01 
 8.70000000e-01  3.33074093e-09  3.22087487e-09  3.52019193e-09  3.44273950e-09  4.58554838e-01  4.58554838e-01  4.58554838e-01  1.59024731e-07  1.67458651e-07  8.70000000e-01 
 8.80000000e-01  3.33074093e-09  3.22087487e-09  3.52019193e-09  3.44273944e-09  4.58554827e-01  4.58554827e-01  4.58554827e-01  1.59024717e-07  1.67458445e-07  8.80000000e-01 
 8.90000000e-01  3.33074087e-09  3.22087487e-09  3.52019193e-09  3.44273944e-09  4.58554834e-01  4.58554834e-01  4.58554834e-01  1.59024716e-07  1.67458388e-07  8.90000000e-01 
 9.00000000e-01  3.33074087e-09  3.22087487e-09  3.52019193e-09  3.44273944e-09  4.58554808e-01  4.58554808e-01  4.58554808e-01  1.59024671e-07  1.67458147e-07  9.00000000e-01 
 9.10000000e-01  3.33074093e-09  3.22087487e-09  3.52019199e-09  3.44273944e-09  4.58554834e-01  4.58554834e-01  4.58554834e-01  1.59024737e-07  1.67457976e-07  9.10000000e-01 
 9.20000000e-01  3.33074087e-09  3.22087487e-09  3.52019191e-09  3.44273944e-09  4.58554804e-01  4.58554804e-01  4.58554804e-01  1.59024683e-07  1.67457777e-07  9.20000000e-01 
 9.30000000e-01  3.33074093e-09  3.22087493e-09  3.52019193e-09  3.44273944e-09  4.58554828e-01  4.58554828e-01  4.58554828e-01  1.59024719e-07  1.67457692e-07  9.30000000e-01 
 9.40000000e-01  3.33074093e-09  3.22087493e-09  3.52019193e-09  3.44273950e-09  4.58554825e-01  4.58554825e-01  4.58554825e-01  1.59024702e-07  1.67457571e-07  9.40000000e-01 
 9.50000000e-01  3.33074093e-09  3.22087493e-09  3.52019193e-09  3.44273949e-09  4.58554814e-01  4.58554814e-01  4.58554814e-01  1.59024698e-07  1.67457415e-07  9.50000000e-01 
 9.60000000e-01  3.33074087e-09  3.22087487e-09  3.52019193e-09  3.44273944e-09  4.58554836e-01  4.58554836e-01  4.58554836e-01  1.59024719e-07  1.67457308e-07  9.60000000e-01 
 9.70000000e-01  3.33074093e-09  3.22087492e-09  3.52019192e-09  3.44273949e-09  4.58554795e-01  4.58554795e-01  4.58554795e-01  1.59024659e-07  1.67457010e-07  9.70000000e-01 
 9.80000000e-01  3.33074087e-09  3.22087493e-09  3.52019193e-09  3.44273944e-09  4.58554842e-01  4.58554842e-01  4.58554842e-01  1.59024743e-07  1.67456939e-07  9.80000000e-01 
 9.90000000e-01  3.33074087e-09  3.22087487e-09  3.52019193e-09  3.44273950e-09  4.58554817e-01  4.58554817e-01  4.58554817e-01  1.59024702e-07  1.67456683e-07  9.90000000e-01 
 1.00000000e+00  3.33074093e-09  3.22087493e-09  3.52019193e-09  3.44273944e-09  4.58554838e-01  4.58554838e-01  4.58554838e-01  1.59024732e-07  1.67456577e-07  1.00000000e+00 
 1.01000000e+00  3.33074093e-09  3.22087493e-09  3.52019193e-09  3.44273949e-09  4.58554812e-01  4.58554812e-01  4.58554812e-01  1.59024694e-07  1.67456335e-07  1.01000000e+00 
 1.02000000e+00  3.33074087e-09  3.22087493e-09  3.52019193e-09  3.44273944e-09  4.58554835e-01  4.58554835e-01  4.58554835e-01  1.59024728e-07  1.67456385e-07  1.02000000e+00 
 1.03000000e+00  3.33074087e-09  3.22087493e-09  3.52019193e-09  3.44273944e-09  4.58554814e-01  4.58554814e-01  4.58554814e-01  1.59024686e-07  1.67456008e-07  1.03000000e+00 
 1.04000000e+00  3.33074087e-09  3.22087493e-09  3.52019193e-09  3.44273944e-09  4.58554825e-01  4.58554825e-01  4.58554825e-01  1.59024711e-07  1.67455944e-07  1.04000000e+00 
 1.05000000e+00  3.33074093e-09  3.22087493e-09  3.52019193e-09  3.44273944e-09  4.58554814e-01  4.58554814e-01  4.58554814e-01  1.59024676e-07  1.67455624e-07  1.05000000e+00 
 1.06000000e+00  3.33074087e-09  3.22087487e-09  3.52019193e-09  3.44273950e-09  4.58554826e-01  4.58554826e-01  4.58554826e-01  1.59024717e-07  1.67455475e-07  1.06000000e+00 
 1.07000000e+00  3.33074087e-09  3.22087487e-09  3.52019193e-09  3.44273944e-09  4.58554814e-01  4.58554814e-01  4.58554814e-01  1.59024690e-07  1.67455177e-07  1.07000000e+00 
 1.08000000e+00  3.33074087e-09  3.22087487e-09  3.52019193e-09  3.44273950e-09  4.58554830e-01  4.58554830e-01  4.58554830e-01  1.59024709e-07  1.67455227e-07  1.08000000e+00 
 1.09000000e+00  3.33074093e-09  3.22087487e-09  3.52019193e-09  3.44273944e-09  4.58554825e-01  4.58554825e-01  4.58554825e-01  1.59024710e-07  1.67454949e-07  1.09000000e+00 
 1.10000000e+00  3.33074087e-09  3.22087487e-09  3.52019193e-09  3.44273944e-09  4.58554833e-01  4.58554833e-01  4.58554833e-01  1.59024717e-07  1.67454765e-07  1.10000000e+00 
