 v-sweep         v(b0)           v(b1)           v(b2)           v(b3)           v(b4)           v(b5)           v(b6)           i(vbias)        i(viout)        v(vout)        
 0.00000000e+00  4.58839631e-01  4.58839631e-01  4.58839631e-01  3.36279182e-09  4.58839631e-01  4.58839631e-01  3.40753469e-09  1.59501036e-07  8.45346584e-08  0.00000000e+00 
 1.00000000e-02  4.58839656e-01  4.58839657e-01  4.58839657e-01  3.36279185e-09  4.58839656e-01  4.58839657e-01  3.40753466e-09  1.59501070e-07  8.45343375e-08  1.00000000e-02 
 2.00000000e-02  4.58839656e-01  4.58839656e-01  4.58839656e-01  3.36279179e-09  4.58839656e-01  4.58839656e-01  3.40753472e-09  1.59501049e-07  8.45338570e-08  2.00000000e-02 
 3.00000000e-02  4.58839621e-01  4.58839621e-01  4.58839621e-01  3.36279179e-09  4.58839621e-01  4.58839621e-01  3.40753466e-09  1.59501009e-07  8.45333574e-08  3.00000000e-02 
 4.00000000e-02  4.58839617e-01  4.58839617e-01  4.58839617e-01  3.36279185e-09  4.58839617e-01  4.58839617e-01  3.40753466e-09  1.59501007e-07  8.45331329e-08  4.00000000e-02 
 5.00000000e-02  4.58839611e-01  4.58839611e-01  4.58839611e-01  3.36279185e-09  4.58839611e-01  4.58839611e-01  3.40753466e-09  1.59501001e-07  8.45327732e-08  5.00000000e-02 
 6.00000000e-02  4.58839648e-01  4.58839648e-01  4.58839648e-01  3.36279185e-09  4.58839648e-01  4.58839648e-01  3.40753466e-09  1.59501036e-07  8.45324895e-08  6.00000000e-02 
 7.00000000e-02  4.58839619e-01  4.58839619e-01  4.58839619e-01  3.36279185e-09  4.58839619e-01  4.58839619e-01  3.40753466e-09  1.59500994e-07  8.45321608e-08  7.00000000e-02 
 8.00000000e-02  4.58839661e-01  4.58839661e-01  4.58839661e-01  3.36279185e-09  4.58839661e-01  4.58839661e-01  3.40753466e-09  1.59501074e-07  8.45319139e-08  8.00000000e-02 
 9.00000000e-02  4.58839652e-01  4.58839652e-01  4.58839652e-01  3.36279179e-09  4.58839652e-01  4.58839652e-01  3.40753466e-09  1.59501039e-07  8.45316670e-08  9.00000000e-02 
 1.00000000e-01  4.58839629e-01  4.58839629e-01  4.58839629e-01  3.36279185e-09  4.58839629e-01  4.58839629e-01  3.40753466e-09  1.59501018e-07  8.45312442e-08  1.00000000e-01 
 1.10000000e-01  4.58839643e-01  4.58839643e-01  4.58839643e-01  3.36279185e-09  4.58839643e-01  4.58839643e-01  3.40753466e-09  1.59501030e-07  8.45310790e-08  1.10000000e-01 
 1.20000000e-01  4.58839625e-01  4.58839625e-01  4.58839625e-01  3.36279185e-09  4.58839625e-01  4.58839625e-01  3.40753472e-09  1.59501023e-07  8.45308357e-08  1.20000000e-01 
 1.30000000e-01  4.58839652e-01  4.58839652e-01  4.58839653e-01  3.36279185e-09  4.58839652e-01  4.58839652e-01  3.40753466e-09  1.59501039e-07  8.45305843e-08  1.30000000e-01 
 1.40000000e-01  4.58839647e-01  4.58839647e-01  4.58839647e-01  3.36279179e-09  4.58839647e-01  4.58839647e-01  3.40753466e-09  1.59501043e-07  8.45303871e-08  1.40000000e-01 
 1.50000000e-01  4.58839626e-01  4.58839626e-01  4.58839626e-01  3.36279185e-09  4.58839626e-01  4.58839626e-01  3.40753472e-09  1.59501032e-07  8.45301003e-08  1.50000000e-01 
 1.60000000e-01  4.58839661e-01  4.58839661e-01  4.58839661e-01  3.36279179e-09  4.58839661e-01  4.58839661e-01  3.40753466e-09  1.59501069e-07  8.45298942e-08  1.60000000e-01 
 1.70000000e-01  4.58839669e-01  4.58839669e-01  4.58839669e-01  3.36279185e-09  4.58839669e-01  4.58839669e-01  3.40753466e-09  1.59501079e-07  8.45298747e-08  1.70000000e-01 
 1.80000000e-01  4.58839646e-01  4.58839646e-01  4.58839647e-01  3.36279179e-09  4.58839646e-01  4.58839647e-01  3.40753466e-09  1.59501057e-07  8.45295745e-08  1.80000000e-01 
 1.90000000e-01  4.58839640e-01  4.58839640e-01  4.58839640e-01  3.36279185e-09  4.58839640e-01  4.58839640e-01  3.40753472e-09  1.59501047e-07  8.45294768e-08  1.90000000e-01 
 2.00000000e-01  4.58839624e-01  4.58839624e-01  4.58839624e-01  3.36279185e-09  4.58839624e-01  4.58839624e-01  3.40753466e-09  1.59501019e-07  8.45292050e-08  2.00000000e-01 
 2.10000000e-01  4.58839665e-01  4.58839665e-01  4.58839665e-01  3.36279185e-09  4.58839665e-01  4.58839665e-01  3.40753472e-09  1.59501065e-07  8.45291410e-08  2.10000000e-01 
 2.20000000e-01  4.58839624e-01  4.58839624e-01  4.58839624e-01  3.36279185e-09  4.58839624e-01  4.58839624e-01  3.40753466e-09  1.59501004e-07  8.45289119e-08  2.20000000e-01 
 2.30000000e-01  4.58839646e-01  4.58839646e-01  4.58839646e-01  3.36279185e-09  4.58839646e-01  4.58839646e-01  3.40753466e-09  1.59501044e-07  8.45287271e-08  2.30000000e-01 
 2.40000000e-01  4.58839655e-01  4.58839655e-01  4.58839656e-01  3.36279185e-09  4.58839655e-01  4.58839655e-01  3.40753466e-09  1.59501054e-07  8.45287129e-08  2.40000000e-01 
 2.50000000e-01  4.58839659e-01  4.58839659e-01  4.58839659e-01  3.36279179e-09  4.58839659e-01  4.58839659e-01  3.40753466e-09  1.59501055e-07  8.45284216e-08  2.50000000e-01 
 2.60000000e-01  4.58839632e-01  4.58839632e-01  4.58839632e-01  3.36279185e-09  4.58839632e-01  4.58839632e-01  3.40753466e-09  1.59501023e-07  8.45283950e-08  2.60000000e-01 
 2.70000000e-01  4.58839652e-01  4.58839652e-01  4.58839652e-01  3.36279179e-09  4.58839652e-01  4.58839652e-01  3.40753466e-09  1.59501057e-07  8.45282617e-08  2.70000000e-01 
 2.80000000e-01  4.58839634e-01  4.58839634e-01  4.58839634e-01  3.36279185e-09  4.58839634e-01  4.58839634e-01  3.40753466e-09  1.59501029e-07  8.45280628e-08  2.80000000e-01 
 2.90000000e-01  4.58839671e-01  4.58839671e-01  4.58839671e-01  3.36279185e-09  4.58839671e-01  4.58839671e-01  3.40753466e-09  1.59501068e-07  8.45280503e-08  2.90000000e-01 
 3.00000000e-01  4.58839647e-01  4.58839647e-01  4.58839648e-01  3.36279185e-09  4.58839647e-01  4.58839648e-01  3.40753472e-09  1.59501046e-07  8.45279153e-08  3.00000000e-01 
 3.10000000e-01  4.58839657e-01  4.58839657e-01  4.58839657e-01  3.36279179e-09  4.58839657e-01  4.58839657e-01  3.40753472e-09  1.59501063e-07  8.45277626e-08  3.10000000e-01 
 3.20000000e-01  4.58839627e-01  4.58839627e-01  4.58839627e-01  3.36279185e-09  4.58839626e-01  4.58839627e-01  3.40753466e-09  1.59501020e-07  8.45276453e-08  3.20000000e-01 
 3.30000000e-01  4.58839624e-01  4.58839624e-01  4.58839624e-01  3.36279185e-09  4.58839624e-01  4.58839624e-01  3.40753466e-09  1.59501017e-07  8.45274393e-08  3.30000000e-01 
 3.40000000e-01  4.58839634e-01  4.58839634e-01  4.58839634e-01  3.36279185e-09  4.58839634e-01  4.58839634e-01  3.40753466e-09  1.59501025e-07  8.45273647e-08  3.40000000e-01 
 3.50000000e-01  4.58839620e-01  4.58839620e-01  4.58839620e-01  3.36279185e-09  4.58839620e-01  4.58839620e-01  3.40753466e-09  1.59501018e-07  8.45271622e-08  3.50000000e-01 
 3.60000000e-01  4.58839655e-01  4.58839655e-01  4.58839655e-01  3.36279185e-09  4.58839655e-01  4.58839655e-01  3.40753466e-09  1.59501059e-07  8.45272758e-08  3.60000000e-01 
 3.70000000e-01  4.58839617e-01  4.58839617e-01  4.58839617e-01  3.36279185e-09  4.58839617e-01  4.58839617e-01  3.40753472e-09  1.59500996e-07  8.45269952e-08  3.70000000e-01 
 3.80000000e-01  4.58839638e-01  4.58839638e-01  4.58839638e-01  3.36279185e-09  4.58839638e-01  4.58839638e-01  3.40753466e-09  1.59501022e-07  8.45270307e-08  3.80000000e-01 
 3.90000000e-01  4.58839625e-01  4.58839625e-01  4.58839625e-01  3.36279185e-09  4.58839625e-01  4.58839625e-01  3.40753466e-09  1.59501025e-07  8.45269845e-08  3.90000000e-01 
 4.00000000e-01  4.58839646e-01  4.58839646e-01  4.58839646e-01  3.36279185e-09  4.58839646e-01  4.58839646e-01  3.40753466e-09  1.59501051e-07  8.45269312e-08  4.00000000e-01 
 4.10000000e-01  4.58839638e-01  4.58839638e-01  4.58839638e-01  3.36279185e-09  4.58839638e-01  4.58839638e-01  3.40753466e-09  1.59501035e-07  8.45267110e-08  4.10000000e-01 
 4.20000000e-01  4.58839649e-01  4.58839649e-01  4.58839649e-01  3.36279179e-09  4.58839649e-01  4.58839649e-01  3.40753472e-09  1.59501050e-07  8.45267571e-08  4.20000000e-01 
 4.30000000e-01  4.58839654e-01  4.58839654e-01  4.58839654e-01  3.36279185e-09  4.58839654e-01  4.58839654e-01  3.40753472e-09  1.59501074e-07  8.45266683e-08  4.30000000e-01 
 4.40000000e-01  4.58839608e-01  4.58839608e-01  4.58839609e-01  3.36279185e-09  4.58839608e-01  4.58839608e-01  3.40753472e-09  1.59501000e-07  8.45264587e-08  4.40000000e-01 
 4.50000000e-01  4.58839618e-01  4.58839618e-01  4.58839618e-01  3.36279185e-09  4.58839618e-01  4.58839618e-01  3.40753466e-09  1.59500998e-07  8.45263983e-08  4.50000000e-01 
 4.60000000e-01  4.58839623e-01  4.58839623e-01  4.58839623e-01  3.36279185e-09  4.58839623e-01  4.58839623e-01  3.40753466e-09  1.59501014e-07  8.45263699e-08  4.60000000e-01 
 4.70000000e-01  4.58839648e-01  4.58839648e-01  4.58839648e-01  3.36279185e-09  4.58839648e-01  4.58839648e-01  3.40753466e-09  1.59501054e-07  8.45263024e-08  4.70000000e-01 
 4.80000000e-01  4.58839651e-01  4.58839651e-01  4.58839651e-01  3.36279185e-09  4.58839651e-01  4.58839651e-01  3.40753466e-09  1.59501053e-07  8.45262562e-08  4.80000000e-01 
 4.90000000e-01  4.58839646e-01  4.58839646e-01  4.58839646e-01  3.36279185e-09  4.58839646e-01  4.58839646e-01  3.40753466e-09  1.59501041e-07  8.45261710e-08  4.90000000e-01 
 5.00000000e-01  4.58839631e-01  4.58839631e-01  4.58839632e-01  3.36279185e-09  4.58839631e-01  4.58839632e-01  3.40753466e-09  1.59501019e-07  8.45260537e-08  5.00000000e-01 
 5.10000000e-01  4.58839621e-01  4.58839621e-01  4.58839621e-01  3.36279185e-09  4.58839621e-01  4.58839621e-01  3.40753466e-09  1.59501021e-07  8.45260288e-08  5.10000000e-01 
 5.20000000e-01  4.58839660e-01  4.58839660e-01  4.58839660e-01  3.36279185e-09  4.58839660e-01  4.58839660e-01  3.40753472e-09  1.59501073e-07  8.45260502e-08  5.20000000e-01 
 5.30000000e-01  4.58839631e-01  4.58839631e-01  4.58839631e-01  3.36279185e-09  4.58839631e-01  4.58839631e-01  3.40753472e-09  1.59501023e-07  8.45257837e-08  5.30000000e-01 
 5.40000000e-01  4.58839644e-01  4.58839644e-01  4.58839644e-01  3.36279185e-09  4.58839644e-01  4.58839644e-01  3.40753466e-09  1.59501043e-07  8.45258192e-08  5.40000000e-01 
 5.50000000e-01  4.58839629e-01  4.58839629e-01  4.58839629e-01  3.36279179e-09  4.58839629e-01  4.58839629e-01  3.40753466e-09  1.59501036e-07  8.45256913e-08  5.50000000e-01 
 5.60000000e-01  4.58839614e-01  4.58839614e-01  4.58839614e-01  3.36279185e-09  4.58839614e-01  4.58839614e-01  3.40753466e-09  1.59500995e-07  8.45255563e-08  5.60000000e-01 
 5.70000000e-01  4.58839670e-01  4.58839670e-01  4.58839670e-01  3.36279185e-09  4.58839670e-01  4.58839670e-01  3.40753466e-09  1.59501083e-07  8.45256594e-08  5.70000000e-01 
 5.80000000e-01  4.58839621e-01  4.58839621e-01  4.58839621e-01  3.36279185e-09  4.58839621e-01  4.58839621e-01  3.40753466e-09  1.59501020e-07  8.45254888e-08  5.80000000e-01 
 5.90000000e-01  4.58839643e-01  4.58839643e-01  4.58839643e-01  3.36279185e-09  4.58839643e-01  4.58839643e-01  3.40753466e-09  1.59501018e-07  8.45253680e-08  5.90000000e-01 
 6.00000000e-01  4.58839630e-01  4.58839630e-01  4.58839630e-01  3.36279185e-09  4.58839630e-01  4.58839630e-01  3.40753466e-09  1.59501021e-07  8.45252615e-08  6.00000000e-01 
 6.10000000e-01  4.58839633e-01  4.58839633e-01  4.58839633e-01  3.36279185e-09  4.58839633e-01  4.58839633e-01  3.40753466e-09  1.59501026e-07  8.45252401e-08  6.10000000e-01 
 6.20000000e-01  4.58839656e-01  4.58839656e-01  4.58839657e-01  3.36279185e-09  4.58839656e-01  4.58839656e-01  3.40753466e-09  1.59501052e-07  8.45252970e-08  6.20000000e-01 
 6.30000000e-01  4.58839653e-01  4.58839653e-01  4.58839653e-01  3.36279185e-09  4.58839653e-01  4.58839653e-01  3.40753472e-09  1.59501053e-07  8.45251904e-08  6.30000000e-01 
 6.40000000e-01  4.58839639e-01  4.58839639e-01  4.58839639e-01  3.36279185e-09  4.58839639e-01  4.58839639e-01  3.40753466e-09  1.59501031e-07  8.45250838e-08  6.40000000e-01 
 6.50000000e-01  4.58839637e-01  4.58839637e-01  4.58839637e-01  3.36279179e-09  4.58839637e-01  4.58839637e-01  3.40753466e-09  1.59501041e-07  8.45249843e-08  6.50000000e-01 
 6.60000000e-01  4.58839640e-01  4.58839640e-01  4.58839640e-01  3.36279185e-09  4.58839640e-01  4.58839640e-01  3.40753466e-09  1.59501042e-07  8.45249915e-08  6.60000000e-01 
 6.70000000e-01  4.58839633e-01  4.58839633e-01  4.58839634e-01  3.36279185e-09  4.58839633e-01  4.58839633e-01  3.40753466e-09  1.59501035e-07  8.45247428e-08  6.70000000e-01 
 6.80000000e-01  4.58839613e-01  4.58839613e-01  4.58839613e-01  3.36279185e-09  4.58839613e-01  4.58839613e-01  3.40753466e-09  1.59501017e-07  8.45247499e-08  6.80000000e-01 
 6.90000000e-01  4.58839665e-01  4.58839665e-01  4.58839665e-01  3.36279185e-09  4.58839665e-01  4.58839665e-01  3.40753466e-09  1.59501059e-07  8.45247214e-08  6.90000000e-01 
 7.00000000e-01  4.58839633e-01  4.58839633e-01  4.58839633e-01  3.36279185e-09  4.58839633e-01  4.58839633e-01  3.40753472e-09  1.59501010e-07  8.45246433e-08  7.00000000e-01 
 7.10000000e-01  4.58839648e-01  4.58839648e-01  4.58839648e-01  3.36279185e-09  4.58839648e-01  4.58839648e-01  3.40753466e-09  1.59501056e-07  8.45246007e-08  7.10000000e-01 
 7.20000000e-01  4.58839630e-01  4.58839630e-01  4.58839630e-01  3.36279185e-09  4.58839630e-01  4.58839630e-01  3.40753466e-09  1.59501025e-07  8.45245225e-08  7.20000000e-01 
 7.30000000e-01  4.58839640e-01  4.58839640e-01  4.58839640e-01  3.36279185e-09  4.58839640e-01  4.58839640e-01  3.40753466e-09  1.59501035e-07  8.45245154e-08  7.30000000e-01 
 7.40000000e-01  4.58839645e-01  4.58839645e-01  4.58839645e-01  3.36279185e-09  4.58839644e-01  4.58839645e-01  3.40753472e-09  1.59501050e-07  8.45243378e-08  7.40000000e-01 
 7.50000000e-01  4.58839663e-01  4.58839663e-01  4.58839663e-01  3.36279185e-09  4.58839663e-01  4.58839663e-01  3.40753466e-09  1.59501071e-07  8.45243235e-08  7.50000000e-01 
 7.60000000e-01  4.58839625e-01  4.58839625e-01  4.58839625e-01  3.36279185e-09  4.58839625e-01  4.58839625e-01  3.40753466e-09  1.59501019e-07  8.45243093e-08  7.60000000e-01 
 7.70000000e-01  4.58839622e-01  4.58839622e-01  4.58839623e-01  3.36279185e-09  4.58839622e-01  4.58839623e-01  3.40753466e-09  1.59501024e-07  8.45241388e-08  7.70000000e-01 
 7.80000000e-01  4.58839631e-01  4.58839631e-01  4.58839631e-01  3.36279185e-09  4.58839631e-01  4.58839631e-01  3.40753466e-09  1.59501037e-07  8.45241672e-08  7.80000000e-01 
 7.90000000e-01  4.58839643e-01  4.58839643e-01  4.58839643e-01  3.36279185e-09  4.58839643e-01  4.58839643e-01  3.40753466e-09  1.59501043e-07  8.45239256e-08  7.90000000e-01 
 8.00000000e-01  4.58839602e-01  4.58839602e-01  4.58839602e-01  3.36279185e-09  4.58839602e-01  4.58839602e-01  3.40753466e-09  1.59500994e-07  8.45238048e-08  8.00000000e-01 
 8.10000000e-01  4.58839611e-01  4.58839611e-01  4.58839611e-01  3.36279179e-09  4.58839611e-01  4.58839611e-01  3.40753466e-09  1.59500994e-07  8.45238617e-08  8.10000000e-01 
 8.20000000e-01  4.58839625e-01  4.58839625e-01  4.58839625e-01  3.36279185e-09  4.58839625e-01  4.58839625e-01  3.40753472e-09  1.59501009e-07  8.45236769e-08  8.20000000e-01 
 8.30000000e-01  4.58839646e-01  4.58839646e-01  4.58839647e-01  3.36279179e-09  4.58839646e-01  4.58839647e-01  3.40753466e-09  1.59501048e-07  8.45238119e-08  8.30000000e-01 
 8.40000000e-01  4.58839642e-01  4.58839642e-01  4.58839642e-01  3.36279185e-09  4.58839642e-01  4.58839642e-01  3.40753472e-09  1.59501034e-07  8.45236841e-08  8.40000000e-01 
 8.50000000e-01  4.58839642e-01  4.58839642e-01  4.58839642e-01  3.36279179e-09  4.58839641e-01  4.58839642e-01  3.40753466e-09  1.59501042e-07  8.45236485e-08  8.50000000e-01 
 8.60000000e-01  4.58839665e-01  4.58839665e-01  4.58839665e-01  3.36279185e-09  4.58839665e-01  4.58839665e-01  3.40753466e-09  1.59501088e-07  8.45235704e-08  8.60000000e-01 
 8.70000000e-01  4.58839632e-01  4.58839632e-01  4.58839632e-01  3.36279185e-09  4.58839632e-01  4.58839632e-01  3.40753466e-09  1.59501012e-07  8.45234425e-08  8.70000000e-01 
 8.80000000e-01  4.58839650e-01  4.58839650e-01  4.58839650e-01  3.36279185e-09  4.58839650e-01  4.58839650e-01  3.40753466e-09  1.59501047e-07  8.45234638e-08  8.80000000e-01 
 8.90000000e-01  4.58839656e-01  4.58839656e-01  4.58839657e-01  3.36279185e-09  4.58839656e-01  4.58839657e-01  3.40753466e-09  1.59501056e-07  8.45233146e-08  8.90000000e-01 
 9.00000000e-01  4.58839624e-01  4.58839624e-01  4.58839624e-01  3.36279179e-09  4.58839624e-01  4.58839624e-01  3.40753472e-09  1.59501012e-07  8.45233075e-08  9.00000000e-01 
 9.10000000e-01  4.58839649e-01  4.58839649e-01  4.58839649e-01  3.36279185e-09  4.58839649e-01  4.58839649e-01  3.40753466e-09  1.59501072e-07  8.45231085e-08  9.10000000e-01 
 9.20000000e-01  4.58839614e-01  4.58839614e-01  4.58839614e-01  3.36279179e-09  4.58839614e-01  4.58839614e-01  3.40753466e-09  1.59500991e-07  8.45230446e-08  9.20000000e-01 
 9.30000000e-01  4.58839602e-01  4.58839602e-01  4.58839602e-01  3.36279185e-09  4.58839602e-01  4.58839602e-01  3.40753466e-09  1.59500990e-07  8.45229025e-08  9.30000000e-01 
 9.40000000e-01  4.58839641e-01  4.58839641e-01  4.58839641e-01  3.36279179e-09  4.58839641e-01  4.58839641e-01  3.40753466e-09  1.59501050e-07  8.45229451e-08  9.40000000e-01 
 9.50000000e-01  4.58839638e-01  4.58839638e-01  4.58839638e-01  3.36279185e-09  4.58839638e-01  4.58839638e-01  3.40753466e-09  1.59501022e-07  8.45228811e-08  9.50000000e-01 
 9.60000000e-01  4.58839642e-01  4.58839642e-01  4.58839643e-01  3.36279179e-09  4.58839642e-01  4.58839643e-01  3.40753466e-09  1.59501027e-07  8.45227888e-08  9.60000000e-01 
 9.70000000e-01  4.58839644e-01  4.58839644e-01  4.58839644e-01  3.36279185e-09  4.58839644e-01  4.58839644e-01  3.40753466e-09  1.59501052e-07  8.45227959e-08  9.70000000e-01 
 9.80000000e-01  4.58839611e-01  4.58839611e-01  4.58839611e-01  3.36279179e-09  4.58839611e-01  4.58839611e-01  3.40753466e-09  1.59500998e-07  8.45226182e-08  9.80000000e-01 
 9.90000000e-01  4.58839656e-01  4.58839656e-01  4.58839656e-01  3.36279185e-09  4.58839656e-01  4.58839656e-01  3.40753472e-09  1.59501058e-07  8.45225756e-08  9.90000000e-01 
 1.00000000e+00  4.58839656e-01  4.58839656e-01  4.58839656e-01  3.36279185e-09  4.58839656e-01  4.58839656e-01  3.40753466e-09  1.59501043e-07  8.45224761e-08  1.00000000e+00 
 1.01000000e+00  4.58839622e-01  4.58839622e-01  4.58839622e-01  3.36279179e-09  4.58839622e-01  4.58839622e-01  3.40753466e-09  1.59501010e-07  8.45224335e-08  1.01000000e+00 
 1.02000000e+00  4.58839632e-01  4.58839632e-01  4.58839632e-01  3.36279185e-09  4.58839632e-01  4.58839632e-01  3.40753466e-09  1.59501034e-07  8.45223269e-08  1.02000000e+00 
 1.03000000e+00  4.58839634e-01  4.58839634e-01  4.58839634e-01  3.36279185e-09  4.58839634e-01  4.58839634e-01  3.40753466e-09  1.59501037e-07  8.45221564e-08  1.03000000e+00 
 1.04000000e+00  4.58839656e-01  4.58839656e-01  4.58839656e-01  3.36279179e-09  4.58839656e-01  4.58839656e-01  3.40753466e-09  1.59501074e-07  8.45221635e-08  1.04000000e+00 
 1.05000000e+00  4.58839619e-01  4.58839619e-01  4.58839620e-01  3.36279179e-09  4.58839619e-01  4.58839619e-01  3.40753466e-09  1.59501002e-07  8.45219148e-08  1.05000000e+00 
 1.06000000e+00  4.58839620e-01  4.58839621e-01  4.58839621e-01  3.36279185e-09  4.58839620e-01  4.58839621e-01  3.40753466e-09  1.59501012e-07  8.45220072e-08  1.06000000e+00 
 1.07000000e+00  4.58839632e-01  4.58839632e-01  4.58839632e-01  3.36279185e-09  4.58839632e-01  4.58839632e-01  3.40753466e-09  1.59501022e-07  8.45219930e-08  1.07000000e+00 
 1.08000000e+00  4.58839640e-01  4.58839640e-01  4.58839640e-01  3.36279179e-09  4.58839640e-01  4.58839640e-01  3.40753472e-09  1.59501038e-07  8.45218224e-08  1.08000000e+00 
 1.09000000e+00  4.58839639e-01  4.58839639e-01  4.58839639e-01  3.36279185e-09  4.58839639e-01  4.58839639e-01  3.40753466e-09  1.59501059e-07  8.45217372e-08  1.09000000e+00 
 1.10000000e+00  4.58839649e-01  4.58839649e-01  4.58839650e-01  3.36279185e-09  4.58839649e-01  4.58839650e-01  3.40753466e-09  1.59501068e-07  8.45216022e-08  1.10000000e+00 
