 v-sweep         v(b0)           v(b1)           v(b2)           v(b3)           v(b4)           v(b5)           v(b6)           i(vbias)        i(viout)        v(vout)        
 0.00000000e+00  3.43529108e-09  3.41964119e-09  4.59226938e-01  3.46179679e-09  4.59226938e-01  3.34238936e-09  4.59226938e-01  1.62447679e-07  1.21067838e-07  0.00000000e+00 
 1.00000000e-02  3.43529105e-09  3.41964116e-09  4.59226951e-01  3.46179677e-09  4.59226951e-01  3.34238940e-09  4.59226951e-01  1.62447713e-07  1.21067298e-07  1.00000000e-02 
 2.00000000e-02  3.43529105e-09  3.41964116e-09  4.59226954e-01  3.46179677e-09  4.59226954e-01  3.34238940e-09  4.59226954e-01  1.62447698e-07  1.21067003e-07  2.00000000e-02 
 3.00000000e-02  3.43529111e-09  3.41964116e-09  4.59226959e-01  3.46179677e-09  4.59226959e-01  3.34238940e-09  4.59226959e-01  1.62447718e-07  1.21066652e-07  3.00000000e-02 
 4.00000000e-02  3.43529110e-09  3.41964116e-09  4.59226939e-01  3.46179677e-09  4.59226939e-01  3.34238939e-09  4.59226939e-01  1.62447694e-07  1.21066134e-07  4.00000000e-02 
 5.00000000e-02  3.43529110e-09  3.41964116e-09  4.59226937e-01  3.46179677e-09  4.59226938e-01  3.34238939e-09  4.59226938e-01  1.62447682e-07  1.21065853e-07  5.00000000e-02 
 6.00000000e-02  3.43529110e-09  3.41964116e-09  4.59226949e-01  3.46179683e-09  4.59226949e-01  3.34238940e-09  4.59226949e-01  1.62447711e-07  1.21065507e-07  6.00000000e-02 
 7.00000000e-02  3.43529111e-09  3.41964116e-09  4.59226965e-01  3.46179681e-09  4.59226965e-01  3.34238940e-09  4.59226965e-01  1.62447724e-07  1.21065213e-07  7.00000000e-02 
 8.00000000e-02  3.43529110e-09  3.41964116e-09  4.59226953e-01  3.46179676e-09  4.59226953e-01  3.34238940e-09  4.59226953e-01  1.62447706e-07  1.21064886e-07  8.00000000e-02 
 9.00000000e-02  3.43529110e-09  3.41964116e-09  4.59226946e-01  3.46179677e-09  4.59226946e-01  3.34238940e-09  4.59226946e-01  1.62447700e-07  1.21064590e-07  9.00000000e-02 
 1.00000000e-01  3.43529111e-09  3.41964116e-09  4.59226957e-01  3.46179677e-09  4.59226957e-01  3.34238940e-09  4.59226957e-01  1.62447722e-07  1.21064347e-07  1.00000000e-01 
 1.10000000e-01  3.43529110e-09  3.41964116e-09  4.59226952e-01  3.46179677e-09  4.59226952e-01  3.34238940e-09  4.59226952e-01  1.62447701e-07  1.21063946e-07  1.10000000e-01 
 1.20000000e-01  3.43529105e-09  3.41964116e-09  4.59226956e-01  3.46179677e-09  4.59226956e-01  3.34238940e-09  4.59226956e-01  1.62447716e-07  1.21063881e-07  1.20000000e-01 
 1.30000000e-01  3.43529112e-09  3.41964116e-09  4.59226935e-01  3.46179677e-09  4.59226936e-01  3.34238945e-09  4.59226936e-01  1.62447667e-07  1.21063556e-07  1.30000000e-01 
 1.40000000e-01  3.43529110e-09  3.41964116e-09  4.59226957e-01  3.46179683e-09  4.59226957e-01  3.34238940e-09  4.59226957e-01  1.62447710e-07  1.21063352e-07  1.40000000e-01 
 1.50000000e-01  3.43529111e-09  3.41964116e-09  4.59226956e-01  3.46179681e-09  4.59226957e-01  3.34238940e-09  4.59226957e-01  1.62447706e-07  1.21063151e-07  1.50000000e-01 
 1.60000000e-01  3.43529110e-09  3.41964116e-09  4.59226942e-01  3.46179676e-09  4.59226943e-01  3.34238939e-09  4.59226942e-01  1.62447691e-07  1.21062795e-07  1.60000000e-01 
 1.70000000e-01  3.43529111e-09  3.41964116e-09  4.59226956e-01  3.46179677e-09  4.59226957e-01  3.34238940e-09  4.59226957e-01  1.62447729e-07  1.21062770e-07  1.70000000e-01 
 1.80000000e-01  3.43529111e-09  3.41964116e-09  4.59226966e-01  3.46179677e-09  4.59226966e-01  3.34238940e-09  4.59226966e-01  1.62447735e-07  1.21062573e-07  1.80000000e-01 
 1.90000000e-01  3.43529110e-09  3.41964116e-09  4.59226950e-01  3.46179683e-09  4.59226950e-01  3.34238940e-09  4.59226950e-01  1.62447709e-07  1.21062188e-07  1.90000000e-01 
 2.00000000e-01  3.43529111e-09  3.41964116e-09  4.59226966e-01  3.46179676e-09  4.59226966e-01  3.34238940e-09  4.59226966e-01  1.62447734e-07  1.21062101e-07  2.00000000e-01 
 2.10000000e-01  3.43529105e-09  3.41964116e-09  4.59226970e-01  3.46179683e-09  4.59226970e-01  3.34238946e-09  4.59226970e-01  1.62447738e-07  1.21061978e-07  2.10000000e-01 
 2.20000000e-01  3.43529106e-09  3.41964116e-09  4.59226935e-01  3.46179676e-09  4.59226935e-01  3.34238939e-09  4.59226935e-01  1.62447672e-07  1.21061793e-07  2.20000000e-01 
 2.30000000e-01  3.43529111e-09  3.41964116e-09  4.59226967e-01  3.46179683e-09  4.59226968e-01  3.34238940e-09  4.59226968e-01  1.62447735e-07  1.21061627e-07  2.30000000e-01 
 2.40000000e-01  3.43529110e-09  3.41964116e-09  4.59226949e-01  3.46179676e-09  4.59226950e-01  3.34238940e-09  4.59226950e-01  1.62447697e-07  1.21061509e-07  2.40000000e-01 
 2.50000000e-01  3.43529105e-09  3.41964116e-09  4.59226937e-01  3.46179683e-09  4.59226937e-01  3.34238939e-09  4.59226937e-01  1.62447692e-07  1.21061223e-07  2.50000000e-01 
 2.60000000e-01  3.43529112e-09  3.41964116e-09  4.59226946e-01  3.46179676e-09  4.59226946e-01  3.34238940e-09  4.59226946e-01  1.62447698e-07  1.21061142e-07  2.60000000e-01 
 2.70000000e-01  3.43529110e-09  3.41964121e-09  4.59226955e-01  3.46179677e-09  4.59226956e-01  3.34238940e-09  4.59226956e-01  1.62447704e-07  1.21061051e-07  2.70000000e-01 
 2.80000000e-01  3.43529104e-09  3.41964116e-09  4.59226925e-01  3.46179677e-09  4.59226925e-01  3.34238939e-09  4.59226925e-01  1.62447662e-07  1.21060769e-07  2.80000000e-01 
 2.90000000e-01  3.43529106e-09  3.41964116e-09  4.59226943e-01  3.46179677e-09  4.59226943e-01  3.34238939e-09  4.59226943e-01  1.62447692e-07  1.21060769e-07  2.90000000e-01 
 3.00000000e-01  3.43529111e-09  3.41964116e-09  4.59226950e-01  3.46179683e-09  4.59226950e-01  3.34238940e-09  4.59226950e-01  1.62447698e-07  1.21060488e-07  3.00000000e-01 
 3.10000000e-01  3.43529110e-09  3.41964116e-09  4.59226927e-01  3.46179675e-09  4.59226927e-01  3.34238939e-09  4.59226927e-01  1.62447676e-07  1.21060427e-07  3.10000000e-01 
 3.20000000e-01  3.43529111e-09  3.41964116e-09  4.59226960e-01  3.46179683e-09  4.59226961e-01  3.34238940e-09  4.59226961e-01  1.62447710e-07  1.21060307e-07  3.20000000e-01 
 3.30000000e-01  3.43529110e-09  3.41964116e-09  4.59226954e-01  3.46179681e-09  4.59226954e-01  3.34238940e-09  4.59226954e-01  1.62447712e-07  1.21060339e-07  3.30000000e-01 
 3.40000000e-01  3.43529105e-09  3.41964116e-09  4.59226949e-01  3.46179682e-09  4.59226949e-01  3.34238940e-09  4.59226949e-01  1.62447701e-07  1.21060015e-07  3.40000000e-01 
 3.50000000e-01  3.43529112e-09  3.41964116e-09  4.59226953e-01  3.46179682e-09  4.59226954e-01  3.34238940e-09  4.59226954e-01  1.62447707e-07  1.21060058e-07  3.50000000e-01 
 3.60000000e-01  3.43529110e-09  3.41964116e-09  4.59226957e-01  3.46179682e-09  4.59226957e-01  3.34238940e-09  4.59226957e-01  1.62447709e-07  1.21060005e-07  3.60000000e-01 
 3.70000000e-01  3.43529110e-09  3.41964116e-09  4.59226948e-01  3.46179676e-09  4.59226948e-01  3.34238940e-09  4.59226948e-01  1.62447695e-07  1.21059795e-07  3.70000000e-01 
 3.80000000e-01  3.43529110e-09  3.41964116e-09  4.59226955e-01  3.46179683e-09  4.59226955e-01  3.34238940e-09  4.59226955e-01  1.62447709e-07  1.21059763e-07  3.80000000e-01 
 3.90000000e-01  3.43529110e-09  3.41964116e-09  4.59226942e-01  3.46179681e-09  4.59226943e-01  3.34238939e-09  4.59226943e-01  1.62447690e-07  1.21059514e-07  3.90000000e-01 
 4.00000000e-01  3.43529105e-09  3.41964116e-09  4.59226929e-01  3.46179682e-09  4.59226930e-01  3.34238939e-09  4.59226930e-01  1.62447685e-07  1.21059397e-07  4.00000000e-01 
 4.10000000e-01  3.43529106e-09  3.41964116e-09  4.59226927e-01  3.46179682e-09  4.59226927e-01  3.34238939e-09  4.59226927e-01  1.62447665e-07  1.21059355e-07  4.10000000e-01 
 4.20000000e-01  3.43529111e-09  3.41964116e-09  4.59226933e-01  3.46179682e-09  4.59226934e-01  3.34238939e-09  4.59226934e-01  1.62447674e-07  1.21059237e-07  4.20000000e-01 
 4.30000000e-01  3.43529110e-09  3.41964121e-09  4.59226949e-01  3.46179676e-09  4.59226949e-01  3.34238940e-09  4.59226949e-01  1.62447695e-07  1.21059013e-07  4.30000000e-01 
 4.40000000e-01  3.43529110e-09  3.41964116e-09  4.59226945e-01  3.46179683e-09  4.59226945e-01  3.34238940e-09  4.59226945e-01  1.62447689e-07  1.21059109e-07  4.40000000e-01 
 4.50000000e-01  3.43529105e-09  3.41964116e-09  4.59226937e-01  3.46179681e-09  4.59226938e-01  3.34238939e-09  4.59226938e-01  1.62447682e-07  1.21058921e-07  4.50000000e-01 
 4.60000000e-01  3.43529106e-09  3.41964116e-09  4.59226945e-01  3.46179676e-09  4.59226945e-01  3.34238940e-09  4.59226945e-01  1.62447701e-07  1.21058875e-07  4.60000000e-01 
 4.70000000e-01  3.43529105e-09  3.41964116e-09  4.59226944e-01  3.46179677e-09  4.59226945e-01  3.34238940e-09  4.59226945e-01  1.62447689e-07  1.21058832e-07  4.70000000e-01 
 4.80000000e-01  3.43529111e-09  3.41964116e-09  4.59226963e-01  3.46179677e-09  4.59226964e-01  3.34238940e-09  4.59226964e-01  1.62447733e-07  1.21058676e-07  4.80000000e-01 
 4.90000000e-01  3.43529110e-09  3.41964116e-09  4.59226964e-01  3.46179683e-09  4.59226964e-01  3.34238940e-09  4.59226964e-01  1.62447733e-07  1.21058697e-07  4.90000000e-01 
 5.00000000e-01  3.43529105e-09  3.41964116e-09  4.59226940e-01  3.46179676e-09  4.59226941e-01  3.34238939e-09  4.59226940e-01  1.62447693e-07  1.21058598e-07  5.00000000e-01 
 5.10000000e-01  3.43529111e-09  3.41964116e-09  4.59226929e-01  3.46179677e-09  4.59226929e-01  3.34238939e-09  4.59226929e-01  1.62447661e-07  1.21058463e-07  5.10000000e-01 
 5.20000000e-01  3.43529110e-09  3.41964116e-09  4.59226932e-01  3.46179682e-09  4.59226932e-01  3.34238939e-09  4.59226932e-01  1.62447675e-07  1.21058289e-07  5.20000000e-01 
 5.30000000e-01  3.43529105e-09  3.41964116e-09  4.59226951e-01  3.46179681e-09  4.59226952e-01  3.34238940e-09  4.59226952e-01  1.62447704e-07  1.21058296e-07  5.30000000e-01 
 5.40000000e-01  3.43529106e-09  3.41964116e-09  4.59226935e-01  3.46179682e-09  4.59226935e-01  3.34238939e-09  4.59226935e-01  1.62447678e-07  1.21058303e-07  5.40000000e-01 
 5.50000000e-01  3.43529105e-09  3.41964116e-09  4.59226947e-01  3.46179676e-09  4.59226947e-01  3.34238945e-09  4.59226947e-01  1.62447696e-07  1.21058072e-07  5.50000000e-01 
 5.60000000e-01  3.43529111e-09  3.41964116e-09  4.59226953e-01  3.46179677e-09  4.59226953e-01  3.34238945e-09  4.59226953e-01  1.62447706e-07  1.21058122e-07  5.60000000e-01 
 5.70000000e-01  3.43529110e-09  3.41964116e-09  4.59226926e-01  3.46179677e-09  4.59226926e-01  3.34238939e-09  4.59226926e-01  1.62447667e-07  1.21057845e-07  5.70000000e-01 
 5.80000000e-01  3.43529105e-09  3.41964116e-09  4.59226950e-01  3.46179677e-09  4.59226950e-01  3.34238940e-09  4.59226950e-01  1.62447704e-07  1.21057901e-07  5.80000000e-01 
 5.90000000e-01  3.43529106e-09  3.41964116e-09  4.59226944e-01  3.46179683e-09  4.59226945e-01  3.34238940e-09  4.59226945e-01  1.62447687e-07  1.21057823e-07  5.90000000e-01 
 6.00000000e-01  3.43529105e-09  3.41964116e-09  4.59226921e-01  3.46179675e-09  4.59226922e-01  3.34238939e-09  4.59226922e-01  1.62447659e-07  1.21057695e-07  6.00000000e-01 
 6.10000000e-01  3.43529111e-09  3.41964116e-09  4.59226943e-01  3.46179677e-09  4.59226943e-01  3.34238939e-09  4.59226943e-01  1.62447700e-07  1.21057660e-07  6.10000000e-01 
 6.20000000e-01  3.43529104e-09  3.41964116e-09  4.59226949e-01  3.46179683e-09  4.59226949e-01  3.34238940e-09  4.59226949e-01  1.62447697e-07  1.21057695e-07  6.20000000e-01 
 6.30000000e-01  3.43529106e-09  3.41964116e-09  4.59226963e-01  3.46179676e-09  4.59226964e-01  3.34238940e-09  4.59226964e-01  1.62447715e-07  1.21057539e-07  6.30000000e-01 
 6.40000000e-01  3.43529111e-09  3.41964116e-09  4.59226943e-01  3.46179677e-09  4.59226943e-01  3.34238939e-09  4.59226943e-01  1.62447681e-07  1.21057475e-07  6.40000000e-01 
 6.50000000e-01  3.43529110e-09  3.41964116e-09  4.59226938e-01  3.46179677e-09  4.59226939e-01  3.34238939e-09  4.59226938e-01  1.62447686e-07  1.21057262e-07  6.50000000e-01 
 6.60000000e-01  3.43529110e-09  3.41964116e-09  4.59226938e-01  3.46179682e-09  4.59226939e-01  3.34238939e-09  4.59226939e-01  1.62447692e-07  1.21057305e-07  6.60000000e-01 
 6.70000000e-01  3.43529111e-09  3.41964116e-09  4.59226964e-01  3.46179676e-09  4.59226964e-01  3.34238945e-09  4.59226964e-01  1.62447732e-07  1.21057226e-07  6.70000000e-01 
 6.80000000e-01  3.43529110e-09  3.41964116e-09  4.59226940e-01  3.46179683e-09  4.59226940e-01  3.34238945e-09  4.59226940e-01  1.62447700e-07  1.21056971e-07  6.80000000e-01 
 6.90000000e-01  3.43529110e-09  3.41964116e-09  4.59226945e-01  3.46179681e-09  4.59226945e-01  3.34238940e-09  4.59226945e-01  1.62447708e-07  1.21056942e-07  6.90000000e-01 
 7.00000000e-01  3.43529110e-09  3.41964116e-09  4.59226945e-01  3.46179682e-09  4.59226945e-01  3.34238940e-09  4.59226945e-01  1.62447714e-07  1.21056914e-07  7.00000000e-01 
 7.10000000e-01  3.43529110e-09  3.41964116e-09  4.59226952e-01  3.46179676e-09  4.59226952e-01  3.34238940e-09  4.59226952e-01  1.62447695e-07  1.21056772e-07  7.10000000e-01 
 7.20000000e-01  3.43529110e-09  3.41964116e-09  4.59226954e-01  3.46179677e-09  4.59226955e-01  3.34238940e-09  4.59226954e-01  1.62447711e-07  1.21056686e-07  7.20000000e-01 
 7.30000000e-01  3.43529110e-09  3.41964116e-09  4.59226942e-01  3.46179677e-09  4.59226943e-01  3.34238939e-09  4.59226943e-01  1.62447695e-07  1.21056559e-07  7.30000000e-01 
 7.40000000e-01  3.43529110e-09  3.41964116e-09  4.59226938e-01  3.46179677e-09  4.59226938e-01  3.34238939e-09  4.59226938e-01  1.62447686e-07  1.21056594e-07  7.40000000e-01 
 7.50000000e-01  3.43529110e-09  3.41964116e-09  4.59226941e-01  3.46179682e-09  4.59226941e-01  3.34238939e-09  4.59226941e-01  1.62447700e-07  1.21056502e-07  7.50000000e-01 
 7.60000000e-01  3.43529110e-09  3.41964116e-09  4.59226925e-01  3.46179675e-09  4.59226925e-01  3.34238939e-09  4.59226925e-01  1.62447661e-07  1.21056402e-07  7.60000000e-01 
 7.70000000e-01  3.43529111e-09  3.41964116e-09  4.59226964e-01  3.46179683e-09  4.59226964e-01  3.34238940e-09  4.59226964e-01  1.62447717e-07  1.21056424e-07  7.70000000e-01 
 7.80000000e-01  3.43529110e-09  3.41964116e-09  4.59226929e-01  3.46179675e-09  4.59226929e-01  3.34238939e-09  4.59226929e-01  1.62447680e-07  1.21056125e-07  7.80000000e-01 
 7.90000000e-01  3.43529110e-09  3.41964116e-09  4.59226952e-01  3.46179677e-09  4.59226952e-01  3.34238940e-09  4.59226952e-01  1.62447709e-07  1.21056139e-07  7.90000000e-01 
 8.00000000e-01  3.43529105e-09  3.41964116e-09  4.59226949e-01  3.46179683e-09  4.59226949e-01  3.34238940e-09  4.59226949e-01  1.62447706e-07  1.21055990e-07  8.00000000e-01 
 8.10000000e-01  3.43529106e-09  3.41964116e-09  4.59226948e-01  3.46179681e-09  4.59226948e-01  3.34238940e-09  4.59226948e-01  1.62447703e-07  1.21055898e-07  8.10000000e-01 
 8.20000000e-01  3.43529111e-09  3.41964116e-09  4.59226921e-01  3.46179682e-09  4.59226921e-01  3.34238939e-09  4.59226921e-01  1.62447665e-07  1.21055770e-07  8.20000000e-01 
 8.30000000e-01  3.43529110e-09  3.41964116e-09  4.59226958e-01  3.46179676e-09  4.59226959e-01  3.34238940e-09  4.59226958e-01  1.62447721e-07  1.21055862e-07  8.30000000e-01 
 8.40000000e-01  3.43529111e-09  3.41964116e-09  4.59226959e-01  3.46179678e-09  4.59226959e-01  3.34238940e-09  4.59226959e-01  1.62447723e-07  1.21055777e-07  8.40000000e-01 
 8.50000000e-01  3.43529110e-09  3.41964116e-09  4.59226944e-01  3.46179677e-09  4.59226944e-01  3.34238940e-09  4.59226944e-01  1.62447689e-07  1.21055692e-07  8.50000000e-01 
 8.60000000e-01  3.43529105e-09  3.41964116e-09  4.59226942e-01  3.46179677e-09  4.59226942e-01  3.34238939e-09  4.59226942e-01  1.62447709e-07  1.21055571e-07  8.60000000e-01 
 8.70000000e-01  3.43529112e-09  3.41964116e-09  4.59226945e-01  3.46179677e-09  4.59226945e-01  3.34238940e-09  4.59226945e-01  1.62447698e-07  1.21055379e-07  8.70000000e-01 
 8.80000000e-01  3.43529110e-09  3.41964116e-09  4.59226969e-01  3.46179677e-09  4.59226970e-01  3.34238940e-09  4.59226969e-01  1.62447735e-07  1.21055372e-07  8.80000000e-01 
 8.90000000e-01  3.43529105e-09  3.41964116e-09  4.59226967e-01  3.46179677e-09  4.59226968e-01  3.34238940e-09  4.59226968e-01  1.62447720e-07  1.21055372e-07  8.90000000e-01 
 9.00000000e-01  3.43529106e-09  3.41964116e-09  4.59226941e-01  3.46179682e-09  4.59226941e-01  3.34238939e-09  4.59226941e-01  1.62447698e-07  1.21055201e-07  9.00000000e-01 
 9.10000000e-01  3.43529105e-09  3.41964116e-09  4.59226947e-01  3.46179676e-09  4.59226948e-01  3.34238940e-09  4.59226948e-01  1.62447709e-07  1.21055052e-07  9.10000000e-01 
 9.20000000e-01  3.43529111e-09  3.41964116e-09  4.59226946e-01  3.46179683e-09  4.59226946e-01  3.34238940e-09  4.59226946e-01  1.62447711e-07  1.21054974e-07  9.20000000e-01 
 9.30000000e-01  3.43529110e-09  3.41964116e-09  4.59226938e-01  3.46179676e-09  4.59226938e-01  3.34238939e-09  4.59226938e-01  1.62447689e-07  1.21054860e-07  9.30000000e-01 
 9.40000000e-01  3.43529110e-09  3.41964116e-09  4.59226932e-01  3.46179683e-09  4.59226932e-01  3.34238939e-09  4.59226932e-01  1.62447676e-07  1.21054661e-07  9.40000000e-01 
 9.50000000e-01  3.43529105e-09  3.41964116e-09  4.59226945e-01  3.46179681e-09  4.59226945e-01  3.34238940e-09  4.59226945e-01  1.62447702e-07  1.21054804e-07  9.50000000e-01 
 9.60000000e-01  3.43529112e-09  3.41964116e-09  4.59226938e-01  3.46179682e-09  4.59226938e-01  3.34238939e-09  4.59226938e-01  1.62447676e-07  1.21054633e-07  9.60000000e-01 
 9.70000000e-01  3.43529104e-09  3.41964116e-09  4.59226945e-01  3.46179682e-09  4.59226945e-01  3.34238940e-09  4.59226945e-01  1.62447685e-07  1.21054597e-07  9.70000000e-01 
 9.80000000e-01  3.43529112e-09  3.41964116e-09  4.59226952e-01  3.46179676e-09  4.59226952e-01  3.34238940e-09  4.59226952e-01  1.62447710e-07  1.21054512e-07  9.80000000e-01 
 9.90000000e-01  3.43529110e-09  3.41964116e-09  4.59226951e-01  3.46179677e-09  4.59226951e-01  3.34238940e-09  4.59226951e-01  1.62447695e-07  1.21054349e-07  9.90000000e-01 
 1.00000000e+00  3.43529110e-09  3.41964116e-09  4.59226951e-01  3.46179677e-09  4.59226951e-01  3.34238940e-09  4.59226951e-01  1.62447701e-07  1.21054320e-07  1.00000000e+00 
 1.01000000e+00  3.43529111e-09  3.41964116e-09  4.59226961e-01  3.46179677e-09  4.59226961e-01  3.34238940e-09  4.59226961e-01  1.62447725e-07  1.21054192e-07  1.01000000e+00 
 1.02000000e+00  3.43529110e-09  3.41964116e-09  4.59226949e-01  3.46179683e-09  4.59226949e-01  3.34238940e-09  4.59226949e-01  1.62447705e-07  1.21054157e-07  1.02000000e+00 
 1.03000000e+00  3.43529110e-09  3.41964116e-09  4.59226934e-01  3.46179676e-09  4.59226934e-01  3.34238939e-09  4.59226934e-01  1.62447670e-07  1.21053937e-07  1.03000000e+00 
 1.04000000e+00  3.43529110e-09  3.41964116e-09  4.59226923e-01  3.46179677e-09  4.59226924e-01  3.34238939e-09  4.59226924e-01  1.62447679e-07  1.21053773e-07  1.04000000e+00 
 1.05000000e+00  3.43529105e-09  3.41964116e-09  4.59226932e-01  3.46179682e-09  4.59226932e-01  3.34238939e-09  4.59226932e-01  1.62447679e-07  1.21053702e-07  1.05000000e+00 
 1.06000000e+00  3.43529112e-09  3.41964116e-09  4.59226941e-01  3.46179681e-09  4.59226942e-01  3.34238939e-09  4.59226942e-01  1.62447693e-07  1.21053780e-07  1.06000000e+00 
 1.07000000e+00  3.43529110e-09  3.41964116e-09  4.59226958e-01  3.46179676e-09  4.59226958e-01  3.34238940e-09  4.59226958e-01  1.62447719e-07  1.21053532e-07  1.07000000e+00 
 1.08000000e+00  3.43529110e-09  3.41964116e-09  4.59226955e-01  3.46179677e-09  4.59226956e-01  3.34238940e-09  4.59226956e-01  1.62447712e-07  1.21053461e-07  1.08000000e+00 
 1.09000000e+00  3.43529110e-09  3.41964116e-09  4.59226948e-01  3.46179677e-09  4.59226948e-01  3.34238940e-09  4.59226948e-01  1.62447695e-07  1.21053354e-07  1.09000000e+00 
 1.10000000e+00  3.43529110e-09  3.41964116e-09  4.59226950e-01  3.46179677e-09  4.59226950e-01  3.34238940e-09  4.59226950e-01  1.62447710e-07  1.21053262e-07  1.10000000e+00 
