 v-sweep         v(b0)           v(b1)           v(b2)           v(b3)           v(b4)           v(b5)           v(b6)           i(vbias)        i(viout)        v(vout)        
 0.00000000e+00  3.25578145e-09  4.59440539e-01  3.19536754e-09  4.59440540e-01  3.21741477e-09  3.51204965e-09  4.59440539e-01  1.63044258e-07  1.14023743e-07  0.00000000e+00 
 1.00000000e-02  3.25578149e-09  4.59440552e-01  3.19536752e-09  4.59440552e-01  3.21741474e-09  3.51204963e-09  4.59440552e-01  1.63044282e-07  1.14023257e-07  1.00000000e-02 
 2.00000000e-02  3.25578149e-09  4.59440555e-01  3.19536752e-09  4.59440555e-01  3.21741481e-09  3.51204963e-09  4.59440555e-01  1.63044271e-07  1.14022925e-07  2.00000000e-02 
 3.00000000e-02  3.25578149e-09  4.59440569e-01  3.19536752e-09  4.59440569e-01  3.21741480e-09  3.51204964e-09  4.59440569e-01  1.63044305e-07  1.14022507e-07  3.00000000e-02 
 4.00000000e-02  3.25578149e-09  4.59440567e-01  3.19536752e-09  4.59440567e-01  3.21741480e-09  3.51204964e-09  4.59440567e-01  1.63044305e-07  1.14022165e-07  4.00000000e-02 
 5.00000000e-02  3.25578149e-09  4.59440546e-01  3.19536752e-09  4.59440546e-01  3.21741474e-09  3.51204963e-09  4.59440546e-01  1.63044270e-07  1.14021855e-07  5.00000000e-02 
 6.00000000e-02  3.25578143e-09  4.59440556e-01  3.19536752e-09  4.59440556e-01  3.21741476e-09  3.51204964e-09  4.59440556e-01  1.63044272e-07  1.14021382e-07  6.00000000e-02 
 7.00000000e-02  3.25578149e-09  4.59440529e-01  3.19536752e-09  4.59440529e-01  3.21741481e-09  3.51204969e-09  4.59440529e-01  1.63044242e-07  1.14021114e-07  7.00000000e-02 
 8.00000000e-02  3.25578149e-09  4.59440541e-01  3.19536752e-09  4.59440542e-01  3.21741479e-09  3.51204963e-09  4.59440541e-01  1.63044257e-07  1.14020726e-07  8.00000000e-02 
 9.00000000e-02  3.25578143e-09  4.59440565e-01  3.19536752e-09  4.59440565e-01  3.21741474e-09  3.51204969e-09  4.59440565e-01  1.63044296e-07  1.14020618e-07  9.00000000e-02 
 1.00000000e-01  3.25578143e-09  4.59440549e-01  3.19536752e-09  4.59440549e-01  3.21741476e-09  3.51204969e-09  4.59440549e-01  1.63044276e-07  1.14020371e-07  1.00000000e-01 
 1.10000000e-01  3.25578149e-09  4.59440547e-01  3.19536752e-09  4.59440547e-01  3.21741475e-09  3.51204969e-09  4.59440547e-01  1.63044267e-07  1.14019969e-07  1.10000000e-01 
 1.20000000e-01  3.25578143e-09  4.59440558e-01  3.19536752e-09  4.59440558e-01  3.21741475e-09  3.51204969e-09  4.59440558e-01  1.63044285e-07  1.14019782e-07  1.20000000e-01 
 1.30000000e-01  3.25578143e-09  4.59440556e-01  3.19536752e-09  4.59440556e-01  3.21741481e-09  3.51204969e-09  4.59440556e-01  1.63044282e-07  1.14019542e-07  1.30000000e-01 
 1.40000000e-01  3.25578143e-09  4.59440551e-01  3.19536752e-09  4.59440552e-01  3.21741479e-09  3.51204963e-09  4.59440551e-01  1.63044266e-07  1.14019254e-07  1.40000000e-01 
 1.50000000e-01  3.25578143e-09  4.59440555e-01  3.19536758e-09  4.59440555e-01  3.21741480e-09  3.51204969e-09  4.59440555e-01  1.63044283e-07  1.14018986e-07  1.50000000e-01 
 1.60000000e-01  3.25578149e-09  4.59440555e-01  3.19536757e-09  4.59440555e-01  3.21741474e-09  3.51204963e-09  4.59440555e-01  1.63044275e-07  1.14018805e-07  1.60000000e-01 
 1.70000000e-01  3.25578143e-09  4.59440562e-01  3.19536753e-09  4.59440562e-01  3.21741481e-09  3.51204964e-09  4.59440562e-01  1.63044284e-07  1.14018622e-07  1.70000000e-01 
 1.80000000e-01  3.25578143e-09  4.59440550e-01  3.19536752e-09  4.59440550e-01  3.21741474e-09  3.51204969e-09  4.59440550e-01  1.63044270e-07  1.14018432e-07  1.80000000e-01 
 1.90000000e-01  3.25578149e-09  4.59440564e-01  3.19536752e-09  4.59440564e-01  3.21741481e-09  3.51204964e-09  4.59440564e-01  1.63044306e-07  1.14018324e-07  1.90000000e-01 
 2.00000000e-01  3.25578143e-09  4.59440562e-01  3.19536758e-09  4.59440563e-01  3.21741479e-09  3.51204969e-09  4.59440562e-01  1.63044295e-07  1.14018151e-07  2.00000000e-01 
 2.10000000e-01  3.25578149e-09  4.59440541e-01  3.19536751e-09  4.59440541e-01  3.21741480e-09  3.51204963e-09  4.59440541e-01  1.63044252e-07  1.14017874e-07  2.10000000e-01 
 2.20000000e-01  3.25578143e-09  4.59440561e-01  3.19536758e-09  4.59440561e-01  3.21741474e-09  3.51204964e-09  4.59440561e-01  1.63044281e-07  1.14017736e-07  2.20000000e-01 
 2.30000000e-01  3.25578143e-09  4.59440561e-01  3.19536751e-09  4.59440561e-01  3.21741476e-09  3.51204969e-09  4.59440561e-01  1.63044296e-07  1.14017556e-07  2.30000000e-01 
 2.40000000e-01  3.25578143e-09  4.59440551e-01  3.19536753e-09  4.59440551e-01  3.21741475e-09  3.51204963e-09  4.59440551e-01  1.63044266e-07  1.14017356e-07  2.40000000e-01 
 2.50000000e-01  3.25578149e-09  4.59440551e-01  3.19536752e-09  4.59440551e-01  3.21741481e-09  3.51204969e-09  4.59440551e-01  1.63044275e-07  1.14017292e-07  2.50000000e-01 
 2.60000000e-01  3.25578149e-09  4.59440542e-01  3.19536752e-09  4.59440542e-01  3.21741474e-09  3.51204969e-09  4.59440542e-01  1.63044257e-07  1.14017165e-07  2.60000000e-01 
 2.70000000e-01  3.25578143e-09  4.59440545e-01  3.19536752e-09  4.59440545e-01  3.21741476e-09  3.51204963e-09  4.59440545e-01  1.63044259e-07  1.14016929e-07  2.70000000e-01 
 2.80000000e-01  3.25578149e-09  4.59440549e-01  3.19536752e-09  4.59440549e-01  3.21741481e-09  3.51204969e-09  4.59440549e-01  1.63044271e-07  1.14016865e-07  2.80000000e-01 
 2.90000000e-01  3.25578143e-09  4.59440546e-01  3.19536758e-09  4.59440546e-01  3.21741479e-09  3.51204963e-09  4.59440546e-01  1.63044263e-07  1.14016736e-07  2.90000000e-01 
 3.00000000e-01  3.25578149e-09  4.59440568e-01  3.19536757e-09  4.59440568e-01  3.21741480e-09  3.51204964e-09  4.59440568e-01  1.63044301e-07  1.14016689e-07  3.00000000e-01 
 3.10000000e-01  3.25578143e-09  4.59440547e-01  3.19536753e-09  4.59440547e-01  3.21741480e-09  3.51204963e-09  4.59440547e-01  1.63044266e-07  1.14016451e-07  3.10000000e-01 
 3.20000000e-01  3.25578143e-09  4.59440553e-01  3.19536758e-09  4.59440553e-01  3.21741480e-09  3.51204963e-09  4.59440553e-01  1.63044268e-07  1.14016345e-07  3.20000000e-01 
 3.30000000e-01  3.25578143e-09  4.59440545e-01  3.19536757e-09  4.59440545e-01  3.21741480e-09  3.51204969e-09  4.59440545e-01  1.63044266e-07  1.14016249e-07  3.30000000e-01 
 3.40000000e-01  3.25578149e-09  4.59440567e-01  3.19536753e-09  4.59440567e-01  3.21741480e-09  3.51204964e-09  4.59440567e-01  1.63044296e-07  1.14016139e-07  3.40000000e-01 
 3.50000000e-01  3.25578149e-09  4.59440556e-01  3.19536752e-09  4.59440556e-01  3.21741474e-09  3.51204969e-09  4.59440556e-01  1.63044272e-07  1.14016014e-07  3.50000000e-01 
 3.60000000e-01  3.25578143e-09  4.59440554e-01  3.19536752e-09  4.59440554e-01  3.21741481e-09  3.51204963e-09  4.59440554e-01  1.63044266e-07  1.14015858e-07  3.60000000e-01 
 3.70000000e-01  3.25578149e-09  4.59440555e-01  3.19536752e-09  4.59440555e-01  3.21741474e-09  3.51204969e-09  4.59440555e-01  1.63044271e-07  1.14015808e-07  3.70000000e-01 
 3.80000000e-01  3.25578149e-09  4.59440558e-01  3.19536752e-09  4.59440558e-01  3.21741481e-09  3.51204969e-09  4.59440558e-01  1.63044298e-07  1.14015741e-07  3.80000000e-01 
 3.90000000e-01  3.25578149e-09  4.59440569e-01  3.19536752e-09  4.59440569e-01  3.21741480e-09  3.51204964e-09  4.59440569e-01  1.63044311e-07  1.14015656e-07  3.90000000e-01 
 4.00000000e-01  3.25578143e-09  4.59440557e-01  3.19536752e-09  4.59440557e-01  3.21741480e-09  3.51204969e-09  4.59440557e-01  1.63044290e-07  1.14015595e-07  4.00000000e-01 
 4.10000000e-01  3.25578149e-09  4.59440548e-01  3.19536758e-09  4.59440548e-01  3.21741480e-09  3.51204969e-09  4.59440548e-01  1.63044276e-07  1.14015371e-07  4.10000000e-01 
 4.20000000e-01  3.25578143e-09  4.59440563e-01  3.19536757e-09  4.59440563e-01  3.21741480e-09  3.51204964e-09  4.59440563e-01  1.63044282e-07  1.14015343e-07  4.20000000e-01 
 4.30000000e-01  3.25578143e-09  4.59440556e-01  3.19536753e-09  4.59440556e-01  3.21741480e-09  3.51204969e-09  4.59440556e-01  1.63044289e-07  1.14015240e-07  4.30000000e-01 
 4.40000000e-01  3.25578149e-09  4.59440544e-01  3.19536752e-09  4.59440544e-01  3.21741480e-09  3.51204969e-09  4.59440544e-01  1.63044274e-07  1.14015045e-07  4.40000000e-01 
 4.50000000e-01  3.25578149e-09  4.59440560e-01  3.19536752e-09  4.59440560e-01  3.21741474e-09  3.51204964e-09  4.59440560e-01  1.63044296e-07  1.14015041e-07  4.50000000e-01 
 4.60000000e-01  3.25578149e-09  4.59440548e-01  3.19536752e-09  4.59440548e-01  3.21741476e-09  3.51204963e-09  4.59440548e-01  1.63044267e-07  1.14014934e-07  4.60000000e-01 
 4.70000000e-01  3.25578143e-09  4.59440547e-01  3.19536752e-09  4.59440547e-01  3.21741475e-09  3.51204963e-09  4.59440546e-01  1.63044269e-07  1.14014732e-07  4.70000000e-01 
 4.80000000e-01  3.25578149e-09  4.59440553e-01  3.19536752e-09  4.59440553e-01  3.21741481e-09  3.51204963e-09  4.59440553e-01  1.63044262e-07  1.14014828e-07  4.80000000e-01 
 4.90000000e-01  3.25578143e-09  4.59440539e-01  3.19536752e-09  4.59440539e-01  3.21741479e-09  3.51204963e-09  4.59440539e-01  1.63044244e-07  1.14014718e-07  4.90000000e-01 
 5.00000000e-01  3.25578143e-09  4.59440551e-01  3.19536752e-09  4.59440552e-01  3.21741480e-09  3.51204969e-09  4.59440551e-01  1.63044258e-07  1.14014519e-07  5.00000000e-01 
 5.10000000e-01  3.25578149e-09  4.59440571e-01  3.19536752e-09  4.59440572e-01  3.21741480e-09  3.51204969e-09  4.59440571e-01  1.63044299e-07  1.14014593e-07  5.10000000e-01 
 5.20000000e-01  3.25578143e-09  4.59440548e-01  3.19536752e-09  4.59440548e-01  3.21741474e-09  3.51204969e-09  4.59440548e-01  1.63044276e-07  1.14014409e-07  5.20000000e-01 
 5.30000000e-01  3.25578149e-09  4.59440550e-01  3.19536752e-09  4.59440550e-01  3.21741481e-09  3.51204969e-09  4.59440550e-01  1.63044262e-07  1.14014320e-07  5.30000000e-01 
 5.40000000e-01  3.25578149e-09  4.59440555e-01  3.19536752e-09  4.59440555e-01  3.21741479e-09  3.51204963e-09  4.59440555e-01  1.63044274e-07  1.14014380e-07  5.40000000e-01 
 5.50000000e-01  3.25578149e-09  4.59440564e-01  3.19536758e-09  4.59440564e-01  3.21741474e-09  3.51204964e-09  4.59440564e-01  1.63044280e-07  1.14014181e-07  5.50000000e-01 
 5.60000000e-01  3.25578149e-09  4.59440558e-01  3.19536757e-09  4.59440558e-01  3.21741481e-09  3.51204969e-09  4.59440558e-01  1.63044285e-07  1.14014078e-07  5.60000000e-01 
 5.70000000e-01  3.25578149e-09  4.59440555e-01  3.19536753e-09  4.59440555e-01  3.21741474e-09  3.51204969e-09  4.59440555e-01  1.63044272e-07  1.14014092e-07  5.70000000e-01 
 5.80000000e-01  3.25578149e-09  4.59440564e-01  3.19536752e-09  4.59440564e-01  3.21741481e-09  3.51204969e-09  4.59440564e-01  1.63044285e-07  1.14013929e-07  5.80000000e-01 
 5.90000000e-01  3.25578143e-09  4.59440557e-01  3.19536752e-09  4.59440557e-01  3.21741474e-09  3.51204964e-09  4.59440557e-01  1.63044294e-07  1.14013908e-07  5.90000000e-01 
 6.00000000e-01  3.25578149e-09  4.59440557e-01  3.19536758e-09  4.59440557e-01  3.21741481e-09  3.51204964e-09  4.59440557e-01  1.63044284e-07  1.14013815e-07  6.00000000e-01 
 6.10000000e-01  3.25578143e-09  4.59440544e-01  3.19536751e-09  4.59440545e-01  3.21741474e-09  3.51204963e-09  4.59440544e-01  1.63044262e-07  1.14013673e-07  6.10000000e-01 
 6.20000000e-01  3.25578143e-09  4.59440550e-01  3.19536753e-09  4.59440550e-01  3.21741481e-09  3.51204963e-09  4.59440550e-01  1.63044287e-07  1.14013531e-07  6.20000000e-01 
 6.30000000e-01  3.25578149e-09  4.59440552e-01  3.19536752e-09  4.59440552e-01  3.21741474e-09  3.51204969e-09  4.59440552e-01  1.63044272e-07  1.14013496e-07  6.30000000e-01 
 6.40000000e-01  3.25578143e-09  4.59440562e-01  3.19536752e-09  4.59440562e-01  3.21741481e-09  3.51204969e-09  4.59440562e-01  1.63044289e-07  1.14013559e-07  6.40000000e-01 
 6.50000000e-01  3.25578149e-09  4.59440544e-01  3.19536752e-09  4.59440545e-01  3.21741479e-09  3.51204969e-09  4.59440544e-01  1.63044261e-07  1.14013346e-07  6.50000000e-01 
 6.60000000e-01  3.25578143e-09  4.59440539e-01  3.19536758e-09  4.59440539e-01  3.21741480e-09  3.51204969e-09  4.59440539e-01  1.63044257e-07  1.14013197e-07  6.60000000e-01 
 6.70000000e-01  3.25578149e-09  4.59440547e-01  3.19536751e-09  4.59440547e-01  3.21741480e-09  3.51204963e-09  4.59440547e-01  1.63044265e-07  1.14013190e-07  6.70000000e-01 
 6.80000000e-01  3.25578143e-09  4.59440532e-01  3.19536753e-09  4.59440532e-01  3.21741474e-09  3.51204969e-09  4.59440532e-01  1.63044247e-07  1.14012913e-07  6.80000000e-01 
 6.90000000e-01  3.25578143e-09  4.59440555e-01  3.19536752e-09  4.59440555e-01  3.21741481e-09  3.51204969e-09  4.59440555e-01  1.63044277e-07  1.14013027e-07  6.90000000e-01 
 7.00000000e-01  3.25578144e-09  4.59440571e-01  3.19536752e-09  4.59440571e-01  3.21741474e-09  3.51204964e-09  4.59440571e-01  1.63044301e-07  1.14012984e-07  7.00000000e-01 
 7.10000000e-01  3.25578143e-09  4.59440545e-01  3.19536752e-09  4.59440545e-01  3.21741481e-09  3.51204969e-09  4.59440545e-01  1.63044270e-07  1.14012870e-07  7.10000000e-01 
 7.20000000e-01  3.25578143e-09  4.59440547e-01  3.19536752e-09  4.59440547e-01  3.21741474e-09  3.51204963e-09  4.59440547e-01  1.63044265e-07  1.14012778e-07  7.20000000e-01 
 7.30000000e-01  3.25578149e-09  4.59440547e-01  3.19536752e-09  4.59440548e-01  3.21741481e-09  3.51204963e-09  4.59440547e-01  1.63044260e-07  1.14012643e-07  7.30000000e-01 
 7.40000000e-01  3.25578149e-09  4.59440562e-01  3.19536752e-09  4.59440562e-01  3.21741474e-09  3.51204969e-09  4.59440561e-01  1.63044286e-07  1.14012735e-07  7.40000000e-01 
 7.50000000e-01  3.25578149e-09  4.59440576e-01  3.19536752e-09  4.59440576e-01  3.21741481e-09  3.51204964e-09  4.59440576e-01  1.63044316e-07  1.14012607e-07  7.50000000e-01 
 7.60000000e-01  3.25578143e-09  4.59440557e-01  3.19536752e-09  4.59440557e-01  3.21741474e-09  3.51204969e-09  4.59440557e-01  1.63044297e-07  1.14012465e-07  7.60000000e-01 
 7.70000000e-01  3.25578149e-09  4.59440549e-01  3.19536758e-09  4.59440549e-01  3.21741481e-09  3.51204963e-09  4.59440549e-01  1.63044264e-07  1.14012316e-07  7.70000000e-01 
 7.80000000e-01  3.25578149e-09  4.59440535e-01  3.19536756e-09  4.59440535e-01  3.21741479e-09  3.51204969e-09  4.59440535e-01  1.63044246e-07  1.14012252e-07  7.80000000e-01 
 7.90000000e-01  3.25578143e-09  4.59440542e-01  3.19536753e-09  4.59440542e-01  3.21741480e-09  3.51204963e-09  4.59440542e-01  1.63044258e-07  1.14012046e-07  7.90000000e-01 
 8.00000000e-01  3.25578143e-09  4.59440548e-01  3.19536752e-09  4.59440548e-01  3.21741474e-09  3.51204969e-09  4.59440548e-01  1.63044276e-07  1.14012160e-07  8.00000000e-01 
 8.10000000e-01  3.25578143e-09  4.59440547e-01  3.19536752e-09  4.59440547e-01  3.21741481e-09  3.51204963e-09  4.59440547e-01  1.63044254e-07  1.14012025e-07  8.10000000e-01 
 8.20000000e-01  3.25578143e-09  4.59440550e-01  3.19536752e-09  4.59440550e-01  3.21741474e-09  3.51204969e-09  4.59440550e-01  1.63044272e-07  1.14012046e-07  8.20000000e-01 
 8.30000000e-01  3.25578143e-09  4.59440547e-01  3.19536752e-09  4.59440547e-01  3.21741481e-09  3.51204969e-09  4.59440547e-01  1.63044269e-07  1.14011812e-07  8.30000000e-01 
 8.40000000e-01  3.25578149e-09  4.59440547e-01  3.19536752e-09  4.59440547e-01  3.21741474e-09  3.51204963e-09  4.59440547e-01  1.63044265e-07  1.14011911e-07  8.40000000e-01 
 8.50000000e-01  3.25578149e-09  4.59440548e-01  3.19536752e-09  4.59440548e-01  3.21741481e-09  3.51204963e-09  4.59440548e-01  1.63044270e-07  1.14011755e-07  8.50000000e-01 
 8.60000000e-01  3.25578144e-09  4.59440568e-01  3.19536752e-09  4.59440568e-01  3.21741480e-09  3.51204964e-09  4.59440568e-01  1.63044297e-07  1.14011641e-07  8.60000000e-01 
 8.70000000e-01  3.25578149e-09  4.59440560e-01  3.19536752e-09  4.59440560e-01  3.21741480e-09  3.51204964e-09  4.59440560e-01  1.63044272e-07  1.14011627e-07  8.70000000e-01 
 8.80000000e-01  3.25578149e-09  4.59440552e-01  3.19536752e-09  4.59440552e-01  3.21741474e-09  3.51204969e-09  4.59440552e-01  1.63044279e-07  1.14011485e-07  8.80000000e-01 
 8.90000000e-01  3.25578149e-09  4.59440569e-01  3.19536752e-09  4.59440569e-01  3.21741476e-09  3.51204964e-09  4.59440569e-01  1.63044298e-07  1.14011428e-07  8.90000000e-01 
 9.00000000e-01  3.25578143e-09  4.59440556e-01  3.19536752e-09  4.59440556e-01  3.21741475e-09  3.51204969e-09  4.59440556e-01  1.63044289e-07  1.14011335e-07  9.00000000e-01 
 9.10000000e-01  3.25578149e-09  4.59440541e-01  3.19536752e-09  4.59440541e-01  3.21741481e-09  3.51204969e-09  4.59440541e-01  1.63044254e-07  1.14011151e-07  9.10000000e-01 
 9.20000000e-01  3.25578143e-09  4.59440542e-01  3.19536752e-09  4.59440542e-01  3.21741479e-09  3.51204963e-09  4.59440542e-01  1.63044265e-07  1.14011051e-07  9.20000000e-01 
 9.30000000e-01  3.25578144e-09  4.59440570e-01  3.19536752e-09  4.59440570e-01  3.21741474e-09  3.51204964e-09  4.59440570e-01  1.63044286e-07  1.14011065e-07  9.30000000e-01 
 9.40000000e-01  3.25578149e-09  4.59440553e-01  3.19536752e-09  4.59440553e-01  3.21741476e-09  3.51204963e-09  4.59440553e-01  1.63044280e-07  1.14010845e-07  9.40000000e-01 
 9.50000000e-01  3.25578143e-09  4.59440551e-01  3.19536752e-09  4.59440551e-01  3.21741481e-09  3.51204969e-09  4.59440551e-01  1.63044266e-07  1.14010767e-07  9.50000000e-01 
 9.60000000e-01  3.25578149e-09  4.59440555e-01  3.19536752e-09  4.59440555e-01  3.21741479e-09  3.51204963e-09  4.59440555e-01  1.63044280e-07  1.14010739e-07  9.60000000e-01 
 9.70000000e-01  3.25578143e-09  4.59440549e-01  3.19536752e-09  4.59440549e-01  3.21741474e-09  3.51204963e-09  4.59440549e-01  1.63044261e-07  1.14010689e-07  9.70000000e-01 
 9.80000000e-01  3.25578149e-09  4.59440546e-01  3.19536752e-09  4.59440546e-01  3.21741476e-09  3.51204969e-09  4.59440546e-01  1.63044265e-07  1.14010653e-07  9.80000000e-01 
 9.90000000e-01  3.25578143e-09  4.59440544e-01  3.19536752e-09  4.59440544e-01  3.21741481e-09  3.51204963e-09  4.59440544e-01  1.63044257e-07  1.14010405e-07  9.90000000e-01 
 1.00000000e+00  3.25578143e-09  4.59440555e-01  3.19536752e-09  4.59440555e-01  3.21741479e-09  3.51204963e-09  4.59440555e-01  1.63044273e-07  1.14010426e-07  1.00000000e+00 
 1.01000000e+00  3.25578143e-09  4.59440517e-01  3.19536758e-09  4.59440517e-01  3.21741474e-09  3.51204969e-09  4.59440517e-01  1.63044216e-07  1.14010277e-07  1.01000000e+00 
 1.02000000e+00  3.25578143e-09  4.59440541e-01  3.19536756e-09  4.59440541e-01  3.21741481e-09  3.51204969e-09  4.59440541e-01  1.63044261e-07  1.14010120e-07  1.02000000e+00 
 1.03000000e+00  3.25578143e-09  4.59440530e-01  3.19536753e-09  4.59440530e-01  3.21741479e-09  3.51204963e-09  4.59440530e-01  1.63044258e-07  1.14010099e-07  1.03000000e+00 
 1.04000000e+00  3.25578149e-09  4.59440554e-01  3.19536752e-09  4.59440554e-01  3.21741474e-09  3.51204963e-09  4.59440554e-01  1.63044267e-07  1.14010007e-07  1.04000000e+00 
 1.05000000e+00  3.25578149e-09  4.59440550e-01  3.19536752e-09  4.59440550e-01  3.21741476e-09  3.51204963e-09  4.59440550e-01  1.63044267e-07  1.14009865e-07  1.05000000e+00 
 1.06000000e+00  3.25578149e-09  4.59440536e-01  3.19536752e-09  4.59440536e-01  3.21741475e-09  3.51204963e-09  4.59440536e-01  1.63044251e-07  1.14009850e-07  1.06000000e+00 
 1.07000000e+00  3.25578149e-09  4.59440547e-01  3.19536752e-09  4.59440548e-01  3.21741481e-09  3.51204963e-09  4.59440547e-01  1.63044271e-07  1.14009687e-07  1.07000000e+00 
 1.08000000e+00  3.25578144e-09  4.59440568e-01  3.19536752e-09  4.59440568e-01  3.21741480e-09  3.51204969e-09  4.59440568e-01  1.63044298e-07  1.14009666e-07  1.08000000e+00 
 1.09000000e+00  3.25578143e-09  4.59440564e-01  3.19536752e-09  4.59440564e-01  3.21741480e-09  3.51204964e-09  4.59440564e-01  1.63044291e-07  1.14009630e-07  1.09000000e+00 
 1.10000000e+00  3.25578143e-09  4.59440562e-01  3.19536752e-09  4.59440562e-01  3.21741480e-09  3.51204969e-09  4.59440562e-01  1.63044287e-07  1.14009453e-07  1.10000000e+00 
