 v-sweep         v(b0)           v(b1)           v(b2)           v(b3)           v(b4)           v(b5)           v(b6)           i(vbias)        i(viout)        v(vout)        
 0.00000000e+00  4.58423334e-01  3.33551207e-09  3.37549997e-09  4.58423334e-01  4.58423334e-01  4.58423334e-01  3.44258884e-09  1.59417272e-07  8.07754174e-08  0.00000000e+00 
 1.00000000e-02  4.58423321e-01  3.33551211e-09  3.37549994e-09  4.58423321e-01  4.58423321e-01  4.58423321e-01  3.44258881e-09  1.59417245e-07  8.07750447e-08  1.00000000e-02 
 2.00000000e-02  4.58423341e-01  3.33551209e-09  3.37549996e-09  4.58423342e-01  4.58423341e-01  4.58423342e-01  3.44258881e-09  1.59417266e-07  8.07747307e-08  2.00000000e-02 
 3.00000000e-02  4.58423349e-01  3.33551206e-09  3.37549995e-09  4.58423349e-01  4.58423349e-01  4.58423349e-01  3.44258881e-09  1.59417270e-07  8.07742664e-08  3.00000000e-02 
 4.00000000e-02  4.58423349e-01  3.33551205e-09  3.37549989e-09  4.58423349e-01  4.58423349e-01  4.58423349e-01  3.44258881e-09  1.59417280e-07  8.07738445e-08  4.00000000e-02 
 5.00000000e-02  4.58423329e-01  3.33551205e-09  3.37549995e-09  4.58423329e-01  4.58423329e-01  4.58423329e-01  3.44258881e-09  1.59417254e-07  8.07735927e-08  5.00000000e-02 
 6.00000000e-02  4.58423343e-01  3.33551205e-09  3.37549995e-09  4.58423343e-01  4.58423343e-01  4.58423343e-01  3.44258876e-09  1.59417270e-07  8.07732641e-08  6.00000000e-02 
 7.00000000e-02  4.58423354e-01  3.33551205e-09  3.37549995e-09  4.58423354e-01  4.58423354e-01  4.58423354e-01  3.44258882e-09  1.59417291e-07  8.07729674e-08  7.00000000e-02 
 8.00000000e-02  4.58423344e-01  3.33551211e-09  3.37549995e-09  4.58423344e-01  4.58423344e-01  4.58423344e-01  3.44258881e-09  1.59417280e-07  8.07727156e-08  8.00000000e-02 
 9.00000000e-02  4.58423340e-01  3.33551204e-09  3.37549995e-09  4.58423340e-01  4.58423340e-01  4.58423340e-01  3.44258881e-09  1.59417295e-07  8.07724092e-08  9.00000000e-02 
 1.00000000e-01  4.58423346e-01  3.33551206e-09  3.37549995e-09  4.58423346e-01  4.58423346e-01  4.58423346e-01  3.44258881e-09  1.59417277e-07  8.07721889e-08  1.00000000e-01 
 1.10000000e-01  4.58423326e-01  3.33551205e-09  3.37549995e-09  4.58423326e-01  4.58423326e-01  4.58423326e-01  3.44258876e-09  1.59417244e-07  8.07717973e-08  1.10000000e-01 
 1.20000000e-01  4.58423361e-01  3.33551211e-09  3.37549995e-09  4.58423362e-01  4.58423361e-01  4.58423362e-01  3.44258882e-09  1.59417305e-07  8.07716951e-08  1.20000000e-01 
 1.30000000e-01  4.58423360e-01  3.33551209e-09  3.37549995e-09  4.58423360e-01  4.58423360e-01  4.58423360e-01  3.44258882e-09  1.59417305e-07  8.07715050e-08  1.30000000e-01 
 1.40000000e-01  4.58423357e-01  3.33551206e-09  3.37549995e-09  4.58423357e-01  4.58423357e-01  4.58423357e-01  3.44258882e-09  1.59417296e-07  8.07712928e-08  1.40000000e-01 
 1.50000000e-01  4.58423341e-01  3.33551211e-09  3.37549995e-09  4.58423341e-01  4.58423340e-01  4.58423341e-01  3.44258881e-09  1.59417250e-07  8.07709828e-08  1.50000000e-01 
 1.60000000e-01  4.58423338e-01  3.33551209e-09  3.37549995e-09  4.58423338e-01  4.58423338e-01  4.58423338e-01  3.44258881e-09  1.59417266e-07  8.07708265e-08  1.60000000e-01 
 1.70000000e-01  4.58423340e-01  3.33551205e-09  3.37549995e-09  4.58423340e-01  4.58423340e-01  4.58423340e-01  3.44258881e-09  1.59417263e-07  8.07705316e-08  1.70000000e-01 
 1.80000000e-01  4.58423350e-01  3.33551211e-09  3.37549995e-09  4.58423351e-01  4.58423350e-01  4.58423351e-01  3.44258882e-09  1.59417291e-07  8.07704268e-08  1.80000000e-01 
 1.90000000e-01  4.58423343e-01  3.33551204e-09  3.37549995e-09  4.58423343e-01  4.58423342e-01  4.58423343e-01  3.44258881e-09  1.59417274e-07  8.07701905e-08  1.90000000e-01 
 2.00000000e-01  4.58423324e-01  3.33551205e-09  3.37549995e-09  4.58423324e-01  4.58423324e-01  4.58423324e-01  3.44258881e-09  1.59417264e-07  8.07700822e-08  2.00000000e-01 
 2.10000000e-01  4.58423321e-01  3.33551211e-09  3.37549989e-09  4.58423321e-01  4.58423321e-01  4.58423321e-01  3.44258881e-09  1.59417246e-07  8.07697891e-08  2.10000000e-01 
 2.20000000e-01  4.58423348e-01  3.33551204e-09  3.37549995e-09  4.58423348e-01  4.58423348e-01  4.58423348e-01  3.44258881e-09  1.59417271e-07  8.07696594e-08  2.20000000e-01 
 2.30000000e-01  4.58423328e-01  3.33551205e-09  3.37549995e-09  4.58423328e-01  4.58423328e-01  4.58423328e-01  3.44258881e-09  1.59417251e-07  8.07694622e-08  2.30000000e-01 
 2.40000000e-01  4.58423350e-01  3.33551205e-09  3.37549995e-09  4.58423351e-01  4.58423350e-01  4.58423351e-01  3.44258882e-09  1.59417271e-07  8.07694995e-08  2.40000000e-01 
 2.50000000e-01  4.58423330e-01  3.33551205e-09  3.37549995e-09  4.58423330e-01  4.58423329e-01  4.58423330e-01  3.44258881e-09  1.59417269e-07  8.07693770e-08  2.50000000e-01 
 2.60000000e-01  4.58423332e-01  3.33551211e-09  3.37549995e-09  4.58423332e-01  4.58423332e-01  4.58423332e-01  3.44258881e-09  1.59417260e-07  8.07690643e-08  2.60000000e-01 
 2.70000000e-01  4.58423348e-01  3.33551204e-09  3.37549995e-09  4.58423348e-01  4.58423348e-01  4.58423348e-01  3.44258881e-09  1.59417289e-07  8.07690679e-08  2.70000000e-01 
 2.80000000e-01  4.58423327e-01  3.33551211e-09  3.37549995e-09  4.58423328e-01  4.58423327e-01  4.58423328e-01  3.44258881e-09  1.59417237e-07  8.07688210e-08  2.80000000e-01 
 2.90000000e-01  4.58423342e-01  3.33551204e-09  3.37549995e-09  4.58423342e-01  4.58423342e-01  4.58423342e-01  3.44258881e-09  1.59417279e-07  8.07688849e-08  2.90000000e-01 
 3.00000000e-01  4.58423324e-01  3.33551205e-09  3.37549995e-09  4.58423324e-01  4.58423323e-01  4.58423324e-01  3.44258881e-09  1.59417234e-07  8.07686327e-08  3.00000000e-01 
 3.10000000e-01  4.58423356e-01  3.33551211e-09  3.37549995e-09  4.58423356e-01  4.58423356e-01  4.58423356e-01  3.44258876e-09  1.59417291e-07  8.07685865e-08  3.10000000e-01 
 3.20000000e-01  4.58423335e-01  3.33551204e-09  3.37549995e-09  4.58423335e-01  4.58423335e-01  4.58423335e-01  3.44258876e-09  1.59417270e-07  8.07683591e-08  3.20000000e-01 
 3.30000000e-01  4.58423350e-01  3.33551206e-09  3.37549995e-09  4.58423350e-01  4.58423350e-01  4.58423350e-01  3.44258882e-09  1.59417294e-07  8.07684124e-08  3.30000000e-01 
 3.40000000e-01  4.58423333e-01  3.33551205e-09  3.37549995e-09  4.58423333e-01  4.58423333e-01  4.58423333e-01  3.44258881e-09  1.59417257e-07  8.07681886e-08  3.40000000e-01 
 3.50000000e-01  4.58423340e-01  3.33551205e-09  3.37549995e-09  4.58423341e-01  4.58423340e-01  4.58423341e-01  3.44258881e-09  1.59417267e-07  8.07680323e-08  3.50000000e-01 
 3.60000000e-01  4.58423355e-01  3.33551205e-09  3.37549995e-09  4.58423355e-01  4.58423355e-01  4.58423355e-01  3.44258882e-09  1.59417296e-07  8.07681104e-08  3.60000000e-01 
 3.70000000e-01  4.58423330e-01  3.33551205e-09  3.37549995e-09  4.58423330e-01  4.58423330e-01  4.58423330e-01  3.44258881e-09  1.59417259e-07  8.07679577e-08  3.70000000e-01 
 3.80000000e-01  4.58423344e-01  3.33551205e-09  3.37549995e-09  4.58423344e-01  4.58423344e-01  4.58423344e-01  3.44258881e-09  1.59417276e-07  8.07679683e-08  3.80000000e-01 
 3.90000000e-01  4.58423354e-01  3.33551211e-09  3.37549989e-09  4.58423354e-01  4.58423354e-01  4.58423354e-01  3.44258882e-09  1.59417285e-07  8.07677800e-08  3.90000000e-01 
 4.00000000e-01  4.58423336e-01  3.33551209e-09  3.37549995e-09  4.58423336e-01  4.58423335e-01  4.58423336e-01  3.44258881e-09  1.59417273e-07  8.07677765e-08  4.00000000e-01 
 4.10000000e-01  4.58423335e-01  3.33551205e-09  3.37549995e-09  4.58423335e-01  4.58423335e-01  4.58423335e-01  3.44258881e-09  1.59417268e-07  8.07676344e-08  4.10000000e-01 
 4.20000000e-01  4.58423348e-01  3.33551211e-09  3.37549989e-09  4.58423349e-01  4.58423348e-01  4.58423349e-01  3.44258881e-09  1.59417301e-07  8.07674176e-08  4.20000000e-01 
 4.30000000e-01  4.58423334e-01  3.33551204e-09  3.37549995e-09  4.58423334e-01  4.58423334e-01  4.58423334e-01  3.44258881e-09  1.59417239e-07  8.07674816e-08  4.30000000e-01 
 4.40000000e-01  4.58423358e-01  3.33551206e-09  3.37549995e-09  4.58423358e-01  4.58423358e-01  4.58423358e-01  3.44258882e-09  1.59417304e-07  8.07674283e-08  4.40000000e-01 
 4.50000000e-01  4.58423307e-01  3.33551205e-09  3.37549995e-09  4.58423308e-01  4.58423307e-01  4.58423308e-01  3.44258881e-09  1.59417221e-07  8.07673217e-08  4.50000000e-01 
 4.60000000e-01  4.58423343e-01  3.33551205e-09  3.37549995e-09  4.58423343e-01  4.58423342e-01  4.58423343e-01  3.44258881e-09  1.59417290e-07  8.07671761e-08  4.60000000e-01 
 4.70000000e-01  4.58423318e-01  3.33551210e-09  3.37549995e-09  4.58423318e-01  4.58423318e-01  4.58423318e-01  3.44258881e-09  1.59417243e-07  8.07671050e-08  4.70000000e-01 
 4.80000000e-01  4.58423338e-01  3.33551209e-09  3.37549995e-09  4.58423338e-01  4.58423338e-01  4.58423338e-01  3.44258881e-09  1.59417267e-07  8.07671441e-08  4.80000000e-01 
 4.90000000e-01  4.58423340e-01  3.33551211e-09  3.37549995e-09  4.58423340e-01  4.58423340e-01  4.58423340e-01  3.44258881e-09  1.59417273e-07  8.07670446e-08  4.90000000e-01 
 5.00000000e-01  4.58423348e-01  3.33551209e-09  3.37549995e-09  4.58423349e-01  4.58423348e-01  4.58423348e-01  3.44258881e-09  1.59417287e-07  8.07669025e-08  5.00000000e-01 
 5.10000000e-01  4.58423358e-01  3.33551206e-09  3.37549995e-09  4.58423358e-01  4.58423358e-01  4.58423358e-01  3.44258882e-09  1.59417301e-07  8.07669025e-08  5.10000000e-01 
 5.20000000e-01  4.58423328e-01  3.33551205e-09  3.37549995e-09  4.58423328e-01  4.58423328e-01  4.58423328e-01  3.44258881e-09  1.59417263e-07  8.07667426e-08  5.20000000e-01 
 5.30000000e-01  4.58423326e-01  3.33551205e-09  3.37549989e-09  4.58423326e-01  4.58423326e-01  4.58423326e-01  3.44258881e-09  1.59417250e-07  8.07666325e-08  5.30000000e-01 
 5.40000000e-01  4.58423336e-01  3.33551205e-09  3.37549995e-09  4.58423336e-01  4.58423336e-01  4.58423336e-01  3.44258881e-09  1.59417261e-07  8.07666822e-08  5.40000000e-01 
 5.50000000e-01  4.58423331e-01  3.33551211e-09  3.37549995e-09  4.58423331e-01  4.58423331e-01  4.58423331e-01  3.44258876e-09  1.59417257e-07  8.07665685e-08  5.50000000e-01 
 5.60000000e-01  4.58423335e-01  3.33551209e-09  3.37549995e-09  4.58423335e-01  4.58423335e-01  4.58423335e-01  3.44258881e-09  1.59417274e-07  8.07665579e-08  5.60000000e-01 
 5.70000000e-01  4.58423354e-01  3.33551206e-09  3.37549995e-09  4.58423354e-01  4.58423354e-01  4.58423354e-01  3.44258882e-09  1.59417289e-07  8.07664726e-08  5.70000000e-01 
 5.80000000e-01  4.58423344e-01  3.33551205e-09  3.37549989e-09  4.58423345e-01  4.58423344e-01  4.58423344e-01  3.44258881e-09  1.59417295e-07  8.07663270e-08  5.80000000e-01 
 5.90000000e-01  4.58423352e-01  3.33551205e-09  3.37549995e-09  4.58423353e-01  4.58423352e-01  4.58423353e-01  3.44258882e-09  1.59417283e-07  8.07663127e-08  5.90000000e-01 
 6.00000000e-01  4.58423376e-01  3.33551205e-09  3.37549995e-09  4.58423376e-01  4.58423376e-01  4.58423376e-01  3.44258882e-09  1.59417323e-07  8.07663412e-08  6.00000000e-01 
 6.10000000e-01  4.58423343e-01  3.33551211e-09  3.37549989e-09  4.58423343e-01  4.58423343e-01  4.58423343e-01  3.44258881e-09  1.59417272e-07  8.07661849e-08  6.10000000e-01 
 6.20000000e-01  4.58423338e-01  3.33551204e-09  3.37549995e-09  4.58423338e-01  4.58423338e-01  4.58423338e-01  3.44258881e-09  1.59417254e-07  8.07661706e-08  6.20000000e-01 
 6.30000000e-01  4.58423339e-01  3.33551205e-09  3.37549995e-09  4.58423339e-01  4.58423339e-01  4.58423339e-01  3.44258881e-09  1.59417270e-07  8.07660143e-08  6.30000000e-01 
 6.40000000e-01  4.58423341e-01  3.33551211e-09  3.37549995e-09  4.58423341e-01  4.58423341e-01  4.58423341e-01  3.44258881e-09  1.59417282e-07  8.07659077e-08  6.40000000e-01 
 6.50000000e-01  4.58423352e-01  3.33551209e-09  3.37549995e-09  4.58423353e-01  4.58423352e-01  4.58423353e-01  3.44258882e-09  1.59417287e-07  8.07659220e-08  6.50000000e-01 
 6.60000000e-01  4.58423371e-01  3.33551211e-09  3.37549995e-09  4.58423371e-01  4.58423370e-01  4.58423371e-01  3.44258882e-09  1.59417322e-07  8.07658935e-08  6.60000000e-01 
 6.70000000e-01  4.58423321e-01  3.33551209e-09  3.37549995e-09  4.58423321e-01  4.58423321e-01  4.58423321e-01  3.44258881e-09  1.59417239e-07  8.07657372e-08  6.70000000e-01 
 6.80000000e-01  4.58423340e-01  3.33551211e-09  3.37549995e-09  4.58423341e-01  4.58423340e-01  4.58423340e-01  3.44258881e-09  1.59417275e-07  8.07656164e-08  6.80000000e-01 
 6.90000000e-01  4.58423366e-01  3.33551209e-09  3.37549995e-09  4.58423367e-01  4.58423366e-01  4.58423367e-01  3.44258882e-09  1.59417304e-07  8.07656306e-08  6.90000000e-01 
 7.00000000e-01  4.58423363e-01  3.33551206e-09  3.37549995e-09  4.58423363e-01  4.58423363e-01  4.58423363e-01  3.44258882e-09  1.59417317e-07  8.07654459e-08  7.00000000e-01 
 7.10000000e-01  4.58423353e-01  3.33551205e-09  3.37549989e-09  4.58423353e-01  4.58423353e-01  4.58423353e-01  3.44258882e-09  1.59417294e-07  8.07655240e-08  7.10000000e-01 
 7.20000000e-01  4.58423361e-01  3.33551205e-09  3.37549995e-09  4.58423361e-01  4.58423361e-01  4.58423361e-01  3.44258876e-09  1.59417307e-07  8.07654104e-08  7.20000000e-01 
 7.30000000e-01  4.58423359e-01  3.33551211e-09  3.37549995e-09  4.58423359e-01  4.58423358e-01  4.58423359e-01  3.44258882e-09  1.59417299e-07  8.07652896e-08  7.30000000e-01 
 7.40000000e-01  4.58423346e-01  3.33551204e-09  3.37549995e-09  4.58423346e-01  4.58423346e-01  4.58423346e-01  3.44258881e-09  1.59417272e-07  8.07652327e-08  7.40000000e-01 
 7.50000000e-01  4.58423347e-01  3.33551206e-09  3.37549995e-09  4.58423347e-01  4.58423347e-01  4.58423347e-01  3.44258881e-09  1.59417276e-07  8.07653038e-08  7.50000000e-01 
 7.60000000e-01  4.58423343e-01  3.33551205e-09  3.37549995e-09  4.58423343e-01  4.58423343e-01  4.58423343e-01  3.44258881e-09  1.59417290e-07  8.07651048e-08  7.60000000e-01 
 7.70000000e-01  4.58423362e-01  3.33551205e-09  3.37549995e-09  4.58423363e-01  4.58423362e-01  4.58423363e-01  3.44258882e-09  1.59417303e-07  8.07650480e-08  7.70000000e-01 
 7.80000000e-01  4.58423319e-01  3.33551210e-09  3.37549995e-09  4.58423319e-01  4.58423319e-01  4.58423319e-01  3.44258881e-09  1.59417241e-07  8.07649485e-08  7.80000000e-01 
 7.90000000e-01  4.58423331e-01  3.33551209e-09  3.37549995e-09  4.58423332e-01  4.58423331e-01  4.58423332e-01  3.44258881e-09  1.59417251e-07  8.07647709e-08  7.90000000e-01 
 8.00000000e-01  4.58423349e-01  3.33551206e-09  3.37549995e-09  4.58423350e-01  4.58423349e-01  4.58423350e-01  3.44258881e-09  1.59417285e-07  8.07649556e-08  8.00000000e-01 
 8.10000000e-01  4.58423349e-01  3.33551205e-09  3.37549995e-09  4.58423349e-01  4.58423349e-01  4.58423349e-01  3.44258881e-09  1.59417281e-07  8.07646927e-08  8.10000000e-01 
 8.20000000e-01  4.58423326e-01  3.33551205e-09  3.37549989e-09  4.58423326e-01  4.58423326e-01  4.58423326e-01  3.44258881e-09  1.59417248e-07  8.07646430e-08  8.20000000e-01 
 8.30000000e-01  4.58423339e-01  3.33551205e-09  3.37549995e-09  4.58423339e-01  4.58423339e-01  4.58423339e-01  3.44258881e-09  1.59417258e-07  8.07645719e-08  8.30000000e-01 
 8.40000000e-01  4.58423335e-01  3.33551205e-09  3.37549995e-09  4.58423335e-01  4.58423335e-01  4.58423335e-01  3.44258881e-09  1.59417277e-07  8.07645719e-08  8.40000000e-01 
 8.50000000e-01  4.58423343e-01  3.33551205e-09  3.37549995e-09  4.58423343e-01  4.58423343e-01  4.58423343e-01  3.44258881e-09  1.59417277e-07  8.07644298e-08  8.50000000e-01 
 8.60000000e-01  4.58423338e-01  3.33551211e-09  3.37549995e-09  4.58423338e-01  4.58423338e-01  4.58423338e-01  3.44258881e-09  1.59417273e-07  8.07644298e-08  8.60000000e-01 
 8.70000000e-01  4.58423330e-01  3.33551209e-09  3.37549995e-09  4.58423330e-01  4.58423330e-01  4.58423330e-01  3.44258881e-09  1.59417258e-07  8.07642948e-08  8.70000000e-01 
 8.80000000e-01  4.58423344e-01  3.33551205e-09  3.37549995e-09  4.58423345e-01  4.58423344e-01  4.58423345e-01  3.44258881e-09  1.59417267e-07  8.07642664e-08  8.80000000e-01 
 8.90000000e-01  4.58423345e-01  3.33551205e-09  3.37549995e-09  4.58423345e-01  4.58423345e-01  4.58423345e-01  3.44258881e-09  1.59417275e-07  8.07642735e-08  8.90000000e-01 
 9.00000000e-01  4.58423360e-01  3.33551205e-09  3.37549995e-09  4.58423360e-01  4.58423360e-01  4.58423360e-01  3.44258882e-09  1.59417308e-07  8.07640674e-08  9.00000000e-01 
 9.10000000e-01  4.58423339e-01  3.33551205e-09  3.37549995e-09  4.58423339e-01  4.58423339e-01  4.58423339e-01  3.44258881e-09  1.59417264e-07  8.07639893e-08  9.10000000e-01 
 9.20000000e-01  4.58423352e-01  3.33551205e-09  3.37549995e-09  4.58423353e-01  4.58423352e-01  4.58423352e-01  3.44258882e-09  1.59417271e-07  8.07640461e-08  9.20000000e-01 
 9.30000000e-01  4.58423347e-01  3.33551205e-09  3.37549995e-09  4.58423347e-01  4.58423347e-01  4.58423347e-01  3.44258881e-09  1.59417287e-07  8.07639182e-08  9.30000000e-01 
 9.40000000e-01  4.58423325e-01  3.33551205e-09  3.37549989e-09  4.58423325e-01  4.58423324e-01  4.58423325e-01  3.44258881e-09  1.59417246e-07  8.07637619e-08  9.40000000e-01 
 9.50000000e-01  4.58423336e-01  3.33551211e-09  3.37549995e-09  4.58423336e-01  4.58423336e-01  4.58423336e-01  3.44258881e-09  1.59417262e-07  8.07636837e-08  9.50000000e-01 
 9.60000000e-01  4.58423319e-01  3.33551209e-09  3.37549995e-09  4.58423319e-01  4.58423319e-01  4.58423319e-01  3.44258881e-09  1.59417238e-07  8.07636340e-08  9.60000000e-01 
 9.70000000e-01  4.58423336e-01  3.33551205e-09  3.37549995e-09  4.58423336e-01  4.58423336e-01  4.58423336e-01  3.44258881e-09  1.59417259e-07  8.07636269e-08  9.70000000e-01 
 9.80000000e-01  4.58423338e-01  3.33551205e-09  3.37549995e-09  4.58423338e-01  4.58423338e-01  4.58423338e-01  3.44258876e-09  1.59417263e-07  8.07635416e-08  9.80000000e-01 
 9.90000000e-01  4.58423324e-01  3.33551205e-09  3.37549995e-09  4.58423324e-01  4.58423324e-01  4.58423324e-01  3.44258881e-09  1.59417240e-07  8.07634279e-08  9.90000000e-01 
 1.00000000e+00  4.58423358e-01  3.33551211e-09  3.37549995e-09  4.58423358e-01  4.58423357e-01  4.58423358e-01  3.44258882e-09  1.59417299e-07  8.07633711e-08  1.00000000e+00 
 1.01000000e+00  4.58423340e-01  3.33551204e-09  3.37549995e-09  4.58423340e-01  4.58423340e-01  4.58423340e-01  3.44258881e-09  1.59417273e-07  8.07634706e-08  1.01000000e+00 
 1.02000000e+00  4.58423337e-01  3.33551205e-09  3.37549995e-09  4.58423337e-01  4.58423337e-01  4.58423337e-01  3.44258881e-09  1.59417272e-07  8.07633000e-08  1.02000000e+00 
 1.03000000e+00  4.58423355e-01  3.33551205e-09  3.37549995e-09  4.58423355e-01  4.58423354e-01  4.58423355e-01  3.44258882e-09  1.59417309e-07  8.07631864e-08  1.03000000e+00 
 1.04000000e+00  4.58423340e-01  3.33551211e-09  3.37549995e-09  4.58423340e-01  4.58423339e-01  4.58423340e-01  3.44258881e-09  1.59417258e-07  8.07631295e-08  1.04000000e+00 
 1.05000000e+00  4.58423337e-01  3.33551204e-09  3.37549995e-09  4.58423337e-01  4.58423337e-01  4.58423337e-01  3.44258881e-09  1.59417274e-07  8.07630585e-08  1.05000000e+00 
 1.06000000e+00  4.58423340e-01  3.33551205e-09  3.37549989e-09  4.58423340e-01  4.58423340e-01  4.58423340e-01  3.44258881e-09  1.59417276e-07  8.07629235e-08  1.06000000e+00 
 1.07000000e+00  4.58423339e-01  3.33551205e-09  3.37549995e-09  4.58423340e-01  4.58423339e-01  4.58423340e-01  3.44258881e-09  1.59417259e-07  8.07628453e-08  1.07000000e+00 
 1.08000000e+00  4.58423346e-01  3.33551205e-09  3.37549995e-09  4.58423347e-01  4.58423346e-01  4.58423346e-01  3.44258881e-09  1.59417289e-07  8.07627174e-08  1.08000000e+00 
 1.09000000e+00  4.58423335e-01  3.33551205e-09  3.37549995e-09  4.58423335e-01  4.58423335e-01  4.58423335e-01  3.44258881e-09  1.59417264e-07  8.07627245e-08  1.09000000e+00 
 1.10000000e+00  4.58423343e-01  3.33551205e-09  3.37549989e-09  4.58423344e-01  4.58423343e-01  4.58423344e-01  3.44258881e-09  1.59417271e-07  8.07626321e-08  1.10000000e+00 
