 v-sweep         v(b0)           v(b1)           v(b2)           v(b3)           v(b4)           v(b5)           v(b6)           i(vbias)        i(viout)        v(vout)        
 0.00000000e+00  3.50554904e-09  4.60382489e-01  3.19114750e-09  3.15347426e-09  4.60382488e-01  3.29351994e-09  4.60382489e-01  1.63301639e-07  1.29425385e-07  0.00000000e+00 
 1.00000000e-02  3.50554907e-09  4.60382491e-01  3.19114748e-09  3.15347424e-09  4.60382491e-01  3.29351998e-09  4.60382491e-01  1.63301640e-07  1.29424996e-07  1.00000000e-02 
 2.00000000e-02  3.50554907e-09  4.60382492e-01  3.19114748e-09  3.15347419e-09  4.60382492e-01  3.29351998e-09  4.60382492e-01  1.63301649e-07  1.29424622e-07  2.00000000e-02 
 3.00000000e-02  3.50554907e-09  4.60382485e-01  3.19114754e-09  3.15347424e-09  4.60382485e-01  3.29351992e-09  4.60382485e-01  1.63301631e-07  1.29424164e-07  3.00000000e-02 
 4.00000000e-02  3.50554908e-09  4.60382516e-01  3.19114748e-09  3.15347424e-09  4.60382516e-01  3.29351998e-09  4.60382516e-01  1.63301678e-07  1.29423836e-07  4.00000000e-02 
 5.00000000e-02  3.50554908e-09  4.60382508e-01  3.19114754e-09  3.15347424e-09  4.60382508e-01  3.29351992e-09  4.60382508e-01  1.63301661e-07  1.29423547e-07  5.00000000e-02 
 6.00000000e-02  3.50554908e-09  4.60382496e-01  3.19114748e-09  3.15347419e-09  4.60382496e-01  3.29351992e-09  4.60382496e-01  1.63301647e-07  1.29423046e-07  6.00000000e-02 
 7.00000000e-02  3.50554908e-09  4.60382513e-01  3.19114748e-09  3.15347424e-09  4.60382513e-01  3.29351998e-09  4.60382513e-01  1.63301664e-07  1.29422884e-07  7.00000000e-02 
 8.00000000e-02  3.50554907e-09  4.60382485e-01  3.19114748e-09  3.15347419e-09  4.60382485e-01  3.29351998e-09  4.60382485e-01  1.63301629e-07  1.29422480e-07  8.00000000e-02 
 9.00000000e-02  3.50554913e-09  4.60382490e-01  3.19114754e-09  3.15347424e-09  4.60382490e-01  3.29351992e-09  4.60382490e-01  1.63301641e-07  1.29422222e-07  9.00000000e-02 
 1.00000000e-01  3.50554907e-09  4.60382491e-01  3.19114748e-09  3.15347419e-09  4.60382491e-01  3.29351998e-09  4.60382491e-01  1.63301642e-07  1.29421771e-07  1.00000000e-01 
 1.10000000e-01  3.50554908e-09  4.60382496e-01  3.19114754e-09  3.15347424e-09  4.60382496e-01  3.29351992e-09  4.60382496e-01  1.63301650e-07  1.29421657e-07  1.10000000e-01 
 1.20000000e-01  3.50554913e-09  4.60382504e-01  3.19114748e-09  3.15347419e-09  4.60382504e-01  3.29351992e-09  4.60382504e-01  1.63301662e-07  1.29421402e-07  1.20000000e-01 
 1.30000000e-01  3.50554907e-09  4.60382489e-01  3.19114748e-09  3.15347419e-09  4.60382489e-01  3.29351998e-09  4.60382489e-01  1.63301626e-07  1.29421088e-07  1.30000000e-01 
 1.40000000e-01  3.50554907e-09  4.60382490e-01  3.19114748e-09  3.15347419e-09  4.60382490e-01  3.29351992e-09  4.60382490e-01  1.63301654e-07  1.29420924e-07  1.40000000e-01 
 1.50000000e-01  3.50554908e-09  4.60382497e-01  3.19114754e-09  3.15347424e-09  4.60382497e-01  3.29351992e-09  4.60382497e-01  1.63301647e-07  1.29420650e-07  1.50000000e-01 
 1.60000000e-01  3.50554908e-09  4.60382502e-01  3.19114748e-09  3.15347424e-09  4.60382502e-01  3.29351998e-09  4.60382502e-01  1.63301668e-07  1.29420416e-07  1.60000000e-01 
 1.70000000e-01  3.50554908e-09  4.60382494e-01  3.19114754e-09  3.15347424e-09  4.60382494e-01  3.29351998e-09  4.60382494e-01  1.63301635e-07  1.29420174e-07  1.70000000e-01 
 1.80000000e-01  3.50554907e-09  4.60382486e-01  3.19114754e-09  3.15347419e-09  4.60382486e-01  3.29351998e-09  4.60382486e-01  1.63301641e-07  1.29419929e-07  1.80000000e-01 
 1.90000000e-01  3.50554907e-09  4.60382491e-01  3.19114748e-09  3.15347424e-09  4.60382491e-01  3.29351998e-09  4.60382491e-01  1.63301649e-07  1.29419826e-07  1.90000000e-01 
 2.00000000e-01  3.50554907e-09  4.60382493e-01  3.19114748e-09  3.15347424e-09  4.60382493e-01  3.29351998e-09  4.60382493e-01  1.63301644e-07  1.29419588e-07  2.00000000e-01 
 2.10000000e-01  3.50554908e-09  4.60382500e-01  3.19114754e-09  3.15347424e-09  4.60382500e-01  3.29351992e-09  4.60382500e-01  1.63301640e-07  1.29419362e-07  2.10000000e-01 
 2.20000000e-01  3.50554908e-09  4.60382509e-01  3.19114748e-09  3.15347424e-09  4.60382509e-01  3.29351998e-09  4.60382509e-01  1.63301660e-07  1.29419339e-07  2.20000000e-01 
 2.30000000e-01  3.50554908e-09  4.60382497e-01  3.19114754e-09  3.15347424e-09  4.60382497e-01  3.29351998e-09  4.60382497e-01  1.63301654e-07  1.29419083e-07  2.30000000e-01 
 2.40000000e-01  3.50554908e-09  4.60382515e-01  3.19114754e-09  3.15347419e-09  4.60382515e-01  3.29351998e-09  4.60382515e-01  1.63301674e-07  1.29418945e-07  2.40000000e-01 
 2.50000000e-01  3.50554908e-09  4.60382502e-01  3.19114754e-09  3.15347419e-09  4.60382502e-01  3.29351998e-09  4.60382502e-01  1.63301661e-07  1.29418758e-07  2.50000000e-01 
 2.60000000e-01  3.50554907e-09  4.60382487e-01  3.19114754e-09  3.15347424e-09  4.60382487e-01  3.29351992e-09  4.60382487e-01  1.63301637e-07  1.29418529e-07  2.60000000e-01 
 2.70000000e-01  3.50554908e-09  4.60382502e-01  3.19114748e-09  3.15347424e-09  4.60382502e-01  3.29351998e-09  4.60382502e-01  1.63301665e-07  1.29418579e-07  2.70000000e-01 
 2.80000000e-01  3.50554908e-09  4.60382502e-01  3.19114748e-09  3.15347419e-09  4.60382502e-01  3.29351998e-09  4.60382502e-01  1.63301652e-07  1.29418325e-07  2.80000000e-01 
 2.90000000e-01  3.50554907e-09  4.60382486e-01  3.19114754e-09  3.15347424e-09  4.60382486e-01  3.29351998e-09  4.60382486e-01  1.63301634e-07  1.29418218e-07  2.90000000e-01 
 3.00000000e-01  3.50554907e-09  4.60382485e-01  3.19114748e-09  3.15347419e-09  4.60382485e-01  3.29351998e-09  4.60382485e-01  1.63301637e-07  1.29418023e-07  3.00000000e-01 
 3.10000000e-01  3.50554908e-09  4.60382513e-01  3.19114748e-09  3.15347419e-09  4.60382513e-01  3.29351998e-09  4.60382513e-01  1.63301668e-07  1.29417892e-07  3.10000000e-01 
 3.20000000e-01  3.50554908e-09  4.60382503e-01  3.19114748e-09  3.15347419e-09  4.60382503e-01  3.29351992e-09  4.60382503e-01  1.63301668e-07  1.29417813e-07  3.20000000e-01 
 3.30000000e-01  3.50554908e-09  4.60382503e-01  3.19114748e-09  3.15347424e-09  4.60382503e-01  3.29351992e-09  4.60382503e-01  1.63301655e-07  1.29417653e-07  3.30000000e-01 
 3.40000000e-01  3.50554908e-09  4.60382515e-01  3.19114754e-09  3.15347419e-09  4.60382515e-01  3.29351998e-09  4.60382515e-01  1.63301665e-07  1.29417639e-07  3.40000000e-01 
 3.50000000e-01  3.50554908e-09  4.60382496e-01  3.19114754e-09  3.15347419e-09  4.60382496e-01  3.29351992e-09  4.60382496e-01  1.63301639e-07  1.29417444e-07  3.50000000e-01 
 3.60000000e-01  3.50554907e-09  4.60382488e-01  3.19114748e-09  3.15347419e-09  4.60382487e-01  3.29351992e-09  4.60382488e-01  1.63301634e-07  1.29417284e-07  3.60000000e-01 
 3.70000000e-01  3.50554908e-09  4.60382503e-01  3.19114754e-09  3.15347424e-09  4.60382503e-01  3.29351992e-09  4.60382503e-01  1.63301655e-07  1.29417273e-07  3.70000000e-01 
 3.80000000e-01  3.50554908e-09  4.60382497e-01  3.19114748e-09  3.15347419e-09  4.60382496e-01  3.29351998e-09  4.60382496e-01  1.63301657e-07  1.29417192e-07  3.80000000e-01 
 3.90000000e-01  3.50554907e-09  4.60382482e-01  3.19114748e-09  3.15347419e-09  4.60382482e-01  3.29351992e-09  4.60382482e-01  1.63301626e-07  1.29416925e-07  3.90000000e-01 
 4.00000000e-01  3.50554908e-09  4.60382504e-01  3.19114748e-09  3.15347419e-09  4.60382504e-01  3.29351992e-09  4.60382504e-01  1.63301666e-07  1.29416954e-07  4.00000000e-01 
 4.10000000e-01  3.50554908e-09  4.60382508e-01  3.19114748e-09  3.15347419e-09  4.60382508e-01  3.29351998e-09  4.60382508e-01  1.63301673e-07  1.29416875e-07  4.10000000e-01 
 4.20000000e-01  3.50554908e-09  4.60382519e-01  3.19114754e-09  3.15347419e-09  4.60382519e-01  3.29351992e-09  4.60382519e-01  1.63301673e-07  1.29416843e-07  4.20000000e-01 
 4.30000000e-01  3.50554907e-09  4.60382485e-01  3.19114754e-09  3.15347419e-09  4.60382485e-01  3.29351998e-09  4.60382485e-01  1.63301633e-07  1.29416552e-07  4.30000000e-01 
 4.40000000e-01  3.50554908e-09  4.60382502e-01  3.19114754e-09  3.15347419e-09  4.60382502e-01  3.29351992e-09  4.60382502e-01  1.63301664e-07  1.29416595e-07  4.40000000e-01 
 4.50000000e-01  3.50554908e-09  4.60382497e-01  3.19114754e-09  3.15347419e-09  4.60382497e-01  3.29351998e-09  4.60382497e-01  1.63301660e-07  1.29416406e-07  4.50000000e-01 
 4.60000000e-01  3.50554908e-09  4.60382495e-01  3.19114748e-09  3.15347424e-09  4.60382495e-01  3.29351992e-09  4.60382495e-01  1.63301652e-07  1.29416318e-07  4.60000000e-01 
 4.70000000e-01  3.50554908e-09  4.60382496e-01  3.19114754e-09  3.15347424e-09  4.60382495e-01  3.29351998e-09  4.60382495e-01  1.63301634e-07  1.29416229e-07  4.70000000e-01 
 4.80000000e-01  3.50554908e-09  4.60382501e-01  3.19114748e-09  3.15347424e-09  4.60382501e-01  3.29351998e-09  4.60382501e-01  1.63301663e-07  1.29416147e-07  4.80000000e-01 
 4.90000000e-01  3.50554908e-09  4.60382503e-01  3.19114748e-09  3.15347419e-09  4.60382503e-01  3.29351998e-09  4.60382503e-01  1.63301662e-07  1.29416062e-07  4.90000000e-01 
 5.00000000e-01  3.50554908e-09  4.60382525e-01  3.19114754e-09  3.15347424e-09  4.60382525e-01  3.29351998e-09  4.60382525e-01  1.63301692e-07  1.29415994e-07  5.00000000e-01 
 5.10000000e-01  3.50554908e-09  4.60382520e-01  3.19114754e-09  3.15347419e-09  4.60382520e-01  3.29351998e-09  4.60382520e-01  1.63301691e-07  1.29415884e-07  5.10000000e-01 
 5.20000000e-01  3.50554908e-09  4.60382510e-01  3.19114748e-09  3.15347424e-09  4.60382510e-01  3.29351998e-09  4.60382510e-01  1.63301671e-07  1.29415799e-07  5.20000000e-01 
 5.30000000e-01  3.50554907e-09  4.60382485e-01  3.19114748e-09  3.15347424e-09  4.60382485e-01  3.29351992e-09  4.60382485e-01  1.63301642e-07  1.29415564e-07  5.30000000e-01 
 5.40000000e-01  3.50554907e-09  4.60382485e-01  3.19114754e-09  3.15347424e-09  4.60382484e-01  3.29351992e-09  4.60382485e-01  1.63301639e-07  1.29415501e-07  5.40000000e-01 
 5.50000000e-01  3.50554908e-09  4.60382507e-01  3.19114754e-09  3.15347419e-09  4.60382507e-01  3.29351998e-09  4.60382507e-01  1.63301644e-07  1.29415497e-07  5.50000000e-01 
 5.60000000e-01  3.50554908e-09  4.60382509e-01  3.19114754e-09  3.15347424e-09  4.60382509e-01  3.29351992e-09  4.60382509e-01  1.63301666e-07  1.29415476e-07  5.60000000e-01 
 5.70000000e-01  3.50554908e-09  4.60382495e-01  3.19114754e-09  3.15347424e-09  4.60382495e-01  3.29351992e-09  4.60382495e-01  1.63301645e-07  1.29415280e-07  5.70000000e-01 
 5.80000000e-01  3.50554907e-09  4.60382484e-01  3.19114748e-09  3.15347419e-09  4.60382483e-01  3.29351992e-09  4.60382484e-01  1.63301632e-07  1.29415199e-07  5.80000000e-01 
 5.90000000e-01  3.50554908e-09  4.60382515e-01  3.19114748e-09  3.15347424e-09  4.60382515e-01  3.29351998e-09  4.60382515e-01  1.63301676e-07  1.29415149e-07  5.90000000e-01 
 6.00000000e-01  3.50554908e-09  4.60382506e-01  3.19114748e-09  3.15347419e-09  4.60382506e-01  3.29351998e-09  4.60382506e-01  1.63301664e-07  1.29415149e-07  6.00000000e-01 
 6.10000000e-01  3.50554908e-09  4.60382510e-01  3.19114754e-09  3.15347419e-09  4.60382510e-01  3.29351992e-09  4.60382510e-01  1.63301672e-07  1.29415014e-07  6.10000000e-01 
 6.20000000e-01  3.50554908e-09  4.60382495e-01  3.19114754e-09  3.15347424e-09  4.60382495e-01  3.29351998e-09  4.60382495e-01  1.63301637e-07  1.29414843e-07  6.20000000e-01 
 6.30000000e-01  3.50554908e-09  4.60382519e-01  3.19114754e-09  3.15347424e-09  4.60382519e-01  3.29351998e-09  4.60382519e-01  1.63301680e-07  1.29414872e-07  6.30000000e-01 
 6.40000000e-01  3.50554908e-09  4.60382495e-01  3.19114748e-09  3.15347419e-09  4.60382495e-01  3.29351992e-09  4.60382495e-01  1.63301643e-07  1.29414822e-07  6.40000000e-01 
 6.50000000e-01  3.50554908e-09  4.60382495e-01  3.19114754e-09  3.15347419e-09  4.60382495e-01  3.29351992e-09  4.60382495e-01  1.63301647e-07  1.29414580e-07  6.50000000e-01 
 6.60000000e-01  3.50554907e-09  4.60382490e-01  3.19114754e-09  3.15347419e-09  4.60382490e-01  3.29351992e-09  4.60382490e-01  1.63301634e-07  1.29414488e-07  6.60000000e-01 
 6.70000000e-01  3.50554908e-09  4.60382496e-01  3.19114754e-09  3.15347424e-09  4.60382496e-01  3.29351992e-09  4.60382496e-01  1.63301646e-07  1.29414417e-07  6.70000000e-01 
 6.80000000e-01  3.50554908e-09  4.60382510e-01  3.19114754e-09  3.15347419e-09  4.60382510e-01  3.29351998e-09  4.60382510e-01  1.63301654e-07  1.29414282e-07  6.80000000e-01 
 6.90000000e-01  3.50554908e-09  4.60382495e-01  3.19114754e-09  3.15347424e-09  4.60382495e-01  3.29351998e-09  4.60382495e-01  1.63301644e-07  1.29414246e-07  6.90000000e-01 
 7.00000000e-01  3.50554908e-09  4.60382511e-01  3.19114748e-09  3.15347419e-09  4.60382511e-01  3.29351998e-09  4.60382511e-01  1.63301673e-07  1.29414325e-07  7.00000000e-01 
 7.10000000e-01  3.50554908e-09  4.60382509e-01  3.19114748e-09  3.15347419e-09  4.60382509e-01  3.29351998e-09  4.60382509e-01  1.63301680e-07  1.29414040e-07  7.10000000e-01 
 7.20000000e-01  3.50554908e-09  4.60382494e-01  3.19114748e-09  3.15347424e-09  4.60382494e-01  3.29351998e-09  4.60382494e-01  1.63301633e-07  1.29414033e-07  7.20000000e-01 
 7.30000000e-01  3.50554908e-09  4.60382505e-01  3.19114748e-09  3.15347419e-09  4.60382505e-01  3.29351998e-09  4.60382505e-01  1.63301657e-07  1.29413991e-07  7.30000000e-01 
 7.40000000e-01  3.50554908e-09  4.60382515e-01  3.19114748e-09  3.15347424e-09  4.60382515e-01  3.29351992e-09  4.60382515e-01  1.63301680e-07  1.29413856e-07  7.40000000e-01 
 7.50000000e-01  3.50554908e-09  4.60382507e-01  3.19114748e-09  3.15347419e-09  4.60382507e-01  3.29351992e-09  4.60382507e-01  1.63301665e-07  1.29413827e-07  7.50000000e-01 
 7.60000000e-01  3.50554908e-09  4.60382507e-01  3.19114754e-09  3.15347424e-09  4.60382507e-01  3.29351992e-09  4.60382507e-01  1.63301663e-07  1.29413664e-07  7.60000000e-01 
 7.70000000e-01  3.50554908e-09  4.60382493e-01  3.19114754e-09  3.15347419e-09  4.60382493e-01  3.29351998e-09  4.60382493e-01  1.63301653e-07  1.29413507e-07  7.70000000e-01 
 7.80000000e-01  3.50554907e-09  4.60382491e-01  3.19114754e-09  3.15347424e-09  4.60382491e-01  3.29351998e-09  4.60382491e-01  1.63301636e-07  1.29413323e-07  7.80000000e-01 
 7.90000000e-01  3.50554907e-09  4.60382483e-01  3.19114754e-09  3.15347419e-09  4.60382483e-01  3.29351998e-09  4.60382483e-01  1.63301621e-07  1.29413294e-07  7.90000000e-01 
 8.00000000e-01  3.50554908e-09  4.60382508e-01  3.19114754e-09  3.15347419e-09  4.60382508e-01  3.29351992e-09  4.60382508e-01  1.63301659e-07  1.29413252e-07  8.00000000e-01 
 8.10000000e-01  3.50554908e-09  4.60382494e-01  3.19114748e-09  3.15347424e-09  4.60382494e-01  3.29351998e-09  4.60382494e-01  1.63301663e-07  1.29413081e-07  8.10000000e-01 
 8.20000000e-01  3.50554907e-09  4.60382488e-01  3.19114754e-09  3.15347419e-09  4.60382488e-01  3.29351992e-09  4.60382488e-01  1.63301633e-07  1.29412975e-07  8.20000000e-01 
 8.30000000e-01  3.50554908e-09  4.60382509e-01  3.19114754e-09  3.15347419e-09  4.60382509e-01  3.29351998e-09  4.60382509e-01  1.63301669e-07  1.29413031e-07  8.30000000e-01 
 8.40000000e-01  3.50554908e-09  4.60382502e-01  3.19114754e-09  3.15347419e-09  4.60382502e-01  3.29351998e-09  4.60382502e-01  1.63301669e-07  1.29412932e-07  8.40000000e-01 
 8.50000000e-01  3.50554908e-09  4.60382507e-01  3.19114754e-09  3.15347424e-09  4.60382507e-01  3.29351992e-09  4.60382507e-01  1.63301666e-07  1.29412854e-07  8.50000000e-01 
 8.60000000e-01  3.50554908e-09  4.60382509e-01  3.19114754e-09  3.15347424e-09  4.60382509e-01  3.29351998e-09  4.60382509e-01  1.63301668e-07  1.29412754e-07  8.60000000e-01 
 8.70000000e-01  3.50554908e-09  4.60382515e-01  3.19114748e-09  3.15347424e-09  4.60382515e-01  3.29351992e-09  4.60382515e-01  1.63301687e-07  1.29412605e-07  8.70000000e-01 
 8.80000000e-01  3.50554907e-09  4.60382487e-01  3.19114748e-09  3.15347424e-09  4.60382486e-01  3.29351992e-09  4.60382487e-01  1.63301635e-07  1.29412442e-07  8.80000000e-01 
 8.90000000e-01  3.50554907e-09  4.60382488e-01  3.19114748e-09  3.15347424e-09  4.60382488e-01  3.29351992e-09  4.60382488e-01  1.63301642e-07  1.29412399e-07  8.90000000e-01 
 9.00000000e-01  3.50554908e-09  4.60382500e-01  3.19114754e-09  3.15347424e-09  4.60382500e-01  3.29351998e-09  4.60382500e-01  1.63301662e-07  1.29412300e-07  9.00000000e-01 
 9.10000000e-01  3.50554908e-09  4.60382506e-01  3.19114754e-09  3.15347419e-09  4.60382506e-01  3.29351992e-09  4.60382506e-01  1.63301658e-07  1.29412150e-07  9.10000000e-01 
 9.20000000e-01  3.50554908e-09  4.60382498e-01  3.19114754e-09  3.15347424e-09  4.60382498e-01  3.29351998e-09  4.60382498e-01  1.63301658e-07  1.29412122e-07  9.20000000e-01 
 9.30000000e-01  3.50554908e-09  4.60382500e-01  3.19114754e-09  3.15347424e-09  4.60382500e-01  3.29351992e-09  4.60382500e-01  1.63301649e-07  1.29411909e-07  9.30000000e-01 
 9.40000000e-01  3.50554908e-09  4.60382527e-01  3.19114749e-09  3.15347424e-09  4.60382526e-01  3.29351998e-09  4.60382527e-01  1.63301692e-07  1.29412008e-07  9.40000000e-01 
 9.50000000e-01  3.50554908e-09  4.60382494e-01  3.19114748e-09  3.15347419e-09  4.60382494e-01  3.29351992e-09  4.60382494e-01  1.63301656e-07  1.29411774e-07  9.50000000e-01 
 9.60000000e-01  3.50554908e-09  4.60382514e-01  3.19114748e-09  3.15347424e-09  4.60382514e-01  3.29351998e-09  4.60382514e-01  1.63301675e-07  1.29411724e-07  9.60000000e-01 
 9.70000000e-01  3.50554907e-09  4.60382485e-01  3.19114748e-09  3.15347424e-09  4.60382485e-01  3.29351998e-09  4.60382485e-01  1.63301631e-07  1.29411518e-07  9.70000000e-01 
 9.80000000e-01  3.50554907e-09  4.60382469e-01  3.19114748e-09  3.15347418e-09  4.60382469e-01  3.29351998e-09  4.60382469e-01  1.63301615e-07  1.29411418e-07  9.80000000e-01 
 9.90000000e-01  3.50554908e-09  4.60382499e-01  3.19114754e-09  3.15347424e-09  4.60382499e-01  3.29351992e-09  4.60382499e-01  1.63301661e-07  1.29411497e-07  9.90000000e-01 
 1.00000000e+00  3.50554907e-09  4.60382482e-01  3.19114754e-09  3.15347419e-09  4.60382482e-01  3.29351992e-09  4.60382482e-01  1.63301630e-07  1.29411248e-07  1.00000000e+00 
 1.01000000e+00  3.50554907e-09  4.60382493e-01  3.19114754e-09  3.15347419e-09  4.60382493e-01  3.29351998e-09  4.60382493e-01  1.63301651e-07  1.29411120e-07  1.01000000e+00 
 1.02000000e+00  3.50554908e-09  4.60382504e-01  3.19114748e-09  3.15347424e-09  4.60382504e-01  3.29351998e-09  4.60382504e-01  1.63301657e-07  1.29411099e-07  1.02000000e+00 
 1.03000000e+00  3.50554908e-09  4.60382503e-01  3.19114748e-09  3.15347424e-09  4.60382503e-01  3.29351992e-09  4.60382503e-01  1.63301655e-07  1.29411099e-07  1.03000000e+00 
 1.04000000e+00  3.50554907e-09  4.60382484e-01  3.19114748e-09  3.15347419e-09  4.60382484e-01  3.29351998e-09  4.60382484e-01  1.63301631e-07  1.29410893e-07  1.04000000e+00 
 1.05000000e+00  3.50554907e-09  4.60382484e-01  3.19114748e-09  3.15347424e-09  4.60382484e-01  3.29351998e-09  4.60382484e-01  1.63301625e-07  1.29410616e-07  1.05000000e+00 
 1.06000000e+00  3.50554908e-09  4.60382494e-01  3.19114748e-09  3.15347424e-09  4.60382494e-01  3.29351998e-09  4.60382494e-01  1.63301643e-07  1.29410537e-07  1.06000000e+00 
 1.07000000e+00  3.50554907e-09  4.60382492e-01  3.19114748e-09  3.15347424e-09  4.60382492e-01  3.29351992e-09  4.60382492e-01  1.63301647e-07  1.29410708e-07  1.07000000e+00 
 1.08000000e+00  3.50554908e-09  4.60382500e-01  3.19114754e-09  3.15347419e-09  4.60382500e-01  3.29351998e-09  4.60382500e-01  1.63301650e-07  1.29410481e-07  1.08000000e+00 
 1.09000000e+00  3.50554908e-09  4.60382500e-01  3.19114748e-09  3.15347419e-09  4.60382500e-01  3.29351992e-09  4.60382500e-01  1.63301657e-07  1.29410353e-07  1.09000000e+00 
 1.10000000e+00  3.50554908e-09  4.60382494e-01  3.19114748e-09  3.15347419e-09  4.60382494e-01  3.29351998e-09  4.60382494e-01  1.63301637e-07  1.29410260e-07  1.10000000e+00 
