 v-sweep         v(b0)           v(b1)           v(b2)           v(b3)           v(b4)           v(b5)           v(b6)           i(vbias)        i(viout)        v(vout)        
 0.00000000e+00  4.58397602e-01  4.58397602e-01  3.51129792e-09  3.27962961e-09  3.23256040e-09  3.63315768e-09  3.45701436e-09  1.60296357e-07  4.38521897e-09  0.00000000e+00 
 1.00000000e-02  4.58397608e-01  4.58397608e-01  3.51129789e-09  3.27962959e-09  3.23256044e-09  3.63315771e-09  3.45701433e-09  1.60296364e-07  4.38484049e-09  1.00000000e-02 
 2.00000000e-02  4.58397587e-01  4.58397587e-01  3.51129788e-09  3.27962959e-09  3.23256043e-09  3.63315771e-09  3.45701433e-09  1.60296342e-07  4.38447278e-09  2.00000000e-02 
 3.00000000e-02  4.58397584e-01  4.58397584e-01  3.51129788e-09  3.27962959e-09  3.23256043e-09  3.63315771e-09  3.45701433e-09  1.60296328e-07  4.38403047e-09  3.00000000e-02 
 4.00000000e-02  4.58397587e-01  4.58397587e-01  3.51129788e-09  3.27962959e-09  3.23256038e-09  3.63315771e-09  3.45701433e-09  1.60296319e-07  4.38365877e-09  4.00000000e-02 
 5.00000000e-02  4.58397566e-01  4.58397566e-01  3.51129788e-09  3.27962958e-09  3.23256043e-09  3.63315771e-09  3.45701433e-09  1.60296312e-07  4.38346426e-09  5.00000000e-02 
 6.00000000e-02  4.58397595e-01  4.58397595e-01  3.51129788e-09  3.27962959e-09  3.23256038e-09  3.63315771e-09  3.45701433e-09  1.60296354e-07  4.38311254e-09  6.00000000e-02 
 7.00000000e-02  4.58397600e-01  4.58397600e-01  3.51129789e-09  3.27962964e-09  3.23256043e-09  3.63315771e-09  3.45701433e-09  1.60296357e-07  4.38275904e-09  7.00000000e-02 
 8.00000000e-02  4.58397594e-01  4.58397594e-01  3.51129788e-09  3.27962959e-09  3.23256043e-09  3.63315771e-09  3.45701433e-09  1.60296349e-07  4.38251302e-09  8.00000000e-02 
 9.00000000e-02  4.58397589e-01  4.58397589e-01  3.51129788e-09  3.27962959e-09  3.23256038e-09  3.63315771e-09  3.45701433e-09  1.60296334e-07  4.38215064e-09  9.00000000e-02 
 1.00000000e-01  4.58397577e-01  4.58397577e-01  3.51129788e-09  3.27962958e-09  3.23256038e-09  3.63315771e-09  3.45701433e-09  1.60296304e-07  4.38198455e-09  1.00000000e-01 
 1.10000000e-01  4.58397591e-01  4.58397591e-01  3.51129788e-09  3.27962959e-09  3.23256038e-09  3.63315771e-09  3.45701433e-09  1.60296337e-07  4.38171011e-09  1.10000000e-01 
 1.20000000e-01  4.58397573e-01  4.58397573e-01  3.51129788e-09  3.27962958e-09  3.23256038e-09  3.63315771e-09  3.45701433e-09  1.60296315e-07  4.38140457e-09  1.20000000e-01 
 1.30000000e-01  4.58397586e-01  4.58397586e-01  3.51129788e-09  3.27962959e-09  3.23256043e-09  3.63315771e-09  3.45701433e-09  1.60296339e-07  4.38120384e-09  1.30000000e-01 
 1.40000000e-01  4.58397571e-01  4.58397571e-01  3.51129788e-09  3.27962958e-09  3.23256043e-09  3.63315771e-09  3.45701433e-09  1.60296309e-07  4.38098002e-09  1.40000000e-01 
 1.50000000e-01  4.58397582e-01  4.58397582e-01  3.51129788e-09  3.27962959e-09  3.23256038e-09  3.63315771e-09  3.45701433e-09  1.60296331e-07  4.38070380e-09  1.50000000e-01 
 1.60000000e-01  4.58397585e-01  4.58397585e-01  3.51129788e-09  3.27962964e-09  3.23256043e-09  3.63315771e-09  3.45701433e-09  1.60296332e-07  4.38054926e-09  1.60000000e-01 
 1.70000000e-01  4.58397588e-01  4.58397588e-01  3.51129788e-09  3.27962959e-09  3.23256043e-09  3.63315771e-09  3.45701433e-09  1.60296332e-07  4.38039649e-09  1.70000000e-01 
 1.80000000e-01  4.58397595e-01  4.58397595e-01  3.51129788e-09  3.27962959e-09  3.23256038e-09  3.63315771e-09  3.45701433e-09  1.60296345e-07  4.38028991e-09  1.80000000e-01 
 1.90000000e-01  4.58397591e-01  4.58397590e-01  3.51129788e-09  3.27962959e-09  3.23256038e-09  3.63315777e-09  3.45701433e-09  1.60296335e-07  4.37999681e-09  1.90000000e-01 
 2.00000000e-01  4.58397568e-01  4.58397568e-01  3.51129788e-09  3.27962958e-09  3.23256038e-09  3.63315776e-09  3.45701433e-09  1.60296296e-07  4.37974279e-09  2.00000000e-01 
 2.10000000e-01  4.58397576e-01  4.58397576e-01  3.51129788e-09  3.27962958e-09  3.23256038e-09  3.63315771e-09  3.45701433e-09  1.60296316e-07  4.37976766e-09  2.10000000e-01 
 2.20000000e-01  4.58397597e-01  4.58397597e-01  3.51129789e-09  3.27962959e-09  3.23256038e-09  3.63315772e-09  3.45701433e-09  1.60296346e-07  4.37947634e-09  2.20000000e-01 
 2.30000000e-01  4.58397584e-01  4.58397584e-01  3.51129788e-09  3.27962959e-09  3.23256038e-09  3.63315770e-09  3.45701433e-09  1.60296337e-07  4.37946035e-09  2.30000000e-01 
 2.40000000e-01  4.58397568e-01  4.58397568e-01  3.51129788e-09  3.27962958e-09  3.23256043e-09  3.63315772e-09  3.45701433e-09  1.60296313e-07  4.37928449e-09  2.40000000e-01 
 2.50000000e-01  4.58397589e-01  4.58397589e-01  3.51129788e-09  3.27962959e-09  3.23256038e-09  3.63315776e-09  3.45701433e-09  1.60296335e-07  4.37918857e-09  2.50000000e-01 
 2.60000000e-01  4.58397584e-01  4.58397584e-01  3.51129788e-09  3.27962959e-09  3.23256043e-09  3.63315771e-09  3.45701433e-09  1.60296326e-07  4.37900027e-09  2.60000000e-01 
 2.70000000e-01  4.58397580e-01  4.58397580e-01  3.51129788e-09  3.27962959e-09  3.23256038e-09  3.63315772e-09  3.45701433e-09  1.60296318e-07  4.37899494e-09  2.70000000e-01 
 2.80000000e-01  4.58397587e-01  4.58397587e-01  3.51129788e-09  3.27962959e-09  3.23256038e-09  3.63315770e-09  3.45701433e-09  1.60296334e-07  4.37879244e-09  2.80000000e-01 
 2.90000000e-01  4.58397585e-01  4.58397585e-01  3.51129788e-09  3.27962959e-09  3.23256043e-09  3.63315772e-09  3.45701433e-09  1.60296320e-07  4.37876935e-09  2.90000000e-01 
 3.00000000e-01  4.58397590e-01  4.58397590e-01  3.51129788e-09  3.27962959e-09  3.23256038e-09  3.63315770e-09  3.45701433e-09  1.60296324e-07  4.37863790e-09  3.00000000e-01 
 3.10000000e-01  4.58397594e-01  4.58397594e-01  3.51129794e-09  3.27962959e-09  3.23256038e-09  3.63315772e-09  3.45701433e-09  1.60296344e-07  4.37848158e-09  3.10000000e-01 
 3.20000000e-01  4.58397589e-01  4.58397589e-01  3.51129788e-09  3.27962959e-09  3.23256043e-09  3.63315776e-09  3.45701433e-09  1.60296341e-07  4.37825420e-09  3.20000000e-01 
 3.30000000e-01  4.58397585e-01  4.58397585e-01  3.51129788e-09  3.27962964e-09  3.23256043e-09  3.63315771e-09  3.45701433e-09  1.60296323e-07  4.37830749e-09  3.30000000e-01 
 3.40000000e-01  4.58397585e-01  4.58397585e-01  3.51129788e-09  3.27962959e-09  3.23256043e-09  3.63315772e-09  3.45701433e-09  1.60296324e-07  4.37817249e-09  3.40000000e-01 
 3.50000000e-01  4.58397596e-01  4.58397596e-01  3.51129789e-09  3.27962959e-09  3.23256043e-09  3.63315770e-09  3.45701433e-09  1.60296359e-07  4.37816183e-09  3.50000000e-01 
 3.60000000e-01  4.58397589e-01  4.58397589e-01  3.51129788e-09  3.27962959e-09  3.23256038e-09  3.63315772e-09  3.45701433e-09  1.60296327e-07  4.37792735e-09  3.60000000e-01 
 3.70000000e-01  4.58397583e-01  4.58397583e-01  3.51129788e-09  3.27962959e-09  3.23256038e-09  3.63315776e-09  3.45701433e-09  1.60296321e-07  4.37795578e-09  3.70000000e-01 
 3.80000000e-01  4.58397557e-01  4.58397557e-01  3.51129788e-09  3.27962958e-09  3.23256043e-09  3.63315770e-09  3.45701433e-09  1.60296293e-07  4.37772840e-09  3.80000000e-01 
 3.90000000e-01  4.58397581e-01  4.58397581e-01  3.51129788e-09  3.27962959e-09  3.23256043e-09  3.63315772e-09  3.45701433e-09  1.60296323e-07  4.37764314e-09  3.90000000e-01 
 4.00000000e-01  4.58397599e-01  4.58397599e-01  3.51129789e-09  3.27962959e-09  3.23256038e-09  3.63315770e-09  3.45701433e-09  1.60296349e-07  4.37762182e-09  4.00000000e-01 
 4.10000000e-01  4.58397581e-01  4.58397581e-01  3.51129788e-09  3.27962959e-09  3.23256043e-09  3.63315772e-09  3.45701433e-09  1.60296319e-07  4.37763248e-09  4.10000000e-01 
 4.20000000e-01  4.58397577e-01  4.58397577e-01  3.51129788e-09  3.27962959e-09  3.23256043e-09  3.63315770e-09  3.45701433e-09  1.60296316e-07  4.37749037e-09  4.20000000e-01 
 4.30000000e-01  4.58397594e-01  4.58397594e-01  3.51129788e-09  3.27962959e-09  3.23256043e-09  3.63315772e-09  3.45701433e-09  1.60296335e-07  4.37733050e-09  4.30000000e-01 
 4.40000000e-01  4.58397587e-01  4.58397587e-01  3.51129788e-09  3.27962959e-09  3.23256043e-09  3.63315770e-09  3.45701433e-09  1.60296325e-07  4.37746195e-09  4.40000000e-01 
 4.50000000e-01  4.58397584e-01  4.58397584e-01  3.51129788e-09  3.27962959e-09  3.23256043e-09  3.63315772e-09  3.45701433e-09  1.60296322e-07  4.37722747e-09  4.50000000e-01 
 4.60000000e-01  4.58397593e-01  4.58397593e-01  3.51129788e-09  3.27962959e-09  3.23256043e-09  3.63315770e-09  3.45701433e-09  1.60296340e-07  4.37718128e-09  4.60000000e-01 
 4.70000000e-01  4.58397581e-01  4.58397581e-01  3.51129788e-09  3.27962964e-09  3.23256038e-09  3.63315772e-09  3.45701433e-09  1.60296316e-07  4.37699299e-09  4.70000000e-01 
 4.80000000e-01  4.58397590e-01  4.58397590e-01  3.51129788e-09  3.27962959e-09  3.23256043e-09  3.63315770e-09  3.45701433e-09  1.60296342e-07  4.37703918e-09  4.80000000e-01 
 4.90000000e-01  4.58397578e-01  4.58397578e-01  3.51129788e-09  3.27962959e-09  3.23256038e-09  3.63315772e-09  3.45701433e-09  1.60296307e-07  4.37695036e-09  4.90000000e-01 
 5.00000000e-01  4.58397593e-01  4.58397593e-01  3.51129788e-09  3.27962959e-09  3.23256038e-09  3.63315770e-09  3.45701433e-09  1.60296354e-07  4.37684378e-09  5.00000000e-01 
 5.10000000e-01  4.58397624e-01  4.58397624e-01  3.51129789e-09  3.27962959e-09  3.23256044e-09  3.63315772e-09  3.45701433e-09  1.60296382e-07  4.37680114e-09  5.10000000e-01 
 5.20000000e-01  4.58397571e-01  4.58397571e-01  3.51129788e-09  3.27962958e-09  3.23256043e-09  3.63315770e-09  3.45701433e-09  1.60296304e-07  4.37685443e-09  5.20000000e-01 
 5.30000000e-01  4.58397572e-01  4.58397572e-01  3.51129788e-09  3.27962958e-09  3.23256038e-09  3.63315772e-09  3.45701433e-09  1.60296300e-07  4.37657732e-09  5.30000000e-01 
 5.40000000e-01  4.58397578e-01  4.58397577e-01  3.51129788e-09  3.27962959e-09  3.23256038e-09  3.63315770e-09  3.45701433e-09  1.60296313e-07  4.37656311e-09  5.40000000e-01 
 5.50000000e-01  4.58397575e-01  4.58397575e-01  3.51129788e-09  3.27962958e-09  3.23256043e-09  3.63315772e-09  3.45701433e-09  1.60296313e-07  4.37662706e-09  5.50000000e-01 
 5.60000000e-01  4.58397575e-01  4.58397575e-01  3.51129788e-09  3.27962958e-09  3.23256038e-09  3.63315776e-09  3.45701433e-09  1.60296303e-07  4.37652048e-09  5.60000000e-01 
 5.70000000e-01  4.58397564e-01  4.58397564e-01  3.51129788e-09  3.27962958e-09  3.23256043e-09  3.63315770e-09  3.45701433e-09  1.60296300e-07  4.37635350e-09  5.70000000e-01 
 5.80000000e-01  4.58397590e-01  4.58397590e-01  3.51129788e-09  3.27962959e-09  3.23256043e-09  3.63315772e-09  3.45701433e-09  1.60296339e-07  4.37640324e-09  5.80000000e-01 
 5.90000000e-01  4.58397591e-01  4.58397591e-01  3.51129788e-09  3.27962959e-09  3.23256043e-09  3.63315776e-09  3.45701433e-09  1.60296341e-07  4.37635350e-09  5.90000000e-01 
 6.00000000e-01  4.58397599e-01  4.58397599e-01  3.51129789e-09  3.27962959e-09  3.23256038e-09  3.63315771e-09  3.45701433e-09  1.60296349e-07  4.37631087e-09  6.00000000e-01 
 6.10000000e-01  4.58397569e-01  4.58397569e-01  3.51129788e-09  3.27962958e-09  3.23256038e-09  3.63315772e-09  3.45701433e-09  1.60296300e-07  4.37615455e-09  6.10000000e-01 
 6.20000000e-01  4.58397558e-01  4.58397558e-01  3.51129788e-09  3.27962958e-09  3.23256043e-09  3.63315770e-09  3.45701433e-09  1.60296285e-07  4.37616876e-09  6.20000000e-01 
 6.30000000e-01  4.58397598e-01  4.58397598e-01  3.51129789e-09  3.27962959e-09  3.23256043e-09  3.63315766e-09  3.45701433e-09  1.60296346e-07  4.37601244e-09  6.30000000e-01 
 6.40000000e-01  4.58397584e-01  4.58397584e-01  3.51129788e-09  3.27962959e-09  3.23256043e-09  3.63315771e-09  3.45701433e-09  1.60296326e-07  4.37599823e-09  6.40000000e-01 
 6.50000000e-01  4.58397571e-01  4.58397571e-01  3.51129794e-09  3.27962958e-09  3.23256043e-09  3.63315771e-09  3.45701433e-09  1.60296316e-07  4.37594139e-09  6.50000000e-01 
 6.60000000e-01  4.58397585e-01  4.58397585e-01  3.51129788e-09  3.27962959e-09  3.23256038e-09  3.63315771e-09  3.45701427e-09  1.60296329e-07  4.37582770e-09  6.60000000e-01 
 6.70000000e-01  4.58397589e-01  4.58397589e-01  3.51129788e-09  3.27962959e-09  3.23256038e-09  3.63315771e-09  3.45701433e-09  1.60296341e-07  4.37560743e-09  6.70000000e-01 
 6.80000000e-01  4.58397574e-01  4.58397574e-01  3.51129788e-09  3.27962958e-09  3.23256038e-09  3.63315771e-09  3.45701433e-09  1.60296316e-07  4.37570691e-09  6.80000000e-01 
 6.90000000e-01  4.58397594e-01  4.58397593e-01  3.51129788e-09  3.27962959e-09  3.23256043e-09  3.63315771e-09  3.45701433e-09  1.60296352e-07  4.37576375e-09  6.90000000e-01 
 7.00000000e-01  4.58397571e-01  4.58397571e-01  3.51129788e-09  3.27962958e-09  3.23256038e-09  3.63315771e-09  3.45701433e-09  1.60296305e-07  4.37563585e-09  7.00000000e-01 
 7.10000000e-01  4.58397576e-01  4.58397576e-01  3.51129788e-09  3.27962958e-09  3.23256038e-09  3.63315771e-09  3.45701433e-09  1.60296308e-07  4.37558612e-09  7.10000000e-01 
 7.20000000e-01  4.58397587e-01  4.58397587e-01  3.51129788e-09  3.27962959e-09  3.23256038e-09  3.63315771e-09  3.45701433e-09  1.60296327e-07  4.37542269e-09  7.20000000e-01 
 7.30000000e-01  4.58397592e-01  4.58397592e-01  3.51129788e-09  3.27962959e-09  3.23256043e-09  3.63315771e-09  3.45701433e-09  1.60296338e-07  4.37533032e-09  7.30000000e-01 
 7.40000000e-01  4.58397590e-01  4.58397590e-01  3.51129788e-09  3.27962959e-09  3.23256043e-09  3.63315771e-09  3.45701433e-09  1.60296339e-07  4.37533743e-09  7.40000000e-01 
 7.50000000e-01  4.58397564e-01  4.58397564e-01  3.51129788e-09  3.27962958e-09  3.23256038e-09  3.63315771e-09  3.45701433e-09  1.60296306e-07  4.37528769e-09  7.50000000e-01 
 7.60000000e-01  4.58397596e-01  4.58397596e-01  3.51129789e-09  3.27962959e-09  3.23256038e-09  3.63315771e-09  3.45701433e-09  1.60296345e-07  4.37528769e-09  7.60000000e-01 
 7.70000000e-01  4.58397600e-01  4.58397600e-01  3.51129789e-09  3.27962959e-09  3.23256038e-09  3.63315771e-09  3.45701433e-09  1.60296351e-07  4.37512426e-09  7.70000000e-01 
 7.80000000e-01  4.58397587e-01  4.58397586e-01  3.51129788e-09  3.27962959e-09  3.23256038e-09  3.63315771e-09  3.45701433e-09  1.60296337e-07  4.37501768e-09  7.80000000e-01 
 7.90000000e-01  4.58397590e-01  4.58397590e-01  3.51129788e-09  3.27962964e-09  3.23256038e-09  3.63315771e-09  3.45701433e-09  1.60296334e-07  4.37514558e-09  7.90000000e-01 
 8.00000000e-01  4.58397579e-01  4.58397579e-01  3.51129782e-09  3.27962959e-09  3.23256043e-09  3.63315771e-09  3.45701433e-09  1.60296307e-07  4.37501768e-09  8.00000000e-01 
 8.10000000e-01  4.58397575e-01  4.58397575e-01  3.51129789e-09  3.27962958e-09  3.23256043e-09  3.63315771e-09  3.45701433e-09  1.60296324e-07  4.37491110e-09  8.10000000e-01 
 8.20000000e-01  4.58397567e-01  4.58397567e-01  3.51129787e-09  3.27962958e-09  3.23256043e-09  3.63315771e-09  3.45701433e-09  1.60296304e-07  4.37497505e-09  8.20000000e-01 
 8.30000000e-01  4.58397583e-01  4.58397583e-01  3.51129788e-09  3.27962964e-09  3.23256043e-09  3.63315771e-09  3.45701433e-09  1.60296322e-07  4.37469794e-09  8.30000000e-01 
 8.40000000e-01  4.58397606e-01  4.58397606e-01  3.51129789e-09  3.27962959e-09  3.23256043e-09  3.63315771e-09  3.45701433e-09  1.60296365e-07  4.37471215e-09  8.40000000e-01 
 8.50000000e-01  4.58397598e-01  4.58397598e-01  3.51129789e-09  3.27962959e-09  3.23256043e-09  3.63315771e-09  3.45701433e-09  1.60296354e-07  4.37468373e-09  8.50000000e-01 
 8.60000000e-01  4.58397588e-01  4.58397588e-01  3.51129788e-09  3.27962959e-09  3.23256043e-09  3.63315771e-09  3.45701433e-09  1.60296327e-07  4.37457714e-09  8.60000000e-01 
 8.70000000e-01  4.58397588e-01  4.58397588e-01  3.51129788e-09  3.27962959e-09  3.23256038e-09  3.63315771e-09  3.45701433e-09  1.60296343e-07  4.37440661e-09  8.70000000e-01 
 8.80000000e-01  4.58397585e-01  4.58397585e-01  3.51129788e-09  3.27962959e-09  3.23256043e-09  3.63315771e-09  3.45701433e-09  1.60296329e-07  4.37442083e-09  8.80000000e-01 
 8.90000000e-01  4.58397580e-01  4.58397580e-01  3.51129788e-09  3.27962959e-09  3.23256043e-09  3.63315771e-09  3.45701433e-09  1.60296323e-07  4.37444925e-09  8.90000000e-01 
 9.00000000e-01  4.58397594e-01  4.58397594e-01  3.51129788e-09  3.27962959e-09  3.23256043e-09  3.63315771e-09  3.45701433e-09  1.60296361e-07  4.37434267e-09  9.00000000e-01 
 9.10000000e-01  4.58397589e-01  4.58397589e-01  3.51129788e-09  3.27962959e-09  3.23256038e-09  3.63315771e-09  3.45701433e-09  1.60296334e-07  4.37422187e-09  9.10000000e-01 
 9.20000000e-01  4.58397554e-01  4.58397554e-01  3.51129788e-09  3.27962958e-09  3.23256038e-09  3.63315771e-09  3.45701433e-09  1.60296288e-07  4.37422187e-09  9.20000000e-01 
 9.30000000e-01  4.58397574e-01  4.58397574e-01  3.51129788e-09  3.27962958e-09  3.23256043e-09  3.63315771e-09  3.45701433e-09  1.60296310e-07  4.37420056e-09  9.30000000e-01 
 9.40000000e-01  4.58397589e-01  4.58397589e-01  3.51129788e-09  3.27962959e-09  3.23256043e-09  3.63315771e-09  3.45701433e-09  1.60296335e-07  4.37404424e-09  9.40000000e-01 
 9.50000000e-01  4.58397586e-01  4.58397586e-01  3.51129788e-09  3.27962959e-09  3.23256043e-09  3.63315771e-09  3.45701433e-09  1.60296326e-07  4.37403003e-09  9.50000000e-01 
 9.60000000e-01  4.58397569e-01  4.58397569e-01  3.51129788e-09  3.27962958e-09  3.23256043e-09  3.63315771e-09  3.45701433e-09  1.60296312e-07  4.37391634e-09  9.60000000e-01 
 9.70000000e-01  4.58397562e-01  4.58397562e-01  3.51129788e-09  3.27962958e-09  3.23256038e-09  3.63315771e-09  3.45701433e-09  1.60296297e-07  4.37393055e-09  9.70000000e-01 
 9.80000000e-01  4.58397582e-01  4.58397582e-01  3.51129788e-09  3.27962959e-09  3.23256038e-09  3.63315771e-09  3.45701433e-09  1.60296321e-07  4.37380976e-09  9.80000000e-01 
 9.90000000e-01  4.58397582e-01  4.58397582e-01  3.51129788e-09  3.27962959e-09  3.23256038e-09  3.63315771e-09  3.45701433e-09  1.60296329e-07  4.37366765e-09  9.90000000e-01 
 1.00000000e+00  4.58397581e-01  4.58397580e-01  3.51129788e-09  3.27962959e-09  3.23256043e-09  3.63315771e-09  3.45701433e-09  1.60296315e-07  4.37364633e-09  1.00000000e+00 
 1.01000000e+00  4.58397576e-01  4.58397576e-01  3.51129788e-09  3.27962958e-09  3.23256043e-09  3.63315771e-09  3.45701433e-09  1.60296317e-07  4.37358239e-09  1.01000000e+00 
 1.02000000e+00  4.58397578e-01  4.58397578e-01  3.51129788e-09  3.27962959e-09  3.23256043e-09  3.63315771e-09  3.45701433e-09  1.60296309e-07  4.37341185e-09  1.02000000e+00 
 1.03000000e+00  4.58397571e-01  4.58397571e-01  3.51129788e-09  3.27962958e-09  3.23256043e-09  3.63315771e-09  3.45701433e-09  1.60296309e-07  4.37334080e-09  1.03000000e+00 
 1.04000000e+00  4.58397571e-01  4.58397571e-01  3.51129788e-09  3.27962964e-09  3.23256043e-09  3.63315771e-09  3.45701433e-09  1.60296306e-07  4.37326264e-09  1.04000000e+00 
 1.05000000e+00  4.58397593e-01  4.58397593e-01  3.51129788e-09  3.27962964e-09  3.23256043e-09  3.63315771e-09  3.45701433e-09  1.60296336e-07  4.37325554e-09  1.05000000e+00 
 1.06000000e+00  4.58397585e-01  4.58397585e-01  3.51129788e-09  3.27962959e-09  3.23256043e-09  3.63315771e-09  3.45701433e-09  1.60296326e-07  4.37326264e-09  1.06000000e+00 
 1.07000000e+00  4.58397599e-01  4.58397599e-01  3.51129789e-09  3.27962959e-09  3.23256038e-09  3.63315771e-09  3.45701433e-09  1.60296351e-07  4.37312053e-09  1.07000000e+00 
 1.08000000e+00  4.58397578e-01  4.58397578e-01  3.51129788e-09  3.27962959e-09  3.23256043e-09  3.63315771e-09  3.45701433e-09  1.60296327e-07  4.37299263e-09  1.08000000e+00 
 1.09000000e+00  4.58397585e-01  4.58397585e-01  3.51129788e-09  3.27962959e-09  3.23256043e-09  3.63315771e-09  3.45701433e-09  1.60296332e-07  4.37298553e-09  1.09000000e+00 
 1.10000000e+00  4.58397594e-01  4.58397594e-01  3.51129788e-09  3.27962959e-09  3.23256038e-09  3.63315771e-09  3.45701433e-09  1.60296331e-07  4.37295711e-09  1.10000000e+00 
