 v-sweep         v(b0)           v(b1)           v(b2)           v(b3)           v(b4)           v(b5)           v(b6)           i(vbias)        i(viout)        v(vout)        
 0.00000000e+00  4.58422584e-01  3.33551204e-09  4.58422584e-01  3.52848059e-09  4.58422584e-01  3.22726812e-09  3.44258869e-09  1.59416257e-07  3.06489816e-08  0.00000000e+00 
 1.00000000e-02  4.58422594e-01  3.33551208e-09  4.58422594e-01  3.52848056e-09  4.58422594e-01  3.22726809e-09  3.44258872e-09  1.59416258e-07  3.06485231e-08  1.00000000e-02 
 2.00000000e-02  4.58422597e-01  3.33551202e-09  4.58422598e-01  3.52848056e-09  4.58422597e-01  3.22726811e-09  3.44258872e-09  1.59416256e-07  3.06482275e-08  2.00000000e-02 
 3.00000000e-02  4.58422575e-01  3.33551208e-09  4.58422575e-01  3.52848056e-09  4.58422575e-01  3.22726810e-09  3.44258872e-09  1.59416236e-07  3.06479229e-08  3.00000000e-02 
 4.00000000e-02  4.58422601e-01  3.33551208e-09  4.58422601e-01  3.52848056e-09  4.58422601e-01  3.22726810e-09  3.44258872e-09  1.59416261e-07  3.06475534e-08  4.00000000e-02 
 5.00000000e-02  4.58422600e-01  3.33551202e-09  4.58422601e-01  3.52848061e-09  4.58422600e-01  3.22726810e-09  3.44258872e-09  1.59416282e-07  3.06471732e-08  5.00000000e-02 
 6.00000000e-02  4.58422573e-01  3.33551202e-09  4.58422573e-01  3.52848056e-09  4.58422573e-01  3.22726810e-09  3.44258872e-09  1.59416233e-07  3.06467816e-08  6.00000000e-02 
 7.00000000e-02  4.58422600e-01  3.33551208e-09  4.58422601e-01  3.52848056e-09  4.58422600e-01  3.22726810e-09  3.44258872e-09  1.59416267e-07  3.06465187e-08  7.00000000e-02 
 8.00000000e-02  4.58422589e-01  3.33551202e-09  4.58422589e-01  3.52848056e-09  4.58422589e-01  3.22726810e-09  3.44258872e-09  1.59416247e-07  3.06461692e-08  8.00000000e-02 
 9.00000000e-02  4.58422586e-01  3.33551202e-09  4.58422586e-01  3.52848056e-09  4.58422586e-01  3.22726810e-09  3.44258872e-09  1.59416244e-07  3.06460786e-08  9.00000000e-02 
 1.00000000e-01  4.58422599e-01  3.33551208e-09  4.58422600e-01  3.52848056e-09  4.58422599e-01  3.22726810e-09  3.44258872e-09  1.59416267e-07  3.06457375e-08  1.00000000e-01 
 1.10000000e-01  4.58422589e-01  3.33551202e-09  4.58422590e-01  3.52848056e-09  4.58422589e-01  3.22726810e-09  3.44258872e-09  1.59416250e-07  3.06455554e-08  1.10000000e-01 
 1.20000000e-01  4.58422597e-01  3.33551208e-09  4.58422598e-01  3.52848056e-09  4.58422597e-01  3.22726810e-09  3.44258872e-09  1.59416267e-07  3.06452899e-08  1.20000000e-01 
 1.30000000e-01  4.58422602e-01  3.33551208e-09  4.58422602e-01  3.52848056e-09  4.58422602e-01  3.22726810e-09  3.44258872e-09  1.59416267e-07  3.06450367e-08  1.30000000e-01 
 1.40000000e-01  4.58422587e-01  3.33551202e-09  4.58422587e-01  3.52848056e-09  4.58422587e-01  3.22726810e-09  3.44258872e-09  1.59416247e-07  3.06447943e-08  1.40000000e-01 
 1.50000000e-01  4.58422600e-01  3.33551208e-09  4.58422600e-01  3.52848056e-09  4.58422600e-01  3.22726810e-09  3.44258872e-09  1.59416268e-07  3.06447241e-08  1.50000000e-01 
 1.60000000e-01  4.58422605e-01  3.33551202e-09  4.58422605e-01  3.52848056e-09  4.58422605e-01  3.22726810e-09  3.44258872e-09  1.59416279e-07  3.06445216e-08  1.60000000e-01 
 1.70000000e-01  4.58422586e-01  3.33551202e-09  4.58422586e-01  3.52848056e-09  4.58422585e-01  3.22726810e-09  3.44258872e-09  1.59416255e-07  3.06443031e-08  1.70000000e-01 
 1.80000000e-01  4.58422601e-01  3.33551202e-09  4.58422601e-01  3.52848056e-09  4.58422600e-01  3.22726810e-09  3.44258872e-09  1.59416278e-07  3.06441894e-08  1.80000000e-01 
 1.90000000e-01  4.58422581e-01  3.33551202e-09  4.58422581e-01  3.52848056e-09  4.58422580e-01  3.22726810e-09  3.44258872e-09  1.59416227e-07  3.06438999e-08  1.90000000e-01 
 2.00000000e-01  4.58422572e-01  3.33551208e-09  4.58422572e-01  3.52848056e-09  4.58422572e-01  3.22726810e-09  3.44258872e-09  1.59416224e-07  3.06437453e-08  2.00000000e-01 
 2.10000000e-01  4.58422567e-01  3.33551208e-09  4.58422567e-01  3.52848055e-09  4.58422566e-01  3.22726810e-09  3.44258872e-09  1.59416218e-07  3.06435997e-08  2.10000000e-01 
 2.20000000e-01  4.58422593e-01  3.33551202e-09  4.58422593e-01  3.52848056e-09  4.58422592e-01  3.22726810e-09  3.44258872e-09  1.59416252e-07  3.06434398e-08  2.20000000e-01 
 2.30000000e-01  4.58422607e-01  3.33551208e-09  4.58422607e-01  3.52848061e-09  4.58422607e-01  3.22726810e-09  3.44258872e-09  1.59416283e-07  3.06433474e-08  2.30000000e-01 
 2.40000000e-01  4.58422612e-01  3.33551202e-09  4.58422612e-01  3.52848056e-09  4.58422612e-01  3.22726810e-09  3.44258867e-09  1.59416302e-07  3.06432870e-08  2.40000000e-01 
 2.50000000e-01  4.58422592e-01  3.33551208e-09  4.58422592e-01  3.52848056e-09  4.58422592e-01  3.22726810e-09  3.44258872e-09  1.59416256e-07  3.06430525e-08  2.50000000e-01 
 2.60000000e-01  4.58422588e-01  3.33551202e-09  4.58422589e-01  3.52848056e-09  4.58422588e-01  3.22726810e-09  3.44258872e-09  1.59416255e-07  3.06430099e-08  2.60000000e-01 
 2.70000000e-01  4.58422614e-01  3.33551202e-09  4.58422614e-01  3.52848056e-09  4.58422614e-01  3.22726810e-09  3.44258872e-09  1.59416298e-07  3.06429442e-08  2.70000000e-01 
 2.80000000e-01  4.58422587e-01  3.33551202e-09  4.58422587e-01  3.52848056e-09  4.58422587e-01  3.22726810e-09  3.44258872e-09  1.59416249e-07  3.06427737e-08  2.80000000e-01 
 2.90000000e-01  4.58422581e-01  3.33551208e-09  4.58422581e-01  3.52848056e-09  4.58422581e-01  3.22726810e-09  3.44258872e-09  1.59416233e-07  3.06425676e-08  2.90000000e-01 
 3.00000000e-01  4.58422573e-01  3.33551208e-09  4.58422573e-01  3.52848056e-09  4.58422573e-01  3.22726810e-09  3.44258872e-09  1.59416234e-07  3.06424397e-08  3.00000000e-01 
 3.10000000e-01  4.58422601e-01  3.33551202e-09  4.58422602e-01  3.52848056e-09  4.58422601e-01  3.22726810e-09  3.44258872e-09  1.59416273e-07  3.06425036e-08  3.10000000e-01 
 3.20000000e-01  4.58422593e-01  3.33551202e-09  4.58422593e-01  3.52848056e-09  4.58422593e-01  3.22726810e-09  3.44258872e-09  1.59416267e-07  3.06422407e-08  3.20000000e-01 
 3.30000000e-01  4.58422589e-01  3.33551202e-09  4.58422589e-01  3.52848056e-09  4.58422589e-01  3.22726810e-09  3.44258872e-09  1.59416253e-07  3.06422017e-08  3.30000000e-01 
 3.40000000e-01  4.58422591e-01  3.33551202e-09  4.58422591e-01  3.52848056e-09  4.58422590e-01  3.22726810e-09  3.44258872e-09  1.59416264e-07  3.06421555e-08  3.40000000e-01 
 3.50000000e-01  4.58422610e-01  3.33551202e-09  4.58422610e-01  3.52848056e-09  4.58422610e-01  3.22726810e-09  3.44258872e-09  1.59416294e-07  3.06420631e-08  3.50000000e-01 
 3.60000000e-01  4.58422596e-01  3.33551208e-09  4.58422597e-01  3.52848056e-09  4.58422596e-01  3.22726810e-09  3.44258872e-09  1.59416259e-07  3.06419565e-08  3.60000000e-01 
 3.70000000e-01  4.58422582e-01  3.33551202e-09  4.58422582e-01  3.52848056e-09  4.58422581e-01  3.22726810e-09  3.44258866e-09  1.59416242e-07  3.06419388e-08  3.70000000e-01 
 3.80000000e-01  4.58422597e-01  3.33551202e-09  4.58422597e-01  3.52848056e-09  4.58422597e-01  3.22726810e-09  3.44258872e-09  1.59416269e-07  3.06418677e-08  3.80000000e-01 
 3.90000000e-01  4.58422601e-01  3.33551202e-09  4.58422602e-01  3.52848056e-09  4.58422601e-01  3.22726810e-09  3.44258872e-09  1.59416268e-07  3.06418109e-08  3.90000000e-01 
 4.00000000e-01  4.58422605e-01  3.33551202e-09  4.58422605e-01  3.52848056e-09  4.58422605e-01  3.22726810e-09  3.44258872e-09  1.59416284e-07  3.06416332e-08  4.00000000e-01 
 4.10000000e-01  4.58422580e-01  3.33551202e-09  4.58422580e-01  3.52848056e-09  4.58422580e-01  3.22726810e-09  3.44258872e-09  1.59416228e-07  3.06416759e-08  4.10000000e-01 
 4.20000000e-01  4.58422598e-01  3.33551202e-09  4.58422598e-01  3.52848056e-09  4.58422598e-01  3.22726810e-09  3.44258866e-09  1.59416271e-07  3.06415906e-08  4.20000000e-01 
 4.30000000e-01  4.58422608e-01  3.33551202e-09  4.58422608e-01  3.52848056e-09  4.58422607e-01  3.22726810e-09  3.44258872e-09  1.59416282e-07  3.06415160e-08  4.30000000e-01 
 4.40000000e-01  4.58422608e-01  3.33551208e-09  4.58422608e-01  3.52848056e-09  4.58422607e-01  3.22726810e-09  3.44258872e-09  1.59416283e-07  3.06413952e-08  4.40000000e-01 
 4.50000000e-01  4.58422590e-01  3.33551202e-09  4.58422590e-01  3.52848056e-09  4.58422590e-01  3.22726810e-09  3.44258872e-09  1.59416263e-07  3.06412780e-08  4.50000000e-01 
 4.60000000e-01  4.58422583e-01  3.33551202e-09  4.58422583e-01  3.52848056e-09  4.58422583e-01  3.22726810e-09  3.44258872e-09  1.59416256e-07  3.06412886e-08  4.60000000e-01 
 4.70000000e-01  4.58422593e-01  3.33551202e-09  4.58422593e-01  3.52848056e-09  4.58422592e-01  3.22726810e-09  3.44258866e-09  1.59416252e-07  3.06412034e-08  4.70000000e-01 
 4.80000000e-01  4.58422606e-01  3.33551208e-09  4.58422606e-01  3.52848056e-09  4.58422606e-01  3.22726810e-09  3.44258872e-09  1.59416285e-07  3.06411962e-08  4.80000000e-01 
 4.90000000e-01  4.58422602e-01  3.33551202e-09  4.58422602e-01  3.52848056e-09  4.58422602e-01  3.22726810e-09  3.44258872e-09  1.59416264e-07  3.06411359e-08  4.90000000e-01 
 5.00000000e-01  4.58422571e-01  3.33551202e-09  4.58422571e-01  3.52848056e-09  4.58422571e-01  3.22726810e-09  3.44258872e-09  1.59416227e-07  3.06409618e-08  5.00000000e-01 
 5.10000000e-01  4.58422579e-01  3.33551202e-09  4.58422579e-01  3.52848056e-09  4.58422579e-01  3.22726810e-09  3.44258872e-09  1.59416235e-07  3.06410115e-08  5.10000000e-01 
 5.20000000e-01  4.58422599e-01  3.33551202e-09  4.58422599e-01  3.52848056e-09  4.58422599e-01  3.22726810e-09  3.44258872e-09  1.59416266e-07  3.06409333e-08  5.20000000e-01 
 5.30000000e-01  4.58422583e-01  3.33551208e-09  4.58422583e-01  3.52848056e-09  4.58422583e-01  3.22726810e-09  3.44258872e-09  1.59416250e-07  3.06408978e-08  5.30000000e-01 
 5.40000000e-01  4.58422596e-01  3.33551202e-09  4.58422596e-01  3.52848056e-09  4.58422596e-01  3.22726816e-09  3.44258872e-09  1.59416276e-07  3.06408623e-08  5.40000000e-01 
 5.50000000e-01  4.58422601e-01  3.33551202e-09  4.58422601e-01  3.52848056e-09  4.58422601e-01  3.22726809e-09  3.44258872e-09  1.59416275e-07  3.06408801e-08  5.50000000e-01 
 5.60000000e-01  4.58422594e-01  3.33551208e-09  4.58422594e-01  3.52848056e-09  4.58422594e-01  3.22726811e-09  3.44258872e-09  1.59416267e-07  3.06406598e-08  5.60000000e-01 
 5.70000000e-01  4.58422599e-01  3.33551208e-09  4.58422599e-01  3.52848056e-09  4.58422598e-01  3.22726810e-09  3.44258872e-09  1.59416265e-07  3.06406527e-08  5.70000000e-01 
 5.80000000e-01  4.58422580e-01  3.33551202e-09  4.58422581e-01  3.52848056e-09  4.58422580e-01  3.22726810e-09  3.44258872e-09  1.59416243e-07  3.06405354e-08  5.80000000e-01 
 5.90000000e-01  4.58422573e-01  3.33551202e-09  4.58422574e-01  3.52848056e-09  4.58422573e-01  3.22726810e-09  3.44258872e-09  1.59416224e-07  3.06405354e-08  5.90000000e-01 
 6.00000000e-01  4.58422587e-01  3.33551208e-09  4.58422587e-01  3.52848056e-09  4.58422587e-01  3.22726810e-09  3.44258872e-09  1.59416271e-07  3.06404004e-08  6.00000000e-01 
 6.10000000e-01  4.58422587e-01  3.33551202e-09  4.58422588e-01  3.52848056e-09  4.58422587e-01  3.22726810e-09  3.44258872e-09  1.59416251e-07  3.06403791e-08  6.10000000e-01 
 6.20000000e-01  4.58422599e-01  3.33551208e-09  4.58422599e-01  3.52848056e-09  4.58422599e-01  3.22726810e-09  3.44258872e-09  1.59416256e-07  3.06403649e-08  6.20000000e-01 
 6.30000000e-01  4.58422583e-01  3.33551208e-09  4.58422583e-01  3.52848056e-09  4.58422583e-01  3.22726810e-09  3.44258872e-09  1.59416260e-07  3.06402868e-08  6.30000000e-01 
 6.40000000e-01  4.58422607e-01  3.33551208e-09  4.58422607e-01  3.52848056e-09  4.58422607e-01  3.22726810e-09  3.44258872e-09  1.59416284e-07  3.06403720e-08  6.40000000e-01 
 6.50000000e-01  4.58422603e-01  3.33551202e-09  4.58422603e-01  3.52848056e-09  4.58422603e-01  3.22726810e-09  3.44258872e-09  1.59416283e-07  3.06401162e-08  6.50000000e-01 
 6.60000000e-01  4.58422606e-01  3.33551208e-09  4.58422606e-01  3.52848056e-09  4.58422606e-01  3.22726810e-09  3.44258872e-09  1.59416268e-07  3.06402157e-08  6.60000000e-01 
 6.70000000e-01  4.58422553e-01  3.33551202e-09  4.58422554e-01  3.52848055e-09  4.58422553e-01  3.22726810e-09  3.44258872e-09  1.59416201e-07  3.06401233e-08  6.70000000e-01 
 6.80000000e-01  4.58422617e-01  3.33551202e-09  4.58422618e-01  3.52848056e-09  4.58422617e-01  3.22726810e-09  3.44258872e-09  1.59416298e-07  3.06400807e-08  6.80000000e-01 
 6.90000000e-01  4.58422606e-01  3.33551202e-09  4.58422606e-01  3.52848056e-09  4.58422606e-01  3.22726810e-09  3.44258872e-09  1.59416297e-07  3.06400096e-08  6.90000000e-01 
 7.00000000e-01  4.58422588e-01  3.33551208e-09  4.58422588e-01  3.52848056e-09  4.58422587e-01  3.22726810e-09  3.44258872e-09  1.59416257e-07  3.06399244e-08  7.00000000e-01 
 7.10000000e-01  4.58422590e-01  3.33551208e-09  4.58422590e-01  3.52848056e-09  4.58422590e-01  3.22726810e-09  3.44258872e-09  1.59416257e-07  3.06398178e-08  7.10000000e-01 
 7.20000000e-01  4.58422582e-01  3.33551202e-09  4.58422582e-01  3.52848056e-09  4.58422582e-01  3.22726810e-09  3.44258866e-09  1.59416250e-07  3.06399244e-08  7.20000000e-01 
 7.30000000e-01  4.58422606e-01  3.33551202e-09  4.58422606e-01  3.52848056e-09  4.58422606e-01  3.22726810e-09  3.44258872e-09  1.59416270e-07  3.06397396e-08  7.30000000e-01 
 7.40000000e-01  4.58422600e-01  3.33551202e-09  4.58422600e-01  3.52848056e-09  4.58422600e-01  3.22726810e-09  3.44258872e-09  1.59416276e-07  3.06397538e-08  7.40000000e-01 
 7.50000000e-01  4.58422607e-01  3.33551202e-09  4.58422607e-01  3.52848056e-09  4.58422607e-01  3.22726810e-09  3.44258872e-09  1.59416269e-07  3.06396970e-08  7.50000000e-01 
 7.60000000e-01  4.58422591e-01  3.33551202e-09  4.58422591e-01  3.52848056e-09  4.58422591e-01  3.22726810e-09  3.44258872e-09  1.59416265e-07  3.06396828e-08  7.60000000e-01 
 7.70000000e-01  4.58422594e-01  3.33551202e-09  4.58422594e-01  3.52848056e-09  4.58422594e-01  3.22726810e-09  3.44258872e-09  1.59416267e-07  3.06396331e-08  7.70000000e-01 
 7.80000000e-01  4.58422595e-01  3.33551208e-09  4.58422595e-01  3.52848056e-09  4.58422595e-01  3.22726810e-09  3.44258872e-09  1.59416256e-07  3.06394696e-08  7.80000000e-01 
 7.90000000e-01  4.58422585e-01  3.33551202e-09  4.58422585e-01  3.52848056e-09  4.58422585e-01  3.22726810e-09  3.44258872e-09  1.59416245e-07  3.06394270e-08  7.90000000e-01 
 8.00000000e-01  4.58422600e-01  3.33551202e-09  4.58422600e-01  3.52848056e-09  4.58422600e-01  3.22726810e-09  3.44258872e-09  1.59416282e-07  3.06393275e-08  8.00000000e-01 
 8.10000000e-01  4.58422611e-01  3.33551202e-09  4.58422611e-01  3.52848056e-09  4.58422611e-01  3.22726810e-09  3.44258872e-09  1.59416285e-07  3.06393275e-08  8.10000000e-01 
 8.20000000e-01  4.58422589e-01  3.33551208e-09  4.58422589e-01  3.52848056e-09  4.58422589e-01  3.22726810e-09  3.44258866e-09  1.59416263e-07  3.06393844e-08  8.20000000e-01 
 8.30000000e-01  4.58422598e-01  3.33551202e-09  4.58422598e-01  3.52848056e-09  4.58422598e-01  3.22726810e-09  3.44258872e-09  1.59416275e-07  3.06392209e-08  8.30000000e-01 
 8.40000000e-01  4.58422594e-01  3.33551208e-09  4.58422594e-01  3.52848056e-09  4.58422594e-01  3.22726810e-09  3.44258872e-09  1.59416263e-07  3.06390859e-08  8.40000000e-01 
 8.50000000e-01  4.58422612e-01  3.33551202e-09  4.58422613e-01  3.52848056e-09  4.58422612e-01  3.22726810e-09  3.44258872e-09  1.59416293e-07  3.06392351e-08  8.50000000e-01 
 8.60000000e-01  4.58422592e-01  3.33551208e-09  4.58422592e-01  3.52848056e-09  4.58422592e-01  3.22726810e-09  3.44258872e-09  1.59416255e-07  3.06389509e-08  8.60000000e-01 
 8.70000000e-01  4.58422600e-01  3.33551202e-09  4.58422600e-01  3.52848056e-09  4.58422599e-01  3.22726810e-09  3.44258872e-09  1.59416262e-07  3.06389296e-08  8.70000000e-01 
 8.80000000e-01  4.58422597e-01  3.33551208e-09  4.58422597e-01  3.52848056e-09  4.58422597e-01  3.22726810e-09  3.44258872e-09  1.59416274e-07  3.06389651e-08  8.80000000e-01 
 8.90000000e-01  4.58422578e-01  3.33551208e-09  4.58422578e-01  3.52848056e-09  4.58422578e-01  3.22726810e-09  3.44258872e-09  1.59416230e-07  3.06388728e-08  8.90000000e-01 
 9.00000000e-01  4.58422603e-01  3.33551202e-09  4.58422603e-01  3.52848056e-09  4.58422603e-01  3.22726810e-09  3.44258872e-09  1.59416269e-07  3.06389154e-08  9.00000000e-01 
 9.10000000e-01  4.58422610e-01  3.33551202e-09  4.58422610e-01  3.52848056e-09  4.58422610e-01  3.22726810e-09  3.44258872e-09  1.59416293e-07  3.06387733e-08  9.10000000e-01 
 9.20000000e-01  4.58422604e-01  3.33551202e-09  4.58422604e-01  3.52848061e-09  4.58422604e-01  3.22726810e-09  3.44258872e-09  1.59416288e-07  3.06387093e-08  9.20000000e-01 
 9.30000000e-01  4.58422593e-01  3.33551202e-09  4.58422593e-01  3.52848056e-09  4.58422593e-01  3.22726810e-09  3.44258872e-09  1.59416263e-07  3.06387022e-08  9.30000000e-01 
 9.40000000e-01  4.58422597e-01  3.33551208e-09  4.58422597e-01  3.52848061e-09  4.58422597e-01  3.22726810e-09  3.44258872e-09  1.59416264e-07  3.06385814e-08  9.40000000e-01 
 9.50000000e-01  4.58422580e-01  3.33551202e-09  4.58422580e-01  3.52848056e-09  4.58422579e-01  3.22726810e-09  3.44258872e-09  1.59416231e-07  3.06385601e-08  9.50000000e-01 
 9.60000000e-01  4.58422575e-01  3.33551208e-09  4.58422575e-01  3.52848056e-09  4.58422575e-01  3.22726810e-09  3.44258872e-09  1.59416232e-07  3.06384820e-08  9.60000000e-01 
 9.70000000e-01  4.58422584e-01  3.33551208e-09  4.58422585e-01  3.52848056e-09  4.58422584e-01  3.22726810e-09  3.44258872e-09  1.59416239e-07  3.06385033e-08  9.70000000e-01 
 9.80000000e-01  4.58422583e-01  3.33551202e-09  4.58422583e-01  3.52848056e-09  4.58422583e-01  3.22726810e-09  3.44258872e-09  1.59416240e-07  3.06383967e-08  9.80000000e-01 
 9.90000000e-01  4.58422607e-01  3.33551208e-09  4.58422607e-01  3.52848056e-09  4.58422607e-01  3.22726810e-09  3.44258872e-09  1.59416280e-07  3.06383754e-08  9.90000000e-01 
 1.00000000e+00  4.58422607e-01  3.33551202e-09  4.58422607e-01  3.52848056e-09  4.58422607e-01  3.22726810e-09  3.44258872e-09  1.59416276e-07  3.06382617e-08  1.00000000e+00 
 1.01000000e+00  4.58422584e-01  3.33551208e-09  4.58422584e-01  3.52848061e-09  4.58422583e-01  3.22726810e-09  3.44258872e-09  1.59416240e-07  3.06381907e-08  1.01000000e+00 
 1.02000000e+00  4.58422590e-01  3.33551202e-09  4.58422590e-01  3.52848056e-09  4.58422590e-01  3.22726810e-09  3.44258866e-09  1.59416263e-07  3.06381551e-08  1.02000000e+00 
 1.03000000e+00  4.58422593e-01  3.33551202e-09  4.58422593e-01  3.52848056e-09  4.58422592e-01  3.22726810e-09  3.44258866e-09  1.59416258e-07  3.06380628e-08  1.03000000e+00 
 1.04000000e+00  4.58422593e-01  3.33551202e-09  4.58422593e-01  3.52848056e-09  4.58422593e-01  3.22726810e-09  3.44258872e-09  1.59416270e-07  3.06379917e-08  1.04000000e+00 
 1.05000000e+00  4.58422600e-01  3.33551208e-09  4.58422600e-01  3.52848056e-09  4.58422600e-01  3.22726810e-09  3.44258872e-09  1.59416267e-07  3.06379988e-08  1.05000000e+00 
 1.06000000e+00  4.58422598e-01  3.33551202e-09  4.58422598e-01  3.52848056e-09  4.58422597e-01  3.22726810e-09  3.44258872e-09  1.59416272e-07  3.06379349e-08  1.06000000e+00 
 1.07000000e+00  4.58422591e-01  3.33551202e-09  4.58422591e-01  3.52848056e-09  4.58422591e-01  3.22726810e-09  3.44258872e-09  1.59416261e-07  3.06377501e-08  1.07000000e+00 
 1.08000000e+00  4.58422602e-01  3.33551202e-09  4.58422603e-01  3.52848056e-09  4.58422602e-01  3.22726810e-09  3.44258866e-09  1.59416281e-07  3.06378709e-08  1.08000000e+00 
 1.09000000e+00  4.58422600e-01  3.33551208e-09  4.58422601e-01  3.52848056e-09  4.58422600e-01  3.22726810e-09  3.44258872e-09  1.59416273e-07  3.06377999e-08  1.09000000e+00 
 1.10000000e+00  4.58422598e-01  3.33551202e-09  4.58422598e-01  3.52848056e-09  4.58422598e-01  3.22726810e-09  3.44258872e-09  1.59416260e-07  3.06377004e-08  1.10000000e+00 
