 v-sweep         v(b0)           v(b1)           v(b2)           v(b3)           v(b4)           v(b5)           v(b6)           i(vbias)        i(viout)        v(vout)        
 0.00000000e+00  3.43529108e-09  3.41964113e-09  3.14727612e-09  4.59226954e-01  4.59226954e-01  4.59226954e-01  3.42932601e-09  1.62447718e-07  8.33612279e-08  0.00000000e+00 
 1.00000000e-02  3.43529105e-09  3.41964116e-09  3.14727609e-09  4.59226953e-01  4.59226953e-01  4.59226953e-01  3.42932598e-09  1.62447703e-07  8.33607678e-08  1.00000000e-02 
 2.00000000e-02  3.43529105e-09  3.41964116e-09  3.14727611e-09  4.59226964e-01  4.59226964e-01  4.59226964e-01  3.42932604e-09  1.62447716e-07  8.33603908e-08  2.00000000e-02 
 3.00000000e-02  3.43529111e-09  3.41964116e-09  3.14727616e-09  4.59226957e-01  4.59226957e-01  4.59226957e-01  3.42932598e-09  1.62447716e-07  8.33600178e-08  3.00000000e-02 
 4.00000000e-02  3.43529110e-09  3.41964116e-09  3.14727609e-09  4.59226942e-01  4.59226942e-01  4.59226942e-01  3.42932598e-09  1.62447690e-07  8.33597027e-08  4.00000000e-02 
 5.00000000e-02  3.43529110e-09  3.41964116e-09  3.14727611e-09  4.59226948e-01  4.59226948e-01  4.59226948e-01  3.42932598e-09  1.62447697e-07  8.33591836e-08  5.00000000e-02 
 6.00000000e-02  3.43529110e-09  3.41964116e-09  3.14727616e-09  4.59226938e-01  4.59226938e-01  4.59226938e-01  3.42932604e-09  1.62447700e-07  8.33589793e-08  6.00000000e-02 
 7.00000000e-02  3.43529110e-09  3.41964116e-09  3.14727615e-09  4.59226955e-01  4.59226955e-01  4.59226955e-01  3.42932598e-09  1.62447706e-07  8.33587301e-08  7.00000000e-02 
 8.00000000e-02  3.43529110e-09  3.41964116e-09  3.14727615e-09  4.59226954e-01  4.59226954e-01  4.59226954e-01  3.42932604e-09  1.62447716e-07  8.33584011e-08  8.00000000e-02 
 9.00000000e-02  3.43529110e-09  3.41964116e-09  3.14727615e-09  4.59226951e-01  4.59226951e-01  4.59226951e-01  3.42932598e-09  1.62447708e-07  8.33580520e-08  9.00000000e-02 
 1.00000000e-01  3.43529110e-09  3.41964116e-09  3.14727615e-09  4.59226938e-01  4.59226938e-01  4.59226938e-01  3.42932598e-09  1.62447687e-07  8.33576683e-08  1.00000000e-01 
 1.10000000e-01  3.43529110e-09  3.41964116e-09  3.14727615e-09  4.59226942e-01  4.59226942e-01  4.59226942e-01  3.42932598e-09  1.62447702e-07  8.33576035e-08  1.10000000e-01 
 1.20000000e-01  3.43529105e-09  3.41964116e-09  3.14727615e-09  4.59226939e-01  4.59226939e-01  4.59226939e-01  3.42932598e-09  1.62447698e-07  8.33573921e-08  1.20000000e-01 
 1.30000000e-01  3.43529112e-09  3.41964116e-09  3.14727615e-09  4.59226939e-01  4.59226939e-01  4.59226939e-01  3.42932598e-09  1.62447686e-07  8.33570120e-08  1.30000000e-01 
 1.40000000e-01  3.43529110e-09  3.41964116e-09  3.14727609e-09  4.59226949e-01  4.59226949e-01  4.59226949e-01  3.42932598e-09  1.62447718e-07  8.33568352e-08  1.40000000e-01 
 1.50000000e-01  3.43529111e-09  3.41964116e-09  3.14727611e-09  4.59226959e-01  4.59226959e-01  4.59226958e-01  3.42932598e-09  1.62447722e-07  8.33567100e-08  1.50000000e-01 
 1.60000000e-01  3.43529110e-09  3.41964116e-09  3.14727616e-09  4.59226952e-01  4.59226952e-01  4.59226952e-01  3.42932598e-09  1.62447715e-07  8.33565039e-08  1.60000000e-01 
 1.70000000e-01  3.43529111e-09  3.41964116e-09  3.14727609e-09  4.59226962e-01  4.59226962e-01  4.59226962e-01  3.42932598e-09  1.62447719e-07  8.33562446e-08  1.70000000e-01 
 1.80000000e-01  3.43529111e-09  3.41964116e-09  3.14727616e-09  4.59226972e-01  4.59226972e-01  4.59226972e-01  3.42932598e-09  1.62447729e-07  8.33560669e-08  1.80000000e-01 
 1.90000000e-01  3.43529111e-09  3.41964116e-09  3.14727615e-09  4.59226959e-01  4.59226959e-01  4.59226959e-01  3.42932598e-09  1.62447719e-07  8.33558342e-08  1.90000000e-01 
 2.00000000e-01  3.43529111e-09  3.41964116e-09  3.14727615e-09  4.59226957e-01  4.59226957e-01  4.59226957e-01  3.42932598e-09  1.62447715e-07  8.33556957e-08  2.00000000e-01 
 2.10000000e-01  3.43529105e-09  3.41964116e-09  3.14727609e-09  4.59226950e-01  4.59226950e-01  4.59226950e-01  3.42932598e-09  1.62447706e-07  8.33554594e-08  2.10000000e-01 
 2.20000000e-01  3.43529106e-09  3.41964116e-09  3.14727616e-09  4.59226941e-01  4.59226941e-01  4.59226941e-01  3.42932598e-09  1.62447683e-07  8.33551947e-08  2.20000000e-01 
 2.30000000e-01  3.43529111e-09  3.41964116e-09  3.14727615e-09  4.59226967e-01  4.59226967e-01  4.59226967e-01  3.42932598e-09  1.62447726e-07  8.33552569e-08  2.30000000e-01 
 2.40000000e-01  3.43529110e-09  3.41964116e-09  3.14727610e-09  4.59226969e-01  4.59226969e-01  4.59226969e-01  3.42932598e-09  1.62447732e-07  8.33552196e-08  2.40000000e-01 
 2.50000000e-01  3.43529105e-09  3.41964116e-09  3.14727611e-09  4.59226961e-01  4.59226961e-01  4.59226961e-01  3.42932604e-09  1.62447720e-07  8.33548395e-08  2.50000000e-01 
 2.60000000e-01  3.43529112e-09  3.41964116e-09  3.14727610e-09  4.59226964e-01  4.59226964e-01  4.59226964e-01  3.42932604e-09  1.62447724e-07  8.33548590e-08  2.60000000e-01 
 2.70000000e-01  3.43529110e-09  3.41964116e-09  3.14727610e-09  4.59226963e-01  4.59226963e-01  4.59226963e-01  3.42932604e-09  1.62447715e-07  8.33547258e-08  2.70000000e-01 
 2.80000000e-01  3.43529105e-09  3.41964116e-09  3.14727610e-09  4.59226942e-01  4.59226942e-01  4.59226942e-01  3.42932598e-09  1.62447687e-07  8.33545943e-08  2.80000000e-01 
 2.90000000e-01  3.43529106e-09  3.41964116e-09  3.14727610e-09  4.59226960e-01  4.59226960e-01  4.59226960e-01  3.42932598e-09  1.62447718e-07  8.33544718e-08  2.90000000e-01 
 3.00000000e-01  3.43529111e-09  3.41964116e-09  3.14727616e-09  4.59226938e-01  4.59226938e-01  4.59226937e-01  3.42932598e-09  1.62447687e-07  8.33543581e-08  3.00000000e-01 
 3.10000000e-01  3.43529110e-09  3.41964116e-09  3.14727615e-09  4.59226982e-01  4.59226982e-01  4.59226982e-01  3.42932598e-09  1.62447746e-07  8.33542799e-08  3.10000000e-01 
 3.20000000e-01  3.43529110e-09  3.41964116e-09  3.14727615e-09  4.59226947e-01  4.59226947e-01  4.59226946e-01  3.42932598e-09  1.62447698e-07  8.33541023e-08  3.20000000e-01 
 3.30000000e-01  3.43529110e-09  3.41964116e-09  3.14727615e-09  4.59226939e-01  4.59226939e-01  4.59226939e-01  3.42932598e-09  1.62447689e-07  8.33540810e-08  3.30000000e-01 
 3.40000000e-01  3.43529105e-09  3.41964116e-09  3.14727615e-09  4.59226943e-01  4.59226943e-01  4.59226942e-01  3.42932598e-09  1.62447701e-07  8.33538998e-08  3.40000000e-01 
 3.50000000e-01  3.43529112e-09  3.41964116e-09  3.14727615e-09  4.59226953e-01  4.59226953e-01  4.59226953e-01  3.42932598e-09  1.62447707e-07  8.33539069e-08  3.50000000e-01 
 3.60000000e-01  3.43529110e-09  3.41964116e-09  3.14727615e-09  4.59226965e-01  4.59226965e-01  4.59226965e-01  3.42932598e-09  1.62447717e-07  8.33537506e-08  3.60000000e-01 
 3.70000000e-01  3.43529110e-09  3.41964116e-09  3.14727615e-09  4.59226950e-01  4.59226950e-01  4.59226950e-01  3.42932604e-09  1.62447700e-07  8.33535054e-08  3.70000000e-01 
 3.80000000e-01  3.43529111e-09  3.41964116e-09  3.14727615e-09  4.59226961e-01  4.59226961e-01  4.59226960e-01  3.42932604e-09  1.62447722e-07  8.33536618e-08  3.80000000e-01 
 3.90000000e-01  3.43529110e-09  3.41964116e-09  3.14727615e-09  4.59226955e-01  4.59226955e-01  4.59226955e-01  3.42932598e-09  1.62447711e-07  8.33534486e-08  3.90000000e-01 
 4.00000000e-01  3.43529104e-09  3.41964116e-09  3.14727615e-09  4.59226921e-01  4.59226921e-01  4.59226921e-01  3.42932598e-09  1.62447656e-07  8.33533385e-08  4.00000000e-01 
 4.10000000e-01  3.43529106e-09  3.41964116e-09  3.14727609e-09  4.59226953e-01  4.59226953e-01  4.59226953e-01  3.42932604e-09  1.62447716e-07  8.33531821e-08  4.10000000e-01 
 4.20000000e-01  3.43529111e-09  3.41964116e-09  3.14727616e-09  4.59226954e-01  4.59226954e-01  4.59226954e-01  3.42932598e-09  1.62447709e-07  8.33532354e-08  4.20000000e-01 
 4.30000000e-01  3.43529110e-09  3.41964116e-09  3.14727609e-09  4.59226956e-01  4.59226956e-01  4.59226956e-01  3.42932598e-09  1.62447713e-07  8.33530649e-08  4.30000000e-01 
 4.40000000e-01  3.43529110e-09  3.41964116e-09  3.14727616e-09  4.59226950e-01  4.59226950e-01  4.59226950e-01  3.42932598e-09  1.62447693e-07  8.33530684e-08  4.40000000e-01 
 4.50000000e-01  3.43529105e-09  3.41964116e-09  3.14727615e-09  4.59226955e-01  4.59226955e-01  4.59226955e-01  3.42932598e-09  1.62447735e-07  8.33529370e-08  4.50000000e-01 
 4.60000000e-01  3.43529106e-09  3.41964116e-09  3.14727609e-09  4.59226965e-01  4.59226965e-01  4.59226965e-01  3.42932598e-09  1.62447740e-07  8.33529015e-08  4.60000000e-01 
 4.70000000e-01  3.43529106e-09  3.41964116e-09  3.14727611e-09  4.59226979e-01  4.59226979e-01  4.59226979e-01  3.42932598e-09  1.62447745e-07  8.33527913e-08  4.70000000e-01 
 4.80000000e-01  3.43529111e-09  3.41964116e-09  3.14727610e-09  4.59226965e-01  4.59226965e-01  4.59226965e-01  3.42932598e-09  1.62447728e-07  8.33526350e-08  4.80000000e-01 
 4.90000000e-01  3.43529110e-09  3.41964116e-09  3.14727616e-09  4.59226950e-01  4.59226950e-01  4.59226950e-01  3.42932598e-09  1.62447701e-07  8.33526030e-08  4.90000000e-01 
 5.00000000e-01  3.43529105e-09  3.41964116e-09  3.14727609e-09  4.59226953e-01  4.59226953e-01  4.59226953e-01  3.42932598e-09  1.62447720e-07  8.33525213e-08  5.00000000e-01 
 5.10000000e-01  3.43529112e-09  3.41964116e-09  3.14727616e-09  4.59226961e-01  4.59226961e-01  4.59226961e-01  3.42932604e-09  1.62447726e-07  8.33525071e-08  5.10000000e-01 
 5.20000000e-01  3.43529110e-09  3.41964116e-09  3.14727609e-09  4.59226961e-01  4.59226961e-01  4.59226960e-01  3.42932598e-09  1.62447723e-07  8.33523757e-08  5.20000000e-01 
 5.30000000e-01  3.43529105e-09  3.41964116e-09  3.14727616e-09  4.59226943e-01  4.59226943e-01  4.59226943e-01  3.42932598e-09  1.62447682e-07  8.33522691e-08  5.30000000e-01 
 5.40000000e-01  3.43529106e-09  3.41964116e-09  3.14727614e-09  4.59226949e-01  4.59226949e-01  4.59226949e-01  3.42932604e-09  1.62447708e-07  8.33522336e-08  5.40000000e-01 
 5.50000000e-01  3.43529105e-09  3.41964116e-09  3.14727615e-09  4.59226949e-01  4.59226949e-01  4.59226949e-01  3.42932598e-09  1.62447687e-07  8.33521803e-08  5.50000000e-01 
 5.60000000e-01  3.43529111e-09  3.41964116e-09  3.14727609e-09  4.59226944e-01  4.59226944e-01  4.59226943e-01  3.42932598e-09  1.62447682e-07  8.33520062e-08  5.60000000e-01 
 5.70000000e-01  3.43529110e-09  3.41964116e-09  3.14727616e-09  4.59226953e-01  4.59226953e-01  4.59226952e-01  3.42932598e-09  1.62447706e-07  8.33519529e-08  5.70000000e-01 
 5.80000000e-01  3.43529105e-09  3.41964116e-09  3.14727609e-09  4.59226955e-01  4.59226955e-01  4.59226955e-01  3.42932598e-09  1.62447725e-07  8.33519422e-08  5.80000000e-01 
 5.90000000e-01  3.43529106e-09  3.41964116e-09  3.14727611e-09  4.59226952e-01  4.59226952e-01  4.59226952e-01  3.42932598e-09  1.62447707e-07  8.33519280e-08  5.90000000e-01 
 6.00000000e-01  3.43529105e-09  3.41964116e-09  3.14727616e-09  4.59226939e-01  4.59226939e-01  4.59226939e-01  3.42932598e-09  1.62447692e-07  8.33519067e-08  6.00000000e-01 
 6.10000000e-01  3.43529111e-09  3.41964116e-09  3.14727609e-09  4.59226954e-01  4.59226954e-01  4.59226954e-01  3.42932598e-09  1.62447712e-07  8.33517646e-08  6.10000000e-01 
 6.20000000e-01  3.43529104e-09  3.41964116e-09  3.14727611e-09  4.59226944e-01  4.59226944e-01  4.59226944e-01  3.42932598e-09  1.62447694e-07  8.33516793e-08  6.20000000e-01 
 6.30000000e-01  3.43529106e-09  3.41964116e-09  3.14727610e-09  4.59226960e-01  4.59226960e-01  4.59226960e-01  3.42932604e-09  1.62447726e-07  8.33517504e-08  6.30000000e-01 
 6.40000000e-01  3.43529111e-09  3.41964116e-09  3.14727616e-09  4.59226964e-01  4.59226964e-01  4.59226964e-01  3.42932598e-09  1.62447725e-07  8.33516651e-08  6.40000000e-01 
 6.50000000e-01  3.43529110e-09  3.41964116e-09  3.14727615e-09  4.59226963e-01  4.59226963e-01  4.59226963e-01  3.42932598e-09  1.62447727e-07  8.33514875e-08  6.50000000e-01 
 6.60000000e-01  3.43529111e-09  3.41964116e-09  3.14727609e-09  4.59226956e-01  4.59226956e-01  4.59226956e-01  3.42932604e-09  1.62447701e-07  8.33513951e-08  6.60000000e-01 
 6.70000000e-01  3.43529110e-09  3.41964116e-09  3.14727611e-09  4.59226954e-01  4.59226954e-01  4.59226954e-01  3.42932598e-09  1.62447712e-07  8.33513596e-08  6.70000000e-01 
 6.80000000e-01  3.43529111e-09  3.41964116e-09  3.14727610e-09  4.59226956e-01  4.59226956e-01  4.59226956e-01  3.42932598e-09  1.62447727e-07  8.33513809e-08  6.80000000e-01 
 6.90000000e-01  3.43529111e-09  3.41964116e-09  3.14727610e-09  4.59226964e-01  4.59226964e-01  4.59226964e-01  3.42932604e-09  1.62447725e-07  8.33512672e-08  6.90000000e-01 
 7.00000000e-01  3.43529110e-09  3.41964116e-09  3.14727610e-09  4.59226937e-01  4.59226937e-01  4.59226937e-01  3.42932598e-09  1.62447688e-07  8.33510327e-08  7.00000000e-01 
 7.10000000e-01  3.43529111e-09  3.41964116e-09  3.14727610e-09  4.59226961e-01  4.59226961e-01  4.59226960e-01  3.42932604e-09  1.62447722e-07  8.33509830e-08  7.10000000e-01 
 7.20000000e-01  3.43529110e-09  3.41964116e-09  3.14727610e-09  4.59226955e-01  4.59226955e-01  4.59226955e-01  3.42932598e-09  1.62447712e-07  8.33511109e-08  7.20000000e-01 
 7.30000000e-01  3.43529111e-09  3.41964116e-09  3.14727616e-09  4.59226963e-01  4.59226963e-01  4.59226963e-01  3.42932604e-09  1.62447724e-07  8.33510114e-08  7.30000000e-01 
 7.40000000e-01  3.43529111e-09  3.41964116e-09  3.14727615e-09  4.59226970e-01  4.59226970e-01  4.59226970e-01  3.42932598e-09  1.62447728e-07  8.33509617e-08  7.40000000e-01 
 7.50000000e-01  3.43529110e-09  3.41964116e-09  3.14727615e-09  4.59226954e-01  4.59226954e-01  4.59226953e-01  3.42932598e-09  1.62447707e-07  8.33508054e-08  7.50000000e-01 
 7.60000000e-01  3.43529111e-09  3.41964116e-09  3.14727609e-09  4.59226967e-01  4.59226967e-01  4.59226967e-01  3.42932598e-09  1.62447730e-07  8.33507769e-08  7.60000000e-01 
 7.70000000e-01  3.43529110e-09  3.41964116e-09  3.14727616e-09  4.59226954e-01  4.59226954e-01  4.59226954e-01  3.42932598e-09  1.62447723e-07  8.33506348e-08  7.70000000e-01 
 7.80000000e-01  3.43529110e-09  3.41964116e-09  3.14727615e-09  4.59226953e-01  4.59226953e-01  4.59226953e-01  3.42932604e-09  1.62447707e-07  8.33505496e-08  7.80000000e-01 
 7.90000000e-01  3.43529111e-09  3.41964116e-09  3.14727615e-09  4.59226969e-01  4.59226969e-01  4.59226969e-01  3.42932598e-09  1.62447737e-07  8.33505283e-08  7.90000000e-01 
 8.00000000e-01  3.43529105e-09  3.41964116e-09  3.14727615e-09  4.59226955e-01  4.59226955e-01  4.59226955e-01  3.42932598e-09  1.62447713e-07  8.33505425e-08  8.00000000e-01 
 8.10000000e-01  3.43529106e-09  3.41964116e-09  3.14727615e-09  4.59226947e-01  4.59226947e-01  4.59226947e-01  3.42932598e-09  1.62447697e-07  8.33504430e-08  8.10000000e-01 
 8.20000000e-01  3.43529111e-09  3.41964116e-09  3.14727615e-09  4.59226967e-01  4.59226967e-01  4.59226967e-01  3.42932598e-09  1.62447728e-07  8.33503151e-08  8.20000000e-01 
 8.30000000e-01  3.43529110e-09  3.41964116e-09  3.14727609e-09  4.59226955e-01  4.59226955e-01  4.59226955e-01  3.42932598e-09  1.62447719e-07  8.33502440e-08  8.30000000e-01 
 8.40000000e-01  3.43529111e-09  3.41964116e-09  3.14727616e-09  4.59226964e-01  4.59226964e-01  4.59226964e-01  3.42932604e-09  1.62447733e-07  8.33502369e-08  8.40000000e-01 
 8.50000000e-01  3.43529110e-09  3.41964116e-09  3.14727614e-09  4.59226943e-01  4.59226943e-01  4.59226943e-01  3.42932598e-09  1.62447692e-07  8.33501019e-08  8.50000000e-01 
 8.60000000e-01  3.43529105e-09  3.41964116e-09  3.14727615e-09  4.59226943e-01  4.59226943e-01  4.59226943e-01  3.42932598e-09  1.62447691e-07  8.33500380e-08  8.60000000e-01 
 8.70000000e-01  3.43529112e-09  3.41964116e-09  3.14727615e-09  4.59226951e-01  4.59226951e-01  4.59226950e-01  3.42932598e-09  1.62447709e-07  8.33500309e-08  8.70000000e-01 
 8.80000000e-01  3.43529110e-09  3.41964116e-09  3.14727615e-09  4.59226949e-01  4.59226949e-01  4.59226949e-01  3.42932598e-09  1.62447714e-07  8.33498817e-08  8.80000000e-01 
 8.90000000e-01  3.43529105e-09  3.41964116e-09  3.14727615e-09  4.59226959e-01  4.59226959e-01  4.59226958e-01  3.42932598e-09  1.62447706e-07  8.33498319e-08  8.90000000e-01 
 9.00000000e-01  3.43529106e-09  3.41964116e-09  3.14727609e-09  4.59226941e-01  4.59226941e-01  4.59226941e-01  3.42932598e-09  1.62447697e-07  8.33497040e-08  9.00000000e-01 
 9.10000000e-01  3.43529105e-09  3.41964121e-09  3.14727611e-09  4.59226948e-01  4.59226948e-01  4.59226948e-01  3.42932604e-09  1.62447710e-07  8.33496543e-08  9.10000000e-01 
 9.20000000e-01  3.43529111e-09  3.41964116e-09  3.14727610e-09  4.59226965e-01  4.59226965e-01  4.59226965e-01  3.42932598e-09  1.62447728e-07  8.33496756e-08  9.20000000e-01 
 9.30000000e-01  3.43529110e-09  3.41964116e-09  3.14727610e-09  4.59226942e-01  4.59226942e-01  4.59226941e-01  3.42932598e-09  1.62447697e-07  8.33495406e-08  9.30000000e-01 
 9.40000000e-01  3.43529111e-09  3.41964116e-09  3.14727610e-09  4.59226968e-01  4.59226968e-01  4.59226968e-01  3.42932598e-09  1.62447727e-07  8.33494838e-08  9.40000000e-01 
 9.50000000e-01  3.43529105e-09  3.41964116e-09  3.14727616e-09  4.59226960e-01  4.59226960e-01  4.59226960e-01  3.42932598e-09  1.62447710e-07  8.33494056e-08  9.50000000e-01 
 9.60000000e-01  3.43529112e-09  3.41964116e-09  3.14727614e-09  4.59226940e-01  4.59226940e-01  4.59226940e-01  3.42932598e-09  1.62447691e-07  8.33491924e-08  9.60000000e-01 
 9.70000000e-01  3.43529104e-09  3.41964116e-09  3.14727615e-09  4.59226950e-01  4.59226950e-01  4.59226950e-01  3.42932598e-09  1.62447704e-07  8.33491924e-08  9.70000000e-01 
 9.80000000e-01  3.43529112e-09  3.41964116e-09  3.14727615e-09  4.59226972e-01  4.59226972e-01  4.59226972e-01  3.42932598e-09  1.62447731e-07  8.33491853e-08  9.80000000e-01 
 9.90000000e-01  3.43529110e-09  3.41964116e-09  3.14727610e-09  4.59226985e-01  4.59226985e-01  4.59226985e-01  3.42932598e-09  1.62447756e-07  8.33490787e-08  9.90000000e-01 
 1.00000000e+00  3.43529111e-09  3.41964116e-09  3.14727611e-09  4.59226965e-01  4.59226965e-01  4.59226965e-01  3.42932604e-09  1.62447740e-07  8.33489153e-08  1.00000000e+00 
 1.01000000e+00  3.43529110e-09  3.41964116e-09  3.14727616e-09  4.59226951e-01  4.59226951e-01  4.59226951e-01  3.42932598e-09  1.62447702e-07  8.33489509e-08  1.01000000e+00 
 1.02000000e+00  3.43529110e-09  3.41964116e-09  3.14727614e-09  4.59226944e-01  4.59226944e-01  4.59226944e-01  3.42932598e-09  1.62447704e-07  8.33489295e-08  1.02000000e+00 
 1.03000000e+00  3.43529110e-09  3.41964116e-09  3.14727615e-09  4.59226921e-01  4.59226921e-01  4.59226920e-01  3.42932598e-09  1.62447668e-07  8.33486595e-08  1.03000000e+00 
 1.04000000e+00  3.43529110e-09  3.41964116e-09  3.14727615e-09  4.59226944e-01  4.59226944e-01  4.59226944e-01  3.42932598e-09  1.62447688e-07  8.33486524e-08  1.04000000e+00 
 1.05000000e+00  3.43529105e-09  3.41964116e-09  3.14727609e-09  4.59226951e-01  4.59226951e-01  4.59226951e-01  3.42932598e-09  1.62447704e-07  8.33485672e-08  1.05000000e+00 
 1.06000000e+00  3.43529112e-09  3.41964116e-09  3.14727611e-09  4.59226946e-01  4.59226946e-01  4.59226946e-01  3.42932598e-09  1.62447700e-07  8.33485316e-08  1.06000000e+00 
 1.07000000e+00  3.43529110e-09  3.41964116e-09  3.14727610e-09  4.59226942e-01  4.59226942e-01  4.59226942e-01  3.42932598e-09  1.62447687e-07  8.33484464e-08  1.07000000e+00 
 1.08000000e+00  3.43529110e-09  3.41964116e-09  3.14727616e-09  4.59226944e-01  4.59226944e-01  4.59226944e-01  3.42932604e-09  1.62447697e-07  8.33483327e-08  1.08000000e+00 
 1.09000000e+00  3.43529110e-09  3.41964116e-09  3.14727614e-09  4.59226939e-01  4.59226939e-01  4.59226939e-01  3.42932598e-09  1.62447703e-07  8.33483043e-08  1.09000000e+00 
 1.10000000e+00  3.43529111e-09  3.41964116e-09  3.14727615e-09  4.59226961e-01  4.59226961e-01  4.59226961e-01  3.42932598e-09  1.62447724e-07  8.33482403e-08  1.10000000e+00 
