 v-sweep         v(b0)           v(b1)           v(b2)           v(b3)           v(b4)           v(b5)           v(b6)           i(vbias)        i(viout)        v(vout)        
 0.00000000e+00  3.35998492e-09  3.42709338e-09  3.20534969e-09  3.16196657e-09  4.56293476e-01  4.56293476e-01  4.56293476e-01  1.55082095e-07  1.58002421e-07  0.00000000e+00 
 1.00000000e-02  3.35998490e-09  3.42709342e-09  3.20534972e-09  3.16196655e-09  4.56293480e-01  4.56293480e-01  4.56293480e-01  1.55082106e-07  1.58001945e-07  1.00000000e-02 
 2.00000000e-02  3.35998490e-09  3.42709340e-09  3.20534971e-09  3.16196655e-09  4.56293476e-01  4.56293477e-01  4.56293477e-01  1.55082092e-07  1.58001491e-07  2.00000000e-02 
 3.00000000e-02  3.35998490e-09  3.42709341e-09  3.20534972e-09  3.16196655e-09  4.56293482e-01  4.56293482e-01  4.56293482e-01  1.55082085e-07  1.58001145e-07  3.00000000e-02 
 4.00000000e-02  3.35998490e-09  3.42709341e-09  3.20534972e-09  3.16196655e-09  4.56293492e-01  4.56293493e-01  4.56293493e-01  1.55082123e-07  1.58000765e-07  4.00000000e-02 
 5.00000000e-02  3.35998489e-09  3.42709341e-09  3.20534972e-09  3.16196655e-09  4.56293465e-01  4.56293465e-01  4.56293465e-01  1.55082065e-07  1.58000311e-07  5.00000000e-02 
 6.00000000e-02  3.35998489e-09  3.42709341e-09  3.20534971e-09  3.16196655e-09  4.56293455e-01  4.56293455e-01  4.56293455e-01  1.55082052e-07  1.57999937e-07  6.00000000e-02 
 7.00000000e-02  3.35998490e-09  3.42709341e-09  3.20534972e-09  3.16196655e-09  4.56293503e-01  4.56293503e-01  4.56293503e-01  1.55082136e-07  1.57999881e-07  7.00000000e-02 
 8.00000000e-02  3.35998490e-09  3.42709341e-09  3.20534972e-09  3.16196655e-09  4.56293480e-01  4.56293480e-01  4.56293480e-01  1.55082106e-07  1.57999339e-07  8.00000000e-02 
 9.00000000e-02  3.35998490e-09  3.42709341e-09  3.20534972e-09  3.16196655e-09  4.56293475e-01  4.56293475e-01  4.56293475e-01  1.55082078e-07  1.57999072e-07  9.00000000e-02 
 1.00000000e-01  3.35998490e-09  3.42709341e-09  3.20534972e-09  3.16196655e-09  4.56293488e-01  4.56293488e-01  4.56293488e-01  1.55082107e-07  1.57998770e-07  1.00000000e-01 
 1.10000000e-01  3.35998489e-09  3.42709341e-09  3.20534972e-09  3.16196655e-09  4.56293466e-01  4.56293466e-01  4.56293466e-01  1.55082075e-07  1.57998385e-07  1.10000000e-01 
 1.20000000e-01  3.35998490e-09  3.42709341e-09  3.20534972e-09  3.16196655e-09  4.56293480e-01  4.56293480e-01  4.56293480e-01  1.55082101e-07  1.57998171e-07  1.20000000e-01 
 1.30000000e-01  3.35998490e-09  3.42709341e-09  3.20534972e-09  3.16196655e-09  4.56293489e-01  4.56293489e-01  4.56293489e-01  1.55082115e-07  1.57997910e-07  1.30000000e-01 
 1.40000000e-01  3.35998489e-09  3.42709335e-09  3.20534972e-09  3.16196655e-09  4.56293469e-01  4.56293469e-01  4.56293469e-01  1.55082090e-07  1.57997611e-07  1.40000000e-01 
 1.50000000e-01  3.35998489e-09  3.42709342e-09  3.20534972e-09  3.16196655e-09  4.56293463e-01  4.56293463e-01  4.56293463e-01  1.55082084e-07  1.57997450e-07  1.50000000e-01 
 1.60000000e-01  3.35998490e-09  3.42709340e-09  3.20534972e-09  3.16196661e-09  4.56293483e-01  4.56293483e-01  4.56293483e-01  1.55082086e-07  1.57997224e-07  1.60000000e-01 
 1.70000000e-01  3.35998490e-09  3.42709341e-09  3.20534972e-09  3.16196655e-09  4.56293492e-01  4.56293492e-01  4.56293492e-01  1.55082117e-07  1.57997020e-07  1.70000000e-01 
 1.80000000e-01  3.35998489e-09  3.42709341e-09  3.20534972e-09  3.16196655e-09  4.56293463e-01  4.56293464e-01  4.56293464e-01  1.55082077e-07  1.57996638e-07  1.80000000e-01 
 1.90000000e-01  3.35998490e-09  3.42709341e-09  3.20534972e-09  3.16196655e-09  4.56293482e-01  4.56293483e-01  4.56293483e-01  1.55082109e-07  1.57996570e-07  1.90000000e-01 
 2.00000000e-01  3.35998489e-09  3.42709341e-09  3.20534971e-09  3.16196654e-09  4.56293444e-01  4.56293444e-01  4.56293444e-01  1.55082048e-07  1.57996075e-07  2.00000000e-01 
 2.10000000e-01  3.35998489e-09  3.42709341e-09  3.20534972e-09  3.16196655e-09  4.56293470e-01  4.56293470e-01  4.56293470e-01  1.55082079e-07  1.57996045e-07  2.10000000e-01 
 2.20000000e-01  3.35998489e-09  3.42709341e-09  3.20534972e-09  3.16196655e-09  4.56293472e-01  4.56293472e-01  4.56293472e-01  1.55082076e-07  1.57995789e-07  2.20000000e-01 
 2.30000000e-01  3.35998489e-09  3.42709335e-09  3.20534972e-09  3.16196655e-09  4.56293464e-01  4.56293465e-01  4.56293465e-01  1.55082074e-07  1.57995547e-07  2.30000000e-01 
 2.40000000e-01  3.35998489e-09  3.42709342e-09  3.20534972e-09  3.16196655e-09  4.56293471e-01  4.56293472e-01  4.56293472e-01  1.55082095e-07  1.57995423e-07  2.40000000e-01 
 2.50000000e-01  3.35998490e-09  3.42709340e-09  3.20534972e-09  3.16196655e-09  4.56293478e-01  4.56293478e-01  4.56293478e-01  1.55082086e-07  1.57995355e-07  2.50000000e-01 
 2.60000000e-01  3.35998490e-09  3.42709341e-09  3.20534972e-09  3.16196655e-09  4.56293487e-01  4.56293487e-01  4.56293487e-01  1.55082095e-07  1.57995165e-07  2.60000000e-01 
 2.70000000e-01  3.35998489e-09  3.42709341e-09  3.20534972e-09  3.16196655e-09  4.56293462e-01  4.56293462e-01  4.56293462e-01  1.55082072e-07  1.57994975e-07  2.70000000e-01 
 2.80000000e-01  3.35998490e-09  3.42709341e-09  3.20534972e-09  3.16196655e-09  4.56293483e-01  4.56293483e-01  4.56293483e-01  1.55082111e-07  1.57994833e-07  2.80000000e-01 
 2.90000000e-01  3.35998489e-09  3.42709341e-09  3.20534972e-09  3.16196655e-09  4.56293467e-01  4.56293467e-01  4.56293467e-01  1.55082066e-07  1.57994620e-07  2.90000000e-01 
 3.00000000e-01  3.35998490e-09  3.42709341e-09  3.20534972e-09  3.16196655e-09  4.56293488e-01  4.56293488e-01  4.56293488e-01  1.55082108e-07  1.57994549e-07  3.00000000e-01 
 3.10000000e-01  3.35998490e-09  3.42709341e-09  3.20534972e-09  3.16196655e-09  4.56293494e-01  4.56293494e-01  4.56293494e-01  1.55082124e-07  1.57994485e-07  3.10000000e-01 
 3.20000000e-01  3.35998489e-09  3.42709341e-09  3.20534972e-09  3.16196660e-09  4.56293466e-01  4.56293466e-01  4.56293466e-01  1.55082077e-07  1.57994194e-07  3.20000000e-01 
 3.30000000e-01  3.35998489e-09  3.42709341e-09  3.20534972e-09  3.16196655e-09  4.56293464e-01  4.56293464e-01  4.56293464e-01  1.55082083e-07  1.57993952e-07  3.30000000e-01 
 3.40000000e-01  3.35998490e-09  3.42709335e-09  3.20534972e-09  3.16196655e-09  4.56293478e-01  4.56293479e-01  4.56293479e-01  1.55082094e-07  1.57993853e-07  3.40000000e-01 
 3.50000000e-01  3.35998489e-09  3.42709337e-09  3.20534972e-09  3.16196655e-09  4.56293471e-01  4.56293471e-01  4.56293471e-01  1.55082073e-07  1.57993810e-07  3.50000000e-01 
 3.60000000e-01  3.35998489e-09  3.42709336e-09  3.20534972e-09  3.16196655e-09  4.56293465e-01  4.56293465e-01  4.56293465e-01  1.55082081e-07  1.57993561e-07  3.60000000e-01 
 3.70000000e-01  3.35998489e-09  3.42709336e-09  3.20534972e-09  3.16196655e-09  4.56293470e-01  4.56293470e-01  4.56293470e-01  1.55082081e-07  1.57993462e-07  3.70000000e-01 
 3.80000000e-01  3.35998484e-09  3.42709342e-09  3.20534972e-09  3.16196655e-09  4.56293488e-01  4.56293488e-01  4.56293488e-01  1.55082115e-07  1.57993373e-07  3.80000000e-01 
 3.90000000e-01  3.35998490e-09  3.42709340e-09  3.20534972e-09  3.16196655e-09  4.56293487e-01  4.56293487e-01  4.56293487e-01  1.55082111e-07  1.57993266e-07  3.90000000e-01 
 4.00000000e-01  3.35998489e-09  3.42709341e-09  3.20534972e-09  3.16196655e-09  4.56293465e-01  4.56293466e-01  4.56293465e-01  1.55082073e-07  1.57993089e-07  4.00000000e-01 
 4.10000000e-01  3.35998490e-09  3.42709341e-09  3.20534972e-09  3.16196655e-09  4.56293492e-01  4.56293493e-01  4.56293493e-01  1.55082127e-07  1.57993099e-07  4.10000000e-01 
 4.20000000e-01  3.35998489e-09  3.42709341e-09  3.20534972e-09  3.16196655e-09  4.56293471e-01  4.56293471e-01  4.56293471e-01  1.55082076e-07  1.57992886e-07  4.20000000e-01 
 4.30000000e-01  3.35998490e-09  3.42709335e-09  3.20534972e-09  3.16196655e-09  4.56293477e-01  4.56293478e-01  4.56293477e-01  1.55082080e-07  1.57992670e-07  4.30000000e-01 
 4.40000000e-01  3.35998490e-09  3.42709337e-09  3.20534972e-09  3.16196655e-09  4.56293475e-01  4.56293475e-01  4.56293475e-01  1.55082090e-07  1.57992655e-07  4.40000000e-01 
 4.50000000e-01  3.35998490e-09  3.42709342e-09  3.20534966e-09  3.16196655e-09  4.56293488e-01  4.56293488e-01  4.56293488e-01  1.55082105e-07  1.57992542e-07  4.50000000e-01 
 4.60000000e-01  3.35998490e-09  3.42709340e-09  3.20534973e-09  3.16196655e-09  4.56293489e-01  4.56293489e-01  4.56293489e-01  1.55082110e-07  1.57992467e-07  4.60000000e-01 
 4.70000000e-01  3.35998484e-09  3.42709341e-09  3.20534971e-09  3.16196655e-09  4.56293492e-01  4.56293492e-01  4.56293492e-01  1.55082106e-07  1.57992435e-07  4.70000000e-01 
 4.80000000e-01  3.35998489e-09  3.42709341e-09  3.20534972e-09  3.16196655e-09  4.56293469e-01  4.56293470e-01  4.56293469e-01  1.55082082e-07  1.57992098e-07  4.80000000e-01 
 4.90000000e-01  3.35998490e-09  3.42709341e-09  3.20534972e-09  3.16196655e-09  4.56293498e-01  4.56293498e-01  4.56293498e-01  1.55082122e-07  1.57992140e-07  4.90000000e-01 
 5.00000000e-01  3.35998490e-09  3.42709341e-09  3.20534972e-09  3.16196655e-09  4.56293480e-01  4.56293480e-01  4.56293480e-01  1.55082105e-07  1.57992027e-07  5.00000000e-01 
 5.10000000e-01  3.35998489e-09  3.42709341e-09  3.20534972e-09  3.16196655e-09  4.56293464e-01  4.56293464e-01  4.56293464e-01  1.55082078e-07  1.57991735e-07  5.10000000e-01 
 5.20000000e-01  3.35998489e-09  3.42709341e-09  3.20534971e-09  3.16196655e-09  4.56293457e-01  4.56293457e-01  4.56293457e-01  1.55082055e-07  1.57991625e-07  5.20000000e-01 
 5.30000000e-01  3.35998490e-09  3.42709341e-09  3.20534972e-09  3.16196655e-09  4.56293477e-01  4.56293477e-01  4.56293477e-01  1.55082083e-07  1.57991657e-07  5.30000000e-01 
 5.40000000e-01  3.35998490e-09  3.42709341e-09  3.20534972e-09  3.16196655e-09  4.56293485e-01  4.56293486e-01  4.56293486e-01  1.55082108e-07  1.57991536e-07  5.40000000e-01 
 5.50000000e-01  3.35998489e-09  3.42709341e-09  3.20534972e-09  3.16196655e-09  4.56293472e-01  4.56293472e-01  4.56293472e-01  1.55082094e-07  1.57991330e-07  5.50000000e-01 
 5.60000000e-01  3.35998490e-09  3.42709341e-09  3.20534966e-09  3.16196655e-09  4.56293494e-01  4.56293494e-01  4.56293494e-01  1.55082124e-07  1.57991344e-07  5.60000000e-01 
 5.70000000e-01  3.35998490e-09  3.42709341e-09  3.20534967e-09  3.16196655e-09  4.56293498e-01  4.56293498e-01  4.56293498e-01  1.55082112e-07  1.57991241e-07  5.70000000e-01 
 5.80000000e-01  3.35998490e-09  3.42709341e-09  3.20534972e-09  3.16196655e-09  4.56293498e-01  4.56293498e-01  4.56293498e-01  1.55082127e-07  1.57991124e-07  5.80000000e-01 
 5.90000000e-01  3.35998490e-09  3.42709341e-09  3.20534971e-09  3.16196655e-09  4.56293487e-01  4.56293487e-01  4.56293487e-01  1.55082083e-07  1.57990996e-07  5.90000000e-01 
 6.00000000e-01  3.35998490e-09  3.42709341e-09  3.20534972e-09  3.16196655e-09  4.56293478e-01  4.56293478e-01  4.56293478e-01  1.55082081e-07  1.57990868e-07  6.00000000e-01 
 6.10000000e-01  3.35998489e-09  3.42709341e-09  3.20534972e-09  3.16196655e-09  4.56293466e-01  4.56293466e-01  4.56293466e-01  1.55082073e-07  1.57990662e-07  6.10000000e-01 
 6.20000000e-01  3.35998490e-09  3.42709341e-09  3.20534972e-09  3.16196655e-09  4.56293481e-01  4.56293481e-01  4.56293481e-01  1.55082091e-07  1.57990641e-07  6.20000000e-01 
 6.30000000e-01  3.35998490e-09  3.42709341e-09  3.20534972e-09  3.16196655e-09  4.56293489e-01  4.56293490e-01  4.56293489e-01  1.55082109e-07  1.57990556e-07  6.30000000e-01 
 6.40000000e-01  3.35998490e-09  3.42709341e-09  3.20534972e-09  3.16196655e-09  4.56293493e-01  4.56293493e-01  4.56293493e-01  1.55082112e-07  1.57990449e-07  6.40000000e-01 
 6.50000000e-01  3.35998490e-09  3.42709341e-09  3.20534972e-09  3.16196655e-09  4.56293495e-01  4.56293495e-01  4.56293495e-01  1.55082114e-07  1.57990378e-07  6.50000000e-01 
 6.60000000e-01  3.35998490e-09  3.42709341e-09  3.20534972e-09  3.16196655e-09  4.56293491e-01  4.56293491e-01  4.56293491e-01  1.55082105e-07  1.57990165e-07  6.60000000e-01 
 6.70000000e-01  3.35998489e-09  3.42709341e-09  3.20534972e-09  3.16196655e-09  4.56293472e-01  4.56293472e-01  4.56293472e-01  1.55082080e-07  1.57990065e-07  6.70000000e-01 
 6.80000000e-01  3.35998489e-09  3.42709341e-09  3.20534971e-09  3.16196649e-09  4.56293453e-01  4.56293453e-01  4.56293453e-01  1.55082057e-07  1.57989810e-07  6.80000000e-01 
 6.90000000e-01  3.35998490e-09  3.42709341e-09  3.20534972e-09  3.16196656e-09  4.56293473e-01  4.56293473e-01  4.56293473e-01  1.55082097e-07  1.57989803e-07  6.90000000e-01 
 7.00000000e-01  3.35998490e-09  3.42709341e-09  3.20534966e-09  3.16196654e-09  4.56293474e-01  4.56293474e-01  4.56293474e-01  1.55082090e-07  1.57989739e-07  7.00000000e-01 
 7.10000000e-01  3.35998490e-09  3.42709341e-09  3.20534973e-09  3.16196655e-09  4.56293475e-01  4.56293475e-01  4.56293475e-01  1.55082093e-07  1.57989611e-07  7.10000000e-01 
 7.20000000e-01  3.35998490e-09  3.42709341e-09  3.20534971e-09  3.16196655e-09  4.56293482e-01  4.56293482e-01  4.56293482e-01  1.55082097e-07  1.57989561e-07  7.20000000e-01 
 7.30000000e-01  3.35998490e-09  3.42709341e-09  3.20534972e-09  3.16196655e-09  4.56293486e-01  4.56293486e-01  4.56293486e-01  1.55082105e-07  1.57989412e-07  7.30000000e-01 
 7.40000000e-01  3.35998489e-09  3.42709341e-09  3.20534972e-09  3.16196655e-09  4.56293465e-01  4.56293465e-01  4.56293465e-01  1.55082077e-07  1.57989177e-07  7.40000000e-01 
 7.50000000e-01  3.35998489e-09  3.42709341e-09  3.20534972e-09  3.16196655e-09  4.56293465e-01  4.56293465e-01  4.56293465e-01  1.55082073e-07  1.57989142e-07  7.50000000e-01 
 7.60000000e-01  3.35998490e-09  3.42709341e-09  3.20534972e-09  3.16196655e-09  4.56293483e-01  4.56293483e-01  4.56293483e-01  1.55082093e-07  1.57989064e-07  7.60000000e-01 
 7.70000000e-01  3.35998489e-09  3.42709341e-09  3.20534972e-09  3.16196655e-09  4.56293464e-01  4.56293464e-01  4.56293464e-01  1.55082077e-07  1.57988914e-07  7.70000000e-01 
 7.80000000e-01  3.35998490e-09  3.42709335e-09  3.20534972e-09  3.16196655e-09  4.56293475e-01  4.56293475e-01  4.56293475e-01  1.55082081e-07  1.57988701e-07  7.80000000e-01 
 7.90000000e-01  3.35998490e-09  3.42709337e-09  3.20534972e-09  3.16196655e-09  4.56293490e-01  4.56293490e-01  4.56293490e-01  1.55082115e-07  1.57988758e-07  7.90000000e-01 
 8.00000000e-01  3.35998490e-09  3.42709342e-09  3.20534972e-09  3.16196655e-09  4.56293500e-01  4.56293500e-01  4.56293500e-01  1.55082123e-07  1.57988580e-07  8.00000000e-01 
 8.10000000e-01  3.35998489e-09  3.42709340e-09  3.20534972e-09  3.16196655e-09  4.56293462e-01  4.56293462e-01  4.56293462e-01  1.55082076e-07  1.57988303e-07  8.10000000e-01 
 8.20000000e-01  3.35998490e-09  3.42709341e-09  3.20534972e-09  3.16196655e-09  4.56293487e-01  4.56293487e-01  4.56293487e-01  1.55082096e-07  1.57988417e-07  8.20000000e-01 
 8.30000000e-01  3.35998490e-09  3.42709341e-09  3.20534972e-09  3.16196655e-09  4.56293493e-01  4.56293493e-01  4.56293493e-01  1.55082115e-07  1.57988268e-07  8.30000000e-01 
 8.40000000e-01  3.35998490e-09  3.42709341e-09  3.20534972e-09  3.16196655e-09  4.56293494e-01  4.56293494e-01  4.56293494e-01  1.55082125e-07  1.57988126e-07  8.40000000e-01 
 8.50000000e-01  3.35998490e-09  3.42709341e-09  3.20534972e-09  3.16196655e-09  4.56293503e-01  4.56293503e-01  4.56293503e-01  1.55082117e-07  1.57988055e-07  8.50000000e-01 
 8.60000000e-01  3.35998490e-09  3.42709341e-09  3.20534972e-09  3.16196655e-09  4.56293483e-01  4.56293483e-01  4.56293483e-01  1.55082106e-07  1.57987763e-07  8.60000000e-01 
 8.70000000e-01  3.35998489e-09  3.42709341e-09  3.20534972e-09  3.16196655e-09  4.56293471e-01  4.56293471e-01  4.56293471e-01  1.55082090e-07  1.57987735e-07  8.70000000e-01 
 8.80000000e-01  3.35998490e-09  3.42709341e-09  3.20534972e-09  3.16196655e-09  4.56293475e-01  4.56293475e-01  4.56293475e-01  1.55082088e-07  1.57987543e-07  8.80000000e-01 
 8.90000000e-01  3.35998490e-09  3.42709341e-09  3.20534972e-09  3.16196655e-09  4.56293490e-01  4.56293491e-01  4.56293491e-01  1.55082096e-07  1.57987557e-07  8.90000000e-01 
 9.00000000e-01  3.35998490e-09  3.42709341e-09  3.20534972e-09  3.16196655e-09  4.56293491e-01  4.56293491e-01  4.56293491e-01  1.55082108e-07  1.57987380e-07  9.00000000e-01 
 9.10000000e-01  3.35998490e-09  3.42709341e-09  3.20534972e-09  3.16196655e-09  4.56293475e-01  4.56293476e-01  4.56293475e-01  1.55082088e-07  1.57987202e-07  9.10000000e-01 
 9.20000000e-01  3.35998490e-09  3.42709341e-09  3.20534972e-09  3.16196655e-09  4.56293487e-01  4.56293487e-01  4.56293487e-01  1.55082109e-07  1.57987174e-07  9.20000000e-01 
 9.30000000e-01  3.35998490e-09  3.42709341e-09  3.20534972e-09  3.16196655e-09  4.56293481e-01  4.56293481e-01  4.56293481e-01  1.55082086e-07  1.57986968e-07  9.30000000e-01 
 9.40000000e-01  3.35998490e-09  3.42709341e-09  3.20534966e-09  3.16196655e-09  4.56293482e-01  4.56293482e-01  4.56293482e-01  1.55082099e-07  1.57986882e-07  9.40000000e-01 
 9.50000000e-01  3.35998490e-09  3.42709341e-09  3.20534967e-09  3.16196655e-09  4.56293496e-01  4.56293496e-01  4.56293496e-01  1.55082119e-07  1.57986605e-07  9.50000000e-01 
 9.60000000e-01  3.35998484e-09  3.42709341e-09  3.20534972e-09  3.16196655e-09  4.56293478e-01  4.56293478e-01  4.56293478e-01  1.55082090e-07  1.57986484e-07  9.60000000e-01 
 9.70000000e-01  3.35998490e-09  3.42709341e-09  3.20534971e-09  3.16196655e-09  4.56293483e-01  4.56293483e-01  4.56293483e-01  1.55082117e-07  1.57986442e-07  9.70000000e-01 
 9.80000000e-01  3.35998484e-09  3.42709341e-09  3.20534972e-09  3.16196655e-09  4.56293493e-01  4.56293494e-01  4.56293493e-01  1.55082120e-07  1.57986378e-07  9.80000000e-01 
 9.90000000e-01  3.35998489e-09  3.42709341e-09  3.20534971e-09  3.16196654e-09  4.56293446e-01  4.56293446e-01  4.56293446e-01  1.55082050e-07  1.57986079e-07  9.90000000e-01 
 1.00000000e+00  3.35998490e-09  3.42709341e-09  3.20534972e-09  3.16196655e-09  4.56293507e-01  4.56293508e-01  4.56293507e-01  1.55082137e-07  1.57986065e-07  1.00000000e+00 
 1.01000000e+00  3.35998490e-09  3.42709341e-09  3.20534972e-09  3.16196655e-09  4.56293479e-01  4.56293479e-01  4.56293479e-01  1.55082080e-07  1.57986001e-07  1.01000000e+00 
 1.02000000e+00  3.35998489e-09  3.42709341e-09  3.20534972e-09  3.16196655e-09  4.56293470e-01  4.56293470e-01  4.56293470e-01  1.55082074e-07  1.57985632e-07  1.02000000e+00 
 1.03000000e+00  3.35998489e-09  3.42709341e-09  3.20534972e-09  3.16196655e-09  4.56293466e-01  4.56293466e-01  4.56293466e-01  1.55082079e-07  1.57985660e-07  1.03000000e+00 
 1.04000000e+00  3.35998490e-09  3.42709341e-09  3.20534972e-09  3.16196655e-09  4.56293476e-01  4.56293476e-01  4.56293476e-01  1.55082090e-07  1.57985383e-07  1.04000000e+00 
 1.05000000e+00  3.35998490e-09  3.42709341e-09  3.20534972e-09  3.16196655e-09  4.56293482e-01  4.56293482e-01  4.56293482e-01  1.55082103e-07  1.57985269e-07  1.05000000e+00 
 1.06000000e+00  3.35998490e-09  3.42709341e-09  3.20534972e-09  3.16196655e-09  4.56293479e-01  4.56293479e-01  4.56293479e-01  1.55082083e-07  1.57985184e-07  1.06000000e+00 
 1.07000000e+00  3.35998489e-09  3.42709341e-09  3.20534972e-09  3.16196655e-09  4.56293467e-01  4.56293467e-01  4.56293467e-01  1.55082077e-07  1.57985077e-07  1.07000000e+00 
 1.08000000e+00  3.35998490e-09  3.42709341e-09  3.20534972e-09  3.16196655e-09  4.56293498e-01  4.56293499e-01  4.56293499e-01  1.55082125e-07  1.57984950e-07  1.08000000e+00 
 1.09000000e+00  3.35998490e-09  3.42709341e-09  3.20534972e-09  3.16196655e-09  4.56293495e-01  4.56293495e-01  4.56293495e-01  1.55082114e-07  1.57984779e-07  1.09000000e+00 
 1.10000000e+00  3.35998490e-09  3.42709341e-09  3.20534972e-09  3.16196655e-09  4.56293473e-01  4.56293473e-01  4.56293473e-01  1.55082095e-07  1.57984601e-07  1.10000000e+00 
