 v-sweep         v(b0)           v(b1)           v(b2)           v(b3)           v(b4)           v(b5)           v(b6)           i(vbias)        i(viout)        v(vout)        
 0.00000000e+00  4.54467221e-01  3.17238156e-09  3.46940640e-09  4.54467221e-01  3.08378531e-09  4.54467221e-01  4.54467221e-01  1.53191851e-07  1.39116916e-07  0.00000000e+00 
 1.00000000e-02  4.54467232e-01  3.17238155e-09  3.46940638e-09  4.54467232e-01  3.08378523e-09  4.54467232e-01  4.54467232e-01  1.53191888e-07  1.39116471e-07  1.00000000e-02 
 2.00000000e-02  4.54467242e-01  3.17238155e-09  3.46940638e-09  4.54467242e-01  3.08378525e-09  4.54467242e-01  4.54467242e-01  1.53191897e-07  1.39115977e-07  2.00000000e-02 
 3.00000000e-02  4.54467218e-01  3.17238155e-09  3.46940638e-09  4.54467218e-01  3.08378530e-09  4.54467218e-01  4.54467218e-01  1.53191858e-07  1.39115561e-07  3.00000000e-02 
 4.00000000e-02  4.54467220e-01  3.17238160e-09  3.46940638e-09  4.54467220e-01  3.08378528e-09  4.54467220e-01  4.54467220e-01  1.53191877e-07  1.39115188e-07  4.00000000e-02 
 5.00000000e-02  4.54467234e-01  3.17238155e-09  3.46940638e-09  4.54467234e-01  3.08378529e-09  4.54467234e-01  4.54467234e-01  1.53191895e-07  1.39114889e-07  5.00000000e-02 
 6.00000000e-02  4.54467235e-01  3.17238155e-09  3.46940638e-09  4.54467235e-01  3.08378523e-09  4.54467235e-01  4.54467235e-01  1.53191883e-07  1.39114568e-07  6.00000000e-02 
 7.00000000e-02  4.54467248e-01  3.17238155e-09  3.46940638e-09  4.54467248e-01  3.08378530e-09  4.54467248e-01  4.54467249e-01  1.53191907e-07  1.39114279e-07  7.00000000e-02 
 8.00000000e-02  4.54467214e-01  3.17238155e-09  3.46940638e-09  4.54467214e-01  3.08378528e-09  4.54467214e-01  4.54467214e-01  1.53191843e-07  1.39113853e-07  8.00000000e-02 
 9.00000000e-02  4.54467240e-01  3.17238160e-09  3.46940644e-09  4.54467240e-01  3.08378529e-09  4.54467240e-01  4.54467240e-01  1.53191898e-07  1.39113622e-07  9.00000000e-02 
 1.00000000e-01  4.54467227e-01  3.17238155e-09  3.46940638e-09  4.54467227e-01  3.08378529e-09  4.54467227e-01  4.54467227e-01  1.53191869e-07  1.39113310e-07  1.00000000e-01 
 1.10000000e-01  4.54467221e-01  3.17238160e-09  3.46940638e-09  4.54467221e-01  3.08378529e-09  4.54467221e-01  4.54467221e-01  1.53191866e-07  1.39112989e-07  1.10000000e-01 
 1.20000000e-01  4.54467228e-01  3.17238155e-09  3.46940638e-09  4.54467228e-01  3.08378529e-09  4.54467228e-01  4.54467228e-01  1.53191889e-07  1.39112666e-07  1.20000000e-01 
 1.30000000e-01  4.54467240e-01  3.17238155e-09  3.46940644e-09  4.54467240e-01  3.08378523e-09  4.54467240e-01  4.54467240e-01  1.53191914e-07  1.39112505e-07  1.30000000e-01 
 1.40000000e-01  4.54467228e-01  3.17238155e-09  3.46940638e-09  4.54467228e-01  3.08378525e-09  4.54467228e-01  4.54467228e-01  1.53191877e-07  1.39112196e-07  1.40000000e-01 
 1.50000000e-01  4.54467227e-01  3.17238155e-09  3.46940638e-09  4.54467227e-01  3.08378530e-09  4.54467227e-01  4.54467227e-01  1.53191864e-07  1.39112046e-07  1.50000000e-01 
 1.60000000e-01  4.54467241e-01  3.17238155e-09  3.46940638e-09  4.54467241e-01  3.08378529e-09  4.54467241e-01  4.54467241e-01  1.53191903e-07  1.39111833e-07  1.60000000e-01 
 1.70000000e-01  4.54467242e-01  3.17238160e-09  3.46940638e-09  4.54467242e-01  3.08378529e-09  4.54467242e-01  4.54467242e-01  1.53191885e-07  1.39111480e-07  1.70000000e-01 
 1.80000000e-01  4.54467236e-01  3.17238155e-09  3.46940644e-09  4.54467236e-01  3.08378529e-09  4.54467236e-01  4.54467236e-01  1.53191895e-07  1.39111403e-07  1.80000000e-01 
 1.90000000e-01  4.54467248e-01  3.17238161e-09  3.46940638e-09  4.54467248e-01  3.08378524e-09  4.54467248e-01  4.54467248e-01  1.53191911e-07  1.39111137e-07  1.90000000e-01 
 2.00000000e-01  4.54467215e-01  3.17238155e-09  3.46940638e-09  4.54467215e-01  3.08378525e-09  4.54467215e-01  4.54467215e-01  1.53191846e-07  1.39110947e-07  2.00000000e-01 
 2.10000000e-01  4.54467205e-01  3.17238155e-09  3.46940638e-09  4.54467205e-01  3.08378530e-09  4.54467205e-01  4.54467205e-01  1.53191833e-07  1.39110751e-07  2.10000000e-01 
 2.20000000e-01  4.54467220e-01  3.17238155e-09  3.46940644e-09  4.54467220e-01  3.08378528e-09  4.54467220e-01  4.54467220e-01  1.53191880e-07  1.39110558e-07  2.20000000e-01 
 2.30000000e-01  4.54467249e-01  3.17238155e-09  3.46940638e-09  4.54467249e-01  3.08378524e-09  4.54467249e-01  4.54467249e-01  1.53191901e-07  1.39110416e-07  2.30000000e-01 
 2.40000000e-01  4.54467215e-01  3.17238155e-09  3.46940638e-09  4.54467215e-01  3.08378525e-09  4.54467215e-01  4.54467215e-01  1.53191887e-07  1.39110233e-07  2.40000000e-01 
 2.50000000e-01  4.54467258e-01  3.17238155e-09  3.46940644e-09  4.54467258e-01  3.08378524e-09  4.54467258e-01  4.54467258e-01  1.53191917e-07  1.39110126e-07  2.50000000e-01 
 2.60000000e-01  4.54467215e-01  3.17238155e-09  3.46940638e-09  4.54467215e-01  3.08378524e-09  4.54467215e-01  4.54467215e-01  1.53191866e-07  1.39109863e-07  2.60000000e-01 
 2.70000000e-01  4.54467239e-01  3.17238155e-09  3.46940638e-09  4.54467238e-01  3.08378524e-09  4.54467238e-01  4.54467239e-01  1.53191880e-07  1.39109826e-07  2.70000000e-01 
 2.80000000e-01  4.54467225e-01  3.17238160e-09  3.46940638e-09  4.54467225e-01  3.08378524e-09  4.54467225e-01  4.54467225e-01  1.53191880e-07  1.39109611e-07  2.80000000e-01 
 2.90000000e-01  4.54467212e-01  3.17238155e-09  3.46940638e-09  4.54467212e-01  3.08378524e-09  4.54467212e-01  4.54467212e-01  1.53191854e-07  1.39109389e-07  2.90000000e-01 
 3.00000000e-01  4.54467213e-01  3.17238160e-09  3.46940638e-09  4.54467213e-01  3.08378524e-09  4.54467213e-01  4.54467213e-01  1.53191871e-07  1.39109357e-07  3.00000000e-01 
 3.10000000e-01  4.54467228e-01  3.17238155e-09  3.46940644e-09  4.54467228e-01  3.08378524e-09  4.54467228e-01  4.54467228e-01  1.53191876e-07  1.39109208e-07  3.10000000e-01 
 3.20000000e-01  4.54467260e-01  3.17238161e-09  3.46940644e-09  4.54467260e-01  3.08378530e-09  4.54467260e-01  4.54467260e-01  1.53191921e-07  1.39109225e-07  3.20000000e-01 
 3.30000000e-01  4.54467233e-01  3.17238155e-09  3.46940638e-09  4.54467233e-01  3.08378523e-09  4.54467233e-01  4.54467233e-01  1.53191871e-07  1.39108945e-07  3.30000000e-01 
 3.40000000e-01  4.54467216e-01  3.17238160e-09  3.46940638e-09  4.54467215e-01  3.08378525e-09  4.54467216e-01  4.54467216e-01  1.53191851e-07  1.39108792e-07  3.40000000e-01 
 3.50000000e-01  4.54467217e-01  3.17238155e-09  3.46940638e-09  4.54467217e-01  3.08378530e-09  4.54467217e-01  4.54467217e-01  1.53191865e-07  1.39108650e-07  3.50000000e-01 
 3.60000000e-01  4.54467202e-01  3.17238160e-09  3.46940643e-09  4.54467202e-01  3.08378528e-09  4.54467202e-01  4.54467202e-01  1.53191847e-07  1.39108536e-07  3.60000000e-01 
 3.70000000e-01  4.54467222e-01  3.17238155e-09  3.46940638e-09  4.54467222e-01  3.08378529e-09  4.54467222e-01  4.54467222e-01  1.53191858e-07  1.39108433e-07  3.70000000e-01 
 3.80000000e-01  4.54467235e-01  3.17238160e-09  3.46940638e-09  4.54467235e-01  3.08378523e-09  4.54467235e-01  4.54467235e-01  1.53191889e-07  1.39108398e-07  3.80000000e-01 
 3.90000000e-01  4.54467229e-01  3.17238155e-09  3.46940638e-09  4.54467229e-01  3.08378525e-09  4.54467229e-01  4.54467229e-01  1.53191882e-07  1.39108280e-07  3.90000000e-01 
 4.00000000e-01  4.54467240e-01  3.17238155e-09  3.46940644e-09  4.54467240e-01  3.08378530e-09  4.54467240e-01  4.54467240e-01  1.53191900e-07  1.39108096e-07  4.00000000e-01 
 4.10000000e-01  4.54467251e-01  3.17238155e-09  3.46940638e-09  4.54467251e-01  3.08378523e-09  4.54467251e-01  4.54467251e-01  1.53191909e-07  1.39108174e-07  4.10000000e-01 
 4.20000000e-01  4.54467210e-01  3.17238160e-09  3.46940638e-09  4.54467210e-01  3.08378524e-09  4.54467210e-01  4.54467211e-01  1.53191849e-07  1.39107758e-07  4.20000000e-01 
 4.30000000e-01  4.54467238e-01  3.17238155e-09  3.46940638e-09  4.54467237e-01  3.08378530e-09  4.54467237e-01  4.54467238e-01  1.53191884e-07  1.39107819e-07  4.30000000e-01 
 4.40000000e-01  4.54467222e-01  3.17238155e-09  3.46940638e-09  4.54467222e-01  3.08378528e-09  4.54467222e-01  4.54467222e-01  1.53191884e-07  1.39107666e-07  4.40000000e-01 
 4.50000000e-01  4.54467218e-01  3.17238160e-09  3.46940638e-09  4.54467218e-01  3.08378529e-09  4.54467218e-01  4.54467218e-01  1.53191886e-07  1.39107645e-07  4.50000000e-01 
 4.60000000e-01  4.54467216e-01  3.17238155e-09  3.46940638e-09  4.54467216e-01  3.08378523e-09  4.54467216e-01  4.54467216e-01  1.53191858e-07  1.39107545e-07  4.60000000e-01 
 4.70000000e-01  4.54467202e-01  3.17238155e-09  3.46940638e-09  4.54467202e-01  3.08378530e-09  4.54467202e-01  4.54467202e-01  1.53191842e-07  1.39107264e-07  4.70000000e-01 
 4.80000000e-01  4.54467222e-01  3.17238160e-09  3.46940644e-09  4.54467222e-01  3.08378523e-09  4.54467222e-01  4.54467222e-01  1.53191867e-07  1.39107215e-07  4.80000000e-01 
 4.90000000e-01  4.54467252e-01  3.17238155e-09  3.46940644e-09  4.54467252e-01  3.08378525e-09  4.54467252e-01  4.54467252e-01  1.53191911e-07  1.39107343e-07  4.90000000e-01 
 5.00000000e-01  4.54467233e-01  3.17238155e-09  3.46940638e-09  4.54467233e-01  3.08378530e-09  4.54467233e-01  4.54467233e-01  1.53191888e-07  1.39107136e-07  5.00000000e-01 
 5.10000000e-01  4.54467216e-01  3.17238160e-09  3.46940638e-09  4.54467216e-01  3.08378528e-09  4.54467216e-01  4.54467216e-01  1.53191875e-07  1.39106859e-07  5.10000000e-01 
 5.20000000e-01  4.54467224e-01  3.17238155e-09  3.46940638e-09  4.54467224e-01  3.08378523e-09  4.54467224e-01  4.54467224e-01  1.53191882e-07  1.39106884e-07  5.20000000e-01 
 5.30000000e-01  4.54467224e-01  3.17238160e-09  3.46940638e-09  4.54467224e-01  3.08378525e-09  4.54467224e-01  4.54467224e-01  1.53191870e-07  1.39106788e-07  5.30000000e-01 
 5.40000000e-01  4.54467237e-01  3.17238160e-09  3.46940638e-09  4.54467237e-01  3.08378530e-09  4.54467237e-01  4.54467237e-01  1.53191898e-07  1.39106760e-07  5.40000000e-01 
 5.50000000e-01  4.54467233e-01  3.17238160e-09  3.46940638e-09  4.54467233e-01  3.08378529e-09  4.54467233e-01  4.54467233e-01  1.53191880e-07  1.39106550e-07  5.50000000e-01 
 5.60000000e-01  4.54467231e-01  3.17238160e-09  3.46940644e-09  4.54467231e-01  3.08378523e-09  4.54467231e-01  4.54467231e-01  1.53191889e-07  1.39106568e-07  5.60000000e-01 
 5.70000000e-01  4.54467230e-01  3.17238155e-09  3.46940644e-09  4.54467230e-01  3.08378530e-09  4.54467230e-01  4.54467230e-01  1.53191876e-07  1.39106426e-07  5.70000000e-01 
 5.80000000e-01  4.54467226e-01  3.17238160e-09  3.46940638e-09  4.54467226e-01  3.08378523e-09  4.54467226e-01  4.54467226e-01  1.53191888e-07  1.39106312e-07  5.80000000e-01 
 5.90000000e-01  4.54467248e-01  3.17238161e-09  3.46940638e-09  4.54467248e-01  3.08378525e-09  4.54467248e-01  4.54467248e-01  1.53191911e-07  1.39106241e-07  5.90000000e-01 
 6.00000000e-01  4.54467232e-01  3.17238155e-09  3.46940638e-09  4.54467232e-01  3.08378530e-09  4.54467232e-01  4.54467232e-01  1.53191889e-07  1.39106177e-07  6.00000000e-01 
 6.10000000e-01  4.54467243e-01  3.17238160e-09  3.46940638e-09  4.54467242e-01  3.08378529e-09  4.54467242e-01  4.54467243e-01  1.53191911e-07  1.39106156e-07  6.10000000e-01 
 6.20000000e-01  4.54467225e-01  3.17238155e-09  3.46940638e-09  4.54467225e-01  3.08378523e-09  4.54467225e-01  4.54467225e-01  1.53191859e-07  1.39105900e-07  6.20000000e-01 
 6.30000000e-01  4.54467241e-01  3.17238155e-09  3.46940638e-09  4.54467241e-01  3.08378530e-09  4.54467241e-01  4.54467241e-01  1.53191880e-07  1.39105964e-07  6.30000000e-01 
 6.40000000e-01  4.54467227e-01  3.17238155e-09  3.46940638e-09  4.54467227e-01  3.08378528e-09  4.54467227e-01  4.54467227e-01  1.53191868e-07  1.39105808e-07  6.40000000e-01 
 6.50000000e-01  4.54467235e-01  3.17238155e-09  3.46940638e-09  4.54467235e-01  3.08378529e-09  4.54467235e-01  4.54467235e-01  1.53191889e-07  1.39105730e-07  6.50000000e-01 
 6.60000000e-01  4.54467231e-01  3.17238160e-09  3.46940644e-09  4.54467231e-01  3.08378529e-09  4.54467231e-01  4.54467231e-01  1.53191871e-07  1.39105637e-07  6.60000000e-01 
 6.70000000e-01  4.54467250e-01  3.17238161e-09  3.46940638e-09  4.54467250e-01  3.08378529e-09  4.54467250e-01  4.54467250e-01  1.53191929e-07  1.39105538e-07  6.70000000e-01 
 6.80000000e-01  4.54467242e-01  3.17238155e-09  3.46940638e-09  4.54467242e-01  3.08378523e-09  4.54467242e-01  4.54467242e-01  1.53191893e-07  1.39105552e-07  6.80000000e-01 
 6.90000000e-01  4.54467250e-01  3.17238155e-09  3.46940638e-09  4.54467250e-01  3.08378530e-09  4.54467250e-01  4.54467250e-01  1.53191913e-07  1.39105374e-07  6.90000000e-01 
 7.00000000e-01  4.54467218e-01  3.17238155e-09  3.46940644e-09  4.54467218e-01  3.08378528e-09  4.54467218e-01  4.54467218e-01  1.53191863e-07  1.39105303e-07  7.00000000e-01 
 7.10000000e-01  4.54467217e-01  3.17238155e-09  3.46940638e-09  4.54467217e-01  3.08378529e-09  4.54467217e-01  4.54467217e-01  1.53191856e-07  1.39105097e-07  7.10000000e-01 
 7.20000000e-01  4.54467230e-01  3.17238160e-09  3.46940638e-09  4.54467230e-01  3.08378529e-09  4.54467230e-01  4.54467230e-01  1.53191881e-07  1.39105076e-07  7.20000000e-01 
 7.30000000e-01  4.54467250e-01  3.17238155e-09  3.46940638e-09  4.54467250e-01  3.08378529e-09  4.54467250e-01  4.54467250e-01  1.53191905e-07  1.39104998e-07  7.30000000e-01 
 7.40000000e-01  4.54467233e-01  3.17238160e-09  3.46940644e-09  4.54467233e-01  3.08378529e-09  4.54467233e-01  4.54467233e-01  1.53191884e-07  1.39104799e-07  7.40000000e-01 
 7.50000000e-01  4.54467207e-01  3.17238160e-09  3.46940638e-09  4.54467207e-01  3.08378529e-09  4.54467207e-01  4.54467207e-01  1.53191857e-07  1.39104650e-07  7.50000000e-01 
 7.60000000e-01  4.54467200e-01  3.17238155e-09  3.46940638e-09  4.54467200e-01  3.08378523e-09  4.54467200e-01  4.54467200e-01  1.53191834e-07  1.39104522e-07  7.60000000e-01 
 7.70000000e-01  4.54467226e-01  3.17238155e-09  3.46940638e-09  4.54467226e-01  3.08378525e-09  4.54467226e-01  4.54467226e-01  1.53191859e-07  1.39104465e-07  7.70000000e-01 
 7.80000000e-01  4.54467256e-01  3.17238155e-09  3.46940638e-09  4.54467256e-01  3.08378524e-09  4.54467256e-01  4.54467256e-01  1.53191915e-07  1.39104614e-07  7.80000000e-01 
 7.90000000e-01  4.54467241e-01  3.17238155e-09  3.46940638e-09  4.54467241e-01  3.08378524e-09  4.54467241e-01  4.54467241e-01  1.53191895e-07  1.39104372e-07  7.90000000e-01 
 8.00000000e-01  4.54467227e-01  3.17238160e-09  3.46940638e-09  4.54467227e-01  3.08378530e-09  4.54467227e-01  4.54467227e-01  1.53191872e-07  1.39104216e-07  8.00000000e-01 
 8.10000000e-01  4.54467211e-01  3.17238160e-09  3.46940638e-09  4.54467211e-01  3.08378528e-09  4.54467211e-01  4.54467211e-01  1.53191854e-07  1.39104138e-07  8.10000000e-01 
 8.20000000e-01  4.54467233e-01  3.17238155e-09  3.46940644e-09  4.54467233e-01  3.08378523e-09  4.54467233e-01  4.54467233e-01  1.53191903e-07  1.39104053e-07  8.20000000e-01 
 8.30000000e-01  4.54467219e-01  3.17238155e-09  3.46940644e-09  4.54467219e-01  3.08378530e-09  4.54467219e-01  4.54467219e-01  1.53191855e-07  1.39103939e-07  8.30000000e-01 
 8.40000000e-01  4.54467236e-01  3.17238155e-09  3.46940638e-09  4.54467236e-01  3.08378523e-09  4.54467236e-01  4.54467236e-01  1.53191893e-07  1.39103918e-07  8.40000000e-01 
 8.50000000e-01  4.54467225e-01  3.17238155e-09  3.46940638e-09  4.54467225e-01  3.08378525e-09  4.54467225e-01  4.54467225e-01  1.53191870e-07  1.39103825e-07  8.50000000e-01 
 8.60000000e-01  4.54467237e-01  3.17238155e-09  3.46940638e-09  4.54467237e-01  3.08378530e-09  4.54467237e-01  4.54467237e-01  1.53191881e-07  1.39103797e-07  8.60000000e-01 
 8.70000000e-01  4.54467228e-01  3.17238155e-09  3.46940638e-09  4.54467228e-01  3.08378523e-09  4.54467228e-01  4.54467228e-01  1.53191859e-07  1.39103577e-07  8.70000000e-01 
 8.80000000e-01  4.54467234e-01  3.17238155e-09  3.46940638e-09  4.54467234e-01  3.08378530e-09  4.54467234e-01  4.54467234e-01  1.53191876e-07  1.39103328e-07  8.80000000e-01 
 8.90000000e-01  4.54467221e-01  3.17238160e-09  3.46940638e-09  4.54467221e-01  3.08378528e-09  4.54467221e-01  4.54467221e-01  1.53191870e-07  1.39103378e-07  8.90000000e-01 
 9.00000000e-01  4.54467235e-01  3.17238155e-09  3.46940638e-09  4.54467235e-01  3.08378523e-09  4.54467235e-01  4.54467235e-01  1.53191898e-07  1.39103228e-07  9.00000000e-01 
 9.10000000e-01  4.54467224e-01  3.17238155e-09  3.46940638e-09  4.54467224e-01  3.08378525e-09  4.54467224e-01  4.54467224e-01  1.53191863e-07  1.39103122e-07  9.10000000e-01 
 9.20000000e-01  4.54467247e-01  3.17238161e-09  3.46940638e-09  4.54467247e-01  3.08378530e-09  4.54467247e-01  4.54467247e-01  1.53191903e-07  1.39103086e-07  9.20000000e-01 
 9.30000000e-01  4.54467225e-01  3.17238155e-09  3.46940638e-09  4.54467224e-01  3.08378528e-09  4.54467224e-01  4.54467225e-01  1.53191877e-07  1.39102980e-07  9.30000000e-01 
 9.40000000e-01  4.54467232e-01  3.17238155e-09  3.46940644e-09  4.54467232e-01  3.08378529e-09  4.54467232e-01  4.54467232e-01  1.53191894e-07  1.39102916e-07  9.40000000e-01 
 9.50000000e-01  4.54467241e-01  3.17238155e-09  3.46940638e-09  4.54467241e-01  3.08378529e-09  4.54467241e-01  4.54467241e-01  1.53191898e-07  1.39102795e-07  9.50000000e-01 
 9.60000000e-01  4.54467249e-01  3.17238155e-09  3.46940638e-09  4.54467249e-01  3.08378529e-09  4.54467249e-01  4.54467249e-01  1.53191907e-07  1.39102639e-07  9.60000000e-01 
 9.70000000e-01  4.54467193e-01  3.17238154e-09  3.46940643e-09  4.54467193e-01  3.08378523e-09  4.54467193e-01  4.54467193e-01  1.53191819e-07  1.39102397e-07  9.70000000e-01 
 9.80000000e-01  4.54467226e-01  3.17238155e-09  3.46940644e-09  4.54467226e-01  3.08378530e-09  4.54467226e-01  4.54467226e-01  1.53191868e-07  1.39102440e-07  9.80000000e-01 
 9.90000000e-01  4.54467213e-01  3.17238160e-09  3.46940644e-09  4.54467213e-01  3.08378528e-09  4.54467213e-01  4.54467213e-01  1.53191854e-07  1.39102241e-07  9.90000000e-01 
 1.00000000e+00  4.54467231e-01  3.17238160e-09  3.46940638e-09  4.54467231e-01  3.08378529e-09  4.54467231e-01  4.54467231e-01  1.53191883e-07  1.39102113e-07  1.00000000e+00 
 1.01000000e+00  4.54467222e-01  3.17238160e-09  3.46940638e-09  4.54467222e-01  3.08378523e-09  4.54467222e-01  4.54467222e-01  1.53191852e-07  1.39102127e-07  1.01000000e+00 
 1.02000000e+00  4.54467213e-01  3.17238155e-09  3.46940644e-09  4.54467213e-01  3.08378524e-09  4.54467213e-01  4.54467213e-01  1.53191850e-07  1.39101857e-07  1.02000000e+00 
 1.03000000e+00  4.54467243e-01  3.17238155e-09  3.46940644e-09  4.54467243e-01  3.08378530e-09  4.54467243e-01  4.54467243e-01  1.53191904e-07  1.39101871e-07  1.03000000e+00 
 1.04000000e+00  4.54467248e-01  3.17238155e-09  3.46940638e-09  4.54467248e-01  3.08378523e-09  4.54467248e-01  4.54467248e-01  1.53191903e-07  1.39101722e-07  1.04000000e+00 
 1.05000000e+00  4.54467256e-01  3.17238155e-09  3.46940638e-09  4.54467256e-01  3.08378525e-09  4.54467256e-01  4.54467256e-01  1.53191919e-07  1.39101672e-07  1.05000000e+00 
 1.06000000e+00  4.54467239e-01  3.17238160e-09  3.46940644e-09  4.54467239e-01  3.08378530e-09  4.54467239e-01  4.54467240e-01  1.53191894e-07  1.39101516e-07  1.06000000e+00 
 1.07000000e+00  4.54467233e-01  3.17238155e-09  3.46940638e-09  4.54467233e-01  3.08378529e-09  4.54467233e-01  4.54467233e-01  1.53191893e-07  1.39101438e-07  1.07000000e+00 
 1.08000000e+00  4.54467219e-01  3.17238155e-09  3.46940638e-09  4.54467219e-01  3.08378529e-09  4.54467219e-01  4.54467219e-01  1.53191871e-07  1.39101246e-07  1.08000000e+00 
 1.09000000e+00  4.54467237e-01  3.17238155e-09  3.46940638e-09  4.54467237e-01  3.08378529e-09  4.54467237e-01  4.54467237e-01  1.53191895e-07  1.39101225e-07  1.09000000e+00 
 1.10000000e+00  4.54467232e-01  3.17238155e-09  3.46940638e-09  4.54467232e-01  3.08378529e-09  4.54467232e-01  4.54467232e-01  1.53191882e-07  1.39101019e-07  1.10000000e+00 
