 v-sweep         v(b0)           v(b1)           v(b2)           v(b3)           v(b4)           v(b5)           v(b6)           i(vbias)        i(viout)        v(vout)        
 0.00000000e+00  3.37562748e-09  3.28125963e-09  3.22125083e-09  4.56541024e-01  4.56541024e-01  4.56541024e-01  3.18582574e-09  1.56538825e-07  8.04482885e-08  0.00000000e+00 
 1.00000000e-02  3.37562752e-09  3.28125961e-09  3.22125087e-09  4.56540979e-01  4.56540979e-01  4.56540979e-01  3.18582572e-09  1.56538751e-07  8.04477056e-08  1.00000000e-02 
 2.00000000e-02  3.37562752e-09  3.28125960e-09  3.22125087e-09  4.56540969e-01  4.56540969e-01  4.56540969e-01  3.18582572e-09  1.56538747e-07  8.04473266e-08  2.00000000e-02 
 3.00000000e-02  3.37562752e-09  3.28125961e-09  3.22125087e-09  4.56540979e-01  4.56540979e-01  4.56540979e-01  3.18582578e-09  1.56538771e-07  8.04469384e-08  3.00000000e-02 
 4.00000000e-02  3.37562752e-09  3.28125961e-09  3.22125087e-09  4.56541003e-01  4.56541003e-01  4.56541003e-01  3.18582578e-09  1.56538797e-07  8.04466382e-08  4.00000000e-02 
 5.00000000e-02  3.37562746e-09  3.28125961e-09  3.22125087e-09  4.56540987e-01  4.56540986e-01  4.56540987e-01  3.18582572e-09  1.56538767e-07  8.04463056e-08  5.00000000e-02 
 6.00000000e-02  3.37562752e-09  3.28125961e-09  3.22125087e-09  4.56540986e-01  4.56540986e-01  4.56540986e-01  3.18582572e-09  1.56538764e-07  8.04458962e-08  6.00000000e-02 
 7.00000000e-02  3.37562752e-09  3.28125961e-09  3.22125081e-09  4.56541005e-01  4.56541004e-01  4.56541005e-01  3.18582572e-09  1.56538802e-07  8.04456475e-08  7.00000000e-02 
 8.00000000e-02  3.37562746e-09  3.28125961e-09  3.22125087e-09  4.56541006e-01  4.56541006e-01  4.56541006e-01  3.18582572e-09  1.56538808e-07  8.04453437e-08  8.00000000e-02 
 9.00000000e-02  3.37562752e-09  3.28125961e-09  3.22125087e-09  4.56540994e-01  4.56540994e-01  4.56540994e-01  3.18582572e-09  1.56538772e-07  8.04451172e-08  9.00000000e-02 
 1.00000000e-01  3.37562752e-09  3.28125961e-09  3.22125087e-09  4.56541006e-01  4.56541006e-01  4.56541006e-01  3.18582572e-09  1.56538802e-07  8.04448019e-08  1.00000000e-01 
 1.10000000e-01  3.37562752e-09  3.28125961e-09  3.22125081e-09  4.56540993e-01  4.56540993e-01  4.56540993e-01  3.18582578e-09  1.56538777e-07  8.04445053e-08  1.10000000e-01 
 1.20000000e-01  3.37562752e-09  3.28125961e-09  3.22125087e-09  4.56540994e-01  4.56540994e-01  4.56540994e-01  3.18582578e-09  1.56538784e-07  8.04443170e-08  1.20000000e-01 
 1.30000000e-01  3.37562752e-09  3.28125960e-09  3.22125087e-09  4.56540956e-01  4.56540955e-01  4.56540956e-01  3.18582572e-09  1.56538736e-07  8.04441500e-08  1.30000000e-01 
 1.40000000e-01  3.37562746e-09  3.28125961e-09  3.22125087e-09  4.56540979e-01  4.56540979e-01  4.56540979e-01  3.18582572e-09  1.56538763e-07  8.04438178e-08  1.40000000e-01 
 1.50000000e-01  3.37562752e-09  3.28125961e-09  3.22125087e-09  4.56540993e-01  4.56540993e-01  4.56540993e-01  3.18582572e-09  1.56538777e-07  8.04437477e-08  1.50000000e-01 
 1.60000000e-01  3.37562752e-09  3.28125961e-09  3.22125081e-09  4.56541000e-01  4.56541000e-01  4.56541000e-01  3.18582578e-09  1.56538802e-07  8.04435150e-08  1.60000000e-01 
 1.70000000e-01  3.37562752e-09  3.28125961e-09  3.22125087e-09  4.56541009e-01  4.56541009e-01  4.56541009e-01  3.18582572e-09  1.56538808e-07  8.04432716e-08  1.70000000e-01 
 1.80000000e-01  3.37562752e-09  3.28125961e-09  3.22125087e-09  4.56540988e-01  4.56540988e-01  4.56540988e-01  3.18582578e-09  1.56538783e-07  8.04430798e-08  1.80000000e-01 
 1.90000000e-01  3.37562746e-09  3.28125960e-09  3.22125087e-09  4.56540970e-01  4.56540970e-01  4.56540970e-01  3.18582578e-09  1.56538758e-07  8.04428115e-08  1.90000000e-01 
 2.00000000e-01  3.37562752e-09  3.28125961e-09  3.22125087e-09  4.56540989e-01  4.56540989e-01  4.56540989e-01  3.18582572e-09  1.56538780e-07  8.04426907e-08  2.00000000e-01 
 2.10000000e-01  3.37562746e-09  3.28125961e-09  3.22125087e-09  4.56540982e-01  4.56540982e-01  4.56540982e-01  3.18582578e-09  1.56538758e-07  8.04425682e-08  2.10000000e-01 
 2.20000000e-01  3.37562746e-09  3.28125961e-09  3.22125087e-09  4.56541007e-01  4.56541007e-01  4.56541007e-01  3.18582572e-09  1.56538788e-07  8.04423781e-08  2.20000000e-01 
 2.30000000e-01  3.37562746e-09  3.28125961e-09  3.22125081e-09  4.56540990e-01  4.56540990e-01  4.56540990e-01  3.18582572e-09  1.56538764e-07  8.04421827e-08  2.30000000e-01 
 2.40000000e-01  3.37562752e-09  3.28125961e-09  3.22125081e-09  4.56541005e-01  4.56541005e-01  4.56541005e-01  3.18582578e-09  1.56538810e-07  8.04420530e-08  2.40000000e-01 
 2.50000000e-01  3.37562752e-09  3.28125961e-09  3.22125087e-09  4.56541002e-01  4.56541002e-01  4.56541002e-01  3.18582578e-09  1.56538780e-07  8.04419891e-08  2.50000000e-01 
 2.60000000e-01  3.37562752e-09  3.28125961e-09  3.22125087e-09  4.56540982e-01  4.56540982e-01  4.56540982e-01  3.18582578e-09  1.56538759e-07  8.04417901e-08  2.60000000e-01 
 2.70000000e-01  3.37562752e-09  3.28125961e-09  3.22125087e-09  4.56541007e-01  4.56541007e-01  4.56541007e-01  3.18582572e-09  1.56538802e-07  8.04416498e-08  2.70000000e-01 
 2.80000000e-01  3.37562752e-09  3.28125961e-09  3.22125087e-09  4.56541001e-01  4.56541001e-01  4.56541001e-01  3.18582578e-09  1.56538793e-07  8.04416782e-08  2.80000000e-01 
 2.90000000e-01  3.37562752e-09  3.28125961e-09  3.22125087e-09  4.56541004e-01  4.56541004e-01  4.56541004e-01  3.18582578e-09  1.56538811e-07  8.04415059e-08  2.90000000e-01 
 3.00000000e-01  3.37562746e-09  3.28125961e-09  3.22125087e-09  4.56540995e-01  4.56540995e-01  4.56540995e-01  3.18582578e-09  1.56538781e-07  8.04413496e-08  3.00000000e-01 
 3.10000000e-01  3.37562752e-09  3.28125961e-09  3.22125087e-09  4.56540998e-01  4.56540998e-01  4.56540998e-01  3.18582572e-09  1.56538784e-07  8.04412608e-08  3.10000000e-01 
 3.20000000e-01  3.37562752e-09  3.28125961e-09  3.22125087e-09  4.56540999e-01  4.56540999e-01  4.56540999e-01  3.18582572e-09  1.56538799e-07  8.04412146e-08  3.20000000e-01 
 3.30000000e-01  3.37562746e-09  3.28125961e-09  3.22125087e-09  4.56540998e-01  4.56540998e-01  4.56540998e-01  3.18582578e-09  1.56538777e-07  8.04410654e-08  3.30000000e-01 
 3.40000000e-01  3.37562752e-09  3.28125961e-09  3.22125087e-09  4.56540996e-01  4.56540996e-01  4.56540996e-01  3.18582578e-09  1.56538794e-07  8.04409481e-08  3.40000000e-01 
 3.50000000e-01  3.37562746e-09  3.28125961e-09  3.22125087e-09  4.56540999e-01  4.56540998e-01  4.56540999e-01  3.18582578e-09  1.56538800e-07  8.04409339e-08  3.50000000e-01 
 3.60000000e-01  3.37562746e-09  3.28125961e-09  3.22125081e-09  4.56540988e-01  4.56540988e-01  4.56540988e-01  3.18582578e-09  1.56538751e-07  8.04407101e-08  3.60000000e-01 
 3.70000000e-01  3.37562752e-09  3.28125961e-09  3.22125087e-09  4.56540997e-01  4.56540997e-01  4.56540997e-01  3.18582572e-09  1.56538783e-07  8.04407172e-08  3.70000000e-01 
 3.80000000e-01  3.37562752e-09  3.28125961e-09  3.22125081e-09  4.56541015e-01  4.56541015e-01  4.56541015e-01  3.18582578e-09  1.56538807e-07  8.04406817e-08  3.80000000e-01 
 3.90000000e-01  3.37562752e-09  3.28125966e-09  3.22125087e-09  4.56540987e-01  4.56540987e-01  4.56540987e-01  3.18582578e-09  1.56538770e-07  8.04404259e-08  3.90000000e-01 
 4.00000000e-01  3.37562746e-09  3.28125961e-09  3.22125087e-09  4.56541003e-01  4.56541003e-01  4.56541003e-01  3.18582578e-09  1.56538792e-07  8.04403797e-08  4.00000000e-01 
 4.10000000e-01  3.37562752e-09  3.28125961e-09  3.22125081e-09  4.56540984e-01  4.56540984e-01  4.56540984e-01  3.18582578e-09  1.56538767e-07  8.04402767e-08  4.10000000e-01 
 4.20000000e-01  3.37562746e-09  3.28125961e-09  3.22125087e-09  4.56540979e-01  4.56540979e-01  4.56540979e-01  3.18582578e-09  1.56538771e-07  8.04403086e-08  4.20000000e-01 
 4.30000000e-01  3.37562752e-09  3.28125961e-09  3.22125087e-09  4.56541005e-01  4.56541005e-01  4.56541005e-01  3.18582578e-09  1.56538800e-07  8.04400990e-08  4.30000000e-01 
 4.40000000e-01  3.37562752e-09  3.28125960e-09  3.22125087e-09  4.56540976e-01  4.56540976e-01  4.56540976e-01  3.18582578e-09  1.56538750e-07  8.04400244e-08  4.40000000e-01 
 4.50000000e-01  3.37562752e-09  3.28125961e-09  3.22125087e-09  4.56541009e-01  4.56541009e-01  4.56541009e-01  3.18582572e-09  1.56538803e-07  8.04400209e-08  4.50000000e-01 
 4.60000000e-01  3.37562752e-09  3.28125960e-09  3.22125087e-09  4.56540977e-01  4.56540977e-01  4.56540977e-01  3.18582572e-09  1.56538759e-07  8.04399640e-08  4.60000000e-01 
 4.70000000e-01  3.37562752e-09  3.28125961e-09  3.22125087e-09  4.56541010e-01  4.56541010e-01  4.56541010e-01  3.18582572e-09  1.56538813e-07  8.04399356e-08  4.70000000e-01 
 4.80000000e-01  3.37562746e-09  3.28125961e-09  3.22125087e-09  4.56540993e-01  4.56540993e-01  4.56540993e-01  3.18582572e-09  1.56538785e-07  8.04397828e-08  4.80000000e-01 
 4.90000000e-01  3.37562752e-09  3.28125961e-09  3.22125087e-09  4.56540991e-01  4.56540991e-01  4.56540991e-01  3.18582578e-09  1.56538784e-07  8.04396159e-08  4.90000000e-01 
 5.00000000e-01  3.37562746e-09  3.28125961e-09  3.22125087e-09  4.56541007e-01  4.56541007e-01  4.56541007e-01  3.18582578e-09  1.56538796e-07  8.04396620e-08  5.00000000e-01 
 5.10000000e-01  3.37562746e-09  3.28125961e-09  3.22125087e-09  4.56540989e-01  4.56540989e-01  4.56540989e-01  3.18582578e-09  1.56538773e-07  8.04395270e-08  5.10000000e-01 
 5.20000000e-01  3.37562746e-09  3.28125961e-09  3.22125087e-09  4.56540993e-01  4.56540993e-01  4.56540993e-01  3.18582572e-09  1.56538781e-07  8.04394631e-08  5.20000000e-01 
 5.30000000e-01  3.37562746e-09  3.28125961e-09  3.22125081e-09  4.56540984e-01  4.56540984e-01  4.56540984e-01  3.18582578e-09  1.56538777e-07  8.04392855e-08  5.30000000e-01 
 5.40000000e-01  3.37562752e-09  3.28125961e-09  3.22125087e-09  4.56541001e-01  4.56541001e-01  4.56541001e-01  3.18582578e-09  1.56538792e-07  8.04393814e-08  5.40000000e-01 
 5.50000000e-01  3.37562752e-09  3.28125961e-09  3.22125087e-09  4.56540994e-01  4.56540994e-01  4.56540994e-01  3.18582578e-09  1.56538781e-07  8.04392961e-08  5.50000000e-01 
 5.60000000e-01  3.37562746e-09  3.28125961e-09  3.22125087e-09  4.56541014e-01  4.56541014e-01  4.56541014e-01  3.18582578e-09  1.56538817e-07  8.04393210e-08  5.60000000e-01 
 5.70000000e-01  3.37562746e-09  3.28125961e-09  3.22125087e-09  4.56540995e-01  4.56540995e-01  4.56540995e-01  3.18582578e-09  1.56538786e-07  8.04391327e-08  5.70000000e-01 
 5.80000000e-01  3.37562746e-09  3.28125961e-09  3.22125087e-09  4.56540980e-01  4.56540979e-01  4.56540980e-01  3.18582578e-09  1.56538757e-07  8.04390297e-08  5.80000000e-01 
 5.90000000e-01  3.37562746e-09  3.28125961e-09  3.22125087e-09  4.56541005e-01  4.56541005e-01  4.56541005e-01  3.18582572e-09  1.56538799e-07  8.04390936e-08  5.90000000e-01 
 6.00000000e-01  3.37562746e-09  3.28125961e-09  3.22125081e-09  4.56540983e-01  4.56540983e-01  4.56540983e-01  3.18582572e-09  1.56538783e-07  8.04388591e-08  6.00000000e-01 
 6.10000000e-01  3.37562752e-09  3.28125960e-09  3.22125087e-09  4.56540975e-01  4.56540975e-01  4.56540975e-01  3.18582578e-09  1.56538757e-07  8.04389160e-08  6.10000000e-01 
 6.20000000e-01  3.37562752e-09  3.28125961e-09  3.22125087e-09  4.56541003e-01  4.56541003e-01  4.56541003e-01  3.18582578e-09  1.56538795e-07  8.04387525e-08  6.20000000e-01 
 6.30000000e-01  3.37562752e-09  3.28125961e-09  3.22125087e-09  4.56540982e-01  4.56540982e-01  4.56540982e-01  3.18582572e-09  1.56538762e-07  8.04387028e-08  6.30000000e-01 
 6.40000000e-01  3.37562752e-09  3.28125961e-09  3.22125087e-09  4.56540992e-01  4.56540992e-01  4.56540992e-01  3.18582578e-09  1.56538782e-07  8.04386247e-08  6.40000000e-01 
 6.50000000e-01  3.37562752e-09  3.28125960e-09  3.22125081e-09  4.56540974e-01  4.56540974e-01  4.56540974e-01  3.18582572e-09  1.56538757e-07  8.04384612e-08  6.50000000e-01 
 6.60000000e-01  3.37562752e-09  3.28125961e-09  3.22125087e-09  4.56541010e-01  4.56541010e-01  4.56541010e-01  3.18582578e-09  1.56538802e-07  8.04385891e-08  6.60000000e-01 
 6.70000000e-01  3.37562752e-09  3.28125961e-09  3.22125087e-09  4.56540997e-01  4.56540997e-01  4.56540997e-01  3.18582578e-09  1.56538802e-07  8.04385394e-08  6.70000000e-01 
 6.80000000e-01  3.37562752e-09  3.28125966e-09  3.22125087e-09  4.56541014e-01  4.56541014e-01  4.56541014e-01  3.18582572e-09  1.56538810e-07  8.04384825e-08  6.80000000e-01 
 6.90000000e-01  3.37562752e-09  3.28125960e-09  3.22125087e-09  4.56540975e-01  4.56540975e-01  4.56540975e-01  3.18582578e-09  1.56538770e-07  8.04382907e-08  6.90000000e-01 
 7.00000000e-01  3.37562752e-09  3.28125961e-09  3.22125087e-09  4.56540982e-01  4.56540982e-01  4.56540982e-01  3.18582578e-09  1.56538771e-07  8.04383120e-08  7.00000000e-01 
 7.10000000e-01  3.37562752e-09  3.28125961e-09  3.22125087e-09  4.56541007e-01  4.56541007e-01  4.56541007e-01  3.18582578e-09  1.56538807e-07  8.04383120e-08  7.10000000e-01 
 7.20000000e-01  3.37562752e-09  3.28125960e-09  3.22125087e-09  4.56540958e-01  4.56540958e-01  4.56540958e-01  3.18582572e-09  1.56538719e-07  8.04381557e-08  7.20000000e-01 
 7.30000000e-01  3.37562752e-09  3.28125961e-09  3.22125087e-09  4.56540988e-01  4.56540988e-01  4.56540988e-01  3.18582572e-09  1.56538770e-07  8.04379923e-08  7.30000000e-01 
 7.40000000e-01  3.37562752e-09  3.28125961e-09  3.22125087e-09  4.56540986e-01  4.56540986e-01  4.56540986e-01  3.18582578e-09  1.56538775e-07  8.04379567e-08  7.40000000e-01 
 7.50000000e-01  3.37562752e-09  3.28125961e-09  3.22125087e-09  4.56540979e-01  4.56540979e-01  4.56540979e-01  3.18582578e-09  1.56538761e-07  8.04378857e-08  7.50000000e-01 
 7.60000000e-01  3.37562752e-09  3.28125961e-09  3.22125087e-09  4.56541005e-01  4.56541005e-01  4.56541005e-01  3.18582578e-09  1.56538801e-07  8.04379567e-08  7.60000000e-01 
 7.70000000e-01  3.37562752e-09  3.28125960e-09  3.22125087e-09  4.56540978e-01  4.56540978e-01  4.56540978e-01  3.18582572e-09  1.56538750e-07  8.04377009e-08  7.70000000e-01 
 7.80000000e-01  3.37562746e-09  3.28125960e-09  3.22125081e-09  4.56540978e-01  4.56540978e-01  4.56540978e-01  3.18582572e-09  1.56538761e-07  8.04377933e-08  7.80000000e-01 
 7.90000000e-01  3.37562752e-09  3.28125961e-09  3.22125081e-09  4.56540996e-01  4.56540996e-01  4.56540996e-01  3.18582572e-09  1.56538778e-07  8.04376796e-08  7.90000000e-01 
 8.00000000e-01  3.37562746e-09  3.28125961e-09  3.22125087e-09  4.56541015e-01  4.56541015e-01  4.56541015e-01  3.18582578e-09  1.56538830e-07  8.04375375e-08  8.00000000e-01 
 8.10000000e-01  3.37562746e-09  3.28125961e-09  3.22125087e-09  4.56540988e-01  4.56540988e-01  4.56540988e-01  3.18582572e-09  1.56538765e-07  8.04374451e-08  8.10000000e-01 
 8.20000000e-01  3.37562752e-09  3.28125960e-09  3.22125087e-09  4.56540974e-01  4.56540974e-01  4.56540974e-01  3.18582578e-09  1.56538749e-07  8.04373528e-08  8.20000000e-01 
 8.30000000e-01  3.37562752e-09  3.28125961e-09  3.22125081e-09  4.56540987e-01  4.56540986e-01  4.56540987e-01  3.18582572e-09  1.56538774e-07  8.04373101e-08  8.30000000e-01 
 8.40000000e-01  3.37562746e-09  3.28125960e-09  3.22125087e-09  4.56540963e-01  4.56540963e-01  4.56540963e-01  3.18582578e-09  1.56538743e-07  8.04372604e-08  8.40000000e-01 
 8.50000000e-01  3.37562752e-09  3.28125961e-09  3.22125081e-09  4.56540988e-01  4.56540988e-01  4.56540988e-01  3.18582578e-09  1.56538764e-07  8.04373457e-08  8.50000000e-01 
 8.60000000e-01  3.37562752e-09  3.28125961e-09  3.22125087e-09  4.56541015e-01  4.56541015e-01  4.56541015e-01  3.18582578e-09  1.56538822e-07  8.04373101e-08  8.60000000e-01 
 8.70000000e-01  3.37562752e-09  3.28125961e-09  3.22125087e-09  4.56540981e-01  4.56540981e-01  4.56540981e-01  3.18582578e-09  1.56538771e-07  8.04370686e-08  8.70000000e-01 
 8.80000000e-01  3.37562746e-09  3.28125961e-09  3.22125087e-09  4.56540988e-01  4.56540987e-01  4.56540988e-01  3.18582572e-09  1.56538779e-07  8.04368909e-08  8.80000000e-01 
 8.90000000e-01  3.37562746e-09  3.28125961e-09  3.22125087e-09  4.56540980e-01  4.56540980e-01  4.56540980e-01  3.18582572e-09  1.56538769e-07  8.04369904e-08  8.90000000e-01 
 9.00000000e-01  3.37562746e-09  3.28125961e-09  3.22125087e-09  4.56540985e-01  4.56540985e-01  4.56540985e-01  3.18582578e-09  1.56538761e-07  8.04368412e-08  9.00000000e-01 
 9.10000000e-01  3.37562752e-09  3.28125961e-09  3.22125087e-09  4.56541004e-01  4.56541004e-01  4.56541004e-01  3.18582572e-09  1.56538793e-07  8.04367986e-08  9.10000000e-01 
 9.20000000e-01  3.37562746e-09  3.28125961e-09  3.22125087e-09  4.56541007e-01  4.56541007e-01  4.56541007e-01  3.18582578e-09  1.56538787e-07  8.04368270e-08  9.20000000e-01 
 9.30000000e-01  3.37562752e-09  3.28125961e-09  3.22125087e-09  4.56540990e-01  4.56540990e-01  4.56540990e-01  3.18582572e-09  1.56538771e-07  8.04366920e-08  9.30000000e-01 
 9.40000000e-01  3.37562752e-09  3.28125961e-09  3.22125081e-09  4.56540984e-01  4.56540984e-01  4.56540984e-01  3.18582578e-09  1.56538767e-07  8.04365499e-08  9.40000000e-01 
 9.50000000e-01  3.37562752e-09  3.28125961e-09  3.22125087e-09  4.56540984e-01  4.56540984e-01  4.56540984e-01  3.18582578e-09  1.56538772e-07  8.04366564e-08  9.50000000e-01 
 9.60000000e-01  3.37562746e-09  3.28125960e-09  3.22125087e-09  4.56540978e-01  4.56540977e-01  4.56540978e-01  3.18582578e-09  1.56538762e-07  8.04364291e-08  9.60000000e-01 
 9.70000000e-01  3.37562752e-09  3.28125961e-09  3.22125087e-09  4.56540997e-01  4.56540997e-01  4.56540997e-01  3.18582578e-09  1.56538775e-07  8.04364149e-08  9.70000000e-01 
 9.80000000e-01  3.37562752e-09  3.28125961e-09  3.22125087e-09  4.56540984e-01  4.56540984e-01  4.56540984e-01  3.18582578e-09  1.56538756e-07  8.04361662e-08  9.80000000e-01 
 9.90000000e-01  3.37562752e-09  3.28125961e-09  3.22125087e-09  4.56540984e-01  4.56540984e-01  4.56540984e-01  3.18582578e-09  1.56538780e-07  8.04361591e-08  9.90000000e-01 
 1.00000000e+00  3.37562752e-09  3.28125961e-09  3.22125087e-09  4.56540989e-01  4.56540989e-01  4.56540989e-01  3.18582578e-09  1.56538778e-07  8.04360241e-08  1.00000000e+00 
 1.01000000e+00  3.37562752e-09  3.28125961e-09  3.22125087e-09  4.56541007e-01  4.56541007e-01  4.56541007e-01  3.18582578e-09  1.56538808e-07  8.04362017e-08  1.01000000e+00 
 1.02000000e+00  3.37562746e-09  3.28125966e-09  3.22125087e-09  4.56540972e-01  4.56540972e-01  4.56540972e-01  3.18582578e-09  1.56538742e-07  8.04360667e-08  1.02000000e+00 
 1.03000000e+00  3.37562752e-09  3.28125961e-09  3.22125087e-09  4.56540983e-01  4.56540982e-01  4.56540983e-01  3.18582578e-09  1.56538767e-07  8.04358606e-08  1.03000000e+00 
 1.04000000e+00  3.37562746e-09  3.28125961e-09  3.22125087e-09  4.56540997e-01  4.56540997e-01  4.56540997e-01  3.18582578e-09  1.56538787e-07  8.04358962e-08  1.04000000e+00 
 1.05000000e+00  3.37562752e-09  3.28125961e-09  3.22125087e-09  4.56540983e-01  4.56540983e-01  4.56540983e-01  3.18582578e-09  1.56538758e-07  8.04358393e-08  1.05000000e+00 
 1.06000000e+00  3.37562746e-09  3.28125961e-09  3.22125081e-09  4.56540985e-01  4.56540985e-01  4.56540985e-01  3.18582578e-09  1.56538771e-07  8.04357185e-08  1.06000000e+00 
 1.07000000e+00  3.37562752e-09  3.28125961e-09  3.22125087e-09  4.56541016e-01  4.56541015e-01  4.56541016e-01  3.18582578e-09  1.56538805e-07  8.04357470e-08  1.07000000e+00 
 1.08000000e+00  3.37562752e-09  3.28125961e-09  3.22125087e-09  4.56540991e-01  4.56540991e-01  4.56540991e-01  3.18582578e-09  1.56538784e-07  8.04355267e-08  1.08000000e+00 
 1.09000000e+00  3.37562746e-09  3.28125961e-09  3.22125081e-09  4.56540984e-01  4.56540984e-01  4.56540984e-01  3.18582578e-09  1.56538782e-07  8.04354912e-08  1.09000000e+00 
 1.10000000e+00  3.37562746e-09  3.28125961e-09  3.22125081e-09  4.56540985e-01  4.56540985e-01  4.56540985e-01  3.18582572e-09  1.56538764e-07  8.04354485e-08  1.10000000e+00 
