 v-sweep         v(b0)           v(b1)           v(b2)           v(b3)           v(b4)           v(b5)           v(b6)           i(vbias)        i(viout)        v(vout)        
 0.00000000e+00  3.31689361e-09  3.41332270e-09  3.46259838e-09  3.34062724e-09  4.55840304e-01  3.26943386e-09  4.55840304e-01  1.53927270e-07  1.20719204e-07  0.00000000e+00 
 1.00000000e-02  3.31689364e-09  3.41332273e-09  3.46259835e-09  3.34062727e-09  4.55840315e-01  3.26943383e-09  4.55840315e-01  1.53927292e-07  1.20718866e-07  1.00000000e-02 
 2.00000000e-02  3.31689364e-09  3.41332273e-09  3.46259841e-09  3.34062721e-09  4.55840317e-01  3.26943383e-09  4.55840317e-01  1.53927272e-07  1.20718513e-07  2.00000000e-02 
 3.00000000e-02  3.31689364e-09  3.41332273e-09  3.46259841e-09  3.34062727e-09  4.55840325e-01  3.26943389e-09  4.55840325e-01  1.53927285e-07  1.20718126e-07  3.00000000e-02 
 4.00000000e-02  3.31689359e-09  3.41332272e-09  3.46259841e-09  3.34062727e-09  4.55840347e-01  3.26943389e-09  4.55840347e-01  1.53927331e-07  1.20717808e-07  4.00000000e-02 
 5.00000000e-02  3.31689364e-09  3.41332274e-09  3.46259835e-09  3.34062721e-09  4.55840311e-01  3.26943389e-09  4.55840311e-01  1.53927285e-07  1.20717272e-07  5.00000000e-02 
 6.00000000e-02  3.31689364e-09  3.41332272e-09  3.46259841e-09  3.34062727e-09  4.55840322e-01  3.26943389e-09  4.55840322e-01  1.53927304e-07  1.20716991e-07  6.00000000e-02 
 7.00000000e-02  3.31689364e-09  3.41332268e-09  3.46259835e-09  3.34062727e-09  4.55840324e-01  3.26943389e-09  4.55840324e-01  1.53927297e-07  1.20716677e-07  7.00000000e-02 
 8.00000000e-02  3.31689364e-09  3.41332273e-09  3.46259841e-09  3.34062727e-09  4.55840330e-01  3.26943389e-09  4.55840329e-01  1.53927299e-07  1.20716443e-07  8.00000000e-02 
 9.00000000e-02  3.31689359e-09  3.41332272e-09  3.46259835e-09  3.34062722e-09  4.55840329e-01  3.26943383e-09  4.55840329e-01  1.53927301e-07  1.20716165e-07  9.00000000e-02 
 1.00000000e-01  3.31689364e-09  3.41332274e-09  3.46259835e-09  3.34062721e-09  4.55840324e-01  3.26943389e-09  4.55840324e-01  1.53927293e-07  1.20715844e-07  1.00000000e-01 
 1.10000000e-01  3.31689359e-09  3.41332272e-09  3.46259841e-09  3.34062721e-09  4.55840321e-01  3.26943389e-09  4.55840321e-01  1.53927293e-07  1.20715605e-07  1.10000000e-01 
 1.20000000e-01  3.31689364e-09  3.41332274e-09  3.46259835e-09  3.34062727e-09  4.55840329e-01  3.26943389e-09  4.55840329e-01  1.53927312e-07  1.20715319e-07  1.20000000e-01 
 1.30000000e-01  3.31689364e-09  3.41332272e-09  3.46259841e-09  3.34062727e-09  4.55840327e-01  3.26943383e-09  4.55840327e-01  1.53927290e-07  1.20715196e-07  1.30000000e-01 
 1.40000000e-01  3.31689364e-09  3.41332274e-09  3.46259841e-09  3.34062727e-09  4.55840324e-01  3.26943389e-09  4.55840323e-01  1.53927303e-07  1.20714813e-07  1.40000000e-01 
 1.50000000e-01  3.31689364e-09  3.41332272e-09  3.46259841e-09  3.34062727e-09  4.55840319e-01  3.26943389e-09  4.55840318e-01  1.53927298e-07  1.20714573e-07  1.50000000e-01 
 1.60000000e-01  3.31689364e-09  3.41332268e-09  3.46259840e-09  3.34062721e-09  4.55840307e-01  3.26943389e-09  4.55840307e-01  1.53927274e-07  1.20714297e-07  1.60000000e-01 
 1.70000000e-01  3.31689359e-09  3.41332273e-09  3.46259841e-09  3.34062727e-09  4.55840336e-01  3.26943389e-09  4.55840336e-01  1.53927321e-07  1.20714249e-07  1.70000000e-01 
 1.80000000e-01  3.31689359e-09  3.41332272e-09  3.46259840e-09  3.34062721e-09  4.55840313e-01  3.26943389e-09  4.55840313e-01  1.53927276e-07  1.20713969e-07  1.80000000e-01 
 1.90000000e-01  3.31689364e-09  3.41332274e-09  3.46259835e-09  3.34062721e-09  4.55840324e-01  3.26943383e-09  4.55840324e-01  1.53927302e-07  1.20713795e-07  1.90000000e-01 
 2.00000000e-01  3.31689364e-09  3.41332272e-09  3.46259841e-09  3.34062721e-09  4.55840324e-01  3.26943389e-09  4.55840324e-01  1.53927305e-07  1.20713526e-07  2.00000000e-01 
 2.10000000e-01  3.31689359e-09  3.41332274e-09  3.46259841e-09  3.34062727e-09  4.55840320e-01  3.26943389e-09  4.55840320e-01  1.53927284e-07  1.20713370e-07  2.10000000e-01 
 2.20000000e-01  3.31689364e-09  3.41332278e-09  3.46259840e-09  3.34062721e-09  4.55840311e-01  3.26943389e-09  4.55840311e-01  1.53927269e-07  1.20713253e-07  2.20000000e-01 
 2.30000000e-01  3.31689359e-09  3.41332273e-09  3.46259835e-09  3.34062721e-09  4.55840313e-01  3.26943389e-09  4.55840313e-01  1.53927296e-07  1.20713166e-07  2.30000000e-01 
 2.40000000e-01  3.31689364e-09  3.41332268e-09  3.46259840e-09  3.34062727e-09  4.55840306e-01  3.26943389e-09  4.55840306e-01  1.53927272e-07  1.20713006e-07  2.40000000e-01 
 2.50000000e-01  3.31689364e-09  3.41332273e-09  3.46259841e-09  3.34062722e-09  4.55840337e-01  3.26943389e-09  4.55840337e-01  1.53927338e-07  1.20712851e-07  2.50000000e-01 
 2.60000000e-01  3.31689359e-09  3.41332272e-09  3.46259835e-09  3.34062721e-09  4.55840309e-01  3.26943389e-09  4.55840309e-01  1.53927273e-07  1.20712622e-07  2.60000000e-01 
 2.70000000e-01  3.31689364e-09  3.41332274e-09  3.46259841e-09  3.34062721e-09  4.55840315e-01  3.26943389e-09  4.55840315e-01  1.53927280e-07  1.20712503e-07  2.70000000e-01 
 2.80000000e-01  3.31689364e-09  3.41332272e-09  3.46259840e-09  3.34062727e-09  4.55840313e-01  3.26943389e-09  4.55840313e-01  1.53927282e-07  1.20712407e-07  2.80000000e-01 
 2.90000000e-01  3.31689364e-09  3.41332268e-09  3.46259841e-09  3.34062722e-09  4.55840334e-01  3.26943389e-09  4.55840334e-01  1.53927309e-07  1.20712286e-07  2.90000000e-01 
 3.00000000e-01  3.31689364e-09  3.41332273e-09  3.46259841e-09  3.34062727e-09  4.55840326e-01  3.26943389e-09  4.55840326e-01  1.53927308e-07  1.20712148e-07  3.00000000e-01 
 3.10000000e-01  3.31689358e-09  3.41332272e-09  3.46259840e-09  3.34062721e-09  4.55840307e-01  3.26943389e-09  4.55840307e-01  1.53927263e-07  1.20711945e-07  3.10000000e-01 
 3.20000000e-01  3.31689359e-09  3.41332268e-09  3.46259835e-09  3.34062727e-09  4.55840333e-01  3.26943389e-09  4.55840333e-01  1.53927315e-07  1.20711846e-07  3.20000000e-01 
 3.30000000e-01  3.31689364e-09  3.41332273e-09  3.46259841e-09  3.34062727e-09  4.55840317e-01  3.26943389e-09  4.55840317e-01  1.53927286e-07  1.20711711e-07  3.30000000e-01 
 3.40000000e-01  3.31689364e-09  3.41332273e-09  3.46259841e-09  3.34062727e-09  4.55840340e-01  3.26943389e-09  4.55840340e-01  1.53927312e-07  1.20711626e-07  3.40000000e-01 
 3.50000000e-01  3.31689364e-09  3.41332272e-09  3.46259835e-09  3.34062727e-09  4.55840336e-01  3.26943389e-09  4.55840336e-01  1.53927321e-07  1.20711576e-07  3.50000000e-01 
 3.60000000e-01  3.31689364e-09  3.41332274e-09  3.46259835e-09  3.34062727e-09  4.55840320e-01  3.26943389e-09  4.55840320e-01  1.53927292e-07  1.20711338e-07  3.60000000e-01 
 3.70000000e-01  3.31689358e-09  3.41332272e-09  3.46259835e-09  3.34062721e-09  4.55840287e-01  3.26943389e-09  4.55840287e-01  1.53927238e-07  1.20711153e-07  3.70000000e-01 
 3.80000000e-01  3.31689364e-09  3.41332274e-09  3.46259841e-09  3.34062727e-09  4.55840330e-01  3.26943389e-09  4.55840329e-01  1.53927314e-07  1.20711157e-07  3.80000000e-01 
 3.90000000e-01  3.31689364e-09  3.41332272e-09  3.46259841e-09  3.34062721e-09  4.55840317e-01  3.26943389e-09  4.55840317e-01  1.53927299e-07  1.20711103e-07  3.90000000e-01 
 4.00000000e-01  3.31689364e-09  3.41332274e-09  3.46259840e-09  3.34062727e-09  4.55840307e-01  3.26943389e-09  4.55840307e-01  1.53927257e-07  1.20710975e-07  4.00000000e-01 
 4.10000000e-01  3.31689364e-09  3.41332272e-09  3.46259835e-09  3.34062727e-09  4.55840316e-01  3.26943383e-09  4.55840316e-01  1.53927289e-07  1.20710901e-07  4.10000000e-01 
 4.20000000e-01  3.31689364e-09  3.41332274e-09  3.46259835e-09  3.34062727e-09  4.55840344e-01  3.26943389e-09  4.55840344e-01  1.53927325e-07  1.20710826e-07  4.20000000e-01 
 4.30000000e-01  3.31689364e-09  3.41332272e-09  3.46259841e-09  3.34062727e-09  4.55840345e-01  3.26943389e-09  4.55840345e-01  1.53927339e-07  1.20710787e-07  4.30000000e-01 
 4.40000000e-01  3.31689364e-09  3.41332274e-09  3.46259841e-09  3.34062727e-09  4.55840336e-01  3.26943389e-09  4.55840336e-01  1.53927306e-07  1.20710677e-07  4.40000000e-01 
 4.50000000e-01  3.31689364e-09  3.41332272e-09  3.46259841e-09  3.34062727e-09  4.55840344e-01  3.26943389e-09  4.55840344e-01  1.53927328e-07  1.20710610e-07  4.50000000e-01 
 4.60000000e-01  3.31689364e-09  3.41332274e-09  3.46259841e-09  3.34062727e-09  4.55840328e-01  3.26943389e-09  4.55840328e-01  1.53927316e-07  1.20710439e-07  4.60000000e-01 
 4.70000000e-01  3.31689364e-09  3.41332272e-09  3.46259835e-09  3.34062721e-09  4.55840312e-01  3.26943389e-09  4.55840312e-01  1.53927289e-07  1.20710236e-07  4.70000000e-01 
 4.80000000e-01  3.31689364e-09  3.41332274e-09  3.46259840e-09  3.34062727e-09  4.55840301e-01  3.26943383e-09  4.55840301e-01  1.53927267e-07  1.20710169e-07  4.80000000e-01 
 4.90000000e-01  3.31689364e-09  3.41332272e-09  3.46259841e-09  3.34062721e-09  4.55840316e-01  3.26943383e-09  4.55840316e-01  1.53927301e-07  1.20710105e-07  4.90000000e-01 
 5.00000000e-01  3.31689359e-09  3.41332274e-09  3.46259835e-09  3.34062721e-09  4.55840319e-01  3.26943389e-09  4.55840319e-01  1.53927300e-07  1.20710080e-07  5.00000000e-01 
 5.10000000e-01  3.31689364e-09  3.41332272e-09  3.46259840e-09  3.34062727e-09  4.55840315e-01  3.26943383e-09  4.55840314e-01  1.53927282e-07  1.20709959e-07  5.10000000e-01 
 5.20000000e-01  3.31689364e-09  3.41332274e-09  3.46259841e-09  3.34062721e-09  4.55840318e-01  3.26943389e-09  4.55840318e-01  1.53927297e-07  1.20709842e-07  5.20000000e-01 
 5.30000000e-01  3.31689364e-09  3.41332272e-09  3.46259840e-09  3.34062727e-09  4.55840314e-01  3.26943389e-09  4.55840314e-01  1.53927287e-07  1.20709796e-07  5.30000000e-01 
 5.40000000e-01  3.31689359e-09  3.41332268e-09  3.46259841e-09  3.34062727e-09  4.55840322e-01  3.26943389e-09  4.55840322e-01  1.53927293e-07  1.20709721e-07  5.40000000e-01 
 5.50000000e-01  3.31689359e-09  3.41332273e-09  3.46259835e-09  3.34062727e-09  4.55840309e-01  3.26943389e-09  4.55840309e-01  1.53927273e-07  1.20709597e-07  5.50000000e-01 
 5.60000000e-01  3.31689364e-09  3.41332273e-09  3.46259841e-09  3.34062722e-09  4.55840351e-01  3.26943389e-09  4.55840351e-01  1.53927356e-07  1.20709657e-07  5.60000000e-01 
 5.70000000e-01  3.31689364e-09  3.41332272e-09  3.46259840e-09  3.34062727e-09  4.55840313e-01  3.26943383e-09  4.55840313e-01  1.53927294e-07  1.20709483e-07  5.70000000e-01 
 5.80000000e-01  3.31689364e-09  3.41332274e-09  3.46259840e-09  3.34062721e-09  4.55840303e-01  3.26943389e-09  4.55840303e-01  1.53927284e-07  1.20709309e-07  5.80000000e-01 
 5.90000000e-01  3.31689364e-09  3.41332272e-09  3.46259835e-09  3.34062727e-09  4.55840320e-01  3.26943389e-09  4.55840320e-01  1.53927289e-07  1.20709295e-07  5.90000000e-01 
 6.00000000e-01  3.31689359e-09  3.41332268e-09  3.46259841e-09  3.34062727e-09  4.55840322e-01  3.26943389e-09  4.55840322e-01  1.53927297e-07  1.20709188e-07  6.00000000e-01 
 6.10000000e-01  3.31689359e-09  3.41332273e-09  3.46259841e-09  3.34062721e-09  4.55840320e-01  3.26943389e-09  4.55840320e-01  1.53927288e-07  1.20709032e-07  6.10000000e-01 
 6.20000000e-01  3.31689364e-09  3.41332273e-09  3.46259841e-09  3.34062727e-09  4.55840323e-01  3.26943389e-09  4.55840323e-01  1.53927302e-07  1.20709068e-07  6.20000000e-01 
 6.30000000e-01  3.31689359e-09  3.41332273e-09  3.46259841e-09  3.34062721e-09  4.55840324e-01  3.26943383e-09  4.55840324e-01  1.53927298e-07  1.20708926e-07  6.30000000e-01 
 6.40000000e-01  3.31689364e-09  3.41332278e-09  3.46259841e-09  3.34062722e-09  4.55840332e-01  3.26943389e-09  4.55840332e-01  1.53927304e-07  1.20708975e-07  6.40000000e-01 
 6.50000000e-01  3.31689359e-09  3.41332273e-09  3.46259841e-09  3.34062727e-09  4.55840334e-01  3.26943389e-09  4.55840334e-01  1.53927315e-07  1.20708826e-07  6.50000000e-01 
 6.60000000e-01  3.31689359e-09  3.41332274e-09  3.46259835e-09  3.34062721e-09  4.55840322e-01  3.26943389e-09  4.55840322e-01  1.53927300e-07  1.20708734e-07  6.60000000e-01 
 6.70000000e-01  3.31689364e-09  3.41332278e-09  3.46259841e-09  3.34062721e-09  4.55840315e-01  3.26943389e-09  4.55840315e-01  1.53927284e-07  1.20708592e-07  6.70000000e-01 
 6.80000000e-01  3.31689364e-09  3.41332273e-09  3.46259835e-09  3.34062727e-09  4.55840328e-01  3.26943389e-09  4.55840328e-01  1.53927308e-07  1.20708592e-07  6.80000000e-01 
 6.90000000e-01  3.31689364e-09  3.41332274e-09  3.46259835e-09  3.34062721e-09  4.55840307e-01  3.26943389e-09  4.55840307e-01  1.53927270e-07  1.20708513e-07  6.90000000e-01 
 7.00000000e-01  3.31689364e-09  3.41332272e-09  3.46259841e-09  3.34062722e-09  4.55840331e-01  3.26943389e-09  4.55840331e-01  1.53927307e-07  1.20708414e-07  7.00000000e-01 
 7.10000000e-01  3.31689364e-09  3.41332274e-09  3.46259835e-09  3.34062721e-09  4.55840316e-01  3.26943383e-09  4.55840316e-01  1.53927295e-07  1.20708229e-07  7.10000000e-01 
 7.20000000e-01  3.31689364e-09  3.41332272e-09  3.46259835e-09  3.34062727e-09  4.55840319e-01  3.26943389e-09  4.55840319e-01  1.53927289e-07  1.20708229e-07  7.20000000e-01 
 7.30000000e-01  3.31689359e-09  3.41332274e-09  3.46259835e-09  3.34062721e-09  4.55840321e-01  3.26943389e-09  4.55840321e-01  1.53927289e-07  1.20708116e-07  7.30000000e-01 
 7.40000000e-01  3.31689359e-09  3.41332272e-09  3.46259841e-09  3.34062721e-09  4.55840323e-01  3.26943389e-09  4.55840323e-01  1.53927289e-07  1.20708087e-07  7.40000000e-01 
 7.50000000e-01  3.31689364e-09  3.41332274e-09  3.46259841e-09  3.34062722e-09  4.55840341e-01  3.26943389e-09  4.55840341e-01  1.53927312e-07  1.20708037e-07  7.50000000e-01 
 7.60000000e-01  3.31689364e-09  3.41332272e-09  3.46259840e-09  3.34062721e-09  4.55840298e-01  3.26943389e-09  4.55840298e-01  1.53927261e-07  1.20707853e-07  7.60000000e-01 
 7.70000000e-01  3.31689364e-09  3.41332274e-09  3.46259840e-09  3.34062721e-09  4.55840311e-01  3.26943389e-09  4.55840311e-01  1.53927283e-07  1.20707767e-07  7.70000000e-01 
 7.80000000e-01  3.31689359e-09  3.41332272e-09  3.46259841e-09  3.34062727e-09  4.55840334e-01  3.26943389e-09  4.55840334e-01  1.53927317e-07  1.20707689e-07  7.80000000e-01 
 7.90000000e-01  3.31689364e-09  3.41332274e-09  3.46259841e-09  3.34062727e-09  4.55840321e-01  3.26943389e-09  4.55840321e-01  1.53927300e-07  1.20707696e-07  7.90000000e-01 
 8.00000000e-01  3.31689359e-09  3.41332272e-09  3.46259835e-09  3.34062727e-09  4.55840327e-01  3.26943389e-09  4.55840327e-01  1.53927313e-07  1.20707561e-07  8.00000000e-01 
 8.10000000e-01  3.31689364e-09  3.41332274e-09  3.46259835e-09  3.34062721e-09  4.55840320e-01  3.26943389e-09  4.55840320e-01  1.53927288e-07  1.20707412e-07  8.10000000e-01 
 8.20000000e-01  3.31689364e-09  3.41332272e-09  3.46259840e-09  3.34062721e-09  4.55840310e-01  3.26943389e-09  4.55840310e-01  1.53927278e-07  1.20707320e-07  8.20000000e-01 
 8.30000000e-01  3.31689359e-09  3.41332274e-09  3.46259841e-09  3.34062727e-09  4.55840323e-01  3.26943389e-09  4.55840323e-01  1.53927295e-07  1.20707305e-07  8.30000000e-01 
 8.40000000e-01  3.31689364e-09  3.41332272e-09  3.46259835e-09  3.34062727e-09  4.55840327e-01  3.26943389e-09  4.55840327e-01  1.53927293e-07  1.20707298e-07  8.40000000e-01 
 8.50000000e-01  3.31689364e-09  3.41332274e-09  3.46259840e-09  3.34062721e-09  4.55840309e-01  3.26943389e-09  4.55840309e-01  1.53927266e-07  1.20707099e-07  8.50000000e-01 
 8.60000000e-01  3.31689364e-09  3.41332272e-09  3.46259841e-09  3.34062727e-09  4.55840322e-01  3.26943383e-09  4.55840322e-01  1.53927297e-07  1.20707021e-07  8.60000000e-01 
 8.70000000e-01  3.31689364e-09  3.41332274e-09  3.46259841e-09  3.34062727e-09  4.55840323e-01  3.26943389e-09  4.55840323e-01  1.53927300e-07  1.20706950e-07  8.70000000e-01 
 8.80000000e-01  3.31689364e-09  3.41332272e-09  3.46259841e-09  3.34062721e-09  4.55840323e-01  3.26943389e-09  4.55840323e-01  1.53927293e-07  1.20706929e-07  8.80000000e-01 
 8.90000000e-01  3.31689364e-09  3.41332274e-09  3.46259841e-09  3.34062722e-09  4.55840328e-01  3.26943389e-09  4.55840328e-01  1.53927307e-07  1.20706815e-07  8.90000000e-01 
 9.00000000e-01  3.31689364e-09  3.41332272e-09  3.46259841e-09  3.34062727e-09  4.55840333e-01  3.26943383e-09  4.55840333e-01  1.53927328e-07  1.20706815e-07  9.00000000e-01 
 9.10000000e-01  3.31689364e-09  3.41332274e-09  3.46259841e-09  3.34062722e-09  4.55840352e-01  3.26943389e-09  4.55840352e-01  1.53927339e-07  1.20706680e-07  9.10000000e-01 
 9.20000000e-01  3.31689364e-09  3.41332272e-09  3.46259841e-09  3.34062727e-09  4.55840331e-01  3.26943389e-09  4.55840331e-01  1.53927302e-07  1.20706602e-07  9.20000000e-01 
 9.30000000e-01  3.31689364e-09  3.41332274e-09  3.46259841e-09  3.34062722e-09  4.55840344e-01  3.26943384e-09  4.55840344e-01  1.53927338e-07  1.20706559e-07  9.30000000e-01 
 9.40000000e-01  3.31689359e-09  3.41332278e-09  3.46259841e-09  3.34062722e-09  4.55840332e-01  3.26943389e-09  4.55840331e-01  1.53927315e-07  1.20706332e-07  9.40000000e-01 
 9.50000000e-01  3.31689364e-09  3.41332273e-09  3.46259835e-09  3.34062727e-09  4.55840334e-01  3.26943389e-09  4.55840334e-01  1.53927310e-07  1.20706318e-07  9.50000000e-01 
 9.60000000e-01  3.31689364e-09  3.41332274e-09  3.46259841e-09  3.34062722e-09  4.55840338e-01  3.26943389e-09  4.55840338e-01  1.53927326e-07  1.20706218e-07  9.60000000e-01 
 9.70000000e-01  3.31689359e-09  3.41332272e-09  3.46259841e-09  3.34062727e-09  4.55840322e-01  3.26943389e-09  4.55840322e-01  1.53927292e-07  1.20706119e-07  9.70000000e-01 
 9.80000000e-01  3.31689364e-09  3.41332268e-09  3.46259841e-09  3.34062727e-09  4.55840321e-01  3.26943389e-09  4.55840321e-01  1.53927301e-07  1.20705955e-07  9.80000000e-01 
 9.90000000e-01  3.31689364e-09  3.41332273e-09  3.46259841e-09  3.34062727e-09  4.55840318e-01  3.26943389e-09  4.55840318e-01  1.53927276e-07  1.20705884e-07  9.90000000e-01 
 1.00000000e+00  3.31689364e-09  3.41332273e-09  3.46259841e-09  3.34062721e-09  4.55840317e-01  3.26943389e-09  4.55840317e-01  1.53927286e-07  1.20705785e-07  1.00000000e+00 
 1.01000000e+00  3.31689364e-09  3.41332273e-09  3.46259841e-09  3.34062727e-09  4.55840332e-01  3.26943389e-09  4.55840332e-01  1.53927321e-07  1.20705806e-07  1.01000000e+00 
 1.02000000e+00  3.31689364e-09  3.41332272e-09  3.46259841e-09  3.34062727e-09  4.55840329e-01  3.26943389e-09  4.55840329e-01  1.53927306e-07  1.20705650e-07  1.02000000e+00 
 1.03000000e+00  3.31689364e-09  3.41332274e-09  3.46259835e-09  3.34062727e-09  4.55840340e-01  3.26943389e-09  4.55840340e-01  1.53927308e-07  1.20705600e-07  1.03000000e+00 
 1.04000000e+00  3.31689364e-09  3.41332272e-09  3.46259835e-09  3.34062721e-09  4.55840308e-01  3.26943389e-09  4.55840308e-01  1.53927272e-07  1.20705387e-07  1.04000000e+00 
 1.05000000e+00  3.31689364e-09  3.41332274e-09  3.46259840e-09  3.34062727e-09  4.55840311e-01  3.26943389e-09  4.55840311e-01  1.53927289e-07  1.20705259e-07  1.05000000e+00 
 1.06000000e+00  3.31689364e-09  3.41332272e-09  3.46259835e-09  3.34062721e-09  4.55840287e-01  3.26943383e-09  4.55840286e-01  1.53927250e-07  1.20705046e-07  1.06000000e+00 
 1.07000000e+00  3.31689359e-09  3.41332274e-09  3.46259841e-09  3.34062727e-09  4.55840339e-01  3.26943389e-09  4.55840339e-01  1.53927323e-07  1.20705209e-07  1.07000000e+00 
 1.08000000e+00  3.31689359e-09  3.41332272e-09  3.46259835e-09  3.34062727e-09  4.55840319e-01  3.26943383e-09  4.55840319e-01  1.53927305e-07  1.20705018e-07  1.08000000e+00 
 1.09000000e+00  3.31689364e-09  3.41332274e-09  3.46259835e-09  3.34062727e-09  4.55840329e-01  3.26943389e-09  4.55840329e-01  1.53927310e-07  1.20704968e-07  1.09000000e+00 
 1.10000000e+00  3.31689359e-09  3.41332272e-09  3.46259835e-09  3.34062721e-09  4.55840309e-01  3.26943389e-09  4.55840309e-01  1.53927279e-07  1.20704783e-07  1.10000000e+00 
