 v-sweep         v(b0)           v(b1)           v(b2)           v(b3)           v(b4)           v(b5)           v(b6)           i(vbias)        i(viout)        v(vout)        
 0.00000000e+00  3.40486883e-09  3.40023761e-09  3.53022007e-09  4.58977943e-01  4.58977943e-01  3.29972210e-09  4.58977943e-01  1.59673206e-07  1.34088356e-07  0.00000000e+00 
 1.00000000e-02  3.40486880e-09  3.40023757e-09  3.53022015e-09  4.58977916e-01  4.58977916e-01  3.29972213e-09  4.58977916e-01  1.59673170e-07  1.34087967e-07  1.00000000e-02 
 2.00000000e-02  3.40486886e-09  3.40023757e-09  3.53022009e-09  4.58977915e-01  4.58977915e-01  3.29972213e-09  4.58977915e-01  1.59673171e-07  1.34087528e-07  2.00000000e-02 
 3.00000000e-02  3.40486886e-09  3.40023763e-09  3.53022009e-09  4.58977920e-01  4.58977920e-01  3.29972213e-09  4.58977920e-01  1.59673174e-07  1.34087175e-07  3.00000000e-02 
 4.00000000e-02  3.40486880e-09  3.40023763e-09  3.53022009e-09  4.58977927e-01  4.58977927e-01  3.29972213e-09  4.58977927e-01  1.59673180e-07  1.34086708e-07  4.00000000e-02 
 5.00000000e-02  3.40486880e-09  3.40023763e-09  3.53022009e-09  4.58977942e-01  4.58977942e-01  3.29972207e-09  4.58977942e-01  1.59673186e-07  1.34086544e-07  5.00000000e-02 
 6.00000000e-02  3.40486880e-09  3.40023763e-09  3.53022015e-09  4.58977926e-01  4.58977926e-01  3.29972207e-09  4.58977926e-01  1.59673179e-07  1.34086040e-07  6.00000000e-02 
 7.00000000e-02  3.40486886e-09  3.40023757e-09  3.53022009e-09  4.58977919e-01  4.58977919e-01  3.29972213e-09  4.58977919e-01  1.59673170e-07  1.34085678e-07  7.00000000e-02 
 8.00000000e-02  3.40486886e-09  3.40023763e-09  3.53022009e-09  4.58977928e-01  4.58977928e-01  3.29972213e-09  4.58977928e-01  1.59673191e-07  1.34085521e-07  8.00000000e-02 
 9.00000000e-02  3.40486886e-09  3.40023757e-09  3.53022009e-09  4.58977922e-01  4.58977922e-01  3.29972207e-09  4.58977922e-01  1.59673183e-07  1.34085144e-07  9.00000000e-02 
 1.00000000e-01  3.40486886e-09  3.40023757e-09  3.53022009e-09  4.58977926e-01  4.58977926e-01  3.29972207e-09  4.58977926e-01  1.59673188e-07  1.34084858e-07  1.00000000e-01 
 1.10000000e-01  3.40486885e-09  3.40023757e-09  3.53022009e-09  4.58977903e-01  4.58977903e-01  3.29972207e-09  4.58977903e-01  1.59673148e-07  1.34084560e-07  1.10000000e-01 
 1.20000000e-01  3.40486886e-09  3.40023757e-09  3.53022009e-09  4.58977930e-01  4.58977930e-01  3.29972207e-09  4.58977930e-01  1.59673173e-07  1.34084330e-07  1.20000000e-01 
 1.30000000e-01  3.40486880e-09  3.40023757e-09  3.53022009e-09  4.58977902e-01  4.58977902e-01  3.29972207e-09  4.58977902e-01  1.59673143e-07  1.34084109e-07  1.30000000e-01 
 1.40000000e-01  3.40486886e-09  3.40023763e-09  3.53022010e-09  4.58977950e-01  4.58977950e-01  3.29972213e-09  4.58977950e-01  1.59673201e-07  1.34083917e-07  1.40000000e-01 
 1.50000000e-01  3.40486880e-09  3.40023763e-09  3.53022009e-09  4.58977921e-01  4.58977921e-01  3.29972207e-09  4.58977921e-01  1.59673167e-07  1.34083614e-07  1.50000000e-01 
 1.60000000e-01  3.40486886e-09  3.40023763e-09  3.53022009e-09  4.58977927e-01  4.58977927e-01  3.29972213e-09  4.58977927e-01  1.59673183e-07  1.34083370e-07  1.60000000e-01 
 1.70000000e-01  3.40486880e-09  3.40023757e-09  3.53022009e-09  4.58977916e-01  4.58977916e-01  3.29972213e-09  4.58977916e-01  1.59673158e-07  1.34083168e-07  1.70000000e-01 
 1.80000000e-01  3.40486886e-09  3.40023763e-09  3.53022010e-09  4.58977958e-01  4.58977958e-01  3.29972213e-09  4.58977958e-01  1.59673222e-07  1.34083079e-07  1.80000000e-01 
 1.90000000e-01  3.40486886e-09  3.40023763e-09  3.53022009e-09  4.58977912e-01  4.58977912e-01  3.29972207e-09  4.58977912e-01  1.59673148e-07  1.34082743e-07  1.90000000e-01 
 2.00000000e-01  3.40486886e-09  3.40023763e-09  3.53022009e-09  4.58977911e-01  4.58977911e-01  3.29972207e-09  4.58977911e-01  1.59673142e-07  1.34082644e-07  2.00000000e-01 
 2.10000000e-01  3.40486880e-09  3.40023758e-09  3.53022015e-09  4.58977949e-01  4.58977949e-01  3.29972207e-09  4.58977949e-01  1.59673209e-07  1.34082441e-07  2.10000000e-01 
 2.20000000e-01  3.40486880e-09  3.40023763e-09  3.53022015e-09  4.58977925e-01  4.58977925e-01  3.29972213e-09  4.58977925e-01  1.59673168e-07  1.34082228e-07  2.20000000e-01 
 2.30000000e-01  3.40486886e-09  3.40023763e-09  3.53022009e-09  4.58977937e-01  4.58977937e-01  3.29972213e-09  4.58977937e-01  1.59673194e-07  1.34082130e-07  2.30000000e-01 
 2.40000000e-01  3.40486886e-09  3.40023757e-09  3.53022009e-09  4.58977937e-01  4.58977937e-01  3.29972213e-09  4.58977937e-01  1.59673184e-07  1.34081933e-07  2.40000000e-01 
 2.50000000e-01  3.40486880e-09  3.40023757e-09  3.53022009e-09  4.58977916e-01  4.58977916e-01  3.29972213e-09  4.58977916e-01  1.59673166e-07  1.34081741e-07  2.50000000e-01 
 2.60000000e-01  3.40486886e-09  3.40023758e-09  3.53022010e-09  4.58977949e-01  4.58977949e-01  3.29972213e-09  4.58977949e-01  1.59673214e-07  1.34081716e-07  2.60000000e-01 
 2.70000000e-01  3.40486886e-09  3.40023757e-09  3.53022009e-09  4.58977923e-01  4.58977923e-01  3.29972213e-09  4.58977923e-01  1.59673170e-07  1.34081260e-07  2.70000000e-01 
 2.80000000e-01  3.40486886e-09  3.40023757e-09  3.53022009e-09  4.58977927e-01  4.58977927e-01  3.29972213e-09  4.58977927e-01  1.59673174e-07  1.34081352e-07  2.80000000e-01 
 2.90000000e-01  3.40486880e-09  3.40023757e-09  3.53022015e-09  4.58977944e-01  4.58977944e-01  3.29972213e-09  4.58977944e-01  1.59673204e-07  1.34081194e-07  2.90000000e-01 
 3.00000000e-01  3.40486886e-09  3.40023757e-09  3.53022009e-09  4.58977942e-01  4.58977942e-01  3.29972213e-09  4.58977942e-01  1.59673206e-07  1.34081080e-07  3.00000000e-01 
 3.10000000e-01  3.40486886e-09  3.40023763e-09  3.53022009e-09  4.58977918e-01  4.58977918e-01  3.29972213e-09  4.58977918e-01  1.59673167e-07  1.34080732e-07  3.10000000e-01 
 3.20000000e-01  3.40486880e-09  3.40023758e-09  3.53022015e-09  4.58977947e-01  4.58977947e-01  3.29972213e-09  4.58977947e-01  1.59673206e-07  1.34080889e-07  3.20000000e-01 
 3.30000000e-01  3.40486886e-09  3.40023757e-09  3.53022015e-09  4.58977916e-01  4.58977916e-01  3.29972207e-09  4.58977916e-01  1.59673166e-07  1.34080473e-07  3.30000000e-01 
 3.40000000e-01  3.40486880e-09  3.40023763e-09  3.53022009e-09  4.58977941e-01  4.58977941e-01  3.29972207e-09  4.58977941e-01  1.59673198e-07  1.34080480e-07  3.40000000e-01 
 3.50000000e-01  3.40486880e-09  3.40023757e-09  3.53022015e-09  4.58977908e-01  4.58977908e-01  3.29972213e-09  4.58977908e-01  1.59673146e-07  1.34080302e-07  3.50000000e-01 
 3.60000000e-01  3.40486880e-09  3.40023757e-09  3.53022015e-09  4.58977928e-01  4.58977928e-01  3.29972213e-09  4.58977928e-01  1.59673179e-07  1.34080306e-07  3.60000000e-01 
 3.70000000e-01  3.40486886e-09  3.40023757e-09  3.53022009e-09  4.58977940e-01  4.58977940e-01  3.29972207e-09  4.58977940e-01  1.59673192e-07  1.34080189e-07  3.70000000e-01 
 3.80000000e-01  3.40486880e-09  3.40023757e-09  3.53022015e-09  4.58977918e-01  4.58977918e-01  3.29972207e-09  4.58977918e-01  1.59673171e-07  1.34080171e-07  3.80000000e-01 
 3.90000000e-01  3.40486885e-09  3.40023757e-09  3.53022009e-09  4.58977904e-01  4.58977904e-01  3.29972213e-09  4.58977904e-01  1.59673150e-07  1.34079933e-07  3.90000000e-01 
 4.00000000e-01  3.40486886e-09  3.40023757e-09  3.53022009e-09  4.58977934e-01  4.58977934e-01  3.29972207e-09  4.58977934e-01  1.59673193e-07  1.34079755e-07  4.00000000e-01 
 4.10000000e-01  3.40486885e-09  3.40023763e-09  3.53022009e-09  4.58977892e-01  4.58977892e-01  3.29972213e-09  4.58977892e-01  1.59673121e-07  1.34079635e-07  4.10000000e-01 
 4.20000000e-01  3.40486880e-09  3.40023757e-09  3.53022009e-09  4.58977912e-01  4.58977912e-01  3.29972213e-09  4.58977912e-01  1.59673159e-07  1.34079624e-07  4.20000000e-01 
 4.30000000e-01  3.40486880e-09  3.40023757e-09  3.53022009e-09  4.58977925e-01  4.58977925e-01  3.29972207e-09  4.58977925e-01  1.59673173e-07  1.34079528e-07  4.30000000e-01 
 4.40000000e-01  3.40486880e-09  3.40023757e-09  3.53022009e-09  4.58977936e-01  4.58977936e-01  3.29972207e-09  4.58977936e-01  1.59673185e-07  1.34079478e-07  4.40000000e-01 
 4.50000000e-01  3.40486886e-09  3.40023757e-09  3.53022009e-09  4.58977932e-01  4.58977932e-01  3.29972213e-09  4.58977932e-01  1.59673181e-07  1.34079432e-07  4.50000000e-01 
 4.60000000e-01  3.40486886e-09  3.40023757e-09  3.53022009e-09  4.58977920e-01  4.58977920e-01  3.29972213e-09  4.58977920e-01  1.59673184e-07  1.34079158e-07  4.60000000e-01 
 4.70000000e-01  3.40486886e-09  3.40023757e-09  3.53022009e-09  4.58977929e-01  4.58977929e-01  3.29972207e-09  4.58977929e-01  1.59673182e-07  1.34078988e-07  4.70000000e-01 
 4.80000000e-01  3.40486880e-09  3.40023757e-09  3.53022009e-09  4.58977907e-01  4.58977907e-01  3.29972207e-09  4.58977907e-01  1.59673144e-07  1.34079016e-07  4.80000000e-01 
 4.90000000e-01  3.40486886e-09  3.40023757e-09  3.53022009e-09  4.58977924e-01  4.58977924e-01  3.29972207e-09  4.58977924e-01  1.59673180e-07  1.34078963e-07  4.90000000e-01 
 5.00000000e-01  3.40486880e-09  3.40023757e-09  3.53022009e-09  4.58977922e-01  4.58977922e-01  3.29972213e-09  4.58977922e-01  1.59673184e-07  1.34078832e-07  5.00000000e-01 
 5.10000000e-01  3.40486886e-09  3.40023757e-09  3.53022009e-09  4.58977926e-01  4.58977926e-01  3.29972207e-09  4.58977926e-01  1.59673175e-07  1.34078668e-07  5.10000000e-01 
 5.20000000e-01  3.40486886e-09  3.40023757e-09  3.53022009e-09  4.58977927e-01  4.58977927e-01  3.29972213e-09  4.58977927e-01  1.59673191e-07  1.34078633e-07  5.20000000e-01 
 5.30000000e-01  3.40486880e-09  3.40023763e-09  3.53022015e-09  4.58977910e-01  4.58977910e-01  3.29972213e-09  4.58977910e-01  1.59673171e-07  1.34078505e-07  5.30000000e-01 
 5.40000000e-01  3.40486886e-09  3.40023763e-09  3.53022015e-09  4.58977936e-01  4.58977936e-01  3.29972213e-09  4.58977936e-01  1.59673191e-07  1.34078551e-07  5.40000000e-01 
 5.50000000e-01  3.40486880e-09  3.40023757e-09  3.53022009e-09  4.58977901e-01  4.58977901e-01  3.29972207e-09  4.58977901e-01  1.59673144e-07  1.34078334e-07  5.50000000e-01 
 5.60000000e-01  3.40486886e-09  3.40023757e-09  3.53022009e-09  4.58977910e-01  4.58977910e-01  3.29972213e-09  4.58977910e-01  1.59673161e-07  1.34078309e-07  5.60000000e-01 
 5.70000000e-01  3.40486880e-09  3.40023757e-09  3.53022009e-09  4.58977907e-01  4.58977907e-01  3.29972213e-09  4.58977907e-01  1.59673159e-07  1.34078132e-07  5.70000000e-01 
 5.80000000e-01  3.40486880e-09  3.40023763e-09  3.53022009e-09  4.58977926e-01  4.58977926e-01  3.29972213e-09  4.58977926e-01  1.59673177e-07  1.34078142e-07  5.80000000e-01 
 5.90000000e-01  3.40486886e-09  3.40023763e-09  3.53022015e-09  4.58977912e-01  4.58977912e-01  3.29972207e-09  4.58977912e-01  1.59673160e-07  1.34078043e-07  5.90000000e-01 
 6.00000000e-01  3.40486880e-09  3.40023757e-09  3.53022015e-09  4.58977924e-01  4.58977924e-01  3.29972213e-09  4.58977924e-01  1.59673178e-07  1.34077986e-07  6.00000000e-01 
 6.10000000e-01  3.40486880e-09  3.40023763e-09  3.53022015e-09  4.58977909e-01  4.58977909e-01  3.29972213e-09  4.58977909e-01  1.59673151e-07  1.34077915e-07  6.10000000e-01 
 6.20000000e-01  3.40486880e-09  3.40023757e-09  3.53022015e-09  4.58977908e-01  4.58977908e-01  3.29972207e-09  4.58977908e-01  1.59673148e-07  1.34077581e-07  6.20000000e-01 
 6.30000000e-01  3.40486880e-09  3.40023763e-09  3.53022015e-09  4.58977925e-01  4.58977925e-01  3.29972207e-09  4.58977925e-01  1.59673173e-07  1.34077588e-07  6.30000000e-01 
 6.40000000e-01  3.40486886e-09  3.40023763e-09  3.53022009e-09  4.58977933e-01  4.58977933e-01  3.29972213e-09  4.58977933e-01  1.59673194e-07  1.34077510e-07  6.40000000e-01 
 6.50000000e-01  3.40486886e-09  3.40023757e-09  3.53022015e-09  4.58977933e-01  4.58977933e-01  3.29972213e-09  4.58977933e-01  1.59673183e-07  1.34077439e-07  6.50000000e-01 
 6.60000000e-01  3.40486886e-09  3.40023757e-09  3.53022009e-09  4.58977939e-01  4.58977939e-01  3.29972207e-09  4.58977939e-01  1.59673188e-07  1.34077368e-07  6.60000000e-01 
 6.70000000e-01  3.40486886e-09  3.40023757e-09  3.53022015e-09  4.58977910e-01  4.58977910e-01  3.29972207e-09  4.58977910e-01  1.59673155e-07  1.34077141e-07  6.70000000e-01 
 6.80000000e-01  3.40486880e-09  3.40023763e-09  3.53022015e-09  4.58977904e-01  4.58977904e-01  3.29972213e-09  4.58977904e-01  1.59673140e-07  1.34077119e-07  6.80000000e-01 
 6.90000000e-01  3.40486880e-09  3.40023757e-09  3.53022009e-09  4.58977942e-01  4.58977942e-01  3.29972213e-09  4.58977942e-01  1.59673201e-07  1.34077197e-07  6.90000000e-01 
 7.00000000e-01  3.40486880e-09  3.40023763e-09  3.53022015e-09  4.58977918e-01  4.58977918e-01  3.29972213e-09  4.58977918e-01  1.59673169e-07  1.34076927e-07  7.00000000e-01 
 7.10000000e-01  3.40486880e-09  3.40023757e-09  3.53022009e-09  4.58977915e-01  4.58977915e-01  3.29972207e-09  4.58977915e-01  1.59673159e-07  1.34076764e-07  7.10000000e-01 
 7.20000000e-01  3.40486886e-09  3.40023757e-09  3.53022009e-09  4.58977941e-01  4.58977941e-01  3.29972213e-09  4.58977941e-01  1.59673214e-07  1.34076878e-07  7.20000000e-01 
 7.30000000e-01  3.40486885e-09  3.40023757e-09  3.53022015e-09  4.58977904e-01  4.58977904e-01  3.29972207e-09  4.58977904e-01  1.59673146e-07  1.34076586e-07  7.30000000e-01 
 7.40000000e-01  3.40486880e-09  3.40023757e-09  3.53022015e-09  4.58977907e-01  4.58977907e-01  3.29972207e-09  4.58977907e-01  1.59673134e-07  1.34076586e-07  7.40000000e-01 
 7.50000000e-01  3.40486880e-09  3.40023763e-09  3.53022009e-09  4.58977912e-01  4.58977912e-01  3.29972207e-09  4.58977912e-01  1.59673153e-07  1.34076501e-07  7.50000000e-01 
 7.60000000e-01  3.40486886e-09  3.40023763e-09  3.53022015e-09  4.58977931e-01  4.58977931e-01  3.29972207e-09  4.58977931e-01  1.59673189e-07  1.34076409e-07  7.60000000e-01 
 7.70000000e-01  3.40486886e-09  3.40023757e-09  3.53022009e-09  4.58977925e-01  4.58977925e-01  3.29972207e-09  4.58977925e-01  1.59673170e-07  1.34076316e-07  7.70000000e-01 
 7.80000000e-01  3.40486880e-09  3.40023757e-09  3.53022009e-09  4.58977917e-01  4.58977917e-01  3.29972213e-09  4.58977917e-01  1.59673172e-07  1.34076359e-07  7.80000000e-01 
 7.90000000e-01  3.40486880e-09  3.40023757e-09  3.53022015e-09  4.58977934e-01  4.58977934e-01  3.29972213e-09  4.58977934e-01  1.59673195e-07  1.34076195e-07  7.90000000e-01 
 8.00000000e-01  3.40486880e-09  3.40023763e-09  3.53022015e-09  4.58977935e-01  4.58977935e-01  3.29972207e-09  4.58977935e-01  1.59673180e-07  1.34076124e-07  8.00000000e-01 
 8.10000000e-01  3.40486886e-09  3.40023763e-09  3.53022009e-09  4.58977925e-01  4.58977925e-01  3.29972213e-09  4.58977925e-01  1.59673179e-07  1.34075918e-07  8.10000000e-01 
 8.20000000e-01  3.40486880e-09  3.40023757e-09  3.53022009e-09  4.58977931e-01  4.58977931e-01  3.29972213e-09  4.58977931e-01  1.59673173e-07  1.34075897e-07  8.20000000e-01 
 8.30000000e-01  3.40486880e-09  3.40023757e-09  3.53022009e-09  4.58977925e-01  4.58977925e-01  3.29972213e-09  4.58977925e-01  1.59673184e-07  1.34075719e-07  8.30000000e-01 
 8.40000000e-01  3.40486880e-09  3.40023757e-09  3.53022015e-09  4.58977906e-01  4.58977906e-01  3.29972207e-09  4.58977906e-01  1.59673163e-07  1.34075719e-07  8.40000000e-01 
 8.50000000e-01  3.40486886e-09  3.40023757e-09  3.53022015e-09  4.58977920e-01  4.58977920e-01  3.29972207e-09  4.58977920e-01  1.59673172e-07  1.34075528e-07  8.50000000e-01 
 8.60000000e-01  3.40486880e-09  3.40023757e-09  3.53022009e-09  4.58977910e-01  4.58977910e-01  3.29972213e-09  4.58977910e-01  1.59673144e-07  1.34075485e-07  8.60000000e-01 
 8.70000000e-01  3.40486880e-09  3.40023757e-09  3.53022009e-09  4.58977938e-01  4.58977938e-01  3.29972213e-09  4.58977938e-01  1.59673186e-07  1.34075506e-07  8.70000000e-01 
 8.80000000e-01  3.40486886e-09  3.40023757e-09  3.53022015e-09  4.58977923e-01  4.58977923e-01  3.29972207e-09  4.58977923e-01  1.59673169e-07  1.34075250e-07  8.80000000e-01 
 8.90000000e-01  3.40486880e-09  3.40023763e-09  3.53022009e-09  4.58977942e-01  4.58977942e-01  3.29972213e-09  4.58977942e-01  1.59673202e-07  1.34075336e-07  8.90000000e-01 
 9.00000000e-01  3.40486885e-09  3.40023757e-09  3.53022009e-09  4.58977905e-01  4.58977905e-01  3.29972213e-09  4.58977905e-01  1.59673160e-07  1.34075037e-07  9.00000000e-01 
 9.10000000e-01  3.40486886e-09  3.40023763e-09  3.53022009e-09  4.58977920e-01  4.58977920e-01  3.29972207e-09  4.58977920e-01  1.59673156e-07  1.34074980e-07  9.10000000e-01 
 9.20000000e-01  3.40486886e-09  3.40023757e-09  3.53022009e-09  4.58977914e-01  4.58977914e-01  3.29972213e-09  4.58977914e-01  1.59673169e-07  1.34074931e-07  9.20000000e-01 
 9.30000000e-01  3.40486886e-09  3.40023763e-09  3.53022015e-09  4.58977924e-01  4.58977924e-01  3.29972213e-09  4.58977924e-01  1.59673173e-07  1.34074845e-07  9.30000000e-01 
 9.40000000e-01  3.40486886e-09  3.40023757e-09  3.53022009e-09  4.58977914e-01  4.58977914e-01  3.29972207e-09  4.58977914e-01  1.59673154e-07  1.34074689e-07  9.40000000e-01 
 9.50000000e-01  3.40486886e-09  3.40023758e-09  3.53022010e-09  4.58977963e-01  4.58977963e-01  3.29972213e-09  4.58977963e-01  1.59673225e-07  1.34074796e-07  9.50000000e-01 
 9.60000000e-01  3.40486886e-09  3.40023757e-09  3.53022015e-09  4.58977934e-01  4.58977934e-01  3.29972213e-09  4.58977933e-01  1.59673184e-07  1.34074462e-07  9.60000000e-01 
 9.70000000e-01  3.40486885e-09  3.40023757e-09  3.53022009e-09  4.58977901e-01  4.58977901e-01  3.29972207e-09  4.58977901e-01  1.59673144e-07  1.34074376e-07  9.70000000e-01 
 9.80000000e-01  3.40486880e-09  3.40023763e-09  3.53022009e-09  4.58977917e-01  4.58977917e-01  3.29972207e-09  4.58977917e-01  1.59673161e-07  1.34074284e-07  9.80000000e-01 
 9.90000000e-01  3.40486885e-09  3.40023757e-09  3.53022009e-09  4.58977899e-01  4.58977899e-01  3.29972213e-09  4.58977899e-01  1.59673134e-07  1.34074114e-07  9.90000000e-01 
 1.00000000e+00  3.40486886e-09  3.40023757e-09  3.53022015e-09  4.58977922e-01  4.58977922e-01  3.29972207e-09  4.58977922e-01  1.59673171e-07  1.34073979e-07  1.00000000e+00 
 1.01000000e+00  3.40486886e-09  3.40023757e-09  3.53022009e-09  4.58977921e-01  4.58977921e-01  3.29972207e-09  4.58977921e-01  1.59673173e-07  1.34073943e-07  1.01000000e+00 
 1.02000000e+00  3.40486886e-09  3.40023763e-09  3.53022009e-09  4.58977940e-01  4.58977940e-01  3.29972207e-09  4.58977940e-01  1.59673199e-07  1.34073915e-07  1.02000000e+00 
 1.03000000e+00  3.40486886e-09  3.40023757e-09  3.53022015e-09  4.58977926e-01  4.58977926e-01  3.29972207e-09  4.58977926e-01  1.59673168e-07  1.34073701e-07  1.03000000e+00 
 1.04000000e+00  3.40486886e-09  3.40023757e-09  3.53022015e-09  4.58977927e-01  4.58977927e-01  3.29972213e-09  4.58977927e-01  1.59673187e-07  1.34073680e-07  1.04000000e+00 
 1.05000000e+00  3.40486880e-09  3.40023758e-09  3.53022010e-09  4.58977951e-01  4.58977951e-01  3.29972213e-09  4.58977951e-01  1.59673220e-07  1.34073595e-07  1.05000000e+00 
 1.06000000e+00  3.40486880e-09  3.40023763e-09  3.53022010e-09  4.58977954e-01  4.58977954e-01  3.29972213e-09  4.58977954e-01  1.59673235e-07  1.34073638e-07  1.06000000e+00 
 1.07000000e+00  3.40486886e-09  3.40023757e-09  3.53022009e-09  4.58977911e-01  4.58977911e-01  3.29972207e-09  4.58977911e-01  1.59673143e-07  1.34073289e-07  1.07000000e+00 
 1.08000000e+00  3.40486880e-09  3.40023763e-09  3.53022009e-09  4.58977909e-01  4.58977909e-01  3.29972213e-09  4.58977909e-01  1.59673150e-07  1.34073112e-07  1.08000000e+00 
 1.09000000e+00  3.40486886e-09  3.40023763e-09  3.53022009e-09  4.58977936e-01  4.58977936e-01  3.29972213e-09  4.58977936e-01  1.59673206e-07  1.34073090e-07  1.09000000e+00 
 1.10000000e+00  3.40486886e-09  3.40023757e-09  3.53022009e-09  4.58977920e-01  4.58977920e-01  3.29972207e-09  4.58977920e-01  1.59673167e-07  1.34073019e-07  1.10000000e+00 
