 v-sweep         v(b0)           v(b1)           v(b2)           v(b3)           v(b4)           v(b5)           v(b6)           i(vbias)        i(viout)        v(vout)        
 0.00000000e+00  4.56150580e-01  4.56150580e-01  3.61600323e-09  4.56150580e-01  3.23226492e-09  3.66879544e-09  3.21878804e-09  1.54507614e-07  1.55854837e-08  0.00000000e+00 
 1.00000000e-02  4.56150579e-01  4.56150579e-01  3.61600322e-09  4.56150579e-01  3.23226496e-09  3.66879537e-09  3.21878796e-09  1.54507598e-07  1.55851523e-08  1.00000000e-02 
 2.00000000e-02  4.56150598e-01  4.56150598e-01  3.61600322e-09  4.56150598e-01  3.23226495e-09  3.66879543e-09  3.21878802e-09  1.54507638e-07  1.55846496e-08  2.00000000e-02 
 3.00000000e-02  4.56150596e-01  4.56150596e-01  3.61600322e-09  4.56150596e-01  3.23226495e-09  3.66879543e-09  3.21878802e-09  1.54507639e-07  1.55843785e-08  3.00000000e-02 
 4.00000000e-02  4.56150592e-01  4.56150591e-01  3.61600322e-09  4.56150592e-01  3.23226495e-09  3.66879543e-09  3.21878796e-09  1.54507631e-07  1.55841762e-08  4.00000000e-02 
 5.00000000e-02  4.56150612e-01  4.56150612e-01  3.61600323e-09  4.56150612e-01  3.23226495e-09  3.66879537e-09  3.21878802e-09  1.54507671e-07  1.55836983e-08  5.00000000e-02 
 6.00000000e-02  4.56150610e-01  4.56150610e-01  3.61600328e-09  4.56150610e-01  3.23226495e-09  3.66879543e-09  3.21878802e-09  1.54507642e-07  1.55834443e-08  6.00000000e-02 
 7.00000000e-02  4.56150572e-01  4.56150572e-01  3.61600321e-09  4.56150572e-01  3.23226495e-09  3.66879537e-09  3.21878802e-09  1.54507604e-07  1.55830637e-08  7.00000000e-02 
 8.00000000e-02  4.56150585e-01  4.56150585e-01  3.61600323e-09  4.56150585e-01  3.23226495e-09  3.66879542e-09  3.21878796e-09  1.54507614e-07  1.55827973e-08  8.00000000e-02 
 9.00000000e-02  4.56150585e-01  4.56150585e-01  3.61600322e-09  4.56150585e-01  3.23226495e-09  3.66879537e-09  3.21878796e-09  1.54507629e-07  1.55825903e-08  9.00000000e-02 
 1.00000000e-01  4.56150587e-01  4.56150587e-01  3.61600322e-09  4.56150587e-01  3.23226495e-09  3.66879537e-09  3.21878796e-09  1.54507629e-07  1.55822599e-08  1.00000000e-01 
 1.10000000e-01  4.56150582e-01  4.56150582e-01  3.61600322e-09  4.56150582e-01  3.23226495e-09  3.66879537e-09  3.21878796e-09  1.54507624e-07  1.55820814e-08  1.10000000e-01 
 1.20000000e-01  4.56150571e-01  4.56150571e-01  3.61600328e-09  4.56150571e-01  3.23226495e-09  3.66879537e-09  3.21878802e-09  1.54507590e-07  1.55817439e-08  1.20000000e-01 
 1.30000000e-01  4.56150588e-01  4.56150588e-01  3.61600327e-09  4.56150588e-01  3.23226495e-09  3.66879537e-09  3.21878802e-09  1.54507622e-07  1.55815334e-08  1.30000000e-01 
 1.40000000e-01  4.56150572e-01  4.56150572e-01  3.61600321e-09  4.56150572e-01  3.23226495e-09  3.66879537e-09  3.21878796e-09  1.54507602e-07  1.55814890e-08  1.40000000e-01 
 1.50000000e-01  4.56150605e-01  4.56150605e-01  3.61600329e-09  4.56150605e-01  3.23226495e-09  3.66879537e-09  3.21878796e-09  1.54507644e-07  1.55812447e-08  1.50000000e-01 
 1.60000000e-01  4.56150598e-01  4.56150597e-01  3.61600321e-09  4.56150598e-01  3.23226495e-09  3.66879537e-09  3.21878796e-09  1.54507647e-07  1.55810724e-08  1.60000000e-01 
 1.70000000e-01  4.56150603e-01  4.56150603e-01  3.61600329e-09  4.56150603e-01  3.23226495e-09  3.66879543e-09  3.21878796e-09  1.54507650e-07  1.55809143e-08  1.70000000e-01 
 1.80000000e-01  4.56150592e-01  4.56150592e-01  3.61600327e-09  4.56150592e-01  3.23226495e-09  3.66879543e-09  3.21878802e-09  1.54507619e-07  1.55807101e-08  1.80000000e-01 
 1.90000000e-01  4.56150597e-01  4.56150597e-01  3.61600327e-09  4.56150597e-01  3.23226495e-09  3.66879543e-09  3.21878802e-09  1.54507634e-07  1.55805093e-08  1.90000000e-01 
 2.00000000e-01  4.56150588e-01  4.56150588e-01  3.61600322e-09  4.56150588e-01  3.23226495e-09  3.66879537e-09  3.21878802e-09  1.54507627e-07  1.55804187e-08  2.00000000e-01 
 2.10000000e-01  4.56150567e-01  4.56150567e-01  3.61600328e-09  4.56150567e-01  3.23226495e-09  3.66879542e-09  3.21878802e-09  1.54507593e-07  1.55802056e-08  2.10000000e-01 
 2.20000000e-01  4.56150584e-01  4.56150584e-01  3.61600321e-09  4.56150584e-01  3.23226495e-09  3.66879542e-09  3.21878802e-09  1.54507613e-07  1.55800510e-08  2.20000000e-01 
 2.30000000e-01  4.56150587e-01  4.56150587e-01  3.61600323e-09  4.56150587e-01  3.23226495e-09  3.66879537e-09  3.21878796e-09  1.54507630e-07  1.55800066e-08  2.30000000e-01 
 2.40000000e-01  4.56150565e-01  4.56150565e-01  3.61600328e-09  4.56150565e-01  3.23226495e-09  3.66879542e-09  3.21878802e-09  1.54507595e-07  1.55799338e-08  2.40000000e-01 
 2.50000000e-01  4.56150594e-01  4.56150594e-01  3.61600321e-09  4.56150594e-01  3.23226495e-09  3.66879537e-09  3.21878796e-09  1.54507632e-07  1.55797366e-08  2.50000000e-01 
 2.60000000e-01  4.56150583e-01  4.56150583e-01  3.61600323e-09  4.56150583e-01  3.23226495e-09  3.66879537e-09  3.21878796e-09  1.54507611e-07  1.55795270e-08  2.60000000e-01 
 2.70000000e-01  4.56150599e-01  4.56150599e-01  3.61600322e-09  4.56150599e-01  3.23226495e-09  3.66879543e-09  3.21878796e-09  1.54507636e-07  1.55794204e-08  2.70000000e-01 
 2.80000000e-01  4.56150576e-01  4.56150575e-01  3.61600322e-09  4.56150576e-01  3.23226495e-09  3.66879542e-09  3.21878802e-09  1.54507599e-07  1.55793405e-08  2.80000000e-01 
 2.90000000e-01  4.56150594e-01  4.56150594e-01  3.61600322e-09  4.56150594e-01  3.23226495e-09  3.66879543e-09  3.21878802e-09  1.54507639e-07  1.55793032e-08  2.90000000e-01 
 3.00000000e-01  4.56150591e-01  4.56150591e-01  3.61600322e-09  4.56150591e-01  3.23226495e-09  3.66879543e-09  3.21878802e-09  1.54507636e-07  1.55791930e-08  3.00000000e-01 
 3.10000000e-01  4.56150578e-01  4.56150578e-01  3.61600322e-09  4.56150578e-01  3.23226495e-09  3.66879542e-09  3.21878802e-09  1.54507599e-07  1.55790758e-08  3.10000000e-01 
 3.20000000e-01  4.56150613e-01  4.56150612e-01  3.61600323e-09  4.56150612e-01  3.23226495e-09  3.66879537e-09  3.21878796e-09  1.54507670e-07  1.55789763e-08  3.20000000e-01 
 3.30000000e-01  4.56150576e-01  4.56150576e-01  3.61600322e-09  4.56150576e-01  3.23226495e-09  3.66879542e-09  3.21878802e-09  1.54507618e-07  1.55788342e-08  3.30000000e-01 
 3.40000000e-01  4.56150591e-01  4.56150591e-01  3.61600328e-09  4.56150591e-01  3.23226495e-09  3.66879537e-09  3.21878796e-09  1.54507633e-07  1.55787525e-08  3.40000000e-01 
 3.50000000e-01  4.56150595e-01  4.56150595e-01  3.61600327e-09  4.56150595e-01  3.23226495e-09  3.66879543e-09  3.21878796e-09  1.54507637e-07  1.55787916e-08  3.50000000e-01 
 3.60000000e-01  4.56150593e-01  4.56150593e-01  3.61600327e-09  4.56150593e-01  3.23226495e-09  3.66879543e-09  3.21878796e-09  1.54507637e-07  1.55786068e-08  3.60000000e-01 
 3.70000000e-01  4.56150584e-01  4.56150584e-01  3.61600321e-09  4.56150584e-01  3.23226495e-09  3.66879542e-09  3.21878796e-09  1.54507611e-07  1.55786388e-08  3.70000000e-01 
 3.80000000e-01  4.56150601e-01  4.56150601e-01  3.61600323e-09  4.56150601e-01  3.23226495e-09  3.66879543e-09  3.21878796e-09  1.54507638e-07  1.55785500e-08  3.80000000e-01 
 3.90000000e-01  4.56150578e-01  4.56150578e-01  3.61600322e-09  4.56150578e-01  3.23226495e-09  3.66879542e-09  3.21878796e-09  1.54507604e-07  1.55784790e-08  3.90000000e-01 
 4.00000000e-01  4.56150576e-01  4.56150576e-01  3.61600322e-09  4.56150576e-01  3.23226495e-09  3.66879542e-09  3.21878802e-09  1.54507609e-07  1.55784434e-08  4.00000000e-01 
 4.10000000e-01  4.56150579e-01  4.56150579e-01  3.61600322e-09  4.56150579e-01  3.23226495e-09  3.66879537e-09  3.21878802e-09  1.54507611e-07  1.55784399e-08  4.10000000e-01 
 4.20000000e-01  4.56150574e-01  4.56150574e-01  3.61600328e-09  4.56150574e-01  3.23226495e-09  3.66879537e-09  3.21878802e-09  1.54507605e-07  1.55781699e-08  4.20000000e-01 
 4.30000000e-01  4.56150584e-01  4.56150584e-01  3.61600327e-09  4.56150584e-01  3.23226495e-09  3.66879537e-09  3.21878796e-09  1.54507620e-07  1.55781628e-08  4.30000000e-01 
 4.40000000e-01  4.56150591e-01  4.56150591e-01  3.61600322e-09  4.56150591e-01  3.23226495e-09  3.66879543e-09  3.21878802e-09  1.54507629e-07  1.55780029e-08  4.40000000e-01 
 4.50000000e-01  4.56150596e-01  4.56150596e-01  3.61600329e-09  4.56150596e-01  3.23226495e-09  3.66879537e-09  3.21878802e-09  1.54507626e-07  1.55781024e-08  4.50000000e-01 
 4.60000000e-01  4.56150581e-01  4.56150580e-01  3.61600321e-09  4.56150580e-01  3.23226495e-09  3.66879537e-09  3.21878802e-09  1.54507601e-07  1.55779638e-08  4.60000000e-01 
 4.70000000e-01  4.56150601e-01  4.56150601e-01  3.61600329e-09  4.56150601e-01  3.23226495e-09  3.66879543e-09  3.21878796e-09  1.54507641e-07  1.55778643e-08  4.70000000e-01 
 4.80000000e-01  4.56150596e-01  4.56150596e-01  3.61600327e-09  4.56150596e-01  3.23226495e-09  3.66879543e-09  3.21878796e-09  1.54507637e-07  1.55778324e-08  4.80000000e-01 
 4.90000000e-01  4.56150577e-01  4.56150577e-01  3.61600321e-09  4.56150577e-01  3.23226501e-09  3.66879537e-09  3.21878802e-09  1.54507614e-07  1.55777933e-08  4.90000000e-01 
 5.00000000e-01  4.56150608e-01  4.56150608e-01  3.61600323e-09  4.56150608e-01  3.23226495e-09  3.66879537e-09  3.21878802e-09  1.54507648e-07  1.55777045e-08  5.00000000e-01 
 5.10000000e-01  4.56150588e-01  4.56150587e-01  3.61600322e-09  4.56150587e-01  3.23226495e-09  3.66879537e-09  3.21878802e-09  1.54507653e-07  1.55776441e-08  5.10000000e-01 
 5.20000000e-01  4.56150589e-01  4.56150588e-01  3.61600328e-09  4.56150589e-01  3.23226495e-09  3.66879543e-09  3.21878802e-09  1.54507637e-07  1.55776654e-08  5.20000000e-01 
 5.30000000e-01  4.56150579e-01  4.56150579e-01  3.61600321e-09  4.56150579e-01  3.23226495e-09  3.66879537e-09  3.21878802e-09  1.54507609e-07  1.55776050e-08  5.30000000e-01 
 5.40000000e-01  4.56150580e-01  4.56150580e-01  3.61600323e-09  4.56150580e-01  3.23226495e-09  3.66879537e-09  3.21878796e-09  1.54507618e-07  1.55774238e-08  5.40000000e-01 
 5.50000000e-01  4.56150574e-01  4.56150574e-01  3.61600322e-09  4.56150574e-01  3.23226495e-09  3.66879537e-09  3.21878802e-09  1.54507612e-07  1.55774025e-08  5.50000000e-01 
 5.60000000e-01  4.56150598e-01  4.56150598e-01  3.61600322e-09  4.56150598e-01  3.23226495e-09  3.66879543e-09  3.21878796e-09  1.54507639e-07  1.55774558e-08  5.60000000e-01 
 5.70000000e-01  4.56150582e-01  4.56150582e-01  3.61600328e-09  4.56150582e-01  3.23226495e-09  3.66879537e-09  3.21878802e-09  1.54507635e-07  1.55773172e-08  5.70000000e-01 
 5.80000000e-01  4.56150591e-01  4.56150591e-01  3.61600327e-09  4.56150591e-01  3.23226495e-09  3.66879543e-09  3.21878802e-09  1.54507629e-07  1.55773492e-08  5.80000000e-01 
 5.90000000e-01  4.56150578e-01  4.56150578e-01  3.61600327e-09  4.56150578e-01  3.23226495e-09  3.66879537e-09  3.21878796e-09  1.54507608e-07  1.55772497e-08  5.90000000e-01 
 6.00000000e-01  4.56150596e-01  4.56150596e-01  3.61600322e-09  4.56150596e-01  3.23226495e-09  3.66879543e-09  3.21878796e-09  1.54507638e-07  1.55772284e-08  6.00000000e-01 
 6.10000000e-01  4.56150597e-01  4.56150597e-01  3.61600323e-09  4.56150597e-01  3.23226495e-09  3.66879543e-09  3.21878796e-09  1.54507640e-07  1.55772213e-08  6.10000000e-01 
 6.20000000e-01  4.56150583e-01  4.56150583e-01  3.61600322e-09  4.56150583e-01  3.23226495e-09  3.66879537e-09  3.21878802e-09  1.54507629e-07  1.55770721e-08  6.20000000e-01 
 6.30000000e-01  4.56150571e-01  4.56150571e-01  3.61600322e-09  4.56150571e-01  3.23226495e-09  3.66879537e-09  3.21878796e-09  1.54507609e-07  1.55770294e-08  6.30000000e-01 
 6.40000000e-01  4.56150586e-01  4.56150585e-01  3.61600328e-09  4.56150586e-01  3.23226495e-09  3.66879542e-09  3.21878796e-09  1.54507603e-07  1.55769442e-08  6.40000000e-01 
 6.50000000e-01  4.56150593e-01  4.56150593e-01  3.61600327e-09  4.56150593e-01  3.23226495e-09  3.66879537e-09  3.21878802e-09  1.54507635e-07  1.55768447e-08  6.50000000e-01 
 6.60000000e-01  4.56150592e-01  4.56150592e-01  3.61600322e-09  4.56150592e-01  3.23226495e-09  3.66879537e-09  3.21878796e-09  1.54507639e-07  1.55768944e-08  6.60000000e-01 
 6.70000000e-01  4.56150596e-01  4.56150595e-01  3.61600323e-09  4.56150596e-01  3.23226495e-09  3.66879543e-09  3.21878796e-09  1.54507639e-07  1.55768376e-08  6.70000000e-01 
 6.80000000e-01  4.56150586e-01  4.56150586e-01  3.61600322e-09  4.56150586e-01  3.23226495e-09  3.66879542e-09  3.21878802e-09  1.54507615e-07  1.55769300e-08  6.80000000e-01 
 6.90000000e-01  4.56150597e-01  4.56150596e-01  3.61600328e-09  4.56150597e-01  3.23226495e-09  3.66879537e-09  3.21878802e-09  1.54507639e-07  1.55766813e-08  6.90000000e-01 
 7.00000000e-01  4.56150596e-01  4.56150596e-01  3.61600327e-09  4.56150596e-01  3.23226495e-09  3.66879543e-09  3.21878802e-09  1.54507627e-07  1.55766884e-08  7.00000000e-01 
 7.10000000e-01  4.56150600e-01  4.56150600e-01  3.61600322e-09  4.56150600e-01  3.23226495e-09  3.66879537e-09  3.21878796e-09  1.54507633e-07  1.55765960e-08  7.10000000e-01 
 7.20000000e-01  4.56150576e-01  4.56150576e-01  3.61600323e-09  4.56150576e-01  3.23226495e-09  3.66879537e-09  3.21878802e-09  1.54507614e-07  1.55765463e-08  7.20000000e-01 
 7.30000000e-01  4.56150596e-01  4.56150595e-01  3.61600322e-09  4.56150595e-01  3.23226495e-09  3.66879537e-09  3.21878802e-09  1.54507633e-07  1.55765747e-08  7.30000000e-01 
 7.40000000e-01  4.56150582e-01  4.56150582e-01  3.61600322e-09  4.56150582e-01  3.23226495e-09  3.66879542e-09  3.21878802e-09  1.54507627e-07  1.55764752e-08  7.40000000e-01 
 7.50000000e-01  4.56150588e-01  4.56150588e-01  3.61600322e-09  4.56150588e-01  3.23226495e-09  3.66879537e-09  3.21878796e-09  1.54507622e-07  1.55764255e-08  7.50000000e-01 
 7.60000000e-01  4.56150599e-01  4.56150599e-01  3.61600322e-09  4.56150599e-01  3.23226495e-09  3.66879537e-09  3.21878802e-09  1.54507642e-07  1.55765036e-08  7.60000000e-01 
 7.70000000e-01  4.56150588e-01  4.56150588e-01  3.61600322e-09  4.56150588e-01  3.23226495e-09  3.66879543e-09  3.21878802e-09  1.54507615e-07  1.55763402e-08  7.70000000e-01 
 7.80000000e-01  4.56150591e-01  4.56150590e-01  3.61600322e-09  4.56150590e-01  3.23226495e-09  3.66879537e-09  3.21878802e-09  1.54507642e-07  1.55762905e-08  7.80000000e-01 
 7.90000000e-01  4.56150575e-01  4.56150575e-01  3.61600322e-09  4.56150575e-01  3.23226495e-09  3.66879542e-09  3.21878802e-09  1.54507599e-07  1.55762692e-08  7.90000000e-01 
 8.00000000e-01  4.56150601e-01  4.56150601e-01  3.61600322e-09  4.56150601e-01  3.23226495e-09  3.66879543e-09  3.21878796e-09  1.54507641e-07  1.55760915e-08  8.00000000e-01 
 8.10000000e-01  4.56150560e-01  4.56150560e-01  3.61600327e-09  4.56150560e-01  3.23226495e-09  3.66879536e-09  3.21878796e-09  1.54507592e-07  1.55761697e-08  8.10000000e-01 
 8.20000000e-01  4.56150603e-01  4.56150603e-01  3.61600327e-09  4.56150603e-01  3.23226495e-09  3.66879537e-09  3.21878802e-09  1.54507645e-07  1.55761128e-08  8.20000000e-01 
 8.30000000e-01  4.56150595e-01  4.56150595e-01  3.61600322e-09  4.56150595e-01  3.23226495e-09  3.66879543e-09  3.21878802e-09  1.54507637e-07  1.55760844e-08  8.30000000e-01 
 8.40000000e-01  4.56150585e-01  4.56150585e-01  3.61600328e-09  4.56150585e-01  3.23226495e-09  3.66879542e-09  3.21878796e-09  1.54507632e-07  1.55760915e-08  8.40000000e-01 
 8.50000000e-01  4.56150588e-01  4.56150588e-01  3.61600321e-09  4.56150588e-01  3.23226495e-09  3.66879537e-09  3.21878802e-09  1.54507625e-07  1.55759352e-08  8.50000000e-01 
 8.60000000e-01  4.56150584e-01  4.56150584e-01  3.61600323e-09  4.56150584e-01  3.23226495e-09  3.66879537e-09  3.21878802e-09  1.54507607e-07  1.55758642e-08  8.60000000e-01 
 8.70000000e-01  4.56150594e-01  4.56150594e-01  3.61600322e-09  4.56150594e-01  3.23226495e-09  3.66879537e-09  3.21878802e-09  1.54507633e-07  1.55759210e-08  8.70000000e-01 
 8.80000000e-01  4.56150591e-01  4.56150590e-01  3.61600328e-09  4.56150591e-01  3.23226495e-09  3.66879537e-09  3.21878796e-09  1.54507622e-07  1.55757505e-08  8.80000000e-01 
 8.90000000e-01  4.56150585e-01  4.56150585e-01  3.61600327e-09  4.56150585e-01  3.23226495e-09  3.66879542e-09  3.21878802e-09  1.54507621e-07  1.55758642e-08  8.90000000e-01 
 9.00000000e-01  4.56150577e-01  4.56150577e-01  3.61600321e-09  4.56150577e-01  3.23226495e-09  3.66879537e-09  3.21878796e-09  1.54507596e-07  1.55756510e-08  9.00000000e-01 
 9.10000000e-01  4.56150591e-01  4.56150590e-01  3.61600329e-09  4.56150591e-01  3.23226495e-09  3.66879537e-09  3.21878796e-09  1.54507627e-07  1.55757505e-08  9.10000000e-01 
 9.20000000e-01  4.56150579e-01  4.56150578e-01  3.61600327e-09  4.56150579e-01  3.23226495e-09  3.66879542e-09  3.21878802e-09  1.54507615e-07  1.55756297e-08  9.20000000e-01 
 9.30000000e-01  4.56150601e-01  4.56150600e-01  3.61600327e-09  4.56150601e-01  3.23226495e-09  3.66879537e-09  3.21878796e-09  1.54507632e-07  1.55756155e-08  9.30000000e-01 
 9.40000000e-01  4.56150586e-01  4.56150585e-01  3.61600327e-09  4.56150585e-01  3.23226495e-09  3.66879537e-09  3.21878802e-09  1.54507613e-07  1.55755373e-08  9.40000000e-01 
 9.50000000e-01  4.56150592e-01  4.56150592e-01  3.61600327e-09  4.56150592e-01  3.23226495e-09  3.66879543e-09  3.21878796e-09  1.54507642e-07  1.55754449e-08  9.50000000e-01 
 9.60000000e-01  4.56150580e-01  4.56150580e-01  3.61600327e-09  4.56150580e-01  3.23226495e-09  3.66879537e-09  3.21878802e-09  1.54507632e-07  1.55753881e-08  9.60000000e-01 
 9.70000000e-01  4.56150577e-01  4.56150577e-01  3.61600327e-09  4.56150577e-01  3.23226495e-09  3.66879537e-09  3.21878802e-09  1.54507610e-07  1.55753099e-08  9.70000000e-01 
 9.80000000e-01  4.56150591e-01  4.56150591e-01  3.61600322e-09  4.56150591e-01  3.23226495e-09  3.66879543e-09  3.21878796e-09  1.54507637e-07  1.55752815e-08  9.80000000e-01 
 9.90000000e-01  4.56150578e-01  4.56150578e-01  3.61600323e-09  4.56150578e-01  3.23226495e-09  3.66879542e-09  3.21878802e-09  1.54507612e-07  1.55751962e-08  9.90000000e-01 
 1.00000000e+00  4.56150622e-01  4.56150622e-01  3.61600328e-09  4.56150622e-01  3.23226496e-09  3.66879543e-09  3.21878796e-09  1.54507670e-07  1.55752815e-08  1.00000000e+00 
 1.01000000e+00  4.56150597e-01  4.56150597e-01  3.61600327e-09  4.56150597e-01  3.23226495e-09  3.66879537e-09  3.21878796e-09  1.54507645e-07  1.55751394e-08  1.01000000e+00 
 1.02000000e+00  4.56150596e-01  4.56150596e-01  3.61600327e-09  4.56150596e-01  3.23226495e-09  3.66879543e-09  3.21878802e-09  1.54507626e-07  1.55751181e-08  1.02000000e+00 
 1.03000000e+00  4.56150604e-01  4.56150604e-01  3.61600328e-09  4.56150604e-01  3.23226495e-09  3.66879543e-09  3.21878802e-09  1.54507645e-07  1.55749902e-08  1.03000000e+00 
 1.04000000e+00  4.56150582e-01  4.56150582e-01  3.61600321e-09  4.56150582e-01  3.23226495e-09  3.66879537e-09  3.21878802e-09  1.54507624e-07  1.55750826e-08  1.04000000e+00 
 1.05000000e+00  4.56150587e-01  4.56150587e-01  3.61600328e-09  4.56150587e-01  3.23226495e-09  3.66879537e-09  3.21878802e-09  1.54507616e-07  1.55749618e-08  1.05000000e+00 
 1.06000000e+00  4.56150586e-01  4.56150586e-01  3.61600327e-09  4.56150586e-01  3.23226495e-09  3.66879537e-09  3.21878796e-09  1.54507617e-07  1.55749049e-08  1.06000000e+00 
 1.07000000e+00  4.56150598e-01  4.56150598e-01  3.61600327e-09  4.56150598e-01  3.23226495e-09  3.66879537e-09  3.21878796e-09  1.54507656e-07  1.55748623e-08  1.07000000e+00 
 1.08000000e+00  4.56150588e-01  4.56150588e-01  3.61600322e-09  4.56150588e-01  3.23226495e-09  3.66879543e-09  3.21878802e-09  1.54507626e-07  1.55747273e-08  1.08000000e+00 
 1.09000000e+00  4.56150592e-01  4.56150592e-01  3.61600323e-09  4.56150592e-01  3.23226495e-09  3.66879543e-09  3.21878796e-09  1.54507618e-07  1.55747415e-08  1.09000000e+00 
 1.10000000e+00  4.56150581e-01  4.56150581e-01  3.61600322e-09  4.56150581e-01  3.23226495e-09  3.66879537e-09  3.21878796e-09  1.54507603e-07  1.55746420e-08  1.10000000e+00 
