 v-sweep         v(b0)           v(b1)           v(b2)           v(b3)           v(b4)           v(b5)           v(b6)           i(vbias)        i(viout)        v(vout)        
 0.00000000e+00  4.58577844e-01  3.45339266e-09  4.58577844e-01  4.58577843e-01  3.29639633e-09  4.58577844e-01  3.23052788e-09  1.61274543e-07  6.87952106e-08  0.00000000e+00 
 1.00000000e-02  4.58577857e-01  3.45339265e-09  4.58577857e-01  4.58577857e-01  3.29639632e-09  4.58577857e-01  3.23052786e-09  1.61274568e-07  6.87948515e-08  1.00000000e-02 
 2.00000000e-02  4.58577859e-01  3.45339271e-09  4.58577859e-01  4.58577859e-01  3.29639632e-09  4.58577859e-01  3.23052787e-09  1.61274586e-07  6.87944861e-08  2.00000000e-02 
 3.00000000e-02  4.58577843e-01  3.45339263e-09  4.58577843e-01  4.58577843e-01  3.29639637e-09  4.58577843e-01  3.23052785e-09  1.61274542e-07  6.87942385e-08  3.00000000e-02 
 4.00000000e-02  4.58577866e-01  3.45339266e-09  4.58577866e-01  4.58577866e-01  3.29639637e-09  4.58577866e-01  3.23052787e-09  1.61274593e-07  6.87937600e-08  4.00000000e-02 
 5.00000000e-02  4.58577859e-01  3.45339265e-09  4.58577859e-01  4.58577859e-01  3.29639637e-09  4.58577859e-01  3.23052785e-09  1.61274567e-07  6.87935047e-08  5.00000000e-02 
 6.00000000e-02  4.58577854e-01  3.45339265e-09  4.58577854e-01  4.58577854e-01  3.29639632e-09  4.58577854e-01  3.23052787e-09  1.61274564e-07  6.87931156e-08  6.00000000e-02 
 7.00000000e-02  4.58577872e-01  3.45339265e-09  4.58577872e-01  4.58577872e-01  3.29639632e-09  4.58577872e-01  3.23052785e-09  1.61274577e-07  6.87927209e-08  7.00000000e-02 
 8.00000000e-02  4.58577843e-01  3.45339265e-09  4.58577843e-01  4.58577843e-01  3.29639632e-09  4.58577843e-01  3.23052787e-09  1.61274542e-07  6.87925450e-08  8.00000000e-02 
 9.00000000e-02  4.58577852e-01  3.45339265e-09  4.58577852e-01  4.58577852e-01  3.29639632e-09  4.58577852e-01  3.23052785e-09  1.61274572e-07  6.87921693e-08  9.00000000e-02 
 1.00000000e-01  4.58577878e-01  3.45339265e-09  4.58577878e-01  4.58577878e-01  3.29639632e-09  4.58577878e-01  3.23052787e-09  1.61274586e-07  6.87920263e-08  1.00000000e-01 
 1.10000000e-01  4.58577866e-01  3.45339265e-09  4.58577866e-01  4.58577866e-01  3.29639637e-09  4.58577866e-01  3.23052785e-09  1.61274583e-07  6.87916906e-08  1.10000000e-01 
 1.20000000e-01  4.58577846e-01  3.45339270e-09  4.58577846e-01  4.58577846e-01  3.29639632e-09  4.58577846e-01  3.23052787e-09  1.61274554e-07  6.87914694e-08  1.20000000e-01 
 1.30000000e-01  4.58577845e-01  3.45339269e-09  4.58577845e-01  4.58577845e-01  3.29639632e-09  4.58577845e-01  3.23052791e-09  1.61274537e-07  6.87912154e-08  1.30000000e-01 
 1.40000000e-01  4.58577853e-01  3.45339264e-09  4.58577853e-01  4.58577853e-01  3.29639637e-09  4.58577853e-01  3.23052785e-09  1.61274558e-07  6.87909676e-08  1.40000000e-01 
 1.50000000e-01  4.58577862e-01  3.45339266e-09  4.58577862e-01  4.58577862e-01  3.29639637e-09  4.58577862e-01  3.23052787e-09  1.61274576e-07  6.87908361e-08  1.50000000e-01 
 1.60000000e-01  4.58577838e-01  3.45339270e-09  4.58577838e-01  4.58577838e-01  3.29639632e-09  4.58577838e-01  3.23052785e-09  1.61274545e-07  6.87905750e-08  1.60000000e-01 
 1.70000000e-01  4.58577873e-01  3.45339270e-09  4.58577873e-01  4.58577872e-01  3.29639632e-09  4.58577872e-01  3.23052787e-09  1.61274601e-07  6.87905217e-08  1.70000000e-01 
 1.80000000e-01  4.58577857e-01  3.45339270e-09  4.58577857e-01  4.58577857e-01  3.29639637e-09  4.58577857e-01  3.23052791e-09  1.61274561e-07  6.87902890e-08  1.80000000e-01 
 1.90000000e-01  4.58577851e-01  3.45339264e-09  4.58577851e-01  4.58577851e-01  3.29639632e-09  4.58577851e-01  3.23052785e-09  1.61274570e-07  6.87899817e-08  1.90000000e-01 
 2.00000000e-01  4.58577875e-01  3.45339266e-09  4.58577875e-01  4.58577875e-01  3.29639632e-09  4.58577875e-01  3.23052787e-09  1.61274603e-07  6.87898307e-08  2.00000000e-01 
 2.10000000e-01  4.58577842e-01  3.45339265e-09  4.58577842e-01  4.58577842e-01  3.29639632e-09  4.58577842e-01  3.23052785e-09  1.61274542e-07  6.87896335e-08  2.10000000e-01 
 2.20000000e-01  4.58577834e-01  3.45339264e-09  4.58577834e-01  4.58577834e-01  3.29639637e-09  4.58577834e-01  3.23052787e-09  1.61274526e-07  6.87895891e-08  2.20000000e-01 
 2.30000000e-01  4.58577856e-01  3.45339265e-09  4.58577856e-01  4.58577856e-01  3.29639632e-09  4.58577856e-01  3.23052791e-09  1.61274577e-07  6.87893795e-08  2.30000000e-01 
 2.40000000e-01  4.58577863e-01  3.45339265e-09  4.58577863e-01  4.58577863e-01  3.29639632e-09  4.58577863e-01  3.23052786e-09  1.61274594e-07  6.87892161e-08  2.40000000e-01 
 2.50000000e-01  4.58577840e-01  3.45339265e-09  4.58577840e-01  4.58577840e-01  3.29639632e-09  4.58577840e-01  3.23052787e-09  1.61274549e-07  6.87891699e-08  2.50000000e-01 
 2.60000000e-01  4.58577867e-01  3.45339265e-09  4.58577867e-01  4.58577867e-01  3.29639632e-09  4.58577867e-01  3.23052785e-09  1.61274588e-07  6.87891166e-08  2.60000000e-01 
 2.70000000e-01  4.58577860e-01  3.45339265e-09  4.58577860e-01  4.58577860e-01  3.29639632e-09  4.58577860e-01  3.23052781e-09  1.61274577e-07  6.87888200e-08  2.70000000e-01 
 2.80000000e-01  4.58577855e-01  3.45339265e-09  4.58577855e-01  4.58577855e-01  3.29639632e-09  4.58577855e-01  3.23052786e-09  1.61274572e-07  6.87888519e-08  2.80000000e-01 
 2.90000000e-01  4.58577890e-01  3.45339265e-09  4.58577890e-01  4.58577890e-01  3.29639632e-09  4.58577890e-01  3.23052786e-09  1.61274606e-07  6.87887258e-08  2.90000000e-01 
 3.00000000e-01  4.58577859e-01  3.45339265e-09  4.58577859e-01  4.58577859e-01  3.29639632e-09  4.58577859e-01  3.23052786e-09  1.61274567e-07  6.87885517e-08  3.00000000e-01 
 3.10000000e-01  4.58577850e-01  3.45339265e-09  4.58577850e-01  4.58577850e-01  3.29639637e-09  4.58577850e-01  3.23052786e-09  1.61274559e-07  6.87884274e-08  3.10000000e-01 
 3.20000000e-01  4.58577884e-01  3.45339265e-09  4.58577884e-01  4.58577884e-01  3.29639632e-09  4.58577884e-01  3.23052786e-09  1.61274615e-07  6.87883457e-08  3.20000000e-01 
 3.30000000e-01  4.58577863e-01  3.45339271e-09  4.58577863e-01  4.58577863e-01  3.29639632e-09  4.58577863e-01  3.23052786e-09  1.61274571e-07  6.87882142e-08  3.30000000e-01 
 3.40000000e-01  4.58577847e-01  3.45339263e-09  4.58577847e-01  4.58577847e-01  3.29639632e-09  4.58577847e-01  3.23052786e-09  1.61274547e-07  6.87881538e-08  3.40000000e-01 
 3.50000000e-01  4.58577848e-01  3.45339265e-09  4.58577848e-01  4.58577848e-01  3.29639632e-09  4.58577848e-01  3.23052786e-09  1.61274557e-07  6.87879975e-08  3.50000000e-01 
 3.60000000e-01  4.58577878e-01  3.45339265e-09  4.58577878e-01  4.58577878e-01  3.29639632e-09  4.58577878e-01  3.23052786e-09  1.61274596e-07  6.87879371e-08  3.60000000e-01 
 3.70000000e-01  4.58577852e-01  3.45339270e-09  4.58577852e-01  4.58577852e-01  3.29639637e-09  4.58577852e-01  3.23052786e-09  1.61274570e-07  6.87878661e-08  3.70000000e-01 
 3.80000000e-01  4.58577848e-01  3.45339269e-09  4.58577848e-01  4.58577848e-01  3.29639632e-09  4.58577848e-01  3.23052786e-09  1.61274567e-07  6.87876316e-08  3.80000000e-01 
 3.90000000e-01  4.58577860e-01  3.45339264e-09  4.58577860e-01  4.58577860e-01  3.29639632e-09  4.58577860e-01  3.23052786e-09  1.61274572e-07  6.87876849e-08  3.90000000e-01 
 4.00000000e-01  4.58577834e-01  3.45339265e-09  4.58577834e-01  4.58577834e-01  3.29639637e-09  4.58577834e-01  3.23052786e-09  1.61274534e-07  6.87875676e-08  4.00000000e-01 
 4.10000000e-01  4.58577878e-01  3.45339265e-09  4.58577878e-01  4.58577878e-01  3.29639632e-09  4.58577878e-01  3.23052786e-09  1.61274590e-07  6.87875605e-08  4.10000000e-01 
 4.20000000e-01  4.58577851e-01  3.45339265e-09  4.58577851e-01  4.58577851e-01  3.29639637e-09  4.58577851e-01  3.23052786e-09  1.61274542e-07  6.87873438e-08  4.20000000e-01 
 4.30000000e-01  4.58577845e-01  3.45339265e-09  4.58577845e-01  4.58577844e-01  3.29639632e-09  4.58577845e-01  3.23052786e-09  1.61274548e-07  6.87872195e-08  4.30000000e-01 
 4.40000000e-01  4.58577863e-01  3.45339265e-09  4.58577863e-01  4.58577863e-01  3.29639632e-09  4.58577863e-01  3.23052786e-09  1.61274576e-07  6.87872159e-08  4.40000000e-01 
 4.50000000e-01  4.58577854e-01  3.45339270e-09  4.58577854e-01  4.58577854e-01  3.29639632e-09  4.58577854e-01  3.23052786e-09  1.61274556e-07  6.87871520e-08  4.50000000e-01 
 4.60000000e-01  4.58577854e-01  3.45339264e-09  4.58577854e-01  4.58577854e-01  3.29639637e-09  4.58577854e-01  3.23052786e-09  1.61274562e-07  6.87870028e-08  4.60000000e-01 
 4.70000000e-01  4.58577860e-01  3.45339265e-09  4.58577860e-01  4.58577860e-01  3.29639637e-09  4.58577860e-01  3.23052786e-09  1.61274571e-07  6.87870454e-08  4.70000000e-01 
 4.80000000e-01  4.58577836e-01  3.45339265e-09  4.58577836e-01  4.58577836e-01  3.29639637e-09  4.58577836e-01  3.23052786e-09  1.61274545e-07  6.87869921e-08  4.80000000e-01 
 4.90000000e-01  4.58577848e-01  3.45339265e-09  4.58577848e-01  4.58577848e-01  3.29639632e-09  4.58577848e-01  3.23052786e-09  1.61274558e-07  6.87869566e-08  4.90000000e-01 
 5.00000000e-01  4.58577865e-01  3.45339265e-09  4.58577865e-01  4.58577865e-01  3.29639632e-09  4.58577865e-01  3.23052786e-09  1.61274581e-07  6.87868393e-08  5.00000000e-01 
 5.10000000e-01  4.58577865e-01  3.45339265e-09  4.58577865e-01  4.58577865e-01  3.29639632e-09  4.58577865e-01  3.23052786e-09  1.61274575e-07  6.87867470e-08  5.10000000e-01 
 5.20000000e-01  4.58577851e-01  3.45339265e-09  4.58577851e-01  4.58577851e-01  3.29639637e-09  4.58577851e-01  3.23052786e-09  1.61274567e-07  6.87867399e-08  5.20000000e-01 
 5.30000000e-01  4.58577856e-01  3.45339265e-09  4.58577856e-01  4.58577856e-01  3.29639637e-09  4.58577856e-01  3.23052786e-09  1.61274569e-07  6.87866084e-08  5.30000000e-01 
 5.40000000e-01  4.58577861e-01  3.45339271e-09  4.58577861e-01  4.58577861e-01  3.29639632e-09  4.58577861e-01  3.23052786e-09  1.61274581e-07  6.87866226e-08  5.40000000e-01 
 5.50000000e-01  4.58577845e-01  3.45339263e-09  4.58577845e-01  4.58577845e-01  3.29639632e-09  4.58577845e-01  3.23052786e-09  1.61274560e-07  6.87864485e-08  5.50000000e-01 
 5.60000000e-01  4.58577867e-01  3.45339266e-09  4.58577867e-01  4.58577867e-01  3.29639632e-09  4.58577867e-01  3.23052786e-09  1.61274595e-07  6.87863952e-08  5.60000000e-01 
 5.70000000e-01  4.58577847e-01  3.45339265e-09  4.58577847e-01  4.58577847e-01  3.29639632e-09  4.58577847e-01  3.23052786e-09  1.61274558e-07  6.87863526e-08  5.70000000e-01 
 5.80000000e-01  4.58577861e-01  3.45339271e-09  4.58577861e-01  4.58577861e-01  3.29639632e-09  4.58577861e-01  3.23052786e-09  1.61274583e-07  6.87862922e-08  5.80000000e-01 
 5.90000000e-01  4.58577859e-01  3.45339264e-09  4.58577859e-01  4.58577859e-01  3.29639637e-09  4.58577859e-01  3.23052786e-09  1.61274567e-07  6.87862212e-08  5.90000000e-01 
 6.00000000e-01  4.58577864e-01  3.45339266e-09  4.58577864e-01  4.58577864e-01  3.29639637e-09  4.58577864e-01  3.23052786e-09  1.61274574e-07  6.87861572e-08  6.00000000e-01 
 6.10000000e-01  4.58577836e-01  3.45339270e-09  4.58577836e-01  4.58577836e-01  3.29639632e-09  4.58577836e-01  3.23052786e-09  1.61274542e-07  6.87860009e-08  6.10000000e-01 
 6.20000000e-01  4.58577864e-01  3.45339264e-09  4.58577864e-01  4.58577864e-01  3.29639632e-09  4.58577864e-01  3.23052786e-09  1.61274593e-07  6.87861146e-08  6.20000000e-01 
 6.30000000e-01  4.58577849e-01  3.45339265e-09  4.58577849e-01  4.58577849e-01  3.29639637e-09  4.58577849e-01  3.23052786e-09  1.61274565e-07  6.87859583e-08  6.30000000e-01 
 6.40000000e-01  4.58577841e-01  3.45339265e-09  4.58577841e-01  4.58577841e-01  3.29639632e-09  4.58577841e-01  3.23052786e-09  1.61274547e-07  6.87859441e-08  6.40000000e-01 
 6.50000000e-01  4.58577851e-01  3.45339265e-09  4.58577851e-01  4.58577851e-01  3.29639632e-09  4.58577851e-01  3.23052786e-09  1.61274568e-07  6.87860009e-08  6.50000000e-01 
 6.60000000e-01  4.58577856e-01  3.45339265e-09  4.58577856e-01  4.58577856e-01  3.29639637e-09  4.58577856e-01  3.23052786e-09  1.61274562e-07  6.87858446e-08  6.60000000e-01 
 6.70000000e-01  4.58577881e-01  3.45339265e-09  4.58577881e-01  4.58577881e-01  3.29639632e-09  4.58577881e-01  3.23052786e-09  1.61274599e-07  6.87858375e-08  6.70000000e-01 
 6.80000000e-01  4.58577864e-01  3.45339265e-09  4.58577864e-01  4.58577864e-01  3.29639632e-09  4.58577864e-01  3.23052786e-09  1.61274571e-07  6.87857025e-08  6.80000000e-01 
 6.90000000e-01  4.58577866e-01  3.45339271e-09  4.58577866e-01  4.58577866e-01  3.29639632e-09  4.58577866e-01  3.23052786e-09  1.61274589e-07  6.87856314e-08  6.90000000e-01 
 7.00000000e-01  4.58577856e-01  3.45339264e-09  4.58577856e-01  4.58577856e-01  3.29639632e-09  4.58577856e-01  3.23052786e-09  1.61274566e-07  6.87855106e-08  7.00000000e-01 
 7.10000000e-01  4.58577859e-01  3.45339265e-09  4.58577859e-01  4.58577859e-01  3.29639637e-09  4.58577859e-01  3.23052786e-09  1.61274560e-07  6.87854964e-08  7.10000000e-01 
 7.20000000e-01  4.58577865e-01  3.45339265e-09  4.58577865e-01  4.58577865e-01  3.29639632e-09  4.58577865e-01  3.23052786e-09  1.61274576e-07  6.87853472e-08  7.20000000e-01 
 7.30000000e-01  4.58577858e-01  3.45339265e-09  4.58577858e-01  4.58577858e-01  3.29639632e-09  4.58577858e-01  3.23052786e-09  1.61274576e-07  6.87853756e-08  7.30000000e-01 
 7.40000000e-01  4.58577864e-01  3.45339265e-09  4.58577864e-01  4.58577864e-01  3.29639632e-09  4.58577864e-01  3.23052786e-09  1.61274572e-07  6.87852548e-08  7.40000000e-01 
 7.50000000e-01  4.58577855e-01  3.45339265e-09  4.58577855e-01  4.58577854e-01  3.29639632e-09  4.58577855e-01  3.23052786e-09  1.61274558e-07  6.87850772e-08  7.50000000e-01 
 7.60000000e-01  4.58577868e-01  3.45339271e-09  4.58577868e-01  4.58577868e-01  3.29639632e-09  4.58577868e-01  3.23052786e-09  1.61274591e-07  6.87851482e-08  7.60000000e-01 
 7.70000000e-01  4.58577855e-01  3.45339269e-09  4.58577855e-01  4.58577855e-01  3.29639632e-09  4.58577855e-01  3.23052786e-09  1.61274556e-07  6.87850132e-08  7.70000000e-01 
 7.80000000e-01  4.58577883e-01  3.45339265e-09  4.58577883e-01  4.58577883e-01  3.29639637e-09  4.58577883e-01  3.23052786e-09  1.61274604e-07  6.87850559e-08  7.80000000e-01 
 7.90000000e-01  4.58577843e-01  3.45339265e-09  4.58577843e-01  4.58577843e-01  3.29639632e-09  4.58577843e-01  3.23052786e-09  1.61274529e-07  6.87849564e-08  7.90000000e-01 
 8.00000000e-01  4.58577848e-01  3.45339265e-09  4.58577848e-01  4.58577848e-01  3.29639632e-09  4.58577848e-01  3.23052786e-09  1.61274553e-07  6.87848782e-08  8.00000000e-01 
 8.10000000e-01  4.58577850e-01  3.45339265e-09  4.58577850e-01  4.58577850e-01  3.29639632e-09  4.58577850e-01  3.23052786e-09  1.61274568e-07  6.87848214e-08  8.10000000e-01 
 8.20000000e-01  4.58577863e-01  3.45339265e-09  4.58577863e-01  4.58577863e-01  3.29639632e-09  4.58577863e-01  3.23052786e-09  1.61274569e-07  6.87847930e-08  8.20000000e-01 
 8.30000000e-01  4.58577882e-01  3.45339271e-09  4.58577882e-01  4.58577882e-01  3.29639632e-09  4.58577882e-01  3.23052786e-09  1.61274611e-07  6.87847361e-08  8.30000000e-01 
 8.40000000e-01  4.58577841e-01  3.45339263e-09  4.58577841e-01  4.58577841e-01  3.29639632e-09  4.58577841e-01  3.23052786e-09  1.61274545e-07  6.87846224e-08  8.40000000e-01 
 8.50000000e-01  4.58577841e-01  3.45339265e-09  4.58577841e-01  4.58577841e-01  3.29639637e-09  4.58577841e-01  3.23052786e-09  1.61274553e-07  6.87846580e-08  8.50000000e-01 
 8.60000000e-01  4.58577856e-01  3.45339270e-09  4.58577856e-01  4.58577856e-01  3.29639637e-09  4.58577856e-01  3.23052786e-09  1.61274565e-07  6.87845656e-08  8.60000000e-01 
 8.70000000e-01  4.58577844e-01  3.45339263e-09  4.58577844e-01  4.58577844e-01  3.29639632e-09  4.58577844e-01  3.23052786e-09  1.61274549e-07  6.87845159e-08  8.70000000e-01 
 8.80000000e-01  4.58577853e-01  3.45339265e-09  4.58577853e-01  4.58577853e-01  3.29639637e-09  4.58577853e-01  3.23052786e-09  1.61274556e-07  6.87843738e-08  8.80000000e-01 
 8.90000000e-01  4.58577860e-01  3.45339265e-09  4.58577860e-01  4.58577860e-01  3.29639632e-09  4.58577860e-01  3.23052786e-09  1.61274572e-07  6.87843738e-08  8.90000000e-01 
 9.00000000e-01  4.58577858e-01  3.45339265e-09  4.58577858e-01  4.58577858e-01  3.29639637e-09  4.58577858e-01  3.23052786e-09  1.61274559e-07  6.87842032e-08  9.00000000e-01 
 9.10000000e-01  4.58577856e-01  3.45339265e-09  4.58577856e-01  4.58577856e-01  3.29639632e-09  4.58577856e-01  3.23052786e-09  1.61274557e-07  6.87842032e-08  9.10000000e-01 
 9.20000000e-01  4.58577860e-01  3.45339265e-09  4.58577860e-01  4.58577860e-01  3.29639632e-09  4.58577860e-01  3.23052786e-09  1.61274567e-07  6.87840824e-08  9.20000000e-01 
 9.30000000e-01  4.58577863e-01  3.45339265e-09  4.58577863e-01  4.58577863e-01  3.29639632e-09  4.58577863e-01  3.23052786e-09  1.61274574e-07  6.87840824e-08  9.30000000e-01 
 9.40000000e-01  4.58577852e-01  3.45339265e-09  4.58577852e-01  4.58577852e-01  3.29639637e-09  4.58577852e-01  3.23052786e-09  1.61274560e-07  6.87838053e-08  9.40000000e-01 
 9.50000000e-01  4.58577861e-01  3.45339265e-09  4.58577861e-01  4.58577861e-01  3.29639632e-09  4.58577861e-01  3.23052786e-09  1.61274578e-07  6.87839545e-08  9.50000000e-01 
 9.60000000e-01  4.58577844e-01  3.45339265e-09  4.58577844e-01  4.58577844e-01  3.29639632e-09  4.58577844e-01  3.23052786e-09  1.61274545e-07  6.87837343e-08  9.60000000e-01 
 9.70000000e-01  4.58577866e-01  3.45339265e-09  4.58577866e-01  4.58577866e-01  3.29639632e-09  4.58577866e-01  3.23052786e-09  1.61274590e-07  6.87837769e-08  9.70000000e-01 
 9.80000000e-01  4.58577846e-01  3.45339270e-09  4.58577846e-01  4.58577846e-01  3.29639632e-09  4.58577846e-01  3.23052786e-09  1.61274570e-07  6.87836703e-08  9.80000000e-01 
 9.90000000e-01  4.58577866e-01  3.45339269e-09  4.58577866e-01  4.58577866e-01  3.29639632e-09  4.58577866e-01  3.23052786e-09  1.61274591e-07  6.87835779e-08  9.90000000e-01 
 1.00000000e+00  4.58577864e-01  3.45339270e-09  4.58577864e-01  4.58577864e-01  3.29639632e-09  4.58577864e-01  3.23052786e-09  1.61274575e-07  6.87835353e-08  1.00000000e+00 
 1.01000000e+00  4.58577852e-01  3.45339270e-09  4.58577852e-01  4.58577852e-01  3.29639632e-09  4.58577852e-01  3.23052786e-09  1.61274564e-07  6.87834927e-08  1.01000000e+00 
 1.02000000e+00  4.58577865e-01  3.45339270e-09  4.58577865e-01  4.58577865e-01  3.29639637e-09  4.58577865e-01  3.23052786e-09  1.61274569e-07  6.87834500e-08  1.02000000e+00 
 1.03000000e+00  4.58577853e-01  3.45339264e-09  4.58577853e-01  4.58577853e-01  3.29639637e-09  4.58577853e-01  3.23052786e-09  1.61274566e-07  6.87832582e-08  1.03000000e+00 
 1.04000000e+00  4.58577858e-01  3.45339265e-09  4.58577858e-01  4.58577858e-01  3.29639632e-09  4.58577858e-01  3.23052786e-09  1.61274558e-07  6.87832653e-08  1.04000000e+00 
 1.05000000e+00  4.58577852e-01  3.45339270e-09  4.58577852e-01  4.58577852e-01  3.29639637e-09  4.58577852e-01  3.23052786e-09  1.61274564e-07  6.87831587e-08  1.05000000e+00 
 1.06000000e+00  4.58577860e-01  3.45339269e-09  4.58577860e-01  4.58577860e-01  3.29639637e-09  4.58577860e-01  3.23052786e-09  1.61274564e-07  6.87832227e-08  1.06000000e+00 
 1.07000000e+00  4.58577850e-01  3.45339264e-09  4.58577850e-01  4.58577850e-01  3.29639632e-09  4.58577850e-01  3.23052786e-09  1.61274563e-07  6.87830806e-08  1.07000000e+00 
 1.08000000e+00  4.58577861e-01  3.45339265e-09  4.58577861e-01  4.58577861e-01  3.29639637e-09  4.58577861e-01  3.23052786e-09  1.61274567e-07  6.87829953e-08  1.08000000e+00 
 1.09000000e+00  4.58577862e-01  3.45339271e-09  4.58577862e-01  4.58577862e-01  3.29639637e-09  4.58577862e-01  3.23052786e-09  1.61274570e-07  6.87827963e-08  1.09000000e+00 
 1.10000000e+00  4.58577867e-01  3.45339264e-09  4.58577867e-01  4.58577867e-01  3.29639632e-09  4.58577867e-01  3.23052786e-09  1.61274582e-07  6.87828177e-08  1.10000000e+00 
