 v-sweep         v(b0)           v(b1)           v(b2)           v(b3)           v(b4)           v(b5)           v(b6)           i(vbias)        i(viout)        v(vout)        
 0.00000000e+00  3.18072240e-09  4.60808377e-01  4.60808377e-01  4.60808377e-01  3.26936790e-09  3.44088957e-09  3.48285001e-09  1.62630033e-07  2.11656313e-08  0.00000000e+00 
 1.00000000e-02  3.18072243e-09  4.60808381e-01  4.60808381e-01  4.60808381e-01  3.26936787e-09  3.44088959e-09  3.48284998e-09  1.62630029e-07  2.11651260e-08  1.00000000e-02 
 2.00000000e-02  3.18072237e-09  4.60808395e-01  4.60808395e-01  4.60808395e-01  3.26936787e-09  3.44088960e-09  3.48285003e-09  1.62630051e-07  2.11648246e-08  2.00000000e-02 
 3.00000000e-02  3.18072237e-09  4.60808364e-01  4.60808364e-01  4.60808365e-01  3.26936793e-09  3.44088959e-09  3.48284998e-09  1.62630011e-07  2.11644517e-08  3.00000000e-02 
 4.00000000e-02  3.18072237e-09  4.60808426e-01  4.60808426e-01  4.60808426e-01  3.26936788e-09  3.44088960e-09  3.48285003e-09  1.62630101e-07  2.11641216e-08  4.00000000e-02 
 5.00000000e-02  3.18072243e-09  4.60808405e-01  4.60808405e-01  4.60808405e-01  3.26936787e-09  3.44088954e-09  3.48285003e-09  1.62630078e-07  2.11637134e-08  5.00000000e-02 
 6.00000000e-02  3.18072237e-09  4.60808372e-01  4.60808372e-01  4.60808372e-01  3.26936793e-09  3.44088954e-09  3.48285003e-09  1.62630013e-07  2.11634674e-08  6.00000000e-02 
 7.00000000e-02  3.18072243e-09  4.60808406e-01  4.60808406e-01  4.60808406e-01  3.26936793e-09  3.44088960e-09  3.48285003e-09  1.62630076e-07  2.11632010e-08  7.00000000e-02 
 8.00000000e-02  3.18072243e-09  4.60808413e-01  4.60808413e-01  4.60808413e-01  3.26936787e-09  3.44088960e-09  3.48285003e-09  1.62630087e-07  2.11628981e-08  8.00000000e-02 
 9.00000000e-02  3.18072243e-09  4.60808405e-01  4.60808405e-01  4.60808405e-01  3.26936787e-09  3.44088960e-09  3.48285003e-09  1.62630061e-07  2.11625473e-08  9.00000000e-02 
 1.00000000e-01  3.18072237e-09  4.60808394e-01  4.60808394e-01  4.60808395e-01  3.26936787e-09  3.44088960e-09  3.48285003e-09  1.62630053e-07  2.11623838e-08  1.00000000e-01 
 1.10000000e-01  3.18072237e-09  4.60808398e-01  4.60808398e-01  4.60808398e-01  3.26936787e-09  3.44088960e-09  3.48285003e-09  1.62630060e-07  2.11622062e-08  1.10000000e-01 
 1.20000000e-01  3.18072237e-09  4.60808416e-01  4.60808416e-01  4.60808417e-01  3.26936787e-09  3.44088960e-09  3.48285003e-09  1.62630082e-07  2.11618971e-08  1.20000000e-01 
 1.30000000e-01  3.18072243e-09  4.60808407e-01  4.60808407e-01  4.60808407e-01  3.26936787e-09  3.44088960e-09  3.48285003e-09  1.62630065e-07  2.11617195e-08  1.30000000e-01 
 1.40000000e-01  3.18072237e-09  4.60808403e-01  4.60808403e-01  4.60808403e-01  3.26936787e-09  3.44088954e-09  3.48284998e-09  1.62630063e-07  2.11615223e-08  1.40000000e-01 
 1.50000000e-01  3.18072243e-09  4.60808386e-01  4.60808385e-01  4.60808386e-01  3.26936787e-09  3.44088959e-09  3.48285003e-09  1.62630039e-07  2.11614353e-08  1.50000000e-01 
 1.60000000e-01  3.18072243e-09  4.60808391e-01  4.60808391e-01  4.60808391e-01  3.26936787e-09  3.44088959e-09  3.48285003e-09  1.62630038e-07  2.11610374e-08  1.60000000e-01 
 1.70000000e-01  3.18072243e-09  4.60808390e-01  4.60808390e-01  4.60808390e-01  3.26936793e-09  3.44088959e-09  3.48285003e-09  1.62630034e-07  2.11608953e-08  1.70000000e-01 
 1.80000000e-01  3.18072243e-09  4.60808387e-01  4.60808387e-01  4.60808387e-01  3.26936787e-09  3.44088959e-09  3.48285003e-09  1.62630040e-07  2.11608135e-08  1.80000000e-01 
 1.90000000e-01  3.18072237e-09  4.60808370e-01  4.60808370e-01  4.60808370e-01  3.26936787e-09  3.44088954e-09  3.48285003e-09  1.62630020e-07  2.11605666e-08  1.90000000e-01 
 2.00000000e-01  3.18072237e-09  4.60808393e-01  4.60808393e-01  4.60808393e-01  3.26936787e-09  3.44088954e-09  3.48285003e-09  1.62630055e-07  2.11604210e-08  2.00000000e-01 
 2.10000000e-01  3.18072237e-09  4.60808390e-01  4.60808390e-01  4.60808390e-01  3.26936787e-09  3.44088959e-09  3.48285003e-09  1.62630047e-07  2.11602202e-08  2.10000000e-01 
 2.20000000e-01  3.18072237e-09  4.60808392e-01  4.60808392e-01  4.60808392e-01  3.26936787e-09  3.44088959e-09  3.48285003e-09  1.62630046e-07  2.11601350e-08  2.20000000e-01 
 2.30000000e-01  3.18072243e-09  4.60808407e-01  4.60808407e-01  4.60808407e-01  3.26936787e-09  3.44088960e-09  3.48285003e-09  1.62630065e-07  2.11601368e-08  2.30000000e-01 
 2.40000000e-01  3.18072237e-09  4.60808377e-01  4.60808377e-01  4.60808377e-01  3.26936787e-09  3.44088954e-09  3.48285003e-09  1.62630038e-07  2.11598365e-08  2.40000000e-01 
 2.50000000e-01  3.18072243e-09  4.60808397e-01  4.60808397e-01  4.60808398e-01  3.26936787e-09  3.44088954e-09  3.48285003e-09  1.62630067e-07  2.11596412e-08  2.50000000e-01 
 2.60000000e-01  3.18072237e-09  4.60808379e-01  4.60808379e-01  4.60808379e-01  3.26936787e-09  3.44088954e-09  3.48285003e-09  1.62630037e-07  2.11596234e-08  2.60000000e-01 
 2.70000000e-01  3.18072243e-09  4.60808400e-01  4.60808400e-01  4.60808400e-01  3.26936787e-09  3.44088954e-09  3.48285003e-09  1.62630059e-07  2.11595026e-08  2.70000000e-01 
 2.80000000e-01  3.18072243e-09  4.60808416e-01  4.60808416e-01  4.60808417e-01  3.26936787e-09  3.44088954e-09  3.48285003e-09  1.62630088e-07  2.11593854e-08  2.80000000e-01 
 2.90000000e-01  3.18072237e-09  4.60808407e-01  4.60808407e-01  4.60808407e-01  3.26936787e-09  3.44088960e-09  3.48285003e-09  1.62630084e-07  2.11593196e-08  2.90000000e-01 
 3.00000000e-01  3.18072237e-09  4.60808390e-01  4.60808390e-01  4.60808390e-01  3.26936787e-09  3.44088954e-09  3.48285003e-09  1.62630043e-07  2.11591278e-08  3.00000000e-01 
 3.10000000e-01  3.18072243e-09  4.60808409e-01  4.60808408e-01  4.60808409e-01  3.26936793e-09  3.44088954e-09  3.48285003e-09  1.62630089e-07  2.11590887e-08  3.10000000e-01 
 3.20000000e-01  3.18072243e-09  4.60808406e-01  4.60808406e-01  4.60808406e-01  3.26936787e-09  3.44088960e-09  3.48285003e-09  1.62630083e-07  2.11590034e-08  3.20000000e-01 
 3.30000000e-01  3.18072243e-09  4.60808409e-01  4.60808409e-01  4.60808409e-01  3.26936787e-09  3.44088954e-09  3.48285003e-09  1.62630067e-07  2.11589573e-08  3.30000000e-01 
 3.40000000e-01  3.18072237e-09  4.60808374e-01  4.60808374e-01  4.60808375e-01  3.26936787e-09  3.44088959e-09  3.48285003e-09  1.62630025e-07  2.11588436e-08  3.40000000e-01 
 3.50000000e-01  3.18072243e-09  4.60808401e-01  4.60808401e-01  4.60808401e-01  3.26936787e-09  3.44088954e-09  3.48285003e-09  1.62630066e-07  2.11587441e-08  3.50000000e-01 
 3.60000000e-01  3.18072237e-09  4.60808408e-01  4.60808408e-01  4.60808408e-01  3.26936787e-09  3.44088954e-09  3.48285003e-09  1.62630082e-07  2.11587228e-08  3.60000000e-01 
 3.70000000e-01  3.18072243e-09  4.60808394e-01  4.60808394e-01  4.60808394e-01  3.26936787e-09  3.44088960e-09  3.48285003e-09  1.62630051e-07  2.11586801e-08  3.70000000e-01 
 3.80000000e-01  3.18072243e-09  4.60808385e-01  4.60808384e-01  4.60808385e-01  3.26936787e-09  3.44088959e-09  3.48285003e-09  1.62630039e-07  2.11585984e-08  3.80000000e-01 
 3.90000000e-01  3.18072237e-09  4.60808411e-01  4.60808411e-01  4.60808411e-01  3.26936787e-09  3.44088954e-09  3.48285003e-09  1.62630079e-07  2.11584279e-08  3.90000000e-01 
 4.00000000e-01  3.18072237e-09  4.60808403e-01  4.60808403e-01  4.60808404e-01  3.26936793e-09  3.44088960e-09  3.48285003e-09  1.62630081e-07  2.11583817e-08  4.00000000e-01 
 4.10000000e-01  3.18072237e-09  4.60808393e-01  4.60808393e-01  4.60808393e-01  3.26936787e-09  3.44088959e-09  3.48285003e-09  1.62630060e-07  2.11583249e-08  4.10000000e-01 
 4.20000000e-01  3.18072237e-09  4.60808395e-01  4.60808395e-01  4.60808395e-01  3.26936787e-09  3.44088960e-09  3.48285003e-09  1.62630058e-07  2.11582503e-08  4.20000000e-01 
 4.30000000e-01  3.18072243e-09  4.60808423e-01  4.60808423e-01  4.60808424e-01  3.26936793e-09  3.44088960e-09  3.48285003e-09  1.62630096e-07  2.11581437e-08  4.30000000e-01 
 4.40000000e-01  3.18072243e-09  4.60808379e-01  4.60808379e-01  4.60808379e-01  3.26936787e-09  3.44088959e-09  3.48285003e-09  1.62630039e-07  2.11580229e-08  4.40000000e-01 
 4.50000000e-01  3.18072243e-09  4.60808417e-01  4.60808417e-01  4.60808417e-01  3.26936787e-09  3.44088960e-09  3.48285003e-09  1.62630097e-07  2.11579660e-08  4.50000000e-01 
 4.60000000e-01  3.18072243e-09  4.60808372e-01  4.60808372e-01  4.60808372e-01  3.26936787e-09  3.44088954e-09  3.48285003e-09  1.62630030e-07  2.11579909e-08  4.60000000e-01 
 4.70000000e-01  3.18072243e-09  4.60808407e-01  4.60808407e-01  4.60808407e-01  3.26936787e-09  3.44088954e-09  3.48285003e-09  1.62630086e-07  2.11578275e-08  4.70000000e-01 
 4.80000000e-01  3.18072243e-09  4.60808391e-01  4.60808391e-01  4.60808391e-01  3.26936793e-09  3.44088959e-09  3.48285003e-09  1.62630051e-07  2.11579234e-08  4.80000000e-01 
 4.90000000e-01  3.18072237e-09  4.60808382e-01  4.60808382e-01  4.60808382e-01  3.26936787e-09  3.44088954e-09  3.48285003e-09  1.62630036e-07  2.11577529e-08  4.90000000e-01 
 5.00000000e-01  3.18072237e-09  4.60808405e-01  4.60808405e-01  4.60808405e-01  3.26936787e-09  3.44088960e-09  3.48285003e-09  1.62630072e-07  2.11578310e-08  5.00000000e-01 
 5.10000000e-01  3.18072243e-09  4.60808395e-01  4.60808395e-01  4.60808395e-01  3.26936787e-09  3.44088960e-09  3.48285003e-09  1.62630053e-07  2.11576783e-08  5.10000000e-01 
 5.20000000e-01  3.18072243e-09  4.60808372e-01  4.60808372e-01  4.60808372e-01  3.26936793e-09  3.44088959e-09  3.48285003e-09  1.62630019e-07  2.11575291e-08  5.20000000e-01 
 5.30000000e-01  3.18072237e-09  4.60808392e-01  4.60808392e-01  4.60808392e-01  3.26936787e-09  3.44088954e-09  3.48285003e-09  1.62630059e-07  2.11576072e-08  5.30000000e-01 
 5.40000000e-01  3.18072243e-09  4.60808391e-01  4.60808391e-01  4.60808391e-01  3.26936787e-09  3.44088954e-09  3.48285003e-09  1.62630053e-07  2.11575433e-08  5.40000000e-01 
 5.50000000e-01  3.18072237e-09  4.60808376e-01  4.60808376e-01  4.60808376e-01  3.26936787e-09  3.44088959e-09  3.48285003e-09  1.62630014e-07  2.11575006e-08  5.50000000e-01 
 5.60000000e-01  3.18072237e-09  4.60808421e-01  4.60808421e-01  4.60808421e-01  3.26936787e-09  3.44088954e-09  3.48285003e-09  1.62630099e-07  2.11574509e-08  5.60000000e-01 
 5.70000000e-01  3.18072243e-09  4.60808392e-01  4.60808392e-01  4.60808392e-01  3.26936787e-09  3.44088954e-09  3.48285003e-09  1.62630056e-07  2.11573195e-08  5.70000000e-01 
 5.80000000e-01  3.18072237e-09  4.60808407e-01  4.60808407e-01  4.60808407e-01  3.26936787e-09  3.44088954e-09  3.48285003e-09  1.62630066e-07  2.11572342e-08  5.80000000e-01 
 5.90000000e-01  3.18072237e-09  4.60808405e-01  4.60808405e-01  4.60808405e-01  3.26936793e-09  3.44088960e-09  3.48285003e-09  1.62630076e-07  2.11572484e-08  5.90000000e-01 
 6.00000000e-01  3.18072243e-09  4.60808404e-01  4.60808404e-01  4.60808404e-01  3.26936793e-09  3.44088960e-09  3.48285003e-09  1.62630065e-07  2.11572413e-08  6.00000000e-01 
 6.10000000e-01  3.18072243e-09  4.60808391e-01  4.60808391e-01  4.60808392e-01  3.26936787e-09  3.44088954e-09  3.48285003e-09  1.62630059e-07  2.11571063e-08  6.10000000e-01 
 6.20000000e-01  3.18072243e-09  4.60808382e-01  4.60808382e-01  4.60808382e-01  3.26936787e-09  3.44088954e-09  3.48285003e-09  1.62630044e-07  2.11571063e-08  6.20000000e-01 
 6.30000000e-01  3.18072237e-09  4.60808397e-01  4.60808397e-01  4.60808397e-01  3.26936793e-09  3.44088954e-09  3.48285003e-09  1.62630054e-07  2.11571063e-08  6.30000000e-01 
 6.40000000e-01  3.18072243e-09  4.60808397e-01  4.60808397e-01  4.60808397e-01  3.26936793e-09  3.44088954e-09  3.48285003e-09  1.62630057e-07  2.11570352e-08  6.40000000e-01 
 6.50000000e-01  3.18072237e-09  4.60808394e-01  4.60808394e-01  4.60808394e-01  3.26936787e-09  3.44088960e-09  3.48285003e-09  1.62630047e-07  2.11569926e-08  6.50000000e-01 
 6.60000000e-01  3.18072237e-09  4.60808392e-01  4.60808392e-01  4.60808392e-01  3.26936787e-09  3.44088954e-09  3.48285003e-09  1.62630046e-07  2.11569500e-08  6.60000000e-01 
 6.70000000e-01  3.18072243e-09  4.60808383e-01  4.60808383e-01  4.60808383e-01  3.26936787e-09  3.44088959e-09  3.48285003e-09  1.62630034e-07  2.11568079e-08  6.70000000e-01 
 6.80000000e-01  3.18072237e-09  4.60808388e-01  4.60808388e-01  4.60808388e-01  3.26936787e-09  3.44088954e-09  3.48285003e-09  1.62630046e-07  2.11568008e-08  6.80000000e-01 
 6.90000000e-01  3.18072243e-09  4.60808404e-01  4.60808404e-01  4.60808404e-01  3.26936787e-09  3.44088960e-09  3.48285003e-09  1.62630067e-07  2.11568079e-08  6.90000000e-01 
 7.00000000e-01  3.18072237e-09  4.60808377e-01  4.60808376e-01  4.60808377e-01  3.26936787e-09  3.44088959e-09  3.48285003e-09  1.62630032e-07  2.11568008e-08  7.00000000e-01 
 7.10000000e-01  3.18072243e-09  4.60808377e-01  4.60808377e-01  4.60808377e-01  3.26936787e-09  3.44088959e-09  3.48285003e-09  1.62630048e-07  2.11566871e-08  7.10000000e-01 
 7.20000000e-01  3.18072243e-09  4.60808397e-01  4.60808397e-01  4.60808397e-01  3.26936793e-09  3.44088954e-09  3.48285003e-09  1.62630077e-07  2.11566800e-08  7.20000000e-01 
 7.30000000e-01  3.18072243e-09  4.60808391e-01  4.60808391e-01  4.60808391e-01  3.26936787e-09  3.44088954e-09  3.48285003e-09  1.62630060e-07  2.11565592e-08  7.30000000e-01 
 7.40000000e-01  3.18072237e-09  4.60808376e-01  4.60808376e-01  4.60808377e-01  3.26936787e-09  3.44088954e-09  3.48285003e-09  1.62630034e-07  2.11565236e-08  7.40000000e-01 
 7.50000000e-01  3.18072243e-09  4.60808400e-01  4.60808400e-01  4.60808400e-01  3.26936787e-09  3.44088954e-09  3.48285003e-09  1.62630069e-07  2.11563460e-08  7.50000000e-01 
 7.60000000e-01  3.18072243e-09  4.60808376e-01  4.60808376e-01  4.60808376e-01  3.26936787e-09  3.44088959e-09  3.48285003e-09  1.62630024e-07  2.11564029e-08  7.60000000e-01 
 7.70000000e-01  3.18072243e-09  4.60808406e-01  4.60808406e-01  4.60808406e-01  3.26936793e-09  3.44088960e-09  3.48285003e-09  1.62630089e-07  2.11562892e-08  7.70000000e-01 
 7.80000000e-01  3.18072237e-09  4.60808393e-01  4.60808393e-01  4.60808393e-01  3.26936787e-09  3.44088959e-09  3.48285003e-09  1.62630048e-07  2.11561826e-08  7.80000000e-01 
 7.90000000e-01  3.18072237e-09  4.60808396e-01  4.60808396e-01  4.60808396e-01  3.26936787e-09  3.44088954e-09  3.48285003e-09  1.62630054e-07  2.11561897e-08  7.90000000e-01 
 8.00000000e-01  3.18072237e-09  4.60808408e-01  4.60808408e-01  4.60808408e-01  3.26936787e-09  3.44088960e-09  3.48285003e-09  1.62630070e-07  2.11560902e-08  8.00000000e-01 
 8.10000000e-01  3.18072243e-09  4.60808393e-01  4.60808393e-01  4.60808393e-01  3.26936793e-09  3.44088954e-09  3.48285003e-09  1.62630056e-07  2.11560689e-08  8.10000000e-01 
 8.20000000e-01  3.18072243e-09  4.60808399e-01  4.60808399e-01  4.60808399e-01  3.26936793e-09  3.44088954e-09  3.48285003e-09  1.62630056e-07  2.11560902e-08  8.20000000e-01 
 8.30000000e-01  3.18072243e-09  4.60808396e-01  4.60808396e-01  4.60808396e-01  3.26936787e-09  3.44088954e-09  3.48285003e-09  1.62630036e-07  2.11559978e-08  8.30000000e-01 
 8.40000000e-01  3.18072237e-09  4.60808381e-01  4.60808381e-01  4.60808381e-01  3.26936787e-09  3.44088959e-09  3.48285003e-09  1.62630030e-07  2.11560405e-08  8.40000000e-01 
 8.50000000e-01  3.18072237e-09  4.60808427e-01  4.60808427e-01  4.60808427e-01  3.26936788e-09  3.44088954e-09  3.48284998e-09  1.62630103e-07  2.11559978e-08  8.50000000e-01 
 8.60000000e-01  3.18072237e-09  4.60808382e-01  4.60808382e-01  4.60808382e-01  3.26936787e-09  3.44088954e-09  3.48285003e-09  1.62630028e-07  2.11558842e-08  8.60000000e-01 
 8.70000000e-01  3.18072243e-09  4.60808390e-01  4.60808390e-01  4.60808390e-01  3.26936787e-09  3.44088959e-09  3.48284998e-09  1.62630052e-07  2.11557349e-08  8.70000000e-01 
 8.80000000e-01  3.18072237e-09  4.60808404e-01  4.60808404e-01  4.60808404e-01  3.26936793e-09  3.44088960e-09  3.48285003e-09  1.62630066e-07  2.11557776e-08  8.80000000e-01 
 8.90000000e-01  3.18072237e-09  4.60808402e-01  4.60808402e-01  4.60808402e-01  3.26936787e-09  3.44088954e-09  3.48285003e-09  1.62630082e-07  2.11557847e-08  8.90000000e-01 
 9.00000000e-01  3.18072237e-09  4.60808427e-01  4.60808427e-01  4.60808427e-01  3.26936788e-09  3.44088954e-09  3.48285003e-09  1.62630105e-07  2.11556213e-08  9.00000000e-01 
 9.10000000e-01  3.18072237e-09  4.60808381e-01  4.60808381e-01  4.60808381e-01  3.26936787e-09  3.44088959e-09  3.48284998e-09  1.62630052e-07  2.11555431e-08  9.10000000e-01 
 9.20000000e-01  3.18072243e-09  4.60808410e-01  4.60808410e-01  4.60808410e-01  3.26936787e-09  3.44088954e-09  3.48285003e-09  1.62630083e-07  2.11555786e-08  9.20000000e-01 
 9.30000000e-01  3.18072237e-09  4.60808395e-01  4.60808395e-01  4.60808395e-01  3.26936793e-09  3.44088960e-09  3.48285003e-09  1.62630056e-07  2.11555502e-08  9.30000000e-01 
 9.40000000e-01  3.18072243e-09  4.60808407e-01  4.60808407e-01  4.60808407e-01  3.26936787e-09  3.44088960e-09  3.48285003e-09  1.62630069e-07  2.11553370e-08  9.40000000e-01 
 9.50000000e-01  3.18072243e-09  4.60808400e-01  4.60808400e-01  4.60808400e-01  3.26936787e-09  3.44088954e-09  3.48285003e-09  1.62630067e-07  2.11553939e-08  9.50000000e-01 
 9.60000000e-01  3.18072237e-09  4.60808382e-01  4.60808382e-01  4.60808382e-01  3.26936787e-09  3.44088954e-09  3.48285003e-09  1.62630032e-07  2.11552518e-08  9.60000000e-01 
 9.70000000e-01  3.18072237e-09  4.60808401e-01  4.60808401e-01  4.60808401e-01  3.26936787e-09  3.44088954e-09  3.48285003e-09  1.62630072e-07  2.11553157e-08  9.70000000e-01 
 9.80000000e-01  3.18072243e-09  4.60808377e-01  4.60808377e-01  4.60808377e-01  3.26936787e-09  3.44088954e-09  3.48284998e-09  1.62630034e-07  2.11552162e-08  9.80000000e-01 
 9.90000000e-01  3.18072243e-09  4.60808397e-01  4.60808397e-01  4.60808397e-01  3.26936787e-09  3.44088960e-09  3.48285003e-09  1.62630070e-07  2.11551807e-08  9.90000000e-01 
 1.00000000e+00  3.18072243e-09  4.60808402e-01  4.60808402e-01  4.60808402e-01  3.26936787e-09  3.44088960e-09  3.48285003e-09  1.62630076e-07  2.11551452e-08  1.00000000e+00 
 1.01000000e+00  3.18072237e-09  4.60808383e-01  4.60808383e-01  4.60808383e-01  3.26936793e-09  3.44088959e-09  3.48284998e-09  1.62630031e-07  2.11550599e-08  1.01000000e+00 
 1.02000000e+00  3.18072243e-09  4.60808408e-01  4.60808408e-01  4.60808409e-01  3.26936787e-09  3.44088954e-09  3.48285003e-09  1.62630068e-07  2.11550883e-08  1.02000000e+00 
 1.03000000e+00  3.18072243e-09  4.60808407e-01  4.60808407e-01  4.60808407e-01  3.26936793e-09  3.44088954e-09  3.48285003e-09  1.62630082e-07  2.11549249e-08  1.03000000e+00 
 1.04000000e+00  3.18072243e-09  4.60808413e-01  4.60808413e-01  4.60808413e-01  3.26936787e-09  3.44088954e-09  3.48285003e-09  1.62630067e-07  2.11548894e-08  1.04000000e+00 
 1.05000000e+00  3.18072243e-09  4.60808375e-01  4.60808375e-01  4.60808375e-01  3.26936787e-09  3.44088954e-09  3.48285003e-09  1.62630023e-07  2.11548183e-08  1.05000000e+00 
 1.06000000e+00  3.18072237e-09  4.60808405e-01  4.60808405e-01  4.60808405e-01  3.26936793e-09  3.44088954e-09  3.48285003e-09  1.62630077e-07  2.11547615e-08  1.06000000e+00 
 1.07000000e+00  3.18072237e-09  4.60808393e-01  4.60808393e-01  4.60808393e-01  3.26936793e-09  3.44088959e-09  3.48284998e-09  1.62630050e-07  2.11547899e-08  1.07000000e+00 
 1.08000000e+00  3.18072243e-09  4.60808389e-01  4.60808389e-01  4.60808389e-01  3.26936787e-09  3.44088954e-09  3.48285003e-09  1.62630049e-07  2.11546265e-08  1.08000000e+00 
 1.09000000e+00  3.18072243e-09  4.60808383e-01  4.60808383e-01  4.60808383e-01  3.26936793e-09  3.44088954e-09  3.48285003e-09  1.62630034e-07  2.11546620e-08  1.09000000e+00 
 1.10000000e+00  3.18072237e-09  4.60808402e-01  4.60808402e-01  4.60808402e-01  3.26936793e-09  3.44088960e-09  3.48285003e-09  1.62630071e-07  2.11545270e-08  1.10000000e+00 
