 v-sweep         v(b0)           v(b1)           v(b2)           v(b3)           v(b4)           v(b5)           v(b6)           i(vbias)        i(viout)        v(vout)        
 0.00000000e+00  4.58821103e-01  4.58821103e-01  3.12585585e-09  3.38808192e-09  4.58821103e-01  4.58821103e-01  3.36638570e-09  1.62379254e-07  7.62931987e-08  0.00000000e+00 
 1.00000000e-02  4.58821128e-01  4.58821128e-01  3.12585585e-09  3.38808186e-09  4.58821128e-01  4.58821128e-01  3.36638570e-09  1.62379302e-07  7.62928518e-08  1.00000000e-02 
 2.00000000e-02  4.58821119e-01  4.58821119e-01  3.12585585e-09  3.38808192e-09  4.58821119e-01  4.58821119e-01  3.36638575e-09  1.62379274e-07  7.62924586e-08  2.00000000e-02 
 3.00000000e-02  4.58821156e-01  4.58821156e-01  3.12585585e-09  3.38808187e-09  4.58821156e-01  4.58821156e-01  3.36638570e-09  1.62379337e-07  7.62921550e-08  3.00000000e-02 
 4.00000000e-02  4.58821122e-01  4.58821122e-01  3.12585585e-09  3.38808192e-09  4.58821122e-01  4.58821121e-01  3.36638575e-09  1.62379286e-07  7.62917778e-08  4.00000000e-02 
 5.00000000e-02  4.58821115e-01  4.58821115e-01  3.12585585e-09  3.38808186e-09  4.58821115e-01  4.58821115e-01  3.36638575e-09  1.62379263e-07  7.62913936e-08  5.00000000e-02 
 6.00000000e-02  4.58821133e-01  4.58821133e-01  3.12585585e-09  3.38808192e-09  4.58821133e-01  4.58821133e-01  3.36638570e-09  1.62379302e-07  7.62910983e-08  6.00000000e-02 
 7.00000000e-02  4.58821123e-01  4.58821123e-01  3.12585585e-09  3.38808186e-09  4.58821123e-01  4.58821123e-01  3.36638575e-09  1.62379290e-07  7.62908856e-08  7.00000000e-02 
 8.00000000e-02  4.58821127e-01  4.58821127e-01  3.12585585e-09  3.38808192e-09  4.58821127e-01  4.58821127e-01  3.36638575e-09  1.62379295e-07  7.62905161e-08  8.00000000e-02 
 9.00000000e-02  4.58821122e-01  4.58821122e-01  3.12585585e-09  3.38808186e-09  4.58821122e-01  4.58821122e-01  3.36638575e-09  1.62379283e-07  7.62902683e-08  9.00000000e-02 
 1.00000000e-01  4.58821137e-01  4.58821137e-01  3.12585585e-09  3.38808186e-09  4.58821137e-01  4.58821137e-01  3.36638575e-09  1.62379304e-07  7.62900534e-08  1.00000000e-01 
 1.10000000e-01  4.58821108e-01  4.58821108e-01  3.12585579e-09  3.38808192e-09  4.58821108e-01  4.58821108e-01  3.36638575e-09  1.62379266e-07  7.62896439e-08  1.10000000e-01 
 1.20000000e-01  4.58821125e-01  4.58821126e-01  3.12585581e-09  3.38808192e-09  4.58821126e-01  4.58821125e-01  3.36638575e-09  1.62379291e-07  7.62894912e-08  1.20000000e-01 
 1.30000000e-01  4.58821130e-01  4.58821130e-01  3.12585586e-09  3.38808186e-09  4.58821130e-01  4.58821130e-01  3.36638575e-09  1.62379303e-07  7.62892478e-08  1.30000000e-01 
 1.40000000e-01  4.58821134e-01  4.58821134e-01  3.12585585e-09  3.38808192e-09  4.58821134e-01  4.58821134e-01  3.36638570e-09  1.62379309e-07  7.62890062e-08  1.40000000e-01 
 1.50000000e-01  4.58821136e-01  4.58821136e-01  3.12585581e-09  3.38808192e-09  4.58821136e-01  4.58821136e-01  3.36638575e-09  1.62379300e-07  7.62888419e-08  1.50000000e-01 
 1.60000000e-01  4.58821117e-01  4.58821117e-01  3.12585586e-09  3.38808192e-09  4.58821117e-01  4.58821117e-01  3.36638575e-09  1.62379278e-07  7.62885985e-08  1.60000000e-01 
 1.70000000e-01  4.58821123e-01  4.58821123e-01  3.12585585e-09  3.38808192e-09  4.58821123e-01  4.58821123e-01  3.36638570e-09  1.62379288e-07  7.62883676e-08  1.70000000e-01 
 1.80000000e-01  4.58821136e-01  4.58821136e-01  3.12585581e-09  3.38808192e-09  4.58821136e-01  4.58821136e-01  3.36638570e-09  1.62379318e-07  7.62883552e-08  1.80000000e-01 
 1.90000000e-01  4.58821101e-01  4.58821101e-01  3.12585586e-09  3.38808192e-09  4.58821101e-01  4.58821101e-01  3.36638570e-09  1.62379250e-07  7.62880195e-08  1.90000000e-01 
 2.00000000e-01  4.58821141e-01  4.58821141e-01  3.12585585e-09  3.38808192e-09  4.58821141e-01  4.58821141e-01  3.36638570e-09  1.62379322e-07  7.62878845e-08  2.00000000e-01 
 2.10000000e-01  4.58821145e-01  4.58821145e-01  3.12585581e-09  3.38808186e-09  4.58821145e-01  4.58821145e-01  3.36638570e-09  1.62379308e-07  7.62877068e-08  2.10000000e-01 
 2.20000000e-01  4.58821113e-01  4.58821113e-01  3.12585586e-09  3.38808192e-09  4.58821113e-01  4.58821113e-01  3.36638575e-09  1.62379290e-07  7.62875221e-08  2.20000000e-01 
 2.30000000e-01  4.58821116e-01  4.58821116e-01  3.12585585e-09  3.38808192e-09  4.58821116e-01  4.58821116e-01  3.36638575e-09  1.62379287e-07  7.62874475e-08  2.30000000e-01 
 2.40000000e-01  4.58821132e-01  4.58821132e-01  3.12585586e-09  3.38808186e-09  4.58821132e-01  4.58821132e-01  3.36638570e-09  1.62379299e-07  7.62872006e-08  2.40000000e-01 
 2.50000000e-01  4.58821114e-01  4.58821114e-01  3.12585585e-09  3.38808186e-09  4.58821114e-01  4.58821114e-01  3.36638575e-09  1.62379269e-07  7.62870975e-08  2.50000000e-01 
 2.60000000e-01  4.58821116e-01  4.58821116e-01  3.12585581e-09  3.38808192e-09  4.58821116e-01  4.58821116e-01  3.36638570e-09  1.62379280e-07  7.62869501e-08  2.60000000e-01 
 2.70000000e-01  4.58821123e-01  4.58821123e-01  3.12585586e-09  3.38808192e-09  4.58821123e-01  4.58821123e-01  3.36638575e-09  1.62379299e-07  7.62869004e-08  2.70000000e-01 
 2.80000000e-01  4.58821134e-01  4.58821134e-01  3.12585585e-09  3.38808192e-09  4.58821134e-01  4.58821134e-01  3.36638570e-09  1.62379308e-07  7.62868257e-08  2.80000000e-01 
 2.90000000e-01  4.58821099e-01  4.58821099e-01  3.12585586e-09  3.38808186e-09  4.58821099e-01  4.58821099e-01  3.36638570e-09  1.62379251e-07  7.62865362e-08  2.90000000e-01 
 3.00000000e-01  4.58821111e-01  4.58821111e-01  3.12585585e-09  3.38808192e-09  4.58821111e-01  4.58821111e-01  3.36638570e-09  1.62379259e-07  7.62865646e-08  3.00000000e-01 
 3.10000000e-01  4.58821123e-01  4.58821123e-01  3.12585581e-09  3.38808186e-09  4.58821123e-01  4.58821123e-01  3.36638575e-09  1.62379293e-07  7.62864083e-08  3.10000000e-01 
 3.20000000e-01  4.58821128e-01  4.58821128e-01  3.12585586e-09  3.38808192e-09  4.58821128e-01  4.58821128e-01  3.36638570e-09  1.62379297e-07  7.62863230e-08  3.20000000e-01 
 3.30000000e-01  4.58821095e-01  4.58821095e-01  3.12585585e-09  3.38808186e-09  4.58821095e-01  4.58821094e-01  3.36638575e-09  1.62379251e-07  7.62861099e-08  3.30000000e-01 
 3.40000000e-01  4.58821126e-01  4.58821126e-01  3.12585581e-09  3.38808186e-09  4.58821126e-01  4.58821126e-01  3.36638570e-09  1.62379287e-07  7.62860779e-08  3.40000000e-01 
 3.50000000e-01  4.58821112e-01  4.58821112e-01  3.12585580e-09  3.38808186e-09  4.58821112e-01  4.58821112e-01  3.36638575e-09  1.62379275e-07  7.62859287e-08  3.50000000e-01 
 3.60000000e-01  4.58821108e-01  4.58821108e-01  3.12585586e-09  3.38808186e-09  4.58821108e-01  4.58821108e-01  3.36638575e-09  1.62379276e-07  7.62858967e-08  3.60000000e-01 
 3.70000000e-01  4.58821113e-01  4.58821113e-01  3.12585585e-09  3.38808192e-09  4.58821113e-01  4.58821113e-01  3.36638575e-09  1.62379254e-07  7.62857972e-08  3.70000000e-01 
 3.80000000e-01  4.58821122e-01  4.58821122e-01  3.12585586e-09  3.38808192e-09  4.58821122e-01  4.58821122e-01  3.36638575e-09  1.62379286e-07  7.62856622e-08  3.80000000e-01 
 3.90000000e-01  4.58821134e-01  4.58821135e-01  3.12585585e-09  3.38808192e-09  4.58821135e-01  4.58821134e-01  3.36638570e-09  1.62379300e-07  7.62856800e-08  3.90000000e-01 
 4.00000000e-01  4.58821112e-01  4.58821112e-01  3.12585581e-09  3.38808186e-09  4.58821112e-01  4.58821112e-01  3.36638575e-09  1.62379274e-07  7.62855983e-08  4.00000000e-01 
 4.10000000e-01  4.58821147e-01  4.58821147e-01  3.12585586e-09  3.38808192e-09  4.58821147e-01  4.58821146e-01  3.36638575e-09  1.62379326e-07  7.62855379e-08  4.10000000e-01 
 4.20000000e-01  4.58821123e-01  4.58821123e-01  3.12585585e-09  3.38808186e-09  4.58821123e-01  4.58821123e-01  3.36638570e-09  1.62379290e-07  7.62854633e-08  4.20000000e-01 
 4.30000000e-01  4.58821147e-01  4.58821147e-01  3.12585587e-09  3.38808192e-09  4.58821147e-01  4.58821147e-01  3.36638575e-09  1.62379318e-07  7.62853603e-08  4.30000000e-01 
 4.40000000e-01  4.58821140e-01  4.58821140e-01  3.12585579e-09  3.38808192e-09  4.58821140e-01  4.58821140e-01  3.36638575e-09  1.62379311e-07  7.62852963e-08  4.40000000e-01 
 4.50000000e-01  4.58821138e-01  4.58821138e-01  3.12585587e-09  3.38808192e-09  4.58821138e-01  4.58821138e-01  3.36638570e-09  1.62379307e-07  7.62850867e-08  4.50000000e-01 
 4.60000000e-01  4.58821101e-01  4.58821101e-01  3.12585585e-09  3.38808192e-09  4.58821101e-01  4.58821101e-01  3.36638570e-09  1.62379261e-07  7.62850370e-08  4.60000000e-01 
 4.70000000e-01  4.58821138e-01  4.58821138e-01  3.12585581e-09  3.38808186e-09  4.58821138e-01  4.58821138e-01  3.36638575e-09  1.62379309e-07  7.62850227e-08  4.70000000e-01 
 4.80000000e-01  4.58821117e-01  4.58821117e-01  3.12585586e-09  3.38808186e-09  4.58821117e-01  4.58821117e-01  3.36638575e-09  1.62379269e-07  7.62849410e-08  4.80000000e-01 
 4.90000000e-01  4.58821132e-01  4.58821132e-01  3.12585585e-09  3.38808192e-09  4.58821132e-01  4.58821132e-01  3.36638570e-09  1.62379301e-07  7.62847918e-08  4.90000000e-01 
 5.00000000e-01  4.58821109e-01  4.58821109e-01  3.12585581e-09  3.38808186e-09  4.58821109e-01  4.58821109e-01  3.36638575e-09  1.62379263e-07  7.62847385e-08  5.00000000e-01 
 5.10000000e-01  4.58821129e-01  4.58821129e-01  3.12585586e-09  3.38808186e-09  4.58821129e-01  4.58821129e-01  3.36638570e-09  1.62379292e-07  7.62847954e-08  5.10000000e-01 
 5.20000000e-01  4.58821116e-01  4.58821116e-01  3.12585585e-09  3.38808192e-09  4.58821116e-01  4.58821116e-01  3.36638570e-09  1.62379285e-07  7.62846391e-08  5.20000000e-01 
 5.30000000e-01  4.58821094e-01  4.58821094e-01  3.12585586e-09  3.38808192e-09  4.58821094e-01  4.58821094e-01  3.36638570e-09  1.62379251e-07  7.62845254e-08  5.30000000e-01 
 5.40000000e-01  4.58821137e-01  4.58821138e-01  3.12585585e-09  3.38808186e-09  4.58821138e-01  4.58821137e-01  3.36638570e-09  1.62379306e-07  7.62844401e-08  5.40000000e-01 
 5.50000000e-01  4.58821124e-01  4.58821124e-01  3.12585586e-09  3.38808186e-09  4.58821124e-01  4.58821124e-01  3.36638570e-09  1.62379291e-07  7.62845040e-08  5.50000000e-01 
 5.60000000e-01  4.58821131e-01  4.58821131e-01  3.12585585e-09  3.38808192e-09  4.58821131e-01  4.58821131e-01  3.36638570e-09  1.62379296e-07  7.62844152e-08  5.60000000e-01 
 5.70000000e-01  4.58821115e-01  4.58821115e-01  3.12585581e-09  3.38808192e-09  4.58821115e-01  4.58821115e-01  3.36638575e-09  1.62379262e-07  7.62843300e-08  5.70000000e-01 
 5.80000000e-01  4.58821120e-01  4.58821120e-01  3.12585586e-09  3.38808192e-09  4.58821120e-01  4.58821120e-01  3.36638570e-09  1.62379281e-07  7.62842944e-08  5.80000000e-01 
 5.90000000e-01  4.58821145e-01  4.58821145e-01  3.12585585e-09  3.38808192e-09  4.58821145e-01  4.58821145e-01  3.36638575e-09  1.62379308e-07  7.62842731e-08  5.90000000e-01 
 6.00000000e-01  4.58821117e-01  4.58821117e-01  3.12585581e-09  3.38808192e-09  4.58821117e-01  4.58821117e-01  3.36638570e-09  1.62379282e-07  7.62840600e-08  6.00000000e-01 
 6.10000000e-01  4.58821124e-01  4.58821124e-01  3.12585586e-09  3.38808192e-09  4.58821124e-01  4.58821124e-01  3.36638575e-09  1.62379292e-07  7.62839818e-08  6.10000000e-01 
 6.20000000e-01  4.58821108e-01  4.58821108e-01  3.12585585e-09  3.38808192e-09  4.58821108e-01  4.58821108e-01  3.36638570e-09  1.62379278e-07  7.62839534e-08  6.20000000e-01 
 6.30000000e-01  4.58821107e-01  4.58821107e-01  3.12585586e-09  3.38808186e-09  4.58821107e-01  4.58821107e-01  3.36638575e-09  1.62379254e-07  7.62840173e-08  6.30000000e-01 
 6.40000000e-01  4.58821126e-01  4.58821127e-01  3.12585585e-09  3.38808192e-09  4.58821127e-01  4.58821126e-01  3.36638575e-09  1.62379284e-07  7.62838752e-08  6.40000000e-01 
 6.50000000e-01  4.58821135e-01  4.58821135e-01  3.12585581e-09  3.38808192e-09  4.58821135e-01  4.58821135e-01  3.36638575e-09  1.62379321e-07  7.62837900e-08  6.50000000e-01 
 6.60000000e-01  4.58821132e-01  4.58821132e-01  3.12585586e-09  3.38808186e-09  4.58821132e-01  4.58821132e-01  3.36638575e-09  1.62379309e-07  7.62836052e-08  6.60000000e-01 
 6.70000000e-01  4.58821107e-01  4.58821107e-01  3.12585585e-09  3.38808192e-09  4.58821107e-01  4.58821107e-01  3.36638570e-09  1.62379268e-07  7.62835413e-08  6.70000000e-01 
 6.80000000e-01  4.58821128e-01  4.58821128e-01  3.12585586e-09  3.38808192e-09  4.58821128e-01  4.58821128e-01  3.36638570e-09  1.62379282e-07  7.62835413e-08  6.80000000e-01 
 6.90000000e-01  4.58821125e-01  4.58821125e-01  3.12585585e-09  3.38808186e-09  4.58821125e-01  4.58821125e-01  3.36638575e-09  1.62379292e-07  7.62835199e-08  6.90000000e-01 
 7.00000000e-01  4.58821130e-01  4.58821130e-01  3.12585586e-09  3.38808186e-09  4.58821130e-01  4.58821130e-01  3.36638570e-09  1.62379294e-07  7.62834063e-08  7.00000000e-01 
 7.10000000e-01  4.58821126e-01  4.58821126e-01  3.12585585e-09  3.38808192e-09  4.58821126e-01  4.58821125e-01  3.36638575e-09  1.62379287e-07  7.62833849e-08  7.10000000e-01 
 7.20000000e-01  4.58821113e-01  4.58821113e-01  3.12585586e-09  3.38808192e-09  4.58821113e-01  4.58821113e-01  3.36638575e-09  1.62379264e-07  7.62832784e-08  7.20000000e-01 
 7.30000000e-01  4.58821115e-01  4.58821115e-01  3.12585585e-09  3.38808186e-09  4.58821115e-01  4.58821115e-01  3.36638575e-09  1.62379282e-07  7.62832073e-08  7.30000000e-01 
 7.40000000e-01  4.58821141e-01  4.58821141e-01  3.12585581e-09  3.38808192e-09  4.58821141e-01  4.58821141e-01  3.36638575e-09  1.62379310e-07  7.62833210e-08  7.40000000e-01 
 7.50000000e-01  4.58821133e-01  4.58821133e-01  3.12585586e-09  3.38808192e-09  4.58821133e-01  4.58821133e-01  3.36638575e-09  1.62379307e-07  7.62831789e-08  7.50000000e-01 
 7.60000000e-01  4.58821154e-01  4.58821154e-01  3.12585585e-09  3.38808192e-09  4.58821154e-01  4.58821154e-01  3.36638575e-09  1.62379338e-07  7.62831718e-08  7.60000000e-01 
 7.70000000e-01  4.58821133e-01  4.58821133e-01  3.12585586e-09  3.38808192e-09  4.58821133e-01  4.58821133e-01  3.36638570e-09  1.62379312e-07  7.62830581e-08  7.70000000e-01 
 7.80000000e-01  4.58821122e-01  4.58821122e-01  3.12585585e-09  3.38808186e-09  4.58821122e-01  4.58821122e-01  3.36638575e-09  1.62379289e-07  7.62828591e-08  7.80000000e-01 
 7.90000000e-01  4.58821111e-01  4.58821111e-01  3.12585586e-09  3.38808186e-09  4.58821111e-01  4.58821111e-01  3.36638575e-09  1.62379268e-07  7.62827952e-08  7.90000000e-01 
 8.00000000e-01  4.58821125e-01  4.58821125e-01  3.12585585e-09  3.38808192e-09  4.58821125e-01  4.58821124e-01  3.36638575e-09  1.62379281e-07  7.62827810e-08  8.00000000e-01 
 8.10000000e-01  4.58821097e-01  4.58821097e-01  3.12585586e-09  3.38808192e-09  4.58821097e-01  4.58821097e-01  3.36638570e-09  1.62379247e-07  7.62826389e-08  8.10000000e-01 
 8.20000000e-01  4.58821137e-01  4.58821137e-01  3.12585585e-09  3.38808186e-09  4.58821137e-01  4.58821137e-01  3.36638570e-09  1.62379304e-07  7.62827099e-08  8.20000000e-01 
 8.30000000e-01  4.58821135e-01  4.58821135e-01  3.12585586e-09  3.38808192e-09  4.58821135e-01  4.58821135e-01  3.36638575e-09  1.62379302e-07  7.62825891e-08  8.30000000e-01 
 8.40000000e-01  4.58821102e-01  4.58821102e-01  3.12585585e-09  3.38808186e-09  4.58821102e-01  4.58821102e-01  3.36638570e-09  1.62379247e-07  7.62825039e-08  8.40000000e-01 
 8.50000000e-01  4.58821122e-01  4.58821122e-01  3.12585586e-09  3.38808186e-09  4.58821122e-01  4.58821122e-01  3.36638570e-09  1.62379292e-07  7.62824897e-08  8.50000000e-01 
 8.60000000e-01  4.58821126e-01  4.58821126e-01  3.12585585e-09  3.38808192e-09  4.58821126e-01  4.58821126e-01  3.36638570e-09  1.62379290e-07  7.62823902e-08  8.60000000e-01 
 8.70000000e-01  4.58821112e-01  4.58821112e-01  3.12585581e-09  3.38808192e-09  4.58821112e-01  4.58821112e-01  3.36638575e-09  1.62379277e-07  7.62822410e-08  8.70000000e-01 
 8.80000000e-01  4.58821093e-01  4.58821093e-01  3.12585586e-09  3.38808191e-09  4.58821093e-01  4.58821093e-01  3.36638570e-09  1.62379246e-07  7.62821344e-08  8.80000000e-01 
 8.90000000e-01  4.58821116e-01  4.58821116e-01  3.12585585e-09  3.38808192e-09  4.58821116e-01  4.58821116e-01  3.36638575e-09  1.62379278e-07  7.62821983e-08  8.90000000e-01 
 9.00000000e-01  4.58821100e-01  4.58821100e-01  3.12585581e-09  3.38808192e-09  4.58821100e-01  4.58821100e-01  3.36638575e-09  1.62379259e-07  7.62821131e-08  9.00000000e-01 
 9.10000000e-01  4.58821133e-01  4.58821133e-01  3.12585580e-09  3.38808192e-09  4.58821133e-01  4.58821133e-01  3.36638570e-09  1.62379300e-07  7.62819710e-08  9.10000000e-01 
 9.20000000e-01  4.58821103e-01  4.58821103e-01  3.12585586e-09  3.38808186e-09  4.58821103e-01  4.58821103e-01  3.36638575e-09  1.62379253e-07  7.62820420e-08  9.20000000e-01 
 9.30000000e-01  4.58821115e-01  4.58821115e-01  3.12585585e-09  3.38808192e-09  4.58821115e-01  4.58821115e-01  3.36638575e-09  1.62379256e-07  7.62819212e-08  9.30000000e-01 
 9.40000000e-01  4.58821126e-01  4.58821126e-01  3.12585586e-09  3.38808186e-09  4.58821126e-01  4.58821126e-01  3.36638570e-09  1.62379283e-07  7.62818573e-08  9.40000000e-01 
 9.50000000e-01  4.58821092e-01  4.58821092e-01  3.12585585e-09  3.38808191e-09  4.58821092e-01  4.58821092e-01  3.36638575e-09  1.62379230e-07  7.62816583e-08  9.50000000e-01 
 9.60000000e-01  4.58821125e-01  4.58821125e-01  3.12585586e-09  3.38808186e-09  4.58821125e-01  4.58821125e-01  3.36638570e-09  1.62379294e-07  7.62816441e-08  9.60000000e-01 
 9.70000000e-01  4.58821133e-01  4.58821133e-01  3.12585585e-09  3.38808186e-09  4.58821133e-01  4.58821133e-01  3.36638570e-09  1.62379302e-07  7.62817294e-08  9.70000000e-01 
 9.80000000e-01  4.58821121e-01  4.58821121e-01  3.12585586e-09  3.38808192e-09  4.58821121e-01  4.58821121e-01  3.36638570e-09  1.62379277e-07  7.62815588e-08  9.80000000e-01 
 9.90000000e-01  4.58821139e-01  4.58821139e-01  3.12585585e-09  3.38808192e-09  4.58821139e-01  4.58821139e-01  3.36638570e-09  1.62379302e-07  7.62815375e-08  9.90000000e-01 
 1.00000000e+00  4.58821101e-01  4.58821101e-01  3.12585581e-09  3.38808186e-09  4.58821101e-01  4.58821101e-01  3.36638570e-09  1.62379244e-07  7.62813954e-08  1.00000000e+00 
 1.01000000e+00  4.58821117e-01  4.58821117e-01  3.12585586e-09  3.38808186e-09  4.58821117e-01  4.58821117e-01  3.36638570e-09  1.62379274e-07  7.62813528e-08  1.01000000e+00 
 1.02000000e+00  4.58821114e-01  4.58821114e-01  3.12585585e-09  3.38808192e-09  4.58821114e-01  4.58821114e-01  3.36638570e-09  1.62379273e-07  7.62812178e-08  1.02000000e+00 
 1.03000000e+00  4.58821142e-01  4.58821142e-01  3.12585587e-09  3.38808192e-09  4.58821142e-01  4.58821142e-01  3.36638570e-09  1.62379321e-07  7.62813031e-08  1.03000000e+00 
 1.04000000e+00  4.58821128e-01  4.58821128e-01  3.12585585e-09  3.38808192e-09  4.58821128e-01  4.58821128e-01  3.36638570e-09  1.62379292e-07  7.62810188e-08  1.04000000e+00 
 1.05000000e+00  4.58821124e-01  4.58821124e-01  3.12585581e-09  3.38808192e-09  4.58821124e-01  4.58821124e-01  3.36638570e-09  1.62379297e-07  7.62809620e-08  1.05000000e+00 
 1.06000000e+00  4.58821105e-01  4.58821105e-01  3.12585586e-09  3.38808192e-09  4.58821105e-01  4.58821104e-01  3.36638570e-09  1.62379257e-07  7.62809336e-08  1.06000000e+00 
 1.07000000e+00  4.58821133e-01  4.58821133e-01  3.12585585e-09  3.38808186e-09  4.58821133e-01  4.58821133e-01  3.36638570e-09  1.62379295e-07  7.62809194e-08  1.07000000e+00 
 1.08000000e+00  4.58821128e-01  4.58821128e-01  3.12585586e-09  3.38808192e-09  4.58821128e-01  4.58821128e-01  3.36638575e-09  1.62379295e-07  7.62806778e-08  1.08000000e+00 
 1.09000000e+00  4.58821117e-01  4.58821117e-01  3.12585585e-09  3.38808192e-09  4.58821117e-01  4.58821117e-01  3.36638570e-09  1.62379281e-07  7.62807417e-08  1.09000000e+00 
 1.10000000e+00  4.58821115e-01  4.58821115e-01  3.12585586e-09  3.38808192e-09  4.58821115e-01  4.58821115e-01  3.36638570e-09  1.62379268e-07  7.62805570e-08  1.10000000e+00 
