 v-sweep         v(b0)           v(b1)           v(b2)           v(b3)           v(b4)           v(b5)           v(b6)           i(vbias)        i(viout)        v(vout)        
 0.00000000e+00  3.32289944e-09  4.59502185e-01  4.59502185e-01  4.59502185e-01  3.29004402e-09  3.19913065e-09  4.59502185e-01  1.61917646e-07  1.23934003e-07  0.00000000e+00 
 1.00000000e-02  3.32289941e-09  4.59502156e-01  4.59502157e-01  4.59502156e-01  3.29004400e-09  3.19913063e-09  4.59502156e-01  1.61917595e-07  1.23933519e-07  1.00000000e-02 
 2.00000000e-02  3.32289941e-09  4.59502149e-01  4.59502149e-01  4.59502149e-01  3.29004400e-09  3.19913063e-09  4.59502149e-01  1.61917584e-07  1.23932962e-07  2.00000000e-02 
 3.00000000e-02  3.32289941e-09  4.59502160e-01  4.59502160e-01  4.59502160e-01  3.29004400e-09  3.19913069e-09  4.59502160e-01  1.61917603e-07  1.23932755e-07  3.00000000e-02 
 4.00000000e-02  3.32289947e-09  4.59502172e-01  4.59502172e-01  4.59502172e-01  3.29004401e-09  3.19913063e-09  4.59502172e-01  1.61917624e-07  1.23932319e-07  4.00000000e-02 
 5.00000000e-02  3.32289941e-09  4.59502161e-01  4.59502161e-01  4.59502161e-01  3.29004400e-09  3.19913063e-09  4.59502161e-01  1.61917617e-07  1.23931880e-07  5.00000000e-02 
 6.00000000e-02  3.32289942e-09  4.59502184e-01  4.59502184e-01  4.59502184e-01  3.29004401e-09  3.19913063e-09  4.59502184e-01  1.61917631e-07  1.23931711e-07  6.00000000e-02 
 7.00000000e-02  3.32289947e-09  4.59502186e-01  4.59502186e-01  4.59502186e-01  3.29004401e-09  3.19913063e-09  4.59502186e-01  1.61917643e-07  1.23931533e-07  7.00000000e-02 
 8.00000000e-02  3.32289948e-09  4.59502195e-01  4.59502195e-01  4.59502195e-01  3.29004401e-09  3.19913063e-09  4.59502195e-01  1.61917648e-07  1.23931125e-07  8.00000000e-02 
 9.00000000e-02  3.32289942e-09  4.59502181e-01  4.59502181e-01  4.59502181e-01  3.29004401e-09  3.19913063e-09  4.59502181e-01  1.61917641e-07  1.23930769e-07  9.00000000e-02 
 1.00000000e-01  3.32289942e-09  4.59502188e-01  4.59502188e-01  4.59502188e-01  3.29004401e-09  3.19913069e-09  4.59502188e-01  1.61917646e-07  1.23930522e-07  1.00000000e-01 
 1.10000000e-01  3.32289941e-09  4.59502167e-01  4.59502167e-01  4.59502167e-01  3.29004401e-09  3.19913063e-09  4.59502167e-01  1.61917619e-07  1.23930146e-07  1.10000000e-01 
 1.20000000e-01  3.32289947e-09  4.59502167e-01  4.59502167e-01  4.59502167e-01  3.29004401e-09  3.19913063e-09  4.59502167e-01  1.61917606e-07  1.23929989e-07  1.20000000e-01 
 1.30000000e-01  3.32289947e-09  4.59502167e-01  4.59502167e-01  4.59502167e-01  3.29004401e-09  3.19913063e-09  4.59502167e-01  1.61917611e-07  1.23929753e-07  1.30000000e-01 
 1.40000000e-01  3.32289947e-09  4.59502176e-01  4.59502176e-01  4.59502176e-01  3.29004401e-09  3.19913063e-09  4.59502176e-01  1.61917629e-07  1.23929431e-07  1.40000000e-01 
 1.50000000e-01  3.32289942e-09  4.59502194e-01  4.59502194e-01  4.59502194e-01  3.29004401e-09  3.19913063e-09  4.59502194e-01  1.61917657e-07  1.23929308e-07  1.50000000e-01 
 1.60000000e-01  3.32289948e-09  4.59502192e-01  4.59502192e-01  4.59502192e-01  3.29004401e-09  3.19913063e-09  4.59502192e-01  1.61917660e-07  1.23929068e-07  1.60000000e-01 
 1.70000000e-01  3.32289948e-09  4.59502201e-01  4.59502201e-01  4.59502201e-01  3.29004401e-09  3.19913063e-09  4.59502201e-01  1.61917661e-07  1.23928961e-07  1.70000000e-01 
 1.80000000e-01  3.32289942e-09  4.59502191e-01  4.59502191e-01  4.59502191e-01  3.29004401e-09  3.19913069e-09  4.59502191e-01  1.61917649e-07  1.23928674e-07  1.80000000e-01 
 1.90000000e-01  3.32289947e-09  4.59502185e-01  4.59502185e-01  4.59502185e-01  3.29004401e-09  3.19913063e-09  4.59502185e-01  1.61917657e-07  1.23928464e-07  1.90000000e-01 
 2.00000000e-01  3.32289947e-09  4.59502161e-01  4.59502161e-01  4.59502161e-01  3.29004400e-09  3.19913063e-09  4.59502161e-01  1.61917610e-07  1.23928173e-07  2.00000000e-01 
 2.10000000e-01  3.32289947e-09  4.59502170e-01  4.59502170e-01  4.59502170e-01  3.29004401e-09  3.19913063e-09  4.59502170e-01  1.61917620e-07  1.23928125e-07  2.10000000e-01 
 2.20000000e-01  3.32289941e-09  4.59502163e-01  4.59502163e-01  4.59502163e-01  3.29004400e-09  3.19913063e-09  4.59502163e-01  1.61917618e-07  1.23927894e-07  2.20000000e-01 
 2.30000000e-01  3.32289941e-09  4.59502155e-01  4.59502156e-01  4.59502155e-01  3.29004400e-09  3.19913063e-09  4.59502155e-01  1.61917599e-07  1.23927620e-07  2.30000000e-01 
 2.40000000e-01  3.32289941e-09  4.59502161e-01  4.59502161e-01  4.59502161e-01  3.29004400e-09  3.19913063e-09  4.59502161e-01  1.61917615e-07  1.23927405e-07  2.40000000e-01 
 2.50000000e-01  3.32289947e-09  4.59502162e-01  4.59502162e-01  4.59502162e-01  3.29004400e-09  3.19913063e-09  4.59502162e-01  1.61917602e-07  1.23927309e-07  2.50000000e-01 
 2.60000000e-01  3.32289941e-09  4.59502165e-01  4.59502165e-01  4.59502165e-01  3.29004400e-09  3.19913063e-09  4.59502165e-01  1.61917598e-07  1.23927228e-07  2.60000000e-01 
 2.70000000e-01  3.32289947e-09  4.59502174e-01  4.59502175e-01  4.59502175e-01  3.29004401e-09  3.19913063e-09  4.59502174e-01  1.61917621e-07  1.23927114e-07  2.70000000e-01 
 2.80000000e-01  3.32289947e-09  4.59502172e-01  4.59502172e-01  4.59502172e-01  3.29004401e-09  3.19913063e-09  4.59502172e-01  1.61917612e-07  1.23927034e-07  2.80000000e-01 
 2.90000000e-01  3.32289941e-09  4.59502145e-01  4.59502145e-01  4.59502145e-01  3.29004400e-09  3.19913063e-09  4.59502145e-01  1.61917591e-07  1.23926664e-07  2.90000000e-01 
 3.00000000e-01  3.32289947e-09  4.59502172e-01  4.59502172e-01  4.59502172e-01  3.29004401e-09  3.19913063e-09  4.59502172e-01  1.61917623e-07  1.23926657e-07  3.00000000e-01 
 3.10000000e-01  3.32289947e-09  4.59502184e-01  4.59502184e-01  4.59502184e-01  3.29004401e-09  3.19913063e-09  4.59502184e-01  1.61917647e-07  1.23926615e-07  3.10000000e-01 
 3.20000000e-01  3.32289942e-09  4.59502175e-01  4.59502175e-01  4.59502175e-01  3.29004401e-09  3.19913063e-09  4.59502175e-01  1.61917612e-07  1.23926508e-07  3.20000000e-01 
 3.30000000e-01  3.32289942e-09  4.59502182e-01  4.59502182e-01  4.59502182e-01  3.29004401e-09  3.19913063e-09  4.59502182e-01  1.61917638e-07  1.23926412e-07  3.30000000e-01 
 3.40000000e-01  3.32289942e-09  4.59502189e-01  4.59502189e-01  4.59502189e-01  3.29004401e-09  3.19913063e-09  4.59502189e-01  1.61917646e-07  1.23926277e-07  3.40000000e-01 
 3.50000000e-01  3.32289947e-09  4.59502172e-01  4.59502172e-01  4.59502172e-01  3.29004401e-09  3.19913063e-09  4.59502172e-01  1.61917622e-07  1.23926164e-07  3.50000000e-01 
 3.60000000e-01  3.32289947e-09  4.59502150e-01  4.59502150e-01  4.59502150e-01  3.29004400e-09  3.19913063e-09  4.59502150e-01  1.61917592e-07  1.23925943e-07  3.60000000e-01 
 3.70000000e-01  3.32289942e-09  4.59502176e-01  4.59502176e-01  4.59502176e-01  3.29004401e-09  3.19913063e-09  4.59502176e-01  1.61917625e-07  1.23925837e-07  3.70000000e-01 
 3.80000000e-01  3.32289942e-09  4.59502205e-01  4.59502205e-01  4.59502205e-01  3.29004401e-09  3.19913063e-09  4.59502205e-01  1.61917673e-07  1.23925833e-07  3.80000000e-01 
 3.90000000e-01  3.32289947e-09  4.59502184e-01  4.59502184e-01  4.59502184e-01  3.29004401e-09  3.19913063e-09  4.59502184e-01  1.61917645e-07  1.23925663e-07  3.90000000e-01 
 4.00000000e-01  3.32289942e-09  4.59502175e-01  4.59502175e-01  4.59502175e-01  3.29004401e-09  3.19913063e-09  4.59502175e-01  1.61917628e-07  1.23925542e-07  4.00000000e-01 
 4.10000000e-01  3.32289948e-09  4.59502195e-01  4.59502195e-01  4.59502195e-01  3.29004401e-09  3.19913063e-09  4.59502195e-01  1.61917654e-07  1.23925552e-07  4.10000000e-01 
 4.20000000e-01  3.32289942e-09  4.59502177e-01  4.59502177e-01  4.59502177e-01  3.29004401e-09  3.19913063e-09  4.59502177e-01  1.61917633e-07  1.23925386e-07  4.20000000e-01 
 4.30000000e-01  3.32289942e-09  4.59502185e-01  4.59502186e-01  4.59502185e-01  3.29004401e-09  3.19913063e-09  4.59502185e-01  1.61917646e-07  1.23925329e-07  4.30000000e-01 
 4.40000000e-01  3.32289948e-09  4.59502210e-01  4.59502210e-01  4.59502210e-01  3.29004401e-09  3.19913069e-09  4.59502210e-01  1.61917671e-07  1.23925204e-07  4.40000000e-01 
 4.50000000e-01  3.32289941e-09  4.59502166e-01  4.59502166e-01  4.59502166e-01  3.29004401e-09  3.19913063e-09  4.59502166e-01  1.61917623e-07  1.23925030e-07  4.50000000e-01 
 4.60000000e-01  3.32289942e-09  4.59502173e-01  4.59502173e-01  4.59502173e-01  3.29004401e-09  3.19913063e-09  4.59502173e-01  1.61917618e-07  1.23924938e-07  4.60000000e-01 
 4.70000000e-01  3.32289947e-09  4.59502159e-01  4.59502159e-01  4.59502159e-01  3.29004400e-09  3.19913063e-09  4.59502159e-01  1.61917602e-07  1.23924739e-07  4.70000000e-01 
 4.80000000e-01  3.32289941e-09  4.59502168e-01  4.59502168e-01  4.59502168e-01  3.29004401e-09  3.19913063e-09  4.59502168e-01  1.61917609e-07  1.23924789e-07  4.80000000e-01 
 4.90000000e-01  3.32289947e-09  4.59502160e-01  4.59502160e-01  4.59502160e-01  3.29004400e-09  3.19913063e-09  4.59502160e-01  1.61917609e-07  1.23924686e-07  4.90000000e-01 
 5.00000000e-01  3.32289942e-09  4.59502172e-01  4.59502173e-01  4.59502172e-01  3.29004401e-09  3.19913063e-09  4.59502172e-01  1.61917609e-07  1.23924661e-07  5.00000000e-01 
 5.10000000e-01  3.32289947e-09  4.59502182e-01  4.59502182e-01  4.59502182e-01  3.29004401e-09  3.19913063e-09  4.59502182e-01  1.61917635e-07  1.23924583e-07  5.10000000e-01 
 5.20000000e-01  3.32289947e-09  4.59502189e-01  4.59502189e-01  4.59502189e-01  3.29004406e-09  3.19913063e-09  4.59502189e-01  1.61917644e-07  1.23924455e-07  5.20000000e-01 
 5.30000000e-01  3.32289941e-09  4.59502163e-01  4.59502163e-01  4.59502163e-01  3.29004400e-09  3.19913063e-09  4.59502163e-01  1.61917624e-07  1.23924373e-07  5.30000000e-01 
 5.40000000e-01  3.32289947e-09  4.59502167e-01  4.59502167e-01  4.59502167e-01  3.29004401e-09  3.19913063e-09  4.59502167e-01  1.61917605e-07  1.23924153e-07  5.40000000e-01 
 5.50000000e-01  3.32289942e-09  4.59502172e-01  4.59502172e-01  4.59502172e-01  3.29004401e-09  3.19913063e-09  4.59502172e-01  1.61917621e-07  1.23924149e-07  5.50000000e-01 
 5.60000000e-01  3.32289942e-09  4.59502197e-01  4.59502197e-01  4.59502197e-01  3.29004401e-09  3.19913063e-09  4.59502197e-01  1.61917663e-07  1.23924096e-07  5.60000000e-01 
 5.70000000e-01  3.32289942e-09  4.59502184e-01  4.59502185e-01  4.59502184e-01  3.29004401e-09  3.19913063e-09  4.59502184e-01  1.61917635e-07  1.23923982e-07  5.70000000e-01 
 5.80000000e-01  3.32289947e-09  4.59502171e-01  4.59502171e-01  4.59502171e-01  3.29004401e-09  3.19913063e-09  4.59502171e-01  1.61917622e-07  1.23923947e-07  5.80000000e-01 
 5.90000000e-01  3.32289942e-09  4.59502178e-01  4.59502178e-01  4.59502178e-01  3.29004401e-09  3.19913063e-09  4.59502178e-01  1.61917617e-07  1.23923940e-07  5.90000000e-01 
 6.00000000e-01  3.32289941e-09  4.59502166e-01  4.59502166e-01  4.59502166e-01  3.29004401e-09  3.19913063e-09  4.59502166e-01  1.61917619e-07  1.23923733e-07  6.00000000e-01 
 6.10000000e-01  3.32289942e-09  4.59502176e-01  4.59502176e-01  4.59502176e-01  3.29004401e-09  3.19913063e-09  4.59502176e-01  1.61917628e-07  1.23923670e-07  6.10000000e-01 
 6.20000000e-01  3.32289942e-09  4.59502171e-01  4.59502171e-01  4.59502171e-01  3.29004401e-09  3.19913063e-09  4.59502171e-01  1.61917620e-07  1.23923520e-07  6.20000000e-01 
 6.30000000e-01  3.32289942e-09  4.59502183e-01  4.59502183e-01  4.59502183e-01  3.29004401e-09  3.19913063e-09  4.59502183e-01  1.61917645e-07  1.23923556e-07  6.30000000e-01 
 6.40000000e-01  3.32289942e-09  4.59502184e-01  4.59502184e-01  4.59502184e-01  3.29004401e-09  3.19913063e-09  4.59502184e-01  1.61917648e-07  1.23923435e-07  6.40000000e-01 
 6.50000000e-01  3.32289942e-09  4.59502172e-01  4.59502172e-01  4.59502172e-01  3.29004401e-09  3.19913063e-09  4.59502172e-01  1.61917619e-07  1.23923307e-07  6.50000000e-01 
 6.60000000e-01  3.32289947e-09  4.59502168e-01  4.59502168e-01  4.59502168e-01  3.29004401e-09  3.19913063e-09  4.59502168e-01  1.61917627e-07  1.23923286e-07  6.60000000e-01 
 6.70000000e-01  3.32289942e-09  4.59502180e-01  4.59502181e-01  4.59502181e-01  3.29004401e-09  3.19913063e-09  4.59502180e-01  1.61917633e-07  1.23923144e-07  6.70000000e-01 
 6.80000000e-01  3.32289942e-09  4.59502192e-01  4.59502193e-01  4.59502193e-01  3.29004401e-09  3.19913063e-09  4.59502192e-01  1.61917667e-07  1.23923080e-07  6.80000000e-01 
 6.90000000e-01  3.32289942e-09  4.59502198e-01  4.59502198e-01  4.59502198e-01  3.29004401e-09  3.19913063e-09  4.59502198e-01  1.61917663e-07  1.23923030e-07  6.90000000e-01 
 7.00000000e-01  3.32289942e-09  4.59502200e-01  4.59502200e-01  4.59502200e-01  3.29004401e-09  3.19913063e-09  4.59502200e-01  1.61917660e-07  1.23922916e-07  7.00000000e-01 
 7.10000000e-01  3.32289942e-09  4.59502201e-01  4.59502201e-01  4.59502201e-01  3.29004401e-09  3.19913063e-09  4.59502201e-01  1.61917663e-07  1.23922874e-07  7.10000000e-01 
 7.20000000e-01  3.32289942e-09  4.59502189e-01  4.59502189e-01  4.59502189e-01  3.29004401e-09  3.19913063e-09  4.59502189e-01  1.61917653e-07  1.23922710e-07  7.20000000e-01 
 7.30000000e-01  3.32289947e-09  4.59502184e-01  4.59502184e-01  4.59502184e-01  3.29004401e-09  3.19913063e-09  4.59502184e-01  1.61917638e-07  1.23922597e-07  7.30000000e-01 
 7.40000000e-01  3.32289942e-09  4.59502176e-01  4.59502176e-01  4.59502176e-01  3.29004401e-09  3.19913063e-09  4.59502176e-01  1.61917619e-07  1.23922597e-07  7.40000000e-01 
 7.50000000e-01  3.32289947e-09  4.59502177e-01  4.59502177e-01  4.59502177e-01  3.29004401e-09  3.19913063e-09  4.59502177e-01  1.61917636e-07  1.23922447e-07  7.50000000e-01 
 7.60000000e-01  3.32289942e-09  4.59502202e-01  4.59502202e-01  4.59502202e-01  3.29004401e-09  3.19913063e-09  4.59502202e-01  1.61917654e-07  1.23922398e-07  7.60000000e-01 
 7.70000000e-01  3.32289942e-09  4.59502202e-01  4.59502202e-01  4.59502202e-01  3.29004401e-09  3.19913069e-09  4.59502202e-01  1.61917668e-07  1.23922362e-07  7.70000000e-01 
 7.80000000e-01  3.32289947e-09  4.59502162e-01  4.59502162e-01  4.59502162e-01  3.29004400e-09  3.19913069e-09  4.59502162e-01  1.61917612e-07  1.23922078e-07  7.80000000e-01 
 7.90000000e-01  3.32289941e-09  4.59502152e-01  4.59502152e-01  4.59502152e-01  3.29004400e-09  3.19913063e-09  4.59502152e-01  1.61917583e-07  1.23922014e-07  7.90000000e-01 
 8.00000000e-01  3.32289941e-09  4.59502168e-01  4.59502168e-01  4.59502168e-01  3.29004406e-09  3.19913063e-09  4.59502168e-01  1.61917625e-07  1.23922007e-07  8.00000000e-01 
 8.10000000e-01  3.32289947e-09  4.59502165e-01  4.59502165e-01  4.59502165e-01  3.29004406e-09  3.19913063e-09  4.59502165e-01  1.61917614e-07  1.23921950e-07  8.10000000e-01 
 8.20000000e-01  3.32289942e-09  4.59502180e-01  4.59502180e-01  4.59502180e-01  3.29004401e-09  3.19913063e-09  4.59502180e-01  1.61917627e-07  1.23921943e-07  8.20000000e-01 
 8.30000000e-01  3.32289942e-09  4.59502173e-01  4.59502173e-01  4.59502173e-01  3.29004401e-09  3.19913063e-09  4.59502173e-01  1.61917623e-07  1.23921780e-07  8.30000000e-01 
 8.40000000e-01  3.32289942e-09  4.59502182e-01  4.59502182e-01  4.59502182e-01  3.29004401e-09  3.19913063e-09  4.59502182e-01  1.61917627e-07  1.23921765e-07  8.40000000e-01 
 8.50000000e-01  3.32289942e-09  4.59502183e-01  4.59502183e-01  4.59502183e-01  3.29004401e-09  3.19913063e-09  4.59502183e-01  1.61917626e-07  1.23921616e-07  8.50000000e-01 
 8.60000000e-01  3.32289942e-09  4.59502177e-01  4.59502177e-01  4.59502177e-01  3.29004401e-09  3.19913063e-09  4.59502177e-01  1.61917628e-07  1.23921524e-07  8.60000000e-01 
 8.70000000e-01  3.32289942e-09  4.59502184e-01  4.59502184e-01  4.59502184e-01  3.29004401e-09  3.19913063e-09  4.59502184e-01  1.61917647e-07  1.23921446e-07  8.70000000e-01 
 8.80000000e-01  3.32289942e-09  4.59502183e-01  4.59502183e-01  4.59502183e-01  3.29004401e-09  3.19913063e-09  4.59502183e-01  1.61917638e-07  1.23921296e-07  8.80000000e-01 
 8.90000000e-01  3.32289942e-09  4.59502183e-01  4.59502183e-01  4.59502183e-01  3.29004401e-09  3.19913063e-09  4.59502183e-01  1.61917624e-07  1.23921225e-07  8.90000000e-01 
 9.00000000e-01  3.32289942e-09  4.59502175e-01  4.59502175e-01  4.59502175e-01  3.29004401e-09  3.19913063e-09  4.59502174e-01  1.61917624e-07  1.23921176e-07  9.00000000e-01 
 9.10000000e-01  3.32289947e-09  4.59502181e-01  4.59502181e-01  4.59502181e-01  3.29004401e-09  3.19913063e-09  4.59502181e-01  1.61917642e-07  1.23921104e-07  9.10000000e-01 
 9.20000000e-01  3.32289942e-09  4.59502192e-01  4.59502193e-01  4.59502193e-01  3.29004401e-09  3.19913063e-09  4.59502192e-01  1.61917663e-07  1.23920898e-07  9.20000000e-01 
 9.30000000e-01  3.32289947e-09  4.59502179e-01  4.59502179e-01  4.59502179e-01  3.29004401e-09  3.19913063e-09  4.59502179e-01  1.61917635e-07  1.23920913e-07  9.30000000e-01 
 9.40000000e-01  3.32289942e-09  4.59502181e-01  4.59502181e-01  4.59502181e-01  3.29004401e-09  3.19913063e-09  4.59502181e-01  1.61917627e-07  1.23920721e-07  9.40000000e-01 
 9.50000000e-01  3.32289941e-09  4.59502168e-01  4.59502168e-01  4.59502168e-01  3.29004401e-09  3.19913063e-09  4.59502168e-01  1.61917623e-07  1.23920628e-07  9.50000000e-01 
 9.60000000e-01  3.32289947e-09  4.59502169e-01  4.59502169e-01  4.59502169e-01  3.29004401e-09  3.19913063e-09  4.59502169e-01  1.61917610e-07  1.23920493e-07  9.60000000e-01 
 9.70000000e-01  3.32289942e-09  4.59502183e-01  4.59502183e-01  4.59502183e-01  3.29004401e-09  3.19913063e-09  4.59502183e-01  1.61917636e-07  1.23920607e-07  9.70000000e-01 
 9.80000000e-01  3.32289942e-09  4.59502204e-01  4.59502204e-01  4.59502204e-01  3.29004401e-09  3.19913063e-09  4.59502204e-01  1.61917660e-07  1.23920451e-07  9.80000000e-01 
 9.90000000e-01  3.32289941e-09  4.59502164e-01  4.59502164e-01  4.59502164e-01  3.29004400e-09  3.19913063e-09  4.59502164e-01  1.61917612e-07  1.23920152e-07  9.90000000e-01 
 1.00000000e+00  3.32289942e-09  4.59502194e-01  4.59502195e-01  4.59502195e-01  3.29004401e-09  3.19913063e-09  4.59502194e-01  1.61917658e-07  1.23920159e-07  1.00000000e+00 
 1.01000000e+00  3.32289942e-09  4.59502177e-01  4.59502177e-01  4.59502177e-01  3.29004401e-09  3.19913063e-09  4.59502177e-01  1.61917639e-07  1.23920117e-07  1.01000000e+00 
 1.02000000e+00  3.32289942e-09  4.59502175e-01  4.59502175e-01  4.59502175e-01  3.29004401e-09  3.19913063e-09  4.59502175e-01  1.61917620e-07  1.23919961e-07  1.02000000e+00 
 1.03000000e+00  3.32289947e-09  4.59502165e-01  4.59502165e-01  4.59502165e-01  3.29004400e-09  3.19913069e-09  4.59502165e-01  1.61917613e-07  1.23919769e-07  1.03000000e+00 
 1.04000000e+00  3.32289947e-09  4.59502164e-01  4.59502164e-01  4.59502164e-01  3.29004400e-09  3.19913063e-09  4.59502164e-01  1.61917599e-07  1.23919705e-07  1.04000000e+00 
 1.05000000e+00  3.32289941e-09  4.59502161e-01  4.59502161e-01  4.59502161e-01  3.29004400e-09  3.19913063e-09  4.59502161e-01  1.61917603e-07  1.23919570e-07  1.05000000e+00 
 1.06000000e+00  3.32289941e-09  4.59502162e-01  4.59502162e-01  4.59502162e-01  3.29004400e-09  3.19913069e-09  4.59502162e-01  1.61917612e-07  1.23919627e-07  1.06000000e+00 
 1.07000000e+00  3.32289941e-09  4.59502159e-01  4.59502159e-01  4.59502159e-01  3.29004400e-09  3.19913063e-09  4.59502159e-01  1.61917597e-07  1.23919371e-07  1.07000000e+00 
 1.08000000e+00  3.32289942e-09  4.59502180e-01  4.59502180e-01  4.59502180e-01  3.29004401e-09  3.19913063e-09  4.59502180e-01  1.61917638e-07  1.23919342e-07  1.08000000e+00 
 1.09000000e+00  3.32289947e-09  4.59502190e-01  4.59502190e-01  4.59502190e-01  3.29004401e-09  3.19913069e-09  4.59502190e-01  1.61917651e-07  1.23919278e-07  1.09000000e+00 
 1.10000000e+00  3.32289941e-09  4.59502165e-01  4.59502165e-01  4.59502165e-01  3.29004400e-09  3.19913063e-09  4.59502165e-01  1.61917608e-07  1.23919094e-07  1.10000000e+00 
