 v-sweep         v(b0)           v(b1)           v(b2)           v(b3)           v(b4)           v(b5)           v(b6)           i(vbias)        i(viout)        v(vout)        
 0.00000000e+00  3.56951415e-09  3.31054245e-09  3.20852651e-09  3.34650953e-09  4.60017542e-01  4.60017542e-01  4.60017542e-01  1.63340909e-07  1.72595993e-07  0.00000000e+00 
 1.00000000e-02  3.56951424e-09  3.31054243e-09  3.20852649e-09  3.34650951e-09  4.60017533e-01  4.60017533e-01  4.60017533e-01  1.63340909e-07  1.72595405e-07  1.00000000e-02 
 2.00000000e-02  3.56951419e-09  3.31054248e-09  3.20852656e-09  3.34650951e-09  4.60017538e-01  4.60017538e-01  4.60017538e-01  1.63340905e-07  1.72594939e-07  2.00000000e-02 
 3.00000000e-02  3.56951418e-09  3.31054248e-09  3.20852649e-09  3.34650951e-09  4.60017517e-01  4.60017517e-01  4.60017517e-01  1.63340874e-07  1.72594410e-07  3.00000000e-02 
 4.00000000e-02  3.56951419e-09  3.31054248e-09  3.20852651e-09  3.34650951e-09  4.60017532e-01  4.60017532e-01  4.60017532e-01  1.63340911e-07  1.72594095e-07  4.00000000e-02 
 5.00000000e-02  3.56951419e-09  3.31054243e-09  3.20852655e-09  3.34650951e-09  4.60017522e-01  4.60017522e-01  4.60017522e-01  1.63340893e-07  1.72593621e-07  5.00000000e-02 
 6.00000000e-02  3.56951424e-09  3.31054248e-09  3.20852655e-09  3.34650951e-09  4.60017535e-01  4.60017535e-01  4.60017535e-01  1.63340897e-07  1.72593377e-07  6.00000000e-02 
 7.00000000e-02  3.56951419e-09  3.31054248e-09  3.20852655e-09  3.34650951e-09  4.60017525e-01  4.60017525e-01  4.60017525e-01  1.63340895e-07  1.72592837e-07  7.00000000e-02 
 8.00000000e-02  3.56951419e-09  3.31054243e-09  3.20852655e-09  3.34650951e-09  4.60017549e-01  4.60017549e-01  4.60017549e-01  1.63340928e-07  1.72592568e-07  8.00000000e-02 
 9.00000000e-02  3.56951419e-09  3.31054243e-09  3.20852650e-09  3.34650951e-09  4.60017545e-01  4.60017545e-01  4.60017545e-01  1.63340911e-07  1.72592261e-07  9.00000000e-02 
 1.00000000e-01  3.56951419e-09  3.31054243e-09  3.20852651e-09  3.34650945e-09  4.60017536e-01  4.60017535e-01  4.60017536e-01  1.63340909e-07  1.72592006e-07  1.00000000e-01 
 1.10000000e-01  3.56951419e-09  3.31054249e-09  3.20852649e-09  3.34650951e-09  4.60017547e-01  4.60017547e-01  4.60017547e-01  1.63340916e-07  1.72591730e-07  1.10000000e-01 
 1.20000000e-01  3.56951424e-09  3.31054248e-09  3.20852656e-09  3.34650945e-09  4.60017530e-01  4.60017530e-01  4.60017531e-01  1.63340895e-07  1.72591337e-07  1.20000000e-01 
 1.30000000e-01  3.56951419e-09  3.31054248e-09  3.20852655e-09  3.34650951e-09  4.60017537e-01  4.60017537e-01  4.60017537e-01  1.63340902e-07  1.72591083e-07  1.30000000e-01 
 1.40000000e-01  3.56951419e-09  3.31054243e-09  3.20852655e-09  3.34650951e-09  4.60017525e-01  4.60017525e-01  4.60017525e-01  1.63340900e-07  1.72590785e-07  1.40000000e-01 
 1.50000000e-01  3.56951419e-09  3.31054243e-09  3.20852655e-09  3.34650951e-09  4.60017531e-01  4.60017531e-01  4.60017531e-01  1.63340892e-07  1.72590502e-07  1.50000000e-01 
 1.60000000e-01  3.56951419e-09  3.31054243e-09  3.20852650e-09  3.34650951e-09  4.60017539e-01  4.60017539e-01  4.60017539e-01  1.63340901e-07  1.72590365e-07  1.60000000e-01 
 1.70000000e-01  3.56951418e-09  3.31054248e-09  3.20852651e-09  3.34650951e-09  4.60017521e-01  4.60017521e-01  4.60017521e-01  1.63340891e-07  1.72589976e-07  1.70000000e-01 
 1.80000000e-01  3.56951419e-09  3.31054243e-09  3.20852649e-09  3.34650951e-09  4.60017525e-01  4.60017525e-01  4.60017525e-01  1.63340893e-07  1.72589750e-07  1.80000000e-01 
 1.90000000e-01  3.56951419e-09  3.31054249e-09  3.20852656e-09  3.34650951e-09  4.60017544e-01  4.60017544e-01  4.60017544e-01  1.63340909e-07  1.72589644e-07  1.90000000e-01 
 2.00000000e-01  3.56951419e-09  3.31054248e-09  3.20852655e-09  3.34650951e-09  4.60017525e-01  4.60017524e-01  4.60017525e-01  1.63340886e-07  1.72589381e-07  2.00000000e-01 
 2.10000000e-01  3.56951419e-09  3.31054249e-09  3.20852655e-09  3.34650951e-09  4.60017549e-01  4.60017549e-01  4.60017549e-01  1.63340925e-07  1.72589232e-07  2.10000000e-01 
 2.20000000e-01  3.56951419e-09  3.31054248e-09  3.20852649e-09  3.34650951e-09  4.60017528e-01  4.60017528e-01  4.60017528e-01  1.63340894e-07  1.72588786e-07  2.20000000e-01 
 2.30000000e-01  3.56951418e-09  3.31054248e-09  3.20852656e-09  3.34650951e-09  4.60017518e-01  4.60017518e-01  4.60017518e-01  1.63340869e-07  1.72588688e-07  2.30000000e-01 
 2.40000000e-01  3.56951419e-09  3.31054243e-09  3.20852649e-09  3.34650951e-09  4.60017530e-01  4.60017530e-01  4.60017531e-01  1.63340899e-07  1.72588502e-07  2.40000000e-01 
 2.50000000e-01  3.56951419e-09  3.31054249e-09  3.20852656e-09  3.34650951e-09  4.60017543e-01  4.60017543e-01  4.60017543e-01  1.63340905e-07  1.72588342e-07  2.50000000e-01 
 2.60000000e-01  3.56951419e-09  3.31054243e-09  3.20852655e-09  3.34650945e-09  4.60017536e-01  4.60017536e-01  4.60017536e-01  1.63340903e-07  1.72588084e-07  2.60000000e-01 
 2.70000000e-01  3.56951419e-09  3.31054249e-09  3.20852655e-09  3.34650951e-09  4.60017548e-01  4.60017548e-01  4.60017548e-01  1.63340932e-07  1.72588027e-07  2.70000000e-01 
 2.80000000e-01  3.56951419e-09  3.31054243e-09  3.20852649e-09  3.34650951e-09  4.60017528e-01  4.60017528e-01  4.60017528e-01  1.63340888e-07  1.72587836e-07  2.80000000e-01 
 2.90000000e-01  3.56951419e-09  3.31054243e-09  3.20852651e-09  3.34650951e-09  4.60017540e-01  4.60017540e-01  4.60017541e-01  1.63340912e-07  1.72587594e-07  2.90000000e-01 
 3.00000000e-01  3.56951418e-09  3.31054243e-09  3.20852654e-09  3.34650951e-09  4.60017516e-01  4.60017516e-01  4.60017516e-01  1.63340875e-07  1.72587395e-07  3.00000000e-01 
 3.10000000e-01  3.56951419e-09  3.31054243e-09  3.20852650e-09  3.34650951e-09  4.60017535e-01  4.60017535e-01  4.60017535e-01  1.63340901e-07  1.72587193e-07  3.10000000e-01 
 3.20000000e-01  3.56951419e-09  3.31054248e-09  3.20852651e-09  3.34650951e-09  4.60017524e-01  4.60017524e-01  4.60017525e-01  1.63340871e-07  1.72587118e-07  3.20000000e-01 
 3.30000000e-01  3.56951419e-09  3.31054243e-09  3.20852655e-09  3.34650951e-09  4.60017530e-01  4.60017530e-01  4.60017530e-01  1.63340902e-07  1.72586958e-07  3.30000000e-01 
 3.40000000e-01  3.56951418e-09  3.31054248e-09  3.20852655e-09  3.34650945e-09  4.60017521e-01  4.60017521e-01  4.60017521e-01  1.63340886e-07  1.72586702e-07  3.40000000e-01 
 3.50000000e-01  3.56951418e-09  3.31054243e-09  3.20852649e-09  3.34650951e-09  4.60017516e-01  4.60017516e-01  4.60017517e-01  1.63340881e-07  1.72586549e-07  3.50000000e-01 
 3.60000000e-01  3.56951419e-09  3.31054248e-09  3.20852656e-09  3.34650951e-09  4.60017537e-01  4.60017537e-01  4.60017537e-01  1.63340894e-07  1.72586539e-07  3.60000000e-01 
 3.70000000e-01  3.56951419e-09  3.31054248e-09  3.20852655e-09  3.34650951e-09  4.60017528e-01  4.60017528e-01  4.60017528e-01  1.63340902e-07  1.72586290e-07  3.70000000e-01 
 3.80000000e-01  3.56951419e-09  3.31054249e-09  3.20852650e-09  3.34650951e-09  4.60017547e-01  4.60017547e-01  4.60017548e-01  1.63340920e-07  1.72586276e-07  3.80000000e-01 
 3.90000000e-01  3.56951419e-09  3.31054243e-09  3.20852651e-09  3.34650945e-09  4.60017538e-01  4.60017537e-01  4.60017538e-01  1.63340910e-07  1.72586020e-07  3.90000000e-01 
 4.00000000e-01  3.56951418e-09  3.31054248e-09  3.20852654e-09  3.34650945e-09  4.60017508e-01  4.60017508e-01  4.60017509e-01  1.63340874e-07  1.72585789e-07  4.00000000e-01 
 4.10000000e-01  3.56951419e-09  3.31054243e-09  3.20852650e-09  3.34650951e-09  4.60017542e-01  4.60017542e-01  4.60017542e-01  1.63340905e-07  1.72585786e-07  4.10000000e-01 
 4.20000000e-01  3.56951418e-09  3.31054248e-09  3.20852651e-09  3.34650951e-09  4.60017512e-01  4.60017512e-01  4.60017512e-01  1.63340866e-07  1.72585551e-07  4.20000000e-01 
 4.30000000e-01  3.56951419e-09  3.31054249e-09  3.20852655e-09  3.34650951e-09  4.60017542e-01  4.60017542e-01  4.60017542e-01  1.63340917e-07  1.72585469e-07  4.30000000e-01 
 4.40000000e-01  3.56951418e-09  3.31054248e-09  3.20852649e-09  3.34650945e-09  4.60017497e-01  4.60017497e-01  4.60017497e-01  1.63340847e-07  1.72585214e-07  4.40000000e-01 
 4.50000000e-01  3.56951419e-09  3.31054248e-09  3.20852656e-09  3.34650951e-09  4.60017541e-01  4.60017541e-01  4.60017541e-01  1.63340919e-07  1.72585199e-07  4.50000000e-01 
 4.60000000e-01  3.56951419e-09  3.31054243e-09  3.20852655e-09  3.34650951e-09  4.60017556e-01  4.60017556e-01  4.60017556e-01  1.63340924e-07  1.72585150e-07  4.60000000e-01 
 4.70000000e-01  3.56951419e-09  3.31054243e-09  3.20852650e-09  3.34650951e-09  4.60017542e-01  4.60017542e-01  4.60017543e-01  1.63340914e-07  1.72584976e-07  4.70000000e-01 
 4.80000000e-01  3.56951419e-09  3.31054243e-09  3.20852651e-09  3.34650951e-09  4.60017537e-01  4.60017537e-01  4.60017537e-01  1.63340911e-07  1.72584855e-07  4.80000000e-01 
 4.90000000e-01  3.56951419e-09  3.31054248e-09  3.20852649e-09  3.34650951e-09  4.60017541e-01  4.60017541e-01  4.60017541e-01  1.63340911e-07  1.72584592e-07  4.90000000e-01 
 5.00000000e-01  3.56951419e-09  3.31054243e-09  3.20852651e-09  3.34650945e-09  4.60017547e-01  4.60017547e-01  4.60017547e-01  1.63340923e-07  1.72584528e-07  5.00000000e-01 
 5.10000000e-01  3.56951419e-09  3.31054243e-09  3.20852655e-09  3.34650945e-09  4.60017557e-01  4.60017557e-01  4.60017557e-01  1.63340937e-07  1.72584425e-07  5.10000000e-01 
 5.20000000e-01  3.56951419e-09  3.31054243e-09  3.20852655e-09  3.34650945e-09  4.60017545e-01  4.60017545e-01  4.60017545e-01  1.63340908e-07  1.72584286e-07  5.20000000e-01 
 5.30000000e-01  3.56951419e-09  3.31054248e-09  3.20852650e-09  3.34650945e-09  4.60017537e-01  4.60017537e-01  4.60017538e-01  1.63340914e-07  1.72584045e-07  5.30000000e-01 
 5.40000000e-01  3.56951419e-09  3.31054243e-09  3.20852656e-09  3.34650951e-09  4.60017543e-01  4.60017543e-01  4.60017543e-01  1.63340906e-07  1.72584130e-07  5.40000000e-01 
 5.50000000e-01  3.56951419e-09  3.31054243e-09  3.20852649e-09  3.34650945e-09  4.60017535e-01  4.60017535e-01  4.60017535e-01  1.63340919e-07  1.72583757e-07  5.50000000e-01 
 5.60000000e-01  3.56951419e-09  3.31054248e-09  3.20852651e-09  3.34650945e-09  4.60017524e-01  4.60017524e-01  4.60017525e-01  1.63340883e-07  1.72583569e-07  5.60000000e-01 
 5.70000000e-01  3.56951419e-09  3.31054248e-09  3.20852649e-09  3.34650951e-09  4.60017537e-01  4.60017537e-01  4.60017537e-01  1.63340909e-07  1.72583604e-07  5.70000000e-01 
 5.80000000e-01  3.56951419e-09  3.31054243e-09  3.20852651e-09  3.34650945e-09  4.60017542e-01  4.60017542e-01  4.60017542e-01  1.63340910e-07  1.72583540e-07  5.80000000e-01 
 5.90000000e-01  3.56951419e-09  3.31054243e-09  3.20852655e-09  3.34650951e-09  4.60017536e-01  4.60017536e-01  4.60017536e-01  1.63340894e-07  1.72583320e-07  5.90000000e-01 
 6.00000000e-01  3.56951419e-09  3.31054243e-09  3.20852655e-09  3.34650945e-09  4.60017534e-01  4.60017534e-01  4.60017534e-01  1.63340904e-07  1.72583235e-07  6.00000000e-01 
 6.10000000e-01  3.56951419e-09  3.31054243e-09  3.20852649e-09  3.34650951e-09  4.60017524e-01  4.60017523e-01  4.60017524e-01  1.63340899e-07  1.72583064e-07  6.10000000e-01 
 6.20000000e-01  3.56951418e-09  3.31054243e-09  3.20852651e-09  3.34650951e-09  4.60017522e-01  4.60017522e-01  4.60017522e-01  1.63340894e-07  1.72582894e-07  6.20000000e-01 
 6.30000000e-01  3.56951419e-09  3.31054248e-09  3.20852655e-09  3.34650951e-09  4.60017534e-01  4.60017534e-01  4.60017534e-01  1.63340910e-07  1.72582752e-07  6.30000000e-01 
 6.40000000e-01  3.56951419e-09  3.31054249e-09  3.20852655e-09  3.34650945e-09  4.60017564e-01  4.60017564e-01  4.60017564e-01  1.63340943e-07  1.72582702e-07  6.40000000e-01 
 6.50000000e-01  3.56951419e-09  3.31054243e-09  3.20852650e-09  3.34650951e-09  4.60017544e-01  4.60017544e-01  4.60017544e-01  1.63340920e-07  1.72582560e-07  6.50000000e-01 
 6.60000000e-01  3.56951419e-09  3.31054248e-09  3.20852651e-09  3.34650951e-09  4.60017539e-01  4.60017539e-01  4.60017539e-01  1.63340908e-07  1.72582489e-07  6.60000000e-01 
 6.70000000e-01  3.56951419e-09  3.31054248e-09  3.20852649e-09  3.34650945e-09  4.60017527e-01  4.60017527e-01  4.60017527e-01  1.63340883e-07  1.72582332e-07  6.70000000e-01 
 6.80000000e-01  3.56951419e-09  3.31054248e-09  3.20852651e-09  3.34650945e-09  4.60017533e-01  4.60017533e-01  4.60017533e-01  1.63340897e-07  1.72582254e-07  6.80000000e-01 
 6.90000000e-01  3.56951419e-09  3.31054243e-09  3.20852655e-09  3.34650945e-09  4.60017542e-01  4.60017542e-01  4.60017543e-01  1.63340916e-07  1.72582077e-07  6.90000000e-01 
 7.00000000e-01  3.56951418e-09  3.31054243e-09  3.20852649e-09  3.34650951e-09  4.60017512e-01  4.60017512e-01  4.60017512e-01  1.63340876e-07  1.72581764e-07  7.00000000e-01 
 7.10000000e-01  3.56951419e-09  3.31054248e-09  3.20852656e-09  3.34650951e-09  4.60017524e-01  4.60017524e-01  4.60017524e-01  1.63340888e-07  1.72581615e-07  7.10000000e-01 
 7.20000000e-01  3.56951424e-09  3.31054243e-09  3.20852649e-09  3.34650951e-09  4.60017537e-01  4.60017537e-01  4.60017537e-01  1.63340917e-07  1.72581686e-07  7.20000000e-01 
 7.30000000e-01  3.56951419e-09  3.31054248e-09  3.20852651e-09  3.34650951e-09  4.60017524e-01  4.60017524e-01  4.60017524e-01  1.63340887e-07  1.72581444e-07  7.30000000e-01 
 7.40000000e-01  3.56951419e-09  3.31054243e-09  3.20852649e-09  3.34650951e-09  4.60017538e-01  4.60017538e-01  4.60017538e-01  1.63340906e-07  1.72581316e-07  7.40000000e-01 
 7.50000000e-01  3.56951419e-09  3.31054249e-09  3.20852651e-09  3.34650951e-09  4.60017547e-01  4.60017547e-01  4.60017547e-01  1.63340921e-07  1.72581331e-07  7.50000000e-01 
 7.60000000e-01  3.56951419e-09  3.31054248e-09  3.20852649e-09  3.34650951e-09  4.60017532e-01  4.60017532e-01  4.60017532e-01  1.63340895e-07  1.72581196e-07  7.60000000e-01 
 7.70000000e-01  3.56951419e-09  3.31054243e-09  3.20852656e-09  3.34650951e-09  4.60017532e-01  4.60017531e-01  4.60017532e-01  1.63340893e-07  1.72580904e-07  7.70000000e-01 
 7.80000000e-01  3.56951419e-09  3.31054249e-09  3.20852655e-09  3.34650951e-09  4.60017550e-01  4.60017550e-01  4.60017550e-01  1.63340920e-07  1.72580854e-07  7.80000000e-01 
 7.90000000e-01  3.56951419e-09  3.31054243e-09  3.20852650e-09  3.34650951e-09  4.60017534e-01  4.60017534e-01  4.60017534e-01  1.63340907e-07  1.72580613e-07  7.90000000e-01 
 8.00000000e-01  3.56951419e-09  3.31054243e-09  3.20852651e-09  3.34650945e-09  4.60017549e-01  4.60017549e-01  4.60017549e-01  1.63340918e-07  1.72580535e-07  8.00000000e-01 
 8.10000000e-01  3.56951418e-09  3.31054243e-09  3.20852654e-09  3.34650951e-09  4.60017515e-01  4.60017515e-01  4.60017515e-01  1.63340880e-07  1.72580272e-07  8.10000000e-01 
 8.20000000e-01  3.56951419e-09  3.31054243e-09  3.20852655e-09  3.34650951e-09  4.60017526e-01  4.60017526e-01  4.60017526e-01  1.63340893e-07  1.72580151e-07  8.20000000e-01 
 8.30000000e-01  3.56951419e-09  3.31054249e-09  3.20852655e-09  3.34650951e-09  4.60017547e-01  4.60017547e-01  4.60017547e-01  1.63340921e-07  1.72580158e-07  8.30000000e-01 
 8.40000000e-01  3.56951419e-09  3.31054248e-09  3.20852649e-09  3.34650951e-09  4.60017526e-01  4.60017525e-01  4.60017526e-01  1.63340882e-07  1.72579988e-07  8.40000000e-01 
 8.50000000e-01  3.56951419e-09  3.31054243e-09  3.20852656e-09  3.34650945e-09  4.60017534e-01  4.60017534e-01  4.60017535e-01  1.63340903e-07  1.72579817e-07  8.50000000e-01 
 8.60000000e-01  3.56951424e-09  3.31054248e-09  3.20852649e-09  3.34650951e-09  4.60017540e-01  4.60017540e-01  4.60017540e-01  1.63340903e-07  1.72579746e-07  8.60000000e-01 
 8.70000000e-01  3.56951419e-09  3.31054248e-09  3.20852656e-09  3.34650951e-09  4.60017538e-01  4.60017538e-01  4.60017538e-01  1.63340907e-07  1.72579576e-07  8.70000000e-01 
 8.80000000e-01  3.56951419e-09  3.31054243e-09  3.20852655e-09  3.34650951e-09  4.60017537e-01  4.60017537e-01  4.60017537e-01  1.63340917e-07  1.72579348e-07  8.80000000e-01 
 8.90000000e-01  3.56951418e-09  3.31054243e-09  3.20852655e-09  3.34650951e-09  4.60017520e-01  4.60017520e-01  4.60017521e-01  1.63340882e-07  1.72579355e-07  8.90000000e-01 
 9.00000000e-01  3.56951419e-09  3.31054243e-09  3.20852649e-09  3.34650951e-09  4.60017529e-01  4.60017529e-01  4.60017530e-01  1.63340904e-07  1.72579000e-07  9.00000000e-01 
 9.10000000e-01  3.56951419e-09  3.31054243e-09  3.20852651e-09  3.34650951e-09  4.60017541e-01  4.60017541e-01  4.60017542e-01  1.63340903e-07  1.72578972e-07  9.10000000e-01 
 9.20000000e-01  3.56951418e-09  3.31054248e-09  3.20852655e-09  3.34650951e-09  4.60017521e-01  4.60017521e-01  4.60017522e-01  1.63340881e-07  1.72578630e-07  9.20000000e-01 
 9.30000000e-01  3.56951419e-09  3.31054243e-09  3.20852649e-09  3.34650951e-09  4.60017527e-01  4.60017527e-01  4.60017527e-01  1.63340899e-07  1.72578559e-07  9.30000000e-01 
 9.40000000e-01  3.56951419e-09  3.31054243e-09  3.20852651e-09  3.34650951e-09  4.60017543e-01  4.60017543e-01  4.60017543e-01  1.63340922e-07  1.72578545e-07  9.40000000e-01 
 9.50000000e-01  3.56951419e-09  3.31054243e-09  3.20852649e-09  3.34650951e-09  4.60017531e-01  4.60017531e-01  4.60017531e-01  1.63340897e-07  1.72578325e-07  9.50000000e-01 
 9.60000000e-01  3.56951419e-09  3.31054249e-09  3.20852651e-09  3.34650951e-09  4.60017562e-01  4.60017562e-01  4.60017562e-01  1.63340939e-07  1.72578225e-07  9.60000000e-01 
 9.70000000e-01  3.56951419e-09  3.31054243e-09  3.20852649e-09  3.34650951e-09  4.60017535e-01  4.60017535e-01  4.60017536e-01  1.63340913e-07  1.72578090e-07  9.70000000e-01 
 9.80000000e-01  3.56951418e-09  3.31054248e-09  3.20852651e-09  3.34650945e-09  4.60017504e-01  4.60017503e-01  4.60017504e-01  1.63340856e-07  1.72577771e-07  9.80000000e-01 
 9.90000000e-01  3.56951419e-09  3.31054248e-09  3.20852655e-09  3.34650951e-09  4.60017527e-01  4.60017527e-01  4.60017527e-01  1.63340898e-07  1.72577643e-07  9.90000000e-01 
 1.00000000e+00  3.56951419e-09  3.31054243e-09  3.20852655e-09  3.34650945e-09  4.60017545e-01  4.60017545e-01  4.60017545e-01  1.63340908e-07  1.72577508e-07  1.00000000e+00 
 1.01000000e+00  3.56951419e-09  3.31054243e-09  3.20852649e-09  3.34650951e-09  4.60017534e-01  4.60017534e-01  4.60017534e-01  1.63340898e-07  1.72577387e-07  1.01000000e+00 
 1.02000000e+00  3.56951419e-09  3.31054249e-09  3.20852651e-09  3.34650951e-09  4.60017544e-01  4.60017544e-01  4.60017544e-01  1.63340919e-07  1.72577252e-07  1.02000000e+00 
 1.03000000e+00  3.56951419e-09  3.31054248e-09  3.20852649e-09  3.34650951e-09  4.60017539e-01  4.60017538e-01  4.60017539e-01  1.63340908e-07  1.72577082e-07  1.03000000e+00 
 1.04000000e+00  3.56951419e-09  3.31054248e-09  3.20852656e-09  3.34650945e-09  4.60017528e-01  4.60017528e-01  4.60017528e-01  1.63340896e-07  1.72576797e-07  1.04000000e+00 
 1.05000000e+00  3.56951419e-09  3.31054243e-09  3.20852655e-09  3.34650951e-09  4.60017542e-01  4.60017542e-01  4.60017542e-01  1.63340910e-07  1.72576726e-07  1.05000000e+00 
 1.06000000e+00  3.56951419e-09  3.31054248e-09  3.20852649e-09  3.34650951e-09  4.60017533e-01  4.60017533e-01  4.60017533e-01  1.63340889e-07  1.72576577e-07  1.06000000e+00 
 1.07000000e+00  3.56951419e-09  3.31054248e-09  3.20852651e-09  3.34650951e-09  4.60017529e-01  4.60017529e-01  4.60017529e-01  1.63340891e-07  1.72576357e-07  1.07000000e+00 
 1.08000000e+00  3.56951419e-09  3.31054243e-09  3.20852655e-09  3.34650945e-09  4.60017529e-01  4.60017529e-01  4.60017529e-01  1.63340898e-07  1.72576115e-07  1.08000000e+00 
 1.09000000e+00  3.56951419e-09  3.31054243e-09  3.20852649e-09  3.34650951e-09  4.60017527e-01  4.60017527e-01  4.60017527e-01  1.63340889e-07  1.72575980e-07  1.09000000e+00 
 1.10000000e+00  3.56951418e-09  3.31054243e-09  3.20852651e-09  3.34650951e-09  4.60017520e-01  4.60017520e-01  4.60017520e-01  1.63340883e-07  1.72575838e-07  1.10000000e+00 
