 v-sweep         v(b0)           v(b1)           v(b2)           v(b3)           v(b4)           v(b5)           v(b6)           i(vbias)        i(viout)        v(vout)        
 0.00000000e+00  3.32289935e-09  3.24459840e-09  3.25620678e-09  4.59501449e-01  4.59501449e-01  3.19913061e-09  4.59501449e-01  1.61916643e-07  1.40090785e-07  0.00000000e+00 
 1.00000000e-02  3.32289933e-09  3.24459838e-09  3.25620676e-09  4.59501445e-01  4.59501445e-01  3.19913059e-09  4.59501445e-01  1.61916642e-07  1.40090211e-07  1.00000000e-02 
 2.00000000e-02  3.32289933e-09  3.24459838e-09  3.25620682e-09  4.59501441e-01  4.59501441e-01  3.19913059e-09  4.59501441e-01  1.61916631e-07  1.40089810e-07  2.00000000e-02 
 3.00000000e-02  3.32289939e-09  3.24459843e-09  3.25620676e-09  4.59501438e-01  4.59501437e-01  3.19913065e-09  4.59501438e-01  1.61916636e-07  1.40089503e-07  3.00000000e-02 
 4.00000000e-02  3.32289933e-09  3.24459843e-09  3.25620682e-09  4.59501444e-01  4.59501444e-01  3.19913059e-09  4.59501444e-01  1.61916642e-07  1.40089113e-07  4.00000000e-02 
 5.00000000e-02  3.32289939e-09  3.24459843e-09  3.25620676e-09  4.59501450e-01  4.59501450e-01  3.19913059e-09  4.59501450e-01  1.61916646e-07  1.40088758e-07  5.00000000e-02 
 6.00000000e-02  3.32289933e-09  3.24459843e-09  3.25620676e-09  4.59501436e-01  4.59501436e-01  3.19913059e-09  4.59501436e-01  1.61916630e-07  1.40088285e-07  6.00000000e-02 
 7.00000000e-02  3.32289933e-09  3.24459843e-09  3.25620682e-09  4.59501427e-01  4.59501426e-01  3.19913059e-09  4.59501426e-01  1.61916605e-07  1.40087996e-07  7.00000000e-02 
 8.00000000e-02  3.32289939e-09  3.24459843e-09  3.25620682e-09  4.59501443e-01  4.59501443e-01  3.19913059e-09  4.59501443e-01  1.61916637e-07  1.40087758e-07  8.00000000e-02 
 9.00000000e-02  3.32289933e-09  3.24459843e-09  3.25620682e-09  4.59501442e-01  4.59501442e-01  3.19913059e-09  4.59501442e-01  1.61916627e-07  1.40087480e-07  9.00000000e-02 
 1.00000000e-01  3.32289933e-09  3.24459843e-09  3.25620682e-09  4.59501436e-01  4.59501436e-01  3.19913065e-09  4.59501436e-01  1.61916627e-07  1.40087110e-07  1.00000000e-01 
 1.10000000e-01  3.32289933e-09  3.24459838e-09  3.25620682e-09  4.59501452e-01  4.59501452e-01  3.19913059e-09  4.59501452e-01  1.61916651e-07  1.40086935e-07  1.10000000e-01 
 1.20000000e-01  3.32289933e-09  3.24459843e-09  3.25620682e-09  4.59501451e-01  4.59501451e-01  3.19913059e-09  4.59501451e-01  1.61916641e-07  1.40086692e-07  1.20000000e-01 
 1.30000000e-01  3.32289938e-09  3.24459838e-09  3.25620682e-09  4.59501434e-01  4.59501434e-01  3.19913059e-09  4.59501434e-01  1.61916627e-07  1.40086295e-07  1.30000000e-01 
 1.40000000e-01  3.32289933e-09  3.24459843e-09  3.25620676e-09  4.59501442e-01  4.59501442e-01  3.19913059e-09  4.59501442e-01  1.61916638e-07  1.40086120e-07  1.40000000e-01 
 1.50000000e-01  3.32289933e-09  3.24459844e-09  3.25620682e-09  4.59501464e-01  4.59501464e-01  3.19913060e-09  4.59501464e-01  1.61916668e-07  1.40085980e-07  1.50000000e-01 
 1.60000000e-01  3.32289933e-09  3.24459843e-09  3.25620676e-09  4.59501450e-01  4.59501450e-01  3.19913059e-09  4.59501450e-01  1.61916649e-07  1.40085641e-07  1.60000000e-01 
 1.70000000e-01  3.32289933e-09  3.24459844e-09  3.25620676e-09  4.59501454e-01  4.59501454e-01  3.19913060e-09  4.59501454e-01  1.61916652e-07  1.40085492e-07  1.70000000e-01 
 1.80000000e-01  3.32289933e-09  3.24459843e-09  3.25620676e-09  4.59501445e-01  4.59501445e-01  3.19913065e-09  4.59501445e-01  1.61916642e-07  1.40085206e-07  1.80000000e-01 
 1.90000000e-01  3.32289938e-09  3.24459838e-09  3.25620676e-09  4.59501429e-01  4.59501429e-01  3.19913059e-09  4.59501429e-01  1.61916621e-07  1.40085092e-07  1.90000000e-01 
 2.00000000e-01  3.32289938e-09  3.24459843e-09  3.25620676e-09  4.59501435e-01  4.59501435e-01  3.19913059e-09  4.59501435e-01  1.61916625e-07  1.40084770e-07  2.00000000e-01 
 2.10000000e-01  3.32289933e-09  3.24459838e-09  3.25620682e-09  4.59501441e-01  4.59501441e-01  3.19913059e-09  4.59501441e-01  1.61916641e-07  1.40084655e-07  2.10000000e-01 
 2.20000000e-01  3.32289933e-09  3.24459843e-09  3.25620676e-09  4.59501449e-01  4.59501449e-01  3.19913059e-09  4.59501449e-01  1.61916636e-07  1.40084431e-07  2.20000000e-01 
 2.30000000e-01  3.32289933e-09  3.24459843e-09  3.25620682e-09  4.59501451e-01  4.59501451e-01  3.19913059e-09  4.59501451e-01  1.61916643e-07  1.40084371e-07  2.30000000e-01 
 2.40000000e-01  3.32289933e-09  3.24459843e-09  3.25620682e-09  4.59501433e-01  4.59501433e-01  3.19913059e-09  4.59501433e-01  1.61916614e-07  1.40084136e-07  2.40000000e-01 
 2.50000000e-01  3.32289933e-09  3.24459843e-09  3.25620682e-09  4.59501452e-01  4.59501452e-01  3.19913059e-09  4.59501452e-01  1.61916650e-07  1.40084021e-07  2.50000000e-01 
 2.60000000e-01  3.32289939e-09  3.24459844e-09  3.25620682e-09  4.59501462e-01  4.59501462e-01  3.19913060e-09  4.59501462e-01  1.61916672e-07  1.40083790e-07  2.60000000e-01 
 2.70000000e-01  3.32289933e-09  3.24459838e-09  3.25620682e-09  4.59501436e-01  4.59501435e-01  3.19913059e-09  4.59501435e-01  1.61916636e-07  1.40083598e-07  2.70000000e-01 
 2.80000000e-01  3.32289933e-09  3.24459838e-09  3.25620682e-09  4.59501426e-01  4.59501426e-01  3.19913059e-09  4.59501426e-01  1.61916614e-07  1.40083454e-07  2.80000000e-01 
 2.90000000e-01  3.32289933e-09  3.24459843e-09  3.25620676e-09  4.59501435e-01  4.59501434e-01  3.19913059e-09  4.59501435e-01  1.61916623e-07  1.40083323e-07  2.90000000e-01 
 3.00000000e-01  3.32289933e-09  3.24459838e-09  3.25620676e-09  4.59501425e-01  4.59501425e-01  3.19913059e-09  4.59501425e-01  1.61916610e-07  1.40083120e-07  3.00000000e-01 
 3.10000000e-01  3.32289939e-09  3.24459843e-09  3.25620682e-09  4.59501450e-01  4.59501450e-01  3.19913059e-09  4.59501450e-01  1.61916649e-07  1.40083039e-07  3.10000000e-01 
 3.20000000e-01  3.32289939e-09  3.24459844e-09  3.25620676e-09  4.59501455e-01  4.59501455e-01  3.19913060e-09  4.59501455e-01  1.61916644e-07  1.40082918e-07  3.20000000e-01 
 3.30000000e-01  3.32289933e-09  3.24459843e-09  3.25620676e-09  4.59501440e-01  4.59501440e-01  3.19913059e-09  4.59501440e-01  1.61916624e-07  1.40082822e-07  3.30000000e-01 
 3.40000000e-01  3.32289933e-09  3.24459838e-09  3.25620682e-09  4.59501452e-01  4.59501452e-01  3.19913059e-09  4.59501452e-01  1.61916637e-07  1.40082694e-07  3.40000000e-01 
 3.50000000e-01  3.32289939e-09  3.24459844e-09  3.25620676e-09  4.59501456e-01  4.59501456e-01  3.19913060e-09  4.59501456e-01  1.61916652e-07  1.40082584e-07  3.50000000e-01 
 3.60000000e-01  3.32289939e-09  3.24459843e-09  3.25620676e-09  4.59501451e-01  4.59501451e-01  3.19913059e-09  4.59501451e-01  1.61916644e-07  1.40082388e-07  3.60000000e-01 
 3.70000000e-01  3.32289933e-09  3.24459843e-09  3.25620676e-09  4.59501452e-01  4.59501452e-01  3.19913059e-09  4.59501452e-01  1.61916647e-07  1.40082363e-07  3.70000000e-01 
 3.80000000e-01  3.32289933e-09  3.24459838e-09  3.25620676e-09  4.59501423e-01  4.59501423e-01  3.19913059e-09  4.59501423e-01  1.61916601e-07  1.40082076e-07  3.80000000e-01 
 3.90000000e-01  3.32289939e-09  3.24459844e-09  3.25620676e-09  4.59501455e-01  4.59501455e-01  3.19913060e-09  4.59501455e-01  1.61916648e-07  1.40082086e-07  3.90000000e-01 
 4.00000000e-01  3.32289933e-09  3.24459838e-09  3.25620676e-09  4.59501423e-01  4.59501423e-01  3.19913059e-09  4.59501423e-01  1.61916613e-07  1.40081927e-07  4.00000000e-01 
 4.10000000e-01  3.32289938e-09  3.24459838e-09  3.25620682e-09  4.59501435e-01  4.59501435e-01  3.19913059e-09  4.59501435e-01  1.61916614e-07  1.40081983e-07  4.10000000e-01 
 4.20000000e-01  3.32289933e-09  3.24459843e-09  3.25620676e-09  4.59501445e-01  4.59501445e-01  3.19913059e-09  4.59501445e-01  1.61916637e-07  1.40081823e-07  4.20000000e-01 
 4.30000000e-01  3.32289933e-09  3.24459843e-09  3.25620676e-09  4.59501441e-01  4.59501440e-01  3.19913059e-09  4.59501440e-01  1.61916638e-07  1.40081539e-07  4.30000000e-01 
 4.40000000e-01  3.32289933e-09  3.24459843e-09  3.25620682e-09  4.59501449e-01  4.59501449e-01  3.19913065e-09  4.59501449e-01  1.61916634e-07  1.40081578e-07  4.40000000e-01 
 4.50000000e-01  3.32289933e-09  3.24459843e-09  3.25620676e-09  4.59501450e-01  4.59501450e-01  3.19913059e-09  4.59501450e-01  1.61916637e-07  1.40081404e-07  4.50000000e-01 
 4.60000000e-01  3.32289933e-09  3.24459838e-09  3.25620676e-09  4.59501435e-01  4.59501435e-01  3.19913059e-09  4.59501435e-01  1.61916619e-07  1.40081347e-07  4.60000000e-01 
 4.70000000e-01  3.32289939e-09  3.24459838e-09  3.25620682e-09  4.59501461e-01  4.59501460e-01  3.19913060e-09  4.59501460e-01  1.61916657e-07  1.40081276e-07  4.70000000e-01 
 4.80000000e-01  3.32289933e-09  3.24459843e-09  3.25620676e-09  4.59501443e-01  4.59501443e-01  3.19913059e-09  4.59501443e-01  1.61916647e-07  1.40081145e-07  4.80000000e-01 
 4.90000000e-01  3.32289933e-09  3.24459843e-09  3.25620676e-09  4.59501446e-01  4.59501446e-01  3.19913059e-09  4.59501446e-01  1.61916636e-07  1.40081070e-07  4.90000000e-01 
 5.00000000e-01  3.32289933e-09  3.24459843e-09  3.25620676e-09  4.59501452e-01  4.59501451e-01  3.19913059e-09  4.59501451e-01  1.61916641e-07  1.40080985e-07  5.00000000e-01 
 5.10000000e-01  3.32289933e-09  3.24459838e-09  3.25620676e-09  4.59501444e-01  4.59501444e-01  3.19913059e-09  4.59501444e-01  1.61916640e-07  1.40080793e-07  5.10000000e-01 
 5.20000000e-01  3.32289933e-09  3.24459838e-09  3.25620682e-09  4.59501450e-01  4.59501450e-01  3.19913059e-09  4.59501450e-01  1.61916640e-07  1.40080708e-07  5.20000000e-01 
 5.30000000e-01  3.32289933e-09  3.24459838e-09  3.25620676e-09  4.59501429e-01  4.59501429e-01  3.19913059e-09  4.59501429e-01  1.61916617e-07  1.40080616e-07  5.30000000e-01 
 5.40000000e-01  3.32289938e-09  3.24459843e-09  3.25620676e-09  4.59501426e-01  4.59501426e-01  3.19913059e-09  4.59501426e-01  1.61916608e-07  1.40080473e-07  5.40000000e-01 
 5.50000000e-01  3.32289933e-09  3.24459843e-09  3.25620676e-09  4.59501449e-01  4.59501449e-01  3.19913059e-09  4.59501449e-01  1.61916645e-07  1.40080399e-07  5.50000000e-01 
 5.60000000e-01  3.32289933e-09  3.24459843e-09  3.25620676e-09  4.59501444e-01  4.59501444e-01  3.19913059e-09  4.59501444e-01  1.61916650e-07  1.40080409e-07  5.60000000e-01 
 5.70000000e-01  3.32289933e-09  3.24459844e-09  3.25620682e-09  4.59501458e-01  4.59501458e-01  3.19913060e-09  4.59501458e-01  1.61916653e-07  1.40080306e-07  5.70000000e-01 
 5.80000000e-01  3.32289933e-09  3.24459843e-09  3.25620682e-09  4.59501445e-01  4.59501445e-01  3.19913059e-09  4.59501445e-01  1.61916633e-07  1.40080061e-07  5.80000000e-01 
 5.90000000e-01  3.32289933e-09  3.24459838e-09  3.25620676e-09  4.59501461e-01  4.59501460e-01  3.19913060e-09  4.59501461e-01  1.61916673e-07  1.40080104e-07  5.90000000e-01 
 6.00000000e-01  3.32289939e-09  3.24459844e-09  3.25620682e-09  4.59501454e-01  4.59501454e-01  3.19913060e-09  4.59501454e-01  1.61916658e-07  1.40079969e-07  6.00000000e-01 
 6.10000000e-01  3.32289933e-09  3.24459838e-09  3.25620682e-09  4.59501441e-01  4.59501441e-01  3.19913059e-09  4.59501441e-01  1.61916634e-07  1.40079706e-07  6.10000000e-01 
 6.20000000e-01  3.32289933e-09  3.24459843e-09  3.25620676e-09  4.59501446e-01  4.59501446e-01  3.19913059e-09  4.59501446e-01  1.61916649e-07  1.40079756e-07  6.20000000e-01 
 6.30000000e-01  3.32289933e-09  3.24459843e-09  3.25620682e-09  4.59501431e-01  4.59501431e-01  3.19913059e-09  4.59501431e-01  1.61916624e-07  1.40079656e-07  6.30000000e-01 
 6.40000000e-01  3.32289933e-09  3.24459838e-09  3.25620682e-09  4.59501427e-01  4.59501427e-01  3.19913059e-09  4.59501427e-01  1.61916608e-07  1.40079599e-07  6.40000000e-01 
 6.50000000e-01  3.32289933e-09  3.24459843e-09  3.25620682e-09  4.59501439e-01  4.59501438e-01  3.19913059e-09  4.59501439e-01  1.61916627e-07  1.40079450e-07  6.50000000e-01 
 6.60000000e-01  3.32289933e-09  3.24459843e-09  3.25620676e-09  4.59501428e-01  4.59501428e-01  3.19913059e-09  4.59501428e-01  1.61916617e-07  1.40079194e-07  6.60000000e-01 
 6.70000000e-01  3.32289933e-09  3.24459838e-09  3.25620682e-09  4.59501444e-01  4.59501444e-01  3.19913059e-09  4.59501444e-01  1.61916650e-07  1.40079266e-07  6.70000000e-01 
 6.80000000e-01  3.32289933e-09  3.24459843e-09  3.25620676e-09  4.59501444e-01  4.59501444e-01  3.19913059e-09  4.59501444e-01  1.61916626e-07  1.40079187e-07  6.80000000e-01 
 6.90000000e-01  3.32289933e-09  3.24459843e-09  3.25620682e-09  4.59501445e-01  4.59501445e-01  3.19913059e-09  4.59501445e-01  1.61916651e-07  1.40079067e-07  6.90000000e-01 
 7.00000000e-01  3.32289933e-09  3.24459843e-09  3.25620676e-09  4.59501435e-01  4.59501435e-01  3.19913059e-09  4.59501435e-01  1.61916626e-07  1.40079052e-07  7.00000000e-01 
 7.10000000e-01  3.32289933e-09  3.24459843e-09  3.25620682e-09  4.59501445e-01  4.59501445e-01  3.19913059e-09  4.59501445e-01  1.61916653e-07  1.40078825e-07  7.10000000e-01 
 7.20000000e-01  3.32289939e-09  3.24459843e-09  3.25620676e-09  4.59501443e-01  4.59501443e-01  3.19913059e-09  4.59501443e-01  1.61916635e-07  1.40078647e-07  7.20000000e-01 
 7.30000000e-01  3.32289933e-09  3.24459843e-09  3.25620676e-09  4.59501422e-01  4.59501422e-01  3.19913059e-09  4.59501422e-01  1.61916600e-07  1.40078605e-07  7.30000000e-01 
 7.40000000e-01  3.32289933e-09  3.24459843e-09  3.25620682e-09  4.59501438e-01  4.59501438e-01  3.19913059e-09  4.59501438e-01  1.61916632e-07  1.40078534e-07  7.40000000e-01 
 7.50000000e-01  3.32289939e-09  3.24459843e-09  3.25620676e-09  4.59501438e-01  4.59501437e-01  3.19913059e-09  4.59501437e-01  1.61916630e-07  1.40078477e-07  7.50000000e-01 
 7.60000000e-01  3.32289933e-09  3.24459844e-09  3.25620682e-09  4.59501461e-01  4.59501461e-01  3.19913060e-09  4.59501461e-01  1.61916662e-07  1.40078484e-07  7.60000000e-01 
 7.70000000e-01  3.32289933e-09  3.24459838e-09  3.25620682e-09  4.59501453e-01  4.59501453e-01  3.19913065e-09  4.59501453e-01  1.61916650e-07  1.40078299e-07  7.70000000e-01 
 7.80000000e-01  3.32289933e-09  3.24459838e-09  3.25620676e-09  4.59501439e-01  4.59501439e-01  3.19913065e-09  4.59501439e-01  1.61916638e-07  1.40078107e-07  7.80000000e-01 
 7.90000000e-01  3.32289933e-09  3.24459843e-09  3.25620676e-09  4.59501441e-01  4.59501441e-01  3.19913059e-09  4.59501441e-01  1.61916626e-07  1.40078058e-07  7.90000000e-01 
 8.00000000e-01  3.32289933e-09  3.24459843e-09  3.25620676e-09  4.59501448e-01  4.59501448e-01  3.19913059e-09  4.59501448e-01  1.61916647e-07  1.40077958e-07  8.00000000e-01 
 8.10000000e-01  3.32289933e-09  3.24459843e-09  3.25620682e-09  4.59501440e-01  4.59501440e-01  3.19913059e-09  4.59501440e-01  1.61916630e-07  1.40077837e-07  8.10000000e-01 
 8.20000000e-01  3.32289933e-09  3.24459843e-09  3.25620682e-09  4.59501432e-01  4.59501432e-01  3.19913059e-09  4.59501432e-01  1.61916620e-07  1.40077788e-07  8.20000000e-01 
 8.30000000e-01  3.32289933e-09  3.24459843e-09  3.25620682e-09  4.59501439e-01  4.59501438e-01  3.19913059e-09  4.59501438e-01  1.61916636e-07  1.40077617e-07  8.30000000e-01 
 8.40000000e-01  3.32289933e-09  3.24459843e-09  3.25620676e-09  4.59501441e-01  4.59501441e-01  3.19913059e-09  4.59501441e-01  1.61916630e-07  1.40077503e-07  8.40000000e-01 
 8.50000000e-01  3.32289933e-09  3.24459843e-09  3.25620682e-09  4.59501442e-01  4.59501441e-01  3.19913059e-09  4.59501441e-01  1.61916647e-07  1.40077340e-07  8.50000000e-01 
 8.60000000e-01  3.32289933e-09  3.24459843e-09  3.25620682e-09  4.59501428e-01  4.59501427e-01  3.19913059e-09  4.59501427e-01  1.61916616e-07  1.40077297e-07  8.60000000e-01 
 8.70000000e-01  3.32289933e-09  3.24459838e-09  3.25620676e-09  4.59501438e-01  4.59501438e-01  3.19913059e-09  4.59501438e-01  1.61916630e-07  1.40077141e-07  8.70000000e-01 
 8.80000000e-01  3.32289933e-09  3.24459843e-09  3.25620676e-09  4.59501444e-01  4.59501444e-01  3.19913059e-09  4.59501444e-01  1.61916643e-07  1.40077070e-07  8.80000000e-01 
 8.90000000e-01  3.32289933e-09  3.24459843e-09  3.25620676e-09  4.59501421e-01  4.59501421e-01  3.19913059e-09  4.59501421e-01  1.61916602e-07  1.40077020e-07  8.90000000e-01 
 9.00000000e-01  3.32289933e-09  3.24459843e-09  3.25620676e-09  4.59501442e-01  4.59501442e-01  3.19913059e-09  4.59501442e-01  1.61916632e-07  1.40077006e-07  9.00000000e-01 
 9.10000000e-01  3.32289932e-09  3.24459843e-09  3.25620682e-09  4.59501403e-01  4.59501403e-01  3.19913059e-09  4.59501403e-01  1.61916584e-07  1.40076651e-07  9.10000000e-01 
 9.20000000e-01  3.32289933e-09  3.24459838e-09  3.25620676e-09  4.59501458e-01  4.59501458e-01  3.19913060e-09  4.59501458e-01  1.61916661e-07  1.40076750e-07  9.20000000e-01 
 9.30000000e-01  3.32289933e-09  3.24459843e-09  3.25620676e-09  4.59501429e-01  4.59501429e-01  3.19913059e-09  4.59501429e-01  1.61916622e-07  1.40076537e-07  9.30000000e-01 
 9.40000000e-01  3.32289933e-09  3.24459838e-09  3.25620676e-09  4.59501455e-01  4.59501455e-01  3.19913060e-09  4.59501455e-01  1.61916654e-07  1.40076587e-07  9.40000000e-01 
 9.50000000e-01  3.32289933e-09  3.24459843e-09  3.25620682e-09  4.59501450e-01  4.59501450e-01  3.19913059e-09  4.59501450e-01  1.61916646e-07  1.40076409e-07  9.50000000e-01 
 9.60000000e-01  3.32289933e-09  3.24459843e-09  3.25620676e-09  4.59501446e-01  4.59501446e-01  3.19913059e-09  4.59501446e-01  1.61916629e-07  1.40076224e-07  9.60000000e-01 
 9.70000000e-01  3.32289933e-09  3.24459838e-09  3.25620676e-09  4.59501436e-01  4.59501436e-01  3.19913059e-09  4.59501436e-01  1.61916617e-07  1.40076175e-07  9.70000000e-01 
 9.80000000e-01  3.32289939e-09  3.24459838e-09  3.25620682e-09  4.59501453e-01  4.59501453e-01  3.19913060e-09  4.59501453e-01  1.61916652e-07  1.40076033e-07  9.80000000e-01 
 9.90000000e-01  3.32289933e-09  3.24459838e-09  3.25620677e-09  4.59501482e-01  4.59501482e-01  3.19913060e-09  4.59501482e-01  1.61916692e-07  1.40076018e-07  9.90000000e-01 
 1.00000000e+00  3.32289933e-09  3.24459838e-09  3.25620676e-09  4.59501448e-01  4.59501448e-01  3.19913059e-09  4.59501448e-01  1.61916656e-07  1.40075855e-07  1.00000000e+00 
 1.01000000e+00  3.32289933e-09  3.24459844e-09  3.25620676e-09  4.59501454e-01  4.59501454e-01  3.19913060e-09  4.59501454e-01  1.61916654e-07  1.40075670e-07  1.01000000e+00 
 1.02000000e+00  3.32289933e-09  3.24459843e-09  3.25620682e-09  4.59501438e-01  4.59501438e-01  3.19913059e-09  4.59501438e-01  1.61916630e-07  1.40075556e-07  1.02000000e+00 
 1.03000000e+00  3.32289933e-09  3.24459843e-09  3.25620676e-09  4.59501442e-01  4.59501442e-01  3.19913065e-09  4.59501442e-01  1.61916636e-07  1.40075549e-07  1.03000000e+00 
 1.04000000e+00  3.32289933e-09  3.24459844e-09  3.25620676e-09  4.59501457e-01  4.59501457e-01  3.19913060e-09  4.59501457e-01  1.61916649e-07  1.40075421e-07  1.04000000e+00 
 1.05000000e+00  3.32289933e-09  3.24459838e-09  3.25620682e-09  4.59501429e-01  4.59501429e-01  3.19913059e-09  4.59501429e-01  1.61916627e-07  1.40075109e-07  1.05000000e+00 
 1.06000000e+00  3.32289939e-09  3.24459843e-09  3.25620676e-09  4.59501453e-01  4.59501452e-01  3.19913065e-09  4.59501453e-01  1.61916652e-07  1.40075052e-07  1.06000000e+00 
 1.07000000e+00  3.32289933e-09  3.24459843e-09  3.25620682e-09  4.59501428e-01  4.59501428e-01  3.19913059e-09  4.59501428e-01  1.61916612e-07  1.40074974e-07  1.07000000e+00 
 1.08000000e+00  3.32289933e-09  3.24459843e-09  3.25620676e-09  4.59501451e-01  4.59501451e-01  3.19913059e-09  4.59501451e-01  1.61916651e-07  1.40074903e-07  1.08000000e+00 
 1.09000000e+00  3.32289933e-09  3.24459843e-09  3.25620676e-09  4.59501451e-01  4.59501451e-01  3.19913065e-09  4.59501451e-01  1.61916645e-07  1.40074718e-07  1.09000000e+00 
 1.10000000e+00  3.32289933e-09  3.24459843e-09  3.25620676e-09  4.59501439e-01  4.59501439e-01  3.19913059e-09  4.59501439e-01  1.61916635e-07  1.40074683e-07  1.10000000e+00 
