 v-sweep         v(b0)           v(b1)           v(b2)           v(b3)           v(b4)           v(b5)           v(b6)           i(vbias)        i(viout)        v(vout)        
 0.00000000e+00  4.58690125e-01  4.58690125e-01  3.40870598e-09  3.55253659e-09  4.58690125e-01  4.58690125e-01  3.41624974e-09  1.60012533e-07  7.51824975e-08  0.00000000e+00 
 1.00000000e-02  4.58690123e-01  4.58690123e-01  3.40870595e-09  3.55253661e-09  4.58690123e-01  4.58690123e-01  3.41624978e-09  1.60012494e-07  7.51821048e-08  1.00000000e-02 
 2.00000000e-02  4.58690129e-01  4.58690129e-01  3.40870595e-09  3.55253656e-09  4.58690129e-01  4.58690129e-01  3.41624976e-09  1.60012523e-07  7.51817621e-08  2.00000000e-02 
 3.00000000e-02  4.58690147e-01  4.58690147e-01  3.40870595e-09  3.55253656e-09  4.58690147e-01  4.58690147e-01  3.41624973e-09  1.60012540e-07  7.51814171e-08  3.00000000e-02 
 4.00000000e-02  4.58690139e-01  4.58690139e-01  3.40870595e-09  3.55253656e-09  4.58690139e-01  4.58690139e-01  3.41624978e-09  1.60012544e-07  7.51810227e-08  4.00000000e-02 
 5.00000000e-02  4.58690128e-01  4.58690128e-01  3.40870595e-09  3.55253656e-09  4.58690128e-01  4.58690128e-01  3.41624976e-09  1.60012507e-07  7.51807949e-08  5.00000000e-02 
 6.00000000e-02  4.58690163e-01  4.58690163e-01  3.40870595e-09  3.55253656e-09  4.58690164e-01  4.58690163e-01  3.41624973e-09  1.60012563e-07  7.51803890e-08  6.00000000e-02 
 7.00000000e-02  4.58690150e-01  4.58690150e-01  3.40870595e-09  3.55253661e-09  4.58690150e-01  4.58690150e-01  3.41624978e-09  1.60012550e-07  7.51802003e-08  7.00000000e-02 
 8.00000000e-02  4.58690105e-01  4.58690104e-01  3.40870595e-09  3.55253661e-09  4.58690105e-01  4.58690104e-01  3.41624971e-09  1.60012467e-07  7.51797629e-08  8.00000000e-02 
 9.00000000e-02  4.58690139e-01  4.58690139e-01  3.40870595e-09  3.55253661e-09  4.58690139e-01  4.58690139e-01  3.41624973e-09  1.60012515e-07  7.51794076e-08  9.00000000e-02 
 1.00000000e-01  4.58690118e-01  4.58690118e-01  3.40870595e-09  3.55253656e-09  4.58690118e-01  4.58690118e-01  3.41624972e-09  1.60012499e-07  7.51791607e-08  1.00000000e-01 
 1.10000000e-01  4.58690158e-01  4.58690158e-01  3.40870595e-09  3.55253662e-09  4.58690158e-01  4.58690158e-01  3.41624972e-09  1.60012536e-07  7.51790603e-08  1.10000000e-01 
 1.20000000e-01  4.58690124e-01  4.58690124e-01  3.40870595e-09  3.55253656e-09  4.58690124e-01  4.58690124e-01  3.41624972e-09  1.60012515e-07  7.51787397e-08  1.20000000e-01 
 1.30000000e-01  4.58690131e-01  4.58690131e-01  3.40870595e-09  3.55253656e-09  4.58690131e-01  4.58690131e-01  3.41624972e-09  1.60012515e-07  7.51784652e-08  1.30000000e-01 
 1.40000000e-01  4.58690125e-01  4.58690125e-01  3.40870595e-09  3.55253661e-09  4.58690125e-01  4.58690125e-01  3.41624972e-09  1.60012503e-07  7.51782823e-08  1.40000000e-01 
 1.50000000e-01  4.58690143e-01  4.58690142e-01  3.40870595e-09  3.55253656e-09  4.58690143e-01  4.58690143e-01  3.41624978e-09  1.60012535e-07  7.51781410e-08  1.50000000e-01 
 1.60000000e-01  4.58690145e-01  4.58690145e-01  3.40870595e-09  3.55253656e-09  4.58690145e-01  4.58690145e-01  3.41624977e-09  1.60012544e-07  7.51779297e-08  1.60000000e-01 
 1.70000000e-01  4.58690139e-01  4.58690139e-01  3.40870595e-09  3.55253656e-09  4.58690139e-01  4.58690139e-01  3.41624973e-09  1.60012545e-07  7.51776845e-08  1.70000000e-01 
 1.80000000e-01  4.58690127e-01  4.58690127e-01  3.40870595e-09  3.55253656e-09  4.58690127e-01  4.58690127e-01  3.41624972e-09  1.60012501e-07  7.51775158e-08  1.80000000e-01 
 1.90000000e-01  4.58690130e-01  4.58690130e-01  3.40870595e-09  3.55253656e-09  4.58690130e-01  4.58690130e-01  3.41624978e-09  1.60012517e-07  7.51773470e-08  1.90000000e-01 
 2.00000000e-01  4.58690141e-01  4.58690141e-01  3.40870595e-09  3.55253656e-09  4.58690141e-01  4.58690141e-01  3.41624977e-09  1.60012528e-07  7.51771534e-08  2.00000000e-01 
 2.10000000e-01  4.58690153e-01  4.58690153e-01  3.40870595e-09  3.55253656e-09  4.58690153e-01  4.58690153e-01  3.41624973e-09  1.60012548e-07  7.51770948e-08  2.10000000e-01 
 2.20000000e-01  4.58690148e-01  4.58690148e-01  3.40870595e-09  3.55253661e-09  4.58690148e-01  4.58690148e-01  3.41624978e-09  1.60012543e-07  7.51768905e-08  2.20000000e-01 
 2.30000000e-01  4.58690135e-01  4.58690135e-01  3.40870595e-09  3.55253656e-09  4.58690136e-01  4.58690135e-01  3.41624977e-09  1.60012528e-07  7.51766915e-08  2.30000000e-01 
 2.40000000e-01  4.58690119e-01  4.58690119e-01  3.40870595e-09  3.55253661e-09  4.58690119e-01  4.58690119e-01  3.41624978e-09  1.60012505e-07  7.51766080e-08  2.40000000e-01 
 2.50000000e-01  4.58690130e-01  4.58690130e-01  3.40870595e-09  3.55253661e-09  4.58690130e-01  4.58690130e-01  3.41624976e-09  1.60012516e-07  7.51765654e-08  2.50000000e-01 
 2.60000000e-01  4.58690107e-01  4.58690107e-01  3.40870595e-09  3.55253661e-09  4.58690107e-01  4.58690107e-01  3.41624973e-09  1.60012480e-07  7.51761835e-08  2.60000000e-01 
 2.70000000e-01  4.58690153e-01  4.58690153e-01  3.40870595e-09  3.55253656e-09  4.58690153e-01  4.58690153e-01  3.41624972e-09  1.60012531e-07  7.51763185e-08  2.70000000e-01 
 2.80000000e-01  4.58690150e-01  4.58690150e-01  3.40870595e-09  3.55253661e-09  4.58690150e-01  4.58690150e-01  3.41624972e-09  1.60012557e-07  7.51761160e-08  2.80000000e-01 
 2.90000000e-01  4.58690126e-01  4.58690126e-01  3.40870595e-09  3.55253656e-09  4.58690126e-01  4.58690126e-01  3.41624978e-09  1.60012509e-07  7.51759117e-08  2.90000000e-01 
 3.00000000e-01  4.58690132e-01  4.58690132e-01  3.40870595e-09  3.55253656e-09  4.58690132e-01  4.58690132e-01  3.41624977e-09  1.60012503e-07  7.51758833e-08  3.00000000e-01 
 3.10000000e-01  4.58690091e-01  4.58690091e-01  3.40870595e-09  3.55253656e-09  4.58690091e-01  4.58690091e-01  3.41624973e-09  1.60012457e-07  7.51756559e-08  3.10000000e-01 
 3.20000000e-01  4.58690143e-01  4.58690143e-01  3.40870595e-09  3.55253656e-09  4.58690143e-01  4.58690143e-01  3.41624972e-09  1.60012516e-07  7.51756772e-08  3.20000000e-01 
 3.30000000e-01  4.58690109e-01  4.58690109e-01  3.40870595e-09  3.55253661e-09  4.58690109e-01  4.58690109e-01  3.41624978e-09  1.60012490e-07  7.51755138e-08  3.30000000e-01 
 3.40000000e-01  4.58690133e-01  4.58690133e-01  3.40870595e-09  3.55253656e-09  4.58690133e-01  4.58690133e-01  3.41624977e-09  1.60012534e-07  7.51753824e-08  3.40000000e-01 
 3.50000000e-01  4.58690115e-01  4.58690115e-01  3.40870595e-09  3.55253656e-09  4.58690115e-01  4.58690115e-01  3.41624978e-09  1.60012494e-07  7.51752971e-08  3.50000000e-01 
 3.60000000e-01  4.58690146e-01  4.58690146e-01  3.40870595e-09  3.55253656e-09  4.58690146e-01  4.58690146e-01  3.41624977e-09  1.60012538e-07  7.51752474e-08  3.60000000e-01 
 3.70000000e-01  4.58690135e-01  4.58690135e-01  3.40870595e-09  3.55253661e-09  4.58690135e-01  4.58690135e-01  3.41624978e-09  1.60012541e-07  7.51751656e-08  3.70000000e-01 
 3.80000000e-01  4.58690140e-01  4.58690140e-01  3.40870595e-09  3.55253656e-09  4.58690140e-01  4.58690140e-01  3.41624977e-09  1.60012518e-07  7.51751195e-08  3.80000000e-01 
 3.90000000e-01  4.58690133e-01  4.58690133e-01  3.40870595e-09  3.55253661e-09  4.58690133e-01  4.58690133e-01  3.41624978e-09  1.60012504e-07  7.51750378e-08  3.90000000e-01 
 4.00000000e-01  4.58690135e-01  4.58690135e-01  3.40870595e-09  3.55253661e-09  4.58690135e-01  4.58690135e-01  3.41624977e-09  1.60012524e-07  7.51748956e-08  4.00000000e-01 
 4.10000000e-01  4.58690128e-01  4.58690127e-01  3.40870595e-09  3.55253656e-09  4.58690128e-01  4.58690127e-01  3.41624978e-09  1.60012509e-07  7.51747251e-08  4.10000000e-01 
 4.20000000e-01  4.58690122e-01  4.58690122e-01  3.40870595e-09  3.55253656e-09  4.58690122e-01  4.58690122e-01  3.41624971e-09  1.60012502e-07  7.51746612e-08  4.20000000e-01 
 4.30000000e-01  4.58690113e-01  4.58690113e-01  3.40870595e-09  3.55253656e-09  4.58690113e-01  4.58690113e-01  3.41624973e-09  1.60012486e-07  7.51745048e-08  4.30000000e-01 
 4.40000000e-01  4.58690118e-01  4.58690118e-01  3.40870595e-09  3.55253656e-09  4.58690118e-01  4.58690118e-01  3.41624972e-09  1.60012478e-07  7.51745119e-08  4.40000000e-01 
 4.50000000e-01  4.58690146e-01  4.58690146e-01  3.40870595e-09  3.55253656e-09  4.58690146e-01  4.58690146e-01  3.41624978e-09  1.60012546e-07  7.51744480e-08  4.50000000e-01 
 4.60000000e-01  4.58690159e-01  4.58690159e-01  3.40870595e-09  3.55253662e-09  4.58690159e-01  4.58690159e-01  3.41624977e-09  1.60012581e-07  7.51744658e-08  4.60000000e-01 
 4.70000000e-01  4.58690135e-01  4.58690135e-01  3.40870595e-09  3.55253661e-09  4.58690135e-01  4.58690135e-01  3.41624978e-09  1.60012521e-07  7.51742490e-08  4.70000000e-01 
 4.80000000e-01  4.58690151e-01  4.58690151e-01  3.40870595e-09  3.55253656e-09  4.58690151e-01  4.58690151e-01  3.41624971e-09  1.60012551e-07  7.51742810e-08  4.80000000e-01 
 4.90000000e-01  4.58690146e-01  4.58690146e-01  3.40870595e-09  3.55253661e-09  4.58690146e-01  4.58690146e-01  3.41624973e-09  1.60012542e-07  7.51743130e-08  4.90000000e-01 
 5.00000000e-01  4.58690124e-01  4.58690124e-01  3.40870595e-09  3.55253661e-09  4.58690124e-01  4.58690124e-01  3.41624972e-09  1.60012514e-07  7.51740430e-08  5.00000000e-01 
 5.10000000e-01  4.58690126e-01  4.58690126e-01  3.40870595e-09  3.55253656e-09  4.58690126e-01  4.58690126e-01  3.41624978e-09  1.60012500e-07  7.51741034e-08  5.10000000e-01 
 5.20000000e-01  4.58690145e-01  4.58690145e-01  3.40870595e-09  3.55253656e-09  4.58690145e-01  4.58690145e-01  3.41624977e-09  1.60012528e-07  7.51740004e-08  5.20000000e-01 
 5.30000000e-01  4.58690160e-01  4.58690160e-01  3.40870595e-09  3.55253662e-09  4.58690160e-01  4.58690160e-01  3.41624973e-09  1.60012555e-07  7.51738298e-08  5.30000000e-01 
 5.40000000e-01  4.58690128e-01  4.58690128e-01  3.40870595e-09  3.55253661e-09  4.58690128e-01  4.58690128e-01  3.41624978e-09  1.60012526e-07  7.51738050e-08  5.40000000e-01 
 5.50000000e-01  4.58690147e-01  4.58690147e-01  3.40870595e-09  3.55253656e-09  4.58690147e-01  4.58690147e-01  3.41624977e-09  1.60012537e-07  7.51737375e-08  5.50000000e-01 
 5.60000000e-01  4.58690155e-01  4.58690155e-01  3.40870595e-09  3.55253662e-09  4.58690155e-01  4.58690155e-01  3.41624973e-09  1.60012548e-07  7.51736913e-08  5.60000000e-01 
 5.70000000e-01  4.58690149e-01  4.58690149e-01  3.40870595e-09  3.55253661e-09  4.58690149e-01  4.58690149e-01  3.41624978e-09  1.60012545e-07  7.51735456e-08  5.70000000e-01 
 5.80000000e-01  4.58690137e-01  4.58690137e-01  3.40870595e-09  3.55253656e-09  4.58690137e-01  4.58690137e-01  3.41624977e-09  1.60012534e-07  7.51735882e-08  5.80000000e-01 
 5.90000000e-01  4.58690142e-01  4.58690142e-01  3.40870595e-09  3.55253661e-09  4.58690142e-01  4.58690142e-01  3.41624973e-09  1.60012530e-07  7.51735669e-08  5.90000000e-01 
 6.00000000e-01  4.58690129e-01  4.58690129e-01  3.40870595e-09  3.55253656e-09  4.58690129e-01  4.58690129e-01  3.41624978e-09  1.60012498e-07  7.51734603e-08  6.00000000e-01 
 6.10000000e-01  4.58690127e-01  4.58690127e-01  3.40870595e-09  3.55253656e-09  4.58690127e-01  4.58690127e-01  3.41624976e-09  1.60012510e-07  7.51733609e-08  6.10000000e-01 
 6.20000000e-01  4.58690127e-01  4.58690127e-01  3.40870595e-09  3.55253656e-09  4.58690127e-01  4.58690127e-01  3.41624978e-09  1.60012512e-07  7.51733040e-08  6.20000000e-01 
 6.30000000e-01  4.58690125e-01  4.58690125e-01  3.40870595e-09  3.55253656e-09  4.58690126e-01  4.58690125e-01  3.41624976e-09  1.60012501e-07  7.51731903e-08  6.30000000e-01 
 6.40000000e-01  4.58690114e-01  4.58690114e-01  3.40870595e-09  3.55253661e-09  4.58690114e-01  4.58690114e-01  3.41624973e-09  1.60012492e-07  7.51731406e-08  6.40000000e-01 
 6.50000000e-01  4.58690132e-01  4.58690132e-01  3.40870595e-09  3.55253656e-09  4.58690132e-01  4.58690132e-01  3.41624972e-09  1.60012521e-07  7.51729914e-08  6.50000000e-01 
 6.60000000e-01  4.58690127e-01  4.58690127e-01  3.40870595e-09  3.55253661e-09  4.58690127e-01  4.58690127e-01  3.41624978e-09  1.60012506e-07  7.51730127e-08  6.60000000e-01 
 6.70000000e-01  4.58690139e-01  4.58690139e-01  3.40870595e-09  3.55253656e-09  4.58690139e-01  4.58690139e-01  3.41624977e-09  1.60012532e-07  7.51729345e-08  6.70000000e-01 
 6.80000000e-01  4.58690143e-01  4.58690143e-01  3.40870595e-09  3.55253661e-09  4.58690143e-01  4.58690143e-01  3.41624973e-09  1.60012534e-07  7.51729630e-08  6.80000000e-01 
 6.90000000e-01  4.58690133e-01  4.58690133e-01  3.40870595e-09  3.55253661e-09  4.58690133e-01  4.58690133e-01  3.41624978e-09  1.60012521e-07  7.51728777e-08  6.90000000e-01 
 7.00000000e-01  4.58690123e-01  4.58690123e-01  3.40870595e-09  3.55253661e-09  4.58690123e-01  4.58690123e-01  3.41624976e-09  1.60012497e-07  7.51727853e-08  7.00000000e-01 
 7.10000000e-01  4.58690136e-01  4.58690136e-01  3.40870595e-09  3.55253656e-09  4.58690136e-01  4.58690136e-01  3.41624973e-09  1.60012522e-07  7.51727427e-08  7.10000000e-01 
 7.20000000e-01  4.58690153e-01  4.58690153e-01  3.40870595e-09  3.55253662e-09  4.58690153e-01  4.58690153e-01  3.41624978e-09  1.60012537e-07  7.51726574e-08  7.20000000e-01 
 7.30000000e-01  4.58690142e-01  4.58690142e-01  3.40870595e-09  3.55253656e-09  4.58690143e-01  4.58690142e-01  3.41624977e-09  1.60012531e-07  7.51724869e-08  7.30000000e-01 
 7.40000000e-01  4.58690124e-01  4.58690124e-01  3.40870595e-09  3.55253656e-09  4.58690124e-01  4.58690124e-01  3.41624973e-09  1.60012500e-07  7.51724798e-08  7.40000000e-01 
 7.50000000e-01  4.58690136e-01  4.58690136e-01  3.40870595e-09  3.55253656e-09  4.58690136e-01  4.58690136e-01  3.41624978e-09  1.60012517e-07  7.51724158e-08  7.50000000e-01 
 7.60000000e-01  4.58690130e-01  4.58690130e-01  3.40870595e-09  3.55253661e-09  4.58690130e-01  4.58690130e-01  3.41624976e-09  1.60012504e-07  7.51724585e-08  7.60000000e-01 
 7.70000000e-01  4.58690130e-01  4.58690130e-01  3.40870595e-09  3.55253656e-09  4.58690130e-01  4.58690130e-01  3.41624978e-09  1.60012519e-07  7.51724230e-08  7.70000000e-01 
 7.80000000e-01  4.58690155e-01  4.58690155e-01  3.40870601e-09  3.55253662e-09  4.58690155e-01  4.58690155e-01  3.41624977e-09  1.60012558e-07  7.51722169e-08  7.80000000e-01 
 7.90000000e-01  4.58690132e-01  4.58690132e-01  3.40870595e-09  3.55253661e-09  4.58690132e-01  4.58690132e-01  3.41624973e-09  1.60012533e-07  7.51720179e-08  7.90000000e-01 
 8.00000000e-01  4.58690125e-01  4.58690125e-01  3.40870595e-09  3.55253656e-09  4.58690125e-01  4.58690125e-01  3.41624978e-09  1.60012507e-07  7.51719469e-08  8.00000000e-01 
 8.10000000e-01  4.58690137e-01  4.58690137e-01  3.40870595e-09  3.55253656e-09  4.58690137e-01  4.58690137e-01  3.41624977e-09  1.60012532e-07  7.51720393e-08  8.10000000e-01 
 8.20000000e-01  4.58690134e-01  4.58690134e-01  3.40870595e-09  3.55253661e-09  4.58690134e-01  4.58690134e-01  3.41624978e-09  1.60012530e-07  7.51719682e-08  8.20000000e-01 
 8.30000000e-01  4.58690141e-01  4.58690141e-01  3.40870595e-09  3.55253656e-09  4.58690141e-01  4.58690141e-01  3.41624977e-09  1.60012525e-07  7.51718687e-08  8.30000000e-01 
 8.40000000e-01  4.58690134e-01  4.58690134e-01  3.40870595e-09  3.55253661e-09  4.58690134e-01  4.58690134e-01  3.41624978e-09  1.60012514e-07  7.51718545e-08  8.40000000e-01 
 8.50000000e-01  4.58690147e-01  4.58690147e-01  3.40870595e-09  3.55253656e-09  4.58690147e-01  4.58690147e-01  3.41624971e-09  1.60012528e-07  7.51718261e-08  8.50000000e-01 
 8.60000000e-01  4.58690135e-01  4.58690134e-01  3.40870595e-09  3.55253656e-09  4.58690135e-01  4.58690134e-01  3.41624978e-09  1.60012518e-07  7.51717195e-08  8.60000000e-01 
 8.70000000e-01  4.58690132e-01  4.58690132e-01  3.40870595e-09  3.55253661e-09  4.58690132e-01  4.58690132e-01  3.41624977e-09  1.60012513e-07  7.51716911e-08  8.70000000e-01 
 8.80000000e-01  4.58690157e-01  4.58690157e-01  3.40870595e-09  3.55253656e-09  4.58690157e-01  4.58690157e-01  3.41624978e-09  1.60012550e-07  7.51715703e-08  8.80000000e-01 
 8.90000000e-01  4.58690138e-01  4.58690138e-01  3.40870595e-09  3.55253661e-09  4.58690138e-01  4.58690138e-01  3.41624971e-09  1.60012534e-07  7.51715703e-08  8.90000000e-01 
 9.00000000e-01  4.58690139e-01  4.58690139e-01  3.40870595e-09  3.55253656e-09  4.58690139e-01  4.58690139e-01  3.41624973e-09  1.60012526e-07  7.51713074e-08  9.00000000e-01 
 9.10000000e-01  4.58690138e-01  4.58690138e-01  3.40870595e-09  3.55253656e-09  4.58690138e-01  4.58690138e-01  3.41624978e-09  1.60012520e-07  7.51713287e-08  9.10000000e-01 
 9.20000000e-01  4.58690118e-01  4.58690118e-01  3.40870595e-09  3.55253656e-09  4.58690118e-01  4.58690118e-01  3.41624976e-09  1.60012502e-07  7.51712932e-08  9.20000000e-01 
 9.30000000e-01  4.58690145e-01  4.58690145e-01  3.40870595e-09  3.55253661e-09  4.58690145e-01  4.58690145e-01  3.41624978e-09  1.60012538e-07  7.51713287e-08  9.30000000e-01 
 9.40000000e-01  4.58690136e-01  4.58690136e-01  3.40870595e-09  3.55253656e-09  4.58690136e-01  4.58690136e-01  3.41624971e-09  1.60012531e-07  7.51712150e-08  9.40000000e-01 
 9.50000000e-01  4.58690134e-01  4.58690134e-01  3.40870601e-09  3.55253656e-09  4.58690134e-01  4.58690134e-01  3.41624978e-09  1.60012515e-07  7.51710516e-08  9.50000000e-01 
 9.60000000e-01  4.58690149e-01  4.58690149e-01  3.40870601e-09  3.55253661e-09  4.58690149e-01  4.58690149e-01  3.41624977e-09  1.60012549e-07  7.51709237e-08  9.60000000e-01 
 9.70000000e-01  4.58690138e-01  4.58690138e-01  3.40870595e-09  3.55253656e-09  4.58690138e-01  4.58690138e-01  3.41624978e-09  1.60012532e-07  7.51709592e-08  9.70000000e-01 
 9.80000000e-01  4.58690147e-01  4.58690147e-01  3.40870595e-09  3.55253661e-09  4.58690147e-01  4.58690147e-01  3.41624977e-09  1.60012535e-07  7.51709095e-08  9.80000000e-01 
 9.90000000e-01  4.58690157e-01  4.58690156e-01  3.40870595e-09  3.55253656e-09  4.58690157e-01  4.58690156e-01  3.41624973e-09  1.60012552e-07  7.51708455e-08  9.90000000e-01 
 1.00000000e+00  4.58690157e-01  4.58690157e-01  3.40870595e-09  3.55253656e-09  4.58690157e-01  4.58690157e-01  3.41624978e-09  1.60012551e-07  7.51707390e-08  1.00000000e+00 
 1.01000000e+00  4.58690149e-01  4.58690149e-01  3.40870595e-09  3.55253656e-09  4.58690149e-01  4.58690149e-01  3.41624971e-09  1.60012547e-07  7.51706963e-08  1.01000000e+00 
 1.02000000e+00  4.58690122e-01  4.58690122e-01  3.40870595e-09  3.55253656e-09  4.58690122e-01  4.58690122e-01  3.41624973e-09  1.60012497e-07  7.51706111e-08  1.02000000e+00 
 1.03000000e+00  4.58690141e-01  4.58690141e-01  3.40870595e-09  3.55253656e-09  4.58690141e-01  4.58690141e-01  3.41624972e-09  1.60012535e-07  7.51705542e-08  1.03000000e+00 
 1.04000000e+00  4.58690163e-01  4.58690163e-01  3.40870595e-09  3.55253662e-09  4.58690163e-01  4.58690163e-01  3.41624972e-09  1.60012573e-07  7.51704690e-08  1.04000000e+00 
 1.05000000e+00  4.58690154e-01  4.58690154e-01  3.40870595e-09  3.55253656e-09  4.58690154e-01  4.58690154e-01  3.41624978e-09  1.60012566e-07  7.51702203e-08  1.05000000e+00 
 1.06000000e+00  4.58690141e-01  4.58690141e-01  3.40870595e-09  3.55253661e-09  4.58690141e-01  4.58690141e-01  3.41624977e-09  1.60012539e-07  7.51702913e-08  1.06000000e+00 
 1.07000000e+00  4.58690143e-01  4.58690143e-01  3.40870595e-09  3.55253661e-09  4.58690143e-01  4.58690143e-01  3.41624973e-09  1.60012528e-07  7.51702345e-08  1.07000000e+00 
 1.08000000e+00  4.58690144e-01  4.58690144e-01  3.40870595e-09  3.55253656e-09  4.58690144e-01  4.58690144e-01  3.41624978e-09  1.60012529e-07  7.51701847e-08  1.08000000e+00 
 1.09000000e+00  4.58690130e-01  4.58690129e-01  3.40870595e-09  3.55253656e-09  4.58690130e-01  4.58690129e-01  3.41624971e-09  1.60012511e-07  7.51700213e-08  1.09000000e+00 
 1.10000000e+00  4.58690142e-01  4.58690142e-01  3.40870595e-09  3.55253661e-09  4.58690142e-01  4.58690142e-01  3.41624978e-09  1.60012527e-07  7.51700426e-08  1.10000000e+00 
