 v-sweep         v(b0)           v(b1)           v(b2)           v(b3)           v(b4)           v(b5)           v(b6)           i(vbias)        i(viout)        v(vout)        
 0.00000000e+00  4.59789871e-01  4.59789871e-01  4.59789871e-01  4.59789871e-01  4.59789871e-01  3.73292274e-09  4.59789871e-01  1.62021491e-07  1.47876610e-07  0.00000000e+00 
 1.00000000e-02  4.59789866e-01  4.59789866e-01  4.59789866e-01  4.59789866e-01  4.59789866e-01  3.73292277e-09  4.59789866e-01  1.62021489e-07  1.47876231e-07  1.00000000e-02 
 2.00000000e-02  4.59789867e-01  4.59789867e-01  4.59789867e-01  4.59789867e-01  4.59789867e-01  3.73292277e-09  4.59789867e-01  1.62021485e-07  1.47875912e-07  2.00000000e-02 
 3.00000000e-02  4.59789876e-01  4.59789876e-01  4.59789876e-01  4.59789876e-01  4.59789876e-01  3.73292277e-09  4.59789876e-01  1.62021513e-07  1.47875489e-07  3.00000000e-02 
 4.00000000e-02  4.59789906e-01  4.59789906e-01  4.59789906e-01  4.59789906e-01  4.59789906e-01  3.73292277e-09  4.59789906e-01  1.62021548e-07  1.47875120e-07  4.00000000e-02 
 5.00000000e-02  4.59789886e-01  4.59789886e-01  4.59789886e-01  4.59789886e-01  4.59789886e-01  3.73292277e-09  4.59789886e-01  1.62021513e-07  1.47874708e-07  5.00000000e-02 
 6.00000000e-02  4.59789876e-01  4.59789876e-01  4.59789876e-01  4.59789876e-01  4.59789876e-01  3.73292277e-09  4.59789876e-01  1.62021500e-07  1.47874267e-07  6.00000000e-02 
 7.00000000e-02  4.59789846e-01  4.59789845e-01  4.59789845e-01  4.59789845e-01  4.59789846e-01  3.73292277e-09  4.59789845e-01  1.62021453e-07  1.47873896e-07  7.00000000e-02 
 8.00000000e-02  4.59789885e-01  4.59789885e-01  4.59789885e-01  4.59789885e-01  4.59789885e-01  3.73292277e-09  4.59789885e-01  1.62021529e-07  1.47873781e-07  8.00000000e-02 
 9.00000000e-02  4.59789887e-01  4.59789887e-01  4.59789887e-01  4.59789887e-01  4.59789887e-01  3.73292277e-09  4.59789887e-01  1.62021516e-07  1.47873404e-07  9.00000000e-02 
 1.00000000e-01  4.59789881e-01  4.59789881e-01  4.59789881e-01  4.59789881e-01  4.59789881e-01  3.73292277e-09  4.59789881e-01  1.62021521e-07  1.47873030e-07  1.00000000e-01 
 1.10000000e-01  4.59789849e-01  4.59789849e-01  4.59789849e-01  4.59789849e-01  4.59789849e-01  3.73292277e-09  4.59789849e-01  1.62021476e-07  1.47872661e-07  1.10000000e-01 
 1.20000000e-01  4.59789857e-01  4.59789857e-01  4.59789857e-01  4.59789857e-01  4.59789857e-01  3.73292271e-09  4.59789857e-01  1.62021475e-07  1.47872568e-07  1.20000000e-01 
 1.30000000e-01  4.59789849e-01  4.59789849e-01  4.59789849e-01  4.59789849e-01  4.59789849e-01  3.73292277e-09  4.59789849e-01  1.62021473e-07  1.47872152e-07  1.30000000e-01 
 1.40000000e-01  4.59789855e-01  4.59789855e-01  4.59789855e-01  4.59789855e-01  4.59789855e-01  3.73292277e-09  4.59789855e-01  1.62021478e-07  1.47872017e-07  1.40000000e-01 
 1.50000000e-01  4.59789878e-01  4.59789878e-01  4.59789878e-01  4.59789878e-01  4.59789878e-01  3.73292277e-09  4.59789878e-01  1.62021507e-07  1.47871862e-07  1.50000000e-01 
 1.60000000e-01  4.59789889e-01  4.59789889e-01  4.59789889e-01  4.59789889e-01  4.59789889e-01  3.73292271e-09  4.59789889e-01  1.62021515e-07  1.47871557e-07  1.60000000e-01 
 1.70000000e-01  4.59789863e-01  4.59789863e-01  4.59789863e-01  4.59789863e-01  4.59789863e-01  3.73292277e-09  4.59789863e-01  1.62021478e-07  1.47871306e-07  1.70000000e-01 
 1.80000000e-01  4.59789857e-01  4.59789857e-01  4.59789857e-01  4.59789857e-01  4.59789857e-01  3.73292277e-09  4.59789857e-01  1.62021474e-07  1.47871024e-07  1.80000000e-01 
 1.90000000e-01  4.59789881e-01  4.59789881e-01  4.59789881e-01  4.59789881e-01  4.59789881e-01  3.73292277e-09  4.59789881e-01  1.62021519e-07  1.47870853e-07  1.90000000e-01 
 2.00000000e-01  4.59789845e-01  4.59789845e-01  4.59789845e-01  4.59789845e-01  4.59789845e-01  3.73292277e-09  4.59789845e-01  1.62021459e-07  1.47870542e-07  2.00000000e-01 
 2.10000000e-01  4.59789894e-01  4.59789893e-01  4.59789894e-01  4.59789894e-01  4.59789894e-01  3.73292277e-09  4.59789894e-01  1.62021533e-07  1.47870525e-07  2.10000000e-01 
 2.20000000e-01  4.59789855e-01  4.59789855e-01  4.59789855e-01  4.59789855e-01  4.59789855e-01  3.73292277e-09  4.59789855e-01  1.62021478e-07  1.47870292e-07  2.20000000e-01 
 2.30000000e-01  4.59789881e-01  4.59789881e-01  4.59789881e-01  4.59789881e-01  4.59789881e-01  3.73292277e-09  4.59789881e-01  1.62021504e-07  1.47870136e-07  2.30000000e-01 
 2.40000000e-01  4.59789828e-01  4.59789828e-01  4.59789828e-01  4.59789828e-01  4.59789828e-01  3.73292277e-09  4.59789828e-01  1.62021423e-07  1.47869853e-07  2.40000000e-01 
 2.50000000e-01  4.59789866e-01  4.59789866e-01  4.59789866e-01  4.59789866e-01  4.59789866e-01  3.73292277e-09  4.59789866e-01  1.62021490e-07  1.47869779e-07  2.50000000e-01 
 2.60000000e-01  4.59789878e-01  4.59789878e-01  4.59789878e-01  4.59789878e-01  4.59789878e-01  3.73292277e-09  4.59789878e-01  1.62021505e-07  1.47869658e-07  2.60000000e-01 
 2.70000000e-01  4.59789873e-01  4.59789873e-01  4.59789873e-01  4.59789873e-01  4.59789873e-01  3.73292277e-09  4.59789873e-01  1.62021499e-07  1.47869455e-07  2.70000000e-01 
 2.80000000e-01  4.59789869e-01  4.59789868e-01  4.59789868e-01  4.59789869e-01  4.59789869e-01  3.73292271e-09  4.59789869e-01  1.62021484e-07  1.47869326e-07  2.80000000e-01 
 2.90000000e-01  4.59789838e-01  4.59789837e-01  4.59789837e-01  4.59789837e-01  4.59789837e-01  3.73292271e-09  4.59789837e-01  1.62021447e-07  1.47869031e-07  2.90000000e-01 
 3.00000000e-01  4.59789866e-01  4.59789866e-01  4.59789866e-01  4.59789866e-01  4.59789866e-01  3.73292277e-09  4.59789866e-01  1.62021493e-07  1.47868949e-07  3.00000000e-01 
 3.10000000e-01  4.59789884e-01  4.59789883e-01  4.59789883e-01  4.59789883e-01  4.59789884e-01  3.73292277e-09  4.59789883e-01  1.62021502e-07  1.47869013e-07  3.10000000e-01 
 3.20000000e-01  4.59789887e-01  4.59789886e-01  4.59789886e-01  4.59789886e-01  4.59789886e-01  3.73292277e-09  4.59789886e-01  1.62021511e-07  1.47868832e-07  3.20000000e-01 
 3.30000000e-01  4.59789843e-01  4.59789843e-01  4.59789843e-01  4.59789843e-01  4.59789843e-01  3.73292277e-09  4.59789843e-01  1.62021443e-07  1.47868466e-07  3.30000000e-01 
 3.40000000e-01  4.59789872e-01  4.59789871e-01  4.59789872e-01  4.59789872e-01  4.59789872e-01  3.73292277e-09  4.59789872e-01  1.62021498e-07  1.47868516e-07  3.40000000e-01 
 3.50000000e-01  4.59789870e-01  4.59789870e-01  4.59789870e-01  4.59789870e-01  4.59789870e-01  3.73292277e-09  4.59789870e-01  1.62021486e-07  1.47868324e-07  3.50000000e-01 
 3.60000000e-01  4.59789857e-01  4.59789857e-01  4.59789857e-01  4.59789857e-01  4.59789857e-01  3.73292271e-09  4.59789857e-01  1.62021477e-07  1.47868274e-07  3.60000000e-01 
 3.70000000e-01  4.59789857e-01  4.59789857e-01  4.59789857e-01  4.59789857e-01  4.59789857e-01  3.73292277e-09  4.59789857e-01  1.62021479e-07  1.47868139e-07  3.70000000e-01 
 3.80000000e-01  4.59789890e-01  4.59789890e-01  4.59789890e-01  4.59789890e-01  4.59789890e-01  3.73292277e-09  4.59789890e-01  1.62021521e-07  1.47868025e-07  3.80000000e-01 
 3.90000000e-01  4.59789883e-01  4.59789883e-01  4.59789883e-01  4.59789883e-01  4.59789883e-01  3.73292277e-09  4.59789883e-01  1.62021499e-07  1.47867915e-07  3.90000000e-01 
 4.00000000e-01  4.59789850e-01  4.59789849e-01  4.59789849e-01  4.59789849e-01  4.59789850e-01  3.73292277e-09  4.59789849e-01  1.62021455e-07  1.47867638e-07  4.00000000e-01 
 4.10000000e-01  4.59789889e-01  4.59789889e-01  4.59789889e-01  4.59789889e-01  4.59789889e-01  3.73292271e-09  4.59789889e-01  1.62021516e-07  1.47867745e-07  4.10000000e-01 
 4.20000000e-01  4.59789874e-01  4.59789873e-01  4.59789873e-01  4.59789873e-01  4.59789873e-01  3.73292271e-09  4.59789873e-01  1.62021500e-07  1.47867404e-07  4.20000000e-01 
 4.30000000e-01  4.59789870e-01  4.59789870e-01  4.59789870e-01  4.59789870e-01  4.59789870e-01  3.73292277e-09  4.59789870e-01  1.62021484e-07  1.47867429e-07  4.30000000e-01 
 4.40000000e-01  4.59789855e-01  4.59789855e-01  4.59789855e-01  4.59789855e-01  4.59789855e-01  3.73292277e-09  4.59789855e-01  1.62021477e-07  1.47867325e-07  4.40000000e-01 
 4.50000000e-01  4.59789892e-01  4.59789892e-01  4.59789892e-01  4.59789892e-01  4.59789892e-01  3.73292271e-09  4.59789892e-01  1.62021518e-07  1.47867226e-07  4.50000000e-01 
 4.60000000e-01  4.59789879e-01  4.59789878e-01  4.59789878e-01  4.59789878e-01  4.59789878e-01  3.73292277e-09  4.59789878e-01  1.62021494e-07  1.47867098e-07  4.60000000e-01 
 4.70000000e-01  4.59789866e-01  4.59789866e-01  4.59789866e-01  4.59789866e-01  4.59789866e-01  3.73292277e-09  4.59789866e-01  1.62021476e-07  1.47867016e-07  4.70000000e-01 
 4.80000000e-01  4.59789864e-01  4.59789864e-01  4.59789864e-01  4.59789864e-01  4.59789864e-01  3.73292277e-09  4.59789864e-01  1.62021478e-07  1.47866810e-07  4.80000000e-01 
 4.90000000e-01  4.59789882e-01  4.59789882e-01  4.59789882e-01  4.59789882e-01  4.59789882e-01  3.73292277e-09  4.59789882e-01  1.62021507e-07  1.47866817e-07  4.90000000e-01 
 5.00000000e-01  4.59789863e-01  4.59789862e-01  4.59789862e-01  4.59789862e-01  4.59789862e-01  3.73292277e-09  4.59789862e-01  1.62021480e-07  1.47866590e-07  5.00000000e-01 
 5.10000000e-01  4.59789859e-01  4.59789859e-01  4.59789859e-01  4.59789859e-01  4.59789859e-01  3.73292277e-09  4.59789859e-01  1.62021479e-07  1.47866412e-07  5.10000000e-01 
 5.20000000e-01  4.59789873e-01  4.59789873e-01  4.59789873e-01  4.59789873e-01  4.59789873e-01  3.73292277e-09  4.59789873e-01  1.62021502e-07  1.47866395e-07  5.20000000e-01 
 5.30000000e-01  4.59789871e-01  4.59789871e-01  4.59789871e-01  4.59789871e-01  4.59789871e-01  3.73292277e-09  4.59789871e-01  1.62021481e-07  1.47866331e-07  5.30000000e-01 
 5.40000000e-01  4.59789841e-01  4.59789840e-01  4.59789840e-01  4.59789840e-01  4.59789841e-01  3.73292277e-09  4.59789840e-01  1.62021447e-07  1.47866150e-07  5.40000000e-01 
 5.50000000e-01  4.59789855e-01  4.59789855e-01  4.59789855e-01  4.59789855e-01  4.59789855e-01  3.73292277e-09  4.59789855e-01  1.62021470e-07  1.47866043e-07  5.50000000e-01 
 5.60000000e-01  4.59789862e-01  4.59789862e-01  4.59789862e-01  4.59789862e-01  4.59789862e-01  3.73292277e-09  4.59789862e-01  1.62021485e-07  1.47865990e-07  5.60000000e-01 
 5.70000000e-01  4.59789876e-01  4.59789876e-01  4.59789876e-01  4.59789876e-01  4.59789876e-01  3.73292271e-09  4.59789876e-01  1.62021495e-07  1.47865936e-07  5.70000000e-01 
 5.80000000e-01  4.59789882e-01  4.59789882e-01  4.59789882e-01  4.59789882e-01  4.59789882e-01  3.73292277e-09  4.59789882e-01  1.62021519e-07  1.47865869e-07  5.80000000e-01 
 5.90000000e-01  4.59789894e-01  4.59789894e-01  4.59789894e-01  4.59789894e-01  4.59789894e-01  3.73292277e-09  4.59789894e-01  1.62021533e-07  1.47865826e-07  5.90000000e-01 
 6.00000000e-01  4.59789851e-01  4.59789851e-01  4.59789851e-01  4.59789851e-01  4.59789851e-01  3.73292277e-09  4.59789851e-01  1.62021470e-07  1.47865627e-07  6.00000000e-01 
 6.10000000e-01  4.59789852e-01  4.59789852e-01  4.59789852e-01  4.59789852e-01  4.59789852e-01  3.73292277e-09  4.59789852e-01  1.62021466e-07  1.47865521e-07  6.10000000e-01 
 6.20000000e-01  4.59789878e-01  4.59789878e-01  4.59789878e-01  4.59789878e-01  4.59789878e-01  3.73292271e-09  4.59789878e-01  1.62021502e-07  1.47865450e-07  6.20000000e-01 
 6.30000000e-01  4.59789877e-01  4.59789877e-01  4.59789877e-01  4.59789877e-01  4.59789877e-01  3.73292277e-09  4.59789877e-01  1.62021503e-07  1.47865286e-07  6.30000000e-01 
 6.40000000e-01  4.59789841e-01  4.59789841e-01  4.59789841e-01  4.59789841e-01  4.59789841e-01  3.73292277e-09  4.59789841e-01  1.62021455e-07  1.47865165e-07  6.40000000e-01 
 6.50000000e-01  4.59789876e-01  4.59789876e-01  4.59789876e-01  4.59789876e-01  4.59789876e-01  3.73292277e-09  4.59789876e-01  1.62021498e-07  1.47865187e-07  6.50000000e-01 
 6.60000000e-01  4.59789889e-01  4.59789889e-01  4.59789889e-01  4.59789889e-01  4.59789889e-01  3.73292277e-09  4.59789889e-01  1.62021512e-07  1.47865066e-07  6.60000000e-01 
 6.70000000e-01  4.59789894e-01  4.59789894e-01  4.59789894e-01  4.59789894e-01  4.59789894e-01  3.73292277e-09  4.59789894e-01  1.62021533e-07  1.47865002e-07  6.70000000e-01 
 6.80000000e-01  4.59789860e-01  4.59789860e-01  4.59789860e-01  4.59789860e-01  4.59789860e-01  3.73292277e-09  4.59789860e-01  1.62021474e-07  1.47864846e-07  6.80000000e-01 
 6.90000000e-01  4.59789877e-01  4.59789877e-01  4.59789877e-01  4.59789877e-01  4.59789877e-01  3.73292277e-09  4.59789877e-01  1.62021509e-07  1.47864768e-07  6.90000000e-01 
 7.00000000e-01  4.59789871e-01  4.59789871e-01  4.59789871e-01  4.59789871e-01  4.59789871e-01  3.73292277e-09  4.59789871e-01  1.62021485e-07  1.47864597e-07  7.00000000e-01 
 7.10000000e-01  4.59789875e-01  4.59789875e-01  4.59789875e-01  4.59789875e-01  4.59789875e-01  3.73292277e-09  4.59789875e-01  1.62021494e-07  1.47864441e-07  7.10000000e-01 
 7.20000000e-01  4.59789850e-01  4.59789850e-01  4.59789850e-01  4.59789850e-01  4.59789850e-01  3.73292277e-09  4.59789850e-01  1.62021461e-07  1.47864363e-07  7.20000000e-01 
 7.30000000e-01  4.59789852e-01  4.59789852e-01  4.59789852e-01  4.59789852e-01  4.59789852e-01  3.73292277e-09  4.59789852e-01  1.62021466e-07  1.47864213e-07  7.30000000e-01 
 7.40000000e-01  4.59789877e-01  4.59789876e-01  4.59789876e-01  4.59789876e-01  4.59789876e-01  3.73292271e-09  4.59789876e-01  1.62021506e-07  1.47864263e-07  7.40000000e-01 
 7.50000000e-01  4.59789867e-01  4.59789867e-01  4.59789867e-01  4.59789867e-01  4.59789867e-01  3.73292277e-09  4.59789867e-01  1.62021477e-07  1.47864021e-07  7.50000000e-01 
 7.60000000e-01  4.59789860e-01  4.59789860e-01  4.59789860e-01  4.59789860e-01  4.59789860e-01  3.73292271e-09  4.59789860e-01  1.62021473e-07  1.47863979e-07  7.60000000e-01 
 7.70000000e-01  4.59789865e-01  4.59789864e-01  4.59789864e-01  4.59789864e-01  4.59789865e-01  3.73292277e-09  4.59789864e-01  1.62021487e-07  1.47863837e-07  7.70000000e-01 
 7.80000000e-01  4.59789886e-01  4.59789886e-01  4.59789886e-01  4.59789886e-01  4.59789886e-01  3.73292277e-09  4.59789886e-01  1.62021505e-07  1.47863858e-07  7.80000000e-01 
 7.90000000e-01  4.59789843e-01  4.59789843e-01  4.59789843e-01  4.59789843e-01  4.59789843e-01  3.73292277e-09  4.59789843e-01  1.62021446e-07  1.47863553e-07  7.90000000e-01 
 8.00000000e-01  4.59789877e-01  4.59789876e-01  4.59789876e-01  4.59789876e-01  4.59789876e-01  3.73292271e-09  4.59789876e-01  1.62021519e-07  1.47863574e-07  8.00000000e-01 
 8.10000000e-01  4.59789862e-01  4.59789862e-01  4.59789862e-01  4.59789862e-01  4.59789862e-01  3.73292277e-09  4.59789862e-01  1.62021482e-07  1.47863346e-07  8.10000000e-01 
 8.20000000e-01  4.59789870e-01  4.59789870e-01  4.59789870e-01  4.59789870e-01  4.59789870e-01  3.73292271e-09  4.59789870e-01  1.62021480e-07  1.47863268e-07  8.20000000e-01 
 8.30000000e-01  4.59789852e-01  4.59789852e-01  4.59789852e-01  4.59789852e-01  4.59789852e-01  3.73292277e-09  4.59789852e-01  1.62021462e-07  1.47863155e-07  8.30000000e-01 
 8.40000000e-01  4.59789855e-01  4.59789854e-01  4.59789855e-01  4.59789855e-01  4.59789855e-01  3.73292277e-09  4.59789855e-01  1.62021471e-07  1.47863098e-07  8.40000000e-01 
 8.50000000e-01  4.59789873e-01  4.59789873e-01  4.59789873e-01  4.59789873e-01  4.59789873e-01  3.73292277e-09  4.59789873e-01  1.62021500e-07  1.47863034e-07  8.50000000e-01 
 8.60000000e-01  4.59789889e-01  4.59789889e-01  4.59789889e-01  4.59789889e-01  4.59789889e-01  3.73292277e-09  4.59789889e-01  1.62021516e-07  1.47863041e-07  8.60000000e-01 
 8.70000000e-01  4.59789868e-01  4.59789868e-01  4.59789868e-01  4.59789868e-01  4.59789868e-01  3.73292277e-09  4.59789868e-01  1.62021494e-07  1.47862600e-07  8.70000000e-01 
 8.80000000e-01  4.59789887e-01  4.59789887e-01  4.59789887e-01  4.59789887e-01  4.59789887e-01  3.73292277e-09  4.59789887e-01  1.62021517e-07  1.47862671e-07  8.80000000e-01 
 8.90000000e-01  4.59789876e-01  4.59789875e-01  4.59789876e-01  4.59789876e-01  4.59789876e-01  3.73292271e-09  4.59789876e-01  1.62021507e-07  1.47862551e-07  8.90000000e-01 
 9.00000000e-01  4.59789878e-01  4.59789878e-01  4.59789878e-01  4.59789878e-01  4.59789878e-01  3.73292277e-09  4.59789878e-01  1.62021506e-07  1.47862536e-07  9.00000000e-01 
 9.10000000e-01  4.59789851e-01  4.59789851e-01  4.59789851e-01  4.59789851e-01  4.59789851e-01  3.73292277e-09  4.59789851e-01  1.62021465e-07  1.47862345e-07  9.10000000e-01 
 9.20000000e-01  4.59789872e-01  4.59789872e-01  4.59789872e-01  4.59789872e-01  4.59789872e-01  3.73292277e-09  4.59789872e-01  1.62021494e-07  1.47862252e-07  9.20000000e-01 
 9.30000000e-01  4.59789869e-01  4.59789869e-01  4.59789869e-01  4.59789869e-01  4.59789869e-01  3.73292277e-09  4.59789869e-01  1.62021476e-07  1.47862131e-07  9.30000000e-01 
 9.40000000e-01  4.59789866e-01  4.59789866e-01  4.59789866e-01  4.59789866e-01  4.59789866e-01  3.73292277e-09  4.59789866e-01  1.62021483e-07  1.47861904e-07  9.40000000e-01 
 9.50000000e-01  4.59789867e-01  4.59789867e-01  4.59789867e-01  4.59789867e-01  4.59789867e-01  3.73292277e-09  4.59789867e-01  1.62021484e-07  1.47861854e-07  9.50000000e-01 
 9.60000000e-01  4.59789855e-01  4.59789854e-01  4.59789855e-01  4.59789855e-01  4.59789855e-01  3.73292277e-09  4.59789855e-01  1.62021472e-07  1.47861712e-07  9.60000000e-01 
 9.70000000e-01  4.59789861e-01  4.59789861e-01  4.59789861e-01  4.59789861e-01  4.59789861e-01  3.73292277e-09  4.59789861e-01  1.62021482e-07  1.47861662e-07  9.70000000e-01 
 9.80000000e-01  4.59789861e-01  4.59789861e-01  4.59789861e-01  4.59789861e-01  4.59789861e-01  3.73292277e-09  4.59789861e-01  1.62021481e-07  1.47861520e-07  9.80000000e-01 
 9.90000000e-01  4.59789855e-01  4.59789854e-01  4.59789855e-01  4.59789855e-01  4.59789855e-01  3.73292277e-09  4.59789855e-01  1.62021457e-07  1.47861350e-07  9.90000000e-01 
 1.00000000e+00  4.59789888e-01  4.59789888e-01  4.59789888e-01  4.59789888e-01  4.59789888e-01  3.73292277e-09  4.59789888e-01  1.62021517e-07  1.47861357e-07  1.00000000e+00 
 1.01000000e+00  4.59789879e-01  4.59789879e-01  4.59789879e-01  4.59789879e-01  4.59789879e-01  3.73292277e-09  4.59789879e-01  1.62021506e-07  1.47861208e-07  1.01000000e+00 
 1.02000000e+00  4.59789858e-01  4.59789858e-01  4.59789858e-01  4.59789858e-01  4.59789858e-01  3.73292277e-09  4.59789858e-01  1.62021482e-07  1.47861023e-07  1.02000000e+00 
 1.03000000e+00  4.59789845e-01  4.59789845e-01  4.59789845e-01  4.59789845e-01  4.59789845e-01  3.73292277e-09  4.59789845e-01  1.62021468e-07  1.47860867e-07  1.03000000e+00 
 1.04000000e+00  4.59789861e-01  4.59789861e-01  4.59789861e-01  4.59789861e-01  4.59789861e-01  3.73292277e-09  4.59789861e-01  1.62021472e-07  1.47860746e-07  1.04000000e+00 
 1.05000000e+00  4.59789853e-01  4.59789853e-01  4.59789853e-01  4.59789853e-01  4.59789853e-01  3.73292277e-09  4.59789853e-01  1.62021469e-07  1.47860668e-07  1.05000000e+00 
 1.06000000e+00  4.59789888e-01  4.59789887e-01  4.59789887e-01  4.59789887e-01  4.59789888e-01  3.73292277e-09  4.59789887e-01  1.62021519e-07  1.47860639e-07  1.06000000e+00 
 1.07000000e+00  4.59789879e-01  4.59789879e-01  4.59789879e-01  4.59789879e-01  4.59789879e-01  3.73292277e-09  4.59789879e-01  1.62021501e-07  1.47860497e-07  1.07000000e+00 
 1.08000000e+00  4.59789878e-01  4.59789878e-01  4.59789878e-01  4.59789878e-01  4.59789878e-01  3.73292277e-09  4.59789878e-01  1.62021505e-07  1.47860298e-07  1.08000000e+00 
 1.09000000e+00  4.59789878e-01  4.59789878e-01  4.59789878e-01  4.59789878e-01  4.59789878e-01  3.73292277e-09  4.59789878e-01  1.62021501e-07  1.47860284e-07  1.09000000e+00 
 1.10000000e+00  4.59789878e-01  4.59789878e-01  4.59789878e-01  4.59789878e-01  4.59789878e-01  3.73292277e-09  4.59789878e-01  1.62021497e-07  1.47860085e-07  1.10000000e+00 
