 v-sweep         v(b0)           v(b1)           v(b2)           v(b3)           v(b4)           v(b5)           v(b6)           i(vbias)        i(viout)        v(vout)        
 0.00000000e+00  3.50347233e-09  3.11282859e-09  4.58397634e-01  3.27962962e-09  3.23256040e-09  4.58397634e-01  3.45701430e-09  1.60296394e-07  5.46722096e-08  0.00000000e+00 
 1.00000000e-02  3.50347236e-09  3.11282861e-09  4.58397661e-01  3.27962959e-09  3.23256044e-09  4.58397661e-01  3.45701434e-09  1.60296436e-07  5.46717647e-08  1.00000000e-02 
 2.00000000e-02  3.50347236e-09  3.11282861e-09  4.58397638e-01  3.27962959e-09  3.23256044e-09  4.58397638e-01  3.45701433e-09  1.60296392e-07  5.46713976e-08  2.00000000e-02 
 3.00000000e-02  3.50347236e-09  3.11282861e-09  4.58397654e-01  3.27962959e-09  3.23256044e-09  4.58397654e-01  3.45701434e-09  1.60296419e-07  5.46710508e-08  3.00000000e-02 
 4.00000000e-02  3.50347236e-09  3.11282855e-09  4.58397629e-01  3.27962959e-09  3.23256038e-09  4.58397629e-01  3.45701433e-09  1.60296389e-07  5.46705983e-08  4.00000000e-02 
 5.00000000e-02  3.50347236e-09  3.11282856e-09  4.58397643e-01  3.27962959e-09  3.23256044e-09  4.58397643e-01  3.45701434e-09  1.60296404e-07  5.46702887e-08  5.00000000e-02 
 6.00000000e-02  3.50347236e-09  3.11282861e-09  4.58397630e-01  3.27962959e-09  3.23256044e-09  4.58397630e-01  3.45701433e-09  1.60296382e-07  5.46700445e-08  6.00000000e-02 
 7.00000000e-02  3.50347236e-09  3.11282856e-09  4.58397657e-01  3.27962959e-09  3.23256038e-09  4.58397657e-01  3.45701434e-09  1.60296428e-07  5.46696448e-08  7.00000000e-02 
 8.00000000e-02  3.50347236e-09  3.11282856e-09  4.58397631e-01  3.27962959e-09  3.23256038e-09  4.58397632e-01  3.45701433e-09  1.60296376e-07  5.46692833e-08  8.00000000e-02 
 9.00000000e-02  3.50347236e-09  3.11282856e-09  4.58397632e-01  3.27962965e-09  3.23256044e-09  4.58397632e-01  3.45701433e-09  1.60296389e-07  5.46690684e-08  9.00000000e-02 
 1.00000000e-01  3.50347236e-09  3.11282856e-09  4.58397646e-01  3.27962959e-09  3.23256044e-09  4.58397646e-01  3.45701434e-09  1.60296414e-07  5.46689130e-08  1.00000000e-01 
 1.10000000e-01  3.50347236e-09  3.11282856e-09  4.58397640e-01  3.27962959e-09  3.23256038e-09  4.58397640e-01  3.45701433e-09  1.60296403e-07  5.46686607e-08  1.10000000e-01 
 1.20000000e-01  3.50347236e-09  3.11282856e-09  4.58397640e-01  3.27962959e-09  3.23256044e-09  4.58397640e-01  3.45701433e-09  1.60296408e-07  5.46683578e-08  1.20000000e-01 
 1.30000000e-01  3.50347236e-09  3.11282861e-09  4.58397632e-01  3.27962959e-09  3.23256038e-09  4.58397632e-01  3.45701433e-09  1.60296384e-07  5.46679884e-08  1.30000000e-01 
 1.40000000e-01  3.50347236e-09  3.11282856e-09  4.58397654e-01  3.27962959e-09  3.23256038e-09  4.58397654e-01  3.45701434e-09  1.60296431e-07  5.46678933e-08  1.40000000e-01 
 1.50000000e-01  3.50347236e-09  3.11282861e-09  4.58397643e-01  3.27962959e-09  3.23256044e-09  4.58397643e-01  3.45701434e-09  1.60296400e-07  5.46676180e-08  1.50000000e-01 
 1.60000000e-01  3.50347236e-09  3.11282856e-09  4.58397650e-01  3.27962959e-09  3.23256038e-09  4.58397650e-01  3.45701434e-09  1.60296424e-07  5.46675576e-08  1.60000000e-01 
 1.70000000e-01  3.50347236e-09  3.11282856e-09  4.58397645e-01  3.27962959e-09  3.23256044e-09  4.58397645e-01  3.45701434e-09  1.60296415e-07  5.46673444e-08  1.70000000e-01 
 1.80000000e-01  3.50347236e-09  3.11282861e-09  4.58397630e-01  3.27962959e-09  3.23256044e-09  4.58397630e-01  3.45701433e-09  1.60296394e-07  5.46671437e-08  1.80000000e-01 
 1.90000000e-01  3.50347236e-09  3.11282861e-09  4.58397630e-01  3.27962959e-09  3.23256038e-09  4.58397630e-01  3.45701433e-09  1.60296371e-07  5.46669146e-08  1.90000000e-01 
 2.00000000e-01  3.50347236e-09  3.11282856e-09  4.58397657e-01  3.27962959e-09  3.23256038e-09  4.58397658e-01  3.45701434e-09  1.60296424e-07  5.46668169e-08  2.00000000e-01 
 2.10000000e-01  3.50347236e-09  3.11282855e-09  4.58397625e-01  3.27962959e-09  3.23256044e-09  4.58397625e-01  3.45701433e-09  1.60296371e-07  5.46665841e-08  2.10000000e-01 
 2.20000000e-01  3.50347236e-09  3.11282856e-09  4.58397654e-01  3.27962959e-09  3.23256038e-09  4.58397654e-01  3.45701434e-09  1.60296421e-07  5.46665078e-08  2.20000000e-01 
 2.30000000e-01  3.50347236e-09  3.11282861e-09  4.58397634e-01  3.27962959e-09  3.23256044e-09  4.58397634e-01  3.45701433e-09  1.60296391e-07  5.46663443e-08  2.30000000e-01 
 2.40000000e-01  3.50347236e-09  3.11282856e-09  4.58397633e-01  3.27962959e-09  3.23256044e-09  4.58397634e-01  3.45701433e-09  1.60296390e-07  5.46662395e-08  2.40000000e-01 
 2.50000000e-01  3.50347236e-09  3.11282856e-09  4.58397632e-01  3.27962959e-09  3.23256044e-09  4.58397632e-01  3.45701433e-09  1.60296387e-07  5.46660406e-08  2.50000000e-01 
 2.60000000e-01  3.50347236e-09  3.11282861e-09  4.58397640e-01  3.27962959e-09  3.23256038e-09  4.58397640e-01  3.45701433e-09  1.60296403e-07  5.46660086e-08  2.60000000e-01 
 2.70000000e-01  3.50347236e-09  3.11282861e-09  4.58397635e-01  3.27962959e-09  3.23256038e-09  4.58397635e-01  3.45701433e-09  1.60296400e-07  5.46659233e-08  2.70000000e-01 
 2.80000000e-01  3.50347236e-09  3.11282855e-09  4.58397628e-01  3.27962959e-09  3.23256038e-09  4.58397629e-01  3.45701433e-09  1.60296370e-07  5.46657049e-08  2.80000000e-01 
 2.90000000e-01  3.50347236e-09  3.11282856e-09  4.58397637e-01  3.27962959e-09  3.23256038e-09  4.58397637e-01  3.45701433e-09  1.60296389e-07  5.46656764e-08  2.90000000e-01 
 3.00000000e-01  3.50347236e-09  3.11282855e-09  4.58397627e-01  3.27962959e-09  3.23256038e-09  4.58397627e-01  3.45701433e-09  1.60296372e-07  5.46655130e-08  3.00000000e-01 
 3.10000000e-01  3.50347236e-09  3.11282856e-09  4.58397641e-01  3.27962959e-09  3.23256038e-09  4.58397641e-01  3.45701434e-09  1.60296406e-07  5.46653212e-08  3.10000000e-01 
 3.20000000e-01  3.50347236e-09  3.11282856e-09  4.58397647e-01  3.27962959e-09  3.23256044e-09  4.58397647e-01  3.45701428e-09  1.60296397e-07  5.46653034e-08  3.20000000e-01 
 3.30000000e-01  3.50347236e-09  3.11282861e-09  4.58397631e-01  3.27962959e-09  3.23256044e-09  4.58397632e-01  3.45701433e-09  1.60296399e-07  5.46652359e-08  3.30000000e-01 
 3.40000000e-01  3.50347236e-09  3.11282856e-09  4.58397648e-01  3.27962959e-09  3.23256044e-09  4.58397648e-01  3.45701434e-09  1.60296424e-07  5.46650547e-08  3.40000000e-01 
 3.50000000e-01  3.50347236e-09  3.11282856e-09  4.58397635e-01  3.27962959e-09  3.23256038e-09  4.58397635e-01  3.45701433e-09  1.60296390e-07  5.46650440e-08  3.50000000e-01 
 3.60000000e-01  3.50347236e-09  3.11282856e-09  4.58397651e-01  3.27962959e-09  3.23256044e-09  4.58397651e-01  3.45701434e-09  1.60296412e-07  5.46648735e-08  3.60000000e-01 
 3.70000000e-01  3.50347236e-09  3.11282861e-09  4.58397641e-01  3.27962959e-09  3.23256038e-09  4.58397641e-01  3.45701434e-09  1.60296385e-07  5.46647954e-08  3.70000000e-01 
 3.80000000e-01  3.50347236e-09  3.11282856e-09  4.58397640e-01  3.27962959e-09  3.23256044e-09  4.58397640e-01  3.45701433e-09  1.60296395e-07  5.46648593e-08  3.80000000e-01 
 3.90000000e-01  3.50347236e-09  3.11282856e-09  4.58397635e-01  3.27962959e-09  3.23256038e-09  4.58397635e-01  3.45701433e-09  1.60296388e-07  5.46647207e-08  3.90000000e-01 
 4.00000000e-01  3.50347236e-09  3.11282855e-09  4.58397624e-01  3.27962959e-09  3.23256044e-09  4.58397624e-01  3.45701433e-09  1.60296384e-07  5.46645360e-08  4.00000000e-01 
 4.10000000e-01  3.50347236e-09  3.11282856e-09  4.58397637e-01  3.27962959e-09  3.23256038e-09  4.58397637e-01  3.45701433e-09  1.60296392e-07  5.46646248e-08  4.10000000e-01 
 4.20000000e-01  3.50347236e-09  3.11282856e-09  4.58397640e-01  3.27962959e-09  3.23256044e-09  4.58397640e-01  3.45701433e-09  1.60296399e-07  5.46644969e-08  4.20000000e-01 
 4.30000000e-01  3.50347236e-09  3.11282856e-09  4.58397652e-01  3.27962959e-09  3.23256038e-09  4.58397652e-01  3.45701434e-09  1.60296437e-07  5.46642909e-08  4.30000000e-01 
 4.40000000e-01  3.50347236e-09  3.11282861e-09  4.58397652e-01  3.27962959e-09  3.23256044e-09  4.58397652e-01  3.45701434e-09  1.60296427e-07  5.46643264e-08  4.40000000e-01 
 4.50000000e-01  3.50347236e-09  3.11282861e-09  4.58397632e-01  3.27962959e-09  3.23256044e-09  4.58397632e-01  3.45701433e-09  1.60296387e-07  5.46641488e-08  4.50000000e-01 
 4.60000000e-01  3.50347236e-09  3.11282861e-09  4.58397642e-01  3.27962959e-09  3.23256044e-09  4.58397642e-01  3.45701434e-09  1.60296408e-07  5.46643193e-08  4.60000000e-01 
 4.70000000e-01  3.50347236e-09  3.11282861e-09  4.58397636e-01  3.27962959e-09  3.23256044e-09  4.58397636e-01  3.45701433e-09  1.60296396e-07  5.46640848e-08  4.70000000e-01 
 4.80000000e-01  3.50347236e-09  3.11282856e-09  4.58397638e-01  3.27962959e-09  3.23256038e-09  4.58397638e-01  3.45701433e-09  1.60296388e-07  5.46640919e-08  4.80000000e-01 
 4.90000000e-01  3.50347236e-09  3.11282861e-09  4.58397654e-01  3.27962959e-09  3.23256044e-09  4.58397654e-01  3.45701434e-09  1.60296417e-07  5.46640067e-08  4.90000000e-01 
 5.00000000e-01  3.50347236e-09  3.11282861e-09  4.58397650e-01  3.27962959e-09  3.23256044e-09  4.58397650e-01  3.45701434e-09  1.60296417e-07  5.46639249e-08  5.00000000e-01 
 5.10000000e-01  3.50347236e-09  3.11282855e-09  4.58397628e-01  3.27962959e-09  3.23256038e-09  4.58397628e-01  3.45701433e-09  1.60296380e-07  5.46638610e-08  5.10000000e-01 
 5.20000000e-01  3.50347236e-09  3.11282856e-09  4.58397637e-01  3.27962959e-09  3.23256044e-09  4.58397637e-01  3.45701433e-09  1.60296398e-07  5.46638752e-08  5.20000000e-01 
 5.30000000e-01  3.50347236e-09  3.11282856e-09  4.58397640e-01  3.27962959e-09  3.23256038e-09  4.58397640e-01  3.45701433e-09  1.60296393e-07  5.46636052e-08  5.30000000e-01 
 5.40000000e-01  3.50347236e-09  3.11282856e-09  4.58397657e-01  3.27962959e-09  3.23256044e-09  4.58397658e-01  3.45701434e-09  1.60296416e-07  5.46637082e-08  5.40000000e-01 
 5.50000000e-01  3.50347236e-09  3.11282861e-09  4.58397634e-01  3.27962959e-09  3.23256044e-09  4.58397634e-01  3.45701433e-09  1.60296390e-07  5.46635199e-08  5.50000000e-01 
 5.60000000e-01  3.50347236e-09  3.11282861e-09  4.58397628e-01  3.27962959e-09  3.23256044e-09  4.58397628e-01  3.45701433e-09  1.60296387e-07  5.46635981e-08  5.60000000e-01 
 5.70000000e-01  3.50347236e-09  3.11282856e-09  4.58397663e-01  3.27962959e-09  3.23256044e-09  4.58397663e-01  3.45701434e-09  1.60296436e-07  5.46634276e-08  5.70000000e-01 
 5.80000000e-01  3.50347236e-09  3.11282855e-09  4.58397616e-01  3.27962959e-09  3.23256038e-09  4.58397616e-01  3.45701433e-09  1.60296354e-07  5.46633601e-08  5.80000000e-01 
 5.90000000e-01  3.50347236e-09  3.11282856e-09  4.58397637e-01  3.27962959e-09  3.23256038e-09  4.58397637e-01  3.45701433e-09  1.60296403e-07  5.46632748e-08  5.90000000e-01 
 6.00000000e-01  3.50347241e-09  3.11282861e-09  4.58397612e-01  3.27962959e-09  3.23256038e-09  4.58397612e-01  3.45701433e-09  1.60296349e-07  5.46632890e-08  6.00000000e-01 
 6.10000000e-01  3.50347236e-09  3.11282861e-09  4.58397648e-01  3.27962959e-09  3.23256044e-09  4.58397648e-01  3.45701434e-09  1.60296402e-07  5.46631398e-08  6.10000000e-01 
 6.20000000e-01  3.50347236e-09  3.11282855e-09  4.58397618e-01  3.27962959e-09  3.23256038e-09  4.58397618e-01  3.45701433e-09  1.60296360e-07  5.46631469e-08  6.20000000e-01 
 6.30000000e-01  3.50347236e-09  3.11282856e-09  4.58397640e-01  3.27962959e-09  3.23256038e-09  4.58397640e-01  3.45701433e-09  1.60296407e-07  5.46630901e-08  6.30000000e-01 
 6.40000000e-01  3.50347241e-09  3.11282861e-09  4.58397625e-01  3.27962959e-09  3.23256044e-09  4.58397625e-01  3.45701433e-09  1.60296384e-07  5.46630474e-08  6.40000000e-01 
 6.50000000e-01  3.50347236e-09  3.11282861e-09  4.58397653e-01  3.27962959e-09  3.23256044e-09  4.58397653e-01  3.45701434e-09  1.60296418e-07  5.46630687e-08  6.50000000e-01 
 6.60000000e-01  3.50347236e-09  3.11282855e-09  4.58397631e-01  3.27962959e-09  3.23256038e-09  4.58397631e-01  3.45701433e-09  1.60296388e-07  5.46628840e-08  6.60000000e-01 
 6.70000000e-01  3.50347236e-09  3.11282861e-09  4.58397627e-01  3.27962959e-09  3.23256038e-09  4.58397627e-01  3.45701433e-09  1.60296390e-07  5.46627064e-08  6.70000000e-01 
 6.80000000e-01  3.50347236e-09  3.11282861e-09  4.58397642e-01  3.27962959e-09  3.23256044e-09  4.58397642e-01  3.45701434e-09  1.60296409e-07  5.46627987e-08  6.80000000e-01 
 6.90000000e-01  3.50347236e-09  3.11282861e-09  4.58397629e-01  3.27962959e-09  3.23256044e-09  4.58397629e-01  3.45701433e-09  1.60296391e-07  5.46627277e-08  6.90000000e-01 
 7.00000000e-01  3.50347236e-09  3.11282861e-09  4.58397635e-01  3.27962959e-09  3.23256038e-09  4.58397635e-01  3.45701433e-09  1.60296390e-07  5.46626779e-08  7.00000000e-01 
 7.10000000e-01  3.50347236e-09  3.11282856e-09  4.58397657e-01  3.27962959e-09  3.23256038e-09  4.58397657e-01  3.45701434e-09  1.60296422e-07  5.46626282e-08  7.10000000e-01 
 7.20000000e-01  3.50347236e-09  3.11282855e-09  4.58397620e-01  3.27962959e-09  3.23256038e-09  4.58397620e-01  3.45701433e-09  1.60296370e-07  5.46625216e-08  7.20000000e-01 
 7.30000000e-01  3.50347236e-09  3.11282856e-09  4.58397660e-01  3.27962959e-09  3.23256044e-09  4.58397660e-01  3.45701434e-09  1.60296425e-07  5.46625287e-08  7.30000000e-01 
 7.40000000e-01  3.50347236e-09  3.11282861e-09  4.58397622e-01  3.27962959e-09  3.23256044e-09  4.58397622e-01  3.45701433e-09  1.60296368e-07  5.46625074e-08  7.40000000e-01 
 7.50000000e-01  3.50347236e-09  3.11282855e-09  4.58397623e-01  3.27962959e-09  3.23256038e-09  4.58397623e-01  3.45701433e-09  1.60296380e-07  5.46623511e-08  7.50000000e-01 
 7.60000000e-01  3.50347236e-09  3.11282861e-09  4.58397638e-01  3.27962959e-09  3.23256044e-09  4.58397638e-01  3.45701433e-09  1.60296400e-07  5.46623014e-08  7.60000000e-01 
 7.70000000e-01  3.50347236e-09  3.11282861e-09  4.58397632e-01  3.27962959e-09  3.23256044e-09  4.58397632e-01  3.45701433e-09  1.60296397e-07  5.46622090e-08  7.70000000e-01 
 7.80000000e-01  3.50347236e-09  3.11282861e-09  4.58397629e-01  3.27962959e-09  3.23256044e-09  4.58397629e-01  3.45701433e-09  1.60296389e-07  5.46621735e-08  7.80000000e-01 
 7.90000000e-01  3.50347236e-09  3.11282855e-09  4.58397630e-01  3.27962959e-09  3.23256044e-09  4.58397630e-01  3.45701433e-09  1.60296385e-07  5.46621308e-08  7.90000000e-01 
 8.00000000e-01  3.50347236e-09  3.11282861e-09  4.58397651e-01  3.27962965e-09  3.23256038e-09  4.58397651e-01  3.45701434e-09  1.60296416e-07  5.46620811e-08  8.00000000e-01 
 8.10000000e-01  3.50347236e-09  3.11282856e-09  4.58397651e-01  3.27962959e-09  3.23256038e-09  4.58397651e-01  3.45701434e-09  1.60296403e-07  5.46620242e-08  8.10000000e-01 
 8.20000000e-01  3.50347236e-09  3.11282861e-09  4.58397636e-01  3.27962959e-09  3.23256038e-09  4.58397636e-01  3.45701433e-09  1.60296397e-07  5.46618821e-08  8.20000000e-01 
 8.30000000e-01  3.50347236e-09  3.11282856e-09  4.58397647e-01  3.27962959e-09  3.23256044e-09  4.58397647e-01  3.45701434e-09  1.60296424e-07  5.46617684e-08  8.30000000e-01 
 8.40000000e-01  3.50347236e-09  3.11282861e-09  4.58397648e-01  3.27962959e-09  3.23256044e-09  4.58397648e-01  3.45701434e-09  1.60296413e-07  5.46618679e-08  8.40000000e-01 
 8.50000000e-01  3.50347236e-09  3.11282855e-09  4.58397621e-01  3.27962959e-09  3.23256038e-09  4.58397621e-01  3.45701433e-09  1.60296377e-07  5.46617471e-08  8.50000000e-01 
 8.60000000e-01  3.50347236e-09  3.11282856e-09  4.58397655e-01  3.27962959e-09  3.23256038e-09  4.58397655e-01  3.45701434e-09  1.60296423e-07  5.46616690e-08  8.60000000e-01 
 8.70000000e-01  3.50347236e-09  3.11282861e-09  4.58397635e-01  3.27962959e-09  3.23256044e-09  4.58397635e-01  3.45701433e-09  1.60296390e-07  5.46616477e-08  8.70000000e-01 
 8.80000000e-01  3.50347236e-09  3.11282861e-09  4.58397651e-01  3.27962959e-09  3.23256044e-09  4.58397652e-01  3.45701434e-09  1.60296415e-07  5.46617116e-08  8.80000000e-01 
 8.90000000e-01  3.50347236e-09  3.11282856e-09  4.58397640e-01  3.27962959e-09  3.23256038e-09  4.58397640e-01  3.45701433e-09  1.60296406e-07  5.46614558e-08  8.90000000e-01 
 9.00000000e-01  3.50347236e-09  3.11282861e-09  4.58397630e-01  3.27962959e-09  3.23256038e-09  4.58397630e-01  3.45701433e-09  1.60296385e-07  5.46614487e-08  9.00000000e-01 
 9.10000000e-01  3.50347236e-09  3.11282856e-09  4.58397647e-01  3.27962959e-09  3.23256038e-09  4.58397647e-01  3.45701434e-09  1.60296412e-07  5.46614061e-08  9.10000000e-01 
 9.20000000e-01  3.50347236e-09  3.11282855e-09  4.58397627e-01  3.27962959e-09  3.23256044e-09  4.58397627e-01  3.45701433e-09  1.60296381e-07  5.46613705e-08  9.20000000e-01 
 9.30000000e-01  3.50347236e-09  3.11282861e-09  4.58397650e-01  3.27962959e-09  3.23256038e-09  4.58397650e-01  3.45701434e-09  1.60296408e-07  5.46612497e-08  9.30000000e-01 
 9.40000000e-01  3.50347236e-09  3.11282856e-09  4.58397632e-01  3.27962959e-09  3.23256044e-09  4.58397632e-01  3.45701433e-09  1.60296397e-07  5.46612000e-08  9.40000000e-01 
 9.50000000e-01  3.50347236e-09  3.11282856e-09  4.58397651e-01  3.27962959e-09  3.23256038e-09  4.58397651e-01  3.45701434e-09  1.60296420e-07  5.46612426e-08  9.50000000e-01 
 9.60000000e-01  3.50347236e-09  3.11282856e-09  4.58397639e-01  3.27962959e-09  3.23256044e-09  4.58397639e-01  3.45701433e-09  1.60296396e-07  5.46609868e-08  9.60000000e-01 
 9.70000000e-01  3.50347236e-09  3.11282856e-09  4.58397666e-01  3.27962959e-09  3.23256044e-09  4.58397666e-01  3.45701434e-09  1.60296440e-07  5.46610153e-08  9.70000000e-01 
 9.80000000e-01  3.50347236e-09  3.11282856e-09  4.58397635e-01  3.27962959e-09  3.23256038e-09  4.58397636e-01  3.45701433e-09  1.60296391e-07  5.46609726e-08  9.80000000e-01 
 9.90000000e-01  3.50347236e-09  3.11282856e-09  4.58397647e-01  3.27962959e-09  3.23256044e-09  4.58397647e-01  3.45701434e-09  1.60296412e-07  5.46609726e-08  9.90000000e-01 
 1.00000000e+00  3.50347236e-09  3.11282856e-09  4.58397647e-01  3.27962959e-09  3.23256038e-09  4.58397647e-01  3.45701434e-09  1.60296410e-07  5.46608945e-08  1.00000000e+00 
 1.01000000e+00  3.50347236e-09  3.11282855e-09  4.58397628e-01  3.27962959e-09  3.23256038e-09  4.58397628e-01  3.45701433e-09  1.60296372e-07  5.46608376e-08  1.01000000e+00 
 1.02000000e+00  3.50347236e-09  3.11282856e-09  4.58397638e-01  3.27962959e-09  3.23256044e-09  4.58397638e-01  3.45701433e-09  1.60296393e-07  5.46607666e-08  1.02000000e+00 
 1.03000000e+00  3.50347236e-09  3.11282856e-09  4.58397632e-01  3.27962959e-09  3.23256038e-09  4.58397632e-01  3.45701433e-09  1.60296379e-07  5.46605960e-08  1.03000000e+00 
 1.04000000e+00  3.50347236e-09  3.11282861e-09  4.58397653e-01  3.27962959e-09  3.23256044e-09  4.58397653e-01  3.45701434e-09  1.60296410e-07  5.46605889e-08  1.04000000e+00 
 1.05000000e+00  3.50347236e-09  3.11282855e-09  4.58397623e-01  3.27962959e-09  3.23256038e-09  4.58397623e-01  3.45701433e-09  1.60296387e-07  5.46604397e-08  1.05000000e+00 
 1.06000000e+00  3.50347236e-09  3.11282855e-09  4.58397629e-01  3.27962959e-09  3.23256044e-09  4.58397629e-01  3.45701433e-09  1.60296389e-07  5.46604042e-08  1.06000000e+00 
 1.07000000e+00  3.50347236e-09  3.11282856e-09  4.58397642e-01  3.27962959e-09  3.23256038e-09  4.58397642e-01  3.45701434e-09  1.60296400e-07  5.46604113e-08  1.07000000e+00 
 1.08000000e+00  3.50347236e-09  3.11282856e-09  4.58397641e-01  3.27962959e-09  3.23256044e-09  4.58397641e-01  3.45701434e-09  1.60296397e-07  5.46602550e-08  1.08000000e+00 
 1.09000000e+00  3.50347236e-09  3.11282856e-09  4.58397650e-01  3.27962959e-09  3.23256038e-09  4.58397651e-01  3.45701434e-09  1.60296419e-07  5.46602124e-08  1.09000000e+00 
 1.10000000e+00  3.50347236e-09  3.11282861e-09  4.58397642e-01  3.27962959e-09  3.23256038e-09  4.58397642e-01  3.45701434e-09  1.60296398e-07  5.46601484e-08  1.10000000e+00 
