 v-sweep         v(b0)           v(b1)           v(b2)           v(b3)           v(b4)           v(b5)           v(b6)           i(vbias)        i(viout)        v(vout)        
 0.00000000e+00  3.45979287e-09  4.57663212e-01  3.43340414e-09  3.16045171e-09  4.57663212e-01  4.57663212e-01  4.57663212e-01  1.56913029e-07  1.64678876e-07  0.00000000e+00 
 1.00000000e-02  3.45979291e-09  4.57663215e-01  3.43340417e-09  3.16045181e-09  4.57663215e-01  4.57663214e-01  4.57663214e-01  1.56913033e-07  1.64678420e-07  1.00000000e-02 
 2.00000000e-02  3.45979285e-09  4.57663223e-01  3.43340417e-09  3.16045175e-09  4.57663223e-01  4.57663223e-01  4.57663223e-01  1.56913045e-07  1.64677991e-07  2.00000000e-02 
 3.00000000e-02  3.45979285e-09  4.57663218e-01  3.43340417e-09  3.16045175e-09  4.57663218e-01  4.57663218e-01  4.57663218e-01  1.56913046e-07  1.64677442e-07  3.00000000e-02 
 4.00000000e-02  3.45979285e-09  4.57663200e-01  3.43340417e-09  3.16045175e-09  4.57663200e-01  4.57663200e-01  4.57663200e-01  1.56913013e-07  1.64677083e-07  4.00000000e-02 
 5.00000000e-02  3.45979285e-09  4.57663223e-01  3.43340417e-09  3.16045181e-09  4.57663224e-01  4.57663223e-01  4.57663223e-01  1.56913054e-07  1.64676729e-07  5.00000000e-02 
 6.00000000e-02  3.45979285e-09  4.57663185e-01  3.43340417e-09  3.16045180e-09  4.57663185e-01  4.57663185e-01  4.57663185e-01  1.56912994e-07  1.64676265e-07  6.00000000e-02 
 7.00000000e-02  3.45979285e-09  4.57663216e-01  3.43340417e-09  3.16045181e-09  4.57663216e-01  4.57663216e-01  4.57663216e-01  1.56913039e-07  1.64675948e-07  7.00000000e-02 
 8.00000000e-02  3.45979285e-09  4.57663208e-01  3.43340417e-09  3.16045175e-09  4.57663208e-01  4.57663208e-01  4.57663208e-01  1.56913035e-07  1.64675659e-07  8.00000000e-02 
 9.00000000e-02  3.45979285e-09  4.57663230e-01  3.43340418e-09  3.16045181e-09  4.57663230e-01  4.57663230e-01  4.57663230e-01  1.56913050e-07  1.64675488e-07  9.00000000e-02 
 1.00000000e-01  3.45979291e-09  4.57663216e-01  3.43340417e-09  3.16045181e-09  4.57663216e-01  4.57663216e-01  4.57663216e-01  1.56913024e-07  1.64675058e-07  1.00000000e-01 
 1.10000000e-01  3.45979291e-09  4.57663218e-01  3.43340417e-09  3.16045181e-09  4.57663218e-01  4.57663218e-01  4.57663218e-01  1.56913038e-07  1.64674808e-07  1.10000000e-01 
 1.20000000e-01  3.45979291e-09  4.57663217e-01  3.43340417e-09  3.16045175e-09  4.57663217e-01  4.57663217e-01  4.57663217e-01  1.56913035e-07  1.64674450e-07  1.20000000e-01 
 1.30000000e-01  3.45979285e-09  4.57663234e-01  3.43340418e-09  3.16045175e-09  4.57663234e-01  4.57663234e-01  4.57663234e-01  1.56913068e-07  1.64674181e-07  1.30000000e-01 
 1.40000000e-01  3.45979285e-09  4.57663240e-01  3.43340418e-09  3.16045175e-09  4.57663240e-01  4.57663239e-01  4.57663239e-01  1.56913072e-07  1.64673998e-07  1.40000000e-01 
 1.50000000e-01  3.45979285e-09  4.57663214e-01  3.43340417e-09  3.16045175e-09  4.57663215e-01  4.57663214e-01  4.57663214e-01  1.56913029e-07  1.64673628e-07  1.50000000e-01 
 1.60000000e-01  3.45979290e-09  4.57663203e-01  3.43340417e-09  3.16045175e-09  4.57663203e-01  4.57663203e-01  4.57663203e-01  1.56913015e-07  1.64673423e-07  1.60000000e-01 
 1.70000000e-01  3.45979285e-09  4.57663221e-01  3.43340417e-09  3.16045175e-09  4.57663221e-01  4.57663221e-01  4.57663221e-01  1.56913046e-07  1.64673153e-07  1.70000000e-01 
 1.80000000e-01  3.45979285e-09  4.57663237e-01  3.43340418e-09  3.16045175e-09  4.57663237e-01  4.57663237e-01  4.57663237e-01  1.56913071e-07  1.64672921e-07  1.80000000e-01 
 1.90000000e-01  3.45979285e-09  4.57663210e-01  3.43340417e-09  3.16045175e-09  4.57663210e-01  4.57663210e-01  4.57663210e-01  1.56913030e-07  1.64672723e-07  1.90000000e-01 
 2.00000000e-01  3.45979291e-09  4.57663221e-01  3.43340417e-09  3.16045181e-09  4.57663221e-01  4.57663221e-01  4.57663221e-01  1.56913055e-07  1.64672556e-07  2.00000000e-01 
 2.10000000e-01  3.45979285e-09  4.57663224e-01  3.43340417e-09  3.16045175e-09  4.57663224e-01  4.57663224e-01  4.57663224e-01  1.56913041e-07  1.64672350e-07  2.10000000e-01 
 2.20000000e-01  3.45979285e-09  4.57663215e-01  3.43340417e-09  3.16045175e-09  4.57663215e-01  4.57663215e-01  4.57663215e-01  1.56913040e-07  1.64672160e-07  2.20000000e-01 
 2.30000000e-01  3.45979285e-09  4.57663209e-01  3.43340417e-09  3.16045181e-09  4.57663209e-01  4.57663209e-01  4.57663209e-01  1.56913032e-07  1.64671857e-07  2.30000000e-01 
 2.40000000e-01  3.45979285e-09  4.57663230e-01  3.43340418e-09  3.16045175e-09  4.57663230e-01  4.57663230e-01  4.57663230e-01  1.56913060e-07  1.64671691e-07  2.40000000e-01 
 2.50000000e-01  3.45979285e-09  4.57663201e-01  3.43340417e-09  3.16045175e-09  4.57663201e-01  4.57663201e-01  4.57663201e-01  1.56913012e-07  1.64671496e-07  2.50000000e-01 
 2.60000000e-01  3.45979285e-09  4.57663240e-01  3.43340418e-09  3.16045175e-09  4.57663240e-01  4.57663240e-01  4.57663240e-01  1.56913075e-07  1.64671388e-07  2.60000000e-01 
 2.70000000e-01  3.45979285e-09  4.57663209e-01  3.43340417e-09  3.16045175e-09  4.57663210e-01  4.57663209e-01  4.57663209e-01  1.56913027e-07  1.64671071e-07  2.70000000e-01 
 2.80000000e-01  3.45979285e-09  4.57663208e-01  3.43340417e-09  3.16045181e-09  4.57663208e-01  4.57663208e-01  4.57663208e-01  1.56913040e-07  1.64671007e-07  2.80000000e-01 
 2.90000000e-01  3.45979285e-09  4.57663197e-01  3.43340417e-09  3.16045175e-09  4.57663197e-01  4.57663197e-01  4.57663197e-01  1.56913012e-07  1.64670766e-07  2.90000000e-01 
 3.00000000e-01  3.45979285e-09  4.57663231e-01  3.43340418e-09  3.16045175e-09  4.57663231e-01  4.57663231e-01  4.57663231e-01  1.56913065e-07  1.64670830e-07  3.00000000e-01 
 3.10000000e-01  3.45979290e-09  4.57663199e-01  3.43340417e-09  3.16045175e-09  4.57663199e-01  4.57663199e-01  4.57663199e-01  1.56913011e-07  1.64670478e-07  3.10000000e-01 
 3.20000000e-01  3.45979291e-09  4.57663214e-01  3.43340417e-09  3.16045175e-09  4.57663214e-01  4.57663214e-01  4.57663214e-01  1.56913048e-07  1.64670350e-07  3.20000000e-01 
 3.30000000e-01  3.45979291e-09  4.57663251e-01  3.43340418e-09  3.16045181e-09  4.57663251e-01  4.57663251e-01  4.57663251e-01  1.56913082e-07  1.64670396e-07  3.30000000e-01 
 3.40000000e-01  3.45979285e-09  4.57663206e-01  3.43340417e-09  3.16045181e-09  4.57663206e-01  4.57663206e-01  4.57663206e-01  1.56913011e-07  1.64670052e-07  3.40000000e-01 
 3.50000000e-01  3.45979285e-09  4.57663218e-01  3.43340417e-09  3.16045181e-09  4.57663218e-01  4.57663218e-01  4.57663218e-01  1.56913028e-07  1.64669988e-07  3.50000000e-01 
 3.60000000e-01  3.45979285e-09  4.57663216e-01  3.43340417e-09  3.16045175e-09  4.57663216e-01  4.57663216e-01  4.57663216e-01  1.56913058e-07  1.64669796e-07  3.60000000e-01 
 3.70000000e-01  3.45979285e-09  4.57663225e-01  3.43340418e-09  3.16045175e-09  4.57663225e-01  4.57663225e-01  4.57663225e-01  1.56913045e-07  1.64669601e-07  3.70000000e-01 
 3.80000000e-01  3.45979285e-09  4.57663236e-01  3.43340418e-09  3.16045181e-09  4.57663236e-01  4.57663236e-01  4.57663236e-01  1.56913065e-07  1.64669490e-07  3.80000000e-01 
 3.90000000e-01  3.45979291e-09  4.57663223e-01  3.43340417e-09  3.16045175e-09  4.57663223e-01  4.57663223e-01  4.57663223e-01  1.56913056e-07  1.64669302e-07  3.90000000e-01 
 4.00000000e-01  3.45979285e-09  4.57663227e-01  3.43340418e-09  3.16045175e-09  4.57663227e-01  4.57663227e-01  4.57663227e-01  1.56913058e-07  1.64669277e-07  4.00000000e-01 
 4.10000000e-01  3.45979285e-09  4.57663235e-01  3.43340418e-09  3.16045175e-09  4.57663235e-01  4.57663235e-01  4.57663235e-01  1.56913064e-07  1.64669132e-07  4.10000000e-01 
 4.20000000e-01  3.45979291e-09  4.57663226e-01  3.43340418e-09  3.16045175e-09  4.57663227e-01  4.57663226e-01  4.57663226e-01  1.56913058e-07  1.64668908e-07  4.20000000e-01 
 4.30000000e-01  3.45979285e-09  4.57663212e-01  3.43340417e-09  3.16045175e-09  4.57663212e-01  4.57663212e-01  4.57663212e-01  1.56913042e-07  1.64668808e-07  4.30000000e-01 
 4.40000000e-01  3.45979285e-09  4.57663232e-01  3.43340418e-09  3.16045175e-09  4.57663232e-01  4.57663232e-01  4.57663232e-01  1.56913071e-07  1.64668741e-07  4.40000000e-01 
 4.50000000e-01  3.45979285e-09  4.57663218e-01  3.43340417e-09  3.16045175e-09  4.57663218e-01  4.57663218e-01  4.57663218e-01  1.56913040e-07  1.64668553e-07  4.50000000e-01 
 4.60000000e-01  3.45979285e-09  4.57663239e-01  3.43340418e-09  3.16045175e-09  4.57663239e-01  4.57663239e-01  4.57663239e-01  1.56913074e-07  1.64668524e-07  4.60000000e-01 
 4.70000000e-01  3.45979285e-09  4.57663223e-01  3.43340417e-09  3.16045175e-09  4.57663223e-01  4.57663223e-01  4.57663223e-01  1.56913045e-07  1.64668389e-07  4.70000000e-01 
 4.80000000e-01  3.45979285e-09  4.57663208e-01  3.43340417e-09  3.16045181e-09  4.57663209e-01  4.57663208e-01  4.57663208e-01  1.56913031e-07  1.64668172e-07  4.80000000e-01 
 4.90000000e-01  3.45979285e-09  4.57663203e-01  3.43340417e-09  3.16045175e-09  4.57663203e-01  4.57663203e-01  4.57663203e-01  1.56913028e-07  1.64667945e-07  4.90000000e-01 
 5.00000000e-01  3.45979285e-09  4.57663226e-01  3.43340418e-09  3.16045181e-09  4.57663226e-01  4.57663226e-01  4.57663226e-01  1.56913061e-07  1.64668055e-07  5.00000000e-01 
 5.10000000e-01  3.45979285e-09  4.57663211e-01  3.43340417e-09  3.16045175e-09  4.57663211e-01  4.57663211e-01  4.57663211e-01  1.56913022e-07  1.64667711e-07  5.10000000e-01 
 5.20000000e-01  3.45979285e-09  4.57663224e-01  3.43340417e-09  3.16045175e-09  4.57663224e-01  4.57663224e-01  4.57663224e-01  1.56913058e-07  1.64667664e-07  5.20000000e-01 
 5.30000000e-01  3.45979285e-09  4.57663237e-01  3.43340418e-09  3.16045175e-09  4.57663237e-01  4.57663237e-01  4.57663237e-01  1.56913075e-07  1.64667675e-07  5.30000000e-01 
 5.40000000e-01  3.45979285e-09  4.57663233e-01  3.43340418e-09  3.16045175e-09  4.57663233e-01  4.57663233e-01  4.57663233e-01  1.56913065e-07  1.64667476e-07  5.40000000e-01 
 5.50000000e-01  3.45979285e-09  4.57663229e-01  3.43340418e-09  3.16045175e-09  4.57663229e-01  4.57663229e-01  4.57663229e-01  1.56913053e-07  1.64667334e-07  5.50000000e-01 
 5.60000000e-01  3.45979285e-09  4.57663228e-01  3.43340418e-09  3.16045175e-09  4.57663228e-01  4.57663228e-01  4.57663228e-01  1.56913052e-07  1.64667149e-07  5.60000000e-01 
 5.70000000e-01  3.45979285e-09  4.57663212e-01  3.43340417e-09  3.16045175e-09  4.57663212e-01  4.57663212e-01  4.57663212e-01  1.56913027e-07  1.64666947e-07  5.70000000e-01 
 5.80000000e-01  3.45979285e-09  4.57663220e-01  3.43340417e-09  3.16045175e-09  4.57663220e-01  4.57663220e-01  4.57663220e-01  1.56913044e-07  1.64666957e-07  5.80000000e-01 
 5.90000000e-01  3.45979285e-09  4.57663217e-01  3.43340417e-09  3.16045181e-09  4.57663217e-01  4.57663217e-01  4.57663217e-01  1.56913040e-07  1.64666915e-07  5.90000000e-01 
 6.00000000e-01  3.45979285e-09  4.57663209e-01  3.43340417e-09  3.16045181e-09  4.57663209e-01  4.57663209e-01  4.57663209e-01  1.56913018e-07  1.64666709e-07  6.00000000e-01 
 6.10000000e-01  3.45979285e-09  4.57663226e-01  3.43340418e-09  3.16045175e-09  4.57663226e-01  4.57663226e-01  4.57663226e-01  1.56913053e-07  1.64666652e-07  6.10000000e-01 
 6.20000000e-01  3.45979291e-09  4.57663226e-01  3.43340418e-09  3.16045175e-09  4.57663226e-01  4.57663226e-01  4.57663226e-01  1.56913056e-07  1.64666453e-07  6.20000000e-01 
 6.30000000e-01  3.45979285e-09  4.57663232e-01  3.43340418e-09  3.16045175e-09  4.57663232e-01  4.57663232e-01  4.57663232e-01  1.56913046e-07  1.64666332e-07  6.30000000e-01 
 6.40000000e-01  3.45979285e-09  4.57663217e-01  3.43340417e-09  3.16045175e-09  4.57663217e-01  4.57663217e-01  4.57663217e-01  1.56913052e-07  1.64666261e-07  6.40000000e-01 
 6.50000000e-01  3.45979285e-09  4.57663218e-01  3.43340417e-09  3.16045175e-09  4.57663218e-01  4.57663217e-01  4.57663217e-01  1.56913046e-07  1.64666140e-07  6.50000000e-01 
 6.60000000e-01  3.45979285e-09  4.57663231e-01  3.43340418e-09  3.16045175e-09  4.57663231e-01  4.57663231e-01  4.57663231e-01  1.56913068e-07  1.64666041e-07  6.60000000e-01 
 6.70000000e-01  3.45979285e-09  4.57663203e-01  3.43340417e-09  3.16045175e-09  4.57663203e-01  4.57663203e-01  4.57663203e-01  1.56913012e-07  1.64665806e-07  6.70000000e-01 
 6.80000000e-01  3.45979285e-09  4.57663233e-01  3.43340418e-09  3.16045175e-09  4.57663233e-01  4.57663233e-01  4.57663233e-01  1.56913067e-07  1.64665856e-07  6.80000000e-01 
 6.90000000e-01  3.45979285e-09  4.57663236e-01  3.43340418e-09  3.16045175e-09  4.57663236e-01  4.57663236e-01  4.57663236e-01  1.56913060e-07  1.64665636e-07  6.90000000e-01 
 7.00000000e-01  3.45979291e-09  4.57663235e-01  3.43340418e-09  3.16045175e-09  4.57663235e-01  4.57663235e-01  4.57663235e-01  1.56913067e-07  1.64665579e-07  7.00000000e-01 
 7.10000000e-01  3.45979285e-09  4.57663233e-01  3.43340418e-09  3.16045175e-09  4.57663233e-01  4.57663233e-01  4.57663233e-01  1.56913059e-07  1.64665380e-07  7.10000000e-01 
 7.20000000e-01  3.45979285e-09  4.57663217e-01  3.43340417e-09  3.16045175e-09  4.57663217e-01  4.57663217e-01  4.57663217e-01  1.56913042e-07  1.64665252e-07  7.20000000e-01 
 7.30000000e-01  3.45979285e-09  4.57663208e-01  3.43340417e-09  3.16045175e-09  4.57663208e-01  4.57663208e-01  4.57663208e-01  1.56913020e-07  1.64665146e-07  7.30000000e-01 
 7.40000000e-01  3.45979285e-09  4.57663222e-01  3.43340417e-09  3.16045181e-09  4.57663222e-01  4.57663222e-01  4.57663222e-01  1.56913060e-07  1.64665018e-07  7.40000000e-01 
 7.50000000e-01  3.45979285e-09  4.57663234e-01  3.43340418e-09  3.16045175e-09  4.57663234e-01  4.57663234e-01  4.57663234e-01  1.56913071e-07  1.64665025e-07  7.50000000e-01 
 7.60000000e-01  3.45979285e-09  4.57663218e-01  3.43340417e-09  3.16045175e-09  4.57663218e-01  4.57663218e-01  4.57663218e-01  1.56913035e-07  1.64664748e-07  7.60000000e-01 
 7.70000000e-01  3.45979285e-09  4.57663227e-01  3.43340418e-09  3.16045181e-09  4.57663227e-01  4.57663227e-01  4.57663227e-01  1.56913053e-07  1.64664691e-07  7.70000000e-01 
 7.80000000e-01  3.45979285e-09  4.57663233e-01  3.43340418e-09  3.16045175e-09  4.57663233e-01  4.57663233e-01  4.57663233e-01  1.56913056e-07  1.64664549e-07  7.80000000e-01 
 7.90000000e-01  3.45979285e-09  4.57663215e-01  3.43340417e-09  3.16045181e-09  4.57663215e-01  4.57663215e-01  4.57663215e-01  1.56913040e-07  1.64664328e-07  7.90000000e-01 
 8.00000000e-01  3.45979285e-09  4.57663217e-01  3.43340417e-09  3.16045175e-09  4.57663217e-01  4.57663217e-01  4.57663217e-01  1.56913039e-07  1.64664115e-07  8.00000000e-01 
 8.10000000e-01  3.45979285e-09  4.57663200e-01  3.43340417e-09  3.16045175e-09  4.57663201e-01  4.57663200e-01  4.57663200e-01  1.56913014e-07  1.64664016e-07  8.10000000e-01 
 8.20000000e-01  3.45979285e-09  4.57663210e-01  3.43340417e-09  3.16045175e-09  4.57663210e-01  4.57663210e-01  4.57663210e-01  1.56913024e-07  1.64663902e-07  8.20000000e-01 
 8.30000000e-01  3.45979285e-09  4.57663201e-01  3.43340417e-09  3.16045181e-09  4.57663201e-01  4.57663201e-01  4.57663201e-01  1.56913013e-07  1.64663895e-07  8.30000000e-01 
 8.40000000e-01  3.45979285e-09  4.57663219e-01  3.43340417e-09  3.16045175e-09  4.57663219e-01  4.57663219e-01  4.57663219e-01  1.56913036e-07  1.64663746e-07  8.40000000e-01 
 8.50000000e-01  3.45979285e-09  4.57663213e-01  3.43340417e-09  3.16045175e-09  4.57663213e-01  4.57663213e-01  4.57663213e-01  1.56913032e-07  1.64663604e-07  8.50000000e-01 
 8.60000000e-01  3.45979285e-09  4.57663226e-01  3.43340418e-09  3.16045175e-09  4.57663226e-01  4.57663226e-01  4.57663226e-01  1.56913051e-07  1.64663554e-07  8.60000000e-01 
 8.70000000e-01  3.45979285e-09  4.57663226e-01  3.43340418e-09  3.16045175e-09  4.57663226e-01  4.57663226e-01  4.57663226e-01  1.56913063e-07  1.64663298e-07  8.70000000e-01 
 8.80000000e-01  3.45979285e-09  4.57663200e-01  3.43340417e-09  3.16045175e-09  4.57663200e-01  4.57663200e-01  4.57663200e-01  1.56913017e-07  1.64663064e-07  8.80000000e-01 
 8.90000000e-01  3.45979285e-09  4.57663230e-01  3.43340418e-09  3.16045181e-09  4.57663230e-01  4.57663230e-01  4.57663230e-01  1.56913055e-07  1.64663227e-07  8.90000000e-01 
 9.00000000e-01  3.45979285e-09  4.57663226e-01  3.43340418e-09  3.16045175e-09  4.57663226e-01  4.57663226e-01  4.57663226e-01  1.56913052e-07  1.64662957e-07  9.00000000e-01 
 9.10000000e-01  3.45979285e-09  4.57663218e-01  3.43340417e-09  3.16045181e-09  4.57663218e-01  4.57663218e-01  4.57663218e-01  1.56913037e-07  1.64662779e-07  9.10000000e-01 
 9.20000000e-01  3.45979285e-09  4.57663210e-01  3.43340417e-09  3.16045181e-09  4.57663210e-01  4.57663210e-01  4.57663210e-01  1.56913023e-07  1.64662637e-07  9.20000000e-01 
 9.30000000e-01  3.45979285e-09  4.57663226e-01  3.43340418e-09  3.16045175e-09  4.57663226e-01  4.57663226e-01  4.57663226e-01  1.56913064e-07  1.64662531e-07  9.30000000e-01 
 9.40000000e-01  3.45979285e-09  4.57663210e-01  3.43340417e-09  3.16045175e-09  4.57663210e-01  4.57663210e-01  4.57663210e-01  1.56913016e-07  1.64662289e-07  9.40000000e-01 
 9.50000000e-01  3.45979285e-09  4.57663221e-01  3.43340417e-09  3.16045181e-09  4.57663221e-01  4.57663221e-01  4.57663221e-01  1.56913047e-07  1.64662140e-07  9.50000000e-01 
 9.60000000e-01  3.45979285e-09  4.57663245e-01  3.43340418e-09  3.16045175e-09  4.57663245e-01  4.57663245e-01  4.57663245e-01  1.56913081e-07  1.64662218e-07  9.60000000e-01 
 9.70000000e-01  3.45979285e-09  4.57663236e-01  3.43340418e-09  3.16045181e-09  4.57663236e-01  4.57663236e-01  4.57663236e-01  1.56913073e-07  1.64662012e-07  9.70000000e-01 
 9.80000000e-01  3.45979285e-09  4.57663215e-01  3.43340417e-09  3.16045175e-09  4.57663215e-01  4.57663215e-01  4.57663215e-01  1.56913032e-07  1.64661721e-07  9.80000000e-01 
 9.90000000e-01  3.45979285e-09  4.57663213e-01  3.43340417e-09  3.16045175e-09  4.57663213e-01  4.57663213e-01  4.57663213e-01  1.56913031e-07  1.64661543e-07  9.90000000e-01 
 1.00000000e+00  3.45979285e-09  4.57663206e-01  3.43340417e-09  3.16045175e-09  4.57663206e-01  4.57663206e-01  4.57663206e-01  1.56913024e-07  1.64661287e-07  1.00000000e+00 
 1.01000000e+00  3.45979291e-09  4.57663225e-01  3.43340418e-09  3.16045175e-09  4.57663225e-01  4.57663225e-01  4.57663225e-01  1.56913044e-07  1.64661401e-07  1.01000000e+00 
 1.02000000e+00  3.45979285e-09  4.57663230e-01  3.43340418e-09  3.16045175e-09  4.57663230e-01  4.57663230e-01  4.57663230e-01  1.56913060e-07  1.64661245e-07  1.02000000e+00 
 1.03000000e+00  3.45979285e-09  4.57663197e-01  3.43340417e-09  3.16045175e-09  4.57663197e-01  4.57663197e-01  4.57663197e-01  1.56913020e-07  1.64660975e-07  1.03000000e+00 
 1.04000000e+00  3.45979285e-09  4.57663229e-01  3.43340418e-09  3.16045175e-09  4.57663229e-01  4.57663229e-01  4.57663229e-01  1.56913050e-07  1.64660968e-07  1.04000000e+00 
 1.05000000e+00  3.45979285e-09  4.57663240e-01  3.43340418e-09  3.16045175e-09  4.57663240e-01  4.57663240e-01  4.57663240e-01  1.56913065e-07  1.64660818e-07  1.05000000e+00 
 1.06000000e+00  3.45979285e-09  4.57663238e-01  3.43340418e-09  3.16045175e-09  4.57663238e-01  4.57663238e-01  4.57663238e-01  1.56913078e-07  1.64660655e-07  1.06000000e+00 
 1.07000000e+00  3.45979291e-09  4.57663240e-01  3.43340418e-09  3.16045175e-09  4.57663240e-01  4.57663240e-01  4.57663240e-01  1.56913076e-07  1.64660371e-07  1.07000000e+00 
 1.08000000e+00  3.45979285e-09  4.57663231e-01  3.43340418e-09  3.16045175e-09  4.57663231e-01  4.57663231e-01  4.57663231e-01  1.56913064e-07  1.64660193e-07  1.08000000e+00 
 1.09000000e+00  3.45979285e-09  4.57663201e-01  3.43340417e-09  3.16045181e-09  4.57663201e-01  4.57663201e-01  4.57663201e-01  1.56913017e-07  1.64660008e-07  1.09000000e+00 
 1.10000000e+00  3.45979285e-09  4.57663211e-01  3.43340417e-09  3.16045175e-09  4.57663211e-01  4.57663211e-01  4.57663211e-01  1.56913043e-07  1.64659866e-07  1.10000000e+00 
