 v-sweep         v(b0)           v(b1)           v(b2)           v(b3)           v(b4)           v(b5)           v(b6)           i(vbias)        i(viout)        v(vout)        
 0.00000000e+00  3.36415184e-09  4.58967214e-01  3.12734988e-09  3.27781908e-09  3.71592930e-09  3.26809000e-09  3.15216588e-09  1.61913925e-07  2.57648110e-09  0.00000000e+00 
 1.00000000e-02  3.36415182e-09  4.58967213e-01  3.12734986e-09  3.27781905e-09  3.71592934e-09  3.26809004e-09  3.15216586e-09  1.61913929e-07  2.57593213e-09  1.00000000e-02 
 2.00000000e-02  3.36415183e-09  4.58967238e-01  3.12734986e-09  3.27781906e-09  3.71592934e-09  3.26809004e-09  3.15216592e-09  1.61913967e-07  2.57552024e-09  2.00000000e-02 
 3.00000000e-02  3.36415188e-09  4.58967223e-01  3.12734986e-09  3.27781905e-09  3.71592928e-09  3.26809004e-09  3.15216586e-09  1.61913930e-07  2.57524224e-09  3.00000000e-02 
 4.00000000e-02  3.36415183e-09  4.58967241e-01  3.12734986e-09  3.27781906e-09  3.71592928e-09  3.26808998e-09  3.15216592e-09  1.61913965e-07  2.57479504e-09  4.00000000e-02 
 5.00000000e-02  3.36415182e-09  4.58967222e-01  3.12734986e-09  3.27781905e-09  3.71592934e-09  3.26809004e-09  3.15216592e-09  1.61913944e-07  2.57449173e-09  5.00000000e-02 
 6.00000000e-02  3.36415183e-09  4.58967229e-01  3.12734986e-09  3.27781911e-09  3.71592934e-09  3.26809004e-09  3.15216592e-09  1.61913965e-07  2.57417332e-09  6.00000000e-02 
 7.00000000e-02  3.36415183e-09  4.58967230e-01  3.12734986e-09  3.27781911e-09  3.71592934e-09  3.26808998e-09  3.15216592e-09  1.61913950e-07  2.57380117e-09  7.00000000e-02 
 8.00000000e-02  3.36415188e-09  4.58967216e-01  3.12734986e-09  3.27781905e-09  3.71592934e-09  3.26809004e-09  3.15216586e-09  1.61913929e-07  2.57352895e-09  8.00000000e-02 
 9.00000000e-02  3.36415183e-09  4.58967234e-01  3.12734986e-09  3.27781906e-09  3.71592928e-09  3.26809004e-09  3.15216592e-09  1.61913959e-07  2.57323673e-09  9.00000000e-02 
 1.00000000e-01  3.36415188e-09  4.58967238e-01  3.12734986e-09  3.27781906e-09  3.71592928e-09  3.26808998e-09  3.15216586e-09  1.61913954e-07  2.57285127e-09  1.00000000e-01 
 1.10000000e-01  3.36415183e-09  4.58967244e-01  3.12734986e-09  3.27781906e-09  3.71592934e-09  3.26809004e-09  3.15216586e-09  1.61913989e-07  2.57260524e-09  1.10000000e-01 
 1.20000000e-01  3.36415182e-09  4.58967224e-01  3.12734986e-09  3.27781905e-09  3.71592934e-09  3.26809004e-09  3.15216592e-09  1.61913944e-07  2.57234500e-09  1.20000000e-01 
 1.30000000e-01  3.36415188e-09  4.58967245e-01  3.12734986e-09  3.27781906e-09  3.71592934e-09  3.26808998e-09  3.15216586e-09  1.61913976e-07  2.57198973e-09  1.30000000e-01 
 1.40000000e-01  3.36415188e-09  4.58967242e-01  3.12734986e-09  3.27781906e-09  3.71592934e-09  3.26808998e-09  3.15216586e-09  1.61913983e-07  2.57187072e-09  1.40000000e-01 
 1.50000000e-01  3.36415183e-09  4.58967230e-01  3.12734986e-09  3.27781911e-09  3.71592934e-09  3.26809004e-09  3.15216586e-09  1.61913959e-07  2.57164601e-09  1.50000000e-01 
 1.60000000e-01  3.36415183e-09  4.58967235e-01  3.12734986e-09  3.27781911e-09  3.71592928e-09  3.26809004e-09  3.15216586e-09  1.61913957e-07  2.57141863e-09  1.60000000e-01 
 1.70000000e-01  3.36415183e-09  4.58967245e-01  3.12734986e-09  3.27781911e-09  3.71592934e-09  3.26809004e-09  3.15216592e-09  1.61913984e-07  2.57114330e-09  1.70000000e-01 
 1.80000000e-01  3.36415183e-09  4.58967235e-01  3.12734986e-09  3.27781906e-09  3.71592928e-09  3.26808998e-09  3.15216586e-09  1.61913959e-07  2.57098343e-09  1.80000000e-01 
 1.90000000e-01  3.36415183e-09  4.58967239e-01  3.12734986e-09  3.27781906e-09  3.71592934e-09  3.26809004e-09  3.15216592e-09  1.61913966e-07  2.57077026e-09  1.90000000e-01 
 2.00000000e-01  3.36415182e-09  4.58967219e-01  3.12734986e-09  3.27781905e-09  3.71592934e-09  3.26808998e-09  3.15216592e-09  1.61913940e-07  2.57052335e-09  2.00000000e-01 
 2.10000000e-01  3.36415183e-09  4.58967238e-01  3.12734986e-09  3.27781906e-09  3.71592934e-09  3.26809004e-09  3.15216586e-09  1.61913975e-07  2.57036703e-09  2.10000000e-01 
 2.20000000e-01  3.36415182e-09  4.58967223e-01  3.12734986e-09  3.27781905e-09  3.71592934e-09  3.26808998e-09  3.15216586e-09  1.61913943e-07  2.57026223e-09  2.20000000e-01 
 2.30000000e-01  3.36415183e-09  4.58967231e-01  3.12734986e-09  3.27781906e-09  3.71592934e-09  3.26808998e-09  3.15216586e-09  1.61913963e-07  2.57017874e-09  2.30000000e-01 
 2.40000000e-01  3.36415183e-09  4.58967228e-01  3.12734986e-09  3.27781906e-09  3.71592934e-09  3.26809004e-09  3.15216586e-09  1.61913951e-07  2.56994781e-09  2.40000000e-01 
 2.50000000e-01  3.36415183e-09  4.58967234e-01  3.12734986e-09  3.27781906e-09  3.71592934e-09  3.26809004e-09  3.15216586e-09  1.61913960e-07  2.56980037e-09  2.50000000e-01 
 2.60000000e-01  3.36415183e-09  4.58967246e-01  3.12734986e-09  3.27781906e-09  3.71592934e-09  3.26808998e-09  3.15216586e-09  1.61913992e-07  2.56968669e-09  2.60000000e-01 
 2.70000000e-01  3.36415188e-09  4.58967250e-01  3.12734986e-09  3.27781906e-09  3.71592934e-09  3.26808998e-09  3.15216592e-09  1.61913977e-07  2.56942556e-09  2.70000000e-01 
 2.80000000e-01  3.36415183e-09  4.58967234e-01  3.12734986e-09  3.27781911e-09  3.71592934e-09  3.26808998e-09  3.15216592e-09  1.61913951e-07  2.56927457e-09  2.80000000e-01 
 2.90000000e-01  3.36415182e-09  4.58967222e-01  3.12734986e-09  3.27781905e-09  3.71592934e-09  3.26808998e-09  3.15216586e-09  1.61913937e-07  2.56916266e-09  2.90000000e-01 
 3.00000000e-01  3.36415188e-09  4.58967226e-01  3.12734986e-09  3.27781911e-09  3.71592934e-09  3.26808998e-09  3.15216592e-09  1.61913954e-07  2.56912713e-09  3.00000000e-01 
 3.10000000e-01  3.36415183e-09  4.58967232e-01  3.12734986e-09  3.27781906e-09  3.71592928e-09  3.26808998e-09  3.15216592e-09  1.61913963e-07  2.56884647e-09  3.10000000e-01 
 3.20000000e-01  3.36415183e-09  4.58967238e-01  3.12734986e-09  3.27781906e-09  3.71592934e-09  3.26809004e-09  3.15216592e-09  1.61913968e-07  2.56883226e-09  3.20000000e-01 
 3.30000000e-01  3.36415182e-09  4.58967221e-01  3.12734986e-09  3.27781905e-09  3.71592934e-09  3.26808998e-09  3.15216586e-09  1.61913947e-07  2.56865818e-09  3.30000000e-01 
 3.40000000e-01  3.36415182e-09  4.58967222e-01  3.12734986e-09  3.27781905e-09  3.71592934e-09  3.26808998e-09  3.15216586e-09  1.61913937e-07  2.56859423e-09  3.40000000e-01 
 3.50000000e-01  3.36415183e-09  4.58967231e-01  3.12734986e-09  3.27781911e-09  3.71592934e-09  3.26809004e-09  3.15216592e-09  1.61913958e-07  2.56840949e-09  3.50000000e-01 
 3.60000000e-01  3.36415182e-09  4.58967223e-01  3.12734986e-09  3.27781911e-09  3.71592934e-09  3.26808998e-09  3.15216586e-09  1.61913943e-07  2.56828514e-09  3.60000000e-01 
 3.70000000e-01  3.36415188e-09  4.58967204e-01  3.12734986e-09  3.27781905e-09  3.71592934e-09  3.26808998e-09  3.15216591e-09  1.61913916e-07  2.56820698e-09  3.70000000e-01 
 3.80000000e-01  3.36415182e-09  4.58967225e-01  3.12734986e-09  3.27781905e-09  3.71592928e-09  3.26809004e-09  3.15216586e-09  1.61913951e-07  2.56811461e-09  3.80000000e-01 
 3.90000000e-01  3.36415183e-09  4.58967245e-01  3.12734986e-09  3.27781906e-09  3.71592934e-09  3.26809004e-09  3.15216586e-09  1.61913985e-07  2.56805066e-09  3.90000000e-01 
 4.00000000e-01  3.36415183e-09  4.58967230e-01  3.12734986e-09  3.27781906e-09  3.71592928e-09  3.26808998e-09  3.15216586e-09  1.61913949e-07  2.56784816e-09  4.00000000e-01 
 4.10000000e-01  3.36415183e-09  4.58967240e-01  3.12734986e-09  3.27781906e-09  3.71592934e-09  3.26808998e-09  3.15216586e-09  1.61913977e-07  2.56779487e-09  4.10000000e-01 
 4.20000000e-01  3.36415182e-09  4.58967225e-01  3.12734986e-09  3.27781905e-09  3.71592934e-09  3.26808998e-09  3.15216592e-09  1.61913951e-07  2.56763855e-09  4.20000000e-01 
 4.30000000e-01  3.36415188e-09  4.58967219e-01  3.12734986e-09  3.27781905e-09  3.71592928e-09  3.26809004e-09  3.15216586e-09  1.61913948e-07  2.56764920e-09  4.30000000e-01 
 4.40000000e-01  3.36415183e-09  4.58967234e-01  3.12734986e-09  3.27781906e-09  3.71592934e-09  3.26808998e-09  3.15216592e-09  1.61913965e-07  2.56751065e-09  4.40000000e-01 
 4.50000000e-01  3.36415182e-09  4.58967223e-01  3.12734986e-09  3.27781911e-09  3.71592934e-09  3.26808998e-09  3.15216592e-09  1.61913936e-07  2.56743959e-09  4.50000000e-01 
 4.60000000e-01  3.36415182e-09  4.58967228e-01  3.12734986e-09  3.27781911e-09  3.71592928e-09  3.26808998e-09  3.15216586e-09  1.61913962e-07  2.56723709e-09  4.60000000e-01 
 4.70000000e-01  3.36415183e-09  4.58967248e-01  3.12734986e-09  3.27781906e-09  3.71592928e-09  3.26809004e-09  3.15216592e-09  1.61913990e-07  2.56724064e-09  4.70000000e-01 
 4.80000000e-01  3.36415183e-09  4.58967230e-01  3.12734986e-09  3.27781906e-09  3.71592934e-09  3.26808998e-09  3.15216592e-09  1.61913948e-07  2.56706301e-09  4.80000000e-01 
 4.90000000e-01  3.36415182e-09  4.58967226e-01  3.12734986e-09  3.27781906e-09  3.71592934e-09  3.26809004e-09  3.15216592e-09  1.61913962e-07  2.56695643e-09  4.90000000e-01 
 5.00000000e-01  3.36415182e-09  4.58967220e-01  3.12734986e-09  3.27781905e-09  3.71592934e-09  3.26809004e-09  3.15216586e-09  1.61913937e-07  2.56691379e-09  5.00000000e-01 
 5.10000000e-01  3.36415188e-09  4.58967236e-01  3.12734986e-09  3.27781906e-09  3.71592934e-09  3.26808998e-09  3.15216586e-09  1.61913963e-07  2.56682853e-09  5.10000000e-01 
 5.20000000e-01  3.36415182e-09  4.58967224e-01  3.12734986e-09  3.27781905e-09  3.71592934e-09  3.26808998e-09  3.15216586e-09  1.61913950e-07  2.56660471e-09  5.20000000e-01 
 5.30000000e-01  3.36415182e-09  4.58967224e-01  3.12734986e-09  3.27781905e-09  3.71592934e-09  3.26808998e-09  3.15216592e-09  1.61913953e-07  2.56660115e-09  5.30000000e-01 
 5.40000000e-01  3.36415183e-09  4.58967235e-01  3.12734986e-09  3.27781911e-09  3.71592928e-09  3.26808998e-09  3.15216592e-09  1.61913988e-07  2.56655852e-09  5.40000000e-01 
 5.50000000e-01  3.36415188e-09  4.58967223e-01  3.12734986e-09  3.27781905e-09  3.71592928e-09  3.26809004e-09  3.15216586e-09  1.61913949e-07  2.56646615e-09  5.50000000e-01 
 5.60000000e-01  3.36415183e-09  4.58967231e-01  3.12734986e-09  3.27781906e-09  3.71592928e-09  3.26808998e-09  3.15216592e-09  1.61913958e-07  2.56642352e-09  5.60000000e-01 
 5.70000000e-01  3.36415188e-09  4.58967229e-01  3.12734986e-09  3.27781906e-09  3.71592934e-09  3.26808998e-09  3.15216586e-09  1.61913953e-07  2.56633825e-09  5.70000000e-01 
 5.80000000e-01  3.36415188e-09  4.58967232e-01  3.12734986e-09  3.27781906e-09  3.71592934e-09  3.26808998e-09  3.15216586e-09  1.61913971e-07  2.56611088e-09  5.80000000e-01 
 5.90000000e-01  3.36415188e-09  4.58967228e-01  3.12734986e-09  3.27781906e-09  3.71592928e-09  3.26809004e-09  3.15216592e-09  1.61913957e-07  2.56605404e-09  5.90000000e-01 
 6.00000000e-01  3.36415188e-09  4.58967230e-01  3.12734986e-09  3.27781911e-09  3.71592928e-09  3.26808998e-09  3.15216586e-09  1.61913965e-07  2.56592614e-09  6.00000000e-01 
 6.10000000e-01  3.36415183e-09  4.58967237e-01  3.12734986e-09  3.27781906e-09  3.71592934e-09  3.26809004e-09  3.15216586e-09  1.61913956e-07  2.56592614e-09  6.10000000e-01 
 6.20000000e-01  3.36415188e-09  4.58967236e-01  3.12734986e-09  3.27781906e-09  3.71592934e-09  3.26809004e-09  3.15216592e-09  1.61913963e-07  2.56578403e-09  6.20000000e-01 
 6.30000000e-01  3.36415182e-09  4.58967220e-01  3.12734986e-09  3.27781905e-09  3.71592928e-09  3.26808998e-09  3.15216586e-09  1.61913947e-07  2.56579824e-09  6.30000000e-01 
 6.40000000e-01  3.36415188e-09  4.58967245e-01  3.12734986e-09  3.27781906e-09  3.71592928e-09  3.26809004e-09  3.15216586e-09  1.61913985e-07  2.56559218e-09  6.40000000e-01 
 6.50000000e-01  3.36415183e-09  4.58967234e-01  3.12734980e-09  3.27781906e-09  3.71592934e-09  3.26808998e-09  3.15216586e-09  1.61913961e-07  2.56559218e-09  6.50000000e-01 
 6.60000000e-01  3.36415183e-09  4.58967230e-01  3.12734986e-09  3.27781911e-09  3.71592928e-09  3.26808998e-09  3.15216586e-09  1.61913966e-07  2.56543586e-09  6.60000000e-01 
 6.70000000e-01  3.36415182e-09  4.58967219e-01  3.12734986e-09  3.27781905e-09  3.71592934e-09  3.26808998e-09  3.15216592e-09  1.61913945e-07  2.56532218e-09  6.70000000e-01 
 6.80000000e-01  3.36415183e-09  4.58967234e-01  3.12734986e-09  3.27781906e-09  3.71592934e-09  3.26808998e-09  3.15216592e-09  1.61913956e-07  2.56516586e-09  6.80000000e-01 
 6.90000000e-01  3.36415188e-09  4.58967212e-01  3.12734986e-09  3.27781905e-09  3.71592928e-09  3.26808998e-09  3.15216586e-09  1.61913920e-07  2.56524402e-09  6.90000000e-01 
 7.00000000e-01  3.36415183e-09  4.58967239e-01  3.12734986e-09  3.27781906e-09  3.71592928e-09  3.26809004e-09  3.15216592e-09  1.61913970e-07  2.56513744e-09  7.00000000e-01 
 7.10000000e-01  3.36415182e-09  4.58967223e-01  3.12734980e-09  3.27781905e-09  3.71592928e-09  3.26808998e-09  3.15216586e-09  1.61913949e-07  2.56499533e-09  7.10000000e-01 
 7.20000000e-01  3.36415183e-09  4.58967231e-01  3.12734986e-09  3.27781906e-09  3.71592928e-09  3.26809004e-09  3.15216586e-09  1.61913965e-07  2.56489585e-09  7.20000000e-01 
 7.30000000e-01  3.36415183e-09  4.58967243e-01  3.12734986e-09  3.27781906e-09  3.71592934e-09  3.26808998e-09  3.15216592e-09  1.61913976e-07  2.56485322e-09  7.30000000e-01 
 7.40000000e-01  3.36415188e-09  4.58967230e-01  3.12734980e-09  3.27781906e-09  3.71592934e-09  3.26809004e-09  3.15216592e-09  1.61913951e-07  2.56464716e-09  7.40000000e-01 
 7.50000000e-01  3.36415182e-09  4.58967228e-01  3.12734986e-09  3.27781906e-09  3.71592934e-09  3.26809004e-09  3.15216592e-09  1.61913948e-07  2.56457611e-09  7.50000000e-01 
 7.60000000e-01  3.36415183e-09  4.58967232e-01  3.12734986e-09  3.27781906e-09  3.71592934e-09  3.26808998e-09  3.15216586e-09  1.61913964e-07  2.56454769e-09  7.60000000e-01 
 7.70000000e-01  3.36415183e-09  4.58967233e-01  3.12734986e-09  3.27781906e-09  3.71592934e-09  3.26809004e-09  3.15216586e-09  1.61913951e-07  2.56437716e-09  7.70000000e-01 
 7.80000000e-01  3.36415182e-09  4.58967215e-01  3.12734986e-09  3.27781905e-09  3.71592934e-09  3.26808998e-09  3.15216586e-09  1.61913932e-07  2.56443400e-09  7.80000000e-01 
 7.90000000e-01  3.36415182e-09  4.58967223e-01  3.12734986e-09  3.27781911e-09  3.71592928e-09  3.26809004e-09  3.15216592e-09  1.61913946e-07  2.56427057e-09  7.90000000e-01 
 8.00000000e-01  3.36415182e-09  4.58967224e-01  3.12734986e-09  3.27781905e-09  3.71592934e-09  3.26809004e-09  3.15216592e-09  1.61913948e-07  2.56423505e-09  8.00000000e-01 
 8.10000000e-01  3.36415182e-09  4.58967223e-01  3.12734986e-09  3.27781905e-09  3.71592934e-09  3.26809004e-09  3.15216586e-09  1.61913952e-07  2.56402188e-09  8.10000000e-01 
 8.20000000e-01  3.36415183e-09  4.58967248e-01  3.12734986e-09  3.27781906e-09  3.71592934e-09  3.26809004e-09  3.15216586e-09  1.61913976e-07  2.56392241e-09  8.20000000e-01 
 8.30000000e-01  3.36415183e-09  4.58967257e-01  3.12734986e-09  3.27781906e-09  3.71592934e-09  3.26809004e-09  3.15216586e-09  1.61914002e-07  2.56397925e-09  8.30000000e-01 
 8.40000000e-01  3.36415182e-09  4.58967216e-01  3.12734986e-09  3.27781905e-09  3.71592934e-09  3.26808998e-09  3.15216586e-09  1.61913932e-07  2.56382293e-09  8.40000000e-01 
 8.50000000e-01  3.36415183e-09  4.58967230e-01  3.12734986e-09  3.27781906e-09  3.71592934e-09  3.26808998e-09  3.15216586e-09  1.61913950e-07  2.56376609e-09  8.50000000e-01 
 8.60000000e-01  3.36415188e-09  4.58967219e-01  3.12734986e-09  3.27781905e-09  3.71592934e-09  3.26808998e-09  3.15216592e-09  1.61913943e-07  2.56365240e-09  8.60000000e-01 
 8.70000000e-01  3.36415182e-09  4.58967223e-01  3.12734986e-09  3.27781911e-09  3.71592934e-09  3.26808998e-09  3.15216592e-09  1.61913948e-07  2.56352450e-09  8.70000000e-01 
 8.80000000e-01  3.36415182e-09  4.58967225e-01  3.12734986e-09  3.27781905e-09  3.71592928e-09  3.26808998e-09  3.15216592e-09  1.61913961e-07  2.56341082e-09  8.80000000e-01 
 8.90000000e-01  3.36415188e-09  4.58967226e-01  3.12734986e-09  3.27781906e-09  3.71592934e-09  3.26808998e-09  3.15216586e-09  1.61913969e-07  2.56324029e-09  8.90000000e-01 
 9.00000000e-01  3.36415182e-09  4.58967227e-01  3.12734986e-09  3.27781911e-09  3.71592934e-09  3.26809004e-09  3.15216592e-09  1.61913946e-07  2.56323318e-09  9.00000000e-01 
 9.10000000e-01  3.36415188e-09  4.58967209e-01  3.12734986e-09  3.27781905e-09  3.71592934e-09  3.26808998e-09  3.15216586e-09  1.61913925e-07  2.56316213e-09  9.10000000e-01 
 9.20000000e-01  3.36415188e-09  4.58967231e-01  3.12734986e-09  3.27781906e-09  3.71592934e-09  3.26808998e-09  3.15216592e-09  1.61913960e-07  2.56314792e-09  9.20000000e-01 
 9.30000000e-01  3.36415183e-09  4.58967229e-01  3.12734986e-09  3.27781906e-09  3.71592928e-09  3.26809004e-09  3.15216592e-09  1.61913959e-07  2.56298449e-09  9.30000000e-01 
 9.40000000e-01  3.36415182e-09  4.58967219e-01  3.12734986e-09  3.27781905e-09  3.71592934e-09  3.26808998e-09  3.15216592e-09  1.61913947e-07  2.56281396e-09  9.40000000e-01 
 9.50000000e-01  3.36415182e-09  4.58967221e-01  3.12734986e-09  3.27781905e-09  3.71592928e-09  3.26809004e-09  3.15216586e-09  1.61913935e-07  2.56280686e-09  9.50000000e-01 
 9.60000000e-01  3.36415183e-09  4.58967235e-01  3.12734986e-09  3.27781906e-09  3.71592934e-09  3.26808998e-09  3.15216592e-09  1.61913955e-07  2.56262922e-09  9.60000000e-01 
 9.70000000e-01  3.36415182e-09  4.58967217e-01  3.12734986e-09  3.27781905e-09  3.71592934e-09  3.26808998e-09  3.15216586e-09  1.61913935e-07  2.56258659e-09  9.70000000e-01 
 9.80000000e-01  3.36415183e-09  4.58967240e-01  3.12734986e-09  3.27781906e-09  3.71592934e-09  3.26808998e-09  3.15216586e-09  1.61913982e-07  2.56239474e-09  9.80000000e-01 
 9.90000000e-01  3.36415183e-09  4.58967230e-01  3.12734986e-09  3.27781911e-09  3.71592928e-09  3.26809004e-09  3.15216592e-09  1.61913960e-07  2.56236632e-09  9.90000000e-01 
 1.00000000e+00  3.36415183e-09  4.58967233e-01  3.12734986e-09  3.27781906e-09  3.71592934e-09  3.26808998e-09  3.15216592e-09  1.61913966e-07  2.56218158e-09  1.00000000e+00 
 1.01000000e+00  3.36415182e-09  4.58967218e-01  3.12734986e-09  3.27781905e-09  3.71592928e-09  3.26808998e-09  3.15216586e-09  1.61913937e-07  2.56221000e-09  1.01000000e+00 
 1.02000000e+00  3.36415183e-09  4.58967237e-01  3.12734986e-09  3.27781911e-09  3.71592928e-09  3.26808998e-09  3.15216586e-09  1.61913975e-07  2.56199684e-09  1.02000000e+00 
 1.03000000e+00  3.36415182e-09  4.58967219e-01  3.12734986e-09  3.27781905e-09  3.71592934e-09  3.26808998e-09  3.15216586e-09  1.61913933e-07  2.56189736e-09  1.03000000e+00 
 1.04000000e+00  3.36415188e-09  4.58967246e-01  3.12734986e-09  3.27781906e-09  3.71592934e-09  3.26809004e-09  3.15216586e-09  1.61913988e-07  2.56171262e-09  1.04000000e+00 
 1.05000000e+00  3.36415188e-09  4.58967231e-01  3.12734986e-09  3.27781906e-09  3.71592934e-09  3.26808998e-09  3.15216586e-09  1.61913959e-07  2.56166288e-09  1.05000000e+00 
 1.06000000e+00  3.36415182e-09  4.58967217e-01  3.12734986e-09  3.27781905e-09  3.71592934e-09  3.26808998e-09  3.15216592e-09  1.61913939e-07  2.56163446e-09  1.06000000e+00 
 1.07000000e+00  3.36415183e-09  4.58967228e-01  3.12734986e-09  3.27781906e-09  3.71592934e-09  3.26809004e-09  3.15216592e-09  1.61913950e-07  2.56157762e-09  1.07000000e+00 
 1.08000000e+00  3.36415183e-09  4.58967240e-01  3.12734986e-09  3.27781906e-09  3.71592934e-09  3.26808998e-09  3.15216586e-09  1.61913962e-07  2.56125787e-09  1.08000000e+00 
 1.09000000e+00  3.36415182e-09  4.58967201e-01  3.12734986e-09  3.27781905e-09  3.71592934e-09  3.26808998e-09  3.15216591e-09  1.61913900e-07  2.56130051e-09  1.09000000e+00 
 1.10000000e+00  3.36415182e-09  4.58967225e-01  3.12734986e-09  3.27781905e-09  3.71592934e-09  3.26808998e-09  3.15216592e-09  1.61913947e-07  2.56115840e-09  1.10000000e+00 
