 v-sweep         v(b0)           v(b1)           v(b2)           v(b3)           v(b4)           v(b5)           v(b6)           i(vbias)        i(viout)        v(vout)        
 0.00000000e+00  4.57689553e-01  3.26885467e-09  4.57689553e-01  3.33383113e-09  3.44754634e-09  4.57689553e-01  4.57689553e-01  1.58231432e-07  1.44813383e-07  0.00000000e+00 
 1.00000000e-02  4.57689556e-01  3.26885464e-09  4.57689556e-01  3.33383116e-09  3.44754637e-09  4.57689556e-01  4.57689556e-01  1.58231436e-07  1.44812975e-07  1.00000000e-02 
 2.00000000e-02  4.57689558e-01  3.26885466e-09  4.57689558e-01  3.33383109e-09  3.44754637e-09  4.57689558e-01  4.57689558e-01  1.58231442e-07  1.44812586e-07  2.00000000e-02 
 3.00000000e-02  4.57689556e-01  3.26885465e-09  4.57689556e-01  3.33383117e-09  3.44754631e-09  4.57689556e-01  4.57689556e-01  1.58231454e-07  1.44812127e-07  3.00000000e-02 
 4.00000000e-02  4.57689551e-01  3.26885471e-09  4.57689551e-01  3.33383115e-09  3.44754638e-09  4.57689551e-01  4.57689551e-01  1.58231443e-07  1.44811781e-07  4.00000000e-02 
 5.00000000e-02  4.57689568e-01  3.26885470e-09  4.57689568e-01  3.33383117e-09  3.44754637e-09  4.57689568e-01  4.57689568e-01  1.58231464e-07  1.44811446e-07  5.00000000e-02 
 6.00000000e-02  4.57689562e-01  3.26885464e-09  4.57689562e-01  3.33383115e-09  3.44754631e-09  4.57689562e-01  4.57689562e-01  1.58231434e-07  1.44810943e-07  6.00000000e-02 
 7.00000000e-02  4.57689570e-01  3.26885466e-09  4.57689570e-01  3.33383111e-09  3.44754633e-09  4.57689570e-01  4.57689570e-01  1.58231458e-07  1.44810737e-07  7.00000000e-02 
 8.00000000e-02  4.57689566e-01  3.26885465e-09  4.57689566e-01  3.33383110e-09  3.44754637e-09  4.57689566e-01  4.57689566e-01  1.58231450e-07  1.44810467e-07  8.00000000e-02 
 9.00000000e-02  4.57689580e-01  3.26885471e-09  4.57689580e-01  3.33383116e-09  3.44754637e-09  4.57689580e-01  4.57689580e-01  1.58231479e-07  1.44810269e-07  9.00000000e-02 
 1.00000000e-01  4.57689545e-01  3.26885464e-09  4.57689545e-01  3.33383115e-09  3.44754637e-09  4.57689545e-01  4.57689545e-01  1.58231430e-07  1.44809832e-07  1.00000000e-01 
 1.10000000e-01  4.57689556e-01  3.26885466e-09  4.57689556e-01  3.33383111e-09  3.44754637e-09  4.57689556e-01  4.57689556e-01  1.58231431e-07  1.44809444e-07  1.10000000e-01 
 1.20000000e-01  4.57689540e-01  3.26885465e-09  4.57689540e-01  3.33383110e-09  3.44754637e-09  4.57689540e-01  4.57689540e-01  1.58231416e-07  1.44809141e-07  1.20000000e-01 
 1.30000000e-01  4.57689545e-01  3.26885465e-09  4.57689545e-01  3.33383110e-09  3.44754631e-09  4.57689545e-01  4.57689546e-01  1.58231429e-07  1.44808955e-07  1.30000000e-01 
 1.40000000e-01  4.57689534e-01  3.26885465e-09  4.57689534e-01  3.33383110e-09  3.44754632e-09  4.57689534e-01  4.57689535e-01  1.58231422e-07  1.44808611e-07  1.40000000e-01 
 1.50000000e-01  4.57689540e-01  3.26885465e-09  4.57689540e-01  3.33383116e-09  3.44754636e-09  4.57689540e-01  4.57689540e-01  1.58231429e-07  1.44808446e-07  1.50000000e-01 
 1.60000000e-01  4.57689554e-01  3.26885471e-09  4.57689554e-01  3.33383115e-09  3.44754631e-09  4.57689554e-01  4.57689554e-01  1.58231445e-07  1.44808221e-07  1.60000000e-01 
 1.70000000e-01  4.57689568e-01  3.26885464e-09  4.57689568e-01  3.33383117e-09  3.44754638e-09  4.57689568e-01  4.57689568e-01  1.58231463e-07  1.44808112e-07  1.70000000e-01 
 1.80000000e-01  4.57689581e-01  3.26885466e-09  4.57689581e-01  3.33383115e-09  3.44754637e-09  4.57689581e-01  4.57689581e-01  1.58231478e-07  1.44807871e-07  1.80000000e-01 
 1.90000000e-01  4.57689560e-01  3.26885465e-09  4.57689560e-01  3.33383117e-09  3.44754637e-09  4.57689560e-01  4.57689560e-01  1.58231436e-07  1.44807620e-07  1.90000000e-01 
 2.00000000e-01  4.57689540e-01  3.26885471e-09  4.57689540e-01  3.33383115e-09  3.44754637e-09  4.57689540e-01  4.57689540e-01  1.58231414e-07  1.44807398e-07  2.00000000e-01 
 2.10000000e-01  4.57689533e-01  3.26885469e-09  4.57689533e-01  3.33383111e-09  3.44754637e-09  4.57689533e-01  4.57689533e-01  1.58231406e-07  1.44807185e-07  2.10000000e-01 
 2.20000000e-01  4.57689536e-01  3.26885464e-09  4.57689536e-01  3.33383116e-09  3.44754637e-09  4.57689536e-01  4.57689536e-01  1.58231421e-07  1.44806908e-07  2.20000000e-01 
 2.30000000e-01  4.57689542e-01  3.26885466e-09  4.57689542e-01  3.33383115e-09  3.44754637e-09  4.57689542e-01  4.57689542e-01  1.58231412e-07  1.44806849e-07  2.30000000e-01 
 2.40000000e-01  4.57689545e-01  3.26885465e-09  4.57689545e-01  3.33383111e-09  3.44754637e-09  4.57689545e-01  4.57689545e-01  1.58231425e-07  1.44806627e-07  2.40000000e-01 
 2.50000000e-01  4.57689563e-01  3.26885465e-09  4.57689563e-01  3.33383110e-09  3.44754637e-09  4.57689563e-01  4.57689563e-01  1.58231457e-07  1.44806526e-07  2.50000000e-01 
 2.60000000e-01  4.57689549e-01  3.26885465e-09  4.57689549e-01  3.33383116e-09  3.44754631e-09  4.57689549e-01  4.57689549e-01  1.58231423e-07  1.44806258e-07  2.60000000e-01 
 2.70000000e-01  4.57689578e-01  3.26885465e-09  4.57689578e-01  3.33383109e-09  3.44754633e-09  4.57689578e-01  4.57689578e-01  1.58231472e-07  1.44806279e-07  2.70000000e-01 
 2.80000000e-01  4.57689557e-01  3.26885471e-09  4.57689557e-01  3.33383117e-09  3.44754631e-09  4.57689557e-01  4.57689557e-01  1.58231444e-07  1.44806117e-07  2.80000000e-01 
 2.90000000e-01  4.57689556e-01  3.26885464e-09  4.57689556e-01  3.33383115e-09  3.44754633e-09  4.57689556e-01  4.57689556e-01  1.58231431e-07  1.44805895e-07  2.90000000e-01 
 3.00000000e-01  4.57689562e-01  3.26885466e-09  4.57689562e-01  3.33383117e-09  3.44754636e-09  4.57689562e-01  4.57689562e-01  1.58231454e-07  1.44805810e-07  3.00000000e-01 
 3.10000000e-01  4.57689547e-01  3.26885465e-09  4.57689547e-01  3.33383115e-09  3.44754631e-09  4.57689547e-01  4.57689547e-01  1.58231425e-07  1.44805544e-07  3.10000000e-01 
 3.20000000e-01  4.57689565e-01  3.26885465e-09  4.57689565e-01  3.33383117e-09  3.44754633e-09  4.57689565e-01  4.57689566e-01  1.58231440e-07  1.44805512e-07  3.20000000e-01 
 3.30000000e-01  4.57689569e-01  3.26885471e-09  4.57689569e-01  3.33383115e-09  3.44754631e-09  4.57689569e-01  4.57689569e-01  1.58231459e-07  1.44805401e-07  3.30000000e-01 
 3.40000000e-01  4.57689554e-01  3.26885464e-09  4.57689554e-01  3.33383111e-09  3.44754632e-09  4.57689554e-01  4.57689554e-01  1.58231441e-07  1.44805270e-07  3.40000000e-01 
 3.50000000e-01  4.57689541e-01  3.26885466e-09  4.57689541e-01  3.33383110e-09  3.44754636e-09  4.57689541e-01  4.57689541e-01  1.58231413e-07  1.44804982e-07  3.50000000e-01 
 3.60000000e-01  4.57689559e-01  3.26885471e-09  4.57689559e-01  3.33383110e-09  3.44754637e-09  4.57689559e-01  4.57689559e-01  1.58231444e-07  1.44804968e-07  3.60000000e-01 
 3.70000000e-01  4.57689552e-01  3.26885464e-09  4.57689552e-01  3.33383116e-09  3.44754631e-09  4.57689552e-01  4.57689552e-01  1.58231423e-07  1.44804840e-07  3.70000000e-01 
 3.80000000e-01  4.57689533e-01  3.26885466e-09  4.57689533e-01  3.33383109e-09  3.44754638e-09  4.57689533e-01  4.57689533e-01  1.58231402e-07  1.44804662e-07  3.80000000e-01 
 3.90000000e-01  4.57689557e-01  3.26885465e-09  4.57689557e-01  3.33383111e-09  3.44754636e-09  4.57689557e-01  4.57689557e-01  1.58231440e-07  1.44804648e-07  3.90000000e-01 
 4.00000000e-01  4.57689550e-01  3.26885471e-09  4.57689550e-01  3.33383116e-09  3.44754637e-09  4.57689550e-01  4.57689550e-01  1.58231423e-07  1.44804410e-07  4.00000000e-01 
 4.10000000e-01  4.57689550e-01  3.26885469e-09  4.57689550e-01  3.33383115e-09  3.44754637e-09  4.57689550e-01  4.57689550e-01  1.58231438e-07  1.44804321e-07  4.10000000e-01 
 4.20000000e-01  4.57689559e-01  3.26885470e-09  4.57689559e-01  3.33383117e-09  3.44754631e-09  4.57689559e-01  4.57689559e-01  1.58231463e-07  1.44804162e-07  4.20000000e-01 
 4.30000000e-01  4.57689552e-01  3.26885464e-09  4.57689552e-01  3.33383115e-09  3.44754632e-09  4.57689552e-01  4.57689552e-01  1.58231437e-07  1.44804055e-07  4.30000000e-01 
 4.40000000e-01  4.57689537e-01  3.26885471e-09  4.57689537e-01  3.33383117e-09  3.44754636e-09  4.57689537e-01  4.57689537e-01  1.58231425e-07  1.44803849e-07  4.40000000e-01 
 4.50000000e-01  4.57689554e-01  3.26885470e-09  4.57689554e-01  3.33383109e-09  3.44754637e-09  4.57689554e-01  4.57689554e-01  1.58231433e-07  1.44803884e-07  4.50000000e-01 
 4.60000000e-01  4.57689567e-01  3.26885470e-09  4.57689567e-01  3.33383111e-09  3.44754631e-09  4.57689567e-01  4.57689567e-01  1.58231455e-07  1.44803813e-07  4.60000000e-01 
 4.70000000e-01  4.57689543e-01  3.26885464e-09  4.57689543e-01  3.33383116e-09  3.44754637e-09  4.57689543e-01  4.57689543e-01  1.58231413e-07  1.44803693e-07  4.70000000e-01 
 4.80000000e-01  4.57689547e-01  3.26885466e-09  4.57689547e-01  3.33383115e-09  3.44754637e-09  4.57689547e-01  4.57689547e-01  1.58231417e-07  1.44803600e-07  4.80000000e-01 
 4.90000000e-01  4.57689566e-01  3.26885465e-09  4.57689566e-01  3.33383117e-09  3.44754631e-09  4.57689566e-01  4.57689566e-01  1.58231451e-07  1.44803554e-07  4.90000000e-01 
 5.00000000e-01  4.57689549e-01  3.26885465e-09  4.57689549e-01  3.33383109e-09  3.44754632e-09  4.57689549e-01  4.57689549e-01  1.58231430e-07  1.44803330e-07  5.00000000e-01 
 5.10000000e-01  4.57689543e-01  3.26885465e-09  4.57689543e-01  3.33383111e-09  3.44754630e-09  4.57689543e-01  4.57689544e-01  1.58231424e-07  1.44803220e-07  5.10000000e-01 
 5.20000000e-01  4.57689568e-01  3.26885471e-09  4.57689568e-01  3.33383116e-09  3.44754638e-09  4.57689568e-01  4.57689568e-01  1.58231453e-07  1.44803135e-07  5.20000000e-01 
 5.30000000e-01  4.57689545e-01  3.26885469e-09  4.57689545e-01  3.33383115e-09  3.44754630e-09  4.57689545e-01  4.57689545e-01  1.58231424e-07  1.44803085e-07  5.30000000e-01 
 5.40000000e-01  4.57689547e-01  3.26885470e-09  4.57689547e-01  3.33383111e-09  3.44754632e-09  4.57689547e-01  4.57689547e-01  1.58231415e-07  1.44802975e-07  5.40000000e-01 
 5.50000000e-01  4.57689551e-01  3.26885464e-09  4.57689551e-01  3.33383116e-09  3.44754636e-09  4.57689551e-01  4.57689551e-01  1.58231442e-07  1.44802726e-07  5.50000000e-01 
 5.60000000e-01  4.57689553e-01  3.26885466e-09  4.57689553e-01  3.33383115e-09  3.44754637e-09  4.57689553e-01  4.57689553e-01  1.58231442e-07  1.44802705e-07  5.60000000e-01 
 5.70000000e-01  4.57689526e-01  3.26885471e-09  4.57689526e-01  3.33383117e-09  3.44754631e-09  4.57689526e-01  4.57689527e-01  1.58231410e-07  1.44802591e-07  5.70000000e-01 
 5.80000000e-01  4.57689548e-01  3.26885464e-09  4.57689548e-01  3.33383115e-09  3.44754632e-09  4.57689548e-01  4.57689548e-01  1.58231407e-07  1.44802605e-07  5.80000000e-01 
 5.90000000e-01  4.57689552e-01  3.26885466e-09  4.57689552e-01  3.33383111e-09  3.44754631e-09  4.57689552e-01  4.57689552e-01  1.58231444e-07  1.44802414e-07  5.90000000e-01 
 6.00000000e-01  4.57689533e-01  3.26885471e-09  4.57689533e-01  3.33383110e-09  3.44754638e-09  4.57689533e-01  4.57689533e-01  1.58231422e-07  1.44802279e-07  6.00000000e-01 
 6.10000000e-01  4.57689531e-01  3.26885469e-09  4.57689531e-01  3.33383116e-09  3.44754630e-09  4.57689531e-01  4.57689531e-01  1.58231394e-07  1.44802122e-07  6.10000000e-01 
 6.20000000e-01  4.57689558e-01  3.26885470e-09  4.57689558e-01  3.33383109e-09  3.44754633e-09  4.57689558e-01  4.57689558e-01  1.58231439e-07  1.44802186e-07  6.20000000e-01 
 6.30000000e-01  4.57689567e-01  3.26885465e-09  4.57689567e-01  3.33383111e-09  3.44754637e-09  4.57689567e-01  4.57689567e-01  1.58231452e-07  1.44802172e-07  6.30000000e-01 
 6.40000000e-01  4.57689575e-01  3.26885471e-09  4.57689575e-01  3.33383110e-09  3.44754632e-09  4.57689575e-01  4.57689575e-01  1.58231461e-07  1.44802108e-07  6.40000000e-01 
 6.50000000e-01  4.57689560e-01  3.26885470e-09  4.57689560e-01  3.33383110e-09  3.44754637e-09  4.57689560e-01  4.57689560e-01  1.58231447e-07  1.44801959e-07  6.50000000e-01 
 6.60000000e-01  4.57689568e-01  3.26885470e-09  4.57689568e-01  3.33383110e-09  3.44754637e-09  4.57689568e-01  4.57689568e-01  1.58231464e-07  1.44801760e-07  6.60000000e-01 
 6.70000000e-01  4.57689552e-01  3.26885464e-09  4.57689552e-01  3.33383116e-09  3.44754631e-09  4.57689552e-01  4.57689552e-01  1.58231425e-07  1.44801682e-07  6.70000000e-01 
 6.80000000e-01  4.57689566e-01  3.26885471e-09  4.57689566e-01  3.33383115e-09  3.44754638e-09  4.57689566e-01  4.57689566e-01  1.58231447e-07  1.44801596e-07  6.80000000e-01 
 6.90000000e-01  4.57689569e-01  3.26885470e-09  4.57689569e-01  3.33383111e-09  3.44754631e-09  4.57689569e-01  4.57689569e-01  1.58231451e-07  1.44801554e-07  6.90000000e-01 
 7.00000000e-01  4.57689545e-01  3.26885470e-09  4.57689545e-01  3.33383110e-09  3.44754632e-09  4.57689545e-01  4.57689545e-01  1.58231431e-07  1.44801326e-07  7.00000000e-01 
 7.10000000e-01  4.57689550e-01  3.26885464e-09  4.57689550e-01  3.33383116e-09  3.44754631e-09  4.57689550e-01  4.57689550e-01  1.58231425e-07  1.44801305e-07  7.10000000e-01 
 7.20000000e-01  4.57689563e-01  3.26885466e-09  4.57689563e-01  3.33383115e-09  3.44754633e-09  4.57689563e-01  4.57689563e-01  1.58231454e-07  1.44801113e-07  7.20000000e-01 
 7.30000000e-01  4.57689566e-01  3.26885471e-09  4.57689566e-01  3.33383111e-09  3.44754631e-09  4.57689566e-01  4.57689566e-01  1.58231444e-07  1.44801170e-07  7.30000000e-01 
 7.40000000e-01  4.57689572e-01  3.26885464e-09  4.57689572e-01  3.33383116e-09  3.44754633e-09  4.57689572e-01  4.57689572e-01  1.58231468e-07  1.44801028e-07  7.40000000e-01 
 7.50000000e-01  4.57689555e-01  3.26885471e-09  4.57689555e-01  3.33383115e-09  3.44754631e-09  4.57689555e-01  4.57689555e-01  1.58231440e-07  1.44800794e-07  7.50000000e-01 
 7.60000000e-01  4.57689566e-01  3.26885470e-09  4.57689566e-01  3.33383117e-09  3.44754633e-09  4.57689566e-01  4.57689566e-01  1.58231455e-07  1.44800829e-07  7.60000000e-01 
 7.70000000e-01  4.57689541e-01  3.26885470e-09  4.57689541e-01  3.33383115e-09  3.44754630e-09  4.57689541e-01  4.57689541e-01  1.58231418e-07  1.44800602e-07  7.70000000e-01 
 7.80000000e-01  4.57689556e-01  3.26885470e-09  4.57689556e-01  3.33383117e-09  3.44754632e-09  4.57689556e-01  4.57689556e-01  1.58231430e-07  1.44800573e-07  7.80000000e-01 
 7.90000000e-01  4.57689581e-01  3.26885470e-09  4.57689581e-01  3.33383115e-09  3.44754637e-09  4.57689581e-01  4.57689581e-01  1.58231471e-07  1.44800559e-07  7.90000000e-01 
 8.00000000e-01  4.57689551e-01  3.26885470e-09  4.57689551e-01  3.33383111e-09  3.44754637e-09  4.57689550e-01  4.57689551e-01  1.58231442e-07  1.44800296e-07  8.00000000e-01 
 8.10000000e-01  4.57689528e-01  3.26885470e-09  4.57689528e-01  3.33383110e-09  3.44754636e-09  4.57689527e-01  4.57689528e-01  1.58231405e-07  1.44800161e-07  8.10000000e-01 
 8.20000000e-01  4.57689554e-01  3.26885470e-09  4.57689554e-01  3.33383116e-09  3.44754637e-09  4.57689554e-01  4.57689554e-01  1.58231422e-07  1.44800197e-07  8.20000000e-01 
 8.30000000e-01  4.57689572e-01  3.26885470e-09  4.57689572e-01  3.33383109e-09  3.44754632e-09  4.57689572e-01  4.57689572e-01  1.58231456e-07  1.44800062e-07  8.30000000e-01 
 8.40000000e-01  4.57689534e-01  3.26885464e-09  4.57689534e-01  3.33383117e-09  3.44754631e-09  4.57689534e-01  4.57689534e-01  1.58231398e-07  1.44799827e-07  8.40000000e-01 
 8.50000000e-01  4.57689549e-01  3.26885466e-09  4.57689549e-01  3.33383115e-09  3.44754632e-09  4.57689549e-01  4.57689549e-01  1.58231433e-07  1.44799706e-07  8.50000000e-01 
 8.60000000e-01  4.57689565e-01  3.26885471e-09  4.57689565e-01  3.33383111e-09  3.44754631e-09  4.57689565e-01  4.57689565e-01  1.58231459e-07  1.44799756e-07  8.60000000e-01 
 8.70000000e-01  4.57689557e-01  3.26885470e-09  4.57689557e-01  3.33383116e-09  3.44754633e-09  4.57689557e-01  4.57689557e-01  1.58231420e-07  1.44799607e-07  8.70000000e-01 
 8.80000000e-01  4.57689543e-01  3.26885470e-09  4.57689543e-01  3.33383115e-09  3.44754636e-09  4.57689543e-01  4.57689543e-01  1.58231427e-07  1.44799429e-07  8.80000000e-01 
 8.90000000e-01  4.57689568e-01  3.26885465e-09  4.57689568e-01  3.33383117e-09  3.44754632e-09  4.57689568e-01  4.57689568e-01  1.58231453e-07  1.44799301e-07  8.90000000e-01 
 9.00000000e-01  4.57689535e-01  3.26885466e-09  4.57689535e-01  3.33383115e-09  3.44754631e-09  4.57689535e-01  4.57689535e-01  1.58231412e-07  1.44799145e-07  9.00000000e-01 
 9.10000000e-01  4.57689558e-01  3.26885471e-09  4.57689558e-01  3.33383117e-09  3.44754633e-09  4.57689558e-01  4.57689558e-01  1.58231433e-07  1.44799088e-07  9.10000000e-01 
 9.20000000e-01  4.57689576e-01  3.26885464e-09  4.57689576e-01  3.33383115e-09  3.44754637e-09  4.57689576e-01  4.57689576e-01  1.58231466e-07  1.44799110e-07  9.20000000e-01 
 9.30000000e-01  4.57689543e-01  3.26885471e-09  4.57689543e-01  3.33383111e-09  3.44754637e-09  4.57689543e-01  4.57689543e-01  1.58231424e-07  1.44798925e-07  9.30000000e-01 
 9.40000000e-01  4.57689562e-01  3.26885470e-09  4.57689562e-01  3.33383110e-09  3.44754637e-09  4.57689562e-01  4.57689562e-01  1.58231429e-07  1.44798783e-07  9.40000000e-01 
 9.50000000e-01  4.57689566e-01  3.26885470e-09  4.57689566e-01  3.33383116e-09  3.44754631e-09  4.57689566e-01  4.57689566e-01  1.58231452e-07  1.44798513e-07  9.50000000e-01 
 9.60000000e-01  4.57689569e-01  3.26885470e-09  4.57689569e-01  3.33383115e-09  3.44754633e-09  4.57689569e-01  4.57689569e-01  1.58231466e-07  1.44798619e-07  9.60000000e-01 
 9.70000000e-01  4.57689551e-01  3.26885470e-09  4.57689551e-01  3.33383111e-09  3.44754636e-09  4.57689551e-01  4.57689551e-01  1.58231419e-07  1.44798484e-07  9.70000000e-01 
 9.80000000e-01  4.57689558e-01  3.26885464e-09  4.57689558e-01  3.33383116e-09  3.44754637e-09  4.57689558e-01  4.57689558e-01  1.58231440e-07  1.44798278e-07  9.80000000e-01 
 9.90000000e-01  4.57689562e-01  3.26885466e-09  4.57689562e-01  3.33383115e-09  3.44754637e-09  4.57689562e-01  4.57689562e-01  1.58231458e-07  1.44798065e-07  9.90000000e-01 
 1.00000000e+00  4.57689545e-01  3.26885471e-09  4.57689545e-01  3.33383117e-09  3.44754631e-09  4.57689545e-01  4.57689545e-01  1.58231427e-07  1.44797994e-07  1.00000000e+00 
 1.01000000e+00  4.57689544e-01  3.26885469e-09  4.57689544e-01  3.33383115e-09  3.44754632e-09  4.57689544e-01  4.57689544e-01  1.58231411e-07  1.44797966e-07  1.01000000e+00 
 1.02000000e+00  4.57689564e-01  3.26885470e-09  4.57689564e-01  3.33383117e-09  3.44754637e-09  4.57689564e-01  4.57689564e-01  1.58231448e-07  1.44797923e-07  1.02000000e+00 
 1.03000000e+00  4.57689569e-01  3.26885465e-09  4.57689569e-01  3.33383115e-09  3.44754632e-09  4.57689569e-01  4.57689569e-01  1.58231452e-07  1.44797738e-07  1.03000000e+00 
 1.04000000e+00  4.57689541e-01  3.26885471e-09  4.57689541e-01  3.33383111e-09  3.44754631e-09  4.57689541e-01  4.57689541e-01  1.58231429e-07  1.44797603e-07  1.04000000e+00 
 1.05000000e+00  4.57689551e-01  3.26885470e-09  4.57689551e-01  3.33383116e-09  3.44754638e-09  4.57689551e-01  4.57689551e-01  1.58231432e-07  1.44797447e-07  1.05000000e+00 
 1.06000000e+00  4.57689560e-01  3.26885464e-09  4.57689560e-01  3.33383109e-09  3.44754631e-09  4.57689560e-01  4.57689560e-01  1.58231443e-07  1.44797333e-07  1.06000000e+00 
 1.07000000e+00  4.57689567e-01  3.26885466e-09  4.57689567e-01  3.33383117e-09  3.44754633e-09  4.57689567e-01  4.57689567e-01  1.58231441e-07  1.44797255e-07  1.07000000e+00 
 1.08000000e+00  4.57689566e-01  3.26885465e-09  4.57689566e-01  3.33383115e-09  3.44754637e-09  4.57689566e-01  4.57689566e-01  1.58231456e-07  1.44797085e-07  1.08000000e+00 
 1.09000000e+00  4.57689561e-01  3.26885465e-09  4.57689561e-01  3.33383117e-09  3.44754631e-09  4.57689561e-01  4.57689561e-01  1.58231437e-07  1.44797085e-07  1.09000000e+00 
 1.10000000e+00  4.57689552e-01  3.26885465e-09  4.57689552e-01  3.33383115e-09  3.44754632e-09  4.57689552e-01  4.57689552e-01  1.58231444e-07  1.44796864e-07  1.10000000e+00 
