 v-sweep         v(b0)           v(b1)           v(b2)           v(b3)           v(b4)           v(b5)           v(b6)           i(vbias)        i(viout)        v(vout)        
 0.00000000e+00  4.58970998e-01  3.19106603e-09  4.58970998e-01  3.24660852e-09  3.31871912e-09  3.18809688e-09  3.18334133e-09  1.60345426e-07  6.73127780e-09  0.00000000e+00 
 1.00000000e-02  4.58970984e-01  3.19106607e-09  4.58970984e-01  3.24660849e-09  3.31871910e-09  3.18809691e-09  3.18334137e-09  1.60345421e-07  6.73072631e-09  1.00000000e-02 
 2.00000000e-02  4.58971004e-01  3.19106601e-09  4.58971004e-01  3.24660850e-09  3.31871910e-09  3.18809692e-09  3.18334130e-09  1.60345434e-07  6.73044243e-09  2.00000000e-02 
 3.00000000e-02  4.58971002e-01  3.19106601e-09  4.58971002e-01  3.24660850e-09  3.31871910e-09  3.18809686e-09  3.18334138e-09  1.60345438e-07  6.73001654e-09  3.00000000e-02 
 4.00000000e-02  4.58970990e-01  3.19106607e-09  4.58970990e-01  3.24660850e-09  3.31871910e-09  3.18809692e-09  3.18334136e-09  1.60345425e-07  6.72979406e-09  4.00000000e-02 
 5.00000000e-02  4.58970974e-01  3.19106606e-09  4.58970974e-01  3.24660850e-09  3.31871916e-09  3.18809691e-09  3.18334132e-09  1.60345408e-07  6.72948142e-09  5.00000000e-02 
 6.00000000e-02  4.58970991e-01  3.19106601e-09  4.58970991e-01  3.24660850e-09  3.31871916e-09  3.18809692e-09  3.18334131e-09  1.60345416e-07  6.72905243e-09  6.00000000e-02 
 7.00000000e-02  4.58970990e-01  3.19106607e-09  4.58970990e-01  3.24660850e-09  3.31871910e-09  3.18809692e-09  3.18334137e-09  1.60345420e-07  6.72876554e-09  7.00000000e-02 
 8.00000000e-02  4.58971005e-01  3.19106607e-09  4.58971005e-01  3.24660850e-09  3.31871910e-09  3.18809692e-09  3.18334136e-09  1.60345445e-07  6.72846312e-09  8.00000000e-02 
 9.00000000e-02  4.58971003e-01  3.19106607e-09  4.58971003e-01  3.24660850e-09  3.31871910e-09  3.18809686e-09  3.18334132e-09  1.60345438e-07  6.72826772e-09  9.00000000e-02 
 1.00000000e-01  4.58971016e-01  3.19106601e-09  4.58971016e-01  3.24660850e-09  3.31871911e-09  3.18809692e-09  3.18334137e-09  1.60345463e-07  6.72791600e-09  1.00000000e-01 
 1.10000000e-01  4.58971005e-01  3.19106607e-09  4.58971005e-01  3.24660850e-09  3.31871910e-09  3.18809692e-09  3.18334136e-09  1.60345446e-07  6.72787426e-09  1.10000000e-01 
 1.20000000e-01  4.58971001e-01  3.19106607e-09  4.58971001e-01  3.24660850e-09  3.31871910e-09  3.18809686e-09  3.18334138e-09  1.60345435e-07  6.72742484e-09  1.20000000e-01 
 1.30000000e-01  4.58970989e-01  3.19106607e-09  4.58970989e-01  3.24660850e-09  3.31871910e-09  3.18809691e-09  3.18334136e-09  1.60345423e-07  6.72727207e-09  1.30000000e-01 
 1.40000000e-01  4.58971003e-01  3.19106601e-09  4.58971003e-01  3.24660850e-09  3.31871916e-09  3.18809692e-09  3.18334132e-09  1.60345447e-07  6.72703226e-09  1.40000000e-01 
 1.50000000e-01  4.58971001e-01  3.19106601e-09  4.58971001e-01  3.24660850e-09  3.31871916e-09  3.18809686e-09  3.18334137e-09  1.60345438e-07  6.72691058e-09  1.50000000e-01 
 1.60000000e-01  4.58971000e-01  3.19106601e-09  4.58971000e-01  3.24660850e-09  3.31871910e-09  3.18809692e-09  3.18334136e-09  1.60345441e-07  6.72671696e-09  1.60000000e-01 
 1.70000000e-01  4.58970997e-01  3.19106607e-09  4.58970997e-01  3.24660855e-09  3.31871916e-09  3.18809686e-09  3.18334132e-09  1.60345436e-07  6.72647360e-09  1.70000000e-01 
 1.80000000e-01  4.58970999e-01  3.19106607e-09  4.58970999e-01  3.24660849e-09  3.31871910e-09  3.18809692e-09  3.18334137e-09  1.60345427e-07  6.72630485e-09  1.80000000e-01 
 1.90000000e-01  4.58971009e-01  3.19106607e-09  4.58971009e-01  3.24660850e-09  3.31871916e-09  3.18809686e-09  3.18334130e-09  1.60345456e-07  6.72604550e-09  1.90000000e-01 
 2.00000000e-01  4.58971011e-01  3.19106607e-09  4.58971011e-01  3.24660850e-09  3.31871910e-09  3.18809692e-09  3.18334132e-09  1.60345444e-07  6.72588385e-09  2.00000000e-01 
 2.10000000e-01  4.58971000e-01  3.19106601e-09  4.58970999e-01  3.24660850e-09  3.31871910e-09  3.18809686e-09  3.18334137e-09  1.60345443e-07  6.72580747e-09  2.10000000e-01 
 2.20000000e-01  4.58970988e-01  3.19106607e-09  4.58970987e-01  3.24660850e-09  3.31871916e-09  3.18809691e-09  3.18334136e-09  1.60345433e-07  6.72565115e-09  2.20000000e-01 
 2.30000000e-01  4.58971000e-01  3.19106607e-09  4.58971000e-01  3.24660850e-09  3.31871916e-09  3.18809692e-09  3.18334132e-09  1.60345441e-07  6.72570266e-09  2.30000000e-01 
 2.40000000e-01  4.58970998e-01  3.19106607e-09  4.58970998e-01  3.24660850e-09  3.31871910e-09  3.18809686e-09  3.18334137e-09  1.60345441e-07  6.72549838e-09  2.40000000e-01 
 2.50000000e-01  4.58970997e-01  3.19106601e-09  4.58970997e-01  3.24660850e-09  3.31871910e-09  3.18809692e-09  3.18334136e-09  1.60345438e-07  6.72531009e-09  2.50000000e-01 
 2.60000000e-01  4.58971012e-01  3.19106601e-09  4.58971012e-01  3.24660850e-09  3.31871916e-09  3.18809686e-09  3.18334132e-09  1.60345463e-07  6.72516087e-09  2.60000000e-01 
 2.70000000e-01  4.58970996e-01  3.19106601e-09  4.58970996e-01  3.24660850e-09  3.31871910e-09  3.18809692e-09  3.18334131e-09  1.60345428e-07  6.72505074e-09  2.70000000e-01 
 2.80000000e-01  4.58971020e-01  3.19106607e-09  4.58971020e-01  3.24660850e-09  3.31871916e-09  3.18809686e-09  3.18334131e-09  1.60345459e-07  6.72501521e-09  2.80000000e-01 
 2.90000000e-01  4.58970995e-01  3.19106607e-09  4.58970995e-01  3.24660855e-09  3.31871910e-09  3.18809686e-09  3.18334137e-09  1.60345426e-07  6.72468659e-09  2.90000000e-01 
 3.00000000e-01  4.58970993e-01  3.19106601e-09  4.58970993e-01  3.24660848e-09  3.31871910e-09  3.18809692e-09  3.18334136e-09  1.60345433e-07  6.72473988e-09  3.00000000e-01 
 3.10000000e-01  4.58970991e-01  3.19106607e-09  4.58970991e-01  3.24660850e-09  3.31871910e-09  3.18809692e-09  3.18334138e-09  1.60345422e-07  6.72463685e-09  3.10000000e-01 
 3.20000000e-01  4.58971008e-01  3.19106607e-09  4.58971008e-01  3.24660850e-09  3.31871910e-09  3.18809692e-09  3.18334136e-09  1.60345454e-07  6.72450540e-09  3.20000000e-01 
 3.30000000e-01  4.58971002e-01  3.19106601e-09  4.58971002e-01  3.24660850e-09  3.31871910e-09  3.18809686e-09  3.18334138e-09  1.60345445e-07  6.72444145e-09  3.30000000e-01 
 3.40000000e-01  4.58971000e-01  3.19106607e-09  4.58971000e-01  3.24660850e-09  3.31871916e-09  3.18809692e-09  3.18334130e-09  1.60345439e-07  6.72434552e-09  3.40000000e-01 
 3.50000000e-01  4.58970971e-01  3.19106606e-09  4.58970971e-01  3.24660850e-09  3.31871910e-09  3.18809691e-09  3.18334132e-09  1.60345398e-07  6.72423539e-09  3.50000000e-01 
 3.60000000e-01  4.58970992e-01  3.19106607e-09  4.58970992e-01  3.24660850e-09  3.31871916e-09  3.18809686e-09  3.18334131e-09  1.60345422e-07  6.72416078e-09  3.60000000e-01 
 3.70000000e-01  4.58971008e-01  3.19106607e-09  4.58971008e-01  3.24660850e-09  3.31871910e-09  3.18809686e-09  3.18334137e-09  1.60345460e-07  6.72410749e-09  3.70000000e-01 
 3.80000000e-01  4.58970990e-01  3.19106607e-09  4.58970990e-01  3.24660850e-09  3.31871910e-09  3.18809692e-09  3.18334136e-09  1.60345417e-07  6.72406486e-09  3.80000000e-01 
 3.90000000e-01  4.58971007e-01  3.19106607e-09  4.58971007e-01  3.24660850e-09  3.31871916e-09  3.18809692e-09  3.18334132e-09  1.60345452e-07  6.72396538e-09  3.90000000e-01 
 4.00000000e-01  4.58971021e-01  3.19106601e-09  4.58971021e-01  3.24660850e-09  3.31871916e-09  3.18809692e-09  3.18334137e-09  1.60345470e-07  6.72383749e-09  4.00000000e-01 
 4.10000000e-01  4.58971003e-01  3.19106607e-09  4.58971003e-01  3.24660850e-09  3.31871910e-09  3.18809692e-09  3.18334136e-09  1.60345447e-07  6.72380551e-09  4.10000000e-01 
 4.20000000e-01  4.58970996e-01  3.19106601e-09  4.58970996e-01  3.24660850e-09  3.31871916e-09  3.18809686e-09  3.18334132e-09  1.60345431e-07  6.72379130e-09  4.20000000e-01 
 4.30000000e-01  4.58971015e-01  3.19106601e-09  4.58971014e-01  3.24660850e-09  3.31871910e-09  3.18809686e-09  3.18334137e-09  1.60345458e-07  6.72373446e-09  4.30000000e-01 
 4.40000000e-01  4.58970994e-01  3.19106607e-09  4.58970994e-01  3.24660850e-09  3.31871916e-09  3.18809692e-09  3.18334130e-09  1.60345418e-07  6.72359945e-09  4.40000000e-01 
 4.50000000e-01  4.58971025e-01  3.19106607e-09  4.58971025e-01  3.24660850e-09  3.31871911e-09  3.18809686e-09  3.18334132e-09  1.60345479e-07  6.72363498e-09  4.50000000e-01 
 4.60000000e-01  4.58971001e-01  3.19106607e-09  4.58971001e-01  3.24660850e-09  3.31871916e-09  3.18809686e-09  3.18334131e-09  1.60345439e-07  6.72347866e-09  4.60000000e-01 
 4.70000000e-01  4.58971000e-01  3.19106601e-09  4.58971000e-01  3.24660850e-09  3.31871916e-09  3.18809686e-09  3.18334137e-09  1.60345440e-07  6.72331524e-09  4.70000000e-01 
 4.80000000e-01  4.58971005e-01  3.19106607e-09  4.58971005e-01  3.24660850e-09  3.31871910e-09  3.18809692e-09  3.18334136e-09  1.60345439e-07  6.72343958e-09  4.80000000e-01 
 4.90000000e-01  4.58970982e-01  3.19106607e-09  4.58970982e-01  3.24660850e-09  3.31871910e-09  3.18809691e-09  3.18334132e-09  1.60345414e-07  6.72332234e-09  4.90000000e-01 
 5.00000000e-01  4.58971002e-01  3.19106607e-09  4.58971002e-01  3.24660850e-09  3.31871910e-09  3.18809692e-09  3.18334137e-09  1.60345450e-07  6.72332234e-09  5.00000000e-01 
 5.10000000e-01  4.58971009e-01  3.19106607e-09  4.58971008e-01  3.24660850e-09  3.31871916e-09  3.18809692e-09  3.18334130e-09  1.60345443e-07  6.72325129e-09  5.10000000e-01 
 5.20000000e-01  4.58970991e-01  3.19106607e-09  4.58970991e-01  3.24660850e-09  3.31871910e-09  3.18809692e-09  3.18334132e-09  1.60345419e-07  6.72304168e-09  5.20000000e-01 
 5.30000000e-01  4.58970999e-01  3.19106601e-09  4.58970999e-01  3.24660850e-09  3.31871910e-09  3.18809692e-09  3.18334131e-09  1.60345438e-07  6.72301681e-09  5.30000000e-01 
 5.40000000e-01  4.58970988e-01  3.19106607e-09  4.58970988e-01  3.24660850e-09  3.31871910e-09  3.18809686e-09  3.18334131e-09  1.60345412e-07  6.72302392e-09  5.40000000e-01 
 5.50000000e-01  4.58971007e-01  3.19106607e-09  4.58971007e-01  3.24660850e-09  3.31871910e-09  3.18809686e-09  3.18334137e-09  1.60345437e-07  6.72294576e-09  5.50000000e-01 
 5.60000000e-01  4.58971002e-01  3.19106607e-09  4.58971002e-01  3.24660850e-09  3.31871910e-09  3.18809686e-09  3.18334136e-09  1.60345453e-07  6.72288536e-09  5.60000000e-01 
 5.70000000e-01  4.58971006e-01  3.19106601e-09  4.58971006e-01  3.24660850e-09  3.31871910e-09  3.18809692e-09  3.18334138e-09  1.60345451e-07  6.72287115e-09  5.70000000e-01 
 5.80000000e-01  4.58971009e-01  3.19106601e-09  4.58971009e-01  3.24660850e-09  3.31871916e-09  3.18809686e-09  3.18334136e-09  1.60345437e-07  6.72288536e-09  5.80000000e-01 
 5.90000000e-01  4.58971006e-01  3.19106607e-09  4.58971006e-01  3.24660850e-09  3.31871910e-09  3.18809692e-09  3.18334132e-09  1.60345445e-07  6.72280009e-09  5.90000000e-01 
 6.00000000e-01  4.58970996e-01  3.19106607e-09  4.58970996e-01  3.24660850e-09  3.31871910e-09  3.18809686e-09  3.18334131e-09  1.60345430e-07  6.72260825e-09  6.00000000e-01 
 6.10000000e-01  4.58971012e-01  3.19106601e-09  4.58971012e-01  3.24660850e-09  3.31871910e-09  3.18809692e-09  3.18334131e-09  1.60345458e-07  6.72262956e-09  6.10000000e-01 
 6.20000000e-01  4.58971012e-01  3.19106607e-09  4.58971012e-01  3.24660850e-09  3.31871910e-09  3.18809692e-09  3.18334131e-09  1.60345464e-07  6.72253009e-09  6.20000000e-01 
 6.30000000e-01  4.58970971e-01  3.19106606e-09  4.58970971e-01  3.24660850e-09  3.31871910e-09  3.18809691e-09  3.18334137e-09  1.60345397e-07  6.72235956e-09  6.30000000e-01 
 6.40000000e-01  4.58970973e-01  3.19106606e-09  4.58970973e-01  3.24660850e-09  3.31871916e-09  3.18809691e-09  3.18334136e-09  1.60345393e-07  6.72248035e-09  6.40000000e-01 
 6.50000000e-01  4.58970988e-01  3.19106601e-09  4.58970988e-01  3.24660850e-09  3.31871910e-09  3.18809686e-09  3.18334132e-09  1.60345429e-07  6.72247324e-09  6.50000000e-01 
 6.60000000e-01  4.58970980e-01  3.19106601e-09  4.58970980e-01  3.24660850e-09  3.31871910e-09  3.18809686e-09  3.18334131e-09  1.60345400e-07  6.72233824e-09  6.60000000e-01 
 6.70000000e-01  4.58971000e-01  3.19106601e-09  4.58971000e-01  3.24660850e-09  3.31871910e-09  3.18809686e-09  3.18334137e-09  1.60345442e-07  6.72226008e-09  6.70000000e-01 
 6.80000000e-01  4.58970974e-01  3.19106606e-09  4.58970974e-01  3.24660850e-09  3.31871910e-09  3.18809691e-09  3.18334130e-09  1.60345398e-07  6.72216061e-09  6.80000000e-01 
 6.90000000e-01  4.58970986e-01  3.19106601e-09  4.58970986e-01  3.24660850e-09  3.31871910e-09  3.18809686e-09  3.18334132e-09  1.60345417e-07  6.72221745e-09  6.90000000e-01 
 7.00000000e-01  4.58970997e-01  3.19106601e-09  4.58970997e-01  3.24660850e-09  3.31871910e-09  3.18809692e-09  3.18334131e-09  1.60345430e-07  6.72220324e-09  7.00000000e-01 
 7.10000000e-01  4.58970976e-01  3.19106606e-09  4.58970976e-01  3.24660850e-09  3.31871910e-09  3.18809686e-09  3.18334137e-09  1.60345391e-07  6.72200429e-09  7.10000000e-01 
 7.20000000e-01  4.58971012e-01  3.19106607e-09  4.58971012e-01  3.24660850e-09  3.31871910e-09  3.18809692e-09  3.18334136e-09  1.60345461e-07  6.72201139e-09  7.20000000e-01 
 7.30000000e-01  4.58971000e-01  3.19106601e-09  4.58971000e-01  3.24660850e-09  3.31871910e-09  3.18809692e-09  3.18334132e-09  1.60345437e-07  6.72206113e-09  7.30000000e-01 
 7.40000000e-01  4.58971015e-01  3.19106601e-09  4.58971014e-01  3.24660850e-09  3.31871911e-09  3.18809686e-09  3.18334131e-09  1.60345458e-07  6.72186218e-09  7.40000000e-01 
 7.50000000e-01  4.58970976e-01  3.19106606e-09  4.58970976e-01  3.24660850e-09  3.31871910e-09  3.18809691e-09  3.18334131e-09  1.60345400e-07  6.72192613e-09  7.50000000e-01 
 7.60000000e-01  4.58970999e-01  3.19106607e-09  4.58970999e-01  3.24660850e-09  3.31871910e-09  3.18809692e-09  3.18334137e-09  1.60345428e-07  6.72184797e-09  7.60000000e-01 
 7.70000000e-01  4.58971013e-01  3.19106607e-09  4.58971013e-01  3.24660850e-09  3.31871910e-09  3.18809692e-09  3.18334136e-09  1.60345455e-07  6.72184797e-09  7.70000000e-01 
 7.80000000e-01  4.58970992e-01  3.19106607e-09  4.58970992e-01  3.24660850e-09  3.31871916e-09  3.18809692e-09  3.18334132e-09  1.60345427e-07  6.72164902e-09  7.80000000e-01 
 7.90000000e-01  4.58971004e-01  3.19106601e-09  4.58971004e-01  3.24660850e-09  3.31871916e-09  3.18809686e-09  3.18334137e-09  1.60345444e-07  6.72175560e-09  7.90000000e-01 
 8.00000000e-01  4.58971021e-01  3.19106601e-09  4.58971021e-01  3.24660850e-09  3.31871911e-09  3.18809692e-09  3.18334136e-09  1.60345480e-07  6.72152822e-09  8.00000000e-01 
 8.10000000e-01  4.58971000e-01  3.19106601e-09  4.58971000e-01  3.24660850e-09  3.31871910e-09  3.18809686e-09  3.18334132e-09  1.60345439e-07  6.72156375e-09  8.10000000e-01 
 8.20000000e-01  4.58970994e-01  3.19106607e-09  4.58970994e-01  3.24660850e-09  3.31871916e-09  3.18809692e-09  3.18334131e-09  1.60345427e-07  6.72154243e-09  8.20000000e-01 
 8.30000000e-01  4.58971007e-01  3.19106607e-09  4.58971007e-01  3.24660850e-09  3.31871910e-09  3.18809692e-09  3.18334137e-09  1.60345454e-07  6.72140033e-09  8.30000000e-01 
 8.40000000e-01  4.58971013e-01  3.19106607e-09  4.58971013e-01  3.24660850e-09  3.31871910e-09  3.18809692e-09  3.18334130e-09  1.60345460e-07  6.72138611e-09  8.40000000e-01 
 8.50000000e-01  4.58970986e-01  3.19106601e-09  4.58970986e-01  3.24660850e-09  3.31871916e-09  3.18809691e-09  3.18334132e-09  1.60345424e-07  6.72129374e-09  8.50000000e-01 
 8.60000000e-01  4.58971004e-01  3.19106601e-09  4.58971003e-01  3.24660850e-09  3.31871910e-09  3.18809692e-09  3.18334137e-09  1.60345437e-07  6.72135059e-09  8.60000000e-01 
 8.70000000e-01  4.58971002e-01  3.19106607e-09  4.58971002e-01  3.24660850e-09  3.31871910e-09  3.18809686e-09  3.18334130e-09  1.60345453e-07  6.72118006e-09  8.70000000e-01 
 8.80000000e-01  4.58970995e-01  3.19106601e-09  4.58970994e-01  3.24660850e-09  3.31871916e-09  3.18809686e-09  3.18334138e-09  1.60345429e-07  6.72111611e-09  8.80000000e-01 
 8.90000000e-01  4.58971007e-01  3.19106607e-09  4.58971006e-01  3.24660850e-09  3.31871910e-09  3.18809692e-09  3.18334136e-09  1.60345454e-07  6.72109479e-09  8.90000000e-01 
 9.00000000e-01  4.58971015e-01  3.19106607e-09  4.58971015e-01  3.24660850e-09  3.31871911e-09  3.18809692e-09  3.18334138e-09  1.60345450e-07  6.72106637e-09  9.00000000e-01 
 9.10000000e-01  4.58971014e-01  3.19106607e-09  4.58971014e-01  3.24660850e-09  3.31871910e-09  3.18809692e-09  3.18334136e-09  1.60345456e-07  6.72091716e-09  9.10000000e-01 
 9.20000000e-01  4.58971012e-01  3.19106601e-09  4.58971012e-01  3.24660850e-09  3.31871916e-09  3.18809686e-09  3.18334132e-09  1.60345450e-07  6.72094558e-09  9.20000000e-01 
 9.30000000e-01  4.58970993e-01  3.19106607e-09  4.58970993e-01  3.24660850e-09  3.31871910e-09  3.18809686e-09  3.18334131e-09  1.60345414e-07  6.72078926e-09  9.30000000e-01 
 9.40000000e-01  4.58970988e-01  3.19106601e-09  4.58970988e-01  3.24660850e-09  3.31871910e-09  3.18809686e-09  3.18334137e-09  1.60345413e-07  6.72076084e-09  9.40000000e-01 
 9.50000000e-01  4.58971006e-01  3.19106607e-09  4.58971006e-01  3.24660850e-09  3.31871910e-09  3.18809686e-09  3.18334136e-09  1.60345444e-07  6.72070399e-09  9.50000000e-01 
 9.60000000e-01  4.58970981e-01  3.19106601e-09  4.58970981e-01  3.24660850e-09  3.31871910e-09  3.18809691e-09  3.18334132e-09  1.60345401e-07  6.72067557e-09  9.60000000e-01 
 9.70000000e-01  4.58971000e-01  3.19106601e-09  4.58971000e-01  3.24660850e-09  3.31871910e-09  3.18809686e-09  3.18334137e-09  1.60345429e-07  6.72065426e-09  9.70000000e-01 
 9.80000000e-01  4.58971018e-01  3.19106607e-09  4.58971017e-01  3.24660850e-09  3.31871911e-09  3.18809692e-09  3.18334130e-09  1.60345479e-07  6.72061162e-09  9.80000000e-01 
 9.90000000e-01  4.58970990e-01  3.19106607e-09  4.58970989e-01  3.24660850e-09  3.31871910e-09  3.18809691e-09  3.18334132e-09  1.60345429e-07  6.72059741e-09  9.90000000e-01 
 1.00000000e+00  4.58970994e-01  3.19106601e-09  4.58970994e-01  3.24660850e-09  3.31871910e-09  3.18809692e-09  3.18334131e-09  1.60345422e-07  6.72037714e-09  1.00000000e+00 
 1.01000000e+00  4.58970986e-01  3.19106607e-09  4.58970986e-01  3.24660850e-09  3.31871910e-09  3.18809686e-09  3.18334131e-09  1.60345412e-07  6.72030609e-09  1.01000000e+00 
 1.02000000e+00  4.58970992e-01  3.19106607e-09  4.58970992e-01  3.24660850e-09  3.31871916e-09  3.18809686e-09  3.18334131e-09  1.60345428e-07  6.72030609e-09  1.02000000e+00 
 1.03000000e+00  4.58971020e-01  3.19106601e-09  4.58971020e-01  3.24660850e-09  3.31871911e-09  3.18809686e-09  3.18334131e-09  1.60345476e-07  6.72019951e-09  1.03000000e+00 
 1.04000000e+00  4.58971011e-01  3.19106601e-09  4.58971011e-01  3.24660850e-09  3.31871910e-09  3.18809692e-09  3.18334131e-09  1.60345450e-07  6.72024925e-09  1.04000000e+00 
 1.05000000e+00  4.58971000e-01  3.19106607e-09  4.58971000e-01  3.24660850e-09  3.31871910e-09  3.18809686e-09  3.18334137e-09  1.60345446e-07  6.72014266e-09  1.05000000e+00 
 1.06000000e+00  4.58971010e-01  3.19106601e-09  4.58971010e-01  3.24660850e-09  3.31871910e-09  3.18809692e-09  3.18334136e-09  1.60345453e-07  6.72027056e-09  1.06000000e+00 
 1.07000000e+00  4.58971010e-01  3.19106607e-09  4.58971010e-01  3.24660850e-09  3.31871910e-09  3.18809692e-09  3.18334132e-09  1.60345447e-07  6.72002898e-09  1.07000000e+00 
 1.08000000e+00  4.58971005e-01  3.19106607e-09  4.58971005e-01  3.24660850e-09  3.31871910e-09  3.18809692e-09  3.18334131e-09  1.60345455e-07  6.71997924e-09  1.08000000e+00 
 1.09000000e+00  4.58970994e-01  3.19106601e-09  4.58970994e-01  3.24660850e-09  3.31871910e-09  3.18809692e-09  3.18334137e-09  1.60345429e-07  6.72002187e-09  1.09000000e+00 
 1.10000000e+00  4.58970985e-01  3.19106607e-09  4.58970985e-01  3.24660850e-09  3.31871916e-09  3.18809691e-09  3.18334130e-09  1.60345416e-07  6.71987976e-09  1.10000000e+00 
