 v-sweep         v(b0)           v(b1)           v(b2)           v(b3)           v(b4)           v(b5)           v(b6)           i(vbias)        i(viout)        v(vout)        
 0.00000000e+00  3.20092460e-09  4.60194574e-01  4.60194574e-01  4.60194574e-01  4.60194574e-01  3.18569178e-09  3.37240532e-09  1.62503679e-07  5.05913134e-08  0.00000000e+00 
 1.00000000e-02  3.20092457e-09  4.60194581e-01  4.60194581e-01  4.60194581e-01  4.60194581e-01  3.18569176e-09  3.37240530e-09  1.62503672e-07  5.05908284e-08  1.00000000e-02 
 2.00000000e-02  3.20092459e-09  4.60194582e-01  4.60194582e-01  4.60194582e-01  4.60194582e-01  3.18569181e-09  3.37240536e-09  1.62503670e-07  5.05904487e-08  2.00000000e-02 
 3.00000000e-02  3.20092462e-09  4.60194575e-01  4.60194575e-01  4.60194575e-01  4.60194575e-01  3.18569181e-09  3.37240530e-09  1.62503673e-07  5.05899143e-08  3.00000000e-02 
 4.00000000e-02  3.20092457e-09  4.60194588e-01  4.60194588e-01  4.60194588e-01  4.60194588e-01  3.18569182e-09  3.37240536e-09  1.62503689e-07  5.05897013e-08  4.00000000e-02 
 5.00000000e-02  3.20092459e-09  4.60194585e-01  4.60194585e-01  4.60194585e-01  4.60194585e-01  3.18569176e-09  3.37240530e-09  1.62503674e-07  5.05894469e-08  5.00000000e-02 
 6.00000000e-02  3.20092457e-09  4.60194598e-01  4.60194598e-01  4.60194598e-01  4.60194598e-01  3.18569182e-09  3.37240536e-09  1.62503708e-07  5.05891231e-08  6.00000000e-02 
 7.00000000e-02  3.20092459e-09  4.60194611e-01  4.60194610e-01  4.60194610e-01  4.60194611e-01  3.18569182e-09  3.37240536e-09  1.62503724e-07  5.05888385e-08  7.00000000e-02 
 8.00000000e-02  3.20092463e-09  4.60194602e-01  4.60194602e-01  4.60194602e-01  4.60194602e-01  3.18569176e-09  3.37240530e-09  1.62503713e-07  5.05885209e-08  8.00000000e-02 
 9.00000000e-02  3.20092457e-09  4.60194573e-01  4.60194573e-01  4.60194573e-01  4.60194573e-01  3.18569181e-09  3.37240530e-09  1.62503663e-07  5.05881648e-08  9.00000000e-02 
 1.00000000e-01  3.20092459e-09  4.60194586e-01  4.60194586e-01  4.60194586e-01  4.60194586e-01  3.18569181e-09  3.37240530e-09  1.62503686e-07  5.05879418e-08  1.00000000e-01 
 1.10000000e-01  3.20092457e-09  4.60194616e-01  4.60194616e-01  4.60194616e-01  4.60194616e-01  3.18569176e-09  3.37240530e-09  1.62503723e-07  5.05876576e-08  1.10000000e-01 
 1.20000000e-01  3.20092459e-09  4.60194596e-01  4.60194596e-01  4.60194596e-01  4.60194596e-01  3.18569176e-09  3.37240530e-09  1.62503695e-07  5.05874640e-08  1.20000000e-01 
 1.30000000e-01  3.20092457e-09  4.60194593e-01  4.60194593e-01  4.60194593e-01  4.60194593e-01  3.18569176e-09  3.37240536e-09  1.62503697e-07  5.05871958e-08  1.30000000e-01 
 1.40000000e-01  3.20092459e-09  4.60194605e-01  4.60194605e-01  4.60194605e-01  4.60194605e-01  3.18569182e-09  3.37240530e-09  1.62503711e-07  5.05870252e-08  1.40000000e-01 
 1.50000000e-01  3.20092457e-09  4.60194584e-01  4.60194584e-01  4.60194584e-01  4.60194584e-01  3.18569181e-09  3.37240530e-09  1.62503693e-07  5.05868396e-08  1.50000000e-01 
 1.60000000e-01  3.20092459e-09  4.60194583e-01  4.60194583e-01  4.60194583e-01  4.60194583e-01  3.18569176e-09  3.37240530e-09  1.62503680e-07  5.05866939e-08  1.60000000e-01 
 1.70000000e-01  3.20092457e-09  4.60194606e-01  4.60194606e-01  4.60194606e-01  4.60194606e-01  3.18569182e-09  3.37240536e-09  1.62503718e-07  5.05864719e-08  1.70000000e-01 
 1.80000000e-01  3.20092459e-09  4.60194586e-01  4.60194586e-01  4.60194586e-01  4.60194586e-01  3.18569176e-09  3.37240530e-09  1.62503697e-07  5.05862712e-08  1.80000000e-01 
 1.90000000e-01  3.20092457e-09  4.60194581e-01  4.60194581e-01  4.60194581e-01  4.60194581e-01  3.18569176e-09  3.37240530e-09  1.62503683e-07  5.05861060e-08  1.90000000e-01 
 2.00000000e-01  3.20092458e-09  4.60194577e-01  4.60194577e-01  4.60194577e-01  4.60194577e-01  3.18569176e-09  3.37240530e-09  1.62503674e-07  5.05859745e-08  2.00000000e-01 
 2.10000000e-01  3.20092457e-09  4.60194599e-01  4.60194598e-01  4.60194599e-01  4.60194599e-01  3.18569176e-09  3.37240536e-09  1.62503704e-07  5.05858857e-08  2.10000000e-01 
 2.20000000e-01  3.20092458e-09  4.60194575e-01  4.60194575e-01  4.60194575e-01  4.60194575e-01  3.18569181e-09  3.37240530e-09  1.62503674e-07  5.05856033e-08  2.20000000e-01 
 2.30000000e-01  3.20092463e-09  4.60194591e-01  4.60194591e-01  4.60194591e-01  4.60194591e-01  3.18569176e-09  3.37240530e-09  1.62503696e-07  5.05854469e-08  2.30000000e-01 
 2.40000000e-01  3.20092458e-09  4.60194602e-01  4.60194601e-01  4.60194601e-01  4.60194602e-01  3.18569176e-09  3.37240530e-09  1.62503705e-07  5.05854345e-08  2.40000000e-01 
 2.50000000e-01  3.20092459e-09  4.60194591e-01  4.60194591e-01  4.60194591e-01  4.60194591e-01  3.18569176e-09  3.37240530e-09  1.62503693e-07  5.05852764e-08  2.50000000e-01 
 2.60000000e-01  3.20092457e-09  4.60194593e-01  4.60194593e-01  4.60194593e-01  4.60194593e-01  3.18569176e-09  3.37240530e-09  1.62503695e-07  5.05850508e-08  2.60000000e-01 
 2.70000000e-01  3.20092459e-09  4.60194609e-01  4.60194609e-01  4.60194609e-01  4.60194609e-01  3.18569176e-09  3.37240530e-09  1.62503720e-07  5.05849442e-08  2.70000000e-01 
 2.80000000e-01  3.20092463e-09  4.60194598e-01  4.60194598e-01  4.60194598e-01  4.60194598e-01  3.18569182e-09  3.37240530e-09  1.62503695e-07  5.05848270e-08  2.80000000e-01 
 2.90000000e-01  3.20092458e-09  4.60194608e-01  4.60194608e-01  4.60194608e-01  4.60194608e-01  3.18569176e-09  3.37240530e-09  1.62503722e-07  5.05846920e-08  2.90000000e-01 
 3.00000000e-01  3.20092459e-09  4.60194594e-01  4.60194594e-01  4.60194594e-01  4.60194594e-01  3.18569182e-09  3.37240536e-09  1.62503700e-07  5.05846032e-08  3.00000000e-01 
 3.10000000e-01  3.20092457e-09  4.60194600e-01  4.60194600e-01  4.60194600e-01  4.60194600e-01  3.18569176e-09  3.37240530e-09  1.62503696e-07  5.05845037e-08  3.10000000e-01 
 3.20000000e-01  3.20092453e-09  4.60194583e-01  4.60194583e-01  4.60194583e-01  4.60194583e-01  3.18569176e-09  3.37240530e-09  1.62503674e-07  5.05844184e-08  3.20000000e-01 
 3.30000000e-01  3.20092458e-09  4.60194595e-01  4.60194595e-01  4.60194595e-01  4.60194595e-01  3.18569182e-09  3.37240530e-09  1.62503698e-07  5.05843190e-08  3.30000000e-01 
 3.40000000e-01  3.20092457e-09  4.60194593e-01  4.60194593e-01  4.60194593e-01  4.60194593e-01  3.18569176e-09  3.37240536e-09  1.62503685e-07  5.05842266e-08  3.40000000e-01 
 3.50000000e-01  3.20092459e-09  4.60194587e-01  4.60194587e-01  4.60194587e-01  4.60194587e-01  3.18569181e-09  3.37240530e-09  1.62503693e-07  5.05841768e-08  3.50000000e-01 
 3.60000000e-01  3.20092457e-09  4.60194599e-01  4.60194599e-01  4.60194599e-01  4.60194599e-01  3.18569176e-09  3.37240530e-09  1.62503708e-07  5.05840809e-08  3.60000000e-01 
 3.70000000e-01  3.20092458e-09  4.60194559e-01  4.60194559e-01  4.60194559e-01  4.60194559e-01  3.18569176e-09  3.37240530e-09  1.62503642e-07  5.05839566e-08  3.70000000e-01 
 3.80000000e-01  3.20092463e-09  4.60194602e-01  4.60194602e-01  4.60194602e-01  4.60194602e-01  3.18569176e-09  3.37240536e-09  1.62503708e-07  5.05838855e-08  3.80000000e-01 
 3.90000000e-01  3.20092458e-09  4.60194595e-01  4.60194595e-01  4.60194595e-01  4.60194595e-01  3.18569182e-09  3.37240530e-09  1.62503703e-07  5.05839282e-08  3.90000000e-01 
 4.00000000e-01  3.20092459e-09  4.60194586e-01  4.60194586e-01  4.60194586e-01  4.60194586e-01  3.18569176e-09  3.37240530e-09  1.62503690e-07  5.05837825e-08  4.00000000e-01 
 4.10000000e-01  3.20092457e-09  4.60194599e-01  4.60194599e-01  4.60194599e-01  4.60194599e-01  3.18569176e-09  3.37240530e-09  1.62503717e-07  5.05835978e-08  4.10000000e-01 
 4.20000000e-01  3.20092458e-09  4.60194554e-01  4.60194554e-01  4.60194554e-01  4.60194554e-01  3.18569181e-09  3.37240536e-09  1.62503636e-07  5.05834024e-08  4.20000000e-01 
 4.30000000e-01  3.20092457e-09  4.60194629e-01  4.60194629e-01  4.60194629e-01  4.60194629e-01  3.18569182e-09  3.37240530e-09  1.62503744e-07  5.05835338e-08  4.30000000e-01 
 4.40000000e-01  3.20092459e-09  4.60194592e-01  4.60194592e-01  4.60194592e-01  4.60194592e-01  3.18569176e-09  3.37240536e-09  1.62503707e-07  5.05835196e-08  4.40000000e-01 
 4.50000000e-01  3.20092463e-09  4.60194595e-01  4.60194595e-01  4.60194595e-01  4.60194595e-01  3.18569176e-09  3.37240530e-09  1.62503712e-07  5.05833704e-08  4.50000000e-01 
 4.60000000e-01  3.20092457e-09  4.60194586e-01  4.60194586e-01  4.60194586e-01  4.60194586e-01  3.18569176e-09  3.37240530e-09  1.62503690e-07  5.05833953e-08  4.60000000e-01 
 4.70000000e-01  3.20092459e-09  4.60194591e-01  4.60194591e-01  4.60194591e-01  4.60194591e-01  3.18569176e-09  3.37240530e-09  1.62503685e-07  5.05832674e-08  4.70000000e-01 
 4.80000000e-01  3.20092457e-09  4.60194596e-01  4.60194596e-01  4.60194596e-01  4.60194596e-01  3.18569176e-09  3.37240536e-09  1.62503702e-07  5.05831785e-08  4.80000000e-01 
 4.90000000e-01  3.20092459e-09  4.60194591e-01  4.60194591e-01  4.60194591e-01  4.60194591e-01  3.18569182e-09  3.37240536e-09  1.62503695e-07  5.05830542e-08  4.90000000e-01 
 5.00000000e-01  3.20092457e-09  4.60194604e-01  4.60194604e-01  4.60194604e-01  4.60194604e-01  3.18569176e-09  3.37240530e-09  1.62503714e-07  5.05830400e-08  5.00000000e-01 
 5.10000000e-01  3.20092458e-09  4.60194575e-01  4.60194575e-01  4.60194575e-01  4.60194575e-01  3.18569181e-09  3.37240530e-09  1.62503662e-07  5.05829334e-08  5.10000000e-01 
 5.20000000e-01  3.20092457e-09  4.60194599e-01  4.60194599e-01  4.60194599e-01  4.60194599e-01  3.18569176e-09  3.37240530e-09  1.62503720e-07  5.05830187e-08  5.20000000e-01 
 5.30000000e-01  3.20092458e-09  4.60194574e-01  4.60194574e-01  4.60194574e-01  4.60194574e-01  3.18569181e-09  3.37240536e-09  1.62503669e-07  5.05828197e-08  5.30000000e-01 
 5.40000000e-01  3.20092457e-09  4.60194598e-01  4.60194598e-01  4.60194598e-01  4.60194598e-01  3.18569176e-09  3.37240536e-09  1.62503711e-07  5.05827416e-08  5.40000000e-01 
 5.50000000e-01  3.20092459e-09  4.60194591e-01  4.60194591e-01  4.60194591e-01  4.60194591e-01  3.18569176e-09  3.37240536e-09  1.62503704e-07  5.05826598e-08  5.50000000e-01 
 5.60000000e-01  3.20092457e-09  4.60194595e-01  4.60194595e-01  4.60194595e-01  4.60194595e-01  3.18569176e-09  3.37240530e-09  1.62503700e-07  5.05827629e-08  5.60000000e-01 
 5.70000000e-01  3.20092459e-09  4.60194599e-01  4.60194598e-01  4.60194598e-01  4.60194599e-01  3.18569176e-09  3.37240536e-09  1.62503693e-07  5.05825852e-08  5.70000000e-01 
 5.80000000e-01  3.20092457e-09  4.60194572e-01  4.60194572e-01  4.60194572e-01  4.60194572e-01  3.18569181e-09  3.37240536e-09  1.62503660e-07  5.05824431e-08  5.80000000e-01 
 5.90000000e-01  3.20092459e-09  4.60194605e-01  4.60194605e-01  4.60194605e-01  4.60194605e-01  3.18569182e-09  3.37240530e-09  1.62503721e-07  5.05824076e-08  5.90000000e-01 
 6.00000000e-01  3.20092462e-09  4.60194584e-01  4.60194584e-01  4.60194584e-01  4.60194584e-01  3.18569176e-09  3.37240530e-09  1.62503679e-07  5.05824076e-08  6.00000000e-01 
 6.10000000e-01  3.20092458e-09  4.60194616e-01  4.60194616e-01  4.60194616e-01  4.60194616e-01  3.18569176e-09  3.37240530e-09  1.62503736e-07  5.05824218e-08  6.10000000e-01 
 6.20000000e-01  3.20092457e-09  4.60194581e-01  4.60194581e-01  4.60194581e-01  4.60194581e-01  3.18569176e-09  3.37240536e-09  1.62503684e-07  5.05821944e-08  6.20000000e-01 
 6.30000000e-01  3.20092453e-09  4.60194591e-01  4.60194591e-01  4.60194591e-01  4.60194591e-01  3.18569176e-09  3.37240536e-09  1.62503708e-07  5.05822939e-08  6.30000000e-01 
 6.40000000e-01  3.20092458e-09  4.60194596e-01  4.60194596e-01  4.60194596e-01  4.60194596e-01  3.18569176e-09  3.37240536e-09  1.62503702e-07  5.05821731e-08  6.40000000e-01 
 6.50000000e-01  3.20092457e-09  4.60194586e-01  4.60194585e-01  4.60194585e-01  4.60194586e-01  3.18569176e-09  3.37240536e-09  1.62503678e-07  5.05821021e-08  6.50000000e-01 
 6.60000000e-01  3.20092459e-09  4.60194586e-01  4.60194586e-01  4.60194586e-01  4.60194586e-01  3.18569181e-09  3.37240530e-09  1.62503692e-07  5.05820452e-08  6.60000000e-01 
 6.70000000e-01  3.20092457e-09  4.60194593e-01  4.60194593e-01  4.60194593e-01  4.60194593e-01  3.18569182e-09  3.37240536e-09  1.62503693e-07  5.05820026e-08  6.70000000e-01 
 6.80000000e-01  3.20092459e-09  4.60194594e-01  4.60194594e-01  4.60194594e-01  4.60194594e-01  3.18569176e-09  3.37240530e-09  1.62503697e-07  5.05818534e-08  6.80000000e-01 
 6.90000000e-01  3.20092457e-09  4.60194592e-01  4.60194592e-01  4.60194592e-01  4.60194592e-01  3.18569176e-09  3.37240530e-09  1.62503685e-07  5.05817681e-08  6.90000000e-01 
 7.00000000e-01  3.20092458e-09  4.60194574e-01  4.60194574e-01  4.60194574e-01  4.60194574e-01  3.18569176e-09  3.37240530e-09  1.62503665e-07  5.05817397e-08  7.00000000e-01 
 7.10000000e-01  3.20092463e-09  4.60194597e-01  4.60194596e-01  4.60194596e-01  4.60194597e-01  3.18569176e-09  3.37240536e-09  1.62503710e-07  5.05817823e-08  7.10000000e-01 
 7.20000000e-01  3.20092457e-09  4.60194591e-01  4.60194591e-01  4.60194591e-01  4.60194591e-01  3.18569176e-09  3.37240530e-09  1.62503701e-07  5.05816757e-08  7.20000000e-01 
 7.30000000e-01  3.20092459e-09  4.60194582e-01  4.60194582e-01  4.60194582e-01  4.60194582e-01  3.18569181e-09  3.37240536e-09  1.62503686e-07  5.05816686e-08  7.30000000e-01 
 7.40000000e-01  3.20092457e-09  4.60194575e-01  4.60194574e-01  4.60194575e-01  4.60194575e-01  3.18569176e-09  3.37240536e-09  1.62503666e-07  5.05815407e-08  7.40000000e-01 
 7.50000000e-01  3.20092458e-09  4.60194576e-01  4.60194576e-01  4.60194576e-01  4.60194576e-01  3.18569176e-09  3.37240530e-09  1.62503670e-07  5.05815763e-08  7.50000000e-01 
 7.60000000e-01  3.20092456e-09  4.60194564e-01  4.60194564e-01  4.60194564e-01  4.60194564e-01  3.18569176e-09  3.37240536e-09  1.62503660e-07  5.05813631e-08  7.60000000e-01 
 7.70000000e-01  3.20092459e-09  4.60194593e-01  4.60194593e-01  4.60194593e-01  4.60194593e-01  3.18569182e-09  3.37240536e-09  1.62503702e-07  5.05813773e-08  7.70000000e-01 
 7.80000000e-01  3.20092463e-09  4.60194608e-01  4.60194608e-01  4.60194608e-01  4.60194608e-01  3.18569176e-09  3.37240530e-09  1.62503722e-07  5.05813986e-08  7.80000000e-01 
 7.90000000e-01  3.20092458e-09  4.60194596e-01  4.60194596e-01  4.60194596e-01  4.60194596e-01  3.18569182e-09  3.37240530e-09  1.62503706e-07  5.05812778e-08  7.90000000e-01 
 8.00000000e-01  3.20092459e-09  4.60194584e-01  4.60194584e-01  4.60194584e-01  4.60194584e-01  3.18569176e-09  3.37240530e-09  1.62503690e-07  5.05811926e-08  8.00000000e-01 
 8.10000000e-01  3.20092457e-09  4.60194587e-01  4.60194587e-01  4.60194587e-01  4.60194587e-01  3.18569176e-09  3.37240530e-09  1.62503688e-07  5.05811926e-08  8.10000000e-01 
 8.20000000e-01  3.20092459e-09  4.60194585e-01  4.60194585e-01  4.60194585e-01  4.60194585e-01  3.18569176e-09  3.37240536e-09  1.62503682e-07  5.05811357e-08  8.20000000e-01 
 8.30000000e-01  3.20092457e-09  4.60194584e-01  4.60194584e-01  4.60194584e-01  4.60194584e-01  3.18569176e-09  3.37240536e-09  1.62503682e-07  5.05809794e-08  8.30000000e-01 
 8.40000000e-01  3.20092459e-09  4.60194589e-01  4.60194589e-01  4.60194589e-01  4.60194589e-01  3.18569176e-09  3.37240530e-09  1.62503692e-07  5.05810434e-08  8.40000000e-01 
 8.50000000e-01  3.20092457e-09  4.60194612e-01  4.60194612e-01  4.60194612e-01  4.60194612e-01  3.18569176e-09  3.37240536e-09  1.62503729e-07  5.05810078e-08  8.50000000e-01 
 8.60000000e-01  3.20092459e-09  4.60194583e-01  4.60194583e-01  4.60194583e-01  4.60194583e-01  3.18569176e-09  3.37240530e-09  1.62503681e-07  5.05807947e-08  8.60000000e-01 
 8.70000000e-01  3.20092457e-09  4.60194582e-01  4.60194582e-01  4.60194582e-01  4.60194582e-01  3.18569181e-09  3.37240530e-09  1.62503687e-07  5.05807520e-08  8.70000000e-01 
 8.80000000e-01  3.20092459e-09  4.60194602e-01  4.60194602e-01  4.60194602e-01  4.60194602e-01  3.18569182e-09  3.37240536e-09  1.62503702e-07  5.05807378e-08  8.80000000e-01 
 8.90000000e-01  3.20092457e-09  4.60194622e-01  4.60194622e-01  4.60194622e-01  4.60194622e-01  3.18569176e-09  3.37240530e-09  1.62503730e-07  5.05806312e-08  8.90000000e-01 
 9.00000000e-01  3.20092459e-09  4.60194590e-01  4.60194590e-01  4.60194590e-01  4.60194590e-01  3.18569176e-09  3.37240536e-09  1.62503693e-07  5.05804749e-08  9.00000000e-01 
 9.10000000e-01  3.20092462e-09  4.60194588e-01  4.60194587e-01  4.60194588e-01  4.60194588e-01  3.18569182e-09  3.37240536e-09  1.62503690e-07  5.05806099e-08  9.10000000e-01 
 9.20000000e-01  3.20092458e-09  4.60194603e-01  4.60194603e-01  4.60194603e-01  4.60194603e-01  3.18569176e-09  3.37240530e-09  1.62503705e-07  5.05806099e-08  9.20000000e-01 
 9.30000000e-01  3.20092459e-09  4.60194600e-01  4.60194600e-01  4.60194600e-01  4.60194600e-01  3.18569176e-09  3.37240530e-09  1.62503712e-07  5.05803897e-08  9.30000000e-01 
 9.40000000e-01  3.20092457e-09  4.60194605e-01  4.60194605e-01  4.60194605e-01  4.60194605e-01  3.18569176e-09  3.37240536e-09  1.62503711e-07  5.05803754e-08  9.40000000e-01 
 9.50000000e-01  3.20092459e-09  4.60194592e-01  4.60194592e-01  4.60194592e-01  4.60194592e-01  3.18569182e-09  3.37240536e-09  1.62503688e-07  5.05803470e-08  9.50000000e-01 
 9.60000000e-01  3.20092457e-09  4.60194589e-01  4.60194588e-01  4.60194588e-01  4.60194589e-01  3.18569176e-09  3.37240530e-09  1.62503697e-07  5.05802831e-08  9.60000000e-01 
 9.70000000e-01  3.20092459e-09  4.60194583e-01  4.60194583e-01  4.60194583e-01  4.60194583e-01  3.18569176e-09  3.37240530e-09  1.62503671e-07  5.05800983e-08  9.70000000e-01 
 9.80000000e-01  3.20092457e-09  4.60194584e-01  4.60194584e-01  4.60194584e-01  4.60194584e-01  3.18569176e-09  3.37240530e-09  1.62503687e-07  5.05800983e-08  9.80000000e-01 
 9.90000000e-01  3.20092459e-09  4.60194603e-01  4.60194603e-01  4.60194603e-01  4.60194603e-01  3.18569182e-09  3.37240536e-09  1.62503711e-07  5.05799704e-08  9.90000000e-01 
 1.00000000e+00  3.20092457e-09  4.60194593e-01  4.60194593e-01  4.60194593e-01  4.60194593e-01  3.18569182e-09  3.37240530e-09  1.62503700e-07  5.05800060e-08  1.00000000e+00 
 1.01000000e+00  3.20092459e-09  4.60194589e-01  4.60194589e-01  4.60194589e-01  4.60194589e-01  3.18569176e-09  3.37240530e-09  1.62503684e-07  5.05798567e-08  1.01000000e+00 
 1.02000000e+00  3.20092457e-09  4.60194584e-01  4.60194584e-01  4.60194584e-01  4.60194584e-01  3.18569176e-09  3.37240536e-09  1.62503694e-07  5.05797786e-08  1.02000000e+00 
 1.03000000e+00  3.20092459e-09  4.60194587e-01  4.60194587e-01  4.60194587e-01  4.60194587e-01  3.18569176e-09  3.37240530e-09  1.62503688e-07  5.05798354e-08  1.03000000e+00 
 1.04000000e+00  3.20092457e-09  4.60194588e-01  4.60194588e-01  4.60194588e-01  4.60194588e-01  3.18569176e-09  3.37240530e-09  1.62503691e-07  5.05796791e-08  1.04000000e+00 
 1.05000000e+00  3.20092459e-09  4.60194603e-01  4.60194602e-01  4.60194603e-01  4.60194603e-01  3.18569176e-09  3.37240530e-09  1.62503705e-07  5.05795512e-08  1.05000000e+00 
 1.06000000e+00  3.20092457e-09  4.60194594e-01  4.60194594e-01  4.60194594e-01  4.60194594e-01  3.18569176e-09  3.37240536e-09  1.62503703e-07  5.05795512e-08  1.06000000e+00 
 1.07000000e+00  3.20092459e-09  4.60194608e-01  4.60194608e-01  4.60194608e-01  4.60194608e-01  3.18569176e-09  3.37240530e-09  1.62503722e-07  5.05795015e-08  1.07000000e+00 
 1.08000000e+00  3.20092457e-09  4.60194605e-01  4.60194605e-01  4.60194605e-01  4.60194605e-01  3.18569176e-09  3.37240530e-09  1.62503718e-07  5.05795015e-08  1.08000000e+00 
 1.09000000e+00  3.20092458e-09  4.60194559e-01  4.60194559e-01  4.60194559e-01  4.60194559e-01  3.18569176e-09  3.37240530e-09  1.62503652e-07  5.05793523e-08  1.09000000e+00 
 1.10000000e+00  3.20092457e-09  4.60194574e-01  4.60194574e-01  4.60194574e-01  4.60194574e-01  3.18569181e-09  3.37240530e-09  1.62503668e-07  5.05792812e-08  1.10000000e+00 
