 v-sweep         v(b0)           v(b1)           v(b2)           v(b3)           v(b4)           v(b5)           v(b6)           i(vbias)        i(viout)        v(vout)        
 0.00000000e+00  3.42326196e-09  3.26512902e-09  4.58688624e-01  3.55253654e-09  4.58688624e-01  3.46368696e-09  3.41624970e-09  1.60010487e-07  2.93727950e-08  0.00000000e+00 
 1.00000000e-02  3.42326199e-09  3.26512905e-09  4.58688577e-01  3.55253651e-09  4.58688577e-01  3.46368698e-09  3.41624973e-09  1.60010429e-07  2.93723723e-08  1.00000000e-02 
 2.00000000e-02  3.42326199e-09  3.26512904e-09  4.58688598e-01  3.55253652e-09  4.58688598e-01  3.46368699e-09  3.41624967e-09  1.60010462e-07  2.93719702e-08  2.00000000e-02 
 3.00000000e-02  3.42326199e-09  3.26512904e-09  4.58688583e-01  3.55253657e-09  4.58688583e-01  3.46368698e-09  3.41624973e-09  1.60010444e-07  2.93716069e-08  3.00000000e-02 
 4.00000000e-02  3.42326199e-09  3.26512905e-09  4.58688616e-01  3.55253651e-09  4.58688616e-01  3.46368699e-09  3.41624973e-09  1.60010497e-07  2.93712779e-08  4.00000000e-02 
 5.00000000e-02  3.42326199e-09  3.26512910e-09  4.58688602e-01  3.55253652e-09  4.58688602e-01  3.46368705e-09  3.41624973e-09  1.60010463e-07  2.93708697e-08  5.00000000e-02 
 6.00000000e-02  3.42326199e-09  3.26512904e-09  4.58688595e-01  3.55253652e-09  4.58688594e-01  3.46368698e-09  3.41624967e-09  1.60010455e-07  2.93706157e-08  6.00000000e-02 
 7.00000000e-02  3.42326193e-09  3.26512904e-09  4.58688592e-01  3.55253657e-09  4.58688592e-01  3.46368699e-09  3.41624973e-09  1.60010436e-07  2.93703839e-08  7.00000000e-02 
 8.00000000e-02  3.42326194e-09  3.26512904e-09  4.58688595e-01  3.55253656e-09  4.58688595e-01  3.46368699e-09  3.41624973e-09  1.60010456e-07  2.93700957e-08  8.00000000e-02 
 9.00000000e-02  3.42326198e-09  3.26512904e-09  4.58688595e-01  3.55253651e-09  4.58688594e-01  3.46368699e-09  3.41624973e-09  1.60010449e-07  2.93697973e-08  9.00000000e-02 
 1.00000000e-01  3.42326193e-09  3.26512904e-09  4.58688610e-01  3.55253652e-09  4.58688610e-01  3.46368699e-09  3.41624973e-09  1.60010475e-07  2.93694358e-08  1.00000000e-01 
 1.10000000e-01  3.42326194e-09  3.26512904e-09  4.58688585e-01  3.55253652e-09  4.58688585e-01  3.46368699e-09  3.41624973e-09  1.60010439e-07  2.93693363e-08  1.10000000e-01 
 1.20000000e-01  3.42326198e-09  3.26512910e-09  4.58688599e-01  3.55253652e-09  4.58688599e-01  3.46368699e-09  3.41624973e-09  1.60010461e-07  2.93690343e-08  1.20000000e-01 
 1.30000000e-01  3.42326199e-09  3.26512904e-09  4.58688607e-01  3.55253652e-09  4.58688607e-01  3.46368699e-09  3.41624967e-09  1.60010481e-07  2.93689659e-08  1.30000000e-01 
 1.40000000e-01  3.42326199e-09  3.26512904e-09  4.58688599e-01  3.55253652e-09  4.58688599e-01  3.46368699e-09  3.41624973e-09  1.60010463e-07  2.93686213e-08  1.40000000e-01 
 1.50000000e-01  3.42326199e-09  3.26512904e-09  4.58688589e-01  3.55253652e-09  4.58688589e-01  3.46368704e-09  3.41624973e-09  1.60010449e-07  2.93684312e-08  1.50000000e-01 
 1.60000000e-01  3.42326199e-09  3.26512904e-09  4.58688610e-01  3.55253652e-09  4.58688610e-01  3.46368698e-09  3.41624973e-09  1.60010479e-07  2.93682891e-08  1.60000000e-01 
 1.70000000e-01  3.42326199e-09  3.26512904e-09  4.58688600e-01  3.55253657e-09  4.58688600e-01  3.46368699e-09  3.41624967e-09  1.60010459e-07  2.93680706e-08  1.70000000e-01 
 1.80000000e-01  3.42326193e-09  3.26512905e-09  4.58688616e-01  3.55253651e-09  4.58688616e-01  3.46368699e-09  3.41624973e-09  1.60010484e-07  2.93680102e-08  1.80000000e-01 
 1.90000000e-01  3.42326200e-09  3.26512904e-09  4.58688599e-01  3.55253652e-09  4.58688598e-01  3.46368699e-09  3.41624973e-09  1.60010452e-07  2.93678077e-08  1.90000000e-01 
 2.00000000e-01  3.42326198e-09  3.26512905e-09  4.58688616e-01  3.55253652e-09  4.58688616e-01  3.46368699e-09  3.41624967e-09  1.60010482e-07  2.93676319e-08  2.00000000e-01 
 2.10000000e-01  3.42326199e-09  3.26512904e-09  4.58688583e-01  3.55253652e-09  4.58688583e-01  3.46368698e-09  3.41624967e-09  1.60010442e-07  2.93673974e-08  2.10000000e-01 
 2.20000000e-01  3.42326199e-09  3.26512904e-09  4.58688594e-01  3.55253657e-09  4.58688594e-01  3.46368699e-09  3.41624967e-09  1.60010454e-07  2.93672944e-08  2.20000000e-01 
 2.30000000e-01  3.42326199e-09  3.26512905e-09  4.58688614e-01  3.55253651e-09  4.58688614e-01  3.46368699e-09  3.41624967e-09  1.60010483e-07  2.93670794e-08  2.30000000e-01 
 2.40000000e-01  3.42326193e-09  3.26512904e-09  4.58688576e-01  3.55253652e-09  4.58688576e-01  3.46368698e-09  3.41624967e-09  1.60010430e-07  2.93671540e-08  2.40000000e-01 
 2.50000000e-01  3.42326200e-09  3.26512910e-09  4.58688574e-01  3.55253657e-09  4.58688573e-01  3.46368698e-09  3.41624973e-09  1.60010429e-07  2.93669640e-08  2.50000000e-01 
 2.60000000e-01  3.42326192e-09  3.26512905e-09  4.58688613e-01  3.55253651e-09  4.58688613e-01  3.46368699e-09  3.41624967e-09  1.60010482e-07  2.93668130e-08  2.60000000e-01 
 2.70000000e-01  3.42326200e-09  3.26512904e-09  4.58688605e-01  3.55253652e-09  4.58688605e-01  3.46368699e-09  3.41624967e-09  1.60010460e-07  2.93666069e-08  2.70000000e-01 
 2.80000000e-01  3.42326192e-09  3.26512904e-09  4.58688592e-01  3.55253652e-09  4.58688592e-01  3.46368699e-09  3.41624967e-09  1.60010449e-07  2.93665856e-08  2.80000000e-01 
 2.90000000e-01  3.42326194e-09  3.26512904e-09  4.58688594e-01  3.55253652e-09  4.58688594e-01  3.46368699e-09  3.41624967e-09  1.60010460e-07  2.93664613e-08  2.90000000e-01 
 3.00000000e-01  3.42326198e-09  3.26512910e-09  4.58688604e-01  3.55253652e-09  4.58688604e-01  3.46368699e-09  3.41624973e-09  1.60010471e-07  2.93664080e-08  3.00000000e-01 
 3.10000000e-01  3.42326193e-09  3.26512910e-09  4.58688589e-01  3.55253652e-09  4.58688589e-01  3.46368699e-09  3.41624967e-09  1.60010444e-07  2.93662410e-08  3.10000000e-01 
 3.20000000e-01  3.42326200e-09  3.26512910e-09  4.58688590e-01  3.55253652e-09  4.58688590e-01  3.46368699e-09  3.41624973e-09  1.60010452e-07  2.93661344e-08  3.20000000e-01 
 3.30000000e-01  3.42326198e-09  3.26512910e-09  4.58688600e-01  3.55253657e-09  4.58688600e-01  3.46368699e-09  3.41624967e-09  1.60010461e-07  2.93660740e-08  3.30000000e-01 
 3.40000000e-01  3.42326193e-09  3.26512910e-09  4.58688596e-01  3.55253651e-09  4.58688596e-01  3.46368699e-09  3.41624973e-09  1.60010457e-07  2.93660136e-08  3.40000000e-01 
 3.50000000e-01  3.42326200e-09  3.26512904e-09  4.58688598e-01  3.55253652e-09  4.58688598e-01  3.46368699e-09  3.41624967e-09  1.60010451e-07  2.93657543e-08  3.50000000e-01 
 3.60000000e-01  3.42326198e-09  3.26512910e-09  4.58688584e-01  3.55253652e-09  4.58688584e-01  3.46368698e-09  3.41624973e-09  1.60010430e-07  2.93657969e-08  3.60000000e-01 
 3.70000000e-01  3.42326199e-09  3.26512904e-09  4.58688583e-01  3.55253652e-09  4.58688583e-01  3.46368704e-09  3.41624967e-09  1.60010451e-07  2.93657543e-08  3.70000000e-01 
 3.80000000e-01  3.42326199e-09  3.26512904e-09  4.58688590e-01  3.55253652e-09  4.58688590e-01  3.46368703e-09  3.41624973e-09  1.60010438e-07  2.93656086e-08  3.80000000e-01 
 3.90000000e-01  3.42326199e-09  3.26512904e-09  4.58688587e-01  3.55253657e-09  4.58688587e-01  3.46368704e-09  3.41624973e-09  1.60010448e-07  2.93654949e-08  3.90000000e-01 
 4.00000000e-01  3.42326193e-09  3.26512904e-09  4.58688600e-01  3.55253651e-09  4.58688599e-01  3.46368698e-09  3.41624967e-09  1.60010453e-07  2.93654558e-08  4.00000000e-01 
 4.10000000e-01  3.42326194e-09  3.26512904e-09  4.58688593e-01  3.55253652e-09  4.58688593e-01  3.46368699e-09  3.41624973e-09  1.60010461e-07  2.93654381e-08  4.10000000e-01 
 4.20000000e-01  3.42326198e-09  3.26512904e-09  4.58688571e-01  3.55253657e-09  4.58688571e-01  3.46368698e-09  3.41624973e-09  1.60010419e-07  2.93654203e-08  4.20000000e-01 
 4.30000000e-01  3.42326199e-09  3.26512904e-09  4.58688597e-01  3.55253651e-09  4.58688597e-01  3.46368699e-09  3.41624967e-09  1.60010450e-07  2.93652676e-08  4.30000000e-01 
 4.40000000e-01  3.42326199e-09  3.26512910e-09  4.58688615e-01  3.55253652e-09  4.58688615e-01  3.46368699e-09  3.41624973e-09  1.60010484e-07  2.93652604e-08  4.40000000e-01 
 4.50000000e-01  3.42326199e-09  3.26512910e-09  4.58688601e-01  3.55253652e-09  4.58688601e-01  3.46368699e-09  3.41624967e-09  1.60010457e-07  2.93652711e-08  4.50000000e-01 
 4.60000000e-01  3.42326199e-09  3.26512910e-09  4.58688609e-01  3.55253652e-09  4.58688609e-01  3.46368699e-09  3.41624973e-09  1.60010466e-07  2.93651645e-08  4.60000000e-01 
 4.70000000e-01  3.42326199e-09  3.26512905e-09  4.58688619e-01  3.55253652e-09  4.58688619e-01  3.46368699e-09  3.41624967e-09  1.60010490e-07  2.93650970e-08  4.70000000e-01 
 4.80000000e-01  3.42326199e-09  3.26512910e-09  4.58688597e-01  3.55253652e-09  4.58688597e-01  3.46368699e-09  3.41624967e-09  1.60010459e-07  2.93649798e-08  4.80000000e-01 
 4.90000000e-01  3.42326199e-09  3.26512904e-09  4.58688596e-01  3.55253657e-09  4.58688596e-01  3.46368699e-09  3.41624973e-09  1.60010456e-07  2.93650082e-08  4.90000000e-01 
 5.00000000e-01  3.42326199e-09  3.26512904e-09  4.58688603e-01  3.55253656e-09  4.58688603e-01  3.46368699e-09  3.41624973e-09  1.60010468e-07  2.93648235e-08  5.00000000e-01 
 5.10000000e-01  3.42326193e-09  3.26512904e-09  4.58688578e-01  3.55253651e-09  4.58688578e-01  3.46368698e-09  3.41624967e-09  1.60010440e-07  2.93647808e-08  5.10000000e-01 
 5.20000000e-01  3.42326200e-09  3.26512904e-09  4.58688580e-01  3.55253652e-09  4.58688580e-01  3.46368698e-09  3.41624967e-09  1.60010429e-07  2.93647169e-08  5.20000000e-01 
 5.30000000e-01  3.42326198e-09  3.26512904e-09  4.58688600e-01  3.55253657e-09  4.58688600e-01  3.46368699e-09  3.41624967e-09  1.60010466e-07  2.93646210e-08  5.30000000e-01 
 5.40000000e-01  3.42326199e-09  3.26512904e-09  4.58688609e-01  3.55253656e-09  4.58688608e-01  3.46368699e-09  3.41624973e-09  1.60010469e-07  2.93646423e-08  5.40000000e-01 
 5.50000000e-01  3.42326199e-09  3.26512910e-09  4.58688601e-01  3.55253651e-09  4.58688601e-01  3.46368699e-09  3.41624973e-09  1.60010468e-07  2.93646920e-08  5.50000000e-01 
 5.60000000e-01  3.42326199e-09  3.26512905e-09  4.58688614e-01  3.55253652e-09  4.58688614e-01  3.46368699e-09  3.41624973e-09  1.60010483e-07  2.93644469e-08  5.60000000e-01 
 5.70000000e-01  3.42326199e-09  3.26512910e-09  4.58688592e-01  3.55253652e-09  4.58688592e-01  3.46368699e-09  3.41624967e-09  1.60010447e-07  2.93644433e-08  5.70000000e-01 
 5.80000000e-01  3.42326199e-09  3.26512904e-09  4.58688598e-01  3.55253652e-09  4.58688598e-01  3.46368699e-09  3.41624973e-09  1.60010468e-07  2.93643936e-08  5.80000000e-01 
 5.90000000e-01  3.42326199e-09  3.26512904e-09  4.58688601e-01  3.55253652e-09  4.58688601e-01  3.46368699e-09  3.41624967e-09  1.60010468e-07  2.93642870e-08  5.90000000e-01 
 6.00000000e-01  3.42326198e-09  3.26512904e-09  4.58688576e-01  3.55253657e-09  4.58688576e-01  3.46368698e-09  3.41624973e-09  1.60010419e-07  2.93643225e-08  6.00000000e-01 
 6.10000000e-01  3.42326193e-09  3.26512904e-09  4.58688588e-01  3.55253650e-09  4.58688588e-01  3.46368699e-09  3.41624967e-09  1.60010447e-07  2.93642941e-08  6.10000000e-01 
 6.20000000e-01  3.42326200e-09  3.26512904e-09  4.58688572e-01  3.55253652e-09  4.58688572e-01  3.46368698e-09  3.41624973e-09  1.60010423e-07  2.93642373e-08  6.20000000e-01 
 6.30000000e-01  3.42326198e-09  3.26512905e-09  4.58688621e-01  3.55253658e-09  4.58688621e-01  3.46368699e-09  3.41624967e-09  1.60010490e-07  2.93641946e-08  6.30000000e-01 
 6.40000000e-01  3.42326193e-09  3.26512904e-09  4.58688596e-01  3.55253656e-09  4.58688596e-01  3.46368699e-09  3.41624967e-09  1.60010465e-07  2.93640312e-08  6.40000000e-01 
 6.50000000e-01  3.42326194e-09  3.26512905e-09  4.58688613e-01  3.55253657e-09  4.58688613e-01  3.46368699e-09  3.41624973e-09  1.60010482e-07  2.93641449e-08  6.50000000e-01 
 6.60000000e-01  3.42326198e-09  3.26512910e-09  4.58688591e-01  3.55253651e-09  4.58688591e-01  3.46368699e-09  3.41624973e-09  1.60010462e-07  2.93639459e-08  6.60000000e-01 
 6.70000000e-01  3.42326193e-09  3.26512904e-09  4.58688588e-01  3.55253652e-09  4.58688588e-01  3.46368699e-09  3.41624967e-09  1.60010446e-07  2.93639673e-08  6.70000000e-01 
 6.80000000e-01  3.42326194e-09  3.26512904e-09  4.58688589e-01  3.55253652e-09  4.58688589e-01  3.46368699e-09  3.41624967e-09  1.60010446e-07  2.93639175e-08  6.80000000e-01 
 6.90000000e-01  3.42326198e-09  3.26512904e-09  4.58688603e-01  3.55253657e-09  4.58688603e-01  3.46368699e-09  3.41624973e-09  1.60010459e-07  2.93636830e-08  6.90000000e-01 
 7.00000000e-01  3.42326193e-09  3.26512904e-09  4.58688587e-01  3.55253656e-09  4.58688587e-01  3.46368699e-09  3.41624967e-09  1.60010439e-07  2.93637967e-08  7.00000000e-01 
 7.10000000e-01  3.42326200e-09  3.26512910e-09  4.58688579e-01  3.55253651e-09  4.58688579e-01  3.46368698e-09  3.41624973e-09  1.60010445e-07  2.93637257e-08  7.10000000e-01 
 7.20000000e-01  3.42326198e-09  3.26512904e-09  4.58688610e-01  3.55253652e-09  4.58688610e-01  3.46368699e-09  3.41624973e-09  1.60010467e-07  2.93636830e-08  7.20000000e-01 
 7.30000000e-01  3.42326193e-09  3.26512904e-09  4.58688600e-01  3.55253652e-09  4.58688600e-01  3.46368699e-09  3.41624967e-09  1.60010446e-07  2.93635196e-08  7.30000000e-01 
 7.40000000e-01  3.42326194e-09  3.26512904e-09  4.58688597e-01  3.55253652e-09  4.58688597e-01  3.46368699e-09  3.41624973e-09  1.60010451e-07  2.93636688e-08  7.40000000e-01 
 7.50000000e-01  3.42326198e-09  3.26512904e-09  4.58688597e-01  3.55253652e-09  4.58688597e-01  3.46368699e-09  3.41624973e-09  1.60010463e-07  2.93635836e-08  7.50000000e-01 
 7.60000000e-01  3.42326199e-09  3.26512904e-09  4.58688587e-01  3.55253652e-09  4.58688587e-01  3.46368699e-09  3.41624967e-09  1.60010441e-07  2.93634059e-08  7.60000000e-01 
 7.70000000e-01  3.42326199e-09  3.26512904e-09  4.58688594e-01  3.55253652e-09  4.58688594e-01  3.46368699e-09  3.41624973e-09  1.60010471e-07  2.93632709e-08  7.70000000e-01 
 7.80000000e-01  3.42326199e-09  3.26512905e-09  4.58688618e-01  3.55253652e-09  4.58688618e-01  3.46368699e-09  3.41624973e-09  1.60010487e-07  2.93633846e-08  7.80000000e-01 
 7.90000000e-01  3.42326193e-09  3.26512910e-09  4.58688583e-01  3.55253652e-09  4.58688582e-01  3.46368698e-09  3.41624967e-09  1.60010433e-07  2.93632567e-08  7.90000000e-01 
 8.00000000e-01  3.42326200e-09  3.26512904e-09  4.58688585e-01  3.55253652e-09  4.58688585e-01  3.46368699e-09  3.41624973e-09  1.60010434e-07  2.93632141e-08  8.00000000e-01 
 8.10000000e-01  3.42326198e-09  3.26512904e-09  4.58688605e-01  3.55253657e-09  4.58688605e-01  3.46368699e-09  3.41624973e-09  1.60010463e-07  2.93632354e-08  8.10000000e-01 
 8.20000000e-01  3.42326198e-09  3.26512910e-09  4.58688573e-01  3.55253656e-09  4.58688573e-01  3.46368698e-09  3.41624967e-09  1.60010434e-07  2.93631714e-08  8.20000000e-01 
 8.30000000e-01  3.42326199e-09  3.26512910e-09  4.58688577e-01  3.55253651e-09  4.58688577e-01  3.46368698e-09  3.41624973e-09  1.60010424e-07  2.93629867e-08  8.30000000e-01 
 8.40000000e-01  3.42326199e-09  3.26512904e-09  4.58688588e-01  3.55253652e-09  4.58688588e-01  3.46368699e-09  3.41624967e-09  1.60010463e-07  2.93631786e-08  8.40000000e-01 
 8.50000000e-01  3.42326199e-09  3.26512910e-09  4.58688602e-01  3.55253652e-09  4.58688601e-01  3.46368705e-09  3.41624967e-09  1.60010465e-07  2.93630222e-08  8.50000000e-01 
 8.60000000e-01  3.42326199e-09  3.26512904e-09  4.58688603e-01  3.55253652e-09  4.58688603e-01  3.46368698e-09  3.41624967e-09  1.60010466e-07  2.93630720e-08  8.60000000e-01 
 8.70000000e-01  3.42326199e-09  3.26512904e-09  4.58688598e-01  3.55253652e-09  4.58688598e-01  3.46368699e-09  3.41624973e-09  1.60010461e-07  2.93629583e-08  8.70000000e-01 
 8.80000000e-01  3.42326199e-09  3.26512904e-09  4.58688591e-01  3.55253652e-09  4.58688591e-01  3.46368699e-09  3.41624967e-09  1.60010454e-07  2.93628162e-08  8.80000000e-01 
 8.90000000e-01  3.42326199e-09  3.26512910e-09  4.58688608e-01  3.55253652e-09  4.58688608e-01  3.46368699e-09  3.41624967e-09  1.60010472e-07  2.93626741e-08  8.90000000e-01 
 9.00000000e-01  3.42326199e-09  3.26512910e-09  4.58688593e-01  3.55253652e-09  4.58688593e-01  3.46368699e-09  3.41624973e-09  1.60010452e-07  2.93627451e-08  9.00000000e-01 
 9.10000000e-01  3.42326199e-09  3.26512910e-09  4.58688584e-01  3.55253652e-09  4.58688584e-01  3.46368698e-09  3.41624967e-09  1.60010439e-07  2.93627167e-08  9.10000000e-01 
 9.20000000e-01  3.42326199e-09  3.26512910e-09  4.58688587e-01  3.55253652e-09  4.58688586e-01  3.46368699e-09  3.41624973e-09  1.60010443e-07  2.93625675e-08  9.20000000e-01 
 9.30000000e-01  3.42326199e-09  3.26512904e-09  4.58688582e-01  3.55253652e-09  4.58688582e-01  3.46368698e-09  3.41624973e-09  1.60010427e-07  2.93625391e-08  9.30000000e-01 
 9.40000000e-01  3.42326199e-09  3.26512904e-09  4.58688599e-01  3.55253652e-09  4.58688599e-01  3.46368699e-09  3.41624967e-09  1.60010462e-07  2.93624183e-08  9.40000000e-01 
 9.50000000e-01  3.42326199e-09  3.26512910e-09  4.58688591e-01  3.55253652e-09  4.58688591e-01  3.46368699e-09  3.41624967e-09  1.60010460e-07  2.93624325e-08  9.50000000e-01 
 9.60000000e-01  3.42326198e-09  3.26512904e-09  4.58688575e-01  3.55253657e-09  4.58688575e-01  3.46368698e-09  3.41624967e-09  1.60010423e-07  2.93623472e-08  9.60000000e-01 
 9.70000000e-01  3.42326199e-09  3.26512904e-09  4.58688608e-01  3.55253651e-09  4.58688608e-01  3.46368699e-09  3.41624973e-09  1.60010470e-07  2.93623330e-08  9.70000000e-01 
 9.80000000e-01  3.42326193e-09  3.26512904e-09  4.58688601e-01  3.55253652e-09  4.58688601e-01  3.46368705e-09  3.41624973e-09  1.60010457e-07  2.93622620e-08  9.80000000e-01 
 9.90000000e-01  3.42326194e-09  3.26512904e-09  4.58688608e-01  3.55253652e-09  4.58688608e-01  3.46368698e-09  3.41624973e-09  1.60010463e-07  2.93621198e-08  9.90000000e-01 
 1.00000000e+00  3.42326198e-09  3.26512904e-09  4.58688582e-01  3.55253652e-09  4.58688582e-01  3.46368699e-09  3.41624967e-09  1.60010430e-07  2.93621270e-08  1.00000000e+00 
 1.01000000e+00  3.42326199e-09  3.26512905e-09  4.58688623e-01  3.55253652e-09  4.58688623e-01  3.46368699e-09  3.41624967e-09  1.60010499e-07  2.93622335e-08  1.01000000e+00 
 1.02000000e+00  3.42326199e-09  3.26512904e-09  4.58688589e-01  3.55253652e-09  4.58688589e-01  3.46368699e-09  3.41624973e-09  1.60010445e-07  2.93620559e-08  1.02000000e+00 
 1.03000000e+00  3.42326199e-09  3.26512910e-09  4.58688584e-01  3.55253652e-09  4.58688584e-01  3.46368698e-09  3.41624967e-09  1.60010431e-07  2.93619635e-08  1.03000000e+00 
 1.04000000e+00  3.42326193e-09  3.26512905e-09  4.58688615e-01  3.55253652e-09  4.58688615e-01  3.46368699e-09  3.41624967e-09  1.60010490e-07  2.93618641e-08  1.04000000e+00 
 1.05000000e+00  3.42326200e-09  3.26512904e-09  4.58688594e-01  3.55253652e-09  4.58688594e-01  3.46368699e-09  3.41624973e-09  1.60010454e-07  2.93618427e-08  1.05000000e+00 
 1.06000000e+00  3.42326198e-09  3.26512910e-09  4.58688589e-01  3.55253652e-09  4.58688589e-01  3.46368699e-09  3.41624973e-09  1.60010448e-07  2.93618001e-08  1.06000000e+00 
 1.07000000e+00  3.42326193e-09  3.26512910e-09  4.58688576e-01  3.55253652e-09  4.58688576e-01  3.46368698e-09  3.41624967e-09  1.60010418e-07  2.93617148e-08  1.07000000e+00 
 1.08000000e+00  3.42326200e-09  3.26512904e-09  4.58688595e-01  3.55253652e-09  4.58688595e-01  3.46368699e-09  3.41624973e-09  1.60010457e-07  2.93615869e-08  1.08000000e+00 
 1.09000000e+00  3.42326198e-09  3.26512904e-09  4.58688590e-01  3.55253652e-09  4.58688590e-01  3.46368699e-09  3.41624967e-09  1.60010436e-07  2.93616296e-08  1.09000000e+00 
 1.10000000e+00  3.42326193e-09  3.26512904e-09  4.58688599e-01  3.55253652e-09  4.58688598e-01  3.46368699e-09  3.41624973e-09  1.60010453e-07  2.93615727e-08  1.10000000e+00 
