 v-sweep         v(b0)           v(b1)           v(b2)           v(b3)           v(b4)           v(b5)           v(b6)           i(vbias)        i(viout)        v(vout)        
 0.00000000e+00  4.59478329e-01  3.26305723e-09  4.59478329e-01  3.34065824e-09  4.59478329e-01  4.59478329e-01  3.37390865e-09  1.63709804e-07  8.05487896e-08  0.00000000e+00 
 1.00000000e-02  4.59478310e-01  3.26305721e-09  4.59478310e-01  3.34065827e-09  4.59478310e-01  4.59478310e-01  3.37390863e-09  1.63709779e-07  8.05483567e-08  1.00000000e-02 
 2.00000000e-02  4.59478316e-01  3.26305728e-09  4.59478316e-01  3.34065827e-09  4.59478316e-01  4.59478316e-01  3.37390863e-09  1.63709772e-07  8.05479696e-08  2.00000000e-02 
 3.00000000e-02  4.59478316e-01  3.26305727e-09  4.59478316e-01  3.34065827e-09  4.59478316e-01  4.59478316e-01  3.37390863e-09  1.63709793e-07  8.05475842e-08  3.00000000e-02 
 4.00000000e-02  4.59478304e-01  3.26305721e-09  4.59478305e-01  3.34065827e-09  4.59478305e-01  4.59478305e-01  3.37390863e-09  1.63709762e-07  8.05472102e-08  4.00000000e-02 
 5.00000000e-02  4.59478326e-01  3.26305723e-09  4.59478326e-01  3.34065828e-09  4.59478326e-01  4.59478326e-01  3.37390863e-09  1.63709808e-07  8.05469473e-08  5.00000000e-02 
 6.00000000e-02  4.59478285e-01  3.26305726e-09  4.59478285e-01  3.34065827e-09  4.59478285e-01  4.59478285e-01  3.37390857e-09  1.63709743e-07  8.05465366e-08  6.00000000e-02 
 7.00000000e-02  4.59478327e-01  3.26305722e-09  4.59478328e-01  3.34065828e-09  4.59478328e-01  4.59478328e-01  3.37390863e-09  1.63709812e-07  8.05462990e-08  7.00000000e-02 
 8.00000000e-02  4.59478341e-01  3.26305723e-09  4.59478341e-01  3.34065828e-09  4.59478341e-01  4.59478341e-01  3.37390863e-09  1.63709824e-07  8.05461058e-08  8.00000000e-02 
 9.00000000e-02  4.59478298e-01  3.26305726e-09  4.59478298e-01  3.34065827e-09  4.59478298e-01  4.59478298e-01  3.37390863e-09  1.63709752e-07  8.05457034e-08  9.00000000e-02 
 1.00000000e-01  4.59478319e-01  3.26305721e-09  4.59478319e-01  3.34065828e-09  4.59478319e-01  4.59478319e-01  3.37390863e-09  1.63709796e-07  8.05454912e-08  1.00000000e-01 
 1.10000000e-01  4.59478289e-01  3.26305728e-09  4.59478290e-01  3.34065827e-09  4.59478290e-01  4.59478290e-01  3.37390857e-09  1.63709749e-07  8.05451608e-08  1.10000000e-01 
 1.20000000e-01  4.59478324e-01  3.26305727e-09  4.59478324e-01  3.34065828e-09  4.59478324e-01  4.59478324e-01  3.37390863e-09  1.63709802e-07  8.05449174e-08  1.20000000e-01 
 1.30000000e-01  4.59478309e-01  3.26305727e-09  4.59478309e-01  3.34065833e-09  4.59478309e-01  4.59478309e-01  3.37390863e-09  1.63709777e-07  8.05446376e-08  1.30000000e-01 
 1.40000000e-01  4.59478314e-01  3.26305727e-09  4.59478314e-01  3.34065827e-09  4.59478314e-01  4.59478314e-01  3.37390863e-09  1.63709789e-07  8.05443792e-08  1.40000000e-01 
 1.50000000e-01  4.59478317e-01  3.26305721e-09  4.59478318e-01  3.34065828e-09  4.59478318e-01  4.59478318e-01  3.37390863e-09  1.63709798e-07  8.05441811e-08  1.50000000e-01 
 1.60000000e-01  4.59478331e-01  3.26305728e-09  4.59478331e-01  3.34065828e-09  4.59478331e-01  4.59478331e-01  3.37390863e-09  1.63709809e-07  8.05441296e-08  1.60000000e-01 
 1.70000000e-01  4.59478333e-01  3.26305727e-09  4.59478333e-01  3.34065828e-09  4.59478333e-01  4.59478333e-01  3.37390863e-09  1.63709815e-07  8.05439200e-08  1.70000000e-01 
 1.80000000e-01  4.59478316e-01  3.26305727e-09  4.59478316e-01  3.34065827e-09  4.59478316e-01  4.59478316e-01  3.37390863e-09  1.63709794e-07  8.05437068e-08  1.80000000e-01 
 1.90000000e-01  4.59478333e-01  3.26305727e-09  4.59478334e-01  3.34065828e-09  4.59478334e-01  4.59478334e-01  3.37390863e-09  1.63709813e-07  8.05435327e-08  1.90000000e-01 
 2.00000000e-01  4.59478300e-01  3.26305721e-09  4.59478301e-01  3.34065827e-09  4.59478300e-01  4.59478300e-01  3.37390857e-09  1.63709753e-07  8.05432894e-08  2.00000000e-01 
 2.10000000e-01  4.59478333e-01  3.26305728e-09  4.59478334e-01  3.34065828e-09  4.59478334e-01  4.59478334e-01  3.37390857e-09  1.63709807e-07  8.05431863e-08  2.10000000e-01 
 2.20000000e-01  4.59478325e-01  3.26305727e-09  4.59478325e-01  3.34065828e-09  4.59478325e-01  4.59478325e-01  3.37390863e-09  1.63709800e-07  8.05429679e-08  2.20000000e-01 
 2.30000000e-01  4.59478305e-01  3.26305721e-09  4.59478305e-01  3.34065827e-09  4.59478305e-01  4.59478305e-01  3.37390863e-09  1.63709777e-07  8.05429057e-08  2.30000000e-01 
 2.40000000e-01  4.59478327e-01  3.26305723e-09  4.59478327e-01  3.34065828e-09  4.59478327e-01  4.59478327e-01  3.37390863e-09  1.63709809e-07  8.05426925e-08  2.40000000e-01 
 2.50000000e-01  4.59478301e-01  3.26305726e-09  4.59478302e-01  3.34065827e-09  4.59478302e-01  4.59478302e-01  3.37390863e-09  1.63709768e-07  8.05425184e-08  2.50000000e-01 
 2.60000000e-01  4.59478309e-01  3.26305721e-09  4.59478309e-01  3.34065827e-09  4.59478309e-01  4.59478309e-01  3.37390863e-09  1.63709787e-07  8.05424776e-08  2.60000000e-01 
 2.70000000e-01  4.59478304e-01  3.26305728e-09  4.59478304e-01  3.34065827e-09  4.59478304e-01  4.59478304e-01  3.37390863e-09  1.63709781e-07  8.05423195e-08  2.70000000e-01 
 2.80000000e-01  4.59478336e-01  3.26305727e-09  4.59478336e-01  3.34065828e-09  4.59478336e-01  4.59478336e-01  3.37390863e-09  1.63709804e-07  8.05423070e-08  2.80000000e-01 
 2.90000000e-01  4.59478301e-01  3.26305721e-09  4.59478301e-01  3.34065827e-09  4.59478301e-01  4.59478301e-01  3.37390863e-09  1.63709760e-07  8.05419980e-08  2.90000000e-01 
 3.00000000e-01  4.59478321e-01  3.26305723e-09  4.59478322e-01  3.34065828e-09  4.59478321e-01  4.59478321e-01  3.37390863e-09  1.63709800e-07  8.05420939e-08  3.00000000e-01 
 3.10000000e-01  4.59478324e-01  3.26305721e-09  4.59478324e-01  3.34065828e-09  4.59478324e-01  4.59478324e-01  3.37390863e-09  1.63709804e-07  8.05418026e-08  3.10000000e-01 
 3.20000000e-01  4.59478331e-01  3.26305723e-09  4.59478332e-01  3.34065828e-09  4.59478332e-01  4.59478332e-01  3.37390863e-09  1.63709801e-07  8.05417741e-08  3.20000000e-01 
 3.30000000e-01  4.59478322e-01  3.26305727e-09  4.59478322e-01  3.34065828e-09  4.59478322e-01  4.59478322e-01  3.37390857e-09  1.63709790e-07  8.05415681e-08  3.30000000e-01 
 3.40000000e-01  4.59478319e-01  3.26305727e-09  4.59478319e-01  3.34065828e-09  4.59478319e-01  4.59478319e-01  3.37390863e-09  1.63709795e-07  8.05414615e-08  3.40000000e-01 
 3.50000000e-01  4.59478309e-01  3.26305721e-09  4.59478309e-01  3.34065833e-09  4.59478309e-01  4.59478309e-01  3.37390863e-09  1.63709779e-07  8.05414544e-08  3.50000000e-01 
 3.60000000e-01  4.59478310e-01  3.26305723e-09  4.59478310e-01  3.34065827e-09  4.59478310e-01  4.59478310e-01  3.37390863e-09  1.63709774e-07  8.05413585e-08  3.60000000e-01 
 3.70000000e-01  4.59478323e-01  3.26305728e-09  4.59478323e-01  3.34065828e-09  4.59478323e-01  4.59478323e-01  3.37390863e-09  1.63709790e-07  8.05412839e-08  3.70000000e-01 
 3.80000000e-01  4.59478327e-01  3.26305721e-09  4.59478328e-01  3.34065828e-09  4.59478328e-01  4.59478328e-01  3.37390863e-09  1.63709809e-07  8.05411631e-08  3.80000000e-01 
 3.90000000e-01  4.59478332e-01  3.26305728e-09  4.59478332e-01  3.34065828e-09  4.59478332e-01  4.59478332e-01  3.37390863e-09  1.63709811e-07  8.05410885e-08  3.90000000e-01 
 4.00000000e-01  4.59478316e-01  3.26305727e-09  4.59478316e-01  3.34065827e-09  4.59478316e-01  4.59478316e-01  3.37390863e-09  1.63709782e-07  8.05410032e-08  4.00000000e-01 
 4.10000000e-01  4.59478320e-01  3.26305727e-09  4.59478320e-01  3.34065828e-09  4.59478320e-01  4.59478320e-01  3.37390863e-09  1.63709795e-07  8.05409464e-08  4.10000000e-01 
 4.20000000e-01  4.59478318e-01  3.26305721e-09  4.59478319e-01  3.34065828e-09  4.59478319e-01  4.59478319e-01  3.37390863e-09  1.63709782e-07  8.05407261e-08  4.20000000e-01 
 4.30000000e-01  4.59478304e-01  3.26305728e-09  4.59478304e-01  3.34065827e-09  4.59478304e-01  4.59478304e-01  3.37390863e-09  1.63709767e-07  8.05406941e-08  4.30000000e-01 
 4.40000000e-01  4.59478306e-01  3.26305726e-09  4.59478307e-01  3.34065827e-09  4.59478306e-01  4.59478306e-01  3.37390863e-09  1.63709780e-07  8.05405804e-08  4.40000000e-01 
 4.50000000e-01  4.59478300e-01  3.26305727e-09  4.59478300e-01  3.34065827e-09  4.59478300e-01  4.59478300e-01  3.37390863e-09  1.63709763e-07  8.05405733e-08  4.50000000e-01 
 4.60000000e-01  4.59478331e-01  3.26305722e-09  4.59478331e-01  3.34065828e-09  4.59478331e-01  4.59478331e-01  3.37390863e-09  1.63709821e-07  8.05405520e-08  4.60000000e-01 
 4.70000000e-01  4.59478304e-01  3.26305723e-09  4.59478304e-01  3.34065827e-09  4.59478304e-01  4.59478304e-01  3.37390863e-09  1.63709769e-07  8.05403637e-08  4.70000000e-01 
 4.80000000e-01  4.59478311e-01  3.26305722e-09  4.59478311e-01  3.34065827e-09  4.59478311e-01  4.59478311e-01  3.37390863e-09  1.63709787e-07  8.05403140e-08  4.80000000e-01 
 4.90000000e-01  4.59478311e-01  3.26305728e-09  4.59478311e-01  3.34065827e-09  4.59478311e-01  4.59478311e-01  3.37390863e-09  1.63709778e-07  8.05402500e-08  4.90000000e-01 
 5.00000000e-01  4.59478302e-01  3.26305721e-09  4.59478302e-01  3.34065827e-09  4.59478302e-01  4.59478302e-01  3.37390863e-09  1.63709775e-07  8.05401967e-08  5.00000000e-01 
 5.10000000e-01  4.59478337e-01  3.26305729e-09  4.59478337e-01  3.34065828e-09  4.59478337e-01  4.59478337e-01  3.37390863e-09  1.63709833e-07  8.05402216e-08  5.10000000e-01 
 5.20000000e-01  4.59478298e-01  3.26305721e-09  4.59478298e-01  3.34065827e-09  4.59478298e-01  4.59478298e-01  3.37390863e-09  1.63709759e-07  8.05401221e-08  5.20000000e-01 
 5.30000000e-01  4.59478321e-01  3.26305723e-09  4.59478322e-01  3.34065828e-09  4.59478322e-01  4.59478322e-01  3.37390863e-09  1.63709786e-07  8.05400049e-08  5.30000000e-01 
 5.40000000e-01  4.59478295e-01  3.26305726e-09  4.59478295e-01  3.34065827e-09  4.59478295e-01  4.59478295e-01  3.37390863e-09  1.63709752e-07  8.05399907e-08  5.40000000e-01 
 5.50000000e-01  4.59478315e-01  3.26305727e-09  4.59478315e-01  3.34065827e-09  4.59478315e-01  4.59478315e-01  3.37390863e-09  1.63709802e-07  8.05397633e-08  5.50000000e-01 
 5.60000000e-01  4.59478311e-01  3.26305727e-09  4.59478312e-01  3.34065827e-09  4.59478312e-01  4.59478312e-01  3.37390863e-09  1.63709776e-07  8.05397598e-08  5.60000000e-01 
 5.70000000e-01  4.59478313e-01  3.26305727e-09  4.59478313e-01  3.34065827e-09  4.59478313e-01  4.59478313e-01  3.37390863e-09  1.63709788e-07  8.05397171e-08  5.70000000e-01 
 5.80000000e-01  4.59478307e-01  3.26305727e-09  4.59478307e-01  3.34065827e-09  4.59478307e-01  4.59478307e-01  3.37390863e-09  1.63709774e-07  8.05396638e-08  5.80000000e-01 
 5.90000000e-01  4.59478324e-01  3.26305727e-09  4.59478324e-01  3.34065828e-09  4.59478324e-01  4.59478324e-01  3.37390863e-09  1.63709797e-07  8.05396070e-08  5.90000000e-01 
 6.00000000e-01  4.59478293e-01  3.26305721e-09  4.59478293e-01  3.34065827e-09  4.59478293e-01  4.59478293e-01  3.37390857e-09  1.63709761e-07  8.05394080e-08  6.00000000e-01 
 6.10000000e-01  4.59478331e-01  3.26305723e-09  4.59478331e-01  3.34065828e-09  4.59478331e-01  4.59478331e-01  3.37390863e-09  1.63709821e-07  8.05395004e-08  6.10000000e-01 
 6.20000000e-01  4.59478316e-01  3.26305727e-09  4.59478316e-01  3.34065827e-09  4.59478316e-01  4.59478316e-01  3.37390863e-09  1.63709765e-07  8.05393015e-08  6.20000000e-01 
 6.30000000e-01  4.59478302e-01  3.26305727e-09  4.59478302e-01  3.34065827e-09  4.59478302e-01  4.59478302e-01  3.37390863e-09  1.63709771e-07  8.05392943e-08  6.30000000e-01 
 6.40000000e-01  4.59478320e-01  3.26305727e-09  4.59478320e-01  3.34065828e-09  4.59478320e-01  4.59478320e-01  3.37390863e-09  1.63709783e-07  8.05392659e-08  6.40000000e-01 
 6.50000000e-01  4.59478317e-01  3.26305727e-09  4.59478317e-01  3.34065828e-09  4.59478317e-01  4.59478317e-01  3.37390863e-09  1.63709798e-07  8.05391593e-08  6.50000000e-01 
 6.60000000e-01  4.59478304e-01  3.26305721e-09  4.59478304e-01  3.34065827e-09  4.59478304e-01  4.59478304e-01  3.37390863e-09  1.63709770e-07  8.05390670e-08  6.60000000e-01 
 6.70000000e-01  4.59478318e-01  3.26305723e-09  4.59478318e-01  3.34065828e-09  4.59478318e-01  4.59478318e-01  3.37390857e-09  1.63709792e-07  8.05388893e-08  6.70000000e-01 
 6.80000000e-01  4.59478309e-01  3.26305726e-09  4.59478309e-01  3.34065827e-09  4.59478309e-01  4.59478309e-01  3.37390863e-09  1.63709771e-07  8.05389035e-08  6.80000000e-01 
 6.90000000e-01  4.59478290e-01  3.26305721e-09  4.59478291e-01  3.34065827e-09  4.59478291e-01  4.59478291e-01  3.37390857e-09  1.63709754e-07  8.05388964e-08  6.90000000e-01 
 7.00000000e-01  4.59478306e-01  3.26305723e-09  4.59478306e-01  3.34065827e-09  4.59478306e-01  4.59478306e-01  3.37390863e-09  1.63709793e-07  8.05388112e-08  7.00000000e-01 
 7.10000000e-01  4.59478316e-01  3.26305722e-09  4.59478316e-01  3.34065827e-09  4.59478316e-01  4.59478316e-01  3.37390863e-09  1.63709799e-07  8.05387685e-08  7.10000000e-01 
 7.20000000e-01  4.59478312e-01  3.26305728e-09  4.59478312e-01  3.34065833e-09  4.59478312e-01  4.59478312e-01  3.37390863e-09  1.63709791e-07  8.05386833e-08  7.20000000e-01 
 7.30000000e-01  4.59478315e-01  3.26305727e-09  4.59478315e-01  3.34065827e-09  4.59478315e-01  4.59478315e-01  3.37390863e-09  1.63709789e-07  8.05385625e-08  7.30000000e-01 
 7.40000000e-01  4.59478306e-01  3.26305727e-09  4.59478307e-01  3.34065833e-09  4.59478307e-01  4.59478307e-01  3.37390863e-09  1.63709776e-07  8.05385980e-08  7.40000000e-01 
 7.50000000e-01  4.59478330e-01  3.26305722e-09  4.59478330e-01  3.34065828e-09  4.59478330e-01  4.59478330e-01  3.37390863e-09  1.63709810e-07  8.05385056e-08  7.50000000e-01 
 7.60000000e-01  4.59478318e-01  3.26305728e-09  4.59478318e-01  3.34065828e-09  4.59478318e-01  4.59478318e-01  3.37390863e-09  1.63709793e-07  8.05384346e-08  7.60000000e-01 
 7.70000000e-01  4.59478313e-01  3.26305727e-09  4.59478313e-01  3.34065827e-09  4.59478313e-01  4.59478313e-01  3.37390863e-09  1.63709777e-07  8.05383635e-08  7.70000000e-01 
 7.80000000e-01  4.59478303e-01  3.26305727e-09  4.59478304e-01  3.34065827e-09  4.59478304e-01  4.59478304e-01  3.37390863e-09  1.63709771e-07  8.05382214e-08  7.80000000e-01 
 7.90000000e-01  4.59478329e-01  3.26305722e-09  4.59478329e-01  3.34065833e-09  4.59478329e-01  4.59478329e-01  3.37390863e-09  1.63709808e-07  8.05382001e-08  7.90000000e-01 
 8.00000000e-01  4.59478305e-01  3.26305723e-09  4.59478306e-01  3.34065827e-09  4.59478306e-01  4.59478306e-01  3.37390863e-09  1.63709782e-07  8.05380935e-08  8.00000000e-01 
 8.10000000e-01  4.59478310e-01  3.26305722e-09  4.59478310e-01  3.34065827e-09  4.59478310e-01  4.59478310e-01  3.37390863e-09  1.63709782e-07  8.05379941e-08  8.10000000e-01 
 8.20000000e-01  4.59478284e-01  3.26305722e-09  4.59478284e-01  3.34065827e-09  4.59478284e-01  4.59478284e-01  3.37390863e-09  1.63709729e-07  8.05378590e-08  8.20000000e-01 
 8.30000000e-01  4.59478326e-01  3.26305722e-09  4.59478326e-01  3.34065828e-09  4.59478326e-01  4.59478326e-01  3.37390863e-09  1.63709800e-07  8.05378804e-08  8.30000000e-01 
 8.40000000e-01  4.59478316e-01  3.26305722e-09  4.59478317e-01  3.34065827e-09  4.59478317e-01  4.59478317e-01  3.37390863e-09  1.63709784e-07  8.05379159e-08  8.40000000e-01 
 8.50000000e-01  4.59478323e-01  3.26305722e-09  4.59478324e-01  3.34065828e-09  4.59478324e-01  4.59478324e-01  3.37390863e-09  1.63709802e-07  8.05377738e-08  8.50000000e-01 
 8.60000000e-01  4.59478307e-01  3.26305722e-09  4.59478307e-01  3.34065827e-09  4.59478307e-01  4.59478307e-01  3.37390863e-09  1.63709780e-07  8.05377383e-08  8.60000000e-01 
 8.70000000e-01  4.59478329e-01  3.26305722e-09  4.59478329e-01  3.34065828e-09  4.59478329e-01  4.59478329e-01  3.37390857e-09  1.63709818e-07  8.05377240e-08  8.70000000e-01 
 8.80000000e-01  4.59478328e-01  3.26305728e-09  4.59478328e-01  3.34065828e-09  4.59478328e-01  4.59478328e-01  3.37390863e-09  1.63709809e-07  8.05374682e-08  8.80000000e-01 
 8.90000000e-01  4.59478320e-01  3.26305727e-09  4.59478320e-01  3.34065828e-09  4.59478320e-01  4.59478320e-01  3.37390863e-09  1.63709797e-07  8.05374611e-08  8.90000000e-01 
 9.00000000e-01  4.59478297e-01  3.26305727e-09  4.59478298e-01  3.34065833e-09  4.59478298e-01  4.59478298e-01  3.37390863e-09  1.63709754e-07  8.05374256e-08  9.00000000e-01 
 9.10000000e-01  4.59478318e-01  3.26305727e-09  4.59478318e-01  3.34065828e-09  4.59478318e-01  4.59478318e-01  3.37390863e-09  1.63709785e-07  8.05374611e-08  9.10000000e-01 
 9.20000000e-01  4.59478314e-01  3.26305727e-09  4.59478314e-01  3.34065827e-09  4.59478314e-01  4.59478314e-01  3.37390863e-09  1.63709784e-07  8.05373332e-08  9.20000000e-01 
 9.30000000e-01  4.59478307e-01  3.26305721e-09  4.59478307e-01  3.34065827e-09  4.59478307e-01  4.59478307e-01  3.37390863e-09  1.63709778e-07  8.05372906e-08  9.30000000e-01 
 9.40000000e-01  4.59478324e-01  3.26305723e-09  4.59478325e-01  3.34065828e-09  4.59478325e-01  4.59478325e-01  3.37390857e-09  1.63709799e-07  8.05372125e-08  9.40000000e-01 
 9.50000000e-01  4.59478305e-01  3.26305726e-09  4.59478305e-01  3.34065827e-09  4.59478305e-01  4.59478305e-01  3.37390863e-09  1.63709770e-07  8.05369922e-08  9.50000000e-01 
 9.60000000e-01  4.59478304e-01  3.26305727e-09  4.59478305e-01  3.34065827e-09  4.59478305e-01  4.59478305e-01  3.37390863e-09  1.63709762e-07  8.05370206e-08  9.60000000e-01 
 9.70000000e-01  4.59478311e-01  3.26305727e-09  4.59478311e-01  3.34065827e-09  4.59478311e-01  4.59478311e-01  3.37390863e-09  1.63709786e-07  8.05369638e-08  9.70000000e-01 
 9.80000000e-01  4.59478318e-01  3.26305721e-09  4.59478318e-01  3.34065828e-09  4.59478318e-01  4.59478318e-01  3.37390857e-09  1.63709798e-07  8.05368288e-08  9.80000000e-01 
 9.90000000e-01  4.59478304e-01  3.26305723e-09  4.59478305e-01  3.34065827e-09  4.59478305e-01  4.59478305e-01  3.37390857e-09  1.63709757e-07  8.05366867e-08  9.90000000e-01 
 1.00000000e+00  4.59478340e-01  3.26305728e-09  4.59478340e-01  3.34065828e-09  4.59478340e-01  4.59478340e-01  3.37390863e-09  1.63709831e-07  8.05368003e-08  1.00000000e+00 
 1.01000000e+00  4.59478306e-01  3.26305726e-09  4.59478306e-01  3.34065833e-09  4.59478306e-01  4.59478306e-01  3.37390863e-09  1.63709779e-07  8.05366156e-08  1.01000000e+00 
 1.02000000e+00  4.59478318e-01  3.26305721e-09  4.59478318e-01  3.34065828e-09  4.59478318e-01  4.59478318e-01  3.37390857e-09  1.63709791e-07  8.05366227e-08  1.02000000e+00 
 1.03000000e+00  4.59478325e-01  3.26305728e-09  4.59478325e-01  3.34065828e-09  4.59478325e-01  4.59478325e-01  3.37390863e-09  1.63709802e-07  8.05364522e-08  1.03000000e+00 
 1.04000000e+00  4.59478320e-01  3.26305721e-09  4.59478320e-01  3.34065828e-09  4.59478320e-01  4.59478320e-01  3.37390863e-09  1.63709798e-07  8.05364309e-08  1.04000000e+00 
 1.05000000e+00  4.59478307e-01  3.26305728e-09  4.59478308e-01  3.34065833e-09  4.59478308e-01  4.59478308e-01  3.37390863e-09  1.63709760e-07  8.05363172e-08  1.05000000e+00 
 1.06000000e+00  4.59478341e-01  3.26305727e-09  4.59478341e-01  3.34065828e-09  4.59478341e-01  4.59478341e-01  3.37390863e-09  1.63709840e-07  8.05362674e-08  1.06000000e+00 
 1.07000000e+00  4.59478318e-01  3.26305721e-09  4.59478318e-01  3.34065828e-09  4.59478318e-01  4.59478318e-01  3.37390863e-09  1.63709794e-07  8.05361395e-08  1.07000000e+00 
 1.08000000e+00  4.59478324e-01  3.26305728e-09  4.59478324e-01  3.34065828e-09  4.59478324e-01  4.59478324e-01  3.37390863e-09  1.63709799e-07  8.05360898e-08  1.08000000e+00 
 1.09000000e+00  4.59478321e-01  3.26305727e-09  4.59478321e-01  3.34065828e-09  4.59478321e-01  4.59478321e-01  3.37390863e-09  1.63709800e-07  8.05360969e-08  1.09000000e+00 
 1.10000000e+00  4.59478307e-01  3.26305727e-09  4.59478307e-01  3.34065827e-09  4.59478307e-01  4.59478307e-01  3.37390863e-09  1.63709768e-07  8.05358411e-08  1.10000000e+00 
