 v-sweep         v(b0)           v(b1)           v(b2)           v(b3)           v(b4)           v(b5)           v(b6)           i(vbias)        i(viout)        v(vout)        
 0.00000000e+00  4.59768385e-01  4.59768385e-01  3.56620403e-09  4.59768385e-01  4.59768385e-01  4.59768385e-01  3.37514456e-09  1.60243682e-07  9.07324045e-08  0.00000000e+00 
 1.00000000e-02  4.59768362e-01  4.59768362e-01  3.56620401e-09  4.59768362e-01  4.59768362e-01  4.59768362e-01  3.37514454e-09  1.60243645e-07  9.07319265e-08  1.00000000e-02 
 2.00000000e-02  4.59768368e-01  4.59768368e-01  3.56620401e-09  4.59768368e-01  4.59768368e-01  4.59768368e-01  3.37514460e-09  1.60243654e-07  9.07315558e-08  2.00000000e-02 
 3.00000000e-02  4.59768362e-01  4.59768362e-01  3.56620401e-09  4.59768362e-01  4.59768362e-01  4.59768362e-01  3.37514454e-09  1.60243631e-07  9.07312179e-08  3.00000000e-02 
 4.00000000e-02  4.59768345e-01  4.59768345e-01  3.56620401e-09  4.59768345e-01  4.59768345e-01  4.59768345e-01  3.37514460e-09  1.60243611e-07  9.07308038e-08  4.00000000e-02 
 5.00000000e-02  4.59768382e-01  4.59768382e-01  3.56620402e-09  4.59768382e-01  4.59768382e-01  4.59768382e-01  3.37514460e-09  1.60243659e-07  9.07305941e-08  5.00000000e-02 
 6.00000000e-02  4.59768381e-01  4.59768381e-01  3.56620402e-09  4.59768381e-01  4.59768381e-01  4.59768381e-01  3.37514460e-09  1.60243671e-07  9.07301483e-08  6.00000000e-02 
 7.00000000e-02  4.59768357e-01  4.59768357e-01  3.56620401e-09  4.59768357e-01  4.59768357e-01  4.59768357e-01  3.37514454e-09  1.60243635e-07  9.07297881e-08  7.00000000e-02 
 8.00000000e-02  4.59768363e-01  4.59768363e-01  3.56620401e-09  4.59768363e-01  4.59768362e-01  4.59768363e-01  3.37514460e-09  1.60243635e-07  9.07295137e-08  8.00000000e-02 
 9.00000000e-02  4.59768360e-01  4.59768360e-01  3.56620401e-09  4.59768360e-01  4.59768360e-01  4.59768360e-01  3.37514454e-09  1.60243647e-07  9.07293094e-08  9.00000000e-02 
 1.00000000e-01  4.59768350e-01  4.59768350e-01  3.56620401e-09  4.59768350e-01  4.59768350e-01  4.59768350e-01  3.37514460e-09  1.60243617e-07  9.07290110e-08  1.00000000e-01 
 1.10000000e-01  4.59768372e-01  4.59768372e-01  3.56620407e-09  4.59768372e-01  4.59768372e-01  4.59768372e-01  3.37514454e-09  1.60243662e-07  9.07288458e-08  1.10000000e-01 
 1.20000000e-01  4.59768324e-01  4.59768324e-01  3.56620401e-09  4.59768324e-01  4.59768324e-01  4.59768324e-01  3.37514460e-09  1.60243602e-07  9.07283839e-08  1.20000000e-01 
 1.30000000e-01  4.59768350e-01  4.59768350e-01  3.56620401e-09  4.59768350e-01  4.59768350e-01  4.59768350e-01  3.37514460e-09  1.60243618e-07  9.07282534e-08  1.30000000e-01 
 1.40000000e-01  4.59768375e-01  4.59768375e-01  3.56620401e-09  4.59768375e-01  4.59768375e-01  4.59768375e-01  3.37514454e-09  1.60243656e-07  9.07281619e-08  1.40000000e-01 
 1.50000000e-01  4.59768359e-01  4.59768359e-01  3.56620401e-09  4.59768359e-01  4.59768359e-01  4.59768359e-01  3.37514460e-09  1.60243646e-07  9.07278856e-08  1.50000000e-01 
 1.60000000e-01  4.59768362e-01  4.59768362e-01  3.56620401e-09  4.59768362e-01  4.59768362e-01  4.59768362e-01  3.37514460e-09  1.60243639e-07  9.07274949e-08  1.60000000e-01 
 1.70000000e-01  4.59768366e-01  4.59768366e-01  3.56620401e-09  4.59768367e-01  4.59768366e-01  4.59768366e-01  3.37514460e-09  1.60243642e-07  9.07273936e-08  1.70000000e-01 
 1.80000000e-01  4.59768361e-01  4.59768361e-01  3.56620401e-09  4.59768361e-01  4.59768361e-01  4.59768361e-01  3.37514460e-09  1.60243650e-07  9.07271218e-08  1.80000000e-01 
 1.90000000e-01  4.59768374e-01  4.59768374e-01  3.56620401e-09  4.59768374e-01  4.59768374e-01  4.59768374e-01  3.37514460e-09  1.60243645e-07  9.07270650e-08  1.90000000e-01 
 2.00000000e-01  4.59768363e-01  4.59768363e-01  3.56620401e-09  4.59768363e-01  4.59768363e-01  4.59768363e-01  3.37514454e-09  1.60243643e-07  9.07268713e-08  2.00000000e-01 
 2.10000000e-01  4.59768349e-01  4.59768349e-01  3.56620401e-09  4.59768349e-01  4.59768349e-01  4.59768349e-01  3.37514460e-09  1.60243614e-07  9.07266529e-08  2.10000000e-01 
 2.20000000e-01  4.59768355e-01  4.59768355e-01  3.56620401e-09  4.59768355e-01  4.59768355e-01  4.59768355e-01  3.37514454e-09  1.60243629e-07  9.07264646e-08  2.20000000e-01 
 2.30000000e-01  4.59768371e-01  4.59768371e-01  3.56620401e-09  4.59768371e-01  4.59768371e-01  4.59768371e-01  3.37514460e-09  1.60243652e-07  9.07264184e-08  2.30000000e-01 
 2.40000000e-01  4.59768375e-01  4.59768375e-01  3.56620401e-09  4.59768375e-01  4.59768374e-01  4.59768375e-01  3.37514460e-09  1.60243665e-07  9.07263011e-08  2.40000000e-01 
 2.50000000e-01  4.59768354e-01  4.59768354e-01  3.56620401e-09  4.59768354e-01  4.59768354e-01  4.59768354e-01  3.37514460e-09  1.60243616e-07  9.07261484e-08  2.50000000e-01 
 2.60000000e-01  4.59768359e-01  4.59768359e-01  3.56620401e-09  4.59768359e-01  4.59768359e-01  4.59768359e-01  3.37514460e-09  1.60243624e-07  9.07260223e-08  2.60000000e-01 
 2.70000000e-01  4.59768369e-01  4.59768369e-01  3.56620401e-09  4.59768369e-01  4.59768369e-01  4.59768369e-01  3.37514454e-09  1.60243632e-07  9.07258588e-08  2.70000000e-01 
 2.80000000e-01  4.59768353e-01  4.59768353e-01  3.56620401e-09  4.59768353e-01  4.59768353e-01  4.59768353e-01  3.37514454e-09  1.60243619e-07  9.07257540e-08  2.80000000e-01 
 2.90000000e-01  4.59768356e-01  4.59768356e-01  3.56620401e-09  4.59768356e-01  4.59768356e-01  4.59768356e-01  3.37514454e-09  1.60243631e-07  9.07255462e-08  2.90000000e-01 
 3.00000000e-01  4.59768354e-01  4.59768354e-01  3.56620401e-09  4.59768354e-01  4.59768354e-01  4.59768354e-01  3.37514454e-09  1.60243633e-07  9.07254432e-08  3.00000000e-01 
 3.10000000e-01  4.59768344e-01  4.59768344e-01  3.56620401e-09  4.59768344e-01  4.59768344e-01  4.59768344e-01  3.37514454e-09  1.60243622e-07  9.07253508e-08  3.10000000e-01 
 3.20000000e-01  4.59768356e-01  4.59768356e-01  3.56620401e-09  4.59768356e-01  4.59768356e-01  4.59768356e-01  3.37514454e-09  1.60243624e-07  9.07252655e-08  3.20000000e-01 
 3.30000000e-01  4.59768343e-01  4.59768343e-01  3.56620401e-09  4.59768343e-01  4.59768342e-01  4.59768343e-01  3.37514460e-09  1.60243610e-07  9.07251305e-08  3.30000000e-01 
 3.40000000e-01  4.59768385e-01  4.59768385e-01  3.56620402e-09  4.59768385e-01  4.59768385e-01  4.59768385e-01  3.37514454e-09  1.60243658e-07  9.07250168e-08  3.40000000e-01 
 3.50000000e-01  4.59768360e-01  4.59768360e-01  3.56620401e-09  4.59768360e-01  4.59768360e-01  4.59768360e-01  3.37514460e-09  1.60243626e-07  9.07249813e-08  3.50000000e-01 
 3.60000000e-01  4.59768374e-01  4.59768374e-01  3.56620401e-09  4.59768374e-01  4.59768374e-01  4.59768374e-01  3.37514460e-09  1.60243655e-07  9.07249991e-08  3.60000000e-01 
 3.70000000e-01  4.59768364e-01  4.59768364e-01  3.56620401e-09  4.59768364e-01  4.59768364e-01  4.59768364e-01  3.37514460e-09  1.60243642e-07  9.07247291e-08  3.70000000e-01 
 3.80000000e-01  4.59768363e-01  4.59768363e-01  3.56620401e-09  4.59768363e-01  4.59768363e-01  4.59768363e-01  3.37514454e-09  1.60243632e-07  9.07246012e-08  3.80000000e-01 
 3.90000000e-01  4.59768353e-01  4.59768353e-01  3.56620401e-09  4.59768353e-01  4.59768353e-01  4.59768353e-01  3.37514454e-09  1.60243626e-07  9.07245550e-08  3.90000000e-01 
 4.00000000e-01  4.59768348e-01  4.59768348e-01  3.56620401e-09  4.59768348e-01  4.59768348e-01  4.59768348e-01  3.37514460e-09  1.60243627e-07  9.07244910e-08  4.00000000e-01 
 4.10000000e-01  4.59768358e-01  4.59768358e-01  3.56620401e-09  4.59768358e-01  4.59768358e-01  4.59768358e-01  3.37514454e-09  1.60243631e-07  9.07243525e-08  4.10000000e-01 
 4.20000000e-01  4.59768365e-01  4.59768365e-01  3.56620401e-09  4.59768365e-01  4.59768365e-01  4.59768365e-01  3.37514460e-09  1.60243635e-07  9.07243631e-08  4.20000000e-01 
 4.30000000e-01  4.59768359e-01  4.59768359e-01  3.56620401e-09  4.59768359e-01  4.59768359e-01  4.59768359e-01  3.37514460e-09  1.60243631e-07  9.07241891e-08  4.30000000e-01 
 4.40000000e-01  4.59768373e-01  4.59768373e-01  3.56620401e-09  4.59768373e-01  4.59768373e-01  4.59768373e-01  3.37514454e-09  1.60243668e-07  9.07241251e-08  4.40000000e-01 
 4.50000000e-01  4.59768378e-01  4.59768378e-01  3.56620402e-09  4.59768378e-01  4.59768378e-01  4.59768378e-01  3.37514454e-09  1.60243668e-07  9.07241358e-08  4.50000000e-01 
 4.60000000e-01  4.59768365e-01  4.59768365e-01  3.56620401e-09  4.59768365e-01  4.59768365e-01  4.59768365e-01  3.37514460e-09  1.60243643e-07  9.07238515e-08  4.60000000e-01 
 4.70000000e-01  4.59768373e-01  4.59768373e-01  3.56620401e-09  4.59768373e-01  4.59768373e-01  4.59768373e-01  3.37514454e-09  1.60243651e-07  9.07239901e-08  4.70000000e-01 
 4.80000000e-01  4.59768357e-01  4.59768357e-01  3.56620401e-09  4.59768357e-01  4.59768357e-01  4.59768357e-01  3.37514454e-09  1.60243629e-07  9.07239617e-08  4.80000000e-01 
 4.90000000e-01  4.59768359e-01  4.59768359e-01  3.56620401e-09  4.59768359e-01  4.59768359e-01  4.59768359e-01  3.37514454e-09  1.60243637e-07  9.07237521e-08  4.90000000e-01 
 5.00000000e-01  4.59768381e-01  4.59768381e-01  3.56620402e-09  4.59768382e-01  4.59768381e-01  4.59768381e-01  3.37514460e-09  1.60243674e-07  9.07236455e-08  5.00000000e-01 
 5.10000000e-01  4.59768353e-01  4.59768353e-01  3.56620401e-09  4.59768353e-01  4.59768353e-01  4.59768353e-01  3.37514454e-09  1.60243631e-07  9.07235993e-08  5.10000000e-01 
 5.20000000e-01  4.59768347e-01  4.59768347e-01  3.56620401e-09  4.59768347e-01  4.59768347e-01  4.59768347e-01  3.37514454e-09  1.60243609e-07  9.07234856e-08  5.20000000e-01 
 5.30000000e-01  4.59768339e-01  4.59768340e-01  3.56620401e-09  4.59768340e-01  4.59768339e-01  4.59768339e-01  3.37514454e-09  1.60243598e-07  9.07233790e-08  5.30000000e-01 
 5.40000000e-01  4.59768380e-01  4.59768380e-01  3.56620402e-09  4.59768380e-01  4.59768380e-01  4.59768380e-01  3.37514460e-09  1.60243669e-07  9.07234927e-08  5.40000000e-01 
 5.50000000e-01  4.59768342e-01  4.59768342e-01  3.56620401e-09  4.59768342e-01  4.59768342e-01  4.59768342e-01  3.37514454e-09  1.60243608e-07  9.07232405e-08  5.50000000e-01 
 5.60000000e-01  4.59768352e-01  4.59768352e-01  3.56620401e-09  4.59768352e-01  4.59768352e-01  4.59768352e-01  3.37514460e-09  1.60243608e-07  9.07232049e-08  5.60000000e-01 
 5.70000000e-01  4.59768360e-01  4.59768360e-01  3.56620401e-09  4.59768361e-01  4.59768360e-01  4.59768360e-01  3.37514454e-09  1.60243627e-07  9.07232405e-08  5.70000000e-01 
 5.80000000e-01  4.59768360e-01  4.59768360e-01  3.56620401e-09  4.59768360e-01  4.59768360e-01  4.59768360e-01  3.37514460e-09  1.60243641e-07  9.07230699e-08  5.80000000e-01 
 5.90000000e-01  4.59768359e-01  4.59768359e-01  3.56620401e-09  4.59768359e-01  4.59768359e-01  4.59768359e-01  3.37514454e-09  1.60243630e-07  9.07230557e-08  5.90000000e-01 
 6.00000000e-01  4.59768380e-01  4.59768380e-01  3.56620402e-09  4.59768380e-01  4.59768380e-01  4.59768380e-01  3.37514460e-09  1.60243672e-07  9.07230131e-08  6.00000000e-01 
 6.10000000e-01  4.59768369e-01  4.59768369e-01  3.56620401e-09  4.59768370e-01  4.59768369e-01  4.59768369e-01  3.37514460e-09  1.60243664e-07  9.07228781e-08  6.10000000e-01 
 6.20000000e-01  4.59768361e-01  4.59768361e-01  3.56620401e-09  4.59768361e-01  4.59768361e-01  4.59768361e-01  3.37514460e-09  1.60243646e-07  9.07228355e-08  6.20000000e-01 
 6.30000000e-01  4.59768372e-01  4.59768372e-01  3.56620401e-09  4.59768372e-01  4.59768372e-01  4.59768372e-01  3.37514454e-09  1.60243642e-07  9.07227005e-08  6.30000000e-01 
 6.40000000e-01  4.59768347e-01  4.59768347e-01  3.56620401e-09  4.59768347e-01  4.59768347e-01  4.59768347e-01  3.37514454e-09  1.60243619e-07  9.07225797e-08  6.40000000e-01 
 6.50000000e-01  4.59768382e-01  4.59768382e-01  3.56620402e-09  4.59768382e-01  4.59768382e-01  4.59768382e-01  3.37514454e-09  1.60243657e-07  9.07226649e-08  6.50000000e-01 
 6.60000000e-01  4.59768381e-01  4.59768382e-01  3.56620402e-09  4.59768382e-01  4.59768381e-01  4.59768382e-01  3.37514454e-09  1.60243659e-07  9.07225655e-08  6.60000000e-01 
 6.70000000e-01  4.59768363e-01  4.59768363e-01  3.56620401e-09  4.59768363e-01  4.59768363e-01  4.59768363e-01  3.37514454e-09  1.60243636e-07  9.07224376e-08  6.70000000e-01 
 6.80000000e-01  4.59768359e-01  4.59768359e-01  3.56620401e-09  4.59768359e-01  4.59768359e-01  4.59768359e-01  3.37514454e-09  1.60243633e-07  9.07224162e-08  6.80000000e-01 
 6.90000000e-01  4.59768357e-01  4.59768357e-01  3.56620401e-09  4.59768357e-01  4.59768357e-01  4.59768357e-01  3.37514460e-09  1.60243628e-07  9.07222102e-08  6.90000000e-01 
 7.00000000e-01  4.59768375e-01  4.59768375e-01  3.56620401e-09  4.59768375e-01  4.59768375e-01  4.59768375e-01  3.37514454e-09  1.60243664e-07  9.07222741e-08  7.00000000e-01 
 7.10000000e-01  4.59768352e-01  4.59768352e-01  3.56620401e-09  4.59768352e-01  4.59768352e-01  4.59768352e-01  3.37514460e-09  1.60243639e-07  9.07220894e-08  7.10000000e-01 
 7.20000000e-01  4.59768367e-01  4.59768367e-01  3.56620401e-09  4.59768367e-01  4.59768367e-01  4.59768367e-01  3.37514454e-09  1.60243628e-07  9.07220894e-08  7.20000000e-01 
 7.30000000e-01  4.59768350e-01  4.59768350e-01  3.56620401e-09  4.59768350e-01  4.59768350e-01  4.59768350e-01  3.37514454e-09  1.60243622e-07  9.07219686e-08  7.30000000e-01 
 7.40000000e-01  4.59768373e-01  4.59768373e-01  3.56620401e-09  4.59768373e-01  4.59768373e-01  4.59768373e-01  3.37514460e-09  1.60243651e-07  9.07219615e-08  7.40000000e-01 
 7.50000000e-01  4.59768344e-01  4.59768344e-01  3.56620401e-09  4.59768345e-01  4.59768344e-01  4.59768344e-01  3.37514460e-09  1.60243608e-07  9.07218123e-08  7.50000000e-01 
 7.60000000e-01  4.59768381e-01  4.59768381e-01  3.56620402e-09  4.59768381e-01  4.59768381e-01  4.59768381e-01  3.37514454e-09  1.60243670e-07  9.07218265e-08  7.60000000e-01 
 7.70000000e-01  4.59768336e-01  4.59768336e-01  3.56620401e-09  4.59768336e-01  4.59768336e-01  4.59768336e-01  3.37514454e-09  1.60243600e-07  9.07216986e-08  7.70000000e-01 
 7.80000000e-01  4.59768355e-01  4.59768355e-01  3.56620401e-09  4.59768355e-01  4.59768355e-01  4.59768355e-01  3.37514454e-09  1.60243621e-07  9.07215778e-08  7.80000000e-01 
 7.90000000e-01  4.59768371e-01  4.59768371e-01  3.56620401e-09  4.59768371e-01  4.59768371e-01  4.59768371e-01  3.37514460e-09  1.60243660e-07  9.07216773e-08  7.90000000e-01 
 8.00000000e-01  4.59768377e-01  4.59768377e-01  3.56620401e-09  4.59768377e-01  4.59768377e-01  4.59768377e-01  3.37514460e-09  1.60243663e-07  9.07215423e-08  8.00000000e-01 
 8.10000000e-01  4.59768353e-01  4.59768353e-01  3.56620401e-09  4.59768353e-01  4.59768353e-01  4.59768353e-01  3.37514454e-09  1.60243629e-07  9.07213931e-08  8.10000000e-01 
 8.20000000e-01  4.59768379e-01  4.59768379e-01  3.56620402e-09  4.59768379e-01  4.59768379e-01  4.59768379e-01  3.37514460e-09  1.60243661e-07  9.07212652e-08  8.20000000e-01 
 8.30000000e-01  4.59768362e-01  4.59768362e-01  3.56620401e-09  4.59768362e-01  4.59768361e-01  4.59768362e-01  3.37514454e-09  1.60243643e-07  9.07211586e-08  8.30000000e-01 
 8.40000000e-01  4.59768370e-01  4.59768370e-01  3.56620401e-09  4.59768370e-01  4.59768370e-01  4.59768370e-01  3.37514454e-09  1.60243647e-07  9.07211941e-08  8.40000000e-01 
 8.50000000e-01  4.59768366e-01  4.59768366e-01  3.56620401e-09  4.59768366e-01  4.59768366e-01  4.59768366e-01  3.37514454e-09  1.60243640e-07  9.07212225e-08  8.50000000e-01 
 8.60000000e-01  4.59768376e-01  4.59768376e-01  3.56620401e-09  4.59768376e-01  4.59768376e-01  4.59768376e-01  3.37514454e-09  1.60243656e-07  9.07211799e-08  8.60000000e-01 
 8.70000000e-01  4.59768360e-01  4.59768360e-01  3.56620401e-09  4.59768360e-01  4.59768360e-01  4.59768360e-01  3.37514454e-09  1.60243635e-07  9.07209241e-08  8.70000000e-01 
 8.80000000e-01  4.59768365e-01  4.59768365e-01  3.56620401e-09  4.59768365e-01  4.59768365e-01  4.59768365e-01  3.37514460e-09  1.60243626e-07  9.07209525e-08  8.80000000e-01 
 8.90000000e-01  4.59768368e-01  4.59768368e-01  3.56620401e-09  4.59768368e-01  4.59768368e-01  4.59768368e-01  3.37514460e-09  1.60243658e-07  9.07208388e-08  8.90000000e-01 
 9.00000000e-01  4.59768365e-01  4.59768365e-01  3.56620401e-09  4.59768365e-01  4.59768365e-01  4.59768365e-01  3.37514460e-09  1.60243643e-07  9.07208246e-08  9.00000000e-01 
 9.10000000e-01  4.59768370e-01  4.59768370e-01  3.56620401e-09  4.59768370e-01  4.59768370e-01  4.59768370e-01  3.37514460e-09  1.60243646e-07  9.07207465e-08  9.10000000e-01 
 9.20000000e-01  4.59768369e-01  4.59768369e-01  3.56620401e-09  4.59768369e-01  4.59768369e-01  4.59768369e-01  3.37514454e-09  1.60243639e-07  9.07206612e-08  9.20000000e-01 
 9.30000000e-01  4.59768363e-01  4.59768363e-01  3.56620401e-09  4.59768363e-01  4.59768363e-01  4.59768363e-01  3.37514460e-09  1.60243645e-07  9.07205617e-08  9.30000000e-01 
 9.40000000e-01  4.59768362e-01  4.59768362e-01  3.56620401e-09  4.59768362e-01  4.59768362e-01  4.59768362e-01  3.37514454e-09  1.60243643e-07  9.07203770e-08  9.40000000e-01 
 9.50000000e-01  4.59768348e-01  4.59768348e-01  3.56620401e-09  4.59768348e-01  4.59768348e-01  4.59768348e-01  3.37514460e-09  1.60243621e-07  9.07204054e-08  9.50000000e-01 
 9.60000000e-01  4.59768358e-01  4.59768358e-01  3.56620407e-09  4.59768358e-01  4.59768358e-01  4.59768358e-01  3.37514454e-09  1.60243636e-07  9.07203557e-08  9.60000000e-01 
 9.70000000e-01  4.59768378e-01  4.59768378e-01  3.56620402e-09  4.59768378e-01  4.59768378e-01  4.59768378e-01  3.37514454e-09  1.60243666e-07  9.07202633e-08  9.70000000e-01 
 9.80000000e-01  4.59768378e-01  4.59768378e-01  3.56620402e-09  4.59768378e-01  4.59768378e-01  4.59768378e-01  3.37514460e-09  1.60243666e-07  9.07201709e-08  9.80000000e-01 
 9.90000000e-01  4.59768377e-01  4.59768377e-01  3.56620401e-09  4.59768377e-01  4.59768377e-01  4.59768377e-01  3.37514460e-09  1.60243660e-07  9.07201283e-08  9.90000000e-01 
 1.00000000e+00  4.59768367e-01  4.59768367e-01  3.56620401e-09  4.59768367e-01  4.59768367e-01  4.59768367e-01  3.37514460e-09  1.60243654e-07  9.07200146e-08  1.00000000e+00 
 1.01000000e+00  4.59768358e-01  4.59768358e-01  3.56620401e-09  4.59768358e-01  4.59768358e-01  4.59768358e-01  3.37514454e-09  1.60243638e-07  9.07199933e-08  1.01000000e+00 
 1.02000000e+00  4.59768376e-01  4.59768376e-01  3.56620401e-09  4.59768377e-01  4.59768376e-01  4.59768376e-01  3.37514460e-09  1.60243666e-07  9.07199649e-08  1.02000000e+00 
 1.03000000e+00  4.59768346e-01  4.59768346e-01  3.56620401e-09  4.59768346e-01  4.59768346e-01  4.59768346e-01  3.37514460e-09  1.60243620e-07  9.07198228e-08  1.03000000e+00 
 1.04000000e+00  4.59768362e-01  4.59768362e-01  3.56620401e-09  4.59768362e-01  4.59768362e-01  4.59768362e-01  3.37514454e-09  1.60243632e-07  9.07196807e-08  1.04000000e+00 
 1.05000000e+00  4.59768383e-01  4.59768383e-01  3.56620402e-09  4.59768383e-01  4.59768383e-01  4.59768383e-01  3.37514454e-09  1.60243665e-07  9.07195385e-08  1.05000000e+00 
 1.06000000e+00  4.59768365e-01  4.59768365e-01  3.56620401e-09  4.59768365e-01  4.59768365e-01  4.59768365e-01  3.37514460e-09  1.60243641e-07  9.07195670e-08  1.06000000e+00 
 1.07000000e+00  4.59768340e-01  4.59768340e-01  3.56620401e-09  4.59768340e-01  4.59768340e-01  4.59768340e-01  3.37514460e-09  1.60243596e-07  9.07194320e-08  1.07000000e+00 
 1.08000000e+00  4.59768342e-01  4.59768342e-01  3.56620401e-09  4.59768343e-01  4.59768342e-01  4.59768342e-01  3.37514460e-09  1.60243610e-07  9.07193467e-08  1.08000000e+00 
 1.09000000e+00  4.59768341e-01  4.59768341e-01  3.56620401e-09  4.59768341e-01  4.59768341e-01  4.59768341e-01  3.37514460e-09  1.60243608e-07  9.07193325e-08  1.09000000e+00 
 1.10000000e+00  4.59768366e-01  4.59768366e-01  3.56620401e-09  4.59768366e-01  4.59768366e-01  4.59768366e-01  3.37514454e-09  1.60243631e-07  9.07192188e-08  1.10000000e+00 
