 v-sweep         v(b0)           v(b1)           v(b2)           v(b3)           v(b4)           v(b5)           v(b6)           i(vbias)        i(viout)        v(vout)        
 0.00000000e+00  3.40486876e-09  3.40023756e-09  4.58977171e-01  4.58977171e-01  3.15754699e-09  3.29972206e-09  3.21866052e-09  1.59672153e-07  1.93177103e-08  0.00000000e+00 
 1.00000000e-02  3.40486880e-09  3.40023759e-09  4.58977174e-01  4.58977174e-01  3.15754702e-09  3.29972208e-09  3.21866050e-09  1.59672160e-07  1.93172944e-08  1.00000000e-02 
 2.00000000e-02  3.40486880e-09  3.40023753e-09  4.58977190e-01  4.58977190e-01  3.15754702e-09  3.29972208e-09  3.21866050e-09  1.59672183e-07  1.93169607e-08  2.00000000e-02 
 3.00000000e-02  3.40486874e-09  3.40023753e-09  4.58977187e-01  4.58977187e-01  3.15754702e-09  3.29972203e-09  3.21866056e-09  1.59672186e-07  1.93165661e-08  3.00000000e-02 
 4.00000000e-02  3.40486874e-09  3.40023759e-09  4.58977183e-01  4.58977183e-01  3.15754696e-09  3.29972208e-09  3.21866056e-09  1.59672176e-07  1.93162442e-08  4.00000000e-02 
 5.00000000e-02  3.40486880e-09  3.40023759e-09  4.58977190e-01  4.58977190e-01  3.15754696e-09  3.29972208e-09  3.21866056e-09  1.59672195e-07  1.93159142e-08  5.00000000e-02 
 6.00000000e-02  3.40486880e-09  3.40023754e-09  4.58977204e-01  4.58977204e-01  3.15754702e-09  3.29972208e-09  3.21866056e-09  1.59672209e-07  1.93155878e-08  6.00000000e-02 
 7.00000000e-02  3.40486879e-09  3.40023759e-09  4.58977163e-01  4.58977163e-01  3.15754702e-09  3.29972208e-09  3.21866056e-09  1.59672143e-07  1.93153396e-08  7.00000000e-02 
 8.00000000e-02  3.40486880e-09  3.40023759e-09  4.58977180e-01  4.58977180e-01  3.15754702e-09  3.29972203e-09  3.21866056e-09  1.59672173e-07  1.93150358e-08  8.00000000e-02 
 9.00000000e-02  3.40486880e-09  3.40023753e-09  4.58977180e-01  4.58977180e-01  3.15754702e-09  3.29972208e-09  3.21866056e-09  1.59672179e-07  1.93148528e-08  9.00000000e-02 
 1.00000000e-01  3.40486874e-09  3.40023753e-09  4.58977174e-01  4.58977174e-01  3.15754702e-09  3.29972208e-09  3.21866056e-09  1.59672157e-07  1.93144869e-08  1.00000000e-01 
 1.10000000e-01  3.40486880e-09  3.40023753e-09  4.58977200e-01  4.58977200e-01  3.15754702e-09  3.29972203e-09  3.21866056e-09  1.59672198e-07  1.93142302e-08  1.10000000e-01 
 1.20000000e-01  3.40486874e-09  3.40023753e-09  4.58977190e-01  4.58977190e-01  3.15754702e-09  3.29972203e-09  3.21866056e-09  1.59672191e-07  1.93140792e-08  1.20000000e-01 
 1.30000000e-01  3.40486874e-09  3.40023753e-09  4.58977174e-01  4.58977174e-01  3.15754702e-09  3.29972203e-09  3.21866050e-09  1.59672164e-07  1.93139762e-08  1.30000000e-01 
 1.40000000e-01  3.40486874e-09  3.40023759e-09  4.58977195e-01  4.58977195e-01  3.15754702e-09  3.29972208e-09  3.21866056e-09  1.59672188e-07  1.93135401e-08  1.40000000e-01 
 1.50000000e-01  3.40486874e-09  3.40023753e-09  4.58977182e-01  4.58977182e-01  3.15754696e-09  3.29972203e-09  3.21866056e-09  1.59672163e-07  1.93134255e-08  1.50000000e-01 
 1.60000000e-01  3.40486874e-09  3.40023759e-09  4.58977174e-01  4.58977174e-01  3.15754702e-09  3.29972203e-09  3.21866056e-09  1.59672162e-07  1.93132106e-08  1.60000000e-01 
 1.70000000e-01  3.40486874e-09  3.40023753e-09  4.58977192e-01  4.58977192e-01  3.15754702e-09  3.29972203e-09  3.21866050e-09  1.59672185e-07  1.93131253e-08  1.70000000e-01 
 1.80000000e-01  3.40486874e-09  3.40023753e-09  4.58977201e-01  4.58977201e-01  3.15754702e-09  3.29972208e-09  3.21866056e-09  1.59672197e-07  1.93128820e-08  1.80000000e-01 
 1.90000000e-01  3.40486874e-09  3.40023753e-09  4.58977183e-01  4.58977183e-01  3.15754702e-09  3.29972208e-09  3.21866056e-09  1.59672164e-07  1.93127487e-08  1.90000000e-01 
 2.00000000e-01  3.40486880e-09  3.40023759e-09  4.58977189e-01  4.58977189e-01  3.15754702e-09  3.29972203e-09  3.21866056e-09  1.59672184e-07  1.93125125e-08  2.00000000e-01 
 2.10000000e-01  3.40486874e-09  3.40023753e-09  4.58977184e-01  4.58977184e-01  3.15754702e-09  3.29972208e-09  3.21866056e-09  1.59672174e-07  1.93123828e-08  2.10000000e-01 
 2.20000000e-01  3.40486874e-09  3.40023753e-09  4.58977184e-01  4.58977184e-01  3.15754702e-09  3.29972208e-09  3.21866056e-09  1.59672171e-07  1.93123739e-08  2.20000000e-01 
 2.30000000e-01  3.40486874e-09  3.40023753e-09  4.58977199e-01  4.58977199e-01  3.15754702e-09  3.29972203e-09  3.21866056e-09  1.59672194e-07  1.93122798e-08  2.30000000e-01 
 2.40000000e-01  3.40486880e-09  3.40023759e-09  4.58977186e-01  4.58977186e-01  3.15754696e-09  3.29972203e-09  3.21866056e-09  1.59672180e-07  1.93119973e-08  2.40000000e-01 
 2.50000000e-01  3.40486880e-09  3.40023753e-09  4.58977184e-01  4.58977184e-01  3.15754696e-09  3.29972208e-09  3.21866056e-09  1.59672188e-07  1.93119369e-08  2.50000000e-01 
 2.60000000e-01  3.40486874e-09  3.40023753e-09  4.58977184e-01  4.58977184e-01  3.15754702e-09  3.29972203e-09  3.21866056e-09  1.59672176e-07  1.93117042e-08  2.60000000e-01 
 2.70000000e-01  3.40486874e-09  3.40023753e-09  4.58977174e-01  4.58977174e-01  3.15754696e-09  3.29972208e-09  3.21866056e-09  1.59672162e-07  1.93117504e-08  2.70000000e-01 
 2.80000000e-01  3.40486874e-09  3.40023759e-09  4.58977183e-01  4.58977184e-01  3.15754702e-09  3.29972203e-09  3.21866056e-09  1.59672171e-07  1.93114378e-08  2.80000000e-01 
 2.90000000e-01  3.40486880e-09  3.40023753e-09  4.58977201e-01  4.58977201e-01  3.15754702e-09  3.29972208e-09  3.21866056e-09  1.59672212e-07  1.93114147e-08  2.90000000e-01 
 3.00000000e-01  3.40486879e-09  3.40023759e-09  4.58977163e-01  4.58977163e-01  3.15754702e-09  3.29972202e-09  3.21866056e-09  1.59672148e-07  1.93113614e-08  3.00000000e-01 
 3.10000000e-01  3.40486874e-09  3.40023759e-09  4.58977169e-01  4.58977169e-01  3.15754696e-09  3.29972208e-09  3.21866056e-09  1.59672148e-07  1.93112939e-08  3.10000000e-01 
 3.20000000e-01  3.40486880e-09  3.40023759e-09  4.58977182e-01  4.58977182e-01  3.15754702e-09  3.29972203e-09  3.21866056e-09  1.59672178e-07  1.93111447e-08  3.20000000e-01 
 3.30000000e-01  3.40486874e-09  3.40023753e-09  4.58977181e-01  4.58977181e-01  3.15754696e-09  3.29972203e-09  3.21866056e-09  1.59672174e-07  1.93110239e-08  3.30000000e-01 
 3.40000000e-01  3.40486880e-09  3.40023759e-09  4.58977179e-01  4.58977179e-01  3.15754702e-09  3.29972208e-09  3.21866050e-09  1.59672178e-07  1.93110417e-08  3.40000000e-01 
 3.50000000e-01  3.40486880e-09  3.40023753e-09  4.58977197e-01  4.58977197e-01  3.15754702e-09  3.29972208e-09  3.21866056e-09  1.59672185e-07  1.93108640e-08  3.50000000e-01 
 3.60000000e-01  3.40486880e-09  3.40023753e-09  4.58977187e-01  4.58977187e-01  3.15754702e-09  3.29972208e-09  3.21866056e-09  1.59672164e-07  1.93107894e-08  3.60000000e-01 
 3.70000000e-01  3.40486880e-09  3.40023759e-09  4.58977178e-01  4.58977178e-01  3.15754702e-09  3.29972208e-09  3.21866056e-09  1.59672156e-07  1.93107681e-08  3.70000000e-01 
 3.80000000e-01  3.40486874e-09  3.40023753e-09  4.58977171e-01  4.58977171e-01  3.15754702e-09  3.29972203e-09  3.21866056e-09  1.59672156e-07  1.93106189e-08  3.80000000e-01 
 3.90000000e-01  3.40486874e-09  3.40023753e-09  4.58977180e-01  4.58977180e-01  3.15754702e-09  3.29972203e-09  3.21866056e-09  1.59672161e-07  1.93105727e-08  3.90000000e-01 
 4.00000000e-01  3.40486880e-09  3.40023753e-09  4.58977200e-01  4.58977200e-01  3.15754702e-09  3.29972203e-09  3.21866056e-09  1.59672205e-07  1.93104448e-08  4.00000000e-01 
 4.10000000e-01  3.40486880e-09  3.40023759e-09  4.58977177e-01  4.58977177e-01  3.15754702e-09  3.29972203e-09  3.21866056e-09  1.59672176e-07  1.93104093e-08  4.10000000e-01 
 4.20000000e-01  3.40486874e-09  3.40023753e-09  4.58977178e-01  4.58977178e-01  3.15754702e-09  3.29972208e-09  3.21866056e-09  1.59672164e-07  1.93103524e-08  4.20000000e-01 
 4.30000000e-01  3.40486880e-09  3.40023753e-09  4.58977194e-01  4.58977194e-01  3.15754696e-09  3.29972208e-09  3.21866056e-09  1.59672190e-07  1.93102636e-08  4.30000000e-01 
 4.40000000e-01  3.40486880e-09  3.40023753e-09  4.58977190e-01  4.58977190e-01  3.15754702e-09  3.29972203e-09  3.21866056e-09  1.59672184e-07  1.93102316e-08  4.40000000e-01 
 4.50000000e-01  3.40486874e-09  3.40023759e-09  4.58977197e-01  4.58977197e-01  3.15754702e-09  3.29972203e-09  3.21866056e-09  1.59672189e-07  1.93101783e-08  4.50000000e-01 
 4.60000000e-01  3.40486880e-09  3.40023754e-09  4.58977204e-01  4.58977204e-01  3.15754702e-09  3.29972208e-09  3.21866056e-09  1.59672205e-07  1.93101712e-08  4.60000000e-01 
 4.70000000e-01  3.40486880e-09  3.40023759e-09  4.58977185e-01  4.58977185e-01  3.15754702e-09  3.29972203e-09  3.21866050e-09  1.59672178e-07  1.93100398e-08  4.70000000e-01 
 4.80000000e-01  3.40486880e-09  3.40023759e-09  4.58977174e-01  4.58977174e-01  3.15754702e-09  3.29972208e-09  3.21866056e-09  1.59672160e-07  1.93100789e-08  4.80000000e-01 
 4.90000000e-01  3.40486874e-09  3.40023753e-09  4.58977180e-01  4.58977180e-01  3.15754702e-09  3.29972208e-09  3.21866056e-09  1.59672174e-07  1.93099119e-08  4.90000000e-01 
 5.00000000e-01  3.40486874e-09  3.40023753e-09  4.58977201e-01  4.58977201e-01  3.15754702e-09  3.29972203e-09  3.21866056e-09  1.59672195e-07  1.93098693e-08  5.00000000e-01 
 5.10000000e-01  3.40486874e-09  3.40023759e-09  4.58977173e-01  4.58977173e-01  3.15754702e-09  3.29972203e-09  3.21866050e-09  1.59672163e-07  1.93098693e-08  5.10000000e-01 
 5.20000000e-01  3.40486874e-09  3.40023753e-09  4.58977193e-01  4.58977193e-01  3.15754702e-09  3.29972203e-09  3.21866056e-09  1.59672184e-07  1.93098266e-08  5.20000000e-01 
 5.30000000e-01  3.40486880e-09  3.40023753e-09  4.58977177e-01  4.58977177e-01  3.15754702e-09  3.29972203e-09  3.21866056e-09  1.59672164e-07  1.93097733e-08  5.30000000e-01 
 5.40000000e-01  3.40486880e-09  3.40023753e-09  4.58977173e-01  4.58977174e-01  3.15754702e-09  3.29972203e-09  3.21866056e-09  1.59672147e-07  1.93096383e-08  5.40000000e-01 
 5.50000000e-01  3.40486880e-09  3.40023753e-09  4.58977192e-01  4.58977192e-01  3.15754702e-09  3.29972208e-09  3.21866056e-09  1.59672185e-07  1.93095957e-08  5.50000000e-01 
 5.60000000e-01  3.40486874e-09  3.40023759e-09  4.58977191e-01  4.58977191e-01  3.15754696e-09  3.29972208e-09  3.21866056e-09  1.59672181e-07  1.93095602e-08  5.60000000e-01 
 5.70000000e-01  3.40486880e-09  3.40023754e-09  4.58977204e-01  4.58977204e-01  3.15754702e-09  3.29972208e-09  3.21866056e-09  1.59672206e-07  1.93094927e-08  5.70000000e-01 
 5.80000000e-01  3.40486874e-09  3.40023753e-09  4.58977192e-01  4.58977192e-01  3.15754702e-09  3.29972208e-09  3.21866056e-09  1.59672184e-07  1.93094039e-08  5.80000000e-01 
 5.90000000e-01  3.40486880e-09  3.40023759e-09  4.58977197e-01  4.58977197e-01  3.15754702e-09  3.29972208e-09  3.21866056e-09  1.59672201e-07  1.93093399e-08  5.90000000e-01 
 6.00000000e-01  3.40486874e-09  3.40023754e-09  4.58977207e-01  4.58977207e-01  3.15754696e-09  3.29972208e-09  3.21866056e-09  1.59672203e-07  1.93095104e-08  6.00000000e-01 
 6.10000000e-01  3.40486880e-09  3.40023753e-09  4.58977180e-01  4.58977180e-01  3.15754696e-09  3.29972208e-09  3.21866050e-09  1.59672167e-07  1.93093257e-08  6.10000000e-01 
 6.20000000e-01  3.40486880e-09  3.40023753e-09  4.58977188e-01  4.58977188e-01  3.15754702e-09  3.29972203e-09  3.21866056e-09  1.59672174e-07  1.93092049e-08  6.20000000e-01 
 6.30000000e-01  3.40486880e-09  3.40023754e-09  4.58977202e-01  4.58977202e-01  3.15754696e-09  3.29972208e-09  3.21866056e-09  1.59672209e-07  1.93091410e-08  6.30000000e-01 
 6.40000000e-01  3.40486880e-09  3.40023753e-09  4.58977167e-01  4.58977167e-01  3.15754702e-09  3.29972208e-09  3.21866056e-09  1.59672154e-07  1.93091765e-08  6.40000000e-01 
 6.50000000e-01  3.40486880e-09  3.40023759e-09  4.58977178e-01  4.58977178e-01  3.15754702e-09  3.29972208e-09  3.21866050e-09  1.59672159e-07  1.93090202e-08  6.50000000e-01 
 6.60000000e-01  3.40486874e-09  3.40023753e-09  4.58977167e-01  4.58977167e-01  3.15754702e-09  3.29972208e-09  3.21866050e-09  1.59672155e-07  1.93089917e-08  6.60000000e-01 
 6.70000000e-01  3.40486880e-09  3.40023753e-09  4.58977187e-01  4.58977187e-01  3.15754702e-09  3.29972203e-09  3.21866056e-09  1.59672182e-07  1.93089704e-08  6.70000000e-01 
 6.80000000e-01  3.40486874e-09  3.40023753e-09  4.58977178e-01  4.58977178e-01  3.15754702e-09  3.29972208e-09  3.21866050e-09  1.59672165e-07  1.93088212e-08  6.80000000e-01 
 6.90000000e-01  3.40486880e-09  3.40023753e-09  4.58977182e-01  4.58977182e-01  3.15754696e-09  3.29972203e-09  3.21866056e-09  1.59672167e-07  1.93088994e-08  6.90000000e-01 
 7.00000000e-01  3.40486880e-09  3.40023753e-09  4.58977191e-01  4.58977191e-01  3.15754702e-09  3.29972203e-09  3.21866050e-09  1.59672190e-07  1.93087999e-08  7.00000000e-01 
 7.10000000e-01  3.40486880e-09  3.40023753e-09  4.58977164e-01  4.58977164e-01  3.15754702e-09  3.29972202e-09  3.21866056e-09  1.59672148e-07  1.93087430e-08  7.10000000e-01 
 7.20000000e-01  3.40486880e-09  3.40023753e-09  4.58977183e-01  4.58977183e-01  3.15754702e-09  3.29972203e-09  3.21866056e-09  1.59672176e-07  1.93087217e-08  7.20000000e-01 
 7.30000000e-01  3.40486874e-09  3.40023759e-09  4.58977189e-01  4.58977189e-01  3.15754702e-09  3.29972208e-09  3.21866050e-09  1.59672183e-07  1.93085299e-08  7.30000000e-01 
 7.40000000e-01  3.40486880e-09  3.40023753e-09  4.58977187e-01  4.58977188e-01  3.15754702e-09  3.29972208e-09  3.21866056e-09  1.59672180e-07  1.93086294e-08  7.40000000e-01 
 7.50000000e-01  3.40486874e-09  3.40023753e-09  4.58977177e-01  4.58977177e-01  3.15754702e-09  3.29972208e-09  3.21866056e-09  1.59672168e-07  1.93085583e-08  7.50000000e-01 
 7.60000000e-01  3.40486880e-09  3.40023753e-09  4.58977191e-01  4.58977191e-01  3.15754702e-09  3.29972208e-09  3.21866050e-09  1.59672182e-07  1.93085725e-08  7.60000000e-01 
 7.70000000e-01  3.40486880e-09  3.40023753e-09  4.58977195e-01  4.58977195e-01  3.15754702e-09  3.29972203e-09  3.21866056e-09  1.59672192e-07  1.93084091e-08  7.70000000e-01 
 7.80000000e-01  3.40486880e-09  3.40023753e-09  4.58977179e-01  4.58977179e-01  3.15754702e-09  3.29972208e-09  3.21866050e-09  1.59672154e-07  1.93084446e-08  7.80000000e-01 
 7.90000000e-01  3.40486880e-09  3.40023754e-09  4.58977203e-01  4.58977203e-01  3.15754696e-09  3.29972208e-09  3.21866056e-09  1.59672199e-07  1.93083380e-08  7.90000000e-01 
 8.00000000e-01  3.40486874e-09  3.40023753e-09  4.58977182e-01  4.58977183e-01  3.15754696e-09  3.29972208e-09  3.21866056e-09  1.59672171e-07  1.93082599e-08  8.00000000e-01 
 8.10000000e-01  3.40486874e-09  3.40023759e-09  4.58977185e-01  4.58977185e-01  3.15754702e-09  3.29972203e-09  3.21866056e-09  1.59672164e-07  1.93082457e-08  8.10000000e-01 
 8.20000000e-01  3.40486879e-09  3.40023753e-09  4.58977161e-01  4.58977161e-01  3.15754702e-09  3.29972208e-09  3.21866056e-09  1.59672149e-07  1.93081178e-08  8.20000000e-01 
 8.30000000e-01  3.40486879e-09  3.40023753e-09  4.58977149e-01  4.58977149e-01  3.15754701e-09  3.29972202e-09  3.21866055e-09  1.59672118e-07  1.93081533e-08  8.30000000e-01 
 8.40000000e-01  3.40486874e-09  3.40023759e-09  4.58977177e-01  4.58977177e-01  3.15754702e-09  3.29972203e-09  3.21866056e-09  1.59672176e-07  1.93080965e-08  8.40000000e-01 
 8.50000000e-01  3.40486874e-09  3.40023759e-09  4.58977206e-01  4.58977207e-01  3.15754702e-09  3.29972203e-09  3.21866050e-09  1.59672217e-07  1.93080609e-08  8.50000000e-01 
 8.60000000e-01  3.40486880e-09  3.40023759e-09  4.58977180e-01  4.58977180e-01  3.15754702e-09  3.29972208e-09  3.21866056e-09  1.59672181e-07  1.93081249e-08  8.60000000e-01 
 8.70000000e-01  3.40486880e-09  3.40023753e-09  4.58977178e-01  4.58977178e-01  3.15754702e-09  3.29972208e-09  3.21866056e-09  1.59672155e-07  1.93078122e-08  8.70000000e-01 
 8.80000000e-01  3.40486874e-09  3.40023759e-09  4.58977170e-01  4.58977171e-01  3.15754702e-09  3.29972203e-09  3.21866056e-09  1.59672155e-07  1.93079472e-08  8.80000000e-01 
 8.90000000e-01  3.40486880e-09  3.40023759e-09  4.58977190e-01  4.58977190e-01  3.15754702e-09  3.29972208e-09  3.21866050e-09  1.59672191e-07  1.93079188e-08  8.90000000e-01 
 9.00000000e-01  3.40486874e-09  3.40023753e-09  4.58977182e-01  4.58977183e-01  3.15754696e-09  3.29972208e-09  3.21866056e-09  1.59672168e-07  1.93077767e-08  9.00000000e-01 
 9.10000000e-01  3.40486874e-09  3.40023753e-09  4.58977199e-01  4.58977199e-01  3.15754696e-09  3.29972203e-09  3.21866056e-09  1.59672191e-07  1.93076986e-08  9.10000000e-01 
 9.20000000e-01  3.40486880e-09  3.40023753e-09  4.58977195e-01  4.58977195e-01  3.15754696e-09  3.29972208e-09  3.21866056e-09  1.59672183e-07  1.93076701e-08  9.20000000e-01 
 9.30000000e-01  3.40486874e-09  3.40023753e-09  4.58977176e-01  4.58977176e-01  3.15754702e-09  3.29972208e-09  3.21866050e-09  1.59672159e-07  1.93076559e-08  9.30000000e-01 
 9.40000000e-01  3.40486879e-09  3.40023753e-09  4.58977157e-01  4.58977158e-01  3.15754701e-09  3.29972202e-09  3.21866056e-09  1.59672136e-07  1.93075991e-08  9.40000000e-01 
 9.50000000e-01  3.40486880e-09  3.40023753e-09  4.58977165e-01  4.58977165e-01  3.15754702e-09  3.29972208e-09  3.21866056e-09  1.59672156e-07  1.93075422e-08  9.50000000e-01 
 9.60000000e-01  3.40486874e-09  3.40023759e-09  4.58977202e-01  4.58977202e-01  3.15754696e-09  3.29972208e-09  3.21866050e-09  1.59672209e-07  1.93075707e-08  9.60000000e-01 
 9.70000000e-01  3.40486880e-09  3.40023759e-09  4.58977183e-01  4.58977183e-01  3.15754702e-09  3.29972203e-09  3.21866056e-09  1.59672174e-07  1.93073717e-08  9.70000000e-01 
 9.80000000e-01  3.40486874e-09  3.40023753e-09  4.58977179e-01  4.58977179e-01  3.15754696e-09  3.29972208e-09  3.21866056e-09  1.59672171e-07  1.93073149e-08  9.80000000e-01 
 9.90000000e-01  3.40486874e-09  3.40023753e-09  4.58977187e-01  4.58977188e-01  3.15754702e-09  3.29972208e-09  3.21866056e-09  1.59672180e-07  1.93073149e-08  9.90000000e-01 
 1.00000000e+00  3.40486880e-09  3.40023759e-09  4.58977193e-01  4.58977193e-01  3.15754702e-09  3.29972208e-09  3.21866050e-09  1.59672180e-07  1.93072509e-08  1.00000000e+00 
 1.01000000e+00  3.40486879e-09  3.40023753e-09  4.58977162e-01  4.58977163e-01  3.15754702e-09  3.29972208e-09  3.21866056e-09  1.59672141e-07  1.93072651e-08  1.01000000e+00 
 1.02000000e+00  3.40486874e-09  3.40023759e-09  4.58977173e-01  4.58977173e-01  3.15754702e-09  3.29972203e-09  3.21866050e-09  1.59672148e-07  1.93072225e-08  1.02000000e+00 
 1.03000000e+00  3.40486874e-09  3.40023759e-09  4.58977189e-01  4.58977189e-01  3.15754702e-09  3.29972208e-09  3.21866056e-09  1.59672176e-07  1.93071585e-08  1.03000000e+00 
 1.04000000e+00  3.40486874e-09  3.40023753e-09  4.58977183e-01  4.58977183e-01  3.15754702e-09  3.29972208e-09  3.21866056e-09  1.59672177e-07  1.93069880e-08  1.04000000e+00 
 1.05000000e+00  3.40486880e-09  3.40023759e-09  4.58977202e-01  4.58977202e-01  3.15754696e-09  3.29972208e-09  3.21866056e-09  1.59672204e-07  1.93069383e-08  1.05000000e+00 
 1.06000000e+00  3.40486874e-09  3.40023759e-09  4.58977176e-01  4.58977176e-01  3.15754702e-09  3.29972203e-09  3.21866056e-09  1.59672168e-07  1.93069809e-08  1.06000000e+00 
 1.07000000e+00  3.40486880e-09  3.40023753e-09  4.58977170e-01  4.58977170e-01  3.15754702e-09  3.29972203e-09  3.21866056e-09  1.59672152e-07  1.93069383e-08  1.07000000e+00 
 1.08000000e+00  3.40486880e-09  3.40023753e-09  4.58977182e-01  4.58977182e-01  3.15754702e-09  3.29972208e-09  3.21866050e-09  1.59672180e-07  1.93068246e-08  1.08000000e+00 
 1.09000000e+00  3.40486874e-09  3.40023753e-09  4.58977180e-01  4.58977180e-01  3.15754702e-09  3.29972203e-09  3.21866056e-09  1.59672167e-07  1.93067109e-08  1.09000000e+00 
 1.10000000e+00  3.40486880e-09  3.40023759e-09  4.58977190e-01  4.58977190e-01  3.15754702e-09  3.29972203e-09  3.21866056e-09  1.59672185e-07  1.93067180e-08  1.10000000e+00 
