 v-sweep         v(b0)           v(b1)           v(b2)           v(b3)           v(b4)           v(b5)           v(b6)           i(vbias)        i(viout)        v(vout)        
 0.00000000e+00  4.56988090e-01  4.56988090e-01  3.40145551e-09  4.56988090e-01  4.56988090e-01  4.56988090e-01  3.35013498e-09  1.55586216e-07  8.68313830e-08  0.00000000e+00 
 1.00000000e-02  4.56988101e-01  4.56988101e-01  3.40145555e-09  4.56988101e-01  4.56988101e-01  4.56988101e-01  3.35013496e-09  1.55586238e-07  8.68309646e-08  1.00000000e-02 
 2.00000000e-02  4.56988106e-01  4.56988106e-01  3.40145554e-09  4.56988106e-01  4.56988107e-01  4.56988107e-01  3.35013496e-09  1.55586249e-07  8.68306067e-08  2.00000000e-02 
 3.00000000e-02  4.56988093e-01  4.56988093e-01  3.40145550e-09  4.56988093e-01  4.56988093e-01  4.56988093e-01  3.35013490e-09  1.55586222e-07  8.68302161e-08  3.00000000e-02 
 4.00000000e-02  4.56988099e-01  4.56988099e-01  3.40145549e-09  4.56988099e-01  4.56988099e-01  4.56988099e-01  3.35013492e-09  1.55586231e-07  8.68299379e-08  4.00000000e-02 
 5.00000000e-02  4.56988107e-01  4.56988107e-01  3.40145549e-09  4.56988107e-01  4.56988107e-01  4.56988107e-01  3.35013497e-09  1.55586242e-07  8.68296466e-08  5.00000000e-02 
 6.00000000e-02  4.56988119e-01  4.56988119e-01  3.40145549e-09  4.56988119e-01  4.56988119e-01  4.56988119e-01  3.35013496e-09  1.55586265e-07  8.68293060e-08  6.00000000e-02 
 7.00000000e-02  4.56988110e-01  4.56988110e-01  3.40145549e-09  4.56988110e-01  4.56988110e-01  4.56988110e-01  3.35013496e-09  1.55586257e-07  8.68288814e-08  7.00000000e-02 
 8.00000000e-02  4.56988083e-01  4.56988083e-01  3.40145555e-09  4.56988083e-01  4.56988083e-01  4.56988083e-01  3.35013490e-09  1.55586221e-07  8.68285905e-08  8.00000000e-02 
 9.00000000e-02  4.56988118e-01  4.56988118e-01  3.40145554e-09  4.56988118e-01  4.56988118e-01  4.56988118e-01  3.35013498e-09  1.55586273e-07  8.68283232e-08  9.00000000e-02 
 1.00000000e-01  4.56988106e-01  4.56988106e-01  3.40145550e-09  4.56988106e-01  4.56988106e-01  4.56988106e-01  3.35013496e-09  1.55586238e-07  8.68281127e-08  1.00000000e-01 
 1.10000000e-01  4.56988097e-01  4.56988097e-01  3.40145555e-09  4.56988097e-01  4.56988097e-01  4.56988097e-01  3.35013496e-09  1.55586228e-07  8.68278063e-08  1.10000000e-01 
 1.20000000e-01  4.56988106e-01  4.56988106e-01  3.40145554e-09  4.56988106e-01  4.56988106e-01  4.56988106e-01  3.35013496e-09  1.55586238e-07  8.68275620e-08  1.20000000e-01 
 1.30000000e-01  4.56988105e-01  4.56988105e-01  3.40145550e-09  4.56988105e-01  4.56988105e-01  4.56988105e-01  3.35013491e-09  1.55586246e-07  8.68273196e-08  1.30000000e-01 
 1.40000000e-01  4.56988102e-01  4.56988102e-01  3.40145555e-09  4.56988102e-01  4.56988102e-01  4.56988102e-01  3.35013492e-09  1.55586243e-07  8.68270913e-08  1.40000000e-01 
 1.50000000e-01  4.56988094e-01  4.56988094e-01  3.40145548e-09  4.56988094e-01  4.56988094e-01  4.56988094e-01  3.35013497e-09  1.55586239e-07  8.68268923e-08  1.50000000e-01 
 1.60000000e-01  4.56988105e-01  4.56988105e-01  3.40145550e-09  4.56988105e-01  4.56988105e-01  4.56988105e-01  3.35013496e-09  1.55586238e-07  8.68266863e-08  1.60000000e-01 
 1.70000000e-01  4.56988109e-01  4.56988109e-01  3.40145549e-09  4.56988109e-01  4.56988109e-01  4.56988109e-01  3.35013491e-09  1.55586271e-07  8.68264998e-08  1.70000000e-01 
 1.80000000e-01  4.56988106e-01  4.56988106e-01  3.40145555e-09  4.56988106e-01  4.56988106e-01  4.56988106e-01  3.35013492e-09  1.55586248e-07  8.68263204e-08  1.80000000e-01 
 1.90000000e-01  4.56988076e-01  4.56988076e-01  3.40145554e-09  4.56988076e-01  4.56988076e-01  4.56988076e-01  3.35013497e-09  1.55586199e-07  8.68260575e-08  1.90000000e-01 
 2.00000000e-01  4.56988092e-01  4.56988092e-01  3.40145550e-09  4.56988092e-01  4.56988092e-01  4.56988092e-01  3.35013496e-09  1.55586233e-07  8.68259189e-08  2.00000000e-01 
 2.10000000e-01  4.56988093e-01  4.56988093e-01  3.40145555e-09  4.56988093e-01  4.56988093e-01  4.56988094e-01  3.35013496e-09  1.55586209e-07  8.68258425e-08  2.10000000e-01 
 2.20000000e-01  4.56988104e-01  4.56988104e-01  3.40145548e-09  4.56988104e-01  4.56988104e-01  4.56988104e-01  3.35013496e-09  1.55586256e-07  8.68256880e-08  2.20000000e-01 
 2.30000000e-01  4.56988119e-01  4.56988119e-01  3.40145550e-09  4.56988119e-01  4.56988119e-01  4.56988119e-01  3.35013496e-09  1.55586267e-07  8.68254642e-08  2.30000000e-01 
 2.40000000e-01  4.56988113e-01  4.56988113e-01  3.40145555e-09  4.56988113e-01  4.56988113e-01  4.56988113e-01  3.35013496e-09  1.55586249e-07  8.68253291e-08  2.40000000e-01 
 2.50000000e-01  4.56988086e-01  4.56988086e-01  3.40145548e-09  4.56988086e-01  4.56988086e-01  4.56988086e-01  3.35013496e-09  1.55586212e-07  8.68251497e-08  2.50000000e-01 
 2.60000000e-01  4.56988105e-01  4.56988105e-01  3.40145555e-09  4.56988105e-01  4.56988105e-01  4.56988105e-01  3.35013496e-09  1.55586263e-07  8.68251036e-08  2.60000000e-01 
 2.70000000e-01  4.56988113e-01  4.56988113e-01  3.40145554e-09  4.56988113e-01  4.56988113e-01  4.56988113e-01  3.35013496e-09  1.55586263e-07  8.68249028e-08  2.70000000e-01 
 2.80000000e-01  4.56988098e-01  4.56988098e-01  3.40145550e-09  4.56988098e-01  4.56988098e-01  4.56988098e-01  3.35013496e-09  1.55586226e-07  8.68247909e-08  2.80000000e-01 
 2.90000000e-01  4.56988091e-01  4.56988091e-01  3.40145549e-09  4.56988091e-01  4.56988091e-01  4.56988091e-01  3.35013496e-09  1.55586229e-07  8.68247199e-08  2.90000000e-01 
 3.00000000e-01  4.56988091e-01  4.56988091e-01  3.40145555e-09  4.56988091e-01  4.56988091e-01  4.56988091e-01  3.35013496e-09  1.55586222e-07  8.68245245e-08  3.00000000e-01 
 3.10000000e-01  4.56988097e-01  4.56988097e-01  3.40145548e-09  4.56988097e-01  4.56988097e-01  4.56988097e-01  3.35013496e-09  1.55586233e-07  8.68243681e-08  3.10000000e-01 
 3.20000000e-01  4.56988113e-01  4.56988113e-01  3.40145555e-09  4.56988113e-01  4.56988113e-01  4.56988113e-01  3.35013496e-09  1.55586255e-07  8.68243504e-08  3.20000000e-01 
 3.30000000e-01  4.56988097e-01  4.56988097e-01  3.40145554e-09  4.56988097e-01  4.56988097e-01  4.56988097e-01  3.35013496e-09  1.55586248e-07  8.68243220e-08  3.30000000e-01 
 3.40000000e-01  4.56988126e-01  4.56988126e-01  3.40145550e-09  4.56988126e-01  4.56988126e-01  4.56988126e-01  3.35013496e-09  1.55586266e-07  8.68241976e-08  3.40000000e-01 
 3.50000000e-01  4.56988105e-01  4.56988105e-01  3.40145549e-09  4.56988105e-01  4.56988105e-01  4.56988105e-01  3.35013496e-09  1.55586235e-07  8.68240946e-08  3.50000000e-01 
 3.60000000e-01  4.56988076e-01  4.56988076e-01  3.40145555e-09  4.56988076e-01  4.56988076e-01  4.56988076e-01  3.35013496e-09  1.55586189e-07  8.68239063e-08  3.60000000e-01 
 3.70000000e-01  4.56988081e-01  4.56988081e-01  3.40145554e-09  4.56988081e-01  4.56988081e-01  4.56988081e-01  3.35013496e-09  1.55586209e-07  8.68238175e-08  3.70000000e-01 
 3.80000000e-01  4.56988092e-01  4.56988092e-01  3.40145555e-09  4.56988092e-01  4.56988092e-01  4.56988092e-01  3.35013496e-09  1.55586217e-07  8.68237748e-08  3.80000000e-01 
 3.90000000e-01  4.56988100e-01  4.56988100e-01  3.40145548e-09  4.56988100e-01  4.56988100e-01  4.56988100e-01  3.35013491e-09  1.55586236e-07  8.68237358e-08  3.90000000e-01 
 4.00000000e-01  4.56988101e-01  4.56988101e-01  3.40145555e-09  4.56988101e-01  4.56988101e-01  4.56988101e-01  3.35013492e-09  1.55586237e-07  8.68235972e-08  4.00000000e-01 
 4.10000000e-01  4.56988094e-01  4.56988094e-01  3.40145548e-09  4.56988094e-01  4.56988094e-01  4.56988094e-01  3.35013497e-09  1.55586217e-07  8.68234267e-08  4.10000000e-01 
 4.20000000e-01  4.56988103e-01  4.56988103e-01  3.40145550e-09  4.56988103e-01  4.56988103e-01  4.56988103e-01  3.35013496e-09  1.55586234e-07  8.68233734e-08  4.20000000e-01 
 4.30000000e-01  4.56988090e-01  4.56988090e-01  3.40145549e-09  4.56988090e-01  4.56988090e-01  4.56988091e-01  3.35013496e-09  1.55586225e-07  8.68232668e-08  4.30000000e-01 
 4.40000000e-01  4.56988087e-01  4.56988087e-01  3.40145549e-09  4.56988087e-01  4.56988087e-01  4.56988087e-01  3.35013496e-09  1.55586222e-07  8.68231389e-08  4.40000000e-01 
 4.50000000e-01  4.56988075e-01  4.56988075e-01  3.40145549e-09  4.56988075e-01  4.56988075e-01  4.56988075e-01  3.35013496e-09  1.55586190e-07  8.68231496e-08  4.50000000e-01 
 4.60000000e-01  4.56988089e-01  4.56988089e-01  3.40145549e-09  4.56988089e-01  4.56988089e-01  4.56988089e-01  3.35013496e-09  1.55586231e-07  8.68230146e-08  4.60000000e-01 
 4.70000000e-01  4.56988087e-01  4.56988087e-01  3.40145555e-09  4.56988087e-01  4.56988087e-01  4.56988087e-01  3.35013496e-09  1.55586215e-07  8.68230217e-08  4.70000000e-01 
 4.80000000e-01  4.56988077e-01  4.56988077e-01  3.40145554e-09  4.56988077e-01  4.56988077e-01  4.56988077e-01  3.35013496e-09  1.55586206e-07  8.68228192e-08  4.80000000e-01 
 4.90000000e-01  4.56988105e-01  4.56988105e-01  3.40145550e-09  4.56988105e-01  4.56988105e-01  4.56988105e-01  3.35013496e-09  1.55586248e-07  8.68228902e-08  4.90000000e-01 
 5.00000000e-01  4.56988108e-01  4.56988108e-01  3.40145549e-09  4.56988108e-01  4.56988108e-01  4.56988108e-01  3.35013496e-09  1.55586257e-07  8.68228440e-08  5.00000000e-01 
 5.10000000e-01  4.56988103e-01  4.56988103e-01  3.40145549e-09  4.56988103e-01  4.56988103e-01  4.56988103e-01  3.35013496e-09  1.55586221e-07  8.68227090e-08  5.10000000e-01 
 5.20000000e-01  4.56988086e-01  4.56988086e-01  3.40145555e-09  4.56988086e-01  4.56988086e-01  4.56988086e-01  3.35013496e-09  1.55586216e-07  8.68226167e-08  5.20000000e-01 
 5.30000000e-01  4.56988102e-01  4.56988102e-01  3.40145548e-09  4.56988102e-01  4.56988102e-01  4.56988102e-01  3.35013496e-09  1.55586230e-07  8.68225243e-08  5.30000000e-01 
 5.40000000e-01  4.56988110e-01  4.56988110e-01  3.40145550e-09  4.56988110e-01  4.56988110e-01  4.56988110e-01  3.35013496e-09  1.55586256e-07  8.68224852e-08  5.40000000e-01 
 5.50000000e-01  4.56988090e-01  4.56988090e-01  3.40145555e-09  4.56988090e-01  4.56988090e-01  4.56988090e-01  3.35013490e-09  1.55586230e-07  8.68223822e-08  5.50000000e-01 
 5.60000000e-01  4.56988106e-01  4.56988106e-01  3.40145554e-09  4.56988106e-01  4.56988106e-01  4.56988106e-01  3.35013492e-09  1.55586235e-07  8.68223715e-08  5.60000000e-01 
 5.70000000e-01  4.56988121e-01  4.56988121e-01  3.40145556e-09  4.56988121e-01  4.56988121e-01  4.56988121e-01  3.35013491e-09  1.55586253e-07  8.68222614e-08  5.70000000e-01 
 5.80000000e-01  4.56988104e-01  4.56988104e-01  3.40145554e-09  4.56988104e-01  4.56988104e-01  4.56988104e-01  3.35013497e-09  1.55586239e-07  8.68222685e-08  5.80000000e-01 
 5.90000000e-01  4.56988091e-01  4.56988091e-01  3.40145550e-09  4.56988091e-01  4.56988091e-01  4.56988091e-01  3.35013496e-09  1.55586225e-07  8.68221193e-08  5.90000000e-01 
 6.00000000e-01  4.56988103e-01  4.56988103e-01  3.40145549e-09  4.56988103e-01  4.56988103e-01  4.56988103e-01  3.35013496e-09  1.55586241e-07  8.68220837e-08  6.00000000e-01 
 6.10000000e-01  4.56988124e-01  4.56988124e-01  3.40145549e-09  4.56988124e-01  4.56988124e-01  4.56988124e-01  3.35013491e-09  1.55586283e-07  8.68219701e-08  6.10000000e-01 
 6.20000000e-01  4.56988097e-01  4.56988097e-01  3.40145549e-09  4.56988097e-01  4.56988097e-01  4.56988097e-01  3.35013497e-09  1.55586230e-07  8.68219630e-08  6.20000000e-01 
 6.30000000e-01  4.56988107e-01  4.56988107e-01  3.40145555e-09  4.56988107e-01  4.56988107e-01  4.56988107e-01  3.35013496e-09  1.55586244e-07  8.68217782e-08  6.30000000e-01 
 6.40000000e-01  4.56988116e-01  4.56988116e-01  3.40145554e-09  4.56988116e-01  4.56988116e-01  4.56988116e-01  3.35013496e-09  1.55586262e-07  8.68218564e-08  6.40000000e-01 
 6.50000000e-01  4.56988091e-01  4.56988091e-01  3.40145555e-09  4.56988091e-01  4.56988091e-01  4.56988091e-01  3.35013496e-09  1.55586233e-07  8.68217995e-08  6.50000000e-01 
 6.60000000e-01  4.56988083e-01  4.56988083e-01  3.40145554e-09  4.56988083e-01  4.56988083e-01  4.56988083e-01  3.35013496e-09  1.55586206e-07  8.68216716e-08  6.60000000e-01 
 6.70000000e-01  4.56988067e-01  4.56988067e-01  3.40145555e-09  4.56988067e-01  4.56988067e-01  4.56988067e-01  3.35013496e-09  1.55586179e-07  8.68216006e-08  6.70000000e-01 
 6.80000000e-01  4.56988073e-01  4.56988073e-01  3.40145554e-09  4.56988073e-01  4.56988073e-01  4.56988073e-01  3.35013496e-09  1.55586203e-07  8.68213661e-08  6.80000000e-01 
 6.90000000e-01  4.56988098e-01  4.56988098e-01  3.40145555e-09  4.56988098e-01  4.56988098e-01  4.56988098e-01  3.35013496e-09  1.55586228e-07  8.68213803e-08  6.90000000e-01 
 7.00000000e-01  4.56988092e-01  4.56988092e-01  3.40145554e-09  4.56988092e-01  4.56988092e-01  4.56988092e-01  3.35013496e-09  1.55586227e-07  8.68213945e-08  7.00000000e-01 
 7.10000000e-01  4.56988092e-01  4.56988092e-01  3.40145550e-09  4.56988092e-01  4.56988092e-01  4.56988092e-01  3.35013490e-09  1.55586221e-07  8.68211956e-08  7.10000000e-01 
 7.20000000e-01  4.56988091e-01  4.56988091e-01  3.40145549e-09  4.56988091e-01  4.56988091e-01  4.56988091e-01  3.35013492e-09  1.55586211e-07  8.68212169e-08  7.20000000e-01 
 7.30000000e-01  4.56988072e-01  4.56988072e-01  3.40145549e-09  4.56988072e-01  4.56988072e-01  4.56988072e-01  3.35013491e-09  1.55586192e-07  8.68211032e-08  7.30000000e-01 
 7.40000000e-01  4.56988076e-01  4.56988076e-01  3.40145555e-09  4.56988076e-01  4.56988076e-01  4.56988076e-01  3.35013497e-09  1.55586197e-07  8.68211103e-08  7.40000000e-01 
 7.50000000e-01  4.56988109e-01  4.56988109e-01  3.40145548e-09  4.56988109e-01  4.56988109e-01  4.56988109e-01  3.35013496e-09  1.55586256e-07  8.68209256e-08  7.50000000e-01 
 7.60000000e-01  4.56988100e-01  4.56988100e-01  3.40145550e-09  4.56988100e-01  4.56988100e-01  4.56988100e-01  3.35013491e-09  1.55586236e-07  8.68209469e-08  7.60000000e-01 
 7.70000000e-01  4.56988113e-01  4.56988113e-01  3.40145555e-09  4.56988113e-01  4.56988113e-01  4.56988113e-01  3.35013492e-09  1.55586253e-07  8.68208971e-08  7.70000000e-01 
 7.80000000e-01  4.56988114e-01  4.56988114e-01  3.40145554e-09  4.56988114e-01  4.56988114e-01  4.56988114e-01  3.35013496e-09  1.55586265e-07  8.68208616e-08  7.80000000e-01 
 7.90000000e-01  4.56988118e-01  4.56988118e-01  3.40145550e-09  4.56988118e-01  4.56988118e-01  4.56988118e-01  3.35013491e-09  1.55586270e-07  8.68207266e-08  7.90000000e-01 
 8.00000000e-01  4.56988102e-01  4.56988102e-01  3.40145555e-09  4.56988102e-01  4.56988102e-01  4.56988103e-01  3.35013492e-09  1.55586250e-07  8.68207124e-08  8.00000000e-01 
 8.10000000e-01  4.56988090e-01  4.56988090e-01  3.40145548e-09  4.56988090e-01  4.56988090e-01  4.56988090e-01  3.35013497e-09  1.55586223e-07  8.68205348e-08  8.10000000e-01 
 8.20000000e-01  4.56988095e-01  4.56988095e-01  3.40145555e-09  4.56988095e-01  4.56988095e-01  4.56988095e-01  3.35013496e-09  1.55586234e-07  8.68205490e-08  8.20000000e-01 
 8.30000000e-01  4.56988064e-01  4.56988064e-01  3.40145553e-09  4.56988064e-01  4.56988064e-01  4.56988064e-01  3.35013490e-09  1.55586176e-07  8.68204069e-08  8.30000000e-01 
 8.40000000e-01  4.56988095e-01  4.56988095e-01  3.40145550e-09  4.56988095e-01  4.56988095e-01  4.56988095e-01  3.35013497e-09  1.55586236e-07  8.68203784e-08  8.40000000e-01 
 8.50000000e-01  4.56988095e-01  4.56988095e-01  3.40145549e-09  4.56988095e-01  4.56988095e-01  4.56988095e-01  3.35013496e-09  1.55586238e-07  8.68203216e-08  8.50000000e-01 
 8.60000000e-01  4.56988087e-01  4.56988087e-01  3.40145549e-09  4.56988087e-01  4.56988087e-01  4.56988087e-01  3.35013490e-09  1.55586217e-07  8.68202150e-08  8.60000000e-01 
 8.70000000e-01  4.56988091e-01  4.56988091e-01  3.40145555e-09  4.56988091e-01  4.56988091e-01  4.56988091e-01  3.35013497e-09  1.55586222e-07  8.68201013e-08  8.70000000e-01 
 8.80000000e-01  4.56988075e-01  4.56988075e-01  3.40145554e-09  4.56988075e-01  4.56988075e-01  4.56988075e-01  3.35013495e-09  1.55586200e-07  8.68199876e-08  8.80000000e-01 
 8.90000000e-01  4.56988090e-01  4.56988090e-01  3.40145550e-09  4.56988090e-01  4.56988090e-01  4.56988090e-01  3.35013496e-09  1.55586238e-07  8.68199805e-08  8.90000000e-01 
 9.00000000e-01  4.56988090e-01  4.56988090e-01  3.40145549e-09  4.56988090e-01  4.56988090e-01  4.56988090e-01  3.35013496e-09  1.55586218e-07  8.68199237e-08  9.00000000e-01 
 9.10000000e-01  4.56988089e-01  4.56988089e-01  3.40145549e-09  4.56988089e-01  4.56988090e-01  4.56988090e-01  3.35013490e-09  1.55586224e-07  8.68198526e-08  9.10000000e-01 
 9.20000000e-01  4.56988076e-01  4.56988076e-01  3.40145555e-09  4.56988076e-01  4.56988076e-01  4.56988076e-01  3.35013497e-09  1.55586200e-07  8.68197105e-08  9.20000000e-01 
 9.30000000e-01  4.56988087e-01  4.56988087e-01  3.40145554e-09  4.56988087e-01  4.56988087e-01  4.56988087e-01  3.35013495e-09  1.55586213e-07  8.68196963e-08  9.30000000e-01 
 9.40000000e-01  4.56988078e-01  4.56988078e-01  3.40145550e-09  4.56988078e-01  4.56988078e-01  4.56988079e-01  3.35013496e-09  1.55586205e-07  8.68196111e-08  9.40000000e-01 
 9.50000000e-01  4.56988090e-01  4.56988090e-01  3.40145549e-09  4.56988090e-01  4.56988090e-01  4.56988090e-01  3.35013490e-09  1.55586233e-07  8.68195045e-08  9.50000000e-01 
 9.60000000e-01  4.56988084e-01  4.56988084e-01  3.40145555e-09  4.56988084e-01  4.56988084e-01  4.56988084e-01  3.35013492e-09  1.55586214e-07  8.68195400e-08  9.60000000e-01 
 9.70000000e-01  4.56988111e-01  4.56988111e-01  3.40145554e-09  4.56988111e-01  4.56988111e-01  4.56988111e-01  3.35013491e-09  1.55586261e-07  8.68194761e-08  9.70000000e-01 
 9.80000000e-01  4.56988104e-01  4.56988104e-01  3.40145550e-09  4.56988104e-01  4.56988104e-01  4.56988104e-01  3.35013497e-09  1.55586246e-07  8.68193553e-08  9.80000000e-01 
 9.90000000e-01  4.56988081e-01  4.56988081e-01  3.40145555e-09  4.56988081e-01  4.56988081e-01  4.56988081e-01  3.35013495e-09  1.55586214e-07  8.68193126e-08  9.90000000e-01 
 1.00000000e+00  4.56988077e-01  4.56988077e-01  3.40145554e-09  4.56988077e-01  4.56988077e-01  4.56988077e-01  3.35013496e-09  1.55586190e-07  8.68191989e-08  1.00000000e+00 
 1.01000000e+00  4.56988110e-01  4.56988110e-01  3.40145550e-09  4.56988110e-01  4.56988110e-01  4.56988110e-01  3.35013491e-09  1.55586247e-07  8.68191776e-08  1.01000000e+00 
 1.02000000e+00  4.56988110e-01  4.56988110e-01  3.40145555e-09  4.56988110e-01  4.56988110e-01  4.56988110e-01  3.35013498e-09  1.55586260e-07  8.68190924e-08  1.02000000e+00 
 1.03000000e+00  4.56988084e-01  4.56988084e-01  3.40145548e-09  4.56988084e-01  4.56988084e-01  4.56988084e-01  3.35013495e-09  1.55586201e-07  8.68188863e-08  1.03000000e+00 
 1.04000000e+00  4.56988098e-01  4.56988098e-01  3.40145550e-09  4.56988098e-01  4.56988098e-01  4.56988098e-01  3.35013496e-09  1.55586250e-07  8.68187655e-08  1.04000000e+00 
 1.05000000e+00  4.56988067e-01  4.56988067e-01  3.40145549e-09  4.56988067e-01  4.56988067e-01  4.56988067e-01  3.35013496e-09  1.55586181e-07  8.68187158e-08  1.05000000e+00 
 1.06000000e+00  4.56988111e-01  4.56988111e-01  3.40145555e-09  4.56988111e-01  4.56988111e-01  4.56988111e-01  3.35013496e-09  1.55586256e-07  8.68188437e-08  1.06000000e+00 
 1.07000000e+00  4.56988083e-01  4.56988083e-01  3.40145554e-09  4.56988083e-01  4.56988083e-01  4.56988083e-01  3.35013496e-09  1.55586216e-07  8.68186163e-08  1.07000000e+00 
 1.08000000e+00  4.56988102e-01  4.56988102e-01  3.40145550e-09  4.56988102e-01  4.56988102e-01  4.56988102e-01  3.35013496e-09  1.55586228e-07  8.68185666e-08  1.08000000e+00 
 1.09000000e+00  4.56988091e-01  4.56988091e-01  3.40145555e-09  4.56988091e-01  4.56988092e-01  4.56988092e-01  3.35013496e-09  1.55586228e-07  8.68183676e-08  1.09000000e+00 
 1.10000000e+00  4.56988089e-01  4.56988089e-01  3.40145548e-09  4.56988089e-01  4.56988089e-01  4.56988089e-01  3.35013496e-09  1.55586219e-07  8.68183676e-08  1.10000000e+00 
