 v-sweep         v(b0)           v(b1)           v(b2)           v(b3)           v(b4)           v(b5)           v(b6)           i(vbias)        i(viout)        v(vout)        
 0.00000000e+00  4.59809679e-01  4.59809679e-01  3.37304322e-09  4.59809679e-01  4.59809679e-01  4.59809679e-01  4.59809679e-01  1.60618167e-07  1.92287829e-07  0.00000000e+00 
 1.00000000e-02  4.59809656e-01  4.59809656e-01  3.37304320e-09  4.59809656e-01  4.59809656e-01  4.59809656e-01  4.59809656e-01  1.60618132e-07  1.92287293e-07  1.00000000e-02 
 2.00000000e-02  4.59809643e-01  4.59809643e-01  3.37304320e-09  4.59809643e-01  4.59809643e-01  4.59809643e-01  4.59809643e-01  1.60618117e-07  1.92286616e-07  2.00000000e-02 
 3.00000000e-02  4.59809639e-01  4.59809638e-01  3.37304320e-09  4.59809638e-01  4.59809639e-01  4.59809638e-01  4.59809638e-01  1.60618106e-07  1.92286233e-07  3.00000000e-02 
 4.00000000e-02  4.59809672e-01  4.59809672e-01  3.37304321e-09  4.59809672e-01  4.59809672e-01  4.59809672e-01  4.59809672e-01  1.60618155e-07  1.92285944e-07  4.00000000e-02 
 5.00000000e-02  4.59809669e-01  4.59809669e-01  3.37304321e-09  4.59809669e-01  4.59809669e-01  4.59809669e-01  4.59809669e-01  1.60618147e-07  1.92285499e-07  5.00000000e-02 
 6.00000000e-02  4.59809682e-01  4.59809682e-01  3.37304321e-09  4.59809682e-01  4.59809682e-01  4.59809682e-01  4.59809682e-01  1.60618173e-07  1.92285240e-07  6.00000000e-02 
 7.00000000e-02  4.59809641e-01  4.59809641e-01  3.37304320e-09  4.59809641e-01  4.59809641e-01  4.59809641e-01  4.59809641e-01  1.60618098e-07  1.92284600e-07  7.00000000e-02 
 8.00000000e-02  4.59809658e-01  4.59809658e-01  3.37304320e-09  4.59809658e-01  4.59809658e-01  4.59809658e-01  4.59809658e-01  1.60618137e-07  1.92284382e-07  8.00000000e-02 
 9.00000000e-02  4.59809659e-01  4.59809659e-01  3.37304320e-09  4.59809659e-01  4.59809659e-01  4.59809659e-01  4.59809659e-01  1.60618137e-07  1.92284015e-07  9.00000000e-02 
 1.00000000e-01  4.59809648e-01  4.59809648e-01  3.37304320e-09  4.59809648e-01  4.59809648e-01  4.59809648e-01  4.59809648e-01  1.60618111e-07  1.92283585e-07  1.00000000e-01 
 1.10000000e-01  4.59809668e-01  4.59809668e-01  3.37304321e-09  4.59809668e-01  4.59809668e-01  4.59809668e-01  4.59809668e-01  1.60618149e-07  1.92283328e-07  1.10000000e-01 
 1.20000000e-01  4.59809639e-01  4.59809639e-01  3.37304320e-09  4.59809639e-01  4.59809639e-01  4.59809639e-01  4.59809639e-01  1.60618097e-07  1.92282881e-07  1.20000000e-01 
 1.30000000e-01  4.59809645e-01  4.59809645e-01  3.37304320e-09  4.59809645e-01  4.59809645e-01  4.59809645e-01  4.59809645e-01  1.60618117e-07  1.92282642e-07  1.30000000e-01 
 1.40000000e-01  4.59809670e-01  4.59809670e-01  3.37304321e-09  4.59809670e-01  4.59809670e-01  4.59809670e-01  4.59809670e-01  1.60618149e-07  1.92282426e-07  1.40000000e-01 
 1.50000000e-01  4.59809667e-01  4.59809667e-01  3.37304321e-09  4.59809667e-01  4.59809667e-01  4.59809667e-01  4.59809667e-01  1.60618142e-07  1.92282176e-07  1.50000000e-01 
 1.60000000e-01  4.59809617e-01  4.59809617e-01  3.37304320e-09  4.59809617e-01  4.59809617e-01  4.59809617e-01  4.59809617e-01  1.60618065e-07  1.92281592e-07  1.60000000e-01 
 1.70000000e-01  4.59809651e-01  4.59809651e-01  3.37304320e-09  4.59809651e-01  4.59809651e-01  4.59809651e-01  4.59809651e-01  1.60618120e-07  1.92281462e-07  1.70000000e-01 
 1.80000000e-01  4.59809686e-01  4.59809686e-01  3.37304321e-09  4.59809686e-01  4.59809686e-01  4.59809686e-01  4.59809686e-01  1.60618177e-07  1.92281439e-07  1.80000000e-01 
 1.90000000e-01  4.59809664e-01  4.59809664e-01  3.37304321e-09  4.59809664e-01  4.59809664e-01  4.59809664e-01  4.59809664e-01  1.60618155e-07  1.92281105e-07  1.90000000e-01 
 2.00000000e-01  4.59809650e-01  4.59809650e-01  3.37304320e-09  4.59809650e-01  4.59809650e-01  4.59809650e-01  4.59809650e-01  1.60618122e-07  1.92280764e-07  2.00000000e-01 
 2.10000000e-01  4.59809649e-01  4.59809649e-01  3.37304320e-09  4.59809649e-01  4.59809649e-01  4.59809649e-01  4.59809649e-01  1.60618128e-07  1.92280433e-07  2.10000000e-01 
 2.20000000e-01  4.59809652e-01  4.59809652e-01  3.37304326e-09  4.59809652e-01  4.59809652e-01  4.59809652e-01  4.59809651e-01  1.60618123e-07  1.92280279e-07  2.20000000e-01 
 2.30000000e-01  4.59809639e-01  4.59809638e-01  3.37304320e-09  4.59809638e-01  4.59809639e-01  4.59809638e-01  4.59809638e-01  1.60618102e-07  1.92280032e-07  2.30000000e-01 
 2.40000000e-01  4.59809637e-01  4.59809637e-01  3.37304320e-09  4.59809637e-01  4.59809637e-01  4.59809637e-01  4.59809637e-01  1.60618101e-07  1.92279831e-07  2.40000000e-01 
 2.50000000e-01  4.59809640e-01  4.59809640e-01  3.37304320e-09  4.59809640e-01  4.59809640e-01  4.59809640e-01  4.59809640e-01  1.60618095e-07  1.92279458e-07  2.50000000e-01 
 2.60000000e-01  4.59809641e-01  4.59809641e-01  3.37304320e-09  4.59809641e-01  4.59809641e-01  4.59809641e-01  4.59809641e-01  1.60618114e-07  1.92279446e-07  2.60000000e-01 
 2.70000000e-01  4.59809664e-01  4.59809664e-01  3.37304326e-09  4.59809664e-01  4.59809664e-01  4.59809664e-01  4.59809664e-01  1.60618133e-07  1.92279323e-07  2.70000000e-01 
 2.80000000e-01  4.59809647e-01  4.59809647e-01  3.37304320e-09  4.59809647e-01  4.59809647e-01  4.59809647e-01  4.59809647e-01  1.60618114e-07  1.92279041e-07  2.80000000e-01 
 2.90000000e-01  4.59809659e-01  4.59809659e-01  3.37304320e-09  4.59809659e-01  4.59809659e-01  4.59809659e-01  4.59809659e-01  1.60618141e-07  1.92278883e-07  2.90000000e-01 
 3.00000000e-01  4.59809633e-01  4.59809633e-01  3.37304320e-09  4.59809633e-01  4.59809633e-01  4.59809633e-01  4.59809633e-01  1.60618110e-07  1.92278552e-07  3.00000000e-01 
 3.10000000e-01  4.59809619e-01  4.59809619e-01  3.37304320e-09  4.59809619e-01  4.59809619e-01  4.59809619e-01  4.59809619e-01  1.60618072e-07  1.92278293e-07  3.10000000e-01 
 3.20000000e-01  4.59809662e-01  4.59809662e-01  3.37304321e-09  4.59809662e-01  4.59809662e-01  4.59809662e-01  4.59809662e-01  1.60618135e-07  1.92278353e-07  3.20000000e-01 
 3.30000000e-01  4.59809653e-01  4.59809653e-01  3.37304320e-09  4.59809653e-01  4.59809653e-01  4.59809653e-01  4.59809653e-01  1.60618128e-07  1.92278165e-07  3.30000000e-01 
 3.40000000e-01  4.59809653e-01  4.59809653e-01  3.37304320e-09  4.59809653e-01  4.59809653e-01  4.59809653e-01  4.59809653e-01  1.60618121e-07  1.92277909e-07  3.40000000e-01 
 3.50000000e-01  4.59809657e-01  4.59809657e-01  3.37304320e-09  4.59809657e-01  4.59809657e-01  4.59809657e-01  4.59809657e-01  1.60618121e-07  1.92277636e-07  3.50000000e-01 
 3.60000000e-01  4.59809626e-01  4.59809626e-01  3.37304320e-09  4.59809626e-01  4.59809626e-01  4.59809626e-01  4.59809626e-01  1.60618088e-07  1.92277422e-07  3.60000000e-01 
 3.70000000e-01  4.59809641e-01  4.59809641e-01  3.37304320e-09  4.59809641e-01  4.59809641e-01  4.59809641e-01  4.59809641e-01  1.60618105e-07  1.92277270e-07  3.70000000e-01 
 3.80000000e-01  4.59809666e-01  4.59809666e-01  3.37304321e-09  4.59809666e-01  4.59809666e-01  4.59809666e-01  4.59809666e-01  1.60618135e-07  1.92277316e-07  3.80000000e-01 
 3.90000000e-01  4.59809655e-01  4.59809655e-01  3.37304320e-09  4.59809655e-01  4.59809655e-01  4.59809655e-01  4.59809655e-01  1.60618127e-07  1.92277081e-07  3.90000000e-01 
 4.00000000e-01  4.59809629e-01  4.59809629e-01  3.37304320e-09  4.59809629e-01  4.59809629e-01  4.59809629e-01  4.59809629e-01  1.60618080e-07  1.92276772e-07  4.00000000e-01 
 4.10000000e-01  4.59809650e-01  4.59809650e-01  3.37304320e-09  4.59809650e-01  4.59809650e-01  4.59809650e-01  4.59809650e-01  1.60618116e-07  1.92276698e-07  4.10000000e-01 
 4.20000000e-01  4.59809658e-01  4.59809658e-01  3.37304320e-09  4.59809658e-01  4.59809658e-01  4.59809658e-01  4.59809658e-01  1.60618138e-07  1.92276516e-07  4.20000000e-01 
 4.30000000e-01  4.59809633e-01  4.59809633e-01  3.37304320e-09  4.59809633e-01  4.59809633e-01  4.59809633e-01  4.59809633e-01  1.60618083e-07  1.92276310e-07  4.30000000e-01 
 4.40000000e-01  4.59809670e-01  4.59809670e-01  3.37304321e-09  4.59809670e-01  4.59809670e-01  4.59809670e-01  4.59809670e-01  1.60618162e-07  1.92276254e-07  4.40000000e-01 
 4.50000000e-01  4.59809659e-01  4.59809659e-01  3.37304320e-09  4.59809659e-01  4.59809659e-01  4.59809659e-01  4.59809659e-01  1.60618130e-07  1.92276040e-07  4.50000000e-01 
 4.60000000e-01  4.59809646e-01  4.59809646e-01  3.37304320e-09  4.59809646e-01  4.59809646e-01  4.59809646e-01  4.59809646e-01  1.60618109e-07  1.92275909e-07  4.60000000e-01 
 4.70000000e-01  4.59809659e-01  4.59809659e-01  3.37304320e-09  4.59809659e-01  4.59809659e-01  4.59809659e-01  4.59809659e-01  1.60618139e-07  1.92275653e-07  4.70000000e-01 
 4.80000000e-01  4.59809636e-01  4.59809636e-01  3.37304320e-09  4.59809636e-01  4.59809636e-01  4.59809636e-01  4.59809636e-01  1.60618097e-07  1.92275497e-07  4.80000000e-01 
 4.90000000e-01  4.59809645e-01  4.59809645e-01  3.37304320e-09  4.59809645e-01  4.59809645e-01  4.59809645e-01  4.59809645e-01  1.60618108e-07  1.92275433e-07  4.90000000e-01 
 5.00000000e-01  4.59809651e-01  4.59809651e-01  3.37304320e-09  4.59809651e-01  4.59809651e-01  4.59809651e-01  4.59809651e-01  1.60618124e-07  1.92275248e-07  5.00000000e-01 
 5.10000000e-01  4.59809667e-01  4.59809666e-01  3.37304321e-09  4.59809667e-01  4.59809667e-01  4.59809666e-01  4.59809666e-01  1.60618146e-07  1.92275174e-07  5.10000000e-01 
 5.20000000e-01  4.59809661e-01  4.59809661e-01  3.37304320e-09  4.59809661e-01  4.59809661e-01  4.59809661e-01  4.59809661e-01  1.60618137e-07  1.92274925e-07  5.20000000e-01 
 5.30000000e-01  4.59809671e-01  4.59809671e-01  3.37304321e-09  4.59809671e-01  4.59809671e-01  4.59809671e-01  4.59809671e-01  1.60618143e-07  1.92274829e-07  5.30000000e-01 
 5.40000000e-01  4.59809655e-01  4.59809655e-01  3.37304320e-09  4.59809655e-01  4.59809655e-01  4.59809655e-01  4.59809655e-01  1.60618124e-07  1.92274655e-07  5.40000000e-01 
 5.50000000e-01  4.59809647e-01  4.59809647e-01  3.37304320e-09  4.59809647e-01  4.59809647e-01  4.59809647e-01  4.59809647e-01  1.60618115e-07  1.92274396e-07  5.50000000e-01 
 5.60000000e-01  4.59809654e-01  4.59809654e-01  3.37304320e-09  4.59809654e-01  4.59809654e-01  4.59809654e-01  4.59809654e-01  1.60618113e-07  1.92274335e-07  5.60000000e-01 
 5.70000000e-01  4.59809649e-01  4.59809649e-01  3.37304320e-09  4.59809649e-01  4.59809649e-01  4.59809649e-01  4.59809649e-01  1.60618112e-07  1.92274172e-07  5.70000000e-01 
 5.80000000e-01  4.59809653e-01  4.59809653e-01  3.37304326e-09  4.59809653e-01  4.59809653e-01  4.59809653e-01  4.59809653e-01  1.60618137e-07  1.92274022e-07  5.80000000e-01 
 5.90000000e-01  4.59809644e-01  4.59809644e-01  3.37304320e-09  4.59809644e-01  4.59809644e-01  4.59809644e-01  4.59809644e-01  1.60618110e-07  1.92273717e-07  5.90000000e-01 
 6.00000000e-01  4.59809669e-01  4.59809669e-01  3.37304326e-09  4.59809669e-01  4.59809669e-01  4.59809669e-01  4.59809669e-01  1.60618144e-07  1.92273752e-07  6.00000000e-01 
 6.10000000e-01  4.59809672e-01  4.59809672e-01  3.37304321e-09  4.59809672e-01  4.59809672e-01  4.59809672e-01  4.59809672e-01  1.60618145e-07  1.92273674e-07  6.10000000e-01 
 6.20000000e-01  4.59809620e-01  4.59809620e-01  3.37304320e-09  4.59809620e-01  4.59809620e-01  4.59809620e-01  4.59809620e-01  1.60618079e-07  1.92273170e-07  6.20000000e-01 
 6.30000000e-01  4.59809639e-01  4.59809638e-01  3.37304320e-09  4.59809639e-01  4.59809639e-01  4.59809638e-01  4.59809638e-01  1.60618112e-07  1.92273077e-07  6.30000000e-01 
 6.40000000e-01  4.59809670e-01  4.59809670e-01  3.37304321e-09  4.59809670e-01  4.59809670e-01  4.59809670e-01  4.59809670e-01  1.60618151e-07  1.92273056e-07  6.40000000e-01 
 6.50000000e-01  4.59809670e-01  4.59809670e-01  3.37304321e-09  4.59809670e-01  4.59809670e-01  4.59809670e-01  4.59809670e-01  1.60618146e-07  1.92272957e-07  6.50000000e-01 
 6.60000000e-01  4.59809650e-01  4.59809650e-01  3.37304320e-09  4.59809650e-01  4.59809650e-01  4.59809650e-01  4.59809650e-01  1.60618116e-07  1.92272758e-07  6.60000000e-01 
 6.70000000e-01  4.59809650e-01  4.59809650e-01  3.37304320e-09  4.59809650e-01  4.59809650e-01  4.59809650e-01  4.59809650e-01  1.60618120e-07  1.92272516e-07  6.70000000e-01 
 6.80000000e-01  4.59809643e-01  4.59809643e-01  3.37304320e-09  4.59809643e-01  4.59809643e-01  4.59809643e-01  4.59809643e-01  1.60618117e-07  1.92272360e-07  6.80000000e-01 
 6.90000000e-01  4.59809656e-01  4.59809656e-01  3.37304320e-09  4.59809656e-01  4.59809656e-01  4.59809656e-01  4.59809656e-01  1.60618129e-07  1.92272154e-07  6.90000000e-01 
 7.00000000e-01  4.59809658e-01  4.59809658e-01  3.37304320e-09  4.59809658e-01  4.59809658e-01  4.59809658e-01  4.59809658e-01  1.60618118e-07  1.92272132e-07  7.00000000e-01 
 7.10000000e-01  4.59809649e-01  4.59809649e-01  3.37304320e-09  4.59809649e-01  4.59809649e-01  4.59809649e-01  4.59809649e-01  1.60618106e-07  1.92271891e-07  7.10000000e-01 
 7.20000000e-01  4.59809669e-01  4.59809669e-01  3.37304321e-09  4.59809669e-01  4.59809669e-01  4.59809669e-01  4.59809669e-01  1.60618147e-07  1.92271742e-07  7.20000000e-01 
 7.30000000e-01  4.59809631e-01  4.59809631e-01  3.37304320e-09  4.59809631e-01  4.59809631e-01  4.59809631e-01  4.59809631e-01  1.60618095e-07  1.92271457e-07  7.30000000e-01 
 7.40000000e-01  4.59809648e-01  4.59809648e-01  3.37304320e-09  4.59809648e-01  4.59809648e-01  4.59809648e-01  4.59809648e-01  1.60618117e-07  1.92271351e-07  7.40000000e-01 
 7.50000000e-01  4.59809644e-01  4.59809644e-01  3.37304320e-09  4.59809644e-01  4.59809644e-01  4.59809644e-01  4.59809644e-01  1.60618099e-07  1.92271244e-07  7.50000000e-01 
 7.60000000e-01  4.59809637e-01  4.59809637e-01  3.37304320e-09  4.59809637e-01  4.59809637e-01  4.59809637e-01  4.59809637e-01  1.60618099e-07  1.92271074e-07  7.60000000e-01 
 7.70000000e-01  4.59809663e-01  4.59809663e-01  3.37304321e-09  4.59809663e-01  4.59809663e-01  4.59809663e-01  4.59809663e-01  1.60618139e-07  1.92270981e-07  7.70000000e-01 
 7.80000000e-01  4.59809650e-01  4.59809650e-01  3.37304320e-09  4.59809650e-01  4.59809650e-01  4.59809650e-01  4.59809650e-01  1.60618114e-07  1.92270704e-07  7.80000000e-01 
 7.90000000e-01  4.59809650e-01  4.59809650e-01  3.37304320e-09  4.59809650e-01  4.59809650e-01  4.59809650e-01  4.59809650e-01  1.60618121e-07  1.92270555e-07  7.90000000e-01 
 8.00000000e-01  4.59809653e-01  4.59809653e-01  3.37304326e-09  4.59809653e-01  4.59809653e-01  4.59809653e-01  4.59809653e-01  1.60618105e-07  1.92270363e-07  8.00000000e-01 
 8.10000000e-01  4.59809667e-01  4.59809667e-01  3.37304321e-09  4.59809667e-01  4.59809667e-01  4.59809667e-01  4.59809667e-01  1.60618141e-07  1.92270186e-07  8.10000000e-01 
 8.20000000e-01  4.59809662e-01  4.59809662e-01  3.37304321e-09  4.59809662e-01  4.59809662e-01  4.59809662e-01  4.59809662e-01  1.60618136e-07  1.92270086e-07  8.20000000e-01 
 8.30000000e-01  4.59809648e-01  4.59809648e-01  3.37304320e-09  4.59809648e-01  4.59809648e-01  4.59809648e-01  4.59809648e-01  1.60618114e-07  1.92269930e-07  8.30000000e-01 
 8.40000000e-01  4.59809663e-01  4.59809663e-01  3.37304321e-09  4.59809663e-01  4.59809663e-01  4.59809663e-01  4.59809663e-01  1.60618123e-07  1.92269873e-07  8.40000000e-01 
 8.50000000e-01  4.59809649e-01  4.59809649e-01  3.37304320e-09  4.59809649e-01  4.59809649e-01  4.59809649e-01  4.59809649e-01  1.60618103e-07  1.92269631e-07  8.50000000e-01 
 8.60000000e-01  4.59809664e-01  4.59809664e-01  3.37304321e-09  4.59809664e-01  4.59809664e-01  4.59809664e-01  4.59809664e-01  1.60618146e-07  1.92269404e-07  8.60000000e-01 
 8.70000000e-01  4.59809673e-01  4.59809673e-01  3.37304326e-09  4.59809673e-01  4.59809673e-01  4.59809673e-01  4.59809673e-01  1.60618157e-07  1.92269333e-07  8.70000000e-01 
 8.80000000e-01  4.59809644e-01  4.59809644e-01  3.37304320e-09  4.59809644e-01  4.59809644e-01  4.59809644e-01  4.59809644e-01  1.60618106e-07  1.92269084e-07  8.80000000e-01 
 8.90000000e-01  4.59809634e-01  4.59809634e-01  3.37304320e-09  4.59809634e-01  4.59809634e-01  4.59809634e-01  4.59809634e-01  1.60618093e-07  1.92268750e-07  8.90000000e-01 
 9.00000000e-01  4.59809619e-01  4.59809619e-01  3.37304320e-09  4.59809619e-01  4.59809619e-01  4.59809619e-01  4.59809619e-01  1.60618076e-07  1.92268658e-07  9.00000000e-01 
 9.10000000e-01  4.59809642e-01  4.59809642e-01  3.37304320e-09  4.59809642e-01  4.59809642e-01  4.59809642e-01  4.59809642e-01  1.60618109e-07  1.92268459e-07  9.10000000e-01 
 9.20000000e-01  4.59809664e-01  4.59809664e-01  3.37304321e-09  4.59809664e-01  4.59809664e-01  4.59809664e-01  4.59809664e-01  1.60618144e-07  1.92268345e-07  9.20000000e-01 
 9.30000000e-01  4.59809669e-01  4.59809669e-01  3.37304321e-09  4.59809669e-01  4.59809669e-01  4.59809669e-01  4.59809669e-01  1.60618142e-07  1.92268260e-07  9.30000000e-01 
 9.40000000e-01  4.59809655e-01  4.59809655e-01  3.37304320e-09  4.59809655e-01  4.59809655e-01  4.59809655e-01  4.59809655e-01  1.60618132e-07  1.92267990e-07  9.40000000e-01 
 9.50000000e-01  4.59809645e-01  4.59809645e-01  3.37304320e-09  4.59809645e-01  4.59809645e-01  4.59809645e-01  4.59809645e-01  1.60618103e-07  1.92267571e-07  9.50000000e-01 
 9.60000000e-01  4.59809647e-01  4.59809646e-01  3.37304320e-09  4.59809647e-01  4.59809647e-01  4.59809646e-01  4.59809646e-01  1.60618112e-07  1.92267564e-07  9.60000000e-01 
 9.70000000e-01  4.59809659e-01  4.59809659e-01  3.37304326e-09  4.59809659e-01  4.59809659e-01  4.59809659e-01  4.59809659e-01  1.60618146e-07  1.92267414e-07  9.70000000e-01 
 9.80000000e-01  4.59809662e-01  4.59809662e-01  3.37304321e-09  4.59809662e-01  4.59809662e-01  4.59809662e-01  4.59809662e-01  1.60618141e-07  1.92267208e-07  9.80000000e-01 
 9.90000000e-01  4.59809653e-01  4.59809653e-01  3.37304320e-09  4.59809653e-01  4.59809653e-01  4.59809653e-01  4.59809653e-01  1.60618127e-07  1.92266938e-07  9.90000000e-01 
 1.00000000e+00  4.59809647e-01  4.59809647e-01  3.37304320e-09  4.59809647e-01  4.59809647e-01  4.59809647e-01  4.59809647e-01  1.60618105e-07  1.92266675e-07  1.00000000e+00 
 1.01000000e+00  4.59809651e-01  4.59809651e-01  3.37304320e-09  4.59809651e-01  4.59809651e-01  4.59809651e-01  4.59809651e-01  1.60618119e-07  1.92266491e-07  1.01000000e+00 
 1.02000000e+00  4.59809664e-01  4.59809664e-01  3.37304321e-09  4.59809664e-01  4.59809664e-01  4.59809664e-01  4.59809664e-01  1.60618139e-07  1.92266413e-07  1.02000000e+00 
 1.03000000e+00  4.59809660e-01  4.59809660e-01  3.37304320e-09  4.59809660e-01  4.59809660e-01  4.59809660e-01  4.59809660e-01  1.60618132e-07  1.92266178e-07  1.03000000e+00 
 1.04000000e+00  4.59809670e-01  4.59809670e-01  3.37304321e-09  4.59809670e-01  4.59809670e-01  4.59809670e-01  4.59809670e-01  1.60618153e-07  1.92265929e-07  1.04000000e+00 
 1.05000000e+00  4.59809645e-01  4.59809644e-01  3.37304320e-09  4.59809644e-01  4.59809645e-01  4.59809644e-01  4.59809644e-01  1.60618111e-07  1.92265695e-07  1.05000000e+00 
 1.06000000e+00  4.59809654e-01  4.59809654e-01  3.37304320e-09  4.59809654e-01  4.59809654e-01  4.59809654e-01  4.59809654e-01  1.60618121e-07  1.92265531e-07  1.06000000e+00 
 1.07000000e+00  4.59809643e-01  4.59809643e-01  3.37304320e-09  4.59809643e-01  4.59809643e-01  4.59809643e-01  4.59809643e-01  1.60618116e-07  1.92265290e-07  1.07000000e+00 
 1.08000000e+00  4.59809649e-01  4.59809649e-01  3.37304320e-09  4.59809649e-01  4.59809649e-01  4.59809649e-01  4.59809649e-01  1.60618111e-07  1.92265041e-07  1.08000000e+00 
 1.09000000e+00  4.59809650e-01  4.59809650e-01  3.37304320e-09  4.59809650e-01  4.59809650e-01  4.59809650e-01  4.59809650e-01  1.60618114e-07  1.92264842e-07  1.09000000e+00 
 1.10000000e+00  4.59809664e-01  4.59809664e-01  3.37304321e-09  4.59809664e-01  4.59809664e-01  4.59809664e-01  4.59809664e-01  1.60618146e-07  1.92264800e-07  1.10000000e+00 
