 v-sweep         v(b0)           v(b1)           v(b2)           v(b3)           v(b4)           v(b5)           v(b6)           i(vbias)        i(viout)        v(vout)        
 0.00000000e+00  4.60383166e-01  4.60383166e-01  3.19114756e-09  4.60383166e-01  4.60383166e-01  3.29352003e-09  3.15048780e-09  1.63302546e-07  4.61066017e-08  0.00000000e+00 
 1.00000000e-02  4.60383156e-01  4.60383156e-01  3.19114754e-09  4.60383156e-01  4.60383156e-01  3.29352001e-09  3.15048784e-09  1.63302543e-07  4.61061025e-08  1.00000000e-02 
 2.00000000e-02  4.60383165e-01  4.60383165e-01  3.19114754e-09  4.60383165e-01  4.60383165e-01  3.29352002e-09  3.15048784e-09  1.63302543e-07  4.61058465e-08  2.00000000e-02 
 3.00000000e-02  4.60383145e-01  4.60383145e-01  3.19114759e-09  4.60383145e-01  4.60383145e-01  3.29352001e-09  3.15048784e-09  1.63302520e-07  4.61052931e-08  3.00000000e-02 
 4.00000000e-02  4.60383175e-01  4.60383175e-01  3.19114760e-09  4.60383175e-01  4.60383175e-01  3.29352001e-09  3.15048784e-09  1.63302574e-07  4.61051028e-08  4.00000000e-02 
 5.00000000e-02  4.60383148e-01  4.60383148e-01  3.19114759e-09  4.60383148e-01  4.60383148e-01  3.29351996e-09  3.15048784e-09  1.63302518e-07  4.61047542e-08  5.00000000e-02 
 6.00000000e-02  4.60383145e-01  4.60383145e-01  3.19114759e-09  4.60383145e-01  4.60383145e-01  3.29351996e-09  3.15048784e-09  1.63302508e-07  4.61044110e-08  6.00000000e-02 
 7.00000000e-02  4.60383153e-01  4.60383153e-01  3.19114759e-09  4.60383153e-01  4.60383153e-01  3.29352001e-09  3.15048784e-09  1.63302525e-07  4.61041494e-08  7.00000000e-02 
 8.00000000e-02  4.60383166e-01  4.60383167e-01  3.19114760e-09  4.60383166e-01  4.60383166e-01  3.29351996e-09  3.15048784e-09  1.63302558e-07  4.61038612e-08  8.00000000e-02 
 9.00000000e-02  4.60383173e-01  4.60383173e-01  3.19114754e-09  4.60383173e-01  4.60383173e-01  3.29352001e-09  3.15048784e-09  1.63302563e-07  4.61035725e-08  9.00000000e-02 
 1.00000000e-01  4.60383129e-01  4.60383129e-01  3.19114759e-09  4.60383129e-01  4.60383129e-01  3.29351995e-09  3.15048784e-09  1.63302505e-07  4.61032865e-08  1.00000000e-01 
 1.10000000e-01  4.60383177e-01  4.60383177e-01  3.19114754e-09  4.60383177e-01  4.60383177e-01  3.29352001e-09  3.15048784e-09  1.63302576e-07  4.61031320e-08  1.10000000e-01 
 1.20000000e-01  4.60383159e-01  4.60383159e-01  3.19114754e-09  4.60383159e-01  4.60383159e-01  3.29352001e-09  3.15048784e-09  1.63302554e-07  4.61027101e-08  1.20000000e-01 
 1.30000000e-01  4.60383164e-01  4.60383164e-01  3.19114760e-09  4.60383164e-01  4.60383164e-01  3.29352001e-09  3.15048784e-09  1.63302556e-07  4.61026151e-08  1.30000000e-01 
 1.40000000e-01  4.60383154e-01  4.60383154e-01  3.19114759e-09  4.60383154e-01  4.60383154e-01  3.29351996e-09  3.15048784e-09  1.63302535e-07  4.61023628e-08  1.40000000e-01 
 1.50000000e-01  4.60383170e-01  4.60383170e-01  3.19114760e-09  4.60383170e-01  4.60383170e-01  3.29351996e-09  3.15048784e-09  1.63302548e-07  4.61021497e-08  1.50000000e-01 
 1.60000000e-01  4.60383154e-01  4.60383154e-01  3.19114754e-09  4.60383154e-01  4.60383154e-01  3.29352001e-09  3.15048784e-09  1.63302534e-07  4.61019365e-08  1.60000000e-01 
 1.70000000e-01  4.60383153e-01  4.60383154e-01  3.19114759e-09  4.60383153e-01  4.60383154e-01  3.29351996e-09  3.15048784e-09  1.63302527e-07  4.61017926e-08  1.70000000e-01 
 1.80000000e-01  4.60383154e-01  4.60383154e-01  3.19114754e-09  4.60383154e-01  4.60383154e-01  3.29352001e-09  3.15048784e-09  1.63302532e-07  4.61016239e-08  1.80000000e-01 
 1.90000000e-01  4.60383157e-01  4.60383157e-01  3.19114754e-09  4.60383157e-01  4.60383157e-01  3.29352001e-09  3.15048784e-09  1.63302545e-07  4.61014960e-08  1.90000000e-01 
 2.00000000e-01  4.60383162e-01  4.60383162e-01  3.19114760e-09  4.60383162e-01  4.60383162e-01  3.29351996e-09  3.15048784e-09  1.63302546e-07  4.61012721e-08  2.00000000e-01 
 2.10000000e-01  4.60383177e-01  4.60383177e-01  3.19114760e-09  4.60383177e-01  4.60383177e-01  3.29352001e-09  3.15048784e-09  1.63302579e-07  4.61011176e-08  2.10000000e-01 
 2.20000000e-01  4.60383173e-01  4.60383173e-01  3.19114754e-09  4.60383173e-01  4.60383173e-01  3.29352001e-09  3.15048784e-09  1.63302574e-07  4.61009968e-08  2.20000000e-01 
 2.30000000e-01  4.60383139e-01  4.60383139e-01  3.19114759e-09  4.60383139e-01  4.60383139e-01  3.29352001e-09  3.15048784e-09  1.63302520e-07  4.61008955e-08  2.30000000e-01 
 2.40000000e-01  4.60383155e-01  4.60383155e-01  3.19114754e-09  4.60383155e-01  4.60383155e-01  3.29352001e-09  3.15048784e-09  1.63302543e-07  4.61007197e-08  2.40000000e-01 
 2.50000000e-01  4.60383151e-01  4.60383151e-01  3.19114759e-09  4.60383151e-01  4.60383151e-01  3.29352001e-09  3.15048784e-09  1.63302533e-07  4.61006167e-08  2.50000000e-01 
 2.60000000e-01  4.60383154e-01  4.60383154e-01  3.19114759e-09  4.60383154e-01  4.60383154e-01  3.29351996e-09  3.15048784e-09  1.63302537e-07  4.61004852e-08  2.60000000e-01 
 2.70000000e-01  4.60383168e-01  4.60383168e-01  3.19114760e-09  4.60383168e-01  4.60383168e-01  3.29351996e-09  3.15048784e-09  1.63302569e-07  4.61004070e-08  2.70000000e-01 
 2.80000000e-01  4.60383145e-01  4.60383145e-01  3.19114759e-09  4.60383145e-01  4.60383145e-01  3.29352001e-09  3.15048784e-09  1.63302530e-07  4.61001726e-08  2.80000000e-01 
 2.90000000e-01  4.60383152e-01  4.60383152e-01  3.19114754e-09  4.60383152e-01  4.60383152e-01  3.29351996e-09  3.15048784e-09  1.63302533e-07  4.61001655e-08  2.90000000e-01 
 3.00000000e-01  4.60383156e-01  4.60383156e-01  3.19114759e-09  4.60383156e-01  4.60383156e-01  3.29352001e-09  3.15048784e-09  1.63302544e-07  4.60999594e-08  3.00000000e-01 
 3.10000000e-01  4.60383157e-01  4.60383158e-01  3.19114760e-09  4.60383157e-01  4.60383158e-01  3.29351996e-09  3.15048784e-09  1.63302544e-07  4.60999345e-08  3.10000000e-01 
 3.20000000e-01  4.60383154e-01  4.60383154e-01  3.19114759e-09  4.60383154e-01  4.60383154e-01  3.29352001e-09  3.15048784e-09  1.63302554e-07  4.60998351e-08  3.20000000e-01 
 3.30000000e-01  4.60383173e-01  4.60383173e-01  3.19114760e-09  4.60383173e-01  4.60383173e-01  3.29351996e-09  3.15048784e-09  1.63302576e-07  4.60997036e-08  3.30000000e-01 
 3.40000000e-01  4.60383155e-01  4.60383155e-01  3.19114754e-09  4.60383155e-01  4.60383155e-01  3.29351996e-09  3.15048784e-09  1.63302548e-07  4.60996930e-08  3.40000000e-01 
 3.50000000e-01  4.60383162e-01  4.60383162e-01  3.19114754e-09  4.60383162e-01  4.60383162e-01  3.29352001e-09  3.15048784e-09  1.63302545e-07  4.60994798e-08  3.50000000e-01 
 3.60000000e-01  4.60383143e-01  4.60383143e-01  3.19114754e-09  4.60383143e-01  4.60383143e-01  3.29351996e-09  3.15048784e-09  1.63302539e-07  4.60994407e-08  3.60000000e-01 
 3.70000000e-01  4.60383151e-01  4.60383151e-01  3.19114759e-09  4.60383151e-01  4.60383151e-01  3.29351996e-09  3.15048784e-09  1.63302533e-07  4.60993625e-08  3.70000000e-01 
 3.80000000e-01  4.60383162e-01  4.60383162e-01  3.19114754e-09  4.60383162e-01  4.60383162e-01  3.29351996e-09  3.15048784e-09  1.63302561e-07  4.60993270e-08  3.80000000e-01 
 3.90000000e-01  4.60383157e-01  4.60383157e-01  3.19114760e-09  4.60383157e-01  4.60383157e-01  3.29351996e-09  3.15048784e-09  1.63302554e-07  4.60991920e-08  3.90000000e-01 
 4.00000000e-01  4.60383158e-01  4.60383158e-01  3.19114760e-09  4.60383158e-01  4.60383158e-01  3.29351996e-09  3.15048784e-09  1.63302540e-07  4.60991672e-08  4.00000000e-01 
 4.10000000e-01  4.60383169e-01  4.60383169e-01  3.19114754e-09  4.60383169e-01  4.60383169e-01  3.29351996e-09  3.15048784e-09  1.63302564e-07  4.60990641e-08  4.10000000e-01 
 4.20000000e-01  4.60383158e-01  4.60383159e-01  3.19114754e-09  4.60383159e-01  4.60383159e-01  3.29352001e-09  3.15048784e-09  1.63302555e-07  4.60989682e-08  4.20000000e-01 
 4.30000000e-01  4.60383151e-01  4.60383151e-01  3.19114754e-09  4.60383151e-01  4.60383151e-01  3.29351996e-09  3.15048784e-09  1.63302526e-07  4.60989824e-08  4.30000000e-01 
 4.40000000e-01  4.60383156e-01  4.60383156e-01  3.19114754e-09  4.60383156e-01  4.60383156e-01  3.29352001e-09  3.15048784e-09  1.63302536e-07  4.60987586e-08  4.40000000e-01 
 4.50000000e-01  4.60383168e-01  4.60383169e-01  3.19114760e-09  4.60383168e-01  4.60383168e-01  3.29351996e-09  3.15048784e-09  1.63302581e-07  4.60987444e-08  4.50000000e-01 
 4.60000000e-01  4.60383154e-01  4.60383154e-01  3.19114754e-09  4.60383154e-01  4.60383154e-01  3.29351996e-09  3.15048784e-09  1.63302533e-07  4.60987089e-08  4.60000000e-01 
 4.70000000e-01  4.60383148e-01  4.60383148e-01  3.19114759e-09  4.60383148e-01  4.60383148e-01  3.29351996e-09  3.15048784e-09  1.63302536e-07  4.60986378e-08  4.70000000e-01 
 4.80000000e-01  4.60383165e-01  4.60383165e-01  3.19114760e-09  4.60383165e-01  4.60383165e-01  3.29352001e-09  3.15048784e-09  1.63302565e-07  4.60985774e-08  4.80000000e-01 
 4.90000000e-01  4.60383177e-01  4.60383177e-01  3.19114760e-09  4.60383177e-01  4.60383177e-01  3.29352001e-09  3.15048784e-09  1.63302569e-07  4.60985738e-08  4.90000000e-01 
 5.00000000e-01  4.60383162e-01  4.60383162e-01  3.19114760e-09  4.60383162e-01  4.60383162e-01  3.29352001e-09  3.15048784e-09  1.63302556e-07  4.60985561e-08  5.00000000e-01 
 5.10000000e-01  4.60383166e-01  4.60383167e-01  3.19114760e-09  4.60383166e-01  4.60383166e-01  3.29352001e-09  3.15048784e-09  1.63302550e-07  4.60983927e-08  5.10000000e-01 
 5.20000000e-01  4.60383166e-01  4.60383166e-01  3.19114760e-09  4.60383166e-01  4.60383166e-01  3.29352001e-09  3.15048784e-09  1.63302548e-07  4.60983358e-08  5.20000000e-01 
 5.30000000e-01  4.60383171e-01  4.60383171e-01  3.19114754e-09  4.60383171e-01  4.60383171e-01  3.29351996e-09  3.15048784e-09  1.63302570e-07  4.60982292e-08  5.30000000e-01 
 5.40000000e-01  4.60383161e-01  4.60383161e-01  3.19114760e-09  4.60383161e-01  4.60383161e-01  3.29352001e-09  3.15048784e-09  1.63302546e-07  4.60981724e-08  5.40000000e-01 
 5.50000000e-01  4.60383162e-01  4.60383162e-01  3.19114754e-09  4.60383162e-01  4.60383162e-01  3.29351996e-09  3.15048784e-09  1.63302548e-07  4.60981013e-08  5.50000000e-01 
 5.60000000e-01  4.60383166e-01  4.60383166e-01  3.19114754e-09  4.60383166e-01  4.60383166e-01  3.29351996e-09  3.15048784e-09  1.63302566e-07  4.60981049e-08  5.60000000e-01 
 5.70000000e-01  4.60383140e-01  4.60383140e-01  3.19114754e-09  4.60383140e-01  4.60383140e-01  3.29351996e-09  3.15048784e-09  1.63302519e-07  4.60979379e-08  5.70000000e-01 
 5.80000000e-01  4.60383155e-01  4.60383155e-01  3.19114759e-09  4.60383155e-01  4.60383155e-01  3.29352001e-09  3.15048784e-09  1.63302542e-07  4.60979308e-08  5.80000000e-01 
 5.90000000e-01  4.60383162e-01  4.60383163e-01  3.19114760e-09  4.60383162e-01  4.60383162e-01  3.29352001e-09  3.15048784e-09  1.63302554e-07  4.60978882e-08  5.90000000e-01 
 6.00000000e-01  4.60383167e-01  4.60383168e-01  3.19114754e-09  4.60383168e-01  4.60383168e-01  3.29351996e-09  3.15048784e-09  1.63302557e-07  4.60978598e-08  6.00000000e-01 
 6.10000000e-01  4.60383154e-01  4.60383154e-01  3.19114754e-09  4.60383154e-01  4.60383154e-01  3.29351996e-09  3.15048784e-09  1.63302536e-07  4.60977887e-08  6.10000000e-01 
 6.20000000e-01  4.60383151e-01  4.60383151e-01  3.19114754e-09  4.60383151e-01  4.60383151e-01  3.29351996e-09  3.15048784e-09  1.63302536e-07  4.60977887e-08  6.20000000e-01 
 6.30000000e-01  4.60383157e-01  4.60383157e-01  3.19114760e-09  4.60383157e-01  4.60383157e-01  3.29351996e-09  3.15048784e-09  1.63302534e-07  4.60977105e-08  6.30000000e-01 
 6.40000000e-01  4.60383149e-01  4.60383149e-01  3.19114759e-09  4.60383149e-01  4.60383149e-01  3.29351996e-09  3.15048784e-09  1.63302541e-07  4.60976111e-08  6.40000000e-01 
 6.50000000e-01  4.60383168e-01  4.60383168e-01  3.19114754e-09  4.60383168e-01  4.60383168e-01  3.29351996e-09  3.15048784e-09  1.63302557e-07  4.60975045e-08  6.50000000e-01 
 6.60000000e-01  4.60383150e-01  4.60383150e-01  3.19114759e-09  4.60383150e-01  4.60383150e-01  3.29352001e-09  3.15048784e-09  1.63302526e-07  4.60975542e-08  6.60000000e-01 
 6.70000000e-01  4.60383153e-01  4.60383153e-01  3.19114754e-09  4.60383153e-01  4.60383153e-01  3.29352001e-09  3.15048784e-09  1.63302529e-07  4.60973695e-08  6.70000000e-01 
 6.80000000e-01  4.60383156e-01  4.60383157e-01  3.19114760e-09  4.60383156e-01  4.60383156e-01  3.29352001e-09  3.15048784e-09  1.63302536e-07  4.60973197e-08  6.80000000e-01 
 6.90000000e-01  4.60383165e-01  4.60383166e-01  3.19114754e-09  4.60383165e-01  4.60383165e-01  3.29352001e-09  3.15048784e-09  1.63302554e-07  4.60973268e-08  6.90000000e-01 
 7.00000000e-01  4.60383142e-01  4.60383142e-01  3.19114759e-09  4.60383142e-01  4.60383142e-01  3.29351996e-09  3.15048784e-09  1.63302524e-07  4.60972842e-08  7.00000000e-01 
 7.10000000e-01  4.60383155e-01  4.60383155e-01  3.19114759e-09  4.60383155e-01  4.60383155e-01  3.29352001e-09  3.15048784e-09  1.63302538e-07  4.60971350e-08  7.10000000e-01 
 7.20000000e-01  4.60383137e-01  4.60383137e-01  3.19114754e-09  4.60383137e-01  4.60383137e-01  3.29351996e-09  3.15048784e-09  1.63302523e-07  4.60971776e-08  7.20000000e-01 
 7.30000000e-01  4.60383151e-01  4.60383152e-01  3.19114759e-09  4.60383151e-01  4.60383152e-01  3.29351996e-09  3.15048784e-09  1.63302536e-07  4.60971279e-08  7.30000000e-01 
 7.40000000e-01  4.60383163e-01  4.60383163e-01  3.19114754e-09  4.60383163e-01  4.60383163e-01  3.29352001e-09  3.15048784e-09  1.63302555e-07  4.60970639e-08  7.40000000e-01 
 7.50000000e-01  4.60383147e-01  4.60383147e-01  3.19114759e-09  4.60383147e-01  4.60383147e-01  3.29352001e-09  3.15048784e-09  1.63302534e-07  4.60969716e-08  7.50000000e-01 
 7.60000000e-01  4.60383161e-01  4.60383161e-01  3.19114760e-09  4.60383161e-01  4.60383161e-01  3.29351996e-09  3.15048784e-09  1.63302546e-07  4.60969645e-08  7.60000000e-01 
 7.70000000e-01  4.60383156e-01  4.60383156e-01  3.19114754e-09  4.60383156e-01  4.60383156e-01  3.29352001e-09  3.15048784e-09  1.63302549e-07  4.60968010e-08  7.70000000e-01 
 7.80000000e-01  4.60383175e-01  4.60383175e-01  3.19114760e-09  4.60383175e-01  4.60383175e-01  3.29351996e-09  3.15048784e-09  1.63302575e-07  4.60968721e-08  7.80000000e-01 
 7.90000000e-01  4.60383176e-01  4.60383176e-01  3.19114754e-09  4.60383176e-01  4.60383176e-01  3.29351996e-09  3.15048784e-09  1.63302563e-07  4.60967158e-08  7.90000000e-01 
 8.00000000e-01  4.60383155e-01  4.60383156e-01  3.19114759e-09  4.60383155e-01  4.60383156e-01  3.29351996e-09  3.15048784e-09  1.63302545e-07  4.60967442e-08  8.00000000e-01 
 8.10000000e-01  4.60383160e-01  4.60383161e-01  3.19114760e-09  4.60383160e-01  4.60383161e-01  3.29352001e-09  3.15048784e-09  1.63302562e-07  4.60966589e-08  8.10000000e-01 
 8.20000000e-01  4.60383163e-01  4.60383163e-01  3.19114760e-09  4.60383163e-01  4.60383163e-01  3.29352001e-09  3.15048784e-09  1.63302549e-07  4.60965026e-08  8.20000000e-01 
 8.30000000e-01  4.60383149e-01  4.60383149e-01  3.19114754e-09  4.60383149e-01  4.60383149e-01  3.29351996e-09  3.15048784e-09  1.63302531e-07  4.60964884e-08  8.30000000e-01 
 8.40000000e-01  4.60383166e-01  4.60383166e-01  3.19114754e-09  4.60383166e-01  4.60383166e-01  3.29352001e-09  3.15048784e-09  1.63302557e-07  4.60965737e-08  8.40000000e-01 
 8.50000000e-01  4.60383154e-01  4.60383154e-01  3.19114754e-09  4.60383154e-01  4.60383154e-01  3.29351996e-09  3.15048784e-09  1.63302534e-07  4.60964529e-08  8.50000000e-01 
 8.60000000e-01  4.60383146e-01  4.60383146e-01  3.19114759e-09  4.60383146e-01  4.60383146e-01  3.29351996e-09  3.15048784e-09  1.63302517e-07  4.60964742e-08  8.60000000e-01 
 8.70000000e-01  4.60383160e-01  4.60383160e-01  3.19114754e-09  4.60383160e-01  4.60383160e-01  3.29351996e-09  3.15048784e-09  1.63302552e-07  4.60962895e-08  8.70000000e-01 
 8.80000000e-01  4.60383140e-01  4.60383140e-01  3.19114754e-09  4.60383140e-01  4.60383140e-01  3.29351996e-09  3.15048784e-09  1.63302515e-07  4.60961900e-08  8.80000000e-01 
 8.90000000e-01  4.60383164e-01  4.60383164e-01  3.19114754e-09  4.60383164e-01  4.60383164e-01  3.29352001e-09  3.15048784e-09  1.63302553e-07  4.60962610e-08  8.90000000e-01 
 9.00000000e-01  4.60383155e-01  4.60383155e-01  3.19114759e-09  4.60383155e-01  4.60383155e-01  3.29352001e-09  3.15048784e-09  1.63302543e-07  4.60961047e-08  9.00000000e-01 
 9.10000000e-01  4.60383187e-01  4.60383187e-01  3.19114760e-09  4.60383187e-01  4.60383187e-01  3.29352001e-09  3.15048784e-09  1.63302580e-07  4.60961118e-08  9.10000000e-01 
 9.20000000e-01  4.60383143e-01  4.60383144e-01  3.19114754e-09  4.60383143e-01  4.60383144e-01  3.29352001e-09  3.15048784e-09  1.63302520e-07  4.60959910e-08  9.20000000e-01 
 9.30000000e-01  4.60383166e-01  4.60383166e-01  3.19114754e-09  4.60383166e-01  4.60383166e-01  3.29352001e-09  3.15048784e-09  1.63302560e-07  4.60959058e-08  9.30000000e-01 
 9.40000000e-01  4.60383157e-01  4.60383157e-01  3.19114754e-09  4.60383157e-01  4.60383157e-01  3.29352001e-09  3.15048784e-09  1.63302545e-07  4.60958276e-08  9.40000000e-01 
 9.50000000e-01  4.60383163e-01  4.60383163e-01  3.19114760e-09  4.60383163e-01  4.60383163e-01  3.29351996e-09  3.15048784e-09  1.63302563e-07  4.60957423e-08  9.50000000e-01 
 9.60000000e-01  4.60383147e-01  4.60383147e-01  3.19114754e-09  4.60383147e-01  4.60383147e-01  3.29352001e-09  3.15048784e-09  1.63302539e-07  4.60956784e-08  9.60000000e-01 
 9.70000000e-01  4.60383176e-01  4.60383176e-01  3.19114754e-09  4.60383176e-01  4.60383176e-01  3.29351996e-09  3.15048784e-09  1.63302575e-07  4.60957210e-08  9.70000000e-01 
 9.80000000e-01  4.60383171e-01  4.60383172e-01  3.19114754e-09  4.60383171e-01  4.60383171e-01  3.29352001e-09  3.15048784e-09  1.63302565e-07  4.60956642e-08  9.80000000e-01 
 9.90000000e-01  4.60383171e-01  4.60383171e-01  3.19114754e-09  4.60383171e-01  4.60383171e-01  3.29351996e-09  3.15048784e-09  1.63302573e-07  4.60955789e-08  9.90000000e-01 
 1.00000000e+00  4.60383140e-01  4.60383140e-01  3.19114759e-09  4.60383140e-01  4.60383140e-01  3.29352001e-09  3.15048784e-09  1.63302500e-07  4.60953942e-08  1.00000000e+00 
 1.01000000e+00  4.60383169e-01  4.60383169e-01  3.19114754e-09  4.60383169e-01  4.60383169e-01  3.29352001e-09  3.15048784e-09  1.63302552e-07  4.60954865e-08  1.01000000e+00 
 1.02000000e+00  4.60383152e-01  4.60383152e-01  3.19114759e-09  4.60383152e-01  4.60383152e-01  3.29351996e-09  3.15048784e-09  1.63302522e-07  4.60953160e-08  1.02000000e+00 
 1.03000000e+00  4.60383152e-01  4.60383152e-01  3.19114754e-09  4.60383152e-01  4.60383152e-01  3.29352001e-09  3.15048784e-09  1.63302535e-07  4.60953302e-08  1.03000000e+00 
 1.04000000e+00  4.60383172e-01  4.60383172e-01  3.19114760e-09  4.60383172e-01  4.60383172e-01  3.29351996e-09  3.15048784e-09  1.63302567e-07  4.60952876e-08  1.04000000e+00 
 1.05000000e+00  4.60383167e-01  4.60383167e-01  3.19114760e-09  4.60383167e-01  4.60383167e-01  3.29351996e-09  3.15048784e-09  1.63302555e-07  4.60952094e-08  1.05000000e+00 
 1.06000000e+00  4.60383155e-01  4.60383155e-01  3.19114759e-09  4.60383155e-01  4.60383155e-01  3.29352001e-09  3.15048784e-09  1.63302549e-07  4.60951028e-08  1.06000000e+00 
 1.07000000e+00  4.60383156e-01  4.60383156e-01  3.19114754e-09  4.60383156e-01  4.60383156e-01  3.29352001e-09  3.15048784e-09  1.63302548e-07  4.60950886e-08  1.07000000e+00 
 1.08000000e+00  4.60383153e-01  4.60383154e-01  3.19114759e-09  4.60383153e-01  4.60383153e-01  3.29352001e-09  3.15048784e-09  1.63302551e-07  4.60949181e-08  1.08000000e+00 
 1.09000000e+00  4.60383165e-01  4.60383165e-01  3.19114760e-09  4.60383165e-01  4.60383165e-01  3.29351996e-09  3.15048784e-09  1.63302555e-07  4.60950815e-08  1.09000000e+00 
 1.10000000e+00  4.60383138e-01  4.60383138e-01  3.19114754e-09  4.60383138e-01  4.60383138e-01  3.29352001e-09  3.15048784e-09  1.63302504e-07  4.60947618e-08  1.10000000e+00 
