 v-sweep         v(b0)           v(b1)           v(b2)           v(b3)           v(b4)           v(b5)           v(b6)           i(vbias)        i(viout)        v(vout)        
 0.00000000e+00  3.16990860e-09  3.31565990e-09  3.28486979e-09  4.57967046e-01  4.57967046e-01  3.31435525e-09  3.27228748e-09  1.57684103e-07  3.69536776e-08  0.00000000e+00 
 1.00000000e-02  3.16990858e-09  3.31565994e-09  3.28486972e-09  4.57967016e-01  4.57967016e-01  3.31435523e-09  3.27228752e-09  1.57684067e-07  3.69532226e-08  1.00000000e-02 
 2.00000000e-02  3.16990858e-09  3.31565989e-09  3.28486972e-09  4.57967050e-01  4.57967050e-01  3.31435523e-09  3.27228752e-09  1.57684116e-07  3.69527804e-08  2.00000000e-02 
 3.00000000e-02  3.16990858e-09  3.31565994e-09  3.28486977e-09  4.57967032e-01  4.57967032e-01  3.31435523e-09  3.27228752e-09  1.57684106e-07  3.69524833e-08  3.00000000e-02 
 4.00000000e-02  3.16990864e-09  3.31565994e-09  3.28486972e-09  4.57967054e-01  4.57967054e-01  3.31435523e-09  3.27228752e-09  1.57684146e-07  3.69520503e-08  4.00000000e-02 
 5.00000000e-02  3.16990864e-09  3.31565994e-09  3.28486977e-09  4.57967021e-01  4.57967021e-01  3.31435523e-09  3.27228752e-09  1.57684068e-07  3.69517914e-08  5.00000000e-02 
 6.00000000e-02  3.16990858e-09  3.31565989e-09  3.28486978e-09  4.57967042e-01  4.57967042e-01  3.31435523e-09  3.27228752e-09  1.57684126e-07  3.69515081e-08  6.00000000e-02 
 7.00000000e-02  3.16990864e-09  3.31565989e-09  3.28486972e-09  4.57967061e-01  4.57967061e-01  3.31435523e-09  3.27228752e-09  1.57684138e-07  3.69512305e-08  7.00000000e-02 
 8.00000000e-02  3.16990864e-09  3.31565994e-09  3.28486972e-09  4.57967023e-01  4.57967023e-01  3.31435523e-09  3.27228752e-09  1.57684091e-07  3.69509277e-08  8.00000000e-02 
 9.00000000e-02  3.16990864e-09  3.31565994e-09  3.28486978e-09  4.57967037e-01  4.57967037e-01  3.31435523e-09  3.27228752e-09  1.57684103e-07  3.69506559e-08  9.00000000e-02 
 1.00000000e-01  3.16990864e-09  3.31565989e-09  3.28486972e-09  4.57967039e-01  4.57967039e-01  3.31435523e-09  3.27228752e-09  1.57684114e-07  3.69503725e-08  1.00000000e-01 
 1.10000000e-01  3.16990858e-09  3.31565994e-09  3.28486978e-09  4.57967052e-01  4.57967052e-01  3.31435523e-09  3.27228752e-09  1.57684138e-07  3.69502295e-08  1.10000000e-01 
 1.20000000e-01  3.16990858e-09  3.31565994e-09  3.28486977e-09  4.57967035e-01  4.57967035e-01  3.31435523e-09  3.27228752e-09  1.57684111e-07  3.69498689e-08  1.20000000e-01 
 1.30000000e-01  3.16990864e-09  3.31565994e-09  3.28486978e-09  4.57967038e-01  4.57967038e-01  3.31435523e-09  3.27228752e-09  1.57684111e-07  3.69497073e-08  1.30000000e-01 
 1.40000000e-01  3.16990858e-09  3.31565989e-09  3.28486972e-09  4.57967054e-01  4.57967054e-01  3.31435523e-09  3.27228752e-09  1.57684140e-07  3.69494213e-08  1.40000000e-01 
 1.50000000e-01  3.16990864e-09  3.31565989e-09  3.28486972e-09  4.57967029e-01  4.57967029e-01  3.31435523e-09  3.27228752e-09  1.57684095e-07  3.69492490e-08  1.50000000e-01 
 1.60000000e-01  3.16990858e-09  3.31565994e-09  3.28486972e-09  4.57967054e-01  4.57967054e-01  3.31435529e-09  3.27228752e-09  1.57684138e-07  3.69490802e-08  1.60000000e-01 
 1.70000000e-01  3.16990864e-09  3.31565988e-09  3.28486972e-09  4.57967027e-01  4.57967027e-01  3.31435522e-09  3.27228752e-09  1.57684087e-07  3.69487854e-08  1.70000000e-01 
 1.80000000e-01  3.16990858e-09  3.31565994e-09  3.28486978e-09  4.57967063e-01  4.57967063e-01  3.31435524e-09  3.27228752e-09  1.57684149e-07  3.69486699e-08  1.80000000e-01 
 1.90000000e-01  3.16990864e-09  3.31565994e-09  3.28486978e-09  4.57967045e-01  4.57967045e-01  3.31435523e-09  3.27228752e-09  1.57684102e-07  3.69486166e-08  1.90000000e-01 
 2.00000000e-01  3.16990864e-09  3.31565994e-09  3.28486978e-09  4.57967042e-01  4.57967042e-01  3.31435523e-09  3.27228752e-09  1.57684109e-07  3.69483732e-08  2.00000000e-01 
 2.10000000e-01  3.16990864e-09  3.31565989e-09  3.28486972e-09  4.57967063e-01  4.57967063e-01  3.31435523e-09  3.27228752e-09  1.57684153e-07  3.69482915e-08  2.10000000e-01 
 2.20000000e-01  3.16990864e-09  3.31565994e-09  3.28486972e-09  4.57967054e-01  4.57967054e-01  3.31435523e-09  3.27228752e-09  1.57684122e-07  3.69481725e-08  2.20000000e-01 
 2.30000000e-01  3.16990864e-09  3.31565994e-09  3.28486978e-09  4.57967037e-01  4.57967037e-01  3.31435523e-09  3.27228752e-09  1.57684112e-07  3.69478670e-08  2.30000000e-01 
 2.40000000e-01  3.16990864e-09  3.31565989e-09  3.28486972e-09  4.57967052e-01  4.57967052e-01  3.31435523e-09  3.27228752e-09  1.57684143e-07  3.69477871e-08  2.40000000e-01 
 2.50000000e-01  3.16990864e-09  3.31565989e-09  3.28486972e-09  4.57967032e-01  4.57967032e-01  3.31435523e-09  3.27228752e-09  1.57684083e-07  3.69476272e-08  2.50000000e-01 
 2.60000000e-01  3.16990864e-09  3.31565989e-09  3.28486978e-09  4.57967040e-01  4.57967040e-01  3.31435523e-09  3.27228752e-09  1.57684109e-07  3.69475774e-08  2.60000000e-01 
 2.70000000e-01  3.16990864e-09  3.31565989e-09  3.28486978e-09  4.57967061e-01  4.57967061e-01  3.31435523e-09  3.27228752e-09  1.57684160e-07  3.69475242e-08  2.70000000e-01 
 2.80000000e-01  3.16990864e-09  3.31565994e-09  3.28486977e-09  4.57967016e-01  4.57967016e-01  3.31435523e-09  3.27228752e-09  1.57684077e-07  3.69473181e-08  2.80000000e-01 
 2.90000000e-01  3.16990864e-09  3.31565989e-09  3.28486972e-09  4.57967032e-01  4.57967032e-01  3.31435523e-09  3.27228752e-09  1.57684109e-07  3.69472026e-08  2.90000000e-01 
 3.00000000e-01  3.16990858e-09  3.31565994e-09  3.28486978e-09  4.57967043e-01  4.57967043e-01  3.31435523e-09  3.27228752e-09  1.57684117e-07  3.69472595e-08  3.00000000e-01 
 3.10000000e-01  3.16990864e-09  3.31565994e-09  3.28486978e-09  4.57967046e-01  4.57967046e-01  3.31435523e-09  3.27228752e-09  1.57684109e-07  3.69470001e-08  3.10000000e-01 
 3.20000000e-01  3.16990858e-09  3.31565994e-09  3.28486978e-09  4.57967055e-01  4.57967055e-01  3.31435523e-09  3.27228752e-09  1.57684130e-07  3.69468935e-08  3.20000000e-01 
 3.30000000e-01  3.16990864e-09  3.31565989e-09  3.28486972e-09  4.57967045e-01  4.57967045e-01  3.31435523e-09  3.27228752e-09  1.57684124e-07  3.69468331e-08  3.30000000e-01 
 3.40000000e-01  3.16990864e-09  3.31565989e-09  3.28486972e-09  4.57967047e-01  4.57967047e-01  3.31435523e-09  3.27228752e-09  1.57684121e-07  3.69466697e-08  3.40000000e-01 
 3.50000000e-01  3.16990858e-09  3.31565988e-09  3.28486972e-09  4.57967026e-01  4.57967026e-01  3.31435523e-09  3.27228752e-09  1.57684092e-07  3.69467301e-08  3.50000000e-01 
 3.60000000e-01  3.16990858e-09  3.31565989e-09  3.28486972e-09  4.57967046e-01  4.57967046e-01  3.31435523e-09  3.27228752e-09  1.57684119e-07  3.69464814e-08  3.60000000e-01 
 3.70000000e-01  3.16990858e-09  3.31565989e-09  3.28486972e-09  4.57967053e-01  4.57967053e-01  3.31435523e-09  3.27228752e-09  1.57684125e-07  3.69464495e-08  3.70000000e-01 
 3.80000000e-01  3.16990864e-09  3.31565989e-09  3.28486972e-09  4.57967049e-01  4.57967048e-01  3.31435523e-09  3.27228752e-09  1.57684136e-07  3.69464033e-08  3.80000000e-01 
 3.90000000e-01  3.16990864e-09  3.31565989e-09  3.28486978e-09  4.57967052e-01  4.57967052e-01  3.31435523e-09  3.27228752e-09  1.57684131e-07  3.69463358e-08  3.90000000e-01 
 4.00000000e-01  3.16990864e-09  3.31565989e-09  3.28486978e-09  4.57967051e-01  4.57967051e-01  3.31435523e-09  3.27228752e-09  1.57684146e-07  3.69462754e-08  4.00000000e-01 
 4.10000000e-01  3.16990864e-09  3.31565989e-09  3.28486978e-09  4.57967036e-01  4.57967036e-01  3.31435523e-09  3.27228752e-09  1.57684112e-07  3.69461439e-08  4.10000000e-01 
 4.20000000e-01  3.16990864e-09  3.31565989e-09  3.28486972e-09  4.57967054e-01  4.57967053e-01  3.31435523e-09  3.27228752e-09  1.57684130e-07  3.69462256e-08  4.20000000e-01 
 4.30000000e-01  3.16990864e-09  3.31565989e-09  3.28486978e-09  4.57967048e-01  4.57967048e-01  3.31435523e-09  3.27228752e-09  1.57684126e-07  3.69461475e-08  4.30000000e-01 
 4.40000000e-01  3.16990858e-09  3.31565989e-09  3.28486977e-09  4.57967029e-01  4.57967029e-01  3.31435523e-09  3.27228752e-09  1.57684110e-07  3.69459805e-08  4.40000000e-01 
 4.50000000e-01  3.16990858e-09  3.31565994e-09  3.28486978e-09  4.57967041e-01  4.57967041e-01  3.31435523e-09  3.27228752e-09  1.57684114e-07  3.69459023e-08  4.50000000e-01 
 4.60000000e-01  3.16990864e-09  3.31565989e-09  3.28486977e-09  4.57967033e-01  4.57967032e-01  3.31435523e-09  3.27228752e-09  1.57684089e-07  3.69459556e-08  4.60000000e-01 
 4.70000000e-01  3.16990864e-09  3.31565994e-09  3.28486972e-09  4.57967052e-01  4.57967052e-01  3.31435523e-09  3.27228752e-09  1.57684149e-07  3.69458526e-08  4.70000000e-01 
 4.80000000e-01  3.16990864e-09  3.31565989e-09  3.28486978e-09  4.57967059e-01  4.57967059e-01  3.31435523e-09  3.27228752e-09  1.57684131e-07  3.69458135e-08  4.80000000e-01 
 4.90000000e-01  3.16990864e-09  3.31565994e-09  3.28486977e-09  4.57967032e-01  4.57967032e-01  3.31435523e-09  3.27228752e-09  1.57684102e-07  3.69457140e-08  4.90000000e-01 
 5.00000000e-01  3.16990864e-09  3.31565994e-09  3.28486977e-09  4.57967025e-01  4.57967025e-01  3.31435523e-09  3.27228752e-09  1.57684096e-07  3.69456146e-08  5.00000000e-01 
 5.10000000e-01  3.16990858e-09  3.31565988e-09  3.28486977e-09  4.57967021e-01  4.57967021e-01  3.31435523e-09  3.27228752e-09  1.57684089e-07  3.69455684e-08  5.10000000e-01 
 5.20000000e-01  3.16990864e-09  3.31565988e-09  3.28486977e-09  4.57967027e-01  4.57967027e-01  3.31435523e-09  3.27228752e-09  1.57684087e-07  3.69454511e-08  5.20000000e-01 
 5.30000000e-01  3.16990864e-09  3.31565989e-09  3.28486978e-09  4.57967045e-01  4.57967045e-01  3.31435523e-09  3.27228752e-09  1.57684123e-07  3.69454085e-08  5.30000000e-01 
 5.40000000e-01  3.16990858e-09  3.31565994e-09  3.28486972e-09  4.57967039e-01  4.57967039e-01  3.31435523e-09  3.27228752e-09  1.57684113e-07  3.69454902e-08  5.40000000e-01 
 5.50000000e-01  3.16990858e-09  3.31565994e-09  3.28486978e-09  4.57967041e-01  4.57967041e-01  3.31435523e-09  3.27228752e-09  1.57684125e-07  3.69451847e-08  5.50000000e-01 
 5.60000000e-01  3.16990858e-09  3.31565988e-09  3.28486977e-09  4.57967023e-01  4.57967023e-01  3.31435523e-09  3.27228752e-09  1.57684086e-07  3.69451740e-08  5.60000000e-01 
 5.70000000e-01  3.16990864e-09  3.31565989e-09  3.28486972e-09  4.57967032e-01  4.57967032e-01  3.31435523e-09  3.27228752e-09  1.57684095e-07  3.69452593e-08  5.70000000e-01 
 5.80000000e-01  3.16990858e-09  3.31565994e-09  3.28486978e-09  4.57967044e-01  4.57967044e-01  3.31435523e-09  3.27228752e-09  1.57684119e-07  3.69451740e-08  5.80000000e-01 
 5.90000000e-01  3.16990864e-09  3.31565989e-09  3.28486978e-09  4.57967036e-01  4.57967036e-01  3.31435523e-09  3.27228752e-09  1.57684112e-07  3.69451243e-08  5.90000000e-01 
 6.00000000e-01  3.16990858e-09  3.31565989e-09  3.28486978e-09  4.57967039e-01  4.57967039e-01  3.31435523e-09  3.27228752e-09  1.57684107e-07  3.69450817e-08  6.00000000e-01 
 6.10000000e-01  3.16990858e-09  3.31565989e-09  3.28486978e-09  4.57967042e-01  4.57967041e-01  3.31435523e-09  3.27228752e-09  1.57684136e-07  3.69450461e-08  6.10000000e-01 
 6.20000000e-01  3.16990858e-09  3.31565994e-09  3.28486978e-09  4.57967036e-01  4.57967036e-01  3.31435523e-09  3.27228752e-09  1.57684105e-07  3.69449893e-08  6.20000000e-01 
 6.30000000e-01  3.16990864e-09  3.31565989e-09  3.28486978e-09  4.57967049e-01  4.57967049e-01  3.31435523e-09  3.27228752e-09  1.57684117e-07  3.69448614e-08  6.30000000e-01 
 6.40000000e-01  3.16990858e-09  3.31565994e-09  3.28486972e-09  4.57967024e-01  4.57967023e-01  3.31435523e-09  3.27228752e-09  1.57684092e-07  3.69447903e-08  6.40000000e-01 
 6.50000000e-01  3.16990858e-09  3.31565994e-09  3.28486972e-09  4.57967039e-01  4.57967039e-01  3.31435523e-09  3.27228752e-09  1.57684124e-07  3.69447051e-08  6.50000000e-01 
 6.60000000e-01  3.16990864e-09  3.31565989e-09  3.28486978e-09  4.57967045e-01  4.57967045e-01  3.31435523e-09  3.27228752e-09  1.57684126e-07  3.69447122e-08  6.60000000e-01 
 6.70000000e-01  3.16990864e-09  3.31565989e-09  3.28486978e-09  4.57967037e-01  4.57967037e-01  3.31435523e-09  3.27228752e-09  1.57684112e-07  3.69447548e-08  6.70000000e-01 
 6.80000000e-01  3.16990858e-09  3.31565989e-09  3.28486978e-09  4.57967048e-01  4.57967048e-01  3.31435523e-09  3.27228752e-09  1.57684128e-07  3.69446553e-08  6.80000000e-01 
 6.90000000e-01  3.16990864e-09  3.31565994e-09  3.28486978e-09  4.57967042e-01  4.57967042e-01  3.31435523e-09  3.27228752e-09  1.57684117e-07  3.69445203e-08  6.90000000e-01 
 7.00000000e-01  3.16990858e-09  3.31565989e-09  3.28486972e-09  4.57967038e-01  4.57967038e-01  3.31435523e-09  3.27228752e-09  1.57684113e-07  3.69445061e-08  7.00000000e-01 
 7.10000000e-01  3.16990864e-09  3.31565994e-09  3.28486972e-09  4.57967049e-01  4.57967049e-01  3.31435523e-09  3.27228752e-09  1.57684151e-07  3.69444280e-08  7.10000000e-01 
 7.20000000e-01  3.16990858e-09  3.31565989e-09  3.28486972e-09  4.57967036e-01  4.57967035e-01  3.31435523e-09  3.27228752e-09  1.57684102e-07  3.69444706e-08  7.20000000e-01 
 7.30000000e-01  3.16990858e-09  3.31565989e-09  3.28486978e-09  4.57967051e-01  4.57967051e-01  3.31435523e-09  3.27228752e-09  1.57684123e-07  3.69443711e-08  7.30000000e-01 
 7.40000000e-01  3.16990858e-09  3.31565994e-09  3.28486972e-09  4.57967041e-01  4.57967041e-01  3.31435523e-09  3.27228752e-09  1.57684122e-07  3.69442290e-08  7.40000000e-01 
 7.50000000e-01  3.16990864e-09  3.31565989e-09  3.28486978e-09  4.57967048e-01  4.57967047e-01  3.31435523e-09  3.27228752e-09  1.57684123e-07  3.69442645e-08  7.50000000e-01 
 7.60000000e-01  3.16990858e-09  3.31565994e-09  3.28486978e-09  4.57967044e-01  4.57967044e-01  3.31435523e-09  3.27228752e-09  1.57684112e-07  3.69440585e-08  7.60000000e-01 
 7.70000000e-01  3.16990864e-09  3.31565989e-09  3.28486978e-09  4.57967064e-01  4.57967064e-01  3.31435523e-09  3.27228752e-09  1.57684149e-07  3.69441437e-08  7.70000000e-01 
 7.80000000e-01  3.16990858e-09  3.31565994e-09  3.28486972e-09  4.57967034e-01  4.57967034e-01  3.31435523e-09  3.27228752e-09  1.57684100e-07  3.69440798e-08  7.80000000e-01 
 7.90000000e-01  3.16990858e-09  3.31565988e-09  3.28486972e-09  4.57967016e-01  4.57967016e-01  3.31435523e-09  3.27228752e-09  1.57684080e-07  3.69439164e-08  7.90000000e-01 
 8.00000000e-01  3.16990858e-09  3.31565990e-09  3.28486978e-09  4.57967039e-01  4.57967039e-01  3.31435523e-09  3.27228752e-09  1.57684112e-07  3.69438027e-08  8.00000000e-01 
 8.10000000e-01  3.16990864e-09  3.31565988e-09  3.28486978e-09  4.57967041e-01  4.57967041e-01  3.31435523e-09  3.27228752e-09  1.57684115e-07  3.69438666e-08  8.10000000e-01 
 8.20000000e-01  3.16990858e-09  3.31565990e-09  3.28486978e-09  4.57967036e-01  4.57967036e-01  3.31435523e-09  3.27228752e-09  1.57684116e-07  3.69438666e-08  8.20000000e-01 
 8.30000000e-01  3.16990864e-09  3.31565988e-09  3.28486978e-09  4.57967043e-01  4.57967043e-01  3.31435523e-09  3.27228752e-09  1.57684133e-07  3.69437885e-08  8.30000000e-01 
 8.40000000e-01  3.16990864e-09  3.31565990e-09  3.28486977e-09  4.57967022e-01  4.57967022e-01  3.31435523e-09  3.27228752e-09  1.57684090e-07  3.69436961e-08  8.40000000e-01 
 8.50000000e-01  3.16990864e-09  3.31565994e-09  3.28486972e-09  4.57967049e-01  4.57967049e-01  3.31435523e-09  3.27228752e-09  1.57684116e-07  3.69436179e-08  8.50000000e-01 
 8.60000000e-01  3.16990858e-09  3.31565989e-09  3.28486978e-09  4.57967061e-01  4.57967061e-01  3.31435523e-09  3.27228752e-09  1.57684136e-07  3.69435966e-08  8.60000000e-01 
 8.70000000e-01  3.16990864e-09  3.31565989e-09  3.28486978e-09  4.57967043e-01  4.57967042e-01  3.31435523e-09  3.27228752e-09  1.57684110e-07  3.69433835e-08  8.70000000e-01 
 8.80000000e-01  3.16990864e-09  3.31565989e-09  3.28486978e-09  4.57967037e-01  4.57967037e-01  3.31435523e-09  3.27228752e-09  1.57684115e-07  3.69433977e-08  8.80000000e-01 
 8.90000000e-01  3.16990858e-09  3.31565989e-09  3.28486978e-09  4.57967042e-01  4.57967042e-01  3.31435523e-09  3.27228752e-09  1.57684119e-07  3.69435469e-08  8.90000000e-01 
 9.00000000e-01  3.16990864e-09  3.31565994e-09  3.28486972e-09  4.57967045e-01  4.57967045e-01  3.31435523e-09  3.27228752e-09  1.57684114e-07  3.69434972e-08  9.00000000e-01 
 9.10000000e-01  3.16990858e-09  3.31565989e-09  3.28486978e-09  4.57967053e-01  4.57967053e-01  3.31435523e-09  3.27228752e-09  1.57684126e-07  3.69432627e-08  9.10000000e-01 
 9.20000000e-01  3.16990858e-09  3.31565989e-09  3.28486977e-09  4.57967030e-01  4.57967030e-01  3.31435523e-09  3.27228752e-09  1.57684093e-07  3.69433479e-08  9.20000000e-01 
 9.30000000e-01  3.16990858e-09  3.31565994e-09  3.28486978e-09  4.57967052e-01  4.57967051e-01  3.31435523e-09  3.27228752e-09  1.57684118e-07  3.69432698e-08  9.30000000e-01 
 9.40000000e-01  3.16990858e-09  3.31565994e-09  3.28486978e-09  4.57967063e-01  4.57967063e-01  3.31435523e-09  3.27228752e-09  1.57684147e-07  3.69431916e-08  9.40000000e-01 
 9.50000000e-01  3.16990864e-09  3.31565989e-09  3.28486972e-09  4.57967041e-01  4.57967041e-01  3.31435523e-09  3.27228752e-09  1.57684115e-07  3.69430566e-08  9.50000000e-01 
 9.60000000e-01  3.16990864e-09  3.31565988e-09  3.28486977e-09  4.57967014e-01  4.57967013e-01  3.31435523e-09  3.27228752e-09  1.57684085e-07  3.69431206e-08  9.60000000e-01 
 9.70000000e-01  3.16990858e-09  3.31565990e-09  3.28486972e-09  4.57967043e-01  4.57967043e-01  3.31435523e-09  3.27228752e-09  1.57684121e-07  3.69430637e-08  9.70000000e-01 
 9.80000000e-01  3.16990864e-09  3.31565994e-09  3.28486978e-09  4.57967042e-01  4.57967042e-01  3.31435523e-09  3.27228752e-09  1.57684109e-07  3.69430353e-08  9.80000000e-01 
 9.90000000e-01  3.16990858e-09  3.31565989e-09  3.28486978e-09  4.57967038e-01  4.57967038e-01  3.31435523e-09  3.27228752e-09  1.57684122e-07  3.69428577e-08  9.90000000e-01 
 1.00000000e+00  3.16990858e-09  3.31565994e-09  3.28486977e-09  4.57967034e-01  4.57967034e-01  3.31435523e-09  3.27228752e-09  1.57684117e-07  3.69427866e-08  1.00000000e+00 
 1.01000000e+00  3.16990858e-09  3.31565989e-09  3.28486972e-09  4.57967049e-01  4.57967049e-01  3.31435523e-09  3.27228752e-09  1.57684126e-07  3.69427298e-08  1.01000000e+00 
 1.02000000e+00  3.16990858e-09  3.31565994e-09  3.28486977e-09  4.57967019e-01  4.57967019e-01  3.31435523e-09  3.27228752e-09  1.57684089e-07  3.69427013e-08  1.02000000e+00 
 1.03000000e+00  3.16990864e-09  3.31565989e-09  3.28486972e-09  4.57967042e-01  4.57967042e-01  3.31435523e-09  3.27228752e-09  1.57684114e-07  3.69426942e-08  1.03000000e+00 
 1.04000000e+00  3.16990858e-09  3.31565994e-09  3.28486972e-09  4.57967052e-01  4.57967052e-01  3.31435523e-09  3.27228752e-09  1.57684127e-07  3.69425592e-08  1.04000000e+00 
 1.05000000e+00  3.16990858e-09  3.31565994e-09  3.28486978e-09  4.57967055e-01  4.57967055e-01  3.31435523e-09  3.27228752e-09  1.57684143e-07  3.69424882e-08  1.05000000e+00 
 1.06000000e+00  3.16990864e-09  3.31565989e-09  3.28486978e-09  4.57967037e-01  4.57967037e-01  3.31435523e-09  3.27228752e-09  1.57684111e-07  3.69424100e-08  1.06000000e+00 
 1.07000000e+00  3.16990858e-09  3.31565988e-09  3.28486972e-09  4.57967020e-01  4.57967020e-01  3.31435523e-09  3.27228752e-09  1.57684089e-07  3.69423461e-08  1.07000000e+00 
 1.08000000e+00  3.16990864e-09  3.31565990e-09  3.28486978e-09  4.57967053e-01  4.57967053e-01  3.31435523e-09  3.27228752e-09  1.57684134e-07  3.69424029e-08  1.08000000e+00 
 1.09000000e+00  3.16990864e-09  3.31565988e-09  3.28486978e-09  4.57967042e-01  4.57967042e-01  3.31435523e-09  3.27228752e-09  1.57684115e-07  3.69422821e-08  1.09000000e+00 
 1.10000000e+00  3.16990864e-09  3.31565990e-09  3.28486978e-09  4.57967062e-01  4.57967062e-01  3.31435523e-09  3.27228752e-09  1.57684153e-07  3.69421755e-08  1.10000000e+00 
