 v-sweep         v(b0)           v(b1)           v(b2)           v(b3)           v(b4)           v(b5)           v(b6)           i(vbias)        i(viout)        v(vout)        
 0.00000000e+00  3.51711098e-09  3.20313179e-09  4.56140550e-01  3.29270728e-09  3.15457086e-09  3.21419282e-09  3.34801279e-09  1.52752574e-07  5.73754333e-09  0.00000000e+00 
 1.00000000e-02  3.51711103e-09  3.20313178e-09  4.56140517e-01  3.29270727e-09  3.15457085e-09  3.21419281e-09  3.34801273e-09  1.52752521e-07  5.73702352e-09  1.00000000e-02 
 2.00000000e-02  3.51711103e-09  3.20313179e-09  4.56140523e-01  3.29270727e-09  3.15457085e-09  3.21419281e-09  3.34801273e-09  1.52752519e-07  5.73675707e-09  2.00000000e-02 
 3.00000000e-02  3.51711103e-09  3.20313179e-09  4.56140540e-01  3.29270727e-09  3.15457086e-09  3.21419282e-09  3.34801273e-09  1.52752559e-07  5.73649550e-09  3.00000000e-02 
 4.00000000e-02  3.51711103e-09  3.20313179e-09  4.56140526e-01  3.29270727e-09  3.15457085e-09  3.21419281e-09  3.34801273e-09  1.52752518e-07  5.73615155e-09  4.00000000e-02 
 5.00000000e-02  3.51711097e-09  3.20313179e-09  4.56140540e-01  3.29270733e-09  3.15457086e-09  3.21419282e-09  3.34801273e-09  1.52752553e-07  5.73573500e-09  5.00000000e-02 
 6.00000000e-02  3.51711103e-09  3.20313179e-09  4.56140536e-01  3.29270733e-09  3.15457085e-09  3.21419282e-09  3.34801279e-09  1.52752542e-07  5.73544279e-09  6.00000000e-02 
 7.00000000e-02  3.51711103e-09  3.20313178e-09  4.56140515e-01  3.29270732e-09  3.15457085e-09  3.21419281e-09  3.34801273e-09  1.52752523e-07  5.73516745e-09  7.00000000e-02 
 8.00000000e-02  3.51711103e-09  3.20313178e-09  4.56140519e-01  3.29270732e-09  3.15457085e-09  3.21419281e-09  3.34801273e-09  1.52752528e-07  5.73487124e-09  8.00000000e-02 
 9.00000000e-02  3.51711103e-09  3.20313179e-09  4.56140525e-01  3.29270727e-09  3.15457085e-09  3.21419281e-09  3.34801279e-09  1.52752541e-07  5.73461456e-09  9.00000000e-02 
 1.00000000e-01  3.51711103e-09  3.20313179e-09  4.56140525e-01  3.29270727e-09  3.15457085e-09  3.21419281e-09  3.34801273e-09  1.52752543e-07  5.73439696e-09  1.00000000e-01 
 1.10000000e-01  3.51711098e-09  3.20313179e-09  4.56140541e-01  3.29270727e-09  3.15457086e-09  3.21419282e-09  3.34801273e-09  1.52752553e-07  5.73395731e-09  1.10000000e-01 
 1.20000000e-01  3.51711103e-09  3.20313179e-09  4.56140533e-01  3.29270727e-09  3.15457085e-09  3.21419282e-09  3.34801279e-09  1.52752557e-07  5.73381342e-09  1.20000000e-01 
 1.30000000e-01  3.51711097e-09  3.20313178e-09  4.56140515e-01  3.29270727e-09  3.15457085e-09  3.21419281e-09  3.34801273e-09  1.52752528e-07  5.73363934e-09  1.30000000e-01 
 1.40000000e-01  3.51711098e-09  3.20313179e-09  4.56140542e-01  3.29270727e-09  3.15457086e-09  3.21419282e-09  3.34801273e-09  1.52752562e-07  5.73339953e-09  1.40000000e-01 
 1.50000000e-01  3.51711098e-09  3.20313179e-09  4.56140558e-01  3.29270727e-09  3.15457086e-09  3.21419282e-09  3.34801279e-09  1.52752600e-07  5.73315795e-09  1.50000000e-01 
 1.60000000e-01  3.51711098e-09  3.20313179e-09  4.56140541e-01  3.29270727e-09  3.15457086e-09  3.21419282e-09  3.34801273e-09  1.52752572e-07  5.73307624e-09  1.60000000e-01 
 1.70000000e-01  3.51711103e-09  3.20313179e-09  4.56140538e-01  3.29270733e-09  3.15457086e-09  3.21419282e-09  3.34801273e-09  1.52752550e-07  5.73280445e-09  1.70000000e-01 
 1.80000000e-01  3.51711103e-09  3.20313179e-09  4.56140539e-01  3.29270727e-09  3.15457086e-09  3.21419282e-09  3.34801279e-09  1.52752555e-07  5.73271208e-09  1.80000000e-01 
 1.90000000e-01  3.51711103e-09  3.20313178e-09  4.56140508e-01  3.29270727e-09  3.15457085e-09  3.21419281e-09  3.34801273e-09  1.52752499e-07  5.73257886e-09  1.90000000e-01 
 2.00000000e-01  3.51711103e-09  3.20313179e-09  4.56140537e-01  3.29270727e-09  3.15457086e-09  3.21419282e-09  3.34801273e-09  1.52752557e-07  5.73222003e-09  2.00000000e-01 
 2.10000000e-01  3.51711098e-09  3.20313179e-09  4.56140548e-01  3.29270727e-09  3.15457086e-09  3.21419282e-09  3.34801273e-09  1.52752579e-07  5.73226444e-09  2.10000000e-01 
 2.20000000e-01  3.51711103e-09  3.20313178e-09  4.56140519e-01  3.29270727e-09  3.15457080e-09  3.21419281e-09  3.34801278e-09  1.52752516e-07  5.73197667e-09  2.20000000e-01 
 2.30000000e-01  3.51711097e-09  3.20313179e-09  4.56140535e-01  3.29270727e-09  3.15457085e-09  3.21419282e-09  3.34801279e-09  1.52752551e-07  5.73189496e-09  2.30000000e-01 
 2.40000000e-01  3.51711103e-09  3.20313179e-09  4.56140538e-01  3.29270727e-09  3.15457091e-09  3.21419282e-09  3.34801273e-09  1.52752550e-07  5.73177239e-09  2.40000000e-01 
 2.50000000e-01  3.51711097e-09  3.20313178e-09  4.56140514e-01  3.29270732e-09  3.15457085e-09  3.21419281e-09  3.34801278e-09  1.52752522e-07  5.73168180e-09  2.50000000e-01 
 2.60000000e-01  3.51711097e-09  3.20313179e-09  4.56140532e-01  3.29270727e-09  3.15457085e-09  3.21419281e-09  3.34801279e-09  1.52752552e-07  5.73147929e-09  2.60000000e-01 
 2.70000000e-01  3.51711097e-09  3.20313178e-09  4.56140509e-01  3.29270727e-09  3.15457085e-09  3.21419281e-09  3.34801278e-09  1.52752512e-07  5.73132652e-09  2.70000000e-01 
 2.80000000e-01  3.51711097e-09  3.20313179e-09  4.56140536e-01  3.29270733e-09  3.15457086e-09  3.21419282e-09  3.34801279e-09  1.52752553e-07  5.73133541e-09  2.80000000e-01 
 2.90000000e-01  3.51711097e-09  3.20313179e-09  4.56140534e-01  3.29270733e-09  3.15457085e-09  3.21419287e-09  3.34801273e-09  1.52752553e-07  5.73115955e-09  2.90000000e-01 
 3.00000000e-01  3.51711103e-09  3.20313179e-09  4.56140531e-01  3.29270733e-09  3.15457085e-09  3.21419281e-09  3.34801279e-09  1.52752555e-07  5.73100323e-09  3.00000000e-01 
 3.10000000e-01  3.51711103e-09  3.20313179e-09  4.56140525e-01  3.29270727e-09  3.15457085e-09  3.21419281e-09  3.34801273e-09  1.52752544e-07  5.73102454e-09  3.10000000e-01 
 3.20000000e-01  3.51711098e-09  3.20313179e-09  4.56140563e-01  3.29270727e-09  3.15457086e-09  3.21419282e-09  3.34801273e-09  1.52752593e-07  5.73087533e-09  3.20000000e-01 
 3.30000000e-01  3.51711103e-09  3.20313179e-09  4.56140538e-01  3.29270727e-09  3.15457086e-09  3.21419282e-09  3.34801273e-09  1.52752534e-07  5.73076520e-09  3.30000000e-01 
 3.40000000e-01  3.51711103e-09  3.20313178e-09  4.56140512e-01  3.29270732e-09  3.15457085e-09  3.21419281e-09  3.34801273e-09  1.52752510e-07  5.73069769e-09  3.40000000e-01 
 3.50000000e-01  3.51711103e-09  3.20313179e-09  4.56140529e-01  3.29270727e-09  3.15457085e-09  3.21419281e-09  3.34801273e-09  1.52752547e-07  5.73056980e-09  3.50000000e-01 
 3.60000000e-01  3.51711103e-09  3.20313179e-09  4.56140530e-01  3.29270727e-09  3.15457085e-09  3.21419281e-09  3.34801279e-09  1.52752552e-07  5.73051651e-09  3.60000000e-01 
 3.70000000e-01  3.51711097e-09  3.20313178e-09  4.56140509e-01  3.29270732e-09  3.15457085e-09  3.21419281e-09  3.34801273e-09  1.52752517e-07  5.73051295e-09  3.70000000e-01 
 3.80000000e-01  3.51711103e-09  3.20313178e-09  4.56140516e-01  3.29270732e-09  3.15457085e-09  3.21419281e-09  3.34801273e-09  1.52752526e-07  5.73024650e-09  3.80000000e-01 
 3.90000000e-01  3.51711097e-09  3.20313179e-09  4.56140540e-01  3.29270727e-09  3.15457086e-09  3.21419282e-09  3.34801273e-09  1.52752558e-07  5.73026426e-09  3.90000000e-01 
 4.00000000e-01  3.51711097e-09  3.20313179e-09  4.56140525e-01  3.29270733e-09  3.15457085e-09  3.21419281e-09  3.34801279e-09  1.52752535e-07  5.73027492e-09  4.00000000e-01 
 4.10000000e-01  3.51711103e-09  3.20313178e-09  4.56140508e-01  3.29270732e-09  3.15457085e-09  3.21419281e-09  3.34801273e-09  1.52752528e-07  5.73005821e-09  4.10000000e-01 
 4.20000000e-01  3.51711097e-09  3.20313178e-09  4.56140501e-01  3.29270732e-09  3.15457085e-09  3.21419281e-09  3.34801273e-09  1.52752495e-07  5.73002978e-09  4.20000000e-01 
 4.30000000e-01  3.51711103e-09  3.20313179e-09  4.56140538e-01  3.29270733e-09  3.15457086e-09  3.21419282e-09  3.34801279e-09  1.52752558e-07  5.73005821e-09  4.30000000e-01 
 4.40000000e-01  3.51711103e-09  3.20313179e-09  4.56140533e-01  3.29270733e-09  3.15457085e-09  3.21419282e-09  3.34801273e-09  1.52752556e-07  5.72991965e-09  4.40000000e-01 
 4.50000000e-01  3.51711103e-09  3.20313179e-09  4.56140540e-01  3.29270727e-09  3.15457086e-09  3.21419282e-09  3.34801273e-09  1.52752576e-07  5.72989833e-09  4.50000000e-01 
 4.60000000e-01  3.51711097e-09  3.20313179e-09  4.56140535e-01  3.29270727e-09  3.15457085e-09  3.21419282e-09  3.34801273e-09  1.52752539e-07  5.72985215e-09  4.60000000e-01 
 4.70000000e-01  3.51711103e-09  3.20313179e-09  4.56140551e-01  3.29270733e-09  3.15457086e-09  3.21419282e-09  3.34801273e-09  1.52752573e-07  5.72966385e-09  4.70000000e-01 
 4.80000000e-01  3.51711103e-09  3.20313178e-09  4.56140520e-01  3.29270727e-09  3.15457085e-09  3.21419281e-09  3.34801273e-09  1.52752524e-07  5.72963899e-09  4.80000000e-01 
 4.90000000e-01  3.51711098e-09  3.20313179e-09  4.56140565e-01  3.29270727e-09  3.15457086e-09  3.21419282e-09  3.34801273e-09  1.52752601e-07  5.72964964e-09  4.90000000e-01 
 5.00000000e-01  3.51711103e-09  3.20313178e-09  4.56140514e-01  3.29270732e-09  3.15457085e-09  3.21419281e-09  3.34801273e-09  1.52752517e-07  5.72958925e-09  5.00000000e-01 
 5.10000000e-01  3.51711098e-09  3.20313179e-09  4.56140541e-01  3.29270727e-09  3.15457086e-09  3.21419282e-09  3.34801273e-09  1.52752558e-07  5.72941161e-09  5.10000000e-01 
 5.20000000e-01  3.51711097e-09  3.20313179e-09  4.56140532e-01  3.29270727e-09  3.15457085e-09  3.21419281e-09  3.34801273e-09  1.52752539e-07  5.72943293e-09  5.20000000e-01 
 5.30000000e-01  3.51711103e-09  3.20313178e-09  4.56140518e-01  3.29270727e-09  3.15457085e-09  3.21419281e-09  3.34801273e-09  1.52752518e-07  5.72939030e-09  5.30000000e-01 
 5.40000000e-01  3.51711097e-09  3.20313178e-09  4.56140511e-01  3.29270727e-09  3.15457085e-09  3.21419281e-09  3.34801273e-09  1.52752518e-07  5.72931924e-09  5.40000000e-01 
 5.50000000e-01  3.51711097e-09  3.20313179e-09  4.56140540e-01  3.29270727e-09  3.15457086e-09  3.21419282e-09  3.34801279e-09  1.52752562e-07  5.72932635e-09  5.50000000e-01 
 5.60000000e-01  3.51711097e-09  3.20313179e-09  4.56140529e-01  3.29270727e-09  3.15457085e-09  3.21419281e-09  3.34801279e-09  1.52752547e-07  5.72915226e-09  5.60000000e-01 
 5.70000000e-01  3.51711103e-09  3.20313179e-09  4.56140532e-01  3.29270733e-09  3.15457085e-09  3.21419281e-09  3.34801273e-09  1.52752541e-07  5.72914871e-09  5.70000000e-01 
 5.80000000e-01  3.51711103e-09  3.20313179e-09  4.56140535e-01  3.29270733e-09  3.15457085e-09  3.21419287e-09  3.34801273e-09  1.52752558e-07  5.72907055e-09  5.80000000e-01 
 5.90000000e-01  3.51711097e-09  3.20313179e-09  4.56140531e-01  3.29270727e-09  3.15457085e-09  3.21419281e-09  3.34801279e-09  1.52752536e-07  5.72891423e-09  5.90000000e-01 
 6.00000000e-01  3.51711098e-09  3.20313179e-09  4.56140556e-01  3.29270727e-09  3.15457086e-09  3.21419282e-09  3.34801273e-09  1.52752594e-07  5.72894976e-09  6.00000000e-01 
 6.10000000e-01  3.51711098e-09  3.20313179e-09  4.56140559e-01  3.29270727e-09  3.15457086e-09  3.21419282e-09  3.34801273e-09  1.52752595e-07  5.72891423e-09  6.10000000e-01 
 6.20000000e-01  3.51711098e-09  3.20313179e-09  4.56140555e-01  3.29270727e-09  3.15457086e-09  3.21419282e-09  3.34801273e-09  1.52752563e-07  5.72894265e-09  6.20000000e-01 
 6.30000000e-01  3.51711103e-09  3.20313179e-09  4.56140542e-01  3.29270727e-09  3.15457086e-09  3.21419282e-09  3.34801279e-09  1.52752568e-07  5.72887160e-09  6.30000000e-01 
 6.40000000e-01  3.51711103e-09  3.20313178e-09  4.56140508e-01  3.29270727e-09  3.15457085e-09  3.21419281e-09  3.34801273e-09  1.52752520e-07  5.72876502e-09  6.40000000e-01 
 6.50000000e-01  3.51711097e-09  3.20313178e-09  4.56140512e-01  3.29270732e-09  3.15457085e-09  3.21419281e-09  3.34801278e-09  1.52752512e-07  5.72875791e-09  6.50000000e-01 
 6.60000000e-01  3.51711097e-09  3.20313179e-09  4.56140533e-01  3.29270733e-09  3.15457085e-09  3.21419282e-09  3.34801273e-09  1.52752539e-07  5.72865844e-09  6.60000000e-01 
 6.70000000e-01  3.51711098e-09  3.20313179e-09  4.56140545e-01  3.29270727e-09  3.15457086e-09  3.21419282e-09  3.34801273e-09  1.52752565e-07  5.72844527e-09  6.70000000e-01 
 6.80000000e-01  3.51711103e-09  3.20313179e-09  4.56140550e-01  3.29270727e-09  3.15457086e-09  3.21419282e-09  3.34801273e-09  1.52752577e-07  5.72857317e-09  6.80000000e-01 
 6.90000000e-01  3.51711097e-09  3.20313178e-09  4.56140512e-01  3.29270732e-09  3.15457085e-09  3.21419281e-09  3.34801278e-09  1.52752531e-07  5.72834580e-09  6.90000000e-01 
 7.00000000e-01  3.51711103e-09  3.20313178e-09  4.56140514e-01  3.29270727e-09  3.15457085e-09  3.21419281e-09  3.34801273e-09  1.52752523e-07  5.72832448e-09  7.00000000e-01 
 7.10000000e-01  3.51711103e-09  3.20313179e-09  4.56140535e-01  3.29270733e-09  3.15457085e-09  3.21419287e-09  3.34801279e-09  1.52752555e-07  5.72828185e-09  7.10000000e-01 
 7.20000000e-01  3.51711103e-09  3.20313179e-09  4.56140546e-01  3.29270727e-09  3.15457086e-09  3.21419282e-09  3.34801273e-09  1.52752555e-07  5.72839554e-09  7.20000000e-01 
 7.30000000e-01  3.51711103e-09  3.20313179e-09  4.56140540e-01  3.29270727e-09  3.15457086e-09  3.21419287e-09  3.34801273e-09  1.52752568e-07  5.72826764e-09  7.30000000e-01 
 7.40000000e-01  3.51711103e-09  3.20313179e-09  4.56140538e-01  3.29270727e-09  3.15457086e-09  3.21419282e-09  3.34801273e-09  1.52752538e-07  5.72816106e-09  7.40000000e-01 
 7.50000000e-01  3.51711098e-09  3.20313179e-09  4.56140543e-01  3.29270727e-09  3.15457086e-09  3.21419282e-09  3.34801279e-09  1.52752563e-07  5.72817527e-09  7.50000000e-01 
 7.60000000e-01  3.51711103e-09  3.20313179e-09  4.56140542e-01  3.29270727e-09  3.15457086e-09  3.21419282e-09  3.34801273e-09  1.52752555e-07  5.72812553e-09  7.60000000e-01 
 7.70000000e-01  3.51711103e-09  3.20313179e-09  4.56140535e-01  3.29270727e-09  3.15457085e-09  3.21419282e-09  3.34801273e-09  1.52752562e-07  5.72799763e-09  7.70000000e-01 
 7.80000000e-01  3.51711103e-09  3.20313179e-09  4.56140537e-01  3.29270727e-09  3.15457086e-09  3.21419287e-09  3.34801273e-09  1.52752572e-07  5.72803316e-09  7.80000000e-01 
 7.90000000e-01  3.51711098e-09  3.20313179e-09  4.56140554e-01  3.29270727e-09  3.15457086e-09  3.21419287e-09  3.34801273e-09  1.52752583e-07  5.72777736e-09  7.90000000e-01 
 8.00000000e-01  3.51711097e-09  3.20313179e-09  4.56140530e-01  3.29270733e-09  3.15457085e-09  3.21419281e-09  3.34801273e-09  1.52752552e-07  5.72786263e-09  8.00000000e-01 
 8.10000000e-01  3.51711103e-09  3.20313179e-09  4.56140522e-01  3.29270732e-09  3.15457085e-09  3.21419281e-09  3.34801278e-09  1.52752528e-07  5.72779157e-09  8.10000000e-01 
 8.20000000e-01  3.51711103e-09  3.20313179e-09  4.56140528e-01  3.29270733e-09  3.15457085e-09  3.21419281e-09  3.34801273e-09  1.52752546e-07  5.72772763e-09  8.20000000e-01 
 8.30000000e-01  3.51711103e-09  3.20313178e-09  4.56140513e-01  3.29270732e-09  3.15457091e-09  3.21419287e-09  3.34801273e-09  1.52752516e-07  5.72779157e-09  8.30000000e-01 
 8.40000000e-01  3.51711103e-09  3.20313179e-09  4.56140522e-01  3.29270727e-09  3.15457085e-09  3.21419281e-09  3.34801273e-09  1.52752527e-07  5.72759973e-09  8.40000000e-01 
 8.50000000e-01  3.51711098e-09  3.20313179e-09  4.56140546e-01  3.29270733e-09  3.15457086e-09  3.21419282e-09  3.34801273e-09  1.52752568e-07  5.72763525e-09  8.50000000e-01 
 8.60000000e-01  3.51711098e-09  3.20313179e-09  4.56140556e-01  3.29270733e-09  3.15457086e-09  3.21419282e-09  3.34801273e-09  1.52752577e-07  5.72759973e-09  8.60000000e-01 
 8.70000000e-01  3.51711103e-09  3.20313179e-09  4.56140526e-01  3.29270733e-09  3.15457085e-09  3.21419281e-09  3.34801273e-09  1.52752531e-07  5.72747183e-09  8.70000000e-01 
 8.80000000e-01  3.51711097e-09  3.20313179e-09  4.56140530e-01  3.29270727e-09  3.15457085e-09  3.21419281e-09  3.34801273e-09  1.52752560e-07  5.72718051e-09  8.80000000e-01 
 8.90000000e-01  3.51711103e-09  3.20313179e-09  4.56140527e-01  3.29270733e-09  3.15457085e-09  3.21419281e-09  3.34801273e-09  1.52752540e-07  5.72736525e-09  8.90000000e-01 
 9.00000000e-01  3.51711097e-09  3.20313179e-09  4.56140535e-01  3.29270727e-09  3.15457085e-09  3.21419282e-09  3.34801279e-09  1.52752547e-07  5.72737235e-09  9.00000000e-01 
 9.10000000e-01  3.51711098e-09  3.20313179e-09  4.56140548e-01  3.29270733e-09  3.15457086e-09  3.21419282e-09  3.34801273e-09  1.52752576e-07  5.72731551e-09  9.10000000e-01 
 9.20000000e-01  3.51711103e-09  3.20313179e-09  4.56140539e-01  3.29270733e-09  3.15457086e-09  3.21419282e-09  3.34801273e-09  1.52752559e-07  5.72716630e-09  9.20000000e-01 
 9.30000000e-01  3.51711103e-09  3.20313179e-09  4.56140556e-01  3.29270733e-09  3.15457086e-09  3.21419282e-09  3.34801273e-09  1.52752582e-07  5.72710235e-09  9.30000000e-01 
 9.40000000e-01  3.51711103e-09  3.20313179e-09  4.56140538e-01  3.29270727e-09  3.15457086e-09  3.21419282e-09  3.34801279e-09  1.52752554e-07  5.72698866e-09  9.40000000e-01 
 9.50000000e-01  3.51711103e-09  3.20313179e-09  4.56140533e-01  3.29270733e-09  3.15457085e-09  3.21419282e-09  3.34801273e-09  1.52752557e-07  5.72711656e-09  9.50000000e-01 
 9.60000000e-01  3.51711103e-09  3.20313178e-09  4.56140512e-01  3.29270727e-09  3.15457085e-09  3.21419281e-09  3.34801273e-09  1.52752520e-07  5.72708103e-09  9.60000000e-01 
 9.70000000e-01  3.51711103e-09  3.20313179e-09  4.56140528e-01  3.29270727e-09  3.15457085e-09  3.21419281e-09  3.34801273e-09  1.52752527e-07  5.72693182e-09  9.70000000e-01 
 9.80000000e-01  3.51711103e-09  3.20313179e-09  4.56140542e-01  3.29270733e-09  3.15457086e-09  3.21419282e-09  3.34801273e-09  1.52752558e-07  5.72676129e-09  9.80000000e-01 
 9.90000000e-01  3.51711103e-09  3.20313178e-09  4.56140516e-01  3.29270732e-09  3.15457085e-09  3.21419281e-09  3.34801273e-09  1.52752531e-07  5.72682524e-09  9.90000000e-01 
 1.00000000e+00  3.51711097e-09  3.20313179e-09  4.56140525e-01  3.29270733e-09  3.15457085e-09  3.21419281e-09  3.34801273e-09  1.52752533e-07  5.72659076e-09  1.00000000e+00 
 1.01000000e+00  3.51711103e-09  3.20313179e-09  4.56140531e-01  3.29270727e-09  3.15457085e-09  3.21419287e-09  3.34801273e-09  1.52752557e-07  5.72662628e-09  1.01000000e+00 
 1.02000000e+00  3.51711103e-09  3.20313179e-09  4.56140528e-01  3.29270733e-09  3.15457085e-09  3.21419281e-09  3.34801273e-09  1.52752551e-07  5.72659076e-09  1.02000000e+00 
 1.03000000e+00  3.51711103e-09  3.20313179e-09  4.56140555e-01  3.29270733e-09  3.15457086e-09  3.21419282e-09  3.34801273e-09  1.52752587e-07  5.72651970e-09  1.03000000e+00 
 1.04000000e+00  3.51711097e-09  3.20313179e-09  4.56140527e-01  3.29270727e-09  3.15457085e-09  3.21419281e-09  3.34801279e-09  1.52752534e-07  5.72646286e-09  1.04000000e+00 
 1.05000000e+00  3.51711103e-09  3.20313179e-09  4.56140547e-01  3.29270727e-09  3.15457086e-09  3.21419282e-09  3.34801279e-09  1.52752580e-07  5.72649128e-09  1.05000000e+00 
 1.06000000e+00  3.51711103e-09  3.20313179e-09  4.56140531e-01  3.29270727e-09  3.15457085e-09  3.21419281e-09  3.34801273e-09  1.52752554e-07  5.72639181e-09  1.06000000e+00 
 1.07000000e+00  3.51711098e-09  3.20313179e-09  4.56140549e-01  3.29270733e-09  3.15457086e-09  3.21419282e-09  3.34801279e-09  1.52752575e-07  5.72626391e-09  1.07000000e+00 
 1.08000000e+00  3.51711103e-09  3.20313178e-09  4.56140497e-01  3.29270727e-09  3.15457085e-09  3.21419281e-09  3.34801272e-09  1.52752493e-07  5.72623549e-09  1.08000000e+00 
 1.09000000e+00  3.51711098e-09  3.20313179e-09  4.56140561e-01  3.29270733e-09  3.15457086e-09  3.21419282e-09  3.34801273e-09  1.52752602e-07  5.72605074e-09  1.09000000e+00 
 1.10000000e+00  3.51711104e-09  3.20313179e-09  4.56140565e-01  3.29270727e-09  3.15457086e-09  3.21419282e-09  3.34801273e-09  1.52752577e-07  5.72618575e-09  1.10000000e+00 
