 v-sweep         v(b0)           v(b1)           v(b2)           v(b3)           v(b4)           v(b5)           v(b6)           i(vbias)        i(viout)        v(vout)        
 0.00000000e+00  3.33074093e-09  3.22087496e-09  4.58555531e-01  4.58555531e-01  3.35821717e-09  4.58555531e-01  4.58555531e-01  1.59025653e-07  1.61562892e-07  0.00000000e+00 
 1.00000000e-02  3.33074091e-09  3.22087495e-09  4.58555534e-01  4.58555534e-01  3.35821715e-09  4.58555535e-01  4.58555535e-01  1.59025660e-07  1.61562504e-07  1.00000000e-02 
 2.00000000e-02  3.33074097e-09  3.22087495e-09  4.58555535e-01  4.58555535e-01  3.35821715e-09  4.58555535e-01  4.58555535e-01  1.59025660e-07  1.61562214e-07  2.00000000e-02 
 3.00000000e-02  3.33074097e-09  3.22087495e-09  4.58555541e-01  4.58555541e-01  3.35821715e-09  4.58555541e-01  4.58555541e-01  1.59025667e-07  1.61561807e-07  3.00000000e-02 
 4.00000000e-02  3.33074097e-09  3.22087495e-09  4.58555520e-01  4.58555520e-01  3.35821715e-09  4.58555520e-01  4.58555520e-01  1.59025642e-07  1.61561237e-07  4.00000000e-02 
 5.00000000e-02  3.33074097e-09  3.22087495e-09  4.58555512e-01  4.58555512e-01  3.35821715e-09  4.58555512e-01  4.58555512e-01  1.59025643e-07  1.61560863e-07  5.00000000e-02 
 6.00000000e-02  3.33074097e-09  3.22087501e-09  4.58555530e-01  4.58555530e-01  3.35821715e-09  4.58555530e-01  4.58555530e-01  1.59025651e-07  1.61560481e-07  6.00000000e-02 
 7.00000000e-02  3.33074097e-09  3.22087500e-09  4.58555526e-01  4.58555526e-01  3.35821715e-09  4.58555526e-01  4.58555526e-01  1.59025650e-07  1.61560148e-07  7.00000000e-02 
 8.00000000e-02  3.33074097e-09  3.22087494e-09  4.58555514e-01  4.58555514e-01  3.35821715e-09  4.58555514e-01  4.58555514e-01  1.59025641e-07  1.61559764e-07  8.00000000e-02 
 9.00000000e-02  3.33074097e-09  3.22087501e-09  4.58555534e-01  4.58555534e-01  3.35821715e-09  4.58555534e-01  4.58555534e-01  1.59025662e-07  1.61559531e-07  9.00000000e-02 
 1.00000000e-01  3.33074091e-09  3.22087499e-09  4.58555516e-01  4.58555516e-01  3.35821710e-09  4.58555516e-01  4.58555516e-01  1.59025631e-07  1.61559052e-07  1.00000000e-01 
 1.10000000e-01  3.33074097e-09  3.22087500e-09  4.58555522e-01  4.58555522e-01  3.35821715e-09  4.58555522e-01  4.58555522e-01  1.59025662e-07  1.61558724e-07  1.10000000e-01 
 1.20000000e-01  3.33074091e-09  3.22087500e-09  4.58555523e-01  4.58555523e-01  3.35821715e-09  4.58555523e-01  4.58555523e-01  1.59025652e-07  1.61558440e-07  1.20000000e-01 
 1.30000000e-01  3.33074097e-09  3.22087500e-09  4.58555519e-01  4.58555519e-01  3.35821715e-09  4.58555519e-01  4.58555519e-01  1.59025640e-07  1.61558243e-07  1.30000000e-01 
 1.40000000e-01  3.33074091e-09  3.22087500e-09  4.58555551e-01  4.58555551e-01  3.35821716e-09  4.58555551e-01  4.58555551e-01  1.59025706e-07  1.61558045e-07  1.40000000e-01 
 1.50000000e-01  3.33074091e-09  3.22087494e-09  4.58555513e-01  4.58555513e-01  3.35821715e-09  4.58555513e-01  4.58555513e-01  1.59025637e-07  1.61557718e-07  1.50000000e-01 
 1.60000000e-01  3.33074097e-09  3.22087501e-09  4.58555521e-01  4.58555521e-01  3.35821710e-09  4.58555521e-01  4.58555521e-01  1.59025643e-07  1.61557425e-07  1.60000000e-01 
 1.70000000e-01  3.33074097e-09  3.22087499e-09  4.58555520e-01  4.58555520e-01  3.35821715e-09  4.58555520e-01  4.58555520e-01  1.59025636e-07  1.61557244e-07  1.70000000e-01 
 1.80000000e-01  3.33074091e-09  3.22087500e-09  4.58555543e-01  4.58555543e-01  3.35821715e-09  4.58555543e-01  4.58555543e-01  1.59025672e-07  1.61557091e-07  1.80000000e-01 
 1.90000000e-01  3.33074091e-09  3.22087494e-09  4.58555487e-01  4.58555487e-01  3.35821715e-09  4.58555487e-01  4.58555487e-01  1.59025595e-07  1.61556656e-07  1.90000000e-01 
 2.00000000e-01  3.33074097e-09  3.22087496e-09  4.58555526e-01  4.58555525e-01  3.35821715e-09  4.58555526e-01  4.58555526e-01  1.59025642e-07  1.61556617e-07  2.00000000e-01 
 2.10000000e-01  3.33074091e-09  3.22087495e-09  4.58555516e-01  4.58555516e-01  3.35821715e-09  4.58555516e-01  4.58555516e-01  1.59025644e-07  1.61556324e-07  2.10000000e-01 
 2.20000000e-01  3.33074091e-09  3.22087495e-09  4.58555529e-01  4.58555529e-01  3.35821715e-09  4.58555529e-01  4.58555529e-01  1.59025656e-07  1.61556150e-07  2.20000000e-01 
 2.30000000e-01  3.33074097e-09  3.22087501e-09  4.58555538e-01  4.58555538e-01  3.35821715e-09  4.58555538e-01  4.58555538e-01  1.59025684e-07  1.61556056e-07  2.30000000e-01 
 2.40000000e-01  3.33074097e-09  3.22087499e-09  4.58555522e-01  4.58555522e-01  3.35821715e-09  4.58555522e-01  4.58555522e-01  1.59025632e-07  1.61555676e-07  2.40000000e-01 
 2.50000000e-01  3.33074091e-09  3.22087500e-09  4.58555546e-01  4.58555545e-01  3.35821716e-09  4.58555546e-01  4.58555546e-01  1.59025673e-07  1.61555544e-07  2.50000000e-01 
 2.60000000e-01  3.33074091e-09  3.22087495e-09  4.58555538e-01  4.58555538e-01  3.35821715e-09  4.58555538e-01  4.58555538e-01  1.59025653e-07  1.61555318e-07  2.60000000e-01 
 2.70000000e-01  3.33074091e-09  3.22087501e-09  4.58555527e-01  4.58555527e-01  3.35821715e-09  4.58555527e-01  4.58555527e-01  1.59025641e-07  1.61555182e-07  2.70000000e-01 
 2.80000000e-01  3.33074097e-09  3.22087500e-09  4.58555535e-01  4.58555535e-01  3.35821715e-09  4.58555535e-01  4.58555535e-01  1.59025662e-07  1.61554995e-07  2.80000000e-01 
 2.90000000e-01  3.33074097e-09  3.22087500e-09  4.58555541e-01  4.58555541e-01  3.35821715e-09  4.58555541e-01  4.58555541e-01  1.59025662e-07  1.61554972e-07  2.90000000e-01 
 3.00000000e-01  3.33074097e-09  3.22087494e-09  4.58555508e-01  4.58555508e-01  3.35821715e-09  4.58555508e-01  4.58555508e-01  1.59025626e-07  1.61554588e-07  3.00000000e-01 
 3.10000000e-01  3.33074097e-09  3.22087496e-09  4.58555544e-01  4.58555543e-01  3.35821710e-09  4.58555544e-01  4.58555544e-01  1.59025667e-07  1.61554553e-07  3.10000000e-01 
 3.20000000e-01  3.33074097e-09  3.22087501e-09  4.58555532e-01  4.58555532e-01  3.35821715e-09  4.58555532e-01  4.58555532e-01  1.59025659e-07  1.61554357e-07  3.20000000e-01 
 3.30000000e-01  3.33074091e-09  3.22087494e-09  4.58555523e-01  4.58555523e-01  3.35821715e-09  4.58555523e-01  4.58555523e-01  1.59025643e-07  1.61554137e-07  3.30000000e-01 
 3.40000000e-01  3.33074097e-09  3.22087502e-09  4.58555545e-01  4.58555545e-01  3.35821710e-09  4.58555545e-01  4.58555545e-01  1.59025676e-07  1.61554045e-07  3.40000000e-01 
 3.50000000e-01  3.33074091e-09  3.22087500e-09  4.58555524e-01  4.58555524e-01  3.35821715e-09  4.58555524e-01  4.58555524e-01  1.59025641e-07  1.61553952e-07  3.50000000e-01 
 3.60000000e-01  3.33074097e-09  3.22087500e-09  4.58555528e-01  4.58555528e-01  3.35821715e-09  4.58555528e-01  4.58555528e-01  1.59025661e-07  1.61553739e-07  3.60000000e-01 
 3.70000000e-01  3.33074097e-09  3.22087500e-09  4.58555520e-01  4.58555520e-01  3.35821715e-09  4.58555520e-01  4.58555520e-01  1.59025631e-07  1.61553547e-07  3.70000000e-01 
 3.80000000e-01  3.33074097e-09  3.22087501e-09  4.58555558e-01  4.58555558e-01  3.35821716e-09  4.58555558e-01  4.58555558e-01  1.59025697e-07  1.61553551e-07  3.80000000e-01 
 3.90000000e-01  3.33074097e-09  3.22087500e-09  4.58555518e-01  4.58555518e-01  3.35821715e-09  4.58555518e-01  4.58555518e-01  1.59025639e-07  1.61553210e-07  3.90000000e-01 
 4.00000000e-01  3.33074091e-09  3.22087500e-09  4.58555523e-01  4.58555523e-01  3.35821715e-09  4.58555523e-01  4.58555523e-01  1.59025645e-07  1.61553199e-07  4.00000000e-01 
 4.10000000e-01  3.33074097e-09  3.22087495e-09  4.58555535e-01  4.58555535e-01  3.35821715e-09  4.58555535e-01  4.58555535e-01  1.59025655e-07  1.61553135e-07  4.10000000e-01 
 4.20000000e-01  3.33074097e-09  3.22087496e-09  4.58555516e-01  4.58555516e-01  3.35821715e-09  4.58555516e-01  4.58555516e-01  1.59025631e-07  1.61552787e-07  4.20000000e-01 
 4.30000000e-01  3.33074097e-09  3.22087501e-09  4.58555515e-01  4.58555515e-01  3.35821715e-09  4.58555516e-01  4.58555516e-01  1.59025648e-07  1.61552737e-07  4.30000000e-01 
 4.40000000e-01  3.33074097e-09  3.22087500e-09  4.58555533e-01  4.58555533e-01  3.35821715e-09  4.58555533e-01  4.58555533e-01  1.59025661e-07  1.61552794e-07  4.40000000e-01 
 4.50000000e-01  3.33074097e-09  3.22087500e-09  4.58555497e-01  4.58555497e-01  3.35821715e-09  4.58555497e-01  4.58555497e-01  1.59025619e-07  1.61552396e-07  4.50000000e-01 
 4.60000000e-01  3.33074091e-09  3.22087500e-09  4.58555531e-01  4.58555531e-01  3.35821715e-09  4.58555531e-01  4.58555531e-01  1.59025666e-07  1.61552446e-07  4.60000000e-01 
 4.70000000e-01  3.33074097e-09  3.22087500e-09  4.58555489e-01  4.58555489e-01  3.35821715e-09  4.58555489e-01  4.58555489e-01  1.59025594e-07  1.61552077e-07  4.70000000e-01 
 4.80000000e-01  3.33074097e-09  3.22087500e-09  4.58555525e-01  4.58555525e-01  3.35821715e-09  4.58555525e-01  4.58555525e-01  1.59025652e-07  1.61552080e-07  4.80000000e-01 
 4.90000000e-01  3.33074097e-09  3.22087495e-09  4.58555540e-01  4.58555540e-01  3.35821715e-09  4.58555540e-01  4.58555540e-01  1.59025656e-07  1.61551931e-07  4.90000000e-01 
 5.00000000e-01  3.33074091e-09  3.22087501e-09  4.58555510e-01  4.58555510e-01  3.35821715e-09  4.58555511e-01  4.58555510e-01  1.59025619e-07  1.61551764e-07  5.00000000e-01 
 5.10000000e-01  3.33074091e-09  3.22087494e-09  4.58555506e-01  4.58555506e-01  3.35821715e-09  4.58555506e-01  4.58555506e-01  1.59025625e-07  1.61551586e-07  5.10000000e-01 
 5.20000000e-01  3.33074097e-09  3.22087496e-09  4.58555533e-01  4.58555533e-01  3.35821715e-09  4.58555533e-01  4.58555533e-01  1.59025653e-07  1.61551593e-07  5.20000000e-01 
 5.30000000e-01  3.33074097e-09  3.22087501e-09  4.58555531e-01  4.58555531e-01  3.35821715e-09  4.58555531e-01  4.58555531e-01  1.59025656e-07  1.61551533e-07  5.30000000e-01 
 5.40000000e-01  3.33074097e-09  3.22087500e-09  4.58555529e-01  4.58555529e-01  3.35821715e-09  4.58555529e-01  4.58555529e-01  1.59025657e-07  1.61551377e-07  5.40000000e-01 
 5.50000000e-01  3.33074097e-09  3.22087494e-09  4.58555527e-01  4.58555527e-01  3.35821715e-09  4.58555527e-01  4.58555527e-01  1.59025648e-07  1.61551267e-07  5.50000000e-01 
 5.60000000e-01  3.33074091e-09  3.22087496e-09  4.58555549e-01  4.58555549e-01  3.35821716e-09  4.58555549e-01  4.58555549e-01  1.59025667e-07  1.61551224e-07  5.60000000e-01 
 5.70000000e-01  3.33074091e-09  3.22087495e-09  4.58555507e-01  4.58555507e-01  3.35821715e-09  4.58555507e-01  4.58555507e-01  1.59025635e-07  1.61550901e-07  5.70000000e-01 
 5.80000000e-01  3.33074091e-09  3.22087495e-09  4.58555530e-01  4.58555530e-01  3.35821715e-09  4.58555530e-01  4.58555530e-01  1.59025668e-07  1.61550766e-07  5.80000000e-01 
 5.90000000e-01  3.33074097e-09  3.22087495e-09  4.58555503e-01  4.58555502e-01  3.35821709e-09  4.58555503e-01  4.58555503e-01  1.59025619e-07  1.61550474e-07  5.90000000e-01 
 6.00000000e-01  3.33074091e-09  3.22087501e-09  4.58555518e-01  4.58555518e-01  3.35821715e-09  4.58555518e-01  4.58555518e-01  1.59025642e-07  1.61550460e-07  6.00000000e-01 
 6.10000000e-01  3.33074091e-09  3.22087500e-09  4.58555534e-01  4.58555534e-01  3.35821715e-09  4.58555534e-01  4.58555534e-01  1.59025660e-07  1.61550432e-07  6.10000000e-01 
 6.20000000e-01  3.33074091e-09  3.22087501e-09  4.58555557e-01  4.58555557e-01  3.35821716e-09  4.58555557e-01  4.58555557e-01  1.59025703e-07  1.61550496e-07  6.20000000e-01 
 6.30000000e-01  3.33074097e-09  3.22087500e-09  4.58555532e-01  4.58555532e-01  3.35821715e-09  4.58555532e-01  4.58555532e-01  1.59025666e-07  1.61550240e-07  6.30000000e-01 
 6.40000000e-01  3.33074091e-09  3.22087500e-09  4.58555510e-01  4.58555510e-01  3.35821715e-09  4.58555510e-01  4.58555510e-01  1.59025628e-07  1.61549970e-07  6.40000000e-01 
 6.50000000e-01  3.33074091e-09  3.22087500e-09  4.58555542e-01  4.58555542e-01  3.35821715e-09  4.58555543e-01  4.58555543e-01  1.59025676e-07  1.61550012e-07  6.50000000e-01 
 6.60000000e-01  3.33074091e-09  3.22087494e-09  4.58555527e-01  4.58555527e-01  3.35821715e-09  4.58555527e-01  4.58555527e-01  1.59025646e-07  1.61549750e-07  6.60000000e-01 
 6.70000000e-01  3.33074097e-09  3.22087496e-09  4.58555533e-01  4.58555533e-01  3.35821715e-09  4.58555533e-01  4.58555533e-01  1.59025671e-07  1.61549671e-07  6.70000000e-01 
 6.80000000e-01  3.33074091e-09  3.22087501e-09  4.58555520e-01  4.58555520e-01  3.35821710e-09  4.58555520e-01  4.58555520e-01  1.59025638e-07  1.61549558e-07  6.80000000e-01 
 6.90000000e-01  3.33074097e-09  3.22087494e-09  4.58555529e-01  4.58555529e-01  3.35821715e-09  4.58555530e-01  4.58555530e-01  1.59025647e-07  1.61549416e-07  6.90000000e-01 
 7.00000000e-01  3.33074097e-09  3.22087501e-09  4.58555509e-01  4.58555509e-01  3.35821715e-09  4.58555509e-01  4.58555509e-01  1.59025620e-07  1.61549188e-07  7.00000000e-01 
 7.10000000e-01  3.33074091e-09  3.22087499e-09  4.58555505e-01  4.58555505e-01  3.35821715e-09  4.58555505e-01  4.58555505e-01  1.59025630e-07  1.61549075e-07  7.10000000e-01 
 7.20000000e-01  3.33074097e-09  3.22087501e-09  4.58555533e-01  4.58555533e-01  3.35821715e-09  4.58555533e-01  4.58555533e-01  1.59025653e-07  1.61549153e-07  7.20000000e-01 
 7.30000000e-01  3.33074091e-09  3.22087499e-09  4.58555519e-01  4.58555519e-01  3.35821715e-09  4.58555519e-01  4.58555519e-01  1.59025629e-07  1.61548883e-07  7.30000000e-01 
 7.40000000e-01  3.33074097e-09  3.22087494e-09  4.58555525e-01  4.58555524e-01  3.35821715e-09  4.58555525e-01  4.58555525e-01  1.59025659e-07  1.61548769e-07  7.40000000e-01 
 7.50000000e-01  3.33074091e-09  3.22087501e-09  4.58555523e-01  4.58555523e-01  3.35821715e-09  4.58555523e-01  4.58555523e-01  1.59025645e-07  1.61548655e-07  7.50000000e-01 
 7.60000000e-01  3.33074097e-09  3.22087499e-09  4.58555518e-01  4.58555518e-01  3.35821715e-09  4.58555518e-01  4.58555518e-01  1.59025644e-07  1.61548527e-07  7.60000000e-01 
 7.70000000e-01  3.33074097e-09  3.22087500e-09  4.58555526e-01  4.58555526e-01  3.35821715e-09  4.58555526e-01  4.58555526e-01  1.59025639e-07  1.61548449e-07  7.70000000e-01 
 7.80000000e-01  3.33074097e-09  3.22087500e-09  4.58555518e-01  4.58555518e-01  3.35821715e-09  4.58555518e-01  4.58555518e-01  1.59025632e-07  1.61548222e-07  7.80000000e-01 
 7.90000000e-01  3.33074091e-09  3.22087501e-09  4.58555557e-01  4.58555557e-01  3.35821716e-09  4.58555557e-01  4.58555557e-01  1.59025708e-07  1.61548172e-07  7.90000000e-01 
 8.00000000e-01  3.33074097e-09  3.22087494e-09  4.58555529e-01  4.58555529e-01  3.35821715e-09  4.58555529e-01  4.58555529e-01  1.59025660e-07  1.61547923e-07  8.00000000e-01 
 8.10000000e-01  3.33074097e-09  3.22087501e-09  4.58555516e-01  4.58555516e-01  3.35821715e-09  4.58555516e-01  4.58555516e-01  1.59025638e-07  1.61547675e-07  8.10000000e-01 
 8.20000000e-01  3.33074091e-09  3.22087499e-09  4.58555509e-01  4.58555509e-01  3.35821715e-09  4.58555509e-01  4.58555509e-01  1.59025632e-07  1.61547590e-07  8.20000000e-01 
 8.30000000e-01  3.33074091e-09  3.22087501e-09  4.58555526e-01  4.58555526e-01  3.35821710e-09  4.58555527e-01  4.58555527e-01  1.59025645e-07  1.61547533e-07  8.30000000e-01 
 8.40000000e-01  3.33074091e-09  3.22087499e-09  4.58555520e-01  4.58555520e-01  3.35821715e-09  4.58555520e-01  4.58555520e-01  1.59025652e-07  1.61547433e-07  8.40000000e-01 
 8.50000000e-01  3.33074091e-09  3.22087500e-09  4.58555541e-01  4.58555541e-01  3.35821715e-09  4.58555541e-01  4.58555541e-01  1.59025674e-07  1.61547362e-07  8.50000000e-01 
 8.60000000e-01  3.33074097e-09  3.22087500e-09  4.58555539e-01  4.58555539e-01  3.35821715e-09  4.58555539e-01  4.58555539e-01  1.59025672e-07  1.61547149e-07  8.60000000e-01 
 8.70000000e-01  3.33074097e-09  3.22087494e-09  4.58555527e-01  4.58555527e-01  3.35821715e-09  4.58555527e-01  4.58555527e-01  1.59025661e-07  1.61546964e-07  8.70000000e-01 
 8.80000000e-01  3.33074097e-09  3.22087501e-09  4.58555533e-01  4.58555533e-01  3.35821715e-09  4.58555533e-01  4.58555533e-01  1.59025661e-07  1.61546950e-07  8.80000000e-01 
 8.90000000e-01  3.33074091e-09  3.22087499e-09  4.58555508e-01  4.58555508e-01  3.35821715e-09  4.58555508e-01  4.58555508e-01  1.59025617e-07  1.61546680e-07  8.90000000e-01 
 9.00000000e-01  3.33074091e-09  3.22087495e-09  4.58555504e-01  4.58555504e-01  3.35821715e-09  4.58555504e-01  4.58555504e-01  1.59025609e-07  1.61546417e-07  9.00000000e-01 
 9.10000000e-01  3.33074097e-09  3.22087495e-09  4.58555516e-01  4.58555516e-01  3.35821715e-09  4.58555516e-01  4.58555516e-01  1.59025635e-07  1.61546481e-07  9.10000000e-01 
 9.20000000e-01  3.33074091e-09  3.22087495e-09  4.58555540e-01  4.58555540e-01  3.35821715e-09  4.58555540e-01  4.58555540e-01  1.59025662e-07  1.61546424e-07  9.20000000e-01 
 9.30000000e-01  3.33074097e-09  3.22087501e-09  4.58555534e-01  4.58555534e-01  3.35821715e-09  4.58555534e-01  4.58555534e-01  1.59025660e-07  1.61546204e-07  9.30000000e-01 
 9.40000000e-01  3.33074097e-09  3.22087500e-09  4.58555526e-01  4.58555526e-01  3.35821715e-09  4.58555526e-01  4.58555526e-01  1.59025648e-07  1.61546104e-07  9.40000000e-01 
 9.50000000e-01  3.33074097e-09  3.22087494e-09  4.58555528e-01  4.58555528e-01  3.35821715e-09  4.58555528e-01  4.58555528e-01  1.59025656e-07  1.61545834e-07  9.50000000e-01 
 9.60000000e-01  3.33074091e-09  3.22087495e-09  4.58555496e-01  4.58555496e-01  3.35821715e-09  4.58555497e-01  4.58555497e-01  1.59025601e-07  1.61545536e-07  9.60000000e-01 
 9.70000000e-01  3.33074097e-09  3.22087501e-09  4.58555537e-01  4.58555537e-01  3.35821715e-09  4.58555537e-01  4.58555537e-01  1.59025663e-07  1.61545607e-07  9.70000000e-01 
 9.80000000e-01  3.33074091e-09  3.22087500e-09  4.58555534e-01  4.58555534e-01  3.35821715e-09  4.58555535e-01  4.58555534e-01  1.59025661e-07  1.61545429e-07  9.80000000e-01 
 9.90000000e-01  3.33074091e-09  3.22087494e-09  4.58555503e-01  4.58555503e-01  3.35821715e-09  4.58555503e-01  4.58555503e-01  1.59025612e-07  1.61545067e-07  9.90000000e-01 
 1.00000000e+00  3.33074097e-09  3.22087496e-09  4.58555546e-01  4.58555546e-01  3.35821716e-09  4.58555546e-01  4.58555546e-01  1.59025673e-07  1.61545167e-07  1.00000000e+00 
 1.01000000e+00  3.33074097e-09  3.22087501e-09  4.58555529e-01  4.58555529e-01  3.35821710e-09  4.58555529e-01  4.58555529e-01  1.59025660e-07  1.61544882e-07  1.01000000e+00 
 1.02000000e+00  3.33074091e-09  3.22087494e-09  4.58555538e-01  4.58555538e-01  3.35821715e-09  4.58555538e-01  4.58555538e-01  1.59025655e-07  1.61544726e-07  1.02000000e+00 
 1.03000000e+00  3.33074091e-09  3.22087496e-09  4.58555536e-01  4.58555536e-01  3.35821715e-09  4.58555536e-01  4.58555536e-01  1.59025662e-07  1.61544641e-07  1.03000000e+00 
 1.04000000e+00  3.33074091e-09  3.22087501e-09  4.58555532e-01  4.58555532e-01  3.35821715e-09  4.58555532e-01  4.58555532e-01  1.59025661e-07  1.61544413e-07  1.04000000e+00 
 1.05000000e+00  3.33074097e-09  3.22087500e-09  4.58555537e-01  4.58555537e-01  3.35821715e-09  4.58555537e-01  4.58555537e-01  1.59025671e-07  1.61544300e-07  1.05000000e+00 
 1.06000000e+00  3.33074091e-09  3.22087494e-09  4.58555516e-01  4.58555516e-01  3.35821715e-09  4.58555516e-01  4.58555516e-01  1.59025639e-07  1.61544072e-07  1.06000000e+00 
 1.07000000e+00  3.33074091e-09  3.22087501e-09  4.58555524e-01  4.58555524e-01  3.35821715e-09  4.58555524e-01  4.58555524e-01  1.59025653e-07  1.61543930e-07  1.07000000e+00 
 1.08000000e+00  3.33074091e-09  3.22087500e-09  4.58555525e-01  4.58555524e-01  3.35821715e-09  4.58555525e-01  4.58555525e-01  1.59025649e-07  1.61543625e-07  1.08000000e+00 
 1.09000000e+00  3.33074097e-09  3.22087500e-09  4.58555529e-01  4.58555529e-01  3.35821715e-09  4.58555529e-01  4.58555529e-01  1.59025655e-07  1.61543568e-07  1.09000000e+00 
 1.10000000e+00  3.33074091e-09  3.22087500e-09  4.58555532e-01  4.58555532e-01  3.35821715e-09  4.58555532e-01  4.58555532e-01  1.59025648e-07  1.61543440e-07  1.10000000e+00 
