 v-sweep         v(b0)           v(b1)           v(b2)           v(b3)           v(b4)           v(b5)           v(b6)           i(vbias)        i(viout)        v(vout)        
 0.00000000e+00  3.38855844e-09  4.59123086e-01  4.59123086e-01  4.59123086e-01  4.59123086e-01  3.30001942e-09  4.59123086e-01  1.59711854e-07  1.48653057e-07  0.00000000e+00 
 1.00000000e-02  3.38855842e-09  4.59123100e-01  4.59123100e-01  4.59123100e-01  4.59123100e-01  3.30001940e-09  4.59123100e-01  1.59711883e-07  1.48652732e-07  1.00000000e-02 
 2.00000000e-02  3.38855848e-09  4.59123102e-01  4.59123102e-01  4.59123102e-01  4.59123102e-01  3.30001940e-09  4.59123102e-01  1.59711874e-07  1.48652187e-07  2.00000000e-02 
 3.00000000e-02  3.38855848e-09  4.59123089e-01  4.59123089e-01  4.59123089e-01  4.59123089e-01  3.30001940e-09  4.59123089e-01  1.59711863e-07  1.48651748e-07  3.00000000e-02 
 4.00000000e-02  3.38855848e-09  4.59123094e-01  4.59123094e-01  4.59123093e-01  4.59123094e-01  3.30001940e-09  4.59123094e-01  1.59711868e-07  1.48651386e-07  4.00000000e-02 
 5.00000000e-02  3.38855842e-09  4.59123103e-01  4.59123103e-01  4.59123103e-01  4.59123103e-01  3.30001940e-09  4.59123103e-01  1.59711882e-07  1.48651149e-07  5.00000000e-02 
 6.00000000e-02  3.38855842e-09  4.59123088e-01  4.59123088e-01  4.59123088e-01  4.59123088e-01  3.30001940e-09  4.59123088e-01  1.59711872e-07  1.48650693e-07  6.00000000e-02 
 7.00000000e-02  3.38855848e-09  4.59123096e-01  4.59123096e-01  4.59123096e-01  4.59123096e-01  3.30001940e-09  4.59123096e-01  1.59711878e-07  1.48650452e-07  7.00000000e-02 
 8.00000000e-02  3.38855848e-09  4.59123097e-01  4.59123097e-01  4.59123097e-01  4.59123097e-01  3.30001940e-09  4.59123097e-01  1.59711874e-07  1.48649912e-07  8.00000000e-02 
 9.00000000e-02  3.38855842e-09  4.59123102e-01  4.59123102e-01  4.59123102e-01  4.59123102e-01  3.30001940e-09  4.59123102e-01  1.59711879e-07  1.48649652e-07  9.00000000e-02 
 1.00000000e-01  3.38855848e-09  4.59123103e-01  4.59123103e-01  4.59123103e-01  4.59123103e-01  3.30001940e-09  4.59123103e-01  1.59711877e-07  1.48649431e-07  1.00000000e-01 
 1.10000000e-01  3.38855848e-09  4.59123079e-01  4.59123079e-01  4.59123079e-01  4.59123079e-01  3.30001940e-09  4.59123079e-01  1.59711852e-07  1.48649171e-07  1.10000000e-01 
 1.20000000e-01  3.38855842e-09  4.59123091e-01  4.59123091e-01  4.59123091e-01  4.59123091e-01  3.30001940e-09  4.59123091e-01  1.59711850e-07  1.48648826e-07  1.20000000e-01 
 1.30000000e-01  3.38855842e-09  4.59123116e-01  4.59123116e-01  4.59123116e-01  4.59123116e-01  3.30001940e-09  4.59123116e-01  1.59711898e-07  1.48648670e-07  1.30000000e-01 
 1.40000000e-01  3.38855848e-09  4.59123084e-01  4.59123084e-01  4.59123084e-01  4.59123084e-01  3.30001940e-09  4.59123084e-01  1.59711854e-07  1.48648402e-07  1.40000000e-01 
 1.50000000e-01  3.38855848e-09  4.59123091e-01  4.59123091e-01  4.59123091e-01  4.59123091e-01  3.30001940e-09  4.59123091e-01  1.59711870e-07  1.48648217e-07  1.50000000e-01 
 1.60000000e-01  3.38855848e-09  4.59123098e-01  4.59123098e-01  4.59123098e-01  4.59123098e-01  3.30001940e-09  4.59123098e-01  1.59711884e-07  1.48647944e-07  1.60000000e-01 
 1.70000000e-01  3.38855848e-09  4.59123085e-01  4.59123085e-01  4.59123085e-01  4.59123085e-01  3.30001940e-09  4.59123085e-01  1.59711861e-07  1.48647660e-07  1.70000000e-01 
 1.80000000e-01  3.38855848e-09  4.59123124e-01  4.59123124e-01  4.59123124e-01  4.59123124e-01  3.30001940e-09  4.59123124e-01  1.59711917e-07  1.48647572e-07  1.80000000e-01 
 1.90000000e-01  3.38855842e-09  4.59123095e-01  4.59123095e-01  4.59123095e-01  4.59123095e-01  3.30001940e-09  4.59123095e-01  1.59711874e-07  1.48647304e-07  1.90000000e-01 
 2.00000000e-01  3.38855848e-09  4.59123097e-01  4.59123097e-01  4.59123097e-01  4.59123097e-01  3.30001940e-09  4.59123097e-01  1.59711862e-07  1.48647020e-07  2.00000000e-01 
 2.10000000e-01  3.38855848e-09  4.59123088e-01  4.59123088e-01  4.59123088e-01  4.59123088e-01  3.30001940e-09  4.59123088e-01  1.59711870e-07  1.48646782e-07  2.10000000e-01 
 2.20000000e-01  3.38855842e-09  4.59123080e-01  4.59123080e-01  4.59123080e-01  4.59123080e-01  3.30001940e-09  4.59123080e-01  1.59711851e-07  1.48646617e-07  2.20000000e-01 
 2.30000000e-01  3.38855842e-09  4.59123115e-01  4.59123115e-01  4.59123114e-01  4.59123114e-01  3.30001940e-09  4.59123114e-01  1.59711886e-07  1.48646464e-07  2.30000000e-01 
 2.40000000e-01  3.38855848e-09  4.59123105e-01  4.59123105e-01  4.59123105e-01  4.59123105e-01  3.30001940e-09  4.59123105e-01  1.59711889e-07  1.48646292e-07  2.40000000e-01 
 2.50000000e-01  3.38855848e-09  4.59123111e-01  4.59123111e-01  4.59123111e-01  4.59123111e-01  3.30001940e-09  4.59123111e-01  1.59711884e-07  1.48646160e-07  2.50000000e-01 
 2.60000000e-01  3.38855842e-09  4.59123091e-01  4.59123091e-01  4.59123090e-01  4.59123091e-01  3.30001940e-09  4.59123091e-01  1.59711864e-07  1.48645853e-07  2.60000000e-01 
 2.70000000e-01  3.38855842e-09  4.59123088e-01  4.59123088e-01  4.59123087e-01  4.59123088e-01  3.30001940e-09  4.59123088e-01  1.59711853e-07  1.48645753e-07  2.70000000e-01 
 2.80000000e-01  3.38855842e-09  4.59123089e-01  4.59123089e-01  4.59123089e-01  4.59123089e-01  3.30001940e-09  4.59123089e-01  1.59711856e-07  1.48645640e-07  2.80000000e-01 
 2.90000000e-01  3.38855848e-09  4.59123072e-01  4.59123072e-01  4.59123072e-01  4.59123072e-01  3.30001940e-09  4.59123072e-01  1.59711846e-07  1.48645309e-07  2.90000000e-01 
 3.00000000e-01  3.38855842e-09  4.59123099e-01  4.59123099e-01  4.59123098e-01  4.59123098e-01  3.30001940e-09  4.59123098e-01  1.59711863e-07  1.48645277e-07  3.00000000e-01 
 3.10000000e-01  3.38855848e-09  4.59123081e-01  4.59123081e-01  4.59123081e-01  4.59123081e-01  3.30001940e-09  4.59123081e-01  1.59711839e-07  1.48645125e-07  3.10000000e-01 
 3.20000000e-01  3.38855848e-09  4.59123122e-01  4.59123122e-01  4.59123122e-01  4.59123122e-01  3.30001940e-09  4.59123122e-01  1.59711901e-07  1.48645093e-07  3.20000000e-01 
 3.30000000e-01  3.38855848e-09  4.59123097e-01  4.59123097e-01  4.59123097e-01  4.59123097e-01  3.30001940e-09  4.59123097e-01  1.59711863e-07  1.48644872e-07  3.30000000e-01 
 3.40000000e-01  3.38855842e-09  4.59123110e-01  4.59123110e-01  4.59123110e-01  4.59123110e-01  3.30001940e-09  4.59123110e-01  1.59711893e-07  1.48644848e-07  3.40000000e-01 
 3.50000000e-01  3.38855848e-09  4.59123100e-01  4.59123100e-01  4.59123100e-01  4.59123100e-01  3.30001940e-09  4.59123100e-01  1.59711868e-07  1.48644688e-07  3.50000000e-01 
 3.60000000e-01  3.38855842e-09  4.59123081e-01  4.59123081e-01  4.59123081e-01  4.59123081e-01  3.30001940e-09  4.59123081e-01  1.59711858e-07  1.48644549e-07  3.60000000e-01 
 3.70000000e-01  3.38855842e-09  4.59123090e-01  4.59123090e-01  4.59123090e-01  4.59123090e-01  3.30001940e-09  4.59123090e-01  1.59711871e-07  1.48644450e-07  3.70000000e-01 
 3.80000000e-01  3.38855842e-09  4.59123084e-01  4.59123084e-01  4.59123084e-01  4.59123084e-01  3.30001940e-09  4.59123084e-01  1.59711855e-07  1.48644290e-07  3.80000000e-01 
 3.90000000e-01  3.38855842e-09  4.59123101e-01  4.59123101e-01  4.59123101e-01  4.59123101e-01  3.30001940e-09  4.59123101e-01  1.59711875e-07  1.48644222e-07  3.90000000e-01 
 4.00000000e-01  3.38855848e-09  4.59123097e-01  4.59123097e-01  4.59123097e-01  4.59123097e-01  3.30001940e-09  4.59123097e-01  1.59711881e-07  1.48644030e-07  4.00000000e-01 
 4.10000000e-01  3.38855848e-09  4.59123062e-01  4.59123062e-01  4.59123062e-01  4.59123062e-01  3.30001940e-09  4.59123062e-01  1.59711825e-07  1.48643849e-07  4.10000000e-01 
 4.20000000e-01  3.38855842e-09  4.59123076e-01  4.59123075e-01  4.59123075e-01  4.59123075e-01  3.30001940e-09  4.59123075e-01  1.59711840e-07  1.48643807e-07  4.20000000e-01 
 4.30000000e-01  3.38855848e-09  4.59123087e-01  4.59123087e-01  4.59123087e-01  4.59123087e-01  3.30001940e-09  4.59123087e-01  1.59711863e-07  1.48643743e-07  4.30000000e-01 
 4.40000000e-01  3.38855842e-09  4.59123107e-01  4.59123107e-01  4.59123107e-01  4.59123107e-01  3.30001940e-09  4.59123107e-01  1.59711886e-07  1.48643629e-07  4.40000000e-01 
 4.50000000e-01  3.38855848e-09  4.59123074e-01  4.59123074e-01  4.59123074e-01  4.59123074e-01  3.30001940e-09  4.59123074e-01  1.59711844e-07  1.48643341e-07  4.50000000e-01 
 4.60000000e-01  3.38855842e-09  4.59123090e-01  4.59123090e-01  4.59123090e-01  4.59123090e-01  3.30001940e-09  4.59123090e-01  1.59711850e-07  1.48643363e-07  4.60000000e-01 
 4.70000000e-01  3.38855842e-09  4.59123091e-01  4.59123091e-01  4.59123091e-01  4.59123091e-01  3.30001940e-09  4.59123091e-01  1.59711869e-07  1.48643267e-07  4.70000000e-01 
 4.80000000e-01  3.38855842e-09  4.59123092e-01  4.59123092e-01  4.59123092e-01  4.59123092e-01  3.30001940e-09  4.59123092e-01  1.59711862e-07  1.48643281e-07  4.80000000e-01 
 4.90000000e-01  3.38855842e-09  4.59123104e-01  4.59123104e-01  4.59123104e-01  4.59123104e-01  3.30001940e-09  4.59123104e-01  1.59711883e-07  1.48643121e-07  4.90000000e-01 
 5.00000000e-01  3.38855848e-09  4.59123089e-01  4.59123089e-01  4.59123089e-01  4.59123089e-01  3.30001940e-09  4.59123089e-01  1.59711862e-07  1.48642908e-07  5.00000000e-01 
 5.10000000e-01  3.38855842e-09  4.59123095e-01  4.59123095e-01  4.59123095e-01  4.59123095e-01  3.30001934e-09  4.59123095e-01  1.59711861e-07  1.48642911e-07  5.10000000e-01 
 5.20000000e-01  3.38855848e-09  4.59123094e-01  4.59123094e-01  4.59123094e-01  4.59123094e-01  3.30001940e-09  4.59123094e-01  1.59711876e-07  1.48642680e-07  5.20000000e-01 
 5.30000000e-01  3.38855842e-09  4.59123090e-01  4.59123090e-01  4.59123090e-01  4.59123090e-01  3.30001940e-09  4.59123090e-01  1.59711862e-07  1.48642602e-07  5.30000000e-01 
 5.40000000e-01  3.38855848e-09  4.59123072e-01  4.59123072e-01  4.59123072e-01  4.59123072e-01  3.30001940e-09  4.59123072e-01  1.59711823e-07  1.48642460e-07  5.40000000e-01 
 5.50000000e-01  3.38855848e-09  4.59123101e-01  4.59123101e-01  4.59123101e-01  4.59123101e-01  3.30001940e-09  4.59123101e-01  1.59711860e-07  1.48642421e-07  5.50000000e-01 
 5.60000000e-01  3.38855842e-09  4.59123102e-01  4.59123102e-01  4.59123101e-01  4.59123101e-01  3.30001940e-09  4.59123101e-01  1.59711879e-07  1.48642364e-07  5.60000000e-01 
 5.70000000e-01  3.38855848e-09  4.59123088e-01  4.59123088e-01  4.59123088e-01  4.59123088e-01  3.30001940e-09  4.59123088e-01  1.59711856e-07  1.48642215e-07  5.70000000e-01 
 5.80000000e-01  3.38855842e-09  4.59123131e-01  4.59123131e-01  4.59123131e-01  4.59123131e-01  3.30001940e-09  4.59123131e-01  1.59711923e-07  1.48642236e-07  5.80000000e-01 
 5.90000000e-01  3.38855842e-09  4.59123106e-01  4.59123106e-01  4.59123106e-01  4.59123106e-01  3.30001940e-09  4.59123106e-01  1.59711876e-07  1.48642094e-07  5.90000000e-01 
 6.00000000e-01  3.38855842e-09  4.59123099e-01  4.59123099e-01  4.59123098e-01  4.59123098e-01  3.30001940e-09  4.59123098e-01  1.59711866e-07  1.48641981e-07  6.00000000e-01 
 6.10000000e-01  3.38855848e-09  4.59123086e-01  4.59123086e-01  4.59123085e-01  4.59123086e-01  3.30001940e-09  4.59123086e-01  1.59711860e-07  1.48641725e-07  6.10000000e-01 
 6.20000000e-01  3.38855842e-09  4.59123107e-01  4.59123107e-01  4.59123107e-01  4.59123107e-01  3.30001940e-09  4.59123107e-01  1.59711887e-07  1.48641703e-07  6.20000000e-01 
 6.30000000e-01  3.38855848e-09  4.59123087e-01  4.59123087e-01  4.59123087e-01  4.59123087e-01  3.30001940e-09  4.59123087e-01  1.59711856e-07  1.48641533e-07  6.30000000e-01 
 6.40000000e-01  3.38855842e-09  4.59123111e-01  4.59123111e-01  4.59123110e-01  4.59123111e-01  3.30001940e-09  4.59123111e-01  1.59711894e-07  1.48641497e-07  6.40000000e-01 
 6.50000000e-01  3.38855848e-09  4.59123086e-01  4.59123086e-01  4.59123086e-01  4.59123086e-01  3.30001940e-09  4.59123086e-01  1.59711851e-07  1.48641284e-07  6.50000000e-01 
 6.60000000e-01  3.38855842e-09  4.59123074e-01  4.59123074e-01  4.59123074e-01  4.59123074e-01  3.30001940e-09  4.59123074e-01  1.59711833e-07  1.48641178e-07  6.60000000e-01 
 6.70000000e-01  3.38855848e-09  4.59123115e-01  4.59123115e-01  4.59123115e-01  4.59123115e-01  3.30001940e-09  4.59123115e-01  1.59711901e-07  1.48641234e-07  6.70000000e-01 
 6.80000000e-01  3.38855842e-09  4.59123106e-01  4.59123106e-01  4.59123105e-01  4.59123106e-01  3.30001940e-09  4.59123106e-01  1.59711878e-07  1.48641121e-07  6.80000000e-01 
 6.90000000e-01  3.38855848e-09  4.59123120e-01  4.59123120e-01  4.59123120e-01  4.59123120e-01  3.30001940e-09  4.59123120e-01  1.59711906e-07  1.48641170e-07  6.90000000e-01 
 7.00000000e-01  3.38855842e-09  4.59123083e-01  4.59123083e-01  4.59123083e-01  4.59123083e-01  3.30001940e-09  4.59123083e-01  1.59711852e-07  1.48640851e-07  7.00000000e-01 
 7.10000000e-01  3.38855848e-09  4.59123081e-01  4.59123081e-01  4.59123081e-01  4.59123081e-01  3.30001940e-09  4.59123081e-01  1.59711852e-07  1.48640758e-07  7.10000000e-01 
 7.20000000e-01  3.38855848e-09  4.59123089e-01  4.59123089e-01  4.59123089e-01  4.59123089e-01  3.30001940e-09  4.59123089e-01  1.59711854e-07  1.48640659e-07  7.20000000e-01 
 7.30000000e-01  3.38855842e-09  4.59123099e-01  4.59123099e-01  4.59123099e-01  4.59123099e-01  3.30001940e-09  4.59123099e-01  1.59711865e-07  1.48640510e-07  7.30000000e-01 
 7.40000000e-01  3.38855848e-09  4.59123095e-01  4.59123095e-01  4.59123095e-01  4.59123095e-01  3.30001940e-09  4.59123095e-01  1.59711872e-07  1.48640410e-07  7.40000000e-01 
 7.50000000e-01  3.38855842e-09  4.59123077e-01  4.59123077e-01  4.59123077e-01  4.59123077e-01  3.30001940e-09  4.59123077e-01  1.59711852e-07  1.48640368e-07  7.50000000e-01 
 7.60000000e-01  3.38855848e-09  4.59123116e-01  4.59123116e-01  4.59123115e-01  4.59123115e-01  3.30001940e-09  4.59123115e-01  1.59711895e-07  1.48640439e-07  7.60000000e-01 
 7.70000000e-01  3.38855842e-09  4.59123114e-01  4.59123114e-01  4.59123114e-01  4.59123114e-01  3.30001940e-09  4.59123114e-01  1.59711894e-07  1.48640254e-07  7.70000000e-01 
 7.80000000e-01  3.38855842e-09  4.59123100e-01  4.59123100e-01  4.59123100e-01  4.59123100e-01  3.30001940e-09  4.59123100e-01  1.59711881e-07  1.48640076e-07  7.80000000e-01 
 7.90000000e-01  3.38855848e-09  4.59123105e-01  4.59123105e-01  4.59123105e-01  4.59123105e-01  3.30001940e-09  4.59123105e-01  1.59711884e-07  1.48639963e-07  7.90000000e-01 
 8.00000000e-01  3.38855842e-09  4.59123088e-01  4.59123088e-01  4.59123088e-01  4.59123088e-01  3.30001940e-09  4.59123088e-01  1.59711856e-07  1.48639835e-07  8.00000000e-01 
 8.10000000e-01  3.38855842e-09  4.59123109e-01  4.59123109e-01  4.59123109e-01  4.59123109e-01  3.30001940e-09  4.59123109e-01  1.59711885e-07  1.48639657e-07  8.10000000e-01 
 8.20000000e-01  3.38855842e-09  4.59123104e-01  4.59123104e-01  4.59123104e-01  4.59123104e-01  3.30001940e-09  4.59123104e-01  1.59711881e-07  1.48639643e-07  8.20000000e-01 
 8.30000000e-01  3.38855842e-09  4.59123084e-01  4.59123084e-01  4.59123084e-01  4.59123084e-01  3.30001940e-09  4.59123084e-01  1.59711856e-07  1.48639465e-07  8.30000000e-01 
 8.40000000e-01  3.38855842e-09  4.59123119e-01  4.59123119e-01  4.59123119e-01  4.59123119e-01  3.30001940e-09  4.59123119e-01  1.59711903e-07  1.48639408e-07  8.40000000e-01 
 8.50000000e-01  3.38855848e-09  4.59123107e-01  4.59123107e-01  4.59123107e-01  4.59123107e-01  3.30001940e-09  4.59123107e-01  1.59711892e-07  1.48639288e-07  8.50000000e-01 
 8.60000000e-01  3.38855842e-09  4.59123094e-01  4.59123094e-01  4.59123094e-01  4.59123094e-01  3.30001940e-09  4.59123094e-01  1.59711876e-07  1.48639188e-07  8.60000000e-01 
 8.70000000e-01  3.38855848e-09  4.59123091e-01  4.59123091e-01  4.59123091e-01  4.59123091e-01  3.30001940e-09  4.59123091e-01  1.59711856e-07  1.48638954e-07  8.70000000e-01 
 8.80000000e-01  3.38855842e-09  4.59123086e-01  4.59123086e-01  4.59123086e-01  4.59123086e-01  3.30001940e-09  4.59123086e-01  1.59711858e-07  1.48638797e-07  8.80000000e-01 
 8.90000000e-01  3.38855848e-09  4.59123088e-01  4.59123088e-01  4.59123088e-01  4.59123088e-01  3.30001940e-09  4.59123088e-01  1.59711861e-07  1.48638854e-07  8.90000000e-01 
 9.00000000e-01  3.38855842e-09  4.59123099e-01  4.59123099e-01  4.59123099e-01  4.59123099e-01  3.30001940e-09  4.59123099e-01  1.59711887e-07  1.48638748e-07  9.00000000e-01 
 9.10000000e-01  3.38855842e-09  4.59123103e-01  4.59123103e-01  4.59123103e-01  4.59123103e-01  3.30001940e-09  4.59123103e-01  1.59711884e-07  1.48638584e-07  9.10000000e-01 
 9.20000000e-01  3.38855842e-09  4.59123080e-01  4.59123080e-01  4.59123080e-01  4.59123080e-01  3.30001940e-09  4.59123080e-01  1.59711857e-07  1.48638321e-07  9.20000000e-01 
 9.30000000e-01  3.38855842e-09  4.59123105e-01  4.59123105e-01  4.59123105e-01  4.59123105e-01  3.30001940e-09  4.59123105e-01  1.59711873e-07  1.48638314e-07  9.30000000e-01 
 9.40000000e-01  3.38855848e-09  4.59123095e-01  4.59123095e-01  4.59123095e-01  4.59123095e-01  3.30001940e-09  4.59123095e-01  1.59711869e-07  1.48638243e-07  9.40000000e-01 
 9.50000000e-01  3.38855842e-09  4.59123113e-01  4.59123113e-01  4.59123112e-01  4.59123112e-01  3.30001940e-09  4.59123112e-01  1.59711892e-07  1.48638193e-07  9.50000000e-01 
 9.60000000e-01  3.38855848e-09  4.59123056e-01  4.59123056e-01  4.59123055e-01  4.59123056e-01  3.30001940e-09  4.59123056e-01  1.59711811e-07  1.48637909e-07  9.60000000e-01 
 9.70000000e-01  3.38855848e-09  4.59123090e-01  4.59123090e-01  4.59123090e-01  4.59123090e-01  3.30001940e-09  4.59123090e-01  1.59711864e-07  1.48637909e-07  9.70000000e-01 
 9.80000000e-01  3.38855842e-09  4.59123105e-01  4.59123105e-01  4.59123105e-01  4.59123105e-01  3.30001940e-09  4.59123105e-01  1.59711877e-07  1.48637810e-07  9.80000000e-01 
 9.90000000e-01  3.38855848e-09  4.59123090e-01  4.59123090e-01  4.59123090e-01  4.59123090e-01  3.30001940e-09  4.59123090e-01  1.59711856e-07  1.48637604e-07  9.90000000e-01 
 1.00000000e+00  3.38855842e-09  4.59123096e-01  4.59123096e-01  4.59123096e-01  4.59123096e-01  3.30001940e-09  4.59123096e-01  1.59711858e-07  1.48637518e-07  1.00000000e+00 
 1.01000000e+00  3.38855848e-09  4.59123090e-01  4.59123090e-01  4.59123089e-01  4.59123089e-01  3.30001940e-09  4.59123089e-01  1.59711865e-07  1.48637376e-07  1.01000000e+00 
 1.02000000e+00  3.38855842e-09  4.59123109e-01  4.59123109e-01  4.59123108e-01  4.59123108e-01  3.30001940e-09  4.59123108e-01  1.59711890e-07  1.48637255e-07  1.02000000e+00 
 1.03000000e+00  3.38855848e-09  4.59123068e-01  4.59123068e-01  4.59123068e-01  4.59123068e-01  3.30001940e-09  4.59123068e-01  1.59711824e-07  1.48636964e-07  1.03000000e+00 
 1.04000000e+00  3.38855842e-09  4.59123090e-01  4.59123090e-01  4.59123089e-01  4.59123090e-01  3.30001940e-09  4.59123090e-01  1.59711854e-07  1.48636950e-07  1.04000000e+00 
 1.05000000e+00  3.38855842e-09  4.59123090e-01  4.59123090e-01  4.59123090e-01  4.59123090e-01  3.30001940e-09  4.59123090e-01  1.59711880e-07  1.48636850e-07  1.05000000e+00 
 1.06000000e+00  3.38855848e-09  4.59123102e-01  4.59123102e-01  4.59123102e-01  4.59123102e-01  3.30001940e-09  4.59123102e-01  1.59711884e-07  1.48636758e-07  1.06000000e+00 
 1.07000000e+00  3.38855848e-09  4.59123096e-01  4.59123096e-01  4.59123096e-01  4.59123096e-01  3.30001940e-09  4.59123096e-01  1.59711874e-07  1.48636566e-07  1.07000000e+00 
 1.08000000e+00  3.38855842e-09  4.59123082e-01  4.59123082e-01  4.59123082e-01  4.59123082e-01  3.30001940e-09  4.59123082e-01  1.59711855e-07  1.48636417e-07  1.08000000e+00 
 1.09000000e+00  3.38855842e-09  4.59123125e-01  4.59123125e-01  4.59123125e-01  4.59123125e-01  3.30001940e-09  4.59123125e-01  1.59711919e-07  1.48636438e-07  1.09000000e+00 
 1.10000000e+00  3.38855848e-09  4.59123083e-01  4.59123083e-01  4.59123083e-01  4.59123083e-01  3.30001940e-09  4.59123083e-01  1.59711844e-07  1.48636161e-07  1.10000000e+00 
