 v-sweep         v(b0)           v(b1)           v(b2)           v(b3)           v(b4)           v(b5)           v(b6)           i(vbias)        i(viout)        v(vout)        
 0.00000000e+00  3.15688296e-09  4.59291330e-01  3.37776558e-09  4.59291330e-01  3.29432556e-09  3.53355579e-09  3.27268436e-09  1.61403277e-07  1.58024101e-08  0.00000000e+00 
 1.00000000e-02  3.15688293e-09  4.59291321e-01  3.37776560e-09  4.59291321e-01  3.29432558e-09  3.53355582e-09  3.27268439e-09  1.61403285e-07  1.58019724e-08  1.00000000e-02 
 2.00000000e-02  3.15688293e-09  4.59291317e-01  3.37776560e-09  4.59291317e-01  3.29432558e-09  3.53355582e-09  3.27268439e-09  1.61403267e-07  1.58016324e-08  2.00000000e-02 
 3.00000000e-02  3.15688293e-09  4.59291348e-01  3.37776560e-09  4.59291348e-01  3.29432558e-09  3.53355582e-09  3.27268433e-09  1.61403304e-07  1.58012574e-08  3.00000000e-02 
 4.00000000e-02  3.15688293e-09  4.59291334e-01  3.37776560e-09  4.59291334e-01  3.29432558e-09  3.53355582e-09  3.27268433e-09  1.61403295e-07  1.58009836e-08  4.00000000e-02 
 5.00000000e-02  3.15688293e-09  4.59291314e-01  3.37776560e-09  4.59291315e-01  3.29432558e-09  3.53355582e-09  3.27268433e-09  1.61403271e-07  1.58006497e-08  5.00000000e-02 
 6.00000000e-02  3.15688293e-09  4.59291350e-01  3.37776555e-09  4.59291350e-01  3.29432558e-09  3.53355582e-09  3.27268439e-09  1.61403316e-07  1.58003761e-08  6.00000000e-02 
 7.00000000e-02  3.15688293e-09  4.59291319e-01  3.37776560e-09  4.59291319e-01  3.29432558e-09  3.53355582e-09  3.27268433e-09  1.61403266e-07  1.57999591e-08  7.00000000e-02 
 8.00000000e-02  3.15688293e-09  4.59291336e-01  3.37776560e-09  4.59291336e-01  3.29432558e-09  3.53355582e-09  3.27268439e-09  1.61403279e-07  1.57998619e-08  8.00000000e-02 
 9.00000000e-02  3.15688293e-09  4.59291336e-01  3.37776560e-09  4.59291336e-01  3.29432558e-09  3.53355588e-09  3.27268439e-09  1.61403282e-07  1.57994640e-08  9.00000000e-02 
 1.00000000e-01  3.15688293e-09  4.59291316e-01  3.37776560e-09  4.59291316e-01  3.29432558e-09  3.53355587e-09  3.27268439e-09  1.61403251e-07  1.57991611e-08  1.00000000e-01 
 1.10000000e-01  3.15688293e-09  4.59291330e-01  3.37776560e-09  4.59291330e-01  3.29432558e-09  3.53355582e-09  3.27268433e-09  1.61403280e-07  1.57990252e-08  1.10000000e-01 
 1.20000000e-01  3.15688299e-09  4.59291301e-01  3.37776554e-09  4.59291302e-01  3.29432558e-09  3.53355583e-09  3.27268439e-09  1.61403236e-07  1.57987330e-08  1.20000000e-01 
 1.30000000e-01  3.15688293e-09  4.59291333e-01  3.37776560e-09  4.59291333e-01  3.29432558e-09  3.53355582e-09  3.27268433e-09  1.61403284e-07  1.57985625e-08  1.30000000e-01 
 1.40000000e-01  3.15688293e-09  4.59291307e-01  3.37776560e-09  4.59291307e-01  3.29432558e-09  3.53355582e-09  3.27268433e-09  1.61403246e-07  1.57982871e-08  1.40000000e-01 
 1.50000000e-01  3.15688293e-09  4.59291320e-01  3.37776554e-09  4.59291320e-01  3.29432558e-09  3.53355582e-09  3.27268439e-09  1.61403267e-07  1.57980793e-08  1.50000000e-01 
 1.60000000e-01  3.15688293e-09  4.59291320e-01  3.37776560e-09  4.59291320e-01  3.29432558e-09  3.53355582e-09  3.27268433e-09  1.61403282e-07  1.57978359e-08  1.60000000e-01 
 1.70000000e-01  3.15688299e-09  4.59291324e-01  3.37776560e-09  4.59291324e-01  3.29432558e-09  3.53355582e-09  3.27268439e-09  1.61403282e-07  1.57977631e-08  1.70000000e-01 
 1.80000000e-01  3.15688293e-09  4.59291294e-01  3.37776560e-09  4.59291294e-01  3.29432558e-09  3.53355582e-09  3.27268439e-09  1.61403235e-07  1.57976228e-08  1.80000000e-01 
 1.90000000e-01  3.15688299e-09  4.59291327e-01  3.37776560e-09  4.59291327e-01  3.29432558e-09  3.53355582e-09  3.27268439e-09  1.61403283e-07  1.57974664e-08  1.90000000e-01 
 2.00000000e-01  3.15688299e-09  4.59291302e-01  3.37776560e-09  4.59291302e-01  3.29432558e-09  3.53355582e-09  3.27268439e-09  1.61403241e-07  1.57973137e-08  2.00000000e-01 
 2.10000000e-01  3.15688299e-09  4.59291328e-01  3.37776560e-09  4.59291328e-01  3.29432558e-09  3.53355582e-09  3.27268439e-09  1.61403284e-07  1.57971520e-08  2.10000000e-01 
 2.20000000e-01  3.15688293e-09  4.59291318e-01  3.37776554e-09  4.59291318e-01  3.29432558e-09  3.53355582e-09  3.27268433e-09  1.61403266e-07  1.57969637e-08  2.20000000e-01 
 2.30000000e-01  3.15688293e-09  4.59291337e-01  3.37776555e-09  4.59291337e-01  3.29432558e-09  3.53355582e-09  3.27268439e-09  1.61403282e-07  1.57968110e-08  2.30000000e-01 
 2.40000000e-01  3.15688293e-09  4.59291308e-01  3.37776560e-09  4.59291308e-01  3.29432558e-09  3.53355582e-09  3.27268439e-09  1.61403244e-07  1.57967079e-08  2.40000000e-01 
 2.50000000e-01  3.15688293e-09  4.59291312e-01  3.37776560e-09  4.59291312e-01  3.29432558e-09  3.53355582e-09  3.27268439e-09  1.61403260e-07  1.57966387e-08  2.50000000e-01 
 2.60000000e-01  3.15688299e-09  4.59291306e-01  3.37776554e-09  4.59291306e-01  3.29432558e-09  3.53355582e-09  3.27268439e-09  1.61403251e-07  1.57963687e-08  2.60000000e-01 
 2.70000000e-01  3.15688299e-09  4.59291326e-01  3.37776560e-09  4.59291326e-01  3.29432558e-09  3.53355582e-09  3.27268433e-09  1.61403274e-07  1.57963154e-08  2.70000000e-01 
 2.80000000e-01  3.15688293e-09  4.59291338e-01  3.37776555e-09  4.59291338e-01  3.29432558e-09  3.53355582e-09  3.27268439e-09  1.61403299e-07  1.57963225e-08  2.80000000e-01 
 2.90000000e-01  3.15688299e-09  4.59291312e-01  3.37776554e-09  4.59291312e-01  3.29432558e-09  3.53355582e-09  3.27268439e-09  1.61403253e-07  1.57960969e-08  2.90000000e-01 
 3.00000000e-01  3.15688293e-09  4.59291321e-01  3.37776554e-09  4.59291321e-01  3.29432558e-09  3.53355582e-09  3.27268433e-09  1.61403268e-07  1.57960436e-08  3.00000000e-01 
 3.10000000e-01  3.15688293e-09  4.59291305e-01  3.37776560e-09  4.59291305e-01  3.29432558e-09  3.53355582e-09  3.27268433e-09  1.61403253e-07  1.57958944e-08  3.10000000e-01 
 3.20000000e-01  3.15688293e-09  4.59291321e-01  3.37776560e-09  4.59291321e-01  3.29432558e-09  3.53355582e-09  3.27268439e-09  1.61403269e-07  1.57957487e-08  3.20000000e-01 
 3.30000000e-01  3.15688293e-09  4.59291324e-01  3.37776560e-09  4.59291324e-01  3.29432558e-09  3.53355582e-09  3.27268433e-09  1.61403261e-07  1.57957274e-08  3.30000000e-01 
 3.40000000e-01  3.15688293e-09  4.59291316e-01  3.37776560e-09  4.59291316e-01  3.29432558e-09  3.53355582e-09  3.27268439e-09  1.61403262e-07  1.57956137e-08  3.40000000e-01 
 3.50000000e-01  3.15688293e-09  4.59291327e-01  3.37776560e-09  4.59291327e-01  3.29432558e-09  3.53355582e-09  3.27268433e-09  1.61403277e-07  1.57956208e-08  3.50000000e-01 
 3.60000000e-01  3.15688293e-09  4.59291350e-01  3.37776560e-09  4.59291350e-01  3.29432558e-09  3.53355582e-09  3.27268433e-09  1.61403311e-07  1.57955427e-08  3.60000000e-01 
 3.70000000e-01  3.15688293e-09  4.59291328e-01  3.37776560e-09  4.59291328e-01  3.29432558e-09  3.53355582e-09  3.27268433e-09  1.61403268e-07  1.57953934e-08  3.70000000e-01 
 3.80000000e-01  3.15688293e-09  4.59291309e-01  3.37776554e-09  4.59291309e-01  3.29432558e-09  3.53355582e-09  3.27268439e-09  1.61403248e-07  1.57953437e-08  3.80000000e-01 
 3.90000000e-01  3.15688293e-09  4.59291344e-01  3.37776555e-09  4.59291344e-01  3.29432558e-09  3.53355582e-09  3.27268433e-09  1.61403310e-07  1.57952655e-08  3.90000000e-01 
 4.00000000e-01  3.15688293e-09  4.59291303e-01  3.37776560e-09  4.59291303e-01  3.29432558e-09  3.53355582e-09  3.27268439e-09  1.61403233e-07  1.57952194e-08  4.00000000e-01 
 4.10000000e-01  3.15688293e-09  4.59291316e-01  3.37776560e-09  4.59291316e-01  3.29432558e-09  3.53355582e-09  3.27268439e-09  1.61403263e-07  1.57951803e-08  4.10000000e-01 
 4.20000000e-01  3.15688293e-09  4.59291328e-01  3.37776560e-09  4.59291328e-01  3.29432558e-09  3.53355582e-09  3.27268439e-09  1.61403287e-07  1.57950986e-08  4.20000000e-01 
 4.30000000e-01  3.15688299e-09  4.59291296e-01  3.37776560e-09  4.59291296e-01  3.29432558e-09  3.53355582e-09  3.27268433e-09  1.61403239e-07  1.57950737e-08  4.30000000e-01 
 4.40000000e-01  3.15688293e-09  4.59291331e-01  3.37776554e-09  4.59291331e-01  3.29432558e-09  3.53355582e-09  3.27268439e-09  1.61403290e-07  1.57949742e-08  4.40000000e-01 
 4.50000000e-01  3.15688293e-09  4.59291317e-01  3.37776560e-09  4.59291317e-01  3.29432558e-09  3.53355582e-09  3.27268439e-09  1.61403255e-07  1.57949742e-08  4.50000000e-01 
 4.60000000e-01  3.15688293e-09  4.59291330e-01  3.37776554e-09  4.59291330e-01  3.29432558e-09  3.53355582e-09  3.27268439e-09  1.61403263e-07  1.57947930e-08  4.60000000e-01 
 4.70000000e-01  3.15688293e-09  4.59291338e-01  3.37776560e-09  4.59291338e-01  3.29432558e-09  3.53355582e-09  3.27268433e-09  1.61403293e-07  1.57947646e-08  4.70000000e-01 
 4.80000000e-01  3.15688293e-09  4.59291321e-01  3.37776554e-09  4.59291321e-01  3.29432558e-09  3.53355582e-09  3.27268433e-09  1.61403268e-07  1.57946403e-08  4.80000000e-01 
 4.90000000e-01  3.15688293e-09  4.59291344e-01  3.37776560e-09  4.59291344e-01  3.29432558e-09  3.53355582e-09  3.27268439e-09  1.61403305e-07  1.57946545e-08  4.90000000e-01 
 5.00000000e-01  3.15688299e-09  4.59291318e-01  3.37776560e-09  4.59291318e-01  3.29432558e-09  3.53355582e-09  3.27268433e-09  1.61403275e-07  1.57946225e-08  5.00000000e-01 
 5.10000000e-01  3.15688293e-09  4.59291315e-01  3.37776560e-09  4.59291315e-01  3.29432558e-09  3.53355582e-09  3.27268433e-09  1.61403250e-07  1.57945870e-08  5.10000000e-01 
 5.20000000e-01  3.15688293e-09  4.59291332e-01  3.37776560e-09  4.59291332e-01  3.29432558e-09  3.53355582e-09  3.27268433e-09  1.61403282e-07  1.57944982e-08  5.20000000e-01 
 5.30000000e-01  3.15688299e-09  4.59291320e-01  3.37776560e-09  4.59291320e-01  3.29432558e-09  3.53355582e-09  3.27268439e-09  1.61403269e-07  1.57944164e-08  5.30000000e-01 
 5.40000000e-01  3.15688293e-09  4.59291332e-01  3.37776560e-09  4.59291333e-01  3.29432558e-09  3.53355582e-09  3.27268433e-09  1.61403272e-07  1.57944484e-08  5.40000000e-01 
 5.50000000e-01  3.15688293e-09  4.59291332e-01  3.37776560e-09  4.59291332e-01  3.29432558e-09  3.53355582e-09  3.27268439e-09  1.61403293e-07  1.57943099e-08  5.50000000e-01 
 5.60000000e-01  3.15688293e-09  4.59291316e-01  3.37776560e-09  4.59291316e-01  3.29432558e-09  3.53355582e-09  3.27268433e-09  1.61403251e-07  1.57942281e-08  5.60000000e-01 
 5.70000000e-01  3.15688293e-09  4.59291331e-01  3.37776554e-09  4.59291331e-01  3.29432558e-09  3.53355582e-09  3.27268433e-09  1.61403274e-07  1.57942139e-08  5.70000000e-01 
 5.80000000e-01  3.15688299e-09  4.59291330e-01  3.37776560e-09  4.59291330e-01  3.29432558e-09  3.53355582e-09  3.27268439e-09  1.61403286e-07  1.57942068e-08  5.80000000e-01 
 5.90000000e-01  3.15688293e-09  4.59291313e-01  3.37776560e-09  4.59291313e-01  3.29432558e-09  3.53355582e-09  3.27268433e-09  1.61403257e-07  1.57940576e-08  5.90000000e-01 
 6.00000000e-01  3.15688293e-09  4.59291314e-01  3.37776560e-09  4.59291314e-01  3.29432558e-09  3.53355582e-09  3.27268439e-09  1.61403259e-07  1.57939013e-08  6.00000000e-01 
 6.10000000e-01  3.15688293e-09  4.59291301e-01  3.37776560e-09  4.59291301e-01  3.29432558e-09  3.53355582e-09  3.27268439e-09  1.61403251e-07  1.57940079e-08  6.10000000e-01 
 6.20000000e-01  3.15688293e-09  4.59291296e-01  3.37776560e-09  4.59291296e-01  3.29432558e-09  3.53355582e-09  3.27268439e-09  1.61403222e-07  1.57940008e-08  6.20000000e-01 
 6.30000000e-01  3.15688293e-09  4.59291315e-01  3.37776560e-09  4.59291315e-01  3.29432558e-09  3.53355582e-09  3.27268433e-09  1.61403258e-07  1.57939297e-08  6.30000000e-01 
 6.40000000e-01  3.15688293e-09  4.59291315e-01  3.37776554e-09  4.59291315e-01  3.29432558e-09  3.53355582e-09  3.27268439e-09  1.61403250e-07  1.57939937e-08  6.40000000e-01 
 6.50000000e-01  3.15688293e-09  4.59291319e-01  3.37776560e-09  4.59291319e-01  3.29432558e-09  3.53355582e-09  3.27268433e-09  1.61403267e-07  1.57937521e-08  6.50000000e-01 
 6.60000000e-01  3.15688293e-09  4.59291329e-01  3.37776560e-09  4.59291329e-01  3.29432558e-09  3.53355582e-09  3.27268439e-09  1.61403281e-07  1.57938231e-08  6.60000000e-01 
 6.70000000e-01  3.15688299e-09  4.59291351e-01  3.37776555e-09  4.59291351e-01  3.29432558e-09  3.53355583e-09  3.27268439e-09  1.61403310e-07  1.57936810e-08  6.70000000e-01 
 6.80000000e-01  3.15688299e-09  4.59291349e-01  3.37776560e-09  4.59291349e-01  3.29432558e-09  3.53355582e-09  3.27268433e-09  1.61403312e-07  1.57936810e-08  6.80000000e-01 
 6.90000000e-01  3.15688293e-09  4.59291317e-01  3.37776560e-09  4.59291317e-01  3.29432558e-09  3.53355582e-09  3.27268433e-09  1.61403265e-07  1.57936313e-08  6.90000000e-01 
 7.00000000e-01  3.15688293e-09  4.59291322e-01  3.37776560e-09  4.59291322e-01  3.29432558e-09  3.53355582e-09  3.27268439e-09  1.61403268e-07  1.57935602e-08  7.00000000e-01 
 7.10000000e-01  3.15688293e-09  4.59291329e-01  3.37776560e-09  4.59291329e-01  3.29432558e-09  3.53355582e-09  3.27268433e-09  1.61403287e-07  1.57934892e-08  7.10000000e-01 
 7.20000000e-01  3.15688293e-09  4.59291328e-01  3.37776560e-09  4.59291328e-01  3.29432558e-09  3.53355582e-09  3.27268439e-09  1.61403286e-07  1.57935460e-08  7.20000000e-01 
 7.30000000e-01  3.15688293e-09  4.59291331e-01  3.37776560e-09  4.59291331e-01  3.29432558e-09  3.53355588e-09  3.27268439e-09  1.61403284e-07  1.57934963e-08  7.30000000e-01 
 7.40000000e-01  3.15688293e-09  4.59291306e-01  3.37776554e-09  4.59291306e-01  3.29432558e-09  3.53355587e-09  3.27268433e-09  1.61403253e-07  1.57932263e-08  7.40000000e-01 
 7.50000000e-01  3.15688299e-09  4.59291324e-01  3.37776560e-09  4.59291324e-01  3.29432558e-09  3.53355587e-09  3.27268439e-09  1.61403279e-07  1.57932760e-08  7.50000000e-01 
 7.60000000e-01  3.15688293e-09  4.59291335e-01  3.37776554e-09  4.59291335e-01  3.29432558e-09  3.53355582e-09  3.27268439e-09  1.61403284e-07  1.57932689e-08  7.60000000e-01 
 7.70000000e-01  3.15688299e-09  4.59291285e-01  3.37776554e-09  4.59291285e-01  3.29432558e-09  3.53355582e-09  3.27268439e-09  1.61403217e-07  1.57932121e-08  7.70000000e-01 
 7.80000000e-01  3.15688293e-09  4.59291320e-01  3.37776554e-09  4.59291320e-01  3.29432558e-09  3.53355588e-09  3.27268433e-09  1.61403266e-07  1.57930060e-08  7.80000000e-01 
 7.90000000e-01  3.15688299e-09  4.59291322e-01  3.37776554e-09  4.59291322e-01  3.29432558e-09  3.53355587e-09  3.27268439e-09  1.61403278e-07  1.57930984e-08  7.90000000e-01 
 8.00000000e-01  3.15688293e-09  4.59291325e-01  3.37776554e-09  4.59291325e-01  3.29432558e-09  3.53355582e-09  3.27268439e-09  1.61403270e-07  1.57930771e-08  8.00000000e-01 
 8.10000000e-01  3.15688293e-09  4.59291338e-01  3.37776555e-09  4.59291338e-01  3.29432558e-09  3.53355583e-09  3.27268439e-09  1.61403291e-07  1.57929065e-08  8.10000000e-01 
 8.20000000e-01  3.15688293e-09  4.59291289e-01  3.37776560e-09  4.59291289e-01  3.29432558e-09  3.53355582e-09  3.27268439e-09  1.61403223e-07  1.57929776e-08  8.20000000e-01 
 8.30000000e-01  3.15688293e-09  4.59291311e-01  3.37776560e-09  4.59291311e-01  3.29432558e-09  3.53355582e-09  3.27268439e-09  1.61403247e-07  1.57928923e-08  8.30000000e-01 
 8.40000000e-01  3.15688293e-09  4.59291333e-01  3.37776554e-09  4.59291333e-01  3.29432558e-09  3.53355582e-09  3.27268439e-09  1.61403283e-07  1.57928852e-08  8.40000000e-01 
 8.50000000e-01  3.15688293e-09  4.59291312e-01  3.37776554e-09  4.59291312e-01  3.29432558e-09  3.53355582e-09  3.27268433e-09  1.61403255e-07  1.57928071e-08  8.50000000e-01 
 8.60000000e-01  3.15688293e-09  4.59291321e-01  3.37776560e-09  4.59291321e-01  3.29432558e-09  3.53355582e-09  3.27268439e-09  1.61403270e-07  1.57928213e-08  8.60000000e-01 
 8.70000000e-01  3.15688299e-09  4.59291344e-01  3.37776555e-09  4.59291344e-01  3.29432558e-09  3.53355582e-09  3.27268433e-09  1.61403289e-07  1.57926721e-08  8.70000000e-01 
 8.80000000e-01  3.15688293e-09  4.59291311e-01  3.37776560e-09  4.59291311e-01  3.29432558e-09  3.53355582e-09  3.27268433e-09  1.61403252e-07  1.57926294e-08  8.80000000e-01 
 8.90000000e-01  3.15688293e-09  4.59291315e-01  3.37776560e-09  4.59291316e-01  3.29432558e-09  3.53355582e-09  3.27268439e-09  1.61403266e-07  1.57925868e-08  8.90000000e-01 
 9.00000000e-01  3.15688293e-09  4.59291318e-01  3.37776554e-09  4.59291318e-01  3.29432558e-09  3.53355588e-09  3.27268433e-09  1.61403275e-07  1.57924163e-08  9.00000000e-01 
 9.10000000e-01  3.15688293e-09  4.59291304e-01  3.37776560e-09  4.59291304e-01  3.29432558e-09  3.53355587e-09  3.27268439e-09  1.61403245e-07  1.57925228e-08  9.10000000e-01 
 9.20000000e-01  3.15688293e-09  4.59291323e-01  3.37776554e-09  4.59291323e-01  3.29432558e-09  3.53355587e-09  3.27268433e-09  1.61403268e-07  1.57924021e-08  9.20000000e-01 
 9.30000000e-01  3.15688293e-09  4.59291312e-01  3.37776560e-09  4.59291312e-01  3.29432558e-09  3.53355582e-09  3.27268439e-09  1.61403264e-07  1.57923665e-08  9.30000000e-01 
 9.40000000e-01  3.15688293e-09  4.59291340e-01  3.37776560e-09  4.59291340e-01  3.29432558e-09  3.53355583e-09  3.27268439e-09  1.61403307e-07  1.57923310e-08  9.40000000e-01 
 9.50000000e-01  3.15688293e-09  4.59291311e-01  3.37776560e-09  4.59291311e-01  3.29432558e-09  3.53355582e-09  3.27268433e-09  1.61403253e-07  1.57922031e-08  9.50000000e-01 
 9.60000000e-01  3.15688293e-09  4.59291328e-01  3.37776560e-09  4.59291329e-01  3.29432558e-09  3.53355582e-09  3.27268439e-09  1.61403283e-07  1.57921960e-08  9.60000000e-01 
 9.70000000e-01  3.15688299e-09  4.59291323e-01  3.37776560e-09  4.59291323e-01  3.29432558e-09  3.53355582e-09  3.27268433e-09  1.61403281e-07  1.57922670e-08  9.70000000e-01 
 9.80000000e-01  3.15688293e-09  4.59291292e-01  3.37776560e-09  4.59291292e-01  3.29432558e-09  3.53355582e-09  3.27268433e-09  1.61403225e-07  1.57921036e-08  9.80000000e-01 
 9.90000000e-01  3.15688299e-09  4.59291321e-01  3.37776560e-09  4.59291321e-01  3.29432558e-09  3.53355582e-09  3.27268433e-09  1.61403275e-07  1.57919686e-08  9.90000000e-01 
 1.00000000e+00  3.15688293e-09  4.59291334e-01  3.37776560e-09  4.59291334e-01  3.29432558e-09  3.53355582e-09  3.27268433e-09  1.61403303e-07  1.57919402e-08  1.00000000e+00 
 1.01000000e+00  3.15688293e-09  4.59291314e-01  3.37776560e-09  4.59291314e-01  3.29432558e-09  3.53355582e-09  3.27268439e-09  1.61403260e-07  1.57919473e-08  1.01000000e+00 
 1.02000000e+00  3.15688299e-09  4.59291331e-01  3.37776560e-09  4.59291331e-01  3.29432558e-09  3.53355582e-09  3.27268439e-09  1.61403284e-07  1.57919686e-08  1.02000000e+00 
 1.03000000e+00  3.15688293e-09  4.59291311e-01  3.37776560e-09  4.59291312e-01  3.29432558e-09  3.53355582e-09  3.27268439e-09  1.61403257e-07  1.57918265e-08  1.03000000e+00 
 1.04000000e+00  3.15688293e-09  4.59291326e-01  3.37776554e-09  4.59291326e-01  3.29432558e-09  3.53355582e-09  3.27268433e-09  1.61403282e-07  1.57917981e-08  1.04000000e+00 
 1.05000000e+00  3.15688293e-09  4.59291334e-01  3.37776560e-09  4.59291335e-01  3.29432558e-09  3.53355582e-09  3.27268439e-09  1.61403287e-07  1.57916134e-08  1.05000000e+00 
 1.06000000e+00  3.15688293e-09  4.59291319e-01  3.37776554e-09  4.59291319e-01  3.29432558e-09  3.53355582e-09  3.27268439e-09  1.61403265e-07  1.57916134e-08  1.06000000e+00 
 1.07000000e+00  3.15688293e-09  4.59291340e-01  3.37776555e-09  4.59291340e-01  3.29432558e-09  3.53355582e-09  3.27268439e-09  1.61403303e-07  1.57917128e-08  1.07000000e+00 
 1.08000000e+00  3.15688299e-09  4.59291319e-01  3.37776560e-09  4.59291319e-01  3.29432558e-09  3.53355582e-09  3.27268433e-09  1.61403270e-07  1.57914641e-08  1.08000000e+00 
 1.09000000e+00  3.15688299e-09  4.59291322e-01  3.37776554e-09  4.59291323e-01  3.29432558e-09  3.53355582e-09  3.27268433e-09  1.61403273e-07  1.57914499e-08  1.09000000e+00 
 1.10000000e+00  3.15688293e-09  4.59291332e-01  3.37776560e-09  4.59291332e-01  3.29432558e-09  3.53355582e-09  3.27268433e-09  1.61403287e-07  1.57915494e-08  1.10000000e+00 
