 v-sweep         v(b0)           v(b1)           v(b2)           v(b3)           v(b4)           v(b5)           v(b6)           i(vbias)        i(viout)        v(vout)        
 0.00000000e+00  3.26725719e-09  4.58821043e-01  4.58821043e-01  4.58821043e-01  3.46940182e-09  3.45431926e-09  4.58821043e-01  1.62379179e-07  1.16538430e-07  0.00000000e+00 
 1.00000000e-02  3.26725723e-09  4.58821083e-01  4.58821083e-01  4.58821083e-01  3.46940185e-09  3.45431924e-09  4.58821083e-01  1.62379240e-07  1.16538187e-07  1.00000000e-02 
 2.00000000e-02  3.26725717e-09  4.58821064e-01  4.58821064e-01  4.58821064e-01  3.46940185e-09  3.45431924e-09  4.58821064e-01  1.62379213e-07  1.16537687e-07  2.00000000e-02 
 3.00000000e-02  3.26725722e-09  4.58821056e-01  4.58821056e-01  4.58821055e-01  3.46940185e-09  3.45431924e-09  4.58821056e-01  1.62379204e-07  1.16537276e-07  3.00000000e-02 
 4.00000000e-02  3.26725722e-09  4.58821050e-01  4.58821050e-01  4.58821050e-01  3.46940185e-09  3.45431930e-09  4.58821050e-01  1.62379192e-07  1.16536976e-07  4.00000000e-02 
 5.00000000e-02  3.26725717e-09  4.58821065e-01  4.58821065e-01  4.58821065e-01  3.46940185e-09  3.45431930e-09  4.58821065e-01  1.62379234e-07  1.16536697e-07  5.00000000e-02 
 6.00000000e-02  3.26725722e-09  4.58821063e-01  4.58821063e-01  4.58821063e-01  3.46940185e-09  3.45431930e-09  4.58821063e-01  1.62379198e-07  1.16536241e-07  6.00000000e-02 
 7.00000000e-02  3.26725716e-09  4.58821046e-01  4.58821046e-01  4.58821046e-01  3.46940185e-09  3.45431924e-09  4.58821046e-01  1.62379187e-07  1.16535929e-07  7.00000000e-02 
 8.00000000e-02  3.26725716e-09  4.58821048e-01  4.58821048e-01  4.58821047e-01  3.46940185e-09  3.45431930e-09  4.58821048e-01  1.62379197e-07  1.16535705e-07  8.00000000e-02 
 9.00000000e-02  3.26725722e-09  4.58821057e-01  4.58821058e-01  4.58821057e-01  3.46940185e-09  3.45431930e-09  4.58821057e-01  1.62379206e-07  1.16535357e-07  9.00000000e-02 
 1.00000000e-01  3.26725716e-09  4.58821049e-01  4.58821049e-01  4.58821049e-01  3.46940185e-09  3.45431924e-09  4.58821049e-01  1.62379177e-07  1.16535023e-07  1.00000000e-01 
 1.10000000e-01  3.26725717e-09  4.58821058e-01  4.58821058e-01  4.58821058e-01  3.46940185e-09  3.45431930e-09  4.58821058e-01  1.62379205e-07  1.16534799e-07  1.10000000e-01 
 1.20000000e-01  3.26725722e-09  4.58821029e-01  4.58821029e-01  4.58821029e-01  3.46940184e-09  3.45431924e-09  4.58821029e-01  1.62379148e-07  1.16534506e-07  1.20000000e-01 
 1.30000000e-01  3.26725722e-09  4.58821044e-01  4.58821044e-01  4.58821044e-01  3.46940185e-09  3.45431924e-09  4.58821044e-01  1.62379181e-07  1.16534322e-07  1.30000000e-01 
 1.40000000e-01  3.26725716e-09  4.58821038e-01  4.58821039e-01  4.58821038e-01  3.46940185e-09  3.45431930e-09  4.58821038e-01  1.62379167e-07  1.16533966e-07  1.40000000e-01 
 1.50000000e-01  3.26725716e-09  4.58821050e-01  4.58821050e-01  4.58821050e-01  3.46940185e-09  3.45431924e-09  4.58821050e-01  1.62379196e-07  1.16533842e-07  1.50000000e-01 
 1.60000000e-01  3.26725716e-09  4.58821036e-01  4.58821036e-01  4.58821036e-01  3.46940185e-09  3.45431924e-09  4.58821036e-01  1.62379171e-07  1.16533592e-07  1.60000000e-01 
 1.70000000e-01  3.26725723e-09  4.58821069e-01  4.58821069e-01  4.58821069e-01  3.46940185e-09  3.45431930e-09  4.58821069e-01  1.62379225e-07  1.16533391e-07  1.70000000e-01 
 1.80000000e-01  3.26725716e-09  4.58821048e-01  4.58821048e-01  4.58821048e-01  3.46940185e-09  3.45431930e-09  4.58821048e-01  1.62379170e-07  1.16533249e-07  1.80000000e-01 
 1.90000000e-01  3.26725717e-09  4.58821054e-01  4.58821054e-01  4.58821053e-01  3.46940185e-09  3.45431930e-09  4.58821054e-01  1.62379208e-07  1.16533057e-07  1.90000000e-01 
 2.00000000e-01  3.26725716e-09  4.58821022e-01  4.58821022e-01  4.58821022e-01  3.46940184e-09  3.45431929e-09  4.58821022e-01  1.62379142e-07  1.16532792e-07  2.00000000e-01 
 2.10000000e-01  3.26725717e-09  4.58821063e-01  4.58821063e-01  4.58821063e-01  3.46940185e-09  3.45431924e-09  4.58821063e-01  1.62379211e-07  1.16532670e-07  2.10000000e-01 
 2.20000000e-01  3.26725722e-09  4.58821049e-01  4.58821050e-01  4.58821049e-01  3.46940185e-09  3.45431930e-09  4.58821049e-01  1.62379183e-07  1.16532460e-07  2.20000000e-01 
 2.30000000e-01  3.26725722e-09  4.58821038e-01  4.58821038e-01  4.58821038e-01  3.46940185e-09  3.45431930e-09  4.58821038e-01  1.62379168e-07  1.16532282e-07  2.30000000e-01 
 2.40000000e-01  3.26725717e-09  4.58821063e-01  4.58821063e-01  4.58821063e-01  3.46940185e-09  3.45431924e-09  4.58821063e-01  1.62379213e-07  1.16532220e-07  2.40000000e-01 
 2.50000000e-01  3.26725722e-09  4.58821042e-01  4.58821042e-01  4.58821042e-01  3.46940185e-09  3.45431924e-09  4.58821042e-01  1.62379190e-07  1.16532002e-07  2.50000000e-01 
 2.60000000e-01  3.26725722e-09  4.58821047e-01  4.58821047e-01  4.58821047e-01  3.46940185e-09  3.45431930e-09  4.58821047e-01  1.62379183e-07  1.16531858e-07  2.60000000e-01 
 2.70000000e-01  3.26725716e-09  4.58821048e-01  4.58821048e-01  4.58821048e-01  3.46940185e-09  3.45431924e-09  4.58821048e-01  1.62379192e-07  1.16531790e-07  2.70000000e-01 
 2.80000000e-01  3.26725716e-09  4.58821042e-01  4.58821043e-01  4.58821042e-01  3.46940185e-09  3.45431924e-09  4.58821042e-01  1.62379172e-07  1.16531652e-07  2.80000000e-01 
 2.90000000e-01  3.26725717e-09  4.58821057e-01  4.58821057e-01  4.58821057e-01  3.46940185e-09  3.45431924e-09  4.58821057e-01  1.62379214e-07  1.16531400e-07  2.90000000e-01 
 3.00000000e-01  3.26725722e-09  4.58821063e-01  4.58821064e-01  4.58821063e-01  3.46940185e-09  3.45431924e-09  4.58821063e-01  1.62379206e-07  1.16531339e-07  3.00000000e-01 
 3.10000000e-01  3.26725722e-09  4.58821030e-01  4.58821031e-01  4.58821030e-01  3.46940184e-09  3.45431929e-09  4.58821030e-01  1.62379164e-07  1.16531275e-07  3.10000000e-01 
 3.20000000e-01  3.26725722e-09  4.58821047e-01  4.58821047e-01  4.58821047e-01  3.46940185e-09  3.45431924e-09  4.58821047e-01  1.62379197e-07  1.16531158e-07  3.20000000e-01 
 3.30000000e-01  3.26725716e-09  4.58821043e-01  4.58821043e-01  4.58821043e-01  3.46940185e-09  3.45431930e-09  4.58821043e-01  1.62379186e-07  1.16531034e-07  3.30000000e-01 
 3.40000000e-01  3.26725717e-09  4.58821065e-01  4.58821065e-01  4.58821065e-01  3.46940185e-09  3.45431924e-09  4.58821065e-01  1.62379200e-07  1.16530895e-07  3.40000000e-01 
 3.50000000e-01  3.26725722e-09  4.58821041e-01  4.58821041e-01  4.58821040e-01  3.46940185e-09  3.45431930e-09  4.58821041e-01  1.62379158e-07  1.16530778e-07  3.50000000e-01 
 3.60000000e-01  3.26725722e-09  4.58821043e-01  4.58821043e-01  4.58821042e-01  3.46940185e-09  3.45431924e-09  4.58821043e-01  1.62379191e-07  1.16530583e-07  3.60000000e-01 
 3.70000000e-01  3.26725716e-09  4.58821046e-01  4.58821046e-01  4.58821046e-01  3.46940190e-09  3.45431924e-09  4.58821046e-01  1.62379189e-07  1.16530416e-07  3.70000000e-01 
 3.80000000e-01  3.26725717e-09  4.58821053e-01  4.58821053e-01  4.58821053e-01  3.46940185e-09  3.45431924e-09  4.58821053e-01  1.62379199e-07  1.16530533e-07  3.80000000e-01 
 3.90000000e-01  3.26725722e-09  4.58821049e-01  4.58821049e-01  4.58821049e-01  3.46940185e-09  3.45431924e-09  4.58821049e-01  1.62379180e-07  1.16530284e-07  3.90000000e-01 
 4.00000000e-01  3.26725722e-09  4.58821051e-01  4.58821051e-01  4.58821051e-01  3.46940185e-09  3.45431924e-09  4.58821051e-01  1.62379205e-07  1.16530209e-07  4.00000000e-01 
 4.10000000e-01  3.26725716e-09  4.58821043e-01  4.58821043e-01  4.58821043e-01  3.46940185e-09  3.45431924e-09  4.58821043e-01  1.62379179e-07  1.16530174e-07  4.10000000e-01 
 4.20000000e-01  3.26725717e-09  4.58821054e-01  4.58821054e-01  4.58821054e-01  3.46940185e-09  3.45431930e-09  4.58821054e-01  1.62379200e-07  1.16530092e-07  4.20000000e-01 
 4.30000000e-01  3.26725722e-09  4.58821039e-01  4.58821040e-01  4.58821039e-01  3.46940185e-09  3.45431930e-09  4.58821039e-01  1.62379177e-07  1.16529971e-07  4.30000000e-01 
 4.40000000e-01  3.26725716e-09  4.58821047e-01  4.58821047e-01  4.58821047e-01  3.46940185e-09  3.45431924e-09  4.58821047e-01  1.62379201e-07  1.16529900e-07  4.40000000e-01 
 4.50000000e-01  3.26725722e-09  4.58821039e-01  4.58821039e-01  4.58821039e-01  3.46940185e-09  3.45431930e-09  4.58821039e-01  1.62379176e-07  1.16529765e-07  4.50000000e-01 
 4.60000000e-01  3.26725716e-09  4.58821053e-01  4.58821053e-01  4.58821053e-01  3.46940185e-09  3.45431930e-09  4.58821053e-01  1.62379194e-07  1.16529815e-07  4.60000000e-01 
 4.70000000e-01  3.26725716e-09  4.58821041e-01  4.58821041e-01  4.58821041e-01  3.46940185e-09  3.45431930e-09  4.58821041e-01  1.62379163e-07  1.16529577e-07  4.70000000e-01 
 4.80000000e-01  3.26725716e-09  4.58821051e-01  4.58821051e-01  4.58821050e-01  3.46940185e-09  3.45431924e-09  4.58821051e-01  1.62379193e-07  1.16529598e-07  4.80000000e-01 
 4.90000000e-01  3.26725722e-09  4.58821047e-01  4.58821047e-01  4.58821047e-01  3.46940185e-09  3.45431924e-09  4.58821047e-01  1.62379185e-07  1.16529449e-07  4.90000000e-01 
 5.00000000e-01  3.26725722e-09  4.58821053e-01  4.58821053e-01  4.58821053e-01  3.46940185e-09  3.45431930e-09  4.58821053e-01  1.62379180e-07  1.16529375e-07  5.00000000e-01 
 5.10000000e-01  3.26725717e-09  4.58821059e-01  4.58821059e-01  4.58821059e-01  3.46940185e-09  3.45431930e-09  4.58821059e-01  1.62379203e-07  1.16529247e-07  5.10000000e-01 
 5.20000000e-01  3.26725717e-09  4.58821064e-01  4.58821064e-01  4.58821064e-01  3.46940185e-09  3.45431930e-09  4.58821064e-01  1.62379208e-07  1.16529289e-07  5.20000000e-01 
 5.30000000e-01  3.26725716e-09  4.58821048e-01  4.58821048e-01  4.58821048e-01  3.46940185e-09  3.45431930e-09  4.58821048e-01  1.62379182e-07  1.16529101e-07  5.30000000e-01 
 5.40000000e-01  3.26725722e-09  4.58821040e-01  4.58821040e-01  4.58821040e-01  3.46940185e-09  3.45431930e-09  4.58821040e-01  1.62379184e-07  1.16528987e-07  5.40000000e-01 
 5.50000000e-01  3.26725717e-09  4.58821060e-01  4.58821060e-01  4.58821060e-01  3.46940185e-09  3.45431930e-09  4.58821060e-01  1.62379200e-07  1.16528899e-07  5.50000000e-01 
 5.60000000e-01  3.26725717e-09  4.58821072e-01  4.58821072e-01  4.58821072e-01  3.46940185e-09  3.45431924e-09  4.58821072e-01  1.62379231e-07  1.16528916e-07  5.60000000e-01 
 5.70000000e-01  3.26725717e-09  4.58821066e-01  4.58821066e-01  4.58821066e-01  3.46940185e-09  3.45431924e-09  4.58821066e-01  1.62379209e-07  1.16528827e-07  5.70000000e-01 
 5.80000000e-01  3.26725716e-09  4.58821048e-01  4.58821048e-01  4.58821048e-01  3.46940185e-09  3.45431924e-09  4.58821048e-01  1.62379168e-07  1.16528732e-07  5.80000000e-01 
 5.90000000e-01  3.26725722e-09  4.58821041e-01  4.58821041e-01  4.58821040e-01  3.46940185e-09  3.45431924e-09  4.58821041e-01  1.62379199e-07  1.16528675e-07  5.90000000e-01 
 6.00000000e-01  3.26725716e-09  4.58821022e-01  4.58821022e-01  4.58821022e-01  3.46940184e-09  3.45431929e-09  4.58821022e-01  1.62379151e-07  1.16528426e-07  6.00000000e-01 
 6.10000000e-01  3.26725722e-09  4.58821043e-01  4.58821043e-01  4.58821043e-01  3.46940185e-09  3.45431924e-09  4.58821043e-01  1.62379181e-07  1.16528469e-07  6.10000000e-01 
 6.20000000e-01  3.26725722e-09  4.58821039e-01  4.58821039e-01  4.58821039e-01  3.46940185e-09  3.45431930e-09  4.58821039e-01  1.62379159e-07  1.16528284e-07  6.20000000e-01 
 6.30000000e-01  3.26725716e-09  4.58821049e-01  4.58821049e-01  4.58821049e-01  3.46940185e-09  3.45431930e-09  4.58821049e-01  1.62379188e-07  1.16528184e-07  6.30000000e-01 
 6.40000000e-01  3.26725716e-09  4.58821032e-01  4.58821032e-01  4.58821032e-01  3.46940190e-09  3.45431924e-09  4.58821032e-01  1.62379159e-07  1.16528142e-07  6.40000000e-01 
 6.50000000e-01  3.26725716e-09  4.58821048e-01  4.58821048e-01  4.58821048e-01  3.46940185e-09  3.45431930e-09  4.58821048e-01  1.62379189e-07  1.16527964e-07  6.50000000e-01 
 6.60000000e-01  3.26725717e-09  4.58821057e-01  4.58821057e-01  4.58821057e-01  3.46940185e-09  3.45431930e-09  4.58821057e-01  1.62379188e-07  1.16527964e-07  6.60000000e-01 
 6.70000000e-01  3.26725716e-09  4.58821042e-01  4.58821042e-01  4.58821042e-01  3.46940185e-09  3.45431924e-09  4.58821042e-01  1.62379183e-07  1.16528028e-07  6.70000000e-01 
 6.80000000e-01  3.26725717e-09  4.58821055e-01  4.58821055e-01  4.58821055e-01  3.46940185e-09  3.45431924e-09  4.58821055e-01  1.62379212e-07  1.16527872e-07  6.80000000e-01 
 6.90000000e-01  3.26725717e-09  4.58821058e-01  4.58821059e-01  4.58821058e-01  3.46940185e-09  3.45431924e-09  4.58821058e-01  1.62379184e-07  1.16527843e-07  6.90000000e-01 
 7.00000000e-01  3.26725716e-09  4.58821030e-01  4.58821030e-01  4.58821030e-01  3.46940184e-09  3.45431924e-09  4.58821030e-01  1.62379161e-07  1.16527751e-07  7.00000000e-01 
 7.10000000e-01  3.26725716e-09  4.58821046e-01  4.58821046e-01  4.58821046e-01  3.46940185e-09  3.45431924e-09  4.58821046e-01  1.62379187e-07  1.16527559e-07  7.10000000e-01 
 7.20000000e-01  3.26725716e-09  4.58821032e-01  4.58821032e-01  4.58821032e-01  3.46940185e-09  3.45431924e-09  4.58821032e-01  1.62379168e-07  1.16527623e-07  7.20000000e-01 
 7.30000000e-01  3.26725717e-09  4.58821057e-01  4.58821058e-01  4.58821057e-01  3.46940185e-09  3.45431930e-09  4.58821057e-01  1.62379201e-07  1.16527545e-07  7.30000000e-01 
 7.40000000e-01  3.26725722e-09  4.58821058e-01  4.58821058e-01  4.58821058e-01  3.46940185e-09  3.45431930e-09  4.58821058e-01  1.62379200e-07  1.16527410e-07  7.40000000e-01 
 7.50000000e-01  3.26725716e-09  4.58821038e-01  4.58821038e-01  4.58821038e-01  3.46940185e-09  3.45431930e-09  4.58821038e-01  1.62379174e-07  1.16527190e-07  7.50000000e-01 
 7.60000000e-01  3.26725716e-09  4.58821049e-01  4.58821049e-01  4.58821049e-01  3.46940185e-09  3.45431930e-09  4.58821049e-01  1.62379185e-07  1.16527275e-07  7.60000000e-01 
 7.70000000e-01  3.26725722e-09  4.58821049e-01  4.58821049e-01  4.58821049e-01  3.46940185e-09  3.45431924e-09  4.58821049e-01  1.62379181e-07  1.16527055e-07  7.70000000e-01 
 7.80000000e-01  3.26725722e-09  4.58821064e-01  4.58821064e-01  4.58821064e-01  3.46940185e-09  3.45431930e-09  4.58821064e-01  1.62379218e-07  1.16527133e-07  7.80000000e-01 
 7.90000000e-01  3.26725717e-09  4.58821067e-01  4.58821067e-01  4.58821067e-01  3.46940185e-09  3.45431924e-09  4.58821067e-01  1.62379205e-07  1.16527097e-07  7.90000000e-01 
 8.00000000e-01  3.26725716e-09  4.58821043e-01  4.58821043e-01  4.58821043e-01  3.46940185e-09  3.45431924e-09  4.58821043e-01  1.62379172e-07  1.16526863e-07  8.00000000e-01 
 8.10000000e-01  3.26725716e-09  4.58821045e-01  4.58821045e-01  4.58821045e-01  3.46940185e-09  3.45431924e-09  4.58821045e-01  1.62379178e-07  1.16526735e-07  8.10000000e-01 
 8.20000000e-01  3.26725716e-09  4.58821033e-01  4.58821033e-01  4.58821033e-01  3.46940185e-09  3.45431924e-09  4.58821033e-01  1.62379177e-07  1.16526763e-07  8.20000000e-01 
 8.30000000e-01  3.26725717e-09  4.58821057e-01  4.58821058e-01  4.58821057e-01  3.46940185e-09  3.45431930e-09  4.58821057e-01  1.62379209e-07  1.16526692e-07  8.30000000e-01 
 8.40000000e-01  3.26725717e-09  4.58821072e-01  4.58821073e-01  4.58821072e-01  3.46940185e-09  3.45431930e-09  4.58821072e-01  1.62379220e-07  1.16526735e-07  8.40000000e-01 
 8.50000000e-01  3.26725722e-09  4.58821052e-01  4.58821052e-01  4.58821052e-01  3.46940185e-09  3.45431930e-09  4.58821052e-01  1.62379186e-07  1.16526472e-07  8.50000000e-01 
 8.60000000e-01  3.26725716e-09  4.58821043e-01  4.58821043e-01  4.58821043e-01  3.46940185e-09  3.45431930e-09  4.58821043e-01  1.62379182e-07  1.16526323e-07  8.60000000e-01 
 8.70000000e-01  3.26725717e-09  4.58821070e-01  4.58821070e-01  4.58821069e-01  3.46940185e-09  3.45431924e-09  4.58821070e-01  1.62379223e-07  1.16526323e-07  8.70000000e-01 
 8.80000000e-01  3.26725722e-09  4.58821050e-01  4.58821050e-01  4.58821050e-01  3.46940185e-09  3.45431924e-09  4.58821050e-01  1.62379190e-07  1.16526166e-07  8.80000000e-01 
 8.90000000e-01  3.26725722e-09  4.58821044e-01  4.58821044e-01  4.58821043e-01  3.46940190e-09  3.45431930e-09  4.58821044e-01  1.62379193e-07  1.16526074e-07  8.90000000e-01 
 9.00000000e-01  3.26725722e-09  4.58821030e-01  4.58821030e-01  4.58821030e-01  3.46940184e-09  3.45431924e-09  4.58821030e-01  1.62379162e-07  1.16525996e-07  9.00000000e-01 
 9.10000000e-01  3.26725722e-09  4.58821060e-01  4.58821061e-01  4.58821060e-01  3.46940185e-09  3.45431924e-09  4.58821060e-01  1.62379203e-07  1.16525960e-07  9.10000000e-01 
 9.20000000e-01  3.26725717e-09  4.58821073e-01  4.58821073e-01  4.58821073e-01  3.46940185e-09  3.45431930e-09  4.58821073e-01  1.62379216e-07  1.16526039e-07  9.20000000e-01 
 9.30000000e-01  3.26725717e-09  4.58821054e-01  4.58821054e-01  4.58821054e-01  3.46940190e-09  3.45431924e-09  4.58821054e-01  1.62379182e-07  1.16525818e-07  9.30000000e-01 
 9.40000000e-01  3.26725722e-09  4.58821037e-01  4.58821037e-01  4.58821037e-01  3.46940185e-09  3.45431930e-09  4.58821037e-01  1.62379172e-07  1.16525698e-07  9.40000000e-01 
 9.50000000e-01  3.26725722e-09  4.58821034e-01  4.58821034e-01  4.58821034e-01  3.46940190e-09  3.45431929e-09  4.58821034e-01  1.62379167e-07  1.16525598e-07  9.50000000e-01 
 9.60000000e-01  3.26725716e-09  4.58821036e-01  4.58821036e-01  4.58821036e-01  3.46940185e-09  3.45431930e-09  4.58821036e-01  1.62379168e-07  1.16525499e-07  9.60000000e-01 
 9.70000000e-01  3.26725722e-09  4.58821063e-01  4.58821063e-01  4.58821063e-01  3.46940185e-09  3.45431924e-09  4.58821063e-01  1.62379210e-07  1.16525420e-07  9.70000000e-01 
 9.80000000e-01  3.26725722e-09  4.58821060e-01  4.58821060e-01  4.58821060e-01  3.46940185e-09  3.45431924e-09  4.58821060e-01  1.62379202e-07  1.16525413e-07  9.80000000e-01 
 9.90000000e-01  3.26725722e-09  4.58821047e-01  4.58821047e-01  4.58821047e-01  3.46940185e-09  3.45431924e-09  4.58821047e-01  1.62379192e-07  1.16525136e-07  9.90000000e-01 
 1.00000000e+00  3.26725716e-09  4.58821040e-01  4.58821040e-01  4.58821040e-01  3.46940185e-09  3.45431924e-09  4.58821040e-01  1.62379180e-07  1.16525108e-07  1.00000000e+00 
 1.01000000e+00  3.26725722e-09  4.58821058e-01  4.58821058e-01  4.58821058e-01  3.46940190e-09  3.45431930e-09  4.58821058e-01  1.62379209e-07  1.16525072e-07  1.01000000e+00 
 1.02000000e+00  3.26725722e-09  4.58821045e-01  4.58821045e-01  4.58821045e-01  3.46940185e-09  3.45431930e-09  4.58821045e-01  1.62379187e-07  1.16524951e-07  1.02000000e+00 
 1.03000000e+00  3.26725722e-09  4.58821065e-01  4.58821065e-01  4.58821065e-01  3.46940185e-09  3.45431930e-09  4.58821065e-01  1.62379213e-07  1.16524987e-07  1.03000000e+00 
 1.04000000e+00  3.26725722e-09  4.58821048e-01  4.58821049e-01  4.58821048e-01  3.46940185e-09  3.45431930e-09  4.58821049e-01  1.62379176e-07  1.16524802e-07  1.04000000e+00 
 1.05000000e+00  3.26725722e-09  4.58821028e-01  4.58821028e-01  4.58821028e-01  3.46940184e-09  3.45431929e-09  4.58821028e-01  1.62379168e-07  1.16524689e-07  1.05000000e+00 
 1.06000000e+00  3.26725716e-09  4.58821037e-01  4.58821037e-01  4.58821037e-01  3.46940185e-09  3.45431924e-09  4.58821037e-01  1.62379163e-07  1.16524568e-07  1.06000000e+00 
 1.07000000e+00  3.26725722e-09  4.58821044e-01  4.58821044e-01  4.58821044e-01  3.46940185e-09  3.45431930e-09  4.58821044e-01  1.62379185e-07  1.16524518e-07  1.07000000e+00 
 1.08000000e+00  3.26725716e-09  4.58821036e-01  4.58821036e-01  4.58821036e-01  3.46940185e-09  3.45431930e-09  4.58821036e-01  1.62379177e-07  1.16524312e-07  1.08000000e+00 
 1.09000000e+00  3.26725722e-09  4.58821066e-01  4.58821066e-01  4.58821066e-01  3.46940185e-09  3.45431924e-09  4.58821066e-01  1.62379218e-07  1.16524355e-07  1.09000000e+00 
 1.10000000e+00  3.26725716e-09  4.58821050e-01  4.58821050e-01  4.58821050e-01  3.46940185e-09  3.45431924e-09  4.58821050e-01  1.62379192e-07  1.16524184e-07  1.10000000e+00 
