 v-sweep         v(b0)           v(b1)           v(b2)           v(b3)           v(b4)           v(b5)           v(b6)           i(vbias)        i(viout)        v(vout)        
 0.00000000e+00  3.27092286e-09  3.65542265e-09  3.69369739e-09  3.32766769e-09  3.25626827e-09  4.57664535e-01  4.57664535e-01  1.58880438e-07  1.44183865e-07  0.00000000e+00 
 1.00000000e-02  3.27092283e-09  3.65542262e-09  3.69369737e-09  3.32766766e-09  3.25626830e-09  4.57664544e-01  4.57664544e-01  1.58880455e-07  1.44183409e-07  1.00000000e-02 
 2.00000000e-02  3.27092289e-09  3.65542262e-09  3.69369737e-09  3.32766766e-09  3.25626830e-09  4.57664531e-01  4.57664531e-01  1.58880437e-07  1.44182899e-07  2.00000000e-02 
 3.00000000e-02  3.27092289e-09  3.65542262e-09  3.69369737e-09  3.32766766e-09  3.25626830e-09  4.57664539e-01  4.57664539e-01  1.58880441e-07  1.44182551e-07  3.00000000e-02 
 4.00000000e-02  3.27092289e-09  3.65542262e-09  3.69369737e-09  3.32766765e-09  3.25626830e-09  4.57664522e-01  4.57664522e-01  1.58880421e-07  1.44182064e-07  4.00000000e-02 
 5.00000000e-02  3.27092289e-09  3.65542262e-09  3.69369737e-09  3.32766766e-09  3.25626830e-09  4.57664528e-01  4.57664527e-01  1.58880420e-07  1.44181743e-07  5.00000000e-02 
 6.00000000e-02  3.27092289e-09  3.65542263e-09  3.69369743e-09  3.32766766e-09  3.25626830e-09  4.57664546e-01  4.57664546e-01  1.58880459e-07  1.44181542e-07  6.00000000e-02 
 7.00000000e-02  3.27092289e-09  3.65542263e-09  3.69369736e-09  3.32766766e-09  3.25626830e-09  4.57664548e-01  4.57664548e-01  1.58880464e-07  1.44181227e-07  7.00000000e-02 
 8.00000000e-02  3.27092289e-09  3.65542263e-09  3.69369738e-09  3.32766766e-09  3.25626830e-09  4.57664556e-01  4.57664556e-01  1.58880475e-07  1.44180877e-07  8.00000000e-02 
 9.00000000e-02  3.27092289e-09  3.65542262e-09  3.69369737e-09  3.32766766e-09  3.25626830e-09  4.57664543e-01  4.57664543e-01  1.58880454e-07  1.44180633e-07  9.00000000e-02 
 1.00000000e-01  3.27092289e-09  3.65542262e-09  3.69369737e-09  3.32766766e-09  3.25626830e-09  4.57664533e-01  4.57664533e-01  1.58880433e-07  1.44180241e-07  1.00000000e-01 
 1.10000000e-01  3.27092289e-09  3.65542262e-09  3.69369737e-09  3.32766766e-09  3.25626830e-09  4.57664537e-01  4.57664537e-01  1.58880441e-07  1.44179931e-07  1.10000000e-01 
 1.20000000e-01  3.27092289e-09  3.65542262e-09  3.69369737e-09  3.32766766e-09  3.25626830e-09  4.57664545e-01  4.57664545e-01  1.58880462e-07  1.44179792e-07  1.20000000e-01 
 1.30000000e-01  3.27092289e-09  3.65542262e-09  3.69369737e-09  3.32766766e-09  3.25626830e-09  4.57664530e-01  4.57664530e-01  1.58880429e-07  1.44179413e-07  1.30000000e-01 
 1.40000000e-01  3.27092289e-09  3.65542262e-09  3.69369737e-09  3.32766766e-09  3.25626830e-09  4.57664528e-01  4.57664528e-01  1.58880434e-07  1.44179120e-07  1.40000000e-01 
 1.50000000e-01  3.27092289e-09  3.65542262e-09  3.69369737e-09  3.32766766e-09  3.25626830e-09  4.57664530e-01  4.57664530e-01  1.58880427e-07  1.44178902e-07  1.50000000e-01 
 1.60000000e-01  3.27092289e-09  3.65542263e-09  3.69369737e-09  3.32766766e-09  3.25626830e-09  4.57664549e-01  4.57664549e-01  1.58880447e-07  1.44178665e-07  1.60000000e-01 
 1.70000000e-01  3.27092289e-09  3.65542262e-09  3.69369737e-09  3.32766766e-09  3.25626830e-09  4.57664527e-01  4.57664527e-01  1.58880431e-07  1.44178420e-07  1.70000000e-01 
 1.80000000e-01  3.27092289e-09  3.65542262e-09  3.69369737e-09  3.32766765e-09  3.25626830e-09  4.57664522e-01  4.57664522e-01  1.58880420e-07  1.44178227e-07  1.80000000e-01 
 1.90000000e-01  3.27092289e-09  3.65542262e-09  3.69369742e-09  3.32766765e-09  3.25626830e-09  4.57664520e-01  4.57664520e-01  1.58880423e-07  1.44177930e-07  1.90000000e-01 
 2.00000000e-01  3.27092289e-09  3.65542262e-09  3.69369741e-09  3.32766765e-09  3.25626830e-09  4.57664517e-01  4.57664517e-01  1.58880409e-07  1.44177825e-07  2.00000000e-01 
 2.10000000e-01  3.27092289e-09  3.65542262e-09  3.69369736e-09  3.32766765e-09  3.25626830e-09  4.57664510e-01  4.57664509e-01  1.58880391e-07  1.44177532e-07  2.10000000e-01 
 2.20000000e-01  3.27092289e-09  3.65542262e-09  3.69369738e-09  3.32766766e-09  3.25626830e-09  4.57664536e-01  4.57664536e-01  1.58880433e-07  1.44177529e-07  2.20000000e-01 
 2.30000000e-01  3.27092289e-09  3.65542262e-09  3.69369737e-09  3.32766766e-09  3.25626830e-09  4.57664529e-01  4.57664529e-01  1.58880432e-07  1.44177250e-07  2.30000000e-01 
 2.40000000e-01  3.27092289e-09  3.65542262e-09  3.69369737e-09  3.32766766e-09  3.25626830e-09  4.57664525e-01  4.57664525e-01  1.58880425e-07  1.44177038e-07  2.40000000e-01 
 2.50000000e-01  3.27092289e-09  3.65542262e-09  3.69369737e-09  3.32766766e-09  3.25626830e-09  4.57664541e-01  4.57664541e-01  1.58880455e-07  1.44176958e-07  2.50000000e-01 
 2.60000000e-01  3.27092289e-09  3.65542262e-09  3.69369737e-09  3.32766765e-09  3.25626830e-09  4.57664519e-01  4.57664519e-01  1.58880410e-07  1.44176731e-07  2.60000000e-01 
 2.70000000e-01  3.27092289e-09  3.65542262e-09  3.69369737e-09  3.32766765e-09  3.25626830e-09  4.57664520e-01  4.57664520e-01  1.58880407e-07  1.44176475e-07  2.70000000e-01 
 2.80000000e-01  3.27092289e-09  3.65542262e-09  3.69369737e-09  3.32766766e-09  3.25626830e-09  4.57664532e-01  4.57664532e-01  1.58880438e-07  1.44176452e-07  2.80000000e-01 
 2.90000000e-01  3.27092283e-09  3.65542262e-09  3.69369737e-09  3.32766765e-09  3.25626830e-09  4.57664521e-01  4.57664521e-01  1.58880412e-07  1.44176173e-07  2.90000000e-01 
 3.00000000e-01  3.27092289e-09  3.65542262e-09  3.69369743e-09  3.32766766e-09  3.25626830e-09  4.57664542e-01  4.57664542e-01  1.58880441e-07  1.44176315e-07  3.00000000e-01 
 3.10000000e-01  3.27092289e-09  3.65542263e-09  3.69369736e-09  3.32766766e-09  3.25626830e-09  4.57664559e-01  4.57664559e-01  1.58880472e-07  1.44176180e-07  3.10000000e-01 
 3.20000000e-01  3.27092289e-09  3.65542262e-09  3.69369738e-09  3.32766771e-09  3.25626830e-09  4.57664538e-01  4.57664538e-01  1.58880446e-07  1.44175893e-07  3.20000000e-01 
 3.30000000e-01  3.27092289e-09  3.65542262e-09  3.69369737e-09  3.32766766e-09  3.25626830e-09  4.57664535e-01  4.57664535e-01  1.58880431e-07  1.44175864e-07  3.30000000e-01 
 3.40000000e-01  3.27092289e-09  3.65542263e-09  3.69369737e-09  3.32766766e-09  3.25626830e-09  4.57664553e-01  4.57664553e-01  1.58880466e-07  1.44175676e-07  3.40000000e-01 
 3.50000000e-01  3.27092283e-09  3.65542262e-09  3.69369737e-09  3.32766766e-09  3.25626830e-09  4.57664525e-01  4.57664525e-01  1.58880425e-07  1.44175484e-07  3.50000000e-01 
 3.60000000e-01  3.27092289e-09  3.65542262e-09  3.69369737e-09  3.32766766e-09  3.25626830e-09  4.57664533e-01  4.57664533e-01  1.58880432e-07  1.44175409e-07  3.60000000e-01 
 3.70000000e-01  3.27092289e-09  3.65542262e-09  3.69369737e-09  3.32766766e-09  3.25626830e-09  4.57664536e-01  4.57664536e-01  1.58880439e-07  1.44175353e-07  3.70000000e-01 
 3.80000000e-01  3.27092289e-09  3.65542262e-09  3.69369737e-09  3.32766766e-09  3.25626830e-09  4.57664535e-01  4.57664535e-01  1.58880438e-07  1.44175154e-07  3.80000000e-01 
 3.90000000e-01  3.27092289e-09  3.65542263e-09  3.69369737e-09  3.32766772e-09  3.25626830e-09  4.57664549e-01  4.57664549e-01  1.58880465e-07  1.44175097e-07  3.90000000e-01 
 4.00000000e-01  3.27092289e-09  3.65542262e-09  3.69369737e-09  3.32766771e-09  3.25626830e-09  4.57664542e-01  4.57664541e-01  1.58880459e-07  1.44174905e-07  4.00000000e-01 
 4.10000000e-01  3.27092289e-09  3.65542263e-09  3.69369737e-09  3.32766766e-09  3.25626830e-09  4.57664549e-01  4.57664549e-01  1.58880466e-07  1.44174926e-07  4.10000000e-01 
 4.20000000e-01  3.27092289e-09  3.65542262e-09  3.69369737e-09  3.32766766e-09  3.25626830e-09  4.57664528e-01  4.57664528e-01  1.58880442e-07  1.44174699e-07  4.20000000e-01 
 4.30000000e-01  3.27092289e-09  3.65542262e-09  3.69369737e-09  3.32766766e-09  3.25626830e-09  4.57664533e-01  4.57664533e-01  1.58880434e-07  1.44174578e-07  4.30000000e-01 
 4.40000000e-01  3.27092289e-09  3.65542262e-09  3.69369737e-09  3.32766766e-09  3.25626830e-09  4.57664527e-01  4.57664527e-01  1.58880425e-07  1.44174571e-07  4.40000000e-01 
 4.50000000e-01  3.27092289e-09  3.65542262e-09  3.69369737e-09  3.32766766e-09  3.25626830e-09  4.57664538e-01  4.57664538e-01  1.58880442e-07  1.44174436e-07  4.50000000e-01 
 4.60000000e-01  3.27092283e-09  3.65542262e-09  3.69369737e-09  3.32766766e-09  3.25626830e-09  4.57664531e-01  4.57664531e-01  1.58880438e-07  1.44174333e-07  4.60000000e-01 
 4.70000000e-01  3.27092289e-09  3.65542262e-09  3.69369737e-09  3.32766766e-09  3.25626830e-09  4.57664543e-01  4.57664543e-01  1.58880450e-07  1.44174276e-07  4.70000000e-01 
 4.80000000e-01  3.27092289e-09  3.65542263e-09  3.69369737e-09  3.32766766e-09  3.25626830e-09  4.57664548e-01  4.57664548e-01  1.58880449e-07  1.44174173e-07  4.80000000e-01 
 4.90000000e-01  3.27092283e-09  3.65542262e-09  3.69369737e-09  3.32766765e-09  3.25626830e-09  4.57664518e-01  4.57664518e-01  1.58880414e-07  1.44173935e-07  4.90000000e-01 
 5.00000000e-01  3.27092283e-09  3.65542262e-09  3.69369737e-09  3.32766765e-09  3.25626830e-09  4.57664518e-01  4.57664518e-01  1.58880404e-07  1.44173843e-07  5.00000000e-01 
 5.10000000e-01  3.27092283e-09  3.65542262e-09  3.69369737e-09  3.32766765e-09  3.25626830e-09  4.57664516e-01  4.57664516e-01  1.58880415e-07  1.44173679e-07  5.10000000e-01 
 5.20000000e-01  3.27092289e-09  3.65542262e-09  3.69369737e-09  3.32766766e-09  3.25626830e-09  4.57664526e-01  4.57664526e-01  1.58880426e-07  1.44173743e-07  5.20000000e-01 
 5.30000000e-01  3.27092289e-09  3.65542262e-09  3.69369737e-09  3.32766766e-09  3.25626830e-09  4.57664526e-01  4.57664526e-01  1.58880422e-07  1.44173594e-07  5.30000000e-01 
 5.40000000e-01  3.27092289e-09  3.65542262e-09  3.69369737e-09  3.32766766e-09  3.25626830e-09  4.57664531e-01  4.57664531e-01  1.58880434e-07  1.44173562e-07  5.40000000e-01 
 5.50000000e-01  3.27092289e-09  3.65542262e-09  3.69369737e-09  3.32766765e-09  3.25626830e-09  4.57664518e-01  4.57664518e-01  1.58880409e-07  1.44173320e-07  5.50000000e-01 
 5.60000000e-01  3.27092283e-09  3.65542262e-09  3.69369737e-09  3.32766766e-09  3.25626830e-09  4.57664533e-01  4.57664533e-01  1.58880427e-07  1.44173260e-07  5.60000000e-01 
 5.70000000e-01  3.27092289e-09  3.65542262e-09  3.69369737e-09  3.32766765e-09  3.25626830e-09  4.57664518e-01  4.57664518e-01  1.58880422e-07  1.44173168e-07  5.70000000e-01 
 5.80000000e-01  3.27092289e-09  3.65542262e-09  3.69369737e-09  3.32766765e-09  3.25626830e-09  4.57664518e-01  4.57664518e-01  1.58880413e-07  1.44173036e-07  5.80000000e-01 
 5.90000000e-01  3.27092289e-09  3.65542262e-09  3.69369737e-09  3.32766765e-09  3.25626830e-09  4.57664523e-01  4.57664523e-01  1.58880421e-07  1.44172887e-07  5.90000000e-01 
 6.00000000e-01  3.27092289e-09  3.65542263e-09  3.69369737e-09  3.32766766e-09  3.25626830e-09  4.57664547e-01  4.57664547e-01  1.58880467e-07  1.44172880e-07  6.00000000e-01 
 6.10000000e-01  3.27092289e-09  3.65542262e-09  3.69369737e-09  3.32766766e-09  3.25626830e-09  4.57664545e-01  4.57664545e-01  1.58880451e-07  1.44172837e-07  6.10000000e-01 
 6.20000000e-01  3.27092289e-09  3.65542262e-09  3.69369737e-09  3.32766766e-09  3.25626830e-09  4.57664536e-01  4.57664535e-01  1.58880448e-07  1.44172731e-07  6.20000000e-01 
 6.30000000e-01  3.27092289e-09  3.65542263e-09  3.69369737e-09  3.32766766e-09  3.25626830e-09  4.57664546e-01  4.57664546e-01  1.58880455e-07  1.44172560e-07  6.30000000e-01 
 6.40000000e-01  3.27092283e-09  3.65542262e-09  3.69369737e-09  3.32766766e-09  3.25626830e-09  4.57664540e-01  4.57664540e-01  1.58880440e-07  1.44172560e-07  6.40000000e-01 
 6.50000000e-01  3.27092289e-09  3.65542262e-09  3.69369737e-09  3.32766766e-09  3.25626830e-09  4.57664544e-01  4.57664544e-01  1.58880451e-07  1.44172503e-07  6.50000000e-01 
 6.60000000e-01  3.27092289e-09  3.65542262e-09  3.69369737e-09  3.32766766e-09  3.25626830e-09  4.57664541e-01  4.57664541e-01  1.58880444e-07  1.44172340e-07  6.60000000e-01 
 6.70000000e-01  3.27092283e-09  3.65542263e-09  3.69369737e-09  3.32766766e-09  3.25626830e-09  4.57664558e-01  4.57664558e-01  1.58880469e-07  1.44172276e-07  6.70000000e-01 
 6.80000000e-01  3.27092289e-09  3.65542262e-09  3.69369737e-09  3.32766766e-09  3.25626830e-09  4.57664531e-01  4.57664531e-01  1.58880428e-07  1.44172169e-07  6.80000000e-01 
 6.90000000e-01  3.27092289e-09  3.65542263e-09  3.69369737e-09  3.32766766e-09  3.25626830e-09  4.57664547e-01  4.57664547e-01  1.58880445e-07  1.44172148e-07  6.90000000e-01 
 7.00000000e-01  3.27092289e-09  3.65542262e-09  3.69369737e-09  3.32766766e-09  3.25626830e-09  4.57664527e-01  4.57664527e-01  1.58880425e-07  1.44171942e-07  7.00000000e-01 
 7.10000000e-01  3.27092289e-09  3.65542262e-09  3.69369737e-09  3.32766766e-09  3.25626830e-09  4.57664537e-01  4.57664537e-01  1.58880443e-07  1.44171786e-07  7.10000000e-01 
 7.20000000e-01  3.27092289e-09  3.65542263e-09  3.69369737e-09  3.32766766e-09  3.25626830e-09  4.57664548e-01  4.57664548e-01  1.58880455e-07  1.44171871e-07  7.20000000e-01 
 7.30000000e-01  3.27092283e-09  3.65542263e-09  3.69369737e-09  3.32766766e-09  3.25626830e-09  4.57664556e-01  4.57664556e-01  1.58880462e-07  1.44171700e-07  7.30000000e-01 
 7.40000000e-01  3.27092289e-09  3.65542263e-09  3.69369737e-09  3.32766766e-09  3.25626830e-09  4.57664550e-01  4.57664550e-01  1.58880464e-07  1.44171615e-07  7.40000000e-01 
 7.50000000e-01  3.27092289e-09  3.65542262e-09  3.69369737e-09  3.32766766e-09  3.25626830e-09  4.57664543e-01  4.57664542e-01  1.58880446e-07  1.44171501e-07  7.50000000e-01 
 7.60000000e-01  3.27092283e-09  3.65542262e-09  3.69369737e-09  3.32766766e-09  3.25626830e-09  4.57664536e-01  4.57664536e-01  1.58880443e-07  1.44171381e-07  7.60000000e-01 
 7.70000000e-01  3.27092289e-09  3.65542263e-09  3.69369737e-09  3.32766766e-09  3.25626830e-09  4.57664556e-01  4.57664556e-01  1.58880481e-07  1.44171374e-07  7.70000000e-01 
 7.80000000e-01  3.27092283e-09  3.65542262e-09  3.69369737e-09  3.32766771e-09  3.25626830e-09  4.57664537e-01  4.57664537e-01  1.58880444e-07  1.44171125e-07  7.80000000e-01 
 7.90000000e-01  3.27092289e-09  3.65542262e-09  3.69369737e-09  3.32766766e-09  3.25626830e-09  4.57664535e-01  4.57664535e-01  1.58880441e-07  1.44171111e-07  7.90000000e-01 
 8.00000000e-01  3.27092289e-09  3.65542262e-09  3.69369737e-09  3.32766766e-09  3.25626830e-09  4.57664537e-01  4.57664537e-01  1.58880430e-07  1.44171025e-07  8.00000000e-01 
 8.10000000e-01  3.27092289e-09  3.65542262e-09  3.69369737e-09  3.32766766e-09  3.25626830e-09  4.57664544e-01  4.57664544e-01  1.58880453e-07  1.44170798e-07  8.10000000e-01 
 8.20000000e-01  3.27092289e-09  3.65542262e-09  3.69369737e-09  3.32766766e-09  3.25626830e-09  4.57664542e-01  4.57664542e-01  1.58880450e-07  1.44170698e-07  8.20000000e-01 
 8.30000000e-01  3.27092289e-09  3.65542262e-09  3.69369736e-09  3.32766765e-09  3.25626830e-09  4.57664512e-01  4.57664512e-01  1.58880406e-07  1.44170635e-07  8.30000000e-01 
 8.40000000e-01  3.27092289e-09  3.65542262e-09  3.69369737e-09  3.32766766e-09  3.25626830e-09  4.57664542e-01  4.57664542e-01  1.58880445e-07  1.44170521e-07  8.40000000e-01 
 8.50000000e-01  3.27092289e-09  3.65542263e-09  3.69369737e-09  3.32766766e-09  3.25626830e-09  4.57664553e-01  4.57664553e-01  1.58880476e-07  1.44170514e-07  8.50000000e-01 
 8.60000000e-01  3.27092289e-09  3.65542262e-09  3.69369737e-09  3.32766766e-09  3.25626830e-09  4.57664534e-01  4.57664534e-01  1.58880434e-07  1.44170265e-07  8.60000000e-01 
 8.70000000e-01  3.27092289e-09  3.65542262e-09  3.69369737e-09  3.32766765e-09  3.25626830e-09  4.57664518e-01  4.57664518e-01  1.58880415e-07  1.44170073e-07  8.70000000e-01 
 8.80000000e-01  3.27092289e-09  3.65542262e-09  3.69369737e-09  3.32766766e-09  3.25626830e-09  4.57664531e-01  4.57664531e-01  1.58880439e-07  1.44170038e-07  8.80000000e-01 
 8.90000000e-01  3.27092289e-09  3.65542262e-09  3.69369737e-09  3.32766766e-09  3.25626830e-09  4.57664525e-01  4.57664525e-01  1.58880419e-07  1.44170016e-07  8.90000000e-01 
 9.00000000e-01  3.27092289e-09  3.65542262e-09  3.69369736e-09  3.32766765e-09  3.25626830e-09  4.57664510e-01  4.57664510e-01  1.58880400e-07  1.44169775e-07  9.00000000e-01 
 9.10000000e-01  3.27092289e-09  3.65542263e-09  3.69369737e-09  3.32766766e-09  3.25626830e-09  4.57664548e-01  4.57664548e-01  1.58880450e-07  1.44169803e-07  9.10000000e-01 
 9.20000000e-01  3.27092289e-09  3.65542262e-09  3.69369737e-09  3.32766766e-09  3.25626830e-09  4.57664542e-01  4.57664542e-01  1.58880447e-07  1.44169711e-07  9.20000000e-01 
 9.30000000e-01  3.27092289e-09  3.65542262e-09  3.69369737e-09  3.32766766e-09  3.25626830e-09  4.57664539e-01  4.57664538e-01  1.58880443e-07  1.44169512e-07  9.30000000e-01 
 9.40000000e-01  3.27092289e-09  3.65542262e-09  3.69369737e-09  3.32766766e-09  3.25626830e-09  4.57664544e-01  4.57664544e-01  1.58880442e-07  1.44169455e-07  9.40000000e-01 
 9.50000000e-01  3.27092289e-09  3.65542263e-09  3.69369737e-09  3.32766766e-09  3.25626830e-09  4.57664548e-01  4.57664548e-01  1.58880465e-07  1.44169398e-07  9.50000000e-01 
 9.60000000e-01  3.27092289e-09  3.65542262e-09  3.69369737e-09  3.32766766e-09  3.25626830e-09  4.57664529e-01  4.57664529e-01  1.58880435e-07  1.44169292e-07  9.60000000e-01 
 9.70000000e-01  3.27092289e-09  3.65542262e-09  3.69369737e-09  3.32766771e-09  3.25626830e-09  4.57664534e-01  4.57664533e-01  1.58880424e-07  1.44169142e-07  9.70000000e-01 
 9.80000000e-01  3.27092289e-09  3.65542262e-09  3.69369737e-09  3.32766766e-09  3.25626830e-09  4.57664532e-01  4.57664532e-01  1.58880431e-07  1.44169007e-07  9.80000000e-01 
 9.90000000e-01  3.27092289e-09  3.65542263e-09  3.69369737e-09  3.32766771e-09  3.25626830e-09  4.57664546e-01  4.57664546e-01  1.58880452e-07  1.44168894e-07  9.90000000e-01 
 1.00000000e+00  3.27092283e-09  3.65542263e-09  3.69369737e-09  3.32766766e-09  3.25626830e-09  4.57664547e-01  4.57664547e-01  1.58880457e-07  1.44168730e-07  1.00000000e+00 
 1.01000000e+00  3.27092289e-09  3.65542263e-09  3.69369737e-09  3.32766766e-09  3.25626830e-09  4.57664545e-01  4.57664545e-01  1.58880460e-07  1.44168723e-07  1.01000000e+00 
 1.02000000e+00  3.27092289e-09  3.65542262e-09  3.69369737e-09  3.32766766e-09  3.25626830e-09  4.57664531e-01  4.57664531e-01  1.58880427e-07  1.44168510e-07  1.02000000e+00 
 1.03000000e+00  3.27092283e-09  3.65542263e-09  3.69369737e-09  3.32766766e-09  3.25626830e-09  4.57664546e-01  4.57664545e-01  1.58880445e-07  1.44168446e-07  1.03000000e+00 
 1.04000000e+00  3.27092283e-09  3.65542263e-09  3.69369737e-09  3.32766766e-09  3.25626830e-09  4.57664550e-01  4.57664550e-01  1.58880463e-07  1.44168347e-07  1.04000000e+00 
 1.05000000e+00  3.27092289e-09  3.65542262e-09  3.69369737e-09  3.32766766e-09  3.25626830e-09  4.57664529e-01  4.57664529e-01  1.58880439e-07  1.44168119e-07  1.05000000e+00 
 1.06000000e+00  3.27092289e-09  3.65542262e-09  3.69369737e-09  3.32766766e-09  3.25626830e-09  4.57664542e-01  4.57664542e-01  1.58880439e-07  1.44168133e-07  1.06000000e+00 
 1.07000000e+00  3.27092289e-09  3.65542263e-09  3.69369737e-09  3.32766766e-09  3.25626830e-09  4.57664547e-01  4.57664547e-01  1.58880459e-07  1.44168006e-07  1.07000000e+00 
 1.08000000e+00  3.27092283e-09  3.65542262e-09  3.69369737e-09  3.32766766e-09  3.25626830e-09  4.57664530e-01  4.57664530e-01  1.58880428e-07  1.44167778e-07  1.08000000e+00 
 1.09000000e+00  3.27092289e-09  3.65542262e-09  3.69369737e-09  3.32766766e-09  3.25626830e-09  4.57664536e-01  4.57664536e-01  1.58880425e-07  1.44167679e-07  1.09000000e+00 
 1.10000000e+00  3.27092289e-09  3.65542262e-09  3.69369737e-09  3.32766766e-09  3.25626830e-09  4.57664534e-01  4.57664534e-01  1.58880428e-07  1.44167558e-07  1.10000000e+00 
