 v-sweep         v(b0)           v(b1)           v(b2)           v(b3)           v(b4)           v(b5)           v(b6)           i(vbias)        i(viout)        v(vout)        
 0.00000000e+00  3.33798932e-09  4.58973159e-01  4.58973159e-01  3.24660855e-09  4.58973159e-01  4.58973159e-01  4.58973159e-01  1.60348328e-07  1.76517324e-07  0.00000000e+00 
 1.00000000e-02  3.33798929e-09  4.58973136e-01  4.58973136e-01  3.24660859e-09  4.58973136e-01  4.58973136e-01  4.58973136e-01  1.60348295e-07  1.76516763e-07  1.00000000e-02 
 2.00000000e-02  3.33798929e-09  4.58973154e-01  4.58973154e-01  3.24660859e-09  4.58973154e-01  4.58973154e-01  4.58973154e-01  1.60348337e-07  1.76516305e-07  2.00000000e-02 
 3.00000000e-02  3.33798929e-09  4.58973156e-01  4.58973156e-01  3.24660859e-09  4.58973156e-01  4.58973156e-01  4.58973156e-01  1.60348334e-07  1.76515914e-07  3.00000000e-02 
 4.00000000e-02  3.33798929e-09  4.58973152e-01  4.58973152e-01  3.24660859e-09  4.58973152e-01  4.58973152e-01  4.58973152e-01  1.60348327e-07  1.76515579e-07  4.00000000e-02 
 5.00000000e-02  3.33798924e-09  4.58973173e-01  4.58973173e-01  3.24660859e-09  4.58973173e-01  4.58973173e-01  4.58973173e-01  1.60348365e-07  1.76515105e-07  5.00000000e-02 
 6.00000000e-02  3.33798925e-09  4.58973162e-01  4.58973162e-01  3.24660859e-09  4.58973162e-01  4.58973162e-01  4.58973162e-01  1.60348342e-07  1.76514770e-07  6.00000000e-02 
 7.00000000e-02  3.33798924e-09  4.58973145e-01  4.58973145e-01  3.24660859e-09  4.58973145e-01  4.58973145e-01  4.58973145e-01  1.60348310e-07  1.76514482e-07  7.00000000e-02 
 8.00000000e-02  3.33798930e-09  4.58973153e-01  4.58973153e-01  3.24660859e-09  4.58973153e-01  4.58973153e-01  4.58973153e-01  1.60348336e-07  1.76513947e-07  8.00000000e-02 
 9.00000000e-02  3.33798929e-09  4.58973141e-01  4.58973141e-01  3.24660859e-09  4.58973141e-01  4.58973141e-01  4.58973141e-01  1.60348319e-07  1.76513678e-07  9.00000000e-02 
 1.00000000e-01  3.33798924e-09  4.58973150e-01  4.58973150e-01  3.24660859e-09  4.58973150e-01  4.58973150e-01  4.58973150e-01  1.60348324e-07  1.76513343e-07  1.00000000e-01 
 1.10000000e-01  3.33798925e-09  4.58973133e-01  4.58973133e-01  3.24660859e-09  4.58973133e-01  4.58973133e-01  4.58973133e-01  1.60348306e-07  1.76512921e-07  1.10000000e-01 
 1.20000000e-01  3.33798924e-09  4.58973127e-01  4.58973127e-01  3.24660859e-09  4.58973126e-01  4.58973127e-01  4.58973127e-01  1.60348293e-07  1.76512595e-07  1.20000000e-01 
 1.30000000e-01  3.33798924e-09  4.58973154e-01  4.58973153e-01  3.24660859e-09  4.58973153e-01  4.58973154e-01  4.58973154e-01  1.60348336e-07  1.76512331e-07  1.30000000e-01 
 1.40000000e-01  3.33798930e-09  4.58973139e-01  4.58973139e-01  3.24660859e-09  4.58973138e-01  4.58973139e-01  4.58973139e-01  1.60348317e-07  1.76512022e-07  1.40000000e-01 
 1.50000000e-01  3.33798929e-09  4.58973159e-01  4.58973159e-01  3.24660859e-09  4.58973159e-01  4.58973159e-01  4.58973159e-01  1.60348345e-07  1.76511914e-07  1.50000000e-01 
 1.60000000e-01  3.33798929e-09  4.58973162e-01  4.58973162e-01  3.24660859e-09  4.58973162e-01  4.58973162e-01  4.58973162e-01  1.60348353e-07  1.76511735e-07  1.60000000e-01 
 1.70000000e-01  3.33798929e-09  4.58973143e-01  4.58973143e-01  3.24660859e-09  4.58973143e-01  4.58973143e-01  4.58973143e-01  1.60348319e-07  1.76511342e-07  1.70000000e-01 
 1.80000000e-01  3.33798924e-09  4.58973144e-01  4.58973144e-01  3.24660859e-09  4.58973144e-01  4.58973144e-01  4.58973144e-01  1.60348315e-07  1.76510996e-07  1.80000000e-01 
 1.90000000e-01  3.33798925e-09  4.58973151e-01  4.58973151e-01  3.24660859e-09  4.58973151e-01  4.58973151e-01  4.58973151e-01  1.60348337e-07  1.76510813e-07  1.90000000e-01 
 2.00000000e-01  3.33798924e-09  4.58973138e-01  4.58973138e-01  3.24660859e-09  4.58973138e-01  4.58973138e-01  4.58973138e-01  1.60348320e-07  1.76510598e-07  2.00000000e-01 
 2.10000000e-01  3.33798930e-09  4.58973170e-01  4.58973170e-01  3.24660859e-09  4.58973170e-01  4.58973170e-01  4.58973170e-01  1.60348348e-07  1.76510518e-07  2.10000000e-01 
 2.20000000e-01  3.33798929e-09  4.58973169e-01  4.58973169e-01  3.24660859e-09  4.58973169e-01  4.58973169e-01  4.58973169e-01  1.60348347e-07  1.76510159e-07  2.20000000e-01 
 2.30000000e-01  3.33798929e-09  4.58973139e-01  4.58973139e-01  3.24660859e-09  4.58973139e-01  4.58973139e-01  4.58973139e-01  1.60348313e-07  1.76509895e-07  2.30000000e-01 
 2.40000000e-01  3.33798929e-09  4.58973180e-01  4.58973180e-01  3.24660859e-09  4.58973180e-01  4.58973180e-01  4.58973180e-01  1.60348362e-07  1.76509916e-07  2.40000000e-01 
 2.50000000e-01  3.33798929e-09  4.58973161e-01  4.58973161e-01  3.24660859e-09  4.58973161e-01  4.58973161e-01  4.58973161e-01  1.60348347e-07  1.76509630e-07  2.50000000e-01 
 2.60000000e-01  3.33798929e-09  4.58973161e-01  4.58973161e-01  3.24660859e-09  4.58973160e-01  4.58973161e-01  4.58973161e-01  1.60348346e-07  1.76509403e-07  2.60000000e-01 
 2.70000000e-01  3.33798929e-09  4.58973138e-01  4.58973138e-01  3.24660859e-09  4.58973138e-01  4.58973138e-01  4.58973138e-01  1.60348314e-07  1.76509179e-07  2.70000000e-01 
 2.80000000e-01  3.33798929e-09  4.58973142e-01  4.58973142e-01  3.24660859e-09  4.58973142e-01  4.58973142e-01  4.58973142e-01  1.60348308e-07  1.76508967e-07  2.80000000e-01 
 2.90000000e-01  3.33798929e-09  4.58973153e-01  4.58973153e-01  3.24660864e-09  4.58973153e-01  4.58973153e-01  4.58973153e-01  1.60348333e-07  1.76508763e-07  2.90000000e-01 
 3.00000000e-01  3.33798929e-09  4.58973152e-01  4.58973152e-01  3.24660859e-09  4.58973152e-01  4.58973152e-01  4.58973152e-01  1.60348346e-07  1.76508571e-07  3.00000000e-01 
 3.10000000e-01  3.33798929e-09  4.58973153e-01  4.58973153e-01  3.24660859e-09  4.58973153e-01  4.58973153e-01  4.58973153e-01  1.60348325e-07  1.76508387e-07  3.10000000e-01 
 3.20000000e-01  3.33798929e-09  4.58973167e-01  4.58973167e-01  3.24660859e-09  4.58973167e-01  4.58973167e-01  4.58973167e-01  1.60348356e-07  1.76508248e-07  3.20000000e-01 
 3.30000000e-01  3.33798929e-09  4.58973149e-01  4.58973149e-01  3.24660859e-09  4.58973149e-01  4.58973149e-01  4.58973149e-01  1.60348331e-07  1.76507982e-07  3.30000000e-01 
 3.40000000e-01  3.33798929e-09  4.58973126e-01  4.58973126e-01  3.24660859e-09  4.58973126e-01  4.58973126e-01  4.58973126e-01  1.60348305e-07  1.76507712e-07  3.40000000e-01 
 3.50000000e-01  3.33798929e-09  4.58973141e-01  4.58973141e-01  3.24660859e-09  4.58973141e-01  4.58973141e-01  4.58973141e-01  1.60348305e-07  1.76507680e-07  3.50000000e-01 
 3.60000000e-01  3.33798929e-09  4.58973158e-01  4.58973158e-01  3.24660859e-09  4.58973158e-01  4.58973158e-01  4.58973158e-01  1.60348336e-07  1.76507587e-07  3.60000000e-01 
 3.70000000e-01  3.33798929e-09  4.58973151e-01  4.58973151e-01  3.24660859e-09  4.58973151e-01  4.58973151e-01  4.58973151e-01  1.60348340e-07  1.76507367e-07  3.70000000e-01 
 3.80000000e-01  3.33798929e-09  4.58973149e-01  4.58973149e-01  3.24660859e-09  4.58973149e-01  4.58973149e-01  4.58973149e-01  1.60348320e-07  1.76507214e-07  3.80000000e-01 
 3.90000000e-01  3.33798929e-09  4.58973174e-01  4.58973174e-01  3.24660859e-09  4.58973174e-01  4.58973174e-01  4.58973174e-01  1.60348372e-07  1.76507154e-07  3.90000000e-01 
 4.00000000e-01  3.33798929e-09  4.58973132e-01  4.58973132e-01  3.24660859e-09  4.58973132e-01  4.58973132e-01  4.58973132e-01  1.60348309e-07  1.76506955e-07  4.00000000e-01 
 4.10000000e-01  3.33798929e-09  4.58973142e-01  4.58973142e-01  3.24660859e-09  4.58973142e-01  4.58973142e-01  4.58973142e-01  1.60348326e-07  1.76506632e-07  4.10000000e-01 
 4.20000000e-01  3.33798929e-09  4.58973163e-01  4.58973162e-01  3.24660859e-09  4.58973162e-01  4.58973163e-01  4.58973163e-01  1.60348342e-07  1.76506692e-07  4.20000000e-01 
 4.30000000e-01  3.33798929e-09  4.58973149e-01  4.58973148e-01  3.24660859e-09  4.58973148e-01  4.58973149e-01  4.58973149e-01  1.60348324e-07  1.76506461e-07  4.30000000e-01 
 4.40000000e-01  3.33798929e-09  4.58973147e-01  4.58973147e-01  3.24660859e-09  4.58973147e-01  4.58973147e-01  4.58973147e-01  1.60348332e-07  1.76506330e-07  4.40000000e-01 
 4.50000000e-01  3.33798929e-09  4.58973166e-01  4.58973166e-01  3.24660859e-09  4.58973166e-01  4.58973166e-01  4.58973166e-01  1.60348348e-07  1.76506298e-07  4.50000000e-01 
 4.60000000e-01  3.33798929e-09  4.58973134e-01  4.58973134e-01  3.24660859e-09  4.58973134e-01  4.58973134e-01  4.58973134e-01  1.60348303e-07  1.76505942e-07  4.60000000e-01 
 4.70000000e-01  3.33798929e-09  4.58973156e-01  4.58973156e-01  3.24660859e-09  4.58973156e-01  4.58973156e-01  4.58973156e-01  1.60348333e-07  1.76505964e-07  4.70000000e-01 
 4.80000000e-01  3.33798929e-09  4.58973163e-01  4.58973163e-01  3.24660859e-09  4.58973163e-01  4.58973163e-01  4.58973163e-01  1.60348347e-07  1.76505885e-07  4.80000000e-01 
 4.90000000e-01  3.33798929e-09  4.58973154e-01  4.58973154e-01  3.24660859e-09  4.58973154e-01  4.58973154e-01  4.58973154e-01  1.60348331e-07  1.76505623e-07  4.90000000e-01 
 5.00000000e-01  3.33798929e-09  4.58973146e-01  4.58973146e-01  3.24660859e-09  4.58973146e-01  4.58973146e-01  4.58973146e-01  1.60348322e-07  1.76505448e-07  5.00000000e-01 
 5.10000000e-01  3.33798929e-09  4.58973160e-01  4.58973160e-01  3.24660859e-09  4.58973160e-01  4.58973160e-01  4.58973160e-01  1.60348344e-07  1.76505267e-07  5.10000000e-01 
 5.20000000e-01  3.33798929e-09  4.58973175e-01  4.58973175e-01  3.24660859e-09  4.58973174e-01  4.58973175e-01  4.58973175e-01  1.60348370e-07  1.76505175e-07  5.20000000e-01 
 5.30000000e-01  3.33798924e-09  4.58973135e-01  4.58973135e-01  3.24660864e-09  4.58973134e-01  4.58973135e-01  4.58973135e-01  1.60348293e-07  1.76504859e-07  5.30000000e-01 
 5.40000000e-01  3.33798931e-09  4.58973156e-01  4.58973156e-01  3.24660859e-09  4.58973156e-01  4.58973156e-01  4.58973156e-01  1.60348341e-07  1.76504891e-07  5.40000000e-01 
 5.50000000e-01  3.33798929e-09  4.58973146e-01  4.58973146e-01  3.24660859e-09  4.58973146e-01  4.58973146e-01  4.58973146e-01  1.60348324e-07  1.76504713e-07  5.50000000e-01 
 5.60000000e-01  3.33798929e-09  4.58973164e-01  4.58973164e-01  3.24660859e-09  4.58973164e-01  4.58973164e-01  4.58973164e-01  1.60348358e-07  1.76504606e-07  5.60000000e-01 
 5.70000000e-01  3.33798929e-09  4.58973149e-01  4.58973148e-01  3.24660859e-09  4.58973148e-01  4.58973149e-01  4.58973149e-01  1.60348330e-07  1.76504415e-07  5.70000000e-01 
 5.80000000e-01  3.33798929e-09  4.58973150e-01  4.58973150e-01  3.24660859e-09  4.58973150e-01  4.58973150e-01  4.58973150e-01  1.60348328e-07  1.76504287e-07  5.80000000e-01 
 5.90000000e-01  3.33798929e-09  4.58973166e-01  4.58973166e-01  3.24660859e-09  4.58973165e-01  4.58973166e-01  4.58973166e-01  1.60348362e-07  1.76504315e-07  5.90000000e-01 
 6.00000000e-01  3.33798929e-09  4.58973142e-01  4.58973142e-01  3.24660859e-09  4.58973142e-01  4.58973142e-01  4.58973142e-01  1.60348313e-07  1.76504081e-07  6.00000000e-01 
 6.10000000e-01  3.33798929e-09  4.58973150e-01  4.58973150e-01  3.24660859e-09  4.58973150e-01  4.58973150e-01  4.58973150e-01  1.60348335e-07  1.76503818e-07  6.10000000e-01 
 6.20000000e-01  3.33798924e-09  4.58973150e-01  4.58973150e-01  3.24660859e-09  4.58973150e-01  4.58973150e-01  4.58973150e-01  1.60348338e-07  1.76503747e-07  6.20000000e-01 
 6.30000000e-01  3.33798925e-09  4.58973145e-01  4.58973145e-01  3.24660859e-09  4.58973145e-01  4.58973145e-01  4.58973145e-01  1.60348313e-07  1.76503661e-07  6.30000000e-01 
 6.40000000e-01  3.33798924e-09  4.58973179e-01  4.58973179e-01  3.24660859e-09  4.58973179e-01  4.58973179e-01  4.58973179e-01  1.60348369e-07  1.76503626e-07  6.40000000e-01 
 6.50000000e-01  3.33798924e-09  4.58973152e-01  4.58973152e-01  3.24660859e-09  4.58973152e-01  4.58973152e-01  4.58973152e-01  1.60348330e-07  1.76503320e-07  6.50000000e-01 
 6.60000000e-01  3.33798930e-09  4.58973167e-01  4.58973166e-01  3.24660859e-09  4.58973166e-01  4.58973167e-01  4.58973166e-01  1.60348351e-07  1.76503143e-07  6.60000000e-01 
 6.70000000e-01  3.33798929e-09  4.58973153e-01  4.58973153e-01  3.24660864e-09  4.58973153e-01  4.58973153e-01  4.58973153e-01  1.60348334e-07  1.76502972e-07  6.70000000e-01 
 6.80000000e-01  3.33798929e-09  4.58973174e-01  4.58973174e-01  3.24660859e-09  4.58973174e-01  4.58973174e-01  4.58973174e-01  1.60348364e-07  1.76502887e-07  6.80000000e-01 
 6.90000000e-01  3.33798929e-09  4.58973159e-01  4.58973159e-01  3.24660864e-09  4.58973159e-01  4.58973159e-01  4.58973159e-01  1.60348338e-07  1.76502766e-07  6.90000000e-01 
 7.00000000e-01  3.33798929e-09  4.58973154e-01  4.58973154e-01  3.24660859e-09  4.58973154e-01  4.58973154e-01  4.58973154e-01  1.60348338e-07  1.76502446e-07  7.00000000e-01 
 7.10000000e-01  3.33798929e-09  4.58973155e-01  4.58973155e-01  3.24660859e-09  4.58973155e-01  4.58973155e-01  4.58973155e-01  1.60348334e-07  1.76502482e-07  7.10000000e-01 
 7.20000000e-01  3.33798929e-09  4.58973151e-01  4.58973151e-01  3.24660859e-09  4.58973151e-01  4.58973151e-01  4.58973151e-01  1.60348329e-07  1.76502361e-07  7.20000000e-01 
 7.30000000e-01  3.33798924e-09  4.58973156e-01  4.58973156e-01  3.24660859e-09  4.58973156e-01  4.58973156e-01  4.58973156e-01  1.60348330e-07  1.76502184e-07  7.30000000e-01 
 7.40000000e-01  3.33798931e-09  4.58973153e-01  4.58973153e-01  3.24660859e-09  4.58973153e-01  4.58973153e-01  4.58973153e-01  1.60348323e-07  1.76502013e-07  7.40000000e-01 
 7.50000000e-01  3.33798929e-09  4.58973151e-01  4.58973151e-01  3.24660859e-09  4.58973151e-01  4.58973151e-01  4.58973151e-01  1.60348336e-07  1.76501793e-07  7.50000000e-01 
 7.60000000e-01  3.33798929e-09  4.58973168e-01  4.58973168e-01  3.24660859e-09  4.58973168e-01  4.58973168e-01  4.58973168e-01  1.60348349e-07  1.76501700e-07  7.60000000e-01 
 7.70000000e-01  3.33798924e-09  4.58973149e-01  4.58973148e-01  3.24660859e-09  4.58973148e-01  4.58973148e-01  4.58973148e-01  1.60348335e-07  1.76501601e-07  7.70000000e-01 
 7.80000000e-01  3.33798931e-09  4.58973147e-01  4.58973147e-01  3.24660859e-09  4.58973147e-01  4.58973147e-01  4.58973147e-01  1.60348333e-07  1.76501466e-07  7.80000000e-01 
 7.90000000e-01  3.33798929e-09  4.58973165e-01  4.58973165e-01  3.24660859e-09  4.58973165e-01  4.58973165e-01  4.58973165e-01  1.60348359e-07  1.76501260e-07  7.90000000e-01 
 8.00000000e-01  3.33798929e-09  4.58973144e-01  4.58973144e-01  3.24660859e-09  4.58973144e-01  4.58973144e-01  4.58973144e-01  1.60348324e-07  1.76501047e-07  8.00000000e-01 
 8.10000000e-01  3.33798929e-09  4.58973161e-01  4.58973161e-01  3.24660865e-09  4.58973161e-01  4.58973161e-01  4.58973161e-01  1.60348342e-07  1.76500940e-07  8.10000000e-01 
 8.20000000e-01  3.33798929e-09  4.58973161e-01  4.58973161e-01  3.24660859e-09  4.58973161e-01  4.58973161e-01  4.58973161e-01  1.60348361e-07  1.76500812e-07  8.20000000e-01 
 8.30000000e-01  3.33798924e-09  4.58973146e-01  4.58973146e-01  3.24660859e-09  4.58973146e-01  4.58973146e-01  4.58973146e-01  1.60348317e-07  1.76500471e-07  8.30000000e-01 
 8.40000000e-01  3.33798925e-09  4.58973142e-01  4.58973142e-01  3.24660859e-09  4.58973142e-01  4.58973142e-01  4.58973142e-01  1.60348312e-07  1.76500421e-07  8.40000000e-01 
 8.50000000e-01  3.33798930e-09  4.58973171e-01  4.58973170e-01  3.24660859e-09  4.58973170e-01  4.58973170e-01  4.58973170e-01  1.60348353e-07  1.76500436e-07  8.50000000e-01 
 8.60000000e-01  3.33798929e-09  4.58973134e-01  4.58973134e-01  3.24660859e-09  4.58973134e-01  4.58973134e-01  4.58973134e-01  1.60348301e-07  1.76499974e-07  8.60000000e-01 
 8.70000000e-01  3.33798924e-09  4.58973152e-01  4.58973152e-01  3.24660859e-09  4.58973152e-01  4.58973152e-01  4.58973152e-01  1.60348329e-07  1.76499931e-07  8.70000000e-01 
 8.80000000e-01  3.33798931e-09  4.58973173e-01  4.58973173e-01  3.24660865e-09  4.58973173e-01  4.58973173e-01  4.58973173e-01  1.60348366e-07  1.76499931e-07  8.80000000e-01 
 8.90000000e-01  3.33798929e-09  4.58973153e-01  4.58973153e-01  3.24660859e-09  4.58973153e-01  4.58973153e-01  4.58973153e-01  1.60348332e-07  1.76499761e-07  8.90000000e-01 
 9.00000000e-01  3.33798924e-09  4.58973168e-01  4.58973168e-01  3.24660859e-09  4.58973168e-01  4.58973168e-01  4.58973168e-01  1.60348347e-07  1.76499611e-07  9.00000000e-01 
 9.10000000e-01  3.33798931e-09  4.58973151e-01  4.58973151e-01  3.24660859e-09  4.58973151e-01  4.58973151e-01  4.58973151e-01  1.60348326e-07  1.76499306e-07  9.10000000e-01 
 9.20000000e-01  3.33798929e-09  4.58973151e-01  4.58973151e-01  3.24660859e-09  4.58973150e-01  4.58973151e-01  4.58973151e-01  1.60348330e-07  1.76499249e-07  9.20000000e-01 
 9.30000000e-01  3.33798929e-09  4.58973163e-01  4.58973162e-01  3.24660859e-09  4.58973162e-01  4.58973162e-01  4.58973162e-01  1.60348341e-07  1.76499128e-07  9.30000000e-01 
 9.40000000e-01  3.33798929e-09  4.58973155e-01  4.58973155e-01  3.24660859e-09  4.58973155e-01  4.58973155e-01  4.58973155e-01  1.60348328e-07  1.76498915e-07  9.40000000e-01 
 9.50000000e-01  3.33798929e-09  4.58973168e-01  4.58973168e-01  3.24660859e-09  4.58973168e-01  4.58973168e-01  4.58973168e-01  1.60348348e-07  1.76498780e-07  9.50000000e-01 
 9.60000000e-01  3.33798929e-09  4.58973153e-01  4.58973153e-01  3.24660859e-09  4.58973153e-01  4.58973153e-01  4.58973153e-01  1.60348332e-07  1.76498517e-07  9.60000000e-01 
 9.70000000e-01  3.33798929e-09  4.58973161e-01  4.58973161e-01  3.24660859e-09  4.58973161e-01  4.58973161e-01  4.58973161e-01  1.60348349e-07  1.76498432e-07  9.70000000e-01 
 9.80000000e-01  3.33798924e-09  4.58973181e-01  4.58973181e-01  3.24660859e-09  4.58973181e-01  4.58973181e-01  4.58973181e-01  1.60348371e-07  1.76498361e-07  9.80000000e-01 
 9.90000000e-01  3.33798925e-09  4.58973148e-01  4.58973148e-01  3.24660859e-09  4.58973148e-01  4.58973148e-01  4.58973148e-01  1.60348331e-07  1.76498020e-07  9.90000000e-01 
 1.00000000e+00  3.33798930e-09  4.58973129e-01  4.58973129e-01  3.24660859e-09  4.58973129e-01  4.58973129e-01  4.58973129e-01  1.60348296e-07  1.76497714e-07  1.00000000e+00 
 1.01000000e+00  3.33798929e-09  4.58973180e-01  4.58973180e-01  3.24660859e-09  4.58973180e-01  4.58973180e-01  4.58973180e-01  1.60348370e-07  1.76497814e-07  1.01000000e+00 
 1.02000000e+00  3.33798929e-09  4.58973153e-01  4.58973153e-01  3.24660859e-09  4.58973153e-01  4.58973153e-01  4.58973153e-01  1.60348330e-07  1.76497373e-07  1.02000000e+00 
 1.03000000e+00  3.33798929e-09  4.58973157e-01  4.58973157e-01  3.24660859e-09  4.58973157e-01  4.58973157e-01  4.58973157e-01  1.60348349e-07  1.76497259e-07  1.03000000e+00 
 1.04000000e+00  3.33798929e-09  4.58973160e-01  4.58973160e-01  3.24660859e-09  4.58973160e-01  4.58973160e-01  4.58973160e-01  1.60348354e-07  1.76497075e-07  1.04000000e+00 
 1.05000000e+00  3.33798929e-09  4.58973156e-01  4.58973156e-01  3.24660859e-09  4.58973156e-01  4.58973156e-01  4.58973156e-01  1.60348343e-07  1.76496869e-07  1.05000000e+00 
 1.06000000e+00  3.33798929e-09  4.58973152e-01  4.58973152e-01  3.24660859e-09  4.58973152e-01  4.58973152e-01  4.58973152e-01  1.60348325e-07  1.76496599e-07  1.06000000e+00 
 1.07000000e+00  3.33798929e-09  4.58973169e-01  4.58973168e-01  3.24660859e-09  4.58973168e-01  4.58973169e-01  4.58973169e-01  1.60348360e-07  1.76496613e-07  1.07000000e+00 
 1.08000000e+00  3.33798929e-09  4.58973178e-01  4.58973178e-01  3.24660865e-09  4.58973178e-01  4.58973178e-01  4.58973178e-01  1.60348377e-07  1.76496457e-07  1.08000000e+00 
 1.09000000e+00  3.33798929e-09  4.58973178e-01  4.58973178e-01  3.24660859e-09  4.58973178e-01  4.58973178e-01  4.58973178e-01  1.60348375e-07  1.76496307e-07  1.09000000e+00 
 1.10000000e+00  3.33798929e-09  4.58973178e-01  4.58973178e-01  3.24660859e-09  4.58973178e-01  4.58973178e-01  4.58973178e-01  1.60348368e-07  1.76496080e-07  1.10000000e+00 
