 v-sweep         v(b0)           v(b1)           v(b2)           v(b3)           v(b4)           v(b5)           v(b6)           i(vbias)        i(viout)        v(vout)        
 0.00000000e+00  3.50687986e-09  4.58616981e-01  3.15344962e-09  4.58616981e-01  4.58616981e-01  3.36541827e-09  3.27962771e-09  1.60583275e-07  3.98283804e-08  0.00000000e+00 
 1.00000000e-02  3.50687983e-09  4.58616976e-01  3.15344960e-09  4.58616976e-01  4.58616976e-01  3.36541831e-09  3.27962767e-09  1.60583262e-07  3.98279231e-08  1.00000000e-02 
 2.00000000e-02  3.50687984e-09  4.58616928e-01  3.15344965e-09  4.58616928e-01  4.58616928e-01  3.36541825e-09  3.27962768e-09  1.60583210e-07  3.98274951e-08  2.00000000e-02 
 3.00000000e-02  3.50687982e-09  4.58616952e-01  3.15344960e-09  4.58616953e-01  4.58616952e-01  3.36541825e-09  3.27962768e-09  1.60583229e-07  3.98272171e-08  3.00000000e-02 
 4.00000000e-02  3.50687984e-09  4.58616942e-01  3.15344960e-09  4.58616942e-01  4.58616942e-01  3.36541825e-09  3.27962768e-09  1.60583227e-07  3.98268529e-08  4.00000000e-02 
 5.00000000e-02  3.50687988e-09  4.58616955e-01  3.15344960e-09  4.58616955e-01  4.58616955e-01  3.36541825e-09  3.27962768e-09  1.60583244e-07  3.98265696e-08  5.00000000e-02 
 6.00000000e-02  3.50687983e-09  4.58616935e-01  3.15344959e-09  4.58616935e-01  4.58616935e-01  3.36541825e-09  3.27962768e-09  1.60583221e-07  3.98261828e-08  6.00000000e-02 
 7.00000000e-02  3.50687984e-09  4.58616965e-01  3.15344960e-09  4.58616965e-01  4.58616965e-01  3.36541831e-09  3.27962768e-09  1.60583257e-07  3.98260016e-08  7.00000000e-02 
 8.00000000e-02  3.50687982e-09  4.58616964e-01  3.15344960e-09  4.58616964e-01  4.58616964e-01  3.36541825e-09  3.27962768e-09  1.60583259e-07  3.98256725e-08  8.00000000e-02 
 9.00000000e-02  3.50687984e-09  4.58616940e-01  3.15344960e-09  4.58616940e-01  4.58616940e-01  3.36541825e-09  3.27962768e-09  1.60583214e-07  3.98253084e-08  9.00000000e-02 
 1.00000000e-01  3.50687982e-09  4.58616968e-01  3.15344960e-09  4.58616968e-01  4.58616968e-01  3.36541825e-09  3.27962768e-09  1.60583263e-07  3.98251130e-08  1.00000000e-01 
 1.10000000e-01  3.50687984e-09  4.58616959e-01  3.15344960e-09  4.58616959e-01  4.58616959e-01  3.36541825e-09  3.27962768e-09  1.60583243e-07  3.98247719e-08  1.10000000e-01 
 1.20000000e-01  3.50687982e-09  4.58616965e-01  3.15344960e-09  4.58616965e-01  4.58616965e-01  3.36541825e-09  3.27962762e-09  1.60583252e-07  3.98246414e-08  1.20000000e-01 
 1.30000000e-01  3.50687984e-09  4.58616957e-01  3.15344960e-09  4.58616957e-01  4.58616957e-01  3.36541825e-09  3.27962768e-09  1.60583244e-07  3.98243207e-08  1.30000000e-01 
 1.40000000e-01  3.50687982e-09  4.58616951e-01  3.15344960e-09  4.58616951e-01  4.58616951e-01  3.36541825e-09  3.27962768e-09  1.60583242e-07  3.98242817e-08  1.40000000e-01 
 1.50000000e-01  3.50687984e-09  4.58616954e-01  3.15344960e-09  4.58616954e-01  4.58616954e-01  3.36541825e-09  3.27962768e-09  1.60583238e-07  3.98240516e-08  1.50000000e-01 
 1.60000000e-01  3.50687982e-09  4.58616949e-01  3.15344960e-09  4.58616950e-01  4.58616950e-01  3.36541825e-09  3.27962768e-09  1.60583231e-07  3.98238136e-08  1.60000000e-01 
 1.70000000e-01  3.50687984e-09  4.58616952e-01  3.15344960e-09  4.58616952e-01  4.58616952e-01  3.36541825e-09  3.27962768e-09  1.60583252e-07  3.98236004e-08  1.70000000e-01 
 1.80000000e-01  3.50687988e-09  4.58616952e-01  3.15344960e-09  4.58616952e-01  4.58616952e-01  3.36541830e-09  3.27962768e-09  1.60583233e-07  3.98233944e-08  1.80000000e-01 
 1.90000000e-01  3.50687983e-09  4.58616967e-01  3.15344960e-09  4.58616967e-01  4.58616967e-01  3.36541825e-09  3.27962768e-09  1.60583244e-07  3.98233642e-08  1.90000000e-01 
 2.00000000e-01  3.50687984e-09  4.58616955e-01  3.15344960e-09  4.58616955e-01  4.58616955e-01  3.36541825e-09  3.27962768e-09  1.60583236e-07  3.98233411e-08  2.00000000e-01 
 2.10000000e-01  3.50687982e-09  4.58616944e-01  3.15344960e-09  4.58616944e-01  4.58616944e-01  3.36541825e-09  3.27962762e-09  1.60583229e-07  3.98229005e-08  2.10000000e-01 
 2.20000000e-01  3.50687984e-09  4.58616976e-01  3.15344960e-09  4.58616976e-01  4.58616976e-01  3.36541831e-09  3.27962762e-09  1.60583268e-07  3.98227797e-08  2.20000000e-01 
 2.30000000e-01  3.50687982e-09  4.58616961e-01  3.15344960e-09  4.58616961e-01  4.58616961e-01  3.36541825e-09  3.27962768e-09  1.60583243e-07  3.98227193e-08  2.30000000e-01 
 2.40000000e-01  3.50687984e-09  4.58616955e-01  3.15344965e-09  4.58616955e-01  4.58616955e-01  3.36541831e-09  3.27962768e-09  1.60583230e-07  3.98225328e-08  2.40000000e-01 
 2.50000000e-01  3.50687988e-09  4.58616931e-01  3.15344965e-09  4.58616931e-01  4.58616931e-01  3.36541830e-09  3.27962768e-09  1.60583202e-07  3.98223339e-08  2.50000000e-01 
 2.60000000e-01  3.50687983e-09  4.58616964e-01  3.15344960e-09  4.58616964e-01  4.58616964e-01  3.36541831e-09  3.27962768e-09  1.60583249e-07  3.98222877e-08  2.60000000e-01 
 2.70000000e-01  3.50687984e-09  4.58616974e-01  3.15344960e-09  4.58616974e-01  4.58616974e-01  3.36541825e-09  3.27962762e-09  1.60583257e-07  3.98221083e-08  2.70000000e-01 
 2.80000000e-01  3.50687982e-09  4.58616959e-01  3.15344965e-09  4.58616959e-01  4.58616959e-01  3.36541825e-09  3.27962768e-09  1.60583238e-07  3.98221154e-08  2.80000000e-01 
 2.90000000e-01  3.50687984e-09  4.58616958e-01  3.15344960e-09  4.58616958e-01  4.58616958e-01  3.36541825e-09  3.27962768e-09  1.60583253e-07  3.98219484e-08  2.90000000e-01 
 3.00000000e-01  3.50687988e-09  4.58616953e-01  3.15344965e-09  4.58616953e-01  4.58616953e-01  3.36541825e-09  3.27962768e-09  1.60583238e-07  3.98217992e-08  3.00000000e-01 
 3.10000000e-01  3.50687983e-09  4.58616943e-01  3.15344960e-09  4.58616943e-01  4.58616943e-01  3.36541830e-09  3.27962768e-09  1.60583217e-07  3.98217246e-08  3.10000000e-01 
 3.20000000e-01  3.50687984e-09  4.58616977e-01  3.15344966e-09  4.58616977e-01  4.58616977e-01  3.36541825e-09  3.27962768e-09  1.60583273e-07  3.98216784e-08  3.20000000e-01 
 3.30000000e-01  3.50687982e-09  4.58616971e-01  3.15344960e-09  4.58616971e-01  4.58616971e-01  3.36541831e-09  3.27962768e-09  1.60583267e-07  3.98215754e-08  3.30000000e-01 
 3.40000000e-01  3.50687984e-09  4.58616970e-01  3.15344960e-09  4.58616970e-01  4.58616970e-01  3.36541825e-09  3.27962762e-09  1.60583272e-07  3.98214226e-08  3.40000000e-01 
 3.50000000e-01  3.50687982e-09  4.58616957e-01  3.15344965e-09  4.58616957e-01  4.58616957e-01  3.36541825e-09  3.27962768e-09  1.60583244e-07  3.98212734e-08  3.50000000e-01 
 3.60000000e-01  3.50687984e-09  4.58616946e-01  3.15344965e-09  4.58616946e-01  4.58616946e-01  3.36541825e-09  3.27962768e-09  1.60583233e-07  3.98212983e-08  3.60000000e-01 
 3.70000000e-01  3.50687982e-09  4.58616963e-01  3.15344960e-09  4.58616963e-01  4.58616963e-01  3.36541825e-09  3.27962768e-09  1.60583249e-07  3.98213480e-08  3.70000000e-01 
 3.80000000e-01  3.50687984e-09  4.58616949e-01  3.15344965e-09  4.58616949e-01  4.58616949e-01  3.36541825e-09  3.27962768e-09  1.60583236e-07  3.98211419e-08  3.80000000e-01 
 3.90000000e-01  3.50687988e-09  4.58616987e-01  3.15344960e-09  4.58616987e-01  4.58616987e-01  3.36541825e-09  3.27962768e-09  1.60583299e-07  3.98210602e-08  3.90000000e-01 
 4.00000000e-01  3.50687983e-09  4.58616961e-01  3.15344960e-09  4.58616961e-01  4.58616961e-01  3.36541831e-09  3.27962762e-09  1.60583245e-07  3.98208719e-08  4.00000000e-01 
 4.10000000e-01  3.50687984e-09  4.58616966e-01  3.15344965e-09  4.58616966e-01  4.58616966e-01  3.36541825e-09  3.27962768e-09  1.60583249e-07  3.98208968e-08  4.10000000e-01 
 4.20000000e-01  3.50687982e-09  4.58616954e-01  3.15344960e-09  4.58616954e-01  4.58616954e-01  3.36541825e-09  3.27962768e-09  1.60583248e-07  3.98208577e-08  4.20000000e-01 
 4.30000000e-01  3.50687984e-09  4.58616945e-01  3.15344960e-09  4.58616945e-01  4.58616945e-01  3.36541830e-09  3.27962768e-09  1.60583227e-07  3.98207334e-08  4.30000000e-01 
 4.40000000e-01  3.50687982e-09  4.58616961e-01  3.15344960e-09  4.58616961e-01  4.58616961e-01  3.36541825e-09  3.27962768e-09  1.60583252e-07  3.98206339e-08  4.40000000e-01 
 4.50000000e-01  3.50687984e-09  4.58616973e-01  3.15344965e-09  4.58616973e-01  4.58616973e-01  3.36541831e-09  3.27962768e-09  1.60583263e-07  3.98205771e-08  4.50000000e-01 
 4.60000000e-01  3.50687982e-09  4.58616961e-01  3.15344960e-09  4.58616962e-01  4.58616962e-01  3.36541825e-09  3.27962768e-09  1.60583245e-07  3.98205806e-08  4.60000000e-01 
 4.70000000e-01  3.50687984e-09  4.58616948e-01  3.15344960e-09  4.58616948e-01  4.58616948e-01  3.36541830e-09  3.27962768e-09  1.60583235e-07  3.98204278e-08  4.70000000e-01 
 4.80000000e-01  3.50687988e-09  4.58616963e-01  3.15344960e-09  4.58616963e-01  4.58616963e-01  3.36541825e-09  3.27962768e-09  1.60583271e-07  3.98204669e-08  4.80000000e-01 
 4.90000000e-01  3.50687983e-09  4.58616957e-01  3.15344960e-09  4.58616957e-01  4.58616957e-01  3.36541825e-09  3.27962768e-09  1.60583243e-07  3.98203319e-08  4.90000000e-01 
 5.00000000e-01  3.50687984e-09  4.58616953e-01  3.15344960e-09  4.58616953e-01  4.58616953e-01  3.36541825e-09  3.27962768e-09  1.60583232e-07  3.98202893e-08  5.00000000e-01 
 5.10000000e-01  3.50687982e-09  4.58616953e-01  3.15344960e-09  4.58616953e-01  4.58616953e-01  3.36541825e-09  3.27962768e-09  1.60583243e-07  3.98201934e-08  5.10000000e-01 
 5.20000000e-01  3.50687984e-09  4.58616956e-01  3.15344960e-09  4.58616956e-01  4.58616956e-01  3.36541831e-09  3.27962768e-09  1.60583246e-07  3.98201969e-08  5.20000000e-01 
 5.30000000e-01  3.50687988e-09  4.58616948e-01  3.15344960e-09  4.58616948e-01  4.58616948e-01  3.36541825e-09  3.27962768e-09  1.60583220e-07  3.98201472e-08  5.30000000e-01 
 5.40000000e-01  3.50687983e-09  4.58616948e-01  3.15344960e-09  4.58616948e-01  4.58616948e-01  3.36541825e-09  3.27962768e-09  1.60583238e-07  3.98200051e-08  5.40000000e-01 
 5.50000000e-01  3.50687984e-09  4.58616966e-01  3.15344965e-09  4.58616966e-01  4.58616966e-01  3.36541825e-09  3.27962768e-09  1.60583253e-07  3.98200548e-08  5.50000000e-01 
 5.60000000e-01  3.50687982e-09  4.58616948e-01  3.15344960e-09  4.58616948e-01  4.58616948e-01  3.36541825e-09  3.27962768e-09  1.60583227e-07  3.98199447e-08  5.60000000e-01 
 5.70000000e-01  3.50687984e-09  4.58616966e-01  3.15344960e-09  4.58616966e-01  4.58616966e-01  3.36541825e-09  3.27962768e-09  1.60583263e-07  3.98199980e-08  5.70000000e-01 
 5.80000000e-01  3.50687988e-09  4.58616938e-01  3.15344960e-09  4.58616938e-01  4.58616938e-01  3.36541825e-09  3.27962768e-09  1.60583207e-07  3.98199447e-08  5.80000000e-01 
 5.90000000e-01  3.50687988e-09  4.58616955e-01  3.15344960e-09  4.58616955e-01  4.58616955e-01  3.36541831e-09  3.27962768e-09  1.60583217e-07  3.98197813e-08  5.90000000e-01 
 6.00000000e-01  3.50687983e-09  4.58616964e-01  3.15344965e-09  4.58616964e-01  4.58616964e-01  3.36541825e-09  3.27962768e-09  1.60583247e-07  3.98197599e-08  6.00000000e-01 
 6.10000000e-01  3.50687984e-09  4.58616960e-01  3.15344960e-09  4.58616960e-01  4.58616960e-01  3.36541831e-09  3.27962768e-09  1.60583240e-07  3.98196889e-08  6.10000000e-01 
 6.20000000e-01  3.50687982e-09  4.58616959e-01  3.15344960e-09  4.58616959e-01  4.58616959e-01  3.36541831e-09  3.27962762e-09  1.60583257e-07  3.98196676e-08  6.20000000e-01 
 6.30000000e-01  3.50687984e-09  4.58616951e-01  3.15344960e-09  4.58616951e-01  4.58616951e-01  3.36541825e-09  3.27962768e-09  1.60583240e-07  3.98194970e-08  6.30000000e-01 
 6.40000000e-01  3.50687988e-09  4.58616954e-01  3.15344960e-09  4.58616954e-01  4.58616954e-01  3.36541825e-09  3.27962768e-09  1.60583252e-07  3.98195539e-08  6.40000000e-01 
 6.50000000e-01  3.50687983e-09  4.58616942e-01  3.15344960e-09  4.58616942e-01  4.58616942e-01  3.36541825e-09  3.27962768e-09  1.60583224e-07  3.98193478e-08  6.50000000e-01 
 6.60000000e-01  3.50687984e-09  4.58616950e-01  3.15344960e-09  4.58616950e-01  4.58616950e-01  3.36541825e-09  3.27962768e-09  1.60583226e-07  3.98193833e-08  6.60000000e-01 
 6.70000000e-01  3.50687982e-09  4.58616994e-01  3.15344960e-09  4.58616994e-01  4.58616994e-01  3.36541831e-09  3.27962768e-09  1.60583286e-07  3.98194047e-08  6.70000000e-01 
 6.80000000e-01  3.50687984e-09  4.58616953e-01  3.15344965e-09  4.58616953e-01  4.58616953e-01  3.36541830e-09  3.27962768e-09  1.60583240e-07  3.98192270e-08  6.80000000e-01 
 6.90000000e-01  3.50687982e-09  4.58616934e-01  3.15344959e-09  4.58616934e-01  4.58616934e-01  3.36541825e-09  3.27962768e-09  1.60583203e-07  3.98191844e-08  6.90000000e-01 
 7.00000000e-01  3.50687984e-09  4.58616971e-01  3.15344960e-09  4.58616971e-01  4.58616971e-01  3.36541825e-09  3.27962768e-09  1.60583263e-07  3.98191133e-08  7.00000000e-01 
 7.10000000e-01  3.50687982e-09  4.58616968e-01  3.15344960e-09  4.58616968e-01  4.58616968e-01  3.36541825e-09  3.27962768e-09  1.60583256e-07  3.98191133e-08  7.10000000e-01 
 7.20000000e-01  3.50687984e-09  4.58616956e-01  3.15344960e-09  4.58616956e-01  4.58616956e-01  3.36541825e-09  3.27962768e-09  1.60583245e-07  3.98189925e-08  7.20000000e-01 
 7.30000000e-01  3.50687982e-09  4.58616958e-01  3.15344960e-09  4.58616958e-01  4.58616958e-01  3.36541825e-09  3.27962762e-09  1.60583257e-07  3.98190281e-08  7.30000000e-01 
 7.40000000e-01  3.50687984e-09  4.58616951e-01  3.15344960e-09  4.58616951e-01  4.58616951e-01  3.36541830e-09  3.27962768e-09  1.60583234e-07  3.98189783e-08  7.40000000e-01 
 7.50000000e-01  3.50687982e-09  4.58616959e-01  3.15344960e-09  4.58616959e-01  4.58616959e-01  3.36541825e-09  3.27962768e-09  1.60583245e-07  3.98188149e-08  7.50000000e-01 
 7.60000000e-01  3.50687984e-09  4.58616959e-01  3.15344965e-09  4.58616959e-01  4.58616959e-01  3.36541825e-09  3.27962768e-09  1.60583255e-07  3.98188220e-08  7.60000000e-01 
 7.70000000e-01  3.50687988e-09  4.58616963e-01  3.15344965e-09  4.58616963e-01  4.58616963e-01  3.36541831e-09  3.27962762e-09  1.60583261e-07  3.98187936e-08  7.70000000e-01 
 7.80000000e-01  3.50687983e-09  4.58616951e-01  3.15344960e-09  4.58616951e-01  4.58616951e-01  3.36541830e-09  3.27962768e-09  1.60583236e-07  3.98186373e-08  7.80000000e-01 
 7.90000000e-01  3.50687984e-09  4.58616988e-01  3.15344960e-09  4.58616988e-01  4.58616988e-01  3.36541825e-09  3.27962768e-09  1.60583302e-07  3.98186728e-08  7.90000000e-01 
 8.00000000e-01  3.50687982e-09  4.58616977e-01  3.15344960e-09  4.58616977e-01  4.58616977e-01  3.36541825e-09  3.27962768e-09  1.60583265e-07  3.98186160e-08  8.00000000e-01 
 8.10000000e-01  3.50687984e-09  4.58616965e-01  3.15344960e-09  4.58616965e-01  4.58616965e-01  3.36541825e-09  3.27962768e-09  1.60583255e-07  3.98184383e-08  8.10000000e-01 
 8.20000000e-01  3.50687982e-09  4.58616958e-01  3.15344965e-09  4.58616958e-01  4.58616958e-01  3.36541825e-09  3.27962762e-09  1.60583255e-07  3.98184525e-08  8.20000000e-01 
 8.30000000e-01  3.50687984e-09  4.58616954e-01  3.15344960e-09  4.58616954e-01  4.58616954e-01  3.36541825e-09  3.27962768e-09  1.60583247e-07  3.98184241e-08  8.30000000e-01 
 8.40000000e-01  3.50687982e-09  4.58616962e-01  3.15344960e-09  4.58616962e-01  4.58616962e-01  3.36541831e-09  3.27962768e-09  1.60583245e-07  3.98182962e-08  8.40000000e-01 
 8.50000000e-01  3.50687984e-09  4.58616957e-01  3.15344965e-09  4.58616957e-01  4.58616957e-01  3.36541825e-09  3.27962768e-09  1.60583249e-07  3.98183744e-08  8.50000000e-01 
 8.60000000e-01  3.50687982e-09  4.58616980e-01  3.15344966e-09  4.58616980e-01  4.58616980e-01  3.36541825e-09  3.27962768e-09  1.60583278e-07  3.98182820e-08  8.60000000e-01 
 8.70000000e-01  3.50687984e-09  4.58616962e-01  3.15344960e-09  4.58616962e-01  4.58616962e-01  3.36541831e-09  3.27962768e-09  1.60583252e-07  3.98181115e-08  8.70000000e-01 
 8.80000000e-01  3.50687982e-09  4.58616967e-01  3.15344965e-09  4.58616967e-01  4.58616967e-01  3.36541825e-09  3.27962768e-09  1.60583250e-07  3.98181825e-08  8.80000000e-01 
 8.90000000e-01  3.50687984e-09  4.58616947e-01  3.15344960e-09  4.58616947e-01  4.58616947e-01  3.36541825e-09  3.27962768e-09  1.60583225e-07  3.98181044e-08  8.90000000e-01 
 9.00000000e-01  3.50687988e-09  4.58616963e-01  3.15344960e-09  4.58616963e-01  4.58616963e-01  3.36541825e-09  3.27962768e-09  1.60583247e-07  3.98180475e-08  9.00000000e-01 
 9.10000000e-01  3.50687983e-09  4.58616952e-01  3.15344960e-09  4.58616952e-01  4.58616952e-01  3.36541825e-09  3.27962768e-09  1.60583239e-07  3.98179694e-08  9.10000000e-01 
 9.20000000e-01  3.50687984e-09  4.58616966e-01  3.15344960e-09  4.58616966e-01  4.58616966e-01  3.36541831e-09  3.27962768e-09  1.60583262e-07  3.98178557e-08  9.20000000e-01 
 9.30000000e-01  3.50687982e-09  4.58616949e-01  3.15344960e-09  4.58616949e-01  4.58616949e-01  3.36541830e-09  3.27962768e-09  1.60583229e-07  3.98178557e-08  9.30000000e-01 
 9.40000000e-01  3.50687978e-09  4.58616963e-01  3.15344960e-09  4.58616963e-01  4.58616963e-01  3.36541825e-09  3.27962768e-09  1.60583237e-07  3.98176923e-08  9.40000000e-01 
 9.50000000e-01  3.50687983e-09  4.58616945e-01  3.15344960e-09  4.58616945e-01  4.58616945e-01  3.36541825e-09  3.27962768e-09  1.60583239e-07  3.98177491e-08  9.50000000e-01 
 9.60000000e-01  3.50687983e-09  4.58616969e-01  3.15344965e-09  4.58616969e-01  4.58616969e-01  3.36541831e-09  3.27962768e-09  1.60583251e-07  3.98177562e-08  9.60000000e-01 
 9.70000000e-01  3.50687982e-09  4.58616936e-01  3.15344959e-09  4.58616936e-01  4.58616936e-01  3.36541825e-09  3.27962768e-09  1.60583199e-07  3.98175644e-08  9.70000000e-01 
 9.80000000e-01  3.50687984e-09  4.58616964e-01  3.15344960e-09  4.58616964e-01  4.58616964e-01  3.36541825e-09  3.27962768e-09  1.60583237e-07  3.98175644e-08  9.80000000e-01 
 9.90000000e-01  3.50687988e-09  4.58616969e-01  3.15344960e-09  4.58616969e-01  4.58616969e-01  3.36541825e-09  3.27962768e-09  1.60583260e-07  3.98176709e-08  9.90000000e-01 
 1.00000000e+00  3.50687988e-09  4.58616938e-01  3.15344960e-09  4.58616938e-01  4.58616938e-01  3.36541830e-09  3.27962768e-09  1.60583219e-07  3.98173938e-08  1.00000000e+00 
 1.01000000e+00  3.50687983e-09  4.58616963e-01  3.15344960e-09  4.58616963e-01  4.58616963e-01  3.36541831e-09  3.27962768e-09  1.60583253e-07  3.98174578e-08  1.01000000e+00 
 1.02000000e+00  3.50687984e-09  4.58616974e-01  3.15344960e-09  4.58616974e-01  4.58616974e-01  3.36541825e-09  3.27962768e-09  1.60583268e-07  3.98172872e-08  1.02000000e+00 
 1.03000000e+00  3.50687982e-09  4.58616943e-01  3.15344960e-09  4.58616943e-01  4.58616943e-01  3.36541825e-09  3.27962768e-09  1.60583217e-07  3.98172588e-08  1.03000000e+00 
 1.04000000e+00  3.50687984e-09  4.58616958e-01  3.15344960e-09  4.58616958e-01  4.58616958e-01  3.36541825e-09  3.27962768e-09  1.60583241e-07  3.98171451e-08  1.04000000e+00 
 1.05000000e+00  3.50687982e-09  4.58616935e-01  3.15344965e-09  4.58616935e-01  4.58616935e-01  3.36541825e-09  3.27962768e-09  1.60583202e-07  3.98170457e-08  1.05000000e+00 
 1.06000000e+00  3.50687984e-09  4.58616956e-01  3.15344965e-09  4.58616956e-01  4.58616956e-01  3.36541825e-09  3.27962768e-09  1.60583231e-07  3.98171025e-08  1.06000000e+00 
 1.07000000e+00  3.50687982e-09  4.58616955e-01  3.15344960e-09  4.58616955e-01  4.58616955e-01  3.36541825e-09  3.27962768e-09  1.60583251e-07  3.98170457e-08  1.07000000e+00 
 1.08000000e+00  3.50687984e-09  4.58616973e-01  3.15344960e-09  4.58616973e-01  4.58616973e-01  3.36541831e-09  3.27962768e-09  1.60583273e-07  3.98168112e-08  1.08000000e+00 
 1.09000000e+00  3.50687982e-09  4.58616961e-01  3.15344960e-09  4.58616961e-01  4.58616961e-01  3.36541825e-09  3.27962768e-09  1.60583253e-07  3.98169178e-08  1.09000000e+00 
 1.10000000e+00  3.50687984e-09  4.58616966e-01  3.15344960e-09  4.58616966e-01  4.58616966e-01  3.36541825e-09  3.27962768e-09  1.60583246e-07  3.98168609e-08  1.10000000e+00 
