 v-sweep         v(b0)           v(b1)           v(b2)           v(b3)           v(b4)           v(b5)           v(b6)           i(vbias)        i(viout)        v(vout)        
 0.00000000e+00  3.53192427e-09  3.37149587e-09  4.57211880e-01  4.57211880e-01  4.57211880e-01  4.57211880e-01  3.74669905e-09  1.56707377e-07  9.11433041e-08  0.00000000e+00 
 1.00000000e-02  3.53192429e-09  3.37149590e-09  4.57211916e-01  4.57211916e-01  4.57211917e-01  4.57211916e-01  3.74669903e-09  1.56707412e-07  9.11427627e-08  1.00000000e-02 
 2.00000000e-02  3.53192429e-09  3.37149590e-09  4.57211900e-01  4.57211900e-01  4.57211900e-01  4.57211900e-01  3.74669903e-09  1.56707384e-07  9.11423588e-08  2.00000000e-02 
 3.00000000e-02  3.53192424e-09  3.37149584e-09  4.57211925e-01  4.57211925e-01  4.57211925e-01  4.57211925e-01  3.74669903e-09  1.56707426e-07  9.11421039e-08  3.00000000e-02 
 4.00000000e-02  3.53192425e-09  3.37149584e-09  4.57211918e-01  4.57211918e-01  4.57211918e-01  4.57211918e-01  3.74669897e-09  1.56707428e-07  9.11417586e-08  4.00000000e-02 
 5.00000000e-02  3.53192430e-09  3.37149584e-09  4.57211895e-01  4.57211895e-01  4.57211896e-01  4.57211895e-01  3.74669897e-09  1.56707404e-07  9.11413194e-08  5.00000000e-02 
 6.00000000e-02  3.53192429e-09  3.37149590e-09  4.57211910e-01  4.57211910e-01  4.57211910e-01  4.57211910e-01  3.74669897e-09  1.56707406e-07  9.11409894e-08  6.00000000e-02 
 7.00000000e-02  3.53192429e-09  3.37149590e-09  4.57211918e-01  4.57211918e-01  4.57211918e-01  4.57211918e-01  3.74669897e-09  1.56707425e-07  9.11407243e-08  7.00000000e-02 
 8.00000000e-02  3.53192429e-09  3.37149590e-09  4.57211875e-01  4.57211875e-01  4.57211875e-01  4.57211875e-01  3.74669902e-09  1.56707356e-07  9.11404348e-08  8.00000000e-02 
 9.00000000e-02  3.53192429e-09  3.37149590e-09  4.57211911e-01  4.57211911e-01  4.57211911e-01  4.57211911e-01  3.74669903e-09  1.56707408e-07  9.11401816e-08  9.00000000e-02 
 1.00000000e-01  3.53192429e-09  3.37149584e-09  4.57211908e-01  4.57211908e-01  4.57211909e-01  4.57211908e-01  3.74669897e-09  1.56707399e-07  9.11399596e-08  1.00000000e-01 
 1.10000000e-01  3.53192429e-09  3.37149584e-09  4.57211890e-01  4.57211890e-01  4.57211890e-01  4.57211890e-01  3.74669903e-09  1.56707386e-07  9.11395857e-08  1.10000000e-01 
 1.20000000e-01  3.53192424e-09  3.37149584e-09  4.57211888e-01  4.57211888e-01  4.57211888e-01  4.57211888e-01  3.74669903e-09  1.56707386e-07  9.11393583e-08  1.20000000e-01 
 1.30000000e-01  3.53192425e-09  3.37149584e-09  4.57211890e-01  4.57211890e-01  4.57211890e-01  4.57211890e-01  3.74669903e-09  1.56707367e-07  9.11390501e-08  1.30000000e-01 
 1.40000000e-01  3.53192424e-09  3.37149584e-09  4.57211897e-01  4.57211897e-01  4.57211897e-01  4.57211897e-01  3.74669903e-09  1.56707382e-07  9.11390172e-08  1.40000000e-01 
 1.50000000e-01  3.53192430e-09  3.37149584e-09  4.57211895e-01  4.57211895e-01  4.57211895e-01  4.57211895e-01  3.74669903e-09  1.56707394e-07  9.11386540e-08  1.50000000e-01 
 1.60000000e-01  3.53192429e-09  3.37149590e-09  4.57211890e-01  4.57211890e-01  4.57211890e-01  4.57211890e-01  3.74669903e-09  1.56707378e-07  9.11384959e-08  1.60000000e-01 
 1.70000000e-01  3.53192429e-09  3.37149590e-09  4.57211927e-01  4.57211927e-01  4.57211928e-01  4.57211927e-01  3.74669897e-09  1.56707429e-07  9.11383609e-08  1.70000000e-01 
 1.80000000e-01  3.53192424e-09  3.37149590e-09  4.57211883e-01  4.57211883e-01  4.57211883e-01  4.57211883e-01  3.74669902e-09  1.56707365e-07  9.11381726e-08  1.80000000e-01 
 1.90000000e-01  3.53192425e-09  3.37149584e-09  4.57211912e-01  4.57211912e-01  4.57211912e-01  4.57211912e-01  3.74669903e-09  1.56707401e-07  9.11379932e-08  1.90000000e-01 
 2.00000000e-01  3.53192430e-09  3.37149590e-09  4.57211906e-01  4.57211906e-01  4.57211906e-01  4.57211906e-01  3.74669903e-09  1.56707404e-07  9.11377374e-08  2.00000000e-01 
 2.10000000e-01  3.53192429e-09  3.37149584e-09  4.57211909e-01  4.57211909e-01  4.57211910e-01  4.57211909e-01  3.74669903e-09  1.56707421e-07  9.11376805e-08  2.10000000e-01 
 2.20000000e-01  3.53192429e-09  3.37149590e-09  4.57211896e-01  4.57211896e-01  4.57211896e-01  4.57211896e-01  3.74669903e-09  1.56707383e-07  9.11373874e-08  2.20000000e-01 
 2.30000000e-01  3.53192429e-09  3.37149590e-09  4.57211896e-01  4.57211896e-01  4.57211896e-01  4.57211896e-01  3.74669903e-09  1.56707376e-07  9.11373483e-08  2.30000000e-01 
 2.40000000e-01  3.53192424e-09  3.37149590e-09  4.57211883e-01  4.57211883e-01  4.57211884e-01  4.57211884e-01  3.74669902e-09  1.56707370e-07  9.11371441e-08  2.40000000e-01 
 2.50000000e-01  3.53192431e-09  3.37149590e-09  4.57211883e-01  4.57211883e-01  4.57211884e-01  4.57211883e-01  3.74669902e-09  1.56707366e-07  9.11368687e-08  2.50000000e-01 
 2.60000000e-01  3.53192423e-09  3.37149590e-09  4.57211887e-01  4.57211887e-01  4.57211887e-01  4.57211887e-01  3.74669903e-09  1.56707391e-07  9.11367248e-08  2.60000000e-01 
 2.70000000e-01  3.53192431e-09  3.37149590e-09  4.57211917e-01  4.57211917e-01  4.57211917e-01  4.57211917e-01  3.74669903e-09  1.56707410e-07  9.11367213e-08  2.70000000e-01 
 2.80000000e-01  3.53192429e-09  3.37149584e-09  4.57211919e-01  4.57211919e-01  4.57211919e-01  4.57211919e-01  3.74669903e-09  1.56707422e-07  9.11366147e-08  2.80000000e-01 
 2.90000000e-01  3.53192424e-09  3.37149590e-09  4.57211869e-01  4.57211869e-01  4.57211869e-01  4.57211869e-01  3.74669902e-09  1.56707363e-07  9.11364140e-08  2.90000000e-01 
 3.00000000e-01  3.53192431e-09  3.37149584e-09  4.57211922e-01  4.57211922e-01  4.57211922e-01  4.57211922e-01  3.74669903e-09  1.56707405e-07  9.11364779e-08  3.00000000e-01 
 3.10000000e-01  3.53192423e-09  3.37149590e-09  4.57211882e-01  4.57211882e-01  4.57211883e-01  4.57211882e-01  3.74669897e-09  1.56707362e-07  9.11362719e-08  3.10000000e-01 
 3.20000000e-01  3.53192425e-09  3.37149590e-09  4.57211895e-01  4.57211895e-01  4.57211895e-01  4.57211895e-01  3.74669903e-09  1.56707368e-07  9.11361759e-08  3.20000000e-01 
 3.30000000e-01  3.53192424e-09  3.37149584e-09  4.57211916e-01  4.57211916e-01  4.57211916e-01  4.57211916e-01  3.74669897e-09  1.56707421e-07  9.11361013e-08  3.30000000e-01 
 3.40000000e-01  3.53192424e-09  3.37149584e-09  4.57211903e-01  4.57211903e-01  4.57211904e-01  4.57211903e-01  3.74669903e-09  1.56707394e-07  9.11360232e-08  3.40000000e-01 
 3.50000000e-01  3.53192424e-09  3.37149584e-09  4.57211906e-01  4.57211906e-01  4.57211906e-01  4.57211906e-01  3.74669897e-09  1.56707398e-07  9.11357461e-08  3.50000000e-01 
 3.60000000e-01  3.53192430e-09  3.37149584e-09  4.57211889e-01  4.57211889e-01  4.57211889e-01  4.57211889e-01  3.74669897e-09  1.56707392e-07  9.11357674e-08  3.60000000e-01 
 3.70000000e-01  3.53192429e-09  3.37149590e-09  4.57211910e-01  4.57211910e-01  4.57211910e-01  4.57211910e-01  3.74669897e-09  1.56707403e-07  9.11356501e-08  3.70000000e-01 
 3.80000000e-01  3.53192429e-09  3.37149584e-09  4.57211911e-01  4.57211911e-01  4.57211911e-01  4.57211911e-01  3.74669897e-09  1.56707423e-07  9.11355258e-08  3.80000000e-01 
 3.90000000e-01  3.53192424e-09  3.37149590e-09  4.57211893e-01  4.57211893e-01  4.57211893e-01  4.57211893e-01  3.74669903e-09  1.56707385e-07  9.11354370e-08  3.90000000e-01 
 4.00000000e-01  3.53192425e-09  3.37149590e-09  4.57211913e-01  4.57211913e-01  4.57211913e-01  4.57211913e-01  3.74669903e-09  1.56707407e-07  9.11353268e-08  4.00000000e-01 
 4.10000000e-01  3.53192430e-09  3.37149590e-09  4.57211905e-01  4.57211905e-01  4.57211905e-01  4.57211905e-01  3.74669897e-09  1.56707398e-07  9.11352807e-08  4.10000000e-01 
 4.20000000e-01  3.53192429e-09  3.37149590e-09  4.57211930e-01  4.57211930e-01  4.57211930e-01  4.57211930e-01  3.74669903e-09  1.56707448e-07  9.11353162e-08  4.20000000e-01 
 4.30000000e-01  3.53192424e-09  3.37149590e-09  4.57211899e-01  4.57211899e-01  4.57211899e-01  4.57211899e-01  3.74669897e-09  1.56707388e-07  9.11351066e-08  4.30000000e-01 
 4.40000000e-01  3.53192425e-09  3.37149590e-09  4.57211869e-01  4.57211869e-01  4.57211869e-01  4.57211869e-01  3.74669897e-09  1.56707340e-07  9.11349254e-08  4.40000000e-01 
 4.50000000e-01  3.53192424e-09  3.37149590e-09  4.57211923e-01  4.57211923e-01  4.57211923e-01  4.57211923e-01  3.74669903e-09  1.56707408e-07  9.11349822e-08  4.50000000e-01 
 4.60000000e-01  3.53192430e-09  3.37149584e-09  4.57211898e-01  4.57211898e-01  4.57211898e-01  4.57211898e-01  3.74669897e-09  1.56707382e-07  9.11349005e-08  4.60000000e-01 
 4.70000000e-01  3.53192429e-09  3.37149590e-09  4.57211896e-01  4.57211896e-01  4.57211897e-01  4.57211896e-01  3.74669903e-09  1.56707383e-07  9.11348188e-08  4.70000000e-01 
 4.80000000e-01  3.53192429e-09  3.37149584e-09  4.57211898e-01  4.57211898e-01  4.57211898e-01  4.57211898e-01  3.74669903e-09  1.56707398e-07  9.11347193e-08  4.80000000e-01 
 4.90000000e-01  3.53192429e-09  3.37149590e-09  4.57211897e-01  4.57211897e-01  4.57211897e-01  4.57211897e-01  3.74669903e-09  1.56707387e-07  9.11345843e-08  4.90000000e-01 
 5.00000000e-01  3.53192424e-09  3.37149590e-09  4.57211929e-01  4.57211929e-01  4.57211930e-01  4.57211930e-01  3.74669903e-09  1.56707448e-07  9.11345595e-08  5.00000000e-01 
 5.10000000e-01  3.53192425e-09  3.37149590e-09  4.57211901e-01  4.57211901e-01  4.57211902e-01  4.57211901e-01  3.74669897e-09  1.56707409e-07  9.11345701e-08  5.10000000e-01 
 5.20000000e-01  3.53192424e-09  3.37149584e-09  4.57211898e-01  4.57211898e-01  4.57211898e-01  4.57211898e-01  3.74669897e-09  1.56707386e-07  9.11344280e-08  5.20000000e-01 
 5.30000000e-01  3.53192430e-09  3.37149590e-09  4.57211872e-01  4.57211872e-01  4.57211872e-01  4.57211872e-01  3.74669902e-09  1.56707363e-07  9.11341829e-08  5.30000000e-01 
 5.40000000e-01  3.53192429e-09  3.37149584e-09  4.57211878e-01  4.57211878e-01  4.57211878e-01  4.57211878e-01  3.74669897e-09  1.56707346e-07  9.11341616e-08  5.40000000e-01 
 5.50000000e-01  3.53192429e-09  3.37149590e-09  4.57211914e-01  4.57211914e-01  4.57211914e-01  4.57211914e-01  3.74669897e-09  1.56707412e-07  9.11342859e-08  5.50000000e-01 
 5.60000000e-01  3.53192429e-09  3.37149590e-09  4.57211918e-01  4.57211918e-01  4.57211918e-01  4.57211918e-01  3.74669897e-09  1.56707416e-07  9.11341544e-08  5.60000000e-01 
 5.70000000e-01  3.53192429e-09  3.37149590e-09  4.57211897e-01  4.57211897e-01  4.57211897e-01  4.57211897e-01  3.74669903e-09  1.56707386e-07  9.11340265e-08  5.70000000e-01 
 5.80000000e-01  3.53192429e-09  3.37149584e-09  4.57211915e-01  4.57211915e-01  4.57211915e-01  4.57211915e-01  3.74669897e-09  1.56707416e-07  9.11339342e-08  5.80000000e-01 
 5.90000000e-01  3.53192424e-09  3.37149590e-09  4.57211888e-01  4.57211888e-01  4.57211889e-01  4.57211888e-01  3.74669897e-09  1.56707376e-07  9.11337992e-08  5.90000000e-01 
 6.00000000e-01  3.53192425e-09  3.37149584e-09  4.57211893e-01  4.57211893e-01  4.57211893e-01  4.57211893e-01  3.74669897e-09  1.56707382e-07  9.11338205e-08  6.00000000e-01 
 6.10000000e-01  3.53192430e-09  3.37149590e-09  4.57211901e-01  4.57211901e-01  4.57211901e-01  4.57211901e-01  3.74669903e-09  1.56707396e-07  9.11337565e-08  6.10000000e-01 
 6.20000000e-01  3.53192429e-09  3.37149584e-09  4.57211862e-01  4.57211862e-01  4.57211863e-01  4.57211862e-01  3.74669902e-09  1.56707347e-07  9.11335647e-08  6.20000000e-01 
 6.30000000e-01  3.53192429e-09  3.37149584e-09  4.57211903e-01  4.57211903e-01  4.57211903e-01  4.57211903e-01  3.74669903e-09  1.56707379e-07  9.11336642e-08  6.30000000e-01 
 6.40000000e-01  3.53192424e-09  3.37149584e-09  4.57211900e-01  4.57211900e-01  4.57211900e-01  4.57211900e-01  3.74669897e-09  1.56707404e-07  9.11335789e-08  6.40000000e-01 
 6.50000000e-01  3.53192431e-09  3.37149584e-09  4.57211914e-01  4.57211914e-01  4.57211914e-01  4.57211914e-01  3.74669903e-09  1.56707407e-07  9.11334510e-08  6.50000000e-01 
 6.60000000e-01  3.53192429e-09  3.37149584e-09  4.57211918e-01  4.57211918e-01  4.57211918e-01  4.57211918e-01  3.74669897e-09  1.56707408e-07  9.11334013e-08  6.60000000e-01 
 6.70000000e-01  3.53192429e-09  3.37149590e-09  4.57211896e-01  4.57211896e-01  4.57211896e-01  4.57211896e-01  3.74669903e-09  1.56707392e-07  9.11331881e-08  6.70000000e-01 
 6.80000000e-01  3.53192429e-09  3.37149584e-09  4.57211887e-01  4.57211887e-01  4.57211887e-01  4.57211887e-01  3.74669903e-09  1.56707372e-07  9.11333444e-08  6.80000000e-01 
 6.90000000e-01  3.53192424e-09  3.37149590e-09  4.57211906e-01  4.57211906e-01  4.57211906e-01  4.57211906e-01  3.74669897e-09  1.56707403e-07  9.11331313e-08  6.90000000e-01 
 7.00000000e-01  3.53192425e-09  3.37149590e-09  4.57211873e-01  4.57211873e-01  4.57211873e-01  4.57211873e-01  3.74669897e-09  1.56707343e-07  9.11330886e-08  7.00000000e-01 
 7.10000000e-01  3.53192430e-09  3.37149590e-09  4.57211885e-01  4.57211885e-01  4.57211885e-01  4.57211885e-01  3.74669903e-09  1.56707362e-07  9.11330176e-08  7.10000000e-01 
 7.20000000e-01  3.53192429e-09  3.37149590e-09  4.57211946e-01  4.57211946e-01  4.57211947e-01  4.57211946e-01  3.74669903e-09  1.56707468e-07  9.11331384e-08  7.20000000e-01 
 7.30000000e-01  3.53192429e-09  3.37149590e-09  4.57211897e-01  4.57211897e-01  4.57211897e-01  4.57211897e-01  3.74669897e-09  1.56707394e-07  9.11328755e-08  7.30000000e-01 
 7.40000000e-01  3.53192429e-09  3.37149590e-09  4.57211927e-01  4.57211927e-01  4.57211927e-01  4.57211927e-01  3.74669903e-09  1.56707410e-07  9.11328186e-08  7.40000000e-01 
 7.50000000e-01  3.53192429e-09  3.37149584e-09  4.57211912e-01  4.57211912e-01  4.57211912e-01  4.57211912e-01  3.74669903e-09  1.56707408e-07  9.11328257e-08  7.50000000e-01 
 7.60000000e-01  3.53192424e-09  3.37149590e-09  4.57211920e-01  4.57211920e-01  4.57211920e-01  4.57211920e-01  3.74669903e-09  1.56707434e-07  9.11327405e-08  7.60000000e-01 
 7.70000000e-01  3.53192431e-09  3.37149584e-09  4.57211911e-01  4.57211911e-01  4.57211912e-01  4.57211911e-01  3.74669897e-09  1.56707413e-07  9.11326694e-08  7.70000000e-01 
 7.80000000e-01  3.53192423e-09  3.37149590e-09  4.57211881e-01  4.57211881e-01  4.57211881e-01  4.57211881e-01  3.74669897e-09  1.56707374e-07  9.11324918e-08  7.80000000e-01 
 7.90000000e-01  3.53192425e-09  3.37149584e-09  4.57211900e-01  4.57211900e-01  4.57211900e-01  4.57211900e-01  3.74669903e-09  1.56707371e-07  9.11324349e-08  7.90000000e-01 
 8.00000000e-01  3.53192424e-09  3.37149584e-09  4.57211911e-01  4.57211911e-01  4.57211911e-01  4.57211911e-01  3.74669897e-09  1.56707423e-07  9.11324136e-08  8.00000000e-01 
 8.10000000e-01  3.53192430e-09  3.37149584e-09  4.57211918e-01  4.57211918e-01  4.57211918e-01  4.57211918e-01  3.74669903e-09  1.56707420e-07  9.11323284e-08  8.10000000e-01 
 8.20000000e-01  3.53192429e-09  3.37149590e-09  4.57211897e-01  4.57211897e-01  4.57211897e-01  4.57211897e-01  3.74669903e-09  1.56707393e-07  9.11321578e-08  8.20000000e-01 
 8.30000000e-01  3.53192424e-09  3.37149590e-09  4.57211896e-01  4.57211896e-01  4.57211897e-01  4.57211896e-01  3.74669897e-09  1.56707403e-07  9.11321081e-08  8.30000000e-01 
 8.40000000e-01  3.53192425e-09  3.37149590e-09  4.57211908e-01  4.57211908e-01  4.57211909e-01  4.57211908e-01  3.74669897e-09  1.56707418e-07  9.11321294e-08  8.40000000e-01 
 8.50000000e-01  3.53192430e-09  3.37149584e-09  4.57211915e-01  4.57211915e-01  4.57211915e-01  4.57211915e-01  3.74669897e-09  1.56707410e-07  9.11320868e-08  8.50000000e-01 
 8.60000000e-01  3.53192429e-09  3.37149590e-09  4.57211906e-01  4.57211906e-01  4.57211907e-01  4.57211906e-01  3.74669903e-09  1.56707401e-07  9.11319944e-08  8.60000000e-01 
 8.70000000e-01  3.53192429e-09  3.37149584e-09  4.57211901e-01  4.57211901e-01  4.57211901e-01  4.57211901e-01  3.74669903e-09  1.56707401e-07  9.11318949e-08  8.70000000e-01 
 8.80000000e-01  3.53192429e-09  3.37149590e-09  4.57211922e-01  4.57211922e-01  4.57211922e-01  4.57211922e-01  3.74669897e-09  1.56707433e-07  9.11318239e-08  8.80000000e-01 
 8.90000000e-01  3.53192429e-09  3.37149590e-09  4.57211882e-01  4.57211882e-01  4.57211882e-01  4.57211882e-01  3.74669897e-09  1.56707355e-07  9.11317812e-08  8.90000000e-01 
 9.00000000e-01  3.53192429e-09  3.37149584e-09  4.57211890e-01  4.57211890e-01  4.57211890e-01  4.57211890e-01  3.74669897e-09  1.56707362e-07  9.11316107e-08  9.00000000e-01 
 9.10000000e-01  3.53192429e-09  3.37149590e-09  4.57211897e-01  4.57211897e-01  4.57211897e-01  4.57211897e-01  3.74669903e-09  1.56707392e-07  9.11316320e-08  9.10000000e-01 
 9.20000000e-01  3.53192424e-09  3.37149590e-09  4.57211886e-01  4.57211886e-01  4.57211886e-01  4.57211886e-01  3.74669903e-09  1.56707379e-07  9.11315894e-08  9.20000000e-01 
 9.30000000e-01  3.53192425e-09  3.37149584e-09  4.57211892e-01  4.57211892e-01  4.57211892e-01  4.57211892e-01  3.74669897e-09  1.56707384e-07  9.11314615e-08  9.30000000e-01 
 9.40000000e-01  3.53192424e-09  3.37149590e-09  4.57211901e-01  4.57211901e-01  4.57211901e-01  4.57211901e-01  3.74669897e-09  1.56707401e-07  9.11314544e-08  9.40000000e-01 
 9.50000000e-01  3.53192424e-09  3.37149584e-09  4.57211898e-01  4.57211898e-01  4.57211898e-01  4.57211898e-01  3.74669903e-09  1.56707389e-07  9.11312910e-08  9.50000000e-01 
 9.60000000e-01  3.53192424e-09  3.37149590e-09  4.57211886e-01  4.57211886e-01  4.57211886e-01  4.57211886e-01  3.74669897e-09  1.56707379e-07  9.11311062e-08  9.60000000e-01 
 9.70000000e-01  3.53192430e-09  3.37149584e-09  4.57211892e-01  4.57211892e-01  4.57211892e-01  4.57211892e-01  3.74669897e-09  1.56707379e-07  9.11310707e-08  9.70000000e-01 
 9.80000000e-01  3.53192429e-09  3.37149590e-09  4.57211925e-01  4.57211925e-01  4.57211926e-01  4.57211926e-01  3.74669897e-09  1.56707430e-07  9.11310849e-08  9.80000000e-01 
 9.90000000e-01  3.53192429e-09  3.37149584e-09  4.57211884e-01  4.57211884e-01  4.57211884e-01  4.57211884e-01  3.74669897e-09  1.56707369e-07  9.11308717e-08  9.90000000e-01 
 1.00000000e+00  3.53192429e-09  3.37149584e-09  4.57211911e-01  4.57211911e-01  4.57211911e-01  4.57211911e-01  3.74669897e-09  1.56707394e-07  9.11309073e-08  1.00000000e+00 
 1.01000000e+00  3.53192429e-09  3.37149584e-09  4.57211917e-01  4.57211917e-01  4.57211917e-01  4.57211917e-01  3.74669903e-09  1.56707413e-07  9.11308717e-08  1.01000000e+00 
 1.02000000e+00  3.53192424e-09  3.37149584e-09  4.57211904e-01  4.57211904e-01  4.57211904e-01  4.57211904e-01  3.74669903e-09  1.56707409e-07  9.11306941e-08  1.02000000e+00 
 1.03000000e+00  3.53192431e-09  3.37149584e-09  4.57211878e-01  4.57211878e-01  4.57211878e-01  4.57211878e-01  3.74669897e-09  1.56707367e-07  9.11305733e-08  1.03000000e+00 
 1.04000000e+00  3.53192429e-09  3.37149590e-09  4.57211914e-01  4.57211914e-01  4.57211914e-01  4.57211914e-01  3.74669897e-09  1.56707401e-07  9.11306444e-08  1.04000000e+00 
 1.05000000e+00  3.53192429e-09  3.37149584e-09  4.57211903e-01  4.57211903e-01  4.57211903e-01  4.57211903e-01  3.74669903e-09  1.56707395e-07  9.11305662e-08  1.05000000e+00 
 1.06000000e+00  3.53192429e-09  3.37149590e-09  4.57211905e-01  4.57211905e-01  4.57211906e-01  4.57211905e-01  3.74669897e-09  1.56707407e-07  9.11305520e-08  1.06000000e+00 
 1.07000000e+00  3.53192429e-09  3.37149590e-09  4.57211907e-01  4.57211907e-01  4.57211907e-01  4.57211907e-01  3.74669903e-09  1.56707410e-07  9.11304099e-08  1.07000000e+00 
 1.08000000e+00  3.53192429e-09  3.37149590e-09  4.57211898e-01  4.57211898e-01  4.57211898e-01  4.57211898e-01  3.74669903e-09  1.56707396e-07  9.11302962e-08  1.08000000e+00 
 1.09000000e+00  3.53192429e-09  3.37149584e-09  4.57211917e-01  4.57211917e-01  4.57211917e-01  4.57211917e-01  3.74669903e-09  1.56707423e-07  9.11303175e-08  1.09000000e+00 
 1.10000000e+00  3.53192429e-09  3.37149590e-09  4.57211885e-01  4.57211885e-01  4.57211886e-01  4.57211885e-01  3.74669903e-09  1.56707369e-07  9.11300333e-08  1.10000000e+00 
