 v-sweep         v(b0)           v(b1)           v(b2)           v(b3)           v(b4)           v(b5)           v(b6)           i(vbias)        i(viout)        v(vout)        
 0.00000000e+00  4.57689636e-01  4.57689636e-01  3.30154872e-09  4.57689636e-01  4.57689636e-01  3.30189309e-09  3.26304677e-09  1.58231537e-07  3.89553784e-08  0.00000000e+00 
 1.00000000e-02  4.57689652e-01  4.57689652e-01  3.30154864e-09  4.57689652e-01  4.57689652e-01  3.30189312e-09  3.26304680e-09  1.58231571e-07  3.89549926e-08  1.00000000e-02 
 2.00000000e-02  4.57689638e-01  4.57689638e-01  3.30154871e-09  4.57689638e-01  4.57689638e-01  3.30189312e-09  3.26304680e-09  1.58231545e-07  3.89545991e-08  2.00000000e-02 
 3.00000000e-02  4.57689635e-01  4.57689635e-01  3.30154869e-09  4.57689635e-01  4.57689635e-01  3.30189312e-09  3.26304680e-09  1.58231550e-07  3.89542392e-08  3.00000000e-02 
 4.00000000e-02  4.57689670e-01  4.57689670e-01  3.30154870e-09  4.57689670e-01  4.57689670e-01  3.30189313e-09  3.26304680e-09  1.58231603e-07  3.89539974e-08  4.00000000e-02 
 5.00000000e-02  4.57689621e-01  4.57689621e-01  3.30154870e-09  4.57689621e-01  4.57689621e-01  3.30189312e-09  3.26304680e-09  1.58231528e-07  3.89535568e-08  5.00000000e-02 
 6.00000000e-02  4.57689636e-01  4.57689636e-01  3.30154864e-09  4.57689636e-01  4.57689636e-01  3.30189312e-09  3.26304680e-09  1.58231549e-07  3.89531984e-08  6.00000000e-02 
 7.00000000e-02  4.57689609e-01  4.57689609e-01  3.30154871e-09  4.57689609e-01  4.57689609e-01  3.30189312e-09  3.26304680e-09  1.58231506e-07  3.89530421e-08  7.00000000e-02 
 8.00000000e-02  4.57689650e-01  4.57689650e-01  3.30154869e-09  4.57689650e-01  4.57689650e-01  3.30189312e-09  3.26304680e-09  1.58231569e-07  3.89526988e-08  8.00000000e-02 
 9.00000000e-02  4.57689624e-01  4.57689624e-01  3.30154864e-09  4.57689624e-01  4.57689624e-01  3.30189312e-09  3.26304680e-09  1.58231534e-07  3.89523773e-08  9.00000000e-02 
 1.00000000e-01  4.57689645e-01  4.57689645e-01  3.30154871e-09  4.57689645e-01  4.57689645e-01  3.30189312e-09  3.26304674e-09  1.58231568e-07  3.89521171e-08  1.00000000e-01 
 1.10000000e-01  4.57689622e-01  4.57689622e-01  3.30154869e-09  4.57689622e-01  4.57689622e-01  3.30189312e-09  3.26304680e-09  1.58231536e-07  3.89518027e-08  1.10000000e-01 
 1.20000000e-01  4.57689637e-01  4.57689637e-01  3.30154870e-09  4.57689637e-01  4.57689637e-01  3.30189312e-09  3.26304680e-09  1.58231557e-07  3.89516215e-08  1.20000000e-01 
 1.30000000e-01  4.57689622e-01  4.57689622e-01  3.30154870e-09  4.57689622e-01  4.57689622e-01  3.30189312e-09  3.26304680e-09  1.58231528e-07  3.89513337e-08  1.30000000e-01 
 1.40000000e-01  4.57689648e-01  4.57689648e-01  3.30154870e-09  4.57689648e-01  4.57689648e-01  3.30189312e-09  3.26304680e-09  1.58231569e-07  3.89511872e-08  1.40000000e-01 
 1.50000000e-01  4.57689639e-01  4.57689639e-01  3.30154870e-09  4.57689639e-01  4.57689639e-01  3.30189312e-09  3.26304680e-09  1.58231548e-07  3.89509154e-08  1.50000000e-01 
 1.60000000e-01  4.57689635e-01  4.57689635e-01  3.30154864e-09  4.57689635e-01  4.57689635e-01  3.30189312e-09  3.26304680e-09  1.58231535e-07  3.89508443e-08  1.60000000e-01 
 1.70000000e-01  4.57689654e-01  4.57689654e-01  3.30154871e-09  4.57689654e-01  4.57689654e-01  3.30189312e-09  3.26304680e-09  1.58231573e-07  3.89506933e-08  1.70000000e-01 
 1.80000000e-01  4.57689631e-01  4.57689631e-01  3.30154869e-09  4.57689631e-01  4.57689631e-01  3.30189312e-09  3.26304680e-09  1.58231538e-07  3.89505246e-08  1.80000000e-01 
 1.90000000e-01  4.57689625e-01  4.57689625e-01  3.30154870e-09  4.57689625e-01  4.57689625e-01  3.30189312e-09  3.26304680e-09  1.58231525e-07  3.89503043e-08  1.90000000e-01 
 2.00000000e-01  4.57689628e-01  4.57689628e-01  3.30154870e-09  4.57689628e-01  4.57689628e-01  3.30189312e-09  3.26304680e-09  1.58231541e-07  3.89501942e-08  2.00000000e-01 
 2.10000000e-01  4.57689647e-01  4.57689647e-01  3.30154870e-09  4.57689647e-01  4.57689647e-01  3.30189312e-09  3.26304680e-09  1.58231559e-07  3.89500201e-08  2.10000000e-01 
 2.20000000e-01  4.57689618e-01  4.57689619e-01  3.30154870e-09  4.57689619e-01  4.57689618e-01  3.30189312e-09  3.26304680e-09  1.58231511e-07  3.89499508e-08  2.20000000e-01 
 2.30000000e-01  4.57689637e-01  4.57689637e-01  3.30154870e-09  4.57689637e-01  4.57689637e-01  3.30189312e-09  3.26304674e-09  1.58231553e-07  3.89497821e-08  2.30000000e-01 
 2.40000000e-01  4.57689635e-01  4.57689635e-01  3.30154864e-09  4.57689635e-01  4.57689635e-01  3.30189312e-09  3.26304674e-09  1.58231543e-07  3.89495920e-08  2.40000000e-01 
 2.50000000e-01  4.57689641e-01  4.57689641e-01  3.30154871e-09  4.57689641e-01  4.57689641e-01  3.30189312e-09  3.26304680e-09  1.58231541e-07  3.89495050e-08  2.50000000e-01 
 2.60000000e-01  4.57689663e-01  4.57689664e-01  3.30154869e-09  4.57689664e-01  4.57689663e-01  3.30189313e-09  3.26304680e-09  1.58231567e-07  3.89494108e-08  2.60000000e-01 
 2.70000000e-01  4.57689636e-01  4.57689636e-01  3.30154870e-09  4.57689636e-01  4.57689636e-01  3.30189312e-09  3.26304680e-09  1.58231552e-07  3.89492545e-08  2.70000000e-01 
 2.80000000e-01  4.57689659e-01  4.57689659e-01  3.30154870e-09  4.57689659e-01  4.57689659e-01  3.30189313e-09  3.26304680e-09  1.58231573e-07  3.89491159e-08  2.80000000e-01 
 2.90000000e-01  4.57689635e-01  4.57689635e-01  3.30154870e-09  4.57689635e-01  4.57689635e-01  3.30189312e-09  3.26304680e-09  1.58231554e-07  3.89489969e-08  2.90000000e-01 
 3.00000000e-01  4.57689605e-01  4.57689605e-01  3.30154869e-09  4.57689605e-01  4.57689605e-01  3.30189312e-09  3.26304680e-09  1.58231510e-07  3.89488974e-08  3.00000000e-01 
 3.10000000e-01  4.57689641e-01  4.57689641e-01  3.30154870e-09  4.57689641e-01  4.57689641e-01  3.30189312e-09  3.26304680e-09  1.58231547e-07  3.89488157e-08  3.10000000e-01 
 3.20000000e-01  4.57689606e-01  4.57689606e-01  3.30154869e-09  4.57689606e-01  4.57689606e-01  3.30189312e-09  3.26304680e-09  1.58231501e-07  3.89486523e-08  3.20000000e-01 
 3.30000000e-01  4.57689646e-01  4.57689647e-01  3.30154870e-09  4.57689647e-01  4.57689647e-01  3.30189312e-09  3.26304674e-09  1.58231573e-07  3.89485741e-08  3.30000000e-01 
 3.40000000e-01  4.57689621e-01  4.57689621e-01  3.30154870e-09  4.57689621e-01  4.57689621e-01  3.30189312e-09  3.26304680e-09  1.58231525e-07  3.89484356e-08  3.40000000e-01 
 3.50000000e-01  4.57689623e-01  4.57689623e-01  3.30154870e-09  4.57689623e-01  4.57689623e-01  3.30189312e-09  3.26304680e-09  1.58231532e-07  3.89484498e-08  3.50000000e-01 
 3.60000000e-01  4.57689653e-01  4.57689653e-01  3.30154864e-09  4.57689653e-01  4.57689653e-01  3.30189312e-09  3.26304674e-09  1.58231570e-07  3.89484711e-08  3.60000000e-01 
 3.70000000e-01  4.57689631e-01  4.57689631e-01  3.30154865e-09  4.57689631e-01  4.57689631e-01  3.30189312e-09  3.26304680e-09  1.58231531e-07  3.89481514e-08  3.70000000e-01 
 3.80000000e-01  4.57689618e-01  4.57689618e-01  3.30154870e-09  4.57689618e-01  4.57689618e-01  3.30189312e-09  3.26304680e-09  1.58231526e-07  3.89481514e-08  3.80000000e-01 
 3.90000000e-01  4.57689648e-01  4.57689648e-01  3.30154869e-09  4.57689648e-01  4.57689648e-01  3.30189312e-09  3.26304680e-09  1.58231566e-07  3.89481407e-08  3.90000000e-01 
 4.00000000e-01  4.57689641e-01  4.57689641e-01  3.30154870e-09  4.57689641e-01  4.57689641e-01  3.30189318e-09  3.26304680e-09  1.58231555e-07  3.89480270e-08  4.00000000e-01 
 4.10000000e-01  4.57689641e-01  4.57689641e-01  3.30154870e-09  4.57689641e-01  4.57689641e-01  3.30189312e-09  3.26304680e-09  1.58231548e-07  3.89479951e-08  4.10000000e-01 
 4.20000000e-01  4.57689640e-01  4.57689640e-01  3.30154870e-09  4.57689640e-01  4.57689640e-01  3.30189312e-09  3.26304680e-09  1.58231552e-07  3.89479133e-08  4.20000000e-01 
 4.30000000e-01  4.57689642e-01  4.57689642e-01  3.30154870e-09  4.57689642e-01  4.57689642e-01  3.30189312e-09  3.26304680e-09  1.58231542e-07  3.89477250e-08  4.30000000e-01 
 4.40000000e-01  4.57689617e-01  4.57689617e-01  3.30154870e-09  4.57689617e-01  4.57689617e-01  3.30189312e-09  3.26304680e-09  1.58231517e-07  3.89477108e-08  4.40000000e-01 
 4.50000000e-01  4.57689634e-01  4.57689634e-01  3.30154870e-09  4.57689634e-01  4.57689634e-01  3.30189312e-09  3.26304680e-09  1.58231547e-07  3.89476504e-08  4.50000000e-01 
 4.60000000e-01  4.57689629e-01  4.57689629e-01  3.30154870e-09  4.57689629e-01  4.57689629e-01  3.30189312e-09  3.26304674e-09  1.58231542e-07  3.89474870e-08  4.60000000e-01 
 4.70000000e-01  4.57689624e-01  4.57689624e-01  3.30154870e-09  4.57689624e-01  4.57689624e-01  3.30189312e-09  3.26304680e-09  1.58231517e-07  3.89474906e-08  4.70000000e-01 
 4.80000000e-01  4.57689619e-01  4.57689619e-01  3.30154864e-09  4.57689619e-01  4.57689619e-01  3.30189312e-09  3.26304680e-09  1.58231527e-07  3.89475119e-08  4.80000000e-01 
 4.90000000e-01  4.57689624e-01  4.57689624e-01  3.30154865e-09  4.57689624e-01  4.57689624e-01  3.30189312e-09  3.26304680e-09  1.58231527e-07  3.89474337e-08  4.90000000e-01 
 5.00000000e-01  4.57689667e-01  4.57689668e-01  3.30154870e-09  4.57689668e-01  4.57689667e-01  3.30189313e-09  3.26304680e-09  1.58231592e-07  3.89473378e-08  5.00000000e-01 
 5.10000000e-01  4.57689638e-01  4.57689638e-01  3.30154869e-09  4.57689638e-01  4.57689638e-01  3.30189312e-09  3.26304680e-09  1.58231548e-07  3.89472419e-08  5.10000000e-01 
 5.20000000e-01  4.57689646e-01  4.57689646e-01  3.30154870e-09  4.57689646e-01  4.57689646e-01  3.30189312e-09  3.26304680e-09  1.58231553e-07  3.89472525e-08  5.20000000e-01 
 5.30000000e-01  4.57689633e-01  4.57689633e-01  3.30154870e-09  4.57689633e-01  4.57689633e-01  3.30189312e-09  3.26304674e-09  1.58231550e-07  3.89471708e-08  5.30000000e-01 
 5.40000000e-01  4.57689622e-01  4.57689623e-01  3.30154870e-09  4.57689623e-01  4.57689622e-01  3.30189312e-09  3.26304680e-09  1.58231538e-07  3.89471282e-08  5.40000000e-01 
 5.50000000e-01  4.57689667e-01  4.57689668e-01  3.30154870e-09  4.57689668e-01  4.57689667e-01  3.30189313e-09  3.26304680e-09  1.58231596e-07  3.89470358e-08  5.50000000e-01 
 5.60000000e-01  4.57689629e-01  4.57689629e-01  3.30154870e-09  4.57689629e-01  4.57689629e-01  3.30189312e-09  3.26304680e-09  1.58231527e-07  3.89469648e-08  5.60000000e-01 
 5.70000000e-01  4.57689636e-01  4.57689636e-01  3.30154864e-09  4.57689636e-01  4.57689636e-01  3.30189312e-09  3.26304680e-09  1.58231539e-07  3.89469541e-08  5.70000000e-01 
 5.80000000e-01  4.57689645e-01  4.57689645e-01  3.30154865e-09  4.57689645e-01  4.57689645e-01  3.30189312e-09  3.26304674e-09  1.58231559e-07  3.89468937e-08  5.80000000e-01 
 5.90000000e-01  4.57689612e-01  4.57689612e-01  3.30154864e-09  4.57689612e-01  4.57689612e-01  3.30189312e-09  3.26304680e-09  1.58231510e-07  3.89468440e-08  5.90000000e-01 
 6.00000000e-01  4.57689631e-01  4.57689631e-01  3.30154870e-09  4.57689631e-01  4.57689631e-01  3.30189312e-09  3.26304674e-09  1.58231544e-07  3.89468653e-08  6.00000000e-01 
 6.10000000e-01  4.57689633e-01  4.57689633e-01  3.30154869e-09  4.57689633e-01  4.57689633e-01  3.30189312e-09  3.26304680e-09  1.58231534e-07  3.89467090e-08  6.10000000e-01 
 6.20000000e-01  4.57689641e-01  4.57689641e-01  3.30154870e-09  4.57689641e-01  4.57689641e-01  3.30189312e-09  3.26304680e-09  1.58231554e-07  3.89465455e-08  6.20000000e-01 
 6.30000000e-01  4.57689635e-01  4.57689635e-01  3.30154870e-09  4.57689635e-01  4.57689635e-01  3.30189318e-09  3.26304680e-09  1.58231558e-07  3.89465811e-08  6.30000000e-01 
 6.40000000e-01  4.57689650e-01  4.57689650e-01  3.30154870e-09  4.57689650e-01  4.57689650e-01  3.30189312e-09  3.26304680e-09  1.58231574e-07  3.89466805e-08  6.40000000e-01 
 6.50000000e-01  4.57689631e-01  4.57689631e-01  3.30154870e-09  4.57689631e-01  4.57689631e-01  3.30189312e-09  3.26304680e-09  1.58231540e-07  3.89464461e-08  6.50000000e-01 
 6.60000000e-01  4.57689640e-01  4.57689640e-01  3.30154870e-09  4.57689640e-01  4.57689640e-01  3.30189312e-09  3.26304680e-09  1.58231560e-07  3.89464248e-08  6.60000000e-01 
 6.70000000e-01  4.57689621e-01  4.57689621e-01  3.30154870e-09  4.57689621e-01  4.57689621e-01  3.30189312e-09  3.26304674e-09  1.58231533e-07  3.89463324e-08  6.70000000e-01 
 6.80000000e-01  4.57689645e-01  4.57689645e-01  3.30154864e-09  4.57689645e-01  4.57689645e-01  3.30189312e-09  3.26304680e-09  1.58231568e-07  3.89463963e-08  6.80000000e-01 
 6.90000000e-01  4.57689636e-01  4.57689636e-01  3.30154871e-09  4.57689636e-01  4.57689636e-01  3.30189312e-09  3.26304674e-09  1.58231546e-07  3.89462684e-08  6.90000000e-01 
 7.00000000e-01  4.57689643e-01  4.57689643e-01  3.30154869e-09  4.57689643e-01  4.57689643e-01  3.30189312e-09  3.26304680e-09  1.58231550e-07  3.89461405e-08  7.00000000e-01 
 7.10000000e-01  4.57689649e-01  4.57689649e-01  3.30154870e-09  4.57689649e-01  4.57689649e-01  3.30189312e-09  3.26304680e-09  1.58231567e-07  3.89461334e-08  7.10000000e-01 
 7.20000000e-01  4.57689633e-01  4.57689633e-01  3.30154870e-09  4.57689633e-01  4.57689633e-01  3.30189312e-09  3.26304680e-09  1.58231557e-07  3.89460197e-08  7.20000000e-01 
 7.30000000e-01  4.57689637e-01  4.57689637e-01  3.30154870e-09  4.57689637e-01  4.57689637e-01  3.30189312e-09  3.26304680e-09  1.58231564e-07  3.89460197e-08  7.30000000e-01 
 7.40000000e-01  4.57689658e-01  4.57689658e-01  3.30154870e-09  4.57689658e-01  4.57689658e-01  3.30189313e-09  3.26304680e-09  1.58231559e-07  3.89459913e-08  7.40000000e-01 
 7.50000000e-01  4.57689633e-01  4.57689633e-01  3.30154870e-09  4.57689633e-01  4.57689633e-01  3.30189312e-09  3.26304680e-09  1.58231549e-07  3.89459132e-08  7.50000000e-01 
 7.60000000e-01  4.57689654e-01  4.57689654e-01  3.30154870e-09  4.57689654e-01  4.57689654e-01  3.30189312e-09  3.26304674e-09  1.58231563e-07  3.89458279e-08  7.60000000e-01 
 7.70000000e-01  4.57689671e-01  4.57689671e-01  3.30154870e-09  4.57689671e-01  4.57689671e-01  3.30189313e-09  3.26304680e-09  1.58231605e-07  3.89458421e-08  7.70000000e-01 
 7.80000000e-01  4.57689630e-01  4.57689630e-01  3.30154870e-09  4.57689630e-01  4.57689630e-01  3.30189312e-09  3.26304680e-09  1.58231525e-07  3.89457782e-08  7.80000000e-01 
 7.90000000e-01  4.57689643e-01  4.57689643e-01  3.30154870e-09  4.57689643e-01  4.57689643e-01  3.30189312e-09  3.26304680e-09  1.58231560e-07  3.89456218e-08  7.90000000e-01 
 8.00000000e-01  4.57689620e-01  4.57689620e-01  3.30154870e-09  4.57689620e-01  4.57689620e-01  3.30189312e-09  3.26304680e-09  1.58231521e-07  3.89456360e-08  8.00000000e-01 
 8.10000000e-01  4.57689620e-01  4.57689620e-01  3.30154870e-09  4.57689620e-01  4.57689620e-01  3.30189312e-09  3.26304680e-09  1.58231507e-07  3.89454655e-08  8.10000000e-01 
 8.20000000e-01  4.57689642e-01  4.57689642e-01  3.30154870e-09  4.57689642e-01  4.57689642e-01  3.30189312e-09  3.26304680e-09  1.58231557e-07  3.89455153e-08  8.20000000e-01 
 8.30000000e-01  4.57689623e-01  4.57689623e-01  3.30154864e-09  4.57689623e-01  4.57689623e-01  3.30189312e-09  3.26304680e-09  1.58231533e-07  3.89455010e-08  8.30000000e-01 
 8.40000000e-01  4.57689617e-01  4.57689617e-01  3.30154871e-09  4.57689617e-01  4.57689617e-01  3.30189312e-09  3.26304680e-09  1.58231525e-07  3.89455508e-08  8.40000000e-01 
 8.50000000e-01  4.57689629e-01  4.57689629e-01  3.30154869e-09  4.57689629e-01  4.57689629e-01  3.30189312e-09  3.26304680e-09  1.58231537e-07  3.89453803e-08  8.50000000e-01 
 8.60000000e-01  4.57689646e-01  4.57689646e-01  3.30154870e-09  4.57689646e-01  4.57689646e-01  3.30189312e-09  3.26304680e-09  1.58231554e-07  3.89453945e-08  8.60000000e-01 
 8.70000000e-01  4.57689625e-01  4.57689625e-01  3.30154870e-09  4.57689625e-01  4.57689625e-01  3.30189312e-09  3.26304680e-09  1.58231536e-07  3.89452310e-08  8.70000000e-01 
 8.80000000e-01  4.57689654e-01  4.57689654e-01  3.30154870e-09  4.57689654e-01  4.57689654e-01  3.30189312e-09  3.26304680e-09  1.58231582e-07  3.89452026e-08  8.80000000e-01 
 8.90000000e-01  4.57689605e-01  4.57689605e-01  3.30154869e-09  4.57689605e-01  4.57689605e-01  3.30189312e-09  3.26304680e-09  1.58231505e-07  3.89450889e-08  8.90000000e-01 
 9.00000000e-01  4.57689660e-01  4.57689660e-01  3.30154870e-09  4.57689660e-01  4.57689660e-01  3.30189313e-09  3.26304680e-09  1.58231588e-07  3.89450534e-08  9.00000000e-01 
 9.10000000e-01  4.57689649e-01  4.57689650e-01  3.30154870e-09  4.57689650e-01  4.57689649e-01  3.30189312e-09  3.26304680e-09  1.58231550e-07  3.89450534e-08  9.10000000e-01 
 9.20000000e-01  4.57689614e-01  4.57689614e-01  3.30154869e-09  4.57689614e-01  4.57689614e-01  3.30189312e-09  3.26304680e-09  1.58231522e-07  3.89448829e-08  9.20000000e-01 
 9.30000000e-01  4.57689624e-01  4.57689624e-01  3.30154870e-09  4.57689624e-01  4.57689624e-01  3.30189312e-09  3.26304680e-09  1.58231525e-07  3.89449681e-08  9.30000000e-01 
 9.40000000e-01  4.57689651e-01  4.57689651e-01  3.30154864e-09  4.57689651e-01  4.57689651e-01  3.30189312e-09  3.26304680e-09  1.58231568e-07  3.89448687e-08  9.40000000e-01 
 9.50000000e-01  4.57689623e-01  4.57689623e-01  3.30154871e-09  4.57689623e-01  4.57689623e-01  3.30189312e-09  3.26304680e-09  1.58231516e-07  3.89448616e-08  9.50000000e-01 
 9.60000000e-01  4.57689643e-01  4.57689643e-01  3.30154869e-09  4.57689643e-01  4.57689643e-01  3.30189312e-09  3.26304680e-09  1.58231555e-07  3.89447123e-08  9.60000000e-01 
 9.70000000e-01  4.57689651e-01  4.57689651e-01  3.30154870e-09  4.57689651e-01  4.57689651e-01  3.30189312e-09  3.26304680e-09  1.58231558e-07  3.89446768e-08  9.70000000e-01 
 9.80000000e-01  4.57689638e-01  4.57689638e-01  3.30154870e-09  4.57689638e-01  4.57689638e-01  3.30189312e-09  3.26304680e-09  1.58231556e-07  3.89445702e-08  9.80000000e-01 
 9.90000000e-01  4.57689642e-01  4.57689642e-01  3.30154870e-09  4.57689642e-01  4.57689642e-01  3.30189312e-09  3.26304680e-09  1.58231556e-07  3.89445489e-08  9.90000000e-01 
 1.00000000e+00  4.57689639e-01  4.57689639e-01  3.30154864e-09  4.57689639e-01  4.57689639e-01  3.30189312e-09  3.26304680e-09  1.58231551e-07  3.89444068e-08  1.00000000e+00 
 1.01000000e+00  4.57689633e-01  4.57689633e-01  3.30154871e-09  4.57689633e-01  4.57689633e-01  3.30189312e-09  3.26304680e-09  1.58231539e-07  3.89443997e-08  1.01000000e+00 
 1.02000000e+00  4.57689646e-01  4.57689646e-01  3.30154869e-09  4.57689646e-01  4.57689646e-01  3.30189312e-09  3.26304680e-09  1.58231551e-07  3.89445134e-08  1.02000000e+00 
 1.03000000e+00  4.57689635e-01  4.57689635e-01  3.30154870e-09  4.57689635e-01  4.57689635e-01  3.30189312e-09  3.26304680e-09  1.58231545e-07  3.89442931e-08  1.03000000e+00 
 1.04000000e+00  4.57689625e-01  4.57689625e-01  3.30154864e-09  4.57689625e-01  4.57689625e-01  3.30189312e-09  3.26304680e-09  1.58231527e-07  3.89443287e-08  1.04000000e+00 
 1.05000000e+00  4.57689646e-01  4.57689646e-01  3.30154865e-09  4.57689646e-01  4.57689646e-01  3.30189312e-09  3.26304680e-09  1.58231568e-07  3.89441013e-08  1.05000000e+00 
 1.06000000e+00  4.57689638e-01  4.57689638e-01  3.30154870e-09  4.57689638e-01  4.57689638e-01  3.30189318e-09  3.26304680e-09  1.58231542e-07  3.89441581e-08  1.06000000e+00 
 1.07000000e+00  4.57689645e-01  4.57689646e-01  3.30154869e-09  4.57689646e-01  4.57689646e-01  3.30189312e-09  3.26304680e-09  1.58231558e-07  3.89440302e-08  1.07000000e+00 
 1.08000000e+00  4.57689648e-01  4.57689648e-01  3.30154870e-09  4.57689648e-01  4.57689648e-01  3.30189312e-09  3.26304680e-09  1.58231565e-07  3.89439450e-08  1.08000000e+00 
 1.09000000e+00  4.57689629e-01  4.57689629e-01  3.30154870e-09  4.57689629e-01  4.57689629e-01  3.30189312e-09  3.26304680e-09  1.58231539e-07  3.89440231e-08  1.09000000e+00 
 1.10000000e+00  4.57689606e-01  4.57689606e-01  3.30154869e-09  4.57689606e-01  4.57689606e-01  3.30189312e-09  3.26304680e-09  1.58231494e-07  3.89439521e-08  1.10000000e+00 
