 v-sweep         v(b0)           v(b1)           v(b2)           v(b3)           v(b4)           v(b5)           v(b6)           i(vbias)        i(viout)        v(vout)        
 0.00000000e+00  4.60382533e-01  3.19691972e-09  3.19114750e-09  3.15347421e-09  4.60382533e-01  4.60382533e-01  3.15048784e-09  1.63301707e-07  8.16699231e-08  0.00000000e+00 
 1.00000000e-02  4.60382517e-01  3.19691975e-09  3.19114748e-09  3.15347419e-09  4.60382517e-01  4.60382517e-01  3.15048782e-09  1.63301682e-07  8.16695012e-08  1.00000000e-02 
 2.00000000e-02  4.60382526e-01  3.19691975e-09  3.19114749e-09  3.15347419e-09  4.60382526e-01  4.60382526e-01  3.15048782e-09  1.63301680e-07  8.16691210e-08  2.00000000e-02 
 3.00000000e-02  4.60382519e-01  3.19691975e-09  3.19114754e-09  3.15347424e-09  4.60382519e-01  4.60382519e-01  3.15048782e-09  1.63301677e-07  8.16688825e-08  3.00000000e-02 
 4.00000000e-02  4.60382526e-01  3.19691975e-09  3.19114754e-09  3.15347424e-09  4.60382527e-01  4.60382527e-01  3.15048782e-09  1.63301687e-07  8.16683685e-08  4.00000000e-02 
 5.00000000e-02  4.60382504e-01  3.19691975e-09  3.19114748e-09  3.15347424e-09  4.60382504e-01  4.60382504e-01  3.15048782e-09  1.63301649e-07  8.16680052e-08  5.00000000e-02 
 6.00000000e-02  4.60382523e-01  3.19691970e-09  3.19114749e-09  3.15347424e-09  4.60382523e-01  4.60382523e-01  3.15048782e-09  1.63301681e-07  8.16677570e-08  6.00000000e-02 
 7.00000000e-02  4.60382527e-01  3.19691970e-09  3.19114754e-09  3.15347419e-09  4.60382527e-01  4.60382527e-01  3.15048782e-09  1.63301695e-07  8.16675270e-08  7.00000000e-02 
 8.00000000e-02  4.60382516e-01  3.19691970e-09  3.19114748e-09  3.15347419e-09  4.60382517e-01  4.60382517e-01  3.15048782e-09  1.63301684e-07  8.16671140e-08  8.00000000e-02 
 9.00000000e-02  4.60382520e-01  3.19691975e-09  3.19114754e-09  3.15347424e-09  4.60382520e-01  4.60382520e-01  3.15048782e-09  1.63301684e-07  8.16668830e-08  9.00000000e-02 
 1.00000000e-01  4.60382523e-01  3.19691975e-09  3.19114749e-09  3.15347424e-09  4.60382523e-01  4.60382523e-01  3.15048777e-09  1.63301677e-07  8.16665873e-08  1.00000000e-01 
 1.10000000e-01  4.60382525e-01  3.19691975e-09  3.19114749e-09  3.15347419e-09  4.60382525e-01  4.60382525e-01  3.15048782e-09  1.63301687e-07  8.16662711e-08  1.10000000e-01 
 1.20000000e-01  4.60382516e-01  3.19691975e-09  3.19114754e-09  3.15347424e-09  4.60382516e-01  4.60382516e-01  3.15048782e-09  1.63301674e-07  8.16660934e-08  1.20000000e-01 
 1.30000000e-01  4.60382526e-01  3.19691975e-09  3.19114754e-09  3.15347419e-09  4.60382526e-01  4.60382526e-01  3.15048782e-09  1.63301689e-07  8.16659362e-08  1.30000000e-01 
 1.40000000e-01  4.60382527e-01  3.19691970e-09  3.19114754e-09  3.15347424e-09  4.60382527e-01  4.60382527e-01  3.15048782e-09  1.63301694e-07  8.16657462e-08  1.40000000e-01 
 1.50000000e-01  4.60382502e-01  3.19691975e-09  3.19114754e-09  3.15347419e-09  4.60382502e-01  4.60382502e-01  3.15048782e-09  1.63301655e-07  8.16654406e-08  1.50000000e-01 
 1.60000000e-01  4.60382519e-01  3.19691970e-09  3.19114748e-09  3.15347424e-09  4.60382519e-01  4.60382519e-01  3.15048782e-09  1.63301685e-07  8.16652292e-08  1.60000000e-01 
 1.70000000e-01  4.60382503e-01  3.19691970e-09  3.19114748e-09  3.15347419e-09  4.60382503e-01  4.60382503e-01  3.15048782e-09  1.63301661e-07  8.16650783e-08  1.70000000e-01 
 1.80000000e-01  4.60382532e-01  3.19691975e-09  3.19114749e-09  3.15347424e-09  4.60382532e-01  4.60382532e-01  3.15048782e-09  1.63301697e-07  8.16648633e-08  1.80000000e-01 
 1.90000000e-01  4.60382523e-01  3.19691970e-09  3.19114749e-09  3.15347424e-09  4.60382524e-01  4.60382524e-01  3.15048782e-09  1.63301696e-07  8.16647461e-08  1.90000000e-01 
 2.00000000e-01  4.60382532e-01  3.19691970e-09  3.19114749e-09  3.15347424e-09  4.60382533e-01  4.60382533e-01  3.15048782e-09  1.63301696e-07  8.16645152e-08  2.00000000e-01 
 2.10000000e-01  4.60382526e-01  3.19691970e-09  3.19114754e-09  3.15347424e-09  4.60382526e-01  4.60382526e-01  3.15048782e-09  1.63301692e-07  8.16644388e-08  2.10000000e-01 
 2.20000000e-01  4.60382517e-01  3.19691975e-09  3.19114754e-09  3.15347424e-09  4.60382517e-01  4.60382517e-01  3.15048782e-09  1.63301683e-07  8.16643233e-08  2.20000000e-01 
 2.30000000e-01  4.60382542e-01  3.19691970e-09  3.19114749e-09  3.15347425e-09  4.60382543e-01  4.60382543e-01  3.15048782e-09  1.63301721e-07  8.16641261e-08  2.30000000e-01 
 2.40000000e-01  4.60382513e-01  3.19691970e-09  3.19114748e-09  3.15347419e-09  4.60382513e-01  4.60382513e-01  3.15048782e-09  1.63301675e-07  8.16638934e-08  2.40000000e-01 
 2.50000000e-01  4.60382525e-01  3.19691970e-09  3.19114749e-09  3.15347419e-09  4.60382525e-01  4.60382525e-01  3.15048782e-09  1.63301682e-07  8.16637691e-08  2.50000000e-01 
 2.60000000e-01  4.60382523e-01  3.19691975e-09  3.19114754e-09  3.15347424e-09  4.60382523e-01  4.60382523e-01  3.15048782e-09  1.63301700e-07  8.16636376e-08  2.60000000e-01 
 2.70000000e-01  4.60382518e-01  3.19691975e-09  3.19114748e-09  3.15347424e-09  4.60382518e-01  4.60382518e-01  3.15048782e-09  1.63301679e-07  8.16635399e-08  2.70000000e-01 
 2.80000000e-01  4.60382529e-01  3.19691975e-09  3.19114754e-09  3.15347424e-09  4.60382529e-01  4.60382529e-01  3.15048782e-09  1.63301685e-07  8.16634085e-08  2.80000000e-01 
 2.90000000e-01  4.60382511e-01  3.19691970e-09  3.19114748e-09  3.15347419e-09  4.60382511e-01  4.60382511e-01  3.15048776e-09  1.63301679e-07  8.16632060e-08  2.90000000e-01 
 3.00000000e-01  4.60382509e-01  3.19691970e-09  3.19114748e-09  3.15347424e-09  4.60382509e-01  4.60382509e-01  3.15048782e-09  1.63301666e-07  8.16630390e-08  3.00000000e-01 
 3.10000000e-01  4.60382539e-01  3.19691975e-09  3.19114754e-09  3.15347424e-09  4.60382539e-01  4.60382539e-01  3.15048782e-09  1.63301713e-07  8.16631065e-08  3.10000000e-01 
 3.20000000e-01  4.60382495e-01  3.19691970e-09  3.19114748e-09  3.15347419e-09  4.60382495e-01  4.60382495e-01  3.15048782e-09  1.63301648e-07  8.16628933e-08  3.20000000e-01 
 3.30000000e-01  4.60382516e-01  3.19691975e-09  3.19114754e-09  3.15347424e-09  4.60382516e-01  4.60382516e-01  3.15048782e-09  1.63301686e-07  8.16627725e-08  3.30000000e-01 
 3.40000000e-01  4.60382513e-01  3.19691970e-09  3.19114748e-09  3.15347424e-09  4.60382513e-01  4.60382513e-01  3.15048782e-09  1.63301681e-07  8.16626411e-08  3.40000000e-01 
 3.50000000e-01  4.60382530e-01  3.19691970e-09  3.19114749e-09  3.15347419e-09  4.60382530e-01  4.60382530e-01  3.15048782e-09  1.63301690e-07  8.16626518e-08  3.50000000e-01 
 3.60000000e-01  4.60382534e-01  3.19691970e-09  3.19114754e-09  3.15347419e-09  4.60382534e-01  4.60382534e-01  3.15048782e-09  1.63301696e-07  8.16626091e-08  3.60000000e-01 
 3.70000000e-01  4.60382551e-01  3.19691970e-09  3.19114754e-09  3.15347425e-09  4.60382551e-01  4.60382551e-01  3.15048782e-09  1.63301729e-07  8.16625167e-08  3.70000000e-01 
 3.80000000e-01  4.60382499e-01  3.19691970e-09  3.19114754e-09  3.15347419e-09  4.60382499e-01  4.60382499e-01  3.15048782e-09  1.63301650e-07  8.16623462e-08  3.80000000e-01 
 3.90000000e-01  4.60382520e-01  3.19691975e-09  3.19114754e-09  3.15347424e-09  4.60382520e-01  4.60382520e-01  3.15048782e-09  1.63301704e-07  8.16623036e-08  3.90000000e-01 
 4.00000000e-01  4.60382490e-01  3.19691970e-09  3.19114748e-09  3.15347424e-09  4.60382490e-01  4.60382490e-01  3.15048782e-09  1.63301637e-07  8.16622219e-08  4.00000000e-01 
 4.10000000e-01  4.60382513e-01  3.19691970e-09  3.19114754e-09  3.15347424e-09  4.60382513e-01  4.60382513e-01  3.15048782e-09  1.63301662e-07  8.16620265e-08  4.10000000e-01 
 4.20000000e-01  4.60382506e-01  3.19691970e-09  3.19114748e-09  3.15347424e-09  4.60382507e-01  4.60382507e-01  3.15048782e-09  1.63301666e-07  8.16619767e-08  4.20000000e-01 
 4.30000000e-01  4.60382523e-01  3.19691970e-09  3.19114749e-09  3.15347424e-09  4.60382523e-01  4.60382523e-01  3.15048782e-09  1.63301678e-07  8.16620513e-08  4.30000000e-01 
 4.40000000e-01  4.60382535e-01  3.19691975e-09  3.19114754e-09  3.15347424e-09  4.60382535e-01  4.60382535e-01  3.15048782e-09  1.63301709e-07  8.16618986e-08  4.40000000e-01 
 4.50000000e-01  4.60382524e-01  3.19691975e-09  3.19114754e-09  3.15347424e-09  4.60382524e-01  4.60382524e-01  3.15048782e-09  1.63301678e-07  8.16618382e-08  4.50000000e-01 
 4.60000000e-01  4.60382537e-01  3.19691975e-09  3.19114754e-09  3.15347424e-09  4.60382537e-01  4.60382537e-01  3.15048782e-09  1.63301706e-07  8.16616570e-08  4.60000000e-01 
 4.70000000e-01  4.60382497e-01  3.19691975e-09  3.19114748e-09  3.15347419e-09  4.60382497e-01  4.60382497e-01  3.15048782e-09  1.63301656e-07  8.16616144e-08  4.70000000e-01 
 4.80000000e-01  4.60382511e-01  3.19691970e-09  3.19114748e-09  3.15347424e-09  4.60382511e-01  4.60382511e-01  3.15048782e-09  1.63301675e-07  8.16615326e-08  4.80000000e-01 
 4.90000000e-01  4.60382511e-01  3.19691970e-09  3.19114748e-09  3.15347424e-09  4.60382511e-01  4.60382511e-01  3.15048782e-09  1.63301658e-07  8.16615255e-08  4.90000000e-01 
 5.00000000e-01  4.60382529e-01  3.19691975e-09  3.19114754e-09  3.15347419e-09  4.60382529e-01  4.60382529e-01  3.15048782e-09  1.63301695e-07  8.16615184e-08  5.00000000e-01 
 5.10000000e-01  4.60382544e-01  3.19691975e-09  3.19114749e-09  3.15347425e-09  4.60382544e-01  4.60382544e-01  3.15048782e-09  1.63301722e-07  8.16612982e-08  5.10000000e-01 
 5.20000000e-01  4.60382499e-01  3.19691970e-09  3.19114748e-09  3.15347424e-09  4.60382499e-01  4.60382499e-01  3.15048782e-09  1.63301650e-07  8.16611525e-08  5.20000000e-01 
 5.30000000e-01  4.60382532e-01  3.19691970e-09  3.19114749e-09  3.15347419e-09  4.60382532e-01  4.60382532e-01  3.15048782e-09  1.63301714e-07  8.16612626e-08  5.30000000e-01 
 5.40000000e-01  4.60382504e-01  3.19691970e-09  3.19114754e-09  3.15347424e-09  4.60382504e-01  4.60382504e-01  3.15048782e-09  1.63301659e-07  8.16611703e-08  5.40000000e-01 
 5.50000000e-01  4.60382539e-01  3.19691970e-09  3.19114754e-09  3.15347419e-09  4.60382539e-01  4.60382539e-01  3.15048782e-09  1.63301697e-07  8.16611596e-08  5.50000000e-01 
 5.60000000e-01  4.60382525e-01  3.19691975e-09  3.19114749e-09  3.15347419e-09  4.60382525e-01  4.60382525e-01  3.15048782e-09  1.63301692e-07  8.16610033e-08  5.60000000e-01 
 5.70000000e-01  4.60382517e-01  3.19691970e-09  3.19114748e-09  3.15347424e-09  4.60382518e-01  4.60382518e-01  3.15048782e-09  1.63301678e-07  8.16608612e-08  5.70000000e-01 
 5.80000000e-01  4.60382532e-01  3.19691970e-09  3.19114749e-09  3.15347424e-09  4.60382532e-01  4.60382532e-01  3.15048782e-09  1.63301714e-07  8.16608505e-08  5.80000000e-01 
 5.90000000e-01  4.60382516e-01  3.19691970e-09  3.19114748e-09  3.15347419e-09  4.60382516e-01  4.60382516e-01  3.15048782e-09  1.63301679e-07  8.16607937e-08  5.90000000e-01 
 6.00000000e-01  4.60382520e-01  3.19691970e-09  3.19114754e-09  3.15347424e-09  4.60382520e-01  4.60382520e-01  3.15048782e-09  1.63301674e-07  8.16607368e-08  6.00000000e-01 
 6.10000000e-01  4.60382514e-01  3.19691975e-09  3.19114754e-09  3.15347424e-09  4.60382514e-01  4.60382514e-01  3.15048782e-09  1.63301670e-07  8.16607013e-08  6.10000000e-01 
 6.20000000e-01  4.60382544e-01  3.19691970e-09  3.19114754e-09  3.15347425e-09  4.60382544e-01  4.60382544e-01  3.15048782e-09  1.63301722e-07  8.16606658e-08  6.20000000e-01 
 6.30000000e-01  4.60382507e-01  3.19691970e-09  3.19114754e-09  3.15347424e-09  4.60382507e-01  4.60382507e-01  3.15048782e-09  1.63301676e-07  8.16605521e-08  6.30000000e-01 
 6.40000000e-01  4.60382530e-01  3.19691970e-09  3.19114754e-09  3.15347419e-09  4.60382530e-01  4.60382530e-01  3.15048782e-09  1.63301698e-07  8.16604739e-08  6.40000000e-01 
 6.50000000e-01  4.60382532e-01  3.19691970e-09  3.19114749e-09  3.15347424e-09  4.60382532e-01  4.60382532e-01  3.15048782e-09  1.63301707e-07  8.16603603e-08  6.50000000e-01 
 6.60000000e-01  4.60382512e-01  3.19691970e-09  3.19114748e-09  3.15347419e-09  4.60382512e-01  4.60382512e-01  3.15048782e-09  1.63301675e-07  8.16603105e-08  6.60000000e-01 
 6.70000000e-01  4.60382553e-01  3.19691970e-09  3.19114754e-09  3.15347425e-09  4.60382553e-01  4.60382553e-01  3.15048782e-09  1.63301716e-07  8.16602892e-08  6.70000000e-01 
 6.80000000e-01  4.60382531e-01  3.19691970e-09  3.19114749e-09  3.15347419e-09  4.60382531e-01  4.60382531e-01  3.15048782e-09  1.63301712e-07  8.16601329e-08  6.80000000e-01 
 6.90000000e-01  4.60382530e-01  3.19691970e-09  3.19114749e-09  3.15347424e-09  4.60382530e-01  4.60382530e-01  3.15048782e-09  1.63301704e-07  8.16599908e-08  6.90000000e-01 
 7.00000000e-01  4.60382504e-01  3.19691970e-09  3.19114754e-09  3.15347419e-09  4.60382504e-01  4.60382504e-01  3.15048782e-09  1.63301662e-07  8.16600689e-08  7.00000000e-01 
 7.10000000e-01  4.60382527e-01  3.19691975e-09  3.19114749e-09  3.15347424e-09  4.60382527e-01  4.60382527e-01  3.15048782e-09  1.63301694e-07  8.16600050e-08  7.10000000e-01 
 7.20000000e-01  4.60382529e-01  3.19691970e-09  3.19114754e-09  3.15347424e-09  4.60382529e-01  4.60382529e-01  3.15048782e-09  1.63301698e-07  8.16599481e-08  7.20000000e-01 
 7.30000000e-01  4.60382505e-01  3.19691975e-09  3.19114754e-09  3.15347424e-09  4.60382505e-01  4.60382505e-01  3.15048782e-09  1.63301655e-07  8.16598558e-08  7.30000000e-01 
 7.40000000e-01  4.60382496e-01  3.19691970e-09  3.19114754e-09  3.15347424e-09  4.60382496e-01  4.60382496e-01  3.15048782e-09  1.63301648e-07  8.16596355e-08  7.40000000e-01 
 7.50000000e-01  4.60382524e-01  3.19691970e-09  3.19114749e-09  3.15347419e-09  4.60382524e-01  4.60382525e-01  3.15048782e-09  1.63301679e-07  8.16595787e-08  7.50000000e-01 
 7.60000000e-01  4.60382539e-01  3.19691970e-09  3.19114754e-09  3.15347424e-09  4.60382539e-01  4.60382539e-01  3.15048782e-09  1.63301710e-07  8.16596213e-08  7.60000000e-01 
 7.70000000e-01  4.60382521e-01  3.19691975e-09  3.19114748e-09  3.15347424e-09  4.60382521e-01  4.60382521e-01  3.15048782e-09  1.63301687e-07  8.16596213e-08  7.70000000e-01 
 7.80000000e-01  4.60382525e-01  3.19691970e-09  3.19114754e-09  3.15347419e-09  4.60382525e-01  4.60382525e-01  3.15048782e-09  1.63301690e-07  8.16595076e-08  7.80000000e-01 
 7.90000000e-01  4.60382521e-01  3.19691970e-09  3.19114748e-09  3.15347424e-09  4.60382521e-01  4.60382521e-01  3.15048782e-09  1.63301681e-07  8.16594508e-08  7.90000000e-01 
 8.00000000e-01  4.60382531e-01  3.19691975e-09  3.19114754e-09  3.15347419e-09  4.60382531e-01  4.60382531e-01  3.15048782e-09  1.63301701e-07  8.16593158e-08  8.00000000e-01 
 8.10000000e-01  4.60382508e-01  3.19691975e-09  3.19114754e-09  3.15347419e-09  4.60382508e-01  4.60382508e-01  3.15048782e-09  1.63301670e-07  8.16592163e-08  8.10000000e-01 
 8.20000000e-01  4.60382534e-01  3.19691970e-09  3.19114749e-09  3.15347419e-09  4.60382534e-01  4.60382534e-01  3.15048782e-09  1.63301704e-07  8.16593158e-08  8.20000000e-01 
 8.30000000e-01  4.60382533e-01  3.19691975e-09  3.19114749e-09  3.15347419e-09  4.60382533e-01  4.60382533e-01  3.15048782e-09  1.63301703e-07  8.16592163e-08  8.30000000e-01 
 8.40000000e-01  4.60382509e-01  3.19691970e-09  3.19114754e-09  3.15347419e-09  4.60382509e-01  4.60382509e-01  3.15048782e-09  1.63301659e-07  8.16590102e-08  8.40000000e-01 
 8.50000000e-01  4.60382535e-01  3.19691970e-09  3.19114749e-09  3.15347419e-09  4.60382535e-01  4.60382535e-01  3.15048782e-09  1.63301705e-07  8.16590457e-08  8.50000000e-01 
 8.60000000e-01  4.60382507e-01  3.19691970e-09  3.19114754e-09  3.15347424e-09  4.60382507e-01  4.60382507e-01  3.15048782e-09  1.63301663e-07  8.16588397e-08  8.60000000e-01 
 8.70000000e-01  4.60382522e-01  3.19691970e-09  3.19114748e-09  3.15347424e-09  4.60382522e-01  4.60382522e-01  3.15048782e-09  1.63301697e-07  8.16588894e-08  8.70000000e-01 
 8.80000000e-01  4.60382542e-01  3.19691975e-09  3.19114749e-09  3.15347425e-09  4.60382542e-01  4.60382542e-01  3.15048782e-09  1.63301727e-07  8.16587686e-08  8.80000000e-01 
 8.90000000e-01  4.60382481e-01  3.19691970e-09  3.19114748e-09  3.15347419e-09  4.60382482e-01  4.60382482e-01  3.15048782e-09  1.63301618e-07  8.16586976e-08  8.90000000e-01 
 9.00000000e-01  4.60382532e-01  3.19691975e-09  3.19114749e-09  3.15347424e-09  4.60382532e-01  4.60382532e-01  3.15048782e-09  1.63301692e-07  8.16585981e-08  9.00000000e-01 
 9.10000000e-01  4.60382507e-01  3.19691970e-09  3.19114748e-09  3.15347424e-09  4.60382507e-01  4.60382507e-01  3.15048782e-09  1.63301670e-07  8.16584915e-08  9.10000000e-01 
 9.20000000e-01  4.60382532e-01  3.19691970e-09  3.19114754e-09  3.15347424e-09  4.60382532e-01  4.60382532e-01  3.15048782e-09  1.63301693e-07  8.16585271e-08  9.20000000e-01 
 9.30000000e-01  4.60382492e-01  3.19691970e-09  3.19114754e-09  3.15347419e-09  4.60382492e-01  4.60382492e-01  3.15048782e-09  1.63301638e-07  8.16583565e-08  9.30000000e-01 
 9.40000000e-01  4.60382538e-01  3.19691975e-09  3.19114754e-09  3.15347424e-09  4.60382538e-01  4.60382538e-01  3.15048782e-09  1.63301717e-07  8.16582997e-08  9.40000000e-01 
 9.50000000e-01  4.60382522e-01  3.19691970e-09  3.19114754e-09  3.15347424e-09  4.60382523e-01  4.60382523e-01  3.15048782e-09  1.63301684e-07  8.16582073e-08  9.50000000e-01 
 9.60000000e-01  4.60382514e-01  3.19691970e-09  3.19114754e-09  3.15347419e-09  4.60382515e-01  4.60382515e-01  3.15048782e-09  1.63301671e-07  8.16580368e-08  9.60000000e-01 
 9.70000000e-01  4.60382521e-01  3.19691975e-09  3.19114754e-09  3.15347419e-09  4.60382521e-01  4.60382521e-01  3.15048782e-09  1.63301699e-07  8.16582002e-08  9.70000000e-01 
 9.80000000e-01  4.60382520e-01  3.19691975e-09  3.19114754e-09  3.15347419e-09  4.60382520e-01  4.60382520e-01  3.15048782e-09  1.63301667e-07  8.16580723e-08  9.80000000e-01 
 9.90000000e-01  4.60382501e-01  3.19691975e-09  3.19114754e-09  3.15347424e-09  4.60382501e-01  4.60382501e-01  3.15048782e-09  1.63301646e-07  8.16579728e-08  9.90000000e-01 
 1.00000000e+00  4.60382522e-01  3.19691970e-09  3.19114749e-09  3.15347424e-09  4.60382522e-01  4.60382522e-01  3.15048782e-09  1.63301678e-07  8.16580226e-08  1.00000000e+00 
 1.01000000e+00  4.60382518e-01  3.19691975e-09  3.19114754e-09  3.15347419e-09  4.60382518e-01  4.60382518e-01  3.15048782e-09  1.63301674e-07  8.16578805e-08  1.01000000e+00 
 1.02000000e+00  4.60382514e-01  3.19691970e-09  3.19114754e-09  3.15347424e-09  4.60382514e-01  4.60382514e-01  3.15048782e-09  1.63301668e-07  8.16578094e-08  1.02000000e+00 
 1.03000000e+00  4.60382540e-01  3.19691970e-09  3.19114749e-09  3.15347419e-09  4.60382540e-01  4.60382540e-01  3.15048782e-09  1.63301705e-07  8.16578023e-08  1.03000000e+00 
 1.04000000e+00  4.60382505e-01  3.19691975e-09  3.19114754e-09  3.15347419e-09  4.60382505e-01  4.60382505e-01  3.15048782e-09  1.63301667e-07  8.16575607e-08  1.04000000e+00 
 1.05000000e+00  4.60382524e-01  3.19691975e-09  3.19114749e-09  3.15347419e-09  4.60382525e-01  4.60382525e-01  3.15048782e-09  1.63301693e-07  8.16575465e-08  1.05000000e+00 
 1.06000000e+00  4.60382532e-01  3.19691975e-09  3.19114754e-09  3.15347419e-09  4.60382532e-01  4.60382532e-01  3.15048782e-09  1.63301689e-07  8.16574470e-08  1.06000000e+00 
 1.07000000e+00  4.60382536e-01  3.19691970e-09  3.19114754e-09  3.15347419e-09  4.60382536e-01  4.60382536e-01  3.15048782e-09  1.63301709e-07  8.16575039e-08  1.07000000e+00 
 1.08000000e+00  4.60382517e-01  3.19691970e-09  3.19114754e-09  3.15347419e-09  4.60382517e-01  4.60382517e-01  3.15048782e-09  1.63301685e-07  8.16572623e-08  1.08000000e+00 
 1.09000000e+00  4.60382514e-01  3.19691975e-09  3.19114754e-09  3.15347424e-09  4.60382514e-01  4.60382514e-01  3.15048782e-09  1.63301672e-07  8.16572481e-08  1.09000000e+00 
 1.10000000e+00  4.60382529e-01  3.19691975e-09  3.19114749e-09  3.15347419e-09  4.60382529e-01  4.60382529e-01  3.15048782e-09  1.63301699e-07  8.16571060e-08  1.10000000e+00 
