 v-sweep         v(b0)           v(b1)           v(b2)           v(b3)           v(b4)           v(b5)           v(b6)           i(vbias)        i(viout)        v(vout)        
 0.00000000e+00  4.57817233e-01  3.43269012e-09  4.57817233e-01  4.57817233e-01  3.42777257e-09  4.57817233e-01  4.57817233e-01  1.59768456e-07  1.63454000e-07  0.00000000e+00 
 1.00000000e-02  4.57817235e-01  3.43269015e-09  4.57817235e-01  4.57817235e-01  3.42777254e-09  4.57817235e-01  4.57817235e-01  1.59768448e-07  1.63453522e-07  1.00000000e-02 
 2.00000000e-02  4.57817208e-01  3.43269019e-09  4.57817208e-01  4.57817208e-01  3.42777255e-09  4.57817209e-01  4.57817208e-01  1.59768414e-07  1.63452965e-07  2.00000000e-02 
 3.00000000e-02  4.57817216e-01  3.43269014e-09  4.57817216e-01  4.57817216e-01  3.42777253e-09  4.57817216e-01  4.57817216e-01  1.59768439e-07  1.63452497e-07  3.00000000e-02 
 4.00000000e-02  4.57817220e-01  3.43269014e-09  4.57817220e-01  4.57817220e-01  3.42777255e-09  4.57817220e-01  4.57817220e-01  1.59768433e-07  1.63452252e-07  4.00000000e-02 
 5.00000000e-02  4.57817209e-01  3.43269014e-09  4.57817209e-01  4.57817209e-01  3.42777253e-09  4.57817210e-01  4.57817209e-01  1.59768413e-07  1.63451827e-07  5.00000000e-02 
 6.00000000e-02  4.57817220e-01  3.43269014e-09  4.57817220e-01  4.57817220e-01  3.42777255e-09  4.57817220e-01  4.57817220e-01  1.59768414e-07  1.63451535e-07  6.00000000e-02 
 7.00000000e-02  4.57817202e-01  3.43269014e-09  4.57817202e-01  4.57817202e-01  3.42777253e-09  4.57817202e-01  4.57817202e-01  1.59768402e-07  1.63451058e-07  7.00000000e-02 
 8.00000000e-02  4.57817221e-01  3.43269014e-09  4.57817221e-01  4.57817221e-01  3.42777255e-09  4.57817221e-01  4.57817221e-01  1.59768447e-07  1.63450768e-07  8.00000000e-02 
 9.00000000e-02  4.57817202e-01  3.43269014e-09  4.57817202e-01  4.57817202e-01  3.42777253e-09  4.57817202e-01  4.57817202e-01  1.59768423e-07  1.63450369e-07  9.00000000e-02 
 1.00000000e-01  4.57817197e-01  3.43269014e-09  4.57817197e-01  4.57817197e-01  3.42777255e-09  4.57817197e-01  4.57817197e-01  1.59768410e-07  1.63450101e-07  1.00000000e-01 
 1.10000000e-01  4.57817237e-01  3.43269014e-09  4.57817237e-01  4.57817237e-01  3.42777254e-09  4.57817237e-01  4.57817237e-01  1.59768472e-07  1.63449807e-07  1.10000000e-01 
 1.20000000e-01  4.57817234e-01  3.43269014e-09  4.57817234e-01  4.57817234e-01  3.42777255e-09  4.57817234e-01  4.57817234e-01  1.59768455e-07  1.63449622e-07  1.20000000e-01 
 1.30000000e-01  4.57817223e-01  3.43269014e-09  4.57817223e-01  4.57817223e-01  3.42777253e-09  4.57817223e-01  4.57817223e-01  1.59768428e-07  1.63449232e-07  1.30000000e-01 
 1.40000000e-01  4.57817223e-01  3.43269014e-09  4.57817223e-01  4.57817223e-01  3.42777255e-09  4.57817223e-01  4.57817223e-01  1.59768436e-07  1.63448977e-07  1.40000000e-01 
 1.50000000e-01  4.57817199e-01  3.43269020e-09  4.57817199e-01  4.57817199e-01  3.42777253e-09  4.57817199e-01  4.57817199e-01  1.59768406e-07  1.63448705e-07  1.50000000e-01 
 1.60000000e-01  4.57817203e-01  3.43269014e-09  4.57817203e-01  4.57817202e-01  3.42777249e-09  4.57817203e-01  4.57817203e-01  1.59768413e-07  1.63448352e-07  1.60000000e-01 
 1.70000000e-01  4.57817217e-01  3.43269014e-09  4.57817217e-01  4.57817217e-01  3.42777255e-09  4.57817217e-01  4.57817217e-01  1.59768427e-07  1.63448242e-07  1.70000000e-01 
 1.80000000e-01  4.57817255e-01  3.43269015e-09  4.57817255e-01  4.57817255e-01  3.42777255e-09  4.57817255e-01  4.57817255e-01  1.59768474e-07  1.63448053e-07  1.80000000e-01 
 1.90000000e-01  4.57817241e-01  3.43269015e-09  4.57817241e-01  4.57817241e-01  3.42777254e-09  4.57817241e-01  4.57817241e-01  1.59768465e-07  1.63447959e-07  1.90000000e-01 
 2.00000000e-01  4.57817233e-01  3.43269014e-09  4.57817233e-01  4.57817233e-01  3.42777255e-09  4.57817233e-01  4.57817233e-01  1.59768455e-07  1.63447616e-07  2.00000000e-01 
 2.10000000e-01  4.57817235e-01  3.43269014e-09  4.57817235e-01  4.57817235e-01  3.42777254e-09  4.57817235e-01  4.57817235e-01  1.59768468e-07  1.63447455e-07  2.10000000e-01 
 2.20000000e-01  4.57817217e-01  3.43269014e-09  4.57817217e-01  4.57817217e-01  3.42777255e-09  4.57817217e-01  4.57817217e-01  1.59768438e-07  1.63447243e-07  2.20000000e-01 
 2.30000000e-01  4.57817227e-01  3.43269014e-09  4.57817227e-01  4.57817227e-01  3.42777253e-09  4.57817227e-01  4.57817227e-01  1.59768439e-07  1.63447050e-07  2.30000000e-01 
 2.40000000e-01  4.57817239e-01  3.43269015e-09  4.57817239e-01  4.57817239e-01  3.42777250e-09  4.57817239e-01  4.57817239e-01  1.59768453e-07  1.63446803e-07  2.40000000e-01 
 2.50000000e-01  4.57817188e-01  3.43269014e-09  4.57817188e-01  4.57817188e-01  3.42777254e-09  4.57817188e-01  4.57817188e-01  1.59768395e-07  1.63446485e-07  2.50000000e-01 
 2.60000000e-01  4.57817239e-01  3.43269015e-09  4.57817239e-01  4.57817239e-01  3.42777255e-09  4.57817239e-01  4.57817239e-01  1.59768467e-07  1.63446540e-07  2.60000000e-01 
 2.70000000e-01  4.57817186e-01  3.43269014e-09  4.57817186e-01  4.57817186e-01  3.42777254e-09  4.57817186e-01  4.57817186e-01  1.59768388e-07  1.63446073e-07  2.70000000e-01 
 2.80000000e-01  4.57817223e-01  3.43269014e-09  4.57817223e-01  4.57817223e-01  3.42777255e-09  4.57817223e-01  4.57817223e-01  1.59768447e-07  1.63446032e-07  2.80000000e-01 
 2.90000000e-01  4.57817236e-01  3.43269014e-09  4.57817236e-01  4.57817236e-01  3.42777255e-09  4.57817236e-01  4.57817236e-01  1.59768445e-07  1.63445971e-07  2.90000000e-01 
 3.00000000e-01  4.57817225e-01  3.43269014e-09  4.57817225e-01  4.57817225e-01  3.42777255e-09  4.57817225e-01  4.57817225e-01  1.59768431e-07  1.63445776e-07  3.00000000e-01 
 3.10000000e-01  4.57817224e-01  3.43269014e-09  4.57817224e-01  4.57817224e-01  3.42777255e-09  4.57817224e-01  4.57817224e-01  1.59768442e-07  1.63445602e-07  3.10000000e-01 
 3.20000000e-01  4.57817212e-01  3.43269014e-09  4.57817212e-01  4.57817211e-01  3.42777249e-09  4.57817212e-01  4.57817212e-01  1.59768431e-07  1.63445364e-07  3.20000000e-01 
 3.30000000e-01  4.57817226e-01  3.43269014e-09  4.57817226e-01  4.57817225e-01  3.42777255e-09  4.57817226e-01  4.57817226e-01  1.59768414e-07  1.63445268e-07  3.30000000e-01 
 3.40000000e-01  4.57817209e-01  3.43269014e-09  4.57817209e-01  4.57817209e-01  3.42777255e-09  4.57817209e-01  4.57817209e-01  1.59768411e-07  1.63445254e-07  3.40000000e-01 
 3.50000000e-01  4.57817245e-01  3.43269015e-09  4.57817245e-01  4.57817245e-01  3.42777255e-09  4.57817245e-01  4.57817245e-01  1.59768470e-07  1.63445087e-07  3.50000000e-01 
 3.60000000e-01  4.57817232e-01  3.43269014e-09  4.57817232e-01  4.57817232e-01  3.42777254e-09  4.57817233e-01  4.57817232e-01  1.59768452e-07  1.63444870e-07  3.60000000e-01 
 3.70000000e-01  4.57817238e-01  3.43269015e-09  4.57817238e-01  4.57817238e-01  3.42777250e-09  4.57817238e-01  4.57817238e-01  1.59768460e-07  1.63444827e-07  3.70000000e-01 
 3.80000000e-01  4.57817212e-01  3.43269014e-09  4.57817212e-01  4.57817212e-01  3.42777255e-09  4.57817212e-01  4.57817212e-01  1.59768407e-07  1.63444518e-07  3.80000000e-01 
 3.90000000e-01  4.57817227e-01  3.43269014e-09  4.57817227e-01  4.57817227e-01  3.42777255e-09  4.57817227e-01  4.57817227e-01  1.59768440e-07  1.63444462e-07  3.90000000e-01 
 4.00000000e-01  4.57817210e-01  3.43269020e-09  4.57817210e-01  4.57817210e-01  3.42777255e-09  4.57817210e-01  4.57817210e-01  1.59768427e-07  1.63444277e-07  4.00000000e-01 
 4.10000000e-01  4.57817225e-01  3.43269014e-09  4.57817225e-01  4.57817225e-01  3.42777255e-09  4.57817225e-01  4.57817225e-01  1.59768434e-07  1.63444270e-07  4.10000000e-01 
 4.20000000e-01  4.57817238e-01  3.43269015e-09  4.57817238e-01  4.57817238e-01  3.42777255e-09  4.57817238e-01  4.57817238e-01  1.59768461e-07  1.63444117e-07  4.20000000e-01 
 4.30000000e-01  4.57817214e-01  3.43269014e-09  4.57817214e-01  4.57817214e-01  3.42777255e-09  4.57817214e-01  4.57817214e-01  1.59768425e-07  1.63443730e-07  4.30000000e-01 
 4.40000000e-01  4.57817227e-01  3.43269014e-09  4.57817227e-01  4.57817226e-01  3.42777255e-09  4.57817227e-01  4.57817227e-01  1.59768448e-07  1.63443922e-07  4.40000000e-01 
 4.50000000e-01  4.57817196e-01  3.43269014e-09  4.57817196e-01  4.57817196e-01  3.42777254e-09  4.57817196e-01  4.57817196e-01  1.59768405e-07  1.63443627e-07  4.50000000e-01 
 4.60000000e-01  4.57817220e-01  3.43269014e-09  4.57817220e-01  4.57817220e-01  3.42777255e-09  4.57817220e-01  4.57817220e-01  1.59768436e-07  1.63443580e-07  4.60000000e-01 
 4.70000000e-01  4.57817219e-01  3.43269014e-09  4.57817219e-01  4.57817218e-01  3.42777255e-09  4.57817219e-01  4.57817219e-01  1.59768419e-07  1.63443417e-07  4.70000000e-01 
 4.80000000e-01  4.57817211e-01  3.43269014e-09  4.57817211e-01  4.57817211e-01  3.42777255e-09  4.57817211e-01  4.57817211e-01  1.59768418e-07  1.63443254e-07  4.80000000e-01 
 4.90000000e-01  4.57817210e-01  3.43269014e-09  4.57817210e-01  4.57817210e-01  3.42777255e-09  4.57817210e-01  4.57817210e-01  1.59768428e-07  1.63443204e-07  4.90000000e-01 
 5.00000000e-01  4.57817215e-01  3.43269014e-09  4.57817215e-01  4.57817215e-01  3.42777255e-09  4.57817215e-01  4.57817215e-01  1.59768433e-07  1.63442898e-07  5.00000000e-01 
 5.10000000e-01  4.57817251e-01  3.43269015e-09  4.57817251e-01  4.57817251e-01  3.42777255e-09  4.57817251e-01  4.57817251e-01  1.59768474e-07  1.63443083e-07  5.10000000e-01 
 5.20000000e-01  4.57817229e-01  3.43269014e-09  4.57817229e-01  4.57817229e-01  3.42777254e-09  4.57817229e-01  4.57817229e-01  1.59768434e-07  1.63442753e-07  5.20000000e-01 
 5.30000000e-01  4.57817214e-01  3.43269014e-09  4.57817214e-01  4.57817214e-01  3.42777255e-09  4.57817214e-01  4.57817214e-01  1.59768414e-07  1.63442632e-07  5.30000000e-01 
 5.40000000e-01  4.57817227e-01  3.43269014e-09  4.57817227e-01  4.57817227e-01  3.42777253e-09  4.57817227e-01  4.57817227e-01  1.59768440e-07  1.63442582e-07  5.40000000e-01 
 5.50000000e-01  4.57817206e-01  3.43269014e-09  4.57817206e-01  4.57817206e-01  3.42777255e-09  4.57817206e-01  4.57817206e-01  1.59768422e-07  1.63442422e-07  5.50000000e-01 
 5.60000000e-01  4.57817212e-01  3.43269014e-09  4.57817212e-01  4.57817212e-01  3.42777253e-09  4.57817212e-01  4.57817212e-01  1.59768422e-07  1.63442294e-07  5.60000000e-01 
 5.70000000e-01  4.57817234e-01  3.43269014e-09  4.57817234e-01  4.57817234e-01  3.42777255e-09  4.57817234e-01  4.57817234e-01  1.59768442e-07  1.63442277e-07  5.70000000e-01 
 5.80000000e-01  4.57817216e-01  3.43269014e-09  4.57817216e-01  4.57817215e-01  3.42777253e-09  4.57817216e-01  4.57817216e-01  1.59768430e-07  1.63442174e-07  5.80000000e-01 
 5.90000000e-01  4.57817225e-01  3.43269014e-09  4.57817225e-01  4.57817225e-01  3.42777250e-09  4.57817225e-01  4.57817225e-01  1.59768431e-07  1.63441975e-07  5.90000000e-01 
 6.00000000e-01  4.57817229e-01  3.43269014e-09  4.57817229e-01  4.57817229e-01  3.42777255e-09  4.57817229e-01  4.57817229e-01  1.59768439e-07  1.63441918e-07  6.00000000e-01 
 6.10000000e-01  4.57817204e-01  3.43269014e-09  4.57817204e-01  4.57817203e-01  3.42777254e-09  4.57817204e-01  4.57817204e-01  1.59768409e-07  1.63441669e-07  6.10000000e-01 
 6.20000000e-01  4.57817222e-01  3.43269014e-09  4.57817222e-01  4.57817222e-01  3.42777255e-09  4.57817222e-01  4.57817222e-01  1.59768434e-07  1.63441548e-07  6.20000000e-01 
 6.30000000e-01  4.57817217e-01  3.43269014e-09  4.57817217e-01  4.57817217e-01  3.42777255e-09  4.57817217e-01  4.57817217e-01  1.59768430e-07  1.63441527e-07  6.30000000e-01 
 6.40000000e-01  4.57817225e-01  3.43269014e-09  4.57817225e-01  4.57817225e-01  3.42777255e-09  4.57817225e-01  4.57817225e-01  1.59768433e-07  1.63441477e-07  6.40000000e-01 
 6.50000000e-01  4.57817232e-01  3.43269014e-09  4.57817232e-01  4.57817232e-01  3.42777255e-09  4.57817232e-01  4.57817232e-01  1.59768462e-07  1.63441257e-07  6.50000000e-01 
 6.60000000e-01  4.57817206e-01  3.43269014e-09  4.57817206e-01  4.57817206e-01  3.42777255e-09  4.57817206e-01  4.57817206e-01  1.59768417e-07  1.63440973e-07  6.60000000e-01 
 6.70000000e-01  4.57817208e-01  3.43269014e-09  4.57817208e-01  4.57817208e-01  3.42777255e-09  4.57817208e-01  4.57817208e-01  1.59768418e-07  1.63440980e-07  6.70000000e-01 
 6.80000000e-01  4.57817220e-01  3.43269014e-09  4.57817220e-01  4.57817220e-01  3.42777255e-09  4.57817220e-01  4.57817220e-01  1.59768431e-07  1.63440973e-07  6.80000000e-01 
 6.90000000e-01  4.57817226e-01  3.43269014e-09  4.57817226e-01  4.57817226e-01  3.42777255e-09  4.57817226e-01  4.57817226e-01  1.59768446e-07  1.63440774e-07  6.90000000e-01 
 7.00000000e-01  4.57817219e-01  3.43269014e-09  4.57817219e-01  4.57817218e-01  3.42777255e-09  4.57817219e-01  4.57817219e-01  1.59768431e-07  1.63440482e-07  7.00000000e-01 
 7.10000000e-01  4.57817201e-01  3.43269014e-09  4.57817201e-01  4.57817201e-01  3.42777254e-09  4.57817201e-01  4.57817201e-01  1.59768391e-07  1.63440497e-07  7.10000000e-01 
 7.20000000e-01  4.57817228e-01  3.43269014e-09  4.57817228e-01  4.57817228e-01  3.42777255e-09  4.57817228e-01  4.57817228e-01  1.59768437e-07  1.63440461e-07  7.20000000e-01 
 7.30000000e-01  4.57817204e-01  3.43269014e-09  4.57817204e-01  4.57817204e-01  3.42777255e-09  4.57817204e-01  4.57817204e-01  1.59768415e-07  1.63440141e-07  7.30000000e-01 
 7.40000000e-01  4.57817215e-01  3.43269014e-09  4.57817215e-01  4.57817214e-01  3.42777255e-09  4.57817215e-01  4.57817215e-01  1.59768431e-07  1.63440120e-07  7.40000000e-01 
 7.50000000e-01  4.57817211e-01  3.43269014e-09  4.57817211e-01  4.57817211e-01  3.42777255e-09  4.57817211e-01  4.57817211e-01  1.59768421e-07  1.63439950e-07  7.50000000e-01 
 7.60000000e-01  4.57817225e-01  3.43269014e-09  4.57817225e-01  4.57817225e-01  3.42777255e-09  4.57817225e-01  4.57817225e-01  1.59768426e-07  1.63439907e-07  7.60000000e-01 
 7.70000000e-01  4.57817214e-01  3.43269014e-09  4.57817214e-01  4.57817214e-01  3.42777255e-09  4.57817214e-01  4.57817214e-01  1.59768424e-07  1.63439843e-07  7.70000000e-01 
 7.80000000e-01  4.57817235e-01  3.43269014e-09  4.57817235e-01  4.57817235e-01  3.42777255e-09  4.57817235e-01  4.57817235e-01  1.59768462e-07  1.63439744e-07  7.80000000e-01 
 7.90000000e-01  4.57817243e-01  3.43269015e-09  4.57817243e-01  4.57817243e-01  3.42777255e-09  4.57817243e-01  4.57817243e-01  1.59768468e-07  1.63439573e-07  7.90000000e-01 
 8.00000000e-01  4.57817194e-01  3.43269014e-09  4.57817194e-01  4.57817194e-01  3.42777253e-09  4.57817194e-01  4.57817194e-01  1.59768409e-07  1.63439189e-07  8.00000000e-01 
 8.10000000e-01  4.57817224e-01  3.43269014e-09  4.57817224e-01  4.57817224e-01  3.42777255e-09  4.57817224e-01  4.57817224e-01  1.59768438e-07  1.63439218e-07  8.10000000e-01 
 8.20000000e-01  4.57817216e-01  3.43269014e-09  4.57817216e-01  4.57817216e-01  3.42777253e-09  4.57817216e-01  4.57817216e-01  1.59768427e-07  1.63439118e-07  8.20000000e-01 
 8.30000000e-01  4.57817212e-01  3.43269014e-09  4.57817212e-01  4.57817212e-01  3.42777255e-09  4.57817212e-01  4.57817212e-01  1.59768409e-07  1.63438948e-07  8.30000000e-01 
 8.40000000e-01  4.57817235e-01  3.43269014e-09  4.57817235e-01  4.57817235e-01  3.42777254e-09  4.57817235e-01  4.57817235e-01  1.59768451e-07  1.63438877e-07  8.40000000e-01 
 8.50000000e-01  4.57817233e-01  3.43269014e-09  4.57817233e-01  4.57817233e-01  3.42777255e-09  4.57817233e-01  4.57817233e-01  1.59768460e-07  1.63438749e-07  8.50000000e-01 
 8.60000000e-01  4.57817228e-01  3.43269014e-09  4.57817228e-01  4.57817228e-01  3.42777253e-09  4.57817228e-01  4.57817228e-01  1.59768446e-07  1.63438663e-07  8.60000000e-01 
 8.70000000e-01  4.57817204e-01  3.43269014e-09  4.57817204e-01  4.57817204e-01  3.42777249e-09  4.57817204e-01  4.57817204e-01  1.59768399e-07  1.63438358e-07  8.70000000e-01 
 8.80000000e-01  4.57817208e-01  3.43269014e-09  4.57817208e-01  4.57817208e-01  3.42777255e-09  4.57817208e-01  4.57817208e-01  1.59768427e-07  1.63438294e-07  8.80000000e-01 
 8.90000000e-01  4.57817216e-01  3.43269014e-09  4.57817216e-01  4.57817216e-01  3.42777255e-09  4.57817216e-01  4.57817216e-01  1.59768412e-07  1.63438223e-07  8.90000000e-01 
 9.00000000e-01  4.57817237e-01  3.43269014e-09  4.57817237e-01  4.57817237e-01  3.42777255e-09  4.57817237e-01  4.57817237e-01  1.59768462e-07  1.63438131e-07  9.00000000e-01 
 9.10000000e-01  4.57817196e-01  3.43269014e-09  4.57817196e-01  4.57817196e-01  3.42777254e-09  4.57817196e-01  4.57817196e-01  1.59768387e-07  1.63437882e-07  9.10000000e-01 
 9.20000000e-01  4.57817234e-01  3.43269014e-09  4.57817234e-01  4.57817234e-01  3.42777255e-09  4.57817234e-01  4.57817234e-01  1.59768451e-07  1.63437825e-07  9.20000000e-01 
 9.30000000e-01  4.57817243e-01  3.43269015e-09  4.57817243e-01  4.57817243e-01  3.42777255e-09  4.57817243e-01  4.57817243e-01  1.59768467e-07  1.63437768e-07  9.30000000e-01 
 9.40000000e-01  4.57817219e-01  3.43269020e-09  4.57817219e-01  4.57817219e-01  3.42777253e-09  4.57817219e-01  4.57817219e-01  1.59768431e-07  1.63437498e-07  9.40000000e-01 
 9.50000000e-01  4.57817223e-01  3.43269014e-09  4.57817223e-01  4.57817223e-01  3.42777255e-09  4.57817224e-01  4.57817223e-01  1.59768434e-07  1.63437370e-07  9.50000000e-01 
 9.60000000e-01  4.57817197e-01  3.43269014e-09  4.57817197e-01  4.57817197e-01  3.42777253e-09  4.57817197e-01  4.57817197e-01  1.59768400e-07  1.63437136e-07  9.60000000e-01 
 9.70000000e-01  4.57817214e-01  3.43269014e-09  4.57817214e-01  4.57817214e-01  3.42777255e-09  4.57817214e-01  4.57817214e-01  1.59768429e-07  1.63437015e-07  9.70000000e-01 
 9.80000000e-01  4.57817225e-01  3.43269014e-09  4.57817225e-01  4.57817225e-01  3.42777253e-09  4.57817225e-01  4.57817225e-01  1.59768466e-07  1.63436908e-07  9.80000000e-01 
 9.90000000e-01  4.57817214e-01  3.43269014e-09  4.57817214e-01  4.57817214e-01  3.42777255e-09  4.57817214e-01  4.57817214e-01  1.59768422e-07  1.63436845e-07  9.90000000e-01 
 1.00000000e+00  4.57817220e-01  3.43269014e-09  4.57817220e-01  4.57817220e-01  3.42777253e-09  4.57817220e-01  4.57817220e-01  1.59768439e-07  1.63436638e-07  1.00000000e+00 
 1.01000000e+00  4.57817219e-01  3.43269014e-09  4.57817219e-01  4.57817219e-01  3.42777255e-09  4.57817219e-01  4.57817219e-01  1.59768434e-07  1.63436383e-07  1.01000000e+00 
 1.02000000e+00  4.57817221e-01  3.43269014e-09  4.57817221e-01  4.57817221e-01  3.42777253e-09  4.57817221e-01  4.57817221e-01  1.59768443e-07  1.63436340e-07  1.02000000e+00 
 1.03000000e+00  4.57817223e-01  3.43269014e-09  4.57817223e-01  4.57817223e-01  3.42777255e-09  4.57817223e-01  4.57817223e-01  1.59768443e-07  1.63436283e-07  1.03000000e+00 
 1.04000000e+00  4.57817223e-01  3.43269014e-09  4.57817223e-01  4.57817223e-01  3.42777253e-09  4.57817223e-01  4.57817223e-01  1.59768440e-07  1.63435985e-07  1.04000000e+00 
 1.05000000e+00  4.57817234e-01  3.43269014e-09  4.57817234e-01  4.57817234e-01  3.42777255e-09  4.57817234e-01  4.57817234e-01  1.59768451e-07  1.63435942e-07  1.05000000e+00 
 1.06000000e+00  4.57817215e-01  3.43269014e-09  4.57817215e-01  4.57817215e-01  3.42777253e-09  4.57817215e-01  4.57817215e-01  1.59768428e-07  1.63435665e-07  1.06000000e+00 
 1.07000000e+00  4.57817213e-01  3.43269014e-09  4.57817213e-01  4.57817213e-01  3.42777255e-09  4.57817213e-01  4.57817213e-01  1.59768420e-07  1.63435544e-07  1.07000000e+00 
 1.08000000e+00  4.57817229e-01  3.43269014e-09  4.57817229e-01  4.57817229e-01  3.42777254e-09  4.57817229e-01  4.57817229e-01  1.59768435e-07  1.63435423e-07  1.08000000e+00 
 1.09000000e+00  4.57817216e-01  3.43269014e-09  4.57817216e-01  4.57817216e-01  3.42777255e-09  4.57817216e-01  4.57817216e-01  1.59768430e-07  1.63435189e-07  1.09000000e+00 
 1.10000000e+00  4.57817217e-01  3.43269014e-09  4.57817217e-01  4.57817217e-01  3.42777253e-09  4.57817217e-01  4.57817217e-01  1.59768429e-07  1.63435175e-07  1.10000000e+00 
