 v-sweep         v(b0)           v(b1)           v(b2)           v(b3)           v(b4)           v(b5)           v(b6)           i(vbias)        i(viout)        v(vout)        
 0.00000000e+00  4.59002414e-01  3.17818921e-09  3.23073594e-09  4.59002414e-01  4.59002414e-01  4.59002414e-01  3.35562234e-09  1.61432483e-07  9.22759512e-08  0.00000000e+00 
 1.00000000e-02  4.59002412e-01  3.17818924e-09  3.23073592e-09  4.59002412e-01  4.59002412e-01  4.59002412e-01  3.35562236e-09  1.61432477e-07  9.22755353e-08  1.00000000e-02 
 2.00000000e-02  4.59002418e-01  3.17818918e-09  3.23073592e-09  4.59002418e-01  4.59002418e-01  4.59002418e-01  3.35562236e-09  1.61432474e-07  9.22751713e-08  2.00000000e-02 
 3.00000000e-02  4.59002423e-01  3.17818918e-09  3.23073597e-09  4.59002423e-01  4.59002423e-01  4.59002423e-01  3.35562236e-09  1.61432497e-07  9.22747729e-08  3.00000000e-02 
 4.00000000e-02  4.59002430e-01  3.17818924e-09  3.23073596e-09  4.59002430e-01  4.59002430e-01  4.59002430e-01  3.35562231e-09  1.61432498e-07  9.22744241e-08  4.00000000e-02 
 5.00000000e-02  4.59002411e-01  3.17818924e-09  3.23073598e-09  4.59002411e-01  4.59002411e-01  4.59002411e-01  3.35562236e-09  1.61432479e-07  9.22740044e-08  5.00000000e-02 
 6.00000000e-02  4.59002410e-01  3.17818918e-09  3.23073596e-09  4.59002410e-01  4.59002410e-01  4.59002410e-01  3.35562231e-09  1.61432465e-07  9.22737362e-08  6.00000000e-02 
 7.00000000e-02  4.59002414e-01  3.17818924e-09  3.23073598e-09  4.59002414e-01  4.59002414e-01  4.59002414e-01  3.35562231e-09  1.61432490e-07  9.22733849e-08  7.00000000e-02 
 8.00000000e-02  4.59002409e-01  3.17818924e-09  3.23073596e-09  4.59002409e-01  4.59002409e-01  4.59002409e-01  3.35562236e-09  1.61432469e-07  9.22730656e-08  8.00000000e-02 
 9.00000000e-02  4.59002423e-01  3.17818918e-09  3.23073592e-09  4.59002423e-01  4.59002423e-01  4.59002423e-01  3.35562236e-09  1.61432479e-07  9.22728027e-08  9.00000000e-02 
 1.00000000e-01  4.59002425e-01  3.17818924e-09  3.23073597e-09  4.59002425e-01  4.59002425e-01  4.59002425e-01  3.35562236e-09  1.61432497e-07  9.22725718e-08  1.00000000e-01 
 1.10000000e-01  4.59002413e-01  3.17818918e-09  3.23073596e-09  4.59002413e-01  4.59002413e-01  4.59002413e-01  3.35562231e-09  1.61432482e-07  9.22723142e-08  1.10000000e-01 
 1.20000000e-01  4.59002416e-01  3.17818918e-09  3.23073598e-09  4.59002416e-01  4.59002416e-01  4.59002416e-01  3.35562231e-09  1.61432487e-07  9.22719847e-08  1.20000000e-01 
 1.30000000e-01  4.59002416e-01  3.17818924e-09  3.23073596e-09  4.59002416e-01  4.59002416e-01  4.59002416e-01  3.35562231e-09  1.61432493e-07  9.22717733e-08  1.30000000e-01 
 1.40000000e-01  4.59002418e-01  3.17818918e-09  3.23073592e-09  4.59002418e-01  4.59002418e-01  4.59002418e-01  3.35562236e-09  1.61432489e-07  9.22716454e-08  1.40000000e-01 
 1.50000000e-01  4.59002421e-01  3.17818918e-09  3.23073597e-09  4.59002421e-01  4.59002421e-01  4.59002421e-01  3.35562231e-09  1.61432478e-07  9.22713088e-08  1.50000000e-01 
 1.60000000e-01  4.59002421e-01  3.17818924e-09  3.23073596e-09  4.59002420e-01  4.59002420e-01  4.59002420e-01  3.35562236e-09  1.61432483e-07  9.22711560e-08  1.60000000e-01 
 1.70000000e-01  4.59002409e-01  3.17818924e-09  3.23073592e-09  4.59002409e-01  4.59002409e-01  4.59002409e-01  3.35562236e-09  1.61432479e-07  9.22709464e-08  1.70000000e-01 
 1.80000000e-01  4.59002429e-01  3.17818918e-09  3.23073597e-09  4.59002429e-01  4.59002429e-01  4.59002429e-01  3.35562236e-09  1.61432503e-07  9.22708061e-08  1.80000000e-01 
 1.90000000e-01  4.59002416e-01  3.17818924e-09  3.23073596e-09  4.59002416e-01  4.59002416e-01  4.59002416e-01  3.35562231e-09  1.61432482e-07  9.22704988e-08  1.90000000e-01 
 2.00000000e-01  4.59002430e-01  3.17818918e-09  3.23073598e-09  4.59002430e-01  4.59002430e-01  4.59002430e-01  3.35562231e-09  1.61432504e-07  9.22704189e-08  2.00000000e-01 
 2.10000000e-01  4.59002409e-01  3.17818918e-09  3.23073596e-09  4.59002409e-01  4.59002409e-01  4.59002409e-01  3.35562236e-09  1.61432487e-07  9.22701968e-08  2.10000000e-01 
 2.20000000e-01  4.59002432e-01  3.17818924e-09  3.23073592e-09  4.59002432e-01  4.59002432e-01  4.59002432e-01  3.35562231e-09  1.61432505e-07  9.22700760e-08  2.20000000e-01 
 2.30000000e-01  4.59002429e-01  3.17818918e-09  3.23073597e-09  4.59002428e-01  4.59002429e-01  4.59002429e-01  3.35562231e-09  1.61432498e-07  9.22699037e-08  2.30000000e-01 
 2.40000000e-01  4.59002417e-01  3.17818924e-09  3.23073596e-09  4.59002417e-01  4.59002417e-01  4.59002417e-01  3.35562236e-09  1.61432502e-07  9.22698078e-08  2.40000000e-01 
 2.50000000e-01  4.59002421e-01  3.17818924e-09  3.23073598e-09  4.59002421e-01  4.59002421e-01  4.59002421e-01  3.35562231e-09  1.61432498e-07  9.22696728e-08  2.50000000e-01 
 2.60000000e-01  4.59002431e-01  3.17818924e-09  3.23073596e-09  4.59002431e-01  4.59002431e-01  4.59002431e-01  3.35562236e-09  1.61432512e-07  9.22695271e-08  2.60000000e-01 
 2.70000000e-01  4.59002419e-01  3.17818924e-09  3.23073592e-09  4.59002419e-01  4.59002419e-01  4.59002419e-01  3.35562231e-09  1.61432475e-07  9.22693957e-08  2.70000000e-01 
 2.80000000e-01  4.59002413e-01  3.17818924e-09  3.23073597e-09  4.59002413e-01  4.59002413e-01  4.59002413e-01  3.35562231e-09  1.61432475e-07  9.22692074e-08  2.80000000e-01 
 2.90000000e-01  4.59002419e-01  3.17818924e-09  3.23073596e-09  4.59002419e-01  4.59002419e-01  4.59002419e-01  3.35562231e-09  1.61432482e-07  9.22691648e-08  2.90000000e-01 
 3.00000000e-01  4.59002402e-01  3.17818918e-09  3.23073598e-09  4.59002402e-01  4.59002402e-01  4.59002402e-01  3.35562236e-09  1.61432462e-07  9.22690191e-08  3.00000000e-01 
 3.10000000e-01  4.59002410e-01  3.17818924e-09  3.23073596e-09  4.59002410e-01  4.59002410e-01  4.59002410e-01  3.35562231e-09  1.61432478e-07  9.22688805e-08  3.10000000e-01 
 3.20000000e-01  4.59002416e-01  3.17818924e-09  3.23073598e-09  4.59002416e-01  4.59002416e-01  4.59002416e-01  3.35562236e-09  1.61432486e-07  9.22687562e-08  3.20000000e-01 
 3.30000000e-01  4.59002409e-01  3.17818918e-09  3.23073596e-09  4.59002409e-01  4.59002409e-01  4.59002409e-01  3.35562236e-09  1.61432474e-07  9.22686354e-08  3.30000000e-01 
 3.40000000e-01  4.59002413e-01  3.17818924e-09  3.23073598e-09  4.59002413e-01  4.59002413e-01  4.59002413e-01  3.35562236e-09  1.61432468e-07  9.22685359e-08  3.40000000e-01 
 3.50000000e-01  4.59002415e-01  3.17818918e-09  3.23073596e-09  4.59002415e-01  4.59002415e-01  4.59002415e-01  3.35562231e-09  1.61432486e-07  9.22684578e-08  3.50000000e-01 
 3.60000000e-01  4.59002394e-01  3.17818924e-09  3.23073598e-09  4.59002394e-01  4.59002394e-01  4.59002394e-01  3.35562231e-09  1.61432446e-07  9.22682908e-08  3.60000000e-01 
 3.70000000e-01  4.59002415e-01  3.17818918e-09  3.23073596e-09  4.59002415e-01  4.59002415e-01  4.59002415e-01  3.35562231e-09  1.61432479e-07  9.22682624e-08  3.70000000e-01 
 3.80000000e-01  4.59002405e-01  3.17818924e-09  3.23073592e-09  4.59002405e-01  4.59002405e-01  4.59002405e-01  3.35562236e-09  1.61432463e-07  9.22681664e-08  3.80000000e-01 
 3.90000000e-01  4.59002441e-01  3.17818918e-09  3.23073597e-09  4.59002441e-01  4.59002441e-01  4.59002441e-01  3.35562231e-09  1.61432513e-07  9.22681309e-08  3.90000000e-01 
 4.00000000e-01  4.59002398e-01  3.17818924e-09  3.23073596e-09  4.59002398e-01  4.59002398e-01  4.59002398e-01  3.35562236e-09  1.61432445e-07  9.22679604e-08  4.00000000e-01 
 4.10000000e-01  4.59002429e-01  3.17818924e-09  3.23073592e-09  4.59002429e-01  4.59002429e-01  4.59002429e-01  3.35562231e-09  1.61432505e-07  9.22678929e-08  4.10000000e-01 
 4.20000000e-01  4.59002417e-01  3.17818924e-09  3.23073597e-09  4.59002417e-01  4.59002417e-01  4.59002417e-01  3.35562236e-09  1.61432474e-07  9.22679320e-08  4.20000000e-01 
 4.30000000e-01  4.59002416e-01  3.17818918e-09  3.23073596e-09  4.59002416e-01  4.59002416e-01  4.59002416e-01  3.35562236e-09  1.61432492e-07  9.22676797e-08  4.30000000e-01 
 4.40000000e-01  4.59002438e-01  3.17818924e-09  3.23073598e-09  4.59002438e-01  4.59002438e-01  4.59002438e-01  3.35562236e-09  1.61432523e-07  9.22678041e-08  4.40000000e-01 
 4.50000000e-01  4.59002430e-01  3.17818924e-09  3.23073596e-09  4.59002430e-01  4.59002430e-01  4.59002430e-01  3.35562236e-09  1.61432504e-07  9.22675696e-08  4.50000000e-01 
 4.60000000e-01  4.59002418e-01  3.17818918e-09  3.23073598e-09  4.59002418e-01  4.59002418e-01  4.59002418e-01  3.35562231e-09  1.61432494e-07  9.22675341e-08  4.60000000e-01 
 4.70000000e-01  4.59002409e-01  3.17818924e-09  3.23073596e-09  4.59002409e-01  4.59002409e-01  4.59002409e-01  3.35562236e-09  1.61432466e-07  9.22675021e-08  4.70000000e-01 
 4.80000000e-01  4.59002408e-01  3.17818924e-09  3.23073598e-09  4.59002407e-01  4.59002407e-01  4.59002407e-01  3.35562236e-09  1.61432466e-07  9.22673742e-08  4.80000000e-01 
 4.90000000e-01  4.59002421e-01  3.17818924e-09  3.23073596e-09  4.59002421e-01  4.59002421e-01  4.59002421e-01  3.35562236e-09  1.61432496e-07  9.22672356e-08  4.90000000e-01 
 5.00000000e-01  4.59002407e-01  3.17818918e-09  3.23073598e-09  4.59002407e-01  4.59002407e-01  4.59002407e-01  3.35562236e-09  1.61432466e-07  9.22671468e-08  5.00000000e-01 
 5.10000000e-01  4.59002415e-01  3.17818918e-09  3.23073596e-09  4.59002415e-01  4.59002415e-01  4.59002415e-01  3.35562231e-09  1.61432487e-07  9.22670935e-08  5.10000000e-01 
 5.20000000e-01  4.59002398e-01  3.17818918e-09  3.23073598e-09  4.59002398e-01  4.59002398e-01  4.59002398e-01  3.35562231e-09  1.61432458e-07  9.22671006e-08  5.20000000e-01 
 5.30000000e-01  4.59002422e-01  3.17818918e-09  3.23073596e-09  4.59002422e-01  4.59002422e-01  4.59002422e-01  3.35562231e-09  1.61432498e-07  9.22669408e-08  5.30000000e-01 
 5.40000000e-01  4.59002416e-01  3.17818924e-09  3.23073598e-09  4.59002416e-01  4.59002416e-01  4.59002416e-01  3.35562236e-09  1.61432485e-07  9.22669408e-08  5.40000000e-01 
 5.50000000e-01  4.59002392e-01  3.17818918e-09  3.23073596e-09  4.59002392e-01  4.59002392e-01  4.59002392e-01  3.35562231e-09  1.61432441e-07  9.22667489e-08  5.50000000e-01 
 5.60000000e-01  4.59002416e-01  3.17818924e-09  3.23073598e-09  4.59002416e-01  4.59002416e-01  4.59002416e-01  3.35562231e-09  1.61432487e-07  9.22668129e-08  5.60000000e-01 
 5.70000000e-01  4.59002426e-01  3.17818918e-09  3.23073596e-09  4.59002426e-01  4.59002426e-01  4.59002426e-01  3.35562231e-09  1.61432500e-07  9.22667240e-08  5.70000000e-01 
 5.80000000e-01  4.59002403e-01  3.17818924e-09  3.23073598e-09  4.59002402e-01  4.59002403e-01  4.59002402e-01  3.35562231e-09  1.61432474e-07  9.22665748e-08  5.80000000e-01 
 5.90000000e-01  4.59002424e-01  3.17818924e-09  3.23073596e-09  4.59002424e-01  4.59002424e-01  4.59002424e-01  3.35562231e-09  1.61432493e-07  9.22665109e-08  5.90000000e-01 
 6.00000000e-01  4.59002420e-01  3.17818924e-09  3.23073598e-09  4.59002420e-01  4.59002420e-01  4.59002420e-01  3.35562231e-09  1.61432493e-07  9.22664967e-08  6.00000000e-01 
 6.10000000e-01  4.59002415e-01  3.17818924e-09  3.23073596e-09  4.59002415e-01  4.59002415e-01  4.59002415e-01  3.35562236e-09  1.61432476e-07  9.22664753e-08  6.10000000e-01 
 6.20000000e-01  4.59002410e-01  3.17818924e-09  3.23073592e-09  4.59002410e-01  4.59002410e-01  4.59002410e-01  3.35562236e-09  1.61432486e-07  9.22662977e-08  6.20000000e-01 
 6.30000000e-01  4.59002413e-01  3.17818918e-09  3.23073597e-09  4.59002413e-01  4.59002413e-01  4.59002413e-01  3.35562236e-09  1.61432482e-07  9.22663261e-08  6.30000000e-01 
 6.40000000e-01  4.59002432e-01  3.17818924e-09  3.23073596e-09  4.59002432e-01  4.59002432e-01  4.59002432e-01  3.35562231e-09  1.61432500e-07  9.22661698e-08  6.40000000e-01 
 6.50000000e-01  4.59002417e-01  3.17818924e-09  3.23073598e-09  4.59002417e-01  4.59002417e-01  4.59002417e-01  3.35562231e-09  1.61432489e-07  9.22660348e-08  6.50000000e-01 
 6.60000000e-01  4.59002411e-01  3.17818918e-09  3.23073596e-09  4.59002411e-01  4.59002411e-01  4.59002411e-01  3.35562231e-09  1.61432467e-07  9.22659424e-08  6.60000000e-01 
 6.70000000e-01  4.59002422e-01  3.17818918e-09  3.23073598e-09  4.59002422e-01  4.59002422e-01  4.59002422e-01  3.35562236e-09  1.61432482e-07  9.22658572e-08  6.70000000e-01 
 6.80000000e-01  4.59002405e-01  3.17818924e-09  3.23073596e-09  4.59002404e-01  4.59002405e-01  4.59002404e-01  3.35562236e-09  1.61432475e-07  9.22658145e-08  6.80000000e-01 
 6.90000000e-01  4.59002407e-01  3.17818918e-09  3.23073598e-09  4.59002407e-01  4.59002407e-01  4.59002407e-01  3.35562236e-09  1.61432465e-07  9.22659567e-08  6.90000000e-01 
 7.00000000e-01  4.59002424e-01  3.17818924e-09  3.23073596e-09  4.59002424e-01  4.59002424e-01  4.59002424e-01  3.35562231e-09  1.61432483e-07  9.22657648e-08  7.00000000e-01 
 7.10000000e-01  4.59002423e-01  3.17818924e-09  3.23073592e-09  4.59002423e-01  4.59002423e-01  4.59002423e-01  3.35562236e-09  1.61432493e-07  9.22657009e-08  7.10000000e-01 
 7.20000000e-01  4.59002420e-01  3.17818924e-09  3.23073597e-09  4.59002420e-01  4.59002420e-01  4.59002420e-01  3.35562236e-09  1.61432494e-07  9.22656511e-08  7.20000000e-01 
 7.30000000e-01  4.59002411e-01  3.17818918e-09  3.23073596e-09  4.59002411e-01  4.59002411e-01  4.59002411e-01  3.35562231e-09  1.61432471e-07  9.22654735e-08  7.30000000e-01 
 7.40000000e-01  4.59002414e-01  3.17818918e-09  3.23073598e-09  4.59002414e-01  4.59002414e-01  4.59002414e-01  3.35562236e-09  1.61432482e-07  9.22654877e-08  7.40000000e-01 
 7.50000000e-01  4.59002419e-01  3.17818924e-09  3.23073596e-09  4.59002419e-01  4.59002419e-01  4.59002419e-01  3.35562231e-09  1.61432494e-07  9.22653740e-08  7.50000000e-01 
 7.60000000e-01  4.59002395e-01  3.17818918e-09  3.23073598e-09  4.59002395e-01  4.59002395e-01  4.59002395e-01  3.35562231e-09  1.61432459e-07  9.22652248e-08  7.60000000e-01 
 7.70000000e-01  4.59002414e-01  3.17818924e-09  3.23073596e-09  4.59002414e-01  4.59002414e-01  4.59002414e-01  3.35562231e-09  1.61432483e-07  9.22651964e-08  7.70000000e-01 
 7.80000000e-01  4.59002421e-01  3.17818918e-09  3.23073598e-09  4.59002421e-01  4.59002421e-01  4.59002421e-01  3.35562231e-09  1.61432502e-07  9.22652248e-08  7.80000000e-01 
 7.90000000e-01  4.59002404e-01  3.17818918e-09  3.23073596e-09  4.59002404e-01  4.59002404e-01  4.59002404e-01  3.35562236e-09  1.61432462e-07  9.22650614e-08  7.90000000e-01 
 8.00000000e-01  4.59002389e-01  3.17818924e-09  3.23073598e-09  4.59002389e-01  4.59002389e-01  4.59002389e-01  3.35562236e-09  1.61432436e-07  9.22648837e-08  8.00000000e-01 
 8.10000000e-01  4.59002407e-01  3.17818924e-09  3.23073596e-09  4.59002407e-01  4.59002407e-01  4.59002407e-01  3.35562236e-09  1.61432466e-07  9.22648411e-08  8.10000000e-01 
 8.20000000e-01  4.59002406e-01  3.17818918e-09  3.23073592e-09  4.59002406e-01  4.59002406e-01  4.59002406e-01  3.35562231e-09  1.61432484e-07  9.22648695e-08  8.20000000e-01 
 8.30000000e-01  4.59002404e-01  3.17818918e-09  3.23073597e-09  4.59002404e-01  4.59002404e-01  4.59002404e-01  3.35562236e-09  1.61432467e-07  9.22648340e-08  8.30000000e-01 
 8.40000000e-01  4.59002389e-01  3.17818918e-09  3.23073596e-09  4.59002389e-01  4.59002389e-01  4.59002389e-01  3.35562236e-09  1.61432444e-07  9.22646706e-08  8.40000000e-01 
 8.50000000e-01  4.59002429e-01  3.17818918e-09  3.23073598e-09  4.59002429e-01  4.59002429e-01  4.59002429e-01  3.35562236e-09  1.61432521e-07  9.22646919e-08  8.50000000e-01 
 8.60000000e-01  4.59002413e-01  3.17818918e-09  3.23073596e-09  4.59002413e-01  4.59002413e-01  4.59002413e-01  3.35562236e-09  1.61432490e-07  9.22646066e-08  8.60000000e-01 
 8.70000000e-01  4.59002421e-01  3.17818918e-09  3.23073598e-09  4.59002421e-01  4.59002421e-01  4.59002421e-01  3.35562231e-09  1.61432482e-07  9.22644716e-08  8.70000000e-01 
 8.80000000e-01  4.59002432e-01  3.17818924e-09  3.23073596e-09  4.59002432e-01  4.59002432e-01  4.59002432e-01  3.35562236e-09  1.61432508e-07  9.22644858e-08  8.80000000e-01 
 8.90000000e-01  4.59002424e-01  3.17818918e-09  3.23073598e-09  4.59002424e-01  4.59002424e-01  4.59002424e-01  3.35562236e-09  1.61432508e-07  9.22644361e-08  8.90000000e-01 
 9.00000000e-01  4.59002419e-01  3.17818924e-09  3.23073596e-09  4.59002418e-01  4.59002418e-01  4.59002418e-01  3.35562236e-09  1.61432480e-07  9.22643721e-08  9.00000000e-01 
 9.10000000e-01  4.59002392e-01  3.17818918e-09  3.23073592e-09  4.59002392e-01  4.59002392e-01  4.59002392e-01  3.35562231e-09  1.61432449e-07  9.22640879e-08  9.10000000e-01 
 9.20000000e-01  4.59002425e-01  3.17818924e-09  3.23073597e-09  4.59002424e-01  4.59002425e-01  4.59002424e-01  3.35562236e-09  1.61432499e-07  9.22641590e-08  9.20000000e-01 
 9.30000000e-01  4.59002408e-01  3.17818924e-09  3.23073596e-09  4.59002408e-01  4.59002408e-01  4.59002408e-01  3.35562231e-09  1.61432484e-07  9.22640098e-08  9.30000000e-01 
 9.40000000e-01  4.59002424e-01  3.17818924e-09  3.23073592e-09  4.59002424e-01  4.59002424e-01  4.59002424e-01  3.35562231e-09  1.61432500e-07  9.22640098e-08  9.40000000e-01 
 9.50000000e-01  4.59002410e-01  3.17818924e-09  3.23073597e-09  4.59002410e-01  4.59002410e-01  4.59002410e-01  3.35562236e-09  1.61432485e-07  9.22639316e-08  9.50000000e-01 
 9.60000000e-01  4.59002395e-01  3.17818918e-09  3.23073596e-09  4.59002395e-01  4.59002395e-01  4.59002395e-01  3.35562231e-09  1.61432448e-07  9.22637469e-08  9.60000000e-01 
 9.70000000e-01  4.59002424e-01  3.17818918e-09  3.23073598e-09  4.59002424e-01  4.59002424e-01  4.59002424e-01  3.35562231e-09  1.61432480e-07  9.22638108e-08  9.70000000e-01 
 9.80000000e-01  4.59002397e-01  3.17818924e-09  3.23073596e-09  4.59002397e-01  4.59002397e-01  4.59002397e-01  3.35562231e-09  1.61432451e-07  9.22636616e-08  9.80000000e-01 
 9.90000000e-01  4.59002395e-01  3.17818918e-09  3.23073592e-09  4.59002395e-01  4.59002395e-01  4.59002395e-01  3.35562236e-09  1.61432455e-07  9.22635195e-08  9.90000000e-01 
 1.00000000e+00  4.59002421e-01  3.17818918e-09  3.23073597e-09  4.59002421e-01  4.59002421e-01  4.59002421e-01  3.35562236e-09  1.61432495e-07  9.22635621e-08  1.00000000e+00 
 1.01000000e+00  4.59002421e-01  3.17818924e-09  3.23073596e-09  4.59002421e-01  4.59002421e-01  4.59002421e-01  3.35562231e-09  1.61432505e-07  9.22634413e-08  1.01000000e+00 
 1.02000000e+00  4.59002397e-01  3.17818918e-09  3.23073598e-09  4.59002397e-01  4.59002397e-01  4.59002397e-01  3.35562231e-09  1.61432455e-07  9.22632850e-08  1.02000000e+00 
 1.03000000e+00  4.59002409e-01  3.17818918e-09  3.23073596e-09  4.59002409e-01  4.59002409e-01  4.59002409e-01  3.35562231e-09  1.61432476e-07  9.22632992e-08  1.03000000e+00 
 1.04000000e+00  4.59002420e-01  3.17818924e-09  3.23073598e-09  4.59002420e-01  4.59002420e-01  4.59002420e-01  3.35562231e-09  1.61432482e-07  9.22630861e-08  1.04000000e+00 
 1.05000000e+00  4.59002429e-01  3.17818918e-09  3.23073596e-09  4.59002429e-01  4.59002429e-01  4.59002429e-01  3.35562231e-09  1.61432525e-07  9.22631074e-08  1.05000000e+00 
 1.06000000e+00  4.59002426e-01  3.17818924e-09  3.23073592e-09  4.59002426e-01  4.59002426e-01  4.59002426e-01  3.35562231e-09  1.61432499e-07  9.22630861e-08  1.06000000e+00 
 1.07000000e+00  4.59002411e-01  3.17818924e-09  3.23073597e-09  4.59002411e-01  4.59002411e-01  4.59002411e-01  3.35562236e-09  1.61432479e-07  9.22629795e-08  1.07000000e+00 
 1.08000000e+00  4.59002442e-01  3.17818918e-09  3.23073596e-09  4.59002442e-01  4.59002442e-01  4.59002442e-01  3.35562236e-09  1.61432524e-07  9.22628800e-08  1.08000000e+00 
 1.09000000e+00  4.59002426e-01  3.17818924e-09  3.23073592e-09  4.59002426e-01  4.59002426e-01  4.59002426e-01  3.35562236e-09  1.61432497e-07  9.22627237e-08  1.09000000e+00 
 1.10000000e+00  4.59002413e-01  3.17818924e-09  3.23073597e-09  4.59002413e-01  4.59002413e-01  4.59002413e-01  3.35562231e-09  1.61432477e-07  9.22627734e-08  1.10000000e+00 
