 v-sweep         v(b0)           v(b1)           v(b2)           v(b3)           v(b4)           v(b5)           v(b6)           i(vbias)        i(viout)        v(vout)        
 0.00000000e+00  3.46558257e-09  4.58588027e-01  3.39711753e-09  3.48360582e-09  3.09008717e-09  4.58588027e-01  4.58588028e-01  1.59697189e-07  1.46331394e-07  0.00000000e+00 
 1.00000000e-02  3.46558261e-09  4.58588030e-01  3.39711750e-09  3.48360579e-09  3.09008719e-09  4.58588030e-01  4.58588031e-01  1.59697190e-07  1.46330932e-07  1.00000000e-02 
 2.00000000e-02  3.46558259e-09  4.58588007e-01  3.39711755e-09  3.48360579e-09  3.09008714e-09  4.58588006e-01  4.58588007e-01  1.59697158e-07  1.46330445e-07  2.00000000e-02 
 3.00000000e-02  3.46558260e-09  4.58588000e-01  3.39711749e-09  3.48360579e-09  3.09008719e-09  4.58588000e-01  4.58588000e-01  1.59697153e-07  1.46329906e-07  3.00000000e-02 
 4.00000000e-02  3.46558254e-09  4.58588024e-01  3.39711749e-09  3.48360579e-09  3.09008719e-09  4.58588024e-01  4.58588024e-01  1.59697177e-07  1.46329614e-07  4.00000000e-02 
 5.00000000e-02  3.46558261e-09  4.58588007e-01  3.39711755e-09  3.48360579e-09  3.09008714e-09  4.58588006e-01  4.58588007e-01  1.59697159e-07  1.46329320e-07  5.00000000e-02 
 6.00000000e-02  3.46558253e-09  4.58588004e-01  3.39711755e-09  3.48360585e-09  3.09008714e-09  4.58588004e-01  4.58588004e-01  1.59697149e-07  1.46328957e-07  6.00000000e-02 
 7.00000000e-02  3.46558255e-09  4.58587997e-01  3.39711755e-09  3.48360579e-09  3.09008714e-09  4.58587997e-01  4.58587997e-01  1.59697152e-07  1.46328615e-07  7.00000000e-02 
 8.00000000e-02  3.46558255e-09  4.58588022e-01  3.39711749e-09  3.48360585e-09  3.09008714e-09  4.58588022e-01  4.58588022e-01  1.59697181e-07  1.46328381e-07  8.00000000e-02 
 9.00000000e-02  3.46558261e-09  4.58588035e-01  3.39711755e-09  3.48360579e-09  3.09008714e-09  4.58588035e-01  4.58588035e-01  1.59697197e-07  1.46328163e-07  9.00000000e-02 
 1.00000000e-01  3.46558259e-09  4.58588014e-01  3.39711749e-09  3.48360579e-09  3.09008714e-09  4.58588014e-01  4.58588014e-01  1.59697171e-07  1.46327728e-07  1.00000000e-01 
 1.10000000e-01  3.46558254e-09  4.58587992e-01  3.39711749e-09  3.48360579e-09  3.09008714e-09  4.58587992e-01  4.58587992e-01  1.59697140e-07  1.46327394e-07  1.10000000e-01 
 1.20000000e-01  3.46558261e-09  4.58588001e-01  3.39711749e-09  3.48360585e-09  3.09008714e-09  4.58588001e-01  4.58588001e-01  1.59697158e-07  1.46327244e-07  1.20000000e-01 
 1.30000000e-01  3.46558259e-09  4.58588000e-01  3.39711749e-09  3.48360579e-09  3.09008714e-09  4.58588000e-01  4.58588000e-01  1.59697154e-07  1.46326808e-07  1.30000000e-01 
 1.40000000e-01  3.46558260e-09  4.58588023e-01  3.39711749e-09  3.48360579e-09  3.09008719e-09  4.58588023e-01  4.58588023e-01  1.59697182e-07  1.46326674e-07  1.40000000e-01 
 1.50000000e-01  3.46558254e-09  4.58588024e-01  3.39711749e-09  3.48360585e-09  3.09008714e-09  4.58588024e-01  4.58588025e-01  1.59697175e-07  1.46326554e-07  1.50000000e-01 
 1.60000000e-01  3.46558261e-09  4.58588002e-01  3.39711749e-09  3.48360585e-09  3.09008714e-09  4.58588001e-01  4.58588002e-01  1.59697155e-07  1.46326100e-07  1.60000000e-01 
 1.70000000e-01  3.46558259e-09  4.58587997e-01  3.39711749e-09  3.48360585e-09  3.09008714e-09  4.58587997e-01  4.58587997e-01  1.59697127e-07  1.46325926e-07  1.70000000e-01 
 1.80000000e-01  3.46558260e-09  4.58587997e-01  3.39711755e-09  3.48360585e-09  3.09008714e-09  4.58587997e-01  4.58587997e-01  1.59697142e-07  1.46325679e-07  1.80000000e-01 
 1.90000000e-01  3.46558260e-09  4.58588002e-01  3.39711749e-09  3.48360579e-09  3.09008719e-09  4.58588002e-01  4.58588002e-01  1.59697148e-07  1.46325471e-07  1.90000000e-01 
 2.00000000e-01  3.46558254e-09  4.58587996e-01  3.39711749e-09  3.48360585e-09  3.09008714e-09  4.58587996e-01  4.58587996e-01  1.59697141e-07  1.46325327e-07  2.00000000e-01 
 2.10000000e-01  3.46558261e-09  4.58588003e-01  3.39711749e-09  3.48360579e-09  3.09008714e-09  4.58588003e-01  4.58588003e-01  1.59697160e-07  1.46325020e-07  2.10000000e-01 
 2.20000000e-01  3.46558259e-09  4.58588012e-01  3.39711749e-09  3.48360579e-09  3.09008714e-09  4.58588012e-01  4.58588012e-01  1.59697181e-07  1.46324890e-07  2.20000000e-01 
 2.30000000e-01  3.46558254e-09  4.58587997e-01  3.39711755e-09  3.48360585e-09  3.09008719e-09  4.58587997e-01  4.58587997e-01  1.59697148e-07  1.46324778e-07  2.30000000e-01 
 2.40000000e-01  3.46558261e-09  4.58588014e-01  3.39711749e-09  3.48360579e-09  3.09008714e-09  4.58588014e-01  4.58588014e-01  1.59697175e-07  1.46324647e-07  2.40000000e-01 
 2.50000000e-01  3.46558259e-09  4.58588037e-01  3.39711750e-09  3.48360579e-09  3.09008714e-09  4.58588037e-01  4.58588038e-01  1.59697213e-07  1.46324572e-07  2.50000000e-01 
 2.60000000e-01  3.46558260e-09  4.58588032e-01  3.39711750e-09  3.48360579e-09  3.09008714e-09  4.58588031e-01  4.58588032e-01  1.59697196e-07  1.46324382e-07  2.60000000e-01 
 2.70000000e-01  3.46558254e-09  4.58588008e-01  3.39711755e-09  3.48360579e-09  3.09008714e-09  4.58588008e-01  4.58588008e-01  1.59697165e-07  1.46324151e-07  2.70000000e-01 
 2.80000000e-01  3.46558261e-09  4.58587985e-01  3.39711755e-09  3.48360579e-09  3.09008719e-09  4.58587985e-01  4.58587986e-01  1.59697130e-07  1.46323885e-07  2.80000000e-01 
 2.90000000e-01  3.46558259e-09  4.58588013e-01  3.39711749e-09  3.48360579e-09  3.09008719e-09  4.58588013e-01  4.58588013e-01  1.59697172e-07  1.46323821e-07  2.90000000e-01 
 3.00000000e-01  3.46558254e-09  4.58587987e-01  3.39711749e-09  3.48360579e-09  3.09008714e-09  4.58587987e-01  4.58587987e-01  1.59697128e-07  1.46323611e-07  3.00000000e-01 
 3.10000000e-01  3.46558261e-09  4.58588020e-01  3.39711749e-09  3.48360579e-09  3.09008719e-09  4.58588020e-01  4.58588020e-01  1.59697188e-07  1.46323583e-07  3.10000000e-01 
 3.20000000e-01  3.46558259e-09  4.58588004e-01  3.39711749e-09  3.48360579e-09  3.09008714e-09  4.58588004e-01  4.58588004e-01  1.59697155e-07  1.46323430e-07  3.20000000e-01 
 3.30000000e-01  3.46558260e-09  4.58587995e-01  3.39711755e-09  3.48360585e-09  3.09008714e-09  4.58587995e-01  4.58587996e-01  1.59697146e-07  1.46323277e-07  3.30000000e-01 
 3.40000000e-01  3.46558260e-09  4.58587995e-01  3.39711749e-09  3.48360579e-09  3.09008719e-09  4.58587995e-01  4.58587995e-01  1.59697150e-07  1.46323170e-07  3.40000000e-01 
 3.50000000e-01  3.46558254e-09  4.58588003e-01  3.39711749e-09  3.48360579e-09  3.09008719e-09  4.58588003e-01  4.58588003e-01  1.59697165e-07  1.46322964e-07  3.50000000e-01 
 3.60000000e-01  3.46558255e-09  4.58588017e-01  3.39711749e-09  3.48360579e-09  3.09008714e-09  4.58588017e-01  4.58588017e-01  1.59697172e-07  1.46322865e-07  3.60000000e-01 
 3.70000000e-01  3.46558255e-09  4.58587988e-01  3.39711749e-09  3.48360579e-09  3.09008714e-09  4.58587988e-01  4.58587988e-01  1.59697130e-07  1.46322670e-07  3.70000000e-01 
 3.80000000e-01  3.46558260e-09  4.58588007e-01  3.39711755e-09  3.48360579e-09  3.09008714e-09  4.58588007e-01  4.58588007e-01  1.59697164e-07  1.46322570e-07  3.80000000e-01 
 3.90000000e-01  3.46558259e-09  4.58588014e-01  3.39711755e-09  3.48360579e-09  3.09008719e-09  4.58588014e-01  4.58588014e-01  1.59697164e-07  1.46322584e-07  3.90000000e-01 
 4.00000000e-01  3.46558260e-09  4.58587994e-01  3.39711749e-09  3.48360579e-09  3.09008714e-09  4.58587994e-01  4.58587994e-01  1.59697138e-07  1.46322325e-07  4.00000000e-01 
 4.10000000e-01  3.46558254e-09  4.58588013e-01  3.39711749e-09  3.48360585e-09  3.09008714e-09  4.58588013e-01  4.58588013e-01  1.59697172e-07  1.46322339e-07  4.10000000e-01 
 4.20000000e-01  3.46558261e-09  4.58588012e-01  3.39711749e-09  3.48360579e-09  3.09008714e-09  4.58588011e-01  4.58588012e-01  1.59697167e-07  1.46322247e-07  4.20000000e-01 
 4.30000000e-01  3.46558254e-09  4.58588015e-01  3.39711755e-09  3.48360579e-09  3.09008714e-09  4.58588015e-01  4.58588016e-01  1.59697176e-07  1.46322130e-07  4.30000000e-01 
 4.40000000e-01  3.46558255e-09  4.58588017e-01  3.39711749e-09  3.48360579e-09  3.09008714e-09  4.58588017e-01  4.58588017e-01  1.59697167e-07  1.46322055e-07  4.40000000e-01 
 4.50000000e-01  3.46558260e-09  4.58587995e-01  3.39711755e-09  3.48360579e-09  3.09008719e-09  4.58587995e-01  4.58587995e-01  1.59697147e-07  1.46321856e-07  4.50000000e-01 
 4.60000000e-01  3.46558253e-09  4.58587992e-01  3.39711749e-09  3.48360579e-09  3.09008719e-09  4.58587992e-01  4.58587992e-01  1.59697135e-07  1.46321735e-07  4.60000000e-01 
 4.70000000e-01  3.46558255e-09  4.58587983e-01  3.39711749e-09  3.48360585e-09  3.09008714e-09  4.58587983e-01  4.58587984e-01  1.59697116e-07  1.46321668e-07  4.70000000e-01 
 4.80000000e-01  3.46558255e-09  4.58588013e-01  3.39711749e-09  3.48360585e-09  3.09008714e-09  4.58588013e-01  4.58588013e-01  1.59697162e-07  1.46321522e-07  4.80000000e-01 
 4.90000000e-01  3.46558260e-09  4.58588003e-01  3.39711755e-09  3.48360585e-09  3.09008714e-09  4.58588002e-01  4.58588003e-01  1.59697147e-07  1.46321405e-07  4.90000000e-01 
 5.00000000e-01  3.46558259e-09  4.58587998e-01  3.39711749e-09  3.48360579e-09  3.09008714e-09  4.58587998e-01  4.58587998e-01  1.59697147e-07  1.46321337e-07  5.00000000e-01 
 5.10000000e-01  3.46558260e-09  4.58587998e-01  3.39711755e-09  3.48360579e-09  3.09008719e-09  4.58587998e-01  4.58587998e-01  1.59697155e-07  1.46321163e-07  5.10000000e-01 
 5.20000000e-01  3.46558260e-09  4.58588006e-01  3.39711755e-09  3.48360579e-09  3.09008719e-09  4.58588006e-01  4.58588006e-01  1.59697158e-07  1.46321192e-07  5.20000000e-01 
 5.30000000e-01  3.46558260e-09  4.58588022e-01  3.39711755e-09  3.48360585e-09  3.09008714e-09  4.58588021e-01  4.58588022e-01  1.59697186e-07  1.46321163e-07  5.30000000e-01 
 5.40000000e-01  3.46558260e-09  4.58588013e-01  3.39711755e-09  3.48360585e-09  3.09008719e-09  4.58588013e-01  4.58588013e-01  1.59697160e-07  1.46320922e-07  5.40000000e-01 
 5.50000000e-01  3.46558254e-09  4.58588018e-01  3.39711755e-09  3.48360579e-09  3.09008714e-09  4.58588018e-01  4.58588019e-01  1.59697178e-07  1.46320840e-07  5.50000000e-01 
 5.60000000e-01  3.46558255e-09  4.58587991e-01  3.39711755e-09  3.48360579e-09  3.09008719e-09  4.58587991e-01  4.58587991e-01  1.59697145e-07  1.46320733e-07  5.60000000e-01 
 5.70000000e-01  3.46558260e-09  4.58588010e-01  3.39711749e-09  3.48360585e-09  3.09008714e-09  4.58588010e-01  4.58588010e-01  1.59697158e-07  1.46320637e-07  5.70000000e-01 
 5.80000000e-01  3.46558259e-09  4.58588006e-01  3.39711755e-09  3.48360585e-09  3.09008719e-09  4.58588006e-01  4.58588006e-01  1.59697154e-07  1.46320545e-07  5.80000000e-01 
 5.90000000e-01  3.46558260e-09  4.58588020e-01  3.39711749e-09  3.48360579e-09  3.09008714e-09  4.58588020e-01  4.58588020e-01  1.59697173e-07  1.46320552e-07  5.90000000e-01 
 6.00000000e-01  3.46558254e-09  4.58588015e-01  3.39711749e-09  3.48360585e-09  3.09008714e-09  4.58588014e-01  4.58588015e-01  1.59697165e-07  1.46320382e-07  6.00000000e-01 
 6.10000000e-01  3.46558261e-09  4.58588001e-01  3.39711749e-09  3.48360585e-09  3.09008714e-09  4.58588001e-01  4.58588001e-01  1.59697140e-07  1.46320218e-07  6.10000000e-01 
 6.20000000e-01  3.46558254e-09  4.58588013e-01  3.39711749e-09  3.48360579e-09  3.09008714e-09  4.58588013e-01  4.58588013e-01  1.59697169e-07  1.46320204e-07  6.20000000e-01 
 6.30000000e-01  3.46558261e-09  4.58588005e-01  3.39711755e-09  3.48360585e-09  3.09008719e-09  4.58588004e-01  4.58588005e-01  1.59697159e-07  1.46320076e-07  6.30000000e-01 
 6.40000000e-01  3.46558259e-09  4.58588008e-01  3.39711755e-09  3.48360579e-09  3.09008714e-09  4.58588008e-01  4.58588008e-01  1.59697165e-07  1.46319920e-07  6.40000000e-01 
 6.50000000e-01  3.46558254e-09  4.58588023e-01  3.39711749e-09  3.48360579e-09  3.09008714e-09  4.58588023e-01  4.58588023e-01  1.59697180e-07  1.46319962e-07  6.50000000e-01 
 6.60000000e-01  3.46558255e-09  4.58587995e-01  3.39711755e-09  3.48360585e-09  3.09008714e-09  4.58587995e-01  4.58587995e-01  1.59697141e-07  1.46319714e-07  6.60000000e-01 
 6.70000000e-01  3.46558260e-09  4.58588001e-01  3.39711749e-09  3.48360579e-09  3.09008714e-09  4.58588001e-01  4.58588001e-01  1.59697162e-07  1.46319721e-07  6.70000000e-01 
 6.80000000e-01  3.46558259e-09  4.58588009e-01  3.39711755e-09  3.48360579e-09  3.09008714e-09  4.58588008e-01  4.58588009e-01  1.59697163e-07  1.46319564e-07  6.80000000e-01 
 6.90000000e-01  3.46558254e-09  4.58588008e-01  3.39711749e-09  3.48360579e-09  3.09008714e-09  4.58588008e-01  4.58588008e-01  1.59697169e-07  1.46319380e-07  6.90000000e-01 
 7.00000000e-01  3.46558261e-09  4.58588029e-01  3.39711750e-09  3.48360585e-09  3.09008714e-09  4.58588029e-01  4.58588029e-01  1.59697185e-07  1.46319330e-07  7.00000000e-01 
 7.10000000e-01  3.46558259e-09  4.58587983e-01  3.39711749e-09  3.48360579e-09  3.09008714e-09  4.58587983e-01  4.58587983e-01  1.59697122e-07  1.46319117e-07  7.10000000e-01 
 7.20000000e-01  3.46558260e-09  4.58588014e-01  3.39711749e-09  3.48360579e-09  3.09008719e-09  4.58588014e-01  4.58588014e-01  1.59697165e-07  1.46319046e-07  7.20000000e-01 
 7.30000000e-01  3.46558260e-09  4.58588022e-01  3.39711755e-09  3.48360585e-09  3.09008714e-09  4.58588022e-01  4.58588022e-01  1.59697181e-07  1.46318975e-07  7.30000000e-01 
 7.40000000e-01  3.46558254e-09  4.58588016e-01  3.39711749e-09  3.48360585e-09  3.09008714e-09  4.58588016e-01  4.58588016e-01  1.59697173e-07  1.46319024e-07  7.40000000e-01 
 7.50000000e-01  3.46558255e-09  4.58588000e-01  3.39711749e-09  3.48360585e-09  3.09008714e-09  4.58588000e-01  4.58588001e-01  1.59697155e-07  1.46318783e-07  7.50000000e-01 
 7.60000000e-01  3.46558255e-09  4.58588013e-01  3.39711749e-09  3.48360585e-09  3.09008714e-09  4.58588013e-01  4.58588014e-01  1.59697169e-07  1.46318733e-07  7.60000000e-01 
 7.70000000e-01  3.46558255e-09  4.58588018e-01  3.39711755e-09  3.48360579e-09  3.09008714e-09  4.58588018e-01  4.58588018e-01  1.59697175e-07  1.46318712e-07  7.70000000e-01 
 7.80000000e-01  3.46558255e-09  4.58588016e-01  3.39711749e-09  3.48360585e-09  3.09008714e-09  4.58588016e-01  4.58588016e-01  1.59697179e-07  1.46318555e-07  7.80000000e-01 
 7.90000000e-01  3.46558261e-09  4.58588022e-01  3.39711749e-09  3.48360579e-09  3.09008714e-09  4.58588022e-01  4.58588023e-01  1.59697190e-07  1.46318534e-07  7.90000000e-01 
 8.00000000e-01  3.46558259e-09  4.58587996e-01  3.39711755e-09  3.48360579e-09  3.09008719e-09  4.58587996e-01  4.58587997e-01  1.59697137e-07  1.46318342e-07  8.00000000e-01 
 8.10000000e-01  3.46558254e-09  4.58588009e-01  3.39711755e-09  3.48360579e-09  3.09008719e-09  4.58588009e-01  4.58588009e-01  1.59697164e-07  1.46318207e-07  8.10000000e-01 
 8.20000000e-01  3.46558261e-09  4.58588004e-01  3.39711749e-09  3.48360579e-09  3.09008714e-09  4.58588004e-01  4.58588004e-01  1.59697149e-07  1.46318115e-07  8.20000000e-01 
 8.30000000e-01  3.46558253e-09  4.58588003e-01  3.39711755e-09  3.48360579e-09  3.09008714e-09  4.58588003e-01  4.58588003e-01  1.59697151e-07  1.46317944e-07  8.30000000e-01 
 8.40000000e-01  3.46558261e-09  4.58588023e-01  3.39711755e-09  3.48360585e-09  3.09008719e-09  4.58588023e-01  4.58588023e-01  1.59697184e-07  1.46317994e-07  8.40000000e-01 
 8.50000000e-01  3.46558259e-09  4.58588000e-01  3.39711749e-09  3.48360579e-09  3.09008714e-09  4.58588000e-01  4.58588000e-01  1.59697148e-07  1.46317710e-07  8.50000000e-01 
 8.60000000e-01  3.46558254e-09  4.58588034e-01  3.39711750e-09  3.48360579e-09  3.09008714e-09  4.58588034e-01  4.58588034e-01  1.59697199e-07  1.46317767e-07  8.60000000e-01 
 8.70000000e-01  3.46558261e-09  4.58588006e-01  3.39711749e-09  3.48360579e-09  3.09008714e-09  4.58588006e-01  4.58588007e-01  1.59697150e-07  1.46317554e-07  8.70000000e-01 
 8.80000000e-01  3.46558259e-09  4.58588001e-01  3.39711755e-09  3.48360585e-09  3.09008714e-09  4.58588001e-01  4.58588001e-01  1.59697144e-07  1.46317490e-07  8.80000000e-01 
 8.90000000e-01  3.46558254e-09  4.58587991e-01  3.39711755e-09  3.48360579e-09  3.09008714e-09  4.58587991e-01  4.58587991e-01  1.59697137e-07  1.46317333e-07  8.90000000e-01 
 9.00000000e-01  3.46558255e-09  4.58588007e-01  3.39711755e-09  3.48360579e-09  3.09008714e-09  4.58588007e-01  4.58588007e-01  1.59697156e-07  1.46317213e-07  9.00000000e-01 
 9.10000000e-01  3.46558255e-09  4.58587990e-01  3.39711755e-09  3.48360579e-09  3.09008714e-09  4.58587990e-01  4.58587991e-01  1.59697138e-07  1.46317163e-07  9.10000000e-01 
 9.20000000e-01  3.46558260e-09  4.58588014e-01  3.39711755e-09  3.48360579e-09  3.09008714e-09  4.58588014e-01  4.58588014e-01  1.59697174e-07  1.46317120e-07  9.20000000e-01 
 9.30000000e-01  3.46558259e-09  4.58588017e-01  3.39711749e-09  3.48360579e-09  3.09008714e-09  4.58588017e-01  4.58588017e-01  1.59697177e-07  1.46317014e-07  9.30000000e-01 
 9.40000000e-01  3.46558260e-09  4.58588029e-01  3.39711750e-09  3.48360585e-09  3.09008714e-09  4.58588029e-01  4.58588029e-01  1.59697188e-07  1.46316893e-07  9.40000000e-01 
 9.50000000e-01  3.46558254e-09  4.58587985e-01  3.39711755e-09  3.48360579e-09  3.09008714e-09  4.58587984e-01  4.58587985e-01  1.59697126e-07  1.46316623e-07  9.50000000e-01 
 9.60000000e-01  3.46558261e-09  4.58588005e-01  3.39711755e-09  3.48360585e-09  3.09008719e-09  4.58588005e-01  4.58588005e-01  1.59697159e-07  1.46316559e-07  9.60000000e-01 
 9.70000000e-01  3.46558254e-09  4.58588012e-01  3.39711749e-09  3.48360585e-09  3.09008714e-09  4.58588012e-01  4.58588012e-01  1.59697172e-07  1.46316488e-07  9.70000000e-01 
 9.80000000e-01  3.46558255e-09  4.58588027e-01  3.39711755e-09  3.48360579e-09  3.09008714e-09  4.58588027e-01  4.58588027e-01  1.59697183e-07  1.46316523e-07  9.80000000e-01 
 9.90000000e-01  3.46558255e-09  4.58587999e-01  3.39711749e-09  3.48360585e-09  3.09008714e-09  4.58587999e-01  4.58587999e-01  1.59697149e-07  1.46316147e-07  9.90000000e-01 
 1.00000000e+00  3.46558260e-09  4.58588012e-01  3.39711749e-09  3.48360579e-09  3.09008714e-09  4.58588012e-01  4.58588012e-01  1.59697166e-07  1.46316161e-07  1.00000000e+00 
 1.01000000e+00  3.46558259e-09  4.58587997e-01  3.39711749e-09  3.48360579e-09  3.09008714e-09  4.58587997e-01  4.58587997e-01  1.59697149e-07  1.46315934e-07  1.01000000e+00 
 1.02000000e+00  3.46558260e-09  4.58588017e-01  3.39711749e-09  3.48360579e-09  3.09008714e-09  4.58588017e-01  4.58588018e-01  1.59697173e-07  1.46315841e-07  1.02000000e+00 
 1.03000000e+00  3.46558260e-09  4.58588016e-01  3.39711749e-09  3.48360579e-09  3.09008719e-09  4.58588016e-01  4.58588016e-01  1.59697177e-07  1.46315763e-07  1.03000000e+00 
 1.04000000e+00  3.46558254e-09  4.58588022e-01  3.39711749e-09  3.48360579e-09  3.09008714e-09  4.58588022e-01  4.58588022e-01  1.59697178e-07  1.46315756e-07  1.04000000e+00 
 1.05000000e+00  3.46558255e-09  4.58588005e-01  3.39711749e-09  3.48360585e-09  3.09008719e-09  4.58588005e-01  4.58588005e-01  1.59697156e-07  1.46315458e-07  1.05000000e+00 
 1.06000000e+00  3.46558255e-09  4.58588002e-01  3.39711749e-09  3.48360579e-09  3.09008714e-09  4.58588002e-01  4.58588002e-01  1.59697155e-07  1.46315358e-07  1.06000000e+00 
 1.07000000e+00  3.46558255e-09  4.58587995e-01  3.39711755e-09  3.48360579e-09  3.09008714e-09  4.58587995e-01  4.58587995e-01  1.59697131e-07  1.46315244e-07  1.07000000e+00 
 1.08000000e+00  3.46558260e-09  4.58587994e-01  3.39711749e-09  3.48360579e-09  3.09008714e-09  4.58587994e-01  4.58587994e-01  1.59697131e-07  1.46315159e-07  1.08000000e+00 
 1.09000000e+00  3.46558253e-09  4.58588004e-01  3.39711755e-09  3.48360579e-09  3.09008714e-09  4.58588004e-01  4.58588004e-01  1.59697142e-07  1.46315045e-07  1.09000000e+00 
 1.10000000e+00  3.46558255e-09  4.58588005e-01  3.39711755e-09  3.48360585e-09  3.09008714e-09  4.58588004e-01  4.58588005e-01  1.59697159e-07  1.46314882e-07  1.10000000e+00 
