 v-sweep         v(b0)           v(b1)           v(b2)           v(b3)           v(b4)           v(b5)           v(b6)           i(vbias)        i(viout)        v(vout)        
 0.00000000e+00  3.09996971e-09  3.19745882e-09  4.57004296e-01  3.39607602e-09  4.57004296e-01  3.21884395e-09  3.42729492e-09  1.55099914e-07  3.16665168e-08  0.00000000e+00 
 1.00000000e-02  3.09996968e-09  3.19745885e-09  4.57004324e-01  3.39607605e-09  4.57004324e-01  3.21884398e-09  3.42729490e-09  1.55099943e-07  3.16661398e-08  1.00000000e-02 
 2.00000000e-02  3.09996968e-09  3.19745878e-09  4.57004304e-01  3.39607605e-09  4.57004304e-01  3.21884398e-09  3.42729490e-09  1.55099925e-07  3.16658049e-08  2.00000000e-02 
 3.00000000e-02  3.09996968e-09  3.19745880e-09  4.57004316e-01  3.39607605e-09  4.57004316e-01  3.21884398e-09  3.42729490e-09  1.55099940e-07  3.16653885e-08  3.00000000e-02 
 4.00000000e-02  3.09996968e-09  3.19745879e-09  4.57004314e-01  3.39607605e-09  4.57004314e-01  3.21884398e-09  3.42729490e-09  1.55099946e-07  3.16651301e-08  4.00000000e-02 
 5.00000000e-02  3.09996968e-09  3.19745885e-09  4.57004298e-01  3.39607605e-09  4.57004298e-01  3.21884398e-09  3.42729490e-09  1.55099905e-07  3.16646536e-08  5.00000000e-02 
 6.00000000e-02  3.09996968e-09  3.19745884e-09  4.57004300e-01  3.39607599e-09  4.57004300e-01  3.21884392e-09  3.42729490e-09  1.55099908e-07  3.16643751e-08  6.00000000e-02 
 7.00000000e-02  3.09996968e-09  3.19745884e-09  4.57004313e-01  3.39607606e-09  4.57004313e-01  3.21884398e-09  3.42729490e-09  1.55099937e-07  3.16640056e-08  7.00000000e-02 
 8.00000000e-02  3.09996974e-09  3.19745884e-09  4.57004301e-01  3.39607604e-09  4.57004301e-01  3.21884398e-09  3.42729490e-09  1.55099911e-07  3.16638689e-08  8.00000000e-02 
 9.00000000e-02  3.09996968e-09  3.19745884e-09  4.57004294e-01  3.39607605e-09  4.57004294e-01  3.21884392e-09  3.42729490e-09  1.55099904e-07  3.16635846e-08  9.00000000e-02 
 1.00000000e-01  3.09996968e-09  3.19745884e-09  4.57004308e-01  3.39607605e-09  4.57004308e-01  3.21884392e-09  3.42729495e-09  1.55099916e-07  3.16633280e-08  1.00000000e-01 
 1.10000000e-01  3.09996968e-09  3.19745884e-09  4.57004310e-01  3.39607605e-09  4.57004310e-01  3.21884398e-09  3.42729490e-09  1.55099925e-07  3.16630722e-08  1.10000000e-01 
 1.20000000e-01  3.09996968e-09  3.19745879e-09  4.57004310e-01  3.39607605e-09  4.57004310e-01  3.21884398e-09  3.42729490e-09  1.55099934e-07  3.16627560e-08  1.20000000e-01 
 1.30000000e-01  3.09996968e-09  3.19745885e-09  4.57004290e-01  3.39607605e-09  4.57004290e-01  3.21884392e-09  3.42729490e-09  1.55099902e-07  3.16625561e-08  1.30000000e-01 
 1.40000000e-01  3.09996968e-09  3.19745884e-09  4.57004324e-01  3.39607605e-09  4.57004324e-01  3.21884398e-09  3.42729490e-09  1.55099945e-07  3.16624718e-08  1.40000000e-01 
 1.50000000e-01  3.09996968e-09  3.19745879e-09  4.57004304e-01  3.39607605e-09  4.57004304e-01  3.21884398e-09  3.42729490e-09  1.55099935e-07  3.16622621e-08  1.50000000e-01 
 1.60000000e-01  3.09996968e-09  3.19745880e-09  4.57004303e-01  3.39607605e-09  4.57004303e-01  3.21884392e-09  3.42729495e-09  1.55099909e-07  3.16618554e-08  1.60000000e-01 
 1.70000000e-01  3.09996968e-09  3.19745885e-09  4.57004307e-01  3.39607605e-09  4.57004307e-01  3.21884398e-09  3.42729495e-09  1.55099922e-07  3.16617879e-08  1.70000000e-01 
 1.80000000e-01  3.09996968e-09  3.19745884e-09  4.57004309e-01  3.39607599e-09  4.57004309e-01  3.21884398e-09  3.42729495e-09  1.55099920e-07  3.16617079e-08  1.80000000e-01 
 1.90000000e-01  3.09996968e-09  3.19745884e-09  4.57004324e-01  3.39607606e-09  4.57004324e-01  3.21884392e-09  3.42729490e-09  1.55099948e-07  3.16614504e-08  1.90000000e-01 
 2.00000000e-01  3.09996968e-09  3.19745884e-09  4.57004311e-01  3.39607604e-09  4.57004311e-01  3.21884392e-09  3.42729490e-09  1.55099929e-07  3.16612656e-08  2.00000000e-01 
 2.10000000e-01  3.09996968e-09  3.19745884e-09  4.57004313e-01  3.39607605e-09  4.57004313e-01  3.21884398e-09  3.42729490e-09  1.55099942e-07  3.16611608e-08  2.10000000e-01 
 2.20000000e-01  3.09996968e-09  3.19745884e-09  4.57004302e-01  3.39607599e-09  4.57004302e-01  3.21884398e-09  3.42729490e-09  1.55099923e-07  3.16610667e-08  2.20000000e-01 
 2.30000000e-01  3.09996968e-09  3.19745884e-09  4.57004303e-01  3.39607606e-09  4.57004303e-01  3.21884398e-09  3.42729490e-09  1.55099911e-07  3.16609157e-08  2.30000000e-01 
 2.40000000e-01  3.09996968e-09  3.19745884e-09  4.57004294e-01  3.39607604e-09  4.57004294e-01  3.21884398e-09  3.42729495e-09  1.55099898e-07  3.16606812e-08  2.40000000e-01 
 2.50000000e-01  3.09996968e-09  3.19745879e-09  4.57004339e-01  3.39607605e-09  4.57004339e-01  3.21884398e-09  3.42729490e-09  1.55099968e-07  3.16605693e-08  2.50000000e-01 
 2.60000000e-01  3.09996968e-09  3.19745880e-09  4.57004321e-01  3.39607605e-09  4.57004321e-01  3.21884392e-09  3.42729490e-09  1.55099935e-07  3.16604503e-08  2.60000000e-01 
 2.70000000e-01  3.09996968e-09  3.19745885e-09  4.57004292e-01  3.39607605e-09  4.57004291e-01  3.21884398e-09  3.42729495e-09  1.55099900e-07  3.16605071e-08  2.70000000e-01 
 2.80000000e-01  3.09996968e-09  3.19745884e-09  4.57004328e-01  3.39607605e-09  4.57004328e-01  3.21884398e-09  3.42729490e-09  1.55099956e-07  3.16602975e-08  2.80000000e-01 
 2.90000000e-01  3.09996968e-09  3.19745884e-09  4.57004302e-01  3.39607605e-09  4.57004302e-01  3.21884398e-09  3.42729495e-09  1.55099925e-07  3.16601785e-08  2.90000000e-01 
 3.00000000e-01  3.09996968e-09  3.19745884e-09  4.57004330e-01  3.39607605e-09  4.57004330e-01  3.21884392e-09  3.42729490e-09  1.55099954e-07  3.16601181e-08  3.00000000e-01 
 3.10000000e-01  3.09996968e-09  3.19745884e-09  4.57004308e-01  3.39607605e-09  4.57004308e-01  3.21884398e-09  3.42729490e-09  1.55099930e-07  3.16599866e-08  3.10000000e-01 
 3.20000000e-01  3.09996968e-09  3.19745879e-09  4.57004311e-01  3.39607605e-09  4.57004311e-01  3.21884398e-09  3.42729490e-09  1.55099923e-07  3.16598410e-08  3.20000000e-01 
 3.30000000e-01  3.09996968e-09  3.19745880e-09  4.57004317e-01  3.39607605e-09  4.57004317e-01  3.21884392e-09  3.42729490e-09  1.55099932e-07  3.16597806e-08  3.30000000e-01 
 3.40000000e-01  3.09996968e-09  3.19745885e-09  4.57004309e-01  3.39607605e-09  4.57004309e-01  3.21884398e-09  3.42729495e-09  1.55099929e-07  3.16597486e-08  3.40000000e-01 
 3.50000000e-01  3.09996968e-09  3.19745884e-09  4.57004305e-01  3.39607605e-09  4.57004305e-01  3.21884398e-09  3.42729490e-09  1.55099914e-07  3.16595923e-08  3.50000000e-01 
 3.60000000e-01  3.09996968e-09  3.19745884e-09  4.57004327e-01  3.39607605e-09  4.57004327e-01  3.21884398e-09  3.42729490e-09  1.55099953e-07  3.16595532e-08  3.60000000e-01 
 3.70000000e-01  3.09996968e-09  3.19745884e-09  4.57004304e-01  3.39607605e-09  4.57004304e-01  3.21884392e-09  3.42729490e-09  1.55099920e-07  3.16595070e-08  3.70000000e-01 
 3.80000000e-01  3.09996968e-09  3.19745884e-09  4.57004303e-01  3.39607605e-09  4.57004303e-01  3.21884392e-09  3.42729490e-09  1.55099909e-07  3.16593507e-08  3.80000000e-01 
 3.90000000e-01  3.09996968e-09  3.19745884e-09  4.57004308e-01  3.39607605e-09  4.57004308e-01  3.21884392e-09  3.42729490e-09  1.55099930e-07  3.16592583e-08  3.90000000e-01 
 4.00000000e-01  3.09996968e-09  3.19745884e-09  4.57004308e-01  3.39607605e-09  4.57004308e-01  3.21884398e-09  3.42729490e-09  1.55099928e-07  3.16591517e-08  4.00000000e-01 
 4.10000000e-01  3.09996968e-09  3.19745884e-09  4.57004316e-01  3.39607605e-09  4.57004316e-01  3.21884392e-09  3.42729490e-09  1.55099925e-07  3.16591979e-08  4.10000000e-01 
 4.20000000e-01  3.09996968e-09  3.19745879e-09  4.57004323e-01  3.39607605e-09  4.57004323e-01  3.21884398e-09  3.42729490e-09  1.55099939e-07  3.16591162e-08  4.20000000e-01 
 4.30000000e-01  3.09996968e-09  3.19745886e-09  4.57004317e-01  3.39607605e-09  4.57004317e-01  3.21884398e-09  3.42729490e-09  1.55099951e-07  3.16589599e-08  4.30000000e-01 
 4.40000000e-01  3.09996968e-09  3.19745884e-09  4.57004307e-01  3.39607599e-09  4.57004307e-01  3.21884392e-09  3.42729495e-09  1.55099927e-07  3.16588604e-08  4.40000000e-01 
 4.50000000e-01  3.09996968e-09  3.19745879e-09  4.57004299e-01  3.39607606e-09  4.57004299e-01  3.21884392e-09  3.42729490e-09  1.55099904e-07  3.16588391e-08  4.50000000e-01 
 4.60000000e-01  3.09996968e-09  3.19745886e-09  4.57004308e-01  3.39607604e-09  4.57004307e-01  3.21884398e-09  3.42729490e-09  1.55099916e-07  3.16588036e-08  4.60000000e-01 
 4.70000000e-01  3.09996968e-09  3.19745884e-09  4.57004320e-01  3.39607605e-09  4.57004320e-01  3.21884398e-09  3.42729490e-09  1.55099946e-07  3.16587752e-08  4.70000000e-01 
 4.80000000e-01  3.09996968e-09  3.19745884e-09  4.57004316e-01  3.39607605e-09  4.57004316e-01  3.21884392e-09  3.42729495e-09  1.55099936e-07  3.16586473e-08  4.80000000e-01 
 4.90000000e-01  3.09996968e-09  3.19745884e-09  4.57004294e-01  3.39607605e-09  4.57004294e-01  3.21884392e-09  3.42729490e-09  1.55099912e-07  3.16585442e-08  4.90000000e-01 
 5.00000000e-01  3.09996968e-09  3.19745884e-09  4.57004308e-01  3.39607605e-09  4.57004308e-01  3.21884398e-09  3.42729490e-09  1.55099923e-07  3.16584980e-08  5.00000000e-01 
 5.10000000e-01  3.09996968e-09  3.19745884e-09  4.57004299e-01  3.39607605e-09  4.57004299e-01  3.21884398e-09  3.42729490e-09  1.55099907e-07  3.16584980e-08  5.10000000e-01 
 5.20000000e-01  3.09996968e-09  3.19745884e-09  4.57004309e-01  3.39607605e-09  4.57004309e-01  3.21884392e-09  3.42729490e-09  1.55099910e-07  3.16583488e-08  5.20000000e-01 
 5.30000000e-01  3.09996968e-09  3.19745884e-09  4.57004309e-01  3.39607605e-09  4.57004309e-01  3.21884392e-09  3.42729495e-09  1.55099913e-07  3.16583773e-08  5.30000000e-01 
 5.40000000e-01  3.09996968e-09  3.19745884e-09  4.57004310e-01  3.39607605e-09  4.57004310e-01  3.21884398e-09  3.42729495e-09  1.55099933e-07  3.16582636e-08  5.40000000e-01 
 5.50000000e-01  3.09996968e-09  3.19745884e-09  4.57004310e-01  3.39607605e-09  4.57004310e-01  3.21884392e-09  3.42729490e-09  1.55099923e-07  3.16581570e-08  5.50000000e-01 
 5.60000000e-01  3.09996968e-09  3.19745884e-09  4.57004296e-01  3.39607605e-09  4.57004296e-01  3.21884392e-09  3.42729490e-09  1.55099899e-07  3.16582316e-08  5.60000000e-01 
 5.70000000e-01  3.09996968e-09  3.19745884e-09  4.57004298e-01  3.39607605e-09  4.57004298e-01  3.21884398e-09  3.42729490e-09  1.55099912e-07  3.16580753e-08  5.70000000e-01 
 5.80000000e-01  3.09996968e-09  3.19745884e-09  4.57004327e-01  3.39607605e-09  4.57004326e-01  3.21884398e-09  3.42729490e-09  1.55099952e-07  3.16581321e-08  5.80000000e-01 
 5.90000000e-01  3.09996968e-09  3.19745884e-09  4.57004301e-01  3.39607605e-09  4.57004301e-01  3.21884392e-09  3.42729490e-09  1.55099931e-07  3.16579829e-08  5.90000000e-01 
 6.00000000e-01  3.09996968e-09  3.19745879e-09  4.57004297e-01  3.39607605e-09  4.57004297e-01  3.21884392e-09  3.42729490e-09  1.55099904e-07  3.16579829e-08  6.00000000e-01 
 6.10000000e-01  3.09996968e-09  3.19745885e-09  4.57004298e-01  3.39607605e-09  4.57004298e-01  3.21884398e-09  3.42729490e-09  1.55099912e-07  3.16579190e-08  6.10000000e-01 
 6.20000000e-01  3.09996968e-09  3.19745884e-09  4.57004317e-01  3.39607605e-09  4.57004317e-01  3.21884398e-09  3.42729495e-09  1.55099943e-07  3.16579261e-08  6.20000000e-01 
 6.30000000e-01  3.09996968e-09  3.19745884e-09  4.57004303e-01  3.39607605e-09  4.57004303e-01  3.21884398e-09  3.42729490e-09  1.55099926e-07  3.16577982e-08  6.30000000e-01 
 6.40000000e-01  3.09996968e-09  3.19745884e-09  4.57004302e-01  3.39607605e-09  4.57004302e-01  3.21884392e-09  3.42729490e-09  1.55099914e-07  3.16578621e-08  6.40000000e-01 
 6.50000000e-01  3.09996968e-09  3.19745884e-09  4.57004324e-01  3.39607605e-09  4.57004324e-01  3.21884398e-09  3.42729490e-09  1.55099952e-07  3.16578053e-08  6.50000000e-01 
 6.60000000e-01  3.09996968e-09  3.19745884e-09  4.57004293e-01  3.39607605e-09  4.57004293e-01  3.21884398e-09  3.42729490e-09  1.55099912e-07  3.16575708e-08  6.60000000e-01 
 6.70000000e-01  3.09996968e-09  3.19745884e-09  4.57004317e-01  3.39607605e-09  4.57004317e-01  3.21884398e-09  3.42729490e-09  1.55099944e-07  3.16575992e-08  6.70000000e-01 
 6.80000000e-01  3.09996968e-09  3.19745884e-09  4.57004309e-01  3.39607605e-09  4.57004309e-01  3.21884392e-09  3.42729490e-09  1.55099930e-07  3.16575353e-08  6.80000000e-01 
 6.90000000e-01  3.09996968e-09  3.19745884e-09  4.57004312e-01  3.39607605e-09  4.57004312e-01  3.21884398e-09  3.42729490e-09  1.55099934e-07  3.16576418e-08  6.90000000e-01 
 7.00000000e-01  3.09996968e-09  3.19745884e-09  4.57004300e-01  3.39607599e-09  4.57004300e-01  3.21884398e-09  3.42729490e-09  1.55099921e-07  3.16575139e-08  7.00000000e-01 
 7.10000000e-01  3.09996968e-09  3.19745884e-09  4.57004301e-01  3.39607606e-09  4.57004301e-01  3.21884398e-09  3.42729490e-09  1.55099902e-07  3.16574358e-08  7.10000000e-01 
 7.20000000e-01  3.09996968e-09  3.19745884e-09  4.57004294e-01  3.39607604e-09  4.57004294e-01  3.21884398e-09  3.42729490e-09  1.55099909e-07  3.16572724e-08  7.20000000e-01 
 7.30000000e-01  3.09996968e-09  3.19745884e-09  4.57004320e-01  3.39607605e-09  4.57004320e-01  3.21884398e-09  3.42729490e-09  1.55099933e-07  3.16572013e-08  7.30000000e-01 
 7.40000000e-01  3.09996968e-09  3.19745884e-09  4.57004300e-01  3.39607605e-09  4.57004300e-01  3.21884398e-09  3.42729490e-09  1.55099918e-07  3.16572439e-08  7.40000000e-01 
 7.50000000e-01  3.09996968e-09  3.19745879e-09  4.57004306e-01  3.39607605e-09  4.57004306e-01  3.21884398e-09  3.42729490e-09  1.55099914e-07  3.16572439e-08  7.50000000e-01 
 7.60000000e-01  3.09996968e-09  3.19745880e-09  4.57004313e-01  3.39607605e-09  4.57004313e-01  3.21884392e-09  3.42729490e-09  1.55099926e-07  3.16571587e-08  7.60000000e-01 
 7.70000000e-01  3.09996968e-09  3.19745885e-09  4.57004313e-01  3.39607605e-09  4.57004313e-01  3.21884392e-09  3.42729490e-09  1.55099925e-07  3.16570592e-08  7.70000000e-01 
 7.80000000e-01  3.09996968e-09  3.19745884e-09  4.57004301e-01  3.39607605e-09  4.57004301e-01  3.21884392e-09  3.42729490e-09  1.55099913e-07  3.16569100e-08  7.80000000e-01 
 7.90000000e-01  3.09996968e-09  3.19745884e-09  4.57004313e-01  3.39607605e-09  4.57004313e-01  3.21884398e-09  3.42729490e-09  1.55099932e-07  3.16568958e-08  7.90000000e-01 
 8.00000000e-01  3.09996968e-09  3.19745884e-09  4.57004328e-01  3.39607605e-09  4.57004328e-01  3.21884398e-09  3.42729490e-09  1.55099953e-07  3.16568887e-08  8.00000000e-01 
 8.10000000e-01  3.09996968e-09  3.19745884e-09  4.57004290e-01  3.39607605e-09  4.57004290e-01  3.21884398e-09  3.42729490e-09  1.55099910e-07  3.16567110e-08  8.10000000e-01 
 8.20000000e-01  3.09996968e-09  3.19745879e-09  4.57004333e-01  3.39607605e-09  4.57004333e-01  3.21884398e-09  3.42729490e-09  1.55099965e-07  3.16568389e-08  8.20000000e-01 
 8.30000000e-01  3.09996968e-09  3.19745886e-09  4.57004308e-01  3.39607605e-09  4.57004308e-01  3.21884392e-09  3.42729490e-09  1.55099925e-07  3.16566684e-08  8.30000000e-01 
 8.40000000e-01  3.09996968e-09  3.19745884e-09  4.57004301e-01  3.39607605e-09  4.57004301e-01  3.21884398e-09  3.42729490e-09  1.55099910e-07  3.16565902e-08  8.40000000e-01 
 8.50000000e-01  3.09996968e-09  3.19745879e-09  4.57004303e-01  3.39607605e-09  4.57004303e-01  3.21884392e-09  3.42729490e-09  1.55099919e-07  3.16566187e-08  8.50000000e-01 
 8.60000000e-01  3.09996968e-09  3.19745886e-09  4.57004308e-01  3.39607605e-09  4.57004308e-01  3.21884392e-09  3.42729495e-09  1.55099924e-07  3.16565405e-08  8.60000000e-01 
 8.70000000e-01  3.09996968e-09  3.19745884e-09  4.57004298e-01  3.39607605e-09  4.57004298e-01  3.21884392e-09  3.42729490e-09  1.55099907e-07  3.16565618e-08  8.70000000e-01 
 8.80000000e-01  3.09996968e-09  3.19745884e-09  4.57004312e-01  3.39607605e-09  4.57004312e-01  3.21884398e-09  3.42729490e-09  1.55099930e-07  3.16564979e-08  8.80000000e-01 
 8.90000000e-01  3.09996968e-09  3.19745884e-09  4.57004326e-01  3.39607599e-09  4.57004326e-01  3.21884392e-09  3.42729496e-09  1.55099947e-07  3.16563984e-08  8.90000000e-01 
 9.00000000e-01  3.09996974e-09  3.19745884e-09  4.57004302e-01  3.39607600e-09  4.57004302e-01  3.21884392e-09  3.42729490e-09  1.55099917e-07  3.16563629e-08  9.00000000e-01 
 9.10000000e-01  3.09996968e-09  3.19745884e-09  4.57004305e-01  3.39607605e-09  4.57004305e-01  3.21884392e-09  3.42729490e-09  1.55099926e-07  3.16562705e-08  9.10000000e-01 
 9.20000000e-01  3.09996968e-09  3.19745879e-09  4.57004300e-01  3.39607604e-09  4.57004300e-01  3.21884392e-09  3.42729490e-09  1.55099913e-07  3.16563060e-08  9.20000000e-01 
 9.30000000e-01  3.09996968e-09  3.19745880e-09  4.57004316e-01  3.39607605e-09  4.57004316e-01  3.21884398e-09  3.42729490e-09  1.55099932e-07  3.16562492e-08  9.30000000e-01 
 9.40000000e-01  3.09996968e-09  3.19745879e-09  4.57004297e-01  3.39607605e-09  4.57004297e-01  3.21884398e-09  3.42729490e-09  1.55099919e-07  3.16559863e-08  9.40000000e-01 
 9.50000000e-01  3.09996968e-09  3.19745879e-09  4.57004298e-01  3.39607605e-09  4.57004298e-01  3.21884392e-09  3.42729495e-09  1.55099906e-07  3.16560289e-08  9.50000000e-01 
 9.60000000e-01  3.09996968e-09  3.19745885e-09  4.57004328e-01  3.39607605e-09  4.57004328e-01  3.21884398e-09  3.42729490e-09  1.55099958e-07  3.16560502e-08  9.60000000e-01 
 9.70000000e-01  3.09996968e-09  3.19745884e-09  4.57004300e-01  3.39607605e-09  4.57004300e-01  3.21884398e-09  3.42729490e-09  1.55099921e-07  3.16558584e-08  9.70000000e-01 
 9.80000000e-01  3.09996968e-09  3.19745884e-09  4.57004295e-01  3.39607605e-09  4.57004295e-01  3.21884392e-09  3.42729490e-09  1.55099903e-07  3.16559863e-08  9.80000000e-01 
 9.90000000e-01  3.09996968e-09  3.19745884e-09  4.57004296e-01  3.39607605e-09  4.57004296e-01  3.21884392e-09  3.42729490e-09  1.55099896e-07  3.16558015e-08  9.90000000e-01 
 1.00000000e+00  3.09996968e-09  3.19745884e-09  4.57004302e-01  3.39607605e-09  4.57004302e-01  3.21884392e-09  3.42729490e-09  1.55099924e-07  3.16558442e-08  1.00000000e+00 
 1.01000000e+00  3.09996968e-09  3.19745884e-09  4.57004316e-01  3.39607605e-09  4.57004316e-01  3.21884398e-09  3.42729490e-09  1.55099948e-07  3.16558157e-08  1.01000000e+00 
 1.02000000e+00  3.09996968e-09  3.19745884e-09  4.57004319e-01  3.39607605e-09  4.57004319e-01  3.21884392e-09  3.42729490e-09  1.55099942e-07  3.16557660e-08  1.02000000e+00 
 1.03000000e+00  3.09996968e-09  3.19745884e-09  4.57004286e-01  3.39607604e-09  4.57004286e-01  3.21884392e-09  3.42729490e-09  1.55099888e-07  3.16556381e-08  1.03000000e+00 
 1.04000000e+00  3.09996968e-09  3.19745884e-09  4.57004312e-01  3.39607605e-09  4.57004312e-01  3.21884392e-09  3.42729490e-09  1.55099939e-07  3.16555955e-08  1.04000000e+00 
 1.05000000e+00  3.09996968e-09  3.19745884e-09  4.57004304e-01  3.39607605e-09  4.57004304e-01  3.21884398e-09  3.42729490e-09  1.55099931e-07  3.16555173e-08  1.05000000e+00 
 1.06000000e+00  3.09996968e-09  3.19745884e-09  4.57004327e-01  3.39607605e-09  4.57004327e-01  3.21884398e-09  3.42729490e-09  1.55099957e-07  3.16554463e-08  1.06000000e+00 
 1.07000000e+00  3.09996968e-09  3.19745878e-09  4.57004289e-01  3.39607605e-09  4.57004289e-01  3.21884392e-09  3.42729490e-09  1.55099895e-07  3.16553468e-08  1.07000000e+00 
 1.08000000e+00  3.09996968e-09  3.19745880e-09  4.57004302e-01  3.39607605e-09  4.57004302e-01  3.21884398e-09  3.42729490e-09  1.55099918e-07  3.16554178e-08  1.08000000e+00 
 1.09000000e+00  3.09996968e-09  3.19745885e-09  4.57004315e-01  3.39607605e-09  4.57004315e-01  3.21884398e-09  3.42729490e-09  1.55099928e-07  3.16552189e-08  1.09000000e+00 
 1.10000000e+00  3.09996968e-09  3.19745884e-09  4.57004296e-01  3.39607605e-09  4.57004296e-01  3.21884392e-09  3.42729490e-09  1.55099915e-07  3.16551620e-08  1.10000000e+00 
