 v-sweep         v(b0)           v(b1)           v(b2)           v(b3)           v(b4)           v(b5)           v(b6)           i(vbias)        i(viout)        v(vout)        
 0.00000000e+00  4.57026392e-01  4.57026392e-01  4.57026392e-01  4.57026392e-01  3.24098405e-09  3.43394835e-09  3.24272196e-09  1.56649605e-07  2.25150514e-08  0.00000000e+00 
 1.00000000e-02  4.57026379e-01  4.57026379e-01  4.57026379e-01  4.57026379e-01  3.24098403e-09  3.43394832e-09  3.24272194e-09  1.56649587e-07  2.25146196e-08  1.00000000e-02 
 2.00000000e-02  4.57026395e-01  4.57026395e-01  4.57026395e-01  4.57026395e-01  3.24098403e-09  3.43394834e-09  3.24272188e-09  1.56649606e-07  2.25142385e-08  2.00000000e-02 
 3.00000000e-02  4.57026371e-01  4.57026371e-01  4.57026371e-01  4.57026371e-01  3.24098403e-09  3.43394831e-09  3.24272188e-09  1.56649574e-07  2.25139158e-08  3.00000000e-02 
 4.00000000e-02  4.57026371e-01  4.57026371e-01  4.57026371e-01  4.57026371e-01  3.24098403e-09  3.43394833e-09  3.24272194e-09  1.56649567e-07  2.25136332e-08  4.00000000e-02 
 5.00000000e-02  4.57026379e-01  4.57026379e-01  4.57026379e-01  4.57026379e-01  3.24098403e-09  3.43394832e-09  3.24272188e-09  1.56649575e-07  2.25132242e-08  5.00000000e-02 
 6.00000000e-02  4.57026397e-01  4.57026397e-01  4.57026397e-01  4.57026397e-01  3.24098403e-09  3.43394828e-09  3.24272188e-09  1.56649626e-07  2.25128938e-08  6.00000000e-02 
 7.00000000e-02  4.57026382e-01  4.57026382e-01  4.57026382e-01  4.57026382e-01  3.24098403e-09  3.43394833e-09  3.24272194e-09  1.56649595e-07  2.25125603e-08  7.00000000e-02 
 8.00000000e-02  4.57026382e-01  4.57026382e-01  4.57026382e-01  4.57026382e-01  3.24098403e-09  3.43394832e-09  3.24272188e-09  1.56649584e-07  2.25123742e-08  8.00000000e-02 
 9.00000000e-02  4.57026377e-01  4.57026377e-01  4.57026377e-01  4.57026377e-01  3.24098403e-09  3.43394833e-09  3.24272194e-09  1.56649586e-07  2.25120997e-08  9.00000000e-02 
 1.00000000e-01  4.57026398e-01  4.57026398e-01  4.57026398e-01  4.57026398e-01  3.24098403e-09  3.43394832e-09  3.24272194e-09  1.56649626e-07  2.25117649e-08  1.00000000e-01 
 1.10000000e-01  4.57026402e-01  4.57026402e-01  4.57026402e-01  4.57026402e-01  3.24098403e-09  3.43394834e-09  3.24272188e-09  1.56649620e-07  2.25116121e-08  1.10000000e-01 
 1.20000000e-01  4.57026382e-01  4.57026382e-01  4.57026382e-01  4.57026382e-01  3.24098403e-09  3.43394832e-09  3.24272194e-09  1.56649600e-07  2.25113981e-08  1.20000000e-01 
 1.30000000e-01  4.57026376e-01  4.57026376e-01  4.57026376e-01  4.57026376e-01  3.24098403e-09  3.43394833e-09  3.24272194e-09  1.56649580e-07  2.25111956e-08  1.30000000e-01 
 1.40000000e-01  4.57026377e-01  4.57026377e-01  4.57026377e-01  4.57026377e-01  3.24098409e-09  3.43394832e-09  3.24272194e-09  1.56649580e-07  2.25109504e-08  1.40000000e-01 
 1.50000000e-01  4.57026388e-01  4.57026388e-01  4.57026388e-01  4.57026388e-01  3.24098403e-09  3.43394828e-09  3.24272188e-09  1.56649598e-07  2.25107293e-08  1.50000000e-01 
 1.60000000e-01  4.57026369e-01  4.57026369e-01  4.57026369e-01  4.57026369e-01  3.24098403e-09  3.43394833e-09  3.24272188e-09  1.56649580e-07  2.25105126e-08  1.60000000e-01 
 1.70000000e-01  4.57026372e-01  4.57026372e-01  4.57026372e-01  4.57026372e-01  3.24098408e-09  3.43394831e-09  3.24272188e-09  1.56649580e-07  2.25103296e-08  1.70000000e-01 
 1.80000000e-01  4.57026395e-01  4.57026395e-01  4.57026395e-01  4.57026395e-01  3.24098409e-09  3.43394828e-09  3.24272194e-09  1.56649619e-07  2.25101413e-08  1.80000000e-01 
 1.90000000e-01  4.57026361e-01  4.57026361e-01  4.57026361e-01  4.57026361e-01  3.24098408e-09  3.43394833e-09  3.24272188e-09  1.56649561e-07  2.25100045e-08  1.90000000e-01 
 2.00000000e-01  4.57026381e-01  4.57026381e-01  4.57026381e-01  4.57026381e-01  3.24098403e-09  3.43394833e-09  3.24272194e-09  1.56649605e-07  2.25100010e-08  2.00000000e-01 
 2.10000000e-01  4.57026365e-01  4.57026365e-01  4.57026365e-01  4.57026365e-01  3.24098403e-09  3.43394831e-09  3.24272194e-09  1.56649566e-07  2.25097185e-08  2.10000000e-01 
 2.20000000e-01  4.57026386e-01  4.57026386e-01  4.57026386e-01  4.57026386e-01  3.24098403e-09  3.43394834e-09  3.24272188e-09  1.56649599e-07  2.25096581e-08  2.20000000e-01 
 2.30000000e-01  4.57026393e-01  4.57026393e-01  4.57026393e-01  4.57026393e-01  3.24098403e-09  3.43394832e-09  3.24272188e-09  1.56649601e-07  2.25094308e-08  2.30000000e-01 
 2.40000000e-01  4.57026379e-01  4.57026379e-01  4.57026379e-01  4.57026379e-01  3.24098403e-09  3.43394833e-09  3.24272194e-09  1.56649590e-07  2.25092869e-08  2.40000000e-01 
 2.50000000e-01  4.57026374e-01  4.57026374e-01  4.57026374e-01  4.57026374e-01  3.24098403e-09  3.43394832e-09  3.24272188e-09  1.56649573e-07  2.25091092e-08  2.50000000e-01 
 2.60000000e-01  4.57026385e-01  4.57026385e-01  4.57026385e-01  4.57026385e-01  3.24098403e-09  3.43394828e-09  3.24272194e-09  1.56649595e-07  2.25090275e-08  2.60000000e-01 
 2.70000000e-01  4.57026386e-01  4.57026386e-01  4.57026386e-01  4.57026386e-01  3.24098403e-09  3.43394827e-09  3.24272188e-09  1.56649602e-07  2.25090133e-08  2.70000000e-01 
 2.80000000e-01  4.57026385e-01  4.57026385e-01  4.57026385e-01  4.57026385e-01  3.24098403e-09  3.43394827e-09  3.24272194e-09  1.56649604e-07  2.25088481e-08  2.80000000e-01 
 2.90000000e-01  4.57026367e-01  4.57026367e-01  4.57026367e-01  4.57026368e-01  3.24098403e-09  3.43394833e-09  3.24272194e-09  1.56649569e-07  2.25087007e-08  2.90000000e-01 
 3.00000000e-01  4.57026403e-01  4.57026403e-01  4.57026403e-01  4.57026403e-01  3.24098403e-09  3.43394832e-09  3.24272188e-09  1.56649623e-07  2.25086652e-08  3.00000000e-01 
 3.10000000e-01  4.57026373e-01  4.57026373e-01  4.57026373e-01  4.57026373e-01  3.24098403e-09  3.43394833e-09  3.24272188e-09  1.56649576e-07  2.25085621e-08  3.10000000e-01 
 3.20000000e-01  4.57026403e-01  4.57026403e-01  4.57026403e-01  4.57026403e-01  3.24098403e-09  3.43394832e-09  3.24272188e-09  1.56649627e-07  2.25085302e-08  3.20000000e-01 
 3.30000000e-01  4.57026378e-01  4.57026378e-01  4.57026378e-01  4.57026378e-01  3.24098403e-09  3.43394828e-09  3.24272188e-09  1.56649590e-07  2.25084058e-08  3.30000000e-01 
 3.40000000e-01  4.57026368e-01  4.57026368e-01  4.57026368e-01  4.57026368e-01  3.24098403e-09  3.43394833e-09  3.24272194e-09  1.56649582e-07  2.25083312e-08  3.40000000e-01 
 3.50000000e-01  4.57026381e-01  4.57026381e-01  4.57026381e-01  4.57026381e-01  3.24098409e-09  3.43394832e-09  3.24272188e-09  1.56649594e-07  2.25082601e-08  3.50000000e-01 
 3.60000000e-01  4.57026394e-01  4.57026394e-01  4.57026394e-01  4.57026394e-01  3.24098403e-09  3.43394828e-09  3.24272194e-09  1.56649595e-07  2.25081962e-08  3.60000000e-01 
 3.70000000e-01  4.57026388e-01  4.57026388e-01  4.57026388e-01  4.57026388e-01  3.24098403e-09  3.43394833e-09  3.24272188e-09  1.56649604e-07  2.25080505e-08  3.70000000e-01 
 3.80000000e-01  4.57026398e-01  4.57026398e-01  4.57026398e-01  4.57026398e-01  3.24098403e-09  3.43394832e-09  3.24272188e-09  1.56649605e-07  2.25079901e-08  3.80000000e-01 
 3.90000000e-01  4.57026380e-01  4.57026380e-01  4.57026380e-01  4.57026380e-01  3.24098403e-09  3.43394828e-09  3.24272194e-09  1.56649575e-07  2.25079262e-08  3.90000000e-01 
 4.00000000e-01  4.57026378e-01  4.57026378e-01  4.57026378e-01  4.57026378e-01  3.24098403e-09  3.43394827e-09  3.24272188e-09  1.56649582e-07  2.25077308e-08  4.00000000e-01 
 4.10000000e-01  4.57026371e-01  4.57026371e-01  4.57026371e-01  4.57026371e-01  3.24098403e-09  3.43394833e-09  3.24272194e-09  1.56649577e-07  2.25078232e-08  4.10000000e-01 
 4.20000000e-01  4.57026381e-01  4.57026381e-01  4.57026381e-01  4.57026381e-01  3.24098403e-09  3.43394832e-09  3.24272188e-09  1.56649595e-07  2.25075674e-08  4.20000000e-01 
 4.30000000e-01  4.57026397e-01  4.57026397e-01  4.57026397e-01  4.57026397e-01  3.24098403e-09  3.43394834e-09  3.24272188e-09  1.56649621e-07  2.25075070e-08  4.30000000e-01 
 4.40000000e-01  4.57026377e-01  4.57026377e-01  4.57026377e-01  4.57026377e-01  3.24098403e-09  3.43394832e-09  3.24272194e-09  1.56649576e-07  2.25075460e-08  4.40000000e-01 
 4.50000000e-01  4.57026381e-01  4.57026381e-01  4.57026381e-01  4.57026381e-01  3.24098403e-09  3.43394833e-09  3.24272188e-09  1.56649593e-07  2.25074963e-08  4.50000000e-01 
 4.60000000e-01  4.57026399e-01  4.57026399e-01  4.57026399e-01  4.57026399e-01  3.24098403e-09  3.43394832e-09  3.24272188e-09  1.56649617e-07  2.25073578e-08  4.60000000e-01 
 4.70000000e-01  4.57026384e-01  4.57026384e-01  4.57026384e-01  4.57026384e-01  3.24098403e-09  3.43394828e-09  3.24272194e-09  1.56649602e-07  2.25073258e-08  4.70000000e-01 
 4.80000000e-01  4.57026372e-01  4.57026372e-01  4.57026372e-01  4.57026372e-01  3.24098403e-09  3.43394827e-09  3.24272194e-09  1.56649575e-07  2.25072867e-08  4.80000000e-01 
 4.90000000e-01  4.57026385e-01  4.57026385e-01  4.57026385e-01  4.57026385e-01  3.24098403e-09  3.43394827e-09  3.24272194e-09  1.56649593e-07  2.25072476e-08  4.90000000e-01 
 5.00000000e-01  4.57026395e-01  4.57026395e-01  4.57026395e-01  4.57026395e-01  3.24098403e-09  3.43394827e-09  3.24272188e-09  1.56649602e-07  2.25072689e-08  5.00000000e-01 
 5.10000000e-01  4.57026373e-01  4.57026373e-01  4.57026373e-01  4.57026374e-01  3.24098403e-09  3.43394833e-09  3.24272194e-09  1.56649579e-07  2.25070025e-08  5.10000000e-01 
 5.20000000e-01  4.57026394e-01  4.57026394e-01  4.57026394e-01  4.57026394e-01  3.24098403e-09  3.43394832e-09  3.24272188e-09  1.56649614e-07  2.25070025e-08  5.20000000e-01 
 5.30000000e-01  4.57026360e-01  4.57026360e-01  4.57026360e-01  4.57026360e-01  3.24098403e-09  3.43394833e-09  3.24272194e-09  1.56649567e-07  2.25069705e-08  5.30000000e-01 
 5.40000000e-01  4.57026374e-01  4.57026374e-01  4.57026374e-01  4.57026374e-01  3.24098403e-09  3.43394832e-09  3.24272188e-09  1.56649581e-07  2.25070060e-08  5.40000000e-01 
 5.50000000e-01  4.57026361e-01  4.57026361e-01  4.57026361e-01  4.57026361e-01  3.24098403e-09  3.43394827e-09  3.24272194e-09  1.56649560e-07  2.25069314e-08  5.50000000e-01 
 5.60000000e-01  4.57026388e-01  4.57026388e-01  4.57026388e-01  4.57026388e-01  3.24098403e-09  3.43394833e-09  3.24272194e-09  1.56649588e-07  2.25068248e-08  5.60000000e-01 
 5.70000000e-01  4.57026382e-01  4.57026382e-01  4.57026382e-01  4.57026382e-01  3.24098403e-09  3.43394832e-09  3.24272194e-09  1.56649592e-07  2.25067254e-08  5.70000000e-01 
 5.80000000e-01  4.57026387e-01  4.57026387e-01  4.57026387e-01  4.57026387e-01  3.24098403e-09  3.43394834e-09  3.24272194e-09  1.56649606e-07  2.25067041e-08  5.80000000e-01 
 5.90000000e-01  4.57026373e-01  4.57026373e-01  4.57026373e-01  4.57026373e-01  3.24098403e-09  3.43394832e-09  3.24272194e-09  1.56649601e-07  2.25066827e-08  5.90000000e-01 
 6.00000000e-01  4.57026390e-01  4.57026390e-01  4.57026390e-01  4.57026390e-01  3.24098403e-09  3.43394834e-09  3.24272194e-09  1.56649605e-07  2.25065548e-08  6.00000000e-01 
 6.10000000e-01  4.57026392e-01  4.57026392e-01  4.57026392e-01  4.57026392e-01  3.24098403e-09  3.43394832e-09  3.24272188e-09  1.56649602e-07  2.25064625e-08  6.10000000e-01 
 6.20000000e-01  4.57026380e-01  4.57026380e-01  4.57026380e-01  4.57026380e-01  3.24098403e-09  3.43394833e-09  3.24272194e-09  1.56649581e-07  2.25064198e-08  6.20000000e-01 
 6.30000000e-01  4.57026409e-01  4.57026409e-01  4.57026409e-01  4.57026409e-01  3.24098403e-09  3.43394832e-09  3.24272188e-09  1.56649635e-07  2.25065975e-08  6.30000000e-01 
 6.40000000e-01  4.57026387e-01  4.57026387e-01  4.57026387e-01  4.57026387e-01  3.24098403e-09  3.43394834e-09  3.24272194e-09  1.56649584e-07  2.25063488e-08  6.40000000e-01 
 6.50000000e-01  4.57026393e-01  4.57026393e-01  4.57026393e-01  4.57026393e-01  3.24098403e-09  3.43394832e-09  3.24272188e-09  1.56649602e-07  2.25062422e-08  6.50000000e-01 
 6.60000000e-01  4.57026375e-01  4.57026375e-01  4.57026375e-01  4.57026375e-01  3.24098403e-09  3.43394833e-09  3.24272188e-09  1.56649574e-07  2.25062493e-08  6.60000000e-01 
 6.70000000e-01  4.57026376e-01  4.57026376e-01  4.57026376e-01  4.57026376e-01  3.24098403e-09  3.43394832e-09  3.24272194e-09  1.56649572e-07  2.25062635e-08  6.70000000e-01 
 6.80000000e-01  4.57026375e-01  4.57026375e-01  4.57026375e-01  4.57026375e-01  3.24098408e-09  3.43394833e-09  3.24272194e-09  1.56649573e-07  2.25061427e-08  6.80000000e-01 
 6.90000000e-01  4.57026369e-01  4.57026369e-01  4.57026369e-01  4.57026369e-01  3.24098403e-09  3.43394831e-09  3.24272194e-09  1.56649571e-07  2.25061427e-08  6.90000000e-01 
 7.00000000e-01  4.57026377e-01  4.57026377e-01  4.57026377e-01  4.57026377e-01  3.24098403e-09  3.43394833e-09  3.24272194e-09  1.56649580e-07  2.25059935e-08  7.00000000e-01 
 7.10000000e-01  4.57026398e-01  4.57026398e-01  4.57026398e-01  4.57026398e-01  3.24098403e-09  3.43394832e-09  3.24272188e-09  1.56649606e-07  2.25061001e-08  7.10000000e-01 
 7.20000000e-01  4.57026390e-01  4.57026390e-01  4.57026390e-01  4.57026390e-01  3.24098403e-09  3.43394834e-09  3.24272194e-09  1.56649583e-07  2.25060433e-08  7.20000000e-01 
 7.30000000e-01  4.57026383e-01  4.57026383e-01  4.57026383e-01  4.57026383e-01  3.24098409e-09  3.43394832e-09  3.24272188e-09  1.56649596e-07  2.25060433e-08  7.30000000e-01 
 7.40000000e-01  4.57026375e-01  4.57026375e-01  4.57026375e-01  4.57026375e-01  3.24098403e-09  3.43394828e-09  3.24272188e-09  1.56649583e-07  2.25058727e-08  7.40000000e-01 
 7.50000000e-01  4.57026377e-01  4.57026377e-01  4.57026377e-01  4.57026377e-01  3.24098403e-09  3.43394827e-09  3.24272188e-09  1.56649597e-07  2.25060006e-08  7.50000000e-01 
 7.60000000e-01  4.57026372e-01  4.57026372e-01  4.57026372e-01  4.57026372e-01  3.24098403e-09  3.43394833e-09  3.24272194e-09  1.56649571e-07  2.25058372e-08  7.60000000e-01 
 7.70000000e-01  4.57026378e-01  4.57026378e-01  4.57026378e-01  4.57026378e-01  3.24098403e-09  3.43394832e-09  3.24272194e-09  1.56649577e-07  2.25056525e-08  7.70000000e-01 
 7.80000000e-01  4.57026390e-01  4.57026390e-01  4.57026390e-01  4.57026390e-01  3.24098403e-09  3.43394834e-09  3.24272188e-09  1.56649604e-07  2.25056453e-08  7.80000000e-01 
 7.90000000e-01  4.57026380e-01  4.57026380e-01  4.57026380e-01  4.57026380e-01  3.24098403e-09  3.43394832e-09  3.24272194e-09  1.56649595e-07  2.25056240e-08  7.90000000e-01 
 8.00000000e-01  4.57026387e-01  4.57026387e-01  4.57026387e-01  4.57026387e-01  3.24098403e-09  3.43394828e-09  3.24272194e-09  1.56649587e-07  2.25055601e-08  8.00000000e-01 
 8.10000000e-01  4.57026363e-01  4.57026363e-01  4.57026363e-01  4.57026363e-01  3.24098403e-09  3.43394827e-09  3.24272194e-09  1.56649576e-07  2.25055672e-08  8.10000000e-01 
 8.20000000e-01  4.57026380e-01  4.57026380e-01  4.57026380e-01  4.57026380e-01  3.24098403e-09  3.43394833e-09  3.24272194e-09  1.56649588e-07  2.25055246e-08  8.20000000e-01 
 8.30000000e-01  4.57026389e-01  4.57026389e-01  4.57026389e-01  4.57026389e-01  3.24098403e-09  3.43394832e-09  3.24272188e-09  1.56649589e-07  2.25053753e-08  8.30000000e-01 
 8.40000000e-01  4.57026387e-01  4.57026387e-01  4.57026387e-01  4.57026387e-01  3.24098403e-09  3.43394834e-09  3.24272194e-09  1.56649606e-07  2.25054180e-08  8.40000000e-01 
 8.50000000e-01  4.57026379e-01  4.57026379e-01  4.57026379e-01  4.57026379e-01  3.24098403e-09  3.43394832e-09  3.24272188e-09  1.56649575e-07  2.25054535e-08  8.50000000e-01 
 8.60000000e-01  4.57026405e-01  4.57026405e-01  4.57026405e-01  4.57026405e-01  3.24098403e-09  3.43394828e-09  3.24272188e-09  1.56649613e-07  2.25052545e-08  8.60000000e-01 
 8.70000000e-01  4.57026369e-01  4.57026369e-01  4.57026369e-01  4.57026369e-01  3.24098403e-09  3.43394833e-09  3.24272194e-09  1.56649573e-07  2.25051551e-08  8.70000000e-01 
 8.80000000e-01  4.57026387e-01  4.57026387e-01  4.57026387e-01  4.57026387e-01  3.24098403e-09  3.43394832e-09  3.24272194e-09  1.56649596e-07  2.25051338e-08  8.80000000e-01 
 8.90000000e-01  4.57026375e-01  4.57026375e-01  4.57026375e-01  4.57026375e-01  3.24098403e-09  3.43394828e-09  3.24272194e-09  1.56649578e-07  2.25051551e-08  8.90000000e-01 
 9.00000000e-01  4.57026385e-01  4.57026385e-01  4.57026385e-01  4.57026385e-01  3.24098409e-09  3.43394833e-09  3.24272188e-09  1.56649605e-07  2.25050556e-08  9.00000000e-01 
 9.10000000e-01  4.57026403e-01  4.57026403e-01  4.57026403e-01  4.57026403e-01  3.24098403e-09  3.43394832e-09  3.24272188e-09  1.56649626e-07  2.25049916e-08  9.10000000e-01 
 9.20000000e-01  4.57026387e-01  4.57026387e-01  4.57026387e-01  4.57026387e-01  3.24098403e-09  3.43394828e-09  3.24272194e-09  1.56649586e-07  2.25049561e-08  9.20000000e-01 
 9.30000000e-01  4.57026377e-01  4.57026377e-01  4.57026377e-01  4.57026377e-01  3.24098403e-09  3.43394833e-09  3.24272188e-09  1.56649572e-07  2.25049703e-08  9.30000000e-01 
 9.40000000e-01  4.57026376e-01  4.57026376e-01  4.57026376e-01  4.57026376e-01  3.24098403e-09  3.43394832e-09  3.24272188e-09  1.56649579e-07  2.25048282e-08  9.40000000e-01 
 9.50000000e-01  4.57026408e-01  4.57026408e-01  4.57026408e-01  4.57026408e-01  3.24098403e-09  3.43394834e-09  3.24272194e-09  1.56649641e-07  2.25048709e-08  9.50000000e-01 
 9.60000000e-01  4.57026369e-01  4.57026369e-01  4.57026369e-01  4.57026369e-01  3.24098403e-09  3.43394831e-09  3.24272194e-09  1.56649556e-07  2.25046932e-08  9.60000000e-01 
 9.70000000e-01  4.57026375e-01  4.57026375e-01  4.57026375e-01  4.57026375e-01  3.24098403e-09  3.43394828e-09  3.24272194e-09  1.56649589e-07  2.25046932e-08  9.70000000e-01 
 9.80000000e-01  4.57026390e-01  4.57026390e-01  4.57026390e-01  4.57026390e-01  3.24098409e-09  3.43394833e-09  3.24272188e-09  1.56649603e-07  2.25046506e-08  9.80000000e-01 
 9.90000000e-01  4.57026369e-01  4.57026369e-01  4.57026369e-01  4.57026369e-01  3.24098408e-09  3.43394831e-09  3.24272194e-09  1.56649581e-07  2.25045582e-08  9.90000000e-01 
 1.00000000e+00  4.57026396e-01  4.57026396e-01  4.57026396e-01  4.57026396e-01  3.24098409e-09  3.43394834e-09  3.24272188e-09  1.56649614e-07  2.25044801e-08  1.00000000e+00 
 1.01000000e+00  4.57026377e-01  4.57026377e-01  4.57026377e-01  4.57026377e-01  3.24098403e-09  3.43394832e-09  3.24272188e-09  1.56649584e-07  2.25046008e-08  1.01000000e+00 
 1.02000000e+00  4.57026386e-01  4.57026386e-01  4.57026386e-01  4.57026386e-01  3.24098403e-09  3.43394828e-09  3.24272188e-09  1.56649603e-07  2.25044801e-08  1.02000000e+00 
 1.03000000e+00  4.57026389e-01  4.57026389e-01  4.57026389e-01  4.57026389e-01  3.24098403e-09  3.43394827e-09  3.24272194e-09  1.56649607e-07  2.25043166e-08  1.03000000e+00 
 1.04000000e+00  4.57026350e-01  4.57026350e-01  4.57026350e-01  4.57026350e-01  3.24098408e-09  3.43394832e-09  3.24272194e-09  1.56649531e-07  2.25043806e-08  1.04000000e+00 
 1.05000000e+00  4.57026376e-01  4.57026376e-01  4.57026376e-01  4.57026376e-01  3.24098403e-09  3.43394833e-09  3.24272188e-09  1.56649573e-07  2.25041603e-08  1.05000000e+00 
 1.06000000e+00  4.57026384e-01  4.57026384e-01  4.57026384e-01  4.57026384e-01  3.24098403e-09  3.43394832e-09  3.24272194e-09  1.56649599e-07  2.25042314e-08  1.06000000e+00 
 1.07000000e+00  4.57026380e-01  4.57026380e-01  4.57026380e-01  4.57026380e-01  3.24098403e-09  3.43394828e-09  3.24272194e-09  1.56649590e-07  2.25042456e-08  1.07000000e+00 
 1.08000000e+00  4.57026388e-01  4.57026388e-01  4.57026388e-01  4.57026388e-01  3.24098403e-09  3.43394833e-09  3.24272188e-09  1.56649593e-07  2.25041674e-08  1.08000000e+00 
 1.09000000e+00  4.57026384e-01  4.57026384e-01  4.57026384e-01  4.57026384e-01  3.24098403e-09  3.43394832e-09  3.24272194e-09  1.56649595e-07  2.25040040e-08  1.09000000e+00 
 1.10000000e+00  4.57026377e-01  4.57026377e-01  4.57026377e-01  4.57026377e-01  3.24098403e-09  3.43394828e-09  3.24272194e-09  1.56649600e-07  2.25040324e-08  1.10000000e+00 
