 v-sweep         v(b0)           v(b1)           v(b2)           v(b3)           v(b4)           v(b5)           v(b6)           i(vbias)        i(viout)        v(vout)        
 0.00000000e+00  4.56694275e-01  3.59664792e-09  3.24860953e-09  4.56694275e-01  4.56694275e-01  3.35827706e-09  4.56694275e-01  1.55081111e-07  1.28892422e-07  0.00000000e+00 
 1.00000000e-02  4.56694238e-01  3.59664795e-09  3.24860951e-09  4.56694238e-01  4.56694238e-01  3.35827703e-09  4.56694238e-01  1.55081076e-07  1.28891774e-07  1.00000000e-02 
 2.00000000e-02  4.56694233e-01  3.59664790e-09  3.24860957e-09  4.56694233e-01  4.56694233e-01  3.35827704e-09  4.56694233e-01  1.55081055e-07  1.28891350e-07  2.00000000e-02 
 3.00000000e-02  4.56694270e-01  3.59664796e-09  3.24860957e-09  4.56694270e-01  4.56694270e-01  3.35827704e-09  4.56694270e-01  1.55081109e-07  1.28891064e-07  3.00000000e-02 
 4.00000000e-02  4.56694267e-01  3.59664790e-09  3.24860957e-09  4.56694267e-01  4.56694267e-01  3.35827710e-09  4.56694267e-01  1.55081107e-07  1.28890780e-07  4.00000000e-02 
 5.00000000e-02  4.56694274e-01  3.59664790e-09  3.24860957e-09  4.56694274e-01  4.56694274e-01  3.35827708e-09  4.56694274e-01  1.55081112e-07  1.28890345e-07  5.00000000e-02 
 6.00000000e-02  4.56694270e-01  3.59664790e-09  3.24860957e-09  4.56694270e-01  4.56694270e-01  3.35827703e-09  4.56694270e-01  1.55081097e-07  1.28890117e-07  6.00000000e-02 
 7.00000000e-02  4.56694266e-01  3.59664796e-09  3.24860957e-09  4.56694266e-01  4.56694265e-01  3.35827705e-09  4.56694265e-01  1.55081084e-07  1.28889762e-07  7.00000000e-02 
 8.00000000e-02  4.56694258e-01  3.59664790e-09  3.24860951e-09  4.56694258e-01  4.56694258e-01  3.35827703e-09  4.56694258e-01  1.55081081e-07  1.28889380e-07  8.00000000e-02 
 9.00000000e-02  4.56694262e-01  3.59664796e-09  3.24860951e-09  4.56694262e-01  4.56694262e-01  3.35827704e-09  4.56694262e-01  1.55081082e-07  1.28889114e-07  9.00000000e-02 
 1.00000000e-01  4.56694254e-01  3.59664790e-09  3.24860951e-09  4.56694254e-01  4.56694254e-01  3.35827708e-09  4.56694254e-01  1.55081087e-07  1.28888798e-07  1.00000000e-01 
 1.10000000e-01  4.56694256e-01  3.59664790e-09  3.24860951e-09  4.56694256e-01  4.56694255e-01  3.35827709e-09  4.56694255e-01  1.55081084e-07  1.28888543e-07  1.10000000e-01 
 1.20000000e-01  4.56694261e-01  3.59664790e-09  3.24860951e-09  4.56694261e-01  4.56694261e-01  3.35827703e-09  4.56694261e-01  1.55081079e-07  1.28888189e-07  1.20000000e-01 
 1.30000000e-01  4.56694252e-01  3.59664790e-09  3.24860957e-09  4.56694252e-01  4.56694252e-01  3.35827710e-09  4.56694252e-01  1.55081079e-07  1.28887944e-07  1.30000000e-01 
 1.40000000e-01  4.56694232e-01  3.59664790e-09  3.24860951e-09  4.56694232e-01  4.56694232e-01  3.35827708e-09  4.56694232e-01  1.55081051e-07  1.28887589e-07  1.40000000e-01 
 1.50000000e-01  4.56694252e-01  3.59664790e-09  3.24860957e-09  4.56694252e-01  4.56694252e-01  3.35827709e-09  4.56694252e-01  1.55081087e-07  1.28887519e-07  1.50000000e-01 
 1.60000000e-01  4.56694221e-01  3.59664789e-09  3.24860957e-09  4.56694221e-01  4.56694221e-01  3.35827703e-09  4.56694221e-01  1.55081025e-07  1.28887173e-07  1.60000000e-01 
 1.70000000e-01  4.56694247e-01  3.59664795e-09  3.24860957e-09  4.56694247e-01  4.56694247e-01  3.35827704e-09  4.56694247e-01  1.55081087e-07  1.28887036e-07  1.70000000e-01 
 1.80000000e-01  4.56694235e-01  3.59664795e-09  3.24860957e-09  4.56694235e-01  4.56694235e-01  3.35827704e-09  4.56694235e-01  1.55081047e-07  1.28886835e-07  1.80000000e-01 
 1.90000000e-01  4.56694247e-01  3.59664790e-09  3.24860957e-09  4.56694247e-01  4.56694247e-01  3.35827704e-09  4.56694247e-01  1.55081080e-07  1.28886688e-07  1.90000000e-01 
 2.00000000e-01  4.56694273e-01  3.59664796e-09  3.24860951e-09  4.56694273e-01  4.56694273e-01  3.35827704e-09  4.56694273e-01  1.55081103e-07  1.28886624e-07  2.00000000e-01 
 2.10000000e-01  4.56694285e-01  3.59664790e-09  3.24860951e-09  4.56694285e-01  4.56694285e-01  3.35827704e-09  4.56694285e-01  1.55081125e-07  1.28886500e-07  2.10000000e-01 
 2.20000000e-01  4.56694252e-01  3.59664790e-09  3.24860951e-09  4.56694252e-01  4.56694252e-01  3.35827704e-09  4.56694252e-01  1.55081059e-07  1.28886088e-07  2.20000000e-01 
 2.30000000e-01  4.56694306e-01  3.59664791e-09  3.24860951e-09  4.56694306e-01  4.56694306e-01  3.35827704e-09  4.56694306e-01  1.55081168e-07  1.28886173e-07  2.30000000e-01 
 2.40000000e-01  4.56694269e-01  3.59664796e-09  3.24860957e-09  4.56694269e-01  4.56694269e-01  3.35827704e-09  4.56694269e-01  1.55081100e-07  1.28885866e-07  2.40000000e-01 
 2.50000000e-01  4.56694241e-01  3.59664790e-09  3.24860951e-09  4.56694241e-01  4.56694241e-01  3.35827704e-09  4.56694241e-01  1.55081070e-07  1.28885580e-07  2.50000000e-01 
 2.60000000e-01  4.56694268e-01  3.59664790e-09  3.24860951e-09  4.56694268e-01  4.56694268e-01  3.35827704e-09  4.56694268e-01  1.55081089e-07  1.28885564e-07  2.60000000e-01 
 2.70000000e-01  4.56694266e-01  3.59664790e-09  3.24860951e-09  4.56694266e-01  4.56694266e-01  3.35827710e-09  4.56694266e-01  1.55081098e-07  1.28885459e-07  2.70000000e-01 
 2.80000000e-01  4.56694248e-01  3.59664790e-09  3.24860957e-09  4.56694247e-01  4.56694247e-01  3.35827703e-09  4.56694247e-01  1.55081077e-07  1.28885182e-07  2.80000000e-01 
 2.90000000e-01  4.56694244e-01  3.59664790e-09  3.24860951e-09  4.56694244e-01  4.56694244e-01  3.35827704e-09  4.56694244e-01  1.55081073e-07  1.28885127e-07  2.90000000e-01 
 3.00000000e-01  4.56694219e-01  3.59664789e-09  3.24860957e-09  4.56694219e-01  4.56694219e-01  3.35827704e-09  4.56694219e-01  1.55081026e-07  1.28884871e-07  3.00000000e-01 
 3.10000000e-01  4.56694243e-01  3.59664790e-09  3.24860957e-09  4.56694243e-01  4.56694243e-01  3.35827710e-09  4.56694242e-01  1.55081056e-07  1.28884910e-07  3.10000000e-01 
 3.20000000e-01  4.56694232e-01  3.59664790e-09  3.24860951e-09  4.56694232e-01  4.56694232e-01  3.35827703e-09  4.56694232e-01  1.55081050e-07  1.28884704e-07  3.20000000e-01 
 3.30000000e-01  4.56694265e-01  3.59664790e-09  3.24860957e-09  4.56694265e-01  4.56694265e-01  3.35827710e-09  4.56694265e-01  1.55081093e-07  1.28884629e-07  3.30000000e-01 
 3.40000000e-01  4.56694243e-01  3.59664790e-09  3.24860957e-09  4.56694243e-01  4.56694243e-01  3.35827708e-09  4.56694243e-01  1.55081060e-07  1.28884412e-07  3.40000000e-01 
 3.50000000e-01  4.56694258e-01  3.59664790e-09  3.24860957e-09  4.56694258e-01  4.56694258e-01  3.35827703e-09  4.56694258e-01  1.55081079e-07  1.28884423e-07  3.50000000e-01 
 3.60000000e-01  4.56694260e-01  3.59664790e-09  3.24860951e-09  4.56694260e-01  4.56694260e-01  3.35827704e-09  4.56694260e-01  1.55081077e-07  1.28884437e-07  3.60000000e-01 
 3.70000000e-01  4.56694270e-01  3.59664796e-09  3.24860951e-09  4.56694270e-01  4.56694270e-01  3.35827708e-09  4.56694270e-01  1.55081100e-07  1.28884121e-07  3.70000000e-01 
 3.80000000e-01  4.56694238e-01  3.59664790e-09  3.24860957e-09  4.56694238e-01  4.56694238e-01  3.35827709e-09  4.56694238e-01  1.55081064e-07  1.28883965e-07  3.80000000e-01 
 3.90000000e-01  4.56694218e-01  3.59664789e-09  3.24860951e-09  4.56694218e-01  4.56694218e-01  3.35827703e-09  4.56694218e-01  1.55081031e-07  1.28883954e-07  3.90000000e-01 
 4.00000000e-01  4.56694248e-01  3.59664796e-09  3.24860951e-09  4.56694248e-01  4.56694248e-01  3.35827704e-09  4.56694248e-01  1.55081067e-07  1.28883769e-07  4.00000000e-01 
 4.10000000e-01  4.56694251e-01  3.59664790e-09  3.24860957e-09  4.56694251e-01  4.56694251e-01  3.35827704e-09  4.56694251e-01  1.55081059e-07  1.28883780e-07  4.10000000e-01 
 4.20000000e-01  4.56694266e-01  3.59664790e-09  3.24860951e-09  4.56694266e-01  4.56694266e-01  3.35827704e-09  4.56694266e-01  1.55081090e-07  1.28883702e-07  4.20000000e-01 
 4.30000000e-01  4.56694262e-01  3.59664790e-09  3.24860957e-09  4.56694262e-01  4.56694262e-01  3.35827704e-09  4.56694262e-01  1.55081092e-07  1.28883602e-07  4.30000000e-01 
 4.40000000e-01  4.56694247e-01  3.59664795e-09  3.24860951e-09  4.56694247e-01  4.56694247e-01  3.35827704e-09  4.56694247e-01  1.55081067e-07  1.28883521e-07  4.40000000e-01 
 4.50000000e-01  4.56694252e-01  3.59664790e-09  3.24860957e-09  4.56694251e-01  4.56694251e-01  3.35827704e-09  4.56694251e-01  1.55081071e-07  1.28883400e-07  4.50000000e-01 
 4.60000000e-01  4.56694278e-01  3.59664790e-09  3.24860951e-09  4.56694278e-01  4.56694278e-01  3.35827704e-09  4.56694278e-01  1.55081123e-07  1.28883375e-07  4.60000000e-01 
 4.70000000e-01  4.56694244e-01  3.59664790e-09  3.24860951e-09  4.56694244e-01  4.56694243e-01  3.35827704e-09  4.56694243e-01  1.55081054e-07  1.28883183e-07  4.70000000e-01 
 4.80000000e-01  4.56694267e-01  3.59664790e-09  3.24860951e-09  4.56694267e-01  4.56694267e-01  3.35827704e-09  4.56694267e-01  1.55081105e-07  1.28883208e-07  4.80000000e-01 
 4.90000000e-01  4.56694264e-01  3.59664790e-09  3.24860957e-09  4.56694264e-01  4.56694264e-01  3.35827710e-09  4.56694264e-01  1.55081090e-07  1.28883002e-07  4.90000000e-01 
 5.00000000e-01  4.56694272e-01  3.59664790e-09  3.24860957e-09  4.56694272e-01  4.56694272e-01  3.35827703e-09  4.56694272e-01  1.55081109e-07  1.28882995e-07  5.00000000e-01 
 5.10000000e-01  4.56694279e-01  3.59664796e-09  3.24860951e-09  4.56694279e-01  4.56694279e-01  3.35827705e-09  4.56694279e-01  1.55081104e-07  1.28882942e-07  5.10000000e-01 
 5.20000000e-01  4.56694265e-01  3.59664790e-09  3.24860957e-09  4.56694265e-01  4.56694265e-01  3.35827708e-09  4.56694265e-01  1.55081080e-07  1.28882910e-07  5.20000000e-01 
 5.30000000e-01  4.56694248e-01  3.59664790e-09  3.24860951e-09  4.56694248e-01  4.56694248e-01  3.35827703e-09  4.56694248e-01  1.55081076e-07  1.28882629e-07  5.30000000e-01 
 5.40000000e-01  4.56694257e-01  3.59664790e-09  3.24860957e-09  4.56694257e-01  4.56694257e-01  3.35827704e-09  4.56694257e-01  1.55081082e-07  1.28882593e-07  5.40000000e-01 
 5.50000000e-01  4.56694234e-01  3.59664790e-09  3.24860951e-09  4.56694233e-01  4.56694233e-01  3.35827708e-09  4.56694233e-01  1.55081058e-07  1.28882409e-07  5.50000000e-01 
 5.60000000e-01  4.56694252e-01  3.59664790e-09  3.24860957e-09  4.56694252e-01  4.56694252e-01  3.35827703e-09  4.56694252e-01  1.55081074e-07  1.28882423e-07  5.60000000e-01 
 5.70000000e-01  4.56694252e-01  3.59664790e-09  3.24860951e-09  4.56694252e-01  4.56694252e-01  3.35827704e-09  4.56694252e-01  1.55081077e-07  1.28882274e-07  5.70000000e-01 
 5.80000000e-01  4.56694271e-01  3.59664790e-09  3.24860951e-09  4.56694271e-01  4.56694271e-01  3.35827703e-09  4.56694271e-01  1.55081108e-07  1.28882157e-07  5.80000000e-01 
 5.90000000e-01  4.56694227e-01  3.59664790e-09  3.24860951e-09  4.56694227e-01  4.56694227e-01  3.35827704e-09  4.56694227e-01  1.55081027e-07  1.28882021e-07  5.90000000e-01 
 6.00000000e-01  4.56694277e-01  3.59664790e-09  3.24860957e-09  4.56694277e-01  4.56694277e-01  3.35827704e-09  4.56694277e-01  1.55081111e-07  1.28882043e-07  6.00000000e-01 
 6.10000000e-01  4.56694279e-01  3.59664790e-09  3.24860951e-09  4.56694278e-01  4.56694278e-01  3.35827710e-09  4.56694278e-01  1.55081126e-07  1.28881993e-07  6.10000000e-01 
 6.20000000e-01  4.56694248e-01  3.59664790e-09  3.24860951e-09  4.56694248e-01  4.56694248e-01  3.35827703e-09  4.56694248e-01  1.55081069e-07  1.28881872e-07  6.20000000e-01 
 6.30000000e-01  4.56694240e-01  3.59664790e-09  3.24860951e-09  4.56694240e-01  4.56694240e-01  3.35827704e-09  4.56694240e-01  1.55081068e-07  1.28881801e-07  6.30000000e-01 
 6.40000000e-01  4.56694271e-01  3.59664790e-09  3.24860951e-09  4.56694271e-01  4.56694271e-01  3.35827710e-09  4.56694271e-01  1.55081109e-07  1.28881744e-07  6.40000000e-01 
 6.50000000e-01  4.56694219e-01  3.59664789e-09  3.24860951e-09  4.56694219e-01  4.56694218e-01  3.35827708e-09  4.56694218e-01  1.55081026e-07  1.28881489e-07  6.50000000e-01 
 6.60000000e-01  4.56694245e-01  3.59664790e-09  3.24860951e-09  4.56694245e-01  4.56694245e-01  3.35827703e-09  4.56694245e-01  1.55081071e-07  1.28881517e-07  6.60000000e-01 
 6.70000000e-01  4.56694246e-01  3.59664790e-09  3.24860951e-09  4.56694246e-01  4.56694246e-01  3.35827710e-09  4.56694246e-01  1.55081073e-07  1.28881425e-07  6.70000000e-01 
 6.80000000e-01  4.56694258e-01  3.59664796e-09  3.24860957e-09  4.56694258e-01  4.56694258e-01  3.35827708e-09  4.56694258e-01  1.55081082e-07  1.28881275e-07  6.80000000e-01 
 6.90000000e-01  4.56694243e-01  3.59664790e-09  3.24860951e-09  4.56694243e-01  4.56694243e-01  3.35827703e-09  4.56694243e-01  1.55081067e-07  1.28881332e-07  6.90000000e-01 
 7.00000000e-01  4.56694258e-01  3.59664796e-09  3.24860957e-09  4.56694258e-01  4.56694258e-01  3.35827704e-09  4.56694258e-01  1.55081094e-07  1.28881233e-07  7.00000000e-01 
 7.10000000e-01  4.56694233e-01  3.59664790e-09  3.24860951e-09  4.56694233e-01  4.56694233e-01  3.35827708e-09  4.56694233e-01  1.55081052e-07  1.28880899e-07  7.10000000e-01 
 7.20000000e-01  4.56694267e-01  3.59664796e-09  3.24860957e-09  4.56694267e-01  4.56694267e-01  3.35827709e-09  4.56694267e-01  1.55081101e-07  1.28881140e-07  7.20000000e-01 
 7.30000000e-01  4.56694257e-01  3.59664790e-09  3.24860951e-09  4.56694257e-01  4.56694257e-01  3.35827703e-09  4.56694257e-01  1.55081083e-07  1.28880920e-07  7.30000000e-01 
 7.40000000e-01  4.56694257e-01  3.59664796e-09  3.24860957e-09  4.56694257e-01  4.56694257e-01  3.35827704e-09  4.56694257e-01  1.55081074e-07  1.28880870e-07  7.40000000e-01 
 7.50000000e-01  4.56694262e-01  3.59664790e-09  3.24860957e-09  4.56694262e-01  4.56694262e-01  3.35827703e-09  4.56694262e-01  1.55081083e-07  1.28880721e-07  7.50000000e-01 
 7.60000000e-01  4.56694243e-01  3.59664790e-09  3.24860951e-09  4.56694243e-01  4.56694243e-01  3.35827704e-09  4.56694243e-01  1.55081062e-07  1.28880650e-07  7.60000000e-01 
 7.70000000e-01  4.56694262e-01  3.59664790e-09  3.24860951e-09  4.56694262e-01  4.56694262e-01  3.35827704e-09  4.56694262e-01  1.55081088e-07  1.28880657e-07  7.70000000e-01 
 7.80000000e-01  4.56694239e-01  3.59664790e-09  3.24860951e-09  4.56694239e-01  4.56694239e-01  3.35827704e-09  4.56694239e-01  1.55081056e-07  1.28880430e-07  7.80000000e-01 
 7.90000000e-01  4.56694259e-01  3.59664790e-09  3.24860951e-09  4.56694259e-01  4.56694259e-01  3.35827710e-09  4.56694259e-01  1.55081089e-07  1.28880444e-07  7.90000000e-01 
 8.00000000e-01  4.56694241e-01  3.59664790e-09  3.24860951e-09  4.56694241e-01  4.56694241e-01  3.35827703e-09  4.56694241e-01  1.55081056e-07  1.28880295e-07  8.00000000e-01 
 8.10000000e-01  4.56694277e-01  3.59664790e-09  3.24860957e-09  4.56694277e-01  4.56694277e-01  3.35827705e-09  4.56694277e-01  1.55081111e-07  1.28880252e-07  8.10000000e-01 
 8.20000000e-01  4.56694247e-01  3.59664795e-09  3.24860951e-09  4.56694247e-01  4.56694247e-01  3.35827708e-09  4.56694247e-01  1.55081063e-07  1.28880089e-07  8.20000000e-01 
 8.30000000e-01  4.56694244e-01  3.59664795e-09  3.24860951e-09  4.56694244e-01  4.56694244e-01  3.35827709e-09  4.56694244e-01  1.55081059e-07  1.28880018e-07  8.30000000e-01 
 8.40000000e-01  4.56694269e-01  3.59664790e-09  3.24860951e-09  4.56694269e-01  4.56694269e-01  3.35827703e-09  4.56694269e-01  1.55081097e-07  1.28879897e-07  8.40000000e-01 
 8.50000000e-01  4.56694265e-01  3.59664796e-09  3.24860951e-09  4.56694265e-01  4.56694265e-01  3.35827705e-09  4.56694265e-01  1.55081090e-07  1.28879954e-07  8.50000000e-01 
 8.60000000e-01  4.56694246e-01  3.59664790e-09  3.24860951e-09  4.56694246e-01  4.56694246e-01  3.35827708e-09  4.56694246e-01  1.55081078e-07  1.28879698e-07  8.60000000e-01 
 8.70000000e-01  4.56694260e-01  3.59664790e-09  3.24860951e-09  4.56694260e-01  4.56694260e-01  3.35827703e-09  4.56694260e-01  1.55081099e-07  1.28879662e-07  8.70000000e-01 
 8.80000000e-01  4.56694256e-01  3.59664790e-09  3.24860951e-09  4.56694256e-01  4.56694256e-01  3.35827704e-09  4.56694256e-01  1.55081086e-07  1.28879506e-07  8.80000000e-01 
 8.90000000e-01  4.56694252e-01  3.59664790e-09  3.24860957e-09  4.56694252e-01  4.56694252e-01  3.35827703e-09  4.56694252e-01  1.55081084e-07  1.28879392e-07  8.90000000e-01 
 9.00000000e-01  4.56694267e-01  3.59664790e-09  3.24860957e-09  4.56694267e-01  4.56694267e-01  3.35827710e-09  4.56694267e-01  1.55081090e-07  1.28879350e-07  9.00000000e-01 
 9.10000000e-01  4.56694229e-01  3.59664795e-09  3.24860957e-09  4.56694229e-01  4.56694229e-01  3.35827703e-09  4.56694229e-01  1.55081038e-07  1.28879172e-07  9.10000000e-01 
 9.20000000e-01  4.56694244e-01  3.59664790e-09  3.24860957e-09  4.56694244e-01  4.56694244e-01  3.35827704e-09  4.56694244e-01  1.55081070e-07  1.28879201e-07  9.20000000e-01 
 9.30000000e-01  4.56694281e-01  3.59664790e-09  3.24860951e-09  4.56694281e-01  4.56694281e-01  3.35827704e-09  4.56694281e-01  1.55081102e-07  1.28879222e-07  9.30000000e-01 
 9.40000000e-01  4.56694273e-01  3.59664796e-09  3.24860957e-09  4.56694273e-01  4.56694273e-01  3.35827704e-09  4.56694273e-01  1.55081105e-07  1.28879066e-07  9.40000000e-01 
 9.50000000e-01  4.56694245e-01  3.59664795e-09  3.24860951e-09  4.56694245e-01  4.56694245e-01  3.35827704e-09  4.56694245e-01  1.55081073e-07  1.28878824e-07  9.50000000e-01 
 9.60000000e-01  4.56694258e-01  3.59664790e-09  3.24860951e-09  4.56694258e-01  4.56694257e-01  3.35827704e-09  4.56694257e-01  1.55081079e-07  1.28878739e-07  9.60000000e-01 
 9.70000000e-01  4.56694258e-01  3.59664790e-09  3.24860957e-09  4.56694258e-01  4.56694258e-01  3.35827704e-09  4.56694258e-01  1.55081077e-07  1.28878789e-07  9.70000000e-01 
 9.80000000e-01  4.56694274e-01  3.59664790e-09  3.24860951e-09  4.56694274e-01  4.56694274e-01  3.35827704e-09  4.56694274e-01  1.55081117e-07  1.28878710e-07  9.80000000e-01 
 9.90000000e-01  4.56694278e-01  3.59664790e-09  3.24860957e-09  4.56694278e-01  4.56694278e-01  3.35827704e-09  4.56694278e-01  1.55081091e-07  1.28878497e-07  9.90000000e-01 
 1.00000000e+00  4.56694236e-01  3.59664795e-09  3.24860951e-09  4.56694236e-01  4.56694236e-01  3.35827704e-09  4.56694236e-01  1.55081053e-07  1.28878312e-07  1.00000000e+00 
 1.01000000e+00  4.56694245e-01  3.59664790e-09  3.24860951e-09  4.56694245e-01  4.56694245e-01  3.35827704e-09  4.56694245e-01  1.55081089e-07  1.28878327e-07  1.01000000e+00 
 1.02000000e+00  4.56694283e-01  3.59664790e-09  3.24860951e-09  4.56694283e-01  4.56694283e-01  3.35827710e-09  4.56694283e-01  1.55081117e-07  1.28878384e-07  1.02000000e+00 
 1.03000000e+00  4.56694236e-01  3.59664790e-09  3.24860957e-09  4.56694236e-01  4.56694236e-01  3.35827703e-09  4.56694236e-01  1.55081050e-07  1.28878035e-07  1.03000000e+00 
 1.04000000e+00  4.56694257e-01  3.59664796e-09  3.24860957e-09  4.56694257e-01  4.56694257e-01  3.35827704e-09  4.56694257e-01  1.55081078e-07  1.28877964e-07  1.04000000e+00 
 1.05000000e+00  4.56694268e-01  3.59664790e-09  3.24860951e-09  4.56694268e-01  4.56694268e-01  3.35827708e-09  4.56694268e-01  1.55081096e-07  1.28878007e-07  1.05000000e+00 
 1.06000000e+00  4.56694256e-01  3.59664796e-09  3.24860957e-09  4.56694256e-01  4.56694256e-01  3.35827703e-09  4.56694256e-01  1.55081086e-07  1.28877822e-07  1.06000000e+00 
 1.07000000e+00  4.56694265e-01  3.59664790e-09  3.24860951e-09  4.56694265e-01  4.56694265e-01  3.35827705e-09  4.56694265e-01  1.55081088e-07  1.28877758e-07  1.07000000e+00 
 1.08000000e+00  4.56694247e-01  3.59664790e-09  3.24860951e-09  4.56694246e-01  4.56694246e-01  3.35827703e-09  4.56694246e-01  1.55081066e-07  1.28877545e-07  1.08000000e+00 
 1.09000000e+00  4.56694243e-01  3.59664790e-09  3.24860957e-09  4.56694243e-01  4.56694243e-01  3.35827704e-09  4.56694243e-01  1.55081062e-07  1.28877325e-07  1.09000000e+00 
 1.10000000e+00  4.56694258e-01  3.59664796e-09  3.24860957e-09  4.56694258e-01  4.56694258e-01  3.35827704e-09  4.56694258e-01  1.55081087e-07  1.28877382e-07  1.10000000e+00 
