 v-sweep         v(b0)           v(b1)           v(b2)           v(b3)           v(b4)           v(b5)           v(b6)           i(vbias)        i(viout)        v(vout)        
 0.00000000e+00  3.26725705e-09  4.58820344e-01  3.12585580e-09  3.38808179e-09  4.58820344e-01  3.45431919e-09  4.58820344e-01  1.62378240e-07  1.21878730e-07  0.00000000e+00 
 1.00000000e-02  3.26725703e-09  4.58820342e-01  3.12585583e-09  3.38808176e-09  4.58820342e-01  3.45431917e-09  4.58820342e-01  1.62378238e-07  1.21878167e-07  1.00000000e-02 
 2.00000000e-02  3.26725703e-09  4.58820353e-01  3.12585583e-09  3.38808176e-09  4.58820353e-01  3.45431917e-09  4.58820353e-01  1.62378267e-07  1.21877898e-07  2.00000000e-02 
 3.00000000e-02  3.26725703e-09  4.58820349e-01  3.12585578e-09  3.38808182e-09  4.58820349e-01  3.45431917e-09  4.58820349e-01  1.62378263e-07  1.21877634e-07  3.00000000e-02 
 4.00000000e-02  3.26725703e-09  4.58820341e-01  3.12585583e-09  3.38808181e-09  4.58820341e-01  3.45431923e-09  4.58820341e-01  1.62378224e-07  1.21877108e-07  4.00000000e-02 
 5.00000000e-02  3.26725703e-09  4.58820360e-01  3.12585583e-09  3.38808183e-09  4.58820360e-01  3.45431923e-09  4.58820360e-01  1.62378262e-07  1.21876786e-07  5.00000000e-02 
 6.00000000e-02  3.26725709e-09  4.58820366e-01  3.12585583e-09  3.38808181e-09  4.58820366e-01  3.45431923e-09  4.58820366e-01  1.62378274e-07  1.21876548e-07  6.00000000e-02 
 7.00000000e-02  3.26725702e-09  4.58820351e-01  3.12585583e-09  3.38808183e-09  4.58820351e-01  3.45431917e-09  4.58820351e-01  1.62378248e-07  1.21876202e-07  7.00000000e-02 
 8.00000000e-02  3.26725704e-09  4.58820345e-01  3.12585583e-09  3.38808181e-09  4.58820345e-01  3.45431923e-09  4.58820345e-01  1.62378239e-07  1.21875901e-07  8.00000000e-02 
 9.00000000e-02  3.26725709e-09  4.58820350e-01  3.12585583e-09  3.38808183e-09  4.58820350e-01  3.45431923e-09  4.58820350e-01  1.62378245e-07  1.21875526e-07  9.00000000e-02 
 1.00000000e-01  3.26725708e-09  4.58820347e-01  3.12585578e-09  3.38808181e-09  4.58820347e-01  3.45431917e-09  4.58820347e-01  1.62378239e-07  1.21875299e-07  1.00000000e-01 
 1.10000000e-01  3.26725704e-09  4.58820358e-01  3.12585583e-09  3.38808183e-09  4.58820358e-01  3.45431923e-09  4.58820358e-01  1.62378257e-07  1.21875007e-07  1.10000000e-01 
 1.20000000e-01  3.26725709e-09  4.58820356e-01  3.12585583e-09  3.38808175e-09  4.58820356e-01  3.45431917e-09  4.58820356e-01  1.62378263e-07  1.21874849e-07  1.20000000e-01 
 1.30000000e-01  3.26725708e-09  4.58820361e-01  3.12585583e-09  3.38808183e-09  4.58820361e-01  3.45431917e-09  4.58820361e-01  1.62378262e-07  1.21874416e-07  1.30000000e-01 
 1.40000000e-01  3.26725703e-09  4.58820365e-01  3.12585583e-09  3.38808175e-09  4.58820365e-01  3.45431923e-09  4.58820365e-01  1.62378282e-07  1.21874247e-07  1.40000000e-01 
 1.50000000e-01  3.26725704e-09  4.58820340e-01  3.12585578e-09  3.38808177e-09  4.58820340e-01  3.45431917e-09  4.58820340e-01  1.62378226e-07  1.21873978e-07  1.50000000e-01 
 1.60000000e-01  3.26725703e-09  4.58820342e-01  3.12585583e-09  3.38808182e-09  4.58820342e-01  3.45431917e-09  4.58820342e-01  1.62378223e-07  1.21873910e-07  1.60000000e-01 
 1.70000000e-01  3.26725709e-09  4.58820373e-01  3.12585578e-09  3.38808175e-09  4.58820373e-01  3.45431923e-09  4.58820373e-01  1.62378278e-07  1.21873661e-07  1.70000000e-01 
 1.80000000e-01  3.26725702e-09  4.58820354e-01  3.12585583e-09  3.38808183e-09  4.58820354e-01  3.45431923e-09  4.58820354e-01  1.62378260e-07  1.21873471e-07  1.80000000e-01 
 1.90000000e-01  3.26725704e-09  4.58820360e-01  3.12585583e-09  3.38808175e-09  4.58820360e-01  3.45431923e-09  4.58820360e-01  1.62378255e-07  1.21873217e-07  1.90000000e-01 
 2.00000000e-01  3.26725703e-09  4.58820358e-01  3.12585578e-09  3.38808177e-09  4.58820358e-01  3.45431923e-09  4.58820358e-01  1.62378267e-07  1.21873020e-07  2.00000000e-01 
 2.10000000e-01  3.26725703e-09  4.58820353e-01  3.12585583e-09  3.38808176e-09  4.58820353e-01  3.45431917e-09  4.58820353e-01  1.62378245e-07  1.21872857e-07  2.10000000e-01 
 2.20000000e-01  3.26725709e-09  4.58820359e-01  3.12585578e-09  3.38808176e-09  4.58820359e-01  3.45431923e-09  4.58820359e-01  1.62378266e-07  1.21872722e-07  2.20000000e-01 
 2.30000000e-01  3.26725708e-09  4.58820356e-01  3.12585583e-09  3.38808176e-09  4.58820356e-01  3.45431923e-09  4.58820356e-01  1.62378263e-07  1.21872564e-07  2.30000000e-01 
 2.40000000e-01  3.26725704e-09  4.58820366e-01  3.12585583e-09  3.38808182e-09  4.58820366e-01  3.45431917e-09  4.58820366e-01  1.62378281e-07  1.21872453e-07  2.40000000e-01 
 2.50000000e-01  3.26725709e-09  4.58820363e-01  3.12585578e-09  3.38808181e-09  4.58820363e-01  3.45431917e-09  4.58820363e-01  1.62378271e-07  1.21872205e-07  2.50000000e-01 
 2.60000000e-01  3.26725708e-09  4.58820348e-01  3.12585583e-09  3.38808177e-09  4.58820348e-01  3.45431923e-09  4.58820348e-01  1.62378237e-07  1.21872052e-07  2.60000000e-01 
 2.70000000e-01  3.26725704e-09  4.58820366e-01  3.12585583e-09  3.38808182e-09  4.58820366e-01  3.45431917e-09  4.58820366e-01  1.62378271e-07  1.21871949e-07  2.70000000e-01 
 2.80000000e-01  3.26725703e-09  4.58820356e-01  3.12585578e-09  3.38808181e-09  4.58820356e-01  3.45431917e-09  4.58820356e-01  1.62378255e-07  1.21871729e-07  2.80000000e-01 
 2.90000000e-01  3.26725703e-09  4.58820344e-01  3.12585583e-09  3.38808183e-09  4.58820344e-01  3.45431917e-09  4.58820344e-01  1.62378244e-07  1.21871697e-07  2.90000000e-01 
 3.00000000e-01  3.26725710e-09  4.58820387e-01  3.12585583e-09  3.38808181e-09  4.58820387e-01  3.45431917e-09  4.58820387e-01  1.62378298e-07  1.21871569e-07  3.00000000e-01 
 3.10000000e-01  3.26725707e-09  4.58820336e-01  3.12585578e-09  3.38808177e-09  4.58820336e-01  3.45431922e-09  4.58820336e-01  1.62378219e-07  1.21871338e-07  3.10000000e-01 
 3.20000000e-01  3.26725704e-09  4.58820349e-01  3.12585578e-09  3.38808176e-09  4.58820349e-01  3.45431917e-09  4.58820349e-01  1.62378251e-07  1.21871288e-07  3.20000000e-01 
 3.30000000e-01  3.26725703e-09  4.58820345e-01  3.12585578e-09  3.38808176e-09  4.58820345e-01  3.45431923e-09  4.58820345e-01  1.62378245e-07  1.21871064e-07  3.30000000e-01 
 3.40000000e-01  3.26725703e-09  4.58820353e-01  3.12585583e-09  3.38808176e-09  4.58820353e-01  3.45431917e-09  4.58820353e-01  1.62378236e-07  1.21871132e-07  3.40000000e-01 
 3.50000000e-01  3.26725709e-09  4.58820363e-01  3.12585583e-09  3.38808182e-09  4.58820363e-01  3.45431923e-09  4.58820363e-01  1.62378256e-07  1.21870968e-07  3.50000000e-01 
 3.60000000e-01  3.26725707e-09  4.58820340e-01  3.12585578e-09  3.38808181e-09  4.58820340e-01  3.45431917e-09  4.58820340e-01  1.62378232e-07  1.21870734e-07  3.60000000e-01 
 3.70000000e-01  3.26725704e-09  4.58820348e-01  3.12585583e-09  3.38808183e-09  4.58820348e-01  3.45431917e-09  4.58820348e-01  1.62378240e-07  1.21870720e-07  3.70000000e-01 
 3.80000000e-01  3.26725703e-09  4.58820341e-01  3.12585583e-09  3.38808175e-09  4.58820341e-01  3.45431917e-09  4.58820341e-01  1.62378241e-07  1.21870510e-07  3.80000000e-01 
 3.90000000e-01  3.26725709e-09  4.58820359e-01  3.12585583e-09  3.38808177e-09  4.58820359e-01  3.45431917e-09  4.58820359e-01  1.62378253e-07  1.21870535e-07  3.90000000e-01 
 4.00000000e-01  3.26725707e-09  4.58820340e-01  3.12585583e-09  3.38808182e-09  4.58820340e-01  3.45431917e-09  4.58820340e-01  1.62378240e-07  1.21870386e-07  4.00000000e-01 
 4.10000000e-01  3.26725704e-09  4.58820354e-01  3.12585583e-09  3.38808175e-09  4.58820354e-01  3.45431917e-09  4.58820354e-01  1.62378259e-07  1.21870315e-07  4.10000000e-01 
 4.20000000e-01  3.26725703e-09  4.58820346e-01  3.12585578e-09  3.38808183e-09  4.58820346e-01  3.45431923e-09  4.58820346e-01  1.62378236e-07  1.21870215e-07  4.20000000e-01 
 4.30000000e-01  3.26725708e-09  4.58820331e-01  3.12585583e-09  3.38808175e-09  4.58820331e-01  3.45431922e-09  4.58820331e-01  1.62378221e-07  1.21870066e-07  4.30000000e-01 
 4.40000000e-01  3.26725702e-09  4.58820361e-01  3.12585583e-09  3.38808177e-09  4.58820361e-01  3.45431917e-09  4.58820361e-01  1.62378268e-07  1.21870023e-07  4.40000000e-01 
 4.50000000e-01  3.26725709e-09  4.58820343e-01  3.12585578e-09  3.38808182e-09  4.58820343e-01  3.45431923e-09  4.58820343e-01  1.62378235e-07  1.21869881e-07  4.50000000e-01 
 4.60000000e-01  3.26725702e-09  4.58820336e-01  3.12585578e-09  3.38808181e-09  4.58820336e-01  3.45431922e-09  4.58820336e-01  1.62378224e-07  1.21869782e-07  4.60000000e-01 
 4.70000000e-01  3.26725704e-09  4.58820363e-01  3.12585583e-09  3.38808183e-09  4.58820363e-01  3.45431923e-09  4.58820363e-01  1.62378276e-07  1.21869739e-07  4.70000000e-01 
 4.80000000e-01  3.26725703e-09  4.58820338e-01  3.12585583e-09  3.38808181e-09  4.58820338e-01  3.45431917e-09  4.58820338e-01  1.62378233e-07  1.21869626e-07  4.80000000e-01 
 4.90000000e-01  3.26725709e-09  4.58820351e-01  3.12585578e-09  3.38808177e-09  4.58820351e-01  3.45431917e-09  4.58820351e-01  1.62378244e-07  1.21869569e-07  4.90000000e-01 
 5.00000000e-01  3.26725708e-09  4.58820349e-01  3.12585583e-09  3.38808182e-09  4.58820349e-01  3.45431923e-09  4.58820349e-01  1.62378249e-07  1.21869384e-07  5.00000000e-01 
 5.10000000e-01  3.26725704e-09  4.58820358e-01  3.12585583e-09  3.38808181e-09  4.58820358e-01  3.45431923e-09  4.58820358e-01  1.62378247e-07  1.21869412e-07  5.10000000e-01 
 5.20000000e-01  3.26725703e-09  4.58820362e-01  3.12585583e-09  3.38808183e-09  4.58820362e-01  3.45431923e-09  4.58820362e-01  1.62378282e-07  1.21869288e-07  5.20000000e-01 
 5.30000000e-01  3.26725703e-09  4.58820339e-01  3.12585583e-09  3.38808175e-09  4.58820339e-01  3.45431922e-09  4.58820339e-01  1.62378247e-07  1.21869192e-07  5.30000000e-01 
 5.40000000e-01  3.26725708e-09  4.58820326e-01  3.12585583e-09  3.38808177e-09  4.58820326e-01  3.45431922e-09  4.58820326e-01  1.62378222e-07  1.21869064e-07  5.40000000e-01 
 5.50000000e-01  3.26725702e-09  4.58820330e-01  3.12585577e-09  3.38808182e-09  4.58820330e-01  3.45431922e-09  4.58820330e-01  1.62378221e-07  1.21868975e-07  5.50000000e-01 
 5.60000000e-01  3.26725703e-09  4.58820336e-01  3.12585583e-09  3.38808181e-09  4.58820336e-01  3.45431917e-09  4.58820336e-01  1.62378235e-07  1.21868894e-07  5.60000000e-01 
 5.70000000e-01  3.26725704e-09  4.58820379e-01  3.12585583e-09  3.38808177e-09  4.58820379e-01  3.45431917e-09  4.58820379e-01  1.62378287e-07  1.21868979e-07  5.70000000e-01 
 5.80000000e-01  3.26725703e-09  4.58820349e-01  3.12585583e-09  3.38808176e-09  4.58820349e-01  3.45431917e-09  4.58820349e-01  1.62378258e-07  1.21868602e-07  5.80000000e-01 
 5.90000000e-01  3.26725709e-09  4.58820354e-01  3.12585583e-09  3.38808176e-09  4.58820354e-01  3.45431917e-09  4.58820354e-01  1.62378260e-07  1.21868752e-07  5.90000000e-01 
 6.00000000e-01  3.26725701e-09  4.58820327e-01  3.12585583e-09  3.38808176e-09  4.58820327e-01  3.45431922e-09  4.58820327e-01  1.62378194e-07  1.21868638e-07  6.00000000e-01 
 6.10000000e-01  3.26725709e-09  4.58820338e-01  3.12585583e-09  3.38808176e-09  4.58820338e-01  3.45431917e-09  4.58820338e-01  1.62378249e-07  1.21868453e-07  6.10000000e-01 
 6.20000000e-01  3.26725708e-09  4.58820350e-01  3.12585583e-09  3.38808176e-09  4.58820350e-01  3.45431923e-09  4.58820350e-01  1.62378242e-07  1.21868474e-07  6.20000000e-01 
 6.30000000e-01  3.26725704e-09  4.58820359e-01  3.12585583e-09  3.38808176e-09  4.58820359e-01  3.45431923e-09  4.58820359e-01  1.62378268e-07  1.21868439e-07  6.30000000e-01 
 6.40000000e-01  3.26725703e-09  4.58820356e-01  3.12585583e-09  3.38808176e-09  4.58820356e-01  3.45431917e-09  4.58820356e-01  1.62378259e-07  1.21868325e-07  6.40000000e-01 
 6.50000000e-01  3.26725703e-09  4.58820332e-01  3.12585583e-09  3.38808176e-09  4.58820332e-01  3.45431922e-09  4.58820332e-01  1.62378211e-07  1.21868091e-07  6.50000000e-01 
 6.60000000e-01  3.26725703e-09  4.58820344e-01  3.12585583e-09  3.38808176e-09  4.58820344e-01  3.45431923e-09  4.58820344e-01  1.62378225e-07  1.21868183e-07  6.60000000e-01 
 6.70000000e-01  3.26725703e-09  4.58820353e-01  3.12585583e-09  3.38808176e-09  4.58820353e-01  3.45431917e-09  4.58820353e-01  1.62378251e-07  1.21868148e-07  6.70000000e-01 
 6.80000000e-01  3.26725703e-09  4.58820345e-01  3.12585583e-09  3.38808176e-09  4.58820345e-01  3.45431917e-09  4.58820345e-01  1.62378243e-07  1.21867977e-07  6.80000000e-01 
 6.90000000e-01  3.26725703e-09  4.58820351e-01  3.12585583e-09  3.38808176e-09  4.58820351e-01  3.45431917e-09  4.58820351e-01  1.62378251e-07  1.21867821e-07  6.90000000e-01 
 7.00000000e-01  3.26725703e-09  4.58820348e-01  3.12585583e-09  3.38808176e-09  4.58820348e-01  3.45431917e-09  4.58820348e-01  1.62378233e-07  1.21867693e-07  7.00000000e-01 
 7.10000000e-01  3.26725703e-09  4.58820347e-01  3.12585583e-09  3.38808182e-09  4.58820347e-01  3.45431917e-09  4.58820347e-01  1.62378244e-07  1.21867608e-07  7.10000000e-01 
 7.20000000e-01  3.26725703e-09  4.58820354e-01  3.12585583e-09  3.38808181e-09  4.58820354e-01  3.45431917e-09  4.58820354e-01  1.62378250e-07  1.21867643e-07  7.20000000e-01 
 7.30000000e-01  3.26725703e-09  4.58820362e-01  3.12585583e-09  3.38808177e-09  4.58820362e-01  3.45431923e-09  4.58820362e-01  1.62378257e-07  1.21867750e-07  7.30000000e-01 
 7.40000000e-01  3.26725709e-09  4.58820368e-01  3.12585583e-09  3.38808182e-09  4.58820368e-01  3.45431923e-09  4.58820368e-01  1.62378275e-07  1.21867629e-07  7.40000000e-01 
 7.50000000e-01  3.26725702e-09  4.58820342e-01  3.12585578e-09  3.38808181e-09  4.58820342e-01  3.45431923e-09  4.58820342e-01  1.62378228e-07  1.21867338e-07  7.50000000e-01 
 7.60000000e-01  3.26725703e-09  4.58820325e-01  3.12585583e-09  3.38808177e-09  4.58820325e-01  3.45431922e-09  4.58820325e-01  1.62378205e-07  1.21867238e-07  7.60000000e-01 
 7.70000000e-01  3.26725709e-09  4.58820355e-01  3.12585583e-09  3.38808182e-09  4.58820355e-01  3.45431917e-09  4.58820355e-01  1.62378257e-07  1.21867281e-07  7.70000000e-01 
 7.80000000e-01  3.26725707e-09  4.58820342e-01  3.12585583e-09  3.38808181e-09  4.58820342e-01  3.45431923e-09  4.58820342e-01  1.62378227e-07  1.21867082e-07  7.80000000e-01 
 7.90000000e-01  3.26725704e-09  4.58820374e-01  3.12585583e-09  3.38808183e-09  4.58820374e-01  3.45431917e-09  4.58820374e-01  1.62378285e-07  1.21867011e-07  7.90000000e-01 
 8.00000000e-01  3.26725703e-09  4.58820343e-01  3.12585583e-09  3.38808175e-09  4.58820343e-01  3.45431917e-09  4.58820343e-01  1.62378246e-07  1.21866989e-07  8.00000000e-01 
 8.10000000e-01  3.26725703e-09  4.58820355e-01  3.12585583e-09  3.38808177e-09  4.58820355e-01  3.45431917e-09  4.58820355e-01  1.62378248e-07  1.21866925e-07  8.10000000e-01 
 8.20000000e-01  3.26725704e-09  4.58820375e-01  3.12585578e-09  3.38808177e-09  4.58820375e-01  3.45431917e-09  4.58820375e-01  1.62378288e-07  1.21866890e-07  8.20000000e-01 
 8.30000000e-01  3.26725703e-09  4.58820351e-01  3.12585583e-09  3.38808176e-09  4.58820351e-01  3.45431923e-09  4.58820351e-01  1.62378257e-07  1.21866670e-07  8.30000000e-01 
 8.40000000e-01  3.26725703e-09  4.58820349e-01  3.12585583e-09  3.38808182e-09  4.58820349e-01  3.45431923e-09  4.58820349e-01  1.62378242e-07  1.21866684e-07  8.40000000e-01 
 8.50000000e-01  3.26725709e-09  4.58820344e-01  3.12585583e-09  3.38808181e-09  4.58820344e-01  3.45431923e-09  4.58820344e-01  1.62378239e-07  1.21866478e-07  8.50000000e-01 
 8.60000000e-01  3.26725702e-09  4.58820352e-01  3.12585583e-09  3.38808177e-09  4.58820352e-01  3.45431923e-09  4.58820352e-01  1.62378258e-07  1.21866563e-07  8.60000000e-01 
 8.70000000e-01  3.26725703e-09  4.58820325e-01  3.12585583e-09  3.38808182e-09  4.58820325e-01  3.45431917e-09  4.58820325e-01  1.62378217e-07  1.21866229e-07  8.70000000e-01 
 8.80000000e-01  3.26725709e-09  4.58820359e-01  3.12585583e-09  3.38808175e-09  4.58820359e-01  3.45431917e-09  4.58820359e-01  1.62378260e-07  1.21866272e-07  8.80000000e-01 
 8.90000000e-01  3.26725707e-09  4.58820335e-01  3.12585583e-09  3.38808182e-09  4.58820335e-01  3.45431922e-09  4.58820335e-01  1.62378230e-07  1.21866243e-07  8.90000000e-01 
 9.00000000e-01  3.26725709e-09  4.58820345e-01  3.12585578e-09  3.38808181e-09  4.58820345e-01  3.45431917e-09  4.58820345e-01  1.62378247e-07  1.21866130e-07  9.00000000e-01 
 9.10000000e-01  3.26725707e-09  4.58820329e-01  3.12585577e-09  3.38808177e-09  4.58820329e-01  3.45431917e-09  4.58820329e-01  1.62378218e-07  1.21865973e-07  9.10000000e-01 
 9.20000000e-01  3.26725704e-09  4.58820352e-01  3.12585583e-09  3.38808176e-09  4.58820352e-01  3.45431923e-09  4.58820352e-01  1.62378249e-07  1.21865966e-07  9.20000000e-01 
 9.30000000e-01  3.26725703e-09  4.58820351e-01  3.12585583e-09  3.38808176e-09  4.58820351e-01  3.45431917e-09  4.58820351e-01  1.62378261e-07  1.21865831e-07  9.30000000e-01 
 9.40000000e-01  3.26725709e-09  4.58820339e-01  3.12585578e-09  3.38808182e-09  4.58820339e-01  3.45431922e-09  4.58820339e-01  1.62378221e-07  1.21865604e-07  9.40000000e-01 
 9.50000000e-01  3.26725707e-09  4.58820327e-01  3.12585583e-09  3.38808181e-09  4.58820327e-01  3.45431922e-09  4.58820327e-01  1.62378209e-07  1.21865455e-07  9.50000000e-01 
 9.60000000e-01  3.26725704e-09  4.58820349e-01  3.12585583e-09  3.38808177e-09  4.58820349e-01  3.45431923e-09  4.58820349e-01  1.62378232e-07  1.21865504e-07  9.60000000e-01 
 9.70000000e-01  3.26725709e-09  4.58820353e-01  3.12585583e-09  3.38808182e-09  4.58820353e-01  3.45431917e-09  4.58820353e-01  1.62378267e-07  1.21865533e-07  9.70000000e-01 
 9.80000000e-01  3.26725707e-09  4.58820327e-01  3.12585577e-09  3.38808181e-09  4.58820327e-01  3.45431917e-09  4.58820327e-01  1.62378195e-07  1.21865263e-07  9.80000000e-01 
 9.90000000e-01  3.26725704e-09  4.58820360e-01  3.12585578e-09  3.38808177e-09  4.58820360e-01  3.45431917e-09  4.58820360e-01  1.62378258e-07  1.21865270e-07  9.90000000e-01 
 1.00000000e+00  3.26725703e-09  4.58820343e-01  3.12585583e-09  3.38808176e-09  4.58820343e-01  3.45431917e-09  4.58820343e-01  1.62378236e-07  1.21865092e-07  1.00000000e+00 
 1.01000000e+00  3.26725709e-09  4.58820357e-01  3.12585583e-09  3.38808176e-09  4.58820357e-01  3.45431923e-09  4.58820357e-01  1.62378257e-07  1.21865078e-07  1.01000000e+00 
 1.02000000e+00  3.26725708e-09  4.58820360e-01  3.12585578e-09  3.38808182e-09  4.58820360e-01  3.45431923e-09  4.58820360e-01  1.62378283e-07  1.21864986e-07  1.02000000e+00 
 1.03000000e+00  3.26725708e-09  4.58820333e-01  3.12585583e-09  3.38808181e-09  4.58820333e-01  3.45431922e-09  4.58820333e-01  1.62378227e-07  1.21864815e-07  1.03000000e+00 
 1.04000000e+00  3.26725708e-09  4.58820354e-01  3.12585583e-09  3.38808177e-09  4.58820354e-01  3.45431923e-09  4.58820354e-01  1.62378237e-07  1.21864730e-07  1.04000000e+00 
 1.05000000e+00  3.26725708e-09  4.58820359e-01  3.12585583e-09  3.38808176e-09  4.58820359e-01  3.45431923e-09  4.58820359e-01  1.62378264e-07  1.21864659e-07  1.05000000e+00 
 1.06000000e+00  3.26725703e-09  4.58820366e-01  3.12585583e-09  3.38808177e-09  4.58820366e-01  3.45431917e-09  4.58820366e-01  1.62378282e-07  1.21864552e-07  1.06000000e+00 
 1.07000000e+00  3.26725710e-09  4.58820366e-01  3.12585583e-09  3.38808182e-09  4.58820366e-01  3.45431923e-09  4.58820366e-01  1.62378278e-07  1.21864424e-07  1.07000000e+00 
 1.08000000e+00  3.26725702e-09  4.58820366e-01  3.12585583e-09  3.38808175e-09  4.58820366e-01  3.45431923e-09  4.58820366e-01  1.62378279e-07  1.21864417e-07  1.08000000e+00 
 1.09000000e+00  3.26725704e-09  4.58820358e-01  3.12585583e-09  3.38808177e-09  4.58820358e-01  3.45431917e-09  4.58820358e-01  1.62378258e-07  1.21864289e-07  1.09000000e+00 
 1.10000000e+00  3.26725703e-09  4.58820340e-01  3.12585578e-09  3.38808182e-09  4.58820340e-01  3.45431917e-09  4.58820340e-01  1.62378233e-07  1.21864112e-07  1.10000000e+00 
