 v-sweep         v(b0)           v(b1)           v(b2)           v(b3)           v(b4)           v(b5)           v(b6)           i(vbias)        i(viout)        v(vout)        
 0.00000000e+00  4.59120896e-01  3.31102238e-09  3.35365381e-09  4.59120896e-01  3.42579728e-09  3.30001913e-09  3.31824216e-09  1.59708908e-07  1.42637226e-08  0.00000000e+00 
 1.00000000e-02  4.59120915e-01  3.31102242e-09  3.35365380e-09  4.59120915e-01  3.42579732e-09  3.30001917e-09  3.31824220e-09  1.59708941e-07  1.42633066e-08  1.00000000e-02 
 2.00000000e-02  4.59120901e-01  3.31102237e-09  3.35365380e-09  4.59120901e-01  3.42579732e-09  3.30001917e-09  3.31824220e-09  1.59708918e-07  1.42629748e-08  2.00000000e-02 
 3.00000000e-02  4.59120931e-01  3.31102237e-09  3.35365380e-09  4.59120931e-01  3.42579726e-09  3.30001917e-09  3.31824220e-09  1.59708952e-07  1.42627203e-08  3.00000000e-02 
 4.00000000e-02  4.59120907e-01  3.31102237e-09  3.35365380e-09  4.59120907e-01  3.42579732e-09  3.30001917e-09  3.31824220e-09  1.59708927e-07  1.42623184e-08  4.00000000e-02 
 5.00000000e-02  4.59120918e-01  3.31102237e-09  3.35365374e-09  4.59120918e-01  3.42579726e-09  3.30001912e-09  3.31824220e-09  1.59708936e-07  1.42620520e-08  5.00000000e-02 
 6.00000000e-02  4.59120918e-01  3.31102242e-09  3.35365380e-09  4.59120917e-01  3.42579726e-09  3.30001917e-09  3.31824220e-09  1.59708942e-07  1.42615963e-08  6.00000000e-02 
 7.00000000e-02  4.59120932e-01  3.31102237e-09  3.35365380e-09  4.59120932e-01  3.42579732e-09  3.30001917e-09  3.31824221e-09  1.59708960e-07  1.42614027e-08  7.00000000e-02 
 8.00000000e-02  4.59120911e-01  3.31102237e-09  3.35365374e-09  4.59120911e-01  3.42579732e-09  3.30001917e-09  3.31824220e-09  1.59708931e-07  1.42609728e-08  8.00000000e-02 
 9.00000000e-02  4.59120913e-01  3.31102237e-09  3.35365380e-09  4.59120913e-01  3.42579726e-09  3.30001917e-09  3.31824220e-09  1.59708922e-07  1.42607552e-08  9.00000000e-02 
 1.00000000e-01  4.59120910e-01  3.31102237e-09  3.35365380e-09  4.59120910e-01  3.42579732e-09  3.30001917e-09  3.31824226e-09  1.59708926e-07  1.42605128e-08  1.00000000e-01 
 1.10000000e-01  4.59120907e-01  3.31102237e-09  3.35365380e-09  4.59120907e-01  3.42579732e-09  3.30001917e-09  3.31824220e-09  1.59708922e-07  1.42602330e-08  1.10000000e-01 
 1.20000000e-01  4.59120907e-01  3.31102242e-09  3.35365374e-09  4.59120907e-01  3.42579732e-09  3.30001917e-09  3.31824220e-09  1.59708937e-07  1.42600785e-08  1.20000000e-01 
 1.30000000e-01  4.59120914e-01  3.31102237e-09  3.35365380e-09  4.59120914e-01  3.42579726e-09  3.30001917e-09  3.31824220e-09  1.59708938e-07  1.42598013e-08  1.30000000e-01 
 1.40000000e-01  4.59120934e-01  3.31102242e-09  3.35365374e-09  4.59120934e-01  3.42579726e-09  3.30001918e-09  3.31824221e-09  1.59708963e-07  1.42597454e-08  1.40000000e-01 
 1.50000000e-01  4.59120926e-01  3.31102237e-09  3.35365380e-09  4.59120926e-01  3.42579726e-09  3.30001917e-09  3.31824220e-09  1.59708955e-07  1.42595020e-08  1.50000000e-01 
 1.60000000e-01  4.59120916e-01  3.31102237e-09  3.35365380e-09  4.59120915e-01  3.42579732e-09  3.30001917e-09  3.31824220e-09  1.59708930e-07  1.42592729e-08  1.60000000e-01 
 1.70000000e-01  4.59120903e-01  3.31102237e-09  3.35365380e-09  4.59120903e-01  3.42579732e-09  3.30001917e-09  3.31824226e-09  1.59708910e-07  1.42590189e-08  1.70000000e-01 
 1.80000000e-01  4.59120920e-01  3.31102237e-09  3.35365374e-09  4.59120919e-01  3.42579732e-09  3.30001912e-09  3.31824220e-09  1.59708918e-07  1.42588057e-08  1.80000000e-01 
 1.90000000e-01  4.59120920e-01  3.31102242e-09  3.35365374e-09  4.59120920e-01  3.42579732e-09  3.30001917e-09  3.31824220e-09  1.59708946e-07  1.42587666e-08  1.90000000e-01 
 2.00000000e-01  4.59120908e-01  3.31102242e-09  3.35365380e-09  4.59120908e-01  3.42579732e-09  3.30001917e-09  3.31824220e-09  1.59708933e-07  1.42586138e-08  2.00000000e-01 
 2.10000000e-01  4.59120941e-01  3.31102237e-09  3.35365380e-09  4.59120941e-01  3.42579726e-09  3.30001918e-09  3.31824221e-09  1.59708964e-07  1.42584664e-08  2.10000000e-01 
 2.20000000e-01  4.59120917e-01  3.31102237e-09  3.35365380e-09  4.59120917e-01  3.42579726e-09  3.30001917e-09  3.31824220e-09  1.59708936e-07  1.42583758e-08  2.20000000e-01 
 2.30000000e-01  4.59120905e-01  3.31102237e-09  3.35365380e-09  4.59120905e-01  3.42579726e-09  3.30001917e-09  3.31824220e-09  1.59708921e-07  1.42582230e-08  2.30000000e-01 
 2.40000000e-01  4.59120929e-01  3.31102237e-09  3.35365380e-09  4.59120929e-01  3.42579732e-09  3.30001917e-09  3.31824226e-09  1.59708943e-07  1.42580046e-08  2.40000000e-01 
 2.50000000e-01  4.59120905e-01  3.31102237e-09  3.35365374e-09  4.59120905e-01  3.42579732e-09  3.30001917e-09  3.31824226e-09  1.59708921e-07  1.42579282e-08  2.50000000e-01 
 2.60000000e-01  4.59120906e-01  3.31102237e-09  3.35365380e-09  4.59120906e-01  3.42579726e-09  3.30001917e-09  3.31824220e-09  1.59708920e-07  1.42577985e-08  2.60000000e-01 
 2.70000000e-01  4.59120905e-01  3.31102237e-09  3.35365374e-09  4.59120905e-01  3.42579732e-09  3.30001917e-09  3.31824220e-09  1.59708912e-07  1.42577221e-08  2.70000000e-01 
 2.80000000e-01  4.59120915e-01  3.31102237e-09  3.35365380e-09  4.59120914e-01  3.42579732e-09  3.30001917e-09  3.31824220e-09  1.59708931e-07  1.42575907e-08  2.80000000e-01 
 2.90000000e-01  4.59120920e-01  3.31102242e-09  3.35365380e-09  4.59120919e-01  3.42579732e-09  3.30001917e-09  3.31824220e-09  1.59708945e-07  1.42573668e-08  2.90000000e-01 
 3.00000000e-01  4.59120930e-01  3.31102242e-09  3.35365380e-09  4.59120930e-01  3.42579726e-09  3.30001917e-09  3.31824220e-09  1.59708963e-07  1.42574130e-08  3.00000000e-01 
 3.10000000e-01  4.59120911e-01  3.31102237e-09  3.35365374e-09  4.59120911e-01  3.42579726e-09  3.30001912e-09  3.31824226e-09  1.59708937e-07  1.42572567e-08  3.10000000e-01 
 3.20000000e-01  4.59120908e-01  3.31102242e-09  3.35365374e-09  4.59120907e-01  3.42579732e-09  3.30001917e-09  3.31824220e-09  1.59708913e-07  1.42571430e-08  3.20000000e-01 
 3.30000000e-01  4.59120902e-01  3.31102237e-09  3.35365380e-09  4.59120902e-01  3.42579726e-09  3.30001917e-09  3.31824220e-09  1.59708907e-07  1.42571395e-08  3.30000000e-01 
 3.40000000e-01  4.59120917e-01  3.31102237e-09  3.35365374e-09  4.59120917e-01  3.42579732e-09  3.30001912e-09  3.31824220e-09  1.59708925e-07  1.42569618e-08  3.40000000e-01 
 3.50000000e-01  4.59120906e-01  3.31102237e-09  3.35365380e-09  4.59120905e-01  3.42579726e-09  3.30001917e-09  3.31824226e-09  1.59708917e-07  1.42569228e-08  3.50000000e-01 
 3.60000000e-01  4.59120919e-01  3.31102242e-09  3.35365380e-09  4.59120919e-01  3.42579726e-09  3.30001917e-09  3.31824220e-09  1.59708946e-07  1.42568624e-08  3.60000000e-01 
 3.70000000e-01  4.59120929e-01  3.31102242e-09  3.35365380e-09  4.59120929e-01  3.42579726e-09  3.30001917e-09  3.31824226e-09  1.59708945e-07  1.42568126e-08  3.70000000e-01 
 3.80000000e-01  4.59120908e-01  3.31102237e-09  3.35365374e-09  4.59120907e-01  3.42579726e-09  3.30001917e-09  3.31824220e-09  1.59708922e-07  1.42567558e-08  3.80000000e-01 
 3.90000000e-01  4.59120909e-01  3.31102237e-09  3.35365374e-09  4.59120909e-01  3.42579726e-09  3.30001917e-09  3.31824220e-09  1.59708915e-07  1.42566030e-08  3.90000000e-01 
 4.00000000e-01  4.59120906e-01  3.31102242e-09  3.35365374e-09  4.59120905e-01  3.42579726e-09  3.30001917e-09  3.31824220e-09  1.59708923e-07  1.42566421e-08  4.00000000e-01 
 4.10000000e-01  4.59120914e-01  3.31102237e-09  3.35365374e-09  4.59120913e-01  3.42579732e-09  3.30001912e-09  3.31824220e-09  1.59708934e-07  1.42565035e-08  4.10000000e-01 
 4.20000000e-01  4.59120905e-01  3.31102237e-09  3.35365374e-09  4.59120904e-01  3.42579732e-09  3.30001917e-09  3.31824220e-09  1.59708922e-07  1.42565320e-08  4.20000000e-01 
 4.30000000e-01  4.59120903e-01  3.31102237e-09  3.35365380e-09  4.59120903e-01  3.42579732e-09  3.30001917e-09  3.31824220e-09  1.59708910e-07  1.42563152e-08  4.30000000e-01 
 4.40000000e-01  4.59120905e-01  3.31102237e-09  3.35365380e-09  4.59120905e-01  3.42579732e-09  3.30001912e-09  3.31824220e-09  1.59708909e-07  1.42562691e-08  4.40000000e-01 
 4.50000000e-01  4.59120898e-01  3.31102237e-09  3.35365380e-09  4.59120897e-01  3.42579732e-09  3.30001917e-09  3.31824220e-09  1.59708917e-07  1.42562087e-08  4.50000000e-01 
 4.60000000e-01  4.59120917e-01  3.31102237e-09  3.35365374e-09  4.59120917e-01  3.42579732e-09  3.30001917e-09  3.31824220e-09  1.59708942e-07  1.42561376e-08  4.60000000e-01 
 4.70000000e-01  4.59120897e-01  3.31102237e-09  3.35365374e-09  4.59120897e-01  3.42579726e-09  3.30001917e-09  3.31824220e-09  1.59708914e-07  1.42560950e-08  4.70000000e-01 
 4.80000000e-01  4.59120920e-01  3.31102237e-09  3.35365374e-09  4.59120920e-01  3.42579726e-09  3.30001917e-09  3.31824220e-09  1.59708936e-07  1.42560879e-08  4.80000000e-01 
 4.90000000e-01  4.59120890e-01  3.31102242e-09  3.35365374e-09  4.59120890e-01  3.42579732e-09  3.30001917e-09  3.31824226e-09  1.59708901e-07  1.42560097e-08  4.90000000e-01 
 5.00000000e-01  4.59120938e-01  3.31102237e-09  3.35365374e-09  4.59120938e-01  3.42579732e-09  3.30001918e-09  3.31824221e-09  1.59708958e-07  1.42559671e-08  5.00000000e-01 
 5.10000000e-01  4.59120911e-01  3.31102237e-09  3.35365380e-09  4.59120911e-01  3.42579732e-09  3.30001917e-09  3.31824220e-09  1.59708926e-07  1.42558818e-08  5.10000000e-01 
 5.20000000e-01  4.59120916e-01  3.31102237e-09  3.35365380e-09  4.59120916e-01  3.42579732e-09  3.30001917e-09  3.31824220e-09  1.59708930e-07  1.42559884e-08  5.20000000e-01 
 5.30000000e-01  4.59120917e-01  3.31102242e-09  3.35365374e-09  4.59120916e-01  3.42579726e-09  3.30001917e-09  3.31824220e-09  1.59708929e-07  1.42557788e-08  5.30000000e-01 
 5.40000000e-01  4.59120917e-01  3.31102242e-09  3.35365374e-09  4.59120916e-01  3.42579732e-09  3.30001917e-09  3.31824220e-09  1.59708918e-07  1.42558889e-08  5.40000000e-01 
 5.50000000e-01  4.59120905e-01  3.31102242e-09  3.35365380e-09  4.59120904e-01  3.42579726e-09  3.30001917e-09  3.31824220e-09  1.59708910e-07  1.42556864e-08  5.50000000e-01 
 5.60000000e-01  4.59120936e-01  3.31102237e-09  3.35365374e-09  4.59120935e-01  3.42579732e-09  3.30001918e-09  3.31824221e-09  1.59708973e-07  1.42556935e-08  5.60000000e-01 
 5.70000000e-01  4.59120911e-01  3.31102242e-09  3.35365380e-09  4.59120911e-01  3.42579726e-09  3.30001917e-09  3.31824220e-09  1.59708928e-07  1.42555407e-08  5.70000000e-01 
 5.80000000e-01  4.59120914e-01  3.31102237e-09  3.35365380e-09  4.59120913e-01  3.42579732e-09  3.30001917e-09  3.31824220e-09  1.59708920e-07  1.42555336e-08  5.80000000e-01 
 5.90000000e-01  4.59120918e-01  3.31102237e-09  3.35365374e-09  4.59120918e-01  3.42579732e-09  3.30001917e-09  3.31824220e-09  1.59708933e-07  1.42554200e-08  5.90000000e-01 
 6.00000000e-01  4.59120920e-01  3.31102242e-09  3.35365374e-09  4.59120920e-01  3.42579732e-09  3.30001917e-09  3.31824220e-09  1.59708951e-07  1.42553489e-08  6.00000000e-01 
 6.10000000e-01  4.59120939e-01  3.31102242e-09  3.35365380e-09  4.59120938e-01  3.42579732e-09  3.30001918e-09  3.31824221e-09  1.59708982e-07  1.42553844e-08  6.10000000e-01 
 6.20000000e-01  4.59120924e-01  3.31102242e-09  3.35365374e-09  4.59120924e-01  3.42579732e-09  3.30001917e-09  3.31824220e-09  1.59708946e-07  1.42553418e-08  6.20000000e-01 
 6.30000000e-01  4.59120922e-01  3.31102237e-09  3.35365380e-09  4.59120922e-01  3.42579732e-09  3.30001917e-09  3.31824220e-09  1.59708937e-07  1.42552565e-08  6.30000000e-01 
 6.40000000e-01  4.59120906e-01  3.31102237e-09  3.35365380e-09  4.59120906e-01  3.42579732e-09  3.30001917e-09  3.31824220e-09  1.59708919e-07  1.42552352e-08  6.40000000e-01 
 6.50000000e-01  4.59120920e-01  3.31102242e-09  3.35365380e-09  4.59120920e-01  3.42579726e-09  3.30001917e-09  3.31824220e-09  1.59708934e-07  1.42551926e-08  6.50000000e-01 
 6.60000000e-01  4.59120923e-01  3.31102237e-09  3.35365374e-09  4.59120923e-01  3.42579732e-09  3.30001917e-09  3.31824220e-09  1.59708950e-07  1.42550221e-08  6.60000000e-01 
 6.70000000e-01  4.59120926e-01  3.31102237e-09  3.35365374e-09  4.59120926e-01  3.42579732e-09  3.30001917e-09  3.31824220e-09  1.59708945e-07  1.42550363e-08  6.70000000e-01 
 6.80000000e-01  4.59120921e-01  3.31102242e-09  3.35365380e-09  4.59120921e-01  3.42579726e-09  3.30001917e-09  3.31824220e-09  1.59708943e-07  1.42549084e-08  6.80000000e-01 
 6.90000000e-01  4.59120932e-01  3.31102237e-09  3.35365380e-09  4.59120931e-01  3.42579726e-09  3.30001917e-09  3.31824221e-09  1.59708956e-07  1.42549865e-08  6.90000000e-01 
 7.00000000e-01  4.59120907e-01  3.31102237e-09  3.35365374e-09  4.59120907e-01  3.42579726e-09  3.30001917e-09  3.31824220e-09  1.59708935e-07  1.42549510e-08  7.00000000e-01 
 7.10000000e-01  4.59120928e-01  3.31102237e-09  3.35365374e-09  4.59120927e-01  3.42579726e-09  3.30001917e-09  3.31824220e-09  1.59708944e-07  1.42547947e-08  7.10000000e-01 
 7.20000000e-01  4.59120915e-01  3.31102237e-09  3.35365374e-09  4.59120915e-01  3.42579732e-09  3.30001917e-09  3.31824220e-09  1.59708931e-07  1.42547094e-08  7.20000000e-01 
 7.30000000e-01  4.59120922e-01  3.31102237e-09  3.35365380e-09  4.59120921e-01  3.42579726e-09  3.30001917e-09  3.31824220e-09  1.59708941e-07  1.42547876e-08  7.30000000e-01 
 7.40000000e-01  4.59120927e-01  3.31102237e-09  3.35365374e-09  4.59120927e-01  3.42579732e-09  3.30001917e-09  3.31824220e-09  1.59708942e-07  1.42547023e-08  7.40000000e-01 
 7.50000000e-01  4.59120927e-01  3.31102237e-09  3.35365374e-09  4.59120926e-01  3.42579732e-09  3.30001917e-09  3.31824220e-09  1.59708955e-07  1.42547592e-08  7.50000000e-01 
 7.60000000e-01  4.59120900e-01  3.31102237e-09  3.35365374e-09  4.59120900e-01  3.42579732e-09  3.30001917e-09  3.31824220e-09  1.59708896e-07  1.42545247e-08  7.60000000e-01 
 7.70000000e-01  4.59120928e-01  3.31102237e-09  3.35365374e-09  4.59120927e-01  3.42579732e-09  3.30001917e-09  3.31824220e-09  1.59708946e-07  1.42546952e-08  7.70000000e-01 
 7.80000000e-01  4.59120919e-01  3.31102242e-09  3.35365380e-09  4.59120918e-01  3.42579732e-09  3.30001912e-09  3.31824220e-09  1.59708943e-07  1.42545886e-08  7.80000000e-01 
 7.90000000e-01  4.59120928e-01  3.31102237e-09  3.35365374e-09  4.59120928e-01  3.42579732e-09  3.30001917e-09  3.31824220e-09  1.59708939e-07  1.42544465e-08  7.90000000e-01 
 8.00000000e-01  4.59120904e-01  3.31102242e-09  3.35365374e-09  4.59120904e-01  3.42579726e-09  3.30001917e-09  3.31824220e-09  1.59708929e-07  1.42543612e-08  8.00000000e-01 
 8.10000000e-01  4.59120924e-01  3.31102237e-09  3.35365380e-09  4.59120923e-01  3.42579732e-09  3.30001917e-09  3.31824220e-09  1.59708939e-07  1.42544536e-08  8.10000000e-01 
 8.20000000e-01  4.59120937e-01  3.31102242e-09  3.35365374e-09  4.59120936e-01  3.42579726e-09  3.30001918e-09  3.31824221e-09  1.59708968e-07  1.42543257e-08  8.20000000e-01 
 8.30000000e-01  4.59120912e-01  3.31102237e-09  3.35365374e-09  4.59120912e-01  3.42579732e-09  3.30001917e-09  3.31824226e-09  1.59708926e-07  1.42542618e-08  8.30000000e-01 
 8.40000000e-01  4.59120909e-01  3.31102237e-09  3.35365374e-09  4.59120909e-01  3.42579726e-09  3.30001917e-09  3.31824220e-09  1.59708913e-07  1.42542618e-08  8.40000000e-01 
 8.50000000e-01  4.59120898e-01  3.31102242e-09  3.35365374e-09  4.59120898e-01  3.42579726e-09  3.30001917e-09  3.31824220e-09  1.59708906e-07  1.42542120e-08  8.50000000e-01 
 8.60000000e-01  4.59120899e-01  3.31102242e-09  3.35365374e-09  4.59120899e-01  3.42579732e-09  3.30001917e-09  3.31824220e-09  1.59708912e-07  1.42541055e-08  8.60000000e-01 
 8.70000000e-01  4.59120921e-01  3.31102237e-09  3.35365380e-09  4.59120921e-01  3.42579726e-09  3.30001917e-09  3.31824220e-09  1.59708941e-07  1.42540273e-08  8.70000000e-01 
 8.80000000e-01  4.59120899e-01  3.31102237e-09  3.35365380e-09  4.59120899e-01  3.42579726e-09  3.30001917e-09  3.31824220e-09  1.59708915e-07  1.42538639e-08  8.80000000e-01 
 8.90000000e-01  4.59120916e-01  3.31102237e-09  3.35365374e-09  4.59120915e-01  3.42579726e-09  3.30001917e-09  3.31824220e-09  1.59708928e-07  1.42538781e-08  8.90000000e-01 
 9.00000000e-01  4.59120918e-01  3.31102237e-09  3.35365380e-09  4.59120918e-01  3.42579726e-09  3.30001917e-09  3.31824220e-09  1.59708937e-07  1.42538426e-08  9.00000000e-01 
 9.10000000e-01  4.59120916e-01  3.31102237e-09  3.35365380e-09  4.59120916e-01  3.42579732e-09  3.30001917e-09  3.31824220e-09  1.59708920e-07  1.42537360e-08  9.10000000e-01 
 9.20000000e-01  4.59120910e-01  3.31102242e-09  3.35365374e-09  4.59120910e-01  3.42579732e-09  3.30001917e-09  3.31824220e-09  1.59708926e-07  1.42537857e-08  9.20000000e-01 
 9.30000000e-01  4.59120906e-01  3.31102237e-09  3.35365374e-09  4.59120906e-01  3.42579732e-09  3.30001917e-09  3.31824220e-09  1.59708902e-07  1.42536791e-08  9.30000000e-01 
 9.40000000e-01  4.59120892e-01  3.31102237e-09  3.35365380e-09  4.59120892e-01  3.42579732e-09  3.30001917e-09  3.31824220e-09  1.59708879e-07  1.42536081e-08  9.40000000e-01 
 9.50000000e-01  4.59120915e-01  3.31102242e-09  3.35365380e-09  4.59120915e-01  3.42579732e-09  3.30001917e-09  3.31824220e-09  1.59708936e-07  1.42537004e-08  9.50000000e-01 
 9.60000000e-01  4.59120913e-01  3.31102237e-09  3.35365374e-09  4.59120913e-01  3.42579726e-09  3.30001917e-09  3.31824220e-09  1.59708933e-07  1.42536294e-08  9.60000000e-01 
 9.70000000e-01  4.59120912e-01  3.31102242e-09  3.35365374e-09  4.59120912e-01  3.42579732e-09  3.30001917e-09  3.31824220e-09  1.59708922e-07  1.42536365e-08  9.70000000e-01 
 9.80000000e-01  4.59120926e-01  3.31102242e-09  3.35365374e-09  4.59120926e-01  3.42579726e-09  3.30001917e-09  3.31824220e-09  1.59708951e-07  1.42534304e-08  9.80000000e-01 
 9.90000000e-01  4.59120913e-01  3.31102237e-09  3.35365374e-09  4.59120913e-01  3.42579732e-09  3.30001917e-09  3.31824220e-09  1.59708922e-07  1.42533381e-08  9.90000000e-01 
 1.00000000e+00  4.59120918e-01  3.31102237e-09  3.35365380e-09  4.59120918e-01  3.42579732e-09  3.30001917e-09  3.31824220e-09  1.59708916e-07  1.42532457e-08  1.00000000e+00 
 1.01000000e+00  4.59120919e-01  3.31102242e-09  3.35365380e-09  4.59120919e-01  3.42579732e-09  3.30001917e-09  3.31824220e-09  1.59708936e-07  1.42533096e-08  1.01000000e+00 
 1.02000000e+00  4.59120917e-01  3.31102237e-09  3.35365374e-09  4.59120916e-01  3.42579732e-09  3.30001917e-09  3.31824220e-09  1.59708929e-07  1.42531604e-08  1.02000000e+00 
 1.03000000e+00  4.59120894e-01  3.31102237e-09  3.35365380e-09  4.59120893e-01  3.42579726e-09  3.30001917e-09  3.31824220e-09  1.59708895e-07  1.42532173e-08  1.03000000e+00 
 1.04000000e+00  4.59120893e-01  3.31102237e-09  3.35365374e-09  4.59120893e-01  3.42579732e-09  3.30001917e-09  3.31824220e-09  1.59708910e-07  1.42531391e-08  1.04000000e+00 
 1.05000000e+00  4.59120937e-01  3.31102237e-09  3.35365374e-09  4.59120937e-01  3.42579732e-09  3.30001918e-09  3.31824221e-09  1.59708955e-07  1.42531746e-08  1.05000000e+00 
 1.06000000e+00  4.59120895e-01  3.31102237e-09  3.35365374e-09  4.59120895e-01  3.42579732e-09  3.30001917e-09  3.31824220e-09  1.59708919e-07  1.42529899e-08  1.06000000e+00 
 1.07000000e+00  4.59120914e-01  3.31102237e-09  3.35365374e-09  4.59120914e-01  3.42579732e-09  3.30001917e-09  3.31824220e-09  1.59708927e-07  1.42530538e-08  1.07000000e+00 
 1.08000000e+00  4.59120917e-01  3.31102237e-09  3.35365380e-09  4.59120917e-01  3.42579732e-09  3.30001917e-09  3.31824220e-09  1.59708945e-07  1.42529188e-08  1.08000000e+00 
 1.09000000e+00  4.59120920e-01  3.31102237e-09  3.35365374e-09  4.59120920e-01  3.42579732e-09  3.30001917e-09  3.31824220e-09  1.59708941e-07  1.42529188e-08  1.09000000e+00 
 1.10000000e+00  4.59120926e-01  3.31102237e-09  3.35365380e-09  4.59120925e-01  3.42579732e-09  3.30001912e-09  3.31824220e-09  1.59708952e-07  1.42528194e-08  1.10000000e+00 
