 v-sweep         v(b0)           v(b1)           v(b2)           v(b3)           v(b4)           v(b5)           v(b6)           i(vbias)        i(viout)        v(vout)        
 0.00000000e+00  3.13607344e-09  3.34907857e-09  3.23081859e-09  3.27678244e-09  4.60004323e-01  3.29014109e-09  3.32461833e-09  1.61623051e-07  2.37524772e-08  0.00000000e+00 
 1.00000000e-02  3.13607343e-09  3.34907857e-09  3.23081859e-09  3.27678238e-09  4.60004346e-01  3.29014115e-09  3.32461838e-09  1.61623083e-07  2.37520538e-08  1.00000000e-02 
 2.00000000e-02  3.13607343e-09  3.34907857e-09  3.23081853e-09  3.27678239e-09  4.60004343e-01  3.29014109e-09  3.32461838e-09  1.61623072e-07  2.37517557e-08  2.00000000e-02 
 3.00000000e-02  3.13607338e-09  3.34907857e-09  3.23081853e-09  3.27678238e-09  4.60004364e-01  3.29014115e-09  3.32461838e-09  1.61623108e-07  2.37513045e-08  3.00000000e-02 
 4.00000000e-02  3.13607343e-09  3.34907857e-09  3.23081859e-09  3.27678244e-09  4.60004324e-01  3.29014114e-09  3.32461832e-09  1.61623042e-07  2.37510571e-08  4.00000000e-02 
 5.00000000e-02  3.13607338e-09  3.34907857e-09  3.23081859e-09  3.27678238e-09  4.60004354e-01  3.29014115e-09  3.32461838e-09  1.61623093e-07  2.37508044e-08  5.00000000e-02 
 6.00000000e-02  3.13607338e-09  3.34907857e-09  3.23081859e-09  3.27678238e-09  4.60004344e-01  3.29014114e-09  3.32461838e-09  1.61623082e-07  2.37504052e-08  6.00000000e-02 
 7.00000000e-02  3.13607343e-09  3.34907857e-09  3.23081859e-09  3.27678238e-09  4.60004329e-01  3.29014114e-09  3.32461838e-09  1.61623056e-07  2.37500997e-08  7.00000000e-02 
 8.00000000e-02  3.13607338e-09  3.34907857e-09  3.23081859e-09  3.27678238e-09  4.60004346e-01  3.29014109e-09  3.32461833e-09  1.61623077e-07  2.37497630e-08  8.00000000e-02 
 9.00000000e-02  3.13607343e-09  3.34907857e-09  3.23081859e-09  3.27678244e-09  4.60004324e-01  3.29014109e-09  3.32461832e-09  1.61623047e-07  2.37495126e-08  9.00000000e-02 
 1.00000000e-01  3.13607338e-09  3.34907857e-09  3.23081859e-09  3.27678238e-09  4.60004346e-01  3.29014115e-09  3.32461838e-09  1.61623094e-07  2.37492364e-08  1.00000000e-01 
 1.10000000e-01  3.13607343e-09  3.34907857e-09  3.23081859e-09  3.27678244e-09  4.60004337e-01  3.29014114e-09  3.32461838e-09  1.61623071e-07  2.37489637e-08  1.10000000e-01 
 1.20000000e-01  3.13607343e-09  3.34907857e-09  3.23081859e-09  3.27678238e-09  4.60004329e-01  3.29014114e-09  3.32461838e-09  1.61623062e-07  2.37489104e-08  1.20000000e-01 
 1.30000000e-01  3.13607343e-09  3.34907857e-09  3.23081859e-09  3.27678244e-09  4.60004346e-01  3.29014114e-09  3.32461833e-09  1.61623092e-07  2.37485462e-08  1.30000000e-01 
 1.40000000e-01  3.13607338e-09  3.34907857e-09  3.23081853e-09  3.27678238e-09  4.60004366e-01  3.29014115e-09  3.32461838e-09  1.61623125e-07  2.37484175e-08  1.40000000e-01 
 1.50000000e-01  3.13607343e-09  3.34907857e-09  3.23081859e-09  3.27678244e-09  4.60004337e-01  3.29014109e-09  3.32461838e-09  1.61623066e-07  2.37482105e-08  1.50000000e-01 
 1.60000000e-01  3.13607344e-09  3.34907857e-09  3.23081859e-09  3.27678238e-09  4.60004358e-01  3.29014115e-09  3.32461833e-09  1.61623099e-07  2.37480329e-08  1.60000000e-01 
 1.70000000e-01  3.13607338e-09  3.34907857e-09  3.23081859e-09  3.27678238e-09  4.60004348e-01  3.29014115e-09  3.32461833e-09  1.61623091e-07  2.37478748e-08  1.70000000e-01 
 1.80000000e-01  3.13607338e-09  3.34907857e-09  3.23081859e-09  3.27678238e-09  4.60004330e-01  3.29014114e-09  3.32461838e-09  1.61623062e-07  2.37476510e-08  1.80000000e-01 
 1.90000000e-01  3.13607338e-09  3.34907857e-09  3.23081859e-09  3.27678244e-09  4.60004342e-01  3.29014109e-09  3.32461833e-09  1.61623082e-07  2.37475337e-08  1.90000000e-01 
 2.00000000e-01  3.13607343e-09  3.34907857e-09  3.23081859e-09  3.27678238e-09  4.60004337e-01  3.29014114e-09  3.32461838e-09  1.61623074e-07  2.37473810e-08  2.00000000e-01 
 2.10000000e-01  3.13607338e-09  3.34907857e-09  3.23081859e-09  3.27678238e-09  4.60004348e-01  3.29014109e-09  3.32461833e-09  1.61623093e-07  2.37471642e-08  2.10000000e-01 
 2.20000000e-01  3.13607338e-09  3.34907857e-09  3.23081859e-09  3.27678238e-09  4.60004350e-01  3.29014109e-09  3.32461838e-09  1.61623102e-07  2.37470861e-08  2.20000000e-01 
 2.30000000e-01  3.13607338e-09  3.34907857e-09  3.23081859e-09  3.27678238e-09  4.60004343e-01  3.29014114e-09  3.32461833e-09  1.61623083e-07  2.37468711e-08  2.30000000e-01 
 2.40000000e-01  3.13607338e-09  3.34907857e-09  3.23081859e-09  3.27678238e-09  4.60004339e-01  3.29014114e-09  3.32461833e-09  1.61623067e-07  2.37467912e-08  2.40000000e-01 
 2.50000000e-01  3.13607338e-09  3.34907857e-09  3.23081859e-09  3.27678238e-09  4.60004331e-01  3.29014114e-09  3.32461838e-09  1.61623052e-07  2.37466722e-08  2.50000000e-01 
 2.60000000e-01  3.13607343e-09  3.34907857e-09  3.23081859e-09  3.27678244e-09  4.60004339e-01  3.29014114e-09  3.32461833e-09  1.61623077e-07  2.37465709e-08  2.60000000e-01 
 2.70000000e-01  3.13607343e-09  3.34907857e-09  3.23081859e-09  3.27678238e-09  4.60004333e-01  3.29014114e-09  3.32461838e-09  1.61623057e-07  2.37464324e-08  2.70000000e-01 
 2.80000000e-01  3.13607338e-09  3.34907857e-09  3.23081859e-09  3.27678244e-09  4.60004329e-01  3.29014109e-09  3.32461832e-09  1.61623063e-07  2.37463471e-08  2.80000000e-01 
 2.90000000e-01  3.13607338e-09  3.34907863e-09  3.23081859e-09  3.27678244e-09  4.60004340e-01  3.29014114e-09  3.32461838e-09  1.61623068e-07  2.37462316e-08  2.90000000e-01 
 3.00000000e-01  3.13607338e-09  3.34907863e-09  3.23081859e-09  3.27678244e-09  4.60004347e-01  3.29014109e-09  3.32461838e-09  1.61623091e-07  2.37459936e-08  3.00000000e-01 
 3.10000000e-01  3.13607338e-09  3.34907857e-09  3.23081859e-09  3.27678238e-09  4.60004345e-01  3.29014114e-09  3.32461838e-09  1.61623104e-07  2.37459368e-08  3.10000000e-01 
 3.20000000e-01  3.13607337e-09  3.34907857e-09  3.23081859e-09  3.27678244e-09  4.60004321e-01  3.29014114e-09  3.32461832e-09  1.61623042e-07  2.37459332e-08  3.20000000e-01 
 3.30000000e-01  3.13607338e-09  3.34907857e-09  3.23081859e-09  3.27678238e-09  4.60004334e-01  3.29014109e-09  3.32461838e-09  1.61623078e-07  2.37457698e-08  3.30000000e-01 
 3.40000000e-01  3.13607338e-09  3.34907857e-09  3.23081859e-09  3.27678238e-09  4.60004344e-01  3.29014114e-09  3.32461838e-09  1.61623083e-07  2.37457805e-08  3.40000000e-01 
 3.50000000e-01  3.13607343e-09  3.34907857e-09  3.23081859e-09  3.27678244e-09  4.60004337e-01  3.29014109e-09  3.32461833e-09  1.61623072e-07  2.37456703e-08  3.50000000e-01 
 3.60000000e-01  3.13607344e-09  3.34907857e-09  3.23081859e-09  3.27678244e-09  4.60004353e-01  3.29014115e-09  3.32461833e-09  1.61623100e-07  2.37456241e-08  3.60000000e-01 
 3.70000000e-01  3.13607338e-09  3.34907857e-09  3.23081859e-09  3.27678238e-09  4.60004356e-01  3.29014109e-09  3.32461833e-09  1.61623089e-07  2.37454323e-08  3.70000000e-01 
 3.80000000e-01  3.13607344e-09  3.34907863e-09  3.23081859e-09  3.27678244e-09  4.60004358e-01  3.29014109e-09  3.32461833e-09  1.61623095e-07  2.37453328e-08  3.80000000e-01 
 3.90000000e-01  3.13607338e-09  3.34907857e-09  3.23081859e-09  3.27678244e-09  4.60004335e-01  3.29014109e-09  3.32461833e-09  1.61623072e-07  2.37453186e-08  3.90000000e-01 
 4.00000000e-01  3.13607338e-09  3.34907857e-09  3.23081859e-09  3.27678238e-09  4.60004357e-01  3.29014109e-09  3.32461833e-09  1.61623114e-07  2.37452866e-08  4.00000000e-01 
 4.10000000e-01  3.13607338e-09  3.34907857e-09  3.23081853e-09  3.27678244e-09  4.60004334e-01  3.29014109e-09  3.32461833e-09  1.61623064e-07  2.37452440e-08  4.10000000e-01 
 4.20000000e-01  3.13607338e-09  3.34907857e-09  3.23081859e-09  3.27678238e-09  4.60004345e-01  3.29014114e-09  3.32461838e-09  1.61623089e-07  2.37450983e-08  4.20000000e-01 
 4.30000000e-01  3.13607338e-09  3.34907857e-09  3.23081859e-09  3.27678238e-09  4.60004332e-01  3.29014114e-09  3.32461838e-09  1.61623073e-07  2.37451871e-08  4.30000000e-01 
 4.40000000e-01  3.13607338e-09  3.34907857e-09  3.23081859e-09  3.27678238e-09  4.60004351e-01  3.29014115e-09  3.32461838e-09  1.61623104e-07  2.37449846e-08  4.40000000e-01 
 4.50000000e-01  3.13607343e-09  3.34907857e-09  3.23081859e-09  3.27678238e-09  4.60004328e-01  3.29014109e-09  3.32461832e-09  1.61623056e-07  2.37449669e-08  4.50000000e-01 
 4.60000000e-01  3.13607338e-09  3.34907857e-09  3.23081859e-09  3.27678238e-09  4.60004344e-01  3.29014109e-09  3.32461838e-09  1.61623080e-07  2.37448212e-08  4.60000000e-01 
 4.70000000e-01  3.13607343e-09  3.34907857e-09  3.23081859e-09  3.27678238e-09  4.60004329e-01  3.29014109e-09  3.32461838e-09  1.61623056e-07  2.37449278e-08  4.70000000e-01 
 4.80000000e-01  3.13607343e-09  3.34907857e-09  3.23081853e-09  3.27678244e-09  4.60004334e-01  3.29014109e-09  3.32461833e-09  1.61623076e-07  2.37448710e-08  4.80000000e-01 
 4.90000000e-01  3.13607338e-09  3.34907857e-09  3.23081853e-09  3.27678238e-09  4.60004332e-01  3.29014114e-09  3.32461833e-09  1.61623059e-07  2.37446613e-08  4.90000000e-01 
 5.00000000e-01  3.13607338e-09  3.34907857e-09  3.23081859e-09  3.27678238e-09  4.60004348e-01  3.29014115e-09  3.32461838e-09  1.61623093e-07  2.37447395e-08  5.00000000e-01 
 5.10000000e-01  3.13607338e-09  3.34907857e-09  3.23081859e-09  3.27678238e-09  4.60004340e-01  3.29014109e-09  3.32461833e-09  1.61623085e-07  2.37445974e-08  5.10000000e-01 
 5.20000000e-01  3.13607343e-09  3.34907857e-09  3.23081859e-09  3.27678244e-09  4.60004340e-01  3.29014114e-09  3.32461838e-09  1.61623074e-07  2.37445086e-08  5.20000000e-01 
 5.30000000e-01  3.13607338e-09  3.34907857e-09  3.23081859e-09  3.27678238e-09  4.60004328e-01  3.29014109e-09  3.32461838e-09  1.61623063e-07  2.37445015e-08  5.30000000e-01 
 5.40000000e-01  3.13607343e-09  3.34907857e-09  3.23081859e-09  3.27678244e-09  4.60004342e-01  3.29014109e-09  3.32461838e-09  1.61623090e-07  2.37444411e-08  5.40000000e-01 
 5.50000000e-01  3.13607343e-09  3.34907857e-09  3.23081853e-09  3.27678244e-09  4.60004341e-01  3.29014114e-09  3.32461838e-09  1.61623084e-07  2.37443416e-08  5.50000000e-01 
 5.60000000e-01  3.13607343e-09  3.34907857e-09  3.23081859e-09  3.27678244e-09  4.60004334e-01  3.29014109e-09  3.32461838e-09  1.61623067e-07  2.37442777e-08  5.60000000e-01 
 5.70000000e-01  3.13607338e-09  3.34907857e-09  3.23081859e-09  3.27678244e-09  4.60004344e-01  3.29014109e-09  3.32461838e-09  1.61623091e-07  2.37442279e-08  5.70000000e-01 
 5.80000000e-01  3.13607338e-09  3.34907857e-09  3.23081859e-09  3.27678244e-09  4.60004336e-01  3.29014109e-09  3.32461833e-09  1.61623065e-07  2.37442990e-08  5.80000000e-01 
 5.90000000e-01  3.13607338e-09  3.34907857e-09  3.23081859e-09  3.27678238e-09  4.60004345e-01  3.29014109e-09  3.32461838e-09  1.61623088e-07  2.37441640e-08  5.90000000e-01 
 6.00000000e-01  3.13607338e-09  3.34907857e-09  3.23081859e-09  3.27678238e-09  4.60004348e-01  3.29014115e-09  3.32461838e-09  1.61623086e-07  2.37441711e-08  6.00000000e-01 
 6.10000000e-01  3.13607343e-09  3.34907857e-09  3.23081859e-09  3.27678238e-09  4.60004340e-01  3.29014109e-09  3.32461838e-09  1.61623067e-07  2.37440645e-08  6.10000000e-01 
 6.20000000e-01  3.13607343e-09  3.34907857e-09  3.23081859e-09  3.27678238e-09  4.60004342e-01  3.29014109e-09  3.32461838e-09  1.61623085e-07  2.37439650e-08  6.20000000e-01 
 6.30000000e-01  3.13607338e-09  3.34907857e-09  3.23081859e-09  3.27678238e-09  4.60004329e-01  3.29014114e-09  3.32461838e-09  1.61623058e-07  2.37440005e-08  6.30000000e-01 
 6.40000000e-01  3.13607343e-09  3.34907857e-09  3.23081859e-09  3.27678238e-09  4.60004335e-01  3.29014109e-09  3.32461838e-09  1.61623075e-07  2.37439153e-08  6.40000000e-01 
 6.50000000e-01  3.13607343e-09  3.34907857e-09  3.23081859e-09  3.27678238e-09  4.60004334e-01  3.29014109e-09  3.32461838e-09  1.61623056e-07  2.37438442e-08  6.50000000e-01 
 6.60000000e-01  3.13607338e-09  3.34907857e-09  3.23081859e-09  3.27678238e-09  4.60004338e-01  3.29014114e-09  3.32461838e-09  1.61623065e-07  2.37438229e-08  6.60000000e-01 
 6.70000000e-01  3.13607343e-09  3.34907857e-09  3.23081853e-09  3.27678238e-09  4.60004325e-01  3.29014114e-09  3.32461838e-09  1.61623055e-07  2.37437163e-08  6.70000000e-01 
 6.80000000e-01  3.13607343e-09  3.34907857e-09  3.23081859e-09  3.27678244e-09  4.60004322e-01  3.29014109e-09  3.32461838e-09  1.61623047e-07  2.37436879e-08  6.80000000e-01 
 6.90000000e-01  3.13607343e-09  3.34907857e-09  3.23081859e-09  3.27678244e-09  4.60004340e-01  3.29014114e-09  3.32461838e-09  1.61623083e-07  2.37436097e-08  6.90000000e-01 
 7.00000000e-01  3.13607343e-09  3.34907857e-09  3.23081859e-09  3.27678238e-09  4.60004337e-01  3.29014114e-09  3.32461838e-09  1.61623066e-07  2.37436169e-08  7.00000000e-01 
 7.10000000e-01  3.13607338e-09  3.34907857e-09  3.23081853e-09  3.27678238e-09  4.60004353e-01  3.29014115e-09  3.32461838e-09  1.61623093e-07  2.37434747e-08  7.10000000e-01 
 7.20000000e-01  3.13607338e-09  3.34907857e-09  3.23081859e-09  3.27678238e-09  4.60004344e-01  3.29014109e-09  3.32461838e-09  1.61623077e-07  2.37434534e-08  7.20000000e-01 
 7.30000000e-01  3.13607338e-09  3.34907857e-09  3.23081859e-09  3.27678244e-09  4.60004350e-01  3.29014115e-09  3.32461833e-09  1.61623092e-07  2.37433397e-08  7.30000000e-01 
 7.40000000e-01  3.13607338e-09  3.34907857e-09  3.23081853e-09  3.27678238e-09  4.60004328e-01  3.29014109e-09  3.32461838e-09  1.61623053e-07  2.37433468e-08  7.40000000e-01 
 7.50000000e-01  3.13607338e-09  3.34907857e-09  3.23081859e-09  3.27678238e-09  4.60004344e-01  3.29014114e-09  3.32461838e-09  1.61623091e-07  2.37433255e-08  7.50000000e-01 
 7.60000000e-01  3.13607343e-09  3.34907857e-09  3.23081853e-09  3.27678244e-09  4.60004333e-01  3.29014109e-09  3.32461838e-09  1.61623071e-07  2.37432616e-08  7.60000000e-01 
 7.70000000e-01  3.13607344e-09  3.34907857e-09  3.23081859e-09  3.27678238e-09  4.60004347e-01  3.29014109e-09  3.32461838e-09  1.61623084e-07  2.37432616e-08  7.70000000e-01 
 7.80000000e-01  3.13607344e-09  3.34907857e-09  3.23081859e-09  3.27678244e-09  4.60004352e-01  3.29014115e-09  3.32461838e-09  1.61623106e-07  2.37432189e-08  7.80000000e-01 
 7.90000000e-01  3.13607338e-09  3.34907857e-09  3.23081859e-09  3.27678238e-09  4.60004347e-01  3.29014115e-09  3.32461838e-09  1.61623085e-07  2.37431408e-08  7.90000000e-01 
 8.00000000e-01  3.13607338e-09  3.34907857e-09  3.23081859e-09  3.27678238e-09  4.60004345e-01  3.29014109e-09  3.32461838e-09  1.61623083e-07  2.37429418e-08  8.00000000e-01 
 8.10000000e-01  3.13607343e-09  3.34907857e-09  3.23081859e-09  3.27678238e-09  4.60004334e-01  3.29014114e-09  3.32461838e-09  1.61623061e-07  2.37430129e-08  8.10000000e-01 
 8.20000000e-01  3.13607338e-09  3.34907857e-09  3.23081859e-09  3.27678238e-09  4.60004333e-01  3.29014109e-09  3.32461833e-09  1.61623064e-07  2.37430129e-08  8.20000000e-01 
 8.30000000e-01  3.13607343e-09  3.34907857e-09  3.23081859e-09  3.27678238e-09  4.60004342e-01  3.29014114e-09  3.32461838e-09  1.61623078e-07  2.37429560e-08  8.30000000e-01 
 8.40000000e-01  3.13607338e-09  3.34907857e-09  3.23081859e-09  3.27678238e-09  4.60004343e-01  3.29014109e-09  3.32461838e-09  1.61623083e-07  2.37429276e-08  8.40000000e-01 
 8.50000000e-01  3.13607344e-09  3.34907857e-09  3.23081859e-09  3.27678238e-09  4.60004370e-01  3.29014109e-09  3.32461838e-09  1.61623119e-07  2.37428139e-08  8.50000000e-01 
 8.60000000e-01  3.13607338e-09  3.34907857e-09  3.23081853e-09  3.27678238e-09  4.60004337e-01  3.29014114e-09  3.32461833e-09  1.61623064e-07  2.37428637e-08  8.60000000e-01 
 8.70000000e-01  3.13607338e-09  3.34907857e-09  3.23081859e-09  3.27678244e-09  4.60004348e-01  3.29014115e-09  3.32461838e-09  1.61623085e-07  2.37427358e-08  8.70000000e-01 
 8.80000000e-01  3.13607338e-09  3.34907857e-09  3.23081859e-09  3.27678238e-09  4.60004332e-01  3.29014114e-09  3.32461838e-09  1.61623061e-07  2.37427571e-08  8.80000000e-01 
 8.90000000e-01  3.13607338e-09  3.34907857e-09  3.23081859e-09  3.27678244e-09  4.60004330e-01  3.29014109e-09  3.32461838e-09  1.61623070e-07  2.37426150e-08  8.90000000e-01 
 9.00000000e-01  3.13607344e-09  3.34907857e-09  3.23081859e-09  3.27678238e-09  4.60004349e-01  3.29014109e-09  3.32461838e-09  1.61623090e-07  2.37425013e-08  9.00000000e-01 
 9.10000000e-01  3.13607338e-09  3.34907857e-09  3.23081853e-09  3.27678244e-09  4.60004337e-01  3.29014114e-09  3.32461833e-09  1.61623071e-07  2.37424729e-08  9.10000000e-01 
 9.20000000e-01  3.13607338e-09  3.34907857e-09  3.23081853e-09  3.27678244e-09  4.60004362e-01  3.29014109e-09  3.32461838e-09  1.61623109e-07  2.37424587e-08  9.20000000e-01 
 9.30000000e-01  3.13607343e-09  3.34907857e-09  3.23081859e-09  3.27678238e-09  4.60004325e-01  3.29014114e-09  3.32461838e-09  1.61623052e-07  2.37424587e-08  9.30000000e-01 
 9.40000000e-01  3.13607343e-09  3.34907857e-09  3.23081859e-09  3.27678244e-09  4.60004340e-01  3.29014114e-09  3.32461838e-09  1.61623088e-07  2.37422597e-08  9.40000000e-01 
 9.50000000e-01  3.13607338e-09  3.34907857e-09  3.23081859e-09  3.27678244e-09  4.60004332e-01  3.29014109e-09  3.32461838e-09  1.61623063e-07  2.37424587e-08  9.50000000e-01 
 9.60000000e-01  3.13607338e-09  3.34907857e-09  3.23081853e-09  3.27678238e-09  4.60004341e-01  3.29014114e-09  3.32461833e-09  1.61623076e-07  2.37421816e-08  9.60000000e-01 
 9.70000000e-01  3.13607338e-09  3.34907857e-09  3.23081859e-09  3.27678238e-09  4.60004351e-01  3.29014115e-09  3.32461833e-09  1.61623099e-07  2.37422810e-08  9.70000000e-01 
 9.80000000e-01  3.13607338e-09  3.34907857e-09  3.23081859e-09  3.27678244e-09  4.60004348e-01  3.29014109e-09  3.32461838e-09  1.61623096e-07  2.37422100e-08  9.80000000e-01 
 9.90000000e-01  3.13607343e-09  3.34907857e-09  3.23081859e-09  3.27678238e-09  4.60004331e-01  3.29014114e-09  3.32461838e-09  1.61623058e-07  2.37420821e-08  9.90000000e-01 
 1.00000000e+00  3.13607343e-09  3.34907857e-09  3.23081859e-09  3.27678238e-09  4.60004335e-01  3.29014114e-09  3.32461838e-09  1.61623071e-07  2.37420537e-08  1.00000000e+00 
 1.01000000e+00  3.13607343e-09  3.34907857e-09  3.23081859e-09  3.27678238e-09  4.60004336e-01  3.29014109e-09  3.32461838e-09  1.61623084e-07  2.37419968e-08  1.01000000e+00 
 1.02000000e+00  3.13607338e-09  3.34907857e-09  3.23081853e-09  3.27678238e-09  4.60004336e-01  3.29014114e-09  3.32461833e-09  1.61623074e-07  2.37418263e-08  1.02000000e+00 
 1.03000000e+00  3.13607338e-09  3.34907857e-09  3.23081859e-09  3.27678244e-09  4.60004341e-01  3.29014114e-09  3.32461838e-09  1.61623077e-07  2.37417552e-08  1.03000000e+00 
 1.04000000e+00  3.13607343e-09  3.34907857e-09  3.23081859e-09  3.27678238e-09  4.60004325e-01  3.29014109e-09  3.32461832e-09  1.61623043e-07  2.37416558e-08  1.04000000e+00 
 1.05000000e+00  3.13607343e-09  3.34907857e-09  3.23081859e-09  3.27678238e-09  4.60004338e-01  3.29014109e-09  3.32461833e-09  1.61623075e-07  2.37416842e-08  1.05000000e+00 
 1.06000000e+00  3.13607343e-09  3.34907857e-09  3.23081859e-09  3.27678244e-09  4.60004341e-01  3.29014114e-09  3.32461838e-09  1.61623070e-07  2.37416131e-08  1.06000000e+00 
 1.07000000e+00  3.13607338e-09  3.34907857e-09  3.23081859e-09  3.27678238e-09  4.60004332e-01  3.29014109e-09  3.32461838e-09  1.61623059e-07  2.37415634e-08  1.07000000e+00 
 1.08000000e+00  3.13607343e-09  3.34907857e-09  3.23081859e-09  3.27678244e-09  4.60004342e-01  3.29014114e-09  3.32461833e-09  1.61623078e-07  2.37415634e-08  1.08000000e+00 
 1.09000000e+00  3.13607343e-09  3.34907857e-09  3.23081859e-09  3.27678238e-09  4.60004344e-01  3.29014109e-09  3.32461838e-09  1.61623081e-07  2.37413644e-08  1.09000000e+00 
 1.10000000e+00  3.13607338e-09  3.34907857e-09  3.23081859e-09  3.27678244e-09  4.60004352e-01  3.29014109e-09  3.32461838e-09  1.61623088e-07  2.37414639e-08  1.10000000e+00 
