 v-sweep         v(b0)           v(b1)           v(b2)           v(b3)           v(b4)           v(b5)           v(b6)           i(vbias)        i(viout)        v(vout)        
 0.00000000e+00  4.59538967e-01  4.59538966e-01  4.59538966e-01  4.59538966e-01  3.29640042e-09  3.30635876e-09  4.59538966e-01  1.61318892e-07  1.16471019e-07  0.00000000e+00 
 1.00000000e-02  4.59538951e-01  4.59538951e-01  4.59538951e-01  4.59538951e-01  3.29640043e-09  3.30635876e-09  4.59538951e-01  1.61318854e-07  1.16470504e-07  1.00000000e-02 
 2.00000000e-02  4.59538972e-01  4.59538972e-01  4.59538972e-01  4.59538972e-01  3.29640043e-09  3.30635876e-09  4.59538972e-01  1.61318895e-07  1.16470359e-07  2.00000000e-02 
 3.00000000e-02  4.59538950e-01  4.59538950e-01  4.59538950e-01  4.59538950e-01  3.29640043e-09  3.30635876e-09  4.59538950e-01  1.61318843e-07  1.16469804e-07  3.00000000e-02 
 4.00000000e-02  4.59538994e-01  4.59538994e-01  4.59538994e-01  4.59538994e-01  3.29640043e-09  3.30635876e-09  4.59538994e-01  1.61318927e-07  1.16469619e-07  4.00000000e-02 
 5.00000000e-02  4.59538970e-01  4.59538970e-01  4.59538970e-01  4.59538970e-01  3.29640043e-09  3.30635876e-09  4.59538970e-01  1.61318885e-07  1.16469149e-07  5.00000000e-02 
 6.00000000e-02  4.59538941e-01  4.59538941e-01  4.59538941e-01  4.59538941e-01  3.29640043e-09  3.30635876e-09  4.59538941e-01  1.61318853e-07  1.16468737e-07  6.00000000e-02 
 7.00000000e-02  4.59538959e-01  4.59538959e-01  4.59538959e-01  4.59538959e-01  3.29640043e-09  3.30635876e-09  4.59538959e-01  1.61318867e-07  1.16468469e-07  7.00000000e-02 
 8.00000000e-02  4.59538938e-01  4.59538938e-01  4.59538938e-01  4.59538938e-01  3.29640043e-09  3.30635876e-09  4.59538938e-01  1.61318830e-07  1.16468162e-07  8.00000000e-02 
 9.00000000e-02  4.59538955e-01  4.59538955e-01  4.59538954e-01  4.59538954e-01  3.29640043e-09  3.30635876e-09  4.59538955e-01  1.61318872e-07  1.16467797e-07  9.00000000e-02 
 1.00000000e-01  4.59538955e-01  4.59538955e-01  4.59538955e-01  4.59538955e-01  3.29640043e-09  3.30635876e-09  4.59538955e-01  1.61318852e-07  1.16467505e-07  1.00000000e-01 
 1.10000000e-01  4.59538963e-01  4.59538963e-01  4.59538963e-01  4.59538963e-01  3.29640043e-09  3.30635876e-09  4.59538963e-01  1.61318875e-07  1.16467292e-07  1.10000000e-01 
 1.20000000e-01  4.59538937e-01  4.59538937e-01  4.59538937e-01  4.59538937e-01  3.29640043e-09  3.30635876e-09  4.59538937e-01  1.61318829e-07  1.16466967e-07  1.20000000e-01 
 1.30000000e-01  4.59538946e-01  4.59538946e-01  4.59538946e-01  4.59538946e-01  3.29640043e-09  3.30635876e-09  4.59538946e-01  1.61318854e-07  1.16466826e-07  1.30000000e-01 
 1.40000000e-01  4.59538940e-01  4.59538940e-01  4.59538940e-01  4.59538940e-01  3.29640048e-09  3.30635876e-09  4.59538940e-01  1.61318858e-07  1.16466468e-07  1.40000000e-01 
 1.50000000e-01  4.59538948e-01  4.59538948e-01  4.59538948e-01  4.59538948e-01  3.29640041e-09  3.30635876e-09  4.59538948e-01  1.61318857e-07  1.16466351e-07  1.50000000e-01 
 1.60000000e-01  4.59538956e-01  4.59538956e-01  4.59538956e-01  4.59538956e-01  3.29640043e-09  3.30635876e-09  4.59538956e-01  1.61318853e-07  1.16466083e-07  1.60000000e-01 
 1.70000000e-01  4.59538952e-01  4.59538952e-01  4.59538952e-01  4.59538952e-01  3.29640043e-09  3.30635876e-09  4.59538952e-01  1.61318863e-07  1.16465896e-07  1.70000000e-01 
 1.80000000e-01  4.59538961e-01  4.59538961e-01  4.59538961e-01  4.59538961e-01  3.29640043e-09  3.30635876e-09  4.59538961e-01  1.61318880e-07  1.16465827e-07  1.80000000e-01 
 1.90000000e-01  4.59538974e-01  4.59538974e-01  4.59538974e-01  4.59538974e-01  3.29640043e-09  3.30635871e-09  4.59538974e-01  1.61318890e-07  1.16465708e-07  1.90000000e-01 
 2.00000000e-01  4.59538953e-01  4.59538953e-01  4.59538953e-01  4.59538953e-01  3.29640043e-09  3.30635876e-09  4.59538953e-01  1.61318848e-07  1.16465364e-07  2.00000000e-01 
 2.10000000e-01  4.59538975e-01  4.59538975e-01  4.59538975e-01  4.59538975e-01  3.29640043e-09  3.30635876e-09  4.59538975e-01  1.61318890e-07  1.16465207e-07  2.10000000e-01 
 2.20000000e-01  4.59538964e-01  4.59538964e-01  4.59538964e-01  4.59538964e-01  3.29640043e-09  3.30635876e-09  4.59538964e-01  1.61318875e-07  1.16465008e-07  2.20000000e-01 
 2.30000000e-01  4.59538932e-01  4.59538932e-01  4.59538932e-01  4.59538932e-01  3.29640043e-09  3.30635870e-09  4.59538932e-01  1.61318834e-07  1.16464706e-07  2.30000000e-01 
 2.40000000e-01  4.59538952e-01  4.59538952e-01  4.59538952e-01  4.59538952e-01  3.29640043e-09  3.30635876e-09  4.59538952e-01  1.61318857e-07  1.16464511e-07  2.40000000e-01 
 2.50000000e-01  4.59538971e-01  4.59538971e-01  4.59538971e-01  4.59538971e-01  3.29640043e-09  3.30635876e-09  4.59538971e-01  1.61318888e-07  1.16464530e-07  2.50000000e-01 
 2.60000000e-01  4.59538939e-01  4.59538939e-01  4.59538938e-01  4.59538938e-01  3.29640043e-09  3.30635876e-09  4.59538939e-01  1.61318835e-07  1.16464362e-07  2.60000000e-01 
 2.70000000e-01  4.59538949e-01  4.59538949e-01  4.59538949e-01  4.59538949e-01  3.29640048e-09  3.30635876e-09  4.59538949e-01  1.61318839e-07  1.16464319e-07  2.70000000e-01 
 2.80000000e-01  4.59538948e-01  4.59538948e-01  4.59538948e-01  4.59538948e-01  3.29640041e-09  3.30635876e-09  4.59538948e-01  1.61318864e-07  1.16464204e-07  2.80000000e-01 
 2.90000000e-01  4.59538946e-01  4.59538946e-01  4.59538946e-01  4.59538946e-01  3.29640043e-09  3.30635876e-09  4.59538946e-01  1.61318850e-07  1.16463934e-07  2.90000000e-01 
 3.00000000e-01  4.59538928e-01  4.59538928e-01  4.59538928e-01  4.59538928e-01  3.29640042e-09  3.30635876e-09  4.59538928e-01  1.61318830e-07  1.16463703e-07  3.00000000e-01 
 3.10000000e-01  4.59538941e-01  4.59538941e-01  4.59538941e-01  4.59538941e-01  3.29640043e-09  3.30635876e-09  4.59538941e-01  1.61318842e-07  1.16463760e-07  3.10000000e-01 
 3.20000000e-01  4.59538961e-01  4.59538961e-01  4.59538961e-01  4.59538961e-01  3.29640043e-09  3.30635876e-09  4.59538961e-01  1.61318881e-07  1.16463664e-07  3.20000000e-01 
 3.30000000e-01  4.59538926e-01  4.59538926e-01  4.59538926e-01  4.59538926e-01  3.29640042e-09  3.30635876e-09  4.59538926e-01  1.61318818e-07  1.16463461e-07  3.30000000e-01 
 3.40000000e-01  4.59538973e-01  4.59538973e-01  4.59538973e-01  4.59538973e-01  3.29640043e-09  3.30635876e-09  4.59538973e-01  1.61318888e-07  1.16463507e-07  3.40000000e-01 
 3.50000000e-01  4.59538944e-01  4.59538944e-01  4.59538944e-01  4.59538944e-01  3.29640043e-09  3.30635876e-09  4.59538944e-01  1.61318839e-07  1.16463386e-07  3.50000000e-01 
 3.60000000e-01  4.59538961e-01  4.59538961e-01  4.59538961e-01  4.59538961e-01  3.29640043e-09  3.30635876e-09  4.59538961e-01  1.61318880e-07  1.16463152e-07  3.60000000e-01 
 3.70000000e-01  4.59538964e-01  4.59538964e-01  4.59538964e-01  4.59538964e-01  3.29640043e-09  3.30635876e-09  4.59538964e-01  1.61318876e-07  1.16463159e-07  3.70000000e-01 
 3.80000000e-01  4.59538951e-01  4.59538951e-01  4.59538951e-01  4.59538951e-01  3.29640043e-09  3.30635876e-09  4.59538951e-01  1.61318855e-07  1.16462981e-07  3.80000000e-01 
 3.90000000e-01  4.59538957e-01  4.59538957e-01  4.59538957e-01  4.59538957e-01  3.29640043e-09  3.30635876e-09  4.59538957e-01  1.61318870e-07  1.16462886e-07  3.90000000e-01 
 4.00000000e-01  4.59538978e-01  4.59538978e-01  4.59538978e-01  4.59538978e-01  3.29640043e-09  3.30635876e-09  4.59538978e-01  1.61318896e-07  1.16462786e-07  4.00000000e-01 
 4.10000000e-01  4.59538934e-01  4.59538934e-01  4.59538934e-01  4.59538934e-01  3.29640043e-09  3.30635876e-09  4.59538934e-01  1.61318824e-07  1.16462537e-07  4.10000000e-01 
 4.20000000e-01  4.59538976e-01  4.59538976e-01  4.59538976e-01  4.59538976e-01  3.29640043e-09  3.30635876e-09  4.59538976e-01  1.61318888e-07  1.16462680e-07  4.20000000e-01 
 4.30000000e-01  4.59538947e-01  4.59538947e-01  4.59538947e-01  4.59538947e-01  3.29640043e-09  3.30635876e-09  4.59538947e-01  1.61318851e-07  1.16462534e-07  4.30000000e-01 
 4.40000000e-01  4.59538972e-01  4.59538972e-01  4.59538972e-01  4.59538972e-01  3.29640043e-09  3.30635876e-09  4.59538972e-01  1.61318889e-07  1.16462466e-07  4.40000000e-01 
 4.50000000e-01  4.59538935e-01  4.59538935e-01  4.59538935e-01  4.59538935e-01  3.29640043e-09  3.30635876e-09  4.59538935e-01  1.61318830e-07  1.16462257e-07  4.50000000e-01 
 4.60000000e-01  4.59538943e-01  4.59538942e-01  4.59538942e-01  4.59538942e-01  3.29640043e-09  3.30635876e-09  4.59538942e-01  1.61318842e-07  1.16462246e-07  4.60000000e-01 
 4.70000000e-01  4.59538955e-01  4.59538955e-01  4.59538955e-01  4.59538955e-01  3.29640048e-09  3.30635876e-09  4.59538955e-01  1.61318869e-07  1.16462147e-07  4.70000000e-01 
 4.80000000e-01  4.59538977e-01  4.59538977e-01  4.59538977e-01  4.59538977e-01  3.29640047e-09  3.30635876e-09  4.59538977e-01  1.61318895e-07  1.16462214e-07  4.80000000e-01 
 4.90000000e-01  4.59538964e-01  4.59538964e-01  4.59538964e-01  4.59538964e-01  3.29640042e-09  3.30635876e-09  4.59538964e-01  1.61318871e-07  1.16461983e-07  4.90000000e-01 
 5.00000000e-01  4.59538967e-01  4.59538967e-01  4.59538967e-01  4.59538967e-01  3.29640043e-09  3.30635876e-09  4.59538967e-01  1.61318896e-07  1.16461845e-07  5.00000000e-01 
 5.10000000e-01  4.59538956e-01  4.59538956e-01  4.59538956e-01  4.59538956e-01  3.29640043e-09  3.30635876e-09  4.59538956e-01  1.61318866e-07  1.16461798e-07  5.10000000e-01 
 5.20000000e-01  4.59538954e-01  4.59538954e-01  4.59538954e-01  4.59538954e-01  3.29640043e-09  3.30635876e-09  4.59538954e-01  1.61318870e-07  1.16461752e-07  5.20000000e-01 
 5.30000000e-01  4.59538958e-01  4.59538958e-01  4.59538958e-01  4.59538958e-01  3.29640043e-09  3.30635876e-09  4.59538958e-01  1.61318869e-07  1.16461596e-07  5.30000000e-01 
 5.40000000e-01  4.59538963e-01  4.59538963e-01  4.59538963e-01  4.59538963e-01  3.29640043e-09  3.30635876e-09  4.59538963e-01  1.61318879e-07  1.16461557e-07  5.40000000e-01 
 5.50000000e-01  4.59538958e-01  4.59538957e-01  4.59538957e-01  4.59538957e-01  3.29640043e-09  3.30635876e-09  4.59538957e-01  1.61318857e-07  1.16461340e-07  5.50000000e-01 
 5.60000000e-01  4.59538946e-01  4.59538946e-01  4.59538946e-01  4.59538946e-01  3.29640043e-09  3.30635870e-09  4.59538946e-01  1.61318842e-07  1.16461344e-07  5.60000000e-01 
 5.70000000e-01  4.59538968e-01  4.59538968e-01  4.59538968e-01  4.59538968e-01  3.29640043e-09  3.30635876e-09  4.59538968e-01  1.61318885e-07  1.16461258e-07  5.70000000e-01 
 5.80000000e-01  4.59538939e-01  4.59538939e-01  4.59538939e-01  4.59538939e-01  3.29640043e-09  3.30635876e-09  4.59538939e-01  1.61318843e-07  1.16461131e-07  5.80000000e-01 
 5.90000000e-01  4.59538965e-01  4.59538965e-01  4.59538965e-01  4.59538965e-01  3.29640043e-09  3.30635876e-09  4.59538965e-01  1.61318873e-07  1.16461173e-07  5.90000000e-01 
 6.00000000e-01  4.59538947e-01  4.59538947e-01  4.59538947e-01  4.59538947e-01  3.29640043e-09  3.30635876e-09  4.59538947e-01  1.61318857e-07  1.16461045e-07  6.00000000e-01 
 6.10000000e-01  4.59538973e-01  4.59538973e-01  4.59538973e-01  4.59538973e-01  3.29640043e-09  3.30635876e-09  4.59538973e-01  1.61318895e-07  1.16461095e-07  6.10000000e-01 
 6.20000000e-01  4.59538959e-01  4.59538959e-01  4.59538959e-01  4.59538959e-01  3.29640043e-09  3.30635876e-09  4.59538959e-01  1.61318851e-07  1.16460939e-07  6.20000000e-01 
 6.30000000e-01  4.59538945e-01  4.59538945e-01  4.59538945e-01  4.59538945e-01  3.29640043e-09  3.30635876e-09  4.59538945e-01  1.61318850e-07  1.16460818e-07  6.30000000e-01 
 6.40000000e-01  4.59538951e-01  4.59538951e-01  4.59538951e-01  4.59538951e-01  3.29640043e-09  3.30635876e-09  4.59538951e-01  1.61318858e-07  1.16460789e-07  6.40000000e-01 
 6.50000000e-01  4.59538946e-01  4.59538946e-01  4.59538946e-01  4.59538946e-01  3.29640043e-09  3.30635876e-09  4.59538946e-01  1.61318865e-07  1.16460640e-07  6.50000000e-01 
 6.60000000e-01  4.59538957e-01  4.59538957e-01  4.59538957e-01  4.59538957e-01  3.29640043e-09  3.30635876e-09  4.59538957e-01  1.61318866e-07  1.16460583e-07  6.60000000e-01 
 6.70000000e-01  4.59538953e-01  4.59538953e-01  4.59538953e-01  4.59538953e-01  3.29640043e-09  3.30635870e-09  4.59538953e-01  1.61318870e-07  1.16460527e-07  6.70000000e-01 
 6.80000000e-01  4.59538946e-01  4.59538946e-01  4.59538946e-01  4.59538946e-01  3.29640043e-09  3.30635876e-09  4.59538946e-01  1.61318866e-07  1.16460463e-07  6.80000000e-01 
 6.90000000e-01  4.59538959e-01  4.59538959e-01  4.59538959e-01  4.59538959e-01  3.29640043e-09  3.30635876e-09  4.59538959e-01  1.61318873e-07  1.16460377e-07  6.90000000e-01 
 7.00000000e-01  4.59538975e-01  4.59538975e-01  4.59538975e-01  4.59538975e-01  3.29640043e-09  3.30635876e-09  4.59538975e-01  1.61318881e-07  1.16460320e-07  7.00000000e-01 
 7.10000000e-01  4.59538953e-01  4.59538953e-01  4.59538953e-01  4.59538953e-01  3.29640043e-09  3.30635876e-09  4.59538953e-01  1.61318842e-07  1.16460050e-07  7.10000000e-01 
 7.20000000e-01  4.59538959e-01  4.59538959e-01  4.59538959e-01  4.59538959e-01  3.29640043e-09  3.30635876e-09  4.59538959e-01  1.61318876e-07  1.16460157e-07  7.20000000e-01 
 7.30000000e-01  4.59538965e-01  4.59538965e-01  4.59538965e-01  4.59538965e-01  3.29640043e-09  3.30635876e-09  4.59538965e-01  1.61318883e-07  1.16460072e-07  7.30000000e-01 
 7.40000000e-01  4.59538962e-01  4.59538962e-01  4.59538962e-01  4.59538962e-01  3.29640043e-09  3.30635870e-09  4.59538962e-01  1.61318869e-07  1.16459972e-07  7.40000000e-01 
 7.50000000e-01  4.59538970e-01  4.59538970e-01  4.59538970e-01  4.59538970e-01  3.29640048e-09  3.30635876e-09  4.59538970e-01  1.61318893e-07  1.16459958e-07  7.50000000e-01 
 7.60000000e-01  4.59538969e-01  4.59538969e-01  4.59538969e-01  4.59538969e-01  3.29640047e-09  3.30635870e-09  4.59538969e-01  1.61318877e-07  1.16459866e-07  7.60000000e-01 
 7.70000000e-01  4.59538949e-01  4.59538949e-01  4.59538949e-01  4.59538949e-01  3.29640042e-09  3.30635876e-09  4.59538949e-01  1.61318860e-07  1.16459553e-07  7.70000000e-01 
 7.80000000e-01  4.59538965e-01  4.59538965e-01  4.59538965e-01  4.59538964e-01  3.29640043e-09  3.30635876e-09  4.59538965e-01  1.61318873e-07  1.16459574e-07  7.80000000e-01 
 7.90000000e-01  4.59538930e-01  4.59538930e-01  4.59538930e-01  4.59538930e-01  3.29640043e-09  3.30635876e-09  4.59538930e-01  1.61318826e-07  1.16459503e-07  7.90000000e-01 
 8.00000000e-01  4.59538957e-01  4.59538957e-01  4.59538957e-01  4.59538957e-01  3.29640043e-09  3.30635876e-09  4.59538957e-01  1.61318870e-07  1.16459248e-07  8.00000000e-01 
 8.10000000e-01  4.59538924e-01  4.59538924e-01  4.59538924e-01  4.59538924e-01  3.29640042e-09  3.30635876e-09  4.59538924e-01  1.61318816e-07  1.16459205e-07  8.10000000e-01 
 8.20000000e-01  4.59538958e-01  4.59538958e-01  4.59538958e-01  4.59538958e-01  3.29640043e-09  3.30635876e-09  4.59538958e-01  1.61318852e-07  1.16459198e-07  8.20000000e-01 
 8.30000000e-01  4.59538958e-01  4.59538958e-01  4.59538958e-01  4.59538958e-01  3.29640043e-09  3.30635876e-09  4.59538958e-01  1.61318866e-07  1.16459070e-07  8.30000000e-01 
 8.40000000e-01  4.59538965e-01  4.59538965e-01  4.59538965e-01  4.59538965e-01  3.29640043e-09  3.30635876e-09  4.59538965e-01  1.61318864e-07  1.16459063e-07  8.40000000e-01 
 8.50000000e-01  4.59538958e-01  4.59538958e-01  4.59538958e-01  4.59538958e-01  3.29640043e-09  3.30635876e-09  4.59538958e-01  1.61318867e-07  1.16459034e-07  8.50000000e-01 
 8.60000000e-01  4.59538959e-01  4.59538959e-01  4.59538959e-01  4.59538959e-01  3.29640043e-09  3.30635876e-09  4.59538959e-01  1.61318855e-07  1.16458921e-07  8.60000000e-01 
 8.70000000e-01  4.59538953e-01  4.59538953e-01  4.59538953e-01  4.59538953e-01  3.29640043e-09  3.30635870e-09  4.59538953e-01  1.61318869e-07  1.16458835e-07  8.70000000e-01 
 8.80000000e-01  4.59538928e-01  4.59538928e-01  4.59538928e-01  4.59538928e-01  3.29640042e-09  3.30635876e-09  4.59538928e-01  1.61318823e-07  1.16458573e-07  8.80000000e-01 
 8.90000000e-01  4.59538953e-01  4.59538953e-01  4.59538953e-01  4.59538953e-01  3.29640043e-09  3.30635876e-09  4.59538953e-01  1.61318861e-07  1.16458644e-07  8.90000000e-01 
 9.00000000e-01  4.59538961e-01  4.59538961e-01  4.59538961e-01  4.59538961e-01  3.29640043e-09  3.30635876e-09  4.59538961e-01  1.61318866e-07  1.16458693e-07  9.00000000e-01 
 9.10000000e-01  4.59538961e-01  4.59538961e-01  4.59538961e-01  4.59538961e-01  3.29640043e-09  3.30635876e-09  4.59538961e-01  1.61318875e-07  1.16458416e-07  9.10000000e-01 
 9.20000000e-01  4.59538965e-01  4.59538965e-01  4.59538965e-01  4.59538965e-01  3.29640043e-09  3.30635876e-09  4.59538965e-01  1.61318880e-07  1.16458367e-07  9.20000000e-01 
 9.30000000e-01  4.59538930e-01  4.59538930e-01  4.59538930e-01  4.59538930e-01  3.29640048e-09  3.30635876e-09  4.59538930e-01  1.61318819e-07  1.16458267e-07  9.30000000e-01 
 9.40000000e-01  4.59538946e-01  4.59538946e-01  4.59538946e-01  4.59538946e-01  3.29640041e-09  3.30635876e-09  4.59538946e-01  1.61318853e-07  1.16458153e-07  9.40000000e-01 
 9.50000000e-01  4.59538972e-01  4.59538972e-01  4.59538972e-01  4.59538972e-01  3.29640043e-09  3.30635876e-09  4.59538972e-01  1.61318883e-07  1.16458189e-07  9.50000000e-01 
 9.60000000e-01  4.59538945e-01  4.59538945e-01  4.59538945e-01  4.59538945e-01  3.29640043e-09  3.30635876e-09  4.59538945e-01  1.61318837e-07  1.16458040e-07  9.60000000e-01 
 9.70000000e-01  4.59538957e-01  4.59538957e-01  4.59538956e-01  4.59538956e-01  3.29640043e-09  3.30635876e-09  4.59538957e-01  1.61318883e-07  1.16458011e-07  9.70000000e-01 
 9.80000000e-01  4.59538963e-01  4.59538963e-01  4.59538963e-01  4.59538963e-01  3.29640043e-09  3.30635876e-09  4.59538963e-01  1.61318861e-07  1.16457855e-07  9.80000000e-01 
 9.90000000e-01  4.59538937e-01  4.59538937e-01  4.59538937e-01  4.59538937e-01  3.29640043e-09  3.30635876e-09  4.59538937e-01  1.61318829e-07  1.16457691e-07  9.90000000e-01 
 1.00000000e+00  4.59538981e-01  4.59538981e-01  4.59538981e-01  4.59538981e-01  3.29640043e-09  3.30635876e-09  4.59538981e-01  1.61318905e-07  1.16457677e-07  1.00000000e+00 
 1.01000000e+00  4.59538964e-01  4.59538964e-01  4.59538964e-01  4.59538964e-01  3.29640043e-09  3.30635876e-09  4.59538964e-01  1.61318880e-07  1.16457706e-07  1.01000000e+00 
 1.02000000e+00  4.59538957e-01  4.59538957e-01  4.59538957e-01  4.59538957e-01  3.29640043e-09  3.30635876e-09  4.59538957e-01  1.61318860e-07  1.16457485e-07  1.02000000e+00 
 1.03000000e+00  4.59538939e-01  4.59538939e-01  4.59538939e-01  4.59538939e-01  3.29640043e-09  3.30635876e-09  4.59538939e-01  1.61318844e-07  1.16457500e-07  1.03000000e+00 
 1.04000000e+00  4.59538974e-01  4.59538974e-01  4.59538974e-01  4.59538974e-01  3.29640043e-09  3.30635876e-09  4.59538974e-01  1.61318888e-07  1.16457436e-07  1.04000000e+00 
 1.05000000e+00  4.59538959e-01  4.59538959e-01  4.59538959e-01  4.59538959e-01  3.29640048e-09  3.30635876e-09  4.59538959e-01  1.61318862e-07  1.16457144e-07  1.05000000e+00 
 1.06000000e+00  4.59538967e-01  4.59538966e-01  4.59538966e-01  4.59538966e-01  3.29640041e-09  3.30635876e-09  4.59538966e-01  1.61318884e-07  1.16457109e-07  1.06000000e+00 
 1.07000000e+00  4.59538953e-01  4.59538953e-01  4.59538953e-01  4.59538953e-01  3.29640043e-09  3.30635876e-09  4.59538953e-01  1.61318841e-07  1.16456896e-07  1.07000000e+00 
 1.08000000e+00  4.59538955e-01  4.59538955e-01  4.59538955e-01  4.59538955e-01  3.29640043e-09  3.30635870e-09  4.59538955e-01  1.61318861e-07  1.16457016e-07  1.08000000e+00 
 1.09000000e+00  4.59538938e-01  4.59538938e-01  4.59538938e-01  4.59538938e-01  3.29640043e-09  3.30635876e-09  4.59538938e-01  1.61318842e-07  1.16456754e-07  1.09000000e+00 
 1.10000000e+00  4.59538966e-01  4.59538966e-01  4.59538966e-01  4.59538966e-01  3.29640043e-09  3.30635876e-09  4.59538966e-01  1.61318885e-07  1.16456675e-07  1.10000000e+00 
