 v-sweep         v(b0)           v(b1)           v(b2)           v(b3)           v(b4)           v(b5)           v(b6)           i(vbias)        i(viout)        v(vout)        
 0.00000000e+00  3.23137298e-09  4.56258180e-01  3.41417529e-09  3.36311957e-09  4.56258180e-01  4.56258181e-01  4.56258180e-01  1.55690773e-07  1.68843603e-07  0.00000000e+00 
 1.00000000e-02  3.23137296e-09  4.56258159e-01  3.41417531e-09  3.36311959e-09  4.56258159e-01  4.56258159e-01  4.56258159e-01  1.55690745e-07  1.68843083e-07  1.00000000e-02 
 2.00000000e-02  3.23137296e-09  4.56258167e-01  3.41417531e-09  3.36311954e-09  4.56258167e-01  4.56258167e-01  4.56258167e-01  1.55690767e-07  1.68842626e-07  2.00000000e-02 
 3.00000000e-02  3.23137296e-09  4.56258193e-01  3.41417531e-09  3.36311955e-09  4.56258193e-01  4.56258193e-01  4.56258193e-01  1.55690801e-07  1.68842378e-07  3.00000000e-02 
 4.00000000e-02  3.23137296e-09  4.56258168e-01  3.41417531e-09  3.36311959e-09  4.56258168e-01  4.56258168e-01  4.56258168e-01  1.55690756e-07  1.68841928e-07  4.00000000e-02 
 5.00000000e-02  3.23137296e-09  4.56258175e-01  3.41417531e-09  3.36311954e-09  4.56258175e-01  4.56258175e-01  4.56258175e-01  1.55690779e-07  1.68841471e-07  5.00000000e-02 
 6.00000000e-02  3.23137296e-09  4.56258171e-01  3.41417531e-09  3.36311955e-09  4.56258171e-01  4.56258171e-01  4.56258171e-01  1.55690776e-07  1.68841137e-07  6.00000000e-02 
 7.00000000e-02  3.23137296e-09  4.56258160e-01  3.41417531e-09  3.36311953e-09  4.56258160e-01  4.56258160e-01  4.56258159e-01  1.55690746e-07  1.68840725e-07  7.00000000e-02 
 8.00000000e-02  3.23137296e-09  4.56258187e-01  3.41417531e-09  3.36311961e-09  4.56258187e-01  4.56258187e-01  4.56258187e-01  1.55690781e-07  1.68840521e-07  8.00000000e-02 
 9.00000000e-02  3.23137296e-09  4.56258147e-01  3.41417531e-09  3.36311959e-09  4.56258147e-01  4.56258147e-01  4.56258147e-01  1.55690735e-07  1.68840004e-07  9.00000000e-02 
 1.00000000e-01  3.23137296e-09  4.56258165e-01  3.41417531e-09  3.36311959e-09  4.56258165e-01  4.56258165e-01  4.56258165e-01  1.55690763e-07  1.68839807e-07  1.00000000e-01 
 1.10000000e-01  3.23137296e-09  4.56258185e-01  3.41417531e-09  3.36311960e-09  4.56258185e-01  4.56258185e-01  4.56258185e-01  1.55690776e-07  1.68839589e-07  1.10000000e-01 
 1.20000000e-01  3.23137296e-09  4.56258179e-01  3.41417531e-09  3.36311959e-09  4.56258179e-01  4.56258179e-01  4.56258179e-01  1.55690766e-07  1.68839405e-07  1.20000000e-01 
 1.30000000e-01  3.23137296e-09  4.56258197e-01  3.41417531e-09  3.36311954e-09  4.56258197e-01  4.56258197e-01  4.56258197e-01  1.55690799e-07  1.68839075e-07  1.30000000e-01 
 1.40000000e-01  3.23137296e-09  4.56258163e-01  3.41417531e-09  3.36311961e-09  4.56258163e-01  4.56258163e-01  4.56258163e-01  1.55690751e-07  1.68838747e-07  1.40000000e-01 
 1.50000000e-01  3.23137296e-09  4.56258167e-01  3.41417531e-09  3.36311959e-09  4.56258167e-01  4.56258167e-01  4.56258167e-01  1.55690764e-07  1.68838548e-07  1.50000000e-01 
 1.60000000e-01  3.23137296e-09  4.56258202e-01  3.41417537e-09  3.36311960e-09  4.56258202e-01  4.56258202e-01  4.56258202e-01  1.55690803e-07  1.68838353e-07  1.60000000e-01 
 1.70000000e-01  3.23137296e-09  4.56258213e-01  3.41417531e-09  3.36311960e-09  4.56258214e-01  4.56258214e-01  4.56258213e-01  1.55690827e-07  1.68838239e-07  1.70000000e-01 
 1.80000000e-01  3.23137296e-09  4.56258205e-01  3.41417537e-09  3.36311960e-09  4.56258205e-01  4.56258205e-01  4.56258205e-01  1.55690803e-07  1.68838028e-07  1.80000000e-01 
 1.90000000e-01  3.23137296e-09  4.56258167e-01  3.41417531e-09  3.36311954e-09  4.56258167e-01  4.56258167e-01  4.56258167e-01  1.55690752e-07  1.68837662e-07  1.90000000e-01 
 2.00000000e-01  3.23137296e-09  4.56258193e-01  3.41417531e-09  3.36311955e-09  4.56258193e-01  4.56258193e-01  4.56258193e-01  1.55690791e-07  1.68837534e-07  2.00000000e-01 
 2.10000000e-01  3.23137296e-09  4.56258144e-01  3.41417531e-09  3.36311959e-09  4.56258144e-01  4.56258144e-01  4.56258144e-01  1.55690722e-07  1.68837140e-07  2.10000000e-01 
 2.20000000e-01  3.23137296e-09  4.56258195e-01  3.41417531e-09  3.36311954e-09  4.56258195e-01  4.56258195e-01  4.56258195e-01  1.55690797e-07  1.68837134e-07  2.20000000e-01 
 2.30000000e-01  3.23137296e-09  4.56258167e-01  3.41417537e-09  3.36311961e-09  4.56258167e-01  4.56258167e-01  4.56258167e-01  1.55690757e-07  1.68836726e-07  2.30000000e-01 
 2.40000000e-01  3.23137296e-09  4.56258165e-01  3.41417531e-09  3.36311959e-09  4.56258165e-01  4.56258165e-01  4.56258165e-01  1.55690757e-07  1.68836614e-07  2.40000000e-01 
 2.50000000e-01  3.23137296e-09  4.56258194e-01  3.41417531e-09  3.36311960e-09  4.56258194e-01  4.56258194e-01  4.56258194e-01  1.55690791e-07  1.68836578e-07  2.50000000e-01 
 2.60000000e-01  3.23137296e-09  4.56258171e-01  3.41417531e-09  3.36311954e-09  4.56258171e-01  4.56258171e-01  4.56258171e-01  1.55690755e-07  1.68836340e-07  2.60000000e-01 
 2.70000000e-01  3.23137296e-09  4.56258204e-01  3.41417531e-09  3.36311961e-09  4.56258204e-01  4.56258204e-01  4.56258204e-01  1.55690810e-07  1.68836277e-07  2.70000000e-01 
 2.80000000e-01  3.23137296e-09  4.56258177e-01  3.41417531e-09  3.36311959e-09  4.56258177e-01  4.56258177e-01  4.56258176e-01  1.55690776e-07  1.68836054e-07  2.80000000e-01 
 2.90000000e-01  3.23137296e-09  4.56258192e-01  3.41417537e-09  3.36311954e-09  4.56258192e-01  4.56258192e-01  4.56258192e-01  1.55690797e-07  1.68835868e-07  2.90000000e-01 
 3.00000000e-01  3.23137296e-09  4.56258143e-01  3.41417531e-09  3.36311960e-09  4.56258143e-01  4.56258143e-01  4.56258143e-01  1.55690718e-07  1.68835587e-07  3.00000000e-01 
 3.10000000e-01  3.23137296e-09  4.56258168e-01  3.41417531e-09  3.36311959e-09  4.56258168e-01  4.56258168e-01  4.56258168e-01  1.55690765e-07  1.68835463e-07  3.10000000e-01 
 3.20000000e-01  3.23137296e-09  4.56258159e-01  3.41417531e-09  3.36311954e-09  4.56258159e-01  4.56258159e-01  4.56258159e-01  1.55690738e-07  1.68835385e-07  3.20000000e-01 
 3.30000000e-01  3.23137296e-09  4.56258150e-01  3.41417537e-09  3.36311960e-09  4.56258150e-01  4.56258150e-01  4.56258150e-01  1.55690735e-07  1.68835140e-07  3.30000000e-01 
 3.40000000e-01  3.23137296e-09  4.56258180e-01  3.41417531e-09  3.36311959e-09  4.56258180e-01  4.56258180e-01  4.56258180e-01  1.55690767e-07  1.68835161e-07  3.40000000e-01 
 3.50000000e-01  3.23137296e-09  4.56258159e-01  3.41417531e-09  3.36311954e-09  4.56258159e-01  4.56258159e-01  4.56258159e-01  1.55690750e-07  1.68834831e-07  3.50000000e-01 
 3.60000000e-01  3.23137296e-09  4.56258161e-01  3.41417531e-09  3.36311961e-09  4.56258161e-01  4.56258161e-01  4.56258161e-01  1.55690739e-07  1.68834809e-07  3.60000000e-01 
 3.70000000e-01  3.23137296e-09  4.56258210e-01  3.41417531e-09  3.36311959e-09  4.56258210e-01  4.56258210e-01  4.56258210e-01  1.55690819e-07  1.68834717e-07  3.70000000e-01 
 3.80000000e-01  3.23137296e-09  4.56258180e-01  3.41417531e-09  3.36311959e-09  4.56258180e-01  4.56258180e-01  4.56258180e-01  1.55690784e-07  1.68834521e-07  3.80000000e-01 
 3.90000000e-01  3.23137296e-09  4.56258172e-01  3.41417531e-09  3.36311954e-09  4.56258172e-01  4.56258172e-01  4.56258172e-01  1.55690756e-07  1.68834433e-07  3.90000000e-01 
 4.00000000e-01  3.23137296e-09  4.56258189e-01  3.41417531e-09  3.36311961e-09  4.56258189e-01  4.56258189e-01  4.56258188e-01  1.55690782e-07  1.68834323e-07  4.00000000e-01 
 4.10000000e-01  3.23137296e-09  4.56258157e-01  3.41417531e-09  3.36311959e-09  4.56258157e-01  4.56258157e-01  4.56258157e-01  1.55690733e-07  1.68834102e-07  4.10000000e-01 
 4.20000000e-01  3.23137296e-09  4.56258215e-01  3.41417531e-09  3.36311960e-09  4.56258215e-01  4.56258215e-01  4.56258215e-01  1.55690845e-07  1.68834195e-07  4.20000000e-01 
 4.30000000e-01  3.23137296e-09  4.56258196e-01  3.41417531e-09  3.36311954e-09  4.56258196e-01  4.56258196e-01  4.56258196e-01  1.55690812e-07  1.68833942e-07  4.30000000e-01 
 4.40000000e-01  3.23137296e-09  4.56258185e-01  3.41417531e-09  3.36311955e-09  4.56258185e-01  4.56258185e-01  4.56258184e-01  1.55690785e-07  1.68833868e-07  4.40000000e-01 
 4.50000000e-01  3.23137296e-09  4.56258135e-01  3.41417531e-09  3.36311959e-09  4.56258135e-01  4.56258135e-01  4.56258135e-01  1.55690725e-07  1.68833576e-07  4.50000000e-01 
 4.60000000e-01  3.23137296e-09  4.56258147e-01  3.41417531e-09  3.36311959e-09  4.56258147e-01  4.56258147e-01  4.56258147e-01  1.55690737e-07  1.68833459e-07  4.60000000e-01 
 4.70000000e-01  3.23137296e-09  4.56258172e-01  3.41417531e-09  3.36311959e-09  4.56258172e-01  4.56258172e-01  4.56258172e-01  1.55690751e-07  1.68833296e-07  4.70000000e-01 
 4.80000000e-01  3.23137296e-09  4.56258186e-01  3.41417531e-09  3.36311954e-09  4.56258186e-01  4.56258186e-01  4.56258186e-01  1.55690778e-07  1.68833257e-07  4.80000000e-01 
 4.90000000e-01  3.23137296e-09  4.56258182e-01  3.41417531e-09  3.36311955e-09  4.56258182e-01  4.56258182e-01  4.56258182e-01  1.55690776e-07  1.68833129e-07  4.90000000e-01 
 5.00000000e-01  3.23137296e-09  4.56258166e-01  3.41417531e-09  3.36311959e-09  4.56258166e-01  4.56258166e-01  4.56258166e-01  1.55690756e-07  1.68833068e-07  5.00000000e-01 
 5.10000000e-01  3.23137296e-09  4.56258200e-01  3.41417531e-09  3.36311960e-09  4.56258200e-01  4.56258200e-01  4.56258200e-01  1.55690804e-07  1.68833239e-07  5.10000000e-01 
 5.20000000e-01  3.23137296e-09  4.56258173e-01  3.41417531e-09  3.36311954e-09  4.56258173e-01  4.56258173e-01  4.56258173e-01  1.55690766e-07  1.68832827e-07  5.20000000e-01 
 5.30000000e-01  3.23137296e-09  4.56258166e-01  3.41417531e-09  3.36311961e-09  4.56258166e-01  4.56258166e-01  4.56258166e-01  1.55690738e-07  1.68832614e-07  5.30000000e-01 
 5.40000000e-01  3.23137296e-09  4.56258178e-01  3.41417531e-09  3.36311953e-09  4.56258178e-01  4.56258178e-01  4.56258178e-01  1.55690769e-07  1.68832507e-07  5.40000000e-01 
 5.50000000e-01  3.23137296e-09  4.56258197e-01  3.41417531e-09  3.36311961e-09  4.56258197e-01  4.56258197e-01  4.56258196e-01  1.55690801e-07  1.68832493e-07  5.50000000e-01 
 5.60000000e-01  3.23137296e-09  4.56258155e-01  3.41417537e-09  3.36311959e-09  4.56258155e-01  4.56258155e-01  4.56258155e-01  1.55690722e-07  1.68832248e-07  5.60000000e-01 
 5.70000000e-01  3.23137296e-09  4.56258161e-01  3.41417531e-09  3.36311954e-09  4.56258161e-01  4.56258161e-01  4.56258161e-01  1.55690761e-07  1.68832258e-07  5.70000000e-01 
 5.80000000e-01  3.23137296e-09  4.56258186e-01  3.41417531e-09  3.36311961e-09  4.56258186e-01  4.56258186e-01  4.56258186e-01  1.55690781e-07  1.68832123e-07  5.80000000e-01 
 5.90000000e-01  3.23137296e-09  4.56258153e-01  3.41417531e-09  3.36311959e-09  4.56258153e-01  4.56258153e-01  4.56258153e-01  1.55690742e-07  1.68832045e-07  5.90000000e-01 
 6.00000000e-01  3.23137296e-09  4.56258177e-01  3.41417531e-09  3.36311959e-09  4.56258177e-01  4.56258177e-01  4.56258176e-01  1.55690767e-07  1.68831932e-07  6.00000000e-01 
 6.10000000e-01  3.23137296e-09  4.56258182e-01  3.41417531e-09  3.36311954e-09  4.56258182e-01  4.56258182e-01  4.56258182e-01  1.55690768e-07  1.68831868e-07  6.10000000e-01 
 6.20000000e-01  3.23137296e-09  4.56258198e-01  3.41417531e-09  3.36311955e-09  4.56258198e-01  4.56258198e-01  4.56258198e-01  1.55690802e-07  1.68831811e-07  6.20000000e-01 
 6.30000000e-01  3.23137296e-09  4.56258178e-01  3.41417531e-09  3.36311959e-09  4.56258178e-01  4.56258178e-01  4.56258178e-01  1.55690763e-07  1.68831612e-07  6.30000000e-01 
 6.40000000e-01  3.23137296e-09  4.56258189e-01  3.41417531e-09  3.36311960e-09  4.56258189e-01  4.56258189e-01  4.56258188e-01  1.55690811e-07  1.68831612e-07  6.40000000e-01 
 6.50000000e-01  3.23137296e-09  4.56258227e-01  3.41417531e-09  3.36311960e-09  4.56258227e-01  4.56258227e-01  4.56258226e-01  1.55690831e-07  1.68831463e-07  6.50000000e-01 
 6.60000000e-01  3.23137296e-09  4.56258195e-01  3.41417531e-09  3.36311960e-09  4.56258195e-01  4.56258195e-01  4.56258195e-01  1.55690803e-07  1.68831363e-07  6.60000000e-01 
 6.70000000e-01  3.23137296e-09  4.56258189e-01  3.41417531e-09  3.36311960e-09  4.56258189e-01  4.56258189e-01  4.56258189e-01  1.55690781e-07  1.68831193e-07  6.70000000e-01 
 6.80000000e-01  3.23137296e-09  4.56258169e-01  3.41417531e-09  3.36311959e-09  4.56258169e-01  4.56258169e-01  4.56258169e-01  1.55690763e-07  1.68831058e-07  6.80000000e-01 
 6.90000000e-01  3.23137296e-09  4.56258192e-01  3.41417531e-09  3.36311960e-09  4.56258192e-01  4.56258192e-01  4.56258192e-01  1.55690790e-07  1.68830944e-07  6.90000000e-01 
 7.00000000e-01  3.23137296e-09  4.56258170e-01  3.41417531e-09  3.36311959e-09  4.56258170e-01  4.56258170e-01  4.56258170e-01  1.55690752e-07  1.68830773e-07  7.00000000e-01 
 7.10000000e-01  3.23137296e-09  4.56258156e-01  3.41417531e-09  3.36311959e-09  4.56258156e-01  4.56258156e-01  4.56258156e-01  1.55690761e-07  1.68830574e-07  7.10000000e-01 
 7.20000000e-01  3.23137296e-09  4.56258191e-01  3.41417531e-09  3.36311954e-09  4.56258191e-01  4.56258191e-01  4.56258191e-01  1.55690797e-07  1.68830674e-07  7.20000000e-01 
 7.30000000e-01  3.23137296e-09  4.56258135e-01  3.41417531e-09  3.36311955e-09  4.56258135e-01  4.56258135e-01  4.56258135e-01  1.55690707e-07  1.68830304e-07  7.30000000e-01 
 7.40000000e-01  3.23137296e-09  4.56258192e-01  3.41417531e-09  3.36311953e-09  4.56258192e-01  4.56258192e-01  4.56258192e-01  1.55690781e-07  1.68830404e-07  7.40000000e-01 
 7.50000000e-01  3.23137296e-09  4.56258185e-01  3.41417531e-09  3.36311961e-09  4.56258185e-01  4.56258185e-01  4.56258185e-01  1.55690775e-07  1.68830233e-07  7.50000000e-01 
 7.60000000e-01  3.23137296e-09  4.56258178e-01  3.41417531e-09  3.36311959e-09  4.56258178e-01  4.56258178e-01  4.56258178e-01  1.55690763e-07  1.68830077e-07  7.60000000e-01 
 7.70000000e-01  3.23137296e-09  4.56258181e-01  3.41417531e-09  3.36311954e-09  4.56258181e-01  4.56258181e-01  4.56258181e-01  1.55690796e-07  1.68829871e-07  7.70000000e-01 
 7.80000000e-01  3.23137296e-09  4.56258197e-01  3.41417531e-09  3.36311961e-09  4.56258197e-01  4.56258197e-01  4.56258197e-01  1.55690793e-07  1.68829885e-07  7.80000000e-01 
 7.90000000e-01  3.23137296e-09  4.56258149e-01  3.41417531e-09  3.36311959e-09  4.56258149e-01  4.56258150e-01  4.56258149e-01  1.55690730e-07  1.68829601e-07  7.90000000e-01 
 8.00000000e-01  3.23137296e-09  4.56258183e-01  3.41417531e-09  3.36311954e-09  4.56258183e-01  4.56258183e-01  4.56258182e-01  1.55690780e-07  1.68829629e-07  8.00000000e-01 
 8.10000000e-01  3.23137296e-09  4.56258158e-01  3.41417531e-09  3.36311961e-09  4.56258158e-01  4.56258158e-01  4.56258158e-01  1.55690738e-07  1.68829395e-07  8.10000000e-01 
 8.20000000e-01  3.23137296e-09  4.56258167e-01  3.41417531e-09  3.36311959e-09  4.56258167e-01  4.56258167e-01  4.56258167e-01  1.55690756e-07  1.68829359e-07  8.20000000e-01 
 8.30000000e-01  3.23137296e-09  4.56258171e-01  3.41417531e-09  3.36311959e-09  4.56258171e-01  4.56258171e-01  4.56258171e-01  1.55690764e-07  1.68829338e-07  8.30000000e-01 
 8.40000000e-01  3.23137296e-09  4.56258173e-01  3.41417531e-09  3.36311954e-09  4.56258173e-01  4.56258174e-01  4.56258173e-01  1.55690771e-07  1.68829168e-07  8.40000000e-01 
 8.50000000e-01  3.23137296e-09  4.56258176e-01  3.41417531e-09  3.36311955e-09  4.56258176e-01  4.56258176e-01  4.56258176e-01  1.55690774e-07  1.68828976e-07  8.50000000e-01 
 8.60000000e-01  3.23137296e-09  4.56258193e-01  3.41417531e-09  3.36311959e-09  4.56258193e-01  4.56258193e-01  4.56258193e-01  1.55690798e-07  1.68828990e-07  8.60000000e-01 
 8.70000000e-01  3.23137296e-09  4.56258148e-01  3.41417531e-09  3.36311959e-09  4.56258148e-01  4.56258148e-01  4.56258148e-01  1.55690714e-07  1.68828713e-07  8.70000000e-01 
 8.80000000e-01  3.23137296e-09  4.56258160e-01  3.41417531e-09  3.36311959e-09  4.56258160e-01  4.56258160e-01  4.56258160e-01  1.55690739e-07  1.68828535e-07  8.80000000e-01 
 8.90000000e-01  3.23137296e-09  4.56258176e-01  3.41417531e-09  3.36311959e-09  4.56258176e-01  4.56258176e-01  4.56258176e-01  1.55690768e-07  1.68828642e-07  8.90000000e-01 
 9.00000000e-01  3.23137296e-09  4.56258198e-01  3.41417531e-09  3.36311960e-09  4.56258198e-01  4.56258198e-01  4.56258198e-01  1.55690784e-07  1.68828606e-07  9.00000000e-01 
 9.10000000e-01  3.23137296e-09  4.56258174e-01  3.41417531e-09  3.36311959e-09  4.56258174e-01  4.56258174e-01  4.56258173e-01  1.55690752e-07  1.68828308e-07  9.10000000e-01 
 9.20000000e-01  3.23137296e-09  4.56258160e-01  3.41417531e-09  3.36311954e-09  4.56258160e-01  4.56258160e-01  4.56258160e-01  1.55690753e-07  1.68828173e-07  9.20000000e-01 
 9.30000000e-01  3.23137296e-09  4.56258164e-01  3.41417531e-09  3.36311955e-09  4.56258164e-01  4.56258164e-01  4.56258164e-01  1.55690752e-07  1.68827967e-07  9.30000000e-01 
 9.40000000e-01  3.23137296e-09  4.56258201e-01  3.41417531e-09  3.36311953e-09  4.56258201e-01  4.56258201e-01  4.56258201e-01  1.55690797e-07  1.68828066e-07  9.40000000e-01 
 9.50000000e-01  3.23137296e-09  4.56258150e-01  3.41417531e-09  3.36311960e-09  4.56258150e-01  4.56258150e-01  4.56258150e-01  1.55690726e-07  1.68827668e-07  9.50000000e-01 
 9.60000000e-01  3.23137296e-09  4.56258166e-01  3.41417531e-09  3.36311959e-09  4.56258166e-01  4.56258166e-01  4.56258166e-01  1.55690751e-07  1.68827661e-07  9.60000000e-01 
 9.70000000e-01  3.23137296e-09  4.56258145e-01  3.41417531e-09  3.36311959e-09  4.56258145e-01  4.56258145e-01  4.56258145e-01  1.55690724e-07  1.68827412e-07  9.70000000e-01 
 9.80000000e-01  3.23137296e-09  4.56258184e-01  3.41417531e-09  3.36311954e-09  4.56258184e-01  4.56258184e-01  4.56258184e-01  1.55690782e-07  1.68827341e-07  9.80000000e-01 
 9.90000000e-01  3.23137296e-09  4.56258184e-01  3.41417531e-09  3.36311961e-09  4.56258184e-01  4.56258184e-01  4.56258184e-01  1.55690781e-07  1.68827341e-07  9.90000000e-01 
 1.00000000e+00  3.23137296e-09  4.56258164e-01  3.41417531e-09  3.36311959e-09  4.56258164e-01  4.56258164e-01  4.56258163e-01  1.55690762e-07  1.68827086e-07  1.00000000e+00 
 1.01000000e+00  3.23137296e-09  4.56258201e-01  3.41417531e-09  3.36311960e-09  4.56258201e-01  4.56258201e-01  4.56258201e-01  1.55690796e-07  1.68827079e-07  1.01000000e+00 
 1.02000000e+00  3.23137296e-09  4.56258187e-01  3.41417531e-09  3.36311954e-09  4.56258187e-01  4.56258187e-01  4.56258187e-01  1.55690800e-07  1.68826851e-07  1.02000000e+00 
 1.03000000e+00  3.23137296e-09  4.56258163e-01  3.41417531e-09  3.36311961e-09  4.56258163e-01  4.56258163e-01  4.56258163e-01  1.55690746e-07  1.68826652e-07  1.03000000e+00 
 1.04000000e+00  3.23137296e-09  4.56258201e-01  3.41417531e-09  3.36311959e-09  4.56258201e-01  4.56258201e-01  4.56258201e-01  1.55690811e-07  1.68826595e-07  1.04000000e+00 
 1.05000000e+00  3.23137296e-09  4.56258167e-01  3.41417531e-09  3.36311959e-09  4.56258167e-01  4.56258167e-01  4.56258166e-01  1.55690751e-07  1.68826375e-07  1.05000000e+00 
 1.06000000e+00  3.23137296e-09  4.56258172e-01  3.41417531e-09  3.36311954e-09  4.56258172e-01  4.56258173e-01  4.56258172e-01  1.55690771e-07  1.68826212e-07  1.06000000e+00 
 1.07000000e+00  3.23137296e-09  4.56258188e-01  3.41417531e-09  3.36311961e-09  4.56258188e-01  4.56258188e-01  4.56258188e-01  1.55690775e-07  1.68826098e-07  1.07000000e+00 
 1.08000000e+00  3.23137296e-09  4.56258192e-01  3.41417537e-09  3.36311959e-09  4.56258192e-01  4.56258192e-01  4.56258192e-01  1.55690792e-07  1.68825949e-07  1.08000000e+00 
 1.09000000e+00  3.23137296e-09  4.56258176e-01  3.41417531e-09  3.36311954e-09  4.56258176e-01  4.56258176e-01  4.56258176e-01  1.55690767e-07  1.68825807e-07  1.09000000e+00 
 1.10000000e+00  3.23137296e-09  4.56258167e-01  3.41417531e-09  3.36311961e-09  4.56258167e-01  4.56258167e-01  4.56258167e-01  1.55690756e-07  1.68825693e-07  1.10000000e+00 
