 v-sweep         v(b0)           v(b1)           v(b2)           v(b3)           v(b4)           v(b5)           v(b6)           i(vbias)        i(viout)        v(vout)        
 0.00000000e+00  4.56477069e-01  3.02172824e-09  4.56477069e-01  4.56477069e-01  3.51904551e-09  4.56477069e-01  4.56477069e-01  1.54551936e-07  1.61346110e-07  0.00000000e+00 
 1.00000000e-02  4.56477066e-01  3.02172823e-09  4.56477066e-01  4.56477066e-01  3.51904555e-09  4.56477066e-01  4.56477066e-01  1.54551932e-07  1.61345728e-07  1.00000000e-02 
 2.00000000e-02  4.56477046e-01  3.02172822e-09  4.56477046e-01  4.56477046e-01  3.51904555e-09  4.56477046e-01  4.56477046e-01  1.54551894e-07  1.61345268e-07  2.00000000e-02 
 3.00000000e-02  4.56477100e-01  3.02172823e-09  4.56477100e-01  4.56477100e-01  3.51904550e-09  4.56477100e-01  4.56477100e-01  1.54551975e-07  1.61344926e-07  3.00000000e-02 
 4.00000000e-02  4.56477075e-01  3.02172823e-09  4.56477075e-01  4.56477075e-01  3.51904550e-09  4.56477075e-01  4.56477075e-01  1.54551953e-07  1.61344501e-07  4.00000000e-02 
 5.00000000e-02  4.56477095e-01  3.02172828e-09  4.56477095e-01  4.56477095e-01  3.51904550e-09  4.56477095e-01  4.56477095e-01  1.54551973e-07  1.61344235e-07  5.00000000e-02 
 6.00000000e-02  4.56477085e-01  3.02172828e-09  4.56477085e-01  4.56477085e-01  3.51904550e-09  4.56477085e-01  4.56477085e-01  1.54551957e-07  1.61343889e-07  6.00000000e-02 
 7.00000000e-02  4.56477071e-01  3.02172828e-09  4.56477071e-01  4.56477071e-01  3.51904555e-09  4.56477071e-01  4.56477071e-01  1.54551949e-07  1.61343295e-07  7.00000000e-02 
 8.00000000e-02  4.56477069e-01  3.02172823e-09  4.56477069e-01  4.56477069e-01  3.51904555e-09  4.56477069e-01  4.56477069e-01  1.54551931e-07  1.61343076e-07  8.00000000e-02 
 9.00000000e-02  4.56477078e-01  3.02172823e-09  4.56477078e-01  4.56477078e-01  3.51904555e-09  4.56477078e-01  4.56477078e-01  1.54551928e-07  1.61342781e-07  9.00000000e-02 
 1.00000000e-01  4.56477084e-01  3.02172823e-09  4.56477084e-01  4.56477084e-01  3.51904550e-09  4.56477084e-01  4.56477084e-01  1.54551961e-07  1.61342472e-07  1.00000000e-01 
 1.10000000e-01  4.56477101e-01  3.02172823e-09  4.56477101e-01  4.56477100e-01  3.51904556e-09  4.56477101e-01  4.56477100e-01  1.54551974e-07  1.61342289e-07  1.10000000e-01 
 1.20000000e-01  4.56477103e-01  3.02172823e-09  4.56477103e-01  4.56477103e-01  3.51904556e-09  4.56477103e-01  4.56477103e-01  1.54551997e-07  1.61341990e-07  1.20000000e-01 
 1.30000000e-01  4.56477069e-01  3.02172828e-09  4.56477069e-01  4.56477069e-01  3.51904549e-09  4.56477069e-01  4.56477068e-01  1.54551935e-07  1.61341553e-07  1.30000000e-01 
 1.40000000e-01  4.56477071e-01  3.02172823e-09  4.56477071e-01  4.56477071e-01  3.51904555e-09  4.56477071e-01  4.56477071e-01  1.54551923e-07  1.61341202e-07  1.40000000e-01 
 1.50000000e-01  4.56477087e-01  3.02172823e-09  4.56477087e-01  4.56477087e-01  3.51904550e-09  4.56477087e-01  4.56477087e-01  1.54551952e-07  1.61341056e-07  1.50000000e-01 
 1.60000000e-01  4.56477068e-01  3.02172828e-09  4.56477068e-01  4.56477068e-01  3.51904549e-09  4.56477068e-01  4.56477068e-01  1.54551927e-07  1.61340813e-07  1.60000000e-01 
 1.70000000e-01  4.56477057e-01  3.02172823e-09  4.56477057e-01  4.56477057e-01  3.51904555e-09  4.56477057e-01  4.56477057e-01  1.54551918e-07  1.61340536e-07  1.70000000e-01 
 1.80000000e-01  4.56477069e-01  3.02172823e-09  4.56477069e-01  4.56477069e-01  3.51904549e-09  4.56477069e-01  4.56477069e-01  1.54551944e-07  1.61340347e-07  1.80000000e-01 
 1.90000000e-01  4.56477081e-01  3.02172823e-09  4.56477081e-01  4.56477081e-01  3.51904550e-09  4.56477081e-01  4.56477081e-01  1.54551958e-07  1.61340212e-07  1.90000000e-01 
 2.00000000e-01  4.56477087e-01  3.02172823e-09  4.56477087e-01  4.56477087e-01  3.51904556e-09  4.56477087e-01  4.56477086e-01  1.54551971e-07  1.61339957e-07  2.00000000e-01 
 2.10000000e-01  4.56477083e-01  3.02172828e-09  4.56477083e-01  4.56477083e-01  3.51904555e-09  4.56477083e-01  4.56477083e-01  1.54551961e-07  1.61339795e-07  2.10000000e-01 
 2.20000000e-01  4.56477105e-01  3.02172828e-09  4.56477105e-01  4.56477105e-01  3.51904550e-09  4.56477105e-01  4.56477105e-01  1.54551985e-07  1.61339633e-07  2.20000000e-01 
 2.30000000e-01  4.56477078e-01  3.02172823e-09  4.56477078e-01  4.56477078e-01  3.51904555e-09  4.56477078e-01  4.56477078e-01  1.54551959e-07  1.61339356e-07  2.30000000e-01 
 2.40000000e-01  4.56477090e-01  3.02172828e-09  4.56477090e-01  4.56477090e-01  3.51904556e-09  4.56477090e-01  4.56477089e-01  1.54551961e-07  1.61339150e-07  2.40000000e-01 
 2.50000000e-01  4.56477104e-01  3.02172823e-09  4.56477104e-01  4.56477104e-01  3.51904556e-09  4.56477104e-01  4.56477104e-01  1.54551973e-07  1.61339010e-07  2.50000000e-01 
 2.60000000e-01  4.56477076e-01  3.02172823e-09  4.56477076e-01  4.56477076e-01  3.51904550e-09  4.56477076e-01  4.56477076e-01  1.54551965e-07  1.61338814e-07  2.60000000e-01 
 2.70000000e-01  4.56477055e-01  3.02172823e-09  4.56477055e-01  4.56477055e-01  3.51904549e-09  4.56477055e-01  4.56477054e-01  1.54551919e-07  1.61338546e-07  2.70000000e-01 
 2.80000000e-01  4.56477064e-01  3.02172823e-09  4.56477064e-01  4.56477064e-01  3.51904555e-09  4.56477064e-01  4.56477064e-01  1.54551926e-07  1.61338363e-07  2.80000000e-01 
 2.90000000e-01  4.56477073e-01  3.02172823e-09  4.56477073e-01  4.56477073e-01  3.51904555e-09  4.56477073e-01  4.56477073e-01  1.54551931e-07  1.61338335e-07  2.90000000e-01 
 3.00000000e-01  4.56477079e-01  3.02172828e-09  4.56477079e-01  4.56477079e-01  3.51904555e-09  4.56477079e-01  4.56477079e-01  1.54551955e-07  1.61338093e-07  3.00000000e-01 
 3.10000000e-01  4.56477052e-01  3.02172823e-09  4.56477052e-01  4.56477052e-01  3.51904549e-09  4.56477052e-01  4.56477052e-01  1.54551894e-07  1.61337947e-07  3.10000000e-01 
 3.20000000e-01  4.56477066e-01  3.02172823e-09  4.56477067e-01  4.56477066e-01  3.51904555e-09  4.56477066e-01  4.56477066e-01  1.54551941e-07  1.61337777e-07  3.20000000e-01 
 3.30000000e-01  4.56477057e-01  3.02172823e-09  4.56477057e-01  4.56477057e-01  3.51904555e-09  4.56477057e-01  4.56477057e-01  1.54551918e-07  1.61337653e-07  3.30000000e-01 
 3.40000000e-01  4.56477079e-01  3.02172823e-09  4.56477079e-01  4.56477079e-01  3.51904550e-09  4.56477079e-01  4.56477079e-01  1.54551957e-07  1.61337617e-07  3.40000000e-01 
 3.50000000e-01  4.56477090e-01  3.02172828e-09  4.56477090e-01  4.56477090e-01  3.51904550e-09  4.56477090e-01  4.56477090e-01  1.54551968e-07  1.61337468e-07  3.50000000e-01 
 3.60000000e-01  4.56477069e-01  3.02172823e-09  4.56477069e-01  4.56477069e-01  3.51904555e-09  4.56477069e-01  4.56477068e-01  1.54551941e-07  1.61337319e-07  3.60000000e-01 
 3.70000000e-01  4.56477050e-01  3.02172822e-09  4.56477050e-01  4.56477050e-01  3.51904549e-09  4.56477050e-01  4.56477050e-01  1.54551903e-07  1.61337042e-07  3.70000000e-01 
 3.80000000e-01  4.56477052e-01  3.02172823e-09  4.56477052e-01  4.56477052e-01  3.51904555e-09  4.56477052e-01  4.56477052e-01  1.54551894e-07  1.61336956e-07  3.80000000e-01 
 3.90000000e-01  4.56477061e-01  3.02172828e-09  4.56477061e-01  4.56477061e-01  3.51904549e-09  4.56477061e-01  4.56477061e-01  1.54551920e-07  1.61336782e-07  3.90000000e-01 
 4.00000000e-01  4.56477076e-01  3.02172828e-09  4.56477076e-01  4.56477076e-01  3.51904550e-09  4.56477076e-01  4.56477076e-01  1.54551932e-07  1.61336715e-07  4.00000000e-01 
 4.10000000e-01  4.56477085e-01  3.02172828e-09  4.56477086e-01  4.56477085e-01  3.51904556e-09  4.56477085e-01  4.56477085e-01  1.54551955e-07  1.61336693e-07  4.10000000e-01 
 4.20000000e-01  4.56477061e-01  3.02172828e-09  4.56477061e-01  4.56477061e-01  3.51904549e-09  4.56477061e-01  4.56477061e-01  1.54551922e-07  1.61336356e-07  4.20000000e-01 
 4.30000000e-01  4.56477078e-01  3.02172823e-09  4.56477079e-01  4.56477078e-01  3.51904555e-09  4.56477078e-01  4.56477078e-01  1.54551937e-07  1.61336306e-07  4.30000000e-01 
 4.40000000e-01  4.56477072e-01  3.02172828e-09  4.56477072e-01  4.56477072e-01  3.51904550e-09  4.56477072e-01  4.56477072e-01  1.54551938e-07  1.61336253e-07  4.40000000e-01 
 4.50000000e-01  4.56477105e-01  3.02172823e-09  4.56477105e-01  4.56477105e-01  3.51904550e-09  4.56477105e-01  4.56477105e-01  1.54551978e-07  1.61336267e-07  4.50000000e-01 
 4.60000000e-01  4.56477089e-01  3.02172823e-09  4.56477089e-01  4.56477089e-01  3.51904556e-09  4.56477089e-01  4.56477089e-01  1.54551960e-07  1.61336047e-07  4.60000000e-01 
 4.70000000e-01  4.56477075e-01  3.02172828e-09  4.56477075e-01  4.56477075e-01  3.51904550e-09  4.56477075e-01  4.56477075e-01  1.54551938e-07  1.61335919e-07  4.70000000e-01 
 4.80000000e-01  4.56477084e-01  3.02172823e-09  4.56477084e-01  4.56477084e-01  3.51904556e-09  4.56477084e-01  4.56477084e-01  1.54551960e-07  1.61335798e-07  4.80000000e-01 
 4.90000000e-01  4.56477087e-01  3.02172823e-09  4.56477087e-01  4.56477087e-01  3.51904556e-09  4.56477087e-01  4.56477087e-01  1.54551976e-07  1.61335745e-07  4.90000000e-01 
 5.00000000e-01  4.56477080e-01  3.02172823e-09  4.56477080e-01  4.56477080e-01  3.51904555e-09  4.56477080e-01  4.56477080e-01  1.54551950e-07  1.61335496e-07  5.00000000e-01 
 5.10000000e-01  4.56477067e-01  3.02172823e-09  4.56477067e-01  4.56477067e-01  3.51904555e-09  4.56477067e-01  4.56477067e-01  1.54551919e-07  1.61335343e-07  5.10000000e-01 
 5.20000000e-01  4.56477072e-01  3.02172823e-09  4.56477073e-01  4.56477072e-01  3.51904555e-09  4.56477072e-01  4.56477072e-01  1.54551945e-07  1.61335329e-07  5.20000000e-01 
 5.30000000e-01  4.56477066e-01  3.02172828e-09  4.56477066e-01  4.56477066e-01  3.51904555e-09  4.56477066e-01  4.56477066e-01  1.54551944e-07  1.61335095e-07  5.30000000e-01 
 5.40000000e-01  4.56477051e-01  3.02172823e-09  4.56477051e-01  4.56477051e-01  3.51904555e-09  4.56477051e-01  4.56477051e-01  1.54551916e-07  1.61334892e-07  5.40000000e-01 
 5.50000000e-01  4.56477075e-01  3.02172823e-09  4.56477075e-01  4.56477075e-01  3.51904555e-09  4.56477075e-01  4.56477075e-01  1.54551934e-07  1.61334754e-07  5.50000000e-01 
 5.60000000e-01  4.56477068e-01  3.02172828e-09  4.56477068e-01  4.56477068e-01  3.51904555e-09  4.56477068e-01  4.56477068e-01  1.54551920e-07  1.61334732e-07  5.60000000e-01 
 5.70000000e-01  4.56477061e-01  3.02172823e-09  4.56477062e-01  4.56477061e-01  3.51904555e-09  4.56477061e-01  4.56477061e-01  1.54551909e-07  1.61334633e-07  5.70000000e-01 
 5.80000000e-01  4.56477079e-01  3.02172823e-09  4.56477079e-01  4.56477079e-01  3.51904550e-09  4.56477079e-01  4.56477079e-01  1.54551938e-07  1.61334540e-07  5.80000000e-01 
 5.90000000e-01  4.56477077e-01  3.02172823e-09  4.56477077e-01  4.56477077e-01  3.51904555e-09  4.56477077e-01  4.56477077e-01  1.54551941e-07  1.61334448e-07  5.90000000e-01 
 6.00000000e-01  4.56477069e-01  3.02172828e-09  4.56477069e-01  4.56477069e-01  3.51904555e-09  4.56477069e-01  4.56477069e-01  1.54551934e-07  1.61334391e-07  6.00000000e-01 
 6.10000000e-01  4.56477085e-01  3.02172823e-09  4.56477085e-01  4.56477085e-01  3.51904556e-09  4.56477085e-01  4.56477085e-01  1.54551949e-07  1.61334292e-07  6.10000000e-01 
 6.20000000e-01  4.56477052e-01  3.02172823e-09  4.56477052e-01  4.56477052e-01  3.51904549e-09  4.56477052e-01  4.56477052e-01  1.54551904e-07  1.61334100e-07  6.20000000e-01 
 6.30000000e-01  4.56477077e-01  3.02172823e-09  4.56477077e-01  4.56477077e-01  3.51904555e-09  4.56477077e-01  4.56477077e-01  1.54551942e-07  1.61333944e-07  6.30000000e-01 
 6.40000000e-01  4.56477075e-01  3.02172823e-09  4.56477075e-01  4.56477075e-01  3.51904555e-09  4.56477075e-01  4.56477075e-01  1.54551945e-07  1.61333965e-07  6.40000000e-01 
 6.50000000e-01  4.56477047e-01  3.02172822e-09  4.56477047e-01  4.56477047e-01  3.51904549e-09  4.56477047e-01  4.56477047e-01  1.54551899e-07  1.61333716e-07  6.50000000e-01 
 6.60000000e-01  4.56477091e-01  3.02172823e-09  4.56477091e-01  4.56477091e-01  3.51904550e-09  4.56477091e-01  4.56477091e-01  1.54551953e-07  1.61333759e-07  6.60000000e-01 
 6.70000000e-01  4.56477045e-01  3.02172828e-09  4.56477045e-01  4.56477045e-01  3.51904549e-09  4.56477045e-01  4.56477045e-01  1.54551912e-07  1.61333418e-07  6.70000000e-01 
 6.80000000e-01  4.56477081e-01  3.02172823e-09  4.56477081e-01  4.56477081e-01  3.51904550e-09  4.56477081e-01  4.56477081e-01  1.54551937e-07  1.61333496e-07  6.80000000e-01 
 6.90000000e-01  4.56477057e-01  3.02172823e-09  4.56477057e-01  4.56477057e-01  3.51904555e-09  4.56477057e-01  4.56477057e-01  1.54551913e-07  1.61333311e-07  6.90000000e-01 
 7.00000000e-01  4.56477108e-01  3.02172828e-09  4.56477108e-01  4.56477108e-01  3.51904556e-09  4.56477108e-01  4.56477108e-01  1.54552001e-07  1.61333290e-07  7.00000000e-01 
 7.10000000e-01  4.56477090e-01  3.02172823e-09  4.56477090e-01  4.56477090e-01  3.51904556e-09  4.56477090e-01  4.56477089e-01  1.54551982e-07  1.61333155e-07  7.10000000e-01 
 7.20000000e-01  4.56477061e-01  3.02172823e-09  4.56477061e-01  4.56477061e-01  3.51904555e-09  4.56477061e-01  4.56477061e-01  1.54551930e-07  1.61332892e-07  7.20000000e-01 
 7.30000000e-01  4.56477066e-01  3.02172823e-09  4.56477066e-01  4.56477066e-01  3.51904555e-09  4.56477066e-01  4.56477066e-01  1.54551929e-07  1.61332920e-07  7.30000000e-01 
 7.40000000e-01  4.56477053e-01  3.02172828e-09  4.56477053e-01  4.56477053e-01  3.51904549e-09  4.56477053e-01  4.56477053e-01  1.54551913e-07  1.61332608e-07  7.40000000e-01 
 7.50000000e-01  4.56477076e-01  3.02172823e-09  4.56477076e-01  4.56477076e-01  3.51904550e-09  4.56477076e-01  4.56477076e-01  1.54551953e-07  1.61332586e-07  7.50000000e-01 
 7.60000000e-01  4.56477073e-01  3.02172823e-09  4.56477073e-01  4.56477073e-01  3.51904555e-09  4.56477073e-01  4.56477073e-01  1.54551933e-07  1.61332395e-07  7.60000000e-01 
 7.70000000e-01  4.56477057e-01  3.02172828e-09  4.56477057e-01  4.56477057e-01  3.51904555e-09  4.56477057e-01  4.56477057e-01  1.54551916e-07  1.61332274e-07  7.70000000e-01 
 7.80000000e-01  4.56477107e-01  3.02172823e-09  4.56477107e-01  4.56477107e-01  3.51904556e-09  4.56477107e-01  4.56477107e-01  1.54551997e-07  1.61332274e-07  7.80000000e-01 
 7.90000000e-01  4.56477093e-01  3.02172828e-09  4.56477093e-01  4.56477093e-01  3.51904556e-09  4.56477093e-01  4.56477093e-01  1.54551983e-07  1.61332217e-07  7.90000000e-01 
 8.00000000e-01  4.56477068e-01  3.02172828e-09  4.56477068e-01  4.56477068e-01  3.51904549e-09  4.56477068e-01  4.56477068e-01  1.54551951e-07  1.61331961e-07  8.00000000e-01 
 8.10000000e-01  4.56477086e-01  3.02172828e-09  4.56477086e-01  4.56477086e-01  3.51904556e-09  4.56477086e-01  4.56477086e-01  1.54551963e-07  1.61331918e-07  8.10000000e-01 
 8.20000000e-01  4.56477092e-01  3.02172823e-09  4.56477092e-01  4.56477092e-01  3.51904556e-09  4.56477092e-01  4.56477092e-01  1.54551955e-07  1.61331769e-07  8.20000000e-01 
 8.30000000e-01  4.56477079e-01  3.02172828e-09  4.56477079e-01  4.56477079e-01  3.51904550e-09  4.56477079e-01  4.56477079e-01  1.54551944e-07  1.61331670e-07  8.30000000e-01 
 8.40000000e-01  4.56477070e-01  3.02172823e-09  4.56477070e-01  4.56477070e-01  3.51904555e-09  4.56477070e-01  4.56477070e-01  1.54551940e-07  1.61331464e-07  8.40000000e-01 
 8.50000000e-01  4.56477071e-01  3.02172823e-09  4.56477071e-01  4.56477071e-01  3.51904555e-09  4.56477071e-01  4.56477071e-01  1.54551940e-07  1.61331421e-07  8.50000000e-01 
 8.60000000e-01  4.56477085e-01  3.02172823e-09  4.56477085e-01  4.56477085e-01  3.51904556e-09  4.56477085e-01  4.56477085e-01  1.54551961e-07  1.61331286e-07  8.60000000e-01 
 8.70000000e-01  4.56477088e-01  3.02172823e-09  4.56477088e-01  4.56477088e-01  3.51904556e-09  4.56477088e-01  4.56477088e-01  1.54551960e-07  1.61331180e-07  8.70000000e-01 
 8.80000000e-01  4.56477032e-01  3.02172822e-09  4.56477032e-01  4.56477032e-01  3.51904549e-09  4.56477032e-01  4.56477032e-01  1.54551872e-07  1.61330910e-07  8.80000000e-01 
 8.90000000e-01  4.56477067e-01  3.02172823e-09  4.56477067e-01  4.56477067e-01  3.51904555e-09  4.56477067e-01  4.56477067e-01  1.54551925e-07  1.61330775e-07  8.90000000e-01 
 9.00000000e-01  4.56477051e-01  3.02172823e-09  4.56477052e-01  4.56477051e-01  3.51904549e-09  4.56477051e-01  4.56477051e-01  1.54551914e-07  1.61330618e-07  9.00000000e-01 
 9.10000000e-01  4.56477097e-01  3.02172823e-09  4.56477097e-01  4.56477097e-01  3.51904556e-09  4.56477097e-01  4.56477097e-01  1.54551964e-07  1.61330810e-07  9.10000000e-01 
 9.20000000e-01  4.56477063e-01  3.02172823e-09  4.56477063e-01  4.56477063e-01  3.51904549e-09  4.56477063e-01  4.56477063e-01  1.54551929e-07  1.61330462e-07  9.20000000e-01 
 9.30000000e-01  4.56477067e-01  3.02172828e-09  4.56477067e-01  4.56477067e-01  3.51904555e-09  4.56477067e-01  4.56477067e-01  1.54551940e-07  1.61330377e-07  9.30000000e-01 
 9.40000000e-01  4.56477068e-01  3.02172823e-09  4.56477068e-01  4.56477068e-01  3.51904549e-09  4.56477068e-01  4.56477068e-01  1.54551935e-07  1.61330163e-07  9.40000000e-01 
 9.50000000e-01  4.56477041e-01  3.02172828e-09  4.56477041e-01  4.56477041e-01  3.51904549e-09  4.56477041e-01  4.56477041e-01  1.54551895e-07  1.61329858e-07  9.50000000e-01 
 9.60000000e-01  4.56477054e-01  3.02172823e-09  4.56477054e-01  4.56477054e-01  3.51904555e-09  4.56477054e-01  4.56477054e-01  1.54551912e-07  1.61329922e-07  9.60000000e-01 
 9.70000000e-01  4.56477072e-01  3.02172823e-09  4.56477072e-01  4.56477072e-01  3.51904555e-09  4.56477072e-01  4.56477072e-01  1.54551940e-07  1.61329886e-07  9.70000000e-01 
 9.80000000e-01  4.56477085e-01  3.02172828e-09  4.56477085e-01  4.56477085e-01  3.51904550e-09  4.56477085e-01  4.56477085e-01  1.54551948e-07  1.61329673e-07  9.80000000e-01 
 9.90000000e-01  4.56477054e-01  3.02172823e-09  4.56477054e-01  4.56477054e-01  3.51904549e-09  4.56477054e-01  4.56477054e-01  1.54551900e-07  1.61329503e-07  9.90000000e-01 
 1.00000000e+00  4.56477040e-01  3.02172828e-09  4.56477040e-01  4.56477040e-01  3.51904554e-09  4.56477040e-01  4.56477040e-01  1.54551894e-07  1.61329247e-07  1.00000000e+00 
 1.01000000e+00  4.56477080e-01  3.02172823e-09  4.56477080e-01  4.56477080e-01  3.51904550e-09  4.56477080e-01  4.56477080e-01  1.54551947e-07  1.61329368e-07  1.01000000e+00 
 1.02000000e+00  4.56477074e-01  3.02172823e-09  4.56477074e-01  4.56477074e-01  3.51904555e-09  4.56477074e-01  4.56477074e-01  1.54551945e-07  1.61329154e-07  1.02000000e+00 
 1.03000000e+00  4.56477077e-01  3.02172823e-09  4.56477077e-01  4.56477077e-01  3.51904550e-09  4.56477077e-01  4.56477077e-01  1.54551945e-07  1.61328984e-07  1.03000000e+00 
 1.04000000e+00  4.56477087e-01  3.02172828e-09  4.56477087e-01  4.56477087e-01  3.51904556e-09  4.56477087e-01  4.56477087e-01  1.54551964e-07  1.61328835e-07  1.04000000e+00 
 1.05000000e+00  4.56477076e-01  3.02172828e-09  4.56477076e-01  4.56477076e-01  3.51904555e-09  4.56477076e-01  4.56477076e-01  1.54551955e-07  1.61328693e-07  1.05000000e+00 
 1.06000000e+00  4.56477078e-01  3.02172823e-09  4.56477078e-01  4.56477078e-01  3.51904555e-09  4.56477078e-01  4.56477078e-01  1.54551957e-07  1.61328586e-07  1.06000000e+00 
 1.07000000e+00  4.56477074e-01  3.02172823e-09  4.56477074e-01  4.56477074e-01  3.51904550e-09  4.56477074e-01  4.56477074e-01  1.54551949e-07  1.61328359e-07  1.07000000e+00 
 1.08000000e+00  4.56477078e-01  3.02172828e-09  4.56477078e-01  4.56477078e-01  3.51904555e-09  4.56477078e-01  4.56477078e-01  1.54551943e-07  1.61328266e-07  1.08000000e+00 
 1.09000000e+00  4.56477058e-01  3.02172823e-09  4.56477058e-01  4.56477058e-01  3.51904549e-09  4.56477058e-01  4.56477058e-01  1.54551919e-07  1.61328053e-07  1.09000000e+00 
 1.10000000e+00  4.56477071e-01  3.02172823e-09  4.56477072e-01  4.56477071e-01  3.51904555e-09  4.56477071e-01  4.56477071e-01  1.54551935e-07  1.61327954e-07  1.10000000e+00 
