 v-sweep         v(b0)           v(b1)           v(b2)           v(b3)           v(b4)           v(b5)           v(b6)           i(vbias)        i(viout)        v(vout)        
 0.00000000e+00  3.21527869e-09  4.57585434e-01  4.57585434e-01  3.21041987e-09  3.53292114e-09  4.57585434e-01  4.57585434e-01  1.58718388e-07  1.45830967e-07  0.00000000e+00 
 1.00000000e-02  3.21527861e-09  4.57585419e-01  4.57585419e-01  3.21041985e-09  3.53292106e-09  4.57585419e-01  4.57585419e-01  1.58718373e-07  1.45830260e-07  1.00000000e-02 
 2.00000000e-02  3.21527867e-09  4.57585449e-01  4.57585449e-01  3.21041985e-09  3.53292106e-09  4.57585449e-01  4.57585449e-01  1.58718417e-07  1.45830145e-07  2.00000000e-02 
 3.00000000e-02  3.21527861e-09  4.57585415e-01  4.57585415e-01  3.21041985e-09  3.53292111e-09  4.57585415e-01  4.57585415e-01  1.58718365e-07  1.45829519e-07  3.00000000e-02 
 4.00000000e-02  3.21527867e-09  4.57585455e-01  4.57585455e-01  3.21041991e-09  3.53292111e-09  4.57585455e-01  4.57585455e-01  1.58718416e-07  1.45829310e-07  4.00000000e-02 
 5.00000000e-02  3.21527861e-09  4.57585409e-01  4.57585409e-01  3.21041991e-09  3.53292111e-09  4.57585409e-01  4.57585409e-01  1.58718348e-07  1.45828867e-07  5.00000000e-02 
 6.00000000e-02  3.21527867e-09  4.57585446e-01  4.57585446e-01  3.21041985e-09  3.53292106e-09  4.57585446e-01  4.57585446e-01  1.58718410e-07  1.45828537e-07  6.00000000e-02 
 7.00000000e-02  3.21527867e-09  4.57585430e-01  4.57585430e-01  3.21041985e-09  3.53292111e-09  4.57585430e-01  4.57585430e-01  1.58718377e-07  1.45828179e-07  7.00000000e-02 
 8.00000000e-02  3.21527867e-09  4.57585448e-01  4.57585448e-01  3.21041991e-09  3.53292111e-09  4.57585448e-01  4.57585448e-01  1.58718417e-07  1.45827895e-07  8.00000000e-02 
 9.00000000e-02  3.21527861e-09  4.57585430e-01  4.57585430e-01  3.21041985e-09  3.53292106e-09  4.57585430e-01  4.57585430e-01  1.58718383e-07  1.45827508e-07  9.00000000e-02 
 1.00000000e-01  3.21527867e-09  4.57585442e-01  4.57585442e-01  3.21041985e-09  3.53292111e-09  4.57585442e-01  4.57585442e-01  1.58718420e-07  1.45827332e-07  1.00000000e-01 
 1.10000000e-01  3.21527867e-09  4.57585464e-01  4.57585464e-01  3.21041991e-09  3.53292106e-09  4.57585464e-01  4.57585464e-01  1.58718435e-07  1.45827061e-07  1.10000000e-01 
 1.20000000e-01  3.21527861e-09  4.57585414e-01  4.57585413e-01  3.21041991e-09  3.53292111e-09  4.57585413e-01  4.57585413e-01  1.58718358e-07  1.45826635e-07  1.20000000e-01 
 1.30000000e-01  3.21527861e-09  4.57585423e-01  4.57585423e-01  3.21041991e-09  3.53292111e-09  4.57585423e-01  4.57585423e-01  1.58718363e-07  1.45826403e-07  1.30000000e-01 
 1.40000000e-01  3.21527867e-09  4.57585459e-01  4.57585459e-01  3.21041985e-09  3.53292106e-09  4.57585459e-01  4.57585459e-01  1.58718425e-07  1.45826275e-07  1.40000000e-01 
 1.50000000e-01  3.21527861e-09  4.57585439e-01  4.57585438e-01  3.21041985e-09  3.53292111e-09  4.57585439e-01  4.57585439e-01  1.58718403e-07  1.45825906e-07  1.50000000e-01 
 1.60000000e-01  3.21527867e-09  4.57585456e-01  4.57585456e-01  3.21041991e-09  3.53292111e-09  4.57585456e-01  4.57585456e-01  1.58718426e-07  1.45825826e-07  1.60000000e-01 
 1.70000000e-01  3.21527861e-09  4.57585442e-01  4.57585442e-01  3.21041991e-09  3.53292111e-09  4.57585442e-01  4.57585442e-01  1.58718397e-07  1.45825602e-07  1.70000000e-01 
 1.80000000e-01  3.21527867e-09  4.57585442e-01  4.57585442e-01  3.21041985e-09  3.53292106e-09  4.57585442e-01  4.57585442e-01  1.58718405e-07  1.45825378e-07  1.80000000e-01 
 1.90000000e-01  3.21527867e-09  4.57585451e-01  4.57585451e-01  3.21041985e-09  3.53292111e-09  4.57585451e-01  4.57585451e-01  1.58718415e-07  1.45825185e-07  1.90000000e-01 
 2.00000000e-01  3.21527861e-09  4.57585446e-01  4.57585446e-01  3.21041985e-09  3.53292111e-09  4.57585446e-01  4.57585446e-01  1.58718399e-07  1.45824881e-07  2.00000000e-01 
 2.10000000e-01  3.21527867e-09  4.57585416e-01  4.57585416e-01  3.21041991e-09  3.53292111e-09  4.57585416e-01  4.57585416e-01  1.58718363e-07  1.45824588e-07  2.10000000e-01 
 2.20000000e-01  3.21527861e-09  4.57585426e-01  4.57585426e-01  3.21041991e-09  3.53292106e-09  4.57585426e-01  4.57585426e-01  1.58718383e-07  1.45824469e-07  2.20000000e-01 
 2.30000000e-01  3.21527861e-09  4.57585434e-01  4.57585433e-01  3.21041991e-09  3.53292106e-09  4.57585433e-01  4.57585433e-01  1.58718384e-07  1.45824357e-07  2.30000000e-01 
 2.40000000e-01  3.21527861e-09  4.57585452e-01  4.57585451e-01  3.21041985e-09  3.53292111e-09  4.57585451e-01  4.57585451e-01  1.58718424e-07  1.45824162e-07  2.40000000e-01 
 2.50000000e-01  3.21527861e-09  4.57585444e-01  4.57585443e-01  3.21041985e-09  3.53292111e-09  4.57585443e-01  4.57585443e-01  1.58718387e-07  1.45823995e-07  2.50000000e-01 
 2.60000000e-01  3.21527861e-09  4.57585457e-01  4.57585457e-01  3.21041991e-09  3.53292111e-09  4.57585457e-01  4.57585457e-01  1.58718415e-07  1.45823931e-07  2.60000000e-01 
 2.70000000e-01  3.21527867e-09  4.57585428e-01  4.57585428e-01  3.21041991e-09  3.53292111e-09  4.57585428e-01  4.57585428e-01  1.58718382e-07  1.45823623e-07  2.70000000e-01 
 2.80000000e-01  3.21527867e-09  4.57585424e-01  4.57585424e-01  3.21041991e-09  3.53292106e-09  4.57585424e-01  4.57585424e-01  1.58718373e-07  1.45823488e-07  2.80000000e-01 
 2.90000000e-01  3.21527867e-09  4.57585448e-01  4.57585447e-01  3.21041991e-09  3.53292111e-09  4.57585447e-01  4.57585448e-01  1.58718409e-07  1.45823492e-07  2.90000000e-01 
 3.00000000e-01  3.21527867e-09  4.57585424e-01  4.57585424e-01  3.21041985e-09  3.53292106e-09  4.57585424e-01  4.57585424e-01  1.58718365e-07  1.45823137e-07  3.00000000e-01 
 3.10000000e-01  3.21527867e-09  4.57585441e-01  4.57585441e-01  3.21041991e-09  3.53292111e-09  4.57585441e-01  4.57585441e-01  1.58718398e-07  1.45823073e-07  3.10000000e-01 
 3.20000000e-01  3.21527867e-09  4.57585454e-01  4.57585454e-01  3.21041991e-09  3.53292106e-09  4.57585454e-01  4.57585454e-01  1.58718421e-07  1.45823048e-07  3.20000000e-01 
 3.30000000e-01  3.21527861e-09  4.57585451e-01  4.57585451e-01  3.21041991e-09  3.53292111e-09  4.57585451e-01  4.57585451e-01  1.58718397e-07  1.45822838e-07  3.30000000e-01 
 3.40000000e-01  3.21527861e-09  4.57585442e-01  4.57585442e-01  3.21041991e-09  3.53292111e-09  4.57585442e-01  4.57585442e-01  1.58718406e-07  1.45822757e-07  3.40000000e-01 
 3.50000000e-01  3.21527867e-09  4.57585428e-01  4.57585427e-01  3.21041985e-09  3.53292111e-09  4.57585427e-01  4.57585427e-01  1.58718386e-07  1.45822526e-07  3.50000000e-01 
 3.60000000e-01  3.21527867e-09  4.57585468e-01  4.57585468e-01  3.21041985e-09  3.53292112e-09  4.57585468e-01  4.57585468e-01  1.58718434e-07  1.45822590e-07  3.60000000e-01 
 3.70000000e-01  3.21527867e-09  4.57585446e-01  4.57585446e-01  3.21041985e-09  3.53292106e-09  4.57585446e-01  4.57585446e-01  1.58718413e-07  1.45822334e-07  3.70000000e-01 
 3.80000000e-01  3.21527867e-09  4.57585443e-01  4.57585443e-01  3.21041991e-09  3.53292106e-09  4.57585443e-01  4.57585443e-01  1.58718393e-07  1.45822291e-07  3.80000000e-01 
 3.90000000e-01  3.21527867e-09  4.57585440e-01  4.57585439e-01  3.21041991e-09  3.53292111e-09  4.57585439e-01  4.57585439e-01  1.58718397e-07  1.45822046e-07  3.90000000e-01 
 4.00000000e-01  3.21527861e-09  4.57585439e-01  4.57585439e-01  3.21041985e-09  3.53292111e-09  4.57585439e-01  4.57585439e-01  1.58718391e-07  1.45821954e-07  4.00000000e-01 
 4.10000000e-01  3.21527867e-09  4.57585451e-01  4.57585451e-01  3.21041991e-09  3.53292106e-09  4.57585451e-01  4.57585451e-01  1.58718405e-07  1.45821954e-07  4.10000000e-01 
 4.20000000e-01  3.21527867e-09  4.57585434e-01  4.57585434e-01  3.21041991e-09  3.53292111e-09  4.57585434e-01  4.57585434e-01  1.58718376e-07  1.45821723e-07  4.20000000e-01 
 4.30000000e-01  3.21527861e-09  4.57585448e-01  4.57585447e-01  3.21041985e-09  3.53292106e-09  4.57585448e-01  4.57585448e-01  1.58718395e-07  1.45821637e-07  4.30000000e-01 
 4.40000000e-01  3.21527867e-09  4.57585458e-01  4.57585458e-01  3.21041985e-09  3.53292106e-09  4.57585458e-01  4.57585458e-01  1.58718412e-07  1.45821570e-07  4.40000000e-01 
 4.50000000e-01  3.21527861e-09  4.57585430e-01  4.57585430e-01  3.21041991e-09  3.53292111e-09  4.57585430e-01  4.57585430e-01  1.58718381e-07  1.45821481e-07  4.50000000e-01 
 4.60000000e-01  3.21527861e-09  4.57585429e-01  4.57585429e-01  3.21041991e-09  3.53292111e-09  4.57585429e-01  4.57585429e-01  1.58718382e-07  1.45821243e-07  4.60000000e-01 
 4.70000000e-01  3.21527867e-09  4.57585445e-01  4.57585445e-01  3.21041985e-09  3.53292111e-09  4.57585445e-01  4.57585445e-01  1.58718401e-07  1.45821300e-07  4.70000000e-01 
 4.80000000e-01  3.21527867e-09  4.57585440e-01  4.57585440e-01  3.21041991e-09  3.53292106e-09  4.57585440e-01  4.57585440e-01  1.58718392e-07  1.45821030e-07  4.80000000e-01 
 4.90000000e-01  3.21527861e-09  4.57585442e-01  4.57585442e-01  3.21041985e-09  3.53292111e-09  4.57585442e-01  4.57585442e-01  1.58718390e-07  1.45820980e-07  4.90000000e-01 
 5.00000000e-01  3.21527861e-09  4.57585416e-01  4.57585416e-01  3.21041985e-09  3.53292111e-09  4.57585416e-01  4.57585416e-01  1.58718367e-07  1.45820810e-07  5.00000000e-01 
 5.10000000e-01  3.21527861e-09  4.57585433e-01  4.57585433e-01  3.21041991e-09  3.53292111e-09  4.57585433e-01  4.57585433e-01  1.58718397e-07  1.45820731e-07  5.10000000e-01 
 5.20000000e-01  3.21527867e-09  4.57585453e-01  4.57585453e-01  3.21041985e-09  3.53292106e-09  4.57585453e-01  4.57585453e-01  1.58718409e-07  1.45820795e-07  5.20000000e-01 
 5.30000000e-01  3.21527861e-09  4.57585441e-01  4.57585441e-01  3.21041985e-09  3.53292111e-09  4.57585441e-01  4.57585441e-01  1.58718396e-07  1.45820572e-07  5.30000000e-01 
 5.40000000e-01  3.21527867e-09  4.57585430e-01  4.57585430e-01  3.21041991e-09  3.53292106e-09  4.57585430e-01  4.57585430e-01  1.58718386e-07  1.45820611e-07  5.40000000e-01 
 5.50000000e-01  3.21527867e-09  4.57585466e-01  4.57585466e-01  3.21041985e-09  3.53292106e-09  4.57585466e-01  4.57585466e-01  1.58718438e-07  1.45820529e-07  5.50000000e-01 
 5.60000000e-01  3.21527867e-09  4.57585438e-01  4.57585438e-01  3.21041991e-09  3.53292106e-09  4.57585438e-01  4.57585438e-01  1.58718394e-07  1.45820280e-07  5.60000000e-01 
 5.70000000e-01  3.21527861e-09  4.57585432e-01  4.57585431e-01  3.21041985e-09  3.53292106e-09  4.57585431e-01  4.57585431e-01  1.58718401e-07  1.45820163e-07  5.70000000e-01 
 5.80000000e-01  3.21527867e-09  4.57585432e-01  4.57585432e-01  3.21041985e-09  3.53292111e-09  4.57585432e-01  4.57585432e-01  1.58718388e-07  1.45820053e-07  5.80000000e-01 
 5.90000000e-01  3.21527867e-09  4.57585455e-01  4.57585455e-01  3.21041985e-09  3.53292111e-09  4.57585455e-01  4.57585455e-01  1.58718434e-07  1.45820024e-07  5.90000000e-01 
 6.00000000e-01  3.21527861e-09  4.57585424e-01  4.57585423e-01  3.21041991e-09  3.53292111e-09  4.57585423e-01  4.57585423e-01  1.58718368e-07  1.45819861e-07  6.00000000e-01 
 6.10000000e-01  3.21527867e-09  4.57585443e-01  4.57585443e-01  3.21041985e-09  3.53292106e-09  4.57585443e-01  4.57585443e-01  1.58718394e-07  1.45819861e-07  6.10000000e-01 
 6.20000000e-01  3.21527867e-09  4.57585440e-01  4.57585439e-01  3.21041991e-09  3.53292111e-09  4.57585439e-01  4.57585439e-01  1.58718398e-07  1.45819719e-07  6.20000000e-01 
 6.30000000e-01  3.21527867e-09  4.57585451e-01  4.57585451e-01  3.21041991e-09  3.53292111e-09  4.57585451e-01  4.57585451e-01  1.58718393e-07  1.45819598e-07  6.30000000e-01 
 6.40000000e-01  3.21527861e-09  4.57585451e-01  4.57585451e-01  3.21041985e-09  3.53292106e-09  4.57585451e-01  4.57585451e-01  1.58718399e-07  1.45819548e-07  6.40000000e-01 
 6.50000000e-01  3.21527867e-09  4.57585443e-01  4.57585443e-01  3.21041985e-09  3.53292106e-09  4.57585443e-01  4.57585443e-01  1.58718418e-07  1.45819477e-07  6.50000000e-01 
 6.60000000e-01  3.21527867e-09  4.57585432e-01  4.57585432e-01  3.21041985e-09  3.53292111e-09  4.57585432e-01  4.57585432e-01  1.58718381e-07  1.45819286e-07  6.60000000e-01 
 6.70000000e-01  3.21527867e-09  4.57585466e-01  4.57585465e-01  3.21041985e-09  3.53292106e-09  4.57585466e-01  4.57585466e-01  1.58718444e-07  1.45819342e-07  6.70000000e-01 
 6.80000000e-01  3.21527861e-09  4.57585454e-01  4.57585454e-01  3.21041991e-09  3.53292111e-09  4.57585454e-01  4.57585454e-01  1.58718418e-07  1.45819214e-07  6.80000000e-01 
 6.90000000e-01  3.21527867e-09  4.57585438e-01  4.57585437e-01  3.21041991e-09  3.53292111e-09  4.57585437e-01  4.57585437e-01  1.58718404e-07  1.45818966e-07  6.90000000e-01 
 7.00000000e-01  3.21527867e-09  4.57585431e-01  4.57585431e-01  3.21041985e-09  3.53292111e-09  4.57585431e-01  4.57585431e-01  1.58718392e-07  1.45818937e-07  7.00000000e-01 
 7.10000000e-01  3.21527867e-09  4.57585453e-01  4.57585453e-01  3.21041985e-09  3.53292111e-09  4.57585453e-01  4.57585453e-01  1.58718416e-07  1.45818895e-07  7.10000000e-01 
 7.20000000e-01  3.21527867e-09  4.57585410e-01  4.57585410e-01  3.21041991e-09  3.53292111e-09  4.57585410e-01  4.57585410e-01  1.58718348e-07  1.45818589e-07  7.20000000e-01 
 7.30000000e-01  3.21527867e-09  4.57585428e-01  4.57585428e-01  3.21041991e-09  3.53292106e-09  4.57585428e-01  4.57585428e-01  1.58718370e-07  1.45818447e-07  7.30000000e-01 
 7.40000000e-01  3.21527861e-09  4.57585442e-01  4.57585442e-01  3.21041991e-09  3.53292111e-09  4.57585442e-01  4.57585442e-01  1.58718392e-07  1.45818483e-07  7.40000000e-01 
 7.50000000e-01  3.21527861e-09  4.57585457e-01  4.57585457e-01  3.21041991e-09  3.53292111e-09  4.57585457e-01  4.57585457e-01  1.58718413e-07  1.45818518e-07  7.50000000e-01 
 7.60000000e-01  3.21527861e-09  4.57585450e-01  4.57585450e-01  3.21041991e-09  3.53292111e-09  4.57585450e-01  4.57585450e-01  1.58718422e-07  1.45818277e-07  7.60000000e-01 
 7.70000000e-01  3.21527861e-09  4.57585448e-01  4.57585447e-01  3.21041985e-09  3.53292111e-09  4.57585447e-01  4.57585448e-01  1.58718408e-07  1.45818269e-07  7.70000000e-01 
 7.80000000e-01  3.21527867e-09  4.57585462e-01  4.57585462e-01  3.21041985e-09  3.53292106e-09  4.57585462e-01  4.57585462e-01  1.58718425e-07  1.45818184e-07  7.80000000e-01 
 7.90000000e-01  3.21527867e-09  4.57585432e-01  4.57585432e-01  3.21041985e-09  3.53292111e-09  4.57585432e-01  4.57585432e-01  1.58718375e-07  1.45817943e-07  7.90000000e-01 
 8.00000000e-01  3.21527867e-09  4.57585423e-01  4.57585422e-01  3.21041985e-09  3.53292111e-09  4.57585422e-01  4.57585422e-01  1.58718371e-07  1.45817793e-07  8.00000000e-01 
 8.10000000e-01  3.21527867e-09  4.57585444e-01  4.57585444e-01  3.21041991e-09  3.53292111e-09  4.57585444e-01  4.57585444e-01  1.58718405e-07  1.45817808e-07  8.10000000e-01 
 8.20000000e-01  3.21527867e-09  4.57585424e-01  4.57585424e-01  3.21041985e-09  3.53292111e-09  4.57585424e-01  4.57585424e-01  1.58718372e-07  1.45817673e-07  8.20000000e-01 
 8.30000000e-01  3.21527861e-09  4.57585441e-01  4.57585441e-01  3.21041991e-09  3.53292111e-09  4.57585441e-01  4.57585441e-01  1.58718397e-07  1.45817609e-07  8.30000000e-01 
 8.40000000e-01  3.21527861e-09  4.57585437e-01  4.57585437e-01  3.21041991e-09  3.53292106e-09  4.57585437e-01  4.57585437e-01  1.58718390e-07  1.45817552e-07  8.40000000e-01 
 8.50000000e-01  3.21527867e-09  4.57585478e-01  4.57585478e-01  3.21041991e-09  3.53292112e-09  4.57585478e-01  4.57585478e-01  1.58718466e-07  1.45817538e-07  8.50000000e-01 
 8.60000000e-01  3.21527867e-09  4.57585443e-01  4.57585442e-01  3.21041991e-09  3.53292111e-09  4.57585442e-01  4.57585443e-01  1.58718412e-07  1.45817381e-07  8.60000000e-01 
 8.70000000e-01  3.21527867e-09  4.57585419e-01  4.57585419e-01  3.21041991e-09  3.53292111e-09  4.57585419e-01  4.57585419e-01  1.58718367e-07  1.45817090e-07  8.70000000e-01 
 8.80000000e-01  3.21527867e-09  4.57585435e-01  4.57585435e-01  3.21041985e-09  3.53292111e-09  4.57585435e-01  4.57585435e-01  1.58718382e-07  1.45817012e-07  8.80000000e-01 
 8.90000000e-01  3.21527867e-09  4.57585461e-01  4.57585461e-01  3.21041985e-09  3.53292111e-09  4.57585461e-01  4.57585461e-01  1.58718430e-07  1.45817026e-07  8.90000000e-01 
 9.00000000e-01  3.21527867e-09  4.57585419e-01  4.57585419e-01  3.21041985e-09  3.53292111e-09  4.57585419e-01  4.57585419e-01  1.58718357e-07  1.45816820e-07  9.00000000e-01 
 9.10000000e-01  3.21527861e-09  4.57585445e-01  4.57585445e-01  3.21041985e-09  3.53292111e-09  4.57585445e-01  4.57585445e-01  1.58718411e-07  1.45816728e-07  9.10000000e-01 
 9.20000000e-01  3.21527867e-09  4.57585424e-01  4.57585423e-01  3.21041985e-09  3.53292111e-09  4.57585423e-01  4.57585423e-01  1.58718377e-07  1.45816557e-07  9.20000000e-01 
 9.30000000e-01  3.21527867e-09  4.57585441e-01  4.57585441e-01  3.21041991e-09  3.53292111e-09  4.57585441e-01  4.57585441e-01  1.58718399e-07  1.45816536e-07  9.30000000e-01 
 9.40000000e-01  3.21527867e-09  4.57585438e-01  4.57585438e-01  3.21041991e-09  3.53292106e-09  4.57585438e-01  4.57585438e-01  1.58718382e-07  1.45816465e-07  9.40000000e-01 
 9.50000000e-01  3.21527867e-09  4.57585465e-01  4.57585464e-01  3.21041985e-09  3.53292106e-09  4.57585464e-01  4.57585464e-01  1.58718443e-07  1.45816323e-07  9.50000000e-01 
 9.60000000e-01  3.21527867e-09  4.57585444e-01  4.57585444e-01  3.21041985e-09  3.53292111e-09  4.57585444e-01  4.57585444e-01  1.58718404e-07  1.45816124e-07  9.60000000e-01 
 9.70000000e-01  3.21527867e-09  4.57585455e-01  4.57585454e-01  3.21041985e-09  3.53292106e-09  4.57585454e-01  4.57585455e-01  1.58718423e-07  1.45816145e-07  9.70000000e-01 
 9.80000000e-01  3.21527861e-09  4.57585425e-01  4.57585425e-01  3.21041985e-09  3.53292106e-09  4.57585425e-01  4.57585425e-01  1.58718379e-07  1.45815946e-07  9.80000000e-01 
 9.90000000e-01  3.21527861e-09  4.57585438e-01  4.57585438e-01  3.21041991e-09  3.53292111e-09  4.57585438e-01  4.57585438e-01  1.58718392e-07  1.45815754e-07  9.90000000e-01 
 1.00000000e+00  3.21527867e-09  4.57585466e-01  4.57585466e-01  3.21041985e-09  3.53292111e-09  4.57585466e-01  4.57585466e-01  1.58718428e-07  1.45815868e-07  1.00000000e+00 
 1.01000000e+00  3.21527867e-09  4.57585443e-01  4.57585443e-01  3.21041985e-09  3.53292111e-09  4.57585443e-01  4.57585443e-01  1.58718408e-07  1.45815726e-07  1.01000000e+00 
 1.02000000e+00  3.21527867e-09  4.57585449e-01  4.57585449e-01  3.21041991e-09  3.53292111e-09  4.57585449e-01  4.57585449e-01  1.58718422e-07  1.45815456e-07  1.02000000e+00 
 1.03000000e+00  3.21527867e-09  4.57585446e-01  4.57585446e-01  3.21041991e-09  3.53292106e-09  4.57585446e-01  4.57585446e-01  1.58718412e-07  1.45815463e-07  1.03000000e+00 
 1.04000000e+00  3.21527867e-09  4.57585443e-01  4.57585443e-01  3.21041985e-09  3.53292106e-09  4.57585443e-01  4.57585443e-01  1.58718398e-07  1.45815250e-07  1.04000000e+00 
 1.05000000e+00  3.21527867e-09  4.57585441e-01  4.57585441e-01  3.21041991e-09  3.53292111e-09  4.57585441e-01  4.57585441e-01  1.58718399e-07  1.45815072e-07  1.05000000e+00 
 1.06000000e+00  3.21527867e-09  4.57585443e-01  4.57585443e-01  3.21041985e-09  3.53292111e-09  4.57585443e-01  4.57585443e-01  1.58718402e-07  1.45815044e-07  1.06000000e+00 
 1.07000000e+00  3.21527861e-09  4.57585464e-01  4.57585464e-01  3.21041985e-09  3.53292111e-09  4.57585464e-01  4.57585464e-01  1.58718438e-07  1.45814923e-07  1.07000000e+00 
 1.08000000e+00  3.21527867e-09  4.57585446e-01  4.57585446e-01  3.21041991e-09  3.53292106e-09  4.57585446e-01  4.57585446e-01  1.58718402e-07  1.45814695e-07  1.08000000e+00 
 1.09000000e+00  3.21527867e-09  4.57585429e-01  4.57585428e-01  3.21041985e-09  3.53292111e-09  4.57585428e-01  4.57585428e-01  1.58718382e-07  1.45814582e-07  1.09000000e+00 
 1.10000000e+00  3.21527867e-09  4.57585457e-01  4.57585456e-01  3.21041985e-09  3.53292111e-09  4.57585456e-01  4.57585456e-01  1.58718428e-07  1.45814539e-07  1.10000000e+00 
