 v-sweep         v(b0)           v(b1)           v(b2)           v(b3)           v(b4)           v(b5)           v(b6)           i(vbias)        i(viout)        v(vout)        
 0.00000000e+00  3.23137293e-09  4.56258226e-01  4.56258226e-01  4.56258226e-01  3.32847236e-09  4.56258226e-01  3.28274082e-09  1.55690848e-07  7.11138499e-08  0.00000000e+00 
 1.00000000e-02  3.23137296e-09  4.56258195e-01  4.56258195e-01  4.56258195e-01  3.32847245e-09  4.56258195e-01  3.28274079e-09  1.55690780e-07  7.11134479e-08  1.00000000e-02 
 2.00000000e-02  3.23137296e-09  4.56258186e-01  4.56258186e-01  4.56258186e-01  3.32847239e-09  4.56258186e-01  3.28274080e-09  1.55690766e-07  7.11129959e-08  2.00000000e-02 
 3.00000000e-02  3.23137296e-09  4.56258203e-01  4.56258203e-01  4.56258203e-01  3.32847240e-09  4.56258203e-01  3.28274080e-09  1.55690804e-07  7.11127073e-08  3.00000000e-02 
 4.00000000e-02  3.23137296e-09  4.56258173e-01  4.56258173e-01  4.56258173e-01  3.32847239e-09  4.56258173e-01  3.28274080e-09  1.55690763e-07  7.11123271e-08  4.00000000e-02 
 5.00000000e-02  3.23137296e-09  4.56258188e-01  4.56258188e-01  4.56258188e-01  3.32847239e-09  4.56258188e-01  3.28274080e-09  1.55690771e-07  7.11119497e-08  5.00000000e-02 
 6.00000000e-02  3.23137296e-09  4.56258221e-01  4.56258221e-01  4.56258221e-01  3.32847245e-09  4.56258221e-01  3.28274080e-09  1.55690838e-07  7.11117165e-08  6.00000000e-02 
 7.00000000e-02  3.23137296e-09  4.56258228e-01  4.56258228e-01  4.56258228e-01  3.32847245e-09  4.56258228e-01  3.28274080e-09  1.55690828e-07  7.11113661e-08  7.00000000e-02 
 8.00000000e-02  3.23137296e-09  4.56258184e-01  4.56258184e-01  4.56258184e-01  3.32847245e-09  4.56258184e-01  3.28274080e-09  1.55690786e-07  7.11111019e-08  8.00000000e-02 
 9.00000000e-02  3.23137296e-09  4.56258226e-01  4.56258226e-01  4.56258226e-01  3.32847240e-09  4.56258226e-01  3.28274080e-09  1.55690832e-07  7.11108479e-08  9.00000000e-02 
 1.00000000e-01  3.23137296e-09  4.56258225e-01  4.56258225e-01  4.56258225e-01  3.32847245e-09  4.56258225e-01  3.28274080e-09  1.55690833e-07  7.11104944e-08  1.00000000e-01 
 1.10000000e-01  3.23137296e-09  4.56258208e-01  4.56258208e-01  4.56258209e-01  3.32847245e-09  4.56258208e-01  3.28274080e-09  1.55690814e-07  7.11102901e-08  1.10000000e-01 
 1.20000000e-01  3.23137296e-09  4.56258202e-01  4.56258202e-01  4.56258202e-01  3.32847245e-09  4.56258202e-01  3.28274080e-09  1.55690795e-07  7.11100387e-08  1.20000000e-01 
 1.30000000e-01  3.23137296e-09  4.56258208e-01  4.56258208e-01  4.56258208e-01  3.32847240e-09  4.56258208e-01  3.28274080e-09  1.55690814e-07  7.11098078e-08  1.30000000e-01 
 1.40000000e-01  3.23137296e-09  4.56258202e-01  4.56258202e-01  4.56258202e-01  3.32847240e-09  4.56258202e-01  3.28274080e-09  1.55690804e-07  7.11096000e-08  1.40000000e-01 
 1.50000000e-01  3.23137296e-09  4.56258203e-01  4.56258203e-01  4.56258203e-01  3.32847245e-09  4.56258203e-01  3.28274080e-09  1.55690809e-07  7.11094295e-08  1.50000000e-01 
 1.60000000e-01  3.23137296e-09  4.56258209e-01  4.56258209e-01  4.56258209e-01  3.32847240e-09  4.56258209e-01  3.28274080e-09  1.55690808e-07  7.11091541e-08  1.60000000e-01 
 1.70000000e-01  3.23137296e-09  4.56258209e-01  4.56258209e-01  4.56258209e-01  3.32847240e-09  4.56258209e-01  3.28274080e-09  1.55690818e-07  7.11090404e-08  1.70000000e-01 
 1.80000000e-01  3.23137296e-09  4.56258181e-01  4.56258181e-01  4.56258181e-01  3.32847239e-09  4.56258181e-01  3.28274080e-09  1.55690769e-07  7.11087544e-08  1.80000000e-01 
 1.90000000e-01  3.23137296e-09  4.56258212e-01  4.56258212e-01  4.56258212e-01  3.32847245e-09  4.56258212e-01  3.28274080e-09  1.55690818e-07  7.11085413e-08  1.90000000e-01 
 2.00000000e-01  3.23137296e-09  4.56258197e-01  4.56258197e-01  4.56258197e-01  3.32847240e-09  4.56258197e-01  3.28274080e-09  1.55690813e-07  7.11084436e-08  2.00000000e-01 
 2.10000000e-01  3.23137296e-09  4.56258201e-01  4.56258201e-01  4.56258201e-01  3.32847240e-09  4.56258201e-01  3.28274080e-09  1.55690803e-07  7.11083583e-08  2.10000000e-01 
 2.20000000e-01  3.23137296e-09  4.56258200e-01  4.56258200e-01  4.56258200e-01  3.32847240e-09  4.56258200e-01  3.28274080e-09  1.55690798e-07  7.11080901e-08  2.20000000e-01 
 2.30000000e-01  3.23137296e-09  4.56258215e-01  4.56258215e-01  4.56258215e-01  3.32847240e-09  4.56258215e-01  3.28274080e-09  1.55690811e-07  7.11079977e-08  2.30000000e-01 
 2.40000000e-01  3.23137296e-09  4.56258202e-01  4.56258202e-01  4.56258202e-01  3.32847240e-09  4.56258202e-01  3.28274080e-09  1.55690800e-07  7.11079231e-08  2.40000000e-01 
 2.50000000e-01  3.23137296e-09  4.56258232e-01  4.56258232e-01  4.56258232e-01  3.32847245e-09  4.56258232e-01  3.28274080e-09  1.55690836e-07  7.11078787e-08  2.50000000e-01 
 2.60000000e-01  3.23137296e-09  4.56258204e-01  4.56258204e-01  4.56258204e-01  3.32847245e-09  4.56258204e-01  3.28274080e-09  1.55690813e-07  7.11075785e-08  2.60000000e-01 
 2.70000000e-01  3.23137296e-09  4.56258241e-01  4.56258241e-01  4.56258241e-01  3.32847245e-09  4.56258241e-01  3.28274080e-09  1.55690859e-07  7.11075643e-08  2.70000000e-01 
 2.80000000e-01  3.23137296e-09  4.56258205e-01  4.56258205e-01  4.56258205e-01  3.32847240e-09  4.56258205e-01  3.28274080e-09  1.55690816e-07  7.11073547e-08  2.80000000e-01 
 2.90000000e-01  3.23137296e-09  4.56258220e-01  4.56258220e-01  4.56258220e-01  3.32847245e-09  4.56258220e-01  3.28274080e-09  1.55690823e-07  7.11072943e-08  2.90000000e-01 
 3.00000000e-01  3.23137296e-09  4.56258203e-01  4.56258203e-01  4.56258203e-01  3.32847240e-09  4.56258203e-01  3.28274080e-09  1.55690793e-07  7.11071806e-08  3.00000000e-01 
 3.10000000e-01  3.23137296e-09  4.56258224e-01  4.56258224e-01  4.56258224e-01  3.32847240e-09  4.56258224e-01  3.28274080e-09  1.55690828e-07  7.11071557e-08  3.10000000e-01 
 3.20000000e-01  3.23137296e-09  4.56258194e-01  4.56258194e-01  4.56258194e-01  3.32847239e-09  4.56258194e-01  3.28274080e-09  1.55690793e-07  7.11069603e-08  3.20000000e-01 
 3.30000000e-01  3.23137296e-09  4.56258216e-01  4.56258216e-01  4.56258216e-01  3.32847240e-09  4.56258216e-01  3.28274080e-09  1.55690813e-07  7.11068608e-08  3.30000000e-01 
 3.40000000e-01  3.23137296e-09  4.56258202e-01  4.56258202e-01  4.56258202e-01  3.32847240e-09  4.56258202e-01  3.28274080e-09  1.55690809e-07  7.11067862e-08  3.40000000e-01 
 3.50000000e-01  3.23137296e-09  4.56258228e-01  4.56258228e-01  4.56258228e-01  3.32847240e-09  4.56258228e-01  3.28274080e-09  1.55690843e-07  7.11068111e-08  3.50000000e-01 
 3.60000000e-01  3.23137296e-09  4.56258204e-01  4.56258204e-01  4.56258204e-01  3.32847240e-09  4.56258204e-01  3.28274080e-09  1.55690794e-07  7.11065162e-08  3.60000000e-01 
 3.70000000e-01  3.23137296e-09  4.56258200e-01  4.56258200e-01  4.56258200e-01  3.32847245e-09  4.56258200e-01  3.28274085e-09  1.55690786e-07  7.11064558e-08  3.70000000e-01 
 3.80000000e-01  3.23137296e-09  4.56258225e-01  4.56258225e-01  4.56258225e-01  3.32847240e-09  4.56258225e-01  3.28274079e-09  1.55690832e-07  7.11064700e-08  3.80000000e-01 
 3.90000000e-01  3.23137296e-09  4.56258236e-01  4.56258236e-01  4.56258236e-01  3.32847240e-09  4.56258236e-01  3.28274080e-09  1.55690836e-07  7.11063066e-08  3.90000000e-01 
 4.00000000e-01  3.23137296e-09  4.56258229e-01  4.56258229e-01  4.56258229e-01  3.32847245e-09  4.56258229e-01  3.28274080e-09  1.55690835e-07  7.11062142e-08  4.00000000e-01 
 4.10000000e-01  3.23137296e-09  4.56258203e-01  4.56258203e-01  4.56258203e-01  3.32847240e-09  4.56258203e-01  3.28274080e-09  1.55690798e-07  7.11060828e-08  4.10000000e-01 
 4.20000000e-01  3.23137296e-09  4.56258203e-01  4.56258203e-01  4.56258203e-01  3.32847245e-09  4.56258203e-01  3.28274080e-09  1.55690808e-07  7.11060899e-08  4.20000000e-01 
 4.30000000e-01  3.23137296e-09  4.56258202e-01  4.56258202e-01  4.56258202e-01  3.32847240e-09  4.56258202e-01  3.28274085e-09  1.55690793e-07  7.11060970e-08  4.30000000e-01 
 4.40000000e-01  3.23137296e-09  4.56258221e-01  4.56258221e-01  4.56258221e-01  3.32847240e-09  4.56258221e-01  3.28274079e-09  1.55690814e-07  7.11058838e-08  4.40000000e-01 
 4.50000000e-01  3.23137296e-09  4.56258197e-01  4.56258197e-01  4.56258197e-01  3.32847240e-09  4.56258197e-01  3.28274080e-09  1.55690798e-07  7.11058377e-08  4.50000000e-01 
 4.60000000e-01  3.23137296e-09  4.56258211e-01  4.56258211e-01  4.56258212e-01  3.32847240e-09  4.56258212e-01  3.28274080e-09  1.55690807e-07  7.11057666e-08  4.60000000e-01 
 4.70000000e-01  3.23137296e-09  4.56258190e-01  4.56258190e-01  4.56258190e-01  3.32847245e-09  4.56258190e-01  3.28274080e-09  1.55690779e-07  7.11057417e-08  4.70000000e-01 
 4.80000000e-01  3.23137296e-09  4.56258198e-01  4.56258198e-01  4.56258198e-01  3.32847240e-09  4.56258198e-01  3.28274080e-09  1.55690801e-07  7.11056138e-08  4.80000000e-01 
 4.90000000e-01  3.23137296e-09  4.56258211e-01  4.56258211e-01  4.56258211e-01  3.32847240e-09  4.56258211e-01  3.28274080e-09  1.55690825e-07  7.11055463e-08  4.90000000e-01 
 5.00000000e-01  3.23137296e-09  4.56258242e-01  4.56258242e-01  4.56258242e-01  3.32847240e-09  4.56258242e-01  3.28274080e-09  1.55690863e-07  7.11055499e-08  5.00000000e-01 
 5.10000000e-01  3.23137296e-09  4.56258207e-01  4.56258207e-01  4.56258207e-01  3.32847245e-09  4.56258207e-01  3.28274085e-09  1.55690822e-07  7.11054042e-08  5.10000000e-01 
 5.20000000e-01  3.23137296e-09  4.56258196e-01  4.56258196e-01  4.56258196e-01  3.32847240e-09  4.56258196e-01  3.28274078e-09  1.55690800e-07  7.11053367e-08  5.20000000e-01 
 5.30000000e-01  3.23137296e-09  4.56258225e-01  4.56258225e-01  4.56258226e-01  3.32847240e-09  4.56258226e-01  3.28274080e-09  1.55690843e-07  7.11052373e-08  5.30000000e-01 
 5.40000000e-01  3.23137296e-09  4.56258191e-01  4.56258191e-01  4.56258192e-01  3.32847239e-09  4.56258192e-01  3.28274080e-09  1.55690782e-07  7.11052444e-08  5.40000000e-01 
 5.50000000e-01  3.23137296e-09  4.56258206e-01  4.56258206e-01  4.56258206e-01  3.32847245e-09  4.56258206e-01  3.28274080e-09  1.55690816e-07  7.11052053e-08  5.50000000e-01 
 5.60000000e-01  3.23137296e-09  4.56258196e-01  4.56258196e-01  4.56258196e-01  3.32847240e-09  4.56258196e-01  3.28274080e-09  1.55690811e-07  7.11051804e-08  5.60000000e-01 
 5.70000000e-01  3.23137296e-09  4.56258226e-01  4.56258226e-01  4.56258226e-01  3.32847240e-09  4.56258226e-01  3.28274080e-09  1.55690829e-07  7.11050063e-08  5.70000000e-01 
 5.80000000e-01  3.23137296e-09  4.56258196e-01  4.56258196e-01  4.56258196e-01  3.32847240e-09  4.56258196e-01  3.28274080e-09  1.55690790e-07  7.11048997e-08  5.80000000e-01 
 5.90000000e-01  3.23137296e-09  4.56258213e-01  4.56258213e-01  4.56258214e-01  3.32847245e-09  4.56258214e-01  3.28274080e-09  1.55690820e-07  7.11049140e-08  5.90000000e-01 
 6.00000000e-01  3.23137296e-09  4.56258224e-01  4.56258224e-01  4.56258224e-01  3.32847240e-09  4.56258224e-01  3.28274085e-09  1.55690835e-07  7.11048287e-08  6.00000000e-01 
 6.10000000e-01  3.23137296e-09  4.56258172e-01  4.56258172e-01  4.56258173e-01  3.32847239e-09  4.56258173e-01  3.28274084e-09  1.55690764e-07  7.11047363e-08  6.10000000e-01 
 6.20000000e-01  3.23137296e-09  4.56258232e-01  4.56258232e-01  4.56258232e-01  3.32847240e-09  4.56258232e-01  3.28274085e-09  1.55690853e-07  7.11046795e-08  6.20000000e-01 
 6.30000000e-01  3.23137296e-09  4.56258204e-01  4.56258204e-01  4.56258204e-01  3.32847245e-09  4.56258204e-01  3.28274085e-09  1.55690816e-07  7.11045445e-08  6.30000000e-01 
 6.40000000e-01  3.23137296e-09  4.56258227e-01  4.56258227e-01  4.56258227e-01  3.32847240e-09  4.56258227e-01  3.28274079e-09  1.55690834e-07  7.11046582e-08  6.40000000e-01 
 6.50000000e-01  3.23137296e-09  4.56258219e-01  4.56258219e-01  4.56258220e-01  3.32847240e-09  4.56258219e-01  3.28274080e-09  1.55690828e-07  7.11044450e-08  6.50000000e-01 
 6.60000000e-01  3.23137296e-09  4.56258199e-01  4.56258199e-01  4.56258200e-01  3.32847240e-09  4.56258200e-01  3.28274080e-09  1.55690789e-07  7.11044095e-08  6.60000000e-01 
 6.70000000e-01  3.23137296e-09  4.56258181e-01  4.56258181e-01  4.56258181e-01  3.32847239e-09  4.56258181e-01  3.28274080e-09  1.55690767e-07  7.11042958e-08  6.70000000e-01 
 6.80000000e-01  3.23137296e-09  4.56258206e-01  4.56258206e-01  4.56258206e-01  3.32847240e-09  4.56258206e-01  3.28274080e-09  1.55690812e-07  7.11042603e-08  6.80000000e-01 
 6.90000000e-01  3.23137296e-09  4.56258215e-01  4.56258215e-01  4.56258215e-01  3.32847240e-09  4.56258215e-01  3.28274080e-09  1.55690825e-07  7.11042887e-08  6.90000000e-01 
 7.00000000e-01  3.23137296e-09  4.56258191e-01  4.56258191e-01  4.56258191e-01  3.32847239e-09  4.56258191e-01  3.28274080e-09  1.55690801e-07  7.11040542e-08  7.00000000e-01 
 7.10000000e-01  3.23137296e-09  4.56258203e-01  4.56258203e-01  4.56258203e-01  3.32847240e-09  4.56258203e-01  3.28274080e-09  1.55690805e-07  7.11040613e-08  7.10000000e-01 
 7.20000000e-01  3.23137296e-09  4.56258219e-01  4.56258219e-01  4.56258219e-01  3.32847245e-09  4.56258219e-01  3.28274080e-09  1.55690822e-07  7.11039263e-08  7.20000000e-01 
 7.30000000e-01  3.23137296e-09  4.56258206e-01  4.56258206e-01  4.56258206e-01  3.32847245e-09  4.56258206e-01  3.28274080e-09  1.55690806e-07  7.11039974e-08  7.30000000e-01 
 7.40000000e-01  3.23137296e-09  4.56258199e-01  4.56258199e-01  4.56258199e-01  3.32847240e-09  4.56258199e-01  3.28274080e-09  1.55690804e-07  7.11038055e-08  7.40000000e-01 
 7.50000000e-01  3.23137296e-09  4.56258204e-01  4.56258204e-01  4.56258204e-01  3.32847245e-09  4.56258204e-01  3.28274080e-09  1.55690803e-07  7.11039405e-08  7.50000000e-01 
 7.60000000e-01  3.23137296e-09  4.56258208e-01  4.56258208e-01  4.56258208e-01  3.32847245e-09  4.56258208e-01  3.28274080e-09  1.55690812e-07  7.11036563e-08  7.60000000e-01 
 7.70000000e-01  3.23137296e-09  4.56258228e-01  4.56258228e-01  4.56258228e-01  3.32847240e-09  4.56258228e-01  3.28274080e-09  1.55690840e-07  7.11037629e-08  7.70000000e-01 
 7.80000000e-01  3.23137296e-09  4.56258205e-01  4.56258205e-01  4.56258205e-01  3.32847245e-09  4.56258205e-01  3.28274080e-09  1.55690811e-07  7.11035213e-08  7.80000000e-01 
 7.90000000e-01  3.23137296e-09  4.56258215e-01  4.56258215e-01  4.56258215e-01  3.32847240e-09  4.56258215e-01  3.28274080e-09  1.55690810e-07  7.11035000e-08  7.90000000e-01 
 8.00000000e-01  3.23137296e-09  4.56258221e-01  4.56258221e-01  4.56258221e-01  3.32847245e-09  4.56258221e-01  3.28274080e-09  1.55690828e-07  7.11035426e-08  8.00000000e-01 
 8.10000000e-01  3.23137296e-09  4.56258183e-01  4.56258183e-01  4.56258183e-01  3.32847245e-09  4.56258183e-01  3.28274085e-09  1.55690770e-07  7.11032868e-08  8.10000000e-01 
 8.20000000e-01  3.23137296e-09  4.56258216e-01  4.56258216e-01  4.56258216e-01  3.32847245e-09  4.56258216e-01  3.28274079e-09  1.55690817e-07  7.11033152e-08  8.20000000e-01 
 8.30000000e-01  3.23137296e-09  4.56258225e-01  4.56258225e-01  4.56258225e-01  3.32847240e-09  4.56258225e-01  3.28274080e-09  1.55690827e-07  7.11032371e-08  8.30000000e-01 
 8.40000000e-01  3.23137296e-09  4.56258199e-01  4.56258199e-01  4.56258199e-01  3.32847245e-09  4.56258199e-01  3.28274080e-09  1.55690793e-07  7.11032797e-08  8.40000000e-01 
 8.50000000e-01  3.23137296e-09  4.56258214e-01  4.56258214e-01  4.56258214e-01  3.32847240e-09  4.56258214e-01  3.28274080e-09  1.55690821e-07  7.11032229e-08  8.50000000e-01 
 8.60000000e-01  3.23137296e-09  4.56258235e-01  4.56258235e-01  4.56258235e-01  3.32847240e-09  4.56258235e-01  3.28274080e-09  1.55690848e-07  7.11031447e-08  8.60000000e-01 
 8.70000000e-01  3.23137296e-09  4.56258200e-01  4.56258200e-01  4.56258200e-01  3.32847240e-09  4.56258200e-01  3.28274080e-09  1.55690801e-07  7.11030594e-08  8.70000000e-01 
 8.80000000e-01  3.23137296e-09  4.56258211e-01  4.56258211e-01  4.56258211e-01  3.32847240e-09  4.56258211e-01  3.28274080e-09  1.55690815e-07  7.11029955e-08  8.80000000e-01 
 8.90000000e-01  3.23137296e-09  4.56258206e-01  4.56258207e-01  4.56258207e-01  3.32847245e-09  4.56258207e-01  3.28274080e-09  1.55690806e-07  7.11030381e-08  8.90000000e-01 
 9.00000000e-01  3.23137296e-09  4.56258217e-01  4.56258217e-01  4.56258217e-01  3.32847240e-09  4.56258217e-01  3.28274080e-09  1.55690813e-07  7.11029813e-08  9.00000000e-01 
 9.10000000e-01  3.23137296e-09  4.56258208e-01  4.56258208e-01  4.56258208e-01  3.32847240e-09  4.56258208e-01  3.28274080e-09  1.55690803e-07  7.11028392e-08  9.10000000e-01 
 9.20000000e-01  3.23137296e-09  4.56258226e-01  4.56258226e-01  4.56258226e-01  3.32847245e-09  4.56258226e-01  3.28274080e-09  1.55690833e-07  7.11027610e-08  9.20000000e-01 
 9.30000000e-01  3.23137296e-09  4.56258207e-01  4.56258207e-01  4.56258207e-01  3.32847245e-09  4.56258207e-01  3.28274080e-09  1.55690822e-07  7.11026900e-08  9.30000000e-01 
 9.40000000e-01  3.23137296e-09  4.56258213e-01  4.56258213e-01  4.56258213e-01  3.32847240e-09  4.56258213e-01  3.28274080e-09  1.55690816e-07  7.11026473e-08  9.40000000e-01 
 9.50000000e-01  3.23137296e-09  4.56258205e-01  4.56258205e-01  4.56258205e-01  3.32847240e-09  4.56258205e-01  3.28274080e-09  1.55690811e-07  7.11025194e-08  9.50000000e-01 
 9.60000000e-01  3.23137296e-09  4.56258205e-01  4.56258205e-01  4.56258205e-01  3.32847240e-09  4.56258205e-01  3.28274080e-09  1.55690801e-07  7.11024057e-08  9.60000000e-01 
 9.70000000e-01  3.23137296e-09  4.56258207e-01  4.56258207e-01  4.56258207e-01  3.32847240e-09  4.56258207e-01  3.28274080e-09  1.55690804e-07  7.11023063e-08  9.70000000e-01 
 9.80000000e-01  3.23137296e-09  4.56258190e-01  4.56258190e-01  4.56258190e-01  3.32847245e-09  4.56258190e-01  3.28274080e-09  1.55690785e-07  7.11023347e-08  9.80000000e-01 
 9.90000000e-01  3.23137296e-09  4.56258204e-01  4.56258204e-01  4.56258204e-01  3.32847240e-09  4.56258204e-01  3.28274080e-09  1.55690814e-07  7.11022636e-08  9.90000000e-01 
 1.00000000e+00  3.23137296e-09  4.56258206e-01  4.56258206e-01  4.56258206e-01  3.32847240e-09  4.56258206e-01  3.28274080e-09  1.55690811e-07  7.11021571e-08  1.00000000e+00 
 1.01000000e+00  3.23137296e-09  4.56258176e-01  4.56258176e-01  4.56258176e-01  3.32847245e-09  4.56258176e-01  3.28274080e-09  1.55690746e-07  7.11020860e-08  1.01000000e+00 
 1.02000000e+00  3.23137296e-09  4.56258194e-01  4.56258194e-01  4.56258194e-01  3.32847239e-09  4.56258194e-01  3.28274080e-09  1.55690797e-07  7.11019439e-08  1.02000000e+00 
 1.03000000e+00  3.23137296e-09  4.56258213e-01  4.56258213e-01  4.56258213e-01  3.32847240e-09  4.56258213e-01  3.28274080e-09  1.55690813e-07  7.11020007e-08  1.03000000e+00 
 1.04000000e+00  3.23137296e-09  4.56258210e-01  4.56258210e-01  4.56258210e-01  3.32847245e-09  4.56258210e-01  3.28274080e-09  1.55690813e-07  7.11018870e-08  1.04000000e+00 
 1.05000000e+00  3.23137296e-09  4.56258175e-01  4.56258175e-01  4.56258175e-01  3.32847245e-09  4.56258175e-01  3.28274080e-09  1.55690766e-07  7.11017876e-08  1.05000000e+00 
 1.06000000e+00  3.23137296e-09  4.56258190e-01  4.56258190e-01  4.56258190e-01  3.32847245e-09  4.56258190e-01  3.28274080e-09  1.55690778e-07  7.11016028e-08  1.06000000e+00 
 1.07000000e+00  3.23137296e-09  4.56258220e-01  4.56258220e-01  4.56258220e-01  3.32847240e-09  4.56258220e-01  3.28274080e-09  1.55690831e-07  7.11017876e-08  1.07000000e+00 
 1.08000000e+00  3.23137296e-09  4.56258202e-01  4.56258202e-01  4.56258202e-01  3.32847240e-09  4.56258202e-01  3.28274080e-09  1.55690807e-07  7.11016170e-08  1.08000000e+00 
 1.09000000e+00  3.23137296e-09  4.56258208e-01  4.56258208e-01  4.56258208e-01  3.32847240e-09  4.56258208e-01  3.28274080e-09  1.55690807e-07  7.11016099e-08  1.09000000e+00 
 1.10000000e+00  3.23137296e-09  4.56258191e-01  4.56258191e-01  4.56258191e-01  3.32847239e-09  4.56258191e-01  3.28274080e-09  1.55690794e-07  7.11015389e-08  1.10000000e+00 
