 v-sweep         v(b0)           v(b1)           v(b2)           v(b3)           v(b4)           v(b5)           v(b6)           i(vbias)        i(viout)        v(vout)        
 0.00000000e+00  3.34761629e-09  4.55338327e-01  4.55338327e-01  4.55338327e-01  4.55338327e-01  4.55338327e-01  3.34802072e-09  1.52774975e-07  8.56381627e-08  0.00000000e+00 
 1.00000000e-02  3.34761633e-09  4.55338310e-01  4.55338310e-01  4.55338310e-01  4.55338310e-01  4.55338310e-01  3.34802070e-09  1.52774968e-07  8.56377729e-08  1.00000000e-02 
 2.00000000e-02  3.34761632e-09  4.55338334e-01  4.55338334e-01  4.55338334e-01  4.55338334e-01  4.55338334e-01  3.34802070e-09  1.52774980e-07  8.56373972e-08  2.00000000e-02 
 3.00000000e-02  3.34761633e-09  4.55338346e-01  4.55338346e-01  4.55338346e-01  4.55338346e-01  4.55338346e-01  3.34802076e-09  1.52775008e-07  8.56369113e-08  3.00000000e-02 
 4.00000000e-02  3.34761632e-09  4.55338329e-01  4.55338329e-01  4.55338329e-01  4.55338329e-01  4.55338329e-01  3.34802076e-09  1.52774982e-07  8.56366640e-08  4.00000000e-02 
 5.00000000e-02  3.34761633e-09  4.55338317e-01  4.55338317e-01  4.55338317e-01  4.55338317e-01  4.55338317e-01  3.34802076e-09  1.52774977e-07  8.56362510e-08  5.00000000e-02 
 6.00000000e-02  3.34761632e-09  4.55338299e-01  4.55338299e-01  4.55338299e-01  4.55338299e-01  4.55338299e-01  3.34802070e-09  1.52774938e-07  8.56360174e-08  6.00000000e-02 
 7.00000000e-02  3.34761633e-09  4.55338312e-01  4.55338312e-01  4.55338312e-01  4.55338312e-01  4.55338312e-01  3.34802076e-09  1.52774951e-07  8.56355542e-08  7.00000000e-02 
 8.00000000e-02  3.34761632e-09  4.55338305e-01  4.55338305e-01  4.55338305e-01  4.55338305e-01  4.55338305e-01  3.34802070e-09  1.52774962e-07  8.56353788e-08  8.00000000e-02 
 9.00000000e-02  3.34761633e-09  4.55338318e-01  4.55338318e-01  4.55338318e-01  4.55338318e-01  4.55338318e-01  3.34802070e-09  1.52774967e-07  8.56350466e-08  9.00000000e-02 
 1.00000000e-01  3.34761632e-09  4.55338306e-01  4.55338306e-01  4.55338306e-01  4.55338306e-01  4.55338306e-01  3.34802076e-09  1.52774956e-07  8.56347855e-08  1.00000000e-01 
 1.10000000e-01  3.34761628e-09  4.55338326e-01  4.55338326e-01  4.55338326e-01  4.55338326e-01  4.55338326e-01  3.34802076e-09  1.52774975e-07  8.56344533e-08  1.10000000e-01 
 1.20000000e-01  3.34761633e-09  4.55338316e-01  4.55338316e-01  4.55338316e-01  4.55338316e-01  4.55338316e-01  3.34802070e-09  1.52774969e-07  8.56343609e-08  1.20000000e-01 
 1.30000000e-01  3.34761632e-09  4.55338337e-01  4.55338337e-01  4.55338338e-01  4.55338337e-01  4.55338337e-01  3.34802076e-09  1.52775008e-07  8.56340518e-08  1.30000000e-01 
 1.40000000e-01  3.34761628e-09  4.55338334e-01  4.55338334e-01  4.55338334e-01  4.55338334e-01  4.55338334e-01  3.34802070e-09  1.52774997e-07  8.56338387e-08  1.40000000e-01 
 1.50000000e-01  3.34761627e-09  4.55338321e-01  4.55338321e-01  4.55338321e-01  4.55338321e-01  4.55338321e-01  3.34802076e-09  1.52774973e-07  8.56336850e-08  1.50000000e-01 
 1.60000000e-01  3.34761633e-09  4.55338291e-01  4.55338291e-01  4.55338291e-01  4.55338291e-01  4.55338291e-01  3.34802070e-09  1.52774931e-07  8.56332996e-08  1.60000000e-01 
 1.70000000e-01  3.34761632e-09  4.55338330e-01  4.55338330e-01  4.55338330e-01  4.55338330e-01  4.55338330e-01  3.34802076e-09  1.52774994e-07  8.56332250e-08  1.70000000e-01 
 1.80000000e-01  3.34761633e-09  4.55338299e-01  4.55338299e-01  4.55338300e-01  4.55338299e-01  4.55338299e-01  3.34802076e-09  1.52774947e-07  8.56329105e-08  1.80000000e-01 
 1.90000000e-01  3.34761632e-09  4.55338316e-01  4.55338316e-01  4.55338316e-01  4.55338316e-01  4.55338316e-01  3.34802070e-09  1.52774965e-07  8.56328803e-08  1.90000000e-01 
 2.00000000e-01  3.34761633e-09  4.55338312e-01  4.55338312e-01  4.55338312e-01  4.55338312e-01  4.55338311e-01  3.34802076e-09  1.52774964e-07  8.56326778e-08  2.00000000e-01 
 2.10000000e-01  3.34761632e-09  4.55338327e-01  4.55338327e-01  4.55338327e-01  4.55338327e-01  4.55338327e-01  3.34802076e-09  1.52774979e-07  8.56325748e-08  2.10000000e-01 
 2.20000000e-01  3.34761633e-09  4.55338325e-01  4.55338325e-01  4.55338325e-01  4.55338325e-01  4.55338325e-01  3.34802070e-09  1.52774980e-07  8.56322853e-08  2.20000000e-01 
 2.30000000e-01  3.34761632e-09  4.55338310e-01  4.55338310e-01  4.55338310e-01  4.55338310e-01  4.55338310e-01  3.34802076e-09  1.52774963e-07  8.56322018e-08  2.30000000e-01 
 2.40000000e-01  3.34761633e-09  4.55338316e-01  4.55338316e-01  4.55338316e-01  4.55338316e-01  4.55338316e-01  3.34802076e-09  1.52774958e-07  8.56320028e-08  2.40000000e-01 
 2.50000000e-01  3.34761632e-09  4.55338312e-01  4.55338312e-01  4.55338312e-01  4.55338312e-01  4.55338312e-01  3.34802076e-09  1.52774980e-07  8.56318891e-08  2.50000000e-01 
 2.60000000e-01  3.34761633e-09  4.55338325e-01  4.55338325e-01  4.55338325e-01  4.55338325e-01  4.55338325e-01  3.34802070e-09  1.52774981e-07  8.56317364e-08  2.60000000e-01 
 2.70000000e-01  3.34761632e-09  4.55338321e-01  4.55338321e-01  4.55338321e-01  4.55338321e-01  4.55338321e-01  3.34802070e-09  1.52774982e-07  8.56315072e-08  2.70000000e-01 
 2.80000000e-01  3.34761633e-09  4.55338319e-01  4.55338319e-01  4.55338319e-01  4.55338319e-01  4.55338319e-01  3.34802070e-09  1.52774975e-07  8.56313846e-08  2.80000000e-01 
 2.90000000e-01  3.34761632e-09  4.55338302e-01  4.55338302e-01  4.55338302e-01  4.55338302e-01  4.55338301e-01  3.34802076e-09  1.52774944e-07  8.56314486e-08  2.90000000e-01 
 3.00000000e-01  3.34761633e-09  4.55338316e-01  4.55338316e-01  4.55338316e-01  4.55338316e-01  4.55338316e-01  3.34802076e-09  1.52774976e-07  8.56312852e-08  3.00000000e-01 
 3.10000000e-01  3.34761632e-09  4.55338325e-01  4.55338325e-01  4.55338325e-01  4.55338325e-01  4.55338325e-01  3.34802076e-09  1.52774974e-07  8.56311466e-08  3.10000000e-01 
 3.20000000e-01  3.34761633e-09  4.55338320e-01  4.55338320e-01  4.55338320e-01  4.55338320e-01  4.55338320e-01  3.34802076e-09  1.52774968e-07  8.56311289e-08  3.20000000e-01 
 3.30000000e-01  3.34761632e-09  4.55338310e-01  4.55338310e-01  4.55338310e-01  4.55338310e-01  4.55338309e-01  3.34802076e-09  1.52774974e-07  8.56309583e-08  3.30000000e-01 
 3.40000000e-01  3.34761633e-09  4.55338306e-01  4.55338306e-01  4.55338307e-01  4.55338306e-01  4.55338306e-01  3.34802076e-09  1.52774959e-07  8.56308162e-08  3.40000000e-01 
 3.50000000e-01  3.34761632e-09  4.55338320e-01  4.55338320e-01  4.55338320e-01  4.55338320e-01  4.55338320e-01  3.34802076e-09  1.52774974e-07  8.56306848e-08  3.50000000e-01 
 3.60000000e-01  3.34761633e-09  4.55338307e-01  4.55338307e-01  4.55338307e-01  4.55338307e-01  4.55338306e-01  3.34802076e-09  1.52774955e-07  8.56306670e-08  3.60000000e-01 
 3.70000000e-01  3.34761632e-09  4.55338329e-01  4.55338329e-01  4.55338329e-01  4.55338329e-01  4.55338329e-01  3.34802070e-09  1.52774980e-07  8.56305817e-08  3.70000000e-01 
 3.80000000e-01  3.34761633e-09  4.55338336e-01  4.55338336e-01  4.55338336e-01  4.55338336e-01  4.55338336e-01  3.34802070e-09  1.52774996e-07  8.56304965e-08  3.80000000e-01 
 3.90000000e-01  3.34761632e-09  4.55338330e-01  4.55338330e-01  4.55338330e-01  4.55338330e-01  4.55338330e-01  3.34802070e-09  1.52774985e-07  8.56303330e-08  3.90000000e-01 
 4.00000000e-01  3.34761633e-09  4.55338317e-01  4.55338317e-01  4.55338317e-01  4.55338317e-01  4.55338317e-01  3.34802070e-09  1.52774955e-07  8.56302762e-08  4.00000000e-01 
 4.10000000e-01  3.34761632e-09  4.55338338e-01  4.55338338e-01  4.55338338e-01  4.55338338e-01  4.55338338e-01  3.34802076e-09  1.52775004e-07  8.56302194e-08  4.10000000e-01 
 4.20000000e-01  3.34761628e-09  4.55338350e-01  4.55338350e-01  4.55338350e-01  4.55338350e-01  4.55338350e-01  3.34802076e-09  1.52775017e-07  8.56301874e-08  4.20000000e-01 
 4.30000000e-01  3.34761627e-09  4.55338338e-01  4.55338338e-01  4.55338338e-01  4.55338338e-01  4.55338338e-01  3.34802076e-09  1.52774991e-07  8.56300524e-08  4.30000000e-01 
 4.40000000e-01  3.34761633e-09  4.55338327e-01  4.55338327e-01  4.55338328e-01  4.55338327e-01  4.55338327e-01  3.34802076e-09  1.52774984e-07  8.56298854e-08  4.40000000e-01 
 4.50000000e-01  3.34761632e-09  4.55338331e-01  4.55338331e-01  4.55338331e-01  4.55338331e-01  4.55338331e-01  3.34802070e-09  1.52774993e-07  8.56299707e-08  4.50000000e-01 
 4.60000000e-01  3.34761628e-09  4.55338338e-01  4.55338338e-01  4.55338338e-01  4.55338338e-01  4.55338338e-01  3.34802070e-09  1.52774995e-07  8.56297646e-08  4.60000000e-01 
 4.70000000e-01  3.34761627e-09  4.55338312e-01  4.55338313e-01  4.55338313e-01  4.55338312e-01  4.55338312e-01  3.34802070e-09  1.52774964e-07  8.56296722e-08  4.70000000e-01 
 4.80000000e-01  3.34761633e-09  4.55338311e-01  4.55338311e-01  4.55338311e-01  4.55338311e-01  4.55338311e-01  3.34802070e-09  1.52774941e-07  8.56295479e-08  4.80000000e-01 
 4.90000000e-01  3.34761632e-09  4.55338315e-01  4.55338315e-01  4.55338316e-01  4.55338315e-01  4.55338315e-01  3.34802076e-09  1.52774970e-07  8.56294804e-08  4.90000000e-01 
 5.00000000e-01  3.34761633e-09  4.55338307e-01  4.55338307e-01  4.55338307e-01  4.55338307e-01  4.55338307e-01  3.34802070e-09  1.52774950e-07  8.56295692e-08  5.00000000e-01 
 5.10000000e-01  3.34761632e-09  4.55338325e-01  4.55338325e-01  4.55338325e-01  4.55338325e-01  4.55338324e-01  3.34802076e-09  1.52774975e-07  8.56292708e-08  5.10000000e-01 
 5.20000000e-01  3.34761628e-09  4.55338328e-01  4.55338328e-01  4.55338328e-01  4.55338328e-01  4.55338328e-01  3.34802076e-09  1.52774987e-07  8.56293418e-08  5.20000000e-01 
 5.30000000e-01  3.34761627e-09  4.55338322e-01  4.55338322e-01  4.55338322e-01  4.55338322e-01  4.55338322e-01  3.34802070e-09  1.52774972e-07  8.56292246e-08  5.30000000e-01 
 5.40000000e-01  3.34761633e-09  4.55338315e-01  4.55338315e-01  4.55338315e-01  4.55338315e-01  4.55338315e-01  3.34802076e-09  1.52774963e-07  8.56292566e-08  5.40000000e-01 
 5.50000000e-01  3.34761632e-09  4.55338310e-01  4.55338310e-01  4.55338310e-01  4.55338310e-01  4.55338309e-01  3.34802070e-09  1.52774953e-07  8.56290825e-08  5.50000000e-01 
 5.60000000e-01  3.34761628e-09  4.55338311e-01  4.55338311e-01  4.55338311e-01  4.55338311e-01  4.55338311e-01  3.34802076e-09  1.52774959e-07  8.56290896e-08  5.60000000e-01 
 5.70000000e-01  3.34761633e-09  4.55338315e-01  4.55338315e-01  4.55338315e-01  4.55338315e-01  4.55338315e-01  3.34802076e-09  1.52774976e-07  8.56289155e-08  5.70000000e-01 
 5.80000000e-01  3.34761632e-09  4.55338339e-01  4.55338339e-01  4.55338339e-01  4.55338339e-01  4.55338339e-01  3.34802076e-09  1.52775006e-07  8.56290114e-08  5.80000000e-01 
 5.90000000e-01  3.34761633e-09  4.55338324e-01  4.55338324e-01  4.55338324e-01  4.55338324e-01  4.55338324e-01  3.34802076e-09  1.52774979e-07  8.56287627e-08  5.90000000e-01 
 6.00000000e-01  3.34761632e-09  4.55338300e-01  4.55338300e-01  4.55338300e-01  4.55338300e-01  4.55338300e-01  3.34802076e-09  1.52774966e-07  8.56287699e-08  6.00000000e-01 
 6.10000000e-01  3.34761633e-09  4.55338330e-01  4.55338330e-01  4.55338330e-01  4.55338330e-01  4.55338330e-01  3.34802076e-09  1.52774990e-07  8.56287059e-08  6.10000000e-01 
 6.20000000e-01  3.34761632e-09  4.55338333e-01  4.55338333e-01  4.55338333e-01  4.55338333e-01  4.55338333e-01  3.34802070e-09  1.52774991e-07  8.56287272e-08  6.20000000e-01 
 6.30000000e-01  3.34761628e-09  4.55338303e-01  4.55338303e-01  4.55338303e-01  4.55338303e-01  4.55338303e-01  3.34802070e-09  1.52774949e-07  8.56284927e-08  6.30000000e-01 
 6.40000000e-01  3.34761627e-09  4.55338336e-01  4.55338336e-01  4.55338336e-01  4.55338336e-01  4.55338336e-01  3.34802070e-09  1.52774984e-07  8.56286135e-08  6.40000000e-01 
 6.50000000e-01  3.34761633e-09  4.55338312e-01  4.55338312e-01  4.55338312e-01  4.55338312e-01  4.55338312e-01  3.34802070e-09  1.52774959e-07  8.56285212e-08  6.50000000e-01 
 6.60000000e-01  3.34761632e-09  4.55338332e-01  4.55338332e-01  4.55338332e-01  4.55338332e-01  4.55338331e-01  3.34802070e-09  1.52774975e-07  8.56284075e-08  6.60000000e-01 
 6.70000000e-01  3.34761633e-09  4.55338327e-01  4.55338327e-01  4.55338327e-01  4.55338327e-01  4.55338327e-01  3.34802076e-09  1.52774987e-07  8.56282512e-08  6.70000000e-01 
 6.80000000e-01  3.34761632e-09  4.55338300e-01  4.55338300e-01  4.55338300e-01  4.55338300e-01  4.55338300e-01  3.34802070e-09  1.52774941e-07  8.56282796e-08  6.80000000e-01 
 6.90000000e-01  3.34761628e-09  4.55338328e-01  4.55338328e-01  4.55338328e-01  4.55338327e-01  4.55338327e-01  3.34802076e-09  1.52774991e-07  8.56281375e-08  6.90000000e-01 
 7.00000000e-01  3.34761633e-09  4.55338313e-01  4.55338313e-01  4.55338313e-01  4.55338313e-01  4.55338313e-01  3.34802070e-09  1.52774962e-07  8.56280806e-08  7.00000000e-01 
 7.10000000e-01  3.34761632e-09  4.55338304e-01  4.55338304e-01  4.55338304e-01  4.55338304e-01  4.55338304e-01  3.34802076e-09  1.52774950e-07  8.56278817e-08  7.10000000e-01 
 7.20000000e-01  3.34761633e-09  4.55338318e-01  4.55338318e-01  4.55338318e-01  4.55338318e-01  4.55338318e-01  3.34802076e-09  1.52774965e-07  8.56280380e-08  7.20000000e-01 
 7.30000000e-01  3.34761632e-09  4.55338326e-01  4.55338326e-01  4.55338326e-01  4.55338326e-01  4.55338326e-01  3.34802070e-09  1.52774987e-07  8.56278248e-08  7.30000000e-01 
 7.40000000e-01  3.34761628e-09  4.55338325e-01  4.55338325e-01  4.55338325e-01  4.55338325e-01  4.55338325e-01  3.34802070e-09  1.52774995e-07  8.56279314e-08  7.40000000e-01 
 7.50000000e-01  3.34761633e-09  4.55338349e-01  4.55338349e-01  4.55338349e-01  4.55338349e-01  4.55338349e-01  3.34802076e-09  1.52775016e-07  8.56278533e-08  7.50000000e-01 
 7.60000000e-01  3.34761632e-09  4.55338331e-01  4.55338331e-01  4.55338332e-01  4.55338331e-01  4.55338331e-01  3.34802076e-09  1.52774980e-07  8.56276472e-08  7.60000000e-01 
 7.70000000e-01  3.34761633e-09  4.55338314e-01  4.55338314e-01  4.55338314e-01  4.55338314e-01  4.55338314e-01  3.34802076e-09  1.52774967e-07  8.56277254e-08  7.70000000e-01 
 7.80000000e-01  3.34761632e-09  4.55338328e-01  4.55338328e-01  4.55338328e-01  4.55338328e-01  4.55338328e-01  3.34802076e-09  1.52774988e-07  8.56275690e-08  7.80000000e-01 
 7.90000000e-01  3.34761628e-09  4.55338338e-01  4.55338338e-01  4.55338338e-01  4.55338338e-01  4.55338337e-01  3.34802070e-09  1.52775001e-07  8.56274340e-08  7.90000000e-01 
 8.00000000e-01  3.34761633e-09  4.55338323e-01  4.55338323e-01  4.55338323e-01  4.55338323e-01  4.55338323e-01  3.34802070e-09  1.52774971e-07  8.56273630e-08  8.00000000e-01 
 8.10000000e-01  3.34761632e-09  4.55338304e-01  4.55338304e-01  4.55338304e-01  4.55338304e-01  4.55338304e-01  3.34802076e-09  1.52774946e-07  8.56273203e-08  8.10000000e-01 
 8.20000000e-01  3.34761633e-09  4.55338315e-01  4.55338315e-01  4.55338315e-01  4.55338315e-01  4.55338314e-01  3.34802076e-09  1.52774950e-07  8.56271356e-08  8.20000000e-01 
 8.30000000e-01  3.34761632e-09  4.55338302e-01  4.55338302e-01  4.55338302e-01  4.55338302e-01  4.55338302e-01  3.34802070e-09  1.52774951e-07  8.56270859e-08  8.30000000e-01 
 8.40000000e-01  3.34761633e-09  4.55338318e-01  4.55338318e-01  4.55338318e-01  4.55338318e-01  4.55338318e-01  3.34802070e-09  1.52774959e-07  8.56272280e-08  8.40000000e-01 
 8.50000000e-01  3.34761632e-09  4.55338320e-01  4.55338320e-01  4.55338320e-01  4.55338320e-01  4.55338320e-01  3.34802070e-09  1.52774971e-07  8.56271072e-08  8.50000000e-01 
 8.60000000e-01  3.34761628e-09  4.55338320e-01  4.55338320e-01  4.55338320e-01  4.55338320e-01  4.55338320e-01  3.34802070e-09  1.52774971e-07  8.56269864e-08  8.60000000e-01 
 8.70000000e-01  3.34761627e-09  4.55338327e-01  4.55338327e-01  4.55338327e-01  4.55338327e-01  4.55338327e-01  3.34802070e-09  1.52774982e-07  8.56270574e-08  8.70000000e-01 
 8.80000000e-01  3.34761633e-09  4.55338299e-01  4.55338299e-01  4.55338299e-01  4.55338299e-01  4.55338299e-01  3.34802076e-09  1.52774962e-07  8.56267306e-08  8.80000000e-01 
 8.90000000e-01  3.34761632e-09  4.55338328e-01  4.55338328e-01  4.55338328e-01  4.55338328e-01  4.55338328e-01  3.34802070e-09  1.52774987e-07  8.56268301e-08  8.90000000e-01 
 9.00000000e-01  3.34761628e-09  4.55338303e-01  4.55338303e-01  4.55338303e-01  4.55338303e-01  4.55338303e-01  3.34802070e-09  1.52774954e-07  8.56266382e-08  9.00000000e-01 
 9.10000000e-01  3.34761633e-09  4.55338318e-01  4.55338318e-01  4.55338318e-01  4.55338318e-01  4.55338318e-01  3.34802076e-09  1.52774963e-07  8.56266524e-08  9.10000000e-01 
 9.20000000e-01  3.34761632e-09  4.55338340e-01  4.55338340e-01  4.55338340e-01  4.55338340e-01  4.55338340e-01  3.34802076e-09  1.52775009e-07  8.56265316e-08  9.20000000e-01 
 9.30000000e-01  3.34761633e-09  4.55338348e-01  4.55338348e-01  4.55338348e-01  4.55338348e-01  4.55338348e-01  3.34802070e-09  1.52775007e-07  8.56265530e-08  9.30000000e-01 
 9.40000000e-01  3.34761632e-09  4.55338347e-01  4.55338347e-01  4.55338347e-01  4.55338347e-01  4.55338346e-01  3.34802070e-09  1.52775018e-07  8.56263682e-08  9.40000000e-01 
 9.50000000e-01  3.34761633e-09  4.55338299e-01  4.55338299e-01  4.55338299e-01  4.55338299e-01  4.55338299e-01  3.34802070e-09  1.52774952e-07  8.56263682e-08  9.50000000e-01 
 9.60000000e-01  3.34761632e-09  4.55338335e-01  4.55338335e-01  4.55338335e-01  4.55338335e-01  4.55338335e-01  3.34802076e-09  1.52774988e-07  8.56262332e-08  9.60000000e-01 
 9.70000000e-01  3.34761633e-09  4.55338319e-01  4.55338319e-01  4.55338319e-01  4.55338319e-01  4.55338318e-01  3.34802076e-09  1.52774969e-07  8.56260769e-08  9.70000000e-01 
 9.80000000e-01  3.34761632e-09  4.55338327e-01  4.55338327e-01  4.55338327e-01  4.55338327e-01  4.55338327e-01  3.34802070e-09  1.52774970e-07  8.56261124e-08  9.80000000e-01 
 9.90000000e-01  3.34761633e-09  4.55338322e-01  4.55338322e-01  4.55338322e-01  4.55338322e-01  4.55338322e-01  3.34802076e-09  1.52774961e-07  8.56260698e-08  9.90000000e-01 
 1.00000000e+00  3.34761632e-09  4.55338315e-01  4.55338315e-01  4.55338316e-01  4.55338315e-01  4.55338315e-01  3.34802076e-09  1.52774969e-07  8.56259774e-08  1.00000000e+00 
 1.01000000e+00  3.34761633e-09  4.55338298e-01  4.55338298e-01  4.55338298e-01  4.55338298e-01  4.55338298e-01  3.34802070e-09  1.52774943e-07  8.56258140e-08  1.01000000e+00 
 1.02000000e+00  3.34761632e-09  4.55338313e-01  4.55338313e-01  4.55338313e-01  4.55338313e-01  4.55338313e-01  3.34802076e-09  1.52774966e-07  8.56258140e-08  1.02000000e+00 
 1.03000000e+00  3.34761633e-09  4.55338322e-01  4.55338322e-01  4.55338322e-01  4.55338322e-01  4.55338322e-01  3.34802070e-09  1.52774996e-07  8.56257500e-08  1.03000000e+00 
 1.04000000e+00  3.34761632e-09  4.55338305e-01  4.55338305e-01  4.55338305e-01  4.55338305e-01  4.55338305e-01  3.34802076e-09  1.52774942e-07  8.56256150e-08  1.04000000e+00 
 1.05000000e+00  3.34761633e-09  4.55338341e-01  4.55338341e-01  4.55338341e-01  4.55338341e-01  4.55338341e-01  3.34802076e-09  1.52775004e-07  8.56255937e-08  1.05000000e+00 
 1.06000000e+00  3.34761632e-09  4.55338332e-01  4.55338332e-01  4.55338332e-01  4.55338332e-01  4.55338331e-01  3.34802076e-09  1.52774998e-07  8.56254871e-08  1.06000000e+00 
 1.07000000e+00  3.34761633e-09  4.55338324e-01  4.55338324e-01  4.55338324e-01  4.55338324e-01  4.55338324e-01  3.34802076e-09  1.52774980e-07  8.56253450e-08  1.07000000e+00 
 1.08000000e+00  3.34761632e-09  4.55338329e-01  4.55338329e-01  4.55338329e-01  4.55338329e-01  4.55338329e-01  3.34802076e-09  1.52774996e-07  8.56253308e-08  1.08000000e+00 
 1.09000000e+00  3.34761628e-09  4.55338313e-01  4.55338313e-01  4.55338313e-01  4.55338313e-01  4.55338313e-01  3.34802070e-09  1.52774965e-07  8.56251319e-08  1.09000000e+00 
 1.10000000e+00  3.34761633e-09  4.55338317e-01  4.55338317e-01  4.55338317e-01  4.55338317e-01  4.55338316e-01  3.34802070e-09  1.52774961e-07  8.56252100e-08  1.10000000e+00 
