 v-sweep         v(b0)           v(b1)           v(b2)           v(b3)           v(b4)           v(b5)           v(b6)           i(vbias)        i(viout)        v(vout)        
 0.00000000e+00  4.59787776e-01  3.35320629e-09  4.59787776e-01  4.59787776e-01  3.22890472e-09  3.73292264e-09  3.29159327e-09  1.62018647e-07  2.10110299e-08  0.00000000e+00 
 1.00000000e-02  4.59787759e-01  3.35320627e-09  4.59787759e-01  4.59787759e-01  3.22890471e-09  3.73292262e-09  3.29159330e-09  1.62018634e-07  2.10105320e-08  1.00000000e-02 
 2.00000000e-02  4.59787785e-01  3.35320627e-09  4.59787785e-01  4.59787785e-01  3.22890471e-09  3.73292262e-09  3.29159325e-09  1.62018670e-07  2.10101456e-08  2.00000000e-02 
 3.00000000e-02  4.59787773e-01  3.35320627e-09  4.59787773e-01  4.59787773e-01  3.22890476e-09  3.73292262e-09  3.29159325e-09  1.62018650e-07  2.10098647e-08  3.00000000e-02 
 4.00000000e-02  4.59787765e-01  3.35320627e-09  4.59787765e-01  4.59787765e-01  3.22890476e-09  3.73292262e-09  3.29159325e-09  1.62018631e-07  2.10093729e-08  4.00000000e-02 
 5.00000000e-02  4.59787751e-01  3.35320627e-09  4.59787750e-01  4.59787750e-01  3.22890476e-09  3.73292257e-09  3.29159325e-09  1.62018613e-07  2.10092050e-08  5.00000000e-02 
 6.00000000e-02  4.59787766e-01  3.35320627e-09  4.59787766e-01  4.59787766e-01  3.22890471e-09  3.73292257e-09  3.29159325e-09  1.62018637e-07  2.10087112e-08  6.00000000e-02 
 7.00000000e-02  4.59787791e-01  3.35320627e-09  4.59787791e-01  4.59787791e-01  3.22890471e-09  3.73292263e-09  3.29159325e-09  1.62018671e-07  2.10084914e-08  7.00000000e-02 
 8.00000000e-02  4.59787778e-01  3.35320627e-09  4.59787778e-01  4.59787778e-01  3.22890471e-09  3.73292262e-09  3.29159330e-09  1.62018655e-07  2.10082298e-08  8.00000000e-02 
 9.00000000e-02  4.59787773e-01  3.35320627e-09  4.59787773e-01  4.59787773e-01  3.22890476e-09  3.73292262e-09  3.29159325e-09  1.62018646e-07  2.10079127e-08  9.00000000e-02 
 1.00000000e-01  4.59787803e-01  3.35320627e-09  4.59787803e-01  4.59787803e-01  3.22890471e-09  3.73292263e-09  3.29159330e-09  1.62018684e-07  2.10077635e-08  1.00000000e-01 
 1.10000000e-01  4.59787768e-01  3.35320627e-09  4.59787767e-01  4.59787767e-01  3.22890476e-09  3.73292262e-09  3.29159325e-09  1.62018641e-07  2.10074855e-08  1.10000000e-01 
 1.20000000e-01  4.59787784e-01  3.35320627e-09  4.59787784e-01  4.59787784e-01  3.22890471e-09  3.73292262e-09  3.29159330e-09  1.62018672e-07  2.10073132e-08  1.20000000e-01 
 1.30000000e-01  4.59787767e-01  3.35320627e-09  4.59787767e-01  4.59787767e-01  3.22890471e-09  3.73292262e-09  3.29159325e-09  1.62018638e-07  2.10071125e-08  1.30000000e-01 
 1.40000000e-01  4.59787777e-01  3.35320627e-09  4.59787777e-01  4.59787777e-01  3.22890476e-09  3.73292262e-09  3.29159325e-09  1.62018662e-07  2.10069357e-08  1.40000000e-01 
 1.50000000e-01  4.59787776e-01  3.35320627e-09  4.59787776e-01  4.59787776e-01  3.22890476e-09  3.73292262e-09  3.29159330e-09  1.62018658e-07  2.10065565e-08  1.50000000e-01 
 1.60000000e-01  4.59787791e-01  3.35320627e-09  4.59787791e-01  4.59787791e-01  3.22890476e-09  3.73292263e-09  3.29159325e-09  1.62018674e-07  2.10065441e-08  1.60000000e-01 
 1.70000000e-01  4.59787777e-01  3.35320627e-09  4.59787777e-01  4.59787777e-01  3.22890476e-09  3.73292257e-09  3.29159330e-09  1.62018654e-07  2.10062758e-08  1.70000000e-01 
 1.80000000e-01  4.59787757e-01  3.35320627e-09  4.59787757e-01  4.59787757e-01  3.22890476e-09  3.73292262e-09  3.29159330e-09  1.62018642e-07  2.10060911e-08  1.80000000e-01 
 1.90000000e-01  4.59787757e-01  3.35320627e-09  4.59787757e-01  4.59787757e-01  3.22890476e-09  3.73292257e-09  3.29159325e-09  1.62018628e-07  2.10059579e-08  1.90000000e-01 
 2.00000000e-01  4.59787775e-01  3.35320627e-09  4.59787775e-01  4.59787775e-01  3.22890476e-09  3.73292257e-09  3.29159330e-09  1.62018664e-07  2.10056879e-08  2.00000000e-01 
 2.10000000e-01  4.59787783e-01  3.35320627e-09  4.59787783e-01  4.59787783e-01  3.22890476e-09  3.73292262e-09  3.29159325e-09  1.62018663e-07  2.10056772e-08  2.10000000e-01 
 2.20000000e-01  4.59787774e-01  3.35320627e-09  4.59787774e-01  4.59787774e-01  3.22890471e-09  3.73292257e-09  3.29159325e-09  1.62018649e-07  2.10054711e-08  2.20000000e-01 
 2.30000000e-01  4.59787755e-01  3.35320627e-09  4.59787755e-01  4.59787755e-01  3.22890476e-09  3.73292262e-09  3.29159325e-09  1.62018625e-07  2.10053628e-08  2.30000000e-01 
 2.40000000e-01  4.59787783e-01  3.35320627e-09  4.59787783e-01  4.59787783e-01  3.22890471e-09  3.73292262e-09  3.29159325e-09  1.62018659e-07  2.10052065e-08  2.40000000e-01 
 2.50000000e-01  4.59787764e-01  3.35320627e-09  4.59787764e-01  4.59787764e-01  3.22890476e-09  3.73292262e-09  3.29159325e-09  1.62018639e-07  2.10050732e-08  2.50000000e-01 
 2.60000000e-01  4.59787783e-01  3.35320627e-09  4.59787783e-01  4.59787783e-01  3.22890471e-09  3.73292262e-09  3.29159330e-09  1.62018650e-07  2.10049489e-08  2.60000000e-01 
 2.70000000e-01  4.59787781e-01  3.35320627e-09  4.59787781e-01  4.59787781e-01  3.22890476e-09  3.73292262e-09  3.29159325e-09  1.62018666e-07  2.10048672e-08  2.70000000e-01 
 2.80000000e-01  4.59787791e-01  3.35320627e-09  4.59787791e-01  4.59787791e-01  3.22890476e-09  3.73292257e-09  3.29159325e-09  1.62018660e-07  2.10048494e-08  2.80000000e-01 
 2.90000000e-01  4.59787782e-01  3.35320627e-09  4.59787782e-01  4.59787782e-01  3.22890471e-09  3.73292262e-09  3.29159325e-09  1.62018654e-07  2.10046629e-08  2.90000000e-01 
 3.00000000e-01  4.59787783e-01  3.35320627e-09  4.59787783e-01  4.59787783e-01  3.22890471e-09  3.73292262e-09  3.29159325e-09  1.62018664e-07  2.10045918e-08  3.00000000e-01 
 3.10000000e-01  4.59787792e-01  3.35320627e-09  4.59787792e-01  4.59787792e-01  3.22890471e-09  3.73292263e-09  3.29159330e-09  1.62018678e-07  2.10044533e-08  3.10000000e-01 
 3.20000000e-01  4.59787779e-01  3.35320627e-09  4.59787779e-01  4.59787779e-01  3.22890471e-09  3.73292262e-09  3.29159330e-09  1.62018653e-07  2.10043893e-08  3.20000000e-01 
 3.30000000e-01  4.59787780e-01  3.35320621e-09  4.59787780e-01  4.59787780e-01  3.22890471e-09  3.73292262e-09  3.29159330e-09  1.62018655e-07  2.10043183e-08  3.30000000e-01 
 3.40000000e-01  4.59787780e-01  3.35320627e-09  4.59787780e-01  4.59787780e-01  3.22890476e-09  3.73292262e-09  3.29159325e-09  1.62018670e-07  2.10041655e-08  3.40000000e-01 
 3.50000000e-01  4.59787787e-01  3.35320627e-09  4.59787787e-01  4.59787787e-01  3.22890476e-09  3.73292262e-09  3.29159330e-09  1.62018664e-07  2.10041371e-08  3.50000000e-01 
 3.60000000e-01  4.59787777e-01  3.35320627e-09  4.59787777e-01  4.59787777e-01  3.22890476e-09  3.73292257e-09  3.29159325e-09  1.62018661e-07  2.10039879e-08  3.60000000e-01 
 3.70000000e-01  4.59787772e-01  3.35320627e-09  4.59787772e-01  4.59787772e-01  3.22890476e-09  3.73292257e-09  3.29159330e-09  1.62018662e-07  2.10039204e-08  3.70000000e-01 
 3.80000000e-01  4.59787786e-01  3.35320627e-09  4.59787786e-01  4.59787786e-01  3.22890471e-09  3.73292262e-09  3.29159325e-09  1.62018663e-07  2.10038245e-08  3.80000000e-01 
 3.90000000e-01  4.59787766e-01  3.35320621e-09  4.59787766e-01  4.59787766e-01  3.22890476e-09  3.73292262e-09  3.29159325e-09  1.62018634e-07  2.10037854e-08  3.90000000e-01 
 4.00000000e-01  4.59787756e-01  3.35320627e-09  4.59787756e-01  4.59787756e-01  3.22890476e-09  3.73292262e-09  3.29159330e-09  1.62018621e-07  2.10038174e-08  4.00000000e-01 
 4.10000000e-01  4.59787753e-01  3.35320627e-09  4.59787752e-01  4.59787752e-01  3.22890476e-09  3.73292262e-09  3.29159325e-09  1.62018620e-07  2.10036326e-08  4.10000000e-01 
 4.20000000e-01  4.59787774e-01  3.35320627e-09  4.59787773e-01  4.59787773e-01  3.22890476e-09  3.73292262e-09  3.29159325e-09  1.62018649e-07  2.10035402e-08  4.20000000e-01 
 4.30000000e-01  4.59787775e-01  3.35320627e-09  4.59787775e-01  4.59787775e-01  3.22890471e-09  3.73292262e-09  3.29159330e-09  1.62018650e-07  2.10035260e-08  4.30000000e-01 
 4.40000000e-01  4.59787779e-01  3.35320627e-09  4.59787779e-01  4.59787779e-01  3.22890476e-09  3.73292262e-09  3.29159325e-09  1.62018658e-07  2.10034727e-08  4.40000000e-01 
 4.50000000e-01  4.59787757e-01  3.35320627e-09  4.59787757e-01  4.59787757e-01  3.22890476e-09  3.73292262e-09  3.29159325e-09  1.62018615e-07  2.10033484e-08  4.50000000e-01 
 4.60000000e-01  4.59787774e-01  3.35320627e-09  4.59787774e-01  4.59787774e-01  3.22890471e-09  3.73292262e-09  3.29159325e-09  1.62018633e-07  2.10033271e-08  4.60000000e-01 
 4.70000000e-01  4.59787759e-01  3.35320627e-09  4.59787759e-01  4.59787759e-01  3.22890476e-09  3.73292257e-09  3.29159325e-09  1.62018632e-07  2.10031956e-08  4.70000000e-01 
 4.80000000e-01  4.59787779e-01  3.35320627e-09  4.59787779e-01  4.59787779e-01  3.22890476e-09  3.73292262e-09  3.29159325e-09  1.62018655e-07  2.10032454e-08  4.80000000e-01 
 4.90000000e-01  4.59787769e-01  3.35320627e-09  4.59787769e-01  4.59787769e-01  3.22890471e-09  3.73292262e-09  3.29159325e-09  1.62018645e-07  2.10031033e-08  4.90000000e-01 
 5.00000000e-01  4.59787775e-01  3.35320627e-09  4.59787774e-01  4.59787774e-01  3.22890476e-09  3.73292262e-09  3.29159330e-09  1.62018640e-07  2.10031352e-08  5.00000000e-01 
 5.10000000e-01  4.59787785e-01  3.35320627e-09  4.59787785e-01  4.59787785e-01  3.22890471e-09  3.73292262e-09  3.29159325e-09  1.62018670e-07  2.10031459e-08  5.10000000e-01 
 5.20000000e-01  4.59787766e-01  3.35320627e-09  4.59787766e-01  4.59787766e-01  3.22890476e-09  3.73292262e-09  3.29159325e-09  1.62018624e-07  2.10028901e-08  5.20000000e-01 
 5.30000000e-01  4.59787784e-01  3.35320627e-09  4.59787784e-01  4.59787784e-01  3.22890471e-09  3.73292257e-09  3.29159325e-09  1.62018664e-07  2.10029611e-08  5.30000000e-01 
 5.40000000e-01  4.59787785e-01  3.35320627e-09  4.59787785e-01  4.59787785e-01  3.22890476e-09  3.73292262e-09  3.29159325e-09  1.62018674e-07  2.10027444e-08  5.40000000e-01 
 5.50000000e-01  4.59787787e-01  3.35320627e-09  4.59787787e-01  4.59787787e-01  3.22890476e-09  3.73292257e-09  3.29159325e-09  1.62018673e-07  2.10027906e-08  5.50000000e-01 
 5.60000000e-01  4.59787781e-01  3.35320627e-09  4.59787781e-01  4.59787781e-01  3.22890471e-09  3.73292262e-09  3.29159325e-09  1.62018656e-07  2.10027267e-08  5.60000000e-01 
 5.70000000e-01  4.59787805e-01  3.35320627e-09  4.59787805e-01  4.59787805e-01  3.22890476e-09  3.73292263e-09  3.29159330e-09  1.62018706e-07  2.10026911e-08  5.70000000e-01 
 5.80000000e-01  4.59787766e-01  3.35320627e-09  4.59787766e-01  4.59787766e-01  3.22890476e-09  3.73292262e-09  3.29159325e-09  1.62018641e-07  2.10026414e-08  5.80000000e-01 
 5.90000000e-01  4.59787771e-01  3.35320627e-09  4.59787771e-01  4.59787771e-01  3.22890471e-09  3.73292257e-09  3.29159330e-09  1.62018636e-07  2.10025206e-08  5.90000000e-01 
 6.00000000e-01  4.59787774e-01  3.35320627e-09  4.59787773e-01  4.59787773e-01  3.22890476e-09  3.73292262e-09  3.29159325e-09  1.62018638e-07  2.10023998e-08  6.00000000e-01 
 6.10000000e-01  4.59787759e-01  3.35320627e-09  4.59787759e-01  4.59787759e-01  3.22890476e-09  3.73292262e-09  3.29159325e-09  1.62018636e-07  2.10024069e-08  6.10000000e-01 
 6.20000000e-01  4.59787768e-01  3.35320627e-09  4.59787767e-01  4.59787767e-01  3.22890471e-09  3.73292262e-09  3.29159330e-09  1.62018656e-07  2.10024638e-08  6.20000000e-01 
 6.30000000e-01  4.59787777e-01  3.35320627e-09  4.59787777e-01  4.59787777e-01  3.22890476e-09  3.73292257e-09  3.29159325e-09  1.62018649e-07  2.10023927e-08  6.30000000e-01 
 6.40000000e-01  4.59787771e-01  3.35320627e-09  4.59787770e-01  4.59787771e-01  3.22890471e-09  3.73292262e-09  3.29159325e-09  1.62018655e-07  2.10023074e-08  6.40000000e-01 
 6.50000000e-01  4.59787782e-01  3.35320627e-09  4.59787782e-01  4.59787782e-01  3.22890476e-09  3.73292257e-09  3.29159325e-09  1.62018652e-07  2.10023714e-08  6.50000000e-01 
 6.60000000e-01  4.59787782e-01  3.35320627e-09  4.59787782e-01  4.59787782e-01  3.22890471e-09  3.73292262e-09  3.29159325e-09  1.62018656e-07  2.10023217e-08  6.60000000e-01 
 6.70000000e-01  4.59787800e-01  3.35320627e-09  4.59787800e-01  4.59787800e-01  3.22890476e-09  3.73292263e-09  3.29159325e-09  1.62018684e-07  2.10020659e-08  6.70000000e-01 
 6.80000000e-01  4.59787802e-01  3.35320627e-09  4.59787802e-01  4.59787802e-01  3.22890476e-09  3.73292263e-09  3.29159330e-09  1.62018679e-07  2.10020730e-08  6.80000000e-01 
 6.90000000e-01  4.59787793e-01  3.35320627e-09  4.59787793e-01  4.59787793e-01  3.22890476e-09  3.73292263e-09  3.29159325e-09  1.62018677e-07  2.10021440e-08  6.90000000e-01 
 7.00000000e-01  4.59787780e-01  3.35320627e-09  4.59787780e-01  4.59787780e-01  3.22890476e-09  3.73292262e-09  3.29159325e-09  1.62018662e-07  2.10020588e-08  7.00000000e-01 
 7.10000000e-01  4.59787764e-01  3.35320627e-09  4.59787764e-01  4.59787764e-01  3.22890476e-09  3.73292262e-09  3.29159325e-09  1.62018644e-07  2.10019522e-08  7.10000000e-01 
 7.20000000e-01  4.59787786e-01  3.35320627e-09  4.59787786e-01  4.59787786e-01  3.22890471e-09  3.73292262e-09  3.29159325e-09  1.62018659e-07  2.10018101e-08  7.20000000e-01 
 7.30000000e-01  4.59787791e-01  3.35320627e-09  4.59787791e-01  4.59787791e-01  3.22890476e-09  3.73292263e-09  3.29159325e-09  1.62018669e-07  2.10018243e-08  7.30000000e-01 
 7.40000000e-01  4.59787761e-01  3.35320627e-09  4.59787761e-01  4.59787761e-01  3.22890471e-09  3.73292262e-09  3.29159325e-09  1.62018616e-07  2.10018456e-08  7.40000000e-01 
 7.50000000e-01  4.59787783e-01  3.35320627e-09  4.59787783e-01  4.59787783e-01  3.22890471e-09  3.73292257e-09  3.29159325e-09  1.62018660e-07  2.10017035e-08  7.50000000e-01 
 7.60000000e-01  4.59787811e-01  3.35320627e-09  4.59787811e-01  4.59787811e-01  3.22890471e-09  3.73292263e-09  3.29159325e-09  1.62018708e-07  2.10017248e-08  7.60000000e-01 
 7.70000000e-01  4.59787779e-01  3.35320627e-09  4.59787779e-01  4.59787779e-01  3.22890476e-09  3.73292257e-09  3.29159325e-09  1.62018649e-07  2.10016680e-08  7.70000000e-01 
 7.80000000e-01  4.59787779e-01  3.35320627e-09  4.59787778e-01  4.59787778e-01  3.22890476e-09  3.73292262e-09  3.29159325e-09  1.62018653e-07  2.10015898e-08  7.80000000e-01 
 7.90000000e-01  4.59787786e-01  3.35320627e-09  4.59787785e-01  4.59787785e-01  3.22890476e-09  3.73292262e-09  3.29159325e-09  1.62018669e-07  2.10015543e-08  7.90000000e-01 
 8.00000000e-01  4.59787763e-01  3.35320627e-09  4.59787762e-01  4.59787762e-01  3.22890476e-09  3.73292257e-09  3.29159330e-09  1.62018628e-07  2.10014335e-08  8.00000000e-01 
 8.10000000e-01  4.59787743e-01  3.35320627e-09  4.59787742e-01  4.59787742e-01  3.22890476e-09  3.73292262e-09  3.29159325e-09  1.62018605e-07  2.10014761e-08  8.10000000e-01 
 8.20000000e-01  4.59787778e-01  3.35320621e-09  4.59787778e-01  4.59787778e-01  3.22890471e-09  3.73292262e-09  3.29159330e-09  1.62018643e-07  2.10014051e-08  8.20000000e-01 
 8.30000000e-01  4.59787771e-01  3.35320627e-09  4.59787771e-01  4.59787771e-01  3.22890471e-09  3.73292262e-09  3.29159325e-09  1.62018640e-07  2.10012914e-08  8.30000000e-01 
 8.40000000e-01  4.59787782e-01  3.35320627e-09  4.59787781e-01  4.59787781e-01  3.22890476e-09  3.73292257e-09  3.29159325e-09  1.62018655e-07  2.10011848e-08  8.40000000e-01 
 8.50000000e-01  4.59787774e-01  3.35320627e-09  4.59787773e-01  4.59787773e-01  3.22890476e-09  3.73292262e-09  3.29159325e-09  1.62018649e-07  2.10012132e-08  8.50000000e-01 
 8.60000000e-01  4.59787769e-01  3.35320627e-09  4.59787769e-01  4.59787769e-01  3.22890476e-09  3.73292257e-09  3.29159325e-09  1.62018648e-07  2.10011066e-08  8.60000000e-01 
 8.70000000e-01  4.59787782e-01  3.35320627e-09  4.59787782e-01  4.59787782e-01  3.22890476e-09  3.73292257e-09  3.29159330e-09  1.62018661e-07  2.10011635e-08  8.70000000e-01 
 8.80000000e-01  4.59787781e-01  3.35320627e-09  4.59787781e-01  4.59787781e-01  3.22890471e-09  3.73292262e-09  3.29159325e-09  1.62018669e-07  2.10010427e-08  8.80000000e-01 
 8.90000000e-01  4.59787783e-01  3.35320627e-09  4.59787783e-01  4.59787783e-01  3.22890471e-09  3.73292262e-09  3.29159325e-09  1.62018661e-07  2.10009361e-08  8.90000000e-01 
 9.00000000e-01  4.59787779e-01  3.35320627e-09  4.59787778e-01  4.59787778e-01  3.22890476e-09  3.73292262e-09  3.29159325e-09  1.62018650e-07  2.10010143e-08  9.00000000e-01 
 9.10000000e-01  4.59787763e-01  3.35320627e-09  4.59787763e-01  4.59787763e-01  3.22890476e-09  3.73292257e-09  3.29159330e-09  1.62018639e-07  2.10008935e-08  9.10000000e-01 
 9.20000000e-01  4.59787785e-01  3.35320627e-09  4.59787785e-01  4.59787785e-01  3.22890476e-09  3.73292262e-09  3.29159330e-09  1.62018671e-07  2.10008224e-08  9.20000000e-01 
 9.30000000e-01  4.59787777e-01  3.35320627e-09  4.59787777e-01  4.59787777e-01  3.22890476e-09  3.73292262e-09  3.29159325e-09  1.62018657e-07  2.10008224e-08  9.30000000e-01 
 9.40000000e-01  4.59787766e-01  3.35320627e-09  4.59787765e-01  4.59787765e-01  3.22890476e-09  3.73292257e-09  3.29159325e-09  1.62018630e-07  2.10005808e-08  9.40000000e-01 
 9.50000000e-01  4.59787758e-01  3.35320627e-09  4.59787758e-01  4.59787758e-01  3.22890476e-09  3.73292257e-09  3.29159325e-09  1.62018616e-07  2.10006590e-08  9.50000000e-01 
 9.60000000e-01  4.59787770e-01  3.35320627e-09  4.59787770e-01  4.59787770e-01  3.22890476e-09  3.73292257e-09  3.29159325e-09  1.62018642e-07  2.10006590e-08  9.60000000e-01 
 9.70000000e-01  4.59787780e-01  3.35320627e-09  4.59787780e-01  4.59787780e-01  3.22890476e-09  3.73292262e-09  3.29159325e-09  1.62018657e-07  2.10006235e-08  9.70000000e-01 
 9.80000000e-01  4.59787772e-01  3.35320627e-09  4.59787772e-01  4.59787772e-01  3.22890476e-09  3.73292257e-09  3.29159325e-09  1.62018645e-07  2.10003464e-08  9.80000000e-01 
 9.90000000e-01  4.59787781e-01  3.35320627e-09  4.59787780e-01  4.59787780e-01  3.22890476e-09  3.73292262e-09  3.29159325e-09  1.62018658e-07  2.10004742e-08  9.90000000e-01 
 1.00000000e+00  4.59787782e-01  3.35320627e-09  4.59787782e-01  4.59787782e-01  3.22890476e-09  3.73292262e-09  3.29159325e-09  1.62018650e-07  2.10004032e-08  1.00000000e+00 
 1.01000000e+00  4.59787792e-01  3.35320627e-09  4.59787792e-01  4.59787792e-01  3.22890471e-09  3.73292263e-09  3.29159330e-09  1.62018681e-07  2.10003179e-08  1.01000000e+00 
 1.02000000e+00  4.59787779e-01  3.35320627e-09  4.59787779e-01  4.59787779e-01  3.22890471e-09  3.73292262e-09  3.29159325e-09  1.62018653e-07  2.10003179e-08  1.02000000e+00 
 1.03000000e+00  4.59787786e-01  3.35320627e-09  4.59787785e-01  4.59787785e-01  3.22890471e-09  3.73292257e-09  3.29159330e-09  1.62018673e-07  2.10002469e-08  1.03000000e+00 
 1.04000000e+00  4.59787771e-01  3.35320627e-09  4.59787771e-01  4.59787771e-01  3.22890476e-09  3.73292257e-09  3.29159325e-09  1.62018652e-07  2.10000834e-08  1.04000000e+00 
 1.05000000e+00  4.59787769e-01  3.35320627e-09  4.59787768e-01  4.59787768e-01  3.22890471e-09  3.73292262e-09  3.29159325e-09  1.62018645e-07  2.09999982e-08  1.05000000e+00 
 1.06000000e+00  4.59787782e-01  3.35320627e-09  4.59787782e-01  4.59787782e-01  3.22890471e-09  3.73292257e-09  3.29159325e-09  1.62018653e-07  2.10000053e-08  1.06000000e+00 
 1.07000000e+00  4.59787777e-01  3.35320627e-09  4.59787777e-01  4.59787777e-01  3.22890471e-09  3.73292257e-09  3.29159325e-09  1.62018664e-07  2.10000479e-08  1.07000000e+00 
 1.08000000e+00  4.59787773e-01  3.35320627e-09  4.59787773e-01  4.59787773e-01  3.22890476e-09  3.73292257e-09  3.29159330e-09  1.62018647e-07  2.09997921e-08  1.08000000e+00 
 1.09000000e+00  4.59787778e-01  3.35320621e-09  4.59787778e-01  4.59787778e-01  3.22890476e-09  3.73292262e-09  3.29159325e-09  1.62018658e-07  2.09998845e-08  1.09000000e+00 
 1.10000000e+00  4.59787773e-01  3.35320627e-09  4.59787773e-01  4.59787773e-01  3.22890471e-09  3.73292257e-09  3.29159325e-09  1.62018653e-07  2.09998063e-08  1.10000000e+00 
