 v-sweep         v(b0)           v(b1)           v(b2)           v(b3)           v(b4)           v(b5)           v(b6)           i(vbias)        i(viout)        v(vout)        
 0.00000000e+00  4.57634885e-01  3.41712769e-09  4.57634885e-01  4.57634885e-01  4.57634885e-01  4.57634885e-01  4.57634885e-01  1.60231008e-07  1.81908526e-07  0.00000000e+00 
 1.00000000e-02  4.57634877e-01  3.41712769e-09  4.57634877e-01  4.57634877e-01  4.57634877e-01  4.57634877e-01  4.57634877e-01  1.60230988e-07  1.81908017e-07  1.00000000e-02 
 2.00000000e-02  4.57634881e-01  3.41712774e-09  4.57634880e-01  4.57634880e-01  4.57634880e-01  4.57634880e-01  4.57634880e-01  1.60230998e-07  1.81907444e-07  2.00000000e-02 
 3.00000000e-02  4.57634887e-01  3.41712774e-09  4.57634887e-01  4.57634887e-01  4.57634887e-01  4.57634887e-01  4.57634887e-01  1.60231007e-07  1.81907200e-07  3.00000000e-02 
 4.00000000e-02  4.57634866e-01  3.41712769e-09  4.57634866e-01  4.57634866e-01  4.57634866e-01  4.57634866e-01  4.57634866e-01  1.60230982e-07  1.81906674e-07  4.00000000e-02 
 5.00000000e-02  4.57634872e-01  3.41712774e-09  4.57634871e-01  4.57634871e-01  4.57634871e-01  4.57634871e-01  4.57634871e-01  1.60230985e-07  1.81906302e-07  5.00000000e-02 
 6.00000000e-02  4.57634891e-01  3.41712775e-09  4.57634891e-01  4.57634891e-01  4.57634891e-01  4.57634891e-01  4.57634891e-01  1.60231016e-07  1.81906027e-07  6.00000000e-02 
 7.00000000e-02  4.57634892e-01  3.41712769e-09  4.57634892e-01  4.57634892e-01  4.57634892e-01  4.57634892e-01  4.57634892e-01  1.60231018e-07  1.81905527e-07  7.00000000e-02 
 8.00000000e-02  4.57634916e-01  3.41712775e-09  4.57634916e-01  4.57634916e-01  4.57634916e-01  4.57634916e-01  4.57634916e-01  1.60231050e-07  1.81905395e-07  8.00000000e-02 
 9.00000000e-02  4.57634909e-01  3.41712769e-09  4.57634909e-01  4.57634909e-01  4.57634909e-01  4.57634909e-01  4.57634909e-01  1.60231057e-07  1.81905029e-07  9.00000000e-02 
 1.00000000e-01  4.57634894e-01  3.41712775e-09  4.57634894e-01  4.57634894e-01  4.57634894e-01  4.57634894e-01  4.57634894e-01  1.60231018e-07  1.81904603e-07  1.00000000e-01 
 1.10000000e-01  4.57634883e-01  3.41712769e-09  4.57634883e-01  4.57634883e-01  4.57634883e-01  4.57634883e-01  4.57634883e-01  1.60231004e-07  1.81904234e-07  1.10000000e-01 
 1.20000000e-01  4.57634902e-01  3.41712769e-09  4.57634902e-01  4.57634902e-01  4.57634902e-01  4.57634902e-01  4.57634902e-01  1.60231031e-07  1.81904048e-07  1.20000000e-01 
 1.30000000e-01  4.57634907e-01  3.41712775e-09  4.57634907e-01  4.57634907e-01  4.57634907e-01  4.57634907e-01  4.57634907e-01  1.60231049e-07  1.81903793e-07  1.30000000e-01 
 1.40000000e-01  4.57634886e-01  3.41712774e-09  4.57634886e-01  4.57634886e-01  4.57634886e-01  4.57634886e-01  4.57634886e-01  1.60231008e-07  1.81903401e-07  1.40000000e-01 
 1.50000000e-01  4.57634863e-01  3.41712774e-09  4.57634863e-01  4.57634863e-01  4.57634863e-01  4.57634863e-01  4.57634863e-01  1.60230979e-07  1.81902971e-07  1.50000000e-01 
 1.60000000e-01  4.57634880e-01  3.41712774e-09  4.57634880e-01  4.57634880e-01  4.57634880e-01  4.57634880e-01  4.57634880e-01  1.60231013e-07  1.81902726e-07  1.60000000e-01 
 1.70000000e-01  4.57634915e-01  3.41712775e-09  4.57634915e-01  4.57634915e-01  4.57634915e-01  4.57634915e-01  4.57634915e-01  1.60231057e-07  1.81902749e-07  1.70000000e-01 
 1.80000000e-01  4.57634894e-01  3.41712769e-09  4.57634894e-01  4.57634894e-01  4.57634894e-01  4.57634894e-01  4.57634894e-01  1.60231033e-07  1.81902450e-07  1.80000000e-01 
 1.90000000e-01  4.57634918e-01  3.41712769e-09  4.57634918e-01  4.57634918e-01  4.57634918e-01  4.57634918e-01  4.57634918e-01  1.60231048e-07  1.81902285e-07  1.90000000e-01 
 2.00000000e-01  4.57634879e-01  3.41712774e-09  4.57634879e-01  4.57634879e-01  4.57634879e-01  4.57634879e-01  4.57634879e-01  1.60231008e-07  1.81901884e-07  2.00000000e-01 
 2.10000000e-01  4.57634872e-01  3.41712769e-09  4.57634872e-01  4.57634872e-01  4.57634872e-01  4.57634872e-01  4.57634872e-01  1.60230978e-07  1.81901479e-07  2.10000000e-01 
 2.20000000e-01  4.57634895e-01  3.41712769e-09  4.57634894e-01  4.57634894e-01  4.57634894e-01  4.57634894e-01  4.57634894e-01  1.60231018e-07  1.81901431e-07  2.20000000e-01 
 2.30000000e-01  4.57634897e-01  3.41712775e-09  4.57634896e-01  4.57634896e-01  4.57634896e-01  4.57634896e-01  4.57634896e-01  1.60231029e-07  1.81901228e-07  2.30000000e-01 
 2.40000000e-01  4.57634908e-01  3.41712775e-09  4.57634908e-01  4.57634908e-01  4.57634908e-01  4.57634908e-01  4.57634908e-01  1.60231051e-07  1.81901102e-07  2.40000000e-01 
 2.50000000e-01  4.57634868e-01  3.41712774e-09  4.57634868e-01  4.57634868e-01  4.57634867e-01  4.57634868e-01  4.57634867e-01  1.60230985e-07  1.81900703e-07  2.50000000e-01 
 2.60000000e-01  4.57634888e-01  3.41712775e-09  4.57634888e-01  4.57634888e-01  4.57634888e-01  4.57634888e-01  4.57634888e-01  1.60231015e-07  1.81900591e-07  2.60000000e-01 
 2.70000000e-01  4.57634910e-01  3.41712775e-09  4.57634910e-01  4.57634910e-01  4.57634910e-01  4.57634910e-01  4.57634910e-01  1.60231037e-07  1.81900560e-07  2.70000000e-01 
 2.80000000e-01  4.57634880e-01  3.41712769e-09  4.57634880e-01  4.57634880e-01  4.57634880e-01  4.57634880e-01  4.57634880e-01  1.60231003e-07  1.81900234e-07  2.80000000e-01 
 2.90000000e-01  4.57634885e-01  3.41712769e-09  4.57634885e-01  4.57634885e-01  4.57634885e-01  4.57634885e-01  4.57634885e-01  1.60231003e-07  1.81899964e-07  2.90000000e-01 
 3.00000000e-01  4.57634903e-01  3.41712775e-09  4.57634903e-01  4.57634903e-01  4.57634903e-01  4.57634903e-01  4.57634903e-01  1.60231034e-07  1.81900084e-07  3.00000000e-01 
 3.10000000e-01  4.57634870e-01  3.41712774e-09  4.57634870e-01  4.57634870e-01  4.57634870e-01  4.57634870e-01  4.57634870e-01  1.60230972e-07  1.81899594e-07  3.10000000e-01 
 3.20000000e-01  4.57634889e-01  3.41712775e-09  4.57634889e-01  4.57634889e-01  4.57634889e-01  4.57634889e-01  4.57634889e-01  1.60230993e-07  1.81899470e-07  3.20000000e-01 
 3.30000000e-01  4.57634883e-01  3.41712774e-09  4.57634883e-01  4.57634883e-01  4.57634883e-01  4.57634883e-01  4.57634883e-01  1.60231008e-07  1.81899242e-07  3.30000000e-01 
 3.40000000e-01  4.57634886e-01  3.41712774e-09  4.57634886e-01  4.57634886e-01  4.57634886e-01  4.57634886e-01  4.57634886e-01  1.60231010e-07  1.81899281e-07  3.40000000e-01 
 3.50000000e-01  4.57634894e-01  3.41712775e-09  4.57634894e-01  4.57634894e-01  4.57634894e-01  4.57634894e-01  4.57634894e-01  1.60231018e-07  1.81899019e-07  3.50000000e-01 
 3.60000000e-01  4.57634911e-01  3.41712775e-09  4.57634911e-01  4.57634911e-01  4.57634911e-01  4.57634911e-01  4.57634911e-01  1.60231039e-07  1.81898951e-07  3.60000000e-01 
 3.70000000e-01  4.57634908e-01  3.41712769e-09  4.57634908e-01  4.57634908e-01  4.57634908e-01  4.57634908e-01  4.57634908e-01  1.60231038e-07  1.81898979e-07  3.70000000e-01 
 3.80000000e-01  4.57634896e-01  3.41712769e-09  4.57634896e-01  4.57634896e-01  4.57634896e-01  4.57634896e-01  4.57634896e-01  1.60231022e-07  1.81898649e-07  3.80000000e-01 
 3.90000000e-01  4.57634869e-01  3.41712774e-09  4.57634869e-01  4.57634869e-01  4.57634869e-01  4.57634869e-01  4.57634869e-01  1.60230975e-07  1.81898379e-07  3.90000000e-01 
 4.00000000e-01  4.57634857e-01  3.41712774e-09  4.57634857e-01  4.57634857e-01  4.57634857e-01  4.57634857e-01  4.57634857e-01  1.60230956e-07  1.81898116e-07  4.00000000e-01 
 4.10000000e-01  4.57634918e-01  3.41712769e-09  4.57634918e-01  4.57634918e-01  4.57634918e-01  4.57634918e-01  4.57634918e-01  1.60231060e-07  1.81898208e-07  4.10000000e-01 
 4.20000000e-01  4.57634878e-01  3.41712769e-09  4.57634878e-01  4.57634878e-01  4.57634878e-01  4.57634878e-01  4.57634878e-01  1.60231003e-07  1.81897835e-07  4.20000000e-01 
 4.30000000e-01  4.57634896e-01  3.41712775e-09  4.57634896e-01  4.57634896e-01  4.57634896e-01  4.57634896e-01  4.57634896e-01  1.60231012e-07  1.81897796e-07  4.30000000e-01 
 4.40000000e-01  4.57634861e-01  3.41712774e-09  4.57634861e-01  4.57634861e-01  4.57634861e-01  4.57634861e-01  4.57634861e-01  1.60230977e-07  1.81897576e-07  4.40000000e-01 
 4.50000000e-01  4.57634850e-01  3.41712769e-09  4.57634850e-01  4.57634850e-01  4.57634850e-01  4.57634850e-01  4.57634850e-01  1.60230951e-07  1.81897423e-07  4.50000000e-01 
 4.60000000e-01  4.57634871e-01  3.41712769e-09  4.57634871e-01  4.57634871e-01  4.57634871e-01  4.57634871e-01  4.57634871e-01  1.60230987e-07  1.81897406e-07  4.60000000e-01 
 4.70000000e-01  4.57634892e-01  3.41712775e-09  4.57634892e-01  4.57634892e-01  4.57634892e-01  4.57634892e-01  4.57634892e-01  1.60231012e-07  1.81897164e-07  4.70000000e-01 
 4.80000000e-01  4.57634861e-01  3.41712769e-09  4.57634861e-01  4.57634861e-01  4.57634861e-01  4.57634861e-01  4.57634861e-01  1.60230978e-07  1.81896930e-07  4.80000000e-01 
 4.90000000e-01  4.57634891e-01  3.41712775e-09  4.57634891e-01  4.57634891e-01  4.57634891e-01  4.57634891e-01  4.57634891e-01  1.60231006e-07  1.81896862e-07  4.90000000e-01 
 5.00000000e-01  4.57634873e-01  3.41712774e-09  4.57634873e-01  4.57634873e-01  4.57634873e-01  4.57634873e-01  4.57634873e-01  1.60230988e-07  1.81896674e-07  5.00000000e-01 
 5.10000000e-01  4.57634898e-01  3.41712769e-09  4.57634898e-01  4.57634898e-01  4.57634898e-01  4.57634898e-01  4.57634898e-01  1.60231023e-07  1.81896681e-07  5.10000000e-01 
 5.20000000e-01  4.57634895e-01  3.41712775e-09  4.57634895e-01  4.57634895e-01  4.57634895e-01  4.57634895e-01  4.57634895e-01  1.60231028e-07  1.81896539e-07  5.20000000e-01 
 5.30000000e-01  4.57634903e-01  3.41712775e-09  4.57634903e-01  4.57634903e-01  4.57634903e-01  4.57634903e-01  4.57634903e-01  1.60231023e-07  1.81896475e-07  5.30000000e-01 
 5.40000000e-01  4.57634879e-01  3.41712774e-09  4.57634879e-01  4.57634879e-01  4.57634879e-01  4.57634879e-01  4.57634879e-01  1.60231014e-07  1.81896290e-07  5.40000000e-01 
 5.50000000e-01  4.57634887e-01  3.41712769e-09  4.57634887e-01  4.57634887e-01  4.57634887e-01  4.57634887e-01  4.57634887e-01  1.60231009e-07  1.81896095e-07  5.50000000e-01 
 5.60000000e-01  4.57634900e-01  3.41712769e-09  4.57634900e-01  4.57634899e-01  4.57634899e-01  4.57634899e-01  4.57634899e-01  1.60231029e-07  1.81895995e-07  5.60000000e-01 
 5.70000000e-01  4.57634889e-01  3.41712769e-09  4.57634889e-01  4.57634889e-01  4.57634889e-01  4.57634889e-01  4.57634889e-01  1.60231011e-07  1.81895857e-07  5.70000000e-01 
 5.80000000e-01  4.57634877e-01  3.41712774e-09  4.57634877e-01  4.57634877e-01  4.57634877e-01  4.57634877e-01  4.57634877e-01  1.60231000e-07  1.81895686e-07  5.80000000e-01 
 5.90000000e-01  4.57634890e-01  3.41712775e-09  4.57634890e-01  4.57634890e-01  4.57634890e-01  4.57634890e-01  4.57634890e-01  1.60231013e-07  1.81895537e-07  5.90000000e-01 
 6.00000000e-01  4.57634912e-01  3.41712775e-09  4.57634911e-01  4.57634911e-01  4.57634911e-01  4.57634911e-01  4.57634911e-01  1.60231042e-07  1.81895487e-07  6.00000000e-01 
 6.10000000e-01  4.57634893e-01  3.41712775e-09  4.57634893e-01  4.57634893e-01  4.57634893e-01  4.57634893e-01  4.57634893e-01  1.60231028e-07  1.81895302e-07  6.10000000e-01 
 6.20000000e-01  4.57634895e-01  3.41712769e-09  4.57634895e-01  4.57634895e-01  4.57634895e-01  4.57634895e-01  4.57634895e-01  1.60231020e-07  1.81895253e-07  6.20000000e-01 
 6.30000000e-01  4.57634898e-01  3.41712775e-09  4.57634898e-01  4.57634898e-01  4.57634898e-01  4.57634898e-01  4.57634898e-01  1.60231025e-07  1.81895054e-07  6.30000000e-01 
 6.40000000e-01  4.57634883e-01  3.41712774e-09  4.57634883e-01  4.57634883e-01  4.57634883e-01  4.57634883e-01  4.57634883e-01  1.60231016e-07  1.81894841e-07  6.40000000e-01 
 6.50000000e-01  4.57634883e-01  3.41712769e-09  4.57634883e-01  4.57634882e-01  4.57634882e-01  4.57634882e-01  4.57634882e-01  1.60230986e-07  1.81894713e-07  6.50000000e-01 
 6.60000000e-01  4.57634867e-01  3.41712769e-09  4.57634867e-01  4.57634867e-01  4.57634867e-01  4.57634867e-01  4.57634867e-01  1.60230991e-07  1.81894485e-07  6.60000000e-01 
 6.70000000e-01  4.57634895e-01  3.41712775e-09  4.57634895e-01  4.57634895e-01  4.57634894e-01  4.57634895e-01  4.57634895e-01  1.60231025e-07  1.81894386e-07  6.70000000e-01 
 6.80000000e-01  4.57634903e-01  3.41712775e-09  4.57634903e-01  4.57634903e-01  4.57634903e-01  4.57634903e-01  4.57634903e-01  1.60231042e-07  1.81894301e-07  6.80000000e-01 
 6.90000000e-01  4.57634885e-01  3.41712774e-09  4.57634885e-01  4.57634885e-01  4.57634885e-01  4.57634885e-01  4.57634885e-01  1.60231017e-07  1.81894187e-07  6.90000000e-01 
 7.00000000e-01  4.57634883e-01  3.41712769e-09  4.57634883e-01  4.57634883e-01  4.57634883e-01  4.57634883e-01  4.57634883e-01  1.60231009e-07  1.81893995e-07  7.00000000e-01 
 7.10000000e-01  4.57634873e-01  3.41712774e-09  4.57634873e-01  4.57634873e-01  4.57634873e-01  4.57634873e-01  4.57634873e-01  1.60230990e-07  1.81893824e-07  7.10000000e-01 
 7.20000000e-01  4.57634877e-01  3.41712769e-09  4.57634877e-01  4.57634877e-01  4.57634877e-01  4.57634877e-01  4.57634877e-01  1.60230987e-07  1.81893526e-07  7.20000000e-01 
 7.30000000e-01  4.57634861e-01  3.41712769e-09  4.57634861e-01  4.57634861e-01  4.57634861e-01  4.57634861e-01  4.57634861e-01  1.60230979e-07  1.81893405e-07  7.30000000e-01 
 7.40000000e-01  4.57634870e-01  3.41712774e-09  4.57634870e-01  4.57634870e-01  4.57634870e-01  4.57634870e-01  4.57634870e-01  1.60230983e-07  1.81893370e-07  7.40000000e-01 
 7.50000000e-01  4.57634908e-01  3.41712769e-09  4.57634908e-01  4.57634908e-01  4.57634908e-01  4.57634908e-01  4.57634908e-01  1.60231040e-07  1.81893292e-07  7.50000000e-01 
 7.60000000e-01  4.57634882e-01  3.41712769e-09  4.57634882e-01  4.57634882e-01  4.57634882e-01  4.57634882e-01  4.57634882e-01  1.60231016e-07  1.81893043e-07  7.60000000e-01 
 7.70000000e-01  4.57634878e-01  3.41712769e-09  4.57634878e-01  4.57634878e-01  4.57634878e-01  4.57634878e-01  4.57634878e-01  1.60231001e-07  1.81892865e-07  7.70000000e-01 
 7.80000000e-01  4.57634900e-01  3.41712769e-09  4.57634900e-01  4.57634900e-01  4.57634900e-01  4.57634900e-01  4.57634900e-01  1.60231027e-07  1.81892901e-07  7.80000000e-01 
 7.90000000e-01  4.57634900e-01  3.41712775e-09  4.57634899e-01  4.57634899e-01  4.57634899e-01  4.57634899e-01  4.57634899e-01  1.60231021e-07  1.81892666e-07  7.90000000e-01 
 8.00000000e-01  4.57634888e-01  3.41712775e-09  4.57634888e-01  4.57634888e-01  4.57634888e-01  4.57634888e-01  4.57634888e-01  1.60231020e-07  1.81892396e-07  8.00000000e-01 
 8.10000000e-01  4.57634869e-01  3.41712774e-09  4.57634869e-01  4.57634869e-01  4.57634869e-01  4.57634869e-01  4.57634869e-01  1.60230982e-07  1.81892155e-07  8.10000000e-01 
 8.20000000e-01  4.57634890e-01  3.41712775e-09  4.57634890e-01  4.57634890e-01  4.57634890e-01  4.57634890e-01  4.57634890e-01  1.60231010e-07  1.81892133e-07  8.20000000e-01 
 8.30000000e-01  4.57634868e-01  3.41712774e-09  4.57634868e-01  4.57634868e-01  4.57634868e-01  4.57634868e-01  4.57634868e-01  1.60230981e-07  1.81891927e-07  8.30000000e-01 
 8.40000000e-01  4.57634898e-01  3.41712775e-09  4.57634898e-01  4.57634898e-01  4.57634898e-01  4.57634898e-01  4.57634898e-01  1.60231030e-07  1.81891970e-07  8.40000000e-01 
 8.50000000e-01  4.57634890e-01  3.41712769e-09  4.57634890e-01  4.57634890e-01  4.57634890e-01  4.57634890e-01  4.57634890e-01  1.60231022e-07  1.81891707e-07  8.50000000e-01 
 8.60000000e-01  4.57634888e-01  3.41712769e-09  4.57634888e-01  4.57634888e-01  4.57634888e-01  4.57634888e-01  4.57634888e-01  1.60230991e-07  1.81891600e-07  8.60000000e-01 
 8.70000000e-01  4.57634864e-01  3.41712774e-09  4.57634864e-01  4.57634864e-01  4.57634864e-01  4.57634864e-01  4.57634864e-01  1.60230971e-07  1.81891231e-07  8.70000000e-01 
 8.80000000e-01  4.57634923e-01  3.41712769e-09  4.57634923e-01  4.57634923e-01  4.57634923e-01  4.57634923e-01  4.57634923e-01  1.60231054e-07  1.81891458e-07  8.80000000e-01 
 8.90000000e-01  4.57634873e-01  3.41712774e-09  4.57634873e-01  4.57634873e-01  4.57634873e-01  4.57634873e-01  4.57634873e-01  1.60230993e-07  1.81891032e-07  8.90000000e-01 
 9.00000000e-01  4.57634872e-01  3.41712774e-09  4.57634872e-01  4.57634872e-01  4.57634872e-01  4.57634872e-01  4.57634872e-01  1.60230979e-07  1.81890762e-07  9.00000000e-01 
 9.10000000e-01  4.57634893e-01  3.41712775e-09  4.57634893e-01  4.57634893e-01  4.57634893e-01  4.57634893e-01  4.57634893e-01  1.60231017e-07  1.81890755e-07  9.10000000e-01 
 9.20000000e-01  4.57634901e-01  3.41712775e-09  4.57634901e-01  4.57634901e-01  4.57634901e-01  4.57634901e-01  4.57634901e-01  1.60231029e-07  1.81890748e-07  9.20000000e-01 
 9.30000000e-01  4.57634929e-01  3.41712769e-09  4.57634929e-01  4.57634929e-01  4.57634929e-01  4.57634929e-01  4.57634929e-01  1.60231088e-07  1.81890535e-07  9.30000000e-01 
 9.40000000e-01  4.57634876e-01  3.41712774e-09  4.57634875e-01  4.57634875e-01  4.57634875e-01  4.57634875e-01  4.57634875e-01  1.60231008e-07  1.81890314e-07  9.40000000e-01 
 9.50000000e-01  4.57634900e-01  3.41712775e-09  4.57634900e-01  4.57634900e-01  4.57634900e-01  4.57634900e-01  4.57634900e-01  1.60231027e-07  1.81890137e-07  9.50000000e-01 
 9.60000000e-01  4.57634898e-01  3.41712775e-09  4.57634898e-01  4.57634898e-01  4.57634898e-01  4.57634898e-01  4.57634898e-01  1.60231041e-07  1.81890030e-07  9.60000000e-01 
 9.70000000e-01  4.57634887e-01  3.41712769e-09  4.57634887e-01  4.57634887e-01  4.57634887e-01  4.57634887e-01  4.57634887e-01  1.60231002e-07  1.81889796e-07  9.70000000e-01 
 9.80000000e-01  4.57634902e-01  3.41712775e-09  4.57634902e-01  4.57634902e-01  4.57634902e-01  4.57634902e-01  4.57634902e-01  1.60231021e-07  1.81889583e-07  9.80000000e-01 
 9.90000000e-01  4.57634897e-01  3.41712775e-09  4.57634897e-01  4.57634897e-01  4.57634897e-01  4.57634897e-01  4.57634897e-01  1.60231019e-07  1.81889405e-07  9.90000000e-01 
 1.00000000e+00  4.57634896e-01  3.41712775e-09  4.57634896e-01  4.57634896e-01  4.57634896e-01  4.57634896e-01  4.57634896e-01  1.60231019e-07  1.81889149e-07  1.00000000e+00 
 1.01000000e+00  4.57634898e-01  3.41712775e-09  4.57634898e-01  4.57634898e-01  4.57634898e-01  4.57634898e-01  4.57634898e-01  1.60231022e-07  1.81889128e-07  1.01000000e+00 
 1.02000000e+00  4.57634905e-01  3.41712769e-09  4.57634905e-01  4.57634905e-01  4.57634905e-01  4.57634905e-01  4.57634905e-01  1.60231039e-07  1.81888900e-07  1.02000000e+00 
 1.03000000e+00  4.57634889e-01  3.41712775e-09  4.57634889e-01  4.57634889e-01  4.57634889e-01  4.57634889e-01  4.57634889e-01  1.60231013e-07  1.81888723e-07  1.03000000e+00 
 1.04000000e+00  4.57634905e-01  3.41712775e-09  4.57634905e-01  4.57634905e-01  4.57634905e-01  4.57634905e-01  4.57634905e-01  1.60231028e-07  1.81888574e-07  1.04000000e+00 
 1.05000000e+00  4.57634879e-01  3.41712774e-09  4.57634879e-01  4.57634879e-01  4.57634879e-01  4.57634879e-01  4.57634879e-01  1.60231003e-07  1.81888304e-07  1.05000000e+00 
 1.06000000e+00  4.57634850e-01  3.41712769e-09  4.57634850e-01  4.57634850e-01  4.57634850e-01  4.57634850e-01  4.57634850e-01  1.60230955e-07  1.81888069e-07  1.06000000e+00 
 1.07000000e+00  4.57634884e-01  3.41712774e-09  4.57634884e-01  4.57634884e-01  4.57634884e-01  4.57634884e-01  4.57634884e-01  1.60231000e-07  1.81887920e-07  1.07000000e+00 
 1.08000000e+00  4.57634894e-01  3.41712769e-09  4.57634894e-01  4.57634894e-01  4.57634894e-01  4.57634894e-01  4.57634894e-01  1.60231023e-07  1.81887735e-07  1.08000000e+00 
 1.09000000e+00  4.57634914e-01  3.41712769e-09  4.57634914e-01  4.57634914e-01  4.57634914e-01  4.57634914e-01  4.57634914e-01  1.60231062e-07  1.81887764e-07  1.09000000e+00 
 1.10000000e+00  4.57634912e-01  3.41712775e-09  4.57634912e-01  4.57634912e-01  4.57634912e-01  4.57634912e-01  4.57634912e-01  1.60231045e-07  1.81887515e-07  1.10000000e+00 
