 v-sweep         v(b0)           v(b1)           v(b2)           v(b3)           v(b4)           v(b5)           v(b6)           i(vbias)        i(viout)        v(vout)        
 0.00000000e+00  4.59087957e-01  3.06557806e-09  4.59087957e-01  4.59087957e-01  3.41078268e-09  3.30298004e-09  4.59087957e-01  1.61533965e-07  1.14530891e-07  0.00000000e+00 
 1.00000000e-02  4.59087962e-01  3.06557799e-09  4.59087962e-01  4.59087962e-01  3.41078267e-09  3.30297997e-09  4.59087962e-01  1.61533973e-07  1.14530409e-07  1.00000000e-02 
 2.00000000e-02  4.59087953e-01  3.06557805e-09  4.59087953e-01  4.59087954e-01  3.41078266e-09  3.30298003e-09  4.59087954e-01  1.61533966e-07  1.14530016e-07  2.00000000e-02 
 3.00000000e-02  4.59087961e-01  3.06557805e-09  4.59087961e-01  4.59087961e-01  3.41078267e-09  3.30298003e-09  4.59087961e-01  1.61533981e-07  1.14529595e-07  3.00000000e-02 
 4.00000000e-02  4.59087975e-01  3.06557799e-09  4.59087975e-01  4.59087975e-01  3.41078267e-09  3.30297997e-09  4.59087975e-01  1.61534002e-07  1.14529336e-07  4.00000000e-02 
 5.00000000e-02  4.59087947e-01  3.06557805e-09  4.59087947e-01  4.59087947e-01  3.41078266e-09  3.30298003e-09  4.59087947e-01  1.61533957e-07  1.14528894e-07  5.00000000e-02 
 6.00000000e-02  4.59087971e-01  3.06557805e-09  4.59087971e-01  4.59087971e-01  3.41078267e-09  3.30298003e-09  4.59087971e-01  1.61533980e-07  1.14528700e-07  6.00000000e-02 
 7.00000000e-02  4.59087987e-01  3.06557799e-09  4.59087987e-01  4.59087987e-01  3.41078267e-09  3.30298003e-09  4.59087987e-01  1.61534020e-07  1.14528390e-07  7.00000000e-02 
 8.00000000e-02  4.59087976e-01  3.06557805e-09  4.59087976e-01  4.59087976e-01  3.41078267e-09  3.30298003e-09  4.59087976e-01  1.61534007e-07  1.14527961e-07  8.00000000e-02 
 9.00000000e-02  4.59087968e-01  3.06557799e-09  4.59087968e-01  4.59087968e-01  3.41078267e-09  3.30297997e-09  4.59087968e-01  1.61534003e-07  1.14527744e-07  9.00000000e-02 
 1.00000000e-01  4.59087967e-01  3.06557799e-09  4.59087967e-01  4.59087967e-01  3.41078267e-09  3.30298003e-09  4.59087967e-01  1.61534004e-07  1.14527471e-07  1.00000000e-01 
 1.10000000e-01  4.59087979e-01  3.06557799e-09  4.59087979e-01  4.59087979e-01  3.41078267e-09  3.30298003e-09  4.59087979e-01  1.61533999e-07  1.14527165e-07  1.10000000e-01 
 1.20000000e-01  4.59087959e-01  3.06557805e-09  4.59087959e-01  4.59087959e-01  3.41078267e-09  3.30297997e-09  4.59087959e-01  1.61533978e-07  1.14526868e-07  1.20000000e-01 
 1.30000000e-01  4.59087947e-01  3.06557805e-09  4.59087947e-01  4.59087947e-01  3.41078266e-09  3.30298003e-09  4.59087947e-01  1.61533962e-07  1.14526660e-07  1.30000000e-01 
 1.40000000e-01  4.59087969e-01  3.06557805e-09  4.59087969e-01  4.59087969e-01  3.41078267e-09  3.30298003e-09  4.59087969e-01  1.61534010e-07  1.14526438e-07  1.40000000e-01 
 1.50000000e-01  4.59087948e-01  3.06557805e-09  4.59087948e-01  4.59087948e-01  3.41078266e-09  3.30298003e-09  4.59087948e-01  1.61533962e-07  1.14526157e-07  1.50000000e-01 
 1.60000000e-01  4.59087973e-01  3.06557805e-09  4.59087973e-01  4.59087974e-01  3.41078267e-09  3.30298003e-09  4.59087974e-01  1.61533995e-07  1.14525999e-07  1.60000000e-01 
 1.70000000e-01  4.59088006e-01  3.06557805e-09  4.59088006e-01  4.59088006e-01  3.41078267e-09  3.30298003e-09  4.59088006e-01  1.61534056e-07  1.14525834e-07  1.70000000e-01 
 1.80000000e-01  4.59087975e-01  3.06557805e-09  4.59087975e-01  4.59087975e-01  3.41078267e-09  3.30298003e-09  4.59087975e-01  1.61534002e-07  1.14525569e-07  1.80000000e-01 
 1.90000000e-01  4.59087959e-01  3.06557805e-09  4.59087959e-01  4.59087959e-01  3.41078267e-09  3.30297997e-09  4.59087959e-01  1.61533977e-07  1.14525427e-07  1.90000000e-01 
 2.00000000e-01  4.59087972e-01  3.06557805e-09  4.59087972e-01  4.59087973e-01  3.41078267e-09  3.30298003e-09  4.59087972e-01  1.61533986e-07  1.14525214e-07  2.00000000e-01 
 2.10000000e-01  4.59087969e-01  3.06557805e-09  4.59087969e-01  4.59087969e-01  3.41078267e-09  3.30298003e-09  4.59087969e-01  1.61533989e-07  1.14525099e-07  2.10000000e-01 
 2.20000000e-01  4.59087929e-01  3.06557805e-09  4.59087929e-01  4.59087929e-01  3.41078266e-09  3.30298002e-09  4.59087929e-01  1.61533930e-07  1.14524779e-07  2.20000000e-01 
 2.30000000e-01  4.59087947e-01  3.06557805e-09  4.59087947e-01  4.59087947e-01  3.41078266e-09  3.30298003e-09  4.59087947e-01  1.61533942e-07  1.14524632e-07  2.30000000e-01 
 2.40000000e-01  4.59087970e-01  3.06557799e-09  4.59087970e-01  4.59087970e-01  3.41078267e-09  3.30297997e-09  4.59087970e-01  1.61533997e-07  1.14524585e-07  2.40000000e-01 
 2.50000000e-01  4.59087956e-01  3.06557799e-09  4.59087956e-01  4.59087956e-01  3.41078266e-09  3.30298003e-09  4.59087956e-01  1.61533979e-07  1.14524472e-07  2.50000000e-01 
 2.60000000e-01  4.59087957e-01  3.06557805e-09  4.59087957e-01  4.59087957e-01  3.41078267e-09  3.30298003e-09  4.59087957e-01  1.61533979e-07  1.14524209e-07  2.60000000e-01 
 2.70000000e-01  4.59087979e-01  3.06557805e-09  4.59087979e-01  4.59087979e-01  3.41078267e-09  3.30298003e-09  4.59087979e-01  1.61534005e-07  1.14524125e-07  2.70000000e-01 
 2.80000000e-01  4.59087961e-01  3.06557805e-09  4.59087960e-01  4.59087961e-01  3.41078267e-09  3.30298003e-09  4.59087961e-01  1.61533980e-07  1.14524065e-07  2.80000000e-01 
 2.90000000e-01  4.59087981e-01  3.06557805e-09  4.59087981e-01  4.59087981e-01  3.41078267e-09  3.30298003e-09  4.59087981e-01  1.61534014e-07  1.14523889e-07  2.90000000e-01 
 3.00000000e-01  4.59087957e-01  3.06557799e-09  4.59087957e-01  4.59087957e-01  3.41078267e-09  3.30297997e-09  4.59087957e-01  1.61533979e-07  1.14523719e-07  3.00000000e-01 
 3.10000000e-01  4.59087967e-01  3.06557805e-09  4.59087967e-01  4.59087967e-01  3.41078267e-09  3.30298003e-09  4.59087967e-01  1.61533988e-07  1.14523484e-07  3.10000000e-01 
 3.20000000e-01  4.59087961e-01  3.06557799e-09  4.59087961e-01  4.59087961e-01  3.41078267e-09  3.30298003e-09  4.59087961e-01  1.61533979e-07  1.14523438e-07  3.20000000e-01 
 3.30000000e-01  4.59087967e-01  3.06557805e-09  4.59087967e-01  4.59087967e-01  3.41078267e-09  3.30298003e-09  4.59087967e-01  1.61533973e-07  1.14523477e-07  3.30000000e-01 
 3.40000000e-01  4.59087967e-01  3.06557799e-09  4.59087967e-01  4.59087967e-01  3.41078267e-09  3.30298003e-09  4.59087967e-01  1.61533998e-07  1.14523207e-07  3.40000000e-01 
 3.50000000e-01  4.59087992e-01  3.06557799e-09  4.59087992e-01  4.59087992e-01  3.41078267e-09  3.30298003e-09  4.59087992e-01  1.61534031e-07  1.14523264e-07  3.50000000e-01 
 3.60000000e-01  4.59087972e-01  3.06557799e-09  4.59087972e-01  4.59087972e-01  3.41078267e-09  3.30298003e-09  4.59087972e-01  1.61534016e-07  1.14523026e-07  3.60000000e-01 
 3.70000000e-01  4.59087931e-01  3.06557799e-09  4.59087931e-01  4.59087931e-01  3.41078266e-09  3.30298002e-09  4.59087931e-01  1.61533946e-07  1.14522926e-07  3.70000000e-01 
 3.80000000e-01  4.59087964e-01  3.06557805e-09  4.59087964e-01  4.59087964e-01  3.41078267e-09  3.30297997e-09  4.59087964e-01  1.61533973e-07  1.14522813e-07  3.80000000e-01 
 3.90000000e-01  4.59087970e-01  3.06557799e-09  4.59087970e-01  4.59087970e-01  3.41078267e-09  3.30297997e-09  4.59087970e-01  1.61533993e-07  1.14522702e-07  3.90000000e-01 
 4.00000000e-01  4.59087959e-01  3.06557805e-09  4.59087959e-01  4.59087959e-01  3.41078267e-09  3.30298003e-09  4.59087959e-01  1.61533978e-07  1.14522649e-07  4.00000000e-01 
 4.10000000e-01  4.59087958e-01  3.06557799e-09  4.59087958e-01  4.59087958e-01  3.41078267e-09  3.30298003e-09  4.59087958e-01  1.61533976e-07  1.14522511e-07  4.10000000e-01 
 4.20000000e-01  4.59087958e-01  3.06557805e-09  4.59087958e-01  4.59087958e-01  3.41078267e-09  3.30298003e-09  4.59087958e-01  1.61533963e-07  1.14522443e-07  4.20000000e-01 
 4.30000000e-01  4.59087952e-01  3.06557799e-09  4.59087952e-01  4.59087952e-01  3.41078266e-09  3.30298003e-09  4.59087952e-01  1.61533967e-07  1.14522333e-07  4.30000000e-01 
 4.40000000e-01  4.59087962e-01  3.06557799e-09  4.59087962e-01  4.59087962e-01  3.41078267e-09  3.30298003e-09  4.59087962e-01  1.61533976e-07  1.14522127e-07  4.40000000e-01 
 4.50000000e-01  4.59087976e-01  3.06557805e-09  4.59087976e-01  4.59087977e-01  3.41078267e-09  3.30298003e-09  4.59087976e-01  1.61533996e-07  1.14522145e-07  4.50000000e-01 
 4.60000000e-01  4.59087962e-01  3.06557805e-09  4.59087962e-01  4.59087962e-01  3.41078267e-09  3.30297997e-09  4.59087962e-01  1.61533980e-07  1.14522127e-07  4.60000000e-01 
 4.70000000e-01  4.59087959e-01  3.06557805e-09  4.59087959e-01  4.59087959e-01  3.41078267e-09  3.30297997e-09  4.59087959e-01  1.61533979e-07  1.14521981e-07  4.70000000e-01 
 4.80000000e-01  4.59087967e-01  3.06557805e-09  4.59087967e-01  4.59087967e-01  3.41078267e-09  3.30298003e-09  4.59087967e-01  1.61533991e-07  1.14521839e-07  4.80000000e-01 
 4.90000000e-01  4.59087959e-01  3.06557805e-09  4.59087959e-01  4.59087959e-01  3.41078267e-09  3.30298003e-09  4.59087959e-01  1.61533982e-07  1.14521995e-07  4.90000000e-01 
 5.00000000e-01  4.59087963e-01  3.06557799e-09  4.59087963e-01  4.59087964e-01  3.41078267e-09  3.30298003e-09  4.59087964e-01  1.61533978e-07  1.14521651e-07  5.00000000e-01 
 5.10000000e-01  4.59087969e-01  3.06557799e-09  4.59087969e-01  4.59087969e-01  3.41078267e-09  3.30298003e-09  4.59087969e-01  1.61533995e-07  1.14521693e-07  5.10000000e-01 
 5.20000000e-01  4.59088002e-01  3.06557799e-09  4.59088002e-01  4.59088002e-01  3.41078267e-09  3.30298003e-09  4.59088002e-01  1.61534047e-07  1.14521558e-07  5.20000000e-01 
 5.30000000e-01  4.59087968e-01  3.06557799e-09  4.59087968e-01  4.59087969e-01  3.41078267e-09  3.30298003e-09  4.59087968e-01  1.61533996e-07  1.14521541e-07  5.30000000e-01 
 5.40000000e-01  4.59087981e-01  3.06557805e-09  4.59087981e-01  4.59087981e-01  3.41078267e-09  3.30298003e-09  4.59087981e-01  1.61534026e-07  1.14521388e-07  5.40000000e-01 
 5.50000000e-01  4.59087951e-01  3.06557805e-09  4.59087951e-01  4.59087952e-01  3.41078266e-09  3.30298003e-09  4.59087951e-01  1.61533960e-07  1.14521281e-07  5.50000000e-01 
 5.60000000e-01  4.59087955e-01  3.06557805e-09  4.59087955e-01  4.59087955e-01  3.41078266e-09  3.30298003e-09  4.59087955e-01  1.61533957e-07  1.14521118e-07  5.60000000e-01 
 5.70000000e-01  4.59087991e-01  3.06557805e-09  4.59087991e-01  4.59087991e-01  3.41078267e-09  3.30298003e-09  4.59087991e-01  1.61534034e-07  1.14521153e-07  5.70000000e-01 
 5.80000000e-01  4.59087971e-01  3.06557805e-09  4.59087971e-01  4.59087972e-01  3.41078267e-09  3.30298003e-09  4.59087972e-01  1.61533994e-07  1.14521058e-07  5.80000000e-01 
 5.90000000e-01  4.59087960e-01  3.06557805e-09  4.59087960e-01  4.59087960e-01  3.41078267e-09  3.30298003e-09  4.59087960e-01  1.61533985e-07  1.14521015e-07  5.90000000e-01 
 6.00000000e-01  4.59087967e-01  3.06557805e-09  4.59087967e-01  4.59087968e-01  3.41078267e-09  3.30298003e-09  4.59087967e-01  1.61533986e-07  1.14520944e-07  6.00000000e-01 
 6.10000000e-01  4.59087963e-01  3.06557799e-09  4.59087963e-01  4.59087963e-01  3.41078267e-09  3.30297997e-09  4.59087963e-01  1.61533968e-07  1.14520645e-07  6.10000000e-01 
 6.20000000e-01  4.59087952e-01  3.06557805e-09  4.59087952e-01  4.59087952e-01  3.41078266e-09  3.30298003e-09  4.59087952e-01  1.61533968e-07  1.14520667e-07  6.20000000e-01 
 6.30000000e-01  4.59087968e-01  3.06557805e-09  4.59087968e-01  4.59087968e-01  3.41078267e-09  3.30298003e-09  4.59087968e-01  1.61533977e-07  1.14520603e-07  6.30000000e-01 
 6.40000000e-01  4.59087978e-01  3.06557799e-09  4.59087978e-01  4.59087978e-01  3.41078267e-09  3.30298003e-09  4.59087978e-01  1.61534004e-07  1.14520738e-07  6.40000000e-01 
 6.50000000e-01  4.59087959e-01  3.06557799e-09  4.59087959e-01  4.59087960e-01  3.41078267e-09  3.30298003e-09  4.59087959e-01  1.61533999e-07  1.14520532e-07  6.50000000e-01 
 6.60000000e-01  4.59087991e-01  3.06557799e-09  4.59087991e-01  4.59087991e-01  3.41078267e-09  3.30298003e-09  4.59087991e-01  1.61534014e-07  1.14520411e-07  6.60000000e-01 
 6.70000000e-01  4.59087971e-01  3.06557805e-09  4.59087971e-01  4.59087972e-01  3.41078267e-09  3.30297997e-09  4.59087972e-01  1.61534005e-07  1.14520212e-07  6.70000000e-01 
 6.80000000e-01  4.59087964e-01  3.06557799e-09  4.59087964e-01  4.59087964e-01  3.41078267e-09  3.30298003e-09  4.59087964e-01  1.61534001e-07  1.14520176e-07  6.80000000e-01 
 6.90000000e-01  4.59087957e-01  3.06557805e-09  4.59087957e-01  4.59087958e-01  3.41078267e-09  3.30297997e-09  4.59087958e-01  1.61533963e-07  1.14520120e-07  6.90000000e-01 
 7.00000000e-01  4.59087956e-01  3.06557799e-09  4.59087956e-01  4.59087956e-01  3.41078267e-09  3.30298003e-09  4.59087956e-01  1.61533970e-07  1.14520006e-07  7.00000000e-01 
 7.10000000e-01  4.59087966e-01  3.06557805e-09  4.59087966e-01  4.59087966e-01  3.41078267e-09  3.30298003e-09  4.59087966e-01  1.61533995e-07  1.14519892e-07  7.10000000e-01 
 7.20000000e-01  4.59087957e-01  3.06557805e-09  4.59087957e-01  4.59087957e-01  3.41078267e-09  3.30298003e-09  4.59087957e-01  1.61533982e-07  1.14519892e-07  7.20000000e-01 
 7.30000000e-01  4.59087977e-01  3.06557805e-09  4.59087977e-01  4.59087978e-01  3.41078267e-09  3.30298003e-09  4.59087978e-01  1.61534000e-07  1.14519871e-07  7.30000000e-01 
 7.40000000e-01  4.59087955e-01  3.06557805e-09  4.59087955e-01  4.59087955e-01  3.41078266e-09  3.30298003e-09  4.59087955e-01  1.61533974e-07  1.14519736e-07  7.40000000e-01 
 7.50000000e-01  4.59087992e-01  3.06557805e-09  4.59087992e-01  4.59087992e-01  3.41078267e-09  3.30298003e-09  4.59087992e-01  1.61534029e-07  1.14519729e-07  7.50000000e-01 
 7.60000000e-01  4.59087954e-01  3.06557805e-09  4.59087954e-01  4.59087954e-01  3.41078266e-09  3.30298003e-09  4.59087954e-01  1.61533985e-07  1.14519608e-07  7.60000000e-01 
 7.70000000e-01  4.59087965e-01  3.06557805e-09  4.59087965e-01  4.59087965e-01  3.41078267e-09  3.30298003e-09  4.59087965e-01  1.61533981e-07  1.14519544e-07  7.70000000e-01 
 7.80000000e-01  4.59087973e-01  3.06557805e-09  4.59087973e-01  4.59087973e-01  3.41078267e-09  3.30298003e-09  4.59087973e-01  1.61534000e-07  1.14519459e-07  7.80000000e-01 
 7.90000000e-01  4.59087961e-01  3.06557805e-09  4.59087961e-01  4.59087961e-01  3.41078267e-09  3.30298003e-09  4.59087961e-01  1.61533985e-07  1.14519295e-07  7.90000000e-01 
 8.00000000e-01  4.59087954e-01  3.06557805e-09  4.59087954e-01  4.59087954e-01  3.41078266e-09  3.30298003e-09  4.59087954e-01  1.61533964e-07  1.14519089e-07  8.00000000e-01 
 8.10000000e-01  4.59087962e-01  3.06557805e-09  4.59087962e-01  4.59087963e-01  3.41078267e-09  3.30298003e-09  4.59087962e-01  1.61533989e-07  1.14519111e-07  8.10000000e-01 
 8.20000000e-01  4.59087965e-01  3.06557805e-09  4.59087965e-01  4.59087965e-01  3.41078267e-09  3.30298003e-09  4.59087965e-01  1.61533988e-07  1.14519075e-07  8.20000000e-01 
 8.30000000e-01  4.59087949e-01  3.06557799e-09  4.59087949e-01  4.59087949e-01  3.41078266e-09  3.30298003e-09  4.59087949e-01  1.61533966e-07  1.14518912e-07  8.30000000e-01 
 8.40000000e-01  4.59087980e-01  3.06557805e-09  4.59087980e-01  4.59087981e-01  3.41078267e-09  3.30298003e-09  4.59087980e-01  1.61534003e-07  1.14518933e-07  8.40000000e-01 
 8.50000000e-01  4.59087972e-01  3.06557805e-09  4.59087972e-01  4.59087972e-01  3.41078267e-09  3.30298003e-09  4.59087972e-01  1.61533993e-07  1.14518819e-07  8.50000000e-01 
 8.60000000e-01  4.59087950e-01  3.06557805e-09  4.59087950e-01  4.59087950e-01  3.41078266e-09  3.30298003e-09  4.59087950e-01  1.61533960e-07  1.14518699e-07  8.60000000e-01 
 8.70000000e-01  4.59087942e-01  3.06557805e-09  4.59087942e-01  4.59087943e-01  3.41078266e-09  3.30298003e-09  4.59087942e-01  1.61533945e-07  1.14518578e-07  8.70000000e-01 
 8.80000000e-01  4.59087974e-01  3.06557805e-09  4.59087974e-01  4.59087974e-01  3.41078267e-09  3.30297997e-09  4.59087974e-01  1.61533978e-07  1.14518492e-07  8.80000000e-01 
 8.90000000e-01  4.59087979e-01  3.06557805e-09  4.59087979e-01  4.59087979e-01  3.41078267e-09  3.30298003e-09  4.59087979e-01  1.61534019e-07  1.14518677e-07  8.90000000e-01 
 9.00000000e-01  4.59087963e-01  3.06557805e-09  4.59087963e-01  4.59087963e-01  3.41078267e-09  3.30298003e-09  4.59087963e-01  1.61533996e-07  1.14518421e-07  9.00000000e-01 
 9.10000000e-01  4.59087947e-01  3.06557805e-09  4.59087947e-01  4.59087947e-01  3.41078266e-09  3.30297997e-09  4.59087947e-01  1.61533951e-07  1.14518144e-07  9.10000000e-01 
 9.20000000e-01  4.59087971e-01  3.06557805e-09  4.59087971e-01  4.59087971e-01  3.41078267e-09  3.30297997e-09  4.59087971e-01  1.61533984e-07  1.14518258e-07  9.20000000e-01 
 9.30000000e-01  4.59087935e-01  3.06557805e-09  4.59087935e-01  4.59087935e-01  3.41078266e-09  3.30298002e-09  4.59087935e-01  1.61533957e-07  1.14518187e-07  9.30000000e-01 
 9.40000000e-01  4.59087981e-01  3.06557805e-09  4.59087981e-01  4.59087981e-01  3.41078267e-09  3.30298003e-09  4.59087981e-01  1.61533986e-07  1.14518102e-07  9.40000000e-01 
 9.50000000e-01  4.59087975e-01  3.06557805e-09  4.59087975e-01  4.59087975e-01  3.41078267e-09  3.30298003e-09  4.59087975e-01  1.61534006e-07  1.14518009e-07  9.50000000e-01 
 9.60000000e-01  4.59087989e-01  3.06557805e-09  4.59087989e-01  4.59087989e-01  3.41078267e-09  3.30297997e-09  4.59087989e-01  1.61534022e-07  1.14517967e-07  9.60000000e-01 
 9.70000000e-01  4.59087977e-01  3.06557805e-09  4.59087977e-01  4.59087977e-01  3.41078267e-09  3.30298003e-09  4.59087977e-01  1.61534002e-07  1.14517832e-07  9.70000000e-01 
 9.80000000e-01  4.59087951e-01  3.06557805e-09  4.59087951e-01  4.59087951e-01  3.41078266e-09  3.30298003e-09  4.59087951e-01  1.61533957e-07  1.14517704e-07  9.80000000e-01 
 9.90000000e-01  4.59087962e-01  3.06557805e-09  4.59087962e-01  4.59087962e-01  3.41078267e-09  3.30298003e-09  4.59087962e-01  1.61533989e-07  1.14517604e-07  9.90000000e-01 
 1.00000000e+00  4.59087969e-01  3.06557805e-09  4.59087969e-01  4.59087969e-01  3.41078267e-09  3.30298003e-09  4.59087969e-01  1.61533991e-07  1.14517540e-07  1.00000000e+00 
 1.01000000e+00  4.59087968e-01  3.06557799e-09  4.59087968e-01  4.59087968e-01  3.41078267e-09  3.30298003e-09  4.59087968e-01  1.61533998e-07  1.14517498e-07  1.01000000e+00 
 1.02000000e+00  4.59087979e-01  3.06557799e-09  4.59087979e-01  4.59087979e-01  3.41078267e-09  3.30297997e-09  4.59087979e-01  1.61534002e-07  1.14517455e-07  1.02000000e+00 
 1.03000000e+00  4.59087953e-01  3.06557799e-09  4.59087953e-01  4.59087953e-01  3.41078266e-09  3.30298003e-09  4.59087953e-01  1.61533969e-07  1.14517213e-07  1.03000000e+00 
 1.04000000e+00  4.59087971e-01  3.06557805e-09  4.59087971e-01  4.59087971e-01  3.41078267e-09  3.30298003e-09  4.59087971e-01  1.61533975e-07  1.14517228e-07  1.04000000e+00 
 1.05000000e+00  4.59087952e-01  3.06557805e-09  4.59087952e-01  4.59087952e-01  3.41078266e-09  3.30297997e-09  4.59087952e-01  1.61533970e-07  1.14516972e-07  1.05000000e+00 
 1.06000000e+00  4.59087988e-01  3.06557805e-09  4.59087988e-01  4.59087988e-01  3.41078267e-09  3.30298003e-09  4.59087988e-01  1.61534016e-07  1.14516979e-07  1.06000000e+00 
 1.07000000e+00  4.59087969e-01  3.06557805e-09  4.59087969e-01  4.59087969e-01  3.41078267e-09  3.30298003e-09  4.59087969e-01  1.61533990e-07  1.14516936e-07  1.07000000e+00 
 1.08000000e+00  4.59087952e-01  3.06557805e-09  4.59087952e-01  4.59087952e-01  3.41078266e-09  3.30298003e-09  4.59087952e-01  1.61533969e-07  1.14516780e-07  1.08000000e+00 
 1.09000000e+00  4.59087951e-01  3.06557805e-09  4.59087951e-01  4.59087951e-01  3.41078266e-09  3.30297997e-09  4.59087951e-01  1.61533965e-07  1.14516681e-07  1.09000000e+00 
 1.10000000e+00  4.59087968e-01  3.06557805e-09  4.59087968e-01  4.59087968e-01  3.41078267e-09  3.30298003e-09  4.59087968e-01  1.61533992e-07  1.14516645e-07  1.10000000e+00 
