 v-sweep         v(b0)           v(b1)           v(b2)           v(b3)           v(b4)           v(b5)           v(b6)           i(vbias)        i(viout)        v(vout)        
 0.00000000e+00  3.21527865e-09  3.13393329e-09  3.33832472e-09  3.21041979e-09  4.57584050e-01  3.42936976e-09  4.57584050e-01  1.58716540e-07  1.13166162e-07  0.00000000e+00 
 1.00000000e-02  3.21527857e-09  3.13393331e-09  3.33832469e-09  3.21041976e-09  4.57584017e-01  3.42936979e-09  4.57584017e-01  1.58716505e-07  1.13165668e-07  1.00000000e-02 
 2.00000000e-02  3.21527863e-09  3.13393331e-09  3.33832469e-09  3.21041976e-09  4.57584023e-01  3.42936973e-09  4.57584023e-01  1.58716485e-07  1.13165323e-07  2.00000000e-02 
 3.00000000e-02  3.21527857e-09  3.13393325e-09  3.33832468e-09  3.21041976e-09  4.57584005e-01  3.42936974e-09  4.57584005e-01  1.58716481e-07  1.13164779e-07  3.00000000e-02 
 4.00000000e-02  3.21527863e-09  3.13393331e-09  3.33832469e-09  3.21041977e-09  4.57584044e-01  3.42936974e-09  4.57584044e-01  1.58716527e-07  1.13164652e-07  4.00000000e-02 
 5.00000000e-02  3.21527863e-09  3.13393331e-09  3.33832469e-09  3.21041981e-09  4.57584038e-01  3.42936974e-09  4.57584038e-01  1.58716520e-07  1.13164237e-07  5.00000000e-02 
 6.00000000e-02  3.21527863e-09  3.13393325e-09  3.33832474e-09  3.21041976e-09  4.57584015e-01  3.42936974e-09  4.57584015e-01  1.58716491e-07  1.13163829e-07  6.00000000e-02 
 7.00000000e-02  3.21527863e-09  3.13393326e-09  3.33832469e-09  3.21041976e-09  4.57584017e-01  3.42936974e-09  4.57584017e-01  1.58716484e-07  1.13163463e-07  7.00000000e-02 
 8.00000000e-02  3.21527857e-09  3.13393326e-09  3.33832469e-09  3.21041982e-09  4.57584051e-01  3.42936974e-09  4.57584052e-01  1.58716554e-07  1.13163363e-07  8.00000000e-02 
 9.00000000e-02  3.21527857e-09  3.13393331e-09  3.33832469e-09  3.21041976e-09  4.57584029e-01  3.42936974e-09  4.57584029e-01  1.58716505e-07  1.13163058e-07  9.00000000e-02 
 1.00000000e-01  3.21527857e-09  3.13393331e-09  3.33832474e-09  3.21041976e-09  4.57584008e-01  3.42936974e-09  4.57584008e-01  1.58716467e-07  1.13162635e-07  1.00000000e-01 
 1.10000000e-01  3.21527863e-09  3.13393331e-09  3.33832468e-09  3.21041977e-09  4.57583999e-01  3.42936974e-09  4.57583999e-01  1.58716451e-07  1.13162258e-07  1.10000000e-01 
 1.20000000e-01  3.21527857e-09  3.13393331e-09  3.33832469e-09  3.21041981e-09  4.57584013e-01  3.42936974e-09  4.57584013e-01  1.58716486e-07  1.13162092e-07  1.20000000e-01 
 1.30000000e-01  3.21527857e-09  3.13393331e-09  3.33832469e-09  3.21041981e-09  4.57584021e-01  3.42936974e-09  4.57584021e-01  1.58716499e-07  1.13161896e-07  1.30000000e-01 
 1.40000000e-01  3.21527863e-09  3.13393325e-09  3.33832469e-09  3.21041981e-09  4.57584015e-01  3.42936974e-09  4.57584015e-01  1.58716488e-07  1.13161651e-07  1.40000000e-01 
 1.50000000e-01  3.21527863e-09  3.13393331e-09  3.33832469e-09  3.21041976e-09  4.57584021e-01  3.42936974e-09  4.57584021e-01  1.58716494e-07  1.13161416e-07  1.50000000e-01 
 1.60000000e-01  3.21527863e-09  3.13393331e-09  3.33832469e-09  3.21041976e-09  4.57584031e-01  3.42936980e-09  4.57584031e-01  1.58716517e-07  1.13161214e-07  1.60000000e-01 
 1.70000000e-01  3.21527863e-09  3.13393331e-09  3.33832469e-09  3.21041976e-09  4.57584025e-01  3.42936973e-09  4.57584026e-01  1.58716502e-07  1.13160896e-07  1.70000000e-01 
 1.80000000e-01  3.21527857e-09  3.13393331e-09  3.33832469e-09  3.21041976e-09  4.57584016e-01  3.42936974e-09  4.57584016e-01  1.58716489e-07  1.13160761e-07  1.80000000e-01 
 1.90000000e-01  3.21527863e-09  3.13393326e-09  3.33832474e-09  3.21041976e-09  4.57584018e-01  3.42936974e-09  4.57584018e-01  1.58716496e-07  1.13160565e-07  1.90000000e-01 
 2.00000000e-01  3.21527863e-09  3.13393331e-09  3.33832469e-09  3.21041981e-09  4.57584027e-01  3.42936974e-09  4.57584027e-01  1.58716500e-07  1.13160402e-07  2.00000000e-01 
 2.10000000e-01  3.21527863e-09  3.13393331e-09  3.33832468e-09  3.21041975e-09  4.57583999e-01  3.42936979e-09  4.57583999e-01  1.58716459e-07  1.13160187e-07  2.10000000e-01 
 2.20000000e-01  3.21527863e-09  3.13393325e-09  3.33832468e-09  3.21041982e-09  4.57583992e-01  3.42936978e-09  4.57583993e-01  1.58716446e-07  1.13160027e-07  2.20000000e-01 
 2.30000000e-01  3.21527857e-09  3.13393331e-09  3.33832469e-09  3.21041981e-09  4.57584038e-01  3.42936973e-09  4.57584038e-01  1.58716522e-07  1.13159960e-07  2.30000000e-01 
 2.40000000e-01  3.21527857e-09  3.13393326e-09  3.33832469e-09  3.21041981e-09  4.57584023e-01  3.42936974e-09  4.57584023e-01  1.58716501e-07  1.13159793e-07  2.40000000e-01 
 2.50000000e-01  3.21527857e-09  3.13393326e-09  3.33832469e-09  3.21041982e-09  4.57584050e-01  3.42936974e-09  4.57584050e-01  1.58716538e-07  1.13159636e-07  2.50000000e-01 
 2.60000000e-01  3.21527857e-09  3.13393326e-09  3.33832469e-09  3.21041981e-09  4.57584039e-01  3.42936974e-09  4.57584039e-01  1.58716509e-07  1.13159608e-07  2.60000000e-01 
 2.70000000e-01  3.21527863e-09  3.13393331e-09  3.33832469e-09  3.21041976e-09  4.57584027e-01  3.42936974e-09  4.57584027e-01  1.58716502e-07  1.13159352e-07  2.70000000e-01 
 2.80000000e-01  3.21527863e-09  3.13393331e-09  3.33832474e-09  3.21041981e-09  4.57583994e-01  3.42936979e-09  4.57583995e-01  1.58716453e-07  1.13159173e-07  2.80000000e-01 
 2.90000000e-01  3.21527857e-09  3.13393326e-09  3.33832469e-09  3.21041981e-09  4.57584040e-01  3.42936978e-09  4.57584040e-01  1.58716523e-07  1.13159050e-07  2.90000000e-01 
 3.00000000e-01  3.21527857e-09  3.13393331e-09  3.33832468e-09  3.21041981e-09  4.57583997e-01  3.42936973e-09  4.57583997e-01  1.58716458e-07  1.13158826e-07  3.00000000e-01 
 3.10000000e-01  3.21527863e-09  3.13393331e-09  3.33832474e-09  3.21041976e-09  4.57584030e-01  3.42936974e-09  4.57584030e-01  1.58716505e-07  1.13158801e-07  3.10000000e-01 
 3.20000000e-01  3.21527857e-09  3.13393325e-09  3.33832469e-09  3.21041981e-09  4.57584012e-01  3.42936974e-09  4.57584012e-01  1.58716475e-07  1.13158720e-07  3.20000000e-01 
 3.30000000e-01  3.21527857e-09  3.13393331e-09  3.33832469e-09  3.21041976e-09  4.57584016e-01  3.42936974e-09  4.57584016e-01  1.58716486e-07  1.13158592e-07  3.30000000e-01 
 3.40000000e-01  3.21527863e-09  3.13393331e-09  3.33832468e-09  3.21041981e-09  4.57584002e-01  3.42936974e-09  4.57584002e-01  1.58716451e-07  1.13158393e-07  3.40000000e-01 
 3.50000000e-01  3.21527857e-09  3.13393331e-09  3.33832469e-09  3.21041981e-09  4.57584024e-01  3.42936974e-09  4.57584024e-01  1.58716491e-07  1.13158396e-07  3.50000000e-01 
 3.60000000e-01  3.21527857e-09  3.13393331e-09  3.33832469e-09  3.21041981e-09  4.57584032e-01  3.42936974e-09  4.57584032e-01  1.58716505e-07  1.13158386e-07  3.60000000e-01 
 3.70000000e-01  3.21527863e-09  3.13393331e-09  3.33832469e-09  3.21041981e-09  4.57584016e-01  3.42936979e-09  4.57584016e-01  1.58716488e-07  1.13158144e-07  3.70000000e-01 
 3.80000000e-01  3.21527857e-09  3.13393331e-09  3.33832469e-09  3.21041976e-09  4.57584013e-01  3.42936978e-09  4.57584013e-01  1.58716478e-07  1.13158070e-07  3.80000000e-01 
 3.90000000e-01  3.21527863e-09  3.13393326e-09  3.33832469e-09  3.21041981e-09  4.57584041e-01  3.42936973e-09  4.57584042e-01  1.58716523e-07  1.13158006e-07  3.90000000e-01 
 4.00000000e-01  3.21527863e-09  3.13393331e-09  3.33832469e-09  3.21041976e-09  4.57584021e-01  3.42936974e-09  4.57584021e-01  1.58716484e-07  1.13157846e-07  4.00000000e-01 
 4.10000000e-01  3.21527857e-09  3.13393331e-09  3.33832468e-09  3.21041975e-09  4.57583991e-01  3.42936974e-09  4.57583991e-01  1.58716456e-07  1.13157718e-07  4.10000000e-01 
 4.20000000e-01  3.21527857e-09  3.13393325e-09  3.33832469e-09  3.21041977e-09  4.57584011e-01  3.42936979e-09  4.57584011e-01  1.58716471e-07  1.13157547e-07  4.20000000e-01 
 4.30000000e-01  3.21527863e-09  3.13393326e-09  3.33832469e-09  3.21041975e-09  4.57584019e-01  3.42936973e-09  4.57584019e-01  1.58716492e-07  1.13157576e-07  4.30000000e-01 
 4.40000000e-01  3.21527863e-09  3.13393331e-09  3.33832474e-09  3.21041977e-09  4.57584022e-01  3.42936974e-09  4.57584022e-01  1.58716501e-07  1.13157459e-07  4.40000000e-01 
 4.50000000e-01  3.21527857e-09  3.13393331e-09  3.33832469e-09  3.21041981e-09  4.57584044e-01  3.42936974e-09  4.57584044e-01  1.58716527e-07  1.13157398e-07  4.50000000e-01 
 4.60000000e-01  3.21527863e-09  3.13393325e-09  3.33832468e-09  3.21041981e-09  4.57584002e-01  3.42936974e-09  4.57584002e-01  1.58716451e-07  1.13157139e-07  4.60000000e-01 
 4.70000000e-01  3.21527857e-09  3.13393325e-09  3.33832469e-09  3.21041976e-09  4.57584013e-01  3.42936974e-09  4.57584013e-01  1.58716473e-07  1.13157228e-07  4.70000000e-01 
 4.80000000e-01  3.21527857e-09  3.13393331e-09  3.33832468e-09  3.21041981e-09  4.57584007e-01  3.42936974e-09  4.57584007e-01  1.58716467e-07  1.13157043e-07  4.80000000e-01 
 4.90000000e-01  3.21527857e-09  3.13393326e-09  3.33832469e-09  3.21041976e-09  4.57584050e-01  3.42936980e-09  4.57584050e-01  1.58716542e-07  1.13157174e-07  4.90000000e-01 
 5.00000000e-01  3.21527863e-09  3.13393331e-09  3.33832468e-09  3.21041981e-09  4.57584007e-01  3.42936972e-09  4.57584007e-01  1.58716470e-07  1.13156894e-07  5.00000000e-01 
 5.10000000e-01  3.21527863e-09  3.13393331e-09  3.33832469e-09  3.21041976e-09  4.57584028e-01  3.42936974e-09  4.57584028e-01  1.58716506e-07  1.13156819e-07  5.10000000e-01 
 5.20000000e-01  3.21527863e-09  3.13393326e-09  3.33832469e-09  3.21041981e-09  4.57584021e-01  3.42936974e-09  4.57584022e-01  1.58716484e-07  1.13156727e-07  5.20000000e-01 
 5.30000000e-01  3.21527863e-09  3.13393331e-09  3.33832469e-09  3.21041981e-09  4.57584036e-01  3.42936974e-09  4.57584036e-01  1.58716510e-07  1.13156645e-07  5.30000000e-01 
 5.40000000e-01  3.21527857e-09  3.13393331e-09  3.33832469e-09  3.21041976e-09  4.57584036e-01  3.42936974e-09  4.57584036e-01  1.58716502e-07  1.13156638e-07  5.40000000e-01 
 5.50000000e-01  3.21527857e-09  3.13393331e-09  3.33832469e-09  3.21041976e-09  4.57584023e-01  3.42936980e-09  4.57584023e-01  1.58716496e-07  1.13156496e-07  5.50000000e-01 
 5.60000000e-01  3.21527863e-09  3.13393331e-09  3.33832468e-09  3.21041975e-09  4.57583999e-01  3.42936978e-09  4.57583999e-01  1.58716453e-07  1.13156304e-07  5.60000000e-01 
 5.70000000e-01  3.21527863e-09  3.13393325e-09  3.33832468e-09  3.21041977e-09  4.57584010e-01  3.42936973e-09  4.57584010e-01  1.58716491e-07  1.13156361e-07  5.70000000e-01 
 5.80000000e-01  3.21527863e-09  3.13393331e-09  3.33832468e-09  3.21041981e-09  4.57584003e-01  3.42936974e-09  4.57584003e-01  1.58716456e-07  1.13156176e-07  5.80000000e-01 
 5.90000000e-01  3.21527863e-09  3.13393331e-09  3.33832469e-09  3.21041976e-09  4.57584037e-01  3.42936974e-09  4.57584037e-01  1.58716511e-07  1.13156254e-07  5.90000000e-01 
 6.00000000e-01  3.21527863e-09  3.13393326e-09  3.33832469e-09  3.21041976e-09  4.57584031e-01  3.42936974e-09  4.57584031e-01  1.58716495e-07  1.13156197e-07  6.00000000e-01 
 6.10000000e-01  3.21527863e-09  3.13393326e-09  3.33832469e-09  3.21041981e-09  4.57584018e-01  3.42936974e-09  4.57584018e-01  1.58716490e-07  1.13156105e-07  6.10000000e-01 
 6.20000000e-01  3.21527863e-09  3.13393331e-09  3.33832469e-09  3.21041976e-09  4.57584015e-01  3.42936974e-09  4.57584015e-01  1.58716482e-07  1.13156034e-07  6.20000000e-01 
 6.30000000e-01  3.21527857e-09  3.13393331e-09  3.33832469e-09  3.21041981e-09  4.57584042e-01  3.42936980e-09  4.57584042e-01  1.58716520e-07  1.13155991e-07  6.30000000e-01 
 6.40000000e-01  3.21527863e-09  3.13393331e-09  3.33832469e-09  3.21041981e-09  4.57584020e-01  3.42936973e-09  4.57584020e-01  1.58716483e-07  1.13155807e-07  6.40000000e-01 
 6.50000000e-01  3.21527857e-09  3.13393331e-09  3.33832469e-09  3.21041981e-09  4.57584028e-01  3.42936974e-09  4.57584028e-01  1.58716504e-07  1.13155792e-07  6.50000000e-01 
 6.60000000e-01  3.21527857e-09  3.13393331e-09  3.33832469e-09  3.21041976e-09  4.57584019e-01  3.42936974e-09  4.57584019e-01  1.58716489e-07  1.13155693e-07  6.60000000e-01 
 6.70000000e-01  3.21527857e-09  3.13393325e-09  3.33832468e-09  3.21041981e-09  4.57584004e-01  3.42936974e-09  4.57584004e-01  1.58716461e-07  1.13155586e-07  6.70000000e-01 
 6.80000000e-01  3.21527863e-09  3.13393331e-09  3.33832469e-09  3.21041981e-09  4.57584020e-01  3.42936974e-09  4.57584020e-01  1.58716489e-07  1.13155544e-07  6.80000000e-01 
 6.90000000e-01  3.21527857e-09  3.13393331e-09  3.33832468e-09  3.21041981e-09  4.57584010e-01  3.42936974e-09  4.57584010e-01  1.58716476e-07  1.13155330e-07  6.90000000e-01 
 7.00000000e-01  3.21527857e-09  3.13393331e-09  3.33832469e-09  3.21041976e-09  4.57584034e-01  3.42936974e-09  4.57584034e-01  1.58716516e-07  1.13155423e-07  7.00000000e-01 
 7.10000000e-01  3.21527857e-09  3.13393331e-09  3.33832469e-09  3.21041981e-09  4.57584016e-01  3.42936974e-09  4.57584016e-01  1.58716496e-07  1.13155281e-07  7.10000000e-01 
 7.20000000e-01  3.21527857e-09  3.13393331e-09  3.33832469e-09  3.21041981e-09  4.57584029e-01  3.42936974e-09  4.57584029e-01  1.58716511e-07  1.13155238e-07  7.20000000e-01 
 7.30000000e-01  3.21527857e-09  3.13393331e-09  3.33832468e-09  3.21041981e-09  4.57584010e-01  3.42936974e-09  4.57584010e-01  1.58716479e-07  1.13155110e-07  7.30000000e-01 
 7.40000000e-01  3.21527863e-09  3.13393325e-09  3.33832469e-09  3.21041981e-09  4.57584015e-01  3.42936974e-09  4.57584016e-01  1.58716486e-07  1.13155004e-07  7.40000000e-01 
 7.50000000e-01  3.21527857e-09  3.13393331e-09  3.33832469e-09  3.21041976e-09  4.57584030e-01  3.42936974e-09  4.57584030e-01  1.58716503e-07  1.13155046e-07  7.50000000e-01 
 7.60000000e-01  3.21527863e-09  3.13393331e-09  3.33832469e-09  3.21041981e-09  4.57584028e-01  3.42936980e-09  4.57584028e-01  1.58716498e-07  1.13154833e-07  7.60000000e-01 
 7.70000000e-01  3.21527857e-09  3.13393326e-09  3.33832469e-09  3.21041976e-09  4.57584021e-01  3.42936973e-09  4.57584021e-01  1.58716494e-07  1.13154826e-07  7.70000000e-01 
 7.80000000e-01  3.21527857e-09  3.13393331e-09  3.33832469e-09  3.21041981e-09  4.57584022e-01  3.42936974e-09  4.57584022e-01  1.58716494e-07  1.13154790e-07  7.80000000e-01 
 7.90000000e-01  3.21527857e-09  3.13393331e-09  3.33832468e-09  3.21041975e-09  4.57583988e-01  3.42936974e-09  4.57583988e-01  1.58716438e-07  1.13154549e-07  7.90000000e-01 
 8.00000000e-01  3.21527863e-09  3.13393331e-09  3.33832468e-09  3.21041977e-09  4.57583999e-01  3.42936974e-09  4.57583999e-01  1.58716447e-07  1.13154385e-07  8.00000000e-01 
 8.10000000e-01  3.21527857e-09  3.13393331e-09  3.33832469e-09  3.21041975e-09  4.57584039e-01  3.42936974e-09  4.57584039e-01  1.58716504e-07  1.13154421e-07  8.10000000e-01 
 8.20000000e-01  3.21527857e-09  3.13393331e-09  3.33832474e-09  3.21041982e-09  4.57584006e-01  3.42936974e-09  4.57584006e-01  1.58716466e-07  1.13154343e-07  8.20000000e-01 
 8.30000000e-01  3.21527863e-09  3.13393326e-09  3.33832469e-09  3.21041975e-09  4.57584017e-01  3.42936979e-09  4.57584017e-01  1.58716486e-07  1.13154279e-07  8.30000000e-01 
 8.40000000e-01  3.21527863e-09  3.13393325e-09  3.33832468e-09  3.21041977e-09  4.57584005e-01  3.42936972e-09  4.57584005e-01  1.58716470e-07  1.13154073e-07  8.40000000e-01 
 8.50000000e-01  3.21527863e-09  3.13393326e-09  3.33832469e-09  3.21041981e-09  4.57584041e-01  3.42936975e-09  4.57584041e-01  1.58716520e-07  1.13154201e-07  8.50000000e-01 
 8.60000000e-01  3.21527863e-09  3.13393325e-09  3.33832469e-09  3.21041981e-09  4.57584014e-01  3.42936974e-09  4.57584014e-01  1.58716471e-07  1.13154087e-07  8.60000000e-01 
 8.70000000e-01  3.21527857e-09  3.13393331e-09  3.33832469e-09  3.21041976e-09  4.57584044e-01  3.42936974e-09  4.57584044e-01  1.58716518e-07  1.13154002e-07  8.70000000e-01 
 8.80000000e-01  3.21527863e-09  3.13393331e-09  3.33832469e-09  3.21041976e-09  4.57584012e-01  3.42936974e-09  4.57584012e-01  1.58716484e-07  1.13153824e-07  8.80000000e-01 
 8.90000000e-01  3.21527863e-09  3.13393331e-09  3.33832469e-09  3.21041976e-09  4.57584033e-01  3.42936974e-09  4.57584033e-01  1.58716504e-07  1.13153888e-07  8.90000000e-01 
 9.00000000e-01  3.21527863e-09  3.13393331e-09  3.33832468e-09  3.21041981e-09  4.57584003e-01  3.42936974e-09  4.57584003e-01  1.58716470e-07  1.13153654e-07  9.00000000e-01 
 9.10000000e-01  3.21527857e-09  3.13393331e-09  3.33832468e-09  3.21041975e-09  4.57583995e-01  3.42936974e-09  4.57583996e-01  1.58716451e-07  1.13153455e-07  9.10000000e-01 
 9.20000000e-01  3.21527857e-09  3.13393325e-09  3.33832468e-09  3.21041977e-09  4.57584002e-01  3.42936974e-09  4.57584002e-01  1.58716468e-07  1.13153497e-07  9.20000000e-01 
 9.30000000e-01  3.21527863e-09  3.13393331e-09  3.33832468e-09  3.21041981e-09  4.57583999e-01  3.42936974e-09  4.57583999e-01  1.58716476e-07  1.13153483e-07  9.30000000e-01 
 9.40000000e-01  3.21527863e-09  3.13393331e-09  3.33832469e-09  3.21041976e-09  4.57584021e-01  3.42936979e-09  4.57584021e-01  1.58716485e-07  1.13153376e-07  9.40000000e-01 
 9.50000000e-01  3.21527863e-09  3.13393331e-09  3.33832469e-09  3.21041981e-09  4.57584019e-01  3.42936973e-09  4.57584019e-01  1.58716499e-07  1.13153384e-07  9.50000000e-01 
 9.60000000e-01  3.21527863e-09  3.13393325e-09  3.33832468e-09  3.21041981e-09  4.57584001e-01  3.42936974e-09  4.57584001e-01  1.58716456e-07  1.13153114e-07  9.60000000e-01 
 9.70000000e-01  3.21527857e-09  3.13393331e-09  3.33832469e-09  3.21041981e-09  4.57584036e-01  3.42936974e-09  4.57584036e-01  1.58716516e-07  1.13153177e-07  9.70000000e-01 
 9.80000000e-01  3.21527863e-09  3.13393331e-09  3.33832469e-09  3.21041981e-09  4.57584029e-01  3.42936974e-09  4.57584029e-01  1.58716498e-07  1.13153021e-07  9.80000000e-01 
 9.90000000e-01  3.21527863e-09  3.13393325e-09  3.33832468e-09  3.21041976e-09  4.57584009e-01  3.42936974e-09  4.57584009e-01  1.58716475e-07  1.13152851e-07  9.90000000e-01 
 1.00000000e+00  3.21527857e-09  3.13393331e-09  3.33832469e-09  3.21041977e-09  4.57584042e-01  3.42936974e-09  4.57584042e-01  1.58716526e-07  1.13152829e-07  1.00000000e+00 
 1.01000000e+00  3.21527863e-09  3.13393331e-09  3.33832468e-09  3.21041975e-09  4.57584005e-01  3.42936974e-09  4.57584005e-01  1.58716469e-07  1.13152687e-07  1.01000000e+00 
 1.02000000e+00  3.21527863e-09  3.13393331e-09  3.33832468e-09  3.21041977e-09  4.57584008e-01  3.42936974e-09  4.57584008e-01  1.58716474e-07  1.13152637e-07  1.02000000e+00 
 1.03000000e+00  3.21527863e-09  3.13393326e-09  3.33832469e-09  3.21041981e-09  4.57584019e-01  3.42936974e-09  4.57584019e-01  1.58716484e-07  1.13152623e-07  1.03000000e+00 
 1.04000000e+00  3.21527863e-09  3.13393331e-09  3.33832469e-09  3.21041976e-09  4.57584020e-01  3.42936979e-09  4.57584020e-01  1.58716491e-07  1.13152453e-07  1.04000000e+00 
 1.05000000e+00  3.21527863e-09  3.13393326e-09  3.33832469e-09  3.21041976e-09  4.57584028e-01  3.42936973e-09  4.57584028e-01  1.58716491e-07  1.13152375e-07  1.05000000e+00 
 1.06000000e+00  3.21527863e-09  3.13393331e-09  3.33832469e-09  3.21041976e-09  4.57584021e-01  3.42936974e-09  4.57584021e-01  1.58716495e-07  1.13152318e-07  1.06000000e+00 
 1.07000000e+00  3.21527857e-09  3.13393331e-09  3.33832468e-09  3.21041975e-09  4.57583993e-01  3.42936974e-09  4.57583993e-01  1.58716448e-07  1.13152140e-07  1.07000000e+00 
 1.08000000e+00  3.21527857e-09  3.13393325e-09  3.33832468e-09  3.21041977e-09  4.57584010e-01  3.42936974e-09  4.57584010e-01  1.58716477e-07  1.13152041e-07  1.08000000e+00 
 1.09000000e+00  3.21527863e-09  3.13393326e-09  3.33832469e-09  3.21041975e-09  4.57584025e-01  3.42936974e-09  4.57584025e-01  1.58716506e-07  1.13152019e-07  1.09000000e+00 
 1.10000000e+00  3.21527857e-09  3.13393325e-09  3.33832468e-09  3.21041977e-09  4.57584008e-01  3.42936974e-09  4.57584008e-01  1.58716467e-07  1.13151842e-07  1.10000000e+00 
