 v-sweep         v(b0)           v(b1)           v(b2)           v(b3)           v(b4)           v(b5)           v(b6)           i(vbias)        i(viout)        v(vout)        
 0.00000000e+00  3.21470107e-09  3.38706901e-09  4.58262900e-01  3.35013522e-09  3.35118716e-09  3.42908326e-09  3.55139530e-09  1.57976775e-07  5.85519240e-09  0.00000000e+00 
 1.00000000e-02  3.21470104e-09  3.38706903e-09  4.58262894e-01  3.35013513e-09  3.35118719e-09  3.42908323e-09  3.55139538e-09  1.57976760e-07  5.85487714e-09  1.00000000e-02 
 2.00000000e-02  3.21470110e-09  3.38706898e-09  4.58262894e-01  3.35013514e-09  3.35118713e-09  3.42908329e-09  3.55139532e-09  1.57976756e-07  5.85430526e-09  2.00000000e-02 
 3.00000000e-02  3.21470104e-09  3.38706903e-09  4.58262892e-01  3.35013519e-09  3.35118715e-09  3.42908323e-09  3.55139532e-09  1.57976765e-07  5.85404680e-09  3.00000000e-02 
 4.00000000e-02  3.21470104e-09  3.38706903e-09  4.58262890e-01  3.35013518e-09  3.35118719e-09  3.42908323e-09  3.55139532e-09  1.57976760e-07  5.85369841e-09  4.00000000e-02 
 5.00000000e-02  3.21470104e-09  3.38706903e-09  4.58262895e-01  3.35013514e-09  3.35118719e-09  3.42908329e-09  3.55139532e-09  1.57976770e-07  5.85342130e-09  5.00000000e-02 
 6.00000000e-02  3.21470104e-09  3.38706898e-09  4.58262894e-01  3.35013519e-09  3.35118719e-09  3.42908329e-09  3.55139538e-09  1.57976767e-07  5.85314108e-09  6.00000000e-02 
 7.00000000e-02  3.21470104e-09  3.38706903e-09  4.58262885e-01  3.35013518e-09  3.35118713e-09  3.42908329e-09  3.55139532e-09  1.57976735e-07  5.85278537e-09  7.00000000e-02 
 8.00000000e-02  3.21470110e-09  3.38706903e-09  4.58262916e-01  3.35013514e-09  3.35118715e-09  3.42908329e-09  3.55139533e-09  1.57976783e-07  5.85237547e-09  8.00000000e-02 
 9.00000000e-02  3.21470110e-09  3.38706897e-09  4.58262885e-01  3.35013519e-09  3.35118719e-09  3.42908329e-09  3.55139538e-09  1.57976747e-07  5.85213478e-09  9.00000000e-02 
 1.00000000e-01  3.21470110e-09  3.38706905e-09  4.58262904e-01  3.35013518e-09  3.35118714e-09  3.42908329e-09  3.55139532e-09  1.57976762e-07  5.85190563e-09  1.00000000e-01 
 1.10000000e-01  3.21470110e-09  3.38706903e-09  4.58262909e-01  3.35013520e-09  3.35118715e-09  3.42908329e-09  3.55139538e-09  1.57976787e-07  5.85161164e-09  1.10000000e-01 
 1.20000000e-01  3.21470104e-09  3.38706898e-09  4.58262898e-01  3.35013518e-09  3.35118719e-09  3.42908329e-09  3.55139532e-09  1.57976781e-07  5.85149973e-09  1.20000000e-01 
 1.30000000e-01  3.21470110e-09  3.38706903e-09  4.58262908e-01  3.35013520e-09  3.35118719e-09  3.42908329e-09  3.55139538e-09  1.57976772e-07  5.85122173e-09  1.30000000e-01 
 1.40000000e-01  3.21470104e-09  3.38706903e-09  4.58262909e-01  3.35013518e-09  3.35118714e-09  3.42908329e-09  3.55139532e-09  1.57976792e-07  5.85096149e-09  1.40000000e-01 
 1.50000000e-01  3.21470104e-09  3.38706903e-09  4.58262914e-01  3.35013520e-09  3.35118721e-09  3.42908329e-09  3.55139532e-09  1.57976775e-07  5.85074922e-09  1.50000000e-01 
 1.60000000e-01  3.21470110e-09  3.38706903e-09  4.58262916e-01  3.35013513e-09  3.35118719e-09  3.42908329e-09  3.55139533e-09  1.57976790e-07  5.85061066e-09  1.60000000e-01 
 1.70000000e-01  3.21470110e-09  3.38706903e-09  4.58262895e-01  3.35013520e-09  3.35118719e-09  3.42908323e-09  3.55139532e-09  1.57976780e-07  5.85035842e-09  1.70000000e-01 
 1.80000000e-01  3.21470110e-09  3.38706903e-09  4.58262906e-01  3.35013518e-09  3.35118719e-09  3.42908323e-09  3.55139532e-09  1.57976759e-07  5.85034599e-09  1.80000000e-01 
 1.90000000e-01  3.21470104e-09  3.38706903e-09  4.58262891e-01  3.35013520e-09  3.35118713e-09  3.42908323e-09  3.55139532e-09  1.57976754e-07  5.85000492e-09  1.90000000e-01 
 2.00000000e-01  3.21470110e-09  3.38706903e-09  4.58262884e-01  3.35013518e-09  3.35118715e-09  3.42908329e-09  3.55139532e-09  1.57976748e-07  5.84991255e-09  2.00000000e-01 
 2.10000000e-01  3.21470110e-09  3.38706903e-09  4.58262904e-01  3.35013520e-09  3.35118719e-09  3.42908329e-09  3.55139532e-09  1.57976779e-07  5.84970117e-09  2.10000000e-01 
 2.20000000e-01  3.21470104e-09  3.38706903e-09  4.58262899e-01  3.35013518e-09  3.35118719e-09  3.42908329e-09  3.55139532e-09  1.57976759e-07  5.84953597e-09  2.20000000e-01 
 2.30000000e-01  3.21470104e-09  3.38706903e-09  4.58262887e-01  3.35013520e-09  3.35118713e-09  3.42908329e-09  3.55139538e-09  1.57976764e-07  5.84951820e-09  2.30000000e-01 
 2.40000000e-01  3.21470104e-09  3.38706898e-09  4.58262899e-01  3.35013518e-09  3.35118715e-09  3.42908323e-09  3.55139538e-09  1.57976745e-07  5.84920201e-09  2.40000000e-01 
 2.50000000e-01  3.21470104e-09  3.38706903e-09  4.58262888e-01  3.35013520e-09  3.35118719e-09  3.42908323e-09  3.55139532e-09  1.57976760e-07  5.84927662e-09  2.50000000e-01 
 2.60000000e-01  3.21470110e-09  3.38706903e-09  4.58262912e-01  3.35013518e-09  3.35118714e-09  3.42908323e-09  3.55139538e-09  1.57976784e-07  5.84912918e-09  2.60000000e-01 
 2.70000000e-01  3.21470104e-09  3.38706903e-09  4.58262883e-01  3.35013514e-09  3.35118715e-09  3.42908323e-09  3.55139532e-09  1.57976748e-07  5.84885917e-09  2.70000000e-01 
 2.80000000e-01  3.21470104e-09  3.38706903e-09  4.58262894e-01  3.35013513e-09  3.35118719e-09  3.42908323e-09  3.55139532e-09  1.57976741e-07  5.84879878e-09  2.80000000e-01 
 2.90000000e-01  3.21470104e-09  3.38706903e-09  4.58262898e-01  3.35013513e-09  3.35118714e-09  3.42908329e-09  3.55139532e-09  1.57976762e-07  5.84878990e-09  2.90000000e-01 
 3.00000000e-01  3.21470110e-09  3.38706898e-09  4.58262904e-01  3.35013519e-09  3.35118720e-09  3.42908323e-09  3.55139538e-09  1.57976766e-07  5.84857673e-09  3.00000000e-01 
 3.10000000e-01  3.21470110e-09  3.38706903e-09  4.58262918e-01  3.35013518e-09  3.35118719e-09  3.42908323e-09  3.55139533e-09  1.57976793e-07  5.84844173e-09  3.10000000e-01 
 3.20000000e-01  3.21470104e-09  3.38706903e-09  4.58262896e-01  3.35013514e-09  3.35118719e-09  3.42908329e-09  3.55139538e-09  1.57976757e-07  5.84848436e-09  3.20000000e-01 
 3.30000000e-01  3.21470104e-09  3.38706903e-09  4.58262894e-01  3.35013513e-09  3.35118719e-09  3.42908323e-09  3.55139532e-09  1.57976748e-07  5.84817172e-09  3.30000000e-01 
 3.40000000e-01  3.21470104e-09  3.38706903e-09  4.58262885e-01  3.35013519e-09  3.35118713e-09  3.42908329e-09  3.55139532e-09  1.57976739e-07  5.84821791e-09  3.40000000e-01 
 3.50000000e-01  3.21470110e-09  3.38706898e-09  4.58262896e-01  3.35013518e-09  3.35118715e-09  3.42908329e-09  3.55139532e-09  1.57976749e-07  5.84817883e-09  3.50000000e-01 
 3.60000000e-01  3.21470104e-09  3.38706903e-09  4.58262900e-01  3.35013520e-09  3.35118719e-09  3.42908323e-09  3.55139532e-09  1.57976763e-07  5.84799764e-09  3.60000000e-01 
 3.70000000e-01  3.21470110e-09  3.38706903e-09  4.58262880e-01  3.35013518e-09  3.35118719e-09  3.42908329e-09  3.55139532e-09  1.57976732e-07  5.84788751e-09  3.70000000e-01 
 3.80000000e-01  3.21470104e-09  3.38706903e-09  4.58262894e-01  3.35013514e-09  3.35118713e-09  3.42908329e-09  3.55139532e-09  1.57976740e-07  5.84777737e-09  3.80000000e-01 
 3.90000000e-01  3.21470110e-09  3.38706903e-09  4.58262906e-01  3.35013519e-09  3.35118715e-09  3.42908323e-09  3.55139538e-09  1.57976761e-07  5.84780935e-09  3.90000000e-01 
 4.00000000e-01  3.21470104e-09  3.38706903e-09  4.58262916e-01  3.35013518e-09  3.35118719e-09  3.42908329e-09  3.55139533e-09  1.57976794e-07  5.84769211e-09  4.00000000e-01 
 4.10000000e-01  3.21470110e-09  3.38706903e-09  4.58262905e-01  3.35013514e-09  3.35118719e-09  3.42908329e-09  3.55139538e-09  1.57976780e-07  5.84765303e-09  4.10000000e-01 
 4.20000000e-01  3.21470104e-09  3.38706903e-09  4.58262898e-01  3.35013513e-09  3.35118719e-09  3.42908323e-09  3.55139532e-09  1.57976772e-07  5.84750381e-09  4.20000000e-01 
 4.30000000e-01  3.21470104e-09  3.38706903e-09  4.58262898e-01  3.35013513e-09  3.35118719e-09  3.42908329e-09  3.55139532e-09  1.57976761e-07  5.84752513e-09  4.30000000e-01 
 4.40000000e-01  3.21470110e-09  3.38706903e-09  4.58262897e-01  3.35013513e-09  3.35118719e-09  3.42908329e-09  3.55139538e-09  1.57976768e-07  5.84746473e-09  4.40000000e-01 
 4.50000000e-01  3.21470104e-09  3.38706903e-09  4.58262899e-01  3.35013519e-09  3.35118719e-09  3.42908323e-09  3.55139538e-09  1.57976760e-07  5.84734039e-09  4.50000000e-01 
 4.60000000e-01  3.21470104e-09  3.38706903e-09  4.58262896e-01  3.35013518e-09  3.35118713e-09  3.42908323e-09  3.55139538e-09  1.57976774e-07  5.84730486e-09  4.60000000e-01 
 4.70000000e-01  3.21470104e-09  3.38706903e-09  4.58262897e-01  3.35013520e-09  3.35118715e-09  3.42908329e-09  3.55139532e-09  1.57976764e-07  5.84730486e-09  4.70000000e-01 
 4.80000000e-01  3.21470110e-09  3.38706903e-09  4.58262899e-01  3.35013518e-09  3.35118719e-09  3.42908329e-09  3.55139532e-09  1.57976773e-07  5.84714499e-09  4.80000000e-01 
 4.90000000e-01  3.21470104e-09  3.38706898e-09  4.58262906e-01  3.35013520e-09  3.35118719e-09  3.42908329e-09  3.55139538e-09  1.57976789e-07  5.84720894e-09  4.90000000e-01 
 5.00000000e-01  3.21470110e-09  3.38706898e-09  4.58262902e-01  3.35013518e-09  3.35118719e-09  3.42908323e-09  3.55139532e-09  1.57976763e-07  5.84694959e-09  5.00000000e-01 
 5.10000000e-01  3.21470110e-09  3.38706903e-09  4.58262874e-01  3.35013519e-09  3.35118719e-09  3.42908329e-09  3.55139532e-09  1.57976747e-07  5.84693538e-09  5.10000000e-01 
 5.20000000e-01  3.21470104e-09  3.38706903e-09  4.58262897e-01  3.35013518e-09  3.35118719e-09  3.42908329e-09  3.55139532e-09  1.57976754e-07  5.84694249e-09  5.20000000e-01 
 5.30000000e-01  3.21470104e-09  3.38706898e-09  4.58262904e-01  3.35013520e-09  3.35118719e-09  3.42908323e-09  3.55139538e-09  1.57976774e-07  5.84689985e-09  5.30000000e-01 
 5.40000000e-01  3.21470104e-09  3.38706898e-09  4.58262902e-01  3.35013518e-09  3.35118719e-09  3.42908323e-09  3.55139538e-09  1.57976770e-07  5.84681814e-09  5.40000000e-01 
 5.50000000e-01  3.21470110e-09  3.38706898e-09  4.58262908e-01  3.35013520e-09  3.35118714e-09  3.42908329e-09  3.55139532e-09  1.57976782e-07  5.84667958e-09  5.50000000e-01 
 5.60000000e-01  3.21470104e-09  3.38706903e-09  4.58262912e-01  3.35013518e-09  3.35118715e-09  3.42908329e-09  3.55139532e-09  1.57976803e-07  5.84664051e-09  5.60000000e-01 
 5.70000000e-01  3.21470110e-09  3.38706903e-09  4.58262903e-01  3.35013520e-09  3.35118719e-09  3.42908329e-09  3.55139532e-09  1.57976776e-07  5.84659432e-09  5.70000000e-01 
 5.80000000e-01  3.21470104e-09  3.38706898e-09  4.58262902e-01  3.35013518e-09  3.35118719e-09  3.42908329e-09  3.55139532e-09  1.57976781e-07  5.84660853e-09  5.80000000e-01 
 5.90000000e-01  3.21470104e-09  3.38706903e-09  4.58262912e-01  3.35013520e-09  3.35118719e-09  3.42908323e-09  3.55139538e-09  1.57976784e-07  5.84640958e-09  5.90000000e-01 
 6.00000000e-01  3.21470110e-09  3.38706903e-09  4.58262891e-01  3.35013518e-09  3.35118719e-09  3.42908329e-09  3.55139538e-09  1.57976760e-07  5.84638116e-09  6.00000000e-01 
 6.10000000e-01  3.21470110e-09  3.38706903e-09  4.58262892e-01  3.35013520e-09  3.35118719e-09  3.42908329e-09  3.55139538e-09  1.57976746e-07  5.84636695e-09  6.10000000e-01 
 6.20000000e-01  3.21470104e-09  3.38706903e-09  4.58262914e-01  3.35013518e-09  3.35118719e-09  3.42908329e-09  3.55139532e-09  1.57976777e-07  5.84637405e-09  6.20000000e-01 
 6.30000000e-01  3.21470110e-09  3.38706903e-09  4.58262901e-01  3.35013520e-09  3.35118719e-09  3.42908329e-09  3.55139538e-09  1.57976777e-07  5.84635274e-09  6.30000000e-01 
 6.40000000e-01  3.21470110e-09  3.38706903e-09  4.58262879e-01  3.35013518e-09  3.35118719e-09  3.42908329e-09  3.55139532e-09  1.57976748e-07  5.84618931e-09  6.40000000e-01 
 6.50000000e-01  3.21470110e-09  3.38706903e-09  4.58262894e-01  3.35013514e-09  3.35118719e-09  3.42908323e-09  3.55139532e-09  1.57976746e-07  5.84621063e-09  6.50000000e-01 
 6.60000000e-01  3.21470110e-09  3.38706903e-09  4.58262918e-01  3.35013514e-09  3.35118719e-09  3.42908329e-09  3.55139538e-09  1.57976791e-07  5.84607562e-09  6.60000000e-01 
 6.70000000e-01  3.21470104e-09  3.38706903e-09  4.58262905e-01  3.35013519e-09  3.35118719e-09  3.42908329e-09  3.55139538e-09  1.57976779e-07  5.84600457e-09  6.70000000e-01 
 6.80000000e-01  3.21470110e-09  3.38706903e-09  4.58262908e-01  3.35013518e-09  3.35118714e-09  3.42908329e-09  3.55139532e-09  1.57976775e-07  5.84595483e-09  6.80000000e-01 
 6.90000000e-01  3.21470104e-09  3.38706898e-09  4.58262903e-01  3.35013514e-09  3.35118715e-09  3.42908329e-09  3.55139538e-09  1.57976774e-07  5.84591220e-09  6.90000000e-01 
 7.00000000e-01  3.21470104e-09  3.38706903e-09  4.58262915e-01  3.35013519e-09  3.35118719e-09  3.42908323e-09  3.55139533e-09  1.57976787e-07  5.84595483e-09  7.00000000e-01 
 7.10000000e-01  3.21470110e-09  3.38706903e-09  4.58262892e-01  3.35013518e-09  3.35118719e-09  3.42908329e-09  3.55139538e-09  1.57976757e-07  5.84561377e-09  7.10000000e-01 
 7.20000000e-01  3.21470104e-09  3.38706903e-09  4.58262886e-01  3.35013520e-09  3.35118719e-09  3.42908329e-09  3.55139532e-09  1.57976738e-07  5.84574167e-09  7.20000000e-01 
 7.30000000e-01  3.21470104e-09  3.38706898e-09  4.58262905e-01  3.35013518e-09  3.35118719e-09  3.42908323e-09  3.55139532e-09  1.57976768e-07  5.84559956e-09  7.30000000e-01 
 7.40000000e-01  3.21470104e-09  3.38706898e-09  4.58262899e-01  3.35013520e-09  3.35118719e-09  3.42908323e-09  3.55139538e-09  1.57976780e-07  5.84561377e-09  7.40000000e-01 
 7.50000000e-01  3.21470104e-09  3.38706898e-09  4.58262894e-01  3.35013518e-09  3.35118713e-09  3.42908323e-09  3.55139538e-09  1.57976762e-07  5.84550008e-09  7.50000000e-01 
 7.60000000e-01  3.21470104e-09  3.38706903e-09  4.58262911e-01  3.35013520e-09  3.35118721e-09  3.42908323e-09  3.55139532e-09  1.57976789e-07  5.84557824e-09  7.60000000e-01 
 7.70000000e-01  3.21470110e-09  3.38706903e-09  4.58262918e-01  3.35013518e-09  3.35118719e-09  3.42908323e-09  3.55139538e-09  1.57976789e-07  5.84540061e-09  7.70000000e-01 
 7.80000000e-01  3.21470110e-09  3.38706903e-09  4.58262911e-01  3.35013514e-09  3.35118719e-09  3.42908323e-09  3.55139532e-09  1.57976790e-07  5.84537929e-09  7.80000000e-01 
 7.90000000e-01  3.21470110e-09  3.38706903e-09  4.58262900e-01  3.35013514e-09  3.35118719e-09  3.42908323e-09  3.55139532e-09  1.57976772e-07  5.84530824e-09  7.90000000e-01 
 8.00000000e-01  3.21470104e-09  3.38706903e-09  4.58262876e-01  3.35013519e-09  3.35118713e-09  3.42908329e-09  3.55139532e-09  1.57976736e-07  5.84511639e-09  8.00000000e-01 
 8.10000000e-01  3.21470110e-09  3.38706903e-09  4.58262896e-01  3.35013518e-09  3.35118715e-09  3.42908323e-09  3.55139538e-09  1.57976750e-07  5.84513060e-09  8.10000000e-01 
 8.20000000e-01  3.21470104e-09  3.38706898e-09  4.58262911e-01  3.35013514e-09  3.35118719e-09  3.42908329e-09  3.55139532e-09  1.57976783e-07  5.84516613e-09  8.20000000e-01 
 8.30000000e-01  3.21470110e-09  3.38706903e-09  4.58262907e-01  3.35013519e-09  3.35118714e-09  3.42908323e-09  3.55139532e-09  1.57976785e-07  5.84510218e-09  8.30000000e-01 
 8.40000000e-01  3.21470104e-09  3.38706903e-09  4.58262895e-01  3.35013518e-09  3.35118715e-09  3.42908329e-09  3.55139532e-09  1.57976761e-07  5.84498139e-09  8.40000000e-01 
 8.50000000e-01  3.21470104e-09  3.38706903e-09  4.58262889e-01  3.35013514e-09  3.35118719e-09  3.42908329e-09  3.55139532e-09  1.57976743e-07  5.84497428e-09  8.50000000e-01 
 8.60000000e-01  3.21470104e-09  3.38706903e-09  4.58262898e-01  3.35013513e-09  3.35118719e-09  3.42908323e-09  3.55139538e-09  1.57976767e-07  5.84481796e-09  8.60000000e-01 
 8.70000000e-01  3.21470104e-09  3.38706903e-09  4.58262893e-01  3.35013513e-09  3.35118719e-09  3.42908329e-09  3.55139538e-09  1.57976775e-07  5.84485349e-09  8.70000000e-01 
 8.80000000e-01  3.21470104e-09  3.38706903e-09  4.58262894e-01  3.35013519e-09  3.35118719e-09  3.42908329e-09  3.55139538e-09  1.57976752e-07  5.84480375e-09  8.80000000e-01 
 8.90000000e-01  3.21470104e-09  3.38706903e-09  4.58262883e-01  3.35013518e-09  3.35118719e-09  3.42908329e-09  3.55139538e-09  1.57976757e-07  5.84456927e-09  8.90000000e-01 
 9.00000000e-01  3.21470110e-09  3.38706903e-09  4.58262907e-01  3.35013520e-09  3.35118719e-09  3.42908329e-09  3.55139532e-09  1.57976761e-07  5.84480375e-09  9.00000000e-01 
 9.10000000e-01  3.21470104e-09  3.38706903e-09  4.58262911e-01  3.35013518e-09  3.35118719e-09  3.42908323e-09  3.55139532e-09  1.57976779e-07  5.84464743e-09  9.10000000e-01 
 9.20000000e-01  3.21470110e-09  3.38706903e-09  4.58262911e-01  3.35013520e-09  3.35118719e-09  3.42908323e-09  3.55139532e-09  1.57976791e-07  5.84452664e-09  9.20000000e-01 
 9.30000000e-01  3.21470104e-09  3.38706898e-09  4.58262891e-01  3.35013518e-09  3.35118713e-09  3.42908329e-09  3.55139532e-09  1.57976753e-07  5.84441295e-09  9.30000000e-01 
 9.40000000e-01  3.21470104e-09  3.38706897e-09  4.58262889e-01  3.35013520e-09  3.35118720e-09  3.42908323e-09  3.55139532e-09  1.57976743e-07  5.84432769e-09  9.40000000e-01 
 9.50000000e-01  3.21470110e-09  3.38706899e-09  4.58262874e-01  3.35013518e-09  3.35118718e-09  3.42908323e-09  3.55139532e-09  1.57976718e-07  5.84427795e-09  9.50000000e-01 
 9.60000000e-01  3.21470104e-09  3.38706903e-09  4.58262888e-01  3.35013514e-09  3.35118719e-09  3.42908329e-09  3.55139538e-09  1.57976741e-07  5.84429927e-09  9.60000000e-01 
 9.70000000e-01  3.21470110e-09  3.38706903e-09  4.58262890e-01  3.35013519e-09  3.35118713e-09  3.42908323e-09  3.55139538e-09  1.57976747e-07  5.84429216e-09  9.70000000e-01 
 9.80000000e-01  3.21470104e-09  3.38706903e-09  4.58262893e-01  3.35013518e-09  3.35118720e-09  3.42908323e-09  3.55139532e-09  1.57976762e-07  5.84429216e-09  9.80000000e-01 
 9.90000000e-01  3.21470110e-09  3.38706903e-09  4.58262894e-01  3.35013514e-09  3.35118713e-09  3.42908323e-09  3.55139532e-09  1.57976762e-07  5.84402216e-09  9.90000000e-01 
 1.00000000e+00  3.21470110e-09  3.38706898e-09  4.58262898e-01  3.35013513e-09  3.35118715e-09  3.42908329e-09  3.55139538e-09  1.57976769e-07  5.84395821e-09  1.00000000e+00 
 1.01000000e+00  3.21470104e-09  3.38706903e-09  4.58262917e-01  3.35013519e-09  3.35118719e-09  3.42908329e-09  3.55139533e-09  1.57976794e-07  5.84390136e-09  1.01000000e+00 
 1.02000000e+00  3.21470110e-09  3.38706903e-09  4.58262892e-01  3.35013518e-09  3.35118719e-09  3.42908329e-09  3.55139538e-09  1.57976763e-07  5.84388005e-09  1.02000000e+00 
 1.03000000e+00  3.21470104e-09  3.38706898e-09  4.58262921e-01  3.35013520e-09  3.35118719e-09  3.42908329e-09  3.55139533e-09  1.57976791e-07  5.84385162e-09  1.03000000e+00 
 1.04000000e+00  3.21470104e-09  3.38706897e-09  4.58262885e-01  3.35013518e-09  3.35118719e-09  3.42908323e-09  3.55139538e-09  1.57976743e-07  5.84376636e-09  1.04000000e+00 
 1.05000000e+00  3.21470104e-09  3.38706899e-09  4.58262887e-01  3.35013520e-09  3.35118713e-09  3.42908329e-09  3.55139532e-09  1.57976727e-07  5.84379478e-09  1.05000000e+00 
 1.06000000e+00  3.21470104e-09  3.38706897e-09  4.58262898e-01  3.35013518e-09  3.35118715e-09  3.42908323e-09  3.55139538e-09  1.57976757e-07  5.84370952e-09  1.06000000e+00 
 1.07000000e+00  3.21470110e-09  3.38706899e-09  4.58262917e-01  3.35013514e-09  3.35118719e-09  3.42908329e-09  3.55139533e-09  1.57976785e-07  5.84362425e-09  1.07000000e+00 
 1.08000000e+00  3.21470104e-09  3.38706903e-09  4.58262908e-01  3.35013514e-09  3.35118714e-09  3.42908323e-09  3.55139538e-09  1.57976790e-07  5.84353188e-09  1.08000000e+00 
 1.09000000e+00  3.21470110e-09  3.38706903e-09  4.58262908e-01  3.35013514e-09  3.35118720e-09  3.42908329e-09  3.55139532e-09  1.57976783e-07  5.84346793e-09  1.09000000e+00 
 1.10000000e+00  3.21470110e-09  3.38706897e-09  4.58262884e-01  3.35013519e-09  3.35118719e-09  3.42908323e-09  3.55139532e-09  1.57976737e-07  5.84348214e-09  1.10000000e+00 
