 v-sweep         v(b0)           v(b1)           v(b2)           v(b3)           v(b4)           v(b5)           v(b6)           i(vbias)        i(viout)        v(vout)        
 0.00000000e+00  3.26725717e-09  3.35346104e-09  4.58821069e-01  4.58821069e-01  3.46940185e-09  4.58821069e-01  4.58821069e-01  1.62379220e-07  1.60080400e-07  0.00000000e+00 
 1.00000000e-02  3.26725722e-09  3.35346103e-09  4.58821019e-01  4.58821019e-01  3.46940184e-09  4.58821019e-01  4.58821019e-01  1.62379142e-07  1.60079713e-07  1.00000000e-02 
 2.00000000e-02  3.26725717e-09  3.35346104e-09  4.58821056e-01  4.58821056e-01  3.46940185e-09  4.58821056e-01  4.58821056e-01  1.62379190e-07  1.60079340e-07  2.00000000e-02 
 3.00000000e-02  3.26725717e-09  3.35346104e-09  4.58821059e-01  4.58821059e-01  3.46940185e-09  4.58821059e-01  4.58821059e-01  1.62379204e-07  1.60079003e-07  3.00000000e-02 
 4.00000000e-02  3.26725716e-09  3.35346104e-09  4.58821042e-01  4.58821042e-01  3.46940185e-09  4.58821042e-01  4.58821042e-01  1.62379177e-07  1.60078513e-07  4.00000000e-02 
 5.00000000e-02  3.26725716e-09  3.35346104e-09  4.58821047e-01  4.58821047e-01  3.46940190e-09  4.58821047e-01  4.58821047e-01  1.62379204e-07  1.60078176e-07  5.00000000e-02 
 6.00000000e-02  3.26725722e-09  3.35346104e-09  4.58821046e-01  4.58821046e-01  3.46940185e-09  4.58821046e-01  4.58821046e-01  1.62379179e-07  1.60077824e-07  6.00000000e-02 
 7.00000000e-02  3.26725716e-09  3.35346104e-09  4.58821045e-01  4.58821044e-01  3.46940185e-09  4.58821044e-01  4.58821044e-01  1.62379182e-07  1.60077411e-07  7.00000000e-02 
 8.00000000e-02  3.26725722e-09  3.35346104e-09  4.58821063e-01  4.58821062e-01  3.46940185e-09  4.58821062e-01  4.58821062e-01  1.62379207e-07  1.60077214e-07  8.00000000e-02 
 9.00000000e-02  3.26725722e-09  3.35346104e-09  4.58821056e-01  4.58821055e-01  3.46940185e-09  4.58821055e-01  4.58821056e-01  1.62379189e-07  1.60076796e-07  9.00000000e-02 
 1.00000000e-01  3.26725716e-09  3.35346104e-09  4.58821038e-01  4.58821038e-01  3.46940185e-09  4.58821038e-01  4.58821038e-01  1.62379177e-07  1.60076457e-07  1.00000000e-01 
 1.10000000e-01  3.26725716e-09  3.35346104e-09  4.58821042e-01  4.58821042e-01  3.46940185e-09  4.58821042e-01  4.58821042e-01  1.62379177e-07  1.60076306e-07  1.10000000e-01 
 1.20000000e-01  3.26725716e-09  3.35346104e-09  4.58821048e-01  4.58821047e-01  3.46940185e-09  4.58821047e-01  4.58821047e-01  1.62379184e-07  1.60075890e-07  1.20000000e-01 
 1.30000000e-01  3.26725716e-09  3.35346104e-09  4.58821053e-01  4.58821053e-01  3.46940190e-09  4.58821053e-01  4.58821053e-01  1.62379200e-07  1.60075699e-07  1.30000000e-01 
 1.40000000e-01  3.26725722e-09  3.35346104e-09  4.58821060e-01  4.58821060e-01  3.46940185e-09  4.58821060e-01  4.58821060e-01  1.62379213e-07  1.60075373e-07  1.40000000e-01 
 1.50000000e-01  3.26725722e-09  3.35346104e-09  4.58821044e-01  4.58821044e-01  3.46940185e-09  4.58821044e-01  4.58821044e-01  1.62379178e-07  1.60075190e-07  1.50000000e-01 
 1.60000000e-01  3.26725722e-09  3.35346104e-09  4.58821057e-01  4.58821056e-01  3.46940185e-09  4.58821056e-01  4.58821056e-01  1.62379210e-07  1.60074979e-07  1.60000000e-01 
 1.70000000e-01  3.26725723e-09  3.35346104e-09  4.58821078e-01  4.58821078e-01  3.46940190e-09  4.58821078e-01  4.58821078e-01  1.62379242e-07  1.60074705e-07  1.70000000e-01 
 1.80000000e-01  3.26725722e-09  3.35346104e-09  4.58821034e-01  4.58821034e-01  3.46940185e-09  4.58821034e-01  4.58821034e-01  1.62379170e-07  1.60074402e-07  1.80000000e-01 
 1.90000000e-01  3.26725716e-09  3.35346109e-09  4.58821036e-01  4.58821036e-01  3.46940190e-09  4.58821036e-01  4.58821036e-01  1.62379163e-07  1.60074169e-07  1.90000000e-01 
 2.00000000e-01  3.26725722e-09  3.35346109e-09  4.58821050e-01  4.58821050e-01  3.46940190e-09  4.58821050e-01  4.58821050e-01  1.62379203e-07  1.60074057e-07  2.00000000e-01 
 2.10000000e-01  3.26725723e-09  3.35346104e-09  4.58821076e-01  4.58821076e-01  3.46940185e-09  4.58821076e-01  4.58821076e-01  1.62379224e-07  1.60073936e-07  2.10000000e-01 
 2.20000000e-01  3.26725716e-09  3.35346104e-09  4.58821023e-01  4.58821023e-01  3.46940190e-09  4.58821023e-01  4.58821023e-01  1.62379150e-07  1.60073515e-07  2.20000000e-01 
 2.30000000e-01  3.26725722e-09  3.35346104e-09  4.58821050e-01  4.58821050e-01  3.46940185e-09  4.58821050e-01  4.58821050e-01  1.62379192e-07  1.60073423e-07  2.30000000e-01 
 2.40000000e-01  3.26725716e-09  3.35346104e-09  4.58821036e-01  4.58821036e-01  3.46940185e-09  4.58821036e-01  4.58821036e-01  1.62379162e-07  1.60073226e-07  2.40000000e-01 
 2.50000000e-01  3.26725716e-09  3.35346104e-09  4.58821030e-01  4.58821030e-01  3.46940190e-09  4.58821030e-01  4.58821030e-01  1.62379168e-07  1.60073117e-07  2.50000000e-01 
 2.60000000e-01  3.26725716e-09  3.35346104e-09  4.58821035e-01  4.58821035e-01  3.46940185e-09  4.58821035e-01  4.58821035e-01  1.62379166e-07  1.60072791e-07  2.60000000e-01 
 2.70000000e-01  3.26725723e-09  3.35346104e-09  4.58821077e-01  4.58821077e-01  3.46940190e-09  4.58821077e-01  4.58821077e-01  1.62379239e-07  1.60072869e-07  2.70000000e-01 
 2.80000000e-01  3.26725716e-09  3.35346104e-09  4.58821027e-01  4.58821027e-01  3.46940184e-09  4.58821026e-01  4.58821027e-01  1.62379149e-07  1.60072506e-07  2.80000000e-01 
 2.90000000e-01  3.26725716e-09  3.35346104e-09  4.58821052e-01  4.58821052e-01  3.46940185e-09  4.58821052e-01  4.58821052e-01  1.62379185e-07  1.60072336e-07  2.90000000e-01 
 3.00000000e-01  3.26725716e-09  3.35346104e-09  4.58821031e-01  4.58821031e-01  3.46940184e-09  4.58821031e-01  4.58821031e-01  1.62379152e-07  1.60072219e-07  3.00000000e-01 
 3.10000000e-01  3.26725721e-09  3.35346103e-09  4.58821013e-01  4.58821013e-01  3.46940190e-09  4.58821013e-01  4.58821013e-01  1.62379133e-07  1.60071920e-07  3.10000000e-01 
 3.20000000e-01  3.26725716e-09  3.35346104e-09  4.58821040e-01  4.58821040e-01  3.46940185e-09  4.58821040e-01  4.58821040e-01  1.62379182e-07  1.60071870e-07  3.20000000e-01 
 3.30000000e-01  3.26725716e-09  3.35346104e-09  4.58821033e-01  4.58821033e-01  3.46940185e-09  4.58821033e-01  4.58821033e-01  1.62379165e-07  1.60071707e-07  3.30000000e-01 
 3.40000000e-01  3.26725722e-09  3.35346104e-09  4.58821043e-01  4.58821043e-01  3.46940185e-09  4.58821043e-01  4.58821043e-01  1.62379180e-07  1.60071590e-07  3.40000000e-01 
 3.50000000e-01  3.26725722e-09  3.35346109e-09  4.58821057e-01  4.58821057e-01  3.46940185e-09  4.58821057e-01  4.58821057e-01  1.62379193e-07  1.60071519e-07  3.50000000e-01 
 3.60000000e-01  3.26725717e-09  3.35346104e-09  4.58821058e-01  4.58821058e-01  3.46940185e-09  4.58821058e-01  4.58821058e-01  1.62379192e-07  1.60071387e-07  3.60000000e-01 
 3.70000000e-01  3.26725722e-09  3.35346104e-09  4.58821063e-01  4.58821063e-01  3.46940185e-09  4.58821063e-01  4.58821063e-01  1.62379211e-07  1.60071242e-07  3.70000000e-01 
 3.80000000e-01  3.26725716e-09  3.35346104e-09  4.58821027e-01  4.58821027e-01  3.46940184e-09  4.58821027e-01  4.58821027e-01  1.62379151e-07  1.60070947e-07  3.80000000e-01 
 3.90000000e-01  3.26725722e-09  3.35346104e-09  4.58821032e-01  4.58821032e-01  3.46940185e-09  4.58821032e-01  4.58821032e-01  1.62379165e-07  1.60070819e-07  3.90000000e-01 
 4.00000000e-01  3.26725717e-09  3.35346104e-09  4.58821072e-01  4.58821072e-01  3.46940185e-09  4.58821072e-01  4.58821072e-01  1.62379220e-07  1.60070833e-07  4.00000000e-01 
 4.10000000e-01  3.26725722e-09  3.35346109e-09  4.58821041e-01  4.58821040e-01  3.46940185e-09  4.58821040e-01  4.58821040e-01  1.62379179e-07  1.60070659e-07  4.10000000e-01 
 4.20000000e-01  3.26725722e-09  3.35346104e-09  4.58821059e-01  4.58821059e-01  3.46940190e-09  4.58821059e-01  4.58821059e-01  1.62379197e-07  1.60070577e-07  4.20000000e-01 
 4.30000000e-01  3.26725722e-09  3.35346104e-09  4.58821051e-01  4.58821051e-01  3.46940185e-09  4.58821051e-01  4.58821051e-01  1.62379193e-07  1.60070481e-07  4.30000000e-01 
 4.40000000e-01  3.26725722e-09  3.35346104e-09  4.58821055e-01  4.58821055e-01  3.46940185e-09  4.58821055e-01  4.58821055e-01  1.62379206e-07  1.60070293e-07  4.40000000e-01 
 4.50000000e-01  3.26725722e-09  3.35346104e-09  4.58821034e-01  4.58821034e-01  3.46940185e-09  4.58821034e-01  4.58821034e-01  1.62379159e-07  1.60070133e-07  4.50000000e-01 
 4.60000000e-01  3.26725722e-09  3.35346104e-09  4.58821034e-01  4.58821034e-01  3.46940185e-09  4.58821034e-01  4.58821034e-01  1.62379162e-07  1.60070012e-07  4.60000000e-01 
 4.70000000e-01  3.26725722e-09  3.35346104e-09  4.58821067e-01  4.58821067e-01  3.46940185e-09  4.58821067e-01  4.58821067e-01  1.62379239e-07  1.60069977e-07  4.70000000e-01 
 4.80000000e-01  3.26725716e-09  3.35346104e-09  4.58821034e-01  4.58821034e-01  3.46940185e-09  4.58821034e-01  4.58821034e-01  1.62379173e-07  1.60069749e-07  4.80000000e-01 
 4.90000000e-01  3.26725722e-09  3.35346104e-09  4.58821051e-01  4.58821051e-01  3.46940190e-09  4.58821051e-01  4.58821051e-01  1.62379192e-07  1.60069632e-07  4.90000000e-01 
 5.00000000e-01  3.26725717e-09  3.35346104e-09  4.58821057e-01  4.58821057e-01  3.46940185e-09  4.58821057e-01  4.58821057e-01  1.62379213e-07  1.60069781e-07  5.00000000e-01 
 5.10000000e-01  3.26725716e-09  3.35346104e-09  4.58821044e-01  4.58821044e-01  3.46940190e-09  4.58821044e-01  4.58821044e-01  1.62379175e-07  1.60069465e-07  5.10000000e-01 
 5.20000000e-01  3.26725722e-09  3.35346104e-09  4.58821050e-01  4.58821050e-01  3.46940185e-09  4.58821050e-01  4.58821050e-01  1.62379208e-07  1.60069447e-07  5.20000000e-01 
 5.30000000e-01  3.26725717e-09  3.35346104e-09  4.58821068e-01  4.58821067e-01  3.46940185e-09  4.58821067e-01  4.58821068e-01  1.62379218e-07  1.60069312e-07  5.30000000e-01 
 5.40000000e-01  3.26725722e-09  3.35346104e-09  4.58821040e-01  4.58821040e-01  3.46940185e-09  4.58821040e-01  4.58821040e-01  1.62379167e-07  1.60069170e-07  5.40000000e-01 
 5.50000000e-01  3.26725722e-09  3.35346104e-09  4.58821067e-01  4.58821067e-01  3.46940185e-09  4.58821066e-01  4.58821067e-01  1.62379213e-07  1.60069007e-07  5.50000000e-01 
 5.60000000e-01  3.26725716e-09  3.35346104e-09  4.58821035e-01  4.58821035e-01  3.46940190e-09  4.58821035e-01  4.58821035e-01  1.62379173e-07  1.60068957e-07  5.60000000e-01 
 5.70000000e-01  3.26725716e-09  3.35346104e-09  4.58821039e-01  4.58821039e-01  3.46940190e-09  4.58821039e-01  4.58821039e-01  1.62379177e-07  1.60068705e-07  5.70000000e-01 
 5.80000000e-01  3.26725716e-09  3.35346104e-09  4.58821045e-01  4.58821045e-01  3.46940185e-09  4.58821045e-01  4.58821045e-01  1.62379183e-07  1.60068574e-07  5.80000000e-01 
 5.90000000e-01  3.26725716e-09  3.35346104e-09  4.58821036e-01  4.58821036e-01  3.46940185e-09  4.58821036e-01  4.58821036e-01  1.62379154e-07  1.60068559e-07  5.90000000e-01 
 6.00000000e-01  3.26725716e-09  3.35346104e-09  4.58821037e-01  4.58821037e-01  3.46940185e-09  4.58821037e-01  4.58821037e-01  1.62379180e-07  1.60068424e-07  6.00000000e-01 
 6.10000000e-01  3.26725723e-09  3.35346104e-09  4.58821069e-01  4.58821069e-01  3.46940185e-09  4.58821069e-01  4.58821069e-01  1.62379229e-07  1.60068396e-07  6.10000000e-01 
 6.20000000e-01  3.26725716e-09  3.35346104e-09  4.58821042e-01  4.58821042e-01  3.46940185e-09  4.58821042e-01  4.58821042e-01  1.62379187e-07  1.60068176e-07  6.20000000e-01 
 6.30000000e-01  3.26725716e-09  3.35346104e-09  4.58821024e-01  4.58821024e-01  3.46940184e-09  4.58821024e-01  4.58821024e-01  1.62379154e-07  1.60068048e-07  6.30000000e-01 
 6.40000000e-01  3.26725722e-09  3.35346104e-09  4.58821062e-01  4.58821061e-01  3.46940185e-09  4.58821061e-01  4.58821061e-01  1.62379212e-07  1.60068126e-07  6.40000000e-01 
 6.50000000e-01  3.26725722e-09  3.35346104e-09  4.58821032e-01  4.58821032e-01  3.46940185e-09  4.58821032e-01  4.58821032e-01  1.62379164e-07  1.60067735e-07  6.50000000e-01 
 6.60000000e-01  3.26725716e-09  3.35346104e-09  4.58821033e-01  4.58821033e-01  3.46940185e-09  4.58821033e-01  4.58821033e-01  1.62379167e-07  1.60067707e-07  6.60000000e-01 
 6.70000000e-01  3.26725716e-09  3.35346104e-09  4.58821051e-01  4.58821051e-01  3.46940185e-09  4.58821051e-01  4.58821051e-01  1.62379191e-07  1.60067721e-07  6.70000000e-01 
 6.80000000e-01  3.26725722e-09  3.35346104e-09  4.58821037e-01  4.58821036e-01  3.46940185e-09  4.58821036e-01  4.58821036e-01  1.62379182e-07  1.60067465e-07  6.80000000e-01 
 6.90000000e-01  3.26725722e-09  3.35346104e-09  4.58821051e-01  4.58821051e-01  3.46940185e-09  4.58821051e-01  4.58821051e-01  1.62379188e-07  1.60067430e-07  6.90000000e-01 
 7.00000000e-01  3.26725716e-09  3.35346103e-09  4.58821021e-01  4.58821021e-01  3.46940184e-09  4.58821021e-01  4.58821021e-01  1.62379144e-07  1.60067188e-07  7.00000000e-01 
 7.10000000e-01  3.26725716e-09  3.35346103e-09  4.58821018e-01  4.58821018e-01  3.46940184e-09  4.58821018e-01  4.58821018e-01  1.62379159e-07  1.60067025e-07  7.10000000e-01 
 7.20000000e-01  3.26725716e-09  3.35346104e-09  4.58821047e-01  4.58821047e-01  3.46940185e-09  4.58821047e-01  4.58821047e-01  1.62379198e-07  1.60067174e-07  7.20000000e-01 
 7.30000000e-01  3.26725722e-09  3.35346104e-09  4.58821044e-01  4.58821044e-01  3.46940185e-09  4.58821044e-01  4.58821044e-01  1.62379178e-07  1.60066882e-07  7.30000000e-01 
 7.40000000e-01  3.26725717e-09  3.35346104e-09  4.58821057e-01  4.58821057e-01  3.46940185e-09  4.58821057e-01  4.58821057e-01  1.62379200e-07  1.60066804e-07  7.40000000e-01 
 7.50000000e-01  3.26725723e-09  3.35346104e-09  4.58821073e-01  4.58821073e-01  3.46940185e-09  4.58821073e-01  4.58821073e-01  1.62379229e-07  1.60066932e-07  7.50000000e-01 
 7.60000000e-01  3.26725717e-09  3.35346109e-09  4.58821066e-01  4.58821066e-01  3.46940185e-09  4.58821066e-01  4.58821066e-01  1.62379209e-07  1.60066698e-07  7.60000000e-01 
 7.70000000e-01  3.26725717e-09  3.35346104e-09  4.58821057e-01  4.58821057e-01  3.46940185e-09  4.58821057e-01  4.58821057e-01  1.62379202e-07  1.60066534e-07  7.70000000e-01 
 7.80000000e-01  3.26725716e-09  3.35346104e-09  4.58821030e-01  4.58821030e-01  3.46940184e-09  4.58821030e-01  4.58821030e-01  1.62379150e-07  1.60066314e-07  7.80000000e-01 
 7.90000000e-01  3.26725717e-09  3.35346104e-09  4.58821066e-01  4.58821066e-01  3.46940185e-09  4.58821066e-01  4.58821066e-01  1.62379221e-07  1.60066215e-07  7.90000000e-01 
 8.00000000e-01  3.26725716e-09  3.35346104e-09  4.58821040e-01  4.58821040e-01  3.46940190e-09  4.58821040e-01  4.58821040e-01  1.62379167e-07  1.60066108e-07  8.00000000e-01 
 8.10000000e-01  3.26725722e-09  3.35346104e-09  4.58821036e-01  4.58821036e-01  3.46940185e-09  4.58821036e-01  4.58821036e-01  1.62379173e-07  1.60065873e-07  8.10000000e-01 
 8.20000000e-01  3.26725717e-09  3.35346104e-09  4.58821075e-01  4.58821075e-01  3.46940185e-09  4.58821075e-01  4.58821075e-01  1.62379229e-07  1.60066072e-07  8.20000000e-01 
 8.30000000e-01  3.26725716e-09  3.35346104e-09  4.58821045e-01  4.58821044e-01  3.46940185e-09  4.58821044e-01  4.58821044e-01  1.62379180e-07  1.60065817e-07  8.30000000e-01 
 8.40000000e-01  3.26725716e-09  3.35346104e-09  4.58821023e-01  4.58821023e-01  3.46940184e-09  4.58821023e-01  4.58821023e-01  1.62379155e-07  1.60065561e-07  8.40000000e-01 
 8.50000000e-01  3.26725717e-09  3.35346104e-09  4.58821076e-01  4.58821075e-01  3.46940190e-09  4.58821075e-01  4.58821075e-01  1.62379226e-07  1.60065717e-07  8.50000000e-01 
 8.60000000e-01  3.26725716e-09  3.35346104e-09  4.58821024e-01  4.58821024e-01  3.46940184e-09  4.58821024e-01  4.58821024e-01  1.62379165e-07  1.60065177e-07  8.60000000e-01 
 8.70000000e-01  3.26725722e-09  3.35346104e-09  4.58821053e-01  4.58821053e-01  3.46940185e-09  4.58821053e-01  4.58821053e-01  1.62379200e-07  1.60065341e-07  8.70000000e-01 
 8.80000000e-01  3.26725722e-09  3.35346104e-09  4.58821038e-01  4.58821038e-01  3.46940185e-09  4.58821038e-01  4.58821038e-01  1.62379164e-07  1.60065113e-07  8.80000000e-01 
 8.90000000e-01  3.26725717e-09  3.35346104e-09  4.58821064e-01  4.58821064e-01  3.46940190e-09  4.58821064e-01  4.58821064e-01  1.62379221e-07  1.60065106e-07  8.90000000e-01 
 9.00000000e-01  3.26725717e-09  3.35346104e-09  4.58821056e-01  4.58821056e-01  3.46940185e-09  4.58821056e-01  4.58821056e-01  1.62379206e-07  1.60064964e-07  9.00000000e-01 
 9.10000000e-01  3.26725716e-09  3.35346104e-09  4.58821037e-01  4.58821037e-01  3.46940185e-09  4.58821037e-01  4.58821037e-01  1.62379181e-07  1.60064815e-07  9.10000000e-01 
 9.20000000e-01  3.26725716e-09  3.35346104e-09  4.58821047e-01  4.58821047e-01  3.46940185e-09  4.58821047e-01  4.58821047e-01  1.62379181e-07  1.60064701e-07  9.20000000e-01 
 9.30000000e-01  3.26725722e-09  3.35346104e-09  4.58821046e-01  4.58821046e-01  3.46940190e-09  4.58821046e-01  4.58821046e-01  1.62379196e-07  1.60064531e-07  9.30000000e-01 
 9.40000000e-01  3.26725722e-09  3.35346104e-09  4.58821044e-01  4.58821044e-01  3.46940185e-09  4.58821044e-01  4.58821044e-01  1.62379183e-07  1.60064438e-07  9.40000000e-01 
 9.50000000e-01  3.26725722e-09  3.35346104e-09  4.58821052e-01  4.58821052e-01  3.46940185e-09  4.58821052e-01  4.58821052e-01  1.62379192e-07  1.60064246e-07  9.50000000e-01 
 9.60000000e-01  3.26725716e-09  3.35346104e-09  4.58821041e-01  4.58821040e-01  3.46940185e-09  4.58821040e-01  4.58821041e-01  1.62379181e-07  1.60064069e-07  9.60000000e-01 
 9.70000000e-01  3.26725722e-09  3.35346104e-09  4.58821035e-01  4.58821035e-01  3.46940185e-09  4.58821035e-01  4.58821035e-01  1.62379170e-07  1.60063877e-07  9.70000000e-01 
 9.80000000e-01  3.26725716e-09  3.35346104e-09  4.58821048e-01  4.58821048e-01  3.46940185e-09  4.58821048e-01  4.58821048e-01  1.62379193e-07  1.60063884e-07  9.80000000e-01 
 9.90000000e-01  3.26725717e-09  3.35346104e-09  4.58821059e-01  4.58821059e-01  3.46940185e-09  4.58821059e-01  4.58821059e-01  1.62379194e-07  1.60063770e-07  9.90000000e-01 
 1.00000000e+00  3.26725716e-09  3.35346104e-09  4.58821037e-01  4.58821037e-01  3.46940185e-09  4.58821037e-01  4.58821037e-01  1.62379166e-07  1.60063550e-07  1.00000000e+00 
 1.01000000e+00  3.26725722e-09  3.35346104e-09  4.58821047e-01  4.58821047e-01  3.46940190e-09  4.58821047e-01  4.58821047e-01  1.62379189e-07  1.60063486e-07  1.01000000e+00 
 1.02000000e+00  3.26725722e-09  3.35346104e-09  4.58821063e-01  4.58821063e-01  3.46940185e-09  4.58821063e-01  4.58821063e-01  1.62379199e-07  1.60063401e-07  1.02000000e+00 
 1.03000000e+00  3.26725722e-09  3.35346104e-09  4.58821057e-01  4.58821057e-01  3.46940185e-09  4.58821057e-01  4.58821057e-01  1.62379190e-07  1.60063202e-07  1.03000000e+00 
 1.04000000e+00  3.26725722e-09  3.35346104e-09  4.58821044e-01  4.58821044e-01  3.46940190e-09  4.58821044e-01  4.58821044e-01  1.62379174e-07  1.60062932e-07  1.04000000e+00 
 1.05000000e+00  3.26725722e-09  3.35346104e-09  4.58821054e-01  4.58821053e-01  3.46940185e-09  4.58821053e-01  4.58821053e-01  1.62379201e-07  1.60062861e-07  1.05000000e+00 
 1.06000000e+00  3.26725722e-09  3.35346104e-09  4.58821045e-01  4.58821045e-01  3.46940185e-09  4.58821045e-01  4.58821045e-01  1.62379180e-07  1.60062733e-07  1.06000000e+00 
 1.07000000e+00  3.26725723e-09  3.35346104e-09  4.58821080e-01  4.58821080e-01  3.46940185e-09  4.58821080e-01  4.58821080e-01  1.62379247e-07  1.60062747e-07  1.07000000e+00 
 1.08000000e+00  3.26725722e-09  3.35346109e-09  4.58821041e-01  4.58821041e-01  3.46940185e-09  4.58821041e-01  4.58821041e-01  1.62379178e-07  1.60062314e-07  1.08000000e+00 
 1.09000000e+00  3.26725717e-09  3.35346104e-09  4.58821057e-01  4.58821057e-01  3.46940185e-09  4.58821057e-01  4.58821057e-01  1.62379194e-07  1.60062299e-07  1.09000000e+00 
 1.10000000e+00  3.26725722e-09  3.35346104e-09  4.58821053e-01  4.58821053e-01  3.46940185e-09  4.58821053e-01  4.58821053e-01  1.62379207e-07  1.60062157e-07  1.10000000e+00 
