 v-sweep         v(b0)           v(b1)           v(b2)           v(b3)           v(b4)           v(b5)           v(b6)           i(vbias)        i(viout)        v(vout)        
 0.00000000e+00  4.60809715e-01  4.60809715e-01  4.60809715e-01  4.60809715e-01  3.26936800e-09  3.44088967e-09  4.60809715e-01  1.62631841e-07  1.18356904e-07  0.00000000e+00 
 1.00000000e-02  4.60809735e-01  4.60809734e-01  4.60809734e-01  4.60809735e-01  3.26936797e-09  3.44088965e-09  4.60809735e-01  1.62631859e-07  1.18356517e-07  1.00000000e-02 
 2.00000000e-02  4.60809729e-01  4.60809729e-01  4.60809729e-01  4.60809729e-01  3.26936797e-09  3.44088965e-09  4.60809729e-01  1.62631855e-07  1.18356146e-07  2.00000000e-02 
 3.00000000e-02  4.60809707e-01  4.60809707e-01  4.60809707e-01  4.60809707e-01  3.26936797e-09  3.44088970e-09  4.60809707e-01  1.62631821e-07  1.18355654e-07  3.00000000e-02 
 4.00000000e-02  4.60809743e-01  4.60809743e-01  4.60809743e-01  4.60809743e-01  3.26936797e-09  3.44088965e-09  4.60809744e-01  1.62631864e-07  1.18355301e-07  4.00000000e-02 
 5.00000000e-02  4.60809744e-01  4.60809744e-01  4.60809744e-01  4.60809744e-01  3.26936803e-09  3.44088965e-09  4.60809744e-01  1.62631874e-07  1.18354963e-07  5.00000000e-02 
 6.00000000e-02  4.60809726e-01  4.60809726e-01  4.60809726e-01  4.60809726e-01  3.26936797e-09  3.44088965e-09  4.60809726e-01  1.62631848e-07  1.18354473e-07  6.00000000e-02 
 7.00000000e-02  4.60809729e-01  4.60809728e-01  4.60809728e-01  4.60809729e-01  3.26936797e-09  3.44088965e-09  4.60809729e-01  1.62631859e-07  1.18354226e-07  7.00000000e-02 
 8.00000000e-02  4.60809718e-01  4.60809718e-01  4.60809718e-01  4.60809718e-01  3.26936803e-09  3.44088965e-09  4.60809718e-01  1.62631843e-07  1.18354031e-07  8.00000000e-02 
 9.00000000e-02  4.60809738e-01  4.60809738e-01  4.60809738e-01  4.60809738e-01  3.26936803e-09  3.44088965e-09  4.60809738e-01  1.62631874e-07  1.18353801e-07  9.00000000e-02 
 1.00000000e-01  4.60809728e-01  4.60809728e-01  4.60809728e-01  4.60809728e-01  3.26936797e-09  3.44088970e-09  4.60809728e-01  1.62631859e-07  1.18353436e-07  1.00000000e-01 
 1.10000000e-01  4.60809733e-01  4.60809733e-01  4.60809733e-01  4.60809733e-01  3.26936797e-09  3.44088965e-09  4.60809733e-01  1.62631862e-07  1.18353157e-07  1.10000000e-01 
 1.20000000e-01  4.60809713e-01  4.60809713e-01  4.60809713e-01  4.60809713e-01  3.26936797e-09  3.44088965e-09  4.60809713e-01  1.62631833e-07  1.18352838e-07  1.20000000e-01 
 1.30000000e-01  4.60809721e-01  4.60809721e-01  4.60809721e-01  4.60809721e-01  3.26936797e-09  3.44088970e-09  4.60809721e-01  1.62631845e-07  1.18352570e-07  1.30000000e-01 
 1.40000000e-01  4.60809741e-01  4.60809741e-01  4.60809741e-01  4.60809741e-01  3.26936797e-09  3.44088970e-09  4.60809741e-01  1.62631876e-07  1.18352390e-07  1.40000000e-01 
 1.50000000e-01  4.60809708e-01  4.60809708e-01  4.60809708e-01  4.60809708e-01  3.26936803e-09  3.44088964e-09  4.60809708e-01  1.62631835e-07  1.18352046e-07  1.50000000e-01 
 1.60000000e-01  4.60809745e-01  4.60809745e-01  4.60809745e-01  4.60809745e-01  3.26936797e-09  3.44088970e-09  4.60809745e-01  1.62631878e-07  1.18352023e-07  1.60000000e-01 
 1.70000000e-01  4.60809755e-01  4.60809755e-01  4.60809755e-01  4.60809755e-01  3.26936798e-09  3.44088965e-09  4.60809755e-01  1.62631897e-07  1.18351803e-07  1.70000000e-01 
 1.80000000e-01  4.60809717e-01  4.60809717e-01  4.60809717e-01  4.60809717e-01  3.26936803e-09  3.44088970e-09  4.60809717e-01  1.62631842e-07  1.18351451e-07  1.80000000e-01 
 1.90000000e-01  4.60809742e-01  4.60809742e-01  4.60809742e-01  4.60809742e-01  3.26936797e-09  3.44088965e-09  4.60809742e-01  1.62631878e-07  1.18351352e-07  1.90000000e-01 
 2.00000000e-01  4.60809692e-01  4.60809692e-01  4.60809692e-01  4.60809692e-01  3.26936803e-09  3.44088964e-09  4.60809692e-01  1.62631814e-07  1.18351171e-07  2.00000000e-01 
 2.10000000e-01  4.60809768e-01  4.60809768e-01  4.60809768e-01  4.60809768e-01  3.26936798e-09  3.44088965e-09  4.60809768e-01  1.62631912e-07  1.18351123e-07  2.10000000e-01 
 2.20000000e-01  4.60809722e-01  4.60809722e-01  4.60809722e-01  4.60809722e-01  3.26936803e-09  3.44088970e-09  4.60809722e-01  1.62631853e-07  1.18350769e-07  2.20000000e-01 
 2.30000000e-01  4.60809717e-01  4.60809717e-01  4.60809717e-01  4.60809717e-01  3.26936803e-09  3.44088965e-09  4.60809717e-01  1.62631837e-07  1.18350517e-07  2.30000000e-01 
 2.40000000e-01  4.60809752e-01  4.60809752e-01  4.60809752e-01  4.60809752e-01  3.26936803e-09  3.44088971e-09  4.60809752e-01  1.62631886e-07  1.18350567e-07  2.40000000e-01 
 2.50000000e-01  4.60809716e-01  4.60809715e-01  4.60809715e-01  4.60809716e-01  3.26936797e-09  3.44088970e-09  4.60809716e-01  1.62631844e-07  1.18350323e-07  2.50000000e-01 
 2.60000000e-01  4.60809738e-01  4.60809738e-01  4.60809738e-01  4.60809738e-01  3.26936803e-09  3.44088970e-09  4.60809738e-01  1.62631870e-07  1.18350343e-07  2.60000000e-01 
 2.70000000e-01  4.60809725e-01  4.60809725e-01  4.60809725e-01  4.60809725e-01  3.26936797e-09  3.44088970e-09  4.60809725e-01  1.62631859e-07  1.18350064e-07  2.70000000e-01 
 2.80000000e-01  4.60809726e-01  4.60809726e-01  4.60809726e-01  4.60809726e-01  3.26936803e-09  3.44088970e-09  4.60809726e-01  1.62631847e-07  1.18349993e-07  2.80000000e-01 
 2.90000000e-01  4.60809725e-01  4.60809725e-01  4.60809725e-01  4.60809725e-01  3.26936803e-09  3.44088970e-09  4.60809725e-01  1.62631864e-07  1.18349814e-07  2.90000000e-01 
 3.00000000e-01  4.60809721e-01  4.60809721e-01  4.60809721e-01  4.60809721e-01  3.26936803e-09  3.44088965e-09  4.60809721e-01  1.62631841e-07  1.18349654e-07  3.00000000e-01 
 3.10000000e-01  4.60809750e-01  4.60809749e-01  4.60809749e-01  4.60809750e-01  3.26936803e-09  3.44088965e-09  4.60809750e-01  1.62631893e-07  1.18349732e-07  3.10000000e-01 
 3.20000000e-01  4.60809750e-01  4.60809750e-01  4.60809750e-01  4.60809750e-01  3.26936797e-09  3.44088971e-09  4.60809750e-01  1.62631891e-07  1.18349487e-07  3.20000000e-01 
 3.30000000e-01  4.60809748e-01  4.60809748e-01  4.60809748e-01  4.60809748e-01  3.26936803e-09  3.44088965e-09  4.60809748e-01  1.62631886e-07  1.18349341e-07  3.30000000e-01 
 3.40000000e-01  4.60809724e-01  4.60809724e-01  4.60809724e-01  4.60809724e-01  3.26936797e-09  3.44088970e-09  4.60809724e-01  1.62631857e-07  1.18349128e-07  3.40000000e-01 
 3.50000000e-01  4.60809728e-01  4.60809728e-01  4.60809728e-01  4.60809728e-01  3.26936803e-09  3.44088965e-09  4.60809728e-01  1.62631856e-07  1.18349128e-07  3.50000000e-01 
 3.60000000e-01  4.60809728e-01  4.60809728e-01  4.60809728e-01  4.60809728e-01  3.26936797e-09  3.44088970e-09  4.60809728e-01  1.62631856e-07  1.18348900e-07  3.60000000e-01 
 3.70000000e-01  4.60809714e-01  4.60809714e-01  4.60809714e-01  4.60809714e-01  3.26936797e-09  3.44088965e-09  4.60809715e-01  1.62631838e-07  1.18348780e-07  3.70000000e-01 
 3.80000000e-01  4.60809716e-01  4.60809716e-01  4.60809716e-01  4.60809716e-01  3.26936797e-09  3.44088965e-09  4.60809716e-01  1.62631840e-07  1.18348780e-07  3.80000000e-01 
 3.90000000e-01  4.60809732e-01  4.60809732e-01  4.60809732e-01  4.60809732e-01  3.26936803e-09  3.44088970e-09  4.60809732e-01  1.62631863e-07  1.18348719e-07  3.90000000e-01 
 4.00000000e-01  4.60809734e-01  4.60809734e-01  4.60809734e-01  4.60809734e-01  3.26936797e-09  3.44088965e-09  4.60809734e-01  1.62631865e-07  1.18348456e-07  4.00000000e-01 
 4.10000000e-01  4.60809756e-01  4.60809756e-01  4.60809756e-01  4.60809756e-01  3.26936803e-09  3.44088965e-09  4.60809756e-01  1.62631898e-07  1.18348456e-07  4.10000000e-01 
 4.20000000e-01  4.60809710e-01  4.60809710e-01  4.60809710e-01  4.60809710e-01  3.26936803e-09  3.44088964e-09  4.60809710e-01  1.62631830e-07  1.18348254e-07  4.20000000e-01 
 4.30000000e-01  4.60809742e-01  4.60809742e-01  4.60809742e-01  4.60809742e-01  3.26936803e-09  3.44088965e-09  4.60809742e-01  1.62631860e-07  1.18348360e-07  4.30000000e-01 
 4.40000000e-01  4.60809736e-01  4.60809736e-01  4.60809736e-01  4.60809736e-01  3.26936797e-09  3.44088965e-09  4.60809736e-01  1.62631873e-07  1.18348328e-07  4.40000000e-01 
 4.50000000e-01  4.60809732e-01  4.60809732e-01  4.60809732e-01  4.60809732e-01  3.26936797e-09  3.44088970e-09  4.60809732e-01  1.62631860e-07  1.18348154e-07  4.50000000e-01 
 4.60000000e-01  4.60809717e-01  4.60809717e-01  4.60809717e-01  4.60809717e-01  3.26936803e-09  3.44088970e-09  4.60809717e-01  1.62631844e-07  1.18348037e-07  4.60000000e-01 
 4.70000000e-01  4.60809716e-01  4.60809716e-01  4.60809716e-01  4.60809716e-01  3.26936803e-09  3.44088965e-09  4.60809716e-01  1.62631829e-07  1.18347810e-07  4.70000000e-01 
 4.80000000e-01  4.60809737e-01  4.60809737e-01  4.60809737e-01  4.60809737e-01  3.26936797e-09  3.44088970e-09  4.60809737e-01  1.62631862e-07  1.18347828e-07  4.80000000e-01 
 4.90000000e-01  4.60809706e-01  4.60809706e-01  4.60809706e-01  4.60809706e-01  3.26936797e-09  3.44088970e-09  4.60809706e-01  1.62631825e-07  1.18347590e-07  4.90000000e-01 
 5.00000000e-01  4.60809741e-01  4.60809741e-01  4.60809741e-01  4.60809741e-01  3.26936797e-09  3.44088970e-09  4.60809741e-01  1.62631861e-07  1.18347735e-07  5.00000000e-01 
 5.10000000e-01  4.60809736e-01  4.60809736e-01  4.60809736e-01  4.60809736e-01  3.26936797e-09  3.44088970e-09  4.60809736e-01  1.62631860e-07  1.18347675e-07  5.10000000e-01 
 5.20000000e-01  4.60809728e-01  4.60809728e-01  4.60809728e-01  4.60809728e-01  3.26936803e-09  3.44088970e-09  4.60809728e-01  1.62631866e-07  1.18347426e-07  5.20000000e-01 
 5.30000000e-01  4.60809748e-01  4.60809748e-01  4.60809747e-01  4.60809748e-01  3.26936803e-09  3.44088965e-09  4.60809748e-01  1.62631882e-07  1.18347600e-07  5.30000000e-01 
 5.40000000e-01  4.60809730e-01  4.60809730e-01  4.60809730e-01  4.60809730e-01  3.26936803e-09  3.44088965e-09  4.60809730e-01  1.62631867e-07  1.18347284e-07  5.40000000e-01 
 5.50000000e-01  4.60809719e-01  4.60809719e-01  4.60809719e-01  4.60809719e-01  3.26936803e-09  3.44088965e-09  4.60809719e-01  1.62631828e-07  1.18347227e-07  5.50000000e-01 
 5.60000000e-01  4.60809715e-01  4.60809715e-01  4.60809715e-01  4.60809715e-01  3.26936797e-09  3.44088965e-09  4.60809715e-01  1.62631834e-07  1.18347071e-07  5.60000000e-01 
 5.70000000e-01  4.60809752e-01  4.60809752e-01  4.60809752e-01  4.60809752e-01  3.26936798e-09  3.44088965e-09  4.60809752e-01  1.62631892e-07  1.18347074e-07  5.70000000e-01 
 5.80000000e-01  4.60809733e-01  4.60809733e-01  4.60809733e-01  4.60809733e-01  3.26936797e-09  3.44088970e-09  4.60809733e-01  1.62631872e-07  1.18347003e-07  5.80000000e-01 
 5.90000000e-01  4.60809742e-01  4.60809742e-01  4.60809742e-01  4.60809742e-01  3.26936797e-09  3.44088970e-09  4.60809742e-01  1.62631869e-07  1.18346883e-07  5.90000000e-01 
 6.00000000e-01  4.60809761e-01  4.60809761e-01  4.60809761e-01  4.60809761e-01  3.26936798e-09  3.44088965e-09  4.60809761e-01  1.62631899e-07  1.18346875e-07  6.00000000e-01 
 6.10000000e-01  4.60809739e-01  4.60809739e-01  4.60809739e-01  4.60809739e-01  3.26936797e-09  3.44088965e-09  4.60809739e-01  1.62631868e-07  1.18346755e-07  6.10000000e-01 
 6.20000000e-01  4.60809750e-01  4.60809750e-01  4.60809750e-01  4.60809750e-01  3.26936797e-09  3.44088965e-09  4.60809750e-01  1.62631891e-07  1.18346719e-07  6.20000000e-01 
 6.30000000e-01  4.60809706e-01  4.60809706e-01  4.60809706e-01  4.60809706e-01  3.26936803e-09  3.44088964e-09  4.60809706e-01  1.62631829e-07  1.18346527e-07  6.30000000e-01 
 6.40000000e-01  4.60809747e-01  4.60809747e-01  4.60809747e-01  4.60809747e-01  3.26936803e-09  3.44088965e-09  4.60809747e-01  1.62631878e-07  1.18346499e-07  6.40000000e-01 
 6.50000000e-01  4.60809726e-01  4.60809726e-01  4.60809726e-01  4.60809726e-01  3.26936803e-09  3.44088965e-09  4.60809726e-01  1.62631868e-07  1.18346442e-07  6.50000000e-01 
 6.60000000e-01  4.60809728e-01  4.60809728e-01  4.60809728e-01  4.60809728e-01  3.26936803e-09  3.44088965e-09  4.60809728e-01  1.62631854e-07  1.18346172e-07  6.60000000e-01 
 6.70000000e-01  4.60809745e-01  4.60809745e-01  4.60809745e-01  4.60809745e-01  3.26936803e-09  3.44088970e-09  4.60809745e-01  1.62631870e-07  1.18346300e-07  6.70000000e-01 
 6.80000000e-01  4.60809718e-01  4.60809718e-01  4.60809718e-01  4.60809718e-01  3.26936797e-09  3.44088970e-09  4.60809718e-01  1.62631854e-07  1.18346172e-07  6.80000000e-01 
 6.90000000e-01  4.60809714e-01  4.60809714e-01  4.60809714e-01  4.60809714e-01  3.26936803e-09  3.44088965e-09  4.60809714e-01  1.62631829e-07  1.18345987e-07  6.90000000e-01 
 7.00000000e-01  4.60809728e-01  4.60809728e-01  4.60809728e-01  4.60809728e-01  3.26936797e-09  3.44088970e-09  4.60809728e-01  1.62631855e-07  1.18345902e-07  7.00000000e-01 
 7.10000000e-01  4.60809738e-01  4.60809738e-01  4.60809738e-01  4.60809738e-01  3.26936797e-09  3.44088965e-09  4.60809738e-01  1.62631861e-07  1.18345916e-07  7.10000000e-01 
 7.20000000e-01  4.60809736e-01  4.60809736e-01  4.60809736e-01  4.60809736e-01  3.26936803e-09  3.44088965e-09  4.60809736e-01  1.62631871e-07  1.18345859e-07  7.20000000e-01 
 7.30000000e-01  4.60809734e-01  4.60809734e-01  4.60809734e-01  4.60809734e-01  3.26936797e-09  3.44088970e-09  4.60809734e-01  1.62631867e-07  1.18345689e-07  7.30000000e-01 
 7.40000000e-01  4.60809707e-01  4.60809707e-01  4.60809707e-01  4.60809707e-01  3.26936797e-09  3.44088970e-09  4.60809707e-01  1.62631811e-07  1.18345554e-07  7.40000000e-01 
 7.50000000e-01  4.60809730e-01  4.60809730e-01  4.60809730e-01  4.60809730e-01  3.26936797e-09  3.44088965e-09  4.60809730e-01  1.62631856e-07  1.18345561e-07  7.50000000e-01 
 7.60000000e-01  4.60809736e-01  4.60809736e-01  4.60809736e-01  4.60809736e-01  3.26936797e-09  3.44088970e-09  4.60809736e-01  1.62631877e-07  1.18345561e-07  7.60000000e-01 
 7.70000000e-01  4.60809750e-01  4.60809750e-01  4.60809750e-01  4.60809750e-01  3.26936797e-09  3.44088971e-09  4.60809750e-01  1.62631889e-07  1.18345476e-07  7.70000000e-01 
 7.80000000e-01  4.60809740e-01  4.60809740e-01  4.60809740e-01  4.60809740e-01  3.26936797e-09  3.44088970e-09  4.60809740e-01  1.62631888e-07  1.18345412e-07  7.80000000e-01 
 7.90000000e-01  4.60809747e-01  4.60809747e-01  4.60809747e-01  4.60809747e-01  3.26936797e-09  3.44088965e-09  4.60809747e-01  1.62631876e-07  1.18345262e-07  7.90000000e-01 
 8.00000000e-01  4.60809742e-01  4.60809742e-01  4.60809742e-01  4.60809742e-01  3.26936797e-09  3.44088965e-09  4.60809742e-01  1.62631878e-07  1.18345120e-07  8.00000000e-01 
 8.10000000e-01  4.60809724e-01  4.60809724e-01  4.60809724e-01  4.60809724e-01  3.26936803e-09  3.44088970e-09  4.60809724e-01  1.62631861e-07  1.18345000e-07  8.10000000e-01 
 8.20000000e-01  4.60809770e-01  4.60809769e-01  4.60809769e-01  4.60809770e-01  3.26936803e-09  3.44088971e-09  4.60809770e-01  1.62631914e-07  1.18345000e-07  8.20000000e-01 
 8.30000000e-01  4.60809715e-01  4.60809715e-01  4.60809715e-01  4.60809715e-01  3.26936803e-09  3.44088970e-09  4.60809715e-01  1.62631832e-07  1.18344786e-07  8.30000000e-01 
 8.40000000e-01  4.60809729e-01  4.60809729e-01  4.60809729e-01  4.60809729e-01  3.26936797e-09  3.44088965e-09  4.60809729e-01  1.62631854e-07  1.18344879e-07  8.40000000e-01 
 8.50000000e-01  4.60809726e-01  4.60809726e-01  4.60809726e-01  4.60809726e-01  3.26936803e-09  3.44088970e-09  4.60809726e-01  1.62631856e-07  1.18344623e-07  8.50000000e-01 
 8.60000000e-01  4.60809735e-01  4.60809735e-01  4.60809735e-01  4.60809735e-01  3.26936797e-09  3.44088970e-09  4.60809735e-01  1.62631872e-07  1.18344559e-07  8.60000000e-01 
 8.70000000e-01  4.60809734e-01  4.60809734e-01  4.60809734e-01  4.60809734e-01  3.26936803e-09  3.44088965e-09  4.60809734e-01  1.62631869e-07  1.18344595e-07  8.70000000e-01 
 8.80000000e-01  4.60809755e-01  4.60809755e-01  4.60809755e-01  4.60809755e-01  3.26936803e-09  3.44088965e-09  4.60809755e-01  1.62631884e-07  1.18344566e-07  8.80000000e-01 
 8.90000000e-01  4.60809743e-01  4.60809743e-01  4.60809743e-01  4.60809743e-01  3.26936797e-09  3.44088970e-09  4.60809743e-01  1.62631888e-07  1.18344374e-07  8.90000000e-01 
 9.00000000e-01  4.60809721e-01  4.60809721e-01  4.60809721e-01  4.60809721e-01  3.26936803e-09  3.44088965e-09  4.60809721e-01  1.62631830e-07  1.18344175e-07  9.00000000e-01 
 9.10000000e-01  4.60809748e-01  4.60809748e-01  4.60809748e-01  4.60809748e-01  3.26936797e-09  3.44088965e-09  4.60809748e-01  1.62631887e-07  1.18344261e-07  9.10000000e-01 
 9.20000000e-01  4.60809741e-01  4.60809741e-01  4.60809741e-01  4.60809741e-01  3.26936803e-09  3.44088970e-09  4.60809741e-01  1.62631888e-07  1.18344104e-07  9.20000000e-01 
 9.30000000e-01  4.60809728e-01  4.60809728e-01  4.60809728e-01  4.60809728e-01  3.26936803e-09  3.44088965e-09  4.60809728e-01  1.62631857e-07  1.18344019e-07  9.30000000e-01 
 9.40000000e-01  4.60809725e-01  4.60809725e-01  4.60809725e-01  4.60809725e-01  3.26936797e-09  3.44088970e-09  4.60809725e-01  1.62631841e-07  1.18343827e-07  9.40000000e-01 
 9.50000000e-01  4.60809720e-01  4.60809720e-01  4.60809720e-01  4.60809720e-01  3.26936797e-09  3.44088970e-09  4.60809720e-01  1.62631835e-07  1.18343912e-07  9.50000000e-01 
 9.60000000e-01  4.60809755e-01  4.60809755e-01  4.60809755e-01  4.60809756e-01  3.26936798e-09  3.44088965e-09  4.60809756e-01  1.62631896e-07  1.18343841e-07  9.60000000e-01 
 9.70000000e-01  4.60809713e-01  4.60809713e-01  4.60809713e-01  4.60809713e-01  3.26936797e-09  3.44088965e-09  4.60809713e-01  1.62631841e-07  1.18343600e-07  9.70000000e-01 
 9.80000000e-01  4.60809750e-01  4.60809750e-01  4.60809750e-01  4.60809750e-01  3.26936803e-09  3.44088971e-09  4.60809750e-01  1.62631879e-07  1.18343635e-07  9.80000000e-01 
 9.90000000e-01  4.60809731e-01  4.60809731e-01  4.60809731e-01  4.60809731e-01  3.26936803e-09  3.44088965e-09  4.60809731e-01  1.62631857e-07  1.18343337e-07  9.90000000e-01 
 1.00000000e+00  4.60809755e-01  4.60809755e-01  4.60809755e-01  4.60809755e-01  3.26936798e-09  3.44088965e-09  4.60809755e-01  1.62631888e-07  1.18343372e-07  1.00000000e+00 
 1.01000000e+00  4.60809751e-01  4.60809751e-01  4.60809751e-01  4.60809751e-01  3.26936803e-09  3.44088965e-09  4.60809751e-01  1.62631880e-07  1.18343401e-07  1.01000000e+00 
 1.02000000e+00  4.60809721e-01  4.60809721e-01  4.60809721e-01  4.60809721e-01  3.26936803e-09  3.44088970e-09  4.60809721e-01  1.62631855e-07  1.18343152e-07  1.02000000e+00 
 1.03000000e+00  4.60809742e-01  4.60809742e-01  4.60809742e-01  4.60809742e-01  3.26936797e-09  3.44088970e-09  4.60809742e-01  1.62631866e-07  1.18343053e-07  1.03000000e+00 
 1.04000000e+00  4.60809734e-01  4.60809733e-01  4.60809733e-01  4.60809734e-01  3.26936797e-09  3.44088970e-09  4.60809734e-01  1.62631869e-07  1.18342960e-07  1.04000000e+00 
 1.05000000e+00  4.60809726e-01  4.60809726e-01  4.60809726e-01  4.60809726e-01  3.26936797e-09  3.44088965e-09  4.60809726e-01  1.62631851e-07  1.18342825e-07  1.05000000e+00 
 1.06000000e+00  4.60809759e-01  4.60809759e-01  4.60809759e-01  4.60809759e-01  3.26936803e-09  3.44088965e-09  4.60809759e-01  1.62631894e-07  1.18342847e-07  1.06000000e+00 
 1.07000000e+00  4.60809731e-01  4.60809731e-01  4.60809731e-01  4.60809731e-01  3.26936797e-09  3.44088970e-09  4.60809731e-01  1.62631868e-07  1.18342719e-07  1.07000000e+00 
 1.08000000e+00  4.60809739e-01  4.60809739e-01  4.60809739e-01  4.60809739e-01  3.26936803e-09  3.44088970e-09  4.60809739e-01  1.62631877e-07  1.18342541e-07  1.08000000e+00 
 1.09000000e+00  4.60809747e-01  4.60809747e-01  4.60809747e-01  4.60809747e-01  3.26936797e-09  3.44088965e-09  4.60809747e-01  1.62631878e-07  1.18342498e-07  1.09000000e+00 
 1.10000000e+00  4.60809748e-01  4.60809748e-01  4.60809748e-01  4.60809748e-01  3.26936803e-09  3.44088965e-09  4.60809748e-01  1.62631889e-07  1.18342413e-07  1.10000000e+00 
