 v-sweep         v(b0)           v(b1)           v(b2)           v(b3)           v(b4)           v(b5)           v(b6)           i(vbias)        i(viout)        v(vout)        
 0.00000000e+00  3.53192425e-09  4.57211161e-01  4.57211161e-01  4.57211161e-01  3.31059119e-09  3.28405732e-09  3.74669895e-09  1.56706406e-07  2.22485012e-08  0.00000000e+00 
 1.00000000e-02  3.53192429e-09  4.57211170e-01  4.57211169e-01  4.57211169e-01  3.31059117e-09  3.28405735e-09  3.74669892e-09  1.56706405e-07  2.22481874e-08  1.00000000e-02 
 2.00000000e-02  3.53192422e-09  4.57211186e-01  4.57211186e-01  4.57211186e-01  3.31059123e-09  3.28405741e-09  3.74669899e-09  1.56706440e-07  2.22477607e-08  2.00000000e-02 
 3.00000000e-02  3.53192429e-09  4.57211187e-01  4.57211187e-01  4.57211187e-01  3.31059117e-09  3.28405734e-09  3.74669892e-09  1.56706438e-07  2.22474215e-08  3.00000000e-02 
 4.00000000e-02  3.53192427e-09  4.57211199e-01  4.57211199e-01  4.57211199e-01  3.31059117e-09  3.28405736e-09  3.74669894e-09  1.56706444e-07  2.22471281e-08  4.00000000e-02 
 5.00000000e-02  3.53192428e-09  4.57211172e-01  4.57211171e-01  4.57211171e-01  3.31059117e-09  3.28405735e-09  3.74669899e-09  1.56706423e-07  2.22467356e-08  5.00000000e-02 
 6.00000000e-02  3.53192428e-09  4.57211202e-01  4.57211201e-01  4.57211201e-01  3.31059117e-09  3.28405736e-09  3.74669892e-09  1.56706463e-07  2.22465228e-08  6.00000000e-02 
 7.00000000e-02  3.53192422e-09  4.57211199e-01  4.57211199e-01  4.57211199e-01  3.31059117e-09  3.28405741e-09  3.74669894e-09  1.56706448e-07  2.22461929e-08  7.00000000e-02 
 8.00000000e-02  3.53192429e-09  4.57211205e-01  4.57211205e-01  4.57211205e-01  3.31059117e-09  3.28405734e-09  3.74669893e-09  1.56706465e-07  2.22458718e-08  8.00000000e-02 
 9.00000000e-02  3.53192427e-09  4.57211182e-01  4.57211182e-01  4.57211182e-01  3.31059117e-09  3.28405736e-09  3.74669899e-09  1.56706449e-07  2.22455778e-08  9.00000000e-02 
 1.00000000e-01  3.53192428e-09  4.57211177e-01  4.57211177e-01  4.57211177e-01  3.31059117e-09  3.28405735e-09  3.74669892e-09  1.56706439e-07  2.22452599e-08  1.00000000e-01 
 1.10000000e-01  3.53192428e-09  4.57211186e-01  4.57211186e-01  4.57211186e-01  3.31059117e-09  3.28405736e-09  3.74669894e-09  1.56706430e-07  2.22452057e-08  1.10000000e-01 
 1.20000000e-01  3.53192422e-09  4.57211187e-01  4.57211187e-01  4.57211187e-01  3.31059117e-09  3.28405736e-09  3.74669893e-09  1.56706428e-07  2.22448859e-08  1.20000000e-01 
 1.30000000e-01  3.53192424e-09  4.57211191e-01  4.57211191e-01  4.57211191e-01  3.31059117e-09  3.28405736e-09  3.74669893e-09  1.56706448e-07  2.22446479e-08  1.30000000e-01 
 1.40000000e-01  3.53192429e-09  4.57211185e-01  4.57211185e-01  4.57211185e-01  3.31059117e-09  3.28405736e-09  3.74669893e-09  1.56706436e-07  2.22444108e-08  1.40000000e-01 
 1.50000000e-01  3.53192427e-09  4.57211190e-01  4.57211190e-01  4.57211190e-01  3.31059117e-09  3.28405741e-09  3.74669893e-09  1.56706441e-07  2.22443344e-08  1.50000000e-01 
 1.60000000e-01  3.53192422e-09  4.57211183e-01  4.57211183e-01  4.57211183e-01  3.31059117e-09  3.28405734e-09  3.74669899e-09  1.56706428e-07  2.22442420e-08  1.60000000e-01 
 1.70000000e-01  3.53192423e-09  4.57211172e-01  4.57211172e-01  4.57211172e-01  3.31059117e-09  3.28405736e-09  3.74669897e-09  1.56706425e-07  2.22438903e-08  1.70000000e-01 
 1.80000000e-01  3.53192429e-09  4.57211194e-01  4.57211194e-01  4.57211194e-01  3.31059117e-09  3.28405736e-09  3.74669898e-09  1.56706455e-07  2.22437073e-08  1.80000000e-01 
 1.90000000e-01  3.53192427e-09  4.57211179e-01  4.57211179e-01  4.57211179e-01  3.31059117e-09  3.28405741e-09  3.74669892e-09  1.56706445e-07  2.22435474e-08  1.90000000e-01 
 2.00000000e-01  3.53192422e-09  4.57211176e-01  4.57211176e-01  4.57211176e-01  3.31059117e-09  3.28405740e-09  3.74669894e-09  1.56706427e-07  2.22434409e-08  2.00000000e-01 
 2.10000000e-01  3.53192429e-09  4.57211178e-01  4.57211178e-01  4.57211178e-01  3.31059117e-09  3.28405741e-09  3.74669893e-09  1.56706416e-07  2.22432419e-08  2.10000000e-01 
 2.20000000e-01  3.53192427e-09  4.57211166e-01  4.57211166e-01  4.57211166e-01  3.31059117e-09  3.28405735e-09  3.74669899e-09  1.56706404e-07  2.22430998e-08  2.20000000e-01 
 2.30000000e-01  3.53192428e-09  4.57211181e-01  4.57211181e-01  4.57211181e-01  3.31059117e-09  3.28405736e-09  3.74669898e-09  1.56706419e-07  2.22429488e-08  2.30000000e-01 
 2.40000000e-01  3.53192422e-09  4.57211199e-01  4.57211199e-01  4.57211199e-01  3.31059117e-09  3.28405736e-09  3.74669898e-09  1.56706458e-07  2.22427783e-08  2.40000000e-01 
 2.50000000e-01  3.53192424e-09  4.57211189e-01  4.57211189e-01  4.57211189e-01  3.31059117e-09  3.28405736e-09  3.74669898e-09  1.56706448e-07  2.22427179e-08  2.50000000e-01 
 2.60000000e-01  3.53192423e-09  4.57211177e-01  4.57211176e-01  4.57211176e-01  3.31059117e-09  3.28405741e-09  3.74669892e-09  1.56706412e-07  2.22424585e-08  2.60000000e-01 
 2.70000000e-01  3.53192429e-09  4.57211189e-01  4.57211189e-01  4.57211189e-01  3.31059117e-09  3.28405734e-09  3.74669899e-09  1.56706446e-07  2.22424585e-08  2.70000000e-01 
 2.80000000e-01  3.53192422e-09  4.57211190e-01  4.57211190e-01  4.57211190e-01  3.31059117e-09  3.28405736e-09  3.74669892e-09  1.56706457e-07  2.22422774e-08  2.80000000e-01 
 2.90000000e-01  3.53192423e-09  4.57211181e-01  4.57211181e-01  4.57211181e-01  3.31059117e-09  3.28405735e-09  3.74669899e-09  1.56706417e-07  2.22422507e-08  2.90000000e-01 
 3.00000000e-01  3.53192429e-09  4.57211162e-01  4.57211162e-01  4.57211162e-01  3.31059117e-09  3.28405735e-09  3.74669892e-09  1.56706394e-07  2.22421868e-08  3.00000000e-01 
 3.10000000e-01  3.53192427e-09  4.57211159e-01  4.57211159e-01  4.57211159e-01  3.31059117e-09  3.28405735e-09  3.74669894e-09  1.56706396e-07  2.22420766e-08  3.10000000e-01 
 3.20000000e-01  3.53192428e-09  4.57211162e-01  4.57211162e-01  4.57211162e-01  3.31059117e-09  3.28405735e-09  3.74669893e-09  1.56706407e-07  2.22419345e-08  3.20000000e-01 
 3.30000000e-01  3.53192422e-09  4.57211188e-01  4.57211188e-01  4.57211188e-01  3.31059117e-09  3.28405736e-09  3.74669899e-09  1.56706432e-07  2.22419310e-08  3.30000000e-01 
 3.40000000e-01  3.53192424e-09  4.57211195e-01  4.57211195e-01  4.57211195e-01  3.31059117e-09  3.28405736e-09  3.74669898e-09  1.56706454e-07  2.22417533e-08  3.40000000e-01 
 3.50000000e-01  3.53192423e-09  4.57211196e-01  4.57211196e-01  4.57211196e-01  3.31059117e-09  3.28405736e-09  3.74669893e-09  1.56706444e-07  2.22417214e-08  3.50000000e-01 
 3.60000000e-01  3.53192429e-09  4.57211185e-01  4.57211185e-01  4.57211185e-01  3.31059117e-09  3.28405735e-09  3.74669899e-09  1.56706440e-07  2.22417142e-08  3.60000000e-01 
 3.70000000e-01  3.53192427e-09  4.57211187e-01  4.57211187e-01  4.57211187e-01  3.31059117e-09  3.28405736e-09  3.74669898e-09  1.56706436e-07  2.22415792e-08  3.70000000e-01 
 3.80000000e-01  3.53192428e-09  4.57211200e-01  4.57211200e-01  4.57211200e-01  3.31059117e-09  3.28405736e-09  3.74669898e-09  1.56706468e-07  2.22415935e-08  3.80000000e-01 
 3.90000000e-01  3.53192428e-09  4.57211136e-01  4.57211136e-01  4.57211136e-01  3.31059117e-09  3.28405735e-09  3.74669898e-09  1.56706370e-07  2.22413092e-08  3.90000000e-01 
 4.00000000e-01  3.53192422e-09  4.57211172e-01  4.57211172e-01  4.57211172e-01  3.31059123e-09  3.28405735e-09  3.74669892e-09  1.56706433e-07  2.22413128e-08  4.00000000e-01 
 4.10000000e-01  3.53192429e-09  4.57211172e-01  4.57211172e-01  4.57211172e-01  3.31059117e-09  3.28405735e-09  3.74669899e-09  1.56706423e-07  2.22412027e-08  4.10000000e-01 
 4.20000000e-01  3.53192427e-09  4.57211173e-01  4.57211173e-01  4.57211173e-01  3.31059117e-09  3.28405735e-09  3.74669898e-09  1.56706411e-07  2.22412098e-08  4.20000000e-01 
 4.30000000e-01  3.53192428e-09  4.57211170e-01  4.57211170e-01  4.57211170e-01  3.31059117e-09  3.28405735e-09  3.74669892e-09  1.56706411e-07  2.22410783e-08  4.30000000e-01 
 4.40000000e-01  3.53192428e-09  4.57211181e-01  4.57211181e-01  4.57211181e-01  3.31059117e-09  3.28405735e-09  3.74669894e-09  1.56706435e-07  2.22410286e-08  4.40000000e-01 
 4.50000000e-01  3.53192428e-09  4.57211191e-01  4.57211191e-01  4.57211191e-01  3.31059111e-09  3.28405741e-09  3.74669893e-09  1.56706441e-07  2.22409646e-08  4.50000000e-01 
 4.60000000e-01  3.53192428e-09  4.57211143e-01  4.57211143e-01  4.57211143e-01  3.31059123e-09  3.28405740e-09  3.74669893e-09  1.56706379e-07  2.22408048e-08  4.60000000e-01 
 4.70000000e-01  3.53192422e-09  4.57211165e-01  4.57211165e-01  4.57211165e-01  3.31059117e-09  3.28405735e-09  3.74669893e-09  1.56706405e-07  2.22407799e-08  4.70000000e-01 
 4.80000000e-01  3.53192424e-09  4.57211211e-01  4.57211211e-01  4.57211211e-01  3.31059117e-09  3.28405736e-09  3.74669893e-09  1.56706473e-07  2.22407870e-08  4.80000000e-01 
 4.90000000e-01  3.53192429e-09  4.57211165e-01  4.57211165e-01  4.57211165e-01  3.31059117e-09  3.28405741e-09  3.74669899e-09  1.56706406e-07  2.22407053e-08  4.90000000e-01 
 5.00000000e-01  3.53192427e-09  4.57211150e-01  4.57211150e-01  4.57211150e-01  3.31059117e-09  3.28405740e-09  3.74669892e-09  1.56706385e-07  2.22406733e-08  5.00000000e-01 
 5.10000000e-01  3.53192428e-09  4.57211162e-01  4.57211162e-01  4.57211162e-01  3.31059117e-09  3.28405735e-09  3.74669899e-09  1.56706403e-07  2.22406307e-08  5.10000000e-01 
 5.20000000e-01  3.53192428e-09  4.57211180e-01  4.57211180e-01  4.57211180e-01  3.31059117e-09  3.28405736e-09  3.74669898e-09  1.56706426e-07  2.22404637e-08  5.20000000e-01 
 5.30000000e-01  3.53192428e-09  4.57211166e-01  4.57211166e-01  4.57211166e-01  3.31059117e-09  3.28405741e-09  3.74669898e-09  1.56706420e-07  2.22404282e-08  5.30000000e-01 
 5.40000000e-01  3.53192428e-09  4.57211168e-01  4.57211168e-01  4.57211168e-01  3.31059117e-09  3.28405740e-09  3.74669892e-09  1.56706418e-07  2.22403997e-08  5.40000000e-01 
 5.50000000e-01  3.53192422e-09  4.57211190e-01  4.57211190e-01  4.57211190e-01  3.31059117e-09  3.28405735e-09  3.74669894e-09  1.56706455e-07  2.22403784e-08  5.50000000e-01 
 5.60000000e-01  3.53192424e-09  4.57211192e-01  4.57211192e-01  4.57211192e-01  3.31059111e-09  3.28405736e-09  3.74669893e-09  1.56706455e-07  2.22402932e-08  5.60000000e-01 
 5.70000000e-01  3.53192423e-09  4.57211177e-01  4.57211177e-01  4.57211177e-01  3.31059117e-09  3.28405735e-09  3.74669893e-09  1.56706421e-07  2.22402292e-08  5.70000000e-01 
 5.80000000e-01  3.53192429e-09  4.57211193e-01  4.57211193e-01  4.57211193e-01  3.31059117e-09  3.28405736e-09  3.74669893e-09  1.56706445e-07  2.22402790e-08  5.80000000e-01 
 5.90000000e-01  3.53192427e-09  4.57211176e-01  4.57211176e-01  4.57211176e-01  3.31059117e-09  3.28405735e-09  3.74669899e-09  1.56706420e-07  2.22402790e-08  5.90000000e-01 
 6.00000000e-01  3.53192422e-09  4.57211181e-01  4.57211181e-01  4.57211181e-01  3.31059117e-09  3.28405735e-09  3.74669898e-09  1.56706423e-07  2.22401084e-08  6.00000000e-01 
 6.10000000e-01  3.53192429e-09  4.57211179e-01  4.57211179e-01  4.57211179e-01  3.31059117e-09  3.28405735e-09  3.74669898e-09  1.56706432e-07  2.22401582e-08  6.10000000e-01 
 6.20000000e-01  3.53192427e-09  4.57211180e-01  4.57211180e-01  4.57211180e-01  3.31059117e-09  3.28405741e-09  3.74669898e-09  1.56706424e-07  2.22399379e-08  6.20000000e-01 
 6.30000000e-01  3.53192428e-09  4.57211169e-01  4.57211169e-01  4.57211169e-01  3.31059117e-09  3.28405740e-09  3.74669898e-09  1.56706415e-07  2.22399379e-08  6.30000000e-01 
 6.40000000e-01  3.53192428e-09  4.57211172e-01  4.57211172e-01  4.57211172e-01  3.31059117e-09  3.28405741e-09  3.74669892e-09  1.56706428e-07  2.22398953e-08  6.40000000e-01 
 6.50000000e-01  3.53192428e-09  4.57211174e-01  4.57211174e-01  4.57211174e-01  3.31059117e-09  3.28405735e-09  3.74669894e-09  1.56706423e-07  2.22397674e-08  6.50000000e-01 
 6.60000000e-01  3.53192422e-09  4.57211163e-01  4.57211163e-01  4.57211163e-01  3.31059117e-09  3.28405736e-09  3.74669893e-09  1.56706392e-07  2.22398526e-08  6.60000000e-01 
 6.70000000e-01  3.53192429e-09  4.57211168e-01  4.57211168e-01  4.57211168e-01  3.31059117e-09  3.28405741e-09  3.74669893e-09  1.56706405e-07  2.22397034e-08  6.70000000e-01 
 6.80000000e-01  3.53192427e-09  4.57211170e-01  4.57211169e-01  4.57211169e-01  3.31059117e-09  3.28405740e-09  3.74669899e-09  1.56706413e-07  2.22397176e-08  6.80000000e-01 
 6.90000000e-01  3.53192428e-09  4.57211177e-01  4.57211177e-01  4.57211177e-01  3.31059117e-09  3.28405741e-09  3.74669898e-09  1.56706416e-07  2.22397389e-08  6.90000000e-01 
 7.00000000e-01  3.53192428e-09  4.57211197e-01  4.57211197e-01  4.57211197e-01  3.31059123e-09  3.28405735e-09  3.74669898e-09  1.56706460e-07  2.22395258e-08  7.00000000e-01 
 7.10000000e-01  3.53192428e-09  4.57211173e-01  4.57211173e-01  4.57211173e-01  3.31059117e-09  3.28405736e-09  3.74669898e-09  1.56706412e-07  2.22395187e-08  7.10000000e-01 
 7.20000000e-01  3.53192428e-09  4.57211156e-01  4.57211156e-01  4.57211156e-01  3.31059117e-09  3.28405735e-09  3.74669898e-09  1.56706390e-07  2.22395968e-08  7.20000000e-01 
 7.30000000e-01  3.53192428e-09  4.57211182e-01  4.57211182e-01  4.57211182e-01  3.31059117e-09  3.28405735e-09  3.74669898e-09  1.56706437e-07  2.22395968e-08  7.30000000e-01 
 7.40000000e-01  3.53192428e-09  4.57211162e-01  4.57211162e-01  4.57211162e-01  3.31059117e-09  3.28405735e-09  3.74669892e-09  1.56706402e-07  2.22393624e-08  7.40000000e-01 
 7.50000000e-01  3.53192422e-09  4.57211182e-01  4.57211182e-01  4.57211182e-01  3.31059117e-09  3.28405735e-09  3.74669899e-09  1.56706433e-07  2.22393339e-08  7.50000000e-01 
 7.60000000e-01  3.53192429e-09  4.57211193e-01  4.57211193e-01  4.57211193e-01  3.31059117e-09  3.28405741e-09  3.74669892e-09  1.56706447e-07  2.22393766e-08  7.60000000e-01 
 7.70000000e-01  3.53192427e-09  4.57211191e-01  4.57211191e-01  4.57211191e-01  3.31059117e-09  3.28405740e-09  3.74669894e-09  1.56706462e-07  2.22392771e-08  7.70000000e-01 
 7.80000000e-01  3.53192428e-09  4.57211184e-01  4.57211184e-01  4.57211184e-01  3.31059117e-09  3.28405735e-09  3.74669893e-09  1.56706435e-07  2.22392202e-08  7.80000000e-01 
 7.90000000e-01  3.53192428e-09  4.57211179e-01  4.57211179e-01  4.57211179e-01  3.31059117e-09  3.28405736e-09  3.74669893e-09  1.56706414e-07  2.22390639e-08  7.90000000e-01 
 8.00000000e-01  3.53192428e-09  4.57211157e-01  4.57211157e-01  4.57211157e-01  3.31059117e-09  3.28405735e-09  3.74669893e-09  1.56706392e-07  2.22389858e-08  8.00000000e-01 
 8.10000000e-01  3.53192422e-09  4.57211169e-01  4.57211169e-01  4.57211169e-01  3.31059117e-09  3.28405735e-09  3.74669899e-09  1.56706410e-07  2.22389787e-08  8.10000000e-01 
 8.20000000e-01  3.53192423e-09  4.57211177e-01  4.57211177e-01  4.57211177e-01  3.31059117e-09  3.28405735e-09  3.74669898e-09  1.56706420e-07  2.22389929e-08  8.20000000e-01 
 8.30000000e-01  3.53192429e-09  4.57211172e-01  4.57211172e-01  4.57211172e-01  3.31059117e-09  3.28405735e-09  3.74669892e-09  1.56706424e-07  2.22389644e-08  8.30000000e-01 
 8.40000000e-01  3.53192427e-09  4.57211165e-01  4.57211165e-01  4.57211165e-01  3.31059117e-09  3.28405735e-09  3.74669899e-09  1.56706413e-07  2.22389005e-08  8.40000000e-01 
 8.50000000e-01  3.53192428e-09  4.57211169e-01  4.57211169e-01  4.57211169e-01  3.31059117e-09  3.28405735e-09  3.74669897e-09  1.56706422e-07  2.22388579e-08  8.50000000e-01 
 8.60000000e-01  3.53192422e-09  4.57211182e-01  4.57211182e-01  4.57211182e-01  3.31059117e-09  3.28405735e-09  3.74669892e-09  1.56706432e-07  2.22388366e-08  8.60000000e-01 
 8.70000000e-01  3.53192423e-09  4.57211176e-01  4.57211176e-01  4.57211176e-01  3.31059117e-09  3.28405735e-09  3.74669894e-09  1.56706412e-07  2.22386305e-08  8.70000000e-01 
 8.80000000e-01  3.53192423e-09  4.57211183e-01  4.57211183e-01  4.57211183e-01  3.31059117e-09  3.28405735e-09  3.74669893e-09  1.56706423e-07  2.22386021e-08  8.80000000e-01 
 8.90000000e-01  3.53192429e-09  4.57211176e-01  4.57211176e-01  4.57211176e-01  3.31059117e-09  3.28405735e-09  3.74669893e-09  1.56706425e-07  2.22385950e-08  8.90000000e-01 
 9.00000000e-01  3.53192427e-09  4.57211180e-01  4.57211180e-01  4.57211180e-01  3.31059117e-09  3.28405735e-09  3.74669893e-09  1.56706439e-07  2.22385808e-08  9.00000000e-01 
 9.10000000e-01  3.53192428e-09  4.57211163e-01  4.57211162e-01  4.57211162e-01  3.31059117e-09  3.28405735e-09  3.74669899e-09  1.56706408e-07  2.22385239e-08  9.10000000e-01 
 9.20000000e-01  3.53192428e-09  4.57211152e-01  4.57211152e-01  4.57211152e-01  3.31059117e-09  3.28405741e-09  3.74669897e-09  1.56706399e-07  2.22382965e-08  9.20000000e-01 
 9.30000000e-01  3.53192428e-09  4.57211148e-01  4.57211148e-01  4.57211148e-01  3.31059117e-09  3.28405740e-09  3.74669898e-09  1.56706390e-07  2.22385026e-08  9.30000000e-01 
 9.40000000e-01  3.53192422e-09  4.57211134e-01  4.57211134e-01  4.57211134e-01  3.31059117e-09  3.28405735e-09  3.74669892e-09  1.56706371e-07  2.22382894e-08  9.40000000e-01 
 9.50000000e-01  3.53192429e-09  4.57211172e-01  4.57211172e-01  4.57211172e-01  3.31059117e-09  3.28405736e-09  3.74669894e-09  1.56706410e-07  2.22382681e-08  9.50000000e-01 
 9.60000000e-01  3.53192427e-09  4.57211165e-01  4.57211165e-01  4.57211165e-01  3.31059117e-09  3.28405741e-09  3.74669899e-09  1.56706409e-07  2.22382468e-08  9.60000000e-01 
 9.70000000e-01  3.53192422e-09  4.57211185e-01  4.57211185e-01  4.57211185e-01  3.31059117e-09  3.28405740e-09  3.74669898e-09  1.56706433e-07  2.22382042e-08  9.70000000e-01 
 9.80000000e-01  3.53192429e-09  4.57211185e-01  4.57211185e-01  4.57211185e-01  3.31059117e-09  3.28405741e-09  3.74669898e-09  1.56706444e-07  2.22381047e-08  9.80000000e-01 
 9.90000000e-01  3.53192422e-09  4.57211190e-01  4.57211190e-01  4.57211190e-01  3.31059117e-09  3.28405741e-09  3.74669893e-09  1.56706439e-07  2.22380976e-08  9.90000000e-01 
 1.00000000e+00  3.53192429e-09  4.57211180e-01  4.57211180e-01  4.57211180e-01  3.31059117e-09  3.28405735e-09  3.74669894e-09  1.56706441e-07  2.22381473e-08  1.00000000e+00 
 1.01000000e+00  3.53192427e-09  4.57211169e-01  4.57211169e-01  4.57211169e-01  3.31059117e-09  3.28405736e-09  3.74669899e-09  1.56706407e-07  2.22379342e-08  1.01000000e+00 
 1.02000000e+00  3.53192422e-09  4.57211172e-01  4.57211172e-01  4.57211172e-01  3.31059117e-09  3.28405735e-09  3.74669897e-09  1.56706410e-07  2.22379910e-08  1.02000000e+00 
 1.03000000e+00  3.53192423e-09  4.57211175e-01  4.57211174e-01  4.57211174e-01  3.31059117e-09  3.28405735e-09  3.74669898e-09  1.56706420e-07  2.22378418e-08  1.03000000e+00 
 1.04000000e+00  3.53192423e-09  4.57211187e-01  4.57211187e-01  4.57211187e-01  3.31059117e-09  3.28405736e-09  3.74669898e-09  1.56706440e-07  2.22377565e-08  1.04000000e+00 
 1.05000000e+00  3.53192429e-09  4.57211209e-01  4.57211209e-01  4.57211209e-01  3.31059117e-09  3.28405736e-09  3.74669893e-09  1.56706472e-07  2.22377494e-08  1.05000000e+00 
 1.06000000e+00  3.53192427e-09  4.57211167e-01  4.57211167e-01  4.57211167e-01  3.31059117e-09  3.28405735e-09  3.74669894e-09  1.56706413e-07  2.22377139e-08  1.06000000e+00 
 1.07000000e+00  3.53192428e-09  4.57211187e-01  4.57211187e-01  4.57211187e-01  3.31059117e-09  3.28405736e-09  3.74669899e-09  1.56706437e-07  2.22376428e-08  1.07000000e+00 
 1.08000000e+00  3.53192422e-09  4.57211156e-01  4.57211156e-01  4.57211156e-01  3.31059117e-09  3.28405735e-09  3.74669892e-09  1.56706390e-07  2.22373941e-08  1.08000000e+00 
 1.09000000e+00  3.53192423e-09  4.57211179e-01  4.57211179e-01  4.57211179e-01  3.31059117e-09  3.28405735e-09  3.74669894e-09  1.56706424e-07  2.22374723e-08  1.09000000e+00 
 1.10000000e+00  3.53192423e-09  4.57211187e-01  4.57211187e-01  4.57211187e-01  3.31059117e-09  3.28405736e-09  3.74669893e-09  1.56706435e-07  2.22375149e-08  1.10000000e+00 
