 v-sweep         v(b0)           v(b1)           v(b2)           v(b3)           v(b4)           v(b5)           v(b6)           i(vbias)        i(viout)        v(vout)        
 0.00000000e+00  4.60919555e-01  3.23049225e-09  3.44974565e-09  3.09908384e-09  3.41168978e-09  4.60919555e-01  4.60919555e-01  1.67138930e-07  1.59742683e-07  0.00000000e+00 
 1.00000000e-02  4.60919546e-01  3.23049228e-09  3.44974563e-09  3.09908383e-09  3.41168982e-09  4.60919546e-01  4.60919546e-01  1.67138905e-07  1.59742299e-07  1.00000000e-02 
 2.00000000e-02  4.60919544e-01  3.23049228e-09  3.44974563e-09  3.09908383e-09  3.41168982e-09  4.60919544e-01  4.60919544e-01  1.67138900e-07  1.59741840e-07  2.00000000e-02 
 3.00000000e-02  4.60919546e-01  3.23049234e-09  3.44974563e-09  3.09908383e-09  3.41168977e-09  4.60919547e-01  4.60919547e-01  1.67138902e-07  1.59741428e-07  3.00000000e-02 
 4.00000000e-02  4.60919552e-01  3.23049227e-09  3.44974563e-09  3.09908388e-09  3.41168982e-09  4.60919552e-01  4.60919552e-01  1.67138905e-07  1.59741074e-07  4.00000000e-02 
 5.00000000e-02  4.60919573e-01  3.23049229e-09  3.44974563e-09  3.09908388e-09  3.41168982e-09  4.60919573e-01  4.60919573e-01  1.67138941e-07  1.59740735e-07  5.00000000e-02 
 6.00000000e-02  4.60919542e-01  3.23049228e-09  3.44974563e-09  3.09908383e-09  3.41168982e-09  4.60919542e-01  4.60919542e-01  1.67138893e-07  1.59740272e-07  6.00000000e-02 
 7.00000000e-02  4.60919549e-01  3.23049234e-09  3.44974563e-09  3.09908388e-09  3.41168977e-09  4.60919549e-01  4.60919549e-01  1.67138911e-07  1.59739960e-07  7.00000000e-02 
 8.00000000e-02  4.60919554e-01  3.23049227e-09  3.44974563e-09  3.09908388e-09  3.41168977e-09  4.60919554e-01  4.60919554e-01  1.67138910e-07  1.59739700e-07  8.00000000e-02 
 9.00000000e-02  4.60919550e-01  3.23049229e-09  3.44974563e-09  3.09908388e-09  3.41168982e-09  4.60919550e-01  4.60919550e-01  1.67138908e-07  1.59739333e-07  9.00000000e-02 
 1.00000000e-01  4.60919585e-01  3.23049229e-09  3.44974563e-09  3.09908383e-09  3.41168977e-09  4.60919585e-01  4.60919585e-01  1.67138963e-07  1.59739152e-07  1.00000000e-01 
 1.10000000e-01  4.60919547e-01  3.23049228e-09  3.44974563e-09  3.09908383e-09  3.41168977e-09  4.60919547e-01  4.60919547e-01  1.67138912e-07  1.59738554e-07  1.10000000e-01 
 1.20000000e-01  4.60919545e-01  3.23049228e-09  3.44974563e-09  3.09908388e-09  3.41168982e-09  4.60919545e-01  4.60919546e-01  1.67138899e-07  1.59738313e-07  1.20000000e-01 
 1.30000000e-01  4.60919558e-01  3.23049228e-09  3.44974568e-09  3.09908383e-09  3.41168982e-09  4.60919558e-01  4.60919558e-01  1.67138926e-07  1.59738208e-07  1.30000000e-01 
 1.40000000e-01  4.60919550e-01  3.23049228e-09  3.44974563e-09  3.09908388e-09  3.41168977e-09  4.60919550e-01  4.60919550e-01  1.67138915e-07  1.59737900e-07  1.40000000e-01 
 1.50000000e-01  4.60919552e-01  3.23049228e-09  3.44974563e-09  3.09908383e-09  3.41168982e-09  4.60919552e-01  4.60919552e-01  1.67138917e-07  1.59737583e-07  1.50000000e-01 
 1.60000000e-01  4.60919557e-01  3.23049234e-09  3.44974563e-09  3.09908383e-09  3.41168977e-09  4.60919557e-01  4.60919557e-01  1.67138925e-07  1.59737368e-07  1.60000000e-01 
 1.70000000e-01  4.60919571e-01  3.23049227e-09  3.44974563e-09  3.09908383e-09  3.41168977e-09  4.60919572e-01  4.60919572e-01  1.67138951e-07  1.59737057e-07  1.70000000e-01 
 1.80000000e-01  4.60919546e-01  3.23049229e-09  3.44974563e-09  3.09908383e-09  3.41168982e-09  4.60919546e-01  4.60919546e-01  1.67138917e-07  1.59736862e-07  1.80000000e-01 
 1.90000000e-01  4.60919551e-01  3.23049228e-09  3.44974563e-09  3.09908383e-09  3.41168982e-09  4.60919551e-01  4.60919551e-01  1.67138915e-07  1.59736672e-07  1.90000000e-01 
 2.00000000e-01  4.60919547e-01  3.23049228e-09  3.44974568e-09  3.09908383e-09  3.41168977e-09  4.60919548e-01  4.60919548e-01  1.67138900e-07  1.59736382e-07  2.00000000e-01 
 2.10000000e-01  4.60919564e-01  3.23049228e-09  3.44974563e-09  3.09908388e-09  3.41168977e-09  4.60919564e-01  4.60919564e-01  1.67138937e-07  1.59736295e-07  2.10000000e-01 
 2.20000000e-01  4.60919540e-01  3.23049228e-09  3.44974563e-09  3.09908383e-09  3.41168977e-09  4.60919540e-01  4.60919540e-01  1.67138895e-07  1.59736048e-07  2.20000000e-01 
 2.30000000e-01  4.60919547e-01  3.23049228e-09  3.44974563e-09  3.09908383e-09  3.41168982e-09  4.60919547e-01  4.60919547e-01  1.67138908e-07  1.59735908e-07  2.30000000e-01 
 2.40000000e-01  4.60919564e-01  3.23049228e-09  3.44974563e-09  3.09908388e-09  3.41168982e-09  4.60919564e-01  4.60919564e-01  1.67138931e-07  1.59735681e-07  2.40000000e-01 
 2.50000000e-01  4.60919556e-01  3.23049228e-09  3.44974563e-09  3.09908388e-09  3.41168977e-09  4.60919556e-01  4.60919556e-01  1.67138919e-07  1.59735416e-07  2.50000000e-01 
 2.60000000e-01  4.60919551e-01  3.23049228e-09  3.44974563e-09  3.09908388e-09  3.41168982e-09  4.60919551e-01  4.60919551e-01  1.67138918e-07  1.59735286e-07  2.60000000e-01 
 2.70000000e-01  4.60919555e-01  3.23049228e-09  3.44974563e-09  3.09908388e-09  3.41168977e-09  4.60919555e-01  4.60919555e-01  1.67138922e-07  1.59735087e-07  2.70000000e-01 
 2.80000000e-01  4.60919567e-01  3.23049229e-09  3.44974568e-09  3.09908388e-09  3.41168977e-09  4.60919567e-01  4.60919567e-01  1.67138931e-07  1.59735041e-07  2.80000000e-01 
 2.90000000e-01  4.60919566e-01  3.23049229e-09  3.44974563e-09  3.09908388e-09  3.41168982e-09  4.60919566e-01  4.60919566e-01  1.67138926e-07  1.59734846e-07  2.90000000e-01 
 3.00000000e-01  4.60919574e-01  3.23049229e-09  3.44974563e-09  3.09908383e-09  3.41168977e-09  4.60919574e-01  4.60919574e-01  1.67138949e-07  1.59734665e-07  3.00000000e-01 
 3.10000000e-01  4.60919562e-01  3.23049228e-09  3.44974563e-09  3.09908383e-09  3.41168982e-09  4.60919562e-01  4.60919562e-01  1.67138931e-07  1.59734562e-07  3.10000000e-01 
 3.20000000e-01  4.60919570e-01  3.23049229e-09  3.44974563e-09  3.09908383e-09  3.41168982e-09  4.60919570e-01  4.60919570e-01  1.67138953e-07  1.59734352e-07  3.20000000e-01 
 3.30000000e-01  4.60919559e-01  3.23049234e-09  3.44974568e-09  3.09908388e-09  3.41168982e-09  4.60919559e-01  4.60919559e-01  1.67138926e-07  1.59734260e-07  3.30000000e-01 
 3.40000000e-01  4.60919572e-01  3.23049227e-09  3.44974563e-09  3.09908388e-09  3.41168982e-09  4.60919572e-01  4.60919572e-01  1.67138942e-07  1.59734007e-07  3.40000000e-01 
 3.50000000e-01  4.60919563e-01  3.23049229e-09  3.44974563e-09  3.09908388e-09  3.41168982e-09  4.60919564e-01  4.60919564e-01  1.67138930e-07  1.59733869e-07  3.50000000e-01 
 3.60000000e-01  4.60919542e-01  3.23049228e-09  3.44974563e-09  3.09908383e-09  3.41168977e-09  4.60919542e-01  4.60919543e-01  1.67138897e-07  1.59733826e-07  3.60000000e-01 
 3.70000000e-01  4.60919551e-01  3.23049228e-09  3.44974568e-09  3.09908383e-09  3.41168982e-09  4.60919551e-01  4.60919551e-01  1.67138914e-07  1.59733538e-07  3.70000000e-01 
 3.80000000e-01  4.60919563e-01  3.23049228e-09  3.44974563e-09  3.09908388e-09  3.41168977e-09  4.60919563e-01  4.60919563e-01  1.67138923e-07  1.59733506e-07  3.80000000e-01 
 3.90000000e-01  4.60919558e-01  3.23049228e-09  3.44974563e-09  3.09908383e-09  3.41168977e-09  4.60919559e-01  4.60919559e-01  1.67138927e-07  1.59733339e-07  3.90000000e-01 
 4.00000000e-01  4.60919552e-01  3.23049228e-09  3.44974563e-09  3.09908383e-09  3.41168977e-09  4.60919552e-01  4.60919552e-01  1.67138913e-07  1.59733222e-07  4.00000000e-01 
 4.10000000e-01  4.60919555e-01  3.23049234e-09  3.44974563e-09  3.09908388e-09  3.41168982e-09  4.60919555e-01  4.60919555e-01  1.67138923e-07  1.59733062e-07  4.10000000e-01 
 4.20000000e-01  4.60919544e-01  3.23049227e-09  3.44974563e-09  3.09908383e-09  3.41168977e-09  4.60919544e-01  4.60919544e-01  1.67138902e-07  1.59732888e-07  4.20000000e-01 
 4.30000000e-01  4.60919551e-01  3.23049229e-09  3.44974568e-09  3.09908383e-09  3.41168977e-09  4.60919551e-01  4.60919551e-01  1.67138909e-07  1.59732878e-07  4.30000000e-01 
 4.40000000e-01  4.60919571e-01  3.23049229e-09  3.44974563e-09  3.09908388e-09  3.41168977e-09  4.60919571e-01  4.60919571e-01  1.67138926e-07  1.59732807e-07  4.40000000e-01 
 4.50000000e-01  4.60919551e-01  3.23049228e-09  3.44974563e-09  3.09908388e-09  3.41168982e-09  4.60919551e-01  4.60919551e-01  1.67138913e-07  1.59732622e-07  4.50000000e-01 
 4.60000000e-01  4.60919559e-01  3.23049228e-09  3.44974563e-09  3.09908388e-09  3.41168982e-09  4.60919559e-01  4.60919559e-01  1.67138924e-07  1.59732402e-07  4.60000000e-01 
 4.70000000e-01  4.60919562e-01  3.23049228e-09  3.44974563e-09  3.09908383e-09  3.41168977e-09  4.60919562e-01  4.60919562e-01  1.67138922e-07  1.59732330e-07  4.70000000e-01 
 4.80000000e-01  4.60919540e-01  3.23049228e-09  3.44974563e-09  3.09908383e-09  3.41168982e-09  4.60919540e-01  4.60919540e-01  1.67138898e-07  1.59732046e-07  4.80000000e-01 
 4.90000000e-01  4.60919559e-01  3.23049234e-09  3.44974563e-09  3.09908388e-09  3.41168977e-09  4.60919559e-01  4.60919559e-01  1.67138930e-07  1.59732060e-07  4.90000000e-01 
 5.00000000e-01  4.60919559e-01  3.23049227e-09  3.44974563e-09  3.09908388e-09  3.41168982e-09  4.60919559e-01  4.60919559e-01  1.67138935e-07  1.59732096e-07  5.00000000e-01 
 5.10000000e-01  4.60919544e-01  3.23049229e-09  3.44974563e-09  3.09908388e-09  3.41168982e-09  4.60919544e-01  4.60919544e-01  1.67138894e-07  1.59731908e-07  5.10000000e-01 
 5.20000000e-01  4.60919552e-01  3.23049228e-09  3.44974563e-09  3.09908383e-09  3.41168977e-09  4.60919552e-01  4.60919552e-01  1.67138920e-07  1.59731592e-07  5.20000000e-01 
 5.30000000e-01  4.60919563e-01  3.23049234e-09  3.44974563e-09  3.09908388e-09  3.41168977e-09  4.60919563e-01  4.60919563e-01  1.67138930e-07  1.59731670e-07  5.30000000e-01 
 5.40000000e-01  4.60919555e-01  3.23049227e-09  3.44974563e-09  3.09908383e-09  3.41168977e-09  4.60919555e-01  4.60919555e-01  1.67138911e-07  1.59731542e-07  5.40000000e-01 
 5.50000000e-01  4.60919557e-01  3.23049229e-09  3.44974563e-09  3.09908383e-09  3.41168977e-09  4.60919557e-01  4.60919557e-01  1.67138929e-07  1.59731339e-07  5.50000000e-01 
 5.60000000e-01  4.60919538e-01  3.23049228e-09  3.44974563e-09  3.09908383e-09  3.41168982e-09  4.60919538e-01  4.60919538e-01  1.67138911e-07  1.59731073e-07  5.60000000e-01 
 5.70000000e-01  4.60919559e-01  3.23049228e-09  3.44974563e-09  3.09908388e-09  3.41168982e-09  4.60919559e-01  4.60919560e-01  1.67138934e-07  1.59731243e-07  5.70000000e-01 
 5.80000000e-01  4.60919543e-01  3.23049234e-09  3.44974563e-09  3.09908383e-09  3.41168982e-09  4.60919544e-01  4.60919544e-01  1.67138912e-07  1.59730966e-07  5.80000000e-01 
 5.90000000e-01  4.60919561e-01  3.23049233e-09  3.44974563e-09  3.09908388e-09  3.41168982e-09  4.60919561e-01  4.60919561e-01  1.67138929e-07  1.59730980e-07  5.90000000e-01 
 6.00000000e-01  4.60919573e-01  3.23049228e-09  3.44974563e-09  3.09908383e-09  3.41168977e-09  4.60919573e-01  4.60919573e-01  1.67138942e-07  1.59730909e-07  6.00000000e-01 
 6.10000000e-01  4.60919560e-01  3.23049229e-09  3.44974563e-09  3.09908388e-09  3.41168982e-09  4.60919560e-01  4.60919560e-01  1.67138929e-07  1.59730597e-07  6.10000000e-01 
 6.20000000e-01  4.60919552e-01  3.23049234e-09  3.44974563e-09  3.09908383e-09  3.41168982e-09  4.60919552e-01  4.60919552e-01  1.67138910e-07  1.59730611e-07  6.20000000e-01 
 6.30000000e-01  4.60919534e-01  3.23049227e-09  3.44974568e-09  3.09908388e-09  3.41168982e-09  4.60919534e-01  4.60919534e-01  1.67138883e-07  1.59730362e-07  6.30000000e-01 
 6.40000000e-01  4.60919557e-01  3.23049229e-09  3.44974563e-09  3.09908383e-09  3.41168982e-09  4.60919558e-01  4.60919558e-01  1.67138916e-07  1.59730341e-07  6.40000000e-01 
 6.50000000e-01  4.60919567e-01  3.23049229e-09  3.44974568e-09  3.09908383e-09  3.41168977e-09  4.60919567e-01  4.60919567e-01  1.67138934e-07  1.59730241e-07  6.50000000e-01 
 6.60000000e-01  4.60919563e-01  3.23049228e-09  3.44974568e-09  3.09908383e-09  3.41168982e-09  4.60919563e-01  4.60919563e-01  1.67138938e-07  1.59730163e-07  6.60000000e-01 
 6.70000000e-01  4.60919560e-01  3.23049228e-09  3.44974563e-09  3.09908388e-09  3.41168982e-09  4.60919560e-01  4.60919560e-01  1.67138936e-07  1.59729929e-07  6.70000000e-01 
 6.80000000e-01  4.60919550e-01  3.23049228e-09  3.44974563e-09  3.09908388e-09  3.41168977e-09  4.60919550e-01  4.60919550e-01  1.67138914e-07  1.59729858e-07  6.80000000e-01 
 6.90000000e-01  4.60919557e-01  3.23049228e-09  3.44974563e-09  3.09908388e-09  3.41168977e-09  4.60919557e-01  4.60919557e-01  1.67138927e-07  1.59729751e-07  6.90000000e-01 
 7.00000000e-01  4.60919549e-01  3.23049228e-09  3.44974563e-09  3.09908383e-09  3.41168982e-09  4.60919549e-01  4.60919549e-01  1.67138916e-07  1.59729503e-07  7.00000000e-01 
 7.10000000e-01  4.60919551e-01  3.23049228e-09  3.44974563e-09  3.09908383e-09  3.41168977e-09  4.60919552e-01  4.60919552e-01  1.67138920e-07  1.59729566e-07  7.10000000e-01 
 7.20000000e-01  4.60919551e-01  3.23049228e-09  3.44974563e-09  3.09908388e-09  3.41168982e-09  4.60919551e-01  4.60919551e-01  1.67138916e-07  1.59729403e-07  7.20000000e-01 
 7.30000000e-01  4.60919573e-01  3.23049229e-09  3.44974563e-09  3.09908383e-09  3.41168977e-09  4.60919573e-01  4.60919573e-01  1.67138953e-07  1.59729396e-07  7.30000000e-01 
 7.40000000e-01  4.60919556e-01  3.23049228e-09  3.44974563e-09  3.09908383e-09  3.41168977e-09  4.60919556e-01  4.60919556e-01  1.67138935e-07  1.59729190e-07  7.40000000e-01 
 7.50000000e-01  4.60919558e-01  3.23049228e-09  3.44974563e-09  3.09908388e-09  3.41168982e-09  4.60919558e-01  4.60919559e-01  1.67138919e-07  1.59729041e-07  7.50000000e-01 
 7.60000000e-01  4.60919539e-01  3.23049228e-09  3.44974563e-09  3.09908388e-09  3.41168977e-09  4.60919539e-01  4.60919539e-01  1.67138891e-07  1.59728913e-07  7.60000000e-01 
 7.70000000e-01  4.60919558e-01  3.23049228e-09  3.44974563e-09  3.09908383e-09  3.41168982e-09  4.60919558e-01  4.60919558e-01  1.67138929e-07  1.59728806e-07  7.70000000e-01 
 7.80000000e-01  4.60919552e-01  3.23049228e-09  3.44974563e-09  3.09908388e-09  3.41168977e-09  4.60919552e-01  4.60919552e-01  1.67138911e-07  1.59728629e-07  7.80000000e-01 
 7.90000000e-01  4.60919563e-01  3.23049228e-09  3.44974563e-09  3.09908388e-09  3.41168977e-09  4.60919563e-01  4.60919563e-01  1.67138940e-07  1.59728472e-07  7.90000000e-01 
 8.00000000e-01  4.60919540e-01  3.23049228e-09  3.44974563e-09  3.09908388e-09  3.41168982e-09  4.60919540e-01  4.60919540e-01  1.67138881e-07  1.59728302e-07  8.00000000e-01 
 8.10000000e-01  4.60919548e-01  3.23049228e-09  3.44974563e-09  3.09908383e-09  3.41168977e-09  4.60919548e-01  4.60919548e-01  1.67138915e-07  1.59728302e-07  8.10000000e-01 
 8.20000000e-01  4.60919546e-01  3.23049228e-09  3.44974563e-09  3.09908383e-09  3.41168982e-09  4.60919546e-01  4.60919546e-01  1.67138918e-07  1.59728089e-07  8.20000000e-01 
 8.30000000e-01  4.60919569e-01  3.23049229e-09  3.44974563e-09  3.09908388e-09  3.41168977e-09  4.60919569e-01  4.60919569e-01  1.67138938e-07  1.59728103e-07  8.30000000e-01 
 8.40000000e-01  4.60919553e-01  3.23049228e-09  3.44974563e-09  3.09908388e-09  3.41168982e-09  4.60919553e-01  4.60919553e-01  1.67138921e-07  1.59727904e-07  8.40000000e-01 
 8.50000000e-01  4.60919540e-01  3.23049228e-09  3.44974568e-09  3.09908383e-09  3.41168977e-09  4.60919540e-01  4.60919540e-01  1.67138899e-07  1.59727776e-07  8.50000000e-01 
 8.60000000e-01  4.60919559e-01  3.23049228e-09  3.44974563e-09  3.09908388e-09  3.41168982e-09  4.60919559e-01  4.60919559e-01  1.67138934e-07  1.59727684e-07  8.60000000e-01 
 8.70000000e-01  4.60919546e-01  3.23049228e-09  3.44974568e-09  3.09908383e-09  3.41168977e-09  4.60919546e-01  4.60919546e-01  1.67138911e-07  1.59727414e-07  8.70000000e-01 
 8.80000000e-01  4.60919555e-01  3.23049234e-09  3.44974563e-09  3.09908383e-09  3.41168982e-09  4.60919555e-01  4.60919555e-01  1.67138933e-07  1.59727392e-07  8.80000000e-01 
 8.90000000e-01  4.60919539e-01  3.23049227e-09  3.44974563e-09  3.09908388e-09  3.41168977e-09  4.60919539e-01  4.60919539e-01  1.67138884e-07  1.59727044e-07  8.90000000e-01 
 9.00000000e-01  4.60919557e-01  3.23049229e-09  3.44974563e-09  3.09908388e-09  3.41168982e-09  4.60919557e-01  4.60919557e-01  1.67138921e-07  1.59727136e-07  9.00000000e-01 
 9.10000000e-01  4.60919556e-01  3.23049234e-09  3.44974563e-09  3.09908388e-09  3.41168977e-09  4.60919556e-01  4.60919556e-01  1.67138906e-07  1.59726973e-07  9.10000000e-01 
 9.20000000e-01  4.60919561e-01  3.23049227e-09  3.44974563e-09  3.09908388e-09  3.41168982e-09  4.60919561e-01  4.60919561e-01  1.67138935e-07  1.59727016e-07  9.20000000e-01 
 9.30000000e-01  4.60919543e-01  3.23049229e-09  3.44974563e-09  3.09908388e-09  3.41168977e-09  4.60919543e-01  4.60919543e-01  1.67138898e-07  1.59726682e-07  9.30000000e-01 
 9.40000000e-01  4.60919545e-01  3.23049228e-09  3.44974563e-09  3.09908388e-09  3.41168977e-09  4.60919545e-01  4.60919545e-01  1.67138907e-07  1.59726511e-07  9.40000000e-01 
 9.50000000e-01  4.60919555e-01  3.23049228e-09  3.44974563e-09  3.09908383e-09  3.41168982e-09  4.60919555e-01  4.60919555e-01  1.67138919e-07  1.59726461e-07  9.50000000e-01 
 9.60000000e-01  4.60919554e-01  3.23049228e-09  3.44974568e-09  3.09908383e-09  3.41168977e-09  4.60919554e-01  4.60919554e-01  1.67138917e-07  1.59726248e-07  9.60000000e-01 
 9.70000000e-01  4.60919549e-01  3.23049234e-09  3.44974563e-09  3.09908383e-09  3.41168977e-09  4.60919549e-01  4.60919549e-01  1.67138923e-07  1.59726113e-07  9.70000000e-01 
 9.80000000e-01  4.60919556e-01  3.23049233e-09  3.44974563e-09  3.09908388e-09  3.41168977e-09  4.60919556e-01  4.60919556e-01  1.67138910e-07  1.59726014e-07  9.80000000e-01 
 9.90000000e-01  4.60919564e-01  3.23049228e-09  3.44974563e-09  3.09908383e-09  3.41168982e-09  4.60919564e-01  4.60919564e-01  1.67138926e-07  1.59725886e-07  9.90000000e-01 
 1.00000000e+00  4.60919550e-01  3.23049229e-09  3.44974563e-09  3.09908388e-09  3.41168982e-09  4.60919550e-01  4.60919550e-01  1.67138893e-07  1.59725644e-07  1.00000000e+00 
 1.01000000e+00  4.60919543e-01  3.23049228e-09  3.44974563e-09  3.09908388e-09  3.41168977e-09  4.60919543e-01  4.60919543e-01  1.67138900e-07  1.59725616e-07  1.01000000e+00 
 1.02000000e+00  4.60919559e-01  3.23049228e-09  3.44974563e-09  3.09908388e-09  3.41168977e-09  4.60919559e-01  4.60919559e-01  1.67138925e-07  1.59725332e-07  1.02000000e+00 
 1.03000000e+00  4.60919553e-01  3.23049228e-09  3.44974563e-09  3.09908388e-09  3.41168982e-09  4.60919553e-01  4.60919554e-01  1.67138914e-07  1.59725396e-07  1.03000000e+00 
 1.04000000e+00  4.60919563e-01  3.23049228e-09  3.44974563e-09  3.09908383e-09  3.41168982e-09  4.60919563e-01  4.60919563e-01  1.67138921e-07  1.59725111e-07  1.04000000e+00 
 1.05000000e+00  4.60919567e-01  3.23049229e-09  3.44974563e-09  3.09908383e-09  3.41168982e-09  4.60919567e-01  4.60919567e-01  1.67138944e-07  1.59724948e-07  1.05000000e+00 
 1.06000000e+00  4.60919563e-01  3.23049228e-09  3.44974563e-09  3.09908383e-09  3.41168977e-09  4.60919563e-01  4.60919563e-01  1.67138919e-07  1.59724976e-07  1.06000000e+00 
 1.07000000e+00  4.60919569e-01  3.23049229e-09  3.44974563e-09  3.09908388e-09  3.41168982e-09  4.60919569e-01  4.60919569e-01  1.67138938e-07  1.59724706e-07  1.07000000e+00 
 1.08000000e+00  4.60919556e-01  3.23049228e-09  3.44974563e-09  3.09908388e-09  3.41168982e-09  4.60919556e-01  4.60919556e-01  1.67138927e-07  1.59724401e-07  1.08000000e+00 
 1.09000000e+00  4.60919553e-01  3.23049234e-09  3.44974563e-09  3.09908383e-09  3.41168977e-09  4.60919553e-01  4.60919553e-01  1.67138917e-07  1.59724394e-07  1.09000000e+00 
 1.10000000e+00  4.60919555e-01  3.23049233e-09  3.44974563e-09  3.09908388e-09  3.41168982e-09  4.60919555e-01  4.60919555e-01  1.67138913e-07  1.59724117e-07  1.10000000e+00 
