 v-sweep         v(b0)           v(b1)           v(b2)           v(b3)           v(b4)           v(b5)           v(b6)           i(vbias)        i(viout)        v(vout)        
 0.00000000e+00  4.58005181e-01  4.58005181e-01  3.16264074e-09  3.36696713e-09  3.16519618e-09  3.36434578e-09  4.58005181e-01  1.56985392e-07  9.83580504e-08  0.00000000e+00 
 1.00000000e-02  4.58005142e-01  4.58005142e-01  3.16264077e-09  3.36696710e-09  3.16519615e-09  3.36434580e-09  4.58005142e-01  1.56985342e-07  9.83575200e-08  1.00000000e-02 
 2.00000000e-02  4.58005176e-01  4.58005177e-01  3.16264077e-09  3.36696706e-09  3.16519621e-09  3.36434580e-09  4.58005177e-01  1.56985376e-07  9.83572914e-08  2.00000000e-02 
 3.00000000e-02  4.58005139e-01  4.58005139e-01  3.16264077e-09  3.36696711e-09  3.16519614e-09  3.36434580e-09  4.58005139e-01  1.56985317e-07  9.83567525e-08  3.00000000e-02 
 4.00000000e-02  4.58005162e-01  4.58005162e-01  3.16264071e-09  3.36696711e-09  3.16519616e-09  3.36434580e-09  4.58005162e-01  1.56985360e-07  9.83564545e-08  4.00000000e-02 
 5.00000000e-02  4.58005179e-01  4.58005179e-01  3.16264078e-09  3.36696711e-09  3.16519615e-09  3.36434580e-09  4.58005179e-01  1.56985372e-07  9.83561943e-08  5.00000000e-02 
 6.00000000e-02  4.58005125e-01  4.58005125e-01  3.16264076e-09  3.36696711e-09  3.16519615e-09  3.36434580e-09  4.58005125e-01  1.56985312e-07  9.83556969e-08  6.00000000e-02 
 7.00000000e-02  4.58005132e-01  4.58005132e-01  3.16264077e-09  3.36696711e-09  3.16519615e-09  3.36434580e-09  4.58005132e-01  1.56985311e-07  9.83554580e-08  7.00000000e-02 
 8.00000000e-02  4.58005155e-01  4.58005155e-01  3.16264077e-09  3.36696711e-09  3.16519615e-09  3.36434580e-09  4.58005155e-01  1.56985361e-07  9.83550681e-08  8.00000000e-02 
 9.00000000e-02  4.58005156e-01  4.58005156e-01  3.16264077e-09  3.36696711e-09  3.16519615e-09  3.36434580e-09  4.58005156e-01  1.56985352e-07  9.83548096e-08  9.00000000e-02 
 1.00000000e-01  4.58005160e-01  4.58005160e-01  3.16264071e-09  3.36696711e-09  3.16519615e-09  3.36434580e-09  4.58005160e-01  1.56985356e-07  9.83546702e-08  1.00000000e-01 
 1.10000000e-01  4.58005176e-01  4.58005176e-01  3.16264072e-09  3.36696711e-09  3.16519615e-09  3.36434580e-09  4.58005176e-01  1.56985383e-07  9.83544624e-08  1.10000000e-01 
 1.20000000e-01  4.58005153e-01  4.58005153e-01  3.16264070e-09  3.36696711e-09  3.16519615e-09  3.36434580e-09  4.58005153e-01  1.56985347e-07  9.83541177e-08  1.20000000e-01 
 1.30000000e-01  4.58005172e-01  4.58005172e-01  3.16264078e-09  3.36696711e-09  3.16519615e-09  3.36434580e-09  4.58005172e-01  1.56985395e-07  9.83538859e-08  1.30000000e-01 
 1.40000000e-01  4.58005169e-01  4.58005169e-01  3.16264076e-09  3.36696711e-09  3.16519615e-09  3.36434580e-09  4.58005169e-01  1.56985365e-07  9.83535768e-08  1.40000000e-01 
 1.50000000e-01  4.58005180e-01  4.58005180e-01  3.16264077e-09  3.36696711e-09  3.16519615e-09  3.36434580e-09  4.58005180e-01  1.56985385e-07  9.83533663e-08  1.50000000e-01 
 1.60000000e-01  4.58005118e-01  4.58005118e-01  3.16264071e-09  3.36696711e-09  3.16519615e-09  3.36434580e-09  4.58005118e-01  1.56985288e-07  9.83530892e-08  1.60000000e-01 
 1.70000000e-01  4.58005145e-01  4.58005145e-01  3.16264072e-09  3.36696705e-09  3.16519621e-09  3.36434580e-09  4.58005145e-01  1.56985335e-07  9.83530644e-08  1.70000000e-01 
 1.80000000e-01  4.58005141e-01  4.58005141e-01  3.16264072e-09  3.36696711e-09  3.16519614e-09  3.36434580e-09  4.58005141e-01  1.56985342e-07  9.83528015e-08  1.80000000e-01 
 1.90000000e-01  4.58005153e-01  4.58005153e-01  3.16264077e-09  3.36696711e-09  3.16519622e-09  3.36434580e-09  4.58005153e-01  1.56985355e-07  9.83526309e-08  1.90000000e-01 
 2.00000000e-01  4.58005168e-01  4.58005168e-01  3.16264076e-09  3.36696705e-09  3.16519620e-09  3.36434580e-09  4.58005168e-01  1.56985382e-07  9.83524853e-08  2.00000000e-01 
 2.10000000e-01  4.58005177e-01  4.58005177e-01  3.16264077e-09  3.36696711e-09  3.16519615e-09  3.36434580e-09  4.58005177e-01  1.56985382e-07  9.83523130e-08  2.10000000e-01 
 2.20000000e-01  4.58005133e-01  4.58005133e-01  3.16264077e-09  3.36696705e-09  3.16519616e-09  3.36434580e-09  4.58005133e-01  1.56985307e-07  9.83521371e-08  2.20000000e-01 
 2.30000000e-01  4.58005155e-01  4.58005155e-01  3.16264077e-09  3.36696711e-09  3.16519615e-09  3.36434580e-09  4.58005155e-01  1.56985352e-07  9.83519257e-08  2.30000000e-01 
 2.40000000e-01  4.58005168e-01  4.58005168e-01  3.16264077e-09  3.36696711e-09  3.16519615e-09  3.36434580e-09  4.58005168e-01  1.56985375e-07  9.83517587e-08  2.40000000e-01 
 2.50000000e-01  4.58005130e-01  4.58005130e-01  3.16264077e-09  3.36696711e-09  3.16519615e-09  3.36434580e-09  4.58005130e-01  1.56985303e-07  9.83515580e-08  2.50000000e-01 
 2.60000000e-01  4.58005167e-01  4.58005167e-01  3.16264077e-09  3.36696711e-09  3.16519615e-09  3.36434580e-09  4.58005167e-01  1.56985384e-07  9.83516539e-08  2.60000000e-01 
 2.70000000e-01  4.58005170e-01  4.58005170e-01  3.16264071e-09  3.36696711e-09  3.16519615e-09  3.36434580e-09  4.58005170e-01  1.56985380e-07  9.83514958e-08  2.70000000e-01 
 2.80000000e-01  4.58005143e-01  4.58005143e-01  3.16264078e-09  3.36696711e-09  3.16519615e-09  3.36434580e-09  4.58005143e-01  1.56985334e-07  9.83512347e-08  2.80000000e-01 
 2.90000000e-01  4.58005144e-01  4.58005145e-01  3.16264076e-09  3.36696711e-09  3.16519615e-09  3.36434580e-09  4.58005145e-01  1.56985337e-07  9.83510979e-08  2.90000000e-01 
 3.00000000e-01  4.58005165e-01  4.58005165e-01  3.16264071e-09  3.36696705e-09  3.16519615e-09  3.36434580e-09  4.58005165e-01  1.56985364e-07  9.83510304e-08  3.00000000e-01 
 3.10000000e-01  4.58005175e-01  4.58005175e-01  3.16264078e-09  3.36696705e-09  3.16519615e-09  3.36434580e-09  4.58005175e-01  1.56985382e-07  9.83509771e-08  3.10000000e-01 
 3.20000000e-01  4.58005157e-01  4.58005157e-01  3.16264070e-09  3.36696711e-09  3.16519615e-09  3.36434580e-09  4.58005157e-01  1.56985352e-07  9.83507782e-08  3.20000000e-01 
 3.30000000e-01  4.58005156e-01  4.58005156e-01  3.16264072e-09  3.36696711e-09  3.16519615e-09  3.36434580e-09  4.58005156e-01  1.56985359e-07  9.83506929e-08  3.30000000e-01 
 3.40000000e-01  4.58005151e-01  4.58005151e-01  3.16264076e-09  3.36696705e-09  3.16519615e-09  3.36434586e-09  4.58005151e-01  1.56985352e-07  9.83504655e-08  3.40000000e-01 
 3.50000000e-01  4.58005163e-01  4.58005163e-01  3.16264077e-09  3.36696711e-09  3.16519615e-09  3.36434580e-09  4.58005163e-01  1.56985360e-07  9.83505473e-08  3.50000000e-01 
 3.60000000e-01  4.58005152e-01  4.58005152e-01  3.16264077e-09  3.36696711e-09  3.16519615e-09  3.36434580e-09  4.58005152e-01  1.56985349e-07  9.83503696e-08  3.60000000e-01 
 3.70000000e-01  4.58005167e-01  4.58005167e-01  3.16264071e-09  3.36696711e-09  3.16519615e-09  3.36434580e-09  4.58005167e-01  1.56985361e-07  9.83502773e-08  3.70000000e-01 
 3.80000000e-01  4.58005140e-01  4.58005140e-01  3.16264072e-09  3.36696711e-09  3.16519615e-09  3.36434580e-09  4.58005140e-01  1.56985337e-07  9.83502559e-08  3.80000000e-01 
 3.90000000e-01  4.58005178e-01  4.58005178e-01  3.16264072e-09  3.36696711e-09  3.16519615e-09  3.36434580e-09  4.58005178e-01  1.56985399e-07  9.83501387e-08  3.90000000e-01 
 4.00000000e-01  4.58005164e-01  4.58005164e-01  3.16264072e-09  3.36696711e-09  3.16519615e-09  3.36434580e-09  4.58005164e-01  1.56985346e-07  9.83501849e-08  4.00000000e-01 
 4.10000000e-01  4.58005153e-01  4.58005153e-01  3.16264077e-09  3.36696705e-09  3.16519621e-09  3.36434580e-09  4.58005153e-01  1.56985342e-07  9.83498722e-08  4.10000000e-01 
 4.20000000e-01  4.58005164e-01  4.58005164e-01  3.16264076e-09  3.36696711e-09  3.16519620e-09  3.36434580e-09  4.58005164e-01  1.56985375e-07  9.83498296e-08  4.20000000e-01 
 4.30000000e-01  4.58005164e-01  4.58005164e-01  3.16264071e-09  3.36696711e-09  3.16519615e-09  3.36434580e-09  4.58005164e-01  1.56985372e-07  9.83498438e-08  4.30000000e-01 
 4.40000000e-01  4.58005125e-01  4.58005125e-01  3.16264078e-09  3.36696711e-09  3.16519616e-09  3.36434580e-09  4.58005125e-01  1.56985305e-07  9.83496449e-08  4.40000000e-01 
 4.50000000e-01  4.58005178e-01  4.58005178e-01  3.16264076e-09  3.36696711e-09  3.16519621e-09  3.36434580e-09  4.58005178e-01  1.56985384e-07  9.83496271e-08  4.50000000e-01 
 4.60000000e-01  4.58005154e-01  4.58005154e-01  3.16264077e-09  3.36696711e-09  3.16519614e-09  3.36434580e-09  4.58005154e-01  1.56985331e-07  9.83495489e-08  4.60000000e-01 
 4.70000000e-01  4.58005153e-01  4.58005153e-01  3.16264077e-09  3.36696711e-09  3.16519616e-09  3.36434580e-09  4.58005153e-01  1.56985346e-07  9.83493074e-08  4.70000000e-01 
 4.80000000e-01  4.58005137e-01  4.58005137e-01  3.16264077e-09  3.36696711e-09  3.16519621e-09  3.36434580e-09  4.58005137e-01  1.56985330e-07  9.83492860e-08  4.80000000e-01 
 4.90000000e-01  4.58005130e-01  4.58005130e-01  3.16264071e-09  3.36696705e-09  3.16519614e-09  3.36434580e-09  4.58005130e-01  1.56985339e-07  9.83492825e-08  4.90000000e-01 
 5.00000000e-01  4.58005190e-01  4.58005190e-01  3.16264078e-09  3.36696711e-09  3.16519616e-09  3.36434581e-09  4.58005190e-01  1.56985401e-07  9.83493322e-08  5.00000000e-01 
 5.10000000e-01  4.58005170e-01  4.58005170e-01  3.16264076e-09  3.36696705e-09  3.16519615e-09  3.36434580e-09  4.58005170e-01  1.56985360e-07  9.83492328e-08  5.10000000e-01 
 5.20000000e-01  4.58005166e-01  4.58005166e-01  3.16264071e-09  3.36696711e-09  3.16519615e-09  3.36434580e-09  4.58005166e-01  1.56985365e-07  9.83491013e-08  5.20000000e-01 
 5.30000000e-01  4.58005165e-01  4.58005165e-01  3.16264078e-09  3.36696711e-09  3.16519615e-09  3.36434580e-09  4.58005165e-01  1.56985378e-07  9.83489592e-08  5.30000000e-01 
 5.40000000e-01  4.58005165e-01  4.58005165e-01  3.16264076e-09  3.36696711e-09  3.16519615e-09  3.36434580e-09  4.58005165e-01  1.56985367e-07  9.83488917e-08  5.40000000e-01 
 5.50000000e-01  4.58005146e-01  4.58005146e-01  3.16264071e-09  3.36696711e-09  3.16519621e-09  3.36434580e-09  4.58005146e-01  1.56985345e-07  9.83488029e-08  5.50000000e-01 
 5.60000000e-01  4.58005156e-01  4.58005156e-01  3.16264078e-09  3.36696711e-09  3.16519620e-09  3.36434580e-09  4.58005156e-01  1.56985357e-07  9.83486572e-08  5.60000000e-01 
 5.70000000e-01  4.58005151e-01  4.58005151e-01  3.16264076e-09  3.36696711e-09  3.16519620e-09  3.36434580e-09  4.58005151e-01  1.56985349e-07  9.83486146e-08  5.70000000e-01 
 5.80000000e-01  4.58005158e-01  4.58005158e-01  3.16264077e-09  3.36696711e-09  3.16519620e-09  3.36434580e-09  4.58005158e-01  1.56985365e-07  9.83485791e-08  5.80000000e-01 
 5.90000000e-01  4.58005139e-01  4.58005139e-01  3.16264077e-09  3.36696711e-09  3.16519620e-09  3.36434580e-09  4.58005139e-01  1.56985332e-07  9.83485009e-08  5.90000000e-01 
 6.00000000e-01  4.58005157e-01  4.58005157e-01  3.16264077e-09  3.36696705e-09  3.16519620e-09  3.36434580e-09  4.58005157e-01  1.56985354e-07  9.83483730e-08  6.00000000e-01 
 6.10000000e-01  4.58005148e-01  4.58005148e-01  3.16264071e-09  3.36696705e-09  3.16519620e-09  3.36434580e-09  4.58005148e-01  1.56985346e-07  9.83484298e-08  6.10000000e-01 
 6.20000000e-01  4.58005164e-01  4.58005164e-01  3.16264072e-09  3.36696711e-09  3.16519615e-09  3.36434580e-09  4.58005164e-01  1.56985368e-07  9.83483162e-08  6.20000000e-01 
 6.30000000e-01  4.58005143e-01  4.58005143e-01  3.16264076e-09  3.36696711e-09  3.16519616e-09  3.36434580e-09  4.58005143e-01  1.56985336e-07  9.83481598e-08  6.30000000e-01 
 6.40000000e-01  4.58005146e-01  4.58005146e-01  3.16264077e-09  3.36696711e-09  3.16519615e-09  3.36434580e-09  4.58005146e-01  1.56985337e-07  9.83481527e-08  6.40000000e-01 
 6.50000000e-01  4.58005129e-01  4.58005129e-01  3.16264071e-09  3.36696711e-09  3.16519615e-09  3.36434580e-09  4.58005129e-01  1.56985315e-07  9.83480533e-08  6.50000000e-01 
 6.60000000e-01  4.58005157e-01  4.58005157e-01  3.16264078e-09  3.36696711e-09  3.16519615e-09  3.36434580e-09  4.58005157e-01  1.56985355e-07  9.83480177e-08  6.60000000e-01 
 6.70000000e-01  4.58005147e-01  4.58005147e-01  3.16264076e-09  3.36696711e-09  3.16519621e-09  3.36434580e-09  4.58005147e-01  1.56985344e-07  9.83478472e-08  6.70000000e-01 
 6.80000000e-01  4.58005130e-01  4.58005130e-01  3.16264077e-09  3.36696711e-09  3.16519614e-09  3.36434580e-09  4.58005130e-01  1.56985324e-07  9.83476340e-08  6.80000000e-01 
 6.90000000e-01  4.58005155e-01  4.58005155e-01  3.16264077e-09  3.36696711e-09  3.16519616e-09  3.36434580e-09  4.58005155e-01  1.56985348e-07  9.83478188e-08  6.90000000e-01 
 7.00000000e-01  4.58005152e-01  4.58005152e-01  3.16264077e-09  3.36696711e-09  3.16519615e-09  3.36434580e-09  4.58005152e-01  1.56985334e-07  9.83475701e-08  7.00000000e-01 
 7.10000000e-01  4.58005137e-01  4.58005138e-01  3.16264077e-09  3.36696711e-09  3.16519615e-09  3.36434580e-09  4.58005138e-01  1.56985329e-07  9.83476909e-08  7.10000000e-01 
 7.20000000e-01  4.58005179e-01  4.58005179e-01  3.16264077e-09  3.36696711e-09  3.16519621e-09  3.36434580e-09  4.58005179e-01  1.56985401e-07  9.83476625e-08  7.20000000e-01 
 7.30000000e-01  4.58005143e-01  4.58005143e-01  3.16264077e-09  3.36696711e-09  3.16519614e-09  3.36434580e-09  4.58005143e-01  1.56985325e-07  9.83474990e-08  7.30000000e-01 
 7.40000000e-01  4.58005163e-01  4.58005163e-01  3.16264071e-09  3.36696705e-09  3.16519616e-09  3.36434580e-09  4.58005163e-01  1.56985362e-07  9.83473356e-08  7.40000000e-01 
 7.50000000e-01  4.58005143e-01  4.58005143e-01  3.16264072e-09  3.36696711e-09  3.16519615e-09  3.36434580e-09  4.58005143e-01  1.56985322e-07  9.83472788e-08  7.50000000e-01 
 7.60000000e-01  4.58005169e-01  4.58005169e-01  3.16264078e-09  3.36696711e-09  3.16519615e-09  3.36434580e-09  4.58005169e-01  1.56985367e-07  9.83472503e-08  7.60000000e-01 
 7.70000000e-01  4.58005145e-01  4.58005145e-01  3.16264070e-09  3.36696711e-09  3.16519615e-09  3.36434580e-09  4.58005145e-01  1.56985335e-07  9.83471793e-08  7.70000000e-01 
 7.80000000e-01  4.58005158e-01  4.58005158e-01  3.16264072e-09  3.36696711e-09  3.16519615e-09  3.36434580e-09  4.58005158e-01  1.56985355e-07  9.83470656e-08  7.80000000e-01 
 7.90000000e-01  4.58005179e-01  4.58005180e-01  3.16264076e-09  3.36696705e-09  3.16519615e-09  3.36434580e-09  4.58005180e-01  1.56985384e-07  9.83471153e-08  7.90000000e-01 
 8.00000000e-01  4.58005138e-01  4.58005138e-01  3.16264071e-09  3.36696705e-09  3.16519621e-09  3.36434580e-09  4.58005138e-01  1.56985316e-07  9.83467530e-08  8.00000000e-01 
 8.10000000e-01  4.58005169e-01  4.58005169e-01  3.16264072e-09  3.36696711e-09  3.16519614e-09  3.36434580e-09  4.58005169e-01  1.56985371e-07  9.83467956e-08  8.10000000e-01 
 8.20000000e-01  4.58005164e-01  4.58005164e-01  3.16264076e-09  3.36696711e-09  3.16519616e-09  3.36434580e-09  4.58005164e-01  1.56985373e-07  9.83468595e-08  8.20000000e-01 
 8.30000000e-01  4.58005137e-01  4.58005137e-01  3.16264071e-09  3.36696711e-09  3.16519615e-09  3.36434580e-09  4.58005137e-01  1.56985325e-07  9.83466037e-08  8.30000000e-01 
 8.40000000e-01  4.58005162e-01  4.58005162e-01  3.16264072e-09  3.36696711e-09  3.16519615e-09  3.36434580e-09  4.58005162e-01  1.56985364e-07  9.83467103e-08  8.40000000e-01 
 8.50000000e-01  4.58005130e-01  4.58005130e-01  3.16264076e-09  3.36696711e-09  3.16519615e-09  3.36434580e-09  4.58005130e-01  1.56985312e-07  9.83465256e-08  8.50000000e-01 
 8.60000000e-01  4.58005179e-01  4.58005179e-01  3.16264077e-09  3.36696711e-09  3.16519615e-09  3.36434580e-09  4.58005179e-01  1.56985378e-07  9.83466037e-08  8.60000000e-01 
 8.70000000e-01  4.58005159e-01  4.58005159e-01  3.16264077e-09  3.36696711e-09  3.16519615e-09  3.36434580e-09  4.58005159e-01  1.56985346e-07  9.83463906e-08  8.70000000e-01 
 8.80000000e-01  4.58005171e-01  4.58005171e-01  3.16264077e-09  3.36696711e-09  3.16519615e-09  3.36434580e-09  4.58005171e-01  1.56985384e-07  9.83464687e-08  8.80000000e-01 
 8.90000000e-01  4.58005170e-01  4.58005170e-01  3.16264077e-09  3.36696711e-09  3.16519615e-09  3.36434580e-09  4.58005170e-01  1.56985366e-07  9.83463408e-08  8.90000000e-01 
 9.00000000e-01  4.58005139e-01  4.58005139e-01  3.16264077e-09  3.36696711e-09  3.16519621e-09  3.36434580e-09  4.58005139e-01  1.56985334e-07  9.83460993e-08  9.00000000e-01 
 9.10000000e-01  4.58005139e-01  4.58005139e-01  3.16264071e-09  3.36696711e-09  3.16519614e-09  3.36434580e-09  4.58005139e-01  1.56985335e-07  9.83460069e-08  9.10000000e-01 
 9.20000000e-01  4.58005140e-01  4.58005141e-01  3.16264072e-09  3.36696711e-09  3.16519616e-09  3.36434580e-09  4.58005141e-01  1.56985330e-07  9.83459927e-08  9.20000000e-01 
 9.30000000e-01  4.58005151e-01  4.58005151e-01  3.16264077e-09  3.36696711e-09  3.16519615e-09  3.36434580e-09  4.58005151e-01  1.56985348e-07  9.83459429e-08  9.30000000e-01 
 9.40000000e-01  4.58005165e-01  4.58005166e-01  3.16264076e-09  3.36696711e-09  3.16519615e-09  3.36434580e-09  4.58005166e-01  1.56985378e-07  9.83458861e-08  9.40000000e-01 
 9.50000000e-01  4.58005136e-01  4.58005136e-01  3.16264071e-09  3.36696711e-09  3.16519615e-09  3.36434580e-09  4.58005136e-01  1.56985319e-07  9.83458506e-08  9.50000000e-01 
 9.60000000e-01  4.58005142e-01  4.58005142e-01  3.16264072e-09  3.36696711e-09  3.16519615e-09  3.36434580e-09  4.58005142e-01  1.56985330e-07  9.83457085e-08  9.60000000e-01 
 9.70000000e-01  4.58005167e-01  4.58005167e-01  3.16264077e-09  3.36696705e-09  3.16519621e-09  3.36434580e-09  4.58005167e-01  1.56985376e-07  9.83456587e-08  9.70000000e-01 
 9.80000000e-01  4.58005126e-01  4.58005126e-01  3.16264076e-09  3.36696711e-09  3.16519614e-09  3.36434580e-09  4.58005126e-01  1.56985309e-07  9.83453887e-08  9.80000000e-01 
 9.90000000e-01  4.58005154e-01  4.58005154e-01  3.16264071e-09  3.36696711e-09  3.16519616e-09  3.36434580e-09  4.58005154e-01  1.56985336e-07  9.83454598e-08  9.90000000e-01 
 1.00000000e+00  4.58005138e-01  4.58005138e-01  3.16264078e-09  3.36696711e-09  3.16519615e-09  3.36434580e-09  4.58005138e-01  1.56985325e-07  9.83452679e-08  1.00000000e+00 
 1.01000000e+00  4.58005192e-01  4.58005192e-01  3.16264076e-09  3.36696705e-09  3.16519615e-09  3.36434581e-09  4.58005192e-01  1.56985416e-07  9.83453816e-08  1.01000000e+00 
 1.02000000e+00  4.58005165e-01  4.58005165e-01  3.16264071e-09  3.36696705e-09  3.16519621e-09  3.36434580e-09  4.58005165e-01  1.56985365e-07  9.83452964e-08  1.02000000e+00 
 1.03000000e+00  4.58005138e-01  4.58005138e-01  3.16264078e-09  3.36696711e-09  3.16519614e-09  3.36434580e-09  4.58005138e-01  1.56985326e-07  9.83450903e-08  1.03000000e+00 
 1.04000000e+00  4.58005173e-01  4.58005173e-01  3.16264076e-09  3.36696711e-09  3.16519616e-09  3.36434580e-09  4.58005173e-01  1.56985388e-07  9.83449553e-08  1.04000000e+00 
 1.05000000e+00  4.58005165e-01  4.58005165e-01  3.16264071e-09  3.36696711e-09  3.16519615e-09  3.36434580e-09  4.58005165e-01  1.56985356e-07  9.83449198e-08  1.05000000e+00 
 1.06000000e+00  4.58005162e-01  4.58005162e-01  3.16264078e-09  3.36696711e-09  3.16519615e-09  3.36434580e-09  4.58005162e-01  1.56985366e-07  9.83448061e-08  1.06000000e+00 
 1.07000000e+00  4.58005165e-01  4.58005165e-01  3.16264071e-09  3.36696711e-09  3.16519615e-09  3.36434580e-09  4.58005165e-01  1.56985363e-07  9.83448203e-08  1.07000000e+00 
 1.08000000e+00  4.58005135e-01  4.58005135e-01  3.16264078e-09  3.36696711e-09  3.16519621e-09  3.36434580e-09  4.58005136e-01  1.56985335e-07  9.83445716e-08  1.08000000e+00 
 1.09000000e+00  4.58005133e-01  4.58005133e-01  3.16264076e-09  3.36696711e-09  3.16519620e-09  3.36434580e-09  4.58005133e-01  1.56985313e-07  9.83446142e-08  1.09000000e+00 
 1.10000000e+00  4.58005153e-01  4.58005153e-01  3.16264071e-09  3.36696711e-09  3.16519615e-09  3.36434580e-09  4.58005153e-01  1.56985363e-07  9.83445005e-08  1.10000000e+00 
