 v-sweep         v(b0)           v(b1)           v(b2)           v(b3)           v(b4)           v(b5)           v(b6)           i(vbias)        i(viout)        v(vout)        
 0.00000000e+00  3.41187120e-09  3.45339256e-09  4.58577116e-01  3.61273837e-09  4.58577116e-01  3.45673944e-09  4.58577116e-01  1.61273582e-07  1.29433682e-07  0.00000000e+00 
 1.00000000e-02  3.41187123e-09  3.45339254e-09  4.58577100e-01  3.61273835e-09  4.58577100e-01  3.45673941e-09  4.58577101e-01  1.61273562e-07  1.29433225e-07  1.00000000e-02 
 2.00000000e-02  3.41187123e-09  3.45339259e-09  4.58577085e-01  3.61273836e-09  4.58577085e-01  3.45673942e-09  4.58577085e-01  1.61273533e-07  1.29432848e-07  2.00000000e-02 
 3.00000000e-02  3.41187118e-09  3.45339254e-09  4.58577123e-01  3.61273841e-09  4.58577123e-01  3.45673942e-09  4.58577123e-01  1.61273594e-07  1.29432465e-07  3.00000000e-02 
 4.00000000e-02  3.41187119e-09  3.45339254e-09  4.58577098e-01  3.61273835e-09  4.58577098e-01  3.45673948e-09  4.58577099e-01  1.61273546e-07  1.29432006e-07  4.00000000e-02 
 5.00000000e-02  3.41187124e-09  3.45339259e-09  4.58577103e-01  3.61273842e-09  4.58577103e-01  3.45673941e-09  4.58577103e-01  1.61273556e-07  1.29431790e-07  5.00000000e-02 
 6.00000000e-02  3.41187123e-09  3.45339254e-09  4.58577098e-01  3.61273840e-09  4.58577098e-01  3.45673942e-09  4.58577098e-01  1.61273548e-07  1.29431333e-07  6.00000000e-02 
 7.00000000e-02  3.41187123e-09  3.45339254e-09  4.58577102e-01  3.61273841e-09  4.58577102e-01  3.45673948e-09  4.58577103e-01  1.61273555e-07  1.29431082e-07  7.00000000e-02 
 8.00000000e-02  3.41187118e-09  3.45339254e-09  4.58577097e-01  3.61273841e-09  4.58577097e-01  3.45673941e-09  4.58577097e-01  1.61273544e-07  1.29430680e-07  8.00000000e-02 
 9.00000000e-02  3.41187119e-09  3.45339253e-09  4.58577083e-01  3.61273835e-09  4.58577083e-01  3.45673948e-09  4.58577083e-01  1.61273530e-07  1.29430320e-07  9.00000000e-02 
 1.00000000e-01  3.41187124e-09  3.45339254e-09  4.58577116e-01  3.61273837e-09  4.58577116e-01  3.45673947e-09  4.58577117e-01  1.61273583e-07  1.29430201e-07  1.00000000e-01 
 1.10000000e-01  3.41187117e-09  3.45339254e-09  4.58577100e-01  3.61273835e-09  4.58577100e-01  3.45673947e-09  4.58577100e-01  1.61273544e-07  1.29429816e-07  1.10000000e-01 
 1.20000000e-01  3.41187125e-09  3.45339254e-09  4.58577106e-01  3.61273837e-09  4.58577106e-01  3.45673941e-09  4.58577106e-01  1.61273558e-07  1.29429683e-07  1.20000000e-01 
 1.30000000e-01  3.41187117e-09  3.45339253e-09  4.58577086e-01  3.61273835e-09  4.58577086e-01  3.45673948e-09  4.58577086e-01  1.61273537e-07  1.29429302e-07  1.30000000e-01 
 1.40000000e-01  3.41187119e-09  3.45339254e-09  4.58577101e-01  3.61273837e-09  4.58577101e-01  3.45673946e-09  4.58577101e-01  1.61273556e-07  1.29429127e-07  1.40000000e-01 
 1.50000000e-01  3.41187118e-09  3.45339259e-09  4.58577104e-01  3.61273835e-09  4.58577104e-01  3.45673941e-09  4.58577104e-01  1.61273563e-07  1.29428896e-07  1.50000000e-01 
 1.60000000e-01  3.41187118e-09  3.45339254e-09  4.58577091e-01  3.61273837e-09  4.58577091e-01  3.45673942e-09  4.58577091e-01  1.61273548e-07  1.29428686e-07  1.60000000e-01 
 1.70000000e-01  3.41187124e-09  3.45339254e-09  4.58577093e-01  3.61273835e-09  4.58577093e-01  3.45673948e-09  4.58577093e-01  1.61273539e-07  1.29428489e-07  1.70000000e-01 
 1.80000000e-01  3.41187123e-09  3.45339254e-09  4.58577120e-01  3.61273837e-09  4.58577120e-01  3.45673941e-09  4.58577120e-01  1.61273582e-07  1.29428228e-07  1.80000000e-01 
 1.90000000e-01  3.41187123e-09  3.45339254e-09  4.58577093e-01  3.61273840e-09  4.58577093e-01  3.45673942e-09  4.58577093e-01  1.61273536e-07  1.29428091e-07  1.90000000e-01 
 2.00000000e-01  3.41187118e-09  3.45339254e-09  4.58577091e-01  3.61273835e-09  4.58577091e-01  3.45673947e-09  4.58577091e-01  1.61273555e-07  1.29427860e-07  2.00000000e-01 
 2.10000000e-01  3.41187125e-09  3.45339254e-09  4.58577102e-01  3.61273837e-09  4.58577102e-01  3.45673941e-09  4.58577102e-01  1.61273547e-07  1.29427661e-07  2.10000000e-01 
 2.20000000e-01  3.41187123e-09  3.45339254e-09  4.58577114e-01  3.61273841e-09  4.58577114e-01  3.45673943e-09  4.58577114e-01  1.61273575e-07  1.29427589e-07  2.20000000e-01 
 2.30000000e-01  3.41187123e-09  3.45339254e-09  4.58577098e-01  3.61273835e-09  4.58577098e-01  3.45673942e-09  4.58577099e-01  1.61273549e-07  1.29427310e-07  2.30000000e-01 
 2.40000000e-01  3.41187118e-09  3.45339254e-09  4.58577097e-01  3.61273837e-09  4.58577097e-01  3.45673942e-09  4.58577097e-01  1.61273564e-07  1.29427129e-07  2.40000000e-01 
 2.50000000e-01  3.41187119e-09  3.45339254e-09  4.58577100e-01  3.61273841e-09  4.58577100e-01  3.45673942e-09  4.58577100e-01  1.61273564e-07  1.29426976e-07  2.50000000e-01 
 2.60000000e-01  3.41187124e-09  3.45339254e-09  4.58577122e-01  3.61273841e-09  4.58577122e-01  3.45673948e-09  4.58577122e-01  1.61273582e-07  1.29426857e-07  2.60000000e-01 
 2.70000000e-01  3.41187123e-09  3.45339254e-09  4.58577122e-01  3.61273841e-09  4.58577122e-01  3.45673947e-09  4.58577122e-01  1.61273590e-07  1.29426713e-07  2.70000000e-01 
 2.80000000e-01  3.41187123e-09  3.45339254e-09  4.58577099e-01  3.61273835e-09  4.58577099e-01  3.45673941e-09  4.58577099e-01  1.61273547e-07  1.29426615e-07  2.80000000e-01 
 2.90000000e-01  3.41187118e-09  3.45339254e-09  4.58577118e-01  3.61273837e-09  4.58577118e-01  3.45673943e-09  4.58577118e-01  1.61273581e-07  1.29426528e-07  2.90000000e-01 
 3.00000000e-01  3.41187125e-09  3.45339254e-09  4.58577097e-01  3.61273835e-09  4.58577097e-01  3.45673948e-09  4.58577097e-01  1.61273546e-07  1.29426240e-07  3.00000000e-01 
 3.10000000e-01  3.41187123e-09  3.45339254e-09  4.58577123e-01  3.61273843e-09  4.58577123e-01  3.45673947e-09  4.58577123e-01  1.61273596e-07  1.29426361e-07  3.10000000e-01 
 3.20000000e-01  3.41187118e-09  3.45339254e-09  4.58577103e-01  3.61273835e-09  4.58577103e-01  3.45673947e-09  4.58577103e-01  1.61273540e-07  1.29426063e-07  3.20000000e-01 
 3.30000000e-01  3.41187119e-09  3.45339253e-09  4.58577087e-01  3.61273836e-09  4.58577087e-01  3.45673947e-09  4.58577087e-01  1.61273528e-07  1.29425828e-07  3.30000000e-01 
 3.40000000e-01  3.41187124e-09  3.45339254e-09  4.58577111e-01  3.61273841e-09  4.58577111e-01  3.45673947e-09  4.58577111e-01  1.61273564e-07  1.29425889e-07  3.40000000e-01 
 3.50000000e-01  3.41187123e-09  3.45339254e-09  4.58577116e-01  3.61273841e-09  4.58577116e-01  3.45673941e-09  4.58577116e-01  1.61273572e-07  1.29425771e-07  3.50000000e-01 
 3.60000000e-01  3.41187123e-09  3.45339254e-09  4.58577101e-01  3.61273841e-09  4.58577101e-01  3.45673942e-09  4.58577101e-01  1.61273542e-07  1.29425505e-07  3.60000000e-01 
 3.70000000e-01  3.41187123e-09  3.45339254e-09  4.58577105e-01  3.61273835e-09  4.58577105e-01  3.45673942e-09  4.58577105e-01  1.61273551e-07  1.29425391e-07  3.70000000e-01 
 3.80000000e-01  3.41187118e-09  3.45339254e-09  4.58577103e-01  3.61273837e-09  4.58577103e-01  3.45673942e-09  4.58577103e-01  1.61273559e-07  1.29425334e-07  3.80000000e-01 
 3.90000000e-01  3.41187125e-09  3.45339259e-09  4.58577083e-01  3.61273840e-09  4.58577083e-01  3.45673947e-09  4.58577083e-01  1.61273522e-07  1.29425231e-07  3.90000000e-01 
 4.00000000e-01  3.41187117e-09  3.45339254e-09  4.58577099e-01  3.61273835e-09  4.58577099e-01  3.45673946e-09  4.58577099e-01  1.61273561e-07  1.29425253e-07  4.00000000e-01 
 4.10000000e-01  3.41187119e-09  3.45339254e-09  4.58577103e-01  3.61273842e-09  4.58577103e-01  3.45673947e-09  4.58577104e-01  1.61273548e-07  1.29425107e-07  4.10000000e-01 
 4.20000000e-01  3.41187124e-09  3.45339254e-09  4.58577124e-01  3.61273835e-09  4.58577124e-01  3.45673942e-09  4.58577124e-01  1.61273589e-07  1.29425036e-07  4.20000000e-01 
 4.30000000e-01  3.41187123e-09  3.45339254e-09  4.58577110e-01  3.61273837e-09  4.58577110e-01  3.45673943e-09  4.58577110e-01  1.61273575e-07  1.29424876e-07  4.30000000e-01 
 4.40000000e-01  3.41187123e-09  3.45339259e-09  4.58577093e-01  3.61273835e-09  4.58577093e-01  3.45673942e-09  4.58577093e-01  1.61273546e-07  1.29424695e-07  4.40000000e-01 
 4.50000000e-01  3.41187118e-09  3.45339254e-09  4.58577115e-01  3.61273837e-09  4.58577115e-01  3.45673948e-09  4.58577115e-01  1.61273583e-07  1.29424734e-07  4.50000000e-01 
 4.60000000e-01  3.41187125e-09  3.45339254e-09  4.58577123e-01  3.61273841e-09  4.58577123e-01  3.45673941e-09  4.58577123e-01  1.61273586e-07  1.29424578e-07  4.60000000e-01 
 4.70000000e-01  3.41187123e-09  3.45339254e-09  4.58577130e-01  3.61273836e-09  4.58577130e-01  3.45673948e-09  4.58577130e-01  1.61273608e-07  1.29424535e-07  4.70000000e-01 
 4.80000000e-01  3.41187123e-09  3.45339259e-09  4.58577104e-01  3.61273842e-09  4.58577104e-01  3.45673946e-09  4.58577104e-01  1.61273557e-07  1.29424315e-07  4.80000000e-01 
 4.90000000e-01  3.41187123e-09  3.45339254e-09  4.58577091e-01  3.61273840e-09  4.58577091e-01  3.45673947e-09  4.58577091e-01  1.61273539e-07  1.29424183e-07  4.90000000e-01 
 5.00000000e-01  3.41187124e-09  3.45339260e-09  4.58577131e-01  3.61273842e-09  4.58577131e-01  3.45673942e-09  4.58577131e-01  1.61273594e-07  1.29424194e-07  5.00000000e-01 
 5.10000000e-01  3.41187123e-09  3.45339259e-09  4.58577107e-01  3.61273841e-09  4.58577107e-01  3.45673943e-09  4.58577107e-01  1.61273552e-07  1.29424048e-07  5.10000000e-01 
 5.20000000e-01  3.41187118e-09  3.45339254e-09  4.58577096e-01  3.61273841e-09  4.58577096e-01  3.45673942e-09  4.58577096e-01  1.61273545e-07  1.29424006e-07  5.20000000e-01 
 5.30000000e-01  3.41187119e-09  3.45339254e-09  4.58577093e-01  3.61273835e-09  4.58577093e-01  3.45673948e-09  4.58577093e-01  1.61273541e-07  1.29423935e-07  5.30000000e-01 
 5.40000000e-01  3.41187124e-09  3.45339253e-09  4.58577084e-01  3.61273836e-09  4.58577084e-01  3.45673946e-09  4.58577085e-01  1.61273528e-07  1.29423839e-07  5.40000000e-01 
 5.50000000e-01  3.41187117e-09  3.45339254e-09  4.58577096e-01  3.61273835e-09  4.58577096e-01  3.45673947e-09  4.58577096e-01  1.61273544e-07  1.29423650e-07  5.50000000e-01 
 5.60000000e-01  3.41187119e-09  3.45339254e-09  4.58577104e-01  3.61273842e-09  4.58577104e-01  3.45673947e-09  4.58577104e-01  1.61273556e-07  1.29423558e-07  5.60000000e-01 
 5.70000000e-01  3.41187118e-09  3.45339254e-09  4.58577109e-01  3.61273841e-09  4.58577109e-01  3.45673941e-09  4.58577109e-01  1.61273561e-07  1.29423519e-07  5.70000000e-01 
 5.80000000e-01  3.41187124e-09  3.45339254e-09  4.58577090e-01  3.61273841e-09  4.58577090e-01  3.45673942e-09  4.58577090e-01  1.61273522e-07  1.29423434e-07  5.80000000e-01 
 5.90000000e-01  3.41187123e-09  3.45339254e-09  4.58577096e-01  3.61273841e-09  4.58577096e-01  3.45673942e-09  4.58577096e-01  1.61273551e-07  1.29423384e-07  5.90000000e-01 
 6.00000000e-01  3.41187124e-09  3.45339260e-09  4.58577134e-01  3.61273842e-09  4.58577134e-01  3.45673948e-09  4.58577134e-01  1.61273603e-07  1.29423384e-07  6.00000000e-01 
 6.10000000e-01  3.41187118e-09  3.45339254e-09  4.58577103e-01  3.61273841e-09  4.58577103e-01  3.45673941e-09  4.58577103e-01  1.61273547e-07  1.29423164e-07  6.10000000e-01 
 6.20000000e-01  3.41187119e-09  3.45339260e-09  4.58577116e-01  3.61273841e-09  4.58577116e-01  3.45673943e-09  4.58577116e-01  1.61273591e-07  1.29423178e-07  6.20000000e-01 
 6.30000000e-01  3.41187124e-09  3.45339254e-09  4.58577106e-01  3.61273835e-09  4.58577106e-01  3.45673942e-09  4.58577106e-01  1.61273560e-07  1.29423036e-07  6.30000000e-01 
 6.40000000e-01  3.41187123e-09  3.45339254e-09  4.58577099e-01  3.61273837e-09  4.58577099e-01  3.45673948e-09  4.58577099e-01  1.61273559e-07  1.29423022e-07  6.40000000e-01 
 6.50000000e-01  3.41187118e-09  3.45339254e-09  4.58577112e-01  3.61273835e-09  4.58577112e-01  3.45673941e-09  4.58577112e-01  1.61273566e-07  1.29422808e-07  6.50000000e-01 
 6.60000000e-01  3.41187125e-09  3.45339254e-09  4.58577095e-01  3.61273837e-09  4.58577095e-01  3.45673942e-09  4.58577095e-01  1.61273530e-07  1.29422759e-07  6.60000000e-01 
 6.70000000e-01  3.41187123e-09  3.45339254e-09  4.58577097e-01  3.61273835e-09  4.58577097e-01  3.45673942e-09  4.58577097e-01  1.61273559e-07  1.29422652e-07  6.70000000e-01 
 6.80000000e-01  3.41187123e-09  3.45339259e-09  4.58577094e-01  3.61273837e-09  4.58577094e-01  3.45673942e-09  4.58577094e-01  1.61273543e-07  1.29422524e-07  6.80000000e-01 
 6.90000000e-01  3.41187118e-09  3.45339254e-09  4.58577093e-01  3.61273840e-09  4.58577093e-01  3.45673942e-09  4.58577093e-01  1.61273538e-07  1.29422453e-07  6.90000000e-01 
 7.00000000e-01  3.41187119e-09  3.45339253e-09  4.58577083e-01  3.61273835e-09  4.58577083e-01  3.45673947e-09  4.58577084e-01  1.61273534e-07  1.29422332e-07  7.00000000e-01 
 7.10000000e-01  3.41187118e-09  3.45339254e-09  4.58577096e-01  3.61273837e-09  4.58577096e-01  3.45673946e-09  4.58577096e-01  1.61273556e-07  1.29422205e-07  7.10000000e-01 
 7.20000000e-01  3.41187124e-09  3.45339254e-09  4.58577115e-01  3.61273835e-09  4.58577115e-01  3.45673941e-09  4.58577116e-01  1.61273571e-07  1.29422205e-07  7.20000000e-01 
 7.30000000e-01  3.41187117e-09  3.45339254e-09  4.58577102e-01  3.61273837e-09  4.58577102e-01  3.45673943e-09  4.58577102e-01  1.61273544e-07  1.29422091e-07  7.30000000e-01 
 7.40000000e-01  3.41187125e-09  3.45339253e-09  4.58577085e-01  3.61273840e-09  4.58577085e-01  3.45673942e-09  4.58577086e-01  1.61273528e-07  1.29422020e-07  7.40000000e-01 
 7.50000000e-01  3.41187117e-09  3.45339254e-09  4.58577099e-01  3.61273841e-09  4.58577099e-01  3.45673942e-09  4.58577099e-01  1.61273543e-07  1.29422070e-07  7.50000000e-01 
 7.60000000e-01  3.41187125e-09  3.45339254e-09  4.58577101e-01  3.61273841e-09  4.58577101e-01  3.45673942e-09  4.58577101e-01  1.61273568e-07  1.29421821e-07  7.60000000e-01 
 7.70000000e-01  3.41187123e-09  3.45339253e-09  4.58577085e-01  3.61273835e-09  4.58577085e-01  3.45673942e-09  4.58577085e-01  1.61273533e-07  1.29421672e-07  7.70000000e-01 
 7.80000000e-01  3.41187118e-09  3.45339254e-09  4.58577120e-01  3.61273837e-09  4.58577120e-01  3.45673942e-09  4.58577120e-01  1.61273594e-07  1.29421679e-07  7.80000000e-01 
 7.90000000e-01  3.41187119e-09  3.45339254e-09  4.58577110e-01  3.61273841e-09  4.58577110e-01  3.45673942e-09  4.58577110e-01  1.61273571e-07  1.29421544e-07  7.90000000e-01 
 8.00000000e-01  3.41187124e-09  3.45339254e-09  4.58577110e-01  3.61273841e-09  4.58577110e-01  3.45673942e-09  4.58577110e-01  1.61273564e-07  1.29421451e-07  8.00000000e-01 
 8.10000000e-01  3.41187123e-09  3.45339254e-09  4.58577127e-01  3.61273841e-09  4.58577127e-01  3.45673942e-09  4.58577128e-01  1.61273594e-07  1.29421480e-07  8.10000000e-01 
 8.20000000e-01  3.41187118e-09  3.45339254e-09  4.58577106e-01  3.61273841e-09  4.58577106e-01  3.45673942e-09  4.58577106e-01  1.61273548e-07  1.29421323e-07  8.20000000e-01 
 8.30000000e-01  3.41187125e-09  3.45339254e-09  4.58577106e-01  3.61273841e-09  4.58577106e-01  3.45673948e-09  4.58577106e-01  1.61273562e-07  1.29421217e-07  8.30000000e-01 
 8.40000000e-01  3.41187123e-09  3.45339254e-09  4.58577135e-01  3.61273842e-09  4.58577135e-01  3.45673947e-09  4.58577135e-01  1.61273612e-07  1.29421174e-07  8.40000000e-01 
 8.50000000e-01  3.41187118e-09  3.45339254e-09  4.58577102e-01  3.61273841e-09  4.58577102e-01  3.45673947e-09  4.58577102e-01  1.61273557e-07  1.29420997e-07  8.50000000e-01 
 8.60000000e-01  3.41187125e-09  3.45339260e-09  4.58577127e-01  3.61273841e-09  4.58577127e-01  3.45673947e-09  4.58577128e-01  1.61273597e-07  1.29421188e-07  8.60000000e-01 
 8.70000000e-01  3.41187123e-09  3.45339254e-09  4.58577117e-01  3.61273841e-09  4.58577117e-01  3.45673941e-09  4.58577117e-01  1.61273570e-07  1.29420833e-07  8.70000000e-01 
 8.80000000e-01  3.41187124e-09  3.45339254e-09  4.58577131e-01  3.61273842e-09  4.58577131e-01  3.45673943e-09  4.58577131e-01  1.61273596e-07  1.29420798e-07  8.80000000e-01 
 8.90000000e-01  3.41187118e-09  3.45339254e-09  4.58577097e-01  3.61273835e-09  4.58577097e-01  3.45673942e-09  4.58577097e-01  1.61273542e-07  1.29420762e-07  8.90000000e-01 
 9.00000000e-01  3.41187125e-09  3.45339260e-09  4.58577131e-01  3.61273837e-09  4.58577131e-01  3.45673942e-09  4.58577131e-01  1.61273589e-07  1.29420634e-07  9.00000000e-01 
 9.10000000e-01  3.41187117e-09  3.45339254e-09  4.58577098e-01  3.61273840e-09  4.58577098e-01  3.45673948e-09  4.58577098e-01  1.61273527e-07  1.29420407e-07  9.10000000e-01 
 9.20000000e-01  3.41187125e-09  3.45339254e-09  4.58577092e-01  3.61273835e-09  4.58577092e-01  3.45673946e-09  4.58577092e-01  1.61273550e-07  1.29420329e-07  9.20000000e-01 
 9.30000000e-01  3.41187123e-09  3.45339254e-09  4.58577093e-01  3.61273837e-09  4.58577093e-01  3.45673947e-09  4.58577093e-01  1.61273532e-07  1.29420286e-07  9.30000000e-01 
 9.40000000e-01  3.41187117e-09  3.45339253e-09  4.58577063e-01  3.61273834e-09  4.58577063e-01  3.45673941e-09  4.58577063e-01  1.61273493e-07  1.29420009e-07  9.40000000e-01 
 9.50000000e-01  3.41187119e-09  3.45339260e-09  4.58577118e-01  3.61273837e-09  4.58577118e-01  3.45673943e-09  4.58577118e-01  1.61273581e-07  1.29420137e-07  9.50000000e-01 
 9.60000000e-01  3.41187124e-09  3.45339254e-09  4.58577101e-01  3.61273841e-09  4.58577101e-01  3.45673948e-09  4.58577101e-01  1.61273559e-07  1.29419867e-07  9.60000000e-01 
 9.70000000e-01  3.41187123e-09  3.45339254e-09  4.58577106e-01  3.61273835e-09  4.58577106e-01  3.45673946e-09  4.58577106e-01  1.61273568e-07  1.29419874e-07  9.70000000e-01 
 9.80000000e-01  3.41187118e-09  3.45339254e-09  4.58577115e-01  3.61273837e-09  4.58577115e-01  3.45673947e-09  4.58577115e-01  1.61273571e-07  1.29419732e-07  9.80000000e-01 
 9.90000000e-01  3.41187125e-09  3.45339254e-09  4.58577108e-01  3.61273835e-09  4.58577108e-01  3.45673941e-09  4.58577108e-01  1.61273557e-07  1.29419661e-07  9.90000000e-01 
 1.00000000e+00  3.41187123e-09  3.45339259e-09  4.58577105e-01  3.61273837e-09  4.58577105e-01  3.45673943e-09  4.58577105e-01  1.61273566e-07  1.29419497e-07  1.00000000e+00 
 1.01000000e+00  3.41187118e-09  3.45339259e-09  4.58577104e-01  3.61273841e-09  4.58577104e-01  3.45673942e-09  4.58577104e-01  1.61273555e-07  1.29419462e-07  1.01000000e+00 
 1.02000000e+00  3.41187119e-09  3.45339254e-09  4.58577137e-01  3.61273842e-09  4.58577137e-01  3.45673948e-09  4.58577137e-01  1.61273611e-07  1.29419426e-07  1.02000000e+00 
 1.03000000e+00  3.41187118e-09  3.45339259e-09  4.58577101e-01  3.61273841e-09  4.58577101e-01  3.45673941e-09  4.58577102e-01  1.61273556e-07  1.29419178e-07  1.03000000e+00 
 1.04000000e+00  3.41187124e-09  3.45339259e-09  4.58577105e-01  3.61273841e-09  4.58577105e-01  3.45673943e-09  4.58577105e-01  1.61273550e-07  1.29419050e-07  1.04000000e+00 
 1.05000000e+00  3.41187123e-09  3.45339254e-09  4.58577112e-01  3.61273836e-09  4.58577112e-01  3.45673948e-09  4.58577112e-01  1.61273556e-07  1.29419057e-07  1.05000000e+00 
 1.06000000e+00  3.41187118e-09  3.45339254e-09  4.58577106e-01  3.61273837e-09  4.58577106e-01  3.45673946e-09  4.58577106e-01  1.61273559e-07  1.29418943e-07  1.06000000e+00 
 1.07000000e+00  3.41187119e-09  3.45339254e-09  4.58577107e-01  3.61273835e-09  4.58577107e-01  3.45673947e-09  4.58577107e-01  1.61273558e-07  1.29418886e-07  1.07000000e+00 
 1.08000000e+00  3.41187118e-09  3.45339260e-09  4.58577115e-01  3.61273837e-09  4.58577115e-01  3.45673941e-09  4.58577115e-01  1.61273570e-07  1.29418702e-07  1.08000000e+00 
 1.09000000e+00  3.41187118e-09  3.45339259e-09  4.58577109e-01  3.61273835e-09  4.58577109e-01  3.45673948e-09  4.58577109e-01  1.61273567e-07  1.29418581e-07  1.09000000e+00 
 1.10000000e+00  3.41187124e-09  3.45339254e-09  4.58577106e-01  3.61273842e-09  4.58577106e-01  3.45673941e-09  4.58577106e-01  1.61273570e-07  1.29418488e-07  1.10000000e+00 
