 v-sweep         v(b0)           v(b1)           v(b2)           v(b3)           v(b4)           v(b5)           v(b6)           i(vbias)        i(viout)        v(vout)        
 0.00000000e+00  4.57529445e-01  4.57529445e-01  3.40346861e-09  3.46451171e-09  4.57529445e-01  3.40805397e-09  3.17479892e-09  1.60957523e-07  2.83283581e-08  0.00000000e+00 
 1.00000000e-02  4.57529476e-01  4.57529476e-01  3.40346858e-09  3.46451169e-09  4.57529476e-01  3.40805389e-09  3.17479896e-09  1.60957577e-07  2.83278920e-08  1.00000000e-02 
 2.00000000e-02  4.57529445e-01  4.57529445e-01  3.40346858e-09  3.46451169e-09  4.57529445e-01  3.40805394e-09  3.17479890e-09  1.60957538e-07  2.83275101e-08  2.00000000e-02 
 3.00000000e-02  4.57529451e-01  4.57529451e-01  3.40346858e-09  3.46451169e-09  4.57529451e-01  3.40805395e-09  3.17479896e-09  1.60957543e-07  2.83272483e-08  3.00000000e-02 
 4.00000000e-02  4.57529463e-01  4.57529463e-01  3.40346858e-09  3.46451169e-09  4.57529463e-01  3.40805395e-09  3.17479890e-09  1.60957561e-07  2.83269364e-08  4.00000000e-02 
 5.00000000e-02  4.57529461e-01  4.57529461e-01  3.40346858e-09  3.46451169e-09  4.57529461e-01  3.40805395e-09  3.17479890e-09  1.60957563e-07  2.83264350e-08  5.00000000e-02 
 6.00000000e-02  4.57529475e-01  4.57529475e-01  3.40346858e-09  3.46451169e-09  4.57529475e-01  3.40805389e-09  3.17479896e-09  1.60957566e-07  2.83262893e-08  6.00000000e-02 
 7.00000000e-02  4.57529451e-01  4.57529451e-01  3.40346858e-09  3.46451169e-09  4.57529451e-01  3.40805395e-09  3.17479890e-09  1.60957539e-07  2.83259123e-08  7.00000000e-02 
 8.00000000e-02  4.57529441e-01  4.57529441e-01  3.40346858e-09  3.46451169e-09  4.57529441e-01  3.40805394e-09  3.17479895e-09  1.60957533e-07  2.83255366e-08  8.00000000e-02 
 9.00000000e-02  4.57529425e-01  4.57529425e-01  3.40346858e-09  3.46451169e-09  4.57529425e-01  3.40805394e-09  3.17479895e-09  1.60957505e-07  2.83252790e-08  9.00000000e-02 
 1.00000000e-01  4.57529472e-01  4.57529472e-01  3.40346858e-09  3.46451169e-09  4.57529472e-01  3.40805395e-09  3.17479890e-09  1.60957584e-07  2.83250801e-08  1.00000000e-01 
 1.10000000e-01  4.57529460e-01  4.57529460e-01  3.40346858e-09  3.46451169e-09  4.57529460e-01  3.40805395e-09  3.17479896e-09  1.60957561e-07  2.83248731e-08  1.10000000e-01 
 1.20000000e-01  4.57529460e-01  4.57529460e-01  3.40346858e-09  3.46451169e-09  4.57529460e-01  3.40805395e-09  3.17479896e-09  1.60957560e-07  2.83246289e-08  1.20000000e-01 
 1.30000000e-01  4.57529442e-01  4.57529442e-01  3.40346858e-09  3.46451169e-09  4.57529442e-01  3.40805389e-09  3.17479890e-09  1.60957544e-07  2.83243882e-08  1.30000000e-01 
 1.40000000e-01  4.57529457e-01  4.57529457e-01  3.40346858e-09  3.46451169e-09  4.57529457e-01  3.40805395e-09  3.17479890e-09  1.60957546e-07  2.83242549e-08  1.40000000e-01 
 1.50000000e-01  4.57529464e-01  4.57529464e-01  3.40346858e-09  3.46451169e-09  4.57529464e-01  3.40805395e-09  3.17479890e-09  1.60957574e-07  2.83240897e-08  1.50000000e-01 
 1.60000000e-01  4.57529460e-01  4.57529460e-01  3.40346858e-09  3.46451169e-09  4.57529460e-01  3.40805395e-09  3.17479890e-09  1.60957565e-07  2.83238801e-08  1.60000000e-01 
 1.70000000e-01  4.57529444e-01  4.57529444e-01  3.40346858e-09  3.46451169e-09  4.57529444e-01  3.40805394e-09  3.17479890e-09  1.60957541e-07  2.83235799e-08  1.70000000e-01 
 1.80000000e-01  4.57529454e-01  4.57529454e-01  3.40346858e-09  3.46451169e-09  4.57529454e-01  3.40805395e-09  3.17479890e-09  1.60957550e-07  2.83234964e-08  1.80000000e-01 
 1.90000000e-01  4.57529467e-01  4.57529467e-01  3.40346858e-09  3.46451169e-09  4.57529466e-01  3.40805395e-09  3.17479896e-09  1.60957568e-07  2.83232922e-08  1.90000000e-01 
 2.00000000e-01  4.57529456e-01  4.57529456e-01  3.40346858e-09  3.46451169e-09  4.57529456e-01  3.40805395e-09  3.17479896e-09  1.60957561e-07  2.83231572e-08  2.00000000e-01 
 2.10000000e-01  4.57529471e-01  4.57529471e-01  3.40346858e-09  3.46451169e-09  4.57529471e-01  3.40805395e-09  3.17479896e-09  1.60957563e-07  2.83229955e-08  2.10000000e-01 
 2.20000000e-01  4.57529454e-01  4.57529454e-01  3.40346858e-09  3.46451169e-09  4.57529454e-01  3.40805395e-09  3.17479890e-09  1.60957546e-07  2.83228303e-08  2.20000000e-01 
 2.30000000e-01  4.57529433e-01  4.57529433e-01  3.40346858e-09  3.46451169e-09  4.57529433e-01  3.40805394e-09  3.17479895e-09  1.60957516e-07  2.83226882e-08  2.30000000e-01 
 2.40000000e-01  4.57529435e-01  4.57529435e-01  3.40346858e-09  3.46451169e-09  4.57529435e-01  3.40805389e-09  3.17479890e-09  1.60957521e-07  2.83227077e-08  2.40000000e-01 
 2.50000000e-01  4.57529467e-01  4.57529467e-01  3.40346858e-09  3.46451169e-09  4.57529467e-01  3.40805395e-09  3.17479890e-09  1.60957571e-07  2.83224715e-08  2.50000000e-01 
 2.60000000e-01  4.57529454e-01  4.57529454e-01  3.40346858e-09  3.46451169e-09  4.57529454e-01  3.40805395e-09  3.17479890e-09  1.60957531e-07  2.83223525e-08  2.60000000e-01 
 2.70000000e-01  4.57529459e-01  4.57529459e-01  3.40346858e-09  3.46451169e-09  4.57529459e-01  3.40805395e-09  3.17479896e-09  1.60957556e-07  2.83221837e-08  2.70000000e-01 
 2.80000000e-01  4.57529464e-01  4.57529464e-01  3.40346858e-09  3.46451169e-09  4.57529464e-01  3.40805395e-09  3.17479896e-09  1.60957567e-07  2.83221500e-08  2.80000000e-01 
 2.90000000e-01  4.57529451e-01  4.57529451e-01  3.40346858e-09  3.46451169e-09  4.57529451e-01  3.40805389e-09  3.17479890e-09  1.60957551e-07  2.83219492e-08  2.90000000e-01 
 3.00000000e-01  4.57529456e-01  4.57529456e-01  3.40346858e-09  3.46451169e-09  4.57529456e-01  3.40805395e-09  3.17479890e-09  1.60957535e-07  2.83218888e-08  3.00000000e-01 
 3.10000000e-01  4.57529462e-01  4.57529462e-01  3.40346858e-09  3.46451169e-09  4.57529462e-01  3.40805395e-09  3.17479896e-09  1.60957573e-07  2.83219173e-08  3.10000000e-01 
 3.20000000e-01  4.57529453e-01  4.57529453e-01  3.40346858e-09  3.46451169e-09  4.57529453e-01  3.40805395e-09  3.17479890e-09  1.60957551e-07  2.83217929e-08  3.20000000e-01 
 3.30000000e-01  4.57529467e-01  4.57529467e-01  3.40346858e-09  3.46451169e-09  4.57529467e-01  3.40805389e-09  3.17479890e-09  1.60957565e-07  2.83216437e-08  3.30000000e-01 
 3.40000000e-01  4.57529462e-01  4.57529462e-01  3.40346858e-09  3.46451169e-09  4.57529462e-01  3.40805395e-09  3.17479890e-09  1.60957559e-07  2.83216046e-08  3.40000000e-01 
 3.50000000e-01  4.57529453e-01  4.57529453e-01  3.40346858e-09  3.46451169e-09  4.57529453e-01  3.40805395e-09  3.17479890e-09  1.60957549e-07  2.83214696e-08  3.50000000e-01 
 3.60000000e-01  4.57529461e-01  4.57529461e-01  3.40346858e-09  3.46451169e-09  4.57529461e-01  3.40805395e-09  3.17479896e-09  1.60957540e-07  2.83213204e-08  3.60000000e-01 
 3.70000000e-01  4.57529457e-01  4.57529457e-01  3.40346858e-09  3.46451169e-09  4.57529457e-01  3.40805395e-09  3.17479890e-09  1.60957538e-07  2.83212209e-08  3.70000000e-01 
 3.80000000e-01  4.57529462e-01  4.57529462e-01  3.40346858e-09  3.46451169e-09  4.57529462e-01  3.40805395e-09  3.17479890e-09  1.60957559e-07  2.83212778e-08  3.80000000e-01 
 3.90000000e-01  4.57529465e-01  4.57529465e-01  3.40346858e-09  3.46451169e-09  4.57529464e-01  3.40805395e-09  3.17479896e-09  1.60957564e-07  2.83211001e-08  3.90000000e-01 
 4.00000000e-01  4.57529449e-01  4.57529449e-01  3.40346858e-09  3.46451169e-09  4.57529449e-01  3.40805395e-09  3.17479890e-09  1.60957551e-07  2.83211108e-08  4.00000000e-01 
 4.10000000e-01  4.57529441e-01  4.57529441e-01  3.40346858e-09  3.46451169e-09  4.57529441e-01  3.40805394e-09  3.17479895e-09  1.60957530e-07  2.83209260e-08  4.10000000e-01 
 4.20000000e-01  4.57529468e-01  4.57529468e-01  3.40346858e-09  3.46451169e-09  4.57529468e-01  3.40805395e-09  3.17479890e-09  1.60957584e-07  2.83208585e-08  4.20000000e-01 
 4.30000000e-01  4.57529462e-01  4.57529462e-01  3.40346858e-09  3.46451169e-09  4.57529462e-01  3.40805389e-09  3.17479896e-09  1.60957566e-07  2.83208266e-08  4.30000000e-01 
 4.40000000e-01  4.57529453e-01  4.57529453e-01  3.40346858e-09  3.46451169e-09  4.57529453e-01  3.40805395e-09  3.17479896e-09  1.60957533e-07  2.83208301e-08  4.40000000e-01 
 4.50000000e-01  4.57529447e-01  4.57529447e-01  3.40346858e-09  3.46451169e-09  4.57529447e-01  3.40805394e-09  3.17479896e-09  1.60957535e-07  2.83207733e-08  4.50000000e-01 
 4.60000000e-01  4.57529451e-01  4.57529451e-01  3.40346858e-09  3.46451169e-09  4.57529451e-01  3.40805395e-09  3.17479890e-09  1.60957547e-07  2.83206170e-08  4.60000000e-01 
 4.70000000e-01  4.57529467e-01  4.57529467e-01  3.40346858e-09  3.46451169e-09  4.57529467e-01  3.40805395e-09  3.17479896e-09  1.60957570e-07  2.83206241e-08  4.70000000e-01 
 4.80000000e-01  4.57529455e-01  4.57529455e-01  3.40346858e-09  3.46451169e-09  4.57529455e-01  3.40805395e-09  3.17479890e-09  1.60957549e-07  2.83205424e-08  4.80000000e-01 
 4.90000000e-01  4.57529450e-01  4.57529450e-01  3.40346858e-09  3.46451169e-09  4.57529450e-01  3.40805395e-09  3.17479890e-09  1.60957536e-07  2.83203896e-08  4.90000000e-01 
 5.00000000e-01  4.57529454e-01  4.57529454e-01  3.40346858e-09  3.46451169e-09  4.57529454e-01  3.40805395e-09  3.17479890e-09  1.60957553e-07  2.83204642e-08  5.00000000e-01 
 5.10000000e-01  4.57529466e-01  4.57529466e-01  3.40346858e-09  3.46451169e-09  4.57529466e-01  3.40805395e-09  3.17479890e-09  1.60957559e-07  2.83203789e-08  5.10000000e-01 
 5.20000000e-01  4.57529460e-01  4.57529460e-01  3.40346858e-09  3.46451169e-09  4.57529460e-01  3.40805395e-09  3.17479896e-09  1.60957554e-07  2.83203576e-08  5.20000000e-01 
 5.30000000e-01  4.57529453e-01  4.57529453e-01  3.40346858e-09  3.46451169e-09  4.57529453e-01  3.40805395e-09  3.17479890e-09  1.60957529e-07  2.83202084e-08  5.30000000e-01 
 5.40000000e-01  4.57529460e-01  4.57529460e-01  3.40346858e-09  3.46451169e-09  4.57529460e-01  3.40805395e-09  3.17479896e-09  1.60957559e-07  2.83201658e-08  5.40000000e-01 
 5.50000000e-01  4.57529459e-01  4.57529459e-01  3.40346858e-09  3.46451169e-09  4.57529459e-01  3.40805395e-09  3.17479890e-09  1.60957563e-07  2.83200308e-08  5.50000000e-01 
 5.60000000e-01  4.57529466e-01  4.57529466e-01  3.40346858e-09  3.46451169e-09  4.57529466e-01  3.40805395e-09  3.17479896e-09  1.60957573e-07  2.83200556e-08  5.60000000e-01 
 5.70000000e-01  4.57529458e-01  4.57529458e-01  3.40346858e-09  3.46451169e-09  4.57529458e-01  3.40805389e-09  3.17479890e-09  1.60957559e-07  2.83200734e-08  5.70000000e-01 
 5.80000000e-01  4.57529436e-01  4.57529436e-01  3.40346858e-09  3.46451169e-09  4.57529436e-01  3.40805394e-09  3.17479895e-09  1.60957517e-07  2.83199881e-08  5.80000000e-01 
 5.90000000e-01  4.57529445e-01  4.57529445e-01  3.40346858e-09  3.46451169e-09  4.57529445e-01  3.40805394e-09  3.17479890e-09  1.60957537e-07  2.83199739e-08  5.90000000e-01 
 6.00000000e-01  4.57529442e-01  4.57529442e-01  3.40346858e-09  3.46451169e-09  4.57529442e-01  3.40805394e-09  3.17479890e-09  1.60957527e-07  2.83197892e-08  6.00000000e-01 
 6.10000000e-01  4.57529449e-01  4.57529449e-01  3.40346858e-09  3.46451169e-09  4.57529449e-01  3.40805395e-09  3.17479890e-09  1.60957522e-07  2.83198673e-08  6.10000000e-01 
 6.20000000e-01  4.57529448e-01  4.57529448e-01  3.40346858e-09  3.46451169e-09  4.57529448e-01  3.40805394e-09  3.17479890e-09  1.60957537e-07  2.83196115e-08  6.20000000e-01 
 6.30000000e-01  4.57529437e-01  4.57529437e-01  3.40346858e-09  3.46451169e-09  4.57529437e-01  3.40805394e-09  3.17479895e-09  1.60957518e-07  2.83197679e-08  6.30000000e-01 
 6.40000000e-01  4.57529452e-01  4.57529452e-01  3.40346858e-09  3.46451169e-09  4.57529452e-01  3.40805395e-09  3.17479896e-09  1.60957542e-07  2.83196400e-08  6.40000000e-01 
 6.50000000e-01  4.57529449e-01  4.57529449e-01  3.40346858e-09  3.46451169e-09  4.57529449e-01  3.40805395e-09  3.17479896e-09  1.60957550e-07  2.83196471e-08  6.50000000e-01 
 6.60000000e-01  4.57529472e-01  4.57529472e-01  3.40346858e-09  3.46451169e-09  4.57529472e-01  3.40805395e-09  3.17479896e-09  1.60957568e-07  2.83195121e-08  6.60000000e-01 
 6.70000000e-01  4.57529447e-01  4.57529447e-01  3.40346858e-09  3.46451169e-09  4.57529447e-01  3.40805394e-09  3.17479896e-09  1.60957538e-07  2.83194623e-08  6.70000000e-01 
 6.80000000e-01  4.57529443e-01  4.57529443e-01  3.40346858e-09  3.46451169e-09  4.57529443e-01  3.40805394e-09  3.17479896e-09  1.60957534e-07  2.83193273e-08  6.80000000e-01 
 6.90000000e-01  4.57529456e-01  4.57529456e-01  3.40346858e-09  3.46451169e-09  4.57529456e-01  3.40805395e-09  3.17479890e-09  1.60957554e-07  2.83192492e-08  6.90000000e-01 
 7.00000000e-01  4.57529465e-01  4.57529465e-01  3.40346858e-09  3.46451169e-09  4.57529465e-01  3.40805395e-09  3.17479890e-09  1.60957561e-07  2.83192989e-08  7.00000000e-01 
 7.10000000e-01  4.57529473e-01  4.57529473e-01  3.40346858e-09  3.46451169e-09  4.57529473e-01  3.40805395e-09  3.17479896e-09  1.60957587e-07  2.83192421e-08  7.10000000e-01 
 7.20000000e-01  4.57529463e-01  4.57529463e-01  3.40346858e-09  3.46451169e-09  4.57529463e-01  3.40805395e-09  3.17479896e-09  1.60957567e-07  2.83191426e-08  7.20000000e-01 
 7.30000000e-01  4.57529448e-01  4.57529448e-01  3.40346858e-09  3.46451169e-09  4.57529448e-01  3.40805389e-09  3.17479896e-09  1.60957539e-07  2.83192065e-08  7.30000000e-01 
 7.40000000e-01  4.57529452e-01  4.57529452e-01  3.40346858e-09  3.46451169e-09  4.57529452e-01  3.40805395e-09  3.17479890e-09  1.60957550e-07  2.83190786e-08  7.40000000e-01 
 7.50000000e-01  4.57529456e-01  4.57529456e-01  3.40346858e-09  3.46451175e-09  4.57529456e-01  3.40805389e-09  3.17479896e-09  1.60957544e-07  2.83191781e-08  7.50000000e-01 
 7.60000000e-01  4.57529471e-01  4.57529471e-01  3.40346858e-09  3.46451169e-09  4.57529471e-01  3.40805395e-09  3.17479890e-09  1.60957581e-07  2.83190218e-08  7.60000000e-01 
 7.70000000e-01  4.57529436e-01  4.57529436e-01  3.40346858e-09  3.46451169e-09  4.57529435e-01  3.40805394e-09  3.17479895e-09  1.60957526e-07  2.83190360e-08  7.70000000e-01 
 7.80000000e-01  4.57529478e-01  4.57529478e-01  3.40346858e-09  3.46451169e-09  4.57529478e-01  3.40805395e-09  3.17479890e-09  1.60957580e-07  2.83188726e-08  7.80000000e-01 
 7.90000000e-01  4.57529462e-01  4.57529462e-01  3.40346858e-09  3.46451169e-09  4.57529462e-01  3.40805395e-09  3.17479890e-09  1.60957569e-07  2.83188868e-08  7.90000000e-01 
 8.00000000e-01  4.57529427e-01  4.57529427e-01  3.40346858e-09  3.46451169e-09  4.57529427e-01  3.40805394e-09  3.17479895e-09  1.60957513e-07  2.83188157e-08  8.00000000e-01 
 8.10000000e-01  4.57529449e-01  4.57529449e-01  3.40346858e-09  3.46451169e-09  4.57529449e-01  3.40805395e-09  3.17479896e-09  1.60957546e-07  2.83187305e-08  8.10000000e-01 
 8.20000000e-01  4.57529468e-01  4.57529468e-01  3.40346858e-09  3.46451169e-09  4.57529468e-01  3.40805395e-09  3.17479890e-09  1.60957573e-07  2.83186878e-08  8.20000000e-01 
 8.30000000e-01  4.57529455e-01  4.57529455e-01  3.40346858e-09  3.46451169e-09  4.57529455e-01  3.40805395e-09  3.17479896e-09  1.60957544e-07  2.83186452e-08  8.30000000e-01 
 8.40000000e-01  4.57529465e-01  4.57529465e-01  3.40346858e-09  3.46451169e-09  4.57529465e-01  3.40805395e-09  3.17479890e-09  1.60957573e-07  2.83185315e-08  8.40000000e-01 
 8.50000000e-01  4.57529467e-01  4.57529467e-01  3.40346858e-09  3.46451169e-09  4.57529467e-01  3.40805395e-09  3.17479896e-09  1.60957569e-07  2.83184320e-08  8.50000000e-01 
 8.60000000e-01  4.57529466e-01  4.57529466e-01  3.40346858e-09  3.46451169e-09  4.57529466e-01  3.40805395e-09  3.17479890e-09  1.60957579e-07  2.83184107e-08  8.60000000e-01 
 8.70000000e-01  4.57529446e-01  4.57529446e-01  3.40346858e-09  3.46451169e-09  4.57529446e-01  3.40805389e-09  3.17479896e-09  1.60957554e-07  2.83183255e-08  8.70000000e-01 
 8.80000000e-01  4.57529450e-01  4.57529450e-01  3.40346858e-09  3.46451169e-09  4.57529450e-01  3.40805395e-09  3.17479890e-09  1.60957541e-07  2.83183184e-08  8.80000000e-01 
 8.90000000e-01  4.57529466e-01  4.57529466e-01  3.40346858e-09  3.46451169e-09  4.57529466e-01  3.40805395e-09  3.17479890e-09  1.60957564e-07  2.83183397e-08  8.90000000e-01 
 9.00000000e-01  4.57529463e-01  4.57529463e-01  3.40346858e-09  3.46451169e-09  4.57529462e-01  3.40805395e-09  3.17479896e-09  1.60957547e-07  2.83181478e-08  9.00000000e-01 
 9.10000000e-01  4.57529458e-01  4.57529458e-01  3.40346858e-09  3.46451169e-09  4.57529458e-01  3.40805389e-09  3.17479890e-09  1.60957557e-07  2.83182047e-08  9.10000000e-01 
 9.20000000e-01  4.57529456e-01  4.57529456e-01  3.40346858e-09  3.46451169e-09  4.57529456e-01  3.40805395e-09  3.17479896e-09  1.60957559e-07  2.83180697e-08  9.20000000e-01 
 9.30000000e-01  4.57529443e-01  4.57529443e-01  3.40346858e-09  3.46451169e-09  4.57529443e-01  3.40805394e-09  3.17479890e-09  1.60957537e-07  2.83181905e-08  9.30000000e-01 
 9.40000000e-01  4.57529439e-01  4.57529439e-01  3.40346858e-09  3.46451169e-09  4.57529439e-01  3.40805394e-09  3.17479890e-09  1.60957533e-07  2.83179347e-08  9.40000000e-01 
 9.50000000e-01  4.57529478e-01  4.57529479e-01  3.40346858e-09  3.46451169e-09  4.57529478e-01  3.40805395e-09  3.17479890e-09  1.60957570e-07  2.83179631e-08  9.50000000e-01 
 9.60000000e-01  4.57529446e-01  4.57529446e-01  3.40346858e-09  3.46451169e-09  4.57529446e-01  3.40805394e-09  3.17479896e-09  1.60957544e-07  2.83178849e-08  9.60000000e-01 
 9.70000000e-01  4.57529480e-01  4.57529480e-01  3.40346858e-09  3.46451169e-09  4.57529480e-01  3.40805389e-09  3.17479890e-09  1.60957587e-07  2.83178778e-08  9.70000000e-01 
 9.80000000e-01  4.57529427e-01  4.57529427e-01  3.40346858e-09  3.46451169e-09  4.57529427e-01  3.40805394e-09  3.17479890e-09  1.60957515e-07  2.83177499e-08  9.80000000e-01 
 9.90000000e-01  4.57529459e-01  4.57529459e-01  3.40346858e-09  3.46451169e-09  4.57529459e-01  3.40805395e-09  3.17479896e-09  1.60957575e-07  2.83176860e-08  9.90000000e-01 
 1.00000000e+00  4.57529464e-01  4.57529464e-01  3.40346858e-09  3.46451169e-09  4.57529464e-01  3.40805395e-09  3.17479896e-09  1.60957564e-07  2.83176647e-08  1.00000000e+00 
 1.01000000e+00  4.57529458e-01  4.57529458e-01  3.40346858e-09  3.46451169e-09  4.57529458e-01  3.40805395e-09  3.17479896e-09  1.60957556e-07  2.83177144e-08  1.01000000e+00 
 1.02000000e+00  4.57529431e-01  4.57529431e-01  3.40346858e-09  3.46451169e-09  4.57529431e-01  3.40805394e-09  3.17479890e-09  1.60957520e-07  2.83175012e-08  1.02000000e+00 
 1.03000000e+00  4.57529483e-01  4.57529483e-01  3.40346859e-09  3.46451170e-09  4.57529483e-01  3.40805389e-09  3.17479890e-09  1.60957606e-07  2.83175012e-08  1.03000000e+00 
 1.04000000e+00  4.57529469e-01  4.57529469e-01  3.40346858e-09  3.46451169e-09  4.57529469e-01  3.40805395e-09  3.17479890e-09  1.60957568e-07  2.83174302e-08  1.04000000e+00 
 1.05000000e+00  4.57529439e-01  4.57529439e-01  3.40346858e-09  3.46451169e-09  4.57529439e-01  3.40805394e-09  3.17479890e-09  1.60957527e-07  2.83172099e-08  1.05000000e+00 
 1.06000000e+00  4.57529451e-01  4.57529451e-01  3.40346858e-09  3.46451169e-09  4.57529451e-01  3.40805389e-09  3.17479890e-09  1.60957539e-07  2.83175012e-08  1.06000000e+00 
 1.07000000e+00  4.57529457e-01  4.57529457e-01  3.40346858e-09  3.46451169e-09  4.57529457e-01  3.40805395e-09  3.17479890e-09  1.60957550e-07  2.83172170e-08  1.07000000e+00 
 1.08000000e+00  4.57529440e-01  4.57529440e-01  3.40346858e-09  3.46451169e-09  4.57529440e-01  3.40805394e-09  3.17479890e-09  1.60957510e-07  2.83172525e-08  1.08000000e+00 
 1.09000000e+00  4.57529460e-01  4.57529460e-01  3.40346858e-09  3.46451169e-09  4.57529459e-01  3.40805395e-09  3.17479890e-09  1.60957575e-07  2.83172596e-08  1.09000000e+00 
 1.10000000e+00  4.57529453e-01  4.57529453e-01  3.40346858e-09  3.46451169e-09  4.57529453e-01  3.40805395e-09  3.17479890e-09  1.60957552e-07  2.83171886e-08  1.10000000e+00 
