 v-sweep         v(b0)           v(b1)           v(b2)           v(b3)           v(b4)           v(b5)           v(b6)           i(vbias)        i(viout)        v(vout)        
 0.00000000e+00  4.55177500e-01  4.55177500e-01  3.32793345e-09  4.55177500e-01  3.39875108e-09  3.36374574e-09  3.49362856e-09  1.53076617e-07  1.55465703e-08  0.00000000e+00 
 1.00000000e-02  4.55177489e-01  4.55177489e-01  3.32793348e-09  4.55177489e-01  3.39875105e-09  3.36374577e-09  3.49362860e-09  1.53076623e-07  1.55461657e-08  1.00000000e-02 
 2.00000000e-02  4.55177506e-01  4.55177506e-01  3.32793348e-09  4.55177506e-01  3.39875105e-09  3.36374577e-09  3.49362860e-09  1.53076631e-07  1.55457316e-08  2.00000000e-02 
 3.00000000e-02  4.55177490e-01  4.55177491e-01  3.32793342e-09  4.55177491e-01  3.39875105e-09  3.36374577e-09  3.49362860e-09  1.53076606e-07  1.55453477e-08  3.00000000e-02 
 4.00000000e-02  4.55177478e-01  4.55177478e-01  3.32793349e-09  4.55177478e-01  3.39875105e-09  3.36374577e-09  3.49362854e-09  1.53076581e-07  1.55449040e-08  4.00000000e-02 
 5.00000000e-02  4.55177478e-01  4.55177478e-01  3.32793347e-09  4.55177478e-01  3.39875105e-09  3.36374577e-09  3.49362859e-09  1.53076588e-07  1.55447148e-08  5.00000000e-02 
 6.00000000e-02  4.55177484e-01  4.55177484e-01  3.32793348e-09  4.55177484e-01  3.39875105e-09  3.36374577e-09  3.49362859e-09  1.53076592e-07  1.55443400e-08  6.00000000e-02 
 7.00000000e-02  4.55177500e-01  4.55177500e-01  3.32793342e-09  4.55177500e-01  3.39875105e-09  3.36374577e-09  3.49362854e-09  1.53076625e-07  1.55439892e-08  7.00000000e-02 
 8.00000000e-02  4.55177500e-01  4.55177500e-01  3.32793343e-09  4.55177500e-01  3.39875105e-09  3.36374577e-09  3.49362860e-09  1.53076615e-07  1.55438080e-08  8.00000000e-02 
 9.00000000e-02  4.55177497e-01  4.55177497e-01  3.32793347e-09  4.55177497e-01  3.39875105e-09  3.36374577e-09  3.49362860e-09  1.53076619e-07  1.55435496e-08  9.00000000e-02 
 1.00000000e-01  4.55177506e-01  4.55177506e-01  3.32793348e-09  4.55177506e-01  3.39875105e-09  3.36374577e-09  3.49362860e-09  1.53076624e-07  1.55433719e-08  1.00000000e-01 
 1.10000000e-01  4.55177503e-01  4.55177503e-01  3.32793348e-09  4.55177503e-01  3.39875105e-09  3.36374577e-09  3.49362860e-09  1.53076619e-07  1.55430797e-08  1.10000000e-01 
 1.20000000e-01  4.55177490e-01  4.55177490e-01  3.32793348e-09  4.55177490e-01  3.39875105e-09  3.36374577e-09  3.49362854e-09  1.53076616e-07  1.55428461e-08  1.20000000e-01 
 1.30000000e-01  4.55177461e-01  4.55177461e-01  3.32793342e-09  4.55177461e-01  3.39875105e-09  3.36374577e-09  3.49362859e-09  1.53076559e-07  1.55426587e-08  1.30000000e-01 
 1.40000000e-01  4.55177484e-01  4.55177484e-01  3.32793343e-09  4.55177484e-01  3.39875105e-09  3.36374577e-09  3.49362859e-09  1.53076598e-07  1.55424340e-08  1.40000000e-01 
 1.50000000e-01  4.55177454e-01  4.55177454e-01  3.32793347e-09  4.55177454e-01  3.39875105e-09  3.36374577e-09  3.49362859e-09  1.53076552e-07  1.55421951e-08  1.50000000e-01 
 1.60000000e-01  4.55177495e-01  4.55177495e-01  3.32793342e-09  4.55177495e-01  3.39875105e-09  3.36374577e-09  3.49362860e-09  1.53076598e-07  1.55419393e-08  1.60000000e-01 
 1.70000000e-01  4.55177511e-01  4.55177511e-01  3.32793349e-09  4.55177511e-01  3.39875105e-09  3.36374578e-09  3.49362860e-09  1.53076637e-07  1.55418132e-08  1.70000000e-01 
 1.80000000e-01  4.55177491e-01  4.55177491e-01  3.32793342e-09  4.55177491e-01  3.39875105e-09  3.36374577e-09  3.49362860e-09  1.53076601e-07  1.55417084e-08  1.80000000e-01 
 1.90000000e-01  4.55177486e-01  4.55177486e-01  3.32793349e-09  4.55177486e-01  3.39875105e-09  3.36374577e-09  3.49362859e-09  1.53076596e-07  1.55413939e-08  1.90000000e-01 
 2.00000000e-01  4.55177491e-01  4.55177491e-01  3.32793342e-09  4.55177491e-01  3.39875111e-09  3.36374577e-09  3.49362860e-09  1.53076611e-07  1.55414419e-08  2.00000000e-01 
 2.10000000e-01  4.55177509e-01  4.55177509e-01  3.32793343e-09  4.55177509e-01  3.39875105e-09  3.36374578e-09  3.49362860e-09  1.53076631e-07  1.55412074e-08  2.10000000e-01 
 2.20000000e-01  4.55177493e-01  4.55177493e-01  3.32793342e-09  4.55177493e-01  3.39875105e-09  3.36374577e-09  3.49362860e-09  1.53076619e-07  1.55410245e-08  2.20000000e-01 
 2.30000000e-01  4.55177474e-01  4.55177474e-01  3.32793343e-09  4.55177474e-01  3.39875105e-09  3.36374577e-09  3.49362859e-09  1.53076585e-07  1.55409534e-08  2.30000000e-01 
 2.40000000e-01  4.55177488e-01  4.55177489e-01  3.32793347e-09  4.55177489e-01  3.39875105e-09  3.36374577e-09  3.49362860e-09  1.53076597e-07  1.55408273e-08  2.40000000e-01 
 2.50000000e-01  4.55177489e-01  4.55177489e-01  3.32793342e-09  4.55177489e-01  3.39875105e-09  3.36374577e-09  3.49362860e-09  1.53076610e-07  1.55406692e-08  2.50000000e-01 
 2.60000000e-01  4.55177485e-01  4.55177485e-01  3.32793343e-09  4.55177485e-01  3.39875105e-09  3.36374577e-09  3.49362859e-09  1.53076593e-07  1.55404525e-08  2.60000000e-01 
 2.70000000e-01  4.55177480e-01  4.55177480e-01  3.32793342e-09  4.55177480e-01  3.39875105e-09  3.36374577e-09  3.49362859e-09  1.53076589e-07  1.55404134e-08  2.70000000e-01 
 2.80000000e-01  4.55177494e-01  4.55177494e-01  3.32793349e-09  4.55177494e-01  3.39875105e-09  3.36374577e-09  3.49362860e-09  1.53076613e-07  1.55402642e-08  2.80000000e-01 
 2.90000000e-01  4.55177458e-01  4.55177458e-01  3.32793341e-09  4.55177458e-01  3.39875105e-09  3.36374577e-09  3.49362854e-09  1.53076566e-07  1.55402233e-08  2.90000000e-01 
 3.00000000e-01  4.55177484e-01  4.55177484e-01  3.32793349e-09  4.55177484e-01  3.39875105e-09  3.36374577e-09  3.49362859e-09  1.53076591e-07  1.55402233e-08  3.00000000e-01 
 3.10000000e-01  4.55177483e-01  4.55177483e-01  3.32793347e-09  4.55177483e-01  3.39875105e-09  3.36374577e-09  3.49362854e-09  1.53076598e-07  1.55400741e-08  3.10000000e-01 
 3.20000000e-01  4.55177480e-01  4.55177480e-01  3.32793342e-09  4.55177480e-01  3.39875105e-09  3.36374577e-09  3.49362854e-09  1.53076599e-07  1.55399640e-08  3.20000000e-01 
 3.30000000e-01  4.55177478e-01  4.55177478e-01  3.32793343e-09  4.55177478e-01  3.39875105e-09  3.36374577e-09  3.49362859e-09  1.53076581e-07  1.55397686e-08  3.30000000e-01 
 3.40000000e-01  4.55177478e-01  4.55177478e-01  3.32793342e-09  4.55177478e-01  3.39875105e-09  3.36374577e-09  3.49362859e-09  1.53076580e-07  1.55398290e-08  3.40000000e-01 
 3.50000000e-01  4.55177486e-01  4.55177487e-01  3.32793343e-09  4.55177486e-01  3.39875105e-09  3.36374577e-09  3.49362859e-09  1.53076597e-07  1.55396727e-08  3.50000000e-01 
 3.60000000e-01  4.55177503e-01  4.55177503e-01  3.32793342e-09  4.55177503e-01  3.39875105e-09  3.36374577e-09  3.49362860e-09  1.53076625e-07  1.55396833e-08  3.60000000e-01 
 3.70000000e-01  4.55177499e-01  4.55177499e-01  3.32793349e-09  4.55177499e-01  3.39875105e-09  3.36374577e-09  3.49362854e-09  1.53076644e-07  1.55396300e-08  3.70000000e-01 
 3.80000000e-01  4.55177496e-01  4.55177496e-01  3.32793347e-09  4.55177496e-01  3.39875105e-09  3.36374577e-09  3.49362860e-09  1.53076614e-07  1.55395092e-08  3.80000000e-01 
 3.90000000e-01  4.55177511e-01  4.55177511e-01  3.32793348e-09  4.55177511e-01  3.39875105e-09  3.36374578e-09  3.49362854e-09  1.53076635e-07  1.55394275e-08  3.90000000e-01 
 4.00000000e-01  4.55177506e-01  4.55177506e-01  3.32793348e-09  4.55177506e-01  3.39875105e-09  3.36374577e-09  3.49362860e-09  1.53076624e-07  1.55393636e-08  4.00000000e-01 
 4.10000000e-01  4.55177514e-01  4.55177514e-01  3.32793348e-09  4.55177514e-01  3.39875105e-09  3.36374578e-09  3.49362860e-09  1.53076648e-07  1.55393209e-08  4.10000000e-01 
 4.20000000e-01  4.55177489e-01  4.55177489e-01  3.32793348e-09  4.55177489e-01  3.39875105e-09  3.36374577e-09  3.49362860e-09  1.53076611e-07  1.55393352e-08  4.20000000e-01 
 4.30000000e-01  4.55177501e-01  4.55177501e-01  3.32793348e-09  4.55177501e-01  3.39875105e-09  3.36374577e-09  3.49362860e-09  1.53076637e-07  1.55391611e-08  4.30000000e-01 
 4.40000000e-01  4.55177475e-01  4.55177475e-01  3.32793342e-09  4.55177475e-01  3.39875105e-09  3.36374577e-09  3.49362859e-09  1.53076583e-07  1.55391540e-08  4.40000000e-01 
 4.50000000e-01  4.55177481e-01  4.55177481e-01  3.32793343e-09  4.55177481e-01  3.39875105e-09  3.36374577e-09  3.49362859e-09  1.53076585e-07  1.55390438e-08  4.50000000e-01 
 4.60000000e-01  4.55177498e-01  4.55177498e-01  3.32793342e-09  4.55177498e-01  3.39875105e-09  3.36374577e-09  3.49362860e-09  1.53076608e-07  1.55390261e-08  4.60000000e-01 
 4.70000000e-01  4.55177465e-01  4.55177465e-01  3.32793349e-09  4.55177465e-01  3.39875105e-09  3.36374577e-09  3.49362859e-09  1.53076573e-07  1.55388165e-08  4.70000000e-01 
 4.80000000e-01  4.55177496e-01  4.55177496e-01  3.32793347e-09  4.55177496e-01  3.39875105e-09  3.36374577e-09  3.49362860e-09  1.53076618e-07  1.55389266e-08  4.80000000e-01 
 4.90000000e-01  4.55177506e-01  4.55177506e-01  3.32793342e-09  4.55177506e-01  3.39875105e-09  3.36374577e-09  3.49362854e-09  1.53076645e-07  1.55388094e-08  4.90000000e-01 
 5.00000000e-01  4.55177463e-01  4.55177463e-01  3.32793343e-09  4.55177463e-01  3.39875105e-09  3.36374577e-09  3.49362859e-09  1.53076579e-07  1.55387312e-08  5.00000000e-01 
 5.10000000e-01  4.55177493e-01  4.55177493e-01  3.32793342e-09  4.55177493e-01  3.39875105e-09  3.36374577e-09  3.49362860e-09  1.53076620e-07  1.55386246e-08  5.10000000e-01 
 5.20000000e-01  4.55177490e-01  4.55177491e-01  3.32793349e-09  4.55177490e-01  3.39875105e-09  3.36374577e-09  3.49362860e-09  1.53076612e-07  1.55385358e-08  5.20000000e-01 
 5.30000000e-01  4.55177514e-01  4.55177514e-01  3.32793342e-09  4.55177514e-01  3.39875105e-09  3.36374578e-09  3.49362860e-09  1.53076633e-07  1.55385926e-08  5.30000000e-01 
 5.40000000e-01  4.55177491e-01  4.55177491e-01  3.32793343e-09  4.55177491e-01  3.39875105e-09  3.36374577e-09  3.49362860e-09  1.53076608e-07  1.55384505e-08  5.40000000e-01 
 5.50000000e-01  4.55177481e-01  4.55177482e-01  3.32793342e-09  4.55177481e-01  3.39875105e-09  3.36374577e-09  3.49362859e-09  1.53076584e-07  1.55383972e-08  5.50000000e-01 
 5.60000000e-01  4.55177484e-01  4.55177484e-01  3.32793343e-09  4.55177484e-01  3.39875105e-09  3.36374577e-09  3.49362859e-09  1.53076592e-07  1.55383546e-08  5.60000000e-01 
 5.70000000e-01  4.55177496e-01  4.55177496e-01  3.32793347e-09  4.55177496e-01  3.39875105e-09  3.36374577e-09  3.49362860e-09  1.53076607e-07  1.55382942e-08  5.70000000e-01 
 5.80000000e-01  4.55177493e-01  4.55177493e-01  3.32793342e-09  4.55177493e-01  3.39875105e-09  3.36374577e-09  3.49362860e-09  1.53076613e-07  1.55382551e-08  5.80000000e-01 
 5.90000000e-01  4.55177490e-01  4.55177490e-01  3.32793343e-09  4.55177490e-01  3.39875105e-09  3.36374577e-09  3.49362860e-09  1.53076603e-07  1.55382125e-08  5.90000000e-01 
 6.00000000e-01  4.55177508e-01  4.55177508e-01  3.32793347e-09  4.55177508e-01  3.39875105e-09  3.36374578e-09  3.49362860e-09  1.53076645e-07  1.55382054e-08  6.00000000e-01 
 6.10000000e-01  4.55177499e-01  4.55177499e-01  3.32793342e-09  4.55177499e-01  3.39875105e-09  3.36374577e-09  3.49362854e-09  1.53076632e-07  1.55381201e-08  6.10000000e-01 
 6.20000000e-01  4.55177485e-01  4.55177485e-01  3.32793343e-09  4.55177485e-01  3.39875105e-09  3.36374577e-09  3.49362859e-09  1.53076608e-07  1.55380278e-08  6.20000000e-01 
 6.30000000e-01  4.55177497e-01  4.55177498e-01  3.32793342e-09  4.55177497e-01  3.39875105e-09  3.36374577e-09  3.49362860e-09  1.53076618e-07  1.55380420e-08  6.30000000e-01 
 6.40000000e-01  4.55177490e-01  4.55177490e-01  3.32793349e-09  4.55177490e-01  3.39875105e-09  3.36374577e-09  3.49362860e-09  1.53076613e-07  1.55379851e-08  6.40000000e-01 
 6.50000000e-01  4.55177495e-01  4.55177495e-01  3.32793342e-09  4.55177495e-01  3.39875105e-09  3.36374577e-09  3.49362860e-09  1.53076635e-07  1.55378928e-08  6.50000000e-01 
 6.60000000e-01  4.55177488e-01  4.55177488e-01  3.32793349e-09  4.55177488e-01  3.39875105e-09  3.36374577e-09  3.49362854e-09  1.53076604e-07  1.55378999e-08  6.60000000e-01 
 6.70000000e-01  4.55177490e-01  4.55177490e-01  3.32793342e-09  4.55177490e-01  3.39875105e-09  3.36374577e-09  3.49362860e-09  1.53076614e-07  1.55377933e-08  6.70000000e-01 
 6.80000000e-01  4.55177468e-01  4.55177468e-01  3.32793349e-09  4.55177468e-01  3.39875105e-09  3.36374577e-09  3.49362859e-09  1.53076581e-07  1.55377577e-08  6.80000000e-01 
 6.90000000e-01  4.55177470e-01  4.55177470e-01  3.32793342e-09  4.55177470e-01  3.39875105e-09  3.36374577e-09  3.49362859e-09  1.53076579e-07  1.55376938e-08  6.90000000e-01 
 7.00000000e-01  4.55177476e-01  4.55177476e-01  3.32793349e-09  4.55177476e-01  3.39875105e-09  3.36374577e-09  3.49362859e-09  1.53076581e-07  1.55376654e-08  7.00000000e-01 
 7.10000000e-01  4.55177490e-01  4.55177490e-01  3.32793342e-09  4.55177490e-01  3.39875105e-09  3.36374577e-09  3.49362860e-09  1.53076611e-07  1.55376156e-08  7.10000000e-01 
 7.20000000e-01  4.55177479e-01  4.55177479e-01  3.32793343e-09  4.55177479e-01  3.39875105e-09  3.36374577e-09  3.49362859e-09  1.53076591e-07  1.55376370e-08  7.20000000e-01 
 7.30000000e-01  4.55177462e-01  4.55177462e-01  3.32793347e-09  4.55177462e-01  3.39875105e-09  3.36374577e-09  3.49362859e-09  1.53076556e-07  1.55375233e-08  7.30000000e-01 
 7.40000000e-01  4.55177509e-01  4.55177509e-01  3.32793342e-09  4.55177509e-01  3.39875105e-09  3.36374578e-09  3.49362860e-09  1.53076626e-07  1.55375517e-08  7.40000000e-01 
 7.50000000e-01  4.55177453e-01  4.55177453e-01  3.32793349e-09  4.55177453e-01  3.39875105e-09  3.36374577e-09  3.49362859e-09  1.53076563e-07  1.55374451e-08  7.50000000e-01 
 7.60000000e-01  4.55177508e-01  4.55177508e-01  3.32793342e-09  4.55177508e-01  3.39875105e-09  3.36374578e-09  3.49362860e-09  1.53076625e-07  1.55374309e-08  7.60000000e-01 
 7.70000000e-01  4.55177483e-01  4.55177483e-01  3.32793349e-09  4.55177483e-01  3.39875105e-09  3.36374577e-09  3.49362859e-09  1.53076602e-07  1.55374025e-08  7.70000000e-01 
 7.80000000e-01  4.55177484e-01  4.55177484e-01  3.32793347e-09  4.55177484e-01  3.39875105e-09  3.36374577e-09  3.49362859e-09  1.53076605e-07  1.55372035e-08  7.80000000e-01 
 7.90000000e-01  4.55177512e-01  4.55177512e-01  3.32793342e-09  4.55177512e-01  3.39875105e-09  3.36374578e-09  3.49362860e-09  1.53076622e-07  1.55370969e-08  7.90000000e-01 
 8.00000000e-01  4.55177501e-01  4.55177501e-01  3.32793349e-09  4.55177501e-01  3.39875105e-09  3.36374577e-09  3.49362854e-09  1.53076621e-07  1.55372248e-08  8.00000000e-01 
 8.10000000e-01  4.55177480e-01  4.55177480e-01  3.32793347e-09  4.55177480e-01  3.39875105e-09  3.36374577e-09  3.49362859e-09  1.53076597e-07  1.55371822e-08  8.10000000e-01 
 8.20000000e-01  4.55177478e-01  4.55177478e-01  3.32793342e-09  4.55177478e-01  3.39875105e-09  3.36374577e-09  3.49362859e-09  1.53076583e-07  1.55371325e-08  8.20000000e-01 
 8.30000000e-01  4.55177484e-01  4.55177484e-01  3.32793343e-09  4.55177484e-01  3.39875105e-09  3.36374577e-09  3.49362859e-09  1.53076579e-07  1.55370472e-08  8.30000000e-01 
 8.40000000e-01  4.55177480e-01  4.55177480e-01  3.32793342e-09  4.55177480e-01  3.39875105e-09  3.36374577e-09  3.49362854e-09  1.53076591e-07  1.55369406e-08  8.40000000e-01 
 8.50000000e-01  4.55177503e-01  4.55177503e-01  3.32793343e-09  4.55177503e-01  3.39875105e-09  3.36374577e-09  3.49362860e-09  1.53076619e-07  1.55369690e-08  8.50000000e-01 
 8.60000000e-01  4.55177470e-01  4.55177470e-01  3.32793347e-09  4.55177470e-01  3.39875105e-09  3.36374577e-09  3.49362859e-09  1.53076575e-07  1.55369406e-08  8.60000000e-01 
 8.70000000e-01  4.55177492e-01  4.55177492e-01  3.32793342e-09  4.55177492e-01  3.39875105e-09  3.36374577e-09  3.49362860e-09  1.53076611e-07  1.55367914e-08  8.70000000e-01 
 8.80000000e-01  4.55177479e-01  4.55177479e-01  3.32793349e-09  4.55177479e-01  3.39875105e-09  3.36374577e-09  3.49362859e-09  1.53076588e-07  1.55367559e-08  8.80000000e-01 
 8.90000000e-01  4.55177460e-01  4.55177460e-01  3.32793341e-09  4.55177460e-01  3.39875105e-09  3.36374577e-09  3.49362859e-09  1.53076560e-07  1.55367132e-08  8.90000000e-01 
 9.00000000e-01  4.55177496e-01  4.55177496e-01  3.32793343e-09  4.55177496e-01  3.39875105e-09  3.36374577e-09  3.49362860e-09  1.53076618e-07  1.55367488e-08  9.00000000e-01 
 9.10000000e-01  4.55177489e-01  4.55177489e-01  3.32793342e-09  4.55177489e-01  3.39875105e-09  3.36374577e-09  3.49362854e-09  1.53076601e-07  1.55365854e-08  9.10000000e-01 
 9.20000000e-01  4.55177466e-01  4.55177466e-01  3.32793349e-09  4.55177466e-01  3.39875105e-09  3.36374577e-09  3.49362859e-09  1.53076554e-07  1.55366848e-08  9.20000000e-01 
 9.30000000e-01  4.55177479e-01  4.55177479e-01  3.32793347e-09  4.55177479e-01  3.39875105e-09  3.36374577e-09  3.49362859e-09  1.53076595e-07  1.55364361e-08  9.30000000e-01 
 9.40000000e-01  4.55177469e-01  4.55177469e-01  3.32793348e-09  4.55177469e-01  3.39875105e-09  3.36374577e-09  3.49362859e-09  1.53076571e-07  1.55364290e-08  9.40000000e-01 
 9.50000000e-01  4.55177479e-01  4.55177480e-01  3.32793342e-09  4.55177480e-01  3.39875105e-09  3.36374577e-09  3.49362859e-09  1.53076593e-07  1.55363367e-08  9.50000000e-01 
 9.60000000e-01  4.55177489e-01  4.55177489e-01  3.32793343e-09  4.55177489e-01  3.39875105e-09  3.36374577e-09  3.49362860e-09  1.53076604e-07  1.55363935e-08  9.60000000e-01 
 9.70000000e-01  4.55177491e-01  4.55177491e-01  3.32793342e-09  4.55177491e-01  3.39875105e-09  3.36374577e-09  3.49362860e-09  1.53076605e-07  1.55363864e-08  9.70000000e-01 
 9.80000000e-01  4.55177493e-01  4.55177493e-01  3.32793349e-09  4.55177493e-01  3.39875105e-09  3.36374577e-09  3.49362860e-09  1.53076613e-07  1.55363225e-08  9.80000000e-01 
 9.90000000e-01  4.55177496e-01  4.55177496e-01  3.32793342e-09  4.55177496e-01  3.39875105e-09  3.36374577e-09  3.49362860e-09  1.53076615e-07  1.55362940e-08  9.90000000e-01 
 1.00000000e+00  4.55177500e-01  4.55177500e-01  3.32793343e-09  4.55177500e-01  3.39875105e-09  3.36374577e-09  3.49362854e-09  1.53076622e-07  1.55361519e-08  1.00000000e+00 
 1.01000000e+00  4.55177493e-01  4.55177493e-01  3.32793347e-09  4.55177493e-01  3.39875105e-09  3.36374577e-09  3.49362854e-09  1.53076605e-07  1.55361022e-08  1.01000000e+00 
 1.02000000e+00  4.55177478e-01  4.55177478e-01  3.32793342e-09  4.55177478e-01  3.39875105e-09  3.36374577e-09  3.49362859e-09  1.53076604e-07  1.55361946e-08  1.02000000e+00 
 1.03000000e+00  4.55177499e-01  4.55177499e-01  3.32793343e-09  4.55177499e-01  3.39875105e-09  3.36374577e-09  3.49362860e-09  1.53076630e-07  1.55360524e-08  1.03000000e+00 
 1.04000000e+00  4.55177492e-01  4.55177492e-01  3.32793347e-09  4.55177492e-01  3.39875105e-09  3.36374577e-09  3.49362860e-09  1.53076607e-07  1.55359317e-08  1.04000000e+00 
 1.05000000e+00  4.55177480e-01  4.55177480e-01  3.32793342e-09  4.55177480e-01  3.39875105e-09  3.36374577e-09  3.49362859e-09  1.53076594e-07  1.55359459e-08  1.05000000e+00 
 1.06000000e+00  4.55177486e-01  4.55177486e-01  3.32793343e-09  4.55177486e-01  3.39875105e-09  3.36374577e-09  3.49362854e-09  1.53076597e-07  1.55358890e-08  1.06000000e+00 
 1.07000000e+00  4.55177479e-01  4.55177480e-01  3.32793342e-09  4.55177479e-01  3.39875105e-09  3.36374577e-09  3.49362859e-09  1.53076598e-07  1.55358606e-08  1.07000000e+00 
 1.08000000e+00  4.55177487e-01  4.55177487e-01  3.32793343e-09  4.55177487e-01  3.39875105e-09  3.36374577e-09  3.49362859e-09  1.53076607e-07  1.55358393e-08  1.08000000e+00 
 1.09000000e+00  4.55177507e-01  4.55177507e-01  3.32793347e-09  4.55177507e-01  3.39875105e-09  3.36374578e-09  3.49362860e-09  1.53076652e-07  1.55356332e-08  1.09000000e+00 
 1.10000000e+00  4.55177466e-01  4.55177466e-01  3.32793342e-09  4.55177466e-01  3.39875105e-09  3.36374577e-09  3.49362859e-09  1.53076581e-07  1.55356759e-08  1.10000000e+00 
