 v-sweep         v(b0)           v(b1)           v(b2)           v(b3)           v(b4)           v(b5)           v(b6)           i(vbias)        i(viout)        v(vout)        
 0.00000000e+00  4.58399051e-01  3.11282866e-09  4.58399051e-01  4.58399051e-01  4.58399051e-01  3.63315779e-09  3.45701446e-09  1.60298309e-07  4.40998558e-08  0.00000000e+00 
 1.00000000e-02  4.58399057e-01  3.11282869e-09  4.58399057e-01  4.58399057e-01  4.58399057e-01  3.63315787e-09  3.45701448e-09  1.60298311e-07  4.40994422e-08  1.00000000e-02 
 2.00000000e-02  4.58399049e-01  3.11282869e-09  4.58399049e-01  4.58399049e-01  4.58399049e-01  3.63315781e-09  3.45701448e-09  1.60298297e-07  4.40990087e-08  2.00000000e-02 
 3.00000000e-02  4.58399080e-01  3.11282870e-09  4.58399080e-01  4.58399080e-01  4.58399080e-01  3.63315782e-09  3.45701449e-09  1.60298345e-07  4.40987760e-08  3.00000000e-02 
 4.00000000e-02  4.58399052e-01  3.11282864e-09  4.58399052e-01  4.58399052e-01  4.58399052e-01  3.63315781e-09  3.45701448e-09  1.60298302e-07  4.40983183e-08  4.00000000e-02 
 5.00000000e-02  4.58399051e-01  3.11282864e-09  4.58399051e-01  4.58399050e-01  4.58399051e-01  3.63315781e-09  3.45701448e-09  1.60298304e-07  4.40980030e-08  5.00000000e-02 
 6.00000000e-02  4.58399046e-01  3.11282869e-09  4.58399046e-01  4.58399046e-01  4.58399046e-01  3.63315781e-09  3.45701448e-09  1.60298281e-07  4.40977082e-08  6.00000000e-02 
 7.00000000e-02  4.58399053e-01  3.11282864e-09  4.58399053e-01  4.58399053e-01  4.58399053e-01  3.63315787e-09  3.45701448e-09  1.60298296e-07  4.40974439e-08  7.00000000e-02 
 8.00000000e-02  4.58399030e-01  3.11282864e-09  4.58399030e-01  4.58399029e-01  4.58399030e-01  3.63315781e-09  3.45701448e-09  1.60298269e-07  4.40971650e-08  8.00000000e-02 
 9.00000000e-02  4.58399041e-01  3.11282864e-09  4.58399041e-01  4.58399041e-01  4.58399041e-01  3.63315781e-09  3.45701448e-09  1.60298297e-07  4.40968639e-08  9.00000000e-02 
 1.00000000e-01  4.58399030e-01  3.11282864e-09  4.58399030e-01  4.58399029e-01  4.58399030e-01  3.63315781e-09  3.45701448e-09  1.60298272e-07  4.40964998e-08  1.00000000e-01 
 1.10000000e-01  4.58399023e-01  3.11282864e-09  4.58399023e-01  4.58399023e-01  4.58399023e-01  3.63315781e-09  3.45701448e-09  1.60298278e-07  4.40963444e-08  1.10000000e-01 
 1.20000000e-01  4.58399037e-01  3.11282864e-09  4.58399037e-01  4.58399037e-01  4.58399037e-01  3.63315781e-09  3.45701448e-09  1.60298280e-07  4.40961179e-08  1.20000000e-01 
 1.30000000e-01  4.58399054e-01  3.11282869e-09  4.58399054e-01  4.58399054e-01  4.58399054e-01  3.63315781e-09  3.45701448e-09  1.60298307e-07  4.40958363e-08  1.30000000e-01 
 1.40000000e-01  4.58399068e-01  3.11282864e-09  4.58399068e-01  4.58399068e-01  4.58399068e-01  3.63315782e-09  3.45701449e-09  1.60298332e-07  4.40957031e-08  1.40000000e-01 
 1.50000000e-01  4.58399044e-01  3.11282869e-09  4.58399044e-01  4.58399044e-01  4.58399044e-01  3.63315781e-09  3.45701448e-09  1.60298300e-07  4.40953585e-08  1.50000000e-01 
 1.60000000e-01  4.58399011e-01  3.11282863e-09  4.58399011e-01  4.58399011e-01  4.58399011e-01  3.63315781e-09  3.45701448e-09  1.60298240e-07  4.40952430e-08  1.60000000e-01 
 1.70000000e-01  4.58399063e-01  3.11282864e-09  4.58399063e-01  4.58399063e-01  4.58399063e-01  3.63315782e-09  3.45701449e-09  1.60298315e-07  4.40951027e-08  1.70000000e-01 
 1.80000000e-01  4.58399029e-01  3.11282869e-09  4.58399029e-01  4.58399029e-01  4.58399029e-01  3.63315781e-09  3.45701448e-09  1.60298271e-07  4.40948398e-08  1.80000000e-01 
 1.90000000e-01  4.58399027e-01  3.11282869e-09  4.58399027e-01  4.58399027e-01  4.58399027e-01  3.63315781e-09  3.45701448e-09  1.60298257e-07  4.40947634e-08  1.90000000e-01 
 2.00000000e-01  4.58399020e-01  3.11282864e-09  4.58399020e-01  4.58399020e-01  4.58399020e-01  3.63315781e-09  3.45701448e-09  1.60298260e-07  4.40944472e-08  2.00000000e-01 
 2.10000000e-01  4.58399041e-01  3.11282864e-09  4.58399041e-01  4.58399041e-01  4.58399041e-01  3.63315781e-09  3.45701448e-09  1.60298283e-07  4.40945058e-08  2.10000000e-01 
 2.20000000e-01  4.58399039e-01  3.11282864e-09  4.58399039e-01  4.58399039e-01  4.58399039e-01  3.63315781e-09  3.45701448e-09  1.60298290e-07  4.40941985e-08  2.20000000e-01 
 2.30000000e-01  4.58399051e-01  3.11282869e-09  4.58399051e-01  4.58399051e-01  4.58399051e-01  3.63315781e-09  3.45701448e-09  1.60298304e-07  4.40941239e-08  2.30000000e-01 
 2.40000000e-01  4.58399059e-01  3.11282864e-09  4.58399059e-01  4.58399058e-01  4.58399059e-01  3.63315782e-09  3.45701448e-09  1.60298301e-07  4.40940671e-08  2.40000000e-01 
 2.50000000e-01  4.58399044e-01  3.11282864e-09  4.58399044e-01  4.58399044e-01  4.58399044e-01  3.63315781e-09  3.45701448e-09  1.60298297e-07  4.40939090e-08  2.50000000e-01 
 2.60000000e-01  4.58399044e-01  3.11282869e-09  4.58399044e-01  4.58399043e-01  4.58399044e-01  3.63315781e-09  3.45701448e-09  1.60298288e-07  4.40938575e-08  2.60000000e-01 
 2.70000000e-01  4.58399079e-01  3.11282870e-09  4.58399078e-01  4.58399078e-01  4.58399079e-01  3.63315782e-09  3.45701449e-09  1.60298337e-07  4.40936336e-08  2.70000000e-01 
 2.80000000e-01  4.58399049e-01  3.11282864e-09  4.58399048e-01  4.58399048e-01  4.58399049e-01  3.63315781e-09  3.45701448e-09  1.60298294e-07  4.40935466e-08  2.80000000e-01 
 2.90000000e-01  4.58399062e-01  3.11282864e-09  4.58399062e-01  4.58399062e-01  4.58399062e-01  3.63315787e-09  3.45701449e-09  1.60298322e-07  4.40933370e-08  2.90000000e-01 
 3.00000000e-01  4.58399046e-01  3.11282864e-09  4.58399046e-01  4.58399046e-01  4.58399046e-01  3.63315787e-09  3.45701448e-09  1.60298287e-07  4.40933903e-08  3.00000000e-01 
 3.10000000e-01  4.58399051e-01  3.11282864e-09  4.58399051e-01  4.58399051e-01  4.58399051e-01  3.63315781e-09  3.45701448e-09  1.60298296e-07  4.40932695e-08  3.10000000e-01 
 3.20000000e-01  4.58399056e-01  3.11282864e-09  4.58399055e-01  4.58399055e-01  4.58399056e-01  3.63315781e-09  3.45701448e-09  1.60298320e-07  4.40931700e-08  3.20000000e-01 
 3.30000000e-01  4.58399036e-01  3.11282869e-09  4.58399035e-01  4.58399035e-01  4.58399036e-01  3.63315781e-09  3.45701448e-09  1.60298284e-07  4.40931025e-08  3.30000000e-01 
 3.40000000e-01  4.58399047e-01  3.11282864e-09  4.58399047e-01  4.58399047e-01  4.58399047e-01  3.63315781e-09  3.45701448e-09  1.60298298e-07  4.40929320e-08  3.40000000e-01 
 3.50000000e-01  4.58399040e-01  3.11282864e-09  4.58399040e-01  4.58399040e-01  4.58399040e-01  3.63315781e-09  3.45701448e-09  1.60298282e-07  4.40927685e-08  3.50000000e-01 
 3.60000000e-01  4.58399062e-01  3.11282864e-09  4.58399062e-01  4.58399062e-01  4.58399062e-01  3.63315782e-09  3.45701449e-09  1.60298302e-07  4.40927970e-08  3.60000000e-01 
 3.70000000e-01  4.58399033e-01  3.11282869e-09  4.58399033e-01  4.58399033e-01  4.58399033e-01  3.63315781e-09  3.45701448e-09  1.60298270e-07  4.40926371e-08  3.70000000e-01 
 3.80000000e-01  4.58399056e-01  3.11282864e-09  4.58399056e-01  4.58399056e-01  4.58399056e-01  3.63315782e-09  3.45701448e-09  1.60298306e-07  4.40925589e-08  3.80000000e-01 
 3.90000000e-01  4.58399056e-01  3.11282864e-09  4.58399056e-01  4.58399056e-01  4.58399056e-01  3.63315782e-09  3.45701448e-09  1.60298316e-07  4.40926335e-08  3.90000000e-01 
 4.00000000e-01  4.58399058e-01  3.11282864e-09  4.58399058e-01  4.58399057e-01  4.58399058e-01  3.63315782e-09  3.45701448e-09  1.60298315e-07  4.40924488e-08  4.00000000e-01 
 4.10000000e-01  4.58399058e-01  3.11282864e-09  4.58399058e-01  4.58399058e-01  4.58399058e-01  3.63315782e-09  3.45701448e-09  1.60298313e-07  4.40924062e-08  4.10000000e-01 
 4.20000000e-01  4.58399045e-01  3.11282864e-09  4.58399045e-01  4.58399045e-01  4.58399045e-01  3.63315781e-09  3.45701448e-09  1.60298294e-07  4.40923316e-08  4.20000000e-01 
 4.30000000e-01  4.58399051e-01  3.11282864e-09  4.58399051e-01  4.58399051e-01  4.58399051e-01  3.63315781e-09  3.45701448e-09  1.60298291e-07  4.40922605e-08  4.30000000e-01 
 4.40000000e-01  4.58399051e-01  3.11282869e-09  4.58399050e-01  4.58399050e-01  4.58399051e-01  3.63315787e-09  3.45701448e-09  1.60298298e-07  4.40922392e-08  4.40000000e-01 
 4.50000000e-01  4.58399059e-01  3.11282869e-09  4.58399059e-01  4.58399059e-01  4.58399059e-01  3.63315787e-09  3.45701448e-09  1.60298313e-07  4.40921006e-08  4.50000000e-01 
 4.60000000e-01  4.58399056e-01  3.11282869e-09  4.58399056e-01  4.58399056e-01  4.58399056e-01  3.63315782e-09  3.45701448e-09  1.60298317e-07  4.40920687e-08  4.60000000e-01 
 4.70000000e-01  4.58399054e-01  3.11282869e-09  4.58399054e-01  4.58399054e-01  4.58399054e-01  3.63315781e-09  3.45701448e-09  1.60298308e-07  4.40919834e-08  4.70000000e-01 
 4.80000000e-01  4.58399047e-01  3.11282864e-09  4.58399047e-01  4.58399047e-01  4.58399047e-01  3.63315781e-09  3.45701448e-09  1.60298292e-07  4.40919905e-08  4.80000000e-01 
 4.90000000e-01  4.58399046e-01  3.11282869e-09  4.58399046e-01  4.58399045e-01  4.58399046e-01  3.63315781e-09  3.45701448e-09  1.60298306e-07  4.40918129e-08  4.90000000e-01 
 5.00000000e-01  4.58399053e-01  3.11282869e-09  4.58399053e-01  4.58399053e-01  4.58399053e-01  3.63315781e-09  3.45701448e-09  1.60298302e-07  4.40917773e-08  5.00000000e-01 
 5.10000000e-01  4.58399053e-01  3.11282864e-09  4.58399052e-01  4.58399052e-01  4.58399053e-01  3.63315781e-09  3.45701448e-09  1.60298308e-07  4.40916637e-08  5.10000000e-01 
 5.20000000e-01  4.58399056e-01  3.11282864e-09  4.58399056e-01  4.58399056e-01  4.58399056e-01  3.63315782e-09  3.45701448e-09  1.60298308e-07  4.40916850e-08  5.20000000e-01 
 5.30000000e-01  4.58399033e-01  3.11282864e-09  4.58399033e-01  4.58399033e-01  4.58399033e-01  3.63315781e-09  3.45701454e-09  1.60298273e-07  4.40916494e-08  5.30000000e-01 
 5.40000000e-01  4.58399065e-01  3.11282864e-09  4.58399065e-01  4.58399065e-01  4.58399065e-01  3.63315782e-09  3.45701449e-09  1.60298314e-07  4.40915215e-08  5.40000000e-01 
 5.50000000e-01  4.58399039e-01  3.11282869e-09  4.58399039e-01  4.58399039e-01  4.58399039e-01  3.63315781e-09  3.45701448e-09  1.60298287e-07  4.40912871e-08  5.50000000e-01 
 5.60000000e-01  4.58399034e-01  3.11282869e-09  4.58399034e-01  4.58399034e-01  4.58399034e-01  3.63315781e-09  3.45701448e-09  1.60298285e-07  4.40913439e-08  5.60000000e-01 
 5.70000000e-01  4.58399041e-01  3.11282864e-09  4.58399041e-01  4.58399041e-01  4.58399041e-01  3.63315781e-09  3.45701448e-09  1.60298276e-07  4.40913190e-08  5.70000000e-01 
 5.80000000e-01  4.58399017e-01  3.11282864e-09  4.58399017e-01  4.58399017e-01  4.58399017e-01  3.63315781e-09  3.45701448e-09  1.60298245e-07  4.40912160e-08  5.80000000e-01 
 5.90000000e-01  4.58399043e-01  3.11282864e-09  4.58399043e-01  4.58399043e-01  4.58399043e-01  3.63315781e-09  3.45701448e-09  1.60298290e-07  4.40911379e-08  5.90000000e-01 
 6.00000000e-01  4.58399072e-01  3.11282870e-09  4.58399072e-01  4.58399072e-01  4.58399072e-01  3.63315787e-09  3.45701449e-09  1.60298342e-07  4.40912729e-08  6.00000000e-01 
 6.10000000e-01  4.58399052e-01  3.11282869e-09  4.58399052e-01  4.58399051e-01  4.58399052e-01  3.63315781e-09  3.45701448e-09  1.60298290e-07  4.40911023e-08  6.10000000e-01 
 6.20000000e-01  4.58399058e-01  3.11282864e-09  4.58399058e-01  4.58399057e-01  4.58399058e-01  3.63315782e-09  3.45701448e-09  1.60298313e-07  4.40909957e-08  6.20000000e-01 
 6.30000000e-01  4.58399039e-01  3.11282864e-09  4.58399038e-01  4.58399038e-01  4.58399039e-01  3.63315787e-09  3.45701448e-09  1.60298290e-07  4.40909389e-08  6.30000000e-01 
 6.40000000e-01  4.58399055e-01  3.11282869e-09  4.58399055e-01  4.58399055e-01  4.58399055e-01  3.63315781e-09  3.45701454e-09  1.60298301e-07  4.40908678e-08  6.40000000e-01 
 6.50000000e-01  4.58399035e-01  3.11282869e-09  4.58399035e-01  4.58399035e-01  4.58399035e-01  3.63315781e-09  3.45701448e-09  1.60298273e-07  4.40908536e-08  6.50000000e-01 
 6.60000000e-01  4.58399040e-01  3.11282864e-09  4.58399040e-01  4.58399039e-01  4.58399040e-01  3.63315781e-09  3.45701448e-09  1.60298299e-07  4.40907613e-08  6.60000000e-01 
 6.70000000e-01  4.58399073e-01  3.11282870e-09  4.58399073e-01  4.58399073e-01  4.58399073e-01  3.63315782e-09  3.45701449e-09  1.60298335e-07  4.40907471e-08  6.70000000e-01 
 6.80000000e-01  4.58399041e-01  3.11282869e-09  4.58399041e-01  4.58399041e-01  4.58399041e-01  3.63315781e-09  3.45701448e-09  1.60298294e-07  4.40907755e-08  6.80000000e-01 
 6.90000000e-01  4.58399060e-01  3.11282869e-09  4.58399059e-01  4.58399059e-01  4.58399060e-01  3.63315782e-09  3.45701448e-09  1.60298310e-07  4.40906618e-08  6.90000000e-01 
 7.00000000e-01  4.58399033e-01  3.11282869e-09  4.58399033e-01  4.58399033e-01  4.58399033e-01  3.63315781e-09  3.45701448e-09  1.60298276e-07  4.40905765e-08  7.00000000e-01 
 7.10000000e-01  4.58399055e-01  3.11282864e-09  4.58399055e-01  4.58399055e-01  4.58399055e-01  3.63315781e-09  3.45701448e-09  1.60298313e-07  4.40904273e-08  7.10000000e-01 
 7.20000000e-01  4.58399066e-01  3.11282864e-09  4.58399066e-01  4.58399066e-01  4.58399066e-01  3.63315782e-09  3.45701449e-09  1.60298329e-07  4.40904557e-08  7.20000000e-01 
 7.30000000e-01  4.58399049e-01  3.11282864e-09  4.58399049e-01  4.58399049e-01  4.58399049e-01  3.63315781e-09  3.45701448e-09  1.60298307e-07  4.40903776e-08  7.30000000e-01 
 7.40000000e-01  4.58399041e-01  3.11282869e-09  4.58399041e-01  4.58399041e-01  4.58399041e-01  3.63315781e-09  3.45701448e-09  1.60298293e-07  4.40902284e-08  7.40000000e-01 
 7.50000000e-01  4.58399068e-01  3.11282864e-09  4.58399068e-01  4.58399068e-01  4.58399068e-01  3.63315787e-09  3.45701449e-09  1.60298322e-07  4.40903136e-08  7.50000000e-01 
 7.60000000e-01  4.58399037e-01  3.11282869e-09  4.58399037e-01  4.58399037e-01  4.58399037e-01  3.63315787e-09  3.45701448e-09  1.60298268e-07  4.40902497e-08  7.60000000e-01 
 7.70000000e-01  4.58399061e-01  3.11282869e-09  4.58399061e-01  4.58399061e-01  4.58399061e-01  3.63315782e-09  3.45701448e-09  1.60298322e-07  4.40901076e-08  7.70000000e-01 
 7.80000000e-01  4.58399043e-01  3.11282869e-09  4.58399043e-01  4.58399043e-01  4.58399043e-01  3.63315781e-09  3.45701448e-09  1.60298291e-07  4.40899797e-08  7.80000000e-01 
 7.90000000e-01  4.58399021e-01  3.11282864e-09  4.58399021e-01  4.58399020e-01  4.58399021e-01  3.63315781e-09  3.45701448e-09  1.60298262e-07  4.40899370e-08  7.90000000e-01 
 8.00000000e-01  4.58399071e-01  3.11282870e-09  4.58399071e-01  4.58399070e-01  4.58399071e-01  3.63315782e-09  3.45701449e-09  1.60298321e-07  4.40899299e-08  8.00000000e-01 
 8.10000000e-01  4.58399039e-01  3.11282864e-09  4.58399038e-01  4.58399038e-01  4.58399039e-01  3.63315781e-09  3.45701448e-09  1.60298285e-07  4.40899157e-08  8.10000000e-01 
 8.20000000e-01  4.58399045e-01  3.11282869e-09  4.58399045e-01  4.58399045e-01  4.58399045e-01  3.63315781e-09  3.45701448e-09  1.60298297e-07  4.40898660e-08  8.20000000e-01 
 8.30000000e-01  4.58399062e-01  3.11282864e-09  4.58399062e-01  4.58399062e-01  4.58399062e-01  3.63315782e-09  3.45701449e-09  1.60298323e-07  4.40899228e-08  8.30000000e-01 
 8.40000000e-01  4.58399046e-01  3.11282869e-09  4.58399046e-01  4.58399046e-01  4.58399046e-01  3.63315781e-09  3.45701448e-09  1.60298287e-07  4.40897381e-08  8.40000000e-01 
 8.50000000e-01  4.58399040e-01  3.11282864e-09  4.58399040e-01  4.58399040e-01  4.58399040e-01  3.63315781e-09  3.45701448e-09  1.60298278e-07  4.40897523e-08  8.50000000e-01 
 8.60000000e-01  4.58399072e-01  3.11282864e-09  4.58399072e-01  4.58399071e-01  4.58399072e-01  3.63315782e-09  3.45701449e-09  1.60298314e-07  4.40897452e-08  8.60000000e-01 
 8.70000000e-01  4.58399044e-01  3.11282869e-09  4.58399044e-01  4.58399044e-01  4.58399044e-01  3.63315781e-09  3.45701448e-09  1.60298283e-07  4.40895178e-08  8.70000000e-01 
 8.80000000e-01  4.58399048e-01  3.11282869e-09  4.58399048e-01  4.58399048e-01  4.58399048e-01  3.63315787e-09  3.45701448e-09  1.60298301e-07  4.40895960e-08  8.80000000e-01 
 8.90000000e-01  4.58399058e-01  3.11282864e-09  4.58399058e-01  4.58399058e-01  4.58399058e-01  3.63315782e-09  3.45701448e-09  1.60298299e-07  4.40895249e-08  8.90000000e-01 
 9.00000000e-01  4.58399052e-01  3.11282869e-09  4.58399052e-01  4.58399052e-01  4.58399052e-01  3.63315781e-09  3.45701448e-09  1.60298307e-07  4.40895107e-08  9.00000000e-01 
 9.10000000e-01  4.58399061e-01  3.11282864e-09  4.58399060e-01  4.58399060e-01  4.58399061e-01  3.63315782e-09  3.45701448e-09  1.60298330e-07  4.40893686e-08  9.10000000e-01 
 9.20000000e-01  4.58399051e-01  3.11282864e-09  4.58399051e-01  4.58399051e-01  4.58399051e-01  3.63315781e-09  3.45701448e-09  1.60298303e-07  4.40892407e-08  9.20000000e-01 
 9.30000000e-01  4.58399050e-01  3.11282869e-09  4.58399050e-01  4.58399050e-01  4.58399050e-01  3.63315781e-09  3.45701448e-09  1.60298301e-07  4.40893047e-08  9.30000000e-01 
 9.40000000e-01  4.58399064e-01  3.11282864e-09  4.58399064e-01  4.58399064e-01  4.58399064e-01  3.63315782e-09  3.45701449e-09  1.60298322e-07  4.40892123e-08  9.40000000e-01 
 9.50000000e-01  4.58399043e-01  3.11282864e-09  4.58399043e-01  4.58399043e-01  4.58399043e-01  3.63315781e-09  3.45701448e-09  1.60298302e-07  4.40890204e-08  9.50000000e-01 
 9.60000000e-01  4.58399038e-01  3.11282864e-09  4.58399038e-01  4.58399038e-01  4.58399038e-01  3.63315781e-09  3.45701448e-09  1.60298283e-07  4.40890844e-08  9.60000000e-01 
 9.70000000e-01  4.58399039e-01  3.11282864e-09  4.58399039e-01  4.58399039e-01  4.58399039e-01  3.63315781e-09  3.45701448e-09  1.60298276e-07  4.40889352e-08  9.70000000e-01 
 9.80000000e-01  4.58399084e-01  3.11282864e-09  4.58399084e-01  4.58399084e-01  4.58399084e-01  3.63315782e-09  3.45701449e-09  1.60298353e-07  4.40889849e-08  9.80000000e-01 
 9.90000000e-01  4.58399039e-01  3.11282864e-09  4.58399039e-01  4.58399039e-01  4.58399039e-01  3.63315781e-09  3.45701448e-09  1.60298291e-07  4.40888286e-08  9.90000000e-01 
 1.00000000e+00  4.58399026e-01  3.11282864e-09  4.58399026e-01  4.58399026e-01  4.58399026e-01  3.63315787e-09  3.45701448e-09  1.60298255e-07  4.40887860e-08  1.00000000e+00 
 1.01000000e+00  4.58399021e-01  3.11282864e-09  4.58399021e-01  4.58399021e-01  4.58399021e-01  3.63315781e-09  3.45701448e-09  1.60298250e-07  4.40886438e-08  1.01000000e+00 
 1.02000000e+00  4.58399039e-01  3.11282864e-09  4.58399039e-01  4.58399039e-01  4.58399039e-01  3.63315781e-09  3.45701448e-09  1.60298285e-07  4.40886794e-08  1.02000000e+00 
 1.03000000e+00  4.58399053e-01  3.11282864e-09  4.58399053e-01  4.58399053e-01  4.58399053e-01  3.63315781e-09  3.45701448e-09  1.60298314e-07  4.40887220e-08  1.03000000e+00 
 1.04000000e+00  4.58399045e-01  3.11282869e-09  4.58399045e-01  4.58399045e-01  4.58399045e-01  3.63315781e-09  3.45701448e-09  1.60298301e-07  4.40885799e-08  1.04000000e+00 
 1.05000000e+00  4.58399048e-01  3.11282864e-09  4.58399048e-01  4.58399048e-01  4.58399048e-01  3.63315781e-09  3.45701448e-09  1.60298298e-07  4.40886012e-08  1.05000000e+00 
 1.06000000e+00  4.58399058e-01  3.11282864e-09  4.58399058e-01  4.58399058e-01  4.58399058e-01  3.63315782e-09  3.45701448e-09  1.60298306e-07  4.40884946e-08  1.06000000e+00 
 1.07000000e+00  4.58399043e-01  3.11282864e-09  4.58399042e-01  4.58399042e-01  4.58399043e-01  3.63315781e-09  3.45701448e-09  1.60298294e-07  4.40883881e-08  1.07000000e+00 
 1.08000000e+00  4.58399040e-01  3.11282864e-09  4.58399040e-01  4.58399040e-01  4.58399040e-01  3.63315781e-09  3.45701448e-09  1.60298285e-07  4.40881536e-08  1.08000000e+00 
 1.09000000e+00  4.58399060e-01  3.11282864e-09  4.58399060e-01  4.58399060e-01  4.58399060e-01  3.63315782e-09  3.45701448e-09  1.60298313e-07  4.40883809e-08  1.09000000e+00 
 1.10000000e+00  4.58399075e-01  3.11282870e-09  4.58399075e-01  4.58399075e-01  4.58399075e-01  3.63315782e-09  3.45701449e-09  1.60298329e-07  4.40881749e-08  1.10000000e+00 
