 v-sweep         v(b0)           v(b1)           v(b2)           v(b3)           v(b4)           v(b5)           v(b6)           i(vbias)        i(viout)        v(vout)        
 0.00000000e+00  4.57854707e-01  3.26049934e-09  3.15216857e-09  4.57854706e-01  4.57854707e-01  3.35147634e-09  4.57854707e-01  1.57768176e-07  1.36087544e-07  0.00000000e+00 
 1.00000000e-02  4.57854720e-01  3.26049938e-09  3.15216856e-09  4.57854719e-01  4.57854719e-01  3.35147638e-09  4.57854719e-01  1.57768179e-07  1.36087164e-07  1.00000000e-02 
 2.00000000e-02  4.57854692e-01  3.26049938e-09  3.15216851e-09  4.57854692e-01  4.57854692e-01  3.35147632e-09  4.57854692e-01  1.57768143e-07  1.36086664e-07  2.00000000e-02 
 3.00000000e-02  4.57854719e-01  3.26049938e-09  3.15216856e-09  4.57854719e-01  4.57854719e-01  3.35147638e-09  4.57854719e-01  1.57768199e-07  1.36086490e-07  3.00000000e-02 
 4.00000000e-02  4.57854724e-01  3.26049943e-09  3.15216851e-09  4.57854724e-01  4.57854724e-01  3.35147638e-09  4.57854724e-01  1.57768205e-07  1.36086035e-07  4.00000000e-02 
 5.00000000e-02  4.57854708e-01  3.26049938e-09  3.15216856e-09  4.57854707e-01  4.57854707e-01  3.35147632e-09  4.57854707e-01  1.57768170e-07  1.36085520e-07  5.00000000e-02 
 6.00000000e-02  4.57854699e-01  3.26049938e-09  3.15216856e-09  4.57854699e-01  4.57854699e-01  3.35147638e-09  4.57854699e-01  1.57768156e-07  1.36085114e-07  6.00000000e-02 
 7.00000000e-02  4.57854711e-01  3.26049938e-09  3.15216856e-09  4.57854710e-01  4.57854710e-01  3.35147638e-09  4.57854710e-01  1.57768164e-07  1.36084896e-07  7.00000000e-02 
 8.00000000e-02  4.57854708e-01  3.26049938e-09  3.15216851e-09  4.57854708e-01  4.57854708e-01  3.35147638e-09  4.57854708e-01  1.57768167e-07  1.36084571e-07  8.00000000e-02 
 9.00000000e-02  4.57854695e-01  3.26049938e-09  3.15216856e-09  4.57854695e-01  4.57854695e-01  3.35147638e-09  4.57854695e-01  1.57768149e-07  1.36084200e-07  9.00000000e-02 
 1.00000000e-01  4.57854726e-01  3.26049938e-09  3.15216851e-09  4.57854725e-01  4.57854726e-01  3.35147638e-09  4.57854726e-01  1.57768192e-07  1.36084076e-07  1.00000000e-01 
 1.10000000e-01  4.57854694e-01  3.26049938e-09  3.15216850e-09  4.57854693e-01  4.57854693e-01  3.35147638e-09  4.57854693e-01  1.57768155e-07  1.36083695e-07  1.10000000e-01 
 1.20000000e-01  4.57854707e-01  3.26049938e-09  3.15216851e-09  4.57854707e-01  4.57854707e-01  3.35147632e-09  4.57854707e-01  1.57768159e-07  1.36083342e-07  1.20000000e-01 
 1.30000000e-01  4.57854707e-01  3.26049938e-09  3.15216856e-09  4.57854707e-01  4.57854707e-01  3.35147638e-09  4.57854707e-01  1.57768170e-07  1.36083205e-07  1.30000000e-01 
 1.40000000e-01  4.57854720e-01  3.26049938e-09  3.15216856e-09  4.57854719e-01  4.57854720e-01  3.35147638e-09  4.57854720e-01  1.57768186e-07  1.36082914e-07  1.40000000e-01 
 1.50000000e-01  4.57854696e-01  3.26049938e-09  3.15216856e-09  4.57854696e-01  4.57854696e-01  3.35147638e-09  4.57854696e-01  1.57768143e-07  1.36082701e-07  1.50000000e-01 
 1.60000000e-01  4.57854718e-01  3.26049938e-09  3.15216851e-09  4.57854718e-01  4.57854718e-01  3.35147638e-09  4.57854718e-01  1.57768172e-07  1.36082523e-07  1.60000000e-01 
 1.70000000e-01  4.57854684e-01  3.26049938e-09  3.15216856e-09  4.57854683e-01  4.57854684e-01  3.35147638e-09  4.57854684e-01  1.57768132e-07  1.36082111e-07  1.70000000e-01 
 1.80000000e-01  4.57854718e-01  3.26049938e-09  3.15216851e-09  4.57854718e-01  4.57854718e-01  3.35147632e-09  4.57854718e-01  1.57768174e-07  1.36082170e-07  1.80000000e-01 
 1.90000000e-01  4.57854711e-01  3.26049938e-09  3.15216851e-09  4.57854711e-01  4.57854711e-01  3.35147638e-09  4.57854711e-01  1.57768179e-07  1.36081804e-07  1.90000000e-01 
 2.00000000e-01  4.57854726e-01  3.26049943e-09  3.15216851e-09  4.57854726e-01  4.57854726e-01  3.35147638e-09  4.57854726e-01  1.57768183e-07  1.36081674e-07  2.00000000e-01 
 2.10000000e-01  4.57854707e-01  3.26049938e-09  3.15216851e-09  4.57854707e-01  4.57854707e-01  3.35147638e-09  4.57854707e-01  1.57768160e-07  1.36081447e-07  2.10000000e-01 
 2.20000000e-01  4.57854723e-01  3.26049938e-09  3.15216851e-09  4.57854723e-01  4.57854723e-01  3.35147632e-09  4.57854723e-01  1.57768185e-07  1.36081386e-07  2.20000000e-01 
 2.30000000e-01  4.57854695e-01  3.26049943e-09  3.15216850e-09  4.57854694e-01  4.57854695e-01  3.35147638e-09  4.57854695e-01  1.57768140e-07  1.36081034e-07  2.30000000e-01 
 2.40000000e-01  4.57854723e-01  3.26049938e-09  3.15216851e-09  4.57854723e-01  4.57854723e-01  3.35147632e-09  4.57854723e-01  1.57768189e-07  1.36080962e-07  2.40000000e-01 
 2.50000000e-01  4.57854716e-01  3.26049938e-09  3.15216851e-09  4.57854716e-01  4.57854716e-01  3.35147638e-09  4.57854716e-01  1.57768186e-07  1.36080743e-07  2.50000000e-01 
 2.60000000e-01  4.57854697e-01  3.26049938e-09  3.15216850e-09  4.57854697e-01  4.57854697e-01  3.35147632e-09  4.57854697e-01  1.57768142e-07  1.36080711e-07  2.60000000e-01 
 2.70000000e-01  4.57854707e-01  3.26049938e-09  3.15216856e-09  4.57854707e-01  4.57854707e-01  3.35147638e-09  4.57854707e-01  1.57768174e-07  1.36080493e-07  2.70000000e-01 
 2.80000000e-01  4.57854706e-01  3.26049938e-09  3.15216851e-09  4.57854706e-01  4.57854706e-01  3.35147638e-09  4.57854706e-01  1.57768153e-07  1.36080406e-07  2.80000000e-01 
 2.90000000e-01  4.57854699e-01  3.26049938e-09  3.15216856e-09  4.57854699e-01  4.57854699e-01  3.35147638e-09  4.57854699e-01  1.57768149e-07  1.36080200e-07  2.90000000e-01 
 3.00000000e-01  4.57854688e-01  3.26049943e-09  3.15216856e-09  4.57854688e-01  4.57854688e-01  3.35147632e-09  4.57854688e-01  1.57768129e-07  1.36080015e-07  3.00000000e-01 
 3.10000000e-01  4.57854715e-01  3.26049938e-09  3.15216851e-09  4.57854715e-01  4.57854715e-01  3.35147638e-09  4.57854715e-01  1.57768184e-07  1.36080004e-07  3.10000000e-01 
 3.20000000e-01  4.57854705e-01  3.26049938e-09  3.15216856e-09  4.57854704e-01  4.57854705e-01  3.35147638e-09  4.57854705e-01  1.57768165e-07  1.36079915e-07  3.20000000e-01 
 3.30000000e-01  4.57854699e-01  3.26049938e-09  3.15216850e-09  4.57854699e-01  4.57854699e-01  3.35147632e-09  4.57854699e-01  1.57768154e-07  1.36079734e-07  3.30000000e-01 
 3.40000000e-01  4.57854697e-01  3.26049938e-09  3.15216850e-09  4.57854697e-01  4.57854697e-01  3.35147638e-09  4.57854697e-01  1.57768154e-07  1.36079528e-07  3.40000000e-01 
 3.50000000e-01  4.57854702e-01  3.26049938e-09  3.15216851e-09  4.57854702e-01  4.57854702e-01  3.35147638e-09  4.57854702e-01  1.57768161e-07  1.36079450e-07  3.50000000e-01 
 3.60000000e-01  4.57854695e-01  3.26049938e-09  3.15216850e-09  4.57854695e-01  4.57854695e-01  3.35147638e-09  4.57854695e-01  1.57768152e-07  1.36079350e-07  3.60000000e-01 
 3.70000000e-01  4.57854709e-01  3.26049938e-09  3.15216856e-09  4.57854709e-01  4.57854709e-01  3.35147638e-09  4.57854709e-01  1.57768160e-07  1.36079148e-07  3.70000000e-01 
 3.80000000e-01  4.57854710e-01  3.26049938e-09  3.15216851e-09  4.57854710e-01  4.57854710e-01  3.35147638e-09  4.57854710e-01  1.57768161e-07  1.36079215e-07  3.80000000e-01 
 3.90000000e-01  4.57854685e-01  3.26049943e-09  3.15216856e-09  4.57854685e-01  4.57854685e-01  3.35147638e-09  4.57854685e-01  1.57768121e-07  1.36078906e-07  3.90000000e-01 
 4.00000000e-01  4.57854716e-01  3.26049938e-09  3.15216856e-09  4.57854716e-01  4.57854716e-01  3.35147632e-09  4.57854716e-01  1.57768180e-07  1.36078881e-07  4.00000000e-01 
 4.10000000e-01  4.57854717e-01  3.26049938e-09  3.15216856e-09  4.57854717e-01  4.57854717e-01  3.35147638e-09  4.57854717e-01  1.57768189e-07  1.36078729e-07  4.10000000e-01 
 4.20000000e-01  4.57854712e-01  3.26049938e-09  3.15216851e-09  4.57854711e-01  4.57854712e-01  3.35147638e-09  4.57854712e-01  1.57768162e-07  1.36078729e-07  4.20000000e-01 
 4.30000000e-01  4.57854718e-01  3.26049938e-09  3.15216851e-09  4.57854717e-01  4.57854718e-01  3.35147632e-09  4.57854718e-01  1.57768176e-07  1.36078569e-07  4.30000000e-01 
 4.40000000e-01  4.57854697e-01  3.26049938e-09  3.15216856e-09  4.57854696e-01  4.57854697e-01  3.35147638e-09  4.57854697e-01  1.57768153e-07  1.36078370e-07  4.40000000e-01 
 4.50000000e-01  4.57854724e-01  3.26049943e-09  3.15216851e-09  4.57854723e-01  4.57854724e-01  3.35147632e-09  4.57854724e-01  1.57768194e-07  1.36078349e-07  4.50000000e-01 
 4.60000000e-01  4.57854713e-01  3.26049938e-09  3.15216851e-09  4.57854713e-01  4.57854713e-01  3.35147638e-09  4.57854713e-01  1.57768172e-07  1.36078327e-07  4.60000000e-01 
 4.70000000e-01  4.57854689e-01  3.26049943e-09  3.15216856e-09  4.57854689e-01  4.57854689e-01  3.35147638e-09  4.57854689e-01  1.57768132e-07  1.36078143e-07  4.70000000e-01 
 4.80000000e-01  4.57854713e-01  3.26049938e-09  3.15216851e-09  4.57854713e-01  4.57854713e-01  3.35147632e-09  4.57854713e-01  1.57768173e-07  1.36078043e-07  4.80000000e-01 
 4.90000000e-01  4.57854702e-01  3.26049938e-09  3.15216856e-09  4.57854702e-01  4.57854702e-01  3.35147632e-09  4.57854702e-01  1.57768167e-07  1.36077887e-07  4.90000000e-01 
 5.00000000e-01  4.57854710e-01  3.26049938e-09  3.15216856e-09  4.57854710e-01  4.57854710e-01  3.35147638e-09  4.57854710e-01  1.57768169e-07  1.36077851e-07  5.00000000e-01 
 5.10000000e-01  4.57854718e-01  3.26049938e-09  3.15216856e-09  4.57854718e-01  4.57854718e-01  3.35147638e-09  4.57854718e-01  1.57768170e-07  1.36077890e-07  5.10000000e-01 
 5.20000000e-01  4.57854695e-01  3.26049938e-09  3.15216856e-09  4.57854695e-01  4.57854695e-01  3.35147638e-09  4.57854695e-01  1.57768149e-07  1.36077638e-07  5.20000000e-01 
 5.30000000e-01  4.57854706e-01  3.26049938e-09  3.15216851e-09  4.57854705e-01  4.57854706e-01  3.35147638e-09  4.57854706e-01  1.57768176e-07  1.36077603e-07  5.30000000e-01 
 5.40000000e-01  4.57854703e-01  3.26049943e-09  3.15216856e-09  4.57854703e-01  4.57854703e-01  3.35147638e-09  4.57854703e-01  1.57768157e-07  1.36077524e-07  5.40000000e-01 
 5.50000000e-01  4.57854721e-01  3.26049938e-09  3.15216851e-09  4.57854720e-01  4.57854721e-01  3.35147638e-09  4.57854720e-01  1.57768184e-07  1.36077517e-07  5.50000000e-01 
 5.60000000e-01  4.57854681e-01  3.26049938e-09  3.15216850e-09  4.57854681e-01  4.57854681e-01  3.35147638e-09  4.57854681e-01  1.57768125e-07  1.36077329e-07  5.60000000e-01 
 5.70000000e-01  4.57854735e-01  3.26049938e-09  3.15216856e-09  4.57854735e-01  4.57854735e-01  3.35147632e-09  4.57854735e-01  1.57768213e-07  1.36077286e-07  5.70000000e-01 
 5.80000000e-01  4.57854711e-01  3.26049938e-09  3.15216856e-09  4.57854711e-01  4.57854711e-01  3.35147632e-09  4.57854711e-01  1.57768187e-07  1.36077055e-07  5.80000000e-01 
 5.90000000e-01  4.57854712e-01  3.26049938e-09  3.15216856e-09  4.57854712e-01  4.57854712e-01  3.35147638e-09  4.57854712e-01  1.57768170e-07  1.36077034e-07  5.90000000e-01 
 6.00000000e-01  4.57854736e-01  3.26049938e-09  3.15216856e-09  4.57854736e-01  4.57854736e-01  3.35147638e-09  4.57854736e-01  1.57768206e-07  1.36077105e-07  6.00000000e-01 
 6.10000000e-01  4.57854729e-01  3.26049943e-09  3.15216851e-09  4.57854729e-01  4.57854729e-01  3.35147638e-09  4.57854729e-01  1.57768201e-07  1.36076949e-07  6.10000000e-01 
 6.20000000e-01  4.57854701e-01  3.26049938e-09  3.15216851e-09  4.57854701e-01  4.57854701e-01  3.35147638e-09  4.57854701e-01  1.57768156e-07  1.36076856e-07  6.20000000e-01 
 6.30000000e-01  4.57854728e-01  3.26049938e-09  3.15216856e-09  4.57854728e-01  4.57854728e-01  3.35147638e-09  4.57854728e-01  1.57768197e-07  1.36076778e-07  6.30000000e-01 
 6.40000000e-01  4.57854736e-01  3.26049938e-09  3.15216856e-09  4.57854735e-01  4.57854735e-01  3.35147638e-09  4.57854735e-01  1.57768210e-07  1.36076750e-07  6.40000000e-01 
 6.50000000e-01  4.57854710e-01  3.26049938e-09  3.15216851e-09  4.57854710e-01  4.57854710e-01  3.35147638e-09  4.57854710e-01  1.57768173e-07  1.36076409e-07  6.50000000e-01 
 6.60000000e-01  4.57854699e-01  3.26049938e-09  3.15216856e-09  4.57854699e-01  4.57854699e-01  3.35147632e-09  4.57854699e-01  1.57768154e-07  1.36076437e-07  6.60000000e-01 
 6.70000000e-01  4.57854711e-01  3.26049938e-09  3.15216856e-09  4.57854710e-01  4.57854710e-01  3.35147638e-09  4.57854710e-01  1.57768175e-07  1.36076423e-07  6.70000000e-01 
 6.80000000e-01  4.57854709e-01  3.26049938e-09  3.15216856e-09  4.57854709e-01  4.57854709e-01  3.35147638e-09  4.57854709e-01  1.57768161e-07  1.36076295e-07  6.80000000e-01 
 6.90000000e-01  4.57854696e-01  3.26049938e-09  3.15216856e-09  4.57854696e-01  4.57854696e-01  3.35147632e-09  4.57854696e-01  1.57768141e-07  1.36076139e-07  6.90000000e-01 
 7.00000000e-01  4.57854695e-01  3.26049943e-09  3.15216850e-09  4.57854695e-01  4.57854695e-01  3.35147638e-09  4.57854695e-01  1.57768147e-07  1.36075954e-07  7.00000000e-01 
 7.10000000e-01  4.57854727e-01  3.26049938e-09  3.15216856e-09  4.57854726e-01  4.57854727e-01  3.35147638e-09  4.57854727e-01  1.57768190e-07  1.36076061e-07  7.10000000e-01 
 7.20000000e-01  4.57854712e-01  3.26049938e-09  3.15216856e-09  4.57854712e-01  4.57854712e-01  3.35147638e-09  4.57854712e-01  1.57768181e-07  1.36075862e-07  7.20000000e-01 
 7.30000000e-01  4.57854705e-01  3.26049938e-09  3.15216856e-09  4.57854704e-01  4.57854704e-01  3.35147638e-09  4.57854704e-01  1.57768169e-07  1.36075833e-07  7.30000000e-01 
 7.40000000e-01  4.57854713e-01  3.26049938e-09  3.15216856e-09  4.57854713e-01  4.57854713e-01  3.35147638e-09  4.57854713e-01  1.57768170e-07  1.36075663e-07  7.40000000e-01 
 7.50000000e-01  4.57854712e-01  3.26049938e-09  3.15216851e-09  4.57854712e-01  4.57854712e-01  3.35147638e-09  4.57854712e-01  1.57768157e-07  1.36075556e-07  7.50000000e-01 
 7.60000000e-01  4.57854703e-01  3.26049938e-09  3.15216851e-09  4.57854703e-01  4.57854703e-01  3.35147632e-09  4.57854703e-01  1.57768142e-07  1.36075414e-07  7.60000000e-01 
 7.70000000e-01  4.57854714e-01  3.26049938e-09  3.15216851e-09  4.57854714e-01  4.57854714e-01  3.35147632e-09  4.57854714e-01  1.57768184e-07  1.36075478e-07  7.70000000e-01 
 7.80000000e-01  4.57854709e-01  3.26049938e-09  3.15216851e-09  4.57854709e-01  4.57854709e-01  3.35147638e-09  4.57854709e-01  1.57768177e-07  1.36075350e-07  7.80000000e-01 
 7.90000000e-01  4.57854712e-01  3.26049938e-09  3.15216856e-09  4.57854711e-01  4.57854711e-01  3.35147638e-09  4.57854711e-01  1.57768169e-07  1.36075215e-07  7.90000000e-01 
 8.00000000e-01  4.57854706e-01  3.26049938e-09  3.15216856e-09  4.57854705e-01  4.57854706e-01  3.35147632e-09  4.57854706e-01  1.57768159e-07  1.36074974e-07  8.00000000e-01 
 8.10000000e-01  4.57854691e-01  3.26049938e-09  3.15216850e-09  4.57854691e-01  4.57854691e-01  3.35147632e-09  4.57854691e-01  1.57768128e-07  1.36074974e-07  8.10000000e-01 
 8.20000000e-01  4.57854713e-01  3.26049938e-09  3.15216851e-09  4.57854713e-01  4.57854713e-01  3.35147638e-09  4.57854713e-01  1.57768168e-07  1.36074881e-07  8.20000000e-01 
 8.30000000e-01  4.57854712e-01  3.26049938e-09  3.15216851e-09  4.57854712e-01  4.57854712e-01  3.35147638e-09  4.57854712e-01  1.57768164e-07  1.36074966e-07  8.30000000e-01 
 8.40000000e-01  4.57854693e-01  3.26049938e-09  3.15216850e-09  4.57854692e-01  4.57854693e-01  3.35147632e-09  4.57854692e-01  1.57768133e-07  1.36074682e-07  8.40000000e-01 
 8.50000000e-01  4.57854712e-01  3.26049938e-09  3.15216851e-09  4.57854712e-01  4.57854712e-01  3.35147638e-09  4.57854712e-01  1.57768158e-07  1.36074654e-07  8.50000000e-01 
 8.60000000e-01  4.57854700e-01  3.26049938e-09  3.15216856e-09  4.57854700e-01  4.57854700e-01  3.35147638e-09  4.57854700e-01  1.57768154e-07  1.36074448e-07  8.60000000e-01 
 8.70000000e-01  4.57854741e-01  3.26049938e-09  3.15216856e-09  4.57854741e-01  4.57854741e-01  3.35147638e-09  4.57854741e-01  1.57768218e-07  1.36074540e-07  8.70000000e-01 
 8.80000000e-01  4.57854710e-01  3.26049938e-09  3.15216851e-09  4.57854710e-01  4.57854710e-01  3.35147632e-09  4.57854710e-01  1.57768193e-07  1.36074192e-07  8.80000000e-01 
 8.90000000e-01  4.57854699e-01  3.26049943e-09  3.15216850e-09  4.57854698e-01  4.57854699e-01  3.35147638e-09  4.57854699e-01  1.57768158e-07  1.36074306e-07  8.90000000e-01 
 9.00000000e-01  4.57854725e-01  3.26049938e-09  3.15216851e-09  4.57854725e-01  4.57854725e-01  3.35147638e-09  4.57854725e-01  1.57768203e-07  1.36074213e-07  9.00000000e-01 
 9.10000000e-01  4.57854712e-01  3.26049938e-09  3.15216851e-09  4.57854712e-01  4.57854712e-01  3.35147638e-09  4.57854712e-01  1.57768181e-07  1.36074071e-07  9.10000000e-01 
 9.20000000e-01  4.57854703e-01  3.26049938e-09  3.15216856e-09  4.57854703e-01  4.57854703e-01  3.35147638e-09  4.57854703e-01  1.57768168e-07  1.36073922e-07  9.20000000e-01 
 9.30000000e-01  4.57854722e-01  3.26049938e-09  3.15216851e-09  4.57854721e-01  4.57854722e-01  3.35147638e-09  4.57854722e-01  1.57768192e-07  1.36073822e-07  9.30000000e-01 
 9.40000000e-01  4.57854696e-01  3.26049938e-09  3.15216856e-09  4.57854696e-01  4.57854696e-01  3.35147632e-09  4.57854696e-01  1.57768147e-07  1.36073595e-07  9.40000000e-01 
 9.50000000e-01  4.57854711e-01  3.26049943e-09  3.15216851e-09  4.57854711e-01  4.57854711e-01  3.35147632e-09  4.57854711e-01  1.57768177e-07  1.36073588e-07  9.50000000e-01 
 9.60000000e-01  4.57854694e-01  3.26049938e-09  3.15216850e-09  4.57854694e-01  4.57854694e-01  3.35147632e-09  4.57854694e-01  1.57768141e-07  1.36073496e-07  9.60000000e-01 
 9.70000000e-01  4.57854721e-01  3.26049943e-09  3.15216851e-09  4.57854720e-01  4.57854721e-01  3.35147638e-09  4.57854721e-01  1.57768182e-07  1.36073439e-07  9.70000000e-01 
 9.80000000e-01  4.57854711e-01  3.26049938e-09  3.15216856e-09  4.57854711e-01  4.57854711e-01  3.35147638e-09  4.57854711e-01  1.57768176e-07  1.36073304e-07  9.80000000e-01 
 9.90000000e-01  4.57854689e-01  3.26049938e-09  3.15216850e-09  4.57854688e-01  4.57854688e-01  3.35147638e-09  4.57854688e-01  1.57768138e-07  1.36073098e-07  9.90000000e-01 
 1.00000000e+00  4.57854705e-01  3.26049938e-09  3.15216856e-09  4.57854705e-01  4.57854705e-01  3.35147632e-09  4.57854705e-01  1.57768162e-07  1.36073091e-07  1.00000000e+00 
 1.01000000e+00  4.57854718e-01  3.26049938e-09  3.15216851e-09  4.57854718e-01  4.57854718e-01  3.35147638e-09  4.57854718e-01  1.57768170e-07  1.36073119e-07  1.01000000e+00 
 1.02000000e+00  4.57854682e-01  3.26049938e-09  3.15216850e-09  4.57854681e-01  4.57854681e-01  3.35147638e-09  4.57854681e-01  1.57768134e-07  1.36072785e-07  1.02000000e+00 
 1.03000000e+00  4.57854721e-01  3.26049938e-09  3.15216851e-09  4.57854721e-01  4.57854721e-01  3.35147638e-09  4.57854721e-01  1.57768194e-07  1.36072792e-07  1.03000000e+00 
 1.04000000e+00  4.57854707e-01  3.26049938e-09  3.15216856e-09  4.57854707e-01  4.57854707e-01  3.35147632e-09  4.57854707e-01  1.57768172e-07  1.36072565e-07  1.04000000e+00 
 1.05000000e+00  4.57854696e-01  3.26049938e-09  3.15216856e-09  4.57854696e-01  4.57854696e-01  3.35147632e-09  4.57854696e-01  1.57768137e-07  1.36072536e-07  1.05000000e+00 
 1.06000000e+00  4.57854725e-01  3.26049938e-09  3.15216856e-09  4.57854725e-01  4.57854725e-01  3.35147638e-09  4.57854725e-01  1.57768182e-07  1.36072551e-07  1.06000000e+00 
 1.07000000e+00  4.57854705e-01  3.26049938e-09  3.15216856e-09  4.57854705e-01  4.57854705e-01  3.35147638e-09  4.57854705e-01  1.57768171e-07  1.36072288e-07  1.07000000e+00 
 1.08000000e+00  4.57854696e-01  3.26049943e-09  3.15216850e-09  4.57854696e-01  4.57854696e-01  3.35147632e-09  4.57854696e-01  1.57768150e-07  1.36072096e-07  1.08000000e+00 
 1.09000000e+00  4.57854711e-01  3.26049938e-09  3.15216851e-09  4.57854711e-01  4.57854711e-01  3.35147638e-09  4.57854711e-01  1.57768173e-07  1.36072266e-07  1.09000000e+00 
 1.10000000e+00  4.57854682e-01  3.26049938e-09  3.15216856e-09  4.57854682e-01  4.57854682e-01  3.35147638e-09  4.57854682e-01  1.57768125e-07  1.36071939e-07  1.10000000e+00 
