 v-sweep         v(b0)           v(b1)           v(b2)           v(b3)           v(b4)           v(b5)           v(b6)           i(vbias)        i(viout)        v(vout)        
 0.00000000e+00  4.60281586e-01  3.34920121e-09  3.22103280e-09  4.60281586e-01  4.60281586e-01  4.60281586e-01  3.38768993e-09  1.60622126e-07  8.85634361e-08  0.00000000e+00 
 1.00000000e-02  4.60281609e-01  3.34920124e-09  3.22103277e-09  4.60281609e-01  4.60281609e-01  4.60281609e-01  3.38768996e-09  1.60622145e-07  8.85630881e-08  1.00000000e-02 
 2.00000000e-02  4.60281579e-01  3.34920124e-09  3.22103271e-09  4.60281579e-01  4.60281579e-01  4.60281579e-01  3.38768995e-09  1.60622122e-07  8.85626685e-08  2.00000000e-02 
 3.00000000e-02  4.60281614e-01  3.34920130e-09  3.22103277e-09  4.60281614e-01  4.60281614e-01  4.60281614e-01  3.38768990e-09  1.60622157e-07  8.85623657e-08  3.00000000e-02 
 4.00000000e-02  4.60281625e-01  3.34920125e-09  3.22103277e-09  4.60281625e-01  4.60281625e-01  4.60281625e-01  3.38768996e-09  1.60622190e-07  8.85618894e-08  4.00000000e-02 
 5.00000000e-02  4.60281610e-01  3.34920124e-09  3.22103277e-09  4.60281610e-01  4.60281610e-01  4.60281610e-01  3.38768996e-09  1.60622163e-07  8.85615603e-08  5.00000000e-02 
 6.00000000e-02  4.60281614e-01  3.34920124e-09  3.22103277e-09  4.60281614e-01  4.60281614e-01  4.60281614e-01  3.38768996e-09  1.60622163e-07  8.85612774e-08  6.00000000e-02 
 7.00000000e-02  4.60281591e-01  3.34920124e-09  3.22103277e-09  4.60281591e-01  4.60281591e-01  4.60281591e-01  3.38768996e-09  1.60622148e-07  8.85609626e-08  7.00000000e-02 
 8.00000000e-02  4.60281598e-01  3.34920124e-09  3.22103277e-09  4.60281598e-01  4.60281598e-01  4.60281598e-01  3.38768996e-09  1.60622138e-07  8.85605846e-08  8.00000000e-02 
 9.00000000e-02  4.60281626e-01  3.34920125e-09  3.22103271e-09  4.60281626e-01  4.60281626e-01  4.60281626e-01  3.38768996e-09  1.60622189e-07  8.85603546e-08  9.00000000e-02 
 1.00000000e-01  4.60281588e-01  3.34920124e-09  3.22103277e-09  4.60281588e-01  4.60281588e-01  4.60281588e-01  3.38768996e-09  1.60622116e-07  8.85601894e-08  1.00000000e-01 
 1.10000000e-01  4.60281604e-01  3.34920124e-09  3.22103277e-09  4.60281604e-01  4.60281604e-01  4.60281604e-01  3.38768996e-09  1.60622142e-07  8.85597373e-08  1.10000000e-01 
 1.20000000e-01  4.60281615e-01  3.34920124e-09  3.22103271e-09  4.60281615e-01  4.60281615e-01  4.60281615e-01  3.38768996e-09  1.60622167e-07  8.85596778e-08  1.20000000e-01 
 1.30000000e-01  4.60281625e-01  3.34920125e-09  3.22103277e-09  4.60281624e-01  4.60281625e-01  4.60281624e-01  3.38768991e-09  1.60622186e-07  8.85593527e-08  1.30000000e-01 
 1.40000000e-01  4.60281602e-01  3.34920124e-09  3.22103277e-09  4.60281602e-01  4.60281602e-01  4.60281602e-01  3.38768996e-09  1.60622146e-07  8.85591636e-08  1.40000000e-01 
 1.50000000e-01  4.60281606e-01  3.34920124e-09  3.22103277e-09  4.60281606e-01  4.60281606e-01  4.60281606e-01  3.38768996e-09  1.60622140e-07  8.85589770e-08  1.50000000e-01 
 1.60000000e-01  4.60281577e-01  3.34920124e-09  3.22103276e-09  4.60281577e-01  4.60281577e-01  4.60281577e-01  3.38768995e-09  1.60622121e-07  8.85586786e-08  1.60000000e-01 
 1.70000000e-01  4.60281614e-01  3.34920124e-09  3.22103277e-09  4.60281614e-01  4.60281614e-01  4.60281614e-01  3.38768996e-09  1.60622156e-07  8.85585809e-08  1.70000000e-01 
 1.80000000e-01  4.60281581e-01  3.34920124e-09  3.22103276e-09  4.60281581e-01  4.60281581e-01  4.60281581e-01  3.38768995e-09  1.60622130e-07  8.85583624e-08  1.80000000e-01 
 1.90000000e-01  4.60281591e-01  3.34920124e-09  3.22103277e-09  4.60281591e-01  4.60281591e-01  4.60281591e-01  3.38768996e-09  1.60622136e-07  8.85581475e-08  1.90000000e-01 
 2.00000000e-01  4.60281587e-01  3.34920124e-09  3.22103271e-09  4.60281586e-01  4.60281587e-01  4.60281586e-01  3.38768996e-09  1.60622129e-07  8.85579414e-08  2.00000000e-01 
 2.10000000e-01  4.60281609e-01  3.34920124e-09  3.22103271e-09  4.60281609e-01  4.60281609e-01  4.60281609e-01  3.38768996e-09  1.60622145e-07  8.85577727e-08  2.10000000e-01 
 2.20000000e-01  4.60281594e-01  3.34920124e-09  3.22103277e-09  4.60281594e-01  4.60281594e-01  4.60281594e-01  3.38768996e-09  1.60622150e-07  8.85576608e-08  2.20000000e-01 
 2.30000000e-01  4.60281608e-01  3.34920124e-09  3.22103277e-09  4.60281608e-01  4.60281608e-01  4.60281608e-01  3.38768996e-09  1.60622155e-07  8.85575311e-08  2.30000000e-01 
 2.40000000e-01  4.60281610e-01  3.34920124e-09  3.22103277e-09  4.60281610e-01  4.60281610e-01  4.60281610e-01  3.38768996e-09  1.60622161e-07  8.85573659e-08  2.40000000e-01 
 2.50000000e-01  4.60281604e-01  3.34920124e-09  3.22103277e-09  4.60281604e-01  4.60281604e-01  4.60281604e-01  3.38768996e-09  1.60622158e-07  8.85573268e-08  2.50000000e-01 
 2.60000000e-01  4.60281572e-01  3.34920124e-09  3.22103276e-09  4.60281572e-01  4.60281572e-01  4.60281572e-01  3.38768995e-09  1.60622107e-07  8.85570959e-08  2.60000000e-01 
 2.70000000e-01  4.60281613e-01  3.34920124e-09  3.22103277e-09  4.60281613e-01  4.60281613e-01  4.60281613e-01  3.38768996e-09  1.60622162e-07  8.85570746e-08  2.70000000e-01 
 2.80000000e-01  4.60281597e-01  3.34920130e-09  3.22103277e-09  4.60281597e-01  4.60281597e-01  4.60281597e-01  3.38768996e-09  1.60622151e-07  8.85567921e-08  2.80000000e-01 
 2.90000000e-01  4.60281608e-01  3.34920124e-09  3.22103277e-09  4.60281608e-01  4.60281608e-01  4.60281608e-01  3.38768996e-09  1.60622158e-07  8.85567317e-08  2.90000000e-01 
 3.00000000e-01  4.60281610e-01  3.34920130e-09  3.22103277e-09  4.60281610e-01  4.60281610e-01  4.60281610e-01  3.38768996e-09  1.60622163e-07  8.85566394e-08  3.00000000e-01 
 3.10000000e-01  4.60281583e-01  3.34920124e-09  3.22103277e-09  4.60281583e-01  4.60281583e-01  4.60281583e-01  3.38768990e-09  1.60622116e-07  8.85565044e-08  3.10000000e-01 
 3.20000000e-01  4.60281613e-01  3.34920124e-09  3.22103277e-09  4.60281613e-01  4.60281613e-01  4.60281613e-01  3.38768997e-09  1.60622162e-07  8.85563338e-08  3.20000000e-01 
 3.30000000e-01  4.60281588e-01  3.34920124e-09  3.22103277e-09  4.60281588e-01  4.60281588e-01  4.60281588e-01  3.38769001e-09  1.60622122e-07  8.85563125e-08  3.30000000e-01 
 3.40000000e-01  4.60281577e-01  3.34920130e-09  3.22103276e-09  4.60281577e-01  4.60281577e-01  4.60281577e-01  3.38768995e-09  1.60622099e-07  8.85561526e-08  3.40000000e-01 
 3.50000000e-01  4.60281570e-01  3.34920124e-09  3.22103276e-09  4.60281570e-01  4.60281570e-01  4.60281570e-01  3.38768995e-09  1.60622101e-07  8.85560780e-08  3.50000000e-01 
 3.60000000e-01  4.60281583e-01  3.34920124e-09  3.22103277e-09  4.60281583e-01  4.60281583e-01  4.60281583e-01  3.38768995e-09  1.60622110e-07  8.85558862e-08  3.60000000e-01 
 3.70000000e-01  4.60281603e-01  3.34920124e-09  3.22103277e-09  4.60281603e-01  4.60281603e-01  4.60281603e-01  3.38768996e-09  1.60622147e-07  8.85559324e-08  3.70000000e-01 
 3.80000000e-01  4.60281594e-01  3.34920124e-09  3.22103277e-09  4.60281594e-01  4.60281594e-01  4.60281594e-01  3.38768996e-09  1.60622124e-07  8.85557228e-08  3.80000000e-01 
 3.90000000e-01  4.60281606e-01  3.34920124e-09  3.22103271e-09  4.60281606e-01  4.60281606e-01  4.60281606e-01  3.38768996e-09  1.60622152e-07  8.85556375e-08  3.90000000e-01 
 4.00000000e-01  4.60281600e-01  3.34920124e-09  3.22103277e-09  4.60281600e-01  4.60281600e-01  4.60281600e-01  3.38768996e-09  1.60622140e-07  8.85555522e-08  4.00000000e-01 
 4.10000000e-01  4.60281596e-01  3.34920124e-09  3.22103277e-09  4.60281596e-01  4.60281596e-01  4.60281596e-01  3.38768996e-09  1.60622136e-07  8.85555309e-08  4.10000000e-01 
 4.20000000e-01  4.60281621e-01  3.34920124e-09  3.22103271e-09  4.60281621e-01  4.60281621e-01  4.60281621e-01  3.38768996e-09  1.60622169e-07  8.85555096e-08  4.20000000e-01 
 4.30000000e-01  4.60281606e-01  3.34920124e-09  3.22103271e-09  4.60281606e-01  4.60281606e-01  4.60281606e-01  3.38768996e-09  1.60622158e-07  8.85554030e-08  4.30000000e-01 
 4.40000000e-01  4.60281589e-01  3.34920124e-09  3.22103277e-09  4.60281589e-01  4.60281589e-01  4.60281589e-01  3.38768996e-09  1.60622129e-07  8.85552147e-08  4.40000000e-01 
 4.50000000e-01  4.60281594e-01  3.34920124e-09  3.22103277e-09  4.60281594e-01  4.60281594e-01  4.60281594e-01  3.38768996e-09  1.60622127e-07  8.85550975e-08  4.50000000e-01 
 4.60000000e-01  4.60281583e-01  3.34920124e-09  3.22103271e-09  4.60281583e-01  4.60281583e-01  4.60281583e-01  3.38768995e-09  1.60622117e-07  8.85550193e-08  4.60000000e-01 
 4.70000000e-01  4.60281598e-01  3.34920124e-09  3.22103277e-09  4.60281598e-01  4.60281598e-01  4.60281598e-01  3.38768996e-09  1.60622126e-07  8.85550975e-08  4.70000000e-01 
 4.80000000e-01  4.60281586e-01  3.34920124e-09  3.22103277e-09  4.60281586e-01  4.60281586e-01  4.60281586e-01  3.38768995e-09  1.60622134e-07  8.85549944e-08  4.80000000e-01 
 4.90000000e-01  4.60281594e-01  3.34920124e-09  3.22103277e-09  4.60281594e-01  4.60281594e-01  4.60281594e-01  3.38768996e-09  1.60622128e-07  8.85549518e-08  4.90000000e-01 
 5.00000000e-01  4.60281603e-01  3.34920124e-09  3.22103277e-09  4.60281603e-01  4.60281603e-01  4.60281603e-01  3.38768996e-09  1.60622144e-07  8.85547635e-08  5.00000000e-01 
 5.10000000e-01  4.60281580e-01  3.34920124e-09  3.22103271e-09  4.60281579e-01  4.60281580e-01  4.60281579e-01  3.38768995e-09  1.60622118e-07  8.85545930e-08  5.10000000e-01 
 5.20000000e-01  4.60281606e-01  3.34920124e-09  3.22103277e-09  4.60281606e-01  4.60281606e-01  4.60281606e-01  3.38768996e-09  1.60622153e-07  8.85546498e-08  5.20000000e-01 
 5.30000000e-01  4.60281558e-01  3.34920124e-09  3.22103276e-09  4.60281557e-01  4.60281558e-01  4.60281557e-01  3.38768995e-09  1.60622091e-07  8.85545752e-08  5.30000000e-01 
 5.40000000e-01  4.60281606e-01  3.34920124e-09  3.22103277e-09  4.60281606e-01  4.60281606e-01  4.60281606e-01  3.38768990e-09  1.60622152e-07  8.85545859e-08  5.40000000e-01 
 5.50000000e-01  4.60281607e-01  3.34920124e-09  3.22103277e-09  4.60281607e-01  4.60281607e-01  4.60281607e-01  3.38768996e-09  1.60622153e-07  8.85544154e-08  5.50000000e-01 
 5.60000000e-01  4.60281612e-01  3.34920124e-09  3.22103277e-09  4.60281612e-01  4.60281612e-01  4.60281612e-01  3.38768996e-09  1.60622159e-07  8.85544367e-08  5.60000000e-01 
 5.70000000e-01  4.60281581e-01  3.34920124e-09  3.22103271e-09  4.60281581e-01  4.60281581e-01  4.60281581e-01  3.38768995e-09  1.60622111e-07  8.85543727e-08  5.70000000e-01 
 5.80000000e-01  4.60281611e-01  3.34920124e-09  3.22103277e-09  4.60281611e-01  4.60281611e-01  4.60281611e-01  3.38768996e-09  1.60622164e-07  8.85543088e-08  5.80000000e-01 
 5.90000000e-01  4.60281585e-01  3.34920124e-09  3.22103271e-09  4.60281585e-01  4.60281585e-01  4.60281585e-01  3.38768995e-09  1.60622117e-07  8.85542164e-08  5.90000000e-01 
 6.00000000e-01  4.60281588e-01  3.34920130e-09  3.22103277e-09  4.60281588e-01  4.60281588e-01  4.60281588e-01  3.38768996e-09  1.60622115e-07  8.85540743e-08  6.00000000e-01 
 6.10000000e-01  4.60281600e-01  3.34920124e-09  3.22103277e-09  4.60281600e-01  4.60281600e-01  4.60281600e-01  3.38768996e-09  1.60622141e-07  8.85540103e-08  6.10000000e-01 
 6.20000000e-01  4.60281585e-01  3.34920124e-09  3.22103277e-09  4.60281585e-01  4.60281585e-01  4.60281585e-01  3.38768995e-09  1.60622116e-07  8.85540459e-08  6.20000000e-01 
 6.30000000e-01  4.60281587e-01  3.34920124e-09  3.22103277e-09  4.60281587e-01  4.60281587e-01  4.60281587e-01  3.38768996e-09  1.60622116e-07  8.85538967e-08  6.30000000e-01 
 6.40000000e-01  4.60281617e-01  3.34920124e-09  3.22103277e-09  4.60281616e-01  4.60281616e-01  4.60281616e-01  3.38768996e-09  1.60622159e-07  8.85537901e-08  6.40000000e-01 
 6.50000000e-01  4.60281616e-01  3.34920124e-09  3.22103277e-09  4.60281616e-01  4.60281616e-01  4.60281616e-01  3.38768996e-09  1.60622159e-07  8.85539109e-08  6.50000000e-01 
 6.60000000e-01  4.60281603e-01  3.34920124e-09  3.22103277e-09  4.60281602e-01  4.60281602e-01  4.60281602e-01  3.38768996e-09  1.60622155e-07  8.85536053e-08  6.60000000e-01 
 6.70000000e-01  4.60281574e-01  3.34920124e-09  3.22103276e-09  4.60281574e-01  4.60281574e-01  4.60281574e-01  3.38768995e-09  1.60622108e-07  8.85535982e-08  6.70000000e-01 
 6.80000000e-01  4.60281588e-01  3.34920124e-09  3.22103277e-09  4.60281588e-01  4.60281588e-01  4.60281588e-01  3.38768996e-09  1.60622125e-07  8.85535201e-08  6.80000000e-01 
 6.90000000e-01  4.60281614e-01  3.34920124e-09  3.22103271e-09  4.60281614e-01  4.60281614e-01  4.60281614e-01  3.38768996e-09  1.60622169e-07  8.85534135e-08  6.90000000e-01 
 7.00000000e-01  4.60281589e-01  3.34920124e-09  3.22103277e-09  4.60281589e-01  4.60281589e-01  4.60281589e-01  3.38768996e-09  1.60622123e-07  8.85533638e-08  7.00000000e-01 
 7.10000000e-01  4.60281602e-01  3.34920124e-09  3.22103271e-09  4.60281602e-01  4.60281602e-01  4.60281602e-01  3.38768996e-09  1.60622144e-07  8.85533424e-08  7.10000000e-01 
 7.20000000e-01  4.60281595e-01  3.34920124e-09  3.22103277e-09  4.60281595e-01  4.60281595e-01  4.60281595e-01  3.38768996e-09  1.60622135e-07  8.85532430e-08  7.20000000e-01 
 7.30000000e-01  4.60281620e-01  3.34920124e-09  3.22103277e-09  4.60281620e-01  4.60281620e-01  4.60281620e-01  3.38768996e-09  1.60622167e-07  8.85533709e-08  7.30000000e-01 
 7.40000000e-01  4.60281588e-01  3.34920124e-09  3.22103277e-09  4.60281588e-01  4.60281588e-01  4.60281588e-01  3.38768990e-09  1.60622127e-07  8.85530653e-08  7.40000000e-01 
 7.50000000e-01  4.60281599e-01  3.34920124e-09  3.22103271e-09  4.60281599e-01  4.60281599e-01  4.60281599e-01  3.38768996e-09  1.60622134e-07  8.85530014e-08  7.50000000e-01 
 7.60000000e-01  4.60281588e-01  3.34920124e-09  3.22103277e-09  4.60281588e-01  4.60281588e-01  4.60281588e-01  3.38768996e-09  1.60622122e-07  8.85530440e-08  7.60000000e-01 
 7.70000000e-01  4.60281587e-01  3.34920124e-09  3.22103277e-09  4.60281587e-01  4.60281587e-01  4.60281587e-01  3.38768996e-09  1.60622115e-07  8.85528664e-08  7.70000000e-01 
 7.80000000e-01  4.60281619e-01  3.34920124e-09  3.22103277e-09  4.60281619e-01  4.60281619e-01  4.60281619e-01  3.38768996e-09  1.60622176e-07  8.85528948e-08  7.80000000e-01 
 7.90000000e-01  4.60281600e-01  3.34920130e-09  3.22103277e-09  4.60281600e-01  4.60281600e-01  4.60281600e-01  3.38768996e-09  1.60622145e-07  8.85527598e-08  7.90000000e-01 
 8.00000000e-01  4.60281590e-01  3.34920124e-09  3.22103277e-09  4.60281590e-01  4.60281590e-01  4.60281590e-01  3.38768996e-09  1.60622123e-07  8.85525395e-08  8.00000000e-01 
 8.10000000e-01  4.60281594e-01  3.34920124e-09  3.22103271e-09  4.60281594e-01  4.60281594e-01  4.60281594e-01  3.38768996e-09  1.60622129e-07  8.85525466e-08  8.10000000e-01 
 8.20000000e-01  4.60281623e-01  3.34920124e-09  3.22103277e-09  4.60281623e-01  4.60281623e-01  4.60281623e-01  3.38768991e-09  1.60622183e-07  8.85525608e-08  8.20000000e-01 
 8.30000000e-01  4.60281588e-01  3.34920124e-09  3.22103271e-09  4.60281588e-01  4.60281588e-01  4.60281588e-01  3.38768996e-09  1.60622118e-07  8.85524400e-08  8.30000000e-01 
 8.40000000e-01  4.60281610e-01  3.34920124e-09  3.22103277e-09  4.60281609e-01  4.60281609e-01  4.60281609e-01  3.38768996e-09  1.60622162e-07  8.85523903e-08  8.40000000e-01 
 8.50000000e-01  4.60281613e-01  3.34920124e-09  3.22103277e-09  4.60281613e-01  4.60281613e-01  4.60281613e-01  3.38768996e-09  1.60622165e-07  8.85522553e-08  8.50000000e-01 
 8.60000000e-01  4.60281603e-01  3.34920124e-09  3.22103277e-09  4.60281603e-01  4.60281603e-01  4.60281603e-01  3.38768996e-09  1.60622142e-07  8.85522553e-08  8.60000000e-01 
 8.70000000e-01  4.60281587e-01  3.34920130e-09  3.22103277e-09  4.60281587e-01  4.60281587e-01  4.60281587e-01  3.38768996e-09  1.60622111e-07  8.85521487e-08  8.70000000e-01 
 8.80000000e-01  4.60281601e-01  3.34920124e-09  3.22103277e-09  4.60281601e-01  4.60281601e-01  4.60281601e-01  3.38768996e-09  1.60622145e-07  8.85521132e-08  8.80000000e-01 
 8.90000000e-01  4.60281593e-01  3.34920124e-09  3.22103277e-09  4.60281593e-01  4.60281593e-01  4.60281593e-01  3.38768996e-09  1.60622126e-07  8.85519995e-08  8.90000000e-01 
 9.00000000e-01  4.60281594e-01  3.34920124e-09  3.22103277e-09  4.60281593e-01  4.60281593e-01  4.60281593e-01  3.38768996e-09  1.60622132e-07  8.85519995e-08  9.00000000e-01 
 9.10000000e-01  4.60281573e-01  3.34920124e-09  3.22103276e-09  4.60281573e-01  4.60281573e-01  4.60281573e-01  3.38768995e-09  1.60622104e-07  8.85518503e-08  9.10000000e-01 
 9.20000000e-01  4.60281616e-01  3.34920124e-09  3.22103271e-09  4.60281616e-01  4.60281616e-01  4.60281616e-01  3.38768990e-09  1.60622176e-07  8.85518929e-08  9.20000000e-01 
 9.30000000e-01  4.60281577e-01  3.34920124e-09  3.22103276e-09  4.60281577e-01  4.60281577e-01  4.60281577e-01  3.38768995e-09  1.60622116e-07  8.85516300e-08  9.30000000e-01 
 9.40000000e-01  4.60281601e-01  3.34920124e-09  3.22103277e-09  4.60281601e-01  4.60281601e-01  4.60281601e-01  3.38768990e-09  1.60622134e-07  8.85516300e-08  9.40000000e-01 
 9.50000000e-01  4.60281606e-01  3.34920124e-09  3.22103277e-09  4.60281606e-01  4.60281606e-01  4.60281606e-01  3.38768996e-09  1.60622157e-07  8.85515590e-08  9.50000000e-01 
 9.60000000e-01  4.60281581e-01  3.34920124e-09  3.22103276e-09  4.60281581e-01  4.60281581e-01  4.60281581e-01  3.38768995e-09  1.60622116e-07  8.85514879e-08  9.60000000e-01 
 9.70000000e-01  4.60281596e-01  3.34920124e-09  3.22103277e-09  4.60281596e-01  4.60281596e-01  4.60281596e-01  3.38768996e-09  1.60622143e-07  8.85514666e-08  9.70000000e-01 
 9.80000000e-01  4.60281601e-01  3.34920130e-09  3.22103277e-09  4.60281601e-01  4.60281601e-01  4.60281601e-01  3.38768996e-09  1.60622157e-07  8.85513813e-08  9.80000000e-01 
 9.90000000e-01  4.60281587e-01  3.34920124e-09  3.22103271e-09  4.60281586e-01  4.60281586e-01  4.60281586e-01  3.38768996e-09  1.60622127e-07  8.85512534e-08  9.90000000e-01 
 1.00000000e+00  4.60281609e-01  3.34920124e-09  3.22103277e-09  4.60281609e-01  4.60281609e-01  4.60281609e-01  3.38768996e-09  1.60622160e-07  8.85512179e-08  1.00000000e+00 
 1.01000000e+00  4.60281597e-01  3.34920124e-09  3.22103271e-09  4.60281597e-01  4.60281597e-01  4.60281597e-01  3.38768996e-09  1.60622150e-07  8.85511469e-08  1.01000000e+00 
 1.02000000e+00  4.60281582e-01  3.34920124e-09  3.22103276e-09  4.60281582e-01  4.60281582e-01  4.60281582e-01  3.38768995e-09  1.60622114e-07  8.85509763e-08  1.02000000e+00 
 1.03000000e+00  4.60281607e-01  3.34920124e-09  3.22103271e-09  4.60281607e-01  4.60281607e-01  4.60281607e-01  3.38768996e-09  1.60622144e-07  8.85510048e-08  1.03000000e+00 
 1.04000000e+00  4.60281605e-01  3.34920124e-09  3.22103277e-09  4.60281605e-01  4.60281605e-01  4.60281605e-01  3.38768996e-09  1.60622159e-07  8.85507987e-08  1.04000000e+00 
 1.05000000e+00  4.60281604e-01  3.34920124e-09  3.22103277e-09  4.60281604e-01  4.60281604e-01  4.60281604e-01  3.38768996e-09  1.60622161e-07  8.85507632e-08  1.05000000e+00 
 1.06000000e+00  4.60281591e-01  3.34920124e-09  3.22103277e-09  4.60281591e-01  4.60281591e-01  4.60281591e-01  3.38768996e-09  1.60622134e-07  8.85506495e-08  1.06000000e+00 
 1.07000000e+00  4.60281593e-01  3.34920124e-09  3.22103277e-09  4.60281593e-01  4.60281593e-01  4.60281593e-01  3.38768996e-09  1.60622127e-07  8.85506495e-08  1.07000000e+00 
 1.08000000e+00  4.60281587e-01  3.34920124e-09  3.22103277e-09  4.60281587e-01  4.60281587e-01  4.60281587e-01  3.38768996e-09  1.60622115e-07  8.85504079e-08  1.08000000e+00 
 1.09000000e+00  4.60281591e-01  3.34920124e-09  3.22103277e-09  4.60281591e-01  4.60281591e-01  4.60281591e-01  3.38768996e-09  1.60622134e-07  8.85504576e-08  1.09000000e+00 
 1.10000000e+00  4.60281580e-01  3.34920124e-09  3.22103276e-09  4.60281580e-01  4.60281580e-01  4.60281580e-01  3.38768995e-09  1.60622104e-07  8.85503724e-08  1.10000000e+00 
