 v-sweep         v(b0)           v(b1)           v(b2)           v(b3)           v(b4)           v(b5)           v(b6)           i(vbias)        i(viout)        v(vout)        
 0.00000000e+00  4.58690756e-01  4.58690756e-01  4.58690756e-01  4.58690756e-01  3.27488277e-09  3.46368757e-09  4.58690756e-01  1.60013358e-07  1.17412149e-07  0.00000000e+00 
 1.00000000e-02  4.58690752e-01  4.58690752e-01  4.58690752e-01  4.58690752e-01  3.27488275e-09  3.46368759e-09  4.58690752e-01  1.60013350e-07  1.17411669e-07  1.00000000e-02 
 2.00000000e-02  4.58690744e-01  4.58690744e-01  4.58690745e-01  4.58690745e-01  3.27488274e-09  3.46368759e-09  4.58690744e-01  1.60013342e-07  1.17411238e-07  2.00000000e-02 
 3.00000000e-02  4.58690783e-01  4.58690783e-01  4.58690783e-01  4.58690783e-01  3.27488275e-09  3.46368754e-09  4.58690783e-01  1.60013382e-07  1.17411069e-07  3.00000000e-02 
 4.00000000e-02  4.58690741e-01  4.58690740e-01  4.58690741e-01  4.58690741e-01  3.27488274e-09  3.46368753e-09  4.58690741e-01  1.60013344e-07  1.17410550e-07  4.00000000e-02 
 5.00000000e-02  4.58690768e-01  4.58690768e-01  4.58690768e-01  4.58690768e-01  3.27488275e-09  3.46368754e-09  4.58690768e-01  1.60013379e-07  1.17410267e-07  5.00000000e-02 
 6.00000000e-02  4.58690742e-01  4.58690742e-01  4.58690742e-01  4.58690742e-01  3.27488274e-09  3.46368753e-09  4.58690742e-01  1.60013342e-07  1.17409799e-07  6.00000000e-02 
 7.00000000e-02  4.58690757e-01  4.58690757e-01  4.58690757e-01  4.58690757e-01  3.27488275e-09  3.46368754e-09  4.58690757e-01  1.60013368e-07  1.17409623e-07  7.00000000e-02 
 8.00000000e-02  4.58690752e-01  4.58690752e-01  4.58690752e-01  4.58690752e-01  3.27488275e-09  3.46368754e-09  4.58690752e-01  1.60013356e-07  1.17409219e-07  8.00000000e-02 
 9.00000000e-02  4.58690774e-01  4.58690774e-01  4.58690774e-01  4.58690774e-01  3.27488275e-09  3.46368754e-09  4.58690774e-01  1.60013387e-07  1.17409021e-07  9.00000000e-02 
 1.00000000e-01  4.58690762e-01  4.58690762e-01  4.58690762e-01  4.58690762e-01  3.27488275e-09  3.46368754e-09  4.58690762e-01  1.60013379e-07  1.17408692e-07  1.00000000e-01 
 1.10000000e-01  4.58690753e-01  4.58690753e-01  4.58690754e-01  4.58690754e-01  3.27488275e-09  3.46368759e-09  4.58690753e-01  1.60013356e-07  1.17408498e-07  1.10000000e-01 
 1.20000000e-01  4.58690759e-01  4.58690758e-01  4.58690759e-01  4.58690759e-01  3.27488275e-09  3.46368754e-09  4.58690759e-01  1.60013378e-07  1.17408168e-07  1.20000000e-01 
 1.30000000e-01  4.58690762e-01  4.58690762e-01  4.58690762e-01  4.58690762e-01  3.27488280e-09  3.46368760e-09  4.58690762e-01  1.60013361e-07  1.17407930e-07  1.30000000e-01 
 1.40000000e-01  4.58690750e-01  4.58690749e-01  4.58690750e-01  4.58690750e-01  3.27488274e-09  3.46368759e-09  4.58690750e-01  1.60013342e-07  1.17407633e-07  1.40000000e-01 
 1.50000000e-01  4.58690750e-01  4.58690750e-01  4.58690750e-01  4.58690750e-01  3.27488274e-09  3.46368759e-09  4.58690750e-01  1.60013351e-07  1.17407446e-07  1.50000000e-01 
 1.60000000e-01  4.58690753e-01  4.58690753e-01  4.58690753e-01  4.58690753e-01  3.27488275e-09  3.46368754e-09  4.58690753e-01  1.60013355e-07  1.17407328e-07  1.60000000e-01 
 1.70000000e-01  4.58690733e-01  4.58690733e-01  4.58690733e-01  4.58690733e-01  3.27488274e-09  3.46368759e-09  4.58690733e-01  1.60013322e-07  1.17407058e-07  1.70000000e-01 
 1.80000000e-01  4.58690740e-01  4.58690740e-01  4.58690740e-01  4.58690740e-01  3.27488274e-09  3.46368759e-09  4.58690740e-01  1.60013337e-07  1.17406836e-07  1.80000000e-01 
 1.90000000e-01  4.58690748e-01  4.58690748e-01  4.58690748e-01  4.58690748e-01  3.27488274e-09  3.46368754e-09  4.58690748e-01  1.60013351e-07  1.17406696e-07  1.90000000e-01 
 2.00000000e-01  4.58690763e-01  4.58690763e-01  4.58690763e-01  4.58690763e-01  3.27488275e-09  3.46368760e-09  4.58690763e-01  1.60013378e-07  1.17406454e-07  2.00000000e-01 
 2.10000000e-01  4.58690766e-01  4.58690766e-01  4.58690766e-01  4.58690766e-01  3.27488275e-09  3.46368760e-09  4.58690766e-01  1.60013381e-07  1.17406447e-07  2.10000000e-01 
 2.20000000e-01  4.58690749e-01  4.58690749e-01  4.58690749e-01  4.58690749e-01  3.27488274e-09  3.46368759e-09  4.58690749e-01  1.60013350e-07  1.17406060e-07  2.20000000e-01 
 2.30000000e-01  4.58690750e-01  4.58690750e-01  4.58690750e-01  4.58690750e-01  3.27488274e-09  3.46368759e-09  4.58690750e-01  1.60013335e-07  1.17405937e-07  2.30000000e-01 
 2.40000000e-01  4.58690749e-01  4.58690749e-01  4.58690750e-01  4.58690749e-01  3.27488274e-09  3.46368754e-09  4.58690749e-01  1.60013353e-07  1.17405717e-07  2.40000000e-01 
 2.50000000e-01  4.58690762e-01  4.58690762e-01  4.58690762e-01  4.58690762e-01  3.27488275e-09  3.46368754e-09  4.58690762e-01  1.60013368e-07  1.17405683e-07  2.50000000e-01 
 2.60000000e-01  4.58690768e-01  4.58690768e-01  4.58690768e-01  4.58690768e-01  3.27488275e-09  3.46368754e-09  4.58690768e-01  1.60013375e-07  1.17405616e-07  2.60000000e-01 
 2.70000000e-01  4.58690734e-01  4.58690734e-01  4.58690734e-01  4.58690734e-01  3.27488274e-09  3.46368753e-09  4.58690734e-01  1.60013336e-07  1.17405358e-07  2.70000000e-01 
 2.80000000e-01  4.58690743e-01  4.58690743e-01  4.58690743e-01  4.58690743e-01  3.27488274e-09  3.46368759e-09  4.58690743e-01  1.60013332e-07  1.17405168e-07  2.80000000e-01 
 2.90000000e-01  4.58690742e-01  4.58690742e-01  4.58690743e-01  4.58690743e-01  3.27488274e-09  3.46368759e-09  4.58690742e-01  1.60013342e-07  1.17405165e-07  2.90000000e-01 
 3.00000000e-01  4.58690765e-01  4.58690765e-01  4.58690765e-01  4.58690765e-01  3.27488275e-09  3.46368754e-09  4.58690765e-01  1.60013364e-07  1.17405055e-07  3.00000000e-01 
 3.10000000e-01  4.58690760e-01  4.58690760e-01  4.58690761e-01  4.58690761e-01  3.27488275e-09  3.46368754e-09  4.58690760e-01  1.60013370e-07  1.17404859e-07  3.10000000e-01 
 3.20000000e-01  4.58690753e-01  4.58690753e-01  4.58690754e-01  4.58690754e-01  3.27488275e-09  3.46368759e-09  4.58690753e-01  1.60013351e-07  1.17404650e-07  3.20000000e-01 
 3.30000000e-01  4.58690755e-01  4.58690755e-01  4.58690755e-01  4.58690755e-01  3.27488275e-09  3.46368759e-09  4.58690755e-01  1.60013356e-07  1.17404539e-07  3.30000000e-01 
 3.40000000e-01  4.58690771e-01  4.58690771e-01  4.58690771e-01  4.58690771e-01  3.27488275e-09  3.46368760e-09  4.58690771e-01  1.60013364e-07  1.17404571e-07  3.40000000e-01 
 3.50000000e-01  4.58690767e-01  4.58690767e-01  4.58690767e-01  4.58690767e-01  3.27488275e-09  3.46368760e-09  4.58690767e-01  1.60013366e-07  1.17404429e-07  3.50000000e-01 
 3.60000000e-01  4.58690740e-01  4.58690739e-01  4.58690740e-01  4.58690740e-01  3.27488274e-09  3.46368753e-09  4.58690740e-01  1.60013324e-07  1.17404326e-07  3.60000000e-01 
 3.70000000e-01  4.58690755e-01  4.58690755e-01  4.58690755e-01  4.58690755e-01  3.27488275e-09  3.46368754e-09  4.58690755e-01  1.60013353e-07  1.17404156e-07  3.70000000e-01 
 3.80000000e-01  4.58690748e-01  4.58690748e-01  4.58690748e-01  4.58690748e-01  3.27488274e-09  3.46368754e-09  4.58690748e-01  1.60013360e-07  1.17403975e-07  3.80000000e-01 
 3.90000000e-01  4.58690767e-01  4.58690767e-01  4.58690767e-01  4.58690767e-01  3.27488275e-09  3.46368754e-09  4.58690767e-01  1.60013367e-07  1.17404078e-07  3.90000000e-01 
 4.00000000e-01  4.58690770e-01  4.58690770e-01  4.58690770e-01  4.58690770e-01  3.27488275e-09  3.46368754e-09  4.58690770e-01  1.60013376e-07  1.17403960e-07  4.00000000e-01 
 4.10000000e-01  4.58690763e-01  4.58690763e-01  4.58690763e-01  4.58690763e-01  3.27488275e-09  3.46368760e-09  4.58690763e-01  1.60013369e-07  1.17403800e-07  4.10000000e-01 
 4.20000000e-01  4.58690745e-01  4.58690745e-01  4.58690745e-01  4.58690745e-01  3.27488274e-09  3.46368759e-09  4.58690745e-01  1.60013336e-07  1.17403591e-07  4.20000000e-01 
 4.30000000e-01  4.58690741e-01  4.58690741e-01  4.58690741e-01  4.58690741e-01  3.27488274e-09  3.46368753e-09  4.58690741e-01  1.60013341e-07  1.17403619e-07  4.30000000e-01 
 4.40000000e-01  4.58690740e-01  4.58690740e-01  4.58690740e-01  4.58690740e-01  3.27488274e-09  3.46368759e-09  4.58690740e-01  1.60013337e-07  1.17403513e-07  4.40000000e-01 
 4.50000000e-01  4.58690736e-01  4.58690736e-01  4.58690736e-01  4.58690736e-01  3.27488274e-09  3.46368759e-09  4.58690736e-01  1.60013335e-07  1.17403388e-07  4.50000000e-01 
 4.60000000e-01  4.58690735e-01  4.58690735e-01  4.58690735e-01  4.58690735e-01  3.27488274e-09  3.46368759e-09  4.58690735e-01  1.60013322e-07  1.17403253e-07  4.60000000e-01 
 4.70000000e-01  4.58690739e-01  4.58690739e-01  4.58690739e-01  4.58690739e-01  3.27488274e-09  3.46368753e-09  4.58690739e-01  1.60013342e-07  1.17403253e-07  4.70000000e-01 
 4.80000000e-01  4.58690750e-01  4.58690750e-01  4.58690751e-01  4.58690751e-01  3.27488274e-09  3.46368759e-09  4.58690750e-01  1.60013348e-07  1.17403218e-07  4.80000000e-01 
 4.90000000e-01  4.58690737e-01  4.58690737e-01  4.58690737e-01  4.58690737e-01  3.27488274e-09  3.46368753e-09  4.58690737e-01  1.60013340e-07  1.17403079e-07  4.90000000e-01 
 5.00000000e-01  4.58690744e-01  4.58690744e-01  4.58690744e-01  4.58690744e-01  3.27488274e-09  3.46368753e-09  4.58690744e-01  1.60013333e-07  1.17403015e-07  5.00000000e-01 
 5.10000000e-01  4.58690747e-01  4.58690747e-01  4.58690747e-01  4.58690747e-01  3.27488274e-09  3.46368759e-09  4.58690747e-01  1.60013340e-07  1.17402859e-07  5.10000000e-01 
 5.20000000e-01  4.58690762e-01  4.58690762e-01  4.58690762e-01  4.58690762e-01  3.27488275e-09  3.46368760e-09  4.58690762e-01  1.60013362e-07  1.17402891e-07  5.20000000e-01 
 5.30000000e-01  4.58690743e-01  4.58690743e-01  4.58690743e-01  4.58690743e-01  3.27488274e-09  3.46368759e-09  4.58690743e-01  1.60013349e-07  1.17402717e-07  5.30000000e-01 
 5.40000000e-01  4.58690765e-01  4.58690765e-01  4.58690765e-01  4.58690765e-01  3.27488275e-09  3.46368754e-09  4.58690765e-01  1.60013362e-07  1.17402806e-07  5.40000000e-01 
 5.50000000e-01  4.58690738e-01  4.58690738e-01  4.58690738e-01  4.58690738e-01  3.27488274e-09  3.46368759e-09  4.58690738e-01  1.60013324e-07  1.17402504e-07  5.50000000e-01 
 5.60000000e-01  4.58690744e-01  4.58690744e-01  4.58690744e-01  4.58690744e-01  3.27488274e-09  3.46368753e-09  4.58690744e-01  1.60013345e-07  1.17402362e-07  5.60000000e-01 
 5.70000000e-01  4.58690767e-01  4.58690766e-01  4.58690767e-01  4.58690767e-01  3.27488275e-09  3.46368760e-09  4.58690767e-01  1.60013364e-07  1.17402411e-07  5.70000000e-01 
 5.80000000e-01  4.58690747e-01  4.58690747e-01  4.58690747e-01  4.58690747e-01  3.27488274e-09  3.46368754e-09  4.58690747e-01  1.60013344e-07  1.17402308e-07  5.80000000e-01 
 5.90000000e-01  4.58690746e-01  4.58690746e-01  4.58690746e-01  4.58690746e-01  3.27488274e-09  3.46368754e-09  4.58690746e-01  1.60013345e-07  1.17402095e-07  5.90000000e-01 
 6.00000000e-01  4.58690745e-01  4.58690745e-01  4.58690745e-01  4.58690745e-01  3.27488274e-09  3.46368759e-09  4.58690745e-01  1.60013331e-07  1.17402180e-07  6.00000000e-01 
 6.10000000e-01  4.58690758e-01  4.58690758e-01  4.58690758e-01  4.58690758e-01  3.27488275e-09  3.46368760e-09  4.58690758e-01  1.60013358e-07  1.17402003e-07  6.10000000e-01 
 6.20000000e-01  4.58690762e-01  4.58690762e-01  4.58690762e-01  4.58690762e-01  3.27488275e-09  3.46368760e-09  4.58690762e-01  1.60013366e-07  1.17401989e-07  6.20000000e-01 
 6.30000000e-01  4.58690739e-01  4.58690739e-01  4.58690740e-01  4.58690740e-01  3.27488274e-09  3.46368753e-09  4.58690739e-01  1.60013330e-07  1.17401974e-07  6.30000000e-01 
 6.40000000e-01  4.58690747e-01  4.58690747e-01  4.58690747e-01  4.58690747e-01  3.27488274e-09  3.46368759e-09  4.58690747e-01  1.60013352e-07  1.17401754e-07  6.40000000e-01 
 6.50000000e-01  4.58690748e-01  4.58690748e-01  4.58690748e-01  4.58690748e-01  3.27488274e-09  3.46368754e-09  4.58690748e-01  1.60013347e-07  1.17401676e-07  6.50000000e-01 
 6.60000000e-01  4.58690783e-01  4.58690783e-01  4.58690784e-01  4.58690784e-01  3.27488275e-09  3.46368760e-09  4.58690783e-01  1.60013394e-07  1.17401662e-07  6.60000000e-01 
 6.70000000e-01  4.58690763e-01  4.58690763e-01  4.58690763e-01  4.58690763e-01  3.27488275e-09  3.46368754e-09  4.58690763e-01  1.60013367e-07  1.17401612e-07  6.70000000e-01 
 6.80000000e-01  4.58690748e-01  4.58690748e-01  4.58690748e-01  4.58690748e-01  3.27488274e-09  3.46368759e-09  4.58690748e-01  1.60013347e-07  1.17401463e-07  6.80000000e-01 
 6.90000000e-01  4.58690729e-01  4.58690729e-01  4.58690729e-01  4.58690729e-01  3.27488274e-09  3.46368753e-09  4.58690729e-01  1.60013320e-07  1.17401349e-07  6.90000000e-01 
 7.00000000e-01  4.58690754e-01  4.58690754e-01  4.58690754e-01  4.58690754e-01  3.27488275e-09  3.46368754e-09  4.58690754e-01  1.60013357e-07  1.17401406e-07  7.00000000e-01 
 7.10000000e-01  4.58690778e-01  4.58690778e-01  4.58690778e-01  4.58690778e-01  3.27488275e-09  3.46368754e-09  4.58690778e-01  1.60013379e-07  1.17401228e-07  7.10000000e-01 
 7.20000000e-01  4.58690743e-01  4.58690743e-01  4.58690743e-01  4.58690743e-01  3.27488274e-09  3.46368759e-09  4.58690743e-01  1.60013347e-07  1.17401079e-07  7.20000000e-01 
 7.30000000e-01  4.58690768e-01  4.58690768e-01  4.58690768e-01  4.58690768e-01  3.27488275e-09  3.46368754e-09  4.58690768e-01  1.60013379e-07  1.17401164e-07  7.30000000e-01 
 7.40000000e-01  4.58690731e-01  4.58690731e-01  4.58690731e-01  4.58690731e-01  3.27488274e-09  3.46368753e-09  4.58690731e-01  1.60013318e-07  1.17401022e-07  7.40000000e-01 
 7.50000000e-01  4.58690716e-01  4.58690716e-01  4.58690716e-01  4.58690716e-01  3.27488274e-09  3.46368753e-09  4.58690716e-01  1.60013309e-07  1.17400759e-07  7.50000000e-01 
 7.60000000e-01  4.58690741e-01  4.58690741e-01  4.58690741e-01  4.58690741e-01  3.27488274e-09  3.46368753e-09  4.58690741e-01  1.60013333e-07  1.17400809e-07  7.60000000e-01 
 7.70000000e-01  4.58690765e-01  4.58690765e-01  4.58690765e-01  4.58690765e-01  3.27488275e-09  3.46368760e-09  4.58690765e-01  1.60013363e-07  1.17400745e-07  7.70000000e-01 
 7.80000000e-01  4.58690779e-01  4.58690779e-01  4.58690780e-01  4.58690780e-01  3.27488275e-09  3.46368760e-09  4.58690779e-01  1.60013389e-07  1.17400695e-07  7.80000000e-01 
 7.90000000e-01  4.58690761e-01  4.58690761e-01  4.58690761e-01  4.58690761e-01  3.27488275e-09  3.46368754e-09  4.58690761e-01  1.60013372e-07  1.17400617e-07  7.90000000e-01 
 8.00000000e-01  4.58690757e-01  4.58690757e-01  4.58690757e-01  4.58690757e-01  3.27488275e-09  3.46368754e-09  4.58690757e-01  1.60013356e-07  1.17400482e-07  8.00000000e-01 
 8.10000000e-01  4.58690741e-01  4.58690741e-01  4.58690741e-01  4.58690741e-01  3.27488274e-09  3.46368753e-09  4.58690741e-01  1.60013331e-07  1.17400276e-07  8.10000000e-01 
 8.20000000e-01  4.58690735e-01  4.58690735e-01  4.58690735e-01  4.58690735e-01  3.27488274e-09  3.46368753e-09  4.58690735e-01  1.60013325e-07  1.17400191e-07  8.20000000e-01 
 8.30000000e-01  4.58690736e-01  4.58690736e-01  4.58690736e-01  4.58690736e-01  3.27488274e-09  3.46368753e-09  4.58690736e-01  1.60013331e-07  1.17400099e-07  8.30000000e-01 
 8.40000000e-01  4.58690765e-01  4.58690765e-01  4.58690766e-01  4.58690766e-01  3.27488275e-09  3.46368754e-09  4.58690765e-01  1.60013377e-07  1.17400170e-07  8.40000000e-01 
 8.50000000e-01  4.58690757e-01  4.58690757e-01  4.58690758e-01  4.58690758e-01  3.27488275e-09  3.46368754e-09  4.58690757e-01  1.60013357e-07  1.17400063e-07  8.50000000e-01 
 8.60000000e-01  4.58690739e-01  4.58690739e-01  4.58690739e-01  4.58690739e-01  3.27488274e-09  3.46368753e-09  4.58690739e-01  1.60013325e-07  1.17399871e-07  8.60000000e-01 
 8.70000000e-01  4.58690725e-01  4.58690724e-01  4.58690725e-01  4.58690725e-01  3.27488274e-09  3.46368759e-09  4.58690725e-01  1.60013314e-07  1.17399800e-07  8.70000000e-01 
 8.80000000e-01  4.58690748e-01  4.58690748e-01  4.58690748e-01  4.58690748e-01  3.27488274e-09  3.46368759e-09  4.58690748e-01  1.60013345e-07  1.17399686e-07  8.80000000e-01 
 8.90000000e-01  4.58690748e-01  4.58690748e-01  4.58690748e-01  4.58690748e-01  3.27488274e-09  3.46368759e-09  4.58690748e-01  1.60013350e-07  1.17399580e-07  8.90000000e-01 
 9.00000000e-01  4.58690754e-01  4.58690754e-01  4.58690754e-01  4.58690754e-01  3.27488275e-09  3.46368759e-09  4.58690754e-01  1.60013360e-07  1.17399551e-07  9.00000000e-01 
 9.10000000e-01  4.58690754e-01  4.58690754e-01  4.58690754e-01  4.58690754e-01  3.27488275e-09  3.46368754e-09  4.58690754e-01  1.60013354e-07  1.17399473e-07  9.10000000e-01 
 9.20000000e-01  4.58690764e-01  4.58690764e-01  4.58690765e-01  4.58690765e-01  3.27488275e-09  3.46368760e-09  4.58690764e-01  1.60013373e-07  1.17399402e-07  9.20000000e-01 
 9.30000000e-01  4.58690778e-01  4.58690778e-01  4.58690778e-01  4.58690778e-01  3.27488275e-09  3.46368754e-09  4.58690778e-01  1.60013384e-07  1.17399281e-07  9.30000000e-01 
 9.40000000e-01  4.58690756e-01  4.58690756e-01  4.58690756e-01  4.58690756e-01  3.27488275e-09  3.46368759e-09  4.58690756e-01  1.60013346e-07  1.17399139e-07  9.40000000e-01 
 9.50000000e-01  4.58690748e-01  4.58690748e-01  4.58690749e-01  4.58690748e-01  3.27488274e-09  3.46368759e-09  4.58690748e-01  1.60013340e-07  1.17399040e-07  9.50000000e-01 
 9.60000000e-01  4.58690751e-01  4.58690751e-01  4.58690751e-01  4.58690751e-01  3.27488274e-09  3.46368759e-09  4.58690751e-01  1.60013352e-07  1.17399104e-07  9.60000000e-01 
 9.70000000e-01  4.58690779e-01  4.58690779e-01  4.58690779e-01  4.58690779e-01  3.27488275e-09  3.46368754e-09  4.58690779e-01  1.60013381e-07  1.17399075e-07  9.70000000e-01 
 9.80000000e-01  4.58690745e-01  4.58690745e-01  4.58690745e-01  4.58690745e-01  3.27488274e-09  3.46368759e-09  4.58690745e-01  1.60013345e-07  1.17398933e-07  9.80000000e-01 
 9.90000000e-01  4.58690748e-01  4.58690748e-01  4.58690749e-01  4.58690749e-01  3.27488274e-09  3.46368754e-09  4.58690748e-01  1.60013352e-07  1.17398798e-07  9.90000000e-01 
 1.00000000e+00  4.58690773e-01  4.58690773e-01  4.58690773e-01  4.58690773e-01  3.27488275e-09  3.46368760e-09  4.58690773e-01  1.60013373e-07  1.17398628e-07  1.00000000e+00 
 1.01000000e+00  4.58690772e-01  4.58690772e-01  4.58690772e-01  4.58690772e-01  3.27488280e-09  3.46368754e-09  4.58690772e-01  1.60013390e-07  1.17398514e-07  1.01000000e+00 
 1.02000000e+00  4.58690771e-01  4.58690771e-01  4.58690771e-01  4.58690771e-01  3.27488275e-09  3.46368754e-09  4.58690771e-01  1.60013386e-07  1.17398450e-07  1.02000000e+00 
 1.03000000e+00  4.58690748e-01  4.58690748e-01  4.58690748e-01  4.58690748e-01  3.27488274e-09  3.46368759e-09  4.58690748e-01  1.60013362e-07  1.17398187e-07  1.03000000e+00 
 1.04000000e+00  4.58690733e-01  4.58690733e-01  4.58690733e-01  4.58690733e-01  3.27488274e-09  3.46368759e-09  4.58690733e-01  1.60013319e-07  1.17398109e-07  1.04000000e+00 
 1.05000000e+00  4.58690752e-01  4.58690752e-01  4.58690753e-01  4.58690752e-01  3.27488275e-09  3.46368754e-09  4.58690752e-01  1.60013347e-07  1.17398116e-07  1.05000000e+00 
 1.06000000e+00  4.58690758e-01  4.58690758e-01  4.58690759e-01  4.58690759e-01  3.27488275e-09  3.46368760e-09  4.58690758e-01  1.60013373e-07  1.17398201e-07  1.06000000e+00 
 1.07000000e+00  4.58690739e-01  4.58690739e-01  4.58690739e-01  4.58690739e-01  3.27488274e-09  3.46368753e-09  4.58690739e-01  1.60013318e-07  1.17397981e-07  1.07000000e+00 
 1.08000000e+00  4.58690743e-01  4.58690743e-01  4.58690743e-01  4.58690743e-01  3.27488274e-09  3.46368759e-09  4.58690743e-01  1.60013360e-07  1.17397725e-07  1.08000000e+00 
 1.09000000e+00  4.58690744e-01  4.58690744e-01  4.58690744e-01  4.58690744e-01  3.27488274e-09  3.46368753e-09  4.58690744e-01  1.60013338e-07  1.17397668e-07  1.09000000e+00 
 1.10000000e+00  4.58690770e-01  4.58690770e-01  4.58690770e-01  4.58690770e-01  3.27488275e-09  3.46368760e-09  4.58690770e-01  1.60013379e-07  1.17397796e-07  1.10000000e+00 
