 v-sweep         v(b0)           v(b1)           v(b2)           v(b3)           v(b4)           v(b5)           v(b6)           i(vbias)        i(viout)        v(vout)        
 0.00000000e+00  4.60757922e-01  4.60757922e-01  4.60757922e-01  3.54388352e-09  3.31362527e-09  3.38444626e-09  3.37936067e-09  1.62539671e-07  1.11359579e-08  0.00000000e+00 
 1.00000000e-02  4.60757933e-01  4.60757933e-01  4.60757933e-01  3.54388350e-09  3.31362530e-09  3.38444623e-09  3.37936071e-09  1.62539701e-07  1.11354396e-08  1.00000000e-02 
 2.00000000e-02  4.60757936e-01  4.60757936e-01  4.60757936e-01  3.54388350e-09  3.31362529e-09  3.38444624e-09  3.37936071e-09  1.62539701e-07  1.11351104e-08  2.00000000e-02 
 3.00000000e-02  4.60757931e-01  4.60757931e-01  4.60757931e-01  3.54388350e-09  3.31362530e-09  3.38444622e-09  3.37936071e-09  1.62539691e-07  1.11346967e-08  3.00000000e-02 
 4.00000000e-02  4.60757924e-01  4.60757924e-01  4.60757924e-01  3.54388349e-09  3.31362530e-09  3.38444624e-09  3.37936070e-09  1.62539667e-07  1.11344498e-08  4.00000000e-02 
 5.00000000e-02  4.60757938e-01  4.60757938e-01  4.60757938e-01  3.54388350e-09  3.31362530e-09  3.38444624e-09  3.37936071e-09  1.62539703e-07  1.11341718e-08  5.00000000e-02 
 6.00000000e-02  4.60757901e-01  4.60757901e-01  4.60757901e-01  3.54388349e-09  3.31362530e-09  3.38444623e-09  3.37936070e-09  1.62539644e-07  1.11337166e-08  6.00000000e-02 
 7.00000000e-02  4.60757915e-01  4.60757915e-01  4.60757915e-01  3.54388349e-09  3.31362530e-09  3.38444624e-09  3.37936070e-09  1.62539670e-07  1.11334999e-08  7.00000000e-02 
 8.00000000e-02  4.60757924e-01  4.60757924e-01  4.60757924e-01  3.54388349e-09  3.31362530e-09  3.38444624e-09  3.37936070e-09  1.62539685e-07  1.11331930e-08  8.00000000e-02 
 9.00000000e-02  4.60757905e-01  4.60757905e-01  4.60757905e-01  3.54388349e-09  3.31362535e-09  3.38444623e-09  3.37936070e-09  1.62539642e-07  1.11329337e-08  9.00000000e-02 
 1.00000000e-01  4.60757932e-01  4.60757932e-01  4.60757932e-01  3.54388350e-09  3.31362530e-09  3.38444624e-09  3.37936071e-09  1.62539695e-07  1.11325962e-08  1.00000000e-01 
 1.10000000e-01  4.60757917e-01  4.60757917e-01  4.60757917e-01  3.54388349e-09  3.31362535e-09  3.38444624e-09  3.37936070e-09  1.62539668e-07  1.11324532e-08  1.10000000e-01 
 1.20000000e-01  4.60757933e-01  4.60757933e-01  4.60757933e-01  3.54388350e-09  3.31362530e-09  3.38444624e-09  3.37936071e-09  1.62539683e-07  1.11322072e-08  1.20000000e-01 
 1.30000000e-01  4.60757901e-01  4.60757901e-01  4.60757901e-01  3.54388349e-09  3.31362530e-09  3.38444623e-09  3.37936070e-09  1.62539646e-07  1.11319469e-08  1.30000000e-01 
 1.40000000e-01  4.60757918e-01  4.60757918e-01  4.60757918e-01  3.54388349e-09  3.31362530e-09  3.38444624e-09  3.37936070e-09  1.62539664e-07  1.11318004e-08  1.40000000e-01 
 1.50000000e-01  4.60757927e-01  4.60757927e-01  4.60757927e-01  3.54388349e-09  3.31362530e-09  3.38444624e-09  3.37936070e-09  1.62539678e-07  1.11314993e-08  1.50000000e-01 
 1.60000000e-01  4.60757926e-01  4.60757927e-01  4.60757927e-01  3.54388349e-09  3.31362530e-09  3.38444624e-09  3.37936070e-09  1.62539687e-07  1.11314904e-08  1.60000000e-01 
 1.70000000e-01  4.60757933e-01  4.60757933e-01  4.60757933e-01  3.54388350e-09  3.31362530e-09  3.38444624e-09  3.37936071e-09  1.62539689e-07  1.11312790e-08  1.70000000e-01 
 1.80000000e-01  4.60757932e-01  4.60757932e-01  4.60757932e-01  3.54388350e-09  3.31362530e-09  3.38444624e-09  3.37936071e-09  1.62539693e-07  1.11310143e-08  1.80000000e-01 
 1.90000000e-01  4.60757914e-01  4.60757914e-01  4.60757914e-01  3.54388349e-09  3.31362535e-09  3.38444624e-09  3.37936070e-09  1.62539662e-07  1.11309113e-08  1.90000000e-01 
 2.00000000e-01  4.60757917e-01  4.60757917e-01  4.60757917e-01  3.54388349e-09  3.31362530e-09  3.38444624e-09  3.37936076e-09  1.62539672e-07  1.11307088e-08  2.00000000e-01 
 2.10000000e-01  4.60757936e-01  4.60757936e-01  4.60757936e-01  3.54388350e-09  3.31362530e-09  3.38444624e-09  3.37936069e-09  1.62539700e-07  1.11306484e-08  2.10000000e-01 
 2.20000000e-01  4.60757922e-01  4.60757922e-01  4.60757922e-01  3.54388349e-09  3.31362535e-09  3.38444624e-09  3.37936071e-09  1.62539661e-07  1.11305507e-08  2.20000000e-01 
 2.30000000e-01  4.60757926e-01  4.60757926e-01  4.60757926e-01  3.54388349e-09  3.31362530e-09  3.38444624e-09  3.37936070e-09  1.62539686e-07  1.11304033e-08  2.30000000e-01 
 2.40000000e-01  4.60757929e-01  4.60757929e-01  4.60757929e-01  3.54388350e-09  3.31362530e-09  3.38444624e-09  3.37936070e-09  1.62539685e-07  1.11302132e-08  2.40000000e-01 
 2.50000000e-01  4.60757941e-01  4.60757941e-01  4.60757941e-01  3.54388350e-09  3.31362530e-09  3.38444624e-09  3.37936071e-09  1.62539706e-07  1.11300444e-08  2.50000000e-01 
 2.60000000e-01  4.60757909e-01  4.60757909e-01  4.60757909e-01  3.54388349e-09  3.31362530e-09  3.38444624e-09  3.37936070e-09  1.62539653e-07  1.11299840e-08  2.60000000e-01 
 2.70000000e-01  4.60757933e-01  4.60757933e-01  4.60757933e-01  3.54388350e-09  3.31362530e-09  3.38444624e-09  3.37936071e-09  1.62539685e-07  1.11299219e-08  2.70000000e-01 
 2.80000000e-01  4.60757919e-01  4.60757919e-01  4.60757919e-01  3.54388349e-09  3.31362530e-09  3.38444624e-09  3.37936070e-09  1.62539669e-07  1.11296909e-08  2.80000000e-01 
 2.90000000e-01  4.60757918e-01  4.60757918e-01  4.60757918e-01  3.54388349e-09  3.31362530e-09  3.38444624e-09  3.37936070e-09  1.62539668e-07  1.11296750e-08  2.90000000e-01 
 3.00000000e-01  4.60757924e-01  4.60757924e-01  4.60757924e-01  3.54388349e-09  3.31362530e-09  3.38444624e-09  3.37936070e-09  1.62539664e-07  1.11296572e-08  3.00000000e-01 
 3.10000000e-01  4.60757911e-01  4.60757911e-01  4.60757911e-01  3.54388349e-09  3.31362530e-09  3.38444624e-09  3.37936070e-09  1.62539652e-07  1.11295400e-08  3.10000000e-01 
 3.20000000e-01  4.60757930e-01  4.60757930e-01  4.60757930e-01  3.54388344e-09  3.31362530e-09  3.38444624e-09  3.37936071e-09  1.62539691e-07  1.11293446e-08  3.20000000e-01 
 3.30000000e-01  4.60757916e-01  4.60757916e-01  4.60757916e-01  3.54388351e-09  3.31362530e-09  3.38444624e-09  3.37936070e-09  1.62539656e-07  1.11292771e-08  3.30000000e-01 
 3.40000000e-01  4.60757932e-01  4.60757932e-01  4.60757932e-01  3.54388349e-09  3.31362530e-09  3.38444624e-09  3.37936071e-09  1.62539702e-07  1.11292771e-08  3.40000000e-01 
 3.50000000e-01  4.60757913e-01  4.60757913e-01  4.60757913e-01  3.54388349e-09  3.31362530e-09  3.38444624e-09  3.37936070e-09  1.62539647e-07  1.11290461e-08  3.50000000e-01 
 3.60000000e-01  4.60757944e-01  4.60757944e-01  4.60757944e-01  3.54388350e-09  3.31362530e-09  3.38444624e-09  3.37936071e-09  1.62539708e-07  1.11289609e-08  3.60000000e-01 
 3.70000000e-01  4.60757913e-01  4.60757913e-01  4.60757913e-01  3.54388349e-09  3.31362530e-09  3.38444624e-09  3.37936070e-09  1.62539661e-07  1.11290497e-08  3.70000000e-01 
 3.80000000e-01  4.60757923e-01  4.60757923e-01  4.60757923e-01  3.54388349e-09  3.31362530e-09  3.38444624e-09  3.37936070e-09  1.62539676e-07  1.11287655e-08  3.80000000e-01 
 3.90000000e-01  4.60757924e-01  4.60757924e-01  4.60757924e-01  3.54388349e-09  3.31362535e-09  3.38444624e-09  3.37936070e-09  1.62539671e-07  1.11288010e-08  3.90000000e-01 
 4.00000000e-01  4.60757943e-01  4.60757943e-01  4.60757943e-01  3.54388350e-09  3.31362530e-09  3.38444624e-09  3.37936071e-09  1.62539707e-07  1.11287406e-08  4.00000000e-01 
 4.10000000e-01  4.60757914e-01  4.60757914e-01  4.60757914e-01  3.54388349e-09  3.31362530e-09  3.38444624e-09  3.37936070e-09  1.62539654e-07  1.11285914e-08  4.10000000e-01 
 4.20000000e-01  4.60757922e-01  4.60757922e-01  4.60757922e-01  3.54388349e-09  3.31362530e-09  3.38444624e-09  3.37936070e-09  1.62539680e-07  1.11286589e-08  4.20000000e-01 
 4.30000000e-01  4.60757921e-01  4.60757921e-01  4.60757921e-01  3.54388349e-09  3.31362530e-09  3.38444624e-09  3.37936070e-09  1.62539680e-07  1.11284848e-08  4.30000000e-01 
 4.40000000e-01  4.60757922e-01  4.60757922e-01  4.60757922e-01  3.54388349e-09  3.31362530e-09  3.38444624e-09  3.37936070e-09  1.62539677e-07  1.11284066e-08  4.40000000e-01 
 4.50000000e-01  4.60757921e-01  4.60757921e-01  4.60757921e-01  3.54388349e-09  3.31362530e-09  3.38444624e-09  3.37936070e-09  1.62539679e-07  1.11283605e-08  4.50000000e-01 
 4.60000000e-01  4.60757905e-01  4.60757905e-01  4.60757905e-01  3.54388349e-09  3.31362530e-09  3.38444623e-09  3.37936070e-09  1.62539634e-07  1.11282894e-08  4.60000000e-01 
 4.70000000e-01  4.60757907e-01  4.60757907e-01  4.60757907e-01  3.54388349e-09  3.31362530e-09  3.38444623e-09  3.37936070e-09  1.62539657e-07  1.11281757e-08  4.70000000e-01 
 4.80000000e-01  4.60757929e-01  4.60757929e-01  4.60757929e-01  3.54388350e-09  3.31362535e-09  3.38444624e-09  3.37936070e-09  1.62539685e-07  1.11281153e-08  4.80000000e-01 
 4.90000000e-01  4.60757921e-01  4.60757921e-01  4.60757921e-01  3.54388349e-09  3.31362530e-09  3.38444624e-09  3.37936070e-09  1.62539670e-07  1.11281295e-08  4.90000000e-01 
 5.00000000e-01  4.60757925e-01  4.60757925e-01  4.60757925e-01  3.54388349e-09  3.31362530e-09  3.38444624e-09  3.37936070e-09  1.62539680e-07  1.11280691e-08  5.00000000e-01 
 5.10000000e-01  4.60757940e-01  4.60757940e-01  4.60757940e-01  3.54388350e-09  3.31362530e-09  3.38444624e-09  3.37936071e-09  1.62539711e-07  1.11279981e-08  5.10000000e-01 
 5.20000000e-01  4.60757919e-01  4.60757919e-01  4.60757919e-01  3.54388349e-09  3.31362535e-09  3.38444624e-09  3.37936070e-09  1.62539665e-07  1.11279128e-08  5.20000000e-01 
 5.30000000e-01  4.60757947e-01  4.60757947e-01  4.60757947e-01  3.54388350e-09  3.31362530e-09  3.38444624e-09  3.37936071e-09  1.62539697e-07  1.11279057e-08  5.30000000e-01 
 5.40000000e-01  4.60757901e-01  4.60757901e-01  4.60757901e-01  3.54388349e-09  3.31362530e-09  3.38444623e-09  3.37936070e-09  1.62539636e-07  1.11278062e-08  5.40000000e-01 
 5.50000000e-01  4.60757927e-01  4.60757927e-01  4.60757927e-01  3.54388349e-09  3.31362530e-09  3.38444624e-09  3.37936070e-09  1.62539683e-07  1.11278347e-08  5.50000000e-01 
 5.60000000e-01  4.60757907e-01  4.60757907e-01  4.60757907e-01  3.54388349e-09  3.31362530e-09  3.38444623e-09  3.37936076e-09  1.62539643e-07  1.11277210e-08  5.60000000e-01 
 5.70000000e-01  4.60757925e-01  4.60757925e-01  4.60757925e-01  3.54388349e-09  3.31362530e-09  3.38444624e-09  3.37936069e-09  1.62539689e-07  1.11276748e-08  5.70000000e-01 
 5.80000000e-01  4.60757923e-01  4.60757923e-01  4.60757923e-01  3.54388349e-09  3.31362530e-09  3.38444624e-09  3.37936071e-09  1.62539677e-07  1.11276890e-08  5.80000000e-01 
 5.90000000e-01  4.60757925e-01  4.60757926e-01  4.60757925e-01  3.54388349e-09  3.31362530e-09  3.38444624e-09  3.37936070e-09  1.62539691e-07  1.11275185e-08  5.90000000e-01 
 6.00000000e-01  4.60757910e-01  4.60757910e-01  4.60757910e-01  3.54388349e-09  3.31362530e-09  3.38444624e-09  3.37936070e-09  1.62539670e-07  1.11274900e-08  6.00000000e-01 
 6.10000000e-01  4.60757938e-01  4.60757938e-01  4.60757938e-01  3.54388350e-09  3.31362530e-09  3.38444624e-09  3.37936071e-09  1.62539696e-07  1.11274971e-08  6.10000000e-01 
 6.20000000e-01  4.60757914e-01  4.60757914e-01  4.60757914e-01  3.54388349e-09  3.31362530e-09  3.38444624e-09  3.37936070e-09  1.62539667e-07  1.11274332e-08  6.20000000e-01 
 6.30000000e-01  4.60757932e-01  4.60757932e-01  4.60757932e-01  3.54388350e-09  3.31362535e-09  3.38444624e-09  3.37936071e-09  1.62539687e-07  1.11272769e-08  6.30000000e-01 
 6.40000000e-01  4.60757922e-01  4.60757922e-01  4.60757922e-01  3.54388349e-09  3.31362530e-09  3.38444624e-09  3.37936070e-09  1.62539681e-07  1.11272982e-08  6.40000000e-01 
 6.50000000e-01  4.60757915e-01  4.60757915e-01  4.60757915e-01  3.54388349e-09  3.31362530e-09  3.38444624e-09  3.37936070e-09  1.62539671e-07  1.11272414e-08  6.50000000e-01 
 6.60000000e-01  4.60757917e-01  4.60757917e-01  4.60757917e-01  3.54388349e-09  3.31362530e-09  3.38444624e-09  3.37936076e-09  1.62539673e-07  1.11272271e-08  6.60000000e-01 
 6.70000000e-01  4.60757943e-01  4.60757943e-01  4.60757943e-01  3.54388350e-09  3.31362530e-09  3.38444624e-09  3.37936069e-09  1.62539721e-07  1.11272058e-08  6.70000000e-01 
 6.80000000e-01  4.60757908e-01  4.60757908e-01  4.60757908e-01  3.54388349e-09  3.31362530e-09  3.38444624e-09  3.37936071e-09  1.62539655e-07  1.11271703e-08  6.80000000e-01 
 6.90000000e-01  4.60757919e-01  4.60757919e-01  4.60757919e-01  3.54388349e-09  3.31362530e-09  3.38444624e-09  3.37936070e-09  1.62539664e-07  1.11271063e-08  6.90000000e-01 
 7.00000000e-01  4.60757930e-01  4.60757931e-01  4.60757930e-01  3.54388350e-09  3.31362535e-09  3.38444624e-09  3.37936071e-09  1.62539686e-07  1.11271348e-08  7.00000000e-01 
 7.10000000e-01  4.60757923e-01  4.60757923e-01  4.60757923e-01  3.54388349e-09  3.31362530e-09  3.38444624e-09  3.37936070e-09  1.62539690e-07  1.11270211e-08  7.10000000e-01 
 7.20000000e-01  4.60757913e-01  4.60757913e-01  4.60757913e-01  3.54388349e-09  3.31362530e-09  3.38444624e-09  3.37936070e-09  1.62539668e-07  1.11268577e-08  7.20000000e-01 
 7.30000000e-01  4.60757939e-01  4.60757939e-01  4.60757939e-01  3.54388350e-09  3.31362530e-09  3.38444624e-09  3.37936071e-09  1.62539708e-07  1.11269003e-08  7.30000000e-01 
 7.40000000e-01  4.60757921e-01  4.60757921e-01  4.60757921e-01  3.54388349e-09  3.31362530e-09  3.38444624e-09  3.37936070e-09  1.62539659e-07  1.11268434e-08  7.40000000e-01 
 7.50000000e-01  4.60757949e-01  4.60757949e-01  4.60757949e-01  3.54388350e-09  3.31362530e-09  3.38444624e-09  3.37936071e-09  1.62539705e-07  1.11266729e-08  7.50000000e-01 
 7.60000000e-01  4.60757919e-01  4.60757919e-01  4.60757919e-01  3.54388349e-09  3.31362530e-09  3.38444624e-09  3.37936070e-09  1.62539653e-07  1.11267795e-08  7.60000000e-01 
 7.70000000e-01  4.60757932e-01  4.60757932e-01  4.60757932e-01  3.54388350e-09  3.31362530e-09  3.38444624e-09  3.37936071e-09  1.62539687e-07  1.11266232e-08  7.70000000e-01 
 7.80000000e-01  4.60757906e-01  4.60757906e-01  4.60757906e-01  3.54388349e-09  3.31362530e-09  3.38444623e-09  3.37936070e-09  1.62539664e-07  1.11265166e-08  7.80000000e-01 
 7.90000000e-01  4.60757903e-01  4.60757904e-01  4.60757903e-01  3.54388349e-09  3.31362530e-09  3.38444623e-09  3.37936070e-09  1.62539648e-07  1.11263816e-08  7.90000000e-01 
 8.00000000e-01  4.60757924e-01  4.60757924e-01  4.60757924e-01  3.54388349e-09  3.31362530e-09  3.38444624e-09  3.37936070e-09  1.62539674e-07  1.11265592e-08  8.00000000e-01 
 8.10000000e-01  4.60757926e-01  4.60757926e-01  4.60757926e-01  3.54388349e-09  3.31362530e-09  3.38444624e-09  3.37936076e-09  1.62539679e-07  1.11264882e-08  8.10000000e-01 
 8.20000000e-01  4.60757918e-01  4.60757918e-01  4.60757918e-01  3.54388349e-09  3.31362535e-09  3.38444624e-09  3.37936069e-09  1.62539672e-07  1.11264313e-08  8.20000000e-01 
 8.30000000e-01  4.60757909e-01  4.60757909e-01  4.60757909e-01  3.54388349e-09  3.31362530e-09  3.38444624e-09  3.37936071e-09  1.62539648e-07  1.11263887e-08  8.30000000e-01 
 8.40000000e-01  4.60757942e-01  4.60757942e-01  4.60757942e-01  3.54388350e-09  3.31362530e-09  3.38444624e-09  3.37936071e-09  1.62539712e-07  1.11263745e-08  8.40000000e-01 
 8.50000000e-01  4.60757925e-01  4.60757925e-01  4.60757925e-01  3.54388349e-09  3.31362535e-09  3.38444624e-09  3.37936070e-09  1.62539680e-07  1.11263176e-08  8.50000000e-01 
 8.60000000e-01  4.60757926e-01  4.60757926e-01  4.60757926e-01  3.54388349e-09  3.31362530e-09  3.38444624e-09  3.37936070e-09  1.62539680e-07  1.11262537e-08  8.60000000e-01 
 8.70000000e-01  4.60757929e-01  4.60757929e-01  4.60757929e-01  3.54388350e-09  3.31362530e-09  3.38444624e-09  3.37936070e-09  1.62539690e-07  1.11260476e-08  8.70000000e-01 
 8.80000000e-01  4.60757925e-01  4.60757925e-01  4.60757925e-01  3.54388349e-09  3.31362530e-09  3.38444624e-09  3.37936070e-09  1.62539686e-07  1.11260618e-08  8.80000000e-01 
 8.90000000e-01  4.60757924e-01  4.60757924e-01  4.60757924e-01  3.54388349e-09  3.31362530e-09  3.38444624e-09  3.37936070e-09  1.62539679e-07  1.11260974e-08  8.90000000e-01 
 9.00000000e-01  4.60757921e-01  4.60757921e-01  4.60757921e-01  3.54388349e-09  3.31362530e-09  3.38444624e-09  3.37936076e-09  1.62539673e-07  1.11258558e-08  9.00000000e-01 
 9.10000000e-01  4.60757898e-01  4.60757898e-01  4.60757898e-01  3.54388349e-09  3.31362530e-09  3.38444623e-09  3.37936075e-09  1.62539643e-07  1.11259340e-08  9.10000000e-01 
 9.20000000e-01  4.60757912e-01  4.60757912e-01  4.60757912e-01  3.54388349e-09  3.31362530e-09  3.38444624e-09  3.37936065e-09  1.62539649e-07  1.11259055e-08  9.20000000e-01 
 9.30000000e-01  4.60757922e-01  4.60757922e-01  4.60757922e-01  3.54388349e-09  3.31362530e-09  3.38444624e-09  3.37936070e-09  1.62539689e-07  1.11258558e-08  9.30000000e-01 
 9.40000000e-01  4.60757904e-01  4.60757904e-01  4.60757904e-01  3.54388349e-09  3.31362530e-09  3.38444623e-09  3.37936070e-09  1.62539646e-07  1.11257137e-08  9.40000000e-01 
 9.50000000e-01  4.60757922e-01  4.60757922e-01  4.60757922e-01  3.54388349e-09  3.31362530e-09  3.38444624e-09  3.37936070e-09  1.62539688e-07  1.11257208e-08  9.50000000e-01 
 9.60000000e-01  4.60757935e-01  4.60757935e-01  4.60757935e-01  3.54388350e-09  3.31362530e-09  3.38444624e-09  3.37936071e-09  1.62539697e-07  1.11257066e-08  9.60000000e-01 
 9.70000000e-01  4.60757903e-01  4.60757903e-01  4.60757903e-01  3.54388349e-09  3.31362530e-09  3.38444623e-09  3.37936070e-09  1.62539655e-07  1.11255645e-08  9.70000000e-01 
 9.80000000e-01  4.60757900e-01  4.60757900e-01  4.60757900e-01  3.54388349e-09  3.31362530e-09  3.38444623e-09  3.37936070e-09  1.62539640e-07  1.11255716e-08  9.80000000e-01 
 9.90000000e-01  4.60757929e-01  4.60757929e-01  4.60757929e-01  3.54388350e-09  3.31362530e-09  3.38444624e-09  3.37936070e-09  1.62539681e-07  1.11254863e-08  9.90000000e-01 
 1.00000000e+00  4.60757939e-01  4.60757939e-01  4.60757939e-01  3.54388350e-09  3.31362530e-09  3.38444624e-09  3.37936071e-09  1.62539698e-07  1.11253016e-08  1.00000000e+00 
 1.01000000e+00  4.60757919e-01  4.60757919e-01  4.60757919e-01  3.54388349e-09  3.31362530e-09  3.38444624e-09  3.37936070e-09  1.62539667e-07  1.11254153e-08  1.01000000e+00 
 1.02000000e+00  4.60757934e-01  4.60757934e-01  4.60757934e-01  3.54388350e-09  3.31362530e-09  3.38444624e-09  3.37936071e-09  1.62539700e-07  1.11253300e-08  1.02000000e+00 
 1.03000000e+00  4.60757909e-01  4.60757909e-01  4.60757909e-01  3.54388349e-09  3.31362530e-09  3.38444624e-09  3.37936070e-09  1.62539650e-07  1.11253442e-08  1.03000000e+00 
 1.04000000e+00  4.60757923e-01  4.60757923e-01  4.60757923e-01  3.54388349e-09  3.31362530e-09  3.38444624e-09  3.37936070e-09  1.62539682e-07  1.11252447e-08  1.04000000e+00 
 1.05000000e+00  4.60757914e-01  4.60757914e-01  4.60757914e-01  3.54388349e-09  3.31362530e-09  3.38444624e-09  3.37936070e-09  1.62539675e-07  1.11252376e-08  1.05000000e+00 
 1.06000000e+00  4.60757933e-01  4.60757933e-01  4.60757933e-01  3.54388350e-09  3.31362530e-09  3.38444624e-09  3.37936071e-09  1.62539681e-07  1.11251737e-08  1.06000000e+00 
 1.07000000e+00  4.60757912e-01  4.60757912e-01  4.60757912e-01  3.54388349e-09  3.31362530e-09  3.38444624e-09  3.37936070e-09  1.62539666e-07  1.11251310e-08  1.07000000e+00 
 1.08000000e+00  4.60757914e-01  4.60757914e-01  4.60757914e-01  3.54388349e-09  3.31362530e-09  3.38444624e-09  3.37936070e-09  1.62539665e-07  1.11248752e-08  1.08000000e+00 
 1.09000000e+00  4.60757922e-01  4.60757922e-01  4.60757922e-01  3.54388349e-09  3.31362530e-09  3.38444624e-09  3.37936070e-09  1.62539676e-07  1.11248184e-08  1.09000000e+00 
 1.10000000e+00  4.60757932e-01  4.60757933e-01  4.60757932e-01  3.54388350e-09  3.31362530e-09  3.38444624e-09  3.37936071e-09  1.62539693e-07  1.11248468e-08  1.10000000e+00 
