 v-sweep         v(b0)           v(b1)           v(b2)           v(b3)           v(b4)           v(b5)           v(b6)           i(vbias)        i(viout)        v(vout)        
 0.00000000e+00  4.57586119e-01  3.13393338e-09  4.57586118e-01  3.21041992e-09  4.57586118e-01  4.57586118e-01  4.57586118e-01  1.58719302e-07  1.66809015e-07  0.00000000e+00 
 1.00000000e-02  4.57586116e-01  3.13393329e-09  4.57586116e-01  3.21041995e-09  4.57586116e-01  4.57586116e-01  4.57586116e-01  1.58719282e-07  1.66808623e-07  1.00000000e-02 
 2.00000000e-02  4.57586130e-01  3.13393335e-09  4.57586130e-01  3.21041995e-09  4.57586130e-01  4.57586130e-01  4.57586130e-01  1.58719306e-07  1.66808267e-07  2.00000000e-02 
 3.00000000e-02  4.57586133e-01  3.13393329e-09  4.57586133e-01  3.21041990e-09  4.57586133e-01  4.57586133e-01  4.57586133e-01  1.58719326e-07  1.66807772e-07  3.00000000e-02 
 4.00000000e-02  4.57586122e-01  3.13393329e-09  4.57586122e-01  3.21041990e-09  4.57586122e-01  4.57586122e-01  4.57586122e-01  1.58719314e-07  1.66807307e-07  4.00000000e-02 
 5.00000000e-02  4.57586144e-01  3.13393335e-09  4.57586144e-01  3.21041990e-09  4.57586144e-01  4.57586144e-01  4.57586144e-01  1.58719350e-07  1.66807009e-07  5.00000000e-02 
 6.00000000e-02  4.57586117e-01  3.13393335e-09  4.57586117e-01  3.21041990e-09  4.57586117e-01  4.57586117e-01  4.57586117e-01  1.58719306e-07  1.66806612e-07  6.00000000e-02 
 7.00000000e-02  4.57586129e-01  3.13393329e-09  4.57586128e-01  3.21041995e-09  4.57586128e-01  4.57586128e-01  4.57586128e-01  1.58719316e-07  1.66806274e-07  7.00000000e-02 
 8.00000000e-02  4.57586138e-01  3.13393335e-09  4.57586137e-01  3.21041990e-09  4.57586137e-01  4.57586137e-01  4.57586137e-01  1.58719332e-07  1.66805963e-07  8.00000000e-02 
 9.00000000e-02  4.57586113e-01  3.13393335e-09  4.57586113e-01  3.21041990e-09  4.57586113e-01  4.57586113e-01  4.57586113e-01  1.58719292e-07  1.66805497e-07  9.00000000e-02 
 1.00000000e-01  4.57586108e-01  3.13393335e-09  4.57586108e-01  3.21041990e-09  4.57586108e-01  4.57586108e-01  4.57586108e-01  1.58719280e-07  1.66805223e-07  1.00000000e-01 
 1.10000000e-01  4.57586114e-01  3.13393335e-09  4.57586113e-01  3.21041990e-09  4.57586113e-01  4.57586113e-01  4.57586114e-01  1.58719276e-07  1.66804923e-07  1.10000000e-01 
 1.20000000e-01  4.57586139e-01  3.13393335e-09  4.57586139e-01  3.21041990e-09  4.57586139e-01  4.57586139e-01  4.57586139e-01  1.58719327e-07  1.66804734e-07  1.20000000e-01 
 1.30000000e-01  4.57586127e-01  3.13393335e-09  4.57586127e-01  3.21041995e-09  4.57586127e-01  4.57586127e-01  4.57586127e-01  1.58719317e-07  1.66804361e-07  1.30000000e-01 
 1.40000000e-01  4.57586132e-01  3.13393335e-09  4.57586132e-01  3.21041995e-09  4.57586132e-01  4.57586132e-01  4.57586132e-01  1.58719326e-07  1.66804265e-07  1.40000000e-01 
 1.50000000e-01  4.57586108e-01  3.13393329e-09  4.57586108e-01  3.21041990e-09  4.57586108e-01  4.57586108e-01  4.57586108e-01  1.58719294e-07  1.66803694e-07  1.50000000e-01 
 1.60000000e-01  4.57586124e-01  3.13393329e-09  4.57586123e-01  3.21041990e-09  4.57586123e-01  4.57586123e-01  4.57586123e-01  1.58719314e-07  1.66803691e-07  1.60000000e-01 
 1.70000000e-01  4.57586120e-01  3.13393335e-09  4.57586119e-01  3.21041990e-09  4.57586119e-01  4.57586119e-01  4.57586120e-01  1.58719308e-07  1.66803391e-07  1.70000000e-01 
 1.80000000e-01  4.57586125e-01  3.13393335e-09  4.57586125e-01  3.21041990e-09  4.57586125e-01  4.57586125e-01  4.57586125e-01  1.58719314e-07  1.66803050e-07  1.80000000e-01 
 1.90000000e-01  4.57586151e-01  3.13393329e-09  4.57586151e-01  3.21041996e-09  4.57586151e-01  4.57586151e-01  4.57586151e-01  1.58719344e-07  1.66802929e-07  1.90000000e-01 
 2.00000000e-01  4.57586142e-01  3.13393335e-09  4.57586141e-01  3.21041990e-09  4.57586141e-01  4.57586141e-01  4.57586142e-01  1.58719342e-07  1.66802712e-07  2.00000000e-01 
 2.10000000e-01  4.57586132e-01  3.13393335e-09  4.57586132e-01  3.21041995e-09  4.57586132e-01  4.57586132e-01  4.57586132e-01  1.58719319e-07  1.66802565e-07  2.10000000e-01 
 2.20000000e-01  4.57586145e-01  3.13393335e-09  4.57586145e-01  3.21041990e-09  4.57586145e-01  4.57586145e-01  4.57586145e-01  1.58719348e-07  1.66802332e-07  2.20000000e-01 
 2.30000000e-01  4.57586143e-01  3.13393329e-09  4.57586143e-01  3.21041995e-09  4.57586143e-01  4.57586143e-01  4.57586143e-01  1.58719352e-07  1.66802101e-07  2.30000000e-01 
 2.40000000e-01  4.57586137e-01  3.13393335e-09  4.57586137e-01  3.21041990e-09  4.57586137e-01  4.57586137e-01  4.57586137e-01  1.58719339e-07  1.66801959e-07  2.40000000e-01 
 2.50000000e-01  4.57586149e-01  3.13393329e-09  4.57586148e-01  3.21041995e-09  4.57586148e-01  4.57586148e-01  4.57586148e-01  1.58719340e-07  1.66801797e-07  2.50000000e-01 
 2.60000000e-01  4.57586129e-01  3.13393329e-09  4.57586128e-01  3.21041990e-09  4.57586128e-01  4.57586128e-01  4.57586128e-01  1.58719324e-07  1.66801524e-07  2.60000000e-01 
 2.70000000e-01  4.57586140e-01  3.13393329e-09  4.57586140e-01  3.21041995e-09  4.57586140e-01  4.57586140e-01  4.57586140e-01  1.58719314e-07  1.66801364e-07  2.70000000e-01 
 2.80000000e-01  4.57586157e-01  3.13393335e-09  4.57586156e-01  3.21041990e-09  4.57586156e-01  4.57586156e-01  4.57586156e-01  1.58719370e-07  1.66801303e-07  2.80000000e-01 
 2.90000000e-01  4.57586128e-01  3.13393335e-09  4.57586128e-01  3.21041995e-09  4.57586128e-01  4.57586128e-01  4.57586128e-01  1.58719321e-07  1.66800994e-07  2.90000000e-01 
 3.00000000e-01  4.57586106e-01  3.13393335e-09  4.57586106e-01  3.21041990e-09  4.57586106e-01  4.57586106e-01  4.57586106e-01  1.58719262e-07  1.66800710e-07  3.00000000e-01 
 3.10000000e-01  4.57586129e-01  3.13393329e-09  4.57586129e-01  3.21041990e-09  4.57586129e-01  4.57586129e-01  4.57586129e-01  1.58719314e-07  1.66800639e-07  3.10000000e-01 
 3.20000000e-01  4.57586128e-01  3.13393329e-09  4.57586127e-01  3.21041995e-09  4.57586127e-01  4.57586127e-01  4.57586127e-01  1.58719315e-07  1.66800604e-07  3.20000000e-01 
 3.30000000e-01  4.57586145e-01  3.13393335e-09  4.57586145e-01  3.21041990e-09  4.57586145e-01  4.57586145e-01  4.57586145e-01  1.58719336e-07  1.66800401e-07  3.30000000e-01 
 3.40000000e-01  4.57586102e-01  3.13393329e-09  4.57586101e-01  3.21041989e-09  4.57586101e-01  4.57586101e-01  4.57586101e-01  1.58719292e-07  1.66800149e-07  3.40000000e-01 
 3.50000000e-01  4.57586116e-01  3.13393335e-09  4.57586115e-01  3.21041990e-09  4.57586115e-01  4.57586115e-01  4.57586116e-01  1.58719290e-07  1.66799996e-07  3.50000000e-01 
 3.60000000e-01  4.57586112e-01  3.13393335e-09  4.57586112e-01  3.21041995e-09  4.57586112e-01  4.57586112e-01  4.57586112e-01  1.58719299e-07  1.66799889e-07  3.60000000e-01 
 3.70000000e-01  4.57586150e-01  3.13393335e-09  4.57586149e-01  3.21041990e-09  4.57586149e-01  4.57586149e-01  4.57586150e-01  1.58719341e-07  1.66799833e-07  3.70000000e-01 
 3.80000000e-01  4.57586114e-01  3.13393335e-09  4.57586114e-01  3.21041990e-09  4.57586114e-01  4.57586114e-01  4.57586114e-01  1.58719292e-07  1.66799627e-07  3.80000000e-01 
 3.90000000e-01  4.57586136e-01  3.13393335e-09  4.57586136e-01  3.21041990e-09  4.57586136e-01  4.57586136e-01  4.57586136e-01  1.58719328e-07  1.66799548e-07  3.90000000e-01 
 4.00000000e-01  4.57586121e-01  3.13393329e-09  4.57586121e-01  3.21041990e-09  4.57586121e-01  4.57586121e-01  4.57586121e-01  1.58719315e-07  1.66799353e-07  4.00000000e-01 
 4.10000000e-01  4.57586130e-01  3.13393329e-09  4.57586130e-01  3.21041990e-09  4.57586130e-01  4.57586130e-01  4.57586130e-01  1.58719313e-07  1.66799364e-07  4.10000000e-01 
 4.20000000e-01  4.57586114e-01  3.13393335e-09  4.57586114e-01  3.21041995e-09  4.57586114e-01  4.57586114e-01  4.57586114e-01  1.58719296e-07  1.66799111e-07  4.20000000e-01 
 4.30000000e-01  4.57586116e-01  3.13393335e-09  4.57586116e-01  3.21041995e-09  4.57586116e-01  4.57586116e-01  4.57586116e-01  1.58719291e-07  1.66798870e-07  4.30000000e-01 
 4.40000000e-01  4.57586135e-01  3.13393335e-09  4.57586135e-01  3.21041990e-09  4.57586135e-01  4.57586135e-01  4.57586135e-01  1.58719319e-07  1.66798806e-07  4.40000000e-01 
 4.50000000e-01  4.57586136e-01  3.13393335e-09  4.57586136e-01  3.21041995e-09  4.57586136e-01  4.57586136e-01  4.57586136e-01  1.58719327e-07  1.66798724e-07  4.50000000e-01 
 4.60000000e-01  4.57586125e-01  3.13393335e-09  4.57586125e-01  3.21041990e-09  4.57586125e-01  4.57586125e-01  4.57586125e-01  1.58719309e-07  1.66798639e-07  4.60000000e-01 
 4.70000000e-01  4.57586125e-01  3.13393335e-09  4.57586124e-01  3.21041995e-09  4.57586124e-01  4.57586124e-01  4.57586124e-01  1.58719310e-07  1.66798515e-07  4.70000000e-01 
 4.80000000e-01  4.57586128e-01  3.13393329e-09  4.57586128e-01  3.21041990e-09  4.57586128e-01  4.57586128e-01  4.57586128e-01  1.58719321e-07  1.66798380e-07  4.80000000e-01 
 4.90000000e-01  4.57586149e-01  3.13393335e-09  4.57586149e-01  3.21041990e-09  4.57586149e-01  4.57586149e-01  4.57586149e-01  1.58719349e-07  1.66798312e-07  4.90000000e-01 
 5.00000000e-01  4.57586129e-01  3.13393335e-09  4.57586129e-01  3.21041990e-09  4.57586129e-01  4.57586129e-01  4.57586129e-01  1.58719318e-07  1.66798195e-07  5.00000000e-01 
 5.10000000e-01  4.57586137e-01  3.13393335e-09  4.57586137e-01  3.21041990e-09  4.57586137e-01  4.57586137e-01  4.57586137e-01  1.58719316e-07  1.66797982e-07  5.10000000e-01 
 5.20000000e-01  4.57586129e-01  3.13393335e-09  4.57586128e-01  3.21041990e-09  4.57586128e-01  4.57586128e-01  4.57586128e-01  1.58719323e-07  1.66797872e-07  5.20000000e-01 
 5.30000000e-01  4.57586160e-01  3.13393329e-09  4.57586160e-01  3.21041996e-09  4.57586160e-01  4.57586160e-01  4.57586160e-01  1.58719366e-07  1.66797886e-07  5.30000000e-01 
 5.40000000e-01  4.57586131e-01  3.13393335e-09  4.57586131e-01  3.21041995e-09  4.57586131e-01  4.57586131e-01  4.57586131e-01  1.58719321e-07  1.66797573e-07  5.40000000e-01 
 5.50000000e-01  4.57586132e-01  3.13393335e-09  4.57586132e-01  3.21041995e-09  4.57586132e-01  4.57586132e-01  4.57586132e-01  1.58719320e-07  1.66797431e-07  5.50000000e-01 
 5.60000000e-01  4.57586147e-01  3.13393335e-09  4.57586146e-01  3.21041990e-09  4.57586146e-01  4.57586146e-01  4.57586147e-01  1.58719343e-07  1.66797449e-07  5.60000000e-01 
 5.70000000e-01  4.57586131e-01  3.13393329e-09  4.57586131e-01  3.21041990e-09  4.57586131e-01  4.57586131e-01  4.57586131e-01  1.58719320e-07  1.66797221e-07  5.70000000e-01 
 5.80000000e-01  4.57586114e-01  3.13393335e-09  4.57586113e-01  3.21041990e-09  4.57586113e-01  4.57586113e-01  4.57586114e-01  1.58719286e-07  1.66797079e-07  5.80000000e-01 
 5.90000000e-01  4.57586127e-01  3.13393335e-09  4.57586127e-01  3.21041995e-09  4.57586127e-01  4.57586127e-01  4.57586127e-01  1.58719310e-07  1.66797065e-07  5.90000000e-01 
 6.00000000e-01  4.57586133e-01  3.13393335e-09  4.57586132e-01  3.21041995e-09  4.57586132e-01  4.57586132e-01  4.57586132e-01  1.58719325e-07  1.66796944e-07  6.00000000e-01 
 6.10000000e-01  4.57586130e-01  3.13393335e-09  4.57586130e-01  3.21041995e-09  4.57586130e-01  4.57586130e-01  4.57586130e-01  1.58719329e-07  1.66796852e-07  6.10000000e-01 
 6.20000000e-01  4.57586141e-01  3.13393329e-09  4.57586140e-01  3.21041995e-09  4.57586140e-01  4.57586140e-01  4.57586140e-01  1.58719336e-07  1.66796703e-07  6.20000000e-01 
 6.30000000e-01  4.57586146e-01  3.13393335e-09  4.57586145e-01  3.21041990e-09  4.57586145e-01  4.57586145e-01  4.57586146e-01  1.58719340e-07  1.66796646e-07  6.30000000e-01 
 6.40000000e-01  4.57586121e-01  3.13393335e-09  4.57586121e-01  3.21041990e-09  4.57586121e-01  4.57586121e-01  4.57586121e-01  1.58719318e-07  1.66796362e-07  6.40000000e-01 
 6.50000000e-01  4.57586130e-01  3.13393335e-09  4.57586130e-01  3.21041990e-09  4.57586130e-01  4.57586130e-01  4.57586130e-01  1.58719313e-07  1.66796291e-07  6.50000000e-01 
 6.60000000e-01  4.57586135e-01  3.13393335e-09  4.57586134e-01  3.21041995e-09  4.57586134e-01  4.57586134e-01  4.57586134e-01  1.58719340e-07  1.66796276e-07  6.60000000e-01 
 6.70000000e-01  4.57586144e-01  3.13393329e-09  4.57586144e-01  3.21041995e-09  4.57586144e-01  4.57586144e-01  4.57586144e-01  1.58719340e-07  1.66796042e-07  6.70000000e-01 
 6.80000000e-01  4.57586126e-01  3.13393335e-09  4.57586125e-01  3.21041990e-09  4.57586125e-01  4.57586125e-01  4.57586126e-01  1.58719321e-07  1.66795843e-07  6.80000000e-01 
 6.90000000e-01  4.57586128e-01  3.13393329e-09  4.57586128e-01  3.21041990e-09  4.57586128e-01  4.57586128e-01  4.57586128e-01  1.58719314e-07  1.66795914e-07  6.90000000e-01 
 7.00000000e-01  4.57586131e-01  3.13393335e-09  4.57586131e-01  3.21041990e-09  4.57586131e-01  4.57586131e-01  4.57586131e-01  1.58719323e-07  1.66795687e-07  7.00000000e-01 
 7.10000000e-01  4.57586131e-01  3.13393335e-09  4.57586130e-01  3.21041990e-09  4.57586130e-01  4.57586130e-01  4.57586130e-01  1.58719314e-07  1.66795544e-07  7.10000000e-01 
 7.20000000e-01  4.57586130e-01  3.13393335e-09  4.57586129e-01  3.21041990e-09  4.57586129e-01  4.57586129e-01  4.57586130e-01  1.58719321e-07  1.66795360e-07  7.20000000e-01 
 7.30000000e-01  4.57586123e-01  3.13393335e-09  4.57586122e-01  3.21041990e-09  4.57586122e-01  4.57586122e-01  4.57586122e-01  1.58719315e-07  1.66795218e-07  7.30000000e-01 
 7.40000000e-01  4.57586128e-01  3.13393329e-09  4.57586128e-01  3.21041990e-09  4.57586128e-01  4.57586128e-01  4.57586128e-01  1.58719304e-07  1.66795239e-07  7.40000000e-01 
 7.50000000e-01  4.57586150e-01  3.13393329e-09  4.57586150e-01  3.21041990e-09  4.57586150e-01  4.57586150e-01  4.57586150e-01  1.58719351e-07  1.66795104e-07  7.50000000e-01 
 7.60000000e-01  4.57586115e-01  3.13393335e-09  4.57586115e-01  3.21041990e-09  4.57586115e-01  4.57586115e-01  4.57586115e-01  1.58719302e-07  1.66794884e-07  7.60000000e-01 
 7.70000000e-01  4.57586119e-01  3.13393335e-09  4.57586119e-01  3.21041990e-09  4.57586119e-01  4.57586119e-01  4.57586119e-01  1.58719295e-07  1.66794734e-07  7.70000000e-01 
 7.80000000e-01  4.57586141e-01  3.13393335e-09  4.57586141e-01  3.21041995e-09  4.57586141e-01  4.57586141e-01  4.57586141e-01  1.58719327e-07  1.66794642e-07  7.80000000e-01 
 7.90000000e-01  4.57586110e-01  3.13393335e-09  4.57586110e-01  3.21041995e-09  4.57586110e-01  4.57586110e-01  4.57586110e-01  1.58719275e-07  1.66794479e-07  7.90000000e-01 
 8.00000000e-01  4.57586131e-01  3.13393335e-09  4.57586131e-01  3.21041995e-09  4.57586131e-01  4.57586131e-01  4.57586131e-01  1.58719319e-07  1.66794237e-07  8.00000000e-01 
 8.10000000e-01  4.57586139e-01  3.13393335e-09  4.57586139e-01  3.21041990e-09  4.57586139e-01  4.57586139e-01  4.57586139e-01  1.58719329e-07  1.66794273e-07  8.10000000e-01 
 8.20000000e-01  4.57586120e-01  3.13393335e-09  4.57586120e-01  3.21041995e-09  4.57586120e-01  4.57586120e-01  4.57586120e-01  1.58719309e-07  1.66793917e-07  8.20000000e-01 
 8.30000000e-01  4.57586121e-01  3.13393335e-09  4.57586121e-01  3.21041995e-09  4.57586121e-01  4.57586121e-01  4.57586121e-01  1.58719302e-07  1.66793974e-07  8.30000000e-01 
 8.40000000e-01  4.57586140e-01  3.13393335e-09  4.57586139e-01  3.21041990e-09  4.57586139e-01  4.57586139e-01  4.57586140e-01  1.58719332e-07  1.66793889e-07  8.40000000e-01 
 8.50000000e-01  4.57586151e-01  3.13393335e-09  4.57586151e-01  3.21041990e-09  4.57586151e-01  4.57586151e-01  4.57586151e-01  1.58719344e-07  1.66793775e-07  8.50000000e-01 
 8.60000000e-01  4.57586137e-01  3.13393329e-09  4.57586137e-01  3.21041995e-09  4.57586137e-01  4.57586137e-01  4.57586137e-01  1.58719338e-07  1.66793555e-07  8.60000000e-01 
 8.70000000e-01  4.57586116e-01  3.13393335e-09  4.57586115e-01  3.21041995e-09  4.57586115e-01  4.57586115e-01  4.57586115e-01  1.58719299e-07  1.66793328e-07  8.70000000e-01 
 8.80000000e-01  4.57586134e-01  3.13393335e-09  4.57586134e-01  3.21041990e-09  4.57586134e-01  4.57586134e-01  4.57586134e-01  1.58719319e-07  1.66793370e-07  8.80000000e-01 
 8.90000000e-01  4.57586118e-01  3.13393335e-09  4.57586118e-01  3.21041990e-09  4.57586118e-01  4.57586118e-01  4.57586118e-01  1.58719313e-07  1.66793122e-07  8.90000000e-01 
 9.00000000e-01  4.57586152e-01  3.13393329e-09  4.57586152e-01  3.21041996e-09  4.57586152e-01  4.57586152e-01  4.57586152e-01  1.58719344e-07  1.66793100e-07  9.00000000e-01 
 9.10000000e-01  4.57586148e-01  3.13393335e-09  4.57586147e-01  3.21041990e-09  4.57586147e-01  4.57586147e-01  4.57586147e-01  1.58719357e-07  1.66792923e-07  9.10000000e-01 
 9.20000000e-01  4.57586144e-01  3.13393335e-09  4.57586144e-01  3.21041990e-09  4.57586144e-01  4.57586144e-01  4.57586144e-01  1.58719337e-07  1.66792837e-07  9.20000000e-01 
 9.30000000e-01  4.57586126e-01  3.13393329e-09  4.57586126e-01  3.21041995e-09  4.57586126e-01  4.57586126e-01  4.57586126e-01  1.58719311e-07  1.66792567e-07  9.30000000e-01 
 9.40000000e-01  4.57586133e-01  3.13393329e-09  4.57586133e-01  3.21041990e-09  4.57586133e-01  4.57586133e-01  4.57586133e-01  1.58719317e-07  1.66792503e-07  9.40000000e-01 
 9.50000000e-01  4.57586133e-01  3.13393329e-09  4.57586133e-01  3.21041995e-09  4.57586133e-01  4.57586133e-01  4.57586133e-01  1.58719323e-07  1.66792404e-07  9.50000000e-01 
 9.60000000e-01  4.57586118e-01  3.13393329e-09  4.57586118e-01  3.21041990e-09  4.57586118e-01  4.57586118e-01  4.57586118e-01  1.58719291e-07  1.66792077e-07  9.60000000e-01 
 9.70000000e-01  4.57586090e-01  3.13393335e-09  4.57586089e-01  3.21041989e-09  4.57586089e-01  4.57586089e-01  4.57586090e-01  1.58719253e-07  1.66791928e-07  9.70000000e-01 
 9.80000000e-01  4.57586130e-01  3.13393335e-09  4.57586130e-01  3.21041990e-09  4.57586130e-01  4.57586130e-01  4.57586130e-01  1.58719309e-07  1.66791970e-07  9.80000000e-01 
 9.90000000e-01  4.57586110e-01  3.13393335e-09  4.57586110e-01  3.21041995e-09  4.57586110e-01  4.57586110e-01  4.57586110e-01  1.58719288e-07  1.66791672e-07  9.90000000e-01 
 1.00000000e+00  4.57586118e-01  3.13393335e-09  4.57586118e-01  3.21041995e-09  4.57586118e-01  4.57586118e-01  4.57586118e-01  1.58719304e-07  1.66791466e-07  1.00000000e+00 
 1.01000000e+00  4.57586117e-01  3.13393335e-09  4.57586116e-01  3.21041995e-09  4.57586116e-01  4.57586116e-01  4.57586117e-01  1.58719301e-07  1.66791409e-07  1.01000000e+00 
 1.02000000e+00  4.57586123e-01  3.13393329e-09  4.57586123e-01  3.21041995e-09  4.57586123e-01  4.57586123e-01  4.57586123e-01  1.58719301e-07  1.66791295e-07  1.02000000e+00 
 1.03000000e+00  4.57586130e-01  3.13393335e-09  4.57586130e-01  3.21041995e-09  4.57586130e-01  4.57586130e-01  4.57586130e-01  1.58719326e-07  1.66791132e-07  1.03000000e+00 
 1.04000000e+00  4.57586114e-01  3.13393329e-09  4.57586114e-01  3.21041990e-09  4.57586114e-01  4.57586114e-01  4.57586114e-01  1.58719301e-07  1.66790926e-07  1.04000000e+00 
 1.05000000e+00  4.57586125e-01  3.13393335e-09  4.57586125e-01  3.21041995e-09  4.57586125e-01  4.57586125e-01  4.57586125e-01  1.58719308e-07  1.66790784e-07  1.05000000e+00 
 1.06000000e+00  4.57586130e-01  3.13393335e-09  4.57586130e-01  3.21041990e-09  4.57586130e-01  4.57586130e-01  4.57586130e-01  1.58719323e-07  1.66790606e-07  1.06000000e+00 
 1.07000000e+00  4.57586132e-01  3.13393335e-09  4.57586132e-01  3.21041995e-09  4.57586132e-01  4.57586132e-01  4.57586132e-01  1.58719321e-07  1.66790549e-07  1.07000000e+00 
 1.08000000e+00  4.57586105e-01  3.13393335e-09  4.57586105e-01  3.21041990e-09  4.57586105e-01  4.57586105e-01  4.57586105e-01  1.58719282e-07  1.66790223e-07  1.08000000e+00 
 1.09000000e+00  4.57586137e-01  3.13393335e-09  4.57586137e-01  3.21041990e-09  4.57586137e-01  4.57586137e-01  4.57586137e-01  1.58719326e-07  1.66790173e-07  1.09000000e+00 
 1.10000000e+00  4.57586121e-01  3.13393335e-09  4.57586121e-01  3.21041995e-09  4.57586121e-01  4.57586121e-01  4.57586121e-01  1.58719316e-07  1.66789995e-07  1.10000000e+00 
