 v-sweep         v(b0)           v(b1)           v(b2)           v(b3)           v(b4)           v(b5)           v(b6)           i(vbias)        i(viout)        v(vout)        
 0.00000000e+00  3.32289927e-09  3.24459835e-09  4.59500820e-01  3.27474447e-09  3.29004395e-09  3.19913058e-09  4.59500820e-01  1.61915811e-07  1.07807154e-07  0.00000000e+00 
 1.00000000e-02  3.32289925e-09  3.24459832e-09  4.59500800e-01  3.27474451e-09  3.29004393e-09  3.19913056e-09  4.59500800e-01  1.61915782e-07  1.07806695e-07  1.00000000e-02 
 2.00000000e-02  3.32289925e-09  3.24459838e-09  4.59500805e-01  3.27474451e-09  3.29004393e-09  3.19913062e-09  4.59500804e-01  1.61915784e-07  1.07806247e-07  2.00000000e-02 
 3.00000000e-02  3.32289925e-09  3.24459832e-09  4.59500811e-01  3.27474451e-09  3.29004394e-09  3.19913056e-09  4.59500811e-01  1.61915789e-07  1.07805951e-07  3.00000000e-02 
 4.00000000e-02  3.32289925e-09  3.24459838e-09  4.59500784e-01  3.27474451e-09  3.29004393e-09  3.19913056e-09  4.59500783e-01  1.61915760e-07  1.07805441e-07  4.00000000e-02 
 5.00000000e-02  3.32289930e-09  3.24459832e-09  4.59500800e-01  3.27474451e-09  3.29004393e-09  3.19913056e-09  4.59500800e-01  1.61915775e-07  1.07805276e-07  5.00000000e-02 
 6.00000000e-02  3.32289925e-09  3.24459832e-09  4.59500797e-01  3.27474451e-09  3.29004393e-09  3.19913056e-09  4.59500797e-01  1.61915777e-07  1.07804813e-07  6.00000000e-02 
 7.00000000e-02  3.32289925e-09  3.24459832e-09  4.59500811e-01  3.27474451e-09  3.29004388e-09  3.19913056e-09  4.59500810e-01  1.61915793e-07  1.07804502e-07  7.00000000e-02 
 8.00000000e-02  3.32289925e-09  3.24459838e-09  4.59500789e-01  3.27474451e-09  3.29004393e-09  3.19913062e-09  4.59500789e-01  1.61915752e-07  1.07804081e-07  8.00000000e-02 
 9.00000000e-02  3.32289925e-09  3.24459838e-09  4.59500799e-01  3.27474451e-09  3.29004388e-09  3.19913056e-09  4.59500799e-01  1.61915793e-07  1.07803830e-07  9.00000000e-02 
 1.00000000e-01  3.32289925e-09  3.24459838e-09  4.59500795e-01  3.27474451e-09  3.29004393e-09  3.19913056e-09  4.59500794e-01  1.61915772e-07  1.07803589e-07  1.00000000e-01 
 1.10000000e-01  3.32289925e-09  3.24459838e-09  4.59500820e-01  3.27474451e-09  3.29004394e-09  3.19913062e-09  4.59500819e-01  1.61915805e-07  1.07803413e-07  1.10000000e-01 
 1.20000000e-01  3.32289925e-09  3.24459838e-09  4.59500808e-01  3.27474451e-09  3.29004394e-09  3.19913056e-09  4.59500808e-01  1.61915783e-07  1.07803143e-07  1.20000000e-01 
 1.30000000e-01  3.32289925e-09  3.24459838e-09  4.59500796e-01  3.27474451e-09  3.29004393e-09  3.19913056e-09  4.59500795e-01  1.61915772e-07  1.07802911e-07  1.30000000e-01 
 1.40000000e-01  3.32289924e-09  3.24459838e-09  4.59500781e-01  3.27474451e-09  3.29004388e-09  3.19913056e-09  4.59500781e-01  1.61915754e-07  1.07802525e-07  1.40000000e-01 
 1.50000000e-01  3.32289925e-09  3.24459838e-09  4.59500806e-01  3.27474451e-09  3.29004393e-09  3.19913056e-09  4.59500806e-01  1.61915792e-07  1.07802487e-07  1.50000000e-01 
 1.60000000e-01  3.32289925e-09  3.24459838e-09  4.59500785e-01  3.27474451e-09  3.29004393e-09  3.19913056e-09  4.59500785e-01  1.61915753e-07  1.07802078e-07  1.60000000e-01 
 1.70000000e-01  3.32289925e-09  3.24459838e-09  4.59500813e-01  3.27474451e-09  3.29004394e-09  3.19913056e-09  4.59500812e-01  1.61915787e-07  1.07801997e-07  1.70000000e-01 
 1.80000000e-01  3.32289925e-09  3.24459838e-09  4.59500803e-01  3.27474451e-09  3.29004393e-09  3.19913056e-09  4.59500802e-01  1.61915766e-07  1.07801776e-07  1.80000000e-01 
 1.90000000e-01  3.32289924e-09  3.24459832e-09  4.59500780e-01  3.27474451e-09  3.29004393e-09  3.19913056e-09  4.59500780e-01  1.61915748e-07  1.07801633e-07  1.90000000e-01 
 2.00000000e-01  3.32289925e-09  3.24459838e-09  4.59500801e-01  3.27474451e-09  3.29004393e-09  3.19913056e-09  4.59500801e-01  1.61915766e-07  1.07801430e-07  2.00000000e-01 
 2.10000000e-01  3.32289925e-09  3.24459838e-09  4.59500799e-01  3.27474451e-09  3.29004393e-09  3.19913056e-09  4.59500799e-01  1.61915766e-07  1.07801261e-07  2.10000000e-01 
 2.20000000e-01  3.32289925e-09  3.24459838e-09  4.59500792e-01  3.27474451e-09  3.29004393e-09  3.19913056e-09  4.59500792e-01  1.61915781e-07  1.07801034e-07  2.20000000e-01 
 2.30000000e-01  3.32289924e-09  3.24459832e-09  4.59500779e-01  3.27474451e-09  3.29004393e-09  3.19913056e-09  4.59500779e-01  1.61915754e-07  1.07800950e-07  2.30000000e-01 
 2.40000000e-01  3.32289925e-09  3.24459838e-09  4.59500812e-01  3.27474451e-09  3.29004394e-09  3.19913056e-09  4.59500812e-01  1.61915793e-07  1.07800810e-07  2.40000000e-01 
 2.50000000e-01  3.32289924e-09  3.24459832e-09  4.59500782e-01  3.27474451e-09  3.29004393e-09  3.19913062e-09  4.59500781e-01  1.61915741e-07  1.07800643e-07  2.50000000e-01 
 2.60000000e-01  3.32289925e-09  3.24459832e-09  4.59500784e-01  3.27474451e-09  3.29004393e-09  3.19913056e-09  4.59500784e-01  1.61915752e-07  1.07800396e-07  2.60000000e-01 
 2.70000000e-01  3.32289925e-09  3.24459838e-09  4.59500802e-01  3.27474451e-09  3.29004393e-09  3.19913056e-09  4.59500802e-01  1.61915771e-07  1.07800441e-07  2.70000000e-01 
 2.80000000e-01  3.32289931e-09  3.24459832e-09  4.59500810e-01  3.27474451e-09  3.29004394e-09  3.19913062e-09  4.59500810e-01  1.61915777e-07  1.07800183e-07  2.80000000e-01 
 2.90000000e-01  3.32289925e-09  3.24459838e-09  4.59500802e-01  3.27474451e-09  3.29004393e-09  3.19913062e-09  4.59500801e-01  1.61915789e-07  1.07800108e-07  2.90000000e-01 
 3.00000000e-01  3.32289925e-09  3.24459838e-09  4.59500819e-01  3.27474451e-09  3.29004394e-09  3.19913056e-09  4.59500818e-01  1.61915797e-07  1.07800094e-07  3.00000000e-01 
 3.10000000e-01  3.32289925e-09  3.24459838e-09  4.59500813e-01  3.27474451e-09  3.29004394e-09  3.19913056e-09  4.59500813e-01  1.61915791e-07  1.07799895e-07  3.10000000e-01 
 3.20000000e-01  3.32289931e-09  3.24459832e-09  4.59500821e-01  3.27474451e-09  3.29004394e-09  3.19913056e-09  4.59500821e-01  1.61915803e-07  1.07799643e-07  3.20000000e-01 
 3.30000000e-01  3.32289925e-09  3.24459838e-09  4.59500789e-01  3.27474451e-09  3.29004393e-09  3.19913056e-09  4.59500789e-01  1.61915758e-07  1.07799533e-07  3.30000000e-01 
 3.40000000e-01  3.32289925e-09  3.24459838e-09  4.59500797e-01  3.27474451e-09  3.29004393e-09  3.19913056e-09  4.59500797e-01  1.61915777e-07  1.07799551e-07  3.40000000e-01 
 3.50000000e-01  3.32289925e-09  3.24459832e-09  4.59500809e-01  3.27474451e-09  3.29004388e-09  3.19913056e-09  4.59500809e-01  1.61915794e-07  1.07799387e-07  3.50000000e-01 
 3.60000000e-01  3.32289925e-09  3.24459838e-09  4.59500790e-01  3.27474451e-09  3.29004393e-09  3.19913056e-09  4.59500790e-01  1.61915773e-07  1.07799291e-07  3.60000000e-01 
 3.70000000e-01  3.32289925e-09  3.24459832e-09  4.59500815e-01  3.27474451e-09  3.29004394e-09  3.19913056e-09  4.59500814e-01  1.61915801e-07  1.07799231e-07  3.70000000e-01 
 3.80000000e-01  3.32289925e-09  3.24459838e-09  4.59500808e-01  3.27474451e-09  3.29004394e-09  3.19913056e-09  4.59500808e-01  1.61915793e-07  1.07799202e-07  3.80000000e-01 
 3.90000000e-01  3.32289925e-09  3.24459838e-09  4.59500815e-01  3.27474451e-09  3.29004394e-09  3.19913056e-09  4.59500814e-01  1.61915790e-07  1.07799000e-07  3.90000000e-01 
 4.00000000e-01  3.32289925e-09  3.24459838e-09  4.59500794e-01  3.27474451e-09  3.29004393e-09  3.19913056e-09  4.59500794e-01  1.61915763e-07  1.07798908e-07  4.00000000e-01 
 4.10000000e-01  3.32289925e-09  3.24459832e-09  4.59500791e-01  3.27474451e-09  3.29004393e-09  3.19913056e-09  4.59500791e-01  1.61915768e-07  1.07798758e-07  4.10000000e-01 
 4.20000000e-01  3.32289925e-09  3.24459838e-09  4.59500798e-01  3.27474451e-09  3.29004393e-09  3.19913056e-09  4.59500798e-01  1.61915772e-07  1.07798687e-07  4.20000000e-01 
 4.30000000e-01  3.32289925e-09  3.24459838e-09  4.59500822e-01  3.27474451e-09  3.29004394e-09  3.19913056e-09  4.59500822e-01  1.61915818e-07  1.07798687e-07  4.30000000e-01 
 4.40000000e-01  3.32289924e-09  3.24459832e-09  4.59500780e-01  3.27474451e-09  3.29004393e-09  3.19913062e-09  4.59500780e-01  1.61915756e-07  1.07798524e-07  4.40000000e-01 
 4.50000000e-01  3.32289925e-09  3.24459838e-09  4.59500788e-01  3.27474451e-09  3.29004393e-09  3.19913056e-09  4.59500788e-01  1.61915763e-07  1.07798375e-07  4.50000000e-01 
 4.60000000e-01  3.32289925e-09  3.24459838e-09  4.59500789e-01  3.27474451e-09  3.29004393e-09  3.19913056e-09  4.59500789e-01  1.61915764e-07  1.07798339e-07  4.60000000e-01 
 4.70000000e-01  3.32289925e-09  3.24459832e-09  4.59500817e-01  3.27474451e-09  3.29004394e-09  3.19913056e-09  4.59500817e-01  1.61915811e-07  1.07798357e-07  4.70000000e-01 
 4.80000000e-01  3.32289925e-09  3.24459838e-09  4.59500804e-01  3.27474451e-09  3.29004393e-09  3.19913056e-09  4.59500804e-01  1.61915778e-07  1.07798154e-07  4.80000000e-01 
 4.90000000e-01  3.32289925e-09  3.24459838e-09  4.59500791e-01  3.27474451e-09  3.29004393e-09  3.19913056e-09  4.59500791e-01  1.61915763e-07  1.07798034e-07  4.90000000e-01 
 5.00000000e-01  3.32289925e-09  3.24459838e-09  4.59500812e-01  3.27474451e-09  3.29004394e-09  3.19913056e-09  4.59500811e-01  1.61915798e-07  1.07798012e-07  5.00000000e-01 
 5.10000000e-01  3.32289925e-09  3.24459838e-09  4.59500788e-01  3.27474451e-09  3.29004393e-09  3.19913056e-09  4.59500788e-01  1.61915758e-07  1.07797717e-07  5.10000000e-01 
 5.20000000e-01  3.32289930e-09  3.24459838e-09  4.59500785e-01  3.27474451e-09  3.29004393e-09  3.19913056e-09  4.59500785e-01  1.61915761e-07  1.07797799e-07  5.20000000e-01 
 5.30000000e-01  3.32289925e-09  3.24459832e-09  4.59500793e-01  3.27474451e-09  3.29004393e-09  3.19913056e-09  4.59500793e-01  1.61915768e-07  1.07797828e-07  5.30000000e-01 
 5.40000000e-01  3.32289930e-09  3.24459838e-09  4.59500804e-01  3.27474451e-09  3.29004393e-09  3.19913056e-09  4.59500804e-01  1.61915794e-07  1.07797796e-07  5.40000000e-01 
 5.50000000e-01  3.32289925e-09  3.24459838e-09  4.59500798e-01  3.27474451e-09  3.29004393e-09  3.19913056e-09  4.59500798e-01  1.61915766e-07  1.07797597e-07  5.50000000e-01 
 5.60000000e-01  3.32289924e-09  3.24459832e-09  4.59500782e-01  3.27474451e-09  3.29004393e-09  3.19913062e-09  4.59500782e-01  1.61915751e-07  1.07797497e-07  5.60000000e-01 
 5.70000000e-01  3.32289925e-09  3.24459838e-09  4.59500801e-01  3.27474451e-09  3.29004393e-09  3.19913056e-09  4.59500801e-01  1.61915780e-07  1.07797330e-07  5.70000000e-01 
 5.80000000e-01  3.32289930e-09  3.24459838e-09  4.59500796e-01  3.27474451e-09  3.29004393e-09  3.19913056e-09  4.59500796e-01  1.61915762e-07  1.07797433e-07  5.80000000e-01 
 5.90000000e-01  3.32289930e-09  3.24459838e-09  4.59500791e-01  3.27474451e-09  3.29004393e-09  3.19913056e-09  4.59500791e-01  1.61915770e-07  1.07797291e-07  5.90000000e-01 
 6.00000000e-01  3.32289925e-09  3.24459832e-09  4.59500810e-01  3.27474451e-09  3.29004394e-09  3.19913056e-09  4.59500810e-01  1.61915791e-07  1.07797341e-07  6.00000000e-01 
 6.10000000e-01  3.32289930e-09  3.24459838e-09  4.59500802e-01  3.27474451e-09  3.29004393e-09  3.19913056e-09  4.59500802e-01  1.61915780e-07  1.07797185e-07  6.10000000e-01 
 6.20000000e-01  3.32289925e-09  3.24459832e-09  4.59500804e-01  3.27474451e-09  3.29004393e-09  3.19913056e-09  4.59500804e-01  1.61915788e-07  1.07797128e-07  6.20000000e-01 
 6.30000000e-01  3.32289925e-09  3.24459838e-09  4.59500808e-01  3.27474451e-09  3.29004394e-09  3.19913062e-09  4.59500808e-01  1.61915797e-07  1.07796986e-07  6.30000000e-01 
 6.40000000e-01  3.32289925e-09  3.24459838e-09  4.59500786e-01  3.27474451e-09  3.29004393e-09  3.19913056e-09  4.59500786e-01  1.61915744e-07  1.07796893e-07  6.40000000e-01 
 6.50000000e-01  3.32289924e-09  3.24459832e-09  4.59500765e-01  3.27474451e-09  3.29004393e-09  3.19913056e-09  4.59500765e-01  1.61915711e-07  1.07796765e-07  6.50000000e-01 
 6.60000000e-01  3.32289925e-09  3.24459838e-09  4.59500811e-01  3.27474451e-09  3.29004394e-09  3.19913056e-09  4.59500811e-01  1.61915791e-07  1.07796723e-07  6.60000000e-01 
 6.70000000e-01  3.32289925e-09  3.24459838e-09  4.59500787e-01  3.27474451e-09  3.29004393e-09  3.19913062e-09  4.59500787e-01  1.61915767e-07  1.07796687e-07  6.70000000e-01 
 6.80000000e-01  3.32289925e-09  3.24459838e-09  4.59500801e-01  3.27474451e-09  3.29004393e-09  3.19913056e-09  4.59500800e-01  1.61915773e-07  1.07796637e-07  6.80000000e-01 
 6.90000000e-01  3.32289925e-09  3.24459838e-09  4.59500797e-01  3.27474451e-09  3.29004393e-09  3.19913056e-09  4.59500797e-01  1.61915785e-07  1.07796502e-07  6.90000000e-01 
 7.00000000e-01  3.32289925e-09  3.24459838e-09  4.59500809e-01  3.27474451e-09  3.29004394e-09  3.19913056e-09  4.59500809e-01  1.61915799e-07  1.07796509e-07  7.00000000e-01 
 7.10000000e-01  3.32289925e-09  3.24459838e-09  4.59500801e-01  3.27474451e-09  3.29004393e-09  3.19913056e-09  4.59500801e-01  1.61915774e-07  1.07796410e-07  7.10000000e-01 
 7.20000000e-01  3.32289925e-09  3.24459838e-09  4.59500806e-01  3.27474451e-09  3.29004393e-09  3.19913056e-09  4.59500806e-01  1.61915785e-07  1.07796268e-07  7.20000000e-01 
 7.30000000e-01  3.32289925e-09  3.24459838e-09  4.59500798e-01  3.27474451e-09  3.29004393e-09  3.19913056e-09  4.59500798e-01  1.61915779e-07  1.07796232e-07  7.30000000e-01 
 7.40000000e-01  3.32289925e-09  3.24459832e-09  4.59500801e-01  3.27474451e-09  3.29004393e-09  3.19913056e-09  4.59500801e-01  1.61915783e-07  1.07796282e-07  7.40000000e-01 
 7.50000000e-01  3.32289925e-09  3.24459832e-09  4.59500796e-01  3.27474451e-09  3.29004393e-09  3.19913056e-09  4.59500796e-01  1.61915768e-07  1.07796126e-07  7.50000000e-01 
 7.60000000e-01  3.32289931e-09  3.24459838e-09  4.59500810e-01  3.27474451e-09  3.29004394e-09  3.19913056e-09  4.59500810e-01  1.61915790e-07  1.07796055e-07  7.60000000e-01 
 7.70000000e-01  3.32289925e-09  3.24459838e-09  4.59500794e-01  3.27474451e-09  3.29004393e-09  3.19913056e-09  4.59500793e-01  1.61915774e-07  1.07795820e-07  7.70000000e-01 
 7.80000000e-01  3.32289925e-09  3.24459838e-09  4.59500792e-01  3.27474451e-09  3.29004393e-09  3.19913056e-09  4.59500792e-01  1.61915768e-07  1.07795763e-07  7.80000000e-01 
 7.90000000e-01  3.32289925e-09  3.24459838e-09  4.59500799e-01  3.27474451e-09  3.29004393e-09  3.19913056e-09  4.59500799e-01  1.61915786e-07  1.07795671e-07  7.90000000e-01 
 8.00000000e-01  3.32289925e-09  3.24459838e-09  4.59500821e-01  3.27474451e-09  3.29004394e-09  3.19913062e-09  4.59500821e-01  1.61915792e-07  1.07795643e-07  8.00000000e-01 
 8.10000000e-01  3.32289925e-09  3.24459838e-09  4.59500792e-01  3.27474451e-09  3.29004393e-09  3.19913056e-09  4.59500792e-01  1.61915754e-07  1.07795515e-07  8.10000000e-01 
 8.20000000e-01  3.32289925e-09  3.24459838e-09  4.59500827e-01  3.27474451e-09  3.29004394e-09  3.19913062e-09  4.59500827e-01  1.61915823e-07  1.07795564e-07  8.20000000e-01 
 8.30000000e-01  3.32289924e-09  3.24459838e-09  4.59500780e-01  3.27474451e-09  3.29004393e-09  3.19913056e-09  4.59500780e-01  1.61915743e-07  1.07795373e-07  8.30000000e-01 
 8.40000000e-01  3.32289925e-09  3.24459832e-09  4.59500821e-01  3.27474451e-09  3.29004394e-09  3.19913056e-09  4.59500821e-01  1.61915809e-07  1.07795429e-07  8.40000000e-01 
 8.50000000e-01  3.32289930e-09  3.24459832e-09  4.59500787e-01  3.27474451e-09  3.29004393e-09  3.19913056e-09  4.59500786e-01  1.61915760e-07  1.07795159e-07  8.50000000e-01 
 8.60000000e-01  3.32289925e-09  3.24459838e-09  4.59500798e-01  3.27474451e-09  3.29004393e-09  3.19913056e-09  4.59500798e-01  1.61915779e-07  1.07795273e-07  8.60000000e-01 
 8.70000000e-01  3.32289925e-09  3.24459838e-09  4.59500801e-01  3.27474451e-09  3.29004393e-09  3.19913056e-09  4.59500801e-01  1.61915776e-07  1.07795067e-07  8.70000000e-01 
 8.80000000e-01  3.32289925e-09  3.24459838e-09  4.59500794e-01  3.27474451e-09  3.29004393e-09  3.19913056e-09  4.59500794e-01  1.61915780e-07  1.07794925e-07  8.80000000e-01 
 8.90000000e-01  3.32289924e-09  3.24459838e-09  4.59500782e-01  3.27474451e-09  3.29004393e-09  3.19913056e-09  4.59500782e-01  1.61915748e-07  1.07794918e-07  8.90000000e-01 
 9.00000000e-01  3.32289925e-09  3.24459838e-09  4.59500805e-01  3.27474451e-09  3.29004393e-09  3.19913056e-09  4.59500805e-01  1.61915774e-07  1.07794762e-07  9.00000000e-01 
 9.10000000e-01  3.32289925e-09  3.24459838e-09  4.59500803e-01  3.27474451e-09  3.29004393e-09  3.19913056e-09  4.59500803e-01  1.61915785e-07  1.07794754e-07  9.10000000e-01 
 9.20000000e-01  3.32289925e-09  3.24459832e-09  4.59500801e-01  3.27474451e-09  3.29004393e-09  3.19913056e-09  4.59500801e-01  1.61915776e-07  1.07794698e-07  9.20000000e-01 
 9.30000000e-01  3.32289925e-09  3.24459832e-09  4.59500818e-01  3.27474451e-09  3.29004394e-09  3.19913056e-09  4.59500818e-01  1.61915803e-07  1.07794676e-07  9.30000000e-01 
 9.40000000e-01  3.32289925e-09  3.24459838e-09  4.59500785e-01  3.27474451e-09  3.29004393e-09  3.19913056e-09  4.59500785e-01  1.61915755e-07  1.07794484e-07  9.40000000e-01 
 9.50000000e-01  3.32289925e-09  3.24459838e-09  4.59500809e-01  3.27474451e-09  3.29004394e-09  3.19913056e-09  4.59500809e-01  1.61915798e-07  1.07794449e-07  9.50000000e-01 
 9.60000000e-01  3.32289925e-09  3.24459832e-09  4.59500790e-01  3.27474451e-09  3.29004393e-09  3.19913056e-09  4.59500790e-01  1.61915769e-07  1.07794257e-07  9.60000000e-01 
 9.70000000e-01  3.32289931e-09  3.24459832e-09  4.59500814e-01  3.27474451e-09  3.29004394e-09  3.19913056e-09  4.59500814e-01  1.61915805e-07  1.07794236e-07  9.70000000e-01 
 9.80000000e-01  3.32289925e-09  3.24459838e-09  4.59500799e-01  3.27474451e-09  3.29004393e-09  3.19913056e-09  4.59500799e-01  1.61915773e-07  1.07794136e-07  9.80000000e-01 
 9.90000000e-01  3.32289925e-09  3.24459838e-09  4.59500802e-01  3.27474451e-09  3.29004393e-09  3.19913056e-09  4.59500802e-01  1.61915784e-07  1.07794172e-07  9.90000000e-01 
 1.00000000e+00  3.32289925e-09  3.24459832e-09  4.59500795e-01  3.27474451e-09  3.29004393e-09  3.19913062e-09  4.59500795e-01  1.61915775e-07  1.07794023e-07  1.00000000e+00 
 1.01000000e+00  3.32289925e-09  3.24459838e-09  4.59500801e-01  3.27474451e-09  3.29004393e-09  3.19913056e-09  4.59500801e-01  1.61915786e-07  1.07794023e-07  1.01000000e+00 
 1.02000000e+00  3.32289925e-09  3.24459838e-09  4.59500792e-01  3.27474451e-09  3.29004393e-09  3.19913062e-09  4.59500792e-01  1.61915755e-07  1.07793824e-07  1.02000000e+00 
 1.03000000e+00  3.32289925e-09  3.24459838e-09  4.59500784e-01  3.27474451e-09  3.29004393e-09  3.19913056e-09  4.59500784e-01  1.61915750e-07  1.07793710e-07  1.03000000e+00 
 1.04000000e+00  3.32289924e-09  3.24459838e-09  4.59500773e-01  3.27474451e-09  3.29004393e-09  3.19913056e-09  4.59500773e-01  1.61915750e-07  1.07793596e-07  1.04000000e+00 
 1.05000000e+00  3.32289925e-09  3.24459838e-09  4.59500807e-01  3.27474451e-09  3.29004394e-09  3.19913056e-09  4.59500807e-01  1.61915792e-07  1.07793483e-07  1.05000000e+00 
 1.06000000e+00  3.32289925e-09  3.24459838e-09  4.59500787e-01  3.27474451e-09  3.29004393e-09  3.19913056e-09  4.59500787e-01  1.61915755e-07  1.07793433e-07  1.06000000e+00 
 1.07000000e+00  3.32289925e-09  3.24459832e-09  4.59500798e-01  3.27474451e-09  3.29004393e-09  3.19913056e-09  4.59500797e-01  1.61915771e-07  1.07793397e-07  1.07000000e+00 
 1.08000000e+00  3.32289925e-09  3.24459838e-09  4.59500804e-01  3.27474451e-09  3.29004393e-09  3.19913056e-09  4.59500804e-01  1.61915794e-07  1.07793213e-07  1.08000000e+00 
 1.09000000e+00  3.32289925e-09  3.24459838e-09  4.59500787e-01  3.27474451e-09  3.29004393e-09  3.19913056e-09  4.59500787e-01  1.61915759e-07  1.07793241e-07  1.09000000e+00 
 1.10000000e+00  3.32289925e-09  3.24459838e-09  4.59500808e-01  3.27474451e-09  3.29004394e-09  3.19913056e-09  4.59500808e-01  1.61915802e-07  1.07793163e-07  1.10000000e+00 
