 v-sweep         v(b0)           v(b1)           v(b2)           v(b3)           v(b4)           v(b5)           v(b6)           i(vbias)        i(viout)        v(vout)        
 0.00000000e+00  4.58979355e-01  4.58979355e-01  3.53022022e-09  3.47779928e-09  4.58979355e-01  4.58979355e-01  4.58979355e-01  1.59675099e-07  1.70646110e-07  0.00000000e+00 
 1.00000000e-02  4.58979348e-01  4.58979348e-01  3.53022025e-09  3.47779930e-09  4.58979348e-01  4.58979348e-01  4.58979348e-01  1.59675093e-07  1.70645590e-07  1.00000000e-02 
 2.00000000e-02  4.58979358e-01  4.58979358e-01  3.53022019e-09  3.47779930e-09  4.58979358e-01  4.58979358e-01  4.58979358e-01  1.59675101e-07  1.70645078e-07  2.00000000e-02 
 3.00000000e-02  4.58979338e-01  4.58979338e-01  3.53022020e-09  3.47779930e-09  4.58979338e-01  4.58979338e-01  4.58979338e-01  1.59675093e-07  1.70644750e-07  3.00000000e-02 
 4.00000000e-02  4.58979343e-01  4.58979343e-01  3.53022020e-09  3.47779930e-09  4.58979343e-01  4.58979343e-01  4.58979343e-01  1.59675084e-07  1.70644280e-07  4.00000000e-02 
 5.00000000e-02  4.58979346e-01  4.58979346e-01  3.53022020e-09  3.47779930e-09  4.58979346e-01  4.58979346e-01  4.58979346e-01  1.59675090e-07  1.70643931e-07  5.00000000e-02 
 6.00000000e-02  4.58979338e-01  4.58979338e-01  3.53022020e-09  3.47779930e-09  4.58979338e-01  4.58979338e-01  4.58979338e-01  1.59675080e-07  1.70643609e-07  6.00000000e-02 
 7.00000000e-02  4.58979342e-01  4.58979342e-01  3.53022020e-09  3.47779925e-09  4.58979342e-01  4.58979342e-01  4.58979342e-01  1.59675077e-07  1.70643210e-07  7.00000000e-02 
 8.00000000e-02  4.58979352e-01  4.58979352e-01  3.53022020e-09  3.47779925e-09  4.58979352e-01  4.58979352e-01  4.58979352e-01  1.59675105e-07  1.70642807e-07  8.00000000e-02 
 9.00000000e-02  4.58979333e-01  4.58979333e-01  3.53022025e-09  3.47779930e-09  4.58979333e-01  4.58979333e-01  4.58979333e-01  1.59675084e-07  1.70642425e-07  9.00000000e-02 
 1.00000000e-01  4.58979353e-01  4.58979353e-01  3.53022024e-09  3.47779930e-09  4.58979353e-01  4.58979353e-01  4.58979353e-01  1.59675094e-07  1.70642244e-07  1.00000000e-01 
 1.10000000e-01  4.58979353e-01  4.58979353e-01  3.53022020e-09  3.47779930e-09  4.58979353e-01  4.58979353e-01  4.58979353e-01  1.59675101e-07  1.70641846e-07  1.10000000e-01 
 1.20000000e-01  4.58979359e-01  4.58979359e-01  3.53022020e-09  3.47779925e-09  4.58979359e-01  4.58979359e-01  4.58979359e-01  1.59675112e-07  1.70641647e-07  1.20000000e-01 
 1.30000000e-01  4.58979366e-01  4.58979366e-01  3.53022026e-09  3.47779930e-09  4.58979366e-01  4.58979366e-01  4.58979366e-01  1.59675120e-07  1.70641473e-07  1.30000000e-01 
 1.40000000e-01  4.58979356e-01  4.58979356e-01  3.53022024e-09  3.47779930e-09  4.58979356e-01  4.58979356e-01  4.58979356e-01  1.59675106e-07  1.70641157e-07  1.40000000e-01 
 1.50000000e-01  4.58979351e-01  4.58979351e-01  3.53022020e-09  3.47779925e-09  4.58979351e-01  4.58979351e-01  4.58979351e-01  1.59675105e-07  1.70640751e-07  1.50000000e-01 
 1.60000000e-01  4.58979354e-01  4.58979354e-01  3.53022020e-09  3.47779925e-09  4.58979354e-01  4.58979354e-01  4.58979354e-01  1.59675094e-07  1.70640600e-07  1.60000000e-01 
 1.70000000e-01  4.58979343e-01  4.58979343e-01  3.53022020e-09  3.47779930e-09  4.58979343e-01  4.58979343e-01  4.58979343e-01  1.59675101e-07  1.70640270e-07  1.70000000e-01 
 1.80000000e-01  4.58979331e-01  4.58979331e-01  3.53022020e-09  3.47779930e-09  4.58979331e-01  4.58979331e-01  4.58979331e-01  1.59675087e-07  1.70639971e-07  1.80000000e-01 
 1.90000000e-01  4.58979339e-01  4.58979339e-01  3.53022020e-09  3.47779930e-09  4.58979339e-01  4.58979339e-01  4.58979339e-01  1.59675086e-07  1.70639762e-07  1.90000000e-01 
 2.00000000e-01  4.58979351e-01  4.58979351e-01  3.53022025e-09  3.47779930e-09  4.58979351e-01  4.58979351e-01  4.58979351e-01  1.59675110e-07  1.70639574e-07  2.00000000e-01 
 2.10000000e-01  4.58979353e-01  4.58979353e-01  3.53022024e-09  3.47779930e-09  4.58979353e-01  4.58979353e-01  4.58979353e-01  1.59675097e-07  1.70639451e-07  2.10000000e-01 
 2.20000000e-01  4.58979367e-01  4.58979367e-01  3.53022020e-09  3.47779930e-09  4.58979367e-01  4.58979367e-01  4.58979367e-01  1.59675118e-07  1.70639268e-07  2.20000000e-01 
 2.30000000e-01  4.58979338e-01  4.58979338e-01  3.53022020e-09  3.47779930e-09  4.58979338e-01  4.58979338e-01  4.58979338e-01  1.59675088e-07  1.70638904e-07  2.30000000e-01 
 2.40000000e-01  4.58979347e-01  4.58979348e-01  3.53022020e-09  3.47779925e-09  4.58979348e-01  4.58979348e-01  4.58979347e-01  1.59675079e-07  1.70638826e-07  2.40000000e-01 
 2.50000000e-01  4.58979352e-01  4.58979352e-01  3.53022020e-09  3.47779930e-09  4.58979352e-01  4.58979352e-01  4.58979352e-01  1.59675105e-07  1.70638696e-07  2.50000000e-01 
 2.60000000e-01  4.58979345e-01  4.58979345e-01  3.53022025e-09  3.47779930e-09  4.58979345e-01  4.58979345e-01  4.58979345e-01  1.59675084e-07  1.70638337e-07  2.60000000e-01 
 2.70000000e-01  4.58979335e-01  4.58979335e-01  3.53022018e-09  3.47779930e-09  4.58979335e-01  4.58979335e-01  4.58979335e-01  1.59675070e-07  1.70638183e-07  2.70000000e-01 
 2.80000000e-01  4.58979343e-01  4.58979343e-01  3.53022020e-09  3.47779930e-09  4.58979343e-01  4.58979343e-01  4.58979343e-01  1.59675081e-07  1.70638065e-07  2.80000000e-01 
 2.90000000e-01  4.58979339e-01  4.58979339e-01  3.53022025e-09  3.47779930e-09  4.58979339e-01  4.58979339e-01  4.58979339e-01  1.59675077e-07  1.70637914e-07  2.90000000e-01 
 3.00000000e-01  4.58979334e-01  4.58979334e-01  3.53022018e-09  3.47779930e-09  4.58979334e-01  4.58979334e-01  4.58979334e-01  1.59675073e-07  1.70637712e-07  3.00000000e-01 
 3.10000000e-01  4.58979355e-01  4.58979355e-01  3.53022026e-09  3.47779930e-09  4.58979355e-01  4.58979355e-01  4.58979355e-01  1.59675086e-07  1.70637616e-07  3.10000000e-01 
 3.20000000e-01  4.58979339e-01  4.58979339e-01  3.53022024e-09  3.47779930e-09  4.58979339e-01  4.58979339e-01  4.58979339e-01  1.59675077e-07  1.70637421e-07  3.20000000e-01 
 3.30000000e-01  4.58979337e-01  4.58979337e-01  3.53022020e-09  3.47779930e-09  4.58979337e-01  4.58979337e-01  4.58979337e-01  1.59675062e-07  1.70637318e-07  3.30000000e-01 
 3.40000000e-01  4.58979342e-01  4.58979343e-01  3.53022020e-09  3.47779925e-09  4.58979342e-01  4.58979343e-01  4.58979342e-01  1.59675069e-07  1.70637126e-07  3.40000000e-01 
 3.50000000e-01  4.58979345e-01  4.58979345e-01  3.53022020e-09  3.47779930e-09  4.58979345e-01  4.58979345e-01  4.58979345e-01  1.59675100e-07  1.70637005e-07  3.50000000e-01 
 3.60000000e-01  4.58979355e-01  4.58979355e-01  3.53022020e-09  3.47779930e-09  4.58979355e-01  4.58979355e-01  4.58979355e-01  1.59675111e-07  1.70636852e-07  3.60000000e-01 
 3.70000000e-01  4.58979336e-01  4.58979336e-01  3.53022020e-09  3.47779930e-09  4.58979336e-01  4.58979336e-01  4.58979336e-01  1.59675067e-07  1.70636579e-07  3.70000000e-01 
 3.80000000e-01  4.58979354e-01  4.58979354e-01  3.53022025e-09  3.47779930e-09  4.58979354e-01  4.58979354e-01  4.58979354e-01  1.59675097e-07  1.70636582e-07  3.80000000e-01 
 3.90000000e-01  4.58979357e-01  4.58979357e-01  3.53022024e-09  3.47779925e-09  4.58979357e-01  4.58979357e-01  4.58979357e-01  1.59675106e-07  1.70636376e-07  3.90000000e-01 
 4.00000000e-01  4.58979349e-01  4.58979349e-01  3.53022020e-09  3.47779930e-09  4.58979349e-01  4.58979349e-01  4.58979349e-01  1.59675096e-07  1.70636266e-07  4.00000000e-01 
 4.10000000e-01  4.58979341e-01  4.58979341e-01  3.53022025e-09  3.47779925e-09  4.58979341e-01  4.58979341e-01  4.58979341e-01  1.59675085e-07  1.70636131e-07  4.10000000e-01 
 4.20000000e-01  4.58979321e-01  4.58979321e-01  3.53022024e-09  3.47779930e-09  4.58979321e-01  4.58979321e-01  4.58979321e-01  1.59675046e-07  1.70635790e-07  4.20000000e-01 
 4.30000000e-01  4.58979314e-01  4.58979314e-01  3.53022020e-09  3.47779924e-09  4.58979314e-01  4.58979314e-01  4.58979314e-01  1.59675031e-07  1.70635658e-07  4.30000000e-01 
 4.40000000e-01  4.58979330e-01  4.58979330e-01  3.53022020e-09  3.47779930e-09  4.58979330e-01  4.58979330e-01  4.58979330e-01  1.59675067e-07  1.70635779e-07  4.40000000e-01 
 4.50000000e-01  4.58979341e-01  4.58979341e-01  3.53022025e-09  3.47779930e-09  4.58979341e-01  4.58979341e-01  4.58979341e-01  1.59675089e-07  1.70635516e-07  4.50000000e-01 
 4.60000000e-01  4.58979336e-01  4.58979336e-01  3.53022018e-09  3.47779925e-09  4.58979336e-01  4.58979336e-01  4.58979336e-01  1.59675086e-07  1.70635406e-07  4.60000000e-01 
 4.70000000e-01  4.58979329e-01  4.58979329e-01  3.53022020e-09  3.47779924e-09  4.58979329e-01  4.58979329e-01  4.58979329e-01  1.59675071e-07  1.70635211e-07  4.70000000e-01 
 4.80000000e-01  4.58979334e-01  4.58979334e-01  3.53022020e-09  3.47779930e-09  4.58979334e-01  4.58979334e-01  4.58979334e-01  1.59675060e-07  1.70635165e-07  4.80000000e-01 
 4.90000000e-01  4.58979355e-01  4.58979355e-01  3.53022020e-09  3.47779930e-09  4.58979355e-01  4.58979355e-01  4.58979355e-01  1.59675102e-07  1.70635051e-07  4.90000000e-01 
 5.00000000e-01  4.58979346e-01  4.58979346e-01  3.53022025e-09  3.47779930e-09  4.58979346e-01  4.58979346e-01  4.58979346e-01  1.59675089e-07  1.70635012e-07  5.00000000e-01 
 5.10000000e-01  4.58979349e-01  4.58979349e-01  3.53022018e-09  3.47779930e-09  4.58979349e-01  4.58979349e-01  4.58979349e-01  1.59675082e-07  1.70634920e-07  5.10000000e-01 
 5.20000000e-01  4.58979321e-01  4.58979321e-01  3.53022020e-09  3.47779930e-09  4.58979321e-01  4.58979321e-01  4.58979321e-01  1.59675065e-07  1.70634603e-07  5.20000000e-01 
 5.30000000e-01  4.58979345e-01  4.58979345e-01  3.53022025e-09  3.47779930e-09  4.58979345e-01  4.58979345e-01  4.58979345e-01  1.59675089e-07  1.70634589e-07  5.30000000e-01 
 5.40000000e-01  4.58979371e-01  4.58979371e-01  3.53022019e-09  3.47779930e-09  4.58979371e-01  4.58979371e-01  4.58979371e-01  1.59675127e-07  1.70634529e-07  5.40000000e-01 
 5.50000000e-01  4.58979333e-01  4.58979333e-01  3.53022026e-09  3.47779930e-09  4.58979333e-01  4.58979333e-01  4.58979333e-01  1.59675071e-07  1.70634344e-07  5.50000000e-01 
 5.60000000e-01  4.58979368e-01  4.58979368e-01  3.53022019e-09  3.47779930e-09  4.58979368e-01  4.58979368e-01  4.58979368e-01  1.59675118e-07  1.70634387e-07  5.60000000e-01 
 5.70000000e-01  4.58979342e-01  4.58979342e-01  3.53022020e-09  3.47779925e-09  4.58979342e-01  4.58979342e-01  4.58979342e-01  1.59675092e-07  1.70634006e-07  5.70000000e-01 
 5.80000000e-01  4.58979314e-01  4.58979314e-01  3.53022025e-09  3.47779924e-09  4.58979314e-01  4.58979314e-01  4.58979314e-01  1.59675036e-07  1.70633754e-07  5.80000000e-01 
 5.90000000e-01  4.58979316e-01  4.58979316e-01  3.53022018e-09  3.47779930e-09  4.58979316e-01  4.58979316e-01  4.58979316e-01  1.59675052e-07  1.70633662e-07  5.90000000e-01 
 6.00000000e-01  4.58979338e-01  4.58979338e-01  3.53022020e-09  3.47779930e-09  4.58979338e-01  4.58979339e-01  4.58979338e-01  1.59675075e-07  1.70633683e-07  6.00000000e-01 
 6.10000000e-01  4.58979360e-01  4.58979360e-01  3.53022020e-09  3.47779930e-09  4.58979360e-01  4.58979360e-01  4.58979360e-01  1.59675113e-07  1.70633569e-07  6.10000000e-01 
 6.20000000e-01  4.58979348e-01  4.58979348e-01  3.53022020e-09  3.47779925e-09  4.58979348e-01  4.58979348e-01  4.58979348e-01  1.59675084e-07  1.70633342e-07  6.20000000e-01 
 6.30000000e-01  4.58979339e-01  4.58979339e-01  3.53022020e-09  3.47779925e-09  4.58979339e-01  4.58979339e-01  4.58979339e-01  1.59675066e-07  1.70633321e-07  6.30000000e-01 
 6.40000000e-01  4.58979336e-01  4.58979336e-01  3.53022020e-09  3.47779930e-09  4.58979336e-01  4.58979336e-01  4.58979336e-01  1.59675060e-07  1.70633186e-07  6.40000000e-01 
 6.50000000e-01  4.58979336e-01  4.58979336e-01  3.53022020e-09  3.47779930e-09  4.58979336e-01  4.58979336e-01  4.58979336e-01  1.59675067e-07  1.70632958e-07  6.50000000e-01 
 6.60000000e-01  4.58979343e-01  4.58979343e-01  3.53022020e-09  3.47779930e-09  4.58979343e-01  4.58979343e-01  4.58979343e-01  1.59675088e-07  1.70632902e-07  6.60000000e-01 
 6.70000000e-01  4.58979362e-01  4.58979362e-01  3.53022020e-09  3.47779930e-09  4.58979362e-01  4.58979362e-01  4.58979362e-01  1.59675122e-07  1.70632866e-07  6.70000000e-01 
 6.80000000e-01  4.58979353e-01  4.58979353e-01  3.53022020e-09  3.47779930e-09  4.58979353e-01  4.58979353e-01  4.58979353e-01  1.59675104e-07  1.70632681e-07  6.80000000e-01 
 6.90000000e-01  4.58979344e-01  4.58979344e-01  3.53022020e-09  3.47779930e-09  4.58979344e-01  4.58979344e-01  4.58979344e-01  1.59675090e-07  1.70632539e-07  6.90000000e-01 
 7.00000000e-01  4.58979332e-01  4.58979332e-01  3.53022020e-09  3.47779930e-09  4.58979332e-01  4.58979332e-01  4.58979332e-01  1.59675076e-07  1.70632312e-07  7.00000000e-01 
 7.10000000e-01  4.58979335e-01  4.58979335e-01  3.53022025e-09  3.47779930e-09  4.58979335e-01  4.58979335e-01  4.58979335e-01  1.59675073e-07  1.70632212e-07  7.10000000e-01 
 7.20000000e-01  4.58979351e-01  4.58979351e-01  3.53022018e-09  3.47779930e-09  4.58979351e-01  4.58979351e-01  4.58979351e-01  1.59675091e-07  1.70632127e-07  7.20000000e-01 
 7.30000000e-01  4.58979344e-01  4.58979344e-01  3.53022020e-09  3.47779925e-09  4.58979344e-01  4.58979344e-01  4.58979344e-01  1.59675103e-07  1.70631942e-07  7.30000000e-01 
 7.40000000e-01  4.58979353e-01  4.58979353e-01  3.53022025e-09  3.47779925e-09  4.58979353e-01  4.58979353e-01  4.58979353e-01  1.59675095e-07  1.70631921e-07  7.40000000e-01 
 7.50000000e-01  4.58979346e-01  4.58979346e-01  3.53022018e-09  3.47779930e-09  4.58979346e-01  4.58979346e-01  4.58979346e-01  1.59675099e-07  1.70631715e-07  7.50000000e-01 
 7.60000000e-01  4.58979353e-01  4.58979353e-01  3.53022020e-09  3.47779930e-09  4.58979353e-01  4.58979353e-01  4.58979353e-01  1.59675084e-07  1.70631715e-07  7.60000000e-01 
 7.70000000e-01  4.58979341e-01  4.58979341e-01  3.53022025e-09  3.47779930e-09  4.58979341e-01  4.58979341e-01  4.58979341e-01  1.59675084e-07  1.70631559e-07  7.70000000e-01 
 7.80000000e-01  4.58979345e-01  4.58979345e-01  3.53022024e-09  3.47779930e-09  4.58979345e-01  4.58979345e-01  4.58979345e-01  1.59675090e-07  1.70631409e-07  7.80000000e-01 
 7.90000000e-01  4.58979352e-01  4.58979352e-01  3.53022020e-09  3.47779930e-09  4.58979352e-01  4.58979352e-01  4.58979352e-01  1.59675096e-07  1.70631303e-07  7.90000000e-01 
 8.00000000e-01  4.58979354e-01  4.58979354e-01  3.53022025e-09  3.47779930e-09  4.58979354e-01  4.58979354e-01  4.58979354e-01  1.59675095e-07  1.70630983e-07  8.00000000e-01 
 8.10000000e-01  4.58979355e-01  4.58979355e-01  3.53022024e-09  3.47779930e-09  4.58979355e-01  4.58979355e-01  4.58979355e-01  1.59675118e-07  1.70630919e-07  8.10000000e-01 
 8.20000000e-01  4.58979369e-01  4.58979369e-01  3.53022020e-09  3.47779930e-09  4.58979369e-01  4.58979369e-01  4.58979369e-01  1.59675128e-07  1.70630884e-07  8.20000000e-01 
 8.30000000e-01  4.58979331e-01  4.58979331e-01  3.53022020e-09  3.47779930e-09  4.58979331e-01  4.58979331e-01  4.58979331e-01  1.59675070e-07  1.70630621e-07  8.30000000e-01 
 8.40000000e-01  4.58979331e-01  4.58979331e-01  3.53022020e-09  3.47779924e-09  4.58979331e-01  4.58979331e-01  4.58979331e-01  1.59675055e-07  1.70630521e-07  8.40000000e-01 
 8.50000000e-01  4.58979349e-01  4.58979349e-01  3.53022020e-09  3.47779930e-09  4.58979349e-01  4.58979349e-01  4.58979349e-01  1.59675090e-07  1.70630472e-07  8.50000000e-01 
 8.60000000e-01  4.58979356e-01  4.58979356e-01  3.53022025e-09  3.47779930e-09  4.58979356e-01  4.58979356e-01  4.58979356e-01  1.59675110e-07  1.70630273e-07  8.60000000e-01 
 8.70000000e-01  4.58979351e-01  4.58979351e-01  3.53022018e-09  3.47779930e-09  4.58979351e-01  4.58979352e-01  4.58979351e-01  1.59675088e-07  1.70630095e-07  8.70000000e-01 
 8.80000000e-01  4.58979358e-01  4.58979358e-01  3.53022020e-09  3.47779925e-09  4.58979358e-01  4.58979358e-01  4.58979358e-01  1.59675105e-07  1.70629981e-07  8.80000000e-01 
 8.90000000e-01  4.58979349e-01  4.58979349e-01  3.53022020e-09  3.47779930e-09  4.58979349e-01  4.58979349e-01  4.58979349e-01  1.59675083e-07  1.70629825e-07  8.90000000e-01 
 9.00000000e-01  4.58979345e-01  4.58979345e-01  3.53022020e-09  3.47779925e-09  4.58979345e-01  4.58979345e-01  4.58979345e-01  1.59675077e-07  1.70629683e-07  9.00000000e-01 
 9.10000000e-01  4.58979342e-01  4.58979343e-01  3.53022020e-09  3.47779930e-09  4.58979342e-01  4.58979343e-01  4.58979342e-01  1.59675086e-07  1.70629498e-07  9.10000000e-01 
 9.20000000e-01  4.58979350e-01  4.58979350e-01  3.53022020e-09  3.47779930e-09  4.58979350e-01  4.58979350e-01  4.58979350e-01  1.59675088e-07  1.70629448e-07  9.20000000e-01 
 9.30000000e-01  4.58979366e-01  4.58979366e-01  3.53022026e-09  3.47779930e-09  4.58979366e-01  4.58979366e-01  4.58979366e-01  1.59675126e-07  1.70629292e-07  9.30000000e-01 
 9.40000000e-01  4.58979344e-01  4.58979344e-01  3.53022024e-09  3.47779930e-09  4.58979344e-01  4.58979344e-01  4.58979344e-01  1.59675092e-07  1.70629058e-07  9.40000000e-01 
 9.50000000e-01  4.58979340e-01  4.58979340e-01  3.53022020e-09  3.47779930e-09  4.58979340e-01  4.58979341e-01  4.58979340e-01  1.59675072e-07  1.70629008e-07  9.50000000e-01 
 9.60000000e-01  4.58979358e-01  4.58979358e-01  3.53022020e-09  3.47779925e-09  4.58979358e-01  4.58979358e-01  4.58979358e-01  1.59675090e-07  1.70628894e-07  9.60000000e-01 
 9.70000000e-01  4.58979351e-01  4.58979351e-01  3.53022020e-09  3.47779930e-09  4.58979351e-01  4.58979351e-01  4.58979351e-01  1.59675094e-07  1.70628731e-07  9.70000000e-01 
 9.80000000e-01  4.58979353e-01  4.58979353e-01  3.53022020e-09  3.47779930e-09  4.58979353e-01  4.58979353e-01  4.58979353e-01  1.59675101e-07  1.70628617e-07  9.80000000e-01 
 9.90000000e-01  4.58979340e-01  4.58979340e-01  3.53022025e-09  3.47779930e-09  4.58979340e-01  4.58979340e-01  4.58979340e-01  1.59675078e-07  1.70628319e-07  9.90000000e-01 
 1.00000000e+00  4.58979345e-01  4.58979346e-01  3.53022024e-09  3.47779930e-09  4.58979346e-01  4.58979346e-01  4.58979346e-01  1.59675082e-07  1.70628240e-07  1.00000000e+00 
 1.01000000e+00  4.58979350e-01  4.58979350e-01  3.53022020e-09  3.47779925e-09  4.58979350e-01  4.58979350e-01  4.58979350e-01  1.59675088e-07  1.70628162e-07  1.01000000e+00 
 1.02000000e+00  4.58979356e-01  4.58979356e-01  3.53022020e-09  3.47779925e-09  4.58979356e-01  4.58979356e-01  4.58979356e-01  1.59675124e-07  1.70627878e-07  1.02000000e+00 
 1.03000000e+00  4.58979371e-01  4.58979371e-01  3.53022020e-09  3.47779930e-09  4.58979371e-01  4.58979371e-01  4.58979371e-01  1.59675118e-07  1.70627757e-07  1.03000000e+00 
 1.04000000e+00  4.58979350e-01  4.58979350e-01  3.53022025e-09  3.47779930e-09  4.58979350e-01  4.58979350e-01  4.58979350e-01  1.59675089e-07  1.70627480e-07  1.04000000e+00 
 1.05000000e+00  4.58979333e-01  4.58979333e-01  3.53022024e-09  3.47779930e-09  4.58979333e-01  4.58979333e-01  4.58979333e-01  1.59675062e-07  1.70627366e-07  1.05000000e+00 
 1.06000000e+00  4.58979333e-01  4.58979333e-01  3.53022020e-09  3.47779930e-09  4.58979333e-01  4.58979333e-01  4.58979333e-01  1.59675064e-07  1.70627217e-07  1.06000000e+00 
 1.07000000e+00  4.58979326e-01  4.58979326e-01  3.53022020e-09  3.47779930e-09  4.58979326e-01  4.58979326e-01  4.58979326e-01  1.59675064e-07  1.70627118e-07  1.07000000e+00 
 1.08000000e+00  4.58979345e-01  4.58979345e-01  3.53022025e-09  3.47779925e-09  4.58979345e-01  4.58979345e-01  4.58979345e-01  1.59675076e-07  1.70626883e-07  1.08000000e+00 
 1.09000000e+00  4.58979356e-01  4.58979356e-01  3.53022019e-09  3.47779930e-09  4.58979356e-01  4.58979356e-01  4.58979356e-01  1.59675113e-07  1.70626819e-07  1.09000000e+00 
 1.10000000e+00  4.58979343e-01  4.58979343e-01  3.53022020e-09  3.47779930e-09  4.58979343e-01  4.58979343e-01  4.58979343e-01  1.59675092e-07  1.70626613e-07  1.10000000e+00 
