 v-sweep         v(b0)           v(b1)           v(b2)           v(b3)           v(b4)           v(b5)           v(b6)           i(vbias)        i(viout)        v(vout)        
 0.00000000e+00  4.56294225e-01  3.42709341e-09  3.20534976e-09  3.16196664e-09  4.56294225e-01  4.56294226e-01  4.56294225e-01  1.55083084e-07  1.59452834e-07  0.00000000e+00 
 1.00000000e-02  4.56294246e-01  3.42709339e-09  3.20534974e-09  3.16196661e-09  4.56294246e-01  4.56294246e-01  4.56294246e-01  1.55083103e-07  1.59452426e-07  1.00000000e-02 
 2.00000000e-02  4.56294265e-01  3.42709346e-09  3.20534974e-09  3.16196662e-09  4.56294265e-01  4.56294265e-01  4.56294265e-01  1.55083145e-07  1.59452020e-07  2.00000000e-02 
 3.00000000e-02  4.56294256e-01  3.42709344e-09  3.20534974e-09  3.16196662e-09  4.56294256e-01  4.56294256e-01  4.56294256e-01  1.55083133e-07  1.59451593e-07  3.00000000e-02 
 4.00000000e-02  4.56294264e-01  3.42709339e-09  3.20534974e-09  3.16196662e-09  4.56294264e-01  4.56294264e-01  4.56294264e-01  1.55083146e-07  1.59451279e-07  4.00000000e-02 
 5.00000000e-02  4.56294235e-01  3.42709340e-09  3.20534974e-09  3.16196661e-09  4.56294235e-01  4.56294235e-01  4.56294235e-01  1.55083101e-07  1.59450733e-07  5.00000000e-02 
 6.00000000e-02  4.56294267e-01  3.42709345e-09  3.20534974e-09  3.16196662e-09  4.56294267e-01  4.56294267e-01  4.56294267e-01  1.55083124e-07  1.59450548e-07  6.00000000e-02 
 7.00000000e-02  4.56294243e-01  3.42709344e-09  3.20534974e-09  3.16196667e-09  4.56294243e-01  4.56294243e-01  4.56294243e-01  1.55083118e-07  1.59450092e-07  7.00000000e-02 
 8.00000000e-02  4.56294249e-01  3.42709344e-09  3.20534974e-09  3.16196661e-09  4.56294249e-01  4.56294249e-01  4.56294249e-01  1.55083111e-07  1.59449650e-07  8.00000000e-02 
 9.00000000e-02  4.56294219e-01  3.42709338e-09  3.20534974e-09  3.16196661e-09  4.56294219e-01  4.56294219e-01  4.56294219e-01  1.55083072e-07  1.59449362e-07  9.00000000e-02 
 1.00000000e-01  4.56294236e-01  3.42709340e-09  3.20534974e-09  3.16196667e-09  4.56294236e-01  4.56294236e-01  4.56294236e-01  1.55083092e-07  1.59449079e-07  1.00000000e-01 
 1.10000000e-01  4.56294230e-01  3.42709345e-09  3.20534974e-09  3.16196661e-09  4.56294230e-01  4.56294230e-01  4.56294230e-01  1.55083091e-07  1.59448683e-07  1.10000000e-01 
 1.20000000e-01  4.56294266e-01  3.42709344e-09  3.20534974e-09  3.16196662e-09  4.56294266e-01  4.56294266e-01  4.56294266e-01  1.55083130e-07  1.59448675e-07  1.20000000e-01 
 1.30000000e-01  4.56294255e-01  3.42709344e-09  3.20534974e-09  3.16196661e-09  4.56294255e-01  4.56294255e-01  4.56294255e-01  1.55083127e-07  1.59448371e-07  1.30000000e-01 
 1.40000000e-01  4.56294237e-01  3.42709344e-09  3.20534974e-09  3.16196661e-09  4.56294237e-01  4.56294237e-01  4.56294237e-01  1.55083102e-07  1.59447918e-07  1.40000000e-01 
 1.50000000e-01  4.56294230e-01  3.42709344e-09  3.20534974e-09  3.16196661e-09  4.56294230e-01  4.56294230e-01  4.56294230e-01  1.55083092e-07  1.59447714e-07  1.50000000e-01 
 1.60000000e-01  4.56294261e-01  3.42709344e-09  3.20534974e-09  3.16196662e-09  4.56294261e-01  4.56294261e-01  4.56294261e-01  1.55083140e-07  1.59447540e-07  1.60000000e-01 
 1.70000000e-01  4.56294243e-01  3.42709344e-09  3.20534974e-09  3.16196661e-09  4.56294243e-01  4.56294244e-01  4.56294243e-01  1.55083115e-07  1.59447348e-07  1.70000000e-01 
 1.80000000e-01  4.56294267e-01  3.42709344e-09  3.20534974e-09  3.16196662e-09  4.56294267e-01  4.56294267e-01  4.56294267e-01  1.55083121e-07  1.59447174e-07  1.80000000e-01 
 1.90000000e-01  4.56294263e-01  3.42709344e-09  3.20534974e-09  3.16196662e-09  4.56294263e-01  4.56294263e-01  4.56294263e-01  1.55083130e-07  1.59446955e-07  1.90000000e-01 
 2.00000000e-01  4.56294243e-01  3.42709344e-09  3.20534974e-09  3.16196661e-09  4.56294243e-01  4.56294243e-01  4.56294243e-01  1.55083108e-07  1.59446676e-07  2.00000000e-01 
 2.10000000e-01  4.56294242e-01  3.42709344e-09  3.20534974e-09  3.16196661e-09  4.56294242e-01  4.56294243e-01  4.56294242e-01  1.55083100e-07  1.59446381e-07  2.10000000e-01 
 2.20000000e-01  4.56294259e-01  3.42709344e-09  3.20534974e-09  3.16196662e-09  4.56294259e-01  4.56294259e-01  4.56294259e-01  1.55083118e-07  1.59446271e-07  2.20000000e-01 
 2.30000000e-01  4.56294273e-01  3.42709344e-09  3.20534974e-09  3.16196662e-09  4.56294273e-01  4.56294273e-01  4.56294273e-01  1.55083154e-07  1.59446069e-07  2.30000000e-01 
 2.40000000e-01  4.56294239e-01  3.42709344e-09  3.20534974e-09  3.16196661e-09  4.56294239e-01  4.56294239e-01  4.56294239e-01  1.55083103e-07  1.59445765e-07  2.40000000e-01 
 2.50000000e-01  4.56294255e-01  3.42709344e-09  3.20534974e-09  3.16196661e-09  4.56294255e-01  4.56294255e-01  4.56294255e-01  1.55083134e-07  1.59445765e-07  2.50000000e-01 
 2.60000000e-01  4.56294260e-01  3.42709344e-09  3.20534974e-09  3.16196662e-09  4.56294260e-01  4.56294261e-01  4.56294261e-01  1.55083137e-07  1.59445566e-07  2.60000000e-01 
 2.70000000e-01  4.56294271e-01  3.42709344e-09  3.20534974e-09  3.16196662e-09  4.56294271e-01  4.56294271e-01  4.56294271e-01  1.55083152e-07  1.59445525e-07  2.70000000e-01 
 2.80000000e-01  4.56294251e-01  3.42709344e-09  3.20534974e-09  3.16196661e-09  4.56294251e-01  4.56294251e-01  4.56294251e-01  1.55083131e-07  1.59445181e-07  2.80000000e-01 
 2.90000000e-01  4.56294227e-01  3.42709344e-09  3.20534974e-09  3.16196661e-09  4.56294227e-01  4.56294227e-01  4.56294227e-01  1.55083075e-07  1.59444948e-07  2.90000000e-01 
 3.00000000e-01  4.56294258e-01  3.42709344e-09  3.20534968e-09  3.16196662e-09  4.56294258e-01  4.56294258e-01  4.56294258e-01  1.55083115e-07  1.59444941e-07  3.00000000e-01 
 3.10000000e-01  4.56294241e-01  3.42709344e-09  3.20534975e-09  3.16196661e-09  4.56294241e-01  4.56294241e-01  4.56294241e-01  1.55083120e-07  1.59444642e-07  3.10000000e-01 
 3.20000000e-01  4.56294252e-01  3.42709344e-09  3.20534973e-09  3.16196661e-09  4.56294252e-01  4.56294252e-01  4.56294252e-01  1.55083111e-07  1.59444578e-07  3.20000000e-01 
 3.30000000e-01  4.56294263e-01  3.42709339e-09  3.20534974e-09  3.16196662e-09  4.56294263e-01  4.56294263e-01  4.56294263e-01  1.55083138e-07  1.59444490e-07  3.30000000e-01 
 3.40000000e-01  4.56294247e-01  3.42709340e-09  3.20534974e-09  3.16196661e-09  4.56294247e-01  4.56294247e-01  4.56294247e-01  1.55083114e-07  1.59444291e-07  3.40000000e-01 
 3.50000000e-01  4.56294256e-01  3.42709345e-09  3.20534974e-09  3.16196662e-09  4.56294256e-01  4.56294257e-01  4.56294257e-01  1.55083126e-07  1.59444305e-07  3.50000000e-01 
 3.60000000e-01  4.56294258e-01  3.42709344e-09  3.20534974e-09  3.16196662e-09  4.56294258e-01  4.56294258e-01  4.56294258e-01  1.55083130e-07  1.59444166e-07  3.60000000e-01 
 3.70000000e-01  4.56294288e-01  3.42709344e-09  3.20534974e-09  3.16196667e-09  4.56294288e-01  4.56294288e-01  4.56294288e-01  1.55083166e-07  1.59443950e-07  3.70000000e-01 
 3.80000000e-01  4.56294224e-01  3.42709344e-09  3.20534974e-09  3.16196661e-09  4.56294224e-01  4.56294224e-01  4.56294224e-01  1.55083074e-07  1.59443708e-07  3.80000000e-01 
 3.90000000e-01  4.56294252e-01  3.42709344e-09  3.20534974e-09  3.16196661e-09  4.56294252e-01  4.56294252e-01  4.56294252e-01  1.55083127e-07  1.59443623e-07  3.90000000e-01 
 4.00000000e-01  4.56294254e-01  3.42709344e-09  3.20534974e-09  3.16196661e-09  4.56294254e-01  4.56294254e-01  4.56294254e-01  1.55083121e-07  1.59443502e-07  4.00000000e-01 
 4.10000000e-01  4.56294254e-01  3.42709344e-09  3.20534974e-09  3.16196661e-09  4.56294254e-01  4.56294254e-01  4.56294254e-01  1.55083126e-07  1.59443349e-07  4.10000000e-01 
 4.20000000e-01  4.56294242e-01  3.42709344e-09  3.20534974e-09  3.16196661e-09  4.56294242e-01  4.56294242e-01  4.56294242e-01  1.55083109e-07  1.59443267e-07  4.20000000e-01 
 4.30000000e-01  4.56294284e-01  3.42709339e-09  3.20534974e-09  3.16196662e-09  4.56294284e-01  4.56294285e-01  4.56294285e-01  1.55083155e-07  1.59443260e-07  4.30000000e-01 
 4.40000000e-01  4.56294247e-01  3.42709340e-09  3.20534974e-09  3.16196661e-09  4.56294247e-01  4.56294248e-01  4.56294247e-01  1.55083128e-07  1.59443033e-07  4.40000000e-01 
 4.50000000e-01  4.56294262e-01  3.42709345e-09  3.20534974e-09  3.16196662e-09  4.56294262e-01  4.56294262e-01  4.56294262e-01  1.55083126e-07  1.59442887e-07  4.50000000e-01 
 4.60000000e-01  4.56294258e-01  3.42709344e-09  3.20534974e-09  3.16196662e-09  4.56294258e-01  4.56294258e-01  4.56294258e-01  1.55083132e-07  1.59442809e-07  4.60000000e-01 
 4.70000000e-01  4.56294271e-01  3.42709344e-09  3.20534974e-09  3.16196662e-09  4.56294271e-01  4.56294272e-01  4.56294271e-01  1.55083156e-07  1.59442713e-07  4.70000000e-01 
 4.80000000e-01  4.56294247e-01  3.42709344e-09  3.20534974e-09  3.16196661e-09  4.56294247e-01  4.56294247e-01  4.56294247e-01  1.55083129e-07  1.59442465e-07  4.80000000e-01 
 4.90000000e-01  4.56294240e-01  3.42709344e-09  3.20534974e-09  3.16196661e-09  4.56294240e-01  4.56294240e-01  4.56294240e-01  1.55083102e-07  1.59442440e-07  4.90000000e-01 
 5.00000000e-01  4.56294268e-01  3.42709344e-09  3.20534974e-09  3.16196662e-09  4.56294268e-01  4.56294268e-01  4.56294268e-01  1.55083133e-07  1.59442276e-07  5.00000000e-01 
 5.10000000e-01  4.56294272e-01  3.42709344e-09  3.20534974e-09  3.16196662e-09  4.56294272e-01  4.56294272e-01  4.56294272e-01  1.55083162e-07  1.59442223e-07  5.10000000e-01 
 5.20000000e-01  4.56294246e-01  3.42709344e-09  3.20534974e-09  3.16196661e-09  4.56294246e-01  4.56294246e-01  4.56294246e-01  1.55083111e-07  1.59442095e-07  5.20000000e-01 
 5.30000000e-01  4.56294258e-01  3.42709344e-09  3.20534974e-09  3.16196662e-09  4.56294258e-01  4.56294258e-01  4.56294258e-01  1.55083118e-07  1.59442031e-07  5.30000000e-01 
 5.40000000e-01  4.56294278e-01  3.42709344e-09  3.20534974e-09  3.16196662e-09  4.56294278e-01  4.56294278e-01  4.56294278e-01  1.55083173e-07  1.59441957e-07  5.40000000e-01 
 5.50000000e-01  4.56294270e-01  3.42709344e-09  3.20534974e-09  3.16196662e-09  4.56294270e-01  4.56294271e-01  4.56294270e-01  1.55083157e-07  1.59441772e-07  5.50000000e-01 
 5.60000000e-01  4.56294270e-01  3.42709344e-09  3.20534974e-09  3.16196662e-09  4.56294270e-01  4.56294270e-01  4.56294270e-01  1.55083141e-07  1.59441750e-07  5.60000000e-01 
 5.70000000e-01  4.56294273e-01  3.42709344e-09  3.20534974e-09  3.16196662e-09  4.56294273e-01  4.56294273e-01  4.56294273e-01  1.55083152e-07  1.59441555e-07  5.70000000e-01 
 5.80000000e-01  4.56294235e-01  3.42709344e-09  3.20534974e-09  3.16196661e-09  4.56294235e-01  4.56294235e-01  4.56294235e-01  1.55083098e-07  1.59441235e-07  5.80000000e-01 
 5.90000000e-01  4.56294247e-01  3.42709344e-09  3.20534974e-09  3.16196661e-09  4.56294247e-01  4.56294247e-01  4.56294247e-01  1.55083100e-07  1.59441214e-07  5.90000000e-01 
 6.00000000e-01  4.56294239e-01  3.42709344e-09  3.20534974e-09  3.16196661e-09  4.56294239e-01  4.56294239e-01  4.56294239e-01  1.55083090e-07  1.59441178e-07  6.00000000e-01 
 6.10000000e-01  4.56294264e-01  3.42709344e-09  3.20534974e-09  3.16196662e-09  4.56294264e-01  4.56294264e-01  4.56294264e-01  1.55083128e-07  1.59441051e-07  6.10000000e-01 
 6.20000000e-01  4.56294245e-01  3.42709344e-09  3.20534974e-09  3.16196661e-09  4.56294245e-01  4.56294245e-01  4.56294245e-01  1.55083114e-07  1.59440987e-07  6.20000000e-01 
 6.30000000e-01  4.56294248e-01  3.42709344e-09  3.20534974e-09  3.16196661e-09  4.56294248e-01  4.56294248e-01  4.56294248e-01  1.55083110e-07  1.59440788e-07  6.30000000e-01 
 6.40000000e-01  4.56294252e-01  3.42709344e-09  3.20534974e-09  3.16196661e-09  4.56294252e-01  4.56294252e-01  4.56294252e-01  1.55083126e-07  1.59440781e-07  6.40000000e-01 
 6.50000000e-01  4.56294251e-01  3.42709344e-09  3.20534974e-09  3.16196661e-09  4.56294251e-01  4.56294252e-01  4.56294252e-01  1.55083116e-07  1.59440503e-07  6.50000000e-01 
 6.60000000e-01  4.56294265e-01  3.42709344e-09  3.20534974e-09  3.16196662e-09  4.56294265e-01  4.56294265e-01  4.56294265e-01  1.55083133e-07  1.59440560e-07  6.60000000e-01 
 6.70000000e-01  4.56294241e-01  3.42709344e-09  3.20534974e-09  3.16196661e-09  4.56294241e-01  4.56294242e-01  4.56294242e-01  1.55083129e-07  1.59440383e-07  6.70000000e-01 
 6.80000000e-01  4.56294271e-01  3.42709339e-09  3.20534974e-09  3.16196662e-09  4.56294271e-01  4.56294272e-01  4.56294272e-01  1.55083153e-07  1.59440255e-07  6.80000000e-01 
 6.90000000e-01  4.56294255e-01  3.42709345e-09  3.20534974e-09  3.16196661e-09  4.56294255e-01  4.56294255e-01  4.56294255e-01  1.55083124e-07  1.59440120e-07  6.90000000e-01 
 7.00000000e-01  4.56294224e-01  3.42709344e-09  3.20534974e-09  3.16196661e-09  4.56294224e-01  4.56294224e-01  4.56294224e-01  1.55083074e-07  1.59439878e-07  7.00000000e-01 
 7.10000000e-01  4.56294264e-01  3.42709344e-09  3.20534974e-09  3.16196662e-09  4.56294264e-01  4.56294265e-01  4.56294264e-01  1.55083134e-07  1.59439971e-07  7.10000000e-01 
 7.20000000e-01  4.56294269e-01  3.42709344e-09  3.20534974e-09  3.16196662e-09  4.56294269e-01  4.56294269e-01  4.56294269e-01  1.55083157e-07  1.59439807e-07  7.20000000e-01 
 7.30000000e-01  4.56294262e-01  3.42709344e-09  3.20534974e-09  3.16196662e-09  4.56294262e-01  4.56294263e-01  4.56294263e-01  1.55083134e-07  1.59439672e-07  7.30000000e-01 
 7.40000000e-01  4.56294243e-01  3.42709344e-09  3.20534974e-09  3.16196661e-09  4.56294243e-01  4.56294244e-01  4.56294244e-01  1.55083124e-07  1.59439494e-07  7.40000000e-01 
 7.50000000e-01  4.56294247e-01  3.42709344e-09  3.20534974e-09  3.16196661e-09  4.56294247e-01  4.56294247e-01  4.56294247e-01  1.55083118e-07  1.59439409e-07  7.50000000e-01 
 7.60000000e-01  4.56294253e-01  3.42709344e-09  3.20534974e-09  3.16196661e-09  4.56294253e-01  4.56294253e-01  4.56294253e-01  1.55083126e-07  1.59439310e-07  7.60000000e-01 
 7.70000000e-01  4.56294241e-01  3.42709344e-09  3.20534968e-09  3.16196661e-09  4.56294241e-01  4.56294241e-01  4.56294241e-01  1.55083113e-07  1.59439097e-07  7.70000000e-01 
 7.80000000e-01  4.56294262e-01  3.42709344e-09  3.20534975e-09  3.16196662e-09  4.56294262e-01  4.56294262e-01  4.56294262e-01  1.55083124e-07  1.59439033e-07  7.80000000e-01 
 7.90000000e-01  4.56294257e-01  3.42709344e-09  3.20534973e-09  3.16196662e-09  4.56294257e-01  4.56294257e-01  4.56294257e-01  1.55083135e-07  1.59438954e-07  7.90000000e-01 
 8.00000000e-01  4.56294243e-01  3.42709344e-09  3.20534974e-09  3.16196661e-09  4.56294243e-01  4.56294243e-01  4.56294243e-01  1.55083115e-07  1.59438713e-07  8.00000000e-01 
 8.10000000e-01  4.56294237e-01  3.42709344e-09  3.20534974e-09  3.16196661e-09  4.56294237e-01  4.56294237e-01  4.56294237e-01  1.55083094e-07  1.59438670e-07  8.10000000e-01 
 8.20000000e-01  4.56294236e-01  3.42709344e-09  3.20534974e-09  3.16196661e-09  4.56294236e-01  4.56294236e-01  4.56294236e-01  1.55083077e-07  1.59438457e-07  8.20000000e-01 
 8.30000000e-01  4.56294244e-01  3.42709344e-09  3.20534974e-09  3.16196661e-09  4.56294244e-01  4.56294244e-01  4.56294244e-01  1.55083129e-07  1.59438343e-07  8.30000000e-01 
 8.40000000e-01  4.56294251e-01  3.42709344e-09  3.20534974e-09  3.16196661e-09  4.56294251e-01  4.56294251e-01  4.56294251e-01  1.55083127e-07  1.59438372e-07  8.40000000e-01 
 8.50000000e-01  4.56294257e-01  3.42709344e-09  3.20534968e-09  3.16196662e-09  4.56294257e-01  4.56294257e-01  4.56294257e-01  1.55083126e-07  1.59438294e-07  8.50000000e-01 
 8.60000000e-01  4.56294287e-01  3.42709344e-09  3.20534975e-09  3.16196662e-09  4.56294287e-01  4.56294287e-01  4.56294287e-01  1.55083178e-07  1.59438258e-07  8.60000000e-01 
 8.70000000e-01  4.56294280e-01  3.42709344e-09  3.20534973e-09  3.16196662e-09  4.56294280e-01  4.56294280e-01  4.56294280e-01  1.55083164e-07  1.59438038e-07  8.70000000e-01 
 8.80000000e-01  4.56294242e-01  3.42709344e-09  3.20534974e-09  3.16196661e-09  4.56294242e-01  4.56294242e-01  4.56294242e-01  1.55083111e-07  1.59437839e-07  8.80000000e-01 
 8.90000000e-01  4.56294256e-01  3.42709344e-09  3.20534974e-09  3.16196661e-09  4.56294256e-01  4.56294256e-01  4.56294256e-01  1.55083115e-07  1.59437775e-07  8.90000000e-01 
 9.00000000e-01  4.56294254e-01  3.42709344e-09  3.20534974e-09  3.16196661e-09  4.56294254e-01  4.56294255e-01  4.56294255e-01  1.55083121e-07  1.59437626e-07  9.00000000e-01 
 9.10000000e-01  4.56294260e-01  3.42709344e-09  3.20534974e-09  3.16196662e-09  4.56294260e-01  4.56294260e-01  4.56294260e-01  1.55083126e-07  1.59437491e-07  9.10000000e-01 
 9.20000000e-01  4.56294253e-01  3.42709344e-09  3.20534974e-09  3.16196661e-09  4.56294253e-01  4.56294253e-01  4.56294253e-01  1.55083122e-07  1.59437306e-07  9.20000000e-01 
 9.30000000e-01  4.56294240e-01  3.42709344e-09  3.20534974e-09  3.16196661e-09  4.56294240e-01  4.56294240e-01  4.56294240e-01  1.55083102e-07  1.59437207e-07  9.30000000e-01 
 9.40000000e-01  4.56294254e-01  3.42709339e-09  3.20534974e-09  3.16196661e-09  4.56294254e-01  4.56294254e-01  4.56294254e-01  1.55083123e-07  1.59437057e-07  9.40000000e-01 
 9.50000000e-01  4.56294279e-01  3.42709340e-09  3.20534974e-09  3.16196662e-09  4.56294279e-01  4.56294279e-01  4.56294279e-01  1.55083166e-07  1.59437022e-07  9.50000000e-01 
 9.60000000e-01  4.56294253e-01  3.42709345e-09  3.20534974e-09  3.16196661e-09  4.56294253e-01  4.56294253e-01  4.56294253e-01  1.55083125e-07  1.59436802e-07  9.60000000e-01 
 9.70000000e-01  4.56294247e-01  3.42709344e-09  3.20534974e-09  3.16196661e-09  4.56294247e-01  4.56294247e-01  4.56294247e-01  1.55083122e-07  1.59436695e-07  9.70000000e-01 
 9.80000000e-01  4.56294252e-01  3.42709344e-09  3.20534974e-09  3.16196661e-09  4.56294252e-01  4.56294252e-01  4.56294252e-01  1.55083130e-07  1.59436546e-07  9.80000000e-01 
 9.90000000e-01  4.56294259e-01  3.42709344e-09  3.20534968e-09  3.16196662e-09  4.56294259e-01  4.56294259e-01  4.56294259e-01  1.55083125e-07  1.59436432e-07  9.90000000e-01 
 1.00000000e+00  4.56294255e-01  3.42709344e-09  3.20534969e-09  3.16196661e-09  4.56294255e-01  4.56294256e-01  4.56294255e-01  1.55083133e-07  1.59436368e-07  1.00000000e+00 
 1.01000000e+00  4.56294247e-01  3.42709344e-09  3.20534969e-09  3.16196661e-09  4.56294247e-01  4.56294247e-01  4.56294247e-01  1.55083103e-07  1.59436119e-07  1.01000000e+00 
 1.02000000e+00  4.56294261e-01  3.42709344e-09  3.20534974e-09  3.16196662e-09  4.56294261e-01  4.56294261e-01  4.56294261e-01  1.55083140e-07  1.59435999e-07  1.02000000e+00 
 1.03000000e+00  4.56294272e-01  3.42709344e-09  3.20534973e-09  3.16196667e-09  4.56294272e-01  4.56294272e-01  4.56294272e-01  1.55083154e-07  1.59435942e-07  1.03000000e+00 
 1.04000000e+00  4.56294259e-01  3.42709344e-09  3.20534974e-09  3.16196662e-09  4.56294259e-01  4.56294259e-01  4.56294259e-01  1.55083134e-07  1.59435743e-07  1.04000000e+00 
 1.05000000e+00  4.56294260e-01  3.42709344e-09  3.20534974e-09  3.16196662e-09  4.56294260e-01  4.56294260e-01  4.56294260e-01  1.55083131e-07  1.59435601e-07  1.05000000e+00 
 1.06000000e+00  4.56294264e-01  3.42709344e-09  3.20534974e-09  3.16196662e-09  4.56294264e-01  4.56294265e-01  4.56294265e-01  1.55083145e-07  1.59435558e-07  1.06000000e+00 
 1.07000000e+00  4.56294263e-01  3.42709344e-09  3.20534974e-09  3.16196662e-09  4.56294263e-01  4.56294263e-01  4.56294263e-01  1.55083139e-07  1.59435423e-07  1.07000000e+00 
 1.08000000e+00  4.56294253e-01  3.42709344e-09  3.20534974e-09  3.16196661e-09  4.56294253e-01  4.56294253e-01  4.56294253e-01  1.55083116e-07  1.59435110e-07  1.08000000e+00 
 1.09000000e+00  4.56294233e-01  3.42709344e-09  3.20534974e-09  3.16196661e-09  4.56294233e-01  4.56294233e-01  4.56294233e-01  1.55083090e-07  1.59435046e-07  1.09000000e+00 
 1.10000000e+00  4.56294250e-01  3.42709344e-09  3.20534974e-09  3.16196661e-09  4.56294250e-01  4.56294250e-01  4.56294250e-01  1.55083111e-07  1.59434769e-07  1.10000000e+00 
