 v-sweep         v(b0)           v(b1)           v(b2)           v(b3)           v(b4)           v(b5)           v(b6)           i(vbias)        i(viout)        v(vout)        
 0.00000000e+00  3.23178554e-09  3.31399987e-09  3.44697016e-09  3.20434986e-09  3.34085198e-09  4.57570508e-01  4.57570508e-01  1.58435670e-07  1.39062263e-07  0.00000000e+00 
 1.00000000e-02  3.23178548e-09  3.31399987e-09  3.44697015e-09  3.20434986e-09  3.34085197e-09  4.57570504e-01  4.57570504e-01  1.58435650e-07  1.39061759e-07  1.00000000e-02 
 2.00000000e-02  3.23178553e-09  3.31399987e-09  3.44697015e-09  3.20434986e-09  3.34085197e-09  4.57570498e-01  4.57570498e-01  1.58435638e-07  1.39061400e-07  2.00000000e-02 
 3.00000000e-02  3.23178554e-09  3.31399987e-09  3.44697016e-09  3.20434980e-09  3.34085203e-09  4.57570512e-01  4.57570512e-01  1.58435664e-07  1.39061083e-07  3.00000000e-02 
 4.00000000e-02  3.23178554e-09  3.31399987e-09  3.44697016e-09  3.20434980e-09  3.34085197e-09  4.57570511e-01  4.57570511e-01  1.58435665e-07  1.39060706e-07  4.00000000e-02 
 5.00000000e-02  3.23178554e-09  3.31399987e-09  3.44697015e-09  3.20434986e-09  3.34085197e-09  4.57570504e-01  4.57570504e-01  1.58435652e-07  1.39060243e-07  5.00000000e-02 
 6.00000000e-02  3.23178554e-09  3.31399992e-09  3.44697010e-09  3.20434986e-09  3.34085203e-09  4.57570514e-01  4.57570514e-01  1.58435668e-07  1.39059916e-07  6.00000000e-02 
 7.00000000e-02  3.23178548e-09  3.31399987e-09  3.44697016e-09  3.20434986e-09  3.34085198e-09  4.57570535e-01  4.57570535e-01  1.58435700e-07  1.39059742e-07  7.00000000e-02 
 8.00000000e-02  3.23178554e-09  3.31399987e-09  3.44697016e-09  3.20434980e-09  3.34085197e-09  4.57570514e-01  4.57570514e-01  1.58435668e-07  1.39059430e-07  8.00000000e-02 
 9.00000000e-02  3.23178554e-09  3.31399987e-09  3.44697016e-09  3.20434980e-09  3.34085197e-09  4.57570512e-01  4.57570512e-01  1.58435664e-07  1.39059072e-07  9.00000000e-02 
 1.00000000e-01  3.23178548e-09  3.31399987e-09  3.44697016e-09  3.20434986e-09  3.34085197e-09  4.57570511e-01  4.57570511e-01  1.58435659e-07  1.39058718e-07  1.00000000e-01 
 1.10000000e-01  3.23178548e-09  3.31399987e-09  3.44697016e-09  3.20434986e-09  3.34085198e-09  4.57570519e-01  4.57570518e-01  1.58435676e-07  1.39058556e-07  1.10000000e-01 
 1.20000000e-01  3.23178554e-09  3.31399987e-09  3.44697010e-09  3.20434980e-09  3.34085198e-09  4.57570526e-01  4.57570526e-01  1.58435698e-07  1.39058244e-07  1.20000000e-01 
 1.30000000e-01  3.23178548e-09  3.31399987e-09  3.44697015e-09  3.20434980e-09  3.34085197e-09  4.57570503e-01  4.57570502e-01  1.58435654e-07  1.39057907e-07  1.30000000e-01 
 1.40000000e-01  3.23178548e-09  3.31399987e-09  3.44697010e-09  3.20434980e-09  3.34085198e-09  4.57570521e-01  4.57570521e-01  1.58435677e-07  1.39057743e-07  1.40000000e-01 
 1.50000000e-01  3.23178548e-09  3.31399992e-09  3.44697015e-09  3.20434986e-09  3.34085197e-09  4.57570500e-01  4.57570500e-01  1.58435650e-07  1.39057326e-07  1.50000000e-01 
 1.60000000e-01  3.23178554e-09  3.31399987e-09  3.44697016e-09  3.20434986e-09  3.34085198e-09  4.57570526e-01  4.57570526e-01  1.58435695e-07  1.39057263e-07  1.60000000e-01 
 1.70000000e-01  3.23178548e-09  3.31399987e-09  3.44697016e-09  3.20434986e-09  3.34085197e-09  4.57570508e-01  4.57570508e-01  1.58435654e-07  1.39056906e-07  1.70000000e-01 
 1.80000000e-01  3.23178554e-09  3.31399987e-09  3.44697016e-09  3.20434980e-09  3.34085203e-09  4.57570519e-01  4.57570519e-01  1.58435665e-07  1.39056819e-07  1.80000000e-01 
 1.90000000e-01  3.23178553e-09  3.31399987e-09  3.44697010e-09  3.20434986e-09  3.34085197e-09  4.57570497e-01  4.57570497e-01  1.58435632e-07  1.39056620e-07  1.90000000e-01 
 2.00000000e-01  3.23178548e-09  3.31399986e-09  3.44697015e-09  3.20434985e-09  3.34085197e-09  4.57570490e-01  4.57570490e-01  1.58435624e-07  1.39056281e-07  2.00000000e-01 
 2.10000000e-01  3.23178548e-09  3.31399987e-09  3.44697010e-09  3.20434986e-09  3.34085203e-09  4.57570513e-01  4.57570513e-01  1.58435640e-07  1.39056253e-07  2.10000000e-01 
 2.20000000e-01  3.23178554e-09  3.31399987e-09  3.44697016e-09  3.20434986e-09  3.34085203e-09  4.57570505e-01  4.57570505e-01  1.58435648e-07  1.39056084e-07  2.20000000e-01 
 2.30000000e-01  3.23178548e-09  3.31399987e-09  3.44697016e-09  3.20434986e-09  3.34085197e-09  4.57570511e-01  4.57570511e-01  1.58435658e-07  1.39055826e-07  2.30000000e-01 
 2.40000000e-01  3.23178554e-09  3.31399987e-09  3.44697016e-09  3.20434986e-09  3.34085197e-09  4.57570512e-01  4.57570512e-01  1.58435661e-07  1.39055638e-07  2.40000000e-01 
 2.50000000e-01  3.23178553e-09  3.31399987e-09  3.44697015e-09  3.20434980e-09  3.34085197e-09  4.57570499e-01  4.57570499e-01  1.58435628e-07  1.39055391e-07  2.50000000e-01 
 2.60000000e-01  3.23178548e-09  3.31399987e-09  3.44697016e-09  3.20434986e-09  3.34085198e-09  4.57570522e-01  4.57570522e-01  1.58435692e-07  1.39055429e-07  2.60000000e-01 
 2.70000000e-01  3.23178554e-09  3.31399992e-09  3.44697016e-09  3.20434986e-09  3.34085197e-09  4.57570515e-01  4.57570514e-01  1.58435669e-07  1.39055169e-07  2.70000000e-01 
 2.80000000e-01  3.23178548e-09  3.31399992e-09  3.44697015e-09  3.20434980e-09  3.34085197e-09  4.57570504e-01  4.57570504e-01  1.58435653e-07  1.39054958e-07  2.80000000e-01 
 2.90000000e-01  3.23178554e-09  3.31399987e-09  3.44697010e-09  3.20434986e-09  3.34085198e-09  4.57570519e-01  4.57570519e-01  1.58435676e-07  1.39054837e-07  2.90000000e-01 
 3.00000000e-01  3.23178548e-09  3.31399987e-09  3.44697015e-09  3.20434980e-09  3.34085203e-09  4.57570497e-01  4.57570497e-01  1.58435644e-07  1.39054730e-07  3.00000000e-01 
 3.10000000e-01  3.23178548e-09  3.31399992e-09  3.44697016e-09  3.20434986e-09  3.34085197e-09  4.57570511e-01  4.57570511e-01  1.58435668e-07  1.39054688e-07  3.10000000e-01 
 3.20000000e-01  3.23178554e-09  3.31399987e-09  3.44697010e-09  3.20434986e-09  3.34085198e-09  4.57570519e-01  4.57570519e-01  1.58435682e-07  1.39054578e-07  3.20000000e-01 
 3.30000000e-01  3.23178554e-09  3.31399992e-09  3.44697016e-09  3.20434986e-09  3.34085197e-09  4.57570507e-01  4.57570507e-01  1.58435652e-07  1.39054460e-07  3.30000000e-01 
 3.40000000e-01  3.23178554e-09  3.31399987e-09  3.44697016e-09  3.20434986e-09  3.34085198e-09  4.57570534e-01  4.57570534e-01  1.58435683e-07  1.39054361e-07  3.40000000e-01 
 3.50000000e-01  3.23178548e-09  3.31399987e-09  3.44697010e-09  3.20434986e-09  3.34085198e-09  4.57570525e-01  4.57570525e-01  1.58435686e-07  1.39054126e-07  3.50000000e-01 
 3.60000000e-01  3.23178548e-09  3.31399992e-09  3.44697010e-09  3.20434980e-09  3.34085197e-09  4.57570494e-01  4.57570494e-01  1.58435636e-07  1.39053956e-07  3.60000000e-01 
 3.70000000e-01  3.23178548e-09  3.31399987e-09  3.44697016e-09  3.20434980e-09  3.34085203e-09  4.57570511e-01  4.57570510e-01  1.58435672e-07  1.39053896e-07  3.70000000e-01 
 3.80000000e-01  3.23178554e-09  3.31399987e-09  3.44697016e-09  3.20434986e-09  3.34085198e-09  4.57570540e-01  4.57570540e-01  1.58435709e-07  1.39053931e-07  3.80000000e-01 
 3.90000000e-01  3.23178554e-09  3.31399987e-09  3.44697010e-09  3.20434980e-09  3.34085198e-09  4.57570518e-01  4.57570518e-01  1.58435676e-07  1.39053714e-07  3.90000000e-01 
 4.00000000e-01  3.23178554e-09  3.31399987e-09  3.44697010e-09  3.20434980e-09  3.34085197e-09  4.57570513e-01  4.57570513e-01  1.58435675e-07  1.39053615e-07  4.00000000e-01 
 4.10000000e-01  3.23178554e-09  3.31399987e-09  3.44697016e-09  3.20434986e-09  3.34085197e-09  4.57570509e-01  4.57570509e-01  1.58435669e-07  1.39053427e-07  4.10000000e-01 
 4.20000000e-01  3.23178548e-09  3.31399987e-09  3.44697016e-09  3.20434986e-09  3.34085203e-09  4.57570532e-01  4.57570532e-01  1.58435692e-07  1.39053402e-07  4.20000000e-01 
 4.30000000e-01  3.23178548e-09  3.31399987e-09  3.44697015e-09  3.20434980e-09  3.34085197e-09  4.57570497e-01  4.57570497e-01  1.58435627e-07  1.39053153e-07  4.30000000e-01 
 4.40000000e-01  3.23178554e-09  3.31399987e-09  3.44697010e-09  3.20434980e-09  3.34085198e-09  4.57570518e-01  4.57570518e-01  1.58435679e-07  1.39053029e-07  4.40000000e-01 
 4.50000000e-01  3.23178548e-09  3.31399987e-09  3.44697010e-09  3.20434986e-09  3.34085197e-09  4.57570499e-01  4.57570499e-01  1.58435638e-07  1.39053014e-07  4.50000000e-01 
 4.60000000e-01  3.23178554e-09  3.31399992e-09  3.44697016e-09  3.20434980e-09  3.34085198e-09  4.57570521e-01  4.57570521e-01  1.58435666e-07  1.39052954e-07  4.60000000e-01 
 4.70000000e-01  3.23178548e-09  3.31399987e-09  3.44697016e-09  3.20434980e-09  3.34085203e-09  4.57570508e-01  4.57570508e-01  1.58435668e-07  1.39052737e-07  4.70000000e-01 
 4.80000000e-01  3.23178554e-09  3.31399987e-09  3.44697016e-09  3.20434986e-09  3.34085197e-09  4.57570510e-01  4.57570510e-01  1.58435669e-07  1.39052695e-07  4.80000000e-01 
 4.90000000e-01  3.23178548e-09  3.31399987e-09  3.44697010e-09  3.20434986e-09  3.34085198e-09  4.57570520e-01  4.57570519e-01  1.58435685e-07  1.39052556e-07  4.90000000e-01 
 5.00000000e-01  3.23178548e-09  3.31399987e-09  3.44697016e-09  3.20434986e-09  3.34085203e-09  4.57570529e-01  4.57570529e-01  1.58435685e-07  1.39052450e-07  5.00000000e-01 
 5.10000000e-01  3.23178554e-09  3.31399987e-09  3.44697016e-09  3.20434986e-09  3.34085197e-09  4.57570514e-01  4.57570514e-01  1.58435670e-07  1.39052410e-07  5.10000000e-01 
 5.20000000e-01  3.23178548e-09  3.31399987e-09  3.44697010e-09  3.20434980e-09  3.34085203e-09  4.57570516e-01  4.57570516e-01  1.58435664e-07  1.39052176e-07  5.20000000e-01 
 5.30000000e-01  3.23178553e-09  3.31399987e-09  3.44697010e-09  3.20434980e-09  3.34085197e-09  4.57570497e-01  4.57570497e-01  1.58435634e-07  1.39052197e-07  5.30000000e-01 
 5.40000000e-01  3.23178548e-09  3.31399987e-09  3.44697015e-09  3.20434980e-09  3.34085197e-09  4.57570502e-01  4.57570502e-01  1.58435646e-07  1.39051913e-07  5.40000000e-01 
 5.50000000e-01  3.23178548e-09  3.31399987e-09  3.44697016e-09  3.20434980e-09  3.34085203e-09  4.57570528e-01  4.57570528e-01  1.58435690e-07  1.39051977e-07  5.50000000e-01 
 5.60000000e-01  3.23178548e-09  3.31399987e-09  3.44697016e-09  3.20434980e-09  3.34085198e-09  4.57570518e-01  4.57570518e-01  1.58435674e-07  1.39051874e-07  5.60000000e-01 
 5.70000000e-01  3.23178554e-09  3.31399987e-09  3.44697016e-09  3.20434980e-09  3.34085203e-09  4.57570520e-01  4.57570520e-01  1.58435672e-07  1.39051746e-07  5.70000000e-01 
 5.80000000e-01  3.23178548e-09  3.31399987e-09  3.44697016e-09  3.20434986e-09  3.34085198e-09  4.57570525e-01  4.57570525e-01  1.58435686e-07  1.39051714e-07  5.80000000e-01 
 5.90000000e-01  3.23178548e-09  3.31399987e-09  3.44697010e-09  3.20434980e-09  3.34085197e-09  4.57570510e-01  4.57570510e-01  1.58435660e-07  1.39051537e-07  5.90000000e-01 
 6.00000000e-01  3.23178548e-09  3.31399987e-09  3.44697010e-09  3.20434986e-09  3.34085198e-09  4.57570521e-01  4.57570520e-01  1.58435671e-07  1.39051494e-07  6.00000000e-01 
 6.10000000e-01  3.23178554e-09  3.31399992e-09  3.44697016e-09  3.20434986e-09  3.34085198e-09  4.57570524e-01  4.57570523e-01  1.58435684e-07  1.39051394e-07  6.10000000e-01 
 6.20000000e-01  3.23178554e-09  3.31399987e-09  3.44697016e-09  3.20434986e-09  3.34085198e-09  4.57570529e-01  4.57570529e-01  1.58435701e-07  1.39051309e-07  6.20000000e-01 
 6.30000000e-01  3.23178548e-09  3.31399987e-09  3.44697010e-09  3.20434980e-09  3.34085198e-09  4.57570524e-01  4.57570524e-01  1.58435679e-07  1.39051238e-07  6.30000000e-01 
 6.40000000e-01  3.23178554e-09  3.31399987e-09  3.44697016e-09  3.20434986e-09  3.34085198e-09  4.57570525e-01  4.57570525e-01  1.58435690e-07  1.39051096e-07  6.40000000e-01 
 6.50000000e-01  3.23178554e-09  3.31399987e-09  3.44697010e-09  3.20434980e-09  3.34085198e-09  4.57570539e-01  4.57570538e-01  1.58435708e-07  1.39051103e-07  6.50000000e-01 
 6.60000000e-01  3.23178554e-09  3.31399987e-09  3.44697016e-09  3.20434980e-09  3.34085198e-09  4.57570522e-01  4.57570522e-01  1.58435676e-07  1.39051039e-07  6.60000000e-01 
 6.70000000e-01  3.23178554e-09  3.31399987e-09  3.44697016e-09  3.20434980e-09  3.34085198e-09  4.57570522e-01  4.57570522e-01  1.58435682e-07  1.39050904e-07  6.70000000e-01 
 6.80000000e-01  3.23178554e-09  3.31399987e-09  3.44697016e-09  3.20434986e-09  3.34085197e-09  4.57570508e-01  4.57570508e-01  1.58435670e-07  1.39050741e-07  6.80000000e-01 
 6.90000000e-01  3.23178548e-09  3.31399987e-09  3.44697016e-09  3.20434980e-09  3.34085198e-09  4.57570525e-01  4.57570525e-01  1.58435685e-07  1.39050790e-07  6.90000000e-01 
 7.00000000e-01  3.23178548e-09  3.31399992e-09  3.44697010e-09  3.20434986e-09  3.34085203e-09  4.57570513e-01  4.57570513e-01  1.58435663e-07  1.39050606e-07  7.00000000e-01 
 7.10000000e-01  3.23178554e-09  3.31399987e-09  3.44697016e-09  3.20434986e-09  3.34085197e-09  4.57570514e-01  4.57570514e-01  1.58435668e-07  1.39050499e-07  7.10000000e-01 
 7.20000000e-01  3.23178548e-09  3.31399987e-09  3.44697010e-09  3.20434980e-09  3.34085203e-09  4.57570522e-01  4.57570522e-01  1.58435695e-07  1.39050307e-07  7.20000000e-01 
 7.30000000e-01  3.23178554e-09  3.31399987e-09  3.44697010e-09  3.20434986e-09  3.34085197e-09  4.57570505e-01  4.57570505e-01  1.58435648e-07  1.39050229e-07  7.30000000e-01 
 7.40000000e-01  3.23178554e-09  3.31399992e-09  3.44697016e-09  3.20434986e-09  3.34085197e-09  4.57570510e-01  4.57570510e-01  1.58435654e-07  1.39050059e-07  7.40000000e-01 
 7.50000000e-01  3.23178554e-09  3.31399987e-09  3.44697010e-09  3.20434986e-09  3.34085203e-09  4.57570516e-01  4.57570516e-01  1.58435682e-07  1.39049966e-07  7.50000000e-01 
 7.60000000e-01  3.23178554e-09  3.31399992e-09  3.44697016e-09  3.20434986e-09  3.34085197e-09  4.57570505e-01  4.57570505e-01  1.58435651e-07  1.39049988e-07  7.60000000e-01 
 7.70000000e-01  3.23178554e-09  3.31399987e-09  3.44697016e-09  3.20434980e-09  3.34085198e-09  4.57570522e-01  4.57570522e-01  1.58435678e-07  1.39049789e-07  7.70000000e-01 
 7.80000000e-01  3.23178553e-09  3.31399987e-09  3.44697015e-09  3.20434986e-09  3.34085197e-09  4.57570498e-01  4.57570498e-01  1.58435639e-07  1.39049689e-07  7.80000000e-01 
 7.90000000e-01  3.23178554e-09  3.31399987e-09  3.44697010e-09  3.20434986e-09  3.34085197e-09  4.57570513e-01  4.57570513e-01  1.58435674e-07  1.39049618e-07  7.90000000e-01 
 8.00000000e-01  3.23178554e-09  3.31399987e-09  3.44697016e-09  3.20434986e-09  3.34085198e-09  4.57570526e-01  4.57570526e-01  1.58435673e-07  1.39049554e-07  8.00000000e-01 
 8.10000000e-01  3.23178553e-09  3.31399987e-09  3.44697015e-09  3.20434980e-09  3.34085197e-09  4.57570498e-01  4.57570498e-01  1.58435638e-07  1.39049376e-07  8.10000000e-01 
 8.20000000e-01  3.23178554e-09  3.31399987e-09  3.44697010e-09  3.20434980e-09  3.34085203e-09  4.57570526e-01  4.57570526e-01  1.58435690e-07  1.39049440e-07  8.20000000e-01 
 8.30000000e-01  3.23178548e-09  3.31399987e-09  3.44697010e-09  3.20434980e-09  3.34085198e-09  4.57570520e-01  4.57570520e-01  1.58435666e-07  1.39049320e-07  8.30000000e-01 
 8.40000000e-01  3.23178548e-09  3.31399987e-09  3.44697016e-09  3.20434986e-09  3.34085203e-09  4.57570518e-01  4.57570518e-01  1.58435667e-07  1.39049170e-07  8.40000000e-01 
 8.50000000e-01  3.23178548e-09  3.31399987e-09  3.44697016e-09  3.20434986e-09  3.34085198e-09  4.57570518e-01  4.57570518e-01  1.58435673e-07  1.39049085e-07  8.50000000e-01 
 8.60000000e-01  3.23178554e-09  3.31399987e-09  3.44697016e-09  3.20434986e-09  3.34085197e-09  4.57570511e-01  4.57570511e-01  1.58435660e-07  1.39048886e-07  8.60000000e-01 
 8.70000000e-01  3.23178548e-09  3.31399987e-09  3.44697015e-09  3.20434980e-09  3.34085203e-09  4.57570500e-01  4.57570500e-01  1.58435657e-07  1.39048772e-07  8.70000000e-01 
 8.80000000e-01  3.23178548e-09  3.31399987e-09  3.44697016e-09  3.20434986e-09  3.34085198e-09  4.57570531e-01  4.57570531e-01  1.58435690e-07  1.39048794e-07  8.80000000e-01 
 8.90000000e-01  3.23178548e-09  3.31399987e-09  3.44697016e-09  3.20434986e-09  3.34085197e-09  4.57570510e-01  4.57570510e-01  1.58435670e-07  1.39048680e-07  8.90000000e-01 
 9.00000000e-01  3.23178554e-09  3.31399987e-09  3.44697010e-09  3.20434986e-09  3.34085198e-09  4.57570519e-01  4.57570519e-01  1.58435671e-07  1.39048666e-07  9.00000000e-01 
 9.10000000e-01  3.23178554e-09  3.31399987e-09  3.44697016e-09  3.20434986e-09  3.34085198e-09  4.57570523e-01  4.57570523e-01  1.58435687e-07  1.39048481e-07  9.10000000e-01 
 9.20000000e-01  3.23178554e-09  3.31399987e-09  3.44697016e-09  3.20434980e-09  3.34085198e-09  4.57570517e-01  4.57570517e-01  1.58435680e-07  1.39048296e-07  9.20000000e-01 
 9.30000000e-01  3.23178554e-09  3.31399987e-09  3.44697016e-09  3.20434986e-09  3.34085198e-09  4.57570535e-01  4.57570535e-01  1.58435699e-07  1.39048296e-07  9.30000000e-01 
 9.40000000e-01  3.23178548e-09  3.31399987e-09  3.44697010e-09  3.20434980e-09  3.34085197e-09  4.57570502e-01  4.57570502e-01  1.58435649e-07  1.39048126e-07  9.40000000e-01 
 9.50000000e-01  3.23178554e-09  3.31399987e-09  3.44697016e-09  3.20434986e-09  3.34085197e-09  4.57570508e-01  4.57570508e-01  1.58435665e-07  1.39048034e-07  9.50000000e-01 
 9.60000000e-01  3.23178554e-09  3.31399987e-09  3.44697016e-09  3.20434986e-09  3.34085198e-09  4.57570519e-01  4.57570519e-01  1.58435685e-07  1.39047913e-07  9.60000000e-01 
 9.70000000e-01  3.23178554e-09  3.31399987e-09  3.44697010e-09  3.20434980e-09  3.34085197e-09  4.57570508e-01  4.57570508e-01  1.58435653e-07  1.39047749e-07  9.70000000e-01 
 9.80000000e-01  3.23178554e-09  3.31399987e-09  3.44697010e-09  3.20434980e-09  3.34085198e-09  4.57570526e-01  4.57570526e-01  1.58435677e-07  1.39047685e-07  9.80000000e-01 
 9.90000000e-01  3.23178548e-09  3.31399987e-09  3.44697010e-09  3.20434986e-09  3.34085197e-09  4.57570511e-01  4.57570511e-01  1.58435654e-07  1.39047557e-07  9.90000000e-01 
 1.00000000e+00  3.23178554e-09  3.31399987e-09  3.44697010e-09  3.20434980e-09  3.34085198e-09  4.57570531e-01  4.57570531e-01  1.58435688e-07  1.39047543e-07  1.00000000e+00 
 1.01000000e+00  3.23178548e-09  3.31399987e-09  3.44697015e-09  3.20434986e-09  3.34085197e-09  4.57570501e-01  4.57570501e-01  1.58435656e-07  1.39047231e-07  1.01000000e+00 
 1.02000000e+00  3.23178548e-09  3.31399987e-09  3.44697010e-09  3.20434980e-09  3.34085203e-09  4.57570525e-01  4.57570525e-01  1.58435690e-07  1.39047209e-07  1.02000000e+00 
 1.03000000e+00  3.23178548e-09  3.31399987e-09  3.44697016e-09  3.20434986e-09  3.34085197e-09  4.57570512e-01  4.57570512e-01  1.58435663e-07  1.39047025e-07  1.03000000e+00 
 1.04000000e+00  3.23178554e-09  3.31399987e-09  3.44697010e-09  3.20434986e-09  3.34085198e-09  4.57570524e-01  4.57570524e-01  1.58435680e-07  1.39046939e-07  1.04000000e+00 
 1.05000000e+00  3.23178548e-09  3.31399987e-09  3.44697015e-09  3.20434980e-09  3.34085197e-09  4.57570504e-01  4.57570504e-01  1.58435651e-07  1.39046733e-07  1.05000000e+00 
 1.06000000e+00  3.23178554e-09  3.31399987e-09  3.44697016e-09  3.20434986e-09  3.34085197e-09  4.57570506e-01  4.57570506e-01  1.58435657e-07  1.39046641e-07  1.06000000e+00 
 1.07000000e+00  3.23178548e-09  3.31399987e-09  3.44697010e-09  3.20434986e-09  3.34085197e-09  4.57570499e-01  4.57570499e-01  1.58435638e-07  1.39046506e-07  1.07000000e+00 
 1.08000000e+00  3.23178548e-09  3.31399987e-09  3.44697016e-09  3.20434980e-09  3.34085203e-09  4.57570533e-01  4.57570533e-01  1.58435705e-07  1.39046506e-07  1.08000000e+00 
 1.09000000e+00  3.23178553e-09  3.31399986e-09  3.44697015e-09  3.20434986e-09  3.34085203e-09  4.57570493e-01  4.57570493e-01  1.58435620e-07  1.39046350e-07  1.09000000e+00 
 1.10000000e+00  3.23178548e-09  3.31399992e-09  3.44697016e-09  3.20434986e-09  3.34085197e-09  4.57570509e-01  4.57570509e-01  1.58435647e-07  1.39046293e-07  1.10000000e+00 
