 v-sweep         v(b0)           v(b1)           v(b2)           v(b3)           v(b4)           v(b5)           v(b6)           i(vbias)        i(viout)        v(vout)        
 0.00000000e+00  4.58970737e-01  4.58970737e-01  4.58970737e-01  4.58970737e-01  4.58970737e-01  3.26809032e-09  4.58970737e-01  1.61918698e-07  1.39969790e-07  0.00000000e+00 
 1.00000000e-02  4.58970731e-01  4.58970731e-01  4.58970731e-01  4.58970731e-01  4.58970731e-01  3.26809036e-09  4.58970731e-01  1.61918676e-07  1.39969419e-07  1.00000000e-02 
 2.00000000e-02  4.58970750e-01  4.58970750e-01  4.58970750e-01  4.58970750e-01  4.58970750e-01  3.26809036e-09  4.58970750e-01  1.61918694e-07  1.39968922e-07  2.00000000e-02 
 3.00000000e-02  4.58970764e-01  4.58970764e-01  4.58970764e-01  4.58970764e-01  4.58970764e-01  3.26809036e-09  4.58970764e-01  1.61918737e-07  1.39968533e-07  3.00000000e-02 
 4.00000000e-02  4.58970755e-01  4.58970755e-01  4.58970755e-01  4.58970755e-01  4.58970755e-01  3.26809036e-09  4.58970755e-01  1.61918719e-07  1.39968095e-07  4.00000000e-02 
 5.00000000e-02  4.58970747e-01  4.58970747e-01  4.58970747e-01  4.58970747e-01  4.58970747e-01  3.26809036e-09  4.58970747e-01  1.61918693e-07  1.39967798e-07  5.00000000e-02 
 6.00000000e-02  4.58970734e-01  4.58970734e-01  4.58970734e-01  4.58970734e-01  4.58970734e-01  3.26809030e-09  4.58970734e-01  1.61918704e-07  1.39967363e-07  6.00000000e-02 
 7.00000000e-02  4.58970745e-01  4.58970745e-01  4.58970745e-01  4.58970745e-01  4.58970745e-01  3.26809036e-09  4.58970745e-01  1.61918700e-07  1.39967127e-07  7.00000000e-02 
 8.00000000e-02  4.58970751e-01  4.58970751e-01  4.58970751e-01  4.58970751e-01  4.58970751e-01  3.26809031e-09  4.58970751e-01  1.61918717e-07  1.39966843e-07  8.00000000e-02 
 9.00000000e-02  4.58970761e-01  4.58970761e-01  4.58970761e-01  4.58970761e-01  4.58970761e-01  3.26809031e-09  4.58970761e-01  1.61918729e-07  1.39966575e-07  9.00000000e-02 
 1.00000000e-01  4.58970748e-01  4.58970748e-01  4.58970748e-01  4.58970748e-01  4.58970748e-01  3.26809036e-09  4.58970748e-01  1.61918714e-07  1.39966284e-07  1.00000000e-01 
 1.10000000e-01  4.58970766e-01  4.58970766e-01  4.58970766e-01  4.58970766e-01  4.58970766e-01  3.26809031e-09  4.58970766e-01  1.61918728e-07  1.39965919e-07  1.10000000e-01 
 1.20000000e-01  4.58970753e-01  4.58970753e-01  4.58970753e-01  4.58970753e-01  4.58970753e-01  3.26809031e-09  4.58970753e-01  1.61918724e-07  1.39965731e-07  1.20000000e-01 
 1.30000000e-01  4.58970747e-01  4.58970747e-01  4.58970747e-01  4.58970747e-01  4.58970747e-01  3.26809030e-09  4.58970747e-01  1.61918703e-07  1.39965490e-07  1.30000000e-01 
 1.40000000e-01  4.58970748e-01  4.58970748e-01  4.58970748e-01  4.58970748e-01  4.58970748e-01  3.26809036e-09  4.58970748e-01  1.61918705e-07  1.39965231e-07  1.40000000e-01 
 1.50000000e-01  4.58970765e-01  4.58970765e-01  4.58970765e-01  4.58970765e-01  4.58970765e-01  3.26809036e-09  4.58970765e-01  1.61918729e-07  1.39965078e-07  1.50000000e-01 
 1.60000000e-01  4.58970739e-01  4.58970739e-01  4.58970739e-01  4.58970739e-01  4.58970739e-01  3.26809036e-09  4.58970739e-01  1.61918704e-07  1.39964673e-07  1.60000000e-01 
 1.70000000e-01  4.58970730e-01  4.58970730e-01  4.58970730e-01  4.58970730e-01  4.58970730e-01  3.26809036e-09  4.58970730e-01  1.61918688e-07  1.39964490e-07  1.70000000e-01 
 1.80000000e-01  4.58970730e-01  4.58970730e-01  4.58970730e-01  4.58970730e-01  4.58970730e-01  3.26809036e-09  4.58970730e-01  1.61918682e-07  1.39964287e-07  1.80000000e-01 
 1.90000000e-01  4.58970760e-01  4.58970760e-01  4.58970760e-01  4.58970760e-01  4.58970760e-01  3.26809036e-09  4.58970760e-01  1.61918739e-07  1.39964124e-07  1.90000000e-01 
 2.00000000e-01  4.58970745e-01  4.58970745e-01  4.58970745e-01  4.58970745e-01  4.58970745e-01  3.26809030e-09  4.58970745e-01  1.61918698e-07  1.39963893e-07  2.00000000e-01 
 2.10000000e-01  4.58970756e-01  4.58970755e-01  4.58970755e-01  4.58970756e-01  4.58970755e-01  3.26809036e-09  4.58970755e-01  1.61918707e-07  1.39963683e-07  2.10000000e-01 
 2.20000000e-01  4.58970766e-01  4.58970766e-01  4.58970766e-01  4.58970766e-01  4.58970766e-01  3.26809036e-09  4.58970766e-01  1.61918733e-07  1.39963516e-07  2.20000000e-01 
 2.30000000e-01  4.58970757e-01  4.58970757e-01  4.58970757e-01  4.58970757e-01  4.58970757e-01  3.26809036e-09  4.58970757e-01  1.61918728e-07  1.39963317e-07  2.30000000e-01 
 2.40000000e-01  4.58970759e-01  4.58970759e-01  4.58970759e-01  4.58970759e-01  4.58970759e-01  3.26809036e-09  4.58970759e-01  1.61918717e-07  1.39963161e-07  2.40000000e-01 
 2.50000000e-01  4.58970763e-01  4.58970763e-01  4.58970763e-01  4.58970763e-01  4.58970763e-01  3.26809036e-09  4.58970763e-01  1.61918731e-07  1.39963049e-07  2.50000000e-01 
 2.60000000e-01  4.58970740e-01  4.58970740e-01  4.58970740e-01  4.58970740e-01  4.58970740e-01  3.26809036e-09  4.58970740e-01  1.61918706e-07  1.39962790e-07  2.60000000e-01 
 2.70000000e-01  4.58970761e-01  4.58970761e-01  4.58970761e-01  4.58970761e-01  4.58970761e-01  3.26809036e-09  4.58970761e-01  1.61918726e-07  1.39962781e-07  2.70000000e-01 
 2.80000000e-01  4.58970759e-01  4.58970759e-01  4.58970759e-01  4.58970759e-01  4.58970759e-01  3.26809031e-09  4.58970759e-01  1.61918726e-07  1.39962591e-07  2.80000000e-01 
 2.90000000e-01  4.58970772e-01  4.58970772e-01  4.58970772e-01  4.58970772e-01  4.58970772e-01  3.26809031e-09  4.58970772e-01  1.61918732e-07  1.39962431e-07  2.90000000e-01 
 3.00000000e-01  4.58970755e-01  4.58970755e-01  4.58970755e-01  4.58970755e-01  4.58970755e-01  3.26809036e-09  4.58970755e-01  1.61918729e-07  1.39962278e-07  3.00000000e-01 
 3.10000000e-01  4.58970775e-01  4.58970775e-01  4.58970775e-01  4.58970775e-01  4.58970775e-01  3.26809031e-09  4.58970775e-01  1.61918739e-07  1.39962275e-07  3.10000000e-01 
 3.20000000e-01  4.58970767e-01  4.58970767e-01  4.58970767e-01  4.58970767e-01  4.58970767e-01  3.26809036e-09  4.58970767e-01  1.61918724e-07  1.39962101e-07  3.20000000e-01 
 3.30000000e-01  4.58970776e-01  4.58970776e-01  4.58970776e-01  4.58970776e-01  4.58970776e-01  3.26809036e-09  4.58970776e-01  1.61918744e-07  1.39961873e-07  3.30000000e-01 
 3.40000000e-01  4.58970763e-01  4.58970763e-01  4.58970763e-01  4.58970763e-01  4.58970763e-01  3.26809036e-09  4.58970763e-01  1.61918738e-07  1.39961728e-07  3.40000000e-01 
 3.50000000e-01  4.58970748e-01  4.58970748e-01  4.58970748e-01  4.58970748e-01  4.58970748e-01  3.26809036e-09  4.58970748e-01  1.61918707e-07  1.39961582e-07  3.50000000e-01 
 3.60000000e-01  4.58970740e-01  4.58970740e-01  4.58970740e-01  4.58970740e-01  4.58970740e-01  3.26809030e-09  4.58970740e-01  1.61918698e-07  1.39961440e-07  3.60000000e-01 
 3.70000000e-01  4.58970773e-01  4.58970773e-01  4.58970773e-01  4.58970773e-01  4.58970773e-01  3.26809036e-09  4.58970773e-01  1.61918745e-07  1.39961447e-07  3.70000000e-01 
 3.80000000e-01  4.58970760e-01  4.58970760e-01  4.58970760e-01  4.58970760e-01  4.58970760e-01  3.26809036e-09  4.58970760e-01  1.61918719e-07  1.39961347e-07  3.80000000e-01 
 3.90000000e-01  4.58970782e-01  4.58970782e-01  4.58970782e-01  4.58970782e-01  4.58970782e-01  3.26809031e-09  4.58970782e-01  1.61918765e-07  1.39961269e-07  3.90000000e-01 
 4.00000000e-01  4.58970755e-01  4.58970755e-01  4.58970755e-01  4.58970755e-01  4.58970755e-01  3.26809031e-09  4.58970755e-01  1.61918722e-07  1.39960939e-07  4.00000000e-01 
 4.10000000e-01  4.58970768e-01  4.58970768e-01  4.58970768e-01  4.58970768e-01  4.58970768e-01  3.26809036e-09  4.58970768e-01  1.61918728e-07  1.39960967e-07  4.10000000e-01 
 4.20000000e-01  4.58970761e-01  4.58970761e-01  4.58970761e-01  4.58970761e-01  4.58970761e-01  3.26809031e-09  4.58970761e-01  1.61918741e-07  1.39960935e-07  4.20000000e-01 
 4.30000000e-01  4.58970774e-01  4.58970774e-01  4.58970774e-01  4.58970774e-01  4.58970774e-01  3.26809036e-09  4.58970774e-01  1.61918749e-07  1.39960729e-07  4.30000000e-01 
 4.40000000e-01  4.58970752e-01  4.58970751e-01  4.58970751e-01  4.58970752e-01  4.58970751e-01  3.26809036e-09  4.58970751e-01  1.61918723e-07  1.39960658e-07  4.40000000e-01 
 4.50000000e-01  4.58970787e-01  4.58970787e-01  4.58970787e-01  4.58970787e-01  4.58970787e-01  3.26809037e-09  4.58970787e-01  1.61918769e-07  1.39960708e-07  4.50000000e-01 
 4.60000000e-01  4.58970748e-01  4.58970748e-01  4.58970748e-01  4.58970748e-01  4.58970748e-01  3.26809030e-09  4.58970748e-01  1.61918707e-07  1.39960509e-07  4.60000000e-01 
 4.70000000e-01  4.58970745e-01  4.58970745e-01  4.58970745e-01  4.58970745e-01  4.58970745e-01  3.26809036e-09  4.58970745e-01  1.61918700e-07  1.39960221e-07  4.70000000e-01 
 4.80000000e-01  4.58970745e-01  4.58970745e-01  4.58970745e-01  4.58970745e-01  4.58970745e-01  3.26809030e-09  4.58970745e-01  1.61918711e-07  1.39960200e-07  4.80000000e-01 
 4.90000000e-01  4.58970749e-01  4.58970749e-01  4.58970749e-01  4.58970749e-01  4.58970749e-01  3.26809030e-09  4.58970749e-01  1.61918704e-07  1.39960083e-07  4.90000000e-01 
 5.00000000e-01  4.58970750e-01  4.58970750e-01  4.58970750e-01  4.58970750e-01  4.58970750e-01  3.26809036e-09  4.58970750e-01  1.61918720e-07  1.39959994e-07  5.00000000e-01 
 5.10000000e-01  4.58970765e-01  4.58970765e-01  4.58970765e-01  4.58970765e-01  4.58970765e-01  3.26809036e-09  4.58970765e-01  1.61918736e-07  1.39959933e-07  5.10000000e-01 
 5.20000000e-01  4.58970743e-01  4.58970743e-01  4.58970743e-01  4.58970743e-01  4.58970743e-01  3.26809036e-09  4.58970743e-01  1.61918699e-07  1.39959777e-07  5.20000000e-01 
 5.30000000e-01  4.58970752e-01  4.58970752e-01  4.58970752e-01  4.58970752e-01  4.58970752e-01  3.26809031e-09  4.58970752e-01  1.61918702e-07  1.39959699e-07  5.30000000e-01 
 5.40000000e-01  4.58970761e-01  4.58970761e-01  4.58970761e-01  4.58970761e-01  4.58970761e-01  3.26809036e-09  4.58970761e-01  1.61918713e-07  1.39959681e-07  5.40000000e-01 
 5.50000000e-01  4.58970779e-01  4.58970779e-01  4.58970779e-01  4.58970779e-01  4.58970779e-01  3.26809031e-09  4.58970779e-01  1.61918756e-07  1.39959536e-07  5.50000000e-01 
 5.60000000e-01  4.58970777e-01  4.58970777e-01  4.58970777e-01  4.58970777e-01  4.58970777e-01  3.26809036e-09  4.58970777e-01  1.61918759e-07  1.39959415e-07  5.60000000e-01 
 5.70000000e-01  4.58970764e-01  4.58970764e-01  4.58970764e-01  4.58970764e-01  4.58970764e-01  3.26809031e-09  4.58970764e-01  1.61918726e-07  1.39959234e-07  5.70000000e-01 
 5.80000000e-01  4.58970766e-01  4.58970766e-01  4.58970766e-01  4.58970766e-01  4.58970766e-01  3.26809031e-09  4.58970766e-01  1.61918730e-07  1.39959283e-07  5.80000000e-01 
 5.90000000e-01  4.58970734e-01  4.58970734e-01  4.58970734e-01  4.58970734e-01  4.58970734e-01  3.26809030e-09  4.58970734e-01  1.61918703e-07  1.39958999e-07  5.90000000e-01 
 6.00000000e-01  4.58970720e-01  4.58970720e-01  4.58970720e-01  4.58970720e-01  4.58970720e-01  3.26809036e-09  4.58970720e-01  1.61918656e-07  1.39958971e-07  6.00000000e-01 
 6.10000000e-01  4.58970761e-01  4.58970761e-01  4.58970761e-01  4.58970761e-01  4.58970761e-01  3.26809031e-09  4.58970761e-01  1.61918726e-07  1.39958971e-07  6.10000000e-01 
 6.20000000e-01  4.58970769e-01  4.58970769e-01  4.58970769e-01  4.58970769e-01  4.58970769e-01  3.26809031e-09  4.58970769e-01  1.61918735e-07  1.39958935e-07  6.20000000e-01 
 6.30000000e-01  4.58970768e-01  4.58970768e-01  4.58970768e-01  4.58970768e-01  4.58970768e-01  3.26809036e-09  4.58970768e-01  1.61918734e-07  1.39958843e-07  6.30000000e-01 
 6.40000000e-01  4.58970750e-01  4.58970750e-01  4.58970750e-01  4.58970750e-01  4.58970750e-01  3.26809036e-09  4.58970750e-01  1.61918715e-07  1.39958644e-07  6.40000000e-01 
 6.50000000e-01  4.58970758e-01  4.58970758e-01  4.58970758e-01  4.58970758e-01  4.58970758e-01  3.26809031e-09  4.58970758e-01  1.61918716e-07  1.39958466e-07  6.50000000e-01 
 6.60000000e-01  4.58970741e-01  4.58970741e-01  4.58970741e-01  4.58970741e-01  4.58970741e-01  3.26809036e-09  4.58970741e-01  1.61918694e-07  1.39958381e-07  6.60000000e-01 
 6.70000000e-01  4.58970758e-01  4.58970758e-01  4.58970758e-01  4.58970758e-01  4.58970758e-01  3.26809031e-09  4.58970758e-01  1.61918729e-07  1.39958360e-07  6.70000000e-01 
 6.80000000e-01  4.58970776e-01  4.58970776e-01  4.58970776e-01  4.58970776e-01  4.58970776e-01  3.26809031e-09  4.58970776e-01  1.61918751e-07  1.39958345e-07  6.80000000e-01 
 6.90000000e-01  4.58970756e-01  4.58970756e-01  4.58970756e-01  4.58970756e-01  4.58970756e-01  3.26809036e-09  4.58970756e-01  1.61918716e-07  1.39958068e-07  6.90000000e-01 
 7.00000000e-01  4.58970787e-01  4.58970787e-01  4.58970787e-01  4.58970787e-01  4.58970787e-01  3.26809031e-09  4.58970787e-01  1.61918770e-07  1.39958090e-07  7.00000000e-01 
 7.10000000e-01  4.58970772e-01  4.58970772e-01  4.58970772e-01  4.58970772e-01  4.58970772e-01  3.26809031e-09  4.58970772e-01  1.61918737e-07  1.39958026e-07  7.10000000e-01 
 7.20000000e-01  4.58970755e-01  4.58970755e-01  4.58970755e-01  4.58970755e-01  4.58970755e-01  3.26809031e-09  4.58970755e-01  1.61918709e-07  1.39957820e-07  7.20000000e-01 
 7.30000000e-01  4.58970749e-01  4.58970749e-01  4.58970749e-01  4.58970749e-01  4.58970749e-01  3.26809036e-09  4.58970749e-01  1.61918716e-07  1.39957756e-07  7.30000000e-01 
 7.40000000e-01  4.58970774e-01  4.58970774e-01  4.58970774e-01  4.58970774e-01  4.58970774e-01  3.26809031e-09  4.58970774e-01  1.61918742e-07  1.39957656e-07  7.40000000e-01 
 7.50000000e-01  4.58970769e-01  4.58970769e-01  4.58970769e-01  4.58970769e-01  4.58970769e-01  3.26809031e-09  4.58970769e-01  1.61918751e-07  1.39957692e-07  7.50000000e-01 
 7.60000000e-01  4.58970771e-01  4.58970771e-01  4.58970771e-01  4.58970771e-01  4.58970771e-01  3.26809031e-09  4.58970771e-01  1.61918750e-07  1.39957521e-07  7.60000000e-01 
 7.70000000e-01  4.58970772e-01  4.58970772e-01  4.58970772e-01  4.58970772e-01  4.58970772e-01  3.26809036e-09  4.58970772e-01  1.61918742e-07  1.39957379e-07  7.70000000e-01 
 7.80000000e-01  4.58970760e-01  4.58970760e-01  4.58970760e-01  4.58970760e-01  4.58970760e-01  3.26809036e-09  4.58970760e-01  1.61918721e-07  1.39957230e-07  7.80000000e-01 
 7.90000000e-01  4.58970755e-01  4.58970755e-01  4.58970755e-01  4.58970755e-01  4.58970755e-01  3.26809031e-09  4.58970755e-01  1.61918718e-07  1.39957130e-07  7.90000000e-01 
 8.00000000e-01  4.58970758e-01  4.58970758e-01  4.58970758e-01  4.58970758e-01  4.58970758e-01  3.26809031e-09  4.58970758e-01  1.61918724e-07  1.39957045e-07  8.00000000e-01 
 8.10000000e-01  4.58970768e-01  4.58970768e-01  4.58970768e-01  4.58970769e-01  4.58970768e-01  3.26809031e-09  4.58970768e-01  1.61918733e-07  1.39956896e-07  8.10000000e-01 
 8.20000000e-01  4.58970739e-01  4.58970739e-01  4.58970739e-01  4.58970740e-01  4.58970739e-01  3.26809030e-09  4.58970739e-01  1.61918708e-07  1.39956867e-07  8.20000000e-01 
 8.30000000e-01  4.58970745e-01  4.58970745e-01  4.58970745e-01  4.58970745e-01  4.58970745e-01  3.26809030e-09  4.58970745e-01  1.61918703e-07  1.39956647e-07  8.30000000e-01 
 8.40000000e-01  4.58970752e-01  4.58970752e-01  4.58970752e-01  4.58970752e-01  4.58970752e-01  3.26809031e-09  4.58970752e-01  1.61918696e-07  1.39956761e-07  8.40000000e-01 
 8.50000000e-01  4.58970743e-01  4.58970743e-01  4.58970743e-01  4.58970743e-01  4.58970743e-01  3.26809036e-09  4.58970743e-01  1.61918696e-07  1.39956484e-07  8.50000000e-01 
 8.60000000e-01  4.58970751e-01  4.58970751e-01  4.58970751e-01  4.58970751e-01  4.58970751e-01  3.26809036e-09  4.58970751e-01  1.61918700e-07  1.39956512e-07  8.60000000e-01 
 8.70000000e-01  4.58970769e-01  4.58970769e-01  4.58970769e-01  4.58970769e-01  4.58970769e-01  3.26809031e-09  4.58970769e-01  1.61918736e-07  1.39956335e-07  8.70000000e-01 
 8.80000000e-01  4.58970757e-01  4.58970757e-01  4.58970757e-01  4.58970757e-01  4.58970757e-01  3.26809036e-09  4.58970757e-01  1.61918730e-07  1.39956313e-07  8.80000000e-01 
 8.90000000e-01  4.58970736e-01  4.58970736e-01  4.58970736e-01  4.58970736e-01  4.58970736e-01  3.26809036e-09  4.58970736e-01  1.61918706e-07  1.39956093e-07  8.90000000e-01 
 9.00000000e-01  4.58970752e-01  4.58970752e-01  4.58970752e-01  4.58970752e-01  4.58970752e-01  3.26809031e-09  4.58970752e-01  1.61918713e-07  1.39956093e-07  9.00000000e-01 
 9.10000000e-01  4.58970771e-01  4.58970771e-01  4.58970771e-01  4.58970771e-01  4.58970771e-01  3.26809036e-09  4.58970771e-01  1.61918746e-07  1.39955944e-07  9.10000000e-01 
 9.20000000e-01  4.58970756e-01  4.58970756e-01  4.58970756e-01  4.58970756e-01  4.58970756e-01  3.26809036e-09  4.58970756e-01  1.61918720e-07  1.39955873e-07  9.20000000e-01 
 9.30000000e-01  4.58970757e-01  4.58970757e-01  4.58970757e-01  4.58970757e-01  4.58970757e-01  3.26809031e-09  4.58970757e-01  1.61918719e-07  1.39955745e-07  9.30000000e-01 
 9.40000000e-01  4.58970771e-01  4.58970771e-01  4.58970771e-01  4.58970771e-01  4.58970771e-01  3.26809036e-09  4.58970771e-01  1.61918741e-07  1.39955574e-07  9.40000000e-01 
 9.50000000e-01  4.58970758e-01  4.58970758e-01  4.58970758e-01  4.58970758e-01  4.58970758e-01  3.26809031e-09  4.58970758e-01  1.61918725e-07  1.39955489e-07  9.50000000e-01 
 9.60000000e-01  4.58970749e-01  4.58970749e-01  4.58970749e-01  4.58970749e-01  4.58970749e-01  3.26809036e-09  4.58970749e-01  1.61918704e-07  1.39955375e-07  9.60000000e-01 
 9.70000000e-01  4.58970732e-01  4.58970732e-01  4.58970732e-01  4.58970733e-01  4.58970732e-01  3.26809030e-09  4.58970732e-01  1.61918682e-07  1.39955219e-07  9.70000000e-01 
 9.80000000e-01  4.58970744e-01  4.58970744e-01  4.58970744e-01  4.58970744e-01  4.58970744e-01  3.26809036e-09  4.58970744e-01  1.61918695e-07  1.39955091e-07  9.80000000e-01 
 9.90000000e-01  4.58970763e-01  4.58970763e-01  4.58970763e-01  4.58970763e-01  4.58970763e-01  3.26809036e-09  4.58970763e-01  1.61918729e-07  1.39955084e-07  9.90000000e-01 
 1.00000000e+00  4.58970742e-01  4.58970742e-01  4.58970742e-01  4.58970742e-01  4.58970741e-01  3.26809036e-09  4.58970742e-01  1.61918703e-07  1.39954892e-07  1.00000000e+00 
 1.01000000e+00  4.58970754e-01  4.58970754e-01  4.58970754e-01  4.58970754e-01  4.58970754e-01  3.26809036e-09  4.58970754e-01  1.61918718e-07  1.39954828e-07  1.01000000e+00 
 1.02000000e+00  4.58970754e-01  4.58970754e-01  4.58970754e-01  4.58970754e-01  4.58970754e-01  3.26809031e-09  4.58970754e-01  1.61918726e-07  1.39954814e-07  1.02000000e+00 
 1.03000000e+00  4.58970766e-01  4.58970766e-01  4.58970766e-01  4.58970766e-01  4.58970766e-01  3.26809036e-09  4.58970766e-01  1.61918718e-07  1.39954643e-07  1.03000000e+00 
 1.04000000e+00  4.58970745e-01  4.58970745e-01  4.58970745e-01  4.58970745e-01  4.58970745e-01  3.26809036e-09  4.58970745e-01  1.61918719e-07  1.39954409e-07  1.04000000e+00 
 1.05000000e+00  4.58970770e-01  4.58970770e-01  4.58970770e-01  4.58970770e-01  4.58970770e-01  3.26809031e-09  4.58970770e-01  1.61918733e-07  1.39954366e-07  1.05000000e+00 
 1.06000000e+00  4.58970749e-01  4.58970749e-01  4.58970749e-01  4.58970749e-01  4.58970749e-01  3.26809030e-09  4.58970749e-01  1.61918717e-07  1.39954224e-07  1.06000000e+00 
 1.07000000e+00  4.58970769e-01  4.58970769e-01  4.58970769e-01  4.58970769e-01  4.58970769e-01  3.26809036e-09  4.58970769e-01  1.61918724e-07  1.39954210e-07  1.07000000e+00 
 1.08000000e+00  4.58970764e-01  4.58970764e-01  4.58970764e-01  4.58970764e-01  4.58970764e-01  3.26809036e-09  4.58970764e-01  1.61918736e-07  1.39954054e-07  1.08000000e+00 
 1.09000000e+00  4.58970775e-01  4.58970775e-01  4.58970775e-01  4.58970775e-01  4.58970775e-01  3.26809031e-09  4.58970775e-01  1.61918734e-07  1.39953876e-07  1.09000000e+00 
 1.10000000e+00  4.58970749e-01  4.58970749e-01  4.58970749e-01  4.58970749e-01  4.58970749e-01  3.26809030e-09  4.58970749e-01  1.61918722e-07  1.39953762e-07  1.10000000e+00 
