 v-sweep         v(b0)           v(b1)           v(b2)           v(b3)           v(b4)           v(b5)           v(b6)           i(vbias)        i(viout)        v(vout)        
 0.00000000e+00  4.58515369e-01  4.58515368e-01  3.28927689e-09  4.58515369e-01  3.30653527e-09  3.36635520e-09  3.28124000e-09  1.59325062e-07  1.65123442e-08  0.00000000e+00 
 1.00000000e-02  4.58515357e-01  4.58515357e-01  3.28927686e-09  4.58515357e-01  3.30653530e-09  3.36635523e-09  3.28123997e-09  1.59325053e-07  1.65121143e-08  1.00000000e-02 
 2.00000000e-02  4.58515414e-01  4.58515414e-01  3.28927681e-09  4.58515414e-01  3.30653531e-09  3.36635524e-09  3.28123997e-09  1.59325146e-07  1.65116119e-08  2.00000000e-02 
 3.00000000e-02  4.58515403e-01  4.58515403e-01  3.28927688e-09  4.58515403e-01  3.30653531e-09  3.36635524e-09  3.28123997e-09  1.59325114e-07  1.65112952e-08  3.00000000e-02 
 4.00000000e-02  4.58515402e-01  4.58515402e-01  3.28927680e-09  4.58515402e-01  3.30653531e-09  3.36635524e-09  3.28123997e-09  1.59325107e-07  1.65108651e-08  4.00000000e-02 
 5.00000000e-02  4.58515389e-01  4.58515389e-01  3.28927688e-09  4.58515389e-01  3.30653530e-09  3.36635524e-09  3.28123997e-09  1.59325099e-07  1.65107155e-08  5.00000000e-02 
 6.00000000e-02  4.58515382e-01  4.58515382e-01  3.28927686e-09  4.58515382e-01  3.30653530e-09  3.36635524e-09  3.28124003e-09  1.59325081e-07  1.65103615e-08  6.00000000e-02 
 7.00000000e-02  4.58515383e-01  4.58515383e-01  3.28927681e-09  4.58515383e-01  3.30653530e-09  3.36635524e-09  3.28123997e-09  1.59325089e-07  1.65100729e-08  7.00000000e-02 
 8.00000000e-02  4.58515390e-01  4.58515390e-01  3.28927682e-09  4.58515390e-01  3.30653530e-09  3.36635524e-09  3.28123997e-09  1.59325098e-07  1.65096461e-08  8.00000000e-02 
 9.00000000e-02  4.58515369e-01  4.58515369e-01  3.28927687e-09  4.58515369e-01  3.30653530e-09  3.36635523e-09  3.28123997e-09  1.59325070e-07  1.65093672e-08  9.00000000e-02 
 1.00000000e-01  4.58515377e-01  4.58515376e-01  3.28927680e-09  4.58515376e-01  3.30653530e-09  3.36635523e-09  3.28123997e-09  1.59325084e-07  1.65092748e-08  1.00000000e-01 
 1.10000000e-01  4.58515389e-01  4.58515388e-01  3.28927682e-09  4.58515388e-01  3.30653530e-09  3.36635524e-09  3.28123997e-09  1.59325086e-07  1.65090590e-08  1.10000000e-01 
 1.20000000e-01  4.58515374e-01  4.58515374e-01  3.28927687e-09  4.58515374e-01  3.30653530e-09  3.36635523e-09  3.28123997e-09  1.59325062e-07  1.65087588e-08  1.20000000e-01 
 1.30000000e-01  4.58515390e-01  4.58515390e-01  3.28927686e-09  4.58515390e-01  3.30653530e-09  3.36635524e-09  3.28123997e-09  1.59325109e-07  1.65085119e-08  1.30000000e-01 
 1.40000000e-01  4.58515389e-01  4.58515389e-01  3.28927687e-09  4.58515389e-01  3.30653530e-09  3.36635524e-09  3.28123997e-09  1.59325080e-07  1.65084115e-08  1.40000000e-01 
 1.50000000e-01  4.58515381e-01  4.58515381e-01  3.28927687e-09  4.58515381e-01  3.30653530e-09  3.36635523e-09  3.28123997e-09  1.59325082e-07  1.65081229e-08  1.50000000e-01 
 1.60000000e-01  4.58515400e-01  4.58515400e-01  3.28927687e-09  4.58515400e-01  3.30653531e-09  3.36635524e-09  3.28123997e-09  1.59325114e-07  1.65080323e-08  1.60000000e-01 
 1.70000000e-01  4.58515381e-01  4.58515381e-01  3.28927687e-09  4.58515381e-01  3.30653530e-09  3.36635523e-09  3.28123997e-09  1.59325070e-07  1.65078156e-08  1.70000000e-01 
 1.80000000e-01  4.58515382e-01  4.58515382e-01  3.28927687e-09  4.58515382e-01  3.30653530e-09  3.36635523e-09  3.28123997e-09  1.59325087e-07  1.65076255e-08  1.80000000e-01 
 1.90000000e-01  4.58515356e-01  4.58515356e-01  3.28927686e-09  4.58515356e-01  3.30653536e-09  3.36635523e-09  3.28124003e-09  1.59325040e-07  1.65073857e-08  1.90000000e-01 
 2.00000000e-01  4.58515389e-01  4.58515389e-01  3.28927681e-09  4.58515389e-01  3.30653530e-09  3.36635524e-09  3.28123997e-09  1.59325105e-07  1.65072596e-08  2.00000000e-01 
 2.10000000e-01  4.58515357e-01  4.58515357e-01  3.28927682e-09  4.58515357e-01  3.30653530e-09  3.36635523e-09  3.28123997e-09  1.59325040e-07  1.65071867e-08  2.10000000e-01 
 2.20000000e-01  4.58515393e-01  4.58515392e-01  3.28927687e-09  4.58515393e-01  3.30653531e-09  3.36635524e-09  3.28123997e-09  1.59325105e-07  1.65069576e-08  2.20000000e-01 
 2.30000000e-01  4.58515395e-01  4.58515395e-01  3.28927686e-09  4.58515395e-01  3.30653531e-09  3.36635524e-09  3.28123997e-09  1.59325100e-07  1.65068830e-08  2.30000000e-01 
 2.40000000e-01  4.58515380e-01  4.58515379e-01  3.28927687e-09  4.58515380e-01  3.30653536e-09  3.36635523e-09  3.28123997e-09  1.59325081e-07  1.65067426e-08  2.40000000e-01 
 2.50000000e-01  4.58515374e-01  4.58515374e-01  3.28927687e-09  4.58515374e-01  3.30653536e-09  3.36635523e-09  3.28123997e-09  1.59325080e-07  1.65066112e-08  2.50000000e-01 
 2.60000000e-01  4.58515406e-01  4.58515406e-01  3.28927687e-09  4.58515406e-01  3.30653531e-09  3.36635524e-09  3.28123997e-09  1.59325127e-07  1.65065224e-08  2.60000000e-01 
 2.70000000e-01  4.58515397e-01  4.58515396e-01  3.28927687e-09  4.58515397e-01  3.30653536e-09  3.36635524e-09  3.28123997e-09  1.59325085e-07  1.65063057e-08  2.70000000e-01 
 2.80000000e-01  4.58515366e-01  4.58515366e-01  3.28927687e-09  4.58515366e-01  3.30653530e-09  3.36635523e-09  3.28123997e-09  1.59325073e-07  1.65062595e-08  2.80000000e-01 
 2.90000000e-01  4.58515383e-01  4.58515383e-01  3.28927687e-09  4.58515383e-01  3.30653530e-09  3.36635524e-09  3.28124003e-09  1.59325094e-07  1.65060747e-08  2.90000000e-01 
 3.00000000e-01  4.58515382e-01  4.58515382e-01  3.28927681e-09  4.58515382e-01  3.30653530e-09  3.36635523e-09  3.28123997e-09  1.59325083e-07  1.65060143e-08  3.00000000e-01 
 3.10000000e-01  4.58515389e-01  4.58515389e-01  3.28927688e-09  4.58515389e-01  3.30653530e-09  3.36635524e-09  3.28123997e-09  1.59325092e-07  1.65060889e-08  3.10000000e-01 
 3.20000000e-01  4.58515355e-01  4.58515355e-01  3.28927686e-09  4.58515355e-01  3.30653536e-09  3.36635523e-09  3.28123997e-09  1.59325040e-07  1.65059930e-08  3.20000000e-01 
 3.30000000e-01  4.58515382e-01  4.58515382e-01  3.28927687e-09  4.58515382e-01  3.30653530e-09  3.36635523e-09  3.28123997e-09  1.59325081e-07  1.65058083e-08  3.30000000e-01 
 3.40000000e-01  4.58515372e-01  4.58515372e-01  3.28927687e-09  4.58515372e-01  3.30653530e-09  3.36635523e-09  3.28124003e-09  1.59325061e-07  1.65058118e-08  3.40000000e-01 
 3.50000000e-01  4.58515378e-01  4.58515377e-01  3.28927687e-09  4.58515377e-01  3.30653530e-09  3.36635523e-09  3.28123997e-09  1.59325084e-07  1.65056164e-08  3.50000000e-01 
 3.60000000e-01  4.58515372e-01  4.58515371e-01  3.28927687e-09  4.58515372e-01  3.30653530e-09  3.36635523e-09  3.28123997e-09  1.59325069e-07  1.65055454e-08  3.60000000e-01 
 3.70000000e-01  4.58515375e-01  4.58515375e-01  3.28927687e-09  4.58515375e-01  3.30653530e-09  3.36635523e-09  3.28123997e-09  1.59325067e-07  1.65054956e-08  3.70000000e-01 
 3.80000000e-01  4.58515389e-01  4.58515388e-01  3.28927687e-09  4.58515389e-01  3.30653530e-09  3.36635524e-09  3.28123997e-09  1.59325090e-07  1.65053962e-08  3.80000000e-01 
 3.90000000e-01  4.58515399e-01  4.58515399e-01  3.28927687e-09  4.58515399e-01  3.30653531e-09  3.36635524e-09  3.28123997e-09  1.59325112e-07  1.65053464e-08  3.90000000e-01 
 4.00000000e-01  4.58515367e-01  4.58515366e-01  3.28927687e-09  4.58515366e-01  3.30653530e-09  3.36635523e-09  3.28123997e-09  1.59325061e-07  1.65052398e-08  4.00000000e-01 
 4.10000000e-01  4.58515397e-01  4.58515397e-01  3.28927687e-09  4.58515397e-01  3.30653531e-09  3.36635524e-09  3.28123997e-09  1.59325112e-07  1.65053002e-08  4.10000000e-01 
 4.20000000e-01  4.58515387e-01  4.58515387e-01  3.28927681e-09  4.58515387e-01  3.30653530e-09  3.36635524e-09  3.28123997e-09  1.59325087e-07  1.65051262e-08  4.20000000e-01 
 4.30000000e-01  4.58515384e-01  4.58515384e-01  3.28927682e-09  4.58515384e-01  3.30653530e-09  3.36635524e-09  3.28123997e-09  1.59325087e-07  1.65049769e-08  4.30000000e-01 
 4.40000000e-01  4.58515403e-01  4.58515403e-01  3.28927687e-09  4.58515403e-01  3.30653531e-09  3.36635524e-09  3.28123997e-09  1.59325109e-07  1.65049627e-08  4.40000000e-01 
 4.50000000e-01  4.58515390e-01  4.58515390e-01  3.28927680e-09  4.58515390e-01  3.30653531e-09  3.36635524e-09  3.28123997e-09  1.59325099e-07  1.65049237e-08  4.50000000e-01 
 4.60000000e-01  4.58515396e-01  4.58515396e-01  3.28927688e-09  4.58515396e-01  3.30653531e-09  3.36635524e-09  3.28123997e-09  1.59325107e-07  1.65048419e-08  4.60000000e-01 
 4.70000000e-01  4.58515348e-01  4.58515347e-01  3.28927686e-09  4.58515348e-01  3.30653530e-09  3.36635523e-09  3.28123997e-09  1.59325032e-07  1.65048419e-08  4.70000000e-01 
 4.80000000e-01  4.58515390e-01  4.58515390e-01  3.28927687e-09  4.58515390e-01  3.30653536e-09  3.36635524e-09  3.28123997e-09  1.59325109e-07  1.65047886e-08  4.80000000e-01 
 4.90000000e-01  4.58515369e-01  4.58515369e-01  3.28927681e-09  4.58515369e-01  3.30653530e-09  3.36635523e-09  3.28123997e-09  1.59325063e-07  1.65046679e-08  4.90000000e-01 
 5.00000000e-01  4.58515377e-01  4.58515377e-01  3.28927688e-09  4.58515377e-01  3.30653530e-09  3.36635523e-09  3.28124003e-09  1.59325080e-07  1.65045968e-08  5.00000000e-01 
 5.10000000e-01  4.58515387e-01  4.58515387e-01  3.28927680e-09  4.58515387e-01  3.30653530e-09  3.36635524e-09  3.28123997e-09  1.59325089e-07  1.65045542e-08  5.10000000e-01 
 5.20000000e-01  4.58515386e-01  4.58515386e-01  3.28927682e-09  4.58515386e-01  3.30653530e-09  3.36635524e-09  3.28123997e-09  1.59325090e-07  1.65045577e-08  5.20000000e-01 
 5.30000000e-01  4.58515402e-01  4.58515402e-01  3.28927687e-09  4.58515402e-01  3.30653531e-09  3.36635524e-09  3.28124003e-09  1.59325114e-07  1.65044653e-08  5.30000000e-01 
 5.40000000e-01  4.58515378e-01  4.58515377e-01  3.28927686e-09  4.58515378e-01  3.30653530e-09  3.36635523e-09  3.28123997e-09  1.59325066e-07  1.65045009e-08  5.40000000e-01 
 5.50000000e-01  4.58515370e-01  4.58515369e-01  3.28927681e-09  4.58515370e-01  3.30653530e-09  3.36635523e-09  3.28123997e-09  1.59325058e-07  1.65042451e-08  5.50000000e-01 
 5.60000000e-01  4.58515382e-01  4.58515382e-01  3.28927688e-09  4.58515382e-01  3.30653530e-09  3.36635524e-09  3.28123997e-09  1.59325091e-07  1.65043161e-08  5.60000000e-01 
 5.70000000e-01  4.58515363e-01  4.58515363e-01  3.28927686e-09  4.58515363e-01  3.30653530e-09  3.36635523e-09  3.28123997e-09  1.59325061e-07  1.65042202e-08  5.70000000e-01 
 5.80000000e-01  4.58515400e-01  4.58515400e-01  3.28927687e-09  4.58515400e-01  3.30653531e-09  3.36635524e-09  3.28123997e-09  1.59325110e-07  1.65041669e-08  5.80000000e-01 
 5.90000000e-01  4.58515373e-01  4.58515373e-01  3.28927687e-09  4.58515373e-01  3.30653530e-09  3.36635523e-09  3.28123997e-09  1.59325049e-07  1.65040959e-08  5.90000000e-01 
 6.00000000e-01  4.58515390e-01  4.58515390e-01  3.28927681e-09  4.58515390e-01  3.30653536e-09  3.36635524e-09  3.28123997e-09  1.59325107e-07  1.65040248e-08  6.00000000e-01 
 6.10000000e-01  4.58515374e-01  4.58515373e-01  3.28927682e-09  4.58515374e-01  3.30653530e-09  3.36635523e-09  3.28124003e-09  1.59325071e-07  1.65040674e-08  6.10000000e-01 
 6.20000000e-01  4.58515379e-01  4.58515379e-01  3.28927682e-09  4.58515379e-01  3.30653530e-09  3.36635523e-09  3.28123997e-09  1.59325084e-07  1.65040461e-08  6.20000000e-01 
 6.30000000e-01  4.58515394e-01  4.58515394e-01  3.28927687e-09  4.58515394e-01  3.30653531e-09  3.36635524e-09  3.28123997e-09  1.59325092e-07  1.65039111e-08  6.30000000e-01 
 6.40000000e-01  4.58515385e-01  4.58515385e-01  3.28927686e-09  4.58515385e-01  3.30653530e-09  3.36635524e-09  3.28123997e-09  1.59325079e-07  1.65039111e-08  6.40000000e-01 
 6.50000000e-01  4.58515401e-01  4.58515400e-01  3.28927687e-09  4.58515401e-01  3.30653531e-09  3.36635524e-09  3.28123997e-09  1.59325116e-07  1.65037903e-08  6.50000000e-01 
 6.60000000e-01  4.58515377e-01  4.58515377e-01  3.28927687e-09  4.58515377e-01  3.30653530e-09  3.36635523e-09  3.28123997e-09  1.59325070e-07  1.65038117e-08  6.60000000e-01 
 6.70000000e-01  4.58515378e-01  4.58515378e-01  3.28927687e-09  4.58515378e-01  3.30653530e-09  3.36635523e-09  3.28123997e-09  1.59325080e-07  1.65037122e-08  6.70000000e-01 
 6.80000000e-01  4.58515397e-01  4.58515397e-01  3.28927687e-09  4.58515397e-01  3.30653531e-09  3.36635524e-09  3.28123997e-09  1.59325110e-07  1.65035630e-08  6.80000000e-01 
 6.90000000e-01  4.58515400e-01  4.58515400e-01  3.28927687e-09  4.58515400e-01  3.30653531e-09  3.36635524e-09  3.28123997e-09  1.59325105e-07  1.65036056e-08  6.90000000e-01 
 7.00000000e-01  4.58515388e-01  4.58515388e-01  3.28927687e-09  4.58515388e-01  3.30653530e-09  3.36635524e-09  3.28123997e-09  1.59325083e-07  1.65034990e-08  7.00000000e-01 
 7.10000000e-01  4.58515381e-01  4.58515380e-01  3.28927681e-09  4.58515381e-01  3.30653530e-09  3.36635523e-09  3.28123997e-09  1.59325088e-07  1.65034493e-08  7.10000000e-01 
 7.20000000e-01  4.58515385e-01  4.58515385e-01  3.28927688e-09  4.58515385e-01  3.30653530e-09  3.36635524e-09  3.28123997e-09  1.59325083e-07  1.65034919e-08  7.20000000e-01 
 7.30000000e-01  4.58515405e-01  4.58515405e-01  3.28927680e-09  4.58515405e-01  3.30653531e-09  3.36635524e-09  3.28123997e-09  1.59325120e-07  1.65033640e-08  7.30000000e-01 
 7.40000000e-01  4.58515385e-01  4.58515384e-01  3.28927688e-09  4.58515384e-01  3.30653530e-09  3.36635524e-09  3.28123997e-09  1.59325079e-07  1.65033356e-08  7.40000000e-01 
 7.50000000e-01  4.58515397e-01  4.58515396e-01  3.28927686e-09  4.58515397e-01  3.30653531e-09  3.36635524e-09  3.28123997e-09  1.59325105e-07  1.65033001e-08  7.50000000e-01 
 7.60000000e-01  4.58515392e-01  4.58515392e-01  3.28927687e-09  4.58515392e-01  3.30653531e-09  3.36635524e-09  3.28123997e-09  1.59325097e-07  1.65031864e-08  7.60000000e-01 
 7.70000000e-01  4.58515383e-01  4.58515383e-01  3.28927687e-09  4.58515383e-01  3.30653530e-09  3.36635524e-09  3.28123997e-09  1.59325096e-07  1.65032432e-08  7.70000000e-01 
 7.80000000e-01  4.58515399e-01  4.58515399e-01  3.28927687e-09  4.58515399e-01  3.30653531e-09  3.36635524e-09  3.28123997e-09  1.59325108e-07  1.65031366e-08  7.80000000e-01 
 7.90000000e-01  4.58515392e-01  4.58515392e-01  3.28927687e-09  4.58515392e-01  3.30653531e-09  3.36635524e-09  3.28123997e-09  1.59325080e-07  1.65031082e-08  7.90000000e-01 
 8.00000000e-01  4.58515389e-01  4.58515389e-01  3.28927687e-09  4.58515389e-01  3.30653536e-09  3.36635524e-09  3.28123997e-09  1.59325094e-07  1.65029306e-08  8.00000000e-01 
 8.10000000e-01  4.58515386e-01  4.58515386e-01  3.28927687e-09  4.58515386e-01  3.30653530e-09  3.36635524e-09  3.28123997e-09  1.59325084e-07  1.65029448e-08  8.10000000e-01 
 8.20000000e-01  4.58515400e-01  4.58515400e-01  3.28927687e-09  4.58515400e-01  3.30653531e-09  3.36635524e-09  3.28124003e-09  1.59325117e-07  1.65028879e-08  8.20000000e-01 
 8.30000000e-01  4.58515390e-01  4.58515390e-01  3.28927687e-09  4.58515390e-01  3.30653530e-09  3.36635524e-09  3.28123997e-09  1.59325090e-07  1.65027743e-08  8.30000000e-01 
 8.40000000e-01  4.58515392e-01  4.58515392e-01  3.28927687e-09  4.58515392e-01  3.30653531e-09  3.36635524e-09  3.28123997e-09  1.59325107e-07  1.65028666e-08  8.40000000e-01 
 8.50000000e-01  4.58515407e-01  4.58515406e-01  3.28927687e-09  4.58515407e-01  3.30653531e-09  3.36635524e-09  3.28123997e-09  1.59325118e-07  1.65028027e-08  8.50000000e-01 
 8.60000000e-01  4.58515407e-01  4.58515407e-01  3.28927681e-09  4.58515407e-01  3.30653531e-09  3.36635524e-09  3.28123997e-09  1.59325111e-07  1.65027316e-08  8.60000000e-01 
 8.70000000e-01  4.58515388e-01  4.58515388e-01  3.28927688e-09  4.58515388e-01  3.30653536e-09  3.36635524e-09  3.28123997e-09  1.59325102e-07  1.65026321e-08  8.70000000e-01 
 8.80000000e-01  4.58515391e-01  4.58515391e-01  3.28927686e-09  4.58515391e-01  3.30653531e-09  3.36635524e-09  3.28123997e-09  1.59325111e-07  1.65026606e-08  8.80000000e-01 
 8.90000000e-01  4.58515384e-01  4.58515384e-01  3.28927687e-09  4.58515384e-01  3.30653530e-09  3.36635524e-09  3.28123997e-09  1.59325086e-07  1.65024758e-08  8.90000000e-01 
 9.00000000e-01  4.58515377e-01  4.58515377e-01  3.28927687e-09  4.58515377e-01  3.30653536e-09  3.36635523e-09  3.28123997e-09  1.59325084e-07  1.65025540e-08  9.00000000e-01 
 9.10000000e-01  4.58515392e-01  4.58515391e-01  3.28927687e-09  4.58515392e-01  3.30653531e-09  3.36635524e-09  3.28124003e-09  1.59325102e-07  1.65024332e-08  9.10000000e-01 
 9.20000000e-01  4.58515382e-01  4.58515382e-01  3.28927687e-09  4.58515382e-01  3.30653536e-09  3.36635524e-09  3.28123997e-09  1.59325083e-07  1.65023835e-08  9.20000000e-01 
 9.30000000e-01  4.58515373e-01  4.58515373e-01  3.28927687e-09  4.58515373e-01  3.30653530e-09  3.36635523e-09  3.28123997e-09  1.59325077e-07  1.65022556e-08  9.30000000e-01 
 9.40000000e-01  4.58515391e-01  4.58515390e-01  3.28927687e-09  4.58515391e-01  3.30653531e-09  3.36635524e-09  3.28124003e-09  1.59325102e-07  1.65022698e-08  9.40000000e-01 
 9.50000000e-01  4.58515362e-01  4.58515361e-01  3.28927687e-09  4.58515362e-01  3.30653530e-09  3.36635523e-09  3.28123997e-09  1.59325058e-07  1.65022698e-08  9.50000000e-01 
 9.60000000e-01  4.58515381e-01  4.58515380e-01  3.28927687e-09  4.58515381e-01  3.30653536e-09  3.36635523e-09  3.28123997e-09  1.59325072e-07  1.65022058e-08  9.60000000e-01 
 9.70000000e-01  4.58515341e-01  4.58515341e-01  3.28927686e-09  4.58515341e-01  3.30653530e-09  3.36635523e-09  3.28123997e-09  1.59325029e-07  1.65020566e-08  9.70000000e-01 
 9.80000000e-01  4.58515382e-01  4.58515382e-01  3.28927681e-09  4.58515382e-01  3.30653530e-09  3.36635524e-09  3.28123997e-09  1.59325083e-07  1.65021419e-08  9.80000000e-01 
 9.90000000e-01  4.58515377e-01  4.58515377e-01  3.28927682e-09  4.58515377e-01  3.30653530e-09  3.36635523e-09  3.28123997e-09  1.59325068e-07  1.65020211e-08  9.90000000e-01 
 1.00000000e+00  4.58515397e-01  4.58515396e-01  3.28927687e-09  4.58515396e-01  3.30653531e-09  3.36635524e-09  3.28123997e-09  1.59325113e-07  1.65020140e-08  1.00000000e+00 
 1.01000000e+00  4.58515374e-01  4.58515374e-01  3.28927686e-09  4.58515374e-01  3.30653530e-09  3.36635523e-09  3.28123997e-09  1.59325054e-07  1.65018719e-08  1.01000000e+00 
 1.02000000e+00  4.58515396e-01  4.58515396e-01  3.28927687e-09  4.58515396e-01  3.30653531e-09  3.36635524e-09  3.28123997e-09  1.59325099e-07  1.65018577e-08  1.02000000e+00 
 1.03000000e+00  4.58515401e-01  4.58515401e-01  3.28927687e-09  4.58515401e-01  3.30653531e-09  3.36635524e-09  3.28123997e-09  1.59325107e-07  1.65017013e-08  1.03000000e+00 
 1.04000000e+00  4.58515410e-01  4.58515410e-01  3.28927687e-09  4.58515410e-01  3.30653531e-09  3.36635524e-09  3.28123997e-09  1.59325126e-07  1.65016303e-08  1.04000000e+00 
 1.05000000e+00  4.58515392e-01  4.58515392e-01  3.28927687e-09  4.58515392e-01  3.30653531e-09  3.36635524e-09  3.28123997e-09  1.59325099e-07  1.65016729e-08  1.05000000e+00 
 1.06000000e+00  4.58515403e-01  4.58515402e-01  3.28927687e-09  4.58515403e-01  3.30653531e-09  3.36635524e-09  3.28123997e-09  1.59325129e-07  1.65016871e-08  1.06000000e+00 
 1.07000000e+00  4.58515371e-01  4.58515370e-01  3.28927681e-09  4.58515371e-01  3.30653530e-09  3.36635523e-09  3.28123997e-09  1.59325058e-07  1.65015521e-08  1.07000000e+00 
 1.08000000e+00  4.58515371e-01  4.58515371e-01  3.28927688e-09  4.58515371e-01  3.30653530e-09  3.36635523e-09  3.28124003e-09  1.59325069e-07  1.65015663e-08  1.08000000e+00 
 1.09000000e+00  4.58515392e-01  4.58515392e-01  3.28927686e-09  4.58515392e-01  3.30653531e-09  3.36635524e-09  3.28123997e-09  1.59325102e-07  1.65015095e-08  1.09000000e+00 
 1.10000000e+00  4.58515368e-01  4.58515368e-01  3.28927687e-09  4.58515368e-01  3.30653530e-09  3.36635523e-09  3.28123997e-09  1.59325065e-07  1.65014029e-08  1.10000000e+00 
