 v-sweep         v(b0)           v(b1)           v(b2)           v(b3)           v(b4)           v(b5)           v(b6)           i(vbias)        i(viout)        v(vout)        
 0.00000000e+00  3.50347240e-09  3.11282864e-09  4.58399055e-01  4.58399055e-01  3.23256049e-09  4.58399055e-01  4.58399055e-01  1.60298304e-07  1.61398547e-07  0.00000000e+00 
 1.00000000e-02  3.50347240e-09  3.11282864e-09  4.58399047e-01  4.58399047e-01  3.23256049e-09  4.58399047e-01  4.58399047e-01  1.60298294e-07  1.61397957e-07  1.00000000e-02 
 2.00000000e-02  3.50347240e-09  3.11282870e-09  4.58399068e-01  4.58399068e-01  3.23256049e-09  4.58399068e-01  4.58399068e-01  1.60298330e-07  1.61397788e-07  2.00000000e-02 
 3.00000000e-02  3.50347240e-09  3.11282864e-09  4.58399034e-01  4.58399034e-01  3.23256049e-09  4.58399035e-01  4.58399035e-01  1.60298293e-07  1.61397218e-07  3.00000000e-02 
 4.00000000e-02  3.50347240e-09  3.11282864e-09  4.58399057e-01  4.58399057e-01  3.23256043e-09  4.58399057e-01  4.58399057e-01  1.60298322e-07  1.61396883e-07  4.00000000e-02 
 5.00000000e-02  3.50347240e-09  3.11282864e-09  4.58399046e-01  4.58399046e-01  3.23256050e-09  4.58399046e-01  4.58399046e-01  1.60298313e-07  1.61396524e-07  5.00000000e-02 
 6.00000000e-02  3.50347240e-09  3.11282869e-09  4.58399064e-01  4.58399064e-01  3.23256049e-09  4.58399064e-01  4.58399064e-01  1.60298309e-07  1.61396185e-07  6.00000000e-02 
 7.00000000e-02  3.50347240e-09  3.11282864e-09  4.58399062e-01  4.58399062e-01  3.23256043e-09  4.58399062e-01  4.58399062e-01  1.60298323e-07  1.61395884e-07  7.00000000e-02 
 8.00000000e-02  3.50347240e-09  3.11282864e-09  4.58399031e-01  4.58399031e-01  3.23256045e-09  4.58399031e-01  4.58399031e-01  1.60298280e-07  1.61395326e-07  8.00000000e-02 
 9.00000000e-02  3.50347240e-09  3.11282864e-09  4.58399060e-01  4.58399060e-01  3.23256048e-09  4.58399060e-01  4.58399060e-01  1.60298321e-07  1.61395144e-07  9.00000000e-02 
 1.00000000e-01  3.50347240e-09  3.11282864e-09  4.58399064e-01  4.58399064e-01  3.23256049e-09  4.58399064e-01  4.58399064e-01  1.60298327e-07  1.61394930e-07  1.00000000e-01 
 1.10000000e-01  3.50347240e-09  3.11282864e-09  4.58399048e-01  4.58399047e-01  3.23256049e-09  4.58399048e-01  4.58399048e-01  1.60298303e-07  1.61394445e-07  1.10000000e-01 
 1.20000000e-01  3.50347240e-09  3.11282869e-09  4.58399053e-01  4.58399053e-01  3.23256049e-09  4.58399053e-01  4.58399053e-01  1.60298296e-07  1.61394350e-07  1.20000000e-01 
 1.30000000e-01  3.50347240e-09  3.11282864e-09  4.58399066e-01  4.58399066e-01  3.23256043e-09  4.58399066e-01  4.58399066e-01  1.60298320e-07  1.61394057e-07  1.30000000e-01 
 1.40000000e-01  3.50347240e-09  3.11282864e-09  4.58399070e-01  4.58399069e-01  3.23256050e-09  4.58399070e-01  4.58399070e-01  1.60298324e-07  1.61393805e-07  1.40000000e-01 
 1.50000000e-01  3.50347240e-09  3.11282864e-09  4.58399064e-01  4.58399064e-01  3.23256043e-09  4.58399065e-01  4.58399064e-01  1.60298332e-07  1.61393629e-07  1.50000000e-01 
 1.60000000e-01  3.50347245e-09  3.11282864e-09  4.58399049e-01  4.58399049e-01  3.23256045e-09  4.58399050e-01  4.58399049e-01  1.60298295e-07  1.61393304e-07  1.60000000e-01 
 1.70000000e-01  3.50347240e-09  3.11282870e-09  4.58399069e-01  4.58399069e-01  3.23256049e-09  4.58399069e-01  4.58399069e-01  1.60298309e-07  1.61393073e-07  1.70000000e-01 
 1.80000000e-01  3.50347240e-09  3.11282864e-09  4.58399033e-01  4.58399033e-01  3.23256043e-09  4.58399034e-01  4.58399034e-01  1.60298274e-07  1.61392688e-07  1.80000000e-01 
 1.90000000e-01  3.50347240e-09  3.11282869e-09  4.58399023e-01  4.58399023e-01  3.23256044e-09  4.58399023e-01  4.58399023e-01  1.60298243e-07  1.61392345e-07  1.90000000e-01 
 2.00000000e-01  3.50347240e-09  3.11282864e-09  4.58399037e-01  4.58399037e-01  3.23256048e-09  4.58399037e-01  4.58399037e-01  1.60298276e-07  1.61392295e-07  2.00000000e-01 
 2.10000000e-01  3.50347240e-09  3.11282864e-09  4.58399049e-01  4.58399048e-01  3.23256043e-09  4.58399049e-01  4.58399049e-01  1.60298305e-07  1.61392073e-07  2.10000000e-01 
 2.20000000e-01  3.50347240e-09  3.11282869e-09  4.58399054e-01  4.58399054e-01  3.23256045e-09  4.58399054e-01  4.58399054e-01  1.60298312e-07  1.61391936e-07  2.20000000e-01 
 2.30000000e-01  3.50347240e-09  3.11282869e-09  4.58399051e-01  4.58399051e-01  3.23256048e-09  4.58399051e-01  4.58399051e-01  1.60298312e-07  1.61391737e-07  2.30000000e-01 
 2.40000000e-01  3.50347240e-09  3.11282869e-09  4.58399062e-01  4.58399062e-01  3.23256049e-09  4.58399062e-01  4.58399062e-01  1.60298324e-07  1.61391563e-07  2.40000000e-01 
 2.50000000e-01  3.50347240e-09  3.11282864e-09  4.58399039e-01  4.58399039e-01  3.23256049e-09  4.58399039e-01  4.58399039e-01  1.60298280e-07  1.61391240e-07  2.50000000e-01 
 2.60000000e-01  3.50347240e-09  3.11282869e-09  4.58399052e-01  4.58399052e-01  3.23256049e-09  4.58399052e-01  4.58399052e-01  1.60298303e-07  1.61391139e-07  2.60000000e-01 
 2.70000000e-01  3.50347240e-09  3.11282869e-09  4.58399058e-01  4.58399058e-01  3.23256049e-09  4.58399059e-01  4.58399059e-01  1.60298306e-07  1.61391020e-07  2.70000000e-01 
 2.80000000e-01  3.50347240e-09  3.11282869e-09  4.58399040e-01  4.58399040e-01  3.23256049e-09  4.58399040e-01  4.58399040e-01  1.60298296e-07  1.61390872e-07  2.80000000e-01 
 2.90000000e-01  3.50347240e-09  3.11282864e-09  4.58399044e-01  4.58399044e-01  3.23256049e-09  4.58399044e-01  4.58399044e-01  1.60298283e-07  1.61390588e-07  2.90000000e-01 
 3.00000000e-01  3.50347240e-09  3.11282864e-09  4.58399062e-01  4.58399062e-01  3.23256049e-09  4.58399062e-01  4.58399062e-01  1.60298318e-07  1.61390503e-07  3.00000000e-01 
 3.10000000e-01  3.50347240e-09  3.11282870e-09  4.58399067e-01  4.58399067e-01  3.23256049e-09  4.58399067e-01  4.58399067e-01  1.60298337e-07  1.61390368e-07  3.10000000e-01 
 3.20000000e-01  3.50347240e-09  3.11282864e-09  4.58399073e-01  4.58399072e-01  3.23256049e-09  4.58399073e-01  4.58399073e-01  1.60298331e-07  1.61390265e-07  3.20000000e-01 
 3.30000000e-01  3.50347240e-09  3.11282869e-09  4.58399039e-01  4.58399039e-01  3.23256043e-09  4.58399039e-01  4.58399039e-01  1.60298284e-07  1.61390034e-07  3.30000000e-01 
 3.40000000e-01  3.50347240e-09  3.11282870e-09  4.58399073e-01  4.58399073e-01  3.23256050e-09  4.58399073e-01  4.58399073e-01  1.60298322e-07  1.61390012e-07  3.40000000e-01 
 3.50000000e-01  3.50347240e-09  3.11282869e-09  4.58399035e-01  4.58399035e-01  3.23256048e-09  4.58399035e-01  4.58399035e-01  1.60298283e-07  1.61389647e-07  3.50000000e-01 
 3.60000000e-01  3.50347240e-09  3.11282864e-09  4.58399020e-01  4.58399020e-01  3.23256043e-09  4.58399021e-01  4.58399021e-01  1.60298253e-07  1.61389526e-07  3.60000000e-01 
 3.70000000e-01  3.50347240e-09  3.11282869e-09  4.58399064e-01  4.58399064e-01  3.23256045e-09  4.58399064e-01  4.58399064e-01  1.60298313e-07  1.61389533e-07  3.70000000e-01 
 3.80000000e-01  3.50347240e-09  3.11282864e-09  4.58399069e-01  4.58399068e-01  3.23256049e-09  4.58399069e-01  4.58399069e-01  1.60298324e-07  1.61389487e-07  3.80000000e-01 
 3.90000000e-01  3.50347240e-09  3.11282869e-09  4.58399061e-01  4.58399060e-01  3.23256049e-09  4.58399061e-01  4.58399061e-01  1.60298316e-07  1.61389281e-07  3.90000000e-01 
 4.00000000e-01  3.50347240e-09  3.11282864e-09  4.58399066e-01  4.58399066e-01  3.23256049e-09  4.58399066e-01  4.58399066e-01  1.60298324e-07  1.61389135e-07  4.00000000e-01 
 4.10000000e-01  3.50347246e-09  3.11282869e-09  4.58399063e-01  4.58399063e-01  3.23256043e-09  4.58399063e-01  4.58399063e-01  1.60298321e-07  1.61389075e-07  4.10000000e-01 
 4.20000000e-01  3.50347240e-09  3.11282869e-09  4.58399059e-01  4.58399059e-01  3.23256045e-09  4.58399059e-01  4.58399059e-01  1.60298309e-07  1.61388925e-07  4.20000000e-01 
 4.30000000e-01  3.50347240e-09  3.11282864e-09  4.58399068e-01  4.58399068e-01  3.23256049e-09  4.58399068e-01  4.58399068e-01  1.60298324e-07  1.61388769e-07  4.30000000e-01 
 4.40000000e-01  3.50347240e-09  3.11282864e-09  4.58399052e-01  4.58399052e-01  3.23256049e-09  4.58399052e-01  4.58399052e-01  1.60298307e-07  1.61388630e-07  4.40000000e-01 
 4.50000000e-01  3.50347240e-09  3.11282864e-09  4.58399062e-01  4.58399062e-01  3.23256043e-09  4.58399063e-01  4.58399062e-01  1.60298328e-07  1.61388574e-07  4.50000000e-01 
 4.60000000e-01  3.50347245e-09  3.11282864e-09  4.58399028e-01  4.58399028e-01  3.23256044e-09  4.58399028e-01  4.58399028e-01  1.60298259e-07  1.61388197e-07  4.60000000e-01 
 4.70000000e-01  3.50347240e-09  3.11282869e-09  4.58399018e-01  4.58399018e-01  3.23256048e-09  4.58399018e-01  4.58399018e-01  1.60298238e-07  1.61388112e-07  4.70000000e-01 
 4.80000000e-01  3.50347240e-09  3.11282870e-09  4.58399071e-01  4.58399071e-01  3.23256049e-09  4.58399071e-01  4.58399071e-01  1.60298332e-07  1.61388179e-07  4.80000000e-01 
 4.90000000e-01  3.50347240e-09  3.11282864e-09  4.58399057e-01  4.58399056e-01  3.23256043e-09  4.58399057e-01  4.58399057e-01  1.60298308e-07  1.61387995e-07  4.90000000e-01 
 5.00000000e-01  3.50347240e-09  3.11282870e-09  4.58399075e-01  4.58399075e-01  3.23256050e-09  4.58399075e-01  4.58399075e-01  1.60298331e-07  1.61387934e-07  5.00000000e-01 
 5.10000000e-01  3.50347240e-09  3.11282864e-09  4.58399048e-01  4.58399047e-01  3.23256048e-09  4.58399048e-01  4.58399048e-01  1.60298297e-07  1.61387788e-07  5.10000000e-01 
 5.20000000e-01  3.50347240e-09  3.11282864e-09  4.58399047e-01  4.58399047e-01  3.23256049e-09  4.58399047e-01  4.58399047e-01  1.60298291e-07  1.61387707e-07  5.20000000e-01 
 5.30000000e-01  3.50347240e-09  3.11282864e-09  4.58399063e-01  4.58399063e-01  3.23256049e-09  4.58399063e-01  4.58399063e-01  1.60298316e-07  1.61387629e-07  5.30000000e-01 
 5.40000000e-01  3.50347240e-09  3.11282869e-09  4.58399035e-01  4.58399035e-01  3.23256049e-09  4.58399035e-01  4.58399035e-01  1.60298282e-07  1.61387323e-07  5.40000000e-01 
 5.50000000e-01  3.50347240e-09  3.11282864e-09  4.58399062e-01  4.58399062e-01  3.23256049e-09  4.58399062e-01  4.58399062e-01  1.60298313e-07  1.61387391e-07  5.50000000e-01 
 5.60000000e-01  3.50347240e-09  3.11282869e-09  4.58399038e-01  4.58399038e-01  3.23256043e-09  4.58399038e-01  4.58399038e-01  1.60298297e-07  1.61387106e-07  5.60000000e-01 
 5.70000000e-01  3.50347240e-09  3.11282864e-09  4.58399046e-01  4.58399046e-01  3.23256045e-09  4.58399046e-01  4.58399046e-01  1.60298282e-07  1.61387057e-07  5.70000000e-01 
 5.80000000e-01  3.50347240e-09  3.11282869e-09  4.58399063e-01  4.58399063e-01  3.23256049e-09  4.58399063e-01  4.58399063e-01  1.60298323e-07  1.61387028e-07  5.80000000e-01 
 5.90000000e-01  3.50347240e-09  3.11282869e-09  4.58399057e-01  4.58399057e-01  3.23256043e-09  4.58399058e-01  4.58399057e-01  1.60298314e-07  1.61386879e-07  5.90000000e-01 
 6.00000000e-01  3.50347240e-09  3.11282869e-09  4.58399045e-01  4.58399045e-01  3.23256050e-09  4.58399045e-01  4.58399045e-01  1.60298309e-07  1.61386680e-07  6.00000000e-01 
 6.10000000e-01  3.50347240e-09  3.11282864e-09  4.58399039e-01  4.58399039e-01  3.23256048e-09  4.58399039e-01  4.58399039e-01  1.60298283e-07  1.61386602e-07  6.10000000e-01 
 6.20000000e-01  3.50347240e-09  3.11282869e-09  4.58399063e-01  4.58399063e-01  3.23256049e-09  4.58399064e-01  4.58399063e-01  1.60298315e-07  1.61386573e-07  6.20000000e-01 
 6.30000000e-01  3.50347240e-09  3.11282869e-09  4.58399049e-01  4.58399049e-01  3.23256049e-09  4.58399049e-01  4.58399049e-01  1.60298315e-07  1.61386382e-07  6.30000000e-01 
 6.40000000e-01  3.50347240e-09  3.11282864e-09  4.58399066e-01  4.58399066e-01  3.23256049e-09  4.58399066e-01  4.58399066e-01  1.60298335e-07  1.61386289e-07  6.40000000e-01 
 6.50000000e-01  3.50347240e-09  3.11282870e-09  4.58399079e-01  4.58399079e-01  3.23256049e-09  4.58399079e-01  4.58399079e-01  1.60298350e-07  1.61386176e-07  6.50000000e-01 
 6.60000000e-01  3.50347240e-09  3.11282864e-09  4.58399032e-01  4.58399031e-01  3.23256049e-09  4.58399032e-01  4.58399032e-01  1.60298277e-07  1.61385955e-07  6.60000000e-01 
 6.70000000e-01  3.50347240e-09  3.11282869e-09  4.58399058e-01  4.58399058e-01  3.23256049e-09  4.58399058e-01  4.58399058e-01  1.60298314e-07  1.61385920e-07  6.70000000e-01 
 6.80000000e-01  3.50347240e-09  3.11282869e-09  4.58399052e-01  4.58399052e-01  3.23256043e-09  4.58399052e-01  4.58399052e-01  1.60298299e-07  1.61385742e-07  6.80000000e-01 
 6.90000000e-01  3.50347240e-09  3.11282864e-09  4.58399042e-01  4.58399042e-01  3.23256050e-09  4.58399043e-01  4.58399042e-01  1.60298296e-07  1.61385671e-07  6.90000000e-01 
 7.00000000e-01  3.50347240e-09  3.11282869e-09  4.58399063e-01  4.58399063e-01  3.23256049e-09  4.58399063e-01  4.58399063e-01  1.60298313e-07  1.61385636e-07  7.00000000e-01 
 7.10000000e-01  3.50347240e-09  3.11282864e-09  4.58399039e-01  4.58399039e-01  3.23256043e-09  4.58399039e-01  4.58399039e-01  1.60298293e-07  1.61385408e-07  7.10000000e-01 
 7.20000000e-01  3.50347240e-09  3.11282869e-09  4.58399064e-01  4.58399064e-01  3.23256050e-09  4.58399064e-01  4.58399064e-01  1.60298312e-07  1.61385401e-07  7.20000000e-01 
 7.30000000e-01  3.50347240e-09  3.11282869e-09  4.58399045e-01  4.58399045e-01  3.23256043e-09  4.58399045e-01  4.58399045e-01  1.60298319e-07  1.61385174e-07  7.30000000e-01 
 7.40000000e-01  3.50347240e-09  3.11282864e-09  4.58399039e-01  4.58399039e-01  3.23256050e-09  4.58399039e-01  4.58399039e-01  1.60298285e-07  1.61385124e-07  7.40000000e-01 
 7.50000000e-01  3.50347240e-09  3.11282864e-09  4.58399065e-01  4.58399065e-01  3.23256049e-09  4.58399065e-01  4.58399065e-01  1.60298323e-07  1.61385138e-07  7.50000000e-01 
 7.60000000e-01  3.50347240e-09  3.11282869e-09  4.58399064e-01  4.58399064e-01  3.23256049e-09  4.58399064e-01  4.58399064e-01  1.60298318e-07  1.61384968e-07  7.60000000e-01 
 7.70000000e-01  3.50347240e-09  3.11282864e-09  4.58399051e-01  4.58399050e-01  3.23256049e-09  4.58399051e-01  4.58399051e-01  1.60298300e-07  1.61384676e-07  7.70000000e-01 
 7.80000000e-01  3.50347240e-09  3.11282869e-09  4.58399065e-01  4.58399065e-01  3.23256049e-09  4.58399066e-01  4.58399066e-01  1.60298329e-07  1.61384683e-07  7.80000000e-01 
 7.90000000e-01  3.50347240e-09  3.11282864e-09  4.58399044e-01  4.58399044e-01  3.23256049e-09  4.58399044e-01  4.58399044e-01  1.60298298e-07  1.61384442e-07  7.90000000e-01 
 8.00000000e-01  3.50347240e-09  3.11282864e-09  4.58399035e-01  4.58399035e-01  3.23256043e-09  4.58399035e-01  4.58399035e-01  1.60298270e-07  1.61384385e-07  8.00000000e-01 
 8.10000000e-01  3.50347240e-09  3.11282869e-09  4.58399051e-01  4.58399051e-01  3.23256050e-09  4.58399051e-01  4.58399051e-01  1.60298303e-07  1.61384158e-07  8.10000000e-01 
 8.20000000e-01  3.50347240e-09  3.11282864e-09  4.58399058e-01  4.58399058e-01  3.23256043e-09  4.58399058e-01  4.58399058e-01  1.60298317e-07  1.61384101e-07  8.20000000e-01 
 8.30000000e-01  3.50347240e-09  3.11282864e-09  4.58399042e-01  4.58399042e-01  3.23256050e-09  4.58399042e-01  4.58399042e-01  1.60298288e-07  1.61383916e-07  8.30000000e-01 
 8.40000000e-01  3.50347240e-09  3.11282864e-09  4.58399041e-01  4.58399041e-01  3.23256048e-09  4.58399042e-01  4.58399041e-01  1.60298294e-07  1.61383937e-07  8.40000000e-01 
 8.50000000e-01  3.50347240e-09  3.11282864e-09  4.58399051e-01  4.58399051e-01  3.23256049e-09  4.58399051e-01  4.58399051e-01  1.60298304e-07  1.61383760e-07  8.50000000e-01 
 8.60000000e-01  3.50347240e-09  3.11282864e-09  4.58399071e-01  4.58399071e-01  3.23256049e-09  4.58399072e-01  4.58399072e-01  1.60298340e-07  1.61383618e-07  8.60000000e-01 
 8.70000000e-01  3.50347240e-09  3.11282864e-09  4.58399036e-01  4.58399036e-01  3.23256043e-09  4.58399036e-01  4.58399036e-01  1.60298279e-07  1.61383504e-07  8.70000000e-01 
 8.80000000e-01  3.50347240e-09  3.11282869e-09  4.58399058e-01  4.58399057e-01  3.23256045e-09  4.58399058e-01  4.58399058e-01  1.60298312e-07  1.61383490e-07  8.80000000e-01 
 8.90000000e-01  3.50347240e-09  3.11282870e-09  4.58399068e-01  4.58399068e-01  3.23256049e-09  4.58399068e-01  4.58399068e-01  1.60298328e-07  1.61383333e-07  8.90000000e-01 
 9.00000000e-01  3.50347240e-09  3.11282864e-09  4.58399061e-01  4.58399061e-01  3.23256043e-09  4.58399061e-01  4.58399061e-01  1.60298319e-07  1.61383156e-07  9.00000000e-01 
 9.10000000e-01  3.50347240e-09  3.11282864e-09  4.58399041e-01  4.58399041e-01  3.23256045e-09  4.58399042e-01  4.58399042e-01  1.60298287e-07  1.61382928e-07  9.10000000e-01 
 9.20000000e-01  3.50347240e-09  3.11282864e-09  4.58399064e-01  4.58399064e-01  3.23256049e-09  4.58399064e-01  4.58399064e-01  1.60298335e-07  1.61382921e-07  9.20000000e-01 
 9.30000000e-01  3.50347240e-09  3.11282869e-09  4.58399048e-01  4.58399048e-01  3.23256049e-09  4.58399048e-01  4.58399048e-01  1.60298306e-07  1.61382793e-07  9.30000000e-01 
 9.40000000e-01  3.50347240e-09  3.11282864e-09  4.58399056e-01  4.58399055e-01  3.23256049e-09  4.58399056e-01  4.58399056e-01  1.60298307e-07  1.61382602e-07  9.40000000e-01 
 9.50000000e-01  3.50347240e-09  3.11282869e-09  4.58399059e-01  4.58399059e-01  3.23256049e-09  4.58399060e-01  4.58399059e-01  1.60298309e-07  1.61382523e-07  9.50000000e-01 
 9.60000000e-01  3.50347240e-09  3.11282864e-09  4.58399062e-01  4.58399062e-01  3.23256049e-09  4.58399062e-01  4.58399062e-01  1.60298315e-07  1.61382388e-07  9.60000000e-01 
 9.70000000e-01  3.50347240e-09  3.11282864e-09  4.58399041e-01  4.58399041e-01  3.23256049e-09  4.58399042e-01  4.58399042e-01  1.60298294e-07  1.61382097e-07  9.70000000e-01 
 9.80000000e-01  3.50347240e-09  3.11282869e-09  4.58399043e-01  4.58399043e-01  3.23256049e-09  4.58399043e-01  4.58399043e-01  1.60298290e-07  1.61382012e-07  9.80000000e-01 
 9.90000000e-01  3.50347240e-09  3.11282864e-09  4.58399021e-01  4.58399021e-01  3.23256049e-09  4.58399021e-01  4.58399021e-01  1.60298256e-07  1.61381728e-07  9.90000000e-01 
 1.00000000e+00  3.50347240e-09  3.11282869e-09  4.58399064e-01  4.58399064e-01  3.23256049e-09  4.58399064e-01  4.58399064e-01  1.60298311e-07  1.61381777e-07  1.00000000e+00 
 1.01000000e+00  3.50347240e-09  3.11282864e-09  4.58399057e-01  4.58399057e-01  3.23256043e-09  4.58399057e-01  4.58399057e-01  1.60298313e-07  1.61381749e-07  1.01000000e+00 
 1.02000000e+00  3.50347240e-09  3.11282864e-09  4.58399057e-01  4.58399057e-01  3.23256050e-09  4.58399057e-01  4.58399057e-01  1.60298317e-07  1.61381557e-07  1.02000000e+00 
 1.03000000e+00  3.50347240e-09  3.11282864e-09  4.58399065e-01  4.58399065e-01  3.23256049e-09  4.58399065e-01  4.58399065e-01  1.60298326e-07  1.61381344e-07  1.03000000e+00 
 1.04000000e+00  3.50347240e-09  3.11282870e-09  4.58399078e-01  4.58399078e-01  3.23256049e-09  4.58399078e-01  4.58399078e-01  1.60298344e-07  1.61381259e-07  1.04000000e+00 
 1.05000000e+00  3.50347240e-09  3.11282869e-09  4.58399059e-01  4.58399059e-01  3.23256049e-09  4.58399059e-01  4.58399059e-01  1.60298313e-07  1.61381138e-07  1.05000000e+00 
 1.06000000e+00  3.50347240e-09  3.11282864e-09  4.58399038e-01  4.58399038e-01  3.23256049e-09  4.58399038e-01  4.58399038e-01  1.60298290e-07  1.61380825e-07  1.06000000e+00 
 1.07000000e+00  3.50347240e-09  3.11282864e-09  4.58399029e-01  4.58399029e-01  3.23256049e-09  4.58399029e-01  4.58399029e-01  1.60298282e-07  1.61380676e-07  1.07000000e+00 
 1.08000000e+00  3.50347240e-09  3.11282869e-09  4.58399042e-01  4.58399042e-01  3.23256043e-09  4.58399042e-01  4.58399042e-01  1.60298284e-07  1.61380576e-07  1.08000000e+00 
 1.09000000e+00  3.50347240e-09  3.11282864e-09  4.58399058e-01  4.58399058e-01  3.23256045e-09  4.58399058e-01  4.58399058e-01  1.60298306e-07  1.61380463e-07  1.09000000e+00 
 1.10000000e+00  3.50347240e-09  3.11282869e-09  4.58399065e-01  4.58399065e-01  3.23256043e-09  4.58399065e-01  4.58399065e-01  1.60298308e-07  1.61380370e-07  1.10000000e+00 
