 v-sweep         v(b0)           v(b1)           v(b2)           v(b3)           v(b4)           v(b5)           v(b6)           i(vbias)        i(viout)        v(vout)        
 0.00000000e+00  4.61182441e-01  3.60143979e-09  3.85323378e-09  3.27356223e-09  3.38996928e-09  3.19271574e-09  3.39352431e-09  1.64085900e-07  1.67998014e-09  0.00000000e+00 
 1.00000000e-02  4.61182436e-01  3.60143971e-09  3.85323377e-09  3.27356227e-09  3.38996927e-09  3.19271578e-09  3.39352430e-09  1.64085887e-07  1.67953584e-09  1.00000000e-02 
 2.00000000e-02  4.61182422e-01  3.60143972e-09  3.85323371e-09  3.27356227e-09  3.38996926e-09  3.19271578e-09  3.39352429e-09  1.64085877e-07  1.67916214e-09  2.00000000e-02 
 3.00000000e-02  4.61182430e-01  3.60143972e-09  3.85323377e-09  3.27356227e-09  3.38996927e-09  3.19271578e-09  3.39352430e-09  1.64085893e-07  1.67869207e-09  3.00000000e-02 
 4.00000000e-02  4.61182416e-01  3.60143972e-09  3.85323376e-09  3.27356227e-09  3.38996926e-09  3.19271578e-09  3.39352429e-09  1.64085867e-07  1.67831260e-09  4.00000000e-02 
 5.00000000e-02  4.61182441e-01  3.60143972e-09  3.85323371e-09  3.27356221e-09  3.38996927e-09  3.19271578e-09  3.39352430e-09  1.64085900e-07  1.67793335e-09  5.00000000e-02 
 6.00000000e-02  4.61182445e-01  3.60143977e-09  3.85323377e-09  3.27356222e-09  3.38996927e-09  3.19271573e-09  3.39352430e-09  1.64085918e-07  1.67758740e-09  6.00000000e-02 
 7.00000000e-02  4.61182429e-01  3.60143972e-09  3.85323377e-09  3.27356226e-09  3.38996927e-09  3.19271578e-09  3.39352429e-09  1.64085895e-07  1.67726144e-09  7.00000000e-02 
 8.00000000e-02  4.61182450e-01  3.60143977e-09  3.85323371e-09  3.27356227e-09  3.38996927e-09  3.19271578e-09  3.39352424e-09  1.64085914e-07  1.67688707e-09  8.00000000e-02 
 9.00000000e-02  4.61182429e-01  3.60143977e-09  3.85323377e-09  3.27356227e-09  3.38996927e-09  3.19271573e-09  3.39352424e-09  1.64085887e-07  1.67653535e-09  9.00000000e-02 
 1.00000000e-01  4.61182429e-01  3.60143972e-09  3.85323371e-09  3.27356221e-09  3.38996927e-09  3.19271578e-09  3.39352424e-09  1.64085903e-07  1.67628400e-09  1.00000000e-01 
 1.10000000e-01  4.61182428e-01  3.60143972e-09  3.85323377e-09  3.27356228e-09  3.38996921e-09  3.19271578e-09  3.39352429e-09  1.64085886e-07  1.67595005e-09  1.10000000e-01 
 1.20000000e-01  4.61182432e-01  3.60143977e-09  3.85323377e-09  3.27356226e-09  3.38996927e-09  3.19271578e-09  3.39352430e-09  1.64085899e-07  1.67569247e-09  1.20000000e-01 
 1.30000000e-01  4.61182424e-01  3.60143972e-09  3.85323377e-09  3.27356227e-09  3.38996927e-09  3.19271578e-09  3.39352429e-09  1.64085886e-07  1.67535852e-09  1.30000000e-01 
 1.40000000e-01  4.61182430e-01  3.60143977e-09  3.85323377e-09  3.27356221e-09  3.38996927e-09  3.19271578e-09  3.39352430e-09  1.64085894e-07  1.67512493e-09  1.40000000e-01 
 1.50000000e-01  4.61182442e-01  3.60143977e-09  3.85323371e-09  3.27356222e-09  3.38996927e-09  3.19271578e-09  3.39352430e-09  1.64085910e-07  1.67487890e-09  1.50000000e-01 
 1.60000000e-01  4.61182425e-01  3.60143972e-09  3.85323377e-09  3.27356226e-09  3.38996927e-09  3.19271578e-09  3.39352429e-09  1.64085880e-07  1.67462844e-09  1.60000000e-01 
 1.70000000e-01  4.61182420e-01  3.60143977e-09  3.85323376e-09  3.27356221e-09  3.38996926e-09  3.19271578e-09  3.39352424e-09  1.64085881e-07  1.67430159e-09  1.70000000e-01 
 1.80000000e-01  4.61182418e-01  3.60143972e-09  3.85323371e-09  3.27356222e-09  3.38996926e-09  3.19271578e-09  3.39352424e-09  1.64085865e-07  1.67413816e-09  1.80000000e-01 
 1.90000000e-01  4.61182444e-01  3.60143972e-09  3.85323371e-09  3.27356226e-09  3.38996927e-09  3.19271578e-09  3.39352430e-09  1.64085913e-07  1.67398895e-09  1.90000000e-01 
 2.00000000e-01  4.61182428e-01  3.60143977e-09  3.85323377e-09  3.27356227e-09  3.38996927e-09  3.19271578e-09  3.39352429e-09  1.64085880e-07  1.67373848e-09  2.00000000e-01 
 2.10000000e-01  4.61182444e-01  3.60143977e-09  3.85323371e-09  3.27356227e-09  3.38996927e-09  3.19271578e-09  3.39352424e-09  1.64085902e-07  1.67352887e-09  2.10000000e-01 
 2.20000000e-01  4.61182447e-01  3.60143972e-09  3.85323371e-09  3.27356221e-09  3.38996927e-09  3.19271578e-09  3.39352430e-09  1.64085927e-07  1.67327663e-09  2.20000000e-01 
 2.30000000e-01  4.61182433e-01  3.60143977e-09  3.85323377e-09  3.27356222e-09  3.38996927e-09  3.19271578e-09  3.39352430e-09  1.64085886e-07  1.67310432e-09  2.30000000e-01 
 2.40000000e-01  4.61182431e-01  3.60143977e-09  3.85323377e-09  3.27356220e-09  3.38996927e-09  3.19271578e-09  3.39352430e-09  1.64085896e-07  1.67293734e-09  2.40000000e-01 
 2.50000000e-01  4.61182417e-01  3.60143977e-09  3.85323371e-09  3.27356228e-09  3.38996926e-09  3.19271573e-09  3.39352429e-09  1.64085873e-07  1.67273129e-09  2.50000000e-01 
 2.60000000e-01  4.61182424e-01  3.60143977e-09  3.85323371e-09  3.27356220e-09  3.38996927e-09  3.19271578e-09  3.39352424e-09  1.64085887e-07  1.67250569e-09  2.60000000e-01 
 2.70000000e-01  4.61182448e-01  3.60143977e-09  3.85323377e-09  3.27356228e-09  3.38996927e-09  3.19271578e-09  3.39352430e-09  1.64085917e-07  1.67235292e-09  2.70000000e-01 
 2.80000000e-01  4.61182445e-01  3.60143977e-09  3.85323377e-09  3.27356221e-09  3.38996927e-09  3.19271578e-09  3.39352430e-09  1.64085903e-07  1.67211134e-09  2.80000000e-01 
 2.90000000e-01  4.61182447e-01  3.60143972e-09  3.85323377e-09  3.27356222e-09  3.38996927e-09  3.19271578e-09  3.39352430e-09  1.64085912e-07  1.67205272e-09  2.90000000e-01 
 3.00000000e-01  4.61182413e-01  3.60143977e-09  3.85323376e-09  3.27356226e-09  3.38996926e-09  3.19271578e-09  3.39352429e-09  1.64085873e-07  1.67184666e-09  3.00000000e-01 
 3.10000000e-01  4.61182455e-01  3.60143972e-09  3.85323377e-09  3.27356227e-09  3.38996927e-09  3.19271578e-09  3.39352430e-09  1.64085918e-07  1.67175429e-09  3.10000000e-01 
 3.20000000e-01  4.61182425e-01  3.60143972e-09  3.85323377e-09  3.27356227e-09  3.38996932e-09  3.19271578e-09  3.39352429e-09  1.64085882e-07  1.67150560e-09  3.20000000e-01 
 3.30000000e-01  4.61182434e-01  3.60143977e-09  3.85323371e-09  3.27356221e-09  3.38996927e-09  3.19271578e-09  3.39352430e-09  1.64085891e-07  1.67140257e-09  3.30000000e-01 
 3.40000000e-01  4.61182431e-01  3.60143977e-09  3.85323371e-09  3.27356228e-09  3.38996927e-09  3.19271578e-09  3.39352430e-09  1.64085892e-07  1.67129244e-09  3.40000000e-01 
 3.50000000e-01  4.61182424e-01  3.60143972e-09  3.85323377e-09  3.27356220e-09  3.38996927e-09  3.19271578e-09  3.39352424e-09  1.64085887e-07  1.67115033e-09  3.50000000e-01 
 3.60000000e-01  4.61182422e-01  3.60143977e-09  3.85323377e-09  3.27356222e-09  3.38996932e-09  3.19271573e-09  3.39352429e-09  1.64085868e-07  1.67093006e-09  3.60000000e-01 
 3.70000000e-01  4.61182437e-01  3.60143977e-09  3.85323377e-09  3.27356226e-09  3.38996927e-09  3.19271578e-09  3.39352430e-09  1.64085899e-07  1.67090519e-09  3.70000000e-01 
 3.80000000e-01  4.61182441e-01  3.60143972e-09  3.85323377e-09  3.27356221e-09  3.38996927e-09  3.19271573e-09  3.39352424e-09  1.64085897e-07  1.67074532e-09  3.80000000e-01 
 3.90000000e-01  4.61182429e-01  3.60143972e-09  3.85323377e-09  3.27356222e-09  3.38996927e-09  3.19271578e-09  3.39352430e-09  1.64085892e-07  1.67060321e-09  3.90000000e-01 
 4.00000000e-01  4.61182442e-01  3.60143977e-09  3.85323371e-09  3.27356226e-09  3.38996927e-09  3.19271578e-09  3.39352430e-09  1.64085907e-07  1.67038294e-09  4.00000000e-01 
 4.10000000e-01  4.61182421e-01  3.60143977e-09  3.85323377e-09  3.27356227e-09  3.38996926e-09  3.19271573e-09  3.39352429e-09  1.64085886e-07  1.67030834e-09  4.10000000e-01 
 4.20000000e-01  4.61182440e-01  3.60143977e-09  3.85323371e-09  3.27356227e-09  3.38996927e-09  3.19271578e-09  3.39352430e-09  1.64085901e-07  1.67012004e-09  4.20000000e-01 
 4.30000000e-01  4.61182441e-01  3.60143972e-09  3.85323377e-09  3.27356227e-09  3.38996927e-09  3.19271578e-09  3.39352424e-09  1.64085916e-07  1.67003122e-09  4.30000000e-01 
 4.40000000e-01  4.61182430e-01  3.60143972e-09  3.85323377e-09  3.27356221e-09  3.38996927e-09  3.19271578e-09  3.39352430e-09  1.64085886e-07  1.66988556e-09  4.40000000e-01 
 4.50000000e-01  4.61182406e-01  3.60143977e-09  3.85323371e-09  3.27356222e-09  3.38996926e-09  3.19271578e-09  3.39352429e-09  1.64085860e-07  1.66978964e-09  4.50000000e-01 
 4.60000000e-01  4.61182430e-01  3.60143977e-09  3.85323377e-09  3.27356226e-09  3.38996927e-09  3.19271578e-09  3.39352424e-09  1.64085891e-07  1.66969727e-09  4.60000000e-01 
 4.70000000e-01  4.61182445e-01  3.60143972e-09  3.85323377e-09  3.27356221e-09  3.38996927e-09  3.19271578e-09  3.39352424e-09  1.64085909e-07  1.66956227e-09  4.70000000e-01 
 4.80000000e-01  4.61182411e-01  3.60143977e-09  3.85323371e-09  3.27356228e-09  3.38996926e-09  3.19271578e-09  3.39352429e-09  1.64085857e-07  1.66936687e-09  4.80000000e-01 
 4.90000000e-01  4.61182457e-01  3.60143977e-09  3.85323371e-09  3.27356226e-09  3.38996927e-09  3.19271578e-09  3.39352430e-09  1.64085913e-07  1.66928515e-09  4.90000000e-01 
 5.00000000e-01  4.61182455e-01  3.60143972e-09  3.85323377e-09  3.27356221e-09  3.38996927e-09  3.19271578e-09  3.39352430e-09  1.64085925e-07  1.66917857e-09  5.00000000e-01 
 5.10000000e-01  4.61182453e-01  3.60143972e-09  3.85323371e-09  3.27356222e-09  3.38996927e-09  3.19271578e-09  3.39352424e-09  1.64085932e-07  1.66904712e-09  5.10000000e-01 
 5.20000000e-01  4.61182414e-01  3.60143977e-09  3.85323376e-09  3.27356226e-09  3.38996926e-09  3.19271578e-09  3.39352429e-09  1.64085861e-07  1.66895120e-09  5.20000000e-01 
 5.30000000e-01  4.61182436e-01  3.60143977e-09  3.85323377e-09  3.27356227e-09  3.38996927e-09  3.19271578e-09  3.39352430e-09  1.64085888e-07  1.66882330e-09  5.30000000e-01 
 5.40000000e-01  4.61182436e-01  3.60143977e-09  3.85323377e-09  3.27356221e-09  3.38996927e-09  3.19271578e-09  3.39352430e-09  1.64085900e-07  1.66869896e-09  5.40000000e-01 
 5.50000000e-01  4.61182422e-01  3.60143972e-09  3.85323371e-09  3.27356222e-09  3.38996926e-09  3.19271578e-09  3.39352429e-09  1.64085890e-07  1.66854619e-09  5.50000000e-01 
 5.60000000e-01  4.61182419e-01  3.60143977e-09  3.85323371e-09  3.27356226e-09  3.38996926e-09  3.19271573e-09  3.39352429e-09  1.64085870e-07  1.66841119e-09  5.60000000e-01 
 5.70000000e-01  4.61182415e-01  3.60143972e-09  3.85323376e-09  3.27356227e-09  3.38996926e-09  3.19271578e-09  3.39352429e-09  1.64085867e-07  1.66829039e-09  5.70000000e-01 
 5.80000000e-01  4.61182429e-01  3.60143972e-09  3.85323377e-09  3.27356227e-09  3.38996927e-09  3.19271578e-09  3.39352430e-09  1.64085890e-07  1.66814829e-09  5.80000000e-01 
 5.90000000e-01  4.61182450e-01  3.60143972e-09  3.85323377e-09  3.27356221e-09  3.38996927e-09  3.19271578e-09  3.39352430e-09  1.64085919e-07  1.66810565e-09  5.90000000e-01 
 6.00000000e-01  4.61182420e-01  3.60143977e-09  3.85323376e-09  3.27356222e-09  3.38996926e-09  3.19271578e-09  3.39352429e-09  1.64085880e-07  1.66797065e-09  6.00000000e-01 
 6.10000000e-01  4.61182435e-01  3.60143977e-09  3.85323377e-09  3.27356226e-09  3.38996927e-09  3.19271578e-09  3.39352424e-09  1.64085896e-07  1.66782854e-09  6.10000000e-01 
 6.20000000e-01  4.61182434e-01  3.60143972e-09  3.85323377e-09  3.27356221e-09  3.38996927e-09  3.19271578e-09  3.39352430e-09  1.64085901e-07  1.66769354e-09  6.20000000e-01 
 6.30000000e-01  4.61182423e-01  3.60143972e-09  3.85323371e-09  3.27356222e-09  3.38996926e-09  3.19271578e-09  3.39352429e-09  1.64085888e-07  1.66758696e-09  6.30000000e-01 
 6.40000000e-01  4.61182434e-01  3.60143972e-09  3.85323371e-09  3.27356226e-09  3.38996927e-09  3.19271573e-09  3.39352430e-09  1.64085899e-07  1.66742353e-09  6.40000000e-01 
 6.50000000e-01  4.61182416e-01  3.60143972e-09  3.85323376e-09  3.27356221e-09  3.38996926e-09  3.19271578e-09  3.39352429e-09  1.64085865e-07  1.66731695e-09  6.50000000e-01 
 6.60000000e-01  4.61182447e-01  3.60143972e-09  3.85323377e-09  3.27356222e-09  3.38996927e-09  3.19271578e-09  3.39352430e-09  1.64085918e-07  1.66723169e-09  6.60000000e-01 
 6.70000000e-01  4.61182430e-01  3.60143977e-09  3.85323377e-09  3.27356226e-09  3.38996927e-09  3.19271578e-09  3.39352430e-09  1.64085885e-07  1.66703273e-09  6.70000000e-01 
 6.80000000e-01  4.61182444e-01  3.60143972e-09  3.85323371e-09  3.27356227e-09  3.38996927e-09  3.19271578e-09  3.39352430e-09  1.64085907e-07  1.66696879e-09  6.80000000e-01 
 6.90000000e-01  4.61182425e-01  3.60143977e-09  3.85323377e-09  3.27356221e-09  3.38996927e-09  3.19271578e-09  3.39352424e-09  1.64085883e-07  1.66685510e-09  6.90000000e-01 
 7.00000000e-01  4.61182411e-01  3.60143977e-09  3.85323376e-09  3.27356222e-09  3.38996926e-09  3.19271578e-09  3.39352424e-09  1.64085866e-07  1.66674852e-09  7.00000000e-01 
 7.10000000e-01  4.61182437e-01  3.60143972e-09  3.85323377e-09  3.27356226e-09  3.38996927e-09  3.19271578e-09  3.39352430e-09  1.64085901e-07  1.66658509e-09  7.10000000e-01 
 7.20000000e-01  4.61182456e-01  3.60143977e-09  3.85323377e-09  3.27356227e-09  3.38996927e-09  3.19271578e-09  3.39352430e-09  1.64085928e-07  1.66647851e-09  7.20000000e-01 
 7.30000000e-01  4.61182431e-01  3.60143977e-09  3.85323377e-09  3.27356227e-09  3.38996921e-09  3.19271573e-09  3.39352430e-09  1.64085888e-07  1.66640746e-09  7.30000000e-01 
 7.40000000e-01  4.61182443e-01  3.60143977e-09  3.85323377e-09  3.27356227e-09  3.38996927e-09  3.19271578e-09  3.39352430e-09  1.64085916e-07  1.66632219e-09  7.40000000e-01 
 7.50000000e-01  4.61182409e-01  3.60143977e-09  3.85323376e-09  3.27356227e-09  3.38996926e-09  3.19271578e-09  3.39352429e-09  1.64085857e-07  1.66617298e-09  7.50000000e-01 
 7.60000000e-01  4.61182445e-01  3.60143972e-09  3.85323371e-09  3.27356227e-09  3.38996927e-09  3.19271578e-09  3.39352424e-09  1.64085901e-07  1.66603087e-09  7.60000000e-01 
 7.70000000e-01  4.61182420e-01  3.60143972e-09  3.85323376e-09  3.27356227e-09  3.38996926e-09  3.19271578e-09  3.39352424e-09  1.64085865e-07  1.66586034e-09  7.70000000e-01 
 7.80000000e-01  4.61182467e-01  3.60143972e-09  3.85323377e-09  3.27356227e-09  3.38996927e-09  3.19271578e-09  3.39352424e-09  1.64085951e-07  1.66576797e-09  7.80000000e-01 
 7.90000000e-01  4.61182446e-01  3.60143972e-09  3.85323377e-09  3.27356227e-09  3.38996927e-09  3.19271578e-09  3.39352424e-09  1.64085916e-07  1.66566849e-09  7.90000000e-01 
 8.00000000e-01  4.61182450e-01  3.60143977e-09  3.85323377e-09  3.27356221e-09  3.38996927e-09  3.19271578e-09  3.39352430e-09  1.64085925e-07  1.66547665e-09  8.00000000e-01 
 8.10000000e-01  4.61182434e-01  3.60143977e-09  3.85323377e-09  3.27356222e-09  3.38996927e-09  3.19271578e-09  3.39352424e-09  1.64085895e-07  1.66536296e-09  8.10000000e-01 
 8.20000000e-01  4.61182428e-01  3.60143977e-09  3.85323377e-09  3.27356220e-09  3.38996927e-09  3.19271578e-09  3.39352429e-09  1.64085887e-07  1.66532033e-09  8.20000000e-01 
 8.30000000e-01  4.61182409e-01  3.60143977e-09  3.85323376e-09  3.27356222e-09  3.38996926e-09  3.19271578e-09  3.39352424e-09  1.64085857e-07  1.66509295e-09  8.30000000e-01 
 8.40000000e-01  4.61182456e-01  3.60143977e-09  3.85323371e-09  3.27356226e-09  3.38996927e-09  3.19271578e-09  3.39352424e-09  1.64085928e-07  1.66509295e-09  8.40000000e-01 
 8.50000000e-01  4.61182428e-01  3.60143977e-09  3.85323377e-09  3.27356227e-09  3.38996927e-09  3.19271578e-09  3.39352429e-09  1.64085888e-07  1.66495084e-09  8.50000000e-01 
 8.60000000e-01  4.61182445e-01  3.60143977e-09  3.85323377e-09  3.27356227e-09  3.38996927e-09  3.19271578e-09  3.39352430e-09  1.64085914e-07  1.66480163e-09  8.60000000e-01 
 8.70000000e-01  4.61182424e-01  3.60143977e-09  3.85323371e-09  3.27356227e-09  3.38996927e-09  3.19271578e-09  3.39352429e-09  1.64085872e-07  1.66460978e-09  8.70000000e-01 
 8.80000000e-01  4.61182440e-01  3.60143977e-09  3.85323377e-09  3.27356221e-09  3.38996927e-09  3.19271573e-09  3.39352424e-09  1.64085899e-07  1.66453162e-09  8.80000000e-01 
 8.90000000e-01  4.61182433e-01  3.60143972e-09  3.85323377e-09  3.27356222e-09  3.38996927e-09  3.19271578e-09  3.39352430e-09  1.64085888e-07  1.66436109e-09  8.90000000e-01 
 9.00000000e-01  4.61182432e-01  3.60143972e-09  3.85323371e-09  3.27356226e-09  3.38996927e-09  3.19271578e-09  3.39352430e-09  1.64085900e-07  1.66428293e-09  9.00000000e-01 
 9.10000000e-01  4.61182432e-01  3.60143977e-09  3.85323377e-09  3.27356221e-09  3.38996927e-09  3.19271578e-09  3.39352430e-09  1.64085894e-07  1.66419056e-09  9.10000000e-01 
 9.20000000e-01  4.61182444e-01  3.60143972e-09  3.85323377e-09  3.27356228e-09  3.38996927e-09  3.19271578e-09  3.39352424e-09  1.64085916e-07  1.66403424e-09  9.20000000e-01 
 9.30000000e-01  4.61182444e-01  3.60143977e-09  3.85323377e-09  3.27356221e-09  3.38996927e-09  3.19271578e-09  3.39352430e-09  1.64085903e-07  1.66393477e-09  9.30000000e-01 
 9.40000000e-01  4.61182433e-01  3.60143977e-09  3.85323377e-09  3.27356222e-09  3.38996927e-09  3.19271578e-09  3.39352430e-09  1.64085880e-07  1.66378555e-09  9.40000000e-01 
 9.50000000e-01  4.61182456e-01  3.60143972e-09  3.85323377e-09  3.27356226e-09  3.38996927e-09  3.19271578e-09  3.39352430e-09  1.64085937e-07  1.66363634e-09  9.50000000e-01 
 9.60000000e-01  4.61182434e-01  3.60143977e-09  3.85323377e-09  3.27356227e-09  3.38996927e-09  3.19271578e-09  3.39352430e-09  1.64085892e-07  1.66350134e-09  9.60000000e-01 
 9.70000000e-01  4.61182423e-01  3.60143977e-09  3.85323371e-09  3.27356221e-09  3.38996926e-09  3.19271578e-09  3.39352424e-09  1.64085882e-07  1.66338054e-09  9.70000000e-01 
 9.80000000e-01  4.61182407e-01  3.60143972e-09  3.85323376e-09  3.27356228e-09  3.38996926e-09  3.19271578e-09  3.39352424e-09  1.64085852e-07  1.66323844e-09  9.80000000e-01 
 9.90000000e-01  4.61182442e-01  3.60143972e-09  3.85323371e-09  3.27356226e-09  3.38996927e-09  3.19271578e-09  3.39352430e-09  1.64085910e-07  1.66311054e-09  9.90000000e-01 
 1.00000000e+00  4.61182435e-01  3.60143977e-09  3.85323377e-09  3.27356227e-09  3.38996927e-09  3.19271578e-09  3.39352430e-09  1.64085897e-07  1.66294711e-09  1.00000000e+00 
 1.01000000e+00  4.61182419e-01  3.60143972e-09  3.85323376e-09  3.27356227e-09  3.38996926e-09  3.19271578e-09  3.39352429e-09  1.64085871e-07  1.66279079e-09  1.01000000e+00 
 1.02000000e+00  4.61182444e-01  3.60143977e-09  3.85323371e-09  3.27356227e-09  3.38996927e-09  3.19271578e-09  3.39352424e-09  1.64085920e-07  1.66274106e-09  1.02000000e+00 
 1.03000000e+00  4.61182441e-01  3.60143977e-09  3.85323371e-09  3.27356227e-09  3.38996927e-09  3.19271578e-09  3.39352424e-09  1.64085909e-07  1.66251368e-09  1.03000000e+00 
 1.04000000e+00  4.61182432e-01  3.60143977e-09  3.85323377e-09  3.27356227e-09  3.38996927e-09  3.19271578e-09  3.39352430e-09  1.64085893e-07  1.66236447e-09  1.04000000e+00 
 1.05000000e+00  4.61182414e-01  3.60143972e-09  3.85323376e-09  3.27356227e-09  3.38996926e-09  3.19271572e-09  3.39352424e-09  1.64085854e-07  1.66229341e-09  1.05000000e+00 
 1.06000000e+00  4.61182456e-01  3.60143972e-09  3.85323377e-09  3.27356221e-09  3.38996927e-09  3.19271578e-09  3.39352430e-09  1.64085934e-07  1.66210157e-09  1.06000000e+00 
 1.07000000e+00  4.61182426e-01  3.60143977e-09  3.85323377e-09  3.27356222e-09  3.38996927e-09  3.19271578e-09  3.39352424e-09  1.64085877e-07  1.66190262e-09  1.07000000e+00 
 1.08000000e+00  4.61182457e-01  3.60143977e-09  3.85323377e-09  3.27356221e-09  3.38996927e-09  3.19271573e-09  3.39352430e-09  1.64085930e-07  1.66188840e-09  1.08000000e+00 
 1.09000000e+00  4.61182446e-01  3.60143977e-09  3.85323377e-09  3.27356222e-09  3.38996927e-09  3.19271573e-09  3.39352430e-09  1.64085912e-07  1.66171077e-09  1.09000000e+00 
 1.10000000e+00  4.61182447e-01  3.60143972e-09  3.85323371e-09  3.27356221e-09  3.38996927e-09  3.19271578e-09  3.39352424e-09  1.64085920e-07  1.66153313e-09  1.10000000e+00 
