 v-sweep         v(b0)           v(b1)           v(b2)           v(b3)           v(b4)           v(b5)           v(b6)           i(vbias)        i(viout)        v(vout)        
 0.00000000e+00  4.58596208e-01  3.22564600e-09  4.58596208e-01  3.33775707e-09  3.35433417e-09  3.21819122e-09  3.34476969e-09  1.61368353e-07  7.68872328e-09  0.00000000e+00 
 1.00000000e-02  4.58596222e-01  3.22564598e-09  4.58596222e-01  3.33775705e-09  3.35433421e-09  3.21819127e-09  3.34476973e-09  1.61368370e-07  7.68819841e-09  1.00000000e-02 
 2.00000000e-02  4.58596209e-01  3.22564598e-09  4.58596210e-01  3.33775706e-09  3.35433415e-09  3.21819126e-09  3.34476967e-09  1.61368360e-07  7.68779373e-09  2.00000000e-02 
 3.00000000e-02  4.58596168e-01  3.22564598e-09  4.58596168e-01  3.33775704e-09  3.35433415e-09  3.21819120e-09  3.34476972e-09  1.61368292e-07  7.68751973e-09  3.00000000e-02 
 4.00000000e-02  4.58596197e-01  3.22564598e-09  4.58596197e-01  3.33775706e-09  3.35433415e-09  3.21819126e-09  3.34476972e-09  1.61368343e-07  7.68712560e-09  4.00000000e-02 
 5.00000000e-02  4.58596196e-01  3.22564598e-09  4.58596196e-01  3.33775710e-09  3.35433421e-09  3.21819120e-09  3.34476967e-09  1.61368332e-07  7.68676589e-09  5.00000000e-02 
 6.00000000e-02  4.58596190e-01  3.22564604e-09  4.58596190e-01  3.33775705e-09  3.35433421e-09  3.21819120e-09  3.34476967e-09  1.61368321e-07  7.68649278e-09  6.00000000e-02 
 7.00000000e-02  4.58596195e-01  3.22564604e-09  4.58596195e-01  3.33775706e-09  3.35433415e-09  3.21819120e-09  3.34476967e-09  1.61368332e-07  7.68626318e-09  7.00000000e-02 
 8.00000000e-02  4.58596221e-01  3.22564598e-09  4.58596221e-01  3.33775704e-09  3.35433421e-09  3.21819121e-09  3.34476967e-09  1.61368384e-07  7.68584218e-09  8.00000000e-02 
 9.00000000e-02  4.58596189e-01  3.22564598e-09  4.58596189e-01  3.33775706e-09  3.35433415e-09  3.21819120e-09  3.34476967e-09  1.61368318e-07  7.68567254e-09  9.00000000e-02 
 1.00000000e-01  4.58596182e-01  3.22564598e-09  4.58596182e-01  3.33775710e-09  3.35433415e-09  3.21819120e-09  3.34476972e-09  1.61368317e-07  7.68545938e-09  1.00000000e-01 
 1.10000000e-01  4.58596218e-01  3.22564604e-09  4.58596219e-01  3.33775705e-09  3.35433421e-09  3.21819126e-09  3.34476967e-09  1.61368377e-07  7.68524089e-09  1.10000000e-01 
 1.20000000e-01  4.58596203e-01  3.22564598e-09  4.58596203e-01  3.33775706e-09  3.35433415e-09  3.21819126e-09  3.34476972e-09  1.61368347e-07  7.68491759e-09  1.20000000e-01 
 1.30000000e-01  4.58596187e-01  3.22564604e-09  4.58596187e-01  3.33775704e-09  3.35433421e-09  3.21819120e-09  3.34476967e-09  1.61368329e-07  7.68470620e-09  1.30000000e-01 
 1.40000000e-01  4.58596186e-01  3.22564598e-09  4.58596186e-01  3.33775706e-09  3.35433415e-09  3.21819126e-09  3.34476967e-09  1.61368330e-07  7.68460495e-09  1.40000000e-01 
 1.50000000e-01  4.58596187e-01  3.22564598e-09  4.58596187e-01  3.33775704e-09  3.35433421e-09  3.21819126e-09  3.34476972e-09  1.61368333e-07  7.68434738e-09  1.50000000e-01 
 1.60000000e-01  4.58596223e-01  3.22564598e-09  4.58596223e-01  3.33775706e-09  3.35433421e-09  3.21819121e-09  3.34476973e-09  1.61368383e-07  7.68413955e-09  1.60000000e-01 
 1.70000000e-01  4.58596186e-01  3.22564598e-09  4.58596186e-01  3.33775704e-09  3.35433421e-09  3.21819120e-09  3.34476972e-09  1.61368345e-07  7.68402941e-09  1.70000000e-01 
 1.80000000e-01  4.58596197e-01  3.22564598e-09  4.58596197e-01  3.33775706e-09  3.35433421e-09  3.21819126e-09  3.34476972e-09  1.61368349e-07  7.68374520e-09  1.80000000e-01 
 1.90000000e-01  4.58596204e-01  3.22564598e-09  4.58596205e-01  3.33775710e-09  3.35433415e-09  3.21819121e-09  3.34476972e-09  1.61368357e-07  7.68364039e-09  1.90000000e-01 
 2.00000000e-01  4.58596213e-01  3.22564598e-09  4.58596213e-01  3.33775711e-09  3.35433421e-09  3.21819126e-09  3.34476967e-09  1.61368361e-07  7.68350006e-09  2.00000000e-01 
 2.10000000e-01  4.58596189e-01  3.22564598e-09  4.58596189e-01  3.33775705e-09  3.35433421e-09  3.21819126e-09  3.34476972e-09  1.61368327e-07  7.68330288e-09  2.10000000e-01 
 2.20000000e-01  4.58596195e-01  3.22564604e-09  4.58596195e-01  3.33775706e-09  3.35433421e-09  3.21819126e-09  3.34476972e-09  1.61368343e-07  7.68323893e-09  2.20000000e-01 
 2.30000000e-01  4.58596209e-01  3.22564598e-09  4.58596209e-01  3.33775710e-09  3.35433415e-09  3.21819126e-09  3.34476967e-09  1.61368361e-07  7.68307018e-09  2.30000000e-01 
 2.40000000e-01  4.58596187e-01  3.22564598e-09  4.58596187e-01  3.33775705e-09  3.35433421e-09  3.21819126e-09  3.34476972e-09  1.61368317e-07  7.68290320e-09  2.40000000e-01 
 2.50000000e-01  4.58596181e-01  3.22564598e-09  4.58596181e-01  3.33775706e-09  3.35433415e-09  3.21819120e-09  3.34476972e-09  1.61368341e-07  7.68284103e-09  2.50000000e-01 
 2.60000000e-01  4.58596185e-01  3.22564598e-09  4.58596186e-01  3.33775704e-09  3.35433421e-09  3.21819126e-09  3.34476967e-09  1.61368329e-07  7.68259767e-09  2.60000000e-01 
 2.70000000e-01  4.58596197e-01  3.22564598e-09  4.58596197e-01  3.33775706e-09  3.35433421e-09  3.21819126e-09  3.34476967e-09  1.61368345e-07  7.68268649e-09  2.70000000e-01 
 2.80000000e-01  4.58596191e-01  3.22564598e-09  4.58596191e-01  3.33775710e-09  3.35433421e-09  3.21819126e-09  3.34476967e-09  1.61368341e-07  7.68244313e-09  2.80000000e-01 
 2.90000000e-01  4.58596187e-01  3.22564604e-09  4.58596187e-01  3.33775705e-09  3.35433421e-09  3.21819120e-09  3.34476972e-09  1.61368328e-07  7.68235964e-09  2.90000000e-01 
 3.00000000e-01  4.58596224e-01  3.22564598e-09  4.58596224e-01  3.33775706e-09  3.35433421e-09  3.21819127e-09  3.34476973e-09  1.61368384e-07  7.68235253e-09  3.00000000e-01 
 3.10000000e-01  4.58596199e-01  3.22564598e-09  4.58596199e-01  3.33775710e-09  3.35433415e-09  3.21819126e-09  3.34476972e-09  1.61368347e-07  7.68217134e-09  3.10000000e-01 
 3.20000000e-01  4.58596194e-01  3.22564598e-09  4.58596194e-01  3.33775711e-09  3.35433415e-09  3.21819126e-09  3.34476972e-09  1.61368343e-07  7.68204700e-09  3.20000000e-01 
 3.30000000e-01  4.58596182e-01  3.22564598e-09  4.58596182e-01  3.33775705e-09  3.35433415e-09  3.21819126e-09  3.34476967e-09  1.61368321e-07  7.68199371e-09  3.30000000e-01 
 3.40000000e-01  4.58596193e-01  3.22564598e-09  4.58596193e-01  3.33775706e-09  3.35433415e-09  3.21819126e-09  3.34476972e-09  1.61368340e-07  7.68192621e-09  3.40000000e-01 
 3.50000000e-01  4.58596189e-01  3.22564604e-09  4.58596189e-01  3.33775704e-09  3.35433415e-09  3.21819126e-09  3.34476967e-09  1.61368331e-07  7.68178410e-09  3.50000000e-01 
 3.60000000e-01  4.58596206e-01  3.22564598e-09  4.58596206e-01  3.33775706e-09  3.35433421e-09  3.21819121e-09  3.34476973e-09  1.61368352e-07  7.68180186e-09  3.60000000e-01 
 3.70000000e-01  4.58596207e-01  3.22564598e-09  4.58596207e-01  3.33775704e-09  3.35433415e-09  3.21819126e-09  3.34476973e-09  1.61368357e-07  7.68163844e-09  3.70000000e-01 
 3.80000000e-01  4.58596190e-01  3.22564598e-09  4.58596190e-01  3.33775706e-09  3.35433415e-09  3.21819126e-09  3.34476972e-09  1.61368343e-07  7.68152475e-09  3.80000000e-01 
 3.90000000e-01  4.58596212e-01  3.22564604e-09  4.58596212e-01  3.33775710e-09  3.35433421e-09  3.21819126e-09  3.34476973e-09  1.61368358e-07  7.68157093e-09  3.90000000e-01 
 4.00000000e-01  4.58596195e-01  3.22564598e-09  4.58596195e-01  3.33775705e-09  3.35433421e-09  3.21819126e-09  3.34476967e-09  1.61368342e-07  7.68135067e-09  4.00000000e-01 
 4.10000000e-01  4.58596185e-01  3.22564598e-09  4.58596185e-01  3.33775706e-09  3.35433415e-09  3.21819120e-09  3.34476972e-09  1.61368323e-07  7.68135777e-09  4.10000000e-01 
 4.20000000e-01  4.58596211e-01  3.22564604e-09  4.58596211e-01  3.33775704e-09  3.35433421e-09  3.21819121e-09  3.34476967e-09  1.61368366e-07  7.68132580e-09  4.20000000e-01 
 4.30000000e-01  4.58596188e-01  3.22564598e-09  4.58596188e-01  3.33775706e-09  3.35433415e-09  3.21819126e-09  3.34476967e-09  1.61368331e-07  7.68127961e-09  4.30000000e-01 
 4.40000000e-01  4.58596220e-01  3.22564598e-09  4.58596220e-01  3.33775704e-09  3.35433415e-09  3.21819127e-09  3.34476967e-09  1.61368375e-07  7.68121211e-09  4.40000000e-01 
 4.50000000e-01  4.58596196e-01  3.22564598e-09  4.58596196e-01  3.33775706e-09  3.35433415e-09  3.21819126e-09  3.34476967e-09  1.61368336e-07  7.68116237e-09  4.50000000e-01 
 4.60000000e-01  4.58596210e-01  3.22564598e-09  4.58596210e-01  3.33775704e-09  3.35433415e-09  3.21819121e-09  3.34476973e-09  1.61368369e-07  7.68109132e-09  4.60000000e-01 
 4.70000000e-01  4.58596195e-01  3.22564598e-09  4.58596196e-01  3.33775706e-09  3.35433421e-09  3.21819126e-09  3.34476972e-09  1.61368344e-07  7.68100250e-09  4.70000000e-01 
 4.80000000e-01  4.58596201e-01  3.22564598e-09  4.58596201e-01  3.33775704e-09  3.35433415e-09  3.21819126e-09  3.34476972e-09  1.61368340e-07  7.68084973e-09  4.80000000e-01 
 4.90000000e-01  4.58596204e-01  3.22564598e-09  4.58596205e-01  3.33775706e-09  3.35433421e-09  3.21819121e-09  3.34476967e-09  1.61368363e-07  7.68075026e-09  4.90000000e-01 
 5.00000000e-01  4.58596198e-01  3.22564604e-09  4.58596199e-01  3.33775710e-09  3.35433415e-09  3.21819126e-09  3.34476967e-09  1.61368339e-07  7.68084618e-09  5.00000000e-01 
 5.10000000e-01  4.58596194e-01  3.22564604e-09  4.58596194e-01  3.33775705e-09  3.35433415e-09  3.21819126e-09  3.34476967e-09  1.61368351e-07  7.68069697e-09  5.10000000e-01 
 5.20000000e-01  4.58596189e-01  3.22564598e-09  4.58596189e-01  3.33775706e-09  3.35433421e-09  3.21819120e-09  3.34476967e-09  1.61368325e-07  7.68064012e-09  5.20000000e-01 
 5.30000000e-01  4.58596164e-01  3.22564598e-09  4.58596164e-01  3.33775710e-09  3.35433415e-09  3.21819126e-09  3.34476972e-09  1.61368301e-07  7.68065433e-09  5.30000000e-01 
 5.40000000e-01  4.58596198e-01  3.22564604e-09  4.58596198e-01  3.33775705e-09  3.35433415e-09  3.21819120e-09  3.34476967e-09  1.61368343e-07  7.68066855e-09  5.40000000e-01 
 5.50000000e-01  4.58596199e-01  3.22564598e-09  4.58596199e-01  3.33775706e-09  3.35433415e-09  3.21819120e-09  3.34476972e-09  1.61368343e-07  7.68051223e-09  5.50000000e-01 
 5.60000000e-01  4.58596198e-01  3.22564598e-09  4.58596198e-01  3.33775704e-09  3.35433421e-09  3.21819120e-09  3.34476972e-09  1.61368341e-07  7.68030617e-09  5.60000000e-01 
 5.70000000e-01  4.58596181e-01  3.22564598e-09  4.58596182e-01  3.33775706e-09  3.35433415e-09  3.21819120e-09  3.34476972e-09  1.61368317e-07  7.68047315e-09  5.70000000e-01 
 5.80000000e-01  4.58596191e-01  3.22564598e-09  4.58596191e-01  3.33775704e-09  3.35433415e-09  3.21819126e-09  3.34476972e-09  1.61368331e-07  7.68039143e-09  5.80000000e-01 
 5.90000000e-01  4.58596189e-01  3.22564604e-09  4.58596189e-01  3.33775706e-09  3.35433421e-09  3.21819126e-09  3.34476967e-09  1.61368316e-07  7.68035591e-09  5.90000000e-01 
 6.00000000e-01  4.58596190e-01  3.22564598e-09  4.58596190e-01  3.33775710e-09  3.35433421e-09  3.21819120e-09  3.34476972e-09  1.61368336e-07  7.68019248e-09  6.00000000e-01 
 6.10000000e-01  4.58596207e-01  3.22564598e-09  4.58596208e-01  3.33775705e-09  3.35433415e-09  3.21819121e-09  3.34476973e-09  1.61368354e-07  7.68021380e-09  6.10000000e-01 
 6.20000000e-01  4.58596215e-01  3.22564598e-09  4.58596215e-01  3.33775706e-09  3.35433415e-09  3.21819121e-09  3.34476967e-09  1.61368365e-07  7.68007880e-09  6.20000000e-01 
 6.30000000e-01  4.58596185e-01  3.22564598e-09  4.58596185e-01  3.33775704e-09  3.35433421e-09  3.21819126e-09  3.34476972e-09  1.61368332e-07  7.68002906e-09  6.30000000e-01 
 6.40000000e-01  4.58596196e-01  3.22564598e-09  4.58596196e-01  3.33775706e-09  3.35433421e-09  3.21819126e-09  3.34476967e-09  1.61368346e-07  7.67997221e-09  6.40000000e-01 
 6.50000000e-01  4.58596186e-01  3.22564598e-09  4.58596186e-01  3.33775704e-09  3.35433415e-09  3.21819120e-09  3.34476972e-09  1.61368327e-07  7.67998642e-09  6.50000000e-01 
 6.60000000e-01  4.58596178e-01  3.22564598e-09  4.58596179e-01  3.33775706e-09  3.35433421e-09  3.21819120e-09  3.34476966e-09  1.61368322e-07  7.67991537e-09  6.60000000e-01 
 6.70000000e-01  4.58596212e-01  3.22564598e-09  4.58596212e-01  3.33775704e-09  3.35433421e-09  3.21819121e-09  3.34476973e-09  1.61368366e-07  7.67991537e-09  6.70000000e-01 
 6.80000000e-01  4.58596208e-01  3.22564598e-09  4.58596208e-01  3.33775706e-09  3.35433415e-09  3.21819121e-09  3.34476967e-09  1.61368344e-07  7.67977326e-09  6.80000000e-01 
 6.90000000e-01  4.58596196e-01  3.22564598e-09  4.58596196e-01  3.33775710e-09  3.35433415e-09  3.21819120e-09  3.34476967e-09  1.61368355e-07  7.67982300e-09  6.90000000e-01 
 7.00000000e-01  4.58596197e-01  3.22564598e-09  4.58596197e-01  3.33775705e-09  3.35433415e-09  3.21819120e-09  3.34476967e-09  1.61368346e-07  7.67963826e-09  7.00000000e-01 
 7.10000000e-01  4.58596195e-01  3.22564598e-09  4.58596196e-01  3.33775706e-09  3.35433421e-09  3.21819126e-09  3.34476967e-09  1.61368337e-07  7.67968800e-09  7.10000000e-01 
 7.20000000e-01  4.58596210e-01  3.22564604e-09  4.58596210e-01  3.33775710e-09  3.35433415e-09  3.21819126e-09  3.34476967e-09  1.61368369e-07  7.67968800e-09  7.20000000e-01 
 7.30000000e-01  4.58596220e-01  3.22564598e-09  4.58596220e-01  3.33775705e-09  3.35433415e-09  3.21819127e-09  3.34476967e-09  1.61368383e-07  7.67946773e-09  7.30000000e-01 
 7.40000000e-01  4.58596198e-01  3.22564604e-09  4.58596198e-01  3.33775706e-09  3.35433421e-09  3.21819126e-09  3.34476972e-09  1.61368333e-07  7.67953168e-09  7.40000000e-01 
 7.50000000e-01  4.58596196e-01  3.22564598e-09  4.58596196e-01  3.33775710e-09  3.35433415e-09  3.21819120e-09  3.34476972e-09  1.61368340e-07  7.67939667e-09  7.50000000e-01 
 7.60000000e-01  4.58596192e-01  3.22564604e-09  4.58596192e-01  3.33775705e-09  3.35433415e-09  3.21819126e-09  3.34476972e-09  1.61368332e-07  7.67943931e-09  7.60000000e-01 
 7.70000000e-01  4.58596200e-01  3.22564598e-09  4.58596200e-01  3.33775706e-09  3.35433415e-09  3.21819120e-09  3.34476972e-09  1.61368356e-07  7.67946062e-09  7.70000000e-01 
 7.80000000e-01  4.58596209e-01  3.22564598e-09  4.58596209e-01  3.33775710e-09  3.35433415e-09  3.21819126e-09  3.34476973e-09  1.61368370e-07  7.67930430e-09  7.80000000e-01 
 7.90000000e-01  4.58596214e-01  3.22564598e-09  4.58596214e-01  3.33775705e-09  3.35433421e-09  3.21819121e-09  3.34476967e-09  1.61368365e-07  7.67927588e-09  7.90000000e-01 
 8.00000000e-01  4.58596194e-01  3.22564598e-09  4.58596195e-01  3.33775706e-09  3.35433415e-09  3.21819126e-09  3.34476972e-09  1.61368338e-07  7.67914798e-09  8.00000000e-01 
 8.10000000e-01  4.58596190e-01  3.22564604e-09  4.58596191e-01  3.33775710e-09  3.35433421e-09  3.21819120e-09  3.34476972e-09  1.61368336e-07  7.67910535e-09  8.10000000e-01 
 8.20000000e-01  4.58596214e-01  3.22564598e-09  4.58596215e-01  3.33775705e-09  3.35433415e-09  3.21819121e-09  3.34476973e-09  1.61368366e-07  7.67906982e-09  8.20000000e-01 
 8.30000000e-01  4.58596192e-01  3.22564598e-09  4.58596192e-01  3.33775706e-09  3.35433421e-09  3.21819126e-09  3.34476967e-09  1.61368341e-07  7.67887798e-09  8.30000000e-01 
 8.40000000e-01  4.58596208e-01  3.22564598e-09  4.58596209e-01  3.33775710e-09  3.35433415e-09  3.21819126e-09  3.34476967e-09  1.61368366e-07  7.67894193e-09  8.40000000e-01 
 8.50000000e-01  4.58596192e-01  3.22564598e-09  4.58596192e-01  3.33775705e-09  3.35433421e-09  3.21819126e-09  3.34476967e-09  1.61368335e-07  7.67895614e-09  8.50000000e-01 
 8.60000000e-01  4.58596184e-01  3.22564598e-09  4.58596184e-01  3.33775706e-09  3.35433415e-09  3.21819120e-09  3.34476967e-09  1.61368313e-07  7.67877850e-09  8.60000000e-01 
 8.70000000e-01  4.58596185e-01  3.22564598e-09  4.58596185e-01  3.33775710e-09  3.35433421e-09  3.21819120e-09  3.34476972e-09  1.61368337e-07  7.67882824e-09  8.70000000e-01 
 8.80000000e-01  4.58596193e-01  3.22564598e-09  4.58596193e-01  3.33775705e-09  3.35433415e-09  3.21819120e-09  3.34476972e-09  1.61368330e-07  7.67860087e-09  8.80000000e-01 
 8.90000000e-01  4.58596192e-01  3.22564598e-09  4.58596192e-01  3.33775706e-09  3.35433415e-09  3.21819120e-09  3.34476972e-09  1.61368334e-07  7.67860087e-09  8.90000000e-01 
 9.00000000e-01  4.58596182e-01  3.22564598e-09  4.58596182e-01  3.33775710e-09  3.35433421e-09  3.21819126e-09  3.34476967e-09  1.61368307e-07  7.67853692e-09  9.00000000e-01 
 9.10000000e-01  4.58596196e-01  3.22564598e-09  4.58596196e-01  3.33775705e-09  3.35433415e-09  3.21819120e-09  3.34476972e-09  1.61368347e-07  7.67847297e-09  9.10000000e-01 
 9.20000000e-01  4.58596201e-01  3.22564598e-09  4.58596201e-01  3.33775706e-09  3.35433415e-09  3.21819121e-09  3.34476972e-09  1.61368336e-07  7.67863639e-09  9.20000000e-01 
 9.30000000e-01  4.58596207e-01  3.22564598e-09  4.58596207e-01  3.33775710e-09  3.35433421e-09  3.21819121e-09  3.34476967e-09  1.61368359e-07  7.67852271e-09  9.30000000e-01 
 9.40000000e-01  4.58596216e-01  3.22564598e-09  4.58596216e-01  3.33775711e-09  3.35433415e-09  3.21819126e-09  3.34476967e-09  1.61368370e-07  7.67846586e-09  9.40000000e-01 
 9.50000000e-01  4.58596185e-01  3.22564598e-09  4.58596185e-01  3.33775705e-09  3.35433415e-09  3.21819120e-09  3.34476967e-09  1.61368316e-07  7.67845165e-09  9.50000000e-01 
 9.60000000e-01  4.58596178e-01  3.22564598e-09  4.58596178e-01  3.33775706e-09  3.35433421e-09  3.21819126e-09  3.34476966e-09  1.61368308e-07  7.67826691e-09  9.60000000e-01 
 9.70000000e-01  4.58596223e-01  3.22564598e-09  4.58596223e-01  3.33775704e-09  3.35433421e-09  3.21819121e-09  3.34476973e-09  1.61368374e-07  7.67833797e-09  9.70000000e-01 
 9.80000000e-01  4.58596194e-01  3.22564598e-09  4.58596194e-01  3.33775706e-09  3.35433421e-09  3.21819120e-09  3.34476967e-09  1.61368332e-07  7.67824559e-09  9.80000000e-01 
 9.90000000e-01  4.58596178e-01  3.22564604e-09  4.58596178e-01  3.33775704e-09  3.35433415e-09  3.21819126e-09  3.34476972e-09  1.61368325e-07  7.67824559e-09  9.90000000e-01 
 1.00000000e+00  4.58596197e-01  3.22564598e-09  4.58596197e-01  3.33775706e-09  3.35433421e-09  3.21819126e-09  3.34476972e-09  1.61368338e-07  7.67810349e-09  1.00000000e+00 
 1.01000000e+00  4.58596190e-01  3.22564598e-09  4.58596191e-01  3.33775710e-09  3.35433421e-09  3.21819126e-09  3.34476967e-09  1.61368331e-07  7.67807506e-09  1.01000000e+00 
 1.02000000e+00  4.58596180e-01  3.22564598e-09  4.58596180e-01  3.33775705e-09  3.35433415e-09  3.21819120e-09  3.34476972e-09  1.61368321e-07  7.67802533e-09  1.02000000e+00 
 1.03000000e+00  4.58596197e-01  3.22564598e-09  4.58596198e-01  3.33775706e-09  3.35433421e-09  3.21819126e-09  3.34476972e-09  1.61368355e-07  7.67789032e-09  1.03000000e+00 
 1.04000000e+00  4.58596200e-01  3.22564604e-09  4.58596200e-01  3.33775704e-09  3.35433421e-09  3.21819126e-09  3.34476967e-09  1.61368340e-07  7.67782637e-09  1.04000000e+00 
 1.05000000e+00  4.58596197e-01  3.22564598e-09  4.58596197e-01  3.33775706e-09  3.35433415e-09  3.21819120e-09  3.34476972e-09  1.61368352e-07  7.67785480e-09  1.05000000e+00 
 1.06000000e+00  4.58596191e-01  3.22564604e-09  4.58596191e-01  3.33775704e-09  3.35433421e-09  3.21819126e-09  3.34476967e-09  1.61368332e-07  7.67772690e-09  1.06000000e+00 
 1.07000000e+00  4.58596193e-01  3.22564598e-09  4.58596193e-01  3.33775706e-09  3.35433421e-09  3.21819126e-09  3.34476972e-09  1.61368343e-07  7.67779085e-09  1.07000000e+00 
 1.08000000e+00  4.58596192e-01  3.22564604e-09  4.58596192e-01  3.33775710e-09  3.35433415e-09  3.21819126e-09  3.34476972e-09  1.61368327e-07  7.67755637e-09  1.08000000e+00 
 1.09000000e+00  4.58596187e-01  3.22564598e-09  4.58596187e-01  3.33775705e-09  3.35433421e-09  3.21819120e-09  3.34476967e-09  1.61368334e-07  7.67755637e-09  1.09000000e+00 
 1.10000000e+00  4.58596190e-01  3.22564598e-09  4.58596190e-01  3.33775706e-09  3.35433421e-09  3.21819126e-09  3.34476967e-09  1.61368326e-07  7.67771269e-09  1.10000000e+00 
