 v-sweep         v(b0)           v(b1)           v(b2)           v(b3)           v(b4)           v(b5)           v(b6)           i(vbias)        i(viout)        v(vout)        
 0.00000000e+00  3.55091442e-09  4.57827751e-01  3.50544515e-09  3.30882428e-09  4.57827751e-01  4.57827751e-01  3.34274838e-09  1.58145967e-07  7.24392946e-08  0.00000000e+00 
 1.00000000e-02  3.55091446e-09  4.57827732e-01  3.50544513e-09  3.30882431e-09  4.57827732e-01  4.57827732e-01  3.34274836e-09  1.58145934e-07  7.24388736e-08  1.00000000e-02 
 2.00000000e-02  3.55091446e-09  4.57827730e-01  3.50544513e-09  3.30882431e-09  4.57827730e-01  4.57827730e-01  3.34274836e-09  1.58145926e-07  7.24384708e-08  2.00000000e-02 
 3.00000000e-02  3.55091446e-09  4.57827762e-01  3.50544513e-09  3.30882431e-09  4.57827762e-01  4.57827762e-01  3.34274837e-09  1.58145966e-07  7.24381064e-08  3.00000000e-02 
 4.00000000e-02  3.55091446e-09  4.57827755e-01  3.50544513e-09  3.30882431e-09  4.57827755e-01  4.57827755e-01  3.34274837e-09  1.58145964e-07  7.24378464e-08  4.00000000e-02 
 5.00000000e-02  3.55091441e-09  4.57827751e-01  3.50544519e-09  3.30882426e-09  4.57827751e-01  4.57827751e-01  3.34274837e-09  1.58145962e-07  7.24373845e-08  5.00000000e-02 
 6.00000000e-02  3.55091446e-09  4.57827749e-01  3.50544519e-09  3.30882431e-09  4.57827749e-01  4.57827749e-01  3.34274837e-09  1.58145954e-07  7.24370408e-08  6.00000000e-02 
 7.00000000e-02  3.55091446e-09  4.57827761e-01  3.50544513e-09  3.30882431e-09  4.57827761e-01  4.57827761e-01  3.34274837e-09  1.58145967e-07  7.24369813e-08  7.00000000e-02 
 8.00000000e-02  3.55091446e-09  4.57827761e-01  3.50544513e-09  3.30882431e-09  4.57827761e-01  4.57827761e-01  3.34274837e-09  1.58145975e-07  7.24364968e-08  8.00000000e-02 
 9.00000000e-02  3.55091446e-09  4.57827751e-01  3.50544519e-09  3.30882431e-09  4.57827751e-01  4.57827751e-01  3.34274837e-09  1.58145936e-07  7.24362152e-08  9.00000000e-02 
 1.00000000e-01  3.55091446e-09  4.57827741e-01  3.50544519e-09  3.30882431e-09  4.57827741e-01  4.57827741e-01  3.34274837e-09  1.58145947e-07  7.24360136e-08  1.00000000e-01 
 1.10000000e-01  3.55091446e-09  4.57827761e-01  3.50544513e-09  3.30882431e-09  4.57827761e-01  4.57827761e-01  3.34274837e-09  1.58145983e-07  7.24357827e-08  1.10000000e-01 
 1.20000000e-01  3.55091446e-09  4.57827728e-01  3.50544513e-09  3.30882431e-09  4.57827728e-01  4.57827728e-01  3.34274836e-09  1.58145940e-07  7.24353182e-08  1.20000000e-01 
 1.30000000e-01  3.55091446e-09  4.57827736e-01  3.50544519e-09  3.30882431e-09  4.57827736e-01  4.57827736e-01  3.34274837e-09  1.58145933e-07  7.24352338e-08  1.30000000e-01 
 1.40000000e-01  3.55091446e-09  4.57827746e-01  3.50544513e-09  3.30882431e-09  4.57827746e-01  4.57827746e-01  3.34274837e-09  1.58145948e-07  7.24351263e-08  1.40000000e-01 
 1.50000000e-01  3.55091440e-09  4.57827740e-01  3.50544519e-09  3.30882431e-09  4.57827740e-01  4.57827740e-01  3.34274837e-09  1.58145949e-07  7.24347853e-08  1.50000000e-01 
 1.60000000e-01  3.55091441e-09  4.57827768e-01  3.50544513e-09  3.30882431e-09  4.57827768e-01  4.57827768e-01  3.34274837e-09  1.58145971e-07  7.24346698e-08  1.60000000e-01 
 1.70000000e-01  3.55091446e-09  4.57827754e-01  3.50544513e-09  3.30882431e-09  4.57827754e-01  4.57827754e-01  3.34274837e-09  1.58145961e-07  7.24343003e-08  1.70000000e-01 
 1.80000000e-01  3.55091446e-09  4.57827755e-01  3.50544513e-09  3.30882431e-09  4.57827755e-01  4.57827755e-01  3.34274837e-09  1.58145964e-07  7.24343021e-08  1.80000000e-01 
 1.90000000e-01  3.55091441e-09  4.57827767e-01  3.50544513e-09  3.30882431e-09  4.57827767e-01  4.57827767e-01  3.34274837e-09  1.58145979e-07  7.24340588e-08  1.90000000e-01 
 2.00000000e-01  3.55091446e-09  4.57827770e-01  3.50544519e-09  3.30882426e-09  4.57827770e-01  4.57827770e-01  3.34274837e-09  1.58146011e-07  7.24338278e-08  2.00000000e-01 
 2.10000000e-01  3.55091446e-09  4.57827773e-01  3.50544513e-09  3.30882431e-09  4.57827773e-01  4.57827773e-01  3.34274837e-09  1.58145994e-07  7.24338118e-08  2.10000000e-01 
 2.20000000e-01  3.55091441e-09  4.57827769e-01  3.50544513e-09  3.30882426e-09  4.57827769e-01  4.57827769e-01  3.34274837e-09  1.58145997e-07  7.24335631e-08  2.20000000e-01 
 2.30000000e-01  3.55091446e-09  4.57827781e-01  3.50544513e-09  3.30882431e-09  4.57827781e-01  4.57827781e-01  3.34274837e-09  1.58145992e-07  7.24334157e-08  2.30000000e-01 
 2.40000000e-01  3.55091446e-09  4.57827752e-01  3.50544513e-09  3.30882431e-09  4.57827752e-01  4.57827752e-01  3.34274837e-09  1.58145952e-07  7.24334406e-08  2.40000000e-01 
 2.50000000e-01  3.55091440e-09  4.57827736e-01  3.50544513e-09  3.30882431e-09  4.57827736e-01  4.57827736e-01  3.34274837e-09  1.58145939e-07  7.24330569e-08  2.50000000e-01 
 2.60000000e-01  3.55091446e-09  4.57827740e-01  3.50544513e-09  3.30882426e-09  4.57827740e-01  4.57827741e-01  3.34274837e-09  1.58145953e-07  7.24329681e-08  2.60000000e-01 
 2.70000000e-01  3.55091440e-09  4.57827734e-01  3.50544519e-09  3.30882431e-09  4.57827734e-01  4.57827734e-01  3.34274837e-09  1.58145938e-07  7.24328455e-08  2.70000000e-01 
 2.80000000e-01  3.55091446e-09  4.57827714e-01  3.50544513e-09  3.30882431e-09  4.57827714e-01  4.57827714e-01  3.34274836e-09  1.58145912e-07  7.24327425e-08  2.80000000e-01 
 2.90000000e-01  3.55091446e-09  4.57827757e-01  3.50544513e-09  3.30882431e-09  4.57827757e-01  4.57827757e-01  3.34274837e-09  1.58145962e-07  7.24327478e-08  2.90000000e-01 
 3.00000000e-01  3.55091446e-09  4.57827757e-01  3.50544519e-09  3.30882431e-09  4.57827757e-01  4.57827757e-01  3.34274837e-09  1.58145971e-07  7.24325133e-08  3.00000000e-01 
 3.10000000e-01  3.55091446e-09  4.57827773e-01  3.50544513e-09  3.30882431e-09  4.57827773e-01  4.57827773e-01  3.34274837e-09  1.58145973e-07  7.24325346e-08  3.10000000e-01 
 3.20000000e-01  3.55091446e-09  4.57827744e-01  3.50544519e-09  3.30882431e-09  4.57827744e-01  4.57827744e-01  3.34274837e-09  1.58145954e-07  7.24323677e-08  3.20000000e-01 
 3.30000000e-01  3.55091446e-09  4.57827758e-01  3.50544513e-09  3.30882426e-09  4.57827759e-01  4.57827759e-01  3.34274837e-09  1.58145966e-07  7.24322042e-08  3.30000000e-01 
 3.40000000e-01  3.55091441e-09  4.57827758e-01  3.50544513e-09  3.30882431e-09  4.57827758e-01  4.57827758e-01  3.34274837e-09  1.58145975e-07  7.24321580e-08  3.40000000e-01 
 3.50000000e-01  3.55091441e-09  4.57827772e-01  3.50544519e-09  3.30882431e-09  4.57827772e-01  4.57827772e-01  3.34274837e-09  1.58145987e-07  7.24320195e-08  3.50000000e-01 
 3.60000000e-01  3.55091446e-09  4.57827742e-01  3.50544519e-09  3.30882431e-09  4.57827742e-01  4.57827742e-01  3.34274837e-09  1.58145953e-07  7.24319342e-08  3.60000000e-01 
 3.70000000e-01  3.55091441e-09  4.57827763e-01  3.50544513e-09  3.30882426e-09  4.57827763e-01  4.57827763e-01  3.34274837e-09  1.58145977e-07  7.24318916e-08  3.70000000e-01 
 3.80000000e-01  3.55091440e-09  4.57827733e-01  3.50544513e-09  3.30882426e-09  4.57827733e-01  4.57827733e-01  3.34274837e-09  1.58145946e-07  7.24317140e-08  3.80000000e-01 
 3.90000000e-01  3.55091446e-09  4.57827754e-01  3.50544513e-09  3.30882426e-09  4.57827754e-01  4.57827754e-01  3.34274837e-09  1.58145956e-07  7.24316997e-08  3.90000000e-01 
 4.00000000e-01  3.55091446e-09  4.57827753e-01  3.50544513e-09  3.30882426e-09  4.57827753e-01  4.57827753e-01  3.34274837e-09  1.58145953e-07  7.24316003e-08  4.00000000e-01 
 4.10000000e-01  3.55091446e-09  4.57827756e-01  3.50544513e-09  3.30882431e-09  4.57827756e-01  4.57827756e-01  3.34274837e-09  1.58145953e-07  7.24316003e-08  4.10000000e-01 
 4.20000000e-01  3.55091440e-09  4.57827739e-01  3.50544513e-09  3.30882431e-09  4.57827739e-01  4.57827739e-01  3.34274837e-09  1.58145935e-07  7.24313729e-08  4.20000000e-01 
 4.30000000e-01  3.55091446e-09  4.57827759e-01  3.50544513e-09  3.30882426e-09  4.57827759e-01  4.57827759e-01  3.34274837e-09  1.58145967e-07  7.24313445e-08  4.30000000e-01 
 4.40000000e-01  3.55091440e-09  4.57827743e-01  3.50544513e-09  3.30882431e-09  4.57827743e-01  4.57827743e-01  3.34274837e-09  1.58145942e-07  7.24312486e-08  4.40000000e-01 
 4.50000000e-01  3.55091441e-09  4.57827753e-01  3.50544513e-09  3.30882426e-09  4.57827753e-01  4.57827753e-01  3.34274837e-09  1.58145945e-07  7.24311100e-08  4.50000000e-01 
 4.60000000e-01  3.55091440e-09  4.57827740e-01  3.50544513e-09  3.30882431e-09  4.57827740e-01  4.57827740e-01  3.34274837e-09  1.58145950e-07  7.24311278e-08  4.60000000e-01 
 4.70000000e-01  3.55091446e-09  4.57827762e-01  3.50544513e-09  3.30882431e-09  4.57827762e-01  4.57827762e-01  3.34274837e-09  1.58145978e-07  7.24311775e-08  4.70000000e-01 
 4.80000000e-01  3.55091446e-09  4.57827767e-01  3.50544513e-09  3.30882431e-09  4.57827767e-01  4.57827767e-01  3.34274842e-09  1.58145988e-07  7.24309785e-08  4.80000000e-01 
 4.90000000e-01  3.55091440e-09  4.57827745e-01  3.50544513e-09  3.30882431e-09  4.57827745e-01  4.57827745e-01  3.34274835e-09  1.58145949e-07  7.24309004e-08  4.90000000e-01 
 5.00000000e-01  3.55091446e-09  4.57827721e-01  3.50544518e-09  3.30882426e-09  4.57827721e-01  4.57827721e-01  3.34274837e-09  1.58145909e-07  7.24308258e-08  5.00000000e-01 
 5.10000000e-01  3.55091446e-09  4.57827746e-01  3.50544519e-09  3.30882431e-09  4.57827746e-01  4.57827746e-01  3.34274837e-09  1.58145935e-07  7.24307760e-08  5.10000000e-01 
 5.20000000e-01  3.55091446e-09  4.57827770e-01  3.50544519e-09  3.30882426e-09  4.57827770e-01  4.57827770e-01  3.34274837e-09  1.58145979e-07  7.24307405e-08  5.20000000e-01 
 5.30000000e-01  3.55091441e-09  4.57827759e-01  3.50544519e-09  3.30882431e-09  4.57827759e-01  4.57827759e-01  3.34274837e-09  1.58145962e-07  7.24306943e-08  5.30000000e-01 
 5.40000000e-01  3.55091446e-09  4.57827743e-01  3.50544519e-09  3.30882431e-09  4.57827743e-01  4.57827743e-01  3.34274837e-09  1.58145948e-07  7.24305913e-08  5.40000000e-01 
 5.50000000e-01  3.55091440e-09  4.57827745e-01  3.50544513e-09  3.30882431e-09  4.57827745e-01  4.57827745e-01  3.34274837e-09  1.58145942e-07  7.24305238e-08  5.50000000e-01 
 5.60000000e-01  3.55091446e-09  4.57827760e-01  3.50544513e-09  3.30882431e-09  4.57827760e-01  4.57827760e-01  3.34274837e-09  1.58145981e-07  7.24304314e-08  5.60000000e-01 
 5.70000000e-01  3.55091446e-09  4.57827762e-01  3.50544519e-09  3.30882431e-09  4.57827762e-01  4.57827762e-01  3.34274837e-09  1.58145974e-07  7.24304279e-08  5.70000000e-01 
 5.80000000e-01  3.55091441e-09  4.57827766e-01  3.50544513e-09  3.30882431e-09  4.57827766e-01  4.57827766e-01  3.34274837e-09  1.58145968e-07  7.24303604e-08  5.80000000e-01 
 5.90000000e-01  3.55091440e-09  4.57827744e-01  3.50544513e-09  3.30882431e-09  4.57827744e-01  4.57827744e-01  3.34274837e-09  1.58145959e-07  7.24301898e-08  5.90000000e-01 
 6.00000000e-01  3.55091440e-09  4.57827747e-01  3.50544513e-09  3.30882431e-09  4.57827747e-01  4.57827747e-01  3.34274837e-09  1.58145960e-07  7.24301685e-08  6.00000000e-01 
 6.10000000e-01  3.55091446e-09  4.57827741e-01  3.50544513e-09  3.30882431e-09  4.57827741e-01  4.57827741e-01  3.34274837e-09  1.58145950e-07  7.24300619e-08  6.10000000e-01 
 6.20000000e-01  3.55091446e-09  4.57827750e-01  3.50544513e-09  3.30882426e-09  4.57827750e-01  4.57827750e-01  3.34274837e-09  1.58145952e-07  7.24299483e-08  6.20000000e-01 
 6.30000000e-01  3.55091441e-09  4.57827753e-01  3.50544513e-09  3.30882431e-09  4.57827753e-01  4.57827753e-01  3.34274837e-09  1.58145958e-07  7.24300051e-08  6.30000000e-01 
 6.40000000e-01  3.55091446e-09  4.57827768e-01  3.50544519e-09  3.30882431e-09  4.57827768e-01  4.57827768e-01  3.34274837e-09  1.58145976e-07  7.24300122e-08  6.40000000e-01 
 6.50000000e-01  3.55091446e-09  4.57827744e-01  3.50544519e-09  3.30882431e-09  4.57827744e-01  4.57827744e-01  3.34274837e-09  1.58145945e-07  7.24298133e-08  6.50000000e-01 
 6.60000000e-01  3.55091440e-09  4.57827744e-01  3.50544513e-09  3.30882426e-09  4.57827744e-01  4.57827744e-01  3.34274837e-09  1.58145949e-07  7.24297209e-08  6.60000000e-01 
 6.70000000e-01  3.55091446e-09  4.57827753e-01  3.50544513e-09  3.30882431e-09  4.57827753e-01  4.57827753e-01  3.34274842e-09  1.58145959e-07  7.24297209e-08  6.70000000e-01 
 6.80000000e-01  3.55091446e-09  4.57827747e-01  3.50544513e-09  3.30882431e-09  4.57827747e-01  4.57827747e-01  3.34274835e-09  1.58145945e-07  7.24296854e-08  6.80000000e-01 
 6.90000000e-01  3.55091446e-09  4.57827763e-01  3.50544519e-09  3.30882431e-09  4.57827763e-01  4.57827763e-01  3.34274837e-09  1.58145985e-07  7.24296498e-08  6.90000000e-01 
 7.00000000e-01  3.55091441e-09  4.57827758e-01  3.50544513e-09  3.30882431e-09  4.57827758e-01  4.57827758e-01  3.34274837e-09  1.58145974e-07  7.24295788e-08  7.00000000e-01 
 7.10000000e-01  3.55091441e-09  4.57827762e-01  3.50544513e-09  3.30882426e-09  4.57827762e-01  4.57827762e-01  3.34274837e-09  1.58145974e-07  7.24294793e-08  7.10000000e-01 
 7.20000000e-01  3.55091440e-09  4.57827725e-01  3.50544513e-09  3.30882431e-09  4.57827725e-01  4.57827725e-01  3.34274842e-09  1.58145916e-07  7.24293088e-08  7.20000000e-01 
 7.30000000e-01  3.55091446e-09  4.57827755e-01  3.50544513e-09  3.30882431e-09  4.57827755e-01  4.57827755e-01  3.34274841e-09  1.58145966e-07  7.24293940e-08  7.30000000e-01 
 7.40000000e-01  3.55091441e-09  4.57827763e-01  3.50544519e-09  3.30882431e-09  4.57827763e-01  4.57827763e-01  3.34274842e-09  1.58145977e-07  7.24292590e-08  7.40000000e-01 
 7.50000000e-01  3.55091441e-09  4.57827760e-01  3.50544513e-09  3.30882431e-09  4.57827760e-01  4.57827760e-01  3.34274836e-09  1.58145969e-07  7.24292448e-08  7.50000000e-01 
 7.60000000e-01  3.55091440e-09  4.57827744e-01  3.50544513e-09  3.30882431e-09  4.57827744e-01  4.57827744e-01  3.34274837e-09  1.58145939e-07  7.24290672e-08  7.60000000e-01 
 7.70000000e-01  3.55091440e-09  4.57827726e-01  3.50544519e-09  3.30882431e-09  4.57827726e-01  4.57827726e-01  3.34274836e-09  1.58145914e-07  7.24290103e-08  7.70000000e-01 
 7.80000000e-01  3.55091440e-09  4.57827735e-01  3.50544513e-09  3.30882426e-09  4.57827735e-01  4.57827735e-01  3.34274837e-09  1.58145936e-07  7.24289464e-08  7.80000000e-01 
 7.90000000e-01  3.55091446e-09  4.57827751e-01  3.50544513e-09  3.30882431e-09  4.57827751e-01  4.57827751e-01  3.34274837e-09  1.58145955e-07  7.24289677e-08  7.90000000e-01 
 8.00000000e-01  3.55091446e-09  4.57827751e-01  3.50544513e-09  3.30882431e-09  4.57827751e-01  4.57827751e-01  3.34274837e-09  1.58145953e-07  7.24287403e-08  8.00000000e-01 
 8.10000000e-01  3.55091446e-09  4.57827753e-01  3.50544513e-09  3.30882431e-09  4.57827753e-01  4.57827753e-01  3.34274837e-09  1.58145966e-07  7.24287190e-08  8.10000000e-01 
 8.20000000e-01  3.55091441e-09  4.57827760e-01  3.50544513e-09  3.30882431e-09  4.57827760e-01  4.57827760e-01  3.34274837e-09  1.58145966e-07  7.24287190e-08  8.20000000e-01 
 8.30000000e-01  3.55091446e-09  4.57827747e-01  3.50544519e-09  3.30882431e-09  4.57827747e-01  4.57827747e-01  3.34274837e-09  1.58145940e-07  7.24286338e-08  8.30000000e-01 
 8.40000000e-01  3.55091440e-09  4.57827737e-01  3.50544519e-09  3.30882431e-09  4.57827737e-01  4.57827737e-01  3.34274837e-09  1.58145943e-07  7.24285627e-08  8.40000000e-01 
 8.50000000e-01  3.55091446e-09  4.57827752e-01  3.50544513e-09  3.30882431e-09  4.57827753e-01  4.57827753e-01  3.34274837e-09  1.58145955e-07  7.24284916e-08  8.50000000e-01 
 8.60000000e-01  3.55091446e-09  4.57827726e-01  3.50544513e-09  3.30882431e-09  4.57827726e-01  4.57827726e-01  3.34274836e-09  1.58145921e-07  7.24284419e-08  8.60000000e-01 
 8.70000000e-01  3.55091440e-09  4.57827740e-01  3.50544519e-09  3.30882426e-09  4.57827740e-01  4.57827740e-01  3.34274837e-09  1.58145948e-07  7.24282643e-08  8.70000000e-01 
 8.80000000e-01  3.55091446e-09  4.57827758e-01  3.50544519e-09  3.30882431e-09  4.57827758e-01  4.57827758e-01  3.34274837e-09  1.58145962e-07  7.24282572e-08  8.80000000e-01 
 8.90000000e-01  3.55091446e-09  4.57827773e-01  3.50544513e-09  3.30882431e-09  4.57827773e-01  4.57827773e-01  3.34274837e-09  1.58145992e-07  7.24282572e-08  8.90000000e-01 
 9.00000000e-01  3.55091441e-09  4.57827758e-01  3.50544519e-09  3.30882431e-09  4.57827758e-01  4.57827758e-01  3.34274837e-09  1.58145974e-07  7.24281222e-08  9.00000000e-01 
 9.10000000e-01  3.55091446e-09  4.57827768e-01  3.50544513e-09  3.30882431e-09  4.57827768e-01  4.57827768e-01  3.34274837e-09  1.58145987e-07  7.24281790e-08  9.10000000e-01 
 9.20000000e-01  3.55091446e-09  4.57827747e-01  3.50544519e-09  3.30882431e-09  4.57827747e-01  4.57827747e-01  3.34274837e-09  1.58145947e-07  7.24280440e-08  9.20000000e-01 
 9.30000000e-01  3.55091440e-09  4.57827744e-01  3.50544519e-09  3.30882431e-09  4.57827744e-01  4.57827744e-01  3.34274837e-09  1.58145942e-07  7.24280511e-08  9.30000000e-01 
 9.40000000e-01  3.55091446e-09  4.57827747e-01  3.50544513e-09  3.30882426e-09  4.57827747e-01  4.57827747e-01  3.34274837e-09  1.58145948e-07  7.24277953e-08  9.40000000e-01 
 9.50000000e-01  3.55091441e-09  4.57827759e-01  3.50544513e-09  3.30882431e-09  4.57827759e-01  4.57827759e-01  3.34274837e-09  1.58145969e-07  7.24277456e-08  9.50000000e-01 
 9.60000000e-01  3.55091446e-09  4.57827760e-01  3.50544519e-09  3.30882431e-09  4.57827760e-01  4.57827760e-01  3.34274837e-09  1.58145968e-07  7.24277527e-08  9.60000000e-01 
 9.70000000e-01  3.55091441e-09  4.57827762e-01  3.50544513e-09  3.30882431e-09  4.57827762e-01  4.57827762e-01  3.34274837e-09  1.58145975e-07  7.24276816e-08  9.70000000e-01 
 9.80000000e-01  3.55091446e-09  4.57827746e-01  3.50544513e-09  3.30882431e-09  4.57827746e-01  4.57827746e-01  3.34274837e-09  1.58145941e-07  7.24276248e-08  9.80000000e-01 
 9.90000000e-01  3.55091446e-09  4.57827743e-01  3.50544513e-09  3.30882431e-09  4.57827743e-01  4.57827743e-01  3.34274837e-09  1.58145952e-07  7.24275253e-08  9.90000000e-01 
 1.00000000e+00  3.55091441e-09  4.57827757e-01  3.50544519e-09  3.30882431e-09  4.57827757e-01  4.57827757e-01  3.34274837e-09  1.58145961e-07  7.24274756e-08  1.00000000e+00 
 1.01000000e+00  3.55091441e-09  4.57827759e-01  3.50544513e-09  3.30882431e-09  4.57827759e-01  4.57827759e-01  3.34274837e-09  1.58145960e-07  7.24274329e-08  1.01000000e+00 
 1.02000000e+00  3.55091446e-09  4.57827773e-01  3.50544513e-09  3.30882431e-09  4.57827773e-01  4.57827773e-01  3.34274837e-09  1.58145983e-07  7.24274329e-08  1.02000000e+00 
 1.03000000e+00  3.55091441e-09  4.57827781e-01  3.50544513e-09  3.30882431e-09  4.57827781e-01  4.57827781e-01  3.34274837e-09  1.58146022e-07  7.24273477e-08  1.03000000e+00 
 1.04000000e+00  3.55091446e-09  4.57827743e-01  3.50544513e-09  3.30882431e-09  4.57827743e-01  4.57827743e-01  3.34274837e-09  1.58145958e-07  7.24271132e-08  1.04000000e+00 
 1.05000000e+00  3.55091446e-09  4.57827744e-01  3.50544513e-09  3.30882426e-09  4.57827744e-01  4.57827744e-01  3.34274837e-09  1.58145939e-07  7.24271629e-08  1.05000000e+00 
 1.06000000e+00  3.55091446e-09  4.57827749e-01  3.50544519e-09  3.30882426e-09  4.57827749e-01  4.57827749e-01  3.34274837e-09  1.58145963e-07  7.24270919e-08  1.06000000e+00 
 1.07000000e+00  3.55091446e-09  4.57827747e-01  3.50544519e-09  3.30882426e-09  4.57827747e-01  4.57827747e-01  3.34274837e-09  1.58145943e-07  7.24269853e-08  1.07000000e+00 
 1.08000000e+00  3.55091440e-09  4.57827746e-01  3.50544519e-09  3.30882431e-09  4.57827746e-01  4.57827746e-01  3.34274837e-09  1.58145933e-07  7.24269498e-08  1.08000000e+00 
 1.09000000e+00  3.55091441e-09  4.57827763e-01  3.50544513e-09  3.30882431e-09  4.57827763e-01  4.57827763e-01  3.34274837e-09  1.58145956e-07  7.24268219e-08  1.09000000e+00 
 1.10000000e+00  3.55091441e-09  4.57827750e-01  3.50544513e-09  3.30882431e-09  4.57827750e-01  4.57827750e-01  3.34274837e-09  1.58145961e-07  7.24268503e-08  1.10000000e+00 
