 v-sweep         v(b0)           v(b1)           v(b2)           v(b3)           v(b4)           v(b5)           v(b6)           i(vbias)        i(viout)        v(vout)        
 0.00000000e+00  4.57584022e-01  3.13393329e-09  3.33832466e-09  4.57584022e-01  3.53292103e-09  3.42936976e-09  3.04753165e-09  1.58716499e-07  1.32770032e-08  0.00000000e+00 
 1.00000000e-02  4.57584019e-01  3.13393326e-09  3.33832469e-09  4.57584019e-01  3.53292106e-09  3.42936974e-09  3.04753162e-09  1.58716478e-07  1.32764955e-08  1.00000000e-02 
 2.00000000e-02  4.57584048e-01  3.13393326e-09  3.33832474e-09  4.57584048e-01  3.53292100e-09  3.42936974e-09  3.04753168e-09  1.58716518e-07  1.32761728e-08  2.00000000e-02 
 3.00000000e-02  4.57584041e-01  3.13393326e-09  3.33832469e-09  4.57584041e-01  3.53292106e-09  3.42936974e-09  3.04753167e-09  1.58716519e-07  1.32757771e-08  3.00000000e-02 
 4.00000000e-02  4.57584029e-01  3.13393326e-09  3.33832469e-09  4.57584029e-01  3.53292106e-09  3.42936974e-09  3.04753167e-09  1.58716514e-07  1.32755185e-08  4.00000000e-02 
 5.00000000e-02  4.57584033e-01  3.13393331e-09  3.33832469e-09  4.57584033e-01  3.53292106e-09  3.42936974e-09  3.04753167e-09  1.58716505e-07  1.32751121e-08  5.00000000e-02 
 6.00000000e-02  4.57584047e-01  3.13393331e-09  3.33832469e-09  4.57584047e-01  3.53292106e-09  3.42936974e-09  3.04753167e-09  1.58716521e-07  1.32749283e-08  6.00000000e-02 
 7.00000000e-02  4.57584007e-01  3.13393331e-09  3.33832468e-09  4.57584007e-01  3.53292100e-09  3.42936974e-09  3.04753167e-09  1.58716479e-07  1.32745339e-08  7.00000000e-02 
 8.00000000e-02  4.57584007e-01  3.13393331e-09  3.33832468e-09  4.57584007e-01  3.53292106e-09  3.42936974e-09  3.04753167e-09  1.58716476e-07  1.32742821e-08  8.00000000e-02 
 9.00000000e-02  4.57584027e-01  3.13393331e-09  3.33832469e-09  4.57584027e-01  3.53292106e-09  3.42936974e-09  3.04753167e-09  1.58716503e-07  1.32740805e-08  9.00000000e-02 
 1.00000000e-01  4.57583999e-01  3.13393331e-09  3.33832468e-09  4.57583999e-01  3.53292105e-09  3.42936979e-09  3.04753167e-09  1.58716445e-07  1.32737510e-08  1.00000000e-01 
 1.10000000e-01  4.57584020e-01  3.13393331e-09  3.33832469e-09  4.57584020e-01  3.53292106e-09  3.42936973e-09  3.04753167e-09  1.58716490e-07  1.32734614e-08  1.10000000e-01 
 1.20000000e-01  4.57584036e-01  3.13393331e-09  3.33832469e-09  4.57584036e-01  3.53292100e-09  3.42936974e-09  3.04753167e-09  1.58716513e-07  1.32732847e-08  1.20000000e-01 
 1.30000000e-01  4.57584013e-01  3.13393331e-09  3.33832469e-09  4.57584013e-01  3.53292106e-09  3.42936974e-09  3.04753167e-09  1.58716470e-07  1.32731284e-08  1.30000000e-01 
 1.40000000e-01  4.57584049e-01  3.13393331e-09  3.33832469e-09  4.57584049e-01  3.53292106e-09  3.42936974e-09  3.04753167e-09  1.58716522e-07  1.32728211e-08  1.40000000e-01 
 1.50000000e-01  4.57584043e-01  3.13393331e-09  3.33832469e-09  4.57584043e-01  3.53292106e-09  3.42936974e-09  3.04753167e-09  1.58716524e-07  1.32726452e-08  1.50000000e-01 
 1.60000000e-01  4.57584033e-01  3.13393331e-09  3.33832469e-09  4.57584033e-01  3.53292106e-09  3.42936980e-09  3.04753167e-09  1.58716527e-07  1.32724640e-08  1.60000000e-01 
 1.70000000e-01  4.57584020e-01  3.13393331e-09  3.33832469e-09  4.57584020e-01  3.53292106e-09  3.42936973e-09  3.04753167e-09  1.58716486e-07  1.32721976e-08  1.70000000e-01 
 1.80000000e-01  4.57584044e-01  3.13393331e-09  3.33832469e-09  4.57584044e-01  3.53292106e-09  3.42936975e-09  3.04753167e-09  1.58716520e-07  1.32720537e-08  1.80000000e-01 
 1.90000000e-01  4.57584027e-01  3.13393331e-09  3.33832469e-09  4.57584027e-01  3.53292100e-09  3.42936974e-09  3.04753167e-09  1.58716495e-07  1.32719702e-08  1.90000000e-01 
 2.00000000e-01  4.57584008e-01  3.13393331e-09  3.33832468e-09  4.57584008e-01  3.53292106e-09  3.42936974e-09  3.04753167e-09  1.58716488e-07  1.32717926e-08  2.00000000e-01 
 2.10000000e-01  4.57584032e-01  3.13393331e-09  3.33832469e-09  4.57584032e-01  3.53292106e-09  3.42936974e-09  3.04753167e-09  1.58716513e-07  1.32717251e-08  2.10000000e-01 
 2.20000000e-01  4.57584014e-01  3.13393331e-09  3.33832474e-09  4.57584014e-01  3.53292106e-09  3.42936974e-09  3.04753167e-09  1.58716485e-07  1.32714977e-08  2.20000000e-01 
 2.30000000e-01  4.57584020e-01  3.13393331e-09  3.33832469e-09  4.57584020e-01  3.53292106e-09  3.42936974e-09  3.04753167e-09  1.58716496e-07  1.32714195e-08  2.30000000e-01 
 2.40000000e-01  4.57584036e-01  3.13393326e-09  3.33832469e-09  4.57584036e-01  3.53292106e-09  3.42936974e-09  3.04753167e-09  1.58716511e-07  1.32712596e-08  2.40000000e-01 
 2.50000000e-01  4.57584046e-01  3.13393331e-09  3.33832469e-09  4.57584046e-01  3.53292100e-09  3.42936980e-09  3.04753167e-09  1.58716524e-07  1.32712170e-08  2.50000000e-01 
 2.60000000e-01  4.57584032e-01  3.13393331e-09  3.33832469e-09  4.57584032e-01  3.53292106e-09  3.42936973e-09  3.04753167e-09  1.58716505e-07  1.32709914e-08  2.60000000e-01 
 2.70000000e-01  4.57584014e-01  3.13393325e-09  3.33832469e-09  4.57584014e-01  3.53292106e-09  3.42936974e-09  3.04753167e-09  1.58716483e-07  1.32709008e-08  2.70000000e-01 
 2.80000000e-01  4.57584009e-01  3.13393325e-09  3.33832468e-09  4.57584009e-01  3.53292100e-09  3.42936974e-09  3.04753167e-09  1.58716462e-07  1.32708191e-08  2.80000000e-01 
 2.90000000e-01  4.57584028e-01  3.13393326e-09  3.33832469e-09  4.57584028e-01  3.53292106e-09  3.42936974e-09  3.04753167e-09  1.58716501e-07  1.32705615e-08  2.90000000e-01 
 3.00000000e-01  4.57584018e-01  3.13393326e-09  3.33832469e-09  4.57584018e-01  3.53292106e-09  3.42936979e-09  3.04753167e-09  1.58716483e-07  1.32705011e-08  3.00000000e-01 
 3.10000000e-01  4.57584038e-01  3.13393331e-09  3.33832469e-09  4.57584038e-01  3.53292106e-09  3.42936978e-09  3.04753167e-09  1.58716521e-07  1.32704905e-08  3.10000000e-01 
 3.20000000e-01  4.57584018e-01  3.13393331e-09  3.33832469e-09  4.57584018e-01  3.53292106e-09  3.42936979e-09  3.04753167e-09  1.58716484e-07  1.32703377e-08  3.20000000e-01 
 3.30000000e-01  4.57584025e-01  3.13393326e-09  3.33832469e-09  4.57584025e-01  3.53292106e-09  3.42936973e-09  3.04753167e-09  1.58716497e-07  1.32703057e-08  3.30000000e-01 
 3.40000000e-01  4.57583997e-01  3.13393331e-09  3.33832468e-09  4.57583997e-01  3.53292100e-09  3.42936974e-09  3.04753167e-09  1.58716464e-07  1.32700890e-08  3.40000000e-01 
 3.50000000e-01  4.57584028e-01  3.13393326e-09  3.33832469e-09  4.57584028e-01  3.53292106e-09  3.42936974e-09  3.04753167e-09  1.58716510e-07  1.32701317e-08  3.50000000e-01 
 3.60000000e-01  4.57584010e-01  3.13393331e-09  3.33832468e-09  4.57584010e-01  3.53292106e-09  3.42936974e-09  3.04753167e-09  1.58716472e-07  1.32700464e-08  3.60000000e-01 
 3.70000000e-01  4.57584012e-01  3.13393325e-09  3.33832469e-09  4.57584012e-01  3.53292100e-09  3.42936974e-09  3.04753167e-09  1.58716461e-07  1.32699469e-08  3.70000000e-01 
 3.80000000e-01  4.57584023e-01  3.13393331e-09  3.33832469e-09  4.57584023e-01  3.53292106e-09  3.42936974e-09  3.04753167e-09  1.58716493e-07  1.32699824e-08  3.80000000e-01 
 3.90000000e-01  4.57584017e-01  3.13393331e-09  3.33832469e-09  4.57584017e-01  3.53292106e-09  3.42936974e-09  3.04753167e-09  1.58716484e-07  1.32698119e-08  3.90000000e-01 
 4.00000000e-01  4.57584037e-01  3.13393331e-09  3.33832469e-09  4.57584037e-01  3.53292106e-09  3.42936974e-09  3.04753167e-09  1.58716530e-07  1.32695952e-08  4.00000000e-01 
 4.10000000e-01  4.57584043e-01  3.13393331e-09  3.33832469e-09  4.57584043e-01  3.53292106e-09  3.42936974e-09  3.04753167e-09  1.58716517e-07  1.32696876e-08  4.10000000e-01 
 4.20000000e-01  4.57584007e-01  3.13393325e-09  3.33832468e-09  4.57584007e-01  3.53292106e-09  3.42936979e-09  3.04753167e-09  1.58716484e-07  1.32695561e-08  4.20000000e-01 
 4.30000000e-01  4.57584015e-01  3.13393325e-09  3.33832469e-09  4.57584015e-01  3.53292106e-09  3.42936973e-09  3.04753167e-09  1.58716491e-07  1.32695099e-08  4.30000000e-01 
 4.40000000e-01  4.57584034e-01  3.13393331e-09  3.33832469e-09  4.57584034e-01  3.53292106e-09  3.42936980e-09  3.04753167e-09  1.58716503e-07  1.32693643e-08  4.40000000e-01 
 4.50000000e-01  4.57584033e-01  3.13393331e-09  3.33832469e-09  4.57584033e-01  3.53292106e-09  3.42936973e-09  3.04753167e-09  1.58716514e-07  1.32694282e-08  4.50000000e-01 
 4.60000000e-01  4.57584022e-01  3.13393326e-09  3.33832469e-09  4.57584022e-01  3.53292100e-09  3.42936974e-09  3.04753167e-09  1.58716488e-07  1.32692790e-08  4.60000000e-01 
 4.70000000e-01  4.57584027e-01  3.13393331e-09  3.33832469e-09  4.57584027e-01  3.53292106e-09  3.42936974e-09  3.04753167e-09  1.58716489e-07  1.32692897e-08  4.70000000e-01 
 4.80000000e-01  4.57584021e-01  3.13393326e-09  3.33832469e-09  4.57584021e-01  3.53292106e-09  3.42936979e-09  3.04753167e-09  1.58716492e-07  1.32691724e-08  4.80000000e-01 
 4.90000000e-01  4.57584015e-01  3.13393331e-09  3.33832469e-09  4.57584015e-01  3.53292106e-09  3.42936978e-09  3.04753167e-09  1.58716479e-07  1.32691547e-08  4.90000000e-01 
 5.00000000e-01  4.57584030e-01  3.13393331e-09  3.33832469e-09  4.57584030e-01  3.53292106e-09  3.42936979e-09  3.04753167e-09  1.58716504e-07  1.32691014e-08  5.00000000e-01 
 5.10000000e-01  4.57584023e-01  3.13393326e-09  3.33832474e-09  4.57584023e-01  3.53292106e-09  3.42936973e-09  3.04753167e-09  1.58716498e-07  1.32690126e-08  5.10000000e-01 
 5.20000000e-01  4.57583992e-01  3.13393331e-09  3.33832468e-09  4.57583992e-01  3.53292100e-09  3.42936974e-09  3.04753167e-09  1.58716443e-07  1.32689628e-08  5.20000000e-01 
 5.30000000e-01  4.57584023e-01  3.13393326e-09  3.33832469e-09  4.57584023e-01  3.53292100e-09  3.42936974e-09  3.04753167e-09  1.58716485e-07  1.32689415e-08  5.30000000e-01 
 5.40000000e-01  4.57584029e-01  3.13393331e-09  3.33832469e-09  4.57584029e-01  3.53292106e-09  3.42936974e-09  3.04753167e-09  1.58716508e-07  1.32689308e-08  5.40000000e-01 
 5.50000000e-01  4.57584004e-01  3.13393331e-09  3.33832468e-09  4.57584004e-01  3.53292100e-09  3.42936974e-09  3.04753167e-09  1.58716473e-07  1.32687248e-08  5.50000000e-01 
 5.60000000e-01  4.57584017e-01  3.13393326e-09  3.33832469e-09  4.57584017e-01  3.53292106e-09  3.42936974e-09  3.04753167e-09  1.58716483e-07  1.32687177e-08  5.60000000e-01 
 5.70000000e-01  4.57584029e-01  3.13393331e-09  3.33832469e-09  4.57584029e-01  3.53292100e-09  3.42936974e-09  3.04753167e-09  1.58716493e-07  1.32686182e-08  5.70000000e-01 
 5.80000000e-01  4.57584018e-01  3.13393331e-09  3.33832469e-09  4.57584017e-01  3.53292106e-09  3.42936979e-09  3.04753167e-09  1.58716484e-07  1.32686111e-08  5.80000000e-01 
 5.90000000e-01  4.57584024e-01  3.13393331e-09  3.33832469e-09  4.57584024e-01  3.53292106e-09  3.42936978e-09  3.04753167e-09  1.58716497e-07  1.32687390e-08  5.90000000e-01 
 6.00000000e-01  4.57584042e-01  3.13393331e-09  3.33832469e-09  4.57584042e-01  3.53292106e-09  3.42936973e-09  3.04753167e-09  1.58716533e-07  1.32685045e-08  6.00000000e-01 
 6.10000000e-01  4.57584030e-01  3.13393331e-09  3.33832469e-09  4.57584030e-01  3.53292106e-09  3.42936974e-09  3.04753167e-09  1.58716499e-07  1.32684050e-08  6.10000000e-01 
 6.20000000e-01  4.57584021e-01  3.13393331e-09  3.33832469e-09  4.57584021e-01  3.53292106e-09  3.42936974e-09  3.04753167e-09  1.58716496e-07  1.32685329e-08  6.20000000e-01 
 6.30000000e-01  4.57584026e-01  3.13393331e-09  3.33832469e-09  4.57584026e-01  3.53292106e-09  3.42936974e-09  3.04753167e-09  1.58716487e-07  1.32683340e-08  6.30000000e-01 
 6.40000000e-01  4.57584018e-01  3.13393326e-09  3.33832469e-09  4.57584018e-01  3.53292106e-09  3.42936974e-09  3.04753167e-09  1.58716479e-07  1.32683908e-08  6.40000000e-01 
 6.50000000e-01  4.57584040e-01  3.13393326e-09  3.33832469e-09  4.57584040e-01  3.53292106e-09  3.42936980e-09  3.04753167e-09  1.58716526e-07  1.32682700e-08  6.50000000e-01 
 6.60000000e-01  4.57584011e-01  3.13393331e-09  3.33832468e-09  4.57584011e-01  3.53292100e-09  3.42936973e-09  3.04753167e-09  1.58716474e-07  1.32681848e-08  6.60000000e-01 
 6.70000000e-01  4.57584037e-01  3.13393331e-09  3.33832469e-09  4.57584036e-01  3.53292106e-09  3.42936974e-09  3.04753167e-09  1.58716502e-07  1.32681777e-08  6.70000000e-01 
 6.80000000e-01  4.57584012e-01  3.13393331e-09  3.33832469e-09  4.57584012e-01  3.53292106e-09  3.42936974e-09  3.04753167e-09  1.58716468e-07  1.32681848e-08  6.80000000e-01 
 6.90000000e-01  4.57584014e-01  3.13393331e-09  3.33832469e-09  4.57584013e-01  3.53292106e-09  3.42936974e-09  3.04753167e-09  1.58716474e-07  1.32681137e-08  6.90000000e-01 
 7.00000000e-01  4.57584003e-01  3.13393331e-09  3.33832468e-09  4.57584003e-01  3.53292105e-09  3.42936974e-09  3.04753167e-09  1.58716461e-07  1.32680711e-08  7.00000000e-01 
 7.10000000e-01  4.57584034e-01  3.13393331e-09  3.33832469e-09  4.57584034e-01  3.53292106e-09  3.42936974e-09  3.04753167e-09  1.58716504e-07  1.32679148e-08  7.10000000e-01 
 7.20000000e-01  4.57584031e-01  3.13393331e-09  3.33832469e-09  4.57584030e-01  3.53292100e-09  3.42936974e-09  3.04753167e-09  1.58716502e-07  1.32678863e-08  7.20000000e-01 
 7.30000000e-01  4.57584007e-01  3.13393331e-09  3.33832468e-09  4.57584007e-01  3.53292100e-09  3.42936979e-09  3.04753167e-09  1.58716476e-07  1.32679432e-08  7.30000000e-01 
 7.40000000e-01  4.57584018e-01  3.13393331e-09  3.33832469e-09  4.57584018e-01  3.53292100e-09  3.42936973e-09  3.04753167e-09  1.58716488e-07  1.32678295e-08  7.40000000e-01 
 7.50000000e-01  4.57584016e-01  3.13393325e-09  3.33832469e-09  4.57584016e-01  3.53292106e-09  3.42936974e-09  3.04753167e-09  1.58716483e-07  1.32679077e-08  7.50000000e-01 
 7.60000000e-01  4.57584046e-01  3.13393331e-09  3.33832469e-09  4.57584046e-01  3.53292100e-09  3.42936980e-09  3.04753167e-09  1.58716525e-07  1.32678011e-08  7.60000000e-01 
 7.70000000e-01  4.57584006e-01  3.13393331e-09  3.33832468e-09  4.57584006e-01  3.53292100e-09  3.42936978e-09  3.04753167e-09  1.58716465e-07  1.32677656e-08  7.70000000e-01 
 7.80000000e-01  4.57584037e-01  3.13393326e-09  3.33832469e-09  4.57584036e-01  3.53292106e-09  3.42936979e-09  3.04753167e-09  1.58716510e-07  1.32676519e-08  7.80000000e-01 
 7.90000000e-01  4.57584003e-01  3.13393331e-09  3.33832468e-09  4.57584003e-01  3.53292100e-09  3.42936979e-09  3.04753167e-09  1.58716464e-07  1.32675595e-08  7.90000000e-01 
 8.00000000e-01  4.57584050e-01  3.13393326e-09  3.33832469e-09  4.57584050e-01  3.53292106e-09  3.42936973e-09  3.04753167e-09  1.58716535e-07  1.32676021e-08  8.00000000e-01 
 8.10000000e-01  4.57584015e-01  3.13393325e-09  3.33832469e-09  4.57584015e-01  3.53292106e-09  3.42936980e-09  3.04753167e-09  1.58716490e-07  1.32674884e-08  8.10000000e-01 
 8.20000000e-01  4.57584055e-01  3.13393331e-09  3.33832469e-09  4.57584055e-01  3.53292100e-09  3.42936973e-09  3.04753167e-09  1.58716548e-07  1.32674458e-08  8.20000000e-01 
 8.30000000e-01  4.57584012e-01  3.13393331e-09  3.33832474e-09  4.57584012e-01  3.53292106e-09  3.42936974e-09  3.04753167e-09  1.58716475e-07  1.32673748e-08  8.30000000e-01 
 8.40000000e-01  4.57584022e-01  3.13393326e-09  3.33832469e-09  4.57584022e-01  3.53292106e-09  3.42936974e-09  3.04753167e-09  1.58716493e-07  1.32673819e-08  8.40000000e-01 
 8.50000000e-01  4.57584033e-01  3.13393331e-09  3.33832469e-09  4.57584033e-01  3.53292106e-09  3.42936974e-09  3.04753167e-09  1.58716525e-07  1.32672966e-08  8.50000000e-01 
 8.60000000e-01  4.57584010e-01  3.13393331e-09  3.33832468e-09  4.57584010e-01  3.53292106e-09  3.42936974e-09  3.04753167e-09  1.58716467e-07  1.32671829e-08  8.60000000e-01 
 8.70000000e-01  4.57584018e-01  3.13393331e-09  3.33832469e-09  4.57584018e-01  3.53292100e-09  3.42936974e-09  3.04753167e-09  1.58716478e-07  1.32670905e-08  8.70000000e-01 
 8.80000000e-01  4.57584031e-01  3.13393331e-09  3.33832469e-09  4.57584031e-01  3.53292106e-09  3.42936980e-09  3.04753167e-09  1.58716514e-07  1.32670550e-08  8.80000000e-01 
 8.90000000e-01  4.57584016e-01  3.13393325e-09  3.33832469e-09  4.57584016e-01  3.53292106e-09  3.42936978e-09  3.04753167e-09  1.58716476e-07  1.32670195e-08  8.90000000e-01 
 9.00000000e-01  4.57584015e-01  3.13393331e-09  3.33832469e-09  4.57584015e-01  3.53292106e-09  3.42936979e-09  3.04753167e-09  1.58716484e-07  1.32670053e-08  9.00000000e-01 
 9.10000000e-01  4.57584029e-01  3.13393331e-09  3.33832469e-09  4.57584029e-01  3.53292100e-09  3.42936973e-09  3.04753167e-09  1.58716499e-07  1.32669840e-08  9.10000000e-01 
 9.20000000e-01  4.57584037e-01  3.13393331e-09  3.33832474e-09  4.57584037e-01  3.53292106e-09  3.42936974e-09  3.04753167e-09  1.58716525e-07  1.32670124e-08  9.20000000e-01 
 9.30000000e-01  4.57584031e-01  3.13393331e-09  3.33832469e-09  4.57584031e-01  3.53292106e-09  3.42936980e-09  3.04753167e-09  1.58716511e-07  1.32669342e-08  9.30000000e-01 
 9.40000000e-01  4.57584021e-01  3.13393331e-09  3.33832469e-09  4.57584021e-01  3.53292106e-09  3.42936978e-09  3.04753167e-09  1.58716490e-07  1.32667992e-08  9.40000000e-01 
 9.50000000e-01  4.57584042e-01  3.13393326e-09  3.33832469e-09  4.57584042e-01  3.53292106e-09  3.42936979e-09  3.04753167e-09  1.58716529e-07  1.32667424e-08  9.50000000e-01 
 9.60000000e-01  4.57584026e-01  3.13393331e-09  3.33832469e-09  4.57584026e-01  3.53292106e-09  3.42936973e-09  3.04753167e-09  1.58716495e-07  1.32666429e-08  9.60000000e-01 
 9.70000000e-01  4.57584025e-01  3.13393331e-09  3.33832474e-09  4.57584024e-01  3.53292106e-09  3.42936974e-09  3.04753167e-09  1.58716510e-07  1.32666287e-08  9.70000000e-01 
 9.80000000e-01  4.57584013e-01  3.13393331e-09  3.33832469e-09  4.57584013e-01  3.53292100e-09  3.42936979e-09  3.04753167e-09  1.58716484e-07  1.32664866e-08  9.80000000e-01 
 9.90000000e-01  4.57584033e-01  3.13393331e-09  3.33832469e-09  4.57584033e-01  3.53292100e-09  3.42936973e-09  3.04753167e-09  1.58716509e-07  1.32664510e-08  9.90000000e-01 
 1.00000000e+00  4.57584011e-01  3.13393331e-09  3.33832468e-09  4.57584011e-01  3.53292106e-09  3.42936974e-09  3.04753167e-09  1.58716479e-07  1.32664937e-08  1.00000000e+00 
 1.01000000e+00  4.57584024e-01  3.13393331e-09  3.33832474e-09  4.57584024e-01  3.53292106e-09  3.42936980e-09  3.04753167e-09  1.58716496e-07  1.32666074e-08  1.01000000e+00 
 1.02000000e+00  4.57584005e-01  3.13393331e-09  3.33832468e-09  4.57584004e-01  3.53292106e-09  3.42936972e-09  3.04753167e-09  1.58716469e-07  1.32664297e-08  1.02000000e+00 
 1.03000000e+00  4.57584015e-01  3.13393331e-09  3.33832469e-09  4.57584015e-01  3.53292106e-09  3.42936974e-09  3.04753167e-09  1.58716485e-07  1.32663516e-08  1.03000000e+00 
 1.04000000e+00  4.57584024e-01  3.13393331e-09  3.33832469e-09  4.57584024e-01  3.53292100e-09  3.42936974e-09  3.04753167e-09  1.58716496e-07  1.32663232e-08  1.04000000e+00 
 1.05000000e+00  4.57583999e-01  3.13393331e-09  3.33832468e-09  4.57583999e-01  3.53292105e-09  3.42936974e-09  3.04753167e-09  1.58716457e-07  1.32662947e-08  1.05000000e+00 
 1.06000000e+00  4.57584000e-01  3.13393325e-09  3.33832468e-09  4.57584000e-01  3.53292105e-09  3.42936979e-09  3.04753167e-09  1.58716461e-07  1.32662308e-08  1.06000000e+00 
 1.07000000e+00  4.57584017e-01  3.13393331e-09  3.33832469e-09  4.57584017e-01  3.53292106e-09  3.42936973e-09  3.04753167e-09  1.58716477e-07  1.32660389e-08  1.07000000e+00 
 1.08000000e+00  4.57584024e-01  3.13393331e-09  3.33832469e-09  4.57584024e-01  3.53292106e-09  3.42936974e-09  3.04753167e-09  1.58716493e-07  1.32661242e-08  1.08000000e+00 
 1.09000000e+00  4.57584025e-01  3.13393331e-09  3.33832469e-09  4.57584025e-01  3.53292100e-09  3.42936974e-09  3.04753167e-09  1.58716494e-07  1.32660389e-08  1.09000000e+00 
 1.10000000e+00  4.57584039e-01  3.13393331e-09  3.33832474e-09  4.57584039e-01  3.53292100e-09  3.42936974e-09  3.04753167e-09  1.58716517e-07  1.32659679e-08  1.10000000e+00 
