 v-sweep         v(b0)           v(b1)           v(b2)           v(b3)           v(b4)           v(b5)           v(b6)           i(vbias)        i(viout)        v(vout)        
 0.00000000e+00  4.59804931e-01  4.59804931e-01  3.22949425e-09  3.21674408e-09  4.59804931e-01  3.34884626e-09  3.58639740e-09  1.60039246e-07  2.91896703e-08  0.00000000e+00 
 1.00000000e-02  4.59804920e-01  4.59804920e-01  3.22949423e-09  3.21674412e-09  4.59804920e-01  3.34884629e-09  3.58639738e-09  1.60039245e-07  2.91890534e-08  1.00000000e-02 
 2.00000000e-02  4.59804923e-01  4.59804923e-01  3.22949423e-09  3.21674411e-09  4.59804923e-01  3.34884624e-09  3.58639738e-09  1.60039244e-07  2.91888580e-08  2.00000000e-02 
 3.00000000e-02  4.59804895e-01  4.59804895e-01  3.22949417e-09  3.21674407e-09  4.59804895e-01  3.34884629e-09  3.58639732e-09  1.60039203e-07  2.91885394e-08  3.00000000e-02 
 4.00000000e-02  4.59804922e-01  4.59804922e-01  3.22949423e-09  3.21674407e-09  4.59804922e-01  3.34884629e-09  3.58639733e-09  1.60039247e-07  2.91879716e-08  4.00000000e-02 
 5.00000000e-02  4.59804906e-01  4.59804906e-01  3.22949423e-09  3.21674412e-09  4.59804906e-01  3.34884623e-09  3.58639732e-09  1.60039215e-07  2.91877176e-08  5.00000000e-02 
 6.00000000e-02  4.59804934e-01  4.59804934e-01  3.22949423e-09  3.21674405e-09  4.59804934e-01  3.34884624e-09  3.58639733e-09  1.60039253e-07  2.91873592e-08  6.00000000e-02 
 7.00000000e-02  4.59804927e-01  4.59804927e-01  3.22949417e-09  3.21674407e-09  4.59804927e-01  3.34884624e-09  3.58639732e-09  1.60039249e-07  2.91871514e-08  7.00000000e-02 
 8.00000000e-02  4.59804916e-01  4.59804916e-01  3.22949423e-09  3.21674406e-09  4.59804916e-01  3.34884624e-09  3.58639738e-09  1.60039234e-07  2.91868298e-08  8.00000000e-02 
 9.00000000e-02  4.59804924e-01  4.59804924e-01  3.22949423e-09  3.21674412e-09  4.59804924e-01  3.34884624e-09  3.58639737e-09  1.60039255e-07  2.91865634e-08  9.00000000e-02 
 1.00000000e-01  4.59804941e-01  4.59804941e-01  3.22949417e-09  3.21674405e-09  4.59804941e-01  3.34884624e-09  3.58639738e-09  1.60039271e-07  2.91862436e-08  1.00000000e-01 
 1.10000000e-01  4.59804950e-01  4.59804950e-01  3.22949418e-09  3.21674407e-09  4.59804950e-01  3.34884630e-09  3.58639738e-09  1.60039284e-07  2.91860909e-08  1.10000000e-01 
 1.20000000e-01  4.59804944e-01  4.59804944e-01  3.22949417e-09  3.21674407e-09  4.59804944e-01  3.34884624e-09  3.58639738e-09  1.60039278e-07  2.91858466e-08  1.20000000e-01 
 1.30000000e-01  4.59804921e-01  4.59804921e-01  3.22949423e-09  3.21674407e-09  4.59804921e-01  3.34884624e-09  3.58639738e-09  1.60039248e-07  2.91855873e-08  1.30000000e-01 
 1.40000000e-01  4.59804929e-01  4.59804929e-01  3.22949423e-09  3.21674407e-09  4.59804929e-01  3.34884629e-09  3.58639738e-09  1.60039253e-07  2.91854452e-08  1.40000000e-01 
 1.50000000e-01  4.59804910e-01  4.59804910e-01  3.22949423e-09  3.21674406e-09  4.59804910e-01  3.34884629e-09  3.58639732e-09  1.60039223e-07  2.91851272e-08  1.50000000e-01 
 1.60000000e-01  4.59804931e-01  4.59804932e-01  3.22949423e-09  3.21674407e-09  4.59804932e-01  3.34884630e-09  3.58639733e-09  1.60039257e-07  2.91850331e-08  1.60000000e-01 
 1.70000000e-01  4.59804942e-01  4.59804942e-01  3.22949417e-09  3.21674407e-09  4.59804942e-01  3.34884630e-09  3.58639738e-09  1.60039280e-07  2.91848234e-08  1.70000000e-01 
 1.80000000e-01  4.59804928e-01  4.59804928e-01  3.22949423e-09  3.21674412e-09  4.59804928e-01  3.34884624e-09  3.58639737e-09  1.60039257e-07  2.91846778e-08  1.80000000e-01 
 1.90000000e-01  4.59804935e-01  4.59804935e-01  3.22949417e-09  3.21674411e-09  4.59804935e-01  3.34884624e-09  3.58639738e-09  1.60039264e-07  2.91844309e-08  1.90000000e-01 
 2.00000000e-01  4.59804932e-01  4.59804932e-01  3.22949423e-09  3.21674407e-09  4.59804932e-01  3.34884624e-09  3.58639732e-09  1.60039253e-07  2.91843385e-08  2.00000000e-01 
 2.10000000e-01  4.59804926e-01  4.59804926e-01  3.22949423e-09  3.21674407e-09  4.59804927e-01  3.34884624e-09  3.58639739e-09  1.60039250e-07  2.91842372e-08  2.10000000e-01 
 2.20000000e-01  4.59804932e-01  4.59804932e-01  3.22949423e-09  3.21674407e-09  4.59804932e-01  3.34884630e-09  3.58639737e-09  1.60039263e-07  2.91839779e-08  2.20000000e-01 
 2.30000000e-01  4.59804938e-01  4.59804938e-01  3.22949417e-09  3.21674412e-09  4.59804938e-01  3.34884624e-09  3.58639738e-09  1.60039288e-07  2.91839193e-08  2.30000000e-01 
 2.40000000e-01  4.59804916e-01  4.59804916e-01  3.22949417e-09  3.21674411e-09  4.59804916e-01  3.34884624e-09  3.58639737e-09  1.60039232e-07  2.91838376e-08  2.40000000e-01 
 2.50000000e-01  4.59804957e-01  4.59804957e-01  3.22949423e-09  3.21674413e-09  4.59804957e-01  3.34884630e-09  3.58639732e-09  1.60039285e-07  2.91836688e-08  2.50000000e-01 
 2.60000000e-01  4.59804930e-01  4.59804930e-01  3.22949423e-09  3.21674405e-09  4.59804930e-01  3.34884624e-09  3.58639733e-09  1.60039254e-07  2.91836564e-08  2.60000000e-01 
 2.70000000e-01  4.59804919e-01  4.59804919e-01  3.22949423e-09  3.21674407e-09  4.59804919e-01  3.34884629e-09  3.58639732e-09  1.60039229e-07  2.91834663e-08  2.70000000e-01 
 2.80000000e-01  4.59804935e-01  4.59804935e-01  3.22949423e-09  3.21674407e-09  4.59804935e-01  3.34884630e-09  3.58639738e-09  1.60039260e-07  2.91832567e-08  2.80000000e-01 
 2.90000000e-01  4.59804945e-01  4.59804945e-01  3.22949423e-09  3.21674407e-09  4.59804945e-01  3.34884624e-09  3.58639731e-09  1.60039276e-07  2.91832265e-08  2.90000000e-01 
 3.00000000e-01  4.59804943e-01  4.59804943e-01  3.22949423e-09  3.21674407e-09  4.59804943e-01  3.34884630e-09  3.58639733e-09  1.60039272e-07  2.91831128e-08  3.00000000e-01 
 3.10000000e-01  4.59804922e-01  4.59804922e-01  3.22949423e-09  3.21674407e-09  4.59804922e-01  3.34884629e-09  3.58639738e-09  1.60039230e-07  2.91830347e-08  3.10000000e-01 
 3.20000000e-01  4.59804921e-01  4.59804921e-01  3.22949423e-09  3.21674407e-09  4.59804921e-01  3.34884629e-09  3.58639737e-09  1.60039254e-07  2.91828357e-08  3.20000000e-01 
 3.30000000e-01  4.59804928e-01  4.59804928e-01  3.22949423e-09  3.21674407e-09  4.59804928e-01  3.34884629e-09  3.58639738e-09  1.60039244e-07  2.91828535e-08  3.30000000e-01 
 3.40000000e-01  4.59804924e-01  4.59804924e-01  3.22949423e-09  3.21674412e-09  4.59804924e-01  3.34884624e-09  3.58639738e-09  1.60039246e-07  2.91827007e-08  3.40000000e-01 
 3.50000000e-01  4.59804908e-01  4.59804908e-01  3.22949423e-09  3.21674405e-09  4.59804908e-01  3.34884629e-09  3.58639737e-09  1.60039217e-07  2.91826474e-08  3.50000000e-01 
 3.60000000e-01  4.59804929e-01  4.59804929e-01  3.22949417e-09  3.21674407e-09  4.59804929e-01  3.34884629e-09  3.58639732e-09  1.60039254e-07  2.91824414e-08  3.60000000e-01 
 3.70000000e-01  4.59804928e-01  4.59804928e-01  3.22949423e-09  3.21674407e-09  4.59804928e-01  3.34884629e-09  3.58639739e-09  1.60039263e-07  2.91824982e-08  3.70000000e-01 
 3.80000000e-01  4.59804913e-01  4.59804913e-01  3.22949423e-09  3.21674406e-09  4.59804913e-01  3.34884629e-09  3.58639737e-09  1.60039236e-07  2.91823703e-08  3.80000000e-01 
 3.90000000e-01  4.59804939e-01  4.59804939e-01  3.22949423e-09  3.21674407e-09  4.59804939e-01  3.34884630e-09  3.58639738e-09  1.60039268e-07  2.91823632e-08  3.90000000e-01 
 4.00000000e-01  4.59804936e-01  4.59804936e-01  3.22949423e-09  3.21674407e-09  4.59804936e-01  3.34884630e-09  3.58639738e-09  1.60039263e-07  2.91821678e-08  4.00000000e-01 
 4.10000000e-01  4.59804922e-01  4.59804922e-01  3.22949423e-09  3.21674407e-09  4.59804922e-01  3.34884629e-09  3.58639738e-09  1.60039248e-07  2.91820292e-08  4.10000000e-01 
 4.20000000e-01  4.59804940e-01  4.59804940e-01  3.22949417e-09  3.21674407e-09  4.59804940e-01  3.34884630e-09  3.58639738e-09  1.60039269e-07  2.91820896e-08  4.20000000e-01 
 4.30000000e-01  4.59804940e-01  4.59804940e-01  3.22949423e-09  3.21674407e-09  4.59804940e-01  3.34884630e-09  3.58639738e-09  1.60039265e-07  2.91819688e-08  4.30000000e-01 
 4.40000000e-01  4.59804928e-01  4.59804928e-01  3.22949423e-09  3.21674407e-09  4.59804928e-01  3.34884624e-09  3.58639738e-09  1.60039264e-07  2.91819617e-08  4.40000000e-01 
 4.50000000e-01  4.59804930e-01  4.59804930e-01  3.22949423e-09  3.21674407e-09  4.59804931e-01  3.34884629e-09  3.58639738e-09  1.60039246e-07  2.91818125e-08  4.50000000e-01 
 4.60000000e-01  4.59804945e-01  4.59804945e-01  3.22949423e-09  3.21674412e-09  4.59804945e-01  3.34884624e-09  3.58639738e-09  1.60039289e-07  2.91817770e-08  4.60000000e-01 
 4.70000000e-01  4.59804944e-01  4.59804944e-01  3.22949423e-09  3.21674411e-09  4.59804944e-01  3.34884624e-09  3.58639732e-09  1.60039275e-07  2.91818338e-08  4.70000000e-01 
 4.80000000e-01  4.59804924e-01  4.59804924e-01  3.22949423e-09  3.21674407e-09  4.59804924e-01  3.34884624e-09  3.58639739e-09  1.60039253e-07  2.91817059e-08  4.80000000e-01 
 4.90000000e-01  4.59804937e-01  4.59804937e-01  3.22949417e-09  3.21674407e-09  4.59804937e-01  3.34884630e-09  3.58639737e-09  1.60039270e-07  2.91815780e-08  4.90000000e-01 
 5.00000000e-01  4.59804929e-01  4.59804929e-01  3.22949423e-09  3.21674407e-09  4.59804929e-01  3.34884629e-09  3.58639732e-09  1.60039256e-07  2.91816278e-08  5.00000000e-01 
 5.10000000e-01  4.59804924e-01  4.59804924e-01  3.22949423e-09  3.21674412e-09  4.59804924e-01  3.34884629e-09  3.58639733e-09  1.60039251e-07  2.91814892e-08  5.10000000e-01 
 5.20000000e-01  4.59804918e-01  4.59804919e-01  3.22949423e-09  3.21674405e-09  4.59804919e-01  3.34884624e-09  3.58639738e-09  1.60039228e-07  2.91814004e-08  5.20000000e-01 
 5.30000000e-01  4.59804931e-01  4.59804931e-01  3.22949423e-09  3.21674413e-09  4.59804931e-01  3.34884629e-09  3.58639737e-09  1.60039248e-07  2.91814217e-08  5.30000000e-01 
 5.40000000e-01  4.59804919e-01  4.59804919e-01  3.22949423e-09  3.21674411e-09  4.59804919e-01  3.34884629e-09  3.58639738e-09  1.60039251e-07  2.91812832e-08  5.40000000e-01 
 5.50000000e-01  4.59804947e-01  4.59804947e-01  3.22949423e-09  3.21674407e-09  4.59804947e-01  3.34884624e-09  3.58639738e-09  1.60039276e-07  2.91813542e-08  5.50000000e-01 
 5.60000000e-01  4.59804916e-01  4.59804916e-01  3.22949423e-09  3.21674406e-09  4.59804916e-01  3.34884629e-09  3.58639737e-09  1.60039230e-07  2.91811801e-08  5.60000000e-01 
 5.70000000e-01  4.59804939e-01  4.59804939e-01  3.22949423e-09  3.21674407e-09  4.59804939e-01  3.34884624e-09  3.58639738e-09  1.60039267e-07  2.91812157e-08  5.70000000e-01 
 5.80000000e-01  4.59804957e-01  4.59804957e-01  3.22949423e-09  3.21674407e-09  4.59804957e-01  3.34884630e-09  3.58639738e-09  1.60039292e-07  2.91810949e-08  5.80000000e-01 
 5.90000000e-01  4.59804912e-01  4.59804912e-01  3.22949423e-09  3.21674406e-09  4.59804912e-01  3.34884629e-09  3.58639737e-09  1.60039232e-07  2.91810522e-08  5.90000000e-01 
 6.00000000e-01  4.59804926e-01  4.59804926e-01  3.22949423e-09  3.21674407e-09  4.59804927e-01  3.34884629e-09  3.58639738e-09  1.60039251e-07  2.91809670e-08  6.00000000e-01 
 6.10000000e-01  4.59804939e-01  4.59804939e-01  3.22949417e-09  3.21674407e-09  4.59804940e-01  3.34884630e-09  3.58639738e-09  1.60039260e-07  2.91811446e-08  6.10000000e-01 
 6.20000000e-01  4.59804923e-01  4.59804923e-01  3.22949423e-09  3.21674407e-09  4.59804923e-01  3.34884624e-09  3.58639732e-09  1.60039251e-07  2.91809314e-08  6.20000000e-01 
 6.30000000e-01  4.59804927e-01  4.59804927e-01  3.22949423e-09  3.21674407e-09  4.59804927e-01  3.34884624e-09  3.58639733e-09  1.60039261e-07  2.91808533e-08  6.30000000e-01 
 6.40000000e-01  4.59804942e-01  4.59804942e-01  3.22949423e-09  3.21674407e-09  4.59804942e-01  3.34884630e-09  3.58639738e-09  1.60039272e-07  2.91807893e-08  6.40000000e-01 
 6.50000000e-01  4.59804949e-01  4.59804949e-01  3.22949418e-09  3.21674407e-09  4.59804949e-01  3.34884624e-09  3.58639737e-09  1.60039282e-07  2.91808391e-08  6.50000000e-01 
 6.60000000e-01  4.59804925e-01  4.59804925e-01  3.22949417e-09  3.21674412e-09  4.59804925e-01  3.34884624e-09  3.58639738e-09  1.60039240e-07  2.91807751e-08  6.60000000e-01 
 6.70000000e-01  4.59804923e-01  4.59804923e-01  3.22949417e-09  3.21674405e-09  4.59804923e-01  3.34884624e-09  3.58639738e-09  1.60039251e-07  2.91806117e-08  6.70000000e-01 
 6.80000000e-01  4.59804935e-01  4.59804935e-01  3.22949423e-09  3.21674407e-09  4.59804935e-01  3.34884624e-09  3.58639738e-09  1.60039257e-07  2.91806543e-08  6.80000000e-01 
 6.90000000e-01  4.59804932e-01  4.59804932e-01  3.22949417e-09  3.21674407e-09  4.59804932e-01  3.34884624e-09  3.58639738e-09  1.60039253e-07  2.91805407e-08  6.90000000e-01 
 7.00000000e-01  4.59804931e-01  4.59804931e-01  3.22949417e-09  3.21674407e-09  4.59804931e-01  3.34884629e-09  3.58639738e-09  1.60039258e-07  2.91804696e-08  7.00000000e-01 
 7.10000000e-01  4.59804918e-01  4.59804918e-01  3.22949423e-09  3.21674412e-09  4.59804919e-01  3.34884629e-09  3.58639732e-09  1.60039249e-07  2.91803559e-08  7.10000000e-01 
 7.20000000e-01  4.59804926e-01  4.59804926e-01  3.22949423e-09  3.21674411e-09  4.59804926e-01  3.34884629e-09  3.58639739e-09  1.60039264e-07  2.91805335e-08  7.20000000e-01 
 7.30000000e-01  4.59804949e-01  4.59804949e-01  3.22949423e-09  3.21674407e-09  4.59804950e-01  3.34884624e-09  3.58639731e-09  1.60039294e-07  2.91803772e-08  7.30000000e-01 
 7.40000000e-01  4.59804912e-01  4.59804912e-01  3.22949417e-09  3.21674406e-09  4.59804912e-01  3.34884623e-09  3.58639739e-09  1.60039234e-07  2.91801996e-08  7.40000000e-01 
 7.50000000e-01  4.59804912e-01  4.59804912e-01  3.22949423e-09  3.21674406e-09  4.59804912e-01  3.34884629e-09  3.58639737e-09  1.60039226e-07  2.91801427e-08  7.50000000e-01 
 7.60000000e-01  4.59804944e-01  4.59804944e-01  3.22949423e-09  3.21674407e-09  4.59804944e-01  3.34884624e-09  3.58639732e-09  1.60039272e-07  2.91801356e-08  7.60000000e-01 
 7.70000000e-01  4.59804936e-01  4.59804936e-01  3.22949417e-09  3.21674412e-09  4.59804936e-01  3.34884624e-09  3.58639733e-09  1.60039278e-07  2.91800504e-08  7.70000000e-01 
 7.80000000e-01  4.59804938e-01  4.59804938e-01  3.22949423e-09  3.21674405e-09  4.59804938e-01  3.34884630e-09  3.58639738e-09  1.60039265e-07  2.91799580e-08  7.80000000e-01 
 7.90000000e-01  4.59804933e-01  4.59804933e-01  3.22949423e-09  3.21674407e-09  4.59804933e-01  3.34884630e-09  3.58639737e-09  1.60039256e-07  2.91799083e-08  7.90000000e-01 
 8.00000000e-01  4.59804931e-01  4.59804931e-01  3.22949423e-09  3.21674407e-09  4.59804931e-01  3.34884629e-09  3.58639738e-09  1.60039267e-07  2.91798941e-08  8.00000000e-01 
 8.10000000e-01  4.59804929e-01  4.59804929e-01  3.22949417e-09  3.21674407e-09  4.59804929e-01  3.34884624e-09  3.58639732e-09  1.60039259e-07  2.91798870e-08  8.10000000e-01 
 8.20000000e-01  4.59804935e-01  4.59804935e-01  3.22949417e-09  3.21674412e-09  4.59804935e-01  3.34884630e-09  3.58639733e-09  1.60039267e-07  2.91798514e-08  8.20000000e-01 
 8.30000000e-01  4.59804939e-01  4.59804939e-01  3.22949423e-09  3.21674411e-09  4.59804939e-01  3.34884630e-09  3.58639733e-09  1.60039278e-07  2.91797733e-08  8.30000000e-01 
 8.40000000e-01  4.59804934e-01  4.59804934e-01  3.22949417e-09  3.21674407e-09  4.59804934e-01  3.34884624e-09  3.58639738e-09  1.60039261e-07  2.91797662e-08  8.40000000e-01 
 8.50000000e-01  4.59804927e-01  4.59804927e-01  3.22949423e-09  3.21674407e-09  4.59804927e-01  3.34884624e-09  3.58639737e-09  1.60039262e-07  2.91796098e-08  8.50000000e-01 
 8.60000000e-01  4.59804922e-01  4.59804922e-01  3.22949423e-09  3.21674407e-09  4.59804922e-01  3.34884629e-09  3.58639738e-09  1.60039248e-07  2.91796241e-08  8.60000000e-01 
 8.70000000e-01  4.59804935e-01  4.59804935e-01  3.22949423e-09  3.21674407e-09  4.59804936e-01  3.34884624e-09  3.58639738e-09  1.60039269e-07  2.91794606e-08  8.70000000e-01 
 8.80000000e-01  4.59804956e-01  4.59804956e-01  3.22949423e-09  3.21674412e-09  4.59804956e-01  3.34884624e-09  3.58639732e-09  1.60039286e-07  2.91794890e-08  8.80000000e-01 
 8.90000000e-01  4.59804944e-01  4.59804944e-01  3.22949423e-09  3.21674405e-09  4.59804944e-01  3.34884630e-09  3.58639739e-09  1.60039279e-07  2.91794962e-08  8.90000000e-01 
 9.00000000e-01  4.59804938e-01  4.59804938e-01  3.22949423e-09  3.21674407e-09  4.59804938e-01  3.34884624e-09  3.58639737e-09  1.60039295e-07  2.91794606e-08  9.00000000e-01 
 9.10000000e-01  4.59804932e-01  4.59804932e-01  3.22949423e-09  3.21674412e-09  4.59804933e-01  3.34884624e-09  3.58639732e-09  1.60039267e-07  2.91793896e-08  9.10000000e-01 
 9.20000000e-01  4.59804920e-01  4.59804920e-01  3.22949423e-09  3.21674411e-09  4.59804920e-01  3.34884629e-09  3.58639733e-09  1.60039243e-07  2.91792404e-08  9.20000000e-01 
 9.30000000e-01  4.59804895e-01  4.59804895e-01  3.22949423e-09  3.21674407e-09  4.59804895e-01  3.34884623e-09  3.58639738e-09  1.60039208e-07  2.91791906e-08  9.30000000e-01 
 9.40000000e-01  4.59804921e-01  4.59804921e-01  3.22949423e-09  3.21674407e-09  4.59804921e-01  3.34884624e-09  3.58639737e-09  1.60039239e-07  2.91792475e-08  9.40000000e-01 
 9.50000000e-01  4.59804925e-01  4.59804925e-01  3.22949423e-09  3.21674407e-09  4.59804925e-01  3.34884629e-09  3.58639738e-09  1.60039238e-07  2.91791977e-08  9.50000000e-01 
 9.60000000e-01  4.59804925e-01  4.59804925e-01  3.22949417e-09  3.21674407e-09  4.59804925e-01  3.34884624e-09  3.58639738e-09  1.60039252e-07  2.91790911e-08  9.60000000e-01 
 9.70000000e-01  4.59804928e-01  4.59804928e-01  3.22949423e-09  3.21674412e-09  4.59804928e-01  3.34884624e-09  3.58639738e-09  1.60039259e-07  2.91790556e-08  9.70000000e-01 
 9.80000000e-01  4.59804951e-01  4.59804951e-01  3.22949423e-09  3.21674405e-09  4.59804951e-01  3.34884630e-09  3.58639738e-09  1.60039290e-07  2.91790485e-08  9.80000000e-01 
 9.90000000e-01  4.59804919e-01  4.59804919e-01  3.22949423e-09  3.21674407e-09  4.59804919e-01  3.34884624e-09  3.58639738e-09  1.60039235e-07  2.91788922e-08  9.90000000e-01 
 1.00000000e+00  4.59804940e-01  4.59804940e-01  3.22949423e-09  3.21674407e-09  4.59804940e-01  3.34884630e-09  3.58639738e-09  1.60039257e-07  2.91787572e-08  1.00000000e+00 
 1.01000000e+00  4.59804929e-01  4.59804930e-01  3.22949423e-09  3.21674412e-09  4.59804930e-01  3.34884624e-09  3.58639738e-09  1.60039255e-07  2.91787714e-08  1.01000000e+00 
 1.02000000e+00  4.59804921e-01  4.59804921e-01  3.22949423e-09  3.21674405e-09  4.59804921e-01  3.34884629e-09  3.58639738e-09  1.60039238e-07  2.91787075e-08  1.02000000e+00 
 1.03000000e+00  4.59804935e-01  4.59804935e-01  3.22949423e-09  3.21674407e-09  4.59804935e-01  3.34884630e-09  3.58639738e-09  1.60039257e-07  2.91785867e-08  1.03000000e+00 
 1.04000000e+00  4.59804943e-01  4.59804943e-01  3.22949423e-09  3.21674407e-09  4.59804944e-01  3.34884624e-09  3.58639738e-09  1.60039272e-07  2.91785796e-08  1.04000000e+00 
 1.05000000e+00  4.59804944e-01  4.59804944e-01  3.22949423e-09  3.21674407e-09  4.59804944e-01  3.34884630e-09  3.58639732e-09  1.60039278e-07  2.91785724e-08  1.05000000e+00 
 1.06000000e+00  4.59804930e-01  4.59804930e-01  3.22949417e-09  3.21674412e-09  4.59804930e-01  3.34884629e-09  3.58639733e-09  1.60039251e-07  2.91784943e-08  1.06000000e+00 
 1.07000000e+00  4.59804941e-01  4.59804941e-01  3.22949423e-09  3.21674411e-09  4.59804941e-01  3.34884630e-09  3.58639738e-09  1.60039278e-07  2.91783593e-08  1.07000000e+00 
 1.08000000e+00  4.59804922e-01  4.59804922e-01  3.22949423e-09  3.21674407e-09  4.59804922e-01  3.34884624e-09  3.58639737e-09  1.60039257e-07  2.91782669e-08  1.08000000e+00 
 1.09000000e+00  4.59804945e-01  4.59804945e-01  3.22949423e-09  3.21674407e-09  4.59804945e-01  3.34884630e-09  3.58639738e-09  1.60039297e-07  2.91783024e-08  1.09000000e+00 
 1.10000000e+00  4.59804940e-01  4.59804940e-01  3.22949423e-09  3.21674407e-09  4.59804940e-01  3.34884630e-09  3.58639738e-09  1.60039269e-07  2.91783948e-08  1.10000000e+00 
