 v-sweep         v(b0)           v(b1)           v(b2)           v(b3)           v(b4)           v(b5)           v(b6)           i(vbias)        i(viout)        v(vout)        
 0.00000000e+00  3.41989871e-09  3.21516741e-09  3.31543984e-09  4.57026380e-01  4.57026380e-01  4.57026380e-01  4.57026380e-01  1.56649569e-07  1.72889976e-07  0.00000000e+00 
 1.00000000e-02  3.41989875e-09  3.21516738e-09  3.31543988e-09  4.57026367e-01  4.57026366e-01  4.57026367e-01  4.57026367e-01  1.56649562e-07  1.72889388e-07  1.00000000e-02 
 2.00000000e-02  3.41989873e-09  3.21516740e-09  3.31543988e-09  4.57026358e-01  4.57026358e-01  4.57026358e-01  4.57026358e-01  1.56649569e-07  1.72888984e-07  2.00000000e-02 
 3.00000000e-02  3.41989875e-09  3.21516738e-09  3.31543988e-09  4.57026368e-01  4.57026368e-01  4.57026368e-01  4.57026368e-01  1.56649567e-07  1.72888555e-07  3.00000000e-02 
 4.00000000e-02  3.41989868e-09  3.21516734e-09  3.31543988e-09  4.57026385e-01  4.57026385e-01  4.57026385e-01  4.57026385e-01  1.56649601e-07  1.72888302e-07  4.00000000e-02 
 5.00000000e-02  3.41989875e-09  3.21516739e-09  3.31543988e-09  4.57026360e-01  4.57026360e-01  4.57026360e-01  4.57026360e-01  1.56649565e-07  1.72887796e-07  5.00000000e-02 
 6.00000000e-02  3.41989868e-09  3.21516738e-09  3.31543988e-09  4.57026372e-01  4.57026372e-01  4.57026372e-01  4.57026372e-01  1.56649569e-07  1.72887387e-07  6.00000000e-02 
 7.00000000e-02  3.41989876e-09  3.21516734e-09  3.31543988e-09  4.57026389e-01  4.57026389e-01  4.57026389e-01  4.57026389e-01  1.56649591e-07  1.72887185e-07  7.00000000e-02 
 8.00000000e-02  3.41989868e-09  3.21516739e-09  3.31543988e-09  4.57026374e-01  4.57026374e-01  4.57026374e-01  4.57026374e-01  1.56649596e-07  1.72886738e-07  8.00000000e-02 
 9.00000000e-02  3.41989875e-09  3.21516738e-09  3.31543988e-09  4.57026362e-01  4.57026362e-01  4.57026362e-01  4.57026362e-01  1.56649558e-07  1.72886376e-07  9.00000000e-02 
 1.00000000e-01  3.41989874e-09  3.21516734e-09  3.31543988e-09  4.57026381e-01  4.57026381e-01  4.57026381e-01  4.57026381e-01  1.56649585e-07  1.72885972e-07  1.00000000e-01 
 1.10000000e-01  3.41989875e-09  3.21516733e-09  3.31543988e-09  4.57026370e-01  4.57026370e-01  4.57026370e-01  4.57026370e-01  1.56649559e-07  1.72885678e-07  1.10000000e-01 
 1.20000000e-01  3.41989873e-09  3.21516739e-09  3.31543988e-09  4.57026360e-01  4.57026360e-01  4.57026360e-01  4.57026360e-01  1.56649559e-07  1.72885364e-07  1.20000000e-01 
 1.30000000e-01  3.41989870e-09  3.21516738e-09  3.31543988e-09  4.57026360e-01  4.57026360e-01  4.57026360e-01  4.57026360e-01  1.56649543e-07  1.72885064e-07  1.30000000e-01 
 1.40000000e-01  3.41989869e-09  3.21516740e-09  3.31543988e-09  4.57026363e-01  4.57026362e-01  4.57026362e-01  4.57026363e-01  1.56649556e-07  1.72884810e-07  1.40000000e-01 
 1.50000000e-01  3.41989869e-09  3.21516738e-09  3.31543988e-09  4.57026353e-01  4.57026353e-01  4.57026353e-01  4.57026353e-01  1.56649537e-07  1.72884500e-07  1.50000000e-01 
 1.60000000e-01  3.41989875e-09  3.21516740e-09  3.31543988e-09  4.57026363e-01  4.57026363e-01  4.57026363e-01  4.57026363e-01  1.56649575e-07  1.72884327e-07  1.60000000e-01 
 1.70000000e-01  3.41989874e-09  3.21516738e-09  3.31543988e-09  4.57026381e-01  4.57026381e-01  4.57026381e-01  4.57026381e-01  1.56649593e-07  1.72884189e-07  1.70000000e-01 
 1.80000000e-01  3.41989869e-09  3.21516739e-09  3.31543988e-09  4.57026324e-01  4.57026324e-01  4.57026324e-01  4.57026324e-01  1.56649505e-07  1.72883759e-07  1.80000000e-01 
 1.90000000e-01  3.41989869e-09  3.21516738e-09  3.31543988e-09  4.57026387e-01  4.57026387e-01  4.57026387e-01  4.57026387e-01  1.56649600e-07  1.72883771e-07  1.90000000e-01 
 2.00000000e-01  3.41989869e-09  3.21516740e-09  3.31543988e-09  4.57026371e-01  4.57026371e-01  4.57026371e-01  4.57026371e-01  1.56649563e-07  1.72883407e-07  2.00000000e-01 
 2.10000000e-01  3.41989869e-09  3.21516738e-09  3.31543988e-09  4.57026386e-01  4.57026386e-01  4.57026386e-01  4.57026386e-01  1.56649589e-07  1.72883249e-07  2.10000000e-01 
 2.20000000e-01  3.41989869e-09  3.21516740e-09  3.31543988e-09  4.57026374e-01  4.57026373e-01  4.57026373e-01  4.57026374e-01  1.56649591e-07  1.72883011e-07  2.20000000e-01 
 2.30000000e-01  3.41989869e-09  3.21516738e-09  3.31543988e-09  4.57026363e-01  4.57026363e-01  4.57026363e-01  4.57026363e-01  1.56649579e-07  1.72882638e-07  2.30000000e-01 
 2.40000000e-01  3.41989875e-09  3.21516740e-09  3.31543988e-09  4.57026385e-01  4.57026385e-01  4.57026385e-01  4.57026385e-01  1.56649593e-07  1.72882693e-07  2.40000000e-01 
 2.50000000e-01  3.41989874e-09  3.21516738e-09  3.31543988e-09  4.57026361e-01  4.57026361e-01  4.57026361e-01  4.57026361e-01  1.56649556e-07  1.72882229e-07  2.50000000e-01 
 2.60000000e-01  3.41989876e-09  3.21516740e-09  3.31543988e-09  4.57026377e-01  4.57026377e-01  4.57026377e-01  4.57026377e-01  1.56649595e-07  1.72882210e-07  2.60000000e-01 
 2.70000000e-01  3.41989874e-09  3.21516738e-09  3.31543988e-09  4.57026364e-01  4.57026364e-01  4.57026364e-01  4.57026364e-01  1.56649560e-07  1.72881943e-07  2.70000000e-01 
 2.80000000e-01  3.41989876e-09  3.21516734e-09  3.31543988e-09  4.57026394e-01  4.57026393e-01  4.57026394e-01  4.57026394e-01  1.56649587e-07  1.72881981e-07  2.80000000e-01 
 2.90000000e-01  3.41989873e-09  3.21516739e-09  3.31543988e-09  4.57026357e-01  4.57026357e-01  4.57026357e-01  4.57026357e-01  1.56649550e-07  1.72881542e-07  2.90000000e-01 
 3.00000000e-01  3.41989876e-09  3.21516738e-09  3.31543988e-09  4.57026376e-01  4.57026376e-01  4.57026376e-01  4.57026376e-01  1.56649592e-07  1.72881482e-07  3.00000000e-01 
 3.10000000e-01  3.41989874e-09  3.21516740e-09  3.31543988e-09  4.57026360e-01  4.57026360e-01  4.57026360e-01  4.57026360e-01  1.56649551e-07  1.72881204e-07  3.10000000e-01 
 3.20000000e-01  3.41989876e-09  3.21516738e-09  3.31543988e-09  4.57026387e-01  4.57026387e-01  4.57026387e-01  4.57026387e-01  1.56649593e-07  1.72881169e-07  3.20000000e-01 
 3.30000000e-01  3.41989874e-09  3.21516740e-09  3.31543988e-09  4.57026381e-01  4.57026381e-01  4.57026381e-01  4.57026381e-01  1.56649610e-07  1.72880952e-07  3.30000000e-01 
 3.40000000e-01  3.41989876e-09  3.21516738e-09  3.31543988e-09  4.57026376e-01  4.57026376e-01  4.57026376e-01  4.57026376e-01  1.56649605e-07  1.72880799e-07  3.40000000e-01 
 3.50000000e-01  3.41989873e-09  3.21516739e-09  3.31543988e-09  4.57026341e-01  4.57026341e-01  4.57026341e-01  4.57026341e-01  1.56649538e-07  1.72880529e-07  3.50000000e-01 
 3.60000000e-01  3.41989870e-09  3.21516738e-09  3.31543988e-09  4.57026371e-01  4.57026370e-01  4.57026370e-01  4.57026370e-01  1.56649584e-07  1.72880597e-07  3.60000000e-01 
 3.70000000e-01  3.41989875e-09  3.21516734e-09  3.31543988e-09  4.57026359e-01  4.57026359e-01  4.57026359e-01  4.57026359e-01  1.56649556e-07  1.72880174e-07  3.70000000e-01 
 3.80000000e-01  3.41989874e-09  3.21516739e-09  3.31543988e-09  4.57026397e-01  4.57026397e-01  4.57026397e-01  4.57026397e-01  1.56649606e-07  1.72880291e-07  3.80000000e-01 
 3.90000000e-01  3.41989870e-09  3.21516738e-09  3.31543988e-09  4.57026377e-01  4.57026377e-01  4.57026377e-01  4.57026377e-01  1.56649585e-07  1.72880064e-07  3.90000000e-01 
 4.00000000e-01  3.41989875e-09  3.21516734e-09  3.31543988e-09  4.57026393e-01  4.57026393e-01  4.57026393e-01  4.57026393e-01  1.56649596e-07  1.72879997e-07  4.00000000e-01 
 4.10000000e-01  3.41989874e-09  3.21516739e-09  3.31543988e-09  4.57026384e-01  4.57026384e-01  4.57026384e-01  4.57026384e-01  1.56649587e-07  1.72879819e-07  4.10000000e-01 
 4.20000000e-01  3.41989875e-09  3.21516738e-09  3.31543988e-09  4.57026348e-01  4.57026348e-01  4.57026348e-01  4.57026348e-01  1.56649556e-07  1.72879499e-07  4.20000000e-01 
 4.30000000e-01  3.41989868e-09  3.21516740e-09  3.31543988e-09  4.57026385e-01  4.57026385e-01  4.57026385e-01  4.57026385e-01  1.56649597e-07  1.72879595e-07  4.30000000e-01 
 4.40000000e-01  3.41989870e-09  3.21516738e-09  3.31543988e-09  4.57026374e-01  4.57026374e-01  4.57026374e-01  4.57026374e-01  1.56649576e-07  1.72879414e-07  4.40000000e-01 
 4.50000000e-01  3.41989875e-09  3.21516734e-09  3.31543988e-09  4.57026361e-01  4.57026361e-01  4.57026361e-01  4.57026361e-01  1.56649580e-07  1.72879169e-07  4.50000000e-01 
 4.60000000e-01  3.41989874e-09  3.21516733e-09  3.31543988e-09  4.57026389e-01  4.57026389e-01  4.57026389e-01  4.57026389e-01  1.56649613e-07  1.72879229e-07  4.60000000e-01 
 4.70000000e-01  3.41989870e-09  3.21516733e-09  3.31543988e-09  4.57026375e-01  4.57026375e-01  4.57026375e-01  4.57026375e-01  1.56649591e-07  1.72878824e-07  4.70000000e-01 
 4.80000000e-01  3.41989869e-09  3.21516739e-09  3.31543988e-09  4.57026353e-01  4.57026353e-01  4.57026353e-01  4.57026353e-01  1.56649542e-07  1.72878693e-07  4.80000000e-01 
 4.90000000e-01  3.41989869e-09  3.21516738e-09  3.31543988e-09  4.57026367e-01  4.57026367e-01  4.57026367e-01  4.57026367e-01  1.56649558e-07  1.72878604e-07  4.90000000e-01 
 5.00000000e-01  3.41989869e-09  3.21516734e-09  3.31543988e-09  4.57026372e-01  4.57026371e-01  4.57026371e-01  4.57026371e-01  1.56649578e-07  1.72878455e-07  5.00000000e-01 
 5.10000000e-01  3.41989869e-09  3.21516739e-09  3.31543988e-09  4.57026390e-01  4.57026390e-01  4.57026390e-01  4.57026390e-01  1.56649603e-07  1.72878465e-07  5.10000000e-01 
 5.20000000e-01  3.41989875e-09  3.21516738e-09  3.31543988e-09  4.57026370e-01  4.57026369e-01  4.57026369e-01  4.57026370e-01  1.56649583e-07  1.72878192e-07  5.20000000e-01 
 5.30000000e-01  3.41989873e-09  3.21516740e-09  3.31543988e-09  4.57026355e-01  4.57026355e-01  4.57026355e-01  4.57026355e-01  1.56649558e-07  1.72878089e-07  5.30000000e-01 
 5.40000000e-01  3.41989870e-09  3.21516738e-09  3.31543988e-09  4.57026352e-01  4.57026352e-01  4.57026352e-01  4.57026352e-01  1.56649545e-07  1.72878032e-07  5.40000000e-01 
 5.50000000e-01  3.41989875e-09  3.21516740e-09  3.31543988e-09  4.57026400e-01  4.57026400e-01  4.57026400e-01  4.57026400e-01  1.56649604e-07  1.72877943e-07  5.50000000e-01 
 5.60000000e-01  3.41989874e-09  3.21516738e-09  3.31543988e-09  4.57026363e-01  4.57026363e-01  4.57026363e-01  4.57026363e-01  1.56649541e-07  1.72877684e-07  5.60000000e-01 
 5.70000000e-01  3.41989870e-09  3.21516734e-09  3.31543988e-09  4.57026394e-01  4.57026394e-01  4.57026394e-01  4.57026394e-01  1.56649604e-07  1.72877709e-07  5.70000000e-01 
 5.80000000e-01  3.41989875e-09  3.21516739e-09  3.31543988e-09  4.57026369e-01  4.57026369e-01  4.57026369e-01  4.57026369e-01  1.56649568e-07  1.72877456e-07  5.80000000e-01 
 5.90000000e-01  3.41989868e-09  3.21516738e-09  3.31543988e-09  4.57026381e-01  4.57026381e-01  4.57026381e-01  4.57026381e-01  1.56649584e-07  1.72877414e-07  5.90000000e-01 
 6.00000000e-01  3.41989870e-09  3.21516734e-09  3.31543988e-09  4.57026357e-01  4.57026357e-01  4.57026357e-01  4.57026357e-01  1.56649551e-07  1.72877208e-07  6.00000000e-01 
 6.10000000e-01  3.41989875e-09  3.21516739e-09  3.31543988e-09  4.57026379e-01  4.57026379e-01  4.57026379e-01  4.57026379e-01  1.56649596e-07  1.72877186e-07  6.10000000e-01 
 6.20000000e-01  3.41989874e-09  3.21516738e-09  3.31543988e-09  4.57026405e-01  4.57026405e-01  4.57026405e-01  4.57026405e-01  1.56649629e-07  1.72877130e-07  6.20000000e-01 
 6.30000000e-01  3.41989875e-09  3.21516734e-09  3.31543988e-09  4.57026354e-01  4.57026354e-01  4.57026354e-01  4.57026354e-01  1.56649537e-07  1.72876803e-07  6.30000000e-01 
 6.40000000e-01  3.41989874e-09  3.21516739e-09  3.31543988e-09  4.57026387e-01  4.57026387e-01  4.57026387e-01  4.57026387e-01  1.56649611e-07  1.72876781e-07  6.40000000e-01 
 6.50000000e-01  3.41989870e-09  3.21516738e-09  3.31543988e-09  4.57026382e-01  4.57026382e-01  4.57026382e-01  4.57026382e-01  1.56649593e-07  1.72876675e-07  6.50000000e-01 
 6.60000000e-01  3.41989875e-09  3.21516740e-09  3.31543988e-09  4.57026378e-01  4.57026378e-01  4.57026378e-01  4.57026378e-01  1.56649581e-07  1.72876540e-07  6.60000000e-01 
 6.70000000e-01  3.41989874e-09  3.21516738e-09  3.31543988e-09  4.57026361e-01  4.57026361e-01  4.57026361e-01  4.57026361e-01  1.56649564e-07  1.72876263e-07  6.70000000e-01 
 6.80000000e-01  3.41989875e-09  3.21516740e-09  3.31543988e-09  4.57026371e-01  4.57026371e-01  4.57026371e-01  4.57026371e-01  1.56649573e-07  1.72876170e-07  6.80000000e-01 
 6.90000000e-01  3.41989874e-09  3.21516738e-09  3.31543988e-09  4.57026377e-01  4.57026377e-01  4.57026377e-01  4.57026377e-01  1.56649582e-07  1.72875957e-07  6.90000000e-01 
 7.00000000e-01  3.41989875e-09  3.21516740e-09  3.31543988e-09  4.57026366e-01  4.57026366e-01  4.57026366e-01  4.57026366e-01  1.56649565e-07  1.72875879e-07  7.00000000e-01 
 7.10000000e-01  3.41989874e-09  3.21516738e-09  3.31543988e-09  4.57026386e-01  4.57026386e-01  4.57026386e-01  4.57026386e-01  1.56649600e-07  1.72875708e-07  7.10000000e-01 
 7.20000000e-01  3.41989875e-09  3.21516740e-09  3.31543988e-09  4.57026363e-01  4.57026363e-01  4.57026363e-01  4.57026363e-01  1.56649564e-07  1.72875573e-07  7.20000000e-01 
 7.30000000e-01  3.41989873e-09  3.21516738e-09  3.31543988e-09  4.57026355e-01  4.57026355e-01  4.57026355e-01  4.57026355e-01  1.56649555e-07  1.72875417e-07  7.30000000e-01 
 7.40000000e-01  3.41989870e-09  3.21516740e-09  3.31543988e-09  4.57026372e-01  4.57026372e-01  4.57026372e-01  4.57026372e-01  1.56649579e-07  1.72875382e-07  7.40000000e-01 
 7.50000000e-01  3.41989875e-09  3.21516738e-09  3.31543988e-09  4.57026348e-01  4.57026348e-01  4.57026348e-01  4.57026348e-01  1.56649543e-07  1.72875176e-07  7.50000000e-01 
 7.60000000e-01  3.41989874e-09  3.21516740e-09  3.31543988e-09  4.57026389e-01  4.57026389e-01  4.57026389e-01  4.57026389e-01  1.56649594e-07  1.72875112e-07  7.60000000e-01 
 7.70000000e-01  3.41989875e-09  3.21516738e-09  3.31543988e-09  4.57026351e-01  4.57026351e-01  4.57026351e-01  4.57026351e-01  1.56649536e-07  1.72874877e-07  7.70000000e-01 
 7.80000000e-01  3.41989874e-09  3.21516740e-09  3.31543988e-09  4.57026374e-01  4.57026374e-01  4.57026374e-01  4.57026374e-01  1.56649583e-07  1.72874834e-07  7.80000000e-01 
 7.90000000e-01  3.41989875e-09  3.21516738e-09  3.31543988e-09  4.57026342e-01  4.57026342e-01  4.57026342e-01  4.57026342e-01  1.56649545e-07  1.72874536e-07  7.90000000e-01 
 8.00000000e-01  3.41989874e-09  3.21516740e-09  3.31543988e-09  4.57026381e-01  4.57026381e-01  4.57026381e-01  4.57026381e-01  1.56649581e-07  1.72874515e-07  8.00000000e-01 
 8.10000000e-01  3.41989876e-09  3.21516738e-09  3.31543988e-09  4.57026377e-01  4.57026377e-01  4.57026377e-01  4.57026377e-01  1.56649591e-07  1.72874294e-07  8.10000000e-01 
 8.20000000e-01  3.41989868e-09  3.21516740e-09  3.31543988e-09  4.57026378e-01  4.57026378e-01  4.57026378e-01  4.57026378e-01  1.56649586e-07  1.72874252e-07  8.20000000e-01 
 8.30000000e-01  3.41989870e-09  3.21516738e-09  3.31543988e-09  4.57026396e-01  4.57026396e-01  4.57026396e-01  4.57026396e-01  1.56649602e-07  1.72874174e-07  8.30000000e-01 
 8.40000000e-01  3.41989869e-09  3.21516734e-09  3.31543988e-09  4.57026357e-01  4.57026357e-01  4.57026357e-01  4.57026357e-01  1.56649554e-07  1.72873897e-07  8.40000000e-01 
 8.50000000e-01  3.41989869e-09  3.21516739e-09  3.31543988e-09  4.57026382e-01  4.57026382e-01  4.57026382e-01  4.57026382e-01  1.56649592e-07  1.72873797e-07  8.50000000e-01 
 8.60000000e-01  3.41989875e-09  3.21516738e-09  3.31543988e-09  4.57026383e-01  4.57026383e-01  4.57026383e-01  4.57026383e-01  1.56649592e-07  1.72873719e-07  8.60000000e-01 
 8.70000000e-01  3.41989873e-09  3.21516734e-09  3.31543988e-09  4.57026360e-01  4.57026360e-01  4.57026360e-01  4.57026360e-01  1.56649556e-07  1.72873399e-07  8.70000000e-01 
 8.80000000e-01  3.41989870e-09  3.21516739e-09  3.31543988e-09  4.57026352e-01  4.57026352e-01  4.57026352e-01  4.57026352e-01  1.56649546e-07  1.72873250e-07  8.80000000e-01 
 8.90000000e-01  3.41989875e-09  3.21516738e-09  3.31543988e-09  4.57026385e-01  4.57026385e-01  4.57026385e-01  4.57026385e-01  1.56649597e-07  1.72873271e-07  8.90000000e-01 
 9.00000000e-01  3.41989874e-09  3.21516740e-09  3.31543988e-09  4.57026373e-01  4.57026373e-01  4.57026373e-01  4.57026373e-01  1.56649577e-07  1.72873030e-07  9.00000000e-01 
 9.10000000e-01  3.41989870e-09  3.21516738e-09  3.31543988e-09  4.57026384e-01  4.57026383e-01  4.57026384e-01  4.57026384e-01  1.56649587e-07  1.72872944e-07  9.10000000e-01 
 9.20000000e-01  3.41989875e-09  3.21516740e-09  3.31543988e-09  4.57026383e-01  4.57026383e-01  4.57026383e-01  4.57026383e-01  1.56649599e-07  1.72872817e-07  9.20000000e-01 
 9.30000000e-01  3.41989868e-09  3.21516738e-09  3.31543988e-09  4.57026369e-01  4.57026369e-01  4.57026369e-01  4.57026369e-01  1.56649570e-07  1.72872632e-07  9.30000000e-01 
 9.40000000e-01  3.41989875e-09  3.21516740e-09  3.31543988e-09  4.57026359e-01  4.57026359e-01  4.57026359e-01  4.57026359e-01  1.56649566e-07  1.72872404e-07  9.40000000e-01 
 9.50000000e-01  3.41989874e-09  3.21516738e-09  3.31543988e-09  4.57026388e-01  4.57026388e-01  4.57026388e-01  4.57026388e-01  1.56649595e-07  1.72872340e-07  9.50000000e-01 
 9.60000000e-01  3.41989870e-09  3.21516740e-09  3.31543988e-09  4.57026372e-01  4.57026372e-01  4.57026372e-01  4.57026372e-01  1.56649571e-07  1.72872191e-07  9.60000000e-01 
 9.70000000e-01  3.41989875e-09  3.21516738e-09  3.31543988e-09  4.57026390e-01  4.57026389e-01  4.57026390e-01  4.57026390e-01  1.56649601e-07  1.72872042e-07  9.70000000e-01 
 9.80000000e-01  3.41989874e-09  3.21516740e-09  3.31543988e-09  4.57026372e-01  4.57026372e-01  4.57026372e-01  4.57026372e-01  1.56649579e-07  1.72871843e-07  9.80000000e-01 
 9.90000000e-01  3.41989870e-09  3.21516744e-09  3.31543988e-09  4.57026375e-01  4.57026375e-01  4.57026375e-01  4.57026375e-01  1.56649594e-07  1.72871744e-07  9.90000000e-01 
 1.00000000e+00  3.41989869e-09  3.21516738e-09  3.31543988e-09  4.57026360e-01  4.57026360e-01  4.57026360e-01  4.57026360e-01  1.56649555e-07  1.72871353e-07  1.00000000e+00 
 1.01000000e+00  3.41989869e-09  3.21516740e-09  3.31543988e-09  4.57026363e-01  4.57026363e-01  4.57026363e-01  4.57026363e-01  1.56649557e-07  1.72871275e-07  1.01000000e+00 
 1.02000000e+00  3.41989875e-09  3.21516738e-09  3.31543988e-09  4.57026374e-01  4.57026374e-01  4.57026374e-01  4.57026374e-01  1.56649589e-07  1.72871175e-07  1.02000000e+00 
 1.03000000e+00  3.41989874e-09  3.21516734e-09  3.31543988e-09  4.57026384e-01  4.57026384e-01  4.57026384e-01  4.57026384e-01  1.56649589e-07  1.72870990e-07  1.03000000e+00 
 1.04000000e+00  3.41989870e-09  3.21516739e-09  3.31543988e-09  4.57026350e-01  4.57026350e-01  4.57026350e-01  4.57026350e-01  1.56649552e-07  1.72870756e-07  1.04000000e+00 
 1.05000000e+00  3.41989875e-09  3.21516738e-09  3.31543988e-09  4.57026363e-01  4.57026363e-01  4.57026363e-01  4.57026363e-01  1.56649564e-07  1.72870571e-07  1.05000000e+00 
 1.06000000e+00  3.41989874e-09  3.21516740e-09  3.31543988e-09  4.57026370e-01  4.57026370e-01  4.57026370e-01  4.57026370e-01  1.56649564e-07  1.72870500e-07  1.06000000e+00 
 1.07000000e+00  3.41989876e-09  3.21516738e-09  3.31543988e-09  4.57026378e-01  4.57026378e-01  4.57026378e-01  4.57026378e-01  1.56649585e-07  1.72870287e-07  1.07000000e+00 
 1.08000000e+00  3.41989874e-09  3.21516740e-09  3.31543988e-09  4.57026398e-01  4.57026398e-01  4.57026398e-01  4.57026398e-01  1.56649608e-07  1.72870237e-07  1.08000000e+00 
 1.09000000e+00  3.41989870e-09  3.21516744e-09  3.31543988e-09  4.57026385e-01  4.57026385e-01  4.57026385e-01  4.57026385e-01  1.56649591e-07  1.72870052e-07  1.09000000e+00 
 1.10000000e+00  3.41989869e-09  3.21516739e-09  3.31543988e-09  4.57026388e-01  4.57026388e-01  4.57026388e-01  4.57026388e-01  1.56649601e-07  1.72869782e-07  1.10000000e+00 
