 v-sweep         v(b0)           v(b1)           v(b2)           v(b3)           v(b4)           v(b5)           v(b6)           i(vbias)        i(viout)        v(vout)        
 0.00000000e+00  4.56743560e-01  3.20059237e-09  3.30973298e-09  3.40028754e-09  4.56743560e-01  3.20309836e-09  4.56743560e-01  1.54612819e-07  1.15603763e-07  0.00000000e+00 
 1.00000000e-02  4.56743545e-01  3.20059240e-09  3.30973301e-09  3.40028758e-09  4.56743545e-01  3.20309840e-09  4.56743545e-01  1.54612812e-07  1.15603424e-07  1.00000000e-02 
 2.00000000e-02  4.56743577e-01  3.20059241e-09  3.30973302e-09  3.40028752e-09  4.56743577e-01  3.20309840e-09  4.56743577e-01  1.54612843e-07  1.15602956e-07  2.00000000e-02 
 3.00000000e-02  4.56743567e-01  3.20059241e-09  3.30973302e-09  3.40028758e-09  4.56743567e-01  3.20309834e-09  4.56743567e-01  1.54612816e-07  1.15602722e-07  3.00000000e-02 
 4.00000000e-02  4.56743558e-01  3.20059240e-09  3.30973296e-09  3.40028758e-09  4.56743558e-01  3.20309840e-09  4.56743558e-01  1.54612813e-07  1.15602159e-07  4.00000000e-02 
 5.00000000e-02  4.56743565e-01  3.20059241e-09  3.30973303e-09  3.40028758e-09  4.56743565e-01  3.20309840e-09  4.56743565e-01  1.54612830e-07  1.15601853e-07  5.00000000e-02 
 6.00000000e-02  4.56743567e-01  3.20059241e-09  3.30973301e-09  3.40028752e-09  4.56743567e-01  3.20309834e-09  4.56743567e-01  1.54612817e-07  1.15601483e-07  6.00000000e-02 
 7.00000000e-02  4.56743595e-01  3.20059241e-09  3.30973296e-09  3.40028758e-09  4.56743595e-01  3.20309840e-09  4.56743595e-01  1.54612868e-07  1.15601286e-07  7.00000000e-02 
 8.00000000e-02  4.56743579e-01  3.20059241e-09  3.30973297e-09  3.40028758e-09  4.56743579e-01  3.20309834e-09  4.56743579e-01  1.54612847e-07  1.15600976e-07  8.00000000e-02 
 9.00000000e-02  4.56743582e-01  3.20059241e-09  3.30973295e-09  3.40028758e-09  4.56743582e-01  3.20309834e-09  4.56743582e-01  1.54612854e-07  1.15600653e-07  9.00000000e-02 
 1.00000000e-01  4.56743585e-01  3.20059241e-09  3.30973303e-09  3.40028758e-09  4.56743585e-01  3.20309840e-09  4.56743585e-01  1.54612863e-07  1.15600311e-07  1.00000000e-01 
 1.10000000e-01  4.56743562e-01  3.20059241e-09  3.30973295e-09  3.40028758e-09  4.56743562e-01  3.20309840e-09  4.56743562e-01  1.54612829e-07  1.15599994e-07  1.10000000e-01 
 1.20000000e-01  4.56743541e-01  3.20059240e-09  3.30973297e-09  3.40028758e-09  4.56743541e-01  3.20309834e-09  4.56743541e-01  1.54612791e-07  1.15599780e-07  1.20000000e-01 
 1.30000000e-01  4.56743551e-01  3.20059240e-09  3.30973296e-09  3.40028758e-09  4.56743551e-01  3.20309834e-09  4.56743551e-01  1.54612813e-07  1.15599542e-07  1.30000000e-01 
 1.40000000e-01  4.56743579e-01  3.20059241e-09  3.30973297e-09  3.40028758e-09  4.56743579e-01  3.20309834e-09  4.56743579e-01  1.54612840e-07  1.15599523e-07  1.40000000e-01 
 1.50000000e-01  4.56743576e-01  3.20059241e-09  3.30973297e-09  3.40028758e-09  4.56743576e-01  3.20309840e-09  4.56743576e-01  1.54612839e-07  1.15599143e-07  1.50000000e-01 
 1.60000000e-01  4.56743549e-01  3.20059240e-09  3.30973302e-09  3.40028758e-09  4.56743549e-01  3.20309840e-09  4.56743549e-01  1.54612786e-07  1.15598805e-07  1.60000000e-01 
 1.70000000e-01  4.56743568e-01  3.20059241e-09  3.30973295e-09  3.40028758e-09  4.56743568e-01  3.20309840e-09  4.56743568e-01  1.54612846e-07  1.15598706e-07  1.70000000e-01 
 1.80000000e-01  4.56743588e-01  3.20059241e-09  3.30973297e-09  3.40028752e-09  4.56743588e-01  3.20309840e-09  4.56743588e-01  1.54612859e-07  1.15598434e-07  1.80000000e-01 
 1.90000000e-01  4.56743577e-01  3.20059241e-09  3.30973301e-09  3.40028758e-09  4.56743577e-01  3.20309834e-09  4.56743577e-01  1.54612851e-07  1.15598249e-07  1.90000000e-01 
 2.00000000e-01  4.56743582e-01  3.20059241e-09  3.30973302e-09  3.40028758e-09  4.56743582e-01  3.20309840e-09  4.56743582e-01  1.54612851e-07  1.15598178e-07  2.00000000e-01 
 2.10000000e-01  4.56743544e-01  3.20059240e-09  3.30973301e-09  3.40028758e-09  4.56743544e-01  3.20309840e-09  4.56743544e-01  1.54612802e-07  1.15597940e-07  2.10000000e-01 
 2.20000000e-01  4.56743558e-01  3.20059240e-09  3.30973296e-09  3.40028758e-09  4.56743558e-01  3.20309834e-09  4.56743558e-01  1.54612816e-07  1.15597706e-07  2.20000000e-01 
 2.30000000e-01  4.56743580e-01  3.20059241e-09  3.30973297e-09  3.40028758e-09  4.56743580e-01  3.20309840e-09  4.56743580e-01  1.54612837e-07  1.15597755e-07  2.30000000e-01 
 2.40000000e-01  4.56743584e-01  3.20059241e-09  3.30973301e-09  3.40028758e-09  4.56743584e-01  3.20309834e-09  4.56743584e-01  1.54612856e-07  1.15597555e-07  2.40000000e-01 
 2.50000000e-01  4.56743578e-01  3.20059241e-09  3.30973302e-09  3.40028758e-09  4.56743578e-01  3.20309834e-09  4.56743578e-01  1.54612838e-07  1.15597377e-07  2.50000000e-01 
 2.60000000e-01  4.56743592e-01  3.20059241e-09  3.30973302e-09  3.40028758e-09  4.56743592e-01  3.20309834e-09  4.56743592e-01  1.54612871e-07  1.15597341e-07  2.60000000e-01 
 2.70000000e-01  4.56743558e-01  3.20059240e-09  3.30973296e-09  3.40028758e-09  4.56743558e-01  3.20309840e-09  4.56743558e-01  1.54612822e-07  1.15597066e-07  2.70000000e-01 
 2.80000000e-01  4.56743581e-01  3.20059241e-09  3.30973297e-09  3.40028758e-09  4.56743581e-01  3.20309840e-09  4.56743581e-01  1.54612848e-07  1.15596970e-07  2.80000000e-01 
 2.90000000e-01  4.56743592e-01  3.20059241e-09  3.30973295e-09  3.40028758e-09  4.56743592e-01  3.20309840e-09  4.56743592e-01  1.54612865e-07  1.15596805e-07  2.90000000e-01 
 3.00000000e-01  4.56743574e-01  3.20059241e-09  3.30973303e-09  3.40028758e-09  4.56743573e-01  3.20309834e-09  4.56743574e-01  1.54612833e-07  1.15596738e-07  3.00000000e-01 
 3.10000000e-01  4.56743557e-01  3.20059240e-09  3.30973295e-09  3.40028758e-09  4.56743557e-01  3.20309834e-09  4.56743557e-01  1.54612828e-07  1.15596510e-07  3.10000000e-01 
 3.20000000e-01  4.56743583e-01  3.20059235e-09  3.30973297e-09  3.40028758e-09  4.56743583e-01  3.20309840e-09  4.56743583e-01  1.54612861e-07  1.15596418e-07  3.20000000e-01 
 3.30000000e-01  4.56743599e-01  3.20059241e-09  3.30973295e-09  3.40028752e-09  4.56743599e-01  3.20309834e-09  4.56743599e-01  1.54612874e-07  1.15596347e-07  3.30000000e-01 
 3.40000000e-01  4.56743568e-01  3.20059241e-09  3.30973303e-09  3.40028758e-09  4.56743568e-01  3.20309840e-09  4.56743568e-01  1.54612833e-07  1.15596166e-07  3.40000000e-01 
 3.50000000e-01  4.56743589e-01  3.20059241e-09  3.30973295e-09  3.40028758e-09  4.56743589e-01  3.20309834e-09  4.56743589e-01  1.54612845e-07  1.15596190e-07  3.50000000e-01 
 3.60000000e-01  4.56743570e-01  3.20059241e-09  3.30973297e-09  3.40028758e-09  4.56743570e-01  3.20309840e-09  4.56743570e-01  1.54612841e-07  1.15595917e-07  3.60000000e-01 
 3.70000000e-01  4.56743564e-01  3.20059241e-09  3.30973296e-09  3.40028758e-09  4.56743564e-01  3.20309834e-09  4.56743564e-01  1.54612820e-07  1.15595842e-07  3.70000000e-01 
 3.80000000e-01  4.56743582e-01  3.20059241e-09  3.30973302e-09  3.40028752e-09  4.56743582e-01  3.20309840e-09  4.56743582e-01  1.54612857e-07  1.15595778e-07  3.80000000e-01 
 3.90000000e-01  4.56743562e-01  3.20059241e-09  3.30973301e-09  3.40028758e-09  4.56743562e-01  3.20309840e-09  4.56743562e-01  1.54612823e-07  1.15595668e-07  3.90000000e-01 
 4.00000000e-01  4.56743568e-01  3.20059241e-09  3.30973296e-09  3.40028758e-09  4.56743568e-01  3.20309840e-09  4.56743568e-01  1.54612837e-07  1.15595643e-07  4.00000000e-01 
 4.10000000e-01  4.56743582e-01  3.20059241e-09  3.30973297e-09  3.40028752e-09  4.56743582e-01  3.20309834e-09  4.56743582e-01  1.54612838e-07  1.15595579e-07  4.10000000e-01 
 4.20000000e-01  4.56743546e-01  3.20059240e-09  3.30973295e-09  3.40028758e-09  4.56743546e-01  3.20309840e-09  4.56743546e-01  1.54612795e-07  1.15595377e-07  4.20000000e-01 
 4.30000000e-01  4.56743550e-01  3.20059240e-09  3.30973297e-09  3.40028758e-09  4.56743550e-01  3.20309834e-09  4.56743550e-01  1.54612795e-07  1.15595274e-07  4.30000000e-01 
 4.40000000e-01  4.56743572e-01  3.20059241e-09  3.30973302e-09  3.40028758e-09  4.56743572e-01  3.20309840e-09  4.56743572e-01  1.54612831e-07  1.15595270e-07  4.40000000e-01 
 4.50000000e-01  4.56743547e-01  3.20059240e-09  3.30973301e-09  3.40028758e-09  4.56743547e-01  3.20309834e-09  4.56743547e-01  1.54612801e-07  1.15595057e-07  4.50000000e-01 
 4.60000000e-01  4.56743592e-01  3.20059241e-09  3.30973296e-09  3.40028758e-09  4.56743592e-01  3.20309834e-09  4.56743592e-01  1.54612879e-07  1.15595050e-07  4.60000000e-01 
 4.70000000e-01  4.56743569e-01  3.20059241e-09  3.30973297e-09  3.40028752e-09  4.56743569e-01  3.20309840e-09  4.56743569e-01  1.54612830e-07  1.15595014e-07  4.70000000e-01 
 4.80000000e-01  4.56743562e-01  3.20059241e-09  3.30973302e-09  3.40028758e-09  4.56743562e-01  3.20309840e-09  4.56743562e-01  1.54612830e-07  1.15594911e-07  4.80000000e-01 
 4.90000000e-01  4.56743567e-01  3.20059241e-09  3.30973295e-09  3.40028758e-09  4.56743567e-01  3.20309834e-09  4.56743567e-01  1.54612823e-07  1.15594815e-07  4.90000000e-01 
 5.00000000e-01  4.56743602e-01  3.20059241e-09  3.30973297e-09  3.40028758e-09  4.56743602e-01  3.20309840e-09  4.56743602e-01  1.54612883e-07  1.15594847e-07  5.00000000e-01 
 5.10000000e-01  4.56743575e-01  3.20059241e-09  3.30973301e-09  3.40028758e-09  4.56743575e-01  3.20309840e-09  4.56743575e-01  1.54612841e-07  1.15594641e-07  5.10000000e-01 
 5.20000000e-01  4.56743564e-01  3.20059241e-09  3.30973302e-09  3.40028752e-09  4.56743564e-01  3.20309834e-09  4.56743564e-01  1.54612832e-07  1.15594489e-07  5.20000000e-01 
 5.30000000e-01  4.56743553e-01  3.20059240e-09  3.30973296e-09  3.40028752e-09  4.56743553e-01  3.20309834e-09  4.56743553e-01  1.54612816e-07  1.15594446e-07  5.30000000e-01 
 5.40000000e-01  4.56743571e-01  3.20059241e-09  3.30973297e-09  3.40028752e-09  4.56743571e-01  3.20309834e-09  4.56743571e-01  1.54612831e-07  1.15594482e-07  5.40000000e-01 
 5.50000000e-01  4.56743566e-01  3.20059241e-09  3.30973296e-09  3.40028758e-09  4.56743566e-01  3.20309840e-09  4.56743566e-01  1.54612833e-07  1.15594304e-07  5.50000000e-01 
 5.60000000e-01  4.56743568e-01  3.20059241e-09  3.30973302e-09  3.40028758e-09  4.56743568e-01  3.20309840e-09  4.56743568e-01  1.54612823e-07  1.15594126e-07  5.60000000e-01 
 5.70000000e-01  4.56743556e-01  3.20059240e-09  3.30973301e-09  3.40028758e-09  4.56743556e-01  3.20309840e-09  4.56743556e-01  1.54612801e-07  1.15594037e-07  5.70000000e-01 
 5.80000000e-01  4.56743563e-01  3.20059241e-09  3.30973302e-09  3.40028758e-09  4.56743563e-01  3.20309834e-09  4.56743563e-01  1.54612831e-07  1.15594119e-07  5.80000000e-01 
 5.90000000e-01  4.56743577e-01  3.20059241e-09  3.30973302e-09  3.40028758e-09  4.56743577e-01  3.20309840e-09  4.56743577e-01  1.54612851e-07  1.15593927e-07  5.90000000e-01 
 6.00000000e-01  4.56743546e-01  3.20059240e-09  3.30973296e-09  3.40028758e-09  4.56743545e-01  3.20309840e-09  4.56743545e-01  1.54612790e-07  1.15593785e-07  6.00000000e-01 
 6.10000000e-01  4.56743598e-01  3.20059241e-09  3.30973297e-09  3.40028752e-09  4.56743598e-01  3.20309834e-09  4.56743598e-01  1.54612872e-07  1.15593892e-07  6.10000000e-01 
 6.20000000e-01  4.56743561e-01  3.20059240e-09  3.30973295e-09  3.40028758e-09  4.56743561e-01  3.20309840e-09  4.56743561e-01  1.54612831e-07  1.15593693e-07  6.20000000e-01 
 6.30000000e-01  4.56743561e-01  3.20059240e-09  3.30973297e-09  3.40028758e-09  4.56743561e-01  3.20309840e-09  4.56743561e-01  1.54612822e-07  1.15593593e-07  6.30000000e-01 
 6.40000000e-01  4.56743562e-01  3.20059241e-09  3.30973302e-09  3.40028758e-09  4.56743562e-01  3.20309834e-09  4.56743562e-01  1.54612827e-07  1.15593579e-07  6.40000000e-01 
 6.50000000e-01  4.56743592e-01  3.20059241e-09  3.30973301e-09  3.40028758e-09  4.56743592e-01  3.20309834e-09  4.56743592e-01  1.54612876e-07  1.15593508e-07  6.50000000e-01 
 6.60000000e-01  4.56743554e-01  3.20059235e-09  3.30973301e-09  3.40028758e-09  4.56743554e-01  3.20309834e-09  4.56743554e-01  1.54612811e-07  1.15593366e-07  6.60000000e-01 
 6.70000000e-01  4.56743574e-01  3.20059241e-09  3.30973302e-09  3.40028758e-09  4.56743574e-01  3.20309834e-09  4.56743574e-01  1.54612849e-07  1.15593359e-07  6.70000000e-01 
 6.80000000e-01  4.56743583e-01  3.20059241e-09  3.30973296e-09  3.40028758e-09  4.56743583e-01  3.20309834e-09  4.56743583e-01  1.54612849e-07  1.15593302e-07  6.80000000e-01 
 6.90000000e-01  4.56743561e-01  3.20059241e-09  3.30973297e-09  3.40028758e-09  4.56743561e-01  3.20309840e-09  4.56743561e-01  1.54612822e-07  1.15593195e-07  6.90000000e-01 
 7.00000000e-01  4.56743576e-01  3.20059241e-09  3.30973297e-09  3.40028758e-09  4.56743576e-01  3.20309840e-09  4.56743576e-01  1.54612844e-07  1.15593089e-07  7.00000000e-01 
 7.10000000e-01  4.56743581e-01  3.20059241e-09  3.30973297e-09  3.40028752e-09  4.56743581e-01  3.20309840e-09  4.56743581e-01  1.54612849e-07  1.15592982e-07  7.10000000e-01 
 7.20000000e-01  4.56743578e-01  3.20059241e-09  3.30973297e-09  3.40028752e-09  4.56743578e-01  3.20309834e-09  4.56743578e-01  1.54612840e-07  1.15592947e-07  7.20000000e-01 
 7.30000000e-01  4.56743564e-01  3.20059241e-09  3.30973296e-09  3.40028758e-09  4.56743564e-01  3.20309840e-09  4.56743564e-01  1.54612819e-07  1.15592783e-07  7.30000000e-01 
 7.40000000e-01  4.56743583e-01  3.20059241e-09  3.30973297e-09  3.40028758e-09  4.56743583e-01  3.20309834e-09  4.56743583e-01  1.54612837e-07  1.15592776e-07  7.40000000e-01 
 7.50000000e-01  4.56743557e-01  3.20059240e-09  3.30973296e-09  3.40028758e-09  4.56743557e-01  3.20309840e-09  4.56743557e-01  1.54612824e-07  1.15592705e-07  7.50000000e-01 
 7.60000000e-01  4.56743581e-01  3.20059235e-09  3.30973302e-09  3.40028758e-09  4.56743581e-01  3.20309834e-09  4.56743581e-01  1.54612851e-07  1.15592691e-07  7.60000000e-01 
 7.70000000e-01  4.56743558e-01  3.20059240e-09  3.30973295e-09  3.40028758e-09  4.56743558e-01  3.20309834e-09  4.56743558e-01  1.54612806e-07  1.15592556e-07  7.70000000e-01 
 7.80000000e-01  4.56743599e-01  3.20059241e-09  3.30973297e-09  3.40028752e-09  4.56743599e-01  3.20309840e-09  4.56743599e-01  1.54612881e-07  1.15592485e-07  7.80000000e-01 
 7.90000000e-01  4.56743579e-01  3.20059235e-09  3.30973295e-09  3.40028752e-09  4.56743579e-01  3.20309840e-09  4.56743579e-01  1.54612844e-07  1.15592336e-07  7.90000000e-01 
 8.00000000e-01  4.56743564e-01  3.20059241e-09  3.30973297e-09  3.40028758e-09  4.56743564e-01  3.20309834e-09  4.56743564e-01  1.54612826e-07  1.15592243e-07  8.00000000e-01 
 8.10000000e-01  4.56743555e-01  3.20059240e-09  3.30973296e-09  3.40028758e-09  4.56743555e-01  3.20309840e-09  4.56743555e-01  1.54612810e-07  1.15592108e-07  8.10000000e-01 
 8.20000000e-01  4.56743561e-01  3.20059241e-09  3.30973296e-09  3.40028752e-09  4.56743561e-01  3.20309834e-09  4.56743561e-01  1.54612815e-07  1.15592087e-07  8.20000000e-01 
 8.30000000e-01  4.56743583e-01  3.20059241e-09  3.30973297e-09  3.40028758e-09  4.56743583e-01  3.20309834e-09  4.56743583e-01  1.54612849e-07  1.15592073e-07  8.30000000e-01 
 8.40000000e-01  4.56743562e-01  3.20059241e-09  3.30973302e-09  3.40028758e-09  4.56743562e-01  3.20309834e-09  4.56743562e-01  1.54612816e-07  1.15591988e-07  8.40000000e-01 
 8.50000000e-01  4.56743570e-01  3.20059241e-09  3.30973295e-09  3.40028758e-09  4.56743570e-01  3.20309840e-09  4.56743570e-01  1.54612829e-07  1.15591924e-07  8.50000000e-01 
 8.60000000e-01  4.56743547e-01  3.20059240e-09  3.30973297e-09  3.40028758e-09  4.56743547e-01  3.20309840e-09  4.56743547e-01  1.54612804e-07  1.15591703e-07  8.60000000e-01 
 8.70000000e-01  4.56743566e-01  3.20059241e-09  3.30973302e-09  3.40028758e-09  4.56743566e-01  3.20309834e-09  4.56743566e-01  1.54612833e-07  1.15591632e-07  8.70000000e-01 
 8.80000000e-01  4.56743578e-01  3.20059241e-09  3.30973295e-09  3.40028758e-09  4.56743578e-01  3.20309840e-09  4.56743578e-01  1.54612843e-07  1.15591668e-07  8.80000000e-01 
 8.90000000e-01  4.56743570e-01  3.20059241e-09  3.30973297e-09  3.40028752e-09  4.56743570e-01  3.20309840e-09  4.56743570e-01  1.54612842e-07  1.15591583e-07  8.90000000e-01 
 9.00000000e-01  4.56743559e-01  3.20059240e-09  3.30973296e-09  3.40028758e-09  4.56743559e-01  3.20309834e-09  4.56743559e-01  1.54612817e-07  1.15591511e-07  9.00000000e-01 
 9.10000000e-01  4.56743576e-01  3.20059241e-09  3.30973302e-09  3.40028758e-09  4.56743576e-01  3.20309834e-09  4.56743576e-01  1.54612835e-07  1.15591391e-07  9.10000000e-01 
 9.20000000e-01  4.56743564e-01  3.20059241e-09  3.30973295e-09  3.40028752e-09  4.56743564e-01  3.20309834e-09  4.56743564e-01  1.54612829e-07  1.15591305e-07  9.20000000e-01 
 9.30000000e-01  4.56743557e-01  3.20059240e-09  3.30973297e-09  3.40028758e-09  4.56743557e-01  3.20309840e-09  4.56743557e-01  1.54612811e-07  1.15591163e-07  9.30000000e-01 
 9.40000000e-01  4.56743577e-01  3.20059241e-09  3.30973297e-09  3.40028752e-09  4.56743577e-01  3.20309840e-09  4.56743577e-01  1.54612837e-07  1.15591106e-07  9.40000000e-01 
 9.50000000e-01  4.56743551e-01  3.20059240e-09  3.30973296e-09  3.40028758e-09  4.56743551e-01  3.20309840e-09  4.56743551e-01  1.54612802e-07  1.15590922e-07  9.50000000e-01 
 9.60000000e-01  4.56743590e-01  3.20059241e-09  3.30973297e-09  3.40028758e-09  4.56743590e-01  3.20309840e-09  4.56743590e-01  1.54612871e-07  1.15590900e-07  9.60000000e-01 
 9.70000000e-01  4.56743564e-01  3.20059241e-09  3.30973296e-09  3.40028758e-09  4.56743564e-01  3.20309834e-09  4.56743564e-01  1.54612830e-07  1.15590851e-07  9.70000000e-01 
 9.80000000e-01  4.56743580e-01  3.20059241e-09  3.30973302e-09  3.40028758e-09  4.56743580e-01  3.20309834e-09  4.56743580e-01  1.54612845e-07  1.15590723e-07  9.80000000e-01 
 9.90000000e-01  4.56743563e-01  3.20059241e-09  3.30973301e-09  3.40028752e-09  4.56743563e-01  3.20309840e-09  4.56743563e-01  1.54612814e-07  1.15590666e-07  9.90000000e-01 
 1.00000000e+00  4.56743563e-01  3.20059241e-09  3.30973302e-09  3.40028758e-09  4.56743563e-01  3.20309840e-09  4.56743563e-01  1.54612823e-07  1.15590481e-07  1.00000000e+00 
 1.01000000e+00  4.56743573e-01  3.20059241e-09  3.30973296e-09  3.40028758e-09  4.56743573e-01  3.20309834e-09  4.56743573e-01  1.54612836e-07  1.15590481e-07  1.01000000e+00 
 1.02000000e+00  4.56743570e-01  3.20059241e-09  3.30973297e-09  3.40028758e-09  4.56743570e-01  3.20309834e-09  4.56743570e-01  1.54612828e-07  1.15590382e-07  1.02000000e+00 
 1.03000000e+00  4.56743578e-01  3.20059241e-09  3.30973302e-09  3.40028758e-09  4.56743578e-01  3.20309840e-09  4.56743578e-01  1.54612845e-07  1.15590396e-07  1.03000000e+00 
 1.04000000e+00  4.56743577e-01  3.20059241e-09  3.30973301e-09  3.40028752e-09  4.56743577e-01  3.20309834e-09  4.56743577e-01  1.54612839e-07  1.15590247e-07  1.04000000e+00 
 1.05000000e+00  4.56743575e-01  3.20059241e-09  3.30973296e-09  3.40028758e-09  4.56743575e-01  3.20309834e-09  4.56743575e-01  1.54612836e-07  1.15590026e-07  1.05000000e+00 
 1.06000000e+00  4.56743564e-01  3.20059241e-09  3.30973297e-09  3.40028758e-09  4.56743564e-01  3.20309834e-09  4.56743564e-01  1.54612816e-07  1.15589970e-07  1.06000000e+00 
 1.07000000e+00  4.56743588e-01  3.20059241e-09  3.30973297e-09  3.40028758e-09  4.56743588e-01  3.20309840e-09  4.56743588e-01  1.54612852e-07  1.15589984e-07  1.07000000e+00 
 1.08000000e+00  4.56743553e-01  3.20059240e-09  3.30973302e-09  3.40028758e-09  4.56743553e-01  3.20309834e-09  4.56743553e-01  1.54612816e-07  1.15589785e-07  1.08000000e+00 
 1.09000000e+00  4.56743569e-01  3.20059241e-09  3.30973301e-09  3.40028758e-09  4.56743569e-01  3.20309840e-09  4.56743569e-01  1.54612827e-07  1.15589678e-07  1.09000000e+00 
 1.10000000e+00  4.56743564e-01  3.20059235e-09  3.30973302e-09  3.40028758e-09  4.56743564e-01  3.20309834e-09  4.56743564e-01  1.54612829e-07  1.15589692e-07  1.10000000e+00 
