 v-sweep         v(b0)           v(b1)           v(b2)           v(b3)           v(b4)           v(b5)           v(b6)           i(vbias)        i(viout)        v(vout)        
 0.00000000e+00  3.37562748e-09  4.56540251e-01  3.22125078e-09  3.32878118e-09  4.56540251e-01  3.36633623e-09  3.18582577e-09  1.56537792e-07  2.59977333e-08  0.00000000e+00 
 1.00000000e-02  3.37562740e-09  4.56540229e-01  3.22125081e-09  3.32878122e-09  4.56540229e-01  3.36633621e-09  3.18582576e-09  1.56537773e-07  2.59972155e-08  1.00000000e-02 
 2.00000000e-02  3.37562745e-09  4.56540215e-01  3.22125081e-09  3.32878122e-09  4.56540215e-01  3.36633621e-09  3.18582576e-09  1.56537742e-07  2.59969424e-08  2.00000000e-02 
 3.00000000e-02  3.37562740e-09  4.56540241e-01  3.22125082e-09  3.32878122e-09  4.56540241e-01  3.36633621e-09  3.18582576e-09  1.56537793e-07  2.59966446e-08  3.00000000e-02 
 4.00000000e-02  3.37562746e-09  4.56540257e-01  3.22125082e-09  3.32878122e-09  4.56540257e-01  3.36633621e-09  3.18582576e-09  1.56537805e-07  2.59960840e-08  4.00000000e-02 
 5.00000000e-02  3.37562746e-09  4.56540241e-01  3.22125082e-09  3.32878122e-09  4.56540241e-01  3.36633621e-09  3.18582570e-09  1.56537802e-07  2.59959623e-08  5.00000000e-02 
 6.00000000e-02  3.37562746e-09  4.56540231e-01  3.22125081e-09  3.32878122e-09  4.56540231e-01  3.36633621e-09  3.18582570e-09  1.56537786e-07  2.59955208e-08  6.00000000e-02 
 7.00000000e-02  3.37562740e-09  4.56540239e-01  3.22125082e-09  3.32878122e-09  4.56540239e-01  3.36633627e-09  3.18582570e-09  1.56537799e-07  2.59952402e-08  7.00000000e-02 
 8.00000000e-02  3.37562746e-09  4.56540241e-01  3.22125082e-09  3.32878122e-09  4.56540241e-01  3.36633621e-09  3.18582576e-09  1.56537786e-07  2.59949555e-08  8.00000000e-02 
 9.00000000e-02  3.37562746e-09  4.56540229e-01  3.22125081e-09  3.32878122e-09  4.56540229e-01  3.36633621e-09  3.18582570e-09  1.56537785e-07  2.59945496e-08  9.00000000e-02 
 1.00000000e-01  3.37562746e-09  4.56540241e-01  3.22125082e-09  3.32878122e-09  4.56540241e-01  3.36633621e-09  3.18582576e-09  1.56537790e-07  2.59943693e-08  1.00000000e-01 
 1.10000000e-01  3.37562746e-09  4.56540233e-01  3.22125081e-09  3.32878122e-09  4.56540233e-01  3.36633621e-09  3.18582576e-09  1.56537762e-07  2.59941881e-08  1.10000000e-01 
 1.20000000e-01  3.37562746e-09  4.56540238e-01  3.22125076e-09  3.32878122e-09  4.56540238e-01  3.36633621e-09  3.18582570e-09  1.56537801e-07  2.59940025e-08  1.20000000e-01 
 1.30000000e-01  3.37562746e-09  4.56540238e-01  3.22125077e-09  3.32878122e-09  4.56540238e-01  3.36633621e-09  3.18582570e-09  1.56537778e-07  2.59937663e-08  1.30000000e-01 
 1.40000000e-01  3.37562746e-09  4.56540243e-01  3.22125082e-09  3.32878122e-09  4.56540243e-01  3.36633627e-09  3.18582571e-09  1.56537790e-07  2.59935300e-08  1.40000000e-01 
 1.50000000e-01  3.37562746e-09  4.56540233e-01  3.22125081e-09  3.32878122e-09  4.56540233e-01  3.36633621e-09  3.18582570e-09  1.56537782e-07  2.59932520e-08  1.50000000e-01 
 1.60000000e-01  3.37562740e-09  4.56540250e-01  3.22125082e-09  3.32878122e-09  4.56540250e-01  3.36633621e-09  3.18582571e-09  1.56537803e-07  2.59931934e-08  1.60000000e-01 
 1.70000000e-01  3.37562746e-09  4.56540241e-01  3.22125076e-09  3.32878122e-09  4.56540241e-01  3.36633621e-09  3.18582570e-09  1.56537788e-07  2.59929855e-08  1.70000000e-01 
 1.80000000e-01  3.37562740e-09  4.56540241e-01  3.22125083e-09  3.32878122e-09  4.56540241e-01  3.36633621e-09  3.18582576e-09  1.56537785e-07  2.59927884e-08  1.80000000e-01 
 1.90000000e-01  3.37562740e-09  4.56540230e-01  3.22125081e-09  3.32878122e-09  4.56540230e-01  3.36633621e-09  3.18582570e-09  1.56537767e-07  2.59925095e-08  1.90000000e-01 
 2.00000000e-01  3.37562746e-09  4.56540229e-01  3.22125081e-09  3.32878122e-09  4.56540229e-01  3.36633621e-09  3.18582570e-09  1.56537765e-07  2.59924118e-08  2.00000000e-01 
 2.10000000e-01  3.37562746e-09  4.56540243e-01  3.22125082e-09  3.32878122e-09  4.56540243e-01  3.36633621e-09  3.18582576e-09  1.56537794e-07  2.59924153e-08  2.10000000e-01 
 2.20000000e-01  3.37562746e-09  4.56540245e-01  3.22125082e-09  3.32878122e-09  4.56540245e-01  3.36633621e-09  3.18582576e-09  1.56537806e-07  2.59921631e-08  2.20000000e-01 
 2.30000000e-01  3.37562740e-09  4.56540254e-01  3.22125082e-09  3.32878122e-09  4.56540254e-01  3.36633621e-09  3.18582576e-09  1.56537804e-07  2.59920228e-08  2.30000000e-01 
 2.40000000e-01  3.37562746e-09  4.56540237e-01  3.22125081e-09  3.32878122e-09  4.56540237e-01  3.36633621e-09  3.18582570e-09  1.56537782e-07  2.59919055e-08  2.40000000e-01 
 2.50000000e-01  3.37562746e-09  4.56540243e-01  3.22125082e-09  3.32878122e-09  4.56540243e-01  3.36633627e-09  3.18582571e-09  1.56537791e-07  2.59917705e-08  2.50000000e-01 
 2.60000000e-01  3.37562740e-09  4.56540243e-01  3.22125076e-09  3.32878122e-09  4.56540243e-01  3.36633621e-09  3.18582576e-09  1.56537803e-07  2.59916977e-08  2.60000000e-01 
 2.70000000e-01  3.37562746e-09  4.56540240e-01  3.22125083e-09  3.32878122e-09  4.56540240e-01  3.36633621e-09  3.18582576e-09  1.56537802e-07  2.59915645e-08  2.70000000e-01 
 2.80000000e-01  3.37562745e-09  4.56540208e-01  3.22125081e-09  3.32878122e-09  4.56540208e-01  3.36633621e-09  3.18582576e-09  1.56537750e-07  2.59914685e-08  2.80000000e-01 
 2.90000000e-01  3.37562746e-09  4.56540273e-01  3.22125082e-09  3.32878122e-09  4.56540273e-01  3.36633621e-09  3.18582576e-09  1.56537832e-07  2.59913620e-08  2.90000000e-01 
 3.00000000e-01  3.37562746e-09  4.56540235e-01  3.22125081e-09  3.32878122e-09  4.56540235e-01  3.36633626e-09  3.18582576e-09  1.56537776e-07  2.59911843e-08  3.00000000e-01 
 3.10000000e-01  3.37562746e-09  4.56540233e-01  3.22125081e-09  3.32878122e-09  4.56540233e-01  3.36633621e-09  3.18582570e-09  1.56537765e-07  2.59912412e-08  3.10000000e-01 
 3.20000000e-01  3.37562746e-09  4.56540223e-01  3.22125081e-09  3.32878122e-09  4.56540223e-01  3.36633621e-09  3.18582570e-09  1.56537761e-07  2.59910351e-08  3.20000000e-01 
 3.30000000e-01  3.37562746e-09  4.56540250e-01  3.22125082e-09  3.32878122e-09  4.56540250e-01  3.36633621e-09  3.18582571e-09  1.56537800e-07  2.59910742e-08  3.30000000e-01 
 3.40000000e-01  3.37562746e-09  4.56540243e-01  3.22125082e-09  3.32878122e-09  4.56540243e-01  3.36633621e-09  3.18582571e-09  1.56537788e-07  2.59909712e-08  3.40000000e-01 
 3.50000000e-01  3.37562746e-09  4.56540233e-01  3.22125081e-09  3.32878122e-09  4.56540233e-01  3.36633621e-09  3.18582570e-09  1.56537776e-07  2.59907971e-08  3.50000000e-01 
 3.60000000e-01  3.37562746e-09  4.56540234e-01  3.22125081e-09  3.32878122e-09  4.56540234e-01  3.36633621e-09  3.18582576e-09  1.56537781e-07  2.59906372e-08  3.60000000e-01 
 3.70000000e-01  3.37562746e-09  4.56540231e-01  3.22125076e-09  3.32878122e-09  4.56540231e-01  3.36633621e-09  3.18582576e-09  1.56537764e-07  2.59906443e-08  3.70000000e-01 
 3.80000000e-01  3.37562746e-09  4.56540231e-01  3.22125083e-09  3.32878122e-09  4.56540232e-01  3.36633621e-09  3.18582570e-09  1.56537783e-07  2.59905484e-08  3.80000000e-01 
 3.90000000e-01  3.37562746e-09  4.56540251e-01  3.22125081e-09  3.32878122e-09  4.56540251e-01  3.36633621e-09  3.18582576e-09  1.56537790e-07  2.59903956e-08  3.90000000e-01 
 4.00000000e-01  3.37562746e-09  4.56540234e-01  3.22125081e-09  3.32878122e-09  4.56540234e-01  3.36633621e-09  3.18582570e-09  1.56537772e-07  2.59904134e-08  4.00000000e-01 
 4.10000000e-01  3.37562746e-09  4.56540235e-01  3.22125081e-09  3.32878122e-09  4.56540236e-01  3.36633621e-09  3.18582576e-09  1.56537788e-07  2.59904134e-08  4.10000000e-01 
 4.20000000e-01  3.37562746e-09  4.56540232e-01  3.22125081e-09  3.32878122e-09  4.56540232e-01  3.36633621e-09  3.18582576e-09  1.56537786e-07  2.59901611e-08  4.20000000e-01 
 4.30000000e-01  3.37562740e-09  4.56540253e-01  3.22125082e-09  3.32878122e-09  4.56540254e-01  3.36633621e-09  3.18582576e-09  1.56537812e-07  2.59901398e-08  4.30000000e-01 
 4.40000000e-01  3.37562740e-09  4.56540236e-01  3.22125081e-09  3.32878122e-09  4.56540236e-01  3.36633621e-09  3.18582570e-09  1.56537777e-07  2.59901292e-08  4.40000000e-01 
 4.50000000e-01  3.37562740e-09  4.56540243e-01  3.22125082e-09  3.32878122e-09  4.56540243e-01  3.36633621e-09  3.18582571e-09  1.56537792e-07  2.59900759e-08  4.50000000e-01 
 4.60000000e-01  3.37562746e-09  4.56540256e-01  3.22125082e-09  3.32878122e-09  4.56540256e-01  3.36633621e-09  3.18582571e-09  1.56537807e-07  2.59900652e-08  4.60000000e-01 
 4.70000000e-01  3.37562740e-09  4.56540237e-01  3.22125081e-09  3.32878122e-09  4.56540237e-01  3.36633621e-09  3.18582570e-09  1.56537791e-07  2.59898805e-08  4.70000000e-01 
 4.80000000e-01  3.37562740e-09  4.56540238e-01  3.22125081e-09  3.32878122e-09  4.56540238e-01  3.36633621e-09  3.18582570e-09  1.56537774e-07  2.59899551e-08  4.80000000e-01 
 4.90000000e-01  3.37562740e-09  4.56540235e-01  3.22125081e-09  3.32878122e-09  4.56540236e-01  3.36633621e-09  3.18582576e-09  1.56537771e-07  2.59899195e-08  4.90000000e-01 
 5.00000000e-01  3.37562746e-09  4.56540242e-01  3.22125082e-09  3.32878122e-09  4.56540242e-01  3.36633621e-09  3.18582570e-09  1.56537795e-07  2.59898520e-08  5.00000000e-01 
 5.10000000e-01  3.37562746e-09  4.56540229e-01  3.22125081e-09  3.32878122e-09  4.56540229e-01  3.36633621e-09  3.18582576e-09  1.56537772e-07  2.59897384e-08  5.10000000e-01 
 5.20000000e-01  3.37562746e-09  4.56540243e-01  3.22125082e-09  3.32878122e-09  4.56540244e-01  3.36633621e-09  3.18582576e-09  1.56537803e-07  2.59896389e-08  5.20000000e-01 
 5.30000000e-01  3.37562746e-09  4.56540228e-01  3.22125081e-09  3.32878122e-09  4.56540228e-01  3.36633621e-09  3.18582570e-09  1.56537779e-07  2.59896034e-08  5.30000000e-01 
 5.40000000e-01  3.37562740e-09  4.56540236e-01  3.22125081e-09  3.32878122e-09  4.56540236e-01  3.36633621e-09  3.18582570e-09  1.56537785e-07  2.59896389e-08  5.40000000e-01 
 5.50000000e-01  3.37562740e-09  4.56540251e-01  3.22125082e-09  3.32878122e-09  4.56540251e-01  3.36633621e-09  3.18582576e-09  1.56537797e-07  2.59895465e-08  5.50000000e-01 
 5.60000000e-01  3.37562746e-09  4.56540246e-01  3.22125082e-09  3.32878122e-09  4.56540246e-01  3.36633621e-09  3.18582576e-09  1.56537801e-07  2.59895607e-08  5.60000000e-01 
 5.70000000e-01  3.37562746e-09  4.56540223e-01  3.22125081e-09  3.32878122e-09  4.56540223e-01  3.36633621e-09  3.18582576e-09  1.56537763e-07  2.59894151e-08  5.70000000e-01 
 5.80000000e-01  3.37562740e-09  4.56540225e-01  3.22125081e-09  3.32878122e-09  4.56540225e-01  3.36633621e-09  3.18582570e-09  1.56537763e-07  2.59893014e-08  5.80000000e-01 
 5.90000000e-01  3.37562746e-09  4.56540228e-01  3.22125081e-09  3.32878122e-09  4.56540229e-01  3.36633621e-09  3.18582570e-09  1.56537776e-07  2.59892801e-08  5.90000000e-01 
 6.00000000e-01  3.37562746e-09  4.56540233e-01  3.22125081e-09  3.32878122e-09  4.56540234e-01  3.36633621e-09  3.18582576e-09  1.56537779e-07  2.59891806e-08  6.00000000e-01 
 6.10000000e-01  3.37562740e-09  4.56540242e-01  3.22125076e-09  3.32878122e-09  4.56540242e-01  3.36633621e-09  3.18582576e-09  1.56537785e-07  2.59892516e-08  6.10000000e-01 
 6.20000000e-01  3.37562746e-09  4.56540241e-01  3.22125083e-09  3.32878122e-09  4.56540241e-01  3.36633621e-09  3.18582576e-09  1.56537788e-07  2.59891166e-08  6.20000000e-01 
 6.30000000e-01  3.37562746e-09  4.56540234e-01  3.22125081e-09  3.32878122e-09  4.56540234e-01  3.36633621e-09  3.18582570e-09  1.56537771e-07  2.59891308e-08  6.30000000e-01 
 6.40000000e-01  3.37562745e-09  4.56540219e-01  3.22125081e-09  3.32878122e-09  4.56540219e-01  3.36633621e-09  3.18582576e-09  1.56537756e-07  2.59890243e-08  6.40000000e-01 
 6.50000000e-01  3.37562746e-09  4.56540227e-01  3.22125081e-09  3.32878122e-09  4.56540227e-01  3.36633621e-09  3.18582570e-09  1.56537762e-07  2.59890740e-08  6.50000000e-01 
 6.60000000e-01  3.37562746e-09  4.56540224e-01  3.22125081e-09  3.32878122e-09  4.56540224e-01  3.36633621e-09  3.18582576e-09  1.56537763e-07  2.59888608e-08  6.60000000e-01 
 6.70000000e-01  3.37562746e-09  4.56540242e-01  3.22125076e-09  3.32878122e-09  4.56540242e-01  3.36633621e-09  3.18582570e-09  1.56537798e-07  2.59889035e-08  6.70000000e-01 
 6.80000000e-01  3.37562746e-09  4.56540221e-01  3.22125083e-09  3.32878122e-09  4.56540221e-01  3.36633621e-09  3.18582576e-09  1.56537760e-07  2.59888679e-08  6.80000000e-01 
 6.90000000e-01  3.37562740e-09  4.56540238e-01  3.22125081e-09  3.32878122e-09  4.56540238e-01  3.36633621e-09  3.18582576e-09  1.56537778e-07  2.59886761e-08  6.90000000e-01 
 7.00000000e-01  3.37562746e-09  4.56540250e-01  3.22125082e-09  3.32878122e-09  4.56540250e-01  3.36633621e-09  3.18582576e-09  1.56537808e-07  2.59887116e-08  7.00000000e-01 
 7.10000000e-01  3.37562740e-09  4.56540235e-01  3.22125081e-09  3.32878122e-09  4.56540235e-01  3.36633621e-09  3.18582576e-09  1.56537768e-07  2.59886619e-08  7.10000000e-01 
 7.20000000e-01  3.37562746e-09  4.56540237e-01  3.22125076e-09  3.32878122e-09  4.56540237e-01  3.36633621e-09  3.18582576e-09  1.56537787e-07  2.59887045e-08  7.20000000e-01 
 7.30000000e-01  3.37562746e-09  4.56540246e-01  3.22125077e-09  3.32878122e-09  4.56540246e-01  3.36633621e-09  3.18582576e-09  1.56537792e-07  2.59887258e-08  7.30000000e-01 
 7.40000000e-01  3.37562746e-09  4.56540263e-01  3.22125077e-09  3.32878122e-09  4.56540264e-01  3.36633627e-09  3.18582571e-09  1.56537822e-07  2.59884771e-08  7.40000000e-01 
 7.50000000e-01  3.37562746e-09  4.56540250e-01  3.22125076e-09  3.32878122e-09  4.56540250e-01  3.36633627e-09  3.18582576e-09  1.56537813e-07  2.59884700e-08  7.50000000e-01 
 7.60000000e-01  3.37562746e-09  4.56540262e-01  3.22125082e-09  3.32878122e-09  4.56540262e-01  3.36633621e-09  3.18582571e-09  1.56537836e-07  2.59884914e-08  7.60000000e-01 
 7.70000000e-01  3.37562746e-09  4.56540244e-01  3.22125081e-09  3.32878122e-09  4.56540244e-01  3.36633627e-09  3.18582571e-09  1.56537788e-07  2.59883990e-08  7.70000000e-01 
 7.80000000e-01  3.37562740e-09  4.56540235e-01  3.22125076e-09  3.32878122e-09  4.56540236e-01  3.36633626e-09  3.18582576e-09  1.56537780e-07  2.59883493e-08  7.80000000e-01 
 7.90000000e-01  3.37562740e-09  4.56540227e-01  3.22125083e-09  3.32878122e-09  4.56540227e-01  3.36633621e-09  3.18582576e-09  1.56537779e-07  2.59881574e-08  7.90000000e-01 
 8.00000000e-01  3.37562746e-09  4.56540222e-01  3.22125081e-09  3.32878122e-09  4.56540222e-01  3.36633621e-09  3.18582570e-09  1.56537764e-07  2.59881503e-08  8.00000000e-01 
 8.10000000e-01  3.37562746e-09  4.56540222e-01  3.22125081e-09  3.32878122e-09  4.56540222e-01  3.36633621e-09  3.18582576e-09  1.56537776e-07  2.59880295e-08  8.10000000e-01 
 8.20000000e-01  3.37562746e-09  4.56540261e-01  3.22125082e-09  3.32878122e-09  4.56540261e-01  3.36633621e-09  3.18582571e-09  1.56537826e-07  2.59882142e-08  8.20000000e-01 
 8.30000000e-01  3.37562740e-09  4.56540243e-01  3.22125082e-09  3.32878122e-09  4.56540243e-01  3.36633621e-09  3.18582576e-09  1.56537787e-07  2.59880295e-08  8.30000000e-01 
 8.40000000e-01  3.37562746e-09  4.56540247e-01  3.22125082e-09  3.32878122e-09  4.56540247e-01  3.36633621e-09  3.18582576e-09  1.56537801e-07  2.59879798e-08  8.40000000e-01 
 8.50000000e-01  3.37562746e-09  4.56540232e-01  3.22125081e-09  3.32878122e-09  4.56540232e-01  3.36633621e-09  3.18582570e-09  1.56537774e-07  2.59879798e-08  8.50000000e-01 
 8.60000000e-01  3.37562746e-09  4.56540234e-01  3.22125081e-09  3.32878122e-09  4.56540234e-01  3.36633621e-09  3.18582576e-09  1.56537778e-07  2.59879513e-08  8.60000000e-01 
 8.70000000e-01  3.37562746e-09  4.56540233e-01  3.22125081e-09  3.32878122e-09  4.56540233e-01  3.36633626e-09  3.18582576e-09  1.56537769e-07  2.59878448e-08  8.70000000e-01 
 8.80000000e-01  3.37562740e-09  4.56540231e-01  3.22125081e-09  3.32878122e-09  4.56540231e-01  3.36633621e-09  3.18582576e-09  1.56537778e-07  2.59876245e-08  8.80000000e-01 
 8.90000000e-01  3.37562746e-09  4.56540240e-01  3.22125082e-09  3.32878122e-09  4.56540240e-01  3.36633621e-09  3.18582576e-09  1.56537782e-07  2.59877027e-08  8.90000000e-01 
 9.00000000e-01  3.37562746e-09  4.56540237e-01  3.22125081e-09  3.32878122e-09  4.56540237e-01  3.36633621e-09  3.18582570e-09  1.56537791e-07  2.59876884e-08  9.00000000e-01 
 9.10000000e-01  3.37562745e-09  4.56540213e-01  3.22125081e-09  3.32878122e-09  4.56540213e-01  3.36633621e-09  3.18582570e-09  1.56537742e-07  2.59876458e-08  9.10000000e-01 
 9.20000000e-01  3.37562746e-09  4.56540247e-01  3.22125082e-09  3.32878122e-09  4.56540247e-01  3.36633621e-09  3.18582571e-09  1.56537796e-07  2.59875961e-08  9.20000000e-01 
 9.30000000e-01  3.37562740e-09  4.56540247e-01  3.22125082e-09  3.32878122e-09  4.56540247e-01  3.36633621e-09  3.18582571e-09  1.56537788e-07  2.59874895e-08  9.30000000e-01 
 9.40000000e-01  3.37562746e-09  4.56540256e-01  3.22125082e-09  3.32878122e-09  4.56540256e-01  3.36633621e-09  3.18582571e-09  1.56537813e-07  2.59874398e-08  9.40000000e-01 
 9.50000000e-01  3.37562746e-09  4.56540226e-01  3.22125081e-09  3.32878122e-09  4.56540227e-01  3.36633621e-09  3.18582570e-09  1.56537761e-07  2.59873261e-08  9.50000000e-01 
 9.60000000e-01  3.37562746e-09  4.56540238e-01  3.22125081e-09  3.32878122e-09  4.56540238e-01  3.36633627e-09  3.18582576e-09  1.56537795e-07  2.59873190e-08  9.60000000e-01 
 9.70000000e-01  3.37562746e-09  4.56540247e-01  3.22125076e-09  3.32878122e-09  4.56540247e-01  3.36633621e-09  3.18582576e-09  1.56537804e-07  2.59872763e-08  9.70000000e-01 
 9.80000000e-01  3.37562746e-09  4.56540235e-01  3.22125077e-09  3.32878122e-09  4.56540235e-01  3.36633621e-09  3.18582576e-09  1.56537782e-07  2.59872337e-08  9.80000000e-01 
 9.90000000e-01  3.37562746e-09  4.56540230e-01  3.22125082e-09  3.32878122e-09  4.56540230e-01  3.36633626e-09  3.18582576e-09  1.56537780e-07  2.59872337e-08  9.90000000e-01 
 1.00000000e+00  3.37562746e-09  4.56540229e-01  3.22125081e-09  3.32878122e-09  4.56540229e-01  3.36633621e-09  3.18582576e-09  1.56537775e-07  2.59872053e-08  1.00000000e+00 
 1.01000000e+00  3.37562740e-09  4.56540237e-01  3.22125081e-09  3.32878122e-09  4.56540237e-01  3.36633621e-09  3.18582576e-09  1.56537786e-07  2.59869566e-08  1.01000000e+00 
 1.02000000e+00  3.37562746e-09  4.56540229e-01  3.22125081e-09  3.32878122e-09  4.56540230e-01  3.36633621e-09  3.18582576e-09  1.56537770e-07  2.59870205e-08  1.02000000e+00 
 1.03000000e+00  3.37562746e-09  4.56540220e-01  3.22125081e-09  3.32878122e-09  4.56540220e-01  3.36633621e-09  3.18582570e-09  1.56537749e-07  2.59868500e-08  1.03000000e+00 
 1.04000000e+00  3.37562746e-09  4.56540243e-01  3.22125082e-09  3.32878122e-09  4.56540243e-01  3.36633621e-09  3.18582576e-09  1.56537796e-07  2.59868003e-08  1.04000000e+00 
 1.05000000e+00  3.37562746e-09  4.56540259e-01  3.22125076e-09  3.32878122e-09  4.56540259e-01  3.36633621e-09  3.18582576e-09  1.56537814e-07  2.59867292e-08  1.05000000e+00 
 1.06000000e+00  3.37562746e-09  4.56540242e-01  3.22125083e-09  3.32878122e-09  4.56540242e-01  3.36633621e-09  3.18582570e-09  1.56537795e-07  2.59867576e-08  1.06000000e+00 
 1.07000000e+00  3.37562740e-09  4.56540231e-01  3.22125081e-09  3.32878122e-09  4.56540231e-01  3.36633621e-09  3.18582570e-09  1.56537782e-07  2.59867861e-08  1.07000000e+00 
 1.08000000e+00  3.37562746e-09  4.56540235e-01  3.22125076e-09  3.32878122e-09  4.56540235e-01  3.36633621e-09  3.18582576e-09  1.56537790e-07  2.59866511e-08  1.08000000e+00 
 1.09000000e+00  3.37562740e-09  4.56540246e-01  3.22125077e-09  3.32878122e-09  4.56540246e-01  3.36633621e-09  3.18582576e-09  1.56537788e-07  2.59866297e-08  1.09000000e+00 
 1.10000000e+00  3.37562746e-09  4.56540245e-01  3.22125076e-09  3.32878122e-09  4.56540246e-01  3.36633627e-09  3.18582571e-09  1.56537791e-07  2.59865729e-08  1.10000000e+00 
