 v-sweep         v(b0)           v(b1)           v(b2)           v(b3)           v(b4)           v(b5)           v(b6)           i(vbias)        i(viout)        v(vout)        
 0.00000000e+00  4.59001712e-01  3.17818916e-09  4.59001712e-01  3.70863899e-09  3.37645128e-09  3.51793122e-09  4.59001712e-01  1.61431530e-07  1.07910184e-07  0.00000000e+00 
 1.00000000e-02  4.59001720e-01  3.17818913e-09  4.59001720e-01  3.70863901e-09  3.37645125e-09  3.51793124e-09  4.59001720e-01  1.61431550e-07  1.07909852e-07  1.00000000e-02 
 2.00000000e-02  4.59001701e-01  3.17818918e-09  4.59001701e-01  3.70863901e-09  3.37645130e-09  3.51793124e-09  4.59001701e-01  1.61431527e-07  1.07909452e-07  2.00000000e-02 
 3.00000000e-02  4.59001705e-01  3.17818918e-09  4.59001705e-01  3.70863901e-09  3.37645130e-09  3.51793119e-09  4.59001705e-01  1.61431517e-07  1.07909061e-07  3.00000000e-02 
 4.00000000e-02  4.59001699e-01  3.17818912e-09  4.59001699e-01  3.70863901e-09  3.37645130e-09  3.51793119e-09  4.59001699e-01  1.61431511e-07  1.07908640e-07  4.00000000e-02 
 5.00000000e-02  4.59001695e-01  3.17818912e-09  4.59001695e-01  3.70863896e-09  3.37645130e-09  3.51793119e-09  4.59001695e-01  1.61431513e-07  1.07908459e-07  5.00000000e-02 
 6.00000000e-02  4.59001711e-01  3.17818918e-09  4.59001711e-01  3.70863897e-09  3.37645130e-09  3.51793124e-09  4.59001711e-01  1.61431537e-07  1.07908053e-07  6.00000000e-02 
 7.00000000e-02  4.59001720e-01  3.17818918e-09  4.59001720e-01  3.70863902e-09  3.37645130e-09  3.51793124e-09  4.59001720e-01  1.61431565e-07  1.07907800e-07  7.00000000e-02 
 8.00000000e-02  4.59001705e-01  3.17818918e-09  4.59001705e-01  3.70863901e-09  3.37645125e-09  3.51793124e-09  4.59001705e-01  1.61431531e-07  1.07907488e-07  8.00000000e-02 
 9.00000000e-02  4.59001720e-01  3.17818913e-09  4.59001720e-01  3.70863901e-09  3.37645130e-09  3.51793124e-09  4.59001720e-01  1.61431539e-07  1.07907198e-07  9.00000000e-02 
 1.00000000e-01  4.59001710e-01  3.17818918e-09  4.59001710e-01  3.70863901e-09  3.37645125e-09  3.51793124e-09  4.59001710e-01  1.61431519e-07  1.07906952e-07  1.00000000e-01 
 1.10000000e-01  4.59001727e-01  3.17818918e-09  4.59001727e-01  3.70863896e-09  3.37645130e-09  3.51793124e-09  4.59001727e-01  1.61431561e-07  1.07906650e-07  1.10000000e-01 
 1.20000000e-01  4.59001716e-01  3.17818918e-09  4.59001716e-01  3.70863897e-09  3.37645130e-09  3.51793119e-09  4.59001716e-01  1.61431547e-07  1.07906351e-07  1.20000000e-01 
 1.30000000e-01  4.59001731e-01  3.17818918e-09  4.59001731e-01  3.70863902e-09  3.37645130e-09  3.51793119e-09  4.59001731e-01  1.61431577e-07  1.07906214e-07  1.30000000e-01 
 1.40000000e-01  4.59001704e-01  3.17818918e-09  4.59001704e-01  3.70863901e-09  3.37645125e-09  3.51793124e-09  4.59001704e-01  1.61431524e-07  1.07905882e-07  1.40000000e-01 
 1.50000000e-01  4.59001715e-01  3.17818913e-09  4.59001715e-01  3.70863901e-09  3.37645130e-09  3.51793119e-09  4.59001715e-01  1.61431544e-07  1.07905690e-07  1.50000000e-01 
 1.60000000e-01  4.59001724e-01  3.17818913e-09  4.59001724e-01  3.70863901e-09  3.37645130e-09  3.51793119e-09  4.59001724e-01  1.61431557e-07  1.07905503e-07  1.60000000e-01 
 1.70000000e-01  4.59001715e-01  3.17818918e-09  4.59001715e-01  3.70863901e-09  3.37645130e-09  3.51793119e-09  4.59001715e-01  1.61431543e-07  1.07905322e-07  1.70000000e-01 
 1.80000000e-01  4.59001708e-01  3.17818913e-09  4.59001708e-01  3.70863896e-09  3.37645125e-09  3.51793124e-09  4.59001708e-01  1.61431528e-07  1.07905114e-07  1.80000000e-01 
 1.90000000e-01  4.59001731e-01  3.17818918e-09  4.59001731e-01  3.70863903e-09  3.37645125e-09  3.51793119e-09  4.59001731e-01  1.61431565e-07  1.07904985e-07  1.90000000e-01 
 2.00000000e-01  4.59001704e-01  3.17818918e-09  4.59001704e-01  3.70863901e-09  3.37645125e-09  3.51793119e-09  4.59001704e-01  1.61431510e-07  1.07904652e-07  2.00000000e-01 
 2.10000000e-01  4.59001687e-01  3.17818918e-09  4.59001687e-01  3.70863901e-09  3.37645130e-09  3.51793119e-09  4.59001687e-01  1.61431489e-07  1.07904492e-07  2.10000000e-01 
 2.20000000e-01  4.59001699e-01  3.17818918e-09  4.59001699e-01  3.70863901e-09  3.37645130e-09  3.51793124e-09  4.59001699e-01  1.61431511e-07  1.07904290e-07  2.20000000e-01 
 2.30000000e-01  4.59001701e-01  3.17818912e-09  4.59001701e-01  3.70863901e-09  3.37645125e-09  3.51793124e-09  4.59001701e-01  1.61431516e-07  1.07904238e-07  2.30000000e-01 
 2.40000000e-01  4.59001702e-01  3.17818918e-09  4.59001702e-01  3.70863901e-09  3.37645130e-09  3.51793124e-09  4.59001702e-01  1.61431528e-07  1.07903880e-07  2.40000000e-01 
 2.50000000e-01  4.59001700e-01  3.17818912e-09  4.59001700e-01  3.70863901e-09  3.37645130e-09  3.51793119e-09  4.59001700e-01  1.61431536e-07  1.07903899e-07  2.50000000e-01 
 2.60000000e-01  4.59001719e-01  3.17818918e-09  4.59001719e-01  3.70863896e-09  3.37645130e-09  3.51793124e-09  4.59001719e-01  1.61431549e-07  1.07903769e-07  2.60000000e-01 
 2.70000000e-01  4.59001714e-01  3.17818918e-09  4.59001714e-01  3.70863897e-09  3.37645130e-09  3.51793119e-09  4.59001714e-01  1.61431550e-07  1.07903654e-07  2.70000000e-01 
 2.80000000e-01  4.59001708e-01  3.17818913e-09  4.59001708e-01  3.70863902e-09  3.37645130e-09  3.51793119e-09  4.59001708e-01  1.61431535e-07  1.07903521e-07  2.80000000e-01 
 2.90000000e-01  4.59001683e-01  3.17818918e-09  4.59001683e-01  3.70863901e-09  3.37645130e-09  3.51793119e-09  4.59001683e-01  1.61431501e-07  1.07903222e-07  2.90000000e-01 
 3.00000000e-01  4.59001683e-01  3.17818912e-09  4.59001683e-01  3.70863896e-09  3.37645130e-09  3.51793119e-09  4.59001683e-01  1.61431496e-07  1.07903094e-07  3.00000000e-01 
 3.10000000e-01  4.59001712e-01  3.17818918e-09  4.59001712e-01  3.70863903e-09  3.37645125e-09  3.51793119e-09  4.59001712e-01  1.61431527e-07  1.07903144e-07  3.10000000e-01 
 3.20000000e-01  4.59001712e-01  3.17818918e-09  4.59001712e-01  3.70863901e-09  3.37645125e-09  3.51793119e-09  4.59001712e-01  1.61431540e-07  1.07902995e-07  3.20000000e-01 
 3.30000000e-01  4.59001708e-01  3.17818913e-09  4.59001708e-01  3.70863901e-09  3.37645130e-09  3.51793124e-09  4.59001708e-01  1.61431538e-07  1.07902881e-07  3.30000000e-01 
 3.40000000e-01  4.59001709e-01  3.17818913e-09  4.59001709e-01  3.70863901e-09  3.37645125e-09  3.51793124e-09  4.59001709e-01  1.61431529e-07  1.07902743e-07  3.40000000e-01 
 3.50000000e-01  4.59001726e-01  3.17818918e-09  4.59001726e-01  3.70863901e-09  3.37645125e-09  3.51793119e-09  4.59001726e-01  1.61431568e-07  1.07902707e-07  3.50000000e-01 
 3.60000000e-01  4.59001706e-01  3.17818918e-09  4.59001706e-01  3.70863901e-09  3.37645125e-09  3.51793124e-09  4.59001706e-01  1.61431526e-07  1.07902537e-07  3.60000000e-01 
 3.70000000e-01  4.59001693e-01  3.17818918e-09  4.59001693e-01  3.70863901e-09  3.37645130e-09  3.51793124e-09  4.59001693e-01  1.61431496e-07  1.07902483e-07  3.70000000e-01 
 3.80000000e-01  4.59001712e-01  3.17818918e-09  4.59001712e-01  3.70863901e-09  3.37645125e-09  3.51793119e-09  4.59001712e-01  1.61431530e-07  1.07902423e-07  3.80000000e-01 
 3.90000000e-01  4.59001688e-01  3.17818912e-09  4.59001688e-01  3.70863901e-09  3.37645125e-09  3.51793124e-09  4.59001688e-01  1.61431509e-07  1.07902242e-07  3.90000000e-01 
 4.00000000e-01  4.59001703e-01  3.17818918e-09  4.59001703e-01  3.70863901e-09  3.37645130e-09  3.51793119e-09  4.59001703e-01  1.61431527e-07  1.07902089e-07  4.00000000e-01 
 4.10000000e-01  4.59001715e-01  3.17818913e-09  4.59001715e-01  3.70863896e-09  3.37645125e-09  3.51793124e-09  4.59001715e-01  1.61431546e-07  1.07902199e-07  4.10000000e-01 
 4.20000000e-01  4.59001707e-01  3.17818918e-09  4.59001707e-01  3.70863903e-09  3.37645130e-09  3.51793124e-09  4.59001707e-01  1.61431522e-07  1.07901979e-07  4.20000000e-01 
 4.30000000e-01  4.59001713e-01  3.17818918e-09  4.59001713e-01  3.70863901e-09  3.37645130e-09  3.51793124e-09  4.59001713e-01  1.61431550e-07  1.07902022e-07  4.30000000e-01 
 4.40000000e-01  4.59001706e-01  3.17818912e-09  4.59001706e-01  3.70863901e-09  3.37645125e-09  3.51793119e-09  4.59001706e-01  1.61431523e-07  1.07901748e-07  4.40000000e-01 
 4.50000000e-01  4.59001711e-01  3.17818918e-09  4.59001711e-01  3.70863901e-09  3.37645130e-09  3.51793124e-09  4.59001711e-01  1.61431539e-07  1.07901744e-07  4.50000000e-01 
 4.60000000e-01  4.59001715e-01  3.17818913e-09  4.59001715e-01  3.70863901e-09  3.37645130e-09  3.51793119e-09  4.59001715e-01  1.61431551e-07  1.07901570e-07  4.60000000e-01 
 4.70000000e-01  4.59001717e-01  3.17818918e-09  4.59001717e-01  3.70863901e-09  3.37645125e-09  3.51793124e-09  4.59001717e-01  1.61431544e-07  1.07901506e-07  4.70000000e-01 
 4.80000000e-01  4.59001733e-01  3.17818918e-09  4.59001733e-01  3.70863896e-09  3.37645125e-09  3.51793125e-09  4.59001733e-01  1.61431570e-07  1.07901538e-07  4.80000000e-01 
 4.90000000e-01  4.59001723e-01  3.17818913e-09  4.59001723e-01  3.70863903e-09  3.37645125e-09  3.51793124e-09  4.59001723e-01  1.61431550e-07  1.07901595e-07  4.90000000e-01 
 5.00000000e-01  4.59001697e-01  3.17818918e-09  4.59001697e-01  3.70863901e-09  3.37645130e-09  3.51793124e-09  4.59001697e-01  1.61431514e-07  1.07901180e-07  5.00000000e-01 
 5.10000000e-01  4.59001704e-01  3.17818912e-09  4.59001704e-01  3.70863896e-09  3.37645130e-09  3.51793119e-09  4.59001703e-01  1.61431512e-07  1.07901208e-07  5.10000000e-01 
 5.20000000e-01  4.59001701e-01  3.17818912e-09  4.59001701e-01  3.70863903e-09  3.37645130e-09  3.51793119e-09  4.59001701e-01  1.61431526e-07  1.07901094e-07  5.20000000e-01 
 5.30000000e-01  4.59001712e-01  3.17818918e-09  4.59001712e-01  3.70863901e-09  3.37645130e-09  3.51793119e-09  4.59001712e-01  1.61431542e-07  1.07901183e-07  5.30000000e-01 
 5.40000000e-01  4.59001724e-01  3.17818913e-09  4.59001724e-01  3.70863901e-09  3.37645125e-09  3.51793119e-09  4.59001724e-01  1.61431555e-07  1.07901084e-07  5.40000000e-01 
 5.50000000e-01  4.59001708e-01  3.17818918e-09  4.59001708e-01  3.70863896e-09  3.37645125e-09  3.51793119e-09  4.59001708e-01  1.61431519e-07  1.07900977e-07  5.50000000e-01 
 5.60000000e-01  4.59001702e-01  3.17818918e-09  4.59001702e-01  3.70863897e-09  3.37645125e-09  3.51793124e-09  4.59001701e-01  1.61431514e-07  1.07900828e-07  5.60000000e-01 
 5.70000000e-01  4.59001710e-01  3.17818918e-09  4.59001710e-01  3.70863896e-09  3.37645130e-09  3.51793119e-09  4.59001710e-01  1.61431525e-07  1.07900689e-07  5.70000000e-01 
 5.80000000e-01  4.59001722e-01  3.17818918e-09  4.59001722e-01  3.70863896e-09  3.37645125e-09  3.51793119e-09  4.59001722e-01  1.61431559e-07  1.07900675e-07  5.80000000e-01 
 5.90000000e-01  4.59001726e-01  3.17818913e-09  4.59001726e-01  3.70863896e-09  3.37645130e-09  3.51793119e-09  4.59001726e-01  1.61431565e-07  1.07900604e-07  5.90000000e-01 
 6.00000000e-01  4.59001696e-01  3.17818918e-09  4.59001696e-01  3.70863896e-09  3.37645125e-09  3.51793119e-09  4.59001696e-01  1.61431498e-07  1.07900448e-07  6.00000000e-01 
 6.10000000e-01  4.59001698e-01  3.17818918e-09  4.59001698e-01  3.70863896e-09  3.37645125e-09  3.51793119e-09  4.59001698e-01  1.61431511e-07  1.07900490e-07  6.10000000e-01 
 6.20000000e-01  4.59001697e-01  3.17818918e-09  4.59001697e-01  3.70863902e-09  3.37645125e-09  3.51793124e-09  4.59001697e-01  1.61431525e-07  1.07900334e-07  6.20000000e-01 
 6.30000000e-01  4.59001690e-01  3.17818918e-09  4.59001690e-01  3.70863895e-09  3.37645130e-09  3.51793124e-09  4.59001690e-01  1.61431512e-07  1.07900263e-07  6.30000000e-01 
 6.40000000e-01  4.59001722e-01  3.17818913e-09  4.59001722e-01  3.70863897e-09  3.37645130e-09  3.51793119e-09  4.59001722e-01  1.61431539e-07  1.07900277e-07  6.40000000e-01 
 6.50000000e-01  4.59001715e-01  3.17818918e-09  4.59001715e-01  3.70863902e-09  3.37645125e-09  3.51793119e-09  4.59001715e-01  1.61431538e-07  1.07900249e-07  6.50000000e-01 
 6.60000000e-01  4.59001703e-01  3.17818918e-09  4.59001703e-01  3.70863901e-09  3.37645125e-09  3.51793124e-09  4.59001703e-01  1.61431533e-07  1.07900135e-07  6.60000000e-01 
 6.70000000e-01  4.59001716e-01  3.17818913e-09  4.59001716e-01  3.70863896e-09  3.37645130e-09  3.51793124e-09  4.59001716e-01  1.61431557e-07  1.07900064e-07  6.70000000e-01 
 6.80000000e-01  4.59001710e-01  3.17818918e-09  4.59001710e-01  3.70863903e-09  3.37645125e-09  3.51793119e-09  4.59001710e-01  1.61431542e-07  1.07899950e-07  6.80000000e-01 
 6.90000000e-01  4.59001713e-01  3.17818918e-09  4.59001713e-01  3.70863901e-09  3.37645130e-09  3.51793119e-09  4.59001713e-01  1.61431536e-07  1.07899872e-07  6.90000000e-01 
 7.00000000e-01  4.59001711e-01  3.17818918e-09  4.59001711e-01  3.70863901e-09  3.37645130e-09  3.51793124e-09  4.59001711e-01  1.61431538e-07  1.07899758e-07  7.00000000e-01 
 7.10000000e-01  4.59001703e-01  3.17818912e-09  4.59001703e-01  3.70863901e-09  3.37645125e-09  3.51793119e-09  4.59001703e-01  1.61431524e-07  1.07899609e-07  7.10000000e-01 
 7.20000000e-01  4.59001701e-01  3.17818918e-09  4.59001701e-01  3.70863901e-09  3.37645130e-09  3.51793119e-09  4.59001701e-01  1.61431515e-07  1.07899623e-07  7.20000000e-01 
 7.30000000e-01  4.59001725e-01  3.17818918e-09  4.59001725e-01  3.70863901e-09  3.37645130e-09  3.51793119e-09  4.59001724e-01  1.61431559e-07  1.07899538e-07  7.30000000e-01 
 7.40000000e-01  4.59001727e-01  3.17818918e-09  4.59001727e-01  3.70863901e-09  3.37645125e-09  3.51793124e-09  4.59001727e-01  1.61431560e-07  1.07899503e-07  7.40000000e-01 
 7.50000000e-01  4.59001720e-01  3.17818918e-09  4.59001720e-01  3.70863901e-09  3.37645125e-09  3.51793124e-09  4.59001720e-01  1.61431547e-07  1.07899375e-07  7.50000000e-01 
 7.60000000e-01  4.59001696e-01  3.17818918e-09  4.59001696e-01  3.70863901e-09  3.37645125e-09  3.51793119e-09  4.59001696e-01  1.61431523e-07  1.07899346e-07  7.60000000e-01 
 7.70000000e-01  4.59001718e-01  3.17818918e-09  4.59001718e-01  3.70863901e-09  3.37645130e-09  3.51793119e-09  4.59001718e-01  1.61431551e-07  1.07899197e-07  7.70000000e-01 
 7.80000000e-01  4.59001722e-01  3.17818918e-09  4.59001722e-01  3.70863896e-09  3.37645130e-09  3.51793119e-09  4.59001722e-01  1.61431553e-07  1.07899147e-07  7.80000000e-01 
 7.90000000e-01  4.59001700e-01  3.17818912e-09  4.59001700e-01  3.70863903e-09  3.37645130e-09  3.51793119e-09  4.59001700e-01  1.61431521e-07  1.07899019e-07  7.90000000e-01 
 8.00000000e-01  4.59001709e-01  3.17818918e-09  4.59001709e-01  3.70863901e-09  3.37645130e-09  3.51793119e-09  4.59001709e-01  1.61431522e-07  1.07898977e-07  8.00000000e-01 
 8.10000000e-01  4.59001702e-01  3.17818918e-09  4.59001702e-01  3.70863901e-09  3.37645125e-09  3.51793124e-09  4.59001702e-01  1.61431520e-07  1.07898956e-07  8.10000000e-01 
 8.20000000e-01  4.59001701e-01  3.17818918e-09  4.59001701e-01  3.70863901e-09  3.37645125e-09  3.51793124e-09  4.59001701e-01  1.61431525e-07  1.07898778e-07  8.20000000e-01 
 8.30000000e-01  4.59001724e-01  3.17818918e-09  4.59001724e-01  3.70863896e-09  3.37645125e-09  3.51793119e-09  4.59001724e-01  1.61431563e-07  1.07898572e-07  8.30000000e-01 
 8.40000000e-01  4.59001731e-01  3.17818913e-09  4.59001731e-01  3.70863903e-09  3.37645125e-09  3.51793125e-09  4.59001731e-01  1.61431576e-07  1.07898764e-07  8.40000000e-01 
 8.50000000e-01  4.59001712e-01  3.17818918e-09  4.59001712e-01  3.70863895e-09  3.37645125e-09  3.51793124e-09  4.59001712e-01  1.61431537e-07  1.07898565e-07  8.50000000e-01 
 8.60000000e-01  4.59001705e-01  3.17818912e-09  4.59001705e-01  3.70863897e-09  3.37645125e-09  3.51793124e-09  4.59001705e-01  1.61431533e-07  1.07898572e-07  8.60000000e-01 
 8.70000000e-01  4.59001715e-01  3.17818913e-09  4.59001715e-01  3.70863902e-09  3.37645130e-09  3.51793124e-09  4.59001715e-01  1.61431550e-07  1.07898430e-07  8.70000000e-01 
 8.80000000e-01  4.59001714e-01  3.17818918e-09  4.59001714e-01  3.70863901e-09  3.37645125e-09  3.51793124e-09  4.59001714e-01  1.61431541e-07  1.07898288e-07  8.80000000e-01 
 8.90000000e-01  4.59001715e-01  3.17818913e-09  4.59001715e-01  3.70863896e-09  3.37645130e-09  3.51793124e-09  4.59001715e-01  1.61431546e-07  1.07898288e-07  8.90000000e-01 
 9.00000000e-01  4.59001698e-01  3.17818918e-09  4.59001698e-01  3.70863897e-09  3.37645130e-09  3.51793119e-09  4.59001698e-01  1.61431525e-07  1.07898202e-07  9.00000000e-01 
 9.10000000e-01  4.59001709e-01  3.17818918e-09  4.59001709e-01  3.70863902e-09  3.37645125e-09  3.51793124e-09  4.59001709e-01  1.61431526e-07  1.07898146e-07  9.10000000e-01 
 9.20000000e-01  4.59001732e-01  3.17818918e-09  4.59001732e-01  3.70863901e-09  3.37645125e-09  3.51793125e-09  4.59001732e-01  1.61431561e-07  1.07898124e-07  9.20000000e-01 
 9.30000000e-01  4.59001731e-01  3.17818918e-09  4.59001731e-01  3.70863902e-09  3.37645125e-09  3.51793119e-09  4.59001731e-01  1.61431566e-07  1.07897911e-07  9.30000000e-01 
 9.40000000e-01  4.59001702e-01  3.17818912e-09  4.59001702e-01  3.70863901e-09  3.37645125e-09  3.51793119e-09  4.59001702e-01  1.61431526e-07  1.07897790e-07  9.40000000e-01 
 9.50000000e-01  4.59001707e-01  3.17818913e-09  4.59001707e-01  3.70863901e-09  3.37645130e-09  3.51793119e-09  4.59001707e-01  1.61431528e-07  1.07897634e-07  9.50000000e-01 
 9.60000000e-01  4.59001705e-01  3.17818918e-09  4.59001705e-01  3.70863896e-09  3.37645125e-09  3.51793124e-09  4.59001705e-01  1.61431535e-07  1.07897677e-07  9.60000000e-01 
 9.70000000e-01  4.59001713e-01  3.17818913e-09  4.59001713e-01  3.70863903e-09  3.37645125e-09  3.51793124e-09  4.59001713e-01  1.61431549e-07  1.07897691e-07  9.70000000e-01 
 9.80000000e-01  4.59001726e-01  3.17818913e-09  4.59001726e-01  3.70863901e-09  3.37645125e-09  3.51793119e-09  4.59001726e-01  1.61431543e-07  1.07897534e-07  9.80000000e-01 
 9.90000000e-01  4.59001712e-01  3.17818913e-09  4.59001712e-01  3.70863901e-09  3.37645130e-09  3.51793119e-09  4.59001712e-01  1.61431536e-07  1.07897399e-07  9.90000000e-01 
 1.00000000e+00  4.59001693e-01  3.17818918e-09  4.59001693e-01  3.70863901e-09  3.37645130e-09  3.51793119e-09  4.59001693e-01  1.61431519e-07  1.07897158e-07  1.00000000e+00 
 1.01000000e+00  4.59001728e-01  3.17818913e-09  4.59001729e-01  3.70863901e-09  3.37645125e-09  3.51793119e-09  4.59001728e-01  1.61431559e-07  1.07897300e-07  1.01000000e+00 
 1.02000000e+00  4.59001698e-01  3.17818918e-09  4.59001698e-01  3.70863901e-09  3.37645130e-09  3.51793119e-09  4.59001698e-01  1.61431523e-07  1.07897193e-07  1.02000000e+00 
 1.03000000e+00  4.59001702e-01  3.17818912e-09  4.59001702e-01  3.70863901e-09  3.37645130e-09  3.51793124e-09  4.59001702e-01  1.61431513e-07  1.07897044e-07  1.03000000e+00 
 1.04000000e+00  4.59001700e-01  3.17818912e-09  4.59001700e-01  3.70863901e-09  3.37645130e-09  3.51793119e-09  4.59001700e-01  1.61431516e-07  1.07896916e-07  1.04000000e+00 
 1.05000000e+00  4.59001705e-01  3.17818918e-09  4.59001705e-01  3.70863896e-09  3.37645130e-09  3.51793124e-09  4.59001705e-01  1.61431537e-07  1.07896923e-07  1.05000000e+00 
 1.06000000e+00  4.59001734e-01  3.17818918e-09  4.59001734e-01  3.70863903e-09  3.37645131e-09  3.51793119e-09  4.59001734e-01  1.61431583e-07  1.07896852e-07  1.06000000e+00 
 1.07000000e+00  4.59001709e-01  3.17818913e-09  4.59001709e-01  3.70863901e-09  3.37645125e-09  3.51793124e-09  4.59001709e-01  1.61431540e-07  1.07896646e-07  1.07000000e+00 
 1.08000000e+00  4.59001702e-01  3.17818912e-09  4.59001702e-01  3.70863901e-09  3.37645130e-09  3.51793124e-09  4.59001702e-01  1.61431513e-07  1.07896483e-07  1.08000000e+00 
 1.09000000e+00  4.59001717e-01  3.17818913e-09  4.59001717e-01  3.70863901e-09  3.37645130e-09  3.51793124e-09  4.59001717e-01  1.61431532e-07  1.07896540e-07  1.09000000e+00 
 1.10000000e+00  4.59001710e-01  3.17818913e-09  4.59001710e-01  3.70863896e-09  3.37645125e-09  3.51793119e-09  4.59001710e-01  1.61431532e-07  1.07896447e-07  1.10000000e+00 
