 v-sweep         v(b0)           v(b1)           v(b2)           v(b3)           v(b4)           v(b5)           v(b6)           i(vbias)        i(viout)        v(vout)        
 0.00000000e+00  4.57530174e-01  4.57530174e-01  3.40346864e-09  3.46451177e-09  4.57530174e-01  3.40805395e-09  4.57530174e-01  1.60958530e-07  1.20468188e-07  0.00000000e+00 
 1.00000000e-02  4.57530181e-01  4.57530181e-01  3.40346862e-09  3.46451176e-09  4.57530181e-01  3.40805393e-09  4.57530181e-01  1.60958541e-07  1.20467816e-07  1.00000000e-02 
 2.00000000e-02  4.57530178e-01  4.57530178e-01  3.40346862e-09  3.46451176e-09  4.57530178e-01  3.40805399e-09  4.57530178e-01  1.60958534e-07  1.20467410e-07  2.00000000e-02 
 3.00000000e-02  4.57530182e-01  4.57530182e-01  3.40346862e-09  3.46451176e-09  4.57530182e-01  3.40805399e-09  4.57530182e-01  1.60958532e-07  1.20467053e-07  3.00000000e-02 
 4.00000000e-02  4.57530179e-01  4.57530179e-01  3.40346862e-09  3.46451176e-09  4.57530179e-01  3.40805393e-09  4.57530179e-01  1.60958532e-07  1.20466737e-07  4.00000000e-02 
 5.00000000e-02  4.57530171e-01  4.57530171e-01  3.40346862e-09  3.46451175e-09  4.57530171e-01  3.40805399e-09  4.57530171e-01  1.60958525e-07  1.20466395e-07  5.00000000e-02 
 6.00000000e-02  4.57530167e-01  4.57530167e-01  3.40346862e-09  3.46451175e-09  4.57530166e-01  3.40805398e-09  4.57530167e-01  1.60958507e-07  1.20465936e-07  6.00000000e-02 
 7.00000000e-02  4.57530162e-01  4.57530162e-01  3.40346862e-09  3.46451175e-09  4.57530162e-01  3.40805398e-09  4.57530162e-01  1.60958514e-07  1.20465703e-07  7.00000000e-02 
 8.00000000e-02  4.57530172e-01  4.57530172e-01  3.40346862e-09  3.46451176e-09  4.57530172e-01  3.40805399e-09  4.57530172e-01  1.60958516e-07  1.20465394e-07  8.00000000e-02 
 9.00000000e-02  4.57530165e-01  4.57530165e-01  3.40346862e-09  3.46451175e-09  4.57530165e-01  3.40805393e-09  4.57530165e-01  1.60958523e-07  1.20465039e-07  9.00000000e-02 
 1.00000000e-01  4.57530160e-01  4.57530160e-01  3.40346861e-09  3.46451175e-09  4.57530160e-01  3.40805398e-09  4.57530160e-01  1.60958505e-07  1.20464741e-07  1.00000000e-01 
 1.10000000e-01  4.57530164e-01  4.57530164e-01  3.40346862e-09  3.46451175e-09  4.57530164e-01  3.40805398e-09  4.57530164e-01  1.60958510e-07  1.20464538e-07  1.10000000e-01 
 1.20000000e-01  4.57530169e-01  4.57530169e-01  3.40346862e-09  3.46451175e-09  4.57530169e-01  3.40805399e-09  4.57530169e-01  1.60958512e-07  1.20464313e-07  1.20000000e-01 
 1.30000000e-01  4.57530145e-01  4.57530145e-01  3.40346861e-09  3.46451175e-09  4.57530145e-01  3.40805398e-09  4.57530145e-01  1.60958479e-07  1.20463943e-07  1.30000000e-01 
 1.40000000e-01  4.57530174e-01  4.57530174e-01  3.40346862e-09  3.46451176e-09  4.57530174e-01  3.40805399e-09  4.57530174e-01  1.60958535e-07  1.20463699e-07  1.40000000e-01 
 1.50000000e-01  4.57530178e-01  4.57530178e-01  3.40346862e-09  3.46451176e-09  4.57530178e-01  3.40805399e-09  4.57530178e-01  1.60958524e-07  1.20463561e-07  1.50000000e-01 
 1.60000000e-01  4.57530169e-01  4.57530169e-01  3.40346862e-09  3.46451175e-09  4.57530169e-01  3.40805398e-09  4.57530169e-01  1.60958524e-07  1.20463413e-07  1.60000000e-01 
 1.70000000e-01  4.57530180e-01  4.57530180e-01  3.40346862e-09  3.46451176e-09  4.57530180e-01  3.40805399e-09  4.57530180e-01  1.60958541e-07  1.20463127e-07  1.70000000e-01 
 1.80000000e-01  4.57530164e-01  4.57530164e-01  3.40346862e-09  3.46451175e-09  4.57530164e-01  3.40805398e-09  4.57530164e-01  1.60958498e-07  1.20462991e-07  1.80000000e-01 
 1.90000000e-01  4.57530164e-01  4.57530164e-01  3.40346862e-09  3.46451175e-09  4.57530164e-01  3.40805398e-09  4.57530164e-01  1.60958503e-07  1.20462621e-07  1.90000000e-01 
 2.00000000e-01  4.57530159e-01  4.57530159e-01  3.40346861e-09  3.46451175e-09  4.57530159e-01  3.40805398e-09  4.57530159e-01  1.60958497e-07  1.20462566e-07  2.00000000e-01 
 2.10000000e-01  4.57530168e-01  4.57530168e-01  3.40346862e-09  3.46451175e-09  4.57530168e-01  3.40805398e-09  4.57530168e-01  1.60958519e-07  1.20462381e-07  2.10000000e-01 
 2.20000000e-01  4.57530172e-01  4.57530172e-01  3.40346862e-09  3.46451176e-09  4.57530172e-01  3.40805399e-09  4.57530172e-01  1.60958523e-07  1.20462248e-07  2.20000000e-01 
 2.30000000e-01  4.57530172e-01  4.57530172e-01  3.40346862e-09  3.46451176e-09  4.57530172e-01  3.40805393e-09  4.57530172e-01  1.60958529e-07  1.20462090e-07  2.30000000e-01 
 2.40000000e-01  4.57530150e-01  4.57530150e-01  3.40346861e-09  3.46451175e-09  4.57530150e-01  3.40805398e-09  4.57530150e-01  1.60958497e-07  1.20461738e-07  2.40000000e-01 
 2.50000000e-01  4.57530183e-01  4.57530183e-01  3.40346862e-09  3.46451176e-09  4.57530183e-01  3.40805399e-09  4.57530183e-01  1.60958540e-07  1.20461774e-07  2.50000000e-01 
 2.60000000e-01  4.57530171e-01  4.57530171e-01  3.40346862e-09  3.46451175e-09  4.57530171e-01  3.40805393e-09  4.57530171e-01  1.60958510e-07  1.20461612e-07  2.60000000e-01 
 2.70000000e-01  4.57530169e-01  4.57530169e-01  3.40346862e-09  3.46451175e-09  4.57530169e-01  3.40805398e-09  4.57530169e-01  1.60958520e-07  1.20461447e-07  2.70000000e-01 
 2.80000000e-01  4.57530147e-01  4.57530147e-01  3.40346861e-09  3.46451175e-09  4.57530147e-01  3.40805398e-09  4.57530147e-01  1.60958473e-07  1.20461298e-07  2.80000000e-01 
 2.90000000e-01  4.57530178e-01  4.57530178e-01  3.40346862e-09  3.46451176e-09  4.57530178e-01  3.40805399e-09  4.57530178e-01  1.60958531e-07  1.20461234e-07  2.90000000e-01 
 3.00000000e-01  4.57530159e-01  4.57530159e-01  3.40346861e-09  3.46451175e-09  4.57530159e-01  3.40805393e-09  4.57530159e-01  1.60958483e-07  1.20460999e-07  3.00000000e-01 
 3.10000000e-01  4.57530138e-01  4.57530138e-01  3.40346861e-09  3.46451175e-09  4.57530138e-01  3.40805398e-09  4.57530138e-01  1.60958462e-07  1.20460804e-07  3.10000000e-01 
 3.20000000e-01  4.57530172e-01  4.57530172e-01  3.40346862e-09  3.46451176e-09  4.57530172e-01  3.40805399e-09  4.57530172e-01  1.60958517e-07  1.20460832e-07  3.20000000e-01 
 3.30000000e-01  4.57530167e-01  4.57530167e-01  3.40346862e-09  3.46451175e-09  4.57530167e-01  3.40805398e-09  4.57530167e-01  1.60958507e-07  1.20460630e-07  3.30000000e-01 
 3.40000000e-01  4.57530153e-01  4.57530153e-01  3.40346861e-09  3.46451175e-09  4.57530153e-01  3.40805398e-09  4.57530153e-01  1.60958505e-07  1.20460527e-07  3.40000000e-01 
 3.50000000e-01  4.57530146e-01  4.57530146e-01  3.40346861e-09  3.46451175e-09  4.57530146e-01  3.40805398e-09  4.57530146e-01  1.60958488e-07  1.20460335e-07  3.50000000e-01 
 3.60000000e-01  4.57530147e-01  4.57530147e-01  3.40346861e-09  3.46451175e-09  4.57530147e-01  3.40805398e-09  4.57530147e-01  1.60958489e-07  1.20460285e-07  3.60000000e-01 
 3.70000000e-01  4.57530150e-01  4.57530150e-01  3.40346861e-09  3.46451175e-09  4.57530150e-01  3.40805393e-09  4.57530150e-01  1.60958498e-07  1.20460211e-07  3.70000000e-01 
 3.80000000e-01  4.57530174e-01  4.57530174e-01  3.40346862e-09  3.46451176e-09  4.57530174e-01  3.40805399e-09  4.57530174e-01  1.60958521e-07  1.20460157e-07  3.80000000e-01 
 3.90000000e-01  4.57530132e-01  4.57530132e-01  3.40346861e-09  3.46451175e-09  4.57530132e-01  3.40805398e-09  4.57530132e-01  1.60958454e-07  1.20459987e-07  3.90000000e-01 
 4.00000000e-01  4.57530179e-01  4.57530179e-01  3.40346862e-09  3.46451176e-09  4.57530179e-01  3.40805399e-09  4.57530179e-01  1.60958523e-07  1.20460019e-07  4.00000000e-01 
 4.10000000e-01  4.57530168e-01  4.57530168e-01  3.40346862e-09  3.46451175e-09  4.57530168e-01  3.40805393e-09  4.57530168e-01  1.60958514e-07  1.20459863e-07  4.10000000e-01 
 4.20000000e-01  4.57530172e-01  4.57530172e-01  3.40346862e-09  3.46451176e-09  4.57530172e-01  3.40805399e-09  4.57530172e-01  1.60958529e-07  1.20459831e-07  4.20000000e-01 
 4.30000000e-01  4.57530153e-01  4.57530153e-01  3.40346861e-09  3.46451175e-09  4.57530153e-01  3.40805393e-09  4.57530153e-01  1.60958500e-07  1.20459646e-07  4.30000000e-01 
 4.40000000e-01  4.57530134e-01  4.57530134e-01  3.40346861e-09  3.46451175e-09  4.57530134e-01  3.40805393e-09  4.57530134e-01  1.60958477e-07  1.20459447e-07  4.40000000e-01 
 4.50000000e-01  4.57530170e-01  4.57530170e-01  3.40346862e-09  3.46451175e-09  4.57530170e-01  3.40805399e-09  4.57530170e-01  1.60958523e-07  1.20459482e-07  4.50000000e-01 
 4.60000000e-01  4.57530162e-01  4.57530162e-01  3.40346862e-09  3.46451175e-09  4.57530162e-01  3.40805398e-09  4.57530162e-01  1.60958508e-07  1.20459394e-07  4.60000000e-01 
 4.70000000e-01  4.57530171e-01  4.57530171e-01  3.40346862e-09  3.46451175e-09  4.57530171e-01  3.40805399e-09  4.57530171e-01  1.60958508e-07  1.20459308e-07  4.70000000e-01 
 4.80000000e-01  4.57530155e-01  4.57530155e-01  3.40346861e-09  3.46451175e-09  4.57530155e-01  3.40805398e-09  4.57530155e-01  1.60958506e-07  1.20459088e-07  4.80000000e-01 
 4.90000000e-01  4.57530160e-01  4.57530160e-01  3.40346861e-09  3.46451175e-09  4.57530160e-01  3.40805393e-09  4.57530160e-01  1.60958511e-07  1.20459131e-07  4.90000000e-01 
 5.00000000e-01  4.57530151e-01  4.57530151e-01  3.40346861e-09  3.46451175e-09  4.57530151e-01  3.40805398e-09  4.57530151e-01  1.60958480e-07  1.20458886e-07  5.00000000e-01 
 5.10000000e-01  4.57530156e-01  4.57530156e-01  3.40346861e-09  3.46451175e-09  4.57530156e-01  3.40805398e-09  4.57530156e-01  1.60958493e-07  1.20458886e-07  5.10000000e-01 
 5.20000000e-01  4.57530165e-01  4.57530165e-01  3.40346862e-09  3.46451175e-09  4.57530165e-01  3.40805398e-09  4.57530165e-01  1.60958505e-07  1.20458846e-07  5.20000000e-01 
 5.30000000e-01  4.57530140e-01  4.57530140e-01  3.40346861e-09  3.46451175e-09  4.57530140e-01  3.40805393e-09  4.57530140e-01  1.60958487e-07  1.20458711e-07  5.30000000e-01 
 5.40000000e-01  4.57530158e-01  4.57530158e-01  3.40346861e-09  3.46451175e-09  4.57530158e-01  3.40805398e-09  4.57530158e-01  1.60958501e-07  1.20458669e-07  5.40000000e-01 
 5.50000000e-01  4.57530161e-01  4.57530161e-01  3.40346862e-09  3.46451175e-09  4.57530161e-01  3.40805398e-09  4.57530161e-01  1.60958509e-07  1.20458605e-07  5.50000000e-01 
 5.60000000e-01  4.57530180e-01  4.57530180e-01  3.40346862e-09  3.46451176e-09  4.57530179e-01  3.40805399e-09  4.57530180e-01  1.60958534e-07  1.20458512e-07  5.60000000e-01 
 5.70000000e-01  4.57530161e-01  4.57530161e-01  3.40346862e-09  3.46451175e-09  4.57530161e-01  3.40805398e-09  4.57530161e-01  1.60958502e-07  1.20458395e-07  5.70000000e-01 
 5.80000000e-01  4.57530125e-01  4.57530125e-01  3.40346861e-09  3.46451175e-09  4.57530125e-01  3.40805398e-09  4.57530125e-01  1.60958458e-07  1.20458175e-07  5.80000000e-01 
 5.90000000e-01  4.57530174e-01  4.57530174e-01  3.40346862e-09  3.46451176e-09  4.57530174e-01  3.40805399e-09  4.57530174e-01  1.60958526e-07  1.20458338e-07  5.90000000e-01 
 6.00000000e-01  4.57530166e-01  4.57530166e-01  3.40346862e-09  3.46451175e-09  4.57530166e-01  3.40805398e-09  4.57530166e-01  1.60958513e-07  1.20458203e-07  6.00000000e-01 
 6.10000000e-01  4.57530163e-01  4.57530163e-01  3.40346862e-09  3.46451175e-09  4.57530163e-01  3.40805398e-09  4.57530163e-01  1.60958501e-07  1.20458054e-07  6.10000000e-01 
 6.20000000e-01  4.57530188e-01  4.57530188e-01  3.40346862e-09  3.46451176e-09  4.57530188e-01  3.40805399e-09  4.57530188e-01  1.60958544e-07  1.20458047e-07  6.20000000e-01 
 6.30000000e-01  4.57530162e-01  4.57530162e-01  3.40346862e-09  3.46451175e-09  4.57530162e-01  3.40805398e-09  4.57530162e-01  1.60958495e-07  1.20458004e-07  6.30000000e-01 
 6.40000000e-01  4.57530141e-01  4.57530141e-01  3.40346861e-09  3.46451175e-09  4.57530141e-01  3.40805398e-09  4.57530141e-01  1.60958470e-07  1.20457756e-07  6.40000000e-01 
 6.50000000e-01  4.57530163e-01  4.57530163e-01  3.40346862e-09  3.46451175e-09  4.57530163e-01  3.40805398e-09  4.57530163e-01  1.60958504e-07  1.20457869e-07  6.50000000e-01 
 6.60000000e-01  4.57530159e-01  4.57530159e-01  3.40346861e-09  3.46451175e-09  4.57530159e-01  3.40805398e-09  4.57530159e-01  1.60958498e-07  1.20457713e-07  6.60000000e-01 
 6.70000000e-01  4.57530143e-01  4.57530143e-01  3.40346861e-09  3.46451175e-09  4.57530143e-01  3.40805398e-09  4.57530143e-01  1.60958483e-07  1.20457599e-07  6.70000000e-01 
 6.80000000e-01  4.57530184e-01  4.57530184e-01  3.40346862e-09  3.46451176e-09  4.57530184e-01  3.40805399e-09  4.57530184e-01  1.60958524e-07  1.20457756e-07  6.80000000e-01 
 6.90000000e-01  4.57530181e-01  4.57530181e-01  3.40346862e-09  3.46451176e-09  4.57530181e-01  3.40805399e-09  4.57530181e-01  1.60958535e-07  1.20457479e-07  6.90000000e-01 
 7.00000000e-01  4.57530144e-01  4.57530144e-01  3.40346861e-09  3.46451175e-09  4.57530144e-01  3.40805398e-09  4.57530144e-01  1.60958488e-07  1.20457294e-07  7.00000000e-01 
 7.10000000e-01  4.57530150e-01  4.57530150e-01  3.40346861e-09  3.46451175e-09  4.57530150e-01  3.40805393e-09  4.57530150e-01  1.60958485e-07  1.20457244e-07  7.10000000e-01 
 7.20000000e-01  4.57530164e-01  4.57530164e-01  3.40346862e-09  3.46451175e-09  4.57530164e-01  3.40805398e-09  4.57530164e-01  1.60958505e-07  1.20457237e-07  7.20000000e-01 
 7.30000000e-01  4.57530143e-01  4.57530143e-01  3.40346861e-09  3.46451175e-09  4.57530143e-01  3.40805398e-09  4.57530143e-01  1.60958488e-07  1.20457052e-07  7.30000000e-01 
 7.40000000e-01  4.57530161e-01  4.57530161e-01  3.40346862e-09  3.46451175e-09  4.57530161e-01  3.40805398e-09  4.57530161e-01  1.60958505e-07  1.20456988e-07  7.40000000e-01 
 7.50000000e-01  4.57530161e-01  4.57530161e-01  3.40346862e-09  3.46451175e-09  4.57530161e-01  3.40805393e-09  4.57530161e-01  1.60958515e-07  1.20456896e-07  7.50000000e-01 
 7.60000000e-01  4.57530150e-01  4.57530150e-01  3.40346861e-09  3.46451175e-09  4.57530150e-01  3.40805398e-09  4.57530150e-01  1.60958500e-07  1.20456910e-07  7.60000000e-01 
 7.70000000e-01  4.57530153e-01  4.57530153e-01  3.40346861e-09  3.46451175e-09  4.57530152e-01  3.40805398e-09  4.57530153e-01  1.60958497e-07  1.20456697e-07  7.70000000e-01 
 7.80000000e-01  4.57530182e-01  4.57530182e-01  3.40346862e-09  3.46451176e-09  4.57530182e-01  3.40805399e-09  4.57530182e-01  1.60958535e-07  1.20456711e-07  7.80000000e-01 
 7.90000000e-01  4.57530162e-01  4.57530162e-01  3.40346862e-09  3.46451175e-09  4.57530162e-01  3.40805393e-09  4.57530162e-01  1.60958496e-07  1.20456590e-07  7.90000000e-01 
 8.00000000e-01  4.57530180e-01  4.57530180e-01  3.40346862e-09  3.46451176e-09  4.57530180e-01  3.40805399e-09  4.57530180e-01  1.60958530e-07  1.20456484e-07  8.00000000e-01 
 8.10000000e-01  4.57530160e-01  4.57530160e-01  3.40346861e-09  3.46451175e-09  4.57530160e-01  3.40805398e-09  4.57530160e-01  1.60958506e-07  1.20456448e-07  8.10000000e-01 
 8.20000000e-01  4.57530154e-01  4.57530154e-01  3.40346861e-09  3.46451175e-09  4.57530154e-01  3.40805398e-09  4.57530154e-01  1.60958491e-07  1.20456349e-07  8.20000000e-01 
 8.30000000e-01  4.57530183e-01  4.57530183e-01  3.40346862e-09  3.46451176e-09  4.57530183e-01  3.40805393e-09  4.57530183e-01  1.60958536e-07  1.20456306e-07  8.30000000e-01 
 8.40000000e-01  4.57530152e-01  4.57530152e-01  3.40346861e-09  3.46451175e-09  4.57530152e-01  3.40805398e-09  4.57530152e-01  1.60958502e-07  1.20456157e-07  8.40000000e-01 
 8.50000000e-01  4.57530176e-01  4.57530176e-01  3.40346862e-09  3.46451176e-09  4.57530176e-01  3.40805399e-09  4.57530176e-01  1.60958534e-07  1.20456107e-07  8.50000000e-01 
 8.60000000e-01  4.57530174e-01  4.57530174e-01  3.40346862e-09  3.46451176e-09  4.57530174e-01  3.40805399e-09  4.57530174e-01  1.60958527e-07  1.20456050e-07  8.60000000e-01 
 8.70000000e-01  4.57530159e-01  4.57530159e-01  3.40346861e-09  3.46451175e-09  4.57530159e-01  3.40805398e-09  4.57530159e-01  1.60958502e-07  1.20455873e-07  8.70000000e-01 
 8.80000000e-01  4.57530163e-01  4.57530163e-01  3.40346862e-09  3.46451175e-09  4.57530163e-01  3.40805398e-09  4.57530163e-01  1.60958514e-07  1.20455844e-07  8.80000000e-01 
 8.90000000e-01  4.57530162e-01  4.57530162e-01  3.40346862e-09  3.46451175e-09  4.57530162e-01  3.40805398e-09  4.57530162e-01  1.60958512e-07  1.20455731e-07  8.90000000e-01 
 9.00000000e-01  4.57530149e-01  4.57530149e-01  3.40346861e-09  3.46451175e-09  4.57530149e-01  3.40805398e-09  4.57530149e-01  1.60958488e-07  1.20455518e-07  9.00000000e-01 
 9.10000000e-01  4.57530152e-01  4.57530152e-01  3.40346861e-09  3.46451175e-09  4.57530151e-01  3.40805398e-09  4.57530152e-01  1.60958491e-07  1.20455546e-07  9.10000000e-01 
 9.20000000e-01  4.57530146e-01  4.57530146e-01  3.40346861e-09  3.46451175e-09  4.57530146e-01  3.40805398e-09  4.57530146e-01  1.60958481e-07  1.20455482e-07  9.20000000e-01 
 9.30000000e-01  4.57530154e-01  4.57530154e-01  3.40346861e-09  3.46451175e-09  4.57530153e-01  3.40805393e-09  4.57530154e-01  1.60958500e-07  1.20455290e-07  9.30000000e-01 
 9.40000000e-01  4.57530176e-01  4.57530176e-01  3.40346862e-09  3.46451176e-09  4.57530176e-01  3.40805393e-09  4.57530176e-01  1.60958529e-07  1.20455297e-07  9.40000000e-01 
 9.50000000e-01  4.57530159e-01  4.57530159e-01  3.40346861e-09  3.46451175e-09  4.57530159e-01  3.40805398e-09  4.57530159e-01  1.60958506e-07  1.20455212e-07  9.50000000e-01 
 9.60000000e-01  4.57530165e-01  4.57530165e-01  3.40346862e-09  3.46451175e-09  4.57530165e-01  3.40805398e-09  4.57530165e-01  1.60958517e-07  1.20455148e-07  9.60000000e-01 
 9.70000000e-01  4.57530171e-01  4.57530171e-01  3.40346862e-09  3.46451175e-09  4.57530171e-01  3.40805399e-09  4.57530171e-01  1.60958512e-07  1.20454985e-07  9.70000000e-01 
 9.80000000e-01  4.57530139e-01  4.57530139e-01  3.40346861e-09  3.46451175e-09  4.57530139e-01  3.40805398e-09  4.57530139e-01  1.60958478e-07  1.20454864e-07  9.80000000e-01 
 9.90000000e-01  4.57530171e-01  4.57530171e-01  3.40346862e-09  3.46451175e-09  4.57530171e-01  3.40805393e-09  4.57530171e-01  1.60958528e-07  1.20454722e-07  9.90000000e-01 
 1.00000000e+00  4.57530171e-01  4.57530171e-01  3.40346862e-09  3.46451175e-09  4.57530171e-01  3.40805399e-09  4.57530171e-01  1.60958528e-07  1.20454700e-07  1.00000000e+00 
 1.01000000e+00  4.57530171e-01  4.57530171e-01  3.40346862e-09  3.46451175e-09  4.57530171e-01  3.40805399e-09  4.57530171e-01  1.60958508e-07  1.20454629e-07  1.01000000e+00 
 1.02000000e+00  4.57530164e-01  4.57530164e-01  3.40346862e-09  3.46451175e-09  4.57530164e-01  3.40805398e-09  4.57530164e-01  1.60958506e-07  1.20454523e-07  1.02000000e+00 
 1.03000000e+00  4.57530158e-01  4.57530158e-01  3.40346861e-09  3.46451175e-09  4.57530158e-01  3.40805398e-09  4.57530158e-01  1.60958503e-07  1.20454445e-07  1.03000000e+00 
 1.04000000e+00  4.57530182e-01  4.57530182e-01  3.40346862e-09  3.46451176e-09  4.57530181e-01  3.40805399e-09  4.57530181e-01  1.60958533e-07  1.20454374e-07  1.04000000e+00 
 1.05000000e+00  4.57530159e-01  4.57530159e-01  3.40346861e-09  3.46451175e-09  4.57530159e-01  3.40805393e-09  4.57530159e-01  1.60958504e-07  1.20454217e-07  1.05000000e+00 
 1.06000000e+00  4.57530158e-01  4.57530158e-01  3.40346861e-09  3.46451175e-09  4.57530158e-01  3.40805398e-09  4.57530158e-01  1.60958508e-07  1.20454175e-07  1.06000000e+00 
 1.07000000e+00  4.57530175e-01  4.57530175e-01  3.40346862e-09  3.46451176e-09  4.57530175e-01  3.40805393e-09  4.57530175e-01  1.60958520e-07  1.20454125e-07  1.07000000e+00 
 1.08000000e+00  4.57530192e-01  4.57530192e-01  3.40346862e-09  3.46451176e-09  4.57530192e-01  3.40805399e-09  4.57530192e-01  1.60958550e-07  1.20454089e-07  1.08000000e+00 
 1.09000000e+00  4.57530189e-01  4.57530189e-01  3.40346862e-09  3.46451176e-09  4.57530189e-01  3.40805399e-09  4.57530189e-01  1.60958547e-07  1.20453961e-07  1.09000000e+00 
 1.10000000e+00  4.57530136e-01  4.57530136e-01  3.40346861e-09  3.46451175e-09  4.57530136e-01  3.40805398e-09  4.57530136e-01  1.60958466e-07  1.20453599e-07  1.10000000e+00 
