 v-sweep         v(b0)           v(b1)           v(b2)           v(b3)           v(b4)           v(b5)           v(b6)           i(vbias)        i(viout)        v(vout)        
 0.00000000e+00  3.40892062e-09  3.48513135e-09  4.56149891e-01  3.32916190e-09  3.23226492e-09  4.56149891e-01  3.21878795e-09  1.54506708e-07  5.13834590e-08  0.00000000e+00 
 1.00000000e-02  3.40892066e-09  3.48513134e-09  4.56149894e-01  3.32916188e-09  3.23226490e-09  4.56149894e-01  3.21878794e-09  1.54506722e-07  5.13831045e-08  1.00000000e-02 
 2.00000000e-02  3.40892066e-09  3.48513135e-09  4.56149902e-01  3.32916188e-09  3.23226490e-09  4.56149902e-01  3.21878801e-09  1.54506731e-07  5.13827654e-08  2.00000000e-02 
 3.00000000e-02  3.40892066e-09  3.48513134e-09  4.56149878e-01  3.32916194e-09  3.23226490e-09  4.56149877e-01  3.21878793e-09  1.54506691e-07  5.13822502e-08  3.00000000e-02 
 4.00000000e-02  3.40892066e-09  3.48513134e-09  4.56149903e-01  3.32916194e-09  3.23226490e-09  4.56149903e-01  3.21878795e-09  1.54506737e-07  5.13819773e-08  4.00000000e-02 
 5.00000000e-02  3.40892066e-09  3.48513134e-09  4.56149909e-01  3.32916188e-09  3.23226490e-09  4.56149909e-01  3.21878793e-09  1.54506733e-07  5.13815390e-08  5.00000000e-02 
 6.00000000e-02  3.40892066e-09  3.48513134e-09  4.56149891e-01  3.32916194e-09  3.23226490e-09  4.56149890e-01  3.21878801e-09  1.54506714e-07  5.13812828e-08  6.00000000e-02 
 7.00000000e-02  3.40892060e-09  3.48513134e-09  4.56149897e-01  3.32916194e-09  3.23226490e-09  4.56149897e-01  3.21878793e-09  1.54506731e-07  5.13809972e-08  7.00000000e-02 
 8.00000000e-02  3.40892061e-09  3.48513140e-09  4.56149927e-01  3.32916188e-09  3.23226491e-09  4.56149927e-01  3.21878801e-09  1.54506770e-07  5.13807370e-08  8.00000000e-02 
 9.00000000e-02  3.40892066e-09  3.48513139e-09  4.56149907e-01  3.32916194e-09  3.23226490e-09  4.56149906e-01  3.21878793e-09  1.54506736e-07  5.13804590e-08  9.00000000e-02 
 1.00000000e-01  3.40892066e-09  3.48513134e-09  4.56149885e-01  3.32916188e-09  3.23226490e-09  4.56149884e-01  3.21878795e-09  1.54506713e-07  5.13801357e-08  1.00000000e-01 
 1.10000000e-01  3.40892066e-09  3.48513135e-09  4.56149905e-01  3.32916194e-09  3.23226490e-09  4.56149905e-01  3.21878793e-09  1.54506731e-07  5.13799252e-08  1.10000000e-01 
 1.20000000e-01  3.40892066e-09  3.48513139e-09  4.56149915e-01  3.32916188e-09  3.23226490e-09  4.56149915e-01  3.21878801e-09  1.54506754e-07  5.13797129e-08  1.20000000e-01 
 1.30000000e-01  3.40892066e-09  3.48513140e-09  4.56149920e-01  3.32916194e-09  3.23226491e-09  4.56149920e-01  3.21878799e-09  1.54506738e-07  5.13795975e-08  1.30000000e-01 
 1.40000000e-01  3.40892066e-09  3.48513133e-09  4.56149882e-01  3.32916188e-09  3.23226490e-09  4.56149882e-01  3.21878794e-09  1.54506697e-07  5.13792600e-08  1.40000000e-01 
 1.50000000e-01  3.40892066e-09  3.48513135e-09  4.56149890e-01  3.32916188e-09  3.23226490e-09  4.56149889e-01  3.21878795e-09  1.54506710e-07  5.13790344e-08  1.50000000e-01 
 1.60000000e-01  3.40892066e-09  3.48513134e-09  4.56149909e-01  3.32916188e-09  3.23226490e-09  4.56149909e-01  3.21878793e-09  1.54506753e-07  5.13788621e-08  1.60000000e-01 
 1.70000000e-01  3.40892066e-09  3.48513134e-09  4.56149906e-01  3.32916188e-09  3.23226490e-09  4.56149906e-01  3.21878801e-09  1.54506722e-07  5.13786915e-08  1.70000000e-01 
 1.80000000e-01  3.40892066e-09  3.48513134e-09  4.56149885e-01  3.32916188e-09  3.23226490e-09  4.56149885e-01  3.21878793e-09  1.54506694e-07  5.13784233e-08  1.80000000e-01 
 1.90000000e-01  3.40892066e-09  3.48513134e-09  4.56149896e-01  3.32916194e-09  3.23226490e-09  4.56149896e-01  3.21878801e-09  1.54506717e-07  5.13782403e-08  1.90000000e-01 
 2.00000000e-01  3.40892060e-09  3.48513134e-09  4.56149902e-01  3.32916188e-09  3.23226490e-09  4.56149902e-01  3.21878799e-09  1.54506738e-07  5.13781568e-08  2.00000000e-01 
 2.10000000e-01  3.40892066e-09  3.48513134e-09  4.56149906e-01  3.32916194e-09  3.23226490e-09  4.56149906e-01  3.21878799e-09  1.54506734e-07  5.13780591e-08  2.10000000e-01 
 2.20000000e-01  3.40892066e-09  3.48513134e-09  4.56149902e-01  3.32916188e-09  3.23226490e-09  4.56149902e-01  3.21878794e-09  1.54506725e-07  5.13779135e-08  2.20000000e-01 
 2.30000000e-01  3.40892066e-09  3.48513140e-09  4.56149889e-01  3.32916188e-09  3.23226490e-09  4.56149889e-01  3.21878795e-09  1.54506723e-07  5.13776381e-08  2.30000000e-01 
 2.40000000e-01  3.40892066e-09  3.48513139e-09  4.56149891e-01  3.32916188e-09  3.23226490e-09  4.56149891e-01  3.21878799e-09  1.54506719e-07  5.13776630e-08  2.40000000e-01 
 2.50000000e-01  3.40892066e-09  3.48513139e-09  4.56149882e-01  3.32916188e-09  3.23226490e-09  4.56149882e-01  3.21878799e-09  1.54506717e-07  5.13773841e-08  2.50000000e-01 
 2.60000000e-01  3.40892066e-09  3.48513134e-09  4.56149903e-01  3.32916188e-09  3.23226490e-09  4.56149903e-01  3.21878799e-09  1.54506735e-07  5.13774605e-08  2.60000000e-01 
 2.70000000e-01  3.40892066e-09  3.48513135e-09  4.56149930e-01  3.32916188e-09  3.23226491e-09  4.56149930e-01  3.21878799e-09  1.54506758e-07  5.13773148e-08  2.70000000e-01 
 2.80000000e-01  3.40892066e-09  3.48513133e-09  4.56149905e-01  3.32916194e-09  3.23226490e-09  4.56149905e-01  3.21878799e-09  1.54506725e-07  5.13770839e-08  2.80000000e-01 
 2.90000000e-01  3.40892066e-09  3.48513135e-09  4.56149902e-01  3.32916188e-09  3.23226490e-09  4.56149902e-01  3.21878794e-09  1.54506739e-07  5.13771070e-08  2.90000000e-01 
 3.00000000e-01  3.40892066e-09  3.48513134e-09  4.56149908e-01  3.32916188e-09  3.23226490e-09  4.56149908e-01  3.21878801e-09  1.54506738e-07  5.13769081e-08  3.00000000e-01 
 3.10000000e-01  3.40892066e-09  3.48513134e-09  4.56149908e-01  3.32916188e-09  3.23226490e-09  4.56149908e-01  3.21878799e-09  1.54506742e-07  5.13768263e-08  3.10000000e-01 
 3.20000000e-01  3.40892066e-09  3.48513140e-09  4.56149898e-01  3.32916194e-09  3.23226490e-09  4.56149898e-01  3.21878794e-09  1.54506731e-07  5.13766736e-08  3.20000000e-01 
 3.30000000e-01  3.40892066e-09  3.48513133e-09  4.56149907e-01  3.32916194e-09  3.23226490e-09  4.56149907e-01  3.21878795e-09  1.54506739e-07  5.13765741e-08  3.30000000e-01 
 3.40000000e-01  3.40892066e-09  3.48513135e-09  4.56149914e-01  3.32916194e-09  3.23226490e-09  4.56149914e-01  3.21878793e-09  1.54506749e-07  5.13764853e-08  3.40000000e-01 
 3.50000000e-01  3.40892066e-09  3.48513139e-09  4.56149914e-01  3.32916194e-09  3.23226490e-09  4.56149914e-01  3.21878801e-09  1.54506733e-07  5.13764142e-08  3.50000000e-01 
 3.60000000e-01  3.40892066e-09  3.48513139e-09  4.56149899e-01  3.32916188e-09  3.23226490e-09  4.56149899e-01  3.21878799e-09  1.54506726e-07  5.13763290e-08  3.60000000e-01 
 3.70000000e-01  3.40892066e-09  3.48513134e-09  4.56149908e-01  3.32916194e-09  3.23226490e-09  4.56149907e-01  3.21878799e-09  1.54506743e-07  5.13762721e-08  3.70000000e-01 
 3.80000000e-01  3.40892066e-09  3.48513135e-09  4.56149912e-01  3.32916194e-09  3.23226490e-09  4.56149912e-01  3.21878794e-09  1.54506748e-07  5.13762082e-08  3.80000000e-01 
 3.90000000e-01  3.40892066e-09  3.48513133e-09  4.56149899e-01  3.32916188e-09  3.23226490e-09  4.56149899e-01  3.21878801e-09  1.54506717e-07  5.13760803e-08  3.90000000e-01 
 4.00000000e-01  3.40892066e-09  3.48513135e-09  4.56149906e-01  3.32916188e-09  3.23226490e-09  4.56149906e-01  3.21878799e-09  1.54506743e-07  5.13760874e-08  4.00000000e-01 
 4.10000000e-01  3.40892066e-09  3.48513133e-09  4.56149903e-01  3.32916188e-09  3.23226490e-09  4.56149903e-01  3.21878794e-09  1.54506741e-07  5.13759524e-08  4.10000000e-01 
 4.20000000e-01  3.40892066e-09  3.48513141e-09  4.56149907e-01  3.32916188e-09  3.23226490e-09  4.56149907e-01  3.21878801e-09  1.54506743e-07  5.13757996e-08  4.20000000e-01 
 4.30000000e-01  3.40892066e-09  3.48513139e-09  4.56149901e-01  3.32916188e-09  3.23226490e-09  4.56149900e-01  3.21878793e-09  1.54506724e-07  5.13757108e-08  4.30000000e-01 
 4.40000000e-01  3.40892066e-09  3.48513139e-09  4.56149898e-01  3.32916194e-09  3.23226490e-09  4.56149898e-01  3.21878795e-09  1.54506733e-07  5.13758778e-08  4.40000000e-01 
 4.50000000e-01  3.40892066e-09  3.48513140e-09  4.56149917e-01  3.32916194e-09  3.23226490e-09  4.56149917e-01  3.21878793e-09  1.54506762e-07  5.13756859e-08  4.50000000e-01 
 4.60000000e-01  3.40892066e-09  3.48513134e-09  4.56149906e-01  3.32916194e-09  3.23226490e-09  4.56149906e-01  3.21878795e-09  1.54506729e-07  5.13756291e-08  4.60000000e-01 
 4.70000000e-01  3.40892066e-09  3.48513135e-09  4.56149891e-01  3.32916194e-09  3.23226490e-09  4.56149891e-01  3.21878793e-09  1.54506721e-07  5.13754976e-08  4.70000000e-01 
 4.80000000e-01  3.40892066e-09  3.48513140e-09  4.56149907e-01  3.32916188e-09  3.23226490e-09  4.56149907e-01  3.21878795e-09  1.54506740e-07  5.13754550e-08  4.80000000e-01 
 4.90000000e-01  3.40892066e-09  3.48513133e-09  4.56149904e-01  3.32916188e-09  3.23226490e-09  4.56149904e-01  3.21878793e-09  1.54506728e-07  5.13754372e-08  4.90000000e-01 
 5.00000000e-01  3.40892066e-09  3.48513135e-09  4.56149902e-01  3.32916194e-09  3.23226490e-09  4.56149902e-01  3.21878795e-09  1.54506742e-07  5.13752596e-08  5.00000000e-01 
 5.10000000e-01  3.40892066e-09  3.48513134e-09  4.56149917e-01  3.32916188e-09  3.23226490e-09  4.56149916e-01  3.21878793e-09  1.54506761e-07  5.13752774e-08  5.10000000e-01 
 5.20000000e-01  3.40892066e-09  3.48513134e-09  4.56149905e-01  3.32916194e-09  3.23226490e-09  4.56149904e-01  3.21878801e-09  1.54506726e-07  5.13751566e-08  5.20000000e-01 
 5.30000000e-01  3.40892066e-09  3.48513134e-09  4.56149907e-01  3.32916188e-09  3.23226490e-09  4.56149907e-01  3.21878799e-09  1.54506739e-07  5.13749931e-08  5.30000000e-01 
 5.40000000e-01  3.40892066e-09  3.48513134e-09  4.56149900e-01  3.32916194e-09  3.23226490e-09  4.56149900e-01  3.21878794e-09  1.54506725e-07  5.13750464e-08  5.40000000e-01 
 5.50000000e-01  3.40892066e-09  3.48513134e-09  4.56149903e-01  3.32916194e-09  3.23226490e-09  4.56149903e-01  3.21878795e-09  1.54506733e-07  5.13748475e-08  5.50000000e-01 
 5.60000000e-01  3.40892066e-09  3.48513134e-09  4.56149889e-01  3.32916188e-09  3.23226490e-09  4.56149889e-01  3.21878793e-09  1.54506711e-07  5.13748155e-08  5.60000000e-01 
 5.70000000e-01  3.40892060e-09  3.48513140e-09  4.56149894e-01  3.32916194e-09  3.23226490e-09  4.56149894e-01  3.21878795e-09  1.54506727e-07  5.13748368e-08  5.70000000e-01 
 5.80000000e-01  3.40892066e-09  3.48513133e-09  4.56149892e-01  3.32916188e-09  3.23226490e-09  4.56149891e-01  3.21878799e-09  1.54506715e-07  5.13749114e-08  5.80000000e-01 
 5.90000000e-01  3.40892066e-09  3.48513141e-09  4.56149903e-01  3.32916194e-09  3.23226490e-09  4.56149903e-01  3.21878794e-09  1.54506746e-07  5.13746699e-08  5.90000000e-01 
 6.00000000e-01  3.40892066e-09  3.48513139e-09  4.56149892e-01  3.32916194e-09  3.23226490e-09  4.56149892e-01  3.21878795e-09  1.54506717e-07  5.13747764e-08  6.00000000e-01 
 6.10000000e-01  3.40892066e-09  3.48513139e-09  4.56149912e-01  3.32916194e-09  3.23226490e-09  4.56149912e-01  3.21878793e-09  1.54506762e-07  5.13746983e-08  6.10000000e-01 
 6.20000000e-01  3.40892066e-09  3.48513134e-09  4.56149908e-01  3.32916194e-09  3.23226490e-09  4.56149908e-01  3.21878801e-09  1.54506730e-07  5.13745917e-08  6.20000000e-01 
 6.30000000e-01  3.40892066e-09  3.48513135e-09  4.56149891e-01  3.32916194e-09  3.23226490e-09  4.56149891e-01  3.21878793e-09  1.54506719e-07  5.13745277e-08  6.30000000e-01 
 6.40000000e-01  3.40892066e-09  3.48513134e-09  4.56149904e-01  3.32916194e-09  3.23226490e-09  4.56149904e-01  3.21878795e-09  1.54506755e-07  5.13745704e-08  6.40000000e-01 
 6.50000000e-01  3.40892066e-09  3.48513134e-09  4.56149921e-01  3.32916188e-09  3.23226491e-09  4.56149921e-01  3.21878799e-09  1.54506751e-07  5.13744993e-08  6.50000000e-01 
 6.60000000e-01  3.40892066e-09  3.48513134e-09  4.56149897e-01  3.32916188e-09  3.23226490e-09  4.56149897e-01  3.21878799e-09  1.54506721e-07  5.13743501e-08  6.60000000e-01 
 6.70000000e-01  3.40892066e-09  3.48513134e-09  4.56149901e-01  3.32916188e-09  3.23226490e-09  4.56149900e-01  3.21878794e-09  1.54506736e-07  5.13743217e-08  6.70000000e-01 
 6.80000000e-01  3.40892066e-09  3.48513140e-09  4.56149912e-01  3.32916194e-09  3.23226490e-09  4.56149912e-01  3.21878795e-09  1.54506738e-07  5.13742222e-08  6.80000000e-01 
 6.90000000e-01  3.40892066e-09  3.48513133e-09  4.56149896e-01  3.32916188e-09  3.23226490e-09  4.56149896e-01  3.21878793e-09  1.54506709e-07  5.13741654e-08  6.90000000e-01 
 7.00000000e-01  3.40892066e-09  3.48513135e-09  4.56149901e-01  3.32916194e-09  3.23226490e-09  4.56149901e-01  3.21878801e-09  1.54506751e-07  5.13740659e-08  7.00000000e-01 
 7.10000000e-01  3.40892066e-09  3.48513140e-09  4.56149904e-01  3.32916188e-09  3.23226490e-09  4.56149904e-01  3.21878793e-09  1.54506732e-07  5.13740801e-08  7.10000000e-01 
 7.20000000e-01  3.40892066e-09  3.48513139e-09  4.56149881e-01  3.32916188e-09  3.23226490e-09  4.56149881e-01  3.21878795e-09  1.54506698e-07  5.13739451e-08  7.20000000e-01 
 7.30000000e-01  3.40892066e-09  3.48513134e-09  4.56149888e-01  3.32916194e-09  3.23226490e-09  4.56149888e-01  3.21878794e-09  1.54506713e-07  5.13738172e-08  7.30000000e-01 
 7.40000000e-01  3.40892066e-09  3.48513135e-09  4.56149907e-01  3.32916194e-09  3.23226490e-09  4.56149907e-01  3.21878794e-09  1.54506740e-07  5.13739167e-08  7.40000000e-01 
 7.50000000e-01  3.40892066e-09  3.48513139e-09  4.56149906e-01  3.32916188e-09  3.23226490e-09  4.56149906e-01  3.21878800e-09  1.54506713e-07  5.13738172e-08  7.50000000e-01 
 7.60000000e-01  3.40892066e-09  3.48513139e-09  4.56149900e-01  3.32916194e-09  3.23226490e-09  4.56149899e-01  3.21878793e-09  1.54506734e-07  5.13737959e-08  7.60000000e-01 
 7.70000000e-01  3.40892060e-09  3.48513134e-09  4.56149898e-01  3.32916188e-09  3.23226490e-09  4.56149898e-01  3.21878795e-09  1.54506738e-07  5.13736751e-08  7.70000000e-01 
 7.80000000e-01  3.40892061e-09  3.48513135e-09  4.56149919e-01  3.32916188e-09  3.23226490e-09  4.56149919e-01  3.21878799e-09  1.54506767e-07  5.13736254e-08  7.80000000e-01 
 7.90000000e-01  3.40892066e-09  3.48513139e-09  4.56149900e-01  3.32916188e-09  3.23226490e-09  4.56149900e-01  3.21878794e-09  1.54506736e-07  5.13736182e-08  7.90000000e-01 
 8.00000000e-01  3.40892066e-09  3.48513139e-09  4.56149890e-01  3.32916188e-09  3.23226490e-09  4.56149890e-01  3.21878795e-09  1.54506709e-07  5.13734690e-08  8.00000000e-01 
 8.10000000e-01  3.40892066e-09  3.48513134e-09  4.56149894e-01  3.32916188e-09  3.23226490e-09  4.56149894e-01  3.21878793e-09  1.54506718e-07  5.13734193e-08  8.10000000e-01 
 8.20000000e-01  3.40892066e-09  3.48513135e-09  4.56149903e-01  3.32916188e-09  3.23226490e-09  4.56149903e-01  3.21878801e-09  1.54506733e-07  5.13734406e-08  8.20000000e-01 
 8.30000000e-01  3.40892066e-09  3.48513140e-09  4.56149889e-01  3.32916194e-09  3.23226490e-09  4.56149889e-01  3.21878799e-09  1.54506717e-07  5.13732488e-08  8.30000000e-01 
 8.40000000e-01  3.40892066e-09  3.48513139e-09  4.56149901e-01  3.32916194e-09  3.23226490e-09  4.56149901e-01  3.21878799e-09  1.54506739e-07  5.13732914e-08  8.40000000e-01 
 8.50000000e-01  3.40892066e-09  3.48513134e-09  4.56149907e-01  3.32916188e-09  3.23226490e-09  4.56149907e-01  3.21878799e-09  1.54506737e-07  5.13732488e-08  8.50000000e-01 
 8.60000000e-01  3.40892066e-09  3.48513135e-09  4.56149893e-01  3.32916188e-09  3.23226490e-09  4.56149893e-01  3.21878799e-09  1.54506718e-07  5.13731564e-08  8.60000000e-01 
 8.70000000e-01  3.40892061e-09  3.48513134e-09  4.56149906e-01  3.32916188e-09  3.23226490e-09  4.56149906e-01  3.21878794e-09  1.54506744e-07  5.13731919e-08  8.70000000e-01 
 8.80000000e-01  3.40892066e-09  3.48513134e-09  4.56149903e-01  3.32916194e-09  3.23226490e-09  4.56149903e-01  3.21878801e-09  1.54506728e-07  5.13730143e-08  8.80000000e-01 
 8.90000000e-01  3.40892066e-09  3.48513140e-09  4.56149904e-01  3.32916194e-09  3.23226490e-09  4.56149904e-01  3.21878793e-09  1.54506744e-07  5.13729574e-08  8.90000000e-01 
 9.00000000e-01  3.40892066e-09  3.48513139e-09  4.56149898e-01  3.32916194e-09  3.23226490e-09  4.56149897e-01  3.21878795e-09  1.54506731e-07  5.13728935e-08  9.00000000e-01 
 9.10000000e-01  3.40892066e-09  3.48513139e-09  4.56149897e-01  3.32916188e-09  3.23226490e-09  4.56149897e-01  3.21878793e-09  1.54506723e-07  5.13728864e-08  9.10000000e-01 
 9.20000000e-01  3.40892066e-09  3.48513134e-09  4.56149902e-01  3.32916194e-09  3.23226490e-09  4.56149902e-01  3.21878801e-09  1.54506734e-07  5.13728580e-08  9.20000000e-01 
 9.30000000e-01  3.40892066e-09  3.48513135e-09  4.56149897e-01  3.32916194e-09  3.23226490e-09  4.56149897e-01  3.21878799e-09  1.54506725e-07  5.13727869e-08  9.30000000e-01 
 9.40000000e-01  3.40892066e-09  3.48513134e-09  4.56149899e-01  3.32916194e-09  3.23226490e-09  4.56149899e-01  3.21878799e-09  1.54506735e-07  5.13726377e-08  9.40000000e-01 
 9.50000000e-01  3.40892066e-09  3.48513134e-09  4.56149897e-01  3.32916188e-09  3.23226490e-09  4.56149897e-01  3.21878799e-09  1.54506730e-07  5.13725382e-08  9.50000000e-01 
 9.60000000e-01  3.40892066e-09  3.48513140e-09  4.56149911e-01  3.32916188e-09  3.23226490e-09  4.56149911e-01  3.21878799e-09  1.54506761e-07  5.13725666e-08  9.60000000e-01 
 9.70000000e-01  3.40892066e-09  3.48513133e-09  4.56149905e-01  3.32916188e-09  3.23226490e-09  4.56149905e-01  3.21878794e-09  1.54506727e-07  5.13725311e-08  9.70000000e-01 
 9.80000000e-01  3.40892066e-09  3.48513135e-09  4.56149895e-01  3.32916194e-09  3.23226490e-09  4.56149895e-01  3.21878795e-09  1.54506722e-07  5.13723961e-08  9.80000000e-01 
 9.90000000e-01  3.40892061e-09  3.48513134e-09  4.56149912e-01  3.32916188e-09  3.23226490e-09  4.56149912e-01  3.21878799e-09  1.54506758e-07  5.13723037e-08  9.90000000e-01 
 1.00000000e+00  3.40892066e-09  3.48513134e-09  4.56149908e-01  3.32916188e-09  3.23226490e-09  4.56149908e-01  3.21878799e-09  1.54506735e-07  5.13722753e-08  1.00000000e+00 
 1.01000000e+00  3.40892066e-09  3.48513134e-09  4.56149893e-01  3.32916194e-09  3.23226490e-09  4.56149893e-01  3.21878799e-09  1.54506723e-07  5.13721972e-08  1.01000000e+00 
 1.02000000e+00  3.40892066e-09  3.48513140e-09  4.56149906e-01  3.32916194e-09  3.23226490e-09  4.56149905e-01  3.21878799e-09  1.54506740e-07  5.13721119e-08  1.02000000e+00 
 1.03000000e+00  3.40892066e-09  3.48513139e-09  4.56149910e-01  3.32916194e-09  3.23226490e-09  4.56149910e-01  3.21878799e-09  1.54506756e-07  5.13722114e-08  1.03000000e+00 
 1.04000000e+00  3.40892066e-09  3.48513139e-09  4.56149895e-01  3.32916188e-09  3.23226490e-09  4.56149895e-01  3.21878799e-09  1.54506721e-07  5.13721190e-08  1.04000000e+00 
 1.05000000e+00  3.40892066e-09  3.48513134e-09  4.56149888e-01  3.32916188e-09  3.23226490e-09  4.56149887e-01  3.21878794e-09  1.54506719e-07  5.13720195e-08  1.05000000e+00 
 1.06000000e+00  3.40892066e-09  3.48513141e-09  4.56149905e-01  3.32916188e-09  3.23226490e-09  4.56149905e-01  3.21878795e-09  1.54506739e-07  5.13719414e-08  1.06000000e+00 
 1.07000000e+00  3.40892066e-09  3.48513139e-09  4.56149898e-01  3.32916188e-09  3.23226490e-09  4.56149898e-01  3.21878799e-09  1.54506720e-07  5.13717495e-08  1.07000000e+00 
 1.08000000e+00  3.40892066e-09  3.48513139e-09  4.56149913e-01  3.32916194e-09  3.23226490e-09  4.56149912e-01  3.21878794e-09  1.54506733e-07  5.13717566e-08  1.08000000e+00 
 1.09000000e+00  3.40892066e-09  3.48513134e-09  4.56149922e-01  3.32916194e-09  3.23226491e-09  4.56149922e-01  3.21878801e-09  1.54506760e-07  5.13716785e-08  1.09000000e+00 
 1.10000000e+00  3.40892066e-09  3.48513135e-09  4.56149880e-01  3.32916188e-09  3.23226490e-09  4.56149880e-01  3.21878799e-09  1.54506699e-07  5.13715932e-08  1.10000000e+00 
