 v-sweep         v(b0)           v(b1)           v(b2)           v(b3)           v(b4)           v(b5)           v(b6)           i(vbias)        i(viout)        v(vout)        
 0.00000000e+00  4.59252379e-01  3.40847904e-09  3.22808748e-09  4.59252379e-01  4.59252379e-01  4.59252379e-01  3.21798453e-09  1.60085373e-07  9.23251717e-08  0.00000000e+00 
 1.00000000e-02  4.59252412e-01  3.40847903e-09  3.22808752e-09  4.59252412e-01  4.59252412e-01  4.59252412e-01  3.21798450e-09  1.60085409e-07  9.23249329e-08  1.00000000e-02 
 2.00000000e-02  4.59252399e-01  3.40847903e-09  3.22808746e-09  4.59252400e-01  4.59252400e-01  4.59252400e-01  3.21798450e-09  1.60085386e-07  9.23245926e-08  2.00000000e-02 
 3.00000000e-02  4.59252400e-01  3.40847903e-09  3.22808752e-09  4.59252400e-01  4.59252400e-01  4.59252400e-01  3.21798456e-09  1.60085383e-07  9.23241510e-08  3.00000000e-02 
 4.00000000e-02  4.59252394e-01  3.40847902e-09  3.22808752e-09  4.59252394e-01  4.59252394e-01  4.59252394e-01  3.21798456e-09  1.60085388e-07  9.23237025e-08  4.00000000e-02 
 5.00000000e-02  4.59252390e-01  3.40847902e-09  3.22808752e-09  4.59252390e-01  4.59252390e-01  4.59252390e-01  3.21798456e-09  1.60085382e-07  9.23235315e-08  5.00000000e-02 
 6.00000000e-02  4.59252357e-01  3.40847908e-09  3.22808751e-09  4.59252357e-01  4.59252357e-01  4.59252357e-01  3.21798456e-09  1.60085340e-07  9.23229475e-08  6.00000000e-02 
 7.00000000e-02  4.59252391e-01  3.40847907e-09  3.22808746e-09  4.59252391e-01  4.59252391e-01  4.59252391e-01  3.21798456e-09  1.60085383e-07  9.23227179e-08  7.00000000e-02 
 8.00000000e-02  4.59252380e-01  3.40847902e-09  3.22808752e-09  4.59252380e-01  4.59252380e-01  4.59252380e-01  3.21798456e-09  1.60085366e-07  9.23222840e-08  8.00000000e-02 
 9.00000000e-02  4.59252394e-01  3.40847903e-09  3.22808746e-09  4.59252394e-01  4.59252394e-01  4.59252394e-01  3.21798456e-09  1.60085385e-07  9.23221890e-08  9.00000000e-02 
 1.00000000e-01  4.59252380e-01  3.40847902e-09  3.22808752e-09  4.59252380e-01  4.59252380e-01  4.59252380e-01  3.21798450e-09  1.60085359e-07  9.23219208e-08  1.00000000e-01 
 1.10000000e-01  4.59252386e-01  3.40847902e-09  3.22808746e-09  4.59252386e-01  4.59252386e-01  4.59252386e-01  3.21798456e-09  1.60085361e-07  9.23215930e-08  1.10000000e-01 
 1.20000000e-01  4.59252385e-01  3.40847902e-09  3.22808746e-09  4.59252385e-01  4.59252385e-01  4.59252385e-01  3.21798450e-09  1.60085378e-07  9.23213825e-08  1.20000000e-01 
 1.30000000e-01  4.59252395e-01  3.40847902e-09  3.22808746e-09  4.59252395e-01  4.59252395e-01  4.59252395e-01  3.21798456e-09  1.60085397e-07  9.23212191e-08  1.30000000e-01 
 1.40000000e-01  4.59252405e-01  3.40847903e-09  3.22808752e-09  4.59252405e-01  4.59252405e-01  4.59252405e-01  3.21798456e-09  1.60085405e-07  9.23209500e-08  1.40000000e-01 
 1.50000000e-01  4.59252378e-01  3.40847908e-09  3.22808752e-09  4.59252378e-01  4.59252378e-01  4.59252378e-01  3.21798450e-09  1.60085368e-07  9.23206773e-08  1.50000000e-01 
 1.60000000e-01  4.59252396e-01  3.40847901e-09  3.22808746e-09  4.59252396e-01  4.59252396e-01  4.59252396e-01  3.21798456e-09  1.60085371e-07  9.23205032e-08  1.60000000e-01 
 1.70000000e-01  4.59252376e-01  3.40847903e-09  3.22808746e-09  4.59252376e-01  4.59252376e-01  4.59252376e-01  3.21798456e-09  1.60085358e-07  9.23202705e-08  1.70000000e-01 
 1.80000000e-01  4.59252382e-01  3.40847902e-09  3.22808746e-09  4.59252382e-01  4.59252382e-01  4.59252382e-01  3.21798456e-09  1.60085364e-07  9.23200680e-08  1.80000000e-01 
 1.90000000e-01  4.59252390e-01  3.40847902e-09  3.22808752e-09  4.59252390e-01  4.59252390e-01  4.59252390e-01  3.21798456e-09  1.60085380e-07  9.23199561e-08  1.90000000e-01 
 2.00000000e-01  4.59252376e-01  3.40847902e-09  3.22808746e-09  4.59252377e-01  4.59252377e-01  4.59252377e-01  3.21798456e-09  1.60085362e-07  9.23197110e-08  2.00000000e-01 
 2.10000000e-01  4.59252387e-01  3.40847902e-09  3.22808746e-09  4.59252387e-01  4.59252387e-01  4.59252387e-01  3.21798456e-09  1.60085369e-07  9.23195209e-08  2.10000000e-01 
 2.20000000e-01  4.59252395e-01  3.40847902e-09  3.22808752e-09  4.59252395e-01  4.59252395e-01  4.59252395e-01  3.21798456e-09  1.60085391e-07  9.23195547e-08  2.20000000e-01 
 2.30000000e-01  4.59252372e-01  3.40847902e-09  3.22808746e-09  4.59252372e-01  4.59252372e-01  4.59252372e-01  3.21798456e-09  1.60085345e-07  9.23192740e-08  2.30000000e-01 
 2.40000000e-01  4.59252375e-01  3.40847902e-09  3.22808746e-09  4.59252375e-01  4.59252375e-01  4.59252375e-01  3.21798456e-09  1.60085338e-07  9.23191426e-08  2.40000000e-01 
 2.50000000e-01  4.59252395e-01  3.40847908e-09  3.22808752e-09  4.59252395e-01  4.59252395e-01  4.59252395e-01  3.21798456e-09  1.60085381e-07  9.23189916e-08  2.50000000e-01 
 2.60000000e-01  4.59252393e-01  3.40847901e-09  3.22808746e-09  4.59252393e-01  4.59252393e-01  4.59252393e-01  3.21798456e-09  1.60085382e-07  9.23188512e-08  2.60000000e-01 
 2.70000000e-01  4.59252359e-01  3.40847903e-09  3.22808751e-09  4.59252359e-01  4.59252359e-01  4.59252359e-01  3.21798456e-09  1.60085327e-07  9.23185883e-08  2.70000000e-01 
 2.80000000e-01  4.59252386e-01  3.40847902e-09  3.22808752e-09  4.59252386e-01  4.59252386e-01  4.59252386e-01  3.21798456e-09  1.60085365e-07  9.23184622e-08  2.80000000e-01 
 2.90000000e-01  4.59252382e-01  3.40847902e-09  3.22808752e-09  4.59252382e-01  4.59252382e-01  4.59252382e-01  3.21798456e-09  1.60085371e-07  9.23185119e-08  2.90000000e-01 
 3.00000000e-01  4.59252391e-01  3.40847902e-09  3.22808752e-09  4.59252391e-01  4.59252391e-01  4.59252391e-01  3.21798456e-09  1.60085377e-07  9.23182526e-08  3.00000000e-01 
 3.10000000e-01  4.59252383e-01  3.40847902e-09  3.22808752e-09  4.59252383e-01  4.59252383e-01  4.59252383e-01  3.21798456e-09  1.60085372e-07  9.23182100e-08  3.10000000e-01 
 3.20000000e-01  4.59252401e-01  3.40847903e-09  3.22808752e-09  4.59252401e-01  4.59252401e-01  4.59252401e-01  3.21798450e-09  1.60085387e-07  9.23181389e-08  3.20000000e-01 
 3.30000000e-01  4.59252382e-01  3.40847908e-09  3.22808746e-09  4.59252382e-01  4.59252382e-01  4.59252382e-01  3.21798450e-09  1.60085367e-07  9.23179329e-08  3.30000000e-01 
 3.40000000e-01  4.59252383e-01  3.40847901e-09  3.22808752e-09  4.59252383e-01  4.59252383e-01  4.59252383e-01  3.21798450e-09  1.60085363e-07  9.23178618e-08  3.40000000e-01 
 3.50000000e-01  4.59252403e-01  3.40847903e-09  3.22808746e-09  4.59252403e-01  4.59252403e-01  4.59252403e-01  3.21798456e-09  1.60085393e-07  9.23178405e-08  3.50000000e-01 
 3.60000000e-01  4.59252383e-01  3.40847902e-09  3.22808752e-09  4.59252383e-01  4.59252383e-01  4.59252383e-01  3.21798456e-09  1.60085363e-07  9.23177126e-08  3.60000000e-01 
 3.70000000e-01  4.59252391e-01  3.40847908e-09  3.22808752e-09  4.59252391e-01  4.59252391e-01  4.59252391e-01  3.21798456e-09  1.60085374e-07  9.23176167e-08  3.70000000e-01 
 3.80000000e-01  4.59252387e-01  3.40847901e-09  3.22808746e-09  4.59252387e-01  4.59252387e-01  4.59252387e-01  3.21798456e-09  1.60085375e-07  9.23175349e-08  3.80000000e-01 
 3.90000000e-01  4.59252379e-01  3.40847903e-09  3.22808746e-09  4.59252379e-01  4.59252379e-01  4.59252379e-01  3.21798450e-09  1.60085360e-07  9.23173147e-08  3.90000000e-01 
 4.00000000e-01  4.59252369e-01  3.40847902e-09  3.22808746e-09  4.59252369e-01  4.59252369e-01  4.59252369e-01  3.21798456e-09  1.60085347e-07  9.23173751e-08  4.00000000e-01 
 4.10000000e-01  4.59252365e-01  3.40847902e-09  3.22808746e-09  4.59252365e-01  4.59252365e-01  4.59252365e-01  3.21798456e-09  1.60085338e-07  9.23171619e-08  4.10000000e-01 
 4.20000000e-01  4.59252377e-01  3.40847908e-09  3.22808746e-09  4.59252377e-01  4.59252377e-01  4.59252377e-01  3.21798450e-09  1.60085350e-07  9.23171335e-08  4.20000000e-01 
 4.30000000e-01  4.59252402e-01  3.40847907e-09  3.22808752e-09  4.59252402e-01  4.59252402e-01  4.59252402e-01  3.21798456e-09  1.60085398e-07  9.23169594e-08  4.30000000e-01 
 4.40000000e-01  4.59252356e-01  3.40847907e-09  3.22808751e-09  4.59252356e-01  4.59252356e-01  4.59252356e-01  3.21798450e-09  1.60085327e-07  9.23167960e-08  4.40000000e-01 
 4.50000000e-01  4.59252373e-01  3.40847907e-09  3.22808752e-09  4.59252373e-01  4.59252373e-01  4.59252373e-01  3.21798456e-09  1.60085346e-07  9.23167711e-08  4.50000000e-01 
 4.60000000e-01  4.59252392e-01  3.40847907e-09  3.22808752e-09  4.59252392e-01  4.59252392e-01  4.59252392e-01  3.21798456e-09  1.60085378e-07  9.23168244e-08  4.60000000e-01 
 4.70000000e-01  4.59252400e-01  3.40847902e-09  3.22808746e-09  4.59252400e-01  4.59252400e-01  4.59252400e-01  3.21798456e-09  1.60085398e-07  9.23168244e-08  4.70000000e-01 
 4.80000000e-01  4.59252388e-01  3.40847903e-09  3.22808752e-09  4.59252388e-01  4.59252388e-01  4.59252388e-01  3.21798456e-09  1.60085391e-07  9.23165793e-08  4.80000000e-01 
 4.90000000e-01  4.59252374e-01  3.40847902e-09  3.22808746e-09  4.59252374e-01  4.59252374e-01  4.59252374e-01  3.21798456e-09  1.60085361e-07  9.23165402e-08  4.90000000e-01 
 5.00000000e-01  4.59252396e-01  3.40847902e-09  3.22808746e-09  4.59252396e-01  4.59252397e-01  4.59252396e-01  3.21798456e-09  1.60085383e-07  9.23164585e-08  5.00000000e-01 
 5.10000000e-01  4.59252397e-01  3.40847902e-09  3.22808746e-09  4.59252397e-01  4.59252397e-01  4.59252397e-01  3.21798450e-09  1.60085379e-07  9.23164656e-08  5.10000000e-01 
 5.20000000e-01  4.59252374e-01  3.40847902e-09  3.22808752e-09  4.59252374e-01  4.59252374e-01  4.59252374e-01  3.21798456e-09  1.60085353e-07  9.23163626e-08  5.20000000e-01 
 5.30000000e-01  4.59252380e-01  3.40847902e-09  3.22808752e-09  4.59252380e-01  4.59252380e-01  4.59252380e-01  3.21798456e-09  1.60085356e-07  9.23162382e-08  5.30000000e-01 
 5.40000000e-01  4.59252370e-01  3.40847902e-09  3.22808751e-09  4.59252370e-01  4.59252370e-01  4.59252370e-01  3.21798456e-09  1.60085350e-07  9.23160925e-08  5.40000000e-01 
 5.50000000e-01  4.59252393e-01  3.40847902e-09  3.22808746e-09  4.59252393e-01  4.59252393e-01  4.59252393e-01  3.21798456e-09  1.60085367e-07  9.23160712e-08  5.50000000e-01 
 5.60000000e-01  4.59252387e-01  3.40847902e-09  3.22808752e-09  4.59252387e-01  4.59252387e-01  4.59252387e-01  3.21798456e-09  1.60085372e-07  9.23159718e-08  5.60000000e-01 
 5.70000000e-01  4.59252373e-01  3.40847902e-09  3.22808752e-09  4.59252373e-01  4.59252373e-01  4.59252373e-01  3.21798450e-09  1.60085356e-07  9.23160002e-08  5.70000000e-01 
 5.80000000e-01  4.59252373e-01  3.40847902e-09  3.22808752e-09  4.59252373e-01  4.59252373e-01  4.59252373e-01  3.21798456e-09  1.60085332e-07  9.23158012e-08  5.80000000e-01 
 5.90000000e-01  4.59252400e-01  3.40847903e-09  3.22808746e-09  4.59252400e-01  4.59252400e-01  4.59252400e-01  3.21798456e-09  1.60085397e-07  9.23158652e-08  5.90000000e-01 
 6.00000000e-01  4.59252368e-01  3.40847908e-09  3.22808751e-09  4.59252368e-01  4.59252368e-01  4.59252368e-01  3.21798450e-09  1.60085346e-07  9.23156875e-08  6.00000000e-01 
 6.10000000e-01  4.59252395e-01  3.40847901e-09  3.22808746e-09  4.59252395e-01  4.59252395e-01  4.59252395e-01  3.21798450e-09  1.60085378e-07  9.23156946e-08  6.10000000e-01 
 6.20000000e-01  4.59252397e-01  3.40847903e-09  3.22808746e-09  4.59252397e-01  4.59252397e-01  4.59252397e-01  3.21798450e-09  1.60085392e-07  9.23156023e-08  6.20000000e-01 
 6.30000000e-01  4.59252369e-01  3.40847902e-09  3.22808746e-09  4.59252369e-01  4.59252369e-01  4.59252369e-01  3.21798456e-09  1.60085348e-07  9.23154388e-08  6.30000000e-01 
 6.40000000e-01  4.59252368e-01  3.40847902e-09  3.22808746e-09  4.59252368e-01  4.59252368e-01  4.59252368e-01  3.21798456e-09  1.60085335e-07  9.23154460e-08  6.40000000e-01 
 6.50000000e-01  4.59252372e-01  3.40847902e-09  3.22808746e-09  4.59252372e-01  4.59252372e-01  4.59252372e-01  3.21798456e-09  1.60085360e-07  9.23153323e-08  6.50000000e-01 
 6.60000000e-01  4.59252392e-01  3.40847902e-09  3.22808752e-09  4.59252392e-01  4.59252392e-01  4.59252392e-01  3.21798456e-09  1.60085381e-07  9.23152967e-08  6.60000000e-01 
 6.70000000e-01  4.59252396e-01  3.40847902e-09  3.22808746e-09  4.59252396e-01  4.59252396e-01  4.59252396e-01  3.21798456e-09  1.60085387e-07  9.23152896e-08  6.70000000e-01 
 6.80000000e-01  4.59252383e-01  3.40847902e-09  3.22808746e-09  4.59252383e-01  4.59252383e-01  4.59252383e-01  3.21798456e-09  1.60085364e-07  9.23152257e-08  6.80000000e-01 
 6.90000000e-01  4.59252395e-01  3.40847902e-09  3.22808746e-09  4.59252395e-01  4.59252395e-01  4.59252395e-01  3.21798456e-09  1.60085386e-07  9.23151404e-08  6.90000000e-01 
 7.00000000e-01  4.59252399e-01  3.40847902e-09  3.22808752e-09  4.59252399e-01  4.59252399e-01  4.59252399e-01  3.21798456e-09  1.60085396e-07  9.23150978e-08  7.00000000e-01 
 7.10000000e-01  4.59252388e-01  3.40847902e-09  3.22808752e-09  4.59252388e-01  4.59252388e-01  4.59252388e-01  3.21798456e-09  1.60085375e-07  9.23149202e-08  7.10000000e-01 
 7.20000000e-01  4.59252380e-01  3.40847902e-09  3.22808746e-09  4.59252380e-01  4.59252380e-01  4.59252380e-01  3.21798456e-09  1.60085362e-07  9.23148633e-08  7.20000000e-01 
 7.30000000e-01  4.59252384e-01  3.40847902e-09  3.22808752e-09  4.59252384e-01  4.59252384e-01  4.59252384e-01  3.21798456e-09  1.60085367e-07  9.23147851e-08  7.30000000e-01 
 7.40000000e-01  4.59252403e-01  3.40847908e-09  3.22808746e-09  4.59252403e-01  4.59252403e-01  4.59252403e-01  3.21798456e-09  1.60085384e-07  9.23147070e-08  7.40000000e-01 
 7.50000000e-01  4.59252384e-01  3.40847901e-09  3.22808752e-09  4.59252384e-01  4.59252384e-01  4.59252384e-01  3.21798456e-09  1.60085377e-07  9.23145933e-08  7.50000000e-01 
 7.60000000e-01  4.59252377e-01  3.40847903e-09  3.22808752e-09  4.59252377e-01  4.59252377e-01  4.59252377e-01  3.21798456e-09  1.60085357e-07  9.23146075e-08  7.60000000e-01 
 7.70000000e-01  4.59252389e-01  3.40847902e-09  3.22808752e-09  4.59252389e-01  4.59252389e-01  4.59252389e-01  3.21798456e-09  1.60085370e-07  9.23145791e-08  7.70000000e-01 
 7.80000000e-01  4.59252380e-01  3.40847902e-09  3.22808752e-09  4.59252380e-01  4.59252380e-01  4.59252380e-01  3.21798450e-09  1.60085360e-07  9.23144654e-08  7.80000000e-01 
 7.90000000e-01  4.59252394e-01  3.40847902e-09  3.22808752e-09  4.59252394e-01  4.59252394e-01  4.59252394e-01  3.21798456e-09  1.60085385e-07  9.23143375e-08  7.90000000e-01 
 8.00000000e-01  4.59252402e-01  3.40847903e-09  3.22808746e-09  4.59252402e-01  4.59252402e-01  4.59252402e-01  3.21798456e-09  1.60085396e-07  9.23143446e-08  8.00000000e-01 
 8.10000000e-01  4.59252391e-01  3.40847902e-09  3.22808746e-09  4.59252391e-01  4.59252391e-01  4.59252391e-01  3.21798456e-09  1.60085385e-07  9.23141599e-08  8.10000000e-01 
 8.20000000e-01  4.59252386e-01  3.40847902e-09  3.22808746e-09  4.59252386e-01  4.59252386e-01  4.59252386e-01  3.21798456e-09  1.60085361e-07  9.23141243e-08  8.20000000e-01 
 8.30000000e-01  4.59252392e-01  3.40847902e-09  3.22808746e-09  4.59252392e-01  4.59252392e-01  4.59252392e-01  3.21798450e-09  1.60085388e-07  9.23140888e-08  8.30000000e-01 
 8.40000000e-01  4.59252385e-01  3.40847902e-09  3.22808752e-09  4.59252385e-01  4.59252385e-01  4.59252385e-01  3.21798456e-09  1.60085381e-07  9.23140888e-08  8.40000000e-01 
 8.50000000e-01  4.59252377e-01  3.40847902e-09  3.22808746e-09  4.59252377e-01  4.59252377e-01  4.59252377e-01  3.21798456e-09  1.60085364e-07  9.23139254e-08  8.50000000e-01 
 8.60000000e-01  4.59252382e-01  3.40847902e-09  3.22808746e-09  4.59252382e-01  4.59252382e-01  4.59252382e-01  3.21798456e-09  1.60085359e-07  9.23139609e-08  8.60000000e-01 
 8.70000000e-01  4.59252377e-01  3.40847902e-09  3.22808746e-09  4.59252377e-01  4.59252377e-01  4.59252377e-01  3.21798456e-09  1.60085359e-07  9.23137122e-08  8.70000000e-01 
 8.80000000e-01  4.59252383e-01  3.40847902e-09  3.22808752e-09  4.59252383e-01  4.59252383e-01  4.59252383e-01  3.21798456e-09  1.60085367e-07  9.23137051e-08  8.80000000e-01 
 8.90000000e-01  4.59252398e-01  3.40847902e-09  3.22808746e-09  4.59252398e-01  4.59252398e-01  4.59252398e-01  3.21798456e-09  1.60085386e-07  9.23136696e-08  8.90000000e-01 
 9.00000000e-01  4.59252372e-01  3.40847902e-09  3.22808746e-09  4.59252372e-01  4.59252372e-01  4.59252372e-01  3.21798450e-09  1.60085343e-07  9.23134920e-08  9.00000000e-01 
 9.10000000e-01  4.59252377e-01  3.40847902e-09  3.22808746e-09  4.59252377e-01  4.59252377e-01  4.59252377e-01  3.21798456e-09  1.60085347e-07  9.23133712e-08  9.10000000e-01 
 9.20000000e-01  4.59252378e-01  3.40847902e-09  3.22808752e-09  4.59252378e-01  4.59252378e-01  4.59252378e-01  3.21798456e-09  1.60085364e-07  9.23133427e-08  9.20000000e-01 
 9.30000000e-01  4.59252387e-01  3.40847902e-09  3.22808746e-09  4.59252387e-01  4.59252387e-01  4.59252387e-01  3.21798456e-09  1.60085380e-07  9.23134067e-08  9.30000000e-01 
 9.40000000e-01  4.59252389e-01  3.40847902e-09  3.22808752e-09  4.59252389e-01  4.59252389e-01  4.59252389e-01  3.21798450e-09  1.60085387e-07  9.23132149e-08  9.40000000e-01 
 9.50000000e-01  4.59252379e-01  3.40847902e-09  3.22808752e-09  4.59252379e-01  4.59252379e-01  4.59252379e-01  3.21798450e-09  1.60085365e-07  9.23131367e-08  9.50000000e-01 
 9.60000000e-01  4.59252400e-01  3.40847903e-09  3.22808752e-09  4.59252400e-01  4.59252400e-01  4.59252400e-01  3.21798456e-09  1.60085412e-07  9.23130870e-08  9.60000000e-01 
 9.70000000e-01  4.59252375e-01  3.40847902e-09  3.22808752e-09  4.59252375e-01  4.59252375e-01  4.59252375e-01  3.21798456e-09  1.60085365e-07  9.23129804e-08  9.70000000e-01 
 9.80000000e-01  4.59252402e-01  3.40847903e-09  3.22808746e-09  4.59252402e-01  4.59252402e-01  4.59252402e-01  3.21798456e-09  1.60085396e-07  9.23130017e-08  9.80000000e-01 
 9.90000000e-01  4.59252373e-01  3.40847902e-09  3.22808746e-09  4.59252373e-01  4.59252373e-01  4.59252373e-01  3.21798456e-09  1.60085355e-07  9.23127530e-08  9.90000000e-01 
 1.00000000e+00  4.59252384e-01  3.40847902e-09  3.22808752e-09  4.59252384e-01  4.59252384e-01  4.59252384e-01  3.21798450e-09  1.60085357e-07  9.23126962e-08  1.00000000e+00 
 1.01000000e+00  4.59252363e-01  3.40847902e-09  3.22808751e-09  4.59252363e-01  4.59252363e-01  4.59252363e-01  3.21798450e-09  1.60085339e-07  9.23127388e-08  1.01000000e+00 
 1.02000000e+00  4.59252369e-01  3.40847902e-09  3.22808751e-09  4.59252369e-01  4.59252369e-01  4.59252369e-01  3.21798456e-09  1.60085345e-07  9.23125683e-08  1.02000000e+00 
 1.03000000e+00  4.59252391e-01  3.40847902e-09  3.22808746e-09  4.59252391e-01  4.59252391e-01  4.59252391e-01  3.21798456e-09  1.60085378e-07  9.23125256e-08  1.03000000e+00 
 1.04000000e+00  4.59252378e-01  3.40847902e-09  3.22808752e-09  4.59252378e-01  4.59252379e-01  4.59252378e-01  3.21798456e-09  1.60085366e-07  9.23123977e-08  1.04000000e+00 
 1.05000000e+00  4.59252385e-01  3.40847902e-09  3.22808746e-09  4.59252385e-01  4.59252385e-01  4.59252385e-01  3.21798450e-09  1.60085347e-07  9.23124048e-08  1.05000000e+00 
 1.06000000e+00  4.59252367e-01  3.40847908e-09  3.22808746e-09  4.59252367e-01  4.59252367e-01  4.59252367e-01  3.21798456e-09  1.60085335e-07  9.23122343e-08  1.06000000e+00 
 1.07000000e+00  4.59252389e-01  3.40847901e-09  3.22808746e-09  4.59252389e-01  4.59252389e-01  4.59252389e-01  3.21798456e-09  1.60085364e-07  9.23120780e-08  1.07000000e+00 
 1.08000000e+00  4.59252382e-01  3.40847903e-09  3.22808752e-09  4.59252382e-01  4.59252382e-01  4.59252382e-01  3.21798456e-09  1.60085369e-07  9.23120069e-08  1.08000000e+00 
 1.09000000e+00  4.59252402e-01  3.40847903e-09  3.22808746e-09  4.59252402e-01  4.59252402e-01  4.59252402e-01  3.21798456e-09  1.60085396e-07  9.23119856e-08  1.09000000e+00 
 1.10000000e+00  4.59252398e-01  3.40847902e-09  3.22808752e-09  4.59252398e-01  4.59252398e-01  4.59252398e-01  3.21798456e-09  1.60085389e-07  9.23119927e-08  1.10000000e+00 
