 v-sweep         v(b0)           v(b1)           v(b2)           v(b3)           v(b4)           v(b5)           v(b6)           i(vbias)        i(viout)        v(vout)        
 0.00000000e+00  4.57902694e-01  3.37106771e-09  3.50420072e-09  3.57021832e-09  3.34406154e-09  3.26427684e-09  4.57902694e-01  1.56294584e-07  1.03328463e-07  0.00000000e+00 
 1.00000000e-02  4.57902696e-01  3.37106770e-09  3.50420070e-09  3.57021831e-09  3.34406158e-09  3.26427682e-09  4.57902696e-01  1.56294577e-07  1.03327995e-07  1.00000000e-02 
 2.00000000e-02  4.57902684e-01  3.37106769e-09  3.50420070e-09  3.57021831e-09  3.34406157e-09  3.26427682e-09  4.57902684e-01  1.56294572e-07  1.03327588e-07  2.00000000e-02 
 3.00000000e-02  4.57902681e-01  3.37106769e-09  3.50420070e-09  3.57021830e-09  3.34406157e-09  3.26427682e-09  4.57902681e-01  1.56294561e-07  1.03327248e-07  3.00000000e-02 
 4.00000000e-02  4.57902695e-01  3.37106770e-09  3.50420070e-09  3.57021831e-09  3.34406158e-09  3.26427682e-09  4.57902695e-01  1.56294567e-07  1.03326809e-07  4.00000000e-02 
 5.00000000e-02  4.57902707e-01  3.37106770e-09  3.50420070e-09  3.57021836e-09  3.34406158e-09  3.26427682e-09  4.57902707e-01  1.56294607e-07  1.03326622e-07  5.00000000e-02 
 6.00000000e-02  4.57902677e-01  3.37106769e-09  3.50420070e-09  3.57021835e-09  3.34406157e-09  3.26427682e-09  4.57902677e-01  1.56294561e-07  1.03326114e-07  6.00000000e-02 
 7.00000000e-02  4.57902703e-01  3.37106770e-09  3.50420070e-09  3.57021831e-09  3.34406158e-09  3.26427682e-09  4.57902702e-01  1.56294575e-07  1.03325848e-07  7.00000000e-02 
 8.00000000e-02  4.57902705e-01  3.37106770e-09  3.50420070e-09  3.57021831e-09  3.34406158e-09  3.26427682e-09  4.57902705e-01  1.56294585e-07  1.03325605e-07  8.00000000e-02 
 9.00000000e-02  4.57902686e-01  3.37106775e-09  3.50420070e-09  3.57021831e-09  3.34406157e-09  3.26427682e-09  4.57902686e-01  1.56294586e-07  1.03325309e-07  9.00000000e-02 
 1.00000000e-01  4.57902671e-01  3.37106769e-09  3.50420070e-09  3.57021836e-09  3.34406157e-09  3.26427682e-09  4.57902671e-01  1.56294543e-07  1.03324957e-07  1.00000000e-01 
 1.10000000e-01  4.57902687e-01  3.37106770e-09  3.50420065e-09  3.57021829e-09  3.34406157e-09  3.26427682e-09  4.57902687e-01  1.56294564e-07  1.03324783e-07  1.10000000e-01 
 1.20000000e-01  4.57902661e-01  3.37106769e-09  3.50420070e-09  3.57021831e-09  3.34406157e-09  3.26427682e-09  4.57902661e-01  1.56294530e-07  1.03324385e-07  1.20000000e-01 
 1.30000000e-01  4.57902676e-01  3.37106769e-09  3.50420070e-09  3.57021830e-09  3.34406157e-09  3.26427682e-09  4.57902676e-01  1.56294544e-07  1.03324149e-07  1.30000000e-01 
 1.40000000e-01  4.57902702e-01  3.37106770e-09  3.50420070e-09  3.57021831e-09  3.34406158e-09  3.26427682e-09  4.57902702e-01  1.56294587e-07  1.03323983e-07  1.40000000e-01 
 1.50000000e-01  4.57902651e-01  3.37106769e-09  3.50420070e-09  3.57021830e-09  3.34406157e-09  3.26427682e-09  4.57902651e-01  1.56294505e-07  1.03323710e-07  1.50000000e-01 
 1.60000000e-01  4.57902675e-01  3.37106769e-09  3.50420070e-09  3.57021836e-09  3.34406157e-09  3.26427682e-09  4.57902675e-01  1.56294552e-07  1.03323677e-07  1.60000000e-01 
 1.70000000e-01  4.57902703e-01  3.37106770e-09  3.50420070e-09  3.57021829e-09  3.34406158e-09  3.26427682e-09  4.57902703e-01  1.56294601e-07  1.03323444e-07  1.70000000e-01 
 1.80000000e-01  4.57902703e-01  3.37106770e-09  3.50420070e-09  3.57021837e-09  3.34406158e-09  3.26427682e-09  4.57902703e-01  1.56294586e-07  1.03323321e-07  1.80000000e-01 
 1.90000000e-01  4.57902665e-01  3.37106769e-09  3.50420070e-09  3.57021829e-09  3.34406157e-09  3.26427682e-09  4.57902665e-01  1.56294536e-07  1.03322941e-07  1.90000000e-01 
 2.00000000e-01  4.57902665e-01  3.37106769e-09  3.50420064e-09  3.57021837e-09  3.34406157e-09  3.26427682e-09  4.57902665e-01  1.56294535e-07  1.03322684e-07  2.00000000e-01 
 2.10000000e-01  4.57902680e-01  3.37106769e-09  3.50420070e-09  3.57021835e-09  3.34406157e-09  3.26427682e-09  4.57902680e-01  1.56294532e-07  1.03322678e-07  2.10000000e-01 
 2.20000000e-01  4.57902692e-01  3.37106770e-09  3.50420070e-09  3.57021831e-09  3.34406158e-09  3.26427682e-09  4.57902692e-01  1.56294562e-07  1.03322384e-07  2.20000000e-01 
 2.30000000e-01  4.57902682e-01  3.37106769e-09  3.50420070e-09  3.57021830e-09  3.34406157e-09  3.26427682e-09  4.57902682e-01  1.56294561e-07  1.03322346e-07  2.30000000e-01 
 2.40000000e-01  4.57902689e-01  3.37106770e-09  3.50420065e-09  3.57021831e-09  3.34406158e-09  3.26427682e-09  4.57902689e-01  1.56294569e-07  1.03322236e-07  2.40000000e-01 
 2.50000000e-01  4.57902696e-01  3.37106770e-09  3.50420065e-09  3.57021831e-09  3.34406158e-09  3.26427682e-09  4.57902696e-01  1.56294583e-07  1.03322078e-07  2.50000000e-01 
 2.60000000e-01  4.57902654e-01  3.37106769e-09  3.50420070e-09  3.57021836e-09  3.34406157e-09  3.26427682e-09  4.57902654e-01  1.56294511e-07  1.03321801e-07  2.60000000e-01 
 2.70000000e-01  4.57902664e-01  3.37106769e-09  3.50420070e-09  3.57021835e-09  3.34406157e-09  3.26427688e-09  4.57902664e-01  1.56294547e-07  1.03321669e-07  2.70000000e-01 
 2.80000000e-01  4.57902667e-01  3.37106769e-09  3.50420070e-09  3.57021837e-09  3.34406157e-09  3.26427682e-09  4.57902667e-01  1.56294528e-07  1.03321611e-07  2.80000000e-01 
 2.90000000e-01  4.57902651e-01  3.37106775e-09  3.50420064e-09  3.57021829e-09  3.34406157e-09  3.26427682e-09  4.57902651e-01  1.56294519e-07  1.03321412e-07  2.90000000e-01 
 3.00000000e-01  4.57902678e-01  3.37106769e-09  3.50420070e-09  3.57021831e-09  3.34406157e-09  3.26427682e-09  4.57902678e-01  1.56294537e-07  1.03321373e-07  3.00000000e-01 
 3.10000000e-01  4.57902702e-01  3.37106770e-09  3.50420070e-09  3.57021831e-09  3.34406158e-09  3.26427682e-09  4.57902702e-01  1.56294580e-07  1.03321295e-07  3.10000000e-01 
 3.20000000e-01  4.57902687e-01  3.37106770e-09  3.50420065e-09  3.57021836e-09  3.34406157e-09  3.26427682e-09  4.57902687e-01  1.56294554e-07  1.03321163e-07  3.20000000e-01 
 3.30000000e-01  4.57902691e-01  3.37106770e-09  3.50420070e-09  3.57021835e-09  3.34406158e-09  3.26427682e-09  4.57902691e-01  1.56294565e-07  1.03321010e-07  3.30000000e-01 
 3.40000000e-01  4.57902699e-01  3.37106770e-09  3.50420070e-09  3.57021837e-09  3.34406158e-09  3.26427682e-09  4.57902699e-01  1.56294588e-07  1.03320993e-07  3.40000000e-01 
 3.50000000e-01  4.57902676e-01  3.37106769e-09  3.50420070e-09  3.57021829e-09  3.34406157e-09  3.26427682e-09  4.57902676e-01  1.56294555e-07  1.03320865e-07  3.50000000e-01 
 3.60000000e-01  4.57902669e-01  3.37106769e-09  3.50420070e-09  3.57021831e-09  3.34406157e-09  3.26427682e-09  4.57902669e-01  1.56294535e-07  1.03320698e-07  3.60000000e-01 
 3.70000000e-01  4.57902696e-01  3.37106770e-09  3.50420070e-09  3.57021831e-09  3.34406158e-09  3.26427682e-09  4.57902696e-01  1.56294577e-07  1.03320573e-07  3.70000000e-01 
 3.80000000e-01  4.57902680e-01  3.37106769e-09  3.50420064e-09  3.57021836e-09  3.34406157e-09  3.26427682e-09  4.57902680e-01  1.56294563e-07  1.03320474e-07  3.80000000e-01 
 3.90000000e-01  4.57902671e-01  3.37106769e-09  3.50420070e-09  3.57021829e-09  3.34406157e-09  3.26427682e-09  4.57902671e-01  1.56294536e-07  1.03320396e-07  3.90000000e-01 
 4.00000000e-01  4.57902668e-01  3.37106769e-09  3.50420070e-09  3.57021837e-09  3.34406157e-09  3.26427682e-09  4.57902668e-01  1.56294542e-07  1.03320296e-07  4.00000000e-01 
 4.10000000e-01  4.57902675e-01  3.37106769e-09  3.50420070e-09  3.57021835e-09  3.34406157e-09  3.26427682e-09  4.57902675e-01  1.56294548e-07  1.03320165e-07  4.10000000e-01 
 4.20000000e-01  4.57902693e-01  3.37106770e-09  3.50420065e-09  3.57021831e-09  3.34406158e-09  3.26427682e-09  4.57902693e-01  1.56294589e-07  1.03320168e-07  4.20000000e-01 
 4.30000000e-01  4.57902696e-01  3.37106770e-09  3.50420070e-09  3.57021831e-09  3.34406158e-09  3.26427682e-09  4.57902696e-01  1.56294582e-07  1.03320112e-07  4.30000000e-01 
 4.40000000e-01  4.57902693e-01  3.37106770e-09  3.50420070e-09  3.57021836e-09  3.34406158e-09  3.26427682e-09  4.57902693e-01  1.56294574e-07  1.03319977e-07  4.40000000e-01 
 4.50000000e-01  4.57902709e-01  3.37106770e-09  3.50420070e-09  3.57021835e-09  3.34406158e-09  3.26427682e-09  4.57902709e-01  1.56294592e-07  1.03319923e-07  4.50000000e-01 
 4.60000000e-01  4.57902685e-01  3.37106770e-09  3.50420070e-09  3.57021836e-09  3.34406157e-09  3.26427682e-09  4.57902685e-01  1.56294556e-07  1.03319834e-07  4.60000000e-01 
 4.70000000e-01  4.57902675e-01  3.37106769e-09  3.50420064e-09  3.57021830e-09  3.34406157e-09  3.26427682e-09  4.57902675e-01  1.56294533e-07  1.03319714e-07  4.70000000e-01 
 4.80000000e-01  4.57902680e-01  3.37106775e-09  3.50420070e-09  3.57021831e-09  3.34406157e-09  3.26427682e-09  4.57902680e-01  1.56294555e-07  1.03319586e-07  4.80000000e-01 
 4.90000000e-01  4.57902669e-01  3.37106769e-09  3.50420070e-09  3.57021836e-09  3.34406157e-09  3.26427682e-09  4.57902669e-01  1.56294551e-07  1.03319703e-07  4.90000000e-01 
 5.00000000e-01  4.57902708e-01  3.37106770e-09  3.50420065e-09  3.57021835e-09  3.34406158e-09  3.26427682e-09  4.57902708e-01  1.56294588e-07  1.03319532e-07  5.00000000e-01 
 5.10000000e-01  4.57902689e-01  3.37106775e-09  3.50420070e-09  3.57021830e-09  3.34406158e-09  3.26427682e-09  4.57902689e-01  1.56294578e-07  1.03319408e-07  5.10000000e-01 
 5.20000000e-01  4.57902673e-01  3.37106769e-09  3.50420064e-09  3.57021831e-09  3.34406157e-09  3.26427682e-09  4.57902673e-01  1.56294550e-07  1.03319245e-07  5.20000000e-01 
 5.30000000e-01  4.57902687e-01  3.37106770e-09  3.50420070e-09  3.57021831e-09  3.34406157e-09  3.26427682e-09  4.57902687e-01  1.56294553e-07  1.03319334e-07  5.30000000e-01 
 5.40000000e-01  4.57902688e-01  3.37106775e-09  3.50420070e-09  3.57021831e-09  3.34406158e-09  3.26427682e-09  4.57902688e-01  1.56294541e-07  1.03319323e-07  5.40000000e-01 
 5.50000000e-01  4.57902692e-01  3.37106770e-09  3.50420065e-09  3.57021831e-09  3.34406158e-09  3.26427682e-09  4.57902692e-01  1.56294553e-07  1.03319106e-07  5.50000000e-01 
 5.60000000e-01  4.57902668e-01  3.37106769e-09  3.50420070e-09  3.57021830e-09  3.34406157e-09  3.26427682e-09  4.57902668e-01  1.56294540e-07  1.03319032e-07  5.60000000e-01 
 5.70000000e-01  4.57902651e-01  3.37106769e-09  3.50420070e-09  3.57021836e-09  3.34406157e-09  3.26427682e-09  4.57902651e-01  1.56294507e-07  1.03318882e-07  5.70000000e-01 
 5.80000000e-01  4.57902667e-01  3.37106769e-09  3.50420070e-09  3.57021829e-09  3.34406157e-09  3.26427682e-09  4.57902667e-01  1.56294542e-07  1.03318911e-07  5.80000000e-01 
 5.90000000e-01  4.57902686e-01  3.37106770e-09  3.50420070e-09  3.57021831e-09  3.34406157e-09  3.26427682e-09  4.57902686e-01  1.56294574e-07  1.03318882e-07  5.90000000e-01 
 6.00000000e-01  4.57902692e-01  3.37106770e-09  3.50420070e-09  3.57021831e-09  3.34406158e-09  3.26427682e-09  4.57902692e-01  1.56294565e-07  1.03318719e-07  6.00000000e-01 
 6.10000000e-01  4.57902697e-01  3.37106770e-09  3.50420070e-09  3.57021831e-09  3.34406158e-09  3.26427682e-09  4.57902697e-01  1.56294580e-07  1.03318619e-07  6.10000000e-01 
 6.20000000e-01  4.57902673e-01  3.37106769e-09  3.50420070e-09  3.57021836e-09  3.34406157e-09  3.26427682e-09  4.57902673e-01  1.56294557e-07  1.03318555e-07  6.20000000e-01 
 6.30000000e-01  4.57902692e-01  3.37106770e-09  3.50420070e-09  3.57021829e-09  3.34406158e-09  3.26427682e-09  4.57902692e-01  1.56294554e-07  1.03318520e-07  6.30000000e-01 
 6.40000000e-01  4.57902688e-01  3.37106770e-09  3.50420070e-09  3.57021837e-09  3.34406158e-09  3.26427682e-09  4.57902688e-01  1.56294562e-07  1.03318513e-07  6.40000000e-01 
 6.50000000e-01  4.57902694e-01  3.37106770e-09  3.50420070e-09  3.57021829e-09  3.34406158e-09  3.26427682e-09  4.57902694e-01  1.56294578e-07  1.03318371e-07  6.50000000e-01 
 6.60000000e-01  4.57902698e-01  3.37106770e-09  3.50420070e-09  3.57021837e-09  3.34406158e-09  3.26427682e-09  4.57902698e-01  1.56294586e-07  1.03318378e-07  6.60000000e-01 
 6.70000000e-01  4.57902703e-01  3.37106775e-09  3.50420070e-09  3.57021835e-09  3.34406158e-09  3.26427682e-09  4.57902703e-01  1.56294587e-07  1.03318257e-07  6.70000000e-01 
 6.80000000e-01  4.57902690e-01  3.37106770e-09  3.50420070e-09  3.57021830e-09  3.34406158e-09  3.26427682e-09  4.57902690e-01  1.56294580e-07  1.03318172e-07  6.80000000e-01 
 6.90000000e-01  4.57902671e-01  3.37106769e-09  3.50420070e-09  3.57021837e-09  3.34406157e-09  3.26427682e-09  4.57902671e-01  1.56294533e-07  1.03318143e-07  6.90000000e-01 
 7.00000000e-01  4.57902681e-01  3.37106769e-09  3.50420070e-09  3.57021835e-09  3.34406157e-09  3.26427682e-09  4.57902681e-01  1.56294544e-07  1.03317994e-07  7.00000000e-01 
 7.10000000e-01  4.57902713e-01  3.37106770e-09  3.50420070e-09  3.57021837e-09  3.34406158e-09  3.26427682e-09  4.57902713e-01  1.56294615e-07  1.03317937e-07  7.10000000e-01 
 7.20000000e-01  4.57902677e-01  3.37106769e-09  3.50420070e-09  3.57021829e-09  3.34406157e-09  3.26427682e-09  4.57902677e-01  1.56294564e-07  1.03317880e-07  7.20000000e-01 
 7.30000000e-01  4.57902675e-01  3.37106769e-09  3.50420070e-09  3.57021837e-09  3.34406157e-09  3.26427682e-09  4.57902675e-01  1.56294542e-07  1.03317795e-07  7.30000000e-01 
 7.40000000e-01  4.57902672e-01  3.37106769e-09  3.50420070e-09  3.57021829e-09  3.34406157e-09  3.26427682e-09  4.57902672e-01  1.56294526e-07  1.03317731e-07  7.40000000e-01 
 7.50000000e-01  4.57902698e-01  3.37106770e-09  3.50420070e-09  3.57021837e-09  3.34406158e-09  3.26427682e-09  4.57902698e-01  1.56294573e-07  1.03317618e-07  7.50000000e-01 
 7.60000000e-01  4.57902702e-01  3.37106770e-09  3.50420070e-09  3.57021829e-09  3.34406158e-09  3.26427682e-09  4.57902702e-01  1.56294588e-07  1.03317568e-07  7.60000000e-01 
 7.70000000e-01  4.57902682e-01  3.37106769e-09  3.50420070e-09  3.57021831e-09  3.34406157e-09  3.26427682e-09  4.57902682e-01  1.56294547e-07  1.03317355e-07  7.70000000e-01 
 7.80000000e-01  4.57902669e-01  3.37106769e-09  3.50420070e-09  3.57021836e-09  3.34406157e-09  3.26427682e-09  4.57902669e-01  1.56294544e-07  1.03317291e-07  7.80000000e-01 
 7.90000000e-01  4.57902680e-01  3.37106769e-09  3.50420070e-09  3.57021829e-09  3.34406157e-09  3.26427682e-09  4.57902680e-01  1.56294544e-07  1.03317184e-07  7.90000000e-01 
 8.00000000e-01  4.57902704e-01  3.37106770e-09  3.50420065e-09  3.57021837e-09  3.34406158e-09  3.26427682e-09  4.57902704e-01  1.56294591e-07  1.03317262e-07  8.00000000e-01 
 8.10000000e-01  4.57902694e-01  3.37106770e-09  3.50420070e-09  3.57021835e-09  3.34406158e-09  3.26427682e-09  4.57902694e-01  1.56294567e-07  1.03317134e-07  8.10000000e-01 
 8.20000000e-01  4.57902679e-01  3.37106775e-09  3.50420070e-09  3.57021831e-09  3.34406157e-09  3.26427682e-09  4.57902679e-01  1.56294551e-07  1.03316950e-07  8.20000000e-01 
 8.30000000e-01  4.57902688e-01  3.37106770e-09  3.50420065e-09  3.57021836e-09  3.34406158e-09  3.26427682e-09  4.57902688e-01  1.56294561e-07  1.03316971e-07  8.30000000e-01 
 8.40000000e-01  4.57902704e-01  3.37106770e-09  3.50420070e-09  3.57021835e-09  3.34406158e-09  3.26427682e-09  4.57902704e-01  1.56294596e-07  1.03317021e-07  8.40000000e-01 
 8.50000000e-01  4.57902663e-01  3.37106769e-09  3.50420070e-09  3.57021830e-09  3.34406157e-09  3.26427682e-09  4.57902663e-01  1.56294534e-07  1.03316772e-07  8.50000000e-01 
 8.60000000e-01  4.57902688e-01  3.37106770e-09  3.50420070e-09  3.57021837e-09  3.34406158e-09  3.26427682e-09  4.57902688e-01  1.56294569e-07  1.03316708e-07  8.60000000e-01 
 8.70000000e-01  4.57902701e-01  3.37106770e-09  3.50420070e-09  3.57021835e-09  3.34406158e-09  3.26427682e-09  4.57902701e-01  1.56294597e-07  1.03316736e-07  8.70000000e-01 
 8.80000000e-01  4.57902696e-01  3.37106770e-09  3.50420065e-09  3.57021836e-09  3.34406158e-09  3.26427682e-09  4.57902696e-01  1.56294581e-07  1.03316708e-07  8.80000000e-01 
 8.90000000e-01  4.57902687e-01  3.37106770e-09  3.50420070e-09  3.57021830e-09  3.34406157e-09  3.26427682e-09  4.57902687e-01  1.56294573e-07  1.03316495e-07  8.90000000e-01 
 9.00000000e-01  4.57902693e-01  3.37106775e-09  3.50420070e-09  3.57021831e-09  3.34406158e-09  3.26427682e-09  4.57902693e-01  1.56294571e-07  1.03316452e-07  9.00000000e-01 
 9.10000000e-01  4.57902688e-01  3.37106770e-09  3.50420070e-09  3.57021831e-09  3.34406158e-09  3.26427682e-09  4.57902688e-01  1.56294567e-07  1.03316367e-07  9.10000000e-01 
 9.20000000e-01  4.57902697e-01  3.37106775e-09  3.50420070e-09  3.57021831e-09  3.34406158e-09  3.26427682e-09  4.57902697e-01  1.56294594e-07  1.03316388e-07  9.20000000e-01 
 9.30000000e-01  4.57902668e-01  3.37106769e-09  3.50420070e-09  3.57021830e-09  3.34406157e-09  3.26427682e-09  4.57902668e-01  1.56294538e-07  1.03316211e-07  9.30000000e-01 
 9.40000000e-01  4.57902677e-01  3.37106769e-09  3.50420070e-09  3.57021830e-09  3.34406157e-09  3.26427682e-09  4.57902677e-01  1.56294544e-07  1.03316090e-07  9.40000000e-01 
 9.50000000e-01  4.57902702e-01  3.37106770e-09  3.50420070e-09  3.57021836e-09  3.34406158e-09  3.26427682e-09  4.57902702e-01  1.56294587e-07  1.03316076e-07  9.50000000e-01 
 9.60000000e-01  4.57902701e-01  3.37106770e-09  3.50420070e-09  3.57021835e-09  3.34406158e-09  3.26427682e-09  4.57902701e-01  1.56294584e-07  1.03315976e-07  9.60000000e-01 
 9.70000000e-01  4.57902709e-01  3.37106770e-09  3.50420070e-09  3.57021836e-09  3.34406158e-09  3.26427682e-09  4.57902709e-01  1.56294611e-07  1.03315926e-07  9.70000000e-01 
 9.80000000e-01  4.57902694e-01  3.37106770e-09  3.50420070e-09  3.57021836e-09  3.34406158e-09  3.26427682e-09  4.57902694e-01  1.56294569e-07  1.03315855e-07  9.80000000e-01 
 9.90000000e-01  4.57902661e-01  3.37106775e-09  3.50420070e-09  3.57021830e-09  3.34406157e-09  3.26427682e-09  4.57902661e-01  1.56294521e-07  1.03315713e-07  9.90000000e-01 
 1.00000000e+00  4.57902681e-01  3.37106769e-09  3.50420070e-09  3.57021837e-09  3.34406157e-09  3.26427682e-09  4.57902681e-01  1.56294548e-07  1.03315649e-07  1.00000000e+00 
 1.01000000e+00  4.57902679e-01  3.37106769e-09  3.50420070e-09  3.57021829e-09  3.34406157e-09  3.26427682e-09  4.57902679e-01  1.56294555e-07  1.03315593e-07  1.01000000e+00 
 1.02000000e+00  4.57902686e-01  3.37106775e-09  3.50420070e-09  3.57021837e-09  3.34406157e-09  3.26427682e-09  4.57902686e-01  1.56294559e-07  1.03315564e-07  1.02000000e+00 
 1.03000000e+00  4.57902714e-01  3.37106770e-09  3.50420065e-09  3.57021829e-09  3.34406158e-09  3.26427682e-09  4.57902714e-01  1.56294608e-07  1.03315415e-07  1.03000000e+00 
 1.04000000e+00  4.57902694e-01  3.37106770e-09  3.50420070e-09  3.57021831e-09  3.34406158e-09  3.26427682e-09  4.57902694e-01  1.56294585e-07  1.03315330e-07  1.04000000e+00 
 1.05000000e+00  4.57902706e-01  3.37106770e-09  3.50420070e-09  3.57021836e-09  3.34406158e-09  3.26427682e-09  4.57902706e-01  1.56294586e-07  1.03315180e-07  1.05000000e+00 
 1.06000000e+00  4.57902678e-01  3.37106769e-09  3.50420070e-09  3.57021835e-09  3.34406157e-09  3.26427682e-09  4.57902678e-01  1.56294563e-07  1.03315124e-07  1.06000000e+00 
 1.07000000e+00  4.57902703e-01  3.37106770e-09  3.50420070e-09  3.57021831e-09  3.34406158e-09  3.26427682e-09  4.57902703e-01  1.56294582e-07  1.03314989e-07  1.07000000e+00 
 1.08000000e+00  4.57902698e-01  3.37106770e-09  3.50420070e-09  3.57021836e-09  3.34406158e-09  3.26427682e-09  4.57902698e-01  1.56294578e-07  1.03314946e-07  1.08000000e+00 
 1.09000000e+00  4.57902691e-01  3.37106770e-09  3.50420070e-09  3.57021835e-09  3.34406158e-09  3.26427682e-09  4.57902691e-01  1.56294566e-07  1.03314889e-07  1.09000000e+00 
 1.10000000e+00  4.57902699e-01  3.37106770e-09  3.50420070e-09  3.57021837e-09  3.34406158e-09  3.26427682e-09  4.57902699e-01  1.56294591e-07  1.03314768e-07  1.10000000e+00 
