 v-sweep         v(b0)           v(b1)           v(b2)           v(b3)           v(b4)           v(b5)           v(b6)           i(vbias)        i(viout)        v(vout)        
 0.00000000e+00  3.45548059e-09  4.56659114e-01  4.56659114e-01  3.48847968e-09  3.29097898e-09  3.32721530e-09  3.22969946e-09  1.56783366e-07  8.70318169e-09  0.00000000e+00 
 1.00000000e-02  3.45548058e-09  4.56659097e-01  4.56659097e-01  3.48847973e-09  3.29097897e-09  3.32721529e-09  3.22969946e-09  1.56783342e-07  8.70278505e-09  1.00000000e-02 
 2.00000000e-02  3.45548058e-09  4.56659090e-01  4.56659090e-01  3.48847972e-09  3.29097903e-09  3.32721529e-09  3.22969946e-09  1.56783333e-07  8.70244765e-09  2.00000000e-02 
 3.00000000e-02  3.45548058e-09  4.56659100e-01  4.56659100e-01  3.48847972e-09  3.29097903e-09  3.32721529e-09  3.22969946e-09  1.56783346e-07  8.70202355e-09  3.00000000e-02 
 4.00000000e-02  3.45548058e-09  4.56659118e-01  4.56659119e-01  3.48847973e-09  3.29097897e-09  3.32721535e-09  3.22969946e-09  1.56783389e-07  8.70173489e-09  4.00000000e-02 
 5.00000000e-02  3.45548058e-09  4.56659101e-01  4.56659101e-01  3.48847972e-09  3.29097897e-09  3.32721529e-09  3.22969946e-09  1.56783354e-07  8.70141781e-09  5.00000000e-02 
 6.00000000e-02  3.45548058e-09  4.56659107e-01  4.56659107e-01  3.48847973e-09  3.29097903e-09  3.32721535e-09  3.22969946e-09  1.56783357e-07  8.70115535e-09  6.00000000e-02 
 7.00000000e-02  3.45548058e-09  4.56659103e-01  4.56659103e-01  3.48847973e-09  3.29097903e-09  3.32721529e-09  3.22969946e-09  1.56783365e-07  8.70079297e-09  7.00000000e-02 
 8.00000000e-02  3.45548064e-09  4.56659119e-01  4.56659119e-01  3.48847973e-09  3.29097903e-09  3.32721529e-09  3.22969946e-09  1.56783380e-07  8.70063577e-09  8.00000000e-02 
 9.00000000e-02  3.45548058e-09  4.56659104e-01  4.56659104e-01  3.48847973e-09  3.29097902e-09  3.32721529e-09  3.22969946e-09  1.56783348e-07  8.70030004e-09  9.00000000e-02 
 1.00000000e-01  3.45548058e-09  4.56659093e-01  4.56659094e-01  3.48847972e-09  3.29097904e-09  3.32721529e-09  3.22969946e-09  1.56783342e-07  8.69995187e-09  1.00000000e-01 
 1.10000000e-01  3.45548064e-09  4.56659131e-01  4.56659131e-01  3.48847973e-09  3.29097902e-09  3.32721529e-09  3.22969946e-09  1.56783406e-07  8.69990391e-09  1.10000000e-01 
 1.20000000e-01  3.45548058e-09  4.56659098e-01  4.56659099e-01  3.48847972e-09  3.29097898e-09  3.32721529e-09  3.22969946e-09  1.56783342e-07  8.69939232e-09  1.20000000e-01 
 1.30000000e-01  3.45548063e-09  4.56659082e-01  4.56659083e-01  3.48847972e-09  3.29097903e-09  3.32721529e-09  3.22969946e-09  1.56783324e-07  8.69934702e-09  1.30000000e-01 
 1.40000000e-01  3.45548064e-09  4.56659114e-01  4.56659114e-01  3.48847973e-09  3.29097897e-09  3.32721529e-09  3.22969946e-09  1.56783372e-07  8.69919248e-09  1.40000000e-01 
 1.50000000e-01  3.45548058e-09  4.56659088e-01  4.56659088e-01  3.48847972e-09  3.29097903e-09  3.32721529e-09  3.22969946e-09  1.56783334e-07  8.69900063e-09  1.50000000e-01 
 1.60000000e-01  3.45548063e-09  4.56659074e-01  4.56659074e-01  3.48847972e-09  3.29097903e-09  3.32721529e-09  3.22969945e-09  1.56783311e-07  8.69885319e-09  1.60000000e-01 
 1.70000000e-01  3.45548063e-09  4.56659096e-01  4.56659096e-01  3.48847972e-09  3.29097903e-09  3.32721529e-09  3.22969946e-09  1.56783336e-07  8.69864003e-09  1.70000000e-01 
 1.80000000e-01  3.45548058e-09  4.56659085e-01  4.56659085e-01  3.48847972e-09  3.29097903e-09  3.32721529e-09  3.22969946e-09  1.56783330e-07  8.69832029e-09  1.80000000e-01 
 1.90000000e-01  3.45548063e-09  4.56659075e-01  4.56659075e-01  3.48847972e-09  3.29097897e-09  3.32721529e-09  3.22969945e-09  1.56783328e-07  8.69832917e-09  1.90000000e-01 
 2.00000000e-01  3.45548057e-09  4.56659060e-01  4.56659060e-01  3.48847972e-09  3.29097897e-09  3.32721529e-09  3.22969945e-09  1.56783296e-07  8.69797390e-09  2.00000000e-01 
 2.10000000e-01  3.45548058e-09  4.56659106e-01  4.56659106e-01  3.48847973e-09  3.29097903e-09  3.32721529e-09  3.22969946e-09  1.56783361e-07  8.69789041e-09  2.10000000e-01 
 2.20000000e-01  3.45548058e-09  4.56659083e-01  4.56659083e-01  3.48847972e-09  3.29097903e-09  3.32721529e-09  3.22969946e-09  1.56783324e-07  8.69785666e-09  2.20000000e-01 
 2.30000000e-01  3.45548064e-09  4.56659099e-01  4.56659100e-01  3.48847972e-09  3.29097903e-09  3.32721529e-09  3.22969946e-09  1.56783342e-07  8.69769501e-09  2.30000000e-01 
 2.40000000e-01  3.45548063e-09  4.56659090e-01  4.56659090e-01  3.48847972e-09  3.29097903e-09  3.32721529e-09  3.22969946e-09  1.56783343e-07  8.69763461e-09  2.40000000e-01 
 2.50000000e-01  3.45548064e-09  4.56659106e-01  4.56659106e-01  3.48847973e-09  3.29097903e-09  3.32721529e-09  3.22969946e-09  1.56783374e-07  8.69734684e-09  2.50000000e-01 
 2.60000000e-01  3.45548058e-09  4.56659122e-01  4.56659122e-01  3.48847973e-09  3.29097897e-09  3.32721529e-09  3.22969946e-09  1.56783382e-07  8.69722605e-09  2.60000000e-01 
 2.70000000e-01  3.45548058e-09  4.56659087e-01  4.56659087e-01  3.48847972e-09  3.29097903e-09  3.32721529e-09  3.22969946e-09  1.56783321e-07  8.69720473e-09  2.70000000e-01 
 2.80000000e-01  3.45548064e-09  4.56659101e-01  4.56659101e-01  3.48847972e-09  3.29097903e-09  3.32721529e-09  3.22969946e-09  1.56783358e-07  8.69713368e-09  2.80000000e-01 
 2.90000000e-01  3.45548058e-09  4.56659109e-01  4.56659109e-01  3.48847973e-09  3.29097903e-09  3.32721529e-09  3.22969946e-09  1.56783365e-07  8.69696137e-09  2.90000000e-01 
 3.00000000e-01  3.45548058e-09  4.56659115e-01  4.56659115e-01  3.48847973e-09  3.29097897e-09  3.32721529e-09  3.22969946e-09  1.56783365e-07  8.69685834e-09  3.00000000e-01 
 3.10000000e-01  3.45548063e-09  4.56659095e-01  4.56659095e-01  3.48847972e-09  3.29097903e-09  3.32721529e-09  3.22969946e-09  1.56783347e-07  8.69680150e-09  3.10000000e-01 
 3.20000000e-01  3.45548063e-09  4.56659089e-01  4.56659090e-01  3.48847972e-09  3.29097903e-09  3.32721535e-09  3.22969946e-09  1.56783335e-07  8.69670558e-09  3.20000000e-01 
 3.30000000e-01  3.45548058e-09  4.56659094e-01  4.56659094e-01  3.48847972e-09  3.29097897e-09  3.32721529e-09  3.22969946e-09  1.56783347e-07  8.69655281e-09  3.30000000e-01 
 3.40000000e-01  3.45548058e-09  4.56659122e-01  4.56659122e-01  3.48847973e-09  3.29097903e-09  3.32721529e-09  3.22969946e-09  1.56783386e-07  8.69649242e-09  3.40000000e-01 
 3.50000000e-01  3.45548058e-09  4.56659087e-01  4.56659087e-01  3.48847972e-09  3.29097902e-09  3.32721529e-09  3.22969946e-09  1.56783329e-07  8.69635031e-09  3.50000000e-01 
 3.60000000e-01  3.45548058e-09  4.56659121e-01  4.56659121e-01  3.48847973e-09  3.29097904e-09  3.32721535e-09  3.22969946e-09  1.56783380e-07  8.69633254e-09  3.60000000e-01 
 3.70000000e-01  3.45548064e-09  4.56659104e-01  4.56659104e-01  3.48847973e-09  3.29097902e-09  3.32721529e-09  3.22969946e-09  1.56783363e-07  8.69632899e-09  3.70000000e-01 
 3.80000000e-01  3.45548063e-09  4.56659091e-01  4.56659091e-01  3.48847972e-09  3.29097898e-09  3.32721529e-09  3.22969946e-09  1.56783344e-07  8.69611938e-09  3.80000000e-01 
 3.90000000e-01  3.45548058e-09  4.56659092e-01  4.56659092e-01  3.48847972e-09  3.29097903e-09  3.32721529e-09  3.22969946e-09  1.56783334e-07  8.69600925e-09  3.90000000e-01 
 4.00000000e-01  3.45548058e-09  4.56659087e-01  4.56659088e-01  3.48847972e-09  3.29097903e-09  3.32721529e-09  3.22969946e-09  1.56783323e-07  8.69613714e-09  4.00000000e-01 
 4.10000000e-01  3.45548058e-09  4.56659104e-01  4.56659104e-01  3.48847973e-09  3.29097903e-09  3.32721529e-09  3.22969946e-09  1.56783354e-07  8.69600214e-09  4.10000000e-01 
 4.20000000e-01  3.45548058e-09  4.56659086e-01  4.56659086e-01  3.48847972e-09  3.29097903e-09  3.32721535e-09  3.22969946e-09  1.56783323e-07  8.69582095e-09  4.20000000e-01 
 4.30000000e-01  3.45548058e-09  4.56659078e-01  4.56659078e-01  3.48847972e-09  3.29097903e-09  3.32721535e-09  3.22969945e-09  1.56783319e-07  8.69572503e-09  4.30000000e-01 
 4.40000000e-01  3.45548058e-09  4.56659085e-01  4.56659085e-01  3.48847972e-09  3.29097903e-09  3.32721529e-09  3.22969946e-09  1.56783338e-07  8.69579964e-09  4.40000000e-01 
 4.50000000e-01  3.45548058e-09  4.56659099e-01  4.56659099e-01  3.48847972e-09  3.29097897e-09  3.32721529e-09  3.22969946e-09  1.56783360e-07  8.69569661e-09  4.50000000e-01 
 4.60000000e-01  3.45548058e-09  4.56659108e-01  4.56659108e-01  3.48847973e-09  3.29097897e-09  3.32721535e-09  3.22969946e-09  1.56783362e-07  8.69579608e-09  4.60000000e-01 
 4.70000000e-01  3.45548064e-09  4.56659113e-01  4.56659113e-01  3.48847973e-09  3.29097903e-09  3.32721529e-09  3.22969946e-09  1.56783381e-07  8.69560068e-09  4.70000000e-01 
 4.80000000e-01  3.45548063e-09  4.56659095e-01  4.56659096e-01  3.48847972e-09  3.29097903e-09  3.32721529e-09  3.22969946e-09  1.56783347e-07  8.69548344e-09  4.80000000e-01 
 4.90000000e-01  3.45548064e-09  4.56659101e-01  4.56659101e-01  3.48847967e-09  3.29097903e-09  3.32721535e-09  3.22969946e-09  1.56783345e-07  8.69544792e-09  4.90000000e-01 
 5.00000000e-01  3.45548058e-09  4.56659099e-01  4.56659099e-01  3.48847974e-09  3.29097903e-09  3.32721529e-09  3.22969946e-09  1.56783347e-07  8.69540173e-09  5.00000000e-01 
 5.10000000e-01  3.45548058e-09  4.56659096e-01  4.56659096e-01  3.48847972e-09  3.29097903e-09  3.32721529e-09  3.22969946e-09  1.56783357e-07  8.69540173e-09  5.10000000e-01 
 5.20000000e-01  3.45548058e-09  4.56659109e-01  4.56659109e-01  3.48847967e-09  3.29097897e-09  3.32721529e-09  3.22969946e-09  1.56783355e-07  8.69524897e-09  5.20000000e-01 
 5.30000000e-01  3.45548058e-09  4.56659089e-01  4.56659089e-01  3.48847974e-09  3.29097897e-09  3.32721529e-09  3.22969946e-09  1.56783348e-07  8.69523120e-09  5.30000000e-01 
 5.40000000e-01  3.45548063e-09  4.56659085e-01  4.56659086e-01  3.48847972e-09  3.29097903e-09  3.32721529e-09  3.22969946e-09  1.56783322e-07  8.69529515e-09  5.40000000e-01 
 5.50000000e-01  3.45548064e-09  4.56659133e-01  4.56659133e-01  3.48847973e-09  3.29097903e-09  3.32721529e-09  3.22969946e-09  1.56783395e-07  8.69518502e-09  5.50000000e-01 
 5.60000000e-01  3.45548058e-09  4.56659103e-01  4.56659103e-01  3.48847973e-09  3.29097902e-09  3.32721529e-09  3.22969946e-09  1.56783354e-07  8.69508909e-09  5.60000000e-01 
 5.70000000e-01  3.45548063e-09  4.56659095e-01  4.56659095e-01  3.48847972e-09  3.29097898e-09  3.32721529e-09  3.22969946e-09  1.56783338e-07  8.69496475e-09  5.70000000e-01 
 5.80000000e-01  3.45548064e-09  4.56659111e-01  4.56659111e-01  3.48847973e-09  3.29097903e-09  3.32721529e-09  3.22969946e-09  1.56783360e-07  8.69497541e-09  5.80000000e-01 
 5.90000000e-01  3.45548064e-09  4.56659112e-01  4.56659112e-01  3.48847973e-09  3.29097903e-09  3.32721529e-09  3.22969946e-09  1.56783357e-07  8.69481198e-09  5.90000000e-01 
 6.00000000e-01  3.45548058e-09  4.56659092e-01  4.56659092e-01  3.48847972e-09  3.29097903e-09  3.32721529e-09  3.22969946e-09  1.56783342e-07  8.69484040e-09  6.00000000e-01 
 6.10000000e-01  3.45548058e-09  4.56659108e-01  4.56659108e-01  3.48847973e-09  3.29097903e-09  3.32721529e-09  3.22969946e-09  1.56783366e-07  8.69486882e-09  6.10000000e-01 
 6.20000000e-01  3.45548064e-09  4.56659114e-01  4.56659114e-01  3.48847973e-09  3.29097897e-09  3.32721535e-09  3.22969946e-09  1.56783352e-07  8.69481198e-09  6.20000000e-01 
 6.30000000e-01  3.45548058e-09  4.56659102e-01  4.56659102e-01  3.48847967e-09  3.29097903e-09  3.32721535e-09  3.22969946e-09  1.56783361e-07  8.69468408e-09  6.30000000e-01 
 6.40000000e-01  3.45548064e-09  4.56659113e-01  4.56659114e-01  3.48847968e-09  3.29097903e-09  3.32721529e-09  3.22969946e-09  1.56783362e-07  8.69469119e-09  6.40000000e-01 
 6.50000000e-01  3.45548063e-09  4.56659089e-01  4.56659089e-01  3.48847973e-09  3.29097897e-09  3.32721529e-09  3.22969946e-09  1.56783333e-07  8.69449934e-09  6.50000000e-01 
 6.60000000e-01  3.45548063e-09  4.56659090e-01  4.56659090e-01  3.48847972e-09  3.29097903e-09  3.32721529e-09  3.22969946e-09  1.56783333e-07  8.69445671e-09  6.60000000e-01 
 6.70000000e-01  3.45548064e-09  4.56659109e-01  4.56659109e-01  3.48847973e-09  3.29097903e-09  3.32721529e-09  3.22969946e-09  1.56783369e-07  8.69453487e-09  6.70000000e-01 
 6.80000000e-01  3.45548058e-09  4.56659102e-01  4.56659102e-01  3.48847973e-09  3.29097903e-09  3.32721529e-09  3.22969946e-09  1.56783347e-07  8.69442118e-09  6.80000000e-01 
 6.90000000e-01  3.45548063e-09  4.56659091e-01  4.56659091e-01  3.48847972e-09  3.29097903e-09  3.32721529e-09  3.22969946e-09  1.56783349e-07  8.69442829e-09  6.90000000e-01 
 7.00000000e-01  3.45548064e-09  4.56659110e-01  4.56659110e-01  3.48847973e-09  3.29097903e-09  3.32721529e-09  3.22969946e-09  1.56783383e-07  8.69429329e-09  7.00000000e-01 
 7.10000000e-01  3.45548058e-09  4.56659101e-01  4.56659101e-01  3.48847972e-09  3.29097903e-09  3.32721529e-09  3.22969946e-09  1.56783354e-07  8.69440697e-09  7.10000000e-01 
 7.20000000e-01  3.45548064e-09  4.56659107e-01  4.56659107e-01  3.48847973e-09  3.29097903e-09  3.32721529e-09  3.22969946e-09  1.56783365e-07  8.69432881e-09  7.20000000e-01 
 7.30000000e-01  3.45548064e-09  4.56659113e-01  4.56659113e-01  3.48847973e-09  3.29097903e-09  3.32721529e-09  3.22969946e-09  1.56783364e-07  8.69418670e-09  7.30000000e-01 
 7.40000000e-01  3.45548058e-09  4.56659079e-01  4.56659079e-01  3.48847972e-09  3.29097903e-09  3.32721529e-09  3.22969945e-09  1.56783316e-07  8.69429329e-09  7.40000000e-01 
 7.50000000e-01  3.45548058e-09  4.56659084e-01  4.56659084e-01  3.48847972e-09  3.29097903e-09  3.32721529e-09  3.22969946e-09  1.56783328e-07  8.69426486e-09  7.50000000e-01 
 7.60000000e-01  3.45548063e-09  4.56659086e-01  4.56659086e-01  3.48847972e-09  3.29097897e-09  3.32721529e-09  3.22969946e-09  1.56783349e-07  8.69421513e-09  7.60000000e-01 
 7.70000000e-01  3.45548063e-09  4.56659094e-01  4.56659095e-01  3.48847972e-09  3.29097903e-09  3.32721529e-09  3.22969946e-09  1.56783354e-07  8.69400196e-09  7.70000000e-01 
 7.80000000e-01  3.45548058e-09  4.56659099e-01  4.56659099e-01  3.48847972e-09  3.29097903e-09  3.32721529e-09  3.22969946e-09  1.56783353e-07  8.69395933e-09  7.80000000e-01 
 7.90000000e-01  3.45548058e-09  4.56659111e-01  4.56659111e-01  3.48847973e-09  3.29097903e-09  3.32721529e-09  3.22969946e-09  1.56783360e-07  8.69396644e-09  7.90000000e-01 
 8.00000000e-01  3.45548063e-09  4.56659098e-01  4.56659098e-01  3.48847972e-09  3.29097903e-09  3.32721529e-09  3.22969946e-09  1.56783345e-07  8.69388117e-09  8.00000000e-01 
 8.10000000e-01  3.45548058e-09  4.56659085e-01  4.56659085e-01  3.48847972e-09  3.29097903e-09  3.32721529e-09  3.22969946e-09  1.56783321e-07  8.69378880e-09  8.10000000e-01 
 8.20000000e-01  3.45548058e-09  4.56659117e-01  4.56659117e-01  3.48847973e-09  3.29097897e-09  3.32721529e-09  3.22969946e-09  1.56783366e-07  8.69382433e-09  8.20000000e-01 
 8.30000000e-01  3.45548063e-09  4.56659098e-01  4.56659098e-01  3.48847972e-09  3.29097903e-09  3.32721529e-09  3.22969946e-09  1.56783348e-07  8.69368932e-09  8.30000000e-01 
 8.40000000e-01  3.45548063e-09  4.56659086e-01  4.56659086e-01  3.48847972e-09  3.29097903e-09  3.32721529e-09  3.22969946e-09  1.56783336e-07  8.69363248e-09  8.40000000e-01 
 8.50000000e-01  3.45548058e-09  4.56659093e-01  4.56659093e-01  3.48847972e-09  3.29097903e-09  3.32721529e-09  3.22969946e-09  1.56783329e-07  8.69374617e-09  8.50000000e-01 
 8.60000000e-01  3.45548064e-09  4.56659104e-01  4.56659104e-01  3.48847973e-09  3.29097903e-09  3.32721529e-09  3.22969940e-09  1.56783365e-07  8.69363959e-09  8.60000000e-01 
 8.70000000e-01  3.45548058e-09  4.56659096e-01  4.56659097e-01  3.48847972e-09  3.29097897e-09  3.32721529e-09  3.22969946e-09  1.56783344e-07  8.69346906e-09  8.70000000e-01 
 8.80000000e-01  3.45548064e-09  4.56659108e-01  4.56659108e-01  3.48847973e-09  3.29097897e-09  3.32721529e-09  3.22969946e-09  1.56783360e-07  8.69356853e-09  8.80000000e-01 
 8.90000000e-01  3.45548064e-09  4.56659101e-01  4.56659101e-01  3.48847972e-09  3.29097897e-09  3.32721529e-09  3.22969946e-09  1.56783345e-07  8.69344063e-09  8.90000000e-01 
 9.00000000e-01  3.45548063e-09  4.56659088e-01  4.56659088e-01  3.48847972e-09  3.29097897e-09  3.32721535e-09  3.22969946e-09  1.56783336e-07  8.69349748e-09  9.00000000e-01 
 9.10000000e-01  3.45548058e-09  4.56659092e-01  4.56659092e-01  3.48847972e-09  3.29097903e-09  3.32721529e-09  3.22969946e-09  1.56783333e-07  8.69340511e-09  9.10000000e-01 
 9.20000000e-01  3.45548058e-09  4.56659110e-01  4.56659110e-01  3.48847973e-09  3.29097903e-09  3.32721535e-09  3.22969946e-09  1.56783373e-07  8.69324168e-09  9.20000000e-01 
 9.30000000e-01  3.45548058e-09  4.56659085e-01  4.56659085e-01  3.48847972e-09  3.29097903e-09  3.32721529e-09  3.22969946e-09  1.56783325e-07  8.69329853e-09  9.30000000e-01 
 9.40000000e-01  3.45548063e-09  4.56659087e-01  4.56659087e-01  3.48847972e-09  3.29097897e-09  3.32721529e-09  3.22969946e-09  1.56783315e-07  8.69313510e-09  9.40000000e-01 
 9.50000000e-01  3.45548063e-09  4.56659096e-01  4.56659096e-01  3.48847972e-09  3.29097897e-09  3.32721529e-09  3.22969946e-09  1.56783353e-07  8.69310668e-09  9.50000000e-01 
 9.60000000e-01  3.45548063e-09  4.56659098e-01  4.56659098e-01  3.48847972e-09  3.29097903e-09  3.32721529e-09  3.22969946e-09  1.56783346e-07  8.69309247e-09  9.60000000e-01 
 9.70000000e-01  3.45548064e-09  4.56659102e-01  4.56659102e-01  3.48847972e-09  3.29097903e-09  3.32721535e-09  3.22969946e-09  1.56783355e-07  8.69313510e-09  9.70000000e-01 
 9.80000000e-01  3.45548058e-09  4.56659086e-01  4.56659086e-01  3.48847972e-09  3.29097903e-09  3.32721529e-09  3.22969946e-09  1.56783334e-07  8.69295036e-09  9.80000000e-01 
 9.90000000e-01  3.45548063e-09  4.56659088e-01  4.56659088e-01  3.48847972e-09  3.29097903e-09  3.32721529e-09  3.22969946e-09  1.56783335e-07  8.69303562e-09  9.90000000e-01 
 1.00000000e+00  3.45548064e-09  4.56659107e-01  4.56659107e-01  3.48847973e-09  3.29097903e-09  3.32721529e-09  3.22969946e-09  1.56783353e-07  8.69277983e-09  1.00000000e+00 
 1.01000000e+00  3.45548064e-09  4.56659105e-01  4.56659105e-01  3.48847973e-09  3.29097903e-09  3.32721529e-09  3.22969946e-09  1.56783353e-07  8.69287220e-09  1.01000000e+00 
 1.02000000e+00  3.45548058e-09  4.56659099e-01  4.56659099e-01  3.48847972e-09  3.29097897e-09  3.32721535e-09  3.22969946e-09  1.56783355e-07  8.69283667e-09  1.02000000e+00 
 1.03000000e+00  3.45548058e-09  4.56659113e-01  4.56659113e-01  3.48847973e-09  3.29097903e-09  3.32721535e-09  3.22969946e-09  1.56783381e-07  8.69267325e-09  1.03000000e+00 
 1.04000000e+00  3.45548063e-09  4.56659095e-01  4.56659095e-01  3.48847972e-09  3.29097897e-09  3.32721529e-09  3.22969946e-09  1.56783341e-07  8.69270167e-09  1.04000000e+00 
 1.05000000e+00  3.45548063e-09  4.56659084e-01  4.56659084e-01  3.48847972e-09  3.29097903e-09  3.32721529e-09  3.22969946e-09  1.56783327e-07  8.69259509e-09  1.05000000e+00 
 1.06000000e+00  3.45548058e-09  4.56659090e-01  4.56659090e-01  3.48847972e-09  3.29097897e-09  3.32721529e-09  3.22969946e-09  1.56783324e-07  8.69253114e-09  1.06000000e+00 
 1.07000000e+00  3.45548058e-09  4.56659110e-01  4.56659110e-01  3.48847973e-09  3.29097903e-09  3.32721529e-09  3.22969946e-09  1.56783377e-07  8.69251693e-09  1.07000000e+00 
 1.08000000e+00  3.45548058e-09  4.56659088e-01  4.56659088e-01  3.48847972e-09  3.29097897e-09  3.32721529e-09  3.22969946e-09  1.56783341e-07  8.69254535e-09  1.08000000e+00 
 1.09000000e+00  3.45548064e-09  4.56659107e-01  4.56659107e-01  3.48847967e-09  3.29097903e-09  3.32721529e-09  3.22969946e-09  1.56783347e-07  8.69233219e-09  1.09000000e+00 
 1.10000000e+00  3.45548058e-09  4.56659115e-01  4.56659115e-01  3.48847974e-09  3.29097897e-09  3.32721529e-09  3.22969946e-09  1.56783384e-07  8.69243166e-09  1.10000000e+00 
