 v-sweep         v(b0)           v(b1)           v(b2)           v(b3)           v(b4)           v(b5)           v(b6)           i(vbias)        i(viout)        v(vout)        
 0.00000000e+00  4.57945225e-01  3.23784449e-09  4.57945225e-01  4.57945225e-01  3.25524077e-09  3.31822323e-09  3.54991207e-09  1.57269344e-07  1.92996616e-08  0.00000000e+00 
 1.00000000e-02  4.57945230e-01  3.23784453e-09  4.57945230e-01  4.57945230e-01  3.25524070e-09  3.31822332e-09  3.54991205e-09  1.57269343e-07  1.92993482e-08  1.00000000e-02 
 2.00000000e-02  4.57945228e-01  3.23784453e-09  4.57945228e-01  4.57945228e-01  3.25524071e-09  3.31822326e-09  3.54991205e-09  1.57269334e-07  1.92990945e-08  2.00000000e-02 
 3.00000000e-02  4.57945213e-01  3.23784453e-09  4.57945213e-01  4.57945213e-01  3.25524076e-09  3.31822326e-09  3.54991199e-09  1.57269328e-07  1.92987870e-08  3.00000000e-02 
 4.00000000e-02  4.57945231e-01  3.23784447e-09  4.57945231e-01  4.57945231e-01  3.25524075e-09  3.31822326e-09  3.54991206e-09  1.57269333e-07  1.92983842e-08  4.00000000e-02 
 5.00000000e-02  4.57945234e-01  3.23784453e-09  4.57945234e-01  4.57945234e-01  3.25524075e-09  3.31822332e-09  3.54991204e-09  1.57269355e-07  1.92980343e-08  5.00000000e-02 
 6.00000000e-02  4.57945242e-01  3.23784448e-09  4.57945242e-01  4.57945242e-01  3.25524076e-09  3.31822326e-09  3.54991199e-09  1.57269373e-07  1.92977128e-08  6.00000000e-02 
 7.00000000e-02  4.57945220e-01  3.23784447e-09  4.57945220e-01  4.57945220e-01  3.25524070e-09  3.31822326e-09  3.54991200e-09  1.57269340e-07  1.92974294e-08  7.00000000e-02 
 8.00000000e-02  4.57945234e-01  3.23784447e-09  4.57945234e-01  4.57945234e-01  3.25524071e-09  3.31822326e-09  3.54991206e-09  1.57269350e-07  1.92971106e-08  8.00000000e-02 
 9.00000000e-02  4.57945235e-01  3.23784448e-09  4.57945235e-01  4.57945235e-01  3.25524070e-09  3.31822326e-09  3.54991204e-09  1.57269352e-07  1.92967917e-08  9.00000000e-02 
 1.00000000e-01  4.57945218e-01  3.23784447e-09  4.57945218e-01  4.57945218e-01  3.25524076e-09  3.31822326e-09  3.54991205e-09  1.57269318e-07  1.92966736e-08  1.00000000e-01 
 1.10000000e-01  4.57945236e-01  3.23784453e-09  4.57945236e-01  4.57945236e-01  3.25524075e-09  3.31822326e-09  3.54991205e-09  1.57269353e-07  1.92963832e-08  1.10000000e-01 
 1.20000000e-01  4.57945194e-01  3.23784447e-09  4.57945194e-01  4.57945194e-01  3.25524075e-09  3.31822326e-09  3.54991205e-09  1.57269297e-07  1.92960830e-08  1.20000000e-01 
 1.30000000e-01  4.57945225e-01  3.23784447e-09  4.57945225e-01  4.57945225e-01  3.25524075e-09  3.31822326e-09  3.54991199e-09  1.57269337e-07  1.92959879e-08  1.30000000e-01 
 1.40000000e-01  4.57945233e-01  3.23784447e-09  4.57945233e-01  4.57945233e-01  3.25524075e-09  3.31822326e-09  3.54991206e-09  1.57269338e-07  1.92956806e-08  1.40000000e-01 
 1.50000000e-01  4.57945214e-01  3.23784447e-09  4.57945214e-01  4.57945214e-01  3.25524075e-09  3.31822326e-09  3.54991204e-09  1.57269321e-07  1.92954843e-08  1.50000000e-01 
 1.60000000e-01  4.57945225e-01  3.23784447e-09  4.57945225e-01  4.57945225e-01  3.25524075e-09  3.31822326e-09  3.54991199e-09  1.57269335e-07  1.92953475e-08  1.60000000e-01 
 1.70000000e-01  4.57945241e-01  3.23784448e-09  4.57945241e-01  4.57945241e-01  3.25524070e-09  3.31822326e-09  3.54991201e-09  1.57269371e-07  1.92950314e-08  1.70000000e-01 
 1.80000000e-01  4.57945200e-01  3.23784447e-09  4.57945200e-01  4.57945200e-01  3.25524071e-09  3.31822326e-09  3.54991200e-09  1.57269307e-07  1.92950189e-08  1.80000000e-01 
 1.90000000e-01  4.57945238e-01  3.23784448e-09  4.57945238e-01  4.57945238e-01  3.25524076e-09  3.31822326e-09  3.54991200e-09  1.57269357e-07  1.92947951e-08  1.90000000e-01 
 2.00000000e-01  4.57945232e-01  3.23784453e-09  4.57945232e-01  4.57945232e-01  3.25524075e-09  3.31822332e-09  3.54991206e-09  1.57269345e-07  1.92946636e-08  2.00000000e-01 
 2.10000000e-01  4.57945236e-01  3.23784448e-09  4.57945236e-01  4.57945236e-01  3.25524076e-09  3.31822332e-09  3.54991204e-09  1.57269354e-07  1.92945127e-08  2.10000000e-01 
 2.20000000e-01  4.57945216e-01  3.23784447e-09  4.57945216e-01  4.57945216e-01  3.25524075e-09  3.31822326e-09  3.54991205e-09  1.57269333e-07  1.92942800e-08  2.20000000e-01 
 2.30000000e-01  4.57945221e-01  3.23784447e-09  4.57945221e-01  4.57945221e-01  3.25524075e-09  3.31822326e-09  3.54991205e-09  1.57269321e-07  1.92941911e-08  2.30000000e-01 
 2.40000000e-01  4.57945225e-01  3.23784453e-09  4.57945224e-01  4.57945224e-01  3.25524075e-09  3.31822332e-09  3.54991205e-09  1.57269346e-07  1.92940490e-08  2.40000000e-01 
 2.50000000e-01  4.57945219e-01  3.23784453e-09  4.57945219e-01  4.57945219e-01  3.25524070e-09  3.31822326e-09  3.54991205e-09  1.57269331e-07  1.92938732e-08  2.50000000e-01 
 2.60000000e-01  4.57945213e-01  3.23784447e-09  4.57945213e-01  4.57945213e-01  3.25524077e-09  3.31822326e-09  3.54991205e-09  1.57269333e-07  1.92937311e-08  2.60000000e-01 
 2.70000000e-01  4.57945223e-01  3.23784447e-09  4.57945223e-01  4.57945223e-01  3.25524075e-09  3.31822326e-09  3.54991199e-09  1.57269327e-07  1.92937772e-08  2.70000000e-01 
 2.80000000e-01  4.57945217e-01  3.23784453e-09  4.57945217e-01  4.57945217e-01  3.25524075e-09  3.31822332e-09  3.54991206e-09  1.57269340e-07  1.92935552e-08  2.80000000e-01 
 2.90000000e-01  4.57945231e-01  3.23784453e-09  4.57945231e-01  4.57945231e-01  3.25524075e-09  3.31822332e-09  3.54991204e-09  1.57269336e-07  1.92935410e-08  2.90000000e-01 
 3.00000000e-01  4.57945206e-01  3.23784453e-09  4.57945206e-01  4.57945206e-01  3.25524075e-09  3.31822326e-09  3.54991205e-09  1.57269317e-07  1.92933598e-08  3.00000000e-01 
 3.10000000e-01  4.57945222e-01  3.23784453e-09  4.57945222e-01  4.57945222e-01  3.25524070e-09  3.31822326e-09  3.54991205e-09  1.57269329e-07  1.92932887e-08  3.10000000e-01 
 3.20000000e-01  4.57945226e-01  3.23784447e-09  4.57945226e-01  4.57945226e-01  3.25524071e-09  3.31822326e-09  3.54991205e-09  1.57269337e-07  1.92932426e-08  3.20000000e-01 
 3.30000000e-01  4.57945222e-01  3.23784447e-09  4.57945222e-01  4.57945222e-01  3.25524076e-09  3.31822332e-09  3.54991205e-09  1.57269330e-07  1.92930862e-08  3.30000000e-01 
 3.40000000e-01  4.57945225e-01  3.23784447e-09  4.57945225e-01  4.57945225e-01  3.25524075e-09  3.31822326e-09  3.54991205e-09  1.57269329e-07  1.92929903e-08  3.40000000e-01 
 3.50000000e-01  4.57945226e-01  3.23784453e-09  4.57945226e-01  4.57945226e-01  3.25524075e-09  3.31822326e-09  3.54991199e-09  1.57269332e-07  1.92930329e-08  3.50000000e-01 
 3.60000000e-01  4.57945226e-01  3.23784447e-09  4.57945226e-01  4.57945226e-01  3.25524070e-09  3.31822326e-09  3.54991200e-09  1.57269343e-07  1.92927345e-08  3.60000000e-01 
 3.70000000e-01  4.57945229e-01  3.23784453e-09  4.57945229e-01  4.57945229e-01  3.25524077e-09  3.31822326e-09  3.54991200e-09  1.57269340e-07  1.92927025e-08  3.70000000e-01 
 3.80000000e-01  4.57945213e-01  3.23784447e-09  4.57945213e-01  4.57945213e-01  3.25524075e-09  3.31822332e-09  3.54991205e-09  1.57269331e-07  1.92926812e-08  3.80000000e-01 
 3.90000000e-01  4.57945249e-01  3.23784453e-09  4.57945249e-01  4.57945249e-01  3.25524076e-09  3.31822326e-09  3.54991204e-09  1.57269375e-07  1.92926919e-08  3.90000000e-01 
 4.00000000e-01  4.57945219e-01  3.23784447e-09  4.57945219e-01  4.57945219e-01  3.25524075e-09  3.31822326e-09  3.54991205e-09  1.57269336e-07  1.92925924e-08  4.00000000e-01 
 4.10000000e-01  4.57945201e-01  3.23784453e-09  4.57945201e-01  4.57945200e-01  3.25524070e-09  3.31822326e-09  3.54991205e-09  1.57269295e-07  1.92925533e-08  4.10000000e-01 
 4.20000000e-01  4.57945230e-01  3.23784447e-09  4.57945230e-01  4.57945230e-01  3.25524071e-09  3.31822326e-09  3.54991205e-09  1.57269342e-07  1.92925249e-08  4.20000000e-01 
 4.30000000e-01  4.57945229e-01  3.23784447e-09  4.57945229e-01  4.57945229e-01  3.25524076e-09  3.31822326e-09  3.54991199e-09  1.57269353e-07  1.92924468e-08  4.30000000e-01 
 4.40000000e-01  4.57945217e-01  3.23784447e-09  4.57945217e-01  4.57945217e-01  3.25524069e-09  3.31822332e-09  3.54991206e-09  1.57269341e-07  1.92923402e-08  4.40000000e-01 
 4.50000000e-01  4.57945251e-01  3.23784453e-09  4.57945250e-01  4.57945250e-01  3.25524071e-09  3.31822326e-09  3.54991199e-09  1.57269367e-07  1.92923970e-08  4.50000000e-01 
 4.60000000e-01  4.57945233e-01  3.23784447e-09  4.57945233e-01  4.57945232e-01  3.25524076e-09  3.31822332e-09  3.54991206e-09  1.57269340e-07  1.92921732e-08  4.60000000e-01 
 4.70000000e-01  4.57945237e-01  3.23784453e-09  4.57945237e-01  4.57945237e-01  3.25524075e-09  3.31822326e-09  3.54991204e-09  1.57269346e-07  1.92921341e-08  4.70000000e-01 
 4.80000000e-01  4.57945230e-01  3.23784447e-09  4.57945230e-01  4.57945230e-01  3.25524070e-09  3.31822332e-09  3.54991205e-09  1.57269356e-07  1.92919778e-08  4.80000000e-01 
 4.90000000e-01  4.57945225e-01  3.23784453e-09  4.57945225e-01  4.57945225e-01  3.25524071e-09  3.31822326e-09  3.54991205e-09  1.57269335e-07  1.92920133e-08  4.90000000e-01 
 5.00000000e-01  4.57945232e-01  3.23784453e-09  4.57945232e-01  4.57945232e-01  3.25524070e-09  3.31822326e-09  3.54991205e-09  1.57269359e-07  1.92919103e-08  5.00000000e-01 
 5.10000000e-01  4.57945252e-01  3.23784448e-09  4.57945252e-01  4.57945251e-01  3.25524076e-09  3.31822332e-09  3.54991205e-09  1.57269392e-07  1.92920204e-08  5.10000000e-01 
 5.20000000e-01  4.57945213e-01  3.23784453e-09  4.57945213e-01  4.57945213e-01  3.25524075e-09  3.31822326e-09  3.54991205e-09  1.57269316e-07  1.92918179e-08  5.20000000e-01 
 5.30000000e-01  4.57945222e-01  3.23784447e-09  4.57945222e-01  4.57945222e-01  3.25524075e-09  3.31822326e-09  3.54991199e-09  1.57269323e-07  1.92918108e-08  5.30000000e-01 
 5.40000000e-01  4.57945223e-01  3.23784447e-09  4.57945223e-01  4.57945223e-01  3.25524070e-09  3.31822326e-09  3.54991206e-09  1.57269326e-07  1.92917433e-08  5.40000000e-01 
 5.50000000e-01  4.57945242e-01  3.23784448e-09  4.57945242e-01  4.57945242e-01  3.25524071e-09  3.31822326e-09  3.54991204e-09  1.57269341e-07  1.92916474e-08  5.50000000e-01 
 5.60000000e-01  4.57945221e-01  3.23784447e-09  4.57945221e-01  4.57945221e-01  3.25524076e-09  3.31822326e-09  3.54991199e-09  1.57269327e-07  1.92916545e-08  5.60000000e-01 
 5.70000000e-01  4.57945239e-01  3.23784448e-09  4.57945239e-01  4.57945239e-01  3.25524069e-09  3.31822326e-09  3.54991201e-09  1.57269346e-07  1.92916438e-08  5.70000000e-01 
 5.80000000e-01  4.57945212e-01  3.23784447e-09  4.57945212e-01  4.57945212e-01  3.25524077e-09  3.31822326e-09  3.54991205e-09  1.57269310e-07  1.92915266e-08  5.80000000e-01 
 5.90000000e-01  4.57945232e-01  3.23784447e-09  4.57945232e-01  4.57945232e-01  3.25524075e-09  3.31822326e-09  3.54991204e-09  1.57269336e-07  1.92913419e-08  5.90000000e-01 
 6.00000000e-01  4.57945252e-01  3.23784448e-09  4.57945252e-01  4.57945252e-01  3.25524076e-09  3.31822332e-09  3.54991205e-09  1.57269380e-07  1.92914555e-08  6.00000000e-01 
 6.10000000e-01  4.57945223e-01  3.23784447e-09  4.57945223e-01  4.57945223e-01  3.25524075e-09  3.31822326e-09  3.54991205e-09  1.57269336e-07  1.92913987e-08  6.10000000e-01 
 6.20000000e-01  4.57945227e-01  3.23784447e-09  4.57945227e-01  4.57945227e-01  3.25524075e-09  3.31822326e-09  3.54991205e-09  1.57269341e-07  1.92913987e-08  6.20000000e-01 
 6.30000000e-01  4.57945212e-01  3.23784447e-09  4.57945212e-01  4.57945212e-01  3.25524075e-09  3.31822326e-09  3.54991205e-09  1.57269320e-07  1.92912069e-08  6.30000000e-01 
 6.40000000e-01  4.57945225e-01  3.23784447e-09  4.57945225e-01  4.57945225e-01  3.25524075e-09  3.31822326e-09  3.54991205e-09  1.57269324e-07  1.92913205e-08  6.40000000e-01 
 6.50000000e-01  4.57945239e-01  3.23784448e-09  4.57945239e-01  4.57945239e-01  3.25524076e-09  3.31822326e-09  3.54991205e-09  1.57269347e-07  1.92911216e-08  6.50000000e-01 
 6.60000000e-01  4.57945221e-01  3.23784447e-09  4.57945220e-01  4.57945220e-01  3.25524070e-09  3.31822326e-09  3.54991205e-09  1.57269335e-07  1.92911642e-08  6.60000000e-01 
 6.70000000e-01  4.57945224e-01  3.23784447e-09  4.57945224e-01  4.57945224e-01  3.25524071e-09  3.31822326e-09  3.54991205e-09  1.57269328e-07  1.92911287e-08  6.70000000e-01 
 6.80000000e-01  4.57945213e-01  3.23784453e-09  4.57945213e-01  4.57945213e-01  3.25524076e-09  3.31822332e-09  3.54991205e-09  1.57269317e-07  1.92909795e-08  6.80000000e-01 
 6.90000000e-01  4.57945227e-01  3.23784453e-09  4.57945227e-01  4.57945227e-01  3.25524075e-09  3.31822326e-09  3.54991199e-09  1.57269338e-07  1.92909795e-08  6.90000000e-01 
 7.00000000e-01  4.57945241e-01  3.23784448e-09  4.57945241e-01  4.57945241e-01  3.25524076e-09  3.31822332e-09  3.54991206e-09  1.57269363e-07  1.92909297e-08  7.00000000e-01 
 7.10000000e-01  4.57945236e-01  3.23784448e-09  4.57945236e-01  4.57945236e-01  3.25524070e-09  3.31822326e-09  3.54991204e-09  1.57269358e-07  1.92907734e-08  7.10000000e-01 
 7.20000000e-01  4.57945217e-01  3.23784447e-09  4.57945217e-01  4.57945217e-01  3.25524077e-09  3.31822326e-09  3.54991199e-09  1.57269325e-07  1.92908516e-08  7.20000000e-01 
 7.30000000e-01  4.57945216e-01  3.23784447e-09  4.57945215e-01  4.57945215e-01  3.25524075e-09  3.31822326e-09  3.54991206e-09  1.57269309e-07  1.92908729e-08  7.30000000e-01 
 7.40000000e-01  4.57945223e-01  3.23784447e-09  4.57945223e-01  4.57945223e-01  3.25524070e-09  3.31822326e-09  3.54991204e-09  1.57269333e-07  1.92907379e-08  7.40000000e-01 
 7.50000000e-01  4.57945216e-01  3.23784447e-09  4.57945216e-01  4.57945216e-01  3.25524071e-09  3.31822326e-09  3.54991199e-09  1.57269329e-07  1.92907592e-08  7.50000000e-01 
 7.60000000e-01  4.57945229e-01  3.23784447e-09  4.57945229e-01  4.57945229e-01  3.25524076e-09  3.31822326e-09  3.54991200e-09  1.57269333e-07  1.92905532e-08  7.60000000e-01 
 7.70000000e-01  4.57945236e-01  3.23784448e-09  4.57945236e-01  4.57945236e-01  3.25524075e-09  3.31822332e-09  3.54991200e-09  1.57269356e-07  1.92905176e-08  7.70000000e-01 
 7.80000000e-01  4.57945205e-01  3.23784453e-09  4.57945205e-01  4.57945205e-01  3.25524075e-09  3.31822332e-09  3.54991205e-09  1.57269307e-07  1.92904892e-08  7.80000000e-01 
 7.90000000e-01  4.57945237e-01  3.23784448e-09  4.57945237e-01  4.57945237e-01  3.25524076e-09  3.31822332e-09  3.54991204e-09  1.57269365e-07  1.92904750e-08  7.90000000e-01 
 8.00000000e-01  4.57945228e-01  3.23784453e-09  4.57945228e-01  4.57945228e-01  3.25524075e-09  3.31822326e-09  3.54991199e-09  1.57269348e-07  1.92903187e-08  8.00000000e-01 
 8.10000000e-01  4.57945213e-01  3.23784453e-09  4.57945213e-01  4.57945213e-01  3.25524075e-09  3.31822326e-09  3.54991200e-09  1.57269321e-07  1.92902618e-08  8.10000000e-01 
 8.20000000e-01  4.57945215e-01  3.23784447e-09  4.57945215e-01  4.57945214e-01  3.25524075e-09  3.31822332e-09  3.54991205e-09  1.57269326e-07  1.92902263e-08  8.20000000e-01 
 8.30000000e-01  4.57945231e-01  3.23784453e-09  4.57945231e-01  4.57945231e-01  3.25524075e-09  3.31822326e-09  3.54991199e-09  1.57269351e-07  1.92901126e-08  8.30000000e-01 
 8.40000000e-01  4.57945241e-01  3.23784448e-09  4.57945241e-01  4.57945241e-01  3.25524076e-09  3.31822326e-09  3.54991206e-09  1.57269369e-07  1.92901837e-08  8.40000000e-01 
 8.50000000e-01  4.57945217e-01  3.23784453e-09  4.57945217e-01  4.57945217e-01  3.25524075e-09  3.31822326e-09  3.54991204e-09  1.57269312e-07  1.92900771e-08  8.50000000e-01 
 8.60000000e-01  4.57945228e-01  3.23784453e-09  4.57945228e-01  4.57945228e-01  3.25524075e-09  3.31822326e-09  3.54991199e-09  1.57269334e-07  1.92900345e-08  8.60000000e-01 
 8.70000000e-01  4.57945227e-01  3.23784453e-09  4.57945227e-01  4.57945227e-01  3.25524070e-09  3.31822326e-09  3.54991206e-09  1.57269344e-07  1.92899989e-08  8.70000000e-01 
 8.80000000e-01  4.57945224e-01  3.23784453e-09  4.57945223e-01  4.57945223e-01  3.25524071e-09  3.31822326e-09  3.54991204e-09  1.57269332e-07  1.92899279e-08  8.80000000e-01 
 8.90000000e-01  4.57945225e-01  3.23784447e-09  4.57945225e-01  4.57945225e-01  3.25524070e-09  3.31822326e-09  3.54991199e-09  1.57269346e-07  1.92898781e-08  8.90000000e-01 
 9.00000000e-01  4.57945225e-01  3.23784447e-09  4.57945225e-01  4.57945225e-01  3.25524076e-09  3.31822326e-09  3.54991200e-09  1.57269342e-07  1.92898355e-08  9.00000000e-01 
 9.10000000e-01  4.57945232e-01  3.23784447e-09  4.57945232e-01  4.57945232e-01  3.25524069e-09  3.31822326e-09  3.54991200e-09  1.57269342e-07  1.92897929e-08  9.10000000e-01 
 9.20000000e-01  4.57945238e-01  3.23784448e-09  4.57945238e-01  4.57945238e-01  3.25524071e-09  3.31822326e-09  3.54991206e-09  1.57269355e-07  1.92898000e-08  9.20000000e-01 
 9.30000000e-01  4.57945240e-01  3.23784448e-09  4.57945240e-01  4.57945240e-01  3.25524076e-09  3.31822326e-09  3.54991204e-09  1.57269363e-07  1.92897360e-08  9.30000000e-01 
 9.40000000e-01  4.57945234e-01  3.23784447e-09  4.57945234e-01  4.57945234e-01  3.25524069e-09  3.31822326e-09  3.54991205e-09  1.57269371e-07  1.92897360e-08  9.40000000e-01 
 9.50000000e-01  4.57945253e-01  3.23784448e-09  4.57945253e-01  4.57945252e-01  3.25524077e-09  3.31822326e-09  3.54991199e-09  1.57269376e-07  1.92896792e-08  9.50000000e-01 
 9.60000000e-01  4.57945213e-01  3.23784453e-09  4.57945212e-01  4.57945212e-01  3.25524075e-09  3.31822326e-09  3.54991200e-09  1.57269310e-07  1.92895868e-08  9.60000000e-01 
 9.70000000e-01  4.57945206e-01  3.23784447e-09  4.57945206e-01  4.57945206e-01  3.25524070e-09  3.31822326e-09  3.54991200e-09  1.57269304e-07  1.92895016e-08  9.70000000e-01 
 9.80000000e-01  4.57945245e-01  3.23784453e-09  4.57945245e-01  4.57945245e-01  3.25524077e-09  3.31822326e-09  3.54991200e-09  1.57269362e-07  1.92895513e-08  9.80000000e-01 
 9.90000000e-01  4.57945250e-01  3.23784448e-09  4.57945250e-01  4.57945250e-01  3.25524075e-09  3.31822332e-09  3.54991206e-09  1.57269379e-07  1.92894589e-08  9.90000000e-01 
 1.00000000e+00  4.57945224e-01  3.23784447e-09  4.57945224e-01  4.57945224e-01  3.25524075e-09  3.31822332e-09  3.54991204e-09  1.57269336e-07  1.92892387e-08  1.00000000e+00 
 1.01000000e+00  4.57945224e-01  3.23784447e-09  4.57945224e-01  4.57945224e-01  3.25524075e-09  3.31822326e-09  3.54991205e-09  1.57269325e-07  1.92893879e-08  1.01000000e+00 
 1.02000000e+00  4.57945220e-01  3.23784447e-09  4.57945220e-01  4.57945220e-01  3.25524075e-09  3.31822326e-09  3.54991199e-09  1.57269314e-07  1.92891108e-08  1.02000000e+00 
 1.03000000e+00  4.57945224e-01  3.23784447e-09  4.57945224e-01  4.57945224e-01  3.25524075e-09  3.31822332e-09  3.54991200e-09  1.57269334e-07  1.92891392e-08  1.03000000e+00 
 1.04000000e+00  4.57945235e-01  3.23784448e-09  4.57945235e-01  4.57945235e-01  3.25524070e-09  3.31822326e-09  3.54991206e-09  1.57269355e-07  1.92890397e-08  1.04000000e+00 
 1.05000000e+00  4.57945237e-01  3.23784453e-09  4.57945237e-01  4.57945237e-01  3.25524071e-09  3.31822326e-09  3.54991204e-09  1.57269360e-07  1.92891747e-08  1.05000000e+00 
 1.06000000e+00  4.57945241e-01  3.23784448e-09  4.57945241e-01  4.57945241e-01  3.25524070e-09  3.31822332e-09  3.54991205e-09  1.57269373e-07  1.92891179e-08  1.06000000e+00 
 1.07000000e+00  4.57945235e-01  3.23784448e-09  4.57945235e-01  4.57945235e-01  3.25524070e-09  3.31822326e-09  3.54991205e-09  1.57269362e-07  1.92891179e-08  1.07000000e+00 
 1.08000000e+00  4.57945236e-01  3.23784453e-09  4.57945236e-01  4.57945236e-01  3.25524070e-09  3.31822326e-09  3.54991205e-09  1.57269353e-07  1.92889473e-08  1.08000000e+00 
 1.09000000e+00  4.57945229e-01  3.23784447e-09  4.57945228e-01  4.57945228e-01  3.25524070e-09  3.31822326e-09  3.54991199e-09  1.57269352e-07  1.92889047e-08  1.09000000e+00 
 1.10000000e+00  4.57945236e-01  3.23784448e-09  4.57945236e-01  4.57945236e-01  3.25524076e-09  3.31822326e-09  3.54991201e-09  1.57269352e-07  1.92889189e-08  1.10000000e+00 
