 v-sweep         v(b0)           v(b1)           v(b2)           v(b3)           v(b4)           v(b5)           v(b6)           i(vbias)        i(viout)        v(vout)        
 0.00000000e+00  4.59548387e-01  3.44690950e-09  3.65771226e-09  3.30297947e-09  3.27784399e-09  3.21841250e-09  3.21303829e-09  1.60371606e-07  1.64912568e-09  0.00000000e+00 
 1.00000000e-02  4.59548399e-01  3.44690953e-09  3.65771224e-09  3.30297951e-09  3.27784398e-09  3.21841248e-09  3.21303833e-09  1.60371629e-07  1.64855674e-09  1.00000000e-02 
 2.00000000e-02  4.59548405e-01  3.44690953e-09  3.65771224e-09  3.30297946e-09  3.27784398e-09  3.21841248e-09  3.21303832e-09  1.60371629e-07  1.64822311e-09  2.00000000e-02 
 3.00000000e-02  4.59548405e-01  3.44690953e-09  3.65771224e-09  3.30297946e-09  3.27784398e-09  3.21841248e-09  3.21303828e-09  1.60371626e-07  1.64779901e-09  3.00000000e-02 
 4.00000000e-02  4.59548402e-01  3.44690953e-09  3.65771219e-09  3.30297946e-09  3.27784392e-09  3.21841248e-09  3.21303833e-09  1.60371645e-07  1.64743819e-09  4.00000000e-02 
 5.00000000e-02  4.59548398e-01  3.44690953e-09  3.65771224e-09  3.30297946e-09  3.27784398e-09  3.21841254e-09  3.21303832e-09  1.60371631e-07  1.64701897e-09  5.00000000e-02 
 6.00000000e-02  4.59548413e-01  3.44690954e-09  3.65771224e-09  3.30297946e-09  3.27784398e-09  3.21841248e-09  3.21303828e-09  1.60371642e-07  1.64667968e-09  6.00000000e-02 
 7.00000000e-02  4.59548409e-01  3.44690953e-09  3.65771224e-09  3.30297951e-09  3.27784392e-09  3.21841254e-09  3.21303833e-09  1.60371634e-07  1.64632263e-09  7.00000000e-02 
 8.00000000e-02  4.59548416e-01  3.44690948e-09  3.65771224e-09  3.30297951e-09  3.27784392e-09  3.21841248e-09  3.21303832e-09  1.60371650e-07  1.64600511e-09  8.00000000e-02 
 9.00000000e-02  4.59548408e-01  3.44690953e-09  3.65771224e-09  3.30297951e-09  3.27784398e-09  3.21841248e-09  3.21303828e-09  1.60371642e-07  1.64568714e-09  9.00000000e-02 
 1.00000000e-01  4.59548386e-01  3.44690953e-09  3.65771218e-09  3.30297951e-09  3.27784397e-09  3.21841248e-09  3.21303833e-09  1.60371611e-07  1.64532121e-09  1.00000000e-01 
 1.10000000e-01  4.59548425e-01  3.44690954e-09  3.65771224e-09  3.30297951e-09  3.27784398e-09  3.21841248e-09  3.21303826e-09  1.60371662e-07  1.64506186e-09  1.10000000e-01 
 1.20000000e-01  4.59548401e-01  3.44690953e-09  3.65771224e-09  3.30297946e-09  3.27784392e-09  3.21841248e-09  3.21303828e-09  1.60371642e-07  1.64475189e-09  1.20000000e-01 
 1.30000000e-01  4.59548433e-01  3.44690954e-09  3.65771224e-09  3.30297946e-09  3.27784398e-09  3.21841248e-09  3.21303833e-09  1.60371674e-07  1.64449698e-09  1.30000000e-01 
 1.40000000e-01  4.59548400e-01  3.44690953e-09  3.65771224e-09  3.30297951e-09  3.27784398e-09  3.21841248e-09  3.21303832e-09  1.60371620e-07  1.64430691e-09  1.40000000e-01 
 1.50000000e-01  4.59548406e-01  3.44690953e-09  3.65771224e-09  3.30297946e-09  3.27784398e-09  3.21841254e-09  3.21303828e-09  1.60371633e-07  1.64403424e-09  1.50000000e-01 
 1.60000000e-01  4.59548408e-01  3.44690953e-09  3.65771219e-09  3.30297946e-09  3.27784398e-09  3.21841254e-09  3.21303827e-09  1.60371639e-07  1.64379621e-09  1.60000000e-01 
 1.70000000e-01  4.59548405e-01  3.44690953e-09  3.65771224e-09  3.30297946e-09  3.27784392e-09  3.21841248e-09  3.21303827e-09  1.60371652e-07  1.64346758e-09  1.70000000e-01 
 1.80000000e-01  4.59548400e-01  3.44690953e-09  3.65771224e-09  3.30297951e-09  3.27784398e-09  3.21841248e-09  3.21303833e-09  1.60371622e-07  1.64325265e-09  1.80000000e-01 
 1.90000000e-01  4.59548418e-01  3.44690954e-09  3.65771219e-09  3.30297951e-09  3.27784398e-09  3.21841248e-09  3.21303826e-09  1.60371654e-07  1.64310521e-09  1.90000000e-01 
 2.00000000e-01  4.59548406e-01  3.44690953e-09  3.65771219e-09  3.30297946e-09  3.27784392e-09  3.21841254e-09  3.21303828e-09  1.60371631e-07  1.64287428e-09  2.00000000e-01 
 2.10000000e-01  4.59548372e-01  3.44690953e-09  3.65771218e-09  3.30297945e-09  3.27784397e-09  3.21841248e-09  3.21303827e-09  1.60371580e-07  1.64268243e-09  2.10000000e-01 
 2.20000000e-01  4.59548398e-01  3.44690953e-09  3.65771224e-09  3.30297946e-09  3.27784398e-09  3.21841248e-09  3.21303827e-09  1.60371630e-07  1.64244796e-09  2.20000000e-01 
 2.30000000e-01  4.59548414e-01  3.44690954e-09  3.65771224e-09  3.30297951e-09  3.27784392e-09  3.21841248e-09  3.21303827e-09  1.60371661e-07  1.64227210e-09  2.30000000e-01 
 2.40000000e-01  4.59548410e-01  3.44690953e-09  3.65771224e-09  3.30297946e-09  3.27784392e-09  3.21841254e-09  3.21303833e-09  1.60371635e-07  1.64210512e-09  2.40000000e-01 
 2.50000000e-01  4.59548395e-01  3.44690953e-09  3.65771219e-09  3.30297945e-09  3.27784398e-09  3.21841248e-09  3.21303832e-09  1.60371625e-07  1.64188307e-09  2.50000000e-01 
 2.60000000e-01  4.59548403e-01  3.44690953e-09  3.65771219e-09  3.30297946e-09  3.27784398e-09  3.21841254e-09  3.21303828e-09  1.60371644e-07  1.64172675e-09  2.60000000e-01 
 2.70000000e-01  4.59548404e-01  3.44690953e-09  3.65771224e-09  3.30297946e-09  3.27784398e-09  3.21841254e-09  3.21303827e-09  1.60371632e-07  1.64154024e-09  2.70000000e-01 
 2.80000000e-01  4.59548407e-01  3.44690953e-09  3.65771219e-09  3.30297946e-09  3.27784392e-09  3.21841254e-09  3.21303833e-09  1.60371629e-07  1.64139990e-09  2.80000000e-01 
 2.90000000e-01  4.59548384e-01  3.44690948e-09  3.65771224e-09  3.30297951e-09  3.27784392e-09  3.21841254e-09  3.21303826e-09  1.60371598e-07  1.64119029e-09  2.90000000e-01 
 3.00000000e-01  4.59548409e-01  3.44690953e-09  3.65771224e-09  3.30297951e-09  3.27784398e-09  3.21841254e-09  3.21303828e-09  1.60371647e-07  1.64108727e-09  3.00000000e-01 
 3.10000000e-01  4.59548407e-01  3.44690948e-09  3.65771224e-09  3.30297951e-09  3.27784392e-09  3.21841254e-09  3.21303827e-09  1.60371634e-07  1.64096292e-09  3.10000000e-01 
 3.20000000e-01  4.59548400e-01  3.44690953e-09  3.65771224e-09  3.30297946e-09  3.27784398e-09  3.21841248e-09  3.21303827e-09  1.60371630e-07  1.64079239e-09  3.20000000e-01 
 3.30000000e-01  4.59548386e-01  3.44690948e-09  3.65771218e-09  3.30297951e-09  3.27784392e-09  3.21841248e-09  3.21303827e-09  1.60371615e-07  1.64065739e-09  3.30000000e-01 
 3.40000000e-01  4.59548394e-01  3.44690953e-09  3.65771224e-09  3.30297951e-09  3.27784392e-09  3.21841254e-09  3.21303827e-09  1.60371635e-07  1.64047265e-09  3.40000000e-01 
 3.50000000e-01  4.59548411e-01  3.44690953e-09  3.65771224e-09  3.30297946e-09  3.27784392e-09  3.21841248e-09  3.21303833e-09  1.60371640e-07  1.64041225e-09  3.50000000e-01 
 3.60000000e-01  4.59548409e-01  3.44690948e-09  3.65771224e-09  3.30297946e-09  3.27784398e-09  3.21841254e-09  3.21303826e-09  1.60371646e-07  1.64025593e-09  3.60000000e-01 
 3.70000000e-01  4.59548432e-01  3.44690954e-09  3.65771224e-09  3.30297951e-09  3.27784398e-09  3.21841254e-09  3.21303828e-09  1.60371678e-07  1.64012093e-09  3.70000000e-01 
 3.80000000e-01  4.59548387e-01  3.44690953e-09  3.65771219e-09  3.30297945e-09  3.27784397e-09  3.21841254e-09  3.21303833e-09  1.60371605e-07  1.63986158e-09  3.80000000e-01 
 3.90000000e-01  4.59548395e-01  3.44690953e-09  3.65771224e-09  3.30297945e-09  3.27784392e-09  3.21841248e-09  3.21303832e-09  1.60371623e-07  1.63980474e-09  3.90000000e-01 
 4.00000000e-01  4.59548379e-01  3.44690953e-09  3.65771224e-09  3.30297951e-09  3.27784392e-09  3.21841248e-09  3.21303828e-09  1.60371593e-07  1.63967329e-09  4.00000000e-01 
 4.10000000e-01  4.59548389e-01  3.44690953e-09  3.65771224e-09  3.30297951e-09  3.27784392e-09  3.21841248e-09  3.21303827e-09  1.60371621e-07  1.63958092e-09  4.10000000e-01 
 4.20000000e-01  4.59548411e-01  3.44690954e-09  3.65771219e-09  3.30297946e-09  3.27784398e-09  3.21841254e-09  3.21303833e-09  1.60371651e-07  1.63940683e-09  4.20000000e-01 
 4.30000000e-01  4.59548401e-01  3.44690953e-09  3.65771224e-09  3.30297946e-09  3.27784398e-09  3.21841248e-09  3.21303832e-09  1.60371632e-07  1.63933223e-09  4.30000000e-01 
 4.40000000e-01  4.59548404e-01  3.44690953e-09  3.65771224e-09  3.30297946e-09  3.27784398e-09  3.21841254e-09  3.21303834e-09  1.60371644e-07  1.63922564e-09  4.40000000e-01 
 4.50000000e-01  4.59548417e-01  3.44690954e-09  3.65771219e-09  3.30297951e-09  3.27784398e-09  3.21841248e-09  3.21303826e-09  1.60371660e-07  1.63908354e-09  4.50000000e-01 
 4.60000000e-01  4.59548389e-01  3.44690953e-09  3.65771224e-09  3.30297945e-09  3.27784392e-09  3.21841254e-09  3.21303834e-09  1.60371615e-07  1.63897340e-09  4.60000000e-01 
 4.70000000e-01  4.59548406e-01  3.44690953e-09  3.65771224e-09  3.30297946e-09  3.27784398e-09  3.21841254e-09  3.21303826e-09  1.60371653e-07  1.63878866e-09  4.70000000e-01 
 4.80000000e-01  4.59548421e-01  3.44690948e-09  3.65771219e-09  3.30297946e-09  3.27784392e-09  3.21841248e-09  3.21303828e-09  1.60371662e-07  1.63872116e-09  4.80000000e-01 
 4.90000000e-01  4.59548379e-01  3.44690953e-09  3.65771224e-09  3.30297945e-09  3.27784392e-09  3.21841254e-09  3.21303827e-09  1.60371601e-07  1.63858616e-09  4.90000000e-01 
 5.00000000e-01  4.59548407e-01  3.44690953e-09  3.65771219e-09  3.30297951e-09  3.27784398e-09  3.21841254e-09  3.21303833e-09  1.60371638e-07  1.63845471e-09  5.00000000e-01 
 5.10000000e-01  4.59548389e-01  3.44690953e-09  3.65771224e-09  3.30297945e-09  3.27784392e-09  3.21841254e-09  3.21303826e-09  1.60371611e-07  1.63835878e-09  5.10000000e-01 
 5.20000000e-01  4.59548440e-01  3.44690954e-09  3.65771224e-09  3.30297946e-09  3.27784398e-09  3.21841248e-09  3.21303828e-09  1.60371683e-07  1.63827707e-09  5.20000000e-01 
 5.30000000e-01  4.59548419e-01  3.44690954e-09  3.65771224e-09  3.30297951e-09  3.27784392e-09  3.21841254e-09  3.21303827e-09  1.60371650e-07  1.63810654e-09  5.30000000e-01 
 5.40000000e-01  4.59548396e-01  3.44690948e-09  3.65771224e-09  3.30297951e-09  3.27784398e-09  3.21841248e-09  3.21303827e-09  1.60371627e-07  1.63800351e-09  5.40000000e-01 
 5.50000000e-01  4.59548405e-01  3.44690953e-09  3.65771224e-09  3.30297946e-09  3.27784398e-09  3.21841254e-09  3.21303827e-09  1.60371644e-07  1.63788982e-09  5.50000000e-01 
 5.60000000e-01  4.59548386e-01  3.44690948e-09  3.65771224e-09  3.30297945e-09  3.27784397e-09  3.21841248e-09  3.21303827e-09  1.60371599e-07  1.63779390e-09  5.60000000e-01 
 5.70000000e-01  4.59548418e-01  3.44690954e-09  3.65771219e-09  3.30297946e-09  3.27784398e-09  3.21841248e-09  3.21303827e-09  1.60371648e-07  1.63765179e-09  5.70000000e-01 
 5.80000000e-01  4.59548410e-01  3.44690953e-09  3.65771224e-09  3.30297946e-09  3.27784398e-09  3.21841248e-09  3.21303827e-09  1.60371653e-07  1.63745284e-09  5.80000000e-01 
 5.90000000e-01  4.59548407e-01  3.44690953e-09  3.65771224e-09  3.30297946e-09  3.27784392e-09  3.21841248e-09  3.21303827e-09  1.60371632e-07  1.63743863e-09  5.90000000e-01 
 6.00000000e-01  4.59548399e-01  3.44690948e-09  3.65771219e-09  3.30297951e-09  3.27784392e-09  3.21841248e-09  3.21303833e-09  1.60371635e-07  1.63732494e-09  6.00000000e-01 
 6.10000000e-01  4.59548391e-01  3.44690953e-09  3.65771224e-09  3.30297945e-09  3.27784392e-09  3.21841248e-09  3.21303832e-09  1.60371627e-07  1.63723968e-09  6.10000000e-01 
 6.20000000e-01  4.59548410e-01  3.44690953e-09  3.65771219e-09  3.30297946e-09  3.27784392e-09  3.21841254e-09  3.21303828e-09  1.60371641e-07  1.63706915e-09  6.20000000e-01 
 6.30000000e-01  4.59548402e-01  3.44690953e-09  3.65771224e-09  3.30297946e-09  3.27784392e-09  3.21841254e-09  3.21303827e-09  1.60371625e-07  1.63699099e-09  6.30000000e-01 
 6.40000000e-01  4.59548396e-01  3.44690948e-09  3.65771224e-09  3.30297945e-09  3.27784398e-09  3.21841254e-09  3.21303827e-09  1.60371625e-07  1.63689862e-09  6.40000000e-01 
 6.50000000e-01  4.59548418e-01  3.44690948e-09  3.65771224e-09  3.30297951e-09  3.27784398e-09  3.21841254e-09  3.21303827e-09  1.60371669e-07  1.63680625e-09  6.50000000e-01 
 6.60000000e-01  4.59548411e-01  3.44690954e-09  3.65771219e-09  3.30297946e-09  3.27784392e-09  3.21841254e-09  3.21303833e-09  1.60371637e-07  1.63665703e-09  6.60000000e-01 
 6.70000000e-01  4.59548389e-01  3.44690953e-09  3.65771219e-09  3.30297951e-09  3.27784397e-09  3.21841248e-09  3.21303832e-09  1.60371622e-07  1.63651492e-09  6.70000000e-01 
 6.80000000e-01  4.59548409e-01  3.44690953e-09  3.65771219e-09  3.30297946e-09  3.27784392e-09  3.21841254e-09  3.21303828e-09  1.60371642e-07  1.63645097e-09  6.80000000e-01 
 6.90000000e-01  4.59548399e-01  3.44690953e-09  3.65771219e-09  3.30297946e-09  3.27784392e-09  3.21841248e-09  3.21303833e-09  1.60371630e-07  1.63630887e-09  6.90000000e-01 
 7.00000000e-01  4.59548390e-01  3.44690948e-09  3.65771224e-09  3.30297945e-09  3.27784392e-09  3.21841248e-09  3.21303826e-09  1.60371626e-07  1.63618097e-09  7.00000000e-01 
 7.10000000e-01  4.59548405e-01  3.44690948e-09  3.65771224e-09  3.30297946e-09  3.27784398e-09  3.21841248e-09  3.21303828e-09  1.60371639e-07  1.63601044e-09  7.10000000e-01 
 7.20000000e-01  4.59548404e-01  3.44690953e-09  3.65771219e-09  3.30297946e-09  3.27784398e-09  3.21841248e-09  3.21303833e-09  1.60371629e-07  1.63596070e-09  7.20000000e-01 
 7.30000000e-01  4.59548397e-01  3.44690953e-09  3.65771224e-09  3.30297946e-09  3.27784398e-09  3.21841254e-09  3.21303826e-09  1.60371621e-07  1.63590386e-09  7.30000000e-01 
 7.40000000e-01  4.59548409e-01  3.44690953e-09  3.65771224e-09  3.30297951e-09  3.27784398e-09  3.21841248e-09  3.21303828e-09  1.60371645e-07  1.63569780e-09  7.40000000e-01 
 7.50000000e-01  4.59548405e-01  3.44690948e-09  3.65771224e-09  3.30297951e-09  3.27784392e-09  3.21841254e-09  3.21303827e-09  1.60371641e-07  1.63562675e-09  7.50000000e-01 
 7.60000000e-01  4.59548398e-01  3.44690953e-09  3.65771224e-09  3.30297951e-09  3.27784398e-09  3.21841254e-09  3.21303833e-09  1.60371633e-07  1.63556990e-09  7.60000000e-01 
 7.70000000e-01  4.59548390e-01  3.44690953e-09  3.65771219e-09  3.30297945e-09  3.27784397e-09  3.21841248e-09  3.21303832e-09  1.60371620e-07  1.63532832e-09  7.70000000e-01 
 7.80000000e-01  4.59548408e-01  3.44690953e-09  3.65771219e-09  3.30297946e-09  3.27784392e-09  3.21841248e-09  3.21303828e-09  1.60371639e-07  1.63527147e-09  7.80000000e-01 
 7.90000000e-01  4.59548401e-01  3.44690953e-09  3.65771224e-09  3.30297946e-09  3.27784398e-09  3.21841248e-09  3.21303827e-09  1.60371637e-07  1.63515068e-09  7.90000000e-01 
 8.00000000e-01  4.59548408e-01  3.44690948e-09  3.65771224e-09  3.30297946e-09  3.27784398e-09  3.21841248e-09  3.21303833e-09  1.60371637e-07  1.63500857e-09  8.00000000e-01 
 8.10000000e-01  4.59548425e-01  3.44690954e-09  3.65771224e-09  3.30297946e-09  3.27784398e-09  3.21841254e-09  3.21303826e-09  1.60371666e-07  1.63485936e-09  8.10000000e-01 
 8.20000000e-01  4.59548396e-01  3.44690953e-09  3.65771224e-09  3.30297945e-09  3.27784392e-09  3.21841248e-09  3.21303828e-09  1.60371617e-07  1.63478120e-09  8.20000000e-01 
 8.30000000e-01  4.59548396e-01  3.44690953e-09  3.65771224e-09  3.30297945e-09  3.27784398e-09  3.21841254e-09  3.21303827e-09  1.60371621e-07  1.63463199e-09  8.30000000e-01 
 8.40000000e-01  4.59548408e-01  3.44690948e-09  3.65771224e-09  3.30297946e-09  3.27784392e-09  3.21841248e-09  3.21303827e-09  1.60371644e-07  1.63457514e-09  8.40000000e-01 
 8.50000000e-01  4.59548405e-01  3.44690953e-09  3.65771219e-09  3.30297946e-09  3.27784392e-09  3.21841254e-09  3.21303827e-09  1.60371643e-07  1.63441882e-09  8.50000000e-01 
 8.60000000e-01  4.59548384e-01  3.44690953e-09  3.65771218e-09  3.30297945e-09  3.27784392e-09  3.21841248e-09  3.21303827e-09  1.60371614e-07  1.63434066e-09  8.60000000e-01 
 8.70000000e-01  4.59548412e-01  3.44690954e-09  3.65771224e-09  3.30297951e-09  3.27784398e-09  3.21841248e-09  3.21303827e-09  1.60371645e-07  1.63413461e-09  8.70000000e-01 
 8.80000000e-01  4.59548394e-01  3.44690953e-09  3.65771224e-09  3.30297945e-09  3.27784398e-09  3.21841248e-09  3.21303827e-09  1.60371622e-07  1.63406355e-09  8.80000000e-01 
 8.90000000e-01  4.59548426e-01  3.44690954e-09  3.65771224e-09  3.30297946e-09  3.27784398e-09  3.21841254e-09  3.21303827e-09  1.60371665e-07  1.63390013e-09  8.90000000e-01 
 9.00000000e-01  4.59548388e-01  3.44690948e-09  3.65771219e-09  3.30297951e-09  3.27784392e-09  3.21841248e-09  3.21303833e-09  1.60371614e-07  1.63378644e-09  9.00000000e-01 
 9.10000000e-01  4.59548397e-01  3.44690953e-09  3.65771219e-09  3.30297945e-09  3.27784398e-09  3.21841248e-09  3.21303826e-09  1.60371644e-07  1.63370117e-09  9.10000000e-01 
 9.20000000e-01  4.59548372e-01  3.44690953e-09  3.65771224e-09  3.30297951e-09  3.27784397e-09  3.21841248e-09  3.21303834e-09  1.60371577e-07  1.63356617e-09  9.20000000e-01 
 9.30000000e-01  4.59548409e-01  3.44690953e-09  3.65771219e-09  3.30297946e-09  3.27784398e-09  3.21841248e-09  3.21303826e-09  1.60371634e-07  1.63341696e-09  9.30000000e-01 
 9.40000000e-01  4.59548407e-01  3.44690953e-09  3.65771219e-09  3.30297946e-09  3.27784392e-09  3.21841254e-09  3.21303828e-09  1.60371644e-07  1.63333169e-09  9.40000000e-01 
 9.50000000e-01  4.59548392e-01  3.44690953e-09  3.65771224e-09  3.30297945e-09  3.27784398e-09  3.21841254e-09  3.21303827e-09  1.60371619e-07  1.63322511e-09  9.50000000e-01 
 9.60000000e-01  4.59548408e-01  3.44690948e-09  3.65771224e-09  3.30297946e-09  3.27784398e-09  3.21841254e-09  3.21303827e-09  1.60371626e-07  1.63296932e-09  9.60000000e-01 
 9.70000000e-01  4.59548376e-01  3.44690953e-09  3.65771224e-09  3.30297945e-09  3.27784397e-09  3.21841254e-09  3.21303833e-09  1.60371602e-07  1.63297642e-09  9.70000000e-01 
 9.80000000e-01  4.59548401e-01  3.44690953e-09  3.65771219e-09  3.30297946e-09  3.27784398e-09  3.21841248e-09  3.21303832e-09  1.60371625e-07  1.63284142e-09  9.80000000e-01 
 9.90000000e-01  4.59548409e-01  3.44690953e-09  3.65771224e-09  3.30297946e-09  3.27784398e-09  3.21841248e-09  3.21303828e-09  1.60371622e-07  1.63271352e-09  9.90000000e-01 
 1.00000000e+00  4.59548407e-01  3.44690953e-09  3.65771224e-09  3.30297946e-09  3.27784398e-09  3.21841254e-09  3.21303833e-09  1.60371637e-07  1.63250036e-09  1.00000000e+00 
 1.01000000e+00  4.59548423e-01  3.44690954e-09  3.65771224e-09  3.30297946e-09  3.27784392e-09  3.21841254e-09  3.21303826e-09  1.60371663e-07  1.63240799e-09  1.01000000e+00 
 1.02000000e+00  4.59548418e-01  3.44690954e-09  3.65771224e-09  3.30297946e-09  3.27784398e-09  3.21841248e-09  3.21303828e-09  1.60371650e-07  1.63230851e-09  1.02000000e+00 
 1.03000000e+00  4.59548383e-01  3.44690953e-09  3.65771224e-09  3.30297945e-09  3.27784397e-09  3.21841248e-09  3.21303827e-09  1.60371606e-07  1.63216640e-09  1.03000000e+00 
 1.04000000e+00  4.59548403e-01  3.44690948e-09  3.65771224e-09  3.30297951e-09  3.27784398e-09  3.21841248e-09  3.21303827e-09  1.60371638e-07  1.63198877e-09  1.04000000e+00 
 1.05000000e+00  4.59548392e-01  3.44690948e-09  3.65771219e-09  3.30297945e-09  3.27784398e-09  3.21841254e-09  3.21303827e-09  1.60371620e-07  1.63186087e-09  1.05000000e+00 
 1.06000000e+00  4.59548400e-01  3.44690948e-09  3.65771219e-09  3.30297946e-09  3.27784392e-09  3.21841248e-09  3.21303833e-09  1.60371641e-07  1.63175429e-09  1.06000000e+00 
 1.07000000e+00  4.59548407e-01  3.44690953e-09  3.65771224e-09  3.30297946e-09  3.27784392e-09  3.21841248e-09  3.21303832e-09  1.60371632e-07  1.63164771e-09  1.07000000e+00 
 1.08000000e+00  4.59548383e-01  3.44690953e-09  3.65771218e-09  3.30297945e-09  3.27784392e-09  3.21841248e-09  3.21303828e-09  1.60371600e-07  1.63151270e-09  1.08000000e+00 
 1.09000000e+00  4.59548395e-01  3.44690948e-09  3.65771219e-09  3.30297945e-09  3.27784392e-09  3.21841248e-09  3.21303827e-09  1.60371621e-07  1.63132086e-09  1.09000000e+00 
 1.10000000e+00  4.59548400e-01  3.44690953e-09  3.65771224e-09  3.30297951e-09  3.27784392e-09  3.21841248e-09  3.21303827e-09  1.60371629e-07  1.63126401e-09  1.10000000e+00 
