 v-sweep         v(b0)           v(b1)           v(b2)           v(b3)           v(b4)           v(b5)           v(b6)           i(vbias)        i(viout)        v(vout)        
 0.00000000e+00  3.35862148e-09  3.45355702e-09  4.57634034e-01  3.15746552e-09  4.57634034e-01  4.57634034e-01  4.57634034e-01  1.59727435e-07  1.65916473e-07  0.00000000e+00 
 1.00000000e-02  3.35862152e-09  3.45355706e-09  4.57634033e-01  3.15746555e-09  4.57634033e-01  4.57634033e-01  4.57634033e-01  1.59727430e-07  1.65916125e-07  1.00000000e-02 
 2.00000000e-02  3.35862152e-09  3.45355700e-09  4.57634023e-01  3.15746555e-09  4.57634023e-01  4.57634023e-01  4.57634023e-01  1.59727430e-07  1.65915541e-07  2.00000000e-02 
 3.00000000e-02  3.35862152e-09  3.45355706e-09  4.57634021e-01  3.15746555e-09  4.57634021e-01  4.57634021e-01  4.57634021e-01  1.59727407e-07  1.65915149e-07  3.00000000e-02 
 4.00000000e-02  3.35862152e-09  3.45355700e-09  4.57634040e-01  3.15746556e-09  4.57634040e-01  4.57634040e-01  4.57634040e-01  1.59727435e-07  1.65914781e-07  4.00000000e-02 
 5.00000000e-02  3.35862152e-09  3.45355700e-09  4.57634015e-01  3.15746555e-09  4.57634015e-01  4.57634015e-01  4.57634015e-01  1.59727428e-07  1.65914382e-07  5.00000000e-02 
 6.00000000e-02  3.35862152e-09  3.45355700e-09  4.57634020e-01  3.15746555e-09  4.57634020e-01  4.57634020e-01  4.57634020e-01  1.59727411e-07  1.65914011e-07  6.00000000e-02 
 7.00000000e-02  3.35862152e-09  3.45355700e-09  4.57634014e-01  3.15746555e-09  4.57634014e-01  4.57634014e-01  4.57634014e-01  1.59727403e-07  1.65913682e-07  7.00000000e-02 
 8.00000000e-02  3.35862152e-09  3.45355706e-09  4.57634004e-01  3.15746555e-09  4.57634004e-01  4.57634004e-01  4.57634004e-01  1.59727388e-07  1.65913186e-07  8.00000000e-02 
 9.00000000e-02  3.35862152e-09  3.45355700e-09  4.57634027e-01  3.15746555e-09  4.57634028e-01  4.57634027e-01  4.57634027e-01  1.59727412e-07  1.65912875e-07  9.00000000e-02 
 1.00000000e-01  3.35862152e-09  3.45355700e-09  4.57634028e-01  3.15746555e-09  4.57634028e-01  4.57634028e-01  4.57634028e-01  1.59727438e-07  1.65912636e-07  1.00000000e-01 
 1.10000000e-01  3.35862152e-09  3.45355706e-09  4.57634004e-01  3.15746555e-09  4.57634004e-01  4.57634004e-01  4.57634004e-01  1.59727404e-07  1.65912221e-07  1.10000000e-01 
 1.20000000e-01  3.35862152e-09  3.45355706e-09  4.57634034e-01  3.15746555e-09  4.57634034e-01  4.57634034e-01  4.57634034e-01  1.59727427e-07  1.65912109e-07  1.20000000e-01 
 1.30000000e-01  3.35862146e-09  3.45355706e-09  4.57634029e-01  3.15746555e-09  4.57634029e-01  4.57634029e-01  4.57634029e-01  1.59727441e-07  1.65911741e-07  1.30000000e-01 
 1.40000000e-01  3.35862152e-09  3.45355700e-09  4.57634014e-01  3.15746555e-09  4.57634014e-01  4.57634014e-01  4.57634014e-01  1.59727397e-07  1.65911472e-07  1.40000000e-01 
 1.50000000e-01  3.35862146e-09  3.45355700e-09  4.57634011e-01  3.15746555e-09  4.57634011e-01  4.57634011e-01  4.57634011e-01  1.59727410e-07  1.65911105e-07  1.50000000e-01 
 1.60000000e-01  3.35862152e-09  3.45355700e-09  4.57634007e-01  3.15746555e-09  4.57634007e-01  4.57634007e-01  4.57634007e-01  1.59727399e-07  1.65911045e-07  1.60000000e-01 
 1.70000000e-01  3.35862152e-09  3.45355700e-09  4.57634007e-01  3.15746555e-09  4.57634007e-01  4.57634007e-01  4.57634007e-01  1.59727396e-07  1.65910626e-07  1.70000000e-01 
 1.80000000e-01  3.35862146e-09  3.45355706e-09  4.57634017e-01  3.15746555e-09  4.57634017e-01  4.57634017e-01  4.57634017e-01  1.59727408e-07  1.65910468e-07  1.80000000e-01 
 1.90000000e-01  3.35862146e-09  3.45355700e-09  4.57634013e-01  3.15746555e-09  4.57634014e-01  4.57634013e-01  4.57634013e-01  1.59727398e-07  1.65910201e-07  1.90000000e-01 
 2.00000000e-01  3.35862152e-09  3.45355700e-09  4.57634028e-01  3.15746555e-09  4.57634028e-01  4.57634028e-01  4.57634028e-01  1.59727430e-07  1.65910079e-07  2.00000000e-01 
 2.10000000e-01  3.35862152e-09  3.45355706e-09  4.57634025e-01  3.15746555e-09  4.57634025e-01  4.57634025e-01  4.57634025e-01  1.59727419e-07  1.65909871e-07  2.10000000e-01 
 2.20000000e-01  3.35862152e-09  3.45355706e-09  4.57634028e-01  3.15746555e-09  4.57634028e-01  4.57634028e-01  4.57634028e-01  1.59727432e-07  1.65909659e-07  2.20000000e-01 
 2.30000000e-01  3.35862152e-09  3.45355706e-09  4.57634031e-01  3.15746555e-09  4.57634031e-01  4.57634031e-01  4.57634031e-01  1.59727437e-07  1.65909565e-07  2.30000000e-01 
 2.40000000e-01  3.35862152e-09  3.45355700e-09  4.57634023e-01  3.15746555e-09  4.57634024e-01  4.57634023e-01  4.57634023e-01  1.59727423e-07  1.65909311e-07  2.40000000e-01 
 2.50000000e-01  3.35862152e-09  3.45355706e-09  4.57634042e-01  3.15746556e-09  4.57634042e-01  4.57634042e-01  4.57634042e-01  1.59727435e-07  1.65909171e-07  2.50000000e-01 
 2.60000000e-01  3.35862146e-09  3.45355706e-09  4.57634024e-01  3.15746555e-09  4.57634024e-01  4.57634024e-01  4.57634024e-01  1.59727432e-07  1.65908832e-07  2.60000000e-01 
 2.70000000e-01  3.35862152e-09  3.45355706e-09  4.57634023e-01  3.15746555e-09  4.57634023e-01  4.57634023e-01  4.57634023e-01  1.59727420e-07  1.65908624e-07  2.70000000e-01 
 2.80000000e-01  3.35862152e-09  3.45355706e-09  4.57634017e-01  3.15746555e-09  4.57634017e-01  4.57634017e-01  4.57634017e-01  1.59727411e-07  1.65908553e-07  2.80000000e-01 
 2.90000000e-01  3.35862152e-09  3.45355700e-09  4.57634004e-01  3.15746555e-09  4.57634004e-01  4.57634004e-01  4.57634004e-01  1.59727390e-07  1.65908293e-07  2.90000000e-01 
 3.00000000e-01  3.35862152e-09  3.45355700e-09  4.57634032e-01  3.15746555e-09  4.57634032e-01  4.57634032e-01  4.57634032e-01  1.59727417e-07  1.65908279e-07  3.00000000e-01 
 3.10000000e-01  3.35862152e-09  3.45355706e-09  4.57634030e-01  3.15746555e-09  4.57634030e-01  4.57634030e-01  4.57634030e-01  1.59727435e-07  1.65908137e-07  3.10000000e-01 
 3.20000000e-01  3.35862152e-09  3.45355706e-09  4.57634015e-01  3.15746555e-09  4.57634015e-01  4.57634015e-01  4.57634015e-01  1.59727403e-07  1.65907831e-07  3.20000000e-01 
 3.30000000e-01  3.35862152e-09  3.45355706e-09  4.57634016e-01  3.15746555e-09  4.57634016e-01  4.57634016e-01  4.57634016e-01  1.59727387e-07  1.65907721e-07  3.30000000e-01 
 3.40000000e-01  3.35862152e-09  3.45355706e-09  4.57634028e-01  3.15746555e-09  4.57634028e-01  4.57634028e-01  4.57634028e-01  1.59727418e-07  1.65907636e-07  3.40000000e-01 
 3.50000000e-01  3.35862152e-09  3.45355706e-09  4.57634034e-01  3.15746555e-09  4.57634034e-01  4.57634034e-01  4.57634034e-01  1.59727452e-07  1.65907537e-07  3.50000000e-01 
 3.60000000e-01  3.35862152e-09  3.45355700e-09  4.57634028e-01  3.15746555e-09  4.57634028e-01  4.57634028e-01  4.57634028e-01  1.59727425e-07  1.65907377e-07  3.60000000e-01 
 3.70000000e-01  3.35862146e-09  3.45355706e-09  4.57634012e-01  3.15746555e-09  4.57634012e-01  4.57634012e-01  4.57634012e-01  1.59727408e-07  1.65907181e-07  3.70000000e-01 
 3.80000000e-01  3.35862152e-09  3.45355706e-09  4.57633998e-01  3.15746555e-09  4.57633998e-01  4.57633998e-01  4.57633998e-01  1.59727381e-07  1.65906926e-07  3.80000000e-01 
 3.90000000e-01  3.35862152e-09  3.45355706e-09  4.57634035e-01  3.15746555e-09  4.57634035e-01  4.57634035e-01  4.57634035e-01  1.59727428e-07  1.65906886e-07  3.90000000e-01 
 4.00000000e-01  3.35862146e-09  3.45355700e-09  4.57634053e-01  3.15746556e-09  4.57634053e-01  4.57634053e-01  4.57634053e-01  1.59727456e-07  1.65906908e-07  4.00000000e-01 
 4.10000000e-01  3.35862152e-09  3.45355706e-09  4.57634038e-01  3.15746556e-09  4.57634038e-01  4.57634038e-01  4.57634038e-01  1.59727445e-07  1.65906698e-07  4.10000000e-01 
 4.20000000e-01  3.35862152e-09  3.45355706e-09  4.57634040e-01  3.15746556e-09  4.57634040e-01  4.57634040e-01  4.57634040e-01  1.59727438e-07  1.65906542e-07  4.20000000e-01 
 4.30000000e-01  3.35862152e-09  3.45355700e-09  4.57634050e-01  3.15746556e-09  4.57634050e-01  4.57634050e-01  4.57634050e-01  1.59727480e-07  1.65906322e-07  4.30000000e-01 
 4.40000000e-01  3.35862152e-09  3.45355706e-09  4.57634019e-01  3.15746555e-09  4.57634019e-01  4.57634019e-01  4.57634019e-01  1.59727432e-07  1.65906123e-07  4.40000000e-01 
 4.50000000e-01  3.35862152e-09  3.45355700e-09  4.57634025e-01  3.15746555e-09  4.57634025e-01  4.57634025e-01  4.57634025e-01  1.59727419e-07  1.65906179e-07  4.50000000e-01 
 4.60000000e-01  3.35862152e-09  3.45355706e-09  4.57634045e-01  3.15746556e-09  4.57634046e-01  4.57634045e-01  4.57634045e-01  1.59727457e-07  1.65905924e-07  4.60000000e-01 
 4.70000000e-01  3.35862152e-09  3.45355700e-09  4.57634029e-01  3.15746555e-09  4.57634029e-01  4.57634029e-01  4.57634029e-01  1.59727436e-07  1.65905718e-07  4.70000000e-01 
 4.80000000e-01  3.35862152e-09  3.45355700e-09  4.57634050e-01  3.15746556e-09  4.57634050e-01  4.57634050e-01  4.57634050e-01  1.59727459e-07  1.65905671e-07  4.80000000e-01 
 4.90000000e-01  3.35862152e-09  3.45355700e-09  4.57634008e-01  3.15746555e-09  4.57634008e-01  4.57634008e-01  4.57634008e-01  1.59727393e-07  1.65905490e-07  4.90000000e-01 
 5.00000000e-01  3.35862152e-09  3.45355706e-09  4.57634027e-01  3.15746555e-09  4.57634027e-01  4.57634027e-01  4.57634027e-01  1.59727425e-07  1.65905476e-07  5.00000000e-01 
 5.10000000e-01  3.35862146e-09  3.45355706e-09  4.57634016e-01  3.15746555e-09  4.57634016e-01  4.57634016e-01  4.57634016e-01  1.59727408e-07  1.65905220e-07  5.10000000e-01 
 5.20000000e-01  3.35862152e-09  3.45355706e-09  4.57634026e-01  3.15746555e-09  4.57634026e-01  4.57634026e-01  4.57634026e-01  1.59727424e-07  1.65905142e-07  5.20000000e-01 
 5.30000000e-01  3.35862152e-09  3.45355700e-09  4.57634010e-01  3.15746555e-09  4.57634011e-01  4.57634010e-01  4.57634010e-01  1.59727399e-07  1.65904893e-07  5.30000000e-01 
 5.40000000e-01  3.35862152e-09  3.45355706e-09  4.57634040e-01  3.15746556e-09  4.57634040e-01  4.57634040e-01  4.57634040e-01  1.59727435e-07  1.65904968e-07  5.40000000e-01 
 5.50000000e-01  3.35862152e-09  3.45355706e-09  4.57634006e-01  3.15746555e-09  4.57634006e-01  4.57634006e-01  4.57634006e-01  1.59727397e-07  1.65904762e-07  5.50000000e-01 
 5.60000000e-01  3.35862146e-09  3.45355706e-09  4.57634012e-01  3.15746555e-09  4.57634012e-01  4.57634012e-01  4.57634012e-01  1.59727402e-07  1.65904577e-07  5.60000000e-01 
 5.70000000e-01  3.35862152e-09  3.45355706e-09  4.57634034e-01  3.15746555e-09  4.57634034e-01  4.57634034e-01  4.57634034e-01  1.59727434e-07  1.65904499e-07  5.70000000e-01 
 5.80000000e-01  3.35862152e-09  3.45355706e-09  4.57634026e-01  3.15746555e-09  4.57634026e-01  4.57634026e-01  4.57634026e-01  1.59727445e-07  1.65904446e-07  5.80000000e-01 
 5.90000000e-01  3.35862152e-09  3.45355700e-09  4.57634036e-01  3.15746555e-09  4.57634036e-01  4.57634036e-01  4.57634036e-01  1.59727433e-07  1.65904346e-07  5.90000000e-01 
 6.00000000e-01  3.35862152e-09  3.45355706e-09  4.57634037e-01  3.15746556e-09  4.57634037e-01  4.57634037e-01  4.57634037e-01  1.59727457e-07  1.65904233e-07  6.00000000e-01 
 6.10000000e-01  3.35862152e-09  3.45355700e-09  4.57634007e-01  3.15746555e-09  4.57634007e-01  4.57634007e-01  4.57634007e-01  1.59727392e-07  1.65903984e-07  6.10000000e-01 
 6.20000000e-01  3.35862152e-09  3.45355700e-09  4.57634028e-01  3.15746555e-09  4.57634028e-01  4.57634028e-01  4.57634028e-01  1.59727429e-07  1.65904034e-07  6.20000000e-01 
 6.30000000e-01  3.35862152e-09  3.45355706e-09  4.57634044e-01  3.15746556e-09  4.57634045e-01  4.57634044e-01  4.57634044e-01  1.59727463e-07  1.65903899e-07  6.30000000e-01 
 6.40000000e-01  3.35862146e-09  3.45355700e-09  4.57634042e-01  3.15746556e-09  4.57634042e-01  4.57634042e-01  4.57634042e-01  1.59727443e-07  1.65903849e-07  6.40000000e-01 
 6.50000000e-01  3.35862152e-09  3.45355706e-09  4.57634022e-01  3.15746555e-09  4.57634022e-01  4.57634022e-01  4.57634022e-01  1.59727423e-07  1.65903572e-07  6.50000000e-01 
 6.60000000e-01  3.35862152e-09  3.45355706e-09  4.57634014e-01  3.15746555e-09  4.57634015e-01  4.57634014e-01  4.57634014e-01  1.59727406e-07  1.65903309e-07  6.60000000e-01 
 6.70000000e-01  3.35862146e-09  3.45355706e-09  4.57634030e-01  3.15746555e-09  4.57634030e-01  4.57634030e-01  4.57634030e-01  1.59727435e-07  1.65903401e-07  6.70000000e-01 
 6.80000000e-01  3.35862152e-09  3.45355706e-09  4.57634014e-01  3.15746555e-09  4.57634014e-01  4.57634014e-01  4.57634014e-01  1.59727419e-07  1.65903103e-07  6.80000000e-01 
 6.90000000e-01  3.35862152e-09  3.45355700e-09  4.57634022e-01  3.15746555e-09  4.57634022e-01  4.57634022e-01  4.57634022e-01  1.59727426e-07  1.65903089e-07  6.90000000e-01 
 7.00000000e-01  3.35862152e-09  3.45355700e-09  4.57634030e-01  3.15746555e-09  4.57634030e-01  4.57634030e-01  4.57634030e-01  1.59727434e-07  1.65902861e-07  7.00000000e-01 
 7.10000000e-01  3.35862152e-09  3.45355700e-09  4.57634014e-01  3.15746555e-09  4.57634014e-01  4.57634014e-01  4.57634014e-01  1.59727412e-07  1.65902684e-07  7.10000000e-01 
 7.20000000e-01  3.35862152e-09  3.45355706e-09  4.57634025e-01  3.15746555e-09  4.57634025e-01  4.57634025e-01  4.57634025e-01  1.59727413e-07  1.65902698e-07  7.20000000e-01 
 7.30000000e-01  3.35862152e-09  3.45355706e-09  4.57634010e-01  3.15746555e-09  4.57634010e-01  4.57634010e-01  4.57634010e-01  1.59727395e-07  1.65902556e-07  7.30000000e-01 
 7.40000000e-01  3.35862152e-09  3.45355706e-09  4.57634037e-01  3.15746556e-09  4.57634037e-01  4.57634037e-01  4.57634037e-01  1.59727434e-07  1.65902414e-07  7.40000000e-01 
 7.50000000e-01  3.35862152e-09  3.45355700e-09  4.57634021e-01  3.15746555e-09  4.57634021e-01  4.57634021e-01  4.57634021e-01  1.59727436e-07  1.65902144e-07  7.50000000e-01 
 7.60000000e-01  3.35862152e-09  3.45355706e-09  4.57634034e-01  3.15746555e-09  4.57634034e-01  4.57634034e-01  4.57634034e-01  1.59727432e-07  1.65902136e-07  7.60000000e-01 
 7.70000000e-01  3.35862152e-09  3.45355706e-09  4.57634019e-01  3.15746555e-09  4.57634019e-01  4.57634019e-01  4.57634019e-01  1.59727416e-07  1.65902023e-07  7.70000000e-01 
 7.80000000e-01  3.35862152e-09  3.45355706e-09  4.57634012e-01  3.15746555e-09  4.57634012e-01  4.57634012e-01  4.57634012e-01  1.59727400e-07  1.65901746e-07  7.80000000e-01 
 7.90000000e-01  3.35862152e-09  3.45355700e-09  4.57634023e-01  3.15746555e-09  4.57634023e-01  4.57634023e-01  4.57634023e-01  1.59727421e-07  1.65901675e-07  7.90000000e-01 
 8.00000000e-01  3.35862152e-09  3.45355700e-09  4.57634048e-01  3.15746556e-09  4.57634048e-01  4.57634048e-01  4.57634048e-01  1.59727476e-07  1.65901660e-07  8.00000000e-01 
 8.10000000e-01  3.35862152e-09  3.45355706e-09  4.57634039e-01  3.15746556e-09  4.57634039e-01  4.57634039e-01  4.57634039e-01  1.59727439e-07  1.65901554e-07  8.10000000e-01 
 8.20000000e-01  3.35862152e-09  3.45355706e-09  4.57634029e-01  3.15746555e-09  4.57634029e-01  4.57634029e-01  4.57634029e-01  1.59727433e-07  1.65901355e-07  8.20000000e-01 
 8.30000000e-01  3.35862152e-09  3.45355706e-09  4.57634024e-01  3.15746555e-09  4.57634024e-01  4.57634024e-01  4.57634024e-01  1.59727416e-07  1.65901163e-07  8.30000000e-01 
 8.40000000e-01  3.35862152e-09  3.45355700e-09  4.57634005e-01  3.15746555e-09  4.57634005e-01  4.57634005e-01  4.57634005e-01  1.59727378e-07  1.65900978e-07  8.40000000e-01 
 8.50000000e-01  3.35862152e-09  3.45355706e-09  4.57634039e-01  3.15746556e-09  4.57634040e-01  4.57634039e-01  4.57634039e-01  1.59727435e-07  1.65900907e-07  8.50000000e-01 
 8.60000000e-01  3.35862152e-09  3.45355706e-09  4.57634041e-01  3.15746556e-09  4.57634041e-01  4.57634041e-01  4.57634041e-01  1.59727449e-07  1.65900907e-07  8.60000000e-01 
 8.70000000e-01  3.35862152e-09  3.45355706e-09  4.57634040e-01  3.15746556e-09  4.57634040e-01  4.57634040e-01  4.57634040e-01  1.59727443e-07  1.65900722e-07  8.70000000e-01 
 8.80000000e-01  3.35862152e-09  3.45355700e-09  4.57634004e-01  3.15746555e-09  4.57634004e-01  4.57634004e-01  4.57634004e-01  1.59727397e-07  1.65900396e-07  8.80000000e-01 
 8.90000000e-01  3.35862152e-09  3.45355706e-09  4.57634011e-01  3.15746555e-09  4.57634011e-01  4.57634011e-01  4.57634011e-01  1.59727403e-07  1.65900367e-07  8.90000000e-01 
 9.00000000e-01  3.35862146e-09  3.45355700e-09  4.57634000e-01  3.15746555e-09  4.57634000e-01  4.57634000e-01  4.57634000e-01  1.59727380e-07  1.65900119e-07  9.00000000e-01 
 9.10000000e-01  3.35862152e-09  3.45355705e-09  4.57633996e-01  3.15746555e-09  4.57633996e-01  4.57633996e-01  4.57633996e-01  1.59727376e-07  1.65899998e-07  9.10000000e-01 
 9.20000000e-01  3.35862146e-09  3.45355700e-09  4.57634032e-01  3.15746555e-09  4.57634032e-01  4.57634032e-01  4.57634032e-01  1.59727430e-07  1.65900040e-07  9.20000000e-01 
 9.30000000e-01  3.35862152e-09  3.45355706e-09  4.57634027e-01  3.15746555e-09  4.57634028e-01  4.57634027e-01  4.57634027e-01  1.59727433e-07  1.65899870e-07  9.30000000e-01 
 9.40000000e-01  3.35862152e-09  3.45355700e-09  4.57634038e-01  3.15746556e-09  4.57634038e-01  4.57634038e-01  4.57634038e-01  1.59727448e-07  1.65899714e-07  9.40000000e-01 
 9.50000000e-01  3.35862152e-09  3.45355700e-09  4.57634044e-01  3.15746556e-09  4.57634044e-01  4.57634044e-01  4.57634044e-01  1.59727471e-07  1.65899579e-07  9.50000000e-01 
 9.60000000e-01  3.35862152e-09  3.45355706e-09  4.57634041e-01  3.15746556e-09  4.57634041e-01  4.57634041e-01  4.57634041e-01  1.59727464e-07  1.65899415e-07  9.60000000e-01 
 9.70000000e-01  3.35862146e-09  3.45355700e-09  4.57634029e-01  3.15746550e-09  4.57634029e-01  4.57634029e-01  4.57634029e-01  1.59727417e-07  1.65899309e-07  9.70000000e-01 
 9.80000000e-01  3.35862152e-09  3.45355706e-09  4.57634050e-01  3.15746557e-09  4.57634050e-01  4.57634050e-01  4.57634050e-01  1.59727447e-07  1.65899230e-07  9.80000000e-01 
 9.90000000e-01  3.35862152e-09  3.45355706e-09  4.57634024e-01  3.15746555e-09  4.57634024e-01  4.57634024e-01  4.57634024e-01  1.59727423e-07  1.65898875e-07  9.90000000e-01 
 1.00000000e+00  3.35862152e-09  3.45355706e-09  4.57634019e-01  3.15746555e-09  4.57634019e-01  4.57634019e-01  4.57634019e-01  1.59727413e-07  1.65898733e-07  1.00000000e+00 
 1.01000000e+00  3.35862152e-09  3.45355700e-09  4.57634017e-01  3.15746555e-09  4.57634017e-01  4.57634017e-01  4.57634017e-01  1.59727409e-07  1.65898641e-07  1.01000000e+00 
 1.02000000e+00  3.35862152e-09  3.45355700e-09  4.57634032e-01  3.15746555e-09  4.57634032e-01  4.57634032e-01  4.57634032e-01  1.59727439e-07  1.65898520e-07  1.02000000e+00 
 1.03000000e+00  3.35862152e-09  3.45355706e-09  4.57634032e-01  3.15746555e-09  4.57634032e-01  4.57634032e-01  4.57634032e-01  1.59727446e-07  1.65898300e-07  1.03000000e+00 
 1.04000000e+00  3.35862152e-09  3.45355706e-09  4.57634010e-01  3.15746555e-09  4.57634010e-01  4.57634010e-01  4.57634010e-01  1.59727401e-07  1.65898015e-07  1.04000000e+00 
 1.05000000e+00  3.35862152e-09  3.45355700e-09  4.57634007e-01  3.15746555e-09  4.57634007e-01  4.57634007e-01  4.57634007e-01  1.59727387e-07  1.65897909e-07  1.05000000e+00 
 1.06000000e+00  3.35862152e-09  3.45355706e-09  4.57634027e-01  3.15746555e-09  4.57634027e-01  4.57634027e-01  4.57634027e-01  1.59727428e-07  1.65897909e-07  1.06000000e+00 
 1.07000000e+00  3.35862152e-09  3.45355706e-09  4.57634050e-01  3.15746556e-09  4.57634050e-01  4.57634050e-01  4.57634050e-01  1.59727463e-07  1.65897752e-07  1.07000000e+00 
 1.08000000e+00  3.35862152e-09  3.45355700e-09  4.57634025e-01  3.15746555e-09  4.57634025e-01  4.57634025e-01  4.57634025e-01  1.59727412e-07  1.65897525e-07  1.08000000e+00 
 1.09000000e+00  3.35862152e-09  3.45355706e-09  4.57634040e-01  3.15746556e-09  4.57634040e-01  4.57634040e-01  4.57634040e-01  1.59727442e-07  1.65897404e-07  1.09000000e+00 
 1.10000000e+00  3.35862152e-09  3.45355706e-09  4.57634022e-01  3.15746555e-09  4.57634022e-01  4.57634022e-01  4.57634022e-01  1.59727419e-07  1.65897134e-07  1.10000000e+00 
