 v-sweep         v(b0)           v(b1)           v(b2)           v(b3)           v(b4)           v(b5)           v(b6)           i(vbias)        i(viout)        v(vout)        
 0.00000000e+00  3.13705879e-09  3.31465386e-09  3.26127535e-09  4.58221300e-01  3.40682338e-09  3.40242935e-09  4.58221300e-01  1.59250237e-07  1.11843550e-07  0.00000000e+00 
 1.00000000e-02  3.13705883e-09  3.31465384e-09  3.26127533e-09  4.58221307e-01  3.40682342e-09  3.40242937e-09  4.58221307e-01  1.59250242e-07  1.11843158e-07  1.00000000e-02 
 2.00000000e-02  3.13705883e-09  3.31465390e-09  3.26127533e-09  4.58221322e-01  3.40682341e-09  3.40242937e-09  4.58221322e-01  1.59250291e-07  1.11842862e-07  2.00000000e-02 
 3.00000000e-02  3.13705882e-09  3.31465382e-09  3.26127527e-09  4.58221301e-01  3.40682341e-09  3.40242937e-09  4.58221301e-01  1.59250246e-07  1.11842431e-07  3.00000000e-02 
 4.00000000e-02  3.13705882e-09  3.31465384e-09  3.26127532e-09  4.58221275e-01  3.40682341e-09  3.40242937e-09  4.58221275e-01  1.59250197e-07  1.11841937e-07  4.00000000e-02 
 5.00000000e-02  3.13705882e-09  3.31465383e-09  3.26127527e-09  4.58221296e-01  3.40682335e-09  3.40242937e-09  4.58221296e-01  1.59250236e-07  1.11841760e-07  5.00000000e-02 
 6.00000000e-02  3.13705883e-09  3.31465389e-09  3.26127527e-09  4.58221308e-01  3.40682337e-09  3.40242937e-09  4.58221308e-01  1.59250252e-07  1.11841362e-07  6.00000000e-02 
 7.00000000e-02  3.13705883e-09  3.31465382e-09  3.26127527e-09  4.58221307e-01  3.40682342e-09  3.40242937e-09  4.58221307e-01  1.59250257e-07  1.11841083e-07  7.00000000e-02 
 8.00000000e-02  3.13705882e-09  3.31465384e-09  3.26127533e-09  4.58221297e-01  3.40682341e-09  3.40242937e-09  4.58221297e-01  1.59250241e-07  1.11840774e-07  8.00000000e-02 
 9.00000000e-02  3.13705883e-09  3.31465390e-09  3.26127533e-09  4.58221320e-01  3.40682341e-09  3.40242937e-09  4.58221320e-01  1.59250269e-07  1.11840595e-07  9.00000000e-02 
 1.00000000e-01  3.13705882e-09  3.31465382e-09  3.26127527e-09  4.58221298e-01  3.40682341e-09  3.40242937e-09  4.58221298e-01  1.59250232e-07  1.11840299e-07  1.00000000e-01 
 1.10000000e-01  3.13705882e-09  3.31465384e-09  3.26127533e-09  4.58221292e-01  3.40682341e-09  3.40242937e-09  4.58221292e-01  1.59250226e-07  1.11839853e-07  1.10000000e-01 
 1.20000000e-01  3.13705883e-09  3.31465384e-09  3.26127527e-09  4.58221306e-01  3.40682341e-09  3.40242937e-09  4.58221306e-01  1.59250245e-07  1.11839740e-07  1.20000000e-01 
 1.30000000e-01  3.13705883e-09  3.31465384e-09  3.26127527e-09  4.58221311e-01  3.40682341e-09  3.40242937e-09  4.58221311e-01  1.59250264e-07  1.11839354e-07  1.30000000e-01 
 1.40000000e-01  3.13705883e-09  3.31465384e-09  3.26127533e-09  4.58221308e-01  3.40682341e-09  3.40242937e-09  4.58221308e-01  1.59250252e-07  1.11839116e-07  1.40000000e-01 
 1.50000000e-01  3.13705883e-09  3.31465384e-09  3.26127533e-09  4.58221307e-01  3.40682341e-09  3.40242937e-09  4.58221307e-01  1.59250265e-07  1.11838894e-07  1.50000000e-01 
 1.60000000e-01  3.13705883e-09  3.31465384e-09  3.26127533e-09  4.58221333e-01  3.40682341e-09  3.40242938e-09  4.58221333e-01  1.59250290e-07  1.11838885e-07  1.60000000e-01 
 1.70000000e-01  3.13705883e-09  3.31465384e-09  3.26127533e-09  4.58221307e-01  3.40682341e-09  3.40242937e-09  4.58221307e-01  1.59250261e-07  1.11838512e-07  1.70000000e-01 
 1.80000000e-01  3.13705882e-09  3.31465384e-09  3.26127533e-09  4.58221300e-01  3.40682341e-09  3.40242937e-09  4.58221300e-01  1.59250236e-07  1.11838256e-07  1.80000000e-01 
 1.90000000e-01  3.13705883e-09  3.31465384e-09  3.26127533e-09  4.58221311e-01  3.40682341e-09  3.40242937e-09  4.58221311e-01  1.59250257e-07  1.11838178e-07  1.90000000e-01 
 2.00000000e-01  3.13705883e-09  3.31465384e-09  3.26127533e-09  4.58221327e-01  3.40682335e-09  3.40242937e-09  4.58221326e-01  1.59250282e-07  1.11838046e-07  2.00000000e-01 
 2.10000000e-01  3.13705882e-09  3.31465383e-09  3.26127527e-09  4.58221295e-01  3.40682342e-09  3.40242937e-09  4.58221295e-01  1.59250248e-07  1.11837727e-07  2.10000000e-01 
 2.20000000e-01  3.13705882e-09  3.31465384e-09  3.26127533e-09  4.58221302e-01  3.40682341e-09  3.40242937e-09  4.58221301e-01  1.59250235e-07  1.11837739e-07  2.20000000e-01 
 2.30000000e-01  3.13705882e-09  3.31465384e-09  3.26127527e-09  4.58221303e-01  3.40682341e-09  3.40242937e-09  4.58221303e-01  1.59250252e-07  1.11837485e-07  2.30000000e-01 
 2.40000000e-01  3.13705883e-09  3.31465384e-09  3.26127533e-09  4.58221312e-01  3.40682341e-09  3.40242937e-09  4.58221312e-01  1.59250265e-07  1.11837336e-07  2.40000000e-01 
 2.50000000e-01  3.13705883e-09  3.31465384e-09  3.26127527e-09  4.58221314e-01  3.40682341e-09  3.40242937e-09  4.58221314e-01  1.59250275e-07  1.11837336e-07  2.50000000e-01 
 2.60000000e-01  3.13705883e-09  3.31465384e-09  3.26127533e-09  4.58221325e-01  3.40682341e-09  3.40242937e-09  4.58221325e-01  1.59250282e-07  1.11837114e-07  2.60000000e-01 
 2.70000000e-01  3.13705883e-09  3.31465384e-09  3.26127533e-09  4.58221313e-01  3.40682341e-09  3.40242937e-09  4.58221313e-01  1.59250265e-07  1.11836915e-07  2.70000000e-01 
 2.80000000e-01  3.13705883e-09  3.31465384e-09  3.26127527e-09  4.58221324e-01  3.40682341e-09  3.40242937e-09  4.58221324e-01  1.59250272e-07  1.11836851e-07  2.80000000e-01 
 2.90000000e-01  3.13705882e-09  3.31465389e-09  3.26127533e-09  4.58221303e-01  3.40682341e-09  3.40242937e-09  4.58221303e-01  1.59250232e-07  1.11836695e-07  2.90000000e-01 
 3.00000000e-01  3.13705883e-09  3.31465383e-09  3.26127533e-09  4.58221317e-01  3.40682341e-09  3.40242937e-09  4.58221317e-01  1.59250263e-07  1.11836545e-07  3.00000000e-01 
 3.10000000e-01  3.13705883e-09  3.31465385e-09  3.26127533e-09  4.58221321e-01  3.40682341e-09  3.40242937e-09  4.58221321e-01  1.59250264e-07  1.11836474e-07  3.10000000e-01 
 3.20000000e-01  3.13705883e-09  3.31465384e-09  3.26127527e-09  4.58221311e-01  3.40682341e-09  3.40242937e-09  4.58221311e-01  1.59250259e-07  1.11836268e-07  3.20000000e-01 
 3.30000000e-01  3.13705883e-09  3.31465384e-09  3.26127527e-09  4.58221306e-01  3.40682341e-09  3.40242937e-09  4.58221306e-01  1.59250243e-07  1.11836250e-07  3.30000000e-01 
 3.40000000e-01  3.13705883e-09  3.31465384e-09  3.26127533e-09  4.58221307e-01  3.40682341e-09  3.40242937e-09  4.58221307e-01  1.59250247e-07  1.11836059e-07  3.40000000e-01 
 3.50000000e-01  3.13705883e-09  3.31465384e-09  3.26127533e-09  4.58221326e-01  3.40682341e-09  3.40242937e-09  4.58221326e-01  1.59250275e-07  1.11835995e-07  3.50000000e-01 
 3.60000000e-01  3.13705883e-09  3.31465384e-09  3.26127527e-09  4.58221321e-01  3.40682341e-09  3.40242937e-09  4.58221321e-01  1.59250276e-07  1.11835913e-07  3.60000000e-01 
 3.70000000e-01  3.13705883e-09  3.31465384e-09  3.26127527e-09  4.58221322e-01  3.40682341e-09  3.40242937e-09  4.58221321e-01  1.59250265e-07  1.11835789e-07  3.70000000e-01 
 3.80000000e-01  3.13705882e-09  3.31465384e-09  3.26127527e-09  4.58221302e-01  3.40682341e-09  3.40242937e-09  4.58221302e-01  1.59250242e-07  1.11835604e-07  3.80000000e-01 
 3.90000000e-01  3.13705882e-09  3.31465383e-09  3.26127527e-09  4.58221296e-01  3.40682341e-09  3.40242937e-09  4.58221296e-01  1.59250227e-07  1.11835508e-07  3.90000000e-01 
 4.00000000e-01  3.13705883e-09  3.31465390e-09  3.26127527e-09  4.58221336e-01  3.40682341e-09  3.40242938e-09  4.58221336e-01  1.59250286e-07  1.11835568e-07  4.00000000e-01 
 4.10000000e-01  3.13705882e-09  3.31465388e-09  3.26127527e-09  4.58221289e-01  3.40682335e-09  3.40242937e-09  4.58221289e-01  1.59250234e-07  1.11835391e-07  4.10000000e-01 
 4.20000000e-01  3.13705883e-09  3.31465384e-09  3.26127527e-09  4.58221306e-01  3.40682342e-09  3.40242937e-09  4.58221306e-01  1.59250244e-07  1.11835238e-07  4.20000000e-01 
 4.30000000e-01  3.13705888e-09  3.31465384e-09  3.26127527e-09  4.58221305e-01  3.40682341e-09  3.40242937e-09  4.58221305e-01  1.59250248e-07  1.11835206e-07  4.30000000e-01 
 4.40000000e-01  3.13705881e-09  3.31465384e-09  3.26127527e-09  4.58221306e-01  3.40682341e-09  3.40242937e-09  4.58221306e-01  1.59250256e-07  1.11835050e-07  4.40000000e-01 
 4.50000000e-01  3.13705883e-09  3.31465384e-09  3.26127533e-09  4.58221306e-01  3.40682341e-09  3.40242937e-09  4.58221306e-01  1.59250250e-07  1.11835028e-07  4.50000000e-01 
 4.60000000e-01  3.13705883e-09  3.31465384e-09  3.26127527e-09  4.58221311e-01  3.40682341e-09  3.40242937e-09  4.58221311e-01  1.59250255e-07  1.11834900e-07  4.60000000e-01 
 4.70000000e-01  3.13705883e-09  3.31465384e-09  3.26127533e-09  4.58221307e-01  3.40682341e-09  3.40242937e-09  4.58221307e-01  1.59250242e-07  1.11834783e-07  4.70000000e-01 
 4.80000000e-01  3.13705883e-09  3.31465384e-09  3.26127533e-09  4.58221322e-01  3.40682341e-09  3.40242937e-09  4.58221322e-01  1.59250273e-07  1.11834773e-07  4.80000000e-01 
 4.90000000e-01  3.13705883e-09  3.31465389e-09  3.26127527e-09  4.58221310e-01  3.40682341e-09  3.40242937e-09  4.58221310e-01  1.59250245e-07  1.11834641e-07  4.90000000e-01 
 5.00000000e-01  3.13705882e-09  3.31465382e-09  3.26127533e-09  4.58221301e-01  3.40682341e-09  3.40242937e-09  4.58221301e-01  1.59250237e-07  1.11834552e-07  5.00000000e-01 
 5.10000000e-01  3.13705883e-09  3.31465384e-09  3.26127533e-09  4.58221313e-01  3.40682341e-09  3.40242937e-09  4.58221313e-01  1.59250254e-07  1.11834563e-07  5.10000000e-01 
 5.20000000e-01  3.13705883e-09  3.31465384e-09  3.26127533e-09  4.58221320e-01  3.40682341e-09  3.40242937e-09  4.58221320e-01  1.59250263e-07  1.11834520e-07  5.20000000e-01 
 5.30000000e-01  3.13705883e-09  3.31465384e-09  3.26127533e-09  4.58221330e-01  3.40682341e-09  3.40242938e-09  4.58221330e-01  1.59250274e-07  1.11834471e-07  5.30000000e-01 
 5.40000000e-01  3.13705882e-09  3.31465384e-09  3.26127527e-09  4.58221300e-01  3.40682341e-09  3.40242937e-09  4.58221300e-01  1.59250250e-07  1.11834190e-07  5.40000000e-01 
 5.50000000e-01  3.13705883e-09  3.31465384e-09  3.26127527e-09  4.58221324e-01  3.40682341e-09  3.40242937e-09  4.58221324e-01  1.59250286e-07  1.11834183e-07  5.50000000e-01 
 5.60000000e-01  3.13705883e-09  3.31465389e-09  3.26127533e-09  4.58221309e-01  3.40682341e-09  3.40242937e-09  4.58221309e-01  1.59250265e-07  1.11834137e-07  5.60000000e-01 
 5.70000000e-01  3.13705882e-09  3.31465382e-09  3.26127527e-09  4.58221297e-01  3.40682341e-09  3.40242937e-09  4.58221297e-01  1.59250233e-07  1.11834016e-07  5.70000000e-01 
 5.80000000e-01  3.13705882e-09  3.31465384e-09  3.26127527e-09  4.58221270e-01  3.40682341e-09  3.40242937e-09  4.58221270e-01  1.59250188e-07  1.11833870e-07  5.80000000e-01 
 5.90000000e-01  3.13705882e-09  3.31465383e-09  3.26127533e-09  4.58221292e-01  3.40682341e-09  3.40242937e-09  4.58221292e-01  1.59250215e-07  1.11833771e-07  5.90000000e-01 
 6.00000000e-01  3.13705883e-09  3.31465384e-09  3.26127527e-09  4.58221321e-01  3.40682341e-09  3.40242937e-09  4.58221321e-01  1.59250272e-07  1.11833820e-07  6.00000000e-01 
 6.10000000e-01  3.13705883e-09  3.31465384e-09  3.26127533e-09  4.58221313e-01  3.40682341e-09  3.40242937e-09  4.58221313e-01  1.59250272e-07  1.11833664e-07  6.10000000e-01 
 6.20000000e-01  3.13705883e-09  3.31465384e-09  3.26127527e-09  4.58221318e-01  3.40682341e-09  3.40242937e-09  4.58221318e-01  1.59250274e-07  1.11833707e-07  6.20000000e-01 
 6.30000000e-01  3.13705882e-09  3.31465384e-09  3.26127533e-09  4.58221300e-01  3.40682341e-09  3.40242937e-09  4.58221300e-01  1.59250231e-07  1.11833486e-07  6.30000000e-01 
 6.40000000e-01  3.13705882e-09  3.31465383e-09  3.26127527e-09  4.58221293e-01  3.40682335e-09  3.40242937e-09  4.58221293e-01  1.59250237e-07  1.11833401e-07  6.40000000e-01 
 6.50000000e-01  3.13705882e-09  3.31465389e-09  3.26127533e-09  4.58221299e-01  3.40682342e-09  3.40242937e-09  4.58221299e-01  1.59250236e-07  1.11833423e-07  6.50000000e-01 
 6.60000000e-01  3.13705883e-09  3.31465383e-09  3.26127533e-09  4.58221334e-01  3.40682341e-09  3.40242938e-09  4.58221334e-01  1.59250296e-07  1.11833415e-07  6.60000000e-01 
 6.70000000e-01  3.13705883e-09  3.31465385e-09  3.26127533e-09  4.58221321e-01  3.40682341e-09  3.40242937e-09  4.58221321e-01  1.59250275e-07  1.11833259e-07  6.70000000e-01 
 6.80000000e-01  3.13705888e-09  3.31465384e-09  3.26127527e-09  4.58221306e-01  3.40682335e-09  3.40242937e-09  4.58221306e-01  1.59250250e-07  1.11833074e-07  6.80000000e-01 
 6.90000000e-01  3.13705881e-09  3.31465384e-09  3.26127533e-09  4.58221306e-01  3.40682342e-09  3.40242937e-09  4.58221306e-01  1.59250252e-07  1.11833081e-07  6.90000000e-01 
 7.00000000e-01  3.13705883e-09  3.31465384e-09  3.26127527e-09  4.58221308e-01  3.40682341e-09  3.40242937e-09  4.58221308e-01  1.59250272e-07  1.11833074e-07  7.00000000e-01 
 7.10000000e-01  3.13705883e-09  3.31465384e-09  3.26127527e-09  4.58221328e-01  3.40682341e-09  3.40242938e-09  4.58221328e-01  1.59250287e-07  1.11832982e-07  7.10000000e-01 
 7.20000000e-01  3.13705882e-09  3.31465384e-09  3.26127527e-09  4.58221299e-01  3.40682341e-09  3.40242937e-09  4.58221299e-01  1.59250237e-07  1.11832804e-07  7.20000000e-01 
 7.30000000e-01  3.13705882e-09  3.31465384e-09  3.26127533e-09  4.58221299e-01  3.40682341e-09  3.40242937e-09  4.58221299e-01  1.59250243e-07  1.11832755e-07  7.30000000e-01 
 7.40000000e-01  3.13705882e-09  3.31465383e-09  3.26127533e-09  4.58221289e-01  3.40682341e-09  3.40242937e-09  4.58221289e-01  1.59250228e-07  1.11832634e-07  7.40000000e-01 
 7.50000000e-01  3.13705883e-09  3.31465384e-09  3.26127533e-09  4.58221313e-01  3.40682341e-09  3.40242937e-09  4.58221313e-01  1.59250264e-07  1.11832620e-07  7.50000000e-01 
 7.60000000e-01  3.13705883e-09  3.31465389e-09  3.26127527e-09  4.58221307e-01  3.40682341e-09  3.40242937e-09  4.58221307e-01  1.59250240e-07  1.11832449e-07  7.60000000e-01 
 7.70000000e-01  3.13705882e-09  3.31465382e-09  3.26127533e-09  4.58221296e-01  3.40682341e-09  3.40242937e-09  4.58221296e-01  1.59250232e-07  1.11832371e-07  7.70000000e-01 
 7.80000000e-01  3.13705877e-09  3.31465384e-09  3.26127527e-09  4.58221293e-01  3.40682341e-09  3.40242937e-09  4.58221293e-01  1.59250236e-07  1.11832300e-07  7.80000000e-01 
 7.90000000e-01  3.13705883e-09  3.31465384e-09  3.26127533e-09  4.58221319e-01  3.40682341e-09  3.40242937e-09  4.58221319e-01  1.59250267e-07  1.11832264e-07  7.90000000e-01 
 8.00000000e-01  3.13705883e-09  3.31465384e-09  3.26127527e-09  4.58221305e-01  3.40682341e-09  3.40242937e-09  4.58221305e-01  1.59250233e-07  1.11832222e-07  8.00000000e-01 
 8.10000000e-01  3.13705882e-09  3.31465383e-09  3.26127533e-09  4.58221289e-01  3.40682341e-09  3.40242937e-09  4.58221289e-01  1.59250225e-07  1.11832051e-07  8.10000000e-01 
 8.20000000e-01  3.13705883e-09  3.31465384e-09  3.26127533e-09  4.58221305e-01  3.40682341e-09  3.40242937e-09  4.58221305e-01  1.59250239e-07  1.11832108e-07  8.20000000e-01 
 8.30000000e-01  3.13705883e-09  3.31465384e-09  3.26127527e-09  4.58221322e-01  3.40682341e-09  3.40242937e-09  4.58221321e-01  1.59250270e-07  1.11832023e-07  8.30000000e-01 
 8.40000000e-01  3.13705882e-09  3.31465384e-09  3.26127527e-09  4.58221299e-01  3.40682341e-09  3.40242937e-09  4.58221299e-01  1.59250250e-07  1.11831902e-07  8.40000000e-01 
 8.50000000e-01  3.13705883e-09  3.31465384e-09  3.26127533e-09  4.58221311e-01  3.40682335e-09  3.40242937e-09  4.58221311e-01  1.59250259e-07  1.11831831e-07  8.50000000e-01 
 8.60000000e-01  3.13705883e-09  3.31465384e-09  3.26127527e-09  4.58221311e-01  3.40682342e-09  3.40242937e-09  4.58221311e-01  1.59250271e-07  1.11831739e-07  8.60000000e-01 
 8.70000000e-01  3.13705883e-09  3.31465384e-09  3.26127533e-09  4.58221309e-01  3.40682341e-09  3.40242937e-09  4.58221309e-01  1.59250257e-07  1.11831490e-07  8.70000000e-01 
 8.80000000e-01  3.13705883e-09  3.31465384e-09  3.26127527e-09  4.58221306e-01  3.40682341e-09  3.40242937e-09  4.58221306e-01  1.59250248e-07  1.11831632e-07  8.80000000e-01 
 8.90000000e-01  3.13705882e-09  3.31465383e-09  3.26127527e-09  4.58221296e-01  3.40682341e-09  3.40242937e-09  4.58221296e-01  1.59250239e-07  1.11831497e-07  8.90000000e-01 
 9.00000000e-01  3.13705883e-09  3.31465389e-09  3.26127533e-09  4.58221311e-01  3.40682341e-09  3.40242937e-09  4.58221311e-01  1.59250248e-07  1.11831447e-07  9.00000000e-01 
 9.10000000e-01  3.13705883e-09  3.31465383e-09  3.26127533e-09  4.58221323e-01  3.40682341e-09  3.40242937e-09  4.58221323e-01  1.59250273e-07  1.11831334e-07  9.10000000e-01 
 9.20000000e-01  3.13705883e-09  3.31465384e-09  3.26127527e-09  4.58221319e-01  3.40682341e-09  3.40242937e-09  4.58221319e-01  1.59250285e-07  1.11831262e-07  9.20000000e-01 
 9.30000000e-01  3.13705882e-09  3.31465384e-09  3.26127527e-09  4.58221303e-01  3.40682341e-09  3.40242937e-09  4.58221302e-01  1.59250241e-07  1.11831191e-07  9.30000000e-01 
 9.40000000e-01  3.13705883e-09  3.31465384e-09  3.26127527e-09  4.58221306e-01  3.40682341e-09  3.40242937e-09  4.58221306e-01  1.59250230e-07  1.11830929e-07  9.40000000e-01 
 9.50000000e-01  3.13705883e-09  3.31465384e-09  3.26127533e-09  4.58221314e-01  3.40682341e-09  3.40242937e-09  4.58221314e-01  1.59250259e-07  1.11830992e-07  9.50000000e-01 
 9.60000000e-01  3.13705883e-09  3.31465384e-09  3.26127533e-09  4.58221309e-01  3.40682341e-09  3.40242937e-09  4.58221309e-01  1.59250260e-07  1.11830822e-07  9.60000000e-01 
 9.70000000e-01  3.13705883e-09  3.31465384e-09  3.26127533e-09  4.58221322e-01  3.40682341e-09  3.40242937e-09  4.58221322e-01  1.59250278e-07  1.11830765e-07  9.70000000e-01 
 9.80000000e-01  3.13705877e-09  3.31465384e-09  3.26127527e-09  4.58221313e-01  3.40682341e-09  3.40242937e-09  4.58221313e-01  1.59250260e-07  1.11830779e-07  9.80000000e-01 
 9.90000000e-01  3.13705883e-09  3.31465384e-09  3.26127527e-09  4.58221306e-01  3.40682341e-09  3.40242937e-09  4.58221306e-01  1.59250251e-07  1.11830524e-07  9.90000000e-01 
 1.00000000e+00  3.13705882e-09  3.31465383e-09  3.26127527e-09  4.58221295e-01  3.40682341e-09  3.40242937e-09  4.58221295e-01  1.59250226e-07  1.11830481e-07  1.00000000e+00 
 1.01000000e+00  3.13705883e-09  3.31465384e-09  3.26127533e-09  4.58221317e-01  3.40682341e-09  3.40242937e-09  4.58221317e-01  1.59250254e-07  1.11830481e-07  1.01000000e+00 
 1.02000000e+00  3.13705883e-09  3.31465389e-09  3.26127533e-09  4.58221308e-01  3.40682341e-09  3.40242937e-09  4.58221308e-01  1.59250263e-07  1.11830317e-07  1.02000000e+00 
 1.03000000e+00  3.13705883e-09  3.31465388e-09  3.26127527e-09  4.58221308e-01  3.40682341e-09  3.40242937e-09  4.58221308e-01  1.59250259e-07  1.11830261e-07  1.03000000e+00 
 1.04000000e+00  3.13705883e-09  3.31465385e-09  3.26127527e-09  4.58221320e-01  3.40682341e-09  3.40242937e-09  4.58221320e-01  1.59250275e-07  1.11830232e-07  1.04000000e+00 
 1.05000000e+00  3.13705883e-09  3.31465384e-09  3.26127533e-09  4.58221328e-01  3.40682341e-09  3.40242938e-09  4.58221328e-01  1.59250280e-07  1.11830033e-07  1.05000000e+00 
 1.06000000e+00  3.13705882e-09  3.31465383e-09  3.26127527e-09  4.58221290e-01  3.40682341e-09  3.40242937e-09  4.58221290e-01  1.59250227e-07  1.11829998e-07  1.06000000e+00 
 1.07000000e+00  3.13705883e-09  3.31465384e-09  3.26127533e-09  4.58221324e-01  3.40682341e-09  3.40242937e-09  4.58221324e-01  1.59250267e-07  1.11829955e-07  1.07000000e+00 
 1.08000000e+00  3.13705883e-09  3.31465384e-09  3.26127533e-09  4.58221318e-01  3.40682341e-09  3.40242937e-09  4.58221318e-01  1.59250281e-07  1.11829728e-07  1.08000000e+00 
 1.09000000e+00  3.13705883e-09  3.31465384e-09  3.26127527e-09  4.58221313e-01  3.40682341e-09  3.40242937e-09  4.58221313e-01  1.59250248e-07  1.11829664e-07  1.09000000e+00 
 1.10000000e+00  3.13705883e-09  3.31465384e-09  3.26127533e-09  4.58221315e-01  3.40682341e-09  3.40242937e-09  4.58221315e-01  1.59250261e-07  1.11829678e-07  1.10000000e+00 
