 v-sweep         v(b0)           v(b1)           v(b2)           v(b3)           v(b4)           v(b5)           v(b6)           i(vbias)        i(viout)        v(vout)        
 0.00000000e+00  3.35998475e-09  3.42709341e-09  4.56292678e-01  3.16196650e-09  4.56292678e-01  3.22098485e-09  3.40564963e-09  1.55081024e-07  2.83379684e-08  0.00000000e+00 
 1.00000000e-02  3.35998478e-09  3.42709338e-09  4.56292694e-01  3.16196649e-09  4.56292694e-01  3.22098488e-09  3.40564966e-09  1.55081051e-07  2.83376491e-08  1.00000000e-02 
 2.00000000e-02  3.35998478e-09  3.42709339e-09  4.56292693e-01  3.16196649e-09  4.56292692e-01  3.22098483e-09  3.40564966e-09  1.55081026e-07  2.83371688e-08  2.00000000e-02 
 3.00000000e-02  3.35998472e-09  3.42709338e-09  4.56292695e-01  3.16196649e-09  4.56292695e-01  3.22098488e-09  3.40564966e-09  1.55081049e-07  2.83367982e-08  3.00000000e-02 
 4.00000000e-02  3.35998478e-09  3.42709333e-09  4.56292698e-01  3.16196649e-09  4.56292697e-01  3.22098483e-09  3.40564966e-09  1.55081057e-07  2.83364439e-08  4.00000000e-02 
 5.00000000e-02  3.35998478e-09  3.42709338e-09  4.56292691e-01  3.16196649e-09  4.56292691e-01  3.22098483e-09  3.40564966e-09  1.55081052e-07  2.83361210e-08  5.00000000e-02 
 6.00000000e-02  3.35998478e-09  3.42709338e-09  4.56292694e-01  3.16196649e-09  4.56292694e-01  3.22098483e-09  3.40564971e-09  1.55081036e-07  2.83357857e-08  6.00000000e-02 
 7.00000000e-02  3.35998478e-09  3.42709338e-09  4.56292689e-01  3.16196649e-09  4.56292689e-01  3.22098488e-09  3.40564971e-09  1.55081037e-07  2.83355726e-08  7.00000000e-02 
 8.00000000e-02  3.35998478e-09  3.42709338e-09  4.56292693e-01  3.16196649e-09  4.56292693e-01  3.22098488e-09  3.40564966e-09  1.55081034e-07  2.83352044e-08  8.00000000e-02 
 9.00000000e-02  3.35998478e-09  3.42709338e-09  4.56292689e-01  3.16196649e-09  4.56292689e-01  3.22098488e-09  3.40564971e-09  1.55081041e-07  2.83350552e-08  9.00000000e-02 
 1.00000000e-01  3.35998478e-09  3.42709338e-09  4.56292707e-01  3.16196649e-09  4.56292707e-01  3.22098483e-09  3.40564966e-09  1.55081056e-07  2.83346395e-08  1.00000000e-01 
 1.10000000e-01  3.35998478e-09  3.42709333e-09  4.56292671e-01  3.16196648e-09  4.56292671e-01  3.22098488e-09  3.40564971e-09  1.55081013e-07  2.83344610e-08  1.10000000e-01 
 1.20000000e-01  3.35998478e-09  3.42709333e-09  4.56292713e-01  3.16196649e-09  4.56292713e-01  3.22098489e-09  3.40564966e-09  1.55081086e-07  2.83342265e-08  1.20000000e-01 
 1.30000000e-01  3.35998478e-09  3.42709338e-09  4.56292703e-01  3.16196649e-09  4.56292703e-01  3.22098489e-09  3.40564972e-09  1.55081060e-07  2.83340569e-08  1.30000000e-01 
 1.40000000e-01  3.35998478e-09  3.42709338e-09  4.56292681e-01  3.16196648e-09  4.56292681e-01  3.22098483e-09  3.40564971e-09  1.55081035e-07  2.83339032e-08  1.40000000e-01 
 1.50000000e-01  3.35998478e-09  3.42709338e-09  4.56292677e-01  3.16196648e-09  4.56292677e-01  3.22098483e-09  3.40564966e-09  1.55081026e-07  2.83336838e-08  1.50000000e-01 
 1.60000000e-01  3.35998478e-09  3.42709338e-09  4.56292710e-01  3.16196649e-09  4.56292710e-01  3.22098483e-09  3.40564966e-09  1.55081055e-07  2.83334494e-08  1.60000000e-01 
 1.70000000e-01  3.35998478e-09  3.42709333e-09  4.56292689e-01  3.16196643e-09  4.56292689e-01  3.22098488e-09  3.40564971e-09  1.55081040e-07  2.83332664e-08  1.70000000e-01 
 1.80000000e-01  3.35998478e-09  3.42709338e-09  4.56292690e-01  3.16196649e-09  4.56292690e-01  3.22098488e-09  3.40564971e-09  1.55081034e-07  2.83330994e-08  1.80000000e-01 
 1.90000000e-01  3.35998478e-09  3.42709338e-09  4.56292691e-01  3.16196649e-09  4.56292691e-01  3.22098488e-09  3.40564971e-09  1.55081016e-07  2.83329857e-08  1.90000000e-01 
 2.00000000e-01  3.35998478e-09  3.42709333e-09  4.56292677e-01  3.16196643e-09  4.56292677e-01  3.22098483e-09  3.40564966e-09  1.55081020e-07  2.83328170e-08  2.00000000e-01 
 2.10000000e-01  3.35998478e-09  3.42709338e-09  4.56292699e-01  3.16196649e-09  4.56292699e-01  3.22098488e-09  3.40564966e-09  1.55081049e-07  2.83325807e-08  2.10000000e-01 
 2.20000000e-01  3.35998478e-09  3.42709333e-09  4.56292696e-01  3.16196649e-09  4.56292696e-01  3.22098488e-09  3.40564966e-09  1.55081042e-07  2.83324102e-08  2.20000000e-01 
 2.30000000e-01  3.35998478e-09  3.42709338e-09  4.56292688e-01  3.16196649e-09  4.56292688e-01  3.22098488e-09  3.40564971e-09  1.55081025e-07  2.83324102e-08  2.30000000e-01 
 2.40000000e-01  3.35998478e-09  3.42709333e-09  4.56292691e-01  3.16196649e-09  4.56292691e-01  3.22098483e-09  3.40564966e-09  1.55081044e-07  2.83321739e-08  2.40000000e-01 
 2.50000000e-01  3.35998478e-09  3.42709333e-09  4.56292689e-01  3.16196649e-09  4.56292689e-01  3.22098483e-09  3.40564966e-09  1.55081034e-07  2.83320887e-08  2.50000000e-01 
 2.60000000e-01  3.35998478e-09  3.42709338e-09  4.56292707e-01  3.16196649e-09  4.56292707e-01  3.22098489e-09  3.40564966e-09  1.55081068e-07  2.83320105e-08  2.60000000e-01 
 2.70000000e-01  3.35998478e-09  3.42709338e-09  4.56292687e-01  3.16196649e-09  4.56292687e-01  3.22098488e-09  3.40564966e-09  1.55081033e-07  2.83320034e-08  2.70000000e-01 
 2.80000000e-01  3.35998478e-09  3.42709338e-09  4.56292707e-01  3.16196649e-09  4.56292707e-01  3.22098483e-09  3.40564972e-09  1.55081073e-07  2.83317600e-08  2.80000000e-01 
 2.90000000e-01  3.35998473e-09  3.42709338e-09  4.56292706e-01  3.16196649e-09  4.56292706e-01  3.22098483e-09  3.40564966e-09  1.55081061e-07  2.83317334e-08  2.90000000e-01 
 3.00000000e-01  3.35998478e-09  3.42709338e-09  4.56292700e-01  3.16196649e-09  4.56292700e-01  3.22098483e-09  3.40564966e-09  1.55081053e-07  2.83314812e-08  3.00000000e-01 
 3.10000000e-01  3.35998478e-09  3.42709338e-09  4.56292705e-01  3.16196649e-09  4.56292705e-01  3.22098483e-09  3.40564966e-09  1.55081053e-07  2.83314918e-08  3.10000000e-01 
 3.20000000e-01  3.35998478e-09  3.42709338e-09  4.56292697e-01  3.16196649e-09  4.56292696e-01  3.22098483e-09  3.40564966e-09  1.55081048e-07  2.83313462e-08  3.20000000e-01 
 3.30000000e-01  3.35998472e-09  3.42709338e-09  4.56292705e-01  3.16196643e-09  4.56292705e-01  3.22098489e-09  3.40564966e-09  1.55081061e-07  2.83311579e-08  3.30000000e-01 
 3.40000000e-01  3.35998478e-09  3.42709338e-09  4.56292686e-01  3.16196649e-09  4.56292686e-01  3.22098483e-09  3.40564966e-09  1.55081020e-07  2.83311721e-08  3.40000000e-01 
 3.50000000e-01  3.35998472e-09  3.42709338e-09  4.56292685e-01  3.16196649e-09  4.56292685e-01  3.22098483e-09  3.40564966e-09  1.55081033e-07  2.83310406e-08  3.50000000e-01 
 3.60000000e-01  3.35998478e-09  3.42709338e-09  4.56292687e-01  3.16196649e-09  4.56292687e-01  3.22098488e-09  3.40564971e-09  1.55081021e-07  2.83309660e-08  3.60000000e-01 
 3.70000000e-01  3.35998478e-09  3.42709333e-09  4.56292701e-01  3.16196649e-09  4.56292700e-01  3.22098489e-09  3.40564966e-09  1.55081064e-07  2.83308843e-08  3.70000000e-01 
 3.80000000e-01  3.35998478e-09  3.42709338e-09  4.56292674e-01  3.16196648e-09  4.56292674e-01  3.22098483e-09  3.40564966e-09  1.55081018e-07  2.83308061e-08  3.80000000e-01 
 3.90000000e-01  3.35998478e-09  3.42709338e-09  4.56292703e-01  3.16196649e-09  4.56292703e-01  3.22098483e-09  3.40564966e-09  1.55081047e-07  2.83306925e-08  3.90000000e-01 
 4.00000000e-01  3.35998478e-09  3.42709338e-09  4.56292697e-01  3.16196649e-09  4.56292697e-01  3.22098488e-09  3.40564966e-09  1.55081047e-07  2.83306143e-08  4.00000000e-01 
 4.10000000e-01  3.35998478e-09  3.42709338e-09  4.56292694e-01  3.16196649e-09  4.56292694e-01  3.22098488e-09  3.40564971e-09  1.55081035e-07  2.83305290e-08  4.10000000e-01 
 4.20000000e-01  3.35998478e-09  3.42709338e-09  4.56292682e-01  3.16196648e-09  4.56292682e-01  3.22098488e-09  3.40564966e-09  1.55081026e-07  2.83304900e-08  4.20000000e-01 
 4.30000000e-01  3.35998478e-09  3.42709333e-09  4.56292704e-01  3.16196649e-09  4.56292704e-01  3.22098483e-09  3.40564972e-09  1.55081068e-07  2.83304900e-08  4.30000000e-01 
 4.40000000e-01  3.35998478e-09  3.42709338e-09  4.56292702e-01  3.16196649e-09  4.56292702e-01  3.22098489e-09  3.40564972e-09  1.55081062e-07  2.83304580e-08  4.40000000e-01 
 4.50000000e-01  3.35998478e-09  3.42709338e-09  4.56292696e-01  3.16196649e-09  4.56292696e-01  3.22098483e-09  3.40564966e-09  1.55081056e-07  2.83303976e-08  4.50000000e-01 
 4.60000000e-01  3.35998478e-09  3.42709338e-09  4.56292715e-01  3.16196649e-09  4.56292715e-01  3.22098489e-09  3.40564966e-09  1.55081070e-07  2.83302661e-08  4.60000000e-01 
 4.70000000e-01  3.35998478e-09  3.42709338e-09  4.56292693e-01  3.16196649e-09  4.56292693e-01  3.22098488e-09  3.40564966e-09  1.55081046e-07  2.83302484e-08  4.70000000e-01 
 4.80000000e-01  3.35998478e-09  3.42709338e-09  4.56292706e-01  3.16196649e-09  4.56292705e-01  3.22098489e-09  3.40564966e-09  1.55081048e-07  2.83300636e-08  4.80000000e-01 
 4.90000000e-01  3.35998478e-09  3.42709338e-09  4.56292697e-01  3.16196649e-09  4.56292697e-01  3.22098483e-09  3.40564972e-09  1.55081034e-07  2.83300565e-08  4.90000000e-01 
 5.00000000e-01  3.35998478e-09  3.42709338e-09  4.56292699e-01  3.16196649e-09  4.56292699e-01  3.22098483e-09  3.40564966e-09  1.55081050e-07  2.83299144e-08  5.00000000e-01 
 5.10000000e-01  3.35998478e-09  3.42709333e-09  4.56292697e-01  3.16196649e-09  4.56292696e-01  3.22098483e-09  3.40564966e-09  1.55081036e-07  2.83298895e-08  5.10000000e-01 
 5.20000000e-01  3.35998478e-09  3.42709338e-09  4.56292691e-01  3.16196649e-09  4.56292691e-01  3.22098483e-09  3.40564971e-09  1.55081030e-07  2.83299357e-08  5.20000000e-01 
 5.30000000e-01  3.35998478e-09  3.42709338e-09  4.56292709e-01  3.16196649e-09  4.56292709e-01  3.22098483e-09  3.40564966e-09  1.55081062e-07  2.83298824e-08  5.30000000e-01 
 5.40000000e-01  3.35998472e-09  3.42709338e-09  4.56292692e-01  3.16196654e-09  4.56292692e-01  3.22098488e-09  3.40564966e-09  1.55081032e-07  2.83298611e-08  5.40000000e-01 
 5.50000000e-01  3.35998478e-09  3.42709338e-09  4.56292717e-01  3.16196653e-09  4.56292717e-01  3.22098483e-09  3.40564966e-09  1.55081088e-07  2.83298149e-08  5.50000000e-01 
 5.60000000e-01  3.35998478e-09  3.42709338e-09  4.56292684e-01  3.16196648e-09  4.56292684e-01  3.22098488e-09  3.40564966e-09  1.55081034e-07  2.83297190e-08  5.60000000e-01 
 5.70000000e-01  3.35998478e-09  3.42709338e-09  4.56292682e-01  3.16196649e-09  4.56292682e-01  3.22098483e-09  3.40564966e-09  1.55081022e-07  2.83296266e-08  5.70000000e-01 
 5.80000000e-01  3.35998478e-09  3.42709338e-09  4.56292689e-01  3.16196649e-09  4.56292689e-01  3.22098483e-09  3.40564971e-09  1.55081038e-07  2.83296231e-08  5.80000000e-01 
 5.90000000e-01  3.35998478e-09  3.42709333e-09  4.56292702e-01  3.16196649e-09  4.56292702e-01  3.22098483e-09  3.40564966e-09  1.55081058e-07  2.83296231e-08  5.90000000e-01 
 6.00000000e-01  3.35998478e-09  3.42709338e-09  4.56292695e-01  3.16196649e-09  4.56292695e-01  3.22098483e-09  3.40564966e-09  1.55081042e-07  2.83295520e-08  6.00000000e-01 
 6.10000000e-01  3.35998478e-09  3.42709333e-09  4.56292703e-01  3.16196649e-09  4.56292703e-01  3.22098489e-09  3.40564966e-09  1.55081049e-07  2.83294597e-08  6.10000000e-01 
 6.20000000e-01  3.35998478e-09  3.42709333e-09  4.56292702e-01  3.16196649e-09  4.56292702e-01  3.22098483e-09  3.40564966e-09  1.55081060e-07  2.83293389e-08  6.20000000e-01 
 6.30000000e-01  3.35998478e-09  3.42709338e-09  4.56292682e-01  3.16196648e-09  4.56292682e-01  3.22098488e-09  3.40564966e-09  1.55081030e-07  2.83293105e-08  6.30000000e-01 
 6.40000000e-01  3.35998478e-09  3.42709338e-09  4.56292677e-01  3.16196648e-09  4.56292677e-01  3.22098483e-09  3.40564966e-09  1.55081027e-07  2.83293744e-08  6.40000000e-01 
 6.50000000e-01  3.35998478e-09  3.42709338e-09  4.56292688e-01  3.16196649e-09  4.56292688e-01  3.22098488e-09  3.40564966e-09  1.55081028e-07  2.83292110e-08  6.50000000e-01 
 6.60000000e-01  3.35998478e-09  3.42709338e-09  4.56292696e-01  3.16196649e-09  4.56292696e-01  3.22098488e-09  3.40564972e-09  1.55081040e-07  2.83291754e-08  6.60000000e-01 
 6.70000000e-01  3.35998478e-09  3.42709338e-09  4.56292694e-01  3.16196649e-09  4.56292694e-01  3.22098483e-09  3.40564966e-09  1.55081049e-07  2.83290476e-08  6.70000000e-01 
 6.80000000e-01  3.35998478e-09  3.42709338e-09  4.56292679e-01  3.16196648e-09  4.56292679e-01  3.22098483e-09  3.40564966e-09  1.55081013e-07  2.83290049e-08  6.80000000e-01 
 6.90000000e-01  3.35998478e-09  3.42709338e-09  4.56292715e-01  3.16196649e-09  4.56292715e-01  3.22098483e-09  3.40564966e-09  1.55081071e-07  2.83290049e-08  6.90000000e-01 
 7.00000000e-01  3.35998478e-09  3.42709338e-09  4.56292694e-01  3.16196649e-09  4.56292694e-01  3.22098488e-09  3.40564971e-09  1.55081046e-07  2.83289054e-08  7.00000000e-01 
 7.10000000e-01  3.35998478e-09  3.42709333e-09  4.56292689e-01  3.16196649e-09  4.56292689e-01  3.22098483e-09  3.40564966e-09  1.55081033e-07  2.83289339e-08  7.10000000e-01 
 7.20000000e-01  3.35998478e-09  3.42709338e-09  4.56292693e-01  3.16196649e-09  4.56292693e-01  3.22098488e-09  3.40564966e-09  1.55081043e-07  2.83289268e-08  7.20000000e-01 
 7.30000000e-01  3.35998478e-09  3.42709338e-09  4.56292694e-01  3.16196649e-09  4.56292694e-01  3.22098488e-09  3.40564966e-09  1.55081042e-07  2.83288770e-08  7.30000000e-01 
 7.40000000e-01  3.35998478e-09  3.42709338e-09  4.56292680e-01  3.16196648e-09  4.56292680e-01  3.22098488e-09  3.40564971e-09  1.55081019e-07  2.83287491e-08  7.40000000e-01 
 7.50000000e-01  3.35998478e-09  3.42709338e-09  4.56292692e-01  3.16196649e-09  4.56292692e-01  3.22098488e-09  3.40564971e-09  1.55081038e-07  2.83286852e-08  7.50000000e-01 
 7.60000000e-01  3.35998478e-09  3.42709338e-09  4.56292692e-01  3.16196649e-09  4.56292692e-01  3.22098483e-09  3.40564966e-09  1.55081046e-07  2.83287207e-08  7.60000000e-01 
 7.70000000e-01  3.35998478e-09  3.42709333e-09  4.56292680e-01  3.16196648e-09  4.56292680e-01  3.22098483e-09  3.40564966e-09  1.55081024e-07  2.83285857e-08  7.70000000e-01 
 7.80000000e-01  3.35998478e-09  3.42709338e-09  4.56292697e-01  3.16196649e-09  4.56292697e-01  3.22098488e-09  3.40564966e-09  1.55081048e-07  2.83285360e-08  7.80000000e-01 
 7.90000000e-01  3.35998478e-09  3.42709338e-09  4.56292689e-01  3.16196649e-09  4.56292689e-01  3.22098488e-09  3.40564971e-09  1.55081034e-07  2.83285644e-08  7.90000000e-01 
 8.00000000e-01  3.35998478e-09  3.42709338e-09  4.56292668e-01  3.16196648e-09  4.56292667e-01  3.22098483e-09  3.40564965e-09  1.55080999e-07  2.83283015e-08  8.00000000e-01 
 8.10000000e-01  3.35998478e-09  3.42709338e-09  4.56292712e-01  3.16196649e-09  4.56292712e-01  3.22098489e-09  3.40564972e-09  1.55081069e-07  2.83282588e-08  8.10000000e-01 
 8.20000000e-01  3.35998478e-09  3.42709333e-09  4.56292693e-01  3.16196649e-09  4.56292693e-01  3.22098483e-09  3.40564971e-09  1.55081055e-07  2.83283939e-08  8.20000000e-01 
 8.30000000e-01  3.35998478e-09  3.42709338e-09  4.56292704e-01  3.16196649e-09  4.56292703e-01  3.22098483e-09  3.40564966e-09  1.55081053e-07  2.83283867e-08  8.30000000e-01 
 8.40000000e-01  3.35998478e-09  3.42709338e-09  4.56292698e-01  3.16196649e-09  4.56292698e-01  3.22098488e-09  3.40564972e-09  1.55081040e-07  2.83283228e-08  8.40000000e-01 
 8.50000000e-01  3.35998478e-09  3.42709338e-09  4.56292697e-01  3.16196649e-09  4.56292697e-01  3.22098483e-09  3.40564972e-09  1.55081031e-07  2.83282731e-08  8.50000000e-01 
 8.60000000e-01  3.35998478e-09  3.42709338e-09  4.56292686e-01  3.16196649e-09  4.56292686e-01  3.22098483e-09  3.40564966e-09  1.55081022e-07  2.83281523e-08  8.60000000e-01 
 8.70000000e-01  3.35998478e-09  3.42709333e-09  4.56292705e-01  3.16196649e-09  4.56292705e-01  3.22098489e-09  3.40564966e-09  1.55081061e-07  2.83280528e-08  8.70000000e-01 
 8.80000000e-01  3.35998478e-09  3.42709338e-09  4.56292690e-01  3.16196649e-09  4.56292689e-01  3.22098483e-09  3.40564966e-09  1.55081040e-07  2.83280670e-08  8.80000000e-01 
 8.90000000e-01  3.35998478e-09  3.42709338e-09  4.56292712e-01  3.16196649e-09  4.56292712e-01  3.22098483e-09  3.40564966e-09  1.55081071e-07  2.83280315e-08  8.90000000e-01 
 9.00000000e-01  3.35998478e-09  3.42709338e-09  4.56292686e-01  3.16196649e-09  4.56292686e-01  3.22098483e-09  3.40564966e-09  1.55081043e-07  2.83279320e-08  9.00000000e-01 
 9.10000000e-01  3.35998478e-09  3.42709338e-09  4.56292677e-01  3.16196648e-09  4.56292676e-01  3.22098488e-09  3.40564971e-09  1.55081014e-07  2.83278183e-08  9.10000000e-01 
 9.20000000e-01  3.35998472e-09  3.42709338e-09  4.56292686e-01  3.16196649e-09  4.56292685e-01  3.22098483e-09  3.40564966e-09  1.55081042e-07  2.83278894e-08  9.20000000e-01 
 9.30000000e-01  3.35998478e-09  3.42709338e-09  4.56292677e-01  3.16196648e-09  4.56292677e-01  3.22098488e-09  3.40564966e-09  1.55081024e-07  2.83277686e-08  9.30000000e-01 
 9.40000000e-01  3.35998472e-09  3.42709333e-09  4.56292697e-01  3.16196649e-09  4.56292697e-01  3.22098488e-09  3.40564966e-09  1.55081059e-07  2.83276407e-08  9.40000000e-01 
 9.50000000e-01  3.35998478e-09  3.42709338e-09  4.56292669e-01  3.16196648e-09  4.56292669e-01  3.22098483e-09  3.40564966e-09  1.55081006e-07  2.83276549e-08  9.50000000e-01 
 9.60000000e-01  3.35998478e-09  3.42709338e-09  4.56292702e-01  3.16196649e-09  4.56292702e-01  3.22098483e-09  3.40564972e-09  1.55081057e-07  2.83276123e-08  9.60000000e-01 
 9.70000000e-01  3.35998478e-09  3.42709338e-09  4.56292683e-01  3.16196648e-09  4.56292683e-01  3.22098483e-09  3.40564966e-09  1.55081025e-07  2.83274630e-08  9.70000000e-01 
 9.80000000e-01  3.35998478e-09  3.42709338e-09  4.56292681e-01  3.16196648e-09  4.56292681e-01  3.22098488e-09  3.40564971e-09  1.55081021e-07  2.83274630e-08  9.80000000e-01 
 9.90000000e-01  3.35998478e-09  3.42709333e-09  4.56292698e-01  3.16196649e-09  4.56292698e-01  3.22098483e-09  3.40564966e-09  1.55081051e-07  2.83273849e-08  9.90000000e-01 
 1.00000000e+00  3.35998478e-09  3.42709338e-09  4.56292707e-01  3.16196649e-09  4.56292707e-01  3.22098489e-09  3.40564966e-09  1.55081050e-07  2.83272570e-08  1.00000000e+00 
 1.01000000e+00  3.35998478e-09  3.42709338e-09  4.56292668e-01  3.16196648e-09  4.56292668e-01  3.22098488e-09  3.40564966e-09  1.55081004e-07  2.83271930e-08  1.01000000e+00 
 1.02000000e+00  3.35998478e-09  3.42709338e-09  4.56292671e-01  3.16196648e-09  4.56292671e-01  3.22098488e-09  3.40564971e-09  1.55081009e-07  2.83272499e-08  1.02000000e+00 
 1.03000000e+00  3.35998478e-09  3.42709333e-09  4.56292706e-01  3.16196649e-09  4.56292706e-01  3.22098483e-09  3.40564966e-09  1.55081054e-07  2.83271575e-08  1.03000000e+00 
 1.04000000e+00  3.35998478e-09  3.42709333e-09  4.56292672e-01  3.16196648e-09  4.56292672e-01  3.22098483e-09  3.40564971e-09  1.55081018e-07  2.83270509e-08  1.04000000e+00 
 1.05000000e+00  3.35998478e-09  3.42709333e-09  4.56292678e-01  3.16196643e-09  4.56292678e-01  3.22098483e-09  3.40564966e-09  1.55081019e-07  2.83270225e-08  1.05000000e+00 
 1.06000000e+00  3.35998478e-09  3.42709338e-09  4.56292696e-01  3.16196649e-09  4.56292696e-01  3.22098488e-09  3.40564966e-09  1.55081049e-07  2.83271220e-08  1.06000000e+00 
 1.07000000e+00  3.35998478e-09  3.42709338e-09  4.56292697e-01  3.16196649e-09  4.56292696e-01  3.22098488e-09  3.40564966e-09  1.55081047e-07  2.83269870e-08  1.07000000e+00 
 1.08000000e+00  3.35998478e-09  3.42709338e-09  4.56292682e-01  3.16196648e-09  4.56292682e-01  3.22098488e-09  3.40564966e-09  1.55081031e-07  2.83268804e-08  1.08000000e+00 
 1.09000000e+00  3.35998478e-09  3.42709333e-09  4.56292698e-01  3.16196649e-09  4.56292698e-01  3.22098483e-09  3.40564966e-09  1.55081064e-07  2.83269372e-08  1.09000000e+00 
 1.10000000e+00  3.35998478e-09  3.42709338e-09  4.56292693e-01  3.16196649e-09  4.56292693e-01  3.22098483e-09  3.40564971e-09  1.55081035e-07  2.83267738e-08  1.10000000e+00 
