 v-sweep         v(b0)           v(b1)           v(b2)           v(b3)           v(b4)           v(b5)           v(b6)           i(vbias)        i(viout)        v(vout)        
 0.00000000e+00  3.29300539e-09  4.56596832e-01  3.23765107e-09  3.16775680e-09  3.43920031e-09  3.29746871e-09  3.54177555e-09  1.57147603e-07  2.40620639e-09  0.00000000e+00 
 1.00000000e-02  3.29300543e-09  4.56596859e-01  3.23765105e-09  3.16775682e-09  3.43920028e-09  3.29746874e-09  3.54177552e-09  1.57147643e-07  2.40579601e-09  1.00000000e-02 
 2.00000000e-02  3.29300536e-09  4.56596820e-01  3.23765105e-09  3.16775676e-09  3.43920029e-09  3.29746874e-09  3.54177553e-09  1.57147588e-07  2.40536346e-09  2.00000000e-02 
 3.00000000e-02  3.29300538e-09  4.56596834e-01  3.23765105e-09  3.16775677e-09  3.43920023e-09  3.29746874e-09  3.54177552e-09  1.57147613e-07  2.40491249e-09  3.00000000e-02 
 4.00000000e-02  3.29300537e-09  4.56596839e-01  3.23765105e-09  3.16775677e-09  3.43920023e-09  3.29746869e-09  3.54177552e-09  1.57147609e-07  2.40458542e-09  4.00000000e-02 
 5.00000000e-02  3.29300537e-09  4.56596834e-01  3.23765105e-09  3.16775677e-09  3.43920023e-09  3.29746869e-09  3.54177552e-09  1.57147613e-07  2.40426967e-09  5.00000000e-02 
 6.00000000e-02  3.29300543e-09  4.56596831e-01  3.23765099e-09  3.16775677e-09  3.43920029e-09  3.29746874e-09  3.54177552e-09  1.57147609e-07  2.40381093e-09  6.00000000e-02 
 7.00000000e-02  3.29300536e-09  4.56596833e-01  3.23765105e-09  3.16775677e-09  3.43920029e-09  3.29746869e-09  3.54177552e-09  1.57147612e-07  2.40354003e-09  7.00000000e-02 
 8.00000000e-02  3.29300538e-09  4.56596820e-01  3.23765105e-09  3.16775676e-09  3.43920023e-09  3.29746874e-09  3.54177552e-09  1.57147598e-07  2.40325182e-09  8.00000000e-02 
 9.00000000e-02  3.29300537e-09  4.56596834e-01  3.23765105e-09  3.16775682e-09  3.43920029e-09  3.29746874e-09  3.54177552e-09  1.57147617e-07  2.40293208e-09  9.00000000e-02 
 1.00000000e-01  3.29300537e-09  4.56596836e-01  3.23765099e-09  3.16775677e-09  3.43920023e-09  3.29746869e-09  3.54177552e-09  1.57147615e-07  2.40263187e-09  1.00000000e-01 
 1.10000000e-01  3.29300543e-09  4.56596838e-01  3.23765105e-09  3.16775677e-09  3.43920023e-09  3.29746874e-09  3.54177552e-09  1.57147613e-07  2.40229614e-09  1.10000000e-01 
 1.20000000e-01  3.29300536e-09  4.56596823e-01  3.23765105e-09  3.16775676e-09  3.43920029e-09  3.29746874e-09  3.54177552e-09  1.57147593e-07  2.40200748e-09  1.20000000e-01 
 1.30000000e-01  3.29300543e-09  4.56596836e-01  3.23765105e-09  3.16775677e-09  3.43920029e-09  3.29746869e-09  3.54177552e-09  1.57147632e-07  2.40179787e-09  1.30000000e-01 
 1.40000000e-01  3.29300541e-09  4.56596828e-01  3.23765105e-09  3.16775677e-09  3.43920029e-09  3.29746874e-09  3.54177552e-09  1.57147597e-07  2.40154208e-09  1.40000000e-01 
 1.50000000e-01  3.29300542e-09  4.56596828e-01  3.23765099e-09  3.16775682e-09  3.43920029e-09  3.29746869e-09  3.54177552e-09  1.57147609e-07  2.40129339e-09  1.50000000e-01 
 1.60000000e-01  3.29300542e-09  4.56596825e-01  3.23765105e-09  3.16775677e-09  3.43920029e-09  3.29746874e-09  3.54177552e-09  1.57147588e-07  2.40108022e-09  1.60000000e-01 
 1.70000000e-01  3.29300536e-09  4.56596827e-01  3.23765099e-09  3.16775682e-09  3.43920029e-09  3.29746874e-09  3.54177552e-09  1.57147615e-07  2.40090614e-09  1.70000000e-01 
 1.80000000e-01  3.29300538e-09  4.56596811e-01  3.23765104e-09  3.16775682e-09  3.43920023e-09  3.29746868e-09  3.54177552e-09  1.57147575e-07  2.40066989e-09  1.80000000e-01 
 1.90000000e-01  3.29300537e-09  4.56596827e-01  3.23765105e-09  3.16775682e-09  3.43920023e-09  3.29746869e-09  3.54177552e-09  1.57147600e-07  2.40050824e-09  1.90000000e-01 
 2.00000000e-01  3.29300537e-09  4.56596837e-01  3.23765105e-09  3.16775682e-09  3.43920029e-09  3.29746874e-09  3.54177552e-09  1.57147607e-07  2.40027731e-09  2.00000000e-01 
 2.10000000e-01  3.29300543e-09  4.56596828e-01  3.23765099e-09  3.16775677e-09  3.43920029e-09  3.29746869e-09  3.54177552e-09  1.57147604e-07  2.40012810e-09  2.10000000e-01 
 2.20000000e-01  3.29300541e-09  4.56596821e-01  3.23765105e-09  3.16775676e-09  3.43920029e-09  3.29746869e-09  3.54177552e-09  1.57147591e-07  2.39998776e-09  2.20000000e-01 
 2.30000000e-01  3.29300536e-09  4.56596859e-01  3.23765105e-09  3.16775677e-09  3.43920029e-09  3.29746874e-09  3.54177552e-09  1.57147668e-07  2.39980835e-09  2.30000000e-01 
 2.40000000e-01  3.29300538e-09  4.56596834e-01  3.23765099e-09  3.16775677e-09  3.43920029e-09  3.29746869e-09  3.54177552e-09  1.57147626e-07  2.39967868e-09  2.40000000e-01 
 2.50000000e-01  3.29300537e-09  4.56596844e-01  3.23765105e-09  3.16775677e-09  3.43920023e-09  3.29746869e-09  3.54177552e-09  1.57147632e-07  2.39944953e-09  2.50000000e-01 
 2.60000000e-01  3.29300537e-09  4.56596838e-01  3.23765105e-09  3.16775677e-09  3.43920023e-09  3.29746874e-09  3.54177552e-09  1.57147626e-07  2.39926123e-09  2.60000000e-01 
 2.70000000e-01  3.29300537e-09  4.56596828e-01  3.23765105e-09  3.16775677e-09  3.43920029e-09  3.29746869e-09  3.54177552e-09  1.57147595e-07  2.39914399e-09  2.70000000e-01 
 2.80000000e-01  3.29300537e-09  4.56596840e-01  3.23765105e-09  3.16775682e-09  3.43920023e-09  3.29746874e-09  3.54177552e-09  1.57147634e-07  2.39903208e-09  2.80000000e-01 
 2.90000000e-01  3.29300537e-09  4.56596818e-01  3.23765099e-09  3.16775676e-09  3.43920023e-09  3.29746868e-09  3.54177552e-09  1.57147591e-07  2.39884201e-09  2.90000000e-01 
 3.00000000e-01  3.29300537e-09  4.56596837e-01  3.23765105e-09  3.16775677e-09  3.43920029e-09  3.29746869e-09  3.54177552e-09  1.57147629e-07  2.39866793e-09  3.00000000e-01 
 3.10000000e-01  3.29300537e-09  4.56596821e-01  3.23765105e-09  3.16775682e-09  3.43920023e-09  3.29746869e-09  3.54177552e-09  1.57147598e-07  2.39866083e-09  3.10000000e-01 
 3.20000000e-01  3.29300537e-09  4.56596835e-01  3.23765105e-09  3.16775677e-09  3.43920023e-09  3.29746874e-09  3.54177552e-09  1.57147628e-07  2.39845477e-09  3.20000000e-01 
 3.30000000e-01  3.29300537e-09  4.56596826e-01  3.23765099e-09  3.16775682e-09  3.43920023e-09  3.29746874e-09  3.54177552e-09  1.57147595e-07  2.39836950e-09  3.30000000e-01 
 3.40000000e-01  3.29300543e-09  4.56596842e-01  3.23765099e-09  3.16775682e-09  3.43920029e-09  3.29746874e-09  3.54177552e-09  1.57147629e-07  2.39824516e-09  3.40000000e-01 
 3.50000000e-01  3.29300541e-09  4.56596819e-01  3.23765099e-09  3.16775682e-09  3.43920029e-09  3.29746868e-09  3.54177552e-09  1.57147591e-07  2.39804621e-09  3.50000000e-01 
 3.60000000e-01  3.29300536e-09  4.56596829e-01  3.23765099e-09  3.16775682e-09  3.43920023e-09  3.29746869e-09  3.54177552e-09  1.57147619e-07  2.39792897e-09  3.60000000e-01 
 3.70000000e-01  3.29300538e-09  4.56596812e-01  3.23765104e-09  3.16775676e-09  3.43920029e-09  3.29746874e-09  3.54177552e-09  1.57147586e-07  2.39786502e-09  3.70000000e-01 
 3.80000000e-01  3.29300537e-09  4.56596840e-01  3.23765105e-09  3.16775677e-09  3.43920029e-09  3.29746869e-09  3.54177552e-09  1.57147631e-07  2.39769449e-09  3.80000000e-01 
 3.90000000e-01  3.29300543e-09  4.56596820e-01  3.23765105e-09  3.16775682e-09  3.43920023e-09  3.29746874e-09  3.54177552e-09  1.57147585e-07  2.39750975e-09  3.90000000e-01 
 4.00000000e-01  3.29300536e-09  4.56596846e-01  3.23765105e-09  3.16775682e-09  3.43920029e-09  3.29746869e-09  3.54177552e-09  1.57147622e-07  2.39739251e-09  4.00000000e-01 
 4.10000000e-01  3.29300538e-09  4.56596823e-01  3.23765099e-09  3.16775682e-09  3.43920029e-09  3.29746869e-09  3.54177552e-09  1.57147590e-07  2.39734632e-09  4.10000000e-01 
 4.20000000e-01  3.29300543e-09  4.56596834e-01  3.23765105e-09  3.16775682e-09  3.43920029e-09  3.29746874e-09  3.54177552e-09  1.57147628e-07  2.39714382e-09  4.20000000e-01 
 4.30000000e-01  3.29300536e-09  4.56596820e-01  3.23765105e-09  3.16775682e-09  3.43920023e-09  3.29746874e-09  3.54177552e-09  1.57147588e-07  2.39708342e-09  4.30000000e-01 
 4.40000000e-01  3.29300543e-09  4.56596825e-01  3.23765105e-09  3.16775677e-09  3.43920029e-09  3.29746869e-09  3.54177552e-09  1.57147599e-07  2.39701592e-09  4.40000000e-01 
 4.50000000e-01  3.29300536e-09  4.56596846e-01  3.23765105e-09  3.16775682e-09  3.43920029e-09  3.29746874e-09  3.54177552e-09  1.57147628e-07  2.39699105e-09  4.50000000e-01 
 4.60000000e-01  3.29300538e-09  4.56596834e-01  3.23765105e-09  3.16775682e-09  3.43920029e-09  3.29746869e-09  3.54177552e-09  1.57147615e-07  2.39687381e-09  4.60000000e-01 
 4.70000000e-01  3.29300537e-09  4.56596821e-01  3.23765105e-09  3.16775682e-09  3.43920029e-09  3.29746874e-09  3.54177552e-09  1.57147599e-07  2.39671039e-09  4.70000000e-01 
 4.80000000e-01  3.29300537e-09  4.56596850e-01  3.23765105e-09  3.16775682e-09  3.43920029e-09  3.29746874e-09  3.54177552e-09  1.57147639e-07  2.39661446e-09  4.80000000e-01 
 4.90000000e-01  3.29300537e-09  4.56596847e-01  3.23765105e-09  3.16775677e-09  3.43920023e-09  3.29746869e-09  3.54177552e-09  1.57147628e-07  2.39655051e-09  4.90000000e-01 
 5.00000000e-01  3.29300537e-09  4.56596822e-01  3.23765105e-09  3.16775682e-09  3.43920029e-09  3.29746874e-09  3.54177552e-09  1.57147584e-07  2.39635867e-09  5.00000000e-01 
 5.10000000e-01  3.29300537e-09  4.56596845e-01  3.23765105e-09  3.16775682e-09  3.43920023e-09  3.29746869e-09  3.54177552e-09  1.57147644e-07  2.39625564e-09  5.10000000e-01 
 5.20000000e-01  3.29300537e-09  4.56596837e-01  3.23765105e-09  3.16775682e-09  3.43920023e-09  3.29746874e-09  3.54177552e-09  1.57147635e-07  2.39619524e-09  5.20000000e-01 
 5.30000000e-01  3.29300537e-09  4.56596839e-01  3.23765105e-09  3.16775677e-09  3.43920029e-09  3.29746874e-09  3.54177552e-09  1.57147622e-07  2.39613485e-09  5.30000000e-01 
 5.40000000e-01  3.29300537e-09  4.56596829e-01  3.23765105e-09  3.16775677e-09  3.43920023e-09  3.29746869e-09  3.54177552e-09  1.57147597e-07  2.39607445e-09  5.40000000e-01 
 5.50000000e-01  3.29300543e-09  4.56596843e-01  3.23765105e-09  3.16775677e-09  3.43920029e-09  3.29746874e-09  3.54177552e-09  1.57147640e-07  2.39588971e-09  5.50000000e-01 
 5.60000000e-01  3.29300536e-09  4.56596852e-01  3.23765105e-09  3.16775682e-09  3.43920029e-09  3.29746869e-09  3.54177552e-09  1.57147648e-07  2.39571918e-09  5.60000000e-01 
 5.70000000e-01  3.29300538e-09  4.56596837e-01  3.23765105e-09  3.16775682e-09  3.43920029e-09  3.29746869e-09  3.54177552e-09  1.57147611e-07  2.39580800e-09  5.70000000e-01 
 5.80000000e-01  3.29300537e-09  4.56596832e-01  3.23765105e-09  3.16775677e-09  3.43920029e-09  3.29746874e-09  3.54177552e-09  1.57147621e-07  2.39560194e-09  5.80000000e-01 
 5.90000000e-01  3.29300537e-09  4.56596843e-01  3.23765099e-09  3.16775677e-09  3.43920023e-09  3.29746869e-09  3.54177552e-09  1.57147628e-07  2.39556641e-09  5.90000000e-01 
 6.00000000e-01  3.29300537e-09  4.56596830e-01  3.23765105e-09  3.16775677e-09  3.43920029e-09  3.29746874e-09  3.54177552e-09  1.57147603e-07  2.39543141e-09  6.00000000e-01 
 6.10000000e-01  3.29300537e-09  4.56596842e-01  3.23765099e-09  3.16775677e-09  3.43920029e-09  3.29746874e-09  3.54177552e-09  1.57147620e-07  2.39528930e-09  6.10000000e-01 
 6.20000000e-01  3.29300537e-09  4.56596834e-01  3.23765105e-09  3.16775677e-09  3.43920023e-09  3.29746874e-09  3.54177552e-09  1.57147606e-07  2.39529641e-09  6.20000000e-01 
 6.30000000e-01  3.29300537e-09  4.56596831e-01  3.23765105e-09  3.16775677e-09  3.43920023e-09  3.29746869e-09  3.54177552e-09  1.57147621e-07  2.39518272e-09  6.30000000e-01 
 6.40000000e-01  3.29300537e-09  4.56596833e-01  3.23765105e-09  3.16775677e-09  3.43920029e-09  3.29746869e-09  3.54177552e-09  1.57147612e-07  2.39504772e-09  6.40000000e-01 
 6.50000000e-01  3.29300537e-09  4.56596841e-01  3.23765105e-09  3.16775677e-09  3.43920029e-09  3.29746874e-09  3.54177552e-09  1.57147617e-07  2.39488429e-09  6.50000000e-01 
 6.60000000e-01  3.29300543e-09  4.56596819e-01  3.23765104e-09  3.16775682e-09  3.43920029e-09  3.29746868e-09  3.54177552e-09  1.57147607e-07  2.39486297e-09  6.60000000e-01 
 6.70000000e-01  3.29300541e-09  4.56596836e-01  3.23765105e-09  3.16775677e-09  3.43920029e-09  3.29746874e-09  3.54177552e-09  1.57147630e-07  2.39487008e-09  6.70000000e-01 
 6.80000000e-01  3.29300536e-09  4.56596823e-01  3.23765105e-09  3.16775676e-09  3.43920023e-09  3.29746869e-09  3.54177552e-09  1.57147607e-07  2.39465692e-09  6.80000000e-01 
 6.90000000e-01  3.29300538e-09  4.56596853e-01  3.23765099e-09  3.16775682e-09  3.43920023e-09  3.29746869e-09  3.54177552e-09  1.57147650e-07  2.39464271e-09  6.90000000e-01 
 7.00000000e-01  3.29300537e-09  4.56596830e-01  3.23765105e-09  3.16775677e-09  3.43920023e-09  3.29746869e-09  3.54177552e-09  1.57147600e-07  2.39446507e-09  7.00000000e-01 
 7.10000000e-01  3.29300537e-09  4.56596861e-01  3.23765105e-09  3.16775682e-09  3.43920029e-09  3.29746869e-09  3.54177552e-09  1.57147658e-07  2.39440112e-09  7.10000000e-01 
 7.20000000e-01  3.29300537e-09  4.56596850e-01  3.23765105e-09  3.16775682e-09  3.43920029e-09  3.29746869e-09  3.54177552e-09  1.57147646e-07  2.39438691e-09  7.20000000e-01 
 7.30000000e-01  3.29300537e-09  4.56596852e-01  3.23765105e-09  3.16775677e-09  3.43920029e-09  3.29746874e-09  3.54177552e-09  1.57147637e-07  2.39423059e-09  7.30000000e-01 
 7.40000000e-01  3.29300537e-09  4.56596829e-01  3.23765105e-09  3.16775682e-09  3.43920029e-09  3.29746874e-09  3.54177552e-09  1.57147611e-07  2.39410980e-09  7.40000000e-01 
 7.50000000e-01  3.29300543e-09  4.56596839e-01  3.23765105e-09  3.16775677e-09  3.43920029e-09  3.29746869e-09  3.54177552e-09  1.57147627e-07  2.39401743e-09  7.50000000e-01 
 7.60000000e-01  3.29300542e-09  4.56596852e-01  3.23765105e-09  3.16775682e-09  3.43920029e-09  3.29746874e-09  3.54177552e-09  1.57147628e-07  2.39383979e-09  7.60000000e-01 
 7.70000000e-01  3.29300536e-09  4.56596844e-01  3.23765105e-09  3.16775677e-09  3.43920023e-09  3.29746869e-09  3.54177552e-09  1.57147633e-07  2.39383979e-09  7.70000000e-01 
 7.80000000e-01  3.29300543e-09  4.56596831e-01  3.23765105e-09  3.16775677e-09  3.43920023e-09  3.29746869e-09  3.54177552e-09  1.57147601e-07  2.39371900e-09  7.80000000e-01 
 7.90000000e-01  3.29300542e-09  4.56596849e-01  3.23765105e-09  3.16775682e-09  3.43920029e-09  3.29746869e-09  3.54177552e-09  1.57147643e-07  2.39365505e-09  7.90000000e-01 
 8.00000000e-01  3.29300542e-09  4.56596838e-01  3.23765099e-09  3.16775677e-09  3.43920029e-09  3.29746874e-09  3.54177552e-09  1.57147621e-07  2.39344899e-09  8.00000000e-01 
 8.10000000e-01  3.29300536e-09  4.56596831e-01  3.23765105e-09  3.16775677e-09  3.43920029e-09  3.29746869e-09  3.54177552e-09  1.57147608e-07  2.39327136e-09  8.10000000e-01 
 8.20000000e-01  3.29300538e-09  4.56596836e-01  3.23765105e-09  3.16775677e-09  3.43920029e-09  3.29746869e-09  3.54177552e-09  1.57147615e-07  2.39321452e-09  8.20000000e-01 
 8.30000000e-01  3.29300543e-09  4.56596844e-01  3.23765105e-09  3.16775682e-09  3.43920023e-09  3.29746874e-09  3.54177552e-09  1.57147629e-07  2.39320030e-09  8.30000000e-01 
 8.40000000e-01  3.29300541e-09  4.56596836e-01  3.23765105e-09  3.16775677e-09  3.43920023e-09  3.29746869e-09  3.54177552e-09  1.57147620e-07  2.39317188e-09  8.40000000e-01 
 8.50000000e-01  3.29300542e-09  4.56596824e-01  3.23765105e-09  3.16775677e-09  3.43920023e-09  3.29746869e-09  3.54177552e-09  1.57147596e-07  2.39300135e-09  8.50000000e-01 
 8.60000000e-01  3.29300542e-09  4.56596838e-01  3.23765105e-09  3.16775677e-09  3.43920029e-09  3.29746874e-09  3.54177552e-09  1.57147625e-07  2.39291609e-09  8.60000000e-01 
 8.70000000e-01  3.29300536e-09  4.56596825e-01  3.23765105e-09  3.16775682e-09  3.43920023e-09  3.29746869e-09  3.54177552e-09  1.57147594e-07  2.39280951e-09  8.70000000e-01 
 8.80000000e-01  3.29300538e-09  4.56596838e-01  3.23765105e-09  3.16775682e-09  3.43920029e-09  3.29746869e-09  3.54177552e-09  1.57147620e-07  2.39274556e-09  8.80000000e-01 
 8.90000000e-01  3.29300543e-09  4.56596813e-01  3.23765104e-09  3.16775676e-09  3.43920029e-09  3.29746868e-09  3.54177552e-09  1.57147584e-07  2.39259634e-09  8.90000000e-01 
 9.00000000e-01  3.29300536e-09  4.56596838e-01  3.23765105e-09  3.16775682e-09  3.43920029e-09  3.29746874e-09  3.54177552e-09  1.57147628e-07  2.39241871e-09  9.00000000e-01 
 9.10000000e-01  3.29300543e-09  4.56596820e-01  3.23765105e-09  3.16775682e-09  3.43920029e-09  3.29746874e-09  3.54177552e-09  1.57147583e-07  2.39237608e-09  9.10000000e-01 
 9.20000000e-01  3.29300536e-09  4.56596841e-01  3.23765105e-09  3.16775682e-09  3.43920023e-09  3.29746874e-09  3.54177552e-09  1.57147629e-07  2.39234765e-09  9.20000000e-01 
 9.30000000e-01  3.29300538e-09  4.56596835e-01  3.23765105e-09  3.16775682e-09  3.43920029e-09  3.29746869e-09  3.54177552e-09  1.57147620e-07  2.39221976e-09  9.30000000e-01 
 9.40000000e-01  3.29300537e-09  4.56596833e-01  3.23765105e-09  3.16775682e-09  3.43920029e-09  3.29746874e-09  3.54177552e-09  1.57147609e-07  2.39211317e-09  9.40000000e-01 
 9.50000000e-01  3.29300537e-09  4.56596833e-01  3.23765105e-09  3.16775682e-09  3.43920029e-09  3.29746874e-09  3.54177552e-09  1.57147621e-07  2.39208475e-09  9.50000000e-01 
 9.60000000e-01  3.29300537e-09  4.56596834e-01  3.23765105e-09  3.16775677e-09  3.43920029e-09  3.29746874e-09  3.54177552e-09  1.57147612e-07  2.39186448e-09  9.60000000e-01 
 9.70000000e-01  3.29300537e-09  4.56596849e-01  3.23765105e-09  3.16775677e-09  3.43920029e-09  3.29746874e-09  3.54177552e-09  1.57147642e-07  2.39184317e-09  9.70000000e-01 
 9.80000000e-01  3.29300537e-09  4.56596824e-01  3.23765105e-09  3.16775682e-09  3.43920029e-09  3.29746869e-09  3.54177552e-09  1.57147602e-07  2.39167264e-09  9.80000000e-01 
 9.90000000e-01  3.29300543e-09  4.56596815e-01  3.23765099e-09  3.16775676e-09  3.43920029e-09  3.29746868e-09  3.54177552e-09  1.57147585e-07  2.39145947e-09  9.90000000e-01 
 1.00000000e+00  3.29300541e-09  4.56596828e-01  3.23765105e-09  3.16775677e-09  3.43920023e-09  3.29746874e-09  3.54177552e-09  1.57147606e-07  2.39139553e-09  1.00000000e+00 
 1.01000000e+00  3.29300536e-09  4.56596835e-01  3.23765105e-09  3.16775682e-09  3.43920029e-09  3.29746874e-09  3.54177552e-09  1.57147612e-07  2.39133868e-09  1.01000000e+00 
 1.02000000e+00  3.29300543e-09  4.56596840e-01  3.23765105e-09  3.16775677e-09  3.43920023e-09  3.29746869e-09  3.54177552e-09  1.57147623e-07  2.39127473e-09  1.02000000e+00 
 1.03000000e+00  3.29300536e-09  4.56596833e-01  3.23765105e-09  3.16775677e-09  3.43920023e-09  3.29746869e-09  3.54177552e-09  1.57147600e-07  2.39121078e-09  1.03000000e+00 
 1.04000000e+00  3.29300538e-09  4.56596848e-01  3.23765105e-09  3.16775677e-09  3.43920029e-09  3.29746874e-09  3.54177552e-09  1.57147637e-07  2.39090525e-09  1.04000000e+00 
 1.05000000e+00  3.29300537e-09  4.56596817e-01  3.23765104e-09  3.16775676e-09  3.43920029e-09  3.29746874e-09  3.54177552e-09  1.57147579e-07  2.39093367e-09  1.05000000e+00 
 1.06000000e+00  3.29300537e-09  4.56596848e-01  3.23765105e-09  3.16775677e-09  3.43920029e-09  3.29746869e-09  3.54177552e-09  1.57147652e-07  2.39070630e-09  1.06000000e+00 
 1.07000000e+00  3.29300537e-09  4.56596853e-01  3.23765105e-09  3.16775677e-09  3.43920023e-09  3.29746874e-09  3.54177552e-09  1.57147648e-07  2.39072762e-09  1.07000000e+00 
 1.08000000e+00  3.29300537e-09  4.56596833e-01  3.23765105e-09  3.16775682e-09  3.43920029e-09  3.29746869e-09  3.54177552e-09  1.57147601e-07  2.39064235e-09  1.08000000e+00 
 1.09000000e+00  3.29300537e-09  4.56596856e-01  3.23765105e-09  3.16775677e-09  3.43920029e-09  3.29746869e-09  3.54177552e-09  1.57147649e-07  2.39052156e-09  1.09000000e+00 
 1.10000000e+00  3.29300543e-09  4.56596837e-01  3.23765099e-09  3.16775677e-09  3.43920023e-09  3.29746869e-09  3.54177552e-09  1.57147620e-07  2.39036524e-09  1.10000000e+00 
