 v-sweep         v(b0)           v(b1)           v(b2)           v(b3)           v(b4)           v(b5)           v(b6)           i(vbias)        i(viout)        v(vout)        
 0.00000000e+00  4.58258942e-01  3.30605520e-09  4.58258942e-01  4.58258942e-01  4.58258942e-01  4.58258942e-01  4.58258942e-01  1.59792830e-07  1.92448010e-07  0.00000000e+00 
 1.00000000e-02  4.58258920e-01  3.30605524e-09  4.58258920e-01  4.58258921e-01  4.58258920e-01  4.58258920e-01  4.58258920e-01  1.59792790e-07  1.92447405e-07  1.00000000e-02 
 2.00000000e-02  4.58258976e-01  3.30605525e-09  4.58258976e-01  4.58258976e-01  4.58258976e-01  4.58258976e-01  4.58258976e-01  1.59792884e-07  1.92447102e-07  2.00000000e-02 
 3.00000000e-02  4.58258941e-01  3.30605524e-09  4.58258941e-01  4.58258942e-01  4.58258941e-01  4.58258941e-01  4.58258941e-01  1.59792829e-07  1.92446603e-07  3.00000000e-02 
 4.00000000e-02  4.58258947e-01  3.30605524e-09  4.58258947e-01  4.58258947e-01  4.58258947e-01  4.58258947e-01  4.58258947e-01  1.59792828e-07  1.92446293e-07  4.00000000e-02 
 5.00000000e-02  4.58258958e-01  3.30605524e-09  4.58258958e-01  4.58258958e-01  4.58258958e-01  4.58258958e-01  4.58258958e-01  1.59792854e-07  1.92445933e-07  5.00000000e-02 
 6.00000000e-02  4.58258957e-01  3.30605519e-09  4.58258957e-01  4.58258957e-01  4.58258957e-01  4.58258957e-01  4.58258957e-01  1.59792843e-07  1.92445500e-07  6.00000000e-02 
 7.00000000e-02  4.58258938e-01  3.30605524e-09  4.58258938e-01  4.58258938e-01  4.58258938e-01  4.58258938e-01  4.58258938e-01  1.59792822e-07  1.92445062e-07  7.00000000e-02 
 8.00000000e-02  4.58258967e-01  3.30605525e-09  4.58258967e-01  4.58258967e-01  4.58258967e-01  4.58258967e-01  4.58258967e-01  1.59792869e-07  1.92444847e-07  8.00000000e-02 
 9.00000000e-02  4.58258974e-01  3.30605519e-09  4.58258974e-01  4.58258974e-01  4.58258974e-01  4.58258974e-01  4.58258974e-01  1.59792868e-07  1.92444358e-07  9.00000000e-02 
 1.00000000e-01  4.58258942e-01  3.30605524e-09  4.58258942e-01  4.58258942e-01  4.58258942e-01  4.58258942e-01  4.58258942e-01  1.59792838e-07  1.92443931e-07  1.00000000e-01 
 1.10000000e-01  4.58258962e-01  3.30605525e-09  4.58258962e-01  4.58258962e-01  4.58258962e-01  4.58258962e-01  4.58258962e-01  1.59792855e-07  1.92443794e-07  1.10000000e-01 
 1.20000000e-01  4.58258950e-01  3.30605519e-09  4.58258950e-01  4.58258950e-01  4.58258950e-01  4.58258950e-01  4.58258950e-01  1.59792843e-07  1.92443319e-07  1.20000000e-01 
 1.30000000e-01  4.58258932e-01  3.30605524e-09  4.58258932e-01  4.58258932e-01  4.58258932e-01  4.58258932e-01  4.58258932e-01  1.59792821e-07  1.92442922e-07  1.30000000e-01 
 1.40000000e-01  4.58258933e-01  3.30605524e-09  4.58258933e-01  4.58258934e-01  4.58258933e-01  4.58258933e-01  4.58258933e-01  1.59792812e-07  1.92442667e-07  1.40000000e-01 
 1.50000000e-01  4.58258986e-01  3.30605519e-09  4.58258986e-01  4.58258986e-01  4.58258986e-01  4.58258986e-01  4.58258986e-01  1.59792879e-07  1.92442640e-07  1.50000000e-01 
 1.60000000e-01  4.58258933e-01  3.30605524e-09  4.58258933e-01  4.58258933e-01  4.58258933e-01  4.58258933e-01  4.58258933e-01  1.59792822e-07  1.92442082e-07  1.60000000e-01 
 1.70000000e-01  4.58258944e-01  3.30605524e-09  4.58258944e-01  4.58258944e-01  4.58258944e-01  4.58258944e-01  4.58258944e-01  1.59792832e-07  1.92441860e-07  1.70000000e-01 
 1.80000000e-01  4.58258955e-01  3.30605524e-09  4.58258955e-01  4.58258956e-01  4.58258955e-01  4.58258955e-01  4.58258955e-01  1.59792835e-07  1.92441615e-07  1.80000000e-01 
 1.90000000e-01  4.58258960e-01  3.30605519e-09  4.58258960e-01  4.58258960e-01  4.58258960e-01  4.58258960e-01  4.58258960e-01  1.59792849e-07  1.92441393e-07  1.90000000e-01 
 2.00000000e-01  4.58258928e-01  3.30605524e-09  4.58258928e-01  4.58258929e-01  4.58258928e-01  4.58258928e-01  4.58258928e-01  1.59792814e-07  1.92441012e-07  2.00000000e-01 
 2.10000000e-01  4.58258959e-01  3.30605524e-09  4.58258959e-01  4.58258959e-01  4.58258959e-01  4.58258959e-01  4.58258959e-01  1.59792859e-07  1.92440913e-07  2.10000000e-01 
 2.20000000e-01  4.58258947e-01  3.30605524e-09  4.58258947e-01  4.58258947e-01  4.58258947e-01  4.58258946e-01  4.58258947e-01  1.59792845e-07  1.92440671e-07  2.20000000e-01 
 2.30000000e-01  4.58258939e-01  3.30605524e-09  4.58258939e-01  4.58258939e-01  4.58258939e-01  4.58258939e-01  4.58258939e-01  1.59792822e-07  1.92440448e-07  2.30000000e-01 
 2.40000000e-01  4.58258960e-01  3.30605524e-09  4.58258960e-01  4.58258960e-01  4.58258960e-01  4.58258960e-01  4.58258960e-01  1.59792854e-07  1.92440316e-07  2.40000000e-01 
 2.50000000e-01  4.58258934e-01  3.30605524e-09  4.58258934e-01  4.58258934e-01  4.58258934e-01  4.58258934e-01  4.58258934e-01  1.59792805e-07  1.92439888e-07  2.50000000e-01 
 2.60000000e-01  4.58258943e-01  3.30605524e-09  4.58258943e-01  4.58258943e-01  4.58258943e-01  4.58258943e-01  4.58258943e-01  1.59792826e-07  1.92439758e-07  2.60000000e-01 
 2.70000000e-01  4.58258940e-01  3.30605524e-09  4.58258940e-01  4.58258940e-01  4.58258940e-01  4.58258939e-01  4.58258940e-01  1.59792820e-07  1.92439584e-07  2.70000000e-01 
 2.80000000e-01  4.58258935e-01  3.30605524e-09  4.58258935e-01  4.58258935e-01  4.58258935e-01  4.58258935e-01  4.58258935e-01  1.59792807e-07  1.92439394e-07  2.80000000e-01 
 2.90000000e-01  4.58258949e-01  3.30605519e-09  4.58258949e-01  4.58258949e-01  4.58258949e-01  4.58258949e-01  4.58258949e-01  1.59792852e-07  1.92439209e-07  2.90000000e-01 
 3.00000000e-01  4.58258960e-01  3.30605524e-09  4.58258960e-01  4.58258960e-01  4.58258960e-01  4.58258960e-01  4.58258960e-01  1.59792844e-07  1.92439089e-07  3.00000000e-01 
 3.10000000e-01  4.58258958e-01  3.30605519e-09  4.58258958e-01  4.58258958e-01  4.58258958e-01  4.58258958e-01  4.58258958e-01  1.59792844e-07  1.92438847e-07  3.10000000e-01 
 3.20000000e-01  4.58258959e-01  3.30605524e-09  4.58258959e-01  4.58258959e-01  4.58258959e-01  4.58258959e-01  4.58258959e-01  1.59792858e-07  1.92438740e-07  3.20000000e-01 
 3.30000000e-01  4.58258959e-01  3.30605524e-09  4.58258959e-01  4.58258959e-01  4.58258959e-01  4.58258959e-01  4.58258959e-01  1.59792869e-07  1.92438520e-07  3.30000000e-01 
 3.40000000e-01  4.58258974e-01  3.30605525e-09  4.58258975e-01  4.58258975e-01  4.58258975e-01  4.58258974e-01  4.58258975e-01  1.59792879e-07  1.92438392e-07  3.40000000e-01 
 3.50000000e-01  4.58258942e-01  3.30605524e-09  4.58258942e-01  4.58258943e-01  4.58258942e-01  4.58258942e-01  4.58258942e-01  1.59792826e-07  1.92438076e-07  3.50000000e-01 
 3.60000000e-01  4.58258912e-01  3.30605524e-09  4.58258912e-01  4.58258912e-01  4.58258912e-01  4.58258912e-01  4.58258912e-01  1.59792798e-07  1.92437781e-07  3.60000000e-01 
 3.70000000e-01  4.58258953e-01  3.30605519e-09  4.58258953e-01  4.58258953e-01  4.58258953e-01  4.58258953e-01  4.58258953e-01  1.59792849e-07  1.92437856e-07  3.70000000e-01 
 3.80000000e-01  4.58258949e-01  3.30605519e-09  4.58258949e-01  4.58258950e-01  4.58258949e-01  4.58258949e-01  4.58258949e-01  1.59792843e-07  1.92437575e-07  3.80000000e-01 
 3.90000000e-01  4.58258936e-01  3.30605518e-09  4.58258936e-01  4.58258936e-01  4.58258936e-01  4.58258936e-01  4.58258936e-01  1.59792822e-07  1.92437358e-07  3.90000000e-01 
 4.00000000e-01  4.58258960e-01  3.30605524e-09  4.58258960e-01  4.58258960e-01  4.58258960e-01  4.58258960e-01  4.58258960e-01  1.59792858e-07  1.92437209e-07  4.00000000e-01 
 4.10000000e-01  4.58258953e-01  3.30605524e-09  4.58258953e-01  4.58258953e-01  4.58258953e-01  4.58258953e-01  4.58258953e-01  1.59792834e-07  1.92437017e-07  4.10000000e-01 
 4.20000000e-01  4.58258953e-01  3.30605524e-09  4.58258953e-01  4.58258953e-01  4.58258953e-01  4.58258953e-01  4.58258953e-01  1.59792854e-07  1.92436875e-07  4.20000000e-01 
 4.30000000e-01  4.58258977e-01  3.30605525e-09  4.58258977e-01  4.58258977e-01  4.58258977e-01  4.58258976e-01  4.58258977e-01  1.59792871e-07  1.92436843e-07  4.30000000e-01 
 4.40000000e-01  4.58258960e-01  3.30605519e-09  4.58258960e-01  4.58258960e-01  4.58258960e-01  4.58258960e-01  4.58258960e-01  1.59792852e-07  1.92436634e-07  4.40000000e-01 
 4.50000000e-01  4.58258925e-01  3.30605524e-09  4.58258925e-01  4.58258925e-01  4.58258925e-01  4.58258925e-01  4.58258925e-01  1.59792802e-07  1.92436357e-07  4.50000000e-01 
 4.60000000e-01  4.58258936e-01  3.30605518e-09  4.58258936e-01  4.58258936e-01  4.58258936e-01  4.58258936e-01  4.58258936e-01  1.59792807e-07  1.92436246e-07  4.60000000e-01 
 4.70000000e-01  4.58258935e-01  3.30605518e-09  4.58258935e-01  4.58258935e-01  4.58258935e-01  4.58258935e-01  4.58258935e-01  1.59792812e-07  1.92436143e-07  4.70000000e-01 
 4.80000000e-01  4.58258974e-01  3.30605519e-09  4.58258974e-01  4.58258974e-01  4.58258974e-01  4.58258974e-01  4.58258974e-01  1.59792853e-07  1.92436087e-07  4.80000000e-01 
 4.90000000e-01  4.58258896e-01  3.30605518e-09  4.58258896e-01  4.58258896e-01  4.58258896e-01  4.58258896e-01  4.58258896e-01  1.59792762e-07  1.92435518e-07  4.90000000e-01 
 5.00000000e-01  4.58258951e-01  3.30605519e-09  4.58258951e-01  4.58258951e-01  4.58258951e-01  4.58258951e-01  4.58258951e-01  1.59792830e-07  1.92435571e-07  5.00000000e-01 
 5.10000000e-01  4.58258980e-01  3.30605525e-09  4.58258980e-01  4.58258980e-01  4.58258980e-01  4.58258980e-01  4.58258980e-01  1.59792880e-07  1.92435653e-07  5.10000000e-01 
 5.20000000e-01  4.58258956e-01  3.30605524e-09  4.58258956e-01  4.58258956e-01  4.58258956e-01  4.58258956e-01  4.58258956e-01  1.59792851e-07  1.92435458e-07  5.20000000e-01 
 5.30000000e-01  4.58258976e-01  3.30605525e-09  4.58258976e-01  4.58258976e-01  4.58258976e-01  4.58258976e-01  4.58258976e-01  1.59792877e-07  1.92435312e-07  5.30000000e-01 
 5.40000000e-01  4.58258966e-01  3.30605525e-09  4.58258966e-01  4.58258967e-01  4.58258966e-01  4.58258966e-01  4.58258966e-01  1.59792856e-07  1.92435124e-07  5.40000000e-01 
 5.50000000e-01  4.58258942e-01  3.30605524e-09  4.58258942e-01  4.58258942e-01  4.58258942e-01  4.58258942e-01  4.58258942e-01  1.59792835e-07  1.92434896e-07  5.50000000e-01 
 5.60000000e-01  4.58258960e-01  3.30605524e-09  4.58258960e-01  4.58258960e-01  4.58258960e-01  4.58258960e-01  4.58258960e-01  1.59792856e-07  1.92434786e-07  5.60000000e-01 
 5.70000000e-01  4.58258928e-01  3.30605524e-09  4.58258928e-01  4.58258928e-01  4.58258928e-01  4.58258928e-01  4.58258928e-01  1.59792805e-07  1.92434481e-07  5.70000000e-01 
 5.80000000e-01  4.58258959e-01  3.30605519e-09  4.58258959e-01  4.58258960e-01  4.58258960e-01  4.58258959e-01  4.58258960e-01  1.59792861e-07  1.92434406e-07  5.80000000e-01 
 5.90000000e-01  4.58258954e-01  3.30605524e-09  4.58258954e-01  4.58258954e-01  4.58258954e-01  4.58258954e-01  4.58258954e-01  1.59792846e-07  1.92434257e-07  5.90000000e-01 
 6.00000000e-01  4.58258946e-01  3.30605524e-09  4.58258946e-01  4.58258946e-01  4.58258946e-01  4.58258946e-01  4.58258946e-01  1.59792836e-07  1.92434065e-07  6.00000000e-01 
 6.10000000e-01  4.58258935e-01  3.30605518e-09  4.58258935e-01  4.58258935e-01  4.58258935e-01  4.58258935e-01  4.58258935e-01  1.59792812e-07  1.92433845e-07  6.10000000e-01 
 6.20000000e-01  4.58258939e-01  3.30605524e-09  4.58258939e-01  4.58258940e-01  4.58258939e-01  4.58258939e-01  4.58258939e-01  1.59792813e-07  1.92433781e-07  6.20000000e-01 
 6.30000000e-01  4.58258960e-01  3.30605524e-09  4.58258960e-01  4.58258960e-01  4.58258960e-01  4.58258960e-01  4.58258960e-01  1.59792845e-07  1.92433731e-07  6.30000000e-01 
 6.40000000e-01  4.58258913e-01  3.30605524e-09  4.58258913e-01  4.58258913e-01  4.58258913e-01  4.58258913e-01  4.58258913e-01  1.59792782e-07  1.92433355e-07  6.40000000e-01 
 6.50000000e-01  4.58258937e-01  3.30605518e-09  4.58258937e-01  4.58258938e-01  4.58258937e-01  4.58258937e-01  4.58258937e-01  1.59792828e-07  1.92433241e-07  6.50000000e-01 
 6.60000000e-01  4.58258963e-01  3.30605525e-09  4.58258963e-01  4.58258963e-01  4.58258963e-01  4.58258963e-01  4.58258963e-01  1.59792867e-07  1.92433255e-07  6.60000000e-01 
 6.70000000e-01  4.58258942e-01  3.30605524e-09  4.58258942e-01  4.58258942e-01  4.58258942e-01  4.58258942e-01  4.58258942e-01  1.59792818e-07  1.92432886e-07  6.70000000e-01 
 6.80000000e-01  4.58258952e-01  3.30605519e-09  4.58258952e-01  4.58258953e-01  4.58258952e-01  4.58258952e-01  4.58258952e-01  1.59792845e-07  1.92432843e-07  6.80000000e-01 
 6.90000000e-01  4.58258952e-01  3.30605524e-09  4.58258952e-01  4.58258952e-01  4.58258952e-01  4.58258952e-01  4.58258952e-01  1.59792859e-07  1.92432651e-07  6.90000000e-01 
 7.00000000e-01  4.58258972e-01  3.30605525e-09  4.58258972e-01  4.58258972e-01  4.58258972e-01  4.58258972e-01  4.58258972e-01  1.59792877e-07  1.92432580e-07  7.00000000e-01 
 7.10000000e-01  4.58258947e-01  3.30605519e-09  4.58258947e-01  4.58258947e-01  4.58258947e-01  4.58258947e-01  4.58258947e-01  1.59792831e-07  1.92432402e-07  7.10000000e-01 
 7.20000000e-01  4.58258962e-01  3.30605519e-09  4.58258962e-01  4.58258962e-01  4.58258962e-01  4.58258962e-01  4.58258962e-01  1.59792863e-07  1.92432353e-07  7.20000000e-01 
 7.30000000e-01  4.58258940e-01  3.30605524e-09  4.58258940e-01  4.58258940e-01  4.58258940e-01  4.58258940e-01  4.58258940e-01  1.59792841e-07  1.92432019e-07  7.30000000e-01 
 7.40000000e-01  4.58258921e-01  3.30605524e-09  4.58258921e-01  4.58258921e-01  4.58258921e-01  4.58258921e-01  4.58258921e-01  1.59792800e-07  1.92431756e-07  7.40000000e-01 
 7.50000000e-01  4.58258926e-01  3.30605524e-09  4.58258926e-01  4.58258926e-01  4.58258926e-01  4.58258926e-01  4.58258926e-01  1.59792817e-07  1.92431571e-07  7.50000000e-01 
 7.60000000e-01  4.58258964e-01  3.30605525e-09  4.58258964e-01  4.58258964e-01  4.58258964e-01  4.58258964e-01  4.58258964e-01  1.59792862e-07  1.92431614e-07  7.60000000e-01 
 7.70000000e-01  4.58258958e-01  3.30605524e-09  4.58258958e-01  4.58258958e-01  4.58258958e-01  4.58258958e-01  4.58258958e-01  1.59792858e-07  1.92431472e-07  7.70000000e-01 
 7.80000000e-01  4.58258928e-01  3.30605524e-09  4.58258928e-01  4.58258928e-01  4.58258928e-01  4.58258928e-01  4.58258928e-01  1.59792811e-07  1.92431109e-07  7.80000000e-01 
 7.90000000e-01  4.58258966e-01  3.30605525e-09  4.58258966e-01  4.58258966e-01  4.58258966e-01  4.58258966e-01  4.58258966e-01  1.59792861e-07  1.92431052e-07  7.90000000e-01 
 8.00000000e-01  4.58258942e-01  3.30605519e-09  4.58258942e-01  4.58258942e-01  4.58258942e-01  4.58258942e-01  4.58258942e-01  1.59792819e-07  1.92430825e-07  8.00000000e-01 
 8.10000000e-01  4.58258931e-01  3.30605518e-09  4.58258931e-01  4.58258931e-01  4.58258931e-01  4.58258931e-01  4.58258931e-01  1.59792810e-07  1.92430662e-07  8.10000000e-01 
 8.20000000e-01  4.58258931e-01  3.30605518e-09  4.58258931e-01  4.58258931e-01  4.58258931e-01  4.58258931e-01  4.58258931e-01  1.59792811e-07  1.92430505e-07  8.20000000e-01 
 8.30000000e-01  4.58258962e-01  3.30605525e-09  4.58258962e-01  4.58258963e-01  4.58258962e-01  4.58258962e-01  4.58258962e-01  1.59792855e-07  1.92430491e-07  8.30000000e-01 
 8.40000000e-01  4.58258966e-01  3.30605525e-09  4.58258966e-01  4.58258967e-01  4.58258966e-01  4.58258966e-01  4.58258966e-01  1.59792856e-07  1.92430271e-07  8.40000000e-01 
 8.50000000e-01  4.58258942e-01  3.30605524e-09  4.58258942e-01  4.58258942e-01  4.58258942e-01  4.58258942e-01  4.58258942e-01  1.59792834e-07  1.92430022e-07  8.50000000e-01 
 8.60000000e-01  4.58258936e-01  3.30605518e-09  4.58258936e-01  4.58258936e-01  4.58258936e-01  4.58258936e-01  4.58258936e-01  1.59792820e-07  1.92429916e-07  8.60000000e-01 
 8.70000000e-01  4.58258951e-01  3.30605524e-09  4.58258951e-01  4.58258951e-01  4.58258951e-01  4.58258951e-01  4.58258951e-01  1.59792842e-07  1.92429710e-07  8.70000000e-01 
 8.80000000e-01  4.58258989e-01  3.30605525e-09  4.58258989e-01  4.58258990e-01  4.58258989e-01  4.58258989e-01  4.58258989e-01  1.59792895e-07  1.92429681e-07  8.80000000e-01 
 8.90000000e-01  4.58258931e-01  3.30605518e-09  4.58258931e-01  4.58258932e-01  4.58258931e-01  4.58258931e-01  4.58258931e-01  1.59792819e-07  1.92429333e-07  8.90000000e-01 
 9.00000000e-01  4.58258944e-01  3.30605524e-09  4.58258944e-01  4.58258944e-01  4.58258944e-01  4.58258943e-01  4.58258944e-01  1.59792842e-07  1.92429091e-07  9.00000000e-01 
 9.10000000e-01  4.58258964e-01  3.30605519e-09  4.58258964e-01  4.58258965e-01  4.58258964e-01  4.58258964e-01  4.58258964e-01  1.59792868e-07  1.92429106e-07  9.10000000e-01 
 9.20000000e-01  4.58258939e-01  3.30605524e-09  4.58258939e-01  4.58258939e-01  4.58258939e-01  4.58258939e-01  4.58258939e-01  1.59792824e-07  1.92428722e-07  9.20000000e-01 
 9.30000000e-01  4.58258929e-01  3.30605524e-09  4.58258929e-01  4.58258930e-01  4.58258929e-01  4.58258929e-01  4.58258929e-01  1.59792819e-07  1.92428473e-07  9.30000000e-01 
 9.40000000e-01  4.58258945e-01  3.30605524e-09  4.58258945e-01  4.58258946e-01  4.58258946e-01  4.58258945e-01  4.58258946e-01  1.59792822e-07  1.92428473e-07  9.40000000e-01 
 9.50000000e-01  4.58258982e-01  3.30605525e-09  4.58258982e-01  4.58258983e-01  4.58258982e-01  4.58258982e-01  4.58258982e-01  1.59792888e-07  1.92428402e-07  9.50000000e-01 
 9.60000000e-01  4.58258959e-01  3.30605524e-09  4.58258959e-01  4.58258959e-01  4.58258959e-01  4.58258959e-01  4.58258959e-01  1.59792850e-07  1.92428118e-07  9.60000000e-01 
 9.70000000e-01  4.58258965e-01  3.30605519e-09  4.58258965e-01  4.58258965e-01  4.58258965e-01  4.58258965e-01  4.58258965e-01  1.59792859e-07  1.92428068e-07  9.70000000e-01 
 9.80000000e-01  4.58258954e-01  3.30605524e-09  4.58258954e-01  4.58258954e-01  4.58258954e-01  4.58258954e-01  4.58258954e-01  1.59792854e-07  1.92427798e-07  9.80000000e-01 
 9.90000000e-01  4.58258931e-01  3.30605524e-09  4.58258931e-01  4.58258931e-01  4.58258931e-01  4.58258931e-01  4.58258931e-01  1.59792804e-07  1.92427365e-07  9.90000000e-01 
 1.00000000e+00  4.58258913e-01  3.30605518e-09  4.58258913e-01  4.58258914e-01  4.58258913e-01  4.58258913e-01  4.58258913e-01  1.59792784e-07  1.92427208e-07  1.00000000e+00 
 1.01000000e+00  4.58258960e-01  3.30605524e-09  4.58258960e-01  4.58258960e-01  4.58258960e-01  4.58258959e-01  4.58258960e-01  1.59792860e-07  1.92427230e-07  1.01000000e+00 
 1.02000000e+00  4.58258939e-01  3.30605518e-09  4.58258939e-01  4.58258939e-01  4.58258939e-01  4.58258939e-01  4.58258939e-01  1.59792822e-07  1.92426924e-07  1.02000000e+00 
 1.03000000e+00  4.58258955e-01  3.30605519e-09  4.58258955e-01  4.58258955e-01  4.58258955e-01  4.58258955e-01  4.58258955e-01  1.59792850e-07  1.92426718e-07  1.03000000e+00 
 1.04000000e+00  4.58258972e-01  3.30605525e-09  4.58258972e-01  4.58258972e-01  4.58258972e-01  4.58258971e-01  4.58258972e-01  1.59792865e-07  1.92426583e-07  1.04000000e+00 
 1.05000000e+00  4.58258947e-01  3.30605524e-09  4.58258947e-01  4.58258947e-01  4.58258947e-01  4.58258947e-01  4.58258947e-01  1.59792852e-07  1.92426327e-07  1.05000000e+00 
 1.06000000e+00  4.58258952e-01  3.30605524e-09  4.58258952e-01  4.58258952e-01  4.58258952e-01  4.58258952e-01  4.58258952e-01  1.59792853e-07  1.92426072e-07  1.06000000e+00 
 1.07000000e+00  4.58258950e-01  3.30605519e-09  4.58258950e-01  4.58258951e-01  4.58258950e-01  4.58258950e-01  4.58258950e-01  1.59792833e-07  1.92425915e-07  1.07000000e+00 
 1.08000000e+00  4.58258969e-01  3.30605525e-09  4.58258969e-01  4.58258970e-01  4.58258969e-01  4.58258969e-01  4.58258969e-01  1.59792855e-07  1.92425787e-07  1.08000000e+00 
 1.09000000e+00  4.58258929e-01  3.30605524e-09  4.58258929e-01  4.58258929e-01  4.58258929e-01  4.58258929e-01  4.58258929e-01  1.59792810e-07  1.92425404e-07  1.09000000e+00 
 1.10000000e+00  4.58258925e-01  3.30605524e-09  4.58258925e-01  4.58258925e-01  4.58258925e-01  4.58258925e-01  4.58258925e-01  1.59792810e-07  1.92425112e-07  1.10000000e+00 
