 v-sweep         v(b0)           v(b1)           v(b2)           v(b3)           v(b4)           v(b5)           v(b6)           i(vbias)        i(viout)        v(vout)        
 0.00000000e+00  4.57005782e-01  4.57005782e-01  4.57005782e-01  3.39607618e-09  3.40129864e-09  4.57005782e-01  3.42729499e-09  1.55101905e-07  5.54800385e-08  0.00000000e+00 
 1.00000000e-02  4.57005796e-01  4.57005796e-01  4.57005796e-01  3.39607615e-09  3.40129862e-09  4.57005796e-01  3.42729502e-09  1.55101930e-07  5.54795796e-08  1.00000000e-02 
 2.00000000e-02  4.57005758e-01  4.57005758e-01  4.57005758e-01  3.39607615e-09  3.40129867e-09  4.57005758e-01  3.42729502e-09  1.55101881e-07  5.54791115e-08  2.00000000e-02 
 3.00000000e-02  4.57005772e-01  4.57005773e-01  4.57005773e-01  3.39607615e-09  3.40129862e-09  4.57005773e-01  3.42729496e-09  1.55101891e-07  5.54788941e-08  3.00000000e-02 
 4.00000000e-02  4.57005789e-01  4.57005789e-01  4.57005789e-01  3.39607615e-09  3.40129867e-09  4.57005789e-01  3.42729496e-09  1.55101917e-07  5.54784250e-08  4.00000000e-02 
 5.00000000e-02  4.57005776e-01  4.57005776e-01  4.57005776e-01  3.39607615e-09  3.40129862e-09  4.57005776e-01  3.42729496e-09  1.55101887e-07  5.54780315e-08  5.00000000e-02 
 6.00000000e-02  4.57005751e-01  4.57005751e-01  4.57005751e-01  3.39607615e-09  3.40129861e-09  4.57005751e-01  3.42729502e-09  1.55101869e-07  5.54778081e-08  6.00000000e-02 
 7.00000000e-02  4.57005768e-01  4.57005768e-01  4.57005768e-01  3.39607615e-09  3.40129867e-09  4.57005768e-01  3.42729496e-09  1.55101890e-07  5.54775306e-08  7.00000000e-02 
 8.00000000e-02  4.57005791e-01  4.57005791e-01  4.57005791e-01  3.39607615e-09  3.40129862e-09  4.57005791e-01  3.42729496e-09  1.55101901e-07  5.54772477e-08  8.00000000e-02 
 9.00000000e-02  4.57005768e-01  4.57005768e-01  4.57005768e-01  3.39607615e-09  3.40129862e-09  4.57005768e-01  3.42729502e-09  1.55101879e-07  5.54769022e-08  9.00000000e-02 
 1.00000000e-01  4.57005783e-01  4.57005783e-01  4.57005783e-01  3.39607615e-09  3.40129867e-09  4.57005783e-01  3.42729496e-09  1.55101917e-07  5.54767396e-08  1.00000000e-01 
 1.10000000e-01  4.57005757e-01  4.57005758e-01  4.57005757e-01  3.39607615e-09  3.40129867e-09  4.57005758e-01  3.42729496e-09  1.55101858e-07  5.54764226e-08  1.10000000e-01 
 1.20000000e-01  4.57005776e-01  4.57005776e-01  4.57005776e-01  3.39607615e-09  3.40129862e-09  4.57005776e-01  3.42729496e-09  1.55101899e-07  5.54761277e-08  1.20000000e-01 
 1.30000000e-01  4.57005785e-01  4.57005785e-01  4.57005785e-01  3.39607615e-09  3.40129862e-09  4.57005785e-01  3.42729496e-09  1.55101901e-07  5.54758977e-08  1.30000000e-01 
 1.40000000e-01  4.57005766e-01  4.57005766e-01  4.57005766e-01  3.39607615e-09  3.40129862e-09  4.57005766e-01  3.42729496e-09  1.55101886e-07  5.54756987e-08  1.40000000e-01 
 1.50000000e-01  4.57005784e-01  4.57005784e-01  4.57005784e-01  3.39607615e-09  3.40129867e-09  4.57005784e-01  3.42729496e-09  1.55101913e-07  5.54755228e-08  1.50000000e-01 
 1.60000000e-01  4.57005771e-01  4.57005771e-01  4.57005771e-01  3.39607615e-09  3.40129867e-09  4.57005771e-01  3.42729502e-09  1.55101883e-07  5.54752724e-08  1.60000000e-01 
 1.70000000e-01  4.57005794e-01  4.57005794e-01  4.57005794e-01  3.39607615e-09  3.40129862e-09  4.57005794e-01  3.42729502e-09  1.55101912e-07  5.54751765e-08  1.70000000e-01 
 1.80000000e-01  4.57005774e-01  4.57005774e-01  4.57005774e-01  3.39607615e-09  3.40129862e-09  4.57005774e-01  3.42729496e-09  1.55101890e-07  5.54749526e-08  1.80000000e-01 
 1.90000000e-01  4.57005789e-01  4.57005789e-01  4.57005789e-01  3.39607615e-09  3.40129862e-09  4.57005789e-01  3.42729496e-09  1.55101920e-07  5.54748780e-08  1.90000000e-01 
 2.00000000e-01  4.57005779e-01  4.57005779e-01  4.57005779e-01  3.39607615e-09  3.40129867e-09  4.57005779e-01  3.42729496e-09  1.55101900e-07  5.54746240e-08  2.00000000e-01 
 2.10000000e-01  4.57005759e-01  4.57005759e-01  4.57005759e-01  3.39607615e-09  3.40129861e-09  4.57005759e-01  3.42729496e-09  1.55101864e-07  5.54744428e-08  2.10000000e-01 
 2.20000000e-01  4.57005754e-01  4.57005754e-01  4.57005754e-01  3.39607615e-09  3.40129861e-09  4.57005754e-01  3.42729496e-09  1.55101869e-07  5.54743078e-08  2.20000000e-01 
 2.30000000e-01  4.57005770e-01  4.57005770e-01  4.57005770e-01  3.39607615e-09  3.40129862e-09  4.57005770e-01  3.42729496e-09  1.55101890e-07  5.54741924e-08  2.30000000e-01 
 2.40000000e-01  4.57005755e-01  4.57005755e-01  4.57005755e-01  3.39607615e-09  3.40129867e-09  4.57005755e-01  3.42729502e-09  1.55101865e-07  5.54740485e-08  2.40000000e-01 
 2.50000000e-01  4.57005754e-01  4.57005754e-01  4.57005754e-01  3.39607615e-09  3.40129861e-09  4.57005754e-01  3.42729496e-09  1.55101867e-07  5.54737749e-08  2.50000000e-01 
 2.60000000e-01  4.57005788e-01  4.57005788e-01  4.57005788e-01  3.39607615e-09  3.40129862e-09  4.57005788e-01  3.42729502e-09  1.55101925e-07  5.54738318e-08  2.60000000e-01 
 2.70000000e-01  4.57005804e-01  4.57005804e-01  4.57005804e-01  3.39607616e-09  3.40129868e-09  4.57005804e-01  3.42729497e-09  1.55101940e-07  5.54737891e-08  2.70000000e-01 
 2.80000000e-01  4.57005779e-01  4.57005779e-01  4.57005779e-01  3.39607615e-09  3.40129862e-09  4.57005779e-01  3.42729502e-09  1.55101910e-07  5.54734516e-08  2.80000000e-01 
 2.90000000e-01  4.57005783e-01  4.57005783e-01  4.57005783e-01  3.39607615e-09  3.40129862e-09  4.57005783e-01  3.42729496e-09  1.55101920e-07  5.54734534e-08  2.90000000e-01 
 3.00000000e-01  4.57005799e-01  4.57005799e-01  4.57005799e-01  3.39607615e-09  3.40129862e-09  4.57005799e-01  3.42729496e-09  1.55101937e-07  5.54732438e-08  3.00000000e-01 
 3.10000000e-01  4.57005758e-01  4.57005758e-01  4.57005758e-01  3.39607615e-09  3.40129861e-09  4.57005758e-01  3.42729496e-09  1.55101864e-07  5.54732580e-08  3.10000000e-01 
 3.20000000e-01  4.57005803e-01  4.57005803e-01  4.57005803e-01  3.39607616e-09  3.40129862e-09  4.57005803e-01  3.42729497e-09  1.55101940e-07  5.54731905e-08  3.20000000e-01 
 3.30000000e-01  4.57005777e-01  4.57005777e-01  4.57005777e-01  3.39607615e-09  3.40129862e-09  4.57005777e-01  3.42729496e-09  1.55101899e-07  5.54730839e-08  3.30000000e-01 
 3.40000000e-01  4.57005785e-01  4.57005785e-01  4.57005785e-01  3.39607615e-09  3.40129862e-09  4.57005785e-01  3.42729496e-09  1.55101914e-07  5.54729063e-08  3.40000000e-01 
 3.50000000e-01  4.57005784e-01  4.57005784e-01  4.57005784e-01  3.39607615e-09  3.40129867e-09  4.57005784e-01  3.42729496e-09  1.55101909e-07  5.54728388e-08  3.50000000e-01 
 3.60000000e-01  4.57005771e-01  4.57005771e-01  4.57005771e-01  3.39607615e-09  3.40129867e-09  4.57005771e-01  3.42729496e-09  1.55101895e-07  5.54727784e-08  3.60000000e-01 
 3.70000000e-01  4.57005761e-01  4.57005762e-01  4.57005761e-01  3.39607615e-09  3.40129867e-09  4.57005762e-01  3.42729496e-09  1.55101887e-07  5.54726114e-08  3.70000000e-01 
 3.80000000e-01  4.57005763e-01  4.57005764e-01  4.57005763e-01  3.39607615e-09  3.40129862e-09  4.57005763e-01  3.42729496e-09  1.55101878e-07  5.54725403e-08  3.80000000e-01 
 3.90000000e-01  4.57005776e-01  4.57005776e-01  4.57005776e-01  3.39607615e-09  3.40129862e-09  4.57005776e-01  3.42729502e-09  1.55101910e-07  5.54724728e-08  3.90000000e-01 
 4.00000000e-01  4.57005791e-01  4.57005791e-01  4.57005791e-01  3.39607615e-09  3.40129862e-09  4.57005791e-01  3.42729496e-09  1.55101915e-07  5.54724835e-08  4.00000000e-01 
 4.10000000e-01  4.57005772e-01  4.57005772e-01  4.57005772e-01  3.39607615e-09  3.40129862e-09  4.57005772e-01  3.42729496e-09  1.55101879e-07  5.54724124e-08  4.10000000e-01 
 4.20000000e-01  4.57005775e-01  4.57005775e-01  4.57005775e-01  3.39607615e-09  3.40129867e-09  4.57005775e-01  3.42729496e-09  1.55101903e-07  5.54722952e-08  4.20000000e-01 
 4.30000000e-01  4.57005776e-01  4.57005776e-01  4.57005776e-01  3.39607615e-09  3.40129862e-09  4.57005776e-01  3.42729496e-09  1.55101889e-07  5.54721780e-08  4.30000000e-01 
 4.40000000e-01  4.57005780e-01  4.57005780e-01  4.57005780e-01  3.39607610e-09  3.40129867e-09  4.57005780e-01  3.42729496e-09  1.55101909e-07  5.54721993e-08  4.40000000e-01 
 4.50000000e-01  4.57005772e-01  4.57005772e-01  4.57005772e-01  3.39607615e-09  3.40129867e-09  4.57005772e-01  3.42729496e-09  1.55101887e-07  5.54719648e-08  4.50000000e-01 
 4.60000000e-01  4.57005778e-01  4.57005778e-01  4.57005778e-01  3.39607610e-09  3.40129867e-09  4.57005778e-01  3.42729496e-09  1.55101901e-07  5.54719755e-08  4.60000000e-01 
 4.70000000e-01  4.57005783e-01  4.57005783e-01  4.57005783e-01  3.39607615e-09  3.40129862e-09  4.57005783e-01  3.42729496e-09  1.55101907e-07  5.54718547e-08  4.70000000e-01 
 4.80000000e-01  4.57005762e-01  4.57005762e-01  4.57005762e-01  3.39607615e-09  3.40129862e-09  4.57005762e-01  3.42729496e-09  1.55101873e-07  5.54719080e-08  4.80000000e-01 
 4.90000000e-01  4.57005763e-01  4.57005763e-01  4.57005763e-01  3.39607615e-09  3.40129862e-09  4.57005763e-01  3.42729496e-09  1.55101884e-07  5.54717801e-08  4.90000000e-01 
 5.00000000e-01  4.57005758e-01  4.57005758e-01  4.57005758e-01  3.39607615e-09  3.40129861e-09  4.57005758e-01  3.42729496e-09  1.55101882e-07  5.54717374e-08  5.00000000e-01 
 5.10000000e-01  4.57005784e-01  4.57005784e-01  4.57005784e-01  3.39607615e-09  3.40129867e-09  4.57005784e-01  3.42729496e-09  1.55101916e-07  5.54716522e-08  5.10000000e-01 
 5.20000000e-01  4.57005780e-01  4.57005780e-01  4.57005780e-01  3.39607615e-09  3.40129862e-09  4.57005780e-01  3.42729496e-09  1.55101887e-07  5.54716095e-08  5.20000000e-01 
 5.30000000e-01  4.57005782e-01  4.57005782e-01  4.57005782e-01  3.39607615e-09  3.40129862e-09  4.57005782e-01  3.42729496e-09  1.55101900e-07  5.54715172e-08  5.30000000e-01 
 5.40000000e-01  4.57005776e-01  4.57005776e-01  4.57005776e-01  3.39607615e-09  3.40129862e-09  4.57005776e-01  3.42729502e-09  1.55101896e-07  5.54713857e-08  5.40000000e-01 
 5.50000000e-01  4.57005796e-01  4.57005796e-01  4.57005796e-01  3.39607615e-09  3.40129867e-09  4.57005796e-01  3.42729496e-09  1.55101928e-07  5.54714958e-08  5.50000000e-01 
 5.60000000e-01  4.57005794e-01  4.57005794e-01  4.57005794e-01  3.39607615e-09  3.40129862e-09  4.57005794e-01  3.42729496e-09  1.55101918e-07  5.54713147e-08  5.60000000e-01 
 5.70000000e-01  4.57005763e-01  4.57005763e-01  4.57005763e-01  3.39607615e-09  3.40129862e-09  4.57005763e-01  3.42729496e-09  1.55101871e-07  5.54712543e-08  5.70000000e-01 
 5.80000000e-01  4.57005739e-01  4.57005739e-01  4.57005739e-01  3.39607615e-09  3.40129867e-09  4.57005739e-01  3.42729496e-09  1.55101854e-07  5.54711903e-08  5.80000000e-01 
 5.90000000e-01  4.57005794e-01  4.57005794e-01  4.57005794e-01  3.39607615e-09  3.40129867e-09  4.57005794e-01  3.42729496e-09  1.55101926e-07  5.54712329e-08  5.90000000e-01 
 6.00000000e-01  4.57005797e-01  4.57005798e-01  4.57005797e-01  3.39607615e-09  3.40129867e-09  4.57005798e-01  3.42729496e-09  1.55101923e-07  5.54711619e-08  6.00000000e-01 
 6.10000000e-01  4.57005772e-01  4.57005772e-01  4.57005772e-01  3.39607610e-09  3.40129867e-09  4.57005772e-01  3.42729502e-09  1.55101898e-07  5.54710269e-08  6.10000000e-01 
 6.20000000e-01  4.57005784e-01  4.57005784e-01  4.57005784e-01  3.39607615e-09  3.40129862e-09  4.57005784e-01  3.42729496e-09  1.55101908e-07  5.54710482e-08  6.20000000e-01 
 6.30000000e-01  4.57005769e-01  4.57005769e-01  4.57005769e-01  3.39607610e-09  3.40129867e-09  4.57005769e-01  3.42729496e-09  1.55101894e-07  5.54709274e-08  6.30000000e-01 
 6.40000000e-01  4.57005753e-01  4.57005753e-01  4.57005753e-01  3.39607615e-09  3.40129861e-09  4.57005753e-01  3.42729502e-09  1.55101871e-07  5.54709061e-08  6.40000000e-01 
 6.50000000e-01  4.57005740e-01  4.57005740e-01  4.57005740e-01  3.39607615e-09  3.40129867e-09  4.57005740e-01  3.42729502e-09  1.55101844e-07  5.54707498e-08  6.50000000e-01 
 6.60000000e-01  4.57005765e-01  4.57005765e-01  4.57005765e-01  3.39607615e-09  3.40129867e-09  4.57005765e-01  3.42729496e-09  1.55101883e-07  5.54707569e-08  6.60000000e-01 
 6.70000000e-01  4.57005761e-01  4.57005761e-01  4.57005761e-01  3.39607615e-09  3.40129867e-09  4.57005761e-01  3.42729496e-09  1.55101886e-07  5.54706503e-08  6.70000000e-01 
 6.80000000e-01  4.57005765e-01  4.57005765e-01  4.57005765e-01  3.39607615e-09  3.40129862e-09  4.57005765e-01  3.42729496e-09  1.55101889e-07  5.54706432e-08  6.80000000e-01 
 6.90000000e-01  4.57005770e-01  4.57005771e-01  4.57005770e-01  3.39607615e-09  3.40129867e-09  4.57005771e-01  3.42729502e-09  1.55101905e-07  5.54706361e-08  6.90000000e-01 
 7.00000000e-01  4.57005755e-01  4.57005755e-01  4.57005755e-01  3.39607615e-09  3.40129861e-09  4.57005755e-01  3.42729496e-09  1.55101867e-07  5.54704300e-08  7.00000000e-01 
 7.10000000e-01  4.57005784e-01  4.57005784e-01  4.57005784e-01  3.39607615e-09  3.40129862e-09  4.57005784e-01  3.42729502e-09  1.55101920e-07  5.54705011e-08  7.10000000e-01 
 7.20000000e-01  4.57005771e-01  4.57005772e-01  4.57005771e-01  3.39607615e-09  3.40129867e-09  4.57005772e-01  3.42729502e-09  1.55101883e-07  5.54704584e-08  7.20000000e-01 
 7.30000000e-01  4.57005758e-01  4.57005758e-01  4.57005758e-01  3.39607615e-09  3.40129861e-09  4.57005758e-01  3.42729496e-09  1.55101877e-07  5.54702879e-08  7.30000000e-01 
 7.40000000e-01  4.57005781e-01  4.57005781e-01  4.57005781e-01  3.39607615e-09  3.40129867e-09  4.57005781e-01  3.42729502e-09  1.55101903e-07  5.54703234e-08  7.40000000e-01 
 7.50000000e-01  4.57005751e-01  4.57005751e-01  4.57005751e-01  3.39607615e-09  3.40129867e-09  4.57005751e-01  3.42729496e-09  1.55101852e-07  5.54701316e-08  7.50000000e-01 
 7.60000000e-01  4.57005764e-01  4.57005764e-01  4.57005764e-01  3.39607615e-09  3.40129867e-09  4.57005764e-01  3.42729496e-09  1.55101882e-07  5.54701742e-08  7.60000000e-01 
 7.70000000e-01  4.57005771e-01  4.57005771e-01  4.57005771e-01  3.39607615e-09  3.40129867e-09  4.57005771e-01  3.42729502e-09  1.55101895e-07  5.54700463e-08  7.70000000e-01 
 7.80000000e-01  4.57005786e-01  4.57005786e-01  4.57005786e-01  3.39607615e-09  3.40129862e-09  4.57005786e-01  3.42729496e-09  1.55101919e-07  5.54700037e-08  7.80000000e-01 
 7.90000000e-01  4.57005765e-01  4.57005765e-01  4.57005765e-01  3.39607615e-09  3.40129862e-09  4.57005765e-01  3.42729496e-09  1.55101868e-07  5.54699469e-08  7.90000000e-01 
 8.00000000e-01  4.57005755e-01  4.57005755e-01  4.57005755e-01  3.39607615e-09  3.40129861e-09  4.57005755e-01  3.42729496e-09  1.55101868e-07  5.54698829e-08  8.00000000e-01 
 8.10000000e-01  4.57005753e-01  4.57005753e-01  4.57005753e-01  3.39607615e-09  3.40129867e-09  4.57005753e-01  3.42729502e-09  1.55101858e-07  5.54697479e-08  8.10000000e-01 
 8.20000000e-01  4.57005786e-01  4.57005786e-01  4.57005786e-01  3.39607615e-09  3.40129862e-09  4.57005786e-01  3.42729496e-09  1.55101916e-07  5.54697408e-08  8.20000000e-01 
 8.30000000e-01  4.57005784e-01  4.57005784e-01  4.57005784e-01  3.39607615e-09  3.40129867e-09  4.57005784e-01  3.42729496e-09  1.55101897e-07  5.54697195e-08  8.30000000e-01 
 8.40000000e-01  4.57005798e-01  4.57005798e-01  4.57005798e-01  3.39607615e-09  3.40129867e-09  4.57005798e-01  3.42729496e-09  1.55101927e-07  5.54696626e-08  8.40000000e-01 
 8.50000000e-01  4.57005762e-01  4.57005762e-01  4.57005762e-01  3.39607615e-09  3.40129862e-09  4.57005762e-01  3.42729502e-09  1.55101868e-07  5.54695418e-08  8.50000000e-01 
 8.60000000e-01  4.57005746e-01  4.57005746e-01  4.57005746e-01  3.39607615e-09  3.40129861e-09  4.57005746e-01  3.42729496e-09  1.55101869e-07  5.54694708e-08  8.60000000e-01 
 8.70000000e-01  4.57005784e-01  4.57005784e-01  4.57005784e-01  3.39607615e-09  3.40129862e-09  4.57005784e-01  3.42729496e-09  1.55101909e-07  5.54695418e-08  8.70000000e-01 
 8.80000000e-01  4.57005800e-01  4.57005800e-01  4.57005800e-01  3.39607616e-09  3.40129862e-09  4.57005800e-01  3.42729496e-09  1.55101942e-07  5.54693784e-08  8.80000000e-01 
 8.90000000e-01  4.57005783e-01  4.57005783e-01  4.57005783e-01  3.39607615e-09  3.40129862e-09  4.57005783e-01  3.42729496e-09  1.55101893e-07  5.54694424e-08  8.90000000e-01 
 9.00000000e-01  4.57005735e-01  4.57005735e-01  4.57005735e-01  3.39607615e-09  3.40129867e-09  4.57005735e-01  3.42729496e-09  1.55101831e-07  5.54691795e-08  9.00000000e-01 
 9.10000000e-01  4.57005779e-01  4.57005779e-01  4.57005779e-01  3.39607615e-09  3.40129862e-09  4.57005779e-01  3.42729496e-09  1.55101887e-07  5.54693003e-08  9.10000000e-01 
 9.20000000e-01  4.57005756e-01  4.57005756e-01  4.57005756e-01  3.39607615e-09  3.40129861e-09  4.57005756e-01  3.42729496e-09  1.55101864e-07  5.54690942e-08  9.20000000e-01 
 9.30000000e-01  4.57005779e-01  4.57005779e-01  4.57005779e-01  3.39607610e-09  3.40129867e-09  4.57005779e-01  3.42729502e-09  1.55101888e-07  5.54690658e-08  9.30000000e-01 
 9.40000000e-01  4.57005775e-01  4.57005776e-01  4.57005775e-01  3.39607615e-09  3.40129862e-09  4.57005776e-01  3.42729496e-09  1.55101906e-07  5.54689947e-08  9.40000000e-01 
 9.50000000e-01  4.57005787e-01  4.57005787e-01  4.57005787e-01  3.39607615e-09  3.40129862e-09  4.57005787e-01  3.42729496e-09  1.55101922e-07  5.54688668e-08  9.50000000e-01 
 9.60000000e-01  4.57005780e-01  4.57005781e-01  4.57005780e-01  3.39607615e-09  3.40129867e-09  4.57005781e-01  3.42729496e-09  1.55101892e-07  5.54689521e-08  9.60000000e-01 
 9.70000000e-01  4.57005765e-01  4.57005765e-01  4.57005765e-01  3.39607615e-09  3.40129862e-09  4.57005765e-01  3.42729496e-09  1.55101868e-07  5.54688526e-08  9.70000000e-01 
 9.80000000e-01  4.57005765e-01  4.57005765e-01  4.57005765e-01  3.39607615e-09  3.40129862e-09  4.57005765e-01  3.42729496e-09  1.55101882e-07  5.54687603e-08  9.80000000e-01 
 9.90000000e-01  4.57005761e-01  4.57005761e-01  4.57005761e-01  3.39607615e-09  3.40129862e-09  4.57005761e-01  3.42729502e-09  1.55101880e-07  5.54686679e-08  9.90000000e-01 
 1.00000000e+00  4.57005771e-01  4.57005771e-01  4.57005771e-01  3.39607615e-09  3.40129867e-09  4.57005771e-01  3.42729496e-09  1.55101897e-07  5.54686039e-08  1.00000000e+00 
 1.01000000e+00  4.57005797e-01  4.57005797e-01  4.57005797e-01  3.39607615e-09  3.40129862e-09  4.57005797e-01  3.42729496e-09  1.55101915e-07  5.54687247e-08  1.01000000e+00 
 1.02000000e+00  4.57005783e-01  4.57005783e-01  4.57005783e-01  3.39607615e-09  3.40129867e-09  4.57005783e-01  3.42729496e-09  1.55101906e-07  5.54686537e-08  1.02000000e+00 
 1.03000000e+00  4.57005796e-01  4.57005797e-01  4.57005796e-01  3.39607615e-09  3.40129867e-09  4.57005796e-01  3.42729496e-09  1.55101928e-07  5.54686537e-08  1.03000000e+00 
 1.04000000e+00  4.57005775e-01  4.57005775e-01  4.57005775e-01  3.39607615e-09  3.40129867e-09  4.57005775e-01  3.42729496e-09  1.55101892e-07  5.54683908e-08  1.04000000e+00 
 1.05000000e+00  4.57005799e-01  4.57005799e-01  4.57005799e-01  3.39607615e-09  3.40129862e-09  4.57005799e-01  3.42729496e-09  1.55101936e-07  5.54683197e-08  1.05000000e+00 
 1.06000000e+00  4.57005780e-01  4.57005780e-01  4.57005780e-01  3.39607615e-09  3.40129862e-09  4.57005780e-01  3.42729496e-09  1.55101910e-07  5.54683055e-08  1.06000000e+00 
 1.07000000e+00  4.57005760e-01  4.57005760e-01  4.57005760e-01  3.39607615e-09  3.40129867e-09  4.57005760e-01  3.42729496e-09  1.55101867e-07  5.54681776e-08  1.07000000e+00 
 1.08000000e+00  4.57005781e-01  4.57005781e-01  4.57005781e-01  3.39607615e-09  3.40129862e-09  4.57005781e-01  3.42729502e-09  1.55101907e-07  5.54681705e-08  1.08000000e+00 
 1.09000000e+00  4.57005779e-01  4.57005779e-01  4.57005779e-01  3.39607615e-09  3.40129862e-09  4.57005779e-01  3.42729496e-09  1.55101895e-07  5.54680497e-08  1.09000000e+00 
 1.10000000e+00  4.57005757e-01  4.57005757e-01  4.57005757e-01  3.39607615e-09  3.40129867e-09  4.57005757e-01  3.42729502e-09  1.55101876e-07  5.54681563e-08  1.10000000e+00 
