 v-sweep         v(b0)           v(b1)           v(b2)           v(b3)           v(b4)           v(b5)           v(b6)           i(vbias)        i(viout)        v(vout)        
 0.00000000e+00  4.58979334e-01  3.40023767e-09  4.58979334e-01  3.47779928e-09  4.58979335e-01  4.58979335e-01  4.58979335e-01  1.59675079e-07  1.73842531e-07  0.00000000e+00 
 1.00000000e-02  4.58979334e-01  3.40023765e-09  4.58979334e-01  3.47779924e-09  4.58979334e-01  4.58979334e-01  4.58979334e-01  1.59675073e-07  1.73842070e-07  1.00000000e-02 
 2.00000000e-02  4.58979325e-01  3.40023765e-09  4.58979325e-01  3.47779930e-09  4.58979325e-01  4.58979325e-01  4.58979325e-01  1.59675052e-07  1.73841629e-07  2.00000000e-02 
 3.00000000e-02  4.58979319e-01  3.40023765e-09  4.58979319e-01  3.47779930e-09  4.58979319e-01  4.58979319e-01  4.58979319e-01  1.59675055e-07  1.73841244e-07  3.00000000e-02 
 4.00000000e-02  4.58979340e-01  3.40023765e-09  4.58979340e-01  3.47779930e-09  4.58979340e-01  4.58979340e-01  4.58979340e-01  1.59675074e-07  1.73840816e-07  4.00000000e-02 
 5.00000000e-02  4.58979351e-01  3.40023765e-09  4.58979351e-01  3.47779930e-09  4.58979352e-01  4.58979352e-01  4.58979351e-01  1.59675102e-07  1.73840499e-07  5.00000000e-02 
 6.00000000e-02  4.58979365e-01  3.40023765e-09  4.58979365e-01  3.47779930e-09  4.58979365e-01  4.58979365e-01  4.58979365e-01  1.59675131e-07  1.73840135e-07  6.00000000e-02 
 7.00000000e-02  4.58979345e-01  3.40023765e-09  4.58979345e-01  3.47779930e-09  4.58979345e-01  4.58979345e-01  4.58979345e-01  1.59675091e-07  1.73839755e-07  7.00000000e-02 
 8.00000000e-02  4.58979338e-01  3.40023771e-09  4.58979338e-01  3.47779930e-09  4.58979338e-01  4.58979338e-01  4.58979338e-01  1.59675068e-07  1.73839350e-07  8.00000000e-02 
 9.00000000e-02  4.58979322e-01  3.40023765e-09  4.58979321e-01  3.47779930e-09  4.58979322e-01  4.58979322e-01  4.58979322e-01  1.59675038e-07  1.73838930e-07  9.00000000e-02 
 1.00000000e-01  4.58979325e-01  3.40023771e-09  4.58979325e-01  3.47779930e-09  4.58979325e-01  4.58979325e-01  4.58979325e-01  1.59675053e-07  1.73838618e-07  1.00000000e-01 
 1.10000000e-01  4.58979334e-01  3.40023765e-09  4.58979334e-01  3.47779924e-09  4.58979334e-01  4.58979334e-01  4.58979334e-01  1.59675063e-07  1.73838408e-07  1.10000000e-01 
 1.20000000e-01  4.58979364e-01  3.40023771e-09  4.58979364e-01  3.47779930e-09  4.58979364e-01  4.58979364e-01  4.58979364e-01  1.59675111e-07  1.73838125e-07  1.20000000e-01 
 1.30000000e-01  4.58979331e-01  3.40023765e-09  4.58979331e-01  3.47779930e-09  4.58979331e-01  4.58979331e-01  4.58979331e-01  1.59675070e-07  1.73837812e-07  1.30000000e-01 
 1.40000000e-01  4.58979327e-01  3.40023765e-09  4.58979327e-01  3.47779930e-09  4.58979327e-01  4.58979327e-01  4.58979327e-01  1.59675059e-07  1.73837515e-07  1.40000000e-01 
 1.50000000e-01  4.58979330e-01  3.40023765e-09  4.58979330e-01  3.47779930e-09  4.58979330e-01  4.58979330e-01  4.58979330e-01  1.59675061e-07  1.73837254e-07  1.50000000e-01 
 1.60000000e-01  4.58979335e-01  3.40023765e-09  4.58979335e-01  3.47779930e-09  4.58979335e-01  4.58979335e-01  4.58979335e-01  1.59675063e-07  1.73836968e-07  1.60000000e-01 
 1.70000000e-01  4.58979357e-01  3.40023765e-09  4.58979357e-01  3.47779925e-09  4.58979357e-01  4.58979357e-01  4.58979357e-01  1.59675103e-07  1.73836799e-07  1.70000000e-01 
 1.80000000e-01  4.58979336e-01  3.40023765e-09  4.58979336e-01  3.47779930e-09  4.58979336e-01  4.58979336e-01  4.58979336e-01  1.59675076e-07  1.73836515e-07  1.80000000e-01 
 1.90000000e-01  4.58979337e-01  3.40023771e-09  4.58979337e-01  3.47779925e-09  4.58979337e-01  4.58979337e-01  4.58979337e-01  1.59675064e-07  1.73836412e-07  1.90000000e-01 
 2.00000000e-01  4.58979344e-01  3.40023765e-09  4.58979344e-01  3.47779925e-09  4.58979344e-01  4.58979344e-01  4.58979344e-01  1.59675089e-07  1.73836151e-07  2.00000000e-01 
 2.10000000e-01  4.58979357e-01  3.40023765e-09  4.58979357e-01  3.47779930e-09  4.58979357e-01  4.58979357e-01  4.58979357e-01  1.59675104e-07  1.73835787e-07  2.10000000e-01 
 2.20000000e-01  4.58979346e-01  3.40023771e-09  4.58979346e-01  3.47779930e-09  4.58979346e-01  4.58979346e-01  4.58979346e-01  1.59675086e-07  1.73835595e-07  2.20000000e-01 
 2.30000000e-01  4.58979342e-01  3.40023771e-09  4.58979342e-01  3.47779930e-09  4.58979342e-01  4.58979342e-01  4.58979342e-01  1.59675088e-07  1.73835396e-07  2.30000000e-01 
 2.40000000e-01  4.58979341e-01  3.40023765e-09  4.58979341e-01  3.47779925e-09  4.58979341e-01  4.58979341e-01  4.58979341e-01  1.59675076e-07  1.73835296e-07  2.40000000e-01 
 2.50000000e-01  4.58979334e-01  3.40023771e-09  4.58979334e-01  3.47779930e-09  4.58979334e-01  4.58979334e-01  4.58979334e-01  1.59675069e-07  1.73835057e-07  2.50000000e-01 
 2.60000000e-01  4.58979344e-01  3.40023765e-09  4.58979344e-01  3.47779930e-09  4.58979344e-01  4.58979344e-01  4.58979344e-01  1.59675090e-07  1.73834861e-07  2.60000000e-01 
 2.70000000e-01  4.58979345e-01  3.40023765e-09  4.58979345e-01  3.47779925e-09  4.58979345e-01  4.58979345e-01  4.58979345e-01  1.59675082e-07  1.73834716e-07  2.70000000e-01 
 2.80000000e-01  4.58979371e-01  3.40023765e-09  4.58979371e-01  3.47779930e-09  4.58979371e-01  4.58979371e-01  4.58979371e-01  1.59675123e-07  1.73834593e-07  2.80000000e-01 
 2.90000000e-01  4.58979332e-01  3.40023771e-09  4.58979332e-01  3.47779924e-09  4.58979332e-01  4.58979332e-01  4.58979332e-01  1.59675061e-07  1.73834270e-07  2.90000000e-01 
 3.00000000e-01  4.58979340e-01  3.40023765e-09  4.58979340e-01  3.47779930e-09  4.58979340e-01  4.58979340e-01  4.58979340e-01  1.59675082e-07  1.73834117e-07  3.00000000e-01 
 3.10000000e-01  4.58979329e-01  3.40023765e-09  4.58979329e-01  3.47779930e-09  4.58979329e-01  4.58979329e-01  4.58979329e-01  1.59675077e-07  1.73833989e-07  3.10000000e-01 
 3.20000000e-01  4.58979323e-01  3.40023765e-09  4.58979323e-01  3.47779930e-09  4.58979323e-01  4.58979324e-01  4.58979323e-01  1.59675053e-07  1.73833737e-07  3.20000000e-01 
 3.30000000e-01  4.58979316e-01  3.40023771e-09  4.58979316e-01  3.47779930e-09  4.58979316e-01  4.58979316e-01  4.58979316e-01  1.59675044e-07  1.73833559e-07  3.30000000e-01 
 3.40000000e-01  4.58979338e-01  3.40023765e-09  4.58979338e-01  3.47779930e-09  4.58979338e-01  4.58979338e-01  4.58979338e-01  1.59675077e-07  1.73833516e-07  3.40000000e-01 
 3.50000000e-01  4.58979356e-01  3.40023771e-09  4.58979356e-01  3.47779930e-09  4.58979356e-01  4.58979356e-01  4.58979356e-01  1.59675108e-07  1.73833413e-07  3.50000000e-01 
 3.60000000e-01  4.58979356e-01  3.40023765e-09  4.58979356e-01  3.47779930e-09  4.58979356e-01  4.58979356e-01  4.58979356e-01  1.59675113e-07  1.73833318e-07  3.60000000e-01 
 3.70000000e-01  4.58979372e-01  3.40023771e-09  4.58979372e-01  3.47779930e-09  4.58979372e-01  4.58979372e-01  4.58979372e-01  1.59675123e-07  1.73833296e-07  3.70000000e-01 
 3.80000000e-01  4.58979331e-01  3.40023765e-09  4.58979331e-01  3.47779930e-09  4.58979331e-01  4.58979331e-01  4.58979331e-01  1.59675077e-07  1.73832856e-07  3.80000000e-01 
 3.90000000e-01  4.58979311e-01  3.40023771e-09  4.58979311e-01  3.47779930e-09  4.58979311e-01  4.58979311e-01  4.58979311e-01  1.59675039e-07  1.73832618e-07  3.90000000e-01 
 4.00000000e-01  4.58979335e-01  3.40023765e-09  4.58979335e-01  3.47779930e-09  4.58979335e-01  4.58979335e-01  4.58979335e-01  1.59675076e-07  1.73832525e-07  4.00000000e-01 
 4.10000000e-01  4.58979363e-01  3.40023765e-09  4.58979363e-01  3.47779930e-09  4.58979363e-01  4.58979363e-01  4.58979363e-01  1.59675119e-07  1.73832539e-07  4.10000000e-01 
 4.20000000e-01  4.58979351e-01  3.40023771e-09  4.58979351e-01  3.47779930e-09  4.58979351e-01  4.58979351e-01  4.58979351e-01  1.59675097e-07  1.73832287e-07  4.20000000e-01 
 4.30000000e-01  4.58979348e-01  3.40023765e-09  4.58979348e-01  3.47779925e-09  4.58979348e-01  4.58979349e-01  4.58979348e-01  1.59675094e-07  1.73832216e-07  4.30000000e-01 
 4.40000000e-01  4.58979350e-01  3.40023765e-09  4.58979349e-01  3.47779930e-09  4.58979350e-01  4.58979350e-01  4.58979350e-01  1.59675105e-07  1.73832081e-07  4.40000000e-01 
 4.50000000e-01  4.58979348e-01  3.40023765e-09  4.58979348e-01  3.47779925e-09  4.58979348e-01  4.58979348e-01  4.58979348e-01  1.59675106e-07  1.73832028e-07  4.50000000e-01 
 4.60000000e-01  4.58979353e-01  3.40023765e-09  4.58979353e-01  3.47779930e-09  4.58979353e-01  4.58979353e-01  4.58979353e-01  1.59675101e-07  1.73831836e-07  4.60000000e-01 
 4.70000000e-01  4.58979346e-01  3.40023765e-09  4.58979346e-01  3.47779930e-09  4.58979346e-01  4.58979346e-01  4.58979346e-01  1.59675094e-07  1.73831697e-07  4.70000000e-01 
 4.80000000e-01  4.58979347e-01  3.40023765e-09  4.58979347e-01  3.47779930e-09  4.58979347e-01  4.58979347e-01  4.58979347e-01  1.59675090e-07  1.73831545e-07  4.80000000e-01 
 4.90000000e-01  4.58979338e-01  3.40023765e-09  4.58979338e-01  3.47779930e-09  4.58979338e-01  4.58979338e-01  4.58979338e-01  1.59675070e-07  1.73831367e-07  4.90000000e-01 
 5.00000000e-01  4.58979348e-01  3.40023771e-09  4.58979348e-01  3.47779930e-09  4.58979349e-01  4.58979349e-01  4.58979349e-01  1.59675097e-07  1.73831321e-07  5.00000000e-01 
 5.10000000e-01  4.58979353e-01  3.40023765e-09  4.58979353e-01  3.47779925e-09  4.58979353e-01  4.58979353e-01  4.58979353e-01  1.59675116e-07  1.73831236e-07  5.10000000e-01 
 5.20000000e-01  4.58979355e-01  3.40023765e-09  4.58979355e-01  3.47779930e-09  4.58979355e-01  4.58979355e-01  4.58979355e-01  1.59675111e-07  1.73830919e-07  5.20000000e-01 
 5.30000000e-01  4.58979314e-01  3.40023771e-09  4.58979314e-01  3.47779924e-09  4.58979314e-01  4.58979314e-01  4.58979314e-01  1.59675044e-07  1.73830639e-07  5.30000000e-01 
 5.40000000e-01  4.58979320e-01  3.40023765e-09  4.58979320e-01  3.47779930e-09  4.58979320e-01  4.58979320e-01  4.58979320e-01  1.59675052e-07  1.73830706e-07  5.40000000e-01 
 5.50000000e-01  4.58979327e-01  3.40023765e-09  4.58979327e-01  3.47779930e-09  4.58979327e-01  4.58979327e-01  4.58979327e-01  1.59675043e-07  1.73830525e-07  5.50000000e-01 
 5.60000000e-01  4.58979340e-01  3.40023771e-09  4.58979340e-01  3.47779930e-09  4.58979340e-01  4.58979340e-01  4.58979340e-01  1.59675085e-07  1.73830443e-07  5.60000000e-01 
 5.70000000e-01  4.58979363e-01  3.40023765e-09  4.58979363e-01  3.47779930e-09  4.58979363e-01  4.58979363e-01  4.58979363e-01  1.59675117e-07  1.73830415e-07  5.70000000e-01 
 5.80000000e-01  4.58979319e-01  3.40023765e-09  4.58979319e-01  3.47779930e-09  4.58979319e-01  4.58979319e-01  4.58979319e-01  1.59675051e-07  1.73830067e-07  5.80000000e-01 
 5.90000000e-01  4.58979347e-01  3.40023771e-09  4.58979347e-01  3.47779925e-09  4.58979347e-01  4.58979347e-01  4.58979347e-01  1.59675089e-07  1.73830159e-07  5.90000000e-01 
 6.00000000e-01  4.58979342e-01  3.40023765e-09  4.58979342e-01  3.47779930e-09  4.58979342e-01  4.58979342e-01  4.58979342e-01  1.59675096e-07  1.73830045e-07  6.00000000e-01 
 6.10000000e-01  4.58979332e-01  3.40023771e-09  4.58979332e-01  3.47779930e-09  4.58979332e-01  4.58979332e-01  4.58979332e-01  1.59675064e-07  1.73829754e-07  6.10000000e-01 
 6.20000000e-01  4.58979349e-01  3.40023765e-09  4.58979349e-01  3.47779930e-09  4.58979349e-01  4.58979349e-01  4.58979349e-01  1.59675091e-07  1.73829712e-07  6.20000000e-01 
 6.30000000e-01  4.58979345e-01  3.40023765e-09  4.58979345e-01  3.47779930e-09  4.58979345e-01  4.58979345e-01  4.58979345e-01  1.59675102e-07  1.73829562e-07  6.30000000e-01 
 6.40000000e-01  4.58979365e-01  3.40023771e-09  4.58979365e-01  3.47779930e-09  4.58979365e-01  4.58979365e-01  4.58979365e-01  1.59675122e-07  1.73829584e-07  6.40000000e-01 
 6.50000000e-01  4.58979345e-01  3.40023765e-09  4.58979345e-01  3.47779930e-09  4.58979345e-01  4.58979345e-01  4.58979345e-01  1.59675080e-07  1.73829413e-07  6.50000000e-01 
 6.60000000e-01  4.58979345e-01  3.40023765e-09  4.58979345e-01  3.47779930e-09  4.58979345e-01  4.58979345e-01  4.58979345e-01  1.59675092e-07  1.73829214e-07  6.60000000e-01 
 6.70000000e-01  4.58979346e-01  3.40023771e-09  4.58979346e-01  3.47779930e-09  4.58979346e-01  4.58979347e-01  4.58979346e-01  1.59675079e-07  1.73829022e-07  6.70000000e-01 
 6.80000000e-01  4.58979338e-01  3.40023765e-09  4.58979338e-01  3.47779930e-09  4.58979338e-01  4.58979338e-01  4.58979338e-01  1.59675075e-07  1.73828852e-07  6.80000000e-01 
 6.90000000e-01  4.58979343e-01  3.40023765e-09  4.58979343e-01  3.47779930e-09  4.58979343e-01  4.58979343e-01  4.58979343e-01  1.59675079e-07  1.73828717e-07  6.90000000e-01 
 7.00000000e-01  4.58979345e-01  3.40023765e-09  4.58979345e-01  3.47779930e-09  4.58979345e-01  4.58979345e-01  4.58979345e-01  1.59675096e-07  1.73828660e-07  7.00000000e-01 
 7.10000000e-01  4.58979348e-01  3.40023765e-09  4.58979348e-01  3.47779930e-09  4.58979348e-01  4.58979348e-01  4.58979348e-01  1.59675099e-07  1.73828425e-07  7.10000000e-01 
 7.20000000e-01  4.58979346e-01  3.40023765e-09  4.58979346e-01  3.47779930e-09  4.58979346e-01  4.58979346e-01  4.58979346e-01  1.59675101e-07  1.73828262e-07  7.20000000e-01 
 7.30000000e-01  4.58979354e-01  3.40023765e-09  4.58979354e-01  3.47779930e-09  4.58979354e-01  4.58979354e-01  4.58979354e-01  1.59675101e-07  1.73828361e-07  7.30000000e-01 
 7.40000000e-01  4.58979332e-01  3.40023765e-09  4.58979332e-01  3.47779930e-09  4.58979332e-01  4.58979332e-01  4.58979332e-01  1.59675067e-07  1.73828148e-07  7.40000000e-01 
 7.50000000e-01  4.58979339e-01  3.40023765e-09  4.58979339e-01  3.47779930e-09  4.58979339e-01  4.58979339e-01  4.58979339e-01  1.59675075e-07  1.73827992e-07  7.50000000e-01 
 7.60000000e-01  4.58979355e-01  3.40023765e-09  4.58979355e-01  3.47779930e-09  4.58979355e-01  4.58979355e-01  4.58979355e-01  1.59675111e-07  1.73827857e-07  7.60000000e-01 
 7.70000000e-01  4.58979350e-01  3.40023765e-09  4.58979350e-01  3.47779930e-09  4.58979350e-01  4.58979350e-01  4.58979350e-01  1.59675092e-07  1.73827637e-07  7.70000000e-01 
 7.80000000e-01  4.58979343e-01  3.40023765e-09  4.58979343e-01  3.47779930e-09  4.58979343e-01  4.58979343e-01  4.58979343e-01  1.59675079e-07  1.73827601e-07  7.80000000e-01 
 7.90000000e-01  4.58979341e-01  3.40023765e-09  4.58979341e-01  3.47779930e-09  4.58979341e-01  4.58979341e-01  4.58979341e-01  1.59675085e-07  1.73827353e-07  7.90000000e-01 
 8.00000000e-01  4.58979354e-01  3.40023765e-09  4.58979354e-01  3.47779930e-09  4.58979355e-01  4.58979355e-01  4.58979355e-01  1.59675094e-07  1.73827274e-07  8.00000000e-01 
 8.10000000e-01  4.58979342e-01  3.40023765e-09  4.58979341e-01  3.47779930e-09  4.58979342e-01  4.58979342e-01  4.58979342e-01  1.59675081e-07  1.73827146e-07  8.10000000e-01 
 8.20000000e-01  4.58979338e-01  3.40023765e-09  4.58979338e-01  3.47779925e-09  4.58979338e-01  4.58979338e-01  4.58979338e-01  1.59675071e-07  1.73827019e-07  8.20000000e-01 
 8.30000000e-01  4.58979330e-01  3.40023765e-09  4.58979330e-01  3.47779930e-09  4.58979330e-01  4.58979330e-01  4.58979330e-01  1.59675057e-07  1.73826812e-07  8.30000000e-01 
 8.40000000e-01  4.58979332e-01  3.40023771e-09  4.58979332e-01  3.47779924e-09  4.58979332e-01  4.58979333e-01  4.58979332e-01  1.59675061e-07  1.73826734e-07  8.40000000e-01 
 8.50000000e-01  4.58979354e-01  3.40023765e-09  4.58979354e-01  3.47779925e-09  4.58979354e-01  4.58979354e-01  4.58979354e-01  1.59675101e-07  1.73826606e-07  8.50000000e-01 
 8.60000000e-01  4.58979363e-01  3.40023765e-09  4.58979363e-01  3.47779930e-09  4.58979363e-01  4.58979363e-01  4.58979363e-01  1.59675126e-07  1.73826535e-07  8.60000000e-01 
 8.70000000e-01  4.58979342e-01  3.40023765e-09  4.58979342e-01  3.47779925e-09  4.58979342e-01  4.58979342e-01  4.58979342e-01  1.59675090e-07  1.73826415e-07  8.70000000e-01 
 8.80000000e-01  4.58979350e-01  3.40023771e-09  4.58979350e-01  3.47779930e-09  4.58979350e-01  4.58979350e-01  4.58979350e-01  1.59675086e-07  1.73826123e-07  8.80000000e-01 
 8.90000000e-01  4.58979325e-01  3.40023765e-09  4.58979325e-01  3.47779930e-09  4.58979325e-01  4.58979325e-01  4.58979325e-01  1.59675059e-07  1.73825960e-07  8.90000000e-01 
 9.00000000e-01  4.58979314e-01  3.40023771e-09  4.58979314e-01  3.47779930e-09  4.58979314e-01  4.58979314e-01  4.58979314e-01  1.59675029e-07  1.73825725e-07  9.00000000e-01 
 9.10000000e-01  4.58979339e-01  3.40023765e-09  4.58979339e-01  3.47779930e-09  4.58979339e-01  4.58979339e-01  4.58979339e-01  1.59675077e-07  1.73825725e-07  9.10000000e-01 
 9.20000000e-01  4.58979322e-01  3.40023765e-09  4.58979322e-01  3.47779930e-09  4.58979322e-01  4.58979322e-01  4.58979322e-01  1.59675057e-07  1.73825462e-07  9.20000000e-01 
 9.30000000e-01  4.58979343e-01  3.40023765e-09  4.58979343e-01  3.47779925e-09  4.58979343e-01  4.58979343e-01  4.58979343e-01  1.59675078e-07  1.73825420e-07  9.30000000e-01 
 9.40000000e-01  4.58979334e-01  3.40023771e-09  4.58979334e-01  3.47779930e-09  4.58979334e-01  4.58979334e-01  4.58979334e-01  1.59675048e-07  1.73825185e-07  9.40000000e-01 
 9.50000000e-01  4.58979319e-01  3.40023765e-09  4.58979319e-01  3.47779924e-09  4.58979319e-01  4.58979319e-01  4.58979319e-01  1.59675053e-07  1.73824965e-07  9.50000000e-01 
 9.60000000e-01  4.58979326e-01  3.40023771e-09  4.58979326e-01  3.47779930e-09  4.58979326e-01  4.58979326e-01  4.58979326e-01  1.59675056e-07  1.73824851e-07  9.60000000e-01 
 9.70000000e-01  4.58979353e-01  3.40023765e-09  4.58979353e-01  3.47779930e-09  4.58979353e-01  4.58979353e-01  4.58979353e-01  1.59675106e-07  1.73824837e-07  9.70000000e-01 
 9.80000000e-01  4.58979338e-01  3.40023765e-09  4.58979338e-01  3.47779930e-09  4.58979338e-01  4.58979338e-01  4.58979338e-01  1.59675080e-07  1.73824681e-07  9.80000000e-01 
 9.90000000e-01  4.58979331e-01  3.40023765e-09  4.58979331e-01  3.47779924e-09  4.58979331e-01  4.58979331e-01  4.58979331e-01  1.59675051e-07  1.73824304e-07  9.90000000e-01 
 1.00000000e+00  4.58979330e-01  3.40023771e-09  4.58979330e-01  3.47779930e-09  4.58979330e-01  4.58979330e-01  4.58979330e-01  1.59675063e-07  1.73824276e-07  1.00000000e+00 
 1.01000000e+00  4.58979343e-01  3.40023771e-09  4.58979343e-01  3.47779930e-09  4.58979343e-01  4.58979343e-01  4.58979343e-01  1.59675088e-07  1.73824141e-07  1.01000000e+00 
 1.02000000e+00  4.58979344e-01  3.40023771e-09  4.58979344e-01  3.47779930e-09  4.58979344e-01  4.58979344e-01  4.58979344e-01  1.59675084e-07  1.73824020e-07  1.02000000e+00 
 1.03000000e+00  4.58979357e-01  3.40023765e-09  4.58979357e-01  3.47779930e-09  4.58979357e-01  4.58979357e-01  4.58979357e-01  1.59675109e-07  1.73823942e-07  1.03000000e+00 
 1.04000000e+00  4.58979329e-01  3.40023765e-09  4.58979329e-01  3.47779930e-09  4.58979329e-01  4.58979329e-01  4.58979329e-01  1.59675077e-07  1.73823558e-07  1.04000000e+00 
 1.05000000e+00  4.58979328e-01  3.40023765e-09  4.58979328e-01  3.47779930e-09  4.58979328e-01  4.58979328e-01  4.58979328e-01  1.59675041e-07  1.73823452e-07  1.05000000e+00 
 1.06000000e+00  4.58979331e-01  3.40023765e-09  4.58979331e-01  3.47779930e-09  4.58979332e-01  4.58979332e-01  4.58979331e-01  1.59675074e-07  1.73823224e-07  1.06000000e+00 
 1.07000000e+00  4.58979348e-01  3.40023771e-09  4.58979348e-01  3.47779930e-09  4.58979348e-01  4.58979348e-01  4.58979348e-01  1.59675082e-07  1.73823153e-07  1.07000000e+00 
 1.08000000e+00  4.58979358e-01  3.40023765e-09  4.58979358e-01  3.47779930e-09  4.58979358e-01  4.58979358e-01  4.58979358e-01  1.59675116e-07  1.73823004e-07  1.08000000e+00 
 1.09000000e+00  4.58979341e-01  3.40023765e-09  4.58979341e-01  3.47779930e-09  4.58979341e-01  4.58979341e-01  4.58979341e-01  1.59675095e-07  1.73822819e-07  1.09000000e+00 
 1.10000000e+00  4.58979345e-01  3.40023771e-09  4.58979345e-01  3.47779925e-09  4.58979345e-01  4.58979345e-01  4.58979345e-01  1.59675091e-07  1.73822727e-07  1.10000000e+00 
