 v-sweep         v(b0)           v(b1)           v(b2)           v(b3)           v(b4)           v(b5)           v(b6)           i(vbias)        i(viout)        v(vout)        
 0.00000000e+00  3.28677701e-09  4.57206685e-01  3.47294393e-09  4.57206685e-01  4.57206685e-01  3.48747159e-09  4.57206685e-01  1.58162659e-07  1.29629096e-07  0.00000000e+00 
 1.00000000e-02  3.28677699e-09  4.57206691e-01  3.47294391e-09  4.57206691e-01  4.57206692e-01  3.48747163e-09  4.57206691e-01  1.58162668e-07  1.29628618e-07  1.00000000e-02 
 2.00000000e-02  3.28677694e-09  4.57206683e-01  3.47294391e-09  4.57206683e-01  4.57206683e-01  3.48747157e-09  4.57206683e-01  1.58162646e-07  1.29628369e-07  2.00000000e-02 
 3.00000000e-02  3.28677699e-09  4.57206697e-01  3.47294391e-09  4.57206697e-01  4.57206697e-01  3.48747158e-09  4.57206697e-01  1.58162671e-07  1.29627995e-07  3.00000000e-02 
 4.00000000e-02  3.28677699e-09  4.57206676e-01  3.47294391e-09  4.57206676e-01  4.57206676e-01  3.48747156e-09  4.57206676e-01  1.58162655e-07  1.29627448e-07  4.00000000e-02 
 5.00000000e-02  3.28677699e-09  4.57206652e-01  3.47294391e-09  4.57206652e-01  4.57206652e-01  3.48747158e-09  4.57206652e-01  1.58162600e-07  1.29627157e-07  5.00000000e-02 
 6.00000000e-02  3.28677699e-09  4.57206686e-01  3.47294391e-09  4.57206686e-01  4.57206686e-01  3.48747156e-09  4.57206686e-01  1.58162646e-07  1.29626868e-07  6.00000000e-02 
 7.00000000e-02  3.28677699e-09  4.57206685e-01  3.47294391e-09  4.57206685e-01  4.57206685e-01  3.48747158e-09  4.57206685e-01  1.58162647e-07  1.29626423e-07  7.00000000e-02 
 8.00000000e-02  3.28677694e-09  4.57206681e-01  3.47294391e-09  4.57206681e-01  4.57206681e-01  3.48747156e-09  4.57206681e-01  1.58162650e-07  1.29626121e-07  8.00000000e-02 
 9.00000000e-02  3.28677699e-09  4.57206685e-01  3.47294391e-09  4.57206685e-01  4.57206685e-01  3.48747158e-09  4.57206685e-01  1.58162637e-07  1.29625833e-07  9.00000000e-02 
 1.00000000e-01  3.28677699e-09  4.57206696e-01  3.47294391e-09  4.57206696e-01  4.57206696e-01  3.48747156e-09  4.57206696e-01  1.58162683e-07  1.29625458e-07  1.00000000e-01 
 1.10000000e-01  3.28677694e-09  4.57206699e-01  3.47294391e-09  4.57206700e-01  4.57206700e-01  3.48747158e-09  4.57206699e-01  1.58162689e-07  1.29625376e-07  1.10000000e-01 
 1.20000000e-01  3.28677694e-09  4.57206687e-01  3.47294391e-09  4.57206687e-01  4.57206687e-01  3.48747162e-09  4.57206686e-01  1.58162662e-07  1.29625057e-07  1.20000000e-01 
 1.30000000e-01  3.28677694e-09  4.57206693e-01  3.47294391e-09  4.57206693e-01  4.57206693e-01  3.48747157e-09  4.57206692e-01  1.58162665e-07  1.29624887e-07  1.30000000e-01 
 1.40000000e-01  3.28677699e-09  4.57206688e-01  3.47294391e-09  4.57206688e-01  4.57206689e-01  3.48747158e-09  4.57206688e-01  1.58162665e-07  1.29624459e-07  1.40000000e-01 
 1.50000000e-01  3.28677699e-09  4.57206693e-01  3.47294391e-09  4.57206693e-01  4.57206693e-01  3.48747156e-09  4.57206693e-01  1.58162670e-07  1.29624315e-07  1.50000000e-01 
 1.60000000e-01  3.28677694e-09  4.57206694e-01  3.47294391e-09  4.57206694e-01  4.57206694e-01  3.48747158e-09  4.57206694e-01  1.58162661e-07  1.29624111e-07  1.60000000e-01 
 1.70000000e-01  3.28677699e-09  4.57206683e-01  3.47294391e-09  4.57206683e-01  4.57206683e-01  3.48747156e-09  4.57206683e-01  1.58162660e-07  1.29623842e-07  1.70000000e-01 
 1.80000000e-01  3.28677694e-09  4.57206671e-01  3.47294391e-09  4.57206671e-01  4.57206671e-01  3.48747158e-09  4.57206671e-01  1.58162618e-07  1.29623611e-07  1.80000000e-01 
 1.90000000e-01  3.28677699e-09  4.57206676e-01  3.47294391e-09  4.57206676e-01  4.57206676e-01  3.48747156e-09  4.57206676e-01  1.58162634e-07  1.29623540e-07  1.90000000e-01 
 2.00000000e-01  3.28677694e-09  4.57206696e-01  3.47294391e-09  4.57206697e-01  4.57206697e-01  3.48747158e-09  4.57206696e-01  1.58162670e-07  1.29623244e-07  2.00000000e-01 
 2.10000000e-01  3.28677699e-09  4.57206678e-01  3.47294391e-09  4.57206678e-01  4.57206678e-01  3.48747156e-09  4.57206677e-01  1.58162643e-07  1.29623231e-07  2.10000000e-01 
 2.20000000e-01  3.28677699e-09  4.57206674e-01  3.47294391e-09  4.57206674e-01  4.57206674e-01  3.48747164e-09  4.57206674e-01  1.58162634e-07  1.29622864e-07  2.20000000e-01 
 2.30000000e-01  3.28677699e-09  4.57206691e-01  3.47294391e-09  4.57206691e-01  4.57206691e-01  3.48747156e-09  4.57206691e-01  1.58162662e-07  1.29622816e-07  2.30000000e-01 
 2.40000000e-01  3.28677699e-09  4.57206683e-01  3.47294391e-09  4.57206683e-01  4.57206683e-01  3.48747158e-09  4.57206683e-01  1.58162652e-07  1.29622594e-07  2.40000000e-01 
 2.50000000e-01  3.28677699e-09  4.57206685e-01  3.47294391e-09  4.57206685e-01  4.57206685e-01  3.48747162e-09  4.57206685e-01  1.58162649e-07  1.29622443e-07  2.50000000e-01 
 2.60000000e-01  3.28677699e-09  4.57206686e-01  3.47294391e-09  4.57206686e-01  4.57206686e-01  3.48747157e-09  4.57206686e-01  1.58162664e-07  1.29622292e-07  2.60000000e-01 
 2.70000000e-01  3.28677699e-09  4.57206671e-01  3.47294391e-09  4.57206671e-01  4.57206672e-01  3.48747158e-09  4.57206671e-01  1.58162639e-07  1.29622082e-07  2.70000000e-01 
 2.80000000e-01  3.28677699e-09  4.57206665e-01  3.47294391e-09  4.57206665e-01  4.57206665e-01  3.48747162e-09  4.57206665e-01  1.58162629e-07  1.29622036e-07  2.80000000e-01 
 2.90000000e-01  3.28677699e-09  4.57206680e-01  3.47294391e-09  4.57206680e-01  4.57206680e-01  3.48747157e-09  4.57206680e-01  1.58162647e-07  1.29621942e-07  2.90000000e-01 
 3.00000000e-01  3.28677694e-09  4.57206679e-01  3.47294391e-09  4.57206679e-01  4.57206679e-01  3.48747158e-09  4.57206679e-01  1.58162639e-07  1.29621704e-07  3.00000000e-01 
 3.10000000e-01  3.28677699e-09  4.57206697e-01  3.47294391e-09  4.57206697e-01  4.57206697e-01  3.48747162e-09  4.57206697e-01  1.58162674e-07  1.29621682e-07  3.10000000e-01 
 3.20000000e-01  3.28677699e-09  4.57206681e-01  3.47294391e-09  4.57206681e-01  4.57206681e-01  3.48747157e-09  4.57206681e-01  1.58162650e-07  1.29621572e-07  3.20000000e-01 
 3.30000000e-01  3.28677699e-09  4.57206688e-01  3.47294391e-09  4.57206688e-01  4.57206688e-01  3.48747158e-09  4.57206688e-01  1.58162653e-07  1.29621402e-07  3.30000000e-01 
 3.40000000e-01  3.28677699e-09  4.57206695e-01  3.47294391e-09  4.57206695e-01  4.57206695e-01  3.48747162e-09  4.57206694e-01  1.58162675e-07  1.29621288e-07  3.40000000e-01 
 3.50000000e-01  3.28677699e-09  4.57206696e-01  3.47294391e-09  4.57206697e-01  4.57206697e-01  3.48747157e-09  4.57206696e-01  1.58162672e-07  1.29621174e-07  3.50000000e-01 
 3.60000000e-01  3.28677694e-09  4.57206683e-01  3.47294391e-09  4.57206683e-01  4.57206683e-01  3.48747158e-09  4.57206683e-01  1.58162653e-07  1.29621149e-07  3.60000000e-01 
 3.70000000e-01  3.28677699e-09  4.57206682e-01  3.47294391e-09  4.57206682e-01  4.57206682e-01  3.48747162e-09  4.57206682e-01  1.58162637e-07  1.29620904e-07  3.70000000e-01 
 3.80000000e-01  3.28677699e-09  4.57206699e-01  3.47294391e-09  4.57206699e-01  4.57206699e-01  3.48747163e-09  4.57206699e-01  1.58162678e-07  1.29620872e-07  3.80000000e-01 
 3.90000000e-01  3.28677699e-09  4.57206673e-01  3.47294391e-09  4.57206673e-01  4.57206673e-01  3.48747163e-09  4.57206673e-01  1.58162633e-07  1.29620727e-07  3.90000000e-01 
 4.00000000e-01  3.28677699e-09  4.57206694e-01  3.47294391e-09  4.57206694e-01  4.57206694e-01  3.48747157e-09  4.57206693e-01  1.58162663e-07  1.29620723e-07  4.00000000e-01 
 4.10000000e-01  3.28677694e-09  4.57206696e-01  3.47294391e-09  4.57206696e-01  4.57206696e-01  3.48747158e-09  4.57206696e-01  1.58162678e-07  1.29620641e-07  4.10000000e-01 
 4.20000000e-01  3.28677694e-09  4.57206668e-01  3.47294391e-09  4.57206668e-01  4.57206668e-01  3.48747156e-09  4.57206668e-01  1.58162628e-07  1.29620453e-07  4.20000000e-01 
 4.30000000e-01  3.28677699e-09  4.57206675e-01  3.47294391e-09  4.57206675e-01  4.57206675e-01  3.48747158e-09  4.57206675e-01  1.58162637e-07  1.29620314e-07  4.30000000e-01 
 4.40000000e-01  3.28677699e-09  4.57206693e-01  3.47294391e-09  4.57206694e-01  4.57206694e-01  3.48747162e-09  4.57206693e-01  1.58162658e-07  1.29620222e-07  4.40000000e-01 
 4.50000000e-01  3.28677699e-09  4.57206679e-01  3.47294397e-09  4.57206679e-01  4.57206679e-01  3.48747157e-09  4.57206678e-01  1.58162644e-07  1.29620158e-07  4.50000000e-01 
 4.60000000e-01  3.28677699e-09  4.57206695e-01  3.47294391e-09  4.57206695e-01  4.57206695e-01  3.48747158e-09  4.57206695e-01  1.58162672e-07  1.29620041e-07  4.60000000e-01 
 4.70000000e-01  3.28677699e-09  4.57206693e-01  3.47294391e-09  4.57206693e-01  4.57206693e-01  3.48747162e-09  4.57206693e-01  1.58162677e-07  1.29619931e-07  4.70000000e-01 
 4.80000000e-01  3.28677699e-09  4.57206689e-01  3.47294391e-09  4.57206689e-01  4.57206689e-01  3.48747157e-09  4.57206689e-01  1.58162664e-07  1.29619760e-07  4.80000000e-01 
 4.90000000e-01  3.28677699e-09  4.57206688e-01  3.47294391e-09  4.57206688e-01  4.57206689e-01  3.48747158e-09  4.57206688e-01  1.58162663e-07  1.29619725e-07  4.90000000e-01 
 5.00000000e-01  3.28677699e-09  4.57206689e-01  3.47294391e-09  4.57206689e-01  4.57206690e-01  3.48747156e-09  4.57206689e-01  1.58162654e-07  1.29619650e-07  5.00000000e-01 
 5.10000000e-01  3.28677699e-09  4.57206659e-01  3.47294391e-09  4.57206659e-01  4.57206659e-01  3.48747158e-09  4.57206659e-01  1.58162626e-07  1.29619490e-07  5.10000000e-01 
 5.20000000e-01  3.28677699e-09  4.57206692e-01  3.47294391e-09  4.57206692e-01  4.57206693e-01  3.48747156e-09  4.57206692e-01  1.58162654e-07  1.29619554e-07  5.20000000e-01 
 5.30000000e-01  3.28677694e-09  4.57206675e-01  3.47294391e-09  4.57206675e-01  4.57206675e-01  3.48747158e-09  4.57206675e-01  1.58162646e-07  1.29619391e-07  5.30000000e-01 
 5.40000000e-01  3.28677699e-09  4.57206685e-01  3.47294391e-09  4.57206686e-01  4.57206686e-01  3.48747156e-09  4.57206685e-01  1.58162655e-07  1.29619355e-07  5.40000000e-01 
 5.50000000e-01  3.28677699e-09  4.57206690e-01  3.47294391e-09  4.57206690e-01  4.57206690e-01  3.48747158e-09  4.57206690e-01  1.58162663e-07  1.29619121e-07  5.50000000e-01 
 5.60000000e-01  3.28677699e-09  4.57206698e-01  3.47294391e-09  4.57206698e-01  4.57206698e-01  3.48747162e-09  4.57206697e-01  1.58162684e-07  1.29619110e-07  5.60000000e-01 
 5.70000000e-01  3.28677700e-09  4.57206712e-01  3.47294391e-09  4.57206712e-01  4.57206712e-01  3.48747157e-09  4.57206712e-01  1.58162705e-07  1.29619206e-07  5.70000000e-01 
 5.80000000e-01  3.28677699e-09  4.57206681e-01  3.47294391e-09  4.57206681e-01  4.57206681e-01  3.48747158e-09  4.57206680e-01  1.58162646e-07  1.29618989e-07  5.80000000e-01 
 5.90000000e-01  3.28677694e-09  4.57206683e-01  3.47294391e-09  4.57206683e-01  4.57206683e-01  3.48747162e-09  4.57206683e-01  1.58162646e-07  1.29618826e-07  5.90000000e-01 
 6.00000000e-01  3.28677694e-09  4.57206677e-01  3.47294391e-09  4.57206677e-01  4.57206677e-01  3.48747163e-09  4.57206677e-01  1.58162639e-07  1.29618819e-07  6.00000000e-01 
 6.10000000e-01  3.28677694e-09  4.57206702e-01  3.47294391e-09  4.57206703e-01  4.57206703e-01  3.48747163e-09  4.57206702e-01  1.58162668e-07  1.29618783e-07  6.10000000e-01 
 6.20000000e-01  3.28677699e-09  4.57206703e-01  3.47294391e-09  4.57206703e-01  4.57206703e-01  3.48747163e-09  4.57206702e-01  1.58162685e-07  1.29618584e-07  6.20000000e-01 
 6.30000000e-01  3.28677694e-09  4.57206684e-01  3.47294391e-09  4.57206685e-01  4.57206685e-01  3.48747163e-09  4.57206684e-01  1.58162663e-07  1.29618527e-07  6.30000000e-01 
 6.40000000e-01  3.28677699e-09  4.57206678e-01  3.47294391e-09  4.57206678e-01  4.57206678e-01  3.48747163e-09  4.57206678e-01  1.58162653e-07  1.29618478e-07  6.40000000e-01 
 6.50000000e-01  3.28677694e-09  4.57206695e-01  3.47294391e-09  4.57206695e-01  4.57206695e-01  3.48747157e-09  4.57206695e-01  1.58162664e-07  1.29618407e-07  6.50000000e-01 
 6.60000000e-01  3.28677694e-09  4.57206691e-01  3.47294391e-09  4.57206691e-01  4.57206691e-01  3.48747158e-09  4.57206691e-01  1.58162669e-07  1.29618236e-07  6.60000000e-01 
 6.70000000e-01  3.28677699e-09  4.57206696e-01  3.47294391e-09  4.57206697e-01  4.57206697e-01  3.48747162e-09  4.57206696e-01  1.58162666e-07  1.29618215e-07  6.70000000e-01 
 6.80000000e-01  3.28677694e-09  4.57206694e-01  3.47294391e-09  4.57206694e-01  4.57206695e-01  3.48747157e-09  4.57206694e-01  1.58162665e-07  1.29617980e-07  6.80000000e-01 
 6.90000000e-01  3.28677699e-09  4.57206702e-01  3.47294391e-09  4.57206702e-01  4.57206702e-01  3.48747158e-09  4.57206701e-01  1.58162686e-07  1.29618002e-07  6.90000000e-01 
 7.00000000e-01  3.28677694e-09  4.57206695e-01  3.47294391e-09  4.57206695e-01  4.57206695e-01  3.48747156e-09  4.57206695e-01  1.58162674e-07  1.29617881e-07  7.00000000e-01 
 7.10000000e-01  3.28677699e-09  4.57206682e-01  3.47294391e-09  4.57206682e-01  4.57206682e-01  3.48747158e-09  4.57206682e-01  1.58162657e-07  1.29617767e-07  7.10000000e-01 
 7.20000000e-01  3.28677699e-09  4.57206685e-01  3.47294391e-09  4.57206685e-01  4.57206685e-01  3.48747156e-09  4.57206684e-01  1.58162647e-07  1.29617725e-07  7.20000000e-01 
 7.30000000e-01  3.28677699e-09  4.57206684e-01  3.47294391e-09  4.57206684e-01  4.57206684e-01  3.48747158e-09  4.57206684e-01  1.58162639e-07  1.29617568e-07  7.30000000e-01 
 7.40000000e-01  3.28677699e-09  4.57206673e-01  3.47294391e-09  4.57206673e-01  4.57206673e-01  3.48747162e-09  4.57206673e-01  1.58162618e-07  1.29617483e-07  7.40000000e-01 
 7.50000000e-01  3.28677699e-09  4.57206678e-01  3.47294391e-09  4.57206679e-01  4.57206679e-01  3.48747157e-09  4.57206678e-01  1.58162637e-07  1.29617447e-07  7.50000000e-01 
 7.60000000e-01  3.28677699e-09  4.57206684e-01  3.47294391e-09  4.57206684e-01  4.57206684e-01  3.48747158e-09  4.57206684e-01  1.58162647e-07  1.29617362e-07  7.60000000e-01 
 7.70000000e-01  3.28677699e-09  4.57206695e-01  3.47294391e-09  4.57206695e-01  4.57206695e-01  3.48747162e-09  4.57206695e-01  1.58162682e-07  1.29617199e-07  7.70000000e-01 
 7.80000000e-01  3.28677694e-09  4.57206686e-01  3.47294391e-09  4.57206686e-01  4.57206687e-01  3.48747157e-09  4.57206686e-01  1.58162656e-07  1.29617185e-07  7.80000000e-01 
 7.90000000e-01  3.28677699e-09  4.57206704e-01  3.47294391e-09  4.57206704e-01  4.57206704e-01  3.48747158e-09  4.57206704e-01  1.58162687e-07  1.29617099e-07  7.90000000e-01 
 8.00000000e-01  3.28677694e-09  4.57206673e-01  3.47294391e-09  4.57206673e-01  4.57206673e-01  3.48747162e-09  4.57206673e-01  1.58162631e-07  1.29617014e-07  8.00000000e-01 
 8.10000000e-01  3.28677699e-09  4.57206664e-01  3.47294391e-09  4.57206664e-01  4.57206664e-01  3.48747157e-09  4.57206664e-01  1.58162618e-07  1.29616822e-07  8.10000000e-01 
 8.20000000e-01  3.28677699e-09  4.57206683e-01  3.47294391e-09  4.57206683e-01  4.57206683e-01  3.48747158e-09  4.57206682e-01  1.58162648e-07  1.29616836e-07  8.20000000e-01 
 8.30000000e-01  3.28677699e-09  4.57206671e-01  3.47294391e-09  4.57206671e-01  4.57206671e-01  3.48747162e-09  4.57206671e-01  1.58162634e-07  1.29616716e-07  8.30000000e-01 
 8.40000000e-01  3.28677699e-09  4.57206668e-01  3.47294391e-09  4.57206668e-01  4.57206668e-01  3.48747157e-09  4.57206668e-01  1.58162630e-07  1.29616637e-07  8.40000000e-01 
 8.50000000e-01  3.28677694e-09  4.57206705e-01  3.47294391e-09  4.57206705e-01  4.57206705e-01  3.48747164e-09  4.57206705e-01  1.58162693e-07  1.29616609e-07  8.50000000e-01 
 8.60000000e-01  3.28677694e-09  4.57206707e-01  3.47294391e-09  4.57206707e-01  4.57206707e-01  3.48747162e-09  4.57206707e-01  1.58162687e-07  1.29616524e-07  8.60000000e-01 
 8.70000000e-01  3.28677699e-09  4.57206671e-01  3.47294391e-09  4.57206671e-01  4.57206671e-01  3.48747163e-09  4.57206670e-01  1.58162648e-07  1.29616296e-07  8.70000000e-01 
 8.80000000e-01  3.28677699e-09  4.57206687e-01  3.47294391e-09  4.57206688e-01  4.57206688e-01  3.48747157e-09  4.57206687e-01  1.58162667e-07  1.29616268e-07  8.80000000e-01 
 8.90000000e-01  3.28677699e-09  4.57206677e-01  3.47294391e-09  4.57206677e-01  4.57206677e-01  3.48747158e-09  4.57206677e-01  1.58162653e-07  1.29616197e-07  8.90000000e-01 
 9.00000000e-01  3.28677699e-09  4.57206680e-01  3.47294391e-09  4.57206680e-01  4.57206681e-01  3.48747162e-09  4.57206680e-01  1.58162642e-07  1.29616005e-07  9.00000000e-01 
 9.10000000e-01  3.28677699e-09  4.57206689e-01  3.47294391e-09  4.57206689e-01  4.57206689e-01  3.48747163e-09  4.57206689e-01  1.58162653e-07  1.29616041e-07  9.10000000e-01 
 9.20000000e-01  3.28677699e-09  4.57206705e-01  3.47294391e-09  4.57206705e-01  4.57206705e-01  3.48747163e-09  4.57206704e-01  1.58162680e-07  1.29615948e-07  9.20000000e-01 
 9.30000000e-01  3.28677699e-09  4.57206681e-01  3.47294391e-09  4.57206681e-01  4.57206681e-01  3.48747163e-09  4.57206681e-01  1.58162654e-07  1.29615820e-07  9.30000000e-01 
 9.40000000e-01  3.28677699e-09  4.57206667e-01  3.47294391e-09  4.57206667e-01  4.57206667e-01  3.48747163e-09  4.57206667e-01  1.58162630e-07  1.29615600e-07  9.40000000e-01 
 9.50000000e-01  3.28677699e-09  4.57206686e-01  3.47294391e-09  4.57206686e-01  4.57206686e-01  3.48747163e-09  4.57206686e-01  1.58162661e-07  1.29615700e-07  9.50000000e-01 
 9.60000000e-01  3.28677699e-09  4.57206684e-01  3.47294391e-09  4.57206684e-01  4.57206684e-01  3.48747163e-09  4.57206684e-01  1.58162662e-07  1.29615437e-07  9.60000000e-01 
 9.70000000e-01  3.28677699e-09  4.57206702e-01  3.47294391e-09  4.57206702e-01  4.57206702e-01  3.48747157e-09  4.57206702e-01  1.58162672e-07  1.29615437e-07  9.70000000e-01 
 9.80000000e-01  3.28677694e-09  4.57206669e-01  3.47294391e-09  4.57206669e-01  4.57206669e-01  3.48747158e-09  4.57206668e-01  1.58162633e-07  1.29615231e-07  9.80000000e-01 
 9.90000000e-01  3.28677699e-09  4.57206695e-01  3.47294391e-09  4.57206695e-01  4.57206695e-01  3.48747162e-09  4.57206695e-01  1.58162675e-07  1.29615110e-07  9.90000000e-01 
 1.00000000e+00  3.28677694e-09  4.57206704e-01  3.47294391e-09  4.57206705e-01  4.57206705e-01  3.48747163e-09  4.57206704e-01  1.58162689e-07  1.29615145e-07  1.00000000e+00 
 1.01000000e+00  3.28677699e-09  4.57206676e-01  3.47294391e-09  4.57206677e-01  4.57206677e-01  3.48747157e-09  4.57206676e-01  1.58162652e-07  1.29615046e-07  1.01000000e+00 
 1.02000000e+00  3.28677694e-09  4.57206683e-01  3.47294391e-09  4.57206683e-01  4.57206683e-01  3.48747158e-09  4.57206683e-01  1.58162656e-07  1.29614925e-07  1.02000000e+00 
 1.03000000e+00  3.28677700e-09  4.57206709e-01  3.47294391e-09  4.57206709e-01  4.57206709e-01  3.48747156e-09  4.57206709e-01  1.58162700e-07  1.29614804e-07  1.03000000e+00 
 1.04000000e+00  3.28677694e-09  4.57206687e-01  3.47294391e-09  4.57206687e-01  4.57206687e-01  3.48747158e-09  4.57206687e-01  1.58162660e-07  1.29614641e-07  1.04000000e+00 
 1.05000000e+00  3.28677694e-09  4.57206692e-01  3.47294397e-09  4.57206692e-01  4.57206692e-01  3.48747162e-09  4.57206692e-01  1.58162672e-07  1.29614619e-07  1.05000000e+00 
 1.06000000e+00  3.28677699e-09  4.57206692e-01  3.47294391e-09  4.57206692e-01  4.57206692e-01  3.48747157e-09  4.57206692e-01  1.58162663e-07  1.29614506e-07  1.06000000e+00 
 1.07000000e+00  3.28677699e-09  4.57206691e-01  3.47294391e-09  4.57206691e-01  4.57206692e-01  3.48747158e-09  4.57206691e-01  1.58162669e-07  1.29614371e-07  1.07000000e+00 
 1.08000000e+00  3.28677699e-09  4.57206667e-01  3.47294391e-09  4.57206667e-01  4.57206667e-01  3.48747156e-09  4.57206667e-01  1.58162632e-07  1.29614136e-07  1.08000000e+00 
 1.09000000e+00  3.28677699e-09  4.57206680e-01  3.47294391e-09  4.57206680e-01  4.57206680e-01  3.48747158e-09  4.57206680e-01  1.58162648e-07  1.29614193e-07  1.09000000e+00 
 1.10000000e+00  3.28677699e-09  4.57206680e-01  3.47294391e-09  4.57206680e-01  4.57206681e-01  3.48747156e-09  4.57206680e-01  1.58162646e-07  1.29614087e-07  1.10000000e+00 
