 v-sweep         v(b0)           v(b1)           v(b2)           v(b3)           v(b4)           v(b5)           v(b6)           i(vbias)        i(viout)        v(vout)        
 0.00000000e+00  4.55509993e-01  3.37743125e-09  4.55509993e-01  4.55509993e-01  3.15270065e-09  4.55509993e-01  4.55509993e-01  1.54939738e-07  1.50255644e-07  0.00000000e+00 
 1.00000000e-02  4.55509989e-01  3.37743123e-09  4.55509990e-01  4.55509989e-01  3.15270068e-09  4.55509989e-01  4.55509989e-01  1.54939740e-07  1.50255135e-07  1.00000000e-02 
 2.00000000e-02  4.55510014e-01  3.37743129e-09  4.55510014e-01  4.55510014e-01  3.15270068e-09  4.55510014e-01  4.55510014e-01  1.54939768e-07  1.50254796e-07  2.00000000e-02 
 3.00000000e-02  4.55509985e-01  3.37743123e-09  4.55509985e-01  4.55509985e-01  3.15270068e-09  4.55509985e-01  4.55509985e-01  1.54939726e-07  1.50254359e-07  3.00000000e-02 
 4.00000000e-02  4.55509987e-01  3.37743123e-09  4.55509987e-01  4.55509987e-01  3.15270068e-09  4.55509987e-01  4.55509987e-01  1.54939726e-07  1.50253944e-07  4.00000000e-02 
 5.00000000e-02  4.55509986e-01  3.37743128e-09  4.55509986e-01  4.55509986e-01  3.15270068e-09  4.55509986e-01  4.55509986e-01  1.54939728e-07  1.50253555e-07  5.00000000e-02 
 6.00000000e-02  4.55510010e-01  3.37743123e-09  4.55510010e-01  4.55510009e-01  3.15270068e-09  4.55510010e-01  4.55510010e-01  1.54939758e-07  1.50253264e-07  6.00000000e-02 
 7.00000000e-02  4.55510002e-01  3.37743128e-09  4.55510002e-01  4.55510002e-01  3.15270068e-09  4.55510002e-01  4.55510002e-01  1.54939746e-07  1.50252922e-07  7.00000000e-02 
 8.00000000e-02  4.55510015e-01  3.37743123e-09  4.55510015e-01  4.55510015e-01  3.15270068e-09  4.55510015e-01  4.55510015e-01  1.54939760e-07  1.50252777e-07  8.00000000e-02 
 9.00000000e-02  4.55510006e-01  3.37743128e-09  4.55510006e-01  4.55510006e-01  3.15270068e-09  4.55510006e-01  4.55510006e-01  1.54939750e-07  1.50252356e-07  9.00000000e-02 
 1.00000000e-01  4.55509985e-01  3.37743123e-09  4.55509985e-01  4.55509985e-01  3.15270068e-09  4.55509985e-01  4.55509985e-01  1.54939729e-07  1.50251901e-07  1.00000000e-01 
 1.10000000e-01  4.55509994e-01  3.37743128e-09  4.55509994e-01  4.55509994e-01  3.15270068e-09  4.55509994e-01  4.55509994e-01  1.54939725e-07  1.50251774e-07  1.10000000e-01 
 1.20000000e-01  4.55509997e-01  3.37743123e-09  4.55509997e-01  4.55509997e-01  3.15270068e-09  4.55509997e-01  4.55509997e-01  1.54939739e-07  1.50251472e-07  1.20000000e-01 
 1.30000000e-01  4.55510004e-01  3.37743123e-09  4.55510004e-01  4.55510004e-01  3.15270068e-09  4.55510004e-01  4.55510004e-01  1.54939759e-07  1.50251242e-07  1.30000000e-01 
 1.40000000e-01  4.55509988e-01  3.37743128e-09  4.55509989e-01  4.55509988e-01  3.15270068e-09  4.55509988e-01  4.55509988e-01  1.54939726e-07  1.50250988e-07  1.40000000e-01 
 1.50000000e-01  4.55509992e-01  3.37743128e-09  4.55509992e-01  4.55509992e-01  3.15270068e-09  4.55509992e-01  4.55509992e-01  1.54939737e-07  1.50250635e-07  1.50000000e-01 
 1.60000000e-01  4.55509996e-01  3.37743123e-09  4.55509996e-01  4.55509996e-01  3.15270068e-09  4.55509996e-01  4.55509996e-01  1.54939751e-07  1.50250481e-07  1.60000000e-01 
 1.70000000e-01  4.55509990e-01  3.37743123e-09  4.55509990e-01  4.55509989e-01  3.15270068e-09  4.55509990e-01  4.55509990e-01  1.54939738e-07  1.50250136e-07  1.70000000e-01 
 1.80000000e-01  4.55510011e-01  3.37743128e-09  4.55510011e-01  4.55510011e-01  3.15270068e-09  4.55510011e-01  4.55510011e-01  1.54939766e-07  1.50250136e-07  1.80000000e-01 
 1.90000000e-01  4.55509994e-01  3.37743128e-09  4.55509995e-01  4.55509994e-01  3.15270068e-09  4.55509994e-01  4.55509994e-01  1.54939735e-07  1.50249804e-07  1.90000000e-01 
 2.00000000e-01  4.55509997e-01  3.37743123e-09  4.55509998e-01  4.55509997e-01  3.15270068e-09  4.55509997e-01  4.55509997e-01  1.54939756e-07  1.50249669e-07  2.00000000e-01 
 2.10000000e-01  4.55510005e-01  3.37743123e-09  4.55510005e-01  4.55510005e-01  3.15270068e-09  4.55510005e-01  4.55510005e-01  1.54939756e-07  1.50249384e-07  2.10000000e-01 
 2.20000000e-01  4.55509982e-01  3.37743123e-09  4.55509982e-01  4.55509982e-01  3.15270068e-09  4.55509982e-01  4.55509982e-01  1.54939721e-07  1.50249182e-07  2.20000000e-01 
 2.30000000e-01  4.55509996e-01  3.37743128e-09  4.55509996e-01  4.55509996e-01  3.15270068e-09  4.55509996e-01  4.55509996e-01  1.54939736e-07  1.50249107e-07  2.30000000e-01 
 2.40000000e-01  4.55509988e-01  3.37743123e-09  4.55509988e-01  4.55509988e-01  3.15270068e-09  4.55509988e-01  4.55509988e-01  1.54939743e-07  1.50248905e-07  2.40000000e-01 
 2.50000000e-01  4.55509999e-01  3.37743128e-09  4.55510000e-01  4.55509999e-01  3.15270068e-09  4.55510000e-01  4.55510000e-01  1.54939753e-07  1.50248681e-07  2.50000000e-01 
 2.60000000e-01  4.55509973e-01  3.37743122e-09  4.55509974e-01  4.55509973e-01  3.15270068e-09  4.55509973e-01  4.55509973e-01  1.54939734e-07  1.50248455e-07  2.60000000e-01 
 2.70000000e-01  4.55510010e-01  3.37743123e-09  4.55510010e-01  4.55510010e-01  3.15270068e-09  4.55510010e-01  4.55510010e-01  1.54939756e-07  1.50248399e-07  2.70000000e-01 
 2.80000000e-01  4.55509980e-01  3.37743128e-09  4.55509980e-01  4.55509980e-01  3.15270068e-09  4.55509980e-01  4.55509980e-01  1.54939711e-07  1.50248193e-07  2.80000000e-01 
 2.90000000e-01  4.55509986e-01  3.37743123e-09  4.55509986e-01  4.55509986e-01  3.15270068e-09  4.55509986e-01  4.55509986e-01  1.54939714e-07  1.50248134e-07  2.90000000e-01 
 3.00000000e-01  4.55509978e-01  3.37743128e-09  4.55509978e-01  4.55509978e-01  3.15270068e-09  4.55509978e-01  4.55509978e-01  1.54939713e-07  1.50247899e-07  3.00000000e-01 
 3.10000000e-01  4.55509970e-01  3.37743122e-09  4.55509970e-01  4.55509970e-01  3.15270068e-09  4.55509970e-01  4.55509970e-01  1.54939696e-07  1.50247597e-07  3.10000000e-01 
 3.20000000e-01  4.55509994e-01  3.37743128e-09  4.55509994e-01  4.55509994e-01  3.15270068e-09  4.55509994e-01  4.55509994e-01  1.54939733e-07  1.50247569e-07  3.20000000e-01 
 3.30000000e-01  4.55510013e-01  3.37743129e-09  4.55510013e-01  4.55510013e-01  3.15270068e-09  4.55510013e-01  4.55510013e-01  1.54939768e-07  1.50247605e-07  3.30000000e-01 
 3.40000000e-01  4.55509992e-01  3.37743123e-09  4.55509992e-01  4.55509992e-01  3.15270068e-09  4.55509992e-01  4.55509992e-01  1.54939733e-07  1.50247406e-07  3.40000000e-01 
 3.50000000e-01  4.55510030e-01  3.37743123e-09  4.55510030e-01  4.55510030e-01  3.15270068e-09  4.55510030e-01  4.55510030e-01  1.54939783e-07  1.50247367e-07  3.50000000e-01 
 3.60000000e-01  4.55509989e-01  3.37743123e-09  4.55509989e-01  4.55509989e-01  3.15270068e-09  4.55509989e-01  4.55509989e-01  1.54939723e-07  1.50247086e-07  3.60000000e-01 
 3.70000000e-01  4.55510005e-01  3.37743128e-09  4.55510005e-01  4.55510005e-01  3.15270068e-09  4.55510005e-01  4.55510005e-01  1.54939740e-07  1.50247033e-07  3.70000000e-01 
 3.80000000e-01  4.55509987e-01  3.37743123e-09  4.55509987e-01  4.55509987e-01  3.15270068e-09  4.55509987e-01  4.55509987e-01  1.54939734e-07  1.50246812e-07  3.80000000e-01 
 3.90000000e-01  4.55510006e-01  3.37743128e-09  4.55510006e-01  4.55510005e-01  3.15270068e-09  4.55510006e-01  4.55510006e-01  1.54939755e-07  1.50246667e-07  3.90000000e-01 
 4.00000000e-01  4.55509999e-01  3.37743123e-09  4.55509999e-01  4.55509999e-01  3.15270068e-09  4.55509999e-01  4.55509999e-01  1.54939747e-07  1.50246599e-07  4.00000000e-01 
 4.10000000e-01  4.55510000e-01  3.37743123e-09  4.55510000e-01  4.55510000e-01  3.15270068e-09  4.55510000e-01  4.55510000e-01  1.54939749e-07  1.50246475e-07  4.10000000e-01 
 4.20000000e-01  4.55509977e-01  3.37743128e-09  4.55509977e-01  4.55509977e-01  3.15270068e-09  4.55509977e-01  4.55509977e-01  1.54939720e-07  1.50246287e-07  4.20000000e-01 
 4.30000000e-01  4.55510011e-01  3.37743129e-09  4.55510011e-01  4.55510011e-01  3.15270068e-09  4.55510011e-01  4.55510011e-01  1.54939751e-07  1.50246326e-07  4.30000000e-01 
 4.40000000e-01  4.55510008e-01  3.37743128e-09  4.55510008e-01  4.55510008e-01  3.15270068e-09  4.55510008e-01  4.55510008e-01  1.54939761e-07  1.50246361e-07  4.40000000e-01 
 4.50000000e-01  4.55509981e-01  3.37743123e-09  4.55509981e-01  4.55509981e-01  3.15270068e-09  4.55509981e-01  4.55509981e-01  1.54939716e-07  1.50245963e-07  4.50000000e-01 
 4.60000000e-01  4.55509981e-01  3.37743123e-09  4.55509981e-01  4.55509981e-01  3.15270068e-09  4.55509981e-01  4.55509981e-01  1.54939729e-07  1.50245913e-07  4.60000000e-01 
 4.70000000e-01  4.55509995e-01  3.37743123e-09  4.55509995e-01  4.55509995e-01  3.15270068e-09  4.55509995e-01  4.55509995e-01  1.54939751e-07  1.50245771e-07  4.70000000e-01 
 4.80000000e-01  4.55509984e-01  3.37743123e-09  4.55509984e-01  4.55509984e-01  3.15270068e-09  4.55509984e-01  4.55509984e-01  1.54939723e-07  1.50245757e-07  4.80000000e-01 
 4.90000000e-01  4.55509994e-01  3.37743128e-09  4.55509994e-01  4.55509994e-01  3.15270068e-09  4.55509994e-01  4.55509994e-01  1.54939743e-07  1.50245675e-07  4.90000000e-01 
 5.00000000e-01  4.55510012e-01  3.37743129e-09  4.55510012e-01  4.55510012e-01  3.15270068e-09  4.55510012e-01  4.55510012e-01  1.54939778e-07  1.50245594e-07  5.00000000e-01 
 5.10000000e-01  4.55509984e-01  3.37743123e-09  4.55509984e-01  4.55509984e-01  3.15270068e-09  4.55509984e-01  4.55509984e-01  1.54939716e-07  1.50245317e-07  5.10000000e-01 
 5.20000000e-01  4.55510012e-01  3.37743123e-09  4.55510012e-01  4.55510011e-01  3.15270068e-09  4.55510012e-01  4.55510012e-01  1.54939754e-07  1.50245384e-07  5.20000000e-01 
 5.30000000e-01  4.55509986e-01  3.37743123e-09  4.55509986e-01  4.55509986e-01  3.15270068e-09  4.55509986e-01  4.55509986e-01  1.54939718e-07  1.50245178e-07  5.30000000e-01 
 5.40000000e-01  4.55510002e-01  3.37743128e-09  4.55510002e-01  4.55510002e-01  3.15270068e-09  4.55510002e-01  4.55510002e-01  1.54939743e-07  1.50245079e-07  5.40000000e-01 
 5.50000000e-01  4.55509971e-01  3.37743128e-09  4.55509971e-01  4.55509971e-01  3.15270068e-09  4.55509971e-01  4.55509971e-01  1.54939704e-07  1.50244933e-07  5.50000000e-01 
 5.60000000e-01  4.55509989e-01  3.37743128e-09  4.55509989e-01  4.55509989e-01  3.15270068e-09  4.55509989e-01  4.55509989e-01  1.54939727e-07  1.50244791e-07  5.60000000e-01 
 5.70000000e-01  4.55509998e-01  3.37743128e-09  4.55509998e-01  4.55509998e-01  3.15270068e-09  4.55509998e-01  4.55509998e-01  1.54939750e-07  1.50244812e-07  5.70000000e-01 
 5.80000000e-01  4.55509979e-01  3.37743123e-09  4.55509979e-01  4.55509979e-01  3.15270068e-09  4.55509979e-01  4.55509979e-01  1.54939716e-07  1.50244617e-07  5.80000000e-01 
 5.90000000e-01  4.55510000e-01  3.37743123e-09  4.55510000e-01  4.55510000e-01  3.15270068e-09  4.55510000e-01  4.55510000e-01  1.54939739e-07  1.50244546e-07  5.90000000e-01 
 6.00000000e-01  4.55509988e-01  3.37743128e-09  4.55509988e-01  4.55509988e-01  3.15270068e-09  4.55509988e-01  4.55509988e-01  1.54939731e-07  1.50244389e-07  6.00000000e-01 
 6.10000000e-01  4.55509993e-01  3.37743123e-09  4.55509994e-01  4.55509993e-01  3.15270068e-09  4.55509993e-01  4.55509993e-01  1.54939741e-07  1.50244382e-07  6.10000000e-01 
 6.20000000e-01  4.55510001e-01  3.37743123e-09  4.55510001e-01  4.55510001e-01  3.15270068e-09  4.55510001e-01  4.55510001e-01  1.54939769e-07  1.50244155e-07  6.20000000e-01 
 6.30000000e-01  4.55509970e-01  3.37743128e-09  4.55509970e-01  4.55509970e-01  3.15270068e-09  4.55509970e-01  4.55509970e-01  1.54939713e-07  1.50244034e-07  6.30000000e-01 
 6.40000000e-01  4.55509981e-01  3.37743128e-09  4.55509981e-01  4.55509981e-01  3.15270068e-09  4.55509981e-01  4.55509981e-01  1.54939703e-07  1.50244006e-07  6.40000000e-01 
 6.50000000e-01  4.55510018e-01  3.37743129e-09  4.55510018e-01  4.55510018e-01  3.15270068e-09  4.55510018e-01  4.55510018e-01  1.54939763e-07  1.50244063e-07  6.50000000e-01 
 6.60000000e-01  4.55510002e-01  3.37743128e-09  4.55510002e-01  4.55510002e-01  3.15270068e-09  4.55510002e-01  4.55510002e-01  1.54939759e-07  1.50243906e-07  6.60000000e-01 
 6.70000000e-01  4.55509996e-01  3.37743123e-09  4.55509996e-01  4.55509996e-01  3.15270068e-09  4.55509996e-01  4.55509996e-01  1.54939742e-07  1.50243856e-07  6.70000000e-01 
 6.80000000e-01  4.55510007e-01  3.37743128e-09  4.55510007e-01  4.55510007e-01  3.15270068e-09  4.55510007e-01  4.55510007e-01  1.54939769e-07  1.50243686e-07  6.80000000e-01 
 6.90000000e-01  4.55510001e-01  3.37743128e-09  4.55510001e-01  4.55510001e-01  3.15270068e-09  4.55510001e-01  4.55510001e-01  1.54939743e-07  1.50243558e-07  6.90000000e-01 
 7.00000000e-01  4.55509981e-01  3.37743128e-09  4.55509982e-01  4.55509981e-01  3.15270068e-09  4.55509981e-01  4.55509981e-01  1.54939727e-07  1.50243331e-07  7.00000000e-01 
 7.10000000e-01  4.55509998e-01  3.37743123e-09  4.55509998e-01  4.55509998e-01  3.15270068e-09  4.55509998e-01  4.55509998e-01  1.54939741e-07  1.50243210e-07  7.10000000e-01 
 7.20000000e-01  4.55509976e-01  3.37743122e-09  4.55509977e-01  4.55509976e-01  3.15270068e-09  4.55509976e-01  4.55509976e-01  1.54939710e-07  1.50243061e-07  7.20000000e-01 
 7.30000000e-01  4.55510002e-01  3.37743128e-09  4.55510002e-01  4.55510001e-01  3.15270068e-09  4.55510002e-01  4.55510002e-01  1.54939745e-07  1.50243110e-07  7.30000000e-01 
 7.40000000e-01  4.55509985e-01  3.37743128e-09  4.55509985e-01  4.55509985e-01  3.15270068e-09  4.55509985e-01  4.55509985e-01  1.54939725e-07  1.50242904e-07  7.40000000e-01 
 7.50000000e-01  4.55509988e-01  3.37743128e-09  4.55509988e-01  4.55509988e-01  3.15270068e-09  4.55509988e-01  4.55509988e-01  1.54939732e-07  1.50242826e-07  7.50000000e-01 
 7.60000000e-01  4.55509977e-01  3.37743128e-09  4.55509977e-01  4.55509977e-01  3.15270068e-09  4.55509977e-01  4.55509977e-01  1.54939710e-07  1.50242734e-07  7.60000000e-01 
 7.70000000e-01  4.55510009e-01  3.37743123e-09  4.55510010e-01  4.55510009e-01  3.15270068e-09  4.55510009e-01  4.55510009e-01  1.54939746e-07  1.50242805e-07  7.70000000e-01 
 7.80000000e-01  4.55510005e-01  3.37743128e-09  4.55510005e-01  4.55510005e-01  3.15270068e-09  4.55510005e-01  4.55510005e-01  1.54939765e-07  1.50242627e-07  7.80000000e-01 
 7.90000000e-01  4.55509982e-01  3.37743128e-09  4.55509982e-01  4.55509982e-01  3.15270068e-09  4.55509982e-01  4.55509982e-01  1.54939727e-07  1.50242371e-07  7.90000000e-01 
 8.00000000e-01  4.55509986e-01  3.37743128e-09  4.55509986e-01  4.55509986e-01  3.15270068e-09  4.55509986e-01  4.55509986e-01  1.54939727e-07  1.50242236e-07  8.00000000e-01 
 8.10000000e-01  4.55510001e-01  3.37743123e-09  4.55510002e-01  4.55510001e-01  3.15270068e-09  4.55510001e-01  4.55510001e-01  1.54939752e-07  1.50242066e-07  8.10000000e-01 
 8.20000000e-01  4.55510001e-01  3.37743123e-09  4.55510002e-01  4.55510001e-01  3.15270068e-09  4.55510001e-01  4.55510002e-01  1.54939743e-07  1.50242158e-07  8.20000000e-01 
 8.30000000e-01  4.55510005e-01  3.37743123e-09  4.55510005e-01  4.55510005e-01  3.15270068e-09  4.55510005e-01  4.55510005e-01  1.54939755e-07  1.50241981e-07  8.30000000e-01 
 8.40000000e-01  4.55509969e-01  3.37743128e-09  4.55509969e-01  4.55509969e-01  3.15270068e-09  4.55509969e-01  4.55509969e-01  1.54939701e-07  1.50241803e-07  8.40000000e-01 
 8.50000000e-01  4.55510011e-01  3.37743129e-09  4.55510011e-01  4.55510011e-01  3.15270068e-09  4.55510011e-01  4.55510011e-01  1.54939755e-07  1.50241881e-07  8.50000000e-01 
 8.60000000e-01  4.55509981e-01  3.37743128e-09  4.55509981e-01  4.55509981e-01  3.15270068e-09  4.55509981e-01  4.55509981e-01  1.54939732e-07  1.50241654e-07  8.60000000e-01 
 8.70000000e-01  4.55509974e-01  3.37743122e-09  4.55509975e-01  4.55509974e-01  3.15270068e-09  4.55509974e-01  4.55509974e-01  1.54939697e-07  1.50241483e-07  8.70000000e-01 
 8.80000000e-01  4.55510013e-01  3.37743123e-09  4.55510013e-01  4.55510013e-01  3.15270068e-09  4.55510013e-01  4.55510013e-01  1.54939761e-07  1.50241448e-07  8.80000000e-01 
 8.90000000e-01  4.55510000e-01  3.37743128e-09  4.55510000e-01  4.55510000e-01  3.15270068e-09  4.55510000e-01  4.55510000e-01  1.54939739e-07  1.50241306e-07  8.90000000e-01 
 9.00000000e-01  4.55509998e-01  3.37743128e-09  4.55509998e-01  4.55509998e-01  3.15270068e-09  4.55509998e-01  4.55509998e-01  1.54939745e-07  1.50241313e-07  9.00000000e-01 
 9.10000000e-01  4.55510004e-01  3.37743123e-09  4.55510004e-01  4.55510004e-01  3.15270068e-09  4.55510004e-01  4.55510004e-01  1.54939754e-07  1.50241114e-07  9.10000000e-01 
 9.20000000e-01  4.55509991e-01  3.37743128e-09  4.55509991e-01  4.55509991e-01  3.15270068e-09  4.55509991e-01  4.55509991e-01  1.54939744e-07  1.50240965e-07  9.20000000e-01 
 9.30000000e-01  4.55509992e-01  3.37743128e-09  4.55509992e-01  4.55509992e-01  3.15270068e-09  4.55509992e-01  4.55509992e-01  1.54939744e-07  1.50240943e-07  9.30000000e-01 
 9.40000000e-01  4.55510000e-01  3.37743128e-09  4.55510001e-01  4.55510000e-01  3.15270068e-09  4.55510000e-01  4.55510000e-01  1.54939764e-07  1.50240751e-07  9.40000000e-01 
 9.50000000e-01  4.55510014e-01  3.37743129e-09  4.55510014e-01  4.55510014e-01  3.15270068e-09  4.55510014e-01  4.55510014e-01  1.54939771e-07  1.50240723e-07  9.50000000e-01 
 9.60000000e-01  4.55510004e-01  3.37743128e-09  4.55510004e-01  4.55510004e-01  3.15270068e-09  4.55510004e-01  4.55510004e-01  1.54939754e-07  1.50240460e-07  9.60000000e-01 
 9.70000000e-01  4.55510008e-01  3.37743128e-09  4.55510008e-01  4.55510008e-01  3.15270068e-09  4.55510008e-01  4.55510008e-01  1.54939757e-07  1.50240389e-07  9.70000000e-01 
 9.80000000e-01  4.55510004e-01  3.37743123e-09  4.55510004e-01  4.55510004e-01  3.15270068e-09  4.55510004e-01  4.55510004e-01  1.54939756e-07  1.50240240e-07  9.80000000e-01 
 9.90000000e-01  4.55509980e-01  3.37743123e-09  4.55509980e-01  4.55509980e-01  3.15270068e-09  4.55509980e-01  4.55509980e-01  1.54939726e-07  1.50240140e-07  9.90000000e-01 
 1.00000000e+00  4.55510012e-01  3.37743123e-09  4.55510012e-01  4.55510012e-01  3.15270068e-09  4.55510012e-01  4.55510012e-01  1.54939760e-07  1.50240027e-07  1.00000000e+00 
 1.01000000e+00  4.55509987e-01  3.37743123e-09  4.55509987e-01  4.55509987e-01  3.15270068e-09  4.55509987e-01  4.55509987e-01  1.54939731e-07  1.50239849e-07  1.01000000e+00 
 1.02000000e+00  4.55509983e-01  3.37743123e-09  4.55509983e-01  4.55509983e-01  3.15270068e-09  4.55509983e-01  4.55509983e-01  1.54939722e-07  1.50239664e-07  1.02000000e+00 
 1.03000000e+00  4.55510013e-01  3.37743129e-09  4.55510013e-01  4.55510013e-01  3.15270068e-09  4.55510013e-01  4.55510013e-01  1.54939782e-07  1.50239600e-07  1.03000000e+00 
 1.04000000e+00  4.55509976e-01  3.37743128e-09  4.55509976e-01  4.55509976e-01  3.15270068e-09  4.55509976e-01  4.55509976e-01  1.54939711e-07  1.50239387e-07  1.04000000e+00 
 1.05000000e+00  4.55509994e-01  3.37743128e-09  4.55509994e-01  4.55509994e-01  3.15270068e-09  4.55509994e-01  4.55509994e-01  1.54939732e-07  1.50239387e-07  1.05000000e+00 
 1.06000000e+00  4.55509991e-01  3.37743128e-09  4.55509991e-01  4.55509991e-01  3.15270068e-09  4.55509991e-01  4.55509991e-01  1.54939745e-07  1.50239288e-07  1.06000000e+00 
 1.07000000e+00  4.55510001e-01  3.37743128e-09  4.55510001e-01  4.55510001e-01  3.15270068e-09  4.55510001e-01  4.55510001e-01  1.54939740e-07  1.50239082e-07  1.07000000e+00 
 1.08000000e+00  4.55510009e-01  3.37743128e-09  4.55510009e-01  4.55510009e-01  3.15270068e-09  4.55510009e-01  4.55510009e-01  1.54939756e-07  1.50238968e-07  1.08000000e+00 
 1.09000000e+00  4.55509993e-01  3.37743128e-09  4.55509994e-01  4.55509993e-01  3.15270068e-09  4.55509993e-01  4.55509994e-01  1.54939738e-07  1.50238819e-07  1.09000000e+00 
 1.10000000e+00  4.55509994e-01  3.37743128e-09  4.55509994e-01  4.55509994e-01  3.15270068e-09  4.55509994e-01  4.55509994e-01  1.54939739e-07  1.50238755e-07  1.10000000e+00 
