 v-sweep         v(b0)           v(b1)           v(b2)           v(b3)           v(b4)           v(b5)           v(b6)           i(vbias)        i(viout)        v(vout)        
 0.00000000e+00  3.63692149e-09  4.58643186e-01  4.58643186e-01  3.30406607e-09  4.58643186e-01  3.41890755e-09  3.33678260e-09  1.61947944e-07  3.43812956e-08  0.00000000e+00 
 1.00000000e-02  3.63692147e-09  4.58643154e-01  4.58643154e-01  3.30406604e-09  4.58643154e-01  3.41890753e-09  3.33678257e-09  1.61947888e-07  3.43808427e-08  1.00000000e-02 
 2.00000000e-02  3.63692152e-09  4.58643141e-01  4.58643141e-01  3.30406604e-09  4.58643141e-01  3.41890753e-09  3.33678257e-09  1.61947870e-07  3.43804096e-08  2.00000000e-02 
 3.00000000e-02  3.63692152e-09  4.58643134e-01  4.58643134e-01  3.30406604e-09  4.58643134e-01  3.41890758e-09  3.33678257e-09  1.61947849e-07  3.43799964e-08  3.00000000e-02 
 4.00000000e-02  3.63692152e-09  4.58643129e-01  4.58643129e-01  3.30406604e-09  4.58643129e-01  3.41890752e-09  3.33678257e-09  1.61947861e-07  3.43796667e-08  4.00000000e-02 
 5.00000000e-02  3.63692152e-09  4.58643143e-01  4.58643143e-01  3.30406604e-09  4.58643143e-01  3.41890758e-09  3.33678257e-09  1.61947861e-07  3.43794540e-08  5.00000000e-02 
 6.00000000e-02  3.63692152e-09  4.58643135e-01  4.58643135e-01  3.30406604e-09  4.58643135e-01  3.41890758e-09  3.33678257e-09  1.61947866e-07  3.43790538e-08  6.00000000e-02 
 7.00000000e-02  3.63692152e-09  4.58643127e-01  4.58643127e-01  3.30406604e-09  4.58643127e-01  3.41890752e-09  3.33678257e-09  1.61947837e-07  3.43787621e-08  7.00000000e-02 
 8.00000000e-02  3.63692147e-09  4.58643160e-01  4.58643160e-01  3.30406604e-09  4.58643160e-01  3.41890753e-09  3.33678257e-09  1.61947900e-07  3.43784885e-08  8.00000000e-02 
 9.00000000e-02  3.63692152e-09  4.58643138e-01  4.58643138e-01  3.30406604e-09  4.58643138e-01  3.41890752e-09  3.33678257e-09  1.61947877e-07  3.43781981e-08  9.00000000e-02 
 1.00000000e-01  3.63692147e-09  4.58643156e-01  4.58643156e-01  3.30406604e-09  4.58643156e-01  3.41890753e-09  3.33678257e-09  1.61947901e-07  3.43780036e-08  1.00000000e-01 
 1.10000000e-01  3.63692152e-09  4.58643146e-01  4.58643146e-01  3.30406604e-09  4.58643146e-01  3.41890753e-09  3.33678257e-09  1.61947880e-07  3.43777433e-08  1.10000000e-01 
 1.20000000e-01  3.63692152e-09  4.58643143e-01  4.58643143e-01  3.30406604e-09  4.58643143e-01  3.41890758e-09  3.33678257e-09  1.61947879e-07  3.43774751e-08  1.20000000e-01 
 1.30000000e-01  3.63692147e-09  4.58643118e-01  4.58643118e-01  3.30406604e-09  4.58643118e-01  3.41890752e-09  3.33678257e-09  1.61947836e-07  3.43773152e-08  1.30000000e-01 
 1.40000000e-01  3.63692152e-09  4.58643140e-01  4.58643140e-01  3.30406604e-09  4.58643140e-01  3.41890752e-09  3.33678257e-09  1.61947874e-07  3.43770008e-08  1.40000000e-01 
 1.50000000e-01  3.63692152e-09  4.58643150e-01  4.58643150e-01  3.30406604e-09  4.58643150e-01  3.41890753e-09  3.33678257e-09  1.61947892e-07  3.43769546e-08  1.50000000e-01 
 1.60000000e-01  3.63692153e-09  4.58643168e-01  4.58643168e-01  3.30406604e-09  4.58643168e-01  3.41890753e-09  3.33678257e-09  1.61947901e-07  3.43767503e-08  1.60000000e-01 
 1.70000000e-01  3.63692147e-09  4.58643157e-01  4.58643157e-01  3.30406604e-09  4.58643157e-01  3.41890753e-09  3.33678257e-09  1.61947891e-07  3.43765016e-08  1.70000000e-01 
 1.80000000e-01  3.63692147e-09  4.58643139e-01  4.58643139e-01  3.30406604e-09  4.58643139e-01  3.41890752e-09  3.33678257e-09  1.61947883e-07  3.43763951e-08  1.80000000e-01 
 1.90000000e-01  3.63692147e-09  4.58643143e-01  4.58643143e-01  3.30406604e-09  4.58643143e-01  3.41890753e-09  3.33678257e-09  1.61947875e-07  3.43762068e-08  1.90000000e-01 
 2.00000000e-01  3.63692147e-09  4.58643134e-01  4.58643134e-01  3.30406604e-09  4.58643134e-01  3.41890752e-09  3.33678257e-09  1.61947877e-07  3.43761126e-08  2.00000000e-01 
 2.10000000e-01  3.63692153e-09  4.58643156e-01  4.58643156e-01  3.30406604e-09  4.58643156e-01  3.41890753e-09  3.33678257e-09  1.61947889e-07  3.43758977e-08  2.10000000e-01 
 2.20000000e-01  3.63692147e-09  4.58643149e-01  4.58643149e-01  3.30406604e-09  4.58643149e-01  3.41890758e-09  3.33678257e-09  1.61947882e-07  3.43757183e-08  2.20000000e-01 
 2.30000000e-01  3.63692152e-09  4.58643147e-01  4.58643147e-01  3.30406604e-09  4.58643147e-01  3.41890758e-09  3.33678257e-09  1.61947876e-07  3.43755797e-08  2.30000000e-01 
 2.40000000e-01  3.63692152e-09  4.58643144e-01  4.58643144e-01  3.30406604e-09  4.58643144e-01  3.41890753e-09  3.33678257e-09  1.61947877e-07  3.43754181e-08  2.40000000e-01 
 2.50000000e-01  3.63692152e-09  4.58643144e-01  4.58643144e-01  3.30406604e-09  4.58643144e-01  3.41890758e-09  3.33678257e-09  1.61947871e-07  3.43753914e-08  2.50000000e-01 
 2.60000000e-01  3.63692152e-09  4.58643135e-01  4.58643135e-01  3.30406604e-09  4.58643135e-01  3.41890752e-09  3.33678257e-09  1.61947868e-07  3.43752564e-08  2.60000000e-01 
 2.70000000e-01  3.63692152e-09  4.58643148e-01  4.58643148e-01  3.30406604e-09  4.58643147e-01  3.41890753e-09  3.33678257e-09  1.61947886e-07  3.43750859e-08  2.70000000e-01 
 2.80000000e-01  3.63692147e-09  4.58643158e-01  4.58643158e-01  3.30406604e-09  4.58643157e-01  3.41890758e-09  3.33678257e-09  1.61947911e-07  3.43749971e-08  2.80000000e-01 
 2.90000000e-01  3.63692152e-09  4.58643139e-01  4.58643139e-01  3.30406604e-09  4.58643139e-01  3.41890752e-09  3.33678257e-09  1.61947886e-07  3.43748638e-08  2.90000000e-01 
 3.00000000e-01  3.63692147e-09  4.58643132e-01  4.58643132e-01  3.30406604e-09  4.58643132e-01  3.41890752e-09  3.33678257e-09  1.61947857e-07  3.43748532e-08  3.00000000e-01 
 3.10000000e-01  3.63692147e-09  4.58643138e-01  4.58643138e-01  3.30406604e-09  4.58643138e-01  3.41890752e-09  3.33678257e-09  1.61947856e-07  3.43747111e-08  3.10000000e-01 
 3.20000000e-01  3.63692147e-09  4.58643104e-01  4.58643104e-01  3.30406604e-09  4.58643104e-01  3.41890752e-09  3.33678257e-09  1.61947823e-07  3.43745725e-08  3.20000000e-01 
 3.30000000e-01  3.63692147e-09  4.58643142e-01  4.58643142e-01  3.30406604e-09  4.58643142e-01  3.41890753e-09  3.33678257e-09  1.61947873e-07  3.43745441e-08  3.30000000e-01 
 3.40000000e-01  3.63692153e-09  4.58643157e-01  4.58643157e-01  3.30406604e-09  4.58643157e-01  3.41890753e-09  3.33678257e-09  1.61947892e-07  3.43743878e-08  3.40000000e-01 
 3.50000000e-01  3.63692152e-09  4.58643153e-01  4.58643153e-01  3.30406604e-09  4.58643153e-01  3.41890753e-09  3.33678257e-09  1.61947880e-07  3.43742990e-08  3.50000000e-01 
 3.60000000e-01  3.63692147e-09  4.58643136e-01  4.58643136e-01  3.30406604e-09  4.58643136e-01  3.41890752e-09  3.33678257e-09  1.61947858e-07  3.43742457e-08  3.60000000e-01 
 3.70000000e-01  3.63692152e-09  4.58643130e-01  4.58643130e-01  3.30406604e-09  4.58643130e-01  3.41890752e-09  3.33678251e-09  1.61947859e-07  3.43741462e-08  3.70000000e-01 
 3.80000000e-01  3.63692147e-09  4.58643145e-01  4.58643145e-01  3.30406604e-09  4.58643145e-01  3.41890753e-09  3.33678257e-09  1.61947880e-07  3.43740396e-08  3.80000000e-01 
 3.90000000e-01  3.63692147e-09  4.58643150e-01  4.58643150e-01  3.30406604e-09  4.58643150e-01  3.41890753e-09  3.33678257e-09  1.61947898e-07  3.43740787e-08  3.90000000e-01 
 4.00000000e-01  3.63692147e-09  4.58643155e-01  4.58643155e-01  3.30406604e-09  4.58643155e-01  3.41890753e-09  3.33678257e-09  1.61947897e-07  3.43738868e-08  4.00000000e-01 
 4.10000000e-01  3.63692147e-09  4.58643172e-01  4.58643172e-01  3.30406604e-09  4.58643172e-01  3.41890753e-09  3.33678257e-09  1.61947924e-07  3.43738549e-08  4.10000000e-01 
 4.20000000e-01  3.63692152e-09  4.58643141e-01  4.58643141e-01  3.30406604e-09  4.58643141e-01  3.41890753e-09  3.33678257e-09  1.61947873e-07  3.43737057e-08  4.20000000e-01 
 4.30000000e-01  3.63692152e-09  4.58643129e-01  4.58643129e-01  3.30406604e-09  4.58643129e-01  3.41890752e-09  3.33678257e-09  1.61947846e-07  3.43737341e-08  4.30000000e-01 
 4.40000000e-01  3.63692152e-09  4.58643142e-01  4.58643142e-01  3.30406604e-09  4.58643142e-01  3.41890758e-09  3.33678257e-09  1.61947870e-07  3.43736062e-08  4.40000000e-01 
 4.50000000e-01  3.63692147e-09  4.58643150e-01  4.58643150e-01  3.30406604e-09  4.58643150e-01  3.41890753e-09  3.33678257e-09  1.61947893e-07  3.43735174e-08  4.50000000e-01 
 4.60000000e-01  3.63692152e-09  4.58643140e-01  4.58643140e-01  3.30406604e-09  4.58643140e-01  3.41890752e-09  3.33678257e-09  1.61947868e-07  3.43734641e-08  4.60000000e-01 
 4.70000000e-01  3.63692147e-09  4.58643134e-01  4.58643135e-01  3.30406604e-09  4.58643134e-01  3.41890752e-09  3.33678257e-09  1.61947861e-07  3.43732935e-08  4.70000000e-01 
 4.80000000e-01  3.63692152e-09  4.58643137e-01  4.58643137e-01  3.30406604e-09  4.58643137e-01  3.41890752e-09  3.33678257e-09  1.61947861e-07  3.43734392e-08  4.80000000e-01 
 4.90000000e-01  3.63692152e-09  4.58643135e-01  4.58643135e-01  3.30406604e-09  4.58643135e-01  3.41890758e-09  3.33678257e-09  1.61947869e-07  3.43733788e-08  4.90000000e-01 
 5.00000000e-01  3.63692147e-09  4.58643159e-01  4.58643159e-01  3.30406604e-09  4.58643159e-01  3.41890753e-09  3.33678257e-09  1.61947889e-07  3.43732616e-08  5.00000000e-01 
 5.10000000e-01  3.63692152e-09  4.58643143e-01  4.58643143e-01  3.30406604e-09  4.58643143e-01  3.41890753e-09  3.33678251e-09  1.61947872e-07  3.43731692e-08  5.10000000e-01 
 5.20000000e-01  3.63692152e-09  4.58643143e-01  4.58643143e-01  3.30406604e-09  4.58643143e-01  3.41890753e-09  3.33678257e-09  1.61947871e-07  3.43730555e-08  5.20000000e-01 
 5.30000000e-01  3.63692152e-09  4.58643148e-01  4.58643148e-01  3.30406604e-09  4.58643148e-01  3.41890753e-09  3.33678257e-09  1.61947881e-07  3.43730626e-08  5.30000000e-01 
 5.40000000e-01  3.63692147e-09  4.58643175e-01  4.58643175e-01  3.30406604e-09  4.58643175e-01  3.41890753e-09  3.33678257e-09  1.61947936e-07  3.43729241e-08  5.40000000e-01 
 5.50000000e-01  3.63692147e-09  4.58643170e-01  4.58643170e-01  3.30406604e-09  4.58643170e-01  3.41890758e-09  3.33678257e-09  1.61947913e-07  3.43729667e-08  5.50000000e-01 
 5.60000000e-01  3.63692147e-09  4.58643149e-01  4.58643149e-01  3.30406604e-09  4.58643149e-01  3.41890753e-09  3.33678257e-09  1.61947891e-07  3.43728068e-08  5.60000000e-01 
 5.70000000e-01  3.63692152e-09  4.58643120e-01  4.58643120e-01  3.30406604e-09  4.58643120e-01  3.41890758e-09  3.33678257e-09  1.61947834e-07  3.43728779e-08  5.70000000e-01 
 5.80000000e-01  3.63692147e-09  4.58643162e-01  4.58643162e-01  3.30406604e-09  4.58643162e-01  3.41890753e-09  3.33678257e-09  1.61947902e-07  3.43726541e-08  5.80000000e-01 
 5.90000000e-01  3.63692152e-09  4.58643140e-01  4.58643140e-01  3.30406604e-09  4.58643140e-01  3.41890752e-09  3.33678257e-09  1.61947882e-07  3.43727464e-08  5.90000000e-01 
 6.00000000e-01  3.63692152e-09  4.58643134e-01  4.58643134e-01  3.30406604e-09  4.58643134e-01  3.41890758e-09  3.33678251e-09  1.61947858e-07  3.43725972e-08  6.00000000e-01 
 6.10000000e-01  3.63692153e-09  4.58643164e-01  4.58643164e-01  3.30406604e-09  4.58643163e-01  3.41890758e-09  3.33678257e-09  1.61947900e-07  3.43725972e-08  6.10000000e-01 
 6.20000000e-01  3.63692152e-09  4.58643141e-01  4.58643141e-01  3.30406604e-09  4.58643141e-01  3.41890753e-09  3.33678257e-09  1.61947881e-07  3.43725404e-08  6.20000000e-01 
 6.30000000e-01  3.63692147e-09  4.58643127e-01  4.58643127e-01  3.30406604e-09  4.58643127e-01  3.41890752e-09  3.33678257e-09  1.61947855e-07  3.43724338e-08  6.30000000e-01 
 6.40000000e-01  3.63692152e-09  4.58643115e-01  4.58643115e-01  3.30406604e-09  4.58643115e-01  3.41890752e-09  3.33678257e-09  1.61947832e-07  3.43724480e-08  6.40000000e-01 
 6.50000000e-01  3.63692152e-09  4.58643139e-01  4.58643139e-01  3.30406604e-09  4.58643138e-01  3.41890752e-09  3.33678257e-09  1.61947872e-07  3.43722917e-08  6.50000000e-01 
 6.60000000e-01  3.63692153e-09  4.58643157e-01  4.58643157e-01  3.30406604e-09  4.58643157e-01  3.41890753e-09  3.33678257e-09  1.61947908e-07  3.43722490e-08  6.60000000e-01 
 6.70000000e-01  3.63692147e-09  4.58643142e-01  4.58643142e-01  3.30406604e-09  4.58643142e-01  3.41890753e-09  3.33678257e-09  1.61947877e-07  3.43722846e-08  6.70000000e-01 
 6.80000000e-01  3.63692147e-09  4.58643136e-01  4.58643136e-01  3.30406604e-09  4.58643136e-01  3.41890752e-09  3.33678257e-09  1.61947852e-07  3.43722064e-08  6.80000000e-01 
 6.90000000e-01  3.63692147e-09  4.58643125e-01  4.58643125e-01  3.30406604e-09  4.58643125e-01  3.41890752e-09  3.33678257e-09  1.61947831e-07  3.43721496e-08  6.90000000e-01 
 7.00000000e-01  3.63692152e-09  4.58643129e-01  4.58643129e-01  3.30406604e-09  4.58643129e-01  3.41890758e-09  3.33678257e-09  1.61947845e-07  3.43720501e-08  7.00000000e-01 
 7.10000000e-01  3.63692152e-09  4.58643131e-01  4.58643131e-01  3.30406604e-09  4.58643131e-01  3.41890758e-09  3.33678257e-09  1.61947860e-07  3.43719364e-08  7.10000000e-01 
 7.20000000e-01  3.63692152e-09  4.58643117e-01  4.58643117e-01  3.30406604e-09  4.58643117e-01  3.41890758e-09  3.33678251e-09  1.61947836e-07  3.43719151e-08  7.20000000e-01 
 7.30000000e-01  3.63692152e-09  4.58643147e-01  4.58643147e-01  3.30406604e-09  4.58643147e-01  3.41890753e-09  3.33678257e-09  1.61947879e-07  3.43719577e-08  7.30000000e-01 
 7.40000000e-01  3.63692147e-09  4.58643155e-01  4.58643155e-01  3.30406604e-09  4.58643155e-01  3.41890753e-09  3.33678257e-09  1.61947905e-07  3.43718298e-08  7.40000000e-01 
 7.50000000e-01  3.63692147e-09  4.58643131e-01  4.58643131e-01  3.30406604e-09  4.58643131e-01  3.41890752e-09  3.33678257e-09  1.61947859e-07  3.43717801e-08  7.50000000e-01 
 7.60000000e-01  3.63692152e-09  4.58643135e-01  4.58643135e-01  3.30406604e-09  4.58643135e-01  3.41890752e-09  3.33678257e-09  1.61947860e-07  3.43717730e-08  7.60000000e-01 
 7.70000000e-01  3.63692152e-09  4.58643134e-01  4.58643134e-01  3.30406604e-09  4.58643134e-01  3.41890752e-09  3.33678251e-09  1.61947857e-07  3.43716309e-08  7.70000000e-01 
 7.80000000e-01  3.63692147e-09  4.58643133e-01  4.58643133e-01  3.30406604e-09  4.58643133e-01  3.41890758e-09  3.33678257e-09  1.61947849e-07  3.43715953e-08  7.80000000e-01 
 7.90000000e-01  3.63692147e-09  4.58643150e-01  4.58643150e-01  3.30406604e-09  4.58643149e-01  3.41890753e-09  3.33678257e-09  1.61947880e-07  3.43716096e-08  7.90000000e-01 
 8.00000000e-01  3.63692153e-09  4.58643158e-01  4.58643158e-01  3.30406604e-09  4.58643158e-01  3.41890753e-09  3.33678257e-09  1.61947894e-07  3.43715314e-08  8.00000000e-01 
 8.10000000e-01  3.63692147e-09  4.58643162e-01  4.58643162e-01  3.30406604e-09  4.58643162e-01  3.41890758e-09  3.33678257e-09  1.61947911e-07  3.43714817e-08  8.10000000e-01 
 8.20000000e-01  3.63692147e-09  4.58643148e-01  4.58643148e-01  3.30406604e-09  4.58643148e-01  3.41890753e-09  3.33678257e-09  1.61947891e-07  3.43715030e-08  8.20000000e-01 
 8.30000000e-01  3.63692147e-09  4.58643164e-01  4.58643164e-01  3.30406604e-09  4.58643164e-01  3.41890753e-09  3.33678251e-09  1.61947901e-07  3.43714248e-08  8.30000000e-01 
 8.40000000e-01  3.63692153e-09  4.58643158e-01  4.58643158e-01  3.30406604e-09  4.58643158e-01  3.41890753e-09  3.33678257e-09  1.61947893e-07  3.43712827e-08  8.40000000e-01 
 8.50000000e-01  3.63692147e-09  4.58643149e-01  4.58643149e-01  3.30406604e-09  4.58643148e-01  3.41890753e-09  3.33678257e-09  1.61947883e-07  3.43712188e-08  8.50000000e-01 
 8.60000000e-01  3.63692147e-09  4.58643147e-01  4.58643147e-01  3.30406604e-09  4.58643147e-01  3.41890753e-09  3.33678257e-09  1.61947886e-07  3.43712259e-08  8.60000000e-01 
 8.70000000e-01  3.63692147e-09  4.58643130e-01  4.58643130e-01  3.30406604e-09  4.58643130e-01  3.41890752e-09  3.33678257e-09  1.61947855e-07  3.43710624e-08  8.70000000e-01 
 8.80000000e-01  3.63692147e-09  4.58643153e-01  4.58643153e-01  3.30406604e-09  4.58643153e-01  3.41890758e-09  3.33678257e-09  1.61947886e-07  3.43711406e-08  8.80000000e-01 
 8.90000000e-01  3.63692153e-09  4.58643166e-01  4.58643166e-01  3.30406604e-09  4.58643166e-01  3.41890758e-09  3.33678257e-09  1.61947906e-07  3.43709559e-08  8.90000000e-01 
 9.00000000e-01  3.63692147e-09  4.58643148e-01  4.58643148e-01  3.30406604e-09  4.58643148e-01  3.41890753e-09  3.33678257e-09  1.61947894e-07  3.43711193e-08  9.00000000e-01 
 9.10000000e-01  3.63692153e-09  4.58643157e-01  4.58643157e-01  3.30406604e-09  4.58643157e-01  3.41890753e-09  3.33678257e-09  1.61947887e-07  3.43708635e-08  9.10000000e-01 
 9.20000000e-01  3.63692152e-09  4.58643143e-01  4.58643143e-01  3.30406604e-09  4.58643143e-01  3.41890753e-09  3.33678257e-09  1.61947874e-07  3.43709061e-08  9.20000000e-01 
 9.30000000e-01  3.63692152e-09  4.58643152e-01  4.58643152e-01  3.30406604e-09  4.58643152e-01  3.41890753e-09  3.33678257e-09  1.61947881e-07  3.43708422e-08  9.30000000e-01 
 9.40000000e-01  3.63692147e-09  4.58643150e-01  4.58643150e-01  3.30406604e-09  4.58643150e-01  3.41890753e-09  3.33678257e-09  1.61947896e-07  3.43708848e-08  9.40000000e-01 
 9.50000000e-01  3.63692152e-09  4.58643125e-01  4.58643125e-01  3.30406604e-09  4.58643125e-01  3.41890752e-09  3.33678257e-09  1.61947845e-07  3.43707427e-08  9.50000000e-01 
 9.60000000e-01  3.63692147e-09  4.58643150e-01  4.58643150e-01  3.30406604e-09  4.58643150e-01  3.41890758e-09  3.33678257e-09  1.61947890e-07  3.43706574e-08  9.60000000e-01 
 9.70000000e-01  3.63692152e-09  4.58643149e-01  4.58643149e-01  3.30406604e-09  4.58643149e-01  3.41890758e-09  3.33678257e-09  1.61947887e-07  3.43705722e-08  9.70000000e-01 
 9.80000000e-01  3.63692152e-09  4.58643145e-01  4.58643145e-01  3.30406604e-09  4.58643145e-01  3.41890753e-09  3.33678257e-09  1.61947876e-07  3.43705153e-08  9.80000000e-01 
 9.90000000e-01  3.63692147e-09  4.58643157e-01  4.58643157e-01  3.30406604e-09  4.58643157e-01  3.41890758e-09  3.33678257e-09  1.61947904e-07  3.43705651e-08  9.90000000e-01 
 1.00000000e+00  3.63692152e-09  4.58643151e-01  4.58643151e-01  3.30406604e-09  4.58643151e-01  3.41890758e-09  3.33678257e-09  1.61947888e-07  3.43704443e-08  1.00000000e+00 
 1.01000000e+00  3.63692147e-09  4.58643139e-01  4.58643139e-01  3.30406604e-09  4.58643139e-01  3.41890758e-09  3.33678257e-09  1.61947881e-07  3.43703661e-08  1.01000000e+00 
 1.02000000e+00  3.63692152e-09  4.58643139e-01  4.58643139e-01  3.30406604e-09  4.58643139e-01  3.41890758e-09  3.33678257e-09  1.61947859e-07  3.43703661e-08  1.02000000e+00 
 1.03000000e+00  3.63692152e-09  4.58643124e-01  4.58643124e-01  3.30406604e-09  4.58643124e-01  3.41890752e-09  3.33678257e-09  1.61947844e-07  3.43702879e-08  1.03000000e+00 
 1.04000000e+00  3.63692147e-09  4.58643130e-01  4.58643130e-01  3.30406604e-09  4.58643130e-01  3.41890758e-09  3.33678257e-09  1.61947852e-07  3.43701743e-08  1.04000000e+00 
 1.05000000e+00  3.63692152e-09  4.58643138e-01  4.58643138e-01  3.30406604e-09  4.58643138e-01  3.41890758e-09  3.33678257e-09  1.61947853e-07  3.43700322e-08  1.05000000e+00 
 1.06000000e+00  3.63692152e-09  4.58643127e-01  4.58643127e-01  3.30406604e-09  4.58643127e-01  3.41890752e-09  3.33678257e-09  1.61947851e-07  3.43700179e-08  1.06000000e+00 
 1.07000000e+00  3.63692147e-09  4.58643130e-01  4.58643130e-01  3.30406604e-09  4.58643130e-01  3.41890752e-09  3.33678257e-09  1.61947851e-07  3.43700250e-08  1.07000000e+00 
 1.08000000e+00  3.63692153e-09  4.58643167e-01  4.58643167e-01  3.30406604e-09  4.58643167e-01  3.41890753e-09  3.33678257e-09  1.61947910e-07  3.43700606e-08  1.08000000e+00 
 1.09000000e+00  3.63692147e-09  4.58643154e-01  4.58643154e-01  3.30406604e-09  4.58643154e-01  3.41890758e-09  3.33678257e-09  1.61947891e-07  3.43699327e-08  1.09000000e+00 
 1.10000000e+00  3.63692152e-09  4.58643148e-01  4.58643148e-01  3.30406604e-09  4.58643148e-01  3.41890753e-09  3.33678257e-09  1.61947876e-07  3.43698758e-08  1.10000000e+00 
