 v-sweep         v(b0)           v(b1)           v(b2)           v(b3)           v(b4)           v(b5)           v(b6)           i(vbias)        i(viout)        v(vout)        
 0.00000000e+00  4.60809759e-01  4.60809759e-01  2.91160515e-09  4.60809759e-01  4.60809759e-01  3.44088967e-09  4.60809759e-01  1.62631904e-07  1.37877299e-07  0.00000000e+00 
 1.00000000e-02  4.60809759e-01  4.60809759e-01  2.91160518e-09  4.60809759e-01  4.60809759e-01  3.44088965e-09  4.60809759e-01  1.62631914e-07  1.37876942e-07  1.00000000e-02 
 2.00000000e-02  4.60809730e-01  4.60809730e-01  2.91160518e-09  4.60809730e-01  4.60809730e-01  3.44088965e-09  4.60809730e-01  1.62631865e-07  1.37876333e-07  2.00000000e-02 
 3.00000000e-02  4.60809734e-01  4.60809734e-01  2.91160518e-09  4.60809734e-01  4.60809734e-01  3.44088965e-09  4.60809734e-01  1.62631863e-07  1.37875941e-07  3.00000000e-02 
 4.00000000e-02  4.60809756e-01  4.60809756e-01  2.91160518e-09  4.60809756e-01  4.60809756e-01  3.44088965e-09  4.60809756e-01  1.62631910e-07  1.37875642e-07  4.00000000e-02 
 5.00000000e-02  4.60809737e-01  4.60809737e-01  2.91160512e-09  4.60809737e-01  4.60809737e-01  3.44088965e-09  4.60809737e-01  1.62631878e-07  1.37875209e-07  5.00000000e-02 
 6.00000000e-02  4.60809724e-01  4.60809724e-01  2.91160518e-09  4.60809724e-01  4.60809724e-01  3.44088965e-09  4.60809724e-01  1.62631851e-07  1.37874721e-07  6.00000000e-02 
 7.00000000e-02  4.60809736e-01  4.60809736e-01  2.91160518e-09  4.60809736e-01  4.60809736e-01  3.44088970e-09  4.60809736e-01  1.62631869e-07  1.37874554e-07  7.00000000e-02 
 8.00000000e-02  4.60809735e-01  4.60809735e-01  2.91160518e-09  4.60809735e-01  4.60809735e-01  3.44088965e-09  4.60809735e-01  1.62631864e-07  1.37874162e-07  8.00000000e-02 
 9.00000000e-02  4.60809745e-01  4.60809745e-01  2.91160518e-09  4.60809745e-01  4.60809745e-01  3.44088965e-09  4.60809745e-01  1.62631881e-07  1.37873966e-07  9.00000000e-02 
 1.00000000e-01  4.60809728e-01  4.60809728e-01  2.91160518e-09  4.60809728e-01  4.60809728e-01  3.44088970e-09  4.60809728e-01  1.62631858e-07  1.37873585e-07  1.00000000e-01 
 1.10000000e-01  4.60809747e-01  4.60809747e-01  2.91160512e-09  4.60809747e-01  4.60809747e-01  3.44088970e-09  4.60809747e-01  1.62631879e-07  1.37873467e-07  1.10000000e-01 
 1.20000000e-01  4.60809735e-01  4.60809735e-01  2.91160518e-09  4.60809735e-01  4.60809735e-01  3.44088970e-09  4.60809735e-01  1.62631876e-07  1.37873098e-07  1.20000000e-01 
 1.30000000e-01  4.60809752e-01  4.60809752e-01  2.91160518e-09  4.60809752e-01  4.60809752e-01  3.44088971e-09  4.60809752e-01  1.62631882e-07  1.37872957e-07  1.30000000e-01 
 1.40000000e-01  4.60809713e-01  4.60809713e-01  2.91160518e-09  4.60809713e-01  4.60809713e-01  3.44088970e-09  4.60809713e-01  1.62631839e-07  1.37872521e-07  1.40000000e-01 
 1.50000000e-01  4.60809734e-01  4.60809734e-01  2.91160518e-09  4.60809734e-01  4.60809734e-01  3.44088965e-09  4.60809734e-01  1.62631866e-07  1.37872327e-07  1.50000000e-01 
 1.60000000e-01  4.60809729e-01  4.60809729e-01  2.91160518e-09  4.60809729e-01  4.60809729e-01  3.44088970e-09  4.60809729e-01  1.62631857e-07  1.37872057e-07  1.60000000e-01 
 1.70000000e-01  4.60809730e-01  4.60809730e-01  2.91160518e-09  4.60809730e-01  4.60809730e-01  3.44088965e-09  4.60809730e-01  1.62631860e-07  1.37871909e-07  1.70000000e-01 
 1.80000000e-01  4.60809740e-01  4.60809740e-01  2.91160518e-09  4.60809740e-01  4.60809740e-01  3.44088970e-09  4.60809740e-01  1.62631871e-07  1.37871627e-07  1.80000000e-01 
 1.90000000e-01  4.60809755e-01  4.60809755e-01  2.91160518e-09  4.60809755e-01  4.60809755e-01  3.44088971e-09  4.60809755e-01  1.62631896e-07  1.37871606e-07  1.90000000e-01 
 2.00000000e-01  4.60809720e-01  4.60809720e-01  2.91160518e-09  4.60809720e-01  4.60809720e-01  3.44088970e-09  4.60809720e-01  1.62631844e-07  1.37871208e-07  2.00000000e-01 
 2.10000000e-01  4.60809738e-01  4.60809738e-01  2.91160518e-09  4.60809738e-01  4.60809738e-01  3.44088970e-09  4.60809738e-01  1.62631869e-07  1.37871103e-07  2.10000000e-01 
 2.20000000e-01  4.60809748e-01  4.60809748e-01  2.91160518e-09  4.60809748e-01  4.60809748e-01  3.44088971e-09  4.60809748e-01  1.62631884e-07  1.37870886e-07  2.20000000e-01 
 2.30000000e-01  4.60809751e-01  4.60809751e-01  2.91160518e-09  4.60809751e-01  4.60809751e-01  3.44088971e-09  4.60809751e-01  1.62631895e-07  1.37870844e-07  2.30000000e-01 
 2.40000000e-01  4.60809739e-01  4.60809739e-01  2.91160518e-09  4.60809739e-01  4.60809739e-01  3.44088965e-09  4.60809739e-01  1.62631882e-07  1.37870668e-07  2.40000000e-01 
 2.50000000e-01  4.60809729e-01  4.60809729e-01  2.91160512e-09  4.60809729e-01  4.60809729e-01  3.44088970e-09  4.60809729e-01  1.62631859e-07  1.37870506e-07  2.50000000e-01 
 2.60000000e-01  4.60809738e-01  4.60809738e-01  2.91160518e-09  4.60809738e-01  4.60809738e-01  3.44088970e-09  4.60809738e-01  1.62631871e-07  1.37870231e-07  2.60000000e-01 
 2.70000000e-01  4.60809745e-01  4.60809745e-01  2.91160512e-09  4.60809745e-01  4.60809745e-01  3.44088970e-09  4.60809745e-01  1.62631877e-07  1.37870137e-07  2.70000000e-01 
 2.80000000e-01  4.60809755e-01  4.60809755e-01  2.91160518e-09  4.60809755e-01  4.60809755e-01  3.44088971e-09  4.60809755e-01  1.62631901e-07  1.37869980e-07  2.80000000e-01 
 2.90000000e-01  4.60809743e-01  4.60809743e-01  2.91160518e-09  4.60809743e-01  4.60809743e-01  3.44088965e-09  4.60809743e-01  1.62631885e-07  1.37869890e-07  2.90000000e-01 
 3.00000000e-01  4.60809757e-01  4.60809757e-01  2.91160518e-09  4.60809757e-01  4.60809757e-01  3.44088971e-09  4.60809757e-01  1.62631883e-07  1.37869780e-07  3.00000000e-01 
 3.10000000e-01  4.60809735e-01  4.60809734e-01  2.91160518e-09  4.60809735e-01  4.60809734e-01  3.44088970e-09  4.60809735e-01  1.62631857e-07  1.37869616e-07  3.10000000e-01 
 3.20000000e-01  4.60809757e-01  4.60809757e-01  2.91160518e-09  4.60809757e-01  4.60809757e-01  3.44088965e-09  4.60809757e-01  1.62631899e-07  1.37869538e-07  3.20000000e-01 
 3.30000000e-01  4.60809742e-01  4.60809742e-01  2.91160518e-09  4.60809742e-01  4.60809742e-01  3.44088965e-09  4.60809742e-01  1.62631878e-07  1.37869264e-07  3.30000000e-01 
 3.40000000e-01  4.60809728e-01  4.60809728e-01  2.91160518e-09  4.60809728e-01  4.60809728e-01  3.44088965e-09  4.60809728e-01  1.62631869e-07  1.37869225e-07  3.40000000e-01 
 3.50000000e-01  4.60809736e-01  4.60809736e-01  2.91160518e-09  4.60809736e-01  4.60809736e-01  3.44088965e-09  4.60809736e-01  1.62631861e-07  1.37869126e-07  3.50000000e-01 
 3.60000000e-01  4.60809769e-01  4.60809769e-01  2.91160518e-09  4.60809769e-01  4.60809769e-01  3.44088971e-09  4.60809769e-01  1.62631931e-07  1.37869119e-07  3.60000000e-01 
 3.70000000e-01  4.60809728e-01  4.60809728e-01  2.91160518e-09  4.60809728e-01  4.60809728e-01  3.44088965e-09  4.60809728e-01  1.62631856e-07  1.37868785e-07  3.70000000e-01 
 3.80000000e-01  4.60809730e-01  4.60809730e-01  2.91160518e-09  4.60809730e-01  4.60809730e-01  3.44088970e-09  4.60809730e-01  1.62631852e-07  1.37868621e-07  3.80000000e-01 
 3.90000000e-01  4.60809735e-01  4.60809735e-01  2.91160518e-09  4.60809735e-01  4.60809735e-01  3.44088970e-09  4.60809735e-01  1.62631860e-07  1.37868589e-07  3.90000000e-01 
 4.00000000e-01  4.60809759e-01  4.60809759e-01  2.91160518e-09  4.60809759e-01  4.60809759e-01  3.44088965e-09  4.60809759e-01  1.62631902e-07  1.37868497e-07  4.00000000e-01 
 4.10000000e-01  4.60809720e-01  4.60809720e-01  2.91160518e-09  4.60809720e-01  4.60809720e-01  3.44088965e-09  4.60809720e-01  1.62631851e-07  1.37868234e-07  4.10000000e-01 
 4.20000000e-01  4.60809751e-01  4.60809751e-01  2.91160518e-09  4.60809751e-01  4.60809751e-01  3.44088971e-09  4.60809751e-01  1.62631885e-07  1.37868277e-07  4.20000000e-01 
 4.30000000e-01  4.60809739e-01  4.60809739e-01  2.91160518e-09  4.60809739e-01  4.60809739e-01  3.44088970e-09  4.60809739e-01  1.62631880e-07  1.37868128e-07  4.30000000e-01 
 4.40000000e-01  4.60809721e-01  4.60809721e-01  2.91160512e-09  4.60809721e-01  4.60809721e-01  3.44088965e-09  4.60809721e-01  1.62631845e-07  1.37868071e-07  4.40000000e-01 
 4.50000000e-01  4.60809718e-01  4.60809718e-01  2.91160518e-09  4.60809718e-01  4.60809718e-01  3.44088965e-09  4.60809718e-01  1.62631837e-07  1.37867801e-07  4.50000000e-01 
 4.60000000e-01  4.60809776e-01  4.60809776e-01  2.91160518e-09  4.60809776e-01  4.60809776e-01  3.44088965e-09  4.60809776e-01  1.62631926e-07  1.37868021e-07  4.60000000e-01 
 4.70000000e-01  4.60809751e-01  4.60809751e-01  2.91160518e-09  4.60809751e-01  4.60809751e-01  3.44088971e-09  4.60809751e-01  1.62631909e-07  1.37867751e-07  4.70000000e-01 
 4.80000000e-01  4.60809719e-01  4.60809719e-01  2.91160518e-09  4.60809719e-01  4.60809719e-01  3.44088965e-09  4.60809719e-01  1.62631845e-07  1.37867637e-07  4.80000000e-01 
 4.90000000e-01  4.60809719e-01  4.60809719e-01  2.91160518e-09  4.60809719e-01  4.60809719e-01  3.44088970e-09  4.60809719e-01  1.62631850e-07  1.37867445e-07  4.90000000e-01 
 5.00000000e-01  4.60809728e-01  4.60809728e-01  2.91160518e-09  4.60809728e-01  4.60809728e-01  3.44088965e-09  4.60809728e-01  1.62631872e-07  1.37867392e-07  5.00000000e-01 
 5.10000000e-01  4.60809735e-01  4.60809735e-01  2.91160518e-09  4.60809735e-01  4.60809735e-01  3.44088965e-09  4.60809735e-01  1.62631875e-07  1.37867378e-07  5.10000000e-01 
 5.20000000e-01  4.60809737e-01  4.60809737e-01  2.91160518e-09  4.60809737e-01  4.60809737e-01  3.44088970e-09  4.60809737e-01  1.62631856e-07  1.37867222e-07  5.20000000e-01 
 5.30000000e-01  4.60809749e-01  4.60809749e-01  2.91160518e-09  4.60809749e-01  4.60809749e-01  3.44088965e-09  4.60809749e-01  1.62631900e-07  1.37867225e-07  5.30000000e-01 
 5.40000000e-01  4.60809721e-01  4.60809721e-01  2.91160518e-09  4.60809721e-01  4.60809721e-01  3.44088965e-09  4.60809721e-01  1.62631850e-07  1.37866962e-07  5.40000000e-01 
 5.50000000e-01  4.60809718e-01  4.60809718e-01  2.91160518e-09  4.60809718e-01  4.60809718e-01  3.44088970e-09  4.60809718e-01  1.62631831e-07  1.37866973e-07  5.50000000e-01 
 5.60000000e-01  4.60809739e-01  4.60809739e-01  2.91160518e-09  4.60809739e-01  4.60809739e-01  3.44088965e-09  4.60809739e-01  1.62631858e-07  1.37866884e-07  5.60000000e-01 
 5.70000000e-01  4.60809736e-01  4.60809736e-01  2.91160518e-09  4.60809736e-01  4.60809736e-01  3.44088965e-09  4.60809736e-01  1.62631876e-07  1.37866671e-07  5.70000000e-01 
 5.80000000e-01  4.60809740e-01  4.60809740e-01  2.91160518e-09  4.60809740e-01  4.60809740e-01  3.44088965e-09  4.60809740e-01  1.62631875e-07  1.37866635e-07  5.80000000e-01 
 5.90000000e-01  4.60809752e-01  4.60809752e-01  2.91160512e-09  4.60809752e-01  4.60809752e-01  3.44088965e-09  4.60809752e-01  1.62631894e-07  1.37866657e-07  5.90000000e-01 
 6.00000000e-01  4.60809734e-01  4.60809734e-01  2.91160518e-09  4.60809734e-01  4.60809734e-01  3.44088965e-09  4.60809734e-01  1.62631860e-07  1.37866500e-07  6.00000000e-01 
 6.10000000e-01  4.60809746e-01  4.60809746e-01  2.91160518e-09  4.60809746e-01  4.60809746e-01  3.44088965e-09  4.60809746e-01  1.62631883e-07  1.37866394e-07  6.10000000e-01 
 6.20000000e-01  4.60809749e-01  4.60809749e-01  2.91160518e-09  4.60809749e-01  4.60809749e-01  3.44088971e-09  4.60809749e-01  1.62631899e-07  1.37866294e-07  6.20000000e-01 
 6.30000000e-01  4.60809736e-01  4.60809736e-01  2.91160518e-09  4.60809736e-01  4.60809736e-01  3.44088965e-09  4.60809736e-01  1.62631872e-07  1.37866152e-07  6.30000000e-01 
 6.40000000e-01  4.60809721e-01  4.60809721e-01  2.91160518e-09  4.60809721e-01  4.60809721e-01  3.44088965e-09  4.60809721e-01  1.62631848e-07  1.37866053e-07  6.40000000e-01 
 6.50000000e-01  4.60809732e-01  4.60809732e-01  2.91160518e-09  4.60809732e-01  4.60809732e-01  3.44088965e-09  4.60809732e-01  1.62631871e-07  1.37865968e-07  6.50000000e-01 
 6.60000000e-01  4.60809729e-01  4.60809729e-01  2.91160518e-09  4.60809729e-01  4.60809729e-01  3.44088965e-09  4.60809729e-01  1.62631859e-07  1.37865840e-07  6.60000000e-01 
 6.70000000e-01  4.60809751e-01  4.60809751e-01  2.91160518e-09  4.60809751e-01  4.60809751e-01  3.44088965e-09  4.60809751e-01  1.62631896e-07  1.37865875e-07  6.70000000e-01 
 6.80000000e-01  4.60809733e-01  4.60809733e-01  2.91160518e-09  4.60809733e-01  4.60809733e-01  3.44088965e-09  4.60809733e-01  1.62631863e-07  1.37865690e-07  6.80000000e-01 
 6.90000000e-01  4.60809755e-01  4.60809755e-01  2.91160518e-09  4.60809755e-01  4.60809755e-01  3.44088971e-09  4.60809755e-01  1.62631900e-07  1.37865761e-07  6.90000000e-01 
 7.00000000e-01  4.60809748e-01  4.60809748e-01  2.91160518e-09  4.60809748e-01  4.60809748e-01  3.44088971e-09  4.60809748e-01  1.62631886e-07  1.37865584e-07  7.00000000e-01 
 7.10000000e-01  4.60809735e-01  4.60809735e-01  2.91160518e-09  4.60809735e-01  4.60809735e-01  3.44088965e-09  4.60809735e-01  1.62631881e-07  1.37865548e-07  7.10000000e-01 
 7.20000000e-01  4.60809755e-01  4.60809755e-01  2.91160518e-09  4.60809755e-01  4.60809755e-01  3.44088965e-09  4.60809755e-01  1.62631901e-07  1.37865364e-07  7.20000000e-01 
 7.30000000e-01  4.60809754e-01  4.60809754e-01  2.91160518e-09  4.60809754e-01  4.60809754e-01  3.44088971e-09  4.60809754e-01  1.62631897e-07  1.37865342e-07  7.30000000e-01 
 7.40000000e-01  4.60809728e-01  4.60809728e-01  2.91160518e-09  4.60809728e-01  4.60809728e-01  3.44088970e-09  4.60809728e-01  1.62631858e-07  1.37865193e-07  7.40000000e-01 
 7.50000000e-01  4.60809751e-01  4.60809751e-01  2.91160518e-09  4.60809751e-01  4.60809751e-01  3.44088971e-09  4.60809751e-01  1.62631889e-07  1.37865143e-07  7.50000000e-01 
 7.60000000e-01  4.60809733e-01  4.60809733e-01  2.91160518e-09  4.60809733e-01  4.60809733e-01  3.44088965e-09  4.60809733e-01  1.62631872e-07  1.37864909e-07  7.60000000e-01 
 7.70000000e-01  4.60809722e-01  4.60809722e-01  2.91160518e-09  4.60809722e-01  4.60809722e-01  3.44088965e-09  4.60809722e-01  1.62631839e-07  1.37864795e-07  7.70000000e-01 
 7.80000000e-01  4.60809725e-01  4.60809725e-01  2.91160518e-09  4.60809725e-01  4.60809725e-01  3.44088965e-09  4.60809725e-01  1.62631859e-07  1.37864589e-07  7.80000000e-01 
 7.90000000e-01  4.60809742e-01  4.60809742e-01  2.91160518e-09  4.60809742e-01  4.60809742e-01  3.44088970e-09  4.60809742e-01  1.62631880e-07  1.37864625e-07  7.90000000e-01 
 8.00000000e-01  4.60809737e-01  4.60809737e-01  2.91160518e-09  4.60809737e-01  4.60809737e-01  3.44088970e-09  4.60809737e-01  1.62631870e-07  1.37864497e-07  8.00000000e-01 
 8.10000000e-01  4.60809747e-01  4.60809747e-01  2.91160518e-09  4.60809747e-01  4.60809747e-01  3.44088965e-09  4.60809748e-01  1.62631884e-07  1.37864454e-07  8.10000000e-01 
 8.20000000e-01  4.60809720e-01  4.60809720e-01  2.91160518e-09  4.60809720e-01  4.60809720e-01  3.44088970e-09  4.60809720e-01  1.62631846e-07  1.37864248e-07  8.20000000e-01 
 8.30000000e-01  4.60809745e-01  4.60809745e-01  2.91160518e-09  4.60809745e-01  4.60809745e-01  3.44088970e-09  4.60809745e-01  1.62631885e-07  1.37864163e-07  8.30000000e-01 
 8.40000000e-01  4.60809734e-01  4.60809734e-01  2.91160512e-09  4.60809734e-01  4.60809734e-01  3.44088965e-09  4.60809734e-01  1.62631879e-07  1.37864127e-07  8.40000000e-01 
 8.50000000e-01  4.60809747e-01  4.60809747e-01  2.91160518e-09  4.60809747e-01  4.60809747e-01  3.44088971e-09  4.60809747e-01  1.62631882e-07  1.37863999e-07  8.50000000e-01 
 8.60000000e-01  4.60809723e-01  4.60809723e-01  2.91160518e-09  4.60809723e-01  4.60809723e-01  3.44088965e-09  4.60809723e-01  1.62631856e-07  1.37863907e-07  8.60000000e-01 
 8.70000000e-01  4.60809735e-01  4.60809735e-01  2.91160518e-09  4.60809735e-01  4.60809735e-01  3.44088970e-09  4.60809735e-01  1.62631868e-07  1.37863907e-07  8.70000000e-01 
 8.80000000e-01  4.60809709e-01  4.60809709e-01  2.91160518e-09  4.60809710e-01  4.60809709e-01  3.44088970e-09  4.60809710e-01  1.62631828e-07  1.37863573e-07  8.80000000e-01 
 8.90000000e-01  4.60809727e-01  4.60809727e-01  2.91160518e-09  4.60809727e-01  4.60809727e-01  3.44088970e-09  4.60809727e-01  1.62631846e-07  1.37863687e-07  8.90000000e-01 
 9.00000000e-01  4.60809749e-01  4.60809749e-01  2.91160518e-09  4.60809749e-01  4.60809749e-01  3.44088965e-09  4.60809749e-01  1.62631878e-07  1.37863545e-07  9.00000000e-01 
 9.10000000e-01  4.60809741e-01  4.60809741e-01  2.91160518e-09  4.60809741e-01  4.60809741e-01  3.44088965e-09  4.60809741e-01  1.62631895e-07  1.37863474e-07  9.10000000e-01 
 9.20000000e-01  4.60809730e-01  4.60809730e-01  2.91160518e-09  4.60809730e-01  4.60809730e-01  3.44088965e-09  4.60809730e-01  1.62631859e-07  1.37863317e-07  9.20000000e-01 
 9.30000000e-01  4.60809729e-01  4.60809729e-01  2.91160518e-09  4.60809729e-01  4.60809729e-01  3.44088970e-09  4.60809729e-01  1.62631864e-07  1.37863140e-07  9.30000000e-01 
 9.40000000e-01  4.60809711e-01  4.60809711e-01  2.91160518e-09  4.60809711e-01  4.60809711e-01  3.44088965e-09  4.60809711e-01  1.62631835e-07  1.37863005e-07  9.40000000e-01 
 9.50000000e-01  4.60809730e-01  4.60809730e-01  2.91160518e-09  4.60809730e-01  4.60809730e-01  3.44088965e-09  4.60809730e-01  1.62631853e-07  1.37863005e-07  9.50000000e-01 
 9.60000000e-01  4.60809718e-01  4.60809718e-01  2.91160518e-09  4.60809719e-01  4.60809718e-01  3.44088965e-09  4.60809719e-01  1.62631835e-07  1.37862827e-07  9.60000000e-01 
 9.70000000e-01  4.60809768e-01  4.60809768e-01  2.91160518e-09  4.60809768e-01  4.60809768e-01  3.44088971e-09  4.60809768e-01  1.62631906e-07  1.37862898e-07  9.70000000e-01 
 9.80000000e-01  4.60809752e-01  4.60809752e-01  2.91160518e-09  4.60809752e-01  4.60809752e-01  3.44088971e-09  4.60809752e-01  1.62631884e-07  1.37862642e-07  9.80000000e-01 
 9.90000000e-01  4.60809738e-01  4.60809738e-01  2.91160518e-09  4.60809738e-01  4.60809738e-01  3.44088970e-09  4.60809738e-01  1.62631877e-07  1.37862514e-07  9.90000000e-01 
 1.00000000e+00  4.60809727e-01  4.60809727e-01  2.91160518e-09  4.60809728e-01  4.60809727e-01  3.44088965e-09  4.60809728e-01  1.62631848e-07  1.37862386e-07  1.00000000e+00 
 1.01000000e+00  4.60809735e-01  4.60809735e-01  2.91160518e-09  4.60809735e-01  4.60809735e-01  3.44088970e-09  4.60809735e-01  1.62631852e-07  1.37862322e-07  1.01000000e+00 
 1.02000000e+00  4.60809736e-01  4.60809736e-01  2.91160518e-09  4.60809736e-01  4.60809736e-01  3.44088965e-09  4.60809736e-01  1.62631872e-07  1.37862109e-07  1.02000000e+00 
 1.03000000e+00  4.60809748e-01  4.60809748e-01  2.91160518e-09  4.60809748e-01  4.60809748e-01  3.44088965e-09  4.60809748e-01  1.62631892e-07  1.37862088e-07  1.03000000e+00 
 1.04000000e+00  4.60809724e-01  4.60809724e-01  2.91160518e-09  4.60809724e-01  4.60809724e-01  3.44088970e-09  4.60809724e-01  1.62631852e-07  1.37861804e-07  1.04000000e+00 
 1.05000000e+00  4.60809737e-01  4.60809737e-01  2.91160518e-09  4.60809737e-01  4.60809737e-01  3.44088970e-09  4.60809737e-01  1.62631859e-07  1.37861804e-07  1.05000000e+00 
 1.06000000e+00  4.60809766e-01  4.60809766e-01  2.91160518e-09  4.60809766e-01  4.60809766e-01  3.44088965e-09  4.60809766e-01  1.62631907e-07  1.37861740e-07  1.06000000e+00 
 1.07000000e+00  4.60809742e-01  4.60809742e-01  2.91160518e-09  4.60809742e-01  4.60809742e-01  3.44088970e-09  4.60809742e-01  1.62631881e-07  1.37861711e-07  1.07000000e+00 
 1.08000000e+00  4.60809717e-01  4.60809717e-01  2.91160518e-09  4.60809717e-01  4.60809717e-01  3.44088970e-09  4.60809717e-01  1.62631840e-07  1.37861463e-07  1.08000000e+00 
 1.09000000e+00  4.60809721e-01  4.60809721e-01  2.91160518e-09  4.60809721e-01  4.60809721e-01  3.44088970e-09  4.60809721e-01  1.62631831e-07  1.37861278e-07  1.09000000e+00 
 1.10000000e+00  4.60809759e-01  4.60809758e-01  2.91160518e-09  4.60809759e-01  4.60809758e-01  3.44088971e-09  4.60809759e-01  1.62631904e-07  1.37861313e-07  1.10000000e+00 
