 v-sweep         v(b0)           v(b1)           v(b2)           v(b3)           v(b4)           v(b5)           v(b6)           i(vbias)        i(viout)        v(vout)        
 0.00000000e+00  3.26553572e-09  4.61033366e-01  3.28125084e-09  4.61033366e-01  4.61033366e-01  4.61033366e-01  3.22259424e-09  1.62333023e-07  9.45645050e-08  0.00000000e+00 
 1.00000000e-02  3.26553575e-09  4.61033351e-01  3.28125081e-09  4.61033351e-01  4.61033351e-01  4.61033351e-01  3.22259421e-09  1.62333015e-07  9.45639888e-08  1.00000000e-02 
 2.00000000e-02  3.26553569e-09  4.61033384e-01  3.28125087e-09  4.61033383e-01  4.61033384e-01  4.61033384e-01  3.22259422e-09  1.62333075e-07  9.45637357e-08  2.00000000e-02 
 3.00000000e-02  3.26553569e-09  4.61033374e-01  3.28125081e-09  4.61033374e-01  4.61033374e-01  4.61033374e-01  3.22259427e-09  1.62333048e-07  9.45633347e-08  3.00000000e-02 
 4.00000000e-02  3.26553575e-09  4.61033365e-01  3.28125081e-09  4.61033365e-01  4.61033365e-01  4.61033365e-01  3.22259421e-09  1.62333040e-07  9.45628158e-08  4.00000000e-02 
 5.00000000e-02  3.26553575e-09  4.61033374e-01  3.28125087e-09  4.61033374e-01  4.61033374e-01  4.61033374e-01  3.22259427e-09  1.62333055e-07  9.45625573e-08  5.00000000e-02 
 6.00000000e-02  3.26553575e-09  4.61033345e-01  3.28125087e-09  4.61033345e-01  4.61033345e-01  4.61033345e-01  3.22259421e-09  1.62333000e-07  9.45621585e-08  6.00000000e-02 
 7.00000000e-02  3.26553575e-09  4.61033358e-01  3.28125087e-09  4.61033358e-01  4.61033358e-01  4.61033358e-01  3.22259421e-09  1.62333022e-07  9.45617642e-08  7.00000000e-02 
 8.00000000e-02  3.26553575e-09  4.61033370e-01  3.28125081e-09  4.61033369e-01  4.61033370e-01  4.61033370e-01  3.22259421e-09  1.62333035e-07  9.45616758e-08  8.00000000e-02 
 9.00000000e-02  3.26553570e-09  4.61033401e-01  3.28125081e-09  4.61033401e-01  4.61033401e-01  4.61033401e-01  3.22259427e-09  1.62333094e-07  9.45613285e-08  9.00000000e-02 
 1.00000000e-01  3.26553575e-09  4.61033358e-01  3.28125087e-09  4.61033358e-01  4.61033358e-01  4.61033358e-01  3.22259421e-09  1.62333030e-07  9.45610035e-08  1.00000000e-01 
 1.10000000e-01  3.26553575e-09  4.61033356e-01  3.28125081e-09  4.61033356e-01  4.61033356e-01  4.61033356e-01  3.22259427e-09  1.62333023e-07  9.45607006e-08  1.10000000e-01 
 1.20000000e-01  3.26553569e-09  4.61033370e-01  3.28125081e-09  4.61033370e-01  4.61033370e-01  4.61033370e-01  3.22259421e-09  1.62333055e-07  9.45605683e-08  1.20000000e-01 
 1.30000000e-01  3.26553575e-09  4.61033355e-01  3.28125081e-09  4.61033355e-01  4.61033355e-01  4.61033355e-01  3.22259421e-09  1.62333022e-07  9.45603063e-08  1.30000000e-01 
 1.40000000e-01  3.26553575e-09  4.61033355e-01  3.28125087e-09  4.61033354e-01  4.61033355e-01  4.61033355e-01  3.22259427e-09  1.62333017e-07  9.45600718e-08  1.40000000e-01 
 1.50000000e-01  3.26553575e-09  4.61033381e-01  3.28125087e-09  4.61033381e-01  4.61033381e-01  4.61033381e-01  3.22259422e-09  1.62333075e-07  9.45599297e-08  1.50000000e-01 
 1.60000000e-01  3.26553575e-09  4.61033367e-01  3.28125081e-09  4.61033367e-01  4.61033367e-01  4.61033367e-01  3.22259427e-09  1.62333034e-07  9.45596739e-08  1.60000000e-01 
 1.70000000e-01  3.26553575e-09  4.61033380e-01  3.28125081e-09  4.61033380e-01  4.61033380e-01  4.61033380e-01  3.22259422e-09  1.62333063e-07  9.45594980e-08  1.70000000e-01 
 1.80000000e-01  3.26553575e-09  4.61033348e-01  3.28125087e-09  4.61033348e-01  4.61033348e-01  4.61033348e-01  3.22259427e-09  1.62333007e-07  9.45592138e-08  1.80000000e-01 
 1.90000000e-01  3.26553575e-09  4.61033367e-01  3.28125081e-09  4.61033367e-01  4.61033367e-01  4.61033367e-01  3.22259427e-09  1.62333037e-07  9.45590095e-08  1.90000000e-01 
 2.00000000e-01  3.26553569e-09  4.61033368e-01  3.28125081e-09  4.61033368e-01  4.61033368e-01  4.61033368e-01  3.22259421e-09  1.62333041e-07  9.45590024e-08  2.00000000e-01 
 2.10000000e-01  3.26553575e-09  4.61033376e-01  3.28125081e-09  4.61033376e-01  4.61033376e-01  4.61033376e-01  3.22259427e-09  1.62333057e-07  9.45587146e-08  2.10000000e-01 
 2.20000000e-01  3.26553575e-09  4.61033365e-01  3.28125081e-09  4.61033365e-01  4.61033365e-01  4.61033365e-01  3.22259427e-09  1.62333030e-07  9.45585352e-08  2.20000000e-01 
 2.30000000e-01  3.26553575e-09  4.61033370e-01  3.28125087e-09  4.61033370e-01  4.61033370e-01  4.61033370e-01  3.22259421e-09  1.62333040e-07  9.45584979e-08  2.30000000e-01 
 2.40000000e-01  3.26553575e-09  4.61033375e-01  3.28125087e-09  4.61033375e-01  4.61033375e-01  4.61033375e-01  3.22259422e-09  1.62333048e-07  9.45582332e-08  2.40000000e-01 
 2.50000000e-01  3.26553575e-09  4.61033373e-01  3.28125087e-09  4.61033373e-01  4.61033373e-01  4.61033373e-01  3.22259421e-09  1.62333049e-07  9.45581231e-08  2.50000000e-01 
 2.60000000e-01  3.26553575e-09  4.61033364e-01  3.28125081e-09  4.61033364e-01  4.61033364e-01  4.61033364e-01  3.22259421e-09  1.62333029e-07  9.45580148e-08  2.60000000e-01 
 2.70000000e-01  3.26553569e-09  4.61033379e-01  3.28125087e-09  4.61033379e-01  4.61033379e-01  4.61033379e-01  3.22259422e-09  1.62333075e-07  9.45578851e-08  2.70000000e-01 
 2.80000000e-01  3.26553575e-09  4.61033377e-01  3.28125081e-09  4.61033377e-01  4.61033377e-01  4.61033377e-01  3.22259427e-09  1.62333040e-07  9.45576240e-08  2.80000000e-01 
 2.90000000e-01  3.26553570e-09  4.61033393e-01  3.28125081e-09  4.61033393e-01  4.61033393e-01  4.61033393e-01  3.22259422e-09  1.62333079e-07  9.45576062e-08  2.90000000e-01 
 3.00000000e-01  3.26553575e-09  4.61033378e-01  3.28125081e-09  4.61033378e-01  4.61033378e-01  4.61033378e-01  3.22259427e-09  1.62333041e-07  9.45576097e-08  3.00000000e-01 
 3.10000000e-01  3.26553575e-09  4.61033387e-01  3.28125087e-09  4.61033387e-01  4.61033387e-01  4.61033387e-01  3.22259427e-09  1.62333074e-07  9.45573504e-08  3.10000000e-01 
 3.20000000e-01  3.26553575e-09  4.61033364e-01  3.28125081e-09  4.61033364e-01  4.61033364e-01  4.61033364e-01  3.22259427e-09  1.62333033e-07  9.45573362e-08  3.20000000e-01 
 3.30000000e-01  3.26553570e-09  4.61033390e-01  3.28125081e-09  4.61033390e-01  4.61033390e-01  4.61033390e-01  3.22259427e-09  1.62333084e-07  9.45571976e-08  3.30000000e-01 
 3.40000000e-01  3.26553575e-09  4.61033368e-01  3.28125081e-09  4.61033368e-01  4.61033368e-01  4.61033368e-01  3.22259421e-09  1.62333031e-07  9.45570235e-08  3.40000000e-01 
 3.50000000e-01  3.26553575e-09  4.61033373e-01  3.28125081e-09  4.61033373e-01  4.61033373e-01  4.61033373e-01  3.22259421e-09  1.62333046e-07  9.45569489e-08  3.50000000e-01 
 3.60000000e-01  3.26553569e-09  4.61033341e-01  3.28125087e-09  4.61033341e-01  4.61033341e-01  4.61033341e-01  3.22259421e-09  1.62333002e-07  9.45568495e-08  3.60000000e-01 
 3.70000000e-01  3.26553569e-09  4.61033387e-01  3.28125081e-09  4.61033387e-01  4.61033387e-01  4.61033387e-01  3.22259422e-09  1.62333070e-07  9.45567713e-08  3.70000000e-01 
 3.80000000e-01  3.26553575e-09  4.61033383e-01  3.28125087e-09  4.61033383e-01  4.61033383e-01  4.61033383e-01  3.22259427e-09  1.62333053e-07  9.45567038e-08  3.80000000e-01 
 3.90000000e-01  3.26553575e-09  4.61033370e-01  3.28125081e-09  4.61033370e-01  4.61033370e-01  4.61033370e-01  3.22259421e-09  1.62333047e-07  9.45566399e-08  3.90000000e-01 
 4.00000000e-01  3.26553575e-09  4.61033363e-01  3.28125081e-09  4.61033363e-01  4.61033363e-01  4.61033363e-01  3.22259427e-09  1.62333039e-07  9.45565013e-08  4.00000000e-01 
 4.10000000e-01  3.26553575e-09  4.61033357e-01  3.28125087e-09  4.61033357e-01  4.61033357e-01  4.61033357e-01  3.22259421e-09  1.62333040e-07  9.45562952e-08  4.10000000e-01 
 4.20000000e-01  3.26553575e-09  4.61033348e-01  3.28125081e-09  4.61033348e-01  4.61033348e-01  4.61033348e-01  3.22259427e-09  1.62333007e-07  9.45561531e-08  4.20000000e-01 
 4.30000000e-01  3.26553575e-09  4.61033382e-01  3.28125081e-09  4.61033382e-01  4.61033382e-01  4.61033382e-01  3.22259422e-09  1.62333058e-07  9.45562668e-08  4.30000000e-01 
 4.40000000e-01  3.26553575e-09  4.61033376e-01  3.28125081e-09  4.61033376e-01  4.61033376e-01  4.61033376e-01  3.22259427e-09  1.62333053e-07  9.45562704e-08  4.40000000e-01 
 4.50000000e-01  3.26553575e-09  4.61033352e-01  3.28125081e-09  4.61033352e-01  4.61033352e-01  4.61033352e-01  3.22259427e-09  1.62333016e-07  9.45558902e-08  4.50000000e-01 
 4.60000000e-01  3.26553575e-09  4.61033369e-01  3.28125087e-09  4.61033369e-01  4.61033369e-01  4.61033369e-01  3.22259427e-09  1.62333056e-07  9.45560146e-08  4.60000000e-01 
 4.70000000e-01  3.26553575e-09  4.61033350e-01  3.28125081e-09  4.61033350e-01  4.61033350e-01  4.61033350e-01  3.22259427e-09  1.62333013e-07  9.45558760e-08  4.70000000e-01 
 4.80000000e-01  3.26553575e-09  4.61033362e-01  3.28125081e-09  4.61033362e-01  4.61033362e-01  4.61033362e-01  3.22259427e-09  1.62333039e-07  9.45558085e-08  4.80000000e-01 
 4.90000000e-01  3.26553569e-09  4.61033358e-01  3.28125081e-09  4.61033358e-01  4.61033358e-01  4.61033358e-01  3.22259421e-09  1.62333030e-07  9.45556522e-08  4.90000000e-01 
 5.00000000e-01  3.26553575e-09  4.61033361e-01  3.28125081e-09  4.61033361e-01  4.61033361e-01  4.61033361e-01  3.22259421e-09  1.62333046e-07  9.45555669e-08  5.00000000e-01 
 5.10000000e-01  3.26553575e-09  4.61033371e-01  3.28125081e-09  4.61033371e-01  4.61033371e-01  4.61033371e-01  3.22259427e-09  1.62333048e-07  9.45555740e-08  5.10000000e-01 
 5.20000000e-01  3.26553575e-09  4.61033361e-01  3.28125087e-09  4.61033361e-01  4.61033361e-01  4.61033361e-01  3.22259421e-09  1.62333032e-07  9.45553893e-08  5.20000000e-01 
 5.30000000e-01  3.26553575e-09  4.61033363e-01  3.28125081e-09  4.61033363e-01  4.61033363e-01  4.61033363e-01  3.22259427e-09  1.62333043e-07  9.45554319e-08  5.30000000e-01 
 5.40000000e-01  3.26553575e-09  4.61033382e-01  3.28125081e-09  4.61033382e-01  4.61033382e-01  4.61033382e-01  3.22259422e-09  1.62333057e-07  9.45554746e-08  5.40000000e-01 
 5.50000000e-01  3.26553575e-09  4.61033364e-01  3.28125081e-09  4.61033364e-01  4.61033364e-01  4.61033364e-01  3.22259427e-09  1.62333029e-07  9.45553182e-08  5.50000000e-01 
 5.60000000e-01  3.26553575e-09  4.61033387e-01  3.28125081e-09  4.61033387e-01  4.61033387e-01  4.61033387e-01  3.22259422e-09  1.62333073e-07  9.45552507e-08  5.60000000e-01 
 5.70000000e-01  3.26553575e-09  4.61033371e-01  3.28125087e-09  4.61033371e-01  4.61033371e-01  4.61033371e-01  3.22259421e-09  1.62333037e-07  9.45552223e-08  5.70000000e-01 
 5.80000000e-01  3.26553575e-09  4.61033373e-01  3.28125081e-09  4.61033373e-01  4.61033373e-01  4.61033373e-01  3.22259427e-09  1.62333051e-07  9.45550909e-08  5.80000000e-01 
 5.90000000e-01  3.26553575e-09  4.61033379e-01  3.28125081e-09  4.61033379e-01  4.61033380e-01  4.61033379e-01  3.22259422e-09  1.62333047e-07  9.45550127e-08  5.90000000e-01 
 6.00000000e-01  3.26553575e-09  4.61033363e-01  3.28125087e-09  4.61033362e-01  4.61033363e-01  4.61033363e-01  3.22259421e-09  1.62333019e-07  9.45548919e-08  6.00000000e-01 
 6.10000000e-01  3.26553575e-09  4.61033372e-01  3.28125081e-09  4.61033372e-01  4.61033372e-01  4.61033372e-01  3.22259427e-09  1.62333047e-07  9.45548848e-08  6.10000000e-01 
 6.20000000e-01  3.26553575e-09  4.61033366e-01  3.28125087e-09  4.61033366e-01  4.61033366e-01  4.61033366e-01  3.22259421e-09  1.62333042e-07  9.45548493e-08  6.20000000e-01 
 6.30000000e-01  3.26553575e-09  4.61033367e-01  3.28125087e-09  4.61033367e-01  4.61033367e-01  4.61033367e-01  3.22259427e-09  1.62333034e-07  9.45547001e-08  6.30000000e-01 
 6.40000000e-01  3.26553575e-09  4.61033378e-01  3.28125081e-09  4.61033378e-01  4.61033378e-01  4.61033378e-01  3.22259427e-09  1.62333050e-07  9.45547001e-08  6.40000000e-01 
 6.50000000e-01  3.26553569e-09  4.61033372e-01  3.28125087e-09  4.61033372e-01  4.61033372e-01  4.61033372e-01  3.22259427e-09  1.62333043e-07  9.45546361e-08  6.50000000e-01 
 6.60000000e-01  3.26553569e-09  4.61033382e-01  3.28125081e-09  4.61033382e-01  4.61033382e-01  4.61033382e-01  3.22259427e-09  1.62333055e-07  9.45546361e-08  6.60000000e-01 
 6.70000000e-01  3.26553575e-09  4.61033349e-01  3.28125081e-09  4.61033349e-01  4.61033349e-01  4.61033349e-01  3.22259421e-09  1.62333013e-07  9.45542666e-08  6.70000000e-01 
 6.80000000e-01  3.26553575e-09  4.61033364e-01  3.28125087e-09  4.61033364e-01  4.61033364e-01  4.61033364e-01  3.22259421e-09  1.62333029e-07  9.45543732e-08  6.80000000e-01 
 6.90000000e-01  3.26553575e-09  4.61033366e-01  3.28125087e-09  4.61033366e-01  4.61033366e-01  4.61033366e-01  3.22259427e-09  1.62333039e-07  9.45542524e-08  6.90000000e-01 
 7.00000000e-01  3.26553575e-09  4.61033363e-01  3.28125081e-09  4.61033362e-01  4.61033363e-01  4.61033363e-01  3.22259427e-09  1.62333031e-07  9.45541458e-08  7.00000000e-01 
 7.10000000e-01  3.26553569e-09  4.61033370e-01  3.28125081e-09  4.61033370e-01  4.61033370e-01  4.61033370e-01  3.22259421e-09  1.62333052e-07  9.45540606e-08  7.10000000e-01 
 7.20000000e-01  3.26553575e-09  4.61033374e-01  3.28125081e-09  4.61033374e-01  4.61033374e-01  4.61033374e-01  3.22259421e-09  1.62333055e-07  9.45540890e-08  7.20000000e-01 
 7.30000000e-01  3.26553575e-09  4.61033399e-01  3.28125081e-09  4.61033399e-01  4.61033399e-01  4.61033399e-01  3.22259427e-09  1.62333074e-07  9.45541316e-08  7.30000000e-01 
 7.40000000e-01  3.26553575e-09  4.61033380e-01  3.28125087e-09  4.61033380e-01  4.61033380e-01  4.61033380e-01  3.22259427e-09  1.62333044e-07  9.45539185e-08  7.40000000e-01 
 7.50000000e-01  3.26553575e-09  4.61033366e-01  3.28125081e-09  4.61033366e-01  4.61033366e-01  4.61033366e-01  3.22259427e-09  1.62333038e-07  9.45538190e-08  7.50000000e-01 
 7.60000000e-01  3.26553575e-09  4.61033365e-01  3.28125081e-09  4.61033365e-01  4.61033365e-01  4.61033365e-01  3.22259421e-09  1.62333031e-07  9.45537479e-08  7.60000000e-01 
 7.70000000e-01  3.26553569e-09  4.61033364e-01  3.28125081e-09  4.61033364e-01  4.61033365e-01  4.61033364e-01  3.22259427e-09  1.62333042e-07  9.45536627e-08  7.70000000e-01 
 7.80000000e-01  3.26553569e-09  4.61033353e-01  3.28125081e-09  4.61033353e-01  4.61033353e-01  4.61033353e-01  3.22259427e-09  1.62333023e-07  9.45536200e-08  7.80000000e-01 
 7.90000000e-01  3.26553575e-09  4.61033353e-01  3.28125087e-09  4.61033353e-01  4.61033353e-01  4.61033353e-01  3.22259421e-09  1.62333021e-07  9.45533358e-08  7.90000000e-01 
 8.00000000e-01  3.26553575e-09  4.61033369e-01  3.28125081e-09  4.61033369e-01  4.61033369e-01  4.61033369e-01  3.22259421e-09  1.62333046e-07  9.45534069e-08  8.00000000e-01 
 8.10000000e-01  3.26553569e-09  4.61033384e-01  3.28125081e-09  4.61033384e-01  4.61033384e-01  4.61033384e-01  3.22259422e-09  1.62333066e-07  9.45533358e-08  8.10000000e-01 
 8.20000000e-01  3.26553575e-09  4.61033358e-01  3.28125081e-09  4.61033358e-01  4.61033358e-01  4.61033358e-01  3.22259421e-09  1.62333016e-07  9.45533003e-08  8.20000000e-01 
 8.30000000e-01  3.26553569e-09  4.61033365e-01  3.28125081e-09  4.61033365e-01  4.61033365e-01  4.61033365e-01  3.22259427e-09  1.62333054e-07  9.45532577e-08  8.30000000e-01 
 8.40000000e-01  3.26553575e-09  4.61033376e-01  3.28125087e-09  4.61033375e-01  4.61033376e-01  4.61033376e-01  3.22259427e-09  1.62333037e-07  9.45531795e-08  8.40000000e-01 
 8.50000000e-01  3.26553575e-09  4.61033353e-01  3.28125081e-09  4.61033353e-01  4.61033353e-01  4.61033353e-01  3.22259427e-09  1.62333024e-07  9.45530729e-08  8.50000000e-01 
 8.60000000e-01  3.26553575e-09  4.61033390e-01  3.28125081e-09  4.61033390e-01  4.61033390e-01  4.61033390e-01  3.22259422e-09  1.62333077e-07  9.45531582e-08  8.60000000e-01 
 8.70000000e-01  3.26553575e-09  4.61033377e-01  3.28125087e-09  4.61033377e-01  4.61033377e-01  4.61033377e-01  3.22259422e-09  1.62333045e-07  9.45528100e-08  8.70000000e-01 
 8.80000000e-01  3.26553575e-09  4.61033381e-01  3.28125081e-09  4.61033381e-01  4.61033381e-01  4.61033381e-01  3.22259422e-09  1.62333061e-07  9.45529237e-08  8.80000000e-01 
 8.90000000e-01  3.26553575e-09  4.61033355e-01  3.28125081e-09  4.61033355e-01  4.61033355e-01  4.61033355e-01  3.22259421e-09  1.62333018e-07  9.45528171e-08  8.90000000e-01 
 9.00000000e-01  3.26553575e-09  4.61033381e-01  3.28125081e-09  4.61033381e-01  4.61033381e-01  4.61033381e-01  3.22259422e-09  1.62333075e-07  9.45527248e-08  9.00000000e-01 
 9.10000000e-01  3.26553575e-09  4.61033368e-01  3.28125087e-09  4.61033368e-01  4.61033368e-01  4.61033368e-01  3.22259421e-09  1.62333035e-07  9.45527319e-08  9.10000000e-01 
 9.20000000e-01  3.26553569e-09  4.61033364e-01  3.28125087e-09  4.61033364e-01  4.61033364e-01  4.61033364e-01  3.22259421e-09  1.62333034e-07  9.45525187e-08  9.20000000e-01 
 9.30000000e-01  3.26553575e-09  4.61033373e-01  3.28125081e-09  4.61033373e-01  4.61033373e-01  4.61033373e-01  3.22259427e-09  1.62333065e-07  9.45525116e-08  9.30000000e-01 
 9.40000000e-01  3.26553575e-09  4.61033358e-01  3.28125081e-09  4.61033358e-01  4.61033358e-01  4.61033358e-01  3.22259421e-09  1.62333027e-07  9.45522700e-08  9.40000000e-01 
 9.50000000e-01  3.26553575e-09  4.61033368e-01  3.28125081e-09  4.61033368e-01  4.61033368e-01  4.61033368e-01  3.22259427e-09  1.62333052e-07  9.45522629e-08  9.50000000e-01 
 9.60000000e-01  3.26553575e-09  4.61033355e-01  3.28125081e-09  4.61033355e-01  4.61033355e-01  4.61033355e-01  3.22259427e-09  1.62333031e-07  9.45521634e-08  9.60000000e-01 
 9.70000000e-01  3.26553575e-09  4.61033390e-01  3.28125081e-09  4.61033390e-01  4.61033390e-01  4.61033390e-01  3.22259427e-09  1.62333088e-07  9.45521847e-08  9.70000000e-01 
 9.80000000e-01  3.26553575e-09  4.61033360e-01  3.28125081e-09  4.61033359e-01  4.61033360e-01  4.61033360e-01  3.22259421e-09  1.62333025e-07  9.45520640e-08  9.80000000e-01 
 9.90000000e-01  3.26553575e-09  4.61033379e-01  3.28125081e-09  4.61033379e-01  4.61033379e-01  4.61033379e-01  3.22259427e-09  1.62333061e-07  9.45519147e-08  9.90000000e-01 
 1.00000000e+00  3.26553575e-09  4.61033337e-01  3.28125081e-09  4.61033337e-01  4.61033337e-01  4.61033337e-01  3.22259427e-09  1.62332985e-07  9.45518508e-08  1.00000000e+00 
 1.01000000e+00  3.26553575e-09  4.61033376e-01  3.28125087e-09  4.61033376e-01  4.61033376e-01  4.61033376e-01  3.22259427e-09  1.62333060e-07  9.45518721e-08  1.01000000e+00 
 1.02000000e+00  3.26553575e-09  4.61033388e-01  3.28125081e-09  4.61033387e-01  4.61033388e-01  4.61033387e-01  3.22259422e-09  1.62333068e-07  9.45519361e-08  1.02000000e+00 
 1.03000000e+00  3.26553575e-09  4.61033377e-01  3.28125081e-09  4.61033377e-01  4.61033377e-01  4.61033377e-01  3.22259422e-09  1.62333050e-07  9.45517513e-08  1.03000000e+00 
 1.04000000e+00  3.26553575e-09  4.61033358e-01  3.28125081e-09  4.61033358e-01  4.61033358e-01  4.61033358e-01  3.22259427e-09  1.62333024e-07  9.45513534e-08  1.04000000e+00 
 1.05000000e+00  3.26553575e-09  4.61033350e-01  3.28125081e-09  4.61033350e-01  4.61033350e-01  4.61033350e-01  3.22259421e-09  1.62333042e-07  9.45514600e-08  1.05000000e+00 
 1.06000000e+00  3.26553575e-09  4.61033354e-01  3.28125081e-09  4.61033353e-01  4.61033354e-01  4.61033354e-01  3.22259421e-09  1.62333024e-07  9.45513108e-08  1.06000000e+00 
 1.07000000e+00  3.26553575e-09  4.61033359e-01  3.28125081e-09  4.61033359e-01  4.61033359e-01  4.61033359e-01  3.22259421e-09  1.62333035e-07  9.45512184e-08  1.07000000e+00 
 1.08000000e+00  3.26553575e-09  4.61033370e-01  3.28125081e-09  4.61033370e-01  4.61033370e-01  4.61033370e-01  3.22259421e-09  1.62333040e-07  9.45512539e-08  1.08000000e+00 
 1.09000000e+00  3.26553575e-09  4.61033377e-01  3.28125081e-09  4.61033377e-01  4.61033377e-01  4.61033377e-01  3.22259422e-09  1.62333060e-07  9.45512824e-08  1.09000000e+00 
 1.10000000e+00  3.26553575e-09  4.61033370e-01  3.28125081e-09  4.61033369e-01  4.61033370e-01  4.61033370e-01  3.22259427e-09  1.62333042e-07  9.45509839e-08  1.10000000e+00 
