 v-sweep         v(b0)           v(b1)           v(b2)           v(b3)           v(b4)           v(b5)           v(b6)           i(vbias)        i(viout)        v(vout)        
 0.00000000e+00  3.31439701e-09  4.56592268e-01  4.56592268e-01  4.56592268e-01  3.22681516e-09  3.43772835e-09  3.18183045e-09  1.56791548e-07  2.14436252e-08  0.00000000e+00 
 1.00000000e-02  3.31439698e-09  4.56592297e-01  4.56592297e-01  4.56592297e-01  3.22681519e-09  3.43772837e-09  3.18183048e-09  1.56791607e-07  2.14433759e-08  1.00000000e-02 
 2.00000000e-02  3.31439698e-09  4.56592294e-01  4.56592294e-01  4.56592294e-01  3.22681519e-09  3.43772832e-09  3.18183048e-09  1.56791591e-07  2.14428775e-08  2.00000000e-02 
 3.00000000e-02  3.31439698e-09  4.56592290e-01  4.56592290e-01  4.56592290e-01  3.22681514e-09  3.43772839e-09  3.18183043e-09  1.56791589e-07  2.14424856e-08  3.00000000e-02 
 4.00000000e-02  3.31439698e-09  4.56592301e-01  4.56592301e-01  4.56592301e-01  3.22681514e-09  3.43772837e-09  3.18183043e-09  1.56791617e-07  2.14421707e-08  4.00000000e-02 
 5.00000000e-02  3.31439698e-09  4.56592282e-01  4.56592282e-01  4.56592282e-01  3.22681514e-09  3.43772832e-09  3.18183048e-09  1.56791584e-07  2.14418474e-08  5.00000000e-02 
 6.00000000e-02  3.31439698e-09  4.56592274e-01  4.56592274e-01  4.56592274e-01  3.22681513e-09  3.43772838e-09  3.18183048e-09  1.56791572e-07  2.14416076e-08  6.00000000e-02 
 7.00000000e-02  3.31439698e-09  4.56592318e-01  4.56592318e-01  4.56592318e-01  3.22681514e-09  3.43772837e-09  3.18183043e-09  1.56791620e-07  2.14413123e-08  7.00000000e-02 
 8.00000000e-02  3.31439698e-09  4.56592315e-01  4.56592315e-01  4.56592315e-01  3.22681514e-09  3.43772837e-09  3.18183048e-09  1.56791624e-07  2.14409237e-08  8.00000000e-02 
 9.00000000e-02  3.31439704e-09  4.56592284e-01  4.56592284e-01  4.56592284e-01  3.22681519e-09  3.43772837e-09  3.18183043e-09  1.56791590e-07  2.14406404e-08  9.00000000e-02 
 1.00000000e-01  3.31439698e-09  4.56592281e-01  4.56592281e-01  4.56592281e-01  3.22681514e-09  3.43772837e-09  3.18183048e-09  1.56791559e-07  2.14405578e-08  1.00000000e-01 
 1.10000000e-01  3.31439698e-09  4.56592292e-01  4.56592292e-01  4.56592292e-01  3.22681514e-09  3.43772832e-09  3.18183048e-09  1.56791589e-07  2.14402176e-08  1.10000000e-01 
 1.20000000e-01  3.31439698e-09  4.56592298e-01  4.56592298e-01  4.56592298e-01  3.22681514e-09  3.43772833e-09  3.18183048e-09  1.56791595e-07  2.14399680e-08  1.20000000e-01 
 1.30000000e-01  3.31439698e-09  4.56592289e-01  4.56592289e-01  4.56592289e-01  3.22681519e-09  3.43772838e-09  3.18183048e-09  1.56791589e-07  2.14397060e-08  1.30000000e-01 
 1.40000000e-01  3.31439698e-09  4.56592309e-01  4.56592309e-01  4.56592309e-01  3.22681514e-09  3.43772837e-09  3.18183043e-09  1.56791623e-07  2.14396234e-08  1.40000000e-01 
 1.50000000e-01  3.31439698e-09  4.56592271e-01  4.56592271e-01  4.56592271e-01  3.22681513e-09  3.43772831e-09  3.18183048e-09  1.56791549e-07  2.14394102e-08  1.50000000e-01 
 1.60000000e-01  3.31439698e-09  4.56592324e-01  4.56592324e-01  4.56592324e-01  3.22681514e-09  3.43772839e-09  3.18183048e-09  1.56791637e-07  2.14391633e-08  1.60000000e-01 
 1.70000000e-01  3.31439698e-09  4.56592304e-01  4.56592304e-01  4.56592304e-01  3.22681519e-09  3.43772837e-09  3.18183043e-09  1.56791605e-07  2.14389786e-08  1.70000000e-01 
 1.80000000e-01  3.31439698e-09  4.56592293e-01  4.56592293e-01  4.56592293e-01  3.22681519e-09  3.43772837e-09  3.18183043e-09  1.56791594e-07  2.14388471e-08  1.80000000e-01 
 1.90000000e-01  3.31439698e-09  4.56592286e-01  4.56592285e-01  4.56592285e-01  3.22681519e-09  3.43772832e-09  3.18183043e-09  1.56791581e-07  2.14386429e-08  1.90000000e-01 
 2.00000000e-01  3.31439698e-09  4.56592298e-01  4.56592298e-01  4.56592298e-01  3.22681519e-09  3.43772833e-09  3.18183043e-09  1.56791603e-07  2.14384475e-08  2.00000000e-01 
 2.10000000e-01  3.31439698e-09  4.56592291e-01  4.56592291e-01  4.56592291e-01  3.22681519e-09  3.43772832e-09  3.18183048e-09  1.56791582e-07  2.14384297e-08  2.10000000e-01 
 2.20000000e-01  3.31439698e-09  4.56592323e-01  4.56592323e-01  4.56592323e-01  3.22681514e-09  3.43772838e-09  3.18183048e-09  1.56791640e-07  2.14381437e-08  2.20000000e-01 
 2.30000000e-01  3.31439698e-09  4.56592303e-01  4.56592303e-01  4.56592303e-01  3.22681519e-09  3.43772837e-09  3.18183043e-09  1.56791596e-07  2.14381988e-08  2.30000000e-01 
 2.40000000e-01  3.31439698e-09  4.56592290e-01  4.56592290e-01  4.56592290e-01  3.22681514e-09  3.43772837e-09  3.18183048e-09  1.56791591e-07  2.14381526e-08  2.40000000e-01 
 2.50000000e-01  3.31439698e-09  4.56592277e-01  4.56592277e-01  4.56592277e-01  3.22681513e-09  3.43772831e-09  3.18183048e-09  1.56791576e-07  2.14377724e-08  2.50000000e-01 
 2.60000000e-01  3.31439698e-09  4.56592289e-01  4.56592289e-01  4.56592289e-01  3.22681514e-09  3.43772839e-09  3.18183048e-09  1.56791567e-07  2.14376890e-08  2.60000000e-01 
 2.70000000e-01  3.31439704e-09  4.56592309e-01  4.56592309e-01  4.56592309e-01  3.22681514e-09  3.43772837e-09  3.18183043e-09  1.56791615e-07  2.14376961e-08  2.70000000e-01 
 2.80000000e-01  3.31439698e-09  4.56592302e-01  4.56592302e-01  4.56592302e-01  3.22681514e-09  3.43772832e-09  3.18183048e-09  1.56791611e-07  2.14375113e-08  2.80000000e-01 
 2.90000000e-01  3.31439704e-09  4.56592290e-01  4.56592290e-01  4.56592290e-01  3.22681514e-09  3.43772833e-09  3.18183048e-09  1.56791591e-07  2.14374758e-08  2.90000000e-01 
 3.00000000e-01  3.31439704e-09  4.56592276e-01  4.56592276e-01  4.56592276e-01  3.22681513e-09  3.43772832e-09  3.18183043e-09  1.56791568e-07  2.14372804e-08  3.00000000e-01 
 3.10000000e-01  3.31439698e-09  4.56592314e-01  4.56592314e-01  4.56592314e-01  3.22681519e-09  3.43772838e-09  3.18183048e-09  1.56791623e-07  2.14372626e-08  3.10000000e-01 
 3.20000000e-01  3.31439704e-09  4.56592286e-01  4.56592286e-01  4.56592286e-01  3.22681519e-09  3.43772837e-09  3.18183043e-09  1.56791588e-07  2.14371632e-08  3.20000000e-01 
 3.30000000e-01  3.31439698e-09  4.56592283e-01  4.56592283e-01  4.56592283e-01  3.22681519e-09  3.43772837e-09  3.18183048e-09  1.56791564e-07  2.14370566e-08  3.30000000e-01 
 3.40000000e-01  3.31439698e-09  4.56592281e-01  4.56592281e-01  4.56592281e-01  3.22681519e-09  3.43772837e-09  3.18183048e-09  1.56791574e-07  2.14369607e-08  3.40000000e-01 
 3.50000000e-01  3.31439698e-09  4.56592293e-01  4.56592293e-01  4.56592293e-01  3.22681519e-09  3.43772837e-09  3.18183048e-09  1.56791595e-07  2.14368896e-08  3.50000000e-01 
 3.60000000e-01  3.31439698e-09  4.56592293e-01  4.56592293e-01  4.56592293e-01  3.22681514e-09  3.43772832e-09  3.18183043e-09  1.56791589e-07  2.14368328e-08  3.60000000e-01 
 3.70000000e-01  3.31439698e-09  4.56592302e-01  4.56592302e-01  4.56592302e-01  3.22681514e-09  3.43772839e-09  3.18183043e-09  1.56791611e-07  2.14368434e-08  3.70000000e-01 
 3.80000000e-01  3.31439698e-09  4.56592295e-01  4.56592295e-01  4.56592295e-01  3.22681514e-09  3.43772837e-09  3.18183043e-09  1.56791591e-07  2.14366125e-08  3.80000000e-01 
 3.90000000e-01  3.31439698e-09  4.56592268e-01  4.56592268e-01  4.56592268e-01  3.22681513e-09  3.43772831e-09  3.18183043e-09  1.56791545e-07  2.14365308e-08  3.90000000e-01 
 4.00000000e-01  3.31439698e-09  4.56592282e-01  4.56592282e-01  4.56592282e-01  3.22681519e-09  3.43772838e-09  3.18183048e-09  1.56791577e-07  2.14363887e-08  4.00000000e-01 
 4.10000000e-01  3.31439704e-09  4.56592309e-01  4.56592309e-01  4.56592309e-01  3.22681519e-09  3.43772837e-09  3.18183043e-09  1.56791616e-07  2.14364633e-08  4.10000000e-01 
 4.20000000e-01  3.31439698e-09  4.56592298e-01  4.56592298e-01  4.56592298e-01  3.22681514e-09  3.43772837e-09  3.18183048e-09  1.56791595e-07  2.14363638e-08  4.20000000e-01 
 4.30000000e-01  3.31439698e-09  4.56592304e-01  4.56592304e-01  4.56592304e-01  3.22681519e-09  3.43772832e-09  3.18183048e-09  1.56791607e-07  2.14361684e-08  4.30000000e-01 
 4.40000000e-01  3.31439698e-09  4.56592257e-01  4.56592256e-01  4.56592257e-01  3.22681519e-09  3.43772833e-09  3.18183048e-09  1.56791542e-07  2.14361258e-08  4.40000000e-01 
 4.50000000e-01  3.31439698e-09  4.56592281e-01  4.56592281e-01  4.56592281e-01  3.22681519e-09  3.43772832e-09  3.18183043e-09  1.56791573e-07  2.14361542e-08  4.50000000e-01 
 4.60000000e-01  3.31439698e-09  4.56592301e-01  4.56592301e-01  4.56592301e-01  3.22681514e-09  3.43772832e-09  3.18183043e-09  1.56791607e-07  2.14361044e-08  4.60000000e-01 
 4.70000000e-01  3.31439698e-09  4.56592287e-01  4.56592287e-01  4.56592287e-01  3.22681519e-09  3.43772832e-09  3.18183048e-09  1.56791572e-07  2.14359943e-08  4.70000000e-01 
 4.80000000e-01  3.31439704e-09  4.56592290e-01  4.56592289e-01  4.56592290e-01  3.22681514e-09  3.43772838e-09  3.18183048e-09  1.56791595e-07  2.14360014e-08  4.80000000e-01 
 4.90000000e-01  3.31439698e-09  4.56592286e-01  4.56592285e-01  4.56592286e-01  3.22681514e-09  3.43772831e-09  3.18183048e-09  1.56791572e-07  2.14358913e-08  4.90000000e-01 
 5.00000000e-01  3.31439698e-09  4.56592296e-01  4.56592296e-01  4.56592296e-01  3.22681519e-09  3.43772833e-09  3.18183048e-09  1.56791596e-07  2.14359268e-08  5.00000000e-01 
 5.10000000e-01  3.31439698e-09  4.56592298e-01  4.56592298e-01  4.56592298e-01  3.22681519e-09  3.43772832e-09  3.18183043e-09  1.56791605e-07  2.14357279e-08  5.10000000e-01 
 5.20000000e-01  3.31439698e-09  4.56592309e-01  4.56592309e-01  4.56592309e-01  3.22681514e-09  3.43772832e-09  3.18183048e-09  1.56791613e-07  2.14357030e-08  5.20000000e-01 
 5.30000000e-01  3.31439698e-09  4.56592271e-01  4.56592270e-01  4.56592271e-01  3.22681519e-09  3.43772838e-09  3.18183048e-09  1.56791570e-07  2.14356888e-08  5.30000000e-01 
 5.40000000e-01  3.31439698e-09  4.56592298e-01  4.56592298e-01  4.56592298e-01  3.22681514e-09  3.43772831e-09  3.18183048e-09  1.56791604e-07  2.14356248e-08  5.40000000e-01 
 5.50000000e-01  3.31439704e-09  4.56592276e-01  4.56592276e-01  4.56592276e-01  3.22681513e-09  3.43772833e-09  3.18183048e-09  1.56791564e-07  2.14356035e-08  5.50000000e-01 
 5.60000000e-01  3.31439698e-09  4.56592278e-01  4.56592278e-01  4.56592278e-01  3.22681513e-09  3.43772832e-09  3.18183048e-09  1.56791569e-07  2.14354969e-08  5.60000000e-01 
 5.70000000e-01  3.31439698e-09  4.56592318e-01  4.56592318e-01  4.56592318e-01  3.22681519e-09  3.43772838e-09  3.18183048e-09  1.56791622e-07  2.14354330e-08  5.70000000e-01 
 5.80000000e-01  3.31439698e-09  4.56592283e-01  4.56592283e-01  4.56592283e-01  3.22681514e-09  3.43772837e-09  3.18183043e-09  1.56791579e-07  2.14353975e-08  5.80000000e-01 
 5.90000000e-01  3.31439698e-09  4.56592275e-01  4.56592275e-01  4.56592275e-01  3.22681513e-09  3.43772831e-09  3.18183048e-09  1.56791562e-07  2.14352198e-08  5.90000000e-01 
 6.00000000e-01  3.31439698e-09  4.56592301e-01  4.56592301e-01  4.56592301e-01  3.22681519e-09  3.43772839e-09  3.18183048e-09  1.56791616e-07  2.14353122e-08  6.00000000e-01 
 6.10000000e-01  3.31439698e-09  4.56592309e-01  4.56592309e-01  4.56592309e-01  3.22681514e-09  3.43772831e-09  3.18183048e-09  1.56791614e-07  2.14352767e-08  6.10000000e-01 
 6.20000000e-01  3.31439698e-09  4.56592279e-01  4.56592279e-01  4.56592279e-01  3.22681519e-09  3.43772833e-09  3.18183048e-09  1.56791571e-07  2.14352127e-08  6.20000000e-01 
 6.30000000e-01  3.31439698e-09  4.56592274e-01  4.56592274e-01  4.56592274e-01  3.22681519e-09  3.43772838e-09  3.18183048e-09  1.56791561e-07  2.14350848e-08  6.30000000e-01 
 6.40000000e-01  3.31439698e-09  4.56592288e-01  4.56592288e-01  4.56592288e-01  3.22681519e-09  3.43772837e-09  3.18183043e-09  1.56791585e-07  2.14351203e-08  6.40000000e-01 
 6.50000000e-01  3.31439698e-09  4.56592313e-01  4.56592313e-01  4.56592313e-01  3.22681519e-09  3.43772837e-09  3.18183048e-09  1.56791607e-07  2.14350138e-08  6.50000000e-01 
 6.60000000e-01  3.31439698e-09  4.56592314e-01  4.56592314e-01  4.56592314e-01  3.22681519e-09  3.43772832e-09  3.18183048e-09  1.56791605e-07  2.14349285e-08  6.60000000e-01 
 6.70000000e-01  3.31439698e-09  4.56592272e-01  4.56592272e-01  4.56592272e-01  3.22681513e-09  3.43772838e-09  3.18183048e-09  1.56791569e-07  2.14349640e-08  6.70000000e-01 
 6.80000000e-01  3.31439698e-09  4.56592294e-01  4.56592294e-01  4.56592294e-01  3.22681514e-09  3.43772837e-09  3.18183043e-09  1.56791592e-07  2.14347651e-08  6.80000000e-01 
 6.90000000e-01  3.31439698e-09  4.56592279e-01  4.56592279e-01  4.56592279e-01  3.22681519e-09  3.43772837e-09  3.18183048e-09  1.56791571e-07  2.14348148e-08  6.90000000e-01 
 7.00000000e-01  3.31439698e-09  4.56592288e-01  4.56592288e-01  4.56592288e-01  3.22681519e-09  3.43772837e-09  3.18183043e-09  1.56791596e-07  2.14347651e-08  7.00000000e-01 
 7.10000000e-01  3.31439704e-09  4.56592304e-01  4.56592304e-01  4.56592304e-01  3.22681519e-09  3.43772837e-09  3.18183048e-09  1.56791604e-07  2.14347651e-08  7.10000000e-01 
 7.20000000e-01  3.31439698e-09  4.56592291e-01  4.56592291e-01  4.56592291e-01  3.22681519e-09  3.43772837e-09  3.18183048e-09  1.56791596e-07  2.14348219e-08  7.20000000e-01 
 7.30000000e-01  3.31439698e-09  4.56592308e-01  4.56592308e-01  4.56592308e-01  3.22681519e-09  3.43772837e-09  3.18183043e-09  1.56791610e-07  2.14346940e-08  7.30000000e-01 
 7.40000000e-01  3.31439704e-09  4.56592262e-01  4.56592262e-01  4.56592262e-01  3.22681519e-09  3.43772831e-09  3.18183043e-09  1.56791554e-07  2.14344951e-08  7.40000000e-01 
 7.50000000e-01  3.31439698e-09  4.56592276e-01  4.56592276e-01  4.56592276e-01  3.22681513e-09  3.43772838e-09  3.18183043e-09  1.56791573e-07  2.14345022e-08  7.50000000e-01 
 7.60000000e-01  3.31439698e-09  4.56592290e-01  4.56592290e-01  4.56592290e-01  3.22681514e-09  3.43772837e-09  3.18183043e-09  1.56791579e-07  2.14345377e-08  7.60000000e-01 
 7.70000000e-01  3.31439698e-09  4.56592288e-01  4.56592288e-01  4.56592288e-01  3.22681514e-09  3.43772837e-09  3.18183048e-09  1.56791594e-07  2.14344595e-08  7.70000000e-01 
 7.80000000e-01  3.31439698e-09  4.56592273e-01  4.56592273e-01  4.56592273e-01  3.22681513e-09  3.43772837e-09  3.18183048e-09  1.56791563e-07  2.14344098e-08  7.80000000e-01 
 7.90000000e-01  3.31439698e-09  4.56592284e-01  4.56592284e-01  4.56592284e-01  3.22681514e-09  3.43772832e-09  3.18183048e-09  1.56791589e-07  2.14342322e-08  7.90000000e-01 
 8.00000000e-01  3.31439698e-09  4.56592306e-01  4.56592305e-01  4.56592306e-01  3.22681519e-09  3.43772833e-09  3.18183048e-09  1.56791609e-07  2.14342890e-08  8.00000000e-01 
 8.10000000e-01  3.31439704e-09  4.56592297e-01  4.56592297e-01  4.56592297e-01  3.22681519e-09  3.43772838e-09  3.18183048e-09  1.56791598e-07  2.14341895e-08  8.10000000e-01 
 8.20000000e-01  3.31439698e-09  4.56592301e-01  4.56592301e-01  4.56592301e-01  3.22681514e-09  3.43772831e-09  3.18183048e-09  1.56791620e-07  2.14342535e-08  8.20000000e-01 
 8.30000000e-01  3.31439698e-09  4.56592306e-01  4.56592306e-01  4.56592306e-01  3.22681519e-09  3.43772833e-09  3.18183043e-09  1.56791612e-07  2.14341185e-08  8.30000000e-01 
 8.40000000e-01  3.31439698e-09  4.56592301e-01  4.56592301e-01  4.56592301e-01  3.22681519e-09  3.43772838e-09  3.18183048e-09  1.56791600e-07  2.14340901e-08  8.40000000e-01 
 8.50000000e-01  3.31439698e-09  4.56592283e-01  4.56592283e-01  4.56592283e-01  3.22681514e-09  3.43772837e-09  3.18183043e-09  1.56791572e-07  2.14339622e-08  8.50000000e-01 
 8.60000000e-01  3.31439704e-09  4.56592279e-01  4.56592279e-01  4.56592279e-01  3.22681519e-09  3.43772832e-09  3.18183048e-09  1.56791563e-07  2.14340687e-08  8.60000000e-01 
 8.70000000e-01  3.31439698e-09  4.56592305e-01  4.56592305e-01  4.56592305e-01  3.22681514e-09  3.43772833e-09  3.18183048e-09  1.56791609e-07  2.14339195e-08  8.70000000e-01 
 8.80000000e-01  3.31439698e-09  4.56592277e-01  4.56592277e-01  4.56592277e-01  3.22681519e-09  3.43772832e-09  3.18183048e-09  1.56791568e-07  2.14338201e-08  8.80000000e-01 
 8.90000000e-01  3.31439698e-09  4.56592290e-01  4.56592290e-01  4.56592290e-01  3.22681514e-09  3.43772832e-09  3.18183048e-09  1.56791578e-07  2.14339124e-08  8.90000000e-01 
 9.00000000e-01  3.31439704e-09  4.56592298e-01  4.56592298e-01  4.56592298e-01  3.22681519e-09  3.43772838e-09  3.18183043e-09  1.56791602e-07  2.14337419e-08  9.00000000e-01 
 9.10000000e-01  3.31439698e-09  4.56592286e-01  4.56592286e-01  4.56592286e-01  3.22681514e-09  3.43772831e-09  3.18183043e-09  1.56791592e-07  2.14336850e-08  9.10000000e-01 
 9.20000000e-01  3.31439698e-09  4.56592312e-01  4.56592312e-01  4.56592312e-01  3.22681519e-09  3.43772833e-09  3.18183048e-09  1.56791621e-07  2.14336993e-08  9.20000000e-01 
 9.30000000e-01  3.31439704e-09  4.56592293e-01  4.56592293e-01  4.56592293e-01  3.22681519e-09  3.43772838e-09  3.18183043e-09  1.56791596e-07  2.14336566e-08  9.30000000e-01 
 9.40000000e-01  3.31439698e-09  4.56592284e-01  4.56592284e-01  4.56592284e-01  3.22681514e-09  3.43772837e-09  3.18183048e-09  1.56791584e-07  2.14334719e-08  9.40000000e-01 
 9.50000000e-01  3.31439704e-09  4.56592264e-01  4.56592264e-01  4.56592264e-01  3.22681513e-09  3.43772831e-09  3.18183043e-09  1.56791550e-07  2.14335358e-08  9.50000000e-01 
 9.60000000e-01  3.31439698e-09  4.56592272e-01  4.56592272e-01  4.56592272e-01  3.22681513e-09  3.43772833e-09  3.18183048e-09  1.56791562e-07  2.14334506e-08  9.60000000e-01 
 9.70000000e-01  3.31439698e-09  4.56592293e-01  4.56592293e-01  4.56592293e-01  3.22681514e-09  3.43772832e-09  3.18183048e-09  1.56791596e-07  2.14332800e-08  9.70000000e-01 
 9.80000000e-01  3.31439698e-09  4.56592282e-01  4.56592282e-01  4.56592282e-01  3.22681519e-09  3.43772832e-09  3.18183043e-09  1.56791571e-07  2.14333369e-08  9.80000000e-01 
 9.90000000e-01  3.31439698e-09  4.56592298e-01  4.56592298e-01  4.56592298e-01  3.22681514e-09  3.43772838e-09  3.18183048e-09  1.56791591e-07  2.14332303e-08  9.90000000e-01 
 1.00000000e+00  3.31439698e-09  4.56592303e-01  4.56592303e-01  4.56592303e-01  3.22681519e-09  3.43772837e-09  3.18183043e-09  1.56791596e-07  2.14332019e-08  1.00000000e+00 
 1.01000000e+00  3.31439698e-09  4.56592301e-01  4.56592301e-01  4.56592301e-01  3.22681514e-09  3.43772837e-09  3.18183048e-09  1.56791609e-07  2.14331664e-08  1.01000000e+00 
 1.02000000e+00  3.31439704e-09  4.56592319e-01  4.56592319e-01  4.56592319e-01  3.22681514e-09  3.43772837e-09  3.18183043e-09  1.56791632e-07  2.14331237e-08  1.02000000e+00 
 1.03000000e+00  3.31439704e-09  4.56592307e-01  4.56592307e-01  4.56592307e-01  3.22681519e-09  3.43772832e-09  3.18183048e-09  1.56791609e-07  2.14330313e-08  1.03000000e+00 
 1.04000000e+00  3.31439698e-09  4.56592290e-01  4.56592290e-01  4.56592290e-01  3.22681514e-09  3.43772833e-09  3.18183043e-09  1.56791594e-07  2.14330313e-08  1.04000000e+00 
 1.05000000e+00  3.31439698e-09  4.56592305e-01  4.56592305e-01  4.56592305e-01  3.22681519e-09  3.43772832e-09  3.18183043e-09  1.56791607e-07  2.14328395e-08  1.05000000e+00 
 1.06000000e+00  3.31439698e-09  4.56592309e-01  4.56592309e-01  4.56592309e-01  3.22681519e-09  3.43772838e-09  3.18183048e-09  1.56791601e-07  2.14329248e-08  1.06000000e+00 
 1.07000000e+00  3.31439704e-09  4.56592296e-01  4.56592295e-01  4.56592296e-01  3.22681519e-09  3.43772831e-09  3.18183048e-09  1.56791583e-07  2.14328324e-08  1.07000000e+00 
 1.08000000e+00  3.31439698e-09  4.56592299e-01  4.56592299e-01  4.56592299e-01  3.22681514e-09  3.43772833e-09  3.18183043e-09  1.56791606e-07  2.14326690e-08  1.08000000e+00 
 1.09000000e+00  3.31439698e-09  4.56592299e-01  4.56592299e-01  4.56592299e-01  3.22681519e-09  3.43772832e-09  3.18183048e-09  1.56791602e-07  2.14327969e-08  1.09000000e+00 
 1.10000000e+00  3.31439698e-09  4.56592299e-01  4.56592299e-01  4.56592299e-01  3.22681519e-09  3.43772832e-09  3.18183048e-09  1.56791591e-07  2.14326406e-08  1.10000000e+00 
