 v-sweep         v(b0)           v(b1)           v(b2)           v(b3)           v(b4)           v(b5)           v(b6)           i(vbias)        i(viout)        v(vout)        
 0.00000000e+00  4.56600515e-01  4.56600515e-01  4.56600515e-01  4.56600514e-01  4.56600514e-01  3.29746891e-09  4.56600515e-01  1.57152546e-07  1.40756968e-07  0.00000000e+00 
 1.00000000e-02  4.56600527e-01  4.56600527e-01  4.56600527e-01  4.56600527e-01  4.56600527e-01  3.29746896e-09  4.56600527e-01  1.57152555e-07  1.40756617e-07  1.00000000e-02 
 2.00000000e-02  4.56600491e-01  4.56600491e-01  4.56600491e-01  4.56600491e-01  4.56600491e-01  3.29746896e-09  4.56600491e-01  1.57152511e-07  1.40756009e-07  2.00000000e-02 
 3.00000000e-02  4.56600538e-01  4.56600538e-01  4.56600538e-01  4.56600538e-01  4.56600538e-01  3.29746896e-09  4.56600538e-01  1.57152563e-07  1.40755881e-07  3.00000000e-02 
 4.00000000e-02  4.56600501e-01  4.56600501e-01  4.56600501e-01  4.56600501e-01  4.56600501e-01  3.29746896e-09  4.56600501e-01  1.57152517e-07  1.40755473e-07  4.00000000e-02 
 5.00000000e-02  4.56600507e-01  4.56600507e-01  4.56600507e-01  4.56600507e-01  4.56600507e-01  3.29746896e-09  4.56600507e-01  1.57152531e-07  1.40755064e-07  5.00000000e-02 
 6.00000000e-02  4.56600509e-01  4.56600509e-01  4.56600509e-01  4.56600509e-01  4.56600509e-01  3.29746891e-09  4.56600509e-01  1.57152528e-07  1.40754565e-07  6.00000000e-02 
 7.00000000e-02  4.56600543e-01  4.56600543e-01  4.56600543e-01  4.56600543e-01  4.56600543e-01  3.29746891e-09  4.56600543e-01  1.57152602e-07  1.40754447e-07  7.00000000e-02 
 8.00000000e-02  4.56600526e-01  4.56600526e-01  4.56600526e-01  4.56600526e-01  4.56600526e-01  3.29746896e-09  4.56600526e-01  1.57152553e-07  1.40754098e-07  8.00000000e-02 
 9.00000000e-02  4.56600533e-01  4.56600533e-01  4.56600533e-01  4.56600533e-01  4.56600533e-01  3.29746896e-09  4.56600533e-01  1.57152566e-07  1.40753809e-07  9.00000000e-02 
 1.00000000e-01  4.56600530e-01  4.56600530e-01  4.56600530e-01  4.56600530e-01  4.56600530e-01  3.29746896e-09  4.56600530e-01  1.57152559e-07  1.40753494e-07  1.00000000e-01 
 1.10000000e-01  4.56600530e-01  4.56600530e-01  4.56600530e-01  4.56600530e-01  4.56600530e-01  3.29746891e-09  4.56600530e-01  1.57152559e-07  1.40753293e-07  1.10000000e-01 
 1.20000000e-01  4.56600531e-01  4.56600531e-01  4.56600531e-01  4.56600531e-01  4.56600531e-01  3.29746891e-09  4.56600531e-01  1.57152560e-07  1.40753036e-07  1.20000000e-01 
 1.30000000e-01  4.56600529e-01  4.56600529e-01  4.56600529e-01  4.56600529e-01  4.56600529e-01  3.29746896e-09  4.56600529e-01  1.57152568e-07  1.40752778e-07  1.30000000e-01 
 1.40000000e-01  4.56600531e-01  4.56600531e-01  4.56600531e-01  4.56600530e-01  4.56600530e-01  3.29746891e-09  4.56600531e-01  1.57152563e-07  1.40752554e-07  1.40000000e-01 
 1.50000000e-01  4.56600520e-01  4.56600520e-01  4.56600520e-01  4.56600520e-01  4.56600520e-01  3.29746891e-09  4.56600520e-01  1.57152542e-07  1.40752125e-07  1.50000000e-01 
 1.60000000e-01  4.56600524e-01  4.56600524e-01  4.56600524e-01  4.56600524e-01  4.56600524e-01  3.29746896e-09  4.56600524e-01  1.57152561e-07  1.40752064e-07  1.60000000e-01 
 1.70000000e-01  4.56600536e-01  4.56600536e-01  4.56600536e-01  4.56600536e-01  4.56600536e-01  3.29746891e-09  4.56600536e-01  1.57152571e-07  1.40751750e-07  1.70000000e-01 
 1.80000000e-01  4.56600502e-01  4.56600502e-01  4.56600502e-01  4.56600502e-01  4.56600502e-01  3.29746896e-09  4.56600502e-01  1.57152520e-07  1.40751533e-07  1.80000000e-01 
 1.90000000e-01  4.56600503e-01  4.56600503e-01  4.56600503e-01  4.56600503e-01  4.56600503e-01  3.29746896e-09  4.56600503e-01  1.57152520e-07  1.40751219e-07  1.90000000e-01 
 2.00000000e-01  4.56600522e-01  4.56600522e-01  4.56600522e-01  4.56600522e-01  4.56600522e-01  3.29746891e-09  4.56600522e-01  1.57152554e-07  1.40751187e-07  2.00000000e-01 
 2.10000000e-01  4.56600541e-01  4.56600541e-01  4.56600541e-01  4.56600541e-01  4.56600541e-01  3.29746896e-09  4.56600541e-01  1.57152563e-07  1.40751009e-07  2.10000000e-01 
 2.20000000e-01  4.56600511e-01  4.56600511e-01  4.56600511e-01  4.56600511e-01  4.56600511e-01  3.29746891e-09  4.56600511e-01  1.57152523e-07  1.40750666e-07  2.20000000e-01 
 2.30000000e-01  4.56600533e-01  4.56600533e-01  4.56600533e-01  4.56600533e-01  4.56600533e-01  3.29746896e-09  4.56600533e-01  1.57152561e-07  1.40750659e-07  2.30000000e-01 
 2.40000000e-01  4.56600524e-01  4.56600523e-01  4.56600523e-01  4.56600523e-01  4.56600523e-01  3.29746891e-09  4.56600523e-01  1.57152535e-07  1.40750460e-07  2.40000000e-01 
 2.50000000e-01  4.56600531e-01  4.56600531e-01  4.56600531e-01  4.56600531e-01  4.56600531e-01  3.29746891e-09  4.56600531e-01  1.57152568e-07  1.40750368e-07  2.50000000e-01 
 2.60000000e-01  4.56600495e-01  4.56600494e-01  4.56600495e-01  4.56600494e-01  4.56600494e-01  3.29746896e-09  4.56600494e-01  1.57152509e-07  1.40750151e-07  2.60000000e-01 
 2.70000000e-01  4.56600566e-01  4.56600566e-01  4.56600566e-01  4.56600566e-01  4.56600566e-01  3.29746897e-09  4.56600566e-01  1.57152608e-07  1.40750180e-07  2.70000000e-01 
 2.80000000e-01  4.56600525e-01  4.56600525e-01  4.56600525e-01  4.56600524e-01  4.56600524e-01  3.29746896e-09  4.56600525e-01  1.57152551e-07  1.40749894e-07  2.80000000e-01 
 2.90000000e-01  4.56600512e-01  4.56600512e-01  4.56600512e-01  4.56600512e-01  4.56600512e-01  3.29746896e-09  4.56600512e-01  1.57152529e-07  1.40749655e-07  2.90000000e-01 
 3.00000000e-01  4.56600539e-01  4.56600539e-01  4.56600539e-01  4.56600539e-01  4.56600539e-01  3.29746891e-09  4.56600539e-01  1.57152577e-07  1.40749709e-07  3.00000000e-01 
 3.10000000e-01  4.56600522e-01  4.56600522e-01  4.56600522e-01  4.56600522e-01  4.56600522e-01  3.29746891e-09  4.56600522e-01  1.57152539e-07  1.40749545e-07  3.10000000e-01 
 3.20000000e-01  4.56600508e-01  4.56600508e-01  4.56600508e-01  4.56600508e-01  4.56600508e-01  3.29746896e-09  4.56600508e-01  1.57152544e-07  1.40749307e-07  3.20000000e-01 
 3.30000000e-01  4.56600525e-01  4.56600525e-01  4.56600525e-01  4.56600525e-01  4.56600525e-01  3.29746896e-09  4.56600525e-01  1.57152547e-07  1.40749162e-07  3.30000000e-01 
 3.40000000e-01  4.56600505e-01  4.56600505e-01  4.56600505e-01  4.56600505e-01  4.56600505e-01  3.29746896e-09  4.56600505e-01  1.57152514e-07  1.40749069e-07  3.40000000e-01 
 3.50000000e-01  4.56600510e-01  4.56600510e-01  4.56600510e-01  4.56600510e-01  4.56600510e-01  3.29746896e-09  4.56600510e-01  1.57152536e-07  1.40748870e-07  3.50000000e-01 
 3.60000000e-01  4.56600530e-01  4.56600530e-01  4.56600530e-01  4.56600530e-01  4.56600530e-01  3.29746896e-09  4.56600530e-01  1.57152560e-07  1.40748963e-07  3.60000000e-01 
 3.70000000e-01  4.56600528e-01  4.56600528e-01  4.56600528e-01  4.56600528e-01  4.56600528e-01  3.29746891e-09  4.56600528e-01  1.57152557e-07  1.40748817e-07  3.70000000e-01 
 3.80000000e-01  4.56600535e-01  4.56600535e-01  4.56600535e-01  4.56600535e-01  4.56600535e-01  3.29746896e-09  4.56600535e-01  1.57152569e-07  1.40748696e-07  3.80000000e-01 
 3.90000000e-01  4.56600521e-01  4.56600521e-01  4.56600521e-01  4.56600521e-01  4.56600521e-01  3.29746891e-09  4.56600521e-01  1.57152549e-07  1.40748565e-07  3.90000000e-01 
 4.00000000e-01  4.56600536e-01  4.56600536e-01  4.56600536e-01  4.56600536e-01  4.56600536e-01  3.29746896e-09  4.56600536e-01  1.57152569e-07  1.40748480e-07  4.00000000e-01 
 4.10000000e-01  4.56600528e-01  4.56600528e-01  4.56600528e-01  4.56600528e-01  4.56600528e-01  3.29746896e-09  4.56600528e-01  1.57152560e-07  1.40748412e-07  4.10000000e-01 
 4.20000000e-01  4.56600518e-01  4.56600518e-01  4.56600518e-01  4.56600518e-01  4.56600518e-01  3.29746896e-09  4.56600518e-01  1.57152549e-07  1.40748206e-07  4.20000000e-01 
 4.30000000e-01  4.56600531e-01  4.56600531e-01  4.56600531e-01  4.56600531e-01  4.56600531e-01  3.29746891e-09  4.56600531e-01  1.57152576e-07  1.40748188e-07  4.30000000e-01 
 4.40000000e-01  4.56600518e-01  4.56600518e-01  4.56600518e-01  4.56600518e-01  4.56600518e-01  3.29746891e-09  4.56600518e-01  1.57152539e-07  1.40748025e-07  4.40000000e-01 
 4.50000000e-01  4.56600537e-01  4.56600537e-01  4.56600537e-01  4.56600537e-01  4.56600537e-01  3.29746896e-09  4.56600537e-01  1.57152582e-07  1.40747971e-07  4.50000000e-01 
 4.60000000e-01  4.56600523e-01  4.56600523e-01  4.56600523e-01  4.56600523e-01  4.56600523e-01  3.29746896e-09  4.56600523e-01  1.57152544e-07  1.40747709e-07  4.60000000e-01 
 4.70000000e-01  4.56600540e-01  4.56600539e-01  4.56600540e-01  4.56600539e-01  4.56600539e-01  3.29746896e-09  4.56600539e-01  1.57152577e-07  1.40747705e-07  4.70000000e-01 
 4.80000000e-01  4.56600499e-01  4.56600499e-01  4.56600499e-01  4.56600499e-01  4.56600499e-01  3.29746896e-09  4.56600499e-01  1.57152512e-07  1.40747474e-07  4.80000000e-01 
 4.90000000e-01  4.56600517e-01  4.56600517e-01  4.56600517e-01  4.56600517e-01  4.56600517e-01  3.29746896e-09  4.56600517e-01  1.57152537e-07  1.40747407e-07  4.90000000e-01 
 5.00000000e-01  4.56600515e-01  4.56600515e-01  4.56600515e-01  4.56600515e-01  4.56600515e-01  3.29746896e-09  4.56600515e-01  1.57152527e-07  1.40747385e-07  5.00000000e-01 
 5.10000000e-01  4.56600504e-01  4.56600504e-01  4.56600504e-01  4.56600504e-01  4.56600504e-01  3.29746891e-09  4.56600504e-01  1.57152530e-07  1.40747229e-07  5.10000000e-01 
 5.20000000e-01  4.56600547e-01  4.56600546e-01  4.56600546e-01  4.56600546e-01  4.56600546e-01  3.29746891e-09  4.56600546e-01  1.57152594e-07  1.40747314e-07  5.20000000e-01 
 5.30000000e-01  4.56600514e-01  4.56600513e-01  4.56600514e-01  4.56600513e-01  4.56600513e-01  3.29746891e-09  4.56600513e-01  1.57152525e-07  1.40747066e-07  5.30000000e-01 
 5.40000000e-01  4.56600541e-01  4.56600541e-01  4.56600541e-01  4.56600541e-01  4.56600541e-01  3.29746896e-09  4.56600541e-01  1.57152586e-07  1.40747087e-07  5.40000000e-01 
 5.50000000e-01  4.56600506e-01  4.56600506e-01  4.56600506e-01  4.56600506e-01  4.56600506e-01  3.29746896e-09  4.56600506e-01  1.57152515e-07  1.40746916e-07  5.50000000e-01 
 5.60000000e-01  4.56600536e-01  4.56600536e-01  4.56600536e-01  4.56600536e-01  4.56600536e-01  3.29746896e-09  4.56600536e-01  1.57152571e-07  1.40746845e-07  5.60000000e-01 
 5.70000000e-01  4.56600522e-01  4.56600522e-01  4.56600522e-01  4.56600522e-01  4.56600522e-01  3.29746891e-09  4.56600522e-01  1.57152533e-07  1.40746771e-07  5.70000000e-01 
 5.80000000e-01  4.56600532e-01  4.56600532e-01  4.56600532e-01  4.56600532e-01  4.56600532e-01  3.29746891e-09  4.56600532e-01  1.57152562e-07  1.40746678e-07  5.80000000e-01 
 5.90000000e-01  4.56600504e-01  4.56600504e-01  4.56600504e-01  4.56600504e-01  4.56600504e-01  3.29746896e-09  4.56600504e-01  1.57152513e-07  1.40746586e-07  5.90000000e-01 
 6.00000000e-01  4.56600537e-01  4.56600537e-01  4.56600537e-01  4.56600537e-01  4.56600537e-01  3.29746891e-09  4.56600537e-01  1.57152580e-07  1.40746494e-07  6.00000000e-01 
 6.10000000e-01  4.56600524e-01  4.56600524e-01  4.56600524e-01  4.56600524e-01  4.56600524e-01  3.29746891e-09  4.56600524e-01  1.57152552e-07  1.40746401e-07  6.10000000e-01 
 6.20000000e-01  4.56600530e-01  4.56600530e-01  4.56600530e-01  4.56600530e-01  4.56600530e-01  3.29746896e-09  4.56600530e-01  1.57152567e-07  1.40746330e-07  6.20000000e-01 
 6.30000000e-01  4.56600505e-01  4.56600505e-01  4.56600505e-01  4.56600504e-01  4.56600504e-01  3.29746896e-09  4.56600505e-01  1.57152524e-07  1.40746131e-07  6.30000000e-01 
 6.40000000e-01  4.56600536e-01  4.56600536e-01  4.56600536e-01  4.56600536e-01  4.56600536e-01  3.29746896e-09  4.56600536e-01  1.57152577e-07  1.40746174e-07  6.40000000e-01 
 6.50000000e-01  4.56600520e-01  4.56600520e-01  4.56600520e-01  4.56600520e-01  4.56600520e-01  3.29746896e-09  4.56600520e-01  1.57152538e-07  1.40746074e-07  6.50000000e-01 
 6.60000000e-01  4.56600506e-01  4.56600506e-01  4.56600506e-01  4.56600506e-01  4.56600506e-01  3.29746896e-09  4.56600506e-01  1.57152529e-07  1.40745968e-07  6.60000000e-01 
 6.70000000e-01  4.56600530e-01  4.56600530e-01  4.56600530e-01  4.56600530e-01  4.56600530e-01  3.29746891e-09  4.56600530e-01  1.57152558e-07  1.40745932e-07  6.70000000e-01 
 6.80000000e-01  4.56600516e-01  4.56600516e-01  4.56600516e-01  4.56600516e-01  4.56600516e-01  3.29746896e-09  4.56600516e-01  1.57152536e-07  1.40745705e-07  6.80000000e-01 
 6.90000000e-01  4.56600530e-01  4.56600530e-01  4.56600530e-01  4.56600530e-01  4.56600530e-01  3.29746896e-09  4.56600530e-01  1.57152566e-07  1.40745733e-07  6.90000000e-01 
 7.00000000e-01  4.56600545e-01  4.56600545e-01  4.56600545e-01  4.56600545e-01  4.56600545e-01  3.29746896e-09  4.56600545e-01  1.57152569e-07  1.40745669e-07  7.00000000e-01 
 7.10000000e-01  4.56600557e-01  4.56600557e-01  4.56600557e-01  4.56600557e-01  4.56600557e-01  3.29746897e-09  4.56600557e-01  1.57152604e-07  1.40745605e-07  7.10000000e-01 
 7.20000000e-01  4.56600501e-01  4.56600501e-01  4.56600501e-01  4.56600501e-01  4.56600501e-01  3.29746891e-09  4.56600501e-01  1.57152507e-07  1.40745342e-07  7.20000000e-01 
 7.30000000e-01  4.56600527e-01  4.56600527e-01  4.56600527e-01  4.56600527e-01  4.56600527e-01  3.29746891e-09  4.56600527e-01  1.57152555e-07  1.40745335e-07  7.30000000e-01 
 7.40000000e-01  4.56600548e-01  4.56600548e-01  4.56600548e-01  4.56600548e-01  4.56600548e-01  3.29746891e-09  4.56600548e-01  1.57152592e-07  1.40745364e-07  7.40000000e-01 
 7.50000000e-01  4.56600510e-01  4.56600510e-01  4.56600510e-01  4.56600510e-01  4.56600510e-01  3.29746891e-09  4.56600510e-01  1.57152522e-07  1.40745129e-07  7.50000000e-01 
 7.60000000e-01  4.56600530e-01  4.56600529e-01  4.56600529e-01  4.56600529e-01  4.56600529e-01  3.29746896e-09  4.56600529e-01  1.57152572e-07  1.40745065e-07  7.60000000e-01 
 7.70000000e-01  4.56600510e-01  4.56600510e-01  4.56600510e-01  4.56600510e-01  4.56600510e-01  3.29746891e-09  4.56600510e-01  1.57152519e-07  1.40744945e-07  7.70000000e-01 
 7.80000000e-01  4.56600531e-01  4.56600531e-01  4.56600531e-01  4.56600531e-01  4.56600531e-01  3.29746891e-09  4.56600531e-01  1.57152569e-07  1.40744874e-07  7.80000000e-01 
 7.90000000e-01  4.56600541e-01  4.56600541e-01  4.56600541e-01  4.56600541e-01  4.56600541e-01  3.29746891e-09  4.56600541e-01  1.57152564e-07  1.40744774e-07  7.90000000e-01 
 8.00000000e-01  4.56600481e-01  4.56600481e-01  4.56600481e-01  4.56600481e-01  4.56600481e-01  3.29746890e-09  4.56600481e-01  1.57152477e-07  1.40744483e-07  8.00000000e-01 
 8.10000000e-01  4.56600519e-01  4.56600519e-01  4.56600519e-01  4.56600519e-01  4.56600519e-01  3.29746896e-09  4.56600519e-01  1.57152541e-07  1.40744433e-07  8.10000000e-01 
 8.20000000e-01  4.56600520e-01  4.56600520e-01  4.56600520e-01  4.56600520e-01  4.56600520e-01  3.29746896e-09  4.56600520e-01  1.57152536e-07  1.40744476e-07  8.20000000e-01 
 8.30000000e-01  4.56600536e-01  4.56600536e-01  4.56600536e-01  4.56600536e-01  4.56600536e-01  3.29746891e-09  4.56600536e-01  1.57152580e-07  1.40744426e-07  8.30000000e-01 
 8.40000000e-01  4.56600521e-01  4.56600521e-01  4.56600521e-01  4.56600521e-01  4.56600521e-01  3.29746891e-09  4.56600521e-01  1.57152550e-07  1.40744220e-07  8.40000000e-01 
 8.50000000e-01  4.56600548e-01  4.56600548e-01  4.56600548e-01  4.56600547e-01  4.56600547e-01  3.29746891e-09  4.56600548e-01  1.57152596e-07  1.40744319e-07  8.50000000e-01 
 8.60000000e-01  4.56600511e-01  4.56600511e-01  4.56600511e-01  4.56600511e-01  4.56600511e-01  3.29746891e-09  4.56600511e-01  1.57152530e-07  1.40744099e-07  8.60000000e-01 
 8.70000000e-01  4.56600548e-01  4.56600548e-01  4.56600548e-01  4.56600548e-01  4.56600548e-01  3.29746891e-09  4.56600548e-01  1.57152598e-07  1.40744099e-07  8.70000000e-01 
 8.80000000e-01  4.56600530e-01  4.56600530e-01  4.56600530e-01  4.56600530e-01  4.56600530e-01  3.29746896e-09  4.56600530e-01  1.57152558e-07  1.40743786e-07  8.80000000e-01 
 8.90000000e-01  4.56600534e-01  4.56600533e-01  4.56600533e-01  4.56600533e-01  4.56600533e-01  3.29746891e-09  4.56600533e-01  1.57152569e-07  1.40743722e-07  8.90000000e-01 
 9.00000000e-01  4.56600524e-01  4.56600524e-01  4.56600524e-01  4.56600524e-01  4.56600524e-01  3.29746896e-09  4.56600524e-01  1.57152550e-07  1.40743730e-07  9.00000000e-01 
 9.10000000e-01  4.56600551e-01  4.56600550e-01  4.56600550e-01  4.56600550e-01  4.56600550e-01  3.29746891e-09  4.56600550e-01  1.57152597e-07  1.40743694e-07  9.10000000e-01 
 9.20000000e-01  4.56600528e-01  4.56600528e-01  4.56600528e-01  4.56600528e-01  4.56600528e-01  3.29746896e-09  4.56600528e-01  1.57152546e-07  1.40743566e-07  9.20000000e-01 
 9.30000000e-01  4.56600504e-01  4.56600504e-01  4.56600504e-01  4.56600504e-01  4.56600504e-01  3.29746896e-09  4.56600504e-01  1.57152527e-07  1.40743296e-07  9.30000000e-01 
 9.40000000e-01  4.56600528e-01  4.56600527e-01  4.56600528e-01  4.56600527e-01  4.56600527e-01  3.29746896e-09  4.56600528e-01  1.57152564e-07  1.40743225e-07  9.40000000e-01 
 9.50000000e-01  4.56600496e-01  4.56600496e-01  4.56600496e-01  4.56600496e-01  4.56600496e-01  3.29746896e-09  4.56600496e-01  1.57152513e-07  1.40743069e-07  9.50000000e-01 
 9.60000000e-01  4.56600513e-01  4.56600513e-01  4.56600513e-01  4.56600513e-01  4.56600513e-01  3.29746891e-09  4.56600513e-01  1.57152536e-07  1.40743026e-07  9.60000000e-01 
 9.70000000e-01  4.56600525e-01  4.56600525e-01  4.56600525e-01  4.56600525e-01  4.56600525e-01  3.29746896e-09  4.56600525e-01  1.57152559e-07  1.40743047e-07  9.70000000e-01 
 9.80000000e-01  4.56600525e-01  4.56600525e-01  4.56600525e-01  4.56600525e-01  4.56600525e-01  3.29746896e-09  4.56600525e-01  1.57152551e-07  1.40742792e-07  9.80000000e-01 
 9.90000000e-01  4.56600519e-01  4.56600519e-01  4.56600519e-01  4.56600519e-01  4.56600519e-01  3.29746896e-09  4.56600519e-01  1.57152550e-07  1.40742692e-07  9.90000000e-01 
 1.00000000e+00  4.56600524e-01  4.56600524e-01  4.56600524e-01  4.56600524e-01  4.56600524e-01  3.29746891e-09  4.56600524e-01  1.57152550e-07  1.40742664e-07  1.00000000e+00 
 1.01000000e+00  4.56600537e-01  4.56600537e-01  4.56600537e-01  4.56600537e-01  4.56600537e-01  3.29746896e-09  4.56600537e-01  1.57152559e-07  1.40742571e-07  1.01000000e+00 
 1.02000000e+00  4.56600489e-01  4.56600489e-01  4.56600489e-01  4.56600489e-01  4.56600489e-01  3.29746896e-09  4.56600489e-01  1.57152490e-07  1.40742287e-07  1.02000000e+00 
 1.03000000e+00  4.56600550e-01  4.56600550e-01  4.56600550e-01  4.56600550e-01  4.56600550e-01  3.29746897e-09  4.56600550e-01  1.57152588e-07  1.40742273e-07  1.03000000e+00 
 1.04000000e+00  4.56600546e-01  4.56600546e-01  4.56600546e-01  4.56600546e-01  4.56600546e-01  3.29746896e-09  4.56600546e-01  1.57152581e-07  1.40742173e-07  1.04000000e+00 
 1.05000000e+00  4.56600522e-01  4.56600522e-01  4.56600522e-01  4.56600522e-01  4.56600522e-01  3.29746896e-09  4.56600522e-01  1.57152539e-07  1.40741989e-07  1.05000000e+00 
 1.06000000e+00  4.56600515e-01  4.56600515e-01  4.56600515e-01  4.56600515e-01  4.56600515e-01  3.29746896e-09  4.56600515e-01  1.57152550e-07  1.40741925e-07  1.06000000e+00 
 1.07000000e+00  4.56600526e-01  4.56600526e-01  4.56600526e-01  4.56600526e-01  4.56600526e-01  3.29746896e-09  4.56600526e-01  1.57152555e-07  1.40741896e-07  1.07000000e+00 
 1.08000000e+00  4.56600542e-01  4.56600542e-01  4.56600542e-01  4.56600542e-01  4.56600542e-01  3.29746896e-09  4.56600542e-01  1.57152590e-07  1.40741854e-07  1.08000000e+00 
 1.09000000e+00  4.56600535e-01  4.56600535e-01  4.56600535e-01  4.56600535e-01  4.56600535e-01  3.29746896e-09  4.56600535e-01  1.57152550e-07  1.40741683e-07  1.09000000e+00 
 1.10000000e+00  4.56600541e-01  4.56600541e-01  4.56600541e-01  4.56600541e-01  4.56600541e-01  3.29746891e-09  4.56600541e-01  1.57152581e-07  1.40741641e-07  1.10000000e+00 
