 v-sweep         v(b0)           v(b1)           v(b2)           v(b3)           v(b4)           v(b5)           v(b6)           i(vbias)        i(viout)        v(vout)        
 0.00000000e+00  4.60758641e-01  4.60758641e-01  3.56792368e-09  4.60758641e-01  4.60758641e-01  3.38444626e-09  3.37936075e-09  1.62540651e-07  4.39882804e-08  0.00000000e+00 
 1.00000000e-02  4.60758644e-01  4.60758644e-01  3.56792365e-09  4.60758644e-01  4.60758644e-01  3.38444629e-09  3.37936084e-09  1.62540644e-07  4.39878846e-08  1.00000000e-02 
 2.00000000e-02  4.60758630e-01  4.60758631e-01  3.56792371e-09  4.60758630e-01  4.60758630e-01  3.38444629e-09  3.37936078e-09  1.62540638e-07  4.39875121e-08  2.00000000e-02 
 3.00000000e-02  4.60758641e-01  4.60758641e-01  3.56792371e-09  4.60758640e-01  4.60758640e-01  3.38444629e-09  3.37936078e-09  1.62540644e-07  4.39871708e-08  3.00000000e-02 
 4.00000000e-02  4.60758652e-01  4.60758652e-01  3.56792365e-09  4.60758652e-01  4.60758652e-01  3.38444629e-09  3.37936084e-09  1.62540669e-07  4.39868049e-08  4.00000000e-02 
 5.00000000e-02  4.60758634e-01  4.60758634e-01  3.56792365e-09  4.60758634e-01  4.60758634e-01  3.38444629e-09  3.37936078e-09  1.62540636e-07  4.39864607e-08  5.00000000e-02 
 6.00000000e-02  4.60758609e-01  4.60758609e-01  3.56792365e-09  4.60758609e-01  4.60758609e-01  3.38444629e-09  3.37936078e-09  1.62540600e-07  4.39861969e-08  6.00000000e-02 
 7.00000000e-02  4.60758654e-01  4.60758655e-01  3.56792365e-09  4.60758654e-01  4.60758654e-01  3.38444629e-09  3.37936078e-09  1.62540659e-07  4.39859229e-08  7.00000000e-02 
 8.00000000e-02  4.60758629e-01  4.60758629e-01  3.56792365e-09  4.60758629e-01  4.60758629e-01  3.38444629e-09  3.37936078e-09  1.62540637e-07  4.39855725e-08  8.00000000e-02 
 9.00000000e-02  4.60758621e-01  4.60758621e-01  3.56792365e-09  4.60758621e-01  4.60758621e-01  3.38444629e-09  3.37936078e-09  1.62540626e-07  4.39852466e-08  9.00000000e-02 
 1.00000000e-01  4.60758638e-01  4.60758638e-01  3.56792371e-09  4.60758638e-01  4.60758638e-01  3.38444629e-09  3.37936084e-09  1.62540637e-07  4.39849748e-08  1.00000000e-01 
 1.10000000e-01  4.60758623e-01  4.60758623e-01  3.56792365e-09  4.60758623e-01  4.60758623e-01  3.38444629e-09  3.37936078e-09  1.62540603e-07  4.39847190e-08  1.10000000e-01 
 1.20000000e-01  4.60758646e-01  4.60758646e-01  3.56792371e-09  4.60758646e-01  4.60758646e-01  3.38444629e-09  3.37936078e-09  1.62540643e-07  4.39845511e-08  1.20000000e-01 
 1.30000000e-01  4.60758632e-01  4.60758632e-01  3.56792365e-09  4.60758632e-01  4.60758632e-01  3.38444629e-09  3.37936078e-09  1.62540629e-07  4.39842580e-08  1.30000000e-01 
 1.40000000e-01  4.60758620e-01  4.60758620e-01  3.56792371e-09  4.60758620e-01  4.60758620e-01  3.38444629e-09  3.37936078e-09  1.62540620e-07  4.39840857e-08  1.40000000e-01 
 1.50000000e-01  4.60758638e-01  4.60758638e-01  3.56792371e-09  4.60758638e-01  4.60758638e-01  3.38444629e-09  3.37936078e-09  1.62540644e-07  4.39838299e-08  1.50000000e-01 
 1.60000000e-01  4.60758642e-01  4.60758642e-01  3.56792371e-09  4.60758642e-01  4.60758642e-01  3.38444629e-09  3.37936078e-09  1.62540645e-07  4.39836967e-08  1.60000000e-01 
 1.70000000e-01  4.60758641e-01  4.60758641e-01  3.56792371e-09  4.60758641e-01  4.60758641e-01  3.38444629e-09  3.37936078e-09  1.62540648e-07  4.39836594e-08  1.70000000e-01 
 1.80000000e-01  4.60758626e-01  4.60758626e-01  3.56792365e-09  4.60758626e-01  4.60758626e-01  3.38444629e-09  3.37936078e-09  1.62540626e-07  4.39834338e-08  1.80000000e-01 
 1.90000000e-01  4.60758642e-01  4.60758642e-01  3.56792371e-09  4.60758642e-01  4.60758642e-01  3.38444629e-09  3.37936078e-09  1.62540640e-07  4.39831886e-08  1.90000000e-01 
 2.00000000e-01  4.60758647e-01  4.60758647e-01  3.56792365e-09  4.60758647e-01  4.60758647e-01  3.38444629e-09  3.37936078e-09  1.62540656e-07  4.39830448e-08  2.00000000e-01 
 2.10000000e-01  4.60758630e-01  4.60758630e-01  3.56792371e-09  4.60758630e-01  4.60758630e-01  3.38444629e-09  3.37936078e-09  1.62540634e-07  4.39829382e-08  2.10000000e-01 
 2.20000000e-01  4.60758649e-01  4.60758649e-01  3.56792371e-09  4.60758649e-01  4.60758649e-01  3.38444629e-09  3.37936078e-09  1.62540657e-07  4.39828227e-08  2.20000000e-01 
 2.30000000e-01  4.60758625e-01  4.60758625e-01  3.56792371e-09  4.60758625e-01  4.60758625e-01  3.38444629e-09  3.37936078e-09  1.62540626e-07  4.39826859e-08  2.30000000e-01 
 2.40000000e-01  4.60758648e-01  4.60758648e-01  3.56792365e-09  4.60758648e-01  4.60758648e-01  3.38444629e-09  3.37936078e-09  1.62540658e-07  4.39825332e-08  2.40000000e-01 
 2.50000000e-01  4.60758637e-01  4.60758637e-01  3.56792365e-09  4.60758637e-01  4.60758637e-01  3.38444629e-09  3.37936078e-09  1.62540634e-07  4.39824053e-08  2.50000000e-01 
 2.60000000e-01  4.60758639e-01  4.60758639e-01  3.56792371e-09  4.60758639e-01  4.60758639e-01  3.38444629e-09  3.37936078e-09  1.62540646e-07  4.39823697e-08  2.60000000e-01 
 2.70000000e-01  4.60758651e-01  4.60758651e-01  3.56792371e-09  4.60758651e-01  4.60758651e-01  3.38444629e-09  3.37936078e-09  1.62540661e-07  4.39821459e-08  2.70000000e-01 
 2.80000000e-01  4.60758620e-01  4.60758620e-01  3.56792365e-09  4.60758620e-01  4.60758620e-01  3.38444629e-09  3.37936078e-09  1.62540611e-07  4.39819452e-08  2.80000000e-01 
 2.90000000e-01  4.60758639e-01  4.60758639e-01  3.56792371e-09  4.60758639e-01  4.60758639e-01  3.38444629e-09  3.37936078e-09  1.62540647e-07  4.39819416e-08  2.90000000e-01 
 3.00000000e-01  4.60758645e-01  4.60758645e-01  3.56792365e-09  4.60758645e-01  4.60758645e-01  3.38444629e-09  3.37936078e-09  1.62540649e-07  4.39817889e-08  3.00000000e-01 
 3.10000000e-01  4.60758620e-01  4.60758620e-01  3.56792365e-09  4.60758620e-01  4.60758620e-01  3.38444629e-09  3.37936078e-09  1.62540627e-07  4.39817356e-08  3.10000000e-01 
 3.20000000e-01  4.60758656e-01  4.60758656e-01  3.56792365e-09  4.60758656e-01  4.60758656e-01  3.38444629e-09  3.37936078e-09  1.62540661e-07  4.39816503e-08  3.20000000e-01 
 3.30000000e-01  4.60758648e-01  4.60758648e-01  3.56792365e-09  4.60758648e-01  4.60758648e-01  3.38444629e-09  3.37936078e-09  1.62540654e-07  4.39814549e-08  3.30000000e-01 
 3.40000000e-01  4.60758646e-01  4.60758646e-01  3.56792365e-09  4.60758646e-01  4.60758646e-01  3.38444629e-09  3.37936078e-09  1.62540649e-07  4.39814656e-08  3.40000000e-01 
 3.50000000e-01  4.60758649e-01  4.60758649e-01  3.56792371e-09  4.60758649e-01  4.60758649e-01  3.38444629e-09  3.37936078e-09  1.62540672e-07  4.39811565e-08  3.50000000e-01 
 3.60000000e-01  4.60758663e-01  4.60758663e-01  3.56792371e-09  4.60758663e-01  4.60758663e-01  3.38444629e-09  3.37936078e-09  1.62540680e-07  4.39813164e-08  3.60000000e-01 
 3.70000000e-01  4.60758653e-01  4.60758653e-01  3.56792371e-09  4.60758653e-01  4.60758653e-01  3.38444629e-09  3.37936078e-09  1.62540672e-07  4.39811103e-08  3.70000000e-01 
 3.80000000e-01  4.60758636e-01  4.60758636e-01  3.56792365e-09  4.60758636e-01  4.60758636e-01  3.38444629e-09  3.37936078e-09  1.62540633e-07  4.39810144e-08  3.80000000e-01 
 3.90000000e-01  4.60758630e-01  4.60758630e-01  3.56792371e-09  4.60758630e-01  4.60758630e-01  3.38444629e-09  3.37936078e-09  1.62540624e-07  4.39809718e-08  3.90000000e-01 
 4.00000000e-01  4.60758641e-01  4.60758641e-01  3.56792371e-09  4.60758641e-01  4.60758641e-01  3.38444629e-09  3.37936078e-09  1.62540652e-07  4.39808403e-08  4.00000000e-01 
 4.10000000e-01  4.60758648e-01  4.60758648e-01  3.56792371e-09  4.60758648e-01  4.60758648e-01  3.38444629e-09  3.37936078e-09  1.62540653e-07  4.39808048e-08  4.10000000e-01 
 4.20000000e-01  4.60758645e-01  4.60758645e-01  3.56792371e-09  4.60758644e-01  4.60758644e-01  3.38444635e-09  3.37936078e-09  1.62540647e-07  4.39807764e-08  4.20000000e-01 
 4.30000000e-01  4.60758660e-01  4.60758660e-01  3.56792371e-09  4.60758660e-01  4.60758660e-01  3.38444629e-09  3.37936078e-09  1.62540664e-07  4.39806449e-08  4.30000000e-01 
 4.40000000e-01  4.60758657e-01  4.60758657e-01  3.56792371e-09  4.60758657e-01  4.60758657e-01  3.38444629e-09  3.37936078e-09  1.62540672e-07  4.39806094e-08  4.40000000e-01 
 4.50000000e-01  4.60758643e-01  4.60758643e-01  3.56792365e-09  4.60758643e-01  4.60758643e-01  3.38444629e-09  3.37936078e-09  1.62540651e-07  4.39806414e-08  4.50000000e-01 
 4.60000000e-01  4.60758605e-01  4.60758605e-01  3.56792371e-09  4.60758605e-01  4.60758605e-01  3.38444629e-09  3.37936083e-09  1.62540597e-07  4.39804424e-08  4.60000000e-01 
 4.70000000e-01  4.60758621e-01  4.60758621e-01  3.56792365e-09  4.60758621e-01  4.60758621e-01  3.38444629e-09  3.37936078e-09  1.62540613e-07  4.39803465e-08  4.70000000e-01 
 4.80000000e-01  4.60758645e-01  4.60758645e-01  3.56792365e-09  4.60758645e-01  4.60758645e-01  3.38444629e-09  3.37936078e-09  1.62540650e-07  4.39803252e-08  4.80000000e-01 
 4.90000000e-01  4.60758615e-01  4.60758615e-01  3.56792365e-09  4.60758615e-01  4.60758615e-01  3.38444629e-09  3.37936078e-09  1.62540607e-07  4.39803358e-08  4.90000000e-01 
 5.00000000e-01  4.60758653e-01  4.60758653e-01  3.56792371e-09  4.60758652e-01  4.60758652e-01  3.38444629e-09  3.37936078e-09  1.62540652e-07  4.39802506e-08  5.00000000e-01 
 5.10000000e-01  4.60758631e-01  4.60758631e-01  3.56792365e-09  4.60758631e-01  4.60758631e-01  3.38444629e-09  3.37936078e-09  1.62540630e-07  4.39800907e-08  5.10000000e-01 
 5.20000000e-01  4.60758651e-01  4.60758651e-01  3.56792365e-09  4.60758651e-01  4.60758651e-01  3.38444629e-09  3.37936078e-09  1.62540650e-07  4.39800694e-08  5.20000000e-01 
 5.30000000e-01  4.60758629e-01  4.60758629e-01  3.56792365e-09  4.60758629e-01  4.60758629e-01  3.38444629e-09  3.37936078e-09  1.62540631e-07  4.39799521e-08  5.30000000e-01 
 5.40000000e-01  4.60758644e-01  4.60758644e-01  3.56792365e-09  4.60758644e-01  4.60758644e-01  3.38444629e-09  3.37936078e-09  1.62540654e-07  4.39799770e-08  5.40000000e-01 
 5.50000000e-01  4.60758627e-01  4.60758627e-01  3.56792371e-09  4.60758627e-01  4.60758627e-01  3.38444629e-09  3.37936084e-09  1.62540627e-07  4.39798313e-08  5.50000000e-01 
 5.60000000e-01  4.60758632e-01  4.60758632e-01  3.56792371e-09  4.60758632e-01  4.60758632e-01  3.38444629e-09  3.37936078e-09  1.62540633e-07  4.39799450e-08  5.60000000e-01 
 5.70000000e-01  4.60758641e-01  4.60758641e-01  3.56792371e-09  4.60758641e-01  4.60758641e-01  3.38444629e-09  3.37936078e-09  1.62540647e-07  4.39797425e-08  5.70000000e-01 
 5.80000000e-01  4.60758613e-01  4.60758613e-01  3.56792365e-09  4.60758613e-01  4.60758613e-01  3.38444629e-09  3.37936078e-09  1.62540603e-07  4.39796537e-08  5.80000000e-01 
 5.90000000e-01  4.60758605e-01  4.60758605e-01  3.56792371e-09  4.60758605e-01  4.60758605e-01  3.38444629e-09  3.37936078e-09  1.62540598e-07  4.39796537e-08  5.90000000e-01 
 6.00000000e-01  4.60758632e-01  4.60758632e-01  3.56792371e-09  4.60758632e-01  4.60758632e-01  3.38444629e-09  3.37936084e-09  1.62540645e-07  4.39796466e-08  6.00000000e-01 
 6.10000000e-01  4.60758640e-01  4.60758640e-01  3.56792365e-09  4.60758640e-01  4.60758640e-01  3.38444629e-09  3.37936078e-09  1.62540639e-07  4.39796253e-08  6.10000000e-01 
 6.20000000e-01  4.60758634e-01  4.60758634e-01  3.56792371e-09  4.60758634e-01  4.60758634e-01  3.38444629e-09  3.37936084e-09  1.62540642e-07  4.39794903e-08  6.20000000e-01 
 6.30000000e-01  4.60758645e-01  4.60758645e-01  3.56792371e-09  4.60758645e-01  4.60758645e-01  3.38444629e-09  3.37936078e-09  1.62540657e-07  4.39794547e-08  6.30000000e-01 
 6.40000000e-01  4.60758650e-01  4.60758650e-01  3.56792371e-09  4.60758650e-01  4.60758650e-01  3.38444629e-09  3.37936078e-09  1.62540663e-07  4.39793837e-08  6.40000000e-01 
 6.50000000e-01  4.60758650e-01  4.60758650e-01  3.56792365e-09  4.60758650e-01  4.60758650e-01  3.38444629e-09  3.37936084e-09  1.62540671e-07  4.39793695e-08  6.50000000e-01 
 6.60000000e-01  4.60758616e-01  4.60758616e-01  3.56792371e-09  4.60758615e-01  4.60758615e-01  3.38444629e-09  3.37936078e-09  1.62540616e-07  4.39791776e-08  6.60000000e-01 
 6.70000000e-01  4.60758629e-01  4.60758630e-01  3.56792365e-09  4.60758629e-01  4.60758629e-01  3.38444629e-09  3.37936078e-09  1.62540617e-07  4.39792132e-08  6.70000000e-01 
 6.80000000e-01  4.60758650e-01  4.60758651e-01  3.56792371e-09  4.60758650e-01  4.60758650e-01  3.38444629e-09  3.37936078e-09  1.62540653e-07  4.39792558e-08  6.80000000e-01 
 6.90000000e-01  4.60758633e-01  4.60758633e-01  3.56792371e-09  4.60758633e-01  4.60758633e-01  3.38444629e-09  3.37936078e-09  1.62540630e-07  4.39791279e-08  6.90000000e-01 
 7.00000000e-01  4.60758640e-01  4.60758640e-01  3.56792371e-09  4.60758640e-01  4.60758640e-01  3.38444629e-09  3.37936078e-09  1.62540649e-07  4.39789787e-08  7.00000000e-01 
 7.10000000e-01  4.60758648e-01  4.60758648e-01  3.56792371e-09  4.60758648e-01  4.60758648e-01  3.38444629e-09  3.37936078e-09  1.62540661e-07  4.39789574e-08  7.10000000e-01 
 7.20000000e-01  4.60758637e-01  4.60758637e-01  3.56792365e-09  4.60758637e-01  4.60758637e-01  3.38444629e-09  3.37936078e-09  1.62540637e-07  4.39790213e-08  7.20000000e-01 
 7.30000000e-01  4.60758634e-01  4.60758635e-01  3.56792371e-09  4.60758634e-01  4.60758634e-01  3.38444629e-09  3.37936078e-09  1.62540646e-07  4.39788650e-08  7.30000000e-01 
 7.40000000e-01  4.60758648e-01  4.60758648e-01  3.56792371e-09  4.60758648e-01  4.60758648e-01  3.38444629e-09  3.37936078e-09  1.62540663e-07  4.39788082e-08  7.40000000e-01 
 7.50000000e-01  4.60758638e-01  4.60758639e-01  3.56792365e-09  4.60758638e-01  4.60758638e-01  3.38444629e-09  3.37936078e-09  1.62540643e-07  4.39787726e-08  7.50000000e-01 
 7.60000000e-01  4.60758645e-01  4.60758645e-01  3.56792371e-09  4.60758645e-01  4.60758645e-01  3.38444629e-09  3.37936078e-09  1.62540657e-07  4.39788366e-08  7.60000000e-01 
 7.70000000e-01  4.60758637e-01  4.60758637e-01  3.56792371e-09  4.60758637e-01  4.60758637e-01  3.38444635e-09  3.37936084e-09  1.62540638e-07  4.39785808e-08  7.70000000e-01 
 7.80000000e-01  4.60758628e-01  4.60758628e-01  3.56792371e-09  4.60758628e-01  4.60758628e-01  3.38444629e-09  3.37936078e-09  1.62540620e-07  4.39785026e-08  7.80000000e-01 
 7.90000000e-01  4.60758631e-01  4.60758631e-01  3.56792371e-09  4.60758631e-01  4.60758631e-01  3.38444629e-09  3.37936078e-09  1.62540635e-07  4.39784245e-08  7.90000000e-01 
 8.00000000e-01  4.60758646e-01  4.60758646e-01  3.56792371e-09  4.60758646e-01  4.60758646e-01  3.38444629e-09  3.37936078e-09  1.62540642e-07  4.39784813e-08  8.00000000e-01 
 8.10000000e-01  4.60758652e-01  4.60758652e-01  3.56792371e-09  4.60758652e-01  4.60758652e-01  3.38444629e-09  3.37936078e-09  1.62540674e-07  4.39783534e-08  8.10000000e-01 
 8.20000000e-01  4.60758625e-01  4.60758625e-01  3.56792371e-09  4.60758625e-01  4.60758625e-01  3.38444629e-09  3.37936078e-09  1.62540634e-07  4.39783392e-08  8.20000000e-01 
 8.30000000e-01  4.60758642e-01  4.60758642e-01  3.56792371e-09  4.60758642e-01  4.60758642e-01  3.38444629e-09  3.37936078e-09  1.62540657e-07  4.39784102e-08  8.30000000e-01 
 8.40000000e-01  4.60758635e-01  4.60758635e-01  3.56792365e-09  4.60758635e-01  4.60758635e-01  3.38444629e-09  3.37936078e-09  1.62540634e-07  4.39782326e-08  8.40000000e-01 
 8.50000000e-01  4.60758636e-01  4.60758636e-01  3.56792365e-09  4.60758636e-01  4.60758636e-01  3.38444629e-09  3.37936078e-09  1.62540652e-07  4.39780692e-08  8.50000000e-01 
 8.60000000e-01  4.60758608e-01  4.60758608e-01  3.56792371e-09  4.60758608e-01  4.60758608e-01  3.38444629e-09  3.37936078e-09  1.62540596e-07  4.39780763e-08  8.60000000e-01 
 8.70000000e-01  4.60758633e-01  4.60758633e-01  3.56792371e-09  4.60758633e-01  4.60758633e-01  3.38444629e-09  3.37936078e-09  1.62540640e-07  4.39780763e-08  8.70000000e-01 
 8.80000000e-01  4.60758611e-01  4.60758611e-01  3.56792365e-09  4.60758611e-01  4.60758611e-01  3.38444629e-09  3.37936078e-09  1.62540605e-07  4.39780905e-08  8.80000000e-01 
 8.90000000e-01  4.60758631e-01  4.60758631e-01  3.56792371e-09  4.60758631e-01  4.60758631e-01  3.38444629e-09  3.37936078e-09  1.62540639e-07  4.39779626e-08  8.90000000e-01 
 9.00000000e-01  4.60758644e-01  4.60758644e-01  3.56792371e-09  4.60758644e-01  4.60758644e-01  3.38444629e-09  3.37936078e-09  1.62540657e-07  4.39778418e-08  9.00000000e-01 
 9.10000000e-01  4.60758631e-01  4.60758631e-01  3.56792371e-09  4.60758631e-01  4.60758631e-01  3.38444629e-09  3.37936078e-09  1.62540633e-07  4.39777992e-08  9.10000000e-01 
 9.20000000e-01  4.60758619e-01  4.60758619e-01  3.56792365e-09  4.60758619e-01  4.60758619e-01  3.38444629e-09  3.37936078e-09  1.62540628e-07  4.39776713e-08  9.20000000e-01 
 9.30000000e-01  4.60758630e-01  4.60758630e-01  3.56792371e-09  4.60758630e-01  4.60758630e-01  3.38444629e-09  3.37936078e-09  1.62540647e-07  4.39776002e-08  9.30000000e-01 
 9.40000000e-01  4.60758633e-01  4.60758633e-01  3.56792371e-09  4.60758633e-01  4.60758633e-01  3.38444629e-09  3.37936084e-09  1.62540636e-07  4.39776997e-08  9.40000000e-01 
 9.50000000e-01  4.60758640e-01  4.60758640e-01  3.56792371e-09  4.60758640e-01  4.60758640e-01  3.38444629e-09  3.37936078e-09  1.62540636e-07  4.39776429e-08  9.50000000e-01 
 9.60000000e-01  4.60758638e-01  4.60758638e-01  3.56792371e-09  4.60758638e-01  4.60758638e-01  3.38444629e-09  3.37936078e-09  1.62540652e-07  4.39776002e-08  9.60000000e-01 
 9.70000000e-01  4.60758644e-01  4.60758644e-01  3.56792365e-09  4.60758644e-01  4.60758644e-01  3.38444629e-09  3.37936078e-09  1.62540656e-07  4.39775434e-08  9.70000000e-01 
 9.80000000e-01  4.60758635e-01  4.60758635e-01  3.56792365e-09  4.60758634e-01  4.60758634e-01  3.38444629e-09  3.37936078e-09  1.62540633e-07  4.39774368e-08  9.80000000e-01 
 9.90000000e-01  4.60758639e-01  4.60758639e-01  3.56792365e-09  4.60758639e-01  4.60758639e-01  3.38444629e-09  3.37936078e-09  1.62540653e-07  4.39773515e-08  9.90000000e-01 
 1.00000000e+00  4.60758651e-01  4.60758651e-01  3.56792371e-09  4.60758651e-01  4.60758651e-01  3.38444629e-09  3.37936078e-09  1.62540667e-07  4.39772450e-08  1.00000000e+00 
 1.01000000e+00  4.60758649e-01  4.60758649e-01  3.56792365e-09  4.60758648e-01  4.60758648e-01  3.38444629e-09  3.37936078e-09  1.62540661e-07  4.39772094e-08  1.01000000e+00 
 1.02000000e+00  4.60758635e-01  4.60758635e-01  3.56792371e-09  4.60758635e-01  4.60758635e-01  3.38444629e-09  3.37936078e-09  1.62540642e-07  4.39770673e-08  1.02000000e+00 
 1.03000000e+00  4.60758623e-01  4.60758623e-01  3.56792371e-09  4.60758623e-01  4.60758623e-01  3.38444629e-09  3.37936078e-09  1.62540616e-07  4.39770318e-08  1.03000000e+00 
 1.04000000e+00  4.60758651e-01  4.60758652e-01  3.56792365e-09  4.60758651e-01  4.60758651e-01  3.38444635e-09  3.37936078e-09  1.62540671e-07  4.39769821e-08  1.04000000e+00 
 1.05000000e+00  4.60758642e-01  4.60758642e-01  3.56792365e-09  4.60758642e-01  4.60758642e-01  3.38444635e-09  3.37936078e-09  1.62540649e-07  4.39769607e-08  1.05000000e+00 
 1.06000000e+00  4.60758630e-01  4.60758630e-01  3.56792371e-09  4.60758630e-01  4.60758630e-01  3.38444629e-09  3.37936084e-09  1.62540630e-07  4.39768542e-08  1.06000000e+00 
 1.07000000e+00  4.60758641e-01  4.60758641e-01  3.56792371e-09  4.60758641e-01  4.60758641e-01  3.38444629e-09  3.37936078e-09  1.62540651e-07  4.39768755e-08  1.07000000e+00 
 1.08000000e+00  4.60758660e-01  4.60758660e-01  3.56792365e-09  4.60758660e-01  4.60758660e-01  3.38444629e-09  3.37936078e-09  1.62540674e-07  4.39766481e-08  1.08000000e+00 
 1.09000000e+00  4.60758644e-01  4.60758644e-01  3.56792371e-09  4.60758644e-01  4.60758644e-01  3.38444629e-09  3.37936084e-09  1.62540649e-07  4.39766197e-08  1.09000000e+00 
 1.10000000e+00  4.60758632e-01  4.60758632e-01  3.56792371e-09  4.60758632e-01  4.60758632e-01  3.38444635e-09  3.37936078e-09  1.62540635e-07  4.39768044e-08  1.10000000e+00 
