 v-sweep         v(b0)           v(b1)           v(b2)           v(b3)           v(b4)           v(b5)           v(b6)           i(vbias)        i(viout)        v(vout)        
 0.00000000e+00  4.59122355e-01  3.31102245e-09  3.35365381e-09  3.33907767e-09  4.59122355e-01  4.59122355e-01  4.59122355e-01  1.59710872e-07  1.75154968e-07  0.00000000e+00 
 1.00000000e-02  4.59122391e-01  3.31102249e-09  3.35365385e-09  3.33907765e-09  4.59122390e-01  4.59122390e-01  4.59122390e-01  1.59710934e-07  1.75154679e-07  1.00000000e-02 
 2.00000000e-02  4.59122392e-01  3.31102243e-09  3.35365378e-09  3.33907765e-09  4.59122392e-01  4.59122392e-01  4.59122392e-01  1.59710925e-07  1.75154341e-07  2.00000000e-02 
 3.00000000e-02  4.59122383e-01  3.31102243e-09  3.35365380e-09  3.33907765e-09  4.59122383e-01  4.59122383e-01  4.59122383e-01  1.59710909e-07  1.75153819e-07  3.00000000e-02 
 4.00000000e-02  4.59122373e-01  3.31102249e-09  3.35365379e-09  3.33907765e-09  4.59122373e-01  4.59122373e-01  4.59122373e-01  1.59710889e-07  1.75153376e-07  4.00000000e-02 
 5.00000000e-02  4.59122375e-01  3.31102243e-09  3.35365385e-09  3.33907771e-09  4.59122375e-01  4.59122375e-01  4.59122375e-01  1.59710908e-07  1.75152941e-07  5.00000000e-02 
 6.00000000e-02  4.59122396e-01  3.31102243e-09  3.35365384e-09  3.33907765e-09  4.59122396e-01  4.59122396e-01  4.59122396e-01  1.59710936e-07  1.75152724e-07  6.00000000e-02 
 7.00000000e-02  4.59122379e-01  3.31102243e-09  3.35365378e-09  3.33907771e-09  4.59122378e-01  4.59122378e-01  4.59122378e-01  1.59710911e-07  1.75152098e-07  7.00000000e-02 
 8.00000000e-02  4.59122375e-01  3.31102243e-09  3.35365385e-09  3.33907765e-09  4.59122375e-01  4.59122375e-01  4.59122375e-01  1.59710910e-07  1.75151822e-07  8.00000000e-02 
 9.00000000e-02  4.59122369e-01  3.31102243e-09  3.35365378e-09  3.33907771e-09  4.59122369e-01  4.59122369e-01  4.59122369e-01  1.59710898e-07  1.75151530e-07  9.00000000e-02 
 1.00000000e-01  4.59122380e-01  3.31102249e-09  3.35365380e-09  3.33907765e-09  4.59122380e-01  4.59122380e-01  4.59122380e-01  1.59710898e-07  1.75151270e-07  1.00000000e-01 
 1.10000000e-01  4.59122381e-01  3.31102249e-09  3.35365385e-09  3.33907765e-09  4.59122380e-01  4.59122381e-01  4.59122380e-01  1.59710908e-07  1.75150895e-07  1.10000000e-01 
 1.20000000e-01  4.59122397e-01  3.31102243e-09  3.35365378e-09  3.33907771e-09  4.59122397e-01  4.59122397e-01  4.59122397e-01  1.59710917e-07  1.75150647e-07  1.20000000e-01 
 1.30000000e-01  4.59122382e-01  3.31102249e-09  3.35365385e-09  3.33907765e-09  4.59122382e-01  4.59122382e-01  4.59122382e-01  1.59710910e-07  1.75150327e-07  1.30000000e-01 
 1.40000000e-01  4.59122366e-01  3.31102243e-09  3.35365383e-09  3.33907765e-09  4.59122366e-01  4.59122366e-01  4.59122366e-01  1.59710882e-07  1.75149983e-07  1.40000000e-01 
 1.50000000e-01  4.59122397e-01  3.31102243e-09  3.35365378e-09  3.33907765e-09  4.59122397e-01  4.59122397e-01  4.59122397e-01  1.59710933e-07  1.75149808e-07  1.50000000e-01 
 1.60000000e-01  4.59122384e-01  3.31102243e-09  3.35365385e-09  3.33907765e-09  4.59122384e-01  4.59122384e-01  4.59122384e-01  1.59710916e-07  1.75149516e-07  1.60000000e-01 
 1.70000000e-01  4.59122370e-01  3.31102249e-09  3.35365383e-09  3.33907765e-09  4.59122370e-01  4.59122370e-01  4.59122370e-01  1.59710895e-07  1.75149239e-07  1.70000000e-01 
 1.80000000e-01  4.59122385e-01  3.31102243e-09  3.35365384e-09  3.33907765e-09  4.59122385e-01  4.59122385e-01  4.59122385e-01  1.59710919e-07  1.75149035e-07  1.80000000e-01 
 1.90000000e-01  4.59122368e-01  3.31102243e-09  3.35365384e-09  3.33907771e-09  4.59122368e-01  4.59122368e-01  4.59122368e-01  1.59710888e-07  1.75148786e-07  1.90000000e-01 
 2.00000000e-01  4.59122379e-01  3.31102249e-09  3.35365378e-09  3.33907771e-09  4.59122379e-01  4.59122379e-01  4.59122379e-01  1.59710910e-07  1.75148548e-07  2.00000000e-01 
 2.10000000e-01  4.59122401e-01  3.31102243e-09  3.35365380e-09  3.33907765e-09  4.59122401e-01  4.59122401e-01  4.59122401e-01  1.59710940e-07  1.75148372e-07  2.10000000e-01 
 2.20000000e-01  4.59122384e-01  3.31102249e-09  3.35365385e-09  3.33907771e-09  4.59122384e-01  4.59122384e-01  4.59122384e-01  1.59710906e-07  1.75148063e-07  2.20000000e-01 
 2.30000000e-01  4.59122357e-01  3.31102243e-09  3.35365383e-09  3.33907771e-09  4.59122356e-01  4.59122357e-01  4.59122356e-01  1.59710866e-07  1.75147807e-07  2.30000000e-01 
 2.40000000e-01  4.59122371e-01  3.31102243e-09  3.35365378e-09  3.33907771e-09  4.59122371e-01  4.59122371e-01  4.59122371e-01  1.59710903e-07  1.75147655e-07  2.40000000e-01 
 2.50000000e-01  4.59122387e-01  3.31102243e-09  3.35365380e-09  3.33907771e-09  4.59122387e-01  4.59122387e-01  4.59122387e-01  1.59710915e-07  1.75147411e-07  2.50000000e-01 
 2.60000000e-01  4.59122391e-01  3.31102249e-09  3.35365379e-09  3.33907765e-09  4.59122391e-01  4.59122391e-01  4.59122391e-01  1.59710918e-07  1.75147338e-07  2.60000000e-01 
 2.70000000e-01  4.59122373e-01  3.31102249e-09  3.35365379e-09  3.33907765e-09  4.59122373e-01  4.59122373e-01  4.59122373e-01  1.59710884e-07  1.75146994e-07  2.70000000e-01 
 2.80000000e-01  4.59122380e-01  3.31102243e-09  3.35365379e-09  3.33907765e-09  4.59122380e-01  4.59122380e-01  4.59122380e-01  1.59710902e-07  1.75146845e-07  2.80000000e-01 
 2.90000000e-01  4.59122402e-01  3.31102243e-09  3.35365385e-09  3.33907771e-09  4.59122402e-01  4.59122402e-01  4.59122402e-01  1.59710933e-07  1.75146848e-07  2.90000000e-01 
 3.00000000e-01  4.59122392e-01  3.31102249e-09  3.35365383e-09  3.33907765e-09  4.59122392e-01  4.59122392e-01  4.59122392e-01  1.59710926e-07  1.75146560e-07  3.00000000e-01 
 3.10000000e-01  4.59122373e-01  3.31102243e-09  3.35365378e-09  3.33907771e-09  4.59122373e-01  4.59122373e-01  4.59122373e-01  1.59710896e-07  1.75146379e-07  3.10000000e-01 
 3.20000000e-01  4.59122375e-01  3.31102243e-09  3.35365385e-09  3.33907765e-09  4.59122375e-01  4.59122375e-01  4.59122375e-01  1.59710894e-07  1.75146145e-07  3.20000000e-01 
 3.30000000e-01  4.59122381e-01  3.31102243e-09  3.35365378e-09  3.33907771e-09  4.59122381e-01  4.59122381e-01  4.59122381e-01  1.59710905e-07  1.75146035e-07  3.30000000e-01 
 3.40000000e-01  4.59122382e-01  3.31102243e-09  3.35365380e-09  3.33907765e-09  4.59122382e-01  4.59122382e-01  4.59122382e-01  1.59710919e-07  1.75145868e-07  3.40000000e-01 
 3.50000000e-01  4.59122388e-01  3.31102243e-09  3.35365385e-09  3.33907771e-09  4.59122388e-01  4.59122388e-01  4.59122388e-01  1.59710912e-07  1.75145733e-07  3.50000000e-01 
 3.60000000e-01  4.59122386e-01  3.31102249e-09  3.35365383e-09  3.33907765e-09  4.59122386e-01  4.59122386e-01  4.59122386e-01  1.59710926e-07  1.75145633e-07  3.60000000e-01 
 3.70000000e-01  4.59122389e-01  3.31102249e-09  3.35365384e-09  3.33907771e-09  4.59122389e-01  4.59122389e-01  4.59122389e-01  1.59710916e-07  1.75145423e-07  3.70000000e-01 
 3.80000000e-01  4.59122366e-01  3.31102249e-09  3.35365384e-09  3.33907765e-09  4.59122366e-01  4.59122366e-01  4.59122366e-01  1.59710883e-07  1.75145189e-07  3.80000000e-01 
 3.90000000e-01  4.59122383e-01  3.31102243e-09  3.35365378e-09  3.33907771e-09  4.59122382e-01  4.59122382e-01  4.59122382e-01  1.59710897e-07  1.75145139e-07  3.90000000e-01 
 4.00000000e-01  4.59122372e-01  3.31102243e-09  3.35365385e-09  3.33907765e-09  4.59122372e-01  4.59122372e-01  4.59122372e-01  1.59710888e-07  1.75144987e-07  4.00000000e-01 
 4.10000000e-01  4.59122381e-01  3.31102243e-09  3.35365383e-09  3.33907771e-09  4.59122380e-01  4.59122380e-01  4.59122380e-01  1.59710916e-07  1.75144777e-07  4.10000000e-01 
 4.20000000e-01  4.59122370e-01  3.31102249e-09  3.35365378e-09  3.33907771e-09  4.59122369e-01  4.59122369e-01  4.59122369e-01  1.59710887e-07  1.75144589e-07  4.20000000e-01 
 4.30000000e-01  4.59122380e-01  3.31102249e-09  3.35365380e-09  3.33907765e-09  4.59122380e-01  4.59122380e-01  4.59122380e-01  1.59710916e-07  1.75144550e-07  4.30000000e-01 
 4.40000000e-01  4.59122395e-01  3.31102243e-09  3.35365379e-09  3.33907765e-09  4.59122395e-01  4.59122395e-01  4.59122395e-01  1.59710924e-07  1.75144418e-07  4.40000000e-01 
 4.50000000e-01  4.59122358e-01  3.31102243e-09  3.35365385e-09  3.33907765e-09  4.59122357e-01  4.59122357e-01  4.59122357e-01  1.59710867e-07  1.75144127e-07  4.50000000e-01 
 4.60000000e-01  4.59122366e-01  3.31102243e-09  3.35365383e-09  3.33907771e-09  4.59122366e-01  4.59122366e-01  4.59122366e-01  1.59710881e-07  1.75144056e-07  4.60000000e-01 
 4.70000000e-01  4.59122367e-01  3.31102249e-09  3.35365378e-09  3.33907771e-09  4.59122366e-01  4.59122367e-01  4.59122366e-01  1.59710875e-07  1.75143800e-07  4.70000000e-01 
 4.80000000e-01  4.59122387e-01  3.31102243e-09  3.35365385e-09  3.33907765e-09  4.59122386e-01  4.59122386e-01  4.59122386e-01  1.59710918e-07  1.75143906e-07  4.80000000e-01 
 4.90000000e-01  4.59122364e-01  3.31102243e-09  3.35365383e-09  3.33907771e-09  4.59122364e-01  4.59122364e-01  4.59122364e-01  1.59710883e-07  1.75143462e-07  4.90000000e-01 
 5.00000000e-01  4.59122386e-01  3.31102249e-09  3.35365378e-09  3.33907765e-09  4.59122385e-01  4.59122385e-01  4.59122385e-01  1.59710917e-07  1.75143651e-07  5.00000000e-01 
 5.10000000e-01  4.59122389e-01  3.31102243e-09  3.35365385e-09  3.33907771e-09  4.59122389e-01  4.59122389e-01  4.59122389e-01  1.59710915e-07  1.75143374e-07  5.10000000e-01 
 5.20000000e-01  4.59122381e-01  3.31102243e-09  3.35365383e-09  3.33907771e-09  4.59122381e-01  4.59122381e-01  4.59122381e-01  1.59710911e-07  1.75143263e-07  5.20000000e-01 
 5.30000000e-01  4.59122355e-01  3.31102249e-09  3.35365378e-09  3.33907771e-09  4.59122355e-01  4.59122355e-01  4.59122355e-01  1.59710871e-07  1.75143011e-07  5.30000000e-01 
 5.40000000e-01  4.59122361e-01  3.31102243e-09  3.35365380e-09  3.33907771e-09  4.59122361e-01  4.59122361e-01  4.59122361e-01  1.59710878e-07  1.75142869e-07  5.40000000e-01 
 5.50000000e-01  4.59122377e-01  3.31102243e-09  3.35365385e-09  3.33907771e-09  4.59122377e-01  4.59122377e-01  4.59122377e-01  1.59710887e-07  1.75142798e-07  5.50000000e-01 
 5.60000000e-01  4.59122404e-01  3.31102249e-09  3.35365378e-09  3.33907765e-09  4.59122404e-01  4.59122404e-01  4.59122404e-01  1.59710936e-07  1.75142816e-07  5.60000000e-01 
 5.70000000e-01  4.59122372e-01  3.31102249e-09  3.35365385e-09  3.33907765e-09  4.59122372e-01  4.59122372e-01  4.59122372e-01  1.59710896e-07  1.75142464e-07  5.70000000e-01 
 5.80000000e-01  4.59122390e-01  3.31102243e-09  3.35365383e-09  3.33907771e-09  4.59122390e-01  4.59122390e-01  4.59122390e-01  1.59710921e-07  1.75142468e-07  5.80000000e-01 
 5.90000000e-01  4.59122380e-01  3.31102249e-09  3.35365384e-09  3.33907771e-09  4.59122380e-01  4.59122380e-01  4.59122380e-01  1.59710894e-07  1.75142247e-07  5.90000000e-01 
 6.00000000e-01  4.59122392e-01  3.31102243e-09  3.35365384e-09  3.33907765e-09  4.59122392e-01  4.59122392e-01  4.59122392e-01  1.59710930e-07  1.75142205e-07  6.00000000e-01 
 6.10000000e-01  4.59122379e-01  3.31102249e-09  3.35365378e-09  3.33907771e-09  4.59122379e-01  4.59122379e-01  4.59122379e-01  1.59710903e-07  1.75141992e-07  6.10000000e-01 
 6.20000000e-01  4.59122398e-01  3.31102243e-09  3.35365380e-09  3.33907765e-09  4.59122398e-01  4.59122398e-01  4.59122398e-01  1.59710922e-07  1.75141906e-07  6.20000000e-01 
 6.30000000e-01  4.59122380e-01  3.31102249e-09  3.35365379e-09  3.33907765e-09  4.59122380e-01  4.59122380e-01  4.59122380e-01  1.59710901e-07  1.75141707e-07  6.30000000e-01 
 6.40000000e-01  4.59122361e-01  3.31102243e-09  3.35365385e-09  3.33907771e-09  4.59122361e-01  4.59122361e-01  4.59122361e-01  1.59710882e-07  1.75141544e-07  6.40000000e-01 
 6.50000000e-01  4.59122387e-01  3.31102249e-09  3.35365383e-09  3.33907771e-09  4.59122387e-01  4.59122387e-01  4.59122387e-01  1.59710926e-07  1.75141388e-07  6.50000000e-01 
 6.60000000e-01  4.59122378e-01  3.31102243e-09  3.35365384e-09  3.33907771e-09  4.59122378e-01  4.59122378e-01  4.59122378e-01  1.59710906e-07  1.75141309e-07  6.60000000e-01 
 6.70000000e-01  4.59122384e-01  3.31102249e-09  3.35365384e-09  3.33907771e-09  4.59122384e-01  4.59122384e-01  4.59122384e-01  1.59710911e-07  1.75141182e-07  6.70000000e-01 
 6.80000000e-01  4.59122394e-01  3.31102249e-09  3.35365384e-09  3.33907771e-09  4.59122394e-01  4.59122394e-01  4.59122394e-01  1.59710928e-07  1.75141103e-07  6.80000000e-01 
 6.90000000e-01  4.59122372e-01  3.31102249e-09  3.35365378e-09  3.33907771e-09  4.59122372e-01  4.59122372e-01  4.59122372e-01  1.59710887e-07  1.75140919e-07  6.90000000e-01 
 7.00000000e-01  4.59122391e-01  3.31102243e-09  3.35365380e-09  3.33907771e-09  4.59122391e-01  4.59122391e-01  4.59122391e-01  1.59710931e-07  1.75140762e-07  7.00000000e-01 
 7.10000000e-01  4.59122381e-01  3.31102243e-09  3.35365379e-09  3.33907765e-09  4.59122381e-01  4.59122381e-01  4.59122381e-01  1.59710910e-07  1.75140606e-07  7.10000000e-01 
 7.20000000e-01  4.59122361e-01  3.31102249e-09  3.35365385e-09  3.33907771e-09  4.59122361e-01  4.59122361e-01  4.59122361e-01  1.59710867e-07  1.75140471e-07  7.20000000e-01 
 7.30000000e-01  4.59122364e-01  3.31102243e-09  3.35365383e-09  3.33907771e-09  4.59122364e-01  4.59122364e-01  4.59122364e-01  1.59710882e-07  1.75140386e-07  7.30000000e-01 
 7.40000000e-01  4.59122367e-01  3.31102249e-09  3.35365384e-09  3.33907765e-09  4.59122367e-01  4.59122367e-01  4.59122367e-01  1.59710891e-07  1.75140180e-07  7.40000000e-01 
 7.50000000e-01  4.59122366e-01  3.31102249e-09  3.35365384e-09  3.33907765e-09  4.59122365e-01  4.59122365e-01  4.59122365e-01  1.59710885e-07  1.75140016e-07  7.50000000e-01 
 7.60000000e-01  4.59122385e-01  3.31102249e-09  3.35365378e-09  3.33907771e-09  4.59122385e-01  4.59122385e-01  4.59122385e-01  1.59710919e-07  1.75139974e-07  7.60000000e-01 
 7.70000000e-01  4.59122391e-01  3.31102243e-09  3.35365385e-09  3.33907765e-09  4.59122391e-01  4.59122391e-01  4.59122391e-01  1.59710911e-07  1.75139803e-07  7.70000000e-01 
 7.80000000e-01  4.59122393e-01  3.31102249e-09  3.35365383e-09  3.33907765e-09  4.59122393e-01  4.59122393e-01  4.59122393e-01  1.59710926e-07  1.75139697e-07  7.80000000e-01 
 7.90000000e-01  4.59122388e-01  3.31102243e-09  3.35365384e-09  3.33907765e-09  4.59122388e-01  4.59122388e-01  4.59122388e-01  1.59710917e-07  1.75139554e-07  7.90000000e-01 
 8.00000000e-01  4.59122414e-01  3.31102243e-09  3.35365378e-09  3.33907771e-09  4.59122414e-01  4.59122414e-01  4.59122414e-01  1.59710966e-07  1.75139441e-07  8.00000000e-01 
 8.10000000e-01  4.59122372e-01  3.31102243e-09  3.35365380e-09  3.33907765e-09  4.59122372e-01  4.59122372e-01  4.59122372e-01  1.59710900e-07  1.75139149e-07  8.10000000e-01 
 8.20000000e-01  4.59122378e-01  3.31102243e-09  3.35365379e-09  3.33907771e-09  4.59122378e-01  4.59122378e-01  4.59122378e-01  1.59710899e-07  1.75139064e-07  8.20000000e-01 
 8.30000000e-01  4.59122389e-01  3.31102243e-09  3.35365385e-09  3.33907765e-09  4.59122389e-01  4.59122389e-01  4.59122389e-01  1.59710915e-07  1.75138887e-07  8.30000000e-01 
 8.40000000e-01  4.59122378e-01  3.31102249e-09  3.35365378e-09  3.33907771e-09  4.59122378e-01  4.59122378e-01  4.59122378e-01  1.59710905e-07  1.75138752e-07  8.40000000e-01 
 8.50000000e-01  4.59122377e-01  3.31102243e-09  3.35365380e-09  3.33907765e-09  4.59122377e-01  4.59122377e-01  4.59122377e-01  1.59710901e-07  1.75138595e-07  8.50000000e-01 
 8.60000000e-01  4.59122366e-01  3.31102243e-09  3.35365385e-09  3.33907765e-09  4.59122366e-01  4.59122366e-01  4.59122366e-01  1.59710884e-07  1.75138453e-07  8.60000000e-01 
 8.70000000e-01  4.59122400e-01  3.31102243e-09  3.35365384e-09  3.33907765e-09  4.59122400e-01  4.59122400e-01  4.59122400e-01  1.59710936e-07  1.75138297e-07  8.70000000e-01 
 8.80000000e-01  4.59122361e-01  3.31102243e-09  3.35365384e-09  3.33907771e-09  4.59122361e-01  4.59122361e-01  4.59122361e-01  1.59710879e-07  1.75138112e-07  8.80000000e-01 
 8.90000000e-01  4.59122388e-01  3.31102249e-09  3.35365378e-09  3.33907765e-09  4.59122387e-01  4.59122387e-01  4.59122387e-01  1.59710918e-07  1.75137998e-07  8.90000000e-01 
 9.00000000e-01  4.59122388e-01  3.31102243e-09  3.35365380e-09  3.33907765e-09  4.59122388e-01  4.59122388e-01  4.59122388e-01  1.59710908e-07  1.75137920e-07  9.00000000e-01 
 9.10000000e-01  4.59122390e-01  3.31102249e-09  3.35365385e-09  3.33907765e-09  4.59122390e-01  4.59122390e-01  4.59122390e-01  1.59710927e-07  1.75137728e-07  9.10000000e-01 
 9.20000000e-01  4.59122369e-01  3.31102249e-09  3.35365378e-09  3.33907765e-09  4.59122369e-01  4.59122369e-01  4.59122369e-01  1.59710884e-07  1.75137409e-07  9.20000000e-01 
 9.30000000e-01  4.59122384e-01  3.31102243e-09  3.35365380e-09  3.33907771e-09  4.59122383e-01  4.59122383e-01  4.59122383e-01  1.59710905e-07  1.75137444e-07  9.30000000e-01 
 9.40000000e-01  4.59122383e-01  3.31102243e-09  3.35365385e-09  3.33907771e-09  4.59122383e-01  4.59122383e-01  4.59122383e-01  1.59710909e-07  1.75137231e-07  9.40000000e-01 
 9.50000000e-01  4.59122391e-01  3.31102243e-09  3.35365383e-09  3.33907765e-09  4.59122391e-01  4.59122391e-01  4.59122391e-01  1.59710915e-07  1.75137167e-07  9.50000000e-01 
 9.60000000e-01  4.59122378e-01  3.31102249e-09  3.35365384e-09  3.33907771e-09  4.59122378e-01  4.59122378e-01  4.59122378e-01  1.59710901e-07  1.75136776e-07  9.60000000e-01 
 9.70000000e-01  4.59122393e-01  3.31102243e-09  3.35365378e-09  3.33907771e-09  4.59122393e-01  4.59122393e-01  4.59122393e-01  1.59710902e-07  1.75136776e-07  9.70000000e-01 
 9.80000000e-01  4.59122366e-01  3.31102243e-09  3.35365380e-09  3.33907771e-09  4.59122366e-01  4.59122366e-01  4.59122366e-01  1.59710880e-07  1.75136591e-07  9.80000000e-01 
 9.90000000e-01  4.59122400e-01  3.31102243e-09  3.35365385e-09  3.33907765e-09  4.59122400e-01  4.59122400e-01  4.59122400e-01  1.59710931e-07  1.75136520e-07  9.90000000e-01 
 1.00000000e+00  4.59122378e-01  3.31102249e-09  3.35365383e-09  3.33907771e-09  4.59122378e-01  4.59122378e-01  4.59122378e-01  1.59710899e-07  1.75136165e-07  1.00000000e+00 
 1.01000000e+00  4.59122401e-01  3.31102249e-09  3.35365384e-09  3.33907765e-09  4.59122401e-01  4.59122401e-01  4.59122401e-01  1.59710940e-07  1.75136179e-07  1.01000000e+00 
 1.02000000e+00  4.59122372e-01  3.31102243e-09  3.35365384e-09  3.33907771e-09  4.59122372e-01  4.59122372e-01  4.59122372e-01  1.59710895e-07  1.75135860e-07  1.02000000e+00 
 1.03000000e+00  4.59122378e-01  3.31102243e-09  3.35365378e-09  3.33907771e-09  4.59122377e-01  4.59122377e-01  4.59122377e-01  1.59710911e-07  1.75135654e-07  1.03000000e+00 
 1.04000000e+00  4.59122390e-01  3.31102243e-09  3.35365385e-09  3.33907771e-09  4.59122390e-01  4.59122390e-01  4.59122390e-01  1.59710916e-07  1.75135440e-07  1.04000000e+00 
 1.05000000e+00  4.59122365e-01  3.31102243e-09  3.35365383e-09  3.33907765e-09  4.59122365e-01  4.59122365e-01  4.59122365e-01  1.59710885e-07  1.75135199e-07  1.05000000e+00 
 1.06000000e+00  4.59122386e-01  3.31102249e-09  3.35365384e-09  3.33907765e-09  4.59122386e-01  4.59122386e-01  4.59122386e-01  1.59710910e-07  1.75135206e-07  1.06000000e+00 
 1.07000000e+00  4.59122395e-01  3.31102249e-09  3.35365384e-09  3.33907765e-09  4.59122395e-01  4.59122395e-01  4.59122395e-01  1.59710936e-07  1.75134971e-07  1.07000000e+00 
 1.08000000e+00  4.59122361e-01  3.31102249e-09  3.35365378e-09  3.33907771e-09  4.59122361e-01  4.59122361e-01  4.59122361e-01  1.59710881e-07  1.75134574e-07  1.08000000e+00 
 1.09000000e+00  4.59122370e-01  3.31102243e-09  3.35365380e-09  3.33907771e-09  4.59122370e-01  4.59122370e-01  4.59122370e-01  1.59710899e-07  1.75134488e-07  1.09000000e+00 
 1.10000000e+00  4.59122400e-01  3.31102243e-09  3.35365385e-09  3.33907765e-09  4.59122400e-01  4.59122400e-01  4.59122400e-01  1.59710942e-07  1.75134403e-07  1.10000000e+00 
