 v-sweep         v(b0)           v(b1)           v(b2)           v(b3)           v(b4)           v(b5)           v(b6)           i(vbias)        i(viout)        v(vout)        
 0.00000000e+00  3.26553567e-09  4.61032685e-01  3.28125081e-09  3.18980347e-09  4.61032685e-01  4.61032685e-01  3.22259419e-09  1.62332115e-07  8.16068236e-08  0.00000000e+00 
 1.00000000e-02  3.26553569e-09  4.61032701e-01  3.28125078e-09  3.18980344e-09  4.61032701e-01  4.61032701e-01  3.22259422e-09  1.62332137e-07  8.16064608e-08  1.00000000e-02 
 2.00000000e-02  3.26553564e-09  4.61032704e-01  3.28125083e-09  3.18980344e-09  4.61032704e-01  4.61032704e-01  3.22259422e-09  1.62332133e-07  8.16061363e-08  2.00000000e-02 
 3.00000000e-02  3.26553569e-09  4.61032692e-01  3.28125083e-09  3.18980344e-09  4.61032692e-01  4.61032692e-01  3.22259416e-09  1.62332122e-07  8.16057697e-08  3.00000000e-02 
 4.00000000e-02  3.26553569e-09  4.61032665e-01  3.28125083e-09  3.18980344e-09  4.61032665e-01  4.61032665e-01  3.22259416e-09  1.62332080e-07  8.16051902e-08  4.00000000e-02 
 5.00000000e-02  3.26553564e-09  4.61032692e-01  3.28125078e-09  3.18980344e-09  4.61032692e-01  4.61032692e-01  3.22259416e-09  1.62332131e-07  8.16048429e-08  5.00000000e-02 
 6.00000000e-02  3.26553569e-09  4.61032660e-01  3.28125083e-09  3.18980344e-09  4.61032660e-01  4.61032660e-01  3.22259422e-09  1.62332074e-07  8.16045622e-08  6.00000000e-02 
 7.00000000e-02  3.26553569e-09  4.61032668e-01  3.28125078e-09  3.18980344e-09  4.61032668e-01  4.61032668e-01  3.22259416e-09  1.62332077e-07  8.16042487e-08  7.00000000e-02 
 8.00000000e-02  3.26553569e-09  4.61032682e-01  3.28125078e-09  3.18980344e-09  4.61032682e-01  4.61032682e-01  3.22259422e-09  1.62332113e-07  8.16040400e-08  8.00000000e-02 
 9.00000000e-02  3.26553563e-09  4.61032665e-01  3.28125083e-09  3.18980344e-09  4.61032665e-01  4.61032665e-01  3.22259422e-09  1.62332083e-07  8.16036785e-08  9.00000000e-02 
 1.00000000e-01  3.26553569e-09  4.61032695e-01  3.28125078e-09  3.18980344e-09  4.61032695e-01  4.61032695e-01  3.22259416e-09  1.62332132e-07  8.16034857e-08  1.00000000e-01 
 1.10000000e-01  3.26553569e-09  4.61032695e-01  3.28125078e-09  3.18980344e-09  4.61032695e-01  4.61032695e-01  3.22259422e-09  1.62332139e-07  8.16031962e-08  1.10000000e-01 
 1.20000000e-01  3.26553569e-09  4.61032672e-01  3.28125078e-09  3.18980344e-09  4.61032672e-01  4.61032672e-01  3.22259416e-09  1.62332081e-07  8.16030150e-08  1.20000000e-01 
 1.30000000e-01  3.26553569e-09  4.61032678e-01  3.28125083e-09  3.18980344e-09  4.61032678e-01  4.61032678e-01  3.22259416e-09  1.62332116e-07  8.16027974e-08  1.30000000e-01 
 1.40000000e-01  3.26553569e-09  4.61032673e-01  3.28125083e-09  3.18980344e-09  4.61032673e-01  4.61032673e-01  3.22259416e-09  1.62332101e-07  8.16024874e-08  1.40000000e-01 
 1.50000000e-01  3.26553569e-09  4.61032666e-01  3.28125078e-09  3.18980344e-09  4.61032666e-01  4.61032666e-01  3.22259416e-09  1.62332080e-07  8.16022769e-08  1.50000000e-01 
 1.60000000e-01  3.26553569e-09  4.61032667e-01  3.28125078e-09  3.18980344e-09  4.61032667e-01  4.61032667e-01  3.22259416e-09  1.62332097e-07  8.16020194e-08  1.60000000e-01 
 1.70000000e-01  3.26553569e-09  4.61032669e-01  3.28125078e-09  3.18980344e-09  4.61032669e-01  4.61032669e-01  3.22259416e-09  1.62332096e-07  8.16019590e-08  1.70000000e-01 
 1.80000000e-01  3.26553563e-09  4.61032675e-01  3.28125078e-09  3.18980344e-09  4.61032675e-01  4.61032675e-01  3.22259416e-09  1.62332093e-07  8.16016961e-08  1.80000000e-01 
 1.90000000e-01  3.26553563e-09  4.61032658e-01  3.28125078e-09  3.18980344e-09  4.61032658e-01  4.61032658e-01  3.22259422e-09  1.62332072e-07  8.16014545e-08  1.90000000e-01 
 2.00000000e-01  3.26553564e-09  4.61032703e-01  3.28125078e-09  3.18980344e-09  4.61032703e-01  4.61032703e-01  3.22259417e-09  1.62332147e-07  8.16013976e-08  2.00000000e-01 
 2.10000000e-01  3.26553569e-09  4.61032699e-01  3.28125083e-09  3.18980344e-09  4.61032699e-01  4.61032699e-01  3.22259422e-09  1.62332135e-07  8.16012662e-08  2.10000000e-01 
 2.20000000e-01  3.26553569e-09  4.61032691e-01  3.28125083e-09  3.18980344e-09  4.61032691e-01  4.61032691e-01  3.22259416e-09  1.62332119e-07  8.16012253e-08  2.20000000e-01 
 2.30000000e-01  3.26553569e-09  4.61032691e-01  3.28125078e-09  3.18980338e-09  4.61032691e-01  4.61032691e-01  3.22259422e-09  1.62332120e-07  8.16009020e-08  2.30000000e-01 
 2.40000000e-01  3.26553569e-09  4.61032685e-01  3.28125078e-09  3.18980345e-09  4.61032685e-01  4.61032685e-01  3.22259422e-09  1.62332114e-07  8.16007777e-08  2.40000000e-01 
 2.50000000e-01  3.26553563e-09  4.61032657e-01  3.28125078e-09  3.18980343e-09  4.61032657e-01  4.61032657e-01  3.22259422e-09  1.62332067e-07  8.16006498e-08  2.50000000e-01 
 2.60000000e-01  3.26553569e-09  4.61032678e-01  3.28125078e-09  3.18980344e-09  4.61032678e-01  4.61032678e-01  3.22259422e-09  1.62332107e-07  8.16005254e-08  2.60000000e-01 
 2.70000000e-01  3.26553569e-09  4.61032687e-01  3.28125078e-09  3.18980344e-09  4.61032687e-01  4.61032686e-01  3.22259416e-09  1.62332098e-07  8.16003993e-08  2.70000000e-01 
 2.80000000e-01  3.26553569e-09  4.61032669e-01  3.28125078e-09  3.18980344e-09  4.61032669e-01  4.61032669e-01  3.22259422e-09  1.62332084e-07  8.16001915e-08  2.80000000e-01 
 2.90000000e-01  3.26553569e-09  4.61032697e-01  3.28125083e-09  3.18980344e-09  4.61032697e-01  4.61032697e-01  3.22259416e-09  1.62332129e-07  8.16001915e-08  2.90000000e-01 
 3.00000000e-01  3.26553569e-09  4.61032670e-01  3.28125078e-09  3.18980344e-09  4.61032670e-01  4.61032670e-01  3.22259422e-09  1.62332078e-07  8.16000458e-08  3.00000000e-01 
 3.10000000e-01  3.26553564e-09  4.61032702e-01  3.28125078e-09  3.18980344e-09  4.61032702e-01  4.61032702e-01  3.22259416e-09  1.62332155e-07  8.15999783e-08  3.10000000e-01 
 3.20000000e-01  3.26553564e-09  4.61032699e-01  3.28125083e-09  3.18980344e-09  4.61032699e-01  4.61032699e-01  3.22259416e-09  1.62332136e-07  8.15998042e-08  3.20000000e-01 
 3.30000000e-01  3.26553569e-09  4.61032690e-01  3.28125078e-09  3.18980344e-09  4.61032690e-01  4.61032690e-01  3.22259416e-09  1.62332128e-07  8.15996728e-08  3.30000000e-01 
 3.40000000e-01  3.26553569e-09  4.61032663e-01  3.28125078e-09  3.18980344e-09  4.61032663e-01  4.61032663e-01  3.22259422e-09  1.62332097e-07  8.15994632e-08  3.40000000e-01 
 3.50000000e-01  3.26553569e-09  4.61032684e-01  3.28125083e-09  3.18980344e-09  4.61032684e-01  4.61032684e-01  3.22259422e-09  1.62332103e-07  8.15993495e-08  3.50000000e-01 
 3.60000000e-01  3.26553569e-09  4.61032695e-01  3.28125078e-09  3.18980344e-09  4.61032695e-01  4.61032695e-01  3.22259416e-09  1.62332118e-07  8.15993602e-08  3.60000000e-01 
 3.70000000e-01  3.26553569e-09  4.61032657e-01  3.28125078e-09  3.18980344e-09  4.61032657e-01  4.61032657e-01  3.22259416e-09  1.62332057e-07  8.15992287e-08  3.70000000e-01 
 3.80000000e-01  3.26553569e-09  4.61032695e-01  3.28125083e-09  3.18980344e-09  4.61032695e-01  4.61032695e-01  3.22259416e-09  1.62332129e-07  8.15992003e-08  3.80000000e-01 
 3.90000000e-01  3.26553569e-09  4.61032697e-01  3.28125078e-09  3.18980344e-09  4.61032697e-01  4.61032697e-01  3.22259416e-09  1.62332120e-07  8.15991363e-08  3.90000000e-01 
 4.00000000e-01  3.26553569e-09  4.61032655e-01  3.28125083e-09  3.18980344e-09  4.61032655e-01  4.61032655e-01  3.22259422e-09  1.62332068e-07  8.15989161e-08  4.00000000e-01 
 4.10000000e-01  3.26553569e-09  4.61032658e-01  3.28125078e-09  3.18980344e-09  4.61032658e-01  4.61032658e-01  3.22259422e-09  1.62332085e-07  8.15989374e-08  4.10000000e-01 
 4.20000000e-01  3.26553569e-09  4.61032678e-01  3.28125083e-09  3.18980344e-09  4.61032678e-01  4.61032678e-01  3.22259422e-09  1.62332106e-07  8.15987953e-08  4.20000000e-01 
 4.30000000e-01  3.26553569e-09  4.61032673e-01  3.28125083e-09  3.18980344e-09  4.61032673e-01  4.61032673e-01  3.22259422e-09  1.62332087e-07  8.15986994e-08  4.30000000e-01 
 4.40000000e-01  3.26553569e-09  4.61032674e-01  3.28125078e-09  3.18980344e-09  4.61032674e-01  4.61032674e-01  3.22259422e-09  1.62332104e-07  8.15986816e-08  4.40000000e-01 
 4.50000000e-01  3.26553569e-09  4.61032682e-01  3.28125083e-09  3.18980344e-09  4.61032682e-01  4.61032682e-01  3.22259422e-09  1.62332112e-07  8.15986105e-08  4.50000000e-01 
 4.60000000e-01  3.26553569e-09  4.61032689e-01  3.28125078e-09  3.18980344e-09  4.61032689e-01  4.61032689e-01  3.22259416e-09  1.62332122e-07  8.15986425e-08  4.60000000e-01 
 4.70000000e-01  3.26553563e-09  4.61032682e-01  3.28125078e-09  3.18980344e-09  4.61032682e-01  4.61032682e-01  3.22259422e-09  1.62332111e-07  8.15984116e-08  4.70000000e-01 
 4.80000000e-01  3.26553569e-09  4.61032680e-01  3.28125078e-09  3.18980344e-09  4.61032680e-01  4.61032680e-01  3.22259422e-09  1.62332121e-07  8.15984897e-08  4.80000000e-01 
 4.90000000e-01  3.26553569e-09  4.61032683e-01  3.28125083e-09  3.18980344e-09  4.61032683e-01  4.61032683e-01  3.22259416e-09  1.62332122e-07  8.15982588e-08  4.90000000e-01 
 5.00000000e-01  3.26553569e-09  4.61032671e-01  3.28125083e-09  3.18980344e-09  4.61032671e-01  4.61032671e-01  3.22259422e-09  1.62332096e-07  8.15982197e-08  5.00000000e-01 
 5.10000000e-01  3.26553569e-09  4.61032686e-01  3.28125078e-09  3.18980344e-09  4.61032686e-01  4.61032686e-01  3.22259422e-09  1.62332118e-07  8.15982126e-08  5.10000000e-01 
 5.20000000e-01  3.26553569e-09  4.61032652e-01  3.28125078e-09  3.18980344e-09  4.61032652e-01  4.61032652e-01  3.22259422e-09  1.62332058e-07  8.15980492e-08  5.20000000e-01 
 5.30000000e-01  3.26553569e-09  4.61032698e-01  3.28125078e-09  3.18980344e-09  4.61032698e-01  4.61032698e-01  3.22259422e-09  1.62332128e-07  8.15979568e-08  5.30000000e-01 
 5.40000000e-01  3.26553569e-09  4.61032681e-01  3.28125078e-09  3.18980344e-09  4.61032681e-01  4.61032681e-01  3.22259416e-09  1.62332101e-07  8.15979817e-08  5.40000000e-01 
 5.50000000e-01  3.26553569e-09  4.61032691e-01  3.28125078e-09  3.18980344e-09  4.61032691e-01  4.61032691e-01  3.22259422e-09  1.62332127e-07  8.15978609e-08  5.50000000e-01 
 5.60000000e-01  3.26553569e-09  4.61032657e-01  3.28125078e-09  3.18980344e-09  4.61032657e-01  4.61032657e-01  3.22259422e-09  1.62332062e-07  8.15977330e-08  5.60000000e-01 
 5.70000000e-01  3.26553569e-09  4.61032691e-01  3.28125083e-09  3.18980344e-09  4.61032691e-01  4.61032690e-01  3.22259422e-09  1.62332110e-07  8.15978787e-08  5.70000000e-01 
 5.80000000e-01  3.26553569e-09  4.61032672e-01  3.28125078e-09  3.18980344e-09  4.61032672e-01  4.61032672e-01  3.22259416e-09  1.62332087e-07  8.15976549e-08  5.80000000e-01 
 5.90000000e-01  3.26553569e-09  4.61032669e-01  3.28125083e-09  3.18980344e-09  4.61032669e-01  4.61032669e-01  3.22259422e-09  1.62332095e-07  8.15975909e-08  5.90000000e-01 
 6.00000000e-01  3.26553569e-09  4.61032678e-01  3.28125083e-09  3.18980344e-09  4.61032678e-01  4.61032678e-01  3.22259422e-09  1.62332104e-07  8.15975696e-08  6.00000000e-01 
 6.10000000e-01  3.26553563e-09  4.61032659e-01  3.28125083e-09  3.18980344e-09  4.61032659e-01  4.61032659e-01  3.22259416e-09  1.62332076e-07  8.15974062e-08  6.10000000e-01 
 6.20000000e-01  3.26553569e-09  4.61032697e-01  3.28125078e-09  3.18980344e-09  4.61032697e-01  4.61032697e-01  3.22259422e-09  1.62332125e-07  8.15974701e-08  6.20000000e-01 
 6.30000000e-01  3.26553563e-09  4.61032669e-01  3.28125083e-09  3.18980338e-09  4.61032669e-01  4.61032669e-01  3.22259416e-09  1.62332079e-07  8.15972925e-08  6.30000000e-01 
 6.40000000e-01  3.26553564e-09  4.61032691e-01  3.28125083e-09  3.18980345e-09  4.61032691e-01  4.61032691e-01  3.22259416e-09  1.62332129e-07  8.15972072e-08  6.40000000e-01 
 6.50000000e-01  3.26553569e-09  4.61032666e-01  3.28125078e-09  3.18980343e-09  4.61032666e-01  4.61032666e-01  3.22259422e-09  1.62332087e-07  8.15971006e-08  6.50000000e-01 
 6.60000000e-01  3.26553569e-09  4.61032688e-01  3.28125083e-09  3.18980344e-09  4.61032688e-01  4.61032688e-01  3.22259416e-09  1.62332120e-07  8.15972214e-08  6.60000000e-01 
 6.70000000e-01  3.26553564e-09  4.61032692e-01  3.28125078e-09  3.18980344e-09  4.61032692e-01  4.61032692e-01  3.22259416e-09  1.62332112e-07  8.15970651e-08  6.70000000e-01 
 6.80000000e-01  3.26553569e-09  4.61032699e-01  3.28125078e-09  3.18980344e-09  4.61032699e-01  4.61032699e-01  3.22259422e-09  1.62332119e-07  8.15970793e-08  6.80000000e-01 
 6.90000000e-01  3.26553563e-09  4.61032682e-01  3.28125078e-09  3.18980344e-09  4.61032682e-01  4.61032682e-01  3.22259416e-09  1.62332106e-07  8.15969301e-08  6.90000000e-01 
 7.00000000e-01  3.26553563e-09  4.61032683e-01  3.28125083e-09  3.18980344e-09  4.61032683e-01  4.61032683e-01  3.22259422e-09  1.62332115e-07  8.15968804e-08  7.00000000e-01 
 7.10000000e-01  3.26553569e-09  4.61032651e-01  3.28125078e-09  3.18980344e-09  4.61032651e-01  4.61032651e-01  3.22259416e-09  1.62332076e-07  8.15966814e-08  7.10000000e-01 
 7.20000000e-01  3.26553569e-09  4.61032681e-01  3.28125078e-09  3.18980344e-09  4.61032681e-01  4.61032681e-01  3.22259422e-09  1.62332114e-07  8.15967383e-08  7.20000000e-01 
 7.30000000e-01  3.26553569e-09  4.61032703e-01  3.28125078e-09  3.18980344e-09  4.61032703e-01  4.61032703e-01  3.22259416e-09  1.62332134e-07  8.15966885e-08  7.30000000e-01 
 7.40000000e-01  3.26553569e-09  4.61032675e-01  3.28125078e-09  3.18980344e-09  4.61032675e-01  4.61032675e-01  3.22259416e-09  1.62332108e-07  8.15966033e-08  7.40000000e-01 
 7.50000000e-01  3.26553569e-09  4.61032674e-01  3.28125078e-09  3.18980344e-09  4.61032674e-01  4.61032674e-01  3.22259416e-09  1.62332112e-07  8.15964825e-08  7.50000000e-01 
 7.60000000e-01  3.26553569e-09  4.61032676e-01  3.28125078e-09  3.18980344e-09  4.61032676e-01  4.61032676e-01  3.22259422e-09  1.62332098e-07  8.15965180e-08  7.60000000e-01 
 7.70000000e-01  3.26553569e-09  4.61032667e-01  3.28125078e-09  3.18980344e-09  4.61032667e-01  4.61032667e-01  3.22259416e-09  1.62332083e-07  8.15963830e-08  7.70000000e-01 
 7.80000000e-01  3.26553564e-09  4.61032695e-01  3.28125078e-09  3.18980344e-09  4.61032695e-01  4.61032695e-01  3.22259416e-09  1.62332138e-07  8.15962906e-08  7.80000000e-01 
 7.90000000e-01  3.26553569e-09  4.61032700e-01  3.28125078e-09  3.18980344e-09  4.61032700e-01  4.61032700e-01  3.22259422e-09  1.62332132e-07  8.15962551e-08  7.90000000e-01 
 8.00000000e-01  3.26553569e-09  4.61032685e-01  3.28125083e-09  3.18980344e-09  4.61032685e-01  4.61032685e-01  3.22259422e-09  1.62332101e-07  8.15962267e-08  8.00000000e-01 
 8.10000000e-01  3.26553569e-09  4.61032668e-01  3.28125078e-09  3.18980344e-09  4.61032668e-01  4.61032668e-01  3.22259416e-09  1.62332103e-07  8.15959780e-08  8.10000000e-01 
 8.20000000e-01  3.26553563e-09  4.61032681e-01  3.28125083e-09  3.18980344e-09  4.61032681e-01  4.61032681e-01  3.22259422e-09  1.62332108e-07  8.15960988e-08  8.20000000e-01 
 8.30000000e-01  3.26553569e-09  4.61032669e-01  3.28125083e-09  3.18980344e-09  4.61032669e-01  4.61032669e-01  3.22259416e-09  1.62332091e-07  8.15958856e-08  8.30000000e-01 
 8.40000000e-01  3.26553569e-09  4.61032699e-01  3.28125078e-09  3.18980344e-09  4.61032699e-01  4.61032699e-01  3.22259422e-09  1.62332136e-07  8.15960988e-08  8.40000000e-01 
 8.50000000e-01  3.26553569e-09  4.61032683e-01  3.28125078e-09  3.18980344e-09  4.61032683e-01  4.61032683e-01  3.22259422e-09  1.62332097e-07  8.15958927e-08  8.50000000e-01 
 8.60000000e-01  3.26553569e-09  4.61032675e-01  3.28125078e-09  3.18980344e-09  4.61032675e-01  4.61032675e-01  3.22259416e-09  1.62332091e-07  8.15958572e-08  8.60000000e-01 
 8.70000000e-01  3.26553569e-09  4.61032668e-01  3.28125078e-09  3.18980344e-09  4.61032668e-01  4.61032668e-01  3.22259422e-09  1.62332090e-07  8.15956511e-08  8.70000000e-01 
 8.80000000e-01  3.26553569e-09  4.61032693e-01  3.28125078e-09  3.18980344e-09  4.61032693e-01  4.61032693e-01  3.22259422e-09  1.62332120e-07  8.15955730e-08  8.80000000e-01 
 8.90000000e-01  3.26553564e-09  4.61032694e-01  3.28125083e-09  3.18980344e-09  4.61032694e-01  4.61032694e-01  3.22259422e-09  1.62332121e-07  8.15955801e-08  8.90000000e-01 
 9.00000000e-01  3.26553563e-09  4.61032678e-01  3.28125083e-09  3.18980344e-09  4.61032678e-01  4.61032678e-01  3.22259422e-09  1.62332101e-07  8.15954166e-08  9.00000000e-01 
 9.10000000e-01  3.26553569e-09  4.61032693e-01  3.28125078e-09  3.18980344e-09  4.61032693e-01  4.61032693e-01  3.22259416e-09  1.62332136e-07  8.15953740e-08  9.10000000e-01 
 9.20000000e-01  3.26553569e-09  4.61032682e-01  3.28125078e-09  3.18980344e-09  4.61032682e-01  4.61032682e-01  3.22259416e-09  1.62332109e-07  8.15953314e-08  9.20000000e-01 
 9.30000000e-01  3.26553563e-09  4.61032676e-01  3.28125078e-09  3.18980344e-09  4.61032676e-01  4.61032676e-01  3.22259422e-09  1.62332096e-07  8.15953598e-08  9.30000000e-01 
 9.40000000e-01  3.26553569e-09  4.61032668e-01  3.28125078e-09  3.18980344e-09  4.61032668e-01  4.61032668e-01  3.22259416e-09  1.62332089e-07  8.15951182e-08  9.40000000e-01 
 9.50000000e-01  3.26553569e-09  4.61032671e-01  3.28125078e-09  3.18980344e-09  4.61032671e-01  4.61032671e-01  3.22259416e-09  1.62332093e-07  8.15950756e-08  9.50000000e-01 
 9.60000000e-01  3.26553569e-09  4.61032653e-01  3.28125078e-09  3.18980344e-09  4.61032653e-01  4.61032653e-01  3.22259422e-09  1.62332068e-07  8.15950258e-08  9.60000000e-01 
 9.70000000e-01  3.26553569e-09  4.61032673e-01  3.28125078e-09  3.18980344e-09  4.61032673e-01  4.61032673e-01  3.22259422e-09  1.62332104e-07  8.15948908e-08  9.70000000e-01 
 9.80000000e-01  3.26553569e-09  4.61032663e-01  3.28125078e-09  3.18980344e-09  4.61032663e-01  4.61032663e-01  3.22259422e-09  1.62332081e-07  8.15949406e-08  9.80000000e-01 
 9.90000000e-01  3.26553569e-09  4.61032702e-01  3.28125078e-09  3.18980344e-09  4.61032702e-01  4.61032702e-01  3.22259422e-09  1.62332145e-07  8.15947558e-08  9.90000000e-01 
 1.00000000e+00  3.26553569e-09  4.61032671e-01  3.28125078e-09  3.18980344e-09  4.61032671e-01  4.61032671e-01  3.22259416e-09  1.62332078e-07  8.15947274e-08  1.00000000e+00 
 1.01000000e+00  3.26553569e-09  4.61032676e-01  3.28125078e-09  3.18980344e-09  4.61032676e-01  4.61032676e-01  3.22259416e-09  1.62332107e-07  8.15947914e-08  1.01000000e+00 
 1.02000000e+00  3.26553564e-09  4.61032699e-01  3.28125078e-09  3.18980344e-09  4.61032699e-01  4.61032699e-01  3.22259416e-09  1.62332147e-07  8.15946066e-08  1.02000000e+00 
 1.03000000e+00  3.26553569e-09  4.61032674e-01  3.28125083e-09  3.18980344e-09  4.61032674e-01  4.61032674e-01  3.22259422e-09  1.62332095e-07  8.15943935e-08  1.03000000e+00 
 1.04000000e+00  3.26553569e-09  4.61032709e-01  3.28125084e-09  3.18980338e-09  4.61032710e-01  4.61032709e-01  3.22259422e-09  1.62332159e-07  8.15944148e-08  1.04000000e+00 
 1.05000000e+00  3.26553569e-09  4.61032687e-01  3.28125078e-09  3.18980345e-09  4.61032687e-01  4.61032687e-01  3.22259422e-09  1.62332115e-07  8.15944006e-08  1.05000000e+00 
 1.06000000e+00  3.26553569e-09  4.61032643e-01  3.28125083e-09  3.18980343e-09  4.61032643e-01  4.61032643e-01  3.22259416e-09  1.62332071e-07  8.15942016e-08  1.06000000e+00 
 1.07000000e+00  3.26553569e-09  4.61032678e-01  3.28125083e-09  3.18980344e-09  4.61032678e-01  4.61032678e-01  3.22259422e-09  1.62332114e-07  8.15942158e-08  1.07000000e+00 
 1.08000000e+00  3.26553569e-09  4.61032679e-01  3.28125083e-09  3.18980344e-09  4.61032679e-01  4.61032679e-01  3.22259422e-09  1.62332106e-07  8.15940027e-08  1.08000000e+00 
 1.09000000e+00  3.26553569e-09  4.61032664e-01  3.28125078e-09  3.18980344e-09  4.61032664e-01  4.61032664e-01  3.22259422e-09  1.62332076e-07  8.15940595e-08  1.09000000e+00 
 1.10000000e+00  3.26553569e-09  4.61032687e-01  3.28125083e-09  3.18980344e-09  4.61032687e-01  4.61032687e-01  3.22259422e-09  1.62332109e-07  8.15939956e-08  1.10000000e+00 
