 v-sweep         v(b0)           v(b1)           v(b2)           v(b3)           v(b4)           v(b5)           v(b6)           i(vbias)        i(viout)        v(vout)        
 0.00000000e+00  4.59896978e-01  4.59896978e-01  4.59896978e-01  4.59896978e-01  4.59896978e-01  3.33776537e-09  4.59896978e-01  1.63865049e-07  1.53412905e-07  0.00000000e+00 
 1.00000000e-02  4.59896984e-01  4.59896984e-01  4.59896984e-01  4.59896984e-01  4.59896984e-01  3.33776540e-09  4.59896984e-01  1.63865053e-07  1.53412625e-07  1.00000000e-02 
 2.00000000e-02  4.59896987e-01  4.59896987e-01  4.59896987e-01  4.59896987e-01  4.59896987e-01  3.33776540e-09  4.59896987e-01  1.63865056e-07  1.53412098e-07  2.00000000e-02 
 3.00000000e-02  4.59897005e-01  4.59897005e-01  4.59897005e-01  4.59897005e-01  4.59897006e-01  3.33776540e-09  4.59897005e-01  1.63865088e-07  1.53411771e-07  3.00000000e-02 
 4.00000000e-02  4.59896974e-01  4.59896974e-01  4.59896974e-01  4.59896974e-01  4.59896974e-01  3.33776540e-09  4.59896974e-01  1.63865031e-07  1.53411351e-07  4.00000000e-02 
 5.00000000e-02  4.59896987e-01  4.59896987e-01  4.59896987e-01  4.59896987e-01  4.59896987e-01  3.33776534e-09  4.59896987e-01  1.63865047e-07  1.53411003e-07  5.00000000e-02 
 6.00000000e-02  4.59896980e-01  4.59896980e-01  4.59896980e-01  4.59896981e-01  4.59896981e-01  3.33776540e-09  4.59896981e-01  1.63865036e-07  1.53410612e-07  6.00000000e-02 
 7.00000000e-02  4.59897000e-01  4.59897000e-01  4.59897000e-01  4.59897000e-01  4.59897000e-01  3.33776540e-09  4.59897000e-01  1.63865079e-07  1.53410347e-07  7.00000000e-02 
 8.00000000e-02  4.59896996e-01  4.59896996e-01  4.59896996e-01  4.59896996e-01  4.59896996e-01  3.33776540e-09  4.59896996e-01  1.63865060e-07  1.53409950e-07  8.00000000e-02 
 9.00000000e-02  4.59897017e-01  4.59897017e-01  4.59897017e-01  4.59897017e-01  4.59897017e-01  3.33776540e-09  4.59897017e-01  1.63865107e-07  1.53409729e-07  9.00000000e-02 
 1.00000000e-01  4.59896971e-01  4.59896971e-01  4.59896971e-01  4.59896971e-01  4.59896971e-01  3.33776540e-09  4.59896971e-01  1.63865017e-07  1.53409277e-07  1.00000000e-01 
 1.10000000e-01  4.59897000e-01  4.59897000e-01  4.59897000e-01  4.59897000e-01  4.59897000e-01  3.33776540e-09  4.59897000e-01  1.63865070e-07  1.53409164e-07  1.10000000e-01 
 1.20000000e-01  4.59896984e-01  4.59896984e-01  4.59896984e-01  4.59896984e-01  4.59896984e-01  3.33776534e-09  4.59896984e-01  1.63865041e-07  1.53408802e-07  1.20000000e-01 
 1.30000000e-01  4.59897006e-01  4.59897006e-01  4.59897006e-01  4.59897006e-01  4.59897006e-01  3.33776540e-09  4.59897006e-01  1.63865080e-07  1.53408496e-07  1.30000000e-01 
 1.40000000e-01  4.59897011e-01  4.59897011e-01  4.59897011e-01  4.59897011e-01  4.59897011e-01  3.33776535e-09  4.59897011e-01  1.63865080e-07  1.53408257e-07  1.40000000e-01 
 1.50000000e-01  4.59896963e-01  4.59896963e-01  4.59896963e-01  4.59896963e-01  4.59896963e-01  3.33776540e-09  4.59896963e-01  1.63865018e-07  1.53407726e-07  1.50000000e-01 
 1.60000000e-01  4.59897010e-01  4.59897010e-01  4.59897010e-01  4.59897010e-01  4.59897010e-01  3.33776535e-09  4.59897010e-01  1.63865086e-07  1.53407708e-07  1.60000000e-01 
 1.70000000e-01  4.59896965e-01  4.59896965e-01  4.59896965e-01  4.59896965e-01  4.59896965e-01  3.33776540e-09  4.59896965e-01  1.63865019e-07  1.53407420e-07  1.70000000e-01 
 1.80000000e-01  4.59896998e-01  4.59896998e-01  4.59896998e-01  4.59896998e-01  4.59896998e-01  3.33776540e-09  4.59896998e-01  1.63865064e-07  1.53407294e-07  1.80000000e-01 
 1.90000000e-01  4.59896988e-01  4.59896988e-01  4.59896988e-01  4.59896988e-01  4.59896988e-01  3.33776534e-09  4.59896988e-01  1.63865057e-07  1.53407015e-07  1.90000000e-01 
 2.00000000e-01  4.59896991e-01  4.59896991e-01  4.59896991e-01  4.59896991e-01  4.59896991e-01  3.33776540e-09  4.59896991e-01  1.63865068e-07  1.53406861e-07  2.00000000e-01 
 2.10000000e-01  4.59897001e-01  4.59897001e-01  4.59897001e-01  4.59897001e-01  4.59897001e-01  3.33776540e-09  4.59897001e-01  1.63865075e-07  1.53406726e-07  2.10000000e-01 
 2.20000000e-01  4.59896987e-01  4.59896987e-01  4.59896986e-01  4.59896987e-01  4.59896987e-01  3.33776534e-09  4.59896987e-01  1.63865042e-07  1.53406496e-07  2.20000000e-01 
 2.30000000e-01  4.59897008e-01  4.59897008e-01  4.59897008e-01  4.59897008e-01  4.59897008e-01  3.33776535e-09  4.59897008e-01  1.63865080e-07  1.53406321e-07  2.30000000e-01 
 2.40000000e-01  4.59896985e-01  4.59896985e-01  4.59896985e-01  4.59896985e-01  4.59896985e-01  3.33776540e-09  4.59896985e-01  1.63865049e-07  1.53406024e-07  2.40000000e-01 
 2.50000000e-01  4.59896994e-01  4.59896994e-01  4.59896994e-01  4.59896994e-01  4.59896994e-01  3.33776534e-09  4.59896994e-01  1.63865052e-07  1.53405923e-07  2.50000000e-01 
 2.60000000e-01  4.59896981e-01  4.59896981e-01  4.59896981e-01  4.59896981e-01  4.59896981e-01  3.33776534e-09  4.59896981e-01  1.63865039e-07  1.53405644e-07  2.60000000e-01 
 2.70000000e-01  4.59896991e-01  4.59896991e-01  4.59896991e-01  4.59896991e-01  4.59896991e-01  3.33776540e-09  4.59896991e-01  1.63865052e-07  1.53405548e-07  2.70000000e-01 
 2.80000000e-01  4.59896996e-01  4.59896996e-01  4.59896996e-01  4.59896996e-01  4.59896996e-01  3.33776540e-09  4.59896996e-01  1.63865072e-07  1.53405358e-07  2.80000000e-01 
 2.90000000e-01  4.59896974e-01  4.59896974e-01  4.59896974e-01  4.59896974e-01  4.59896974e-01  3.33776540e-09  4.59896974e-01  1.63865036e-07  1.53405256e-07  2.90000000e-01 
 3.00000000e-01  4.59896972e-01  4.59896973e-01  4.59896972e-01  4.59896973e-01  4.59896973e-01  3.33776540e-09  4.59896973e-01  1.63865036e-07  1.53405008e-07  3.00000000e-01 
 3.10000000e-01  4.59896984e-01  4.59896984e-01  4.59896984e-01  4.59896984e-01  4.59896984e-01  3.33776540e-09  4.59896984e-01  1.63865060e-07  1.53404944e-07  3.10000000e-01 
 3.20000000e-01  4.59897010e-01  4.59897010e-01  4.59897010e-01  4.59897010e-01  4.59897010e-01  3.33776540e-09  4.59897010e-01  1.63865088e-07  1.53405022e-07  3.20000000e-01 
 3.30000000e-01  4.59897011e-01  4.59897011e-01  4.59897011e-01  4.59897011e-01  4.59897011e-01  3.33776535e-09  4.59897011e-01  1.63865095e-07  1.53404848e-07  3.30000000e-01 
 3.40000000e-01  4.59896992e-01  4.59896992e-01  4.59896992e-01  4.59896992e-01  4.59896992e-01  3.33776540e-09  4.59896992e-01  1.63865065e-07  1.53404578e-07  3.40000000e-01 
 3.50000000e-01  4.59896999e-01  4.59896999e-01  4.59896998e-01  4.59896999e-01  4.59896999e-01  3.33776540e-09  4.59896999e-01  1.63865078e-07  1.53404478e-07  3.50000000e-01 
 3.60000000e-01  4.59897008e-01  4.59897008e-01  4.59897008e-01  4.59897008e-01  4.59897009e-01  3.33776540e-09  4.59897008e-01  1.63865071e-07  1.53404418e-07  3.60000000e-01 
 3.70000000e-01  4.59896974e-01  4.59896974e-01  4.59896974e-01  4.59896974e-01  4.59896974e-01  3.33776534e-09  4.59896974e-01  1.63865038e-07  1.53404187e-07  3.70000000e-01 
 3.80000000e-01  4.59896979e-01  4.59896979e-01  4.59896979e-01  4.59896979e-01  4.59896979e-01  3.33776540e-09  4.59896979e-01  1.63865041e-07  1.53403995e-07  3.80000000e-01 
 3.90000000e-01  4.59896999e-01  4.59896999e-01  4.59896999e-01  4.59896999e-01  4.59896999e-01  3.33776540e-09  4.59896999e-01  1.63865082e-07  1.53403864e-07  3.90000000e-01 
 4.00000000e-01  4.59896978e-01  4.59896978e-01  4.59896978e-01  4.59896978e-01  4.59896978e-01  3.33776540e-09  4.59896978e-01  1.63865039e-07  1.53403622e-07  4.00000000e-01 
 4.10000000e-01  4.59897007e-01  4.59897007e-01  4.59897007e-01  4.59897007e-01  4.59897007e-01  3.33776540e-09  4.59897007e-01  1.63865081e-07  1.53403743e-07  4.10000000e-01 
 4.20000000e-01  4.59896994e-01  4.59896994e-01  4.59896994e-01  4.59896994e-01  4.59896994e-01  3.33776540e-09  4.59896994e-01  1.63865073e-07  1.53403509e-07  4.20000000e-01 
 4.30000000e-01  4.59896988e-01  4.59896989e-01  4.59896988e-01  4.59896989e-01  4.59896989e-01  3.33776534e-09  4.59896989e-01  1.63865046e-07  1.53403349e-07  4.30000000e-01 
 4.40000000e-01  4.59897004e-01  4.59897004e-01  4.59897004e-01  4.59897004e-01  4.59897004e-01  3.33776540e-09  4.59897004e-01  1.63865078e-07  1.53403320e-07  4.40000000e-01 
 4.50000000e-01  4.59896981e-01  4.59896981e-01  4.59896981e-01  4.59896981e-01  4.59896981e-01  3.33776540e-09  4.59896981e-01  1.63865042e-07  1.53403089e-07  4.50000000e-01 
 4.60000000e-01  4.59896998e-01  4.59896998e-01  4.59896997e-01  4.59896998e-01  4.59896998e-01  3.33776540e-09  4.59896998e-01  1.63865067e-07  1.53403093e-07  4.60000000e-01 
 4.70000000e-01  4.59896998e-01  4.59896998e-01  4.59896998e-01  4.59896998e-01  4.59896999e-01  3.33776540e-09  4.59896998e-01  1.63865073e-07  1.53402901e-07  4.70000000e-01 
 4.80000000e-01  4.59896992e-01  4.59896992e-01  4.59896992e-01  4.59896992e-01  4.59896992e-01  3.33776540e-09  4.59896992e-01  1.63865062e-07  1.53402752e-07  4.80000000e-01 
 4.90000000e-01  4.59897012e-01  4.59897012e-01  4.59897012e-01  4.59897012e-01  4.59897012e-01  3.33776535e-09  4.59897012e-01  1.63865094e-07  1.53402720e-07  4.90000000e-01 
 5.00000000e-01  4.59897005e-01  4.59897005e-01  4.59897005e-01  4.59897005e-01  4.59897005e-01  3.33776535e-09  4.59897005e-01  1.63865068e-07  1.53402642e-07  5.00000000e-01 
 5.10000000e-01  4.59897018e-01  4.59897018e-01  4.59897018e-01  4.59897018e-01  4.59897018e-01  3.33776540e-09  4.59897018e-01  1.63865107e-07  1.53402532e-07  5.10000000e-01 
 5.20000000e-01  4.59896984e-01  4.59896984e-01  4.59896984e-01  4.59896984e-01  4.59896984e-01  3.33776540e-09  4.59896984e-01  1.63865038e-07  1.53402212e-07  5.20000000e-01 
 5.30000000e-01  4.59897000e-01  4.59897000e-01  4.59897000e-01  4.59897000e-01  4.59897000e-01  3.33776534e-09  4.59897000e-01  1.63865069e-07  1.53402187e-07  5.30000000e-01 
 5.40000000e-01  4.59896993e-01  4.59896993e-01  4.59896993e-01  4.59896993e-01  4.59896993e-01  3.33776540e-09  4.59896993e-01  1.63865060e-07  1.53402148e-07  5.40000000e-01 
 5.50000000e-01  4.59896980e-01  4.59896980e-01  4.59896980e-01  4.59896980e-01  4.59896980e-01  3.33776540e-09  4.59896980e-01  1.63865055e-07  1.53402031e-07  5.50000000e-01 
 5.60000000e-01  4.59897013e-01  4.59897013e-01  4.59897013e-01  4.59897013e-01  4.59897013e-01  3.33776540e-09  4.59897013e-01  1.63865092e-07  1.53401924e-07  5.60000000e-01 
 5.70000000e-01  4.59896975e-01  4.59896975e-01  4.59896975e-01  4.59896975e-01  4.59896975e-01  3.33776534e-09  4.59896975e-01  1.63865039e-07  1.53401789e-07  5.70000000e-01 
 5.80000000e-01  4.59896996e-01  4.59896996e-01  4.59896996e-01  4.59896996e-01  4.59896996e-01  3.33776534e-09  4.59896996e-01  1.63865067e-07  1.53401700e-07  5.80000000e-01 
 5.90000000e-01  4.59896948e-01  4.59896948e-01  4.59896948e-01  4.59896948e-01  4.59896948e-01  3.33776540e-09  4.59896948e-01  1.63864984e-07  1.53401473e-07  5.90000000e-01 
 6.00000000e-01  4.59896965e-01  4.59896965e-01  4.59896965e-01  4.59896965e-01  4.59896965e-01  3.33776540e-09  4.59896965e-01  1.63865025e-07  1.53401388e-07  6.00000000e-01 
 6.10000000e-01  4.59897002e-01  4.59897002e-01  4.59897002e-01  4.59897002e-01  4.59897002e-01  3.33776535e-09  4.59897002e-01  1.63865084e-07  1.53401366e-07  6.10000000e-01 
 6.20000000e-01  4.59896976e-01  4.59896976e-01  4.59896976e-01  4.59896976e-01  4.59896976e-01  3.33776540e-09  4.59896976e-01  1.63865031e-07  1.53401174e-07  6.20000000e-01 
 6.30000000e-01  4.59896999e-01  4.59896999e-01  4.59896999e-01  4.59896999e-01  4.59896999e-01  3.33776540e-09  4.59896999e-01  1.63865066e-07  1.53401132e-07  6.30000000e-01 
 6.40000000e-01  4.59896992e-01  4.59896992e-01  4.59896992e-01  4.59896992e-01  4.59896992e-01  3.33776534e-09  4.59896992e-01  1.63865061e-07  1.53401004e-07  6.40000000e-01 
 6.50000000e-01  4.59897010e-01  4.59897010e-01  4.59897010e-01  4.59897010e-01  4.59897010e-01  3.33776540e-09  4.59897010e-01  1.63865084e-07  1.53401047e-07  6.50000000e-01 
 6.60000000e-01  4.59896982e-01  4.59896982e-01  4.59896982e-01  4.59896982e-01  4.59896982e-01  3.33776540e-09  4.59896982e-01  1.63865046e-07  1.53400769e-07  6.60000000e-01 
 6.70000000e-01  4.59896977e-01  4.59896977e-01  4.59896977e-01  4.59896977e-01  4.59896977e-01  3.33776540e-09  4.59896977e-01  1.63865026e-07  1.53400649e-07  6.70000000e-01 
 6.80000000e-01  4.59897009e-01  4.59897009e-01  4.59897009e-01  4.59897009e-01  4.59897009e-01  3.33776535e-09  4.59897009e-01  1.63865078e-07  1.53400606e-07  6.80000000e-01 
 6.90000000e-01  4.59896993e-01  4.59896993e-01  4.59896993e-01  4.59896993e-01  4.59896993e-01  3.33776540e-09  4.59896993e-01  1.63865054e-07  1.53400414e-07  6.90000000e-01 
 7.00000000e-01  4.59896995e-01  4.59896995e-01  4.59896995e-01  4.59896995e-01  4.59896995e-01  3.33776540e-09  4.59896995e-01  1.63865063e-07  1.53400372e-07  7.00000000e-01 
 7.10000000e-01  4.59897022e-01  4.59897022e-01  4.59897022e-01  4.59897022e-01  4.59897022e-01  3.33776535e-09  4.59897022e-01  1.63865102e-07  1.53400350e-07  7.10000000e-01 
 7.20000000e-01  4.59896978e-01  4.59896978e-01  4.59896978e-01  4.59896978e-01  4.59896978e-01  3.33776534e-09  4.59896978e-01  1.63865028e-07  1.53400109e-07  7.20000000e-01 
 7.30000000e-01  4.59897026e-01  4.59897026e-01  4.59897026e-01  4.59897026e-01  4.59897026e-01  3.33776540e-09  4.59897026e-01  1.63865116e-07  1.53400215e-07  7.30000000e-01 
 7.40000000e-01  4.59896974e-01  4.59896974e-01  4.59896974e-01  4.59896974e-01  4.59896974e-01  3.33776534e-09  4.59896974e-01  1.63865038e-07  1.53399789e-07  7.40000000e-01 
 7.50000000e-01  4.59896998e-01  4.59896998e-01  4.59896997e-01  4.59896998e-01  4.59896998e-01  3.33776540e-09  4.59896998e-01  1.63865078e-07  1.53399760e-07  7.50000000e-01 
 7.60000000e-01  4.59896984e-01  4.59896984e-01  4.59896984e-01  4.59896984e-01  4.59896984e-01  3.33776534e-09  4.59896984e-01  1.63865046e-07  1.53399732e-07  7.60000000e-01 
 7.70000000e-01  4.59897010e-01  4.59897010e-01  4.59897010e-01  4.59897010e-01  4.59897010e-01  3.33776535e-09  4.59897010e-01  1.63865089e-07  1.53399647e-07  7.70000000e-01 
 7.80000000e-01  4.59896993e-01  4.59896993e-01  4.59896993e-01  4.59896993e-01  4.59896993e-01  3.33776540e-09  4.59896993e-01  1.63865058e-07  1.53399412e-07  7.80000000e-01 
 7.90000000e-01  4.59896988e-01  4.59896988e-01  4.59896988e-01  4.59896988e-01  4.59896988e-01  3.33776540e-09  4.59896988e-01  1.63865059e-07  1.53399377e-07  7.90000000e-01 
 8.00000000e-01  4.59897011e-01  4.59897011e-01  4.59897011e-01  4.59897011e-01  4.59897011e-01  3.33776540e-09  4.59897011e-01  1.63865092e-07  1.53399256e-07  8.00000000e-01 
 8.10000000e-01  4.59896974e-01  4.59896974e-01  4.59896974e-01  4.59896974e-01  4.59896974e-01  3.33776540e-09  4.59896974e-01  1.63865034e-07  1.53398972e-07  8.10000000e-01 
 8.20000000e-01  4.59897012e-01  4.59897012e-01  4.59897012e-01  4.59897012e-01  4.59897012e-01  3.33776535e-09  4.59897012e-01  1.63865082e-07  1.53399107e-07  8.20000000e-01 
 8.30000000e-01  4.59896999e-01  4.59896999e-01  4.59896999e-01  4.59896999e-01  4.59896999e-01  3.33776534e-09  4.59896999e-01  1.63865073e-07  1.53399021e-07  8.30000000e-01 
 8.40000000e-01  4.59896997e-01  4.59896997e-01  4.59896997e-01  4.59896997e-01  4.59896997e-01  3.33776534e-09  4.59896997e-01  1.63865076e-07  1.53398794e-07  8.40000000e-01 
 8.50000000e-01  4.59897022e-01  4.59897022e-01  4.59897022e-01  4.59897022e-01  4.59897022e-01  3.33776535e-09  4.59897022e-01  1.63865089e-07  1.53398730e-07  8.50000000e-01 
 8.60000000e-01  4.59896990e-01  4.59896990e-01  4.59896990e-01  4.59896990e-01  4.59896990e-01  3.33776534e-09  4.59896990e-01  1.63865048e-07  1.53398638e-07  8.60000000e-01 
 8.70000000e-01  4.59896994e-01  4.59896994e-01  4.59896994e-01  4.59896994e-01  4.59896994e-01  3.33776540e-09  4.59896994e-01  1.63865070e-07  1.53398517e-07  8.70000000e-01 
 8.80000000e-01  4.59897003e-01  4.59897003e-01  4.59897003e-01  4.59897003e-01  4.59897003e-01  3.33776535e-09  4.59897003e-01  1.63865083e-07  1.53398304e-07  8.80000000e-01 
 8.90000000e-01  4.59896972e-01  4.59896972e-01  4.59896971e-01  4.59896972e-01  4.59896972e-01  3.33776540e-09  4.59896972e-01  1.63865033e-07  1.53398041e-07  8.90000000e-01 
 9.00000000e-01  4.59896972e-01  4.59896972e-01  4.59896972e-01  4.59896972e-01  4.59896972e-01  3.33776534e-09  4.59896972e-01  1.63865031e-07  1.53397913e-07  9.00000000e-01 
 9.10000000e-01  4.59896992e-01  4.59896992e-01  4.59896992e-01  4.59896992e-01  4.59896992e-01  3.33776534e-09  4.59896992e-01  1.63865057e-07  1.53397984e-07  9.10000000e-01 
 9.20000000e-01  4.59896982e-01  4.59896982e-01  4.59896982e-01  4.59896982e-01  4.59896982e-01  3.33776534e-09  4.59896982e-01  1.63865060e-07  1.53397814e-07  9.20000000e-01 
 9.30000000e-01  4.59896970e-01  4.59896970e-01  4.59896970e-01  4.59896970e-01  4.59896970e-01  3.33776540e-09  4.59896970e-01  1.63865026e-07  1.53397707e-07  9.30000000e-01 
 9.40000000e-01  4.59897003e-01  4.59897003e-01  4.59897003e-01  4.59897003e-01  4.59897003e-01  3.33776540e-09  4.59897003e-01  1.63865075e-07  1.53397529e-07  9.40000000e-01 
 9.50000000e-01  4.59896993e-01  4.59896993e-01  4.59896993e-01  4.59896993e-01  4.59896993e-01  3.33776540e-09  4.59896993e-01  1.63865054e-07  1.53397352e-07  9.50000000e-01 
 9.60000000e-01  4.59897003e-01  4.59897003e-01  4.59897003e-01  4.59897003e-01  4.59897003e-01  3.33776535e-09  4.59897003e-01  1.63865083e-07  1.53397387e-07  9.60000000e-01 
 9.70000000e-01  4.59896989e-01  4.59896989e-01  4.59896989e-01  4.59896989e-01  4.59896989e-01  3.33776534e-09  4.59896989e-01  1.63865062e-07  1.53397238e-07  9.70000000e-01 
 9.80000000e-01  4.59896997e-01  4.59896997e-01  4.59896997e-01  4.59896997e-01  4.59896997e-01  3.33776534e-09  4.59896997e-01  1.63865068e-07  1.53397004e-07  9.80000000e-01 
 9.90000000e-01  4.59896958e-01  4.59896958e-01  4.59896958e-01  4.59896958e-01  4.59896958e-01  3.33776534e-09  4.59896958e-01  1.63865015e-07  1.53396655e-07  9.90000000e-01 
 1.00000000e+00  4.59896992e-01  4.59896992e-01  4.59896992e-01  4.59896992e-01  4.59896993e-01  3.33776540e-09  4.59896993e-01  1.63865052e-07  1.53396883e-07  1.00000000e+00 
 1.01000000e+00  4.59897001e-01  4.59897001e-01  4.59897001e-01  4.59897001e-01  4.59897001e-01  3.33776534e-09  4.59897001e-01  1.63865069e-07  1.53396712e-07  1.01000000e+00 
 1.02000000e+00  4.59896969e-01  4.59896969e-01  4.59896968e-01  4.59896969e-01  4.59896969e-01  3.33776534e-09  4.59896969e-01  1.63865027e-07  1.53396378e-07  1.02000000e+00 
 1.03000000e+00  4.59896968e-01  4.59896968e-01  4.59896968e-01  4.59896968e-01  4.59896968e-01  3.33776540e-09  4.59896968e-01  1.63865030e-07  1.53396392e-07  1.03000000e+00 
 1.04000000e+00  4.59897001e-01  4.59897001e-01  4.59897001e-01  4.59897001e-01  4.59897001e-01  3.33776540e-09  4.59897001e-01  1.63865062e-07  1.53396236e-07  1.04000000e+00 
 1.05000000e+00  4.59896972e-01  4.59896972e-01  4.59896972e-01  4.59896972e-01  4.59896972e-01  3.33776540e-09  4.59896972e-01  1.63865031e-07  1.53396009e-07  1.05000000e+00 
 1.06000000e+00  4.59896989e-01  4.59896989e-01  4.59896989e-01  4.59896989e-01  4.59896989e-01  3.33776534e-09  4.59896989e-01  1.63865067e-07  1.53395916e-07  1.06000000e+00 
 1.07000000e+00  4.59896980e-01  4.59896980e-01  4.59896980e-01  4.59896980e-01  4.59896980e-01  3.33776540e-09  4.59896980e-01  1.63865037e-07  1.53395625e-07  1.07000000e+00 
 1.08000000e+00  4.59896976e-01  4.59896976e-01  4.59896976e-01  4.59896976e-01  4.59896976e-01  3.33776540e-09  4.59896976e-01  1.63865031e-07  1.53395561e-07  1.08000000e+00 
 1.09000000e+00  4.59896999e-01  4.59896999e-01  4.59896999e-01  4.59896999e-01  4.59896999e-01  3.33776534e-09  4.59896999e-01  1.63865079e-07  1.53395582e-07  1.09000000e+00 
 1.10000000e+00  4.59896985e-01  4.59896986e-01  4.59896985e-01  4.59896986e-01  4.59896986e-01  3.33776534e-09  4.59896986e-01  1.63865041e-07  1.53395277e-07  1.10000000e+00 
