 v-sweep         v(b0)           v(b1)           v(b2)           v(b3)           v(b4)           v(b5)           v(b6)           i(vbias)        i(viout)        v(vout)        
 0.00000000e+00  4.56258962e-01  4.56258962e-01  4.56258962e-01  4.56258962e-01  4.56258962e-01  3.39452638e-09  3.28274079e-09  1.55691832e-07  4.94448791e-08  0.00000000e+00 
 1.00000000e-02  4.56258941e-01  4.56258941e-01  4.56258941e-01  4.56258941e-01  4.56258941e-01  3.39452641e-09  3.28274082e-09  1.55691794e-07  4.94444810e-08  1.00000000e-02 
 2.00000000e-02  4.56258934e-01  4.56258934e-01  4.56258934e-01  4.56258934e-01  4.56258934e-01  3.39452641e-09  3.28274086e-09  1.55691785e-07  4.94441028e-08  2.00000000e-02 
 3.00000000e-02  4.56258971e-01  4.56258971e-01  4.56258971e-01  4.56258971e-01  4.56258971e-01  3.39452642e-09  3.28274081e-09  1.55691831e-07  4.94437407e-08  3.00000000e-02 
 4.00000000e-02  4.56258967e-01  4.56258967e-01  4.56258967e-01  4.56258967e-01  4.56258967e-01  3.39452642e-09  3.28274087e-09  1.55691845e-07  4.94433934e-08  4.00000000e-02 
 5.00000000e-02  4.56258963e-01  4.56258963e-01  4.56258963e-01  4.56258963e-01  4.56258963e-01  3.39452642e-09  3.28274081e-09  1.55691830e-07  4.94431007e-08  5.00000000e-02 
 6.00000000e-02  4.56258975e-01  4.56258975e-01  4.56258975e-01  4.56258975e-01  4.56258975e-01  3.39452642e-09  3.28274081e-09  1.55691838e-07  4.94428223e-08  6.00000000e-02 
 7.00000000e-02  4.56258953e-01  4.56258953e-01  4.56258953e-01  4.56258953e-01  4.56258953e-01  3.39452642e-09  3.28274081e-09  1.55691822e-07  4.94424892e-08  7.00000000e-02 
 8.00000000e-02  4.56258958e-01  4.56258958e-01  4.56258958e-01  4.56258958e-01  4.56258958e-01  3.39452642e-09  3.28274081e-09  1.55691810e-07  4.94422432e-08  8.00000000e-02 
 9.00000000e-02  4.56258974e-01  4.56258974e-01  4.56258974e-01  4.56258974e-01  4.56258974e-01  3.39452642e-09  3.28274081e-09  1.55691839e-07  4.94418719e-08  9.00000000e-02 
 1.00000000e-01  4.56258974e-01  4.56258974e-01  4.56258974e-01  4.56258975e-01  4.56258974e-01  3.39452642e-09  3.28274081e-09  1.55691840e-07  4.94415513e-08  1.00000000e-01 
 1.10000000e-01  4.56258982e-01  4.56258982e-01  4.56258982e-01  4.56258982e-01  4.56258982e-01  3.39452642e-09  3.28274087e-09  1.55691857e-07  4.94414216e-08  1.10000000e-01 
 1.20000000e-01  4.56258966e-01  4.56258966e-01  4.56258966e-01  4.56258966e-01  4.56258966e-01  3.39452642e-09  3.28274081e-09  1.55691837e-07  4.94411276e-08  1.20000000e-01 
 1.30000000e-01  4.56258982e-01  4.56258982e-01  4.56258982e-01  4.56258982e-01  4.56258982e-01  3.39452642e-09  3.28274081e-09  1.55691860e-07  4.94409207e-08  1.30000000e-01 
 1.40000000e-01  4.56258944e-01  4.56258944e-01  4.56258944e-01  4.56258944e-01  4.56258944e-01  3.39452641e-09  3.28274087e-09  1.55691801e-07  4.94406800e-08  1.40000000e-01 
 1.50000000e-01  4.56258980e-01  4.56258981e-01  4.56258981e-01  4.56258981e-01  4.56258981e-01  3.39452642e-09  3.28274081e-09  1.55691842e-07  4.94405921e-08  1.50000000e-01 
 1.60000000e-01  4.56258954e-01  4.56258955e-01  4.56258955e-01  4.56258955e-01  4.56258955e-01  3.39452642e-09  3.28274081e-09  1.55691813e-07  4.94404304e-08  1.60000000e-01 
 1.70000000e-01  4.56258973e-01  4.56258973e-01  4.56258973e-01  4.56258973e-01  4.56258973e-01  3.39452642e-09  3.28274081e-09  1.55691848e-07  4.94401426e-08  1.70000000e-01 
 1.80000000e-01  4.56258960e-01  4.56258960e-01  4.56258960e-01  4.56258960e-01  4.56258960e-01  3.39452642e-09  3.28274081e-09  1.55691827e-07  4.94400005e-08  1.80000000e-01 
 1.90000000e-01  4.56258966e-01  4.56258966e-01  4.56258966e-01  4.56258966e-01  4.56258966e-01  3.39452642e-09  3.28274081e-09  1.55691834e-07  4.94397483e-08  1.90000000e-01 
 2.00000000e-01  4.56258964e-01  4.56258964e-01  4.56258964e-01  4.56258964e-01  4.56258964e-01  3.39452642e-09  3.28274081e-09  1.55691818e-07  4.94397128e-08  2.00000000e-01 
 2.10000000e-01  4.56258954e-01  4.56258954e-01  4.56258954e-01  4.56258954e-01  4.56258954e-01  3.39452642e-09  3.28274081e-09  1.55691812e-07  4.94394481e-08  2.10000000e-01 
 2.20000000e-01  4.56258995e-01  4.56258995e-01  4.56258995e-01  4.56258995e-01  4.56258995e-01  3.39452642e-09  3.28274081e-09  1.55691872e-07  4.94393859e-08  2.20000000e-01 
 2.30000000e-01  4.56258958e-01  4.56258958e-01  4.56258958e-01  4.56258958e-01  4.56258958e-01  3.39452642e-09  3.28274081e-09  1.55691821e-07  4.94391159e-08  2.30000000e-01 
 2.40000000e-01  4.56258936e-01  4.56258936e-01  4.56258936e-01  4.56258936e-01  4.56258936e-01  3.39452641e-09  3.28274081e-09  1.55691787e-07  4.94389578e-08  2.40000000e-01 
 2.50000000e-01  4.56258951e-01  4.56258951e-01  4.56258951e-01  4.56258951e-01  4.56258951e-01  3.39452642e-09  3.28274087e-09  1.55691812e-07  4.94388654e-08  2.50000000e-01 
 2.60000000e-01  4.56258962e-01  4.56258962e-01  4.56258962e-01  4.56258962e-01  4.56258962e-01  3.39452642e-09  3.28274081e-09  1.55691829e-07  4.94387553e-08  2.60000000e-01 
 2.70000000e-01  4.56258960e-01  4.56258960e-01  4.56258960e-01  4.56258960e-01  4.56258960e-01  3.39452642e-09  3.28274081e-09  1.55691820e-07  4.94386967e-08  2.70000000e-01 
 2.80000000e-01  4.56258966e-01  4.56258966e-01  4.56258966e-01  4.56258966e-01  4.56258966e-01  3.39452642e-09  3.28274081e-09  1.55691836e-07  4.94385795e-08  2.80000000e-01 
 2.90000000e-01  4.56258955e-01  4.56258955e-01  4.56258955e-01  4.56258955e-01  4.56258955e-01  3.39452642e-09  3.28274081e-09  1.55691810e-07  4.94383876e-08  2.90000000e-01 
 3.00000000e-01  4.56258973e-01  4.56258973e-01  4.56258973e-01  4.56258973e-01  4.56258973e-01  3.39452642e-09  3.28274081e-09  1.55691838e-07  4.94384480e-08  3.00000000e-01 
 3.10000000e-01  4.56258971e-01  4.56258971e-01  4.56258971e-01  4.56258971e-01  4.56258971e-01  3.39452642e-09  3.28274081e-09  1.55691845e-07  4.94380998e-08  3.10000000e-01 
 3.20000000e-01  4.56258976e-01  4.56258976e-01  4.56258977e-01  4.56258977e-01  4.56258977e-01  3.39452642e-09  3.28274081e-09  1.55691846e-07  4.94382135e-08  3.20000000e-01 
 3.30000000e-01  4.56258966e-01  4.56258966e-01  4.56258966e-01  4.56258966e-01  4.56258966e-01  3.39452642e-09  3.28274081e-09  1.55691838e-07  4.94380501e-08  3.30000000e-01 
 3.40000000e-01  4.56258944e-01  4.56258944e-01  4.56258944e-01  4.56258944e-01  4.56258944e-01  3.39452641e-09  3.28274081e-09  1.55691801e-07  4.94379186e-08  3.40000000e-01 
 3.50000000e-01  4.56258957e-01  4.56258957e-01  4.56258957e-01  4.56258957e-01  4.56258957e-01  3.39452642e-09  3.28274081e-09  1.55691822e-07  4.94378014e-08  3.50000000e-01 
 3.60000000e-01  4.56258983e-01  4.56258983e-01  4.56258983e-01  4.56258983e-01  4.56258983e-01  3.39452642e-09  3.28274081e-09  1.55691838e-07  4.94377623e-08  3.60000000e-01 
 3.70000000e-01  4.56259006e-01  4.56259006e-01  4.56259006e-01  4.56259006e-01  4.56259006e-01  3.39452642e-09  3.28274087e-09  1.55691895e-07  4.94377446e-08  3.70000000e-01 
 3.80000000e-01  4.56258957e-01  4.56258957e-01  4.56258957e-01  4.56258958e-01  4.56258957e-01  3.39452642e-09  3.28274081e-09  1.55691800e-07  4.94376451e-08  3.80000000e-01 
 3.90000000e-01  4.56258983e-01  4.56258983e-01  4.56258983e-01  4.56258983e-01  4.56258983e-01  3.39452642e-09  3.28274081e-09  1.55691867e-07  4.94375669e-08  3.90000000e-01 
 4.00000000e-01  4.56258978e-01  4.56258978e-01  4.56258978e-01  4.56258978e-01  4.56258978e-01  3.39452642e-09  3.28274081e-09  1.55691845e-07  4.94375527e-08  4.00000000e-01 
 4.10000000e-01  4.56258965e-01  4.56258965e-01  4.56258965e-01  4.56258965e-01  4.56258965e-01  3.39452642e-09  3.28274087e-09  1.55691835e-07  4.94373644e-08  4.10000000e-01 
 4.20000000e-01  4.56258956e-01  4.56258956e-01  4.56258956e-01  4.56258956e-01  4.56258956e-01  3.39452642e-09  3.28274081e-09  1.55691818e-07  4.94373573e-08  4.20000000e-01 
 4.30000000e-01  4.56258978e-01  4.56258978e-01  4.56258978e-01  4.56258978e-01  4.56258978e-01  3.39452642e-09  3.28274081e-09  1.55691839e-07  4.94373147e-08  4.30000000e-01 
 4.40000000e-01  4.56258981e-01  4.56258981e-01  4.56258981e-01  4.56258981e-01  4.56258981e-01  3.39452647e-09  3.28274081e-09  1.55691857e-07  4.94371264e-08  4.40000000e-01 
 4.50000000e-01  4.56258965e-01  4.56258965e-01  4.56258965e-01  4.56258966e-01  4.56258965e-01  3.39452642e-09  3.28274081e-09  1.55691827e-07  4.94371051e-08  4.50000000e-01 
 4.60000000e-01  4.56258957e-01  4.56258957e-01  4.56258957e-01  4.56258957e-01  4.56258957e-01  3.39452642e-09  3.28274081e-09  1.55691827e-07  4.94369807e-08  4.60000000e-01 
 4.70000000e-01  4.56258957e-01  4.56258957e-01  4.56258957e-01  4.56258957e-01  4.56258957e-01  3.39452642e-09  3.28274081e-09  1.55691815e-07  4.94369132e-08  4.70000000e-01 
 4.80000000e-01  4.56258944e-01  4.56258944e-01  4.56258944e-01  4.56258944e-01  4.56258944e-01  3.39452641e-09  3.28274087e-09  1.55691796e-07  4.94368777e-08  4.80000000e-01 
 4.90000000e-01  4.56258960e-01  4.56258961e-01  4.56258961e-01  4.56258961e-01  4.56258961e-01  3.39452642e-09  3.28274081e-09  1.55691816e-07  4.94367427e-08  4.90000000e-01 
 5.00000000e-01  4.56258971e-01  4.56258971e-01  4.56258971e-01  4.56258971e-01  4.56258971e-01  3.39452642e-09  3.28274081e-09  1.55691820e-07  4.94366965e-08  5.00000000e-01 
 5.10000000e-01  4.56258968e-01  4.56258969e-01  4.56258969e-01  4.56258969e-01  4.56258969e-01  3.39452642e-09  3.28274081e-09  1.55691851e-07  4.94366930e-08  5.10000000e-01 
 5.20000000e-01  4.56258986e-01  4.56258986e-01  4.56258986e-01  4.56258986e-01  4.56258986e-01  3.39452642e-09  3.28274081e-09  1.55691863e-07  4.94367711e-08  5.20000000e-01 
 5.30000000e-01  4.56258962e-01  4.56258962e-01  4.56258962e-01  4.56258962e-01  4.56258962e-01  3.39452642e-09  3.28274081e-09  1.55691820e-07  4.94366361e-08  5.30000000e-01 
 5.40000000e-01  4.56258980e-01  4.56258980e-01  4.56258980e-01  4.56258980e-01  4.56258980e-01  3.39452642e-09  3.28274081e-09  1.55691844e-07  4.94365260e-08  5.40000000e-01 
 5.50000000e-01  4.56258954e-01  4.56258954e-01  4.56258954e-01  4.56258954e-01  4.56258954e-01  3.39452642e-09  3.28274081e-09  1.55691810e-07  4.94364336e-08  5.50000000e-01 
 5.60000000e-01  4.56258942e-01  4.56258942e-01  4.56258942e-01  4.56258942e-01  4.56258942e-01  3.39452641e-09  3.28274081e-09  1.55691793e-07  4.94362666e-08  5.60000000e-01 
 5.70000000e-01  4.56258943e-01  4.56258943e-01  4.56258943e-01  4.56258943e-01  4.56258943e-01  3.39452641e-09  3.28274081e-09  1.55691801e-07  4.94362453e-08  5.70000000e-01 
 5.80000000e-01  4.56258984e-01  4.56258984e-01  4.56258984e-01  4.56258984e-01  4.56258984e-01  3.39452642e-09  3.28274087e-09  1.55691870e-07  4.94363448e-08  5.80000000e-01 
 5.90000000e-01  4.56258950e-01  4.56258950e-01  4.56258950e-01  4.56258950e-01  4.56258950e-01  3.39452642e-09  3.28274081e-09  1.55691817e-07  4.94363164e-08  5.90000000e-01 
 6.00000000e-01  4.56258941e-01  4.56258941e-01  4.56258941e-01  4.56258941e-01  4.56258941e-01  3.39452641e-09  3.28274087e-09  1.55691799e-07  4.94361316e-08  6.00000000e-01 
 6.10000000e-01  4.56258968e-01  4.56258968e-01  4.56258968e-01  4.56258968e-01  4.56258968e-01  3.39452642e-09  3.28274081e-09  1.55691828e-07  4.94361458e-08  6.10000000e-01 
 6.20000000e-01  4.56258962e-01  4.56258962e-01  4.56258962e-01  4.56258962e-01  4.56258962e-01  3.39452642e-09  3.28274081e-09  1.55691825e-07  4.94360677e-08  6.20000000e-01 
 6.30000000e-01  4.56258950e-01  4.56258950e-01  4.56258950e-01  4.56258950e-01  4.56258950e-01  3.39452642e-09  3.28274081e-09  1.55691803e-07  4.94360108e-08  6.30000000e-01 
 6.40000000e-01  4.56258966e-01  4.56258966e-01  4.56258966e-01  4.56258966e-01  4.56258966e-01  3.39452642e-09  3.28274081e-09  1.55691837e-07  4.94359043e-08  6.40000000e-01 
 6.50000000e-01  4.56258984e-01  4.56258984e-01  4.56258984e-01  4.56258984e-01  4.56258984e-01  3.39452642e-09  3.28274081e-09  1.55691863e-07  4.94358829e-08  6.50000000e-01 
 6.60000000e-01  4.56258965e-01  4.56258965e-01  4.56258965e-01  4.56258965e-01  4.56258965e-01  3.39452642e-09  3.28274081e-09  1.55691830e-07  4.94358687e-08  6.60000000e-01 
 6.70000000e-01  4.56258962e-01  4.56258962e-01  4.56258962e-01  4.56258962e-01  4.56258962e-01  3.39452642e-09  3.28274081e-09  1.55691812e-07  4.94356769e-08  6.70000000e-01 
 6.80000000e-01  4.56258970e-01  4.56258970e-01  4.56258970e-01  4.56258970e-01  4.56258970e-01  3.39452636e-09  3.28274081e-09  1.55691838e-07  4.94357479e-08  6.80000000e-01 
 6.90000000e-01  4.56258961e-01  4.56258961e-01  4.56258961e-01  4.56258961e-01  4.56258961e-01  3.39452642e-09  3.28274081e-09  1.55691814e-07  4.94355845e-08  6.90000000e-01 
 7.00000000e-01  4.56258964e-01  4.56258965e-01  4.56258965e-01  4.56258965e-01  4.56258965e-01  3.39452642e-09  3.28274081e-09  1.55691823e-07  4.94354495e-08  7.00000000e-01 
 7.10000000e-01  4.56258988e-01  4.56258988e-01  4.56258988e-01  4.56258988e-01  4.56258988e-01  3.39452642e-09  3.28274081e-09  1.55691853e-07  4.94356200e-08  7.10000000e-01 
 7.20000000e-01  4.56258966e-01  4.56258966e-01  4.56258966e-01  4.56258966e-01  4.56258966e-01  3.39452642e-09  3.28274081e-09  1.55691834e-07  4.94355064e-08  7.20000000e-01 
 7.30000000e-01  4.56258995e-01  4.56258995e-01  4.56258995e-01  4.56258995e-01  4.56258995e-01  3.39452642e-09  3.28274081e-09  1.55691867e-07  4.94354353e-08  7.30000000e-01 
 7.40000000e-01  4.56258947e-01  4.56258947e-01  4.56258947e-01  4.56258947e-01  4.56258947e-01  3.39452641e-09  3.28274081e-09  1.55691796e-07  4.94352648e-08  7.40000000e-01 
 7.50000000e-01  4.56258972e-01  4.56258972e-01  4.56258972e-01  4.56258972e-01  4.56258972e-01  3.39452642e-09  3.28274081e-09  1.55691844e-07  4.94353074e-08  7.50000000e-01 
 7.60000000e-01  4.56258962e-01  4.56258962e-01  4.56258962e-01  4.56258962e-01  4.56258962e-01  3.39452642e-09  3.28274081e-09  1.55691821e-07  4.94351937e-08  7.60000000e-01 
 7.70000000e-01  4.56258980e-01  4.56258980e-01  4.56258980e-01  4.56258980e-01  4.56258980e-01  3.39452642e-09  3.28274087e-09  1.55691867e-07  4.94351369e-08  7.70000000e-01 
 7.80000000e-01  4.56258988e-01  4.56258988e-01  4.56258988e-01  4.56258989e-01  4.56258988e-01  3.39452642e-09  3.28274087e-09  1.55691857e-07  4.94352363e-08  7.80000000e-01 
 7.90000000e-01  4.56258978e-01  4.56258978e-01  4.56258978e-01  4.56258978e-01  4.56258978e-01  3.39452642e-09  3.28274081e-09  1.55691848e-07  4.94349450e-08  7.90000000e-01 
 8.00000000e-01  4.56258970e-01  4.56258970e-01  4.56258970e-01  4.56258970e-01  4.56258970e-01  3.39452642e-09  3.28274081e-09  1.55691844e-07  4.94349379e-08  8.00000000e-01 
 8.10000000e-01  4.56258978e-01  4.56258978e-01  4.56258978e-01  4.56258978e-01  4.56258978e-01  3.39452642e-09  3.28274081e-09  1.55691838e-07  4.94349308e-08  8.10000000e-01 
 8.20000000e-01  4.56258944e-01  4.56258944e-01  4.56258944e-01  4.56258944e-01  4.56258944e-01  3.39452641e-09  3.28274081e-09  1.55691805e-07  4.94348882e-08  8.20000000e-01 
 8.30000000e-01  4.56258974e-01  4.56258974e-01  4.56258974e-01  4.56258974e-01  4.56258974e-01  3.39452642e-09  3.28274081e-09  1.55691843e-07  4.94348740e-08  8.30000000e-01 
 8.40000000e-01  4.56258952e-01  4.56258952e-01  4.56258952e-01  4.56258952e-01  4.56258952e-01  3.39452642e-09  3.28274081e-09  1.55691816e-07  4.94347745e-08  8.40000000e-01 
 8.50000000e-01  4.56258962e-01  4.56258962e-01  4.56258962e-01  4.56258962e-01  4.56258962e-01  3.39452642e-09  3.28274087e-09  1.55691824e-07  4.94347105e-08  8.50000000e-01 
 8.60000000e-01  4.56258972e-01  4.56258972e-01  4.56258972e-01  4.56258973e-01  4.56258972e-01  3.39452642e-09  3.28274081e-09  1.55691850e-07  4.94345898e-08  8.60000000e-01 
 8.70000000e-01  4.56258972e-01  4.56258972e-01  4.56258972e-01  4.56258973e-01  4.56258972e-01  3.39452647e-09  3.28274087e-09  1.55691839e-07  4.94346182e-08  8.70000000e-01 
 8.80000000e-01  4.56258991e-01  4.56258991e-01  4.56258991e-01  4.56258991e-01  4.56258991e-01  3.39452642e-09  3.28274081e-09  1.55691867e-07  4.94344192e-08  8.80000000e-01 
 8.90000000e-01  4.56258965e-01  4.56258965e-01  4.56258965e-01  4.56258965e-01  4.56258965e-01  3.39452642e-09  3.28274087e-09  1.55691824e-07  4.94344761e-08  8.90000000e-01 
 9.00000000e-01  4.56258964e-01  4.56258964e-01  4.56258964e-01  4.56258964e-01  4.56258964e-01  3.39452642e-09  3.28274081e-09  1.55691833e-07  4.94344903e-08  9.00000000e-01 
 9.10000000e-01  4.56258975e-01  4.56258975e-01  4.56258975e-01  4.56258975e-01  4.56258975e-01  3.39452642e-09  3.28274081e-09  1.55691836e-07  4.94343482e-08  9.10000000e-01 
 9.20000000e-01  4.56258955e-01  4.56258955e-01  4.56258955e-01  4.56258955e-01  4.56258955e-01  3.39452642e-09  3.28274081e-09  1.55691821e-07  4.94342061e-08  9.20000000e-01 
 9.30000000e-01  4.56258974e-01  4.56258974e-01  4.56258974e-01  4.56258975e-01  4.56258974e-01  3.39452642e-09  3.28274081e-09  1.55691830e-07  4.94342558e-08  9.30000000e-01 
 9.40000000e-01  4.56258979e-01  4.56258979e-01  4.56258979e-01  4.56258979e-01  4.56258979e-01  3.39452642e-09  3.28274081e-09  1.55691849e-07  4.94340853e-08  9.40000000e-01 
 9.50000000e-01  4.56258957e-01  4.56258957e-01  4.56258957e-01  4.56258958e-01  4.56258957e-01  3.39452642e-09  3.28274081e-09  1.55691821e-07  4.94339858e-08  9.50000000e-01 
 9.60000000e-01  4.56258975e-01  4.56258975e-01  4.56258975e-01  4.56258975e-01  4.56258975e-01  3.39452642e-09  3.28274081e-09  1.55691825e-07  4.94340711e-08  9.60000000e-01 
 9.70000000e-01  4.56258970e-01  4.56258970e-01  4.56258970e-01  4.56258971e-01  4.56258970e-01  3.39452642e-09  3.28274087e-09  1.55691860e-07  4.94340071e-08  9.70000000e-01 
 9.80000000e-01  4.56258958e-01  4.56258958e-01  4.56258958e-01  4.56258959e-01  4.56258958e-01  3.39452642e-09  3.28274081e-09  1.55691805e-07  4.94340000e-08  9.80000000e-01 
 9.90000000e-01  4.56258965e-01  4.56258965e-01  4.56258965e-01  4.56258965e-01  4.56258965e-01  3.39452642e-09  3.28274081e-09  1.55691825e-07  4.94337868e-08  9.90000000e-01 
 1.00000000e+00  4.56258973e-01  4.56258973e-01  4.56258973e-01  4.56258973e-01  4.56258973e-01  3.39452642e-09  3.28274081e-09  1.55691835e-07  4.94336874e-08  1.00000000e+00 
 1.01000000e+00  4.56258979e-01  4.56258979e-01  4.56258979e-01  4.56258979e-01  4.56258979e-01  3.39452642e-09  3.28274081e-09  1.55691849e-07  4.94336803e-08  1.01000000e+00 
 1.02000000e+00  4.56258969e-01  4.56258969e-01  4.56258969e-01  4.56258969e-01  4.56258969e-01  3.39452642e-09  3.28274087e-09  1.55691829e-07  4.94337158e-08  1.02000000e+00 
 1.03000000e+00  4.56258953e-01  4.56258953e-01  4.56258953e-01  4.56258953e-01  4.56258953e-01  3.39452642e-09  3.28274081e-09  1.55691816e-07  4.94336234e-08  1.03000000e+00 
 1.04000000e+00  4.56258940e-01  4.56258940e-01  4.56258940e-01  4.56258940e-01  4.56258940e-01  3.39452641e-09  3.28274081e-09  1.55691796e-07  4.94334174e-08  1.04000000e+00 
 1.05000000e+00  4.56258941e-01  4.56258941e-01  4.56258941e-01  4.56258941e-01  4.56258941e-01  3.39452641e-09  3.28274081e-09  1.55691797e-07  4.94335026e-08  1.05000000e+00 
 1.06000000e+00  4.56258959e-01  4.56258959e-01  4.56258959e-01  4.56258959e-01  4.56258959e-01  3.39452642e-09  3.28274081e-09  1.55691836e-07  4.94334458e-08  1.06000000e+00 
 1.07000000e+00  4.56258979e-01  4.56258979e-01  4.56258979e-01  4.56258979e-01  4.56258979e-01  3.39452642e-09  3.28274081e-09  1.55691841e-07  4.94332610e-08  1.07000000e+00 
 1.08000000e+00  4.56258977e-01  4.56258977e-01  4.56258977e-01  4.56258977e-01  4.56258977e-01  3.39452642e-09  3.28274081e-09  1.55691864e-07  4.94332184e-08  1.08000000e+00 
 1.09000000e+00  4.56258983e-01  4.56258983e-01  4.56258983e-01  4.56258983e-01  4.56258983e-01  3.39452642e-09  3.28274081e-09  1.55691844e-07  4.94332681e-08  1.09000000e+00 
 1.10000000e+00  4.56258951e-01  4.56258951e-01  4.56258951e-01  4.56258951e-01  4.56258951e-01  3.39452642e-09  3.28274081e-09  1.55691819e-07  4.94331900e-08  1.10000000e+00 
