 v-sweep         v(b0)           v(b1)           v(b2)           v(b3)           v(b4)           v(b5)           v(b6)           i(vbias)        i(viout)        v(vout)        
 0.00000000e+00  4.57967011e-01  3.31565991e-09  3.28486979e-09  3.19964676e-09  3.18102007e-09  3.31435525e-09  4.57967011e-01  1.57684092e-07  9.87257852e-08  0.00000000e+00 
 1.00000000e-02  4.57967005e-01  3.31565994e-09  3.28486972e-09  3.19964680e-09  3.18102005e-09  3.31435523e-09  4.57967005e-01  1.57684064e-07  9.87254372e-08  1.00000000e-02 
 2.00000000e-02  4.57966987e-01  3.31565988e-09  3.28486971e-09  3.19964680e-09  3.18102005e-09  3.31435523e-09  4.57966987e-01  1.57684039e-07  9.87249382e-08  2.00000000e-02 
 3.00000000e-02  4.57966993e-01  3.31565990e-09  3.28486977e-09  3.19964674e-09  3.18102005e-09  3.31435523e-09  4.57966993e-01  1.57684042e-07  9.87245339e-08  3.00000000e-02 
 4.00000000e-02  4.57966996e-01  3.31565988e-09  3.28486977e-09  3.19964680e-09  3.18102011e-09  3.31435523e-09  4.57966996e-01  1.57684063e-07  9.87241533e-08  4.00000000e-02 
 5.00000000e-02  4.57966996e-01  3.31565990e-09  3.28486971e-09  3.19964674e-09  3.18102005e-09  3.31435523e-09  4.57966996e-01  1.57684064e-07  9.87239464e-08  5.00000000e-02 
 6.00000000e-02  4.57967016e-01  3.31565988e-09  3.28486972e-09  3.19964674e-09  3.18102005e-09  3.31435523e-09  4.57967016e-01  1.57684100e-07  9.87235298e-08  6.00000000e-02 
 7.00000000e-02  4.57966999e-01  3.31565990e-09  3.28486971e-09  3.19964674e-09  3.18102005e-09  3.31435523e-09  4.57966999e-01  1.57684062e-07  9.87231497e-08  7.00000000e-02 
 8.00000000e-02  4.57967017e-01  3.31565994e-09  3.28486977e-09  3.19964680e-09  3.18102005e-09  3.31435523e-09  4.57967017e-01  1.57684090e-07  9.87228770e-08  8.00000000e-02 
 9.00000000e-02  4.57967017e-01  3.31565988e-09  3.28486972e-09  3.19964680e-09  3.18102011e-09  3.31435523e-09  4.57967017e-01  1.57684085e-07  9.87226159e-08  9.00000000e-02 
 1.00000000e-01  4.57966993e-01  3.31565990e-09  3.28486977e-09  3.19964680e-09  3.18102011e-09  3.31435523e-09  4.57966994e-01  1.57684047e-07  9.87222508e-08  1.00000000e-01 
 1.10000000e-01  4.57966989e-01  3.31565993e-09  3.28486977e-09  3.19964680e-09  3.18102005e-09  3.31435523e-09  4.57966989e-01  1.57684045e-07  9.87220012e-08  1.10000000e-01 
 1.20000000e-01  4.57967008e-01  3.31565994e-09  3.28486972e-09  3.19964680e-09  3.18102005e-09  3.31435523e-09  4.57967008e-01  1.57684072e-07  9.87217943e-08  1.20000000e-01 
 1.30000000e-01  4.57966986e-01  3.31565994e-09  3.28486977e-09  3.19964674e-09  3.18102005e-09  3.31435523e-09  4.57966986e-01  1.57684043e-07  9.87215349e-08  1.30000000e-01 
 1.40000000e-01  4.57967004e-01  3.31565988e-09  3.28486972e-09  3.19964674e-09  3.18102005e-09  3.31435523e-09  4.57967004e-01  1.57684063e-07  9.87214035e-08  1.40000000e-01 
 1.50000000e-01  4.57966971e-01  3.31565995e-09  3.28486971e-09  3.19964680e-09  3.18102005e-09  3.31435523e-09  4.57966971e-01  1.57684021e-07  9.87210562e-08  1.50000000e-01 
 1.60000000e-01  4.57966998e-01  3.31565993e-09  3.28486971e-09  3.19964680e-09  3.18102005e-09  3.31435523e-09  4.57966998e-01  1.57684070e-07  9.87208910e-08  1.60000000e-01 
 1.70000000e-01  4.57967010e-01  3.31565988e-09  3.28486977e-09  3.19964674e-09  3.18102011e-09  3.31435523e-09  4.57967010e-01  1.57684074e-07  9.87208679e-08  1.70000000e-01 
 1.80000000e-01  4.57966994e-01  3.31565990e-09  3.28486977e-09  3.19964680e-09  3.18102005e-09  3.31435523e-09  4.57966994e-01  1.57684048e-07  9.87205215e-08  1.80000000e-01 
 1.90000000e-01  4.57967007e-01  3.31565988e-09  3.28486972e-09  3.19964674e-09  3.18102005e-09  3.31435523e-09  4.57967007e-01  1.57684055e-07  9.87203244e-08  1.90000000e-01 
 2.00000000e-01  4.57967004e-01  3.31565990e-09  3.28486972e-09  3.19964680e-09  3.18102005e-09  3.31435523e-09  4.57967004e-01  1.57684072e-07  9.87203421e-08  2.00000000e-01 
 2.10000000e-01  4.57967011e-01  3.31565994e-09  3.28486977e-09  3.19964680e-09  3.18102005e-09  3.31435523e-09  4.57967011e-01  1.57684084e-07  9.87201414e-08  2.10000000e-01 
 2.20000000e-01  4.57967018e-01  3.31565988e-09  3.28486977e-09  3.19964674e-09  3.18102005e-09  3.31435523e-09  4.57967018e-01  1.57684096e-07  9.87199513e-08  2.20000000e-01 
 2.30000000e-01  4.57967005e-01  3.31565990e-09  3.28486977e-09  3.19964680e-09  3.18102011e-09  3.31435523e-09  4.57967005e-01  1.57684080e-07  9.87196902e-08  2.30000000e-01 
 2.40000000e-01  4.57967015e-01  3.31565988e-09  3.28486977e-09  3.19964674e-09  3.18102005e-09  3.31435523e-09  4.57967015e-01  1.57684088e-07  9.87196245e-08  2.40000000e-01 
 2.50000000e-01  4.57966990e-01  3.31565990e-09  3.28486977e-09  3.19964680e-09  3.18102005e-09  3.31435523e-09  4.57966990e-01  1.57684041e-07  9.87194202e-08  2.50000000e-01 
 2.60000000e-01  4.57967023e-01  3.31565988e-09  3.28486972e-09  3.19964680e-09  3.18102005e-09  3.31435523e-09  4.57967023e-01  1.57684097e-07  9.87193189e-08  2.60000000e-01 
 2.70000000e-01  4.57966992e-01  3.31565990e-09  3.28486977e-09  3.19964680e-09  3.18102005e-09  3.31435523e-09  4.57966992e-01  1.57684040e-07  9.87191537e-08  2.70000000e-01 
 2.80000000e-01  4.57967031e-01  3.31565994e-09  3.28486977e-09  3.19964680e-09  3.18102005e-09  3.31435523e-09  4.57967031e-01  1.57684101e-07  9.87191484e-08  2.80000000e-01 
 2.90000000e-01  4.57967016e-01  3.31565994e-09  3.28486972e-09  3.19964680e-09  3.18102005e-09  3.31435523e-09  4.57967016e-01  1.57684087e-07  9.87189956e-08  2.90000000e-01 
 3.00000000e-01  4.57966994e-01  3.31565994e-09  3.28486977e-09  3.19964674e-09  3.18102005e-09  3.31435523e-09  4.57966994e-01  1.57684063e-07  9.87188926e-08  3.00000000e-01 
 3.10000000e-01  4.57966985e-01  3.31565994e-09  3.28486977e-09  3.19964680e-09  3.18102005e-09  3.31435523e-09  4.57966985e-01  1.57684030e-07  9.87185302e-08  3.10000000e-01 
 3.20000000e-01  4.57967021e-01  3.31565988e-09  3.28486977e-09  3.19964674e-09  3.18102005e-09  3.31435523e-09  4.57967021e-01  1.57684097e-07  9.87186866e-08  3.20000000e-01 
 3.30000000e-01  4.57967004e-01  3.31565988e-09  3.28486977e-09  3.19964674e-09  3.18102005e-09  3.31435523e-09  4.57967004e-01  1.57684068e-07  9.87185587e-08  3.30000000e-01 
 3.40000000e-01  4.57966992e-01  3.31565990e-09  3.28486971e-09  3.19964674e-09  3.18102005e-09  3.31435523e-09  4.57966992e-01  1.57684047e-07  9.87183384e-08  3.40000000e-01 
 3.50000000e-01  4.57967002e-01  3.31565993e-09  3.28486971e-09  3.19964680e-09  3.18102005e-09  3.31435523e-09  4.57967002e-01  1.57684059e-07  9.87182318e-08  3.50000000e-01 
 3.60000000e-01  4.57967007e-01  3.31565988e-09  3.28486977e-09  3.19964680e-09  3.18102005e-09  3.31435523e-09  4.57967007e-01  1.57684076e-07  9.87180719e-08  3.60000000e-01 
 3.70000000e-01  4.57967011e-01  3.31565990e-09  3.28486972e-09  3.19964680e-09  3.18102005e-09  3.31435523e-09  4.57967011e-01  1.57684084e-07  9.87180755e-08  3.70000000e-01 
 3.80000000e-01  4.57967001e-01  3.31565988e-09  3.28486977e-09  3.19964674e-09  3.18102005e-09  3.31435523e-09  4.57967001e-01  1.57684066e-07  9.87179369e-08  3.80000000e-01 
 3.90000000e-01  4.57967000e-01  3.31565990e-09  3.28486971e-09  3.19964680e-09  3.18102005e-09  3.31435523e-09  4.57967001e-01  1.57684054e-07  9.87178197e-08  3.90000000e-01 
 4.00000000e-01  4.57967017e-01  3.31565988e-09  3.28486977e-09  3.19964674e-09  3.18102005e-09  3.31435523e-09  4.57967017e-01  1.57684079e-07  9.87177629e-08  4.00000000e-01 
 4.10000000e-01  4.57967012e-01  3.31565990e-09  3.28486977e-09  3.19964680e-09  3.18102005e-09  3.31435523e-09  4.57967012e-01  1.57684086e-07  9.87177557e-08  4.10000000e-01 
 4.20000000e-01  4.57967009e-01  3.31565988e-09  3.28486972e-09  3.19964680e-09  3.18102005e-09  3.31435523e-09  4.57967009e-01  1.57684077e-07  9.87175568e-08  4.20000000e-01 
 4.30000000e-01  4.57966994e-01  3.31565990e-09  3.28486977e-09  3.19964680e-09  3.18102005e-09  3.31435523e-09  4.57966994e-01  1.57684051e-07  9.87174253e-08  4.30000000e-01 
 4.40000000e-01  4.57967001e-01  3.31565988e-09  3.28486971e-09  3.19964674e-09  3.18102005e-09  3.31435523e-09  4.57967001e-01  1.57684061e-07  9.87175142e-08  4.40000000e-01 
 4.50000000e-01  4.57967003e-01  3.31565990e-09  3.28486971e-09  3.19964674e-09  3.18102005e-09  3.31435523e-09  4.57967004e-01  1.57684070e-07  9.87173578e-08  4.50000000e-01 
 4.60000000e-01  4.57966997e-01  3.31565988e-09  3.28486971e-09  3.19964680e-09  3.18102005e-09  3.31435523e-09  4.57966997e-01  1.57684063e-07  9.87172974e-08  4.60000000e-01 
 4.70000000e-01  4.57966988e-01  3.31565990e-09  3.28486977e-09  3.19964680e-09  3.18102011e-09  3.31435523e-09  4.57966988e-01  1.57684042e-07  9.87171660e-08  4.70000000e-01 
 4.80000000e-01  4.57966985e-01  3.31565993e-09  3.28486971e-09  3.19964680e-09  3.18102005e-09  3.31435523e-09  4.57966985e-01  1.57684036e-07  9.87169813e-08  4.80000000e-01 
 4.90000000e-01  4.57967006e-01  3.31565988e-09  3.28486977e-09  3.19964674e-09  3.18102005e-09  3.31435523e-09  4.57967006e-01  1.57684075e-07  9.87169280e-08  4.90000000e-01 
 5.00000000e-01  4.57966988e-01  3.31565990e-09  3.28486977e-09  3.19964674e-09  3.18102005e-09  3.31435523e-09  4.57966988e-01  1.57684055e-07  9.87169280e-08  5.00000000e-01 
 5.10000000e-01  4.57967015e-01  3.31565988e-09  3.28486972e-09  3.19964680e-09  3.18102005e-09  3.31435523e-09  4.57967015e-01  1.57684086e-07  9.87169386e-08  5.10000000e-01 
 5.20000000e-01  4.57967006e-01  3.31565990e-09  3.28486977e-09  3.19964674e-09  3.18102005e-09  3.31435523e-09  4.57967006e-01  1.57684057e-07  9.87167539e-08  5.20000000e-01 
 5.30000000e-01  4.57967023e-01  3.31565994e-09  3.28486977e-09  3.19964674e-09  3.18102005e-09  3.31435523e-09  4.57967023e-01  1.57684095e-07  9.87168143e-08  5.30000000e-01 
 5.40000000e-01  4.57966976e-01  3.31565988e-09  3.28486971e-09  3.19964674e-09  3.18102005e-09  3.31435523e-09  4.57966976e-01  1.57684019e-07  9.87165230e-08  5.40000000e-01 
 5.50000000e-01  4.57967001e-01  3.31565990e-09  3.28486971e-09  3.19964674e-09  3.18102005e-09  3.31435523e-09  4.57967001e-01  1.57684067e-07  9.87166260e-08  5.50000000e-01 
 5.60000000e-01  4.57967004e-01  3.31565993e-09  3.28486977e-09  3.19964680e-09  3.18102005e-09  3.31435523e-09  4.57967004e-01  1.57684070e-07  9.87164839e-08  5.60000000e-01 
 5.70000000e-01  4.57967003e-01  3.31565988e-09  3.28486977e-09  3.19964674e-09  3.18102005e-09  3.31435523e-09  4.57967003e-01  1.57684072e-07  9.87164270e-08  5.70000000e-01 
 5.80000000e-01  4.57967009e-01  3.31565990e-09  3.28486977e-09  3.19964680e-09  3.18102005e-09  3.31435523e-09  4.57967009e-01  1.57684081e-07  9.87164057e-08  5.80000000e-01 
 5.90000000e-01  4.57967008e-01  3.31565988e-09  3.28486977e-09  3.19964680e-09  3.18102005e-09  3.31435523e-09  4.57967008e-01  1.57684078e-07  9.87162423e-08  5.90000000e-01 
 6.00000000e-01  4.57966990e-01  3.31565995e-09  3.28486977e-09  3.19964674e-09  3.18102005e-09  3.31435523e-09  4.57966990e-01  1.57684052e-07  9.87162494e-08  6.00000000e-01 
 6.10000000e-01  4.57967001e-01  3.31565993e-09  3.28486971e-09  3.19964680e-09  3.18102005e-09  3.31435523e-09  4.57967001e-01  1.57684058e-07  9.87161783e-08  6.10000000e-01 
 6.20000000e-01  4.57966994e-01  3.31565988e-09  3.28486977e-09  3.19964680e-09  3.18102005e-09  3.31435523e-09  4.57966994e-01  1.57684051e-07  9.87159439e-08  6.20000000e-01 
 6.30000000e-01  4.57966978e-01  3.31565989e-09  3.28486977e-09  3.19964680e-09  3.18102005e-09  3.31435523e-09  4.57966979e-01  1.57684027e-07  9.87159083e-08  6.30000000e-01 
 6.40000000e-01  4.57966990e-01  3.31565988e-09  3.28486977e-09  3.19964680e-09  3.18102005e-09  3.31435523e-09  4.57966990e-01  1.57684049e-07  9.87158941e-08  6.40000000e-01 
 6.50000000e-01  4.57966994e-01  3.31565990e-09  3.28486977e-09  3.19964680e-09  3.18102005e-09  3.31435523e-09  4.57966994e-01  1.57684059e-07  9.87158373e-08  6.50000000e-01 
 6.60000000e-01  4.57967017e-01  3.31565994e-09  3.28486977e-09  3.19964680e-09  3.18102005e-09  3.31435523e-09  4.57967017e-01  1.57684089e-07  9.87157307e-08  6.60000000e-01 
 6.70000000e-01  4.57967002e-01  3.31565988e-09  3.28486971e-09  3.19964674e-09  3.18102005e-09  3.31435523e-09  4.57967002e-01  1.57684059e-07  9.87156312e-08  6.70000000e-01 
 6.80000000e-01  4.57967001e-01  3.31565990e-09  3.28486977e-09  3.19964674e-09  3.18102005e-09  3.31435523e-09  4.57967001e-01  1.57684068e-07  9.87156454e-08  6.80000000e-01 
 6.90000000e-01  4.57967002e-01  3.31565993e-09  3.28486977e-09  3.19964680e-09  3.18102005e-09  3.31435523e-09  4.57967002e-01  1.57684064e-07  9.87156099e-08  6.90000000e-01 
 7.00000000e-01  4.57966984e-01  3.31565988e-09  3.28486971e-09  3.19964680e-09  3.18102005e-09  3.31435523e-09  4.57966984e-01  1.57684031e-07  9.87155033e-08  7.00000000e-01 
 7.10000000e-01  4.57966990e-01  3.31565990e-09  3.28486977e-09  3.19964680e-09  3.18102005e-09  3.31435523e-09  4.57966990e-01  1.57684053e-07  9.87152760e-08  7.10000000e-01 
 7.20000000e-01  4.57967000e-01  3.31565993e-09  3.28486977e-09  3.19964674e-09  3.18102005e-09  3.31435523e-09  4.57967000e-01  1.57684061e-07  9.87152617e-08  7.20000000e-01 
 7.30000000e-01  4.57966992e-01  3.31565988e-09  3.28486971e-09  3.19964674e-09  3.18102005e-09  3.31435523e-09  4.57966992e-01  1.57684039e-07  9.87151978e-08  7.30000000e-01 
 7.40000000e-01  4.57967022e-01  3.31565990e-09  3.28486977e-09  3.19964674e-09  3.18102005e-09  3.31435523e-09  4.57967022e-01  1.57684079e-07  9.87152049e-08  7.40000000e-01 
 7.50000000e-01  4.57967005e-01  3.31565988e-09  3.28486977e-09  3.19964674e-09  3.18102005e-09  3.31435523e-09  4.57967005e-01  1.57684064e-07  9.87150628e-08  7.50000000e-01 
 7.60000000e-01  4.57966999e-01  3.31565990e-09  3.28486977e-09  3.19964680e-09  3.18102011e-09  3.31435523e-09  4.57966999e-01  1.57684064e-07  9.87149917e-08  7.60000000e-01 
 7.70000000e-01  4.57967005e-01  3.31565988e-09  3.28486972e-09  3.19964674e-09  3.18102005e-09  3.31435523e-09  4.57967005e-01  1.57684064e-07  9.87149562e-08  7.70000000e-01 
 7.80000000e-01  4.57967010e-01  3.31565990e-09  3.28486972e-09  3.19964680e-09  3.18102005e-09  3.31435523e-09  4.57967010e-01  1.57684069e-07  9.87148212e-08  7.80000000e-01 
 7.90000000e-01  4.57966996e-01  3.31565988e-09  3.28486971e-09  3.19964680e-09  3.18102005e-09  3.31435523e-09  4.57966996e-01  1.57684071e-07  9.87147217e-08  7.90000000e-01 
 8.00000000e-01  4.57967010e-01  3.31565990e-09  3.28486972e-09  3.19964680e-09  3.18102005e-09  3.31435523e-09  4.57967010e-01  1.57684076e-07  9.87146151e-08  8.00000000e-01 
 8.10000000e-01  4.57966996e-01  3.31565988e-09  3.28486977e-09  3.19964680e-09  3.18102005e-09  3.31435523e-09  4.57966997e-01  1.57684059e-07  9.87146507e-08  8.10000000e-01 
 8.20000000e-01  4.57966997e-01  3.31565990e-09  3.28486977e-09  3.19964680e-09  3.18102011e-09  3.31435523e-09  4.57966997e-01  1.57684053e-07  9.87145441e-08  8.20000000e-01 
 8.30000000e-01  4.57967008e-01  3.31565988e-09  3.28486977e-09  3.19964674e-09  3.18102005e-09  3.31435523e-09  4.57967008e-01  1.57684060e-07  9.87145015e-08  8.30000000e-01 
 8.40000000e-01  4.57967014e-01  3.31565990e-09  3.28486972e-09  3.19964680e-09  3.18102005e-09  3.31435523e-09  4.57967014e-01  1.57684083e-07  9.87145299e-08  8.40000000e-01 
 8.50000000e-01  4.57966997e-01  3.31565988e-09  3.28486977e-09  3.19964674e-09  3.18102005e-09  3.31435523e-09  4.57966997e-01  1.57684060e-07  9.87143736e-08  8.50000000e-01 
 8.60000000e-01  4.57967007e-01  3.31565990e-09  3.28486972e-09  3.19964680e-09  3.18102005e-09  3.31435523e-09  4.57967007e-01  1.57684074e-07  9.87143594e-08  8.60000000e-01 
 8.70000000e-01  4.57967024e-01  3.31565988e-09  3.28486972e-09  3.19964680e-09  3.18102005e-09  3.31435523e-09  4.57967024e-01  1.57684070e-07  9.87141320e-08  8.70000000e-01 
 8.80000000e-01  4.57966986e-01  3.31565990e-09  3.28486977e-09  3.19964674e-09  3.18102005e-09  3.31435523e-09  4.57966986e-01  1.57684041e-07  9.87140467e-08  8.80000000e-01 
 8.90000000e-01  4.57967002e-01  3.31565988e-09  3.28486971e-09  3.19964674e-09  3.18102005e-09  3.31435523e-09  4.57967002e-01  1.57684070e-07  9.87140396e-08  8.90000000e-01 
 9.00000000e-01  4.57967030e-01  3.31565990e-09  3.28486972e-09  3.19964680e-09  3.18102005e-09  3.31435523e-09  4.57967030e-01  1.57684105e-07  9.87139401e-08  9.00000000e-01 
 9.10000000e-01  4.57966998e-01  3.31565988e-09  3.28486977e-09  3.19964674e-09  3.18102005e-09  3.31435523e-09  4.57966998e-01  1.57684064e-07  9.87138833e-08  9.10000000e-01 
 9.20000000e-01  4.57966995e-01  3.31565990e-09  3.28486971e-09  3.19964680e-09  3.18102005e-09  3.31435523e-09  4.57966995e-01  1.57684061e-07  9.87138620e-08  9.20000000e-01 
 9.30000000e-01  4.57967005e-01  3.31565993e-09  3.28486977e-09  3.19964674e-09  3.18102005e-09  3.31435523e-09  4.57967005e-01  1.57684066e-07  9.87138051e-08  9.30000000e-01 
 9.40000000e-01  4.57967006e-01  3.31565988e-09  3.28486977e-09  3.19964680e-09  3.18102005e-09  3.31435523e-09  4.57967006e-01  1.57684059e-07  9.87135493e-08  9.40000000e-01 
 9.50000000e-01  4.57967004e-01  3.31565990e-09  3.28486972e-09  3.19964674e-09  3.18102005e-09  3.31435523e-09  4.57967004e-01  1.57684074e-07  9.87136133e-08  9.50000000e-01 
 9.60000000e-01  4.57967009e-01  3.31565988e-09  3.28486977e-09  3.19964680e-09  3.18102005e-09  3.31435523e-09  4.57967009e-01  1.57684077e-07  9.87134001e-08  9.60000000e-01 
 9.70000000e-01  4.57966998e-01  3.31565990e-09  3.28486977e-09  3.19964674e-09  3.18102005e-09  3.31435523e-09  4.57966998e-01  1.57684050e-07  9.87133788e-08  9.70000000e-01 
 9.80000000e-01  4.57966987e-01  3.31565988e-09  3.28486977e-09  3.19964674e-09  3.18102005e-09  3.31435523e-09  4.57966987e-01  1.57684034e-07  9.87132154e-08  9.80000000e-01 
 9.90000000e-01  4.57967006e-01  3.31565990e-09  3.28486977e-09  3.19964680e-09  3.18102005e-09  3.31435523e-09  4.57967006e-01  1.57684057e-07  9.87132509e-08  9.90000000e-01 
 1.00000000e+00  4.57966994e-01  3.31565988e-09  3.28486977e-09  3.19964674e-09  3.18102005e-09  3.31435523e-09  4.57966994e-01  1.57684063e-07  9.87131301e-08  1.00000000e+00 
 1.01000000e+00  4.57967014e-01  3.31565990e-09  3.28486977e-09  3.19964674e-09  3.18102005e-09  3.31435523e-09  4.57967014e-01  1.57684077e-07  9.87131372e-08  1.01000000e+00 
 1.02000000e+00  4.57966992e-01  3.31565993e-09  3.28486971e-09  3.19964674e-09  3.18102005e-09  3.31435523e-09  4.57966992e-01  1.57684054e-07  9.87129809e-08  1.02000000e+00 
 1.03000000e+00  4.57966983e-01  3.31565994e-09  3.28486971e-09  3.19964680e-09  3.18102005e-09  3.31435523e-09  4.57966984e-01  1.57684029e-07  9.87128814e-08  1.03000000e+00 
 1.04000000e+00  4.57967017e-01  3.31565988e-09  3.28486977e-09  3.19964680e-09  3.18102005e-09  3.31435523e-09  4.57967017e-01  1.57684077e-07  9.87128672e-08  1.04000000e+00 
 1.05000000e+00  4.57966994e-01  3.31565990e-09  3.28486977e-09  3.19964680e-09  3.18102005e-09  3.31435523e-09  4.57966994e-01  1.57684043e-07  9.87126043e-08  1.05000000e+00 
 1.06000000e+00  4.57966994e-01  3.31565993e-09  3.28486977e-09  3.19964674e-09  3.18102005e-09  3.31435523e-09  4.57966995e-01  1.57684050e-07  9.87126327e-08  1.06000000e+00 
 1.07000000e+00  4.57967006e-01  3.31565988e-09  3.28486977e-09  3.19964680e-09  3.18102005e-09  3.31435523e-09  4.57967006e-01  1.57684065e-07  9.87125972e-08  1.07000000e+00 
 1.08000000e+00  4.57967018e-01  3.31565990e-09  3.28486977e-09  3.19964674e-09  3.18102005e-09  3.31435523e-09  4.57967018e-01  1.57684087e-07  9.87125119e-08  1.08000000e+00 
 1.09000000e+00  4.57966993e-01  3.31565993e-09  3.28486977e-09  3.19964674e-09  3.18102005e-09  3.31435523e-09  4.57966993e-01  1.57684053e-07  9.87123698e-08  1.09000000e+00 
 1.10000000e+00  4.57966985e-01  3.31565988e-09  3.28486977e-09  3.19964674e-09  3.18102011e-09  3.31435523e-09  4.57966985e-01  1.57684036e-07  9.87122917e-08  1.10000000e+00 
