 v-sweep         v(b0)           v(b1)           v(b2)           v(b3)           v(b4)           v(b5)           v(b6)           i(vbias)        i(viout)        v(vout)        
 0.00000000e+00  4.58577852e-01  3.45339265e-09  4.58577852e-01  3.61273850e-09  3.29639632e-09  4.58577852e-01  4.58577852e-01  1.61274567e-07  1.55320427e-07  0.00000000e+00 
 1.00000000e-02  4.58577849e-01  3.45339265e-09  4.58577849e-01  3.61273845e-09  3.29639632e-09  4.58577848e-01  4.58577849e-01  1.61274566e-07  1.55319985e-07  1.00000000e-02 
 2.00000000e-02  4.58577837e-01  3.45339265e-09  4.58577837e-01  3.61273845e-09  3.29639632e-09  4.58577837e-01  4.58577837e-01  1.61274544e-07  1.55319456e-07  2.00000000e-02 
 3.00000000e-02  4.58577851e-01  3.45339265e-09  4.58577851e-01  3.61273850e-09  3.29639632e-09  4.58577851e-01  4.58577851e-01  1.61274573e-07  1.55319124e-07  3.00000000e-02 
 4.00000000e-02  4.58577848e-01  3.45339270e-09  4.58577848e-01  3.61273845e-09  3.29639637e-09  4.58577848e-01  4.58577848e-01  1.61274560e-07  1.55318691e-07  4.00000000e-02 
 5.00000000e-02  4.58577831e-01  3.45339263e-09  4.58577831e-01  3.61273850e-09  3.29639637e-09  4.58577831e-01  4.58577831e-01  1.61274537e-07  1.55318323e-07  5.00000000e-02 
 6.00000000e-02  4.58577848e-01  3.45339265e-09  4.58577848e-01  3.61273850e-09  3.29639637e-09  4.58577848e-01  4.58577848e-01  1.61274565e-07  1.55317984e-07  6.00000000e-02 
 7.00000000e-02  4.58577845e-01  3.45339265e-09  4.58577845e-01  3.61273850e-09  3.29639632e-09  4.58577845e-01  4.58577845e-01  1.61274543e-07  1.55317720e-07  7.00000000e-02 
 8.00000000e-02  4.58577823e-01  3.45339270e-09  4.58577823e-01  3.61273844e-09  3.29639631e-09  4.58577823e-01  4.58577823e-01  1.61274519e-07  1.55317276e-07  8.00000000e-02 
 9.00000000e-02  4.58577830e-01  3.45339263e-09  4.58577830e-01  3.61273850e-09  3.29639637e-09  4.58577830e-01  4.58577830e-01  1.61274537e-07  1.55316794e-07  9.00000000e-02 
 1.00000000e-01  4.58577860e-01  3.45339265e-09  4.58577860e-01  3.61273851e-09  3.29639632e-09  4.58577860e-01  4.58577860e-01  1.61274582e-07  1.55316615e-07  1.00000000e-01 
 1.10000000e-01  4.58577831e-01  3.45339264e-09  4.58577831e-01  3.61273845e-09  3.29639637e-09  4.58577831e-01  4.58577831e-01  1.61274535e-07  1.55316366e-07  1.10000000e-01 
 1.20000000e-01  4.58577836e-01  3.45339265e-09  4.58577836e-01  3.61273845e-09  3.29639632e-09  4.58577836e-01  4.58577836e-01  1.61274536e-07  1.55316053e-07  1.20000000e-01 
 1.30000000e-01  4.58577846e-01  3.45339265e-09  4.58577846e-01  3.61273850e-09  3.29639632e-09  4.58577846e-01  4.58577846e-01  1.61274559e-07  1.55315861e-07  1.30000000e-01 
 1.40000000e-01  4.58577847e-01  3.45339265e-09  4.58577847e-01  3.61273850e-09  3.29639632e-09  4.58577847e-01  4.58577847e-01  1.61274557e-07  1.55315603e-07  1.40000000e-01 
 1.50000000e-01  4.58577831e-01  3.45339264e-09  4.58577831e-01  3.61273850e-09  3.29639637e-09  4.58577831e-01  4.58577831e-01  1.61274540e-07  1.55315254e-07  1.50000000e-01 
 1.60000000e-01  4.58577857e-01  3.45339265e-09  4.58577857e-01  3.61273845e-09  3.29639637e-09  4.58577857e-01  4.58577857e-01  1.61274568e-07  1.55315087e-07  1.60000000e-01 
 1.70000000e-01  4.58577830e-01  3.45339270e-09  4.58577830e-01  3.61273845e-09  3.29639637e-09  4.58577830e-01  4.58577831e-01  1.61274526e-07  1.55314805e-07  1.70000000e-01 
 1.80000000e-01  4.58577822e-01  3.45339269e-09  4.58577822e-01  3.61273850e-09  3.29639631e-09  4.58577822e-01  4.58577822e-01  1.61274528e-07  1.55314499e-07  1.80000000e-01 
 1.90000000e-01  4.58577840e-01  3.45339264e-09  4.58577840e-01  3.61273850e-09  3.29639632e-09  4.58577840e-01  4.58577840e-01  1.61274545e-07  1.55314485e-07  1.90000000e-01 
 2.00000000e-01  4.58577845e-01  3.45339265e-09  4.58577845e-01  3.61273845e-09  3.29639632e-09  4.58577845e-01  4.58577845e-01  1.61274544e-07  1.55314128e-07  2.00000000e-01 
 2.10000000e-01  4.58577851e-01  3.45339265e-09  4.58577851e-01  3.61273850e-09  3.29639637e-09  4.58577851e-01  4.58577851e-01  1.61274573e-07  1.55314074e-07  2.10000000e-01 
 2.20000000e-01  4.58577846e-01  3.45339265e-09  4.58577846e-01  3.61273845e-09  3.29639632e-09  4.58577846e-01  4.58577846e-01  1.61274548e-07  1.55313741e-07  2.20000000e-01 
 2.30000000e-01  4.58577853e-01  3.45339265e-09  4.58577853e-01  3.61273845e-09  3.29639632e-09  4.58577853e-01  4.58577854e-01  1.61274559e-07  1.55313606e-07  2.30000000e-01 
 2.40000000e-01  4.58577863e-01  3.45339265e-09  4.58577863e-01  3.61273851e-09  3.29639637e-09  4.58577863e-01  4.58577863e-01  1.61274575e-07  1.55313568e-07  2.40000000e-01 
 2.50000000e-01  4.58577855e-01  3.45339265e-09  4.58577855e-01  3.61273845e-09  3.29639632e-09  4.58577855e-01  4.58577855e-01  1.61274570e-07  1.55313121e-07  2.50000000e-01 
 2.60000000e-01  4.58577832e-01  3.45339264e-09  4.58577832e-01  3.61273850e-09  3.29639631e-09  4.58577832e-01  4.58577832e-01  1.61274530e-07  1.55313055e-07  2.60000000e-01 
 2.70000000e-01  4.58577830e-01  3.45339264e-09  4.58577830e-01  3.61273845e-09  3.29639637e-09  4.58577830e-01  4.58577830e-01  1.61274547e-07  1.55312867e-07  2.70000000e-01 
 2.80000000e-01  4.58577833e-01  3.45339264e-09  4.58577833e-01  3.61273850e-09  3.29639637e-09  4.58577833e-01  4.58577834e-01  1.61274535e-07  1.55312762e-07  2.80000000e-01 
 2.90000000e-01  4.58577830e-01  3.45339264e-09  4.58577830e-01  3.61273845e-09  3.29639631e-09  4.58577830e-01  4.58577830e-01  1.61274538e-07  1.55312563e-07  2.90000000e-01 
 3.00000000e-01  4.58577856e-01  3.45339265e-09  4.58577856e-01  3.61273845e-09  3.29639632e-09  4.58577856e-01  4.58577856e-01  1.61274576e-07  1.55312566e-07  3.00000000e-01 
 3.10000000e-01  4.58577865e-01  3.45339265e-09  4.58577865e-01  3.61273845e-09  3.29639632e-09  4.58577865e-01  4.58577865e-01  1.61274585e-07  1.55312321e-07  3.10000000e-01 
 3.20000000e-01  4.58577833e-01  3.45339264e-09  4.58577834e-01  3.61273850e-09  3.29639631e-09  4.58577833e-01  4.58577834e-01  1.61274551e-07  1.55312129e-07  3.20000000e-01 
 3.30000000e-01  4.58577832e-01  3.45339270e-09  4.58577832e-01  3.61273845e-09  3.29639631e-09  4.58577832e-01  4.58577832e-01  1.61274537e-07  1.55311909e-07  3.30000000e-01 
 3.40000000e-01  4.58577847e-01  3.45339263e-09  4.58577847e-01  3.61273850e-09  3.29639637e-09  4.58577847e-01  4.58577847e-01  1.61274558e-07  1.55311849e-07  3.40000000e-01 
 3.50000000e-01  4.58577819e-01  3.45339265e-09  4.58577819e-01  3.61273844e-09  3.29639637e-09  4.58577819e-01  4.58577819e-01  1.61274534e-07  1.55311678e-07  3.50000000e-01 
 3.60000000e-01  4.58577842e-01  3.45339265e-09  4.58577842e-01  3.61273845e-09  3.29639632e-09  4.58577842e-01  4.58577842e-01  1.61274548e-07  1.55311522e-07  3.60000000e-01 
 3.70000000e-01  4.58577846e-01  3.45339265e-09  4.58577846e-01  3.61273845e-09  3.29639632e-09  4.58577846e-01  4.58577846e-01  1.61274556e-07  1.55311479e-07  3.70000000e-01 
 3.80000000e-01  4.58577837e-01  3.45339265e-09  4.58577837e-01  3.61273845e-09  3.29639637e-09  4.58577837e-01  4.58577837e-01  1.61274546e-07  1.55311248e-07  3.80000000e-01 
 3.90000000e-01  4.58577848e-01  3.45339265e-09  4.58577848e-01  3.61273850e-09  3.29639632e-09  4.58577848e-01  4.58577849e-01  1.61274570e-07  1.55311110e-07  3.90000000e-01 
 4.00000000e-01  4.58577830e-01  3.45339264e-09  4.58577830e-01  3.61273850e-09  3.29639631e-09  4.58577830e-01  4.58577831e-01  1.61274536e-07  1.55310964e-07  4.00000000e-01 
 4.10000000e-01  4.58577837e-01  3.45339265e-09  4.58577837e-01  3.61273850e-09  3.29639637e-09  4.58577837e-01  4.58577837e-01  1.61274545e-07  1.55310879e-07  4.10000000e-01 
 4.20000000e-01  4.58577830e-01  3.45339264e-09  4.58577830e-01  3.61273850e-09  3.29639637e-09  4.58577830e-01  4.58577831e-01  1.61274532e-07  1.55310733e-07  4.20000000e-01 
 4.30000000e-01  4.58577849e-01  3.45339265e-09  4.58577849e-01  3.61273845e-09  3.29639632e-09  4.58577849e-01  4.58577849e-01  1.61274562e-07  1.55310726e-07  4.30000000e-01 
 4.40000000e-01  4.58577824e-01  3.45339264e-09  4.58577824e-01  3.61273844e-09  3.29639637e-09  4.58577824e-01  4.58577824e-01  1.61274516e-07  1.55310467e-07  4.40000000e-01 
 4.50000000e-01  4.58577820e-01  3.45339270e-09  4.58577820e-01  3.61273844e-09  3.29639631e-09  4.58577820e-01  4.58577820e-01  1.61274525e-07  1.55310438e-07  4.50000000e-01 
 4.60000000e-01  4.58577830e-01  3.45339263e-09  4.58577830e-01  3.61273845e-09  3.29639637e-09  4.58577830e-01  4.58577830e-01  1.61274543e-07  1.55310246e-07  4.60000000e-01 
 4.70000000e-01  4.58577843e-01  3.45339271e-09  4.58577843e-01  3.61273845e-09  3.29639632e-09  4.58577843e-01  4.58577843e-01  1.61274541e-07  1.55310175e-07  4.70000000e-01 
 4.80000000e-01  4.58577856e-01  3.45339264e-09  4.58577856e-01  3.61273851e-09  3.29639632e-09  4.58577856e-01  4.58577856e-01  1.61274572e-07  1.55310076e-07  4.80000000e-01 
 4.90000000e-01  4.58577845e-01  3.45339265e-09  4.58577845e-01  3.61273845e-09  3.29639632e-09  4.58577845e-01  4.58577846e-01  1.61274548e-07  1.55310065e-07  4.90000000e-01 
 5.00000000e-01  4.58577835e-01  3.45339270e-09  4.58577835e-01  3.61273850e-09  3.29639632e-09  4.58577835e-01  4.58577835e-01  1.61274541e-07  1.55309753e-07  5.00000000e-01 
 5.10000000e-01  4.58577840e-01  3.45339263e-09  4.58577840e-01  3.61273850e-09  3.29639632e-09  4.58577840e-01  4.58577840e-01  1.61274544e-07  1.55309738e-07  5.10000000e-01 
 5.20000000e-01  4.58577843e-01  3.45339265e-09  4.58577843e-01  3.61273845e-09  3.29639632e-09  4.58577843e-01  4.58577843e-01  1.61274553e-07  1.55309689e-07  5.20000000e-01 
 5.30000000e-01  4.58577858e-01  3.45339265e-09  4.58577858e-01  3.61273845e-09  3.29639632e-09  4.58577858e-01  4.58577858e-01  1.61274574e-07  1.55309600e-07  5.30000000e-01 
 5.40000000e-01  4.58577831e-01  3.45339264e-09  4.58577831e-01  3.61273845e-09  3.29639631e-09  4.58577831e-01  4.58577831e-01  1.61274541e-07  1.55309483e-07  5.40000000e-01 
 5.50000000e-01  4.58577833e-01  3.45339264e-09  4.58577833e-01  3.61273845e-09  3.29639631e-09  4.58577833e-01  4.58577834e-01  1.61274542e-07  1.55309248e-07  5.50000000e-01 
 5.60000000e-01  4.58577842e-01  3.45339265e-09  4.58577842e-01  3.61273850e-09  3.29639637e-09  4.58577842e-01  4.58577842e-01  1.61274552e-07  1.55309188e-07  5.60000000e-01 
 5.70000000e-01  4.58577867e-01  3.45339265e-09  4.58577867e-01  3.61273851e-09  3.29639632e-09  4.58577867e-01  4.58577867e-01  1.61274578e-07  1.55309142e-07  5.70000000e-01 
 5.80000000e-01  4.58577827e-01  3.45339270e-09  4.58577827e-01  3.61273850e-09  3.29639631e-09  4.58577827e-01  4.58577827e-01  1.61274517e-07  1.55308904e-07  5.80000000e-01 
 5.90000000e-01  4.58577856e-01  3.45339264e-09  4.58577856e-01  3.61273845e-09  3.29639632e-09  4.58577856e-01  4.58577856e-01  1.61274570e-07  1.55308925e-07  5.90000000e-01 
 6.00000000e-01  4.58577880e-01  3.45339266e-09  4.58577880e-01  3.61273851e-09  3.29639632e-09  4.58577880e-01  4.58577880e-01  1.61274602e-07  1.55308840e-07  6.00000000e-01 
 6.10000000e-01  4.58577827e-01  3.45339264e-09  4.58577827e-01  3.61273850e-09  3.29639631e-09  4.58577827e-01  4.58577827e-01  1.61274515e-07  1.55308499e-07  6.10000000e-01 
 6.20000000e-01  4.58577842e-01  3.45339265e-09  4.58577842e-01  3.61273850e-09  3.29639632e-09  4.58577842e-01  4.58577842e-01  1.61274568e-07  1.55308463e-07  6.20000000e-01 
 6.30000000e-01  4.58577855e-01  3.45339265e-09  4.58577855e-01  3.61273845e-09  3.29639632e-09  4.58577855e-01  4.58577855e-01  1.61274572e-07  1.55308499e-07  6.30000000e-01 
 6.40000000e-01  4.58577849e-01  3.45339265e-09  4.58577849e-01  3.61273845e-09  3.29639637e-09  4.58577849e-01  4.58577850e-01  1.61274557e-07  1.55308335e-07  6.40000000e-01 
 6.50000000e-01  4.58577856e-01  3.45339265e-09  4.58577856e-01  3.61273845e-09  3.29639637e-09  4.58577856e-01  4.58577856e-01  1.61274570e-07  1.55308228e-07  6.50000000e-01 
 6.60000000e-01  4.58577858e-01  3.45339265e-09  4.58577858e-01  3.61273845e-09  3.29639632e-09  4.58577858e-01  4.58577858e-01  1.61274571e-07  1.55308115e-07  6.60000000e-01 
 6.70000000e-01  4.58577838e-01  3.45339265e-09  4.58577838e-01  3.61273845e-09  3.29639637e-09  4.58577838e-01  4.58577838e-01  1.61274554e-07  1.55307859e-07  6.70000000e-01 
 6.80000000e-01  4.58577846e-01  3.45339265e-09  4.58577846e-01  3.61273850e-09  3.29639637e-09  4.58577846e-01  4.58577846e-01  1.61274561e-07  1.55307760e-07  6.80000000e-01 
 6.90000000e-01  4.58577853e-01  3.45339265e-09  4.58577853e-01  3.61273850e-09  3.29639632e-09  4.58577853e-01  4.58577853e-01  1.61274565e-07  1.55307866e-07  6.90000000e-01 
 7.00000000e-01  4.58577841e-01  3.45339265e-09  4.58577841e-01  3.61273850e-09  3.29639632e-09  4.58577841e-01  4.58577841e-01  1.61274551e-07  1.55307589e-07  7.00000000e-01 
 7.10000000e-01  4.58577854e-01  3.45339265e-09  4.58577854e-01  3.61273851e-09  3.29639632e-09  4.58577854e-01  4.58577854e-01  1.61274577e-07  1.55307511e-07  7.10000000e-01 
 7.20000000e-01  4.58577860e-01  3.45339265e-09  4.58577860e-01  3.61273851e-09  3.29639632e-09  4.58577860e-01  4.58577860e-01  1.61274573e-07  1.55307468e-07  7.20000000e-01 
 7.30000000e-01  4.58577809e-01  3.45339264e-09  4.58577809e-01  3.61273850e-09  3.29639631e-09  4.58577809e-01  4.58577809e-01  1.61274507e-07  1.55307092e-07  7.30000000e-01 
 7.40000000e-01  4.58577845e-01  3.45339270e-09  4.58577845e-01  3.61273850e-09  3.29639632e-09  4.58577845e-01  4.58577845e-01  1.61274554e-07  1.55307184e-07  7.40000000e-01 
 7.50000000e-01  4.58577855e-01  3.45339269e-09  4.58577855e-01  3.61273851e-09  3.29639632e-09  4.58577855e-01  4.58577856e-01  1.61274564e-07  1.55306992e-07  7.50000000e-01 
 7.60000000e-01  4.58577840e-01  3.45339264e-09  4.58577840e-01  3.61273845e-09  3.29639632e-09  4.58577840e-01  4.58577841e-01  1.61274546e-07  1.55306807e-07  7.60000000e-01 
 7.70000000e-01  4.58577851e-01  3.45339265e-09  4.58577851e-01  3.61273850e-09  3.29639637e-09  4.58577851e-01  4.58577851e-01  1.61274567e-07  1.55306893e-07  7.70000000e-01 
 7.80000000e-01  4.58577827e-01  3.45339264e-09  4.58577827e-01  3.61273844e-09  3.29639631e-09  4.58577827e-01  4.58577827e-01  1.61274543e-07  1.55306559e-07  7.80000000e-01 
 7.90000000e-01  4.58577837e-01  3.45339270e-09  4.58577837e-01  3.61273850e-09  3.29639637e-09  4.58577837e-01  4.58577837e-01  1.61274544e-07  1.55306580e-07  7.90000000e-01 
 8.00000000e-01  4.58577838e-01  3.45339263e-09  4.58577838e-01  3.61273850e-09  3.29639632e-09  4.58577838e-01  4.58577838e-01  1.61274532e-07  1.55306410e-07  8.00000000e-01 
 8.10000000e-01  4.58577835e-01  3.45339265e-09  4.58577835e-01  3.61273850e-09  3.29639637e-09  4.58577835e-01  4.58577835e-01  1.61274532e-07  1.55306225e-07  8.10000000e-01 
 8.20000000e-01  4.58577844e-01  3.45339270e-09  4.58577844e-01  3.61273850e-09  3.29639637e-09  4.58577844e-01  4.58577844e-01  1.61274563e-07  1.55306211e-07  8.20000000e-01 
 8.30000000e-01  4.58577842e-01  3.45339263e-09  4.58577842e-01  3.61273850e-09  3.29639632e-09  4.58577842e-01  4.58577842e-01  1.61274543e-07  1.55306033e-07  8.30000000e-01 
 8.40000000e-01  4.58577831e-01  3.45339265e-09  4.58577831e-01  3.61273850e-09  3.29639637e-09  4.58577831e-01  4.58577831e-01  1.61274532e-07  1.55305912e-07  8.40000000e-01 
 8.50000000e-01  4.58577848e-01  3.45339270e-09  4.58577848e-01  3.61273845e-09  3.29639637e-09  4.58577848e-01  4.58577848e-01  1.61274552e-07  1.55305763e-07  8.50000000e-01 
 8.60000000e-01  4.58577834e-01  3.45339263e-09  4.58577834e-01  3.61273845e-09  3.29639637e-09  4.58577834e-01  4.58577834e-01  1.61274526e-07  1.55305685e-07  8.60000000e-01 
 8.70000000e-01  4.58577857e-01  3.45339265e-09  4.58577857e-01  3.61273845e-09  3.29639632e-09  4.58577857e-01  4.58577857e-01  1.61274587e-07  1.55305550e-07  8.70000000e-01 
 8.80000000e-01  4.58577866e-01  3.45339265e-09  4.58577866e-01  3.61273851e-09  3.29639632e-09  4.58577866e-01  4.58577866e-01  1.61274586e-07  1.55305564e-07  8.80000000e-01 
 8.90000000e-01  4.58577837e-01  3.45339265e-09  4.58577837e-01  3.61273845e-09  3.29639637e-09  4.58577837e-01  4.58577837e-01  1.61274541e-07  1.55305351e-07  8.90000000e-01 
 9.00000000e-01  4.58577843e-01  3.45339270e-09  4.58577843e-01  3.61273850e-09  3.29639632e-09  4.58577843e-01  4.58577843e-01  1.61274549e-07  1.55305166e-07  9.00000000e-01 
 9.10000000e-01  4.58577846e-01  3.45339269e-09  4.58577846e-01  3.61273845e-09  3.29639637e-09  4.58577846e-01  4.58577846e-01  1.61274554e-07  1.55305138e-07  9.10000000e-01 
 9.20000000e-01  4.58577852e-01  3.45339264e-09  4.58577852e-01  3.61273845e-09  3.29639632e-09  4.58577852e-01  4.58577852e-01  1.61274566e-07  1.55304960e-07  9.20000000e-01 
 9.30000000e-01  4.58577848e-01  3.45339265e-09  4.58577848e-01  3.61273845e-09  3.29639632e-09  4.58577848e-01  4.58577848e-01  1.61274562e-07  1.55304782e-07  9.30000000e-01 
 9.40000000e-01  4.58577844e-01  3.45339265e-09  4.58577844e-01  3.61273850e-09  3.29639632e-09  4.58577844e-01  4.58577844e-01  1.61274563e-07  1.55304740e-07  9.40000000e-01 
 9.50000000e-01  4.58577832e-01  3.45339264e-09  4.58577832e-01  3.61273850e-09  3.29639637e-09  4.58577832e-01  4.58577832e-01  1.61274539e-07  1.55304512e-07  9.50000000e-01 
 9.60000000e-01  4.58577828e-01  3.45339264e-09  4.58577828e-01  3.61273844e-09  3.29639631e-09  4.58577828e-01  4.58577828e-01  1.61274526e-07  1.55304299e-07  9.60000000e-01 
 9.70000000e-01  4.58577832e-01  3.45339264e-09  4.58577832e-01  3.61273845e-09  3.29639637e-09  4.58577832e-01  4.58577832e-01  1.61274536e-07  1.55304278e-07  9.70000000e-01 
 9.80000000e-01  4.58577854e-01  3.45339265e-09  4.58577854e-01  3.61273845e-09  3.29639632e-09  4.58577854e-01  4.58577854e-01  1.61274566e-07  1.55304271e-07  9.80000000e-01 
 9.90000000e-01  4.58577850e-01  3.45339265e-09  4.58577850e-01  3.61273845e-09  3.29639637e-09  4.58577850e-01  4.58577850e-01  1.61274556e-07  1.55304051e-07  9.90000000e-01 
 1.00000000e+00  4.58577829e-01  3.45339264e-09  4.58577829e-01  3.61273850e-09  3.29639631e-09  4.58577829e-01  4.58577829e-01  1.61274531e-07  1.55303844e-07  1.00000000e+00 
 1.01000000e+00  4.58577825e-01  3.45339264e-09  4.58577825e-01  3.61273844e-09  3.29639637e-09  4.58577825e-01  4.58577826e-01  1.61274527e-07  1.55303709e-07  1.01000000e+00 
 1.02000000e+00  4.58577845e-01  3.45339265e-09  4.58577845e-01  3.61273845e-09  3.29639632e-09  4.58577844e-01  4.58577845e-01  1.61274560e-07  1.55303738e-07  1.02000000e+00 
 1.03000000e+00  4.58577837e-01  3.45339265e-09  4.58577837e-01  3.61273850e-09  3.29639632e-09  4.58577837e-01  4.58577837e-01  1.61274545e-07  1.55303539e-07  1.03000000e+00 
 1.04000000e+00  4.58577818e-01  3.45339264e-09  4.58577818e-01  3.61273850e-09  3.29639637e-09  4.58577818e-01  4.58577818e-01  1.61274510e-07  1.55303240e-07  1.04000000e+00 
 1.05000000e+00  4.58577849e-01  3.45339265e-09  4.58577849e-01  3.61273845e-09  3.29639632e-09  4.58577849e-01  4.58577849e-01  1.61274568e-07  1.55303177e-07  1.05000000e+00 
 1.06000000e+00  4.58577852e-01  3.45339270e-09  4.58577852e-01  3.61273845e-09  3.29639632e-09  4.58577852e-01  4.58577852e-01  1.61274560e-07  1.55303134e-07  1.06000000e+00 
 1.07000000e+00  4.58577824e-01  3.45339269e-09  4.58577824e-01  3.61273850e-09  3.29639631e-09  4.58577824e-01  4.58577824e-01  1.61274512e-07  1.55302871e-07  1.07000000e+00 
 1.08000000e+00  4.58577848e-01  3.45339264e-09  4.58577848e-01  3.61273845e-09  3.29639637e-09  4.58577848e-01  4.58577849e-01  1.61274566e-07  1.55302885e-07  1.08000000e+00 
 1.09000000e+00  4.58577847e-01  3.45339265e-09  4.58577847e-01  3.61273850e-09  3.29639632e-09  4.58577846e-01  4.58577847e-01  1.61274556e-07  1.55302651e-07  1.09000000e+00 
 1.10000000e+00  4.58577842e-01  3.45339265e-09  4.58577842e-01  3.61273850e-09  3.29639632e-09  4.58577842e-01  4.58577842e-01  1.61274542e-07  1.55302480e-07  1.10000000e+00 
