 v-sweep         v(b0)           v(b1)           v(b2)           v(b3)           v(b4)           v(b5)           v(b6)           i(vbias)        i(viout)        v(vout)        
 0.00000000e+00  3.50989598e-09  4.55508511e-01  3.11154224e-09  4.55508511e-01  4.55508511e-01  3.36367808e-09  3.48863363e-09  1.54937765e-07  3.70301359e-08  0.00000000e+00 
 1.00000000e-02  3.50989595e-09  4.55508552e-01  3.11154221e-09  4.55508552e-01  4.55508552e-01  3.36367811e-09  3.48863366e-09  1.54937823e-07  3.70297312e-08  1.00000000e-02 
 2.00000000e-02  3.50989595e-09  4.55508515e-01  3.11154221e-09  4.55508515e-01  4.55508515e-01  3.36367811e-09  3.48863365e-09  1.54937763e-07  3.70293758e-08  2.00000000e-02 
 3.00000000e-02  3.50989601e-09  4.55508539e-01  3.11154221e-09  4.55508539e-01  4.55508539e-01  3.36367811e-09  3.48863366e-09  1.54937799e-07  3.70290825e-08  3.00000000e-02 
 4.00000000e-02  3.50989600e-09  4.55508504e-01  3.11154226e-09  4.55508504e-01  4.55508504e-01  3.36367811e-09  3.48863365e-09  1.54937760e-07  3.70286961e-08  4.00000000e-02 
 5.00000000e-02  3.50989595e-09  4.55508556e-01  3.11154227e-09  4.55508556e-01  4.55508556e-01  3.36367805e-09  3.48863366e-09  1.54937830e-07  3.70283235e-08  5.00000000e-02 
 6.00000000e-02  3.50989601e-09  4.55508544e-01  3.11154221e-09  4.55508544e-01  4.55508544e-01  3.36367811e-09  3.48863366e-09  1.54937807e-07  3.70280633e-08  6.00000000e-02 
 7.00000000e-02  3.50989600e-09  4.55508511e-01  3.11154221e-09  4.55508511e-01  4.55508511e-01  3.36367805e-09  3.48863365e-09  1.54937765e-07  3.70278186e-08  7.00000000e-02 
 8.00000000e-02  3.50989595e-09  4.55508540e-01  3.11154226e-09  4.55508540e-01  4.55508540e-01  3.36367805e-09  3.48863366e-09  1.54937791e-07  3.70275410e-08  8.00000000e-02 
 9.00000000e-02  3.50989601e-09  4.55508539e-01  3.11154226e-09  4.55508539e-01  4.55508539e-01  3.36367805e-09  3.48863366e-09  1.54937786e-07  3.70272462e-08  9.00000000e-02 
 1.00000000e-01  3.50989595e-09  4.55508521e-01  3.11154221e-09  4.55508521e-01  4.55508521e-01  3.36367811e-09  3.48863365e-09  1.54937782e-07  3.70269726e-08  1.00000000e-01 
 1.10000000e-01  3.50989600e-09  4.55508531e-01  3.11154221e-09  4.55508531e-01  4.55508531e-01  3.36367811e-09  3.48863366e-09  1.54937803e-07  3.70267532e-08  1.10000000e-01 
 1.20000000e-01  3.50989595e-09  4.55508546e-01  3.11154227e-09  4.55508546e-01  4.55508546e-01  3.36367805e-09  3.48863366e-09  1.54937829e-07  3.70263846e-08  1.20000000e-01 
 1.30000000e-01  3.50989594e-09  4.55508494e-01  3.11154221e-09  4.55508494e-01  4.55508494e-01  3.36367805e-09  3.48863365e-09  1.54937743e-07  3.70262612e-08  1.30000000e-01 
 1.40000000e-01  3.50989595e-09  4.55508511e-01  3.11154226e-09  4.55508511e-01  4.55508511e-01  3.36367805e-09  3.48863365e-09  1.54937759e-07  3.70259983e-08  1.40000000e-01 
 1.50000000e-01  3.50989595e-09  4.55508514e-01  3.11154226e-09  4.55508514e-01  4.55508514e-01  3.36367811e-09  3.48863365e-09  1.54937782e-07  3.70258366e-08  1.50000000e-01 
 1.60000000e-01  3.50989595e-09  4.55508510e-01  3.11154221e-09  4.55508510e-01  4.55508510e-01  3.36367811e-09  3.48863371e-09  1.54937765e-07  3.70256235e-08  1.60000000e-01 
 1.70000000e-01  3.50989595e-09  4.55508533e-01  3.11154221e-09  4.55508533e-01  4.55508533e-01  3.36367805e-09  3.48863366e-09  1.54937798e-07  3.70254050e-08  1.70000000e-01 
 1.80000000e-01  3.50989600e-09  4.55508535e-01  3.11154226e-09  4.55508535e-01  4.55508535e-01  3.36367805e-09  3.48863366e-09  1.54937799e-07  3.70253641e-08  1.80000000e-01 
 1.90000000e-01  3.50989600e-09  4.55508531e-01  3.11154226e-09  4.55508531e-01  4.55508531e-01  3.36367805e-09  3.48863366e-09  1.54937795e-07  3.70250746e-08  1.90000000e-01 
 2.00000000e-01  3.50989595e-09  4.55508536e-01  3.11154221e-09  4.55508536e-01  4.55508536e-01  3.36367805e-09  3.48863366e-09  1.54937805e-07  3.70249538e-08  2.00000000e-01 
 2.10000000e-01  3.50989595e-09  4.55508528e-01  3.11154221e-09  4.55508528e-01  4.55508528e-01  3.36367811e-09  3.48863365e-09  1.54937783e-07  3.70248259e-08  2.10000000e-01 
 2.20000000e-01  3.50989595e-09  4.55508540e-01  3.11154226e-09  4.55508540e-01  4.55508540e-01  3.36367811e-09  3.48863371e-09  1.54937825e-07  3.70246571e-08  2.20000000e-01 
 2.30000000e-01  3.50989595e-09  4.55508508e-01  3.11154221e-09  4.55508508e-01  4.55508508e-01  3.36367811e-09  3.48863365e-09  1.54937759e-07  3.70245647e-08  2.30000000e-01 
 2.40000000e-01  3.50989595e-09  4.55508542e-01  3.11154226e-09  4.55508542e-01  4.55508542e-01  3.36367811e-09  3.48863366e-09  1.54937808e-07  3.70244368e-08  2.40000000e-01 
 2.50000000e-01  3.50989595e-09  4.55508537e-01  3.11154221e-09  4.55508537e-01  4.55508537e-01  3.36367805e-09  3.48863366e-09  1.54937805e-07  3.70242557e-08  2.50000000e-01 
 2.60000000e-01  3.50989595e-09  4.55508520e-01  3.11154226e-09  4.55508520e-01  4.55508520e-01  3.36367805e-09  3.48863365e-09  1.54937784e-07  3.70240230e-08  2.60000000e-01 
 2.70000000e-01  3.50989595e-09  4.55508538e-01  3.11154221e-09  4.55508538e-01  4.55508538e-01  3.36367811e-09  3.48863366e-09  1.54937807e-07  3.70239537e-08  2.70000000e-01 
 2.80000000e-01  3.50989595e-09  4.55508518e-01  3.11154226e-09  4.55508517e-01  4.55508517e-01  3.36367805e-09  3.48863365e-09  1.54937776e-07  3.70239324e-08  2.80000000e-01 
 2.90000000e-01  3.50989595e-09  4.55508527e-01  3.11154226e-09  4.55508527e-01  4.55508527e-01  3.36367805e-09  3.48863365e-09  1.54937800e-07  3.70237494e-08  2.90000000e-01 
 3.00000000e-01  3.50989595e-09  4.55508531e-01  3.11154226e-09  4.55508531e-01  4.55508531e-01  3.36367805e-09  3.48863371e-09  1.54937791e-07  3.70236251e-08  3.00000000e-01 
 3.10000000e-01  3.50989595e-09  4.55508521e-01  3.11154221e-09  4.55508520e-01  4.55508520e-01  3.36367805e-09  3.48863371e-09  1.54937765e-07  3.70235220e-08  3.10000000e-01 
 3.20000000e-01  3.50989595e-09  4.55508524e-01  3.11154226e-09  4.55508524e-01  4.55508524e-01  3.36367805e-09  3.48863371e-09  1.54937783e-07  3.70234758e-08  3.20000000e-01 
 3.30000000e-01  3.50989595e-09  4.55508546e-01  3.11154227e-09  4.55508546e-01  4.55508546e-01  3.36367805e-09  3.48863366e-09  1.54937814e-07  3.70235220e-08  3.30000000e-01 
 3.40000000e-01  3.50989595e-09  4.55508518e-01  3.11154226e-09  4.55508518e-01  4.55508518e-01  3.36367805e-09  3.48863365e-09  1.54937777e-07  3.70233018e-08  3.40000000e-01 
 3.50000000e-01  3.50989595e-09  4.55508518e-01  3.11154226e-09  4.55508518e-01  4.55508518e-01  3.36367811e-09  3.48863365e-09  1.54937790e-07  3.70231845e-08  3.50000000e-01 
 3.60000000e-01  3.50989595e-09  4.55508542e-01  3.11154221e-09  4.55508541e-01  4.55508542e-01  3.36367805e-09  3.48863366e-09  1.54937825e-07  3.70231668e-08  3.60000000e-01 
 3.70000000e-01  3.50989595e-09  4.55508514e-01  3.11154221e-09  4.55508514e-01  4.55508514e-01  3.36367805e-09  3.48863365e-09  1.54937773e-07  3.70230495e-08  3.70000000e-01 
 3.80000000e-01  3.50989600e-09  4.55508507e-01  3.11154221e-09  4.55508507e-01  4.55508507e-01  3.36367805e-09  3.48863365e-09  1.54937766e-07  3.70230424e-08  3.80000000e-01 
 3.90000000e-01  3.50989595e-09  4.55508533e-01  3.11154221e-09  4.55508532e-01  4.55508533e-01  3.36367805e-09  3.48863366e-09  1.54937791e-07  3.70229536e-08  3.90000000e-01 
 4.00000000e-01  3.50989595e-09  4.55508497e-01  3.11154221e-09  4.55508497e-01  4.55508497e-01  3.36367805e-09  3.48863365e-09  1.54937745e-07  3.70227191e-08  4.00000000e-01 
 4.10000000e-01  3.50989600e-09  4.55508493e-01  3.11154226e-09  4.55508492e-01  4.55508492e-01  3.36367811e-09  3.48863365e-09  1.54937741e-07  3.70227582e-08  4.10000000e-01 
 4.20000000e-01  3.50989601e-09  4.55508540e-01  3.11154226e-09  4.55508540e-01  4.55508540e-01  3.36367805e-09  3.48863366e-09  1.54937813e-07  3.70227013e-08  4.20000000e-01 
 4.30000000e-01  3.50989595e-09  4.55508529e-01  3.11154226e-09  4.55508529e-01  4.55508529e-01  3.36367805e-09  3.48863365e-09  1.54937792e-07  3.70225983e-08  4.30000000e-01 
 4.40000000e-01  3.50989595e-09  4.55508512e-01  3.11154221e-09  4.55508512e-01  4.55508512e-01  3.36367805e-09  3.48863365e-09  1.54937752e-07  3.70224846e-08  4.40000000e-01 
 4.50000000e-01  3.50989600e-09  4.55508534e-01  3.11154221e-09  4.55508534e-01  4.55508534e-01  3.36367805e-09  3.48863366e-09  1.54937816e-07  3.70224633e-08  4.50000000e-01 
 4.60000000e-01  3.50989595e-09  4.55508515e-01  3.11154221e-09  4.55508515e-01  4.55508515e-01  3.36367811e-09  3.48863371e-09  1.54937756e-07  3.70224384e-08  4.60000000e-01 
 4.70000000e-01  3.50989600e-09  4.55508524e-01  3.11154221e-09  4.55508524e-01  4.55508524e-01  3.36367805e-09  3.48863365e-09  1.54937793e-07  3.70222750e-08  4.70000000e-01 
 4.80000000e-01  3.50989595e-09  4.55508539e-01  3.11154226e-09  4.55508539e-01  4.55508539e-01  3.36367805e-09  3.48863366e-09  1.54937813e-07  3.70223283e-08  4.80000000e-01 
 4.90000000e-01  3.50989595e-09  4.55508521e-01  3.11154221e-09  4.55508521e-01  4.55508521e-01  3.36367811e-09  3.48863365e-09  1.54937783e-07  3.70221827e-08  4.90000000e-01 
 5.00000000e-01  3.50989595e-09  4.55508527e-01  3.11154221e-09  4.55508527e-01  4.55508527e-01  3.36367805e-09  3.48863365e-09  1.54937797e-07  3.70221542e-08  5.00000000e-01 
 5.10000000e-01  3.50989595e-09  4.55508520e-01  3.11154226e-09  4.55508519e-01  4.55508519e-01  3.36367805e-09  3.48863365e-09  1.54937775e-07  3.70220583e-08  5.10000000e-01 
 5.20000000e-01  3.50989595e-09  4.55508538e-01  3.11154226e-09  4.55508538e-01  4.55508538e-01  3.36367811e-09  3.48863366e-09  1.54937819e-07  3.70221933e-08  5.20000000e-01 
 5.30000000e-01  3.50989595e-09  4.55508528e-01  3.11154226e-09  4.55508527e-01  4.55508527e-01  3.36367805e-09  3.48863365e-09  1.54937788e-07  3.70220050e-08  5.30000000e-01 
 5.40000000e-01  3.50989600e-09  4.55508538e-01  3.11154221e-09  4.55508537e-01  4.55508537e-01  3.36367811e-09  3.48863366e-09  1.54937802e-07  3.70219873e-08  5.40000000e-01 
 5.50000000e-01  3.50989595e-09  4.55508538e-01  3.11154226e-09  4.55508537e-01  4.55508537e-01  3.36367811e-09  3.48863366e-09  1.54937791e-07  3.70218949e-08  5.50000000e-01 
 5.60000000e-01  3.50989595e-09  4.55508515e-01  3.11154226e-09  4.55508515e-01  4.55508515e-01  3.36367805e-09  3.48863371e-09  1.54937776e-07  3.70217919e-08  5.60000000e-01 
 5.70000000e-01  3.50989595e-09  4.55508517e-01  3.11154226e-09  4.55508516e-01  4.55508516e-01  3.36367805e-09  3.48863365e-09  1.54937769e-07  3.70217599e-08  5.70000000e-01 
 5.80000000e-01  3.50989595e-09  4.55508528e-01  3.11154226e-09  4.55508528e-01  4.55508528e-01  3.36367805e-09  3.48863365e-09  1.54937793e-07  3.70217421e-08  5.80000000e-01 
 5.90000000e-01  3.50989595e-09  4.55508557e-01  3.11154221e-09  4.55508556e-01  4.55508556e-01  3.36367805e-09  3.48863366e-09  1.54937818e-07  3.70216426e-08  5.90000000e-01 
 6.00000000e-01  3.50989595e-09  4.55508526e-01  3.11154221e-09  4.55508526e-01  4.55508526e-01  3.36367811e-09  3.48863371e-09  1.54937795e-07  3.70216071e-08  6.00000000e-01 
 6.10000000e-01  3.50989595e-09  4.55508506e-01  3.11154226e-09  4.55508506e-01  4.55508506e-01  3.36367811e-09  3.48863365e-09  1.54937767e-07  3.70214508e-08  6.10000000e-01 
 6.20000000e-01  3.50989595e-09  4.55508512e-01  3.11154226e-09  4.55508512e-01  4.55508512e-01  3.36367805e-09  3.48863365e-09  1.54937753e-07  3.70214721e-08  6.20000000e-01 
 6.30000000e-01  3.50989594e-09  4.55508491e-01  3.11154221e-09  4.55508491e-01  4.55508491e-01  3.36367805e-09  3.48863365e-09  1.54937742e-07  3.70213442e-08  6.30000000e-01 
 6.40000000e-01  3.50989595e-09  4.55508528e-01  3.11154221e-09  4.55508528e-01  4.55508528e-01  3.36367805e-09  3.48863365e-09  1.54937801e-07  3.70214295e-08  6.40000000e-01 
 6.50000000e-01  3.50989595e-09  4.55508521e-01  3.11154221e-09  4.55508521e-01  4.55508521e-01  3.36367811e-09  3.48863365e-09  1.54937778e-07  3.70213300e-08  6.50000000e-01 
 6.60000000e-01  3.50989595e-09  4.55508543e-01  3.11154221e-09  4.55508542e-01  4.55508542e-01  3.36367805e-09  3.48863366e-09  1.54937819e-07  3.70213087e-08  6.60000000e-01 
 6.70000000e-01  3.50989595e-09  4.55508514e-01  3.11154226e-09  4.55508514e-01  4.55508514e-01  3.36367811e-09  3.48863365e-09  1.54937777e-07  3.70211666e-08  6.70000000e-01 
 6.80000000e-01  3.50989595e-09  4.55508537e-01  3.11154221e-09  4.55508537e-01  4.55508537e-01  3.36367811e-09  3.48863366e-09  1.54937813e-07  3.70211453e-08  6.80000000e-01 
 6.90000000e-01  3.50989600e-09  4.55508521e-01  3.11154221e-09  4.55508521e-01  4.55508521e-01  3.36367805e-09  3.48863365e-09  1.54937786e-07  3.70211879e-08  6.90000000e-01 
 7.00000000e-01  3.50989600e-09  4.55508517e-01  3.11154226e-09  4.55508517e-01  4.55508517e-01  3.36367805e-09  3.48863365e-09  1.54937766e-07  3.70210316e-08  7.00000000e-01 
 7.10000000e-01  3.50989600e-09  4.55508530e-01  3.11154226e-09  4.55508530e-01  4.55508530e-01  3.36367805e-09  3.48863365e-09  1.54937781e-07  3.70209534e-08  7.10000000e-01 
 7.20000000e-01  3.50989595e-09  4.55508536e-01  3.11154226e-09  4.55508536e-01  4.55508536e-01  3.36367805e-09  3.48863366e-09  1.54937812e-07  3.70209605e-08  7.20000000e-01 
 7.30000000e-01  3.50989595e-09  4.55508532e-01  3.11154221e-09  4.55508532e-01  4.55508532e-01  3.36367805e-09  3.48863366e-09  1.54937796e-07  3.70208468e-08  7.30000000e-01 
 7.40000000e-01  3.50989595e-09  4.55508519e-01  3.11154221e-09  4.55508518e-01  4.55508518e-01  3.36367805e-09  3.48863365e-09  1.54937779e-07  3.70207900e-08  7.40000000e-01 
 7.50000000e-01  3.50989595e-09  4.55508526e-01  3.11154226e-09  4.55508526e-01  4.55508526e-01  3.36367811e-09  3.48863371e-09  1.54937790e-07  3.70207900e-08  7.50000000e-01 
 7.60000000e-01  3.50989595e-09  4.55508512e-01  3.11154221e-09  4.55508512e-01  4.55508512e-01  3.36367805e-09  3.48863365e-09  1.54937772e-07  3.70207047e-08  7.60000000e-01 
 7.70000000e-01  3.50989595e-09  4.55508507e-01  3.11154221e-09  4.55508507e-01  4.55508507e-01  3.36367805e-09  3.48863365e-09  1.54937759e-07  3.70205555e-08  7.70000000e-01 
 7.80000000e-01  3.50989595e-09  4.55508526e-01  3.11154221e-09  4.55508526e-01  4.55508526e-01  3.36367811e-09  3.48863365e-09  1.54937802e-07  3.70205981e-08  7.80000000e-01 
 7.90000000e-01  3.50989595e-09  4.55508557e-01  3.11154221e-09  4.55508557e-01  4.55508557e-01  3.36367811e-09  3.48863366e-09  1.54937832e-07  3.70205200e-08  7.90000000e-01 
 8.00000000e-01  3.50989595e-09  4.55508515e-01  3.11154221e-09  4.55508515e-01  4.55508515e-01  3.36367811e-09  3.48863365e-09  1.54937762e-07  3.70204205e-08  8.00000000e-01 
 8.10000000e-01  3.50989595e-09  4.55508527e-01  3.11154221e-09  4.55508527e-01  4.55508527e-01  3.36367805e-09  3.48863365e-09  1.54937800e-07  3.70203992e-08  8.10000000e-01 
 8.20000000e-01  3.50989595e-09  4.55508560e-01  3.11154221e-09  4.55508560e-01  4.55508560e-01  3.36367811e-09  3.48863366e-09  1.54937842e-07  3.70204134e-08  8.20000000e-01 
 8.30000000e-01  3.50989595e-09  4.55508526e-01  3.11154226e-09  4.55508526e-01  4.55508526e-01  3.36367805e-09  3.48863365e-09  1.54937794e-07  3.70203139e-08  8.30000000e-01 
 8.40000000e-01  3.50989595e-09  4.55508519e-01  3.11154221e-09  4.55508519e-01  4.55508519e-01  3.36367805e-09  3.48863365e-09  1.54937777e-07  3.70203210e-08  8.40000000e-01 
 8.50000000e-01  3.50989595e-09  4.55508511e-01  3.11154221e-09  4.55508511e-01  4.55508511e-01  3.36367811e-09  3.48863365e-09  1.54937769e-07  3.70202358e-08  8.50000000e-01 
 8.60000000e-01  3.50989595e-09  4.55508543e-01  3.11154221e-09  4.55508543e-01  4.55508543e-01  3.36367811e-09  3.48863366e-09  1.54937827e-07  3.70202002e-08  8.60000000e-01 
 8.70000000e-01  3.50989595e-09  4.55508514e-01  3.11154226e-09  4.55508514e-01  4.55508514e-01  3.36367805e-09  3.48863365e-09  1.54937762e-07  3.70200297e-08  8.70000000e-01 
 8.80000000e-01  3.50989600e-09  4.55508524e-01  3.11154226e-09  4.55508524e-01  4.55508524e-01  3.36367805e-09  3.48863371e-09  1.54937782e-07  3.70198876e-08  8.80000000e-01 
 8.90000000e-01  3.50989595e-09  4.55508557e-01  3.11154227e-09  4.55508557e-01  4.55508557e-01  3.36367811e-09  3.48863366e-09  1.54937834e-07  3.70201576e-08  8.90000000e-01 
 9.00000000e-01  3.50989600e-09  4.55508517e-01  3.11154226e-09  4.55508517e-01  4.55508517e-01  3.36367805e-09  3.48863371e-09  1.54937770e-07  3.70197881e-08  9.00000000e-01 
 9.10000000e-01  3.50989595e-09  4.55508510e-01  3.11154226e-09  4.55508510e-01  4.55508510e-01  3.36367811e-09  3.48863365e-09  1.54937767e-07  3.70198876e-08  9.10000000e-01 
 9.20000000e-01  3.50989600e-09  4.55508525e-01  3.11154226e-09  4.55508525e-01  4.55508525e-01  3.36367805e-09  3.48863365e-09  1.54937791e-07  3.70197384e-08  9.20000000e-01 
 9.30000000e-01  3.50989595e-09  4.55508522e-01  3.11154221e-09  4.55508522e-01  4.55508522e-01  3.36367805e-09  3.48863365e-09  1.54937778e-07  3.70198165e-08  9.30000000e-01 
 9.40000000e-01  3.50989595e-09  4.55508530e-01  3.11154226e-09  4.55508530e-01  4.55508530e-01  3.36367811e-09  3.48863365e-09  1.54937793e-07  3.70198094e-08  9.40000000e-01 
 9.50000000e-01  3.50989595e-09  4.55508521e-01  3.11154221e-09  4.55508520e-01  4.55508520e-01  3.36367805e-09  3.48863365e-09  1.54937783e-07  3.70194968e-08  9.50000000e-01 
 9.60000000e-01  3.50989595e-09  4.55508516e-01  3.11154226e-09  4.55508516e-01  4.55508516e-01  3.36367811e-09  3.48863365e-09  1.54937780e-07  3.70196531e-08  9.60000000e-01 
 9.70000000e-01  3.50989595e-09  4.55508503e-01  3.11154226e-09  4.55508503e-01  4.55508503e-01  3.36367805e-09  3.48863365e-09  1.54937761e-07  3.70194613e-08  9.70000000e-01 
 9.80000000e-01  3.50989600e-09  4.55508535e-01  3.11154221e-09  4.55508535e-01  4.55508535e-01  3.36367805e-09  3.48863371e-09  1.54937812e-07  3.70194826e-08  9.80000000e-01 
 9.90000000e-01  3.50989600e-09  4.55508525e-01  3.11154226e-09  4.55508525e-01  4.55508525e-01  3.36367811e-09  3.48863365e-09  1.54937780e-07  3.70193192e-08  9.90000000e-01 
 1.00000000e+00  3.50989600e-09  4.55508529e-01  3.11154226e-09  4.55508529e-01  4.55508529e-01  3.36367805e-09  3.48863365e-09  1.54937795e-07  3.70192765e-08  1.00000000e+00 
 1.01000000e+00  3.50989595e-09  4.55508529e-01  3.11154226e-09  4.55508529e-01  4.55508529e-01  3.36367805e-09  3.48863365e-09  1.54937789e-07  3.70193476e-08  1.01000000e+00 
 1.02000000e+00  3.50989595e-09  4.55508522e-01  3.11154226e-09  4.55508522e-01  4.55508522e-01  3.36367805e-09  3.48863365e-09  1.54937779e-07  3.70191486e-08  1.02000000e+00 
 1.03000000e+00  3.50989595e-09  4.55508539e-01  3.11154226e-09  4.55508539e-01  4.55508539e-01  3.36367805e-09  3.48863366e-09  1.54937822e-07  3.70191486e-08  1.03000000e+00 
 1.04000000e+00  3.50989600e-09  4.55508488e-01  3.11154221e-09  4.55508488e-01  4.55508488e-01  3.36367805e-09  3.48863371e-09  1.54937723e-07  3.70190421e-08  1.04000000e+00 
 1.05000000e+00  3.50989595e-09  4.55508520e-01  3.11154221e-09  4.55508520e-01  4.55508520e-01  3.36367811e-09  3.48863365e-09  1.54937777e-07  3.70189923e-08  1.05000000e+00 
 1.06000000e+00  3.50989600e-09  4.55508520e-01  3.11154226e-09  4.55508520e-01  4.55508520e-01  3.36367811e-09  3.48863365e-09  1.54937776e-07  3.70189142e-08  1.06000000e+00 
 1.07000000e+00  3.50989595e-09  4.55508535e-01  3.11154221e-09  4.55508535e-01  4.55508535e-01  3.36367811e-09  3.48863366e-09  1.54937802e-07  3.70189639e-08  1.07000000e+00 
 1.08000000e+00  3.50989600e-09  4.55508519e-01  3.11154226e-09  4.55508519e-01  4.55508519e-01  3.36367805e-09  3.48863371e-09  1.54937778e-07  3.70188147e-08  1.08000000e+00 
 1.09000000e+00  3.50989595e-09  4.55508518e-01  3.11154221e-09  4.55508518e-01  4.55508518e-01  3.36367805e-09  3.48863365e-09  1.54937777e-07  3.70188218e-08  1.09000000e+00 
 1.10000000e+00  3.50989595e-09  4.55508532e-01  3.11154226e-09  4.55508532e-01  4.55508532e-01  3.36367805e-09  3.48863366e-09  1.54937813e-07  3.70186655e-08  1.10000000e+00 
