 v-sweep         v(b0)           v(b1)           v(b2)           v(b3)           v(b4)           v(b5)           v(b6)           i(vbias)        i(viout)        v(vout)        
 0.00000000e+00  4.58838231e-01  4.58838231e-01  3.41387682e-09  4.58838231e-01  3.33234375e-09  3.35664590e-09  3.40753464e-09  1.59499148e-07  1.77099586e-08  0.00000000e+00 
 1.00000000e-02  4.58838242e-01  4.58838242e-01  3.41387685e-09  4.58838242e-01  3.33234373e-09  3.35664593e-09  3.40753467e-09  1.59499162e-07  1.77096939e-08  1.00000000e-02 
 2.00000000e-02  4.58838252e-01  4.58838252e-01  3.41387684e-09  4.58838252e-01  3.33234373e-09  3.35664593e-09  3.40753467e-09  1.59499186e-07  1.77093649e-08  2.00000000e-02 
 3.00000000e-02  4.58838272e-01  4.58838272e-01  3.41387685e-09  4.58838272e-01  3.33234373e-09  3.35664593e-09  3.40753467e-09  1.59499210e-07  1.77089445e-08  3.00000000e-02 
 4.00000000e-02  4.58838284e-01  4.58838284e-01  3.41387685e-09  4.58838284e-01  3.33234373e-09  3.35664594e-09  3.40753461e-09  1.59499237e-07  1.77085502e-08  4.00000000e-02 
 5.00000000e-02  4.58838256e-01  4.58838256e-01  3.41387685e-09  4.58838256e-01  3.33234373e-09  3.35664588e-09  3.40753461e-09  1.59499188e-07  1.77083570e-08  5.00000000e-02 
 6.00000000e-02  4.58838221e-01  4.58838221e-01  3.41387685e-09  4.58838221e-01  3.33234367e-09  3.35664587e-09  3.40753461e-09  1.59499130e-07  1.77079298e-08  6.00000000e-02 
 7.00000000e-02  4.58838240e-01  4.58838240e-01  3.41387685e-09  4.58838240e-01  3.33234372e-09  3.35664588e-09  3.40753461e-09  1.59499162e-07  1.77077268e-08  7.00000000e-02 
 8.00000000e-02  4.58838245e-01  4.58838245e-01  3.41387685e-09  4.58838245e-01  3.33234373e-09  3.35664593e-09  3.40753467e-09  1.59499166e-07  1.77073671e-08  8.00000000e-02 
 9.00000000e-02  4.58838248e-01  4.58838248e-01  3.41387685e-09  4.58838248e-01  3.33234373e-09  3.35664593e-09  3.40753461e-09  1.59499183e-07  1.77070900e-08  9.00000000e-02 
 1.00000000e-01  4.58838236e-01  4.58838236e-01  3.41387685e-09  4.58838236e-01  3.33234372e-09  3.35664587e-09  3.40753461e-09  1.59499159e-07  1.77068840e-08  1.00000000e-01 
 1.10000000e-01  4.58838238e-01  4.58838238e-01  3.41387685e-09  4.58838238e-01  3.33234367e-09  3.35664587e-09  3.40753461e-09  1.59499157e-07  1.77065935e-08  1.10000000e-01 
 1.20000000e-01  4.58838251e-01  4.58838251e-01  3.41387685e-09  4.58838251e-01  3.33234373e-09  3.35664593e-09  3.40753461e-09  1.59499184e-07  1.77064798e-08  1.20000000e-01 
 1.30000000e-01  4.58838242e-01  4.58838242e-01  3.41387685e-09  4.58838242e-01  3.33234373e-09  3.35664588e-09  3.40753461e-09  1.59499167e-07  1.77060704e-08  1.30000000e-01 
 1.40000000e-01  4.58838247e-01  4.58838247e-01  3.41387685e-09  4.58838247e-01  3.33234373e-09  3.35664593e-09  3.40753461e-09  1.59499172e-07  1.77059762e-08  1.40000000e-01 
 1.50000000e-01  4.58838240e-01  4.58838240e-01  3.41387685e-09  4.58838240e-01  3.33234372e-09  3.35664593e-09  3.40753461e-09  1.59499167e-07  1.77057515e-08  1.50000000e-01 
 1.60000000e-01  4.58838244e-01  4.58838244e-01  3.41387685e-09  4.58838244e-01  3.33234373e-09  3.35664588e-09  3.40753461e-09  1.59499171e-07  1.77055668e-08  1.60000000e-01 
 1.70000000e-01  4.58838230e-01  4.58838230e-01  3.41387685e-09  4.58838230e-01  3.33234372e-09  3.35664587e-09  3.40753461e-09  1.59499141e-07  1.77053110e-08  1.70000000e-01 
 1.80000000e-01  4.58838247e-01  4.58838247e-01  3.41387685e-09  4.58838247e-01  3.33234373e-09  3.35664588e-09  3.40753461e-09  1.59499174e-07  1.77052897e-08  1.80000000e-01 
 1.90000000e-01  4.58838246e-01  4.58838246e-01  3.41387685e-09  4.58838246e-01  3.33234373e-09  3.35664588e-09  3.40753467e-09  1.59499167e-07  1.77050907e-08  1.90000000e-01 
 2.00000000e-01  4.58838237e-01  4.58838237e-01  3.41387685e-09  4.58838237e-01  3.33234372e-09  3.35664593e-09  3.40753467e-09  1.59499160e-07  1.77050143e-08  2.00000000e-01 
 2.10000000e-01  4.58838253e-01  4.58838253e-01  3.41387685e-09  4.58838253e-01  3.33234367e-09  3.35664593e-09  3.40753467e-09  1.59499185e-07  1.77047568e-08  2.10000000e-01 
 2.20000000e-01  4.58838242e-01  4.58838242e-01  3.41387685e-09  4.58838242e-01  3.33234373e-09  3.35664588e-09  3.40753461e-09  1.59499171e-07  1.77046555e-08  2.20000000e-01 
 2.30000000e-01  4.58838251e-01  4.58838251e-01  3.41387685e-09  4.58838251e-01  3.33234373e-09  3.35664588e-09  3.40753467e-09  1.59499187e-07  1.77043766e-08  2.30000000e-01 
 2.40000000e-01  4.58838257e-01  4.58838257e-01  3.41387685e-09  4.58838257e-01  3.33234373e-09  3.35664588e-09  3.40753461e-09  1.59499182e-07  1.77043731e-08  2.40000000e-01 
 2.50000000e-01  4.58838266e-01  4.58838266e-01  3.41387685e-09  4.58838266e-01  3.33234373e-09  3.35664593e-09  3.40753461e-09  1.59499207e-07  1.77043091e-08  2.50000000e-01 
 2.60000000e-01  4.58838245e-01  4.58838245e-01  3.41387679e-09  4.58838245e-01  3.33234373e-09  3.35664593e-09  3.40753461e-09  1.59499171e-07  1.77041919e-08  2.60000000e-01 
 2.70000000e-01  4.58838247e-01  4.58838247e-01  3.41387686e-09  4.58838247e-01  3.33234373e-09  3.35664593e-09  3.40753461e-09  1.59499175e-07  1.77041493e-08  2.70000000e-01 
 2.80000000e-01  4.58838227e-01  4.58838227e-01  3.41387684e-09  4.58838227e-01  3.33234372e-09  3.35664593e-09  3.40753461e-09  1.59499141e-07  1.77039183e-08  2.80000000e-01 
 2.90000000e-01  4.58838247e-01  4.58838247e-01  3.41387685e-09  4.58838247e-01  3.33234373e-09  3.35664593e-09  3.40753461e-09  1.59499172e-07  1.77037727e-08  2.90000000e-01 
 3.00000000e-01  4.58838258e-01  4.58838258e-01  3.41387685e-09  4.58838258e-01  3.33234373e-09  3.35664593e-09  3.40753461e-09  1.59499192e-07  1.77037549e-08  3.00000000e-01 
 3.10000000e-01  4.58838261e-01  4.58838261e-01  3.41387685e-09  4.58838261e-01  3.33234373e-09  3.35664593e-09  3.40753461e-09  1.59499194e-07  1.77036519e-08  3.10000000e-01 
 3.20000000e-01  4.58838260e-01  4.58838260e-01  3.41387685e-09  4.58838260e-01  3.33234373e-09  3.35664593e-09  3.40753461e-09  1.59499188e-07  1.77035737e-08  3.20000000e-01 
 3.30000000e-01  4.58838220e-01  4.58838220e-01  3.41387685e-09  4.58838220e-01  3.33234367e-09  3.35664587e-09  3.40753461e-09  1.59499121e-07  1.77033712e-08  3.30000000e-01 
 3.40000000e-01  4.58838251e-01  4.58838251e-01  3.41387685e-09  4.58838251e-01  3.33234367e-09  3.35664593e-09  3.40753461e-09  1.59499176e-07  1.77032966e-08  3.40000000e-01 
 3.50000000e-01  4.58838257e-01  4.58838257e-01  3.41387685e-09  4.58838257e-01  3.33234373e-09  3.35664588e-09  3.40753461e-09  1.59499199e-07  1.77032362e-08  3.50000000e-01 
 3.60000000e-01  4.58838250e-01  4.58838250e-01  3.41387685e-09  4.58838250e-01  3.33234373e-09  3.35664593e-09  3.40753461e-09  1.59499183e-07  1.77032007e-08  3.60000000e-01 
 3.70000000e-01  4.58838290e-01  4.58838290e-01  3.41387685e-09  4.58838290e-01  3.33234373e-09  3.35664588e-09  3.40753461e-09  1.59499236e-07  1.77030728e-08  3.70000000e-01 
 3.80000000e-01  4.58838254e-01  4.58838254e-01  3.41387685e-09  4.58838254e-01  3.33234373e-09  3.35664593e-09  3.40753467e-09  1.59499203e-07  1.77029911e-08  3.80000000e-01 
 3.90000000e-01  4.58838239e-01  4.58838239e-01  3.41387685e-09  4.58838239e-01  3.33234372e-09  3.35664587e-09  3.40753461e-09  1.59499169e-07  1.77030337e-08  3.90000000e-01 
 4.00000000e-01  4.58838234e-01  4.58838234e-01  3.41387685e-09  4.58838234e-01  3.33234372e-09  3.35664587e-09  3.40753461e-09  1.59499161e-07  1.77027850e-08  4.00000000e-01 
 4.10000000e-01  4.58838246e-01  4.58838246e-01  3.41387685e-09  4.58838246e-01  3.33234367e-09  3.35664593e-09  3.40753461e-09  1.59499168e-07  1.77028809e-08  4.10000000e-01 
 4.20000000e-01  4.58838254e-01  4.58838254e-01  3.41387685e-09  4.58838254e-01  3.33234373e-09  3.35664593e-09  3.40753461e-09  1.59499192e-07  1.77027744e-08  4.20000000e-01 
 4.30000000e-01  4.58838264e-01  4.58838264e-01  3.41387685e-09  4.58838264e-01  3.33234373e-09  3.35664593e-09  3.40753461e-09  1.59499195e-07  1.77027424e-08  4.30000000e-01 
 4.40000000e-01  4.58838254e-01  4.58838254e-01  3.41387685e-09  4.58838254e-01  3.33234373e-09  3.35664593e-09  3.40753467e-09  1.59499192e-07  1.77026358e-08  4.40000000e-01 
 4.50000000e-01  4.58838267e-01  4.58838267e-01  3.41387685e-09  4.58838267e-01  3.33234367e-09  3.35664593e-09  3.40753461e-09  1.59499205e-07  1.77025399e-08  4.50000000e-01 
 4.60000000e-01  4.58838258e-01  4.58838258e-01  3.41387685e-09  4.58838258e-01  3.33234373e-09  3.35664588e-09  3.40753461e-09  1.59499191e-07  1.77024830e-08  4.60000000e-01 
 4.70000000e-01  4.58838248e-01  4.58838248e-01  3.41387685e-09  4.58838248e-01  3.33234373e-09  3.35664588e-09  3.40753461e-09  1.59499181e-07  1.77024084e-08  4.70000000e-01 
 4.80000000e-01  4.58838238e-01  4.58838238e-01  3.41387685e-09  4.58838238e-01  3.33234372e-09  3.35664593e-09  3.40753467e-09  1.59499168e-07  1.77024511e-08  4.80000000e-01 
 4.90000000e-01  4.58838231e-01  4.58838231e-01  3.41387685e-09  4.58838231e-01  3.33234372e-09  3.35664587e-09  3.40753461e-09  1.59499148e-07  1.77023374e-08  4.90000000e-01 
 5.00000000e-01  4.58838252e-01  4.58838252e-01  3.41387685e-09  4.58838252e-01  3.33234373e-09  3.35664588e-09  3.40753461e-09  1.59499192e-07  1.77022521e-08  5.00000000e-01 
 5.10000000e-01  4.58838260e-01  4.58838260e-01  3.41387685e-09  4.58838260e-01  3.33234367e-09  3.35664588e-09  3.40753461e-09  1.59499201e-07  1.77021704e-08  5.10000000e-01 
 5.20000000e-01  4.58838246e-01  4.58838246e-01  3.41387685e-09  4.58838246e-01  3.33234373e-09  3.35664588e-09  3.40753461e-09  1.59499159e-07  1.77021704e-08  5.20000000e-01 
 5.30000000e-01  4.58838251e-01  4.58838251e-01  3.41387685e-09  4.58838251e-01  3.33234373e-09  3.35664588e-09  3.40753461e-09  1.59499183e-07  1.77020958e-08  5.30000000e-01 
 5.40000000e-01  4.58838238e-01  4.58838238e-01  3.41387685e-09  4.58838238e-01  3.33234367e-09  3.35664587e-09  3.40753461e-09  1.59499162e-07  1.77019857e-08  5.40000000e-01 
 5.50000000e-01  4.58838235e-01  4.58838235e-01  3.41387685e-09  4.58838235e-01  3.33234367e-09  3.35664593e-09  3.40753461e-09  1.59499159e-07  1.77019359e-08  5.50000000e-01 
 5.60000000e-01  4.58838246e-01  4.58838246e-01  3.41387685e-09  4.58838246e-01  3.33234373e-09  3.35664588e-09  3.40753461e-09  1.59499172e-07  1.77019288e-08  5.60000000e-01 
 5.70000000e-01  4.58838254e-01  4.58838254e-01  3.41387685e-09  4.58838254e-01  3.33234373e-09  3.35664588e-09  3.40753461e-09  1.59499179e-07  1.77018720e-08  5.70000000e-01 
 5.80000000e-01  4.58838243e-01  4.58838243e-01  3.41387685e-09  4.58838243e-01  3.33234373e-09  3.35664593e-09  3.40753461e-09  1.59499166e-07  1.77018791e-08  5.80000000e-01 
 5.90000000e-01  4.58838244e-01  4.58838244e-01  3.41387685e-09  4.58838244e-01  3.33234373e-09  3.35664593e-09  3.40753461e-09  1.59499173e-07  1.77018364e-08  5.90000000e-01 
 6.00000000e-01  4.58838249e-01  4.58838249e-01  3.41387685e-09  4.58838249e-01  3.33234373e-09  3.35664593e-09  3.40753461e-09  1.59499170e-07  1.77016872e-08  6.00000000e-01 
 6.10000000e-01  4.58838241e-01  4.58838241e-01  3.41387685e-09  4.58838241e-01  3.33234372e-09  3.35664588e-09  3.40753461e-09  1.59499157e-07  1.77016730e-08  6.10000000e-01 
 6.20000000e-01  4.58838249e-01  4.58838249e-01  3.41387685e-09  4.58838249e-01  3.33234373e-09  3.35664588e-09  3.40753461e-09  1.59499187e-07  1.77016020e-08  6.20000000e-01 
 6.30000000e-01  4.58838230e-01  4.58838230e-01  3.41387685e-09  4.58838230e-01  3.33234372e-09  3.35664587e-09  3.40753461e-09  1.59499140e-07  1.77016091e-08  6.30000000e-01 
 6.40000000e-01  4.58838258e-01  4.58838258e-01  3.41387685e-09  4.58838258e-01  3.33234373e-09  3.35664593e-09  3.40753467e-09  1.59499197e-07  1.77016091e-08  6.40000000e-01 
 6.50000000e-01  4.58838263e-01  4.58838263e-01  3.41387685e-09  4.58838263e-01  3.33234373e-09  3.35664593e-09  3.40753461e-09  1.59499193e-07  1.77015806e-08  6.50000000e-01 
 6.60000000e-01  4.58838255e-01  4.58838255e-01  3.41387685e-09  4.58838255e-01  3.33234373e-09  3.35664588e-09  3.40753467e-09  1.59499190e-07  1.77014243e-08  6.60000000e-01 
 6.70000000e-01  4.58838252e-01  4.58838252e-01  3.41387685e-09  4.58838252e-01  3.33234373e-09  3.35664588e-09  3.40753461e-09  1.59499189e-07  1.77013320e-08  6.70000000e-01 
 6.80000000e-01  4.58838246e-01  4.58838246e-01  3.41387685e-09  4.58838246e-01  3.33234373e-09  3.35664593e-09  3.40753461e-09  1.59499171e-07  1.77013249e-08  6.80000000e-01 
 6.90000000e-01  4.58838212e-01  4.58838212e-01  3.41387685e-09  4.58838212e-01  3.33234372e-09  3.35664587e-09  3.40753466e-09  1.59499126e-07  1.77012538e-08  6.90000000e-01 
 7.00000000e-01  4.58838246e-01  4.58838246e-01  3.41387685e-09  4.58838246e-01  3.33234373e-09  3.35664593e-09  3.40753461e-09  1.59499161e-07  1.77011756e-08  7.00000000e-01 
 7.10000000e-01  4.58838262e-01  4.58838262e-01  3.41387679e-09  4.58838262e-01  3.33234373e-09  3.35664593e-09  3.40753461e-09  1.59499196e-07  1.77011970e-08  7.10000000e-01 
 7.20000000e-01  4.58838257e-01  4.58838257e-01  3.41387686e-09  4.58838257e-01  3.33234373e-09  3.35664593e-09  3.40753461e-09  1.59499188e-07  1.77011117e-08  7.20000000e-01 
 7.30000000e-01  4.58838259e-01  4.58838259e-01  3.41387684e-09  4.58838259e-01  3.33234373e-09  3.35664593e-09  3.40753461e-09  1.59499195e-07  1.77010833e-08  7.30000000e-01 
 7.40000000e-01  4.58838255e-01  4.58838255e-01  3.41387685e-09  4.58838255e-01  3.33234373e-09  3.35664593e-09  3.40753461e-09  1.59499178e-07  1.77010406e-08  7.40000000e-01 
 7.50000000e-01  4.58838255e-01  4.58838255e-01  3.41387685e-09  4.58838255e-01  3.33234367e-09  3.35664593e-09  3.40753467e-09  1.59499190e-07  1.77009696e-08  7.50000000e-01 
 7.60000000e-01  4.58838257e-01  4.58838257e-01  3.41387685e-09  4.58838257e-01  3.33234373e-09  3.35664588e-09  3.40753461e-09  1.59499190e-07  1.77010051e-08  7.60000000e-01 
 7.70000000e-01  4.58838246e-01  4.58838246e-01  3.41387685e-09  4.58838246e-01  3.33234373e-09  3.35664588e-09  3.40753461e-09  1.59499179e-07  1.77009269e-08  7.70000000e-01 
 7.80000000e-01  4.58838271e-01  4.58838271e-01  3.41387685e-09  4.58838271e-01  3.33234367e-09  3.35664588e-09  3.40753461e-09  1.59499218e-07  1.77008630e-08  7.80000000e-01 
 7.90000000e-01  4.58838252e-01  4.58838252e-01  3.41387685e-09  4.58838252e-01  3.33234373e-09  3.35664588e-09  3.40753461e-09  1.59499187e-07  1.77007635e-08  7.90000000e-01 
 8.00000000e-01  4.58838242e-01  4.58838242e-01  3.41387685e-09  4.58838242e-01  3.33234373e-09  3.35664588e-09  3.40753467e-09  1.59499165e-07  1.77006356e-08  8.00000000e-01 
 8.10000000e-01  4.58838236e-01  4.58838236e-01  3.41387685e-09  4.58838236e-01  3.33234372e-09  3.35664593e-09  3.40753461e-09  1.59499167e-07  1.77006285e-08  8.10000000e-01 
 8.20000000e-01  4.58838253e-01  4.58838253e-01  3.41387685e-09  4.58838253e-01  3.33234367e-09  3.35664588e-09  3.40753467e-09  1.59499186e-07  1.77006498e-08  8.20000000e-01 
 8.30000000e-01  4.58838254e-01  4.58838254e-01  3.41387685e-09  4.58838254e-01  3.33234373e-09  3.35664588e-09  3.40753461e-09  1.59499182e-07  1.77006569e-08  8.30000000e-01 
 8.40000000e-01  4.58838250e-01  4.58838250e-01  3.41387685e-09  4.58838250e-01  3.33234373e-09  3.35664593e-09  3.40753461e-09  1.59499178e-07  1.77004580e-08  8.40000000e-01 
 8.50000000e-01  4.58838238e-01  4.58838238e-01  3.41387685e-09  4.58838238e-01  3.33234367e-09  3.35664593e-09  3.40753461e-09  1.59499161e-07  1.77005077e-08  8.50000000e-01 
 8.60000000e-01  4.58838234e-01  4.58838234e-01  3.41387685e-09  4.58838234e-01  3.33234372e-09  3.35664593e-09  3.40753461e-09  1.59499154e-07  1.77003940e-08  8.60000000e-01 
 8.70000000e-01  4.58838260e-01  4.58838260e-01  3.41387685e-09  4.58838260e-01  3.33234373e-09  3.35664588e-09  3.40753461e-09  1.59499196e-07  1.77003869e-08  8.70000000e-01 
 8.80000000e-01  4.58838260e-01  4.58838260e-01  3.41387685e-09  4.58838260e-01  3.33234373e-09  3.35664588e-09  3.40753467e-09  1.59499198e-07  1.77003230e-08  8.80000000e-01 
 8.90000000e-01  4.58838234e-01  4.58838234e-01  3.41387685e-09  4.58838234e-01  3.33234372e-09  3.35664593e-09  3.40753467e-09  1.59499141e-07  1.77001951e-08  8.90000000e-01 
 9.00000000e-01  4.58838270e-01  4.58838270e-01  3.41387685e-09  4.58838270e-01  3.33234367e-09  3.35664588e-09  3.40753467e-09  1.59499203e-07  1.77002661e-08  9.00000000e-01 
 9.10000000e-01  4.58838232e-01  4.58838232e-01  3.41387685e-09  4.58838232e-01  3.33234372e-09  3.35664587e-09  3.40753461e-09  1.59499152e-07  1.77001240e-08  9.10000000e-01 
 9.20000000e-01  4.58838260e-01  4.58838260e-01  3.41387685e-09  4.58838260e-01  3.33234373e-09  3.35664593e-09  3.40753467e-09  1.59499191e-07  1.77000743e-08  9.20000000e-01 
 9.30000000e-01  4.58838239e-01  4.58838239e-01  3.41387685e-09  4.58838239e-01  3.33234372e-09  3.35664587e-09  3.40753461e-09  1.59499155e-07  1.77000032e-08  9.30000000e-01 
 9.40000000e-01  4.58838238e-01  4.58838238e-01  3.41387685e-09  4.58838238e-01  3.33234372e-09  3.35664593e-09  3.40753461e-09  1.59499168e-07  1.77000032e-08  9.40000000e-01 
 9.50000000e-01  4.58838233e-01  4.58838233e-01  3.41387685e-09  4.58838233e-01  3.33234367e-09  3.35664587e-09  3.40753461e-09  1.59499150e-07  1.76999535e-08  9.50000000e-01 
 9.60000000e-01  4.58838235e-01  4.58838235e-01  3.41387685e-09  4.58838235e-01  3.33234367e-09  3.35664593e-09  3.40753467e-09  1.59499145e-07  1.76998185e-08  9.60000000e-01 
 9.70000000e-01  4.58838240e-01  4.58838240e-01  3.41387685e-09  4.58838240e-01  3.33234367e-09  3.35664593e-09  3.40753467e-09  1.59499173e-07  1.76998327e-08  9.70000000e-01 
 9.80000000e-01  4.58838228e-01  4.58838228e-01  3.41387685e-09  4.58838228e-01  3.33234372e-09  3.35664587e-09  3.40753461e-09  1.59499137e-07  1.76997048e-08  9.80000000e-01 
 9.90000000e-01  4.58838236e-01  4.58838236e-01  3.41387679e-09  4.58838236e-01  3.33234372e-09  3.35664587e-09  3.40753467e-09  1.59499152e-07  1.76996977e-08  9.90000000e-01 
 1.00000000e+00  4.58838241e-01  4.58838241e-01  3.41387686e-09  4.58838241e-01  3.33234372e-09  3.35664588e-09  3.40753461e-09  1.59499168e-07  1.76997546e-08  1.00000000e+00 
 1.01000000e+00  4.58838224e-01  4.58838224e-01  3.41387684e-09  4.58838224e-01  3.33234367e-09  3.35664593e-09  3.40753461e-09  1.59499138e-07  1.76996409e-08  1.01000000e+00 
 1.02000000e+00  4.58838266e-01  4.58838266e-01  3.41387685e-09  4.58838266e-01  3.33234373e-09  3.35664593e-09  3.40753461e-09  1.59499198e-07  1.76994988e-08  1.02000000e+00 
 1.03000000e+00  4.58838238e-01  4.58838238e-01  3.41387685e-09  4.58838238e-01  3.33234372e-09  3.35664587e-09  3.40753461e-09  1.59499154e-07  1.76995059e-08  1.03000000e+00 
 1.04000000e+00  4.58838256e-01  4.58838256e-01  3.41387685e-09  4.58838256e-01  3.33234367e-09  3.35664588e-09  3.40753467e-09  1.59499190e-07  1.76994348e-08  1.04000000e+00 
 1.05000000e+00  4.58838251e-01  4.58838251e-01  3.41387685e-09  4.58838251e-01  3.33234373e-09  3.35664588e-09  3.40753461e-09  1.59499170e-07  1.76993495e-08  1.05000000e+00 
 1.06000000e+00  4.58838248e-01  4.58838248e-01  3.41387685e-09  4.58838248e-01  3.33234373e-09  3.35664588e-09  3.40753467e-09  1.59499171e-07  1.76993424e-08  1.06000000e+00 
 1.07000000e+00  4.58838266e-01  4.58838266e-01  3.41387685e-09  4.58838266e-01  3.33234373e-09  3.35664593e-09  3.40753461e-09  1.59499207e-07  1.76992927e-08  1.07000000e+00 
 1.08000000e+00  4.58838244e-01  4.58838244e-01  3.41387685e-09  4.58838244e-01  3.33234373e-09  3.35664588e-09  3.40753461e-09  1.59499168e-07  1.76992572e-08  1.08000000e+00 
 1.09000000e+00  4.58838248e-01  4.58838248e-01  3.41387679e-09  4.58838248e-01  3.33234373e-09  3.35664593e-09  3.40753461e-09  1.59499173e-07  1.76990866e-08  1.09000000e+00 
 1.10000000e+00  4.58838234e-01  4.58838234e-01  3.41387686e-09  4.58838234e-01  3.33234367e-09  3.35664587e-09  3.40753467e-09  1.59499150e-07  1.76992216e-08  1.10000000e+00 
