 v-sweep         v(b0)           v(b1)           v(b2)           v(b3)           v(b4)           v(b5)           v(b6)           i(vbias)        i(viout)        v(vout)        
 0.00000000e+00  4.58529574e-01  4.58529575e-01  4.58529574e-01  3.07948643e-09  3.22314069e-09  3.38502964e-09  3.18860538e-09  1.58882346e-07  1.00569029e-08  0.00000000e+00 
 1.00000000e-02  4.58529537e-01  4.58529537e-01  4.58529537e-01  3.07948641e-09  3.22314067e-09  3.38502966e-09  3.18860540e-09  1.58882284e-07  1.00563722e-08  1.00000000e-02 
 2.00000000e-02  4.58529541e-01  4.58529542e-01  4.58529541e-01  3.07948641e-09  3.22314067e-09  3.38502972e-09  3.18860540e-09  1.58882296e-07  1.00561368e-08  2.00000000e-02 
 3.00000000e-02  4.58529545e-01  4.58529545e-01  4.58529545e-01  3.07948641e-09  3.22314067e-09  3.38502966e-09  3.18860535e-09  1.58882294e-07  1.00556365e-08  3.00000000e-02 
 4.00000000e-02  4.58529521e-01  4.58529521e-01  4.58529521e-01  3.07948640e-09  3.22314067e-09  3.38502966e-09  3.18860535e-09  1.58882247e-07  1.00553992e-08  4.00000000e-02 
 5.00000000e-02  4.58529523e-01  4.58529523e-01  4.58529523e-01  3.07948640e-09  3.22314067e-09  3.38502966e-09  3.18860540e-09  1.58882265e-07  1.00549431e-08  5.00000000e-02 
 6.00000000e-02  4.58529534e-01  4.58529534e-01  4.58529534e-01  3.07948641e-09  3.22314067e-09  3.38502972e-09  3.18860535e-09  1.58882280e-07  1.00546376e-08  6.00000000e-02 
 7.00000000e-02  4.58529568e-01  4.58529568e-01  4.58529568e-01  3.07948641e-09  3.22314067e-09  3.38502966e-09  3.18860540e-09  1.58882319e-07  1.00542930e-08  7.00000000e-02 
 8.00000000e-02  4.58529541e-01  4.58529541e-01  4.58529541e-01  3.07948641e-09  3.22314067e-09  3.38502966e-09  3.18860540e-09  1.58882282e-07  1.00541095e-08  8.00000000e-02 
 9.00000000e-02  4.58529546e-01  4.58529546e-01  4.58529546e-01  3.07948641e-09  3.22314067e-09  3.38502966e-09  3.18860540e-09  1.58882289e-07  1.00538360e-08  9.00000000e-02 
 1.00000000e-01  4.58529564e-01  4.58529564e-01  4.58529564e-01  3.07948641e-09  3.22314067e-09  3.38502966e-09  3.18860540e-09  1.58882326e-07  1.00535518e-08  1.00000000e-01 
 1.10000000e-01  4.58529564e-01  4.58529564e-01  4.58529564e-01  3.07948641e-09  3.22314067e-09  3.38502966e-09  3.18860540e-09  1.58882326e-07  1.00532951e-08  1.10000000e-01 
 1.20000000e-01  4.58529540e-01  4.58529540e-01  4.58529540e-01  3.07948641e-09  3.22314067e-09  3.38502966e-09  3.18860535e-09  1.58882280e-07  1.00530997e-08  1.20000000e-01 
 1.30000000e-01  4.58529554e-01  4.58529554e-01  4.58529554e-01  3.07948641e-09  3.22314067e-09  3.38502966e-09  3.18860535e-09  1.58882311e-07  1.00528288e-08  1.30000000e-01 
 1.40000000e-01  4.58529558e-01  4.58529558e-01  4.58529558e-01  3.07948641e-09  3.22314073e-09  3.38502966e-09  3.18860535e-09  1.58882310e-07  1.00526707e-08  1.40000000e-01 
 1.50000000e-01  4.58529560e-01  4.58529560e-01  4.58529560e-01  3.07948641e-09  3.22314067e-09  3.38502966e-09  3.18860540e-09  1.58882305e-07  1.00525206e-08  1.50000000e-01 
 1.60000000e-01  4.58529548e-01  4.58529548e-01  4.58529548e-01  3.07948641e-09  3.22314067e-09  3.38502966e-09  3.18860535e-09  1.58882285e-07  1.00524513e-08  1.60000000e-01 
 1.70000000e-01  4.58529543e-01  4.58529543e-01  4.58529543e-01  3.07948641e-09  3.22314067e-09  3.38502966e-09  3.18860535e-09  1.58882285e-07  1.00521724e-08  1.70000000e-01 
 1.80000000e-01  4.58529549e-01  4.58529549e-01  4.58529549e-01  3.07948646e-09  3.22314067e-09  3.38502966e-09  3.18860535e-09  1.58882289e-07  1.00518829e-08  1.80000000e-01 
 1.90000000e-01  4.58529549e-01  4.58529549e-01  4.58529549e-01  3.07948641e-09  3.22314067e-09  3.38502966e-09  3.18860535e-09  1.58882289e-07  1.00518722e-08  1.90000000e-01 
 2.00000000e-01  4.58529546e-01  4.58529546e-01  4.58529546e-01  3.07948641e-09  3.22314067e-09  3.38502972e-09  3.18860540e-09  1.58882292e-07  1.00516591e-08  2.00000000e-01 
 2.10000000e-01  4.58529549e-01  4.58529549e-01  4.58529549e-01  3.07948641e-09  3.22314067e-09  3.38502966e-09  3.18860535e-09  1.58882309e-07  1.00516040e-08  2.10000000e-01 
 2.20000000e-01  4.58529555e-01  4.58529555e-01  4.58529555e-01  3.07948646e-09  3.22314067e-09  3.38502966e-09  3.18860540e-09  1.58882293e-07  1.00513713e-08  2.20000000e-01 
 2.30000000e-01  4.58529533e-01  4.58529533e-01  4.58529533e-01  3.07948640e-09  3.22314067e-09  3.38502966e-09  3.18860535e-09  1.58882286e-07  1.00511723e-08  2.30000000e-01 
 2.40000000e-01  4.58529570e-01  4.58529570e-01  4.58529570e-01  3.07948641e-09  3.22314067e-09  3.38502966e-09  3.18860541e-09  1.58882329e-07  1.00511510e-08  2.40000000e-01 
 2.50000000e-01  4.58529541e-01  4.58529541e-01  4.58529541e-01  3.07948641e-09  3.22314067e-09  3.38502966e-09  3.18860540e-09  1.58882306e-07  1.00509858e-08  2.50000000e-01 
 2.60000000e-01  4.58529566e-01  4.58529566e-01  4.58529566e-01  3.07948641e-09  3.22314067e-09  3.38502966e-09  3.18860540e-09  1.58882320e-07  1.00508224e-08  2.60000000e-01 
 2.70000000e-01  4.58529528e-01  4.58529528e-01  4.58529528e-01  3.07948640e-09  3.22314067e-09  3.38502966e-09  3.18860535e-09  1.58882266e-07  1.00506998e-08  2.70000000e-01 
 2.80000000e-01  4.58529540e-01  4.58529540e-01  4.58529540e-01  3.07948641e-09  3.22314067e-09  3.38502966e-09  3.18860535e-09  1.58882296e-07  1.00506021e-08  2.80000000e-01 
 2.90000000e-01  4.58529552e-01  4.58529552e-01  4.58529552e-01  3.07948641e-09  3.22314067e-09  3.38502966e-09  3.18860535e-09  1.58882294e-07  1.00505773e-08  2.90000000e-01 
 3.00000000e-01  4.58529562e-01  4.58529562e-01  4.58529562e-01  3.07948641e-09  3.22314067e-09  3.38502966e-09  3.18860540e-09  1.58882321e-07  1.00504565e-08  3.00000000e-01 
 3.10000000e-01  4.58529545e-01  4.58529545e-01  4.58529545e-01  3.07948646e-09  3.22314067e-09  3.38502966e-09  3.18860535e-09  1.58882281e-07  1.00503463e-08  3.10000000e-01 
 3.20000000e-01  4.58529555e-01  4.58529555e-01  4.58529555e-01  3.07948641e-09  3.22314067e-09  3.38502966e-09  3.18860535e-09  1.58882310e-07  1.00502611e-08  3.20000000e-01 
 3.30000000e-01  4.58529532e-01  4.58529532e-01  4.58529532e-01  3.07948640e-09  3.22314067e-09  3.38502966e-09  3.18860535e-09  1.58882261e-07  1.00500905e-08  3.30000000e-01 
 3.40000000e-01  4.58529558e-01  4.58529558e-01  4.58529558e-01  3.07948641e-09  3.22314067e-09  3.38502966e-09  3.18860540e-09  1.58882329e-07  1.00501616e-08  3.40000000e-01 
 3.50000000e-01  4.58529557e-01  4.58529558e-01  4.58529557e-01  3.07948641e-09  3.22314067e-09  3.38502966e-09  3.18860535e-09  1.58882320e-07  1.00499484e-08  3.50000000e-01 
 3.60000000e-01  4.58529551e-01  4.58529551e-01  4.58529551e-01  3.07948641e-09  3.22314067e-09  3.38502966e-09  3.18860540e-09  1.58882298e-07  1.00498490e-08  3.60000000e-01 
 3.70000000e-01  4.58529559e-01  4.58529559e-01  4.58529559e-01  3.07948641e-09  3.22314067e-09  3.38502966e-09  3.18860535e-09  1.58882310e-07  1.00499129e-08  3.70000000e-01 
 3.80000000e-01  4.58529558e-01  4.58529558e-01  4.58529558e-01  3.07948641e-09  3.22314067e-09  3.38502972e-09  3.18860535e-09  1.58882313e-07  1.00498170e-08  3.80000000e-01 
 3.90000000e-01  4.58529557e-01  4.58529558e-01  4.58529557e-01  3.07948641e-09  3.22314067e-09  3.38502966e-09  3.18860535e-09  1.58882300e-07  1.00497104e-08  3.90000000e-01 
 4.00000000e-01  4.58529553e-01  4.58529554e-01  4.58529553e-01  3.07948641e-09  3.22314067e-09  3.38502966e-09  3.18860540e-09  1.58882290e-07  1.00495434e-08  4.00000000e-01 
 4.10000000e-01  4.58529554e-01  4.58529554e-01  4.58529554e-01  3.07948641e-09  3.22314067e-09  3.38502966e-09  3.18860535e-09  1.58882310e-07  1.00495434e-08  4.10000000e-01 
 4.20000000e-01  4.58529534e-01  4.58529534e-01  4.58529534e-01  3.07948641e-09  3.22314067e-09  3.38502966e-09  3.18860540e-09  1.58882276e-07  1.00494759e-08  4.20000000e-01 
 4.30000000e-01  4.58529554e-01  4.58529554e-01  4.58529554e-01  3.07948641e-09  3.22314073e-09  3.38502966e-09  3.18860540e-09  1.58882306e-07  1.00494333e-08  4.30000000e-01 
 4.40000000e-01  4.58529571e-01  4.58529571e-01  4.58529571e-01  3.07948641e-09  3.22314067e-09  3.38502966e-09  3.18860535e-09  1.58882346e-07  1.00493196e-08  4.40000000e-01 
 4.50000000e-01  4.58529524e-01  4.58529524e-01  4.58529524e-01  3.07948640e-09  3.22314067e-09  3.38502966e-09  3.18860540e-09  1.58882258e-07  1.00491846e-08  4.50000000e-01 
 4.60000000e-01  4.58529568e-01  4.58529568e-01  4.58529568e-01  3.07948641e-09  3.22314067e-09  3.38502972e-09  3.18860540e-09  1.58882333e-07  1.00492343e-08  4.60000000e-01 
 4.70000000e-01  4.58529559e-01  4.58529560e-01  4.58529559e-01  3.07948641e-09  3.22314067e-09  3.38502966e-09  3.18860535e-09  1.58882325e-07  1.00491206e-08  4.70000000e-01 
 4.80000000e-01  4.58529543e-01  4.58529543e-01  4.58529543e-01  3.07948641e-09  3.22314067e-09  3.38502972e-09  3.18860540e-09  1.58882287e-07  1.00491526e-08  4.80000000e-01 
 4.90000000e-01  4.58529535e-01  4.58529535e-01  4.58529535e-01  3.07948641e-09  3.22314067e-09  3.38502966e-09  3.18860540e-09  1.58882280e-07  1.00490851e-08  4.90000000e-01 
 5.00000000e-01  4.58529558e-01  4.58529559e-01  4.58529558e-01  3.07948641e-09  3.22314067e-09  3.38502966e-09  3.18860535e-09  1.58882321e-07  1.00489714e-08  5.00000000e-01 
 5.10000000e-01  4.58529551e-01  4.58529551e-01  4.58529551e-01  3.07948641e-09  3.22314067e-09  3.38502966e-09  3.18860540e-09  1.58882302e-07  1.00489039e-08  5.10000000e-01 
 5.20000000e-01  4.58529543e-01  4.58529543e-01  4.58529543e-01  3.07948641e-09  3.22314067e-09  3.38502966e-09  3.18860535e-09  1.58882293e-07  1.00487689e-08  5.20000000e-01 
 5.30000000e-01  4.58529551e-01  4.58529551e-01  4.58529551e-01  3.07948641e-09  3.22314067e-09  3.38502966e-09  3.18860535e-09  1.58882307e-07  1.00487760e-08  5.30000000e-01 
 5.40000000e-01  4.58529540e-01  4.58529540e-01  4.58529540e-01  3.07948641e-09  3.22314067e-09  3.38502966e-09  3.18860540e-09  1.58882281e-07  1.00487618e-08  5.40000000e-01 
 5.50000000e-01  4.58529549e-01  4.58529549e-01  4.58529549e-01  3.07948641e-09  3.22314067e-09  3.38502966e-09  3.18860535e-09  1.58882299e-07  1.00487902e-08  5.50000000e-01 
 5.60000000e-01  4.58529541e-01  4.58529541e-01  4.58529541e-01  3.07948646e-09  3.22314073e-09  3.38502966e-09  3.18860535e-09  1.58882281e-07  1.00486055e-08  5.60000000e-01 
 5.70000000e-01  4.58529554e-01  4.58529554e-01  4.58529554e-01  3.07948641e-09  3.22314067e-09  3.38502966e-09  3.18860540e-09  1.58882305e-07  1.00486091e-08  5.70000000e-01 
 5.80000000e-01  4.58529554e-01  4.58529554e-01  4.58529554e-01  3.07948641e-09  3.22314067e-09  3.38502966e-09  3.18860540e-09  1.58882295e-07  1.00485735e-08  5.80000000e-01 
 5.90000000e-01  4.58529547e-01  4.58529547e-01  4.58529547e-01  3.07948641e-09  3.22314067e-09  3.38502966e-09  3.18860540e-09  1.58882284e-07  1.00485167e-08  5.90000000e-01 
 6.00000000e-01  4.58529545e-01  4.58529545e-01  4.58529545e-01  3.07948641e-09  3.22314067e-09  3.38502966e-09  3.18860540e-09  1.58882292e-07  1.00484314e-08  6.00000000e-01 
 6.10000000e-01  4.58529539e-01  4.58529539e-01  4.58529539e-01  3.07948641e-09  3.22314067e-09  3.38502966e-09  3.18860535e-09  1.58882275e-07  1.00484385e-08  6.10000000e-01 
 6.20000000e-01  4.58529556e-01  4.58529556e-01  4.58529556e-01  3.07948641e-09  3.22314067e-09  3.38502966e-09  3.18860540e-09  1.58882314e-07  1.00483248e-08  6.20000000e-01 
 6.30000000e-01  4.58529550e-01  4.58529550e-01  4.58529550e-01  3.07948641e-09  3.22314067e-09  3.38502966e-09  3.18860540e-09  1.58882296e-07  1.00481472e-08  6.30000000e-01 
 6.40000000e-01  4.58529560e-01  4.58529560e-01  4.58529560e-01  3.07948641e-09  3.22314067e-09  3.38502966e-09  3.18860540e-09  1.58882310e-07  1.00482751e-08  6.40000000e-01 
 6.50000000e-01  4.58529533e-01  4.58529533e-01  4.58529533e-01  3.07948640e-09  3.22314067e-09  3.38502966e-09  3.18860540e-09  1.58882272e-07  1.00481969e-08  6.50000000e-01 
 6.60000000e-01  4.58529542e-01  4.58529542e-01  4.58529542e-01  3.07948641e-09  3.22314067e-09  3.38502966e-09  3.18860540e-09  1.58882284e-07  1.00481827e-08  6.60000000e-01 
 6.70000000e-01  4.58529555e-01  4.58529555e-01  4.58529555e-01  3.07948646e-09  3.22314073e-09  3.38502972e-09  3.18860535e-09  1.58882305e-07  1.00481898e-08  6.70000000e-01 
 6.80000000e-01  4.58529546e-01  4.58529546e-01  4.58529546e-01  3.07948641e-09  3.22314067e-09  3.38502966e-09  3.18860540e-09  1.58882299e-07  1.00480122e-08  6.80000000e-01 
 6.90000000e-01  4.58529572e-01  4.58529572e-01  4.58529572e-01  3.07948641e-09  3.22314067e-09  3.38502966e-09  3.18860535e-09  1.58882328e-07  1.00480051e-08  6.90000000e-01 
 7.00000000e-01  4.58529534e-01  4.58529535e-01  4.58529534e-01  3.07948646e-09  3.22314067e-09  3.38502966e-09  3.18860535e-09  1.58882284e-07  1.00479127e-08  7.00000000e-01 
 7.10000000e-01  4.58529551e-01  4.58529551e-01  4.58529551e-01  3.07948641e-09  3.22314067e-09  3.38502966e-09  3.18860535e-09  1.58882296e-07  1.00478417e-08  7.10000000e-01 
 7.20000000e-01  4.58529557e-01  4.58529557e-01  4.58529557e-01  3.07948641e-09  3.22314067e-09  3.38502966e-09  3.18860535e-09  1.58882318e-07  1.00478843e-08  7.20000000e-01 
 7.30000000e-01  4.58529552e-01  4.58529552e-01  4.58529552e-01  3.07948641e-09  3.22314067e-09  3.38502966e-09  3.18860540e-09  1.58882294e-07  1.00477280e-08  7.30000000e-01 
 7.40000000e-01  4.58529565e-01  4.58529565e-01  4.58529565e-01  3.07948641e-09  3.22314073e-09  3.38502966e-09  3.18860540e-09  1.58882325e-07  1.00477209e-08  7.40000000e-01 
 7.50000000e-01  4.58529541e-01  4.58529541e-01  4.58529541e-01  3.07948641e-09  3.22314073e-09  3.38502966e-09  3.18860535e-09  1.58882294e-07  1.00477209e-08  7.50000000e-01 
 7.60000000e-01  4.58529535e-01  4.58529535e-01  4.58529535e-01  3.07948646e-09  3.22314067e-09  3.38502966e-09  3.18860535e-09  1.58882276e-07  1.00476143e-08  7.60000000e-01 
 7.70000000e-01  4.58529540e-01  4.58529540e-01  4.58529540e-01  3.07948646e-09  3.22314067e-09  3.38502966e-09  3.18860535e-09  1.58882274e-07  1.00475930e-08  7.70000000e-01 
 7.80000000e-01  4.58529540e-01  4.58529540e-01  4.58529540e-01  3.07948641e-09  3.22314067e-09  3.38502972e-09  3.18860535e-09  1.58882283e-07  1.00474580e-08  7.80000000e-01 
 7.90000000e-01  4.58529556e-01  4.58529556e-01  4.58529556e-01  3.07948646e-09  3.22314073e-09  3.38502966e-09  3.18860535e-09  1.58882318e-07  1.00474082e-08  7.90000000e-01 
 8.00000000e-01  4.58529557e-01  4.58529557e-01  4.58529557e-01  3.07948641e-09  3.22314067e-09  3.38502966e-09  3.18860535e-09  1.58882311e-07  1.00473940e-08  8.00000000e-01 
 8.10000000e-01  4.58529559e-01  4.58529560e-01  4.58529559e-01  3.07948641e-09  3.22314067e-09  3.38502966e-09  3.18860535e-09  1.58882295e-07  1.00474793e-08  8.10000000e-01 
 8.20000000e-01  4.58529567e-01  4.58529567e-01  4.58529567e-01  3.07948641e-09  3.22314067e-09  3.38502966e-09  3.18860535e-09  1.58882315e-07  1.00473159e-08  8.20000000e-01 
 8.30000000e-01  4.58529531e-01  4.58529531e-01  4.58529531e-01  3.07948640e-09  3.22314067e-09  3.38502966e-09  3.18860540e-09  1.58882267e-07  1.00472590e-08  8.30000000e-01 
 8.40000000e-01  4.58529546e-01  4.58529546e-01  4.58529546e-01  3.07948641e-09  3.22314067e-09  3.38502966e-09  3.18860540e-09  1.58882301e-07  1.00472803e-08  8.40000000e-01 
 8.50000000e-01  4.58529553e-01  4.58529553e-01  4.58529553e-01  3.07948641e-09  3.22314073e-09  3.38502966e-09  3.18860535e-09  1.58882298e-07  1.00472093e-08  8.50000000e-01 
 8.60000000e-01  4.58529545e-01  4.58529545e-01  4.58529545e-01  3.07948641e-09  3.22314067e-09  3.38502966e-09  3.18860535e-09  1.58882307e-07  1.00469748e-08  8.60000000e-01 
 8.70000000e-01  4.58529541e-01  4.58529541e-01  4.58529541e-01  3.07948641e-09  3.22314067e-09  3.38502966e-09  3.18860535e-09  1.58882288e-07  1.00470743e-08  8.70000000e-01 
 8.80000000e-01  4.58529534e-01  4.58529534e-01  4.58529534e-01  3.07948641e-09  3.22314073e-09  3.38502966e-09  3.18860540e-09  1.58882289e-07  1.00471169e-08  8.80000000e-01 
 8.90000000e-01  4.58529542e-01  4.58529542e-01  4.58529542e-01  3.07948641e-09  3.22314067e-09  3.38502966e-09  3.18860535e-09  1.58882291e-07  1.00470885e-08  8.90000000e-01 
 9.00000000e-01  4.58529564e-01  4.58529564e-01  4.58529564e-01  3.07948641e-09  3.22314067e-09  3.38502966e-09  3.18860535e-09  1.58882311e-07  1.00469535e-08  9.00000000e-01 
 9.10000000e-01  4.58529575e-01  4.58529575e-01  4.58529575e-01  3.07948641e-09  3.22314067e-09  3.38502966e-09  3.18860535e-09  1.58882332e-07  1.00467830e-08  9.10000000e-01 
 9.20000000e-01  4.58529539e-01  4.58529539e-01  4.58529539e-01  3.07948641e-09  3.22314067e-09  3.38502972e-09  3.18860535e-09  1.58882281e-07  1.00469180e-08  9.20000000e-01 
 9.30000000e-01  4.58529552e-01  4.58529552e-01  4.58529552e-01  3.07948641e-09  3.22314067e-09  3.38502966e-09  3.18860535e-09  1.58882297e-07  1.00467759e-08  9.30000000e-01 
 9.40000000e-01  4.58529529e-01  4.58529529e-01  4.58529529e-01  3.07948640e-09  3.22314067e-09  3.38502966e-09  3.18860535e-09  1.58882261e-07  1.00467332e-08  9.40000000e-01 
 9.50000000e-01  4.58529549e-01  4.58529549e-01  4.58529549e-01  3.07948641e-09  3.22314067e-09  3.38502966e-09  3.18860535e-09  1.58882294e-07  1.00467474e-08  9.50000000e-01 
 9.60000000e-01  4.58529547e-01  4.58529547e-01  4.58529547e-01  3.07948641e-09  3.22314067e-09  3.38502966e-09  3.18860535e-09  1.58882304e-07  1.00465414e-08  9.60000000e-01 
 9.70000000e-01  4.58529571e-01  4.58529571e-01  4.58529571e-01  3.07948641e-09  3.22314067e-09  3.38502966e-09  3.18860535e-09  1.58882330e-07  1.00464277e-08  9.70000000e-01 
 9.80000000e-01  4.58529570e-01  4.58529571e-01  4.58529570e-01  3.07948641e-09  3.22314067e-09  3.38502966e-09  3.18860535e-09  1.58882335e-07  1.00466409e-08  9.80000000e-01 
 9.90000000e-01  4.58529537e-01  4.58529537e-01  4.58529537e-01  3.07948641e-09  3.22314067e-09  3.38502972e-09  3.18860540e-09  1.58882280e-07  1.00463566e-08  9.90000000e-01 
 1.00000000e+00  4.58529551e-01  4.58529551e-01  4.58529551e-01  3.07948641e-09  3.22314067e-09  3.38502966e-09  3.18860535e-09  1.58882314e-07  1.00463851e-08  1.00000000e+00 
 1.01000000e+00  4.58529542e-01  4.58529542e-01  4.58529542e-01  3.07948641e-09  3.22314067e-09  3.38502966e-09  3.18860540e-09  1.58882271e-07  1.00465130e-08  1.01000000e+00 
 1.02000000e+00  4.58529563e-01  4.58529563e-01  4.58529563e-01  3.07948641e-09  3.22314067e-09  3.38502966e-09  3.18860535e-09  1.58882310e-07  1.00463566e-08  1.02000000e+00 
 1.03000000e+00  4.58529568e-01  4.58529568e-01  4.58529568e-01  3.07948641e-09  3.22314067e-09  3.38502966e-09  3.18860535e-09  1.58882329e-07  1.00462785e-08  1.03000000e+00 
 1.04000000e+00  4.58529553e-01  4.58529553e-01  4.58529553e-01  3.07948646e-09  3.22314067e-09  3.38502966e-09  3.18860535e-09  1.58882309e-07  1.00462003e-08  1.04000000e+00 
 1.05000000e+00  4.58529556e-01  4.58529556e-01  4.58529556e-01  3.07948646e-09  3.22314067e-09  3.38502966e-09  3.18860540e-09  1.58882308e-07  1.00460156e-08  1.05000000e+00 
 1.06000000e+00  4.58529516e-01  4.58529516e-01  4.58529516e-01  3.07948640e-09  3.22314067e-09  3.38502972e-09  3.18860535e-09  1.58882236e-07  1.00460298e-08  1.06000000e+00 
 1.07000000e+00  4.58529535e-01  4.58529535e-01  4.58529535e-01  3.07948641e-09  3.22314067e-09  3.38502966e-09  3.18860540e-09  1.58882279e-07  1.00460014e-08  1.07000000e+00 
 1.08000000e+00  4.58529533e-01  4.58529533e-01  4.58529533e-01  3.07948640e-09  3.22314067e-09  3.38502966e-09  3.18860535e-09  1.58882274e-07  1.00459374e-08  1.08000000e+00 
 1.09000000e+00  4.58529520e-01  4.58529520e-01  4.58529520e-01  3.07948640e-09  3.22314067e-09  3.38502966e-09  3.18860535e-09  1.58882251e-07  1.00459303e-08  1.09000000e+00 
 1.10000000e+00  4.58529556e-01  4.58529556e-01  4.58529556e-01  3.07948641e-09  3.22314067e-09  3.38502966e-09  3.18860540e-09  1.58882297e-07  1.00459658e-08  1.10000000e+00 
