 v-sweep         v(b0)           v(b1)           v(b2)           v(b3)           v(b4)           v(b5)           v(b6)           i(vbias)        i(viout)        v(vout)        
 0.00000000e+00  4.60757943e-01  3.41342634e-09  3.56792363e-09  4.60757943e-01  4.60757943e-01  3.38444626e-09  3.37936067e-09  1.62539683e-07  4.07101747e-08  0.00000000e+00 
 1.00000000e-02  4.60757957e-01  3.41342631e-09  3.56792360e-09  4.60757957e-01  4.60757957e-01  3.38444623e-09  3.37936071e-09  1.62539721e-07  4.07098619e-08  1.00000000e-02 
 2.00000000e-02  4.60757963e-01  3.41342633e-09  3.56792360e-09  4.60757962e-01  4.60757962e-01  3.38444625e-09  3.37936071e-09  1.62539740e-07  4.07094682e-08  2.00000000e-02 
 3.00000000e-02  4.60757960e-01  3.41342631e-09  3.56792366e-09  4.60757960e-01  4.60757960e-01  3.38444623e-09  3.37936071e-09  1.62539718e-07  4.07090817e-08  3.00000000e-02 
 4.00000000e-02  4.60757967e-01  3.41342633e-09  3.56792366e-09  4.60757967e-01  4.60757967e-01  3.38444625e-09  3.37936071e-09  1.62539725e-07  4.07087950e-08  4.00000000e-02 
 5.00000000e-02  4.60757954e-01  3.41342631e-09  3.56792360e-09  4.60757954e-01  4.60757954e-01  3.38444628e-09  3.37936071e-09  1.62539705e-07  4.07084206e-08  5.00000000e-02 
 6.00000000e-02  4.60757975e-01  3.41342633e-09  3.56792360e-09  4.60757975e-01  4.60757975e-01  3.38444623e-09  3.37936071e-09  1.62539753e-07  4.07081062e-08  6.00000000e-02 
 7.00000000e-02  4.60757936e-01  3.41342631e-09  3.56792360e-09  4.60757936e-01  4.60757936e-01  3.38444624e-09  3.37936071e-09  1.62539685e-07  4.07078389e-08  7.00000000e-02 
 8.00000000e-02  4.60757970e-01  3.41342633e-09  3.56792360e-09  4.60757970e-01  4.60757970e-01  3.38444623e-09  3.37936071e-09  1.62539749e-07  4.07074427e-08  8.00000000e-02 
 9.00000000e-02  4.60757944e-01  3.41342631e-09  3.56792366e-09  4.60757944e-01  4.60757944e-01  3.38444624e-09  3.37936071e-09  1.62539694e-07  4.07071195e-08  9.00000000e-02 
 1.00000000e-01  4.60757945e-01  3.41342632e-09  3.56792366e-09  4.60757945e-01  4.60757945e-01  3.38444623e-09  3.37936071e-09  1.62539699e-07  4.07069427e-08  1.00000000e-01 
 1.10000000e-01  4.60757952e-01  3.41342631e-09  3.56792366e-09  4.60757952e-01  4.60757952e-01  3.38444624e-09  3.37936071e-09  1.62539709e-07  4.07067464e-08  1.10000000e-01 
 1.20000000e-01  4.60757954e-01  3.41342633e-09  3.56792360e-09  4.60757954e-01  4.60757954e-01  3.38444623e-09  3.37936071e-09  1.62539708e-07  4.07064471e-08  1.20000000e-01 
 1.30000000e-01  4.60757949e-01  3.41342631e-09  3.56792366e-09  4.60757949e-01  4.60757949e-01  3.38444624e-09  3.37936071e-09  1.62539704e-07  4.07062828e-08  1.30000000e-01 
 1.40000000e-01  4.60757957e-01  3.41342627e-09  3.56792366e-09  4.60757957e-01  4.60757956e-01  3.38444623e-09  3.37936071e-09  1.62539736e-07  4.07061460e-08  1.40000000e-01 
 1.50000000e-01  4.60757969e-01  3.41342632e-09  3.56792366e-09  4.60757969e-01  4.60757969e-01  3.38444619e-09  3.37936071e-09  1.62539734e-07  4.07058316e-08  1.50000000e-01 
 1.60000000e-01  4.60757952e-01  3.41342631e-09  3.56792366e-09  4.60757952e-01  4.60757952e-01  3.38444624e-09  3.37936071e-09  1.62539728e-07  4.07056930e-08  1.60000000e-01 
 1.70000000e-01  4.60757952e-01  3.41342633e-09  3.56792366e-09  4.60757952e-01  4.60757952e-01  3.38444624e-09  3.37936071e-09  1.62539707e-07  4.07055349e-08  1.70000000e-01 
 1.80000000e-01  4.60757952e-01  3.41342631e-09  3.56792366e-09  4.60757952e-01  4.60757952e-01  3.38444624e-09  3.37936071e-09  1.62539718e-07  4.07054053e-08  1.80000000e-01 
 1.90000000e-01  4.60757965e-01  3.41342633e-09  3.56792366e-09  4.60757965e-01  4.60757965e-01  3.38444624e-09  3.37936071e-09  1.62539724e-07  4.07051779e-08  1.90000000e-01 
 2.00000000e-01  4.60757951e-01  3.41342631e-09  3.56792366e-09  4.60757951e-01  4.60757951e-01  3.38444624e-09  3.37936076e-09  1.62539708e-07  4.07049292e-08  2.00000000e-01 
 2.10000000e-01  4.60757958e-01  3.41342633e-09  3.56792366e-09  4.60757958e-01  4.60757958e-01  3.38444624e-09  3.37936070e-09  1.62539715e-07  4.07046983e-08  2.10000000e-01 
 2.20000000e-01  4.60757973e-01  3.41342631e-09  3.56792360e-09  4.60757973e-01  4.60757973e-01  3.38444624e-09  3.37936072e-09  1.62539740e-07  4.07046468e-08  2.20000000e-01 
 2.30000000e-01  4.60757952e-01  3.41342627e-09  3.56792366e-09  4.60757952e-01  4.60757952e-01  3.38444624e-09  3.37936071e-09  1.62539697e-07  4.07046450e-08  2.30000000e-01 
 2.40000000e-01  4.60757960e-01  3.41342632e-09  3.56792366e-09  4.60757960e-01  4.60757960e-01  3.38444624e-09  3.37936071e-09  1.62539730e-07  4.07043910e-08  2.40000000e-01 
 2.50000000e-01  4.60757959e-01  3.41342631e-09  3.56792366e-09  4.60757959e-01  4.60757959e-01  3.38444624e-09  3.37936071e-09  1.62539704e-07  4.07042116e-08  2.50000000e-01 
 2.60000000e-01  4.60757968e-01  3.41342633e-09  3.56792366e-09  4.60757968e-01  4.60757968e-01  3.38444624e-09  3.37936071e-09  1.62539741e-07  4.07042489e-08  2.60000000e-01 
 2.70000000e-01  4.60757958e-01  3.41342631e-09  3.56792366e-09  4.60757958e-01  4.60757958e-01  3.38444624e-09  3.37936071e-09  1.62539713e-07  4.07040339e-08  2.70000000e-01 
 2.80000000e-01  4.60757945e-01  3.41342632e-09  3.56792360e-09  4.60757945e-01  4.60757945e-01  3.38444624e-09  3.37936071e-09  1.62539701e-07  4.07038563e-08  2.80000000e-01 
 2.90000000e-01  4.60757983e-01  3.41342631e-09  3.56792360e-09  4.60757982e-01  4.60757982e-01  3.38444624e-09  3.37936071e-09  1.62539769e-07  4.07039025e-08  2.90000000e-01 
 3.00000000e-01  4.60757946e-01  3.41342632e-09  3.56792360e-09  4.60757946e-01  4.60757946e-01  3.38444624e-09  3.37936071e-09  1.62539699e-07  4.07036858e-08  3.00000000e-01 
 3.10000000e-01  4.60757964e-01  3.41342631e-09  3.56792366e-09  4.60757964e-01  4.60757964e-01  3.38444624e-09  3.37936071e-09  1.62539740e-07  4.07035721e-08  3.10000000e-01 
 3.20000000e-01  4.60757956e-01  3.41342627e-09  3.56792366e-09  4.60757956e-01  4.60757956e-01  3.38444624e-09  3.37936071e-09  1.62539721e-07  4.07035472e-08  3.20000000e-01 
 3.30000000e-01  4.60757953e-01  3.41342626e-09  3.56792366e-09  4.60757953e-01  4.60757953e-01  3.38444624e-09  3.37936071e-09  1.62539721e-07  4.07034761e-08  3.30000000e-01 
 3.40000000e-01  4.60757942e-01  3.41342632e-09  3.56792366e-09  4.60757942e-01  4.60757942e-01  3.38444624e-09  3.37936071e-09  1.62539693e-07  4.07033305e-08  3.40000000e-01 
 3.50000000e-01  4.60757957e-01  3.41342636e-09  3.56792366e-09  4.60757957e-01  4.60757956e-01  3.38444624e-09  3.37936071e-09  1.62539714e-07  4.07032132e-08  3.50000000e-01 
 3.60000000e-01  4.60757964e-01  3.41342631e-09  3.56792360e-09  4.60757964e-01  4.60757964e-01  3.38444624e-09  3.37936071e-09  1.62539727e-07  4.07032736e-08  3.60000000e-01 
 3.70000000e-01  4.60757959e-01  3.41342633e-09  3.56792366e-09  4.60757959e-01  4.60757959e-01  3.38444624e-09  3.37936071e-09  1.62539699e-07  4.07031209e-08  3.70000000e-01 
 3.80000000e-01  4.60757967e-01  3.41342631e-09  3.56792366e-09  4.60757967e-01  4.60757967e-01  3.38444624e-09  3.37936071e-09  1.62539739e-07  4.07029859e-08  3.80000000e-01 
 3.90000000e-01  4.60757953e-01  3.41342633e-09  3.56792366e-09  4.60757953e-01  4.60757953e-01  3.38444624e-09  3.37936071e-09  1.62539719e-07  4.07029290e-08  3.90000000e-01 
 4.00000000e-01  4.60757957e-01  3.41342631e-09  3.56792360e-09  4.60757957e-01  4.60757957e-01  3.38444624e-09  3.37936071e-09  1.62539708e-07  4.07027834e-08  4.00000000e-01 
 4.10000000e-01  4.60757959e-01  3.41342633e-09  3.56792366e-09  4.60757959e-01  4.60757959e-01  3.38444624e-09  3.37936071e-09  1.62539726e-07  4.07028189e-08  4.10000000e-01 
 4.20000000e-01  4.60757969e-01  3.41342631e-09  3.56792366e-09  4.60757969e-01  4.60757969e-01  3.38444624e-09  3.37936071e-09  1.62539717e-07  4.07027834e-08  4.20000000e-01 
 4.30000000e-01  4.60757962e-01  3.41342633e-09  3.56792366e-09  4.60757962e-01  4.60757962e-01  3.38444624e-09  3.37936071e-09  1.62539728e-07  4.07026057e-08  4.30000000e-01 
 4.40000000e-01  4.60757965e-01  3.41342631e-09  3.56792366e-09  4.60757965e-01  4.60757965e-01  3.38444624e-09  3.37936071e-09  1.62539733e-07  4.07027123e-08  4.40000000e-01 
 4.50000000e-01  4.60757956e-01  3.41342627e-09  3.56792366e-09  4.60757956e-01  4.60757956e-01  3.38444624e-09  3.37936071e-09  1.62539706e-07  4.07025524e-08  4.50000000e-01 
 4.60000000e-01  4.60757971e-01  3.41342626e-09  3.56792366e-09  4.60757971e-01  4.60757970e-01  3.38444624e-09  3.37936071e-09  1.62539740e-07  4.07024210e-08  4.60000000e-01 
 4.70000000e-01  4.60757962e-01  3.41342632e-09  3.56792366e-09  4.60757962e-01  4.60757962e-01  3.38444624e-09  3.37936071e-09  1.62539728e-07  4.07023570e-08  4.70000000e-01 
 4.80000000e-01  4.60757963e-01  3.41342631e-09  3.56792360e-09  4.60757963e-01  4.60757963e-01  3.38444624e-09  3.37936071e-09  1.62539720e-07  4.07023251e-08  4.80000000e-01 
 4.90000000e-01  4.60757943e-01  3.41342627e-09  3.56792360e-09  4.60757943e-01  4.60757943e-01  3.38444624e-09  3.37936071e-09  1.62539691e-07  4.07021794e-08  4.90000000e-01 
 5.00000000e-01  4.60757942e-01  3.41342632e-09  3.56792360e-09  4.60757942e-01  4.60757942e-01  3.38444624e-09  3.37936071e-09  1.62539699e-07  4.07021652e-08  5.00000000e-01 
 5.10000000e-01  4.60757961e-01  3.41342631e-09  3.56792366e-09  4.60757961e-01  4.60757961e-01  3.38444624e-09  3.37936071e-09  1.62539729e-07  4.07020941e-08  5.10000000e-01 
 5.20000000e-01  4.60757948e-01  3.41342627e-09  3.56792366e-09  4.60757948e-01  4.60757948e-01  3.38444624e-09  3.37936071e-09  1.62539701e-07  4.07020480e-08  5.20000000e-01 
 5.30000000e-01  4.60757951e-01  3.41342632e-09  3.56792360e-09  4.60757951e-01  4.60757951e-01  3.38444624e-09  3.37936071e-09  1.62539709e-07  4.07019307e-08  5.30000000e-01 
 5.40000000e-01  4.60757971e-01  3.41342631e-09  3.56792366e-09  4.60757971e-01  4.60757971e-01  3.38444624e-09  3.37936071e-09  1.62539745e-07  4.07019911e-08  5.40000000e-01 
 5.50000000e-01  4.60757957e-01  3.41342633e-09  3.56792366e-09  4.60757957e-01  4.60757957e-01  3.38444624e-09  3.37936071e-09  1.62539710e-07  4.07019627e-08  5.50000000e-01 
 5.60000000e-01  4.60757983e-01  3.41342631e-09  3.56792366e-09  4.60757983e-01  4.60757983e-01  3.38444624e-09  3.37936077e-09  1.62539776e-07  4.07019023e-08  5.60000000e-01 
 5.70000000e-01  4.60757958e-01  3.41342633e-09  3.56792366e-09  4.60757958e-01  4.60757958e-01  3.38444624e-09  3.37936070e-09  1.62539732e-07  4.07017460e-08  5.70000000e-01 
 5.80000000e-01  4.60757962e-01  3.41342631e-09  3.56792366e-09  4.60757962e-01  4.60757962e-01  3.38444624e-09  3.37936071e-09  1.62539726e-07  4.07017851e-08  5.80000000e-01 
 5.90000000e-01  4.60757947e-01  3.41342627e-09  3.56792360e-09  4.60757947e-01  4.60757947e-01  3.38444624e-09  3.37936071e-09  1.62539703e-07  4.07015719e-08  5.90000000e-01 
 6.00000000e-01  4.60757969e-01  3.41342632e-09  3.56792360e-09  4.60757969e-01  4.60757969e-01  3.38444624e-09  3.37936071e-09  1.62539742e-07  4.07015364e-08  6.00000000e-01 
 6.10000000e-01  4.60757937e-01  3.41342631e-09  3.56792366e-09  4.60757937e-01  4.60757937e-01  3.38444624e-09  3.37936071e-09  1.62539687e-07  4.07014582e-08  6.10000000e-01 
 6.20000000e-01  4.60757968e-01  3.41342633e-09  3.56792366e-09  4.60757968e-01  4.60757968e-01  3.38444624e-09  3.37936071e-09  1.62539747e-07  4.07014937e-08  6.20000000e-01 
 6.30000000e-01  4.60757953e-01  3.41342631e-09  3.56792360e-09  4.60757953e-01  4.60757953e-01  3.38444624e-09  3.37936071e-09  1.62539708e-07  4.07014582e-08  6.30000000e-01 
 6.40000000e-01  4.60757955e-01  3.41342627e-09  3.56792366e-09  4.60757955e-01  4.60757955e-01  3.38444624e-09  3.37936071e-09  1.62539713e-07  4.07013374e-08  6.40000000e-01 
 6.50000000e-01  4.60757977e-01  3.41342632e-09  3.56792360e-09  4.60757977e-01  4.60757977e-01  3.38444624e-09  3.37936071e-09  1.62539745e-07  4.07012735e-08  6.50000000e-01 
 6.60000000e-01  4.60757948e-01  3.41342631e-09  3.56792366e-09  4.60757948e-01  4.60757948e-01  3.38444624e-09  3.37936076e-09  1.62539707e-07  4.07011314e-08  6.60000000e-01 
 6.70000000e-01  4.60757949e-01  3.41342627e-09  3.56792366e-09  4.60757949e-01  4.60757949e-01  3.38444624e-09  3.37936069e-09  1.62539702e-07  4.07012308e-08  6.70000000e-01 
 6.80000000e-01  4.60757945e-01  3.41342632e-09  3.56792366e-09  4.60757945e-01  4.60757945e-01  3.38444624e-09  3.37936071e-09  1.62539694e-07  4.07011598e-08  6.80000000e-01 
 6.90000000e-01  4.60757969e-01  3.41342631e-09  3.56792360e-09  4.60757969e-01  4.60757969e-01  3.38444624e-09  3.37936071e-09  1.62539750e-07  4.07010319e-08  6.90000000e-01 
 7.00000000e-01  4.60757936e-01  3.41342627e-09  3.56792366e-09  4.60757935e-01  4.60757935e-01  3.38444624e-09  3.37936071e-09  1.62539684e-07  4.07009253e-08  7.00000000e-01 
 7.10000000e-01  4.60757957e-01  3.41342632e-09  3.56792366e-09  4.60757957e-01  4.60757957e-01  3.38444624e-09  3.37936071e-09  1.62539710e-07  4.07008685e-08  7.10000000e-01 
 7.20000000e-01  4.60757967e-01  3.41342631e-09  3.56792366e-09  4.60757967e-01  4.60757967e-01  3.38444624e-09  3.37936071e-09  1.62539730e-07  4.07009537e-08  7.20000000e-01 
 7.30000000e-01  4.60757949e-01  3.41342632e-09  3.56792366e-09  4.60757949e-01  4.60757949e-01  3.38444624e-09  3.37936071e-09  1.62539701e-07  4.07008187e-08  7.30000000e-01 
 7.40000000e-01  4.60757966e-01  3.41342631e-09  3.56792366e-09  4.60757966e-01  4.60757966e-01  3.38444624e-09  3.37936071e-09  1.62539732e-07  4.07008329e-08  7.40000000e-01 
 7.50000000e-01  4.60757955e-01  3.41342627e-09  3.56792366e-09  4.60757955e-01  4.60757955e-01  3.38444624e-09  3.37936071e-09  1.62539710e-07  4.07007477e-08  7.50000000e-01 
 7.60000000e-01  4.60757961e-01  3.41342632e-09  3.56792366e-09  4.60757961e-01  4.60757961e-01  3.38444624e-09  3.37936071e-09  1.62539731e-07  4.07005984e-08  7.60000000e-01 
 7.70000000e-01  4.60757958e-01  3.41342631e-09  3.56792366e-09  4.60757958e-01  4.60757958e-01  3.38444624e-09  3.37936071e-09  1.62539717e-07  4.07005842e-08  7.70000000e-01 
 7.80000000e-01  4.60757961e-01  3.41342627e-09  3.56792360e-09  4.60757961e-01  4.60757961e-01  3.38444624e-09  3.37936071e-09  1.62539719e-07  4.07004705e-08  7.80000000e-01 
 7.90000000e-01  4.60757946e-01  3.41342632e-09  3.56792360e-09  4.60757946e-01  4.60757946e-01  3.38444624e-09  3.37936071e-09  1.62539684e-07  4.07005061e-08  7.90000000e-01 
 8.00000000e-01  4.60757950e-01  3.41342631e-09  3.56792366e-09  4.60757950e-01  4.60757950e-01  3.38444624e-09  3.37936071e-09  1.62539702e-07  4.07003853e-08  8.00000000e-01 
 8.10000000e-01  4.60757965e-01  3.41342633e-09  3.56792360e-09  4.60757965e-01  4.60757965e-01  3.38444624e-09  3.37936077e-09  1.62539721e-07  4.07003213e-08  8.10000000e-01 
 8.20000000e-01  4.60757958e-01  3.41342631e-09  3.56792360e-09  4.60757958e-01  4.60757958e-01  3.38444624e-09  3.37936070e-09  1.62539719e-07  4.07002787e-08  8.20000000e-01 
 8.30000000e-01  4.60757937e-01  3.41342632e-09  3.56792360e-09  4.60757937e-01  4.60757937e-01  3.38444624e-09  3.37936071e-09  1.62539689e-07  4.07002574e-08  8.30000000e-01 
 8.40000000e-01  4.60757954e-01  3.41342631e-09  3.56792360e-09  4.60757954e-01  4.60757954e-01  3.38444624e-09  3.37936071e-09  1.62539717e-07  4.07002076e-08  8.40000000e-01 
 8.50000000e-01  4.60757968e-01  3.41342633e-09  3.56792360e-09  4.60757968e-01  4.60757968e-01  3.38444624e-09  3.37936071e-09  1.62539743e-07  4.07001224e-08  8.50000000e-01 
 8.60000000e-01  4.60757971e-01  3.41342631e-09  3.56792360e-09  4.60757971e-01  4.60757971e-01  3.38444624e-09  3.37936071e-09  1.62539741e-07  4.07001366e-08  8.60000000e-01 
 8.70000000e-01  4.60757965e-01  3.41342633e-09  3.56792366e-09  4.60757965e-01  4.60757965e-01  3.38444624e-09  3.37936071e-09  1.62539720e-07  4.07000371e-08  8.70000000e-01 
 8.80000000e-01  4.60757965e-01  3.41342631e-09  3.56792360e-09  4.60757965e-01  4.60757965e-01  3.38444624e-09  3.37936071e-09  1.62539732e-07  4.06999590e-08  8.80000000e-01 
 8.90000000e-01  4.60757943e-01  3.41342632e-09  3.56792360e-09  4.60757943e-01  4.60757943e-01  3.38444624e-09  3.37936071e-09  1.62539683e-07  4.06999092e-08  8.90000000e-01 
 9.00000000e-01  4.60757958e-01  3.41342631e-09  3.56792366e-09  4.60757958e-01  4.60757958e-01  3.38444624e-09  3.37936077e-09  1.62539729e-07  4.06998737e-08  9.00000000e-01 
 9.10000000e-01  4.60757970e-01  3.41342633e-09  3.56792366e-09  4.60757970e-01  4.60757970e-01  3.38444624e-09  3.37936075e-09  1.62539730e-07  4.06998311e-08  9.10000000e-01 
 9.20000000e-01  4.60757933e-01  3.41342631e-09  3.56792366e-09  4.60757933e-01  4.60757933e-01  3.38444624e-09  3.37936070e-09  1.62539674e-07  4.06997103e-08  9.20000000e-01 
 9.30000000e-01  4.60757971e-01  3.41342627e-09  3.56792366e-09  4.60757971e-01  4.60757971e-01  3.38444624e-09  3.37936072e-09  1.62539740e-07  4.06997600e-08  9.30000000e-01 
 9.40000000e-01  4.60757973e-01  3.41342632e-09  3.56792366e-09  4.60757972e-01  4.60757972e-01  3.38444624e-09  3.37936071e-09  1.62539740e-07  4.06997032e-08  9.40000000e-01 
 9.50000000e-01  4.60757969e-01  3.41342631e-09  3.56792366e-09  4.60757969e-01  4.60757969e-01  3.38444624e-09  3.37936071e-09  1.62539732e-07  4.06995468e-08  9.50000000e-01 
 9.60000000e-01  4.60757974e-01  3.41342633e-09  3.56792360e-09  4.60757974e-01  4.60757974e-01  3.38444624e-09  3.37936071e-09  1.62539752e-07  4.06995184e-08  9.60000000e-01 
 9.70000000e-01  4.60757954e-01  3.41342631e-09  3.56792360e-09  4.60757954e-01  4.60757954e-01  3.38444624e-09  3.37936071e-09  1.62539713e-07  4.06995113e-08  9.70000000e-01 
 9.80000000e-01  4.60757966e-01  3.41342633e-09  3.56792360e-09  4.60757966e-01  4.60757966e-01  3.38444624e-09  3.37936071e-09  1.62539737e-07  4.06994118e-08  9.80000000e-01 
 9.90000000e-01  4.60757974e-01  3.41342631e-09  3.56792366e-09  4.60757974e-01  4.60757974e-01  3.38444624e-09  3.37936071e-09  1.62539744e-07  4.06993905e-08  9.90000000e-01 
 1.00000000e+00  4.60757958e-01  3.41342633e-09  3.56792366e-09  4.60757958e-01  4.60757958e-01  3.38444624e-09  3.37936071e-09  1.62539728e-07  4.06992910e-08  1.00000000e+00 
 1.01000000e+00  4.60757966e-01  3.41342631e-09  3.56792366e-09  4.60757965e-01  4.60757965e-01  3.38444624e-09  3.37936071e-09  1.62539721e-07  4.06991916e-08  1.01000000e+00 
 1.02000000e+00  4.60757960e-01  3.41342627e-09  3.56792366e-09  4.60757960e-01  4.60757960e-01  3.38444624e-09  3.37936071e-09  1.62539730e-07  4.06991987e-08  1.02000000e+00 
 1.03000000e+00  4.60757946e-01  3.41342632e-09  3.56792366e-09  4.60757946e-01  4.60757946e-01  3.38444624e-09  3.37936071e-09  1.62539691e-07  4.06990637e-08  1.03000000e+00 
 1.04000000e+00  4.60757958e-01  3.41342631e-09  3.56792366e-09  4.60757958e-01  4.60757958e-01  3.38444624e-09  3.37936071e-09  1.62539716e-07  4.06989926e-08  1.04000000e+00 
 1.05000000e+00  4.60757944e-01  3.41342632e-09  3.56792366e-09  4.60757944e-01  4.60757944e-01  3.38444624e-09  3.37936071e-09  1.62539695e-07  4.06989074e-08  1.05000000e+00 
 1.06000000e+00  4.60757958e-01  3.41342631e-09  3.56792366e-09  4.60757958e-01  4.60757958e-01  3.38444624e-09  3.37936071e-09  1.62539733e-07  4.06989145e-08  1.06000000e+00 
 1.07000000e+00  4.60757971e-01  3.41342633e-09  3.56792360e-09  4.60757971e-01  4.60757971e-01  3.38444624e-09  3.37936071e-09  1.62539735e-07  4.06988647e-08  1.07000000e+00 
 1.08000000e+00  4.60757957e-01  3.41342631e-09  3.56792360e-09  4.60757956e-01  4.60757956e-01  3.38444624e-09  3.37936071e-09  1.62539716e-07  4.06987297e-08  1.08000000e+00 
 1.09000000e+00  4.60757989e-01  3.41342627e-09  3.56792366e-09  4.60757989e-01  4.60757989e-01  3.38444624e-09  3.37936071e-09  1.62539773e-07  4.06989002e-08  1.09000000e+00 
 1.10000000e+00  4.60757937e-01  3.41342632e-09  3.56792360e-09  4.60757937e-01  4.60757937e-01  3.38444624e-09  3.37936071e-09  1.62539681e-07  4.06986658e-08  1.10000000e+00 
