 v-sweep         v(b0)           v(b1)           v(b2)           v(b3)           v(b4)           v(b5)           v(b6)           i(vbias)        i(viout)        v(vout)        
 0.00000000e+00  4.57382931e-01  3.31552533e-09  3.56427186e-09  4.57382931e-01  4.57382931e-01  3.16327778e-09  4.57382931e-01  1.56390834e-07  1.39743129e-07  0.00000000e+00 
 1.00000000e-02  4.57382912e-01  3.31552532e-09  3.56427189e-09  4.57382912e-01  4.57382912e-01  3.16327782e-09  4.57382912e-01  1.56390807e-07  1.39742577e-07  1.00000000e-02 
 2.00000000e-02  4.57382925e-01  3.31552532e-09  3.56427189e-09  4.57382925e-01  4.57382925e-01  3.16327777e-09  4.57382925e-01  1.56390847e-07  1.39742160e-07  2.00000000e-02 
 3.00000000e-02  4.57382938e-01  3.31552537e-09  3.56427184e-09  4.57382938e-01  4.57382937e-01  3.16327782e-09  4.57382938e-01  1.56390855e-07  1.39741823e-07  3.00000000e-02 
 4.00000000e-02  4.57382927e-01  3.31552532e-09  3.56427184e-09  4.57382927e-01  4.57382927e-01  3.16327782e-09  4.57382927e-01  1.56390828e-07  1.39741425e-07  4.00000000e-02 
 5.00000000e-02  4.57382944e-01  3.31552532e-09  3.56427184e-09  4.57382944e-01  4.57382944e-01  3.16327782e-09  4.57382944e-01  1.56390875e-07  1.39741052e-07  5.00000000e-02 
 6.00000000e-02  4.57382939e-01  3.31552532e-09  3.56427189e-09  4.57382939e-01  4.57382939e-01  3.16327777e-09  4.57382939e-01  1.56390848e-07  1.39740775e-07  6.00000000e-02 
 7.00000000e-02  4.57382923e-01  3.31552537e-09  3.56427189e-09  4.57382923e-01  4.57382922e-01  3.16327782e-09  4.57382923e-01  1.56390829e-07  1.39740229e-07  7.00000000e-02 
 8.00000000e-02  4.57382931e-01  3.31552537e-09  3.56427184e-09  4.57382931e-01  4.57382931e-01  3.16327782e-09  4.57382931e-01  1.56390841e-07  1.39740031e-07  8.00000000e-02 
 9.00000000e-02  4.57382916e-01  3.31552537e-09  3.56427184e-09  4.57382916e-01  4.57382915e-01  3.16327776e-09  4.57382916e-01  1.56390830e-07  1.39739691e-07  9.00000000e-02 
 1.00000000e-01  4.57382934e-01  3.31552532e-09  3.56427184e-09  4.57382934e-01  4.57382934e-01  3.16327777e-09  4.57382934e-01  1.56390850e-07  1.39739464e-07  1.00000000e-01 
 1.10000000e-01  4.57382905e-01  3.31552532e-09  3.56427189e-09  4.57382905e-01  4.57382905e-01  3.16327776e-09  4.57382905e-01  1.56390808e-07  1.39739011e-07  1.10000000e-01 
 1.20000000e-01  4.57382930e-01  3.31552532e-09  3.56427184e-09  4.57382930e-01  4.57382930e-01  3.16327782e-09  4.57382930e-01  1.56390842e-07  1.39738977e-07  1.20000000e-01 
 1.30000000e-01  4.57382923e-01  3.31552537e-09  3.56427184e-09  4.57382923e-01  4.57382923e-01  3.16327777e-09  4.57382923e-01  1.56390825e-07  1.39738598e-07  1.30000000e-01 
 1.40000000e-01  4.57382935e-01  3.31552537e-09  3.56427189e-09  4.57382934e-01  4.57382934e-01  3.16327782e-09  4.57382934e-01  1.56390859e-07  1.39738356e-07  1.40000000e-01 
 1.50000000e-01  4.57382930e-01  3.31552532e-09  3.56427189e-09  4.57382930e-01  4.57382930e-01  3.16327782e-09  4.57382930e-01  1.56390856e-07  1.39738276e-07  1.50000000e-01 
 1.60000000e-01  4.57382932e-01  3.31552537e-09  3.56427189e-09  4.57382932e-01  4.57382932e-01  3.16327777e-09  4.57382932e-01  1.56390836e-07  1.39737931e-07  1.60000000e-01 
 1.70000000e-01  4.57382938e-01  3.31552532e-09  3.56427189e-09  4.57382938e-01  4.57382938e-01  3.16327777e-09  4.57382938e-01  1.56390842e-07  1.39737708e-07  1.70000000e-01 
 1.80000000e-01  4.57382917e-01  3.31552532e-09  3.56427184e-09  4.57382917e-01  4.57382917e-01  3.16327776e-09  4.57382917e-01  1.56390833e-07  1.39737448e-07  1.80000000e-01 
 1.90000000e-01  4.57382948e-01  3.31552537e-09  3.56427184e-09  4.57382948e-01  4.57382948e-01  3.16327782e-09  4.57382948e-01  1.56390884e-07  1.39737379e-07  1.90000000e-01 
 2.00000000e-01  4.57382938e-01  3.31552537e-09  3.56427184e-09  4.57382937e-01  4.57382937e-01  3.16327777e-09  4.57382937e-01  1.56390852e-07  1.39737111e-07  2.00000000e-01 
 2.10000000e-01  4.57382950e-01  3.31552537e-09  3.56427189e-09  4.57382949e-01  4.57382949e-01  3.16327782e-09  4.57382949e-01  1.56390883e-07  1.39737013e-07  2.10000000e-01 
 2.20000000e-01  4.57382924e-01  3.31552537e-09  3.56427189e-09  4.57382924e-01  4.57382924e-01  3.16327782e-09  4.57382924e-01  1.56390839e-07  1.39736722e-07  2.20000000e-01 
 2.30000000e-01  4.57382952e-01  3.31552532e-09  3.56427189e-09  4.57382952e-01  4.57382952e-01  3.16327777e-09  4.57382952e-01  1.56390878e-07  1.39736686e-07  2.30000000e-01 
 2.40000000e-01  4.57382932e-01  3.31552532e-09  3.56427184e-09  4.57382931e-01  4.57382931e-01  3.16327782e-09  4.57382931e-01  1.56390840e-07  1.39736452e-07  2.40000000e-01 
 2.50000000e-01  4.57382936e-01  3.31552532e-09  3.56427189e-09  4.57382936e-01  4.57382936e-01  3.16327777e-09  4.57382936e-01  1.56390854e-07  1.39736366e-07  2.50000000e-01 
 2.60000000e-01  4.57382914e-01  3.31552537e-09  3.56427184e-09  4.57382914e-01  4.57382914e-01  3.16327776e-09  4.57382914e-01  1.56390828e-07  1.39736073e-07  2.60000000e-01 
 2.70000000e-01  4.57382933e-01  3.31552532e-09  3.56427189e-09  4.57382932e-01  4.57382932e-01  3.16327777e-09  4.57382932e-01  1.56390853e-07  1.39735937e-07  2.70000000e-01 
 2.80000000e-01  4.57382952e-01  3.31552532e-09  3.56427184e-09  4.57382952e-01  4.57382952e-01  3.16327782e-09  4.57382952e-01  1.56390883e-07  1.39735933e-07  2.80000000e-01 
 2.90000000e-01  4.57382921e-01  3.31552532e-09  3.56427184e-09  4.57382921e-01  4.57382920e-01  3.16327782e-09  4.57382921e-01  1.56390838e-07  1.39735665e-07  2.90000000e-01 
 3.00000000e-01  4.57382927e-01  3.31552532e-09  3.56427184e-09  4.57382927e-01  4.57382927e-01  3.16327777e-09  4.57382927e-01  1.56390835e-07  1.39735501e-07  3.00000000e-01 
 3.10000000e-01  4.57382939e-01  3.31552532e-09  3.56427189e-09  4.57382939e-01  4.57382938e-01  3.16327782e-09  4.57382939e-01  1.56390864e-07  1.39735452e-07  3.10000000e-01 
 3.20000000e-01  4.57382898e-01  3.31552532e-09  3.56427189e-09  4.57382898e-01  4.57382898e-01  3.16327782e-09  4.57382898e-01  1.56390796e-07  1.39735207e-07  3.20000000e-01 
 3.30000000e-01  4.57382940e-01  3.31552537e-09  3.56427184e-09  4.57382940e-01  4.57382940e-01  3.16327777e-09  4.57382940e-01  1.56390881e-07  1.39735047e-07  3.30000000e-01 
 3.40000000e-01  4.57382932e-01  3.31552532e-09  3.56427184e-09  4.57382932e-01  4.57382931e-01  3.16327782e-09  4.57382932e-01  1.56390844e-07  1.39734954e-07  3.40000000e-01 
 3.50000000e-01  4.57382928e-01  3.31552532e-09  3.56427189e-09  4.57382928e-01  4.57382928e-01  3.16327782e-09  4.57382928e-01  1.56390847e-07  1.39734851e-07  3.50000000e-01 
 3.60000000e-01  4.57382913e-01  3.31552532e-09  3.56427189e-09  4.57382913e-01  4.57382913e-01  3.16327776e-09  4.57382913e-01  1.56390823e-07  1.39734720e-07  3.60000000e-01 
 3.70000000e-01  4.57382949e-01  3.31552537e-09  3.56427184e-09  4.57382949e-01  4.57382948e-01  3.16327777e-09  4.57382949e-01  1.56390893e-07  1.39734670e-07  3.70000000e-01 
 3.80000000e-01  4.57382925e-01  3.31552537e-09  3.56427184e-09  4.57382925e-01  4.57382925e-01  3.16327782e-09  4.57382925e-01  1.56390846e-07  1.39734496e-07  3.80000000e-01 
 3.90000000e-01  4.57382915e-01  3.31552532e-09  3.56427184e-09  4.57382915e-01  4.57382915e-01  3.16327776e-09  4.57382915e-01  1.56390828e-07  1.39734425e-07  3.90000000e-01 
 4.00000000e-01  4.57382940e-01  3.31552537e-09  3.56427189e-09  4.57382940e-01  4.57382940e-01  3.16327782e-09  4.57382940e-01  1.56390869e-07  1.39734368e-07  4.00000000e-01 
 4.10000000e-01  4.57382944e-01  3.31552537e-09  3.56427184e-09  4.57382944e-01  4.57382943e-01  3.16327777e-09  4.57382944e-01  1.56390852e-07  1.39734261e-07  4.10000000e-01 
 4.20000000e-01  4.57382920e-01  3.31552537e-09  3.56427184e-09  4.57382919e-01  4.57382919e-01  3.16327777e-09  4.57382919e-01  1.56390826e-07  1.39734063e-07  4.20000000e-01 
 4.30000000e-01  4.57382928e-01  3.31552532e-09  3.56427184e-09  4.57382928e-01  4.57382928e-01  3.16327777e-09  4.57382928e-01  1.56390846e-07  1.39734070e-07  4.30000000e-01 
 4.40000000e-01  4.57382945e-01  3.31552537e-09  3.56427184e-09  4.57382945e-01  4.57382945e-01  3.16327777e-09  4.57382945e-01  1.56390864e-07  1.39734059e-07  4.40000000e-01 
 4.50000000e-01  4.57382918e-01  3.31552532e-09  3.56427189e-09  4.57382918e-01  4.57382917e-01  3.16327782e-09  4.57382918e-01  1.56390829e-07  1.39733800e-07  4.50000000e-01 
 4.60000000e-01  4.57382952e-01  3.31552532e-09  3.56427189e-09  4.57382952e-01  4.57382952e-01  3.16327777e-09  4.57382952e-01  1.56390880e-07  1.39733761e-07  4.60000000e-01 
 4.70000000e-01  4.57382937e-01  3.31552532e-09  3.56427189e-09  4.57382937e-01  4.57382937e-01  3.16327777e-09  4.57382937e-01  1.56390844e-07  1.39733562e-07  4.70000000e-01 
 4.80000000e-01  4.57382948e-01  3.31552537e-09  3.56427184e-09  4.57382947e-01  4.57382947e-01  3.16327782e-09  4.57382947e-01  1.56390874e-07  1.39733597e-07  4.80000000e-01 
 4.90000000e-01  4.57382897e-01  3.31552532e-09  3.56427184e-09  4.57382897e-01  4.57382897e-01  3.16327776e-09  4.57382897e-01  1.56390802e-07  1.39733213e-07  4.90000000e-01 
 5.00000000e-01  4.57382912e-01  3.31552532e-09  3.56427189e-09  4.57382912e-01  4.57382912e-01  3.16327782e-09  4.57382912e-01  1.56390828e-07  1.39733160e-07  5.00000000e-01 
 5.10000000e-01  4.57382939e-01  3.31552532e-09  3.56427184e-09  4.57382939e-01  4.57382939e-01  3.16327777e-09  4.57382939e-01  1.56390857e-07  1.39733238e-07  5.10000000e-01 
 5.20000000e-01  4.57382928e-01  3.31552532e-09  3.56427184e-09  4.57382927e-01  4.57382927e-01  3.16327782e-09  4.57382927e-01  1.56390834e-07  1.39733110e-07  5.20000000e-01 
 5.30000000e-01  4.57382918e-01  3.31552532e-09  3.56427184e-09  4.57382918e-01  4.57382918e-01  3.16327782e-09  4.57382918e-01  1.56390852e-07  1.39732947e-07  5.30000000e-01 
 5.40000000e-01  4.57382918e-01  3.31552532e-09  3.56427189e-09  4.57382918e-01  4.57382918e-01  3.16327776e-09  4.57382918e-01  1.56390827e-07  1.39732816e-07  5.40000000e-01 
 5.50000000e-01  4.57382915e-01  3.31552537e-09  3.56427189e-09  4.57382915e-01  4.57382915e-01  3.16327782e-09  4.57382915e-01  1.56390828e-07  1.39732748e-07  5.50000000e-01 
 5.60000000e-01  4.57382940e-01  3.31552532e-09  3.56427184e-09  4.57382940e-01  4.57382940e-01  3.16327777e-09  4.57382940e-01  1.56390858e-07  1.39732691e-07  5.60000000e-01 
 5.70000000e-01  4.57382926e-01  3.31552532e-09  3.56427189e-09  4.57382925e-01  4.57382925e-01  3.16327777e-09  4.57382925e-01  1.56390829e-07  1.39732546e-07  5.70000000e-01 
 5.80000000e-01  4.57382932e-01  3.31552537e-09  3.56427184e-09  4.57382932e-01  4.57382932e-01  3.16327782e-09  4.57382932e-01  1.56390853e-07  1.39732521e-07  5.80000000e-01 
 5.90000000e-01  4.57382933e-01  3.31552532e-09  3.56427184e-09  4.57382933e-01  4.57382932e-01  3.16327777e-09  4.57382933e-01  1.56390858e-07  1.39732556e-07  5.90000000e-01 
 6.00000000e-01  4.57382934e-01  3.31552532e-09  3.56427189e-09  4.57382934e-01  4.57382934e-01  3.16327777e-09  4.57382934e-01  1.56390847e-07  1.39732414e-07  6.00000000e-01 
 6.10000000e-01  4.57382933e-01  3.31552532e-09  3.56427184e-09  4.57382933e-01  4.57382933e-01  3.16327782e-09  4.57382933e-01  1.56390840e-07  1.39732222e-07  6.10000000e-01 
 6.20000000e-01  4.57382948e-01  3.31552532e-09  3.56427189e-09  4.57382947e-01  4.57382947e-01  3.16327777e-09  4.57382947e-01  1.56390868e-07  1.39732329e-07  6.20000000e-01 
 6.30000000e-01  4.57382915e-01  3.31552532e-09  3.56427189e-09  4.57382915e-01  4.57382914e-01  3.16327782e-09  4.57382915e-01  1.56390815e-07  1.39732002e-07  6.30000000e-01 
 6.40000000e-01  4.57382928e-01  3.31552537e-09  3.56427189e-09  4.57382928e-01  4.57382928e-01  3.16327777e-09  4.57382928e-01  1.56390866e-07  1.39732016e-07  6.40000000e-01 
 6.50000000e-01  4.57382930e-01  3.31552532e-09  3.56427184e-09  4.57382929e-01  4.57382929e-01  3.16327782e-09  4.57382929e-01  1.56390847e-07  1.39731853e-07  6.50000000e-01 
 6.60000000e-01  4.57382939e-01  3.31552532e-09  3.56427184e-09  4.57382939e-01  4.57382939e-01  3.16327782e-09  4.57382939e-01  1.56390850e-07  1.39731831e-07  6.60000000e-01 
 6.70000000e-01  4.57382909e-01  3.31552532e-09  3.56427189e-09  4.57382909e-01  4.57382909e-01  3.16327776e-09  4.57382909e-01  1.56390824e-07  1.39731561e-07  6.70000000e-01 
 6.80000000e-01  4.57382933e-01  3.31552532e-09  3.56427189e-09  4.57382933e-01  4.57382933e-01  3.16327777e-09  4.57382933e-01  1.56390868e-07  1.39731597e-07  6.80000000e-01 
 6.90000000e-01  4.57382908e-01  3.31552532e-09  3.56427189e-09  4.57382908e-01  4.57382908e-01  3.16327782e-09  4.57382908e-01  1.56390814e-07  1.39731355e-07  6.90000000e-01 
 7.00000000e-01  4.57382937e-01  3.31552532e-09  3.56427189e-09  4.57382937e-01  4.57382937e-01  3.16327777e-09  4.57382937e-01  1.56390856e-07  1.39731334e-07  7.00000000e-01 
 7.10000000e-01  4.57382905e-01  3.31552537e-09  3.56427184e-09  4.57382905e-01  4.57382904e-01  3.16327782e-09  4.57382905e-01  1.56390805e-07  1.39731199e-07  7.10000000e-01 
 7.20000000e-01  4.57382948e-01  3.31552537e-09  3.56427189e-09  4.57382948e-01  4.57382947e-01  3.16327777e-09  4.57382948e-01  1.56390873e-07  1.39731220e-07  7.20000000e-01 
 7.30000000e-01  4.57382927e-01  3.31552532e-09  3.56427189e-09  4.57382927e-01  4.57382926e-01  3.16327777e-09  4.57382926e-01  1.56390860e-07  1.39731128e-07  7.30000000e-01 
 7.40000000e-01  4.57382927e-01  3.31552532e-09  3.56427184e-09  4.57382927e-01  4.57382927e-01  3.16327777e-09  4.57382927e-01  1.56390842e-07  1.39731007e-07  7.40000000e-01 
 7.50000000e-01  4.57382945e-01  3.31552537e-09  3.56427189e-09  4.57382945e-01  4.57382944e-01  3.16327782e-09  4.57382945e-01  1.56390876e-07  1.39730957e-07  7.50000000e-01 
 7.60000000e-01  4.57382924e-01  3.31552532e-09  3.56427184e-09  4.57382923e-01  4.57382923e-01  3.16327782e-09  4.57382923e-01  1.56390838e-07  1.39730773e-07  7.60000000e-01 
 7.70000000e-01  4.57382949e-01  3.31552532e-09  3.56427184e-09  4.57382949e-01  4.57382949e-01  3.16327782e-09  4.57382949e-01  1.56390888e-07  1.39730773e-07  7.70000000e-01 
 7.80000000e-01  4.57382924e-01  3.31552537e-09  3.56427184e-09  4.57382924e-01  4.57382924e-01  3.16327777e-09  4.57382924e-01  1.56390831e-07  1.39730666e-07  7.80000000e-01 
 7.90000000e-01  4.57382934e-01  3.31552537e-09  3.56427184e-09  4.57382934e-01  4.57382933e-01  3.16327782e-09  4.57382933e-01  1.56390855e-07  1.39730545e-07  7.90000000e-01 
 8.00000000e-01  4.57382919e-01  3.31552532e-09  3.56427184e-09  4.57382919e-01  4.57382918e-01  3.16327776e-09  4.57382919e-01  1.56390816e-07  1.39730240e-07  8.00000000e-01 
 8.10000000e-01  4.57382946e-01  3.31552532e-09  3.56427189e-09  4.57382946e-01  4.57382946e-01  3.16327782e-09  4.57382946e-01  1.56390881e-07  1.39730396e-07  8.10000000e-01 
 8.20000000e-01  4.57382924e-01  3.31552532e-09  3.56427189e-09  4.57382924e-01  4.57382924e-01  3.16327782e-09  4.57382924e-01  1.56390823e-07  1.39730084e-07  8.20000000e-01 
 8.30000000e-01  4.57382947e-01  3.31552532e-09  3.56427184e-09  4.57382947e-01  4.57382947e-01  3.16327777e-09  4.57382947e-01  1.56390875e-07  1.39730169e-07  8.30000000e-01 
 8.40000000e-01  4.57382964e-01  3.31552532e-09  3.56427190e-09  4.57382964e-01  4.57382964e-01  3.16327777e-09  4.57382964e-01  1.56390893e-07  1.39730091e-07  8.40000000e-01 
 8.50000000e-01  4.57382922e-01  3.31552532e-09  3.56427189e-09  4.57382922e-01  4.57382922e-01  3.16327782e-09  4.57382922e-01  1.56390825e-07  1.39729842e-07  8.50000000e-01 
 8.60000000e-01  4.57382920e-01  3.31552532e-09  3.56427189e-09  4.57382920e-01  4.57382920e-01  3.16327782e-09  4.57382920e-01  1.56390842e-07  1.39729721e-07  8.60000000e-01 
 8.70000000e-01  4.57382927e-01  3.31552532e-09  3.56427189e-09  4.57382927e-01  4.57382927e-01  3.16327782e-09  4.57382927e-01  1.56390836e-07  1.39729664e-07  8.70000000e-01 
 8.80000000e-01  4.57382946e-01  3.31552532e-09  3.56427189e-09  4.57382945e-01  4.57382945e-01  3.16327782e-09  4.57382945e-01  1.56390860e-07  1.39729650e-07  8.80000000e-01 
 8.90000000e-01  4.57382933e-01  3.31552537e-09  3.56427189e-09  4.57382932e-01  4.57382932e-01  3.16327777e-09  4.57382932e-01  1.56390825e-07  1.39729536e-07  8.90000000e-01 
 9.00000000e-01  4.57382921e-01  3.31552532e-09  3.56427184e-09  4.57382921e-01  4.57382921e-01  3.16327777e-09  4.57382921e-01  1.56390854e-07  1.39729451e-07  9.00000000e-01 
 9.10000000e-01  4.57382930e-01  3.31552532e-09  3.56427184e-09  4.57382930e-01  4.57382930e-01  3.16327782e-09  4.57382930e-01  1.56390837e-07  1.39729316e-07  9.10000000e-01 
 9.20000000e-01  4.57382933e-01  3.31552532e-09  3.56427184e-09  4.57382933e-01  4.57382933e-01  3.16327782e-09  4.57382933e-01  1.56390857e-07  1.39729174e-07  9.20000000e-01 
 9.30000000e-01  4.57382929e-01  3.31552537e-09  3.56427184e-09  4.57382929e-01  4.57382929e-01  3.16327777e-09  4.57382929e-01  1.56390843e-07  1.39729089e-07  9.30000000e-01 
 9.40000000e-01  4.57382922e-01  3.31552532e-09  3.56427184e-09  4.57382921e-01  4.57382921e-01  3.16327782e-09  4.57382921e-01  1.56390822e-07  1.39728947e-07  9.40000000e-01 
 9.50000000e-01  4.57382937e-01  3.31552537e-09  3.56427189e-09  4.57382937e-01  4.57382936e-01  3.16327777e-09  4.57382937e-01  1.56390864e-07  1.39728911e-07  9.50000000e-01 
 9.60000000e-01  4.57382915e-01  3.31552537e-09  3.56427189e-09  4.57382915e-01  4.57382915e-01  3.16327776e-09  4.57382915e-01  1.56390838e-07  1.39728613e-07  9.60000000e-01 
 9.70000000e-01  4.57382938e-01  3.31552532e-09  3.56427184e-09  4.57382937e-01  4.57382937e-01  3.16327782e-09  4.57382937e-01  1.56390865e-07  1.39728712e-07  9.70000000e-01 
 9.80000000e-01  4.57382934e-01  3.31552532e-09  3.56427189e-09  4.57382933e-01  4.57382933e-01  3.16327782e-09  4.57382933e-01  1.56390843e-07  1.39728598e-07  9.80000000e-01 
 9.90000000e-01  4.57382938e-01  3.31552532e-09  3.56427189e-09  4.57382938e-01  4.57382938e-01  3.16327777e-09  4.57382938e-01  1.56390859e-07  1.39728463e-07  9.90000000e-01 
 1.00000000e+00  4.57382914e-01  3.31552532e-09  3.56427184e-09  4.57382914e-01  4.57382914e-01  3.16327782e-09  4.57382914e-01  1.56390821e-07  1.39728328e-07  1.00000000e+00 
 1.01000000e+00  4.57382944e-01  3.31552537e-09  3.56427184e-09  4.57382944e-01  4.57382943e-01  3.16327777e-09  4.57382944e-01  1.56390877e-07  1.39728286e-07  1.01000000e+00 
 1.02000000e+00  4.57382927e-01  3.31552532e-09  3.56427184e-09  4.57382927e-01  4.57382926e-01  3.16327777e-09  4.57382927e-01  1.56390842e-07  1.39728151e-07  1.02000000e+00 
 1.03000000e+00  4.57382945e-01  3.31552532e-09  3.56427189e-09  4.57382945e-01  4.57382945e-01  3.16327782e-09  4.57382945e-01  1.56390879e-07  1.39727938e-07  1.03000000e+00 
 1.04000000e+00  4.57382944e-01  3.31552532e-09  3.56427189e-09  4.57382944e-01  4.57382943e-01  3.16327777e-09  4.57382944e-01  1.56390847e-07  1.39727867e-07  1.04000000e+00 
 1.05000000e+00  4.57382935e-01  3.31552537e-09  3.56427184e-09  4.57382935e-01  4.57382935e-01  3.16327782e-09  4.57382935e-01  1.56390860e-07  1.39727589e-07  1.05000000e+00 
 1.06000000e+00  4.57382933e-01  3.31552532e-09  3.56427189e-09  4.57382933e-01  4.57382933e-01  3.16327777e-09  4.57382933e-01  1.56390842e-07  1.39727625e-07  1.06000000e+00 
 1.07000000e+00  4.57382936e-01  3.31552532e-09  3.56427189e-09  4.57382936e-01  4.57382936e-01  3.16327777e-09  4.57382936e-01  1.56390846e-07  1.39727526e-07  1.07000000e+00 
 1.08000000e+00  4.57382926e-01  3.31552532e-09  3.56427189e-09  4.57382926e-01  4.57382925e-01  3.16327777e-09  4.57382925e-01  1.56390838e-07  1.39727369e-07  1.08000000e+00 
 1.09000000e+00  4.57382926e-01  3.31552532e-09  3.56427184e-09  4.57382926e-01  4.57382926e-01  3.16327782e-09  4.57382926e-01  1.56390843e-07  1.39727078e-07  1.09000000e+00 
 1.10000000e+00  4.57382905e-01  3.31552532e-09  3.56427184e-09  4.57382905e-01  4.57382905e-01  3.16327776e-09  4.57382905e-01  1.56390808e-07  1.39726964e-07  1.10000000e+00 
