 v-sweep         v(b0)           v(b1)           v(b2)           v(b3)           v(b4)           v(b5)           v(b6)           i(vbias)        i(viout)        v(vout)        
 0.00000000e+00  4.58970046e-01  4.58970046e-01  4.58970046e-01  4.58970047e-01  3.71592945e-09  3.26809026e-09  4.58970046e-01  1.61917763e-07  1.16499458e-07  0.00000000e+00 
 1.00000000e-02  4.58970064e-01  4.58970064e-01  4.58970064e-01  4.58970064e-01  3.71592943e-09  3.26809024e-09  4.58970064e-01  1.61917799e-07  1.16499009e-07  1.00000000e-02 
 2.00000000e-02  4.58970090e-01  4.58970090e-01  4.58970090e-01  4.58970090e-01  3.71592943e-09  3.26809030e-09  4.58970090e-01  1.61917822e-07  1.16498854e-07  2.00000000e-02 
 3.00000000e-02  4.58970091e-01  4.58970091e-01  4.58970091e-01  4.58970091e-01  3.71592938e-09  3.26809030e-09  4.58970091e-01  1.61917833e-07  1.16498333e-07  3.00000000e-02 
 4.00000000e-02  4.58970081e-01  4.58970081e-01  4.58970081e-01  4.58970081e-01  3.71592938e-09  3.26809024e-09  4.58970081e-01  1.61917812e-07  1.16498038e-07  4.00000000e-02 
 5.00000000e-02  4.58970064e-01  4.58970064e-01  4.58970064e-01  4.58970065e-01  3.71592943e-09  3.26809024e-09  4.58970064e-01  1.61917797e-07  1.16497610e-07  5.00000000e-02 
 6.00000000e-02  4.58970090e-01  4.58970090e-01  4.58970090e-01  4.58970090e-01  3.71592943e-09  3.26809030e-09  4.58970090e-01  1.61917814e-07  1.16497285e-07  6.00000000e-02 
 7.00000000e-02  4.58970074e-01  4.58970074e-01  4.58970074e-01  4.58970075e-01  3.71592943e-09  3.26809030e-09  4.58970074e-01  1.61917827e-07  1.16497088e-07  7.00000000e-02 
 8.00000000e-02  4.58970064e-01  4.58970064e-01  4.58970064e-01  4.58970064e-01  3.71592943e-09  3.26809024e-09  4.58970064e-01  1.61917788e-07  1.16496660e-07  8.00000000e-02 
 9.00000000e-02  4.58970066e-01  4.58970066e-01  4.58970066e-01  4.58970066e-01  3.71592943e-09  3.26809030e-09  4.58970066e-01  1.61917795e-07  1.16496407e-07  9.00000000e-02 
 1.00000000e-01  4.58970071e-01  4.58970070e-01  4.58970070e-01  4.58970071e-01  3.71592943e-09  3.26809024e-09  4.58970070e-01  1.61917821e-07  1.16496068e-07  1.00000000e-01 
 1.10000000e-01  4.58970098e-01  4.58970098e-01  4.58970098e-01  4.58970098e-01  3.71592943e-09  3.26809024e-09  4.58970098e-01  1.61917839e-07  1.16495967e-07  1.10000000e-01 
 1.20000000e-01  4.58970103e-01  4.58970103e-01  4.58970103e-01  4.58970103e-01  3.71592943e-09  3.26809024e-09  4.58970103e-01  1.61917854e-07  1.16495685e-07  1.20000000e-01 
 1.30000000e-01  4.58970072e-01  4.58970072e-01  4.58970072e-01  4.58970072e-01  3.71592943e-09  3.26809024e-09  4.58970072e-01  1.61917811e-07  1.16495394e-07  1.30000000e-01 
 1.40000000e-01  4.58970059e-01  4.58970059e-01  4.58970059e-01  4.58970059e-01  3.71592938e-09  3.26809024e-09  4.58970059e-01  1.61917778e-07  1.16495070e-07  1.40000000e-01 
 1.50000000e-01  4.58970067e-01  4.58970067e-01  4.58970067e-01  4.58970067e-01  3.71592943e-09  3.26809030e-09  4.58970067e-01  1.61917789e-07  1.16494864e-07  1.50000000e-01 
 1.60000000e-01  4.58970099e-01  4.58970099e-01  4.58970099e-01  4.58970099e-01  3.71592943e-09  3.26809024e-09  4.58970099e-01  1.61917842e-07  1.16494675e-07  1.60000000e-01 
 1.70000000e-01  4.58970040e-01  4.58970040e-01  4.58970040e-01  4.58970040e-01  3.71592937e-09  3.26809024e-09  4.58970040e-01  1.61917778e-07  1.16494370e-07  1.70000000e-01 
 1.80000000e-01  4.58970060e-01  4.58970060e-01  4.58970060e-01  4.58970060e-01  3.71592943e-09  3.26809030e-09  4.58970060e-01  1.61917787e-07  1.16494151e-07  1.80000000e-01 
 1.90000000e-01  4.58970063e-01  4.58970063e-01  4.58970063e-01  4.58970063e-01  3.71592943e-09  3.26809024e-09  4.58970063e-01  1.61917785e-07  1.16494020e-07  1.90000000e-01 
 2.00000000e-01  4.58970051e-01  4.58970050e-01  4.58970050e-01  4.58970051e-01  3.71592943e-09  3.26809024e-09  4.58970050e-01  1.61917772e-07  1.16493718e-07  2.00000000e-01 
 2.10000000e-01  4.58970088e-01  4.58970088e-01  4.58970088e-01  4.58970088e-01  3.71592943e-09  3.26809030e-09  4.58970088e-01  1.61917825e-07  1.16493695e-07  2.10000000e-01 
 2.20000000e-01  4.58970063e-01  4.58970063e-01  4.58970063e-01  4.58970063e-01  3.71592943e-09  3.26809030e-09  4.58970063e-01  1.61917799e-07  1.16493576e-07  2.20000000e-01 
 2.30000000e-01  4.58970059e-01  4.58970059e-01  4.58970059e-01  4.58970059e-01  3.71592938e-09  3.26809024e-09  4.58970059e-01  1.61917796e-07  1.16493334e-07  2.30000000e-01 
 2.40000000e-01  4.58970051e-01  4.58970051e-01  4.58970051e-01  4.58970051e-01  3.71592943e-09  3.26809030e-09  4.58970051e-01  1.61917759e-07  1.16493181e-07  2.40000000e-01 
 2.50000000e-01  4.58970079e-01  4.58970079e-01  4.58970079e-01  4.58970079e-01  3.71592938e-09  3.26809024e-09  4.58970079e-01  1.61917808e-07  1.16493082e-07  2.50000000e-01 
 2.60000000e-01  4.58970049e-01  4.58970049e-01  4.58970049e-01  4.58970049e-01  3.71592937e-09  3.26809024e-09  4.58970049e-01  1.61917763e-07  1.16492917e-07  2.60000000e-01 
 2.70000000e-01  4.58970019e-01  4.58970019e-01  4.58970019e-01  4.58970019e-01  3.71592943e-09  3.26809029e-09  4.58970019e-01  1.61917743e-07  1.16492636e-07  2.70000000e-01 
 2.80000000e-01  4.58970066e-01  4.58970066e-01  4.58970066e-01  4.58970066e-01  3.71592943e-09  3.26809024e-09  4.58970066e-01  1.61917780e-07  1.16492568e-07  2.80000000e-01 
 2.90000000e-01  4.58970066e-01  4.58970066e-01  4.58970066e-01  4.58970066e-01  3.71592938e-09  3.26809024e-09  4.58970066e-01  1.61917795e-07  1.16492501e-07  2.90000000e-01 
 3.00000000e-01  4.58970046e-01  4.58970046e-01  4.58970046e-01  4.58970046e-01  3.71592943e-09  3.26809030e-09  4.58970046e-01  1.61917762e-07  1.16492334e-07  3.00000000e-01 
 3.10000000e-01  4.58970045e-01  4.58970045e-01  4.58970045e-01  4.58970045e-01  3.71592937e-09  3.26809024e-09  4.58970045e-01  1.61917780e-07  1.16492227e-07  3.10000000e-01 
 3.20000000e-01  4.58970075e-01  4.58970075e-01  4.58970075e-01  4.58970075e-01  3.71592943e-09  3.26809024e-09  4.58970075e-01  1.61917801e-07  1.16492146e-07  3.20000000e-01 
 3.30000000e-01  4.58970076e-01  4.58970076e-01  4.58970076e-01  4.58970077e-01  3.71592943e-09  3.26809024e-09  4.58970076e-01  1.61917822e-07  1.16492004e-07  3.30000000e-01 
 3.40000000e-01  4.58970097e-01  4.58970097e-01  4.58970097e-01  4.58970097e-01  3.71592938e-09  3.26809030e-09  4.58970097e-01  1.61917847e-07  1.16491954e-07  3.40000000e-01 
 3.50000000e-01  4.58970086e-01  4.58970086e-01  4.58970086e-01  4.58970086e-01  3.71592938e-09  3.26809024e-09  4.58970086e-01  1.61917818e-07  1.16491854e-07  3.50000000e-01 
 3.60000000e-01  4.58970088e-01  4.58970088e-01  4.58970088e-01  4.58970088e-01  3.71592943e-09  3.26809024e-09  4.58970088e-01  1.61917824e-07  1.16491776e-07  3.60000000e-01 
 3.70000000e-01  4.58970074e-01  4.58970073e-01  4.58970073e-01  4.58970074e-01  3.71592943e-09  3.26809030e-09  4.58970073e-01  1.61917813e-07  1.16491549e-07  3.70000000e-01 
 3.80000000e-01  4.58970081e-01  4.58970081e-01  4.58970081e-01  4.58970081e-01  3.71592938e-09  3.26809030e-09  4.58970081e-01  1.61917815e-07  1.16491474e-07  3.80000000e-01 
 3.90000000e-01  4.58970074e-01  4.58970074e-01  4.58970074e-01  4.58970074e-01  3.71592938e-09  3.26809030e-09  4.58970074e-01  1.61917803e-07  1.16491339e-07  3.90000000e-01 
 4.00000000e-01  4.58970079e-01  4.58970079e-01  4.58970079e-01  4.58970079e-01  3.71592938e-09  3.26809024e-09  4.58970079e-01  1.61917808e-07  1.16491339e-07  4.00000000e-01 
 4.10000000e-01  4.58970070e-01  4.58970070e-01  4.58970070e-01  4.58970070e-01  3.71592943e-09  3.26809024e-09  4.58970070e-01  1.61917802e-07  1.16491254e-07  4.10000000e-01 
 4.20000000e-01  4.58970085e-01  4.58970085e-01  4.58970085e-01  4.58970085e-01  3.71592938e-09  3.26809030e-09  4.58970085e-01  1.61917827e-07  1.16491158e-07  4.20000000e-01 
 4.30000000e-01  4.58970061e-01  4.58970061e-01  4.58970061e-01  4.58970061e-01  3.71592938e-09  3.26809030e-09  4.58970061e-01  1.61917784e-07  1.16490970e-07  4.30000000e-01 
 4.40000000e-01  4.58970056e-01  4.58970056e-01  4.58970056e-01  4.58970056e-01  3.71592938e-09  3.26809024e-09  4.58970056e-01  1.61917778e-07  1.16490806e-07  4.40000000e-01 
 4.50000000e-01  4.58970060e-01  4.58970060e-01  4.58970060e-01  4.58970060e-01  3.71592938e-09  3.26809024e-09  4.58970060e-01  1.61917794e-07  1.16490753e-07  4.50000000e-01 
 4.60000000e-01  4.58970070e-01  4.58970070e-01  4.58970070e-01  4.58970070e-01  3.71592943e-09  3.26809024e-09  4.58970070e-01  1.61917795e-07  1.16490849e-07  4.60000000e-01 
 4.70000000e-01  4.58970083e-01  4.58970083e-01  4.58970083e-01  4.58970083e-01  3.71592943e-09  3.26809024e-09  4.58970083e-01  1.61917831e-07  1.16490657e-07  4.70000000e-01 
 4.80000000e-01  4.58970050e-01  4.58970050e-01  4.58970050e-01  4.58970050e-01  3.71592943e-09  3.26809024e-09  4.58970050e-01  1.61917777e-07  1.16490504e-07  4.80000000e-01 
 4.90000000e-01  4.58970042e-01  4.58970042e-01  4.58970042e-01  4.58970042e-01  3.71592943e-09  3.26809030e-09  4.58970042e-01  1.61917755e-07  1.16490401e-07  4.90000000e-01 
 5.00000000e-01  4.58970058e-01  4.58970058e-01  4.58970058e-01  4.58970058e-01  3.71592943e-09  3.26809024e-09  4.58970058e-01  1.61917778e-07  1.16490302e-07  5.00000000e-01 
 5.10000000e-01  4.58970054e-01  4.58970054e-01  4.58970054e-01  4.58970054e-01  3.71592943e-09  3.26809024e-09  4.58970054e-01  1.61917778e-07  1.16490259e-07  5.10000000e-01 
 5.20000000e-01  4.58970096e-01  4.58970096e-01  4.58970095e-01  4.58970096e-01  3.71592943e-09  3.26809030e-09  4.58970095e-01  1.61917834e-07  1.16490305e-07  5.20000000e-01 
 5.30000000e-01  4.58970091e-01  4.58970091e-01  4.58970091e-01  4.58970092e-01  3.71592943e-09  3.26809024e-09  4.58970091e-01  1.61917836e-07  1.16490227e-07  5.30000000e-01 
 5.40000000e-01  4.58970051e-01  4.58970051e-01  4.58970051e-01  4.58970052e-01  3.71592937e-09  3.26809024e-09  4.58970051e-01  1.61917770e-07  1.16489844e-07  5.40000000e-01 
 5.50000000e-01  4.58970059e-01  4.58970059e-01  4.58970059e-01  4.58970059e-01  3.71592938e-09  3.26809024e-09  4.58970059e-01  1.61917781e-07  1.16489986e-07  5.50000000e-01 
 5.60000000e-01  4.58970052e-01  4.58970052e-01  4.58970052e-01  4.58970052e-01  3.71592943e-09  3.26809024e-09  4.58970052e-01  1.61917775e-07  1.16489691e-07  5.60000000e-01 
 5.70000000e-01  4.58970065e-01  4.58970065e-01  4.58970065e-01  4.58970065e-01  3.71592943e-09  3.26809024e-09  4.58970065e-01  1.61917793e-07  1.16489684e-07  5.70000000e-01 
 5.80000000e-01  4.58970083e-01  4.58970083e-01  4.58970083e-01  4.58970083e-01  3.71592943e-09  3.26809024e-09  4.58970083e-01  1.61917825e-07  1.16489687e-07  5.80000000e-01 
 5.90000000e-01  4.58970059e-01  4.58970059e-01  4.58970059e-01  4.58970059e-01  3.71592938e-09  3.26809024e-09  4.58970059e-01  1.61917777e-07  1.16489645e-07  5.90000000e-01 
 6.00000000e-01  4.58970045e-01  4.58970045e-01  4.58970045e-01  4.58970045e-01  3.71592937e-09  3.26809030e-09  4.58970045e-01  1.61917753e-07  1.16489595e-07  6.00000000e-01 
 6.10000000e-01  4.58970058e-01  4.58970058e-01  4.58970058e-01  4.58970059e-01  3.71592943e-09  3.26809024e-09  4.58970058e-01  1.61917784e-07  1.16489410e-07  6.10000000e-01 
 6.20000000e-01  4.58970079e-01  4.58970079e-01  4.58970079e-01  4.58970079e-01  3.71592943e-09  3.26809024e-09  4.58970079e-01  1.61917825e-07  1.16489510e-07  6.20000000e-01 
 6.30000000e-01  4.58970070e-01  4.58970070e-01  4.58970070e-01  4.58970070e-01  3.71592943e-09  3.26809030e-09  4.58970070e-01  1.61917812e-07  1.16489261e-07  6.30000000e-01 
 6.40000000e-01  4.58970036e-01  4.58970036e-01  4.58970036e-01  4.58970036e-01  3.71592943e-09  3.26809030e-09  4.58970036e-01  1.61917751e-07  1.16489147e-07  6.40000000e-01 
 6.50000000e-01  4.58970081e-01  4.58970081e-01  4.58970081e-01  4.58970081e-01  3.71592943e-09  3.26809030e-09  4.58970081e-01  1.61917819e-07  1.16489154e-07  6.50000000e-01 
 6.60000000e-01  4.58970050e-01  4.58970050e-01  4.58970050e-01  4.58970050e-01  3.71592943e-09  3.26809030e-09  4.58970050e-01  1.61917776e-07  1.16489041e-07  6.60000000e-01 
 6.70000000e-01  4.58970075e-01  4.58970075e-01  4.58970075e-01  4.58970075e-01  3.71592938e-09  3.26809030e-09  4.58970075e-01  1.61917798e-07  1.16488984e-07  6.70000000e-01 
 6.80000000e-01  4.58970061e-01  4.58970061e-01  4.58970061e-01  4.58970061e-01  3.71592943e-09  3.26809024e-09  4.58970061e-01  1.61917791e-07  1.16488920e-07  6.80000000e-01 
 6.90000000e-01  4.58970068e-01  4.58970068e-01  4.58970068e-01  4.58970069e-01  3.71592943e-09  3.26809030e-09  4.58970068e-01  1.61917796e-07  1.16488891e-07  6.90000000e-01 
 7.00000000e-01  4.58970083e-01  4.58970083e-01  4.58970083e-01  4.58970083e-01  3.71592943e-09  3.26809024e-09  4.58970083e-01  1.61917834e-07  1.16488806e-07  7.00000000e-01 
 7.10000000e-01  4.58970073e-01  4.58970073e-01  4.58970073e-01  4.58970073e-01  3.71592943e-09  3.26809030e-09  4.58970073e-01  1.61917806e-07  1.16488664e-07  7.10000000e-01 
 7.20000000e-01  4.58970061e-01  4.58970061e-01  4.58970061e-01  4.58970061e-01  3.71592938e-09  3.26809030e-09  4.58970061e-01  1.61917792e-07  1.16488572e-07  7.20000000e-01 
 7.30000000e-01  4.58970070e-01  4.58970070e-01  4.58970070e-01  4.58970070e-01  3.71592943e-09  3.26809030e-09  4.58970070e-01  1.61917803e-07  1.16488430e-07  7.30000000e-01 
 7.40000000e-01  4.58970086e-01  4.58970086e-01  4.58970086e-01  4.58970086e-01  3.71592943e-09  3.26809030e-09  4.58970086e-01  1.61917829e-07  1.16488465e-07  7.40000000e-01 
 7.50000000e-01  4.58970056e-01  4.58970056e-01  4.58970056e-01  4.58970056e-01  3.71592943e-09  3.26809024e-09  4.58970056e-01  1.61917779e-07  1.16488224e-07  7.50000000e-01 
 7.60000000e-01  4.58970042e-01  4.58970042e-01  4.58970042e-01  4.58970042e-01  3.71592943e-09  3.26809030e-09  4.58970042e-01  1.61917776e-07  1.16488231e-07  7.60000000e-01 
 7.70000000e-01  4.58970073e-01  4.58970073e-01  4.58970073e-01  4.58970073e-01  3.71592938e-09  3.26809030e-09  4.58970073e-01  1.61917808e-07  1.16488259e-07  7.70000000e-01 
 7.80000000e-01  4.58970050e-01  4.58970050e-01  4.58970050e-01  4.58970050e-01  3.71592937e-09  3.26809030e-09  4.58970050e-01  1.61917776e-07  1.16487961e-07  7.80000000e-01 
 7.90000000e-01  4.58970051e-01  4.58970051e-01  4.58970051e-01  4.58970051e-01  3.71592943e-09  3.26809030e-09  4.58970051e-01  1.61917770e-07  1.16487875e-07  7.90000000e-01 
 8.00000000e-01  4.58970077e-01  4.58970077e-01  4.58970077e-01  4.58970078e-01  3.71592943e-09  3.26809030e-09  4.58970077e-01  1.61917797e-07  1.16487833e-07  8.00000000e-01 
 8.10000000e-01  4.58970069e-01  4.58970069e-01  4.58970069e-01  4.58970069e-01  3.71592943e-09  3.26809024e-09  4.58970069e-01  1.61917799e-07  1.16487797e-07  8.10000000e-01 
 8.20000000e-01  4.58970049e-01  4.58970049e-01  4.58970049e-01  4.58970049e-01  3.71592937e-09  3.26809024e-09  4.58970049e-01  1.61917782e-07  1.16487698e-07  8.20000000e-01 
 8.30000000e-01  4.58970046e-01  4.58970046e-01  4.58970046e-01  4.58970046e-01  3.71592943e-09  3.26809030e-09  4.58970046e-01  1.61917762e-07  1.16487513e-07  8.30000000e-01 
 8.40000000e-01  4.58970053e-01  4.58970053e-01  4.58970053e-01  4.58970053e-01  3.71592943e-09  3.26809024e-09  4.58970053e-01  1.61917776e-07  1.16487570e-07  8.40000000e-01 
 8.50000000e-01  4.58970071e-01  4.58970071e-01  4.58970071e-01  4.58970071e-01  3.71592943e-09  3.26809024e-09  4.58970071e-01  1.61917803e-07  1.16487406e-07  8.50000000e-01 
 8.60000000e-01  4.58970062e-01  4.58970062e-01  4.58970062e-01  4.58970062e-01  3.71592943e-09  3.26809030e-09  4.58970062e-01  1.61917795e-07  1.16487371e-07  8.60000000e-01 
 8.70000000e-01  4.58970073e-01  4.58970073e-01  4.58970073e-01  4.58970073e-01  3.71592943e-09  3.26809024e-09  4.58970073e-01  1.61917804e-07  1.16487278e-07  8.70000000e-01 
 8.80000000e-01  4.58970075e-01  4.58970075e-01  4.58970075e-01  4.58970075e-01  3.71592943e-09  3.26809030e-09  4.58970075e-01  1.61917808e-07  1.16487257e-07  8.80000000e-01 
 8.90000000e-01  4.58970074e-01  4.58970074e-01  4.58970074e-01  4.58970074e-01  3.71592943e-09  3.26809030e-09  4.58970074e-01  1.61917811e-07  1.16487122e-07  8.90000000e-01 
 9.00000000e-01  4.58970072e-01  4.58970072e-01  4.58970072e-01  4.58970072e-01  3.71592943e-09  3.26809024e-09  4.58970072e-01  1.61917802e-07  1.16486959e-07  9.00000000e-01 
 9.10000000e-01  4.58970060e-01  4.58970060e-01  4.58970060e-01  4.58970060e-01  3.71592938e-09  3.26809030e-09  4.58970060e-01  1.61917792e-07  1.16486930e-07  9.10000000e-01 
 9.20000000e-01  4.58970092e-01  4.58970092e-01  4.58970092e-01  4.58970092e-01  3.71592943e-09  3.26809024e-09  4.58970092e-01  1.61917829e-07  1.16486937e-07  9.20000000e-01 
 9.30000000e-01  4.58970058e-01  4.58970058e-01  4.58970058e-01  4.58970058e-01  3.71592938e-09  3.26809024e-09  4.58970058e-01  1.61917785e-07  1.16486795e-07  9.30000000e-01 
 9.40000000e-01  4.58970054e-01  4.58970054e-01  4.58970054e-01  4.58970054e-01  3.71592943e-09  3.26809030e-09  4.58970054e-01  1.61917778e-07  1.16486589e-07  9.40000000e-01 
 9.50000000e-01  4.58970076e-01  4.58970076e-01  4.58970076e-01  4.58970076e-01  3.71592943e-09  3.26809030e-09  4.58970076e-01  1.61917812e-07  1.16486561e-07  9.50000000e-01 
 9.60000000e-01  4.58970074e-01  4.58970074e-01  4.58970074e-01  4.58970074e-01  3.71592943e-09  3.26809024e-09  4.58970074e-01  1.61917798e-07  1.16486433e-07  9.60000000e-01 
 9.70000000e-01  4.58970071e-01  4.58970071e-01  4.58970071e-01  4.58970071e-01  3.71592938e-09  3.26809030e-09  4.58970071e-01  1.61917791e-07  1.16486433e-07  9.70000000e-01 
 9.80000000e-01  4.58970071e-01  4.58970071e-01  4.58970071e-01  4.58970071e-01  3.71592943e-09  3.26809030e-09  4.58970071e-01  1.61917804e-07  1.16486390e-07  9.80000000e-01 
 9.90000000e-01  4.58970077e-01  4.58970077e-01  4.58970077e-01  4.58970077e-01  3.71592943e-09  3.26809024e-09  4.58970077e-01  1.61917817e-07  1.16486277e-07  9.90000000e-01 
 1.00000000e+00  4.58970082e-01  4.58970082e-01  4.58970082e-01  4.58970083e-01  3.71592943e-09  3.26809024e-09  4.58970082e-01  1.61917819e-07  1.16486156e-07  1.00000000e+00 
 1.01000000e+00  4.58970067e-01  4.58970067e-01  4.58970067e-01  4.58970067e-01  3.71592943e-09  3.26809030e-09  4.58970067e-01  1.61917794e-07  1.16486014e-07  1.01000000e+00 
 1.02000000e+00  4.58970079e-01  4.58970079e-01  4.58970079e-01  4.58970079e-01  3.71592943e-09  3.26809030e-09  4.58970079e-01  1.61917799e-07  1.16485907e-07  1.02000000e+00 
 1.03000000e+00  4.58970073e-01  4.58970073e-01  4.58970073e-01  4.58970073e-01  3.71592943e-09  3.26809024e-09  4.58970073e-01  1.61917813e-07  1.16485872e-07  1.03000000e+00 
 1.04000000e+00  4.58970040e-01  4.58970040e-01  4.58970040e-01  4.58970040e-01  3.71592943e-09  3.26809030e-09  4.58970040e-01  1.61917776e-07  1.16485758e-07  1.04000000e+00 
 1.05000000e+00  4.58970086e-01  4.58970086e-01  4.58970086e-01  4.58970086e-01  3.71592943e-09  3.26809030e-09  4.58970086e-01  1.61917822e-07  1.16485680e-07  1.05000000e+00 
 1.06000000e+00  4.58970046e-01  4.58970046e-01  4.58970046e-01  4.58970047e-01  3.71592943e-09  3.26809030e-09  4.58970046e-01  1.61917774e-07  1.16485488e-07  1.06000000e+00 
 1.07000000e+00  4.58970065e-01  4.58970065e-01  4.58970065e-01  4.58970065e-01  3.71592943e-09  3.26809030e-09  4.58970065e-01  1.61917791e-07  1.16485488e-07  1.07000000e+00 
 1.08000000e+00  4.58970072e-01  4.58970072e-01  4.58970072e-01  4.58970072e-01  3.71592943e-09  3.26809030e-09  4.58970072e-01  1.61917803e-07  1.16485289e-07  1.08000000e+00 
 1.09000000e+00  4.58970062e-01  4.58970062e-01  4.58970061e-01  4.58970062e-01  3.71592943e-09  3.26809030e-09  4.58970061e-01  1.61917797e-07  1.16485175e-07  1.09000000e+00 
 1.10000000e+00  4.58970078e-01  4.58970078e-01  4.58970078e-01  4.58970078e-01  3.71592938e-09  3.26809024e-09  4.58970078e-01  1.61917811e-07  1.16485204e-07  1.10000000e+00 
