 v-sweep         v(b0)           v(b1)           v(b2)           v(b3)           v(b4)           v(b5)           v(b6)           i(vbias)        i(viout)        v(vout)        
 0.00000000e+00  3.15265876e-09  4.59806411e-01  3.22949428e-09  4.59806411e-01  4.59806411e-01  4.59806411e-01  4.59806411e-01  1.60041248e-07  1.90501298e-07  0.00000000e+00 
 1.00000000e-02  3.15265869e-09  4.59806406e-01  3.22949432e-09  4.59806407e-01  4.59806407e-01  4.59806407e-01  4.59806406e-01  1.60041228e-07  1.90500783e-07  1.00000000e-02 
 2.00000000e-02  3.15265875e-09  4.59806437e-01  3.22949433e-09  4.59806437e-01  4.59806437e-01  4.59806437e-01  4.59806437e-01  1.60041293e-07  1.90500394e-07  2.00000000e-02 
 3.00000000e-02  3.15265875e-09  4.59806439e-01  3.22949433e-09  4.59806439e-01  4.59806439e-01  4.59806439e-01  4.59806439e-01  1.60041294e-07  1.90500112e-07  3.00000000e-02 
 4.00000000e-02  3.15265875e-09  4.59806412e-01  3.22949432e-09  4.59806412e-01  4.59806412e-01  4.59806412e-01  4.59806412e-01  1.60041270e-07  1.90499499e-07  4.00000000e-02 
 5.00000000e-02  3.15265875e-09  4.59806399e-01  3.22949432e-09  4.59806399e-01  4.59806399e-01  4.59806399e-01  4.59806399e-01  1.60041236e-07  1.90499067e-07  5.00000000e-02 
 6.00000000e-02  3.15265875e-09  4.59806429e-01  3.22949427e-09  4.59806429e-01  4.59806429e-01  4.59806429e-01  4.59806429e-01  1.60041284e-07  1.90498737e-07  6.00000000e-02 
 7.00000000e-02  3.15265875e-09  4.59806441e-01  3.22949433e-09  4.59806441e-01  4.59806441e-01  4.59806441e-01  4.59806441e-01  1.60041294e-07  1.90498465e-07  7.00000000e-02 
 8.00000000e-02  3.15265875e-09  4.59806433e-01  3.22949433e-09  4.59806433e-01  4.59806433e-01  4.59806433e-01  4.59806433e-01  1.60041283e-07  1.90498080e-07  8.00000000e-02 
 9.00000000e-02  3.15265875e-09  4.59806427e-01  3.22949427e-09  4.59806427e-01  4.59806427e-01  4.59806427e-01  4.59806427e-01  1.60041274e-07  1.90497677e-07  9.00000000e-02 
 1.00000000e-01  3.15265875e-09  4.59806405e-01  3.22949427e-09  4.59806405e-01  4.59806405e-01  4.59806405e-01  4.59806405e-01  1.60041238e-07  1.90497207e-07  1.00000000e-01 
 1.10000000e-01  3.15265875e-09  4.59806414e-01  3.22949432e-09  4.59806414e-01  4.59806414e-01  4.59806414e-01  4.59806414e-01  1.60041254e-07  1.90496960e-07  1.10000000e-01 
 1.20000000e-01  3.15265875e-09  4.59806415e-01  3.22949432e-09  4.59806415e-01  4.59806415e-01  4.59806415e-01  4.59806415e-01  1.60041263e-07  1.90496725e-07  1.20000000e-01 
 1.30000000e-01  3.15265874e-09  4.59806382e-01  3.22949426e-09  4.59806382e-01  4.59806382e-01  4.59806382e-01  4.59806382e-01  1.60041200e-07  1.90496239e-07  1.30000000e-01 
 1.40000000e-01  3.15265875e-09  4.59806405e-01  3.22949427e-09  4.59806405e-01  4.59806405e-01  4.59806405e-01  4.59806405e-01  1.60041241e-07  1.90495927e-07  1.40000000e-01 
 1.50000000e-01  3.15265875e-09  4.59806441e-01  3.22949427e-09  4.59806441e-01  4.59806441e-01  4.59806441e-01  4.59806441e-01  1.60041294e-07  1.90495891e-07  1.50000000e-01 
 1.60000000e-01  3.15265875e-09  4.59806402e-01  3.22949427e-09  4.59806402e-01  4.59806402e-01  4.59806402e-01  4.59806402e-01  1.60041239e-07  1.90495456e-07  1.60000000e-01 
 1.70000000e-01  3.15265875e-09  4.59806418e-01  3.22949432e-09  4.59806418e-01  4.59806418e-01  4.59806418e-01  4.59806418e-01  1.60041244e-07  1.90495209e-07  1.70000000e-01 
 1.80000000e-01  3.15265875e-09  4.59806427e-01  3.22949432e-09  4.59806428e-01  4.59806428e-01  4.59806427e-01  4.59806427e-01  1.60041273e-07  1.90494992e-07  1.80000000e-01 
 1.90000000e-01  3.15265875e-09  4.59806413e-01  3.22949432e-09  4.59806413e-01  4.59806413e-01  4.59806413e-01  4.59806413e-01  1.60041255e-07  1.90494616e-07  1.90000000e-01 
 2.00000000e-01  3.15265875e-09  4.59806423e-01  3.22949432e-09  4.59806423e-01  4.59806423e-01  4.59806423e-01  4.59806423e-01  1.60041269e-07  1.90494536e-07  2.00000000e-01 
 2.10000000e-01  3.15265875e-09  4.59806423e-01  3.22949427e-09  4.59806423e-01  4.59806423e-01  4.59806423e-01  4.59806423e-01  1.60041274e-07  1.90494138e-07  2.10000000e-01 
 2.20000000e-01  3.15265875e-09  4.59806445e-01  3.22949433e-09  4.59806445e-01  4.59806445e-01  4.59806445e-01  4.59806445e-01  1.60041292e-07  1.90494136e-07  2.20000000e-01 
 2.30000000e-01  3.15265875e-09  4.59806431e-01  3.22949432e-09  4.59806431e-01  4.59806431e-01  4.59806431e-01  4.59806431e-01  1.60041285e-07  1.90493726e-07  2.30000000e-01 
 2.40000000e-01  3.15265875e-09  4.59806430e-01  3.22949432e-09  4.59806430e-01  4.59806430e-01  4.59806430e-01  4.59806430e-01  1.60041272e-07  1.90493527e-07  2.40000000e-01 
 2.50000000e-01  3.15265875e-09  4.59806417e-01  3.22949427e-09  4.59806417e-01  4.59806417e-01  4.59806417e-01  4.59806417e-01  1.60041252e-07  1.90493253e-07  2.50000000e-01 
 2.60000000e-01  3.15265875e-09  4.59806409e-01  3.22949432e-09  4.59806409e-01  4.59806409e-01  4.59806409e-01  4.59806409e-01  1.60041241e-07  1.90493026e-07  2.60000000e-01 
 2.70000000e-01  3.15265875e-09  4.59806408e-01  3.22949432e-09  4.59806408e-01  4.59806408e-01  4.59806408e-01  4.59806408e-01  1.60041249e-07  1.90492734e-07  2.70000000e-01 
 2.80000000e-01  3.15265875e-09  4.59806428e-01  3.22949432e-09  4.59806429e-01  4.59806429e-01  4.59806429e-01  4.59806429e-01  1.60041271e-07  1.90492646e-07  2.80000000e-01 
 2.90000000e-01  3.15265875e-09  4.59806431e-01  3.22949432e-09  4.59806431e-01  4.59806431e-01  4.59806431e-01  4.59806431e-01  1.60041290e-07  1.90492546e-07  2.90000000e-01 
 3.00000000e-01  3.15265875e-09  4.59806410e-01  3.22949432e-09  4.59806410e-01  4.59806410e-01  4.59806410e-01  4.59806410e-01  1.60041242e-07  1.90492248e-07  3.00000000e-01 
 3.10000000e-01  3.15265875e-09  4.59806424e-01  3.22949432e-09  4.59806424e-01  4.59806424e-01  4.59806424e-01  4.59806424e-01  1.60041273e-07  1.90492116e-07  3.10000000e-01 
 3.20000000e-01  3.15265869e-09  4.59806447e-01  3.22949433e-09  4.59806447e-01  4.59806447e-01  4.59806447e-01  4.59806447e-01  1.60041292e-07  1.90492003e-07  3.20000000e-01 
 3.30000000e-01  3.15265875e-09  4.59806442e-01  3.22949433e-09  4.59806442e-01  4.59806442e-01  4.59806442e-01  4.59806442e-01  1.60041304e-07  1.90491750e-07  3.30000000e-01 
 3.40000000e-01  3.15265875e-09  4.59806442e-01  3.22949433e-09  4.59806442e-01  4.59806442e-01  4.59806442e-01  4.59806442e-01  1.60041290e-07  1.90491537e-07  3.40000000e-01 
 3.50000000e-01  3.15265869e-09  4.59806406e-01  3.22949427e-09  4.59806406e-01  4.59806406e-01  4.59806406e-01  4.59806406e-01  1.60041237e-07  1.90491299e-07  3.50000000e-01 
 3.60000000e-01  3.15265875e-09  4.59806413e-01  3.22949432e-09  4.59806413e-01  4.59806413e-01  4.59806413e-01  4.59806413e-01  1.60041256e-07  1.90491050e-07  3.60000000e-01 
 3.70000000e-01  3.15265875e-09  4.59806430e-01  3.22949427e-09  4.59806430e-01  4.59806430e-01  4.59806430e-01  4.59806430e-01  1.60041289e-07  1.90491097e-07  3.70000000e-01 
 3.80000000e-01  3.15265875e-09  4.59806416e-01  3.22949432e-09  4.59806416e-01  4.59806416e-01  4.59806416e-01  4.59806416e-01  1.60041267e-07  1.90490866e-07  3.80000000e-01 
 3.90000000e-01  3.15265875e-09  4.59806402e-01  3.22949432e-09  4.59806402e-01  4.59806402e-01  4.59806402e-01  4.59806402e-01  1.60041239e-07  1.90490571e-07  3.90000000e-01 
 4.00000000e-01  3.15265875e-09  4.59806445e-01  3.22949433e-09  4.59806445e-01  4.59806445e-01  4.59806445e-01  4.59806445e-01  1.60041313e-07  1.90490560e-07  4.00000000e-01 
 4.10000000e-01  3.15265875e-09  4.59806402e-01  3.22949432e-09  4.59806402e-01  4.59806402e-01  4.59806402e-01  4.59806402e-01  1.60041231e-07  1.90490269e-07  4.10000000e-01 
 4.20000000e-01  3.15265869e-09  4.59806446e-01  3.22949427e-09  4.59806446e-01  4.59806446e-01  4.59806446e-01  4.59806446e-01  1.60041298e-07  1.90490208e-07  4.20000000e-01 
 4.30000000e-01  3.15265875e-09  4.59806431e-01  3.22949432e-09  4.59806431e-01  4.59806431e-01  4.59806431e-01  4.59806431e-01  1.60041278e-07  1.90490034e-07  4.30000000e-01 
 4.40000000e-01  3.15265875e-09  4.59806412e-01  3.22949432e-09  4.59806412e-01  4.59806412e-01  4.59806412e-01  4.59806412e-01  1.60041259e-07  1.90489786e-07  4.40000000e-01 
 4.50000000e-01  3.15265875e-09  4.59806419e-01  3.22949432e-09  4.59806419e-01  4.59806419e-01  4.59806419e-01  4.59806419e-01  1.60041254e-07  1.90489683e-07  4.50000000e-01 
 4.60000000e-01  3.15265875e-09  4.59806422e-01  3.22949432e-09  4.59806422e-01  4.59806422e-01  4.59806422e-01  4.59806422e-01  1.60041275e-07  1.90489565e-07  4.60000000e-01 
 4.70000000e-01  3.15265875e-09  4.59806408e-01  3.22949432e-09  4.59806408e-01  4.59806408e-01  4.59806408e-01  4.59806408e-01  1.60041251e-07  1.90489303e-07  4.70000000e-01 
 4.80000000e-01  3.15265869e-09  4.59806422e-01  3.22949432e-09  4.59806422e-01  4.59806422e-01  4.59806422e-01  4.59806422e-01  1.60041262e-07  1.90489075e-07  4.80000000e-01 
 4.90000000e-01  3.15265875e-09  4.59806427e-01  3.22949432e-09  4.59806427e-01  4.59806427e-01  4.59806427e-01  4.59806427e-01  1.60041270e-07  1.90489068e-07  4.90000000e-01 
 5.00000000e-01  3.15265875e-09  4.59806429e-01  3.22949432e-09  4.59806429e-01  4.59806429e-01  4.59806429e-01  4.59806429e-01  1.60041275e-07  1.90488823e-07  5.00000000e-01 
 5.10000000e-01  3.15265875e-09  4.59806418e-01  3.22949427e-09  4.59806418e-01  4.59806418e-01  4.59806418e-01  4.59806418e-01  1.60041265e-07  1.90488525e-07  5.10000000e-01 
 5.20000000e-01  3.15265875e-09  4.59806437e-01  3.22949427e-09  4.59806438e-01  4.59806438e-01  4.59806437e-01  4.59806437e-01  1.60041286e-07  1.90488574e-07  5.20000000e-01 
 5.30000000e-01  3.15265875e-09  4.59806402e-01  3.22949427e-09  4.59806403e-01  4.59806403e-01  4.59806402e-01  4.59806402e-01  1.60041241e-07  1.90488308e-07  5.30000000e-01 
 5.40000000e-01  3.15265875e-09  4.59806422e-01  3.22949432e-09  4.59806422e-01  4.59806422e-01  4.59806422e-01  4.59806422e-01  1.60041262e-07  1.90488191e-07  5.40000000e-01 
 5.50000000e-01  3.15265875e-09  4.59806401e-01  3.22949432e-09  4.59806401e-01  4.59806401e-01  4.59806401e-01  4.59806401e-01  1.60041230e-07  1.90487953e-07  5.50000000e-01 
 5.60000000e-01  3.15265875e-09  4.59806421e-01  3.22949432e-09  4.59806421e-01  4.59806421e-01  4.59806421e-01  4.59806421e-01  1.60041266e-07  1.90487771e-07  5.60000000e-01 
 5.70000000e-01  3.15265875e-09  4.59806432e-01  3.22949433e-09  4.59806432e-01  4.59806432e-01  4.59806432e-01  4.59806432e-01  1.60041289e-07  1.90487786e-07  5.70000000e-01 
 5.80000000e-01  3.15265875e-09  4.59806415e-01  3.22949432e-09  4.59806415e-01  4.59806415e-01  4.59806415e-01  4.59806415e-01  1.60041254e-07  1.90487569e-07  5.80000000e-01 
 5.90000000e-01  3.15265875e-09  4.59806411e-01  3.22949432e-09  4.59806411e-01  4.59806411e-01  4.59806411e-01  4.59806411e-01  1.60041247e-07  1.90487484e-07  5.90000000e-01 
 6.00000000e-01  3.15265875e-09  4.59806417e-01  3.22949432e-09  4.59806417e-01  4.59806417e-01  4.59806417e-01  4.59806417e-01  1.60041261e-07  1.90487214e-07  6.00000000e-01 
 6.10000000e-01  3.15265869e-09  4.59806416e-01  3.22949427e-09  4.59806416e-01  4.59806416e-01  4.59806416e-01  4.59806416e-01  1.60041261e-07  1.90487171e-07  6.10000000e-01 
 6.20000000e-01  3.15265875e-09  4.59806424e-01  3.22949427e-09  4.59806424e-01  4.59806424e-01  4.59806424e-01  4.59806424e-01  1.60041258e-07  1.90486880e-07  6.20000000e-01 
 6.30000000e-01  3.15265875e-09  4.59806418e-01  3.22949432e-09  4.59806418e-01  4.59806418e-01  4.59806418e-01  4.59806418e-01  1.60041258e-07  1.90486830e-07  6.30000000e-01 
 6.40000000e-01  3.15265875e-09  4.59806410e-01  3.22949432e-09  4.59806410e-01  4.59806410e-01  4.59806410e-01  4.59806410e-01  1.60041241e-07  1.90486574e-07  6.40000000e-01 
 6.50000000e-01  3.15265875e-09  4.59806410e-01  3.22949432e-09  4.59806410e-01  4.59806410e-01  4.59806410e-01  4.59806410e-01  1.60041257e-07  1.90486439e-07  6.50000000e-01 
 6.60000000e-01  3.15265875e-09  4.59806435e-01  3.22949433e-09  4.59806435e-01  4.59806435e-01  4.59806435e-01  4.59806435e-01  1.60041285e-07  1.90486332e-07  6.60000000e-01 
 6.70000000e-01  3.15265875e-09  4.59806418e-01  3.22949432e-09  4.59806419e-01  4.59806419e-01  4.59806419e-01  4.59806418e-01  1.60041262e-07  1.90486162e-07  6.70000000e-01 
 6.80000000e-01  3.15265875e-09  4.59806403e-01  3.22949432e-09  4.59806403e-01  4.59806403e-01  4.59806403e-01  4.59806403e-01  1.60041247e-07  1.90485878e-07  6.80000000e-01 
 6.90000000e-01  3.15265875e-09  4.59806419e-01  3.22949432e-09  4.59806419e-01  4.59806419e-01  4.59806419e-01  4.59806419e-01  1.60041258e-07  1.90485807e-07  6.90000000e-01 
 7.00000000e-01  3.15265875e-09  4.59806402e-01  3.22949432e-09  4.59806402e-01  4.59806402e-01  4.59806402e-01  4.59806402e-01  1.60041247e-07  1.90485679e-07  7.00000000e-01 
 7.10000000e-01  3.15265875e-09  4.59806410e-01  3.22949432e-09  4.59806410e-01  4.59806410e-01  4.59806410e-01  4.59806410e-01  1.60041255e-07  1.90485373e-07  7.10000000e-01 
 7.20000000e-01  3.15265869e-09  4.59806448e-01  3.22949433e-09  4.59806448e-01  4.59806448e-01  4.59806448e-01  4.59806448e-01  1.60041304e-07  1.90485480e-07  7.20000000e-01 
 7.30000000e-01  3.15265875e-09  4.59806412e-01  3.22949427e-09  4.59806412e-01  4.59806412e-01  4.59806412e-01  4.59806412e-01  1.60041256e-07  1.90485125e-07  7.30000000e-01 
 7.40000000e-01  3.15265869e-09  4.59806420e-01  3.22949432e-09  4.59806420e-01  4.59806420e-01  4.59806420e-01  4.59806420e-01  1.60041263e-07  1.90484982e-07  7.40000000e-01 
 7.50000000e-01  3.15265875e-09  4.59806440e-01  3.22949427e-09  4.59806440e-01  4.59806440e-01  4.59806440e-01  4.59806440e-01  1.60041283e-07  1.90484926e-07  7.50000000e-01 
 7.60000000e-01  3.15265875e-09  4.59806410e-01  3.22949427e-09  4.59806410e-01  4.59806410e-01  4.59806410e-01  4.59806410e-01  1.60041254e-07  1.90484577e-07  7.60000000e-01 
 7.70000000e-01  3.15265875e-09  4.59806423e-01  3.22949432e-09  4.59806423e-01  4.59806423e-01  4.59806423e-01  4.59806423e-01  1.60041274e-07  1.90484535e-07  7.70000000e-01 
 7.80000000e-01  3.15265875e-09  4.59806403e-01  3.22949432e-09  4.59806403e-01  4.59806403e-01  4.59806403e-01  4.59806403e-01  1.60041254e-07  1.90484215e-07  7.80000000e-01 
 7.90000000e-01  3.15265875e-09  4.59806428e-01  3.22949432e-09  4.59806428e-01  4.59806428e-01  4.59806428e-01  4.59806428e-01  1.60041287e-07  1.90484165e-07  7.90000000e-01 
 8.00000000e-01  3.15265875e-09  4.59806410e-01  3.22949432e-09  4.59806410e-01  4.59806410e-01  4.59806410e-01  4.59806410e-01  1.60041246e-07  1.90483931e-07  8.00000000e-01 
 8.10000000e-01  3.15265875e-09  4.59806433e-01  3.22949433e-09  4.59806433e-01  4.59806433e-01  4.59806433e-01  4.59806433e-01  1.60041279e-07  1.90483860e-07  8.10000000e-01 
 8.20000000e-01  3.15265875e-09  4.59806419e-01  3.22949432e-09  4.59806419e-01  4.59806419e-01  4.59806419e-01  4.59806419e-01  1.60041268e-07  1.90483583e-07  8.20000000e-01 
 8.30000000e-01  3.15265875e-09  4.59806408e-01  3.22949432e-09  4.59806408e-01  4.59806408e-01  4.59806408e-01  4.59806408e-01  1.60041243e-07  1.90483384e-07  8.30000000e-01 
 8.40000000e-01  3.15265875e-09  4.59806428e-01  3.22949432e-09  4.59806428e-01  4.59806428e-01  4.59806428e-01  4.59806428e-01  1.60041281e-07  1.90483384e-07  8.40000000e-01 
 8.50000000e-01  3.15265875e-09  4.59806405e-01  3.22949432e-09  4.59806405e-01  4.59806405e-01  4.59806405e-01  4.59806405e-01  1.60041246e-07  1.90483036e-07  8.50000000e-01 
 8.60000000e-01  3.15265875e-09  4.59806409e-01  3.22949427e-09  4.59806409e-01  4.59806409e-01  4.59806409e-01  4.59806409e-01  1.60041248e-07  1.90482858e-07  8.60000000e-01 
 8.70000000e-01  3.15265875e-09  4.59806452e-01  3.22949433e-09  4.59806452e-01  4.59806452e-01  4.59806452e-01  4.59806452e-01  1.60041303e-07  1.90482794e-07  8.70000000e-01 
 8.80000000e-01  3.15265875e-09  4.59806419e-01  3.22949432e-09  4.59806419e-01  4.59806419e-01  4.59806419e-01  4.59806419e-01  1.60041279e-07  1.90482453e-07  8.80000000e-01 
 8.90000000e-01  3.15265875e-09  4.59806439e-01  3.22949427e-09  4.59806439e-01  4.59806439e-01  4.59806439e-01  4.59806439e-01  1.60041293e-07  1.90482538e-07  8.90000000e-01 
 9.00000000e-01  3.15265875e-09  4.59806443e-01  3.22949433e-09  4.59806443e-01  4.59806443e-01  4.59806443e-01  4.59806443e-01  1.60041299e-07  1.90482218e-07  9.00000000e-01 
 9.10000000e-01  3.15265875e-09  4.59806429e-01  3.22949432e-09  4.59806429e-01  4.59806429e-01  4.59806429e-01  4.59806429e-01  1.60041289e-07  1.90482083e-07  9.10000000e-01 
 9.20000000e-01  3.15265874e-09  4.59806389e-01  3.22949432e-09  4.59806389e-01  4.59806389e-01  4.59806389e-01  4.59806389e-01  1.60041224e-07  1.90481813e-07  9.20000000e-01 
 9.30000000e-01  3.15265875e-09  4.59806429e-01  3.22949432e-09  4.59806429e-01  4.59806429e-01  4.59806429e-01  4.59806429e-01  1.60041296e-07  1.90481650e-07  9.30000000e-01 
 9.40000000e-01  3.15265875e-09  4.59806416e-01  3.22949427e-09  4.59806416e-01  4.59806416e-01  4.59806416e-01  4.59806416e-01  1.60041269e-07  1.90481394e-07  9.40000000e-01 
 9.50000000e-01  3.15265874e-09  4.59806394e-01  3.22949427e-09  4.59806395e-01  4.59806395e-01  4.59806394e-01  4.59806394e-01  1.60041239e-07  1.90481181e-07  9.50000000e-01 
 9.60000000e-01  3.15265875e-09  4.59806417e-01  3.22949432e-09  4.59806417e-01  4.59806417e-01  4.59806417e-01  4.59806417e-01  1.60041260e-07  1.90481146e-07  9.60000000e-01 
 9.70000000e-01  3.15265875e-09  4.59806414e-01  3.22949432e-09  4.59806414e-01  4.59806414e-01  4.59806414e-01  4.59806414e-01  1.60041270e-07  1.90480883e-07  9.70000000e-01 
 9.80000000e-01  3.15265875e-09  4.59806403e-01  3.22949432e-09  4.59806403e-01  4.59806403e-01  4.59806403e-01  4.59806403e-01  1.60041243e-07  1.90480662e-07  9.80000000e-01 
 9.90000000e-01  3.15265875e-09  4.59806420e-01  3.22949432e-09  4.59806421e-01  4.59806421e-01  4.59806421e-01  4.59806421e-01  1.60041264e-07  1.90480506e-07  9.90000000e-01 
 1.00000000e+00  3.15265875e-09  4.59806422e-01  3.22949427e-09  4.59806422e-01  4.59806422e-01  4.59806422e-01  4.59806422e-01  1.60041265e-07  1.90480279e-07  1.00000000e+00 
 1.01000000e+00  3.15265875e-09  4.59806456e-01  3.22949433e-09  4.59806456e-01  4.59806456e-01  4.59806456e-01  4.59806456e-01  1.60041315e-07  1.90480257e-07  1.01000000e+00 
 1.02000000e+00  3.15265875e-09  4.59806420e-01  3.22949432e-09  4.59806420e-01  4.59806420e-01  4.59806420e-01  4.59806420e-01  1.60041274e-07  1.90479874e-07  1.02000000e+00 
 1.03000000e+00  3.15265875e-09  4.59806402e-01  3.22949427e-09  4.59806402e-01  4.59806402e-01  4.59806402e-01  4.59806402e-01  1.60041233e-07  1.90479540e-07  1.03000000e+00 
 1.04000000e+00  3.15265875e-09  4.59806428e-01  3.22949432e-09  4.59806428e-01  4.59806428e-01  4.59806428e-01  4.59806428e-01  1.60041278e-07  1.90479447e-07  1.04000000e+00 
 1.05000000e+00  3.15265869e-09  4.59806435e-01  3.22949433e-09  4.59806435e-01  4.59806435e-01  4.59806435e-01  4.59806435e-01  1.60041279e-07  1.90479334e-07  1.05000000e+00 
 1.06000000e+00  3.15265875e-09  4.59806410e-01  3.22949427e-09  4.59806410e-01  4.59806410e-01  4.59806410e-01  4.59806410e-01  1.60041246e-07  1.90479071e-07  1.06000000e+00 
 1.07000000e+00  3.15265875e-09  4.59806422e-01  3.22949432e-09  4.59806422e-01  4.59806422e-01  4.59806422e-01  4.59806422e-01  1.60041265e-07  1.90478822e-07  1.07000000e+00 
 1.08000000e+00  3.15265875e-09  4.59806428e-01  3.22949432e-09  4.59806428e-01  4.59806428e-01  4.59806428e-01  4.59806428e-01  1.60041258e-07  1.90478637e-07  1.08000000e+00 
 1.09000000e+00  3.15265875e-09  4.59806404e-01  3.22949432e-09  4.59806404e-01  4.59806404e-01  4.59806404e-01  4.59806404e-01  1.60041237e-07  1.90478360e-07  1.09000000e+00 
 1.10000000e+00  3.15265874e-09  4.59806398e-01  3.22949432e-09  4.59806398e-01  4.59806398e-01  4.59806398e-01  4.59806398e-01  1.60041252e-07  1.90478076e-07  1.10000000e+00 
