 v-sweep         v(b0)           v(b1)           v(b2)           v(b3)           v(b4)           v(b5)           v(b6)           i(vbias)        i(viout)        v(vout)        
 0.00000000e+00  3.49749059e-09  4.60019513e-01  3.37284526e-09  3.34873812e-09  4.60019513e-01  4.60019513e-01  3.32594606e-09  1.63095139e-07  7.99580885e-08  0.00000000e+00 
 1.00000000e-02  3.49749056e-09  4.60019492e-01  3.37284523e-09  3.34873814e-09  4.60019492e-01  4.60019492e-01  3.32594609e-09  1.63095104e-07  7.99575421e-08  1.00000000e-02 
 2.00000000e-02  3.49749056e-09  4.60019492e-01  3.37284523e-09  3.34873814e-09  4.60019492e-01  4.60019492e-01  3.32594609e-09  1.63095089e-07  7.99573447e-08  2.00000000e-02 
 3.00000000e-02  3.49749056e-09  4.60019494e-01  3.37284523e-09  3.34873814e-09  4.60019494e-01  4.60019494e-01  3.32594609e-09  1.63095113e-07  7.99569320e-08  3.00000000e-02 
 4.00000000e-02  3.49749056e-09  4.60019490e-01  3.37284523e-09  3.34873814e-09  4.60019490e-01  4.60019490e-01  3.32594609e-09  1.63095098e-07  7.99565107e-08  4.00000000e-02 
 5.00000000e-02  3.49749056e-09  4.60019491e-01  3.37284523e-09  3.34873814e-09  4.60019491e-01  4.60019491e-01  3.32594609e-09  1.63095108e-07  7.99561941e-08  5.00000000e-02 
 6.00000000e-02  3.49749056e-09  4.60019486e-01  3.37284523e-09  3.34873814e-09  4.60019486e-01  4.60019486e-01  3.32594609e-09  1.63095091e-07  7.99558277e-08  6.00000000e-02 
 7.00000000e-02  3.49749056e-09  4.60019488e-01  3.37284523e-09  3.34873814e-09  4.60019488e-01  4.60019488e-01  3.32594609e-09  1.63095094e-07  7.99555391e-08  7.00000000e-02 
 8.00000000e-02  3.49749056e-09  4.60019492e-01  3.37284523e-09  3.34873814e-09  4.60019492e-01  4.60019492e-01  3.32594609e-09  1.63095111e-07  7.99552637e-08  8.00000000e-02 
 9.00000000e-02  3.49749056e-09  4.60019489e-01  3.37284523e-09  3.34873814e-09  4.60019489e-01  4.60019489e-01  3.32594609e-09  1.63095110e-07  7.99549591e-08  9.00000000e-02 
 1.00000000e-01  3.49749056e-09  4.60019511e-01  3.37284523e-09  3.34873814e-09  4.60019511e-01  4.60019511e-01  3.32594609e-09  1.63095135e-07  7.99547024e-08  1.00000000e-01 
 1.10000000e-01  3.49749056e-09  4.60019495e-01  3.37284523e-09  3.34873814e-09  4.60019495e-01  4.60019495e-01  3.32594609e-09  1.63095119e-07  7.99544111e-08  1.10000000e-01 
 1.20000000e-01  3.49749055e-09  4.60019474e-01  3.37284517e-09  3.34873814e-09  4.60019474e-01  4.60019474e-01  3.32594609e-09  1.63095087e-07  7.99542157e-08  1.20000000e-01 
 1.30000000e-01  3.49749056e-09  4.60019509e-01  3.37284518e-09  3.34873814e-09  4.60019509e-01  4.60019509e-01  3.32594609e-09  1.63095135e-07  7.99539661e-08  1.30000000e-01 
 1.40000000e-01  3.49749056e-09  4.60019510e-01  3.37284524e-09  3.34873814e-09  4.60019510e-01  4.60019510e-01  3.32594609e-09  1.63095139e-07  7.99537991e-08  1.40000000e-01 
 1.50000000e-01  3.49749056e-09  4.60019502e-01  3.37284522e-09  3.34873814e-09  4.60019502e-01  4.60019502e-01  3.32594609e-09  1.63095124e-07  7.99536100e-08  1.50000000e-01 
 1.60000000e-01  3.49749056e-09  4.60019493e-01  3.37284517e-09  3.34873814e-09  4.60019493e-01  4.60019493e-01  3.32594609e-09  1.63095108e-07  7.99532778e-08  1.60000000e-01 
 1.70000000e-01  3.49749056e-09  4.60019491e-01  3.37284524e-09  3.34873814e-09  4.60019491e-01  4.60019491e-01  3.32594609e-09  1.63095092e-07  7.99530664e-08  1.70000000e-01 
 1.80000000e-01  3.49749056e-09  4.60019503e-01  3.37284522e-09  3.34873814e-09  4.60019503e-01  4.60019503e-01  3.32594609e-09  1.63095127e-07  7.99528959e-08  1.80000000e-01 
 1.90000000e-01  3.49749055e-09  4.60019480e-01  3.37284517e-09  3.34873814e-09  4.60019480e-01  4.60019480e-01  3.32594609e-09  1.63095095e-07  7.99526880e-08  1.90000000e-01 
 2.00000000e-01  3.49749056e-09  4.60019491e-01  3.37284518e-09  3.34873814e-09  4.60019491e-01  4.60019491e-01  3.32594609e-09  1.63095097e-07  7.99526010e-08  2.00000000e-01 
 2.10000000e-01  3.49749056e-09  4.60019492e-01  3.37284518e-09  3.34873814e-09  4.60019492e-01  4.60019492e-01  3.32594609e-09  1.63095109e-07  7.99524678e-08  2.10000000e-01 
 2.20000000e-01  3.49749056e-09  4.60019510e-01  3.37284524e-09  3.34873814e-09  4.60019510e-01  4.60019510e-01  3.32594609e-09  1.63095134e-07  7.99523399e-08  2.20000000e-01 
 2.30000000e-01  3.49749056e-09  4.60019504e-01  3.37284522e-09  3.34873814e-09  4.60019504e-01  4.60019504e-01  3.32594609e-09  1.63095133e-07  7.99521995e-08  2.30000000e-01 
 2.40000000e-01  3.49749056e-09  4.60019489e-01  3.37284517e-09  3.34873814e-09  4.60019489e-01  4.60019489e-01  3.32594609e-09  1.63095098e-07  7.99520361e-08  2.40000000e-01 
 2.50000000e-01  3.49749056e-09  4.60019495e-01  3.37284524e-09  3.34873814e-09  4.60019495e-01  4.60019495e-01  3.32594609e-09  1.63095114e-07  7.99518158e-08  2.50000000e-01 
 2.60000000e-01  3.49749056e-09  4.60019495e-01  3.37284522e-09  3.34873814e-09  4.60019495e-01  4.60019495e-01  3.32594609e-09  1.63095099e-07  7.99517093e-08  2.60000000e-01 
 2.70000000e-01  3.49749056e-09  4.60019502e-01  3.37284517e-09  3.34873814e-09  4.60019502e-01  4.60019502e-01  3.32594609e-09  1.63095117e-07  7.99515636e-08  2.70000000e-01 
 2.80000000e-01  3.49749055e-09  4.60019475e-01  3.37284518e-09  3.34873814e-09  4.60019475e-01  4.60019475e-01  3.32594609e-09  1.63095091e-07  7.99514481e-08  2.80000000e-01 
 2.90000000e-01  3.49749056e-09  4.60019485e-01  3.37284518e-09  3.34873814e-09  4.60019485e-01  4.60019485e-01  3.32594609e-09  1.63095101e-07  7.99513842e-08  2.90000000e-01 
 3.00000000e-01  3.49749056e-09  4.60019501e-01  3.37284523e-09  3.34873814e-09  4.60019501e-01  4.60019501e-01  3.32594609e-09  1.63095127e-07  7.99512385e-08  3.00000000e-01 
 3.10000000e-01  3.49749055e-09  4.60019479e-01  3.37284516e-09  3.34873814e-09  4.60019479e-01  4.60019479e-01  3.32594609e-09  1.63095087e-07  7.99510573e-08  3.10000000e-01 
 3.20000000e-01  3.49749056e-09  4.60019505e-01  3.37284524e-09  3.34873814e-09  4.60019505e-01  4.60019505e-01  3.32594609e-09  1.63095131e-07  7.99511390e-08  3.20000000e-01 
 3.30000000e-01  3.49749055e-09  4.60019478e-01  3.37284522e-09  3.34873814e-09  4.60019478e-01  4.60019478e-01  3.32594609e-09  1.63095088e-07  7.99508051e-08  3.30000000e-01 
 3.40000000e-01  3.49749056e-09  4.60019485e-01  3.37284523e-09  3.34873814e-09  4.60019485e-01  4.60019485e-01  3.32594609e-09  1.63095093e-07  7.99507838e-08  3.40000000e-01 
 3.50000000e-01  3.49749055e-09  4.60019474e-01  3.37284523e-09  3.34873814e-09  4.60019474e-01  4.60019474e-01  3.32594609e-09  1.63095083e-07  7.99506452e-08  3.50000000e-01 
 3.60000000e-01  3.49749056e-09  4.60019510e-01  3.37284523e-09  3.34873814e-09  4.60019510e-01  4.60019510e-01  3.32594609e-09  1.63095121e-07  7.99506701e-08  3.60000000e-01 
 3.70000000e-01  3.49749056e-09  4.60019497e-01  3.37284523e-09  3.34873814e-09  4.60019497e-01  4.60019497e-01  3.32594609e-09  1.63095119e-07  7.99505600e-08  3.70000000e-01 
 3.80000000e-01  3.49749056e-09  4.60019493e-01  3.37284523e-09  3.34873814e-09  4.60019493e-01  4.60019493e-01  3.32594609e-09  1.63095110e-07  7.99503290e-08  3.80000000e-01 
 3.90000000e-01  3.49749055e-09  4.60019481e-01  3.37284517e-09  3.34873814e-09  4.60019481e-01  4.60019481e-01  3.32594609e-09  1.63095086e-07  7.99503006e-08  3.90000000e-01 
 4.00000000e-01  3.49749056e-09  4.60019498e-01  3.37284524e-09  3.34873814e-09  4.60019498e-01  4.60019498e-01  3.32594609e-09  1.63095125e-07  7.99502757e-08  4.00000000e-01 
 4.10000000e-01  3.49749055e-09  4.60019475e-01  3.37284522e-09  3.34873814e-09  4.60019475e-01  4.60019475e-01  3.32594609e-09  1.63095076e-07  7.99501088e-08  4.10000000e-01 
 4.20000000e-01  3.49749056e-09  4.60019499e-01  3.37284523e-09  3.34873814e-09  4.60019499e-01  4.60019499e-01  3.32594609e-09  1.63095108e-07  7.99501727e-08  4.20000000e-01 
 4.30000000e-01  3.49749056e-09  4.60019489e-01  3.37284523e-09  3.34873814e-09  4.60019490e-01  4.60019490e-01  3.32594609e-09  1.63095115e-07  7.99499986e-08  4.30000000e-01 
 4.40000000e-01  3.49749055e-09  4.60019481e-01  3.37284523e-09  3.34873814e-09  4.60019481e-01  4.60019481e-01  3.32594609e-09  1.63095078e-07  7.99498459e-08  4.40000000e-01 
 4.50000000e-01  3.49749056e-09  4.60019491e-01  3.37284523e-09  3.34873814e-09  4.60019491e-01  4.60019491e-01  3.32594609e-09  1.63095101e-07  7.99500093e-08  4.50000000e-01 
 4.60000000e-01  3.49749056e-09  4.60019487e-01  3.37284523e-09  3.34873814e-09  4.60019487e-01  4.60019487e-01  3.32594609e-09  1.63095099e-07  7.99498920e-08  4.60000000e-01 
 4.70000000e-01  3.49749056e-09  4.60019499e-01  3.37284523e-09  3.34873814e-09  4.60019499e-01  4.60019499e-01  3.32594609e-09  1.63095118e-07  7.99497712e-08  4.70000000e-01 
 4.80000000e-01  3.49749055e-09  4.60019464e-01  3.37284523e-09  3.34873814e-09  4.60019464e-01  4.60019464e-01  3.32594609e-09  1.63095072e-07  7.99496469e-08  4.80000000e-01 
 4.90000000e-01  3.49749056e-09  4.60019490e-01  3.37284523e-09  3.34873814e-09  4.60019490e-01  4.60019490e-01  3.32594609e-09  1.63095110e-07  7.99495190e-08  4.90000000e-01 
 5.00000000e-01  3.49749056e-09  4.60019486e-01  3.37284523e-09  3.34873814e-09  4.60019486e-01  4.60019486e-01  3.32594609e-09  1.63095092e-07  7.99496362e-08  5.00000000e-01 
 5.10000000e-01  3.49749056e-09  4.60019486e-01  3.37284523e-09  3.34873814e-09  4.60019486e-01  4.60019486e-01  3.32594609e-09  1.63095093e-07  7.99493982e-08  5.10000000e-01 
 5.20000000e-01  3.49749055e-09  4.60019472e-01  3.37284517e-09  3.34873814e-09  4.60019472e-01  4.60019472e-01  3.32594609e-09  1.63095076e-07  7.99493201e-08  5.20000000e-01 
 5.30000000e-01  3.49749056e-09  4.60019495e-01  3.37284524e-09  3.34873814e-09  4.60019495e-01  4.60019495e-01  3.32594609e-09  1.63095111e-07  7.99492739e-08  5.30000000e-01 
 5.40000000e-01  3.49749056e-09  4.60019491e-01  3.37284516e-09  3.34873814e-09  4.60019491e-01  4.60019491e-01  3.32594609e-09  1.63095108e-07  7.99492597e-08  5.40000000e-01 
 5.50000000e-01  3.49749056e-09  4.60019490e-01  3.37284518e-09  3.34873814e-09  4.60019491e-01  4.60019491e-01  3.32594609e-09  1.63095108e-07  7.99490998e-08  5.50000000e-01 
 5.60000000e-01  3.49749050e-09  4.60019497e-01  3.37284523e-09  3.34873814e-09  4.60019498e-01  4.60019498e-01  3.32594609e-09  1.63095115e-07  7.99491353e-08  5.60000000e-01 
 5.70000000e-01  3.49749055e-09  4.60019481e-01  3.37284516e-09  3.34873814e-09  4.60019481e-01  4.60019481e-01  3.32594609e-09  1.63095093e-07  7.99490287e-08  5.70000000e-01 
 5.80000000e-01  3.49749056e-09  4.60019502e-01  3.37284518e-09  3.34873814e-09  4.60019502e-01  4.60019502e-01  3.32594609e-09  1.63095120e-07  7.99488831e-08  5.80000000e-01 
 5.90000000e-01  3.49749056e-09  4.60019500e-01  3.37284523e-09  3.34873814e-09  4.60019500e-01  4.60019500e-01  3.32594609e-09  1.63095124e-07  7.99489612e-08  5.90000000e-01 
 6.00000000e-01  3.49749056e-09  4.60019483e-01  3.37284522e-09  3.34873814e-09  4.60019484e-01  4.60019483e-01  3.32594609e-09  1.63095096e-07  7.99487765e-08  6.00000000e-01 
 6.10000000e-01  3.49749056e-09  4.60019505e-01  3.37284523e-09  3.34873814e-09  4.60019505e-01  4.60019505e-01  3.32594609e-09  1.63095129e-07  7.99487410e-08  6.10000000e-01 
 6.20000000e-01  3.49749056e-09  4.60019500e-01  3.37284523e-09  3.34873814e-09  4.60019500e-01  4.60019500e-01  3.32594609e-09  1.63095130e-07  7.99487267e-08  6.20000000e-01 
 6.30000000e-01  3.49749055e-09  4.60019480e-01  3.37284523e-09  3.34873814e-09  4.60019480e-01  4.60019480e-01  3.32594609e-09  1.63095086e-07  7.99486060e-08  6.30000000e-01 
 6.40000000e-01  3.49749056e-09  4.60019501e-01  3.37284517e-09  3.34873814e-09  4.60019501e-01  4.60019501e-01  3.32594609e-09  1.63095125e-07  7.99486060e-08  6.40000000e-01 
 6.50000000e-01  3.49749056e-09  4.60019516e-01  3.37284524e-09  3.34873814e-09  4.60019516e-01  4.60019516e-01  3.32594609e-09  1.63095141e-07  7.99485846e-08  6.50000000e-01 
 6.60000000e-01  3.49749056e-09  4.60019493e-01  3.37284522e-09  3.34873814e-09  4.60019493e-01  4.60019493e-01  3.32594609e-09  1.63095114e-07  7.99484141e-08  6.60000000e-01 
 6.70000000e-01  3.49749056e-09  4.60019504e-01  3.37284523e-09  3.34873814e-09  4.60019504e-01  4.60019504e-01  3.32594609e-09  1.63095115e-07  7.99482933e-08  6.70000000e-01 
 6.80000000e-01  3.49749055e-09  4.60019481e-01  3.37284523e-09  3.34873814e-09  4.60019481e-01  4.60019481e-01  3.32594609e-09  1.63095099e-07  7.99482152e-08  6.80000000e-01 
 6.90000000e-01  3.49749056e-09  4.60019483e-01  3.37284517e-09  3.34873814e-09  4.60019483e-01  4.60019483e-01  3.32594609e-09  1.63095097e-07  7.99481654e-08  6.90000000e-01 
 7.00000000e-01  3.49749056e-09  4.60019490e-01  3.37284518e-09  3.34873814e-09  4.60019490e-01  4.60019490e-01  3.32594609e-09  1.63095103e-07  7.99481441e-08  7.00000000e-01 
 7.10000000e-01  3.49749056e-09  4.60019489e-01  3.37284518e-09  3.34873814e-09  4.60019490e-01  4.60019489e-01  3.32594609e-09  1.63095103e-07  7.99481228e-08  7.10000000e-01 
 7.20000000e-01  3.49749056e-09  4.60019497e-01  3.37284523e-09  3.34873814e-09  4.60019497e-01  4.60019497e-01  3.32594609e-09  1.63095115e-07  7.99480162e-08  7.20000000e-01 
 7.30000000e-01  3.49749055e-09  4.60019477e-01  3.37284516e-09  3.34873814e-09  4.60019477e-01  4.60019477e-01  3.32594609e-09  1.63095097e-07  7.99478528e-08  7.30000000e-01 
 7.40000000e-01  3.49749056e-09  4.60019501e-01  3.37284524e-09  3.34873814e-09  4.60019501e-01  4.60019501e-01  3.32594609e-09  1.63095116e-07  7.99478670e-08  7.40000000e-01 
 7.50000000e-01  3.49749056e-09  4.60019492e-01  3.37284522e-09  3.34873814e-09  4.60019492e-01  4.60019492e-01  3.32594609e-09  1.63095120e-07  7.99478670e-08  7.50000000e-01 
 7.60000000e-01  3.49749056e-09  4.60019490e-01  3.37284523e-09  3.34873814e-09  4.60019490e-01  4.60019490e-01  3.32594609e-09  1.63095121e-07  7.99476823e-08  7.60000000e-01 
 7.70000000e-01  3.49749056e-09  4.60019501e-01  3.37284517e-09  3.34873814e-09  4.60019501e-01  4.60019501e-01  3.32594609e-09  1.63095112e-07  7.99476325e-08  7.70000000e-01 
 7.80000000e-01  3.49749056e-09  4.60019483e-01  3.37284518e-09  3.34873814e-09  4.60019483e-01  4.60019483e-01  3.32594609e-09  1.63095100e-07  7.99475544e-08  7.80000000e-01 
 7.90000000e-01  3.49749056e-09  4.60019509e-01  3.37284518e-09  3.34873814e-09  4.60019509e-01  4.60019509e-01  3.32594609e-09  1.63095131e-07  7.99474478e-08  7.90000000e-01 
 8.00000000e-01  3.49749056e-09  4.60019491e-01  3.37284523e-09  3.34873814e-09  4.60019491e-01  4.60019491e-01  3.32594609e-09  1.63095103e-07  7.99474549e-08  8.00000000e-01 
 8.10000000e-01  3.49749056e-09  4.60019493e-01  3.37284522e-09  3.34873814e-09  4.60019493e-01  4.60019493e-01  3.32594609e-09  1.63095102e-07  7.99474051e-08  8.10000000e-01 
 8.20000000e-01  3.49749056e-09  4.60019492e-01  3.37284523e-09  3.34873814e-09  4.60019492e-01  4.60019492e-01  3.32594609e-09  1.63095111e-07  7.99473199e-08  8.20000000e-01 
 8.30000000e-01  3.49749056e-09  4.60019496e-01  3.37284523e-09  3.34873814e-09  4.60019496e-01  4.60019496e-01  3.32594609e-09  1.63095113e-07  7.99472133e-08  8.30000000e-01 
 8.40000000e-01  3.49749056e-09  4.60019496e-01  3.37284517e-09  3.34873814e-09  4.60019496e-01  4.60019496e-01  3.32594609e-09  1.63095106e-07  7.99472417e-08  8.40000000e-01 
 8.50000000e-01  3.49749056e-09  4.60019487e-01  3.37284518e-09  3.34873814e-09  4.60019488e-01  4.60019487e-01  3.32594615e-09  1.63095086e-07  7.99471422e-08  8.50000000e-01 
 8.60000000e-01  3.49749056e-09  4.60019488e-01  3.37284523e-09  3.34873814e-09  4.60019488e-01  4.60019488e-01  3.32594609e-09  1.63095102e-07  7.99471138e-08  8.60000000e-01 
 8.70000000e-01  3.49749055e-09  4.60019474e-01  3.37284522e-09  3.34873814e-09  4.60019474e-01  4.60019474e-01  3.32594609e-09  1.63095088e-07  7.99469220e-08  8.70000000e-01 
 8.80000000e-01  3.49749056e-09  4.60019519e-01  3.37284523e-09  3.34873814e-09  4.60019520e-01  4.60019520e-01  3.32594615e-09  1.63095145e-07  7.99470357e-08  8.80000000e-01 
 8.90000000e-01  3.49749056e-09  4.60019506e-01  3.37284523e-09  3.34873814e-09  4.60019506e-01  4.60019506e-01  3.32594609e-09  1.63095126e-07  7.99468438e-08  8.90000000e-01 
 9.00000000e-01  3.49749056e-09  4.60019509e-01  3.37284523e-09  3.34873814e-09  4.60019509e-01  4.60019509e-01  3.32594609e-09  1.63095142e-07  7.99468722e-08  9.00000000e-01 
 9.10000000e-01  3.49749056e-09  4.60019500e-01  3.37284523e-09  3.34873814e-09  4.60019500e-01  4.60019500e-01  3.32594609e-09  1.63095127e-07  7.99467301e-08  9.10000000e-01 
 9.20000000e-01  3.49749056e-09  4.60019504e-01  3.37284523e-09  3.34873814e-09  4.60019505e-01  4.60019504e-01  3.32594609e-09  1.63095125e-07  7.99466378e-08  9.20000000e-01 
 9.30000000e-01  3.49749055e-09  4.60019476e-01  3.37284523e-09  3.34873814e-09  4.60019477e-01  4.60019477e-01  3.32594609e-09  1.63095094e-07  7.99465667e-08  9.30000000e-01 
 9.40000000e-01  3.49749056e-09  4.60019502e-01  3.37284523e-09  3.34873814e-09  4.60019503e-01  4.60019503e-01  3.32594609e-09  1.63095114e-07  7.99464672e-08  9.40000000e-01 
 9.50000000e-01  3.49749056e-09  4.60019504e-01  3.37284523e-09  3.34873814e-09  4.60019504e-01  4.60019504e-01  3.32594609e-09  1.63095125e-07  7.99464743e-08  9.50000000e-01 
 9.60000000e-01  3.49749055e-09  4.60019469e-01  3.37284523e-09  3.34873814e-09  4.60019470e-01  4.60019470e-01  3.32594609e-09  1.63095080e-07  7.99462470e-08  9.60000000e-01 
 9.70000000e-01  3.49749056e-09  4.60019490e-01  3.37284523e-09  3.34873814e-09  4.60019490e-01  4.60019490e-01  3.32594609e-09  1.63095101e-07  7.99462683e-08  9.70000000e-01 
 9.80000000e-01  3.49749056e-09  4.60019487e-01  3.37284523e-09  3.34873814e-09  4.60019487e-01  4.60019487e-01  3.32594609e-09  1.63095097e-07  7.99462114e-08  9.80000000e-01 
 9.90000000e-01  3.49749055e-09  4.60019469e-01  3.37284517e-09  3.34873814e-09  4.60019469e-01  4.60019469e-01  3.32594609e-09  1.63095076e-07  7.99460551e-08  9.90000000e-01 
 1.00000000e+00  3.49749056e-09  4.60019507e-01  3.37284518e-09  3.34873814e-09  4.60019507e-01  4.60019507e-01  3.32594609e-09  1.63095126e-07  7.99461901e-08  1.00000000e+00 
 1.01000000e+00  3.49749056e-09  4.60019502e-01  3.37284523e-09  3.34873814e-09  4.60019502e-01  4.60019502e-01  3.32594609e-09  1.63095119e-07  7.99459769e-08  1.01000000e+00 
 1.02000000e+00  3.49749056e-09  4.60019508e-01  3.37284517e-09  3.34873814e-09  4.60019508e-01  4.60019508e-01  3.32594609e-09  1.63095127e-07  7.99460409e-08  1.02000000e+00 
 1.03000000e+00  3.49749055e-09  4.60019468e-01  3.37284518e-09  3.34873814e-09  4.60019468e-01  4.60019468e-01  3.32594609e-09  1.63095079e-07  7.99457851e-08  1.03000000e+00 
 1.04000000e+00  3.49749056e-09  4.60019507e-01  3.37284523e-09  3.34873814e-09  4.60019507e-01  4.60019507e-01  3.32594609e-09  1.63095131e-07  7.99457922e-08  1.04000000e+00 
 1.05000000e+00  3.49749056e-09  4.60019494e-01  3.37284522e-09  3.34873814e-09  4.60019495e-01  4.60019494e-01  3.32594609e-09  1.63095125e-07  7.99456004e-08  1.05000000e+00 
 1.06000000e+00  3.49749056e-09  4.60019487e-01  3.37284523e-09  3.34873814e-09  4.60019487e-01  4.60019487e-01  3.32594609e-09  1.63095107e-07  7.99455862e-08  1.06000000e+00 
 1.07000000e+00  3.49749056e-09  4.60019482e-01  3.37284523e-09  3.34873814e-09  4.60019482e-01  4.60019482e-01  3.32594609e-09  1.63095084e-07  7.99454085e-08  1.07000000e+00 
 1.08000000e+00  3.49749056e-09  4.60019486e-01  3.37284523e-09  3.34873814e-09  4.60019486e-01  4.60019486e-01  3.32594609e-09  1.63095094e-07  7.99454583e-08  1.08000000e+00 
 1.09000000e+00  3.49749055e-09  4.60019476e-01  3.37284523e-09  3.34873814e-09  4.60019476e-01  4.60019476e-01  3.32594615e-09  1.63095085e-07  7.99454156e-08  1.09000000e+00 
 1.10000000e+00  3.49749056e-09  4.60019498e-01  3.37284523e-09  3.34873814e-09  4.60019498e-01  4.60019498e-01  3.32594609e-09  1.63095103e-07  7.99452593e-08  1.10000000e+00 
