 v-sweep         v(b0)           v(b1)           v(b2)           v(b3)           v(b4)           v(b5)           v(b6)           i(vbias)        i(viout)        v(vout)        
 0.00000000e+00  4.56152176e-01  4.56152176e-01  3.61600351e-09  4.56152176e-01  4.56152176e-01  4.56152176e-01  3.21878802e-09  1.54509763e-07  8.48471021e-08  0.00000000e+00 
 1.00000000e-02  4.56152144e-01  4.56152144e-01  3.61600351e-09  4.56152144e-01  4.56152144e-01  4.56152144e-01  3.21878807e-09  1.54509716e-07  8.48466423e-08  1.00000000e-02 
 2.00000000e-02  4.56152155e-01  4.56152154e-01  3.61600351e-09  4.56152155e-01  4.56152155e-01  4.56152154e-01  3.21878807e-09  1.54509728e-07  8.48464023e-08  2.00000000e-02 
 3.00000000e-02  4.56152147e-01  4.56152147e-01  3.61600351e-09  4.56152147e-01  4.56152147e-01  4.56152147e-01  3.21878807e-09  1.54509713e-07  8.48459079e-08  3.00000000e-02 
 4.00000000e-02  4.56152159e-01  4.56152158e-01  3.61600351e-09  4.56152159e-01  4.56152159e-01  4.56152158e-01  3.21878808e-09  1.54509723e-07  8.48455577e-08  4.00000000e-02 
 5.00000000e-02  4.56152169e-01  4.56152168e-01  3.61600351e-09  4.56152169e-01  4.56152169e-01  4.56152168e-01  3.21878802e-09  1.54509749e-07  8.48452415e-08  5.00000000e-02 
 6.00000000e-02  4.56152162e-01  4.56152162e-01  3.61600345e-09  4.56152162e-01  4.56152162e-01  4.56152162e-01  3.21878802e-09  1.54509727e-07  8.48449342e-08  6.00000000e-02 
 7.00000000e-02  4.56152162e-01  4.56152162e-01  3.61600346e-09  4.56152162e-01  4.56152162e-01  4.56152162e-01  3.21878808e-09  1.54509734e-07  8.48446442e-08  7.00000000e-02 
 8.00000000e-02  4.56152138e-01  4.56152138e-01  3.61600345e-09  4.56152138e-01  4.56152138e-01  4.56152138e-01  3.21878802e-09  1.54509700e-07  8.48442676e-08  8.00000000e-02 
 9.00000000e-02  4.56152148e-01  4.56152148e-01  3.61600346e-09  4.56152148e-01  4.56152148e-01  4.56152148e-01  3.21878802e-09  1.54509716e-07  8.48439310e-08  9.00000000e-02 
 1.00000000e-01  4.56152155e-01  4.56152155e-01  3.61600351e-09  4.56152155e-01  4.56152155e-01  4.56152155e-01  3.21878802e-09  1.54509725e-07  8.48436752e-08  1.00000000e-01 
 1.10000000e-01  4.56152146e-01  4.56152145e-01  3.61600350e-09  4.56152146e-01  4.56152146e-01  4.56152145e-01  3.21878802e-09  1.54509715e-07  8.48434709e-08  1.10000000e-01 
 1.20000000e-01  4.56152153e-01  4.56152153e-01  3.61600351e-09  4.56152153e-01  4.56152153e-01  4.56152153e-01  3.21878802e-09  1.54509726e-07  8.48433253e-08  1.20000000e-01 
 1.30000000e-01  4.56152147e-01  4.56152147e-01  3.61600351e-09  4.56152147e-01  4.56152147e-01  4.56152147e-01  3.21878807e-09  1.54509714e-07  8.48429940e-08  1.30000000e-01 
 1.40000000e-01  4.56152155e-01  4.56152155e-01  3.61600345e-09  4.56152155e-01  4.56152155e-01  4.56152155e-01  3.21878802e-09  1.54509730e-07  8.48427595e-08  1.40000000e-01 
 1.50000000e-01  4.56152147e-01  4.56152146e-01  3.61600346e-09  4.56152146e-01  4.56152146e-01  4.56152146e-01  3.21878807e-09  1.54509717e-07  8.48426112e-08  1.50000000e-01 
 1.60000000e-01  4.56152171e-01  4.56152171e-01  3.61600352e-09  4.56152171e-01  4.56152171e-01  4.56152171e-01  3.21878808e-09  1.54509748e-07  8.48423980e-08  1.60000000e-01 
 1.70000000e-01  4.56152137e-01  4.56152137e-01  3.61600350e-09  4.56152137e-01  4.56152137e-01  4.56152137e-01  3.21878802e-09  1.54509694e-07  8.48421280e-08  1.70000000e-01 
 1.80000000e-01  4.56152164e-01  4.56152164e-01  3.61600345e-09  4.56152164e-01  4.56152164e-01  4.56152164e-01  3.21878808e-09  1.54509729e-07  8.48420800e-08  1.80000000e-01 
 1.90000000e-01  4.56152143e-01  4.56152143e-01  3.61600352e-09  4.56152143e-01  4.56152143e-01  4.56152143e-01  3.21878807e-09  1.54509714e-07  8.48418047e-08  1.90000000e-01 
 2.00000000e-01  4.56152142e-01  4.56152141e-01  3.61600350e-09  4.56152141e-01  4.56152142e-01  4.56152141e-01  3.21878802e-09  1.54509716e-07  8.48416253e-08  2.00000000e-01 
 2.10000000e-01  4.56152156e-01  4.56152156e-01  3.61600351e-09  4.56152156e-01  4.56152156e-01  4.56152156e-01  3.21878802e-09  1.54509719e-07  8.48414530e-08  2.10000000e-01 
 2.20000000e-01  4.56152154e-01  4.56152154e-01  3.61600345e-09  4.56152154e-01  4.56152154e-01  4.56152154e-01  3.21878802e-09  1.54509712e-07  8.48413091e-08  2.20000000e-01 
 2.30000000e-01  4.56152161e-01  4.56152161e-01  3.61600352e-09  4.56152161e-01  4.56152161e-01  4.56152161e-01  3.21878802e-09  1.54509750e-07  8.48412416e-08  2.30000000e-01 
 2.40000000e-01  4.56152156e-01  4.56152156e-01  3.61600350e-09  4.56152156e-01  4.56152156e-01  4.56152156e-01  3.21878807e-09  1.54509715e-07  8.48410338e-08  2.40000000e-01 
 2.50000000e-01  4.56152147e-01  4.56152147e-01  3.61600345e-09  4.56152147e-01  4.56152147e-01  4.56152147e-01  3.21878807e-09  1.54509723e-07  8.48410000e-08  2.50000000e-01 
 2.60000000e-01  4.56152153e-01  4.56152153e-01  3.61600346e-09  4.56152153e-01  4.56152153e-01  4.56152153e-01  3.21878807e-09  1.54509725e-07  8.48408135e-08  2.60000000e-01 
 2.70000000e-01  4.56152159e-01  4.56152159e-01  3.61600351e-09  4.56152159e-01  4.56152159e-01  4.56152159e-01  3.21878802e-09  1.54509742e-07  8.48406874e-08  2.70000000e-01 
 2.80000000e-01  4.56152149e-01  4.56152149e-01  3.61600344e-09  4.56152149e-01  4.56152149e-01  4.56152149e-01  3.21878807e-09  1.54509710e-07  8.48405417e-08  2.80000000e-01 
 2.90000000e-01  4.56152176e-01  4.56152176e-01  3.61600347e-09  4.56152176e-01  4.56152176e-01  4.56152176e-01  3.21878802e-09  1.54509743e-07  8.48405293e-08  2.90000000e-01 
 3.00000000e-01  4.56152145e-01  4.56152145e-01  3.61600351e-09  4.56152145e-01  4.56152145e-01  4.56152145e-01  3.21878802e-09  1.54509697e-07  8.48403126e-08  3.00000000e-01 
 3.10000000e-01  4.56152159e-01  4.56152158e-01  3.61600344e-09  4.56152158e-01  4.56152158e-01  4.56152158e-01  3.21878802e-09  1.54509738e-07  8.48402664e-08  3.10000000e-01 
 3.20000000e-01  4.56152162e-01  4.56152162e-01  3.61600352e-09  4.56152162e-01  4.56152162e-01  4.56152162e-01  3.21878802e-09  1.54509734e-07  8.48401633e-08  3.20000000e-01 
 3.30000000e-01  4.56152144e-01  4.56152144e-01  3.61600344e-09  4.56152144e-01  4.56152144e-01  4.56152144e-01  3.21878807e-09  1.54509698e-07  8.48399182e-08  3.30000000e-01 
 3.40000000e-01  4.56152164e-01  4.56152164e-01  3.61600346e-09  4.56152164e-01  4.56152164e-01  4.56152164e-01  3.21878802e-09  1.54509746e-07  8.48399537e-08  3.40000000e-01 
 3.50000000e-01  4.56152156e-01  4.56152156e-01  3.61600351e-09  4.56152156e-01  4.56152156e-01  4.56152156e-01  3.21878802e-09  1.54509718e-07  8.48398329e-08  3.50000000e-01 
 3.60000000e-01  4.56152134e-01  4.56152134e-01  3.61600350e-09  4.56152134e-01  4.56152134e-01  4.56152134e-01  3.21878807e-09  1.54509698e-07  8.48396517e-08  3.60000000e-01 
 3.70000000e-01  4.56152164e-01  4.56152164e-01  3.61600345e-09  4.56152164e-01  4.56152164e-01  4.56152164e-01  3.21878802e-09  1.54509744e-07  8.48396304e-08  3.70000000e-01 
 3.80000000e-01  4.56152155e-01  4.56152154e-01  3.61600352e-09  4.56152154e-01  4.56152154e-01  4.56152154e-01  3.21878802e-09  1.54509708e-07  8.48396233e-08  3.80000000e-01 
 3.90000000e-01  4.56152158e-01  4.56152158e-01  3.61600350e-09  4.56152158e-01  4.56152158e-01  4.56152158e-01  3.21878807e-09  1.54509739e-07  8.48393853e-08  3.90000000e-01 
 4.00000000e-01  4.56152157e-01  4.56152157e-01  3.61600345e-09  4.56152157e-01  4.56152157e-01  4.56152157e-01  3.21878802e-09  1.54509733e-07  8.48393640e-08  4.00000000e-01 
 4.10000000e-01  4.56152157e-01  4.56152157e-01  3.61600346e-09  4.56152157e-01  4.56152157e-01  4.56152157e-01  3.21878802e-09  1.54509727e-07  8.48392787e-08  4.10000000e-01 
 4.20000000e-01  4.56152134e-01  4.56152134e-01  3.61600345e-09  4.56152134e-01  4.56152134e-01  4.56152134e-01  3.21878807e-09  1.54509696e-07  8.48390620e-08  4.20000000e-01 
 4.30000000e-01  4.56152152e-01  4.56152152e-01  3.61600351e-09  4.56152152e-01  4.56152152e-01  4.56152152e-01  3.21878807e-09  1.54509707e-07  8.48391402e-08  4.30000000e-01 
 4.40000000e-01  4.56152145e-01  4.56152145e-01  3.61600344e-09  4.56152145e-01  4.56152145e-01  4.56152145e-01  3.21878807e-09  1.54509699e-07  8.48390300e-08  4.40000000e-01 
 4.50000000e-01  4.56152159e-01  4.56152158e-01  3.61600346e-09  4.56152158e-01  4.56152158e-01  4.56152158e-01  3.21878802e-09  1.54509722e-07  8.48390052e-08  4.50000000e-01 
 4.60000000e-01  4.56152153e-01  4.56152153e-01  3.61600351e-09  4.56152153e-01  4.56152153e-01  4.56152153e-01  3.21878807e-09  1.54509717e-07  8.48389483e-08  4.60000000e-01 
 4.70000000e-01  4.56152166e-01  4.56152166e-01  3.61600345e-09  4.56152166e-01  4.56152166e-01  4.56152166e-01  3.21878808e-09  1.54509737e-07  8.48387423e-08  4.70000000e-01 
 4.80000000e-01  4.56152143e-01  4.56152143e-01  3.61600346e-09  4.56152143e-01  4.56152143e-01  4.56152143e-01  3.21878807e-09  1.54509704e-07  8.48387920e-08  4.80000000e-01 
 4.90000000e-01  4.56152166e-01  4.56152166e-01  3.61600346e-09  4.56152166e-01  4.56152166e-01  4.56152166e-01  3.21878808e-09  1.54509754e-07  8.48386534e-08  4.90000000e-01 
 5.00000000e-01  4.56152131e-01  4.56152131e-01  3.61600351e-09  4.56152131e-01  4.56152131e-01  4.56152131e-01  3.21878802e-09  1.54509687e-07  8.48384794e-08  5.00000000e-01 
 5.10000000e-01  4.56152150e-01  4.56152150e-01  3.61600350e-09  4.56152150e-01  4.56152150e-01  4.56152150e-01  3.21878802e-09  1.54509717e-07  8.48385326e-08  5.10000000e-01 
 5.20000000e-01  4.56152153e-01  4.56152153e-01  3.61600345e-09  4.56152153e-01  4.56152153e-01  4.56152153e-01  3.21878802e-09  1.54509722e-07  8.48383443e-08  5.20000000e-01 
 5.30000000e-01  4.56152167e-01  4.56152167e-01  3.61600352e-09  4.56152167e-01  4.56152167e-01  4.56152167e-01  3.21878802e-09  1.54509747e-07  8.48382840e-08  5.30000000e-01 
 5.40000000e-01  4.56152143e-01  4.56152143e-01  3.61600350e-09  4.56152143e-01  4.56152143e-01  4.56152143e-01  3.21878807e-09  1.54509693e-07  8.48383266e-08  5.40000000e-01 
 5.50000000e-01  4.56152172e-01  4.56152172e-01  3.61600351e-09  4.56152172e-01  4.56152172e-01  4.56152172e-01  3.21878808e-09  1.54509746e-07  8.48381312e-08  5.50000000e-01 
 5.60000000e-01  4.56152148e-01  4.56152148e-01  3.61600351e-09  4.56152148e-01  4.56152148e-01  4.56152148e-01  3.21878807e-09  1.54509713e-07  8.48381241e-08  5.60000000e-01 
 5.70000000e-01  4.56152129e-01  4.56152128e-01  3.61600345e-09  4.56152129e-01  4.56152129e-01  4.56152128e-01  3.21878802e-09  1.54509688e-07  8.48379678e-08  5.70000000e-01 
 5.80000000e-01  4.56152179e-01  4.56152179e-01  3.61600352e-09  4.56152179e-01  4.56152179e-01  4.56152179e-01  3.21878808e-09  1.54509769e-07  8.48380566e-08  5.80000000e-01 
 5.90000000e-01  4.56152160e-01  4.56152160e-01  3.61600350e-09  4.56152160e-01  4.56152160e-01  4.56152160e-01  3.21878808e-09  1.54509724e-07  8.48379429e-08  5.90000000e-01 
 6.00000000e-01  4.56152150e-01  4.56152150e-01  3.61600351e-09  4.56152150e-01  4.56152150e-01  4.56152150e-01  3.21878807e-09  1.54509728e-07  8.48378363e-08  6.00000000e-01 
 6.10000000e-01  4.56152160e-01  4.56152160e-01  3.61600345e-09  4.56152160e-01  4.56152160e-01  4.56152160e-01  3.21878808e-09  1.54509724e-07  8.48377297e-08  6.10000000e-01 
 6.20000000e-01  4.56152147e-01  4.56152147e-01  3.61600346e-09  4.56152147e-01  4.56152147e-01  4.56152147e-01  3.21878807e-09  1.54509716e-07  8.48377937e-08  6.20000000e-01 
 6.30000000e-01  4.56152157e-01  4.56152157e-01  3.61600351e-09  4.56152157e-01  4.56152157e-01  4.56152157e-01  3.21878802e-09  1.54509737e-07  8.48376942e-08  6.30000000e-01 
 6.40000000e-01  4.56152154e-01  4.56152154e-01  3.61600344e-09  4.56152154e-01  4.56152154e-01  4.56152154e-01  3.21878802e-09  1.54509727e-07  8.48376303e-08  6.40000000e-01 
 6.50000000e-01  4.56152153e-01  4.56152153e-01  3.61600346e-09  4.56152153e-01  4.56152153e-01  4.56152153e-01  3.21878807e-09  1.54509730e-07  8.48375024e-08  6.50000000e-01 
 6.60000000e-01  4.56152161e-01  4.56152161e-01  3.61600346e-09  4.56152161e-01  4.56152161e-01  4.56152161e-01  3.21878802e-09  1.54509733e-07  8.48374455e-08  6.60000000e-01 
 6.70000000e-01  4.56152127e-01  4.56152127e-01  3.61600351e-09  4.56152127e-01  4.56152127e-01  4.56152127e-01  3.21878802e-09  1.54509674e-07  8.48373958e-08  6.70000000e-01 
 6.80000000e-01  4.56152129e-01  4.56152129e-01  3.61600350e-09  4.56152129e-01  4.56152129e-01  4.56152129e-01  3.21878802e-09  1.54509695e-07  8.48373034e-08  6.80000000e-01 
 6.90000000e-01  4.56152146e-01  4.56152146e-01  3.61600351e-09  4.56152146e-01  4.56152146e-01  4.56152146e-01  3.21878807e-09  1.54509715e-07  8.48373531e-08  6.90000000e-01 
 7.00000000e-01  4.56152158e-01  4.56152157e-01  3.61600351e-09  4.56152158e-01  4.56152158e-01  4.56152157e-01  3.21878807e-09  1.54509722e-07  8.48372821e-08  7.00000000e-01 
 7.10000000e-01  4.56152162e-01  4.56152161e-01  3.61600351e-09  4.56152161e-01  4.56152161e-01  4.56152161e-01  3.21878808e-09  1.54509740e-07  8.48371542e-08  7.10000000e-01 
 7.20000000e-01  4.56152148e-01  4.56152148e-01  3.61600351e-09  4.56152148e-01  4.56152148e-01  4.56152148e-01  3.21878807e-09  1.54509711e-07  8.48370689e-08  7.20000000e-01 
 7.30000000e-01  4.56152159e-01  4.56152158e-01  3.61600351e-09  4.56152159e-01  4.56152159e-01  4.56152159e-01  3.21878802e-09  1.54509740e-07  8.48369766e-08  7.30000000e-01 
 7.40000000e-01  4.56152144e-01  4.56152144e-01  3.61600351e-09  4.56152144e-01  4.56152144e-01  4.56152144e-01  3.21878807e-09  1.54509705e-07  8.48368984e-08  7.40000000e-01 
 7.50000000e-01  4.56152168e-01  4.56152168e-01  3.61600345e-09  4.56152168e-01  4.56152168e-01  4.56152168e-01  3.21878802e-09  1.54509762e-07  8.48369552e-08  7.50000000e-01 
 7.60000000e-01  4.56152125e-01  4.56152125e-01  3.61600346e-09  4.56152125e-01  4.56152125e-01  4.56152125e-01  3.21878807e-09  1.54509688e-07  8.48366355e-08  7.60000000e-01 
 7.70000000e-01  4.56152146e-01  4.56152146e-01  3.61600351e-09  4.56152146e-01  4.56152146e-01  4.56152146e-01  3.21878807e-09  1.54509702e-07  8.48366568e-08  7.70000000e-01 
 7.80000000e-01  4.56152156e-01  4.56152156e-01  3.61600350e-09  4.56152156e-01  4.56152156e-01  4.56152156e-01  3.21878802e-09  1.54509727e-07  8.48366497e-08  7.80000000e-01 
 7.90000000e-01  4.56152148e-01  4.56152148e-01  3.61600351e-09  4.56152148e-01  4.56152148e-01  4.56152148e-01  3.21878802e-09  1.54509715e-07  8.48366071e-08  7.90000000e-01 
 8.00000000e-01  4.56152162e-01  4.56152162e-01  3.61600351e-09  4.56152162e-01  4.56152162e-01  4.56152162e-01  3.21878808e-09  1.54509724e-07  8.48364721e-08  8.00000000e-01 
 8.10000000e-01  4.56152158e-01  4.56152158e-01  3.61600345e-09  4.56152158e-01  4.56152158e-01  4.56152158e-01  3.21878802e-09  1.54509721e-07  8.48363726e-08  8.10000000e-01 
 8.20000000e-01  4.56152151e-01  4.56152151e-01  3.61600346e-09  4.56152151e-01  4.56152151e-01  4.56152151e-01  3.21878807e-09  1.54509725e-07  8.48362376e-08  8.20000000e-01 
 8.30000000e-01  4.56152166e-01  4.56152166e-01  3.61600346e-09  4.56152166e-01  4.56152166e-01  4.56152166e-01  3.21878802e-09  1.54509732e-07  8.48363584e-08  8.30000000e-01 
 8.40000000e-01  4.56152150e-01  4.56152150e-01  3.61600351e-09  4.56152150e-01  4.56152150e-01  4.56152150e-01  3.21878807e-09  1.54509712e-07  8.48362305e-08  8.40000000e-01 
 8.50000000e-01  4.56152160e-01  4.56152160e-01  3.61600350e-09  4.56152160e-01  4.56152160e-01  4.56152160e-01  3.21878808e-09  1.54509732e-07  8.48362092e-08  8.50000000e-01 
 8.60000000e-01  4.56152153e-01  4.56152153e-01  3.61600351e-09  4.56152153e-01  4.56152153e-01  4.56152153e-01  3.21878802e-09  1.54509715e-07  8.48361665e-08  8.60000000e-01 
 8.70000000e-01  4.56152128e-01  4.56152128e-01  3.61600345e-09  4.56152128e-01  4.56152128e-01  4.56152128e-01  3.21878802e-09  1.54509682e-07  8.48360600e-08  8.70000000e-01 
 8.80000000e-01  4.56152142e-01  4.56152142e-01  3.61600346e-09  4.56152142e-01  4.56152142e-01  4.56152142e-01  3.21878802e-09  1.54509708e-07  8.48358823e-08  8.80000000e-01 
 8.90000000e-01  4.56152142e-01  4.56152142e-01  3.61600351e-09  4.56152142e-01  4.56152142e-01  4.56152142e-01  3.21878807e-09  1.54509717e-07  8.48359960e-08  8.90000000e-01 
 9.00000000e-01  4.56152168e-01  4.56152168e-01  3.61600350e-09  4.56152168e-01  4.56152168e-01  4.56152168e-01  3.21878808e-09  1.54509741e-07  8.48358397e-08  9.00000000e-01 
 9.10000000e-01  4.56152133e-01  4.56152133e-01  3.61600350e-09  4.56152133e-01  4.56152133e-01  4.56152133e-01  3.21878807e-09  1.54509689e-07  8.48357260e-08  9.10000000e-01 
 9.20000000e-01  4.56152129e-01  4.56152129e-01  3.61600350e-09  4.56152129e-01  4.56152129e-01  4.56152129e-01  3.21878802e-09  1.54509702e-07  8.48356763e-08  9.20000000e-01 
 9.30000000e-01  4.56152151e-01  4.56152150e-01  3.61600351e-09  4.56152151e-01  4.56152151e-01  4.56152150e-01  3.21878807e-09  1.54509709e-07  8.48355342e-08  9.30000000e-01 
 9.40000000e-01  4.56152153e-01  4.56152153e-01  3.61600351e-09  4.56152153e-01  4.56152153e-01  4.56152153e-01  3.21878807e-09  1.54509718e-07  8.48354773e-08  9.40000000e-01 
 9.50000000e-01  4.56152152e-01  4.56152151e-01  3.61600345e-09  4.56152152e-01  4.56152152e-01  4.56152151e-01  3.21878807e-09  1.54509728e-07  8.48353707e-08  9.50000000e-01 
 9.60000000e-01  4.56152165e-01  4.56152165e-01  3.61600346e-09  4.56152165e-01  4.56152165e-01  4.56152165e-01  3.21878808e-09  1.54509745e-07  8.48353849e-08  9.60000000e-01 
 9.70000000e-01  4.56152183e-01  4.56152183e-01  3.61600352e-09  4.56152183e-01  4.56152183e-01  4.56152183e-01  3.21878808e-09  1.54509782e-07  8.48353494e-08  9.70000000e-01 
 9.80000000e-01  4.56152147e-01  4.56152146e-01  3.61600350e-09  4.56152147e-01  4.56152147e-01  4.56152146e-01  3.21878807e-09  1.54509706e-07  8.48352215e-08  9.80000000e-01 
 9.90000000e-01  4.56152135e-01  4.56152135e-01  3.61600350e-09  4.56152135e-01  4.56152135e-01  4.56152135e-01  3.21878807e-09  1.54509689e-07  8.48351291e-08  9.90000000e-01 
 1.00000000e+00  4.56152142e-01  4.56152142e-01  3.61600345e-09  4.56152142e-01  4.56152142e-01  4.56152142e-01  3.21878807e-09  1.54509696e-07  8.48350084e-08  1.00000000e+00 
 1.01000000e+00  4.56152160e-01  4.56152160e-01  3.61600346e-09  4.56152160e-01  4.56152160e-01  4.56152160e-01  3.21878808e-09  1.54509730e-07  8.48350084e-08  1.01000000e+00 
 1.02000000e+00  4.56152157e-01  4.56152157e-01  3.61600351e-09  4.56152157e-01  4.56152157e-01  4.56152157e-01  3.21878807e-09  1.54509713e-07  8.48350012e-08  1.02000000e+00 
 1.03000000e+00  4.56152178e-01  4.56152178e-01  3.61600350e-09  4.56152178e-01  4.56152178e-01  4.56152178e-01  3.21878808e-09  1.54509768e-07  8.48348307e-08  1.03000000e+00 
 1.04000000e+00  4.56152155e-01  4.56152155e-01  3.61600345e-09  4.56152155e-01  4.56152155e-01  4.56152155e-01  3.21878802e-09  1.54509715e-07  8.48347455e-08  1.04000000e+00 
 1.05000000e+00  4.56152146e-01  4.56152146e-01  3.61600346e-09  4.56152146e-01  4.56152146e-01  4.56152146e-01  3.21878802e-09  1.54509701e-07  8.48346176e-08  1.05000000e+00 
 1.06000000e+00  4.56152167e-01  4.56152167e-01  3.61600346e-09  4.56152167e-01  4.56152167e-01  4.56152167e-01  3.21878808e-09  1.54509738e-07  8.48347881e-08  1.06000000e+00 
 1.07000000e+00  4.56152159e-01  4.56152159e-01  3.61600351e-09  4.56152159e-01  4.56152159e-01  4.56152159e-01  3.21878802e-09  1.54509723e-07  8.48346318e-08  1.07000000e+00 
 1.08000000e+00  4.56152171e-01  4.56152170e-01  3.61600350e-09  4.56152171e-01  4.56152171e-01  4.56152170e-01  3.21878808e-09  1.54509758e-07  8.48344897e-08  1.08000000e+00 
 1.09000000e+00  4.56152143e-01  4.56152143e-01  3.61600351e-09  4.56152143e-01  4.56152143e-01  4.56152143e-01  3.21878802e-09  1.54509703e-07  8.48344328e-08  1.09000000e+00 
 1.10000000e+00  4.56152157e-01  4.56152157e-01  3.61600345e-09  4.56152157e-01  4.56152157e-01  4.56152157e-01  3.21878802e-09  1.54509741e-07  8.48343333e-08  1.10000000e+00 
