 v-sweep         v(b0)           v(b1)           v(b2)           v(b3)           v(b4)           v(b5)           v(b6)           i(vbias)        i(viout)        v(vout)        
 0.00000000e+00  3.37890272e-09  4.56744308e-01  3.30973303e-09  4.56744308e-01  4.56744308e-01  3.20309838e-09  4.56744308e-01  1.54613817e-07  1.29717200e-07  0.00000000e+00 
 1.00000000e-02  3.37890269e-09  4.56744253e-01  3.30973306e-09  4.56744253e-01  4.56744253e-01  3.20309842e-09  4.56744253e-01  1.54613727e-07  1.29716622e-07  1.00000000e-02 
 2.00000000e-02  3.37890269e-09  4.56744263e-01  3.30973300e-09  4.56744263e-01  4.56744263e-01  3.20309842e-09  4.56744263e-01  1.54613759e-07  1.29716159e-07  2.00000000e-02 
 3.00000000e-02  3.37890275e-09  4.56744259e-01  3.30973300e-09  4.56744259e-01  4.56744259e-01  3.20309836e-09  4.56744259e-01  1.54613756e-07  1.29715749e-07  3.00000000e-02 
 4.00000000e-02  3.37890275e-09  4.56744269e-01  3.30973301e-09  4.56744269e-01  4.56744269e-01  3.20309836e-09  4.56744269e-01  1.54613757e-07  1.29715389e-07  4.00000000e-02 
 5.00000000e-02  3.37890275e-09  4.56744266e-01  3.30973301e-09  4.56744266e-01  4.56744266e-01  3.20309842e-09  4.56744266e-01  1.54613763e-07  1.29715039e-07  5.00000000e-02 
 6.00000000e-02  3.37890275e-09  4.56744272e-01  3.30973301e-09  4.56744272e-01  4.56744272e-01  3.20309842e-09  4.56744272e-01  1.54613765e-07  1.29714664e-07  6.00000000e-02 
 7.00000000e-02  3.37890270e-09  4.56744288e-01  3.30973301e-09  4.56744288e-01  4.56744288e-01  3.20309842e-09  4.56744288e-01  1.54613787e-07  1.29714383e-07  7.00000000e-02 
 8.00000000e-02  3.37890269e-09  4.56744279e-01  3.30973301e-09  4.56744279e-01  4.56744279e-01  3.20309836e-09  4.56744279e-01  1.54613780e-07  1.29714098e-07  8.00000000e-02 
 9.00000000e-02  3.37890275e-09  4.56744251e-01  3.30973306e-09  4.56744251e-01  4.56744251e-01  3.20309842e-09  4.56744251e-01  1.54613743e-07  1.29713717e-07  9.00000000e-02 
 1.00000000e-01  3.37890269e-09  4.56744260e-01  3.30973300e-09  4.56744260e-01  4.56744260e-01  3.20309842e-09  4.56744260e-01  1.54613735e-07  1.29713420e-07  1.00000000e-01 
 1.10000000e-01  3.37890269e-09  4.56744255e-01  3.30973306e-09  4.56744255e-01  4.56744255e-01  3.20309836e-09  4.56744255e-01  1.54613739e-07  1.29713231e-07  1.10000000e-01 
 1.20000000e-01  3.37890270e-09  4.56744282e-01  3.30973306e-09  4.56744283e-01  4.56744282e-01  3.20309842e-09  4.56744282e-01  1.54613798e-07  1.29713059e-07  1.20000000e-01 
 1.30000000e-01  3.37890275e-09  4.56744274e-01  3.30973306e-09  4.56744274e-01  4.56744274e-01  3.20309836e-09  4.56744274e-01  1.54613771e-07  1.29712703e-07  1.30000000e-01 
 1.40000000e-01  3.37890269e-09  4.56744253e-01  3.30973306e-09  4.56744253e-01  4.56744253e-01  3.20309836e-09  4.56744253e-01  1.54613754e-07  1.29712502e-07  1.40000000e-01 
 1.50000000e-01  3.37890270e-09  4.56744287e-01  3.30973301e-09  4.56744287e-01  4.56744287e-01  3.20309836e-09  4.56744287e-01  1.54613778e-07  1.29712360e-07  1.50000000e-01 
 1.60000000e-01  3.37890270e-09  4.56744292e-01  3.30973306e-09  4.56744292e-01  4.56744292e-01  3.20309842e-09  4.56744292e-01  1.54613797e-07  1.29712179e-07  1.60000000e-01 
 1.70000000e-01  3.37890269e-09  4.56744265e-01  3.30973306e-09  4.56744265e-01  4.56744265e-01  3.20309842e-09  4.56744265e-01  1.54613771e-07  1.29711786e-07  1.70000000e-01 
 1.80000000e-01  3.37890274e-09  4.56744237e-01  3.30973300e-09  4.56744237e-01  4.56744237e-01  3.20309836e-09  4.56744237e-01  1.54613715e-07  1.29711546e-07  1.80000000e-01 
 1.90000000e-01  3.37890269e-09  4.56744259e-01  3.30973306e-09  4.56744259e-01  4.56744259e-01  3.20309836e-09  4.56744259e-01  1.54613743e-07  1.29711502e-07  1.90000000e-01 
 2.00000000e-01  3.37890275e-09  4.56744260e-01  3.30973306e-09  4.56744260e-01  4.56744260e-01  3.20309836e-09  4.56744260e-01  1.54613747e-07  1.29711269e-07  2.00000000e-01 
 2.10000000e-01  3.37890269e-09  4.56744272e-01  3.30973306e-09  4.56744272e-01  4.56744272e-01  3.20309842e-09  4.56744272e-01  1.54613763e-07  1.29711053e-07  2.10000000e-01 
 2.20000000e-01  3.37890269e-09  4.56744274e-01  3.30973301e-09  4.56744274e-01  4.56744274e-01  3.20309842e-09  4.56744274e-01  1.54613787e-07  1.29710852e-07  2.20000000e-01 
 2.30000000e-01  3.37890275e-09  4.56744249e-01  3.30973300e-09  4.56744249e-01  4.56744249e-01  3.20309836e-09  4.56744249e-01  1.54613747e-07  1.29710610e-07  2.30000000e-01 
 2.40000000e-01  3.37890275e-09  4.56744277e-01  3.30973306e-09  4.56744277e-01  4.56744277e-01  3.20309836e-09  4.56744277e-01  1.54613769e-07  1.29710561e-07  2.40000000e-01 
 2.50000000e-01  3.37890269e-09  4.56744275e-01  3.30973306e-09  4.56744275e-01  4.56744275e-01  3.20309836e-09  4.56744275e-01  1.54613786e-07  1.29710429e-07  2.50000000e-01 
 2.60000000e-01  3.37890269e-09  4.56744260e-01  3.30973306e-09  4.56744260e-01  4.56744260e-01  3.20309842e-09  4.56744260e-01  1.54613756e-07  1.29710205e-07  2.60000000e-01 
 2.70000000e-01  3.37890275e-09  4.56744256e-01  3.30973300e-09  4.56744256e-01  4.56744256e-01  3.20309836e-09  4.56744256e-01  1.54613743e-07  1.29710042e-07  2.70000000e-01 
 2.80000000e-01  3.37890270e-09  4.56744287e-01  3.30973306e-09  4.56744287e-01  4.56744287e-01  3.20309842e-09  4.56744287e-01  1.54613797e-07  1.29710047e-07  2.80000000e-01 
 2.90000000e-01  3.37890269e-09  4.56744264e-01  3.30973306e-09  4.56744265e-01  4.56744264e-01  3.20309842e-09  4.56744264e-01  1.54613748e-07  1.29709925e-07  2.90000000e-01 
 3.00000000e-01  3.37890269e-09  4.56744259e-01  3.30973300e-09  4.56744259e-01  4.56744259e-01  3.20309836e-09  4.56744259e-01  1.54613735e-07  1.29709743e-07  3.00000000e-01 
 3.10000000e-01  3.37890275e-09  4.56744264e-01  3.30973306e-09  4.56744264e-01  4.56744264e-01  3.20309836e-09  4.56744264e-01  1.54613769e-07  1.29709569e-07  3.10000000e-01 
 3.20000000e-01  3.37890269e-09  4.56744267e-01  3.30973306e-09  4.56744267e-01  4.56744267e-01  3.20309842e-09  4.56744267e-01  1.54613765e-07  1.29709502e-07  3.20000000e-01 
 3.30000000e-01  3.37890269e-09  4.56744258e-01  3.30973306e-09  4.56744258e-01  4.56744258e-01  3.20309842e-09  4.56744258e-01  1.54613744e-07  1.29709377e-07  3.30000000e-01 
 3.40000000e-01  3.37890269e-09  4.56744276e-01  3.30973306e-09  4.56744276e-01  4.56744276e-01  3.20309842e-09  4.56744276e-01  1.54613783e-07  1.29709260e-07  3.40000000e-01 
 3.50000000e-01  3.37890270e-09  4.56744301e-01  3.30973306e-09  4.56744301e-01  4.56744301e-01  3.20309842e-09  4.56744301e-01  1.54613827e-07  1.29709100e-07  3.50000000e-01 
 3.60000000e-01  3.37890270e-09  4.56744281e-01  3.30973306e-09  4.56744281e-01  4.56744281e-01  3.20309836e-09  4.56744281e-01  1.54613763e-07  1.29709029e-07  3.60000000e-01 
 3.70000000e-01  3.37890269e-09  4.56744250e-01  3.30973300e-09  4.56744250e-01  4.56744250e-01  3.20309836e-09  4.56744250e-01  1.54613727e-07  1.29708905e-07  3.70000000e-01 
 3.80000000e-01  3.37890269e-09  4.56744270e-01  3.30973306e-09  4.56744270e-01  4.56744270e-01  3.20309842e-09  4.56744270e-01  1.54613760e-07  1.29708773e-07  3.80000000e-01 
 3.90000000e-01  3.37890275e-09  4.56744287e-01  3.30973306e-09  4.56744287e-01  4.56744287e-01  3.20309842e-09  4.56744287e-01  1.54613787e-07  1.29708742e-07  3.90000000e-01 
 4.00000000e-01  3.37890269e-09  4.56744258e-01  3.30973300e-09  4.56744258e-01  4.56744258e-01  3.20309836e-09  4.56744258e-01  1.54613750e-07  1.29708543e-07  4.00000000e-01 
 4.10000000e-01  3.37890269e-09  4.56744253e-01  3.30973300e-09  4.56744253e-01  4.56744253e-01  3.20309842e-09  4.56744253e-01  1.54613735e-07  1.29708390e-07  4.10000000e-01 
 4.20000000e-01  3.37890269e-09  4.56744264e-01  3.30973301e-09  4.56744264e-01  4.56744264e-01  3.20309842e-09  4.56744264e-01  1.54613762e-07  1.29708351e-07  4.20000000e-01 
 4.30000000e-01  3.37890275e-09  4.56744260e-01  3.30973300e-09  4.56744260e-01  4.56744260e-01  3.20309836e-09  4.56744260e-01  1.54613752e-07  1.29708194e-07  4.30000000e-01 
 4.40000000e-01  3.37890269e-09  4.56744266e-01  3.30973301e-09  4.56744266e-01  4.56744266e-01  3.20309836e-09  4.56744266e-01  1.54613754e-07  1.29708095e-07  4.40000000e-01 
 4.50000000e-01  3.37890269e-09  4.56744269e-01  3.30973301e-09  4.56744269e-01  4.56744269e-01  3.20309836e-09  4.56744269e-01  1.54613759e-07  1.29708049e-07  4.50000000e-01 
 4.60000000e-01  3.37890269e-09  4.56744255e-01  3.30973306e-09  4.56744255e-01  4.56744255e-01  3.20309842e-09  4.56744255e-01  1.54613740e-07  1.29708017e-07  4.60000000e-01 
 4.70000000e-01  3.37890269e-09  4.56744260e-01  3.30973300e-09  4.56744260e-01  4.56744260e-01  3.20309836e-09  4.56744260e-01  1.54613747e-07  1.29707786e-07  4.70000000e-01 
 4.80000000e-01  3.37890269e-09  4.56744253e-01  3.30973306e-09  4.56744253e-01  4.56744253e-01  3.20309842e-09  4.56744253e-01  1.54613732e-07  1.29707740e-07  4.80000000e-01 
 4.90000000e-01  3.37890275e-09  4.56744281e-01  3.30973306e-09  4.56744281e-01  4.56744281e-01  3.20309842e-09  4.56744281e-01  1.54613792e-07  1.29707704e-07  4.90000000e-01 
 5.00000000e-01  3.37890275e-09  4.56744259e-01  3.30973306e-09  4.56744259e-01  4.56744259e-01  3.20309842e-09  4.56744259e-01  1.54613757e-07  1.29707605e-07  5.00000000e-01 
 5.10000000e-01  3.37890269e-09  4.56744261e-01  3.30973300e-09  4.56744261e-01  4.56744261e-01  3.20309842e-09  4.56744261e-01  1.54613744e-07  1.29707512e-07  5.10000000e-01 
 5.20000000e-01  3.37890269e-09  4.56744254e-01  3.30973306e-09  4.56744254e-01  4.56744254e-01  3.20309836e-09  4.56744254e-01  1.54613755e-07  1.29707370e-07  5.20000000e-01 
 5.30000000e-01  3.37890269e-09  4.56744259e-01  3.30973306e-09  4.56744259e-01  4.56744259e-01  3.20309842e-09  4.56744259e-01  1.54613743e-07  1.29707200e-07  5.30000000e-01 
 5.40000000e-01  3.37890270e-09  4.56744292e-01  3.30973306e-09  4.56744292e-01  4.56744292e-01  3.20309836e-09  4.56744292e-01  1.54613803e-07  1.29707267e-07  5.40000000e-01 
 5.50000000e-01  3.37890270e-09  4.56744280e-01  3.30973301e-09  4.56744280e-01  4.56744280e-01  3.20309842e-09  4.56744280e-01  1.54613767e-07  1.29707175e-07  5.50000000e-01 
 5.60000000e-01  3.37890269e-09  4.56744277e-01  3.30973301e-09  4.56744277e-01  4.56744277e-01  3.20309842e-09  4.56744277e-01  1.54613786e-07  1.29707125e-07  5.60000000e-01 
 5.70000000e-01  3.37890270e-09  4.56744287e-01  3.30973301e-09  4.56744287e-01  4.56744287e-01  3.20309842e-09  4.56744287e-01  1.54613793e-07  1.29707047e-07  5.70000000e-01 
 5.80000000e-01  3.37890275e-09  4.56744281e-01  3.30973301e-09  4.56744281e-01  4.56744281e-01  3.20309842e-09  4.56744281e-01  1.54613784e-07  1.29706848e-07  5.80000000e-01 
 5.90000000e-01  3.37890275e-09  4.56744278e-01  3.30973301e-09  4.56744278e-01  4.56744278e-01  3.20309842e-09  4.56744278e-01  1.54613772e-07  1.29706798e-07  5.90000000e-01 
 6.00000000e-01  3.37890275e-09  4.56744262e-01  3.30973300e-09  4.56744262e-01  4.56744262e-01  3.20309842e-09  4.56744262e-01  1.54613756e-07  1.29706670e-07  6.00000000e-01 
 6.10000000e-01  3.37890269e-09  4.56744268e-01  3.30973301e-09  4.56744268e-01  4.56744268e-01  3.20309842e-09  4.56744268e-01  1.54613765e-07  1.29706649e-07  6.10000000e-01 
 6.20000000e-01  3.37890270e-09  4.56744293e-01  3.30973301e-09  4.56744293e-01  4.56744293e-01  3.20309836e-09  4.56744293e-01  1.54613793e-07  1.29706677e-07  6.20000000e-01 
 6.30000000e-01  3.37890270e-09  4.56744305e-01  3.30973301e-09  4.56744305e-01  4.56744305e-01  3.20309836e-09  4.56744305e-01  1.54613818e-07  1.29706535e-07  6.30000000e-01 
 6.40000000e-01  3.37890275e-09  4.56744287e-01  3.30973306e-09  4.56744287e-01  4.56744287e-01  3.20309842e-09  4.56744287e-01  1.54613791e-07  1.29706478e-07  6.40000000e-01 
 6.50000000e-01  3.37890275e-09  4.56744273e-01  3.30973301e-09  4.56744273e-01  4.56744273e-01  3.20309842e-09  4.56744273e-01  1.54613758e-07  1.29706315e-07  6.50000000e-01 
 6.60000000e-01  3.37890275e-09  4.56744265e-01  3.30973306e-09  4.56744265e-01  4.56744265e-01  3.20309842e-09  4.56744265e-01  1.54613743e-07  1.29706116e-07  6.60000000e-01 
 6.70000000e-01  3.37890275e-09  4.56744249e-01  3.30973306e-09  4.56744249e-01  4.56744249e-01  3.20309836e-09  4.56744249e-01  1.54613729e-07  1.29706130e-07  6.70000000e-01 
 6.80000000e-01  3.37890269e-09  4.56744269e-01  3.30973306e-09  4.56744269e-01  4.56744269e-01  3.20309836e-09  4.56744269e-01  1.54613759e-07  1.29706017e-07  6.80000000e-01 
 6.90000000e-01  3.37890269e-09  4.56744258e-01  3.30973306e-09  4.56744258e-01  4.56744258e-01  3.20309842e-09  4.56744258e-01  1.54613750e-07  1.29705960e-07  6.90000000e-01 
 7.00000000e-01  3.37890269e-09  4.56744270e-01  3.30973306e-09  4.56744270e-01  4.56744270e-01  3.20309836e-09  4.56744270e-01  1.54613765e-07  1.29705917e-07  7.00000000e-01 
 7.10000000e-01  3.37890275e-09  4.56744253e-01  3.30973300e-09  4.56744253e-01  4.56744253e-01  3.20309842e-09  4.56744253e-01  1.54613740e-07  1.29705704e-07  7.10000000e-01 
 7.20000000e-01  3.37890269e-09  4.56744240e-01  3.30973300e-09  4.56744240e-01  4.56744240e-01  3.20309842e-09  4.56744240e-01  1.54613719e-07  1.29705555e-07  7.20000000e-01 
 7.30000000e-01  3.37890269e-09  4.56744265e-01  3.30973306e-09  4.56744265e-01  4.56744265e-01  3.20309842e-09  4.56744265e-01  1.54613761e-07  1.29705604e-07  7.30000000e-01 
 7.40000000e-01  3.37890269e-09  4.56744273e-01  3.30973306e-09  4.56744273e-01  4.56744273e-01  3.20309836e-09  4.56744273e-01  1.54613773e-07  1.29705420e-07  7.40000000e-01 
 7.50000000e-01  3.37890269e-09  4.56744272e-01  3.30973301e-09  4.56744272e-01  4.56744272e-01  3.20309842e-09  4.56744272e-01  1.54613758e-07  1.29705342e-07  7.50000000e-01 
 7.60000000e-01  3.37890275e-09  4.56744271e-01  3.30973301e-09  4.56744271e-01  4.56744271e-01  3.20309842e-09  4.56744271e-01  1.54613775e-07  1.29705356e-07  7.60000000e-01 
 7.70000000e-01  3.37890275e-09  4.56744256e-01  3.30973300e-09  4.56744256e-01  4.56744256e-01  3.20309842e-09  4.56744256e-01  1.54613743e-07  1.29705192e-07  7.70000000e-01 
 7.80000000e-01  3.37890269e-09  4.56744264e-01  3.30973301e-09  4.56744264e-01  4.56744264e-01  3.20309836e-09  4.56744264e-01  1.54613762e-07  1.29705199e-07  7.80000000e-01 
 7.90000000e-01  3.37890269e-09  4.56744266e-01  3.30973301e-09  4.56744266e-01  4.56744266e-01  3.20309836e-09  4.56744266e-01  1.54613762e-07  1.29705057e-07  7.90000000e-01 
 8.00000000e-01  3.37890275e-09  4.56744280e-01  3.30973306e-09  4.56744280e-01  4.56744280e-01  3.20309836e-09  4.56744280e-01  1.54613798e-07  1.29704929e-07  8.00000000e-01 
 8.10000000e-01  3.37890269e-09  4.56744245e-01  3.30973306e-09  4.56744245e-01  4.56744245e-01  3.20309842e-09  4.56744245e-01  1.54613729e-07  1.29704688e-07  8.10000000e-01 
 8.20000000e-01  3.37890269e-09  4.56744275e-01  3.30973306e-09  4.56744275e-01  4.56744275e-01  3.20309836e-09  4.56744275e-01  1.54613774e-07  1.29704745e-07  8.20000000e-01 
 8.30000000e-01  3.37890270e-09  4.56744289e-01  3.30973306e-09  4.56744289e-01  4.56744289e-01  3.20309842e-09  4.56744289e-01  1.54613800e-07  1.29704794e-07  8.30000000e-01 
 8.40000000e-01  3.37890275e-09  4.56744286e-01  3.30973306e-09  4.56744286e-01  4.56744286e-01  3.20309842e-09  4.56744286e-01  1.54613778e-07  1.29704553e-07  8.40000000e-01 
 8.50000000e-01  3.37890275e-09  4.56744272e-01  3.30973301e-09  4.56744272e-01  4.56744272e-01  3.20309836e-09  4.56744272e-01  1.54613770e-07  1.29704446e-07  8.50000000e-01 
 8.60000000e-01  3.37890269e-09  4.56744273e-01  3.30973306e-09  4.56744273e-01  4.56744273e-01  3.20309842e-09  4.56744273e-01  1.54613754e-07  1.29704418e-07  8.60000000e-01 
 8.70000000e-01  3.37890269e-09  4.56744258e-01  3.30973306e-09  4.56744258e-01  4.56744258e-01  3.20309842e-09  4.56744258e-01  1.54613738e-07  1.29704318e-07  8.70000000e-01 
 8.80000000e-01  3.37890275e-09  4.56744264e-01  3.30973301e-09  4.56744264e-01  4.56744264e-01  3.20309842e-09  4.56744264e-01  1.54613757e-07  1.29704183e-07  8.80000000e-01 
 8.90000000e-01  3.37890275e-09  4.56744250e-01  3.30973306e-09  4.56744250e-01  4.56744250e-01  3.20309836e-09  4.56744250e-01  1.54613731e-07  1.29704141e-07  8.90000000e-01 
 9.00000000e-01  3.37890274e-09  4.56744239e-01  3.30973306e-09  4.56744239e-01  4.56744239e-01  3.20309842e-09  4.56744239e-01  1.54613705e-07  1.29703935e-07  9.00000000e-01 
 9.10000000e-01  3.37890274e-09  4.56744240e-01  3.30973300e-09  4.56744240e-01  4.56744240e-01  3.20309836e-09  4.56744240e-01  1.54613725e-07  1.29703807e-07  9.10000000e-01 
 9.20000000e-01  3.37890269e-09  4.56744257e-01  3.30973300e-09  4.56744257e-01  4.56744257e-01  3.20309836e-09  4.56744257e-01  1.54613737e-07  1.29703842e-07  9.20000000e-01 
 9.30000000e-01  3.37890275e-09  4.56744273e-01  3.30973301e-09  4.56744273e-01  4.56744273e-01  3.20309842e-09  4.56744273e-01  1.54613768e-07  1.29703807e-07  9.30000000e-01 
 9.40000000e-01  3.37890269e-09  4.56744261e-01  3.30973306e-09  4.56744261e-01  4.56744261e-01  3.20309836e-09  4.56744261e-01  1.54613757e-07  1.29703643e-07  9.40000000e-01 
 9.50000000e-01  3.37890269e-09  4.56744259e-01  3.30973300e-09  4.56744259e-01  4.56744259e-01  3.20309842e-09  4.56744259e-01  1.54613750e-07  1.29703537e-07  9.50000000e-01 
 9.60000000e-01  3.37890275e-09  4.56744274e-01  3.30973301e-09  4.56744274e-01  4.56744274e-01  3.20309842e-09  4.56744274e-01  1.54613766e-07  1.29703572e-07  9.60000000e-01 
 9.70000000e-01  3.37890269e-09  4.56744267e-01  3.30973306e-09  4.56744267e-01  4.56744267e-01  3.20309842e-09  4.56744267e-01  1.54613759e-07  1.29703317e-07  9.70000000e-01 
 9.80000000e-01  3.37890269e-09  4.56744261e-01  3.30973306e-09  4.56744261e-01  4.56744261e-01  3.20309842e-09  4.56744261e-01  1.54613756e-07  1.29703110e-07  9.80000000e-01 
 9.90000000e-01  3.37890275e-09  4.56744258e-01  3.30973300e-09  4.56744258e-01  4.56744258e-01  3.20309836e-09  4.56744258e-01  1.54613752e-07  1.29703125e-07  9.90000000e-01 
 1.00000000e+00  3.37890270e-09  4.56744281e-01  3.30973301e-09  4.56744281e-01  4.56744281e-01  3.20309842e-09  4.56744281e-01  1.54613784e-07  1.29703160e-07  1.00000000e+00 
 1.01000000e+00  3.37890269e-09  4.56744271e-01  3.30973301e-09  4.56744271e-01  4.56744271e-01  3.20309842e-09  4.56744271e-01  1.54613762e-07  1.29703004e-07  1.01000000e+00 
 1.02000000e+00  3.37890269e-09  4.56744264e-01  3.30973301e-09  4.56744264e-01  4.56744264e-01  3.20309842e-09  4.56744264e-01  1.54613753e-07  1.29702919e-07  1.02000000e+00 
 1.03000000e+00  3.37890275e-09  4.56744277e-01  3.30973301e-09  4.56744277e-01  4.56744277e-01  3.20309836e-09  4.56744277e-01  1.54613780e-07  1.29702777e-07  1.03000000e+00 
 1.04000000e+00  3.37890270e-09  4.56744287e-01  3.30973301e-09  4.56744287e-01  4.56744287e-01  3.20309842e-09  4.56744287e-01  1.54613791e-07  1.29702698e-07  1.04000000e+00 
 1.05000000e+00  3.37890275e-09  4.56744247e-01  3.30973306e-09  4.56744247e-01  4.56744247e-01  3.20309842e-09  4.56744247e-01  1.54613741e-07  1.29702556e-07  1.05000000e+00 
 1.06000000e+00  3.37890275e-09  4.56744261e-01  3.30973300e-09  4.56744261e-01  4.56744261e-01  3.20309842e-09  4.56744261e-01  1.54613753e-07  1.29702393e-07  1.06000000e+00 
 1.07000000e+00  3.37890270e-09  4.56744284e-01  3.30973306e-09  4.56744284e-01  4.56744284e-01  3.20309842e-09  4.56744284e-01  1.54613789e-07  1.29702329e-07  1.07000000e+00 
 1.08000000e+00  3.37890275e-09  4.56744259e-01  3.30973306e-09  4.56744259e-01  4.56744259e-01  3.20309842e-09  4.56744259e-01  1.54613752e-07  1.29702158e-07  1.08000000e+00 
 1.09000000e+00  3.37890269e-09  4.56744246e-01  3.30973300e-09  4.56744246e-01  4.56744246e-01  3.20309842e-09  4.56744246e-01  1.54613735e-07  1.29701967e-07  1.09000000e+00 
 1.10000000e+00  3.37890275e-09  4.56744244e-01  3.30973306e-09  4.56744244e-01  4.56744244e-01  3.20309842e-09  4.56744244e-01  1.54613726e-07  1.29702052e-07  1.10000000e+00 
