 v-sweep         v(b0)           v(b1)           v(b2)           v(b3)           v(b4)           v(b5)           v(b6)           i(vbias)        i(viout)        v(vout)        
 0.00000000e+00  4.58967951e-01  3.16919924e-09  3.12734986e-09  4.58967951e-01  3.71592938e-09  3.26809007e-09  3.15216597e-09  1.61914929e-07  1.31691828e-08  0.00000000e+00 
 1.00000000e-02  4.58967951e-01  3.16919928e-09  3.12734989e-09  4.58967951e-01  3.71592931e-09  3.26809005e-09  3.15216595e-09  1.61914911e-07  1.31688370e-08  1.00000000e-02 
 2.00000000e-02  4.58967950e-01  3.16919927e-09  3.12734989e-09  4.58967950e-01  3.71592930e-09  3.26809011e-09  3.15216595e-09  1.61914911e-07  1.31684079e-08  2.00000000e-02 
 3.00000000e-02  4.58967954e-01  3.16919922e-09  3.12734989e-09  4.58967954e-01  3.71592936e-09  3.26809005e-09  3.15216600e-09  1.61914919e-07  1.31681142e-08  3.00000000e-02 
 4.00000000e-02  4.58967940e-01  3.16919928e-09  3.12734989e-09  4.58967940e-01  3.71592936e-09  3.26809011e-09  3.15216600e-09  1.61914908e-07  1.31676692e-08  4.00000000e-02 
 5.00000000e-02  4.58967951e-01  3.16919921e-09  3.12734989e-09  4.58967951e-01  3.71592936e-09  3.26809005e-09  3.15216595e-09  1.61914926e-07  1.31674476e-08  5.00000000e-02 
 6.00000000e-02  4.58967934e-01  3.16919923e-09  3.12734989e-09  4.58967934e-01  3.71592936e-09  3.26809011e-09  3.15216594e-09  1.61914892e-07  1.31670421e-08  6.00000000e-02 
 7.00000000e-02  4.58967936e-01  3.16919928e-09  3.12734989e-09  4.58967936e-01  3.71592936e-09  3.26809005e-09  3.15216600e-09  1.61914884e-07  1.31668489e-08  7.00000000e-02 
 8.00000000e-02  4.58967945e-01  3.16919927e-09  3.12734989e-09  4.58967945e-01  3.71592936e-09  3.26809011e-09  3.15216595e-09  1.61914907e-07  1.31665505e-08  8.00000000e-02 
 9.00000000e-02  4.58967946e-01  3.16919927e-09  3.12734989e-09  4.58967946e-01  3.71592936e-09  3.26809011e-09  3.15216595e-09  1.61914918e-07  1.31662841e-08  9.00000000e-02 
 1.00000000e-01  4.58967948e-01  3.16919922e-09  3.12734989e-09  4.58967948e-01  3.71592936e-09  3.26809005e-09  3.15216595e-09  1.61914919e-07  1.31659874e-08  1.00000000e-01 
 1.10000000e-01  4.58967964e-01  3.16919929e-09  3.12734989e-09  4.58967964e-01  3.71592936e-09  3.26809011e-09  3.15216601e-09  1.61914939e-07  1.31657334e-08  1.10000000e-01 
 1.20000000e-01  4.58967941e-01  3.16919927e-09  3.12734989e-09  4.58967941e-01  3.71592930e-09  3.26809011e-09  3.15216600e-09  1.61914917e-07  1.31654998e-08  1.20000000e-01 
 1.30000000e-01  4.58967939e-01  3.16919927e-09  3.12734989e-09  4.58967939e-01  3.71592936e-09  3.26809011e-09  3.15216595e-09  1.61914903e-07  1.31652875e-08  1.30000000e-01 
 1.40000000e-01  4.58967941e-01  3.16919927e-09  3.12734989e-09  4.58967941e-01  3.71592930e-09  3.26809005e-09  3.15216595e-09  1.61914897e-07  1.31651205e-08  1.40000000e-01 
 1.50000000e-01  4.58967947e-01  3.16919927e-09  3.12734989e-09  4.58967947e-01  3.71592936e-09  3.26809005e-09  3.15216600e-09  1.61914925e-07  1.31648541e-08  1.50000000e-01 
 1.60000000e-01  4.58967950e-01  3.16919927e-09  3.12734989e-09  4.58967950e-01  3.71592936e-09  3.26809005e-09  3.15216600e-09  1.61914920e-07  1.31647653e-08  1.60000000e-01 
 1.70000000e-01  4.58967945e-01  3.16919927e-09  3.12734984e-09  4.58967945e-01  3.71592936e-09  3.26809011e-09  3.15216600e-09  1.61914917e-07  1.31645752e-08  1.70000000e-01 
 1.80000000e-01  4.58967954e-01  3.16919927e-09  3.12734989e-09  4.58967954e-01  3.71592936e-09  3.26809005e-09  3.15216600e-09  1.61914921e-07  1.31644491e-08  1.80000000e-01 
 1.90000000e-01  4.58967946e-01  3.16919927e-09  3.12734989e-09  4.58967946e-01  3.71592936e-09  3.26809005e-09  3.15216595e-09  1.61914914e-07  1.31642413e-08  1.90000000e-01 
 2.00000000e-01  4.58967942e-01  3.16919922e-09  3.12734989e-09  4.58967942e-01  3.71592930e-09  3.26809011e-09  3.15216600e-09  1.61914915e-07  1.31640796e-08  2.00000000e-01 
 2.10000000e-01  4.58967946e-01  3.16919923e-09  3.12734989e-09  4.58967946e-01  3.71592936e-09  3.26809005e-09  3.15216600e-09  1.61914917e-07  1.31639109e-08  2.10000000e-01 
 2.20000000e-01  4.58967965e-01  3.16919928e-09  3.12734989e-09  4.58967965e-01  3.71592931e-09  3.26809005e-09  3.15216595e-09  1.61914949e-07  1.31638256e-08  2.20000000e-01 
 2.30000000e-01  4.58967938e-01  3.16919927e-09  3.12734989e-09  4.58967938e-01  3.71592936e-09  3.26809005e-09  3.15216600e-09  1.61914910e-07  1.31636888e-08  2.30000000e-01 
 2.40000000e-01  4.58967947e-01  3.16919927e-09  3.12734989e-09  4.58967947e-01  3.71592936e-09  3.26809011e-09  3.15216600e-09  1.61914907e-07  1.31635076e-08  2.40000000e-01 
 2.50000000e-01  4.58967945e-01  3.16919927e-09  3.12734989e-09  4.58967945e-01  3.71592936e-09  3.26809011e-09  3.15216595e-09  1.61914916e-07  1.31633389e-08  2.50000000e-01 
 2.60000000e-01  4.58967952e-01  3.16919922e-09  3.12734989e-09  4.58967952e-01  3.71592936e-09  3.26809005e-09  3.15216595e-09  1.61914937e-07  1.31632731e-08  2.60000000e-01 
 2.70000000e-01  4.58967933e-01  3.16919928e-09  3.12734989e-09  4.58967933e-01  3.71592936e-09  3.26809005e-09  3.15216594e-09  1.61914886e-07  1.31633087e-08  2.70000000e-01 
 2.80000000e-01  4.58967939e-01  3.16919927e-09  3.12734989e-09  4.58967940e-01  3.71592930e-09  3.26809011e-09  3.15216595e-09  1.61914887e-07  1.31630546e-08  2.80000000e-01 
 2.90000000e-01  4.58967953e-01  3.16919927e-09  3.12734989e-09  4.58967953e-01  3.71592936e-09  3.26809005e-09  3.15216600e-09  1.61914923e-07  1.31629854e-08  2.90000000e-01 
 3.00000000e-01  4.58967933e-01  3.16919927e-09  3.12734989e-09  4.58967933e-01  3.71592930e-09  3.26809011e-09  3.15216594e-09  1.61914900e-07  1.31628468e-08  3.00000000e-01 
 3.10000000e-01  4.58967959e-01  3.16919922e-09  3.12734989e-09  4.58967960e-01  3.71592936e-09  3.26809005e-09  3.15216595e-09  1.61914943e-07  1.31627296e-08  3.10000000e-01 
 3.20000000e-01  4.58967937e-01  3.16919923e-09  3.12734989e-09  4.58967937e-01  3.71592936e-09  3.26809011e-09  3.15216595e-09  1.61914911e-07  1.31626479e-08  3.20000000e-01 
 3.30000000e-01  4.58967945e-01  3.16919922e-09  3.12734989e-09  4.58967945e-01  3.71592936e-09  3.26809011e-09  3.15216600e-09  1.61914912e-07  1.31626301e-08  3.30000000e-01 
 3.40000000e-01  4.58967937e-01  3.16919928e-09  3.12734989e-09  4.58967938e-01  3.71592936e-09  3.26809011e-09  3.15216595e-09  1.61914901e-07  1.31625946e-08  3.40000000e-01 
 3.50000000e-01  4.58967942e-01  3.16919927e-09  3.12734989e-09  4.58967942e-01  3.71592936e-09  3.26809005e-09  3.15216600e-09  1.61914906e-07  1.31624134e-08  3.50000000e-01 
 3.60000000e-01  4.58967948e-01  3.16919927e-09  3.12734989e-09  4.58967948e-01  3.71592936e-09  3.26809005e-09  3.15216595e-09  1.61914921e-07  1.31623246e-08  3.60000000e-01 
 3.70000000e-01  4.58967941e-01  3.16919927e-09  3.12734989e-09  4.58967941e-01  3.71592930e-09  3.26809011e-09  3.15216595e-09  1.61914904e-07  1.31622890e-08  3.70000000e-01 
 3.80000000e-01  4.58967946e-01  3.16919927e-09  3.12734989e-09  4.58967946e-01  3.71592936e-09  3.26809011e-09  3.15216595e-09  1.61914921e-07  1.31622393e-08  3.80000000e-01 
 3.90000000e-01  4.58967941e-01  3.16919922e-09  3.12734989e-09  4.58967941e-01  3.71592930e-09  3.26809005e-09  3.15216600e-09  1.61914897e-07  1.31621434e-08  3.90000000e-01 
 4.00000000e-01  4.58967927e-01  3.16919923e-09  3.12734989e-09  4.58967927e-01  3.71592930e-09  3.26809010e-09  3.15216600e-09  1.61914885e-07  1.31620297e-08  4.00000000e-01 
 4.10000000e-01  4.58967942e-01  3.16919928e-09  3.12734989e-09  4.58967942e-01  3.71592930e-09  3.26809011e-09  3.15216600e-09  1.61914907e-07  1.31619515e-08  4.10000000e-01 
 4.20000000e-01  4.58967937e-01  3.16919927e-09  3.12734989e-09  4.58967937e-01  3.71592936e-09  3.26809005e-09  3.15216595e-09  1.61914904e-07  1.31620048e-08  4.20000000e-01 
 4.30000000e-01  4.58967924e-01  3.16919927e-09  3.12734989e-09  4.58967924e-01  3.71592936e-09  3.26809005e-09  3.15216600e-09  1.61914881e-07  1.31618769e-08  4.30000000e-01 
 4.40000000e-01  4.58967931e-01  3.16919921e-09  3.12734989e-09  4.58967931e-01  3.71592930e-09  3.26809010e-09  3.15216600e-09  1.61914893e-07  1.31617668e-08  4.40000000e-01 
 4.50000000e-01  4.58967950e-01  3.16919929e-09  3.12734989e-09  4.58967950e-01  3.71592936e-09  3.26809011e-09  3.15216600e-09  1.61914931e-07  1.31616922e-08  4.50000000e-01 
 4.60000000e-01  4.58967924e-01  3.16919926e-09  3.12734989e-09  4.58967924e-01  3.71592930e-09  3.26809005e-09  3.15216594e-09  1.61914882e-07  1.31616673e-08  4.60000000e-01 
 4.70000000e-01  4.58967946e-01  3.16919927e-09  3.12734989e-09  4.58967946e-01  3.71592936e-09  3.26809005e-09  3.15216595e-09  1.61914909e-07  1.31616851e-08  4.70000000e-01 
 4.80000000e-01  4.58967949e-01  3.16919927e-09  3.12734989e-09  4.58967949e-01  3.71592930e-09  3.26809005e-09  3.15216600e-09  1.61914925e-07  1.31614755e-08  4.80000000e-01 
 4.90000000e-01  4.58967955e-01  3.16919927e-09  3.12734989e-09  4.58967955e-01  3.71592931e-09  3.26809005e-09  3.15216595e-09  1.61914927e-07  1.31614897e-08  4.90000000e-01 
 5.00000000e-01  4.58967962e-01  3.16919922e-09  3.12734989e-09  4.58967962e-01  3.71592936e-09  3.26809005e-09  3.15216601e-09  1.61914935e-07  1.31614435e-08  5.00000000e-01 
 5.10000000e-01  4.58967911e-01  3.16919922e-09  3.12734989e-09  4.58967911e-01  3.71592930e-09  3.26809010e-09  3.15216594e-09  1.61914866e-07  1.31613440e-08  5.10000000e-01 
 5.20000000e-01  4.58967943e-01  3.16919922e-09  3.12734989e-09  4.58967943e-01  3.71592936e-09  3.26809011e-09  3.15216600e-09  1.61914918e-07  1.31613156e-08  5.20000000e-01 
 5.30000000e-01  4.58967933e-01  3.16919922e-09  3.12734989e-09  4.58967933e-01  3.71592930e-09  3.26809005e-09  3.15216600e-09  1.61914903e-07  1.31611380e-08  5.30000000e-01 
 5.40000000e-01  4.58967934e-01  3.16919928e-09  3.12734989e-09  4.58967934e-01  3.71592930e-09  3.26809011e-09  3.15216600e-09  1.61914894e-07  1.31611948e-08  5.40000000e-01 
 5.50000000e-01  4.58967946e-01  3.16919927e-09  3.12734989e-09  4.58967946e-01  3.71592930e-09  3.26809005e-09  3.15216600e-09  1.61914908e-07  1.31611557e-08  5.50000000e-01 
 5.60000000e-01  4.58967946e-01  3.16919922e-09  3.12734989e-09  4.58967946e-01  3.71592936e-09  3.26809011e-09  3.15216595e-09  1.61914918e-07  1.31610136e-08  5.60000000e-01 
 5.70000000e-01  4.58967938e-01  3.16919928e-09  3.12734989e-09  4.58967938e-01  3.71592930e-09  3.26809011e-09  3.15216595e-09  1.61914895e-07  1.31609781e-08  5.70000000e-01 
 5.80000000e-01  4.58967945e-01  3.16919927e-09  3.12734984e-09  4.58967945e-01  3.71592930e-09  3.26809005e-09  3.15216600e-09  1.61914913e-07  1.31609426e-08  5.80000000e-01 
 5.90000000e-01  4.58967952e-01  3.16919922e-09  3.12734989e-09  4.58967952e-01  3.71592931e-09  3.26809011e-09  3.15216600e-09  1.61914919e-07  1.31609141e-08  5.90000000e-01 
 6.00000000e-01  4.58967968e-01  3.16919929e-09  3.12734990e-09  4.58967968e-01  3.71592936e-09  3.26809011e-09  3.15216595e-09  1.61914962e-07  1.31608715e-08  6.00000000e-01 
 6.10000000e-01  4.58967949e-01  3.16919927e-09  3.12734989e-09  4.58967949e-01  3.71592936e-09  3.26809005e-09  3.15216600e-09  1.61914915e-07  1.31607649e-08  6.10000000e-01 
 6.20000000e-01  4.58967943e-01  3.16919927e-09  3.12734989e-09  4.58967943e-01  3.71592930e-09  3.26809005e-09  3.15216600e-09  1.61914909e-07  1.31607507e-08  6.20000000e-01 
 6.30000000e-01  4.58967938e-01  3.16919927e-09  3.12734989e-09  4.58967938e-01  3.71592930e-09  3.26809011e-09  3.15216595e-09  1.61914901e-07  1.31606086e-08  6.30000000e-01 
 6.40000000e-01  4.58967928e-01  3.16919921e-09  3.12734989e-09  4.58967928e-01  3.71592936e-09  3.26809010e-09  3.15216594e-09  1.61914891e-07  1.31606583e-08  6.40000000e-01 
 6.50000000e-01  4.58967931e-01  3.16919923e-09  3.12734989e-09  4.58967931e-01  3.71592936e-09  3.26809010e-09  3.15216594e-09  1.61914894e-07  1.31606299e-08  6.50000000e-01 
 6.60000000e-01  4.58967923e-01  3.16919928e-09  3.12734989e-09  4.58967923e-01  3.71592930e-09  3.26809010e-09  3.15216594e-09  1.61914888e-07  1.31605375e-08  6.60000000e-01 
 6.70000000e-01  4.58967945e-01  3.16919927e-09  3.12734989e-09  4.58967945e-01  3.71592930e-09  3.26809005e-09  3.15216600e-09  1.61914915e-07  1.31605020e-08  6.70000000e-01 
 6.80000000e-01  4.58967942e-01  3.16919927e-09  3.12734984e-09  4.58967942e-01  3.71592936e-09  3.26809011e-09  3.15216595e-09  1.61914912e-07  1.31604310e-08  6.80000000e-01 
 6.90000000e-01  4.58967938e-01  3.16919927e-09  3.12734989e-09  4.58967938e-01  3.71592936e-09  3.26809005e-09  3.15216600e-09  1.61914896e-07  1.31604736e-08  6.90000000e-01 
 7.00000000e-01  4.58967948e-01  3.16919922e-09  3.12734989e-09  4.58967948e-01  3.71592936e-09  3.26809005e-09  3.15216600e-09  1.61914919e-07  1.31602960e-08  7.00000000e-01 
 7.10000000e-01  4.58967943e-01  3.16919928e-09  3.12734989e-09  4.58967943e-01  3.71592930e-09  3.26809011e-09  3.15216600e-09  1.61914902e-07  1.31603954e-08  7.10000000e-01 
 7.20000000e-01  4.58967948e-01  3.16919927e-09  3.12734984e-09  4.58967948e-01  3.71592936e-09  3.26809011e-09  3.15216595e-09  1.61914915e-07  1.31602178e-08  7.20000000e-01 
 7.30000000e-01  4.58967941e-01  3.16919927e-09  3.12734989e-09  4.58967942e-01  3.71592930e-09  3.26809005e-09  3.15216595e-09  1.61914915e-07  1.31601752e-08  7.30000000e-01 
 7.40000000e-01  4.58967935e-01  3.16919927e-09  3.12734989e-09  4.58967935e-01  3.71592930e-09  3.26809011e-09  3.15216595e-09  1.61914898e-07  1.31601610e-08  7.40000000e-01 
 7.50000000e-01  4.58967939e-01  3.16919927e-09  3.12734989e-09  4.58967939e-01  3.71592936e-09  3.26809011e-09  3.15216600e-09  1.61914907e-07  1.31601041e-08  7.50000000e-01 
 7.60000000e-01  4.58967938e-01  3.16919922e-09  3.12734989e-09  4.58967938e-01  3.71592936e-09  3.26809005e-09  3.15216595e-09  1.61914898e-07  1.31600757e-08  7.60000000e-01 
 7.70000000e-01  4.58967928e-01  3.16919928e-09  3.12734989e-09  4.58967928e-01  3.71592930e-09  3.26809010e-09  3.15216594e-09  1.61914906e-07  1.31600544e-08  7.70000000e-01 
 7.80000000e-01  4.58967953e-01  3.16919921e-09  3.12734989e-09  4.58967953e-01  3.71592936e-09  3.26809005e-09  3.15216600e-09  1.61914932e-07  1.31599336e-08  7.80000000e-01 
 7.90000000e-01  4.58967947e-01  3.16919923e-09  3.12734989e-09  4.58967947e-01  3.71592930e-09  3.26809011e-09  3.15216595e-09  1.61914902e-07  1.31600189e-08  7.90000000e-01 
 8.00000000e-01  4.58967939e-01  3.16919922e-09  3.12734989e-09  4.58967939e-01  3.71592936e-09  3.26809011e-09  3.15216595e-09  1.61914888e-07  1.31597133e-08  8.00000000e-01 
 8.10000000e-01  4.58967922e-01  3.16919928e-09  3.12734989e-09  4.58967922e-01  3.71592936e-09  3.26809010e-09  3.15216594e-09  1.61914878e-07  1.31597062e-08  8.10000000e-01 
 8.20000000e-01  4.58967970e-01  3.16919927e-09  3.12734990e-09  4.58967970e-01  3.71592936e-09  3.26809005e-09  3.15216601e-09  1.61914957e-07  1.31596707e-08  8.20000000e-01 
 8.30000000e-01  4.58967940e-01  3.16919927e-09  3.12734989e-09  4.58967940e-01  3.71592930e-09  3.26809011e-09  3.15216600e-09  1.61914894e-07  1.31597346e-08  8.30000000e-01 
 8.40000000e-01  4.58967946e-01  3.16919927e-09  3.12734989e-09  4.58967946e-01  3.71592930e-09  3.26809005e-09  3.15216600e-09  1.61914904e-07  1.31595712e-08  8.40000000e-01 
 8.50000000e-01  4.58967937e-01  3.16919927e-09  3.12734989e-09  4.58967937e-01  3.71592936e-09  3.26809011e-09  3.15216600e-09  1.61914894e-07  1.31595854e-08  8.50000000e-01 
 8.60000000e-01  4.58967952e-01  3.16919922e-09  3.12734989e-09  4.58967952e-01  3.71592931e-09  3.26809005e-09  3.15216600e-09  1.61914935e-07  1.31594717e-08  8.60000000e-01 
 8.70000000e-01  4.58967945e-01  3.16919923e-09  3.12734989e-09  4.58967945e-01  3.71592930e-09  3.26809011e-09  3.15216595e-09  1.61914922e-07  1.31595144e-08  8.70000000e-01 
 8.80000000e-01  4.58967939e-01  3.16919922e-09  3.12734989e-09  4.58967939e-01  3.71592930e-09  3.26809005e-09  3.15216595e-09  1.61914908e-07  1.31594859e-08  8.80000000e-01 
 8.90000000e-01  4.58967947e-01  3.16919928e-09  3.12734989e-09  4.58967947e-01  3.71592936e-09  3.26809011e-09  3.15216600e-09  1.61914910e-07  1.31595144e-08  8.90000000e-01 
 9.00000000e-01  4.58967955e-01  3.16919927e-09  3.12734989e-09  4.58967955e-01  3.71592936e-09  3.26809005e-09  3.15216595e-09  1.61914924e-07  1.31593580e-08  9.00000000e-01 
 9.10000000e-01  4.58967942e-01  3.16919922e-09  3.12734989e-09  4.58967942e-01  3.71592936e-09  3.26809005e-09  3.15216600e-09  1.61914906e-07  1.31592799e-08  9.10000000e-01 
 9.20000000e-01  4.58967937e-01  3.16919928e-09  3.12734989e-09  4.58967937e-01  3.71592930e-09  3.26809011e-09  3.15216600e-09  1.61914910e-07  1.31592515e-08  9.20000000e-01 
 9.30000000e-01  4.58967930e-01  3.16919921e-09  3.12734989e-09  4.58967930e-01  3.71592930e-09  3.26809005e-09  3.15216600e-09  1.61914888e-07  1.31591733e-08  9.30000000e-01 
 9.40000000e-01  4.58967938e-01  3.16919923e-09  3.12734989e-09  4.58967938e-01  3.71592930e-09  3.26809005e-09  3.15216600e-09  1.61914905e-07  1.31591591e-08  9.40000000e-01 
 9.50000000e-01  4.58967931e-01  3.16919922e-09  3.12734989e-09  4.58967931e-01  3.71592936e-09  3.26809005e-09  3.15216594e-09  1.61914895e-07  1.31591378e-08  9.50000000e-01 
 9.60000000e-01  4.58967943e-01  3.16919922e-09  3.12734989e-09  4.58967943e-01  3.71592936e-09  3.26809005e-09  3.15216600e-09  1.61914909e-07  1.31589886e-08  9.60000000e-01 
 9.70000000e-01  4.58967935e-01  3.16919922e-09  3.12734989e-09  4.58967935e-01  3.71592936e-09  3.26809011e-09  3.15216595e-09  1.61914893e-07  1.31589388e-08  9.70000000e-01 
 9.80000000e-01  4.58967955e-01  3.16919928e-09  3.12734989e-09  4.58967955e-01  3.71592931e-09  3.26809011e-09  3.15216600e-09  1.61914928e-07  1.31589672e-08  9.80000000e-01 
 9.90000000e-01  4.58967952e-01  3.16919927e-09  3.12734989e-09  4.58967952e-01  3.71592931e-09  3.26809011e-09  3.15216595e-09  1.61914915e-07  1.31588749e-08  9.90000000e-01 
 1.00000000e+00  4.58967951e-01  3.16919927e-09  3.12734989e-09  4.58967951e-01  3.71592931e-09  3.26809011e-09  3.15216595e-09  1.61914922e-07  1.31588394e-08  1.00000000e+00 
 1.01000000e+00  4.58967958e-01  3.16919927e-09  3.12734989e-09  4.58967958e-01  3.71592936e-09  3.26809011e-09  3.15216595e-09  1.61914929e-07  1.31588536e-08  1.01000000e+00 
 1.02000000e+00  4.58967946e-01  3.16919927e-09  3.12734989e-09  4.58967946e-01  3.71592936e-09  3.26809005e-09  3.15216600e-09  1.61914924e-07  1.31586830e-08  1.02000000e+00 
 1.03000000e+00  4.58967934e-01  3.16919927e-09  3.12734989e-09  4.58967934e-01  3.71592930e-09  3.26809005e-09  3.15216600e-09  1.61914894e-07  1.31586759e-08  1.03000000e+00 
 1.04000000e+00  4.58967944e-01  3.16919927e-09  3.12734989e-09  4.58967944e-01  3.71592930e-09  3.26809011e-09  3.15216600e-09  1.61914897e-07  1.31587115e-08  1.04000000e+00 
 1.05000000e+00  4.58967956e-01  3.16919922e-09  3.12734989e-09  4.58967956e-01  3.71592936e-09  3.26809011e-09  3.15216600e-09  1.61914933e-07  1.31585836e-08  1.05000000e+00 
 1.06000000e+00  4.58967946e-01  3.16919923e-09  3.12734989e-09  4.58967946e-01  3.71592936e-09  3.26809005e-09  3.15216595e-09  1.61914920e-07  1.31585480e-08  1.06000000e+00 
 1.07000000e+00  4.58967943e-01  3.16919922e-09  3.12734989e-09  4.58967943e-01  3.71592936e-09  3.26809005e-09  3.15216600e-09  1.61914914e-07  1.31584841e-08  1.07000000e+00 
 1.08000000e+00  4.58967940e-01  3.16919922e-09  3.12734989e-09  4.58967940e-01  3.71592936e-09  3.26809005e-09  3.15216600e-09  1.61914904e-07  1.31583420e-08  1.08000000e+00 
 1.09000000e+00  4.58967953e-01  3.16919928e-09  3.12734989e-09  4.58967953e-01  3.71592931e-09  3.26809011e-09  3.15216600e-09  1.61914933e-07  1.31583207e-08  1.09000000e+00 
 1.10000000e+00  4.58967941e-01  3.16919927e-09  3.12734989e-09  4.58967941e-01  3.71592936e-09  3.26809011e-09  3.15216595e-09  1.61914907e-07  1.31581857e-08  1.10000000e+00 
