 v-sweep         v(b0)           v(b1)           v(b2)           v(b3)           v(b4)           v(b5)           v(b6)           i(vbias)        i(viout)        v(vout)        
 0.00000000e+00  3.24666847e-09  4.57839864e-01  4.57839864e-01  3.31698444e-09  3.43412623e-09  3.38154132e-09  4.57839863e-01  1.58547057e-07  1.08330447e-07  0.00000000e+00 
 1.00000000e-02  3.24666851e-09  4.57839862e-01  4.57839863e-01  3.31698447e-09  3.43412621e-09  3.38154130e-09  4.57839862e-01  1.58547049e-07  1.08330098e-07  1.00000000e-02 
 2.00000000e-02  3.24666850e-09  4.57839837e-01  4.57839838e-01  3.31698447e-09  3.43412615e-09  3.38154130e-09  4.57839837e-01  1.58547001e-07  1.08329527e-07  2.00000000e-02 
 3.00000000e-02  3.24666851e-09  4.57839870e-01  4.57839870e-01  3.31698448e-09  3.43412621e-09  3.38154130e-09  4.57839869e-01  1.58547062e-07  1.08329290e-07  3.00000000e-02 
 4.00000000e-02  3.24666850e-09  4.57839842e-01  4.57839842e-01  3.31698447e-09  3.43412621e-09  3.38154130e-09  4.57839842e-01  1.58547010e-07  1.08328733e-07  4.00000000e-02 
 5.00000000e-02  3.24666851e-09  4.57839850e-01  4.57839851e-01  3.31698447e-09  3.43412621e-09  3.38154130e-09  4.57839850e-01  1.58547046e-07  1.08328407e-07  5.00000000e-02 
 6.00000000e-02  3.24666851e-09  4.57839849e-01  4.57839850e-01  3.31698441e-09  3.43412621e-09  3.38154130e-09  4.57839849e-01  1.58547030e-07  1.08328144e-07  6.00000000e-02 
 7.00000000e-02  3.24666851e-09  4.57839851e-01  4.57839851e-01  3.31698447e-09  3.43412621e-09  3.38154130e-09  4.57839851e-01  1.58547038e-07  1.08327693e-07  7.00000000e-02 
 8.00000000e-02  3.24666851e-09  4.57839860e-01  4.57839860e-01  3.31698447e-09  3.43412621e-09  3.38154130e-09  4.57839860e-01  1.58547047e-07  1.08327402e-07  8.00000000e-02 
 9.00000000e-02  3.24666851e-09  4.57839852e-01  4.57839852e-01  3.31698447e-09  3.43412615e-09  3.38154130e-09  4.57839852e-01  1.58547028e-07  1.08327253e-07  9.00000000e-02 
 1.00000000e-01  3.24666851e-09  4.57839884e-01  4.57839884e-01  3.31698442e-09  3.43412616e-09  3.38154130e-09  4.57839884e-01  1.58547077e-07  1.08327038e-07  1.00000000e-01 
 1.10000000e-01  3.24666850e-09  4.57839844e-01  4.57839844e-01  3.31698447e-09  3.43412621e-09  3.38154130e-09  4.57839844e-01  1.58547015e-07  1.08326558e-07  1.10000000e-01 
 1.20000000e-01  3.24666850e-09  4.57839831e-01  4.57839832e-01  3.31698447e-09  3.43412621e-09  3.38154130e-09  4.57839831e-01  1.58547002e-07  1.08326408e-07  1.20000000e-01 
 1.30000000e-01  3.24666850e-09  4.57839848e-01  4.57839848e-01  3.31698447e-09  3.43412615e-09  3.38154130e-09  4.57839848e-01  1.58547031e-07  1.08326132e-07  1.30000000e-01 
 1.40000000e-01  3.24666851e-09  4.57839851e-01  4.57839851e-01  3.31698447e-09  3.43412615e-09  3.38154130e-09  4.57839851e-01  1.58547031e-07  1.08325874e-07  1.40000000e-01 
 1.50000000e-01  3.24666851e-09  4.57839852e-01  4.57839852e-01  3.31698447e-09  3.43412615e-09  3.38154130e-09  4.57839852e-01  1.58547031e-07  1.08325834e-07  1.50000000e-01 
 1.60000000e-01  3.24666850e-09  4.57839833e-01  4.57839833e-01  3.31698441e-09  3.43412621e-09  3.38154130e-09  4.57839833e-01  1.58547001e-07  1.08325452e-07  1.60000000e-01 
 1.70000000e-01  3.24666851e-09  4.57839854e-01  4.57839854e-01  3.31698447e-09  3.43412621e-09  3.38154130e-09  4.57839854e-01  1.58547058e-07  1.08325334e-07  1.70000000e-01 
 1.80000000e-01  3.24666850e-09  4.57839825e-01  4.57839825e-01  3.31698441e-09  3.43412615e-09  3.38154130e-09  4.57839825e-01  1.58546992e-07  1.08325120e-07  1.80000000e-01 
 1.90000000e-01  3.24666851e-09  4.57839876e-01  4.57839876e-01  3.31698442e-09  3.43412621e-09  3.38154130e-09  4.57839876e-01  1.58547057e-07  1.08324954e-07  1.90000000e-01 
 2.00000000e-01  3.24666851e-09  4.57839849e-01  4.57839849e-01  3.31698447e-09  3.43412621e-09  3.38154130e-09  4.57839849e-01  1.58547027e-07  1.08324844e-07  2.00000000e-01 
 2.10000000e-01  3.24666850e-09  4.57839829e-01  4.57839829e-01  3.31698447e-09  3.43412621e-09  3.38154130e-09  4.57839829e-01  1.58547010e-07  1.08324564e-07  2.10000000e-01 
 2.20000000e-01  3.24666851e-09  4.57839855e-01  4.57839855e-01  3.31698442e-09  3.43412621e-09  3.38154130e-09  4.57839855e-01  1.58547047e-07  1.08324500e-07  2.20000000e-01 
 2.30000000e-01  3.24666851e-09  4.57839855e-01  4.57839855e-01  3.31698447e-09  3.43412615e-09  3.38154130e-09  4.57839855e-01  1.58547027e-07  1.08324118e-07  2.30000000e-01 
 2.40000000e-01  3.24666851e-09  4.57839863e-01  4.57839864e-01  3.31698442e-09  3.43412621e-09  3.38154130e-09  4.57839863e-01  1.58547052e-07  1.08324112e-07  2.40000000e-01 
 2.50000000e-01  3.24666850e-09  4.57839835e-01  4.57839835e-01  3.31698447e-09  3.43412615e-09  3.38154130e-09  4.57839834e-01  1.58547003e-07  1.08323867e-07  2.50000000e-01 
 2.60000000e-01  3.24666851e-09  4.57839854e-01  4.57839854e-01  3.31698442e-09  3.43412621e-09  3.38154130e-09  4.57839854e-01  1.58547040e-07  1.08323929e-07  2.60000000e-01 
 2.70000000e-01  3.24666850e-09  4.57839827e-01  4.57839827e-01  3.31698447e-09  3.43412621e-09  3.38154130e-09  4.57839827e-01  1.58546998e-07  1.08323649e-07  2.70000000e-01 
 2.80000000e-01  3.24666850e-09  4.57839822e-01  4.57839822e-01  3.31698447e-09  3.43412615e-09  3.38154130e-09  4.57839822e-01  1.58546990e-07  1.08323606e-07  2.80000000e-01 
 2.90000000e-01  3.24666850e-09  4.57839843e-01  4.57839843e-01  3.31698447e-09  3.43412615e-09  3.38154130e-09  4.57839843e-01  1.58547035e-07  1.08323416e-07  2.90000000e-01 
 3.00000000e-01  3.24666850e-09  4.57839830e-01  4.57839830e-01  3.31698447e-09  3.43412615e-09  3.38154130e-09  4.57839830e-01  1.58546993e-07  1.08323249e-07  3.00000000e-01 
 3.10000000e-01  3.24666850e-09  4.57839848e-01  4.57839848e-01  3.31698447e-09  3.43412621e-09  3.38154130e-09  4.57839848e-01  1.58547035e-07  1.08323199e-07  3.10000000e-01 
 3.20000000e-01  3.24666850e-09  4.57839835e-01  4.57839836e-01  3.31698441e-09  3.43412615e-09  3.38154130e-09  4.57839835e-01  1.58547004e-07  1.08322940e-07  3.20000000e-01 
 3.30000000e-01  3.24666850e-09  4.57839837e-01  4.57839837e-01  3.31698447e-09  3.43412615e-09  3.38154130e-09  4.57839837e-01  1.58547016e-07  1.08322944e-07  3.30000000e-01 
 3.40000000e-01  3.24666850e-09  4.57839831e-01  4.57839831e-01  3.31698441e-09  3.43412621e-09  3.38154130e-09  4.57839831e-01  1.58547005e-07  1.08322798e-07  3.40000000e-01 
 3.50000000e-01  3.24666850e-09  4.57839841e-01  4.57839841e-01  3.31698441e-09  3.43412615e-09  3.38154130e-09  4.57839841e-01  1.58547020e-07  1.08322677e-07  3.50000000e-01 
 3.60000000e-01  3.24666856e-09  4.57839852e-01  4.57839852e-01  3.31698447e-09  3.43412621e-09  3.38154130e-09  4.57839852e-01  1.58547034e-07  1.08322684e-07  3.60000000e-01 
 3.70000000e-01  3.24666850e-09  4.57839828e-01  4.57839828e-01  3.31698447e-09  3.43412621e-09  3.38154130e-09  4.57839828e-01  1.58546994e-07  1.08322443e-07  3.70000000e-01 
 3.80000000e-01  3.24666851e-09  4.57839878e-01  4.57839878e-01  3.31698448e-09  3.43412621e-09  3.38154130e-09  4.57839877e-01  1.58547070e-07  1.08322364e-07  3.80000000e-01 
 3.90000000e-01  3.24666850e-09  4.57839837e-01  4.57839837e-01  3.31698447e-09  3.43412621e-09  3.38154130e-09  4.57839837e-01  1.58547016e-07  1.08322229e-07  3.90000000e-01 
 4.00000000e-01  3.24666851e-09  4.57839877e-01  4.57839877e-01  3.31698442e-09  3.43412621e-09  3.38154130e-09  4.57839877e-01  1.58547064e-07  1.08322322e-07  4.00000000e-01 
 4.10000000e-01  3.24666850e-09  4.57839839e-01  4.57839840e-01  3.31698441e-09  3.43412621e-09  3.38154130e-09  4.57839839e-01  1.58547006e-07  1.08322055e-07  4.10000000e-01 
 4.20000000e-01  3.24666850e-09  4.57839845e-01  4.57839845e-01  3.31698447e-09  3.43412621e-09  3.38154130e-09  4.57839845e-01  1.58547014e-07  1.08321927e-07  4.20000000e-01 
 4.30000000e-01  3.24666851e-09  4.57839877e-01  4.57839878e-01  3.31698448e-09  3.43412621e-09  3.38154130e-09  4.57839877e-01  1.58547065e-07  1.08321988e-07  4.30000000e-01 
 4.40000000e-01  3.24666851e-09  4.57839855e-01  4.57839855e-01  3.31698447e-09  3.43412621e-09  3.38154130e-09  4.57839855e-01  1.58547022e-07  1.08321821e-07  4.40000000e-01 
 4.50000000e-01  3.24666851e-09  4.57839870e-01  4.57839870e-01  3.31698442e-09  3.43412621e-09  3.38154130e-09  4.57839870e-01  1.58547064e-07  1.08321824e-07  4.50000000e-01 
 4.60000000e-01  3.24666850e-09  4.57839840e-01  4.57839840e-01  3.31698441e-09  3.43412621e-09  3.38154130e-09  4.57839840e-01  1.58547003e-07  1.08321650e-07  4.60000000e-01 
 4.70000000e-01  3.24666850e-09  4.57839845e-01  4.57839845e-01  3.31698447e-09  3.43412615e-09  3.38154130e-09  4.57839845e-01  1.58547027e-07  1.08321434e-07  4.70000000e-01 
 4.80000000e-01  3.24666851e-09  4.57839851e-01  4.57839851e-01  3.31698447e-09  3.43412615e-09  3.38154130e-09  4.57839851e-01  1.58547037e-07  1.08321515e-07  4.80000000e-01 
 4.90000000e-01  3.24666851e-09  4.57839853e-01  4.57839853e-01  3.31698447e-09  3.43412621e-09  3.38154130e-09  4.57839853e-01  1.58547044e-07  1.08321426e-07  4.90000000e-01 
 5.00000000e-01  3.24666851e-09  4.57839856e-01  4.57839856e-01  3.31698447e-09  3.43412621e-09  3.38154130e-09  4.57839856e-01  1.58547049e-07  1.08321405e-07  5.00000000e-01 
 5.10000000e-01  3.24666850e-09  4.57839843e-01  4.57839843e-01  3.31698447e-09  3.43412621e-09  3.38154130e-09  4.57839843e-01  1.58547012e-07  1.08321387e-07  5.10000000e-01 
 5.20000000e-01  3.24666850e-09  4.57839822e-01  4.57839822e-01  3.31698441e-09  3.43412621e-09  3.38154130e-09  4.57839822e-01  1.58546988e-07  1.08320990e-07  5.20000000e-01 
 5.30000000e-01  3.24666851e-09  4.57839852e-01  4.57839852e-01  3.31698442e-09  3.43412615e-09  3.38154130e-09  4.57839852e-01  1.58547036e-07  1.08321217e-07  5.30000000e-01 
 5.40000000e-01  3.24666851e-09  4.57839857e-01  4.57839857e-01  3.31698442e-09  3.43412621e-09  3.38154130e-09  4.57839857e-01  1.58547045e-07  1.08321117e-07  5.40000000e-01 
 5.50000000e-01  3.24666851e-09  4.57839850e-01  4.57839850e-01  3.31698441e-09  3.43412621e-09  3.38154130e-09  4.57839850e-01  1.58547043e-07  1.08320943e-07  5.50000000e-01 
 5.60000000e-01  3.24666851e-09  4.57839854e-01  4.57839854e-01  3.31698442e-09  3.43412621e-09  3.38154130e-09  4.57839854e-01  1.58547052e-07  1.08320901e-07  5.60000000e-01 
 5.70000000e-01  3.24666850e-09  4.57839845e-01  4.57839845e-01  3.31698441e-09  3.43412621e-09  3.38154130e-09  4.57839845e-01  1.58547036e-07  1.08320865e-07  5.70000000e-01 
 5.80000000e-01  3.24666851e-09  4.57839865e-01  4.57839865e-01  3.31698442e-09  3.43412621e-09  3.38154130e-09  4.57839865e-01  1.58547060e-07  1.08320862e-07  5.80000000e-01 
 5.90000000e-01  3.24666851e-09  4.57839853e-01  4.57839853e-01  3.31698447e-09  3.43412621e-09  3.38154130e-09  4.57839853e-01  1.58547036e-07  1.08320599e-07  5.90000000e-01 
 6.00000000e-01  3.24666851e-09  4.57839850e-01  4.57839851e-01  3.31698441e-09  3.43412615e-09  3.38154130e-09  4.57839850e-01  1.58547050e-07  1.08320599e-07  6.00000000e-01 
 6.10000000e-01  3.24666851e-09  4.57839884e-01  4.57839884e-01  3.31698442e-09  3.43412616e-09  3.38154130e-09  4.57839884e-01  1.58547083e-07  1.08320556e-07  6.10000000e-01 
 6.20000000e-01  3.24666851e-09  4.57839876e-01  4.57839876e-01  3.31698448e-09  3.43412621e-09  3.38154130e-09  4.57839876e-01  1.58547069e-07  1.08320535e-07  6.20000000e-01 
 6.30000000e-01  3.24666850e-09  4.57839840e-01  4.57839840e-01  3.31698441e-09  3.43412621e-09  3.38154130e-09  4.57839840e-01  1.58547018e-07  1.08320322e-07  6.30000000e-01 
 6.40000000e-01  3.24666851e-09  4.57839854e-01  4.57839854e-01  3.31698447e-09  3.43412615e-09  3.38154130e-09  4.57839853e-01  1.58547047e-07  1.08320279e-07  6.40000000e-01 
 6.50000000e-01  3.24666850e-09  4.57839837e-01  4.57839837e-01  3.31698447e-09  3.43412621e-09  3.38154130e-09  4.57839837e-01  1.58547010e-07  1.08320108e-07  6.50000000e-01 
 6.60000000e-01  3.24666851e-09  4.57839856e-01  4.57839856e-01  3.31698447e-09  3.43412621e-09  3.38154130e-09  4.57839856e-01  1.58547021e-07  1.08320144e-07  6.60000000e-01 
 6.70000000e-01  3.24666850e-09  4.57839845e-01  4.57839845e-01  3.31698441e-09  3.43412621e-09  3.38154130e-09  4.57839845e-01  1.58547031e-07  1.08319938e-07  6.70000000e-01 
 6.80000000e-01  3.24666850e-09  4.57839823e-01  4.57839823e-01  3.31698441e-09  3.43412621e-09  3.38154130e-09  4.57839823e-01  1.58546992e-07  1.08319838e-07  6.80000000e-01 
 6.90000000e-01  3.24666850e-09  4.57839819e-01  4.57839819e-01  3.31698441e-09  3.43412621e-09  3.38154130e-09  4.57839819e-01  1.58546974e-07  1.08319789e-07  6.90000000e-01 
 7.00000000e-01  3.24666856e-09  4.57839852e-01  4.57839852e-01  3.31698442e-09  3.43412621e-09  3.38154130e-09  4.57839852e-01  1.58547037e-07  1.08319803e-07  7.00000000e-01 
 7.10000000e-01  3.24666850e-09  4.57839839e-01  4.57839839e-01  3.31698447e-09  3.43412621e-09  3.38154130e-09  4.57839839e-01  1.58547013e-07  1.08319703e-07  7.10000000e-01 
 7.20000000e-01  3.24666851e-09  4.57839854e-01  4.57839854e-01  3.31698447e-09  3.43412621e-09  3.38154130e-09  4.57839854e-01  1.58547030e-07  1.08319675e-07  7.20000000e-01 
 7.30000000e-01  3.24666850e-09  4.57839848e-01  4.57839848e-01  3.31698441e-09  3.43412621e-09  3.38154130e-09  4.57839848e-01  1.58547025e-07  1.08319526e-07  7.30000000e-01 
 7.40000000e-01  3.24666851e-09  4.57839876e-01  4.57839876e-01  3.31698442e-09  3.43412616e-09  3.38154130e-09  4.57839876e-01  1.58547068e-07  1.08319554e-07  7.40000000e-01 
 7.50000000e-01  3.24666850e-09  4.57839823e-01  4.57839823e-01  3.31698447e-09  3.43412621e-09  3.38154130e-09  4.57839823e-01  1.58546991e-07  1.08319334e-07  7.50000000e-01 
 7.60000000e-01  3.24666850e-09  4.57839846e-01  4.57839846e-01  3.31698441e-09  3.43412621e-09  3.38154130e-09  4.57839846e-01  1.58547030e-07  1.08319249e-07  7.60000000e-01 
 7.70000000e-01  3.24666850e-09  4.57839848e-01  4.57839848e-01  3.31698441e-09  3.43412621e-09  3.38154130e-09  4.57839848e-01  1.58547031e-07  1.08319291e-07  7.70000000e-01 
 7.80000000e-01  3.24666850e-09  4.57839835e-01  4.57839835e-01  3.31698447e-09  3.43412621e-09  3.38154130e-09  4.57839835e-01  1.58547013e-07  1.08319043e-07  7.80000000e-01 
 7.90000000e-01  3.24666851e-09  4.57839851e-01  4.57839851e-01  3.31698447e-09  3.43412615e-09  3.38154130e-09  4.57839851e-01  1.58547040e-07  1.08319099e-07  7.90000000e-01 
 8.00000000e-01  3.24666850e-09  4.57839839e-01  4.57839839e-01  3.31698447e-09  3.43412621e-09  3.38154130e-09  4.57839838e-01  1.58547030e-07  1.08318943e-07  8.00000000e-01 
 8.10000000e-01  3.24666850e-09  4.57839823e-01  4.57839823e-01  3.31698447e-09  3.43412615e-09  3.38154130e-09  4.57839823e-01  1.58546998e-07  1.08318694e-07  8.10000000e-01 
 8.20000000e-01  3.24666850e-09  4.57839844e-01  4.57839844e-01  3.31698441e-09  3.43412621e-09  3.38154130e-09  4.57839844e-01  1.58547034e-07  1.08318787e-07  8.20000000e-01 
 8.30000000e-01  3.24666850e-09  4.57839828e-01  4.57839828e-01  3.31698447e-09  3.43412621e-09  3.38154130e-09  4.57839827e-01  1.58546991e-07  1.08318694e-07  8.30000000e-01 
 8.40000000e-01  3.24666851e-09  4.57839853e-01  4.57839853e-01  3.31698442e-09  3.43412621e-09  3.38154130e-09  4.57839852e-01  1.58547043e-07  1.08318666e-07  8.40000000e-01 
 8.50000000e-01  3.24666850e-09  4.57839835e-01  4.57839835e-01  3.31698441e-09  3.43412615e-09  3.38154130e-09  4.57839835e-01  1.58547007e-07  1.08318467e-07  8.50000000e-01 
 8.60000000e-01  3.24666851e-09  4.57839855e-01  4.57839855e-01  3.31698447e-09  3.43412621e-09  3.38154130e-09  4.57839855e-01  1.58547035e-07  1.08318609e-07  8.60000000e-01 
 8.70000000e-01  3.24666851e-09  4.57839856e-01  4.57839856e-01  3.31698442e-09  3.43412621e-09  3.38154130e-09  4.57839856e-01  1.58547046e-07  1.08318268e-07  8.70000000e-01 
 8.80000000e-01  3.24666851e-09  4.57839853e-01  4.57839853e-01  3.31698447e-09  3.43412621e-09  3.38154130e-09  4.57839853e-01  1.58547040e-07  1.08318375e-07  8.80000000e-01 
 8.90000000e-01  3.24666850e-09  4.57839833e-01  4.57839833e-01  3.31698441e-09  3.43412621e-09  3.38154130e-09  4.57839833e-01  1.58547017e-07  1.08318190e-07  8.90000000e-01 
 9.00000000e-01  3.24666850e-09  4.57839838e-01  4.57839838e-01  3.31698447e-09  3.43412615e-09  3.38154130e-09  4.57839838e-01  1.58547024e-07  1.08318147e-07  9.00000000e-01 
 9.10000000e-01  3.24666851e-09  4.57839869e-01  4.57839869e-01  3.31698448e-09  3.43412616e-09  3.38154130e-09  4.57839869e-01  1.58547056e-07  1.08318154e-07  9.10000000e-01 
 9.20000000e-01  3.24666850e-09  4.57839848e-01  4.57839849e-01  3.31698441e-09  3.43412621e-09  3.38154130e-09  4.57839848e-01  1.58547021e-07  1.08318062e-07  9.20000000e-01 
 9.30000000e-01  3.24666851e-09  4.57839863e-01  4.57839863e-01  3.31698447e-09  3.43412615e-09  3.38154130e-09  4.57839863e-01  1.58547075e-07  1.08317977e-07  9.30000000e-01 
 9.40000000e-01  3.24666850e-09  4.57839836e-01  4.57839836e-01  3.31698447e-09  3.43412621e-09  3.38154130e-09  4.57839836e-01  1.58547000e-07  1.08317785e-07  9.40000000e-01 
 9.50000000e-01  3.24666850e-09  4.57839843e-01  4.57839843e-01  3.31698441e-09  3.43412621e-09  3.38154130e-09  4.57839843e-01  1.58547020e-07  1.08317778e-07  9.50000000e-01 
 9.60000000e-01  3.24666851e-09  4.57839851e-01  4.57839851e-01  3.31698447e-09  3.43412621e-09  3.38154130e-09  4.57839851e-01  1.58547027e-07  1.08317586e-07  9.60000000e-01 
 9.70000000e-01  3.24666851e-09  4.57839857e-01  4.57839858e-01  3.31698447e-09  3.43412621e-09  3.38154130e-09  4.57839857e-01  1.58547041e-07  1.08317572e-07  9.70000000e-01 
 9.80000000e-01  3.24666850e-09  4.57839815e-01  4.57839815e-01  3.31698441e-09  3.43412621e-09  3.38154130e-09  4.57839815e-01  1.58546982e-07  1.08317352e-07  9.80000000e-01 
 9.90000000e-01  3.24666851e-09  4.57839854e-01  4.57839854e-01  3.31698442e-09  3.43412621e-09  3.38154130e-09  4.57839854e-01  1.58547041e-07  1.08317387e-07  9.90000000e-01 
 1.00000000e+00  3.24666856e-09  4.57839850e-01  4.57839850e-01  3.31698447e-09  3.43412621e-09  3.38154130e-09  4.57839850e-01  1.58547024e-07  1.08317224e-07  1.00000000e+00 
 1.01000000e+00  3.24666850e-09  4.57839835e-01  4.57839835e-01  3.31698447e-09  3.43412621e-09  3.38154130e-09  4.57839835e-01  1.58547012e-07  1.08317167e-07  1.01000000e+00 
 1.02000000e+00  3.24666850e-09  4.57839822e-01  4.57839822e-01  3.31698447e-09  3.43412615e-09  3.38154130e-09  4.57839822e-01  1.58546987e-07  1.08317018e-07  1.02000000e+00 
 1.03000000e+00  3.24666851e-09  4.57839867e-01  4.57839867e-01  3.31698442e-09  3.43412621e-09  3.38154130e-09  4.57839867e-01  1.58547065e-07  1.08316968e-07  1.03000000e+00 
 1.04000000e+00  3.24666850e-09  4.57839846e-01  4.57839846e-01  3.31698447e-09  3.43412621e-09  3.38154130e-09  4.57839846e-01  1.58547003e-07  1.08316840e-07  1.04000000e+00 
 1.05000000e+00  3.24666850e-09  4.57839839e-01  4.57839839e-01  3.31698447e-09  3.43412621e-09  3.38154130e-09  4.57839839e-01  1.58547012e-07  1.08316854e-07  1.05000000e+00 
 1.06000000e+00  3.24666850e-09  4.57839847e-01  4.57839847e-01  3.31698447e-09  3.43412621e-09  3.38154130e-09  4.57839847e-01  1.58547034e-07  1.08316812e-07  1.06000000e+00 
 1.07000000e+00  3.24666850e-09  4.57839835e-01  4.57839835e-01  3.31698447e-09  3.43412615e-09  3.38154130e-09  4.57839835e-01  1.58547004e-07  1.08316648e-07  1.07000000e+00 
 1.08000000e+00  3.24666851e-09  4.57839868e-01  4.57839868e-01  3.31698448e-09  3.43412621e-09  3.38154130e-09  4.57839868e-01  1.58547059e-07  1.08316598e-07  1.08000000e+00 
 1.09000000e+00  3.24666850e-09  4.57839836e-01  4.57839836e-01  3.31698447e-09  3.43412615e-09  3.38154130e-09  4.57839836e-01  1.58546994e-07  1.08316456e-07  1.09000000e+00 
 1.10000000e+00  3.24666850e-09  4.57839840e-01  4.57839840e-01  3.31698447e-09  3.43412615e-09  3.38154130e-09  4.57839840e-01  1.58547023e-07  1.08316300e-07  1.10000000e+00 
