 v-sweep         v(b0)           v(b1)           v(b2)           v(b3)           v(b4)           v(b5)           v(b6)           i(vbias)        i(viout)        v(vout)        
 0.00000000e+00  3.41957021e-09  3.55177524e-09  3.77596060e-09  4.56986741e-01  3.43107537e-09  3.52540714e-09  4.56986741e-01  1.55862522e-07  1.02981239e-07  0.00000000e+00 
 1.00000000e-02  3.41957019e-09  3.55177522e-09  3.77596062e-09  4.56986741e-01  3.43107534e-09  3.52540717e-09  4.56986741e-01  1.55862521e-07  1.02980730e-07  1.00000000e-02 
 2.00000000e-02  3.41957019e-09  3.55177522e-09  3.77596062e-09  4.56986717e-01  3.43107539e-09  3.52540717e-09  4.56986717e-01  1.55862474e-07  1.02980263e-07  2.00000000e-02 
 3.00000000e-02  3.41957019e-09  3.55177522e-09  3.77596062e-09  4.56986731e-01  3.43107539e-09  3.52540717e-09  4.56986731e-01  1.55862498e-07  1.02979953e-07  3.00000000e-02 
 4.00000000e-02  3.41957019e-09  3.55177516e-09  3.77596062e-09  4.56986741e-01  3.43107540e-09  3.52540717e-09  4.56986741e-01  1.55862507e-07  1.02979659e-07  4.00000000e-02 
 5.00000000e-02  3.41957019e-09  3.55177522e-09  3.77596062e-09  4.56986704e-01  3.43107534e-09  3.52540717e-09  4.56986704e-01  1.55862459e-07  1.02979075e-07  5.00000000e-02 
 6.00000000e-02  3.41957019e-09  3.55177522e-09  3.77596062e-09  4.56986723e-01  3.43107539e-09  3.52540717e-09  4.56986723e-01  1.55862482e-07  1.02978845e-07  6.00000000e-02 
 7.00000000e-02  3.41957019e-09  3.55177522e-09  3.77596062e-09  4.56986741e-01  3.43107534e-09  3.52540717e-09  4.56986741e-01  1.55862510e-07  1.02978570e-07  7.00000000e-02 
 8.00000000e-02  3.41957019e-09  3.55177522e-09  3.77596062e-09  4.56986717e-01  3.43107539e-09  3.52540717e-09  4.56986717e-01  1.55862467e-07  1.02978222e-07  8.00000000e-02 
 9.00000000e-02  3.41957019e-09  3.55177522e-09  3.77596062e-09  4.56986712e-01  3.43107534e-09  3.52540717e-09  4.56986712e-01  1.55862470e-07  1.02977925e-07  9.00000000e-02 
 1.00000000e-01  3.41957019e-09  3.55177522e-09  3.77596062e-09  4.56986725e-01  3.43107539e-09  3.52540717e-09  4.56986726e-01  1.55862489e-07  1.02977648e-07  1.00000000e-01 
 1.10000000e-01  3.41957019e-09  3.55177522e-09  3.77596062e-09  4.56986733e-01  3.43107534e-09  3.52540717e-09  4.56986734e-01  1.55862509e-07  1.02977459e-07  1.10000000e-01 
 1.20000000e-01  3.41957019e-09  3.55177522e-09  3.77596062e-09  4.56986732e-01  3.43107534e-09  3.52540717e-09  4.56986732e-01  1.55862510e-07  1.02977156e-07  1.20000000e-01 
 1.30000000e-01  3.41957019e-09  3.55177522e-09  3.77596062e-09  4.56986724e-01  3.43107539e-09  3.52540717e-09  4.56986724e-01  1.55862489e-07  1.02976843e-07  1.30000000e-01 
 1.40000000e-01  3.41957019e-09  3.55177522e-09  3.77596062e-09  4.56986737e-01  3.43107540e-09  3.52540717e-09  4.56986737e-01  1.55862510e-07  1.02976756e-07  1.40000000e-01 
 1.50000000e-01  3.41957019e-09  3.55177522e-09  3.77596062e-09  4.56986709e-01  3.43107534e-09  3.52540717e-09  4.56986709e-01  1.55862462e-07  1.02976498e-07  1.50000000e-01 
 1.60000000e-01  3.41957019e-09  3.55177522e-09  3.77596062e-09  4.56986700e-01  3.43107539e-09  3.52540717e-09  4.56986700e-01  1.55862442e-07  1.02976257e-07  1.60000000e-01 
 1.70000000e-01  3.41957019e-09  3.55177522e-09  3.77596062e-09  4.56986740e-01  3.43107540e-09  3.52540717e-09  4.56986740e-01  1.55862512e-07  1.02976200e-07  1.70000000e-01 
 1.80000000e-01  3.41957019e-09  3.55177522e-09  3.77596062e-09  4.56986720e-01  3.43107539e-09  3.52540717e-09  4.56986720e-01  1.55862481e-07  1.02975882e-07  1.80000000e-01 
 1.90000000e-01  3.41957019e-09  3.55177522e-09  3.77596062e-09  4.56986716e-01  3.43107539e-09  3.52540717e-09  4.56986716e-01  1.55862467e-07  1.02975822e-07  1.90000000e-01 
 2.00000000e-01  3.41957019e-09  3.55177522e-09  3.77596062e-09  4.56986731e-01  3.43107539e-09  3.52540717e-09  4.56986731e-01  1.55862492e-07  1.02975607e-07  2.00000000e-01 
 2.10000000e-01  3.41957019e-09  3.55177522e-09  3.77596062e-09  4.56986737e-01  3.43107540e-09  3.52540717e-09  4.56986737e-01  1.55862505e-07  1.02975445e-07  2.10000000e-01 
 2.20000000e-01  3.41957019e-09  3.55177522e-09  3.77596062e-09  4.56986721e-01  3.43107539e-09  3.52540717e-09  4.56986721e-01  1.55862483e-07  1.02975051e-07  2.20000000e-01 
 2.30000000e-01  3.41957019e-09  3.55177522e-09  3.77596063e-09  4.56986748e-01  3.43107534e-09  3.52540717e-09  4.56986748e-01  1.55862536e-07  1.02975237e-07  2.30000000e-01 
 2.40000000e-01  3.41957019e-09  3.55177522e-09  3.77596062e-09  4.56986731e-01  3.43107539e-09  3.52540717e-09  4.56986731e-01  1.55862511e-07  1.02974848e-07  2.40000000e-01 
 2.50000000e-01  3.41957019e-09  3.55177516e-09  3.77596062e-09  4.56986728e-01  3.43107534e-09  3.52540717e-09  4.56986728e-01  1.55862497e-07  1.02974729e-07  2.50000000e-01 
 2.60000000e-01  3.41957019e-09  3.55177522e-09  3.77596063e-09  4.56986747e-01  3.43107540e-09  3.52540717e-09  4.56986747e-01  1.55862520e-07  1.02974621e-07  2.60000000e-01 
 2.70000000e-01  3.41957019e-09  3.55177522e-09  3.77596062e-09  4.56986734e-01  3.43107534e-09  3.52540717e-09  4.56986734e-01  1.55862510e-07  1.02974466e-07  2.70000000e-01 
 2.80000000e-01  3.41957019e-09  3.55177522e-09  3.77596062e-09  4.56986737e-01  3.43107540e-09  3.52540717e-09  4.56986737e-01  1.55862511e-07  1.02974328e-07  2.80000000e-01 
 2.90000000e-01  3.41957019e-09  3.55177522e-09  3.77596062e-09  4.56986714e-01  3.43107534e-09  3.52540717e-09  4.56986714e-01  1.55862482e-07  1.02974084e-07  2.90000000e-01 
 3.00000000e-01  3.41957019e-09  3.55177516e-09  3.77596062e-09  4.56986730e-01  3.43107534e-09  3.52540717e-09  4.56986730e-01  1.55862490e-07  1.02974109e-07  3.00000000e-01 
 3.10000000e-01  3.41957019e-09  3.55177522e-09  3.77596062e-09  4.56986728e-01  3.43107539e-09  3.52540717e-09  4.56986728e-01  1.55862497e-07  1.02973832e-07  3.10000000e-01 
 3.20000000e-01  3.41957019e-09  3.55177522e-09  3.77596063e-09  4.56986748e-01  3.43107540e-09  3.52540717e-09  4.56986749e-01  1.55862531e-07  1.02973871e-07  3.20000000e-01 
 3.30000000e-01  3.41957019e-09  3.55177522e-09  3.77596062e-09  4.56986733e-01  3.43107539e-09  3.52540717e-09  4.56986733e-01  1.55862507e-07  1.02973701e-07  3.30000000e-01 
 3.40000000e-01  3.41957019e-09  3.55177522e-09  3.77596062e-09  4.56986716e-01  3.43107534e-09  3.52540717e-09  4.56986716e-01  1.55862481e-07  1.02973534e-07  3.40000000e-01 
 3.50000000e-01  3.41957019e-09  3.55177522e-09  3.77596062e-09  4.56986734e-01  3.43107539e-09  3.52540717e-09  4.56986734e-01  1.55862492e-07  1.02973534e-07  3.50000000e-01 
 3.60000000e-01  3.41957019e-09  3.55177522e-09  3.77596062e-09  4.56986738e-01  3.43107534e-09  3.52540717e-09  4.56986738e-01  1.55862521e-07  1.02973406e-07  3.60000000e-01 
 3.70000000e-01  3.41957019e-09  3.55177522e-09  3.77596062e-09  4.56986740e-01  3.43107540e-09  3.52540717e-09  4.56986740e-01  1.55862513e-07  1.02973328e-07  3.70000000e-01 
 3.80000000e-01  3.41957019e-09  3.55177522e-09  3.77596062e-09  4.56986721e-01  3.43107539e-09  3.52540717e-09  4.56986721e-01  1.55862486e-07  1.02973228e-07  3.80000000e-01 
 3.90000000e-01  3.41957019e-09  3.55177522e-09  3.77596062e-09  4.56986724e-01  3.43107539e-09  3.52540717e-09  4.56986725e-01  1.55862483e-07  1.02973157e-07  3.90000000e-01 
 4.00000000e-01  3.41957019e-09  3.55177522e-09  3.77596062e-09  4.56986726e-01  3.43107539e-09  3.52540717e-09  4.56986726e-01  1.55862495e-07  1.02973086e-07  4.00000000e-01 
 4.10000000e-01  3.41957019e-09  3.55177522e-09  3.77596062e-09  4.56986719e-01  3.43107539e-09  3.52540717e-09  4.56986719e-01  1.55862478e-07  1.02972841e-07  4.10000000e-01 
 4.20000000e-01  3.41957019e-09  3.55177522e-09  3.77596062e-09  4.56986728e-01  3.43107539e-09  3.52540717e-09  4.56986728e-01  1.55862488e-07  1.02972884e-07  4.20000000e-01 
 4.30000000e-01  3.41957019e-09  3.55177522e-09  3.77596062e-09  4.56986734e-01  3.43107534e-09  3.52540717e-09  4.56986734e-01  1.55862505e-07  1.02972752e-07  4.30000000e-01 
 4.40000000e-01  3.41957019e-09  3.55177522e-09  3.77596062e-09  4.56986717e-01  3.43107534e-09  3.52540717e-09  4.56986717e-01  1.55862474e-07  1.02972653e-07  4.40000000e-01 
 4.50000000e-01  3.41957019e-09  3.55177522e-09  3.77596062e-09  4.56986737e-01  3.43107540e-09  3.52540717e-09  4.56986737e-01  1.55862499e-07  1.02972624e-07  4.50000000e-01 
 4.60000000e-01  3.41957019e-09  3.55177522e-09  3.77596062e-09  4.56986716e-01  3.43107534e-09  3.52540717e-09  4.56986716e-01  1.55862482e-07  1.02972489e-07  4.60000000e-01 
 4.70000000e-01  3.41957019e-09  3.55177522e-09  3.77596062e-09  4.56986737e-01  3.43107534e-09  3.52540717e-09  4.56986737e-01  1.55862498e-07  1.02972368e-07  4.70000000e-01 
 4.80000000e-01  3.41957019e-09  3.55177516e-09  3.77596062e-09  4.56986736e-01  3.43107540e-09  3.52540717e-09  4.56986736e-01  1.55862506e-07  1.02972471e-07  4.80000000e-01 
 4.90000000e-01  3.41957019e-09  3.55177522e-09  3.77596062e-09  4.56986736e-01  3.43107534e-09  3.52540717e-09  4.56986736e-01  1.55862500e-07  1.02972312e-07  4.90000000e-01 
 5.00000000e-01  3.41957019e-09  3.55177522e-09  3.77596062e-09  4.56986721e-01  3.43107539e-09  3.52540717e-09  4.56986721e-01  1.55862495e-07  1.02972251e-07  5.00000000e-01 
 5.10000000e-01  3.41957019e-09  3.55177522e-09  3.77596062e-09  4.56986728e-01  3.43107534e-09  3.52540717e-09  4.56986728e-01  1.55862482e-07  1.02972084e-07  5.10000000e-01 
 5.20000000e-01  3.41957019e-09  3.55177522e-09  3.77596062e-09  4.56986731e-01  3.43107539e-09  3.52540717e-09  4.56986731e-01  1.55862497e-07  1.02972042e-07  5.20000000e-01 
 5.30000000e-01  3.41957019e-09  3.55177522e-09  3.77596062e-09  4.56986722e-01  3.43107539e-09  3.52540717e-09  4.56986722e-01  1.55862493e-07  1.02971867e-07  5.30000000e-01 
 5.40000000e-01  3.41957019e-09  3.55177516e-09  3.77596062e-09  4.56986724e-01  3.43107539e-09  3.52540717e-09  4.56986724e-01  1.55862477e-07  1.02971860e-07  5.40000000e-01 
 5.50000000e-01  3.41957019e-09  3.55177516e-09  3.77596062e-09  4.56986737e-01  3.43107540e-09  3.52540717e-09  4.56986737e-01  1.55862497e-07  1.02971740e-07  5.50000000e-01 
 5.60000000e-01  3.41957019e-09  3.55177522e-09  3.77596062e-09  4.56986733e-01  3.43107539e-09  3.52540717e-09  4.56986733e-01  1.55862509e-07  1.02971740e-07  5.60000000e-01 
 5.70000000e-01  3.41957019e-09  3.55177522e-09  3.77596063e-09  4.56986746e-01  3.43107534e-09  3.52540717e-09  4.56986746e-01  1.55862534e-07  1.02971718e-07  5.70000000e-01 
 5.80000000e-01  3.41957019e-09  3.55177522e-09  3.77596062e-09  4.56986720e-01  3.43107539e-09  3.52540717e-09  4.56986720e-01  1.55862490e-07  1.02971569e-07  5.80000000e-01 
 5.90000000e-01  3.41957019e-09  3.55177522e-09  3.77596062e-09  4.56986738e-01  3.43107540e-09  3.52540717e-09  4.56986738e-01  1.55862511e-07  1.02971576e-07  5.90000000e-01 
 6.00000000e-01  3.41957019e-09  3.55177522e-09  3.77596063e-09  4.56986744e-01  3.43107540e-09  3.52540717e-09  4.56986744e-01  1.55862525e-07  1.02971477e-07  6.00000000e-01 
 6.10000000e-01  3.41957019e-09  3.55177522e-09  3.77596062e-09  4.56986716e-01  3.43107534e-09  3.52540717e-09  4.56986716e-01  1.55862481e-07  1.02971320e-07  6.10000000e-01 
 6.20000000e-01  3.41957019e-09  3.55177522e-09  3.77596062e-09  4.56986740e-01  3.43107540e-09  3.52540717e-09  4.56986740e-01  1.55862510e-07  1.02971299e-07  6.20000000e-01 
 6.30000000e-01  3.41957019e-09  3.55177522e-09  3.77596062e-09  4.56986727e-01  3.43107539e-09  3.52540717e-09  4.56986727e-01  1.55862497e-07  1.02971271e-07  6.30000000e-01 
 6.40000000e-01  3.41957019e-09  3.55177522e-09  3.77596062e-09  4.56986724e-01  3.43107539e-09  3.52540717e-09  4.56986724e-01  1.55862498e-07  1.02971107e-07  6.40000000e-01 
 6.50000000e-01  3.41957019e-09  3.55177522e-09  3.77596063e-09  4.56986760e-01  3.43107540e-09  3.52540717e-09  4.56986760e-01  1.55862540e-07  1.02971079e-07  6.50000000e-01 
 6.60000000e-01  3.41957019e-09  3.55177522e-09  3.77596062e-09  4.56986712e-01  3.43107539e-09  3.52540717e-09  4.56986712e-01  1.55862472e-07  1.02970994e-07  6.60000000e-01 
 6.70000000e-01  3.41957019e-09  3.55177522e-09  3.77596063e-09  4.56986744e-01  3.43107534e-09  3.52540717e-09  4.56986744e-01  1.55862526e-07  1.02970894e-07  6.70000000e-01 
 6.80000000e-01  3.41957019e-09  3.55177522e-09  3.77596062e-09  4.56986722e-01  3.43107539e-09  3.52540717e-09  4.56986722e-01  1.55862488e-07  1.02970773e-07  6.80000000e-01 
 6.90000000e-01  3.41957019e-09  3.55177522e-09  3.77596062e-09  4.56986729e-01  3.43107534e-09  3.52540717e-09  4.56986729e-01  1.55862496e-07  1.02970738e-07  6.90000000e-01 
 7.00000000e-01  3.41957019e-09  3.55177522e-09  3.77596063e-09  4.56986744e-01  3.43107540e-09  3.52540717e-09  4.56986744e-01  1.55862533e-07  1.02970745e-07  7.00000000e-01 
 7.10000000e-01  3.41957019e-09  3.55177522e-09  3.77596062e-09  4.56986741e-01  3.43107540e-09  3.52540717e-09  4.56986741e-01  1.55862512e-07  1.02970539e-07  7.10000000e-01 
 7.20000000e-01  3.41957019e-09  3.55177522e-09  3.77596062e-09  4.56986731e-01  3.43107539e-09  3.52540717e-09  4.56986731e-01  1.55862490e-07  1.02970567e-07  7.20000000e-01 
 7.30000000e-01  3.41957019e-09  3.55177522e-09  3.77596062e-09  4.56986740e-01  3.43107540e-09  3.52540717e-09  4.56986740e-01  1.55862516e-07  1.02970496e-07  7.30000000e-01 
 7.40000000e-01  3.41957019e-09  3.55177522e-09  3.77596062e-09  4.56986716e-01  3.43107539e-09  3.52540717e-09  4.56986716e-01  1.55862484e-07  1.02970333e-07  7.40000000e-01 
 7.50000000e-01  3.41957019e-09  3.55177522e-09  3.77596062e-09  4.56986736e-01  3.43107540e-09  3.52540717e-09  4.56986736e-01  1.55862500e-07  1.02970311e-07  7.50000000e-01 
 7.60000000e-01  3.41957019e-09  3.55177522e-09  3.77596062e-09  4.56986742e-01  3.43107540e-09  3.52540717e-09  4.56986742e-01  1.55862527e-07  1.02970375e-07  7.60000000e-01 
 7.70000000e-01  3.41957019e-09  3.55177522e-09  3.77596062e-09  4.56986728e-01  3.43107539e-09  3.52540717e-09  4.56986728e-01  1.55862497e-07  1.02970098e-07  7.70000000e-01 
 7.80000000e-01  3.41957019e-09  3.55177522e-09  3.77596062e-09  4.56986732e-01  3.43107539e-09  3.52540717e-09  4.56986732e-01  1.55862505e-07  1.02970091e-07  7.80000000e-01 
 7.90000000e-01  3.41957019e-09  3.55177522e-09  3.77596062e-09  4.56986738e-01  3.43107540e-09  3.52540717e-09  4.56986738e-01  1.55862505e-07  1.02969992e-07  7.90000000e-01 
 8.00000000e-01  3.41957019e-09  3.55177522e-09  3.77596062e-09  4.56986708e-01  3.43107539e-09  3.52540717e-09  4.56986708e-01  1.55862468e-07  1.02969899e-07  8.00000000e-01 
 8.10000000e-01  3.41957019e-09  3.55177522e-09  3.77596062e-09  4.56986718e-01  3.43107539e-09  3.52540717e-09  4.56986718e-01  1.55862478e-07  1.02969700e-07  8.10000000e-01 
 8.20000000e-01  3.41957019e-09  3.55177522e-09  3.77596062e-09  4.56986739e-01  3.43107540e-09  3.52540723e-09  4.56986739e-01  1.55862519e-07  1.02969757e-07  8.20000000e-01 
 8.30000000e-01  3.41957019e-09  3.55177522e-09  3.77596062e-09  4.56986728e-01  3.43107539e-09  3.52540716e-09  4.56986728e-01  1.55862497e-07  1.02969558e-07  8.30000000e-01 
 8.40000000e-01  3.41957019e-09  3.55177522e-09  3.77596062e-09  4.56986719e-01  3.43107539e-09  3.52540718e-09  4.56986719e-01  1.55862473e-07  1.02969587e-07  8.40000000e-01 
 8.50000000e-01  3.41957019e-09  3.55177522e-09  3.77596062e-09  4.56986737e-01  3.43107540e-09  3.52540717e-09  4.56986737e-01  1.55862498e-07  1.02969437e-07  8.50000000e-01 
 8.60000000e-01  3.41957019e-09  3.55177522e-09  3.77596062e-09  4.56986726e-01  3.43107539e-09  3.52540717e-09  4.56986726e-01  1.55862494e-07  1.02969466e-07  8.60000000e-01 
 8.70000000e-01  3.41957019e-09  3.55177522e-09  3.77596062e-09  4.56986723e-01  3.43107539e-09  3.52540717e-09  4.56986723e-01  1.55862486e-07  1.02969359e-07  8.70000000e-01 
 8.80000000e-01  3.41957019e-09  3.55177522e-09  3.77596062e-09  4.56986721e-01  3.43107534e-09  3.52540717e-09  4.56986721e-01  1.55862495e-07  1.02969182e-07  8.80000000e-01 
 8.90000000e-01  3.41957019e-09  3.55177522e-09  3.77596062e-09  4.56986738e-01  3.43107534e-09  3.52540717e-09  4.56986738e-01  1.55862524e-07  1.02969189e-07  8.90000000e-01 
 9.00000000e-01  3.41957019e-09  3.55177522e-09  3.77596062e-09  4.56986732e-01  3.43107539e-09  3.52540717e-09  4.56986732e-01  1.55862511e-07  1.02969125e-07  9.00000000e-01 
 9.10000000e-01  3.41957019e-09  3.55177522e-09  3.77596063e-09  4.56986748e-01  3.43107540e-09  3.52540717e-09  4.56986749e-01  1.55862523e-07  1.02969096e-07  9.10000000e-01 
 9.20000000e-01  3.41957019e-09  3.55177522e-09  3.77596062e-09  4.56986725e-01  3.43107539e-09  3.52540717e-09  4.56986725e-01  1.55862500e-07  1.02969011e-07  9.20000000e-01 
 9.30000000e-01  3.41957019e-09  3.55177522e-09  3.77596063e-09  4.56986752e-01  3.43107534e-09  3.52540717e-09  4.56986752e-01  1.55862531e-07  1.02968919e-07  9.30000000e-01 
 9.40000000e-01  3.41957019e-09  3.55177522e-09  3.77596062e-09  4.56986735e-01  3.43107534e-09  3.52540717e-09  4.56986735e-01  1.55862499e-07  1.02968805e-07  9.40000000e-01 
 9.50000000e-01  3.41957019e-09  3.55177522e-09  3.77596062e-09  4.56986738e-01  3.43107534e-09  3.52540717e-09  4.56986738e-01  1.55862509e-07  1.02968656e-07  9.50000000e-01 
 9.60000000e-01  3.41957019e-09  3.55177522e-09  3.77596062e-09  4.56986714e-01  3.43107534e-09  3.52540717e-09  4.56986714e-01  1.55862455e-07  1.02968542e-07  9.60000000e-01 
 9.70000000e-01  3.41957019e-09  3.55177522e-09  3.77596062e-09  4.56986733e-01  3.43107539e-09  3.52540717e-09  4.56986733e-01  1.55862489e-07  1.02968407e-07  9.70000000e-01 
 9.80000000e-01  3.41957019e-09  3.55177522e-09  3.77596062e-09  4.56986736e-01  3.43107534e-09  3.52540717e-09  4.56986736e-01  1.55862514e-07  1.02968471e-07  9.80000000e-01 
 9.90000000e-01  3.41957019e-09  3.55177522e-09  3.77596062e-09  4.56986738e-01  3.43107540e-09  3.52540717e-09  4.56986738e-01  1.55862502e-07  1.02968443e-07  9.90000000e-01 
 1.00000000e+00  3.41957019e-09  3.55177522e-09  3.77596062e-09  4.56986712e-01  3.43107534e-09  3.52540717e-09  4.56986712e-01  1.55862466e-07  1.02968244e-07  1.00000000e+00 
 1.01000000e+00  3.41957019e-09  3.55177522e-09  3.77596062e-09  4.56986714e-01  3.43107534e-09  3.52540717e-09  4.56986714e-01  1.55862478e-07  1.02968222e-07  1.01000000e+00 
 1.02000000e+00  3.41957019e-09  3.55177522e-09  3.77596062e-09  4.56986725e-01  3.43107534e-09  3.52540717e-09  4.56986726e-01  1.55862491e-07  1.02968187e-07  1.02000000e+00 
 1.03000000e+00  3.41957019e-09  3.55177522e-09  3.77596062e-09  4.56986740e-01  3.43107534e-09  3.52540717e-09  4.56986740e-01  1.55862524e-07  1.02967959e-07  1.03000000e+00 
 1.04000000e+00  3.41957019e-09  3.55177522e-09  3.77596062e-09  4.56986737e-01  3.43107540e-09  3.52540717e-09  4.56986737e-01  1.55862512e-07  1.02967967e-07  1.04000000e+00 
 1.05000000e+00  3.41957019e-09  3.55177522e-09  3.77596062e-09  4.56986736e-01  3.43107540e-09  3.52540717e-09  4.56986736e-01  1.55862513e-07  1.02967846e-07  1.05000000e+00 
 1.06000000e+00  3.41957019e-09  3.55177522e-09  3.77596062e-09  4.56986726e-01  3.43107539e-09  3.52540723e-09  4.56986726e-01  1.55862489e-07  1.02967732e-07  1.06000000e+00 
 1.07000000e+00  3.41957019e-09  3.55177522e-09  3.77596063e-09  4.56986767e-01  3.43107534e-09  3.52540716e-09  4.56986767e-01  1.55862554e-07  1.02967718e-07  1.07000000e+00 
 1.08000000e+00  3.41957019e-09  3.55177522e-09  3.77596062e-09  4.56986727e-01  3.43107539e-09  3.52540718e-09  4.56986727e-01  1.55862487e-07  1.02967583e-07  1.08000000e+00 
 1.09000000e+00  3.41957019e-09  3.55177522e-09  3.77596063e-09  4.56986745e-01  3.43107540e-09  3.52540717e-09  4.56986745e-01  1.55862526e-07  1.02967604e-07  1.09000000e+00 
 1.10000000e+00  3.41957019e-09  3.55177522e-09  3.77596062e-09  4.56986741e-01  3.43107540e-09  3.52540717e-09  4.56986741e-01  1.55862512e-07  1.02967391e-07  1.10000000e+00 
