 v-sweep         v(b0)           v(b1)           v(b2)           v(b3)           v(b4)           v(b5)           v(b6)           i(vbias)        i(viout)        v(vout)        
 0.00000000e+00  3.34558757e-09  3.36347664e-09  4.58293638e-01  4.58293638e-01  3.24126867e-09  3.19727543e-09  3.13537144e-09  1.58305689e-07  1.91018469e-08  0.00000000e+00 
 1.00000000e-02  3.34558754e-09  3.36347662e-09  4.58293668e-01  4.58293668e-01  3.24126864e-09  3.19727547e-09  3.13537141e-09  1.58305729e-07  1.91015193e-08  1.00000000e-02 
 2.00000000e-02  3.34558755e-09  3.36347661e-09  4.58293621e-01  4.58293621e-01  3.24126864e-09  3.19727539e-09  3.13537141e-09  1.58305656e-07  1.91012408e-08  2.00000000e-02 
 3.00000000e-02  3.34558760e-09  3.36347667e-09  4.58293642e-01  4.58293642e-01  3.24126864e-09  3.19727541e-09  3.13537141e-09  1.58305677e-07  1.91007576e-08  3.00000000e-02 
 4.00000000e-02  3.34558758e-09  3.36347660e-09  4.58293609e-01  4.58293609e-01  3.24126870e-09  3.19727546e-09  3.13537135e-09  1.58305644e-07  1.91005021e-08  4.00000000e-02 
 5.00000000e-02  3.34558753e-09  3.36347666e-09  4.58293628e-01  4.58293628e-01  3.24126870e-09  3.19727539e-09  3.13537141e-09  1.58305678e-07  1.91000731e-08  5.00000000e-02 
 6.00000000e-02  3.34558755e-09  3.36347667e-09  4.58293645e-01  4.58293645e-01  3.24126870e-09  3.19727541e-09  3.13537141e-09  1.58305690e-07  1.90998257e-08  6.00000000e-02 
 7.00000000e-02  3.34558754e-09  3.36347661e-09  4.58293630e-01  4.58293630e-01  3.24126870e-09  3.19727541e-09  3.13537141e-09  1.58305664e-07  1.90993976e-08  7.00000000e-02 
 8.00000000e-02  3.34558754e-09  3.36347667e-09  4.58293644e-01  4.58293644e-01  3.24126870e-09  3.19727541e-09  3.13537141e-09  1.58305703e-07  1.90991623e-08  8.00000000e-02 
 9.00000000e-02  3.34558754e-09  3.36347661e-09  4.58293639e-01  4.58293639e-01  3.24126870e-09  3.19727546e-09  3.13537141e-09  1.58305686e-07  1.90989278e-08  9.00000000e-02 
 1.00000000e-01  3.34558754e-09  3.36347666e-09  4.58293621e-01  4.58293621e-01  3.24126870e-09  3.19727545e-09  3.13537135e-09  1.58305658e-07  1.90987137e-08  1.00000000e-01 
 1.10000000e-01  3.34558754e-09  3.36347667e-09  4.58293655e-01  4.58293655e-01  3.24126870e-09  3.19727541e-09  3.13537141e-09  1.58305710e-07  1.90984073e-08  1.10000000e-01 
 1.20000000e-01  3.34558754e-09  3.36347661e-09  4.58293643e-01  4.58293643e-01  3.24126864e-09  3.19727546e-09  3.13537141e-09  1.58305690e-07  1.90981488e-08  1.20000000e-01 
 1.30000000e-01  3.34558754e-09  3.36347666e-09  4.58293629e-01  4.58293629e-01  3.24126864e-09  3.19727545e-09  3.13537141e-09  1.58305680e-07  1.90980547e-08  1.30000000e-01 
 1.40000000e-01  3.34558760e-09  3.36347667e-09  4.58293650e-01  4.58293650e-01  3.24126870e-09  3.19727541e-09  3.13537135e-09  1.58305697e-07  1.90978238e-08  1.40000000e-01 
 1.50000000e-01  3.34558759e-09  3.36347667e-09  4.58293640e-01  4.58293640e-01  3.24126870e-09  3.19727541e-09  3.13537141e-09  1.58305688e-07  1.90977030e-08  1.50000000e-01 
 1.60000000e-01  3.34558754e-09  3.36347667e-09  4.58293649e-01  4.58293649e-01  3.24126870e-09  3.19727541e-09  3.13537141e-09  1.58305709e-07  1.90973690e-08  1.60000000e-01 
 1.70000000e-01  3.34558755e-09  3.36347666e-09  4.58293630e-01  4.58293630e-01  3.24126864e-09  3.19727541e-09  3.13537141e-09  1.58305689e-07  1.90972251e-08  1.70000000e-01 
 1.80000000e-01  3.34558754e-09  3.36347667e-09  4.58293638e-01  4.58293638e-01  3.24126864e-09  3.19727541e-09  3.13537135e-09  1.58305673e-07  1.90970155e-08  1.80000000e-01 
 1.90000000e-01  3.34558754e-09  3.36347667e-09  4.58293635e-01  4.58293635e-01  3.24126870e-09  3.19727546e-09  3.13537135e-09  1.58305690e-07  1.90968912e-08  1.90000000e-01 
 2.00000000e-01  3.34558754e-09  3.36347667e-09  4.58293647e-01  4.58293647e-01  3.24126870e-09  3.19727539e-09  3.13537141e-09  1.58305696e-07  1.90967704e-08  2.00000000e-01 
 2.10000000e-01  3.34558760e-09  3.36347661e-09  4.58293658e-01  4.58293658e-01  3.24126864e-09  3.19727541e-09  3.13537141e-09  1.58305719e-07  1.90966389e-08  2.10000000e-01 
 2.20000000e-01  3.34558759e-09  3.36347661e-09  4.58293622e-01  4.58293622e-01  3.24126870e-09  3.19727546e-09  3.13537141e-09  1.58305664e-07  1.90964169e-08  2.20000000e-01 
 2.30000000e-01  3.34558754e-09  3.36347661e-09  4.58293647e-01  4.58293647e-01  3.24126864e-09  3.19727545e-09  3.13537141e-09  1.58305703e-07  1.90962410e-08  2.30000000e-01 
 2.40000000e-01  3.34558755e-09  3.36347667e-09  4.58293641e-01  4.58293641e-01  3.24126864e-09  3.19727541e-09  3.13537141e-09  1.58305697e-07  1.90962233e-08  2.40000000e-01 
 2.50000000e-01  3.34558754e-09  3.36347666e-09  4.58293627e-01  4.58293627e-01  3.24126864e-09  3.19727546e-09  3.13537141e-09  1.58305661e-07  1.90960829e-08  2.50000000e-01 
 2.60000000e-01  3.34558754e-09  3.36347661e-09  4.58293645e-01  4.58293645e-01  3.24126864e-09  3.19727545e-09  3.13537135e-09  1.58305697e-07  1.90959160e-08  2.60000000e-01 
 2.70000000e-01  3.34558754e-09  3.36347661e-09  4.58293632e-01  4.58293632e-01  3.24126864e-09  3.19727547e-09  3.13537135e-09  1.58305682e-07  1.90958200e-08  2.70000000e-01 
 2.80000000e-01  3.34558760e-09  3.36347667e-09  4.58293632e-01  4.58293632e-01  3.24126870e-09  3.19727545e-09  3.13537141e-09  1.58305683e-07  1.90957561e-08  2.80000000e-01 
 2.90000000e-01  3.34558753e-09  3.36347667e-09  4.58293641e-01  4.58293641e-01  3.24126870e-09  3.19727547e-09  3.13537141e-09  1.58305692e-07  1.90954879e-08  2.90000000e-01 
 3.00000000e-01  3.34558755e-09  3.36347661e-09  4.58293639e-01  4.58293639e-01  3.24126864e-09  3.19727539e-09  3.13537141e-09  1.58305685e-07  1.90955198e-08  3.00000000e-01 
 3.10000000e-01  3.34558754e-09  3.36347667e-09  4.58293642e-01  4.58293642e-01  3.24126870e-09  3.19727541e-09  3.13537141e-09  1.58305682e-07  1.90954417e-08  3.10000000e-01 
 3.20000000e-01  3.34558754e-09  3.36347667e-09  4.58293639e-01  4.58293639e-01  3.24126870e-09  3.19727546e-09  3.13537135e-09  1.58305699e-07  1.90953635e-08  3.20000000e-01 
 3.30000000e-01  3.34558754e-09  3.36347666e-09  4.58293620e-01  4.58293620e-01  3.24126870e-09  3.19727539e-09  3.13537141e-09  1.58305654e-07  1.90952107e-08  3.30000000e-01 
 3.40000000e-01  3.34558754e-09  3.36347661e-09  4.58293627e-01  4.58293627e-01  3.24126870e-09  3.19727541e-09  3.13537141e-09  1.58305677e-07  1.90951468e-08  3.40000000e-01 
 3.50000000e-01  3.34558754e-09  3.36347667e-09  4.58293660e-01  4.58293660e-01  3.24126864e-09  3.19727546e-09  3.13537141e-09  1.58305723e-07  1.90950757e-08  3.50000000e-01 
 3.60000000e-01  3.34558754e-09  3.36347661e-09  4.58293638e-01  4.58293638e-01  3.24126870e-09  3.19727545e-09  3.13537141e-09  1.58305679e-07  1.90950580e-08  3.60000000e-01 
 3.70000000e-01  3.34558760e-09  3.36347666e-09  4.58293615e-01  4.58293615e-01  3.24126864e-09  3.19727541e-09  3.13537141e-09  1.58305645e-07  1.90948697e-08  3.70000000e-01 
 3.80000000e-01  3.34558753e-09  3.36347666e-09  4.58293612e-01  4.58293612e-01  3.24126864e-09  3.19727546e-09  3.13537135e-09  1.58305639e-07  1.90948946e-08  3.80000000e-01 
 3.90000000e-01  3.34558755e-09  3.36347667e-09  4.58293643e-01  4.58293643e-01  3.24126870e-09  3.19727539e-09  3.13537141e-09  1.58305699e-07  1.90947596e-08  3.90000000e-01 
 4.00000000e-01  3.34558754e-09  3.36347667e-09  4.58293637e-01  4.58293637e-01  3.24126870e-09  3.19727541e-09  3.13537141e-09  1.58305689e-07  1.90946849e-08  4.00000000e-01 
 4.10000000e-01  3.34558754e-09  3.36347661e-09  4.58293634e-01  4.58293634e-01  3.24126870e-09  3.19727546e-09  3.13537141e-09  1.58305688e-07  1.90946743e-08  4.10000000e-01 
 4.20000000e-01  3.34558754e-09  3.36347661e-09  4.58293630e-01  4.58293630e-01  3.24126870e-09  3.19727545e-09  3.13537141e-09  1.58305674e-07  1.90945180e-08  4.20000000e-01 
 4.30000000e-01  3.34558754e-09  3.36347667e-09  4.58293638e-01  4.58293637e-01  3.24126870e-09  3.19727541e-09  3.13537141e-09  1.58305680e-07  1.90943936e-08  4.30000000e-01 
 4.40000000e-01  3.34558754e-09  3.36347666e-09  4.58293630e-01  4.58293630e-01  3.24126864e-09  3.19727546e-09  3.13537141e-09  1.58305677e-07  1.90945251e-08  4.40000000e-01 
 4.50000000e-01  3.34558754e-09  3.36347661e-09  4.58293643e-01  4.58293643e-01  3.24126870e-09  3.19727539e-09  3.13537141e-09  1.58305707e-07  1.90943510e-08  4.50000000e-01 
 4.60000000e-01  3.34558754e-09  3.36347661e-09  4.58293648e-01  4.58293648e-01  3.24126870e-09  3.19727541e-09  3.13537135e-09  1.58305703e-07  1.90942302e-08  4.60000000e-01 
 4.70000000e-01  3.34558754e-09  3.36347667e-09  4.58293671e-01  4.58293671e-01  3.24126870e-09  3.19727541e-09  3.13537141e-09  1.58305734e-07  1.90942409e-08  4.70000000e-01 
 4.80000000e-01  3.34558754e-09  3.36347667e-09  4.58293640e-01  4.58293639e-01  3.24126870e-09  3.19727541e-09  3.13537141e-09  1.58305693e-07  1.90942266e-08  4.80000000e-01 
 4.90000000e-01  3.34558754e-09  3.36347661e-09  4.58293632e-01  4.58293632e-01  3.24126870e-09  3.19727541e-09  3.13537141e-09  1.58305681e-07  1.90940526e-08  4.90000000e-01 
 5.00000000e-01  3.34558754e-09  3.36347666e-09  4.58293622e-01  4.58293622e-01  3.24126870e-09  3.19727546e-09  3.13537141e-09  1.58305655e-07  1.90940952e-08  5.00000000e-01 
 5.10000000e-01  3.34558754e-09  3.36347667e-09  4.58293658e-01  4.58293658e-01  3.24126870e-09  3.19727545e-09  3.13537136e-09  1.58305713e-07  1.90941769e-08  5.10000000e-01 
 5.20000000e-01  3.34558754e-09  3.36347667e-09  4.58293632e-01  4.58293632e-01  3.24126870e-09  3.19727541e-09  3.13537141e-09  1.58305676e-07  1.90938891e-08  5.20000000e-01 
 5.30000000e-01  3.34558754e-09  3.36347661e-09  4.58293664e-01  4.58293664e-01  3.24126870e-09  3.19727541e-09  3.13537141e-09  1.58305733e-07  1.90939033e-08  5.30000000e-01 
 5.40000000e-01  3.34558754e-09  3.36347661e-09  4.58293635e-01  4.58293635e-01  3.24126870e-09  3.19727541e-09  3.13537135e-09  1.58305680e-07  1.90939033e-08  5.40000000e-01 
 5.50000000e-01  3.34558754e-09  3.36347667e-09  4.58293661e-01  4.58293661e-01  3.24126870e-09  3.19727541e-09  3.13537141e-09  1.58305729e-07  1.90937257e-08  5.50000000e-01 
 5.60000000e-01  3.34558754e-09  3.36347667e-09  4.58293642e-01  4.58293642e-01  3.24126864e-09  3.19727541e-09  3.13537135e-09  1.58305697e-07  1.90937754e-08  5.60000000e-01 
 5.70000000e-01  3.34558754e-09  3.36347667e-09  4.58293644e-01  4.58293644e-01  3.24126870e-09  3.19727546e-09  3.13537141e-09  1.58305694e-07  1.90936902e-08  5.70000000e-01 
 5.80000000e-01  3.34558754e-09  3.36347667e-09  4.58293656e-01  4.58293656e-01  3.24126870e-09  3.19727545e-09  3.13537135e-09  1.58305718e-07  1.90935765e-08  5.80000000e-01 
 5.90000000e-01  3.34558754e-09  3.36347667e-09  4.58293633e-01  4.58293633e-01  3.24126864e-09  3.19727541e-09  3.13537141e-09  1.58305690e-07  1.90935125e-08  5.90000000e-01 
 6.00000000e-01  3.34558754e-09  3.36347661e-09  4.58293638e-01  4.58293637e-01  3.24126864e-09  3.19727546e-09  3.13537135e-09  1.58305679e-07  1.90935125e-08  6.00000000e-01 
 6.10000000e-01  3.34558754e-09  3.36347667e-09  4.58293632e-01  4.58293632e-01  3.24126870e-09  3.19727539e-09  3.13537141e-09  1.58305662e-07  1.90935410e-08  6.10000000e-01 
 6.20000000e-01  3.34558754e-09  3.36347667e-09  4.58293640e-01  4.58293640e-01  3.24126864e-09  3.19727541e-09  3.13537141e-09  1.58305686e-07  1.90933278e-08  6.20000000e-01 
 6.30000000e-01  3.34558754e-09  3.36347661e-09  4.58293637e-01  4.58293637e-01  3.24126870e-09  3.19727546e-09  3.13537141e-09  1.58305688e-07  1.90933775e-08  6.30000000e-01 
 6.40000000e-01  3.34558754e-09  3.36347667e-09  4.58293657e-01  4.58293657e-01  3.24126870e-09  3.19727540e-09  3.13537141e-09  1.58305714e-07  1.90932070e-08  6.40000000e-01 
 6.50000000e-01  3.34558754e-09  3.36347667e-09  4.58293647e-01  4.58293647e-01  3.24126864e-09  3.19727547e-09  3.13537141e-09  1.58305694e-07  1.90933136e-08  6.50000000e-01 
 6.60000000e-01  3.34558754e-09  3.36347661e-09  4.58293623e-01  4.58293623e-01  3.24126864e-09  3.19727545e-09  3.13537141e-09  1.58305660e-07  1.90931857e-08  6.60000000e-01 
 6.70000000e-01  3.34558754e-09  3.36347661e-09  4.58293664e-01  4.58293664e-01  3.24126864e-09  3.19727541e-09  3.13537141e-09  1.58305708e-07  1.90931928e-08  6.70000000e-01 
 6.80000000e-01  3.34558754e-09  3.36347667e-09  4.58293647e-01  4.58293647e-01  3.24126870e-09  3.19727546e-09  3.13537141e-09  1.58305696e-07  1.90931146e-08  6.80000000e-01 
 6.90000000e-01  3.34558754e-09  3.36347667e-09  4.58293651e-01  4.58293651e-01  3.24126870e-09  3.19727540e-09  3.13537135e-09  1.58305689e-07  1.90931360e-08  6.90000000e-01 
 7.00000000e-01  3.34558754e-09  3.36347661e-09  4.58293647e-01  4.58293647e-01  3.24126870e-09  3.19727547e-09  3.13537141e-09  1.58305691e-07  1.90929725e-08  7.00000000e-01 
 7.10000000e-01  3.34558754e-09  3.36347667e-09  4.58293678e-01  4.58293678e-01  3.24126870e-09  3.19727545e-09  3.13537141e-09  1.58305745e-07  1.90928588e-08  7.10000000e-01 
 7.20000000e-01  3.34558754e-09  3.36347667e-09  4.58293644e-01  4.58293644e-01  3.24126864e-09  3.19727547e-09  3.13537141e-09  1.58305683e-07  1.90928588e-08  7.20000000e-01 
 7.30000000e-01  3.34558754e-09  3.36347661e-09  4.58293642e-01  4.58293641e-01  3.24126864e-09  3.19727545e-09  3.13537135e-09  1.58305689e-07  1.90928233e-08  7.30000000e-01 
 7.40000000e-01  3.34558754e-09  3.36347667e-09  4.58293668e-01  4.58293668e-01  3.24126864e-09  3.19727541e-09  3.13537141e-09  1.58305726e-07  1.90927167e-08  7.40000000e-01 
 7.50000000e-01  3.34558754e-09  3.36347667e-09  4.58293640e-01  4.58293640e-01  3.24126870e-09  3.19727541e-09  3.13537135e-09  1.58305694e-07  1.90926457e-08  7.50000000e-01 
 7.60000000e-01  3.34558754e-09  3.36347667e-09  4.58293635e-01  4.58293635e-01  3.24126870e-09  3.19727541e-09  3.13537141e-09  1.58305683e-07  1.90928446e-08  7.60000000e-01 
 7.70000000e-01  3.34558754e-09  3.36347666e-09  4.58293626e-01  4.58293626e-01  3.24126864e-09  3.19727541e-09  3.13537135e-09  1.58305675e-07  1.90925391e-08  7.70000000e-01 
 7.80000000e-01  3.34558754e-09  3.36347661e-09  4.58293641e-01  4.58293641e-01  3.24126870e-09  3.19727541e-09  3.13537141e-09  1.58305698e-07  1.90925462e-08  7.80000000e-01 
 7.90000000e-01  3.34558754e-09  3.36347667e-09  4.58293632e-01  4.58293632e-01  3.24126864e-09  3.19727546e-09  3.13537141e-09  1.58305671e-07  1.90924894e-08  7.90000000e-01 
 8.00000000e-01  3.34558754e-09  3.36347661e-09  4.58293645e-01  4.58293645e-01  3.24126864e-09  3.19727539e-09  3.13537141e-09  1.58305700e-07  1.90924041e-08  8.00000000e-01 
 8.10000000e-01  3.34558754e-09  3.36347667e-09  4.58293638e-01  4.58293638e-01  3.24126870e-09  3.19727547e-09  3.13537141e-09  1.58305697e-07  1.90923473e-08  8.10000000e-01 
 8.20000000e-01  3.34558754e-09  3.36347661e-09  4.58293655e-01  4.58293655e-01  3.24126864e-09  3.19727540e-09  3.13537135e-09  1.58305713e-07  1.90925036e-08  8.20000000e-01 
 8.30000000e-01  3.34558754e-09  3.36347667e-09  4.58293642e-01  4.58293642e-01  3.24126864e-09  3.19727547e-09  3.13537141e-09  1.58305691e-07  1.90922620e-08  8.30000000e-01 
 8.40000000e-01  3.34558760e-09  3.36347661e-09  4.58293643e-01  4.58293643e-01  3.24126864e-09  3.19727539e-09  3.13537141e-09  1.58305682e-07  1.90923117e-08  8.40000000e-01 
 8.50000000e-01  3.34558753e-09  3.36347667e-09  4.58293664e-01  4.58293664e-01  3.24126870e-09  3.19727547e-09  3.13537141e-09  1.58305729e-07  1.90922904e-08  8.50000000e-01 
 8.60000000e-01  3.34558755e-09  3.36347666e-09  4.58293631e-01  4.58293631e-01  3.24126870e-09  3.19727539e-09  3.13537141e-09  1.58305683e-07  1.90921341e-08  8.60000000e-01 
 8.70000000e-01  3.34558754e-09  3.36347667e-09  4.58293654e-01  4.58293654e-01  3.24126870e-09  3.19727541e-09  3.13537141e-09  1.58305716e-07  1.90920986e-08  8.70000000e-01 
 8.80000000e-01  3.34558754e-09  3.36347661e-09  4.58293640e-01  4.58293640e-01  3.24126864e-09  3.19727546e-09  3.13537141e-09  1.58305693e-07  1.90920559e-08  8.80000000e-01 
 8.90000000e-01  3.34558754e-09  3.36347667e-09  4.58293636e-01  4.58293636e-01  3.24126864e-09  3.19727545e-09  3.13537141e-09  1.58305688e-07  1.90920275e-08  8.90000000e-01 
 9.00000000e-01  3.34558754e-09  3.36347661e-09  4.58293660e-01  4.58293660e-01  3.24126864e-09  3.19727541e-09  3.13537136e-09  1.58305715e-07  1.90919991e-08  9.00000000e-01 
 9.10000000e-01  3.34558754e-09  3.36347667e-09  4.58293648e-01  4.58293648e-01  3.24126870e-09  3.19727541e-09  3.13537135e-09  1.58305707e-07  1.90919849e-08  9.10000000e-01 
 9.20000000e-01  3.34558754e-09  3.36347667e-09  4.58293660e-01  4.58293660e-01  3.24126864e-09  3.19727541e-09  3.13537136e-09  1.58305708e-07  1.90917930e-08  9.20000000e-01 
 9.30000000e-01  3.34558754e-09  3.36347661e-09  4.58293646e-01  4.58293646e-01  3.24126870e-09  3.19727546e-09  3.13537141e-09  1.58305697e-07  1.90919138e-08  9.30000000e-01 
 9.40000000e-01  3.34558754e-09  3.36347667e-09  4.58293646e-01  4.58293646e-01  3.24126864e-09  3.19727539e-09  3.13537135e-09  1.58305695e-07  1.90917149e-08  9.40000000e-01 
 9.50000000e-01  3.34558754e-09  3.36347661e-09  4.58293642e-01  4.58293642e-01  3.24126870e-09  3.19727541e-09  3.13537135e-09  1.58305703e-07  1.90916438e-08  9.50000000e-01 
 9.60000000e-01  3.34558760e-09  3.36347667e-09  4.58293643e-01  4.58293643e-01  3.24126870e-09  3.19727541e-09  3.13537141e-09  1.58305699e-07  1.90916793e-08  9.60000000e-01 
 9.70000000e-01  3.34558759e-09  3.36347667e-09  4.58293644e-01  4.58293644e-01  3.24126870e-09  3.19727541e-09  3.13537135e-09  1.58305687e-07  1.90916154e-08  9.70000000e-01 
 9.80000000e-01  3.34558754e-09  3.36347661e-09  4.58293663e-01  4.58293663e-01  3.24126870e-09  3.19727541e-09  3.13537136e-09  1.58305722e-07  1.90915301e-08  9.80000000e-01 
 9.90000000e-01  3.34558755e-09  3.36347666e-09  4.58293626e-01  4.58293626e-01  3.24126870e-09  3.19727541e-09  3.13537141e-09  1.58305660e-07  1.90915088e-08  9.90000000e-01 
 1.00000000e+00  3.34558754e-09  3.36347667e-09  4.58293654e-01  4.58293654e-01  3.24126864e-09  3.19727546e-09  3.13537141e-09  1.58305708e-07  1.90914662e-08  1.00000000e+00 
 1.01000000e+00  3.34558760e-09  3.36347667e-09  4.58293664e-01  4.58293664e-01  3.24126870e-09  3.19727540e-09  3.13537136e-09  1.58305724e-07  1.90913880e-08  1.01000000e+00 
 1.02000000e+00  3.34558759e-09  3.36347661e-09  4.58293642e-01  4.58293642e-01  3.24126870e-09  3.19727541e-09  3.13537141e-09  1.58305694e-07  1.90912388e-08  1.02000000e+00 
 1.03000000e+00  3.34558759e-09  3.36347667e-09  4.58293651e-01  4.58293651e-01  3.24126864e-09  3.19727541e-09  3.13537141e-09  1.58305703e-07  1.90912175e-08  1.03000000e+00 
 1.04000000e+00  3.34558753e-09  3.36347667e-09  4.58293635e-01  4.58293635e-01  3.24126864e-09  3.19727541e-09  3.13537141e-09  1.58305687e-07  1.90912530e-08  1.04000000e+00 
 1.05000000e+00  3.34558755e-09  3.36347661e-09  4.58293641e-01  4.58293641e-01  3.24126870e-09  3.19727541e-09  3.13537141e-09  1.58305689e-07  1.90911607e-08  1.05000000e+00 
 1.06000000e+00  3.34558754e-09  3.36347666e-09  4.58293624e-01  4.58293624e-01  3.24126870e-09  3.19727546e-09  3.13537141e-09  1.58305658e-07  1.90910256e-08  1.06000000e+00 
 1.07000000e+00  3.34558754e-09  3.36347667e-09  4.58293639e-01  4.58293639e-01  3.24126864e-09  3.19727539e-09  3.13537141e-09  1.58305687e-07  1.90909759e-08  1.07000000e+00 
 1.08000000e+00  3.34558754e-09  3.36347667e-09  4.58293640e-01  4.58293640e-01  3.24126870e-09  3.19727547e-09  3.13537135e-09  1.58305672e-07  1.90909830e-08  1.08000000e+00 
 1.09000000e+00  3.34558754e-09  3.36347667e-09  4.58293650e-01  4.58293650e-01  3.24126870e-09  3.19727545e-09  3.13537141e-09  1.58305710e-07  1.90908906e-08  1.09000000e+00 
 1.10000000e+00  3.34558754e-09  3.36347661e-09  4.58293657e-01  4.58293657e-01  3.24126864e-09  3.19727541e-09  3.13537141e-09  1.58305718e-07  1.90909262e-08  1.10000000e+00 
