 v-sweep         v(b0)           v(b1)           v(b2)           v(b3)           v(b4)           v(b5)           v(b6)           i(vbias)        i(viout)        v(vout)        
 0.00000000e+00  3.35998486e-09  4.56293463e-01  4.56293463e-01  3.16196657e-09  4.56293463e-01  3.22098487e-09  3.40564977e-09  1.55082073e-07  3.13630257e-08  0.00000000e+00 
 1.00000000e-02  3.35998489e-09  4.56293454e-01  4.56293454e-01  3.16196655e-09  4.56293454e-01  3.22098485e-09  3.40564973e-09  1.55082059e-07  3.13623465e-08  1.00000000e-02 
 2.00000000e-02  3.35998489e-09  4.56293446e-01  4.56293446e-01  3.16196654e-09  4.56293446e-01  3.22098485e-09  3.40564975e-09  1.55082065e-07  3.13621717e-08  2.00000000e-02 
 3.00000000e-02  3.35998489e-09  4.56293436e-01  4.56293436e-01  3.16196654e-09  4.56293436e-01  3.22098485e-09  3.40564980e-09  1.55082035e-07  3.13618016e-08  3.00000000e-02 
 4.00000000e-02  3.35998489e-09  4.56293466e-01  4.56293466e-01  3.16196655e-09  4.56293466e-01  3.22098491e-09  3.40564973e-09  1.55082069e-07  3.13613895e-08  4.00000000e-02 
 5.00000000e-02  3.35998489e-09  4.56293420e-01  4.56293420e-01  3.16196654e-09  4.56293419e-01  3.22098489e-09  3.40564974e-09  1.55081995e-07  3.13611603e-08  5.00000000e-02 
 6.00000000e-02  3.35998489e-09  4.56293451e-01  4.56293451e-01  3.16196655e-09  4.56293451e-01  3.22098485e-09  3.40564974e-09  1.55082055e-07  3.13608397e-08  6.00000000e-02 
 7.00000000e-02  3.35998489e-09  4.56293427e-01  4.56293427e-01  3.16196654e-09  4.56293427e-01  3.22098490e-09  3.40564974e-09  1.55082013e-07  3.13605035e-08  7.00000000e-02 
 8.00000000e-02  3.35998489e-09  4.56293448e-01  4.56293447e-01  3.16196655e-09  4.56293447e-01  3.22098484e-09  3.40564974e-09  1.55082062e-07  3.13602309e-08  8.00000000e-02 
 9.00000000e-02  3.35998483e-09  4.56293445e-01  4.56293445e-01  3.16196654e-09  4.56293445e-01  3.22098491e-09  3.40564980e-09  1.55082059e-07  3.13599431e-08  9.00000000e-02 
 1.00000000e-01  3.35998489e-09  4.56293445e-01  4.56293445e-01  3.16196654e-09  4.56293445e-01  3.22098489e-09  3.40564978e-09  1.55082042e-07  3.13597264e-08  1.00000000e-01 
 1.10000000e-01  3.35998489e-09  4.56293450e-01  4.56293450e-01  3.16196655e-09  4.56293450e-01  3.22098491e-09  3.40564973e-09  1.55082061e-07  3.13594013e-08  1.10000000e-01 
 1.20000000e-01  3.35998489e-09  4.56293448e-01  4.56293448e-01  3.16196655e-09  4.56293448e-01  3.22098484e-09  3.40564975e-09  1.55082059e-07  3.13592965e-08  1.20000000e-01 
 1.30000000e-01  3.35998489e-09  4.56293425e-01  4.56293425e-01  3.16196654e-09  4.56293425e-01  3.22098485e-09  3.40564979e-09  1.55082024e-07  3.13589439e-08  1.30000000e-01 
 1.40000000e-01  3.35998489e-09  4.56293454e-01  4.56293454e-01  3.16196655e-09  4.56293454e-01  3.22098485e-09  3.40564973e-09  1.55082056e-07  3.13587689e-08  1.40000000e-01 
 1.50000000e-01  3.35998489e-09  4.56293424e-01  4.56293424e-01  3.16196654e-09  4.56293424e-01  3.22098490e-09  3.40564974e-09  1.55082013e-07  3.13586490e-08  1.50000000e-01 
 1.60000000e-01  3.35998489e-09  4.56293461e-01  4.56293461e-01  3.16196655e-09  4.56293461e-01  3.22098489e-09  3.40564980e-09  1.55082081e-07  3.13584838e-08  1.60000000e-01 
 1.70000000e-01  3.35998489e-09  4.56293464e-01  4.56293464e-01  3.16196655e-09  4.56293464e-01  3.22098491e-09  3.40564979e-09  1.55082069e-07  3.13583204e-08  1.70000000e-01 
 1.80000000e-01  3.35998489e-09  4.56293457e-01  4.56293456e-01  3.16196655e-09  4.56293456e-01  3.22098489e-09  3.40564979e-09  1.55082061e-07  3.13579669e-08  1.80000000e-01 
 1.90000000e-01  3.35998489e-09  4.56293448e-01  4.56293448e-01  3.16196655e-09  4.56293448e-01  3.22098485e-09  3.40564973e-09  1.55082058e-07  3.13579065e-08  1.90000000e-01 
 2.00000000e-01  3.35998489e-09  4.56293432e-01  4.56293432e-01  3.16196654e-09  4.56293432e-01  3.22098485e-09  3.40564974e-09  1.55082037e-07  3.13576702e-08  2.00000000e-01 
 2.10000000e-01  3.35998489e-09  4.56293438e-01  4.56293438e-01  3.16196654e-09  4.56293438e-01  3.22098490e-09  3.40564980e-09  1.55082028e-07  3.13576081e-08  2.10000000e-01 
 2.20000000e-01  3.35998489e-09  4.56293458e-01  4.56293458e-01  3.16196655e-09  4.56293458e-01  3.22098484e-09  3.40564973e-09  1.55082062e-07  3.13573718e-08  2.20000000e-01 
 2.30000000e-01  3.35998489e-09  4.56293440e-01  4.56293440e-01  3.16196654e-09  4.56293440e-01  3.22098485e-09  3.40564980e-09  1.55082047e-07  3.13573754e-08  2.30000000e-01 
 2.40000000e-01  3.35998489e-09  4.56293450e-01  4.56293450e-01  3.16196660e-09  4.56293450e-01  3.22098485e-09  3.40564973e-09  1.55082044e-07  3.13572137e-08  2.40000000e-01 
 2.50000000e-01  3.35998489e-09  4.56293448e-01  4.56293448e-01  3.16196655e-09  4.56293448e-01  3.22098490e-09  3.40564975e-09  1.55082049e-07  3.13571000e-08  2.50000000e-01 
 2.60000000e-01  3.35998489e-09  4.56293444e-01  4.56293444e-01  3.16196654e-09  4.56293444e-01  3.22098489e-09  3.40564974e-09  1.55082036e-07  3.13568673e-08  2.60000000e-01 
 2.70000000e-01  3.35998489e-09  4.56293438e-01  4.56293438e-01  3.16196654e-09  4.56293438e-01  3.22098491e-09  3.40564980e-09  1.55082030e-07  3.13567252e-08  2.70000000e-01 
 2.80000000e-01  3.35998490e-09  4.56293473e-01  4.56293473e-01  3.16196655e-09  4.56293473e-01  3.22098484e-09  3.40564973e-09  1.55082087e-07  3.13568354e-08  2.80000000e-01 
 2.90000000e-01  3.35998489e-09  4.56293448e-01  4.56293448e-01  3.16196655e-09  4.56293447e-01  3.22098485e-09  3.40564975e-09  1.55082059e-07  3.13564854e-08  2.90000000e-01 
 3.00000000e-01  3.35998489e-09  4.56293467e-01  4.56293467e-01  3.16196655e-09  4.56293467e-01  3.22098491e-09  3.40564974e-09  1.55082064e-07  3.13565458e-08  3.00000000e-01 
 3.10000000e-01  3.35998489e-09  4.56293439e-01  4.56293439e-01  3.16196654e-09  4.56293439e-01  3.22098489e-09  3.40564974e-09  1.55082042e-07  3.13564641e-08  3.10000000e-01 
 3.20000000e-01  3.35998489e-09  4.56293452e-01  4.56293452e-01  3.16196655e-09  4.56293452e-01  3.22098491e-09  3.40564974e-09  1.55082043e-07  3.13562722e-08  3.20000000e-01 
 3.30000000e-01  3.35998489e-09  4.56293448e-01  4.56293448e-01  3.16196655e-09  4.56293448e-01  3.22098484e-09  3.40564980e-09  1.55082049e-07  3.13562118e-08  3.30000000e-01 
 3.40000000e-01  3.35998489e-09  4.56293448e-01  4.56293448e-01  3.16196655e-09  4.56293448e-01  3.22098485e-09  3.40564973e-09  1.55082050e-07  3.13560236e-08  3.40000000e-01 
 3.50000000e-01  3.35998483e-09  4.56293444e-01  4.56293444e-01  3.16196654e-09  4.56293444e-01  3.22098490e-09  3.40564975e-09  1.55082055e-07  3.13560626e-08  3.50000000e-01 
 3.60000000e-01  3.35998489e-09  4.56293458e-01  4.56293458e-01  3.16196655e-09  4.56293458e-01  3.22098489e-09  3.40564980e-09  1.55082071e-07  3.13559312e-08  3.60000000e-01 
 3.70000000e-01  3.35998489e-09  4.56293445e-01  4.56293445e-01  3.16196654e-09  4.56293445e-01  3.22098491e-09  3.40564973e-09  1.55082057e-07  3.13557997e-08  3.70000000e-01 
 3.80000000e-01  3.35998489e-09  4.56293456e-01  4.56293456e-01  3.16196655e-09  4.56293456e-01  3.22098484e-09  3.40564975e-09  1.55082063e-07  3.13556683e-08  3.80000000e-01 
 3.90000000e-01  3.35998489e-09  4.56293439e-01  4.56293439e-01  3.16196654e-09  4.56293438e-01  3.22098485e-09  3.40564974e-09  1.55082039e-07  3.13557464e-08  3.90000000e-01 
 4.00000000e-01  3.35998489e-09  4.56293472e-01  4.56293472e-01  3.16196655e-09  4.56293472e-01  3.22098491e-09  3.40564980e-09  1.55082078e-07  3.13556150e-08  4.00000000e-01 
 4.10000000e-01  3.35998489e-09  4.56293427e-01  4.56293427e-01  3.16196654e-09  4.56293427e-01  3.22098489e-09  3.40564973e-09  1.55082016e-07  3.13555404e-08  4.10000000e-01 
 4.20000000e-01  3.35998489e-09  4.56293446e-01  4.56293446e-01  3.16196654e-09  4.56293446e-01  3.22098485e-09  3.40564975e-09  1.55082043e-07  3.13555901e-08  4.20000000e-01 
 4.30000000e-01  3.35998489e-09  4.56293441e-01  4.56293441e-01  3.16196654e-09  4.56293441e-01  3.22098485e-09  3.40564974e-09  1.55082042e-07  3.13554729e-08  4.30000000e-01 
 4.40000000e-01  3.35998489e-09  4.56293462e-01  4.56293462e-01  3.16196655e-09  4.56293462e-01  3.22098490e-09  3.40564974e-09  1.55082073e-07  3.13552775e-08  4.40000000e-01 
 4.50000000e-01  3.35998489e-09  4.56293442e-01  4.56293442e-01  3.16196654e-09  4.56293442e-01  3.22098489e-09  3.40564980e-09  1.55082040e-07  3.13552952e-08  4.50000000e-01 
 4.60000000e-01  3.35998489e-09  4.56293461e-01  4.56293461e-01  3.16196655e-09  4.56293461e-01  3.22098491e-09  3.40564973e-09  1.55082048e-07  3.13551780e-08  4.60000000e-01 
 4.70000000e-01  3.35998489e-09  4.56293439e-01  4.56293439e-01  3.16196654e-09  4.56293439e-01  3.22098489e-09  3.40564975e-09  1.55082048e-07  3.13552171e-08  4.70000000e-01 
 4.80000000e-01  3.35998489e-09  4.56293472e-01  4.56293472e-01  3.16196655e-09  4.56293472e-01  3.22098485e-09  3.40564974e-09  1.55082082e-07  3.13550821e-08  4.80000000e-01 
 4.90000000e-01  3.35998489e-09  4.56293444e-01  4.56293444e-01  3.16196654e-09  4.56293444e-01  3.22098485e-09  3.40564974e-09  1.55082037e-07  3.13549933e-08  4.90000000e-01 
 5.00000000e-01  3.35998489e-09  4.56293454e-01  4.56293454e-01  3.16196655e-09  4.56293454e-01  3.22098485e-09  3.40564974e-09  1.55082051e-07  3.13550004e-08  5.00000000e-01 
 5.10000000e-01  3.35998489e-09  4.56293451e-01  4.56293451e-01  3.16196655e-09  4.56293451e-01  3.22098485e-09  3.40564974e-09  1.55082041e-07  3.13548973e-08  5.10000000e-01 
 5.20000000e-01  3.35998489e-09  4.56293440e-01  4.56293440e-01  3.16196654e-09  4.56293440e-01  3.22098485e-09  3.40564980e-09  1.55082042e-07  3.13548938e-08  5.20000000e-01 
 5.30000000e-01  3.35998489e-09  4.56293430e-01  4.56293430e-01  3.16196654e-09  4.56293430e-01  3.22098485e-09  3.40564978e-09  1.55082027e-07  3.13547943e-08  5.30000000e-01 
 5.40000000e-01  3.35998489e-09  4.56293460e-01  4.56293460e-01  3.16196655e-09  4.56293460e-01  3.22098485e-09  3.40564979e-09  1.55082064e-07  3.13547872e-08  5.40000000e-01 
 5.50000000e-01  3.35998489e-09  4.56293440e-01  4.56293440e-01  3.16196654e-09  4.56293440e-01  3.22098485e-09  3.40564973e-09  1.55082040e-07  3.13546984e-08  5.50000000e-01 
 5.60000000e-01  3.35998489e-09  4.56293444e-01  4.56293444e-01  3.16196654e-09  4.56293444e-01  3.22098485e-09  3.40564980e-09  1.55082037e-07  3.13545954e-08  5.60000000e-01 
 5.70000000e-01  3.35998489e-09  4.56293453e-01  4.56293453e-01  3.16196655e-09  4.56293453e-01  3.22098490e-09  3.40564979e-09  1.55082064e-07  3.13545847e-08  5.70000000e-01 
 5.80000000e-01  3.35998489e-09  4.56293457e-01  4.56293457e-01  3.16196655e-09  4.56293457e-01  3.22098484e-09  3.40564973e-09  1.55082069e-07  3.13546522e-08  5.80000000e-01 
 5.90000000e-01  3.35998489e-09  4.56293455e-01  4.56293455e-01  3.16196655e-09  4.56293455e-01  3.22098485e-09  3.40564975e-09  1.55082067e-07  3.13545101e-08  5.90000000e-01 
 6.00000000e-01  3.35998489e-09  4.56293422e-01  4.56293422e-01  3.16196654e-09  4.56293422e-01  3.22098490e-09  3.40564979e-09  1.55082029e-07  3.13543040e-08  6.00000000e-01 
 6.10000000e-01  3.35998489e-09  4.56293454e-01  4.56293454e-01  3.16196655e-09  4.56293454e-01  3.22098484e-09  3.40564979e-09  1.55082062e-07  3.13543609e-08  6.10000000e-01 
 6.20000000e-01  3.35998489e-09  4.56293460e-01  4.56293460e-01  3.16196655e-09  4.56293459e-01  3.22098485e-09  3.40564979e-09  1.55082055e-07  3.13542543e-08  6.20000000e-01 
 6.30000000e-01  3.35998489e-09  4.56293431e-01  4.56293431e-01  3.16196654e-09  4.56293431e-01  3.22098490e-09  3.40564979e-09  1.55082020e-07  3.13540909e-08  6.30000000e-01 
 6.40000000e-01  3.35998489e-09  4.56293454e-01  4.56293454e-01  3.16196655e-09  4.56293454e-01  3.22098489e-09  3.40564973e-09  1.55082067e-07  3.13542330e-08  6.40000000e-01 
 6.50000000e-01  3.35998489e-09  4.56293448e-01  4.56293448e-01  3.16196655e-09  4.56293448e-01  3.22098491e-09  3.40564980e-09  1.55082058e-07  3.13541690e-08  6.50000000e-01 
 6.60000000e-01  3.35998489e-09  4.56293448e-01  4.56293448e-01  3.16196655e-09  4.56293447e-01  3.22098489e-09  3.40564973e-09  1.55082057e-07  3.13541477e-08  6.60000000e-01 
 6.70000000e-01  3.35998489e-09  4.56293424e-01  4.56293424e-01  3.16196654e-09  4.56293424e-01  3.22098485e-09  3.40564974e-09  1.55082009e-07  3.13540127e-08  6.70000000e-01 
 6.80000000e-01  3.35998489e-09  4.56293452e-01  4.56293452e-01  3.16196655e-09  4.56293451e-01  3.22098485e-09  3.40564980e-09  1.55082050e-07  3.13539559e-08  6.80000000e-01 
 6.90000000e-01  3.35998489e-09  4.56293428e-01  4.56293428e-01  3.16196654e-09  4.56293427e-01  3.22098485e-09  3.40564978e-09  1.55082015e-07  3.13539914e-08  6.90000000e-01 
 7.00000000e-01  3.35998489e-09  4.56293471e-01  4.56293471e-01  3.16196655e-09  4.56293471e-01  3.22098491e-09  3.40564974e-09  1.55082078e-07  3.13539772e-08  7.00000000e-01 
 7.10000000e-01  3.35998489e-09  4.56293453e-01  4.56293453e-01  3.16196655e-09  4.56293453e-01  3.22098489e-09  3.40564975e-09  1.55082062e-07  3.13538067e-08  7.10000000e-01 
 7.20000000e-01  3.35998489e-09  4.56293459e-01  4.56293459e-01  3.16196655e-09  4.56293459e-01  3.22098485e-09  3.40564980e-09  1.55082064e-07  3.13538422e-08  7.20000000e-01 
 7.30000000e-01  3.35998489e-09  4.56293462e-01  4.56293462e-01  3.16196655e-09  4.56293462e-01  3.22098490e-09  3.40564979e-09  1.55082068e-07  3.13536930e-08  7.30000000e-01 
 7.40000000e-01  3.35998489e-09  4.56293452e-01  4.56293452e-01  3.16196655e-09  4.56293452e-01  3.22098489e-09  3.40564973e-09  1.55082059e-07  3.13536788e-08  7.40000000e-01 
 7.50000000e-01  3.35998489e-09  4.56293433e-01  4.56293433e-01  3.16196654e-09  4.56293433e-01  3.22098491e-09  3.40564980e-09  1.55082035e-07  3.13536290e-08  7.50000000e-01 
 7.60000000e-01  3.35998489e-09  4.56293461e-01  4.56293461e-01  3.16196655e-09  4.56293461e-01  3.22098484e-09  3.40564979e-09  1.55082065e-07  3.13535722e-08  7.60000000e-01 
 7.70000000e-01  3.35998489e-09  4.56293448e-01  4.56293448e-01  3.16196655e-09  4.56293448e-01  3.22098485e-09  3.40564973e-09  1.55082068e-07  3.13534230e-08  7.70000000e-01 
 7.80000000e-01  3.35998489e-09  4.56293468e-01  4.56293468e-01  3.16196655e-09  4.56293468e-01  3.22098491e-09  3.40564975e-09  1.55082081e-07  3.13535224e-08  7.80000000e-01 
 7.90000000e-01  3.35998484e-09  4.56293454e-01  4.56293454e-01  3.16196655e-09  4.56293454e-01  3.22098489e-09  3.40564974e-09  1.55082048e-07  3.13535011e-08  7.90000000e-01 
 8.00000000e-01  3.35998489e-09  4.56293450e-01  4.56293449e-01  3.16196655e-09  4.56293449e-01  3.22098491e-09  3.40564974e-09  1.55082050e-07  3.13532595e-08  8.00000000e-01 
 8.10000000e-01  3.35998489e-09  4.56293446e-01  4.56293446e-01  3.16196654e-09  4.56293446e-01  3.22098484e-09  3.40564974e-09  1.55082045e-07  3.13532880e-08  8.10000000e-01 
 8.20000000e-01  3.35998489e-09  4.56293441e-01  4.56293441e-01  3.16196654e-09  4.56293440e-01  3.22098491e-09  3.40564974e-09  1.55082050e-07  3.13532382e-08  8.20000000e-01 
 8.30000000e-01  3.35998489e-09  4.56293432e-01  4.56293432e-01  3.16196654e-09  4.56293432e-01  3.22098483e-09  3.40564974e-09  1.55082035e-07  3.13532098e-08  8.30000000e-01 
 8.40000000e-01  3.35998489e-09  4.56293430e-01  4.56293430e-01  3.16196654e-09  4.56293430e-01  3.22098485e-09  3.40564979e-09  1.55082018e-07  3.13530677e-08  8.40000000e-01 
 8.50000000e-01  3.35998489e-09  4.56293463e-01  4.56293463e-01  3.16196655e-09  4.56293462e-01  3.22098485e-09  3.40564973e-09  1.55082082e-07  3.13531601e-08  8.50000000e-01 
 8.60000000e-01  3.35998489e-09  4.56293466e-01  4.56293466e-01  3.16196655e-09  4.56293465e-01  3.22098485e-09  3.40564975e-09  1.55082070e-07  3.13530819e-08  8.60000000e-01 
 8.70000000e-01  3.35998489e-09  4.56293450e-01  4.56293449e-01  3.16196655e-09  4.56293449e-01  3.22098485e-09  3.40564974e-09  1.55082063e-07  3.13529469e-08  8.70000000e-01 
 8.80000000e-01  3.35998489e-09  4.56293443e-01  4.56293443e-01  3.16196654e-09  4.56293443e-01  3.22098490e-09  3.40564980e-09  1.55082055e-07  3.13528616e-08  8.80000000e-01 
 8.90000000e-01  3.35998489e-09  4.56293460e-01  4.56293460e-01  3.16196655e-09  4.56293460e-01  3.22098489e-09  3.40564979e-09  1.55082090e-07  3.13528687e-08  8.90000000e-01 
 9.00000000e-01  3.35998489e-09  4.56293460e-01  4.56293460e-01  3.16196655e-09  4.56293459e-01  3.22098491e-09  3.40564979e-09  1.55082072e-07  3.13527124e-08  9.00000000e-01 
 9.10000000e-01  3.35998489e-09  4.56293450e-01  4.56293450e-01  3.16196655e-09  4.56293450e-01  3.22098489e-09  3.40564973e-09  1.55082053e-07  3.13528119e-08  9.10000000e-01 
 9.20000000e-01  3.35998489e-09  4.56293457e-01  4.56293457e-01  3.16196655e-09  4.56293457e-01  3.22098491e-09  3.40564975e-09  1.55082064e-07  3.13526840e-08  9.20000000e-01 
 9.30000000e-01  3.35998489e-09  4.56293462e-01  4.56293462e-01  3.16196655e-09  4.56293462e-01  3.22098484e-09  3.40564974e-09  1.55082053e-07  3.13525987e-08  9.30000000e-01 
 9.40000000e-01  3.35998489e-09  4.56293447e-01  4.56293447e-01  3.16196655e-09  4.56293447e-01  3.22098485e-09  3.40564974e-09  1.55082059e-07  3.13526911e-08  9.40000000e-01 
 9.50000000e-01  3.35998489e-09  4.56293450e-01  4.56293450e-01  3.16196655e-09  4.56293450e-01  3.22098485e-09  3.40564974e-09  1.55082060e-07  3.13524495e-08  9.50000000e-01 
 9.60000000e-01  3.35998489e-09  4.56293433e-01  4.56293433e-01  3.16196654e-09  4.56293433e-01  3.22098490e-09  3.40564974e-09  1.55082026e-07  3.13524140e-08  9.60000000e-01 
 9.70000000e-01  3.35998489e-09  4.56293438e-01  4.56293438e-01  3.16196654e-09  4.56293438e-01  3.22098489e-09  3.40564974e-09  1.55082040e-07  3.13524353e-08  9.70000000e-01 
 9.80000000e-01  3.35998489e-09  4.56293452e-01  4.56293452e-01  3.16196655e-09  4.56293451e-01  3.22098485e-09  3.40564974e-09  1.55082053e-07  3.13523785e-08  9.80000000e-01 
 9.90000000e-01  3.35998489e-09  4.56293445e-01  4.56293445e-01  3.16196654e-09  4.56293444e-01  3.22098490e-09  3.40564974e-09  1.55082051e-07  3.13523500e-08  9.90000000e-01 
 1.00000000e+00  3.35998489e-09  4.56293446e-01  4.56293446e-01  3.16196654e-09  4.56293446e-01  3.22098484e-09  3.40564980e-09  1.55082041e-07  3.13522222e-08  1.00000000e+00 
 1.01000000e+00  3.35998489e-09  4.56293448e-01  4.56293448e-01  3.16196655e-09  4.56293448e-01  3.22098485e-09  3.40564973e-09  1.55082050e-07  3.13521511e-08  1.01000000e+00 
 1.02000000e+00  3.35998489e-09  4.56293452e-01  4.56293452e-01  3.16196655e-09  4.56293452e-01  3.22098485e-09  3.40564975e-09  1.55082057e-07  3.13521582e-08  1.02000000e+00 
 1.03000000e+00  3.35998489e-09  4.56293467e-01  4.56293467e-01  3.16196655e-09  4.56293466e-01  3.22098485e-09  3.40564974e-09  1.55082079e-07  3.13521085e-08  1.03000000e+00 
 1.04000000e+00  3.35998489e-09  4.56293454e-01  4.56293454e-01  3.16196655e-09  4.56293454e-01  3.22098490e-09  3.40564980e-09  1.55082055e-07  3.13520943e-08  1.04000000e+00 
 1.05000000e+00  3.35998489e-09  4.56293447e-01  4.56293447e-01  3.16196655e-09  4.56293447e-01  3.22098489e-09  3.40564973e-09  1.55082057e-07  3.13518740e-08  1.05000000e+00 
 1.06000000e+00  3.35998489e-09  4.56293449e-01  4.56293449e-01  3.16196655e-09  4.56293448e-01  3.22098491e-09  3.40564975e-09  1.55082046e-07  3.13518669e-08  1.06000000e+00 
 1.07000000e+00  3.35998483e-09  4.56293442e-01  4.56293442e-01  3.16196660e-09  4.56293442e-01  3.22098489e-09  3.40564974e-09  1.55082036e-07  3.13518314e-08  1.07000000e+00 
 1.08000000e+00  3.35998489e-09  4.56293461e-01  4.56293461e-01  3.16196655e-09  4.56293461e-01  3.22098491e-09  3.40564980e-09  1.55082072e-07  3.13516892e-08  1.08000000e+00 
 1.09000000e+00  3.35998489e-09  4.56293447e-01  4.56293447e-01  3.16196655e-09  4.56293447e-01  3.22098489e-09  3.40564978e-09  1.55082048e-07  3.13518740e-08  1.09000000e+00 
 1.10000000e+00  3.35998489e-09  4.56293446e-01  4.56293446e-01  3.16196654e-09  4.56293446e-01  3.22098485e-09  3.40564973e-09  1.55082051e-07  3.13517248e-08  1.10000000e+00 
