 v-sweep         v(b0)           v(b1)           v(b2)           v(b3)           v(b4)           v(b5)           v(b6)           i(vbias)        i(viout)        v(vout)        
 0.00000000e+00  3.34577968e-09  4.54467977e-01  4.54467977e-01  4.54467977e-01  3.08378531e-09  4.54467977e-01  4.54467977e-01  1.53192858e-07  1.46472176e-07  0.00000000e+00 
 1.00000000e-02  3.34577961e-09  4.54468011e-01  4.54468011e-01  4.54468011e-01  3.08378535e-09  4.54468011e-01  4.54468011e-01  1.53192905e-07  1.46471851e-07  1.00000000e-02 
 2.00000000e-02  3.34577966e-09  4.54468000e-01  4.54468000e-01  4.54468000e-01  3.08378535e-09  4.54468000e-01  4.54468000e-01  1.53192902e-07  1.46471341e-07  2.00000000e-02 
 3.00000000e-02  3.34577967e-09  4.54468033e-01  4.54468033e-01  4.54468033e-01  3.08378535e-09  4.54468033e-01  4.54468033e-01  1.53192933e-07  1.46471179e-07  3.00000000e-02 
 4.00000000e-02  3.34577961e-09  4.54468005e-01  4.54468005e-01  4.54468005e-01  3.08378529e-09  4.54468005e-01  4.54468005e-01  1.53192896e-07  1.46470633e-07  4.00000000e-02 
 5.00000000e-02  3.34577967e-09  4.54468021e-01  4.54468021e-01  4.54468021e-01  3.08378529e-09  4.54468021e-01  4.54468021e-01  1.53192921e-07  1.46470188e-07  5.00000000e-02 
 6.00000000e-02  3.34577967e-09  4.54468025e-01  4.54468025e-01  4.54468025e-01  3.08378535e-09  4.54468025e-01  4.54468025e-01  1.53192925e-07  1.46469963e-07  6.00000000e-02 
 7.00000000e-02  3.34577966e-09  4.54468013e-01  4.54468013e-01  4.54468013e-01  3.08378535e-09  4.54468013e-01  4.54468013e-01  1.53192911e-07  1.46469677e-07  7.00000000e-02 
 8.00000000e-02  3.34577961e-09  4.54467978e-01  4.54467978e-01  4.54467978e-01  3.08378535e-09  4.54467978e-01  4.54467978e-01  1.53192865e-07  1.46469149e-07  8.00000000e-02 
 9.00000000e-02  3.34577967e-09  4.54468023e-01  4.54468023e-01  4.54468023e-01  3.08378535e-09  4.54468023e-01  4.54468023e-01  1.53192919e-07  1.46469077e-07  9.00000000e-02 
 1.00000000e-01  3.34577967e-09  4.54468028e-01  4.54468029e-01  4.54468028e-01  3.08378535e-09  4.54468028e-01  4.54468028e-01  1.53192931e-07  1.46468753e-07  1.00000000e-01 
 1.10000000e-01  3.34577966e-09  4.54468006e-01  4.54468006e-01  4.54468006e-01  3.08378529e-09  4.54468006e-01  4.54468006e-01  1.53192907e-07  1.46468468e-07  1.10000000e-01 
 1.20000000e-01  3.34577961e-09  4.54468003e-01  4.54468003e-01  4.54468003e-01  3.08378529e-09  4.54468003e-01  4.54468003e-01  1.53192878e-07  1.46468187e-07  1.20000000e-01 
 1.30000000e-01  3.34577961e-09  4.54468021e-01  4.54468021e-01  4.54468021e-01  3.08378535e-09  4.54468021e-01  4.54468021e-01  1.53192922e-07  1.46467806e-07  1.30000000e-01 
 1.40000000e-01  3.34577966e-09  4.54467992e-01  4.54467992e-01  4.54467992e-01  3.08378535e-09  4.54467992e-01  4.54467992e-01  1.53192895e-07  1.46467633e-07  1.40000000e-01 
 1.50000000e-01  3.34577966e-09  4.54468009e-01  4.54468010e-01  4.54468009e-01  3.08378529e-09  4.54468009e-01  4.54468009e-01  1.53192903e-07  1.46467409e-07  1.50000000e-01 
 1.60000000e-01  3.34577967e-09  4.54468034e-01  4.54468034e-01  4.54468034e-01  3.08378535e-09  4.54468034e-01  4.54468034e-01  1.53192942e-07  1.46467276e-07  1.60000000e-01 
 1.70000000e-01  3.34577966e-09  4.54468000e-01  4.54468000e-01  4.54468000e-01  3.08378535e-09  4.54468000e-01  4.54468000e-01  1.53192897e-07  1.46466917e-07  1.70000000e-01 
 1.80000000e-01  3.34577967e-09  4.54468027e-01  4.54468027e-01  4.54468027e-01  3.08378529e-09  4.54468027e-01  4.54468027e-01  1.53192927e-07  1.46466775e-07  1.80000000e-01 
 1.90000000e-01  3.34577967e-09  4.54468039e-01  4.54468039e-01  4.54468039e-01  3.08378529e-09  4.54468039e-01  4.54468039e-01  1.53192941e-07  1.46466689e-07  1.90000000e-01 
 2.00000000e-01  3.34577967e-09  4.54468028e-01  4.54468028e-01  4.54468028e-01  3.08378535e-09  4.54468028e-01  4.54468028e-01  1.53192925e-07  1.46466334e-07  2.00000000e-01 
 2.10000000e-01  3.34577961e-09  4.54467990e-01  4.54467990e-01  4.54467990e-01  3.08378535e-09  4.54467990e-01  4.54467990e-01  1.53192875e-07  1.46466077e-07  2.10000000e-01 
 2.20000000e-01  3.34577961e-09  4.54468008e-01  4.54468008e-01  4.54468008e-01  3.08378529e-09  4.54468008e-01  4.54468008e-01  1.53192908e-07  1.46465844e-07  2.20000000e-01 
 2.30000000e-01  3.34577961e-09  4.54467991e-01  4.54467992e-01  4.54467991e-01  3.08378535e-09  4.54467991e-01  4.54467992e-01  1.53192878e-07  1.46465769e-07  2.30000000e-01 
 2.40000000e-01  3.34577961e-09  4.54468016e-01  4.54468016e-01  4.54468016e-01  3.08378529e-09  4.54468016e-01  4.54468016e-01  1.53192908e-07  1.46465656e-07  2.40000000e-01 
 2.50000000e-01  3.34577967e-09  4.54468022e-01  4.54468023e-01  4.54468022e-01  3.08378529e-09  4.54468022e-01  4.54468023e-01  1.53192918e-07  1.46465366e-07  2.50000000e-01 
 2.60000000e-01  3.34577966e-09  4.54467996e-01  4.54467996e-01  4.54467996e-01  3.08378529e-09  4.54467996e-01  4.54467996e-01  1.53192890e-07  1.46465281e-07  2.60000000e-01 
 2.70000000e-01  3.34577961e-09  4.54467995e-01  4.54467995e-01  4.54467995e-01  3.08378529e-09  4.54467995e-01  4.54467995e-01  1.53192883e-07  1.46465139e-07  2.70000000e-01 
 2.80000000e-01  3.34577966e-09  4.54467991e-01  4.54467991e-01  4.54467991e-01  3.08378535e-09  4.54467991e-01  4.54467991e-01  1.53192864e-07  1.46464872e-07  2.80000000e-01 
 2.90000000e-01  3.34577961e-09  4.54468028e-01  4.54468028e-01  4.54468028e-01  3.08378529e-09  4.54468028e-01  4.54468028e-01  1.53192928e-07  1.46464817e-07  2.90000000e-01 
 3.00000000e-01  3.34577966e-09  4.54467978e-01  4.54467978e-01  4.54467978e-01  3.08378529e-09  4.54467978e-01  4.54467978e-01  1.53192864e-07  1.46464640e-07  3.00000000e-01 
 3.10000000e-01  3.34577966e-09  4.54468014e-01  4.54468014e-01  4.54468014e-01  3.08378535e-09  4.54468014e-01  4.54468014e-01  1.53192914e-07  1.46464608e-07  3.10000000e-01 
 3.20000000e-01  3.34577967e-09  4.54468027e-01  4.54468027e-01  4.54468027e-01  3.08378529e-09  4.54468027e-01  4.54468027e-01  1.53192921e-07  1.46464501e-07  3.20000000e-01 
 3.30000000e-01  3.34577967e-09  4.54468027e-01  4.54468027e-01  4.54468027e-01  3.08378529e-09  4.54468027e-01  4.54468027e-01  1.53192915e-07  1.46464391e-07  3.30000000e-01 
 3.40000000e-01  3.34577961e-09  4.54467977e-01  4.54467977e-01  4.54467977e-01  3.08378529e-09  4.54467977e-01  4.54467977e-01  1.53192853e-07  1.46464082e-07  3.40000000e-01 
 3.50000000e-01  3.34577966e-09  4.54468004e-01  4.54468004e-01  4.54468004e-01  3.08378535e-09  4.54468004e-01  4.54468004e-01  1.53192898e-07  1.46463961e-07  3.50000000e-01 
 3.60000000e-01  3.34577966e-09  4.54467978e-01  4.54467978e-01  4.54467978e-01  3.08378529e-09  4.54467978e-01  4.54467978e-01  1.53192871e-07  1.46463670e-07  3.60000000e-01 
 3.70000000e-01  3.34577961e-09  4.54468005e-01  4.54468005e-01  4.54468005e-01  3.08378529e-09  4.54468005e-01  4.54468005e-01  1.53192882e-07  1.46463798e-07  3.70000000e-01 
 3.80000000e-01  3.34577961e-09  4.54468008e-01  4.54468008e-01  4.54468008e-01  3.08378535e-09  4.54468008e-01  4.54468008e-01  1.53192903e-07  1.46463549e-07  3.80000000e-01 
 3.90000000e-01  3.34577966e-09  4.54468013e-01  4.54468013e-01  4.54468013e-01  3.08378535e-09  4.54468013e-01  4.54468013e-01  1.53192915e-07  1.46463552e-07  3.90000000e-01 
 4.00000000e-01  3.34577966e-09  4.54468014e-01  4.54468014e-01  4.54468014e-01  3.08378529e-09  4.54468014e-01  4.54468014e-01  1.53192915e-07  1.46463424e-07  4.00000000e-01 
 4.10000000e-01  3.34577966e-09  4.54468004e-01  4.54468004e-01  4.54468004e-01  3.08378535e-09  4.54468004e-01  4.54468004e-01  1.53192914e-07  1.46463353e-07  4.10000000e-01 
 4.20000000e-01  3.34577966e-09  4.54468001e-01  4.54468001e-01  4.54468001e-01  3.08378535e-09  4.54468001e-01  4.54468001e-01  1.53192879e-07  1.46463194e-07  4.20000000e-01 
 4.30000000e-01  3.34577966e-09  4.54468016e-01  4.54468016e-01  4.54468016e-01  3.08378529e-09  4.54468016e-01  4.54468016e-01  1.53192914e-07  1.46463030e-07  4.30000000e-01 
 4.40000000e-01  3.34577961e-09  4.54468011e-01  4.54468012e-01  4.54468012e-01  3.08378535e-09  4.54468012e-01  4.54468012e-01  1.53192918e-07  1.46463055e-07  4.40000000e-01 
 4.50000000e-01  3.34577966e-09  4.54468005e-01  4.54468005e-01  4.54468005e-01  3.08378529e-09  4.54468005e-01  4.54468005e-01  1.53192905e-07  1.46462781e-07  4.50000000e-01 
 4.60000000e-01  3.34577966e-09  4.54467994e-01  4.54467994e-01  4.54467994e-01  3.08378529e-09  4.54467994e-01  4.54467994e-01  1.53192879e-07  1.46462707e-07  4.60000000e-01 
 4.70000000e-01  3.34577967e-09  4.54468029e-01  4.54468029e-01  4.54468029e-01  3.08378529e-09  4.54468029e-01  4.54468029e-01  1.53192936e-07  1.46462657e-07  4.70000000e-01 
 4.80000000e-01  3.34577961e-09  4.54468011e-01  4.54468011e-01  4.54468011e-01  3.08378535e-09  4.54468011e-01  4.54468011e-01  1.53192900e-07  1.46462536e-07  4.80000000e-01 
 4.90000000e-01  3.34577961e-09  4.54467966e-01  4.54467967e-01  4.54467966e-01  3.08378529e-09  4.54467966e-01  4.54467967e-01  1.53192839e-07  1.46462231e-07  4.90000000e-01 
 5.00000000e-01  3.34577966e-09  4.54468006e-01  4.54468006e-01  4.54468006e-01  3.08378529e-09  4.54468006e-01  4.54468006e-01  1.53192907e-07  1.46462348e-07  5.00000000e-01 
 5.10000000e-01  3.34577966e-09  4.54468003e-01  4.54468003e-01  4.54468003e-01  3.08378535e-09  4.54468003e-01  4.54468003e-01  1.53192897e-07  1.46462174e-07  5.10000000e-01 
 5.20000000e-01  3.34577966e-09  4.54468003e-01  4.54468003e-01  4.54468003e-01  3.08378535e-09  4.54468003e-01  4.54468003e-01  1.53192883e-07  1.46462067e-07  5.20000000e-01 
 5.30000000e-01  3.34577961e-09  4.54467977e-01  4.54467977e-01  4.54467977e-01  3.08378529e-09  4.54467977e-01  4.54467977e-01  1.53192845e-07  1.46461851e-07  5.30000000e-01 
 5.40000000e-01  3.34577961e-09  4.54468026e-01  4.54468026e-01  4.54468026e-01  3.08378535e-09  4.54468026e-01  4.54468026e-01  1.53192930e-07  1.46461964e-07  5.40000000e-01 
 5.50000000e-01  3.34577967e-09  4.54468017e-01  4.54468017e-01  4.54468017e-01  3.08378535e-09  4.54468017e-01  4.54468017e-01  1.53192917e-07  1.46461815e-07  5.50000000e-01 
 5.60000000e-01  3.34577961e-09  4.54467999e-01  4.54467999e-01  4.54467999e-01  3.08378535e-09  4.54467999e-01  4.54467999e-01  1.53192882e-07  1.46461591e-07  5.60000000e-01 
 5.70000000e-01  3.34577967e-09  4.54468026e-01  4.54468026e-01  4.54468026e-01  3.08378529e-09  4.54468026e-01  4.54468026e-01  1.53192922e-07  1.46461648e-07  5.70000000e-01 
 5.80000000e-01  3.34577961e-09  4.54468018e-01  4.54468018e-01  4.54468018e-01  3.08378529e-09  4.54468018e-01  4.54468018e-01  1.53192906e-07  1.46461460e-07  5.80000000e-01 
 5.90000000e-01  3.34577967e-09  4.54468017e-01  4.54468017e-01  4.54468017e-01  3.08378535e-09  4.54468017e-01  4.54468017e-01  1.53192922e-07  1.46461467e-07  5.90000000e-01 
 6.00000000e-01  3.34577961e-09  4.54467988e-01  4.54467988e-01  4.54467988e-01  3.08378535e-09  4.54467988e-01  4.54467988e-01  1.53192881e-07  1.46461232e-07  6.00000000e-01 
 6.10000000e-01  3.34577966e-09  4.54467987e-01  4.54467987e-01  4.54467987e-01  3.08378529e-09  4.54467987e-01  4.54467987e-01  1.53192851e-07  1.46461140e-07  6.10000000e-01 
 6.20000000e-01  3.34577967e-09  4.54468018e-01  4.54468019e-01  4.54468018e-01  3.08378529e-09  4.54468018e-01  4.54468018e-01  1.53192915e-07  1.46461090e-07  6.20000000e-01 
 6.30000000e-01  3.34577966e-09  4.54468005e-01  4.54468005e-01  4.54468005e-01  3.08378529e-09  4.54468005e-01  4.54468005e-01  1.53192899e-07  1.46460962e-07  6.30000000e-01 
 6.40000000e-01  3.34577961e-09  4.54468010e-01  4.54468010e-01  4.54468010e-01  3.08378535e-09  4.54468010e-01  4.54468010e-01  1.53192901e-07  1.46460948e-07  6.40000000e-01 
 6.50000000e-01  3.34577966e-09  4.54468009e-01  4.54468009e-01  4.54468009e-01  3.08378535e-09  4.54468009e-01  4.54468009e-01  1.53192894e-07  1.46460721e-07  6.50000000e-01 
 6.60000000e-01  3.34577967e-09  4.54468021e-01  4.54468021e-01  4.54468021e-01  3.08378535e-09  4.54468021e-01  4.54468021e-01  1.53192925e-07  1.46460728e-07  6.60000000e-01 
 6.70000000e-01  3.34577961e-09  4.54468000e-01  4.54468000e-01  4.54468000e-01  3.08378535e-09  4.54468000e-01  4.54468000e-01  1.53192906e-07  1.46460636e-07  6.70000000e-01 
 6.80000000e-01  3.34577967e-09  4.54468024e-01  4.54468024e-01  4.54468024e-01  3.08378529e-09  4.54468024e-01  4.54468024e-01  1.53192929e-07  1.46460543e-07  6.80000000e-01 
 6.90000000e-01  3.34577961e-09  4.54468011e-01  4.54468011e-01  4.54468011e-01  3.08378535e-09  4.54468011e-01  4.54468011e-01  1.53192905e-07  1.46460437e-07  6.90000000e-01 
 7.00000000e-01  3.34577966e-09  4.54468012e-01  4.54468013e-01  4.54468012e-01  3.08378535e-09  4.54468012e-01  4.54468012e-01  1.53192908e-07  1.46460351e-07  7.00000000e-01 
 7.10000000e-01  3.34577961e-09  4.54467988e-01  4.54467989e-01  4.54467988e-01  3.08378529e-09  4.54467988e-01  4.54467988e-01  1.53192881e-07  1.46460081e-07  7.10000000e-01 
 7.20000000e-01  3.34577961e-09  4.54468005e-01  4.54468006e-01  4.54468005e-01  3.08378535e-09  4.54468006e-01  4.54468006e-01  1.53192914e-07  1.46460060e-07  7.20000000e-01 
 7.30000000e-01  3.34577961e-09  4.54467993e-01  4.54467994e-01  4.54467993e-01  3.08378529e-09  4.54467994e-01  4.54467994e-01  1.53192892e-07  1.46459890e-07  7.30000000e-01 
 7.40000000e-01  3.34577967e-09  4.54468020e-01  4.54468020e-01  4.54468020e-01  3.08378535e-09  4.54468020e-01  4.54468020e-01  1.53192923e-07  1.46459939e-07  7.40000000e-01 
 7.50000000e-01  3.34577966e-09  4.54467996e-01  4.54467997e-01  4.54467996e-01  3.08378529e-09  4.54467996e-01  4.54467997e-01  1.53192881e-07  1.46459804e-07  7.50000000e-01 
 7.60000000e-01  3.34577967e-09  4.54468022e-01  4.54468022e-01  4.54468022e-01  3.08378529e-09  4.54468022e-01  4.54468022e-01  1.53192920e-07  1.46459698e-07  7.60000000e-01 
 7.70000000e-01  3.34577961e-09  4.54468015e-01  4.54468015e-01  4.54468015e-01  3.08378529e-09  4.54468015e-01  4.54468015e-01  1.53192914e-07  1.46459627e-07  7.70000000e-01 
 7.80000000e-01  3.34577966e-09  4.54468011e-01  4.54468011e-01  4.54468011e-01  3.08378529e-09  4.54468011e-01  4.54468011e-01  1.53192904e-07  1.46459392e-07  7.80000000e-01 
 7.90000000e-01  3.34577966e-09  4.54467993e-01  4.54467993e-01  4.54467993e-01  3.08378529e-09  4.54467993e-01  4.54467993e-01  1.53192877e-07  1.46459257e-07  7.90000000e-01 
 8.00000000e-01  3.34577967e-09  4.54468024e-01  4.54468025e-01  4.54468024e-01  3.08378535e-09  4.54468024e-01  4.54468025e-01  1.53192922e-07  1.46459293e-07  8.00000000e-01 
 8.10000000e-01  3.34577966e-09  4.54467997e-01  4.54467997e-01  4.54467997e-01  3.08378529e-09  4.54467997e-01  4.54467997e-01  1.53192893e-07  1.46459122e-07  8.10000000e-01 
 8.20000000e-01  3.34577967e-09  4.54468018e-01  4.54468018e-01  4.54468018e-01  3.08378535e-09  4.54468018e-01  4.54468018e-01  1.53192915e-07  1.46459051e-07  8.20000000e-01 
 8.30000000e-01  3.34577966e-09  4.54468002e-01  4.54468002e-01  4.54468002e-01  3.08378535e-09  4.54468002e-01  4.54468002e-01  1.53192879e-07  1.46458902e-07  8.30000000e-01 
 8.40000000e-01  3.34577961e-09  4.54468033e-01  4.54468033e-01  4.54468033e-01  3.08378535e-09  4.54468033e-01  4.54468033e-01  1.53192935e-07  1.46458838e-07  8.40000000e-01 
 8.50000000e-01  3.34577966e-09  4.54468003e-01  4.54468003e-01  4.54468003e-01  3.08378529e-09  4.54468003e-01  4.54468003e-01  1.53192886e-07  1.46458696e-07  8.50000000e-01 
 8.60000000e-01  3.34577967e-09  4.54468019e-01  4.54468019e-01  4.54468019e-01  3.08378535e-09  4.54468019e-01  4.54468019e-01  1.53192927e-07  1.46458568e-07  8.60000000e-01 
 8.70000000e-01  3.34577961e-09  4.54468021e-01  4.54468021e-01  4.54468021e-01  3.08378535e-09  4.54468021e-01  4.54468021e-01  1.53192909e-07  1.46458532e-07  8.70000000e-01 
 8.80000000e-01  3.34577967e-09  4.54468022e-01  4.54468022e-01  4.54468022e-01  3.08378529e-09  4.54468022e-01  4.54468022e-01  1.53192932e-07  1.46458433e-07  8.80000000e-01 
 8.90000000e-01  3.34577966e-09  4.54468002e-01  4.54468002e-01  4.54468002e-01  3.08378535e-09  4.54468002e-01  4.54468002e-01  1.53192911e-07  1.46458369e-07  8.90000000e-01 
 9.00000000e-01  3.34577967e-09  4.54468032e-01  4.54468032e-01  4.54468032e-01  3.08378535e-09  4.54468032e-01  4.54468032e-01  1.53192934e-07  1.46458255e-07  9.00000000e-01 
 9.10000000e-01  3.34577961e-09  4.54467991e-01  4.54467991e-01  4.54467991e-01  3.08378535e-09  4.54467991e-01  4.54467991e-01  1.53192866e-07  1.46457943e-07  9.10000000e-01 
 9.20000000e-01  3.34577961e-09  4.54468046e-01  4.54468046e-01  4.54468046e-01  3.08378535e-09  4.54468046e-01  4.54468046e-01  1.53192951e-07  1.46458198e-07  9.20000000e-01 
 9.30000000e-01  3.34577966e-09  4.54467994e-01  4.54467994e-01  4.54467994e-01  3.08378535e-09  4.54467994e-01  4.54467994e-01  1.53192905e-07  1.46457900e-07  9.30000000e-01 
 9.40000000e-01  3.34577967e-09  4.54468049e-01  4.54468049e-01  4.54468049e-01  3.08378535e-09  4.54468049e-01  4.54468049e-01  1.53192958e-07  1.46457865e-07  9.40000000e-01 
 9.50000000e-01  3.34577961e-09  4.54467990e-01  4.54467990e-01  4.54467990e-01  3.08378535e-09  4.54467990e-01  4.54467990e-01  1.53192892e-07  1.46457531e-07  9.50000000e-01 
 9.60000000e-01  3.34577966e-09  4.54468002e-01  4.54468002e-01  4.54468002e-01  3.08378535e-09  4.54468002e-01  4.54468002e-01  1.53192894e-07  1.46457459e-07  9.60000000e-01 
 9.70000000e-01  3.34577961e-09  4.54467985e-01  4.54467985e-01  4.54467985e-01  3.08378529e-09  4.54467985e-01  4.54467985e-01  1.53192860e-07  1.46457353e-07  9.70000000e-01 
 9.80000000e-01  3.34577967e-09  4.54468027e-01  4.54468027e-01  4.54468027e-01  3.08378529e-09  4.54468027e-01  4.54468027e-01  1.53192939e-07  1.46457317e-07  9.80000000e-01 
 9.90000000e-01  3.34577966e-09  4.54468005e-01  4.54468005e-01  4.54468005e-01  3.08378535e-09  4.54468005e-01  4.54468005e-01  1.53192885e-07  1.46457189e-07  9.90000000e-01 
 1.00000000e+00  3.34577961e-09  4.54468010e-01  4.54468010e-01  4.54468010e-01  3.08378535e-09  4.54468010e-01  4.54468010e-01  1.53192895e-07  1.46457033e-07  1.00000000e+00 
 1.01000000e+00  3.34577961e-09  4.54468032e-01  4.54468033e-01  4.54468032e-01  3.08378529e-09  4.54468032e-01  4.54468032e-01  1.53192941e-07  1.46456976e-07  1.01000000e+00 
 1.02000000e+00  3.34577966e-09  4.54468009e-01  4.54468009e-01  4.54468009e-01  3.08378529e-09  4.54468009e-01  4.54468009e-01  1.53192900e-07  1.46456820e-07  1.02000000e+00 
 1.03000000e+00  3.34577961e-09  4.54468026e-01  4.54468026e-01  4.54468026e-01  3.08378529e-09  4.54468026e-01  4.54468026e-01  1.53192936e-07  1.46456742e-07  1.03000000e+00 
 1.04000000e+00  3.34577966e-09  4.54467980e-01  4.54467980e-01  4.54467980e-01  3.08378529e-09  4.54467980e-01  4.54467980e-01  1.53192849e-07  1.46456344e-07  1.04000000e+00 
 1.05000000e+00  3.34577966e-09  4.54467989e-01  4.54467990e-01  4.54467989e-01  3.08378535e-09  4.54467989e-01  4.54467990e-01  1.53192877e-07  1.46456308e-07  1.05000000e+00 
 1.06000000e+00  3.34577967e-09  4.54468020e-01  4.54468020e-01  4.54468020e-01  3.08378529e-09  4.54468020e-01  4.54468020e-01  1.53192913e-07  1.46456394e-07  1.06000000e+00 
 1.07000000e+00  3.34577966e-09  4.54468010e-01  4.54468010e-01  4.54468010e-01  3.08378535e-09  4.54468010e-01  4.54468010e-01  1.53192895e-07  1.46456145e-07  1.07000000e+00 
 1.08000000e+00  3.34577966e-09  4.54467987e-01  4.54467988e-01  4.54467987e-01  3.08378535e-09  4.54467987e-01  4.54467988e-01  1.53192870e-07  1.46455939e-07  1.08000000e+00 
 1.09000000e+00  3.34577961e-09  4.54468009e-01  4.54468009e-01  4.54468009e-01  3.08378535e-09  4.54468009e-01  4.54468009e-01  1.53192900e-07  1.46455911e-07  1.09000000e+00 
 1.10000000e+00  3.34577966e-09  4.54467988e-01  4.54467988e-01  4.54467988e-01  3.08378535e-09  4.54467988e-01  4.54467988e-01  1.53192884e-07  1.46455712e-07  1.10000000e+00 
