 v-sweep         v(b0)           v(b1)           v(b2)           v(b3)           v(b4)           v(b5)           v(b6)           i(vbias)        i(viout)        v(vout)        
 0.00000000e+00  4.57855453e-01  4.57855453e-01  4.57855453e-01  3.24031115e-09  4.57855453e-01  4.57855453e-01  3.41894081e-09  1.57769160e-07  8.71503349e-08  0.00000000e+00 
 1.00000000e-02  4.57855443e-01  4.57855443e-01  4.57855443e-01  3.24031120e-09  4.57855443e-01  4.57855443e-01  3.41894079e-09  1.57769156e-07  8.71500431e-08  1.00000000e-02 
 2.00000000e-02  4.57855475e-01  4.57855475e-01  4.57855475e-01  3.24031119e-09  4.57855475e-01  4.57855475e-01  3.41894085e-09  1.57769204e-07  8.71495736e-08  2.00000000e-02 
 3.00000000e-02  4.57855457e-01  4.57855457e-01  4.57855457e-01  3.24031119e-09  4.57855457e-01  4.57855457e-01  3.41894085e-09  1.57769164e-07  8.71492534e-08  3.00000000e-02 
 4.00000000e-02  4.57855453e-01  4.57855453e-01  4.57855453e-01  3.24031119e-09  4.57855453e-01  4.57855453e-01  3.41894084e-09  1.57769156e-07  8.71488393e-08  4.00000000e-02 
 5.00000000e-02  4.57855466e-01  4.57855466e-01  4.57855466e-01  3.24031119e-09  4.57855466e-01  4.57855466e-01  3.41894085e-09  1.57769170e-07  8.71484511e-08  5.00000000e-02 
 6.00000000e-02  4.57855466e-01  4.57855466e-01  4.57855466e-01  3.24031119e-09  4.57855466e-01  4.57855466e-01  3.41894079e-09  1.57769196e-07  8.71482371e-08  6.00000000e-02 
 7.00000000e-02  4.57855459e-01  4.57855459e-01  4.57855459e-01  3.24031119e-09  4.57855459e-01  4.57855459e-01  3.41894085e-09  1.57769177e-07  8.71479684e-08  7.00000000e-02 
 8.00000000e-02  4.57855457e-01  4.57855457e-01  4.57855457e-01  3.24031119e-09  4.57855457e-01  4.57855457e-01  3.41894079e-09  1.57769182e-07  8.71474990e-08  8.00000000e-02 
 9.00000000e-02  4.57855460e-01  4.57855460e-01  4.57855460e-01  3.24031119e-09  4.57855460e-01  4.57855460e-01  3.41894085e-09  1.57769176e-07  8.71473826e-08  9.00000000e-02 
 1.00000000e-01  4.57855458e-01  4.57855458e-01  4.57855458e-01  3.24031119e-09  4.57855458e-01  4.57855458e-01  3.41894079e-09  1.57769181e-07  8.71470514e-08  1.00000000e-01 
 1.10000000e-01  4.57855453e-01  4.57855453e-01  4.57855453e-01  3.24031119e-09  4.57855453e-01  4.57855453e-01  3.41894079e-09  1.57769157e-07  8.71468311e-08  1.10000000e-01 
 1.20000000e-01  4.57855461e-01  4.57855461e-01  4.57855461e-01  3.24031119e-09  4.57855461e-01  4.57855461e-01  3.41894079e-09  1.57769171e-07  8.71465486e-08  1.20000000e-01 
 1.30000000e-01  4.57855453e-01  4.57855453e-01  4.57855453e-01  3.24031119e-09  4.57855453e-01  4.57855453e-01  3.41894084e-09  1.57769173e-07  8.71463275e-08  1.30000000e-01 
 1.40000000e-01  4.57855450e-01  4.57855450e-01  4.57855450e-01  3.24031119e-09  4.57855450e-01  4.57855450e-01  3.41894079e-09  1.57769164e-07  8.71460655e-08  1.40000000e-01 
 1.50000000e-01  4.57855475e-01  4.57855475e-01  4.57855475e-01  3.24031114e-09  4.57855475e-01  4.57855475e-01  3.41894085e-09  1.57769185e-07  8.71458230e-08  1.50000000e-01 
 1.60000000e-01  4.57855433e-01  4.57855433e-01  4.57855433e-01  3.24031120e-09  4.57855433e-01  4.57855433e-01  3.41894079e-09  1.57769138e-07  8.71455885e-08  1.60000000e-01 
 1.70000000e-01  4.57855472e-01  4.57855472e-01  4.57855472e-01  3.24031119e-09  4.57855472e-01  4.57855472e-01  3.41894085e-09  1.57769192e-07  8.71454606e-08  1.70000000e-01 
 1.80000000e-01  4.57855465e-01  4.57855465e-01  4.57855465e-01  3.24031119e-09  4.57855465e-01  4.57855465e-01  3.41894085e-09  1.57769198e-07  8.71452830e-08  1.80000000e-01 
 1.90000000e-01  4.57855448e-01  4.57855448e-01  4.57855448e-01  3.24031119e-09  4.57855448e-01  4.57855448e-01  3.41894079e-09  1.57769145e-07  8.71451782e-08  1.90000000e-01 
 2.00000000e-01  4.57855462e-01  4.57855462e-01  4.57855462e-01  3.24031119e-09  4.57855462e-01  4.57855462e-01  3.41894079e-09  1.57769168e-07  8.71449224e-08  2.00000000e-01 
 2.10000000e-01  4.57855462e-01  4.57855462e-01  4.57855462e-01  3.24031119e-09  4.57855462e-01  4.57855462e-01  3.41894079e-09  1.57769180e-07  8.71447607e-08  2.10000000e-01 
 2.20000000e-01  4.57855451e-01  4.57855451e-01  4.57855451e-01  3.24031113e-09  4.57855451e-01  4.57855451e-01  3.41894084e-09  1.57769167e-07  8.71446080e-08  2.20000000e-01 
 2.30000000e-01  4.57855454e-01  4.57855454e-01  4.57855454e-01  3.24031115e-09  4.57855454e-01  4.57855454e-01  3.41894079e-09  1.57769152e-07  8.71445103e-08  2.30000000e-01 
 2.40000000e-01  4.57855462e-01  4.57855462e-01  4.57855462e-01  3.24031120e-09  4.57855462e-01  4.57855462e-01  3.41894085e-09  1.57769172e-07  8.71443699e-08  2.40000000e-01 
 2.50000000e-01  4.57855464e-01  4.57855464e-01  4.57855464e-01  3.24031113e-09  4.57855464e-01  4.57855464e-01  3.41894085e-09  1.57769173e-07  8.71441319e-08  2.50000000e-01 
 2.60000000e-01  4.57855468e-01  4.57855468e-01  4.57855468e-01  3.24031115e-09  4.57855468e-01  4.57855468e-01  3.41894085e-09  1.57769187e-07  8.71440342e-08  2.60000000e-01 
 2.70000000e-01  4.57855445e-01  4.57855445e-01  4.57855445e-01  3.24031114e-09  4.57855445e-01  4.57855445e-01  3.41894079e-09  1.57769140e-07  8.71438388e-08  2.70000000e-01 
 2.80000000e-01  4.57855426e-01  4.57855426e-01  4.57855426e-01  3.24031120e-09  4.57855426e-01  4.57855426e-01  3.41894079e-09  1.57769117e-07  8.71437447e-08  2.80000000e-01 
 2.90000000e-01  4.57855455e-01  4.57855455e-01  4.57855455e-01  3.24031119e-09  4.57855455e-01  4.57855455e-01  3.41894084e-09  1.57769160e-07  8.71435688e-08  2.90000000e-01 
 3.00000000e-01  4.57855452e-01  4.57855452e-01  4.57855452e-01  3.24031113e-09  4.57855452e-01  4.57855452e-01  3.41894079e-09  1.57769159e-07  8.71435653e-08  3.00000000e-01 
 3.10000000e-01  4.57855459e-01  4.57855459e-01  4.57855459e-01  3.24031115e-09  4.57855459e-01  4.57855459e-01  3.41894079e-09  1.57769179e-07  8.71434409e-08  3.10000000e-01 
 3.20000000e-01  4.57855459e-01  4.57855459e-01  4.57855459e-01  3.24031114e-09  4.57855459e-01  4.57855459e-01  3.41894079e-09  1.57769169e-07  8.71433201e-08  3.20000000e-01 
 3.30000000e-01  4.57855442e-01  4.57855442e-01  4.57855442e-01  3.24031114e-09  4.57855442e-01  4.57855442e-01  3.41894079e-09  1.57769143e-07  8.71432135e-08  3.30000000e-01 
 3.40000000e-01  4.57855437e-01  4.57855437e-01  4.57855437e-01  3.24031114e-09  4.57855437e-01  4.57855437e-01  3.41894079e-09  1.57769144e-07  8.71430785e-08  3.40000000e-01 
 3.50000000e-01  4.57855455e-01  4.57855455e-01  4.57855455e-01  3.24031120e-09  4.57855455e-01  4.57855455e-01  3.41894084e-09  1.57769158e-07  8.71430608e-08  3.50000000e-01 
 3.60000000e-01  4.57855450e-01  4.57855449e-01  4.57855449e-01  3.24031113e-09  4.57855449e-01  4.57855450e-01  3.41894079e-09  1.57769159e-07  8.71427837e-08  3.60000000e-01 
 3.70000000e-01  4.57855464e-01  4.57855464e-01  4.57855464e-01  3.24031120e-09  4.57855464e-01  4.57855464e-01  3.41894079e-09  1.57769167e-07  8.71428583e-08  3.70000000e-01 
 3.80000000e-01  4.57855452e-01  4.57855452e-01  4.57855452e-01  3.24031119e-09  4.57855452e-01  4.57855452e-01  3.41894079e-09  1.57769159e-07  8.71427019e-08  3.80000000e-01 
 3.90000000e-01  4.57855478e-01  4.57855478e-01  4.57855478e-01  3.24031119e-09  4.57855478e-01  4.57855478e-01  3.41894079e-09  1.57769198e-07  8.71427304e-08  3.90000000e-01 
 4.00000000e-01  4.57855468e-01  4.57855468e-01  4.57855468e-01  3.24031119e-09  4.57855468e-01  4.57855468e-01  3.41894079e-09  1.57769199e-07  8.71425918e-08  4.00000000e-01 
 4.10000000e-01  4.57855446e-01  4.57855446e-01  4.57855446e-01  3.24031119e-09  4.57855446e-01  4.57855446e-01  3.41894079e-09  1.57769165e-07  8.71424497e-08  4.10000000e-01 
 4.20000000e-01  4.57855467e-01  4.57855466e-01  4.57855466e-01  3.24031119e-09  4.57855466e-01  4.57855466e-01  3.41894085e-09  1.57769180e-07  8.71422579e-08  4.20000000e-01 
 4.30000000e-01  4.57855454e-01  4.57855454e-01  4.57855454e-01  3.24031119e-09  4.57855454e-01  4.57855454e-01  3.41894084e-09  1.57769155e-07  8.71422579e-08  4.30000000e-01 
 4.40000000e-01  4.57855463e-01  4.57855463e-01  4.57855463e-01  3.24031114e-09  4.57855463e-01  4.57855463e-01  3.41894085e-09  1.57769169e-07  8.71421726e-08  4.40000000e-01 
 4.50000000e-01  4.57855448e-01  4.57855448e-01  4.57855448e-01  3.24031120e-09  4.57855448e-01  4.57855448e-01  3.41894079e-09  1.57769154e-07  8.71421051e-08  4.50000000e-01 
 4.60000000e-01  4.57855445e-01  4.57855445e-01  4.57855445e-01  3.24031119e-09  4.57855445e-01  4.57855445e-01  3.41894084e-09  1.57769157e-07  8.71419878e-08  4.60000000e-01 
 4.70000000e-01  4.57855465e-01  4.57855465e-01  4.57855465e-01  3.24031114e-09  4.57855465e-01  4.57855465e-01  3.41894085e-09  1.57769175e-07  8.71419132e-08  4.70000000e-01 
 4.80000000e-01  4.57855442e-01  4.57855442e-01  4.57855442e-01  3.24031115e-09  4.57855442e-01  4.57855442e-01  3.41894079e-09  1.57769156e-07  8.71417853e-08  4.80000000e-01 
 4.90000000e-01  4.57855439e-01  4.57855439e-01  4.57855439e-01  3.24031114e-09  4.57855439e-01  4.57855439e-01  3.41894079e-09  1.57769154e-07  8.71416823e-08  4.90000000e-01 
 5.00000000e-01  4.57855463e-01  4.57855463e-01  4.57855463e-01  3.24031114e-09  4.57855463e-01  4.57855463e-01  3.41894079e-09  1.57769176e-07  8.71416788e-08  5.00000000e-01 
 5.10000000e-01  4.57855458e-01  4.57855458e-01  4.57855458e-01  3.24031120e-09  4.57855458e-01  4.57855458e-01  3.41894079e-09  1.57769167e-07  8.71417143e-08  5.10000000e-01 
 5.20000000e-01  4.57855460e-01  4.57855459e-01  4.57855459e-01  3.24031119e-09  4.57855459e-01  4.57855459e-01  3.41894079e-09  1.57769169e-07  8.71415651e-08  5.20000000e-01 
 5.30000000e-01  4.57855460e-01  4.57855460e-01  4.57855460e-01  3.24031119e-09  4.57855460e-01  4.57855460e-01  3.41894079e-09  1.57769163e-07  8.71415757e-08  5.30000000e-01 
 5.40000000e-01  4.57855465e-01  4.57855465e-01  4.57855465e-01  3.24031119e-09  4.57855465e-01  4.57855465e-01  3.41894079e-09  1.57769196e-07  8.71415580e-08  5.40000000e-01 
 5.50000000e-01  4.57855461e-01  4.57855461e-01  4.57855461e-01  3.24031119e-09  4.57855461e-01  4.57855461e-01  3.41894079e-09  1.57769169e-07  8.71412951e-08  5.50000000e-01 
 5.60000000e-01  4.57855466e-01  4.57855466e-01  4.57855466e-01  3.24031119e-09  4.57855466e-01  4.57855466e-01  3.41894079e-09  1.57769181e-07  8.71412773e-08  5.60000000e-01 
 5.70000000e-01  4.57855451e-01  4.57855451e-01  4.57855451e-01  3.24031119e-09  4.57855451e-01  4.57855451e-01  3.41894079e-09  1.57769170e-07  8.71411139e-08  5.70000000e-01 
 5.80000000e-01  4.57855443e-01  4.57855443e-01  4.57855443e-01  3.24031119e-09  4.57855443e-01  4.57855443e-01  3.41894079e-09  1.57769152e-07  8.71411814e-08  5.80000000e-01 
 5.90000000e-01  4.57855442e-01  4.57855442e-01  4.57855442e-01  3.24031119e-09  4.57855442e-01  4.57855442e-01  3.41894084e-09  1.57769144e-07  8.71409824e-08  5.90000000e-01 
 6.00000000e-01  4.57855454e-01  4.57855454e-01  4.57855454e-01  3.24031119e-09  4.57855454e-01  4.57855454e-01  3.41894079e-09  1.57769153e-07  8.71410180e-08  6.00000000e-01 
 6.10000000e-01  4.57855459e-01  4.57855459e-01  4.57855459e-01  3.24031114e-09  4.57855459e-01  4.57855459e-01  3.41894079e-09  1.57769174e-07  8.71409043e-08  6.10000000e-01 
 6.20000000e-01  4.57855462e-01  4.57855462e-01  4.57855462e-01  3.24031115e-09  4.57855462e-01  4.57855462e-01  3.41894079e-09  1.57769188e-07  8.71408687e-08  6.20000000e-01 
 6.30000000e-01  4.57855448e-01  4.57855448e-01  4.57855448e-01  3.24031120e-09  4.57855448e-01  4.57855448e-01  3.41894079e-09  1.57769156e-07  8.71408830e-08  6.30000000e-01 
 6.40000000e-01  4.57855439e-01  4.57855439e-01  4.57855439e-01  3.24031119e-09  4.57855439e-01  4.57855439e-01  3.41894079e-09  1.57769152e-07  8.71406485e-08  6.40000000e-01 
 6.50000000e-01  4.57855441e-01  4.57855441e-01  4.57855441e-01  3.24031119e-09  4.57855441e-01  4.57855441e-01  3.41894079e-09  1.57769149e-07  8.71406485e-08  6.50000000e-01 
 6.60000000e-01  4.57855469e-01  4.57855468e-01  4.57855468e-01  3.24031119e-09  4.57855468e-01  4.57855468e-01  3.41894085e-09  1.57769168e-07  8.71405632e-08  6.60000000e-01 
 6.70000000e-01  4.57855478e-01  4.57855478e-01  4.57855478e-01  3.24031114e-09  4.57855478e-01  4.57855478e-01  3.41894079e-09  1.57769205e-07  8.71406272e-08  6.70000000e-01 
 6.80000000e-01  4.57855463e-01  4.57855463e-01  4.57855463e-01  3.24031115e-09  4.57855463e-01  4.57855463e-01  3.41894079e-09  1.57769188e-07  8.71404211e-08  6.80000000e-01 
 6.90000000e-01  4.57855444e-01  4.57855444e-01  4.57855444e-01  3.24031114e-09  4.57855444e-01  4.57855444e-01  3.41894084e-09  1.57769149e-07  8.71403856e-08  6.90000000e-01 
 7.00000000e-01  4.57855469e-01  4.57855468e-01  4.57855468e-01  3.24031120e-09  4.57855468e-01  4.57855468e-01  3.41894079e-09  1.57769193e-07  8.71403145e-08  7.00000000e-01 
 7.10000000e-01  4.57855460e-01  4.57855460e-01  4.57855460e-01  3.24031119e-09  4.57855460e-01  4.57855460e-01  3.41894085e-09  1.57769173e-07  8.71402861e-08  7.10000000e-01 
 7.20000000e-01  4.57855455e-01  4.57855455e-01  4.57855455e-01  3.24031119e-09  4.57855455e-01  4.57855455e-01  3.41894079e-09  1.57769165e-07  8.71402861e-08  7.20000000e-01 
 7.30000000e-01  4.57855437e-01  4.57855437e-01  4.57855437e-01  3.24031119e-09  4.57855437e-01  4.57855437e-01  3.41894084e-09  1.57769126e-07  8.71401085e-08  7.30000000e-01 
 7.40000000e-01  4.57855478e-01  4.57855478e-01  4.57855478e-01  3.24031119e-09  4.57855478e-01  4.57855478e-01  3.41894079e-09  1.57769194e-07  8.71400800e-08  7.40000000e-01 
 7.50000000e-01  4.57855463e-01  4.57855463e-01  4.57855463e-01  3.24031119e-09  4.57855463e-01  4.57855463e-01  3.41894079e-09  1.57769174e-07  8.71400090e-08  7.50000000e-01 
 7.60000000e-01  4.57855461e-01  4.57855461e-01  4.57855461e-01  3.24031114e-09  4.57855461e-01  4.57855461e-01  3.41894079e-09  1.57769174e-07  8.71399308e-08  7.60000000e-01 
 7.70000000e-01  4.57855458e-01  4.57855458e-01  4.57855458e-01  3.24031115e-09  4.57855458e-01  4.57855458e-01  3.41894079e-09  1.57769162e-07  8.71398953e-08  7.70000000e-01 
 7.80000000e-01  4.57855478e-01  4.57855478e-01  4.57855478e-01  3.24031120e-09  4.57855478e-01  4.57855478e-01  3.41894079e-09  1.57769198e-07  8.71396892e-08  7.80000000e-01 
 7.90000000e-01  4.57855423e-01  4.57855423e-01  4.57855423e-01  3.24031118e-09  4.57855423e-01  4.57855423e-01  3.41894079e-09  1.57769114e-07  8.71396324e-08  7.90000000e-01 
 8.00000000e-01  4.57855468e-01  4.57855468e-01  4.57855468e-01  3.24031114e-09  4.57855468e-01  4.57855468e-01  3.41894085e-09  1.57769187e-07  8.71396253e-08  8.00000000e-01 
 8.10000000e-01  4.57855475e-01  4.57855475e-01  4.57855475e-01  3.24031121e-09  4.57855475e-01  4.57855475e-01  3.41894085e-09  1.57769206e-07  8.71394619e-08  8.10000000e-01 
 8.20000000e-01  4.57855451e-01  4.57855450e-01  4.57855450e-01  3.24031119e-09  4.57855450e-01  4.57855451e-01  3.41894084e-09  1.57769153e-07  8.71394903e-08  8.20000000e-01 
 8.30000000e-01  4.57855455e-01  4.57855455e-01  4.57855455e-01  3.24031113e-09  4.57855455e-01  4.57855455e-01  3.41894079e-09  1.57769155e-07  8.71391848e-08  8.30000000e-01 
 8.40000000e-01  4.57855484e-01  4.57855484e-01  4.57855484e-01  3.24031121e-09  4.57855484e-01  4.57855484e-01  3.41894079e-09  1.57769214e-07  8.71394334e-08  8.40000000e-01 
 8.50000000e-01  4.57855460e-01  4.57855460e-01  4.57855460e-01  3.24031119e-09  4.57855460e-01  4.57855460e-01  3.41894079e-09  1.57769178e-07  8.71392558e-08  8.50000000e-01 
 8.60000000e-01  4.57855460e-01  4.57855460e-01  4.57855460e-01  3.24031114e-09  4.57855460e-01  4.57855460e-01  3.41894085e-09  1.57769173e-07  8.71391634e-08  8.60000000e-01 
 8.70000000e-01  4.57855480e-01  4.57855480e-01  4.57855480e-01  3.24031121e-09  4.57855480e-01  4.57855480e-01  3.41894079e-09  1.57769198e-07  8.71391563e-08  8.70000000e-01 
 8.80000000e-01  4.57855450e-01  4.57855449e-01  4.57855449e-01  3.24031113e-09  4.57855449e-01  4.57855449e-01  3.41894079e-09  1.57769166e-07  8.71389361e-08  8.80000000e-01 
 8.90000000e-01  4.57855435e-01  4.57855434e-01  4.57855434e-01  3.24031120e-09  4.57855434e-01  4.57855435e-01  3.41894084e-09  1.57769136e-07  8.71389787e-08  8.90000000e-01 
 9.00000000e-01  4.57855471e-01  4.57855471e-01  4.57855471e-01  3.24031119e-09  4.57855471e-01  4.57855471e-01  3.41894079e-09  1.57769177e-07  8.71390355e-08  9.00000000e-01 
 9.10000000e-01  4.57855441e-01  4.57855441e-01  4.57855441e-01  3.24031119e-09  4.57855441e-01  4.57855441e-01  3.41894084e-09  1.57769154e-07  8.71387229e-08  9.10000000e-01 
 9.20000000e-01  4.57855460e-01  4.57855460e-01  4.57855460e-01  3.24031114e-09  4.57855460e-01  4.57855460e-01  3.41894079e-09  1.57769164e-07  8.71387655e-08  9.20000000e-01 
 9.30000000e-01  4.57855461e-01  4.57855461e-01  4.57855461e-01  3.24031120e-09  4.57855461e-01  4.57855461e-01  3.41894079e-09  1.57769169e-07  8.71386376e-08  9.30000000e-01 
 9.40000000e-01  4.57855471e-01  4.57855471e-01  4.57855471e-01  3.24031119e-09  4.57855471e-01  4.57855471e-01  3.41894079e-09  1.57769191e-07  8.71387158e-08  9.40000000e-01 
 9.50000000e-01  4.57855446e-01  4.57855446e-01  4.57855446e-01  3.24031119e-09  4.57855446e-01  4.57855446e-01  3.41894079e-09  1.57769158e-07  8.71384245e-08  9.50000000e-01 
 9.60000000e-01  4.57855423e-01  4.57855423e-01  4.57855423e-01  3.24031119e-09  4.57855423e-01  4.57855423e-01  3.41894079e-09  1.57769114e-07  8.71383037e-08  9.60000000e-01 
 9.70000000e-01  4.57855458e-01  4.57855458e-01  4.57855458e-01  3.24031119e-09  4.57855458e-01  4.57855458e-01  3.41894079e-09  1.57769164e-07  8.71385026e-08  9.70000000e-01 
 9.80000000e-01  4.57855452e-01  4.57855452e-01  4.57855452e-01  3.24031113e-09  4.57855452e-01  4.57855452e-01  3.41894079e-09  1.57769154e-07  8.71382184e-08  9.80000000e-01 
 9.90000000e-01  4.57855449e-01  4.57855449e-01  4.57855449e-01  3.24031115e-09  4.57855449e-01  4.57855449e-01  3.41894079e-09  1.57769155e-07  8.71381474e-08  9.90000000e-01 
 1.00000000e+00  4.57855444e-01  4.57855444e-01  4.57855444e-01  3.24031120e-09  4.57855444e-01  4.57855444e-01  3.41894079e-09  1.57769144e-07  8.71380195e-08  1.00000000e+00 
 1.01000000e+00  4.57855469e-01  4.57855469e-01  4.57855469e-01  3.24031119e-09  4.57855469e-01  4.57855469e-01  3.41894085e-09  1.57769184e-07  8.71381047e-08  1.01000000e+00 
 1.02000000e+00  4.57855459e-01  4.57855459e-01  4.57855459e-01  3.24031119e-09  4.57855459e-01  4.57855459e-01  3.41894079e-09  1.57769160e-07  8.71380550e-08  1.02000000e+00 
 1.03000000e+00  4.57855443e-01  4.57855443e-01  4.57855443e-01  3.24031119e-09  4.57855443e-01  4.57855443e-01  3.41894084e-09  1.57769151e-07  8.71378987e-08  1.03000000e+00 
 1.04000000e+00  4.57855440e-01  4.57855440e-01  4.57855440e-01  3.24031119e-09  4.57855440e-01  4.57855440e-01  3.41894079e-09  1.57769139e-07  8.71378205e-08  1.04000000e+00 
 1.05000000e+00  4.57855460e-01  4.57855460e-01  4.57855460e-01  3.24031119e-09  4.57855460e-01  4.57855460e-01  3.41894079e-09  1.57769180e-07  8.71377068e-08  1.05000000e+00 
 1.06000000e+00  4.57855445e-01  4.57855445e-01  4.57855445e-01  3.24031113e-09  4.57855445e-01  4.57855445e-01  3.41894079e-09  1.57769147e-07  8.71376855e-08  1.06000000e+00 
 1.07000000e+00  4.57855439e-01  4.57855439e-01  4.57855439e-01  3.24031120e-09  4.57855439e-01  4.57855439e-01  3.41894084e-09  1.57769140e-07  8.71375505e-08  1.07000000e+00 
 1.08000000e+00  4.57855462e-01  4.57855462e-01  4.57855462e-01  3.24031119e-09  4.57855462e-01  4.57855462e-01  3.41894079e-09  1.57769181e-07  8.71375505e-08  1.08000000e+00 
 1.09000000e+00  4.57855456e-01  4.57855456e-01  4.57855456e-01  3.24031113e-09  4.57855456e-01  4.57855456e-01  3.41894079e-09  1.57769159e-07  8.71374581e-08  1.09000000e+00 
 1.10000000e+00  4.57855462e-01  4.57855462e-01  4.57855462e-01  3.24031115e-09  4.57855462e-01  4.57855462e-01  3.41894079e-09  1.57769169e-07  8.71372805e-08  1.10000000e+00 
