 v-sweep         v(b0)           v(b1)           v(b2)           v(b3)           v(b4)           v(b5)           v(b6)           i(vbias)        i(viout)        v(vout)        
 0.00000000e+00  3.19979911e-09  4.59317612e-01  4.59317612e-01  4.59317612e-01  3.35402896e-09  3.12005823e-09  4.59317612e-01  1.59795885e-07  1.18621950e-07  0.00000000e+00 
 1.00000000e-02  3.19979914e-09  4.59317599e-01  4.59317599e-01  4.59317599e-01  3.35402899e-09  3.12005821e-09  4.59317599e-01  1.59795856e-07  1.18621312e-07  1.00000000e-02 
 2.00000000e-02  3.19979914e-09  4.59317592e-01  4.59317591e-01  4.59317592e-01  3.35402893e-09  3.12005815e-09  4.59317591e-01  1.59795862e-07  1.18620914e-07  2.00000000e-02 
 3.00000000e-02  3.19979914e-09  4.59317608e-01  4.59317608e-01  4.59317608e-01  3.35402893e-09  3.12005821e-09  4.59317608e-01  1.59795881e-07  1.18620554e-07  3.00000000e-02 
 4.00000000e-02  3.19979914e-09  4.59317584e-01  4.59317584e-01  4.59317584e-01  3.35402899e-09  3.12005815e-09  4.59317584e-01  1.59795842e-07  1.18620126e-07  4.00000000e-02 
 5.00000000e-02  3.19979914e-09  4.59317615e-01  4.59317615e-01  4.59317615e-01  3.35402893e-09  3.12005821e-09  4.59317615e-01  1.59795894e-07  1.18619928e-07  5.00000000e-02 
 6.00000000e-02  3.19979914e-09  4.59317598e-01  4.59317598e-01  4.59317598e-01  3.35402893e-09  3.12005821e-09  4.59317598e-01  1.59795845e-07  1.18619524e-07  6.00000000e-02 
 7.00000000e-02  3.19979914e-09  4.59317591e-01  4.59317591e-01  4.59317591e-01  3.35402899e-09  3.12005821e-09  4.59317591e-01  1.59795876e-07  1.18619241e-07  7.00000000e-02 
 8.00000000e-02  3.19979914e-09  4.59317589e-01  4.59317589e-01  4.59317589e-01  3.35402893e-09  3.12005815e-09  4.59317589e-01  1.59795848e-07  1.18618825e-07  8.00000000e-02 
 9.00000000e-02  3.19979914e-09  4.59317601e-01  4.59317601e-01  4.59317601e-01  3.35402899e-09  3.12005815e-09  4.59317601e-01  1.59795870e-07  1.18618624e-07  9.00000000e-02 
 1.00000000e-01  3.19979914e-09  4.59317601e-01  4.59317600e-01  4.59317600e-01  3.35402893e-09  3.12005815e-09  4.59317600e-01  1.59795868e-07  1.18618429e-07  1.00000000e-01 
 1.10000000e-01  3.19979914e-09  4.59317615e-01  4.59317615e-01  4.59317615e-01  3.35402899e-09  3.12005815e-09  4.59317615e-01  1.59795878e-07  1.18618039e-07  1.10000000e-01 
 1.20000000e-01  3.19979914e-09  4.59317562e-01  4.59317562e-01  4.59317562e-01  3.35402893e-09  3.12005815e-09  4.59317562e-01  1.59795814e-07  1.18617635e-07  1.20000000e-01 
 1.30000000e-01  3.19979914e-09  4.59317597e-01  4.59317597e-01  4.59317597e-01  3.35402899e-09  3.12005815e-09  4.59317597e-01  1.59795860e-07  1.18617590e-07  1.30000000e-01 
 1.40000000e-01  3.19979914e-09  4.59317587e-01  4.59317587e-01  4.59317587e-01  3.35402893e-09  3.12005815e-09  4.59317587e-01  1.59795841e-07  1.18617324e-07  1.40000000e-01 
 1.50000000e-01  3.19979914e-09  4.59317570e-01  4.59317570e-01  4.59317570e-01  3.35402899e-09  3.12005821e-09  4.59317570e-01  1.59795824e-07  1.18617017e-07  1.50000000e-01 
 1.60000000e-01  3.19979915e-09  4.59317619e-01  4.59317619e-01  4.59317619e-01  3.35402899e-09  3.12005815e-09  4.59317619e-01  1.59795902e-07  1.18616825e-07  1.60000000e-01 
 1.70000000e-01  3.19979914e-09  4.59317597e-01  4.59317597e-01  4.59317597e-01  3.35402893e-09  3.12005815e-09  4.59317597e-01  1.59795866e-07  1.18616736e-07  1.70000000e-01 
 1.80000000e-01  3.19979914e-09  4.59317615e-01  4.59317614e-01  4.59317615e-01  3.35402893e-09  3.12005821e-09  4.59317614e-01  1.59795883e-07  1.18616523e-07  1.80000000e-01 
 1.90000000e-01  3.19979914e-09  4.59317580e-01  4.59317580e-01  4.59317580e-01  3.35402899e-09  3.12005815e-09  4.59317580e-01  1.59795832e-07  1.18616263e-07  1.90000000e-01 
 2.00000000e-01  3.19979914e-09  4.59317599e-01  4.59317599e-01  4.59317599e-01  3.35402893e-09  3.12005815e-09  4.59317599e-01  1.59795870e-07  1.18616025e-07  2.00000000e-01 
 2.10000000e-01  3.19979914e-09  4.59317596e-01  4.59317596e-01  4.59317596e-01  3.35402893e-09  3.12005815e-09  4.59317596e-01  1.59795849e-07  1.18615898e-07  2.10000000e-01 
 2.20000000e-01  3.19979914e-09  4.59317581e-01  4.59317581e-01  4.59317581e-01  3.35402899e-09  3.12005821e-09  4.59317581e-01  1.59795845e-07  1.18615759e-07  2.20000000e-01 
 2.30000000e-01  3.19979914e-09  4.59317593e-01  4.59317593e-01  4.59317593e-01  3.35402899e-09  3.12005821e-09  4.59317593e-01  1.59795855e-07  1.18615622e-07  2.30000000e-01 
 2.40000000e-01  3.19979914e-09  4.59317594e-01  4.59317594e-01  4.59317594e-01  3.35402899e-09  3.12005821e-09  4.59317594e-01  1.59795848e-07  1.18615516e-07  2.40000000e-01 
 2.50000000e-01  3.19979914e-09  4.59317592e-01  4.59317592e-01  4.59317592e-01  3.35402893e-09  3.12005815e-09  4.59317592e-01  1.59795857e-07  1.18615395e-07  2.50000000e-01 
 2.60000000e-01  3.19979914e-09  4.59317585e-01  4.59317585e-01  4.59317585e-01  3.35402899e-09  3.12005821e-09  4.59317585e-01  1.59795856e-07  1.18615125e-07  2.60000000e-01 
 2.70000000e-01  3.19979914e-09  4.59317608e-01  4.59317608e-01  4.59317608e-01  3.35402893e-09  3.12005821e-09  4.59317608e-01  1.59795876e-07  1.18615011e-07  2.70000000e-01 
 2.80000000e-01  3.19979914e-09  4.59317576e-01  4.59317576e-01  4.59317576e-01  3.35402893e-09  3.12005821e-09  4.59317576e-01  1.59795827e-07  1.18614839e-07  2.80000000e-01 
 2.90000000e-01  3.19979914e-09  4.59317590e-01  4.59317590e-01  4.59317590e-01  3.35402899e-09  3.12005821e-09  4.59317590e-01  1.59795857e-07  1.18614654e-07  2.90000000e-01 
 3.00000000e-01  3.19979914e-09  4.59317592e-01  4.59317592e-01  4.59317592e-01  3.35402893e-09  3.12005815e-09  4.59317592e-01  1.59795864e-07  1.18614611e-07  3.00000000e-01 
 3.10000000e-01  3.19979914e-09  4.59317595e-01  4.59317595e-01  4.59317595e-01  3.35402893e-09  3.12005815e-09  4.59317595e-01  1.59795868e-07  1.18614484e-07  3.10000000e-01 
 3.20000000e-01  3.19979914e-09  4.59317580e-01  4.59317580e-01  4.59317580e-01  3.35402893e-09  3.12005821e-09  4.59317580e-01  1.59795826e-07  1.18614324e-07  3.20000000e-01 
 3.30000000e-01  3.19979914e-09  4.59317581e-01  4.59317581e-01  4.59317581e-01  3.35402899e-09  3.12005815e-09  4.59317581e-01  1.59795857e-07  1.18614253e-07  3.30000000e-01 
 3.40000000e-01  3.19979914e-09  4.59317601e-01  4.59317601e-01  4.59317601e-01  3.35402893e-09  3.12005821e-09  4.59317601e-01  1.59795871e-07  1.18614121e-07  3.40000000e-01 
 3.50000000e-01  3.19979914e-09  4.59317611e-01  4.59317611e-01  4.59317611e-01  3.35402899e-09  3.12005815e-09  4.59317611e-01  1.59795885e-07  1.18614160e-07  3.50000000e-01 
 3.60000000e-01  3.19979914e-09  4.59317591e-01  4.59317591e-01  4.59317591e-01  3.35402893e-09  3.12005815e-09  4.59317591e-01  1.59795848e-07  1.18613961e-07  3.60000000e-01 
 3.70000000e-01  3.19979914e-09  4.59317596e-01  4.59317596e-01  4.59317596e-01  3.35402899e-09  3.12005815e-09  4.59317596e-01  1.59795852e-07  1.18613759e-07  3.70000000e-01 
 3.80000000e-01  3.19979914e-09  4.59317576e-01  4.59317576e-01  4.59317576e-01  3.35402893e-09  3.12005821e-09  4.59317576e-01  1.59795828e-07  1.18613613e-07  3.80000000e-01 
 3.90000000e-01  3.19979914e-09  4.59317604e-01  4.59317603e-01  4.59317604e-01  3.35402899e-09  3.12005815e-09  4.59317603e-01  1.59795884e-07  1.18613535e-07  3.90000000e-01 
 4.00000000e-01  3.19979914e-09  4.59317580e-01  4.59317580e-01  4.59317580e-01  3.35402899e-09  3.12005821e-09  4.59317580e-01  1.59795841e-07  1.18613428e-07  4.00000000e-01 
 4.10000000e-01  3.19979914e-09  4.59317573e-01  4.59317572e-01  4.59317572e-01  3.35402899e-09  3.12005815e-09  4.59317572e-01  1.59795840e-07  1.18613308e-07  4.10000000e-01 
 4.20000000e-01  3.19979914e-09  4.59317616e-01  4.59317615e-01  4.59317616e-01  3.35402899e-09  3.12005821e-09  4.59317615e-01  1.59795896e-07  1.18613304e-07  4.20000000e-01 
 4.30000000e-01  3.19979914e-09  4.59317589e-01  4.59317589e-01  4.59317589e-01  3.35402899e-09  3.12005815e-09  4.59317589e-01  1.59795839e-07  1.18613325e-07  4.30000000e-01 
 4.40000000e-01  3.19979914e-09  4.59317591e-01  4.59317590e-01  4.59317591e-01  3.35402893e-09  3.12005815e-09  4.59317590e-01  1.59795848e-07  1.18613102e-07  4.40000000e-01 
 4.50000000e-01  3.19979914e-09  4.59317561e-01  4.59317561e-01  4.59317561e-01  3.35402899e-09  3.12005815e-09  4.59317561e-01  1.59795815e-07  1.18613013e-07  4.50000000e-01 
 4.60000000e-01  3.19979914e-09  4.59317600e-01  4.59317600e-01  4.59317600e-01  3.35402899e-09  3.12005821e-09  4.59317600e-01  1.59795877e-07  1.18612903e-07  4.60000000e-01 
 4.70000000e-01  3.19979914e-09  4.59317600e-01  4.59317600e-01  4.59317600e-01  3.35402893e-09  3.12005815e-09  4.59317600e-01  1.59795856e-07  1.18612867e-07  4.70000000e-01 
 4.80000000e-01  3.19979914e-09  4.59317605e-01  4.59317605e-01  4.59317605e-01  3.35402893e-09  3.12005821e-09  4.59317605e-01  1.59795879e-07  1.18612789e-07  4.80000000e-01 
 4.90000000e-01  3.19979914e-09  4.59317604e-01  4.59317604e-01  4.59317604e-01  3.35402899e-09  3.12005821e-09  4.59317604e-01  1.59795871e-07  1.18612739e-07  4.90000000e-01 
 5.00000000e-01  3.19979914e-09  4.59317601e-01  4.59317600e-01  4.59317601e-01  3.35402899e-09  3.12005821e-09  4.59317600e-01  1.59795861e-07  1.18612611e-07  5.00000000e-01 
 5.10000000e-01  3.19979914e-09  4.59317575e-01  4.59317575e-01  4.59317575e-01  3.35402899e-09  3.12005815e-09  4.59317575e-01  1.59795827e-07  1.18612515e-07  5.10000000e-01 
 5.20000000e-01  3.19979914e-09  4.59317591e-01  4.59317591e-01  4.59317591e-01  3.35402893e-09  3.12005815e-09  4.59317591e-01  1.59795862e-07  1.18612373e-07  5.20000000e-01 
 5.30000000e-01  3.19979915e-09  4.59317629e-01  4.59317629e-01  4.59317629e-01  3.35402899e-09  3.12005815e-09  4.59317629e-01  1.59795889e-07  1.18612384e-07  5.30000000e-01 
 5.40000000e-01  3.19979914e-09  4.59317609e-01  4.59317609e-01  4.59317609e-01  3.35402893e-09  3.12005821e-09  4.59317609e-01  1.59795886e-07  1.18612260e-07  5.40000000e-01 
 5.50000000e-01  3.19979914e-09  4.59317598e-01  4.59317598e-01  4.59317598e-01  3.35402893e-09  3.12005815e-09  4.59317598e-01  1.59795863e-07  1.18612178e-07  5.50000000e-01 
 5.60000000e-01  3.19979914e-09  4.59317606e-01  4.59317606e-01  4.59317606e-01  3.35402899e-09  3.12005821e-09  4.59317606e-01  1.59795884e-07  1.18612025e-07  5.60000000e-01 
 5.70000000e-01  3.19979915e-09  4.59317627e-01  4.59317627e-01  4.59317627e-01  3.35402899e-09  3.12005821e-09  4.59317627e-01  1.59795909e-07  1.18612132e-07  5.70000000e-01 
 5.80000000e-01  3.19979915e-09  4.59317623e-01  4.59317623e-01  4.59317623e-01  3.35402893e-09  3.12005821e-09  4.59317623e-01  1.59795898e-07  1.18611979e-07  5.80000000e-01 
 5.90000000e-01  3.19979914e-09  4.59317612e-01  4.59317612e-01  4.59317612e-01  3.35402893e-09  3.12005821e-09  4.59317612e-01  1.59795884e-07  1.18611851e-07  5.90000000e-01 
 6.00000000e-01  3.19979914e-09  4.59317596e-01  4.59317596e-01  4.59317596e-01  3.35402893e-09  3.12005821e-09  4.59317596e-01  1.59795873e-07  1.18611709e-07  6.00000000e-01 
 6.10000000e-01  3.19979914e-09  4.59317579e-01  4.59317579e-01  4.59317579e-01  3.35402899e-09  3.12005815e-09  4.59317579e-01  1.59795840e-07  1.18611553e-07  6.10000000e-01 
 6.20000000e-01  3.19979914e-09  4.59317587e-01  4.59317586e-01  4.59317587e-01  3.35402893e-09  3.12005821e-09  4.59317586e-01  1.59795858e-07  1.18611474e-07  6.20000000e-01 
 6.30000000e-01  3.19979914e-09  4.59317594e-01  4.59317593e-01  4.59317594e-01  3.35402899e-09  3.12005821e-09  4.59317593e-01  1.59795850e-07  1.18611474e-07  6.30000000e-01 
 6.40000000e-01  3.19979914e-09  4.59317580e-01  4.59317580e-01  4.59317580e-01  3.35402893e-09  3.12005821e-09  4.59317580e-01  1.59795834e-07  1.18611425e-07  6.40000000e-01 
 6.50000000e-01  3.19979914e-09  4.59317610e-01  4.59317610e-01  4.59317610e-01  3.35402893e-09  3.12005815e-09  4.59317610e-01  1.59795881e-07  1.18611354e-07  6.50000000e-01 
 6.60000000e-01  3.19979914e-09  4.59317586e-01  4.59317586e-01  4.59317586e-01  3.35402893e-09  3.12005815e-09  4.59317586e-01  1.59795831e-07  1.18611169e-07  6.60000000e-01 
 6.70000000e-01  3.19979914e-09  4.59317579e-01  4.59317579e-01  4.59317579e-01  3.35402899e-09  3.12005815e-09  4.59317579e-01  1.59795845e-07  1.18611126e-07  6.70000000e-01 
 6.80000000e-01  3.19979914e-09  4.59317589e-01  4.59317589e-01  4.59317589e-01  3.35402893e-09  3.12005815e-09  4.59317589e-01  1.59795864e-07  1.18611077e-07  6.80000000e-01 
 6.90000000e-01  3.19979914e-09  4.59317596e-01  4.59317596e-01  4.59317596e-01  3.35402893e-09  3.12005815e-09  4.59317596e-01  1.59795859e-07  1.18611005e-07  6.90000000e-01 
 7.00000000e-01  3.19979914e-09  4.59317599e-01  4.59317599e-01  4.59317599e-01  3.35402899e-09  3.12005815e-09  4.59317599e-01  1.59795868e-07  1.18610799e-07  7.00000000e-01 
 7.10000000e-01  3.19979914e-09  4.59317591e-01  4.59317591e-01  4.59317591e-01  3.35402893e-09  3.12005821e-09  4.59317591e-01  1.59795850e-07  1.18610799e-07  7.10000000e-01 
 7.20000000e-01  3.19979914e-09  4.59317591e-01  4.59317591e-01  4.59317591e-01  3.35402893e-09  3.12005821e-09  4.59317591e-01  1.59795859e-07  1.18610743e-07  7.20000000e-01 
 7.30000000e-01  3.19979914e-09  4.59317598e-01  4.59317598e-01  4.59317598e-01  3.35402893e-09  3.12005821e-09  4.59317598e-01  1.59795869e-07  1.18610672e-07  7.30000000e-01 
 7.40000000e-01  3.19979914e-09  4.59317606e-01  4.59317605e-01  4.59317606e-01  3.35402893e-09  3.12005815e-09  4.59317605e-01  1.59795877e-07  1.18610572e-07  7.40000000e-01 
 7.50000000e-01  3.19979914e-09  4.59317610e-01  4.59317610e-01  4.59317610e-01  3.35402899e-09  3.12005821e-09  4.59317610e-01  1.59795880e-07  1.18610522e-07  7.50000000e-01 
 7.60000000e-01  3.19979914e-09  4.59317613e-01  4.59317613e-01  4.59317613e-01  3.35402899e-09  3.12005821e-09  4.59317613e-01  1.59795888e-07  1.18610458e-07  7.60000000e-01 
 7.70000000e-01  3.19979914e-09  4.59317565e-01  4.59317565e-01  4.59317565e-01  3.35402899e-09  3.12005815e-09  4.59317565e-01  1.59795811e-07  1.18610131e-07  7.70000000e-01 
 7.80000000e-01  3.19979914e-09  4.59317595e-01  4.59317595e-01  4.59317595e-01  3.35402899e-09  3.12005821e-09  4.59317595e-01  1.59795837e-07  1.18610153e-07  7.80000000e-01 
 7.90000000e-01  3.19979914e-09  4.59317592e-01  4.59317592e-01  4.59317592e-01  3.35402893e-09  3.12005815e-09  4.59317592e-01  1.59795855e-07  1.18610039e-07  7.90000000e-01 
 8.00000000e-01  3.19979914e-09  4.59317588e-01  4.59317588e-01  4.59317588e-01  3.35402893e-09  3.12005821e-09  4.59317588e-01  1.59795864e-07  1.18610011e-07  8.00000000e-01 
 8.10000000e-01  3.19979914e-09  4.59317607e-01  4.59317607e-01  4.59317607e-01  3.35402893e-09  3.12005821e-09  4.59317607e-01  1.59795892e-07  1.18609996e-07  8.10000000e-01 
 8.20000000e-01  3.19979914e-09  4.59317601e-01  4.59317601e-01  4.59317601e-01  3.35402893e-09  3.12005815e-09  4.59317601e-01  1.59795860e-07  1.18609861e-07  8.20000000e-01 
 8.30000000e-01  3.19979914e-09  4.59317586e-01  4.59317585e-01  4.59317585e-01  3.35402899e-09  3.12005815e-09  4.59317585e-01  1.59795861e-07  1.18609755e-07  8.30000000e-01 
 8.40000000e-01  3.19979914e-09  4.59317588e-01  4.59317587e-01  4.59317587e-01  3.35402899e-09  3.12005821e-09  4.59317587e-01  1.59795863e-07  1.18609655e-07  8.40000000e-01 
 8.50000000e-01  3.19979914e-09  4.59317566e-01  4.59317566e-01  4.59317566e-01  3.35402899e-09  3.12005821e-09  4.59317566e-01  1.59795836e-07  1.18609528e-07  8.50000000e-01 
 8.60000000e-01  3.19979914e-09  4.59317614e-01  4.59317613e-01  4.59317614e-01  3.35402899e-09  3.12005821e-09  4.59317614e-01  1.59795889e-07  1.18609670e-07  8.60000000e-01 
 8.70000000e-01  3.19979914e-09  4.59317613e-01  4.59317613e-01  4.59317613e-01  3.35402893e-09  3.12005821e-09  4.59317613e-01  1.59795888e-07  1.18609535e-07  8.70000000e-01 
 8.80000000e-01  3.19979914e-09  4.59317578e-01  4.59317578e-01  4.59317578e-01  3.35402893e-09  3.12005815e-09  4.59317578e-01  1.59795832e-07  1.18609272e-07  8.80000000e-01 
 8.90000000e-01  3.19979914e-09  4.59317594e-01  4.59317594e-01  4.59317594e-01  3.35402893e-09  3.12005821e-09  4.59317594e-01  1.59795860e-07  1.18609208e-07  8.90000000e-01 
 9.00000000e-01  3.19979914e-09  4.59317612e-01  4.59317612e-01  4.59317612e-01  3.35402893e-09  3.12005815e-09  4.59317612e-01  1.59795900e-07  1.18609286e-07  9.00000000e-01 
 9.10000000e-01  3.19979914e-09  4.59317577e-01  4.59317577e-01  4.59317577e-01  3.35402899e-09  3.12005821e-09  4.59317577e-01  1.59795825e-07  1.18609087e-07  9.10000000e-01 
 9.20000000e-01  3.19979914e-09  4.59317583e-01  4.59317583e-01  4.59317583e-01  3.35402899e-09  3.12005815e-09  4.59317583e-01  1.59795857e-07  1.18608916e-07  9.20000000e-01 
 9.30000000e-01  3.19979914e-09  4.59317586e-01  4.59317586e-01  4.59317586e-01  3.35402893e-09  3.12005821e-09  4.59317586e-01  1.59795856e-07  1.18608995e-07  9.30000000e-01 
 9.40000000e-01  3.19979914e-09  4.59317584e-01  4.59317584e-01  4.59317584e-01  3.35402893e-09  3.12005821e-09  4.59317584e-01  1.59795845e-07  1.18608732e-07  9.40000000e-01 
 9.50000000e-01  3.19979914e-09  4.59317603e-01  4.59317603e-01  4.59317603e-01  3.35402893e-09  3.12005815e-09  4.59317603e-01  1.59795877e-07  1.18608767e-07  9.50000000e-01 
 9.60000000e-01  3.19979914e-09  4.59317592e-01  4.59317592e-01  4.59317592e-01  3.35402893e-09  3.12005821e-09  4.59317592e-01  1.59795846e-07  1.18608632e-07  9.60000000e-01 
 9.70000000e-01  3.19979914e-09  4.59317591e-01  4.59317591e-01  4.59317591e-01  3.35402893e-09  3.12005815e-09  4.59317591e-01  1.59795860e-07  1.18608412e-07  9.70000000e-01 
 9.80000000e-01  3.19979914e-09  4.59317601e-01  4.59317601e-01  4.59317601e-01  3.35402899e-09  3.12005821e-09  4.59317601e-01  1.59795874e-07  1.18608469e-07  9.80000000e-01 
 9.90000000e-01  3.19979914e-09  4.59317583e-01  4.59317582e-01  4.59317583e-01  3.35402893e-09  3.12005815e-09  4.59317583e-01  1.59795845e-07  1.18608419e-07  9.90000000e-01 
 1.00000000e+00  3.19979914e-09  4.59317593e-01  4.59317592e-01  4.59317592e-01  3.35402899e-09  3.12005815e-09  4.59317592e-01  1.59795857e-07  1.18608291e-07  1.00000000e+00 
 1.01000000e+00  3.19979914e-09  4.59317603e-01  4.59317603e-01  4.59317603e-01  3.35402893e-09  3.12005815e-09  4.59317603e-01  1.59795865e-07  1.18608234e-07  1.01000000e+00 
 1.02000000e+00  3.19979914e-09  4.59317605e-01  4.59317605e-01  4.59317605e-01  3.35402893e-09  3.12005815e-09  4.59317605e-01  1.59795869e-07  1.18608078e-07  1.02000000e+00 
 1.03000000e+00  3.19979914e-09  4.59317615e-01  4.59317615e-01  4.59317615e-01  3.35402899e-09  3.12005815e-09  4.59317615e-01  1.59795897e-07  1.18608128e-07  1.03000000e+00 
 1.04000000e+00  3.19979914e-09  4.59317593e-01  4.59317593e-01  4.59317593e-01  3.35402899e-09  3.12005821e-09  4.59317593e-01  1.59795849e-07  1.18607872e-07  1.04000000e+00 
 1.05000000e+00  3.19979914e-09  4.59317596e-01  4.59317596e-01  4.59317596e-01  3.35402899e-09  3.12005821e-09  4.59317596e-01  1.59795864e-07  1.18607815e-07  1.05000000e+00 
 1.06000000e+00  3.19979914e-09  4.59317594e-01  4.59317594e-01  4.59317594e-01  3.35402899e-09  3.12005821e-09  4.59317594e-01  1.59795850e-07  1.18607659e-07  1.06000000e+00 
 1.07000000e+00  3.19979914e-09  4.59317582e-01  4.59317582e-01  4.59317582e-01  3.35402899e-09  3.12005821e-09  4.59317582e-01  1.59795844e-07  1.18607524e-07  1.07000000e+00 
 1.08000000e+00  3.19979914e-09  4.59317605e-01  4.59317605e-01  4.59317605e-01  3.35402899e-09  3.12005821e-09  4.59317605e-01  1.59795873e-07  1.18607495e-07  1.08000000e+00 
 1.09000000e+00  3.19979914e-09  4.59317586e-01  4.59317586e-01  4.59317586e-01  3.35402899e-09  3.12005815e-09  4.59317586e-01  1.59795846e-07  1.18607439e-07  1.09000000e+00 
 1.10000000e+00  3.19979914e-09  4.59317605e-01  4.59317605e-01  4.59317605e-01  3.35402893e-09  3.12005815e-09  4.59317605e-01  1.59795876e-07  1.18607240e-07  1.10000000e+00 
