 v-sweep         v(b0)           v(b1)           v(b2)           v(b3)           v(b4)           v(b5)           v(b6)           i(vbias)        i(viout)        v(vout)        
 0.00000000e+00  3.15688304e-09  4.59294110e-01  4.59294110e-01  4.59294110e-01  4.59294110e-01  4.59294110e-01  4.59294110e-01  1.61407034e-07  1.92111453e-07  0.00000000e+00 
 1.00000000e-02  3.15688301e-09  4.59294127e-01  4.59294127e-01  4.59294127e-01  4.59294127e-01  4.59294127e-01  4.59294127e-01  1.61407070e-07  1.92111077e-07  1.00000000e-02 
 2.00000000e-02  3.15688302e-09  4.59294102e-01  4.59294102e-01  4.59294102e-01  4.59294102e-01  4.59294102e-01  4.59294102e-01  1.61407036e-07  1.92110474e-07  2.00000000e-02 
 3.00000000e-02  3.15688301e-09  4.59294101e-01  4.59294101e-01  4.59294101e-01  4.59294101e-01  4.59294101e-01  4.59294101e-01  1.61407014e-07  1.92110026e-07  3.00000000e-02 
 4.00000000e-02  3.15688301e-09  4.59294100e-01  4.59294100e-01  4.59294100e-01  4.59294100e-01  4.59294100e-01  4.59294100e-01  1.61407020e-07  1.92109549e-07  4.00000000e-02 
 5.00000000e-02  3.15688301e-09  4.59294108e-01  4.59294109e-01  4.59294109e-01  4.59294109e-01  4.59294108e-01  4.59294108e-01  1.61407035e-07  1.92109138e-07  5.00000000e-02 
 6.00000000e-02  3.15688301e-09  4.59294115e-01  4.59294115e-01  4.59294115e-01  4.59294115e-01  4.59294115e-01  4.59294115e-01  1.61407040e-07  1.92108857e-07  6.00000000e-02 
 7.00000000e-02  3.15688301e-09  4.59294085e-01  4.59294085e-01  4.59294085e-01  4.59294085e-01  4.59294085e-01  4.59294085e-01  1.61407003e-07  1.92108379e-07  7.00000000e-02 
 8.00000000e-02  3.15688301e-09  4.59294117e-01  4.59294118e-01  4.59294118e-01  4.59294118e-01  4.59294117e-01  4.59294117e-01  1.61407044e-07  1.92108095e-07  8.00000000e-02 
 9.00000000e-02  3.15688301e-09  4.59294096e-01  4.59294096e-01  4.59294096e-01  4.59294096e-01  4.59294096e-01  4.59294096e-01  1.61407007e-07  1.92107581e-07  9.00000000e-02 
 1.00000000e-01  3.15688301e-09  4.59294084e-01  4.59294084e-01  4.59294084e-01  4.59294084e-01  4.59294084e-01  4.59294084e-01  1.61406989e-07  1.92107240e-07  1.00000000e-01 
 1.10000000e-01  3.15688301e-09  4.59294077e-01  4.59294077e-01  4.59294077e-01  4.59294077e-01  4.59294077e-01  4.59294077e-01  1.61406991e-07  1.92106787e-07  1.10000000e-01 
 1.20000000e-01  3.15688301e-09  4.59294093e-01  4.59294093e-01  4.59294093e-01  4.59294093e-01  4.59294093e-01  4.59294093e-01  1.61407009e-07  1.92106584e-07  1.20000000e-01 
 1.30000000e-01  3.15688301e-09  4.59294121e-01  4.59294121e-01  4.59294121e-01  4.59294121e-01  4.59294121e-01  4.59294121e-01  1.61407054e-07  1.92106439e-07  1.30000000e-01 
 1.40000000e-01  3.15688301e-09  4.59294095e-01  4.59294095e-01  4.59294095e-01  4.59294095e-01  4.59294095e-01  4.59294095e-01  1.61407012e-07  1.92105960e-07  1.40000000e-01 
 1.50000000e-01  3.15688301e-09  4.59294103e-01  4.59294103e-01  4.59294103e-01  4.59294103e-01  4.59294103e-01  4.59294103e-01  1.61407029e-07  1.92105755e-07  1.50000000e-01 
 1.60000000e-01  3.15688302e-09  4.59294131e-01  4.59294131e-01  4.59294131e-01  4.59294131e-01  4.59294131e-01  4.59294131e-01  1.61407061e-07  1.92105560e-07  1.60000000e-01 
 1.70000000e-01  3.15688301e-09  4.59294098e-01  4.59294098e-01  4.59294098e-01  4.59294098e-01  4.59294098e-01  4.59294098e-01  1.61407020e-07  1.92105068e-07  1.70000000e-01 
 1.80000000e-01  3.15688301e-09  4.59294098e-01  4.59294098e-01  4.59294098e-01  4.59294098e-01  4.59294098e-01  4.59294098e-01  1.61407031e-07  1.92104931e-07  1.80000000e-01 
 1.90000000e-01  3.15688301e-09  4.59294113e-01  4.59294113e-01  4.59294113e-01  4.59294113e-01  4.59294113e-01  4.59294113e-01  1.61407043e-07  1.92104720e-07  1.90000000e-01 
 2.00000000e-01  3.15688301e-09  4.59294105e-01  4.59294105e-01  4.59294105e-01  4.59294105e-01  4.59294105e-01  4.59294105e-01  1.61407015e-07  1.92104425e-07  2.00000000e-01 
 2.10000000e-01  3.15688301e-09  4.59294121e-01  4.59294121e-01  4.59294121e-01  4.59294121e-01  4.59294121e-01  4.59294121e-01  1.61407062e-07  1.92104192e-07  2.10000000e-01 
 2.20000000e-01  3.15688301e-09  4.59294093e-01  4.59294093e-01  4.59294093e-01  4.59294093e-01  4.59294093e-01  4.59294093e-01  1.61407007e-07  1.92103963e-07  2.20000000e-01 
 2.30000000e-01  3.15688301e-09  4.59294125e-01  4.59294125e-01  4.59294125e-01  4.59294125e-01  4.59294125e-01  4.59294125e-01  1.61407060e-07  1.92103776e-07  2.30000000e-01 
 2.40000000e-01  3.15688301e-09  4.59294108e-01  4.59294108e-01  4.59294108e-01  4.59294108e-01  4.59294108e-01  4.59294108e-01  1.61407026e-07  1.92103444e-07  2.40000000e-01 
 2.50000000e-01  3.15688307e-09  4.59294111e-01  4.59294111e-01  4.59294111e-01  4.59294111e-01  4.59294111e-01  4.59294111e-01  1.61407041e-07  1.92103332e-07  2.50000000e-01 
 2.60000000e-01  3.15688300e-09  4.59294114e-01  4.59294114e-01  4.59294114e-01  4.59294114e-01  4.59294114e-01  4.59294114e-01  1.61407036e-07  1.92103121e-07  2.60000000e-01 
 2.70000000e-01  3.15688308e-09  4.59294105e-01  4.59294105e-01  4.59294105e-01  4.59294105e-01  4.59294105e-01  4.59294105e-01  1.61407034e-07  1.92102830e-07  2.70000000e-01 
 2.80000000e-01  3.15688306e-09  4.59294141e-01  4.59294141e-01  4.59294141e-01  4.59294141e-01  4.59294141e-01  4.59294141e-01  1.61407097e-07  1.92102835e-07  2.80000000e-01 
 2.90000000e-01  3.15688301e-09  4.59294101e-01  4.59294101e-01  4.59294101e-01  4.59294101e-01  4.59294101e-01  4.59294101e-01  1.61407034e-07  1.92102426e-07  2.90000000e-01 
 3.00000000e-01  3.15688302e-09  4.59294091e-01  4.59294091e-01  4.59294091e-01  4.59294091e-01  4.59294091e-01  4.59294091e-01  1.61407028e-07  1.92102107e-07  3.00000000e-01 
 3.10000000e-01  3.15688301e-09  4.59294074e-01  4.59294074e-01  4.59294074e-01  4.59294074e-01  4.59294074e-01  4.59294074e-01  1.61406986e-07  1.92101808e-07  3.10000000e-01 
 3.20000000e-01  3.15688301e-09  4.59294104e-01  4.59294104e-01  4.59294104e-01  4.59294104e-01  4.59294104e-01  4.59294104e-01  1.61407030e-07  1.92101712e-07  3.20000000e-01 
 3.30000000e-01  3.15688307e-09  4.59294103e-01  4.59294104e-01  4.59294103e-01  4.59294103e-01  4.59294103e-01  4.59294103e-01  1.61407028e-07  1.92101652e-07  3.30000000e-01 
 3.40000000e-01  3.15688300e-09  4.59294130e-01  4.59294130e-01  4.59294130e-01  4.59294130e-01  4.59294130e-01  4.59294130e-01  1.61407060e-07  1.92101531e-07  3.40000000e-01 
 3.50000000e-01  3.15688302e-09  4.59294091e-01  4.59294092e-01  4.59294092e-01  4.59294092e-01  4.59294091e-01  4.59294091e-01  1.61407014e-07  1.92101204e-07  3.50000000e-01 
 3.60000000e-01  3.15688301e-09  4.59294093e-01  4.59294093e-01  4.59294093e-01  4.59294093e-01  4.59294093e-01  4.59294093e-01  1.61407004e-07  1.92101080e-07  3.60000000e-01 
 3.70000000e-01  3.15688301e-09  4.59294118e-01  4.59294118e-01  4.59294118e-01  4.59294118e-01  4.59294118e-01  4.59294118e-01  1.61407051e-07  1.92101059e-07  3.70000000e-01 
 3.80000000e-01  3.15688301e-09  4.59294108e-01  4.59294108e-01  4.59294108e-01  4.59294108e-01  4.59294108e-01  4.59294108e-01  1.61407026e-07  1.92100735e-07  3.80000000e-01 
 3.90000000e-01  3.15688301e-09  4.59294121e-01  4.59294121e-01  4.59294121e-01  4.59294121e-01  4.59294121e-01  4.59294121e-01  1.61407055e-07  1.92100515e-07  3.90000000e-01 
 4.00000000e-01  3.15688301e-09  4.59294107e-01  4.59294108e-01  4.59294108e-01  4.59294108e-01  4.59294107e-01  4.59294108e-01  1.61407039e-07  1.92100330e-07  4.00000000e-01 
 4.10000000e-01  3.15688307e-09  4.59294113e-01  4.59294113e-01  4.59294113e-01  4.59294113e-01  4.59294113e-01  4.59294113e-01  1.61407052e-07  1.92100238e-07  4.10000000e-01 
 4.20000000e-01  3.15688306e-09  4.59294080e-01  4.59294080e-01  4.59294080e-01  4.59294080e-01  4.59294080e-01  4.59294080e-01  1.61406985e-07  1.92099826e-07  4.20000000e-01 
 4.30000000e-01  3.15688301e-09  4.59294103e-01  4.59294103e-01  4.59294103e-01  4.59294103e-01  4.59294103e-01  4.59294103e-01  1.61407027e-07  1.92099787e-07  4.30000000e-01 
 4.40000000e-01  3.15688302e-09  4.59294098e-01  4.59294098e-01  4.59294098e-01  4.59294098e-01  4.59294098e-01  4.59294098e-01  1.61407022e-07  1.92099559e-07  4.40000000e-01 
 4.50000000e-01  3.15688301e-09  4.59294108e-01  4.59294109e-01  4.59294108e-01  4.59294109e-01  4.59294108e-01  4.59294108e-01  1.61407049e-07  1.92099463e-07  4.50000000e-01 
 4.60000000e-01  3.15688307e-09  4.59294126e-01  4.59294126e-01  4.59294126e-01  4.59294126e-01  4.59294126e-01  4.59294126e-01  1.61407057e-07  1.92099346e-07  4.60000000e-01 
 4.70000000e-01  3.15688306e-09  4.59294097e-01  4.59294097e-01  4.59294097e-01  4.59294097e-01  4.59294097e-01  4.59294097e-01  1.61407006e-07  1.92099165e-07  4.70000000e-01 
 4.80000000e-01  3.15688301e-09  4.59294119e-01  4.59294119e-01  4.59294119e-01  4.59294119e-01  4.59294119e-01  4.59294119e-01  1.61407048e-07  1.92099090e-07  4.80000000e-01 
 4.90000000e-01  3.15688302e-09  4.59294088e-01  4.59294088e-01  4.59294088e-01  4.59294088e-01  4.59294088e-01  4.59294088e-01  1.61407012e-07  1.92098838e-07  4.90000000e-01 
 5.00000000e-01  3.15688301e-09  4.59294107e-01  4.59294107e-01  4.59294107e-01  4.59294107e-01  4.59294107e-01  4.59294107e-01  1.61407021e-07  1.92098696e-07  5.00000000e-01 
 5.10000000e-01  3.15688301e-09  4.59294127e-01  4.59294127e-01  4.59294127e-01  4.59294127e-01  4.59294127e-01  4.59294127e-01  1.61407066e-07  1.92098678e-07  5.10000000e-01 
 5.20000000e-01  3.15688307e-09  4.59294102e-01  4.59294102e-01  4.59294102e-01  4.59294102e-01  4.59294102e-01  4.59294102e-01  1.61407018e-07  1.92098344e-07  5.20000000e-01 
 5.30000000e-01  3.15688306e-09  4.59294078e-01  4.59294078e-01  4.59294078e-01  4.59294078e-01  4.59294078e-01  4.59294078e-01  1.61406994e-07  1.92098110e-07  5.30000000e-01 
 5.40000000e-01  3.15688301e-09  4.59294093e-01  4.59294093e-01  4.59294093e-01  4.59294093e-01  4.59294093e-01  4.59294093e-01  1.61407012e-07  1.92097993e-07  5.40000000e-01 
 5.50000000e-01  3.15688302e-09  4.59294121e-01  4.59294121e-01  4.59294121e-01  4.59294121e-01  4.59294121e-01  4.59294121e-01  1.61407063e-07  1.92097886e-07  5.50000000e-01 
 5.60000000e-01  3.15688301e-09  4.59294088e-01  4.59294088e-01  4.59294088e-01  4.59294088e-01  4.59294088e-01  4.59294088e-01  1.61407005e-07  1.92097620e-07  5.60000000e-01 
 5.70000000e-01  3.15688301e-09  4.59294095e-01  4.59294095e-01  4.59294095e-01  4.59294095e-01  4.59294094e-01  4.59294095e-01  1.61407011e-07  1.92097442e-07  5.70000000e-01 
 5.80000000e-01  3.15688307e-09  4.59294102e-01  4.59294102e-01  4.59294102e-01  4.59294102e-01  4.59294102e-01  4.59294102e-01  1.61407034e-07  1.92097318e-07  5.80000000e-01 
 5.90000000e-01  3.15688306e-09  4.59294081e-01  4.59294081e-01  4.59294081e-01  4.59294081e-01  4.59294081e-01  4.59294081e-01  1.61406989e-07  1.92097097e-07  5.90000000e-01 
 6.00000000e-01  3.15688306e-09  4.59294082e-01  4.59294082e-01  4.59294082e-01  4.59294082e-01  4.59294082e-01  4.59294082e-01  1.61406993e-07  1.92096969e-07  6.00000000e-01 
 6.10000000e-01  3.15688301e-09  4.59294122e-01  4.59294122e-01  4.59294122e-01  4.59294122e-01  4.59294122e-01  4.59294122e-01  1.61407051e-07  1.92096891e-07  6.10000000e-01 
 6.20000000e-01  3.15688308e-09  4.59294069e-01  4.59294069e-01  4.59294069e-01  4.59294069e-01  4.59294068e-01  4.59294069e-01  1.61406973e-07  1.92096522e-07  6.20000000e-01 
 6.30000000e-01  3.15688306e-09  4.59294071e-01  4.59294071e-01  4.59294071e-01  4.59294071e-01  4.59294071e-01  4.59294071e-01  1.61406993e-07  1.92096422e-07  6.30000000e-01 
 6.40000000e-01  3.15688301e-09  4.59294115e-01  4.59294115e-01  4.59294115e-01  4.59294115e-01  4.59294115e-01  4.59294115e-01  1.61407043e-07  1.92096479e-07  6.40000000e-01 
 6.50000000e-01  3.15688302e-09  4.59294100e-01  4.59294100e-01  4.59294100e-01  4.59294100e-01  4.59294100e-01  4.59294100e-01  1.61407025e-07  1.92096202e-07  6.50000000e-01 
 6.60000000e-01  3.15688301e-09  4.59294091e-01  4.59294091e-01  4.59294091e-01  4.59294091e-01  4.59294091e-01  4.59294091e-01  1.61407014e-07  1.92095904e-07  6.60000000e-01 
 6.70000000e-01  3.15688301e-09  4.59294090e-01  4.59294090e-01  4.59294090e-01  4.59294090e-01  4.59294090e-01  4.59294090e-01  1.61407005e-07  1.92095790e-07  6.70000000e-01 
 6.80000000e-01  3.15688301e-09  4.59294122e-01  4.59294123e-01  4.59294122e-01  4.59294123e-01  4.59294122e-01  4.59294122e-01  1.61407064e-07  1.92095811e-07  6.80000000e-01 
 6.90000000e-01  3.15688301e-09  4.59294102e-01  4.59294102e-01  4.59294102e-01  4.59294102e-01  4.59294102e-01  4.59294102e-01  1.61407023e-07  1.92095534e-07  6.90000000e-01 
 7.00000000e-01  3.15688301e-09  4.59294091e-01  4.59294091e-01  4.59294091e-01  4.59294091e-01  4.59294091e-01  4.59294091e-01  1.61407008e-07  1.92095243e-07  7.00000000e-01 
 7.10000000e-01  3.15688301e-09  4.59294123e-01  4.59294123e-01  4.59294123e-01  4.59294123e-01  4.59294123e-01  4.59294123e-01  1.61407061e-07  1.92095271e-07  7.10000000e-01 
 7.20000000e-01  3.15688301e-09  4.59294104e-01  4.59294104e-01  4.59294104e-01  4.59294104e-01  4.59294104e-01  4.59294104e-01  1.61407020e-07  1.92094952e-07  7.20000000e-01 
 7.30000000e-01  3.15688301e-09  4.59294107e-01  4.59294107e-01  4.59294107e-01  4.59294107e-01  4.59294107e-01  4.59294107e-01  1.61407039e-07  1.92094888e-07  7.30000000e-01 
 7.40000000e-01  3.15688302e-09  4.59294136e-01  4.59294136e-01  4.59294136e-01  4.59294136e-01  4.59294136e-01  4.59294136e-01  1.61407075e-07  1.92094831e-07  7.40000000e-01 
 7.50000000e-01  3.15688301e-09  4.59294081e-01  4.59294081e-01  4.59294081e-01  4.59294081e-01  4.59294081e-01  4.59294081e-01  1.61406978e-07  1.92094404e-07  7.50000000e-01 
 7.60000000e-01  3.15688301e-09  4.59294125e-01  4.59294126e-01  4.59294125e-01  4.59294126e-01  4.59294125e-01  4.59294125e-01  1.61407063e-07  1.92094397e-07  7.60000000e-01 
 7.70000000e-01  3.15688301e-09  4.59294126e-01  4.59294126e-01  4.59294126e-01  4.59294126e-01  4.59294126e-01  4.59294126e-01  1.61407066e-07  1.92094163e-07  7.70000000e-01 
 7.80000000e-01  3.15688302e-09  4.59294134e-01  4.59294134e-01  4.59294134e-01  4.59294134e-01  4.59294134e-01  4.59294134e-01  1.61407064e-07  1.92094021e-07  7.80000000e-01 
 7.90000000e-01  3.15688301e-09  4.59294108e-01  4.59294108e-01  4.59294108e-01  4.59294108e-01  4.59294108e-01  4.59294108e-01  1.61407031e-07  1.92093914e-07  7.90000000e-01 
 8.00000000e-01  3.15688301e-09  4.59294107e-01  4.59294107e-01  4.59294107e-01  4.59294107e-01  4.59294107e-01  4.59294107e-01  1.61407023e-07  1.92093580e-07  8.00000000e-01 
 8.10000000e-01  3.15688301e-09  4.59294116e-01  4.59294116e-01  4.59294116e-01  4.59294116e-01  4.59294116e-01  4.59294116e-01  1.61407050e-07  1.92093481e-07  8.10000000e-01 
 8.20000000e-01  3.15688301e-09  4.59294116e-01  4.59294116e-01  4.59294116e-01  4.59294116e-01  4.59294116e-01  4.59294116e-01  1.61407041e-07  1.92093367e-07  8.20000000e-01 
 8.30000000e-01  3.15688301e-09  4.59294109e-01  4.59294109e-01  4.59294109e-01  4.59294109e-01  4.59294109e-01  4.59294109e-01  1.61407046e-07  1.92092998e-07  8.30000000e-01 
 8.40000000e-01  3.15688301e-09  4.59294121e-01  4.59294121e-01  4.59294121e-01  4.59294121e-01  4.59294121e-01  4.59294121e-01  1.61407058e-07  1.92092976e-07  8.40000000e-01 
 8.50000000e-01  3.15688302e-09  4.59294132e-01  4.59294132e-01  4.59294132e-01  4.59294132e-01  4.59294131e-01  4.59294132e-01  1.61407064e-07  1.92092870e-07  8.50000000e-01 
 8.60000000e-01  3.15688301e-09  4.59294113e-01  4.59294113e-01  4.59294113e-01  4.59294113e-01  4.59294112e-01  4.59294113e-01  1.61407038e-07  1.92092486e-07  8.60000000e-01 
 8.70000000e-01  3.15688301e-09  4.59294108e-01  4.59294108e-01  4.59294108e-01  4.59294108e-01  4.59294108e-01  4.59294108e-01  1.61407026e-07  1.92092322e-07  8.70000000e-01 
 8.80000000e-01  3.15688302e-09  4.59294147e-01  4.59294147e-01  4.59294147e-01  4.59294147e-01  4.59294147e-01  4.59294147e-01  1.61407085e-07  1.92092301e-07  8.80000000e-01 
 8.90000000e-01  3.15688301e-09  4.59294092e-01  4.59294093e-01  4.59294092e-01  4.59294093e-01  4.59294092e-01  4.59294092e-01  1.61407011e-07  1.92091932e-07  8.90000000e-01 
 9.00000000e-01  3.15688301e-09  4.59294080e-01  4.59294080e-01  4.59294080e-01  4.59294080e-01  4.59294080e-01  4.59294080e-01  1.61406994e-07  1.92091612e-07  9.00000000e-01 
 9.10000000e-01  3.15688307e-09  4.59294099e-01  4.59294099e-01  4.59294099e-01  4.59294099e-01  4.59294099e-01  4.59294099e-01  1.61407008e-07  1.92091534e-07  9.10000000e-01 
 9.20000000e-01  3.15688306e-09  4.59294093e-01  4.59294094e-01  4.59294094e-01  4.59294094e-01  4.59294093e-01  4.59294093e-01  1.61407016e-07  1.92091257e-07  9.20000000e-01 
 9.30000000e-01  3.15688301e-09  4.59294103e-01  4.59294104e-01  4.59294103e-01  4.59294104e-01  4.59294103e-01  4.59294103e-01  1.61407033e-07  1.92091193e-07  9.30000000e-01 
 9.40000000e-01  3.15688302e-09  4.59294106e-01  4.59294106e-01  4.59294106e-01  4.59294106e-01  4.59294106e-01  4.59294106e-01  1.61407020e-07  1.92091015e-07  9.40000000e-01 
 9.50000000e-01  3.15688301e-09  4.59294129e-01  4.59294129e-01  4.59294129e-01  4.59294129e-01  4.59294129e-01  4.59294129e-01  1.61407070e-07  1.92090901e-07  9.50000000e-01 
 9.60000000e-01  3.15688307e-09  4.59294112e-01  4.59294112e-01  4.59294112e-01  4.59294112e-01  4.59294112e-01  4.59294112e-01  1.61407039e-07  1.92090596e-07  9.60000000e-01 
 9.70000000e-01  3.15688300e-09  4.59294090e-01  4.59294090e-01  4.59294090e-01  4.59294090e-01  4.59294090e-01  4.59294090e-01  1.61407019e-07  1.92090432e-07  9.70000000e-01 
 9.80000000e-01  3.15688302e-09  4.59294088e-01  4.59294089e-01  4.59294088e-01  4.59294089e-01  4.59294088e-01  4.59294088e-01  1.61407002e-07  1.92090134e-07  9.80000000e-01 
 9.90000000e-01  3.15688307e-09  4.59294088e-01  4.59294088e-01  4.59294088e-01  4.59294088e-01  4.59294088e-01  4.59294088e-01  1.61407011e-07  1.92089871e-07  9.90000000e-01 
 1.00000000e+00  3.15688306e-09  4.59294101e-01  4.59294102e-01  4.59294101e-01  4.59294102e-01  4.59294101e-01  4.59294101e-01  1.61407023e-07  1.92089743e-07  1.00000000e+00 
 1.01000000e+00  3.15688301e-09  4.59294075e-01  4.59294076e-01  4.59294076e-01  4.59294076e-01  4.59294075e-01  4.59294075e-01  1.61407003e-07  1.92089367e-07  1.01000000e+00 
 1.02000000e+00  3.15688302e-09  4.59294097e-01  4.59294097e-01  4.59294097e-01  4.59294097e-01  4.59294097e-01  4.59294097e-01  1.61407027e-07  1.92089296e-07  1.02000000e+00 
 1.03000000e+00  3.15688301e-09  4.59294105e-01  4.59294105e-01  4.59294105e-01  4.59294105e-01  4.59294105e-01  4.59294105e-01  1.61407040e-07  1.92089139e-07  1.03000000e+00 
 1.04000000e+00  3.15688301e-09  4.59294114e-01  4.59294114e-01  4.59294114e-01  4.59294114e-01  4.59294114e-01  4.59294114e-01  1.61407055e-07  1.92088912e-07  1.04000000e+00 
 1.05000000e+00  3.15688301e-09  4.59294130e-01  4.59294130e-01  4.59294130e-01  4.59294130e-01  4.59294130e-01  4.59294130e-01  1.61407058e-07  1.92088820e-07  1.05000000e+00 
 1.06000000e+00  3.15688307e-09  4.59294116e-01  4.59294116e-01  4.59294116e-01  4.59294116e-01  4.59294116e-01  4.59294116e-01  1.61407043e-07  1.92088386e-07  1.06000000e+00 
 1.07000000e+00  3.15688306e-09  4.59294095e-01  4.59294095e-01  4.59294095e-01  4.59294095e-01  4.59294095e-01  4.59294095e-01  1.61407037e-07  1.92088187e-07  1.07000000e+00 
 1.08000000e+00  3.15688301e-09  4.59294099e-01  4.59294099e-01  4.59294099e-01  4.59294099e-01  4.59294098e-01  4.59294099e-01  1.61407024e-07  1.92088031e-07  1.08000000e+00 
 1.09000000e+00  3.15688302e-09  4.59294100e-01  4.59294100e-01  4.59294100e-01  4.59294100e-01  4.59294100e-01  4.59294100e-01  1.61407016e-07  1.92087832e-07  1.09000000e+00 
 1.10000000e+00  3.15688301e-09  4.59294125e-01  4.59294125e-01  4.59294125e-01  4.59294125e-01  4.59294125e-01  4.59294125e-01  1.61407061e-07  1.92087697e-07  1.10000000e+00 
