 v-sweep         v(b0)           v(b1)           v(b2)           v(b3)           v(b4)           v(b5)           v(b6)           i(vbias)        i(viout)        v(vout)        
 0.00000000e+00  4.56742805e-01  3.20059236e-09  3.30973293e-09  3.40028758e-09  3.46681413e-09  3.20309834e-09  4.56742805e-01  1.54611814e-07  9.22271174e-08  0.00000000e+00 
 1.00000000e-02  4.56742776e-01  3.20059233e-09  3.30973297e-09  3.40028750e-09  3.46681411e-09  3.20309837e-09  4.56742776e-01  1.54611759e-07  9.22266244e-08  1.00000000e-02 
 2.00000000e-02  4.56742816e-01  3.20059233e-09  3.30973297e-09  3.40028756e-09  3.46681418e-09  3.20309837e-09  4.56742816e-01  1.54611835e-07  9.22263301e-08  2.00000000e-02 
 3.00000000e-02  4.56742823e-01  3.20059233e-09  3.30973296e-09  3.40028756e-09  3.46681418e-09  3.20309837e-09  4.56742823e-01  1.54611824e-07  9.22259731e-08  3.00000000e-02 
 4.00000000e-02  4.56742812e-01  3.20059233e-09  3.30973298e-09  3.40028756e-09  3.46681417e-09  3.20309831e-09  4.56742812e-01  1.54611826e-07  9.22255032e-08  4.00000000e-02 
 5.00000000e-02  4.56742821e-01  3.20059233e-09  3.30973296e-09  3.40028756e-09  3.46681412e-09  3.20309838e-09  4.56742821e-01  1.54611828e-07  9.22253593e-08  5.00000000e-02 
 6.00000000e-02  4.56742817e-01  3.20059233e-09  3.30973298e-09  3.40028756e-09  3.46681412e-09  3.20309837e-09  4.56742817e-01  1.54611841e-07  9.22249517e-08  6.00000000e-02 
 7.00000000e-02  4.56742817e-01  3.20059233e-09  3.30973290e-09  3.40028756e-09  3.46681412e-09  3.20309837e-09  4.56742817e-01  1.54611823e-07  9.22246137e-08  7.00000000e-02 
 8.00000000e-02  4.56742797e-01  3.20059233e-09  3.30973292e-09  3.40028750e-09  3.46681417e-09  3.20309837e-09  4.56742797e-01  1.54611807e-07  9.22243260e-08  8.00000000e-02 
 9.00000000e-02  4.56742806e-01  3.20059233e-09  3.30973291e-09  3.40028756e-09  3.46681417e-09  3.20309837e-09  4.56742806e-01  1.54611806e-07  9.22240293e-08  9.00000000e-02 
 1.00000000e-01  4.56742797e-01  3.20059233e-09  3.30973291e-09  3.40028756e-09  3.46681412e-09  3.20309831e-09  4.56742797e-01  1.54611791e-07  9.22236865e-08  1.00000000e-01 
 1.10000000e-01  4.56742806e-01  3.20059233e-09  3.30973291e-09  3.40028751e-09  3.46681412e-09  3.20309833e-09  4.56742806e-01  1.54611815e-07  9.22235008e-08  1.10000000e-01 
 1.20000000e-01  4.56742800e-01  3.20059233e-09  3.30973297e-09  3.40028756e-09  3.46681412e-09  3.20309838e-09  4.56742800e-01  1.54611812e-07  9.22232628e-08  1.20000000e-01 
 1.30000000e-01  4.56742817e-01  3.20059233e-09  3.30973291e-09  3.40028756e-09  3.46681412e-09  3.20309831e-09  4.56742817e-01  1.54611824e-07  9.22229830e-08  1.30000000e-01 
 1.40000000e-01  4.56742794e-01  3.20059228e-09  3.30973291e-09  3.40028756e-09  3.46681412e-09  3.20309833e-09  4.56742794e-01  1.54611785e-07  9.22226748e-08  1.40000000e-01 
 1.50000000e-01  4.56742798e-01  3.20059229e-09  3.30973291e-09  3.40028750e-09  3.46681417e-09  3.20309838e-09  4.56742798e-01  1.54611799e-07  9.22224679e-08  1.50000000e-01 
 1.60000000e-01  4.56742822e-01  3.20059234e-09  3.30973291e-09  3.40028756e-09  3.46681418e-09  3.20309831e-09  4.56742822e-01  1.54611830e-07  9.22224022e-08  1.60000000e-01 
 1.70000000e-01  4.56742801e-01  3.20059233e-09  3.30973291e-09  3.40028750e-09  3.46681417e-09  3.20309833e-09  4.56742801e-01  1.54611805e-07  9.22222032e-08  1.70000000e-01 
 1.80000000e-01  4.56742821e-01  3.20059233e-09  3.30973297e-09  3.40028756e-09  3.46681418e-09  3.20309832e-09  4.56742821e-01  1.54611837e-07  9.22220984e-08  1.80000000e-01 
 1.90000000e-01  4.56742799e-01  3.20059233e-09  3.30973296e-09  3.40028756e-09  3.46681412e-09  3.20309832e-09  4.56742799e-01  1.54611804e-07  9.22217200e-08  1.90000000e-01 
 2.00000000e-01  4.56742820e-01  3.20059233e-09  3.30973292e-09  3.40028756e-09  3.46681412e-09  3.20309838e-09  4.56742820e-01  1.54611831e-07  9.22216685e-08  2.00000000e-01 
 2.10000000e-01  4.56742819e-01  3.20059233e-09  3.30973291e-09  3.40028756e-09  3.46681412e-09  3.20309831e-09  4.56742819e-01  1.54611838e-07  9.22214980e-08  2.10000000e-01 
 2.20000000e-01  4.56742824e-01  3.20059234e-09  3.30973291e-09  3.40028756e-09  3.46681418e-09  3.20309833e-09  4.56742824e-01  1.54611844e-07  9.22212919e-08  2.20000000e-01 
 2.30000000e-01  4.56742810e-01  3.20059233e-09  3.30973291e-09  3.40028756e-09  3.46681417e-09  3.20309832e-09  4.56742810e-01  1.54611826e-07  9.22211232e-08  2.30000000e-01 
 2.40000000e-01  4.56742791e-01  3.20059233e-09  3.30973297e-09  3.40028756e-09  3.46681412e-09  3.20309832e-09  4.56742791e-01  1.54611800e-07  9.22209082e-08  2.40000000e-01 
 2.50000000e-01  4.56742802e-01  3.20059233e-09  3.30973291e-09  3.40028756e-09  3.46681412e-09  3.20309832e-09  4.56742802e-01  1.54611803e-07  9.22208443e-08  2.50000000e-01 
 2.60000000e-01  4.56742794e-01  3.20059233e-09  3.30973297e-09  3.40028756e-09  3.46681417e-09  3.20309838e-09  4.56742794e-01  1.54611796e-07  9.22206578e-08  2.60000000e-01 
 2.70000000e-01  4.56742811e-01  3.20059233e-09  3.30973297e-09  3.40028756e-09  3.46681412e-09  3.20309831e-09  4.56742811e-01  1.54611810e-07  9.22206649e-08  2.70000000e-01 
 2.80000000e-01  4.56742790e-01  3.20059233e-09  3.30973297e-09  3.40028750e-09  3.46681417e-09  3.20309833e-09  4.56742790e-01  1.54611800e-07  9.22204286e-08  2.80000000e-01 
 2.90000000e-01  4.56742809e-01  3.20059233e-09  3.30973297e-09  3.40028756e-09  3.46681412e-09  3.20309832e-09  4.56742809e-01  1.54611816e-07  9.22203860e-08  2.90000000e-01 
 3.00000000e-01  4.56742812e-01  3.20059233e-09  3.30973291e-09  3.40028756e-09  3.46681417e-09  3.20309832e-09  4.56742812e-01  1.54611823e-07  9.22201693e-08  3.00000000e-01 
 3.10000000e-01  4.56742785e-01  3.20059233e-09  3.30973291e-09  3.40028750e-09  3.46681411e-09  3.20309832e-09  4.56742785e-01  1.54611781e-07  9.22200840e-08  3.10000000e-01 
 3.20000000e-01  4.56742804e-01  3.20059233e-09  3.30973291e-09  3.40028756e-09  3.46681417e-09  3.20309832e-09  4.56742804e-01  1.54611800e-07  9.22199952e-08  3.20000000e-01 
 3.30000000e-01  4.56742795e-01  3.20059233e-09  3.30973291e-09  3.40028756e-09  3.46681412e-09  3.20309838e-09  4.56742795e-01  1.54611793e-07  9.22199348e-08  3.30000000e-01 
 3.40000000e-01  4.56742803e-01  3.20059233e-09  3.30973297e-09  3.40028756e-09  3.46681417e-09  3.20309837e-09  4.56742803e-01  1.54611798e-07  9.22197358e-08  3.40000000e-01 
 3.50000000e-01  4.56742798e-01  3.20059233e-09  3.30973297e-09  3.40028756e-09  3.46681412e-09  3.20309831e-09  4.56742798e-01  1.54611795e-07  9.22196861e-08  3.50000000e-01 
 3.60000000e-01  4.56742813e-01  3.20059233e-09  3.30973291e-09  3.40028751e-09  3.46681412e-09  3.20309833e-09  4.56742813e-01  1.54611810e-07  9.22196399e-08  3.60000000e-01 
 3.70000000e-01  4.56742818e-01  3.20059233e-09  3.30973291e-09  3.40028756e-09  3.46681412e-09  3.20309838e-09  4.56742818e-01  1.54611841e-07  9.22195582e-08  3.70000000e-01 
 3.80000000e-01  4.56742792e-01  3.20059227e-09  3.30973297e-09  3.40028756e-09  3.46681417e-09  3.20309837e-09  4.56742792e-01  1.54611786e-07  9.22192989e-08  3.80000000e-01 
 3.90000000e-01  4.56742813e-01  3.20059229e-09  3.30973291e-09  3.40028756e-09  3.46681412e-09  3.20309831e-09  4.56742813e-01  1.54611823e-07  9.22192704e-08  3.90000000e-01 
 4.00000000e-01  4.56742798e-01  3.20059234e-09  3.30973291e-09  3.40028756e-09  3.46681412e-09  3.20309833e-09  4.56742798e-01  1.54611797e-07  9.22191923e-08  4.00000000e-01 
 4.10000000e-01  4.56742817e-01  3.20059233e-09  3.30973291e-09  3.40028756e-09  3.46681412e-09  3.20309832e-09  4.56742817e-01  1.54611830e-07  9.22189756e-08  4.10000000e-01 
 4.20000000e-01  4.56742801e-01  3.20059233e-09  3.30973297e-09  3.40028756e-09  3.46681417e-09  3.20309838e-09  4.56742801e-01  1.54611800e-07  9.22190004e-08  4.20000000e-01 
 4.30000000e-01  4.56742814e-01  3.20059233e-09  3.30973297e-09  3.40028756e-09  3.46681417e-09  3.20309837e-09  4.56742814e-01  1.54611816e-07  9.22189436e-08  4.30000000e-01 
 4.40000000e-01  4.56742814e-01  3.20059233e-09  3.30973290e-09  3.40028756e-09  3.46681417e-09  3.20309837e-09  4.56742814e-01  1.54611817e-07  9.22188512e-08  4.40000000e-01 
 4.50000000e-01  4.56742799e-01  3.20059228e-09  3.30973292e-09  3.40028756e-09  3.46681412e-09  3.20309831e-09  4.56742799e-01  1.54611806e-07  9.22186985e-08  4.50000000e-01 
 4.60000000e-01  4.56742824e-01  3.20059235e-09  3.30973291e-09  3.40028756e-09  3.46681418e-09  3.20309838e-09  4.56742824e-01  1.54611818e-07  9.22187411e-08  4.60000000e-01 
 4.70000000e-01  4.56742815e-01  3.20059233e-09  3.30973297e-09  3.40028756e-09  3.46681417e-09  3.20309837e-09  4.56742815e-01  1.54611798e-07  9.22185208e-08  4.70000000e-01 
 4.80000000e-01  4.56742803e-01  3.20059233e-09  3.30973296e-09  3.40028756e-09  3.46681417e-09  3.20309837e-09  4.56742803e-01  1.54611814e-07  9.22184284e-08  4.80000000e-01 
 4.90000000e-01  4.56742797e-01  3.20059233e-09  3.30973292e-09  3.40028756e-09  3.46681412e-09  3.20309831e-09  4.56742797e-01  1.54611790e-07  9.22184356e-08  4.90000000e-01 
 5.00000000e-01  4.56742810e-01  3.20059233e-09  3.30973291e-09  3.40028756e-09  3.46681412e-09  3.20309833e-09  4.56742810e-01  1.54611822e-07  9.22183929e-08  5.00000000e-01 
 5.10000000e-01  4.56742817e-01  3.20059233e-09  3.30973297e-09  3.40028756e-09  3.46681412e-09  3.20309838e-09  4.56742817e-01  1.54611834e-07  9.22183965e-08  5.10000000e-01 
 5.20000000e-01  4.56742805e-01  3.20059233e-09  3.30973296e-09  3.40028756e-09  3.46681412e-09  3.20309837e-09  4.56742805e-01  1.54611803e-07  9.22182011e-08  5.20000000e-01 
 5.30000000e-01  4.56742830e-01  3.20059234e-09  3.30973292e-09  3.40028756e-09  3.46681418e-09  3.20309837e-09  4.56742830e-01  1.54611851e-07  9.22181727e-08  5.30000000e-01 
 5.40000000e-01  4.56742808e-01  3.20059233e-09  3.30973291e-09  3.40028756e-09  3.46681412e-09  3.20309831e-09  4.56742808e-01  1.54611826e-07  9.22180661e-08  5.40000000e-01 
 5.50000000e-01  4.56742819e-01  3.20059233e-09  3.30973297e-09  3.40028756e-09  3.46681412e-09  3.20309833e-09  4.56742819e-01  1.54611820e-07  9.22179879e-08  5.50000000e-01 
 5.60000000e-01  4.56742797e-01  3.20059233e-09  3.30973296e-09  3.40028756e-09  3.46681417e-09  3.20309838e-09  4.56742797e-01  1.54611792e-07  9.22178955e-08  5.60000000e-01 
 5.70000000e-01  4.56742816e-01  3.20059233e-09  3.30973292e-09  3.40028751e-09  3.46681412e-09  3.20309837e-09  4.56742816e-01  1.54611836e-07  9.22178351e-08  5.70000000e-01 
 5.80000000e-01  4.56742790e-01  3.20059233e-09  3.30973297e-09  3.40028756e-09  3.46681412e-09  3.20309837e-09  4.56742790e-01  1.54611792e-07  9.22178387e-08  5.80000000e-01 
 5.90000000e-01  4.56742810e-01  3.20059233e-09  3.30973291e-09  3.40028751e-09  3.46681417e-09  3.20309837e-09  4.56742810e-01  1.54611828e-07  9.22176397e-08  5.90000000e-01 
 6.00000000e-01  4.56742796e-01  3.20059233e-09  3.30973291e-09  3.40028750e-09  3.46681412e-09  3.20309837e-09  4.56742796e-01  1.54611787e-07  9.22176042e-08  6.00000000e-01 
 6.10000000e-01  4.56742791e-01  3.20059233e-09  3.30973291e-09  3.40028756e-09  3.46681412e-09  3.20309831e-09  4.56742791e-01  1.54611786e-07  9.22173840e-08  6.10000000e-01 
 6.20000000e-01  4.56742823e-01  3.20059233e-09  3.30973297e-09  3.40028756e-09  3.46681418e-09  3.20309833e-09  4.56742823e-01  1.54611840e-07  9.22174976e-08  6.20000000e-01 
 6.30000000e-01  4.56742824e-01  3.20059234e-09  3.30973290e-09  3.40028751e-09  3.46681418e-09  3.20309838e-09  4.56742824e-01  1.54611848e-07  9.22174621e-08  6.30000000e-01 
 6.40000000e-01  4.56742795e-01  3.20059233e-09  3.30973292e-09  3.40028750e-09  3.46681412e-09  3.20309837e-09  4.56742795e-01  1.54611786e-07  9.22174195e-08  6.40000000e-01 
 6.50000000e-01  4.56742799e-01  3.20059233e-09  3.30973297e-09  3.40028756e-09  3.46681412e-09  3.20309837e-09  4.56742799e-01  1.54611801e-07  9.22172561e-08  6.50000000e-01 
 6.60000000e-01  4.56742793e-01  3.20059233e-09  3.30973291e-09  3.40028756e-09  3.46681412e-09  3.20309831e-09  4.56742793e-01  1.54611798e-07  9.22172276e-08  6.60000000e-01 
 6.70000000e-01  4.56742809e-01  3.20059233e-09  3.30973297e-09  3.40028751e-09  3.46681412e-09  3.20309833e-09  4.56742809e-01  1.54611819e-07  9.22170926e-08  6.70000000e-01 
 6.80000000e-01  4.56742813e-01  3.20059233e-09  3.30973291e-09  3.40028751e-09  3.46681412e-09  3.20309832e-09  4.56742813e-01  1.54611814e-07  9.22171282e-08  6.80000000e-01 
 6.90000000e-01  4.56742794e-01  3.20059233e-09  3.30973297e-09  3.40028756e-09  3.46681412e-09  3.20309838e-09  4.56742794e-01  1.54611794e-07  9.22168653e-08  6.90000000e-01 
 7.00000000e-01  4.56742802e-01  3.20059233e-09  3.30973297e-09  3.40028756e-09  3.46681412e-09  3.20309837e-09  4.56742802e-01  1.54611818e-07  9.22169505e-08  7.00000000e-01 
 7.10000000e-01  4.56742802e-01  3.20059233e-09  3.30973291e-09  3.40028756e-09  3.46681412e-09  3.20309837e-09  4.56742802e-01  1.54611808e-07  9.22168368e-08  7.10000000e-01 
 7.20000000e-01  4.56742803e-01  3.20059233e-09  3.30973291e-09  3.40028750e-09  3.46681417e-09  3.20309831e-09  4.56742803e-01  1.54611795e-07  9.22168013e-08  7.20000000e-01 
 7.30000000e-01  4.56742796e-01  3.20059233e-09  3.30973297e-09  3.40028750e-09  3.46681417e-09  3.20309838e-09  4.56742796e-01  1.54611796e-07  9.22167089e-08  7.30000000e-01 
 7.40000000e-01  4.56742812e-01  3.20059233e-09  3.30973291e-09  3.40028751e-09  3.46681417e-09  3.20309837e-09  4.56742812e-01  1.54611817e-07  9.22166663e-08  7.40000000e-01 
 7.50000000e-01  4.56742809e-01  3.20059233e-09  3.30973297e-09  3.40028756e-09  3.46681412e-09  3.20309831e-09  4.56742809e-01  1.54611828e-07  9.22166379e-08  7.50000000e-01 
 7.60000000e-01  4.56742796e-01  3.20059233e-09  3.30973291e-09  3.40028756e-09  3.46681417e-09  3.20309833e-09  4.56742796e-01  1.54611780e-07  9.22163892e-08  7.60000000e-01 
 7.70000000e-01  4.56742848e-01  3.20059234e-09  3.30973292e-09  3.40028756e-09  3.46681412e-09  3.20309832e-09  4.56742848e-01  1.54611877e-07  9.22165881e-08  7.70000000e-01 
 7.80000000e-01  4.56742813e-01  3.20059233e-09  3.30973291e-09  3.40028756e-09  3.46681412e-09  3.20309832e-09  4.56742813e-01  1.54611840e-07  9.22163750e-08  7.80000000e-01 
 7.90000000e-01  4.56742806e-01  3.20059233e-09  3.30973297e-09  3.40028751e-09  3.46681412e-09  3.20309838e-09  4.56742806e-01  1.54611810e-07  9.22163608e-08  7.90000000e-01 
 8.00000000e-01  4.56742807e-01  3.20059233e-09  3.30973291e-09  3.40028756e-09  3.46681417e-09  3.20309837e-09  4.56742807e-01  1.54611809e-07  9.22161050e-08  8.00000000e-01 
 8.10000000e-01  4.56742839e-01  3.20059234e-09  3.30973297e-09  3.40028756e-09  3.46681412e-09  3.20309837e-09  4.56742839e-01  1.54611859e-07  9.22161050e-08  8.10000000e-01 
 8.20000000e-01  4.56742815e-01  3.20059233e-09  3.30973296e-09  3.40028751e-09  3.46681417e-09  3.20309832e-09  4.56742815e-01  1.54611823e-07  9.22161050e-08  8.20000000e-01 
 8.30000000e-01  4.56742804e-01  3.20059233e-09  3.30973298e-09  3.40028756e-09  3.46681417e-09  3.20309833e-09  4.56742804e-01  1.54611812e-07  9.22159415e-08  8.30000000e-01 
 8.40000000e-01  4.56742792e-01  3.20059233e-09  3.30973290e-09  3.40028756e-09  3.46681417e-09  3.20309838e-09  4.56742792e-01  1.54611786e-07  9.22159629e-08  8.40000000e-01 
 8.50000000e-01  4.56742797e-01  3.20059233e-09  3.30973292e-09  3.40028756e-09  3.46681412e-09  3.20309831e-09  4.56742797e-01  1.54611800e-07  9.22157639e-08  8.50000000e-01 
 8.60000000e-01  4.56742811e-01  3.20059233e-09  3.30973297e-09  3.40028751e-09  3.46681412e-09  3.20309833e-09  4.56742811e-01  1.54611822e-07  9.22157710e-08  8.60000000e-01 
 8.70000000e-01  4.56742806e-01  3.20059233e-09  3.30973291e-09  3.40028756e-09  3.46681417e-09  3.20309832e-09  4.56742806e-01  1.54611819e-07  9.22156147e-08  8.70000000e-01 
 8.80000000e-01  4.56742806e-01  3.20059233e-09  3.30973297e-09  3.40028756e-09  3.46681417e-09  3.20309838e-09  4.56742806e-01  1.54611815e-07  9.22155863e-08  8.80000000e-01 
 8.90000000e-01  4.56742796e-01  3.20059233e-09  3.30973291e-09  3.40028750e-09  3.46681417e-09  3.20309837e-09  4.56742796e-01  1.54611788e-07  9.22155650e-08  8.90000000e-01 
 9.00000000e-01  4.56742806e-01  3.20059233e-09  3.30973291e-09  3.40028751e-09  3.46681417e-09  3.20309831e-09  4.56742806e-01  1.54611796e-07  9.22154868e-08  9.00000000e-01 
 9.10000000e-01  4.56742800e-01  3.20059233e-09  3.30973291e-09  3.40028750e-09  3.46681412e-09  3.20309838e-09  4.56742800e-01  1.54611786e-07  9.22152523e-08  9.10000000e-01 
 9.20000000e-01  4.56742804e-01  3.20059233e-09  3.30973291e-09  3.40028756e-09  3.46681412e-09  3.20309831e-09  4.56742804e-01  1.54611803e-07  9.22152310e-08  9.20000000e-01 
 9.30000000e-01  4.56742795e-01  3.20059233e-09  3.30973291e-09  3.40028750e-09  3.46681412e-09  3.20309833e-09  4.56742795e-01  1.54611786e-07  9.22152594e-08  9.30000000e-01 
 9.40000000e-01  4.56742808e-01  3.20059233e-09  3.30973291e-09  3.40028756e-09  3.46681412e-09  3.20309832e-09  4.56742808e-01  1.54611816e-07  9.22151671e-08  9.40000000e-01 
 9.50000000e-01  4.56742804e-01  3.20059228e-09  3.30973297e-09  3.40028751e-09  3.46681417e-09  3.20309832e-09  4.56742804e-01  1.54611796e-07  9.22150605e-08  9.50000000e-01 
 9.60000000e-01  4.56742803e-01  3.20059235e-09  3.30973291e-09  3.40028751e-09  3.46681412e-09  3.20309832e-09  4.56742803e-01  1.54611805e-07  9.22149823e-08  9.60000000e-01 
 9.70000000e-01  4.56742805e-01  3.20059233e-09  3.30973291e-09  3.40028751e-09  3.46681417e-09  3.20309832e-09  4.56742805e-01  1.54611794e-07  9.22149468e-08  9.70000000e-01 
 9.80000000e-01  4.56742787e-01  3.20059233e-09  3.30973291e-09  3.40028756e-09  3.46681417e-09  3.20309838e-09  4.56742787e-01  1.54611776e-07  9.22148757e-08  9.80000000e-01 
 9.90000000e-01  4.56742797e-01  3.20059233e-09  3.30973291e-09  3.40028756e-09  3.46681412e-09  3.20309831e-09  4.56742797e-01  1.54611799e-07  9.22147336e-08  9.90000000e-01 
 1.00000000e+00  4.56742803e-01  3.20059233e-09  3.30973291e-09  3.40028750e-09  3.46681417e-09  3.20309833e-09  4.56742803e-01  1.54611812e-07  9.22146697e-08  1.00000000e+00 
 1.01000000e+00  4.56742816e-01  3.20059233e-09  3.30973297e-09  3.40028756e-09  3.46681417e-09  3.20309832e-09  4.56742816e-01  1.54611823e-07  9.22146697e-08  1.01000000e+00 
 1.02000000e+00  4.56742812e-01  3.20059233e-09  3.30973296e-09  3.40028756e-09  3.46681412e-09  3.20309838e-09  4.56742812e-01  1.54611812e-07  9.22145986e-08  1.02000000e+00 
 1.03000000e+00  4.56742804e-01  3.20059233e-09  3.30973292e-09  3.40028756e-09  3.46681412e-09  3.20309837e-09  4.56742804e-01  1.54611812e-07  9.22144068e-08  1.03000000e+00 
 1.04000000e+00  4.56742833e-01  3.20059234e-09  3.30973297e-09  3.40028756e-09  3.46681418e-09  3.20309837e-09  4.56742833e-01  1.54611850e-07  9.22144920e-08  1.04000000e+00 
 1.05000000e+00  4.56742812e-01  3.20059233e-09  3.30973296e-09  3.40028756e-09  3.46681412e-09  3.20309831e-09  4.56742812e-01  1.54611826e-07  9.22143002e-08  1.05000000e+00 
 1.06000000e+00  4.56742813e-01  3.20059233e-09  3.30973292e-09  3.40028756e-09  3.46681412e-09  3.20309833e-09  4.56742813e-01  1.54611835e-07  9.22142576e-08  1.06000000e+00 
 1.07000000e+00  4.56742811e-01  3.20059233e-09  3.30973297e-09  3.40028756e-09  3.46681417e-09  3.20309832e-09  4.56742811e-01  1.54611827e-07  9.22142007e-08  1.07000000e+00 
 1.08000000e+00  4.56742800e-01  3.20059233e-09  3.30973297e-09  3.40028756e-09  3.46681412e-09  3.20309832e-09  4.56742800e-01  1.54611806e-07  9.22140018e-08  1.08000000e+00 
 1.09000000e+00  4.56742811e-01  3.20059233e-09  3.30973297e-09  3.40028756e-09  3.46681412e-09  3.20309838e-09  4.56742811e-01  1.54611823e-07  9.22140160e-08  1.09000000e+00 
 1.10000000e+00  4.56742799e-01  3.20059233e-09  3.30973291e-09  3.40028756e-09  3.46681417e-09  3.20309837e-09  4.56742799e-01  1.54611800e-07  9.22139307e-08  1.10000000e+00 
