 v-sweep         v(b0)           v(b1)           v(b2)           v(b3)           v(b4)           v(b5)           v(b6)           i(vbias)        i(viout)        v(vout)        
 0.00000000e+00  4.57207374e-01  3.32879103e-09  4.57207374e-01  4.57207374e-01  3.58230553e-09  4.57207374e-01  4.57207374e-01  1.58163573e-07  1.58298892e-07  0.00000000e+00 
 1.00000000e-02  4.57207388e-01  3.32879102e-09  4.57207388e-01  4.57207388e-01  3.58230551e-09  4.57207388e-01  4.57207387e-01  1.58163589e-07  1.58298506e-07  1.00000000e-02 
 2.00000000e-02  4.57207375e-01  3.32879107e-09  4.57207375e-01  4.57207375e-01  3.58230557e-09  4.57207375e-01  4.57207374e-01  1.58163568e-07  1.58298083e-07  2.00000000e-02 
 3.00000000e-02  4.57207364e-01  3.32879102e-09  4.57207364e-01  4.57207364e-01  3.58230551e-09  4.57207364e-01  4.57207364e-01  1.58163563e-07  1.58297571e-07  3.00000000e-02 
 4.00000000e-02  4.57207392e-01  3.32879108e-09  4.57207392e-01  4.57207392e-01  3.58230551e-09  4.57207392e-01  4.57207392e-01  1.58163601e-07  1.58297293e-07  4.00000000e-02 
 5.00000000e-02  4.57207393e-01  3.32879108e-09  4.57207393e-01  4.57207393e-01  3.58230551e-09  4.57207393e-01  4.57207393e-01  1.58163597e-07  1.58296902e-07  5.00000000e-02 
 6.00000000e-02  4.57207400e-01  3.32879108e-09  4.57207400e-01  4.57207400e-01  3.58230557e-09  4.57207400e-01  4.57207400e-01  1.58163620e-07  1.58296477e-07  6.00000000e-02 
 7.00000000e-02  4.57207409e-01  3.32879102e-09  4.57207410e-01  4.57207410e-01  3.58230551e-09  4.57207409e-01  4.57207409e-01  1.58163619e-07  1.58296176e-07  7.00000000e-02 
 8.00000000e-02  4.57207372e-01  3.32879102e-09  4.57207372e-01  4.57207372e-01  3.58230551e-09  4.57207372e-01  4.57207372e-01  1.58163557e-07  1.58295868e-07  8.00000000e-02 
 9.00000000e-02  4.57207371e-01  3.32879102e-09  4.57207371e-01  4.57207371e-01  3.58230557e-09  4.57207371e-01  4.57207371e-01  1.58163577e-07  1.58295514e-07  9.00000000e-02 
 1.00000000e-01  4.57207367e-01  3.32879102e-09  4.57207367e-01  4.57207367e-01  3.58230551e-09  4.57207366e-01  4.57207366e-01  1.58163561e-07  1.58295228e-07  1.00000000e-01 
 1.10000000e-01  4.57207375e-01  3.32879107e-09  4.57207375e-01  4.57207375e-01  3.58230551e-09  4.57207375e-01  4.57207375e-01  1.58163578e-07  1.58294889e-07  1.10000000e-01 
 1.20000000e-01  4.57207378e-01  3.32879107e-09  4.57207378e-01  4.57207378e-01  3.58230557e-09  4.57207377e-01  4.57207377e-01  1.58163583e-07  1.58294594e-07  1.20000000e-01 
 1.30000000e-01  4.57207373e-01  3.32879102e-09  4.57207373e-01  4.57207373e-01  3.58230551e-09  4.57207373e-01  4.57207373e-01  1.58163580e-07  1.58294250e-07  1.30000000e-01 
 1.40000000e-01  4.57207385e-01  3.32879102e-09  4.57207385e-01  4.57207385e-01  3.58230551e-09  4.57207385e-01  4.57207384e-01  1.58163591e-07  1.58294180e-07  1.40000000e-01 
 1.50000000e-01  4.57207398e-01  3.32879102e-09  4.57207398e-01  4.57207398e-01  3.58230551e-09  4.57207398e-01  4.57207398e-01  1.58163619e-07  1.58293901e-07  1.50000000e-01 
 1.60000000e-01  4.57207378e-01  3.32879107e-09  4.57207378e-01  4.57207378e-01  3.58230557e-09  4.57207378e-01  4.57207378e-01  1.58163578e-07  1.58293570e-07  1.60000000e-01 
 1.70000000e-01  4.57207383e-01  3.32879107e-09  4.57207383e-01  4.57207383e-01  3.58230557e-09  4.57207383e-01  4.57207382e-01  1.58163578e-07  1.58293480e-07  1.70000000e-01 
 1.80000000e-01  4.57207376e-01  3.32879107e-09  4.57207376e-01  4.57207376e-01  3.58230557e-09  4.57207376e-01  4.57207376e-01  1.58163579e-07  1.58293105e-07  1.80000000e-01 
 1.90000000e-01  4.57207361e-01  3.32879107e-09  4.57207362e-01  4.57207361e-01  3.58230557e-09  4.57207361e-01  4.57207361e-01  1.58163553e-07  1.58292881e-07  1.90000000e-01 
 2.00000000e-01  4.57207375e-01  3.32879107e-09  4.57207375e-01  4.57207375e-01  3.58230551e-09  4.57207375e-01  4.57207375e-01  1.58163595e-07  1.58292684e-07  2.00000000e-01 
 2.10000000e-01  4.57207390e-01  3.32879108e-09  4.57207390e-01  4.57207390e-01  3.58230551e-09  4.57207390e-01  4.57207390e-01  1.58163595e-07  1.58292606e-07  2.10000000e-01 
 2.20000000e-01  4.57207363e-01  3.32879101e-09  4.57207363e-01  4.57207363e-01  3.58230557e-09  4.57207363e-01  4.57207363e-01  1.58163566e-07  1.58292245e-07  2.20000000e-01 
 2.30000000e-01  4.57207365e-01  3.32879102e-09  4.57207365e-01  4.57207365e-01  3.58230557e-09  4.57207365e-01  4.57207365e-01  1.58163556e-07  1.58292119e-07  2.30000000e-01 
 2.40000000e-01  4.57207377e-01  3.32879107e-09  4.57207377e-01  4.57207377e-01  3.58230551e-09  4.57207377e-01  4.57207377e-01  1.58163584e-07  1.58291892e-07  2.40000000e-01 
 2.50000000e-01  4.57207388e-01  3.32879108e-09  4.57207388e-01  4.57207388e-01  3.58230551e-09  4.57207388e-01  4.57207387e-01  1.58163595e-07  1.58291767e-07  2.50000000e-01 
 2.60000000e-01  4.57207379e-01  3.32879107e-09  4.57207379e-01  4.57207379e-01  3.58230557e-09  4.57207379e-01  4.57207379e-01  1.58163587e-07  1.58291749e-07  2.60000000e-01 
 2.70000000e-01  4.57207394e-01  3.32879108e-09  4.57207394e-01  4.57207394e-01  3.58230557e-09  4.57207394e-01  4.57207394e-01  1.58163598e-07  1.58291513e-07  2.70000000e-01 
 2.80000000e-01  4.57207383e-01  3.32879102e-09  4.57207383e-01  4.57207383e-01  3.58230551e-09  4.57207383e-01  4.57207383e-01  1.58163592e-07  1.58291227e-07  2.80000000e-01 
 2.90000000e-01  4.57207394e-01  3.32879108e-09  4.57207394e-01  4.57207394e-01  3.58230551e-09  4.57207394e-01  4.57207393e-01  1.58163608e-07  1.58291176e-07  2.90000000e-01 
 3.00000000e-01  4.57207367e-01  3.32879102e-09  4.57207367e-01  4.57207367e-01  3.58230551e-09  4.57207367e-01  4.57207367e-01  1.58163561e-07  1.58290863e-07  3.00000000e-01 
 3.10000000e-01  4.57207370e-01  3.32879102e-09  4.57207370e-01  4.57207370e-01  3.58230557e-09  4.57207370e-01  4.57207370e-01  1.58163569e-07  1.58290845e-07  3.10000000e-01 
 3.20000000e-01  4.57207385e-01  3.32879102e-09  4.57207385e-01  4.57207385e-01  3.58230551e-09  4.57207385e-01  4.57207385e-01  1.58163593e-07  1.58290739e-07  3.20000000e-01 
 3.30000000e-01  4.57207358e-01  3.32879101e-09  4.57207358e-01  4.57207358e-01  3.58230557e-09  4.57207358e-01  4.57207358e-01  1.58163545e-07  1.58290469e-07  3.30000000e-01 
 3.40000000e-01  4.57207359e-01  3.32879101e-09  4.57207359e-01  4.57207359e-01  3.58230551e-09  4.57207359e-01  4.57207359e-01  1.58163545e-07  1.58290341e-07  3.40000000e-01 
 3.50000000e-01  4.57207391e-01  3.32879108e-09  4.57207391e-01  4.57207391e-01  3.58230551e-09  4.57207391e-01  4.57207391e-01  1.58163588e-07  1.58290298e-07  3.50000000e-01 
 3.60000000e-01  4.57207378e-01  3.32879102e-09  4.57207378e-01  4.57207378e-01  3.58230557e-09  4.57207378e-01  4.57207378e-01  1.58163572e-07  1.58290174e-07  3.60000000e-01 
 3.70000000e-01  4.57207377e-01  3.32879102e-09  4.57207377e-01  4.57207377e-01  3.58230557e-09  4.57207377e-01  4.57207376e-01  1.58163582e-07  1.58289982e-07  3.70000000e-01 
 3.80000000e-01  4.57207374e-01  3.32879107e-09  4.57207374e-01  4.57207374e-01  3.58230557e-09  4.57207374e-01  4.57207374e-01  1.58163570e-07  1.58289783e-07  3.80000000e-01 
 3.90000000e-01  4.57207350e-01  3.32879101e-09  4.57207350e-01  4.57207350e-01  3.58230551e-09  4.57207350e-01  4.57207350e-01  1.58163536e-07  1.58289669e-07  3.90000000e-01 
 4.00000000e-01  4.57207362e-01  3.32879101e-09  4.57207362e-01  4.57207362e-01  3.58230557e-09  4.57207362e-01  4.57207361e-01  1.58163558e-07  1.58289620e-07  4.00000000e-01 
 4.10000000e-01  4.57207372e-01  3.32879107e-09  4.57207372e-01  4.57207372e-01  3.58230557e-09  4.57207372e-01  4.57207372e-01  1.58163558e-07  1.58289502e-07  4.10000000e-01 
 4.20000000e-01  4.57207388e-01  3.32879102e-09  4.57207388e-01  4.57207388e-01  3.58230551e-09  4.57207388e-01  4.57207388e-01  1.58163606e-07  1.58289371e-07  4.20000000e-01 
 4.30000000e-01  4.57207375e-01  3.32879102e-09  4.57207375e-01  4.57207375e-01  3.58230551e-09  4.57207375e-01  4.57207375e-01  1.58163575e-07  1.58289328e-07  4.30000000e-01 
 4.40000000e-01  4.57207389e-01  3.32879108e-09  4.57207390e-01  4.57207389e-01  3.58230557e-09  4.57207389e-01  4.57207389e-01  1.58163600e-07  1.58289225e-07  4.40000000e-01 
 4.50000000e-01  4.57207363e-01  3.32879102e-09  4.57207363e-01  4.57207363e-01  3.58230551e-09  4.57207363e-01  4.57207363e-01  1.58163565e-07  1.58288902e-07  4.50000000e-01 
 4.60000000e-01  4.57207376e-01  3.32879102e-09  4.57207376e-01  4.57207376e-01  3.58230551e-09  4.57207376e-01  4.57207376e-01  1.58163580e-07  1.58288980e-07  4.60000000e-01 
 4.70000000e-01  4.57207381e-01  3.32879102e-09  4.57207381e-01  4.57207381e-01  3.58230551e-09  4.57207380e-01  4.57207380e-01  1.58163577e-07  1.58288756e-07  4.70000000e-01 
 4.80000000e-01  4.57207369e-01  3.32879107e-09  4.57207369e-01  4.57207369e-01  3.58230557e-09  4.57207369e-01  4.57207368e-01  1.58163564e-07  1.58288604e-07  4.80000000e-01 
 4.90000000e-01  4.57207393e-01  3.32879108e-09  4.57207393e-01  4.57207393e-01  3.58230551e-09  4.57207393e-01  4.57207393e-01  1.58163598e-07  1.58288579e-07  4.90000000e-01 
 5.00000000e-01  4.57207371e-01  3.32879107e-09  4.57207371e-01  4.57207371e-01  3.58230557e-09  4.57207371e-01  4.57207371e-01  1.58163574e-07  1.58288412e-07  5.00000000e-01 
 5.10000000e-01  4.57207388e-01  3.32879102e-09  4.57207388e-01  4.57207388e-01  3.58230551e-09  4.57207388e-01  4.57207388e-01  1.58163601e-07  1.58288287e-07  5.10000000e-01 
 5.20000000e-01  4.57207374e-01  3.32879102e-09  4.57207374e-01  4.57207374e-01  3.58230551e-09  4.57207374e-01  4.57207374e-01  1.58163581e-07  1.58288209e-07  5.20000000e-01 
 5.30000000e-01  4.57207359e-01  3.32879101e-09  4.57207359e-01  4.57207359e-01  3.58230551e-09  4.57207359e-01  4.57207358e-01  1.58163551e-07  1.58288064e-07  5.30000000e-01 
 5.40000000e-01  4.57207345e-01  3.32879101e-09  4.57207345e-01  4.57207345e-01  3.58230551e-09  4.57207345e-01  4.57207344e-01  1.58163518e-07  1.58287822e-07  5.40000000e-01 
 5.50000000e-01  4.57207387e-01  3.32879108e-09  4.57207387e-01  4.57207387e-01  3.58230557e-09  4.57207387e-01  4.57207387e-01  1.58163587e-07  1.58287907e-07  5.50000000e-01 
 5.60000000e-01  4.57207378e-01  3.32879102e-09  4.57207378e-01  4.57207378e-01  3.58230551e-09  4.57207378e-01  4.57207378e-01  1.58163584e-07  1.58287779e-07  5.60000000e-01 
 5.70000000e-01  4.57207362e-01  3.32879101e-09  4.57207362e-01  4.57207362e-01  3.58230557e-09  4.57207361e-01  4.57207361e-01  1.58163561e-07  1.58287524e-07  5.70000000e-01 
 5.80000000e-01  4.57207378e-01  3.32879107e-09  4.57207378e-01  4.57207378e-01  3.58230551e-09  4.57207378e-01  4.57207378e-01  1.58163581e-07  1.58287477e-07  5.80000000e-01 
 5.90000000e-01  4.57207372e-01  3.32879102e-09  4.57207372e-01  4.57207372e-01  3.58230551e-09  4.57207372e-01  4.57207372e-01  1.58163571e-07  1.58287463e-07  5.90000000e-01 
 6.00000000e-01  4.57207357e-01  3.32879107e-09  4.57207357e-01  4.57207357e-01  3.58230557e-09  4.57207357e-01  4.57207357e-01  1.58163552e-07  1.58287229e-07  6.00000000e-01 
 6.10000000e-01  4.57207360e-01  3.32879107e-09  4.57207360e-01  4.57207360e-01  3.58230557e-09  4.57207360e-01  4.57207360e-01  1.58163553e-07  1.58287115e-07  6.10000000e-01 
 6.20000000e-01  4.57207382e-01  3.32879107e-09  4.57207382e-01  4.57207382e-01  3.58230557e-09  4.57207382e-01  4.57207382e-01  1.58163589e-07  1.58287037e-07  6.20000000e-01 
 6.30000000e-01  4.57207400e-01  3.32879102e-09  4.57207400e-01  4.57207400e-01  3.58230551e-09  4.57207400e-01  4.57207400e-01  1.58163598e-07  1.58286959e-07  6.30000000e-01 
 6.40000000e-01  4.57207359e-01  3.32879101e-09  4.57207359e-01  4.57207359e-01  3.58230551e-09  4.57207359e-01  4.57207359e-01  1.58163547e-07  1.58286781e-07  6.40000000e-01 
 6.50000000e-01  4.57207387e-01  3.32879102e-09  4.57207387e-01  4.57207387e-01  3.58230551e-09  4.57207387e-01  4.57207387e-01  1.58163595e-07  1.58286781e-07  6.50000000e-01 
 6.60000000e-01  4.57207346e-01  3.32879101e-09  4.57207346e-01  4.57207346e-01  3.58230557e-09  4.57207346e-01  4.57207346e-01  1.58163533e-07  1.58286497e-07  6.60000000e-01 
 6.70000000e-01  4.57207368e-01  3.32879102e-09  4.57207368e-01  4.57207368e-01  3.58230551e-09  4.57207368e-01  4.57207368e-01  1.58163566e-07  1.58286504e-07  6.70000000e-01 
 6.80000000e-01  4.57207363e-01  3.32879101e-09  4.57207363e-01  4.57207363e-01  3.58230557e-09  4.57207363e-01  4.57207363e-01  1.58163568e-07  1.58286390e-07  6.80000000e-01 
 6.90000000e-01  4.57207388e-01  3.32879108e-09  4.57207388e-01  4.57207388e-01  3.58230551e-09  4.57207388e-01  4.57207387e-01  1.58163593e-07  1.58286404e-07  6.90000000e-01 
 7.00000000e-01  4.57207383e-01  3.32879102e-09  4.57207383e-01  4.57207383e-01  3.58230551e-09  4.57207383e-01  4.57207382e-01  1.58163575e-07  1.58286142e-07  7.00000000e-01 
 7.10000000e-01  4.57207396e-01  3.32879108e-09  4.57207396e-01  4.57207396e-01  3.58230551e-09  4.57207396e-01  4.57207396e-01  1.58163617e-07  1.58286163e-07  7.10000000e-01 
 7.20000000e-01  4.57207364e-01  3.32879102e-09  4.57207364e-01  4.57207364e-01  3.58230551e-09  4.57207364e-01  4.57207364e-01  1.58163563e-07  1.58285935e-07  7.20000000e-01 
 7.30000000e-01  4.57207356e-01  3.32879101e-09  4.57207357e-01  4.57207356e-01  3.58230557e-09  4.57207356e-01  4.57207356e-01  1.58163545e-07  1.58285843e-07  7.30000000e-01 
 7.40000000e-01  4.57207354e-01  3.32879101e-09  4.57207354e-01  4.57207354e-01  3.58230551e-09  4.57207354e-01  4.57207354e-01  1.58163540e-07  1.58285680e-07  7.40000000e-01 
 7.50000000e-01  4.57207377e-01  3.32879102e-09  4.57207377e-01  4.57207377e-01  3.58230551e-09  4.57207377e-01  4.57207377e-01  1.58163567e-07  1.58285708e-07  7.50000000e-01 
 7.60000000e-01  4.57207387e-01  3.32879108e-09  4.57207387e-01  4.57207387e-01  3.58230557e-09  4.57207387e-01  4.57207386e-01  1.58163595e-07  1.58285516e-07  7.60000000e-01 
 7.70000000e-01  4.57207402e-01  3.32879102e-09  4.57207402e-01  4.57207402e-01  3.58230551e-09  4.57207401e-01  4.57207401e-01  1.58163606e-07  1.58285495e-07  7.70000000e-01 
 7.80000000e-01  4.57207372e-01  3.32879102e-09  4.57207372e-01  4.57207372e-01  3.58230551e-09  4.57207372e-01  4.57207371e-01  1.58163570e-07  1.58285225e-07  7.80000000e-01 
 7.90000000e-01  4.57207380e-01  3.32879107e-09  4.57207380e-01  4.57207380e-01  3.58230551e-09  4.57207380e-01  4.57207379e-01  1.58163577e-07  1.58285189e-07  7.90000000e-01 
 8.00000000e-01  4.57207369e-01  3.32879102e-09  4.57207369e-01  4.57207369e-01  3.58230551e-09  4.57207369e-01  4.57207369e-01  1.58163554e-07  1.58285062e-07  8.00000000e-01 
 8.10000000e-01  4.57207386e-01  3.32879102e-09  4.57207386e-01  4.57207386e-01  3.58230551e-09  4.57207385e-01  4.57207385e-01  1.58163580e-07  1.58284983e-07  8.10000000e-01 
 8.20000000e-01  4.57207390e-01  3.32879102e-09  4.57207390e-01  4.57207390e-01  3.58230551e-09  4.57207390e-01  4.57207390e-01  1.58163584e-07  1.58284799e-07  8.20000000e-01 
 8.30000000e-01  4.57207394e-01  3.32879102e-09  4.57207394e-01  4.57207394e-01  3.58230551e-09  4.57207393e-01  4.57207393e-01  1.58163610e-07  1.58284699e-07  8.30000000e-01 
 8.40000000e-01  4.57207396e-01  3.32879102e-09  4.57207396e-01  4.57207396e-01  3.58230551e-09  4.57207396e-01  4.57207396e-01  1.58163601e-07  1.58284678e-07  8.40000000e-01 
 8.50000000e-01  4.57207411e-01  3.32879108e-09  4.57207411e-01  4.57207411e-01  3.58230551e-09  4.57207411e-01  4.57207411e-01  1.58163618e-07  1.58284493e-07  8.50000000e-01 
 8.60000000e-01  4.57207383e-01  3.32879102e-09  4.57207383e-01  4.57207383e-01  3.58230551e-09  4.57207383e-01  4.57207383e-01  1.58163592e-07  1.58284315e-07  8.60000000e-01 
 8.70000000e-01  4.57207368e-01  3.32879107e-09  4.57207368e-01  4.57207368e-01  3.58230557e-09  4.57207368e-01  4.57207368e-01  1.58163563e-07  1.58284180e-07  8.70000000e-01 
 8.80000000e-01  4.57207377e-01  3.32879107e-09  4.57207377e-01  4.57207377e-01  3.58230551e-09  4.57207377e-01  4.57207377e-01  1.58163589e-07  1.58284095e-07  8.80000000e-01 
 8.90000000e-01  4.57207363e-01  3.32879102e-09  4.57207363e-01  4.57207363e-01  3.58230551e-09  4.57207363e-01  4.57207363e-01  1.58163556e-07  1.58283896e-07  8.90000000e-01 
 9.00000000e-01  4.57207385e-01  3.32879108e-09  4.57207385e-01  4.57207385e-01  3.58230551e-09  4.57207385e-01  4.57207384e-01  1.58163583e-07  1.58283875e-07  9.00000000e-01 
 9.10000000e-01  4.57207375e-01  3.32879102e-09  4.57207375e-01  4.57207375e-01  3.58230557e-09  4.57207375e-01  4.57207375e-01  1.58163569e-07  1.58283754e-07  9.10000000e-01 
 9.20000000e-01  4.57207335e-01  3.32879107e-09  4.57207335e-01  4.57207335e-01  3.58230551e-09  4.57207335e-01  4.57207335e-01  1.58163514e-07  1.58283441e-07  9.20000000e-01 
 9.30000000e-01  4.57207364e-01  3.32879102e-09  4.57207364e-01  4.57207364e-01  3.58230557e-09  4.57207364e-01  4.57207364e-01  1.58163567e-07  1.58283449e-07  9.30000000e-01 
 9.40000000e-01  4.57207409e-01  3.32879108e-09  4.57207409e-01  4.57207409e-01  3.58230557e-09  4.57207409e-01  4.57207409e-01  1.58163632e-07  1.58283427e-07  9.40000000e-01 
 9.50000000e-01  4.57207386e-01  3.32879102e-09  4.57207386e-01  4.57207386e-01  3.58230557e-09  4.57207386e-01  4.57207386e-01  1.58163591e-07  1.58283306e-07  9.50000000e-01 
 9.60000000e-01  4.57207392e-01  3.32879102e-09  4.57207392e-01  4.57207392e-01  3.58230551e-09  4.57207392e-01  4.57207391e-01  1.58163606e-07  1.58283150e-07  9.60000000e-01 
 9.70000000e-01  4.57207375e-01  3.32879102e-09  4.57207375e-01  4.57207375e-01  3.58230551e-09  4.57207375e-01  4.57207375e-01  1.58163559e-07  1.58283044e-07  9.70000000e-01 
 9.80000000e-01  4.57207387e-01  3.32879102e-09  4.57207387e-01  4.57207387e-01  3.58230551e-09  4.57207387e-01  4.57207387e-01  1.58163582e-07  1.58282930e-07  9.80000000e-01 
 9.90000000e-01  4.57207390e-01  3.32879102e-09  4.57207390e-01  4.57207390e-01  3.58230551e-09  4.57207390e-01  4.57207390e-01  1.58163603e-07  1.58282674e-07  9.90000000e-01 
 1.00000000e+00  4.57207397e-01  3.32879108e-09  4.57207397e-01  4.57207397e-01  3.58230557e-09  4.57207397e-01  4.57207397e-01  1.58163619e-07  1.58282617e-07  1.00000000e+00 
 1.01000000e+00  4.57207378e-01  3.32879102e-09  4.57207378e-01  4.57207378e-01  3.58230557e-09  4.57207378e-01  4.57207378e-01  1.58163580e-07  1.58282532e-07  1.01000000e+00 
 1.02000000e+00  4.57207386e-01  3.32879108e-09  4.57207386e-01  4.57207386e-01  3.58230557e-09  4.57207386e-01  4.57207386e-01  1.58163599e-07  1.58282283e-07  1.02000000e+00 
 1.03000000e+00  4.57207392e-01  3.32879102e-09  4.57207393e-01  4.57207393e-01  3.58230557e-09  4.57207392e-01  4.57207392e-01  1.58163599e-07  1.58282155e-07  1.03000000e+00 
 1.04000000e+00  4.57207378e-01  3.32879102e-09  4.57207378e-01  4.57207378e-01  3.58230551e-09  4.57207378e-01  4.57207378e-01  1.58163586e-07  1.58282006e-07  1.04000000e+00 
 1.05000000e+00  4.57207380e-01  3.32879102e-09  4.57207380e-01  4.57207380e-01  3.58230551e-09  4.57207380e-01  4.57207380e-01  1.58163573e-07  1.58281765e-07  1.05000000e+00 
 1.06000000e+00  4.57207362e-01  3.32879101e-09  4.57207362e-01  4.57207362e-01  3.58230551e-09  4.57207361e-01  4.57207361e-01  1.58163553e-07  1.58281658e-07  1.06000000e+00 
 1.07000000e+00  4.57207361e-01  3.32879101e-09  4.57207361e-01  4.57207361e-01  3.58230551e-09  4.57207361e-01  4.57207361e-01  1.58163553e-07  1.58281459e-07  1.07000000e+00 
 1.08000000e+00  4.57207382e-01  3.32879102e-09  4.57207382e-01  4.57207382e-01  3.58230551e-09  4.57207382e-01  4.57207381e-01  1.58163588e-07  1.58281409e-07  1.08000000e+00 
 1.09000000e+00  4.57207378e-01  3.32879107e-09  4.57207378e-01  4.57207378e-01  3.58230557e-09  4.57207378e-01  4.57207378e-01  1.58163581e-07  1.58281260e-07  1.09000000e+00 
 1.10000000e+00  4.57207378e-01  3.32879102e-09  4.57207378e-01  4.57207378e-01  3.58230551e-09  4.57207377e-01  4.57207377e-01  1.58163563e-07  1.58281040e-07  1.10000000e+00 
