 v-sweep         v(b0)           v(b1)           v(b2)           v(b3)           v(b4)           v(b5)           v(b6)           i(vbias)        i(viout)        v(vout)        
 0.00000000e+00  3.08922978e-09  4.59549838e-01  3.65771231e-09  4.59549838e-01  4.59549838e-01  3.21841255e-09  3.21303833e-09  1.60373553e-07  4.24118119e-08  0.00000000e+00 
 1.00000000e-02  3.08922982e-09  4.59549838e-01  3.65771229e-09  4.59549838e-01  4.59549838e-01  3.21841254e-09  3.21303831e-09  1.60373571e-07  4.24113962e-08  1.00000000e-02 
 2.00000000e-02  3.08922982e-09  4.59549840e-01  3.65771229e-09  4.59549840e-01  4.59549840e-01  3.21841259e-09  3.21303833e-09  1.60373566e-07  4.24110094e-08  2.00000000e-02 
 3.00000000e-02  3.08922982e-09  4.59549839e-01  3.65771223e-09  4.59549839e-01  4.59549839e-01  3.21841259e-09  3.21303837e-09  1.60373577e-07  4.24106297e-08  3.00000000e-02 
 4.00000000e-02  3.08922982e-09  4.59549835e-01  3.65771223e-09  4.59549835e-01  4.59549835e-01  3.21841254e-09  3.21303837e-09  1.60373565e-07  4.24101949e-08  4.00000000e-02 
 5.00000000e-02  3.08922982e-09  4.59549842e-01  3.65771229e-09  4.59549842e-01  4.59549842e-01  3.21841254e-09  3.21303831e-09  1.60373570e-07  4.24099418e-08  5.00000000e-02 
 6.00000000e-02  3.08922981e-09  4.59549820e-01  3.65771229e-09  4.59549820e-01  4.59549820e-01  3.21841259e-09  3.21303833e-09  1.60373518e-07  4.24096029e-08  6.00000000e-02 
 7.00000000e-02  3.08922981e-09  4.59549819e-01  3.65771229e-09  4.59549819e-01  4.59549819e-01  3.21841254e-09  3.21303831e-09  1.60373528e-07  4.24092832e-08  7.00000000e-02 
 8.00000000e-02  3.08922982e-09  4.59549832e-01  3.65771223e-09  4.59549832e-01  4.59549832e-01  3.21841254e-09  3.21303833e-09  1.60373553e-07  4.24090363e-08  8.00000000e-02 
 9.00000000e-02  3.08922982e-09  4.59549832e-01  3.65771229e-09  4.59549832e-01  4.59549832e-01  3.21841254e-09  3.21303831e-09  1.60373551e-07  4.24088062e-08  9.00000000e-02 
 1.00000000e-01  3.08922982e-09  4.59549838e-01  3.65771223e-09  4.59549838e-01  4.59549838e-01  3.21841254e-09  3.21303833e-09  1.60373547e-07  4.24084536e-08  1.00000000e-01 
 1.10000000e-01  3.08922982e-09  4.59549835e-01  3.65771229e-09  4.59549835e-01  4.59549835e-01  3.21841254e-09  3.21303831e-09  1.60373557e-07  4.24083302e-08  1.10000000e-01 
 1.20000000e-01  3.08922982e-09  4.59549849e-01  3.65771224e-09  4.59549849e-01  4.59549849e-01  3.21841259e-09  3.21303838e-09  1.60373575e-07  4.24080788e-08  1.20000000e-01 
 1.30000000e-01  3.08922981e-09  4.59549819e-01  3.65771229e-09  4.59549819e-01  4.59549819e-01  3.21841254e-09  3.21303831e-09  1.60373530e-07  4.24078035e-08  1.30000000e-01 
 1.40000000e-01  3.08922981e-09  4.59549829e-01  3.65771229e-09  4.59549829e-01  4.59549829e-01  3.21841254e-09  3.21303833e-09  1.60373538e-07  4.24075495e-08  1.40000000e-01 
 1.50000000e-01  3.08922981e-09  4.59549822e-01  3.65771229e-09  4.59549822e-01  4.59549822e-01  3.21841259e-09  3.21303831e-09  1.60373530e-07  4.24073470e-08  1.50000000e-01 
 1.60000000e-01  3.08922981e-09  4.59549820e-01  3.65771229e-09  4.59549820e-01  4.59549820e-01  3.21841259e-09  3.21303833e-09  1.60373532e-07  4.24072280e-08  1.60000000e-01 
 1.70000000e-01  3.08922981e-09  4.59549809e-01  3.65771229e-09  4.59549808e-01  4.59549808e-01  3.21841254e-09  3.21303831e-09  1.60373514e-07  4.24068851e-08  1.70000000e-01 
 1.80000000e-01  3.08922981e-09  4.59549820e-01  3.65771229e-09  4.59549820e-01  4.59549820e-01  3.21841254e-09  3.21303838e-09  1.60373540e-07  4.24069153e-08  1.80000000e-01 
 1.90000000e-01  3.08922982e-09  4.59549846e-01  3.65771229e-09  4.59549846e-01  4.59549846e-01  3.21841254e-09  3.21303831e-09  1.60373575e-07  4.24066826e-08  1.90000000e-01 
 2.00000000e-01  3.08922981e-09  4.59549827e-01  3.65771229e-09  4.59549827e-01  4.59549827e-01  3.21841254e-09  3.21303833e-09  1.60373549e-07  4.24065192e-08  2.00000000e-01 
 2.10000000e-01  3.08922981e-09  4.59549802e-01  3.65771229e-09  4.59549802e-01  4.59549802e-01  3.21841254e-09  3.21303836e-09  1.60373496e-07  4.24063575e-08  2.10000000e-01 
 2.20000000e-01  3.08922982e-09  4.59549840e-01  3.65771229e-09  4.59549840e-01  4.59549840e-01  3.21841254e-09  3.21303831e-09  1.60373558e-07  4.24062190e-08  2.20000000e-01 
 2.30000000e-01  3.08922981e-09  4.59549831e-01  3.65771229e-09  4.59549831e-01  4.59549831e-01  3.21841254e-09  3.21303833e-09  1.60373543e-07  4.24060005e-08  2.30000000e-01 
 2.40000000e-01  3.08922981e-09  4.59549831e-01  3.65771229e-09  4.59549831e-01  4.59549831e-01  3.21841254e-09  3.21303836e-09  1.60373544e-07  4.24058992e-08  2.40000000e-01 
 2.50000000e-01  3.08922982e-09  4.59549834e-01  3.65771229e-09  4.59549834e-01  4.59549834e-01  3.21841259e-09  3.21303837e-09  1.60373556e-07  4.24058850e-08  2.50000000e-01 
 2.60000000e-01  3.08922981e-09  4.59549824e-01  3.65771229e-09  4.59549824e-01  4.59549824e-01  3.21841254e-09  3.21303837e-09  1.60373538e-07  4.24056861e-08  2.60000000e-01 
 2.70000000e-01  3.08922981e-09  4.59549824e-01  3.65771229e-09  4.59549824e-01  4.59549824e-01  3.21841254e-09  3.21303831e-09  1.60373542e-07  4.24055688e-08  2.70000000e-01 
 2.80000000e-01  3.08922981e-09  4.59549806e-01  3.65771229e-09  4.59549806e-01  4.59549806e-01  3.21841254e-09  3.21303833e-09  1.60373508e-07  4.24054036e-08  2.80000000e-01 
 2.90000000e-01  3.08922981e-09  4.59549832e-01  3.65771229e-09  4.59549831e-01  4.59549831e-01  3.21841254e-09  3.21303836e-09  1.60373551e-07  4.24053148e-08  2.90000000e-01 
 3.00000000e-01  3.08922981e-09  4.59549821e-01  3.65771229e-09  4.59549820e-01  4.59549820e-01  3.21841259e-09  3.21303837e-09  1.60373529e-07  4.24052082e-08  3.00000000e-01 
 3.10000000e-01  3.08922981e-09  4.59549820e-01  3.65771229e-09  4.59549820e-01  4.59549820e-01  3.21841259e-09  3.21303831e-09  1.60373528e-07  4.24051407e-08  3.10000000e-01 
 3.20000000e-01  3.08922981e-09  4.59549827e-01  3.65771229e-09  4.59549827e-01  4.59549827e-01  3.21841259e-09  3.21303833e-09  1.60373545e-07  4.24050199e-08  3.20000000e-01 
 3.30000000e-01  3.08922982e-09  4.59549842e-01  3.65771229e-09  4.59549842e-01  4.59549842e-01  3.21841254e-09  3.21303831e-09  1.60373565e-07  4.24050093e-08  3.30000000e-01 
 3.40000000e-01  3.08922982e-09  4.59549840e-01  3.65771224e-09  4.59549840e-01  4.59549840e-01  3.21841254e-09  3.21303838e-09  1.60373565e-07  4.24049169e-08  3.40000000e-01 
 3.50000000e-01  3.08922982e-09  4.59549844e-01  3.65771229e-09  4.59549844e-01  4.59549844e-01  3.21841254e-09  3.21303831e-09  1.60373576e-07  4.24047073e-08  3.50000000e-01 
 3.60000000e-01  3.08922981e-09  4.59549829e-01  3.65771229e-09  4.59549829e-01  4.59549829e-01  3.21841254e-09  3.21303838e-09  1.60373548e-07  4.24045652e-08  3.60000000e-01 
 3.70000000e-01  3.08922982e-09  4.59549841e-01  3.65771229e-09  4.59549840e-01  4.59549840e-01  3.21841254e-09  3.21303837e-09  1.60373557e-07  4.24046078e-08  3.70000000e-01 
 3.80000000e-01  3.08922981e-09  4.59549824e-01  3.65771229e-09  4.59549824e-01  4.59549824e-01  3.21841254e-09  3.21303831e-09  1.60373549e-07  4.24045119e-08  3.80000000e-01 
 3.90000000e-01  3.08922982e-09  4.59549835e-01  3.65771223e-09  4.59549835e-01  4.59549835e-01  3.21841254e-09  3.21303833e-09  1.60373551e-07  4.24044657e-08  3.90000000e-01 
 4.00000000e-01  3.08922982e-09  4.59549832e-01  3.65771223e-09  4.59549832e-01  4.59549832e-01  3.21841254e-09  3.21303831e-09  1.60373554e-07  4.24044408e-08  4.00000000e-01 
 4.10000000e-01  3.08922982e-09  4.59549833e-01  3.65771229e-09  4.59549833e-01  4.59549833e-01  3.21841254e-09  3.21303833e-09  1.60373545e-07  4.24042668e-08  4.10000000e-01 
 4.20000000e-01  3.08922981e-09  4.59549815e-01  3.65771229e-09  4.59549815e-01  4.59549815e-01  3.21841259e-09  3.21303836e-09  1.60373519e-07  4.24041779e-08  4.20000000e-01 
 4.30000000e-01  3.08922981e-09  4.59549824e-01  3.65771223e-09  4.59549824e-01  4.59549824e-01  3.21841254e-09  3.21303837e-09  1.60373539e-07  4.24041104e-08  4.30000000e-01 
 4.40000000e-01  3.08922981e-09  4.59549830e-01  3.65771223e-09  4.59549829e-01  4.59549829e-01  3.21841254e-09  3.21303837e-09  1.60373542e-07  4.24040891e-08  4.40000000e-01 
 4.50000000e-01  3.08922981e-09  4.59549831e-01  3.65771223e-09  4.59549831e-01  4.59549831e-01  3.21841254e-09  3.21303831e-09  1.60373551e-07  4.24040749e-08  4.50000000e-01 
 4.60000000e-01  3.08922981e-09  4.59549824e-01  3.65771229e-09  4.59549824e-01  4.59549824e-01  3.21841259e-09  3.21303838e-09  1.60373554e-07  4.24039683e-08  4.60000000e-01 
 4.70000000e-01  3.08922981e-09  4.59549828e-01  3.65771229e-09  4.59549827e-01  4.59549827e-01  3.21841259e-09  3.21303836e-09  1.60373550e-07  4.24039186e-08  4.70000000e-01 
 4.80000000e-01  3.08922981e-09  4.59549830e-01  3.65771229e-09  4.59549829e-01  4.59549829e-01  3.21841254e-09  3.21303837e-09  1.60373542e-07  4.24038475e-08  4.80000000e-01 
 4.90000000e-01  3.08922981e-09  4.59549827e-01  3.65771229e-09  4.59549827e-01  4.59549827e-01  3.21841254e-09  3.21303831e-09  1.60373534e-07  4.24038511e-08  4.90000000e-01 
 5.00000000e-01  3.08922981e-09  4.59549812e-01  3.65771229e-09  4.59549812e-01  4.59549812e-01  3.21841259e-09  3.21303833e-09  1.60373519e-07  4.24037090e-08  5.00000000e-01 
 5.10000000e-01  3.08922982e-09  4.59549838e-01  3.65771229e-09  4.59549838e-01  4.59549837e-01  3.21841259e-09  3.21303831e-09  1.60373570e-07  4.24036237e-08  5.10000000e-01 
 5.20000000e-01  3.08922981e-09  4.59549817e-01  3.65771229e-09  4.59549817e-01  4.59549817e-01  3.21841254e-09  3.21303833e-09  1.60373529e-07  4.24035456e-08  5.20000000e-01 
 5.30000000e-01  3.08922982e-09  4.59549849e-01  3.65771229e-09  4.59549849e-01  4.59549849e-01  3.21841254e-09  3.21303837e-09  1.60373578e-07  4.24034887e-08  5.30000000e-01 
 5.40000000e-01  3.08922981e-09  4.59549818e-01  3.65771229e-09  4.59549818e-01  4.59549818e-01  3.21841259e-09  3.21303837e-09  1.60373545e-07  4.24033786e-08  5.40000000e-01 
 5.50000000e-01  3.08922981e-09  4.59549825e-01  3.65771223e-09  4.59549825e-01  4.59549825e-01  3.21841254e-09  3.21303831e-09  1.60373545e-07  4.24034177e-08  5.50000000e-01 
 5.60000000e-01  3.08922981e-09  4.59549824e-01  3.65771229e-09  4.59549824e-01  4.59549824e-01  3.21841259e-09  3.21303838e-09  1.60373543e-07  4.24032649e-08  5.60000000e-01 
 5.70000000e-01  3.08922981e-09  4.59549826e-01  3.65771229e-09  4.59549826e-01  4.59549826e-01  3.21841254e-09  3.21303831e-09  1.60373537e-07  4.24032045e-08  5.70000000e-01 
 5.80000000e-01  3.08922982e-09  4.59549842e-01  3.65771229e-09  4.59549842e-01  4.59549842e-01  3.21841259e-09  3.21303838e-09  1.60373565e-07  4.24031441e-08  5.80000000e-01 
 5.90000000e-01  3.08922982e-09  4.59549837e-01  3.65771229e-09  4.59549837e-01  4.59549837e-01  3.21841254e-09  3.21303837e-09  1.60373553e-07  4.24032081e-08  5.90000000e-01 
 6.00000000e-01  3.08922981e-09  4.59549827e-01  3.65771229e-09  4.59549827e-01  4.59549827e-01  3.21841259e-09  3.21303837e-09  1.60373532e-07  4.24032081e-08  6.00000000e-01 
 6.10000000e-01  3.08922982e-09  4.59549832e-01  3.65771229e-09  4.59549832e-01  4.59549832e-01  3.21841254e-09  3.21303837e-09  1.60373547e-07  4.24031228e-08  6.10000000e-01 
 6.20000000e-01  3.08922981e-09  4.59549829e-01  3.65771229e-09  4.59549829e-01  4.59549829e-01  3.21841259e-09  3.21303831e-09  1.60373542e-07  4.24029238e-08  6.20000000e-01 
 6.30000000e-01  3.08922982e-09  4.59549841e-01  3.65771229e-09  4.59549841e-01  4.59549841e-01  3.21841259e-09  3.21303833e-09  1.60373559e-07  4.24029096e-08  6.30000000e-01 
 6.40000000e-01  3.08922982e-09  4.59549844e-01  3.65771229e-09  4.59549844e-01  4.59549844e-01  3.21841254e-09  3.21303831e-09  1.60373561e-07  4.24029309e-08  6.40000000e-01 
 6.50000000e-01  3.08922981e-09  4.59549823e-01  3.65771229e-09  4.59549823e-01  4.59549823e-01  3.21841254e-09  3.21303833e-09  1.60373539e-07  4.24028670e-08  6.50000000e-01 
 6.60000000e-01  3.08922981e-09  4.59549831e-01  3.65771229e-09  4.59549831e-01  4.59549831e-01  3.21841259e-09  3.21303836e-09  1.60373544e-07  4.24026609e-08  6.60000000e-01 
 6.70000000e-01  3.08922981e-09  4.59549817e-01  3.65771223e-09  4.59549817e-01  4.59549817e-01  3.21841254e-09  3.21303837e-09  1.60373533e-07  4.24026751e-08  6.70000000e-01 
 6.80000000e-01  3.08922981e-09  4.59549815e-01  3.65771229e-09  4.59549815e-01  4.59549815e-01  3.21841254e-09  3.21303831e-09  1.60373520e-07  4.24025259e-08  6.80000000e-01 
 6.90000000e-01  3.08922981e-09  4.59549812e-01  3.65771229e-09  4.59549812e-01  4.59549812e-01  3.21841259e-09  3.21303833e-09  1.60373513e-07  4.24025899e-08  6.90000000e-01 
 7.00000000e-01  3.08922981e-09  4.59549828e-01  3.65771229e-09  4.59549828e-01  4.59549828e-01  3.21841259e-09  3.21303836e-09  1.60373541e-07  4.24025615e-08  7.00000000e-01 
 7.10000000e-01  3.08922981e-09  4.59549819e-01  3.65771229e-09  4.59549819e-01  4.59549819e-01  3.21841259e-09  3.21303831e-09  1.60373539e-07  4.24023909e-08  7.10000000e-01 
 7.20000000e-01  3.08922982e-09  4.59549841e-01  3.65771229e-09  4.59549841e-01  4.59549841e-01  3.21841259e-09  3.21303833e-09  1.60373571e-07  4.24024478e-08  7.20000000e-01 
 7.30000000e-01  3.08922981e-09  4.59549827e-01  3.65771229e-09  4.59549827e-01  4.59549827e-01  3.21841254e-09  3.21303836e-09  1.60373543e-07  4.24022915e-08  7.30000000e-01 
 7.40000000e-01  3.08922981e-09  4.59549824e-01  3.65771229e-09  4.59549824e-01  4.59549824e-01  3.21841259e-09  3.21303837e-09  1.60373529e-07  4.24023341e-08  7.40000000e-01 
 7.50000000e-01  3.08922981e-09  4.59549826e-01  3.65771229e-09  4.59549826e-01  4.59549826e-01  3.21841259e-09  3.21303837e-09  1.60373544e-07  4.24021920e-08  7.50000000e-01 
 7.60000000e-01  3.08922981e-09  4.59549825e-01  3.65771223e-09  4.59549825e-01  4.59549825e-01  3.21841259e-09  3.21303837e-09  1.60373536e-07  4.24021849e-08  7.60000000e-01 
 7.70000000e-01  3.08922981e-09  4.59549820e-01  3.65771223e-09  4.59549820e-01  4.59549820e-01  3.21841259e-09  3.21303831e-09  1.60373524e-07  4.24021209e-08  7.70000000e-01 
 7.80000000e-01  3.08922981e-09  4.59549819e-01  3.65771229e-09  4.59549819e-01  4.59549819e-01  3.21841259e-09  3.21303833e-09  1.60373524e-07  4.24021138e-08  7.80000000e-01 
 7.90000000e-01  3.08922982e-09  4.59549837e-01  3.65771229e-09  4.59549837e-01  4.59549837e-01  3.21841254e-09  3.21303831e-09  1.60373562e-07  4.24019504e-08  7.90000000e-01 
 8.00000000e-01  3.08922981e-09  4.59549815e-01  3.65771229e-09  4.59549815e-01  4.59549815e-01  3.21841254e-09  3.21303838e-09  1.60373535e-07  4.24018651e-08  8.00000000e-01 
 8.10000000e-01  3.08922982e-09  4.59549839e-01  3.65771229e-09  4.59549839e-01  4.59549839e-01  3.21841254e-09  3.21303831e-09  1.60373568e-07  4.24017728e-08  8.10000000e-01 
 8.20000000e-01  3.08922982e-09  4.59549838e-01  3.65771223e-09  4.59549838e-01  4.59549838e-01  3.21841254e-09  3.21303833e-09  1.60373557e-07  4.24017585e-08  8.20000000e-01 
 8.30000000e-01  3.08922982e-09  4.59549835e-01  3.65771229e-09  4.59549835e-01  4.59549835e-01  3.21841259e-09  3.21303837e-09  1.60373538e-07  4.24016662e-08  8.30000000e-01 
 8.40000000e-01  3.08922982e-09  4.59549837e-01  3.65771223e-09  4.59549837e-01  4.59549837e-01  3.21841254e-09  3.21303831e-09  1.60373571e-07  4.24017657e-08  8.40000000e-01 
 8.50000000e-01  3.08922982e-09  4.59549835e-01  3.65771229e-09  4.59549835e-01  4.59549835e-01  3.21841254e-09  3.21303833e-09  1.60373556e-07  4.24018722e-08  8.50000000e-01 
 8.60000000e-01  3.08922981e-09  4.59549815e-01  3.65771229e-09  4.59549815e-01  4.59549815e-01  3.21841254e-09  3.21303836e-09  1.60373535e-07  4.24016235e-08  8.60000000e-01 
 8.70000000e-01  3.08922981e-09  4.59549820e-01  3.65771223e-09  4.59549820e-01  4.59549820e-01  3.21841254e-09  3.21303837e-09  1.60373536e-07  4.24015099e-08  8.70000000e-01 
 8.80000000e-01  3.08922982e-09  4.59549833e-01  3.65771229e-09  4.59549833e-01  4.59549833e-01  3.21841254e-09  3.21303831e-09  1.60373547e-07  4.24014388e-08  8.80000000e-01 
 8.90000000e-01  3.08922982e-09  4.59549848e-01  3.65771229e-09  4.59549848e-01  4.59549848e-01  3.21841254e-09  3.21303833e-09  1.60373572e-07  4.24013749e-08  8.90000000e-01 
 9.00000000e-01  3.08922982e-09  4.59549838e-01  3.65771229e-09  4.59549838e-01  4.59549838e-01  3.21841259e-09  3.21303831e-09  1.60373560e-07  4.24013322e-08  9.00000000e-01 
 9.10000000e-01  3.08922982e-09  4.59549833e-01  3.65771229e-09  4.59549833e-01  4.59549833e-01  3.21841254e-09  3.21303833e-09  1.60373554e-07  4.24012541e-08  9.10000000e-01 
 9.20000000e-01  3.08922981e-09  4.59549831e-01  3.65771223e-09  4.59549830e-01  4.59549830e-01  3.21841254e-09  3.21303836e-09  1.60373557e-07  4.24011404e-08  9.20000000e-01 
 9.30000000e-01  3.08922981e-09  4.59549810e-01  3.65771229e-09  4.59549810e-01  4.59549810e-01  3.21841254e-09  3.21303831e-09  1.60373519e-07  4.24011404e-08  9.30000000e-01 
 9.40000000e-01  3.08922981e-09  4.59549811e-01  3.65771229e-09  4.59549810e-01  4.59549810e-01  3.21841259e-09  3.21303833e-09  1.60373514e-07  4.24010977e-08  9.40000000e-01 
 9.50000000e-01  3.08922981e-09  4.59549810e-01  3.65771229e-09  4.59549810e-01  4.59549810e-01  3.21841259e-09  3.21303831e-09  1.60373518e-07  4.24010409e-08  9.50000000e-01 
 9.60000000e-01  3.08922982e-09  4.59549841e-01  3.65771224e-09  4.59549841e-01  4.59549841e-01  3.21841259e-09  3.21303838e-09  1.60373555e-07  4.24010835e-08  9.60000000e-01 
 9.70000000e-01  3.08922981e-09  4.59549824e-01  3.65771223e-09  4.59549824e-01  4.59549824e-01  3.21841254e-09  3.21303836e-09  1.60373547e-07  4.24010409e-08  9.70000000e-01 
 9.80000000e-01  3.08922981e-09  4.59549822e-01  3.65771229e-09  4.59549821e-01  4.59549821e-01  3.21841254e-09  3.21303837e-09  1.60373539e-07  4.24008135e-08  9.80000000e-01 
 9.90000000e-01  3.08922981e-09  4.59549808e-01  3.65771223e-09  4.59549808e-01  4.59549808e-01  3.21841259e-09  3.21303837e-09  1.60373516e-07  4.24008277e-08  9.90000000e-01 
 1.00000000e+00  3.08922982e-09  4.59549839e-01  3.65771229e-09  4.59549838e-01  4.59549838e-01  3.21841254e-09  3.21303831e-09  1.60373570e-07  4.24006785e-08  1.00000000e+00 
 1.01000000e+00  3.08922981e-09  4.59549807e-01  3.65771229e-09  4.59549807e-01  4.59549807e-01  3.21841259e-09  3.21303833e-09  1.60373517e-07  4.24006501e-08  1.01000000e+00 
 1.02000000e+00  3.08922982e-09  4.59549847e-01  3.65771229e-09  4.59549847e-01  4.59549847e-01  3.21841254e-09  3.21303837e-09  1.60373564e-07  4.24007283e-08  1.02000000e+00 
 1.03000000e+00  3.08922981e-09  4.59549828e-01  3.65771229e-09  4.59549828e-01  4.59549828e-01  3.21841254e-09  3.21303837e-09  1.60373538e-07  4.24005364e-08  1.03000000e+00 
 1.04000000e+00  3.08922981e-09  4.59549822e-01  3.65771229e-09  4.59549822e-01  4.59549822e-01  3.21841259e-09  3.21303837e-09  1.60373533e-07  4.24004583e-08  1.04000000e+00 
 1.05000000e+00  3.08922981e-09  4.59549821e-01  3.65771223e-09  4.59549821e-01  4.59549821e-01  3.21841254e-09  3.21303831e-09  1.60373534e-07  4.24003304e-08  1.05000000e+00 
 1.06000000e+00  3.08922982e-09  4.59549838e-01  3.65771229e-09  4.59549838e-01  4.59549838e-01  3.21841259e-09  3.21303833e-09  1.60373562e-07  4.24004796e-08  1.06000000e+00 
 1.07000000e+00  3.08922982e-09  4.59549835e-01  3.65771229e-09  4.59549835e-01  4.59549835e-01  3.21841259e-09  3.21303831e-09  1.60373551e-07  4.24003872e-08  1.07000000e+00 
 1.08000000e+00  3.08922982e-09  4.59549841e-01  3.65771224e-09  4.59549841e-01  4.59549841e-01  3.21841259e-09  3.21303833e-09  1.60373577e-07  4.24002806e-08  1.08000000e+00 
 1.09000000e+00  3.08922982e-09  4.59549836e-01  3.65771229e-09  4.59549836e-01  4.59549836e-01  3.21841254e-09  3.21303831e-09  1.60373558e-07  4.24002948e-08  1.09000000e+00 
 1.10000000e+00  3.08922981e-09  4.59549821e-01  3.65771229e-09  4.59549821e-01  4.59549821e-01  3.21841254e-09  3.21303833e-09  1.60373528e-07  4.24000959e-08  1.10000000e+00 
