 v-sweep         v(b0)           v(b1)           v(b2)           v(b3)           v(b4)           v(b5)           v(b6)           i(vbias)        i(viout)        v(vout)        
 0.00000000e+00  4.56693482e-01  3.59664776e-09  4.56693482e-01  3.46674949e-09  3.27211049e-09  4.56693482e-01  3.43977998e-09  1.55080040e-07  5.31526411e-08  0.00000000e+00 
 1.00000000e-02  4.56693487e-01  3.59664780e-09  4.56693487e-01  3.46674953e-09  3.27211047e-09  4.56693487e-01  3.43977996e-09  1.55080073e-07  5.31521986e-08  1.00000000e-02 
 2.00000000e-02  4.56693496e-01  3.59664780e-09  4.56693496e-01  3.46674946e-09  3.27211053e-09  4.56693496e-01  3.43977996e-09  1.55080070e-07  5.31517999e-08  2.00000000e-02 
 3.00000000e-02  4.56693489e-01  3.59664780e-09  4.56693489e-01  3.46674954e-09  3.27211047e-09  4.56693489e-01  3.43977996e-09  1.55080064e-07  5.31513586e-08  3.00000000e-02 
 4.00000000e-02  4.56693475e-01  3.59664780e-09  4.56693475e-01  3.46674952e-09  3.27211052e-09  4.56693475e-01  3.43977996e-09  1.55080047e-07  5.31510072e-08  4.00000000e-02 
 5.00000000e-02  4.56693500e-01  3.59664780e-09  4.56693500e-01  3.46674947e-09  3.27211053e-09  4.56693500e-01  3.43977996e-09  1.55080072e-07  5.31507047e-08  5.00000000e-02 
 6.00000000e-02  4.56693490e-01  3.59664786e-09  4.56693490e-01  3.46674954e-09  3.27211053e-09  4.56693490e-01  3.43978002e-09  1.55080063e-07  5.31504116e-08  6.00000000e-02 
 7.00000000e-02  4.56693472e-01  3.59664778e-09  4.56693472e-01  3.46674946e-09  3.27211052e-09  4.56693472e-01  3.43977996e-09  1.55080044e-07  5.31500977e-08  7.00000000e-02 
 8.00000000e-02  4.56693484e-01  3.59664780e-09  4.56693484e-01  3.46674948e-09  3.27211047e-09  4.56693484e-01  3.43977996e-09  1.55080056e-07  5.31498712e-08  8.00000000e-02 
 9.00000000e-02  4.56693484e-01  3.59664780e-09  4.56693484e-01  3.46674953e-09  3.27211047e-09  4.56693484e-01  3.43978002e-09  1.55080068e-07  5.31494813e-08  9.00000000e-02 
 1.00000000e-01  4.56693500e-01  3.59664780e-09  4.56693500e-01  3.46674952e-09  3.27211053e-09  4.56693500e-01  3.43977996e-09  1.55080080e-07  5.31492592e-08  1.00000000e-01 
 1.10000000e-01  4.56693492e-01  3.59664780e-09  4.56693492e-01  3.46674952e-09  3.27211053e-09  4.56693492e-01  3.43978002e-09  1.55080070e-07  5.31490780e-08  1.10000000e-01 
 1.20000000e-01  4.56693486e-01  3.59664780e-09  4.56693486e-01  3.46674952e-09  3.27211047e-09  4.56693486e-01  3.43977996e-09  1.55080053e-07  5.31488880e-08  1.20000000e-01 
 1.30000000e-01  4.56693481e-01  3.59664780e-09  4.56693481e-01  3.46674952e-09  3.27211047e-09  4.56693481e-01  3.43977996e-09  1.55080052e-07  5.31486357e-08  1.30000000e-01 
 1.40000000e-01  4.56693503e-01  3.59664780e-09  4.56693503e-01  3.46674952e-09  3.27211047e-09  4.56693503e-01  3.43977996e-09  1.55080092e-07  5.31483710e-08  1.40000000e-01 
 1.50000000e-01  4.56693476e-01  3.59664780e-09  4.56693476e-01  3.46674947e-09  3.27211052e-09  4.56693476e-01  3.43978002e-09  1.55080031e-07  5.31482360e-08  1.50000000e-01 
 1.60000000e-01  4.56693510e-01  3.59664780e-09  4.56693510e-01  3.46674954e-09  3.27211053e-09  4.56693510e-01  3.43978002e-09  1.55080101e-07  5.31480602e-08  1.60000000e-01 
 1.70000000e-01  4.56693472e-01  3.59664780e-09  4.56693472e-01  3.46674952e-09  3.27211047e-09  4.56693472e-01  3.43977996e-09  1.55080031e-07  5.31476605e-08  1.70000000e-01 
 1.80000000e-01  4.56693473e-01  3.59664780e-09  4.56693473e-01  3.46674952e-09  3.27211047e-09  4.56693473e-01  3.43977996e-09  1.55080037e-07  5.31475770e-08  1.80000000e-01 
 1.90000000e-01  4.56693478e-01  3.59664780e-09  4.56693478e-01  3.46674952e-09  3.27211052e-09  4.56693478e-01  3.43978002e-09  1.55080042e-07  5.31474385e-08  1.90000000e-01 
 2.00000000e-01  4.56693504e-01  3.59664786e-09  4.56693504e-01  3.46674947e-09  3.27211053e-09  4.56693504e-01  3.43977996e-09  1.55080092e-07  5.31471862e-08  2.00000000e-01 
 2.10000000e-01  4.56693476e-01  3.59664778e-09  4.56693476e-01  3.46674948e-09  3.27211052e-09  4.56693476e-01  3.43977996e-09  1.55080020e-07  5.31471276e-08  2.10000000e-01 
 2.20000000e-01  4.56693487e-01  3.59664780e-09  4.56693487e-01  3.46674953e-09  3.27211053e-09  4.56693487e-01  3.43977996e-09  1.55080064e-07  5.31470157e-08  2.20000000e-01 
 2.30000000e-01  4.56693456e-01  3.59664779e-09  4.56693456e-01  3.46674946e-09  3.27211052e-09  4.56693456e-01  3.43977996e-09  1.55080012e-07  5.31467315e-08  2.30000000e-01 
 2.40000000e-01  4.56693491e-01  3.59664780e-09  4.56693491e-01  3.46674954e-09  3.27211053e-09  4.56693491e-01  3.43977996e-09  1.55080069e-07  5.31466657e-08  2.40000000e-01 
 2.50000000e-01  4.56693474e-01  3.59664780e-09  4.56693474e-01  3.46674952e-09  3.27211052e-09  4.56693474e-01  3.43977996e-09  1.55080044e-07  5.31466693e-08  2.50000000e-01 
 2.60000000e-01  4.56693474e-01  3.59664780e-09  4.56693475e-01  3.46674952e-09  3.27211047e-09  4.56693475e-01  3.43977996e-09  1.55080039e-07  5.31462891e-08  2.60000000e-01 
 2.70000000e-01  4.56693472e-01  3.59664780e-09  4.56693473e-01  3.46674952e-09  3.27211047e-09  4.56693472e-01  3.43978002e-09  1.55080031e-07  5.31462891e-08  2.70000000e-01 
 2.80000000e-01  4.56693469e-01  3.59664780e-09  4.56693469e-01  3.46674947e-09  3.27211047e-09  4.56693469e-01  3.43977996e-09  1.55080047e-07  5.31462359e-08  2.80000000e-01 
 2.90000000e-01  4.56693493e-01  3.59664780e-09  4.56693494e-01  3.46674948e-09  3.27211053e-09  4.56693493e-01  3.43977996e-09  1.55080078e-07  5.31461559e-08  2.90000000e-01 
 3.00000000e-01  4.56693483e-01  3.59664780e-09  4.56693483e-01  3.46674953e-09  3.27211053e-09  4.56693483e-01  3.43977996e-09  1.55080058e-07  5.31460529e-08  3.00000000e-01 
 3.10000000e-01  4.56693463e-01  3.59664779e-09  4.56693463e-01  3.46674946e-09  3.27211052e-09  4.56693463e-01  3.43977996e-09  1.55080028e-07  5.31458859e-08  3.10000000e-01 
 3.20000000e-01  4.56693469e-01  3.59664780e-09  4.56693469e-01  3.46674948e-09  3.27211047e-09  4.56693469e-01  3.43978002e-09  1.55080033e-07  5.31458717e-08  3.20000000e-01 
 3.30000000e-01  4.56693480e-01  3.59664780e-09  4.56693480e-01  3.46674947e-09  3.27211047e-09  4.56693480e-01  3.43978002e-09  1.55080044e-07  5.31456479e-08  3.30000000e-01 
 3.40000000e-01  4.56693504e-01  3.59664780e-09  4.56693504e-01  3.46674947e-09  3.27211047e-09  4.56693504e-01  3.43977996e-09  1.55080079e-07  5.31455981e-08  3.40000000e-01 
 3.50000000e-01  4.56693489e-01  3.59664780e-09  4.56693489e-01  3.46674953e-09  3.27211053e-09  4.56693489e-01  3.43977996e-09  1.55080063e-07  5.31454951e-08  3.50000000e-01 
 3.60000000e-01  4.56693493e-01  3.59664780e-09  4.56693493e-01  3.46674952e-09  3.27211053e-09  4.56693493e-01  3.43978002e-09  1.55080069e-07  5.31454489e-08  3.60000000e-01 
 3.70000000e-01  4.56693486e-01  3.59664785e-09  4.56693486e-01  3.46674947e-09  3.27211047e-09  4.56693486e-01  3.43977996e-09  1.55080053e-07  5.31452571e-08  3.70000000e-01 
 3.80000000e-01  4.56693475e-01  3.59664778e-09  4.56693475e-01  3.46674948e-09  3.27211052e-09  4.56693475e-01  3.43977996e-09  1.55080042e-07  5.31451541e-08  3.80000000e-01 
 3.90000000e-01  4.56693484e-01  3.59664780e-09  4.56693484e-01  3.46674953e-09  3.27211047e-09  4.56693484e-01  3.43978002e-09  1.55080046e-07  5.31451079e-08  3.90000000e-01 
 4.00000000e-01  4.56693488e-01  3.59664780e-09  4.56693488e-01  3.46674946e-09  3.27211053e-09  4.56693488e-01  3.43978002e-09  1.55080069e-07  5.31450937e-08  4.00000000e-01 
 4.10000000e-01  4.56693486e-01  3.59664785e-09  4.56693486e-01  3.46674948e-09  3.27211053e-09  4.56693486e-01  3.43977996e-09  1.55080067e-07  5.31450226e-08  4.10000000e-01 
 4.20000000e-01  4.56693473e-01  3.59664778e-09  4.56693473e-01  3.46674947e-09  3.27211047e-09  4.56693473e-01  3.43978002e-09  1.55080039e-07  5.31448592e-08  4.20000000e-01 
 4.30000000e-01  4.56693468e-01  3.59664780e-09  4.56693468e-01  3.46674947e-09  3.27211047e-09  4.56693468e-01  3.43977996e-09  1.55080041e-07  5.31447810e-08  4.30000000e-01 
 4.40000000e-01  4.56693485e-01  3.59664780e-09  4.56693485e-01  3.46674953e-09  3.27211047e-09  4.56693485e-01  3.43977996e-09  1.55080059e-07  5.31447562e-08  4.40000000e-01 
 4.50000000e-01  4.56693503e-01  3.59664780e-09  4.56693503e-01  3.46674946e-09  3.27211053e-09  4.56693503e-01  3.43977996e-09  1.55080071e-07  5.31446993e-08  4.50000000e-01 
 4.60000000e-01  4.56693485e-01  3.59664780e-09  4.56693485e-01  3.46674948e-09  3.27211053e-09  4.56693485e-01  3.43977996e-09  1.55080060e-07  5.31446780e-08  4.60000000e-01 
 4.70000000e-01  4.56693491e-01  3.59664780e-09  4.56693491e-01  3.46674953e-09  3.27211047e-09  4.56693491e-01  3.43977996e-09  1.55080060e-07  5.31445892e-08  4.70000000e-01 
 4.80000000e-01  4.56693486e-01  3.59664780e-09  4.56693486e-01  3.46674946e-09  3.27211047e-09  4.56693486e-01  3.43977996e-09  1.55080064e-07  5.31443511e-08  4.80000000e-01 
 4.90000000e-01  4.56693482e-01  3.59664780e-09  4.56693482e-01  3.46674953e-09  3.27211053e-09  4.56693482e-01  3.43977996e-09  1.55080056e-07  5.31444080e-08  4.90000000e-01 
 5.00000000e-01  4.56693510e-01  3.59664780e-09  4.56693510e-01  3.46674952e-09  3.27211053e-09  4.56693510e-01  3.43977996e-09  1.55080097e-07  5.31444861e-08  5.00000000e-01 
 5.10000000e-01  4.56693483e-01  3.59664780e-09  4.56693483e-01  3.46674952e-09  3.27211053e-09  4.56693483e-01  3.43977996e-09  1.55080051e-07  5.31443938e-08  5.10000000e-01 
 5.20000000e-01  4.56693478e-01  3.59664780e-09  4.56693478e-01  3.46674947e-09  3.27211047e-09  4.56693478e-01  3.43978002e-09  1.55080047e-07  5.31442126e-08  5.20000000e-01 
 5.30000000e-01  4.56693476e-01  3.59664780e-09  4.56693476e-01  3.46674948e-09  3.27211052e-09  4.56693476e-01  3.43977996e-09  1.55080035e-07  5.31441806e-08  5.30000000e-01 
 5.40000000e-01  4.56693493e-01  3.59664780e-09  4.56693493e-01  3.46674953e-09  3.27211053e-09  4.56693493e-01  3.43977996e-09  1.55080068e-07  5.31441664e-08  5.40000000e-01 
 5.50000000e-01  4.56693490e-01  3.59664780e-09  4.56693490e-01  3.46674952e-09  3.27211053e-09  4.56693490e-01  3.43978002e-09  1.55080079e-07  5.31439959e-08  5.50000000e-01 
 5.60000000e-01  4.56693495e-01  3.59664780e-09  4.56693495e-01  3.46674952e-09  3.27211047e-09  4.56693495e-01  3.43977996e-09  1.55080067e-07  5.31440030e-08  5.60000000e-01 
 5.70000000e-01  4.56693502e-01  3.59664780e-09  4.56693502e-01  3.46674947e-09  3.27211053e-09  4.56693502e-01  3.43977996e-09  1.55080076e-07  5.31439532e-08  5.70000000e-01 
 5.80000000e-01  4.56693475e-01  3.59664780e-09  4.56693475e-01  3.46674948e-09  3.27211052e-09  4.56693475e-01  3.43977996e-09  1.55080050e-07  5.31439213e-08  5.80000000e-01 
 5.90000000e-01  4.56693486e-01  3.59664785e-09  4.56693486e-01  3.46674947e-09  3.27211053e-09  4.56693486e-01  3.43977996e-09  1.55080043e-07  5.31437863e-08  5.90000000e-01 
 6.00000000e-01  4.56693496e-01  3.59664779e-09  4.56693496e-01  3.46674953e-09  3.27211047e-09  4.56693496e-01  3.43977996e-09  1.55080065e-07  5.31437010e-08  6.00000000e-01 
 6.10000000e-01  4.56693500e-01  3.59664781e-09  4.56693500e-01  3.46674946e-09  3.27211047e-09  4.56693500e-01  3.43977996e-09  1.55080088e-07  5.31437081e-08  6.10000000e-01 
 6.20000000e-01  4.56693484e-01  3.59664785e-09  4.56693484e-01  3.46674948e-09  3.27211053e-09  4.56693484e-01  3.43978002e-09  1.55080053e-07  5.31435660e-08  6.20000000e-01 
 6.30000000e-01  4.56693488e-01  3.59664784e-09  4.56693488e-01  3.46674947e-09  3.27211053e-09  4.56693488e-01  3.43977996e-09  1.55080076e-07  5.31436157e-08  6.30000000e-01 
 6.40000000e-01  4.56693485e-01  3.59664779e-09  4.56693485e-01  3.46674947e-09  3.27211053e-09  4.56693485e-01  3.43977996e-09  1.55080057e-07  5.31434949e-08  6.40000000e-01 
 6.50000000e-01  4.56693482e-01  3.59664780e-09  4.56693482e-01  3.46674947e-09  3.27211047e-09  4.56693482e-01  3.43977996e-09  1.55080055e-07  5.31434168e-08  6.50000000e-01 
 6.60000000e-01  4.56693505e-01  3.59664780e-09  4.56693505e-01  3.46674947e-09  3.27211053e-09  4.56693505e-01  3.43977996e-09  1.55080083e-07  5.31433955e-08  6.60000000e-01 
 6.70000000e-01  4.56693461e-01  3.59664779e-09  4.56693461e-01  3.46674947e-09  3.27211052e-09  4.56693461e-01  3.43978002e-09  1.55080011e-07  5.31432320e-08  6.70000000e-01 
 6.80000000e-01  4.56693480e-01  3.59664780e-09  4.56693480e-01  3.46674953e-09  3.27211047e-09  4.56693480e-01  3.43977996e-09  1.55080055e-07  5.31432391e-08  6.80000000e-01 
 6.90000000e-01  4.56693493e-01  3.59664780e-09  4.56693493e-01  3.46674946e-09  3.27211047e-09  4.56693493e-01  3.43977996e-09  1.55080065e-07  5.31432391e-08  6.90000000e-01 
 7.00000000e-01  4.56693503e-01  3.59664780e-09  4.56693503e-01  3.46674948e-09  3.27211047e-09  4.56693503e-01  3.43978002e-09  1.55080089e-07  5.31432249e-08  7.00000000e-01 
 7.10000000e-01  4.56693480e-01  3.59664780e-09  4.56693480e-01  3.46674953e-09  3.27211052e-09  4.56693480e-01  3.43977996e-09  1.55080042e-07  5.31430970e-08  7.10000000e-01 
 7.20000000e-01  4.56693489e-01  3.59664780e-09  4.56693489e-01  3.46674946e-09  3.27211053e-09  4.56693489e-01  3.43977996e-09  1.55080076e-07  5.31430828e-08  7.20000000e-01 
 7.30000000e-01  4.56693484e-01  3.59664780e-09  4.56693484e-01  3.46674948e-09  3.27211047e-09  4.56693484e-01  3.43977996e-09  1.55080051e-07  5.31429620e-08  7.30000000e-01 
 7.40000000e-01  4.56693476e-01  3.59664780e-09  4.56693476e-01  3.46674953e-09  3.27211052e-09  4.56693476e-01  3.43978002e-09  1.55080045e-07  5.31428412e-08  7.40000000e-01 
 7.50000000e-01  4.56693495e-01  3.59664780e-09  4.56693495e-01  3.46674952e-09  3.27211053e-09  4.56693495e-01  3.43977996e-09  1.55080075e-07  5.31428554e-08  7.50000000e-01 
 7.60000000e-01  4.56693471e-01  3.59664780e-09  4.56693471e-01  3.46674952e-09  3.27211052e-09  4.56693471e-01  3.43977996e-09  1.55080037e-07  5.31428270e-08  7.60000000e-01 
 7.70000000e-01  4.56693460e-01  3.59664779e-09  4.56693460e-01  3.46674952e-09  3.27211047e-09  4.56693460e-01  3.43977996e-09  1.55080030e-07  5.31426920e-08  7.70000000e-01 
 7.80000000e-01  4.56693517e-01  3.59664780e-09  4.56693517e-01  3.46674952e-09  3.27211053e-09  4.56693517e-01  3.43978002e-09  1.55080100e-07  5.31427062e-08  7.80000000e-01 
 7.90000000e-01  4.56693473e-01  3.59664780e-09  4.56693473e-01  3.46674952e-09  3.27211052e-09  4.56693473e-01  3.43977996e-09  1.55080017e-07  5.31427276e-08  7.90000000e-01 
 8.00000000e-01  4.56693475e-01  3.59664785e-09  4.56693475e-01  3.46674952e-09  3.27211052e-09  4.56693475e-01  3.43978002e-09  1.55080049e-07  5.31425144e-08  8.00000000e-01 
 8.10000000e-01  4.56693505e-01  3.59664779e-09  4.56693505e-01  3.46674952e-09  3.27211053e-09  4.56693505e-01  3.43978002e-09  1.55080096e-07  5.31424647e-08  8.10000000e-01 
 8.20000000e-01  4.56693487e-01  3.59664780e-09  4.56693487e-01  3.46674952e-09  3.27211047e-09  4.56693487e-01  3.43978002e-09  1.55080049e-07  5.31424789e-08  8.20000000e-01 
 8.30000000e-01  4.56693505e-01  3.59664780e-09  4.56693505e-01  3.46674952e-09  3.27211053e-09  4.56693505e-01  3.43977996e-09  1.55080092e-07  5.31423296e-08  8.30000000e-01 
 8.40000000e-01  4.56693470e-01  3.59664780e-09  4.56693471e-01  3.46674947e-09  3.27211047e-09  4.56693471e-01  3.43977996e-09  1.55080047e-07  5.31422373e-08  8.40000000e-01 
 8.50000000e-01  4.56693485e-01  3.59664780e-09  4.56693485e-01  3.46674948e-09  3.27211047e-09  4.56693485e-01  3.43977996e-09  1.55080061e-07  5.31422657e-08  8.50000000e-01 
 8.60000000e-01  4.56693478e-01  3.59664780e-09  4.56693478e-01  3.46674947e-09  3.27211047e-09  4.56693478e-01  3.43978002e-09  1.55080034e-07  5.31421875e-08  8.60000000e-01 
 8.70000000e-01  4.56693491e-01  3.59664780e-09  4.56693491e-01  3.46674947e-09  3.27211053e-09  4.56693491e-01  3.43977996e-09  1.55080063e-07  5.31420810e-08  8.70000000e-01 
 8.80000000e-01  4.56693483e-01  3.59664780e-09  4.56693483e-01  3.46674953e-09  3.27211053e-09  4.56693483e-01  3.43977996e-09  1.55080052e-07  5.31419602e-08  8.80000000e-01 
 8.90000000e-01  4.56693504e-01  3.59664780e-09  4.56693504e-01  3.46674952e-09  3.27211047e-09  4.56693504e-01  3.43977996e-09  1.55080089e-07  5.31420525e-08  8.90000000e-01 
 9.00000000e-01  4.56693489e-01  3.59664780e-09  4.56693489e-01  3.46674947e-09  3.27211047e-09  4.56693489e-01  3.43977996e-09  1.55080061e-07  5.31419602e-08  9.00000000e-01 
 9.10000000e-01  4.56693495e-01  3.59664780e-09  4.56693495e-01  3.46674954e-09  3.27211053e-09  4.56693495e-01  3.43977996e-09  1.55080070e-07  5.31418820e-08  9.10000000e-01 
 9.20000000e-01  4.56693476e-01  3.59664780e-09  4.56693476e-01  3.46674952e-09  3.27211052e-09  4.56693476e-01  3.43977996e-09  1.55080044e-07  5.31418607e-08  9.20000000e-01 
 9.30000000e-01  4.56693481e-01  3.59664780e-09  4.56693481e-01  3.46674947e-09  3.27211047e-09  4.56693481e-01  3.43978002e-09  1.55080048e-07  5.31418465e-08  9.30000000e-01 
 9.40000000e-01  4.56693507e-01  3.59664780e-09  4.56693507e-01  3.46674948e-09  3.27211053e-09  4.56693507e-01  3.43978002e-09  1.55080092e-07  5.31417115e-08  9.40000000e-01 
 9.50000000e-01  4.56693476e-01  3.59664780e-09  4.56693476e-01  3.46674953e-09  3.27211047e-09  4.56693476e-01  3.43977996e-09  1.55080054e-07  5.31415409e-08  9.50000000e-01 
 9.60000000e-01  4.56693494e-01  3.59664780e-09  4.56693494e-01  3.46674952e-09  3.27211053e-09  4.56693494e-01  3.43978002e-09  1.55080066e-07  5.31415552e-08  9.60000000e-01 
 9.70000000e-01  4.56693471e-01  3.59664780e-09  4.56693471e-01  3.46674947e-09  3.27211052e-09  4.56693471e-01  3.43978002e-09  1.55080046e-07  5.31414628e-08  9.70000000e-01 
 9.80000000e-01  4.56693499e-01  3.59664780e-09  4.56693499e-01  3.46674948e-09  3.27211053e-09  4.56693499e-01  3.43978002e-09  1.55080079e-07  5.31413562e-08  9.80000000e-01 
 9.90000000e-01  4.56693480e-01  3.59664780e-09  4.56693480e-01  3.46674947e-09  3.27211047e-09  4.56693480e-01  3.43978002e-09  1.55080049e-07  5.31413633e-08  9.90000000e-01 
 1.00000000e+00  4.56693469e-01  3.59664780e-09  4.56693469e-01  3.46674953e-09  3.27211052e-09  4.56693469e-01  3.43977996e-09  1.55080036e-07  5.31412354e-08  1.00000000e+00 
 1.01000000e+00  4.56693466e-01  3.59664779e-09  4.56693466e-01  3.46674946e-09  3.27211052e-09  4.56693466e-01  3.43977996e-09  1.55080027e-07  5.31411928e-08  1.01000000e+00 
 1.02000000e+00  4.56693485e-01  3.59664780e-09  4.56693485e-01  3.46674948e-09  3.27211047e-09  4.56693485e-01  3.43978002e-09  1.55080059e-07  5.31411786e-08  1.02000000e+00 
 1.03000000e+00  4.56693502e-01  3.59664780e-09  4.56693502e-01  3.46674947e-09  3.27211047e-09  4.56693502e-01  3.43978002e-09  1.55080083e-07  5.31410862e-08  1.03000000e+00 
 1.04000000e+00  4.56693496e-01  3.59664786e-09  4.56693496e-01  3.46674953e-09  3.27211053e-09  4.56693496e-01  3.43977996e-09  1.55080066e-07  5.31410151e-08  1.04000000e+00 
 1.05000000e+00  4.56693472e-01  3.59664784e-09  4.56693472e-01  3.46674952e-09  3.27211047e-09  4.56693472e-01  3.43978002e-09  1.55080027e-07  5.31408801e-08  1.05000000e+00 
 1.06000000e+00  4.56693462e-01  3.59664779e-09  4.56693462e-01  3.46674946e-09  3.27211052e-09  4.56693462e-01  3.43978002e-09  1.55080024e-07  5.31408730e-08  1.06000000e+00 
 1.07000000e+00  4.56693474e-01  3.59664780e-09  4.56693474e-01  3.46674948e-09  3.27211047e-09  4.56693474e-01  3.43977996e-09  1.55080046e-07  5.31408091e-08  1.07000000e+00 
 1.08000000e+00  4.56693490e-01  3.59664780e-09  4.56693490e-01  3.46674953e-09  3.27211053e-09  4.56693490e-01  3.43978002e-09  1.55080072e-07  5.31407096e-08  1.08000000e+00 
 1.09000000e+00  4.56693487e-01  3.59664780e-09  4.56693487e-01  3.46674946e-09  3.27211053e-09  4.56693487e-01  3.43977996e-09  1.55080058e-07  5.31407451e-08  1.09000000e+00 
 1.10000000e+00  4.56693481e-01  3.59664780e-09  4.56693481e-01  3.46674953e-09  3.27211053e-09  4.56693481e-01  3.43977996e-09  1.55080050e-07  5.31406386e-08  1.10000000e+00 
