 v-sweep         v(b0)           v(b1)           v(b2)           v(b3)           v(b4)           v(b5)           v(b6)           i(vbias)        i(viout)        v(vout)        
 0.00000000e+00  4.58821110e-01  3.35346106e-09  3.12585583e-09  4.58821110e-01  4.58821110e-01  3.45431927e-09  4.58821110e-01  1.62379270e-07  1.33302547e-07  0.00000000e+00 
 1.00000000e-02  4.58821129e-01  3.35346104e-09  3.12585586e-09  4.58821129e-01  4.58821129e-01  3.45431925e-09  4.58821129e-01  1.62379301e-07  1.33302125e-07  1.00000000e-02 
 2.00000000e-02  4.58821083e-01  3.35346104e-09  3.12585584e-09  4.58821083e-01  4.58821083e-01  3.45431924e-09  4.58821083e-01  1.62379231e-07  1.33301558e-07  2.00000000e-02 
 3.00000000e-02  4.58821123e-01  3.35346104e-09  3.12585586e-09  4.58821123e-01  4.58821123e-01  3.45431925e-09  4.58821123e-01  1.62379285e-07  1.33301266e-07  3.00000000e-02 
 4.00000000e-02  4.58821113e-01  3.35346104e-09  3.12585585e-09  4.58821113e-01  4.58821113e-01  3.45431930e-09  4.58821113e-01  1.62379276e-07  1.33300854e-07  4.00000000e-02 
 5.00000000e-02  4.58821118e-01  3.35346104e-09  3.12585586e-09  4.58821118e-01  4.58821118e-01  3.45431929e-09  4.58821118e-01  1.62379281e-07  1.33300530e-07  5.00000000e-02 
 6.00000000e-02  4.58821095e-01  3.35346104e-09  3.12585585e-09  4.58821095e-01  4.58821095e-01  3.45431925e-09  4.58821095e-01  1.62379265e-07  1.33300063e-07  6.00000000e-02 
 7.00000000e-02  4.58821125e-01  3.35346104e-09  3.12585586e-09  4.58821125e-01  4.58821125e-01  3.45431925e-09  4.58821125e-01  1.62379279e-07  1.33299877e-07  7.00000000e-02 
 8.00000000e-02  4.58821115e-01  3.35346104e-09  3.12585585e-09  4.58821115e-01  4.58821115e-01  3.45431930e-09  4.58821115e-01  1.62379280e-07  1.33299428e-07  8.00000000e-02 
 9.00000000e-02  4.58821091e-01  3.35346104e-09  3.12585586e-09  4.58821091e-01  4.58821091e-01  3.45431929e-09  4.58821091e-01  1.62379248e-07  1.33299059e-07  9.00000000e-02 
 1.00000000e-01  4.58821112e-01  3.35346104e-09  3.12585585e-09  4.58821112e-01  4.58821112e-01  3.45431925e-09  4.58821112e-01  1.62379270e-07  1.33298907e-07  1.00000000e-01 
 1.10000000e-01  4.58821120e-01  3.35346110e-09  3.12585586e-09  4.58821120e-01  4.58821121e-01  3.45431930e-09  4.58821121e-01  1.62379283e-07  1.33298617e-07  1.10000000e-01 
 1.20000000e-01  4.58821102e-01  3.35346110e-09  3.12585585e-09  4.58821102e-01  4.58821102e-01  3.45431929e-09  4.58821102e-01  1.62379253e-07  1.33298378e-07  1.20000000e-01 
 1.30000000e-01  4.58821081e-01  3.35346104e-09  3.12585581e-09  4.58821081e-01  4.58821081e-01  3.45431925e-09  4.58821081e-01  1.62379222e-07  1.33298013e-07  1.30000000e-01 
 1.40000000e-01  4.58821103e-01  3.35346110e-09  3.12585586e-09  4.58821103e-01  4.58821103e-01  3.45431930e-09  4.58821103e-01  1.62379258e-07  1.33297883e-07  1.40000000e-01 
 1.50000000e-01  4.58821091e-01  3.35346104e-09  3.12585585e-09  4.58821091e-01  4.58821091e-01  3.45431929e-09  4.58821091e-01  1.62379236e-07  1.33297611e-07  1.50000000e-01 
 1.60000000e-01  4.58821094e-01  3.35346104e-09  3.12585581e-09  4.58821094e-01  4.58821094e-01  3.45431925e-09  4.58821094e-01  1.62379243e-07  1.33297426e-07  1.60000000e-01 
 1.70000000e-01  4.58821118e-01  3.35346104e-09  3.12585580e-09  4.58821118e-01  4.58821118e-01  3.45431930e-09  4.58821118e-01  1.62379281e-07  1.33297304e-07  1.70000000e-01 
 1.80000000e-01  4.58821118e-01  3.35346104e-09  3.12585586e-09  4.58821118e-01  4.58821118e-01  3.45431929e-09  4.58821118e-01  1.62379289e-07  1.33297073e-07  1.80000000e-01 
 1.90000000e-01  4.58821093e-01  3.35346104e-09  3.12585585e-09  4.58821093e-01  4.58821093e-01  3.45431931e-09  4.58821093e-01  1.62379248e-07  1.33296741e-07  1.90000000e-01 
 2.00000000e-01  4.58821107e-01  3.35346104e-09  3.12585581e-09  4.58821107e-01  4.58821107e-01  3.45431929e-09  4.58821107e-01  1.62379269e-07  1.33296691e-07  2.00000000e-01 
 2.10000000e-01  4.58821110e-01  3.35346104e-09  3.12585586e-09  4.58821110e-01  4.58821110e-01  3.45431925e-09  4.58821110e-01  1.62379268e-07  1.33296421e-07  2.10000000e-01 
 2.20000000e-01  4.58821095e-01  3.35346104e-09  3.12585585e-09  4.58821095e-01  4.58821095e-01  3.45431930e-09  4.58821095e-01  1.62379246e-07  1.33296295e-07  2.20000000e-01 
 2.30000000e-01  4.58821098e-01  3.35346104e-09  3.12585581e-09  4.58821098e-01  4.58821098e-01  3.45431929e-09  4.58821098e-01  1.62379252e-07  1.33296027e-07  2.30000000e-01 
 2.40000000e-01  4.58821106e-01  3.35346104e-09  3.12585586e-09  4.58821106e-01  4.58821106e-01  3.45431925e-09  4.58821106e-01  1.62379261e-07  1.33295924e-07  2.40000000e-01 
 2.50000000e-01  4.58821099e-01  3.35346104e-09  3.12585585e-09  4.58821099e-01  4.58821099e-01  3.45431924e-09  4.58821099e-01  1.62379257e-07  1.33295694e-07  2.50000000e-01 
 2.60000000e-01  4.58821124e-01  3.35346104e-09  3.12585586e-09  4.58821124e-01  4.58821124e-01  3.45431930e-09  4.58821124e-01  1.62379290e-07  1.33295732e-07  2.60000000e-01 
 2.70000000e-01  4.58821104e-01  3.35346104e-09  3.12585585e-09  4.58821104e-01  4.58821104e-01  3.45431923e-09  4.58821104e-01  1.62379264e-07  1.33295444e-07  2.70000000e-01 
 2.80000000e-01  4.58821084e-01  3.35346104e-09  3.12585581e-09  4.58821084e-01  4.58821084e-01  3.45431925e-09  4.58821084e-01  1.62379229e-07  1.33295309e-07  2.80000000e-01 
 2.90000000e-01  4.58821098e-01  3.35346104e-09  3.12585586e-09  4.58821098e-01  4.58821098e-01  3.45431924e-09  4.58821098e-01  1.62379257e-07  1.33295170e-07  2.90000000e-01 
 3.00000000e-01  4.58821111e-01  3.35346104e-09  3.12585585e-09  4.58821111e-01  4.58821111e-01  3.45431925e-09  4.58821111e-01  1.62379267e-07  1.33295075e-07  3.00000000e-01 
 3.10000000e-01  4.58821136e-01  3.35346104e-09  3.12585581e-09  4.58821136e-01  4.58821136e-01  3.45431931e-09  4.58821136e-01  1.62379303e-07  1.33295103e-07  3.10000000e-01 
 3.20000000e-01  4.58821094e-01  3.35346104e-09  3.12585580e-09  4.58821094e-01  4.58821094e-01  3.45431923e-09  4.58821094e-01  1.62379259e-07  1.33294773e-07  3.20000000e-01 
 3.30000000e-01  4.58821100e-01  3.35346104e-09  3.12585580e-09  4.58821100e-01  4.58821100e-01  3.45431931e-09  4.58821100e-01  1.62379260e-07  1.33294748e-07  3.30000000e-01 
 3.40000000e-01  4.58821123e-01  3.35346104e-09  3.12585586e-09  4.58821123e-01  4.58821123e-01  3.45431923e-09  4.58821123e-01  1.62379288e-07  1.33294645e-07  3.40000000e-01 
 3.50000000e-01  4.58821098e-01  3.35346104e-09  3.12585585e-09  4.58821098e-01  4.58821098e-01  3.45431931e-09  4.58821098e-01  1.62379264e-07  1.33294485e-07  3.50000000e-01 
 3.60000000e-01  4.58821078e-01  3.35346109e-09  3.12585581e-09  4.58821078e-01  4.58821078e-01  3.45431923e-09  4.58821078e-01  1.62379205e-07  1.33294165e-07  3.60000000e-01 
 3.70000000e-01  4.58821113e-01  3.35346104e-09  3.12585586e-09  4.58821113e-01  4.58821113e-01  3.45431925e-09  4.58821113e-01  1.62379282e-07  1.33294236e-07  3.70000000e-01 
 3.80000000e-01  4.58821084e-01  3.35346104e-09  3.12585584e-09  4.58821084e-01  4.58821084e-01  3.45431924e-09  4.58821084e-01  1.62379236e-07  1.33293891e-07  3.80000000e-01 
 3.90000000e-01  4.58821101e-01  3.35346104e-09  3.12585586e-09  4.58821101e-01  4.58821101e-01  3.45431924e-09  4.58821101e-01  1.62379261e-07  1.33293963e-07  3.90000000e-01 
 4.00000000e-01  4.58821084e-01  3.35346104e-09  3.12585584e-09  4.58821084e-01  4.58821084e-01  3.45431924e-09  4.58821084e-01  1.62379243e-07  1.33293831e-07  4.00000000e-01 
 4.10000000e-01  4.58821112e-01  3.35346104e-09  3.12585586e-09  4.58821112e-01  4.58821112e-01  3.45431925e-09  4.58821112e-01  1.62379275e-07  1.33293856e-07  4.10000000e-01 
 4.20000000e-01  4.58821093e-01  3.35346104e-09  3.12585585e-09  4.58821093e-01  4.58821093e-01  3.45431930e-09  4.58821093e-01  1.62379242e-07  1.33293643e-07  4.20000000e-01 
 4.30000000e-01  4.58821116e-01  3.35346104e-09  3.12585586e-09  4.58821116e-01  4.58821116e-01  3.45431929e-09  4.58821116e-01  1.62379282e-07  1.33293561e-07  4.30000000e-01 
 4.40000000e-01  4.58821102e-01  3.35346104e-09  3.12585585e-09  4.58821102e-01  4.58821102e-01  3.45431925e-09  4.58821102e-01  1.62379261e-07  1.33293582e-07  4.40000000e-01 
 4.50000000e-01  4.58821081e-01  3.35346104e-09  3.12585581e-09  4.58821081e-01  4.58821081e-01  3.45431930e-09  4.58821081e-01  1.62379228e-07  1.33293330e-07  4.50000000e-01 
 4.60000000e-01  4.58821096e-01  3.35346104e-09  3.12585580e-09  4.58821096e-01  4.58821096e-01  3.45431929e-09  4.58821096e-01  1.62379247e-07  1.33293295e-07  4.60000000e-01 
 4.70000000e-01  4.58821096e-01  3.35346104e-09  3.12585586e-09  4.58821096e-01  4.58821096e-01  3.45431931e-09  4.58821096e-01  1.62379248e-07  1.33293121e-07  4.70000000e-01 
 4.80000000e-01  4.58821072e-01  3.35346104e-09  3.12585584e-09  4.58821072e-01  4.58821072e-01  3.45431923e-09  4.58821072e-01  1.62379210e-07  1.33293003e-07  4.80000000e-01 
 4.90000000e-01  4.58821090e-01  3.35346104e-09  3.12585581e-09  4.58821090e-01  4.58821090e-01  3.45431925e-09  4.58821090e-01  1.62379245e-07  1.33293039e-07  4.90000000e-01 
 5.00000000e-01  4.58821093e-01  3.35346104e-09  3.12585586e-09  4.58821093e-01  4.58821093e-01  3.45431930e-09  4.58821093e-01  1.62379240e-07  1.33292868e-07  5.00000000e-01 
 5.10000000e-01  4.58821079e-01  3.35346104e-09  3.12585584e-09  4.58821079e-01  4.58821079e-01  3.45431929e-09  4.58821079e-01  1.62379221e-07  1.33292808e-07  5.10000000e-01 
 5.20000000e-01  4.58821100e-01  3.35346104e-09  3.12585586e-09  4.58821100e-01  4.58821100e-01  3.45431925e-09  4.58821100e-01  1.62379259e-07  1.33292772e-07  5.20000000e-01 
 5.30000000e-01  4.58821098e-01  3.35346104e-09  3.12585585e-09  4.58821098e-01  4.58821098e-01  3.45431930e-09  4.58821098e-01  1.62379268e-07  1.33292581e-07  5.30000000e-01 
 5.40000000e-01  4.58821087e-01  3.35346104e-09  3.12585586e-09  4.58821087e-01  4.58821087e-01  3.45431929e-09  4.58821087e-01  1.62379229e-07  1.33292428e-07  5.40000000e-01 
 5.50000000e-01  4.58821115e-01  3.35346104e-09  3.12585585e-09  4.58821115e-01  4.58821115e-01  3.45431931e-09  4.58821115e-01  1.62379282e-07  1.33292460e-07  5.50000000e-01 
 5.60000000e-01  4.58821106e-01  3.35346104e-09  3.12585586e-09  4.58821106e-01  4.58821106e-01  3.45431929e-09  4.58821106e-01  1.62379273e-07  1.33292406e-07  5.60000000e-01 
 5.70000000e-01  4.58821085e-01  3.35346104e-09  3.12585584e-09  4.58821085e-01  4.58821086e-01  3.45431925e-09  4.58821086e-01  1.62379238e-07  1.33292247e-07  5.70000000e-01 
 5.80000000e-01  4.58821108e-01  3.35346104e-09  3.12585586e-09  4.58821108e-01  4.58821108e-01  3.45431925e-09  4.58821108e-01  1.62379254e-07  1.33292232e-07  5.80000000e-01 
 5.90000000e-01  4.58821094e-01  3.35346104e-09  3.12585585e-09  4.58821094e-01  4.58821094e-01  3.45431924e-09  4.58821094e-01  1.62379250e-07  1.33292033e-07  5.90000000e-01 
 6.00000000e-01  4.58821097e-01  3.35346104e-09  3.12585586e-09  4.58821097e-01  4.58821097e-01  3.45431930e-09  4.58821097e-01  1.62379245e-07  1.33291906e-07  6.00000000e-01 
 6.10000000e-01  4.58821079e-01  3.35346104e-09  3.12585584e-09  4.58821079e-01  4.58821079e-01  3.45431923e-09  4.58821079e-01  1.62379221e-07  1.33291856e-07  6.10000000e-01 
 6.20000000e-01  4.58821110e-01  3.35346104e-09  3.12585586e-09  4.58821109e-01  4.58821110e-01  3.45431931e-09  4.58821110e-01  1.62379278e-07  1.33291941e-07  6.20000000e-01 
 6.30000000e-01  4.58821101e-01  3.35346104e-09  3.12585585e-09  4.58821101e-01  4.58821101e-01  3.45431929e-09  4.58821101e-01  1.62379243e-07  1.33291607e-07  6.30000000e-01 
 6.40000000e-01  4.58821090e-01  3.35346104e-09  3.12585586e-09  4.58821090e-01  4.58821090e-01  3.45431925e-09  4.58821090e-01  1.62379250e-07  1.33291579e-07  6.40000000e-01 
 6.50000000e-01  4.58821084e-01  3.35346109e-09  3.12585584e-09  4.58821084e-01  4.58821084e-01  3.45431930e-09  4.58821084e-01  1.62379237e-07  1.33291422e-07  6.50000000e-01 
 6.60000000e-01  4.58821105e-01  3.35346104e-09  3.12585586e-09  4.58821105e-01  4.58821105e-01  3.45431929e-09  4.58821105e-01  1.62379262e-07  1.33291472e-07  6.60000000e-01 
 6.70000000e-01  4.58821124e-01  3.35346104e-09  3.12585585e-09  4.58821124e-01  4.58821124e-01  3.45431925e-09  4.58821124e-01  1.62379292e-07  1.33291472e-07  6.70000000e-01 
 6.80000000e-01  4.58821100e-01  3.35346104e-09  3.12585586e-09  4.58821100e-01  4.58821100e-01  3.45431924e-09  4.58821100e-01  1.62379267e-07  1.33291330e-07  6.80000000e-01 
 6.90000000e-01  4.58821111e-01  3.35346104e-09  3.12585585e-09  4.58821110e-01  4.58821111e-01  3.45431925e-09  4.58821111e-01  1.62379263e-07  1.33291181e-07  6.90000000e-01 
 7.00000000e-01  4.58821104e-01  3.35346104e-09  3.12585586e-09  4.58821104e-01  4.58821104e-01  3.45431924e-09  4.58821104e-01  1.62379263e-07  1.33291067e-07  7.00000000e-01 
 7.10000000e-01  4.58821089e-01  3.35346104e-09  3.12585585e-09  4.58821089e-01  4.58821089e-01  3.45431924e-09  4.58821089e-01  1.62379237e-07  1.33290861e-07  7.10000000e-01 
 7.20000000e-01  4.58821119e-01  3.35346104e-09  3.12585586e-09  4.58821119e-01  4.58821119e-01  3.45431925e-09  4.58821119e-01  1.62379275e-07  1.33290882e-07  7.20000000e-01 
 7.30000000e-01  4.58821115e-01  3.35346104e-09  3.12585585e-09  4.58821115e-01  4.58821115e-01  3.45431930e-09  4.58821115e-01  1.62379282e-07  1.33290705e-07  7.30000000e-01 
 7.40000000e-01  4.58821124e-01  3.35346104e-09  3.12585586e-09  4.58821124e-01  4.58821124e-01  3.45431929e-09  4.58821124e-01  1.62379306e-07  1.33290783e-07  7.40000000e-01 
 7.50000000e-01  4.58821092e-01  3.35346104e-09  3.12585585e-09  4.58821092e-01  4.58821092e-01  3.45431925e-09  4.58821092e-01  1.62379253e-07  1.33290619e-07  7.50000000e-01 
 7.60000000e-01  4.58821090e-01  3.35346104e-09  3.12585586e-09  4.58821089e-01  4.58821090e-01  3.45431930e-09  4.58821090e-01  1.62379241e-07  1.33290520e-07  7.60000000e-01 
 7.70000000e-01  4.58821076e-01  3.35346104e-09  3.12585584e-09  4.58821076e-01  4.58821076e-01  3.45431923e-09  4.58821076e-01  1.62379219e-07  1.33290349e-07  7.70000000e-01 
 7.80000000e-01  4.58821099e-01  3.35346104e-09  3.12585586e-09  4.58821099e-01  4.58821099e-01  3.45431931e-09  4.58821099e-01  1.62379251e-07  1.33290456e-07  7.80000000e-01 
 7.90000000e-01  4.58821100e-01  3.35346104e-09  3.12585585e-09  4.58821100e-01  4.58821100e-01  3.45431923e-09  4.58821100e-01  1.62379262e-07  1.33290229e-07  7.90000000e-01 
 8.00000000e-01  4.58821083e-01  3.35346104e-09  3.12585586e-09  4.58821083e-01  4.58821083e-01  3.45431925e-09  4.58821083e-01  1.62379241e-07  1.33290008e-07  8.00000000e-01 
 8.10000000e-01  4.58821097e-01  3.35346104e-09  3.12585585e-09  4.58821097e-01  4.58821097e-01  3.45431924e-09  4.58821097e-01  1.62379252e-07  1.33290037e-07  8.10000000e-01 
 8.20000000e-01  4.58821092e-01  3.35346104e-09  3.12585581e-09  4.58821092e-01  4.58821093e-01  3.45431924e-09  4.58821093e-01  1.62379232e-07  1.33289944e-07  8.20000000e-01 
 8.30000000e-01  4.58821094e-01  3.35346104e-09  3.12585586e-09  4.58821094e-01  4.58821094e-01  3.45431930e-09  4.58821094e-01  1.62379243e-07  1.33289880e-07  8.30000000e-01 
 8.40000000e-01  4.58821086e-01  3.35346104e-09  3.12585584e-09  4.58821086e-01  4.58821086e-01  3.45431929e-09  4.58821086e-01  1.62379232e-07  1.33289774e-07  8.40000000e-01 
 8.50000000e-01  4.58821098e-01  3.35346110e-09  3.12585586e-09  4.58821098e-01  4.58821098e-01  3.45431925e-09  4.58821098e-01  1.62379246e-07  1.33289660e-07  8.50000000e-01 
 8.60000000e-01  4.58821098e-01  3.35346104e-09  3.12585585e-09  4.58821098e-01  4.58821098e-01  3.45431930e-09  4.58821098e-01  1.62379253e-07  1.33289632e-07  8.60000000e-01 
 8.70000000e-01  4.58821086e-01  3.35346104e-09  3.12585586e-09  4.58821086e-01  4.58821086e-01  3.45431923e-09  4.58821086e-01  1.62379249e-07  1.33289390e-07  8.70000000e-01 
 8.80000000e-01  4.58821112e-01  3.35346104e-09  3.12585585e-09  4.58821112e-01  4.58821112e-01  3.45431925e-09  4.58821112e-01  1.62379268e-07  1.33289454e-07  8.80000000e-01 
 8.90000000e-01  4.58821073e-01  3.35346104e-09  3.12585586e-09  4.58821073e-01  4.58821073e-01  3.45431930e-09  4.58821073e-01  1.62379213e-07  1.33289149e-07  8.90000000e-01 
 9.00000000e-01  4.58821102e-01  3.35346104e-09  3.12585585e-09  4.58821102e-01  4.58821102e-01  3.45431924e-09  4.58821102e-01  1.62379270e-07  1.33289241e-07  9.00000000e-01 
 9.10000000e-01  4.58821103e-01  3.35346104e-09  3.12585586e-09  4.58821103e-01  4.58821103e-01  3.45431924e-09  4.58821103e-01  1.62379260e-07  1.33289042e-07  9.10000000e-01 
 9.20000000e-01  4.58821139e-01  3.35346104e-09  3.12585590e-09  4.58821139e-01  4.58821139e-01  3.45431931e-09  4.58821139e-01  1.62379317e-07  1.33289099e-07  9.20000000e-01 
 9.30000000e-01  4.58821119e-01  3.35346104e-09  3.12585585e-09  4.58821119e-01  4.58821119e-01  3.45431923e-09  4.58821119e-01  1.62379274e-07  1.33289021e-07  9.30000000e-01 
 9.40000000e-01  4.58821099e-01  3.35346110e-09  3.12585579e-09  4.58821099e-01  4.58821099e-01  3.45431931e-09  4.58821099e-01  1.62379254e-07  1.33288914e-07  9.40000000e-01 
 9.50000000e-01  4.58821098e-01  3.35346104e-09  3.12585586e-09  4.58821098e-01  4.58821098e-01  3.45431929e-09  4.58821098e-01  1.62379245e-07  1.33288736e-07  9.50000000e-01 
 9.60000000e-01  4.58821088e-01  3.35346104e-09  3.12585585e-09  4.58821088e-01  4.58821088e-01  3.45431931e-09  4.58821088e-01  1.62379230e-07  1.33288658e-07  9.60000000e-01 
 9.70000000e-01  4.58821094e-01  3.35346104e-09  3.12585586e-09  4.58821094e-01  4.58821094e-01  3.45431923e-09  4.58821094e-01  1.62379246e-07  1.33288559e-07  9.70000000e-01 
 9.80000000e-01  4.58821065e-01  3.35346104e-09  3.12585584e-09  4.58821065e-01  4.58821065e-01  3.45431925e-09  4.58821065e-01  1.62379200e-07  1.33288388e-07  9.80000000e-01 
 9.90000000e-01  4.58821115e-01  3.35346104e-09  3.12585581e-09  4.58821115e-01  4.58821115e-01  3.45431925e-09  4.58821115e-01  1.62379280e-07  1.33288268e-07  9.90000000e-01 
 1.00000000e+00  4.58821098e-01  3.35346104e-09  3.12585586e-09  4.58821098e-01  4.58821099e-01  3.45431924e-09  4.58821099e-01  1.62379258e-07  1.33288204e-07  1.00000000e+00 
 1.01000000e+00  4.58821093e-01  3.35346104e-09  3.12585585e-09  4.58821093e-01  4.58821093e-01  3.45431930e-09  4.58821093e-01  1.62379234e-07  1.33288061e-07  1.01000000e+00 
 1.02000000e+00  4.58821101e-01  3.35346110e-09  3.12585581e-09  4.58821101e-01  4.58821101e-01  3.45431929e-09  4.58821101e-01  1.62379251e-07  1.33288026e-07  1.02000000e+00 
 1.03000000e+00  4.58821107e-01  3.35346104e-09  3.12585586e-09  4.58821107e-01  4.58821107e-01  3.45431931e-09  4.58821107e-01  1.62379267e-07  1.33287870e-07  1.03000000e+00 
 1.04000000e+00  4.58821116e-01  3.35346104e-09  3.12585585e-09  4.58821116e-01  4.58821116e-01  3.45431929e-09  4.58821116e-01  1.62379285e-07  1.33287841e-07  1.04000000e+00 
 1.05000000e+00  4.58821097e-01  3.35346104e-09  3.12585586e-09  4.58821097e-01  4.58821097e-01  3.45431931e-09  4.58821097e-01  1.62379241e-07  1.33287564e-07  1.05000000e+00 
 1.06000000e+00  4.58821089e-01  3.35346104e-09  3.12585585e-09  4.58821089e-01  4.58821089e-01  3.45431923e-09  4.58821089e-01  1.62379238e-07  1.33287507e-07  1.06000000e+00 
 1.07000000e+00  4.58821095e-01  3.35346104e-09  3.12585586e-09  4.58821095e-01  4.58821095e-01  3.45431931e-09  4.58821095e-01  1.62379255e-07  1.33287372e-07  1.07000000e+00 
 1.08000000e+00  4.58821110e-01  3.35346104e-09  3.12585585e-09  4.58821110e-01  4.58821110e-01  3.45431929e-09  4.58821110e-01  1.62379271e-07  1.33287301e-07  1.08000000e+00 
 1.09000000e+00  4.58821123e-01  3.35346104e-09  3.12585586e-09  4.58821123e-01  4.58821123e-01  3.45431925e-09  4.58821123e-01  1.62379292e-07  1.33287280e-07  1.09000000e+00 
 1.10000000e+00  4.58821101e-01  3.35346104e-09  3.12585585e-09  4.58821101e-01  4.58821101e-01  3.45431924e-09  4.58821101e-01  1.62379265e-07  1.33287088e-07  1.10000000e+00 
