 v-sweep         v(b0)           v(b1)           v(b2)           v(b3)           v(b4)           v(b5)           v(b6)           i(vbias)        i(viout)        v(vout)        
 0.00000000e+00  3.21527858e-09  3.13393327e-09  3.33832461e-09  3.21041974e-09  3.53292100e-09  4.57583278e-01  3.04753160e-09  1.58715488e-07  4.60846847e-08  0.00000000e+00 
 1.00000000e-02  3.21527861e-09  3.13393330e-09  3.33832465e-09  3.21041977e-09  3.53292103e-09  4.57583272e-01  3.04753158e-09  1.58715474e-07  4.60842252e-08  1.00000000e-02 
 2.00000000e-02  3.21527855e-09  3.13393330e-09  3.33832463e-09  3.21041970e-09  3.53292097e-09  4.57583277e-01  3.04753158e-09  1.58715495e-07  4.60838898e-08  2.00000000e-02 
 3.00000000e-02  3.21527861e-09  3.13393330e-09  3.33832464e-09  3.21041978e-09  3.53292103e-09  4.57583273e-01  3.04753164e-09  1.58715470e-07  4.60834493e-08  3.00000000e-02 
 4.00000000e-02  3.21527860e-09  3.13393330e-09  3.33832464e-09  3.21041976e-09  3.53292102e-09  4.57583260e-01  3.04753163e-09  1.58715468e-07  4.60831004e-08  4.00000000e-02 
 5.00000000e-02  3.21527855e-09  3.13393330e-09  3.33832464e-09  3.21041971e-09  3.53292103e-09  4.57583297e-01  3.04753164e-09  1.58715515e-07  4.60829086e-08  5.00000000e-02 
 6.00000000e-02  3.21527861e-09  3.13393324e-09  3.33832464e-09  3.21041972e-09  3.53292097e-09  4.57583287e-01  3.04753164e-09  1.58715506e-07  4.60825071e-08  6.00000000e-02 
 7.00000000e-02  3.21527855e-09  3.13393324e-09  3.33832464e-09  3.21041977e-09  3.53292102e-09  4.57583266e-01  3.04753158e-09  1.58715472e-07  4.60821936e-08  7.00000000e-02 
 8.00000000e-02  3.21527855e-09  3.13393324e-09  3.33832464e-09  3.21041970e-09  3.53292103e-09  4.57583276e-01  3.04753164e-09  1.58715482e-07  4.60818601e-08  8.00000000e-02 
 9.00000000e-02  3.21527855e-09  3.13393324e-09  3.33832464e-09  3.21041972e-09  3.53292103e-09  4.57583302e-01  3.04753164e-09  1.58715538e-07  4.60816620e-08  9.00000000e-02 
 1.00000000e-01  3.21527861e-09  3.13393330e-09  3.33832464e-09  3.21041977e-09  3.53292103e-09  4.57583289e-01  3.04753164e-09  1.58715515e-07  4.60813689e-08  1.00000000e-01 
 1.10000000e-01  3.21527861e-09  3.13393330e-09  3.33832464e-09  3.21041970e-09  3.53292097e-09  4.57583272e-01  3.04753164e-09  1.58715480e-07  4.60811513e-08  1.10000000e-01 
 1.20000000e-01  3.21527861e-09  3.13393330e-09  3.33832464e-09  3.21041972e-09  3.53292102e-09  4.57583270e-01  3.04753158e-09  1.58715488e-07  4.60808662e-08  1.20000000e-01 
 1.30000000e-01  3.21527861e-09  3.13393324e-09  3.33832464e-09  3.21041977e-09  3.53292103e-09  4.57583290e-01  3.04753164e-09  1.58715497e-07  4.60807517e-08  1.30000000e-01 
 1.40000000e-01  3.21527855e-09  3.13393324e-09  3.33832464e-09  3.21041970e-09  3.53292097e-09  4.57583293e-01  3.04753158e-09  1.58715514e-07  4.60804763e-08  1.40000000e-01 
 1.50000000e-01  3.21527855e-09  3.13393330e-09  3.33832464e-09  3.21041972e-09  3.53292097e-09  4.57583270e-01  3.04753163e-09  1.58715475e-07  4.60801814e-08  1.50000000e-01 
 1.60000000e-01  3.21527855e-09  3.13393330e-09  3.33832464e-09  3.21041971e-09  3.53292103e-09  4.57583272e-01  3.04753164e-09  1.58715486e-07  4.60801388e-08  1.60000000e-01 
 1.70000000e-01  3.21527861e-09  3.13393330e-09  3.33832464e-09  3.21041971e-09  3.53292097e-09  4.57583280e-01  3.04753164e-09  1.58715498e-07  4.60799399e-08  1.70000000e-01 
 1.80000000e-01  3.21527855e-09  3.13393324e-09  3.33832464e-09  3.21041971e-09  3.53292103e-09  4.57583290e-01  3.04753158e-09  1.58715499e-07  4.60796628e-08  1.80000000e-01 
 1.90000000e-01  3.21527855e-09  3.13393330e-09  3.33832464e-09  3.21041971e-09  3.53292097e-09  4.57583282e-01  3.04753158e-09  1.58715499e-07  4.60795331e-08  1.90000000e-01 
 2.00000000e-01  3.21527861e-09  3.13393330e-09  3.33832464e-09  3.21041977e-09  3.53292103e-09  4.57583285e-01  3.04753164e-09  1.58715497e-07  4.60793057e-08  2.00000000e-01 
 2.10000000e-01  3.21527861e-09  3.13393324e-09  3.33832464e-09  3.21041970e-09  3.53292102e-09  4.57583269e-01  3.04753163e-09  1.58715474e-07  4.60791281e-08  2.10000000e-01 
 2.20000000e-01  3.21527861e-09  3.13393330e-09  3.33832464e-09  3.21041972e-09  3.53292103e-09  4.57583305e-01  3.04753164e-09  1.58715528e-07  4.60790996e-08  2.20000000e-01 
 2.30000000e-01  3.21527861e-09  3.13393330e-09  3.33832464e-09  3.21041971e-09  3.53292097e-09  4.57583289e-01  3.04753164e-09  1.58715505e-07  4.60789611e-08  2.30000000e-01 
 2.40000000e-01  3.21527855e-09  3.13393330e-09  3.33832464e-09  3.21041971e-09  3.53292097e-09  4.57583291e-01  3.04753164e-09  1.58715501e-07  4.60788083e-08  2.40000000e-01 
 2.50000000e-01  3.21527855e-09  3.13393324e-09  3.33832464e-09  3.21041971e-09  3.53292102e-09  4.57583266e-01  3.04753163e-09  1.58715467e-07  4.60786556e-08  2.50000000e-01 
 2.60000000e-01  3.21527861e-09  3.13393330e-09  3.33832464e-09  3.21041977e-09  3.53292097e-09  4.57583275e-01  3.04753164e-09  1.58715496e-07  4.60786111e-08  2.60000000e-01 
 2.70000000e-01  3.21527861e-09  3.13393330e-09  3.33832464e-09  3.21041970e-09  3.53292103e-09  4.57583280e-01  3.04753164e-09  1.58715499e-07  4.60784388e-08  2.70000000e-01 
 2.80000000e-01  3.21527861e-09  3.13393324e-09  3.33832464e-09  3.21041972e-09  3.53292103e-09  4.57583277e-01  3.04753164e-09  1.58715486e-07  4.60782257e-08  2.80000000e-01 
 2.90000000e-01  3.21527861e-09  3.13393330e-09  3.33832464e-09  3.21041971e-09  3.53292102e-09  4.57583271e-01  3.04753163e-09  1.58715478e-07  4.60780889e-08  2.90000000e-01 
 3.00000000e-01  3.21527861e-09  3.13393330e-09  3.33832464e-09  3.21041971e-09  3.53292103e-09  4.57583290e-01  3.04753164e-09  1.58715509e-07  4.60780534e-08  3.00000000e-01 
 3.10000000e-01  3.21527855e-09  3.13393330e-09  3.33832464e-09  3.21041971e-09  3.53292103e-09  4.57583274e-01  3.04753158e-09  1.58715492e-07  4.60778935e-08  3.10000000e-01 
 3.20000000e-01  3.21527861e-09  3.13393324e-09  3.33832464e-09  3.21041971e-09  3.53292103e-09  4.57583287e-01  3.04753164e-09  1.58715501e-07  4.60778402e-08  3.20000000e-01 
 3.30000000e-01  3.21527861e-09  3.13393324e-09  3.33832464e-09  3.21041971e-09  3.53292097e-09  4.57583291e-01  3.04753158e-09  1.58715503e-07  4.60777940e-08  3.30000000e-01 
 3.40000000e-01  3.21527861e-09  3.13393330e-09  3.33832464e-09  3.21041971e-09  3.53292097e-09  4.57583270e-01  3.04753163e-09  1.58715477e-07  4.60776697e-08  3.40000000e-01 
 3.50000000e-01  3.21527861e-09  3.13393330e-09  3.33832470e-09  3.21041977e-09  3.53292097e-09  4.57583273e-01  3.04753164e-09  1.58715488e-07  4.60775702e-08  3.50000000e-01 
 3.60000000e-01  3.21527855e-09  3.13393330e-09  3.33832464e-09  3.21041976e-09  3.53292102e-09  4.57583256e-01  3.04753163e-09  1.58715465e-07  4.60775063e-08  3.60000000e-01 
 3.70000000e-01  3.21527855e-09  3.13393324e-09  3.33832464e-09  3.21041976e-09  3.53292103e-09  4.57583291e-01  3.04753164e-09  1.58715511e-07  4.60774423e-08  3.70000000e-01 
 3.80000000e-01  3.21527855e-09  3.13393330e-09  3.33832464e-09  3.21041976e-09  3.53292097e-09  4.57583268e-01  3.04753163e-09  1.58715464e-07  4.60773499e-08  3.80000000e-01 
 3.90000000e-01  3.21527855e-09  3.13393330e-09  3.33832464e-09  3.21041976e-09  3.53292103e-09  4.57583283e-01  3.04753164e-09  1.58715499e-07  4.60773002e-08  3.90000000e-01 
 4.00000000e-01  3.21527855e-09  3.13393330e-09  3.33832464e-09  3.21041976e-09  3.53292102e-09  4.57583257e-01  3.04753163e-09  1.58715458e-07  4.60771545e-08  4.00000000e-01 
 4.10000000e-01  3.21527855e-09  3.13393324e-09  3.33832464e-09  3.21041976e-09  3.53292097e-09  4.57583276e-01  3.04753164e-09  1.58715486e-07  4.60771616e-08  4.10000000e-01 
 4.20000000e-01  3.21527855e-09  3.13393324e-09  3.33832470e-09  3.21041971e-09  3.53292103e-09  4.57583298e-01  3.04753164e-09  1.58715526e-07  4.60770266e-08  4.20000000e-01 
 4.30000000e-01  3.21527855e-09  3.13393330e-09  3.33832464e-09  3.21041972e-09  3.53292103e-09  4.57583289e-01  3.04753164e-09  1.58715512e-07  4.60770124e-08  4.30000000e-01 
 4.40000000e-01  3.21527855e-09  3.13393330e-09  3.33832464e-09  3.21041971e-09  3.53292097e-09  4.57583283e-01  3.04753164e-09  1.58715508e-07  4.60769201e-08  4.40000000e-01 
 4.50000000e-01  3.21527861e-09  3.13393324e-09  3.33832464e-09  3.21041977e-09  3.53292103e-09  4.57583288e-01  3.04753164e-09  1.58715501e-07  4.60768348e-08  4.50000000e-01 
 4.60000000e-01  3.21527861e-09  3.13393330e-09  3.33832464e-09  3.21041976e-09  3.53292103e-09  4.57583295e-01  3.04753164e-09  1.58715527e-07  4.60767460e-08  4.60000000e-01 
 4.70000000e-01  3.21527855e-09  3.13393330e-09  3.33832464e-09  3.21041977e-09  3.53292103e-09  4.57583302e-01  3.04753164e-09  1.58715530e-07  4.60766465e-08  4.70000000e-01 
 4.80000000e-01  3.21527855e-09  3.13393330e-09  3.33832470e-09  3.21041971e-09  3.53292103e-09  4.57583288e-01  3.04753164e-09  1.58715511e-07  4.60766181e-08  4.80000000e-01 
 4.90000000e-01  3.21527861e-09  3.13393330e-09  3.33832464e-09  3.21041972e-09  3.53292103e-09  4.57583280e-01  3.04753164e-09  1.58715500e-07  4.60765683e-08  4.90000000e-01 
 5.00000000e-01  3.21527861e-09  3.13393324e-09  3.33832470e-09  3.21041971e-09  3.53292103e-09  4.57583273e-01  3.04753164e-09  1.58715485e-07  4.60764795e-08  5.00000000e-01 
 5.10000000e-01  3.21527855e-09  3.13393330e-09  3.33832464e-09  3.21041977e-09  3.53292103e-09  4.57583299e-01  3.04753158e-09  1.58715525e-07  4.60764120e-08  5.10000000e-01 
 5.20000000e-01  3.21527861e-09  3.13393324e-09  3.33832464e-09  3.21041976e-09  3.53292103e-09  4.57583286e-01  3.04753164e-09  1.58715507e-07  4.60763729e-08  5.20000000e-01 
 5.30000000e-01  3.21527855e-09  3.13393324e-09  3.33832464e-09  3.21041976e-09  3.53292097e-09  4.57583277e-01  3.04753164e-09  1.58715487e-07  4.60762841e-08  5.30000000e-01 
 5.40000000e-01  3.21527855e-09  3.13393324e-09  3.33832464e-09  3.21041976e-09  3.53292103e-09  4.57583291e-01  3.04753164e-09  1.58715513e-07  4.60762628e-08  5.40000000e-01 
 5.50000000e-01  3.21527855e-09  3.13393330e-09  3.33832464e-09  3.21041976e-09  3.53292102e-09  4.57583268e-01  3.04753163e-09  1.58715478e-07  4.60761420e-08  5.50000000e-01 
 5.60000000e-01  3.21527855e-09  3.13393330e-09  3.33832464e-09  3.21041971e-09  3.53292103e-09  4.57583274e-01  3.04753164e-09  1.58715495e-07  4.60760958e-08  5.60000000e-01 
 5.70000000e-01  3.21527855e-09  3.13393324e-09  3.33832464e-09  3.21041972e-09  3.53292103e-09  4.57583278e-01  3.04753164e-09  1.58715480e-07  4.60760283e-08  5.70000000e-01 
 5.80000000e-01  3.21527855e-09  3.13393330e-09  3.33832464e-09  3.21041971e-09  3.53292097e-09  4.57583282e-01  3.04753164e-09  1.58715495e-07  4.60759892e-08  5.80000000e-01 
 5.90000000e-01  3.21527855e-09  3.13393324e-09  3.33832464e-09  3.21041977e-09  3.53292103e-09  4.57583280e-01  3.04753158e-09  1.58715488e-07  4.60759040e-08  5.90000000e-01 
 6.00000000e-01  3.21527855e-09  3.13393330e-09  3.33832464e-09  3.21041976e-09  3.53292102e-09  4.57583271e-01  3.04753163e-09  1.58715472e-07  4.60757263e-08  6.00000000e-01 
 6.10000000e-01  3.21527861e-09  3.13393324e-09  3.33832470e-09  3.21041971e-09  3.53292103e-09  4.57583275e-01  3.04753158e-09  1.58715494e-07  4.60758898e-08  6.10000000e-01 
 6.20000000e-01  3.21527855e-09  3.13393330e-09  3.33832464e-09  3.21041972e-09  3.53292103e-09  4.57583278e-01  3.04753164e-09  1.58715499e-07  4.60758756e-08  6.20000000e-01 
 6.30000000e-01  3.21527861e-09  3.13393324e-09  3.33832464e-09  3.21041971e-09  3.53292103e-09  4.57583287e-01  3.04753164e-09  1.58715497e-07  4.60757832e-08  6.30000000e-01 
 6.40000000e-01  3.21527861e-09  3.13393330e-09  3.33832464e-09  3.21041977e-09  3.53292097e-09  4.57583280e-01  3.04753164e-09  1.58715495e-07  4.60757192e-08  6.40000000e-01 
 6.50000000e-01  3.21527861e-09  3.13393324e-09  3.33832464e-09  3.21041976e-09  3.53292102e-09  4.57583269e-01  3.04753163e-09  1.58715476e-07  4.60755629e-08  6.50000000e-01 
 6.60000000e-01  3.21527861e-09  3.13393330e-09  3.33832464e-09  3.21041976e-09  3.53292103e-09  4.57583288e-01  3.04753164e-09  1.58715498e-07  4.60756198e-08  6.60000000e-01 
 6.70000000e-01  3.21527861e-09  3.13393330e-09  3.33832464e-09  3.21041976e-09  3.53292097e-09  4.57583279e-01  3.04753164e-09  1.58715496e-07  4.60755274e-08  6.70000000e-01 
 6.80000000e-01  3.21527861e-09  3.13393330e-09  3.33832464e-09  3.21041971e-09  3.53292097e-09  4.57583287e-01  3.04753164e-09  1.58715509e-07  4.60753213e-08  6.80000000e-01 
 6.90000000e-01  3.21527861e-09  3.13393330e-09  3.33832464e-09  3.21041972e-09  3.53292097e-09  4.57583300e-01  3.04753164e-09  1.58715535e-07  4.60753782e-08  6.90000000e-01 
 7.00000000e-01  3.21527861e-09  3.13393330e-09  3.33832464e-09  3.21041977e-09  3.53292103e-09  4.57583287e-01  3.04753164e-09  1.58715506e-07  4.60753924e-08  7.00000000e-01 
 7.10000000e-01  3.21527861e-09  3.13393324e-09  3.33832464e-09  3.21041970e-09  3.53292103e-09  4.57583284e-01  3.04753164e-09  1.58715494e-07  4.60752432e-08  7.10000000e-01 
 7.20000000e-01  3.21527855e-09  3.13393330e-09  3.33832464e-09  3.21041972e-09  3.53292103e-09  4.57583294e-01  3.04753164e-09  1.58715506e-07  4.60751863e-08  7.20000000e-01 
 7.30000000e-01  3.21527861e-09  3.13393330e-09  3.33832464e-09  3.21041977e-09  3.53292103e-09  4.57583289e-01  3.04753164e-09  1.58715514e-07  4.60750869e-08  7.30000000e-01 
 7.40000000e-01  3.21527855e-09  3.13393324e-09  3.33832464e-09  3.21041970e-09  3.53292103e-09  4.57583284e-01  3.04753164e-09  1.58715497e-07  4.60750229e-08  7.40000000e-01 
 7.50000000e-01  3.21527855e-09  3.13393330e-09  3.33832464e-09  3.21041978e-09  3.53292103e-09  4.57583283e-01  3.04753164e-09  1.58715493e-07  4.60750229e-08  7.50000000e-01 
 7.60000000e-01  3.21527861e-09  3.13393330e-09  3.33832464e-09  3.21041970e-09  3.53292103e-09  4.57583278e-01  3.04753158e-09  1.58715481e-07  4.60749732e-08  7.60000000e-01 
 7.70000000e-01  3.21527861e-09  3.13393330e-09  3.33832464e-09  3.21041978e-09  3.53292103e-09  4.57583281e-01  3.04753164e-09  1.58715494e-07  4.60749021e-08  7.70000000e-01 
 7.80000000e-01  3.21527861e-09  3.13393330e-09  3.33832464e-09  3.21041970e-09  3.53292103e-09  4.57583283e-01  3.04753164e-09  1.58715503e-07  4.60748311e-08  7.80000000e-01 
 7.90000000e-01  3.21527861e-09  3.13393324e-09  3.33832464e-09  3.21041978e-09  3.53292103e-09  4.57583282e-01  3.04753164e-09  1.58715489e-07  4.60747813e-08  7.90000000e-01 
 8.00000000e-01  3.21527855e-09  3.13393324e-09  3.33832464e-09  3.21041976e-09  3.53292097e-09  4.57583269e-01  3.04753163e-09  1.58715471e-07  4.60746676e-08  8.00000000e-01 
 8.10000000e-01  3.21527860e-09  3.13393330e-09  3.33832464e-09  3.21041976e-09  3.53292102e-09  4.57583261e-01  3.04753163e-09  1.58715468e-07  4.60746463e-08  8.10000000e-01 
 8.20000000e-01  3.21527861e-09  3.13393330e-09  3.33832464e-09  3.21041971e-09  3.53292097e-09  4.57583284e-01  3.04753164e-09  1.58715494e-07  4.60745255e-08  8.20000000e-01 
 8.30000000e-01  3.21527861e-09  3.13393324e-09  3.33832464e-09  3.21041978e-09  3.53292097e-09  4.57583288e-01  3.04753164e-09  1.58715510e-07  4.60745113e-08  8.30000000e-01 
 8.40000000e-01  3.21527861e-09  3.13393330e-09  3.33832470e-09  3.21041970e-09  3.53292103e-09  4.57583289e-01  3.04753164e-09  1.58715516e-07  4.60744900e-08  8.40000000e-01 
 8.50000000e-01  3.21527861e-09  3.13393330e-09  3.33832470e-09  3.21041972e-09  3.53292103e-09  4.57583289e-01  3.04753164e-09  1.58715510e-07  4.60744332e-08  8.50000000e-01 
 8.60000000e-01  3.21527860e-09  3.13393324e-09  3.33832464e-09  3.21041971e-09  3.53292102e-09  4.57583264e-01  3.04753163e-09  1.58715465e-07  4.60744332e-08  8.60000000e-01 
 8.70000000e-01  3.21527861e-09  3.13393324e-09  3.33832464e-09  3.21041971e-09  3.53292103e-09  4.57583277e-01  3.04753164e-09  1.58715495e-07  4.60743195e-08  8.70000000e-01 
 8.80000000e-01  3.21527860e-09  3.13393330e-09  3.33832464e-09  3.21041971e-09  3.53292102e-09  4.57583264e-01  3.04753163e-09  1.58715475e-07  4.60741987e-08  8.80000000e-01 
 8.90000000e-01  3.21527861e-09  3.13393330e-09  3.33832464e-09  3.21041977e-09  3.53292103e-09  4.57583275e-01  3.04753164e-09  1.58715493e-07  4.60740921e-08  8.90000000e-01 
 9.00000000e-01  3.21527855e-09  3.13393330e-09  3.33832464e-09  3.21041976e-09  3.53292102e-09  4.57583262e-01  3.04753163e-09  1.58715469e-07  4.60741845e-08  9.00000000e-01 
 9.10000000e-01  3.21527861e-09  3.13393330e-09  3.33832470e-09  3.21041971e-09  3.53292103e-09  4.57583281e-01  3.04753164e-09  1.58715495e-07  4.60739784e-08  9.10000000e-01 
 9.20000000e-01  3.21527861e-09  3.13393324e-09  3.33832464e-09  3.21041972e-09  3.53292097e-09  4.57583289e-01  3.04753164e-09  1.58715506e-07  4.60739642e-08  9.20000000e-01 
 9.30000000e-01  3.21527861e-09  3.13393330e-09  3.33832464e-09  3.21041977e-09  3.53292097e-09  4.57583307e-01  3.04753164e-09  1.58715538e-07  4.60739358e-08  9.30000000e-01 
 9.40000000e-01  3.21527855e-09  3.13393330e-09  3.33832464e-09  3.21041976e-09  3.53292103e-09  4.57583284e-01  3.04753164e-09  1.58715507e-07  4.60738505e-08  9.40000000e-01 
 9.50000000e-01  3.21527861e-09  3.13393330e-09  3.33832464e-09  3.21041976e-09  3.53292103e-09  4.57583290e-01  3.04753164e-09  1.58715502e-07  4.60739074e-08  9.50000000e-01 
 9.60000000e-01  3.21527861e-09  3.13393330e-09  3.33832464e-09  3.21041977e-09  3.53292103e-09  4.57583295e-01  3.04753164e-09  1.58715511e-07  4.60737013e-08  9.60000000e-01 
 9.70000000e-01  3.21527861e-09  3.13393330e-09  3.33832464e-09  3.21041976e-09  3.53292097e-09  4.57583292e-01  3.04753158e-09  1.58715516e-07  4.60737866e-08  9.70000000e-01 
 9.80000000e-01  3.21527861e-09  3.13393330e-09  3.33832470e-09  3.21041971e-09  3.53292103e-09  4.57583294e-01  3.04753164e-09  1.58715519e-07  4.60736516e-08  9.80000000e-01 
 9.90000000e-01  3.21527861e-09  3.13393330e-09  3.33832464e-09  3.21041972e-09  3.53292103e-09  4.57583279e-01  3.04753164e-09  1.58715491e-07  4.60736373e-08  9.90000000e-01 
 1.00000000e+00  3.21527861e-09  3.13393330e-09  3.33832464e-09  3.21041971e-09  3.53292097e-09  4.57583294e-01  3.04753164e-09  1.58715512e-07  4.60735308e-08  1.00000000e+00 
 1.01000000e+00  3.21527855e-09  3.13393330e-09  3.33832464e-09  3.21041971e-09  3.53292103e-09  4.57583295e-01  3.04753158e-09  1.58715510e-07  4.60734242e-08  1.01000000e+00 
 1.02000000e+00  3.21527861e-09  3.13393324e-09  3.33832464e-09  3.21041971e-09  3.53292103e-09  4.57583283e-01  3.04753164e-09  1.58715507e-07  4.60734029e-08  1.02000000e+00 
 1.03000000e+00  3.21527861e-09  3.13393330e-09  3.33832464e-09  3.21041971e-09  3.53292103e-09  4.57583293e-01  3.04753164e-09  1.58715524e-07  4.60733318e-08  1.03000000e+00 
 1.04000000e+00  3.21527861e-09  3.13393330e-09  3.33832470e-09  3.21041977e-09  3.53292103e-09  4.57583294e-01  3.04753164e-09  1.58715504e-07  4.60731968e-08  1.04000000e+00 
 1.05000000e+00  3.21527861e-09  3.13393330e-09  3.33832464e-09  3.21041976e-09  3.53292103e-09  4.57583279e-01  3.04753164e-09  1.58715493e-07  4.60733460e-08  1.05000000e+00 
 1.06000000e+00  3.21527855e-09  3.13393330e-09  3.33832464e-09  3.21041976e-09  3.53292103e-09  4.57583290e-01  3.04753164e-09  1.58715504e-07  4.60732252e-08  1.06000000e+00 
 1.07000000e+00  3.21527861e-09  3.13393330e-09  3.33832470e-09  3.21041971e-09  3.53292103e-09  4.57583295e-01  3.04753164e-09  1.58715524e-07  4.60731755e-08  1.07000000e+00 
 1.08000000e+00  3.21527861e-09  3.13393330e-09  3.33832464e-09  3.21041978e-09  3.53292103e-09  4.57583312e-01  3.04753164e-09  1.58715560e-07  4.60729055e-08  1.08000000e+00 
 1.09000000e+00  3.21527861e-09  3.13393324e-09  3.33832464e-09  3.21041970e-09  3.53292097e-09  4.57583300e-01  3.04753164e-09  1.58715529e-07  4.60730263e-08  1.09000000e+00 
 1.10000000e+00  3.21527861e-09  3.13393330e-09  3.33832464e-09  3.21041972e-09  3.53292103e-09  4.57583278e-01  3.04753164e-09  1.58715481e-07  4.60729339e-08  1.10000000e+00 
