 v-sweep         v(b0)           v(b1)           v(b2)           v(b3)           v(b4)           v(b5)           v(b6)           i(vbias)        i(viout)        v(vout)        
 0.00000000e+00  4.57828446e-01  4.57828446e-01  3.50544522e-09  4.57828446e-01  3.34472486e-09  4.57828446e-01  3.34274844e-09  1.58146880e-07  6.21196189e-08  0.00000000e+00 
 1.00000000e-02  4.57828434e-01  4.57828434e-01  3.50544520e-09  4.57828434e-01  3.34472485e-09  4.57828434e-01  3.34274842e-09  1.58146853e-07  6.21189897e-08  1.00000000e-02 
 2.00000000e-02  4.57828448e-01  4.57828448e-01  3.50544521e-09  4.57828448e-01  3.34472485e-09  4.57828448e-01  3.34274842e-09  1.58146866e-07  6.21187295e-08  2.00000000e-02 
 3.00000000e-02  4.57828441e-01  4.57828441e-01  3.50544520e-09  4.57828441e-01  3.34472490e-09  4.57828441e-01  3.34274842e-09  1.58146861e-07  6.21184417e-08  3.00000000e-02 
 4.00000000e-02  4.57828449e-01  4.57828449e-01  3.50544521e-09  4.57828449e-01  3.34472484e-09  4.57828449e-01  3.34274842e-09  1.58146886e-07  6.21180254e-08  4.00000000e-02 
 5.00000000e-02  4.57828444e-01  4.57828444e-01  3.50544526e-09  4.57828444e-01  3.34472491e-09  4.57828444e-01  3.34274842e-09  1.58146875e-07  6.21177536e-08  5.00000000e-02 
 6.00000000e-02  4.57828456e-01  4.57828456e-01  3.50544526e-09  4.57828456e-01  3.34472489e-09  4.57828456e-01  3.34274842e-09  1.58146895e-07  6.21174014e-08  6.00000000e-02 
 7.00000000e-02  4.57828446e-01  4.57828446e-01  3.50544521e-09  4.57828446e-01  3.34472491e-09  4.57828446e-01  3.34274842e-09  1.58146881e-07  6.21170693e-08  7.00000000e-02 
 8.00000000e-02  4.57828457e-01  4.57828457e-01  3.50544521e-09  4.57828457e-01  3.34472484e-09  4.57828457e-01  3.34274842e-09  1.58146891e-07  6.21168903e-08  8.00000000e-02 
 9.00000000e-02  4.57828447e-01  4.57828447e-01  3.50544526e-09  4.57828447e-01  3.34472485e-09  4.57828447e-01  3.34274842e-09  1.58146867e-07  6.21164249e-08  9.00000000e-02 
 1.00000000e-01  4.57828440e-01  4.57828440e-01  3.50544526e-09  4.57828440e-01  3.34472490e-09  4.57828440e-01  3.34274842e-09  1.58146872e-07  6.21162428e-08  1.00000000e-01 
 1.10000000e-01  4.57828451e-01  4.57828451e-01  3.50544521e-09  4.57828451e-01  3.34472484e-09  4.57828451e-01  3.34274848e-09  1.58146893e-07  6.21159000e-08  1.10000000e-01 
 1.20000000e-01  4.57828430e-01  4.57828430e-01  3.50544520e-09  4.57828430e-01  3.34472485e-09  4.57828430e-01  3.34274842e-09  1.58146860e-07  6.21156913e-08  1.20000000e-01 
 1.30000000e-01  4.57828440e-01  4.57828440e-01  3.50544526e-09  4.57828440e-01  3.34472485e-09  4.57828440e-01  3.34274842e-09  1.58146869e-07  6.21155358e-08  1.30000000e-01 
 1.40000000e-01  4.57828448e-01  4.57828448e-01  3.50544521e-09  4.57828448e-01  3.34472491e-09  4.57828448e-01  3.34274842e-09  1.58146880e-07  6.21154088e-08  1.40000000e-01 
 1.50000000e-01  4.57828442e-01  4.57828442e-01  3.50544526e-09  4.57828442e-01  3.34472489e-09  4.57828442e-01  3.34274848e-09  1.58146858e-07  6.21150029e-08  1.50000000e-01 
 1.60000000e-01  4.57828457e-01  4.57828457e-01  3.50544521e-09  4.57828457e-01  3.34472485e-09  4.57828457e-01  3.34274842e-09  1.58146897e-07  6.21148999e-08  1.60000000e-01 
 1.70000000e-01  4.57828445e-01  4.57828445e-01  3.50544521e-09  4.57828445e-01  3.34472485e-09  4.57828445e-01  3.34274848e-09  1.58146881e-07  6.21148093e-08  1.70000000e-01 
 1.80000000e-01  4.57828435e-01  4.57828435e-01  3.50544520e-09  4.57828435e-01  3.34472485e-09  4.57828435e-01  3.34274842e-09  1.58146857e-07  6.21145464e-08  1.80000000e-01 
 1.90000000e-01  4.57828454e-01  4.57828454e-01  3.50544521e-09  4.57828454e-01  3.34472491e-09  4.57828454e-01  3.34274842e-09  1.58146889e-07  6.21143226e-08  1.90000000e-01 
 2.00000000e-01  4.57828442e-01  4.57828441e-01  3.50544526e-09  4.57828442e-01  3.34472489e-09  4.57828441e-01  3.34274842e-09  1.58146877e-07  6.21142036e-08  2.00000000e-01 
 2.10000000e-01  4.57828437e-01  4.57828437e-01  3.50544520e-09  4.57828437e-01  3.34472485e-09  4.57828437e-01  3.34274842e-09  1.58146858e-07  6.21140863e-08  2.10000000e-01 
 2.20000000e-01  4.57828433e-01  4.57828433e-01  3.50544520e-09  4.57828433e-01  3.34472490e-09  4.57828433e-01  3.34274842e-09  1.58146848e-07  6.21139122e-08  2.20000000e-01 
 2.30000000e-01  4.57828448e-01  4.57828448e-01  3.50544521e-09  4.57828449e-01  3.34472484e-09  4.57828448e-01  3.34274842e-09  1.58146879e-07  6.21137062e-08  2.30000000e-01 
 2.40000000e-01  4.57828451e-01  4.57828451e-01  3.50544521e-09  4.57828451e-01  3.34472485e-09  4.57828451e-01  3.34274842e-09  1.58146891e-07  6.21135303e-08  2.40000000e-01 
 2.50000000e-01  4.57828435e-01  4.57828435e-01  3.50544520e-09  4.57828435e-01  3.34472485e-09  4.57828435e-01  3.34274842e-09  1.58146871e-07  6.21134575e-08  2.50000000e-01 
 2.60000000e-01  4.57828459e-01  4.57828459e-01  3.50544521e-09  4.57828459e-01  3.34472485e-09  4.57828459e-01  3.34274842e-09  1.58146891e-07  6.21133882e-08  2.60000000e-01 
 2.70000000e-01  4.57828410e-01  4.57828410e-01  3.50544526e-09  4.57828410e-01  3.34472485e-09  4.57828410e-01  3.34274842e-09  1.58146825e-07  6.21131893e-08  2.70000000e-01 
 2.80000000e-01  4.57828451e-01  4.57828451e-01  3.50544521e-09  4.57828451e-01  3.34472491e-09  4.57828451e-01  3.34274848e-09  1.58146882e-07  6.21130916e-08  2.80000000e-01 
 2.90000000e-01  4.57828413e-01  4.57828413e-01  3.50544520e-09  4.57828413e-01  3.34472483e-09  4.57828413e-01  3.34274842e-09  1.58146814e-07  6.21129672e-08  2.90000000e-01 
 3.00000000e-01  4.57828434e-01  4.57828434e-01  3.50544526e-09  4.57828434e-01  3.34472485e-09  4.57828434e-01  3.34274842e-09  1.58146855e-07  6.21128500e-08  3.00000000e-01 
 3.10000000e-01  4.57828410e-01  4.57828410e-01  3.50544520e-09  4.57828410e-01  3.34472485e-09  4.57828410e-01  3.34274842e-09  1.58146819e-07  6.21128109e-08  3.10000000e-01 
 3.20000000e-01  4.57828436e-01  4.57828436e-01  3.50544526e-09  4.57828436e-01  3.34472485e-09  4.57828436e-01  3.34274848e-09  1.58146847e-07  6.21127363e-08  3.20000000e-01 
 3.30000000e-01  4.57828447e-01  4.57828446e-01  3.50544521e-09  4.57828447e-01  3.34472485e-09  4.57828447e-01  3.34274842e-09  1.58146869e-07  6.21124521e-08  3.30000000e-01 
 3.40000000e-01  4.57828455e-01  4.57828454e-01  3.50544521e-09  4.57828455e-01  3.34472485e-09  4.57828455e-01  3.34274842e-09  1.58146880e-07  6.21124840e-08  3.40000000e-01 
 3.50000000e-01  4.57828444e-01  4.57828444e-01  3.50544526e-09  4.57828444e-01  3.34472485e-09  4.57828444e-01  3.34274842e-09  1.58146882e-07  6.21124165e-08  3.50000000e-01 
 3.60000000e-01  4.57828447e-01  4.57828447e-01  3.50544526e-09  4.57828447e-01  3.34472491e-09  4.57828447e-01  3.34274842e-09  1.58146882e-07  6.21123277e-08  3.60000000e-01 
 3.70000000e-01  4.57828461e-01  4.57828461e-01  3.50544521e-09  4.57828461e-01  3.34472489e-09  4.57828461e-01  3.34274842e-09  1.58146898e-07  6.21122709e-08  3.70000000e-01 
 3.80000000e-01  4.57828448e-01  4.57828448e-01  3.50544521e-09  4.57828448e-01  3.34472485e-09  4.57828448e-01  3.34274842e-09  1.58146887e-07  6.21121359e-08  3.80000000e-01 
 3.90000000e-01  4.57828453e-01  4.57828453e-01  3.50544521e-09  4.57828454e-01  3.34472485e-09  4.57828453e-01  3.34274848e-09  1.58146888e-07  6.21121039e-08  3.90000000e-01 
 4.00000000e-01  4.57828453e-01  4.57828453e-01  3.50544521e-09  4.57828453e-01  3.34472491e-09  4.57828453e-01  3.34274842e-09  1.58146882e-07  6.21118907e-08  4.00000000e-01 
 4.10000000e-01  4.57828444e-01  4.57828444e-01  3.50544520e-09  4.57828444e-01  3.34472484e-09  4.57828444e-01  3.34274842e-09  1.58146871e-07  6.21117913e-08  4.10000000e-01 
 4.20000000e-01  4.57828476e-01  4.57828476e-01  3.50544521e-09  4.57828476e-01  3.34472486e-09  4.57828476e-01  3.34274842e-09  1.58146921e-07  6.21119156e-08  4.20000000e-01 
 4.30000000e-01  4.57828459e-01  4.57828459e-01  3.50544521e-09  4.57828459e-01  3.34472485e-09  4.57828459e-01  3.34274842e-09  1.58146896e-07  6.21118410e-08  4.30000000e-01 
 4.40000000e-01  4.57828461e-01  4.57828461e-01  3.50544521e-09  4.57828461e-01  3.34472491e-09  4.57828461e-01  3.34274842e-09  1.58146896e-07  6.21116172e-08  4.40000000e-01 
 4.50000000e-01  4.57828457e-01  4.57828457e-01  3.50544521e-09  4.57828457e-01  3.34472489e-09  4.57828457e-01  3.34274842e-09  1.58146883e-07  6.21116527e-08  4.50000000e-01 
 4.60000000e-01  4.57828448e-01  4.57828448e-01  3.50544521e-09  4.57828448e-01  3.34472491e-09  4.57828448e-01  3.34274842e-09  1.58146886e-07  6.21115674e-08  4.60000000e-01 
 4.70000000e-01  4.57828451e-01  4.57828451e-01  3.50544521e-09  4.57828452e-01  3.34472489e-09  4.57828451e-01  3.34274842e-09  1.58146879e-07  6.21114253e-08  4.70000000e-01 
 4.80000000e-01  4.57828416e-01  4.57828416e-01  3.50544520e-09  4.57828416e-01  3.34472485e-09  4.57828416e-01  3.34274847e-09  1.58146836e-07  6.21113259e-08  4.80000000e-01 
 4.90000000e-01  4.57828451e-01  4.57828451e-01  3.50544521e-09  4.57828451e-01  3.34472485e-09  4.57828451e-01  3.34274842e-09  1.58146869e-07  6.21112726e-08  4.90000000e-01 
 5.00000000e-01  4.57828450e-01  4.57828450e-01  3.50544526e-09  4.57828450e-01  3.34472485e-09  4.57828450e-01  3.34274842e-09  1.58146879e-07  6.21112228e-08  5.00000000e-01 
 5.10000000e-01  4.57828435e-01  4.57828434e-01  3.50544526e-09  4.57828435e-01  3.34472485e-09  4.57828435e-01  3.34274842e-09  1.58146865e-07  6.21112406e-08  5.10000000e-01 
 5.20000000e-01  4.57828454e-01  4.57828454e-01  3.50544526e-09  4.57828455e-01  3.34472491e-09  4.57828454e-01  3.34274848e-09  1.58146882e-07  6.21110985e-08  5.20000000e-01 
 5.30000000e-01  4.57828439e-01  4.57828439e-01  3.50544526e-09  4.57828439e-01  3.34472489e-09  4.57828439e-01  3.34274842e-09  1.58146857e-07  6.21110132e-08  5.30000000e-01 
 5.40000000e-01  4.57828450e-01  4.57828450e-01  3.50544526e-09  4.57828450e-01  3.34472491e-09  4.57828450e-01  3.34274842e-09  1.58146872e-07  6.21110203e-08  5.40000000e-01 
 5.50000000e-01  4.57828446e-01  4.57828446e-01  3.50544521e-09  4.57828446e-01  3.34472484e-09  4.57828446e-01  3.34274842e-09  1.58146865e-07  6.21109706e-08  5.50000000e-01 
 5.60000000e-01  4.57828452e-01  4.57828452e-01  3.50544521e-09  4.57828452e-01  3.34472491e-09  4.57828452e-01  3.34274848e-09  1.58146882e-07  6.21107716e-08  5.60000000e-01 
 5.70000000e-01  4.57828449e-01  4.57828449e-01  3.50544526e-09  4.57828449e-01  3.34472484e-09  4.57828449e-01  3.34274842e-09  1.58146892e-07  6.21107574e-08  5.70000000e-01 
 5.80000000e-01  4.57828442e-01  4.57828442e-01  3.50544520e-09  4.57828442e-01  3.34472491e-09  4.57828442e-01  3.34274842e-09  1.58146866e-07  6.21106508e-08  5.80000000e-01 
 5.90000000e-01  4.57828462e-01  4.57828462e-01  3.50544521e-09  4.57828462e-01  3.34472484e-09  4.57828462e-01  3.34274842e-09  1.58146899e-07  6.21107290e-08  5.90000000e-01 
 6.00000000e-01  4.57828447e-01  4.57828447e-01  3.50544521e-09  4.57828447e-01  3.34472491e-09  4.57828447e-01  3.34274842e-09  1.58146894e-07  6.21105301e-08  6.00000000e-01 
 6.10000000e-01  4.57828437e-01  4.57828437e-01  3.50544520e-09  4.57828437e-01  3.34472489e-09  4.57828437e-01  3.34274842e-09  1.58146877e-07  6.21106580e-08  6.10000000e-01 
 6.20000000e-01  4.57828430e-01  4.57828430e-01  3.50544520e-09  4.57828430e-01  3.34472485e-09  4.57828430e-01  3.34274842e-09  1.58146847e-07  6.21105016e-08  6.20000000e-01 
 6.30000000e-01  4.57828428e-01  4.57828428e-01  3.50544520e-09  4.57828428e-01  3.34472485e-09  4.57828428e-01  3.34274842e-09  1.58146847e-07  6.21102316e-08  6.30000000e-01 
 6.40000000e-01  4.57828451e-01  4.57828451e-01  3.50544526e-09  4.57828451e-01  3.34472491e-09  4.57828451e-01  3.34274848e-09  1.58146877e-07  6.21103737e-08  6.40000000e-01 
 6.50000000e-01  4.57828442e-01  4.57828442e-01  3.50544526e-09  4.57828442e-01  3.34472484e-09  4.57828442e-01  3.34274842e-09  1.58146871e-07  6.21103311e-08  6.50000000e-01 
 6.60000000e-01  4.57828443e-01  4.57828443e-01  3.50544520e-09  4.57828443e-01  3.34472491e-09  4.57828443e-01  3.34274842e-09  1.58146867e-07  6.21101961e-08  6.60000000e-01 
 6.70000000e-01  4.57828453e-01  4.57828453e-01  3.50544521e-09  4.57828453e-01  3.34472489e-09  4.57828453e-01  3.34274848e-09  1.58146886e-07  6.21102032e-08  6.70000000e-01 
 6.80000000e-01  4.57828461e-01  4.57828461e-01  3.50544521e-09  4.57828461e-01  3.34472491e-09  4.57828461e-01  3.34274842e-09  1.58146906e-07  6.21100753e-08  6.80000000e-01 
 6.90000000e-01  4.57828451e-01  4.57828451e-01  3.50544526e-09  4.57828451e-01  3.34472489e-09  4.57828451e-01  3.34274848e-09  1.58146893e-07  6.21100753e-08  6.90000000e-01 
 7.00000000e-01  4.57828433e-01  4.57828433e-01  3.50544520e-09  4.57828433e-01  3.34472491e-09  4.57828433e-01  3.34274842e-09  1.58146864e-07  6.21099119e-08  7.00000000e-01 
 7.10000000e-01  4.57828430e-01  4.57828429e-01  3.50544520e-09  4.57828430e-01  3.34472489e-09  4.57828429e-01  3.34274842e-09  1.58146846e-07  6.21098835e-08  7.10000000e-01 
 7.20000000e-01  4.57828448e-01  4.57828448e-01  3.50544521e-09  4.57828448e-01  3.34472485e-09  4.57828448e-01  3.34274842e-09  1.58146870e-07  6.21098124e-08  7.20000000e-01 
 7.30000000e-01  4.57828446e-01  4.57828446e-01  3.50544521e-09  4.57828446e-01  3.34472491e-09  4.57828446e-01  3.34274842e-09  1.58146871e-07  6.21096987e-08  7.30000000e-01 
 7.40000000e-01  4.57828427e-01  4.57828427e-01  3.50544526e-09  4.57828427e-01  3.34472484e-09  4.57828427e-01  3.34274847e-09  1.58146848e-07  6.21096703e-08  7.40000000e-01 
 7.50000000e-01  4.57828434e-01  4.57828434e-01  3.50544520e-09  4.57828434e-01  3.34472491e-09  4.57828434e-01  3.34274842e-09  1.58146852e-07  6.21097485e-08  7.50000000e-01 
 7.60000000e-01  4.57828435e-01  4.57828435e-01  3.50544520e-09  4.57828435e-01  3.34472489e-09  4.57828435e-01  3.34274842e-09  1.58146867e-07  6.21095495e-08  7.60000000e-01 
 7.70000000e-01  4.57828444e-01  4.57828444e-01  3.50544526e-09  4.57828444e-01  3.34472485e-09  4.57828444e-01  3.34274842e-09  1.58146865e-07  6.21095708e-08  7.70000000e-01 
 7.80000000e-01  4.57828435e-01  4.57828435e-01  3.50544520e-09  4.57828435e-01  3.34472485e-09  4.57828435e-01  3.34274848e-09  1.58146859e-07  6.21093506e-08  7.80000000e-01 
 7.90000000e-01  4.57828443e-01  4.57828443e-01  3.50544520e-09  4.57828443e-01  3.34472491e-09  4.57828443e-01  3.34274848e-09  1.58146879e-07  6.21094429e-08  7.90000000e-01 
 8.00000000e-01  4.57828424e-01  4.57828424e-01  3.50544520e-09  4.57828424e-01  3.34472489e-09  4.57828424e-01  3.34274842e-09  1.58146849e-07  6.21093506e-08  8.00000000e-01 
 8.10000000e-01  4.57828456e-01  4.57828456e-01  3.50544521e-09  4.57828456e-01  3.34472485e-09  4.57828456e-01  3.34274842e-09  1.58146890e-07  6.21092155e-08  8.10000000e-01 
 8.20000000e-01  4.57828451e-01  4.57828451e-01  3.50544521e-09  4.57828451e-01  3.34472491e-09  4.57828451e-01  3.34274848e-09  1.58146881e-07  6.21092440e-08  8.20000000e-01 
 8.30000000e-01  4.57828436e-01  4.57828436e-01  3.50544526e-09  4.57828437e-01  3.34472489e-09  4.57828436e-01  3.34274842e-09  1.58146854e-07  6.21092440e-08  8.30000000e-01 
 8.40000000e-01  4.57828453e-01  4.57828453e-01  3.50544526e-09  4.57828453e-01  3.34472485e-09  4.57828453e-01  3.34274842e-09  1.58146868e-07  6.21090948e-08  8.40000000e-01 
 8.50000000e-01  4.57828452e-01  4.57828452e-01  3.50544521e-09  4.57828452e-01  3.34472485e-09  4.57828452e-01  3.34274842e-09  1.58146883e-07  6.21090308e-08  8.50000000e-01 
 8.60000000e-01  4.57828425e-01  4.57828425e-01  3.50544520e-09  4.57828425e-01  3.34472485e-09  4.57828425e-01  3.34274842e-09  1.58146842e-07  6.21089455e-08  8.60000000e-01 
 8.70000000e-01  4.57828476e-01  4.57828476e-01  3.50544527e-09  4.57828476e-01  3.34472491e-09  4.57828476e-01  3.34274842e-09  1.58146914e-07  6.21089669e-08  8.70000000e-01 
 8.80000000e-01  4.57828455e-01  4.57828455e-01  3.50544526e-09  4.57828455e-01  3.34472484e-09  4.57828455e-01  3.34274842e-09  1.58146889e-07  6.21088532e-08  8.80000000e-01 
 8.90000000e-01  4.57828453e-01  4.57828453e-01  3.50544521e-09  4.57828453e-01  3.34472485e-09  4.57828453e-01  3.34274842e-09  1.58146885e-07  6.21087892e-08  8.90000000e-01 
 9.00000000e-01  4.57828422e-01  4.57828422e-01  3.50544526e-09  4.57828422e-01  3.34472490e-09  4.57828422e-01  3.34274842e-09  1.58146849e-07  6.21086684e-08  9.00000000e-01 
 9.10000000e-01  4.57828442e-01  4.57828442e-01  3.50544520e-09  4.57828442e-01  3.34472484e-09  4.57828442e-01  3.34274842e-09  1.58146867e-07  6.21087253e-08  9.10000000e-01 
 9.20000000e-01  4.57828449e-01  4.57828449e-01  3.50544526e-09  4.57828449e-01  3.34472491e-09  4.57828449e-01  3.34274842e-09  1.58146893e-07  6.21086329e-08  9.20000000e-01 
 9.30000000e-01  4.57828455e-01  4.57828455e-01  3.50544526e-09  4.57828455e-01  3.34472489e-09  4.57828455e-01  3.34274842e-09  1.58146897e-07  6.21084837e-08  9.30000000e-01 
 9.40000000e-01  4.57828435e-01  4.57828435e-01  3.50544520e-09  4.57828435e-01  3.34472485e-09  4.57828435e-01  3.34274842e-09  1.58146867e-07  6.21084624e-08  9.40000000e-01 
 9.50000000e-01  4.57828429e-01  4.57828429e-01  3.50544520e-09  4.57828429e-01  3.34472485e-09  4.57828429e-01  3.34274842e-09  1.58146848e-07  6.21082634e-08  9.50000000e-01 
 9.60000000e-01  4.57828421e-01  4.57828421e-01  3.50544526e-09  4.57828421e-01  3.34472485e-09  4.57828421e-01  3.34274842e-09  1.58146841e-07  6.21082634e-08  9.60000000e-01 
 9.70000000e-01  4.57828438e-01  4.57828438e-01  3.50544520e-09  4.57828438e-01  3.34472485e-09  4.57828438e-01  3.34274842e-09  1.58146861e-07  6.21082208e-08  9.70000000e-01 
 9.80000000e-01  4.57828420e-01  4.57828420e-01  3.50544520e-09  4.57828420e-01  3.34472485e-09  4.57828420e-01  3.34274842e-09  1.58146830e-07  6.21081071e-08  9.80000000e-01 
 9.90000000e-01  4.57828457e-01  4.57828457e-01  3.50544521e-09  4.57828457e-01  3.34472491e-09  4.57828457e-01  3.34274842e-09  1.58146892e-07  6.21081071e-08  9.90000000e-01 
 1.00000000e+00  4.57828464e-01  4.57828464e-01  3.50544526e-09  4.57828464e-01  3.34472484e-09  4.57828464e-01  3.34274842e-09  1.58146911e-07  6.21080503e-08  1.00000000e+00 
 1.01000000e+00  4.57828433e-01  4.57828433e-01  3.50544520e-09  4.57828433e-01  3.34472485e-09  4.57828433e-01  3.34274842e-09  1.58146860e-07  6.21079934e-08  1.01000000e+00 
 1.02000000e+00  4.57828455e-01  4.57828455e-01  3.50544521e-09  4.57828455e-01  3.34472485e-09  4.57828455e-01  3.34274842e-09  1.58146898e-07  6.21079366e-08  1.02000000e+00 
 1.03000000e+00  4.57828453e-01  4.57828453e-01  3.50544521e-09  4.57828453e-01  3.34472485e-09  4.57828453e-01  3.34274842e-09  1.58146884e-07  6.21078655e-08  1.03000000e+00 
 1.04000000e+00  4.57828440e-01  4.57828440e-01  3.50544520e-09  4.57828440e-01  3.34472490e-09  4.57828440e-01  3.34274842e-09  1.58146872e-07  6.21077305e-08  1.04000000e+00 
 1.05000000e+00  4.57828452e-01  4.57828452e-01  3.50544521e-09  4.57828452e-01  3.34472489e-09  4.57828452e-01  3.34274848e-09  1.58146889e-07  6.21077305e-08  1.05000000e+00 
 1.06000000e+00  4.57828459e-01  4.57828459e-01  3.50544526e-09  4.57828459e-01  3.34472485e-09  4.57828459e-01  3.34274842e-09  1.58146892e-07  6.21077376e-08  1.06000000e+00 
 1.07000000e+00  4.57828455e-01  4.57828455e-01  3.50544526e-09  4.57828455e-01  3.34472485e-09  4.57828455e-01  3.34274842e-09  1.58146878e-07  6.21074676e-08  1.07000000e+00 
 1.08000000e+00  4.57828446e-01  4.57828446e-01  3.50544526e-09  4.57828446e-01  3.34472485e-09  4.57828446e-01  3.34274842e-09  1.58146875e-07  6.21074037e-08  1.08000000e+00 
 1.09000000e+00  4.57828464e-01  4.57828464e-01  3.50544521e-09  4.57828464e-01  3.34472491e-09  4.57828464e-01  3.34274842e-09  1.58146905e-07  6.21074392e-08  1.09000000e+00 
 1.10000000e+00  4.57828434e-01  4.57828434e-01  3.50544520e-09  4.57828434e-01  3.34472489e-09  4.57828434e-01  3.34274848e-09  1.58146860e-07  6.21074676e-08  1.10000000e+00 
