 v-sweep         v(b0)           v(b1)           v(b2)           v(b3)           v(b4)           v(b5)           v(b6)           i(vbias)        i(viout)        v(vout)        
 0.00000000e+00  3.15688292e-09  3.28854038e-09  4.59292020e-01  3.39863049e-09  4.59292020e-01  4.59292020e-01  3.27268438e-09  1.61404219e-07  8.12330728e-08  0.00000000e+00 
 1.00000000e-02  3.15688295e-09  3.28854036e-09  4.59292005e-01  3.39863051e-09  4.59292005e-01  4.59292005e-01  3.27268435e-09  1.61404198e-07  8.12327510e-08  1.00000000e-02 
 2.00000000e-02  3.15688295e-09  3.28854036e-09  4.59292030e-01  3.39863052e-09  4.59292030e-01  4.59292030e-01  3.27268441e-09  1.61404224e-07  8.12323295e-08  2.00000000e-02 
 3.00000000e-02  3.15688301e-09  3.28854042e-09  4.59292042e-01  3.39863046e-09  4.59292042e-01  4.59292042e-01  3.27268435e-09  1.61404244e-07  8.12319960e-08  3.00000000e-02 
 4.00000000e-02  3.15688301e-09  3.28854036e-09  4.59292045e-01  3.39863046e-09  4.59292045e-01  4.59292045e-01  3.27268441e-09  1.61404245e-07  8.12317453e-08  4.00000000e-02 
 5.00000000e-02  3.15688295e-09  3.28854036e-09  4.59292029e-01  3.39863052e-09  4.59292029e-01  4.59292029e-01  3.27268435e-09  1.61404223e-07  8.12313847e-08  5.00000000e-02 
 6.00000000e-02  3.15688301e-09  3.28854036e-09  4.59292027e-01  3.39863052e-09  4.59292027e-01  4.59292027e-01  3.27268441e-09  1.61404229e-07  8.12309855e-08  6.00000000e-02 
 7.00000000e-02  3.15688301e-09  3.28854042e-09  4.59291997e-01  3.39863051e-09  4.59291997e-01  4.59291997e-01  3.27268435e-09  1.61404169e-07  8.12305467e-08  7.00000000e-02 
 8.00000000e-02  3.15688295e-09  3.28854042e-09  4.59292021e-01  3.39863046e-09  4.59292021e-01  4.59292020e-01  3.27268435e-09  1.61404216e-07  8.12303549e-08  8.00000000e-02 
 9.00000000e-02  3.15688301e-09  3.28854036e-09  4.59292032e-01  3.39863046e-09  4.59292032e-01  4.59292032e-01  3.27268441e-09  1.61404231e-07  8.12301932e-08  9.00000000e-02 
 1.00000000e-01  3.15688295e-09  3.28854042e-09  4.59292029e-01  3.39863052e-09  4.59292029e-01  4.59292029e-01  3.27268435e-09  1.61404232e-07  8.12298637e-08  1.00000000e-01 
 1.10000000e-01  3.15688295e-09  3.28854036e-09  4.59292025e-01  3.39863046e-09  4.59292025e-01  4.59292025e-01  3.27268435e-09  1.61404224e-07  8.12295635e-08  1.10000000e-01 
 1.20000000e-01  3.15688295e-09  3.28854036e-09  4.59292032e-01  3.39863052e-09  4.59292032e-01  4.59292031e-01  3.27268435e-09  1.61404235e-07  8.12293051e-08  1.20000000e-01 
 1.30000000e-01  3.15688301e-09  3.28854036e-09  4.59292035e-01  3.39863046e-09  4.59292035e-01  4.59292035e-01  3.27268435e-09  1.61404241e-07  8.12290315e-08  1.30000000e-01 
 1.40000000e-01  3.15688295e-09  3.28854036e-09  4.59292030e-01  3.39863052e-09  4.59292030e-01  4.59292029e-01  3.27268435e-09  1.61404225e-07  8.12288823e-08  1.40000000e-01 
 1.50000000e-01  3.15688295e-09  3.28854036e-09  4.59292044e-01  3.39863046e-09  4.59292044e-01  4.59292044e-01  3.27268435e-09  1.61404258e-07  8.12286753e-08  1.50000000e-01 
 1.60000000e-01  3.15688295e-09  3.28854042e-09  4.59292017e-01  3.39863052e-09  4.59292017e-01  4.59292017e-01  3.27268441e-09  1.61404193e-07  8.12284853e-08  1.60000000e-01 
 1.70000000e-01  3.15688295e-09  3.28854036e-09  4.59292030e-01  3.39863046e-09  4.59292030e-01  4.59292030e-01  3.27268435e-09  1.61404222e-07  8.12282863e-08  1.70000000e-01 
 1.80000000e-01  3.15688301e-09  3.28854042e-09  4.59292028e-01  3.39863046e-09  4.59292028e-01  4.59292028e-01  3.27268435e-09  1.61404222e-07  8.12281105e-08  1.80000000e-01 
 1.90000000e-01  3.15688295e-09  3.28854036e-09  4.59292035e-01  3.39863046e-09  4.59292035e-01  4.59292035e-01  3.27268435e-09  1.61404238e-07  8.12279648e-08  1.90000000e-01 
 2.00000000e-01  3.15688295e-09  3.28854036e-09  4.59292022e-01  3.39863052e-09  4.59292022e-01  4.59292022e-01  3.27268441e-09  1.61404208e-07  8.12277676e-08  2.00000000e-01 
 2.10000000e-01  3.15688295e-09  3.28854036e-09  4.59292020e-01  3.39863052e-09  4.59292020e-01  4.59292020e-01  3.27268441e-09  1.61404214e-07  8.12276131e-08  2.10000000e-01 
 2.20000000e-01  3.15688301e-09  3.28854036e-09  4.59292033e-01  3.39863046e-09  4.59292033e-01  4.59292032e-01  3.27268441e-09  1.61404229e-07  8.12274017e-08  2.20000000e-01 
 2.30000000e-01  3.15688301e-09  3.28854036e-09  4.59292028e-01  3.39863046e-09  4.59292028e-01  4.59292027e-01  3.27268441e-09  1.61404203e-07  8.12273093e-08  2.30000000e-01 
 2.40000000e-01  3.15688295e-09  3.28854042e-09  4.59292021e-01  3.39863046e-09  4.59292021e-01  4.59292021e-01  3.27268435e-09  1.61404220e-07  8.12270251e-08  2.40000000e-01 
 2.50000000e-01  3.15688295e-09  3.28854042e-09  4.59292026e-01  3.39863046e-09  4.59292026e-01  4.59292025e-01  3.27268435e-09  1.61404216e-07  8.12269967e-08  2.50000000e-01 
 2.60000000e-01  3.15688295e-09  3.28854036e-09  4.59292041e-01  3.39863052e-09  4.59292041e-01  4.59292041e-01  3.27268435e-09  1.61404246e-07  8.12269114e-08  2.60000000e-01 
 2.70000000e-01  3.15688295e-09  3.28854042e-09  4.59292032e-01  3.39863046e-09  4.59292032e-01  4.59292032e-01  3.27268441e-09  1.61404214e-07  8.12267231e-08  2.70000000e-01 
 2.80000000e-01  3.15688295e-09  3.28854042e-09  4.59292037e-01  3.39863046e-09  4.59292037e-01  4.59292037e-01  3.27268435e-09  1.61404238e-07  8.12266912e-08  2.80000000e-01 
 2.90000000e-01  3.15688295e-09  3.28854042e-09  4.59292029e-01  3.39863046e-09  4.59292029e-01  4.59292029e-01  3.27268441e-09  1.61404216e-07  8.12263927e-08  2.90000000e-01 
 3.00000000e-01  3.15688295e-09  3.28854042e-09  4.59292025e-01  3.39863052e-09  4.59292025e-01  4.59292025e-01  3.27268435e-09  1.61404227e-07  8.12263146e-08  3.00000000e-01 
 3.10000000e-01  3.15688301e-09  3.28854036e-09  4.59292041e-01  3.39863052e-09  4.59292040e-01  4.59292040e-01  3.27268435e-09  1.61404240e-07  8.12262790e-08  3.10000000e-01 
 3.20000000e-01  3.15688301e-09  3.28854042e-09  4.59292008e-01  3.39863046e-09  4.59292008e-01  4.59292008e-01  3.27268441e-09  1.61404189e-07  8.12260836e-08  3.20000000e-01 
 3.30000000e-01  3.15688295e-09  3.28854036e-09  4.59292026e-01  3.39863046e-09  4.59292026e-01  4.59292026e-01  3.27268441e-09  1.61404214e-07  8.12261121e-08  3.30000000e-01 
 3.40000000e-01  3.15688295e-09  3.28854042e-09  4.59292035e-01  3.39863052e-09  4.59292035e-01  4.59292034e-01  3.27268441e-09  1.61404238e-07  8.12259096e-08  3.40000000e-01 
 3.50000000e-01  3.15688295e-09  3.28854036e-09  4.59292019e-01  3.39863046e-09  4.59292019e-01  4.59292019e-01  3.27268441e-09  1.61404199e-07  8.12258811e-08  3.50000000e-01 
 3.60000000e-01  3.15688295e-09  3.28854036e-09  4.59292005e-01  3.39863046e-09  4.59292005e-01  4.59292005e-01  3.27268441e-09  1.61404203e-07  8.12257284e-08  3.60000000e-01 
 3.70000000e-01  3.15688301e-09  3.28854036e-09  4.59292035e-01  3.39863046e-09  4.59292035e-01  4.59292034e-01  3.27268441e-09  1.61404242e-07  8.12256751e-08  3.70000000e-01 
 3.80000000e-01  3.15688295e-09  3.28854036e-09  4.59292010e-01  3.39863051e-09  4.59292010e-01  4.59292010e-01  3.27268441e-09  1.61404198e-07  8.12255294e-08  3.80000000e-01 
 3.90000000e-01  3.15688295e-09  3.28854042e-09  4.59292033e-01  3.39863052e-09  4.59292033e-01  4.59292032e-01  3.27268441e-09  1.61404239e-07  8.12254939e-08  3.90000000e-01 
 4.00000000e-01  3.15688301e-09  3.28854036e-09  4.59291999e-01  3.39863046e-09  4.59291999e-01  4.59291999e-01  3.27268435e-09  1.61404165e-07  8.12252772e-08  4.00000000e-01 
 4.10000000e-01  3.15688295e-09  3.28854036e-09  4.59292017e-01  3.39863046e-09  4.59292017e-01  4.59292016e-01  3.27268435e-09  1.61404200e-07  8.12252594e-08  4.10000000e-01 
 4.20000000e-01  3.15688301e-09  3.28854036e-09  4.59291997e-01  3.39863046e-09  4.59291997e-01  4.59291997e-01  3.27268435e-09  1.61404184e-07  8.12251528e-08  4.20000000e-01 
 4.30000000e-01  3.15688295e-09  3.28854042e-09  4.59292014e-01  3.39863046e-09  4.59292014e-01  4.59292014e-01  3.27268441e-09  1.61404203e-07  8.12249965e-08  4.30000000e-01 
 4.40000000e-01  3.15688301e-09  3.28854042e-09  4.59292023e-01  3.39863052e-09  4.59292023e-01  4.59292023e-01  3.27268435e-09  1.61404215e-07  8.12250569e-08  4.40000000e-01 
 4.50000000e-01  3.15688295e-09  3.28854036e-09  4.59292010e-01  3.39863051e-09  4.59292010e-01  4.59292010e-01  3.27268435e-09  1.61404202e-07  8.12249326e-08  4.50000000e-01 
 4.60000000e-01  3.15688301e-09  3.28854042e-09  4.59292021e-01  3.39863046e-09  4.59292021e-01  4.59292021e-01  3.27268441e-09  1.61404213e-07  8.12248651e-08  4.60000000e-01 
 4.70000000e-01  3.15688295e-09  3.28854036e-09  4.59292013e-01  3.39863046e-09  4.59292013e-01  4.59292013e-01  3.27268435e-09  1.61404205e-07  8.12248402e-08  4.70000000e-01 
 4.80000000e-01  3.15688295e-09  3.28854042e-09  4.59292007e-01  3.39863046e-09  4.59292007e-01  4.59292007e-01  3.27268441e-09  1.61404193e-07  8.12247976e-08  4.80000000e-01 
 4.90000000e-01  3.15688295e-09  3.28854042e-09  4.59292018e-01  3.39863052e-09  4.59292018e-01  4.59292018e-01  3.27268435e-09  1.61404221e-07  8.12246590e-08  4.90000000e-01 
 5.00000000e-01  3.15688295e-09  3.28854036e-09  4.59292013e-01  3.39863046e-09  4.59292013e-01  4.59292012e-01  3.27268435e-09  1.61404202e-07  8.12245453e-08  5.00000000e-01 
 5.10000000e-01  3.15688301e-09  3.28854036e-09  4.59292016e-01  3.39863052e-09  4.59292016e-01  4.59292016e-01  3.27268435e-09  1.61404198e-07  8.12245524e-08  5.10000000e-01 
 5.20000000e-01  3.15688295e-09  3.28854042e-09  4.59292022e-01  3.39863046e-09  4.59292022e-01  4.59292022e-01  3.27268435e-09  1.61404224e-07  8.12244210e-08  5.20000000e-01 
 5.30000000e-01  3.15688301e-09  3.28854042e-09  4.59292013e-01  3.39863052e-09  4.59292013e-01  4.59292013e-01  3.27268435e-09  1.61404201e-07  8.12243144e-08  5.30000000e-01 
 5.40000000e-01  3.15688295e-09  3.28854042e-09  4.59292007e-01  3.39863051e-09  4.59292007e-01  4.59292007e-01  3.27268435e-09  1.61404190e-07  8.12243428e-08  5.40000000e-01 
 5.50000000e-01  3.15688295e-09  3.28854036e-09  4.59292024e-01  3.39863046e-09  4.59292024e-01  4.59292024e-01  3.27268441e-09  1.61404208e-07  8.12242504e-08  5.50000000e-01 
 5.60000000e-01  3.15688301e-09  3.28854042e-09  4.59292030e-01  3.39863052e-09  4.59292030e-01  4.59292030e-01  3.27268441e-09  1.61404234e-07  8.12242433e-08  5.60000000e-01 
 5.70000000e-01  3.15688295e-09  3.28854036e-09  4.59292022e-01  3.39863046e-09  4.59292022e-01  4.59292022e-01  3.27268441e-09  1.61404217e-07  8.12241225e-08  5.70000000e-01 
 5.80000000e-01  3.15688295e-09  3.28854036e-09  4.59292017e-01  3.39863052e-09  4.59292017e-01  4.59292016e-01  3.27268435e-09  1.61404211e-07  8.12240302e-08  5.80000000e-01 
 5.90000000e-01  3.15688295e-09  3.28854036e-09  4.59292019e-01  3.39863046e-09  4.59292019e-01  4.59292019e-01  3.27268441e-09  1.61404222e-07  8.12239378e-08  5.90000000e-01 
 6.00000000e-01  3.15688295e-09  3.28854036e-09  4.59292020e-01  3.39863046e-09  4.59292020e-01  4.59292020e-01  3.27268441e-09  1.61404214e-07  8.12239307e-08  6.00000000e-01 
 6.10000000e-01  3.15688295e-09  3.28854042e-09  4.59292037e-01  3.39863046e-09  4.59292036e-01  4.59292036e-01  3.27268441e-09  1.61404239e-07  8.12238454e-08  6.10000000e-01 
 6.20000000e-01  3.15688295e-09  3.28854042e-09  4.59292013e-01  3.39863052e-09  4.59292013e-01  4.59292013e-01  3.27268435e-09  1.61404192e-07  8.12237602e-08  6.20000000e-01 
 6.30000000e-01  3.15688301e-09  3.28854036e-09  4.59292039e-01  3.39863052e-09  4.59292039e-01  4.59292038e-01  3.27268435e-09  1.61404242e-07  8.12238028e-08  6.30000000e-01 
 6.40000000e-01  3.15688301e-09  3.28854036e-09  4.59292003e-01  3.39863051e-09  4.59292003e-01  4.59292003e-01  3.27268435e-09  1.61404190e-07  8.12236394e-08  6.40000000e-01 
 6.50000000e-01  3.15688295e-09  3.28854042e-09  4.59292000e-01  3.39863046e-09  4.59292000e-01  4.59292000e-01  3.27268435e-09  1.61404175e-07  8.12235044e-08  6.50000000e-01 
 6.60000000e-01  3.15688301e-09  3.28854036e-09  4.59291993e-01  3.39863046e-09  4.59291993e-01  4.59291993e-01  3.27268441e-09  1.61404171e-07  8.12234191e-08  6.60000000e-01 
 6.70000000e-01  3.15688295e-09  3.28854036e-09  4.59292028e-01  3.39863046e-09  4.59292028e-01  4.59292028e-01  3.27268441e-09  1.61404231e-07  8.12234831e-08  6.70000000e-01 
 6.80000000e-01  3.15688295e-09  3.28854036e-09  4.59292009e-01  3.39863051e-09  4.59292009e-01  4.59292009e-01  3.27268435e-09  1.61404184e-07  8.12233409e-08  6.80000000e-01 
 6.90000000e-01  3.15688295e-09  3.28854042e-09  4.59292005e-01  3.39863051e-09  4.59292005e-01  4.59292005e-01  3.27268441e-09  1.61404189e-07  8.12232059e-08  6.90000000e-01 
 7.00000000e-01  3.15688295e-09  3.28854036e-09  4.59292018e-01  3.39863052e-09  4.59292018e-01  4.59292018e-01  3.27268435e-09  1.61404211e-07  8.12232201e-08  7.00000000e-01 
 7.10000000e-01  3.15688295e-09  3.28854042e-09  4.59292024e-01  3.39863046e-09  4.59292024e-01  4.59292024e-01  3.27268441e-09  1.61404224e-07  8.12231349e-08  7.10000000e-01 
 7.20000000e-01  3.15688295e-09  3.28854036e-09  4.59292009e-01  3.39863051e-09  4.59292009e-01  4.59292009e-01  3.27268435e-09  1.61404207e-07  8.12231136e-08  7.20000000e-01 
 7.30000000e-01  3.15688295e-09  3.28854042e-09  4.59292039e-01  3.39863052e-09  4.59292039e-01  4.59292039e-01  3.27268441e-09  1.61404244e-07  8.12229715e-08  7.30000000e-01 
 7.40000000e-01  3.15688295e-09  3.28854036e-09  4.59292008e-01  3.39863046e-09  4.59292008e-01  4.59292008e-01  3.27268441e-09  1.61404199e-07  8.12229217e-08  7.40000000e-01 
 7.50000000e-01  3.15688301e-09  3.28854036e-09  4.59292020e-01  3.39863052e-09  4.59292020e-01  4.59292019e-01  3.27268435e-09  1.61404205e-07  8.12229288e-08  7.50000000e-01 
 7.60000000e-01  3.15688295e-09  3.28854042e-09  4.59292016e-01  3.39863046e-09  4.59292016e-01  4.59292016e-01  3.27268441e-09  1.61404212e-07  8.12228507e-08  7.60000000e-01 
 7.70000000e-01  3.15688295e-09  3.28854042e-09  4.59292028e-01  3.39863046e-09  4.59292028e-01  4.59292027e-01  3.27268435e-09  1.61404229e-07  8.12226872e-08  7.70000000e-01 
 7.80000000e-01  3.15688295e-09  3.28854042e-09  4.59292027e-01  3.39863052e-09  4.59292027e-01  4.59292027e-01  3.27268441e-09  1.61404215e-07  8.12226872e-08  7.80000000e-01 
 7.90000000e-01  3.15688301e-09  3.28854042e-09  4.59292023e-01  3.39863046e-09  4.59292023e-01  4.59292023e-01  3.27268441e-09  1.61404215e-07  8.12225949e-08  7.90000000e-01 
 8.00000000e-01  3.15688295e-09  3.28854042e-09  4.59292037e-01  3.39863046e-09  4.59292037e-01  4.59292037e-01  3.27268441e-09  1.61404247e-07  8.12224030e-08  8.00000000e-01 
 8.10000000e-01  3.15688295e-09  3.28854042e-09  4.59292018e-01  3.39863046e-09  4.59292018e-01  4.59292018e-01  3.27268441e-09  1.61404200e-07  8.12223604e-08  8.10000000e-01 
 8.20000000e-01  3.15688295e-09  3.28854036e-09  4.59292009e-01  3.39863046e-09  4.59292009e-01  4.59292009e-01  3.27268441e-09  1.61404199e-07  8.12223533e-08  8.20000000e-01 
 8.30000000e-01  3.15688301e-09  3.28854042e-09  4.59292018e-01  3.39863046e-09  4.59292018e-01  4.59292018e-01  3.27268435e-09  1.61404223e-07  8.12224528e-08  8.30000000e-01 
 8.40000000e-01  3.15688295e-09  3.28854042e-09  4.59292003e-01  3.39863046e-09  4.59292003e-01  4.59292003e-01  3.27268441e-09  1.61404183e-07  8.12222325e-08  8.40000000e-01 
 8.50000000e-01  3.15688295e-09  3.28854036e-09  4.59292038e-01  3.39863052e-09  4.59292038e-01  4.59292038e-01  3.27268441e-09  1.61404247e-07  8.12222680e-08  8.50000000e-01 
 8.60000000e-01  3.15688295e-09  3.28854042e-09  4.59292006e-01  3.39863046e-09  4.59292006e-01  4.59292006e-01  3.27268435e-09  1.61404187e-07  8.12221543e-08  8.60000000e-01 
 8.70000000e-01  3.15688301e-09  3.28854036e-09  4.59292009e-01  3.39863051e-09  4.59292009e-01  4.59292009e-01  3.27268441e-09  1.61404193e-07  8.12220335e-08  8.70000000e-01 
 8.80000000e-01  3.15688295e-09  3.28854036e-09  4.59292026e-01  3.39863046e-09  4.59292026e-01  4.59292026e-01  3.27268435e-09  1.61404227e-07  8.12220264e-08  8.80000000e-01 
 8.90000000e-01  3.15688301e-09  3.28854042e-09  4.59292023e-01  3.39863052e-09  4.59292023e-01  4.59292023e-01  3.27268441e-09  1.61404211e-07  8.12219412e-08  8.90000000e-01 
 9.00000000e-01  3.15688295e-09  3.28854036e-09  4.59292028e-01  3.39863046e-09  4.59292028e-01  4.59292027e-01  3.27268435e-09  1.61404236e-07  8.12218772e-08  9.00000000e-01 
 9.10000000e-01  3.15688295e-09  3.28854042e-09  4.59292056e-01  3.39863052e-09  4.59292056e-01  4.59292056e-01  3.27268441e-09  1.61404268e-07  8.12218417e-08  9.10000000e-01 
 9.20000000e-01  3.15688295e-09  3.28854042e-09  4.59292034e-01  3.39863052e-09  4.59292034e-01  4.59292034e-01  3.27268435e-09  1.61404221e-07  8.12216570e-08  9.20000000e-01 
 9.30000000e-01  3.15688295e-09  3.28854036e-09  4.59292031e-01  3.39863052e-09  4.59292031e-01  4.59292030e-01  3.27268435e-09  1.61404230e-07  8.12216712e-08  9.30000000e-01 
 9.40000000e-01  3.15688295e-09  3.28854036e-09  4.59292022e-01  3.39863046e-09  4.59292022e-01  4.59292022e-01  3.27268435e-09  1.61404217e-07  8.12215433e-08  9.40000000e-01 
 9.50000000e-01  3.15688301e-09  3.28854042e-09  4.59292020e-01  3.39863046e-09  4.59292020e-01  4.59292020e-01  3.27268441e-09  1.61404232e-07  8.12214580e-08  9.50000000e-01 
 9.60000000e-01  3.15688295e-09  3.28854036e-09  4.59292031e-01  3.39863052e-09  4.59292031e-01  4.59292031e-01  3.27268435e-09  1.61404220e-07  8.12213941e-08  9.60000000e-01 
 9.70000000e-01  3.15688295e-09  3.28854042e-09  4.59292008e-01  3.39863051e-09  4.59292008e-01  4.59292008e-01  3.27268441e-09  1.61404204e-07  8.12213585e-08  9.70000000e-01 
 9.80000000e-01  3.15688301e-09  3.28854042e-09  4.59292034e-01  3.39863052e-09  4.59292034e-01  4.59292034e-01  3.27268435e-09  1.61404227e-07  8.12212377e-08  9.80000000e-01 
 9.90000000e-01  3.15688301e-09  3.28854036e-09  4.59292037e-01  3.39863052e-09  4.59292037e-01  4.59292037e-01  3.27268441e-09  1.61404226e-07  8.12211667e-08  9.90000000e-01 
 1.00000000e+00  3.15688295e-09  3.28854036e-09  4.59292014e-01  3.39863052e-09  4.59292014e-01  4.59292013e-01  3.27268441e-09  1.61404197e-07  8.12210956e-08  1.00000000e+00 
 1.01000000e+00  3.15688295e-09  3.28854042e-09  4.59292009e-01  3.39863051e-09  4.59292009e-01  4.59292009e-01  3.27268441e-09  1.61404204e-07  8.12210601e-08  1.01000000e+00 
 1.02000000e+00  3.15688295e-09  3.28854042e-09  4.59292013e-01  3.39863046e-09  4.59292013e-01  4.59292013e-01  3.27268435e-09  1.61404202e-07  8.12209109e-08  1.02000000e+00 
 1.03000000e+00  3.15688301e-09  3.28854042e-09  4.59292016e-01  3.39863046e-09  4.59292016e-01  4.59292016e-01  3.27268441e-09  1.61404205e-07  8.12207546e-08  1.03000000e+00 
 1.04000000e+00  3.15688295e-09  3.28854036e-09  4.59292036e-01  3.39863052e-09  4.59292036e-01  4.59292036e-01  3.27268435e-09  1.61404249e-07  8.12207404e-08  1.04000000e+00 
 1.05000000e+00  3.15688295e-09  3.28854036e-09  4.59292037e-01  3.39863052e-09  4.59292037e-01  4.59292037e-01  3.27268435e-09  1.61404234e-07  8.12208185e-08  1.05000000e+00 
 1.06000000e+00  3.15688295e-09  3.28854042e-09  4.59292011e-01  3.39863052e-09  4.59292011e-01  4.59292011e-01  3.27268435e-09  1.61404194e-07  8.12206125e-08  1.06000000e+00 
 1.07000000e+00  3.15688301e-09  3.28854042e-09  4.59292012e-01  3.39863046e-09  4.59292012e-01  4.59292011e-01  3.27268435e-09  1.61404193e-07  8.12205272e-08  1.07000000e+00 
 1.08000000e+00  3.15688295e-09  3.28854036e-09  4.59292021e-01  3.39863046e-09  4.59292021e-01  4.59292021e-01  3.27268441e-09  1.61404215e-07  8.12205911e-08  1.08000000e+00 
 1.09000000e+00  3.15688295e-09  3.28854042e-09  4.59292024e-01  3.39863046e-09  4.59292024e-01  4.59292024e-01  3.27268441e-09  1.61404213e-07  8.12204632e-08  1.09000000e+00 
 1.10000000e+00  3.15688295e-09  3.28854036e-09  4.59292009e-01  3.39863046e-09  4.59292009e-01  4.59292009e-01  3.27268435e-09  1.61404191e-07  8.12203638e-08  1.10000000e+00 
