 v-sweep         v(b0)           v(b1)           v(b2)           v(b3)           v(b4)           v(b5)           v(b6)           i(vbias)        i(viout)        v(vout)        
 0.00000000e+00  3.33798923e-09  4.58971714e-01  4.58971714e-01  4.58971714e-01  3.31871919e-09  3.18809694e-09  3.18334134e-09  1.60346397e-07  2.01864630e-08  0.00000000e+00 
 1.00000000e-02  3.33798927e-09  4.58971709e-01  4.58971709e-01  4.58971709e-01  3.31871923e-09  3.18809692e-09  3.18334132e-09  1.60346381e-07  2.01860866e-08  1.00000000e-02 
 2.00000000e-02  3.33798927e-09  4.58971706e-01  4.58971706e-01  4.58971706e-01  3.31871921e-09  3.18809697e-09  3.18334138e-09  1.60346377e-07  2.01857375e-08  2.00000000e-02 
 3.00000000e-02  3.33798927e-09  4.58971733e-01  4.58971732e-01  4.58971733e-01  3.31871917e-09  3.18809696e-09  3.18334136e-09  1.60346420e-07  2.01852617e-08  3.00000000e-02 
 4.00000000e-02  3.33798922e-09  4.58971723e-01  4.58971723e-01  4.58971723e-01  3.31871918e-09  3.18809697e-09  3.18334138e-09  1.60346417e-07  2.01849399e-08  4.00000000e-02 
 5.00000000e-02  3.33798927e-09  4.58971721e-01  4.58971721e-01  4.58971721e-01  3.31871917e-09  3.18809697e-09  3.18334136e-09  1.60346403e-07  2.01846371e-08  5.00000000e-02 
 6.00000000e-02  3.33798927e-09  4.58971725e-01  4.58971724e-01  4.58971725e-01  3.31871917e-09  3.18809697e-09  3.18334138e-09  1.60346427e-07  2.01844226e-08  6.00000000e-02 
 7.00000000e-02  3.33798922e-09  4.58971705e-01  4.58971705e-01  4.58971705e-01  3.31871917e-09  3.18809697e-09  3.18334136e-09  1.60346386e-07  2.01840140e-08  7.00000000e-02 
 8.00000000e-02  3.33798927e-09  4.58971720e-01  4.58971720e-01  4.58971720e-01  3.31871923e-09  3.18809697e-09  3.18334138e-09  1.60346408e-07  2.01837667e-08  8.00000000e-02 
 9.00000000e-02  3.33798927e-09  4.58971722e-01  4.58971722e-01  4.58971722e-01  3.31871921e-09  3.18809697e-09  3.18334131e-09  1.60346401e-07  2.01835926e-08  9.00000000e-02 
 1.00000000e-01  3.33798922e-09  4.58971715e-01  4.58971715e-01  4.58971715e-01  3.31871916e-09  3.18809691e-09  3.18334133e-09  1.60346400e-07  2.01832142e-08  1.00000000e-01 
 1.10000000e-01  3.33798927e-09  4.58971726e-01  4.58971726e-01  4.58971726e-01  3.31871918e-09  3.18809698e-09  3.18334138e-09  1.60346414e-07  2.01829016e-08  1.10000000e-01 
 1.20000000e-01  3.33798927e-09  4.58971698e-01  4.58971698e-01  4.58971698e-01  3.31871917e-09  3.18809696e-09  3.18334136e-09  1.60346362e-07  2.01828048e-08  1.20000000e-01 
 1.30000000e-01  3.33798927e-09  4.58971733e-01  4.58971733e-01  4.58971733e-01  3.31871917e-09  3.18809697e-09  3.18334133e-09  1.60346407e-07  2.01825916e-08  1.30000000e-01 
 1.40000000e-01  3.33798927e-09  4.58971705e-01  4.58971705e-01  4.58971705e-01  3.31871917e-09  3.18809691e-09  3.18334138e-09  1.60346386e-07  2.01823367e-08  1.40000000e-01 
 1.50000000e-01  3.33798927e-09  4.58971724e-01  4.58971723e-01  4.58971724e-01  3.31871917e-09  3.18809692e-09  3.18334136e-09  1.60346404e-07  2.01823056e-08  1.50000000e-01 
 1.60000000e-01  3.33798922e-09  4.58971733e-01  4.58971733e-01  4.58971733e-01  3.31871923e-09  3.18809698e-09  3.18334138e-09  1.60346423e-07  2.01820374e-08  1.60000000e-01 
 1.70000000e-01  3.33798927e-09  4.58971745e-01  4.58971745e-01  4.58971745e-01  3.31871922e-09  3.18809696e-09  3.18334136e-09  1.60346442e-07  2.01817443e-08  1.70000000e-01 
 1.80000000e-01  3.33798927e-09  4.58971698e-01  4.58971698e-01  4.58971698e-01  3.31871916e-09  3.18809697e-09  3.18334133e-09  1.60346369e-07  2.01816430e-08  1.80000000e-01 
 1.90000000e-01  3.33798922e-09  4.58971715e-01  4.58971714e-01  4.58971715e-01  3.31871918e-09  3.18809691e-09  3.18334132e-09  1.60346392e-07  2.01815027e-08  1.90000000e-01 
 2.00000000e-01  3.33798927e-09  4.58971721e-01  4.58971721e-01  4.58971721e-01  3.31871917e-09  3.18809692e-09  3.18334132e-09  1.60346390e-07  2.01812416e-08  2.00000000e-01 
 2.10000000e-01  3.33798927e-09  4.58971722e-01  4.58971722e-01  4.58971722e-01  3.31871917e-09  3.18809697e-09  3.18334138e-09  1.60346414e-07  2.01811243e-08  2.10000000e-01 
 2.20000000e-01  3.33798922e-09  4.58971725e-01  4.58971725e-01  4.58971725e-01  3.31871917e-09  3.18809696e-09  3.18334136e-09  1.60346398e-07  2.01811208e-08  2.20000000e-01 
 2.30000000e-01  3.33798927e-09  4.58971710e-01  4.58971710e-01  4.58971710e-01  3.31871917e-09  3.18809697e-09  3.18334138e-09  1.60346373e-07  2.01808383e-08  2.30000000e-01 
 2.40000000e-01  3.33798927e-09  4.58971699e-01  4.58971699e-01  4.58971699e-01  3.31871923e-09  3.18809697e-09  3.18334131e-09  1.60346378e-07  2.01807548e-08  2.40000000e-01 
 2.50000000e-01  3.33798927e-09  4.58971733e-01  4.58971733e-01  4.58971733e-01  3.31871922e-09  3.18809697e-09  3.18334133e-09  1.60346426e-07  2.01805754e-08  2.50000000e-01 
 2.60000000e-01  3.33798922e-09  4.58971721e-01  4.58971721e-01  4.58971721e-01  3.31871916e-09  3.18809697e-09  3.18334138e-09  1.60346400e-07  2.01804582e-08  2.60000000e-01 
 2.70000000e-01  3.33798927e-09  4.58971734e-01  4.58971734e-01  4.58971734e-01  3.31871918e-09  3.18809697e-09  3.18334131e-09  1.60346409e-07  2.01804156e-08  2.70000000e-01 
 2.80000000e-01  3.33798922e-09  4.58971739e-01  4.58971739e-01  4.58971739e-01  3.31871917e-09  3.18809697e-09  3.18334133e-09  1.60346428e-07  2.01804244e-08  2.80000000e-01 
 2.90000000e-01  3.33798927e-09  4.58971732e-01  4.58971732e-01  4.58971732e-01  3.31871917e-09  3.18809697e-09  3.18334132e-09  1.60346418e-07  2.01801633e-08  2.90000000e-01 
 3.00000000e-01  3.33798922e-09  4.58971700e-01  4.58971700e-01  4.58971700e-01  3.31871923e-09  3.18809691e-09  3.18334138e-09  1.60346374e-07  2.01801633e-08  3.00000000e-01 
 3.10000000e-01  3.33798927e-09  4.58971742e-01  4.58971742e-01  4.58971742e-01  3.31871922e-09  3.18809698e-09  3.18334136e-09  1.60346425e-07  2.01799359e-08  3.10000000e-01 
 3.20000000e-01  3.33798922e-09  4.58971733e-01  4.58971733e-01  4.58971733e-01  3.31871917e-09  3.18809696e-09  3.18334138e-09  1.60346424e-07  2.01797938e-08  3.20000000e-01 
 3.30000000e-01  3.33798927e-09  4.58971724e-01  4.58971724e-01  4.58971724e-01  3.31871918e-09  3.18809691e-09  3.18334131e-09  1.60346409e-07  2.01798542e-08  3.30000000e-01 
 3.40000000e-01  3.33798927e-09  4.58971729e-01  4.58971728e-01  4.58971728e-01  3.31871917e-09  3.18809692e-09  3.18334133e-09  1.60346418e-07  2.01796588e-08  3.40000000e-01 
 3.50000000e-01  3.33798927e-09  4.58971706e-01  4.58971705e-01  4.58971706e-01  3.31871917e-09  3.18809697e-09  3.18334138e-09  1.60346369e-07  2.01796482e-08  3.50000000e-01 
 3.60000000e-01  3.33798927e-09  4.58971721e-01  4.58971720e-01  4.58971721e-01  3.31871917e-09  3.18809696e-09  3.18334136e-09  1.60346395e-07  2.01796446e-08  3.60000000e-01 
 3.70000000e-01  3.33798927e-09  4.58971744e-01  4.58971743e-01  4.58971744e-01  3.31871917e-09  3.18809691e-09  3.18334133e-09  1.60346433e-07  2.01794421e-08  3.70000000e-01 
 3.80000000e-01  3.33798927e-09  4.58971720e-01  4.58971720e-01  4.58971720e-01  3.31871923e-09  3.18809698e-09  3.18334138e-09  1.60346411e-07  2.01794030e-08  3.80000000e-01 
 3.90000000e-01  3.33798927e-09  4.58971717e-01  4.58971716e-01  4.58971717e-01  3.31871921e-09  3.18809696e-09  3.18334131e-09  1.60346397e-07  2.01793426e-08  3.90000000e-01 
 4.00000000e-01  3.33798927e-09  4.58971722e-01  4.58971721e-01  4.58971722e-01  3.31871922e-09  3.18809697e-09  3.18334133e-09  1.60346401e-07  2.01792609e-08  4.00000000e-01 
 4.10000000e-01  3.33798922e-09  4.58971716e-01  4.58971716e-01  4.58971716e-01  3.31871922e-09  3.18809697e-09  3.18334132e-09  1.60346398e-07  2.01791863e-08  4.10000000e-01 
 4.20000000e-01  3.33798927e-09  4.58971726e-01  4.58971726e-01  4.58971726e-01  3.31871922e-09  3.18809697e-09  3.18334138e-09  1.60346407e-07  2.01791579e-08  4.20000000e-01 
 4.30000000e-01  3.33798927e-09  4.58971733e-01  4.58971733e-01  4.58971733e-01  3.31871917e-09  3.18809691e-09  3.18334136e-09  1.60346421e-07  2.01789696e-08  4.30000000e-01 
 4.40000000e-01  3.33798927e-09  4.58971719e-01  4.58971719e-01  4.58971719e-01  3.31871918e-09  3.18809692e-09  3.18334138e-09  1.60346409e-07  2.01789199e-08  4.40000000e-01 
 4.50000000e-01  3.33798927e-09  4.58971712e-01  4.58971712e-01  4.58971712e-01  3.31871923e-09  3.18809697e-09  3.18334131e-09  1.60346394e-07  2.01788986e-08  4.50000000e-01 
 4.60000000e-01  3.33798922e-09  4.58971722e-01  4.58971722e-01  4.58971722e-01  3.31871916e-09  3.18809696e-09  3.18334133e-09  1.60346399e-07  2.01788168e-08  4.60000000e-01 
 4.70000000e-01  3.33798927e-09  4.58971721e-01  4.58971721e-01  4.58971721e-01  3.31871918e-09  3.18809691e-09  3.18334138e-09  1.60346414e-07  2.01787707e-08  4.70000000e-01 
 4.80000000e-01  3.33798922e-09  4.58971723e-01  4.58971723e-01  4.58971723e-01  3.31871923e-09  3.18809698e-09  3.18334136e-09  1.60346410e-07  2.01786925e-08  4.80000000e-01 
 4.90000000e-01  3.33798927e-09  4.58971717e-01  4.58971717e-01  4.58971717e-01  3.31871921e-09  3.18809696e-09  3.18334138e-09  1.60346398e-07  2.01787849e-08  4.90000000e-01 
 5.00000000e-01  3.33798927e-09  4.58971727e-01  4.58971727e-01  4.58971727e-01  3.31871922e-09  3.18809697e-09  3.18334136e-09  1.60346415e-07  2.01786037e-08  5.00000000e-01 
 5.10000000e-01  3.33798927e-09  4.58971742e-01  4.58971742e-01  4.58971742e-01  3.31871922e-09  3.18809697e-09  3.18334138e-09  1.60346441e-07  2.01784971e-08  5.10000000e-01 
 5.20000000e-01  3.33798922e-09  4.58971719e-01  4.58971719e-01  4.58971719e-01  3.31871916e-09  3.18809697e-09  3.18334136e-09  1.60346400e-07  2.01784403e-08  5.20000000e-01 
 5.30000000e-01  3.33798927e-09  4.58971732e-01  4.58971732e-01  4.58971732e-01  3.31871918e-09  3.18809697e-09  3.18334133e-09  1.60346413e-07  2.01784260e-08  5.30000000e-01 
 5.40000000e-01  3.33798922e-09  4.58971758e-01  4.58971758e-01  4.58971758e-01  3.31871917e-09  3.18809691e-09  3.18334138e-09  1.60346452e-07  2.01785006e-08  5.40000000e-01 
 5.50000000e-01  3.33798927e-09  4.58971719e-01  4.58971719e-01  4.58971719e-01  3.31871917e-09  3.18809692e-09  3.18334136e-09  1.60346404e-07  2.01783266e-08  5.50000000e-01 
 5.60000000e-01  3.33798927e-09  4.58971729e-01  4.58971728e-01  4.58971729e-01  3.31871917e-09  3.18809697e-09  3.18334133e-09  1.60346422e-07  2.01782342e-08  5.60000000e-01 
 5.70000000e-01  3.33798927e-09  4.58971690e-01  4.58971689e-01  4.58971690e-01  3.31871917e-09  3.18809696e-09  3.18334132e-09  1.60346349e-07  2.01781774e-08  5.70000000e-01 
 5.80000000e-01  3.33798922e-09  4.58971709e-01  4.58971709e-01  4.58971709e-01  3.31871917e-09  3.18809697e-09  3.18334132e-09  1.60346385e-07  2.01782626e-08  5.80000000e-01 
 5.90000000e-01  3.33798927e-09  4.58971722e-01  4.58971722e-01  4.58971722e-01  3.31871917e-09  3.18809697e-09  3.18334138e-09  1.60346407e-07  2.01782129e-08  5.90000000e-01 
 6.00000000e-01  3.33798927e-09  4.58971744e-01  4.58971743e-01  4.58971744e-01  3.31871917e-09  3.18809697e-09  3.18334136e-09  1.60346432e-07  2.01780566e-08  6.00000000e-01 
 6.10000000e-01  3.33798922e-09  4.58971730e-01  4.58971730e-01  4.58971730e-01  3.31871917e-09  3.18809697e-09  3.18334138e-09  1.60346410e-07  2.01780566e-08  6.10000000e-01 
 6.20000000e-01  3.33798927e-09  4.58971739e-01  4.58971739e-01  4.58971739e-01  3.31871917e-09  3.18809697e-09  3.18334136e-09  1.60346428e-07  2.01781063e-08  6.20000000e-01 
 6.30000000e-01  3.33798922e-09  4.58971721e-01  4.58971721e-01  4.58971721e-01  3.31871917e-09  3.18809691e-09  3.18334138e-09  1.60346400e-07  2.01778860e-08  6.30000000e-01 
 6.40000000e-01  3.33798922e-09  4.58971741e-01  4.58971741e-01  4.58971741e-01  3.31871917e-09  3.18809698e-09  3.18334136e-09  1.60346435e-07  2.01779287e-08  6.40000000e-01 
 6.50000000e-01  3.33798927e-09  4.58971720e-01  4.58971720e-01  4.58971720e-01  3.31871917e-09  3.18809696e-09  3.18334133e-09  1.60346394e-07  2.01778860e-08  6.50000000e-01 
 6.60000000e-01  3.33798927e-09  4.58971729e-01  4.58971728e-01  4.58971729e-01  3.31871917e-09  3.18809697e-09  3.18334132e-09  1.60346417e-07  2.01778221e-08  6.60000000e-01 
 6.70000000e-01  3.33798927e-09  4.58971726e-01  4.58971725e-01  4.58971726e-01  3.31871923e-09  3.18809697e-09  3.18334132e-09  1.60346408e-07  2.01777084e-08  6.70000000e-01 
 6.80000000e-01  3.33798927e-09  4.58971724e-01  4.58971724e-01  4.58971724e-01  3.31871916e-09  3.18809697e-09  3.18334132e-09  1.60346397e-07  2.01776729e-08  6.80000000e-01 
 6.90000000e-01  3.33798927e-09  4.58971736e-01  4.58971736e-01  4.58971736e-01  3.31871918e-09  3.18809697e-09  3.18334138e-09  1.60346411e-07  2.01777297e-08  6.90000000e-01 
 7.00000000e-01  3.33798922e-09  4.58971723e-01  4.58971723e-01  4.58971723e-01  3.31871917e-09  3.18809697e-09  3.18334131e-09  1.60346410e-07  2.01776231e-08  7.00000000e-01 
 7.10000000e-01  3.33798927e-09  4.58971731e-01  4.58971731e-01  4.58971731e-01  3.31871917e-09  3.18809697e-09  3.18334133e-09  1.60346423e-07  2.01775876e-08  7.10000000e-01 
 7.20000000e-01  3.33798927e-09  4.58971729e-01  4.58971729e-01  4.58971729e-01  3.31871917e-09  3.18809697e-09  3.18334132e-09  1.60346410e-07  2.01774242e-08  7.20000000e-01 
 7.30000000e-01  3.33798927e-09  4.58971743e-01  4.58971743e-01  4.58971743e-01  3.31871917e-09  3.18809691e-09  3.18334138e-09  1.60346436e-07  2.01773744e-08  7.30000000e-01 
 7.40000000e-01  3.33798921e-09  4.58971689e-01  4.58971689e-01  4.58971689e-01  3.31871917e-09  3.18809698e-09  3.18334136e-09  1.60346370e-07  2.01772679e-08  7.40000000e-01 
 7.50000000e-01  3.33798922e-09  4.58971733e-01  4.58971733e-01  4.58971733e-01  3.31871917e-09  3.18809696e-09  3.18334133e-09  1.60346423e-07  2.01773247e-08  7.50000000e-01 
 7.60000000e-01  3.33798927e-09  4.58971730e-01  4.58971730e-01  4.58971730e-01  3.31871917e-09  3.18809697e-09  3.18334138e-09  1.60346420e-07  2.01774171e-08  7.60000000e-01 
 7.70000000e-01  3.33798922e-09  4.58971716e-01  4.58971716e-01  4.58971716e-01  3.31871917e-09  3.18809697e-09  3.18334131e-09  1.60346395e-07  2.01771471e-08  7.70000000e-01 
 7.80000000e-01  3.33798922e-09  4.58971722e-01  4.58971722e-01  4.58971722e-01  3.31871917e-09  3.18809697e-09  3.18334138e-09  1.60346404e-07  2.01770831e-08  7.80000000e-01 
 7.90000000e-01  3.33798927e-09  4.58971713e-01  4.58971713e-01  4.58971713e-01  3.31871917e-09  3.18809697e-09  3.18334136e-09  1.60346385e-07  2.01771115e-08  7.90000000e-01 
 8.00000000e-01  3.33798927e-09  4.58971711e-01  4.58971711e-01  4.58971711e-01  3.31871917e-09  3.18809697e-09  3.18334138e-09  1.60346392e-07  2.01770831e-08  8.00000000e-01 
 8.10000000e-01  3.33798922e-09  4.58971731e-01  4.58971730e-01  4.58971731e-01  3.31871917e-09  3.18809697e-09  3.18334136e-09  1.60346413e-07  2.01770121e-08  8.10000000e-01 
 8.20000000e-01  3.33798927e-09  4.58971703e-01  4.58971702e-01  4.58971703e-01  3.31871917e-09  3.18809691e-09  3.18334133e-09  1.60346386e-07  2.01770192e-08  8.20000000e-01 
 8.30000000e-01  3.33798927e-09  4.58971749e-01  4.58971749e-01  4.58971749e-01  3.31871917e-09  3.18809693e-09  3.18334138e-09  1.60346444e-07  2.01769907e-08  8.30000000e-01 
 8.40000000e-01  3.33798922e-09  4.58971711e-01  4.58971711e-01  4.58971711e-01  3.31871917e-09  3.18809692e-09  3.18334136e-09  1.60346390e-07  2.01768344e-08  8.40000000e-01 
 8.50000000e-01  3.33798927e-09  4.58971715e-01  4.58971715e-01  4.58971715e-01  3.31871917e-09  3.18809697e-09  3.18334138e-09  1.60346398e-07  2.01767492e-08  8.50000000e-01 
 8.60000000e-01  3.33798927e-09  4.58971714e-01  4.58971714e-01  4.58971714e-01  3.31871917e-09  3.18809696e-09  3.18334136e-09  1.60346395e-07  2.01767065e-08  8.60000000e-01 
 8.70000000e-01  3.33798927e-09  4.58971736e-01  4.58971736e-01  4.58971736e-01  3.31871917e-09  3.18809691e-09  3.18334133e-09  1.60346431e-07  2.01767278e-08  8.70000000e-01 
 8.80000000e-01  3.33798922e-09  4.58971706e-01  4.58971706e-01  4.58971706e-01  3.31871917e-09  3.18809698e-09  3.18334138e-09  1.60346377e-07  2.01765644e-08  8.80000000e-01 
 8.90000000e-01  3.33798927e-09  4.58971735e-01  4.58971735e-01  4.58971735e-01  3.31871917e-09  3.18809696e-09  3.18334136e-09  1.60346418e-07  2.01765573e-08  8.90000000e-01 
 9.00000000e-01  3.33798927e-09  4.58971735e-01  4.58971735e-01  4.58971735e-01  3.31871917e-09  3.18809697e-09  3.18334138e-09  1.60346413e-07  2.01765218e-08  9.00000000e-01 
 9.10000000e-01  3.33798922e-09  4.58971718e-01  4.58971718e-01  4.58971718e-01  3.31871917e-09  3.18809697e-09  3.18334131e-09  1.60346388e-07  2.01765786e-08  9.10000000e-01 
 9.20000000e-01  3.33798922e-09  4.58971712e-01  4.58971712e-01  4.58971712e-01  3.31871917e-09  3.18809697e-09  3.18334138e-09  1.60346400e-07  2.01763868e-08  9.20000000e-01 
 9.30000000e-01  3.33798927e-09  4.58971713e-01  4.58971713e-01  4.58971713e-01  3.31871917e-09  3.18809697e-09  3.18334131e-09  1.60346386e-07  2.01763370e-08  9.30000000e-01 
 9.40000000e-01  3.33798927e-09  4.58971733e-01  4.58971733e-01  4.58971733e-01  3.31871917e-09  3.18809697e-09  3.18334138e-09  1.60346429e-07  2.01762660e-08  9.40000000e-01 
 9.50000000e-01  3.33798927e-09  4.58971713e-01  4.58971713e-01  4.58971713e-01  3.31871917e-09  3.18809697e-09  3.18334136e-09  1.60346388e-07  2.01762802e-08  9.50000000e-01 
 9.60000000e-01  3.33798927e-09  4.58971717e-01  4.58971717e-01  4.58971717e-01  3.31871917e-09  3.18809697e-09  3.18334138e-09  1.60346403e-07  2.01761168e-08  9.60000000e-01 
 9.70000000e-01  3.33798922e-09  4.58971730e-01  4.58971730e-01  4.58971730e-01  3.31871917e-09  3.18809697e-09  3.18334136e-09  1.60346412e-07  2.01761594e-08  9.70000000e-01 
 9.80000000e-01  3.33798927e-09  4.58971723e-01  4.58971723e-01  4.58971723e-01  3.31871923e-09  3.18809697e-09  3.18334133e-09  1.60346413e-07  2.01761523e-08  9.80000000e-01 
 9.90000000e-01  3.33798927e-09  4.58971727e-01  4.58971726e-01  4.58971727e-01  3.31871916e-09  3.18809697e-09  3.18334132e-09  1.60346405e-07  2.01759960e-08  9.90000000e-01 
 1.00000000e+00  3.33798927e-09  4.58971702e-01  4.58971702e-01  4.58971702e-01  3.31871917e-09  3.18809697e-09  3.18334138e-09  1.60346374e-07  2.01760173e-08  1.00000000e+00 
 1.01000000e+00  3.33798927e-09  4.58971724e-01  4.58971724e-01  4.58971724e-01  3.31871917e-09  3.18809697e-09  3.18334136e-09  1.60346404e-07  2.01759534e-08  1.01000000e+00 
 1.02000000e+00  3.33798927e-09  4.58971717e-01  4.58971717e-01  4.58971717e-01  3.31871917e-09  3.18809697e-09  3.18334138e-09  1.60346400e-07  2.01758610e-08  1.02000000e+00 
 1.03000000e+00  3.33798922e-09  4.58971717e-01  4.58971717e-01  4.58971717e-01  3.31871923e-09  3.18809691e-09  3.18334136e-09  1.60346406e-07  2.01757757e-08  1.03000000e+00 
 1.04000000e+00  3.33798927e-09  4.58971717e-01  4.58971717e-01  4.58971717e-01  3.31871921e-09  3.18809692e-09  3.18334133e-09  1.60346396e-07  2.01757118e-08  1.04000000e+00 
 1.05000000e+00  3.33798927e-09  4.58971727e-01  4.58971727e-01  4.58971727e-01  3.31871922e-09  3.18809692e-09  3.18334138e-09  1.60346425e-07  2.01757899e-08  1.05000000e+00 
 1.06000000e+00  3.33798922e-09  4.58971716e-01  4.58971716e-01  4.58971716e-01  3.31871916e-09  3.18809697e-09  3.18334136e-09  1.60346396e-07  2.01756833e-08  1.06000000e+00 
 1.07000000e+00  3.33798927e-09  4.58971717e-01  4.58971717e-01  4.58971717e-01  3.31871918e-09  3.18809696e-09  3.18334138e-09  1.60346402e-07  2.01755768e-08  1.07000000e+00 
 1.08000000e+00  3.33798927e-09  4.58971724e-01  4.58971724e-01  4.58971724e-01  3.31871917e-09  3.18809697e-09  3.18334131e-09  1.60346410e-07  2.01755768e-08  1.08000000e+00 
 1.09000000e+00  3.33798922e-09  4.58971704e-01  4.58971704e-01  4.58971704e-01  3.31871917e-09  3.18809697e-09  3.18334133e-09  1.60346371e-07  2.01755697e-08  1.09000000e+00 
 1.10000000e+00  3.33798927e-09  4.58971733e-01  4.58971733e-01  4.58971733e-01  3.31871917e-09  3.18809697e-09  3.18334132e-09  1.60346424e-07  2.01755839e-08  1.10000000e+00 
