 v-sweep         v(b0)           v(b1)           v(b2)           v(b3)           v(b4)           v(b5)           v(b6)           i(vbias)        i(viout)        v(vout)        
 0.00000000e+00  3.27092294e-09  3.65542267e-09  4.57665327e-01  4.57665327e-01  3.25626831e-09  4.57665327e-01  3.58309931e-09  1.58881498e-07  6.65138098e-08  0.00000000e+00 
 1.00000000e-02  3.27092291e-09  3.65542270e-09  4.57665314e-01  4.57665314e-01  3.25626834e-09  4.57665314e-01  3.58309935e-09  1.58881500e-07  6.65133193e-08  1.00000000e-02 
 2.00000000e-02  3.27092285e-09  3.65542270e-09  4.57665309e-01  4.57665309e-01  3.25626833e-09  4.57665309e-01  3.58309929e-09  1.58881486e-07  6.65129614e-08  2.00000000e-02 
 3.00000000e-02  3.27092292e-09  3.65542270e-09  4.57665320e-01  4.57665319e-01  3.25626835e-09  4.57665320e-01  3.58309929e-09  1.58881495e-07  6.65125710e-08  3.00000000e-02 
 4.00000000e-02  3.27092290e-09  3.65542271e-09  4.57665331e-01  4.57665331e-01  3.25626833e-09  4.57665331e-01  3.58309929e-09  1.58881520e-07  6.65122610e-08  4.00000000e-02 
 5.00000000e-02  3.27092286e-09  3.65542270e-09  4.57665320e-01  4.57665320e-01  3.25626835e-09  4.57665321e-01  3.58309929e-09  1.58881508e-07  6.65119266e-08  5.00000000e-02 
 6.00000000e-02  3.27092292e-09  3.65542271e-09  4.57665338e-01  4.57665338e-01  3.25626833e-09  4.57665338e-01  3.58309929e-09  1.58881536e-07  6.65116251e-08  6.00000000e-02 
 7.00000000e-02  3.27092290e-09  3.65542271e-09  4.57665335e-01  4.57665335e-01  3.25626835e-09  4.57665335e-01  3.58309935e-09  1.58881520e-07  6.65113373e-08  7.00000000e-02 
 8.00000000e-02  3.27092292e-09  3.65542270e-09  4.57665318e-01  4.57665318e-01  3.25626833e-09  4.57665318e-01  3.58309935e-09  1.58881504e-07  6.65109994e-08  8.00000000e-02 
 9.00000000e-02  3.27092290e-09  3.65542271e-09  4.57665340e-01  4.57665340e-01  3.25626835e-09  4.57665340e-01  3.58309929e-09  1.58881532e-07  6.65107542e-08  9.00000000e-02 
 1.00000000e-01  3.27092292e-09  3.65542271e-09  4.57665337e-01  4.57665337e-01  3.25626833e-09  4.57665337e-01  3.58309935e-09  1.58881525e-07  6.65103723e-08  1.00000000e-01 
 1.10000000e-01  3.27092290e-09  3.65542271e-09  4.57665340e-01  4.57665340e-01  3.25626835e-09  4.57665340e-01  3.58309935e-09  1.58881523e-07  6.65104301e-08  1.10000000e-01 
 1.20000000e-01  3.27092292e-09  3.65542271e-09  4.57665329e-01  4.57665329e-01  3.25626833e-09  4.57665329e-01  3.58309935e-09  1.58881507e-07  6.65101103e-08  1.20000000e-01 
 1.30000000e-01  3.27092290e-09  3.65542270e-09  4.57665316e-01  4.57665316e-01  3.25626835e-09  4.57665316e-01  3.58309935e-09  1.58881506e-07  6.65097142e-08  1.30000000e-01 
 1.40000000e-01  3.27092292e-09  3.65542270e-09  4.57665312e-01  4.57665312e-01  3.25626833e-09  4.57665312e-01  3.58309929e-09  1.58881488e-07  6.65095818e-08  1.40000000e-01 
 1.50000000e-01  3.27092290e-09  3.65542270e-09  4.57665311e-01  4.57665311e-01  3.25626835e-09  4.57665311e-01  3.58309935e-09  1.58881483e-07  6.65093296e-08  1.50000000e-01 
 1.60000000e-01  3.27092292e-09  3.65542271e-09  4.57665332e-01  4.57665332e-01  3.25626839e-09  4.57665333e-01  3.58309929e-09  1.58881510e-07  6.65092728e-08  1.60000000e-01 
 1.70000000e-01  3.27092290e-09  3.65542271e-09  4.57665326e-01  4.57665326e-01  3.25626834e-09  4.57665326e-01  3.58309935e-09  1.58881521e-07  6.65089530e-08  1.70000000e-01 
 1.80000000e-01  3.27092292e-09  3.65542271e-09  4.57665334e-01  4.57665334e-01  3.25626834e-09  4.57665334e-01  3.58309929e-09  1.58881526e-07  6.65088429e-08  1.80000000e-01 
 1.90000000e-01  3.27092290e-09  3.65542271e-09  4.57665333e-01  4.57665333e-01  3.25626834e-09  4.57665333e-01  3.58309929e-09  1.58881529e-07  6.65086652e-08  1.90000000e-01 
 2.00000000e-01  3.27092292e-09  3.65542271e-09  4.57665335e-01  4.57665334e-01  3.25626834e-09  4.57665335e-01  3.58309935e-09  1.58881521e-07  6.65084681e-08  2.00000000e-01 
 2.10000000e-01  3.27092290e-09  3.65542270e-09  4.57665321e-01  4.57665321e-01  3.25626834e-09  4.57665321e-01  3.58309929e-09  1.58881499e-07  6.65082904e-08  2.10000000e-01 
 2.20000000e-01  3.27092292e-09  3.65542270e-09  4.57665298e-01  4.57665298e-01  3.25626834e-09  4.57665298e-01  3.58309934e-09  1.58881468e-07  6.65081554e-08  2.20000000e-01 
 2.30000000e-01  3.27092290e-09  3.65542271e-09  4.57665335e-01  4.57665335e-01  3.25626834e-09  4.57665335e-01  3.58309929e-09  1.58881523e-07  6.65080844e-08  2.30000000e-01 
 2.40000000e-01  3.27092292e-09  3.65542271e-09  4.57665326e-01  4.57665326e-01  3.25626834e-09  4.57665326e-01  3.58309935e-09  1.58881528e-07  6.65078446e-08  2.40000000e-01 
 2.50000000e-01  3.27092290e-09  3.65542270e-09  4.57665304e-01  4.57665304e-01  3.25626834e-09  4.57665304e-01  3.58309935e-09  1.58881490e-07  6.65076669e-08  2.50000000e-01 
 2.60000000e-01  3.27092286e-09  3.65542271e-09  4.57665324e-01  4.57665324e-01  3.25626834e-09  4.57665324e-01  3.58309929e-09  1.58881502e-07  6.65075426e-08  2.60000000e-01 
 2.70000000e-01  3.27092292e-09  3.65542271e-09  4.57665339e-01  4.57665339e-01  3.25626834e-09  4.57665339e-01  3.58309929e-09  1.58881535e-07  6.65073880e-08  2.70000000e-01 
 2.80000000e-01  3.27092290e-09  3.65542271e-09  4.57665334e-01  4.57665334e-01  3.25626834e-09  4.57665334e-01  3.58309935e-09  1.58881516e-07  6.65074129e-08  2.80000000e-01 
 2.90000000e-01  3.27092292e-09  3.65542270e-09  4.57665312e-01  4.57665312e-01  3.25626834e-09  4.57665312e-01  3.58309929e-09  1.58881489e-07  6.65071269e-08  2.90000000e-01 
 3.00000000e-01  3.27092290e-09  3.65542270e-09  4.57665297e-01  4.57665297e-01  3.25626834e-09  4.57665297e-01  3.58309934e-09  1.58881463e-07  6.65071163e-08  3.00000000e-01 
 3.10000000e-01  3.27092292e-09  3.65542271e-09  4.57665323e-01  4.57665323e-01  3.25626834e-09  4.57665324e-01  3.58309929e-09  1.58881495e-07  6.65069742e-08  3.10000000e-01 
 3.20000000e-01  3.27092290e-09  3.65542271e-09  4.57665336e-01  4.57665336e-01  3.25626834e-09  4.57665336e-01  3.58309935e-09  1.58881519e-07  6.65069209e-08  3.20000000e-01 
 3.30000000e-01  3.27092286e-09  3.65542271e-09  4.57665327e-01  4.57665327e-01  3.25626834e-09  4.57665327e-01  3.58309929e-09  1.58881526e-07  6.65067112e-08  3.30000000e-01 
 3.40000000e-01  3.27092292e-09  3.65542270e-09  4.57665314e-01  4.57665314e-01  3.25626834e-09  4.57665314e-01  3.58309929e-09  1.58881491e-07  6.65066580e-08  3.40000000e-01 
 3.50000000e-01  3.27092290e-09  3.65542270e-09  4.57665314e-01  4.57665314e-01  3.25626834e-09  4.57665314e-01  3.58309935e-09  1.58881496e-07  6.65066047e-08  3.50000000e-01 
 3.60000000e-01  3.27092292e-09  3.65542270e-09  4.57665297e-01  4.57665297e-01  3.25626834e-09  4.57665297e-01  3.58309929e-09  1.58881463e-07  6.65064235e-08  3.60000000e-01 
 3.70000000e-01  3.27092290e-09  3.65542270e-09  4.57665321e-01  4.57665321e-01  3.25626834e-09  4.57665321e-01  3.58309929e-09  1.58881502e-07  6.65064483e-08  3.70000000e-01 
 3.80000000e-01  3.27092292e-09  3.65542271e-09  4.57665346e-01  4.57665346e-01  3.25626834e-09  4.57665346e-01  3.58309929e-09  1.58881544e-07  6.65063595e-08  3.80000000e-01 
 3.90000000e-01  3.27092290e-09  3.65542271e-09  4.57665326e-01  4.57665326e-01  3.25626834e-09  4.57665326e-01  3.58309935e-09  1.58881503e-07  6.65062210e-08  3.90000000e-01 
 4.00000000e-01  3.27092286e-09  3.65542270e-09  4.57665300e-01  4.57665300e-01  3.25626834e-09  4.57665300e-01  3.58309929e-09  1.58881460e-07  6.65060575e-08  4.00000000e-01 
 4.10000000e-01  3.27092292e-09  3.65542270e-09  4.57665322e-01  4.57665322e-01  3.25626834e-09  4.57665322e-01  3.58309929e-09  1.58881500e-07  6.65060647e-08  4.10000000e-01 
 4.20000000e-01  3.27092290e-09  3.65542270e-09  4.57665320e-01  4.57665320e-01  3.25626834e-09  4.57665320e-01  3.58309935e-09  1.58881511e-07  6.65060078e-08  4.20000000e-01 
 4.30000000e-01  3.27092292e-09  3.65542270e-09  4.57665316e-01  4.57665316e-01  3.25626834e-09  4.57665316e-01  3.58309935e-09  1.58881497e-07  6.65059190e-08  4.30000000e-01 
 4.40000000e-01  3.27092290e-09  3.65542270e-09  4.57665322e-01  4.57665322e-01  3.25626834e-09  4.57665322e-01  3.58309935e-09  1.58881505e-07  6.65057449e-08  4.40000000e-01 
 4.50000000e-01  3.27092287e-09  3.65542271e-09  4.57665335e-01  4.57665335e-01  3.25626834e-09  4.57665335e-01  3.58309929e-09  1.58881530e-07  6.65057449e-08  4.50000000e-01 
 4.60000000e-01  3.27092292e-09  3.65542270e-09  4.57665316e-01  4.57665316e-01  3.25626834e-09  4.57665316e-01  3.58309929e-09  1.58881512e-07  6.65056277e-08  4.60000000e-01 
 4.70000000e-01  3.27092290e-09  3.65542270e-09  4.57665314e-01  4.57665314e-01  3.25626834e-09  4.57665315e-01  3.58309929e-09  1.58881492e-07  6.65055389e-08  4.70000000e-01 
 4.80000000e-01  3.27092287e-09  3.65542271e-09  4.57665341e-01  4.57665341e-01  3.25626834e-09  4.57665341e-01  3.58309935e-09  1.58881526e-07  6.65055353e-08  4.80000000e-01 
 4.90000000e-01  3.27092292e-09  3.65542271e-09  4.57665337e-01  4.57665337e-01  3.25626834e-09  4.57665337e-01  3.58309935e-09  1.58881526e-07  6.65055460e-08  4.90000000e-01 
 5.00000000e-01  3.27092290e-09  3.65542271e-09  4.57665328e-01  4.57665328e-01  3.25626834e-09  4.57665328e-01  3.58309935e-09  1.58881503e-07  6.65054962e-08  5.00000000e-01 
 5.10000000e-01  3.27092292e-09  3.65542270e-09  4.57665320e-01  4.57665320e-01  3.25626834e-09  4.57665320e-01  3.58309935e-09  1.58881506e-07  6.65053683e-08  5.10000000e-01 
 5.20000000e-01  3.27092290e-09  3.65542270e-09  4.57665309e-01  4.57665309e-01  3.25626834e-09  4.57665310e-01  3.58309935e-09  1.58881482e-07  6.65053044e-08  5.20000000e-01 
 5.30000000e-01  3.27092292e-09  3.65542270e-09  4.57665308e-01  4.57665308e-01  3.25626834e-09  4.57665308e-01  3.58309935e-09  1.58881477e-07  6.65051978e-08  5.30000000e-01 
 5.40000000e-01  3.27092290e-09  3.65542271e-09  4.57665324e-01  4.57665324e-01  3.25626834e-09  4.57665324e-01  3.58309929e-09  1.58881500e-07  6.65051765e-08  5.40000000e-01 
 5.50000000e-01  3.27092287e-09  3.65542271e-09  4.57665335e-01  4.57665335e-01  3.25626834e-09  4.57665335e-01  3.58309929e-09  1.58881518e-07  6.65050628e-08  5.50000000e-01 
 5.60000000e-01  3.27092292e-09  3.65542271e-09  4.57665342e-01  4.57665342e-01  3.25626834e-09  4.57665342e-01  3.58309935e-09  1.58881535e-07  6.65050699e-08  5.60000000e-01 
 5.70000000e-01  3.27092290e-09  3.65542270e-09  4.57665304e-01  4.57665304e-01  3.25626834e-09  4.57665304e-01  3.58309929e-09  1.58881480e-07  6.65049100e-08  5.70000000e-01 
 5.80000000e-01  3.27092292e-09  3.65542271e-09  4.57665338e-01  4.57665338e-01  3.25626834e-09  4.57665338e-01  3.58309935e-09  1.58881529e-07  6.65048958e-08  5.80000000e-01 
 5.90000000e-01  3.27092290e-09  3.65542271e-09  4.57665329e-01  4.57665329e-01  3.25626834e-09  4.57665329e-01  3.58309935e-09  1.58881508e-07  6.65048958e-08  5.90000000e-01 
 6.00000000e-01  3.27092286e-09  3.65542270e-09  4.57665313e-01  4.57665313e-01  3.25626834e-09  4.57665313e-01  3.58309935e-09  1.58881499e-07  6.65047466e-08  6.00000000e-01 
 6.10000000e-01  3.27092286e-09  3.65542271e-09  4.57665332e-01  4.57665332e-01  3.25626834e-09  4.57665332e-01  3.58309929e-09  1.58881514e-07  6.65046898e-08  6.10000000e-01 
 6.20000000e-01  3.27092292e-09  3.65542270e-09  4.57665312e-01  4.57665312e-01  3.25626834e-09  4.57665312e-01  3.58309935e-09  1.58881494e-07  6.65046471e-08  6.20000000e-01 
 6.30000000e-01  3.27092290e-09  3.65542270e-09  4.57665314e-01  4.57665314e-01  3.25626834e-09  4.57665314e-01  3.58309929e-09  1.58881481e-07  6.65045690e-08  6.30000000e-01 
 6.40000000e-01  3.27092286e-09  3.65542270e-09  4.57665323e-01  4.57665323e-01  3.25626834e-09  4.57665323e-01  3.58309929e-09  1.58881519e-07  6.65045690e-08  6.40000000e-01 
 6.50000000e-01  3.27092292e-09  3.65542271e-09  4.57665326e-01  4.57665326e-01  3.25626834e-09  4.57665326e-01  3.58309929e-09  1.58881518e-07  6.65043913e-08  6.50000000e-01 
 6.60000000e-01  3.27092290e-09  3.65542271e-09  4.57665334e-01  4.57665334e-01  3.25626834e-09  4.57665334e-01  3.58309929e-09  1.58881525e-07  6.65043274e-08  6.60000000e-01 
 6.70000000e-01  3.27092292e-09  3.65542270e-09  4.57665317e-01  4.57665317e-01  3.25626834e-09  4.57665317e-01  3.58309935e-09  1.58881491e-07  6.65043061e-08  6.70000000e-01 
 6.80000000e-01  3.27092290e-09  3.65542270e-09  4.57665312e-01  4.57665312e-01  3.25626834e-09  4.57665312e-01  3.58309929e-09  1.58881493e-07  6.65042066e-08  6.80000000e-01 
 6.90000000e-01  3.27092286e-09  3.65542270e-09  4.57665309e-01  4.57665309e-01  3.25626834e-09  4.57665309e-01  3.58309929e-09  1.58881483e-07  6.65042421e-08  6.90000000e-01 
 7.00000000e-01  3.27092292e-09  3.65542271e-09  4.57665327e-01  4.57665327e-01  3.25626834e-09  4.57665327e-01  3.58309929e-09  1.58881492e-07  6.65040929e-08  7.00000000e-01 
 7.10000000e-01  3.27092296e-09  3.65542271e-09  4.57665337e-01  4.57665337e-01  3.25626834e-09  4.57665337e-01  3.58309935e-09  1.58881524e-07  6.65040361e-08  7.10000000e-01 
 7.20000000e-01  3.27092291e-09  3.65542271e-09  4.57665330e-01  4.57665330e-01  3.25626834e-09  4.57665330e-01  3.58309935e-09  1.58881513e-07  6.65040645e-08  7.20000000e-01 
 7.30000000e-01  3.27092291e-09  3.65542271e-09  4.57665342e-01  4.57665342e-01  3.25626834e-09  4.57665342e-01  3.58309935e-09  1.58881544e-07  6.65039792e-08  7.30000000e-01 
 7.40000000e-01  3.27092291e-09  3.65542271e-09  4.57665330e-01  4.57665330e-01  3.25626834e-09  4.57665330e-01  3.58309935e-09  1.58881506e-07  6.65038158e-08  7.40000000e-01 
 7.50000000e-01  3.27092285e-09  3.65542270e-09  4.57665315e-01  4.57665315e-01  3.25626834e-09  4.57665315e-01  3.58309929e-09  1.58881498e-07  6.65038087e-08  7.50000000e-01 
 7.60000000e-01  3.27092292e-09  3.65542270e-09  4.57665290e-01  4.57665290e-01  3.25626834e-09  4.57665291e-01  3.58309929e-09  1.58881451e-07  6.65036737e-08  7.60000000e-01 
 7.70000000e-01  3.27092290e-09  3.65542271e-09  4.57665331e-01  4.57665331e-01  3.25626835e-09  4.57665331e-01  3.58309935e-09  1.58881512e-07  6.65037447e-08  7.70000000e-01 
 7.80000000e-01  3.27092292e-09  3.65542271e-09  4.57665331e-01  4.57665331e-01  3.25626833e-09  4.57665331e-01  3.58309929e-09  1.58881525e-07  6.65037589e-08  7.80000000e-01 
 7.90000000e-01  3.27092290e-09  3.65542271e-09  4.57665332e-01  4.57665332e-01  3.25626835e-09  4.57665332e-01  3.58309935e-09  1.58881522e-07  6.65036168e-08  7.90000000e-01 
 8.00000000e-01  3.27092287e-09  3.65542271e-09  4.57665337e-01  4.57665337e-01  3.25626833e-09  4.57665337e-01  3.58309935e-09  1.58881532e-07  6.65034818e-08  8.00000000e-01 
 8.10000000e-01  3.27092286e-09  3.65542271e-09  4.57665337e-01  4.57665337e-01  3.25626835e-09  4.57665337e-01  3.58309935e-09  1.58881539e-07  6.65033966e-08  8.10000000e-01 
 8.20000000e-01  3.27092291e-09  3.65542270e-09  4.57665299e-01  4.57665299e-01  3.25626833e-09  4.57665299e-01  3.58309934e-09  1.58881486e-07  6.65034179e-08  8.20000000e-01 
 8.30000000e-01  3.27092290e-09  3.65542270e-09  4.57665323e-01  4.57665323e-01  3.25626835e-09  4.57665323e-01  3.58309935e-09  1.58881498e-07  6.65034037e-08  8.30000000e-01 
 8.40000000e-01  3.27092286e-09  3.65542271e-09  4.57665325e-01  4.57665325e-01  3.25626833e-09  4.57665325e-01  3.58309935e-09  1.58881509e-07  6.65032829e-08  8.40000000e-01 
 8.50000000e-01  3.27092292e-09  3.65542271e-09  4.57665328e-01  4.57665328e-01  3.25626829e-09  4.57665328e-01  3.58309929e-09  1.58881508e-07  6.65030981e-08  8.50000000e-01 
 8.60000000e-01  3.27092290e-09  3.65542270e-09  4.57665313e-01  4.57665313e-01  3.25626834e-09  4.57665313e-01  3.58309935e-09  1.58881488e-07  6.65032189e-08  8.60000000e-01 
 8.70000000e-01  3.27092292e-09  3.65542270e-09  4.57665316e-01  4.57665316e-01  3.25626833e-09  4.57665316e-01  3.58309935e-09  1.58881482e-07  6.65030058e-08  8.70000000e-01 
 8.80000000e-01  3.27092290e-09  3.65542271e-09  4.57665337e-01  4.57665337e-01  3.25626835e-09  4.57665337e-01  3.58309929e-09  1.58881533e-07  6.65030129e-08  8.80000000e-01 
 8.90000000e-01  3.27092286e-09  3.65542271e-09  4.57665324e-01  4.57665324e-01  3.25626833e-09  4.57665324e-01  3.58309929e-09  1.58881509e-07  6.65028921e-08  8.90000000e-01 
 9.00000000e-01  3.27092292e-09  3.65542271e-09  4.57665335e-01  4.57665335e-01  3.25626835e-09  4.57665335e-01  3.58309935e-09  1.58881518e-07  6.65028708e-08  9.00000000e-01 
 9.10000000e-01  3.27092290e-09  3.65542270e-09  4.57665316e-01  4.57665316e-01  3.25626833e-09  4.57665316e-01  3.58309929e-09  1.58881493e-07  6.65028068e-08  9.10000000e-01 
 9.20000000e-01  3.27092292e-09  3.65542270e-09  4.57665320e-01  4.57665320e-01  3.25626835e-09  4.57665320e-01  3.58309935e-09  1.58881496e-07  6.65027926e-08  9.20000000e-01 
 9.30000000e-01  3.27092290e-09  3.65542270e-09  4.57665316e-01  4.57665316e-01  3.25626833e-09  4.57665316e-01  3.58309935e-09  1.58881501e-07  6.65026434e-08  9.30000000e-01 
 9.40000000e-01  3.27092292e-09  3.65542271e-09  4.57665334e-01  4.57665334e-01  3.25626835e-09  4.57665334e-01  3.58309929e-09  1.58881511e-07  6.65025581e-08  9.40000000e-01 
 9.50000000e-01  3.27092290e-09  3.65542271e-09  4.57665348e-01  4.57665348e-01  3.25626833e-09  4.57665348e-01  3.58309935e-09  1.58881541e-07  6.65025013e-08  9.50000000e-01 
 9.60000000e-01  3.27092292e-09  3.65542271e-09  4.57665353e-01  4.57665353e-01  3.25626835e-09  4.57665353e-01  3.58309935e-09  1.58881553e-07  6.65024871e-08  9.60000000e-01 
 9.70000000e-01  3.27092290e-09  3.65542271e-09  4.57665337e-01  4.57665337e-01  3.25626833e-09  4.57665337e-01  3.58309935e-09  1.58881518e-07  6.65023947e-08  9.70000000e-01 
 9.80000000e-01  3.27092292e-09  3.65542270e-09  4.57665307e-01  4.57665307e-01  3.25626835e-09  4.57665307e-01  3.58309935e-09  1.58881489e-07  6.65023023e-08  9.80000000e-01 
 9.90000000e-01  3.27092290e-09  3.65542270e-09  4.57665321e-01  4.57665320e-01  3.25626833e-09  4.57665321e-01  3.58309935e-09  1.58881498e-07  6.65022029e-08  9.90000000e-01 
 1.00000000e+00  3.27092286e-09  3.65542270e-09  4.57665311e-01  4.57665311e-01  3.25626835e-09  4.57665311e-01  3.58309935e-09  1.58881483e-07  6.65021318e-08  1.00000000e+00 
 1.01000000e+00  3.27092292e-09  3.65542270e-09  4.57665312e-01  4.57665312e-01  3.25626833e-09  4.57665312e-01  3.58309929e-09  1.58881487e-07  6.65020679e-08  1.01000000e+00 
 1.02000000e+00  3.27092290e-09  3.65542271e-09  4.57665337e-01  4.57665337e-01  3.25626835e-09  4.57665337e-01  3.58309935e-09  1.58881525e-07  6.65020110e-08  1.02000000e+00 
 1.03000000e+00  3.27092292e-09  3.65542270e-09  4.57665323e-01  4.57665323e-01  3.25626833e-09  4.57665323e-01  3.58309935e-09  1.58881507e-07  6.65019400e-08  1.03000000e+00 
 1.04000000e+00  3.27092290e-09  3.65542270e-09  4.57665316e-01  4.57665316e-01  3.25626835e-09  4.57665316e-01  3.58309929e-09  1.58881485e-07  6.65018405e-08  1.04000000e+00 
 1.05000000e+00  3.27092286e-09  3.65542271e-09  4.57665331e-01  4.57665331e-01  3.25626839e-09  4.57665331e-01  3.58309929e-09  1.58881519e-07  6.65018405e-08  1.05000000e+00 
 1.06000000e+00  3.27092286e-09  3.65542270e-09  4.57665310e-01  4.57665310e-01  3.25626834e-09  4.57665310e-01  3.58309935e-09  1.58881492e-07  6.65017197e-08  1.06000000e+00 
 1.07000000e+00  3.27092292e-09  3.65542271e-09  4.57665325e-01  4.57665325e-01  3.25626834e-09  4.57665325e-01  3.58309929e-09  1.58881497e-07  6.65016131e-08  1.07000000e+00 
 1.08000000e+00  3.27092285e-09  3.65542270e-09  4.57665314e-01  4.57665314e-01  3.25626834e-09  4.57665314e-01  3.58309929e-09  1.58881480e-07  6.65015421e-08  1.08000000e+00 
 1.09000000e+00  3.27092287e-09  3.65542271e-09  4.57665340e-01  4.57665340e-01  3.25626834e-09  4.57665340e-01  3.58309929e-09  1.58881546e-07  6.65015563e-08  1.09000000e+00 
 1.10000000e+00  3.27092286e-09  3.65542270e-09  4.57665311e-01  4.57665311e-01  3.25626834e-09  4.57665311e-01  3.58309929e-09  1.58881488e-07  6.65013786e-08  1.10000000e+00 
