 v-sweep         v(b0)           v(b1)           v(b2)           v(b3)           v(b4)           v(b5)           v(b6)           i(vbias)        i(viout)        v(vout)        
 0.00000000e+00  3.38065823e-09  4.59252344e-01  4.59252344e-01  4.59252344e-01  3.39439010e-09  4.59252344e-01  3.21798450e-09  1.60085322e-07  7.50494897e-08  0.00000000e+00 
 1.00000000e-02  3.38065818e-09  4.59252340e-01  4.59252340e-01  4.59252340e-01  3.39439010e-09  4.59252340e-01  3.21798456e-09  1.60085313e-07  7.50491219e-08  1.00000000e-02 
 2.00000000e-02  3.38065818e-09  4.59252350e-01  4.59252350e-01  4.59252350e-01  3.39439010e-09  4.59252350e-01  3.21798456e-09  1.60085323e-07  7.50487885e-08  2.00000000e-02 
 3.00000000e-02  3.38065818e-09  4.59252341e-01  4.59252341e-01  4.59252341e-01  3.39439010e-09  4.59252341e-01  3.21798456e-09  1.60085308e-07  7.50482181e-08  3.00000000e-02 
 4.00000000e-02  3.38065817e-09  4.59252329e-01  4.59252329e-01  4.59252329e-01  3.39439010e-09  4.59252329e-01  3.21798456e-09  1.60085289e-07  7.50479945e-08  4.00000000e-02 
 5.00000000e-02  3.38065818e-09  4.59252342e-01  4.59252342e-01  4.59252342e-01  3.39439010e-09  4.59252342e-01  3.21798450e-09  1.60085318e-07  7.50475939e-08  5.00000000e-02 
 6.00000000e-02  3.38065817e-09  4.59252333e-01  4.59252333e-01  4.59252333e-01  3.39439010e-09  4.59252333e-01  3.21798456e-09  1.60085304e-07  7.50473093e-08  6.00000000e-02 
 7.00000000e-02  3.38065818e-09  4.59252340e-01  4.59252340e-01  4.59252340e-01  3.39439010e-09  4.59252340e-01  3.21798450e-09  1.60085308e-07  7.50470526e-08  7.00000000e-02 
 8.00000000e-02  3.38065823e-09  4.59252338e-01  4.59252338e-01  4.59252338e-01  3.39439010e-09  4.59252338e-01  3.21798456e-09  1.60085316e-07  7.50467812e-08  8.00000000e-02 
 9.00000000e-02  3.38065823e-09  4.59252342e-01  4.59252342e-01  4.59252342e-01  3.39439010e-09  4.59252342e-01  3.21798456e-09  1.60085307e-07  7.50464366e-08  9.00000000e-02 
 1.00000000e-01  3.38065817e-09  4.59252331e-01  4.59252331e-01  4.59252330e-01  3.39439010e-09  4.59252330e-01  3.21798456e-09  1.60085298e-07  7.50461586e-08  1.00000000e-01 
 1.10000000e-01  3.38065823e-09  4.59252330e-01  4.59252330e-01  4.59252330e-01  3.39439010e-09  4.59252330e-01  3.21798456e-09  1.60085284e-07  7.50458984e-08  1.10000000e-01 
 1.20000000e-01  3.38065818e-09  4.59252351e-01  4.59252351e-01  4.59252351e-01  3.39439010e-09  4.59252351e-01  3.21798450e-09  1.60085312e-07  7.50456515e-08  1.20000000e-01 
 1.30000000e-01  3.38065818e-09  4.59252354e-01  4.59252354e-01  4.59252354e-01  3.39439010e-09  4.59252354e-01  3.21798456e-09  1.60085326e-07  7.50454827e-08  1.30000000e-01 
 1.40000000e-01  3.38065818e-09  4.59252340e-01  4.59252341e-01  4.59252340e-01  3.39439010e-09  4.59252340e-01  3.21798456e-09  1.60085302e-07  7.50452545e-08  1.40000000e-01 
 1.50000000e-01  3.38065823e-09  4.59252343e-01  4.59252343e-01  4.59252343e-01  3.39439010e-09  4.59252343e-01  3.21798456e-09  1.60085309e-07  7.50449551e-08  1.50000000e-01 
 1.60000000e-01  3.38065817e-09  4.59252326e-01  4.59252326e-01  4.59252326e-01  3.39439010e-09  4.59252326e-01  3.21798456e-09  1.60085282e-07  7.50448805e-08  1.60000000e-01 
 1.70000000e-01  3.38065817e-09  4.59252327e-01  4.59252327e-01  4.59252327e-01  3.39439010e-09  4.59252327e-01  3.21798456e-09  1.60085284e-07  7.50444773e-08  1.70000000e-01 
 1.80000000e-01  3.38065817e-09  4.59252323e-01  4.59252323e-01  4.59252323e-01  3.39439010e-09  4.59252323e-01  3.21798456e-09  1.60085279e-07  7.50443956e-08  1.80000000e-01 
 1.90000000e-01  3.38065818e-09  4.59252344e-01  4.59252344e-01  4.59252344e-01  3.39439010e-09  4.59252344e-01  3.21798456e-09  1.60085316e-07  7.50442641e-08  1.90000000e-01 
 2.00000000e-01  3.38065823e-09  4.59252325e-01  4.59252325e-01  4.59252325e-01  3.39439010e-09  4.59252325e-01  3.21798456e-09  1.60085297e-07  7.50440865e-08  2.00000000e-01 
 2.10000000e-01  3.38065823e-09  4.59252337e-01  4.59252337e-01  4.59252337e-01  3.39439010e-09  4.59252337e-01  3.21798456e-09  1.60085301e-07  7.50439266e-08  2.10000000e-01 
 2.20000000e-01  3.38065823e-09  4.59252316e-01  4.59252316e-01  4.59252316e-01  3.39439010e-09  4.59252316e-01  3.21798456e-09  1.60085268e-07  7.50437348e-08  2.20000000e-01 
 2.30000000e-01  3.38065824e-09  4.59252352e-01  4.59252352e-01  4.59252352e-01  3.39439010e-09  4.59252352e-01  3.21798456e-09  1.60085329e-07  7.50436513e-08  2.30000000e-01 
 2.40000000e-01  3.38065823e-09  4.59252343e-01  4.59252343e-01  4.59252343e-01  3.39439010e-09  4.59252343e-01  3.21798456e-09  1.60085309e-07  7.50435252e-08  2.40000000e-01 
 2.50000000e-01  3.38065817e-09  4.59252335e-01  4.59252335e-01  4.59252335e-01  3.39439010e-09  4.59252335e-01  3.21798456e-09  1.60085306e-07  7.50434701e-08  2.50000000e-01 
 2.60000000e-01  3.38065817e-09  4.59252336e-01  4.59252336e-01  4.59252336e-01  3.39439010e-09  4.59252336e-01  3.21798450e-09  1.60085305e-07  7.50432392e-08  2.60000000e-01 
 2.70000000e-01  3.38065817e-09  4.59252336e-01  4.59252336e-01  4.59252336e-01  3.39439010e-09  4.59252336e-01  3.21798456e-09  1.60085297e-07  7.50431859e-08  2.70000000e-01 
 2.80000000e-01  3.38065817e-09  4.59252330e-01  4.59252331e-01  4.59252330e-01  3.39439010e-09  4.59252330e-01  3.21798450e-09  1.60085303e-07  7.50429852e-08  2.80000000e-01 
 2.90000000e-01  3.38065818e-09  4.59252348e-01  4.59252348e-01  4.59252348e-01  3.39439010e-09  4.59252348e-01  3.21798456e-09  1.60085319e-07  7.50429194e-08  2.90000000e-01 
 3.00000000e-01  3.38065823e-09  4.59252342e-01  4.59252342e-01  4.59252342e-01  3.39439010e-09  4.59252342e-01  3.21798450e-09  1.60085301e-07  7.50426459e-08  3.00000000e-01 
 3.10000000e-01  3.38065818e-09  4.59252353e-01  4.59252354e-01  4.59252353e-01  3.39439010e-09  4.59252353e-01  3.21798450e-09  1.60085327e-07  7.50427063e-08  3.10000000e-01 
 3.20000000e-01  3.38065818e-09  4.59252342e-01  4.59252342e-01  4.59252342e-01  3.39439010e-09  4.59252342e-01  3.21798456e-09  1.60085306e-07  7.50424967e-08  3.20000000e-01 
 3.30000000e-01  3.38065823e-09  4.59252329e-01  4.59252329e-01  4.59252329e-01  3.39439010e-09  4.59252329e-01  3.21798450e-09  1.60085285e-07  7.50423084e-08  3.30000000e-01 
 3.40000000e-01  3.38065823e-09  4.59252348e-01  4.59252348e-01  4.59252347e-01  3.39439010e-09  4.59252347e-01  3.21798456e-09  1.60085320e-07  7.50424007e-08  3.40000000e-01 
 3.50000000e-01  3.38065818e-09  4.59252343e-01  4.59252343e-01  4.59252343e-01  3.39439010e-09  4.59252343e-01  3.21798456e-09  1.60085307e-07  7.50422728e-08  3.50000000e-01 
 3.60000000e-01  3.38065818e-09  4.59252340e-01  4.59252340e-01  4.59252340e-01  3.39439010e-09  4.59252340e-01  3.21798450e-09  1.60085303e-07  7.50421023e-08  3.60000000e-01 
 3.70000000e-01  3.38065817e-09  4.59252335e-01  4.59252335e-01  4.59252335e-01  3.39439010e-09  4.59252335e-01  3.21798450e-09  1.60085299e-07  7.50420135e-08  3.70000000e-01 
 3.80000000e-01  3.38065817e-09  4.59252328e-01  4.59252328e-01  4.59252328e-01  3.39439010e-09  4.59252328e-01  3.21798456e-09  1.60085294e-07  7.50419460e-08  3.80000000e-01 
 3.90000000e-01  3.38065817e-09  4.59252323e-01  4.59252323e-01  4.59252323e-01  3.39439010e-09  4.59252323e-01  3.21798456e-09  1.60085278e-07  7.50418074e-08  3.90000000e-01 
 4.00000000e-01  3.38065818e-09  4.59252354e-01  4.59252354e-01  4.59252354e-01  3.39439010e-09  4.59252354e-01  3.21798456e-09  1.60085337e-07  7.50418181e-08  4.00000000e-01 
 4.10000000e-01  3.38065823e-09  4.59252335e-01  4.59252335e-01  4.59252335e-01  3.39439010e-09  4.59252335e-01  3.21798456e-09  1.60085307e-07  7.50417790e-08  4.10000000e-01 
 4.20000000e-01  3.38065817e-09  4.59252328e-01  4.59252328e-01  4.59252328e-01  3.39439010e-09  4.59252328e-01  3.21798450e-09  1.60085278e-07  7.50416547e-08  4.20000000e-01 
 4.30000000e-01  3.38065818e-09  4.59252346e-01  4.59252346e-01  4.59252346e-01  3.39439010e-09  4.59252346e-01  3.21798456e-09  1.60085324e-07  7.50415730e-08  4.30000000e-01 
 4.40000000e-01  3.38065818e-09  4.59252339e-01  4.59252339e-01  4.59252339e-01  3.39439010e-09  4.59252339e-01  3.21798450e-09  1.60085303e-07  7.50413136e-08  4.40000000e-01 
 4.50000000e-01  3.38065823e-09  4.59252312e-01  4.59252312e-01  4.59252312e-01  3.39439010e-09  4.59252312e-01  3.21798456e-09  1.60085275e-07  7.50414166e-08  4.50000000e-01 
 4.60000000e-01  3.38065818e-09  4.59252346e-01  4.59252346e-01  4.59252346e-01  3.39439010e-09  4.59252346e-01  3.21798456e-09  1.60085300e-07  7.50413527e-08  4.60000000e-01 
 4.70000000e-01  3.38065823e-09  4.59252322e-01  4.59252322e-01  4.59252322e-01  3.39439010e-09  4.59252322e-01  3.21798456e-09  1.60085282e-07  7.50411964e-08  4.70000000e-01 
 4.80000000e-01  3.38065818e-09  4.59252342e-01  4.59252343e-01  4.59252342e-01  3.39439010e-09  4.59252342e-01  3.21798456e-09  1.60085308e-07  7.50410400e-08  4.80000000e-01 
 4.90000000e-01  3.38065818e-09  4.59252339e-01  4.59252339e-01  4.59252339e-01  3.39439010e-09  4.59252339e-01  3.21798450e-09  1.60085304e-07  7.50410187e-08  4.90000000e-01 
 5.00000000e-01  3.38065823e-09  4.59252313e-01  4.59252313e-01  4.59252313e-01  3.39439010e-09  4.59252313e-01  3.21798456e-09  1.60085263e-07  7.50409193e-08  5.00000000e-01 
 5.10000000e-01  3.38065817e-09  4.59252315e-01  4.59252315e-01  4.59252315e-01  3.39439010e-09  4.59252315e-01  3.21798450e-09  1.60085270e-07  7.50408695e-08  5.10000000e-01 
 5.20000000e-01  3.38065823e-09  4.59252339e-01  4.59252339e-01  4.59252339e-01  3.39439010e-09  4.59252339e-01  3.21798452e-09  1.60085312e-07  7.50409264e-08  5.20000000e-01 
 5.30000000e-01  3.38065818e-09  4.59252338e-01  4.59252339e-01  4.59252338e-01  3.39439010e-09  4.59252338e-01  3.21798455e-09  1.60085318e-07  7.50408269e-08  5.30000000e-01 
 5.40000000e-01  3.38065818e-09  4.59252357e-01  4.59252358e-01  4.59252357e-01  3.39439010e-09  4.59252357e-01  3.21798456e-09  1.60085334e-07  7.50408411e-08  5.40000000e-01 
 5.50000000e-01  3.38065817e-09  4.59252319e-01  4.59252319e-01  4.59252319e-01  3.39439010e-09  4.59252319e-01  3.21798450e-09  1.60085283e-07  7.50406635e-08  5.50000000e-01 
 5.60000000e-01  3.38065817e-09  4.59252337e-01  4.59252337e-01  4.59252337e-01  3.39439010e-09  4.59252337e-01  3.21798457e-09  1.60085302e-07  7.50406421e-08  5.60000000e-01 
 5.70000000e-01  3.38065818e-09  4.59252341e-01  4.59252341e-01  4.59252341e-01  3.39439010e-09  4.59252341e-01  3.21798455e-09  1.60085309e-07  7.50405391e-08  5.70000000e-01 
 5.80000000e-01  3.38065823e-09  4.59252307e-01  4.59252307e-01  4.59252307e-01  3.39439009e-09  4.59252307e-01  3.21798456e-09  1.60085262e-07  7.50404112e-08  5.80000000e-01 
 5.90000000e-01  3.38065823e-09  4.59252326e-01  4.59252326e-01  4.59252326e-01  3.39439010e-09  4.59252326e-01  3.21798456e-09  1.60085288e-07  7.50402691e-08  5.90000000e-01 
 6.00000000e-01  3.38065818e-09  4.59252338e-01  4.59252339e-01  4.59252338e-01  3.39439010e-09  4.59252338e-01  3.21798456e-09  1.60085307e-07  7.50402762e-08  6.00000000e-01 
 6.10000000e-01  3.38065823e-09  4.59252330e-01  4.59252330e-01  4.59252330e-01  3.39439010e-09  4.59252330e-01  3.21798456e-09  1.60085294e-07  7.50403188e-08  6.10000000e-01 
 6.20000000e-01  3.38065817e-09  4.59252327e-01  4.59252327e-01  4.59252327e-01  3.39439010e-09  4.59252327e-01  3.21798450e-09  1.60085290e-07  7.50401128e-08  6.20000000e-01 
 6.30000000e-01  3.38065817e-09  4.59252333e-01  4.59252333e-01  4.59252333e-01  3.39439010e-09  4.59252333e-01  3.21798452e-09  1.60085301e-07  7.50401199e-08  6.30000000e-01 
 6.40000000e-01  3.38065823e-09  4.59252340e-01  4.59252340e-01  4.59252340e-01  3.39439010e-09  4.59252340e-01  3.21798455e-09  1.60085305e-07  7.50400915e-08  6.40000000e-01 
 6.50000000e-01  3.38065817e-09  4.59252320e-01  4.59252320e-01  4.59252320e-01  3.39439010e-09  4.59252320e-01  3.21798456e-09  1.60085288e-07  7.50399778e-08  6.50000000e-01 
 6.60000000e-01  3.38065818e-09  4.59252346e-01  4.59252346e-01  4.59252346e-01  3.39439010e-09  4.59252346e-01  3.21798450e-09  1.60085324e-07  7.50399067e-08  6.60000000e-01 
 6.70000000e-01  3.38065817e-09  4.59252330e-01  4.59252331e-01  4.59252330e-01  3.39439010e-09  4.59252330e-01  3.21798456e-09  1.60085295e-07  7.50398854e-08  6.70000000e-01 
 6.80000000e-01  3.38065817e-09  4.59252324e-01  4.59252324e-01  4.59252324e-01  3.39439010e-09  4.59252324e-01  3.21798450e-09  1.60085303e-07  7.50396580e-08  6.80000000e-01 
 6.90000000e-01  3.38065818e-09  4.59252346e-01  4.59252347e-01  4.59252346e-01  3.39439010e-09  4.59252346e-01  3.21798452e-09  1.60085320e-07  7.50398073e-08  6.90000000e-01 
 7.00000000e-01  3.38065817e-09  4.59252329e-01  4.59252330e-01  4.59252329e-01  3.39439010e-09  4.59252329e-01  3.21798455e-09  1.60085286e-07  7.50396509e-08  7.00000000e-01 
 7.10000000e-01  3.38065818e-09  4.59252339e-01  4.59252339e-01  4.59252339e-01  3.39439010e-09  4.59252339e-01  3.21798456e-09  1.60085304e-07  7.50395657e-08  7.10000000e-01 
 7.20000000e-01  3.38065818e-09  4.59252361e-01  4.59252361e-01  4.59252361e-01  3.39439010e-09  4.59252361e-01  3.21798456e-09  1.60085337e-07  7.50397291e-08  7.20000000e-01 
 7.30000000e-01  3.38065817e-09  4.59252330e-01  4.59252330e-01  4.59252330e-01  3.39439010e-09  4.59252330e-01  3.21798456e-09  1.60085304e-07  7.50394378e-08  7.30000000e-01 
 7.40000000e-01  3.38065823e-09  4.59252331e-01  4.59252332e-01  4.59252331e-01  3.39439010e-09  4.59252331e-01  3.21798456e-09  1.60085294e-07  7.50394022e-08  7.40000000e-01 
 7.50000000e-01  3.38065818e-09  4.59252342e-01  4.59252342e-01  4.59252342e-01  3.39439010e-09  4.59252342e-01  3.21798450e-09  1.60085301e-07  7.50394378e-08  7.50000000e-01 
 7.60000000e-01  3.38065817e-09  4.59252324e-01  4.59252324e-01  4.59252324e-01  3.39439010e-09  4.59252324e-01  3.21798456e-09  1.60085283e-07  7.50393028e-08  7.60000000e-01 
 7.70000000e-01  3.38065817e-09  4.59252334e-01  4.59252334e-01  4.59252334e-01  3.39439010e-09  4.59252334e-01  3.21798456e-09  1.60085317e-07  7.50392672e-08  7.70000000e-01 
 7.80000000e-01  3.38065817e-09  4.59252327e-01  4.59252327e-01  4.59252327e-01  3.39439010e-09  4.59252327e-01  3.21798456e-09  1.60085283e-07  7.50391393e-08  7.80000000e-01 
 7.90000000e-01  3.38065818e-09  4.59252339e-01  4.59252340e-01  4.59252339e-01  3.39439010e-09  4.59252339e-01  3.21798456e-09  1.60085315e-07  7.50390399e-08  7.90000000e-01 
 8.00000000e-01  3.38065823e-09  4.59252341e-01  4.59252342e-01  4.59252341e-01  3.39439010e-09  4.59252341e-01  3.21798456e-09  1.60085303e-07  7.50388551e-08  8.00000000e-01 
 8.10000000e-01  3.38065818e-09  4.59252344e-01  4.59252344e-01  4.59252344e-01  3.39439010e-09  4.59252344e-01  3.21798456e-09  1.60085308e-07  7.50389191e-08  8.10000000e-01 
 8.20000000e-01  3.38065817e-09  4.59252326e-01  4.59252326e-01  4.59252326e-01  3.39439010e-09  4.59252326e-01  3.21798450e-09  1.60085288e-07  7.50388836e-08  8.20000000e-01 
 8.30000000e-01  3.38065818e-09  4.59252351e-01  4.59252351e-01  4.59252351e-01  3.39439010e-09  4.59252351e-01  3.21798457e-09  1.60085325e-07  7.50387201e-08  8.30000000e-01 
 8.40000000e-01  3.38065818e-09  4.59252354e-01  4.59252354e-01  4.59252354e-01  3.39439010e-09  4.59252354e-01  3.21798450e-09  1.60085319e-07  7.50388764e-08  8.40000000e-01 
 8.50000000e-01  3.38065818e-09  4.59252345e-01  4.59252345e-01  4.59252345e-01  3.39439010e-09  4.59252345e-01  3.21798452e-09  1.60085313e-07  7.50388125e-08  8.50000000e-01 
 8.60000000e-01  3.38065818e-09  4.59252346e-01  4.59252346e-01  4.59252346e-01  3.39439010e-09  4.59252346e-01  3.21798455e-09  1.60085327e-07  7.50385567e-08  8.60000000e-01 
 8.70000000e-01  3.38065823e-09  4.59252341e-01  4.59252341e-01  4.59252341e-01  3.39439010e-09  4.59252341e-01  3.21798456e-09  1.60085311e-07  7.50385425e-08  8.70000000e-01 
 8.80000000e-01  3.38065818e-09  4.59252349e-01  4.59252349e-01  4.59252349e-01  3.39439010e-09  4.59252349e-01  3.21798456e-09  1.60085316e-07  7.50384999e-08  8.80000000e-01 
 8.90000000e-01  3.38065817e-09  4.59252328e-01  4.59252329e-01  4.59252328e-01  3.39439010e-09  4.59252328e-01  3.21798456e-09  1.60085298e-07  7.50384928e-08  8.90000000e-01 
 9.00000000e-01  3.38065817e-09  4.59252337e-01  4.59252337e-01  4.59252337e-01  3.39439010e-09  4.59252337e-01  3.21798456e-09  1.60085306e-07  7.50383506e-08  9.00000000e-01 
 9.10000000e-01  3.38065823e-09  4.59252323e-01  4.59252323e-01  4.59252323e-01  3.39439010e-09  4.59252323e-01  3.21798456e-09  1.60085279e-07  7.50382583e-08  9.10000000e-01 
 9.20000000e-01  3.38065818e-09  4.59252346e-01  4.59252346e-01  4.59252346e-01  3.39439010e-09  4.59252346e-01  3.21798456e-09  1.60085323e-07  7.50382156e-08  9.20000000e-01 
 9.30000000e-01  3.38065817e-09  4.59252318e-01  4.59252318e-01  4.59252318e-01  3.39439010e-09  4.59252318e-01  3.21798450e-09  1.60085287e-07  7.50381730e-08  9.30000000e-01 
 9.40000000e-01  3.38065817e-09  4.59252330e-01  4.59252330e-01  4.59252330e-01  3.39439010e-09  4.59252330e-01  3.21798457e-09  1.60085294e-07  7.50379598e-08  9.40000000e-01 
 9.50000000e-01  3.38065823e-09  4.59252339e-01  4.59252339e-01  4.59252338e-01  3.39439010e-09  4.59252338e-01  3.21798455e-09  1.60085309e-07  7.50379598e-08  9.50000000e-01 
 9.60000000e-01  3.38065818e-09  4.59252342e-01  4.59252343e-01  4.59252342e-01  3.39439010e-09  4.59252342e-01  3.21798456e-09  1.60085312e-07  7.50377822e-08  9.60000000e-01 
 9.70000000e-01  3.38065823e-09  4.59252326e-01  4.59252326e-01  4.59252326e-01  3.39439010e-09  4.59252326e-01  3.21798456e-09  1.60085296e-07  7.50379172e-08  9.70000000e-01 
 9.80000000e-01  3.38065817e-09  4.59252308e-01  4.59252308e-01  4.59252308e-01  3.39439009e-09  4.59252308e-01  3.21798456e-09  1.60085259e-07  7.50376259e-08  9.80000000e-01 
 9.90000000e-01  3.38065818e-09  4.59252362e-01  4.59252362e-01  4.59252362e-01  3.39439010e-09  4.59252362e-01  3.21798450e-09  1.60085337e-07  7.50375762e-08  9.90000000e-01 
 1.00000000e+00  3.38065817e-09  4.59252307e-01  4.59252307e-01  4.59252307e-01  3.39439009e-09  4.59252306e-01  3.21798456e-09  1.60085262e-07  7.50375690e-08  1.00000000e+00 
 1.01000000e+00  3.38065818e-09  4.59252345e-01  4.59252345e-01  4.59252345e-01  3.39439010e-09  4.59252345e-01  3.21798456e-09  1.60085307e-07  7.50375335e-08  1.01000000e+00 
 1.02000000e+00  3.38065817e-09  4.59252319e-01  4.59252319e-01  4.59252319e-01  3.39439010e-09  4.59252319e-01  3.21798456e-09  1.60085278e-07  7.50373985e-08  1.02000000e+00 
 1.03000000e+00  3.38065823e-09  4.59252335e-01  4.59252335e-01  4.59252335e-01  3.39439010e-09  4.59252335e-01  3.21798456e-09  1.60085300e-07  7.50374411e-08  1.03000000e+00 
 1.04000000e+00  3.38065823e-09  4.59252325e-01  4.59252326e-01  4.59252325e-01  3.39439010e-09  4.59252325e-01  3.21798456e-09  1.60085287e-07  7.50372067e-08  1.04000000e+00 
 1.05000000e+00  3.38065818e-09  4.59252339e-01  4.59252339e-01  4.59252339e-01  3.39439010e-09  4.59252339e-01  3.21798456e-09  1.60085318e-07  7.50372209e-08  1.05000000e+00 
 1.06000000e+00  3.38065823e-09  4.59252338e-01  4.59252339e-01  4.59252338e-01  3.39439010e-09  4.59252338e-01  3.21798456e-09  1.60085315e-07  7.50372706e-08  1.06000000e+00 
 1.07000000e+00  3.38065818e-09  4.59252350e-01  4.59252350e-01  4.59252350e-01  3.39439010e-09  4.59252350e-01  3.21798450e-09  1.60085312e-07  7.50370219e-08  1.07000000e+00 
 1.08000000e+00  3.38065817e-09  4.59252337e-01  4.59252337e-01  4.59252337e-01  3.39439010e-09  4.59252337e-01  3.21798456e-09  1.60085303e-07  7.50371143e-08  1.08000000e+00 
 1.09000000e+00  3.38065818e-09  4.59252346e-01  4.59252346e-01  4.59252346e-01  3.39439010e-09  4.59252346e-01  3.21798456e-09  1.60085318e-07  7.50370290e-08  1.09000000e+00 
 1.10000000e+00  3.38065823e-09  4.59252333e-01  4.59252333e-01  4.59252333e-01  3.39439010e-09  4.59252333e-01  3.21798456e-09  1.60085286e-07  7.50368798e-08  1.10000000e+00 
