 v-sweep         v(b0)           v(b1)           v(b2)           v(b3)           v(b4)           v(b5)           v(b6)           i(vbias)        i(viout)        v(vout)        
 0.00000000e+00  3.26987584e-09  4.57943686e-01  3.43845962e-09  3.22516707e-09  3.25524061e-09  3.31822324e-09  3.54991192e-09  1.57267261e-07  2.66652874e-09  0.00000000e+00 
 1.00000000e-02  3.26987588e-09  4.57943702e-01  3.43845966e-09  3.22516712e-09  3.25524065e-09  3.31822322e-09  3.54991196e-09  1.57267283e-07  2.66604683e-09  1.00000000e-02 
 2.00000000e-02  3.26987588e-09  4.57943689e-01  3.43845966e-09  3.22516711e-09  3.25524059e-09  3.31822322e-09  3.54991196e-09  1.57267261e-07  2.66568367e-09  2.00000000e-02 
 3.00000000e-02  3.26987582e-09  4.57943695e-01  3.43845966e-09  3.22516711e-09  3.25524065e-09  3.31822322e-09  3.54991190e-09  1.57267262e-07  2.66541877e-09  3.00000000e-02 
 4.00000000e-02  3.26987588e-09  4.57943709e-01  3.43845966e-09  3.22516712e-09  3.25524059e-09  3.31822322e-09  3.54991196e-09  1.57267285e-07  2.66498867e-09  4.00000000e-02 
 5.00000000e-02  3.26987582e-09  4.57943708e-01  3.43845966e-09  3.22516712e-09  3.25524059e-09  3.31822322e-09  3.54991196e-09  1.57267304e-07  2.66457523e-09  5.00000000e-02 
 6.00000000e-02  3.26987588e-09  4.57943700e-01  3.43845966e-09  3.22516712e-09  3.25524065e-09  3.31822322e-09  3.54991191e-09  1.57267273e-07  2.66425992e-09  6.00000000e-02 
 7.00000000e-02  3.26987582e-09  4.57943707e-01  3.43845966e-09  3.22516712e-09  3.25524065e-09  3.31822328e-09  3.54991196e-09  1.57267291e-07  2.66396460e-09  7.00000000e-02 
 8.00000000e-02  3.26987588e-09  4.57943693e-01  3.43845966e-09  3.22516711e-09  3.25524065e-09  3.31822322e-09  3.54991196e-09  1.57267277e-07  2.66366396e-09  8.00000000e-02 
 9.00000000e-02  3.26987582e-09  4.57943673e-01  3.43845966e-09  3.22516711e-09  3.25524059e-09  3.31822322e-09  3.54991190e-09  1.57267226e-07  2.66345790e-09  9.00000000e-02 
 1.00000000e-01  3.26987588e-09  4.57943692e-01  3.43845966e-09  3.22516711e-09  3.25524065e-09  3.31822322e-09  3.54991190e-09  1.57267280e-07  2.66307065e-09  1.00000000e-01 
 1.10000000e-01  3.26987588e-09  4.57943711e-01  3.43845966e-09  3.22516712e-09  3.25524065e-09  3.31822322e-09  3.54991196e-09  1.57267304e-07  2.66299161e-09  1.10000000e-01 
 1.20000000e-01  3.26987582e-09  4.57943699e-01  3.43845966e-09  3.22516712e-09  3.25524059e-09  3.31822322e-09  3.54991190e-09  1.57267277e-07  2.66251110e-09  1.20000000e-01 
 1.30000000e-01  3.26987582e-09  4.57943681e-01  3.43845966e-09  3.22516711e-09  3.25524065e-09  3.31822322e-09  3.54991190e-09  1.57267253e-07  2.66236455e-09  1.30000000e-01 
 1.40000000e-01  3.26987582e-09  4.57943680e-01  3.43845966e-09  3.22516711e-09  3.25524065e-09  3.31822322e-09  3.54991196e-09  1.57267245e-07  2.66213718e-09  1.40000000e-01 
 1.50000000e-01  3.26987582e-09  4.57943697e-01  3.43845966e-09  3.22516712e-09  3.25524065e-09  3.31822322e-09  3.54991190e-09  1.57267265e-07  2.66199862e-09  1.50000000e-01 
 1.60000000e-01  3.26987588e-09  4.57943683e-01  3.43845966e-09  3.22516711e-09  3.25524065e-09  3.31822322e-09  3.54991196e-09  1.57267260e-07  2.66158118e-09  1.60000000e-01 
 1.70000000e-01  3.26987588e-09  4.57943700e-01  3.43845966e-09  3.22516712e-09  3.25524065e-09  3.31822322e-09  3.54991191e-09  1.57267286e-07  2.66146216e-09  1.70000000e-01 
 1.80000000e-01  3.26987588e-09  4.57943710e-01  3.43845966e-09  3.22516712e-09  3.25524059e-09  3.31822322e-09  3.54991196e-09  1.57267301e-07  2.66120281e-09  1.80000000e-01 
 1.90000000e-01  3.26987582e-09  4.57943717e-01  3.43845966e-09  3.22516712e-09  3.25524065e-09  3.31822322e-09  3.54991191e-09  1.57267309e-07  2.66102340e-09  1.90000000e-01 
 2.00000000e-01  3.26987588e-09  4.57943692e-01  3.43845966e-09  3.22516711e-09  3.25524065e-09  3.31822328e-09  3.54991190e-09  1.57267271e-07  2.66093458e-09  2.00000000e-01 
 2.10000000e-01  3.26987582e-09  4.57943686e-01  3.43845966e-09  3.22516711e-09  3.25524065e-09  3.31822322e-09  3.54991196e-09  1.57267259e-07  2.66069833e-09  2.10000000e-01 
 2.20000000e-01  3.26987587e-09  4.57943659e-01  3.43845966e-09  3.22516711e-09  3.25524065e-09  3.31822327e-09  3.54991196e-09  1.57267221e-07  2.66053846e-09  2.20000000e-01 
 2.30000000e-01  3.26987582e-09  4.57943695e-01  3.43845966e-09  3.22516711e-09  3.25524059e-09  3.31822322e-09  3.54991196e-09  1.57267264e-07  2.66044076e-09  2.30000000e-01 
 2.40000000e-01  3.26987582e-09  4.57943708e-01  3.43845966e-09  3.22516712e-09  3.25524065e-09  3.31822328e-09  3.54991191e-09  1.57267302e-07  2.66023470e-09  2.40000000e-01 
 2.50000000e-01  3.26987582e-09  4.57943690e-01  3.43845966e-09  3.22516711e-09  3.25524059e-09  3.31822328e-09  3.54991196e-09  1.57267267e-07  2.66009614e-09  2.50000000e-01 
 2.60000000e-01  3.26987582e-09  4.57943689e-01  3.43845966e-09  3.22516711e-09  3.25524065e-09  3.31822328e-09  3.54991196e-09  1.57267252e-07  2.65987765e-09  2.60000000e-01 
 2.70000000e-01  3.26987582e-09  4.57943706e-01  3.43845966e-09  3.22516712e-09  3.25524059e-09  3.31822328e-09  3.54991196e-09  1.57267298e-07  2.65981193e-09  2.70000000e-01 
 2.80000000e-01  3.26987582e-09  4.57943699e-01  3.43845966e-09  3.22516712e-09  3.25524059e-09  3.31822322e-09  3.54991196e-09  1.57267281e-07  2.65977995e-09  2.80000000e-01 
 2.90000000e-01  3.26987582e-09  4.57943680e-01  3.43845966e-09  3.22516711e-09  3.25524059e-09  3.31822328e-09  3.54991196e-09  1.57267252e-07  2.65949396e-09  2.90000000e-01 
 3.00000000e-01  3.26987582e-09  4.57943679e-01  3.43845966e-09  3.22516711e-09  3.25524059e-09  3.31822322e-09  3.54991190e-09  1.57267245e-07  2.65951172e-09  3.00000000e-01 
 3.10000000e-01  3.26987588e-09  4.57943701e-01  3.43845966e-09  3.22516712e-09  3.25524059e-09  3.31822322e-09  3.54991196e-09  1.57267275e-07  2.65936961e-09  3.10000000e-01 
 3.20000000e-01  3.26987582e-09  4.57943689e-01  3.43845966e-09  3.22516711e-09  3.25524065e-09  3.31822322e-09  3.54991190e-09  1.57267261e-07  2.65914935e-09  3.20000000e-01 
 3.30000000e-01  3.26987582e-09  4.57943708e-01  3.43845966e-09  3.22516712e-09  3.25524065e-09  3.31822328e-09  3.54991196e-09  1.57267284e-07  2.65907474e-09  3.30000000e-01 
 3.40000000e-01  3.26987582e-09  4.57943688e-01  3.43845966e-09  3.22516711e-09  3.25524065e-09  3.31822328e-09  3.54991196e-09  1.57267268e-07  2.65889355e-09  3.40000000e-01 
 3.50000000e-01  3.26987582e-09  4.57943706e-01  3.43845966e-09  3.22516712e-09  3.25524065e-09  3.31822328e-09  3.54991196e-09  1.57267287e-07  2.65889710e-09  3.50000000e-01 
 3.60000000e-01  3.26987588e-09  4.57943710e-01  3.43845966e-09  3.22516706e-09  3.25524065e-09  3.31822322e-09  3.54991191e-09  1.57267303e-07  2.65865197e-09  3.60000000e-01 
 3.70000000e-01  3.26987582e-09  4.57943688e-01  3.43845966e-09  3.22516713e-09  3.25524059e-09  3.31822322e-09  3.54991196e-09  1.57267259e-07  2.65862710e-09  3.70000000e-01 
 3.80000000e-01  3.26987582e-09  4.57943688e-01  3.43845966e-09  3.22516711e-09  3.25524065e-09  3.31822328e-09  3.54991190e-09  1.57267262e-07  2.65855604e-09  3.80000000e-01 
 3.90000000e-01  3.26987582e-09  4.57943692e-01  3.43845966e-09  3.22516711e-09  3.25524065e-09  3.31822322e-09  3.54991196e-09  1.57267261e-07  2.65839972e-09  3.90000000e-01 
 4.00000000e-01  3.26987582e-09  4.57943670e-01  3.43845960e-09  3.22516711e-09  3.25524059e-09  3.31822322e-09  3.54991190e-09  1.57267235e-07  2.65833933e-09  4.00000000e-01 
 4.10000000e-01  3.26987582e-09  4.57943691e-01  3.43845966e-09  3.22516711e-09  3.25524065e-09  3.31822328e-09  3.54991190e-09  1.57267269e-07  2.65819367e-09  4.10000000e-01 
 4.20000000e-01  3.26987588e-09  4.57943701e-01  3.43845966e-09  3.22516712e-09  3.25524065e-09  3.31822322e-09  3.54991196e-09  1.57267285e-07  2.65796274e-09  4.20000000e-01 
 4.30000000e-01  3.26987582e-09  4.57943678e-01  3.43845966e-09  3.22516711e-09  3.25524059e-09  3.31822322e-09  3.54991196e-09  1.57267241e-07  2.65794498e-09  4.30000000e-01 
 4.40000000e-01  3.26987582e-09  4.57943688e-01  3.43845966e-09  3.22516711e-09  3.25524065e-09  3.31822322e-09  3.54991190e-09  1.57267254e-07  2.65794142e-09  4.40000000e-01 
 4.50000000e-01  3.26987582e-09  4.57943691e-01  3.43845966e-09  3.22516711e-09  3.25524065e-09  3.31822322e-09  3.54991196e-09  1.57267273e-07  2.65790590e-09  4.50000000e-01 
 4.60000000e-01  3.26987588e-09  4.57943699e-01  3.43845966e-09  3.22516706e-09  3.25524059e-09  3.31822322e-09  3.54991190e-09  1.57267282e-07  2.65774958e-09  4.60000000e-01 
 4.70000000e-01  3.26987582e-09  4.57943696e-01  3.43845966e-09  3.22516707e-09  3.25524059e-09  3.31822322e-09  3.54991190e-09  1.57267277e-07  2.65764655e-09  4.70000000e-01 
 4.80000000e-01  3.26987588e-09  4.57943702e-01  3.43845966e-09  3.22516712e-09  3.25524065e-09  3.31822322e-09  3.54991196e-09  1.57267281e-07  2.65761457e-09  4.80000000e-01 
 4.90000000e-01  3.26987582e-09  4.57943704e-01  3.43845966e-09  3.22516711e-09  3.25524065e-09  3.31822322e-09  3.54991196e-09  1.57267291e-07  2.65743338e-09  4.90000000e-01 
 5.00000000e-01  3.26987588e-09  4.57943708e-01  3.43845966e-09  3.22516706e-09  3.25524065e-09  3.31822322e-09  3.54991196e-09  1.57267287e-07  2.65736233e-09  5.00000000e-01 
 5.10000000e-01  3.26987582e-09  4.57943682e-01  3.43845966e-09  3.22516707e-09  3.25524059e-09  3.31822322e-09  3.54991196e-09  1.57267252e-07  2.65730193e-09  5.10000000e-01 
 5.20000000e-01  3.26987582e-09  4.57943706e-01  3.43845966e-09  3.22516712e-09  3.25524065e-09  3.31822322e-09  3.54991191e-09  1.57267282e-07  2.65720956e-09  5.20000000e-01 
 5.30000000e-01  3.26987582e-09  4.57943698e-01  3.43845966e-09  3.22516711e-09  3.25524065e-09  3.31822322e-09  3.54991196e-09  1.57267290e-07  2.65720601e-09  5.30000000e-01 
 5.40000000e-01  3.26987588e-09  4.57943689e-01  3.43845966e-09  3.22516711e-09  3.25524059e-09  3.31822328e-09  3.54991196e-09  1.57267273e-07  2.65706390e-09  5.40000000e-01 
 5.50000000e-01  3.26987582e-09  4.57943688e-01  3.43845966e-09  3.22516711e-09  3.25524065e-09  3.31822322e-09  3.54991190e-09  1.57267273e-07  2.65689692e-09  5.50000000e-01 
 5.60000000e-01  3.26987588e-09  4.57943697e-01  3.43845966e-09  3.22516712e-09  3.25524065e-09  3.31822328e-09  3.54991196e-09  1.57267282e-07  2.65687206e-09  5.60000000e-01 
 5.70000000e-01  3.26987582e-09  4.57943711e-01  3.43845966e-09  3.22516712e-09  3.25524059e-09  3.31822322e-09  3.54991196e-09  1.57267297e-07  2.65677258e-09  5.70000000e-01 
 5.80000000e-01  3.26987582e-09  4.57943703e-01  3.43845966e-09  3.22516712e-09  3.25524065e-09  3.31822322e-09  3.54991191e-09  1.57267293e-07  2.65676192e-09  5.80000000e-01 
 5.90000000e-01  3.26987582e-09  4.57943708e-01  3.43845966e-09  3.22516712e-09  3.25524059e-09  3.31822322e-09  3.54991196e-09  1.57267284e-07  2.65668376e-09  5.90000000e-01 
 6.00000000e-01  3.26987582e-09  4.57943687e-01  3.43845966e-09  3.22516711e-09  3.25524065e-09  3.31822322e-09  3.54991196e-09  1.57267261e-07  2.65659139e-09  6.00000000e-01 
 6.10000000e-01  3.26987588e-09  4.57943705e-01  3.43845966e-09  3.22516712e-09  3.25524065e-09  3.31822322e-09  3.54991196e-09  1.57267285e-07  2.65644218e-09  6.10000000e-01 
 6.20000000e-01  3.26987588e-09  4.57943693e-01  3.43845966e-09  3.22516711e-09  3.25524065e-09  3.31822322e-09  3.54991196e-09  1.57267271e-07  2.65640665e-09  6.20000000e-01 
 6.30000000e-01  3.26987582e-09  4.57943694e-01  3.43845966e-09  3.22516706e-09  3.25524065e-09  3.31822322e-09  3.54991196e-09  1.57267283e-07  2.65636402e-09  6.30000000e-01 
 6.40000000e-01  3.26987588e-09  4.57943692e-01  3.43845966e-09  3.22516713e-09  3.25524065e-09  3.31822322e-09  3.54991196e-09  1.57267278e-07  2.65622901e-09  6.40000000e-01 
 6.50000000e-01  3.26987582e-09  4.57943695e-01  3.43845966e-09  3.22516711e-09  3.25524065e-09  3.31822322e-09  3.54991196e-09  1.57267279e-07  2.65612954e-09  6.50000000e-01 
 6.60000000e-01  3.26987582e-09  4.57943696e-01  3.43845966e-09  3.22516711e-09  3.25524059e-09  3.31822328e-09  3.54991196e-09  1.57267269e-07  2.65605138e-09  6.60000000e-01 
 6.70000000e-01  3.26987582e-09  4.57943694e-01  3.43845966e-09  3.22516711e-09  3.25524059e-09  3.31822322e-09  3.54991196e-09  1.57267262e-07  2.65582401e-09  6.70000000e-01 
 6.80000000e-01  3.26987582e-09  4.57943686e-01  3.43845960e-09  3.22516711e-09  3.25524065e-09  3.31822328e-09  3.54991190e-09  1.57267251e-07  2.65588795e-09  6.80000000e-01 
 6.90000000e-01  3.26987582e-09  4.57943722e-01  3.43845966e-09  3.22516712e-09  3.25524065e-09  3.31822322e-09  3.54991196e-09  1.57267300e-07  2.65585243e-09  6.90000000e-01 
 7.00000000e-01  3.26987582e-09  4.57943703e-01  3.43845966e-09  3.22516712e-09  3.25524059e-09  3.31822328e-09  3.54991196e-09  1.57267301e-07  2.65573163e-09  7.00000000e-01 
 7.10000000e-01  3.26987582e-09  4.57943685e-01  3.43845966e-09  3.22516711e-09  3.25524065e-09  3.31822322e-09  3.54991196e-09  1.57267261e-07  2.65553979e-09  7.10000000e-01 
 7.20000000e-01  3.26987582e-09  4.57943694e-01  3.43845966e-09  3.22516711e-09  3.25524059e-09  3.31822322e-09  3.54991190e-09  1.57267266e-07  2.65553979e-09  7.20000000e-01 
 7.30000000e-01  3.26987582e-09  4.57943705e-01  3.43845966e-09  3.22516712e-09  3.25524065e-09  3.31822322e-09  3.54991196e-09  1.57267286e-07  2.65543321e-09  7.30000000e-01 
 7.40000000e-01  3.26987588e-09  4.57943705e-01  3.43845966e-09  3.22516712e-09  3.25524059e-09  3.31822322e-09  3.54991196e-09  1.57267293e-07  2.65539057e-09  7.40000000e-01 
 7.50000000e-01  3.26987588e-09  4.57943694e-01  3.43845966e-09  3.22516711e-09  3.25524065e-09  3.31822328e-09  3.54991196e-09  1.57267273e-07  2.65533373e-09  7.50000000e-01 
 7.60000000e-01  3.26987582e-09  4.57943680e-01  3.43845966e-09  3.22516711e-09  3.25524059e-09  3.31822328e-09  3.54991190e-09  1.57267251e-07  2.65529820e-09  7.60000000e-01 
 7.70000000e-01  3.26987588e-09  4.57943694e-01  3.43845966e-09  3.22516711e-09  3.25524065e-09  3.31822322e-09  3.54991190e-09  1.57267265e-07  2.65515609e-09  7.70000000e-01 
 7.80000000e-01  3.26987588e-09  4.57943704e-01  3.43845966e-09  3.22516712e-09  3.25524059e-09  3.31822322e-09  3.54991196e-09  1.57267279e-07  2.65511346e-09  7.80000000e-01 
 7.90000000e-01  3.26987582e-09  4.57943691e-01  3.43845966e-09  3.22516711e-09  3.25524059e-09  3.31822328e-09  3.54991196e-09  1.57267277e-07  2.65483635e-09  7.90000000e-01 
 8.00000000e-01  3.26987587e-09  4.57943663e-01  3.43845966e-09  3.22516711e-09  3.25524065e-09  3.31822322e-09  3.54991196e-09  1.57267220e-07  2.65482214e-09  8.00000000e-01 
 8.10000000e-01  3.26987582e-09  4.57943691e-01  3.43845966e-09  3.22516711e-09  3.25524059e-09  3.31822328e-09  3.54991196e-09  1.57267273e-07  2.65480793e-09  8.10000000e-01 
 8.20000000e-01  3.26987582e-09  4.57943689e-01  3.43845966e-09  3.22516711e-09  3.25524059e-09  3.31822328e-09  3.54991190e-09  1.57267268e-07  2.65470135e-09  8.20000000e-01 
 8.30000000e-01  3.26987588e-09  4.57943707e-01  3.43845966e-09  3.22516712e-09  3.25524065e-09  3.31822322e-09  3.54991196e-09  1.57267278e-07  2.65464450e-09  8.30000000e-01 
 8.40000000e-01  3.26987582e-09  4.57943714e-01  3.43845966e-09  3.22516712e-09  3.25524059e-09  3.31822322e-09  3.54991191e-09  1.57267297e-07  2.65451661e-09  8.40000000e-01 
 8.50000000e-01  3.26987582e-09  4.57943691e-01  3.43845966e-09  3.22516711e-09  3.25524065e-09  3.31822322e-09  3.54991190e-09  1.57267260e-07  2.65441003e-09  8.50000000e-01 
 8.60000000e-01  3.26987588e-09  4.57943685e-01  3.43845966e-09  3.22516711e-09  3.25524065e-09  3.31822322e-09  3.54991196e-09  1.57267262e-07  2.65429634e-09  8.60000000e-01 
 8.70000000e-01  3.26987582e-09  4.57943690e-01  3.43845966e-09  3.22516711e-09  3.25524059e-09  3.31822322e-09  3.54991196e-09  1.57267273e-07  2.65422528e-09  8.70000000e-01 
 8.80000000e-01  3.26987588e-09  4.57943690e-01  3.43845966e-09  3.22516706e-09  3.25524065e-09  3.31822328e-09  3.54991196e-09  1.57267268e-07  2.65416844e-09  8.80000000e-01 
 8.90000000e-01  3.26987582e-09  4.57943688e-01  3.43845966e-09  3.22516707e-09  3.25524065e-09  3.31822328e-09  3.54991190e-09  1.57267262e-07  2.65410449e-09  8.90000000e-01 
 9.00000000e-01  3.26987582e-09  4.57943703e-01  3.43845966e-09  3.22516712e-09  3.25524059e-09  3.31822322e-09  3.54991196e-09  1.57267294e-07  2.65399791e-09  9.00000000e-01 
 9.10000000e-01  3.26987582e-09  4.57943702e-01  3.43845966e-09  3.22516711e-09  3.25524059e-09  3.31822322e-09  3.54991196e-09  1.57267287e-07  2.65396949e-09  9.10000000e-01 
 9.20000000e-01  3.26987582e-09  4.57943693e-01  3.43845966e-09  3.22516711e-09  3.25524065e-09  3.31822322e-09  3.54991196e-09  1.57267281e-07  2.65380606e-09  9.20000000e-01 
 9.30000000e-01  3.26987582e-09  4.57943689e-01  3.43845966e-09  3.22516711e-09  3.25524059e-09  3.31822322e-09  3.54991190e-09  1.57267255e-07  2.65375633e-09  9.30000000e-01 
 9.40000000e-01  3.26987588e-09  4.57943680e-01  3.43845966e-09  3.22516711e-09  3.25524065e-09  3.31822322e-09  3.54991190e-09  1.57267247e-07  2.65378475e-09  9.40000000e-01 
 9.50000000e-01  3.26987588e-09  4.57943696e-01  3.43845966e-09  3.22516711e-09  3.25524065e-09  3.31822328e-09  3.54991196e-09  1.57267278e-07  2.65353606e-09  9.50000000e-01 
 9.60000000e-01  3.26987588e-09  4.57943693e-01  3.43845966e-09  3.22516711e-09  3.25524065e-09  3.31822322e-09  3.54991190e-09  1.57267277e-07  2.65342948e-09  9.60000000e-01 
 9.70000000e-01  3.26987588e-09  4.57943685e-01  3.43845966e-09  3.22516711e-09  3.25524065e-09  3.31822328e-09  3.54991190e-09  1.57267262e-07  2.65343658e-09  9.70000000e-01 
 9.80000000e-01  3.26987582e-09  4.57943684e-01  3.43845966e-09  3.22516711e-09  3.25524059e-09  3.31822322e-09  3.54991196e-09  1.57267244e-07  2.65330868e-09  9.80000000e-01 
 9.90000000e-01  3.26987588e-09  4.57943695e-01  3.43845966e-09  3.22516711e-09  3.25524065e-09  3.31822322e-09  3.54991190e-09  1.57267262e-07  2.65322342e-09  9.90000000e-01 
 1.00000000e+00  3.26987582e-09  4.57943705e-01  3.43845966e-09  3.22516712e-09  3.25524059e-09  3.31822322e-09  3.54991196e-09  1.57267273e-07  2.65315947e-09  1.00000000e+00 
 1.01000000e+00  3.26987582e-09  4.57943689e-01  3.43845966e-09  3.22516711e-09  3.25524065e-09  3.31822322e-09  3.54991196e-09  1.57267267e-07  2.65307420e-09  1.01000000e+00 
 1.02000000e+00  3.26987582e-09  4.57943689e-01  3.43845966e-09  3.22516711e-09  3.25524059e-09  3.31822322e-09  3.54991196e-09  1.57267258e-07  2.65296762e-09  1.02000000e+00 
 1.03000000e+00  3.26987582e-09  4.57943700e-01  3.43845966e-09  3.22516712e-09  3.25524065e-09  3.31822322e-09  3.54991196e-09  1.57267296e-07  2.65286104e-09  1.03000000e+00 
 1.04000000e+00  3.26987582e-09  4.57943706e-01  3.43845966e-09  3.22516712e-09  3.25524065e-09  3.31822322e-09  3.54991196e-09  1.57267287e-07  2.65270472e-09  1.04000000e+00 
 1.05000000e+00  3.26987588e-09  4.57943706e-01  3.43845966e-09  3.22516706e-09  3.25524065e-09  3.31822322e-09  3.54991196e-09  1.57267293e-07  2.65261235e-09  1.05000000e+00 
 1.06000000e+00  3.26987588e-09  4.57943686e-01  3.43845966e-09  3.22516713e-09  3.25524065e-09  3.31822322e-09  3.54991196e-09  1.57267259e-07  2.65257682e-09  1.06000000e+00 
 1.07000000e+00  3.26987582e-09  4.57943696e-01  3.43845966e-09  3.22516711e-09  3.25524065e-09  3.31822322e-09  3.54991196e-09  1.57267273e-07  2.65248445e-09  1.07000000e+00 
 1.08000000e+00  3.26987582e-09  4.57943687e-01  3.43845966e-09  3.22516711e-09  3.25524059e-09  3.31822322e-09  3.54991190e-09  1.57267265e-07  2.65232103e-09  1.08000000e+00 
 1.09000000e+00  3.26987588e-09  4.57943702e-01  3.43845966e-09  3.22516712e-09  3.25524065e-09  3.31822322e-09  3.54991191e-09  1.57267275e-07  2.65240629e-09  1.09000000e+00 
 1.10000000e+00  3.26987588e-09  4.57943686e-01  3.43845966e-09  3.22516711e-09  3.25524059e-09  3.31822322e-09  3.54991190e-09  1.57267267e-07  2.65217892e-09  1.10000000e+00 
