 v-sweep         v(b0)           v(b1)           v(b2)           v(b3)           v(b4)           v(b5)           v(b6)           i(vbias)        i(viout)        v(vout)        
 0.00000000e+00  3.35058945e-09  4.57134784e-01  4.57134784e-01  3.22008777e-09  4.57134784e-01  4.57134784e-01  4.57134784e-01  1.56636680e-07  1.67515253e-07  0.00000000e+00 
 1.00000000e-02  3.35058948e-09  4.57134761e-01  4.57134761e-01  3.22008780e-09  4.57134761e-01  4.57134761e-01  4.57134761e-01  1.56636642e-07  1.67514610e-07  1.00000000e-02 
 2.00000000e-02  3.35058942e-09  4.57134792e-01  4.57134792e-01  3.22008786e-09  4.57134792e-01  4.57134792e-01  4.57134792e-01  1.56636685e-07  1.67514374e-07  2.00000000e-02 
 3.00000000e-02  3.35058942e-09  4.57134770e-01  4.57134770e-01  3.22008780e-09  4.57134770e-01  4.57134770e-01  4.57134770e-01  1.56636650e-07  1.67513772e-07  3.00000000e-02 
 4.00000000e-02  3.35058942e-09  4.57134774e-01  4.57134774e-01  3.22008780e-09  4.57134774e-01  4.57134774e-01  4.57134774e-01  1.56636661e-07  1.67513468e-07  4.00000000e-02 
 5.00000000e-02  3.35058943e-09  4.57134816e-01  4.57134816e-01  3.22008780e-09  4.57134816e-01  4.57134816e-01  4.57134816e-01  1.56636722e-07  1.67513128e-07  5.00000000e-02 
 6.00000000e-02  3.35058948e-09  4.57134803e-01  4.57134803e-01  3.22008780e-09  4.57134803e-01  4.57134803e-01  4.57134803e-01  1.56636699e-07  1.67512811e-07  6.00000000e-02 
 7.00000000e-02  3.35058948e-09  4.57134781e-01  4.57134781e-01  3.22008786e-09  4.57134781e-01  4.57134781e-01  4.57134782e-01  1.56636676e-07  1.67512336e-07  7.00000000e-02 
 8.00000000e-02  3.35058948e-09  4.57134777e-01  4.57134777e-01  3.22008786e-09  4.57134777e-01  4.57134777e-01  4.57134777e-01  1.56636663e-07  1.67511946e-07  8.00000000e-02 
 9.00000000e-02  3.35058942e-09  4.57134788e-01  4.57134788e-01  3.22008780e-09  4.57134788e-01  4.57134788e-01  4.57134788e-01  1.56636688e-07  1.67511698e-07  9.00000000e-02 
 1.00000000e-01  3.35058942e-09  4.57134773e-01  4.57134773e-01  3.22008786e-09  4.57134773e-01  4.57134773e-01  4.57134773e-01  1.56636655e-07  1.67511212e-07  1.00000000e-01 
 1.10000000e-01  3.35058948e-09  4.57134765e-01  4.57134765e-01  3.22008780e-09  4.57134765e-01  4.57134765e-01  4.57134765e-01  1.56636653e-07  1.67510855e-07  1.10000000e-01 
 1.20000000e-01  3.35058948e-09  4.57134778e-01  4.57134778e-01  3.22008780e-09  4.57134778e-01  4.57134778e-01  4.57134778e-01  1.56636664e-07  1.67510751e-07  1.20000000e-01 
 1.30000000e-01  3.35058942e-09  4.57134761e-01  4.57134761e-01  3.22008780e-09  4.57134761e-01  4.57134761e-01  4.57134761e-01  1.56636641e-07  1.67510332e-07  1.30000000e-01 
 1.40000000e-01  3.35058948e-09  4.57134754e-01  4.57134754e-01  3.22008780e-09  4.57134754e-01  4.57134754e-01  4.57134754e-01  1.56636639e-07  1.67510009e-07  1.40000000e-01 
 1.50000000e-01  3.35058942e-09  4.57134789e-01  4.57134789e-01  3.22008780e-09  4.57134790e-01  4.57134790e-01  4.57134790e-01  1.56636673e-07  1.67509903e-07  1.50000000e-01 
 1.60000000e-01  3.35058948e-09  4.57134803e-01  4.57134803e-01  3.22008780e-09  4.57134803e-01  4.57134803e-01  4.57134803e-01  1.56636699e-07  1.67509798e-07  1.60000000e-01 
 1.70000000e-01  3.35058948e-09  4.57134777e-01  4.57134777e-01  3.22008786e-09  4.57134777e-01  4.57134777e-01  4.57134778e-01  1.56636663e-07  1.67509450e-07  1.70000000e-01 
 1.80000000e-01  3.35058948e-09  4.57134804e-01  4.57134804e-01  3.22008780e-09  4.57134804e-01  4.57134804e-01  4.57134804e-01  1.56636692e-07  1.67509272e-07  1.80000000e-01 
 1.90000000e-01  3.35058942e-09  4.57134790e-01  4.57134790e-01  3.22008780e-09  4.57134790e-01  4.57134790e-01  4.57134790e-01  1.56636688e-07  1.67508947e-07  1.90000000e-01 
 2.00000000e-01  3.35058948e-09  4.57134775e-01  4.57134775e-01  3.22008780e-09  4.57134775e-01  4.57134775e-01  4.57134776e-01  1.56636661e-07  1.67508682e-07  2.00000000e-01 
 2.10000000e-01  3.35058948e-09  4.57134792e-01  4.57134792e-01  3.22008780e-09  4.57134792e-01  4.57134792e-01  4.57134792e-01  1.56636696e-07  1.67508551e-07  2.10000000e-01 
 2.20000000e-01  3.35058942e-09  4.57134777e-01  4.57134777e-01  3.22008780e-09  4.57134777e-01  4.57134777e-01  4.57134777e-01  1.56636667e-07  1.67508194e-07  2.20000000e-01 
 2.30000000e-01  3.35058948e-09  4.57134786e-01  4.57134786e-01  3.22008780e-09  4.57134786e-01  4.57134786e-01  4.57134786e-01  1.56636673e-07  1.67508157e-07  2.30000000e-01 
 2.40000000e-01  3.35058948e-09  4.57134773e-01  4.57134773e-01  3.22008780e-09  4.57134773e-01  4.57134773e-01  4.57134773e-01  1.56636667e-07  1.67507931e-07  2.40000000e-01 
 2.50000000e-01  3.35058942e-09  4.57134767e-01  4.57134767e-01  3.22008780e-09  4.57134767e-01  4.57134767e-01  4.57134767e-01  1.56636664e-07  1.67507654e-07  2.50000000e-01 
 2.60000000e-01  3.35058948e-09  4.57134798e-01  4.57134798e-01  3.22008780e-09  4.57134798e-01  4.57134798e-01  4.57134798e-01  1.56636704e-07  1.67507613e-07  2.60000000e-01 
 2.70000000e-01  3.35058942e-09  4.57134785e-01  4.57134785e-01  3.22008780e-09  4.57134785e-01  4.57134785e-01  4.57134785e-01  1.56636672e-07  1.67507331e-07  2.70000000e-01 
 2.80000000e-01  3.35058948e-09  4.57134803e-01  4.57134803e-01  3.22008780e-09  4.57134803e-01  4.57134803e-01  4.57134804e-01  1.56636707e-07  1.67507274e-07  2.80000000e-01 
 2.90000000e-01  3.35058942e-09  4.57134796e-01  4.57134796e-01  3.22008780e-09  4.57134796e-01  4.57134796e-01  4.57134796e-01  1.56636696e-07  1.67507064e-07  2.90000000e-01 
 3.00000000e-01  3.35058948e-09  4.57134779e-01  4.57134779e-01  3.22008780e-09  4.57134779e-01  4.57134779e-01  4.57134779e-01  1.56636681e-07  1.67506865e-07  3.00000000e-01 
 3.10000000e-01  3.35058948e-09  4.57134792e-01  4.57134792e-01  3.22008780e-09  4.57134792e-01  4.57134792e-01  4.57134792e-01  1.56636688e-07  1.67506713e-07  3.10000000e-01 
 3.20000000e-01  3.35058942e-09  4.57134781e-01  4.57134781e-01  3.22008780e-09  4.57134782e-01  4.57134782e-01  4.57134782e-01  1.56636674e-07  1.67506482e-07  3.20000000e-01 
 3.30000000e-01  3.35058942e-09  4.57134801e-01  4.57134801e-01  3.22008780e-09  4.57134801e-01  4.57134801e-01  4.57134801e-01  1.56636716e-07  1.67506421e-07  3.30000000e-01 
 3.40000000e-01  3.35058942e-09  4.57134793e-01  4.57134793e-01  3.22008786e-09  4.57134793e-01  4.57134793e-01  4.57134793e-01  1.56636683e-07  1.67506311e-07  3.40000000e-01 
 3.50000000e-01  3.35058942e-09  4.57134775e-01  4.57134775e-01  3.22008780e-09  4.57134776e-01  4.57134776e-01  4.57134776e-01  1.56636663e-07  1.67505963e-07  3.50000000e-01 
 3.60000000e-01  3.35058942e-09  4.57134799e-01  4.57134799e-01  3.22008780e-09  4.57134799e-01  4.57134799e-01  4.57134799e-01  1.56636695e-07  1.67506030e-07  3.60000000e-01 
 3.70000000e-01  3.35058948e-09  4.57134778e-01  4.57134778e-01  3.22008780e-09  4.57134778e-01  4.57134778e-01  4.57134778e-01  1.56636659e-07  1.67505664e-07  3.70000000e-01 
 3.80000000e-01  3.35058948e-09  4.57134775e-01  4.57134775e-01  3.22008780e-09  4.57134775e-01  4.57134775e-01  4.57134775e-01  1.56636659e-07  1.67505586e-07  3.80000000e-01 
 3.90000000e-01  3.35058948e-09  4.57134777e-01  4.57134777e-01  3.22008780e-09  4.57134777e-01  4.57134777e-01  4.57134777e-01  1.56636653e-07  1.67505359e-07  3.90000000e-01 
 4.00000000e-01  3.35058948e-09  4.57134799e-01  4.57134799e-01  3.22008786e-09  4.57134799e-01  4.57134799e-01  4.57134799e-01  1.56636706e-07  1.67505295e-07  4.00000000e-01 
 4.10000000e-01  3.35058942e-09  4.57134805e-01  4.57134805e-01  3.22008780e-09  4.57134805e-01  4.57134805e-01  4.57134806e-01  1.56636697e-07  1.67505274e-07  4.10000000e-01 
 4.20000000e-01  3.35058948e-09  4.57134790e-01  4.57134790e-01  3.22008786e-09  4.57134790e-01  4.57134790e-01  4.57134790e-01  1.56636683e-07  1.67505064e-07  4.20000000e-01 
 4.30000000e-01  3.35058942e-09  4.57134768e-01  4.57134768e-01  3.22008780e-09  4.57134768e-01  4.57134768e-01  4.57134769e-01  1.56636666e-07  1.67504794e-07  4.30000000e-01 
 4.40000000e-01  3.35058942e-09  4.57134781e-01  4.57134781e-01  3.22008780e-09  4.57134781e-01  4.57134781e-01  4.57134782e-01  1.56636664e-07  1.67504815e-07  4.40000000e-01 
 4.50000000e-01  3.35058942e-09  4.57134783e-01  4.57134783e-01  3.22008780e-09  4.57134783e-01  4.57134783e-01  4.57134784e-01  1.56636683e-07  1.67504602e-07  4.50000000e-01 
 4.60000000e-01  3.35058948e-09  4.57134801e-01  4.57134801e-01  3.22008780e-09  4.57134801e-01  4.57134801e-01  4.57134802e-01  1.56636690e-07  1.67504620e-07  4.60000000e-01 
 4.70000000e-01  3.35058948e-09  4.57134767e-01  4.57134767e-01  3.22008786e-09  4.57134767e-01  4.57134767e-01  4.57134767e-01  1.56636645e-07  1.67504389e-07  4.70000000e-01 
 4.80000000e-01  3.35058948e-09  4.57134789e-01  4.57134789e-01  3.22008780e-09  4.57134789e-01  4.57134789e-01  4.57134789e-01  1.56636678e-07  1.67504329e-07  4.80000000e-01 
 4.90000000e-01  3.35058948e-09  4.57134781e-01  4.57134781e-01  3.22008780e-09  4.57134781e-01  4.57134781e-01  4.57134782e-01  1.56636664e-07  1.67504052e-07  4.90000000e-01 
 5.00000000e-01  3.35058948e-09  4.57134770e-01  4.57134770e-01  3.22008780e-09  4.57134770e-01  4.57134770e-01  4.57134771e-01  1.56636660e-07  1.67503970e-07  5.00000000e-01 
 5.10000000e-01  3.35058948e-09  4.57134793e-01  4.57134793e-01  3.22008780e-09  4.57134793e-01  4.57134793e-01  4.57134793e-01  1.56636706e-07  1.67503831e-07  5.10000000e-01 
 5.20000000e-01  3.35058948e-09  4.57134776e-01  4.57134776e-01  3.22008780e-09  4.57134776e-01  4.57134776e-01  4.57134776e-01  1.56636659e-07  1.67503632e-07  5.20000000e-01 
 5.30000000e-01  3.35058948e-09  4.57134781e-01  4.57134781e-01  3.22008780e-09  4.57134781e-01  4.57134781e-01  4.57134781e-01  1.56636666e-07  1.67503710e-07  5.30000000e-01 
 5.40000000e-01  3.35058948e-09  4.57134803e-01  4.57134803e-01  3.22008780e-09  4.57134803e-01  4.57134803e-01  4.57134803e-01  1.56636701e-07  1.67503568e-07  5.40000000e-01 
 5.50000000e-01  3.35058948e-09  4.57134757e-01  4.57134757e-01  3.22008780e-09  4.57134757e-01  4.57134757e-01  4.57134757e-01  1.56636635e-07  1.67503220e-07  5.50000000e-01 
 5.60000000e-01  3.35058948e-09  4.57134811e-01  4.57134811e-01  3.22008780e-09  4.57134811e-01  4.57134811e-01  4.57134811e-01  1.56636724e-07  1.67503341e-07  5.60000000e-01 
 5.70000000e-01  3.35058948e-09  4.57134794e-01  4.57134794e-01  3.22008780e-09  4.57134794e-01  4.57134794e-01  4.57134794e-01  1.56636696e-07  1.67503121e-07  5.70000000e-01 
 5.80000000e-01  3.35058942e-09  4.57134775e-01  4.57134775e-01  3.22008780e-09  4.57134775e-01  4.57134775e-01  4.57134775e-01  1.56636674e-07  1.67502989e-07  5.80000000e-01 
 5.90000000e-01  3.35058942e-09  4.57134795e-01  4.57134795e-01  3.22008786e-09  4.57134795e-01  4.57134795e-01  4.57134796e-01  1.56636690e-07  1.67502876e-07  5.90000000e-01 
 6.00000000e-01  3.35058942e-09  4.57134778e-01  4.57134778e-01  3.22008780e-09  4.57134778e-01  4.57134778e-01  4.57134778e-01  1.56636666e-07  1.67502691e-07  6.00000000e-01 
 6.10000000e-01  3.35058942e-09  4.57134788e-01  4.57134788e-01  3.22008780e-09  4.57134788e-01  4.57134788e-01  4.57134788e-01  1.56636676e-07  1.67502648e-07  6.10000000e-01 
 6.20000000e-01  3.35058942e-09  4.57134774e-01  4.57134774e-01  3.22008780e-09  4.57134774e-01  4.57134774e-01  4.57134774e-01  1.56636660e-07  1.67502435e-07  6.20000000e-01 
 6.30000000e-01  3.35058948e-09  4.57134803e-01  4.57134803e-01  3.22008780e-09  4.57134803e-01  4.57134803e-01  4.57134803e-01  1.56636710e-07  1.67502385e-07  6.30000000e-01 
 6.40000000e-01  3.35058948e-09  4.57134788e-01  4.57134788e-01  3.22008780e-09  4.57134788e-01  4.57134788e-01  4.57134788e-01  1.56636682e-07  1.67502300e-07  6.40000000e-01 
 6.50000000e-01  3.35058948e-09  4.57134793e-01  4.57134793e-01  3.22008780e-09  4.57134793e-01  4.57134793e-01  4.57134794e-01  1.56636708e-07  1.67502108e-07  6.50000000e-01 
 6.60000000e-01  3.35058942e-09  4.57134790e-01  4.57134790e-01  3.22008780e-09  4.57134790e-01  4.57134790e-01  4.57134791e-01  1.56636693e-07  1.67501987e-07  6.60000000e-01 
 6.70000000e-01  3.35058942e-09  4.57134767e-01  4.57134767e-01  3.22008780e-09  4.57134767e-01  4.57134767e-01  4.57134768e-01  1.56636650e-07  1.67501675e-07  6.70000000e-01 
 6.80000000e-01  3.35058943e-09  4.57134821e-01  4.57134821e-01  3.22008780e-09  4.57134821e-01  4.57134821e-01  4.57134821e-01  1.56636731e-07  1.67501796e-07  6.80000000e-01 
 6.90000000e-01  3.35058948e-09  4.57134831e-01  4.57134831e-01  3.22008780e-09  4.57134831e-01  4.57134831e-01  4.57134831e-01  1.56636734e-07  1.67501696e-07  6.90000000e-01 
 7.00000000e-01  3.35058942e-09  4.57134788e-01  4.57134788e-01  3.22008780e-09  4.57134788e-01  4.57134788e-01  4.57134789e-01  1.56636682e-07  1.67501454e-07  7.00000000e-01 
 7.10000000e-01  3.35058943e-09  4.57134816e-01  4.57134816e-01  3.22008780e-09  4.57134816e-01  4.57134816e-01  4.57134816e-01  1.56636721e-07  1.67501362e-07  7.10000000e-01 
 7.20000000e-01  3.35058942e-09  4.57134779e-01  4.57134779e-01  3.22008780e-09  4.57134779e-01  4.57134779e-01  4.57134779e-01  1.56636658e-07  1.67501135e-07  7.20000000e-01 
 7.30000000e-01  3.35058948e-09  4.57134817e-01  4.57134817e-01  3.22008786e-09  4.57134817e-01  4.57134817e-01  4.57134818e-01  1.56636728e-07  1.67501142e-07  7.30000000e-01 
 7.40000000e-01  3.35058948e-09  4.57134793e-01  4.57134793e-01  3.22008780e-09  4.57134793e-01  4.57134793e-01  4.57134793e-01  1.56636677e-07  1.67500907e-07  7.40000000e-01 
 7.50000000e-01  3.35058942e-09  4.57134789e-01  4.57134789e-01  3.22008780e-09  4.57134789e-01  4.57134789e-01  4.57134789e-01  1.56636686e-07  1.67500843e-07  7.50000000e-01 
 7.60000000e-01  3.35058948e-09  4.57134783e-01  4.57134783e-01  3.22008780e-09  4.57134783e-01  4.57134783e-01  4.57134783e-01  1.56636673e-07  1.67500659e-07  7.60000000e-01 
 7.70000000e-01  3.35058942e-09  4.57134774e-01  4.57134774e-01  3.22008780e-09  4.57134774e-01  4.57134774e-01  4.57134775e-01  1.56636668e-07  1.67500517e-07  7.70000000e-01 
 7.80000000e-01  3.35058942e-09  4.57134786e-01  4.57134786e-01  3.22008780e-09  4.57134786e-01  4.57134786e-01  4.57134787e-01  1.56636682e-07  1.67500403e-07  7.80000000e-01 
 7.90000000e-01  3.35058942e-09  4.57134786e-01  4.57134786e-01  3.22008780e-09  4.57134786e-01  4.57134786e-01  4.57134786e-01  1.56636666e-07  1.67500183e-07  7.90000000e-01 
 8.00000000e-01  3.35058942e-09  4.57134778e-01  4.57134778e-01  3.22008780e-09  4.57134778e-01  4.57134778e-01  4.57134778e-01  1.56636677e-07  1.67500055e-07  8.00000000e-01 
 8.10000000e-01  3.35058942e-09  4.57134769e-01  4.57134769e-01  3.22008780e-09  4.57134769e-01  4.57134769e-01  4.57134769e-01  1.56636657e-07  1.67499920e-07  8.10000000e-01 
 8.20000000e-01  3.35058942e-09  4.57134778e-01  4.57134778e-01  3.22008780e-09  4.57134778e-01  4.57134778e-01  4.57134779e-01  1.56636669e-07  1.67499778e-07  8.20000000e-01 
 8.30000000e-01  3.35058948e-09  4.57134791e-01  4.57134791e-01  3.22008780e-09  4.57134791e-01  4.57134791e-01  4.57134791e-01  1.56636692e-07  1.67499628e-07  8.30000000e-01 
 8.40000000e-01  3.35058942e-09  4.57134764e-01  4.57134764e-01  3.22008780e-09  4.57134764e-01  4.57134764e-01  4.57134764e-01  1.56636630e-07  1.67499451e-07  8.40000000e-01 
 8.50000000e-01  3.35058942e-09  4.57134804e-01  4.57134804e-01  3.22008780e-09  4.57134804e-01  4.57134804e-01  4.57134804e-01  1.56636710e-07  1.67499365e-07  8.50000000e-01 
 8.60000000e-01  3.35058942e-09  4.57134806e-01  4.57134806e-01  3.22008780e-09  4.57134806e-01  4.57134806e-01  4.57134806e-01  1.56636689e-07  1.67499309e-07  8.60000000e-01 
 8.70000000e-01  3.35058942e-09  4.57134787e-01  4.57134787e-01  3.22008786e-09  4.57134787e-01  4.57134787e-01  4.57134787e-01  1.56636679e-07  1.67499103e-07  8.70000000e-01 
 8.80000000e-01  3.35058942e-09  4.57134805e-01  4.57134805e-01  3.22008780e-09  4.57134805e-01  4.57134805e-01  4.57134805e-01  1.56636718e-07  1.67499032e-07  8.80000000e-01 
 8.90000000e-01  3.35058948e-09  4.57134781e-01  4.57134781e-01  3.22008786e-09  4.57134781e-01  4.57134781e-01  4.57134781e-01  1.56636682e-07  1.67498833e-07  8.90000000e-01 
 9.00000000e-01  3.35058942e-09  4.57134805e-01  4.57134805e-01  3.22008780e-09  4.57134805e-01  4.57134805e-01  4.57134806e-01  1.56636710e-07  1.67498733e-07  9.00000000e-01 
 9.10000000e-01  3.35058948e-09  4.57134802e-01  4.57134802e-01  3.22008780e-09  4.57134802e-01  4.57134802e-01  4.57134802e-01  1.56636701e-07  1.67498449e-07  9.10000000e-01 
 9.20000000e-01  3.35058942e-09  4.57134780e-01  4.57134780e-01  3.22008786e-09  4.57134780e-01  4.57134780e-01  4.57134781e-01  1.56636666e-07  1.67498328e-07  9.20000000e-01 
 9.30000000e-01  3.35058948e-09  4.57134786e-01  4.57134786e-01  3.22008780e-09  4.57134787e-01  4.57134786e-01  4.57134787e-01  1.56636689e-07  1.67498214e-07  9.30000000e-01 
 9.40000000e-01  3.35058942e-09  4.57134785e-01  4.57134785e-01  3.22008780e-09  4.57134785e-01  4.57134785e-01  4.57134785e-01  1.56636671e-07  1.67498044e-07  9.40000000e-01 
 9.50000000e-01  3.35058942e-09  4.57134787e-01  4.57134787e-01  3.22008780e-09  4.57134787e-01  4.57134787e-01  4.57134788e-01  1.56636695e-07  1.67497959e-07  9.50000000e-01 
 9.60000000e-01  3.35058942e-09  4.57134777e-01  4.57134777e-01  3.22008780e-09  4.57134777e-01  4.57134777e-01  4.57134777e-01  1.56636672e-07  1.67497596e-07  9.60000000e-01 
 9.70000000e-01  3.35058942e-09  4.57134784e-01  4.57134784e-01  3.22008780e-09  4.57134784e-01  4.57134784e-01  4.57134784e-01  1.56636682e-07  1.67497618e-07  9.70000000e-01 
 9.80000000e-01  3.35058942e-09  4.57134802e-01  4.57134802e-01  3.22008780e-09  4.57134802e-01  4.57134802e-01  4.57134802e-01  1.56636704e-07  1.67497504e-07  9.80000000e-01 
 9.90000000e-01  3.35058948e-09  4.57134779e-01  4.57134779e-01  3.22008780e-09  4.57134779e-01  4.57134779e-01  4.57134779e-01  1.56636658e-07  1.67497276e-07  9.90000000e-01 
 1.00000000e+00  3.35058942e-09  4.57134787e-01  4.57134787e-01  3.22008780e-09  4.57134787e-01  4.57134787e-01  4.57134787e-01  1.56636667e-07  1.67497134e-07  1.00000000e+00 
 1.01000000e+00  3.35058948e-09  4.57134786e-01  4.57134786e-01  3.22008780e-09  4.57134786e-01  4.57134786e-01  4.57134786e-01  1.56636673e-07  1.67496999e-07  1.01000000e+00 
 1.02000000e+00  3.35058948e-09  4.57134786e-01  4.57134786e-01  3.22008780e-09  4.57134786e-01  4.57134786e-01  4.57134786e-01  1.56636674e-07  1.67496857e-07  1.02000000e+00 
 1.03000000e+00  3.35058942e-09  4.57134793e-01  4.57134793e-01  3.22008780e-09  4.57134793e-01  4.57134793e-01  4.57134793e-01  1.56636701e-07  1.67496665e-07  1.03000000e+00 
 1.04000000e+00  3.35058948e-09  4.57134775e-01  4.57134775e-01  3.22008780e-09  4.57134775e-01  4.57134775e-01  4.57134775e-01  1.56636652e-07  1.67496424e-07  1.04000000e+00 
 1.05000000e+00  3.35058942e-09  4.57134784e-01  4.57134784e-01  3.22008780e-09  4.57134784e-01  4.57134784e-01  4.57134785e-01  1.56636679e-07  1.67496339e-07  1.05000000e+00 
 1.06000000e+00  3.35058948e-09  4.57134789e-01  4.57134789e-01  3.22008780e-09  4.57134789e-01  4.57134789e-01  4.57134789e-01  1.56636674e-07  1.67496239e-07  1.06000000e+00 
 1.07000000e+00  3.35058948e-09  4.57134782e-01  4.57134782e-01  3.22008780e-09  4.57134782e-01  4.57134782e-01  4.57134783e-01  1.56636677e-07  1.67495941e-07  1.07000000e+00 
 1.08000000e+00  3.35058942e-09  4.57134771e-01  4.57134771e-01  3.22008780e-09  4.57134771e-01  4.57134771e-01  4.57134771e-01  1.56636661e-07  1.67495678e-07  1.08000000e+00 
 1.09000000e+00  3.35058943e-09  4.57134808e-01  4.57134808e-01  3.22008780e-09  4.57134808e-01  4.57134808e-01  4.57134808e-01  1.56636714e-07  1.67495749e-07  1.09000000e+00 
 1.10000000e+00  3.35058948e-09  4.57134775e-01  4.57134775e-01  3.22008780e-09  4.57134775e-01  4.57134775e-01  4.57134775e-01  1.56636650e-07  1.67495351e-07  1.10000000e+00 
