 v-sweep         v(b0)           v(b1)           v(b2)           v(b3)           v(b4)           v(b5)           v(b6)           i(vbias)        i(viout)        v(vout)        
 0.00000000e+00  3.41187131e-09  4.58578580e-01  4.58578580e-01  4.58578580e-01  4.58578580e-01  3.45673962e-09  4.58578580e-01  1.61275541e-07  1.44858046e-07  0.00000000e+00 
 1.00000000e-02  3.41187131e-09  4.58578593e-01  4.58578593e-01  4.58578593e-01  4.58578593e-01  3.45673962e-09  4.58578593e-01  1.61275561e-07  1.44857498e-07  1.00000000e-02 
 2.00000000e-02  3.41187126e-09  4.58578565e-01  4.58578565e-01  4.58578564e-01  4.58578565e-01  3.45673956e-09  4.58578565e-01  1.61275516e-07  1.44857142e-07  2.00000000e-02 
 3.00000000e-02  3.41187126e-09  4.58578595e-01  4.58578595e-01  4.58578595e-01  4.58578595e-01  3.45673956e-09  4.58578595e-01  1.61275565e-07  1.44856776e-07  3.00000000e-02 
 4.00000000e-02  3.41187126e-09  4.58578596e-01  4.58578596e-01  4.58578596e-01  4.58578596e-01  3.45673962e-09  4.58578597e-01  1.61275568e-07  1.44856406e-07  4.00000000e-02 
 5.00000000e-02  3.41187131e-09  4.58578579e-01  4.58578579e-01  4.58578579e-01  4.58578579e-01  3.45673956e-09  4.58578579e-01  1.61275548e-07  1.44856027e-07  5.00000000e-02 
 6.00000000e-02  3.41187126e-09  4.58578566e-01  4.58578566e-01  4.58578566e-01  4.58578566e-01  3.45673961e-09  4.58578566e-01  1.61275513e-07  1.44855552e-07  6.00000000e-02 
 7.00000000e-02  3.41187131e-09  4.58578560e-01  4.58578560e-01  4.58578560e-01  4.58578560e-01  3.45673961e-09  4.58578560e-01  1.61275510e-07  1.44855143e-07  7.00000000e-02 
 8.00000000e-02  3.41187126e-09  4.58578563e-01  4.58578563e-01  4.58578563e-01  4.58578563e-01  3.45673956e-09  4.58578563e-01  1.61275510e-07  1.44854876e-07  8.00000000e-02 
 9.00000000e-02  3.41187126e-09  4.58578581e-01  4.58578581e-01  4.58578581e-01  4.58578581e-01  3.45673962e-09  4.58578582e-01  1.61275536e-07  1.44854743e-07  9.00000000e-02 
 1.00000000e-01  3.41187131e-09  4.58578590e-01  4.58578589e-01  4.58578589e-01  4.58578589e-01  3.45673956e-09  4.58578590e-01  1.61275569e-07  1.44854390e-07  1.00000000e-01 
 1.10000000e-01  3.41187126e-09  4.58578594e-01  4.58578594e-01  4.58578594e-01  4.58578594e-01  3.45673956e-09  4.58578594e-01  1.61275578e-07  1.44854130e-07  1.10000000e-01 
 1.20000000e-01  3.41187131e-09  4.58578596e-01  4.58578596e-01  4.58578596e-01  4.58578596e-01  3.45673962e-09  4.58578596e-01  1.61275582e-07  1.44853866e-07  1.20000000e-01 
 1.30000000e-01  3.41187131e-09  4.58578578e-01  4.58578578e-01  4.58578578e-01  4.58578578e-01  3.45673962e-09  4.58578578e-01  1.61275545e-07  1.44853570e-07  1.30000000e-01 
 1.40000000e-01  3.41187126e-09  4.58578594e-01  4.58578594e-01  4.58578594e-01  4.58578594e-01  3.45673956e-09  4.58578594e-01  1.61275575e-07  1.44853296e-07  1.40000000e-01 
 1.50000000e-01  3.41187131e-09  4.58578592e-01  4.58578592e-01  4.58578592e-01  4.58578592e-01  3.45673962e-09  4.58578592e-01  1.61275567e-07  1.44852947e-07  1.50000000e-01 
 1.60000000e-01  3.41187126e-09  4.58578596e-01  4.58578596e-01  4.58578596e-01  4.58578596e-01  3.45673962e-09  4.58578596e-01  1.61275566e-07  1.44852805e-07  1.60000000e-01 
 1.70000000e-01  3.41187131e-09  4.58578584e-01  4.58578584e-01  4.58578584e-01  4.58578584e-01  3.45673956e-09  4.58578584e-01  1.61275558e-07  1.44852519e-07  1.70000000e-01 
 1.80000000e-01  3.41187126e-09  4.58578580e-01  4.58578580e-01  4.58578580e-01  4.58578580e-01  3.45673962e-09  4.58578580e-01  1.61275546e-07  1.44852315e-07  1.80000000e-01 
 1.90000000e-01  3.41187131e-09  4.58578584e-01  4.58578584e-01  4.58578584e-01  4.58578584e-01  3.45673956e-09  4.58578584e-01  1.61275558e-07  1.44852070e-07  1.90000000e-01 
 2.00000000e-01  3.41187126e-09  4.58578602e-01  4.58578602e-01  4.58578602e-01  4.58578602e-01  3.45673962e-09  4.58578602e-01  1.61275577e-07  1.44852102e-07  2.00000000e-01 
 2.10000000e-01  3.41187131e-09  4.58578577e-01  4.58578576e-01  4.58578576e-01  4.58578576e-01  3.45673956e-09  4.58578577e-01  1.61275559e-07  1.44851805e-07  2.10000000e-01 
 2.20000000e-01  3.41187131e-09  4.58578559e-01  4.58578559e-01  4.58578559e-01  4.58578559e-01  3.45673961e-09  4.58578559e-01  1.61275507e-07  1.44851530e-07  2.20000000e-01 
 2.30000000e-01  3.41187131e-09  4.58578595e-01  4.58578595e-01  4.58578594e-01  4.58578594e-01  3.45673962e-09  4.58578595e-01  1.61275558e-07  1.44851466e-07  2.30000000e-01 
 2.40000000e-01  3.41187131e-09  4.58578562e-01  4.58578562e-01  4.58578562e-01  4.58578562e-01  3.45673956e-09  4.58578562e-01  1.61275523e-07  1.44851150e-07  2.40000000e-01 
 2.50000000e-01  3.41187126e-09  4.58578598e-01  4.58578598e-01  4.58578598e-01  4.58578598e-01  3.45673956e-09  4.58578598e-01  1.61275575e-07  1.44851112e-07  2.50000000e-01 
 2.60000000e-01  3.41187126e-09  4.58578586e-01  4.58578585e-01  4.58578585e-01  4.58578585e-01  3.45673962e-09  4.58578586e-01  1.61275568e-07  1.44850995e-07  2.60000000e-01 
 2.70000000e-01  3.41187131e-09  4.58578576e-01  4.58578576e-01  4.58578575e-01  4.58578576e-01  3.45673956e-09  4.58578576e-01  1.61275558e-07  1.44850699e-07  2.70000000e-01 
 2.80000000e-01  3.41187126e-09  4.58578580e-01  4.58578580e-01  4.58578580e-01  4.58578580e-01  3.45673956e-09  4.58578580e-01  1.61275527e-07  1.44850535e-07  2.80000000e-01 
 2.90000000e-01  3.41187131e-09  4.58578602e-01  4.58578601e-01  4.58578601e-01  4.58578601e-01  3.45673956e-09  4.58578602e-01  1.61275580e-07  1.44850492e-07  2.90000000e-01 
 3.00000000e-01  3.41187126e-09  4.58578591e-01  4.58578591e-01  4.58578591e-01  4.58578591e-01  3.45673962e-09  4.58578591e-01  1.61275551e-07  1.44850269e-07  3.00000000e-01 
 3.10000000e-01  3.41187126e-09  4.58578585e-01  4.58578585e-01  4.58578585e-01  4.58578585e-01  3.45673956e-09  4.58578585e-01  1.61275553e-07  1.44850183e-07  3.10000000e-01 
 3.20000000e-01  3.41187126e-09  4.58578579e-01  4.58578579e-01  4.58578578e-01  4.58578579e-01  3.45673956e-09  4.58578579e-01  1.61275545e-07  1.44849931e-07  3.20000000e-01 
 3.30000000e-01  3.41187126e-09  4.58578571e-01  4.58578571e-01  4.58578571e-01  4.58578571e-01  3.45673956e-09  4.58578572e-01  1.61275538e-07  1.44849768e-07  3.30000000e-01 
 3.40000000e-01  3.41187131e-09  4.58578571e-01  4.58578571e-01  4.58578571e-01  4.58578571e-01  3.45673956e-09  4.58578571e-01  1.61275520e-07  1.44849675e-07  3.40000000e-01 
 3.50000000e-01  3.41187126e-09  4.58578578e-01  4.58578578e-01  4.58578578e-01  4.58578578e-01  3.45673956e-09  4.58578578e-01  1.61275538e-07  1.44849611e-07  3.50000000e-01 
 3.60000000e-01  3.41187131e-09  4.58578570e-01  4.58578570e-01  4.58578570e-01  4.58578570e-01  3.45673961e-09  4.58578570e-01  1.61275532e-07  1.44849423e-07  3.60000000e-01 
 3.70000000e-01  3.41187126e-09  4.58578561e-01  4.58578561e-01  4.58578561e-01  4.58578561e-01  3.45673961e-09  4.58578561e-01  1.61275516e-07  1.44849356e-07  3.70000000e-01 
 3.80000000e-01  3.41187131e-09  4.58578561e-01  4.58578561e-01  4.58578561e-01  4.58578561e-01  3.45673961e-09  4.58578561e-01  1.61275509e-07  1.44849157e-07  3.80000000e-01 
 3.90000000e-01  3.41187131e-09  4.58578557e-01  4.58578557e-01  4.58578557e-01  4.58578557e-01  3.45673961e-09  4.58578557e-01  1.61275507e-07  1.44848997e-07  3.90000000e-01 
 4.00000000e-01  3.41187126e-09  4.58578572e-01  4.58578572e-01  4.58578572e-01  4.58578572e-01  3.45673956e-09  4.58578572e-01  1.61275545e-07  1.44848936e-07  4.00000000e-01 
 4.10000000e-01  3.41187126e-09  4.58578608e-01  4.58578608e-01  4.58578608e-01  4.58578608e-01  3.45673962e-09  4.58578609e-01  1.61275590e-07  1.44848968e-07  4.10000000e-01 
 4.20000000e-01  3.41187131e-09  4.58578601e-01  4.58578601e-01  4.58578601e-01  4.58578601e-01  3.45673956e-09  4.58578601e-01  1.61275577e-07  1.44848912e-07  4.20000000e-01 
 4.30000000e-01  3.41187126e-09  4.58578590e-01  4.58578590e-01  4.58578590e-01  4.58578590e-01  3.45673956e-09  4.58578590e-01  1.61275560e-07  1.44848794e-07  4.30000000e-01 
 4.40000000e-01  3.41187131e-09  4.58578577e-01  4.58578577e-01  4.58578577e-01  4.58578577e-01  3.45673956e-09  4.58578577e-01  1.61275546e-07  1.44848531e-07  4.40000000e-01 
 4.50000000e-01  3.41187131e-09  4.58578553e-01  4.58578553e-01  4.58578553e-01  4.58578553e-01  3.45673961e-09  4.58578553e-01  1.61275500e-07  1.44848272e-07  4.50000000e-01 
 4.60000000e-01  3.41187131e-09  4.58578592e-01  4.58578591e-01  4.58578591e-01  4.58578591e-01  3.45673956e-09  4.58578592e-01  1.61275552e-07  1.44848300e-07  4.60000000e-01 
 4.70000000e-01  3.41187131e-09  4.58578601e-01  4.58578601e-01  4.58578601e-01  4.58578601e-01  3.45673962e-09  4.58578601e-01  1.61275579e-07  1.44848272e-07  4.70000000e-01 
 4.80000000e-01  3.41187131e-09  4.58578582e-01  4.58578582e-01  4.58578582e-01  4.58578582e-01  3.45673962e-09  4.58578583e-01  1.61275563e-07  1.44848187e-07  4.80000000e-01 
 4.90000000e-01  3.41187126e-09  4.58578578e-01  4.58578578e-01  4.58578577e-01  4.58578578e-01  3.45673962e-09  4.58578578e-01  1.61275532e-07  1.44848016e-07  4.90000000e-01 
 5.00000000e-01  3.41187126e-09  4.58578576e-01  4.58578576e-01  4.58578576e-01  4.58578576e-01  3.45673962e-09  4.58578576e-01  1.61275529e-07  1.44847835e-07  5.00000000e-01 
 5.10000000e-01  3.41187131e-09  4.58578582e-01  4.58578582e-01  4.58578582e-01  4.58578582e-01  3.45673956e-09  4.58578582e-01  1.61275533e-07  1.44847725e-07  5.10000000e-01 
 5.20000000e-01  3.41187126e-09  4.58578598e-01  4.58578598e-01  4.58578598e-01  4.58578598e-01  3.45673962e-09  4.58578598e-01  1.61275573e-07  1.44847803e-07  5.20000000e-01 
 5.30000000e-01  3.41187131e-09  4.58578563e-01  4.58578563e-01  4.58578563e-01  4.58578563e-01  3.45673956e-09  4.58578563e-01  1.61275540e-07  1.44847501e-07  5.30000000e-01 
 5.40000000e-01  3.41187126e-09  4.58578589e-01  4.58578589e-01  4.58578589e-01  4.58578589e-01  3.45673962e-09  4.58578589e-01  1.61275556e-07  1.44847480e-07  5.40000000e-01 
 5.50000000e-01  3.41187126e-09  4.58578589e-01  4.58578589e-01  4.58578589e-01  4.58578589e-01  3.45673956e-09  4.58578589e-01  1.61275563e-07  1.44847426e-07  5.50000000e-01 
 5.60000000e-01  3.41187126e-09  4.58578597e-01  4.58578597e-01  4.58578597e-01  4.58578597e-01  3.45673956e-09  4.58578597e-01  1.61275576e-07  1.44847380e-07  5.60000000e-01 
 5.70000000e-01  3.41187132e-09  4.58578610e-01  4.58578610e-01  4.58578610e-01  4.58578610e-01  3.45673956e-09  4.58578610e-01  1.61275595e-07  1.44847291e-07  5.70000000e-01 
 5.80000000e-01  3.41187131e-09  4.58578555e-01  4.58578555e-01  4.58578555e-01  4.58578555e-01  3.45673961e-09  4.58578555e-01  1.61275526e-07  1.44847036e-07  5.80000000e-01 
 5.90000000e-01  3.41187126e-09  4.58578560e-01  4.58578560e-01  4.58578559e-01  4.58578560e-01  3.45673961e-09  4.58578560e-01  1.61275500e-07  1.44846879e-07  5.90000000e-01 
 6.00000000e-01  3.41187126e-09  4.58578588e-01  4.58578588e-01  4.58578588e-01  4.58578588e-01  3.45673956e-09  4.58578588e-01  1.61275561e-07  1.44846965e-07  6.00000000e-01 
 6.10000000e-01  3.41187131e-09  4.58578570e-01  4.58578570e-01  4.58578570e-01  4.58578570e-01  3.45673956e-09  4.58578570e-01  1.61275533e-07  1.44846766e-07  6.10000000e-01 
 6.20000000e-01  3.41187126e-09  4.58578564e-01  4.58578564e-01  4.58578564e-01  4.58578564e-01  3.45673961e-09  4.58578564e-01  1.61275527e-07  1.44846652e-07  6.20000000e-01 
 6.30000000e-01  3.41187126e-09  4.58578593e-01  4.58578593e-01  4.58578593e-01  4.58578593e-01  3.45673962e-09  4.58578593e-01  1.61275553e-07  1.44846567e-07  6.30000000e-01 
 6.40000000e-01  3.41187126e-09  4.58578609e-01  4.58578609e-01  4.58578609e-01  4.58578609e-01  3.45673962e-09  4.58578609e-01  1.61275603e-07  1.44846730e-07  6.40000000e-01 
 6.50000000e-01  3.41187126e-09  4.58578571e-01  4.58578571e-01  4.58578571e-01  4.58578571e-01  3.45673956e-09  4.58578571e-01  1.61275546e-07  1.44846318e-07  6.50000000e-01 
 6.60000000e-01  3.41187131e-09  4.58578586e-01  4.58578586e-01  4.58578586e-01  4.58578586e-01  3.45673962e-09  4.58578586e-01  1.61275563e-07  1.44846275e-07  6.60000000e-01 
 6.70000000e-01  3.41187131e-09  4.58578572e-01  4.58578572e-01  4.58578572e-01  4.58578572e-01  3.45673961e-09  4.58578572e-01  1.61275554e-07  1.44846148e-07  6.70000000e-01 
 6.80000000e-01  3.41187126e-09  4.58578574e-01  4.58578574e-01  4.58578574e-01  4.58578574e-01  3.45673962e-09  4.58578574e-01  1.61275534e-07  1.44846048e-07  6.80000000e-01 
 6.90000000e-01  3.41187126e-09  4.58578571e-01  4.58578571e-01  4.58578571e-01  4.58578571e-01  3.45673961e-09  4.58578571e-01  1.61275530e-07  1.44845949e-07  6.90000000e-01 
 7.00000000e-01  3.41187131e-09  4.58578559e-01  4.58578559e-01  4.58578559e-01  4.58578559e-01  3.45673956e-09  4.58578559e-01  1.61275503e-07  1.44845750e-07  7.00000000e-01 
 7.10000000e-01  3.41187131e-09  4.58578565e-01  4.58578565e-01  4.58578565e-01  4.58578565e-01  3.45673956e-09  4.58578565e-01  1.61275517e-07  1.44845707e-07  7.10000000e-01 
 7.20000000e-01  3.41187131e-09  4.58578555e-01  4.58578555e-01  4.58578555e-01  4.58578555e-01  3.45673961e-09  4.58578555e-01  1.61275497e-07  1.44845643e-07  7.20000000e-01 
 7.30000000e-01  3.41187126e-09  4.58578577e-01  4.58578577e-01  4.58578577e-01  4.58578577e-01  3.45673956e-09  4.58578577e-01  1.61275533e-07  1.44845551e-07  7.30000000e-01 
 7.40000000e-01  3.41187131e-09  4.58578581e-01  4.58578581e-01  4.58578581e-01  4.58578581e-01  3.45673956e-09  4.58578581e-01  1.61275564e-07  1.44845515e-07  7.40000000e-01 
 7.50000000e-01  3.41187131e-09  4.58578586e-01  4.58578586e-01  4.58578586e-01  4.58578586e-01  3.45673956e-09  4.58578586e-01  1.61275557e-07  1.44845394e-07  7.50000000e-01 
 7.60000000e-01  3.41187131e-09  4.58578569e-01  4.58578569e-01  4.58578569e-01  4.58578569e-01  3.45673956e-09  4.58578569e-01  1.61275517e-07  1.44845217e-07  7.60000000e-01 
 7.70000000e-01  3.41187126e-09  4.58578565e-01  4.58578565e-01  4.58578565e-01  4.58578565e-01  3.45673956e-09  4.58578565e-01  1.61275518e-07  1.44845139e-07  7.70000000e-01 
 7.80000000e-01  3.41187126e-09  4.58578586e-01  4.58578586e-01  4.58578586e-01  4.58578586e-01  3.45673962e-09  4.58578586e-01  1.61275552e-07  1.44845089e-07  7.80000000e-01 
 7.90000000e-01  3.41187131e-09  4.58578593e-01  4.58578593e-01  4.58578593e-01  4.58578593e-01  3.45673962e-09  4.58578593e-01  1.61275570e-07  1.44845004e-07  7.90000000e-01 
 8.00000000e-01  3.41187131e-09  4.58578552e-01  4.58578552e-01  4.58578552e-01  4.58578552e-01  3.45673956e-09  4.58578552e-01  1.61275521e-07  1.44844684e-07  8.00000000e-01 
 8.10000000e-01  3.41187126e-09  4.58578585e-01  4.58578585e-01  4.58578585e-01  4.58578585e-01  3.45673962e-09  4.58578585e-01  1.61275542e-07  1.44844684e-07  8.10000000e-01 
 8.20000000e-01  3.41187126e-09  4.58578580e-01  4.58578580e-01  4.58578580e-01  4.58578580e-01  3.45673962e-09  4.58578580e-01  1.61275548e-07  1.44844662e-07  8.20000000e-01 
 8.30000000e-01  3.41187126e-09  4.58578580e-01  4.58578579e-01  4.58578579e-01  4.58578579e-01  3.45673962e-09  4.58578580e-01  1.61275534e-07  1.44844606e-07  8.30000000e-01 
 8.40000000e-01  3.41187131e-09  4.58578596e-01  4.58578596e-01  4.58578596e-01  4.58578596e-01  3.45673962e-09  4.58578596e-01  1.61275573e-07  1.44844577e-07  8.40000000e-01 
 8.50000000e-01  3.41187126e-09  4.58578603e-01  4.58578603e-01  4.58578602e-01  4.58578603e-01  3.45673962e-09  4.58578603e-01  1.61275600e-07  1.44844506e-07  8.50000000e-01 
 8.60000000e-01  3.41187126e-09  4.58578584e-01  4.58578584e-01  4.58578584e-01  4.58578584e-01  3.45673956e-09  4.58578585e-01  1.61275551e-07  1.44844236e-07  8.60000000e-01 
 8.70000000e-01  3.41187131e-09  4.58578572e-01  4.58578572e-01  4.58578571e-01  4.58578572e-01  3.45673956e-09  4.58578572e-01  1.61275522e-07  1.44844066e-07  8.70000000e-01 
 8.80000000e-01  3.41187126e-09  4.58578601e-01  4.58578600e-01  4.58578600e-01  4.58578600e-01  3.45673956e-09  4.58578601e-01  1.61275578e-07  1.44844101e-07  8.80000000e-01 
 8.90000000e-01  3.41187131e-09  4.58578577e-01  4.58578576e-01  4.58578576e-01  4.58578576e-01  3.45673956e-09  4.58578577e-01  1.61275553e-07  1.44843774e-07  8.90000000e-01 
 9.00000000e-01  3.41187131e-09  4.58578562e-01  4.58578562e-01  4.58578561e-01  4.58578562e-01  3.45673956e-09  4.58578562e-01  1.61275508e-07  1.44843796e-07  9.00000000e-01 
 9.10000000e-01  3.41187131e-09  4.58578579e-01  4.58578579e-01  4.58578579e-01  4.58578579e-01  3.45673962e-09  4.58578579e-01  1.61275551e-07  1.44843554e-07  9.10000000e-01 
 9.20000000e-01  3.41187131e-09  4.58578594e-01  4.58578594e-01  4.58578594e-01  4.58578594e-01  3.45673956e-09  4.58578594e-01  1.61275577e-07  1.44843639e-07  9.20000000e-01 
 9.30000000e-01  3.41187126e-09  4.58578572e-01  4.58578572e-01  4.58578572e-01  4.58578572e-01  3.45673956e-09  4.58578572e-01  1.61275540e-07  1.44843440e-07  9.30000000e-01 
 9.40000000e-01  3.41187131e-09  4.58578555e-01  4.58578555e-01  4.58578555e-01  4.58578555e-01  3.45673961e-09  4.58578555e-01  1.61275506e-07  1.44843121e-07  9.40000000e-01 
 9.50000000e-01  3.41187131e-09  4.58578589e-01  4.58578589e-01  4.58578589e-01  4.58578589e-01  3.45673962e-09  4.58578589e-01  1.61275545e-07  1.44843206e-07  9.50000000e-01 
 9.60000000e-01  3.41187131e-09  4.58578574e-01  4.58578574e-01  4.58578573e-01  4.58578574e-01  3.45673956e-09  4.58578574e-01  1.61275537e-07  1.44843050e-07  9.60000000e-01 
 9.70000000e-01  3.41187131e-09  4.58578579e-01  4.58578579e-01  4.58578579e-01  4.58578579e-01  3.45673962e-09  4.58578580e-01  1.61275542e-07  1.44843007e-07  9.70000000e-01 
 9.80000000e-01  3.41187126e-09  4.58578583e-01  4.58578583e-01  4.58578583e-01  4.58578583e-01  3.45673956e-09  4.58578583e-01  1.61275543e-07  1.44842744e-07  9.80000000e-01 
 9.90000000e-01  3.41187126e-09  4.58578585e-01  4.58578585e-01  4.58578585e-01  4.58578585e-01  3.45673956e-09  4.58578585e-01  1.61275563e-07  1.44842716e-07  9.90000000e-01 
 1.00000000e+00  3.41187132e-09  4.58578614e-01  4.58578614e-01  4.58578614e-01  4.58578614e-01  3.45673962e-09  4.58578615e-01  1.61275600e-07  1.44842701e-07  1.00000000e+00 
 1.01000000e+00  3.41187131e-09  4.58578591e-01  4.58578591e-01  4.58578591e-01  4.58578591e-01  3.45673956e-09  4.58578591e-01  1.61275569e-07  1.44842531e-07  1.01000000e+00 
 1.02000000e+00  3.41187131e-09  4.58578555e-01  4.58578555e-01  4.58578555e-01  4.58578555e-01  3.45673961e-09  4.58578556e-01  1.61275505e-07  1.44842218e-07  1.02000000e+00 
 1.03000000e+00  3.41187131e-09  4.58578587e-01  4.58578587e-01  4.58578587e-01  4.58578587e-01  3.45673956e-09  4.58578587e-01  1.61275556e-07  1.44842140e-07  1.03000000e+00 
 1.04000000e+00  3.41187131e-09  4.58578562e-01  4.58578562e-01  4.58578562e-01  4.58578562e-01  3.45673956e-09  4.58578562e-01  1.61275522e-07  1.44841998e-07  1.04000000e+00 
 1.05000000e+00  3.41187131e-09  4.58578563e-01  4.58578563e-01  4.58578563e-01  4.58578563e-01  3.45673961e-09  4.58578563e-01  1.61275525e-07  1.44841842e-07  1.05000000e+00 
 1.06000000e+00  3.41187126e-09  4.58578573e-01  4.58578573e-01  4.58578573e-01  4.58578573e-01  3.45673962e-09  4.58578573e-01  1.61275537e-07  1.44841842e-07  1.06000000e+00 
 1.07000000e+00  3.41187131e-09  4.58578588e-01  4.58578588e-01  4.58578588e-01  4.58578588e-01  3.45673956e-09  4.58578588e-01  1.61275560e-07  1.44841728e-07  1.07000000e+00 
 1.08000000e+00  3.41187131e-09  4.58578570e-01  4.58578570e-01  4.58578570e-01  4.58578570e-01  3.45673961e-09  4.58578570e-01  1.61275543e-07  1.44841493e-07  1.08000000e+00 
 1.09000000e+00  3.41187131e-09  4.58578575e-01  4.58578575e-01  4.58578575e-01  4.58578575e-01  3.45673956e-09  4.58578575e-01  1.61275537e-07  1.44841515e-07  1.09000000e+00 
 1.10000000e+00  3.41187131e-09  4.58578583e-01  4.58578583e-01  4.58578583e-01  4.58578583e-01  3.45673956e-09  4.58578583e-01  1.61275529e-07  1.44841351e-07  1.10000000e+00 
