 v-sweep         v(b0)           v(b1)           v(b2)           v(b3)           v(b4)           v(b5)           v(b6)           i(vbias)        i(viout)        v(vout)        
 0.00000000e+00  4.56988957e-01  4.56988957e-01  4.56988957e-01  3.20888814e-09  4.56988957e-01  3.52540733e-09  4.56988957e-01  1.55865474e-07  1.23300852e-07  0.00000000e+00 
 1.00000000e-02  4.56988948e-01  4.56988948e-01  4.56988948e-01  3.20888817e-09  4.56988948e-01  3.52540731e-09  4.56988948e-01  1.55865464e-07  1.23300352e-07  1.00000000e-02 
 2.00000000e-02  4.56988942e-01  4.56988942e-01  4.56988942e-01  3.20888815e-09  4.56988942e-01  3.52540730e-09  4.56988942e-01  1.55865438e-07  1.23299920e-07  2.00000000e-02 
 3.00000000e-02  4.56988932e-01  4.56988932e-01  4.56988932e-01  3.20888817e-09  4.56988932e-01  3.52540730e-09  4.56988932e-01  1.55865421e-07  1.23299537e-07  3.00000000e-02 
 4.00000000e-02  4.56988968e-01  4.56988968e-01  4.56988968e-01  3.20888816e-09  4.56988968e-01  3.52540731e-09  4.56988968e-01  1.55865483e-07  1.23299412e-07  4.00000000e-02 
 5.00000000e-02  4.56988923e-01  4.56988923e-01  4.56988923e-01  3.20888811e-09  4.56988923e-01  3.52540730e-09  4.56988923e-01  1.55865424e-07  1.23298824e-07  5.00000000e-02 
 6.00000000e-02  4.56988954e-01  4.56988954e-01  4.56988954e-01  3.20888817e-09  4.56988954e-01  3.52540731e-09  4.56988954e-01  1.55865461e-07  1.23298633e-07  6.00000000e-02 
 7.00000000e-02  4.56988935e-01  4.56988935e-01  4.56988935e-01  3.20888815e-09  4.56988935e-01  3.52540730e-09  4.56988935e-01  1.55865441e-07  1.23298162e-07  7.00000000e-02 
 8.00000000e-02  4.56988955e-01  4.56988955e-01  4.56988955e-01  3.20888812e-09  4.56988955e-01  3.52540731e-09  4.56988955e-01  1.55865470e-07  1.23297964e-07  8.00000000e-02 
 9.00000000e-02  4.56988920e-01  4.56988920e-01  4.56988920e-01  3.20888816e-09  4.56988920e-01  3.52540730e-09  4.56988920e-01  1.55865406e-07  1.23297424e-07  9.00000000e-02 
 1.00000000e-01  4.56988939e-01  4.56988939e-01  4.56988939e-01  3.20888811e-09  4.56988939e-01  3.52540730e-09  4.56988939e-01  1.55865434e-07  1.23297319e-07  1.00000000e-01 
 1.10000000e-01  4.56988940e-01  4.56988940e-01  4.56988940e-01  3.20888817e-09  4.56988940e-01  3.52540730e-09  4.56988940e-01  1.55865443e-07  1.23297133e-07  1.10000000e-01 
 1.20000000e-01  4.56988924e-01  4.56988924e-01  4.56988924e-01  3.20888811e-09  4.56988924e-01  3.52540730e-09  4.56988924e-01  1.55865416e-07  1.23296692e-07  1.20000000e-01 
 1.30000000e-01  4.56988957e-01  4.56988957e-01  4.56988957e-01  3.20888811e-09  4.56988957e-01  3.52540731e-09  4.56988957e-01  1.55865468e-07  1.23296698e-07  1.30000000e-01 
 1.40000000e-01  4.56988945e-01  4.56988945e-01  4.56988945e-01  3.20888811e-09  4.56988945e-01  3.52540730e-09  4.56988945e-01  1.55865448e-07  1.23296381e-07  1.40000000e-01 
 1.50000000e-01  4.56988956e-01  4.56988956e-01  4.56988956e-01  3.20888811e-09  4.56988956e-01  3.52540731e-09  4.56988956e-01  1.55865467e-07  1.23296061e-07  1.50000000e-01 
 1.60000000e-01  4.56988938e-01  4.56988937e-01  4.56988937e-01  3.20888816e-09  4.56988937e-01  3.52540730e-09  4.56988937e-01  1.55865448e-07  1.23295871e-07  1.60000000e-01 
 1.70000000e-01  4.56988948e-01  4.56988948e-01  4.56988948e-01  3.20888811e-09  4.56988948e-01  3.52540731e-09  4.56988948e-01  1.55865445e-07  1.23295660e-07  1.70000000e-01 
 1.80000000e-01  4.56988958e-01  4.56988958e-01  4.56988958e-01  3.20888811e-09  4.56988958e-01  3.52540731e-09  4.56988958e-01  1.55865467e-07  1.23295457e-07  1.80000000e-01 
 1.90000000e-01  4.56988960e-01  4.56988960e-01  4.56988960e-01  3.20888817e-09  4.56988960e-01  3.52540731e-09  4.56988960e-01  1.55865478e-07  1.23295315e-07  1.90000000e-01 
 2.00000000e-01  4.56988929e-01  4.56988929e-01  4.56988929e-01  3.20888815e-09  4.56988929e-01  3.52540730e-09  4.56988929e-01  1.55865433e-07  1.23295097e-07  2.00000000e-01 
 2.10000000e-01  4.56988939e-01  4.56988939e-01  4.56988939e-01  3.20888817e-09  4.56988939e-01  3.52540730e-09  4.56988939e-01  1.55865447e-07  1.23294818e-07  2.10000000e-01 
 2.20000000e-01  4.56988957e-01  4.56988957e-01  4.56988957e-01  3.20888816e-09  4.56988957e-01  3.52540731e-09  4.56988957e-01  1.55865462e-07  1.23294736e-07  2.20000000e-01 
 2.30000000e-01  4.56988928e-01  4.56988928e-01  4.56988928e-01  3.20888817e-09  4.56988928e-01  3.52540736e-09  4.56988928e-01  1.55865435e-07  1.23294511e-07  2.30000000e-01 
 2.40000000e-01  4.56988947e-01  4.56988947e-01  4.56988947e-01  3.20888810e-09  4.56988947e-01  3.52540731e-09  4.56988947e-01  1.55865450e-07  1.23294434e-07  2.40000000e-01 
 2.50000000e-01  4.56988956e-01  4.56988956e-01  4.56988956e-01  3.20888817e-09  4.56988956e-01  3.52540731e-09  4.56988956e-01  1.55865470e-07  1.23294230e-07  2.50000000e-01 
 2.60000000e-01  4.56988959e-01  4.56988959e-01  4.56988959e-01  3.20888816e-09  4.56988959e-01  3.52540731e-09  4.56988959e-01  1.55865464e-07  1.23294132e-07  2.60000000e-01 
 2.70000000e-01  4.56988934e-01  4.56988934e-01  4.56988934e-01  3.20888817e-09  4.56988934e-01  3.52540730e-09  4.56988934e-01  1.55865427e-07  1.23293926e-07  2.70000000e-01 
 2.80000000e-01  4.56988941e-01  4.56988941e-01  4.56988941e-01  3.20888815e-09  4.56988941e-01  3.52540730e-09  4.56988941e-01  1.55865450e-07  1.23293892e-07  2.80000000e-01 
 2.90000000e-01  4.56988969e-01  4.56988969e-01  4.56988969e-01  3.20888818e-09  4.56988969e-01  3.52540731e-09  4.56988969e-01  1.55865489e-07  1.23293830e-07  2.90000000e-01 
 3.00000000e-01  4.56988952e-01  4.56988952e-01  4.56988952e-01  3.20888815e-09  4.56988952e-01  3.52540731e-09  4.56988952e-01  1.55865452e-07  1.23293677e-07  3.00000000e-01 
 3.10000000e-01  4.56988954e-01  4.56988954e-01  4.56988954e-01  3.20888817e-09  4.56988954e-01  3.52540731e-09  4.56988954e-01  1.55865456e-07  1.23293471e-07  3.10000000e-01 
 3.20000000e-01  4.56988964e-01  4.56988963e-01  4.56988963e-01  3.20888816e-09  4.56988963e-01  3.52540731e-09  4.56988963e-01  1.55865472e-07  1.23293379e-07  3.20000000e-01 
 3.30000000e-01  4.56988964e-01  4.56988964e-01  4.56988964e-01  3.20888812e-09  4.56988964e-01  3.52540731e-09  4.56988964e-01  1.55865477e-07  1.23293116e-07  3.30000000e-01 
 3.40000000e-01  4.56988972e-01  4.56988972e-01  4.56988972e-01  3.20888817e-09  4.56988972e-01  3.52540731e-09  4.56988972e-01  1.55865505e-07  1.23293155e-07  3.40000000e-01 
 3.50000000e-01  4.56988934e-01  4.56988934e-01  4.56988934e-01  3.20888815e-09  4.56988934e-01  3.52540730e-09  4.56988934e-01  1.55865438e-07  1.23292985e-07  3.50000000e-01 
 3.60000000e-01  4.56988957e-01  4.56988957e-01  4.56988957e-01  3.20888812e-09  4.56988957e-01  3.52540731e-09  4.56988957e-01  1.55865463e-07  1.23292928e-07  3.60000000e-01 
 3.70000000e-01  4.56988968e-01  4.56988968e-01  4.56988968e-01  3.20888817e-09  4.56988968e-01  3.52540731e-09  4.56988968e-01  1.55865484e-07  1.23292793e-07  3.70000000e-01 
 3.80000000e-01  4.56988937e-01  4.56988937e-01  4.56988937e-01  3.20888815e-09  4.56988937e-01  3.52540730e-09  4.56988937e-01  1.55865439e-07  1.23292576e-07  3.80000000e-01 
 3.90000000e-01  4.56988942e-01  4.56988942e-01  4.56988942e-01  3.20888811e-09  4.56988942e-01  3.52540736e-09  4.56988942e-01  1.55865441e-07  1.23292445e-07  3.90000000e-01 
 4.00000000e-01  4.56988950e-01  4.56988950e-01  4.56988950e-01  3.20888817e-09  4.56988950e-01  3.52540736e-09  4.56988950e-01  1.55865461e-07  1.23292377e-07  4.00000000e-01 
 4.10000000e-01  4.56988939e-01  4.56988939e-01  4.56988939e-01  3.20888815e-09  4.56988939e-01  3.52540730e-09  4.56988939e-01  1.55865453e-07  1.23292217e-07  4.10000000e-01 
 4.20000000e-01  4.56988971e-01  4.56988971e-01  4.56988971e-01  3.20888812e-09  4.56988971e-01  3.52540731e-09  4.56988971e-01  1.55865485e-07  1.23292232e-07  4.20000000e-01 
 4.30000000e-01  4.56988968e-01  4.56988968e-01  4.56988968e-01  3.20888817e-09  4.56988968e-01  3.52540731e-09  4.56988968e-01  1.55865482e-07  1.23292264e-07  4.30000000e-01 
 4.40000000e-01  4.56988975e-01  4.56988975e-01  4.56988975e-01  3.20888816e-09  4.56988975e-01  3.52540731e-09  4.56988975e-01  1.55865502e-07  1.23292100e-07  4.40000000e-01 
 4.50000000e-01  4.56988972e-01  4.56988972e-01  4.56988972e-01  3.20888812e-09  4.56988972e-01  3.52540731e-09  4.56988972e-01  1.55865478e-07  1.23292075e-07  4.50000000e-01 
 4.60000000e-01  4.56988937e-01  4.56988937e-01  4.56988937e-01  3.20888816e-09  4.56988937e-01  3.52540730e-09  4.56988937e-01  1.55865442e-07  1.23291851e-07  4.60000000e-01 
 4.70000000e-01  4.56988947e-01  4.56988947e-01  4.56988947e-01  3.20888817e-09  4.56988947e-01  3.52540736e-09  4.56988947e-01  1.55865463e-07  1.23291692e-07  4.70000000e-01 
 4.80000000e-01  4.56988956e-01  4.56988956e-01  4.56988956e-01  3.20888816e-09  4.56988956e-01  3.52540731e-09  4.56988956e-01  1.55865461e-07  1.23291642e-07  4.80000000e-01 
 4.90000000e-01  4.56988941e-01  4.56988941e-01  4.56988941e-01  3.20888811e-09  4.56988941e-01  3.52540730e-09  4.56988941e-01  1.55865446e-07  1.23291514e-07  4.90000000e-01 
 5.00000000e-01  4.56988955e-01  4.56988955e-01  4.56988955e-01  3.20888811e-09  4.56988955e-01  3.52540731e-09  4.56988955e-01  1.55865471e-07  1.23291414e-07  5.00000000e-01 
 5.10000000e-01  4.56988945e-01  4.56988945e-01  4.56988945e-01  3.20888817e-09  4.56988945e-01  3.52540730e-09  4.56988945e-01  1.55865458e-07  1.23291326e-07  5.10000000e-01 
 5.20000000e-01  4.56988926e-01  4.56988926e-01  4.56988926e-01  3.20888815e-09  4.56988926e-01  3.52540730e-09  4.56988926e-01  1.55865435e-07  1.23291205e-07  5.20000000e-01 
 5.30000000e-01  4.56988956e-01  4.56988956e-01  4.56988956e-01  3.20888812e-09  4.56988956e-01  3.52540736e-09  4.56988956e-01  1.55865460e-07  1.23291230e-07  5.30000000e-01 
 5.40000000e-01  4.56988945e-01  4.56988945e-01  4.56988945e-01  3.20888817e-09  4.56988945e-01  3.52540730e-09  4.56988945e-01  1.55865449e-07  1.23291183e-07  5.40000000e-01 
 5.50000000e-01  4.56988929e-01  4.56988929e-01  4.56988929e-01  3.20888815e-09  4.56988929e-01  3.52540730e-09  4.56988929e-01  1.55865429e-07  1.23290917e-07  5.50000000e-01 
 5.60000000e-01  4.56988983e-01  4.56988983e-01  4.56988983e-01  3.20888812e-09  4.56988983e-01  3.52540731e-09  4.56988983e-01  1.55865510e-07  1.23290967e-07  5.60000000e-01 
 5.70000000e-01  4.56988957e-01  4.56988957e-01  4.56988957e-01  3.20888817e-09  4.56988957e-01  3.52540736e-09  4.56988957e-01  1.55865473e-07  1.23290842e-07  5.70000000e-01 
 5.80000000e-01  4.56988965e-01  4.56988965e-01  4.56988965e-01  3.20888810e-09  4.56988965e-01  3.52540731e-09  4.56988965e-01  1.55865476e-07  1.23290761e-07  5.80000000e-01 
 5.90000000e-01  4.56988955e-01  4.56988955e-01  4.56988955e-01  3.20888817e-09  4.56988955e-01  3.52540731e-09  4.56988955e-01  1.55865466e-07  1.23290754e-07  5.90000000e-01 
 6.00000000e-01  4.56988941e-01  4.56988941e-01  4.56988941e-01  3.20888815e-09  4.56988941e-01  3.52540730e-09  4.56988941e-01  1.55865450e-07  1.23290633e-07  6.00000000e-01 
 6.10000000e-01  4.56988957e-01  4.56988957e-01  4.56988957e-01  3.20888812e-09  4.56988957e-01  3.52540731e-09  4.56988957e-01  1.55865458e-07  1.23290405e-07  6.10000000e-01 
 6.20000000e-01  4.56988951e-01  4.56988951e-01  4.56988951e-01  3.20888817e-09  4.56988951e-01  3.52540731e-09  4.56988951e-01  1.55865465e-07  1.23290484e-07  6.20000000e-01 
 6.30000000e-01  4.56988946e-01  4.56988946e-01  4.56988946e-01  3.20888810e-09  4.56988946e-01  3.52540736e-09  4.56988946e-01  1.55865452e-07  1.23290256e-07  6.30000000e-01 
 6.40000000e-01  4.56988956e-01  4.56988956e-01  4.56988956e-01  3.20888812e-09  4.56988956e-01  3.52540731e-09  4.56988956e-01  1.55865457e-07  1.23290349e-07  6.40000000e-01 
 6.50000000e-01  4.56988965e-01  4.56988965e-01  4.56988965e-01  3.20888811e-09  4.56988965e-01  3.52540731e-09  4.56988965e-01  1.55865496e-07  1.23290185e-07  6.50000000e-01 
 6.60000000e-01  4.56988945e-01  4.56988945e-01  4.56988945e-01  3.20888817e-09  4.56988945e-01  3.52540730e-09  4.56988945e-01  1.55865457e-07  1.23290036e-07  6.60000000e-01 
 6.70000000e-01  4.56988936e-01  4.56988936e-01  4.56988936e-01  3.20888815e-09  4.56988936e-01  3.52540730e-09  4.56988936e-01  1.55865429e-07  1.23289887e-07  6.70000000e-01 
 6.80000000e-01  4.56988952e-01  4.56988952e-01  4.56988952e-01  3.20888817e-09  4.56988952e-01  3.52540731e-09  4.56988952e-01  1.55865460e-07  1.23289837e-07  6.80000000e-01 
 6.90000000e-01  4.56988940e-01  4.56988940e-01  4.56988940e-01  3.20888815e-09  4.56988940e-01  3.52540730e-09  4.56988940e-01  1.55865444e-07  1.23289723e-07  6.90000000e-01 
 7.00000000e-01  4.56988969e-01  4.56988969e-01  4.56988969e-01  3.20888812e-09  4.56988969e-01  3.52540731e-09  4.56988969e-01  1.55865484e-07  1.23289723e-07  7.00000000e-01 
 7.10000000e-01  4.56988961e-01  4.56988961e-01  4.56988961e-01  3.20888817e-09  4.56988961e-01  3.52540731e-09  4.56988961e-01  1.55865474e-07  1.23289702e-07  7.10000000e-01 
 7.20000000e-01  4.56988985e-01  4.56988985e-01  4.56988985e-01  3.20888816e-09  4.56988985e-01  3.52540731e-09  4.56988985e-01  1.55865500e-07  1.23289702e-07  7.20000000e-01 
 7.30000000e-01  4.56988937e-01  4.56988937e-01  4.56988937e-01  3.20888817e-09  4.56988937e-01  3.52540730e-09  4.56988937e-01  1.55865434e-07  1.23289524e-07  7.30000000e-01 
 7.40000000e-01  4.56988926e-01  4.56988926e-01  4.56988926e-01  3.20888815e-09  4.56988926e-01  3.52540730e-09  4.56988926e-01  1.55865433e-07  1.23289333e-07  7.40000000e-01 
 7.50000000e-01  4.56988949e-01  4.56988949e-01  4.56988949e-01  3.20888817e-09  4.56988949e-01  3.52540731e-09  4.56988949e-01  1.55865456e-07  1.23289226e-07  7.50000000e-01 
 7.60000000e-01  4.56988957e-01  4.56988957e-01  4.56988957e-01  3.20888816e-09  4.56988957e-01  3.52540731e-09  4.56988957e-01  1.55865468e-07  1.23289276e-07  7.60000000e-01 
 7.70000000e-01  4.56988949e-01  4.56988949e-01  4.56988949e-01  3.20888812e-09  4.56988949e-01  3.52540731e-09  4.56988949e-01  1.55865463e-07  1.23289155e-07  7.70000000e-01 
 7.80000000e-01  4.56988965e-01  4.56988964e-01  4.56988964e-01  3.20888817e-09  4.56988964e-01  3.52540731e-09  4.56988964e-01  1.55865477e-07  1.23289027e-07  7.80000000e-01 
 7.90000000e-01  4.56988947e-01  4.56988947e-01  4.56988947e-01  3.20888810e-09  4.56988947e-01  3.52540731e-09  4.56988947e-01  1.55865438e-07  1.23288892e-07  7.90000000e-01 
 8.00000000e-01  4.56988945e-01  4.56988945e-01  4.56988945e-01  3.20888817e-09  4.56988945e-01  3.52540730e-09  4.56988945e-01  1.55865454e-07  1.23288821e-07  8.00000000e-01 
 8.10000000e-01  4.56988944e-01  4.56988944e-01  4.56988944e-01  3.20888815e-09  4.56988944e-01  3.52540730e-09  4.56988944e-01  1.55865452e-07  1.23288778e-07  8.10000000e-01 
 8.20000000e-01  4.56988953e-01  4.56988952e-01  4.56988952e-01  3.20888812e-09  4.56988953e-01  3.52540731e-09  4.56988952e-01  1.55865466e-07  1.23288686e-07  8.20000000e-01 
 8.30000000e-01  4.56988944e-01  4.56988944e-01  4.56988944e-01  3.20888817e-09  4.56988944e-01  3.52540730e-09  4.56988944e-01  1.55865452e-07  1.23288551e-07  8.30000000e-01 
 8.40000000e-01  4.56988944e-01  4.56988943e-01  4.56988943e-01  3.20888815e-09  4.56988943e-01  3.52540730e-09  4.56988943e-01  1.55865452e-07  1.23288366e-07  8.40000000e-01 
 8.50000000e-01  4.56988952e-01  4.56988952e-01  4.56988952e-01  3.20888817e-09  4.56988952e-01  3.52540731e-09  4.56988952e-01  1.55865457e-07  1.23288459e-07  8.50000000e-01 
 8.60000000e-01  4.56988938e-01  4.56988938e-01  4.56988938e-01  3.20888815e-09  4.56988938e-01  3.52540730e-09  4.56988938e-01  1.55865445e-07  1.23288380e-07  8.60000000e-01 
 8.70000000e-01  4.56988952e-01  4.56988952e-01  4.56988952e-01  3.20888817e-09  4.56988952e-01  3.52540731e-09  4.56988952e-01  1.55865467e-07  1.23288203e-07  8.70000000e-01 
 8.80000000e-01  4.56988968e-01  4.56988968e-01  4.56988968e-01  3.20888816e-09  4.56988968e-01  3.52540731e-09  4.56988968e-01  1.55865478e-07  1.23288174e-07  8.80000000e-01 
 8.90000000e-01  4.56988957e-01  4.56988957e-01  4.56988957e-01  3.20888817e-09  4.56988957e-01  3.52540731e-09  4.56988957e-01  1.55865480e-07  1.23287997e-07  8.90000000e-01 
 9.00000000e-01  4.56988948e-01  4.56988948e-01  4.56988948e-01  3.20888815e-09  4.56988948e-01  3.52540731e-09  4.56988948e-01  1.55865456e-07  1.23287968e-07  9.00000000e-01 
 9.10000000e-01  4.56988961e-01  4.56988961e-01  4.56988961e-01  3.20888817e-09  4.56988961e-01  3.52540731e-09  4.56988961e-01  1.55865480e-07  1.23287833e-07  9.10000000e-01 
 9.20000000e-01  4.56988956e-01  4.56988956e-01  4.56988956e-01  3.20888816e-09  4.56988956e-01  3.52540731e-09  4.56988956e-01  1.55865465e-07  1.23287819e-07  9.20000000e-01 
 9.30000000e-01  4.56988958e-01  4.56988958e-01  4.56988958e-01  3.20888812e-09  4.56988958e-01  3.52540731e-09  4.56988958e-01  1.55865457e-07  1.23287727e-07  9.30000000e-01 
 9.40000000e-01  4.56988947e-01  4.56988947e-01  4.56988947e-01  3.20888811e-09  4.56988947e-01  3.52540731e-09  4.56988947e-01  1.55865466e-07  1.23287592e-07  9.40000000e-01 
 9.50000000e-01  4.56988929e-01  4.56988929e-01  4.56988929e-01  3.20888811e-09  4.56988929e-01  3.52540730e-09  4.56988929e-01  1.55865420e-07  1.23287428e-07  9.50000000e-01 
 9.60000000e-01  4.56988967e-01  4.56988967e-01  4.56988967e-01  3.20888817e-09  4.56988967e-01  3.52540731e-09  4.56988967e-01  1.55865476e-07  1.23287400e-07  9.60000000e-01 
 9.70000000e-01  4.56988961e-01  4.56988961e-01  4.56988961e-01  3.20888816e-09  4.56988961e-01  3.52540731e-09  4.56988961e-01  1.55865473e-07  1.23287393e-07  9.70000000e-01 
 9.80000000e-01  4.56988972e-01  4.56988972e-01  4.56988972e-01  3.20888812e-09  4.56988972e-01  3.52540731e-09  4.56988972e-01  1.55865487e-07  1.23287265e-07  9.80000000e-01 
 9.90000000e-01  4.56988975e-01  4.56988975e-01  4.56988975e-01  3.20888811e-09  4.56988975e-01  3.52540731e-09  4.56988975e-01  1.55865497e-07  1.23287187e-07  9.90000000e-01 
 1.00000000e+00  4.56988947e-01  4.56988947e-01  4.56988947e-01  3.20888817e-09  4.56988947e-01  3.52540731e-09  4.56988947e-01  1.55865453e-07  1.23286931e-07  1.00000000e+00 
 1.01000000e+00  4.56988974e-01  4.56988973e-01  4.56988973e-01  3.20888816e-09  4.56988973e-01  3.52540731e-09  4.56988973e-01  1.55865478e-07  1.23287002e-07  1.01000000e+00 
 1.02000000e+00  4.56988952e-01  4.56988952e-01  4.56988952e-01  3.20888817e-09  4.56988952e-01  3.52540736e-09  4.56988952e-01  1.55865448e-07  1.23286895e-07  1.02000000e+00 
 1.03000000e+00  4.56988938e-01  4.56988938e-01  4.56988938e-01  3.20888815e-09  4.56988938e-01  3.52540730e-09  4.56988938e-01  1.55865438e-07  1.23286668e-07  1.03000000e+00 
 1.04000000e+00  4.56988961e-01  4.56988961e-01  4.56988961e-01  3.20888817e-09  4.56988961e-01  3.52540731e-09  4.56988961e-01  1.55865472e-07  1.23286583e-07  1.04000000e+00 
 1.05000000e+00  4.56988938e-01  4.56988938e-01  4.56988938e-01  3.20888815e-09  4.56988938e-01  3.52540730e-09  4.56988938e-01  1.55865442e-07  1.23286476e-07  1.05000000e+00 
 1.06000000e+00  4.56988980e-01  4.56988980e-01  4.56988980e-01  3.20888818e-09  4.56988980e-01  3.52540731e-09  4.56988980e-01  1.55865501e-07  1.23286412e-07  1.06000000e+00 
 1.07000000e+00  4.56988950e-01  4.56988950e-01  4.56988950e-01  3.20888815e-09  4.56988950e-01  3.52540731e-09  4.56988950e-01  1.55865452e-07  1.23286263e-07  1.07000000e+00 
 1.08000000e+00  4.56988965e-01  4.56988964e-01  4.56988964e-01  3.20888818e-09  4.56988965e-01  3.52540736e-09  4.56988964e-01  1.55865481e-07  1.23286220e-07  1.08000000e+00 
 1.09000000e+00  4.56988937e-01  4.56988937e-01  4.56988937e-01  3.20888815e-09  4.56988937e-01  3.52540730e-09  4.56988937e-01  1.55865438e-07  1.23286107e-07  1.09000000e+00 
 1.10000000e+00  4.56988937e-01  4.56988937e-01  4.56988937e-01  3.20888811e-09  4.56988937e-01  3.52540730e-09  4.56988937e-01  1.55865446e-07  1.23285979e-07  1.10000000e+00 
