 v-sweep         v(b0)           v(b1)           v(b2)           v(b3)           v(b4)           v(b5)           v(b6)           i(vbias)        i(viout)        v(vout)        
 0.00000000e+00  3.45548087e-09  4.56661332e-01  4.56661333e-01  4.56661333e-01  4.56661333e-01  4.56661333e-01  3.22969957e-09  1.56786309e-07  9.30359215e-08  0.00000000e+00 
 1.00000000e-02  3.45548090e-09  4.56661319e-01  4.56661319e-01  4.56661319e-01  4.56661319e-01  4.56661319e-01  3.22969954e-09  1.56786311e-07  9.30354851e-08  1.00000000e-02 
 2.00000000e-02  3.45548090e-09  4.56661315e-01  4.56661315e-01  4.56661315e-01  4.56661315e-01  4.56661315e-01  3.22969954e-09  1.56786316e-07  9.30350634e-08  2.00000000e-02 
 3.00000000e-02  3.45548090e-09  4.56661328e-01  4.56661328e-01  4.56661328e-01  4.56661328e-01  4.56661328e-01  3.22969954e-09  1.56786336e-07  9.30347617e-08  3.00000000e-02 
 4.00000000e-02  3.45548084e-09  4.56661290e-01  4.56661290e-01  4.56661290e-01  4.56661290e-01  4.56661290e-01  3.22969954e-09  1.56786274e-07  9.30342137e-08  4.00000000e-02 
 5.00000000e-02  3.45548085e-09  4.56661322e-01  4.56661322e-01  4.56661322e-01  4.56661322e-01  4.56661322e-01  3.22969954e-09  1.56786319e-07  9.30339761e-08  5.00000000e-02 
 6.00000000e-02  3.45548090e-09  4.56661322e-01  4.56661322e-01  4.56661322e-01  4.56661322e-01  4.56661322e-01  3.22969954e-09  1.56786316e-07  9.30338033e-08  6.00000000e-02 
 7.00000000e-02  3.45548090e-09  4.56661316e-01  4.56661316e-01  4.56661316e-01  4.56661316e-01  4.56661316e-01  3.22969954e-09  1.56786306e-07  9.30333792e-08  7.00000000e-02 
 8.00000000e-02  3.45548085e-09  4.56661315e-01  4.56661315e-01  4.56661315e-01  4.56661315e-01  4.56661315e-01  3.22969954e-09  1.56786320e-07  9.30329875e-08  8.00000000e-02 
 9.00000000e-02  3.45548084e-09  4.56661299e-01  4.56661299e-01  4.56661299e-01  4.56661299e-01  4.56661299e-01  3.22969954e-09  1.56786293e-07  9.30327824e-08  9.00000000e-02 
 1.00000000e-01  3.45548090e-09  4.56661334e-01  4.56661334e-01  4.56661334e-01  4.56661334e-01  4.56661334e-01  3.22969954e-09  1.56786342e-07  9.30325701e-08  1.00000000e-01 
 1.10000000e-01  3.45548090e-09  4.56661320e-01  4.56661320e-01  4.56661320e-01  4.56661320e-01  4.56661320e-01  3.22969954e-09  1.56786308e-07  9.30321118e-08  1.10000000e-01 
 1.20000000e-01  3.45548085e-09  4.56661321e-01  4.56661321e-01  4.56661321e-01  4.56661321e-01  4.56661321e-01  3.22969954e-09  1.56786325e-07  9.30319386e-08  1.20000000e-01 
 1.30000000e-01  3.45548084e-09  4.56661307e-01  4.56661307e-01  4.56661308e-01  4.56661307e-01  4.56661308e-01  3.22969960e-09  1.56786303e-07  9.30316890e-08  1.30000000e-01 
 1.40000000e-01  3.45548085e-09  4.56661317e-01  4.56661317e-01  4.56661317e-01  4.56661317e-01  4.56661317e-01  3.22969960e-09  1.56786300e-07  9.30314457e-08  1.40000000e-01 
 1.50000000e-01  3.45548085e-09  4.56661336e-01  4.56661336e-01  4.56661336e-01  4.56661336e-01  4.56661336e-01  3.22969954e-09  1.56786339e-07  9.30312485e-08  1.50000000e-01 
 1.60000000e-01  3.45548090e-09  4.56661321e-01  4.56661321e-01  4.56661321e-01  4.56661321e-01  4.56661321e-01  3.22969954e-09  1.56786324e-07  9.30311845e-08  1.60000000e-01 
 1.70000000e-01  3.45548090e-09  4.56661313e-01  4.56661313e-01  4.56661313e-01  4.56661313e-01  4.56661313e-01  3.22969954e-09  1.56786305e-07  9.30308204e-08  1.70000000e-01 
 1.80000000e-01  3.45548084e-09  4.56661302e-01  4.56661303e-01  4.56661303e-01  4.56661303e-01  4.56661303e-01  3.22969954e-09  1.56786302e-07  9.30306978e-08  1.80000000e-01 
 1.90000000e-01  3.45548085e-09  4.56661325e-01  4.56661325e-01  4.56661325e-01  4.56661325e-01  4.56661325e-01  3.22969954e-09  1.56786311e-07  9.30305237e-08  1.90000000e-01 
 2.00000000e-01  3.45548090e-09  4.56661305e-01  4.56661305e-01  4.56661305e-01  4.56661305e-01  4.56661306e-01  3.22969954e-09  1.56786295e-07  9.30303479e-08  2.00000000e-01 
 2.10000000e-01  3.45548084e-09  4.56661296e-01  4.56661296e-01  4.56661296e-01  4.56661296e-01  4.56661296e-01  3.22969954e-09  1.56786282e-07  9.30300477e-08  2.10000000e-01 
 2.20000000e-01  3.45548090e-09  4.56661313e-01  4.56661313e-01  4.56661313e-01  4.56661313e-01  4.56661313e-01  3.22969954e-09  1.56786309e-07  9.30300406e-08  2.20000000e-01 
 2.30000000e-01  3.45548090e-09  4.56661322e-01  4.56661322e-01  4.56661322e-01  4.56661322e-01  4.56661322e-01  3.22969954e-09  1.56786315e-07  9.30299251e-08  2.30000000e-01 
 2.40000000e-01  3.45548090e-09  4.56661325e-01  4.56661326e-01  4.56661326e-01  4.56661326e-01  4.56661326e-01  3.22969954e-09  1.56786322e-07  9.30298150e-08  2.40000000e-01 
 2.50000000e-01  3.45548085e-09  4.56661318e-01  4.56661318e-01  4.56661318e-01  4.56661318e-01  4.56661318e-01  3.22969954e-09  1.56786309e-07  9.30295752e-08  2.50000000e-01 
 2.60000000e-01  3.45548084e-09  4.56661313e-01  4.56661313e-01  4.56661313e-01  4.56661313e-01  4.56661313e-01  3.22969954e-09  1.56786304e-07  9.30294579e-08  2.60000000e-01 
 2.70000000e-01  3.45548090e-09  4.56661310e-01  4.56661310e-01  4.56661311e-01  4.56661310e-01  4.56661311e-01  3.22969954e-09  1.56786298e-07  9.30292430e-08  2.70000000e-01 
 2.80000000e-01  3.45548090e-09  4.56661294e-01  4.56661295e-01  4.56661295e-01  4.56661295e-01  4.56661295e-01  3.22969954e-09  1.56786282e-07  9.30291346e-08  2.80000000e-01 
 2.90000000e-01  3.45548090e-09  4.56661309e-01  4.56661309e-01  4.56661309e-01  4.56661309e-01  4.56661309e-01  3.22969954e-09  1.56786305e-07  9.30290440e-08  2.90000000e-01 
 3.00000000e-01  3.45548090e-09  4.56661324e-01  4.56661324e-01  4.56661324e-01  4.56661324e-01  4.56661324e-01  3.22969954e-09  1.56786314e-07  9.30288913e-08  3.00000000e-01 
 3.10000000e-01  3.45548084e-09  4.56661314e-01  4.56661314e-01  4.56661314e-01  4.56661314e-01  4.56661314e-01  3.22969954e-09  1.56786307e-07  9.30288415e-08  3.10000000e-01 
 3.20000000e-01  3.45548090e-09  4.56661321e-01  4.56661321e-01  4.56661321e-01  4.56661321e-01  4.56661321e-01  3.22969954e-09  1.56786326e-07  9.30287314e-08  3.20000000e-01 
 3.30000000e-01  3.45548085e-09  4.56661321e-01  4.56661321e-01  4.56661321e-01  4.56661321e-01  4.56661321e-01  3.22969954e-09  1.56786320e-07  9.30286319e-08  3.30000000e-01 
 3.40000000e-01  3.45548085e-09  4.56661322e-01  4.56661323e-01  4.56661323e-01  4.56661323e-01  4.56661323e-01  3.22969954e-09  1.56786331e-07  9.30285644e-08  3.40000000e-01 
 3.50000000e-01  3.45548090e-09  4.56661333e-01  4.56661333e-01  4.56661333e-01  4.56661333e-01  4.56661333e-01  3.22969954e-09  1.56786341e-07  9.30284791e-08  3.50000000e-01 
 3.60000000e-01  3.45548084e-09  4.56661312e-01  4.56661313e-01  4.56661313e-01  4.56661313e-01  4.56661313e-01  3.22969954e-09  1.56786307e-07  9.30282980e-08  3.60000000e-01 
 3.70000000e-01  3.45548090e-09  4.56661325e-01  4.56661325e-01  4.56661326e-01  4.56661325e-01  4.56661326e-01  3.22969954e-09  1.56786327e-07  9.30282695e-08  3.70000000e-01 
 3.80000000e-01  3.45548085e-09  4.56661325e-01  4.56661325e-01  4.56661325e-01  4.56661325e-01  4.56661325e-01  3.22969954e-09  1.56786338e-07  9.30280208e-08  3.80000000e-01 
 3.90000000e-01  3.45548090e-09  4.56661327e-01  4.56661327e-01  4.56661327e-01  4.56661327e-01  4.56661327e-01  3.22969954e-09  1.56786339e-07  9.30280919e-08  3.90000000e-01 
 4.00000000e-01  3.45548090e-09  4.56661335e-01  4.56661335e-01  4.56661335e-01  4.56661335e-01  4.56661335e-01  3.22969954e-09  1.56786341e-07  9.30280457e-08  4.00000000e-01 
 4.10000000e-01  3.45548085e-09  4.56661318e-01  4.56661318e-01  4.56661318e-01  4.56661318e-01  4.56661318e-01  3.22969954e-09  1.56786318e-07  9.30278539e-08  4.10000000e-01 
 4.20000000e-01  3.45548090e-09  4.56661323e-01  4.56661323e-01  4.56661323e-01  4.56661323e-01  4.56661324e-01  3.22969954e-09  1.56786319e-07  9.30277295e-08  4.20000000e-01 
 4.30000000e-01  3.45548090e-09  4.56661325e-01  4.56661325e-01  4.56661325e-01  4.56661325e-01  4.56661325e-01  3.22969954e-09  1.56786341e-07  9.30277366e-08  4.30000000e-01 
 4.40000000e-01  3.45548085e-09  4.56661318e-01  4.56661318e-01  4.56661318e-01  4.56661318e-01  4.56661318e-01  3.22969954e-09  1.56786333e-07  9.30275661e-08  4.40000000e-01 
 4.50000000e-01  3.45548085e-09  4.56661326e-01  4.56661326e-01  4.56661326e-01  4.56661326e-01  4.56661326e-01  3.22969954e-09  1.56786342e-07  9.30275519e-08  4.50000000e-01 
 4.60000000e-01  3.45548085e-09  4.56661333e-01  4.56661333e-01  4.56661333e-01  4.56661333e-01  4.56661333e-01  3.22969954e-09  1.56786339e-07  9.30274311e-08  4.60000000e-01 
 4.70000000e-01  3.45548084e-09  4.56661301e-01  4.56661301e-01  4.56661301e-01  4.56661301e-01  4.56661301e-01  3.22969954e-09  1.56786296e-07  9.30272712e-08  4.70000000e-01 
 4.80000000e-01  3.45548091e-09  4.56661343e-01  4.56661343e-01  4.56661343e-01  4.56661343e-01  4.56661343e-01  3.22969954e-09  1.56786328e-07  9.30273778e-08  4.80000000e-01 
 4.90000000e-01  3.45548085e-09  4.56661320e-01  4.56661320e-01  4.56661320e-01  4.56661320e-01  4.56661320e-01  3.22969954e-09  1.56786319e-07  9.30271966e-08  4.90000000e-01 
 5.00000000e-01  3.45548084e-09  4.56661311e-01  4.56661311e-01  4.56661311e-01  4.56661311e-01  4.56661311e-01  3.22969960e-09  1.56786294e-07  9.30272464e-08  5.00000000e-01 
 5.10000000e-01  3.45548090e-09  4.56661333e-01  4.56661333e-01  4.56661334e-01  4.56661333e-01  4.56661334e-01  3.22969954e-09  1.56786332e-07  9.30270225e-08  5.10000000e-01 
 5.20000000e-01  3.45548090e-09  4.56661334e-01  4.56661334e-01  4.56661334e-01  4.56661334e-01  4.56661334e-01  3.22969954e-09  1.56786345e-07  9.30269373e-08  5.20000000e-01 
 5.30000000e-01  3.45548084e-09  4.56661310e-01  4.56661311e-01  4.56661311e-01  4.56661311e-01  4.56661311e-01  3.22969954e-09  1.56786308e-07  9.30268556e-08  5.30000000e-01 
 5.40000000e-01  3.45548090e-09  4.56661335e-01  4.56661335e-01  4.56661335e-01  4.56661335e-01  4.56661335e-01  3.22969954e-09  1.56786339e-07  9.30269373e-08  5.40000000e-01 
 5.50000000e-01  3.45548090e-09  4.56661313e-01  4.56661313e-01  4.56661313e-01  4.56661313e-01  4.56661313e-01  3.22969954e-09  1.56786310e-07  9.30267454e-08  5.50000000e-01 
 5.60000000e-01  3.45548084e-09  4.56661310e-01  4.56661310e-01  4.56661310e-01  4.56661310e-01  4.56661310e-01  3.22969954e-09  1.56786300e-07  9.30266957e-08  5.60000000e-01 
 5.70000000e-01  3.45548084e-09  4.56661290e-01  4.56661290e-01  4.56661290e-01  4.56661290e-01  4.56661290e-01  3.22969954e-09  1.56786276e-07  9.30265429e-08  5.70000000e-01 
 5.80000000e-01  3.45548090e-09  4.56661317e-01  4.56661317e-01  4.56661318e-01  4.56661317e-01  4.56661318e-01  3.22969954e-09  1.56786307e-07  9.30265145e-08  5.80000000e-01 
 5.90000000e-01  3.45548090e-09  4.56661312e-01  4.56661312e-01  4.56661312e-01  4.56661312e-01  4.56661312e-01  3.22969954e-09  1.56786303e-07  9.30264363e-08  5.90000000e-01 
 6.00000000e-01  3.45548090e-09  4.56661322e-01  4.56661322e-01  4.56661322e-01  4.56661322e-01  4.56661322e-01  3.22969954e-09  1.56786316e-07  9.30263937e-08  6.00000000e-01 
 6.10000000e-01  3.45548085e-09  4.56661315e-01  4.56661315e-01  4.56661315e-01  4.56661315e-01  4.56661315e-01  3.22969954e-09  1.56786318e-07  9.30262729e-08  6.10000000e-01 
 6.20000000e-01  3.45548090e-09  4.56661303e-01  4.56661303e-01  4.56661303e-01  4.56661303e-01  4.56661303e-01  3.22969954e-09  1.56786303e-07  9.30262658e-08  6.20000000e-01 
 6.30000000e-01  3.45548084e-09  4.56661307e-01  4.56661307e-01  4.56661307e-01  4.56661307e-01  4.56661307e-01  3.22969954e-09  1.56786287e-07  9.30261095e-08  6.30000000e-01 
 6.40000000e-01  3.45548090e-09  4.56661289e-01  4.56661289e-01  4.56661289e-01  4.56661289e-01  4.56661289e-01  3.22969954e-09  1.56786292e-07  9.30260242e-08  6.40000000e-01 
 6.50000000e-01  3.45548085e-09  4.56661327e-01  4.56661327e-01  4.56661327e-01  4.56661327e-01  4.56661327e-01  3.22969954e-09  1.56786327e-07  9.30259958e-08  6.50000000e-01 
 6.60000000e-01  3.45548084e-09  4.56661313e-01  4.56661313e-01  4.56661313e-01  4.56661313e-01  4.56661313e-01  3.22969954e-09  1.56786312e-07  9.30259461e-08  6.60000000e-01 
 6.70000000e-01  3.45548084e-09  4.56661313e-01  4.56661313e-01  4.56661313e-01  4.56661313e-01  4.56661313e-01  3.22969954e-09  1.56786301e-07  9.30258750e-08  6.70000000e-01 
 6.80000000e-01  3.45548084e-09  4.56661299e-01  4.56661300e-01  4.56661300e-01  4.56661300e-01  4.56661300e-01  3.22969954e-09  1.56786284e-07  9.30258039e-08  6.80000000e-01 
 6.90000000e-01  3.45548091e-09  4.56661339e-01  4.56661339e-01  4.56661339e-01  4.56661339e-01  4.56661339e-01  3.22969954e-09  1.56786346e-07  9.30257329e-08  6.90000000e-01 
 7.00000000e-01  3.45548090e-09  4.56661322e-01  4.56661322e-01  4.56661322e-01  4.56661322e-01  4.56661322e-01  3.22969954e-09  1.56786325e-07  9.30257116e-08  7.00000000e-01 
 7.10000000e-01  3.45548085e-09  4.56661333e-01  4.56661333e-01  4.56661333e-01  4.56661333e-01  4.56661333e-01  3.22969954e-09  1.56786346e-07  9.30256334e-08  7.10000000e-01 
 7.20000000e-01  3.45548084e-09  4.56661292e-01  4.56661292e-01  4.56661292e-01  4.56661292e-01  4.56661292e-01  3.22969954e-09  1.56786295e-07  9.30255055e-08  7.20000000e-01 
 7.30000000e-01  3.45548090e-09  4.56661321e-01  4.56661321e-01  4.56661321e-01  4.56661321e-01  4.56661321e-01  3.22969954e-09  1.56786314e-07  9.30253918e-08  7.30000000e-01 
 7.40000000e-01  3.45548084e-09  4.56661308e-01  4.56661308e-01  4.56661308e-01  4.56661308e-01  4.56661308e-01  3.22969954e-09  1.56786300e-07  9.30253634e-08  7.40000000e-01 
 7.50000000e-01  3.45548090e-09  4.56661334e-01  4.56661334e-01  4.56661334e-01  4.56661334e-01  4.56661334e-01  3.22969954e-09  1.56786337e-07  9.30253776e-08  7.50000000e-01 
 7.60000000e-01  3.45548090e-09  4.56661318e-01  4.56661318e-01  4.56661318e-01  4.56661318e-01  4.56661318e-01  3.22969954e-09  1.56786321e-07  9.30251787e-08  7.60000000e-01 
 7.70000000e-01  3.45548090e-09  4.56661324e-01  4.56661324e-01  4.56661324e-01  4.56661324e-01  4.56661324e-01  3.22969954e-09  1.56786319e-07  9.30251858e-08  7.70000000e-01 
 7.80000000e-01  3.45548085e-09  4.56661319e-01  4.56661319e-01  4.56661319e-01  4.56661319e-01  4.56661319e-01  3.22969954e-09  1.56786307e-07  9.30250721e-08  7.80000000e-01 
 7.90000000e-01  3.45548090e-09  4.56661303e-01  4.56661303e-01  4.56661303e-01  4.56661303e-01  4.56661303e-01  3.22969954e-09  1.56786293e-07  9.30249087e-08  7.90000000e-01 
 8.00000000e-01  3.45548090e-09  4.56661306e-01  4.56661306e-01  4.56661306e-01  4.56661306e-01  4.56661306e-01  3.22969954e-09  1.56786293e-07  9.30249513e-08  8.00000000e-01 
 8.10000000e-01  3.45548084e-09  4.56661309e-01  4.56661309e-01  4.56661309e-01  4.56661309e-01  4.56661309e-01  3.22969954e-09  1.56786324e-07  9.30248376e-08  8.10000000e-01 
 8.20000000e-01  3.45548084e-09  4.56661306e-01  4.56661306e-01  4.56661306e-01  4.56661306e-01  4.56661306e-01  3.22969954e-09  1.56786317e-07  9.30247950e-08  8.20000000e-01 
 8.30000000e-01  3.45548090e-09  4.56661328e-01  4.56661328e-01  4.56661328e-01  4.56661328e-01  4.56661328e-01  3.22969954e-09  1.56786328e-07  9.30246529e-08  8.30000000e-01 
 8.40000000e-01  3.45548084e-09  4.56661307e-01  4.56661307e-01  4.56661307e-01  4.56661307e-01  4.56661307e-01  3.22969960e-09  1.56786304e-07  9.30247097e-08  8.40000000e-01 
 8.50000000e-01  3.45548090e-09  4.56661322e-01  4.56661322e-01  4.56661322e-01  4.56661322e-01  4.56661322e-01  3.22969954e-09  1.56786321e-07  9.30245818e-08  8.50000000e-01 
 8.60000000e-01  3.45548085e-09  4.56661332e-01  4.56661332e-01  4.56661332e-01  4.56661332e-01  4.56661332e-01  3.22969954e-09  1.56786336e-07  9.30244539e-08  8.60000000e-01 
 8.70000000e-01  3.45548090e-09  4.56661307e-01  4.56661307e-01  4.56661307e-01  4.56661307e-01  4.56661307e-01  3.22969954e-09  1.56786309e-07  9.30242976e-08  8.70000000e-01 
 8.80000000e-01  3.45548085e-09  4.56661349e-01  4.56661349e-01  4.56661349e-01  4.56661349e-01  4.56661349e-01  3.22969954e-09  1.56786359e-07  9.30243544e-08  8.80000000e-01 
 8.90000000e-01  3.45548085e-09  4.56661316e-01  4.56661316e-01  4.56661316e-01  4.56661316e-01  4.56661317e-01  3.22969954e-09  1.56786313e-07  9.30242194e-08  8.90000000e-01 
 9.00000000e-01  3.45548085e-09  4.56661317e-01  4.56661317e-01  4.56661317e-01  4.56661317e-01  4.56661317e-01  3.22969954e-09  1.56786323e-07  9.30241910e-08  9.00000000e-01 
 9.10000000e-01  3.45548085e-09  4.56661339e-01  4.56661339e-01  4.56661339e-01  4.56661339e-01  4.56661339e-01  3.22969954e-09  1.56786353e-07  9.30241981e-08  9.10000000e-01 
 9.20000000e-01  3.45548085e-09  4.56661334e-01  4.56661334e-01  4.56661334e-01  4.56661334e-01  4.56661334e-01  3.22969954e-09  1.56786340e-07  9.30240631e-08  9.20000000e-01 
 9.30000000e-01  3.45548085e-09  4.56661327e-01  4.56661327e-01  4.56661327e-01  4.56661327e-01  4.56661327e-01  3.22969954e-09  1.56786323e-07  9.30241200e-08  9.30000000e-01 
 9.40000000e-01  3.45548085e-09  4.56661315e-01  4.56661315e-01  4.56661315e-01  4.56661315e-01  4.56661315e-01  3.22969954e-09  1.56786314e-07  9.30238500e-08  9.40000000e-01 
 9.50000000e-01  3.45548090e-09  4.56661316e-01  4.56661316e-01  4.56661316e-01  4.56661316e-01  4.56661316e-01  3.22969954e-09  1.56786303e-07  9.30238713e-08  9.50000000e-01 
 9.60000000e-01  3.45548084e-09  4.56661303e-01  4.56661303e-01  4.56661303e-01  4.56661303e-01  4.56661303e-01  3.22969954e-09  1.56786296e-07  9.30236865e-08  9.60000000e-01 
 9.70000000e-01  3.45548090e-09  4.56661319e-01  4.56661320e-01  4.56661320e-01  4.56661320e-01  4.56661320e-01  3.22969954e-09  1.56786299e-07  9.30236155e-08  9.70000000e-01 
 9.80000000e-01  3.45548090e-09  4.56661311e-01  4.56661312e-01  4.56661312e-01  4.56661312e-01  4.56661312e-01  3.22969954e-09  1.56786293e-07  9.30235728e-08  9.80000000e-01 
 9.90000000e-01  3.45548085e-09  4.56661316e-01  4.56661316e-01  4.56661316e-01  4.56661316e-01  4.56661316e-01  3.22969954e-09  1.56786293e-07  9.30234876e-08  9.90000000e-01 
 1.00000000e+00  3.45548084e-09  4.56661313e-01  4.56661313e-01  4.56661313e-01  4.56661313e-01  4.56661313e-01  3.22969954e-09  1.56786313e-07  9.30233242e-08  1.00000000e+00 
 1.01000000e+00  3.45548085e-09  4.56661324e-01  4.56661324e-01  4.56661324e-01  4.56661324e-01  4.56661324e-01  3.22969954e-09  1.56786329e-07  9.30233455e-08  1.01000000e+00 
 1.02000000e+00  3.45548085e-09  4.56661325e-01  4.56661325e-01  4.56661325e-01  4.56661325e-01  4.56661325e-01  3.22969954e-09  1.56786326e-07  9.30232957e-08  1.02000000e+00 
 1.03000000e+00  3.45548085e-09  4.56661338e-01  4.56661338e-01  4.56661338e-01  4.56661338e-01  4.56661338e-01  3.22969954e-09  1.56786354e-07  9.30231749e-08  1.03000000e+00 
 1.04000000e+00  3.45548084e-09  4.56661307e-01  4.56661307e-01  4.56661307e-01  4.56661307e-01  4.56661307e-01  3.22969954e-09  1.56786298e-07  9.30230897e-08  1.04000000e+00 
 1.05000000e+00  3.45548085e-09  4.56661320e-01  4.56661320e-01  4.56661320e-01  4.56661320e-01  4.56661320e-01  3.22969954e-09  1.56786310e-07  9.30230044e-08  1.05000000e+00 
 1.06000000e+00  3.45548090e-09  4.56661320e-01  4.56661320e-01  4.56661320e-01  4.56661320e-01  4.56661320e-01  3.22969954e-09  1.56786326e-07  9.30229760e-08  1.06000000e+00 
 1.07000000e+00  3.45548090e-09  4.56661310e-01  4.56661310e-01  4.56661310e-01  4.56661310e-01  4.56661310e-01  3.22969954e-09  1.56786316e-07  9.30228055e-08  1.07000000e+00 
 1.08000000e+00  3.45548090e-09  4.56661305e-01  4.56661305e-01  4.56661305e-01  4.56661305e-01  4.56661305e-01  3.22969954e-09  1.56786296e-07  9.30226918e-08  1.08000000e+00 
 1.09000000e+00  3.45548085e-09  4.56661322e-01  4.56661322e-01  4.56661322e-01  4.56661322e-01  4.56661322e-01  3.22969954e-09  1.56786318e-07  9.30227344e-08  1.09000000e+00 
 1.10000000e+00  3.45548085e-09  4.56661328e-01  4.56661328e-01  4.56661328e-01  4.56661328e-01  4.56661328e-01  3.22969954e-09  1.56786329e-07  9.30226491e-08  1.10000000e+00 
