 v-sweep         v(b0)           v(b1)           v(b2)           v(b3)           v(b4)           v(b5)           v(b6)           i(vbias)        i(viout)        v(vout)        
 0.00000000e+00  4.59562963e-01  3.25447840e-09  4.59562963e-01  3.44148464e-09  4.59562963e-01  3.39143826e-09  3.37493458e-09  1.59421633e-07  3.14854394e-08  0.00000000e+00 
 1.00000000e-02  4.59562962e-01  3.25447844e-09  4.59562962e-01  3.44148462e-09  4.59562962e-01  3.39143829e-09  3.37493456e-09  1.59421623e-07  3.14850701e-08  1.00000000e-02 
 2.00000000e-02  4.59562963e-01  3.25447839e-09  4.59562963e-01  3.44148462e-09  4.59562963e-01  3.39143830e-09  3.37493457e-09  1.59421615e-07  3.14846793e-08  2.00000000e-02 
 3.00000000e-02  4.59562971e-01  3.25447844e-09  4.59562971e-01  3.44148462e-09  4.59562971e-01  3.39143830e-09  3.37493456e-09  1.59421635e-07  3.14843054e-08  3.00000000e-02 
 4.00000000e-02  4.59562942e-01  3.25447844e-09  4.59562942e-01  3.44148462e-09  4.59562942e-01  3.39143829e-09  3.37493456e-09  1.59421595e-07  3.14839612e-08  4.00000000e-02 
 5.00000000e-02  4.59562985e-01  3.25447844e-09  4.59562985e-01  3.44148462e-09  4.59562985e-01  3.39143830e-09  3.37493456e-09  1.59421666e-07  3.14837156e-08  5.00000000e-02 
 6.00000000e-02  4.59562959e-01  3.25447844e-09  4.59562959e-01  3.44148462e-09  4.59562959e-01  3.39143829e-09  3.37493456e-09  1.59421624e-07  3.14832991e-08  6.00000000e-02 
 7.00000000e-02  4.59562983e-01  3.25447844e-09  4.59562983e-01  3.44148462e-09  4.59562983e-01  3.39143830e-09  3.37493456e-09  1.59421648e-07  3.14830184e-08  7.00000000e-02 
 8.00000000e-02  4.59562963e-01  3.25447844e-09  4.59562963e-01  3.44148456e-09  4.59562963e-01  3.39143830e-09  3.37493456e-09  1.59421620e-07  3.14827684e-08  8.00000000e-02 
 9.00000000e-02  4.59562958e-01  3.25447844e-09  4.59562959e-01  3.44148462e-09  4.59562958e-01  3.39143829e-09  3.37493456e-09  1.59421614e-07  3.14825401e-08  9.00000000e-02 
 1.00000000e-01  4.59562965e-01  3.25447844e-09  4.59562965e-01  3.44148462e-09  4.59562965e-01  3.39143830e-09  3.37493456e-09  1.59421635e-07  3.14822968e-08  1.00000000e-01 
 1.10000000e-01  4.59562949e-01  3.25447844e-09  4.59562949e-01  3.44148462e-09  4.59562949e-01  3.39143829e-09  3.37493456e-09  1.59421586e-07  3.14819992e-08  1.10000000e-01 
 1.20000000e-01  4.59562984e-01  3.25447844e-09  4.59562984e-01  3.44148462e-09  4.59562984e-01  3.39143830e-09  3.37493456e-09  1.59421653e-07  3.14818092e-08  1.20000000e-01 
 1.30000000e-01  4.59562962e-01  3.25447844e-09  4.59562962e-01  3.44148462e-09  4.59562962e-01  3.39143829e-09  3.37493456e-09  1.59421609e-07  3.14815924e-08  1.30000000e-01 
 1.40000000e-01  4.59562958e-01  3.25447844e-09  4.59562959e-01  3.44148462e-09  4.59562959e-01  3.39143829e-09  3.37493456e-09  1.59421641e-07  3.14813375e-08  1.40000000e-01 
 1.50000000e-01  4.59562953e-01  3.25447844e-09  4.59562954e-01  3.44148462e-09  4.59562953e-01  3.39143829e-09  3.37493456e-09  1.59421618e-07  3.14812194e-08  1.50000000e-01 
 1.60000000e-01  4.59562964e-01  3.25447844e-09  4.59562964e-01  3.44148462e-09  4.59562964e-01  3.39143830e-09  3.37493456e-09  1.59421632e-07  3.14810009e-08  1.60000000e-01 
 1.70000000e-01  4.59562990e-01  3.25447844e-09  4.59562990e-01  3.44148456e-09  4.59562990e-01  3.39143830e-09  3.37493456e-09  1.59421667e-07  3.14807327e-08  1.70000000e-01 
 1.80000000e-01  4.59562977e-01  3.25447844e-09  4.59562978e-01  3.44148462e-09  4.59562977e-01  3.39143830e-09  3.37493456e-09  1.59421645e-07  3.14806918e-08  1.80000000e-01 
 1.90000000e-01  4.59562970e-01  3.25447844e-09  4.59562971e-01  3.44148462e-09  4.59562971e-01  3.39143830e-09  3.37493456e-09  1.59421639e-07  3.14804947e-08  1.90000000e-01 
 2.00000000e-01  4.59562972e-01  3.25447844e-09  4.59562972e-01  3.44148462e-09  4.59562972e-01  3.39143830e-09  3.37493456e-09  1.59421630e-07  3.14802300e-08  2.00000000e-01 
 2.10000000e-01  4.59562980e-01  3.25447844e-09  4.59562980e-01  3.44148462e-09  4.59562980e-01  3.39143830e-09  3.37493456e-09  1.59421651e-07  3.14800026e-08  2.10000000e-01 
 2.20000000e-01  4.59562982e-01  3.25447844e-09  4.59562983e-01  3.44148462e-09  4.59562982e-01  3.39143830e-09  3.37493456e-09  1.59421647e-07  3.14800381e-08  2.20000000e-01 
 2.30000000e-01  4.59562981e-01  3.25447844e-09  4.59562981e-01  3.44148456e-09  4.59562981e-01  3.39143830e-09  3.37493456e-09  1.59421654e-07  3.14799511e-08  2.30000000e-01 
 2.40000000e-01  4.59562971e-01  3.25447844e-09  4.59562971e-01  3.44148462e-09  4.59562971e-01  3.39143830e-09  3.37493456e-09  1.59421637e-07  3.14797894e-08  2.40000000e-01 
 2.50000000e-01  4.59562961e-01  3.25447844e-09  4.59562961e-01  3.44148462e-09  4.59562961e-01  3.39143829e-09  3.37493456e-09  1.59421619e-07  3.14795159e-08  2.50000000e-01 
 2.60000000e-01  4.59562972e-01  3.25447844e-09  4.59562972e-01  3.44148456e-09  4.59562972e-01  3.39143830e-09  3.37493456e-09  1.59421642e-07  3.14794768e-08  2.60000000e-01 
 2.70000000e-01  4.59562983e-01  3.25447844e-09  4.59562983e-01  3.44148462e-09  4.59562983e-01  3.39143830e-09  3.37493456e-09  1.59421659e-07  3.14793489e-08  2.70000000e-01 
 2.80000000e-01  4.59562975e-01  3.25447844e-09  4.59562975e-01  3.44148462e-09  4.59562975e-01  3.39143830e-09  3.37493456e-09  1.59421635e-07  3.14792654e-08  2.80000000e-01 
 2.90000000e-01  4.59562951e-01  3.25447844e-09  4.59562951e-01  3.44148462e-09  4.59562951e-01  3.39143829e-09  3.37493456e-09  1.59421606e-07  3.14791357e-08  2.90000000e-01 
 3.00000000e-01  4.59562962e-01  3.25447844e-09  4.59562962e-01  3.44148462e-09  4.59562962e-01  3.39143829e-09  3.37493456e-09  1.59421632e-07  3.14790327e-08  3.00000000e-01 
 3.10000000e-01  4.59562976e-01  3.25447844e-09  4.59562976e-01  3.44148462e-09  4.59562976e-01  3.39143830e-09  3.37493456e-09  1.59421641e-07  3.14789652e-08  3.10000000e-01 
 3.20000000e-01  4.59562955e-01  3.25447844e-09  4.59562955e-01  3.44148462e-09  4.59562955e-01  3.39143829e-09  3.37493456e-09  1.59421621e-07  3.14788586e-08  3.20000000e-01 
 3.30000000e-01  4.59562987e-01  3.25447844e-09  4.59562987e-01  3.44148462e-09  4.59562987e-01  3.39143830e-09  3.37493456e-09  1.59421651e-07  3.14787876e-08  3.30000000e-01 
 3.40000000e-01  4.59562965e-01  3.25447844e-09  4.59562965e-01  3.44148462e-09  4.59562965e-01  3.39143830e-09  3.37493456e-09  1.59421628e-07  3.14786384e-08  3.40000000e-01 
 3.50000000e-01  4.59562973e-01  3.25447844e-09  4.59562973e-01  3.44148462e-09  4.59562973e-01  3.39143830e-09  3.37493456e-09  1.59421641e-07  3.14786277e-08  3.50000000e-01 
 3.60000000e-01  4.59562987e-01  3.25447844e-09  4.59562988e-01  3.44148462e-09  4.59562988e-01  3.39143830e-09  3.37493456e-09  1.59421652e-07  3.14786277e-08  3.60000000e-01 
 3.70000000e-01  4.59562965e-01  3.25447844e-09  4.59562965e-01  3.44148462e-09  4.59562965e-01  3.39143830e-09  3.37493456e-09  1.59421627e-07  3.14784039e-08  3.70000000e-01 
 3.80000000e-01  4.59562966e-01  3.25447844e-09  4.59562966e-01  3.44148462e-09  4.59562966e-01  3.39143830e-09  3.37493456e-09  1.59421625e-07  3.14782653e-08  3.80000000e-01 
 3.90000000e-01  4.59562957e-01  3.25447844e-09  4.59562957e-01  3.44148462e-09  4.59562957e-01  3.39143829e-09  3.37493456e-09  1.59421623e-07  3.14783186e-08  3.90000000e-01 
 4.00000000e-01  4.59562965e-01  3.25447844e-09  4.59562965e-01  3.44148462e-09  4.59562965e-01  3.39143830e-09  3.37493456e-09  1.59421614e-07  3.14781872e-08  4.00000000e-01 
 4.10000000e-01  4.59562961e-01  3.25447844e-09  4.59562962e-01  3.44148462e-09  4.59562961e-01  3.39143829e-09  3.37493456e-09  1.59421603e-07  3.14780486e-08  4.10000000e-01 
 4.20000000e-01  4.59562974e-01  3.25447844e-09  4.59562974e-01  3.44148462e-09  4.59562974e-01  3.39143830e-09  3.37493456e-09  1.59421642e-07  3.14779527e-08  4.20000000e-01 
 4.30000000e-01  4.59562970e-01  3.25447844e-09  4.59562970e-01  3.44148462e-09  4.59562970e-01  3.39143830e-09  3.37493456e-09  1.59421624e-07  3.14780202e-08  4.30000000e-01 
 4.40000000e-01  4.59562953e-01  3.25447844e-09  4.59562953e-01  3.44148462e-09  4.59562953e-01  3.39143829e-09  3.37493456e-09  1.59421619e-07  3.14779562e-08  4.40000000e-01 
 4.50000000e-01  4.59562975e-01  3.25447844e-09  4.59562975e-01  3.44148462e-09  4.59562975e-01  3.39143830e-09  3.37493456e-09  1.59421638e-07  3.14777573e-08  4.50000000e-01 
 4.60000000e-01  4.59562954e-01  3.25447844e-09  4.59562954e-01  3.44148456e-09  4.59562954e-01  3.39143829e-09  3.37493456e-09  1.59421603e-07  3.14777218e-08  4.60000000e-01 
 4.70000000e-01  4.59562972e-01  3.25447844e-09  4.59562972e-01  3.44148462e-09  4.59562972e-01  3.39143830e-09  3.37493456e-09  1.59421639e-07  3.14777182e-08  4.70000000e-01 
 4.80000000e-01  4.59562975e-01  3.25447844e-09  4.59562976e-01  3.44148462e-09  4.59562975e-01  3.39143830e-09  3.37493456e-09  1.59421647e-07  3.14776685e-08  4.80000000e-01 
 4.90000000e-01  4.59562936e-01  3.25447844e-09  4.59562936e-01  3.44148462e-09  4.59562936e-01  3.39143829e-09  3.37493456e-09  1.59421579e-07  3.14775868e-08  4.90000000e-01 
 5.00000000e-01  4.59562954e-01  3.25447844e-09  4.59562954e-01  3.44148462e-09  4.59562954e-01  3.39143829e-09  3.37493456e-09  1.59421621e-07  3.14775441e-08  5.00000000e-01 
 5.10000000e-01  4.59562957e-01  3.25447844e-09  4.59562957e-01  3.44148462e-09  4.59562957e-01  3.39143829e-09  3.37493456e-09  1.59421628e-07  3.14774873e-08  5.10000000e-01 
 5.20000000e-01  4.59562981e-01  3.25447844e-09  4.59562981e-01  3.44148462e-09  4.59562981e-01  3.39143830e-09  3.37493456e-09  1.59421647e-07  3.14774518e-08  5.20000000e-01 
 5.30000000e-01  4.59562975e-01  3.25447844e-09  4.59562975e-01  3.44148462e-09  4.59562975e-01  3.39143830e-09  3.37493456e-09  1.59421654e-07  3.14774056e-08  5.30000000e-01 
 5.40000000e-01  4.59562978e-01  3.25447844e-09  4.59562978e-01  3.44148462e-09  4.59562978e-01  3.39143830e-09  3.37493456e-09  1.59421640e-07  3.14772386e-08  5.40000000e-01 
 5.50000000e-01  4.59562967e-01  3.25447844e-09  4.59562967e-01  3.44148462e-09  4.59562967e-01  3.39143830e-09  3.37493456e-09  1.59421624e-07  3.14772279e-08  5.50000000e-01 
 5.60000000e-01  4.59562962e-01  3.25447844e-09  4.59562962e-01  3.44148462e-09  4.59562962e-01  3.39143829e-09  3.37493456e-09  1.59421624e-07  3.14770894e-08  5.60000000e-01 
 5.70000000e-01  4.59562979e-01  3.25447844e-09  4.59562979e-01  3.44148462e-09  4.59562979e-01  3.39143830e-09  3.37493456e-09  1.59421648e-07  3.14771889e-08  5.70000000e-01 
 5.80000000e-01  4.59562950e-01  3.25447844e-09  4.59562950e-01  3.44148462e-09  4.59562950e-01  3.39143829e-09  3.37493456e-09  1.59421610e-07  3.14771427e-08  5.80000000e-01 
 5.90000000e-01  4.59562981e-01  3.25447844e-09  4.59562981e-01  3.44148462e-09  4.59562981e-01  3.39143830e-09  3.37493456e-09  1.59421649e-07  3.14770219e-08  5.90000000e-01 
 6.00000000e-01  4.59562968e-01  3.25447844e-09  4.59562968e-01  3.44148462e-09  4.59562968e-01  3.39143830e-09  3.37493456e-09  1.59421640e-07  3.14769295e-08  6.00000000e-01 
 6.10000000e-01  4.59562992e-01  3.25447844e-09  4.59562993e-01  3.44148462e-09  4.59562993e-01  3.39143830e-09  3.37493456e-09  1.59421660e-07  3.14768869e-08  6.10000000e-01 
 6.20000000e-01  4.59562964e-01  3.25447844e-09  4.59562964e-01  3.44148462e-09  4.59562964e-01  3.39143830e-09  3.37493456e-09  1.59421614e-07  3.14769082e-08  6.20000000e-01 
 6.30000000e-01  4.59562981e-01  3.25447844e-09  4.59562981e-01  3.44148462e-09  4.59562981e-01  3.39143830e-09  3.37493456e-09  1.59421646e-07  3.14767377e-08  6.30000000e-01 
 6.40000000e-01  4.59562943e-01  3.25447844e-09  4.59562943e-01  3.44148462e-09  4.59562943e-01  3.39143829e-09  3.37493456e-09  1.59421587e-07  3.14767306e-08  6.40000000e-01 
 6.50000000e-01  4.59562960e-01  3.25447844e-09  4.59562960e-01  3.44148462e-09  4.59562960e-01  3.39143829e-09  3.37493456e-09  1.59421622e-07  3.14766240e-08  6.50000000e-01 
 6.60000000e-01  4.59562964e-01  3.25447844e-09  4.59562964e-01  3.44148462e-09  4.59562964e-01  3.39143830e-09  3.37493456e-09  1.59421609e-07  3.14765884e-08  6.60000000e-01 
 6.70000000e-01  4.59562966e-01  3.25447844e-09  4.59562966e-01  3.44148462e-09  4.59562966e-01  3.39143830e-09  3.37493456e-09  1.59421621e-07  3.14765600e-08  6.70000000e-01 
 6.80000000e-01  4.59562964e-01  3.25447844e-09  4.59562964e-01  3.44148462e-09  4.59562964e-01  3.39143830e-09  3.37493456e-09  1.59421621e-07  3.14766524e-08  6.80000000e-01 
 6.90000000e-01  4.59562946e-01  3.25447844e-09  4.59562946e-01  3.44148462e-09  4.59562946e-01  3.39143829e-09  3.37493456e-09  1.59421600e-07  3.14765245e-08  6.90000000e-01 
 7.00000000e-01  4.59562971e-01  3.25447844e-09  4.59562972e-01  3.44148462e-09  4.59562971e-01  3.39143830e-09  3.37493456e-09  1.59421637e-07  3.14764321e-08  7.00000000e-01 
 7.10000000e-01  4.59562965e-01  3.25447844e-09  4.59562965e-01  3.44148462e-09  4.59562965e-01  3.39143830e-09  3.37493456e-09  1.59421615e-07  3.14762545e-08  7.10000000e-01 
 7.20000000e-01  4.59562957e-01  3.25447844e-09  4.59562958e-01  3.44148462e-09  4.59562957e-01  3.39143829e-09  3.37493456e-09  1.59421611e-07  3.14762971e-08  7.20000000e-01 
 7.30000000e-01  4.59562984e-01  3.25447844e-09  4.59562984e-01  3.44148462e-09  4.59562984e-01  3.39143830e-09  3.37493456e-09  1.59421665e-07  3.14763824e-08  7.30000000e-01 
 7.40000000e-01  4.59562960e-01  3.25447844e-09  4.59562961e-01  3.44148462e-09  4.59562961e-01  3.39143829e-09  3.37493456e-09  1.59421635e-07  3.14762616e-08  7.40000000e-01 
 7.50000000e-01  4.59562956e-01  3.25447844e-09  4.59562956e-01  3.44148462e-09  4.59562956e-01  3.39143829e-09  3.37493456e-09  1.59421607e-07  3.14761976e-08  7.50000000e-01 
 7.60000000e-01  4.59562969e-01  3.25447844e-09  4.59562969e-01  3.44148462e-09  4.59562969e-01  3.39143830e-09  3.37493456e-09  1.59421644e-07  3.14762048e-08  7.60000000e-01 
 7.70000000e-01  4.59562951e-01  3.25447844e-09  4.59562952e-01  3.44148462e-09  4.59562952e-01  3.39143829e-09  3.37493456e-09  1.59421610e-07  3.14760129e-08  7.70000000e-01 
 7.80000000e-01  4.59562978e-01  3.25447844e-09  4.59562979e-01  3.44148462e-09  4.59562978e-01  3.39143830e-09  3.37493456e-09  1.59421637e-07  3.14760698e-08  7.80000000e-01 
 7.90000000e-01  4.59562962e-01  3.25447844e-09  4.59562962e-01  3.44148462e-09  4.59562962e-01  3.39143829e-09  3.37493456e-09  1.59421610e-07  3.14759561e-08  7.90000000e-01 
 8.00000000e-01  4.59562973e-01  3.25447844e-09  4.59562973e-01  3.44148462e-09  4.59562973e-01  3.39143830e-09  3.37493456e-09  1.59421640e-07  3.14758992e-08  8.00000000e-01 
 8.10000000e-01  4.59562984e-01  3.25447844e-09  4.59562984e-01  3.44148462e-09  4.59562984e-01  3.39143830e-09  3.37493456e-09  1.59421638e-07  3.14758353e-08  8.10000000e-01 
 8.20000000e-01  4.59562966e-01  3.25447844e-09  4.59562967e-01  3.44148462e-09  4.59562966e-01  3.39143830e-09  3.37493456e-09  1.59421629e-07  3.14757358e-08  8.20000000e-01 
 8.30000000e-01  4.59562971e-01  3.25447844e-09  4.59562971e-01  3.44148456e-09  4.59562971e-01  3.39143830e-09  3.37493456e-09  1.59421648e-07  3.14757216e-08  8.30000000e-01 
 8.40000000e-01  4.59562955e-01  3.25447844e-09  4.59562955e-01  3.44148462e-09  4.59562955e-01  3.39143829e-09  3.37493456e-09  1.59421615e-07  3.14757074e-08  8.40000000e-01 
 8.50000000e-01  4.59562951e-01  3.25447844e-09  4.59562951e-01  3.44148456e-09  4.59562951e-01  3.39143829e-09  3.37493456e-09  1.59421612e-07  3.14757003e-08  8.50000000e-01 
 8.60000000e-01  4.59562963e-01  3.25447844e-09  4.59562963e-01  3.44148462e-09  4.59562963e-01  3.39143830e-09  3.37493456e-09  1.59421612e-07  3.14755013e-08  8.60000000e-01 
 8.70000000e-01  4.59562994e-01  3.25447844e-09  4.59562994e-01  3.44148456e-09  4.59562994e-01  3.39143830e-09  3.37493456e-09  1.59421672e-07  3.14756221e-08  8.70000000e-01 
 8.80000000e-01  4.59562969e-01  3.25447844e-09  4.59562969e-01  3.44148462e-09  4.59562969e-01  3.39143830e-09  3.37493456e-09  1.59421633e-07  3.14754089e-08  8.80000000e-01 
 8.90000000e-01  4.59562962e-01  3.25447844e-09  4.59562962e-01  3.44148462e-09  4.59562962e-01  3.39143829e-09  3.37493456e-09  1.59421633e-07  3.14753805e-08  8.90000000e-01 
 9.00000000e-01  4.59562947e-01  3.25447844e-09  4.59562947e-01  3.44148462e-09  4.59562947e-01  3.39143829e-09  3.37493456e-09  1.59421596e-07  3.14753024e-08  9.00000000e-01 
 9.10000000e-01  4.59562977e-01  3.25447844e-09  4.59562977e-01  3.44148462e-09  4.59562977e-01  3.39143830e-09  3.37493456e-09  1.59421647e-07  3.14752882e-08  9.10000000e-01 
 9.20000000e-01  4.59562959e-01  3.25447844e-09  4.59562959e-01  3.44148456e-09  4.59562959e-01  3.39143829e-09  3.37493456e-09  1.59421611e-07  3.14751745e-08  9.20000000e-01 
 9.30000000e-01  4.59562960e-01  3.25447844e-09  4.59562960e-01  3.44148456e-09  4.59562960e-01  3.39143829e-09  3.37493456e-09  1.59421637e-07  3.14751105e-08  9.30000000e-01 
 9.40000000e-01  4.59562955e-01  3.25447844e-09  4.59562955e-01  3.44148456e-09  4.59562955e-01  3.39143829e-09  3.37493456e-09  1.59421598e-07  3.14751460e-08  9.40000000e-01 
 9.50000000e-01  4.59562966e-01  3.25447844e-09  4.59562966e-01  3.44148462e-09  4.59562966e-01  3.39143830e-09  3.37493456e-09  1.59421630e-07  3.14749968e-08  9.50000000e-01 
 9.60000000e-01  4.59562975e-01  3.25447844e-09  4.59562975e-01  3.44148462e-09  4.59562975e-01  3.39143830e-09  3.37493451e-09  1.59421642e-07  3.14749968e-08  9.60000000e-01 
 9.70000000e-01  4.59562951e-01  3.25447844e-09  4.59562951e-01  3.44148462e-09  4.59562951e-01  3.39143829e-09  3.37493456e-09  1.59421599e-07  3.14748831e-08  9.70000000e-01 
 9.80000000e-01  4.59562961e-01  3.25447844e-09  4.59562961e-01  3.44148462e-09  4.59562961e-01  3.39143829e-09  3.37493456e-09  1.59421625e-07  3.14749187e-08  9.80000000e-01 
 9.90000000e-01  4.59562979e-01  3.25447844e-09  4.59562980e-01  3.44148462e-09  4.59562979e-01  3.39143830e-09  3.37493456e-09  1.59421646e-07  3.14747126e-08  9.90000000e-01 
 1.00000000e+00  4.59562957e-01  3.25447844e-09  4.59562957e-01  3.44148462e-09  4.59562957e-01  3.39143829e-09  3.37493456e-09  1.59421612e-07  3.14747339e-08  1.00000000e+00 
 1.01000000e+00  4.59562976e-01  3.25447844e-09  4.59562976e-01  3.44148462e-09  4.59562976e-01  3.39143830e-09  3.37493456e-09  1.59421633e-07  3.14746202e-08  1.01000000e+00 
 1.02000000e+00  4.59562938e-01  3.25447844e-09  4.59562938e-01  3.44148462e-09  4.59562938e-01  3.39143829e-09  3.37493456e-09  1.59421584e-07  3.14745918e-08  1.02000000e+00 
 1.03000000e+00  4.59562964e-01  3.25447844e-09  4.59562964e-01  3.44148462e-09  4.59562964e-01  3.39143830e-09  3.37493456e-09  1.59421617e-07  3.14745208e-08  1.03000000e+00 
 1.04000000e+00  4.59562987e-01  3.25447844e-09  4.59562987e-01  3.44148462e-09  4.59562987e-01  3.39143830e-09  3.37493456e-09  1.59421656e-07  3.14745421e-08  1.04000000e+00 
 1.05000000e+00  4.59562964e-01  3.25447844e-09  4.59562964e-01  3.44148462e-09  4.59562964e-01  3.39143830e-09  3.37493456e-09  1.59421613e-07  3.14744213e-08  1.05000000e+00 
 1.06000000e+00  4.59562966e-01  3.25447844e-09  4.59562966e-01  3.44148462e-09  4.59562966e-01  3.39143830e-09  3.37493456e-09  1.59421630e-07  3.14744781e-08  1.06000000e+00 
 1.07000000e+00  4.59562968e-01  3.25447844e-09  4.59562968e-01  3.44148462e-09  4.59562968e-01  3.39143830e-09  3.37493456e-09  1.59421634e-07  3.14743431e-08  1.07000000e+00 
 1.08000000e+00  4.59562971e-01  3.25447844e-09  4.59562971e-01  3.44148462e-09  4.59562971e-01  3.39143830e-09  3.37493456e-09  1.59421632e-07  3.14744000e-08  1.08000000e+00 
 1.09000000e+00  4.59562978e-01  3.25447844e-09  4.59562979e-01  3.44148462e-09  4.59562978e-01  3.39143830e-09  3.37493456e-09  1.59421639e-07  3.14742579e-08  1.09000000e+00 
 1.10000000e+00  4.59562987e-01  3.25447844e-09  4.59562988e-01  3.44148462e-09  4.59562987e-01  3.39143830e-09  3.37493456e-09  1.59421651e-07  3.14741868e-08  1.10000000e+00 
