 v-sweep         v(b0)           v(b1)           v(b2)           v(b3)           v(b4)           v(b5)           v(b6)           i(vbias)        i(viout)        v(vout)        
 0.00000000e+00  3.28034535e-09  3.53243887e-09  3.40145541e-09  3.24594499e-09  4.56985159e-01  3.45893005e-09  3.35013465e-09  1.55582306e-07  2.38988891e-08  0.00000000e+00 
 1.00000000e-02  3.28034533e-09  3.53243891e-09  3.40145545e-09  3.24594503e-09  4.56985184e-01  3.45893004e-09  3.35013469e-09  1.55582352e-07  2.38984459e-08  1.00000000e-02 
 2.00000000e-02  3.28034533e-09  3.53243884e-09  3.40145545e-09  3.24594497e-09  4.56985171e-01  3.45893009e-09  3.35013469e-09  1.55582331e-07  2.38980364e-08  2.00000000e-02 
 3.00000000e-02  3.28034533e-09  3.53243886e-09  3.40145545e-09  3.24594497e-09  4.56985145e-01  3.45893003e-09  3.35013469e-09  1.55582300e-07  2.38975550e-08  3.00000000e-02 
 4.00000000e-02  3.28034533e-09  3.53243891e-09  3.40145545e-09  3.24594497e-09  4.56985166e-01  3.45893009e-09  3.35013469e-09  1.55582322e-07  2.38974165e-08  4.00000000e-02 
 5.00000000e-02  3.28034533e-09  3.53243890e-09  3.40145545e-09  3.24594497e-09  4.56985163e-01  3.45893004e-09  3.35013469e-09  1.55582315e-07  2.38969884e-08  5.00000000e-02 
 6.00000000e-02  3.28034538e-09  3.53243886e-09  3.40145545e-09  3.24594497e-09  4.56985157e-01  3.45893009e-09  3.35013463e-09  1.55582319e-07  2.38968152e-08  6.00000000e-02 
 7.00000000e-02  3.28034539e-09  3.53243886e-09  3.40145545e-09  3.24594497e-09  4.56985172e-01  3.45893009e-09  3.35013469e-09  1.55582350e-07  2.38963236e-08  7.00000000e-02 
 8.00000000e-02  3.28034539e-09  3.53243886e-09  3.40145545e-09  3.24594497e-09  4.56985173e-01  3.45893009e-09  3.35013469e-09  1.55582324e-07  2.38961064e-08  8.00000000e-02 
 9.00000000e-02  3.28034538e-09  3.53243885e-09  3.40145545e-09  3.24594497e-09  4.56985153e-01  3.45893003e-09  3.35013469e-09  1.55582304e-07  2.38958995e-08  9.00000000e-02 
 1.00000000e-01  3.28034539e-09  3.53243886e-09  3.40145539e-09  3.24594497e-09  4.56985176e-01  3.45893009e-09  3.35013469e-09  1.55582349e-07  2.38957210e-08  1.00000000e-01 
 1.10000000e-01  3.28034538e-09  3.53243886e-09  3.40145545e-09  3.24594497e-09  4.56985164e-01  3.45893004e-09  3.35013463e-09  1.55582319e-07  2.38953728e-08  1.10000000e-01 
 1.20000000e-01  3.28034533e-09  3.53243886e-09  3.40145539e-09  3.24594497e-09  4.56985170e-01  3.45893009e-09  3.35013463e-09  1.55582349e-07  2.38951952e-08  1.20000000e-01 
 1.30000000e-01  3.28034533e-09  3.53243886e-09  3.40145545e-09  3.24594497e-09  4.56985173e-01  3.45893004e-09  3.35013469e-09  1.55582335e-07  2.38949251e-08  1.30000000e-01 
 1.40000000e-01  3.28034538e-09  3.53243886e-09  3.40145539e-09  3.24594503e-09  4.56985167e-01  3.45893009e-09  3.35013463e-09  1.55582335e-07  2.38946880e-08  1.40000000e-01 
 1.50000000e-01  3.28034538e-09  3.53243891e-09  3.40145545e-09  3.24594497e-09  4.56985155e-01  3.45893009e-09  3.35013463e-09  1.55582295e-07  2.38944367e-08  1.50000000e-01 
 1.60000000e-01  3.28034533e-09  3.53243890e-09  3.40145545e-09  3.24594497e-09  4.56985170e-01  3.45893009e-09  3.35013469e-09  1.55582332e-07  2.38943318e-08  1.60000000e-01 
 1.70000000e-01  3.28034538e-09  3.53243891e-09  3.40145545e-09  3.24594497e-09  4.56985167e-01  3.45893009e-09  3.35013469e-09  1.55582324e-07  2.38941968e-08  1.70000000e-01 
 1.80000000e-01  3.28034533e-09  3.53243885e-09  3.40145539e-09  3.24594503e-09  4.56985173e-01  3.45893004e-09  3.35013469e-09  1.55582336e-07  2.38940476e-08  1.80000000e-01 
 1.90000000e-01  3.28034533e-09  3.53243886e-09  3.40145545e-09  3.24594497e-09  4.56985160e-01  3.45893009e-09  3.35013469e-09  1.55582310e-07  2.38937776e-08  1.90000000e-01 
 2.00000000e-01  3.28034533e-09  3.53243886e-09  3.40145539e-09  3.24594497e-09  4.56985178e-01  3.45893004e-09  3.35013469e-09  1.55582355e-07  2.38937279e-08  2.00000000e-01 
 2.10000000e-01  3.28034533e-09  3.53243886e-09  3.40145545e-09  3.24594497e-09  4.56985178e-01  3.45893009e-09  3.35013469e-09  1.55582347e-07  2.38935218e-08  2.10000000e-01 
 2.20000000e-01  3.28034533e-09  3.53243886e-09  3.40145539e-09  3.24594503e-09  4.56985170e-01  3.45893004e-09  3.35013463e-09  1.55582337e-07  2.38933584e-08  2.20000000e-01 
 2.30000000e-01  3.28034539e-09  3.53243891e-09  3.40145545e-09  3.24594497e-09  4.56985180e-01  3.45893004e-09  3.35013464e-09  1.55582347e-07  2.38932341e-08  2.30000000e-01 
 2.40000000e-01  3.28034538e-09  3.53243884e-09  3.40145545e-09  3.24594497e-09  4.56985159e-01  3.45893004e-09  3.35013463e-09  1.55582303e-07  2.38931186e-08  2.40000000e-01 
 2.50000000e-01  3.28034533e-09  3.53243886e-09  3.40145539e-09  3.24594497e-09  4.56985155e-01  3.45893004e-09  3.35013463e-09  1.55582313e-07  2.38930529e-08  2.50000000e-01 
 2.60000000e-01  3.28034533e-09  3.53243886e-09  3.40145545e-09  3.24594497e-09  4.56985175e-01  3.45893009e-09  3.35013463e-09  1.55582337e-07  2.38929019e-08  2.60000000e-01 
 2.70000000e-01  3.28034538e-09  3.53243886e-09  3.40145539e-09  3.24594497e-09  4.56985168e-01  3.45893004e-09  3.35013463e-09  1.55582326e-07  2.38928379e-08  2.70000000e-01 
 2.80000000e-01  3.28034533e-09  3.53243886e-09  3.40145545e-09  3.24594497e-09  4.56985174e-01  3.45893004e-09  3.35013463e-09  1.55582345e-07  2.38926798e-08  2.80000000e-01 
 2.90000000e-01  3.28034538e-09  3.53243885e-09  3.40145539e-09  3.24594497e-09  4.56985149e-01  3.45893003e-09  3.35013463e-09  1.55582294e-07  2.38926141e-08  2.90000000e-01 
 3.00000000e-01  3.28034533e-09  3.53243891e-09  3.40145545e-09  3.24594497e-09  4.56985151e-01  3.45893003e-09  3.35013463e-09  1.55582306e-07  2.38924471e-08  3.00000000e-01 
 3.10000000e-01  3.28034538e-09  3.53243884e-09  3.40145545e-09  3.24594497e-09  4.56985161e-01  3.45893009e-09  3.35013469e-09  1.55582322e-07  2.38924152e-08  3.10000000e-01 
 3.20000000e-01  3.28034539e-09  3.53243886e-09  3.40145545e-09  3.24594497e-09  4.56985172e-01  3.45893009e-09  3.35013469e-09  1.55582343e-07  2.38922908e-08  3.20000000e-01 
 3.30000000e-01  3.28034538e-09  3.53243886e-09  3.40145539e-09  3.24594497e-09  4.56985164e-01  3.45893009e-09  3.35013463e-09  1.55582308e-07  2.38921807e-08  3.30000000e-01 
 3.40000000e-01  3.28034533e-09  3.53243891e-09  3.40145545e-09  3.24594497e-09  4.56985182e-01  3.45893009e-09  3.35013464e-09  1.55582357e-07  2.38921274e-08  3.40000000e-01 
 3.50000000e-01  3.28034539e-09  3.53243884e-09  3.40145545e-09  3.24594497e-09  4.56985184e-01  3.45893004e-09  3.35013469e-09  1.55582353e-07  2.38919782e-08  3.50000000e-01 
 3.60000000e-01  3.28034538e-09  3.53243886e-09  3.40145539e-09  3.24594497e-09  4.56985157e-01  3.45893004e-09  3.35013463e-09  1.55582314e-07  2.38918645e-08  3.60000000e-01 
 3.70000000e-01  3.28034533e-09  3.53243891e-09  3.40145545e-09  3.24594497e-09  4.56985175e-01  3.45893004e-09  3.35013463e-09  1.55582342e-07  2.38918894e-08  3.70000000e-01 
 3.80000000e-01  3.28034533e-09  3.53243884e-09  3.40145545e-09  3.24594497e-09  4.56985165e-01  3.45893009e-09  3.35013463e-09  1.55582328e-07  2.38916229e-08  3.80000000e-01 
 3.90000000e-01  3.28034539e-09  3.53243886e-09  3.40145545e-09  3.24594503e-09  4.56985175e-01  3.45893004e-09  3.35013463e-09  1.55582344e-07  2.38918183e-08  3.90000000e-01 
 4.00000000e-01  3.28034538e-09  3.53243891e-09  3.40145539e-09  3.24594497e-09  4.56985153e-01  3.45893003e-09  3.35013463e-09  1.55582291e-07  2.38915412e-08  4.00000000e-01 
 4.10000000e-01  3.28034533e-09  3.53243890e-09  3.40145545e-09  3.24594503e-09  4.56985177e-01  3.45893004e-09  3.35013469e-09  1.55582344e-07  2.38914879e-08  4.10000000e-01 
 4.20000000e-01  3.28034533e-09  3.53243891e-09  3.40145545e-09  3.24594503e-09  4.56985189e-01  3.45893004e-09  3.35013464e-09  1.55582358e-07  2.38915234e-08  4.20000000e-01 
 4.30000000e-01  3.28034533e-09  3.53243885e-09  3.40145539e-09  3.24594497e-09  4.56985160e-01  3.45893009e-09  3.35013463e-09  1.55582303e-07  2.38914843e-08  4.30000000e-01 
 4.40000000e-01  3.28034538e-09  3.53243892e-09  3.40145539e-09  3.24594497e-09  4.56985161e-01  3.45893009e-09  3.35013469e-09  1.55582320e-07  2.38913671e-08  4.40000000e-01 
 4.50000000e-01  3.28034533e-09  3.53243884e-09  3.40145539e-09  3.24594503e-09  4.56985165e-01  3.45893009e-09  3.35013469e-09  1.55582326e-07  2.38912570e-08  4.50000000e-01 
 4.60000000e-01  3.28034538e-09  3.53243892e-09  3.40145545e-09  3.24594497e-09  4.56985153e-01  3.45893003e-09  3.35013463e-09  1.55582307e-07  2.38911930e-08  4.60000000e-01 
 4.70000000e-01  3.28034533e-09  3.53243884e-09  3.40145545e-09  3.24594503e-09  4.56985178e-01  3.45893009e-09  3.35013464e-09  1.55582343e-07  2.38912214e-08  4.70000000e-01 
 4.80000000e-01  3.28034533e-09  3.53243886e-09  3.40145545e-09  3.24594497e-09  4.56985176e-01  3.45893004e-09  3.35013469e-09  1.55582340e-07  2.38911717e-08  4.80000000e-01 
 4.90000000e-01  3.28034533e-09  3.53243891e-09  3.40145545e-09  3.24594497e-09  4.56985169e-01  3.45893004e-09  3.35013463e-09  1.55582341e-07  2.38910687e-08  4.90000000e-01 
 5.00000000e-01  3.28034538e-09  3.53243884e-09  3.40145545e-09  3.24594497e-09  4.56985158e-01  3.45893004e-09  3.35013463e-09  1.55582316e-07  2.38909585e-08  5.00000000e-01 
 5.10000000e-01  3.28034533e-09  3.53243886e-09  3.40145539e-09  3.24594497e-09  4.56985161e-01  3.45893004e-09  3.35013463e-09  1.55582328e-07  2.38908910e-08  5.10000000e-01 
 5.20000000e-01  3.28034538e-09  3.53243885e-09  3.40145539e-09  3.24594502e-09  4.56985157e-01  3.45893004e-09  3.35013469e-09  1.55582324e-07  2.38908413e-08  5.20000000e-01 
 5.30000000e-01  3.28034533e-09  3.53243891e-09  3.40145545e-09  3.24594497e-09  4.56985158e-01  3.45893004e-09  3.35013469e-09  1.55582315e-07  2.38908555e-08  5.30000000e-01 
 5.40000000e-01  3.28034533e-09  3.53243890e-09  3.40145545e-09  3.24594497e-09  4.56985169e-01  3.45893004e-09  3.35013463e-09  1.55582337e-07  2.38908235e-08  5.40000000e-01 
 5.50000000e-01  3.28034533e-09  3.53243892e-09  3.40145539e-09  3.24594497e-09  4.56985174e-01  3.45893009e-09  3.35013469e-09  1.55582320e-07  2.38907454e-08  5.50000000e-01 
 5.60000000e-01  3.28034538e-09  3.53243884e-09  3.40145545e-09  3.24594497e-09  4.56985160e-01  3.45893009e-09  3.35013463e-09  1.55582323e-07  2.38906352e-08  5.60000000e-01 
 5.70000000e-01  3.28034538e-09  3.53243886e-09  3.40145545e-09  3.24594497e-09  4.56985148e-01  3.45893003e-09  3.35013469e-09  1.55582304e-07  2.38906495e-08  5.70000000e-01 
 5.80000000e-01  3.28034533e-09  3.53243886e-09  3.40145539e-09  3.24594502e-09  4.56985163e-01  3.45893009e-09  3.35013463e-09  1.55582324e-07  2.38905287e-08  5.80000000e-01 
 5.90000000e-01  3.28034533e-09  3.53243891e-09  3.40145545e-09  3.24594497e-09  4.56985154e-01  3.45893004e-09  3.35013469e-09  1.55582313e-07  2.38904789e-08  5.90000000e-01 
 6.00000000e-01  3.28034533e-09  3.53243890e-09  3.40145545e-09  3.24594497e-09  4.56985174e-01  3.45893004e-09  3.35013463e-09  1.55582336e-07  2.38905642e-08  6.00000000e-01 
 6.10000000e-01  3.28034538e-09  3.53243891e-09  3.40145539e-09  3.24594503e-09  4.56985171e-01  3.45893004e-09  3.35013469e-09  1.55582336e-07  2.38904221e-08  6.10000000e-01 
 6.20000000e-01  3.28034538e-09  3.53243885e-09  3.40145539e-09  3.24594497e-09  4.56985160e-01  3.45893004e-09  3.35013469e-09  1.55582313e-07  2.38903652e-08  6.20000000e-01 
 6.30000000e-01  3.28034533e-09  3.53243886e-09  3.40145545e-09  3.24594497e-09  4.56985179e-01  3.45893004e-09  3.35013464e-09  1.55582351e-07  2.38903226e-08  6.30000000e-01 
 6.40000000e-01  3.28034533e-09  3.53243886e-09  3.40145539e-09  3.24594503e-09  4.56985188e-01  3.45893004e-09  3.35013464e-09  1.55582359e-07  2.38901947e-08  6.40000000e-01 
 6.50000000e-01  3.28034539e-09  3.53243891e-09  3.40145545e-09  3.24594503e-09  4.56985176e-01  3.45893009e-09  3.35013469e-09  1.55582334e-07  2.38901805e-08  6.50000000e-01 
 6.60000000e-01  3.28034533e-09  3.53243884e-09  3.40145539e-09  3.24594503e-09  4.56985181e-01  3.45893009e-09  3.35013464e-09  1.55582357e-07  2.38901308e-08  6.60000000e-01 
 6.70000000e-01  3.28034533e-09  3.53243886e-09  3.40145545e-09  3.24594497e-09  4.56985161e-01  3.45893009e-09  3.35013469e-09  1.55582305e-07  2.38899673e-08  6.70000000e-01 
 6.80000000e-01  3.28034533e-09  3.53243886e-09  3.40145545e-09  3.24594502e-09  4.56985163e-01  3.45893004e-09  3.35013463e-09  1.55582329e-07  2.38900952e-08  6.80000000e-01 
 6.90000000e-01  3.28034539e-09  3.53243886e-09  3.40145545e-09  3.24594503e-09  4.56985173e-01  3.45893009e-09  3.35013469e-09  1.55582332e-07  2.38899389e-08  6.90000000e-01 
 7.00000000e-01  3.28034533e-09  3.53243891e-09  3.40145545e-09  3.24594497e-09  4.56985146e-01  3.45893009e-09  3.35013463e-09  1.55582279e-07  2.38899460e-08  7.00000000e-01 
 7.10000000e-01  3.28034538e-09  3.53243884e-09  3.40145545e-09  3.24594497e-09  4.56985171e-01  3.45893004e-09  3.35013463e-09  1.55582349e-07  2.38899105e-08  7.10000000e-01 
 7.20000000e-01  3.28034533e-09  3.53243886e-09  3.40145545e-09  3.24594497e-09  4.56985154e-01  3.45893004e-09  3.35013463e-09  1.55582300e-07  2.38898679e-08  7.20000000e-01 
 7.30000000e-01  3.28034533e-09  3.53243891e-09  3.40145539e-09  3.24594497e-09  4.56985155e-01  3.45893009e-09  3.35013463e-09  1.55582315e-07  2.38897968e-08  7.30000000e-01 
 7.40000000e-01  3.28034538e-09  3.53243890e-09  3.40145545e-09  3.24594497e-09  4.56985159e-01  3.45893009e-09  3.35013469e-09  1.55582320e-07  2.38896902e-08  7.40000000e-01 
 7.50000000e-01  3.28034533e-09  3.53243886e-09  3.40145545e-09  3.24594503e-09  4.56985166e-01  3.45893004e-09  3.35013469e-09  1.55582336e-07  2.38895694e-08  7.50000000e-01 
 7.60000000e-01  3.28034533e-09  3.53243886e-09  3.40145545e-09  3.24594503e-09  4.56985181e-01  3.45893009e-09  3.35013464e-09  1.55582362e-07  2.38897897e-08  7.60000000e-01 
 7.70000000e-01  3.28034539e-09  3.53243886e-09  3.40145545e-09  3.24594497e-09  4.56985181e-01  3.45893004e-09  3.35013469e-09  1.55582348e-07  2.38895481e-08  7.70000000e-01 
 7.80000000e-01  3.28034533e-09  3.53243885e-09  3.40145539e-09  3.24594502e-09  4.56985157e-01  3.45893004e-09  3.35013469e-09  1.55582308e-07  2.38894629e-08  7.80000000e-01 
 7.90000000e-01  3.28034533e-09  3.53243891e-09  3.40145545e-09  3.24594497e-09  4.56985149e-01  3.45893003e-09  3.35013463e-09  1.55582306e-07  2.38895410e-08  7.90000000e-01 
 8.00000000e-01  3.28034533e-09  3.53243884e-09  3.40145539e-09  3.24594502e-09  4.56985155e-01  3.45893004e-09  3.35013469e-09  1.55582304e-07  2.38892142e-08  8.00000000e-01 
 8.10000000e-01  3.28034538e-09  3.53243892e-09  3.40145539e-09  3.24594497e-09  4.56985161e-01  3.45893004e-09  3.35013469e-09  1.55582331e-07  2.38893421e-08  8.10000000e-01 
 8.20000000e-01  3.28034533e-09  3.53243884e-09  3.40145539e-09  3.24594497e-09  4.56985162e-01  3.45893004e-09  3.35013463e-09  1.55582328e-07  2.38892568e-08  8.20000000e-01 
 8.30000000e-01  3.28034533e-09  3.53243886e-09  3.40145539e-09  3.24594497e-09  4.56985162e-01  3.45893009e-09  3.35013463e-09  1.55582330e-07  2.38893350e-08  8.30000000e-01 
 8.40000000e-01  3.28034533e-09  3.53243891e-09  3.40145545e-09  3.24594497e-09  4.56985172e-01  3.45893004e-09  3.35013463e-09  1.55582334e-07  2.38891289e-08  8.40000000e-01 
 8.50000000e-01  3.28034533e-09  3.53243890e-09  3.40145539e-09  3.24594497e-09  4.56985162e-01  3.45893009e-09  3.35013469e-09  1.55582314e-07  2.38891502e-08  8.50000000e-01 
 8.60000000e-01  3.28034538e-09  3.53243886e-09  3.40145539e-09  3.24594502e-09  4.56985148e-01  3.45893009e-09  3.35013463e-09  1.55582309e-07  2.38890792e-08  8.60000000e-01 
 8.70000000e-01  3.28034538e-09  3.53243891e-09  3.40145545e-09  3.24594497e-09  4.56985170e-01  3.45893004e-09  3.35013469e-09  1.55582341e-07  2.38890721e-08  8.70000000e-01 
 8.80000000e-01  3.28034533e-09  3.53243884e-09  3.40145539e-09  3.24594503e-09  4.56985187e-01  3.45893009e-09  3.35013464e-09  1.55582346e-07  2.38890863e-08  8.80000000e-01 
 8.90000000e-01  3.28034533e-09  3.53243886e-09  3.40145539e-09  3.24594497e-09  4.56985152e-01  3.45893009e-09  3.35013469e-09  1.55582302e-07  2.38890578e-08  8.90000000e-01 
 9.00000000e-01  3.28034538e-09  3.53243886e-09  3.40145539e-09  3.24594503e-09  4.56985167e-01  3.45893004e-09  3.35013463e-09  1.55582329e-07  2.38888873e-08  9.00000000e-01 
 9.10000000e-01  3.28034538e-09  3.53243886e-09  3.40145545e-09  3.24594497e-09  4.56985163e-01  3.45893004e-09  3.35013463e-09  1.55582319e-07  2.38888731e-08  9.10000000e-01 
 9.20000000e-01  3.28034533e-09  3.53243891e-09  3.40145539e-09  3.24594497e-09  4.56985177e-01  3.45893004e-09  3.35013469e-09  1.55582336e-07  2.38887736e-08  9.20000000e-01 
 9.30000000e-01  3.28034533e-09  3.53243884e-09  3.40145545e-09  3.24594497e-09  4.56985182e-01  3.45893004e-09  3.35013464e-09  1.55582355e-07  2.38887949e-08  9.30000000e-01 
 9.40000000e-01  3.28034533e-09  3.53243886e-09  3.40145545e-09  3.24594497e-09  4.56985169e-01  3.45893004e-09  3.35013463e-09  1.55582316e-07  2.38886741e-08  9.40000000e-01 
 9.50000000e-01  3.28034539e-09  3.53243886e-09  3.40145539e-09  3.24594497e-09  4.56985179e-01  3.45893004e-09  3.35013469e-09  1.55582359e-07  2.38886102e-08  9.50000000e-01 
 9.60000000e-01  3.28034539e-09  3.53243891e-09  3.40145539e-09  3.24594497e-09  4.56985180e-01  3.45893004e-09  3.35013469e-09  1.55582339e-07  2.38885960e-08  9.60000000e-01 
 9.70000000e-01  3.28034533e-09  3.53243890e-09  3.40145545e-09  3.24594497e-09  4.56985172e-01  3.45893009e-09  3.35013469e-09  1.55582344e-07  2.38885391e-08  9.70000000e-01 
 9.80000000e-01  3.28034533e-09  3.53243885e-09  3.40145539e-09  3.24594503e-09  4.56985191e-01  3.45893009e-09  3.35013469e-09  1.55582376e-07  2.38884539e-08  9.80000000e-01 
 9.90000000e-01  3.28034533e-09  3.53243886e-09  3.40145545e-09  3.24594497e-09  4.56985159e-01  3.45893004e-09  3.35013469e-09  1.55582305e-07  2.38884681e-08  9.90000000e-01 
 1.00000000e+00  3.28034533e-09  3.53243891e-09  3.40145545e-09  3.24594497e-09  4.56985160e-01  3.45893004e-09  3.35013469e-09  1.55582325e-07  2.38883402e-08  1.00000000e+00 
 1.01000000e+00  3.28034538e-09  3.53243884e-09  3.40145545e-09  3.24594497e-09  4.56985159e-01  3.45893009e-09  3.35013469e-09  1.55582307e-07  2.38883331e-08  1.01000000e+00 
 1.02000000e+00  3.28034533e-09  3.53243886e-09  3.40145545e-09  3.24594497e-09  4.56985174e-01  3.45893004e-09  3.35013463e-09  1.55582348e-07  2.38882336e-08  1.02000000e+00 
 1.03000000e+00  3.28034533e-09  3.53243886e-09  3.40145545e-09  3.24594497e-09  4.56985167e-01  3.45893004e-09  3.35013463e-09  1.55582330e-07  2.38880773e-08  1.03000000e+00 
 1.04000000e+00  3.28034538e-09  3.53243886e-09  3.40145545e-09  3.24594497e-09  4.56985170e-01  3.45893009e-09  3.35013463e-09  1.55582334e-07  2.38880062e-08  1.04000000e+00 
 1.05000000e+00  3.28034533e-09  3.53243885e-09  3.40145545e-09  3.24594502e-09  4.56985157e-01  3.45893004e-09  3.35013463e-09  1.55582317e-07  2.38880915e-08  1.05000000e+00 
 1.06000000e+00  3.28034533e-09  3.53243891e-09  3.40145545e-09  3.24594497e-09  4.56985171e-01  3.45893004e-09  3.35013469e-09  1.55582336e-07  2.38880631e-08  1.06000000e+00 
 1.07000000e+00  3.28034538e-09  3.53243890e-09  3.40145545e-09  3.24594497e-09  4.56985151e-01  3.45893003e-09  3.35013469e-09  1.55582301e-07  2.38879352e-08  1.07000000e+00 
 1.08000000e+00  3.28034533e-09  3.53243886e-09  3.40145539e-09  3.24594497e-09  4.56985147e-01  3.45893003e-09  3.35013469e-09  1.55582307e-07  2.38878783e-08  1.08000000e+00 
 1.09000000e+00  3.28034539e-09  3.53243886e-09  3.40145545e-09  3.24594497e-09  4.56985172e-01  3.45893004e-09  3.35013469e-09  1.55582340e-07  2.38878499e-08  1.09000000e+00 
 1.10000000e+00  3.28034538e-09  3.53243886e-09  3.40145539e-09  3.24594503e-09  4.56985168e-01  3.45893009e-09  3.35013469e-09  1.55582328e-07  2.38877931e-08  1.10000000e+00 
