 v-sweep         v(b0)           v(b1)           v(b2)           v(b3)           v(b4)           v(b5)           v(b6)           i(vbias)        i(viout)        v(vout)        
 0.00000000e+00  4.57205196e-01  3.32879074e-09  4.57205196e-01  3.30345235e-09  3.58230544e-09  3.48747155e-09  3.12559465e-09  1.58160632e-07  7.51702154e-09  0.00000000e+00 
 1.00000000e-02  4.57205186e-01  3.32879072e-09  4.57205186e-01  3.30345227e-09  3.58230548e-09  3.48747159e-09  3.12559469e-09  1.58160631e-07  7.51659479e-09  1.00000000e-02 
 2.00000000e-02  4.57205185e-01  3.32879078e-09  4.57205185e-01  3.30345233e-09  3.58230548e-09  3.48747158e-09  3.12559463e-09  1.58160626e-07  7.51630691e-09  2.00000000e-02 
 3.00000000e-02  4.57205171e-01  3.32879077e-09  4.57205171e-01  3.30345227e-09  3.58230542e-09  3.48747153e-09  3.12559463e-09  1.58160617e-07  7.51592522e-09  3.00000000e-02 
 4.00000000e-02  4.57205201e-01  3.32879072e-09  4.57205201e-01  3.30345233e-09  3.58230542e-09  3.48747154e-09  3.12559463e-09  1.58160663e-07  7.51557616e-09  4.00000000e-02 
 5.00000000e-02  4.57205184e-01  3.32879072e-09  4.57205184e-01  3.30345227e-09  3.58230548e-09  3.48747154e-09  3.12559469e-09  1.58160618e-07  7.51540652e-09  5.00000000e-02 
 6.00000000e-02  4.57205186e-01  3.32879072e-09  4.57205186e-01  3.30345227e-09  3.58230548e-09  3.48747159e-09  3.12559469e-09  1.58160631e-07  7.51486251e-09  6.00000000e-02 
 7.00000000e-02  4.57205181e-01  3.32879072e-09  4.57205181e-01  3.30345227e-09  3.58230548e-09  3.48747158e-09  3.12559469e-09  1.58160640e-07  7.51470353e-09  7.00000000e-02 
 8.00000000e-02  4.57205203e-01  3.32879072e-09  4.57205203e-01  3.30345233e-09  3.58230548e-09  3.48747153e-09  3.12559469e-09  1.58160660e-07  7.51439444e-09  8.00000000e-02 
 9.00000000e-02  4.57205202e-01  3.32879072e-09  4.57205202e-01  3.30345228e-09  3.58230542e-09  3.48747154e-09  3.12559469e-09  1.58160645e-07  7.51407914e-09  9.00000000e-02 
 1.00000000e-01  4.57205194e-01  3.32879072e-09  4.57205194e-01  3.30345228e-09  3.58230548e-09  3.48747154e-09  3.12559463e-09  1.58160651e-07  7.51376472e-09  1.00000000e-01 
 1.10000000e-01  4.57205173e-01  3.32879077e-09  4.57205173e-01  3.30345233e-09  3.58230542e-09  3.48747154e-09  3.12559463e-09  1.58160614e-07  7.51356399e-09  1.10000000e-01 
 1.20000000e-01  4.57205211e-01  3.32879078e-09  4.57205211e-01  3.30345228e-09  3.58230548e-09  3.48747159e-09  3.12559469e-09  1.58160667e-07  7.51339790e-09  1.20000000e-01 
 1.30000000e-01  4.57205189e-01  3.32879072e-09  4.57205189e-01  3.30345233e-09  3.58230548e-09  3.48747152e-09  3.12559469e-09  1.58160643e-07  7.51313234e-09  1.30000000e-01 
 1.40000000e-01  4.57205207e-01  3.32879072e-09  4.57205207e-01  3.30345228e-09  3.58230542e-09  3.48747154e-09  3.12559469e-09  1.58160667e-07  7.51300355e-09  1.40000000e-01 
 1.50000000e-01  4.57205198e-01  3.32879072e-09  4.57205198e-01  3.30345233e-09  3.58230542e-09  3.48747154e-09  3.12559469e-09  1.58160641e-07  7.51272822e-09  1.50000000e-01 
 1.60000000e-01  4.57205195e-01  3.32879072e-09  4.57205195e-01  3.30345233e-09  3.58230548e-09  3.48747154e-09  3.12559469e-09  1.58160641e-07  7.51259677e-09  1.60000000e-01 
 1.70000000e-01  4.57205174e-01  3.32879072e-09  4.57205174e-01  3.30345233e-09  3.58230542e-09  3.48747154e-09  3.12559469e-09  1.58160616e-07  7.51254170e-09  1.70000000e-01 
 1.80000000e-01  4.57205191e-01  3.32879078e-09  4.57205191e-01  3.30345228e-09  3.58230542e-09  3.48747154e-09  3.12559463e-09  1.58160646e-07  7.51229656e-09  1.80000000e-01 
 1.90000000e-01  4.57205192e-01  3.32879072e-09  4.57205192e-01  3.30345233e-09  3.58230548e-09  3.48747154e-09  3.12559469e-09  1.58160642e-07  7.51201235e-09  1.90000000e-01 
 2.00000000e-01  4.57205180e-01  3.32879072e-09  4.57205180e-01  3.30345233e-09  3.58230542e-09  3.48747159e-09  3.12559469e-09  1.58160636e-07  7.51188267e-09  2.00000000e-01 
 2.10000000e-01  4.57205196e-01  3.32879072e-09  4.57205196e-01  3.30345228e-09  3.58230548e-09  3.48747158e-09  3.12559469e-09  1.58160658e-07  7.51166063e-09  2.10000000e-01 
 2.20000000e-01  4.57205204e-01  3.32879072e-09  4.57205204e-01  3.30345228e-09  3.58230548e-09  3.48747159e-09  3.12559469e-09  1.58160666e-07  7.51161444e-09  2.20000000e-01 
 2.30000000e-01  4.57205200e-01  3.32879078e-09  4.57205200e-01  3.30345228e-09  3.58230548e-09  3.48747159e-09  3.12559469e-09  1.58160655e-07  7.51154694e-09  2.30000000e-01 
 2.40000000e-01  4.57205183e-01  3.32879072e-09  4.57205183e-01  3.30345227e-09  3.58230542e-09  3.48747153e-09  3.12559463e-09  1.58160615e-07  7.51135154e-09  2.40000000e-01 
 2.50000000e-01  4.57205205e-01  3.32879078e-09  4.57205205e-01  3.30345228e-09  3.58230548e-09  3.48747160e-09  3.12559469e-09  1.58160662e-07  7.51129292e-09  2.50000000e-01 
 2.60000000e-01  4.57205184e-01  3.32879072e-09  4.57205184e-01  3.30345233e-09  3.58230542e-09  3.48747158e-09  3.12559463e-09  1.58160614e-07  7.51106910e-09  2.60000000e-01 
 2.70000000e-01  4.57205188e-01  3.32879078e-09  4.57205188e-01  3.30345228e-09  3.58230542e-09  3.48747159e-09  3.12559469e-09  1.58160634e-07  7.51102647e-09  2.70000000e-01 
 2.80000000e-01  4.57205179e-01  3.32879078e-09  4.57205179e-01  3.30345233e-09  3.58230542e-09  3.48747153e-09  3.12559469e-09  1.58160623e-07  7.51082219e-09  2.80000000e-01 
 2.90000000e-01  4.57205192e-01  3.32879072e-09  4.57205193e-01  3.30345233e-09  3.58230542e-09  3.48747154e-09  3.12559469e-09  1.58160642e-07  7.51074225e-09  2.90000000e-01 
 3.00000000e-01  4.57205203e-01  3.32879072e-09  4.57205203e-01  3.30345228e-09  3.58230548e-09  3.48747159e-09  3.12559463e-09  1.58160647e-07  7.51063922e-09  3.00000000e-01 
 3.10000000e-01  4.57205163e-01  3.32879072e-09  4.57205163e-01  3.30345227e-09  3.58230542e-09  3.48747152e-09  3.12559463e-09  1.58160593e-07  7.51053264e-09  3.10000000e-01 
 3.20000000e-01  4.57205185e-01  3.32879078e-09  4.57205185e-01  3.30345233e-09  3.58230542e-09  3.48747154e-09  3.12559463e-09  1.58160642e-07  7.51046869e-09  3.20000000e-01 
 3.30000000e-01  4.57205192e-01  3.32879078e-09  4.57205192e-01  3.30345233e-09  3.58230548e-09  3.48747159e-09  3.12559463e-09  1.58160641e-07  7.51039764e-09  3.30000000e-01 
 3.40000000e-01  4.57205156e-01  3.32879072e-09  4.57205156e-01  3.30345227e-09  3.58230548e-09  3.48747158e-09  3.12559469e-09  1.58160590e-07  7.51021290e-09  3.40000000e-01 
 3.50000000e-01  4.57205171e-01  3.32879072e-09  4.57205171e-01  3.30345233e-09  3.58230542e-09  3.48747153e-09  3.12559469e-09  1.58160617e-07  7.51017382e-09  3.50000000e-01 
 3.60000000e-01  4.57205192e-01  3.32879072e-09  4.57205192e-01  3.30345228e-09  3.58230542e-09  3.48747154e-09  3.12559469e-09  1.58160635e-07  7.51007434e-09  3.60000000e-01 
 3.70000000e-01  4.57205197e-01  3.32879078e-09  4.57205197e-01  3.30345228e-09  3.58230542e-09  3.48747154e-09  3.12559469e-09  1.58160645e-07  7.50997486e-09  3.70000000e-01 
 3.80000000e-01  4.57205199e-01  3.32879072e-09  4.57205199e-01  3.30345228e-09  3.58230548e-09  3.48747154e-09  3.12559463e-09  1.58160638e-07  7.50997486e-09  3.80000000e-01 
 3.90000000e-01  4.57205192e-01  3.32879078e-09  4.57205192e-01  3.30345233e-09  3.58230548e-09  3.48747154e-09  3.12559463e-09  1.58160652e-07  7.50986473e-09  3.90000000e-01 
 4.00000000e-01  4.57205176e-01  3.32879072e-09  4.57205176e-01  3.30345227e-09  3.58230542e-09  3.48747154e-09  3.12559469e-09  1.58160608e-07  7.50989670e-09  4.00000000e-01 
 4.10000000e-01  4.57205186e-01  3.32879072e-09  4.57205186e-01  3.30345227e-09  3.58230542e-09  3.48747154e-09  3.12559463e-09  1.58160627e-07  7.50974749e-09  4.10000000e-01 
 4.20000000e-01  4.57205182e-01  3.32879078e-09  4.57205182e-01  3.30345233e-09  3.58230548e-09  3.48747159e-09  3.12559463e-09  1.58160620e-07  7.50954854e-09  4.20000000e-01 
 4.30000000e-01  4.57205183e-01  3.32879078e-09  4.57205183e-01  3.30345227e-09  3.58230548e-09  3.48747158e-09  3.12559469e-09  1.58160625e-07  7.50950235e-09  4.30000000e-01 
 4.40000000e-01  4.57205184e-01  3.32879072e-09  4.57205184e-01  3.30345227e-09  3.58230548e-09  3.48747153e-09  3.12559469e-09  1.58160633e-07  7.50949170e-09  4.40000000e-01 
 4.50000000e-01  4.57205192e-01  3.32879072e-09  4.57205192e-01  3.30345233e-09  3.58230548e-09  3.48747160e-09  3.12559469e-09  1.58160641e-07  7.50954143e-09  4.50000000e-01 
 4.60000000e-01  4.57205186e-01  3.32879072e-09  4.57205186e-01  3.30345227e-09  3.58230548e-09  3.48747158e-09  3.12559469e-09  1.58160642e-07  7.50937090e-09  4.60000000e-01 
 4.70000000e-01  4.57205176e-01  3.32879072e-09  4.57205176e-01  3.30345227e-09  3.58230542e-09  3.48747159e-09  3.12559469e-09  1.58160605e-07  7.50926787e-09  4.70000000e-01 
 4.80000000e-01  4.57205206e-01  3.32879072e-09  4.57205206e-01  3.30345233e-09  3.58230548e-09  3.48747153e-09  3.12559469e-09  1.58160673e-07  7.50942064e-09  4.80000000e-01 
 4.90000000e-01  4.57205191e-01  3.32879072e-09  4.57205191e-01  3.30345233e-09  3.58230548e-09  3.48747154e-09  3.12559469e-09  1.58160653e-07  7.50925722e-09  4.90000000e-01 
 5.00000000e-01  4.57205200e-01  3.32879072e-09  4.57205200e-01  3.30345233e-09  3.58230542e-09  3.48747159e-09  3.12559469e-09  1.58160661e-07  7.50909379e-09  5.00000000e-01 
 5.10000000e-01  4.57205186e-01  3.32879072e-09  4.57205186e-01  3.30345227e-09  3.58230548e-09  3.48747158e-09  3.12559469e-09  1.58160630e-07  7.50905116e-09  5.10000000e-01 
 5.20000000e-01  4.57205188e-01  3.32879072e-09  4.57205188e-01  3.30345233e-09  3.58230548e-09  3.48747153e-09  3.12559463e-09  1.58160638e-07  7.50905116e-09  5.20000000e-01 
 5.30000000e-01  4.57205170e-01  3.32879072e-09  4.57205170e-01  3.30345227e-09  3.58230542e-09  3.48747154e-09  3.12559469e-09  1.58160623e-07  7.50905116e-09  5.30000000e-01 
 5.40000000e-01  4.57205198e-01  3.32879078e-09  4.57205198e-01  3.30345228e-09  3.58230548e-09  3.48747154e-09  3.12559463e-09  1.58160659e-07  7.50902984e-09  5.40000000e-01 
 5.50000000e-01  4.57205199e-01  3.32879072e-09  4.57205199e-01  3.30345233e-09  3.58230542e-09  3.48747154e-09  3.12559469e-09  1.58160663e-07  7.50884155e-09  5.50000000e-01 
 5.60000000e-01  4.57205181e-01  3.32879078e-09  4.57205181e-01  3.30345233e-09  3.58230542e-09  3.48747159e-09  3.12559469e-09  1.58160609e-07  7.50884155e-09  5.60000000e-01 
 5.70000000e-01  4.57205203e-01  3.32879072e-09  4.57205203e-01  3.30345233e-09  3.58230542e-09  3.48747158e-09  3.12559469e-09  1.58160650e-07  7.50872076e-09  5.70000000e-01 
 5.80000000e-01  4.57205187e-01  3.32879078e-09  4.57205187e-01  3.30345227e-09  3.58230548e-09  3.48747159e-09  3.12559469e-09  1.58160621e-07  7.50868878e-09  5.80000000e-01 
 5.90000000e-01  4.57205200e-01  3.32879072e-09  4.57205200e-01  3.30345228e-09  3.58230542e-09  3.48747153e-09  3.12559469e-09  1.58160662e-07  7.50855378e-09  5.90000000e-01 
 6.00000000e-01  4.57205192e-01  3.32879072e-09  4.57205192e-01  3.30345233e-09  3.58230542e-09  3.48747154e-09  3.12559469e-09  1.58160632e-07  7.50856799e-09  6.00000000e-01 
 6.10000000e-01  4.57205186e-01  3.32879078e-09  4.57205186e-01  3.30345233e-09  3.58230548e-09  3.48747154e-09  3.12559469e-09  1.58160645e-07  7.50853246e-09  6.10000000e-01 
 6.20000000e-01  4.57205180e-01  3.32879078e-09  4.57205180e-01  3.30345227e-09  3.58230548e-09  3.48747154e-09  3.12559469e-09  1.58160624e-07  7.50834772e-09  6.20000000e-01 
 6.30000000e-01  4.57205205e-01  3.32879072e-09  4.57205205e-01  3.30345233e-09  3.58230548e-09  3.48747159e-09  3.12559463e-09  1.58160670e-07  7.50854667e-09  6.30000000e-01 
 6.40000000e-01  4.57205192e-01  3.32879072e-09  4.57205192e-01  3.30345233e-09  3.58230542e-09  3.48747158e-09  3.12559463e-09  1.58160647e-07  7.50844009e-09  6.40000000e-01 
 6.50000000e-01  4.57205202e-01  3.32879072e-09  4.57205202e-01  3.30345233e-09  3.58230548e-09  3.48747153e-09  3.12559469e-09  1.58160657e-07  7.50828377e-09  6.50000000e-01 
 6.60000000e-01  4.57205214e-01  3.32879072e-09  4.57205214e-01  3.30345233e-09  3.58230542e-09  3.48747154e-09  3.12559469e-09  1.58160679e-07  7.50829798e-09  6.60000000e-01 
 6.70000000e-01  4.57205175e-01  3.32879072e-09  4.57205175e-01  3.30345227e-09  3.58230548e-09  3.48747154e-09  3.12559469e-09  1.58160600e-07  7.50823403e-09  6.70000000e-01 
 6.80000000e-01  4.57205197e-01  3.32879072e-09  4.57205197e-01  3.30345228e-09  3.58230548e-09  3.48747154e-09  3.12559469e-09  1.58160657e-07  7.50805640e-09  6.80000000e-01 
 6.90000000e-01  4.57205181e-01  3.32879072e-09  4.57205181e-01  3.30345233e-09  3.58230548e-09  3.48747154e-09  3.12559469e-09  1.58160616e-07  7.50809903e-09  6.90000000e-01 
 7.00000000e-01  4.57205191e-01  3.32879072e-09  4.57205191e-01  3.30345228e-09  3.58230542e-09  3.48747154e-09  3.12559463e-09  1.58160627e-07  7.50797113e-09  7.00000000e-01 
 7.10000000e-01  4.57205188e-01  3.32879078e-09  4.57205188e-01  3.30345228e-09  3.58230542e-09  3.48747154e-09  3.12559469e-09  1.58160627e-07  7.50802087e-09  7.10000000e-01 
 7.20000000e-01  4.57205195e-01  3.32879072e-09  4.57205195e-01  3.30345228e-09  3.58230542e-09  3.48747154e-09  3.12559469e-09  1.58160651e-07  7.50792850e-09  7.20000000e-01 
 7.30000000e-01  4.57205188e-01  3.32879072e-09  4.57205188e-01  3.30345228e-09  3.58230548e-09  3.48747154e-09  3.12559469e-09  1.58160634e-07  7.50788587e-09  7.30000000e-01 
 7.40000000e-01  4.57205192e-01  3.32879072e-09  4.57205192e-01  3.30345228e-09  3.58230548e-09  3.48747154e-09  3.12559463e-09  1.58160650e-07  7.50772955e-09  7.40000000e-01 
 7.50000000e-01  4.57205210e-01  3.32879072e-09  4.57205211e-01  3.30345233e-09  3.58230542e-09  3.48747154e-09  3.12559469e-09  1.58160659e-07  7.50780771e-09  7.50000000e-01 
 7.60000000e-01  4.57205173e-01  3.32879072e-09  4.57205173e-01  3.30345227e-09  3.58230542e-09  3.48747159e-09  3.12559463e-09  1.58160614e-07  7.50787876e-09  7.60000000e-01 
 7.70000000e-01  4.57205201e-01  3.32879072e-09  4.57205201e-01  3.30345233e-09  3.58230548e-09  3.48747152e-09  3.12559469e-09  1.58160654e-07  7.50768692e-09  7.70000000e-01 
 7.80000000e-01  4.57205187e-01  3.32879072e-09  4.57205187e-01  3.30345233e-09  3.58230542e-09  3.48747154e-09  3.12559463e-09  1.58160629e-07  7.50763718e-09  7.80000000e-01 
 7.90000000e-01  4.57205179e-01  3.32879078e-09  4.57205179e-01  3.30345233e-09  3.58230548e-09  3.48747154e-09  3.12559469e-09  1.58160637e-07  7.50758034e-09  7.90000000e-01 
 8.00000000e-01  4.57205210e-01  3.32879072e-09  4.57205210e-01  3.30345233e-09  3.58230542e-09  3.48747154e-09  3.12559469e-09  1.58160669e-07  7.50749507e-09  8.00000000e-01 
 8.10000000e-01  4.57205209e-01  3.32879078e-09  4.57205209e-01  3.30345233e-09  3.58230548e-09  3.48747154e-09  3.12559469e-09  1.58160674e-07  7.50750218e-09  8.10000000e-01 
 8.20000000e-01  4.57205183e-01  3.32879078e-09  4.57205183e-01  3.30345227e-09  3.58230542e-09  3.48747154e-09  3.12559469e-09  1.58160617e-07  7.50745244e-09  8.20000000e-01 
 8.30000000e-01  4.57205182e-01  3.32879072e-09  4.57205182e-01  3.30345227e-09  3.58230548e-09  3.48747154e-09  3.12559469e-09  1.58160627e-07  7.50740980e-09  8.30000000e-01 
 8.40000000e-01  4.57205200e-01  3.32879078e-09  4.57205200e-01  3.30345233e-09  3.58230548e-09  3.48747159e-09  3.12559463e-09  1.58160650e-07  7.50735296e-09  8.40000000e-01 
 8.50000000e-01  4.57205195e-01  3.32879072e-09  4.57205195e-01  3.30345228e-09  3.58230542e-09  3.48747152e-09  3.12559463e-09  1.58160629e-07  7.50729612e-09  8.50000000e-01 
 8.60000000e-01  4.57205176e-01  3.32879072e-09  4.57205176e-01  3.30345227e-09  3.58230548e-09  3.48747154e-09  3.12559463e-09  1.58160622e-07  7.50719664e-09  8.60000000e-01 
 8.70000000e-01  4.57205190e-01  3.32879072e-09  4.57205190e-01  3.30345228e-09  3.58230542e-09  3.48747159e-09  3.12559469e-09  1.58160654e-07  7.50714690e-09  8.70000000e-01 
 8.80000000e-01  4.57205202e-01  3.32879072e-09  4.57205202e-01  3.30345233e-09  3.58230542e-09  3.48747152e-09  3.12559463e-09  1.58160660e-07  7.50695506e-09  8.80000000e-01 
 8.90000000e-01  4.57205190e-01  3.32879072e-09  4.57205190e-01  3.30345228e-09  3.58230548e-09  3.48747154e-09  3.12559469e-09  1.58160634e-07  7.50701190e-09  8.90000000e-01 
 9.00000000e-01  4.57205208e-01  3.32879078e-09  4.57205208e-01  3.30345228e-09  3.58230542e-09  3.48747154e-09  3.12559463e-09  1.58160659e-07  7.50704743e-09  9.00000000e-01 
 9.10000000e-01  4.57205197e-01  3.32879072e-09  4.57205197e-01  3.30345228e-09  3.58230548e-09  3.48747154e-09  3.12559463e-09  1.58160651e-07  7.50694795e-09  9.10000000e-01 
 9.20000000e-01  4.57205177e-01  3.32879072e-09  4.57205178e-01  3.30345233e-09  3.58230548e-09  3.48747154e-09  3.12559469e-09  1.58160616e-07  7.50698348e-09  9.20000000e-01 
 9.30000000e-01  4.57205193e-01  3.32879072e-09  4.57205193e-01  3.30345228e-09  3.58230542e-09  3.48747154e-09  3.12559469e-09  1.58160647e-07  7.50689821e-09  9.30000000e-01 
 9.40000000e-01  4.57205191e-01  3.32879072e-09  4.57205191e-01  3.30345228e-09  3.58230548e-09  3.48747154e-09  3.12559463e-09  1.58160625e-07  7.50671347e-09  9.40000000e-01 
 9.50000000e-01  4.57205200e-01  3.32879072e-09  4.57205200e-01  3.30345233e-09  3.58230542e-09  3.48747154e-09  3.12559469e-09  1.58160658e-07  7.50669216e-09  9.50000000e-01 
 9.60000000e-01  4.57205208e-01  3.32879072e-09  4.57205208e-01  3.30345233e-09  3.58230542e-09  3.48747154e-09  3.12559469e-09  1.58160644e-07  7.50675611e-09  9.60000000e-01 
 9.70000000e-01  4.57205178e-01  3.32879072e-09  4.57205178e-01  3.30345227e-09  3.58230542e-09  3.48747159e-09  3.12559469e-09  1.58160623e-07  7.50658558e-09  9.70000000e-01 
 9.80000000e-01  4.57205207e-01  3.32879072e-09  4.57205207e-01  3.30345228e-09  3.58230548e-09  3.48747152e-09  3.12559469e-09  1.58160669e-07  7.50665663e-09  9.80000000e-01 
 9.90000000e-01  4.57205193e-01  3.32879072e-09  4.57205193e-01  3.30345228e-09  3.58230548e-09  3.48747154e-09  3.12559463e-09  1.58160634e-07  7.50645057e-09  9.90000000e-01 
 1.00000000e+00  4.57205164e-01  3.32879077e-09  4.57205164e-01  3.30345233e-09  3.58230548e-09  3.48747153e-09  3.12559469e-09  1.58160604e-07  7.50640794e-09  1.00000000e+00 
 1.01000000e+00  4.57205183e-01  3.32879078e-09  4.57205183e-01  3.30345227e-09  3.58230542e-09  3.48747159e-09  3.12559463e-09  1.58160639e-07  7.50638662e-09  1.01000000e+00 
 1.02000000e+00  4.57205169e-01  3.32879072e-09  4.57205169e-01  3.30345233e-09  3.58230542e-09  3.48747158e-09  3.12559469e-09  1.58160613e-07  7.50637952e-09  1.02000000e+00 
 1.03000000e+00  4.57205176e-01  3.32879072e-09  4.57205177e-01  3.30345233e-09  3.58230548e-09  3.48747153e-09  3.12559463e-09  1.58160626e-07  7.50628715e-09  1.03000000e+00 
 1.04000000e+00  4.57205172e-01  3.32879077e-09  4.57205172e-01  3.30345227e-09  3.58230548e-09  3.48747154e-09  3.12559463e-09  1.58160605e-07  7.50617346e-09  1.04000000e+00 
 1.05000000e+00  4.57205192e-01  3.32879078e-09  4.57205192e-01  3.30345233e-09  3.58230542e-09  3.48747154e-09  3.12559469e-09  1.58160646e-07  7.50613083e-09  1.05000000e+00 
 1.06000000e+00  4.57205183e-01  3.32879078e-09  4.57205183e-01  3.30345233e-09  3.58230542e-09  3.48747154e-09  3.12559469e-09  1.58160624e-07  7.50613083e-09  1.06000000e+00 
 1.07000000e+00  4.57205194e-01  3.32879072e-09  4.57205194e-01  3.30345228e-09  3.58230548e-09  3.48747154e-09  3.12559463e-09  1.58160644e-07  7.50602425e-09  1.07000000e+00 
 1.08000000e+00  4.57205197e-01  3.32879072e-09  4.57205197e-01  3.30345228e-09  3.58230548e-09  3.48747159e-09  3.12559469e-09  1.58160640e-07  7.50601714e-09  1.08000000e+00 
 1.09000000e+00  4.57205204e-01  3.32879072e-09  4.57205204e-01  3.30345233e-09  3.58230542e-09  3.48747152e-09  3.12559469e-09  1.58160651e-07  7.50585372e-09  1.09000000e+00 
 1.10000000e+00  4.57205212e-01  3.32879072e-09  4.57205212e-01  3.30345228e-09  3.58230548e-09  3.48747154e-09  3.12559463e-09  1.58160662e-07  7.50579687e-09  1.10000000e+00 
