 v-sweep         v(b0)           v(b1)           v(b2)           v(b3)           v(b4)           v(b5)           v(b6)           i(vbias)        i(viout)        v(vout)        
 0.00000000e+00  3.37390846e-09  3.38115302e-09  3.27542082e-09  3.43451767e-09  4.58243851e-01  3.23937737e-09  3.49118390e-09  1.56323856e-07  2.43341267e-08  0.00000000e+00 
 1.00000000e-02  3.37390850e-09  3.38115300e-09  3.27542080e-09  3.43451765e-09  4.58243858e-01  3.23937736e-09  3.49118393e-09  1.56323868e-07  2.43338664e-08  1.00000000e-02 
 2.00000000e-02  3.37390844e-09  3.38115300e-09  3.27542086e-09  3.43451765e-09  4.58243877e-01  3.23937737e-09  3.49118388e-09  1.56323907e-07  2.43333955e-08  2.00000000e-02 
 3.00000000e-02  3.37390844e-09  3.38115300e-09  3.27542079e-09  3.43451765e-09  4.58243873e-01  3.23937741e-09  3.49118388e-09  1.56323886e-07  2.43332041e-08  3.00000000e-02 
 4.00000000e-02  3.37390844e-09  3.38115300e-09  3.27542087e-09  3.43451765e-09  4.58243873e-01  3.23937741e-09  3.49118388e-09  1.56323890e-07  2.43326728e-08  4.00000000e-02 
 5.00000000e-02  3.37390844e-09  3.38115300e-09  3.27542085e-09  3.43451765e-09  4.58243879e-01  3.23937736e-09  3.49118388e-09  1.56323889e-07  2.43324103e-08  5.00000000e-02 
 6.00000000e-02  3.37390844e-09  3.38115300e-09  3.27542085e-09  3.43451765e-09  4.58243871e-01  3.23937737e-09  3.49118388e-09  1.56323880e-07  2.43320888e-08  6.00000000e-02 
 7.00000000e-02  3.37390850e-09  3.38115300e-09  3.27542085e-09  3.43451765e-09  4.58243860e-01  3.23937735e-09  3.49118388e-09  1.56323872e-07  2.43317775e-08  7.00000000e-02 
 8.00000000e-02  3.37390850e-09  3.38115300e-09  3.27542085e-09  3.43451765e-09  4.58243880e-01  3.23937737e-09  3.49118393e-09  1.56323904e-07  2.43315741e-08  8.00000000e-02 
 9.00000000e-02  3.37390850e-09  3.38115300e-09  3.27542085e-09  3.43451765e-09  4.58243879e-01  3.23937735e-09  3.49118393e-09  1.56323899e-07  2.43313849e-08  9.00000000e-02 
 1.00000000e-01  3.37390850e-09  3.38115300e-09  3.27542085e-09  3.43451765e-09  4.58243888e-01  3.23937737e-09  3.49118388e-09  1.56323916e-07  2.43310270e-08  1.00000000e-01 
 1.10000000e-01  3.37390844e-09  3.38115300e-09  3.27542085e-09  3.43451765e-09  4.58243855e-01  3.23937735e-09  3.49118388e-09  1.56323861e-07  2.43307463e-08  1.10000000e-01 
 1.20000000e-01  3.37390850e-09  3.38115294e-09  3.27542085e-09  3.43451765e-09  4.58243854e-01  3.23937737e-09  3.49118388e-09  1.56323849e-07  2.43304967e-08  1.20000000e-01 
 1.30000000e-01  3.37390850e-09  3.38115300e-09  3.27542085e-09  3.43451771e-09  4.58243858e-01  3.23937741e-09  3.49118388e-09  1.56323872e-07  2.43302685e-08  1.30000000e-01 
 1.40000000e-01  3.37390850e-09  3.38115300e-09  3.27542085e-09  3.43451771e-09  4.58243883e-01  3.23937741e-09  3.49118393e-09  1.56323901e-07  2.43302338e-08  1.40000000e-01 
 1.50000000e-01  3.37390844e-09  3.38115300e-09  3.27542085e-09  3.43451765e-09  4.58243861e-01  3.23937736e-09  3.49118388e-09  1.56323879e-07  2.43298945e-08  1.50000000e-01 
 1.60000000e-01  3.37390844e-09  3.38115300e-09  3.27542085e-09  3.43451765e-09  4.58243855e-01  3.23937737e-09  3.49118393e-09  1.56323857e-07  2.43296370e-08  1.60000000e-01 
 1.70000000e-01  3.37390850e-09  3.38115300e-09  3.27542085e-09  3.43451765e-09  4.58243843e-01  3.23937741e-09  3.49118387e-09  1.56323847e-07  2.43295428e-08  1.70000000e-01 
 1.80000000e-01  3.37390850e-09  3.38115300e-09  3.27542085e-09  3.43451765e-09  4.58243882e-01  3.23937741e-09  3.49118393e-09  1.56323891e-07  2.43295073e-08  1.80000000e-01 
 1.90000000e-01  3.37390850e-09  3.38115300e-09  3.27542085e-09  3.43451765e-09  4.58243879e-01  3.23937741e-09  3.49118393e-09  1.56323894e-07  2.43292746e-08  1.90000000e-01 
 2.00000000e-01  3.37390844e-09  3.38115300e-09  3.27542085e-09  3.43451765e-09  4.58243862e-01  3.23937736e-09  3.49118388e-09  1.56323859e-07  2.43290632e-08  2.00000000e-01 
 2.10000000e-01  3.37390850e-09  3.38115300e-09  3.27542086e-09  3.43451765e-09  4.58243899e-01  3.23937737e-09  3.49118388e-09  1.56323929e-07  2.43289850e-08  2.10000000e-01 
 2.20000000e-01  3.37390844e-09  3.38115294e-09  3.27542085e-09  3.43451765e-09  4.58243875e-01  3.23937735e-09  3.49118388e-09  1.56323895e-07  2.43289140e-08  2.20000000e-01 
 2.30000000e-01  3.37390844e-09  3.38115300e-09  3.27542085e-09  3.43451765e-09  4.58243854e-01  3.23937737e-09  3.49118393e-09  1.56323869e-07  2.43287257e-08  2.30000000e-01 
 2.40000000e-01  3.37390850e-09  3.38115300e-09  3.27542085e-09  3.43451765e-09  4.58243882e-01  3.23937741e-09  3.49118393e-09  1.56323908e-07  2.43285765e-08  2.40000000e-01 
 2.50000000e-01  3.37390850e-09  3.38115300e-09  3.27542085e-09  3.43451765e-09  4.58243873e-01  3.23937736e-09  3.49118393e-09  1.56323887e-07  2.43283598e-08  2.50000000e-01 
 2.60000000e-01  3.37390850e-09  3.38115300e-09  3.27542085e-09  3.43451765e-09  4.58243871e-01  3.23937737e-09  3.49118393e-09  1.56323887e-07  2.43282479e-08  2.60000000e-01 
 2.70000000e-01  3.37390850e-09  3.38115300e-09  3.27542080e-09  3.43451765e-09  4.58243864e-01  3.23937735e-09  3.49118393e-09  1.56323891e-07  2.43280827e-08  2.70000000e-01 
 2.80000000e-01  3.37390850e-09  3.38115300e-09  3.27542087e-09  3.43451765e-09  4.58243877e-01  3.23937737e-09  3.49118393e-09  1.56323901e-07  2.43279654e-08  2.80000000e-01 
 2.90000000e-01  3.37390850e-09  3.38115300e-09  3.27542079e-09  3.43451765e-09  4.58243859e-01  3.23937741e-09  3.49118393e-09  1.56323854e-07  2.43280311e-08  2.90000000e-01 
 3.00000000e-01  3.37390844e-09  3.38115300e-09  3.27542087e-09  3.43451765e-09  4.58243869e-01  3.23937736e-09  3.49118393e-09  1.56323873e-07  2.43278180e-08  3.00000000e-01 
 3.10000000e-01  3.37390850e-09  3.38115300e-09  3.27542085e-09  3.43451765e-09  4.58243870e-01  3.23937737e-09  3.49118393e-09  1.56323891e-07  2.43277647e-08  3.10000000e-01 
 3.20000000e-01  3.37390850e-09  3.38115300e-09  3.27542085e-09  3.43451765e-09  4.58243851e-01  3.23937735e-09  3.49118393e-09  1.56323867e-07  2.43276084e-08  3.20000000e-01 
 3.30000000e-01  3.37390850e-09  3.38115300e-09  3.27542085e-09  3.43451765e-09  4.58243854e-01  3.23937737e-09  3.49118393e-09  1.56323854e-07  2.43275835e-08  3.30000000e-01 
 3.40000000e-01  3.37390850e-09  3.38115300e-09  3.27542085e-09  3.43451765e-09  4.58243881e-01  3.23937741e-09  3.49118388e-09  1.56323905e-07  2.43274130e-08  3.40000000e-01 
 3.50000000e-01  3.37390850e-09  3.38115300e-09  3.27542085e-09  3.43451765e-09  4.58243867e-01  3.23937736e-09  3.49118388e-09  1.56323889e-07  2.43274307e-08  3.50000000e-01 
 3.60000000e-01  3.37390844e-09  3.38115300e-09  3.27542085e-09  3.43451765e-09  4.58243870e-01  3.23937737e-09  3.49118388e-09  1.56323887e-07  2.43272567e-08  3.60000000e-01 
 3.70000000e-01  3.37390844e-09  3.38115300e-09  3.27542085e-09  3.43451765e-09  4.58243873e-01  3.23937735e-09  3.49118393e-09  1.56323909e-07  2.43272957e-08  3.70000000e-01 
 3.80000000e-01  3.37390850e-09  3.38115300e-09  3.27542080e-09  3.43451765e-09  4.58243863e-01  3.23937743e-09  3.49118388e-09  1.56323877e-07  2.43271430e-08  3.80000000e-01 
 3.90000000e-01  3.37390850e-09  3.38115300e-09  3.27542081e-09  3.43451765e-09  4.58243850e-01  3.23937735e-09  3.49118387e-09  1.56323857e-07  2.43270470e-08  3.90000000e-01 
 4.00000000e-01  3.37390850e-09  3.38115300e-09  3.27542080e-09  3.43451765e-09  4.58243872e-01  3.23937737e-09  3.49118393e-09  1.56323889e-07  2.43270648e-08  4.00000000e-01 
 4.10000000e-01  3.37390844e-09  3.38115300e-09  3.27542086e-09  3.43451765e-09  4.58243861e-01  3.23937741e-09  3.49118388e-09  1.56323877e-07  2.43270115e-08  4.10000000e-01 
 4.20000000e-01  3.37390850e-09  3.38115300e-09  3.27542085e-09  3.43451765e-09  4.58243876e-01  3.23937736e-09  3.49118388e-09  1.56323899e-07  2.43268659e-08  4.20000000e-01 
 4.30000000e-01  3.37390850e-09  3.38115300e-09  3.27542085e-09  3.43451771e-09  4.58243872e-01  3.23937737e-09  3.49118393e-09  1.56323891e-07  2.43268623e-08  4.30000000e-01 
 4.40000000e-01  3.37390850e-09  3.38115300e-09  3.27542080e-09  3.43451765e-09  4.58243870e-01  3.23937735e-09  3.49118393e-09  1.56323891e-07  2.43267699e-08  4.40000000e-01 
 4.50000000e-01  3.37390850e-09  3.38115300e-09  3.27542087e-09  3.43451765e-09  4.58243859e-01  3.23937737e-09  3.49118388e-09  1.56323875e-07  2.43267131e-08  4.50000000e-01 
 4.60000000e-01  3.37390850e-09  3.38115300e-09  3.27542085e-09  3.43451765e-09  4.58243855e-01  3.23937741e-09  3.49118388e-09  1.56323867e-07  2.43266598e-08  4.60000000e-01 
 4.70000000e-01  3.37390844e-09  3.38115300e-09  3.27542085e-09  3.43451765e-09  4.58243858e-01  3.23937736e-09  3.49118388e-09  1.56323866e-07  2.43266882e-08  4.70000000e-01 
 4.80000000e-01  3.37390850e-09  3.38115300e-09  3.27542085e-09  3.43451765e-09  4.58243864e-01  3.23937737e-09  3.49118393e-09  1.56323870e-07  2.43265283e-08  4.80000000e-01 
 4.90000000e-01  3.37390850e-09  3.38115300e-09  3.27542085e-09  3.43451765e-09  4.58243870e-01  3.23937735e-09  3.49118393e-09  1.56323879e-07  2.43264431e-08  4.90000000e-01 
 5.00000000e-01  3.37390850e-09  3.38115300e-09  3.27542085e-09  3.43451765e-09  4.58243871e-01  3.23937737e-09  3.49118393e-09  1.56323887e-07  2.43264573e-08  5.00000000e-01 
 5.10000000e-01  3.37390844e-09  3.38115300e-09  3.27542080e-09  3.43451765e-09  4.58243876e-01  3.23937741e-09  3.49118388e-09  1.56323890e-07  2.43263685e-08  5.10000000e-01 
 5.20000000e-01  3.37390850e-09  3.38115300e-09  3.27542081e-09  3.43451765e-09  4.58243878e-01  3.23937736e-09  3.49118393e-09  1.56323900e-07  2.43263472e-08  5.20000000e-01 
 5.30000000e-01  3.37390844e-09  3.38115300e-09  3.27542086e-09  3.43451765e-09  4.58243860e-01  3.23937737e-09  3.49118393e-09  1.56323867e-07  2.43261269e-08  5.30000000e-01 
 5.40000000e-01  3.37390850e-09  3.38115300e-09  3.27542085e-09  3.43451765e-09  4.58243870e-01  3.23937735e-09  3.49118393e-09  1.56323891e-07  2.43260985e-08  5.40000000e-01 
 5.50000000e-01  3.37390850e-09  3.38115300e-09  3.27542085e-09  3.43451765e-09  4.58243889e-01  3.23937737e-09  3.49118393e-09  1.56323915e-07  2.43261198e-08  5.50000000e-01 
 5.60000000e-01  3.37390844e-09  3.38115300e-09  3.27542080e-09  3.43451765e-09  4.58243859e-01  3.23937741e-09  3.49118388e-09  1.56323855e-07  2.43259706e-08  5.60000000e-01 
 5.70000000e-01  3.37390850e-09  3.38115300e-09  3.27542081e-09  3.43451765e-09  4.58243859e-01  3.23937741e-09  3.49118393e-09  1.56323862e-07  2.43259990e-08  5.70000000e-01 
 5.80000000e-01  3.37390850e-09  3.38115300e-09  3.27542086e-09  3.43451765e-09  4.58243858e-01  3.23937736e-09  3.49118388e-09  1.56323858e-07  2.43259635e-08  5.80000000e-01 
 5.90000000e-01  3.37390844e-09  3.38115300e-09  3.27542085e-09  3.43451765e-09  4.58243843e-01  3.23937737e-09  3.49118393e-09  1.56323845e-07  2.43259279e-08  5.90000000e-01 
 6.00000000e-01  3.37390844e-09  3.38115300e-09  3.27542085e-09  3.43451765e-09  4.58243861e-01  3.23937735e-09  3.49118388e-09  1.56323879e-07  2.43257716e-08  6.00000000e-01 
 6.10000000e-01  3.37390850e-09  3.38115300e-09  3.27542085e-09  3.43451765e-09  4.58243864e-01  3.23937737e-09  3.49118393e-09  1.56323864e-07  2.43257006e-08  6.10000000e-01 
 6.20000000e-01  3.37390844e-09  3.38115300e-09  3.27542085e-09  3.43451765e-09  4.58243861e-01  3.23937741e-09  3.49118393e-09  1.56323877e-07  2.43256650e-08  6.20000000e-01 
 6.30000000e-01  3.37390844e-09  3.38115300e-09  3.27542085e-09  3.43451765e-09  4.58243856e-01  3.23937736e-09  3.49118388e-09  1.56323868e-07  2.43255940e-08  6.30000000e-01 
 6.40000000e-01  3.37390850e-09  3.38115300e-09  3.27542085e-09  3.43451765e-09  4.58243885e-01  3.23937737e-09  3.49118388e-09  1.56323905e-07  2.43255798e-08  6.40000000e-01 
 6.50000000e-01  3.37390845e-09  3.38115300e-09  3.27542086e-09  3.43451765e-09  4.58243897e-01  3.23937741e-09  3.49118388e-09  1.56323929e-07  2.43255727e-08  6.50000000e-01 
 6.60000000e-01  3.37390850e-09  3.38115300e-09  3.27542085e-09  3.43451765e-09  4.58243869e-01  3.23937741e-09  3.49118388e-09  1.56323881e-07  2.43254732e-08  6.60000000e-01 
 6.70000000e-01  3.37390844e-09  3.38115300e-09  3.27542080e-09  3.43451765e-09  4.58243876e-01  3.23937736e-09  3.49118388e-09  1.56323888e-07  2.43255442e-08  6.70000000e-01 
 6.80000000e-01  3.37390850e-09  3.38115300e-09  3.27542087e-09  3.43451765e-09  4.58243894e-01  3.23937737e-09  3.49118388e-09  1.56323938e-07  2.43254306e-08  6.80000000e-01 
 6.90000000e-01  3.37390850e-09  3.38115300e-09  3.27542085e-09  3.43451765e-09  4.58243863e-01  3.23937735e-09  3.49118388e-09  1.56323872e-07  2.43253595e-08  6.90000000e-01 
 7.00000000e-01  3.37390850e-09  3.38115300e-09  3.27542085e-09  3.43451765e-09  4.58243887e-01  3.23937737e-09  3.49118388e-09  1.56323903e-07  2.43252813e-08  7.00000000e-01 
 7.10000000e-01  3.37390850e-09  3.38115300e-09  3.27542085e-09  3.43451765e-09  4.58243853e-01  3.23937741e-09  3.49118388e-09  1.56323842e-07  2.43251677e-08  7.10000000e-01 
 7.20000000e-01  3.37390844e-09  3.38115300e-09  3.27542085e-09  3.43451765e-09  4.58243866e-01  3.23937736e-09  3.49118388e-09  1.56323866e-07  2.43251108e-08  7.20000000e-01 
 7.30000000e-01  3.37390844e-09  3.38115300e-09  3.27542085e-09  3.43451765e-09  4.58243863e-01  3.23937737e-09  3.49118393e-09  1.56323874e-07  2.43250895e-08  7.30000000e-01 
 7.40000000e-01  3.37390844e-09  3.38115300e-09  3.27542085e-09  3.43451765e-09  4.58243878e-01  3.23937741e-09  3.49118388e-09  1.56323892e-07  2.43250113e-08  7.40000000e-01 
 7.50000000e-01  3.37390844e-09  3.38115300e-09  3.27542085e-09  3.43451765e-09  4.58243855e-01  3.23937741e-09  3.49118388e-09  1.56323854e-07  2.43250113e-08  7.50000000e-01 
 7.60000000e-01  3.37390844e-09  3.38115300e-09  3.27542085e-09  3.43451765e-09  4.58243847e-01  3.23937741e-09  3.49118393e-09  1.56323840e-07  2.43249829e-08  7.60000000e-01 
 7.70000000e-01  3.37390850e-09  3.38115300e-09  3.27542080e-09  3.43451765e-09  4.58243867e-01  3.23937741e-09  3.49118388e-09  1.56323872e-07  2.43250113e-08  7.70000000e-01 
 7.80000000e-01  3.37390850e-09  3.38115300e-09  3.27542081e-09  3.43451765e-09  4.58243878e-01  3.23937741e-09  3.49118388e-09  1.56323907e-07  2.43249687e-08  7.80000000e-01 
 7.90000000e-01  3.37390844e-09  3.38115300e-09  3.27542080e-09  3.43451765e-09  4.58243868e-01  3.23937736e-09  3.49118388e-09  1.56323872e-07  2.43246845e-08  7.90000000e-01 
 8.00000000e-01  3.37390844e-09  3.38115300e-09  3.27542086e-09  3.43451765e-09  4.58243852e-01  3.23937737e-09  3.49118393e-09  1.56323871e-07  2.43246774e-08  8.00000000e-01 
 8.10000000e-01  3.37390850e-09  3.38115300e-09  3.27542085e-09  3.43451765e-09  4.58243875e-01  3.23937735e-09  3.49118388e-09  1.56323899e-07  2.43247200e-08  8.10000000e-01 
 8.20000000e-01  3.37390850e-09  3.38115300e-09  3.27542080e-09  3.43451765e-09  4.58243871e-01  3.23937737e-09  3.49118393e-09  1.56323901e-07  2.43247413e-08  8.20000000e-01 
 8.30000000e-01  3.37390844e-09  3.38115300e-09  3.27542087e-09  3.43451765e-09  4.58243882e-01  3.23937735e-09  3.49118393e-09  1.56323902e-07  2.43245140e-08  8.30000000e-01 
 8.40000000e-01  3.37390844e-09  3.38115300e-09  3.27542085e-09  3.43451771e-09  4.58243872e-01  3.23937737e-09  3.49118388e-09  1.56323882e-07  2.43246276e-08  8.40000000e-01 
 8.50000000e-01  3.37390850e-09  3.38115300e-09  3.27542085e-09  3.43451765e-09  4.58243853e-01  3.23937735e-09  3.49118388e-09  1.56323852e-07  2.43244784e-08  8.50000000e-01 
 8.60000000e-01  3.37390850e-09  3.38115300e-09  3.27542085e-09  3.43451765e-09  4.58243872e-01  3.23937737e-09  3.49118393e-09  1.56323886e-07  2.43243363e-08  8.60000000e-01 
 8.70000000e-01  3.37390850e-09  3.38115300e-09  3.27542085e-09  3.43451771e-09  4.58243878e-01  3.23937735e-09  3.49118393e-09  1.56323879e-07  2.43243576e-08  8.70000000e-01 
 8.80000000e-01  3.37390850e-09  3.38115300e-09  3.27542085e-09  3.43451765e-09  4.58243875e-01  3.23937737e-09  3.49118388e-09  1.56323900e-07  2.43243008e-08  8.80000000e-01 
 8.90000000e-01  3.37390844e-09  3.38115300e-09  3.27542085e-09  3.43451771e-09  4.58243864e-01  3.23937735e-09  3.49118393e-09  1.56323873e-07  2.43242440e-08  8.90000000e-01 
 9.00000000e-01  3.37390850e-09  3.38115294e-09  3.27542085e-09  3.43451765e-09  4.58243869e-01  3.23937737e-09  3.49118393e-09  1.56323894e-07  2.43241658e-08  9.00000000e-01 
 9.10000000e-01  3.37390850e-09  3.38115300e-09  3.27542080e-09  3.43451765e-09  4.58243850e-01  3.23937741e-09  3.49118388e-09  1.56323852e-07  2.43241374e-08  9.10000000e-01 
 9.20000000e-01  3.37390850e-09  3.38115300e-09  3.27542081e-09  3.43451765e-09  4.58243867e-01  3.23937736e-09  3.49118388e-09  1.56323867e-07  2.43241587e-08  9.20000000e-01 
 9.30000000e-01  3.37390850e-09  3.38115300e-09  3.27542080e-09  3.43451765e-09  4.58243858e-01  3.23937737e-09  3.49118393e-09  1.56323875e-07  2.43241800e-08  9.30000000e-01 
 9.40000000e-01  3.37390850e-09  3.38115300e-09  3.27542086e-09  3.43451765e-09  4.58243890e-01  3.23937735e-09  3.49118388e-09  1.56323902e-07  2.43239384e-08  9.40000000e-01 
 9.50000000e-01  3.37390850e-09  3.38115300e-09  3.27542085e-09  3.43451765e-09  4.58243864e-01  3.23937737e-09  3.49118393e-09  1.56323867e-07  2.43239953e-08  9.50000000e-01 
 9.60000000e-01  3.37390850e-09  3.38115300e-09  3.27542085e-09  3.43451765e-09  4.58243869e-01  3.23937741e-09  3.49118388e-09  1.56323887e-07  2.43238745e-08  9.60000000e-01 
 9.70000000e-01  3.37390850e-09  3.38115300e-09  3.27542085e-09  3.43451765e-09  4.58243854e-01  3.23937736e-09  3.49118393e-09  1.56323863e-07  2.43238034e-08  9.70000000e-01 
 9.80000000e-01  3.37390844e-09  3.38115300e-09  3.27542080e-09  3.43451765e-09  4.58243861e-01  3.23937743e-09  3.49118388e-09  1.56323875e-07  2.43238034e-08  9.80000000e-01 
 9.90000000e-01  3.37390850e-09  3.38115300e-09  3.27542081e-09  3.43451765e-09  4.58243878e-01  3.23937735e-09  3.49118393e-09  1.56323907e-07  2.43236826e-08  9.90000000e-01 
 1.00000000e+00  3.37390850e-09  3.38115294e-09  3.27542080e-09  3.43451765e-09  4.58243859e-01  3.23937737e-09  3.49118393e-09  1.56323880e-07  2.43236826e-08  1.00000000e+00 
 1.01000000e+00  3.37390850e-09  3.38115300e-09  3.27542080e-09  3.43451765e-09  4.58243864e-01  3.23937741e-09  3.49118388e-09  1.56323877e-07  2.43236258e-08  1.01000000e+00 
 1.02000000e+00  3.37390850e-09  3.38115300e-09  3.27542080e-09  3.43451765e-09  4.58243838e-01  3.23937735e-09  3.49118393e-09  1.56323844e-07  2.43236116e-08  1.02000000e+00 
 1.03000000e+00  3.37390844e-09  3.38115300e-09  3.27542080e-09  3.43451765e-09  4.58243869e-01  3.23937737e-09  3.49118388e-09  1.56323877e-07  2.43235689e-08  1.03000000e+00 
 1.04000000e+00  3.37390850e-09  3.38115300e-09  3.27542080e-09  3.43451765e-09  4.58243864e-01  3.23937741e-09  3.49118388e-09  1.56323864e-07  2.43234055e-08  1.04000000e+00 
 1.05000000e+00  3.37390850e-09  3.38115300e-09  3.27542086e-09  3.43451765e-09  4.58243879e-01  3.23937736e-09  3.49118388e-09  1.56323903e-07  2.43233984e-08  1.05000000e+00 
 1.06000000e+00  3.37390850e-09  3.38115300e-09  3.27542085e-09  3.43451765e-09  4.58243886e-01  3.23937737e-09  3.49118393e-09  1.56323908e-07  2.43234766e-08  1.06000000e+00 
 1.07000000e+00  3.37390844e-09  3.38115300e-09  3.27542080e-09  3.43451765e-09  4.58243859e-01  3.23937741e-09  3.49118393e-09  1.56323861e-07  2.43232705e-08  1.07000000e+00 
 1.08000000e+00  3.37390844e-09  3.38115300e-09  3.27542087e-09  3.43451771e-09  4.58243891e-01  3.23937736e-09  3.49118393e-09  1.56323918e-07  2.43232918e-08  1.08000000e+00 
 1.09000000e+00  3.37390844e-09  3.38115300e-09  3.27542085e-09  3.43451765e-09  4.58243859e-01  3.23937737e-09  3.49118393e-09  1.56323873e-07  2.43231923e-08  1.09000000e+00 
 1.10000000e+00  3.37390844e-09  3.38115300e-09  3.27542085e-09  3.43451765e-09  4.58243880e-01  3.23937735e-09  3.49118393e-09  1.56323898e-07  2.43231995e-08  1.10000000e+00 
