 v-sweep         v(b0)           v(b1)           v(b2)           v(b3)           v(b4)           v(b5)           v(b6)           i(vbias)        i(viout)        v(vout)        
 0.00000000e+00  3.41957025e-09  4.56987451e-01  3.77596063e-09  4.56987451e-01  3.43107541e-09  3.52540719e-09  4.56987451e-01  1.55863455e-07  1.06005594e-07  0.00000000e+00 
 1.00000000e-02  3.41957022e-09  4.56987463e-01  3.77596066e-09  4.56987463e-01  3.43107545e-09  3.52540721e-09  4.56987463e-01  1.55863469e-07  1.06005246e-07  1.00000000e-02 
 2.00000000e-02  3.41957023e-09  4.56987489e-01  3.77596066e-09  4.56987489e-01  3.43107545e-09  3.52540721e-09  4.56987489e-01  1.55863510e-07  1.06004862e-07  2.00000000e-02 
 3.00000000e-02  3.41957022e-09  4.56987465e-01  3.77596066e-09  4.56987465e-01  3.43107545e-09  3.52540721e-09  4.56987465e-01  1.55863478e-07  1.06004431e-07  3.00000000e-02 
 4.00000000e-02  3.41957022e-09  4.56987484e-01  3.77596066e-09  4.56987484e-01  3.43107545e-09  3.52540721e-09  4.56987484e-01  1.55863510e-07  1.06004134e-07  4.00000000e-02 
 5.00000000e-02  3.41957022e-09  4.56987461e-01  3.77596066e-09  4.56987461e-01  3.43107539e-09  3.52540721e-09  4.56987461e-01  1.55863461e-07  1.06003800e-07  5.00000000e-02 
 6.00000000e-02  3.41957022e-09  4.56987470e-01  3.77596066e-09  4.56987470e-01  3.43107545e-09  3.52540721e-09  4.56987470e-01  1.55863482e-07  1.06003465e-07  6.00000000e-02 
 7.00000000e-02  3.41957022e-09  4.56987474e-01  3.77596066e-09  4.56987474e-01  3.43107545e-09  3.52540721e-09  4.56987474e-01  1.55863467e-07  1.06003092e-07  7.00000000e-02 
 8.00000000e-02  3.41957022e-09  4.56987483e-01  3.77596066e-09  4.56987483e-01  3.43107545e-09  3.52540721e-09  4.56987483e-01  1.55863497e-07  1.06002959e-07  8.00000000e-02 
 9.00000000e-02  3.41957022e-09  4.56987482e-01  3.77596066e-09  4.56987482e-01  3.43107545e-09  3.52540721e-09  4.56987482e-01  1.55863478e-07  1.06002576e-07  9.00000000e-02 
 1.00000000e-01  3.41957022e-09  4.56987454e-01  3.77596066e-09  4.56987454e-01  3.43107545e-09  3.52540721e-09  4.56987454e-01  1.55863444e-07  1.06002268e-07  1.00000000e-01 
 1.10000000e-01  3.41957022e-09  4.56987477e-01  3.77596066e-09  4.56987477e-01  3.43107545e-09  3.52540721e-09  4.56987477e-01  1.55863494e-07  1.06002086e-07  1.10000000e-01 
 1.20000000e-01  3.41957022e-09  4.56987469e-01  3.77596066e-09  4.56987469e-01  3.43107539e-09  3.52540721e-09  4.56987469e-01  1.55863462e-07  1.06001828e-07  1.20000000e-01 
 1.30000000e-01  3.41957022e-09  4.56987452e-01  3.77596066e-09  4.56987452e-01  3.43107545e-09  3.52540727e-09  4.56987452e-01  1.55863452e-07  1.06001528e-07  1.30000000e-01 
 1.40000000e-01  3.41957022e-09  4.56987452e-01  3.77596066e-09  4.56987451e-01  3.43107545e-09  3.52540721e-09  4.56987452e-01  1.55863453e-07  1.06001361e-07  1.40000000e-01 
 1.50000000e-01  3.41957023e-09  4.56987500e-01  3.77596067e-09  4.56987500e-01  3.43107545e-09  3.52540721e-09  4.56987500e-01  1.55863517e-07  1.06001078e-07  1.50000000e-01 
 1.60000000e-01  3.41957022e-09  4.56987467e-01  3.77596066e-09  4.56987467e-01  3.43107545e-09  3.52540721e-09  4.56987467e-01  1.55863467e-07  1.06000831e-07  1.60000000e-01 
 1.70000000e-01  3.41957022e-09  4.56987481e-01  3.77596066e-09  4.56987480e-01  3.43107539e-09  3.52540721e-09  4.56987481e-01  1.55863491e-07  1.06000698e-07  1.70000000e-01 
 1.80000000e-01  3.41957022e-09  4.56987475e-01  3.77596066e-09  4.56987475e-01  3.43107545e-09  3.52540721e-09  4.56987475e-01  1.55863480e-07  1.06000490e-07  1.80000000e-01 
 1.90000000e-01  3.41957022e-09  4.56987474e-01  3.77596066e-09  4.56987474e-01  3.43107539e-09  3.52540721e-09  4.56987474e-01  1.55863473e-07  1.06000289e-07  1.90000000e-01 
 2.00000000e-01  3.41957022e-09  4.56987463e-01  3.77596066e-09  4.56987463e-01  3.43107545e-09  3.52540721e-09  4.56987463e-01  1.55863474e-07  1.06000147e-07  2.00000000e-01 
 2.10000000e-01  3.41957022e-09  4.56987479e-01  3.77596066e-09  4.56987479e-01  3.43107545e-09  3.52540721e-09  4.56987479e-01  1.55863470e-07  1.05999916e-07  2.10000000e-01 
 2.20000000e-01  3.41957022e-09  4.56987465e-01  3.77596066e-09  4.56987465e-01  3.43107545e-09  3.52540721e-09  4.56987465e-01  1.55863451e-07  1.05999741e-07  2.20000000e-01 
 2.30000000e-01  3.41957022e-09  4.56987465e-01  3.77596066e-09  4.56987465e-01  3.43107545e-09  3.52540721e-09  4.56987465e-01  1.55863468e-07  1.05999488e-07  2.30000000e-01 
 2.40000000e-01  3.41957022e-09  4.56987467e-01  3.77596066e-09  4.56987467e-01  3.43107539e-09  3.52540721e-09  4.56987467e-01  1.55863461e-07  1.05999378e-07  2.40000000e-01 
 2.50000000e-01  3.41957022e-09  4.56987454e-01  3.77596066e-09  4.56987454e-01  3.43107539e-09  3.52540721e-09  4.56987454e-01  1.55863451e-07  1.05999288e-07  2.50000000e-01 
 2.60000000e-01  3.41957022e-09  4.56987467e-01  3.77596066e-09  4.56987467e-01  3.43107545e-09  3.52540721e-09  4.56987467e-01  1.55863474e-07  1.05999172e-07  2.60000000e-01 
 2.70000000e-01  3.41957022e-09  4.56987480e-01  3.77596066e-09  4.56987480e-01  3.43107539e-09  3.52540727e-09  4.56987480e-01  1.55863494e-07  1.05999083e-07  2.70000000e-01 
 2.80000000e-01  3.41957022e-09  4.56987445e-01  3.77596066e-09  4.56987445e-01  3.43107545e-09  3.52540721e-09  4.56987445e-01  1.55863421e-07  1.05998872e-07  2.80000000e-01 
 2.90000000e-01  3.41957022e-09  4.56987465e-01  3.77596066e-09  4.56987465e-01  3.43107545e-09  3.52540721e-09  4.56987465e-01  1.55863459e-07  1.05998783e-07  2.90000000e-01 
 3.00000000e-01  3.41957022e-09  4.56987467e-01  3.77596066e-09  4.56987467e-01  3.43107545e-09  3.52540721e-09  4.56987467e-01  1.55863478e-07  1.05998755e-07  3.00000000e-01 
 3.10000000e-01  3.41957022e-09  4.56987449e-01  3.77596066e-09  4.56987449e-01  3.43107545e-09  3.52540721e-09  4.56987449e-01  1.55863445e-07  1.05998417e-07  3.10000000e-01 
 3.20000000e-01  3.41957022e-09  4.56987463e-01  3.77596066e-09  4.56987463e-01  3.43107539e-09  3.52540721e-09  4.56987463e-01  1.55863463e-07  1.05998492e-07  3.20000000e-01 
 3.30000000e-01  3.41957022e-09  4.56987474e-01  3.77596066e-09  4.56987474e-01  3.43107545e-09  3.52540721e-09  4.56987474e-01  1.55863467e-07  1.05998343e-07  3.30000000e-01 
 3.40000000e-01  3.41957022e-09  4.56987445e-01  3.77596066e-09  4.56987445e-01  3.43107545e-09  3.52540721e-09  4.56987445e-01  1.55863431e-07  1.05998211e-07  3.40000000e-01 
 3.50000000e-01  3.41957022e-09  4.56987482e-01  3.77596066e-09  4.56987482e-01  3.43107539e-09  3.52540721e-09  4.56987482e-01  1.55863496e-07  1.05998165e-07  3.50000000e-01 
 3.60000000e-01  3.41957022e-09  4.56987460e-01  3.77596066e-09  4.56987460e-01  3.43107545e-09  3.52540721e-09  4.56987460e-01  1.55863459e-07  1.05997948e-07  3.60000000e-01 
 3.70000000e-01  3.41957022e-09  4.56987474e-01  3.77596066e-09  4.56987474e-01  3.43107539e-09  3.52540727e-09  4.56987474e-01  1.55863485e-07  1.05997898e-07  3.70000000e-01 
 3.80000000e-01  3.41957022e-09  4.56987463e-01  3.77596066e-09  4.56987463e-01  3.43107539e-09  3.52540727e-09  4.56987463e-01  1.55863459e-07  1.05997795e-07  3.80000000e-01 
 3.90000000e-01  3.41957022e-09  4.56987476e-01  3.77596066e-09  4.56987476e-01  3.43107545e-09  3.52540721e-09  4.56987476e-01  1.55863480e-07  1.05997803e-07  3.90000000e-01 
 4.00000000e-01  3.41957022e-09  4.56987459e-01  3.77596066e-09  4.56987459e-01  3.43107539e-09  3.52540721e-09  4.56987459e-01  1.55863463e-07  1.05997572e-07  4.00000000e-01 
 4.10000000e-01  3.41957022e-09  4.56987490e-01  3.77596066e-09  4.56987490e-01  3.43107545e-09  3.52540721e-09  4.56987490e-01  1.55863499e-07  1.05997515e-07  4.10000000e-01 
 4.20000000e-01  3.41957022e-09  4.56987458e-01  3.77596066e-09  4.56987458e-01  3.43107545e-09  3.52540721e-09  4.56987458e-01  1.55863455e-07  1.05997461e-07  4.20000000e-01 
 4.30000000e-01  3.41957022e-09  4.56987452e-01  3.77596066e-09  4.56987451e-01  3.43107545e-09  3.52540721e-09  4.56987452e-01  1.55863456e-07  1.05997383e-07  4.30000000e-01 
 4.40000000e-01  3.41957022e-09  4.56987473e-01  3.77596066e-09  4.56987473e-01  3.43107545e-09  3.52540721e-09  4.56987473e-01  1.55863481e-07  1.05997326e-07  4.40000000e-01 
 4.50000000e-01  3.41957022e-09  4.56987471e-01  3.77596066e-09  4.56987471e-01  3.43107539e-09  3.52540721e-09  4.56987471e-01  1.55863471e-07  1.05997209e-07  4.50000000e-01 
 4.60000000e-01  3.41957022e-09  4.56987470e-01  3.77596066e-09  4.56987470e-01  3.43107545e-09  3.52540721e-09  4.56987470e-01  1.55863473e-07  1.05997064e-07  4.60000000e-01 
 4.70000000e-01  3.41957022e-09  4.56987483e-01  3.77596066e-09  4.56987483e-01  3.43107545e-09  3.52540727e-09  4.56987483e-01  1.55863480e-07  1.05997007e-07  4.70000000e-01 
 4.80000000e-01  3.41957022e-09  4.56987483e-01  3.77596066e-09  4.56987483e-01  3.43107545e-09  3.52540721e-09  4.56987483e-01  1.55863490e-07  1.05996993e-07  4.80000000e-01 
 4.90000000e-01  3.41957023e-09  4.56987493e-01  3.77596066e-09  4.56987493e-01  3.43107539e-09  3.52540727e-09  4.56987493e-01  1.55863503e-07  1.05996982e-07  4.90000000e-01 
 5.00000000e-01  3.41957022e-09  4.56987465e-01  3.77596066e-09  4.56987465e-01  3.43107539e-09  3.52540721e-09  4.56987465e-01  1.55863452e-07  1.05996843e-07  5.00000000e-01 
 5.10000000e-01  3.41957022e-09  4.56987464e-01  3.77596066e-09  4.56987464e-01  3.43107539e-09  3.52540721e-09  4.56987464e-01  1.55863468e-07  1.05996655e-07  5.10000000e-01 
 5.20000000e-01  3.41957022e-09  4.56987480e-01  3.77596066e-09  4.56987480e-01  3.43107539e-09  3.52540721e-09  4.56987480e-01  1.55863478e-07  1.05996580e-07  5.20000000e-01 
 5.30000000e-01  3.41957022e-09  4.56987449e-01  3.77596066e-09  4.56987448e-01  3.43107539e-09  3.52540721e-09  4.56987449e-01  1.55863430e-07  1.05996435e-07  5.30000000e-01 
 5.40000000e-01  3.41957022e-09  4.56987453e-01  3.77596066e-09  4.56987453e-01  3.43107539e-09  3.52540721e-09  4.56987453e-01  1.55863450e-07  1.05996378e-07  5.40000000e-01 
 5.50000000e-01  3.41957022e-09  4.56987474e-01  3.77596066e-09  4.56987474e-01  3.43107539e-09  3.52540721e-09  4.56987474e-01  1.55863474e-07  1.05996303e-07  5.50000000e-01 
 5.60000000e-01  3.41957022e-09  4.56987443e-01  3.77596066e-09  4.56987443e-01  3.43107545e-09  3.52540721e-09  4.56987443e-01  1.55863428e-07  1.05996161e-07  5.60000000e-01 
 5.70000000e-01  3.41957022e-09  4.56987478e-01  3.77596066e-09  4.56987478e-01  3.43107545e-09  3.52540721e-09  4.56987478e-01  1.55863481e-07  1.05996239e-07  5.70000000e-01 
 5.80000000e-01  3.41957022e-09  4.56987463e-01  3.77596066e-09  4.56987463e-01  3.43107545e-09  3.52540727e-09  4.56987463e-01  1.55863460e-07  1.05996079e-07  5.80000000e-01 
 5.90000000e-01  3.41957022e-09  4.56987446e-01  3.77596066e-09  4.56987446e-01  3.43107545e-09  3.52540721e-09  4.56987446e-01  1.55863439e-07  1.05996023e-07  5.90000000e-01 
 6.00000000e-01  3.41957022e-09  4.56987471e-01  3.77596066e-09  4.56987471e-01  3.43107539e-09  3.52540727e-09  4.56987471e-01  1.55863487e-07  1.05995980e-07  6.00000000e-01 
 6.10000000e-01  3.41957022e-09  4.56987483e-01  3.77596066e-09  4.56987483e-01  3.43107539e-09  3.52540721e-09  4.56987483e-01  1.55863491e-07  1.05995859e-07  6.10000000e-01 
 6.20000000e-01  3.41957022e-09  4.56987451e-01  3.77596066e-09  4.56987451e-01  3.43107545e-09  3.52540721e-09  4.56987451e-01  1.55863433e-07  1.05995802e-07  6.20000000e-01 
 6.30000000e-01  3.41957022e-09  4.56987468e-01  3.77596066e-09  4.56987468e-01  3.43107545e-09  3.52540721e-09  4.56987468e-01  1.55863469e-07  1.05995774e-07  6.30000000e-01 
 6.40000000e-01  3.41957022e-09  4.56987461e-01  3.77596066e-09  4.56987461e-01  3.43107539e-09  3.52540721e-09  4.56987461e-01  1.55863456e-07  1.05995618e-07  6.40000000e-01 
 6.50000000e-01  3.41957022e-09  4.56987472e-01  3.77596066e-09  4.56987472e-01  3.43107539e-09  3.52540721e-09  4.56987472e-01  1.55863485e-07  1.05995618e-07  6.50000000e-01 
 6.60000000e-01  3.41957022e-09  4.56987483e-01  3.77596066e-09  4.56987483e-01  3.43107545e-09  3.52540721e-09  4.56987483e-01  1.55863482e-07  1.05995539e-07  6.60000000e-01 
 6.70000000e-01  3.41957022e-09  4.56987466e-01  3.77596066e-09  4.56987466e-01  3.43107539e-09  3.52540721e-09  4.56987466e-01  1.55863462e-07  1.05995383e-07  6.70000000e-01 
 6.80000000e-01  3.41957022e-09  4.56987460e-01  3.77596066e-09  4.56987460e-01  3.43107539e-09  3.52540721e-09  4.56987460e-01  1.55863477e-07  1.05995312e-07  6.80000000e-01 
 6.90000000e-01  3.41957022e-09  4.56987479e-01  3.77596066e-09  4.56987479e-01  3.43107545e-09  3.52540721e-09  4.56987479e-01  1.55863504e-07  1.05995412e-07  6.90000000e-01 
 7.00000000e-01  3.41957022e-09  4.56987472e-01  3.77596066e-09  4.56987472e-01  3.43107545e-09  3.52540727e-09  4.56987472e-01  1.55863462e-07  1.05995184e-07  7.00000000e-01 
 7.10000000e-01  3.41957022e-09  4.56987479e-01  3.77596066e-09  4.56987479e-01  3.43107545e-09  3.52540721e-09  4.56987480e-01  1.55863490e-07  1.05995206e-07  7.10000000e-01 
 7.20000000e-01  3.41957022e-09  4.56987475e-01  3.77596066e-09  4.56987475e-01  3.43107539e-09  3.52540721e-09  4.56987475e-01  1.55863479e-07  1.05994992e-07  7.20000000e-01 
 7.30000000e-01  3.41957022e-09  4.56987491e-01  3.77596066e-09  4.56987491e-01  3.43107545e-09  3.52540721e-09  4.56987491e-01  1.55863507e-07  1.05995035e-07  7.30000000e-01 
 7.40000000e-01  3.41957022e-09  4.56987443e-01  3.77596066e-09  4.56987443e-01  3.43107545e-09  3.52540727e-09  4.56987443e-01  1.55863431e-07  1.05994829e-07  7.40000000e-01 
 7.50000000e-01  3.41957022e-09  4.56987447e-01  3.77596066e-09  4.56987447e-01  3.43107545e-09  3.52540721e-09  4.56987447e-01  1.55863448e-07  1.05994751e-07  7.50000000e-01 
 7.60000000e-01  3.41957023e-09  4.56987502e-01  3.77596067e-09  4.56987502e-01  3.43107545e-09  3.52540721e-09  4.56987502e-01  1.55863512e-07  1.05994793e-07  7.60000000e-01 
 7.70000000e-01  3.41957022e-09  4.56987462e-01  3.77596066e-09  4.56987462e-01  3.43107545e-09  3.52540721e-09  4.56987462e-01  1.55863469e-07  1.05994587e-07  7.70000000e-01 
 7.80000000e-01  3.41957022e-09  4.56987465e-01  3.77596066e-09  4.56987465e-01  3.43107539e-09  3.52540721e-09  4.56987465e-01  1.55863457e-07  1.05994559e-07  7.80000000e-01 
 7.90000000e-01  3.41957022e-09  4.56987487e-01  3.77596066e-09  4.56987486e-01  3.43107545e-09  3.52540721e-09  4.56987487e-01  1.55863495e-07  1.05994523e-07  7.90000000e-01 
 8.00000000e-01  3.41957022e-09  4.56987491e-01  3.77596066e-09  4.56987491e-01  3.43107545e-09  3.52540721e-09  4.56987491e-01  1.55863509e-07  1.05994459e-07  8.00000000e-01 
 8.10000000e-01  3.41957022e-09  4.56987488e-01  3.77596066e-09  4.56987488e-01  3.43107545e-09  3.52540721e-09  4.56987488e-01  1.55863496e-07  1.05994332e-07  8.10000000e-01 
 8.20000000e-01  3.41957023e-09  4.56987497e-01  3.77596066e-09  4.56987497e-01  3.43107545e-09  3.52540721e-09  4.56987497e-01  1.55863493e-07  1.05994268e-07  8.20000000e-01 
 8.30000000e-01  3.41957022e-09  4.56987475e-01  3.77596066e-09  4.56987475e-01  3.43107545e-09  3.52540721e-09  4.56987475e-01  1.55863480e-07  1.05994211e-07  8.30000000e-01 
 8.40000000e-01  3.41957022e-09  4.56987468e-01  3.77596066e-09  4.56987468e-01  3.43107545e-09  3.52540721e-09  4.56987468e-01  1.55863465e-07  1.05994168e-07  8.40000000e-01 
 8.50000000e-01  3.41957022e-09  4.56987474e-01  3.77596066e-09  4.56987473e-01  3.43107539e-09  3.52540721e-09  4.56987474e-01  1.55863479e-07  1.05994161e-07  8.50000000e-01 
 8.60000000e-01  3.41957022e-09  4.56987491e-01  3.77596066e-09  4.56987491e-01  3.43107545e-09  3.52540721e-09  4.56987491e-01  1.55863509e-07  1.05993934e-07  8.60000000e-01 
 8.70000000e-01  3.41957023e-09  4.56987495e-01  3.77596066e-09  4.56987495e-01  3.43107539e-09  3.52540721e-09  4.56987495e-01  1.55863512e-07  1.05993891e-07  8.70000000e-01 
 8.80000000e-01  3.41957022e-09  4.56987469e-01  3.77596066e-09  4.56987469e-01  3.43107545e-09  3.52540721e-09  4.56987469e-01  1.55863455e-07  1.05993678e-07  8.80000000e-01 
 8.90000000e-01  3.41957022e-09  4.56987492e-01  3.77596066e-09  4.56987492e-01  3.43107545e-09  3.52540721e-09  4.56987492e-01  1.55863523e-07  1.05993685e-07  8.90000000e-01 
 9.00000000e-01  3.41957022e-09  4.56987481e-01  3.77596066e-09  4.56987481e-01  3.43107545e-09  3.52540721e-09  4.56987481e-01  1.55863498e-07  1.05993642e-07  9.00000000e-01 
 9.10000000e-01  3.41957022e-09  4.56987462e-01  3.77596066e-09  4.56987462e-01  3.43107545e-09  3.52540721e-09  4.56987462e-01  1.55863465e-07  1.05993578e-07  9.10000000e-01 
 9.20000000e-01  3.41957022e-09  4.56987485e-01  3.77596066e-09  4.56987485e-01  3.43107539e-09  3.52540721e-09  4.56987485e-01  1.55863496e-07  1.05993514e-07  9.20000000e-01 
 9.30000000e-01  3.41957022e-09  4.56987460e-01  3.77596066e-09  4.56987459e-01  3.43107545e-09  3.52540721e-09  4.56987460e-01  1.55863468e-07  1.05993337e-07  9.30000000e-01 
 9.40000000e-01  3.41957022e-09  4.56987473e-01  3.77596066e-09  4.56987473e-01  3.43107545e-09  3.52540721e-09  4.56987473e-01  1.55863493e-07  1.05993259e-07  9.40000000e-01 
 9.50000000e-01  3.41957022e-09  4.56987460e-01  3.77596066e-09  4.56987460e-01  3.43107545e-09  3.52540721e-09  4.56987460e-01  1.55863452e-07  1.05993102e-07  9.50000000e-01 
 9.60000000e-01  3.41957022e-09  4.56987473e-01  3.77596066e-09  4.56987473e-01  3.43107539e-09  3.52540721e-09  4.56987473e-01  1.55863484e-07  1.05993166e-07  9.60000000e-01 
 9.70000000e-01  3.41957022e-09  4.56987453e-01  3.77596066e-09  4.56987453e-01  3.43107545e-09  3.52540721e-09  4.56987453e-01  1.55863442e-07  1.05993095e-07  9.70000000e-01 
 9.80000000e-01  3.41957023e-09  4.56987496e-01  3.77596066e-09  4.56987496e-01  3.43107539e-09  3.52540721e-09  4.56987496e-01  1.55863522e-07  1.05992967e-07  9.80000000e-01 
 9.90000000e-01  3.41957022e-09  4.56987471e-01  3.77596066e-09  4.56987471e-01  3.43107545e-09  3.52540721e-09  4.56987471e-01  1.55863483e-07  1.05992918e-07  9.90000000e-01 
 1.00000000e+00  3.41957023e-09  4.56987499e-01  3.77596067e-09  4.56987499e-01  3.43107545e-09  3.52540721e-09  4.56987499e-01  1.55863514e-07  1.05992868e-07  1.00000000e+00 
 1.01000000e+00  3.41957023e-09  4.56987496e-01  3.77596066e-09  4.56987496e-01  3.43107545e-09  3.52540721e-09  4.56987496e-01  1.55863514e-07  1.05992612e-07  1.01000000e+00 
 1.02000000e+00  3.41957022e-09  4.56987444e-01  3.77596066e-09  4.56987444e-01  3.43107539e-09  3.52540721e-09  4.56987444e-01  1.55863428e-07  1.05992569e-07  1.02000000e+00 
 1.03000000e+00  3.41957022e-09  4.56987458e-01  3.77596066e-09  4.56987458e-01  3.43107545e-09  3.52540727e-09  4.56987458e-01  1.55863452e-07  1.05992491e-07  1.03000000e+00 
 1.04000000e+00  3.41957022e-09  4.56987479e-01  3.77596066e-09  4.56987479e-01  3.43107545e-09  3.52540721e-09  4.56987479e-01  1.55863478e-07  1.05992392e-07  1.04000000e+00 
 1.05000000e+00  3.41957022e-09  4.56987467e-01  3.77596066e-09  4.56987467e-01  3.43107545e-09  3.52540721e-09  4.56987467e-01  1.55863462e-07  1.05992228e-07  1.05000000e+00 
 1.06000000e+00  3.41957022e-09  4.56987480e-01  3.77596066e-09  4.56987480e-01  3.43107545e-09  3.52540721e-09  4.56987480e-01  1.55863496e-07  1.05992257e-07  1.06000000e+00 
 1.07000000e+00  3.41957022e-09  4.56987485e-01  3.77596066e-09  4.56987485e-01  3.43107545e-09  3.52540721e-09  4.56987485e-01  1.55863496e-07  1.05992278e-07  1.07000000e+00 
 1.08000000e+00  3.41957023e-09  4.56987496e-01  3.77596066e-09  4.56987495e-01  3.43107545e-09  3.52540721e-09  4.56987496e-01  1.55863506e-07  1.05992086e-07  1.08000000e+00 
 1.09000000e+00  3.41957022e-09  4.56987465e-01  3.77596066e-09  4.56987465e-01  3.43107545e-09  3.52540727e-09  4.56987465e-01  1.55863467e-07  1.05991965e-07  1.09000000e+00 
 1.10000000e+00  3.41957022e-09  4.56987486e-01  3.77596066e-09  4.56987486e-01  3.43107539e-09  3.52540721e-09  4.56987486e-01  1.55863503e-07  1.05991845e-07  1.10000000e+00 
