 v-sweep         v(b0)           v(b1)           v(b2)           v(b3)           v(b4)           v(b5)           v(b6)           i(vbias)        i(viout)        v(vout)        
 0.00000000e+00  3.33074093e-09  4.58555486e-01  4.58555486e-01  4.58555486e-01  3.35821711e-09  3.08302383e-09  4.58555486e-01  1.59025595e-07  1.18496313e-07  0.00000000e+00 
 1.00000000e-02  3.33074091e-09  4.58555475e-01  4.58555475e-01  4.58555475e-01  3.35821715e-09  3.08302387e-09  4.58555475e-01  1.59025580e-07  1.18495864e-07  1.00000000e-02 
 2.00000000e-02  3.33074091e-09  4.58555514e-01  4.58555514e-01  4.58555514e-01  3.35821715e-09  3.08302387e-09  4.58555514e-01  1.59025651e-07  1.18495650e-07  2.00000000e-02 
 3.00000000e-02  3.33074091e-09  4.58555494e-01  4.58555494e-01  4.58555494e-01  3.35821715e-09  3.08302387e-09  4.58555494e-01  1.59025602e-07  1.18495160e-07  3.00000000e-02 
 4.00000000e-02  3.33074096e-09  4.58555471e-01  4.58555471e-01  4.58555471e-01  3.35821715e-09  3.08302387e-09  4.58555471e-01  1.59025570e-07  1.18494786e-07  4.00000000e-02 
 5.00000000e-02  3.33074097e-09  4.58555501e-01  4.58555501e-01  4.58555501e-01  3.35821715e-09  3.08302387e-09  4.58555501e-01  1.59025623e-07  1.18494438e-07  5.00000000e-02 
 6.00000000e-02  3.33074097e-09  4.58555513e-01  4.58555513e-01  4.58555513e-01  3.35821709e-09  3.08302387e-09  4.58555513e-01  1.59025635e-07  1.18494181e-07  6.00000000e-02 
 7.00000000e-02  3.33074097e-09  4.58555502e-01  4.58555502e-01  4.58555502e-01  3.35821715e-09  3.08302387e-09  4.58555502e-01  1.59025612e-07  1.18493822e-07  7.00000000e-02 
 8.00000000e-02  3.33074096e-09  4.58555469e-01  4.58555469e-01  4.58555469e-01  3.35821715e-09  3.08302387e-09  4.58555469e-01  1.59025582e-07  1.18493356e-07  8.00000000e-02 
 9.00000000e-02  3.33074097e-09  4.58555495e-01  4.58555495e-01  4.58555495e-01  3.35821715e-09  3.08302387e-09  4.58555495e-01  1.59025617e-07  1.18493118e-07  9.00000000e-02 
 1.00000000e-01  3.33074097e-09  4.58555499e-01  4.58555499e-01  4.58555499e-01  3.35821715e-09  3.08302387e-09  4.58555499e-01  1.59025607e-07  1.18492855e-07  1.00000000e-01 
 1.10000000e-01  3.33074097e-09  4.58555499e-01  4.58555499e-01  4.58555499e-01  3.35821715e-09  3.08302387e-09  4.58555499e-01  1.59025617e-07  1.18492689e-07  1.10000000e-01 
 1.20000000e-01  3.33074097e-09  4.58555501e-01  4.58555501e-01  4.58555501e-01  3.35821715e-09  3.08302387e-09  4.58555501e-01  1.59025607e-07  1.18492419e-07  1.20000000e-01 
 1.30000000e-01  3.33074097e-09  4.58555485e-01  4.58555486e-01  4.58555485e-01  3.35821709e-09  3.08302387e-09  4.58555486e-01  1.59025608e-07  1.18491991e-07  1.30000000e-01 
 1.40000000e-01  3.33074091e-09  4.58555486e-01  4.58555486e-01  4.58555486e-01  3.35821715e-09  3.08302387e-09  4.58555486e-01  1.59025608e-07  1.18491880e-07  1.40000000e-01 
 1.50000000e-01  3.33074091e-09  4.58555482e-01  4.58555482e-01  4.58555482e-01  3.35821715e-09  3.08302387e-09  4.58555482e-01  1.59025595e-07  1.18491615e-07  1.50000000e-01 
 1.60000000e-01  3.33074091e-09  4.58555501e-01  4.58555501e-01  4.58555501e-01  3.35821715e-09  3.08302387e-09  4.58555501e-01  1.59025625e-07  1.18491400e-07  1.60000000e-01 
 1.70000000e-01  3.33074096e-09  4.58555482e-01  4.58555482e-01  4.58555482e-01  3.35821715e-09  3.08302387e-09  4.58555482e-01  1.59025580e-07  1.18491268e-07  1.70000000e-01 
 1.80000000e-01  3.33074097e-09  4.58555494e-01  4.58555494e-01  4.58555494e-01  3.35821715e-09  3.08302387e-09  4.58555494e-01  1.59025618e-07  1.18491009e-07  1.80000000e-01 
 1.90000000e-01  3.33074091e-09  4.58555518e-01  4.58555518e-01  4.58555518e-01  3.35821715e-09  3.08302387e-09  4.58555518e-01  1.59025646e-07  1.18490936e-07  1.90000000e-01 
 2.00000000e-01  3.33074091e-09  4.58555477e-01  4.58555477e-01  4.58555477e-01  3.35821715e-09  3.08302387e-09  4.58555477e-01  1.59025591e-07  1.18490565e-07  2.00000000e-01 
 2.10000000e-01  3.33074091e-09  4.58555468e-01  4.58555468e-01  4.58555468e-01  3.35821715e-09  3.08302387e-09  4.58555468e-01  1.59025556e-07  1.18490478e-07  2.10000000e-01 
 2.20000000e-01  3.33074091e-09  4.58555488e-01  4.58555488e-01  4.58555488e-01  3.35821715e-09  3.08302387e-09  4.58555488e-01  1.59025619e-07  1.18490316e-07  2.20000000e-01 
 2.30000000e-01  3.33074091e-09  4.58555481e-01  4.58555481e-01  4.58555481e-01  3.35821715e-09  3.08302387e-09  4.58555481e-01  1.59025588e-07  1.18490115e-07  2.30000000e-01 
 2.40000000e-01  3.33074091e-09  4.58555516e-01  4.58555516e-01  4.58555516e-01  3.35821715e-09  3.08302381e-09  4.58555516e-01  1.59025642e-07  1.18490068e-07  2.40000000e-01 
 2.50000000e-01  3.33074097e-09  4.58555498e-01  4.58555498e-01  4.58555498e-01  3.35821715e-09  3.08302387e-09  4.58555498e-01  1.59025614e-07  1.18489840e-07  2.50000000e-01 
 2.60000000e-01  3.33074097e-09  4.58555491e-01  4.58555491e-01  4.58555491e-01  3.35821709e-09  3.08302381e-09  4.58555491e-01  1.59025611e-07  1.18489659e-07  2.60000000e-01 
 2.70000000e-01  3.33074097e-09  4.58555498e-01  4.58555498e-01  4.58555498e-01  3.35821715e-09  3.08302387e-09  4.58555498e-01  1.59025624e-07  1.18489545e-07  2.70000000e-01 
 2.80000000e-01  3.33074091e-09  4.58555501e-01  4.58555501e-01  4.58555501e-01  3.35821715e-09  3.08302387e-09  4.58555501e-01  1.59025608e-07  1.18489380e-07  2.80000000e-01 
 2.90000000e-01  3.33074097e-09  4.58555485e-01  4.58555485e-01  4.58555485e-01  3.35821715e-09  3.08302387e-09  4.58555485e-01  1.59025594e-07  1.18489307e-07  2.90000000e-01 
 3.00000000e-01  3.33074096e-09  4.58555475e-01  4.58555475e-01  4.58555475e-01  3.35821715e-09  3.08302387e-09  4.58555475e-01  1.59025588e-07  1.18489002e-07  3.00000000e-01 
 3.10000000e-01  3.33074091e-09  4.58555496e-01  4.58555496e-01  4.58555496e-01  3.35821715e-09  3.08302387e-09  4.58555496e-01  1.59025624e-07  1.18488941e-07  3.10000000e-01 
 3.20000000e-01  3.33074091e-09  4.58555499e-01  4.58555499e-01  4.58555499e-01  3.35821715e-09  3.08302387e-09  4.58555499e-01  1.59025617e-07  1.18488909e-07  3.20000000e-01 
 3.30000000e-01  3.33074091e-09  4.58555509e-01  4.58555509e-01  4.58555509e-01  3.35821715e-09  3.08302387e-09  4.58555509e-01  1.59025635e-07  1.18488725e-07  3.30000000e-01 
 3.40000000e-01  3.33074091e-09  4.58555523e-01  4.58555523e-01  4.58555523e-01  3.35821715e-09  3.08302387e-09  4.58555523e-01  1.59025641e-07  1.18488824e-07  3.40000000e-01 
 3.50000000e-01  3.33074097e-09  4.58555485e-01  4.58555485e-01  4.58555485e-01  3.35821715e-09  3.08302387e-09  4.58555485e-01  1.59025591e-07  1.18488504e-07  3.50000000e-01 
 3.60000000e-01  3.33074091e-09  4.58555484e-01  4.58555485e-01  4.58555484e-01  3.35821715e-09  3.08302387e-09  4.58555485e-01  1.59025598e-07  1.18488398e-07  3.60000000e-01 
 3.70000000e-01  3.33074096e-09  4.58555480e-01  4.58555480e-01  4.58555480e-01  3.35821715e-09  3.08302387e-09  4.58555480e-01  1.59025592e-07  1.18488295e-07  3.70000000e-01 
 3.80000000e-01  3.33074091e-09  4.58555504e-01  4.58555504e-01  4.58555504e-01  3.35821709e-09  3.08302387e-09  4.58555504e-01  1.59025617e-07  1.18488149e-07  3.80000000e-01 
 3.90000000e-01  3.33074091e-09  4.58555485e-01  4.58555485e-01  4.58555485e-01  3.35821715e-09  3.08302387e-09  4.58555485e-01  1.59025586e-07  1.18488082e-07  3.90000000e-01 
 4.00000000e-01  3.33074091e-09  4.58555491e-01  4.58555491e-01  4.58555491e-01  3.35821715e-09  3.08302387e-09  4.58555491e-01  1.59025604e-07  1.18488003e-07  4.00000000e-01 
 4.10000000e-01  3.33074091e-09  4.58555485e-01  4.58555485e-01  4.58555485e-01  3.35821715e-09  3.08302387e-09  4.58555485e-01  1.59025611e-07  1.18487982e-07  4.10000000e-01 
 4.20000000e-01  3.33074091e-09  4.58555507e-01  4.58555507e-01  4.58555507e-01  3.35821715e-09  3.08302387e-09  4.58555507e-01  1.59025616e-07  1.18487787e-07  4.20000000e-01 
 4.30000000e-01  3.33074097e-09  4.58555506e-01  4.58555506e-01  4.58555506e-01  3.35821715e-09  3.08302387e-09  4.58555506e-01  1.59025620e-07  1.18487826e-07  4.30000000e-01 
 4.40000000e-01  3.33074097e-09  4.58555504e-01  4.58555504e-01  4.58555504e-01  3.35821709e-09  3.08302387e-09  4.58555504e-01  1.59025609e-07  1.18487538e-07  4.40000000e-01 
 4.50000000e-01  3.33074091e-09  4.58555518e-01  4.58555518e-01  4.58555518e-01  3.35821715e-09  3.08302387e-09  4.58555518e-01  1.59025638e-07  1.18487655e-07  4.50000000e-01 
 4.60000000e-01  3.33074091e-09  4.58555504e-01  4.58555504e-01  4.58555503e-01  3.35821715e-09  3.08302387e-09  4.58555504e-01  1.59025624e-07  1.18487478e-07  4.60000000e-01 
 4.70000000e-01  3.33074091e-09  4.58555457e-01  4.58555457e-01  4.58555457e-01  3.35821715e-09  3.08302387e-09  4.58555457e-01  1.59025559e-07  1.18487254e-07  4.70000000e-01 
 4.80000000e-01  3.33074097e-09  4.58555515e-01  4.58555515e-01  4.58555515e-01  3.35821715e-09  3.08302387e-09  4.58555515e-01  1.59025644e-07  1.18487293e-07  4.80000000e-01 
 4.90000000e-01  3.33074096e-09  4.58555481e-01  4.58555481e-01  4.58555481e-01  3.35821715e-09  3.08302387e-09  4.58555481e-01  1.59025585e-07  1.18487140e-07  4.90000000e-01 
 5.00000000e-01  3.33074091e-09  4.58555502e-01  4.58555502e-01  4.58555502e-01  3.35821709e-09  3.08302387e-09  4.58555502e-01  1.59025615e-07  1.18487019e-07  5.00000000e-01 
 5.10000000e-01  3.33074097e-09  4.58555514e-01  4.58555514e-01  4.58555514e-01  3.35821715e-09  3.08302387e-09  4.58555514e-01  1.59025634e-07  1.18487062e-07  5.10000000e-01 
 5.20000000e-01  3.33074091e-09  4.58555514e-01  4.58555514e-01  4.58555514e-01  3.35821715e-09  3.08302387e-09  4.58555514e-01  1.59025640e-07  1.18487058e-07  5.20000000e-01 
 5.30000000e-01  3.33074097e-09  4.58555494e-01  4.58555494e-01  4.58555494e-01  3.35821709e-09  3.08302387e-09  4.58555494e-01  1.59025608e-07  1.18486852e-07  5.30000000e-01 
 5.40000000e-01  3.33074091e-09  4.58555496e-01  4.58555496e-01  4.58555496e-01  3.35821715e-09  3.08302387e-09  4.58555496e-01  1.59025630e-07  1.18486767e-07  5.40000000e-01 
 5.50000000e-01  3.33074091e-09  4.58555492e-01  4.58555492e-01  4.58555492e-01  3.35821715e-09  3.08302387e-09  4.58555492e-01  1.59025599e-07  1.18486646e-07  5.50000000e-01 
 5.60000000e-01  3.33074091e-09  4.58555494e-01  4.58555494e-01  4.58555494e-01  3.35821715e-09  3.08302387e-09  4.58555494e-01  1.59025608e-07  1.18486582e-07  5.60000000e-01 
 5.70000000e-01  3.33074091e-09  4.58555503e-01  4.58555503e-01  4.58555503e-01  3.35821715e-09  3.08302387e-09  4.58555503e-01  1.59025628e-07  1.18486504e-07  5.70000000e-01 
 5.80000000e-01  3.33074091e-09  4.58555508e-01  4.58555508e-01  4.58555508e-01  3.35821715e-09  3.08302387e-09  4.58555508e-01  1.59025620e-07  1.18486540e-07  5.80000000e-01 
 5.90000000e-01  3.33074091e-09  4.58555506e-01  4.58555506e-01  4.58555506e-01  3.35821715e-09  3.08302387e-09  4.58555506e-01  1.59025624e-07  1.18486412e-07  5.90000000e-01 
 6.00000000e-01  3.33074091e-09  4.58555495e-01  4.58555495e-01  4.58555495e-01  3.35821715e-09  3.08302387e-09  4.58555495e-01  1.59025606e-07  1.18486213e-07  6.00000000e-01 
 6.10000000e-01  3.33074097e-09  4.58555492e-01  4.58555492e-01  4.58555492e-01  3.35821715e-09  3.08302387e-09  4.58555492e-01  1.59025603e-07  1.18486227e-07  6.10000000e-01 
 6.20000000e-01  3.33074096e-09  4.58555468e-01  4.58555468e-01  4.58555468e-01  3.35821715e-09  3.08302387e-09  4.58555468e-01  1.59025575e-07  1.18486028e-07  6.20000000e-01 
 6.30000000e-01  3.33074097e-09  4.58555511e-01  4.58555511e-01  4.58555511e-01  3.35821715e-09  3.08302387e-09  4.58555511e-01  1.59025634e-07  1.18486057e-07  6.30000000e-01 
 6.40000000e-01  3.33074091e-09  4.58555484e-01  4.58555484e-01  4.58555484e-01  3.35821715e-09  3.08302387e-09  4.58555484e-01  1.59025594e-07  1.18485957e-07  6.40000000e-01 
 6.50000000e-01  3.33074091e-09  4.58555494e-01  4.58555494e-01  4.58555494e-01  3.35821715e-09  3.08302387e-09  4.58555494e-01  1.59025614e-07  1.18485858e-07  6.50000000e-01 
 6.60000000e-01  3.33074091e-09  4.58555497e-01  4.58555497e-01  4.58555497e-01  3.35821715e-09  3.08302387e-09  4.58555497e-01  1.59025611e-07  1.18485858e-07  6.60000000e-01 
 6.70000000e-01  3.33074091e-09  4.58555479e-01  4.58555479e-01  4.58555479e-01  3.35821715e-09  3.08302387e-09  4.58555479e-01  1.59025596e-07  1.18485737e-07  6.70000000e-01 
 6.80000000e-01  3.33074096e-09  4.58555479e-01  4.58555479e-01  4.58555479e-01  3.35821715e-09  3.08302387e-09  4.58555479e-01  1.59025601e-07  1.18485630e-07  6.80000000e-01 
 6.90000000e-01  3.33074091e-09  4.58555467e-01  4.58555467e-01  4.58555467e-01  3.35821715e-09  3.08302387e-09  4.58555467e-01  1.59025589e-07  1.18485460e-07  6.90000000e-01 
 7.00000000e-01  3.33074091e-09  4.58555489e-01  4.58555489e-01  4.58555489e-01  3.35821715e-09  3.08302387e-09  4.58555489e-01  1.59025613e-07  1.18485410e-07  7.00000000e-01 
 7.10000000e-01  3.33074091e-09  4.58555503e-01  4.58555503e-01  4.58555503e-01  3.35821715e-09  3.08302387e-09  4.58555503e-01  1.59025616e-07  1.18485310e-07  7.10000000e-01 
 7.20000000e-01  3.33074091e-09  4.58555481e-01  4.58555481e-01  4.58555481e-01  3.35821715e-09  3.08302387e-09  4.58555481e-01  1.59025599e-07  1.18485111e-07  7.20000000e-01 
 7.30000000e-01  3.33074096e-09  4.58555470e-01  4.58555471e-01  4.58555470e-01  3.35821715e-09  3.08302387e-09  4.58555471e-01  1.59025573e-07  1.18485097e-07  7.30000000e-01 
 7.40000000e-01  3.33074091e-09  4.58555498e-01  4.58555498e-01  4.58555498e-01  3.35821715e-09  3.08302387e-09  4.58555498e-01  1.59025622e-07  1.18485033e-07  7.40000000e-01 
 7.50000000e-01  3.33074091e-09  4.58555486e-01  4.58555486e-01  4.58555486e-01  3.35821709e-09  3.08302387e-09  4.58555486e-01  1.59025594e-07  1.18484884e-07  7.50000000e-01 
 7.60000000e-01  3.33074091e-09  4.58555486e-01  4.58555486e-01  4.58555486e-01  3.35821715e-09  3.08302387e-09  4.58555486e-01  1.59025599e-07  1.18484792e-07  7.60000000e-01 
 7.70000000e-01  3.33074097e-09  4.58555489e-01  4.58555489e-01  4.58555489e-01  3.35821715e-09  3.08302387e-09  4.58555489e-01  1.59025606e-07  1.18484770e-07  7.70000000e-01 
 7.80000000e-01  3.33074097e-09  4.58555485e-01  4.58555486e-01  4.58555485e-01  3.35821715e-09  3.08302387e-09  4.58555486e-01  1.59025603e-07  1.18484657e-07  7.80000000e-01 
 7.90000000e-01  3.33074091e-09  4.58555499e-01  4.58555499e-01  4.58555499e-01  3.35821715e-09  3.08302387e-09  4.58555499e-01  1.59025625e-07  1.18484628e-07  7.90000000e-01 
 8.00000000e-01  3.33074091e-09  4.58555510e-01  4.58555510e-01  4.58555510e-01  3.35821715e-09  3.08302387e-09  4.58555510e-01  1.59025633e-07  1.18484444e-07  8.00000000e-01 
 8.10000000e-01  3.33074096e-09  4.58555482e-01  4.58555482e-01  4.58555482e-01  3.35821715e-09  3.08302387e-09  4.58555482e-01  1.59025611e-07  1.18484458e-07  8.10000000e-01 
 8.20000000e-01  3.33074091e-09  4.58555496e-01  4.58555496e-01  4.58555496e-01  3.35821715e-09  3.08302387e-09  4.58555496e-01  1.59025607e-07  1.18484351e-07  8.20000000e-01 
 8.30000000e-01  3.33074091e-09  4.58555489e-01  4.58555489e-01  4.58555489e-01  3.35821715e-09  3.08302387e-09  4.58555489e-01  1.59025608e-07  1.18484252e-07  8.30000000e-01 
 8.40000000e-01  3.33074091e-09  4.58555515e-01  4.58555515e-01  4.58555515e-01  3.35821710e-09  3.08302387e-09  4.58555515e-01  1.59025653e-07  1.18484273e-07  8.40000000e-01 
 8.50000000e-01  3.33074097e-09  4.58555504e-01  4.58555504e-01  4.58555504e-01  3.35821715e-09  3.08302387e-09  4.58555504e-01  1.59025618e-07  1.18484159e-07  8.50000000e-01 
 8.60000000e-01  3.33074096e-09  4.58555469e-01  4.58555469e-01  4.58555469e-01  3.35821715e-09  3.08302387e-09  4.58555469e-01  1.59025570e-07  1.18483882e-07  8.60000000e-01 
 8.70000000e-01  3.33074096e-09  4.58555466e-01  4.58555466e-01  4.58555466e-01  3.35821715e-09  3.08302387e-09  4.58555466e-01  1.59025564e-07  1.18483811e-07  8.70000000e-01 
 8.80000000e-01  3.33074091e-09  4.58555506e-01  4.58555506e-01  4.58555506e-01  3.35821715e-09  3.08302387e-09  4.58555506e-01  1.59025629e-07  1.18483847e-07  8.80000000e-01 
 8.90000000e-01  3.33074096e-09  4.58555472e-01  4.58555472e-01  4.58555472e-01  3.35821709e-09  3.08302387e-09  4.58555472e-01  1.59025569e-07  1.18483776e-07  8.90000000e-01 
 9.00000000e-01  3.33074097e-09  4.58555498e-01  4.58555498e-01  4.58555498e-01  3.35821715e-09  3.08302387e-09  4.58555498e-01  1.59025621e-07  1.18483584e-07  9.00000000e-01 
 9.10000000e-01  3.33074091e-09  4.58555515e-01  4.58555515e-01  4.58555515e-01  3.35821715e-09  3.08302387e-09  4.58555515e-01  1.59025636e-07  1.18483619e-07  9.10000000e-01 
 9.20000000e-01  3.33074097e-09  4.58555503e-01  4.58555503e-01  4.58555503e-01  3.35821715e-09  3.08302387e-09  4.58555503e-01  1.59025621e-07  1.18483463e-07  9.20000000e-01 
 9.30000000e-01  3.33074091e-09  4.58555484e-01  4.58555484e-01  4.58555484e-01  3.35821715e-09  3.08302387e-09  4.58555484e-01  1.59025597e-07  1.18483250e-07  9.30000000e-01 
 9.40000000e-01  3.33074097e-09  4.58555505e-01  4.58555505e-01  4.58555505e-01  3.35821715e-09  3.08302387e-09  4.58555506e-01  1.59025620e-07  1.18483328e-07  9.40000000e-01 
 9.50000000e-01  3.33074097e-09  4.58555492e-01  4.58555493e-01  4.58555492e-01  3.35821715e-09  3.08302387e-09  4.58555493e-01  1.59025598e-07  1.18483214e-07  9.50000000e-01 
 9.60000000e-01  3.33074091e-09  4.58555517e-01  4.58555517e-01  4.58555517e-01  3.35821715e-09  3.08302387e-09  4.58555517e-01  1.59025633e-07  1.18483086e-07  9.60000000e-01 
 9.70000000e-01  3.33074091e-09  4.58555481e-01  4.58555481e-01  4.58555481e-01  3.35821715e-09  3.08302387e-09  4.58555481e-01  1.59025597e-07  1.18483001e-07  9.70000000e-01 
 9.80000000e-01  3.33074091e-09  4.58555486e-01  4.58555486e-01  4.58555486e-01  3.35821715e-09  3.08302387e-09  4.58555486e-01  1.59025602e-07  1.18482973e-07  9.80000000e-01 
 9.90000000e-01  3.33074097e-09  4.58555492e-01  4.58555492e-01  4.58555492e-01  3.35821715e-09  3.08302387e-09  4.58555492e-01  1.59025606e-07  1.18482831e-07  9.90000000e-01 
 1.00000000e+00  3.33074096e-09  4.58555471e-01  4.58555471e-01  4.58555471e-01  3.35821715e-09  3.08302387e-09  4.58555471e-01  1.59025576e-07  1.18482646e-07  1.00000000e+00 
 1.01000000e+00  3.33074097e-09  4.58555500e-01  4.58555500e-01  4.58555500e-01  3.35821715e-09  3.08302387e-09  4.58555500e-01  1.59025622e-07  1.18482561e-07  1.01000000e+00 
 1.02000000e+00  3.33074091e-09  4.58555472e-01  4.58555472e-01  4.58555472e-01  3.35821715e-09  3.08302387e-09  4.58555472e-01  1.59025586e-07  1.18482490e-07  1.02000000e+00 
 1.03000000e+00  3.33074097e-09  4.58555498e-01  4.58555498e-01  4.58555498e-01  3.35821715e-09  3.08302387e-09  4.58555498e-01  1.59025615e-07  1.18482404e-07  1.03000000e+00 
 1.04000000e+00  3.33074097e-09  4.58555489e-01  4.58555489e-01  4.58555489e-01  3.35821715e-09  3.08302387e-09  4.58555489e-01  1.59025600e-07  1.18482347e-07  1.04000000e+00 
 1.05000000e+00  3.33074097e-09  4.58555517e-01  4.58555517e-01  4.58555517e-01  3.35821710e-09  3.08302387e-09  4.58555517e-01  1.59025638e-07  1.18482220e-07  1.05000000e+00 
 1.06000000e+00  3.33074096e-09  4.58555472e-01  4.58555473e-01  4.58555472e-01  3.35821715e-09  3.08302387e-09  4.58555473e-01  1.59025583e-07  1.18482049e-07  1.06000000e+00 
 1.07000000e+00  3.33074096e-09  4.58555474e-01  4.58555474e-01  4.58555474e-01  3.35821715e-09  3.08302387e-09  4.58555474e-01  1.59025573e-07  1.18481992e-07  1.07000000e+00 
 1.08000000e+00  3.33074091e-09  4.58555505e-01  4.58555506e-01  4.58555505e-01  3.35821715e-09  3.08302387e-09  4.58555506e-01  1.59025625e-07  1.18481928e-07  1.08000000e+00 
 1.09000000e+00  3.33074097e-09  4.58555510e-01  4.58555510e-01  4.58555510e-01  3.35821715e-09  3.08302387e-09  4.58555510e-01  1.59025623e-07  1.18481879e-07  1.09000000e+00 
 1.10000000e+00  3.33074091e-09  4.58555503e-01  4.58555503e-01  4.58555503e-01  3.35821715e-09  3.08302387e-09  4.58555503e-01  1.59025633e-07  1.18481708e-07  1.10000000e+00 
