 v-sweep         v(b0)           v(b1)           v(b2)           v(b3)           v(b4)           v(b5)           v(b6)           i(vbias)        i(viout)        v(vout)        
 0.00000000e+00  3.39664525e-09  4.61183835e-01  3.85323377e-09  3.27356231e-09  3.38996937e-09  4.61183835e-01  4.61183835e-01  1.64087817e-07  1.51988498e-07  0.00000000e+00 
 1.00000000e-02  3.39664528e-09  4.61183826e-01  3.85323381e-09  3.27356229e-09  3.38996935e-09  4.61183825e-01  4.61183825e-01  1.64087795e-07  1.51987993e-07  1.00000000e-02 
 2.00000000e-02  3.39664528e-09  4.61183825e-01  3.85323381e-09  3.27356229e-09  3.38996935e-09  4.61183825e-01  4.61183825e-01  1.64087796e-07  1.51987532e-07  2.00000000e-02 
 3.00000000e-02  3.39664522e-09  4.61183824e-01  3.85323381e-09  3.27356234e-09  3.38996935e-09  4.61183824e-01  4.61183824e-01  1.64087773e-07  1.51987203e-07  3.00000000e-02 
 4.00000000e-02  3.39664528e-09  4.61183846e-01  3.85323381e-09  3.27356235e-09  3.38996935e-09  4.61183846e-01  4.61183846e-01  1.64087809e-07  1.51986960e-07  4.00000000e-02 
 5.00000000e-02  3.39664528e-09  4.61183838e-01  3.85323381e-09  3.27356229e-09  3.38996935e-09  4.61183837e-01  4.61183837e-01  1.64087801e-07  1.51986543e-07  5.00000000e-02 
 6.00000000e-02  3.39664528e-09  4.61183831e-01  3.85323381e-09  3.27356234e-09  3.38996935e-09  4.61183830e-01  4.61183830e-01  1.64087809e-07  1.51986128e-07  6.00000000e-02 
 7.00000000e-02  3.39664528e-09  4.61183832e-01  3.85323381e-09  3.27356234e-09  3.38996935e-09  4.61183831e-01  4.61183832e-01  1.64087796e-07  1.51985722e-07  7.00000000e-02 
 8.00000000e-02  3.39664528e-09  4.61183855e-01  3.85323381e-09  3.27356229e-09  3.38996935e-09  4.61183854e-01  4.61183855e-01  1.64087809e-07  1.51985549e-07  8.00000000e-02 
 9.00000000e-02  3.39664528e-09  4.61183831e-01  3.85323381e-09  3.27356229e-09  3.38996935e-09  4.61183831e-01  4.61183831e-01  1.64087794e-07  1.51985018e-07  9.00000000e-02 
 1.00000000e-01  3.39664528e-09  4.61183816e-01  3.85323381e-09  3.27356229e-09  3.38996935e-09  4.61183816e-01  4.61183816e-01  1.64087774e-07  1.51984706e-07  1.00000000e-01 
 1.10000000e-01  3.39664528e-09  4.61183829e-01  3.85323381e-09  3.27356229e-09  3.38996935e-09  4.61183828e-01  4.61183829e-01  1.64087795e-07  1.51984555e-07  1.10000000e-01 
 1.20000000e-01  3.39664522e-09  4.61183834e-01  3.85323375e-09  3.27356229e-09  3.38996935e-09  4.61183833e-01  4.61183834e-01  1.64087827e-07  1.51984215e-07  1.20000000e-01 
 1.30000000e-01  3.39664528e-09  4.61183823e-01  3.85323381e-09  3.27356229e-09  3.38996935e-09  4.61183823e-01  4.61183823e-01  1.64087789e-07  1.51983963e-07  1.30000000e-01 
 1.40000000e-01  3.39664528e-09  4.61183850e-01  3.85323376e-09  3.27356229e-09  3.38996935e-09  4.61183849e-01  4.61183850e-01  1.64087814e-07  1.51983817e-07  1.40000000e-01 
 1.50000000e-01  3.39664528e-09  4.61183814e-01  3.85323381e-09  3.27356229e-09  3.38996935e-09  4.61183814e-01  4.61183814e-01  1.64087788e-07  1.51983425e-07  1.50000000e-01 
 1.60000000e-01  3.39664528e-09  4.61183829e-01  3.85323375e-09  3.27356229e-09  3.38996935e-09  4.61183829e-01  4.61183829e-01  1.64087799e-07  1.51983226e-07  1.60000000e-01 
 1.70000000e-01  3.39664528e-09  4.61183828e-01  3.85323381e-09  3.27356229e-09  3.38996935e-09  4.61183828e-01  4.61183828e-01  1.64087777e-07  1.51983112e-07  1.70000000e-01 
 1.80000000e-01  3.39664522e-09  4.61183822e-01  3.85323381e-09  3.27356229e-09  3.38996935e-09  4.61183821e-01  4.61183821e-01  1.64087766e-07  1.51982722e-07  1.80000000e-01 
 1.90000000e-01  3.39664528e-09  4.61183822e-01  3.85323375e-09  3.27356234e-09  3.38996935e-09  4.61183822e-01  4.61183822e-01  1.64087778e-07  1.51982510e-07  1.90000000e-01 
 2.00000000e-01  3.39664528e-09  4.61183836e-01  3.85323381e-09  3.27356234e-09  3.38996935e-09  4.61183835e-01  4.61183835e-01  1.64087800e-07  1.51982428e-07  2.00000000e-01 
 2.10000000e-01  3.39664528e-09  4.61183823e-01  3.85323375e-09  3.27356234e-09  3.38996935e-09  4.61183823e-01  4.61183823e-01  1.64087794e-07  1.51982183e-07  2.10000000e-01 
 2.20000000e-01  3.39664528e-09  4.61183818e-01  3.85323381e-09  3.27356234e-09  3.38996935e-09  4.61183818e-01  4.61183818e-01  1.64087774e-07  1.51981929e-07  2.20000000e-01 
 2.30000000e-01  3.39664528e-09  4.61183833e-01  3.85323375e-09  3.27356229e-09  3.38996935e-09  4.61183833e-01  4.61183833e-01  1.64087785e-07  1.51981860e-07  2.30000000e-01 
 2.40000000e-01  3.39664528e-09  4.61183849e-01  3.85323381e-09  3.27356229e-09  3.38996935e-09  4.61183849e-01  4.61183849e-01  1.64087833e-07  1.51981803e-07  2.40000000e-01 
 2.50000000e-01  3.39664528e-09  4.61183824e-01  3.85323381e-09  3.27356234e-09  3.38996935e-09  4.61183824e-01  4.61183824e-01  1.64087769e-07  1.51981496e-07  2.50000000e-01 
 2.60000000e-01  3.39664528e-09  4.61183809e-01  3.85323375e-09  3.27356234e-09  3.38996935e-09  4.61183809e-01  4.61183809e-01  1.64087758e-07  1.51981293e-07  2.60000000e-01 
 2.70000000e-01  3.39664528e-09  4.61183849e-01  3.85323381e-09  3.27356229e-09  3.38996935e-09  4.61183849e-01  4.61183849e-01  1.64087833e-07  1.51981194e-07  2.70000000e-01 
 2.80000000e-01  3.39664528e-09  4.61183829e-01  3.85323375e-09  3.27356229e-09  3.38996935e-09  4.61183829e-01  4.61183829e-01  1.64087806e-07  1.51981000e-07  2.80000000e-01 
 2.90000000e-01  3.39664522e-09  4.61183831e-01  3.85323381e-09  3.27356229e-09  3.38996935e-09  4.61183831e-01  4.61183831e-01  1.64087794e-07  1.51980736e-07  2.90000000e-01 
 3.00000000e-01  3.39664528e-09  4.61183836e-01  3.85323381e-09  3.27356234e-09  3.38996935e-09  4.61183836e-01  4.61183836e-01  1.64087801e-07  1.51980661e-07  3.00000000e-01 
 3.10000000e-01  3.39664528e-09  4.61183816e-01  3.85323375e-09  3.27356234e-09  3.38996935e-09  4.61183816e-01  4.61183816e-01  1.64087790e-07  1.51980508e-07  3.10000000e-01 
 3.20000000e-01  3.39664528e-09  4.61183837e-01  3.85323381e-09  3.27356229e-09  3.38996935e-09  4.61183837e-01  4.61183837e-01  1.64087799e-07  1.51980380e-07  3.20000000e-01 
 3.30000000e-01  3.39664528e-09  4.61183812e-01  3.85323381e-09  3.27356229e-09  3.38996935e-09  4.61183812e-01  4.61183812e-01  1.64087776e-07  1.51980114e-07  3.30000000e-01 
 3.40000000e-01  3.39664528e-09  4.61183794e-01  3.85323381e-09  3.27356234e-09  3.38996935e-09  4.61183793e-01  4.61183794e-01  1.64087740e-07  1.51979965e-07  3.40000000e-01 
 3.50000000e-01  3.39664522e-09  4.61183841e-01  3.85323381e-09  3.27356229e-09  3.38996935e-09  4.61183840e-01  4.61183840e-01  1.64087811e-07  1.51980007e-07  3.50000000e-01 
 3.60000000e-01  3.39664528e-09  4.61183843e-01  3.85323381e-09  3.27356229e-09  3.38996935e-09  4.61183843e-01  4.61183843e-01  1.64087819e-07  1.51979801e-07  3.60000000e-01 
 3.70000000e-01  3.39664528e-09  4.61183825e-01  3.85323381e-09  3.27356234e-09  3.38996935e-09  4.61183825e-01  4.61183825e-01  1.64087799e-07  1.51979634e-07  3.70000000e-01 
 3.80000000e-01  3.39664528e-09  4.61183848e-01  3.85323381e-09  3.27356235e-09  3.38996935e-09  4.61183848e-01  4.61183848e-01  1.64087817e-07  1.51979581e-07  3.80000000e-01 
 3.90000000e-01  3.39664528e-09  4.61183826e-01  3.85323381e-09  3.27356234e-09  3.38996935e-09  4.61183826e-01  4.61183826e-01  1.64087792e-07  1.51979414e-07  3.90000000e-01 
 4.00000000e-01  3.39664528e-09  4.61183826e-01  3.85323375e-09  3.27356229e-09  3.38996935e-09  4.61183826e-01  4.61183826e-01  1.64087795e-07  1.51979183e-07  4.00000000e-01 
 4.10000000e-01  3.39664528e-09  4.61183828e-01  3.85323381e-09  3.27356229e-09  3.38996935e-09  4.61183827e-01  4.61183828e-01  1.64087784e-07  1.51979211e-07  4.10000000e-01 
 4.20000000e-01  3.39664528e-09  4.61183841e-01  3.85323381e-09  3.27356229e-09  3.38996935e-09  4.61183840e-01  4.61183840e-01  1.64087811e-07  1.51979041e-07  4.20000000e-01 
 4.30000000e-01  3.39664528e-09  4.61183812e-01  3.85323375e-09  3.27356229e-09  3.38996935e-09  4.61183811e-01  4.61183811e-01  1.64087785e-07  1.51978877e-07  4.30000000e-01 
 4.40000000e-01  3.39664528e-09  4.61183836e-01  3.85323381e-09  3.27356234e-09  3.38996935e-09  4.61183836e-01  4.61183836e-01  1.64087809e-07  1.51978746e-07  4.40000000e-01 
 4.50000000e-01  3.39664528e-09  4.61183812e-01  3.85323381e-09  3.27356229e-09  3.38996935e-09  4.61183812e-01  4.61183812e-01  1.64087781e-07  1.51978679e-07  4.50000000e-01 
 4.60000000e-01  3.39664528e-09  4.61183838e-01  3.85323381e-09  3.27356229e-09  3.38996941e-09  4.61183838e-01  4.61183838e-01  1.64087815e-07  1.51978568e-07  4.60000000e-01 
 4.70000000e-01  3.39664528e-09  4.61183850e-01  3.85323376e-09  3.27356235e-09  3.38996935e-09  4.61183850e-01  4.61183850e-01  1.64087827e-07  1.51978483e-07  4.70000000e-01 
 4.80000000e-01  3.39664528e-09  4.61183828e-01  3.85323381e-09  3.27356234e-09  3.38996935e-09  4.61183828e-01  4.61183828e-01  1.64087791e-07  1.51978401e-07  4.80000000e-01 
 4.90000000e-01  3.39664528e-09  4.61183843e-01  3.85323381e-09  3.27356229e-09  3.38996935e-09  4.61183843e-01  4.61183843e-01  1.64087817e-07  1.51978231e-07  4.90000000e-01 
 5.00000000e-01  3.39664528e-09  4.61183838e-01  3.85323381e-09  3.27356229e-09  3.38996935e-09  4.61183838e-01  4.61183838e-01  1.64087809e-07  1.51978199e-07  5.00000000e-01 
 5.10000000e-01  3.39664522e-09  4.61183842e-01  3.85323381e-09  3.27356234e-09  3.38996935e-09  4.61183842e-01  4.61183842e-01  1.64087807e-07  1.51977968e-07  5.10000000e-01 
 5.20000000e-01  3.39664522e-09  4.61183827e-01  3.85323381e-09  3.27356229e-09  3.38996935e-09  4.61183827e-01  4.61183827e-01  1.64087797e-07  1.51977876e-07  5.20000000e-01 
 5.30000000e-01  3.39664528e-09  4.61183832e-01  3.85323381e-09  3.27356234e-09  3.38996941e-09  4.61183832e-01  4.61183832e-01  1.64087801e-07  1.51977773e-07  5.30000000e-01 
 5.40000000e-01  3.39664528e-09  4.61183833e-01  3.85323381e-09  3.27356229e-09  3.38996935e-09  4.61183833e-01  4.61183833e-01  1.64087791e-07  1.51977773e-07  5.40000000e-01 
 5.50000000e-01  3.39664528e-09  4.61183831e-01  3.85323375e-09  3.27356229e-09  3.38996935e-09  4.61183830e-01  4.61183831e-01  1.64087781e-07  1.51977567e-07  5.50000000e-01 
 5.60000000e-01  3.39664528e-09  4.61183831e-01  3.85323375e-09  3.27356234e-09  3.38996935e-09  4.61183830e-01  4.61183830e-01  1.64087804e-07  1.51977385e-07  5.60000000e-01 
 5.70000000e-01  3.39664528e-09  4.61183843e-01  3.85323381e-09  3.27356229e-09  3.38996935e-09  4.61183843e-01  4.61183843e-01  1.64087803e-07  1.51977414e-07  5.70000000e-01 
 5.80000000e-01  3.39664522e-09  4.61183834e-01  3.85323375e-09  3.27356229e-09  3.38996935e-09  4.61183834e-01  4.61183834e-01  1.64087806e-07  1.51977176e-07  5.80000000e-01 
 5.90000000e-01  3.39664528e-09  4.61183840e-01  3.85323381e-09  3.27356234e-09  3.38996935e-09  4.61183839e-01  4.61183839e-01  1.64087820e-07  1.51977162e-07  5.90000000e-01 
 6.00000000e-01  3.39664522e-09  4.61183824e-01  3.85323375e-09  3.27356234e-09  3.38996935e-09  4.61183824e-01  4.61183824e-01  1.64087789e-07  1.51976899e-07  6.00000000e-01 
 6.10000000e-01  3.39664528e-09  4.61183835e-01  3.85323381e-09  3.27356234e-09  3.38996929e-09  4.61183835e-01  4.61183835e-01  1.64087800e-07  1.51976927e-07  6.10000000e-01 
 6.20000000e-01  3.39664528e-09  4.61183830e-01  3.85323375e-09  3.27356234e-09  3.38996935e-09  4.61183830e-01  4.61183830e-01  1.64087791e-07  1.51976749e-07  6.20000000e-01 
 6.30000000e-01  3.39664528e-09  4.61183826e-01  3.85323381e-09  3.27356229e-09  3.38996935e-09  4.61183825e-01  4.61183826e-01  1.64087798e-07  1.51976678e-07  6.30000000e-01 
 6.40000000e-01  3.39664528e-09  4.61183818e-01  3.85323381e-09  3.27356229e-09  3.38996935e-09  4.61183818e-01  4.61183818e-01  1.64087769e-07  1.51976437e-07  6.40000000e-01 
 6.50000000e-01  3.39664528e-09  4.61183818e-01  3.85323381e-09  3.27356229e-09  3.38996935e-09  4.61183818e-01  4.61183818e-01  1.64087777e-07  1.51976408e-07  6.50000000e-01 
 6.60000000e-01  3.39664528e-09  4.61183812e-01  3.85323381e-09  3.27356229e-09  3.38996935e-09  4.61183812e-01  4.61183812e-01  1.64087764e-07  1.51976359e-07  6.60000000e-01 
 6.70000000e-01  3.39664522e-09  4.61183821e-01  3.85323381e-09  3.27356229e-09  3.38996935e-09  4.61183821e-01  4.61183821e-01  1.64087780e-07  1.51976252e-07  6.70000000e-01 
 6.80000000e-01  3.39664528e-09  4.61183844e-01  3.85323381e-09  3.27356234e-09  3.38996935e-09  4.61183844e-01  4.61183844e-01  1.64087830e-07  1.51976145e-07  6.80000000e-01 
 6.90000000e-01  3.39664528e-09  4.61183829e-01  3.85323381e-09  3.27356234e-09  3.38996935e-09  4.61183829e-01  4.61183829e-01  1.64087805e-07  1.51976018e-07  6.90000000e-01 
 7.00000000e-01  3.39664528e-09  4.61183802e-01  3.85323381e-09  3.27356229e-09  3.38996935e-09  4.61183801e-01  4.61183801e-01  1.64087760e-07  1.51975762e-07  7.00000000e-01 
 7.10000000e-01  3.39664528e-09  4.61183811e-01  3.85323381e-09  3.27356229e-09  3.38996935e-09  4.61183811e-01  4.61183811e-01  1.64087761e-07  1.51975620e-07  7.10000000e-01 
 7.20000000e-01  3.39664528e-09  4.61183808e-01  3.85323381e-09  3.27356234e-09  3.38996935e-09  4.61183808e-01  4.61183808e-01  1.64087754e-07  1.51975541e-07  7.20000000e-01 
 7.30000000e-01  3.39664528e-09  4.61183826e-01  3.85323381e-09  3.27356229e-09  3.38996935e-09  4.61183826e-01  4.61183826e-01  1.64087788e-07  1.51975549e-07  7.30000000e-01 
 7.40000000e-01  3.39664528e-09  4.61183804e-01  3.85323381e-09  3.27356229e-09  3.38996935e-09  4.61183803e-01  4.61183803e-01  1.64087762e-07  1.51975350e-07  7.40000000e-01 
 7.50000000e-01  3.39664522e-09  4.61183839e-01  3.85323381e-09  3.27356234e-09  3.38996941e-09  4.61183839e-01  4.61183839e-01  1.64087813e-07  1.51975314e-07  7.50000000e-01 
 7.60000000e-01  3.39664528e-09  4.61183847e-01  3.85323381e-09  3.27356235e-09  3.38996935e-09  4.61183847e-01  4.61183847e-01  1.64087826e-07  1.51975328e-07  7.60000000e-01 
 7.70000000e-01  3.39664528e-09  4.61183844e-01  3.85323381e-09  3.27356234e-09  3.38996935e-09  4.61183844e-01  4.61183844e-01  1.64087838e-07  1.51975236e-07  7.70000000e-01 
 7.80000000e-01  3.39664528e-09  4.61183847e-01  3.85323381e-09  3.27356235e-09  3.38996935e-09  4.61183847e-01  4.61183847e-01  1.64087814e-07  1.51975115e-07  7.80000000e-01 
 7.90000000e-01  3.39664528e-09  4.61183830e-01  3.85323375e-09  3.27356229e-09  3.38996935e-09  4.61183830e-01  4.61183830e-01  1.64087807e-07  1.51974902e-07  7.90000000e-01 
 8.00000000e-01  3.39664528e-09  4.61183839e-01  3.85323375e-09  3.27356234e-09  3.38996935e-09  4.61183839e-01  4.61183839e-01  1.64087805e-07  1.51974781e-07  8.00000000e-01 
 8.10000000e-01  3.39664528e-09  4.61183820e-01  3.85323375e-09  3.27356229e-09  3.38996935e-09  4.61183820e-01  4.61183820e-01  1.64087795e-07  1.51974490e-07  8.10000000e-01 
 8.20000000e-01  3.39664528e-09  4.61183843e-01  3.85323381e-09  3.27356234e-09  3.38996935e-09  4.61183843e-01  4.61183843e-01  1.64087809e-07  1.51974604e-07  8.20000000e-01 
 8.30000000e-01  3.39664528e-09  4.61183848e-01  3.85323375e-09  3.27356229e-09  3.38996935e-09  4.61183847e-01  4.61183848e-01  1.64087824e-07  1.51974447e-07  8.30000000e-01 
 8.40000000e-01  3.39664528e-09  4.61183829e-01  3.85323375e-09  3.27356229e-09  3.38996935e-09  4.61183829e-01  4.61183829e-01  1.64087803e-07  1.51974334e-07  8.40000000e-01 
 8.50000000e-01  3.39664528e-09  4.61183840e-01  3.85323375e-09  3.27356234e-09  3.38996935e-09  4.61183839e-01  4.61183840e-01  1.64087799e-07  1.51974163e-07  8.50000000e-01 
 8.60000000e-01  3.39664528e-09  4.61183813e-01  3.85323381e-09  3.27356234e-09  3.38996935e-09  4.61183813e-01  4.61183813e-01  1.64087785e-07  1.51974042e-07  8.60000000e-01 
 8.70000000e-01  3.39664528e-09  4.61183820e-01  3.85323381e-09  3.27356229e-09  3.38996935e-09  4.61183820e-01  4.61183820e-01  1.64087782e-07  1.51973815e-07  8.70000000e-01 
 8.80000000e-01  3.39664528e-09  4.61183836e-01  3.85323381e-09  3.27356229e-09  3.38996935e-09  4.61183836e-01  4.61183836e-01  1.64087797e-07  1.51973794e-07  8.80000000e-01 
 8.90000000e-01  3.39664528e-09  4.61183819e-01  3.85323375e-09  3.27356234e-09  3.38996935e-09  4.61183818e-01  4.61183818e-01  1.64087780e-07  1.51973730e-07  8.90000000e-01 
 9.00000000e-01  3.39664528e-09  4.61183809e-01  3.85323381e-09  3.27356234e-09  3.38996935e-09  4.61183809e-01  4.61183809e-01  1.64087762e-07  1.51973573e-07  9.00000000e-01 
 9.10000000e-01  3.39664528e-09  4.61183821e-01  3.85323381e-09  3.27356229e-09  3.38996935e-09  4.61183820e-01  4.61183820e-01  1.64087777e-07  1.51973339e-07  9.10000000e-01 
 9.20000000e-01  3.39664528e-09  4.61183822e-01  3.85323375e-09  3.27356234e-09  3.38996935e-09  4.61183821e-01  4.61183821e-01  1.64087787e-07  1.51973289e-07  9.20000000e-01 
 9.30000000e-01  3.39664528e-09  4.61183833e-01  3.85323375e-09  3.27356229e-09  3.38996935e-09  4.61183833e-01  4.61183833e-01  1.64087798e-07  1.51973076e-07  9.30000000e-01 
 9.40000000e-01  3.39664528e-09  4.61183857e-01  3.85323381e-09  3.27356229e-09  3.38996935e-09  4.61183857e-01  4.61183857e-01  1.64087838e-07  1.51973168e-07  9.40000000e-01 
 9.50000000e-01  3.39664528e-09  4.61183852e-01  3.85323376e-09  3.27356235e-09  3.38996935e-09  4.61183851e-01  4.61183851e-01  1.64087837e-07  1.51973047e-07  9.50000000e-01 
 9.60000000e-01  3.39664528e-09  4.61183838e-01  3.85323375e-09  3.27356229e-09  3.38996935e-09  4.61183838e-01  4.61183838e-01  1.64087809e-07  1.51972806e-07  9.60000000e-01 
 9.70000000e-01  3.39664528e-09  4.61183802e-01  3.85323381e-09  3.27356229e-09  3.38996935e-09  4.61183802e-01  4.61183802e-01  1.64087759e-07  1.51972657e-07  9.70000000e-01 
 9.80000000e-01  3.39664528e-09  4.61183832e-01  3.85323375e-09  3.27356234e-09  3.38996935e-09  4.61183832e-01  4.61183832e-01  1.64087789e-07  1.51972586e-07  9.80000000e-01 
 9.90000000e-01  3.39664528e-09  4.61183832e-01  3.85323381e-09  3.27356229e-09  3.38996935e-09  4.61183832e-01  4.61183832e-01  1.64087806e-07  1.51972429e-07  9.90000000e-01 
 1.00000000e+00  3.39664528e-09  4.61183822e-01  3.85323381e-09  3.27356234e-09  3.38996935e-09  4.61183821e-01  4.61183821e-01  1.64087787e-07  1.51972230e-07  1.00000000e+00 
 1.01000000e+00  3.39664528e-09  4.61183806e-01  3.85323375e-09  3.27356229e-09  3.38996935e-09  4.61183806e-01  4.61183806e-01  1.64087757e-07  1.51972039e-07  1.01000000e+00 
 1.02000000e+00  3.39664528e-09  4.61183820e-01  3.85323381e-09  3.27356229e-09  3.38996935e-09  4.61183819e-01  4.61183819e-01  1.64087781e-07  1.51972081e-07  1.02000000e+00 
 1.03000000e+00  3.39664528e-09  4.61183842e-01  3.85323381e-09  3.27356229e-09  3.38996935e-09  4.61183842e-01  4.61183842e-01  1.64087820e-07  1.51971875e-07  1.03000000e+00 
 1.04000000e+00  3.39664522e-09  4.61183823e-01  3.85323381e-09  3.27356229e-09  3.38996935e-09  4.61183823e-01  4.61183823e-01  1.64087796e-07  1.51971662e-07  1.04000000e+00 
 1.05000000e+00  3.39664528e-09  4.61183825e-01  3.85323375e-09  3.27356234e-09  3.38996941e-09  4.61183825e-01  4.61183825e-01  1.64087784e-07  1.51971570e-07  1.05000000e+00 
 1.06000000e+00  3.39664528e-09  4.61183810e-01  3.85323375e-09  3.27356234e-09  3.38996935e-09  4.61183810e-01  4.61183810e-01  1.64087771e-07  1.51971435e-07  1.06000000e+00 
 1.07000000e+00  3.39664528e-09  4.61183847e-01  3.85323381e-09  3.27356235e-09  3.38996935e-09  4.61183847e-01  4.61183847e-01  1.64087828e-07  1.51971449e-07  1.07000000e+00 
 1.08000000e+00  3.39664528e-09  4.61183849e-01  3.85323376e-09  3.27356235e-09  3.38996935e-09  4.61183849e-01  4.61183849e-01  1.64087841e-07  1.51971278e-07  1.08000000e+00 
 1.09000000e+00  3.39664528e-09  4.61183839e-01  3.85323381e-09  3.27356234e-09  3.38996935e-09  4.61183839e-01  4.61183839e-01  1.64087805e-07  1.51971150e-07  1.09000000e+00 
 1.10000000e+00  3.39664528e-09  4.61183828e-01  3.85323375e-09  3.27356229e-09  3.38996935e-09  4.61183828e-01  4.61183828e-01  1.64087786e-07  1.51970838e-07  1.10000000e+00 
