 v-sweep         v(b0)           v(b1)           v(b2)           v(b3)           v(b4)           v(b5)           v(b6)           i(vbias)        i(viout)        v(vout)        
 0.00000000e+00  4.57462889e-01  4.57462889e-01  4.57462889e-01  4.57462889e-01  3.25506628e-09  3.32052965e-09  3.03026830e-09  1.55824244e-07  2.29060961e-08  0.00000000e+00 
 1.00000000e-02  4.57462900e-01  4.57462899e-01  4.57462899e-01  4.57462900e-01  3.25506631e-09  3.32052968e-09  3.03026827e-09  1.55824267e-07  2.29055847e-08  1.00000000e-02 
 2.00000000e-02  4.57462891e-01  4.57462891e-01  4.57462891e-01  4.57462891e-01  3.25506630e-09  3.32052962e-09  3.03026827e-09  1.55824249e-07  2.29051795e-08  2.00000000e-02 
 3.00000000e-02  4.57462901e-01  4.57462901e-01  4.57462901e-01  4.57462901e-01  3.25506632e-09  3.32052963e-09  3.03026827e-09  1.55824268e-07  2.29047090e-08  3.00000000e-02 
 4.00000000e-02  4.57462884e-01  4.57462884e-01  4.57462884e-01  4.57462884e-01  3.25506630e-09  3.32052967e-09  3.03026827e-09  1.55824255e-07  2.29045143e-08  4.00000000e-02 
 5.00000000e-02  4.57462880e-01  4.57462880e-01  4.57462879e-01  4.57462880e-01  3.25506631e-09  3.32052968e-09  3.03026827e-09  1.55824241e-07  2.29040884e-08  5.00000000e-02 
 6.00000000e-02  4.57462881e-01  4.57462881e-01  4.57462881e-01  4.57462881e-01  3.25506630e-09  3.32052962e-09  3.03026827e-09  1.55824227e-07  2.29038974e-08  6.00000000e-02 
 7.00000000e-02  4.57462897e-01  4.57462897e-01  4.57462897e-01  4.57462897e-01  3.25506632e-09  3.32052963e-09  3.03026827e-09  1.55824264e-07  2.29035835e-08  7.00000000e-02 
 8.00000000e-02  4.57462879e-01  4.57462879e-01  4.57462879e-01  4.57462879e-01  3.25506630e-09  3.32052967e-09  3.03026827e-09  1.55824243e-07  2.29032882e-08  8.00000000e-02 
 9.00000000e-02  4.57462897e-01  4.57462896e-01  4.57462896e-01  4.57462897e-01  3.25506632e-09  3.32052968e-09  3.03026827e-09  1.55824263e-07  2.29030848e-08  9.00000000e-02 
 1.00000000e-01  4.57462892e-01  4.57462892e-01  4.57462892e-01  4.57462892e-01  3.25506630e-09  3.32052968e-09  3.03026827e-09  1.55824256e-07  2.29027988e-08  1.00000000e-01 
 1.10000000e-01  4.57462901e-01  4.57462900e-01  4.57462900e-01  4.57462901e-01  3.25506632e-09  3.32052968e-09  3.03026827e-09  1.55824266e-07  2.29025945e-08  1.10000000e-01 
 1.20000000e-01  4.57462889e-01  4.57462889e-01  4.57462889e-01  4.57462889e-01  3.25506635e-09  3.32052968e-09  3.03026827e-09  1.55824247e-07  2.29022596e-08  1.20000000e-01 
 1.30000000e-01  4.57462876e-01  4.57462876e-01  4.57462876e-01  4.57462876e-01  3.25506630e-09  3.32052968e-09  3.03026827e-09  1.55824213e-07  2.29021504e-08  1.30000000e-01 
 1.40000000e-01  4.57462870e-01  4.57462870e-01  4.57462870e-01  4.57462870e-01  3.25506630e-09  3.32052968e-09  3.03026827e-09  1.55824221e-07  2.29019035e-08  1.40000000e-01 
 1.50000000e-01  4.57462869e-01  4.57462869e-01  4.57462869e-01  4.57462869e-01  3.25506630e-09  3.32052968e-09  3.03026827e-09  1.55824196e-07  2.29017569e-08  1.50000000e-01 
 1.60000000e-01  4.57462889e-01  4.57462889e-01  4.57462889e-01  4.57462889e-01  3.25506636e-09  3.32052962e-09  3.03026827e-09  1.55824233e-07  2.29014461e-08  1.60000000e-01 
 1.70000000e-01  4.57462892e-01  4.57462892e-01  4.57462892e-01  4.57462892e-01  3.25506630e-09  3.32052969e-09  3.03026827e-09  1.55824256e-07  2.29013253e-08  1.70000000e-01 
 1.80000000e-01  4.57462888e-01  4.57462888e-01  4.57462888e-01  4.57462888e-01  3.25506630e-09  3.32052967e-09  3.03026827e-09  1.55824237e-07  2.29010784e-08  1.80000000e-01 
 1.90000000e-01  4.57462866e-01  4.57462866e-01  4.57462866e-01  4.57462866e-01  3.25506630e-09  3.32052968e-09  3.03026822e-09  1.55824227e-07  2.29009167e-08  1.90000000e-01 
 2.00000000e-01  4.57462875e-01  4.57462875e-01  4.57462875e-01  4.57462875e-01  3.25506630e-09  3.32052968e-09  3.03026827e-09  1.55824220e-07  2.29009434e-08  2.00000000e-01 
 2.10000000e-01  4.57462897e-01  4.57462897e-01  4.57462897e-01  4.57462897e-01  3.25506636e-09  3.32052968e-09  3.03026827e-09  1.55824278e-07  2.29006396e-08  2.10000000e-01 
 2.20000000e-01  4.57462879e-01  4.57462879e-01  4.57462879e-01  4.57462879e-01  3.25506630e-09  3.32052968e-09  3.03026827e-09  1.55824243e-07  2.29005703e-08  2.20000000e-01 
 2.30000000e-01  4.57462928e-01  4.57462928e-01  4.57462928e-01  4.57462928e-01  3.25506631e-09  3.32052968e-09  3.03026828e-09  1.55824301e-07  2.29003003e-08  2.30000000e-01 
 2.40000000e-01  4.57462893e-01  4.57462893e-01  4.57462893e-01  4.57462893e-01  3.25506630e-09  3.32052968e-09  3.03026827e-09  1.55824253e-07  2.29002577e-08  2.40000000e-01 
 2.50000000e-01  4.57462902e-01  4.57462902e-01  4.57462902e-01  4.57462902e-01  3.25506636e-09  3.32052968e-09  3.03026827e-09  1.55824262e-07  2.29001049e-08  2.50000000e-01 
 2.60000000e-01  4.57462879e-01  4.57462879e-01  4.57462879e-01  4.57462879e-01  3.25506630e-09  3.32052968e-09  3.03026827e-09  1.55824247e-07  2.29000623e-08  2.60000000e-01 
 2.70000000e-01  4.57462882e-01  4.57462882e-01  4.57462881e-01  4.57462882e-01  3.25506630e-09  3.32052968e-09  3.03026827e-09  1.55824236e-07  2.28998296e-08  2.70000000e-01 
 2.80000000e-01  4.57462907e-01  4.57462907e-01  4.57462907e-01  4.57462907e-01  3.25506630e-09  3.32052962e-09  3.03026827e-09  1.55824288e-07  2.28997390e-08  2.80000000e-01 
 2.90000000e-01  4.57462896e-01  4.57462896e-01  4.57462896e-01  4.57462896e-01  3.25506630e-09  3.32052963e-09  3.03026827e-09  1.55824267e-07  2.28996306e-08  2.90000000e-01 
 3.00000000e-01  4.57462887e-01  4.57462887e-01  4.57462887e-01  4.57462887e-01  3.25506630e-09  3.32052967e-09  3.03026822e-09  1.55824248e-07  2.28994708e-08  3.00000000e-01 
 3.10000000e-01  4.57462868e-01  4.57462868e-01  4.57462868e-01  4.57462868e-01  3.25506630e-09  3.32052968e-09  3.03026827e-09  1.55824220e-07  2.28994992e-08  3.10000000e-01 
 3.20000000e-01  4.57462919e-01  4.57462919e-01  4.57462919e-01  4.57462919e-01  3.25506631e-09  3.32052962e-09  3.03026827e-09  1.55824271e-07  2.28993429e-08  3.20000000e-01 
 3.30000000e-01  4.57462913e-01  4.57462913e-01  4.57462912e-01  4.57462913e-01  3.25506631e-09  3.32052969e-09  3.03026827e-09  1.55824282e-07  2.28993784e-08  3.30000000e-01 
 3.40000000e-01  4.57462894e-01  4.57462894e-01  4.57462894e-01  4.57462894e-01  3.25506636e-09  3.32052967e-09  3.03026827e-09  1.55824245e-07  2.28993287e-08  3.40000000e-01 
 3.50000000e-01  4.57462884e-01  4.57462884e-01  4.57462884e-01  4.57462884e-01  3.25506630e-09  3.32052968e-09  3.03026827e-09  1.55824242e-07  2.28991013e-08  3.50000000e-01 
 3.60000000e-01  4.57462886e-01  4.57462886e-01  4.57462886e-01  4.57462886e-01  3.25506630e-09  3.32052968e-09  3.03026827e-09  1.55824238e-07  2.28990977e-08  3.60000000e-01 
 3.70000000e-01  4.57462891e-01  4.57462891e-01  4.57462891e-01  4.57462891e-01  3.25506630e-09  3.32052962e-09  3.03026827e-09  1.55824254e-07  2.28989130e-08  3.70000000e-01 
 3.80000000e-01  4.57462883e-01  4.57462883e-01  4.57462883e-01  4.57462883e-01  3.25506630e-09  3.32052963e-09  3.03026827e-09  1.55824243e-07  2.28988668e-08  3.80000000e-01 
 3.90000000e-01  4.57462856e-01  4.57462856e-01  4.57462856e-01  4.57462856e-01  3.25506630e-09  3.32052967e-09  3.03026827e-09  1.55824194e-07  2.28988561e-08  3.90000000e-01 
 4.00000000e-01  4.57462896e-01  4.57462895e-01  4.57462895e-01  4.57462895e-01  3.25506630e-09  3.32052962e-09  3.03026827e-09  1.55824245e-07  2.28987886e-08  4.00000000e-01 
 4.10000000e-01  4.57462875e-01  4.57462875e-01  4.57462875e-01  4.57462875e-01  3.25506636e-09  3.32052963e-09  3.03026827e-09  1.55824237e-07  2.28986394e-08  4.10000000e-01 
 4.20000000e-01  4.57462894e-01  4.57462894e-01  4.57462894e-01  4.57462894e-01  3.25506630e-09  3.32052967e-09  3.03026827e-09  1.55824247e-07  2.28986963e-08  4.20000000e-01 
 4.30000000e-01  4.57462907e-01  4.57462907e-01  4.57462907e-01  4.57462907e-01  3.25506636e-09  3.32052968e-09  3.03026827e-09  1.55824282e-07  2.28985115e-08  4.30000000e-01 
 4.40000000e-01  4.57462878e-01  4.57462878e-01  4.57462878e-01  4.57462878e-01  3.25506630e-09  3.32052968e-09  3.03026827e-09  1.55824229e-07  2.28984476e-08  4.40000000e-01 
 4.50000000e-01  4.57462911e-01  4.57462911e-01  4.57462911e-01  4.57462911e-01  3.25506631e-09  3.32052968e-09  3.03026822e-09  1.55824270e-07  2.28984121e-08  4.50000000e-01 
 4.60000000e-01  4.57462915e-01  4.57462914e-01  4.57462914e-01  4.57462915e-01  3.25506631e-09  3.32052962e-09  3.03026827e-09  1.55824281e-07  2.28983481e-08  4.60000000e-01 
 4.70000000e-01  4.57462876e-01  4.57462876e-01  4.57462876e-01  4.57462876e-01  3.25506630e-09  3.32052969e-09  3.03026827e-09  1.55824233e-07  2.28981989e-08  4.70000000e-01 
 4.80000000e-01  4.57462907e-01  4.57462907e-01  4.57462907e-01  4.57462907e-01  3.25506631e-09  3.32052967e-09  3.03026827e-09  1.55824261e-07  2.28981847e-08  4.80000000e-01 
 4.90000000e-01  4.57462905e-01  4.57462905e-01  4.57462905e-01  4.57462905e-01  3.25506630e-09  3.32052968e-09  3.03026827e-09  1.55824270e-07  2.28981847e-08  4.90000000e-01 
 5.00000000e-01  4.57462899e-01  4.57462899e-01  4.57462899e-01  4.57462899e-01  3.25506630e-09  3.32052962e-09  3.03026827e-09  1.55824260e-07  2.28980603e-08  5.00000000e-01 
 5.10000000e-01  4.57462901e-01  4.57462900e-01  4.57462900e-01  4.57462901e-01  3.25506630e-09  3.32052963e-09  3.03026827e-09  1.55824256e-07  2.28980888e-08  5.10000000e-01 
 5.20000000e-01  4.57462908e-01  4.57462908e-01  4.57462908e-01  4.57462908e-01  3.25506631e-09  3.32052967e-09  3.03026827e-09  1.55824283e-07  2.28980532e-08  5.20000000e-01 
 5.30000000e-01  4.57462906e-01  4.57462905e-01  4.57462905e-01  4.57462905e-01  3.25506630e-09  3.32052962e-09  3.03026827e-09  1.55824275e-07  2.28979218e-08  5.30000000e-01 
 5.40000000e-01  4.57462904e-01  4.57462904e-01  4.57462904e-01  4.57462904e-01  3.25506630e-09  3.32052963e-09  3.03026827e-09  1.55824267e-07  2.28978898e-08  5.40000000e-01 
 5.50000000e-01  4.57462913e-01  4.57462913e-01  4.57462913e-01  4.57462913e-01  3.25506631e-09  3.32052967e-09  3.03026827e-09  1.55824278e-07  2.28978401e-08  5.50000000e-01 
 5.60000000e-01  4.57462883e-01  4.57462883e-01  4.57462883e-01  4.57462883e-01  3.25506630e-09  3.32052968e-09  3.03026827e-09  1.55824237e-07  2.28977335e-08  5.60000000e-01 
 5.70000000e-01  4.57462894e-01  4.57462894e-01  4.57462894e-01  4.57462894e-01  3.25506630e-09  3.32052962e-09  3.03026827e-09  1.55824251e-07  2.28976660e-08  5.70000000e-01 
 5.80000000e-01  4.57462900e-01  4.57462900e-01  4.57462899e-01  4.57462900e-01  3.25506630e-09  3.32052963e-09  3.03026827e-09  1.55824243e-07  2.28976518e-08  5.80000000e-01 
 5.90000000e-01  4.57462882e-01  4.57462882e-01  4.57462882e-01  4.57462882e-01  3.25506636e-09  3.32052967e-09  3.03026827e-09  1.55824237e-07  2.28976376e-08  5.90000000e-01 
 6.00000000e-01  4.57462917e-01  4.57462917e-01  4.57462917e-01  4.57462917e-01  3.25506631e-09  3.32052968e-09  3.03026827e-09  1.55824298e-07  2.28976020e-08  6.00000000e-01 
 6.10000000e-01  4.57462915e-01  4.57462915e-01  4.57462915e-01  4.57462915e-01  3.25506631e-09  3.32052968e-09  3.03026822e-09  1.55824295e-07  2.28975097e-08  6.10000000e-01 
 6.20000000e-01  4.57462892e-01  4.57462892e-01  4.57462891e-01  4.57462892e-01  3.25506630e-09  3.32052968e-09  3.03026827e-09  1.55824271e-07  2.28975452e-08  6.20000000e-01 
 6.30000000e-01  4.57462896e-01  4.57462896e-01  4.57462896e-01  4.57462896e-01  3.25506630e-09  3.32052968e-09  3.03026827e-09  1.55824252e-07  2.28972539e-08  6.30000000e-01 
 6.40000000e-01  4.57462889e-01  4.57462889e-01  4.57462888e-01  4.57462889e-01  3.25506630e-09  3.32052962e-09  3.03026827e-09  1.55824247e-07  2.28973462e-08  6.40000000e-01 
 6.50000000e-01  4.57462892e-01  4.57462892e-01  4.57462892e-01  4.57462892e-01  3.25506630e-09  3.32052963e-09  3.03026827e-09  1.55824257e-07  2.28973178e-08  6.50000000e-01 
 6.60000000e-01  4.57462884e-01  4.57462884e-01  4.57462884e-01  4.57462884e-01  3.25506636e-09  3.32052967e-09  3.03026827e-09  1.55824242e-07  2.28973249e-08  6.60000000e-01 
 6.70000000e-01  4.57462897e-01  4.57462897e-01  4.57462897e-01  4.57462897e-01  3.25506630e-09  3.32052968e-09  3.03026822e-09  1.55824270e-07  2.28971331e-08  6.70000000e-01 
 6.80000000e-01  4.57462918e-01  4.57462918e-01  4.57462918e-01  4.57462918e-01  3.25506636e-09  3.32052962e-09  3.03026822e-09  1.55824301e-07  2.28971047e-08  6.80000000e-01 
 6.90000000e-01  4.57462901e-01  4.57462901e-01  4.57462901e-01  4.57462901e-01  3.25506630e-09  3.32052963e-09  3.03026827e-09  1.55824283e-07  2.28971189e-08  6.90000000e-01 
 7.00000000e-01  4.57462866e-01  4.57462866e-01  4.57462866e-01  4.57462866e-01  3.25506630e-09  3.32052967e-09  3.03026827e-09  1.55824225e-07  2.28970265e-08  7.00000000e-01 
 7.10000000e-01  4.57462911e-01  4.57462911e-01  4.57462911e-01  4.57462911e-01  3.25506631e-09  3.32052968e-09  3.03026827e-09  1.55824283e-07  2.28970336e-08  7.10000000e-01 
 7.20000000e-01  4.57462876e-01  4.57462876e-01  4.57462876e-01  4.57462876e-01  3.25506630e-09  3.32052968e-09  3.03026827e-09  1.55824233e-07  2.28969483e-08  7.20000000e-01 
 7.30000000e-01  4.57462912e-01  4.57462912e-01  4.57462912e-01  4.57462912e-01  3.25506631e-09  3.32052968e-09  3.03026827e-09  1.55824272e-07  2.28967565e-08  7.30000000e-01 
 7.40000000e-01  4.57462893e-01  4.57462893e-01  4.57462893e-01  4.57462893e-01  3.25506630e-09  3.32052968e-09  3.03026822e-09  1.55824254e-07  2.28967565e-08  7.40000000e-01 
 7.50000000e-01  4.57462920e-01  4.57462920e-01  4.57462920e-01  4.57462920e-01  3.25506636e-09  3.32052968e-09  3.03026827e-09  1.55824284e-07  2.28967494e-08  7.50000000e-01 
 7.60000000e-01  4.57462877e-01  4.57462877e-01  4.57462877e-01  4.57462877e-01  3.25506636e-09  3.32052968e-09  3.03026827e-09  1.55824232e-07  2.28967849e-08  7.60000000e-01 
 7.70000000e-01  4.57462892e-01  4.57462892e-01  4.57462892e-01  4.57462892e-01  3.25506630e-09  3.32052968e-09  3.03026827e-09  1.55824255e-07  2.28966641e-08  7.70000000e-01 
 7.80000000e-01  4.57462879e-01  4.57462879e-01  4.57462879e-01  4.57462879e-01  3.25506630e-09  3.32052968e-09  3.03026827e-09  1.55824243e-07  2.28964581e-08  7.80000000e-01 
 7.90000000e-01  4.57462876e-01  4.57462876e-01  4.57462876e-01  4.57462876e-01  3.25506636e-09  3.32052962e-09  3.03026827e-09  1.55824240e-07  2.28964439e-08  7.90000000e-01 
 8.00000000e-01  4.57462893e-01  4.57462893e-01  4.57462893e-01  4.57462893e-01  3.25506630e-09  3.32052963e-09  3.03026822e-09  1.55824239e-07  2.28964225e-08  8.00000000e-01 
 8.10000000e-01  4.57462893e-01  4.57462893e-01  4.57462893e-01  4.57462893e-01  3.25506630e-09  3.32052967e-09  3.03026822e-09  1.55824255e-07  2.28964439e-08  8.10000000e-01 
 8.20000000e-01  4.57462875e-01  4.57462874e-01  4.57462874e-01  4.57462874e-01  3.25506630e-09  3.32052968e-09  3.03026827e-09  1.55824240e-07  2.28964510e-08  8.20000000e-01 
 8.30000000e-01  4.57462900e-01  4.57462900e-01  4.57462900e-01  4.57462900e-01  3.25506630e-09  3.32052968e-09  3.03026827e-09  1.55824258e-07  2.28964581e-08  8.30000000e-01 
 8.40000000e-01  4.57462898e-01  4.57462898e-01  4.57462898e-01  4.57462898e-01  3.25506630e-09  3.32052962e-09  3.03026827e-09  1.55824272e-07  2.28963444e-08  8.40000000e-01 
 8.50000000e-01  4.57462871e-01  4.57462871e-01  4.57462871e-01  4.57462871e-01  3.25506630e-09  3.32052969e-09  3.03026827e-09  1.55824235e-07  2.28962591e-08  8.50000000e-01 
 8.60000000e-01  4.57462898e-01  4.57462898e-01  4.57462898e-01  4.57462898e-01  3.25506630e-09  3.32052967e-09  3.03026827e-09  1.55824258e-07  2.28963088e-08  8.60000000e-01 
 8.70000000e-01  4.57462902e-01  4.57462901e-01  4.57462901e-01  4.57462902e-01  3.25506630e-09  3.32052962e-09  3.03026827e-09  1.55824268e-07  2.28961881e-08  8.70000000e-01 
 8.80000000e-01  4.57462896e-01  4.57462896e-01  4.57462896e-01  4.57462896e-01  3.25506630e-09  3.32052963e-09  3.03026827e-09  1.55824250e-07  2.28960317e-08  8.80000000e-01 
 8.90000000e-01  4.57462900e-01  4.57462900e-01  4.57462900e-01  4.57462900e-01  3.25506636e-09  3.32052967e-09  3.03026827e-09  1.55824274e-07  2.28961667e-08  8.90000000e-01 
 9.00000000e-01  4.57462887e-01  4.57462887e-01  4.57462887e-01  4.57462887e-01  3.25506630e-09  3.32052968e-09  3.03026827e-09  1.55824250e-07  2.28960388e-08  9.00000000e-01 
 9.10000000e-01  4.57462885e-01  4.57462885e-01  4.57462885e-01  4.57462885e-01  3.25506636e-09  3.32052968e-09  3.03026827e-09  1.55824253e-07  2.28959323e-08  9.10000000e-01 
 9.20000000e-01  4.57462895e-01  4.57462895e-01  4.57462894e-01  4.57462895e-01  3.25506630e-09  3.32052968e-09  3.03026827e-09  1.55824260e-07  2.28959749e-08  9.20000000e-01 
 9.30000000e-01  4.57462908e-01  4.57462908e-01  4.57462908e-01  4.57462908e-01  3.25506636e-09  3.32052968e-09  3.03026827e-09  1.55824277e-07  2.28959109e-08  9.30000000e-01 
 9.40000000e-01  4.57462892e-01  4.57462891e-01  4.57462891e-01  4.57462892e-01  3.25506630e-09  3.32052968e-09  3.03026827e-09  1.55824257e-07  2.28958612e-08  9.40000000e-01 
 9.50000000e-01  4.57462877e-01  4.57462877e-01  4.57462877e-01  4.57462877e-01  3.25506630e-09  3.32052968e-09  3.03026827e-09  1.55824230e-07  2.28955912e-08  9.50000000e-01 
 9.60000000e-01  4.57462891e-01  4.57462891e-01  4.57462891e-01  4.57462891e-01  3.25506630e-09  3.32052962e-09  3.03026827e-09  1.55824236e-07  2.28957191e-08  9.60000000e-01 
 9.70000000e-01  4.57462907e-01  4.57462907e-01  4.57462907e-01  4.57462907e-01  3.25506631e-09  3.32052969e-09  3.03026827e-09  1.55824274e-07  2.28957120e-08  9.70000000e-01 
 9.80000000e-01  4.57462901e-01  4.57462901e-01  4.57462901e-01  4.57462901e-01  3.25506636e-09  3.32052967e-09  3.03026827e-09  1.55824263e-07  2.28955628e-08  9.80000000e-01 
 9.90000000e-01  4.57462901e-01  4.57462901e-01  4.57462901e-01  4.57462901e-01  3.25506630e-09  3.32052968e-09  3.03026822e-09  1.55824262e-07  2.28954704e-08  9.90000000e-01 
 1.00000000e+00  4.57462909e-01  4.57462909e-01  4.57462909e-01  4.57462909e-01  3.25506631e-09  3.32052968e-09  3.03026827e-09  1.55824278e-07  2.28955130e-08  1.00000000e+00 
 1.01000000e+00  4.57462917e-01  4.57462917e-01  4.57462917e-01  4.57462917e-01  3.25506631e-09  3.32052968e-09  3.03026827e-09  1.55824277e-07  2.28954420e-08  1.01000000e+00 
 1.02000000e+00  4.57462893e-01  4.57462893e-01  4.57462893e-01  4.57462893e-01  3.25506636e-09  3.32052968e-09  3.03026827e-09  1.55824251e-07  2.28954278e-08  1.02000000e+00 
 1.03000000e+00  4.57462901e-01  4.57462901e-01  4.57462901e-01  4.57462901e-01  3.25506636e-09  3.32052962e-09  3.03026827e-09  1.55824256e-07  2.28951720e-08  1.03000000e+00 
 1.04000000e+00  4.57462860e-01  4.57462860e-01  4.57462860e-01  4.57462860e-01  3.25506630e-09  3.32052969e-09  3.03026827e-09  1.55824222e-07  2.28952715e-08  1.04000000e+00 
 1.05000000e+00  4.57462884e-01  4.57462884e-01  4.57462884e-01  4.57462884e-01  3.25506630e-09  3.32052967e-09  3.03026827e-09  1.55824254e-07  2.28951720e-08  1.05000000e+00 
 1.06000000e+00  4.57462907e-01  4.57462907e-01  4.57462907e-01  4.57462907e-01  3.25506631e-09  3.32052968e-09  3.03026827e-09  1.55824284e-07  2.28950441e-08  1.06000000e+00 
 1.07000000e+00  4.57462892e-01  4.57462892e-01  4.57462892e-01  4.57462892e-01  3.25506630e-09  3.32052962e-09  3.03026827e-09  1.55824268e-07  2.28950512e-08  1.07000000e+00 
 1.08000000e+00  4.57462909e-01  4.57462909e-01  4.57462909e-01  4.57462909e-01  3.25506631e-09  3.32052969e-09  3.03026827e-09  1.55824271e-07  2.28950654e-08  1.08000000e+00 
 1.09000000e+00  4.57462904e-01  4.57462904e-01  4.57462904e-01  4.57462904e-01  3.25506636e-09  3.32052967e-09  3.03026827e-09  1.55824269e-07  2.28949872e-08  1.09000000e+00 
 1.10000000e+00  4.57462885e-01  4.57462885e-01  4.57462885e-01  4.57462885e-01  3.25506630e-09  3.32052968e-09  3.03026827e-09  1.55824234e-07  2.28950015e-08  1.10000000e+00 
