 v-sweep         v(b0)           v(b1)           v(b2)           v(b3)           v(b4)           v(b5)           v(b6)           i(vbias)        i(viout)        v(vout)        
 0.00000000e+00  3.22327539e-09  3.59664771e-09  4.56692717e-01  3.46674946e-09  3.27211039e-09  3.35827699e-09  4.56692716e-01  1.55079041e-07  9.92032638e-08  0.00000000e+00 
 1.00000000e-02  3.22327537e-09  3.59664769e-09  4.56692697e-01  3.46674944e-09  3.27211037e-09  3.35827697e-09  4.56692697e-01  1.55078995e-07  9.92027742e-08  1.00000000e-02 
 2.00000000e-02  3.22327537e-09  3.59664769e-09  4.56692704e-01  3.46674950e-09  3.27211043e-09  3.35827697e-09  4.56692704e-01  1.55079015e-07  9.92024112e-08  2.00000000e-02 
 3.00000000e-02  3.22327538e-09  3.59664769e-09  4.56692712e-01  3.46674944e-09  3.27211037e-09  3.35827697e-09  4.56692712e-01  1.55079015e-07  9.92020392e-08  3.00000000e-02 
 4.00000000e-02  3.22327537e-09  3.59664774e-09  4.56692690e-01  3.46674950e-09  3.27211037e-09  3.35827697e-09  4.56692690e-01  1.55078994e-07  9.92015146e-08  4.00000000e-02 
 5.00000000e-02  3.22327538e-09  3.59664769e-09  4.56692720e-01  3.46674944e-09  3.27211043e-09  3.35827697e-09  4.56692720e-01  1.55079017e-07  9.92013680e-08  5.00000000e-02 
 6.00000000e-02  3.22327543e-09  3.59664769e-09  4.56692722e-01  3.46674950e-09  3.27211043e-09  3.35827697e-09  4.56692722e-01  1.55079036e-07  9.92010714e-08  6.00000000e-02 
 7.00000000e-02  3.22327543e-09  3.59664769e-09  4.56692717e-01  3.46674944e-09  3.27211037e-09  3.35827697e-09  4.56692717e-01  1.55079033e-07  9.92008249e-08  7.00000000e-02 
 8.00000000e-02  3.22327537e-09  3.59664769e-09  4.56692699e-01  3.46674950e-09  3.27211043e-09  3.35827697e-09  4.56692699e-01  1.55079000e-07  9.92003848e-08  8.00000000e-02 
 9.00000000e-02  3.22327537e-09  3.59664769e-09  4.56692691e-01  3.46674950e-09  3.27211037e-09  3.35827703e-09  4.56692691e-01  1.55078990e-07  9.92000606e-08  9.00000000e-02 
 1.00000000e-01  3.22327538e-09  3.59664769e-09  4.56692729e-01  3.46674950e-09  3.27211043e-09  3.35827697e-09  4.56692729e-01  1.55079033e-07  9.92000206e-08  1.00000000e-01 
 1.10000000e-01  3.22327538e-09  3.59664769e-09  4.56692712e-01  3.46674950e-09  3.27211037e-09  3.35827697e-09  4.56692711e-01  1.55079021e-07  9.91994709e-08  1.10000000e-01 
 1.20000000e-01  3.22327538e-09  3.59664769e-09  4.56692729e-01  3.46674944e-09  3.27211037e-09  3.35827703e-09  4.56692729e-01  1.55079044e-07  9.91993723e-08  1.20000000e-01 
 1.30000000e-01  3.22327538e-09  3.59664769e-09  4.56692719e-01  3.46674944e-09  3.27211037e-09  3.35827703e-09  4.56692719e-01  1.55079029e-07  9.91990916e-08  1.30000000e-01 
 1.40000000e-01  3.22327537e-09  3.59664769e-09  4.56692689e-01  3.46674950e-09  3.27211043e-09  3.35827697e-09  4.56692689e-01  1.55078984e-07  9.91987905e-08  1.40000000e-01 
 1.50000000e-01  3.22327538e-09  3.59664769e-09  4.56692721e-01  3.46674950e-09  3.27211043e-09  3.35827697e-09  4.56692721e-01  1.55079038e-07  9.91985978e-08  1.50000000e-01 
 1.60000000e-01  3.22327537e-09  3.59664775e-09  4.56692704e-01  3.46674950e-09  3.27211043e-09  3.35827703e-09  4.56692704e-01  1.55079014e-07  9.91983971e-08  1.60000000e-01 
 1.70000000e-01  3.22327537e-09  3.59664769e-09  4.56692692e-01  3.46674944e-09  3.27211043e-09  3.35827697e-09  4.56692692e-01  1.55078989e-07  9.91982692e-08  1.70000000e-01 
 1.80000000e-01  3.22327538e-09  3.59664769e-09  4.56692722e-01  3.46674950e-09  3.27211037e-09  3.35827697e-09  4.56692722e-01  1.55079034e-07  9.91981235e-08  1.80000000e-01 
 1.90000000e-01  3.22327537e-09  3.59664769e-09  4.56692703e-01  3.46674944e-09  3.27211043e-09  3.35827697e-09  4.56692703e-01  1.55079009e-07  9.91978428e-08  1.90000000e-01 
 2.00000000e-01  3.22327537e-09  3.59664769e-09  4.56692702e-01  3.46674944e-09  3.27211043e-09  3.35827697e-09  4.56692702e-01  1.55078997e-07  9.91977309e-08  2.00000000e-01 
 2.10000000e-01  3.22327537e-09  3.59664769e-09  4.56692699e-01  3.46674950e-09  3.27211037e-09  3.35827697e-09  4.56692699e-01  1.55079002e-07  9.91977025e-08  2.10000000e-01 
 2.20000000e-01  3.22327538e-09  3.59664769e-09  4.56692715e-01  3.46674950e-09  3.27211043e-09  3.35827703e-09  4.56692715e-01  1.55079027e-07  9.91974183e-08  2.20000000e-01 
 2.30000000e-01  3.22327543e-09  3.59664769e-09  4.56692690e-01  3.46674944e-09  3.27211037e-09  3.35827697e-09  4.56692690e-01  1.55079006e-07  9.91972211e-08  2.30000000e-01 
 2.40000000e-01  3.22327538e-09  3.59664769e-09  4.56692720e-01  3.46674950e-09  3.27211043e-09  3.35827703e-09  4.56692720e-01  1.55079024e-07  9.91972051e-08  2.40000000e-01 
 2.50000000e-01  3.22327537e-09  3.59664769e-09  4.56692686e-01  3.46674944e-09  3.27211037e-09  3.35827703e-09  4.56692686e-01  1.55078984e-07  9.91969014e-08  2.50000000e-01 
 2.60000000e-01  3.22327538e-09  3.59664769e-09  4.56692713e-01  3.46674950e-09  3.27211043e-09  3.35827697e-09  4.56692713e-01  1.55079020e-07  9.91967042e-08  2.60000000e-01 
 2.70000000e-01  3.22327537e-09  3.59664769e-09  4.56692705e-01  3.46674944e-09  3.27211037e-09  3.35827697e-09  4.56692705e-01  1.55079011e-07  9.91966012e-08  2.70000000e-01 
 2.80000000e-01  3.22327543e-09  3.59664769e-09  4.56692720e-01  3.46674950e-09  3.27211037e-09  3.35827697e-09  4.56692719e-01  1.55079035e-07  9.91965283e-08  2.80000000e-01 
 2.90000000e-01  3.22327538e-09  3.59664769e-09  4.56692722e-01  3.46674944e-09  3.27211037e-09  3.35827703e-09  4.56692722e-01  1.55079049e-07  9.91963915e-08  2.90000000e-01 
 3.00000000e-01  3.22327537e-09  3.59664769e-09  4.56692700e-01  3.46674944e-09  3.27211043e-09  3.35827697e-09  4.56692700e-01  1.55079025e-07  9.91962175e-08  3.00000000e-01 
 3.10000000e-01  3.22327538e-09  3.59664769e-09  4.56692715e-01  3.46674944e-09  3.27211043e-09  3.35827697e-09  4.56692715e-01  1.55079034e-07  9.91961500e-08  3.10000000e-01 
 3.20000000e-01  3.22327538e-09  3.59664769e-09  4.56692712e-01  3.46674950e-09  3.27211043e-09  3.35827697e-09  4.56692712e-01  1.55079022e-07  9.91960540e-08  3.20000000e-01 
 3.30000000e-01  3.22327543e-09  3.59664769e-09  4.56692715e-01  3.46674950e-09  3.27211037e-09  3.35827697e-09  4.56692715e-01  1.55079027e-07  9.91959652e-08  3.30000000e-01 
 3.40000000e-01  3.22327538e-09  3.59664769e-09  4.56692707e-01  3.46674950e-09  3.27211043e-09  3.35827697e-09  4.56692707e-01  1.55079019e-07  9.91959475e-08  3.40000000e-01 
 3.50000000e-01  3.22327538e-09  3.59664769e-09  4.56692724e-01  3.46674944e-09  3.27211037e-09  3.35827697e-09  4.56692724e-01  1.55079039e-07  9.91957769e-08  3.50000000e-01 
 3.60000000e-01  3.22327538e-09  3.59664769e-09  4.56692708e-01  3.46674944e-09  3.27211037e-09  3.35827697e-09  4.56692708e-01  1.55079016e-07  9.91956455e-08  3.60000000e-01 
 3.70000000e-01  3.22327538e-09  3.59664769e-09  4.56692712e-01  3.46674944e-09  3.27211043e-09  3.35827703e-09  4.56692712e-01  1.55079019e-07  9.91955389e-08  3.70000000e-01 
 3.80000000e-01  3.22327537e-09  3.59664769e-09  4.56692703e-01  3.46674950e-09  3.27211043e-09  3.35827703e-09  4.56692703e-01  1.55079008e-07  9.91953222e-08  3.80000000e-01 
 3.90000000e-01  3.22327543e-09  3.59664769e-09  4.56692721e-01  3.46674944e-09  3.27211043e-09  3.35827697e-09  4.56692721e-01  1.55079023e-07  9.91953364e-08  3.90000000e-01 
 4.00000000e-01  3.22327537e-09  3.59664775e-09  4.56692705e-01  3.46674950e-09  3.27211037e-09  3.35827703e-09  4.56692705e-01  1.55079021e-07  9.91953257e-08  4.00000000e-01 
 4.10000000e-01  3.22327538e-09  3.59664769e-09  4.56692717e-01  3.46674950e-09  3.27211043e-09  3.35827697e-09  4.56692717e-01  1.55079029e-07  9.91952120e-08  4.10000000e-01 
 4.20000000e-01  3.22327537e-09  3.59664769e-09  4.56692704e-01  3.46674944e-09  3.27211043e-09  3.35827697e-09  4.56692704e-01  1.55079010e-07  9.91949243e-08  4.20000000e-01 
 4.30000000e-01  3.22327538e-09  3.59664769e-09  4.56692710e-01  3.46674944e-09  3.27211043e-09  3.35827697e-09  4.56692710e-01  1.55079022e-07  9.91950557e-08  4.30000000e-01 
 4.40000000e-01  3.22327538e-09  3.59664769e-09  4.56692712e-01  3.46674950e-09  3.27211043e-09  3.35827697e-09  4.56692712e-01  1.55079016e-07  9.91949882e-08  4.40000000e-01 
 4.50000000e-01  3.22327538e-09  3.59664769e-09  4.56692707e-01  3.46674944e-09  3.27211037e-09  3.35827697e-09  4.56692707e-01  1.55079009e-07  9.91947253e-08  4.50000000e-01 
 4.60000000e-01  3.22327537e-09  3.59664769e-09  4.56692699e-01  3.46674944e-09  3.27211043e-09  3.35827697e-09  4.56692699e-01  1.55079007e-07  9.91946045e-08  4.60000000e-01 
 4.70000000e-01  3.22327537e-09  3.59664769e-09  4.56692706e-01  3.46674950e-09  3.27211037e-09  3.35827697e-09  4.56692705e-01  1.55079002e-07  9.91946081e-08  4.70000000e-01 
 4.80000000e-01  3.22327537e-09  3.59664769e-09  4.56692696e-01  3.46674944e-09  3.27211037e-09  3.35827703e-09  4.56692696e-01  1.55079005e-07  9.91945583e-08  4.80000000e-01 
 4.90000000e-01  3.22327537e-09  3.59664769e-09  4.56692704e-01  3.46674950e-09  3.27211043e-09  3.35827697e-09  4.56692704e-01  1.55079004e-07  9.91944731e-08  4.90000000e-01 
 5.00000000e-01  3.22327543e-09  3.59664769e-09  4.56692701e-01  3.46674944e-09  3.27211037e-09  3.35827697e-09  4.56692701e-01  1.55079009e-07  9.91943949e-08  5.00000000e-01 
 5.10000000e-01  3.22327537e-09  3.59664769e-09  4.56692701e-01  3.46674950e-09  3.27211043e-09  3.35827697e-09  4.56692701e-01  1.55078994e-07  9.91943523e-08  5.10000000e-01 
 5.20000000e-01  3.22327538e-09  3.59664769e-09  4.56692712e-01  3.46674944e-09  3.27211043e-09  3.35827697e-09  4.56692712e-01  1.55079026e-07  9.91943168e-08  5.20000000e-01 
 5.30000000e-01  3.22327537e-09  3.59664769e-09  4.56692698e-01  3.46674950e-09  3.27211043e-09  3.35827697e-09  4.56692698e-01  1.55079002e-07  9.91941640e-08  5.30000000e-01 
 5.40000000e-01  3.22327538e-09  3.59664769e-09  4.56692725e-01  3.46674944e-09  3.27211037e-09  3.35827697e-09  4.56692724e-01  1.55079039e-07  9.91941604e-08  5.40000000e-01 
 5.50000000e-01  3.22327543e-09  3.59664769e-09  4.56692706e-01  3.46674950e-09  3.27211043e-09  3.35827697e-09  4.56692706e-01  1.55079026e-07  9.91940716e-08  5.50000000e-01 
 5.60000000e-01  3.22327537e-09  3.59664769e-09  4.56692694e-01  3.46674950e-09  3.27211043e-09  3.35827703e-09  4.56692694e-01  1.55078986e-07  9.91939686e-08  5.60000000e-01 
 5.70000000e-01  3.22327538e-09  3.59664769e-09  4.56692713e-01  3.46674944e-09  3.27211043e-09  3.35827703e-09  4.56692713e-01  1.55079018e-07  9.91938762e-08  5.70000000e-01 
 5.80000000e-01  3.22327543e-09  3.59664769e-09  4.56692703e-01  3.46674944e-09  3.27211043e-09  3.35827703e-09  4.56692703e-01  1.55079009e-07  9.91937128e-08  5.80000000e-01 
 5.90000000e-01  3.22327538e-09  3.59664769e-09  4.56692725e-01  3.46674950e-09  3.27211043e-09  3.35827697e-09  4.56692725e-01  1.55079051e-07  9.91937767e-08  5.90000000e-01 
 6.00000000e-01  3.22327538e-09  3.59664769e-09  4.56692724e-01  3.46674944e-09  3.27211037e-09  3.35827697e-09  4.56692724e-01  1.55079042e-07  9.91937128e-08  6.00000000e-01 
 6.10000000e-01  3.22327537e-09  3.59664769e-09  4.56692695e-01  3.46674944e-09  3.27211043e-09  3.35827703e-09  4.56692694e-01  1.55079008e-07  9.91935281e-08  6.10000000e-01 
 6.20000000e-01  3.22327538e-09  3.59664769e-09  4.56692735e-01  3.46674944e-09  3.27211043e-09  3.35827703e-09  4.56692735e-01  1.55079056e-07  9.91935494e-08  6.20000000e-01 
 6.30000000e-01  3.22327538e-09  3.59664769e-09  4.56692721e-01  3.46674944e-09  3.27211037e-09  3.35827697e-09  4.56692721e-01  1.55079040e-07  9.91934854e-08  6.30000000e-01 
 6.40000000e-01  3.22327543e-09  3.59664769e-09  4.56692704e-01  3.46674944e-09  3.27211043e-09  3.35827697e-09  4.56692704e-01  1.55079004e-07  9.91934073e-08  6.40000000e-01 
 6.50000000e-01  3.22327537e-09  3.59664774e-09  4.56692698e-01  3.46674950e-09  3.27211037e-09  3.35827697e-09  4.56692698e-01  1.55078988e-07  9.91932154e-08  6.50000000e-01 
 6.60000000e-01  3.22327538e-09  3.59664769e-09  4.56692709e-01  3.46674944e-09  3.27211043e-09  3.35827697e-09  4.56692709e-01  1.55079022e-07  9.91932296e-08  6.60000000e-01 
 6.70000000e-01  3.22327543e-09  3.59664768e-09  4.56692678e-01  3.46674949e-09  3.27211043e-09  3.35827697e-09  4.56692678e-01  1.55078958e-07  9.91930449e-08  6.70000000e-01 
 6.80000000e-01  3.22327538e-09  3.59664769e-09  4.56692714e-01  3.46674944e-09  3.27211037e-09  3.35827703e-09  4.56692714e-01  1.55079019e-07  9.91930662e-08  6.80000000e-01 
 6.90000000e-01  3.22327537e-09  3.59664769e-09  4.56692692e-01  3.46674944e-09  3.27211043e-09  3.35827697e-09  4.56692692e-01  1.55078991e-07  9.91930023e-08  6.90000000e-01 
 7.00000000e-01  3.22327543e-09  3.59664769e-09  4.56692703e-01  3.46674944e-09  3.27211043e-09  3.35827703e-09  4.56692703e-01  1.55078998e-07  9.91928530e-08  7.00000000e-01 
 7.10000000e-01  3.22327538e-09  3.59664769e-09  4.56692710e-01  3.46674944e-09  3.27211037e-09  3.35827703e-09  4.56692710e-01  1.55079029e-07  9.91929241e-08  7.10000000e-01 
 7.20000000e-01  3.22327538e-09  3.59664769e-09  4.56692721e-01  3.46674944e-09  3.27211043e-09  3.35827697e-09  4.56692721e-01  1.55079045e-07  9.91928388e-08  7.20000000e-01 
 7.30000000e-01  3.22327543e-09  3.59664775e-09  4.56692708e-01  3.46674950e-09  3.27211043e-09  3.35827697e-09  4.56692708e-01  1.55079018e-07  9.91926967e-08  7.30000000e-01 
 7.40000000e-01  3.22327538e-09  3.59664769e-09  4.56692715e-01  3.46674944e-09  3.27211043e-09  3.35827703e-09  4.56692715e-01  1.55079028e-07  9.91926186e-08  7.40000000e-01 
 7.50000000e-01  3.22327537e-09  3.59664769e-09  4.56692701e-01  3.46674950e-09  3.27211043e-09  3.35827703e-09  4.56692701e-01  1.55079005e-07  9.91926115e-08  7.50000000e-01 
 7.60000000e-01  3.22327537e-09  3.59664769e-09  4.56692699e-01  3.46674944e-09  3.27211043e-09  3.35827697e-09  4.56692699e-01  1.55079000e-07  9.91924409e-08  7.60000000e-01 
 7.70000000e-01  3.22327543e-09  3.59664769e-09  4.56692724e-01  3.46674950e-09  3.27211037e-09  3.35827697e-09  4.56692723e-01  1.55079049e-07  9.91923130e-08  7.70000000e-01 
 7.80000000e-01  3.22327537e-09  3.59664769e-09  4.56692696e-01  3.46674944e-09  3.27211037e-09  3.35827697e-09  4.56692696e-01  1.55079017e-07  9.91922491e-08  7.80000000e-01 
 7.90000000e-01  3.22327537e-09  3.59664774e-09  4.56692700e-01  3.46674950e-09  3.27211043e-09  3.35827703e-09  4.56692700e-01  1.55079003e-07  9.91921922e-08  7.90000000e-01 
 8.00000000e-01  3.22327538e-09  3.59664769e-09  4.56692715e-01  3.46674950e-09  3.27211037e-09  3.35827697e-09  4.56692715e-01  1.55079029e-07  9.91920928e-08  8.00000000e-01 
 8.10000000e-01  3.22327538e-09  3.59664769e-09  4.56692721e-01  3.46674950e-09  3.27211037e-09  3.35827703e-09  4.56692721e-01  1.55079044e-07  9.91921141e-08  8.10000000e-01 
 8.20000000e-01  3.22327538e-09  3.59664769e-09  4.56692717e-01  3.46674944e-09  3.27211037e-09  3.35827697e-09  4.56692717e-01  1.55079032e-07  9.91920501e-08  8.20000000e-01 
 8.30000000e-01  3.22327537e-09  3.59664774e-09  4.56692699e-01  3.46674950e-09  3.27211037e-09  3.35827703e-09  4.56692698e-01  1.55078999e-07  9.91918796e-08  8.30000000e-01 
 8.40000000e-01  3.22327538e-09  3.59664769e-09  4.56692722e-01  3.46674944e-09  3.27211043e-09  3.35827697e-09  4.56692721e-01  1.55079030e-07  9.91919080e-08  8.40000000e-01 
 8.50000000e-01  3.22327537e-09  3.59664769e-09  4.56692701e-01  3.46674950e-09  3.27211043e-09  3.35827703e-09  4.56692701e-01  1.55079015e-07  9.91917517e-08  8.50000000e-01 
 8.60000000e-01  3.22327537e-09  3.59664769e-09  4.56692688e-01  3.46674944e-09  3.27211037e-09  3.35827697e-09  4.56692688e-01  1.55078998e-07  9.91916522e-08  8.60000000e-01 
 8.70000000e-01  3.22327538e-09  3.59664769e-09  4.56692724e-01  3.46674944e-09  3.27211037e-09  3.35827697e-09  4.56692724e-01  1.55079026e-07  9.91917091e-08  8.70000000e-01 
 8.80000000e-01  3.22327538e-09  3.59664769e-09  4.56692717e-01  3.46674950e-09  3.27211043e-09  3.35827703e-09  4.56692717e-01  1.55079042e-07  9.91914959e-08  8.80000000e-01 
 8.90000000e-01  3.22327537e-09  3.59664769e-09  4.56692698e-01  3.46674950e-09  3.27211037e-09  3.35827703e-09  4.56692698e-01  1.55078995e-07  9.91914462e-08  8.90000000e-01 
 9.00000000e-01  3.22327543e-09  3.59664768e-09  4.56692682e-01  3.46674944e-09  3.27211037e-09  3.35827703e-09  4.56692682e-01  1.55078964e-07  9.91913183e-08  9.00000000e-01 
 9.10000000e-01  3.22327537e-09  3.59664774e-09  4.56692690e-01  3.46674950e-09  3.27211043e-09  3.35827703e-09  4.56692690e-01  1.55078968e-07  9.91913325e-08  9.10000000e-01 
 9.20000000e-01  3.22327537e-09  3.59664769e-09  4.56692690e-01  3.46674950e-09  3.27211037e-09  3.35827697e-09  4.56692690e-01  1.55078987e-07  9.91913325e-08  9.20000000e-01 
 9.30000000e-01  3.22327543e-09  3.59664769e-09  4.56692700e-01  3.46674944e-09  3.27211043e-09  3.35827697e-09  4.56692700e-01  1.55079015e-07  9.91911691e-08  9.30000000e-01 
 9.40000000e-01  3.22327537e-09  3.59664774e-09  4.56692690e-01  3.46674950e-09  3.27211037e-09  3.35827697e-09  4.56692690e-01  1.55078996e-07  9.91910483e-08  9.40000000e-01 
 9.50000000e-01  3.22327538e-09  3.59664775e-09  4.56692712e-01  3.46674944e-09  3.27211043e-09  3.35827697e-09  4.56692712e-01  1.55079027e-07  9.91909630e-08  9.50000000e-01 
 9.60000000e-01  3.22327543e-09  3.59664769e-09  4.56692726e-01  3.46674950e-09  3.27211037e-09  3.35827697e-09  4.56692726e-01  1.55079037e-07  9.91908706e-08  9.60000000e-01 
 9.70000000e-01  3.22327537e-09  3.59664768e-09  4.56692682e-01  3.46674949e-09  3.27211043e-09  3.35827703e-09  4.56692682e-01  1.55078987e-07  9.91907640e-08  9.70000000e-01 
 9.80000000e-01  3.22327538e-09  3.59664769e-09  4.56692709e-01  3.46674944e-09  3.27211043e-09  3.35827703e-09  4.56692709e-01  1.55079021e-07  9.91907143e-08  9.80000000e-01 
 9.90000000e-01  3.22327538e-09  3.59664769e-09  4.56692718e-01  3.46674944e-09  3.27211043e-09  3.35827697e-09  4.56692717e-01  1.55079023e-07  9.91906859e-08  9.90000000e-01 
 1.00000000e+00  3.22327537e-09  3.59664769e-09  4.56692696e-01  3.46674950e-09  3.27211037e-09  3.35827703e-09  4.56692696e-01  1.55078998e-07  9.91904088e-08  1.00000000e+00 
 1.01000000e+00  3.22327537e-09  3.59664769e-09  4.56692693e-01  3.46674944e-09  3.27211043e-09  3.35827697e-09  4.56692693e-01  1.55078990e-07  9.91905011e-08  1.01000000e+00 
 1.02000000e+00  3.22327537e-09  3.59664769e-09  4.56692701e-01  3.46674944e-09  3.27211037e-09  3.35827703e-09  4.56692701e-01  1.55079003e-07  9.91903306e-08  1.02000000e+00 
 1.03000000e+00  3.22327538e-09  3.59664769e-09  4.56692710e-01  3.46674950e-09  3.27211037e-09  3.35827697e-09  4.56692710e-01  1.55079006e-07  9.91902951e-08  1.03000000e+00 
 1.04000000e+00  3.22327537e-09  3.59664774e-09  4.56692699e-01  3.46674950e-09  3.27211037e-09  3.35827697e-09  4.56692699e-01  1.55079007e-07  9.91902169e-08  1.04000000e+00 
 1.05000000e+00  3.22327538e-09  3.59664769e-09  4.56692714e-01  3.46674944e-09  3.27211037e-09  3.35827697e-09  4.56692714e-01  1.55079039e-07  9.91902027e-08  1.05000000e+00 
 1.06000000e+00  3.22327537e-09  3.59664769e-09  4.56692693e-01  3.46674950e-09  3.27211037e-09  3.35827697e-09  4.56692692e-01  1.55078990e-07  9.91899824e-08  1.06000000e+00 
 1.07000000e+00  3.22327537e-09  3.59664769e-09  4.56692698e-01  3.46674950e-09  3.27211037e-09  3.35827697e-09  4.56692698e-01  1.55078996e-07  9.91899824e-08  1.07000000e+00 
 1.08000000e+00  3.22327537e-09  3.59664774e-09  4.56692698e-01  3.46674950e-09  3.27211037e-09  3.35827697e-09  4.56692698e-01  1.55079007e-07  9.91897835e-08  1.08000000e+00 
 1.09000000e+00  3.22327538e-09  3.59664769e-09  4.56692729e-01  3.46674944e-09  3.27211037e-09  3.35827697e-09  4.56692729e-01  1.55079037e-07  9.91899043e-08  1.09000000e+00 
 1.10000000e+00  3.22327538e-09  3.59664769e-09  4.56692727e-01  3.46674950e-09  3.27211037e-09  3.35827697e-09  4.56692727e-01  1.55079045e-07  9.91899043e-08  1.10000000e+00 
