 v-sweep         v(b0)           v(b1)           v(b2)           v(b3)           v(b4)           v(b5)           v(b6)           i(vbias)        i(viout)        v(vout)        
 0.00000000e+00  3.36415209e-09  3.16919942e-09  4.58969335e-01  4.58969335e-01  3.71592943e-09  4.58969335e-01  4.58969335e-01  1.61916819e-07  1.56494228e-07  0.00000000e+00 
 1.00000000e-02  3.36415213e-09  3.16919940e-09  4.58969323e-01  4.58969324e-01  3.71592941e-09  4.58969323e-01  4.58969323e-01  1.61916793e-07  1.56493813e-07  1.00000000e-02 
 2.00000000e-02  3.36415207e-09  3.16919940e-09  4.58969308e-01  4.58969308e-01  3.71592941e-09  4.58969308e-01  4.58969308e-01  1.61916770e-07  1.56493252e-07  2.00000000e-02 
 3.00000000e-02  3.36415213e-09  3.16919940e-09  4.58969327e-01  4.58969327e-01  3.71592935e-09  4.58969327e-01  4.58969327e-01  1.61916804e-07  1.56493029e-07  3.00000000e-02 
 4.00000000e-02  3.36415207e-09  3.16919940e-09  4.58969322e-01  4.58969323e-01  3.71592935e-09  4.58969322e-01  4.58969322e-01  1.61916796e-07  1.56492582e-07  4.00000000e-02 
 5.00000000e-02  3.36415207e-09  3.16919940e-09  4.58969312e-01  4.58969312e-01  3.71592941e-09  4.58969312e-01  4.58969312e-01  1.61916784e-07  1.56492232e-07  5.00000000e-02 
 6.00000000e-02  3.36415207e-09  3.16919934e-09  4.58969318e-01  4.58969319e-01  3.71592941e-09  4.58969318e-01  4.58969318e-01  1.61916795e-07  1.56491823e-07  6.00000000e-02 
 7.00000000e-02  3.36415207e-09  3.16919934e-09  4.58969322e-01  4.58969322e-01  3.71592935e-09  4.58969322e-01  4.58969322e-01  1.61916803e-07  1.56491464e-07  7.00000000e-02 
 8.00000000e-02  3.36415207e-09  3.16919934e-09  4.58969336e-01  4.58969336e-01  3.71592935e-09  4.58969336e-01  4.58969336e-01  1.61916809e-07  1.56491169e-07  8.00000000e-02 
 9.00000000e-02  3.36415213e-09  3.16919940e-09  4.58969323e-01  4.58969324e-01  3.71592941e-09  4.58969323e-01  4.58969324e-01  1.61916793e-07  1.56490881e-07  9.00000000e-02 
 1.00000000e-01  3.36415213e-09  3.16919934e-09  4.58969322e-01  4.58969322e-01  3.71592941e-09  4.58969322e-01  4.58969322e-01  1.61916792e-07  1.56490586e-07  1.00000000e-01 
 1.10000000e-01  3.36415213e-09  3.16919940e-09  4.58969317e-01  4.58969317e-01  3.71592941e-09  4.58969316e-01  4.58969317e-01  1.61916794e-07  1.56490153e-07  1.10000000e-01 
 1.20000000e-01  3.36415213e-09  3.16919934e-09  4.58969328e-01  4.58969328e-01  3.71592941e-09  4.58969328e-01  4.58969328e-01  1.61916801e-07  1.56489933e-07  1.20000000e-01 
 1.30000000e-01  3.36415213e-09  3.16919934e-09  4.58969328e-01  4.58969329e-01  3.71592935e-09  4.58969328e-01  4.58969328e-01  1.61916802e-07  1.56489632e-07  1.30000000e-01 
 1.40000000e-01  3.36415213e-09  3.16919940e-09  4.58969337e-01  4.58969337e-01  3.71592941e-09  4.58969337e-01  4.58969337e-01  1.61916831e-07  1.56489333e-07  1.40000000e-01 
 1.50000000e-01  3.36415207e-09  3.16919940e-09  4.58969309e-01  4.58969309e-01  3.71592935e-09  4.58969309e-01  4.58969309e-01  1.61916786e-07  1.56489003e-07  1.50000000e-01 
 1.60000000e-01  3.36415213e-09  3.16919940e-09  4.58969333e-01  4.58969334e-01  3.71592941e-09  4.58969333e-01  4.58969333e-01  1.61916809e-07  1.56488939e-07  1.60000000e-01 
 1.70000000e-01  3.36415212e-09  3.16919934e-09  4.58969305e-01  4.58969305e-01  3.71592941e-09  4.58969305e-01  4.58969305e-01  1.61916769e-07  1.56488452e-07  1.70000000e-01 
 1.80000000e-01  3.36415207e-09  3.16919940e-09  4.58969295e-01  4.58969295e-01  3.71592941e-09  4.58969295e-01  4.58969295e-01  1.61916746e-07  1.56488351e-07  1.80000000e-01 
 1.90000000e-01  3.36415213e-09  3.16919940e-09  4.58969316e-01  4.58969316e-01  3.71592941e-09  4.58969316e-01  4.58969316e-01  1.61916779e-07  1.56488190e-07  1.90000000e-01 
 2.00000000e-01  3.36415207e-09  3.16919940e-09  4.58969339e-01  4.58969339e-01  3.71592935e-09  4.58969339e-01  4.58969339e-01  1.61916813e-07  1.56487971e-07  2.00000000e-01 
 2.10000000e-01  3.36415207e-09  3.16919940e-09  4.58969303e-01  4.58969303e-01  3.71592941e-09  4.58969303e-01  4.58969303e-01  1.61916758e-07  1.56487701e-07  2.10000000e-01 
 2.20000000e-01  3.36415207e-09  3.16919940e-09  4.58969317e-01  4.58969318e-01  3.71592935e-09  4.58969317e-01  4.58969317e-01  1.61916782e-07  1.56487566e-07  2.20000000e-01 
 2.30000000e-01  3.36415213e-09  3.16919940e-09  4.58969310e-01  4.58969310e-01  3.71592935e-09  4.58969310e-01  4.58969310e-01  1.61916778e-07  1.56487411e-07  2.30000000e-01 
 2.40000000e-01  3.36415207e-09  3.16919940e-09  4.58969317e-01  4.58969317e-01  3.71592935e-09  4.58969317e-01  4.58969317e-01  1.61916781e-07  1.56487127e-07  2.40000000e-01 
 2.50000000e-01  3.36415213e-09  3.16919934e-09  4.58969336e-01  4.58969336e-01  3.71592941e-09  4.58969335e-01  4.58969336e-01  1.61916816e-07  1.56486978e-07  2.50000000e-01 
 2.60000000e-01  3.36415213e-09  3.16919940e-09  4.58969324e-01  4.58969324e-01  3.71592935e-09  4.58969323e-01  4.58969324e-01  1.61916786e-07  1.56486772e-07  2.60000000e-01 
 2.70000000e-01  3.36415212e-09  3.16919934e-09  4.58969309e-01  4.58969309e-01  3.71592941e-09  4.58969309e-01  4.58969309e-01  1.61916774e-07  1.56486607e-07  2.70000000e-01 
 2.80000000e-01  3.36415207e-09  3.16919940e-09  4.58969312e-01  4.58969312e-01  3.71592935e-09  4.58969312e-01  4.58969312e-01  1.61916765e-07  1.56486342e-07  2.80000000e-01 
 2.90000000e-01  3.36415212e-09  3.16919940e-09  4.58969303e-01  4.58969303e-01  3.71592941e-09  4.58969303e-01  4.58969303e-01  1.61916776e-07  1.56486365e-07  2.90000000e-01 
 3.00000000e-01  3.36415207e-09  3.16919934e-09  4.58969320e-01  4.58969321e-01  3.71592941e-09  4.58969320e-01  4.58969320e-01  1.61916795e-07  1.56486305e-07  3.00000000e-01 
 3.10000000e-01  3.36415207e-09  3.16919940e-09  4.58969343e-01  4.58969343e-01  3.71592941e-09  4.58969343e-01  4.58969343e-01  1.61916827e-07  1.56486081e-07  3.10000000e-01 
 3.20000000e-01  3.36415213e-09  3.16919934e-09  4.58969330e-01  4.58969330e-01  3.71592941e-09  4.58969330e-01  4.58969330e-01  1.61916788e-07  1.56485982e-07  3.20000000e-01 
 3.30000000e-01  3.36415207e-09  3.16919940e-09  4.58969320e-01  4.58969320e-01  3.71592941e-09  4.58969320e-01  4.58969320e-01  1.61916794e-07  1.56485651e-07  3.30000000e-01 
 3.40000000e-01  3.36415207e-09  3.16919940e-09  4.58969328e-01  4.58969328e-01  3.71592941e-09  4.58969328e-01  4.58969328e-01  1.61916813e-07  1.56485722e-07  3.40000000e-01 
 3.50000000e-01  3.36415207e-09  3.16919934e-09  4.58969336e-01  4.58969336e-01  3.71592941e-09  4.58969336e-01  4.58969336e-01  1.61916800e-07  1.56485509e-07  3.50000000e-01 
 3.60000000e-01  3.36415207e-09  3.16919940e-09  4.58969320e-01  4.58969320e-01  3.71592941e-09  4.58969320e-01  4.58969320e-01  1.61916789e-07  1.56485275e-07  3.60000000e-01 
 3.70000000e-01  3.36415207e-09  3.16919934e-09  4.58969325e-01  4.58969325e-01  3.71592935e-09  4.58969325e-01  4.58969325e-01  1.61916789e-07  1.56485253e-07  3.70000000e-01 
 3.80000000e-01  3.36415207e-09  3.16919934e-09  4.58969327e-01  4.58969327e-01  3.71592941e-09  4.58969326e-01  4.58969327e-01  1.61916804e-07  1.56485054e-07  3.80000000e-01 
 3.90000000e-01  3.36415213e-09  3.16919940e-09  4.58969333e-01  4.58969333e-01  3.71592941e-09  4.58969333e-01  4.58969333e-01  1.61916814e-07  1.56485036e-07  3.90000000e-01 
 4.00000000e-01  3.36415207e-09  3.16919940e-09  4.58969337e-01  4.58969337e-01  3.71592941e-09  4.58969337e-01  4.58969337e-01  1.61916813e-07  1.56484873e-07  4.00000000e-01 
 4.10000000e-01  3.36415207e-09  3.16919940e-09  4.58969323e-01  4.58969323e-01  3.71592941e-09  4.58969323e-01  4.58969323e-01  1.61916802e-07  1.56484802e-07  4.10000000e-01 
 4.20000000e-01  3.36415207e-09  3.16919940e-09  4.58969347e-01  4.58969347e-01  3.71592935e-09  4.58969347e-01  4.58969347e-01  1.61916838e-07  1.56484667e-07  4.20000000e-01 
 4.30000000e-01  3.36415207e-09  3.16919934e-09  4.58969320e-01  4.58969320e-01  3.71592935e-09  4.58969320e-01  4.58969320e-01  1.61916775e-07  1.56484422e-07  4.30000000e-01 
 4.40000000e-01  3.36415207e-09  3.16919940e-09  4.58969319e-01  4.58969319e-01  3.71592935e-09  4.58969319e-01  4.58969319e-01  1.61916783e-07  1.56484376e-07  4.40000000e-01 
 4.50000000e-01  3.36415213e-09  3.16919940e-09  4.58969327e-01  4.58969327e-01  3.71592935e-09  4.58969327e-01  4.58969327e-01  1.61916816e-07  1.56484244e-07  4.50000000e-01 
 4.60000000e-01  3.36415207e-09  3.16919934e-09  4.58969321e-01  4.58969321e-01  3.71592941e-09  4.58969321e-01  4.58969321e-01  1.61916791e-07  1.56484177e-07  4.60000000e-01 
 4.70000000e-01  3.36415207e-09  3.16919934e-09  4.58969306e-01  4.58969307e-01  3.71592941e-09  4.58969306e-01  4.58969306e-01  1.61916768e-07  1.56483981e-07  4.70000000e-01 
 4.80000000e-01  3.36415207e-09  3.16919940e-09  4.58969321e-01  4.58969321e-01  3.71592941e-09  4.58969321e-01  4.58969321e-01  1.61916794e-07  1.56483924e-07  4.80000000e-01 
 4.90000000e-01  3.36415207e-09  3.16919940e-09  4.58969327e-01  4.58969327e-01  3.71592941e-09  4.58969327e-01  4.58969327e-01  1.61916801e-07  1.56483747e-07  4.90000000e-01 
 5.00000000e-01  3.36415212e-09  3.16919934e-09  4.58969306e-01  4.58969307e-01  3.71592941e-09  4.58969306e-01  4.58969306e-01  1.61916777e-07  1.56483534e-07  5.00000000e-01 
 5.10000000e-01  3.36415207e-09  3.16919940e-09  4.58969323e-01  4.58969323e-01  3.71592941e-09  4.58969323e-01  4.58969323e-01  1.61916797e-07  1.56483456e-07  5.10000000e-01 
 5.20000000e-01  3.36415207e-09  3.16919934e-09  4.58969310e-01  4.58969310e-01  3.71592941e-09  4.58969310e-01  4.58969310e-01  1.61916767e-07  1.56483416e-07  5.20000000e-01 
 5.30000000e-01  3.36415207e-09  3.16919934e-09  4.58969317e-01  4.58969318e-01  3.71592935e-09  4.58969317e-01  4.58969317e-01  1.61916792e-07  1.56483239e-07  5.30000000e-01 
 5.40000000e-01  3.36415207e-09  3.16919940e-09  4.58969339e-01  4.58969339e-01  3.71592941e-09  4.58969339e-01  4.58969339e-01  1.61916833e-07  1.56483292e-07  5.40000000e-01 
 5.50000000e-01  3.36415207e-09  3.16919934e-09  4.58969311e-01  4.58969311e-01  3.71592941e-09  4.58969311e-01  4.58969311e-01  1.61916762e-07  1.56482955e-07  5.50000000e-01 
 5.60000000e-01  3.36415207e-09  3.16919940e-09  4.58969301e-01  4.58969301e-01  3.71592935e-09  4.58969301e-01  4.58969301e-01  1.61916768e-07  1.56482923e-07  5.60000000e-01 
 5.70000000e-01  3.36415212e-09  3.16919940e-09  4.58969308e-01  4.58969308e-01  3.71592935e-09  4.58969308e-01  4.58969308e-01  1.61916771e-07  1.56482677e-07  5.70000000e-01 
 5.80000000e-01  3.36415213e-09  3.16919940e-09  4.58969346e-01  4.58969346e-01  3.71592935e-09  4.58969346e-01  4.58969346e-01  1.61916830e-07  1.56482763e-07  5.80000000e-01 
 5.90000000e-01  3.36415213e-09  3.16919940e-09  4.58969339e-01  4.58969339e-01  3.71592941e-09  4.58969339e-01  4.58969339e-01  1.61916814e-07  1.56482614e-07  5.90000000e-01 
 6.00000000e-01  3.36415207e-09  3.16919940e-09  4.58969322e-01  4.58969322e-01  3.71592935e-09  4.58969322e-01  4.58969322e-01  1.61916807e-07  1.56482500e-07  6.00000000e-01 
 6.10000000e-01  3.36415207e-09  3.16919934e-09  4.58969331e-01  4.58969331e-01  3.71592935e-09  4.58969330e-01  4.58969331e-01  1.61916806e-07  1.56482464e-07  6.10000000e-01 
 6.20000000e-01  3.36415207e-09  3.16919935e-09  4.58969339e-01  4.58969339e-01  3.71592935e-09  4.58969339e-01  4.58969339e-01  1.61916817e-07  1.56482429e-07  6.20000000e-01 
 6.30000000e-01  3.36415207e-09  3.16919934e-09  4.58969304e-01  4.58969304e-01  3.71592935e-09  4.58969304e-01  4.58969304e-01  1.61916761e-07  1.56482102e-07  6.30000000e-01 
 6.40000000e-01  3.36415207e-09  3.16919934e-09  4.58969300e-01  4.58969300e-01  3.71592941e-09  4.58969300e-01  4.58969300e-01  1.61916750e-07  1.56482017e-07  6.40000000e-01 
 6.50000000e-01  3.36415207e-09  3.16919934e-09  4.58969317e-01  4.58969317e-01  3.71592941e-09  4.58969317e-01  4.58969317e-01  1.61916774e-07  1.56481875e-07  6.50000000e-01 
 6.60000000e-01  3.36415207e-09  3.16919934e-09  4.58969329e-01  4.58969329e-01  3.71592941e-09  4.58969329e-01  4.58969329e-01  1.61916803e-07  1.56481811e-07  6.60000000e-01 
 6.70000000e-01  3.36415207e-09  3.16919940e-09  4.58969349e-01  4.58969349e-01  3.71592941e-09  4.58969349e-01  4.58969349e-01  1.61916834e-07  1.56481690e-07  6.70000000e-01 
 6.80000000e-01  3.36415213e-09  3.16919940e-09  4.58969322e-01  4.58969323e-01  3.71592935e-09  4.58969322e-01  4.58969322e-01  1.61916788e-07  1.56481470e-07  6.80000000e-01 
 6.90000000e-01  3.36415207e-09  3.16919940e-09  4.58969311e-01  4.58969311e-01  3.71592941e-09  4.58969311e-01  4.58969311e-01  1.61916769e-07  1.56481477e-07  6.90000000e-01 
 7.00000000e-01  3.36415213e-09  3.16919935e-09  4.58969340e-01  4.58969341e-01  3.71592935e-09  4.58969340e-01  4.58969340e-01  1.61916827e-07  1.56481391e-07  7.00000000e-01 
 7.10000000e-01  3.36415213e-09  3.16919940e-09  4.58969332e-01  4.58969332e-01  3.71592935e-09  4.58969332e-01  4.58969332e-01  1.61916800e-07  1.56481285e-07  7.10000000e-01 
 7.20000000e-01  3.36415207e-09  3.16919940e-09  4.58969336e-01  4.58969336e-01  3.71592935e-09  4.58969336e-01  4.58969336e-01  1.61916809e-07  1.56481178e-07  7.20000000e-01 
 7.30000000e-01  3.36415207e-09  3.16919934e-09  4.58969325e-01  4.58969325e-01  3.71592935e-09  4.58969325e-01  4.58969325e-01  1.61916794e-07  1.56481121e-07  7.30000000e-01 
 7.40000000e-01  3.36415213e-09  3.16919934e-09  4.58969331e-01  4.58969331e-01  3.71592941e-09  4.58969331e-01  4.58969331e-01  1.61916802e-07  1.56480979e-07  7.40000000e-01 
 7.50000000e-01  3.36415213e-09  3.16919940e-09  4.58969347e-01  4.58969347e-01  3.71592935e-09  4.58969347e-01  4.58969347e-01  1.61916821e-07  1.56480937e-07  7.50000000e-01 
 7.60000000e-01  3.36415207e-09  3.16919934e-09  4.58969312e-01  4.58969312e-01  3.71592935e-09  4.58969312e-01  4.58969312e-01  1.61916770e-07  1.56480723e-07  7.60000000e-01 
 7.70000000e-01  3.36415212e-09  3.16919934e-09  4.58969284e-01  4.58969284e-01  3.71592935e-09  4.58969284e-01  4.58969284e-01  1.61916737e-07  1.56480432e-07  7.70000000e-01 
 7.80000000e-01  3.36415207e-09  3.16919934e-09  4.58969298e-01  4.58969298e-01  3.71592941e-09  4.58969298e-01  4.58969298e-01  1.61916745e-07  1.56480283e-07  7.80000000e-01 
 7.90000000e-01  3.36415207e-09  3.16919940e-09  4.58969332e-01  4.58969332e-01  3.71592935e-09  4.58969332e-01  4.58969332e-01  1.61916808e-07  1.56480311e-07  7.90000000e-01 
 8.00000000e-01  3.36415207e-09  3.16919934e-09  4.58969330e-01  4.58969330e-01  3.71592941e-09  4.58969330e-01  4.58969330e-01  1.61916804e-07  1.56480084e-07  8.00000000e-01 
 8.10000000e-01  3.36415213e-09  3.16919940e-09  4.58969314e-01  4.58969314e-01  3.71592941e-09  4.58969314e-01  4.58969314e-01  1.61916790e-07  1.56479963e-07  8.10000000e-01 
 8.20000000e-01  3.36415207e-09  3.16919940e-09  4.58969330e-01  4.58969330e-01  3.71592935e-09  4.58969330e-01  4.58969330e-01  1.61916803e-07  1.56479913e-07  8.20000000e-01 
 8.30000000e-01  3.36415207e-09  3.16919940e-09  4.58969306e-01  4.58969306e-01  3.71592941e-09  4.58969306e-01  4.58969306e-01  1.61916769e-07  1.56479828e-07  8.30000000e-01 
 8.40000000e-01  3.36415207e-09  3.16919940e-09  4.58969311e-01  4.58969311e-01  3.71592941e-09  4.58969311e-01  4.58969311e-01  1.61916780e-07  1.56479643e-07  8.40000000e-01 
 8.50000000e-01  3.36415207e-09  3.16919940e-09  4.58969333e-01  4.58969333e-01  3.71592935e-09  4.58969333e-01  4.58969333e-01  1.61916832e-07  1.56479629e-07  8.50000000e-01 
 8.60000000e-01  3.36415207e-09  3.16919940e-09  4.58969308e-01  4.58969308e-01  3.71592941e-09  4.58969308e-01  4.58969308e-01  1.61916778e-07  1.56479452e-07  8.60000000e-01 
 8.70000000e-01  3.36415207e-09  3.16919940e-09  4.58969312e-01  4.58969312e-01  3.71592941e-09  4.58969312e-01  4.58969312e-01  1.61916782e-07  1.56479210e-07  8.70000000e-01 
 8.80000000e-01  3.36415212e-09  3.16919934e-09  4.58969307e-01  4.58969307e-01  3.71592935e-09  4.58969307e-01  4.58969307e-01  1.61916788e-07  1.56479160e-07  8.80000000e-01 
 8.90000000e-01  3.36415207e-09  3.16919934e-09  4.58969333e-01  4.58969333e-01  3.71592941e-09  4.58969333e-01  4.58969333e-01  1.61916809e-07  1.56479196e-07  8.90000000e-01 
 9.00000000e-01  3.36415207e-09  3.16919940e-09  4.58969321e-01  4.58969321e-01  3.71592935e-09  4.58969320e-01  4.58969321e-01  1.61916799e-07  1.56478954e-07  9.00000000e-01 
 9.10000000e-01  3.36415213e-09  3.16919934e-09  4.58969318e-01  4.58969318e-01  3.71592941e-09  4.58969318e-01  4.58969318e-01  1.61916795e-07  1.56478734e-07  9.10000000e-01 
 9.20000000e-01  3.36415213e-09  3.16919935e-09  4.58969342e-01  4.58969342e-01  3.71592941e-09  4.58969342e-01  4.58969342e-01  1.61916824e-07  1.56478748e-07  9.20000000e-01 
 9.30000000e-01  3.36415213e-09  3.16919934e-09  4.58969325e-01  4.58969325e-01  3.71592935e-09  4.58969325e-01  4.58969325e-01  1.61916789e-07  1.56478521e-07  9.30000000e-01 
 9.40000000e-01  3.36415207e-09  3.16919934e-09  4.58969336e-01  4.58969336e-01  3.71592935e-09  4.58969335e-01  4.58969336e-01  1.61916811e-07  1.56478499e-07  9.40000000e-01 
 9.50000000e-01  3.36415207e-09  3.16919934e-09  4.58969308e-01  4.58969308e-01  3.71592941e-09  4.58969308e-01  4.58969308e-01  1.61916767e-07  1.56478343e-07  9.50000000e-01 
 9.60000000e-01  3.36415212e-09  3.16919940e-09  4.58969294e-01  4.58969295e-01  3.71592941e-09  4.58969294e-01  4.58969294e-01  1.61916752e-07  1.56478031e-07  9.60000000e-01 
 9.70000000e-01  3.36415207e-09  3.16919940e-09  4.58969306e-01  4.58969307e-01  3.71592935e-09  4.58969306e-01  4.58969306e-01  1.61916768e-07  1.56478038e-07  9.70000000e-01 
 9.80000000e-01  3.36415207e-09  3.16919940e-09  4.58969310e-01  4.58969310e-01  3.71592935e-09  4.58969310e-01  4.58969310e-01  1.61916775e-07  1.56477903e-07  9.80000000e-01 
 9.90000000e-01  3.36415207e-09  3.16919940e-09  4.58969306e-01  4.58969306e-01  3.71592941e-09  4.58969306e-01  4.58969306e-01  1.61916766e-07  1.56477618e-07  9.90000000e-01 
 1.00000000e+00  3.36415213e-09  3.16919934e-09  4.58969335e-01  4.58969335e-01  3.71592941e-09  4.58969335e-01  4.58969335e-01  1.61916802e-07  1.56477761e-07  1.00000000e+00 
 1.01000000e+00  3.36415213e-09  3.16919940e-09  4.58969329e-01  4.58969329e-01  3.71592941e-09  4.58969328e-01  4.58969329e-01  1.61916790e-07  1.56477476e-07  1.01000000e+00 
 1.02000000e+00  3.36415207e-09  3.16919940e-09  4.58969323e-01  4.58969323e-01  3.71592935e-09  4.58969323e-01  4.58969323e-01  1.61916790e-07  1.56477348e-07  1.02000000e+00 
 1.03000000e+00  3.36415213e-09  3.16919934e-09  4.58969322e-01  4.58969322e-01  3.71592935e-09  4.58969322e-01  4.58969322e-01  1.61916800e-07  1.56477249e-07  1.03000000e+00 
 1.04000000e+00  3.36415213e-09  3.16919940e-09  4.58969315e-01  4.58969315e-01  3.71592935e-09  4.58969314e-01  4.58969315e-01  1.61916781e-07  1.56477093e-07  1.04000000e+00 
 1.05000000e+00  3.36415213e-09  3.16919934e-09  4.58969336e-01  4.58969336e-01  3.71592941e-09  4.58969336e-01  4.58969336e-01  1.61916822e-07  1.56477000e-07  1.05000000e+00 
 1.06000000e+00  3.36415207e-09  3.16919934e-09  4.58969315e-01  4.58969315e-01  3.71592941e-09  4.58969315e-01  4.58969315e-01  1.61916785e-07  1.56476766e-07  1.06000000e+00 
 1.07000000e+00  3.36415207e-09  3.16919934e-09  4.58969337e-01  4.58969337e-01  3.71592935e-09  4.58969337e-01  4.58969337e-01  1.61916817e-07  1.56476681e-07  1.07000000e+00 
 1.08000000e+00  3.36415207e-09  3.16919940e-09  4.58969330e-01  4.58969330e-01  3.71592941e-09  4.58969330e-01  4.58969330e-01  1.61916797e-07  1.56476624e-07  1.08000000e+00 
 1.09000000e+00  3.36415212e-09  3.16919940e-09  4.58969307e-01  4.58969307e-01  3.71592941e-09  4.58969307e-01  4.58969307e-01  1.61916787e-07  1.56476361e-07  1.09000000e+00 
 1.10000000e+00  3.36415213e-09  3.16919934e-09  4.58969316e-01  4.58969316e-01  3.71592941e-09  4.58969316e-01  4.58969316e-01  1.61916781e-07  1.56476240e-07  1.10000000e+00 
