 v-sweep         v(b0)           v(b1)           v(b2)           v(b3)           v(b4)           v(b5)           v(b6)           i(vbias)        i(viout)        v(vout)        
 0.00000000e+00  4.57969854e-01  4.57969853e-01  4.57969853e-01  3.19964692e-09  4.57969853e-01  4.57969853e-01  4.57969854e-01  1.57687884e-07  1.80241197e-07  0.00000000e+00 
 1.00000000e-02  4.57969869e-01  4.57969869e-01  4.57969869e-01  3.19964696e-09  4.57969869e-01  4.57969869e-01  4.57969869e-01  1.57687887e-07  1.80240745e-07  1.00000000e-02 
 2.00000000e-02  4.57969904e-01  4.57969904e-01  4.57969904e-01  3.19964696e-09  4.57969904e-01  4.57969904e-01  4.57969904e-01  1.57687955e-07  1.80240529e-07  2.00000000e-02 
 3.00000000e-02  4.57969907e-01  4.57969906e-01  4.57969906e-01  3.19964696e-09  4.57969906e-01  4.57969906e-01  4.57969907e-01  1.57687969e-07  1.80239917e-07  3.00000000e-02 
 4.00000000e-02  4.57969878e-01  4.57969877e-01  4.57969877e-01  3.19964696e-09  4.57969877e-01  4.57969877e-01  4.57969878e-01  1.57687923e-07  1.80239443e-07  4.00000000e-02 
 5.00000000e-02  4.57969871e-01  4.57969871e-01  4.57969871e-01  3.19964696e-09  4.57969871e-01  4.57969871e-01  4.57969871e-01  1.57687897e-07  1.80239120e-07  5.00000000e-02 
 6.00000000e-02  4.57969867e-01  4.57969867e-01  4.57969867e-01  3.19964696e-09  4.57969867e-01  4.57969867e-01  4.57969868e-01  1.57687879e-07  1.80238605e-07  6.00000000e-02 
 7.00000000e-02  4.57969890e-01  4.57969890e-01  4.57969890e-01  3.19964696e-09  4.57969890e-01  4.57969890e-01  4.57969890e-01  1.57687932e-07  1.80238322e-07  7.00000000e-02 
 8.00000000e-02  4.57969877e-01  4.57969877e-01  4.57969877e-01  3.19964696e-09  4.57969877e-01  4.57969877e-01  4.57969877e-01  1.57687924e-07  1.80237876e-07  8.00000000e-02 
 9.00000000e-02  4.57969843e-01  4.57969843e-01  4.57969843e-01  3.19964690e-09  4.57969843e-01  4.57969843e-01  4.57969843e-01  1.57687856e-07  1.80237415e-07  9.00000000e-02 
 1.00000000e-01  4.57969913e-01  4.57969913e-01  4.57969913e-01  3.19964697e-09  4.57969913e-01  4.57969913e-01  4.57969913e-01  1.57687968e-07  1.80237461e-07  1.00000000e-01 
 1.10000000e-01  4.57969890e-01  4.57969890e-01  4.57969890e-01  3.19964695e-09  4.57969890e-01  4.57969890e-01  4.57969890e-01  1.57687933e-07  1.80237000e-07  1.10000000e-01 
 1.20000000e-01  4.57969892e-01  4.57969892e-01  4.57969892e-01  3.19964696e-09  4.57969892e-01  4.57969892e-01  4.57969892e-01  1.57687938e-07  1.80236632e-07  1.20000000e-01 
 1.30000000e-01  4.57969904e-01  4.57969904e-01  4.57969904e-01  3.19964696e-09  4.57969904e-01  4.57969904e-01  4.57969904e-01  1.57687957e-07  1.80236463e-07  1.30000000e-01 
 1.40000000e-01  4.57969873e-01  4.57969873e-01  4.57969873e-01  3.19964690e-09  4.57969873e-01  4.57969873e-01  4.57969873e-01  1.57687909e-07  1.80236030e-07  1.40000000e-01 
 1.50000000e-01  4.57969877e-01  4.57969877e-01  4.57969877e-01  3.19964691e-09  4.57969877e-01  4.57969877e-01  4.57969877e-01  1.57687915e-07  1.80235817e-07  1.50000000e-01 
 1.60000000e-01  4.57969876e-01  4.57969875e-01  4.57969875e-01  3.19964689e-09  4.57969876e-01  4.57969875e-01  4.57969876e-01  1.57687897e-07  1.80235524e-07  1.60000000e-01 
 1.70000000e-01  4.57969882e-01  4.57969882e-01  4.57969882e-01  3.19964697e-09  4.57969882e-01  4.57969882e-01  4.57969882e-01  1.57687934e-07  1.80235354e-07  1.70000000e-01 
 1.80000000e-01  4.57969886e-01  4.57969885e-01  4.57969885e-01  3.19964695e-09  4.57969885e-01  4.57969885e-01  4.57969886e-01  1.57687934e-07  1.80234961e-07  1.80000000e-01 
 1.90000000e-01  4.57969883e-01  4.57969883e-01  4.57969883e-01  3.19964696e-09  4.57969883e-01  4.57969883e-01  4.57969884e-01  1.57687917e-07  1.80234766e-07  1.90000000e-01 
 2.00000000e-01  4.57969885e-01  4.57969885e-01  4.57969885e-01  3.19964696e-09  4.57969885e-01  4.57969885e-01  4.57969885e-01  1.57687918e-07  1.80234503e-07  2.00000000e-01 
 2.10000000e-01  4.57969866e-01  4.57969866e-01  4.57969866e-01  3.19964696e-09  4.57969866e-01  4.57969866e-01  4.57969866e-01  1.57687906e-07  1.80234291e-07  2.10000000e-01 
 2.20000000e-01  4.57969893e-01  4.57969893e-01  4.57969892e-01  3.19964690e-09  4.57969893e-01  4.57969892e-01  4.57969893e-01  1.57687922e-07  1.80234100e-07  2.20000000e-01 
 2.30000000e-01  4.57969899e-01  4.57969899e-01  4.57969899e-01  3.19964691e-09  4.57969899e-01  4.57969899e-01  4.57969899e-01  1.57687943e-07  1.80233874e-07  2.30000000e-01 
 2.40000000e-01  4.57969895e-01  4.57969894e-01  4.57969894e-01  3.19964695e-09  4.57969894e-01  4.57969894e-01  4.57969895e-01  1.57687941e-07  1.80233764e-07  2.40000000e-01 
 2.50000000e-01  4.57969921e-01  4.57969921e-01  4.57969921e-01  3.19964696e-09  4.57969921e-01  4.57969921e-01  4.57969922e-01  1.57687984e-07  1.80233600e-07  2.50000000e-01 
 2.60000000e-01  4.57969906e-01  4.57969906e-01  4.57969906e-01  3.19964690e-09  4.57969906e-01  4.57969906e-01  4.57969906e-01  1.57687956e-07  1.80233322e-07  2.60000000e-01 
 2.70000000e-01  4.57969886e-01  4.57969886e-01  4.57969886e-01  3.19964696e-09  4.57969886e-01  4.57969886e-01  4.57969886e-01  1.57687933e-07  1.80233179e-07  2.70000000e-01 
 2.80000000e-01  4.57969859e-01  4.57969859e-01  4.57969859e-01  3.19964696e-09  4.57969859e-01  4.57969859e-01  4.57969859e-01  1.57687894e-07  1.80232902e-07  2.80000000e-01 
 2.90000000e-01  4.57969891e-01  4.57969890e-01  4.57969890e-01  3.19964696e-09  4.57969890e-01  4.57969890e-01  4.57969891e-01  1.57687932e-07  1.80232746e-07  2.90000000e-01 
 3.00000000e-01  4.57969881e-01  4.57969881e-01  4.57969881e-01  3.19964696e-09  4.57969881e-01  4.57969881e-01  4.57969881e-01  1.57687927e-07  1.80232508e-07  3.00000000e-01 
 3.10000000e-01  4.57969885e-01  4.57969885e-01  4.57969885e-01  3.19964696e-09  4.57969885e-01  4.57969885e-01  4.57969885e-01  1.57687936e-07  1.80232323e-07  3.10000000e-01 
 3.20000000e-01  4.57969896e-01  4.57969895e-01  4.57969895e-01  3.19964696e-09  4.57969896e-01  4.57969895e-01  4.57969896e-01  1.57687944e-07  1.80232199e-07  3.20000000e-01 
 3.30000000e-01  4.57969906e-01  4.57969906e-01  4.57969906e-01  3.19964696e-09  4.57969906e-01  4.57969906e-01  4.57969906e-01  1.57687965e-07  1.80232110e-07  3.30000000e-01 
 3.40000000e-01  4.57969881e-01  4.57969881e-01  4.57969881e-01  3.19964696e-09  4.57969881e-01  4.57969881e-01  4.57969882e-01  1.57687926e-07  1.80231911e-07  3.40000000e-01 
 3.50000000e-01  4.57969887e-01  4.57969887e-01  4.57969887e-01  3.19964696e-09  4.57969887e-01  4.57969887e-01  4.57969887e-01  1.57687929e-07  1.80231705e-07  3.50000000e-01 
 3.60000000e-01  4.57969908e-01  4.57969908e-01  4.57969908e-01  3.19964696e-09  4.57969908e-01  4.57969908e-01  4.57969908e-01  1.57687967e-07  1.80231641e-07  3.60000000e-01 
 3.70000000e-01  4.57969887e-01  4.57969887e-01  4.57969887e-01  3.19964690e-09  4.57969887e-01  4.57969887e-01  4.57969888e-01  1.57687944e-07  1.80231417e-07  3.70000000e-01 
 3.80000000e-01  4.57969879e-01  4.57969879e-01  4.57969878e-01  3.19964697e-09  4.57969879e-01  4.57969878e-01  4.57969879e-01  1.57687905e-07  1.80231190e-07  3.80000000e-01 
 3.90000000e-01  4.57969877e-01  4.57969877e-01  4.57969877e-01  3.19964689e-09  4.57969877e-01  4.57969877e-01  4.57969877e-01  1.57687912e-07  1.80231041e-07  3.90000000e-01 
 4.00000000e-01  4.57969864e-01  4.57969864e-01  4.57969864e-01  3.19964697e-09  4.57969864e-01  4.57969864e-01  4.57969864e-01  1.57687904e-07  1.80230835e-07  4.00000000e-01 
 4.10000000e-01  4.57969893e-01  4.57969893e-01  4.57969893e-01  3.19964695e-09  4.57969893e-01  4.57969893e-01  4.57969893e-01  1.57687947e-07  1.80230803e-07  4.10000000e-01 
 4.20000000e-01  4.57969904e-01  4.57969904e-01  4.57969904e-01  3.19964696e-09  4.57969904e-01  4.57969904e-01  4.57969904e-01  1.57687961e-07  1.80230689e-07  4.20000000e-01 
 4.30000000e-01  4.57969890e-01  4.57969890e-01  4.57969890e-01  3.19964696e-09  4.57969890e-01  4.57969890e-01  4.57969890e-01  1.57687945e-07  1.80230540e-07  4.30000000e-01 
 4.40000000e-01  4.57969875e-01  4.57969875e-01  4.57969875e-01  3.19964696e-09  4.57969875e-01  4.57969875e-01  4.57969875e-01  1.57687921e-07  1.80230295e-07  4.40000000e-01 
 4.50000000e-01  4.57969874e-01  4.57969874e-01  4.57969874e-01  3.19964690e-09  4.57969874e-01  4.57969874e-01  4.57969874e-01  1.57687906e-07  1.80230124e-07  4.50000000e-01 
 4.60000000e-01  4.57969883e-01  4.57969883e-01  4.57969883e-01  3.19964697e-09  4.57969883e-01  4.57969883e-01  4.57969883e-01  1.57687927e-07  1.80230014e-07  4.60000000e-01 
 4.70000000e-01  4.57969889e-01  4.57969889e-01  4.57969889e-01  3.19964695e-09  4.57969889e-01  4.57969889e-01  4.57969889e-01  1.57687938e-07  1.80229858e-07  4.70000000e-01 
 4.80000000e-01  4.57969880e-01  4.57969880e-01  4.57969880e-01  3.19964696e-09  4.57969880e-01  4.57969880e-01  4.57969880e-01  1.57687932e-07  1.80229705e-07  4.80000000e-01 
 4.90000000e-01  4.57969865e-01  4.57969865e-01  4.57969865e-01  3.19964696e-09  4.57969865e-01  4.57969865e-01  4.57969865e-01  1.57687901e-07  1.80229549e-07  4.90000000e-01 
 5.00000000e-01  4.57969882e-01  4.57969882e-01  4.57969881e-01  3.19964696e-09  4.57969882e-01  4.57969882e-01  4.57969882e-01  1.57687926e-07  1.80229328e-07  5.00000000e-01 
 5.10000000e-01  4.57969888e-01  4.57969888e-01  4.57969888e-01  3.19964696e-09  4.57969888e-01  4.57969888e-01  4.57969888e-01  1.57687936e-07  1.80229122e-07  5.10000000e-01 
 5.20000000e-01  4.57969906e-01  4.57969906e-01  4.57969906e-01  3.19964690e-09  4.57969906e-01  4.57969906e-01  4.57969906e-01  1.57687958e-07  1.80229232e-07  5.20000000e-01 
 5.30000000e-01  4.57969893e-01  4.57969892e-01  4.57969892e-01  3.19964690e-09  4.57969892e-01  4.57969892e-01  4.57969893e-01  1.57687940e-07  1.80228945e-07  5.30000000e-01 
 5.40000000e-01  4.57969888e-01  4.57969888e-01  4.57969888e-01  3.19964697e-09  4.57969888e-01  4.57969888e-01  4.57969888e-01  1.57687936e-07  1.80228827e-07  5.40000000e-01 
 5.50000000e-01  4.57969898e-01  4.57969898e-01  4.57969898e-01  3.19964695e-09  4.57969898e-01  4.57969898e-01  4.57969898e-01  1.57687956e-07  1.80228803e-07  5.50000000e-01 
 5.60000000e-01  4.57969875e-01  4.57969875e-01  4.57969875e-01  3.19964696e-09  4.57969875e-01  4.57969875e-01  4.57969875e-01  1.57687934e-07  1.80228533e-07  5.60000000e-01 
 5.70000000e-01  4.57969892e-01  4.57969891e-01  4.57969891e-01  3.19964696e-09  4.57969891e-01  4.57969891e-01  4.57969892e-01  1.57687938e-07  1.80228394e-07  5.70000000e-01 
 5.80000000e-01  4.57969883e-01  4.57969883e-01  4.57969883e-01  3.19964696e-09  4.57969883e-01  4.57969883e-01  4.57969883e-01  1.57687919e-07  1.80228234e-07  5.80000000e-01 
 5.90000000e-01  4.57969891e-01  4.57969891e-01  4.57969891e-01  3.19964696e-09  4.57969891e-01  4.57969891e-01  4.57969891e-01  1.57687932e-07  1.80228191e-07  5.90000000e-01 
 6.00000000e-01  4.57969905e-01  4.57969904e-01  4.57969904e-01  3.19964696e-09  4.57969905e-01  4.57969904e-01  4.57969905e-01  1.57687953e-07  1.80228014e-07  6.00000000e-01 
 6.10000000e-01  4.57969901e-01  4.57969901e-01  4.57969901e-01  3.19964690e-09  4.57969901e-01  4.57969901e-01  4.57969901e-01  1.57687950e-07  1.80227872e-07  6.10000000e-01 
 6.20000000e-01  4.57969895e-01  4.57969895e-01  4.57969895e-01  3.19964696e-09  4.57969895e-01  4.57969895e-01  4.57969895e-01  1.57687949e-07  1.80227786e-07  6.20000000e-01 
 6.30000000e-01  4.57969891e-01  4.57969891e-01  4.57969891e-01  3.19964696e-09  4.57969891e-01  4.57969891e-01  4.57969891e-01  1.57687938e-07  1.80227460e-07  6.30000000e-01 
 6.40000000e-01  4.57969885e-01  4.57969885e-01  4.57969885e-01  3.19964696e-09  4.57969885e-01  4.57969885e-01  4.57969885e-01  1.57687935e-07  1.80227417e-07  6.40000000e-01 
 6.50000000e-01  4.57969896e-01  4.57969896e-01  4.57969896e-01  3.19964696e-09  4.57969896e-01  4.57969896e-01  4.57969896e-01  1.57687938e-07  1.80227360e-07  6.50000000e-01 
 6.60000000e-01  4.57969900e-01  4.57969900e-01  4.57969900e-01  3.19964696e-09  4.57969900e-01  4.57969900e-01  4.57969900e-01  1.57687958e-07  1.80227133e-07  6.60000000e-01 
 6.70000000e-01  4.57969880e-01  4.57969880e-01  4.57969880e-01  3.19964696e-09  4.57969880e-01  4.57969880e-01  4.57969880e-01  1.57687928e-07  1.80226934e-07  6.70000000e-01 
 6.80000000e-01  4.57969877e-01  4.57969877e-01  4.57969877e-01  3.19964696e-09  4.57969877e-01  4.57969877e-01  4.57969877e-01  1.57687906e-07  1.80226728e-07  6.80000000e-01 
 6.90000000e-01  4.57969891e-01  4.57969891e-01  4.57969890e-01  3.19964690e-09  4.57969891e-01  4.57969891e-01  4.57969891e-01  1.57687936e-07  1.80226635e-07  6.90000000e-01 
 7.00000000e-01  4.57969883e-01  4.57969883e-01  4.57969883e-01  3.19964697e-09  4.57969883e-01  4.57969883e-01  4.57969883e-01  1.57687926e-07  1.80226529e-07  7.00000000e-01 
 7.10000000e-01  4.57969900e-01  4.57969900e-01  4.57969900e-01  3.19964690e-09  4.57969900e-01  4.57969900e-01  4.57969900e-01  1.57687946e-07  1.80226479e-07  7.10000000e-01 
 7.20000000e-01  4.57969893e-01  4.57969893e-01  4.57969893e-01  3.19964697e-09  4.57969893e-01  4.57969893e-01  4.57969893e-01  1.57687936e-07  1.80226287e-07  7.20000000e-01 
 7.30000000e-01  4.57969877e-01  4.57969877e-01  4.57969877e-01  3.19964695e-09  4.57969877e-01  4.57969877e-01  4.57969877e-01  1.57687920e-07  1.80226131e-07  7.30000000e-01 
 7.40000000e-01  4.57969887e-01  4.57969887e-01  4.57969887e-01  3.19964690e-09  4.57969887e-01  4.57969887e-01  4.57969887e-01  1.57687922e-07  1.80225989e-07  7.40000000e-01 
 7.50000000e-01  4.57969876e-01  4.57969876e-01  4.57969876e-01  3.19964697e-09  4.57969876e-01  4.57969876e-01  4.57969876e-01  1.57687915e-07  1.80225854e-07  7.50000000e-01 
 7.60000000e-01  4.57969868e-01  4.57969868e-01  4.57969868e-01  3.19964695e-09  4.57969868e-01  4.57969868e-01  4.57969868e-01  1.57687892e-07  1.80225442e-07  7.60000000e-01 
 7.70000000e-01  4.57969894e-01  4.57969894e-01  4.57969894e-01  3.19964690e-09  4.57969894e-01  4.57969894e-01  4.57969894e-01  1.57687946e-07  1.80225506e-07  7.70000000e-01 
 7.80000000e-01  4.57969910e-01  4.57969910e-01  4.57969910e-01  3.19964691e-09  4.57969910e-01  4.57969910e-01  4.57969910e-01  1.57687974e-07  1.80225449e-07  7.80000000e-01 
 7.90000000e-01  4.57969924e-01  4.57969924e-01  4.57969923e-01  3.19964695e-09  4.57969924e-01  4.57969924e-01  4.57969924e-01  1.57687986e-07  1.80225285e-07  7.90000000e-01 
 8.00000000e-01  4.57969904e-01  4.57969904e-01  4.57969904e-01  3.19964690e-09  4.57969904e-01  4.57969904e-01  4.57969904e-01  1.57687957e-07  1.80225022e-07  8.00000000e-01 
 8.10000000e-01  4.57969861e-01  4.57969861e-01  4.57969861e-01  3.19964690e-09  4.57969861e-01  4.57969861e-01  4.57969861e-01  1.57687898e-07  1.80224724e-07  8.10000000e-01 
 8.20000000e-01  4.57969885e-01  4.57969885e-01  4.57969885e-01  3.19964691e-09  4.57969885e-01  4.57969885e-01  4.57969885e-01  1.57687917e-07  1.80224646e-07  8.20000000e-01 
 8.30000000e-01  4.57969911e-01  4.57969911e-01  4.57969911e-01  3.19964690e-09  4.57969911e-01  4.57969911e-01  4.57969911e-01  1.57687965e-07  1.80224582e-07  8.30000000e-01 
 8.40000000e-01  4.57969870e-01  4.57969870e-01  4.57969870e-01  3.19964691e-09  4.57969870e-01  4.57969870e-01  4.57969870e-01  1.57687914e-07  1.80224283e-07  8.40000000e-01 
 8.50000000e-01  4.57969883e-01  4.57969882e-01  4.57969882e-01  3.19964695e-09  4.57969882e-01  4.57969882e-01  4.57969883e-01  1.57687924e-07  1.80224283e-07  8.50000000e-01 
 8.60000000e-01  4.57969853e-01  4.57969853e-01  4.57969853e-01  3.19964690e-09  4.57969853e-01  4.57969853e-01  4.57969853e-01  1.57687886e-07  1.80223864e-07  8.60000000e-01 
 8.70000000e-01  4.57969884e-01  4.57969884e-01  4.57969884e-01  3.19964697e-09  4.57969884e-01  4.57969884e-01  4.57969884e-01  1.57687907e-07  1.80223843e-07  8.70000000e-01 
 8.80000000e-01  4.57969878e-01  4.57969877e-01  4.57969877e-01  3.19964695e-09  4.57969877e-01  4.57969877e-01  4.57969878e-01  1.57687909e-07  1.80223743e-07  8.80000000e-01 
 8.90000000e-01  4.57969881e-01  4.57969881e-01  4.57969881e-01  3.19964696e-09  4.57969881e-01  4.57969881e-01  4.57969881e-01  1.57687921e-07  1.80223438e-07  8.90000000e-01 
 9.00000000e-01  4.57969893e-01  4.57969893e-01  4.57969893e-01  3.19964696e-09  4.57969893e-01  4.57969893e-01  4.57969893e-01  1.57687953e-07  1.80223466e-07  9.00000000e-01 
 9.10000000e-01  4.57969888e-01  4.57969888e-01  4.57969888e-01  3.19964690e-09  4.57969888e-01  4.57969888e-01  4.57969888e-01  1.57687948e-07  1.80223203e-07  9.10000000e-01 
 9.20000000e-01  4.57969878e-01  4.57969878e-01  4.57969878e-01  3.19964697e-09  4.57969878e-01  4.57969878e-01  4.57969878e-01  1.57687922e-07  1.80223168e-07  9.20000000e-01 
 9.30000000e-01  4.57969900e-01  4.57969900e-01  4.57969900e-01  3.19964690e-09  4.57969900e-01  4.57969900e-01  4.57969900e-01  1.57687955e-07  1.80223033e-07  9.30000000e-01 
 9.40000000e-01  4.57969904e-01  4.57969904e-01  4.57969904e-01  3.19964691e-09  4.57969904e-01  4.57969904e-01  4.57969904e-01  1.57687966e-07  1.80222855e-07  9.40000000e-01 
 9.50000000e-01  4.57969898e-01  4.57969898e-01  4.57969898e-01  3.19964695e-09  4.57969898e-01  4.57969898e-01  4.57969898e-01  1.57687945e-07  1.80222692e-07  9.50000000e-01 
 9.60000000e-01  4.57969882e-01  4.57969882e-01  4.57969882e-01  3.19964696e-09  4.57969882e-01  4.57969882e-01  4.57969882e-01  1.57687917e-07  1.80222301e-07  9.60000000e-01 
 9.70000000e-01  4.57969890e-01  4.57969890e-01  4.57969890e-01  3.19964696e-09  4.57969890e-01  4.57969890e-01  4.57969890e-01  1.57687937e-07  1.80222337e-07  9.70000000e-01 
 9.80000000e-01  4.57969875e-01  4.57969874e-01  4.57969874e-01  3.19964696e-09  4.57969874e-01  4.57969874e-01  4.57969875e-01  1.57687921e-07  1.80221996e-07  9.80000000e-01 
 9.90000000e-01  4.57969881e-01  4.57969881e-01  4.57969881e-01  3.19964696e-09  4.57969881e-01  4.57969881e-01  4.57969881e-01  1.57687918e-07  1.80221846e-07  9.90000000e-01 
 1.00000000e+00  4.57969912e-01  4.57969912e-01  4.57969912e-01  3.19964690e-09  4.57969912e-01  4.57969912e-01  4.57969912e-01  1.57687968e-07  1.80221818e-07  1.00000000e+00 
 1.01000000e+00  4.57969883e-01  4.57969882e-01  4.57969882e-01  3.19964696e-09  4.57969882e-01  4.57969882e-01  4.57969883e-01  1.57687939e-07  1.80221605e-07  1.01000000e+00 
 1.02000000e+00  4.57969895e-01  4.57969895e-01  4.57969895e-01  3.19964690e-09  4.57969895e-01  4.57969895e-01  4.57969895e-01  1.57687940e-07  1.80221342e-07  1.02000000e+00 
 1.03000000e+00  4.57969876e-01  4.57969876e-01  4.57969876e-01  3.19964691e-09  4.57969876e-01  4.57969876e-01  4.57969876e-01  1.57687903e-07  1.80221043e-07  1.03000000e+00 
 1.04000000e+00  4.57969912e-01  4.57969912e-01  4.57969912e-01  3.19964695e-09  4.57969912e-01  4.57969912e-01  4.57969912e-01  1.57687954e-07  1.80220994e-07  1.04000000e+00 
 1.05000000e+00  4.57969888e-01  4.57969888e-01  4.57969888e-01  3.19964696e-09  4.57969888e-01  4.57969888e-01  4.57969888e-01  1.57687931e-07  1.80220781e-07  1.05000000e+00 
 1.06000000e+00  4.57969902e-01  4.57969902e-01  4.57969901e-01  3.19964696e-09  4.57969902e-01  4.57969902e-01  4.57969902e-01  1.57687952e-07  1.80220560e-07  1.06000000e+00 
 1.07000000e+00  4.57969899e-01  4.57969899e-01  4.57969899e-01  3.19964696e-09  4.57969899e-01  4.57969899e-01  4.57969899e-01  1.57687952e-07  1.80220439e-07  1.07000000e+00 
 1.08000000e+00  4.57969895e-01  4.57969895e-01  4.57969895e-01  3.19964690e-09  4.57969895e-01  4.57969895e-01  4.57969895e-01  1.57687937e-07  1.80220290e-07  1.08000000e+00 
 1.09000000e+00  4.57969876e-01  4.57969876e-01  4.57969876e-01  3.19964691e-09  4.57969876e-01  4.57969876e-01  4.57969876e-01  1.57687909e-07  1.80220049e-07  1.09000000e+00 
 1.10000000e+00  4.57969875e-01  4.57969875e-01  4.57969875e-01  3.19964689e-09  4.57969875e-01  4.57969875e-01  4.57969875e-01  1.57687905e-07  1.80219736e-07  1.10000000e+00 
