 v-sweep         v(b0)           v(b1)           v(b2)           v(b3)           v(b4)           v(b5)           v(b6)           i(vbias)        i(viout)        v(vout)        
 0.00000000e+00  3.41629645e-09  4.58597607e-01  3.18943696e-09  4.58597607e-01  4.58597607e-01  3.21819150e-09  4.58597607e-01  1.61370242e-07  1.40203877e-07  0.00000000e+00 
 1.00000000e-02  3.41629649e-09  4.58597609e-01  3.18943694e-09  4.58597609e-01  4.58597609e-01  3.21819148e-09  4.58597609e-01  1.61370245e-07  1.40203511e-07  1.00000000e-02 
 2.00000000e-02  3.41629649e-09  4.58597621e-01  3.18943695e-09  4.58597621e-01  4.58597621e-01  3.21819143e-09  4.58597621e-01  1.61370254e-07  1.40203075e-07  2.00000000e-02 
 3.00000000e-02  3.41629649e-09  4.58597607e-01  3.18943693e-09  4.58597607e-01  4.58597607e-01  3.21819148e-09  4.58597607e-01  1.61370234e-07  1.40202753e-07  3.00000000e-02 
 4.00000000e-02  3.41629649e-09  4.58597611e-01  3.18943695e-09  4.58597612e-01  4.58597612e-01  3.21819148e-09  4.58597611e-01  1.61370238e-07  1.40202287e-07  4.00000000e-02 
 5.00000000e-02  3.41629643e-09  4.58597621e-01  3.18943699e-09  4.58597621e-01  4.58597621e-01  3.21819148e-09  4.58597621e-01  1.61370261e-07  1.40202011e-07  5.00000000e-02 
 6.00000000e-02  3.41629649e-09  4.58597613e-01  3.18943694e-09  4.58597613e-01  4.58597613e-01  3.21819148e-09  4.58597613e-01  1.61370254e-07  1.40201645e-07  6.00000000e-02 
 7.00000000e-02  3.41629649e-09  4.58597614e-01  3.18943695e-09  4.58597614e-01  4.58597614e-01  3.21819142e-09  4.58597614e-01  1.61370224e-07  1.40201263e-07  7.00000000e-02 
 8.00000000e-02  3.41629643e-09  4.58597618e-01  3.18943699e-09  4.58597619e-01  4.58597618e-01  3.21819143e-09  4.58597618e-01  1.61370263e-07  1.40200963e-07  8.00000000e-02 
 9.00000000e-02  3.41629649e-09  4.58597622e-01  3.18943694e-09  4.58597622e-01  4.58597622e-01  3.21819143e-09  4.58597622e-01  1.61370256e-07  1.40200713e-07  9.00000000e-02 
 1.00000000e-01  3.41629649e-09  4.58597625e-01  3.18943695e-09  4.58597625e-01  4.58597625e-01  3.21819148e-09  4.58597624e-01  1.61370247e-07  1.40200413e-07  1.00000000e-01 
 1.10000000e-01  3.41629643e-09  4.58597625e-01  3.18943693e-09  4.58597625e-01  4.58597625e-01  3.21819148e-09  4.58597625e-01  1.61370261e-07  1.40200197e-07  1.10000000e-01 
 1.20000000e-01  3.41629649e-09  4.58597610e-01  3.18943695e-09  4.58597610e-01  4.58597610e-01  3.21819148e-09  4.58597610e-01  1.61370237e-07  1.40199894e-07  1.20000000e-01 
 1.30000000e-01  3.41629649e-09  4.58597604e-01  3.18943693e-09  4.58597604e-01  4.58597604e-01  3.21819142e-09  4.58597604e-01  1.61370234e-07  1.40199445e-07  1.30000000e-01 
 1.40000000e-01  3.41629649e-09  4.58597613e-01  3.18943695e-09  4.58597613e-01  4.58597613e-01  3.21819148e-09  4.58597613e-01  1.61370267e-07  1.40199411e-07  1.40000000e-01 
 1.50000000e-01  3.41629649e-09  4.58597625e-01  3.18943693e-09  4.58597625e-01  4.58597625e-01  3.21819148e-09  4.58597624e-01  1.61370268e-07  1.40199242e-07  1.50000000e-01 
 1.60000000e-01  3.41629649e-09  4.58597627e-01  3.18943695e-09  4.58597628e-01  4.58597627e-01  3.21819143e-09  4.58597627e-01  1.61370262e-07  1.40198877e-07  1.60000000e-01 
 1.70000000e-01  3.41629649e-09  4.58597603e-01  3.18943699e-09  4.58597603e-01  4.58597603e-01  3.21819148e-09  4.58597603e-01  1.61370221e-07  1.40198731e-07  1.70000000e-01 
 1.80000000e-01  3.41629649e-09  4.58597612e-01  3.18943694e-09  4.58597612e-01  4.58597612e-01  3.21819148e-09  4.58597612e-01  1.61370261e-07  1.40198530e-07  1.80000000e-01 
 1.90000000e-01  3.41629649e-09  4.58597616e-01  3.18943695e-09  4.58597616e-01  4.58597616e-01  3.21819148e-09  4.58597616e-01  1.61370248e-07  1.40198306e-07  1.90000000e-01 
 2.00000000e-01  3.41629643e-09  4.58597631e-01  3.18943693e-09  4.58597631e-01  4.58597631e-01  3.21819148e-09  4.58597631e-01  1.61370279e-07  1.40198093e-07  2.00000000e-01 
 2.10000000e-01  3.41629649e-09  4.58597617e-01  3.18943695e-09  4.58597617e-01  4.58597617e-01  3.21819142e-09  4.58597617e-01  1.61370235e-07  1.40197850e-07  2.10000000e-01 
 2.20000000e-01  3.41629648e-09  4.58597592e-01  3.18943693e-09  4.58597592e-01  4.58597592e-01  3.21819148e-09  4.58597592e-01  1.61370216e-07  1.40197717e-07  2.20000000e-01 
 2.30000000e-01  3.41629649e-09  4.58597615e-01  3.18943695e-09  4.58597615e-01  4.58597615e-01  3.21819148e-09  4.58597615e-01  1.61370253e-07  1.40197665e-07  2.30000000e-01 
 2.40000000e-01  3.41629649e-09  4.58597634e-01  3.18943693e-09  4.58597634e-01  4.58597634e-01  3.21819148e-09  4.58597634e-01  1.61370266e-07  1.40197519e-07  2.40000000e-01 
 2.50000000e-01  3.41629649e-09  4.58597619e-01  3.18943695e-09  4.58597619e-01  4.58597619e-01  3.21819148e-09  4.58597618e-01  1.61370235e-07  1.40197240e-07  2.50000000e-01 
 2.60000000e-01  3.41629643e-09  4.58597616e-01  3.18943693e-09  4.58597616e-01  4.58597616e-01  3.21819142e-09  4.58597616e-01  1.61370249e-07  1.40197068e-07  2.60000000e-01 
 2.70000000e-01  3.41629649e-09  4.58597635e-01  3.18943689e-09  4.58597635e-01  4.58597635e-01  3.21819148e-09  4.58597635e-01  1.61370285e-07  1.40197095e-07  2.70000000e-01 
 2.80000000e-01  3.41629648e-09  4.58597591e-01  3.18943694e-09  4.58597591e-01  4.58597591e-01  3.21819148e-09  4.58597590e-01  1.61370205e-07  1.40196697e-07  2.80000000e-01 
 2.90000000e-01  3.41629643e-09  4.58597594e-01  3.18943693e-09  4.58597594e-01  4.58597594e-01  3.21819148e-09  4.58597594e-01  1.61370228e-07  1.40196608e-07  2.90000000e-01 
 3.00000000e-01  3.41629643e-09  4.58597617e-01  3.18943695e-09  4.58597617e-01  4.58597617e-01  3.21819148e-09  4.58597617e-01  1.61370259e-07  1.40196491e-07  3.00000000e-01 
 3.10000000e-01  3.41629649e-09  4.58597607e-01  3.18943693e-09  4.58597607e-01  4.58597607e-01  3.21819148e-09  4.58597606e-01  1.61370226e-07  1.40196359e-07  3.10000000e-01 
 3.20000000e-01  3.41629648e-09  4.58597589e-01  3.18943695e-09  4.58597589e-01  4.58597589e-01  3.21819148e-09  4.58597589e-01  1.61370219e-07  1.40196128e-07  3.20000000e-01 
 3.30000000e-01  3.41629649e-09  4.58597616e-01  3.18943693e-09  4.58597616e-01  4.58597616e-01  3.21819148e-09  4.58597616e-01  1.61370254e-07  1.40196082e-07  3.30000000e-01 
 3.40000000e-01  3.41629649e-09  4.58597634e-01  3.18943695e-09  4.58597634e-01  4.58597634e-01  3.21819143e-09  4.58597633e-01  1.61370273e-07  1.40196040e-07  3.40000000e-01 
 3.50000000e-01  3.41629649e-09  4.58597621e-01  3.18943693e-09  4.58597621e-01  4.58597621e-01  3.21819143e-09  4.58597621e-01  1.61370258e-07  1.40195940e-07  3.50000000e-01 
 3.60000000e-01  3.41629648e-09  4.58597596e-01  3.18943695e-09  4.58597596e-01  4.58597596e-01  3.21819142e-09  4.58597596e-01  1.61370227e-07  1.40195723e-07  3.60000000e-01 
 3.70000000e-01  3.41629649e-09  4.58597604e-01  3.18943693e-09  4.58597604e-01  4.58597604e-01  3.21819148e-09  4.58597604e-01  1.61370241e-07  1.40195571e-07  3.70000000e-01 
 3.80000000e-01  3.41629649e-09  4.58597599e-01  3.18943689e-09  4.58597599e-01  4.58597599e-01  3.21819148e-09  4.58597599e-01  1.61370229e-07  1.40195450e-07  3.80000000e-01 
 3.90000000e-01  3.41629643e-09  4.58597596e-01  3.18943694e-09  4.58597596e-01  4.58597596e-01  3.21819142e-09  4.58597596e-01  1.61370223e-07  1.40195379e-07  3.90000000e-01 
 4.00000000e-01  3.41629643e-09  4.58597605e-01  3.18943693e-09  4.58597605e-01  4.58597605e-01  3.21819148e-09  4.58597605e-01  1.61370223e-07  1.40195333e-07  4.00000000e-01 
 4.10000000e-01  3.41629649e-09  4.58597603e-01  3.18943695e-09  4.58597603e-01  4.58597603e-01  3.21819148e-09  4.58597603e-01  1.61370231e-07  1.40195134e-07  4.10000000e-01 
 4.20000000e-01  3.41629649e-09  4.58597599e-01  3.18943699e-09  4.58597599e-01  4.58597599e-01  3.21819148e-09  4.58597599e-01  1.61370229e-07  1.40195102e-07  4.20000000e-01 
 4.30000000e-01  3.41629649e-09  4.58597602e-01  3.18943694e-09  4.58597603e-01  4.58597602e-01  3.21819148e-09  4.58597602e-01  1.61370239e-07  1.40194988e-07  4.30000000e-01 
 4.40000000e-01  3.41629643e-09  4.58597615e-01  3.18943695e-09  4.58597615e-01  4.58597615e-01  3.21819148e-09  4.58597615e-01  1.61370252e-07  1.40194778e-07  4.40000000e-01 
 4.50000000e-01  3.41629643e-09  4.58597622e-01  3.18943693e-09  4.58597623e-01  4.58597622e-01  3.21819148e-09  4.58597622e-01  1.61370254e-07  1.40194761e-07  4.50000000e-01 
 4.60000000e-01  3.41629648e-09  4.58597593e-01  3.18943695e-09  4.58597593e-01  4.58597593e-01  3.21819148e-09  4.58597593e-01  1.61370222e-07  1.40194519e-07  4.60000000e-01 
 4.70000000e-01  3.41629649e-09  4.58597606e-01  3.18943699e-09  4.58597606e-01  4.58597606e-01  3.21819142e-09  4.58597606e-01  1.61370235e-07  1.40194548e-07  4.70000000e-01 
 4.80000000e-01  3.41629649e-09  4.58597605e-01  3.18943694e-09  4.58597606e-01  4.58597605e-01  3.21819148e-09  4.58597605e-01  1.61370233e-07  1.40194420e-07  4.80000000e-01 
 4.90000000e-01  3.41629649e-09  4.58597615e-01  3.18943695e-09  4.58597615e-01  4.58597615e-01  3.21819148e-09  4.58597615e-01  1.61370247e-07  1.40194437e-07  4.90000000e-01 
 5.00000000e-01  3.41629649e-09  4.58597597e-01  3.18943693e-09  4.58597597e-01  4.58597597e-01  3.21819142e-09  4.58597597e-01  1.61370217e-07  1.40194189e-07  5.00000000e-01 
 5.10000000e-01  3.41629648e-09  4.58597595e-01  3.18943695e-09  4.58597595e-01  4.58597595e-01  3.21819148e-09  4.58597595e-01  1.61370225e-07  1.40194082e-07  5.10000000e-01 
 5.20000000e-01  3.41629649e-09  4.58597632e-01  3.18943693e-09  4.58597632e-01  4.58597632e-01  3.21819148e-09  4.58597632e-01  1.61370261e-07  1.40194082e-07  5.20000000e-01 
 5.30000000e-01  3.41629649e-09  4.58597617e-01  3.18943695e-09  4.58597617e-01  4.58597617e-01  3.21819142e-09  4.58597617e-01  1.61370255e-07  1.40193979e-07  5.30000000e-01 
 5.40000000e-01  3.41629649e-09  4.58597617e-01  3.18943693e-09  4.58597617e-01  4.58597617e-01  3.21819142e-09  4.58597616e-01  1.61370251e-07  1.40194000e-07  5.40000000e-01 
 5.50000000e-01  3.41629649e-09  4.58597620e-01  3.18943695e-09  4.58597620e-01  4.58597620e-01  3.21819148e-09  4.58597620e-01  1.61370246e-07  1.40193787e-07  5.50000000e-01 
 5.60000000e-01  3.41629649e-09  4.58597616e-01  3.18943699e-09  4.58597616e-01  4.58597616e-01  3.21819142e-09  4.58597616e-01  1.61370243e-07  1.40193659e-07  5.60000000e-01 
 5.70000000e-01  3.41629649e-09  4.58597605e-01  3.18943694e-09  4.58597605e-01  4.58597605e-01  3.21819142e-09  4.58597604e-01  1.61370236e-07  1.40193482e-07  5.70000000e-01 
 5.80000000e-01  3.41629649e-09  4.58597618e-01  3.18943695e-09  4.58597618e-01  4.58597618e-01  3.21819143e-09  4.58597618e-01  1.61370258e-07  1.40193549e-07  5.80000000e-01 
 5.90000000e-01  3.41629649e-09  4.58597606e-01  3.18943693e-09  4.58597606e-01  4.58597606e-01  3.21819148e-09  4.58597606e-01  1.61370228e-07  1.40193286e-07  5.90000000e-01 
 6.00000000e-01  3.41629649e-09  4.58597602e-01  3.18943695e-09  4.58597602e-01  4.58597602e-01  3.21819148e-09  4.58597602e-01  1.61370234e-07  1.40193244e-07  6.00000000e-01 
 6.10000000e-01  3.41629649e-09  4.58597604e-01  3.18943693e-09  4.58597604e-01  4.58597604e-01  3.21819148e-09  4.58597603e-01  1.61370239e-07  1.40193102e-07  6.10000000e-01 
 6.20000000e-01  3.41629648e-09  4.58597595e-01  3.18943695e-09  4.58597595e-01  4.58597595e-01  3.21819148e-09  4.58597595e-01  1.61370221e-07  1.40193045e-07  6.20000000e-01 
 6.30000000e-01  3.41629643e-09  4.58597589e-01  3.18943693e-09  4.58597589e-01  4.58597589e-01  3.21819142e-09  4.58597588e-01  1.61370205e-07  1.40192817e-07  6.30000000e-01 
 6.40000000e-01  3.41629643e-09  4.58597616e-01  3.18943695e-09  4.58597616e-01  4.58597616e-01  3.21819148e-09  4.58597616e-01  1.61370253e-07  1.40192888e-07  6.40000000e-01 
 6.50000000e-01  3.41629643e-09  4.58597611e-01  3.18943693e-09  4.58597611e-01  4.58597611e-01  3.21819148e-09  4.58597611e-01  1.61370242e-07  1.40192796e-07  6.50000000e-01 
 6.60000000e-01  3.41629643e-09  4.58597598e-01  3.18943695e-09  4.58597598e-01  4.58597598e-01  3.21819148e-09  4.58597598e-01  1.61370226e-07  1.40192682e-07  6.60000000e-01 
 6.70000000e-01  3.41629648e-09  4.58597595e-01  3.18943699e-09  4.58597595e-01  4.58597595e-01  3.21819142e-09  4.58597595e-01  1.61370222e-07  1.40192483e-07  6.70000000e-01 
 6.80000000e-01  3.41629649e-09  4.58597612e-01  3.18943694e-09  4.58597612e-01  4.58597612e-01  3.21819148e-09  4.58597611e-01  1.61370252e-07  1.40192483e-07  6.80000000e-01 
 6.90000000e-01  3.41629649e-09  4.58597615e-01  3.18943695e-09  4.58597615e-01  4.58597615e-01  3.21819148e-09  4.58597615e-01  1.61370240e-07  1.40192469e-07  6.90000000e-01 
 7.00000000e-01  3.41629649e-09  4.58597605e-01  3.18943699e-09  4.58597606e-01  4.58597605e-01  3.21819142e-09  4.58597605e-01  1.61370247e-07  1.40192220e-07  7.00000000e-01 
 7.10000000e-01  3.41629648e-09  4.58597596e-01  3.18943694e-09  4.58597596e-01  4.58597596e-01  3.21819148e-09  4.58597596e-01  1.61370217e-07  1.40192100e-07  7.10000000e-01 
 7.20000000e-01  3.41629648e-09  4.58597586e-01  3.18943695e-09  4.58597586e-01  4.58597586e-01  3.21819148e-09  4.58597585e-01  1.61370201e-07  1.40192050e-07  7.20000000e-01 
 7.30000000e-01  3.41629649e-09  4.58597606e-01  3.18943693e-09  4.58597606e-01  4.58597606e-01  3.21819148e-09  4.58597605e-01  1.61370235e-07  1.40192043e-07  7.30000000e-01 
 7.40000000e-01  3.41629649e-09  4.58597607e-01  3.18943695e-09  4.58597607e-01  4.58597607e-01  3.21819148e-09  4.58597607e-01  1.61370231e-07  1.40192014e-07  7.40000000e-01 
 7.50000000e-01  3.41629649e-09  4.58597606e-01  3.18943693e-09  4.58597606e-01  4.58597606e-01  3.21819148e-09  4.58597606e-01  1.61370229e-07  1.40191808e-07  7.50000000e-01 
 7.60000000e-01  3.41629649e-09  4.58597642e-01  3.18943695e-09  4.58597642e-01  4.58597642e-01  3.21819143e-09  4.58597642e-01  1.61370294e-07  1.40191872e-07  7.60000000e-01 
 7.70000000e-01  3.41629649e-09  4.58597621e-01  3.18943693e-09  4.58597621e-01  4.58597621e-01  3.21819148e-09  4.58597621e-01  1.61370261e-07  1.40191837e-07  7.70000000e-01 
 7.80000000e-01  3.41629649e-09  4.58597609e-01  3.18943695e-09  4.58597609e-01  4.58597609e-01  3.21819148e-09  4.58597609e-01  1.61370228e-07  1.40191581e-07  7.80000000e-01 
 7.90000000e-01  3.41629649e-09  4.58597603e-01  3.18943693e-09  4.58597603e-01  4.58597603e-01  3.21819148e-09  4.58597602e-01  1.61370220e-07  1.40191425e-07  7.90000000e-01 
 8.00000000e-01  3.41629649e-09  4.58597603e-01  3.18943695e-09  4.58597603e-01  4.58597603e-01  3.21819148e-09  4.58597603e-01  1.61370227e-07  1.40191354e-07  8.00000000e-01 
 8.10000000e-01  3.41629648e-09  4.58597588e-01  3.18943693e-09  4.58597588e-01  4.58597588e-01  3.21819148e-09  4.58597588e-01  1.61370219e-07  1.40191233e-07  8.10000000e-01 
 8.20000000e-01  3.41629649e-09  4.58597599e-01  3.18943695e-09  4.58597599e-01  4.58597599e-01  3.21819148e-09  4.58597598e-01  1.61370223e-07  1.40191169e-07  8.20000000e-01 
 8.30000000e-01  3.41629649e-09  4.58597613e-01  3.18943693e-09  4.58597613e-01  4.58597613e-01  3.21819148e-09  4.58597613e-01  1.61370251e-07  1.40191077e-07  8.30000000e-01 
 8.40000000e-01  3.41629649e-09  4.58597626e-01  3.18943689e-09  4.58597627e-01  4.58597626e-01  3.21819148e-09  4.58597626e-01  1.61370260e-07  1.40191005e-07  8.40000000e-01 
 8.50000000e-01  3.41629649e-09  4.58597620e-01  3.18943694e-09  4.58597620e-01  4.58597620e-01  3.21819148e-09  4.58597620e-01  1.61370255e-07  1.40190934e-07  8.50000000e-01 
 8.60000000e-01  3.41629648e-09  4.58597590e-01  3.18943693e-09  4.58597590e-01  4.58597590e-01  3.21819148e-09  4.58597589e-01  1.61370199e-07  1.40190728e-07  8.60000000e-01 
 8.70000000e-01  3.41629649e-09  4.58597617e-01  3.18943695e-09  4.58597617e-01  4.58597617e-01  3.21819148e-09  4.58597616e-01  1.61370260e-07  1.40190657e-07  8.70000000e-01 
 8.80000000e-01  3.41629643e-09  4.58597640e-01  3.18943693e-09  4.58597641e-01  4.58597640e-01  3.21819149e-09  4.58597640e-01  1.61370291e-07  1.40190593e-07  8.80000000e-01 
 8.90000000e-01  3.41629649e-09  4.58597614e-01  3.18943695e-09  4.58597614e-01  4.58597614e-01  3.21819148e-09  4.58597614e-01  1.61370243e-07  1.40190551e-07  8.90000000e-01 
 9.00000000e-01  3.41629649e-09  4.58597601e-01  3.18943693e-09  4.58597601e-01  4.58597601e-01  3.21819142e-09  4.58597601e-01  1.61370237e-07  1.40190281e-07  9.00000000e-01 
 9.10000000e-01  3.41629649e-09  4.58597600e-01  3.18943695e-09  4.58597600e-01  4.58597600e-01  3.21819142e-09  4.58597600e-01  1.61370220e-07  1.40190281e-07  9.10000000e-01 
 9.20000000e-01  3.41629649e-09  4.58597609e-01  3.18943693e-09  4.58597609e-01  4.58597609e-01  3.21819148e-09  4.58597608e-01  1.61370249e-07  1.40190195e-07  9.20000000e-01 
 9.30000000e-01  3.41629649e-09  4.58597612e-01  3.18943695e-09  4.58597612e-01  4.58597612e-01  3.21819142e-09  4.58597612e-01  1.61370236e-07  1.40190082e-07  9.30000000e-01 
 9.40000000e-01  3.41629649e-09  4.58597611e-01  3.18943693e-09  4.58597611e-01  4.58597611e-01  3.21819148e-09  4.58597611e-01  1.61370254e-07  1.40189876e-07  9.40000000e-01 
 9.50000000e-01  3.41629643e-09  4.58597617e-01  3.18943695e-09  4.58597617e-01  4.58597617e-01  3.21819148e-09  4.58597617e-01  1.61370267e-07  1.40189904e-07  9.50000000e-01 
 9.60000000e-01  3.41629649e-09  4.58597604e-01  3.18943693e-09  4.58597604e-01  4.58597604e-01  3.21819148e-09  4.58597604e-01  1.61370228e-07  1.40189748e-07  9.60000000e-01 
 9.70000000e-01  3.41629649e-09  4.58597604e-01  3.18943695e-09  4.58597604e-01  4.58597604e-01  3.21819148e-09  4.58597604e-01  1.61370229e-07  1.40189591e-07  9.70000000e-01 
 9.80000000e-01  3.41629643e-09  4.58597602e-01  3.18943699e-09  4.58597602e-01  4.58597602e-01  3.21819148e-09  4.58597602e-01  1.61370219e-07  1.40189471e-07  9.80000000e-01 
 9.90000000e-01  3.41629649e-09  4.58597612e-01  3.18943694e-09  4.58597612e-01  4.58597612e-01  3.21819148e-09  4.58597612e-01  1.61370239e-07  1.40189329e-07  9.90000000e-01 
 1.00000000e+00  3.41629648e-09  4.58597596e-01  3.18943695e-09  4.58597596e-01  4.58597596e-01  3.21819148e-09  4.58597596e-01  1.61370220e-07  1.40189236e-07  1.00000000e+00 
 1.01000000e+00  3.41629649e-09  4.58597603e-01  3.18943699e-09  4.58597603e-01  4.58597603e-01  3.21819148e-09  4.58597603e-01  1.61370239e-07  1.40189137e-07  1.01000000e+00 
 1.02000000e+00  3.41629648e-09  4.58597596e-01  3.18943694e-09  4.58597596e-01  4.58597596e-01  3.21819148e-09  4.58597596e-01  1.61370214e-07  1.40188952e-07  1.02000000e+00 
 1.03000000e+00  3.41629649e-09  4.58597614e-01  3.18943689e-09  4.58597614e-01  4.58597614e-01  3.21819148e-09  4.58597614e-01  1.61370254e-07  1.40189037e-07  1.03000000e+00 
 1.04000000e+00  3.41629649e-09  4.58597612e-01  3.18943694e-09  4.58597612e-01  4.58597612e-01  3.21819148e-09  4.58597612e-01  1.61370248e-07  1.40188703e-07  1.04000000e+00 
 1.05000000e+00  3.41629649e-09  4.58597638e-01  3.18943693e-09  4.58597638e-01  4.58597638e-01  3.21819143e-09  4.58597638e-01  1.61370264e-07  1.40188753e-07  1.05000000e+00 
 1.06000000e+00  3.41629643e-09  4.58597622e-01  3.18943695e-09  4.58597622e-01  4.58597622e-01  3.21819143e-09  4.58597622e-01  1.61370262e-07  1.40188519e-07  1.06000000e+00 
 1.07000000e+00  3.41629649e-09  4.58597614e-01  3.18943693e-09  4.58597614e-01  4.58597614e-01  3.21819148e-09  4.58597614e-01  1.61370240e-07  1.40188533e-07  1.07000000e+00 
 1.08000000e+00  3.41629649e-09  4.58597602e-01  3.18943695e-09  4.58597602e-01  4.58597602e-01  3.21819148e-09  4.58597602e-01  1.61370237e-07  1.40188249e-07  1.08000000e+00 
 1.09000000e+00  3.41629649e-09  4.58597609e-01  3.18943699e-09  4.58597609e-01  4.58597609e-01  3.21819148e-09  4.58597609e-01  1.61370243e-07  1.40188206e-07  1.09000000e+00 
 1.10000000e+00  3.41629649e-09  4.58597628e-01  3.18943694e-09  4.58597628e-01  4.58597628e-01  3.21819148e-09  4.58597628e-01  1.61370271e-07  1.40188178e-07  1.10000000e+00 
