 v-sweep         v(b0)           v(b1)           v(b2)           v(b3)           v(b4)           v(b5)           v(b6)           i(vbias)        i(viout)        v(vout)        
 0.00000000e+00  4.59808278e-01  4.59808278e-01  3.37304317e-09  3.16121781e-09  3.25101779e-09  4.59808278e-01  4.59808278e-01  1.60616270e-07  1.55163242e-07  0.00000000e+00 
 1.00000000e-02  4.59808273e-01  4.59808272e-01  3.37304314e-09  3.16121785e-09  3.25101782e-09  4.59808272e-01  4.59808272e-01  1.60616270e-07  1.55162824e-07  1.00000000e-02 
 2.00000000e-02  4.59808253e-01  4.59808253e-01  3.37304314e-09  3.16121785e-09  3.25101776e-09  4.59808253e-01  4.59808253e-01  1.60616243e-07  1.55162339e-07  2.00000000e-02 
 3.00000000e-02  4.59808277e-01  4.59808277e-01  3.37304314e-09  3.16121780e-09  3.25101782e-09  4.59808277e-01  4.59808277e-01  1.60616292e-07  1.55162050e-07  3.00000000e-02 
 4.00000000e-02  4.59808260e-01  4.59808260e-01  3.37304314e-09  3.16121779e-09  3.25101782e-09  4.59808260e-01  4.59808260e-01  1.60616248e-07  1.55161435e-07  4.00000000e-02 
 5.00000000e-02  4.59808252e-01  4.59808252e-01  3.37304314e-09  3.16121779e-09  3.25101776e-09  4.59808252e-01  4.59808252e-01  1.60616244e-07  1.55161205e-07  5.00000000e-02 
 6.00000000e-02  4.59808269e-01  4.59808268e-01  3.37304314e-09  3.16121780e-09  3.25101782e-09  4.59808268e-01  4.59808268e-01  1.60616266e-07  1.55160820e-07  6.00000000e-02 
 7.00000000e-02  4.59808254e-01  4.59808254e-01  3.37304320e-09  3.16121779e-09  3.25101776e-09  4.59808254e-01  4.59808254e-01  1.60616241e-07  1.55160426e-07  7.00000000e-02 
 8.00000000e-02  4.59808262e-01  4.59808262e-01  3.37304314e-09  3.16121785e-09  3.25101782e-09  4.59808262e-01  4.59808262e-01  1.60616256e-07  1.55160143e-07  8.00000000e-02 
 9.00000000e-02  4.59808265e-01  4.59808265e-01  3.37304314e-09  3.16121785e-09  3.25101776e-09  4.59808265e-01  4.59808265e-01  1.60616266e-07  1.55159800e-07  9.00000000e-02 
 1.00000000e-01  4.59808241e-01  4.59808241e-01  3.37304320e-09  3.16121785e-09  3.25101776e-09  4.59808241e-01  4.59808241e-01  1.60616223e-07  1.55159503e-07  1.00000000e-01 
 1.10000000e-01  4.59808255e-01  4.59808255e-01  3.37304314e-09  3.16121785e-09  3.25101776e-09  4.59808255e-01  4.59808255e-01  1.60616243e-07  1.55159251e-07  1.10000000e-01 
 1.20000000e-01  4.59808238e-01  4.59808237e-01  3.37304314e-09  3.16121785e-09  3.25101776e-09  4.59808237e-01  4.59808237e-01  1.60616213e-07  1.55158941e-07  1.20000000e-01 
 1.30000000e-01  4.59808252e-01  4.59808252e-01  3.37304316e-09  3.16121779e-09  3.25101782e-09  4.59808252e-01  4.59808252e-01  1.60616236e-07  1.55158700e-07  1.30000000e-01 
 1.40000000e-01  4.59808234e-01  4.59808234e-01  3.37304314e-09  3.16121779e-09  3.25101782e-09  4.59808234e-01  4.59808234e-01  1.60616208e-07  1.55158303e-07  1.40000000e-01 
 1.50000000e-01  4.59808277e-01  4.59808277e-01  3.37304316e-09  3.16121785e-09  3.25101776e-09  4.59808277e-01  4.59808277e-01  1.60616293e-07  1.55158196e-07  1.50000000e-01 
 1.60000000e-01  4.59808277e-01  4.59808277e-01  3.37304314e-09  3.16121780e-09  3.25101776e-09  4.59808277e-01  4.59808277e-01  1.60616277e-07  1.55158091e-07  1.60000000e-01 
 1.70000000e-01  4.59808257e-01  4.59808257e-01  3.37304316e-09  3.16121779e-09  3.25101776e-09  4.59808257e-01  4.59808257e-01  1.60616251e-07  1.55157712e-07  1.70000000e-01 
 1.80000000e-01  4.59808265e-01  4.59808265e-01  3.37304314e-09  3.16121785e-09  3.25101782e-09  4.59808265e-01  4.59808265e-01  1.60616249e-07  1.55157514e-07  1.80000000e-01 
 1.90000000e-01  4.59808262e-01  4.59808262e-01  3.37304316e-09  3.16121785e-09  3.25101776e-09  4.59808262e-01  4.59808262e-01  1.60616252e-07  1.55157398e-07  1.90000000e-01 
 2.00000000e-01  4.59808246e-01  4.59808246e-01  3.37304314e-09  3.16121779e-09  3.25101776e-09  4.59808246e-01  4.59808246e-01  1.60616216e-07  1.55157016e-07  2.00000000e-01 
 2.10000000e-01  4.59808281e-01  4.59808281e-01  3.37304316e-09  3.16121780e-09  3.25101776e-09  4.59808281e-01  4.59808281e-01  1.60616275e-07  1.55156968e-07  2.10000000e-01 
 2.20000000e-01  4.59808262e-01  4.59808262e-01  3.37304319e-09  3.16121785e-09  3.25101782e-09  4.59808262e-01  4.59808262e-01  1.60616247e-07  1.55156755e-07  2.20000000e-01 
 2.30000000e-01  4.59808254e-01  4.59808254e-01  3.37304314e-09  3.16121785e-09  3.25101776e-09  4.59808254e-01  4.59808254e-01  1.60616241e-07  1.55156599e-07  2.30000000e-01 
 2.40000000e-01  4.59808268e-01  4.59808268e-01  3.37304314e-09  3.16121785e-09  3.25101782e-09  4.59808268e-01  4.59808268e-01  1.60616258e-07  1.55156421e-07  2.40000000e-01 
 2.50000000e-01  4.59808270e-01  4.59808270e-01  3.37304314e-09  3.16121785e-09  3.25101776e-09  4.59808270e-01  4.59808270e-01  1.60616272e-07  1.55156178e-07  2.50000000e-01 
 2.60000000e-01  4.59808261e-01  4.59808261e-01  3.37304314e-09  3.16121785e-09  3.25101776e-09  4.59808261e-01  4.59808261e-01  1.60616246e-07  1.55156068e-07  2.60000000e-01 
 2.70000000e-01  4.59808267e-01  4.59808267e-01  3.37304314e-09  3.16121779e-09  3.25101776e-09  4.59808267e-01  4.59808267e-01  1.60616270e-07  1.55155906e-07  2.70000000e-01 
 2.80000000e-01  4.59808264e-01  4.59808264e-01  3.37304314e-09  3.16121779e-09  3.25101782e-09  4.59808264e-01  4.59808264e-01  1.60616268e-07  1.55155680e-07  2.80000000e-01 
 2.90000000e-01  4.59808260e-01  4.59808260e-01  3.37304320e-09  3.16121779e-09  3.25101782e-09  4.59808260e-01  4.59808260e-01  1.60616251e-07  1.55155639e-07  2.90000000e-01 
 3.00000000e-01  4.59808261e-01  4.59808261e-01  3.37304314e-09  3.16121785e-09  3.25101776e-09  4.59808261e-01  4.59808261e-01  1.60616259e-07  1.55155462e-07  3.00000000e-01 
 3.10000000e-01  4.59808254e-01  4.59808254e-01  3.37304314e-09  3.16121779e-09  3.25101776e-09  4.59808254e-01  4.59808254e-01  1.60616225e-07  1.55155263e-07  3.10000000e-01 
 3.20000000e-01  4.59808258e-01  4.59808258e-01  3.37304314e-09  3.16121785e-09  3.25101782e-09  4.59808258e-01  4.59808258e-01  1.60616257e-07  1.55155128e-07  3.20000000e-01 
 3.30000000e-01  4.59808253e-01  4.59808253e-01  3.37304314e-09  3.16121779e-09  3.25101776e-09  4.59808253e-01  4.59808252e-01  1.60616241e-07  1.55154840e-07  3.30000000e-01 
 3.40000000e-01  4.59808295e-01  4.59808295e-01  3.37304314e-09  3.16121780e-09  3.25101782e-09  4.59808295e-01  4.59808295e-01  1.60616312e-07  1.55155028e-07  3.40000000e-01 
 3.50000000e-01  4.59808270e-01  4.59808270e-01  3.37304314e-09  3.16121780e-09  3.25101776e-09  4.59808270e-01  4.59808270e-01  1.60616262e-07  1.55154755e-07  3.50000000e-01 
 3.60000000e-01  4.59808268e-01  4.59808268e-01  3.37304314e-09  3.16121779e-09  3.25101782e-09  4.59808268e-01  4.59808268e-01  1.60616261e-07  1.55154599e-07  3.60000000e-01 
 3.70000000e-01  4.59808254e-01  4.59808254e-01  3.37304314e-09  3.16121785e-09  3.25101782e-09  4.59808254e-01  4.59808254e-01  1.60616234e-07  1.55154417e-07  3.70000000e-01 
 3.80000000e-01  4.59808259e-01  4.59808259e-01  3.37304320e-09  3.16121785e-09  3.25101782e-09  4.59808259e-01  4.59808259e-01  1.60616245e-07  1.55154265e-07  3.80000000e-01 
 3.90000000e-01  4.59808246e-01  4.59808246e-01  3.37304314e-09  3.16121779e-09  3.25101782e-09  4.59808246e-01  4.59808246e-01  1.60616233e-07  1.55154083e-07  3.90000000e-01 
 4.00000000e-01  4.59808239e-01  4.59808239e-01  3.37304314e-09  3.16121785e-09  3.25101776e-09  4.59808239e-01  4.59808239e-01  1.60616211e-07  1.55153995e-07  4.00000000e-01 
 4.10000000e-01  4.59808252e-01  4.59808252e-01  3.37304314e-09  3.16121785e-09  3.25101776e-09  4.59808252e-01  4.59808252e-01  1.60616247e-07  1.55153867e-07  4.10000000e-01 
 4.20000000e-01  4.59808248e-01  4.59808248e-01  3.37304314e-09  3.16121779e-09  3.25101782e-09  4.59808248e-01  4.59808248e-01  1.60616232e-07  1.55153749e-07  4.20000000e-01 
 4.30000000e-01  4.59808278e-01  4.59808278e-01  3.37304314e-09  3.16121785e-09  3.25101782e-09  4.59808278e-01  4.59808278e-01  1.60616278e-07  1.55153863e-07  4.30000000e-01 
 4.40000000e-01  4.59808265e-01  4.59808265e-01  3.37304314e-09  3.16121785e-09  3.25101776e-09  4.59808265e-01  4.59808265e-01  1.60616243e-07  1.55153796e-07  4.40000000e-01 
 4.50000000e-01  4.59808267e-01  4.59808267e-01  3.37304314e-09  3.16121785e-09  3.25101776e-09  4.59808267e-01  4.59808267e-01  1.60616273e-07  1.55153465e-07  4.50000000e-01 
 4.60000000e-01  4.59808256e-01  4.59808255e-01  3.37304314e-09  3.16121779e-09  3.25101782e-09  4.59808255e-01  4.59808255e-01  1.60616221e-07  1.55153401e-07  4.60000000e-01 
 4.70000000e-01  4.59808266e-01  4.59808266e-01  3.37304314e-09  3.16121779e-09  3.25101782e-09  4.59808266e-01  4.59808266e-01  1.60616258e-07  1.55153227e-07  4.70000000e-01 
 4.80000000e-01  4.59808252e-01  4.59808252e-01  3.37304320e-09  3.16121779e-09  3.25101782e-09  4.59808252e-01  4.59808252e-01  1.60616241e-07  1.55153131e-07  4.80000000e-01 
 4.90000000e-01  4.59808263e-01  4.59808263e-01  3.37304314e-09  3.16121785e-09  3.25101782e-09  4.59808263e-01  4.59808263e-01  1.60616262e-07  1.55153064e-07  4.90000000e-01 
 5.00000000e-01  4.59808262e-01  4.59808262e-01  3.37304314e-09  3.16121779e-09  3.25101782e-09  4.59808262e-01  4.59808262e-01  1.60616258e-07  1.55152900e-07  5.00000000e-01 
 5.10000000e-01  4.59808255e-01  4.59808255e-01  3.37304314e-09  3.16121779e-09  3.25101782e-09  4.59808255e-01  4.59808255e-01  1.60616245e-07  1.55152748e-07  5.10000000e-01 
 5.20000000e-01  4.59808283e-01  4.59808282e-01  3.37304314e-09  3.16121780e-09  3.25101782e-09  4.59808282e-01  4.59808282e-01  1.60616287e-07  1.55152716e-07  5.20000000e-01 
 5.30000000e-01  4.59808256e-01  4.59808256e-01  3.37304314e-09  3.16121785e-09  3.25101782e-09  4.59808256e-01  4.59808256e-01  1.60616254e-07  1.55152534e-07  5.30000000e-01 
 5.40000000e-01  4.59808263e-01  4.59808263e-01  3.37304314e-09  3.16121779e-09  3.25101782e-09  4.59808263e-01  4.59808263e-01  1.60616249e-07  1.55152545e-07  5.40000000e-01 
 5.50000000e-01  4.59808237e-01  4.59808237e-01  3.37304314e-09  3.16121779e-09  3.25101782e-09  4.59808237e-01  4.59808237e-01  1.60616212e-07  1.55152279e-07  5.50000000e-01 
 5.60000000e-01  4.59808266e-01  4.59808266e-01  3.37304316e-09  3.16121779e-09  3.25101776e-09  4.59808266e-01  4.59808266e-01  1.60616254e-07  1.55152353e-07  5.60000000e-01 
 5.70000000e-01  4.59808263e-01  4.59808263e-01  3.37304314e-09  3.16121779e-09  3.25101776e-09  4.59808263e-01  4.59808263e-01  1.60616248e-07  1.55152104e-07  5.70000000e-01 
 5.80000000e-01  4.59808270e-01  4.59808270e-01  3.37304316e-09  3.16121780e-09  3.25101782e-09  4.59808270e-01  4.59808270e-01  1.60616255e-07  1.55152158e-07  5.80000000e-01 
 5.90000000e-01  4.59808264e-01  4.59808263e-01  3.37304314e-09  3.16121779e-09  3.25101776e-09  4.59808263e-01  4.59808263e-01  1.60616261e-07  1.55152016e-07  5.90000000e-01 
 6.00000000e-01  4.59808260e-01  4.59808260e-01  3.37304316e-09  3.16121785e-09  3.25101776e-09  4.59808260e-01  4.59808260e-01  1.60616243e-07  1.55151888e-07  6.00000000e-01 
 6.10000000e-01  4.59808268e-01  4.59808268e-01  3.37304314e-09  3.16121779e-09  3.25101782e-09  4.59808268e-01  4.59808268e-01  1.60616249e-07  1.55151803e-07  6.10000000e-01 
 6.20000000e-01  4.59808260e-01  4.59808260e-01  3.37304316e-09  3.16121779e-09  3.25101776e-09  4.59808260e-01  4.59808260e-01  1.60616245e-07  1.55151632e-07  6.20000000e-01 
 6.30000000e-01  4.59808278e-01  4.59808278e-01  3.37304314e-09  3.16121780e-09  3.25101782e-09  4.59808278e-01  4.59808278e-01  1.60616279e-07  1.55151632e-07  6.30000000e-01 
 6.40000000e-01  4.59808268e-01  4.59808268e-01  3.37304316e-09  3.16121779e-09  3.25101776e-09  4.59808268e-01  4.59808268e-01  1.60616254e-07  1.55151511e-07  6.40000000e-01 
 6.50000000e-01  4.59808269e-01  4.59808269e-01  3.37304314e-09  3.16121785e-09  3.25101776e-09  4.59808269e-01  4.59808269e-01  1.60616259e-07  1.55151398e-07  6.50000000e-01 
 6.60000000e-01  4.59808244e-01  4.59808244e-01  3.37304315e-09  3.16121779e-09  3.25101782e-09  4.59808244e-01  4.59808244e-01  1.60616229e-07  1.55151099e-07  6.60000000e-01 
 6.70000000e-01  4.59808254e-01  4.59808254e-01  3.37304319e-09  3.16121785e-09  3.25101782e-09  4.59808254e-01  4.59808254e-01  1.60616242e-07  1.55151035e-07  6.70000000e-01 
 6.80000000e-01  4.59808264e-01  4.59808264e-01  3.37304314e-09  3.16121785e-09  3.25101776e-09  4.59808264e-01  4.59808264e-01  1.60616260e-07  1.55151085e-07  6.80000000e-01 
 6.90000000e-01  4.59808261e-01  4.59808260e-01  3.37304314e-09  3.16121785e-09  3.25101776e-09  4.59808260e-01  4.59808260e-01  1.60616259e-07  1.55150971e-07  6.90000000e-01 
 7.00000000e-01  4.59808274e-01  4.59808274e-01  3.37304314e-09  3.16121780e-09  3.25101776e-09  4.59808274e-01  4.59808274e-01  1.60616269e-07  1.55150808e-07  7.00000000e-01 
 7.10000000e-01  4.59808299e-01  4.59808298e-01  3.37304315e-09  3.16121785e-09  3.25101776e-09  4.59808298e-01  4.59808298e-01  1.60616301e-07  1.55150751e-07  7.10000000e-01 
 7.20000000e-01  4.59808272e-01  4.59808271e-01  3.37304314e-09  3.16121785e-09  3.25101776e-09  4.59808271e-01  4.59808271e-01  1.60616270e-07  1.55150701e-07  7.20000000e-01 
 7.30000000e-01  4.59808270e-01  4.59808270e-01  3.37304314e-09  3.16121780e-09  3.25101782e-09  4.59808270e-01  4.59808270e-01  1.60616265e-07  1.55150566e-07  7.30000000e-01 
 7.40000000e-01  4.59808250e-01  4.59808250e-01  3.37304314e-09  3.16121785e-09  3.25101782e-09  4.59808250e-01  4.59808250e-01  1.60616230e-07  1.55150317e-07  7.40000000e-01 
 7.50000000e-01  4.59808263e-01  4.59808263e-01  3.37304314e-09  3.16121785e-09  3.25101782e-09  4.59808263e-01  4.59808263e-01  1.60616256e-07  1.55150289e-07  7.50000000e-01 
 7.60000000e-01  4.59808255e-01  4.59808254e-01  3.37304314e-09  3.16121779e-09  3.25101782e-09  4.59808254e-01  4.59808254e-01  1.60616251e-07  1.55150275e-07  7.60000000e-01 
 7.70000000e-01  4.59808250e-01  4.59808250e-01  3.37304314e-09  3.16121779e-09  3.25101776e-09  4.59808250e-01  4.59808250e-01  1.60616231e-07  1.55149984e-07  7.70000000e-01 
 7.80000000e-01  4.59808245e-01  4.59808245e-01  3.37304314e-09  3.16121779e-09  3.25101782e-09  4.59808245e-01  4.59808245e-01  1.60616239e-07  1.55149891e-07  7.80000000e-01 
 7.90000000e-01  4.59808257e-01  4.59808257e-01  3.37304314e-09  3.16121785e-09  3.25101782e-09  4.59808257e-01  4.59808257e-01  1.60616242e-07  1.55149856e-07  7.90000000e-01 
 8.00000000e-01  4.59808254e-01  4.59808254e-01  3.37304314e-09  3.16121785e-09  3.25101776e-09  4.59808254e-01  4.59808254e-01  1.60616236e-07  1.55149650e-07  8.00000000e-01 
 8.10000000e-01  4.59808272e-01  4.59808272e-01  3.37304314e-09  3.16121780e-09  3.25101782e-09  4.59808272e-01  4.59808272e-01  1.60616266e-07  1.55149550e-07  8.10000000e-01 
 8.20000000e-01  4.59808267e-01  4.59808267e-01  3.37304320e-09  3.16121785e-09  3.25101776e-09  4.59808267e-01  4.59808267e-01  1.60616257e-07  1.55149628e-07  8.20000000e-01 
 8.30000000e-01  4.59808251e-01  4.59808251e-01  3.37304320e-09  3.16121779e-09  3.25101776e-09  4.59808251e-01  4.59808251e-01  1.60616234e-07  1.55149351e-07  8.30000000e-01 
 8.40000000e-01  4.59808260e-01  4.59808260e-01  3.37304320e-09  3.16121785e-09  3.25101776e-09  4.59808260e-01  4.59808260e-01  1.60616248e-07  1.55149280e-07  8.40000000e-01 
 8.50000000e-01  4.59808278e-01  4.59808277e-01  3.37304314e-09  3.16121780e-09  3.25101776e-09  4.59808277e-01  4.59808277e-01  1.60616274e-07  1.55149223e-07  8.50000000e-01 
 8.60000000e-01  4.59808257e-01  4.59808257e-01  3.37304314e-09  3.16121785e-09  3.25101776e-09  4.59808257e-01  4.59808257e-01  1.60616258e-07  1.55149110e-07  8.60000000e-01 
 8.70000000e-01  4.59808274e-01  4.59808274e-01  3.37304320e-09  3.16121785e-09  3.25101782e-09  4.59808274e-01  4.59808274e-01  1.60616268e-07  1.55148847e-07  8.70000000e-01 
 8.80000000e-01  4.59808278e-01  4.59808278e-01  3.37304320e-09  3.16121785e-09  3.25101782e-09  4.59808278e-01  4.59808278e-01  1.60616277e-07  1.55148896e-07  8.80000000e-01 
 8.90000000e-01  4.59808278e-01  4.59808278e-01  3.37304314e-09  3.16121780e-09  3.25101782e-09  4.59808278e-01  4.59808278e-01  1.60616270e-07  1.55148641e-07  8.90000000e-01 
 9.00000000e-01  4.59808283e-01  4.59808282e-01  3.37304314e-09  3.16121780e-09  3.25101782e-09  4.59808282e-01  4.59808282e-01  1.60616272e-07  1.55148641e-07  9.00000000e-01 
 9.10000000e-01  4.59808285e-01  4.59808284e-01  3.37304314e-09  3.16121780e-09  3.25101776e-09  4.59808284e-01  4.59808284e-01  1.60616284e-07  1.55148534e-07  9.10000000e-01 
 9.20000000e-01  4.59808263e-01  4.59808263e-01  3.37304314e-09  3.16121785e-09  3.25101782e-09  4.59808263e-01  4.59808262e-01  1.60616252e-07  1.55148314e-07  9.20000000e-01 
 9.30000000e-01  4.59808265e-01  4.59808265e-01  3.37304314e-09  3.16121779e-09  3.25101776e-09  4.59808265e-01  4.59808265e-01  1.60616258e-07  1.55148328e-07  9.30000000e-01 
 9.40000000e-01  4.59808255e-01  4.59808255e-01  3.37304314e-09  3.16121785e-09  3.25101782e-09  4.59808255e-01  4.59808255e-01  1.60616242e-07  1.55148072e-07  9.40000000e-01 
 9.50000000e-01  4.59808282e-01  4.59808282e-01  3.37304314e-09  3.16121780e-09  3.25101782e-09  4.59808282e-01  4.59808282e-01  1.60616285e-07  1.55148086e-07  9.50000000e-01 
 9.60000000e-01  4.59808249e-01  4.59808249e-01  3.37304314e-09  3.16121785e-09  3.25101782e-09  4.59808249e-01  4.59808249e-01  1.60616234e-07  1.55147724e-07  9.60000000e-01 
 9.70000000e-01  4.59808269e-01  4.59808269e-01  3.37304314e-09  3.16121785e-09  3.25101782e-09  4.59808269e-01  4.59808269e-01  1.60616270e-07  1.55147831e-07  9.70000000e-01 
 9.80000000e-01  4.59808267e-01  4.59808267e-01  3.37304314e-09  3.16121779e-09  3.25101782e-09  4.59808267e-01  4.59808267e-01  1.60616270e-07  1.55147653e-07  9.80000000e-01 
 9.90000000e-01  4.59808240e-01  4.59808240e-01  3.37304314e-09  3.16121785e-09  3.25101776e-09  4.59808240e-01  4.59808240e-01  1.60616234e-07  1.55147333e-07  9.90000000e-01 
 1.00000000e+00  4.59808264e-01  4.59808264e-01  3.37304314e-09  3.16121779e-09  3.25101782e-09  4.59808264e-01  4.59808264e-01  1.60616266e-07  1.55147326e-07  1.00000000e+00 
 1.01000000e+00  4.59808276e-01  4.59808276e-01  3.37304320e-09  3.16121780e-09  3.25101776e-09  4.59808276e-01  4.59808276e-01  1.60616274e-07  1.55147269e-07  1.01000000e+00 
 1.02000000e+00  4.59808274e-01  4.59808274e-01  3.37304314e-09  3.16121780e-09  3.25101782e-09  4.59808274e-01  4.59808274e-01  1.60616267e-07  1.55147049e-07  1.02000000e+00 
 1.03000000e+00  4.59808250e-01  4.59808250e-01  3.37304314e-09  3.16121785e-09  3.25101776e-09  4.59808250e-01  4.59808250e-01  1.60616235e-07  1.55146950e-07  1.03000000e+00 
 1.04000000e+00  4.59808282e-01  4.59808282e-01  3.37304314e-09  3.16121785e-09  3.25101782e-09  4.59808282e-01  4.59808282e-01  1.60616290e-07  1.55146893e-07  1.04000000e+00 
 1.05000000e+00  4.59808263e-01  4.59808263e-01  3.37304314e-09  3.16121779e-09  3.25101776e-09  4.59808263e-01  4.59808263e-01  1.60616255e-07  1.55146637e-07  1.05000000e+00 
 1.06000000e+00  4.59808274e-01  4.59808274e-01  3.37304314e-09  3.16121785e-09  3.25101776e-09  4.59808274e-01  4.59808274e-01  1.60616273e-07  1.55146623e-07  1.06000000e+00 
 1.07000000e+00  4.59808282e-01  4.59808282e-01  3.37304314e-09  3.16121785e-09  3.25101776e-09  4.59808282e-01  4.59808282e-01  1.60616282e-07  1.55146523e-07  1.07000000e+00 
 1.08000000e+00  4.59808250e-01  4.59808250e-01  3.37304314e-09  3.16121779e-09  3.25101782e-09  4.59808250e-01  4.59808250e-01  1.60616241e-07  1.55146196e-07  1.08000000e+00 
 1.09000000e+00  4.59808259e-01  4.59808259e-01  3.37304314e-09  3.16121785e-09  3.25101776e-09  4.59808259e-01  4.59808259e-01  1.60616254e-07  1.55146196e-07  1.09000000e+00 
 1.10000000e+00  4.59808253e-01  4.59808253e-01  3.37304314e-09  3.16121785e-09  3.25101782e-09  4.59808253e-01  4.59808253e-01  1.60616242e-07  1.55146019e-07  1.10000000e+00 
