 v-sweep         v(b0)           v(b1)           v(b2)           v(b3)           v(b4)           v(b5)           v(b6)           i(vbias)        i(viout)        v(vout)        
 0.00000000e+00  3.27026685e-09  4.59894238e-01  3.09400916e-09  3.19186294e-09  3.32054055e-09  3.33776514e-09  4.59894238e-01  1.63861336e-07  1.07934365e-07  0.00000000e+00 
 1.00000000e-02  3.27026689e-09  4.59894221e-01  3.09400913e-09  3.19186297e-09  3.32054058e-09  3.33776517e-09  4.59894221e-01  1.63861307e-07  1.07933974e-07  1.00000000e-02 
 2.00000000e-02  3.27026689e-09  4.59894229e-01  3.09400913e-09  3.19186291e-09  3.32054051e-09  3.33776517e-09  4.59894229e-01  1.63861313e-07  1.07933562e-07  2.00000000e-02 
 3.00000000e-02  3.27026689e-09  4.59894245e-01  3.09400919e-09  3.19186293e-09  3.32054059e-09  3.33776518e-09  4.59894245e-01  1.63861338e-07  1.07933314e-07  3.00000000e-02 
 4.00000000e-02  3.27026689e-09  4.59894212e-01  3.09400918e-09  3.19186298e-09  3.32054057e-09  3.33776512e-09  4.59894212e-01  1.63861283e-07  1.07932732e-07  4.00000000e-02 
 5.00000000e-02  3.27026689e-09  4.59894230e-01  3.09400918e-09  3.19186291e-09  3.32054058e-09  3.33776512e-09  4.59894230e-01  1.63861311e-07  1.07932427e-07  5.00000000e-02 
 6.00000000e-02  3.27026689e-09  4.59894232e-01  3.09400918e-09  3.19186298e-09  3.32054052e-09  3.33776512e-09  4.59894232e-01  1.63861318e-07  1.07932242e-07  6.00000000e-02 
 7.00000000e-02  3.27026694e-09  4.59894233e-01  3.09400913e-09  3.19186296e-09  3.32054053e-09  3.33776517e-09  4.59894233e-01  1.63861331e-07  1.07931798e-07  7.00000000e-02 
 8.00000000e-02  3.27026689e-09  4.59894227e-01  3.09400914e-09  3.19186291e-09  3.32054058e-09  3.33776512e-09  4.59894227e-01  1.63861306e-07  1.07931509e-07  8.00000000e-02 
 9.00000000e-02  3.27026689e-09  4.59894238e-01  3.09400919e-09  3.19186293e-09  3.32054057e-09  3.33776512e-09  4.59894238e-01  1.63861335e-07  1.07931243e-07  9.00000000e-02 
 1.00000000e-01  3.27026689e-09  4.59894226e-01  3.09400918e-09  3.19186292e-09  3.32054058e-09  3.33776512e-09  4.59894226e-01  1.63861310e-07  1.07930981e-07  1.00000000e-01 
 1.10000000e-01  3.27026689e-09  4.59894218e-01  3.09400918e-09  3.19186292e-09  3.32054052e-09  3.33776517e-09  4.59894218e-01  1.63861304e-07  1.07930699e-07  1.10000000e-01 
 1.20000000e-01  3.27026689e-09  4.59894216e-01  3.09400918e-09  3.19186292e-09  3.32054053e-09  3.33776512e-09  4.59894216e-01  1.63861287e-07  1.07930375e-07  1.20000000e-01 
 1.30000000e-01  3.27026689e-09  4.59894222e-01  3.09400918e-09  3.19186292e-09  3.32054058e-09  3.33776512e-09  4.59894222e-01  1.63861306e-07  1.07930155e-07  1.30000000e-01 
 1.40000000e-01  3.27026689e-09  4.59894239e-01  3.09400918e-09  3.19186292e-09  3.32054057e-09  3.33776517e-09  4.59894239e-01  1.63861338e-07  1.07930095e-07  1.40000000e-01 
 1.50000000e-01  3.27026689e-09  4.59894245e-01  3.09400918e-09  3.19186298e-09  3.32054058e-09  3.33776512e-09  4.59894245e-01  1.63861328e-07  1.07929859e-07  1.50000000e-01 
 1.60000000e-01  3.27026689e-09  4.59894235e-01  3.09400918e-09  3.19186291e-09  3.32054052e-09  3.33776512e-09  4.59894235e-01  1.63861332e-07  1.07929502e-07  1.60000000e-01 
 1.70000000e-01  3.27026689e-09  4.59894230e-01  3.09400918e-09  3.19186293e-09  3.32054059e-09  3.33776517e-09  4.59894230e-01  1.63861298e-07  1.07929408e-07  1.70000000e-01 
 1.80000000e-01  3.27026689e-09  4.59894232e-01  3.09400918e-09  3.19186292e-09  3.32054057e-09  3.33776512e-09  4.59894232e-01  1.63861305e-07  1.07929182e-07  1.80000000e-01 
 1.90000000e-01  3.27026694e-09  4.59894250e-01  3.09400918e-09  3.19186292e-09  3.32054058e-09  3.33776512e-09  4.59894250e-01  1.63861342e-07  1.07929024e-07  1.90000000e-01 
 2.00000000e-01  3.27026689e-09  4.59894225e-01  3.09400918e-09  3.19186292e-09  3.32054058e-09  3.33776512e-09  4.59894225e-01  1.63861302e-07  1.07928788e-07  2.00000000e-01 
 2.10000000e-01  3.27026689e-09  4.59894213e-01  3.09400912e-09  3.19186292e-09  3.32054058e-09  3.33776517e-09  4.59894213e-01  1.63861283e-07  1.07928544e-07  2.10000000e-01 
 2.20000000e-01  3.27026689e-09  4.59894227e-01  3.09400919e-09  3.19186298e-09  3.32054058e-09  3.33776512e-09  4.59894227e-01  1.63861319e-07  1.07928475e-07  2.20000000e-01 
 2.30000000e-01  3.27026689e-09  4.59894237e-01  3.09400918e-09  3.19186296e-09  3.32054058e-09  3.33776512e-09  4.59894237e-01  1.63861309e-07  1.07928338e-07  2.30000000e-01 
 2.40000000e-01  3.27026689e-09  4.59894218e-01  3.09400918e-09  3.19186291e-09  3.32054058e-09  3.33776512e-09  4.59894218e-01  1.63861302e-07  1.07928113e-07  2.40000000e-01 
 2.50000000e-01  3.27026689e-09  4.59894234e-01  3.09400918e-09  3.19186293e-09  3.32054058e-09  3.33776517e-09  4.59894234e-01  1.63861330e-07  1.07927953e-07  2.50000000e-01 
 2.60000000e-01  3.27026689e-09  4.59894245e-01  3.09400918e-09  3.19186292e-09  3.32054058e-09  3.33776512e-09  4.59894245e-01  1.63861349e-07  1.07927855e-07  2.60000000e-01 
 2.70000000e-01  3.27026689e-09  4.59894234e-01  3.09400913e-09  3.19186292e-09  3.32054058e-09  3.33776512e-09  4.59894234e-01  1.63861308e-07  1.07927830e-07  2.70000000e-01 
 2.80000000e-01  3.27026694e-09  4.59894221e-01  3.09400914e-09  3.19186292e-09  3.32054052e-09  3.33776512e-09  4.59894221e-01  1.63861307e-07  1.07927628e-07  2.80000000e-01 
 2.90000000e-01  3.27026689e-09  4.59894228e-01  3.09400919e-09  3.19186292e-09  3.32054059e-09  3.33776517e-09  4.59894228e-01  1.63861314e-07  1.07927470e-07  2.90000000e-01 
 3.00000000e-01  3.27026689e-09  4.59894247e-01  3.09400918e-09  3.19186292e-09  3.32054057e-09  3.33776518e-09  4.59894247e-01  1.63861348e-07  1.07927384e-07  3.00000000e-01 
 3.10000000e-01  3.27026689e-09  4.59894229e-01  3.09400918e-09  3.19186298e-09  3.32054058e-09  3.33776512e-09  4.59894229e-01  1.63861313e-07  1.07927189e-07  3.10000000e-01 
 3.20000000e-01  3.27026689e-09  4.59894227e-01  3.09400918e-09  3.19186296e-09  3.32054052e-09  3.33776512e-09  4.59894227e-01  1.63861312e-07  1.07927050e-07  3.20000000e-01 
 3.30000000e-01  3.27026689e-09  4.59894224e-01  3.09400918e-09  3.19186291e-09  3.32054059e-09  3.33776512e-09  4.59894224e-01  1.63861312e-07  1.07926926e-07  3.30000000e-01 
 3.40000000e-01  3.27026694e-09  4.59894251e-01  3.09400918e-09  3.19186293e-09  3.32054057e-09  3.33776512e-09  4.59894251e-01  1.63861349e-07  1.07926954e-07  3.40000000e-01 
 3.50000000e-01  3.27026688e-09  4.59894201e-01  3.09400918e-09  3.19186292e-09  3.32054058e-09  3.33776517e-09  4.59894201e-01  1.63861270e-07  1.07926724e-07  3.50000000e-01 
 3.60000000e-01  3.27026689e-09  4.59894222e-01  3.09400918e-09  3.19186292e-09  3.32054052e-09  3.33776517e-09  4.59894222e-01  1.63861316e-07  1.07926745e-07  3.60000000e-01 
 3.70000000e-01  3.27026688e-09  4.59894202e-01  3.09400918e-09  3.19186292e-09  3.32054053e-09  3.33776517e-09  4.59894202e-01  1.63861281e-07  1.07926553e-07  3.70000000e-01 
 3.80000000e-01  3.27026694e-09  4.59894212e-01  3.09400918e-09  3.19186292e-09  3.32054053e-09  3.33776517e-09  4.59894212e-01  1.63861287e-07  1.07926358e-07  3.80000000e-01 
 3.90000000e-01  3.27026689e-09  4.59894213e-01  3.09400918e-09  3.19186292e-09  3.32054053e-09  3.33776517e-09  4.59894213e-01  1.63861291e-07  1.07926262e-07  3.90000000e-01 
 4.00000000e-01  3.27026689e-09  4.59894234e-01  3.09400918e-09  3.19186292e-09  3.32054058e-09  3.33776517e-09  4.59894234e-01  1.63861320e-07  1.07926194e-07  4.00000000e-01 
 4.10000000e-01  3.27026689e-09  4.59894227e-01  3.09400918e-09  3.19186298e-09  3.32054057e-09  3.33776517e-09  4.59894227e-01  1.63861315e-07  1.07926194e-07  4.10000000e-01 
 4.20000000e-01  3.27026688e-09  4.59894209e-01  3.09400918e-09  3.19186291e-09  3.32054058e-09  3.33776512e-09  4.59894209e-01  1.63861286e-07  1.07926017e-07  4.20000000e-01 
 4.30000000e-01  3.27026688e-09  4.59894202e-01  3.09400918e-09  3.19186292e-09  3.32054058e-09  3.33776517e-09  4.59894202e-01  1.63861266e-07  1.07925896e-07  4.30000000e-01 
 4.40000000e-01  3.27026689e-09  4.59894216e-01  3.09400912e-09  3.19186292e-09  3.32054052e-09  3.33776512e-09  4.59894216e-01  1.63861294e-07  1.07925857e-07  4.40000000e-01 
 4.50000000e-01  3.27026689e-09  4.59894232e-01  3.09400919e-09  3.19186298e-09  3.32054059e-09  3.33776512e-09  4.59894232e-01  1.63861324e-07  1.07925828e-07  4.50000000e-01 
 4.60000000e-01  3.27026689e-09  4.59894234e-01  3.09400918e-09  3.19186291e-09  3.32054057e-09  3.33776512e-09  4.59894234e-01  1.63861327e-07  1.07925700e-07  4.60000000e-01 
 4.70000000e-01  3.27026689e-09  4.59894231e-01  3.09400913e-09  3.19186293e-09  3.32054058e-09  3.33776512e-09  4.59894231e-01  1.63861317e-07  1.07925594e-07  4.70000000e-01 
 4.80000000e-01  3.27026694e-09  4.59894249e-01  3.09400920e-09  3.19186298e-09  3.32054058e-09  3.33776518e-09  4.59894249e-01  1.63861349e-07  1.07925590e-07  4.80000000e-01 
 4.90000000e-01  3.27026694e-09  4.59894220e-01  3.09400918e-09  3.19186291e-09  3.32054052e-09  3.33776512e-09  4.59894220e-01  1.63861300e-07  1.07925430e-07  4.90000000e-01 
 5.00000000e-01  3.27026689e-09  4.59894213e-01  3.09400918e-09  3.19186292e-09  3.32054059e-09  3.33776512e-09  4.59894213e-01  1.63861292e-07  1.07925196e-07  5.00000000e-01 
 5.10000000e-01  3.27026689e-09  4.59894222e-01  3.09400918e-09  3.19186292e-09  3.32054057e-09  3.33776512e-09  4.59894222e-01  1.63861305e-07  1.07925263e-07  5.10000000e-01 
 5.20000000e-01  3.27026689e-09  4.59894226e-01  3.09400913e-09  3.19186292e-09  3.32054052e-09  3.33776512e-09  4.59894226e-01  1.63861311e-07  1.07925249e-07  5.20000000e-01 
 5.30000000e-01  3.27026689e-09  4.59894247e-01  3.09400920e-09  3.19186292e-09  3.32054053e-09  3.33776518e-09  4.59894247e-01  1.63861340e-07  1.07925249e-07  5.30000000e-01 
 5.40000000e-01  3.27026694e-09  4.59894219e-01  3.09400918e-09  3.19186298e-09  3.32054053e-09  3.33776517e-09  4.59894219e-01  1.63861298e-07  1.07925079e-07  5.40000000e-01 
 5.50000000e-01  3.27026689e-09  4.59894210e-01  3.09400918e-09  3.19186296e-09  3.32054058e-09  3.33776517e-09  4.59894210e-01  1.63861288e-07  1.07924880e-07  5.50000000e-01 
 5.60000000e-01  3.27026689e-09  4.59894220e-01  3.09400918e-09  3.19186291e-09  3.32054051e-09  3.33776517e-09  4.59894220e-01  1.63861312e-07  1.07924816e-07  5.60000000e-01 
 5.70000000e-01  3.27026689e-09  4.59894235e-01  3.09400918e-09  3.19186293e-09  3.32054053e-09  3.33776517e-09  4.59894235e-01  1.63861325e-07  1.07924702e-07  5.70000000e-01 
 5.80000000e-01  3.27026694e-09  4.59894210e-01  3.09400918e-09  3.19186292e-09  3.32054053e-09  3.33776517e-09  4.59894210e-01  1.63861288e-07  1.07924770e-07  5.80000000e-01 
 5.90000000e-01  3.27026689e-09  4.59894233e-01  3.09400918e-09  3.19186298e-09  3.32054053e-09  3.33776517e-09  4.59894233e-01  1.63861332e-07  1.07924699e-07  5.90000000e-01 
 6.00000000e-01  3.27026689e-09  4.59894214e-01  3.09400912e-09  3.19186296e-09  3.32054058e-09  3.33776512e-09  4.59894214e-01  1.63861292e-07  1.07924592e-07  6.00000000e-01 
 6.10000000e-01  3.27026694e-09  4.59894214e-01  3.09400914e-09  3.19186291e-09  3.32054057e-09  3.33776512e-09  4.59894214e-01  1.63861282e-07  1.07924457e-07  6.10000000e-01 
 6.20000000e-01  3.27026694e-09  4.59894215e-01  3.09400919e-09  3.19186292e-09  3.32054058e-09  3.33776517e-09  4.59894215e-01  1.63861305e-07  1.07924350e-07  6.20000000e-01 
 6.30000000e-01  3.27026689e-09  4.59894224e-01  3.09400918e-09  3.19186292e-09  3.32054058e-09  3.33776517e-09  4.59894224e-01  1.63861311e-07  1.07924393e-07  6.30000000e-01 
 6.40000000e-01  3.27026689e-09  4.59894241e-01  3.09400913e-09  3.19186292e-09  3.32054058e-09  3.33776512e-09  4.59894241e-01  1.63861327e-07  1.07924279e-07  6.40000000e-01 
 6.50000000e-01  3.27026694e-09  4.59894226e-01  3.09400914e-09  3.19186292e-09  3.32054058e-09  3.33776512e-09  4.59894226e-01  1.63861313e-07  1.07924222e-07  6.50000000e-01 
 6.60000000e-01  3.27026688e-09  4.59894208e-01  3.09400913e-09  3.19186292e-09  3.32054058e-09  3.33776517e-09  4.59894208e-01  1.63861280e-07  1.07924102e-07  6.60000000e-01 
 6.70000000e-01  3.27026689e-09  4.59894228e-01  3.09400919e-09  3.19186292e-09  3.32054052e-09  3.33776517e-09  4.59894228e-01  1.63861313e-07  1.07923952e-07  6.70000000e-01 
 6.80000000e-01  3.27026689e-09  4.59894210e-01  3.09400917e-09  3.19186292e-09  3.32054059e-09  3.33776517e-09  4.59894210e-01  1.63861280e-07  1.07924023e-07  6.80000000e-01 
 6.90000000e-01  3.27026689e-09  4.59894213e-01  3.09400918e-09  3.19186298e-09  3.32054057e-09  3.33776517e-09  4.59894213e-01  1.63861291e-07  1.07923846e-07  6.90000000e-01 
 7.00000000e-01  3.27026689e-09  4.59894216e-01  3.09400918e-09  3.19186296e-09  3.32054052e-09  3.33776512e-09  4.59894216e-01  1.63861301e-07  1.07923711e-07  7.00000000e-01 
 7.10000000e-01  3.27026689e-09  4.59894255e-01  3.09400918e-09  3.19186291e-09  3.32054053e-09  3.33776512e-09  4.59894255e-01  1.63861339e-07  1.07923825e-07  7.10000000e-01 
 7.20000000e-01  3.27026694e-09  4.59894210e-01  3.09400918e-09  3.19186292e-09  3.32054058e-09  3.33776517e-09  4.59894210e-01  1.63861291e-07  1.07923576e-07  7.20000000e-01 
 7.30000000e-01  3.27026694e-09  4.59894226e-01  3.09400918e-09  3.19186292e-09  3.32054057e-09  3.33776517e-09  4.59894226e-01  1.63861311e-07  1.07923533e-07  7.30000000e-01 
 7.40000000e-01  3.27026689e-09  4.59894215e-01  3.09400918e-09  3.19186298e-09  3.32054058e-09  3.33776517e-09  4.59894215e-01  1.63861296e-07  1.07923462e-07  7.40000000e-01 
 7.50000000e-01  3.27026689e-09  4.59894225e-01  3.09400913e-09  3.19186296e-09  3.32054052e-09  3.33776517e-09  4.59894225e-01  1.63861308e-07  1.07923334e-07  7.50000000e-01 
 7.60000000e-01  3.27026689e-09  4.59894219e-01  3.09400919e-09  3.19186297e-09  3.32054059e-09  3.33776517e-09  4.59894219e-01  1.63861297e-07  1.07923320e-07  7.60000000e-01 
 7.70000000e-01  3.27026689e-09  4.59894212e-01  3.09400918e-09  3.19186291e-09  3.32054057e-09  3.33776512e-09  4.59894212e-01  1.63861283e-07  1.07923178e-07  7.70000000e-01 
 7.80000000e-01  3.27026689e-09  4.59894214e-01  3.09400918e-09  3.19186292e-09  3.32054058e-09  3.33776517e-09  4.59894214e-01  1.63861301e-07  1.07923007e-07  7.80000000e-01 
 7.90000000e-01  3.27026689e-09  4.59894228e-01  3.09400913e-09  3.19186292e-09  3.32054058e-09  3.33776517e-09  4.59894228e-01  1.63861325e-07  1.07923050e-07  7.90000000e-01 
 8.00000000e-01  3.27026689e-09  4.59894220e-01  3.09400914e-09  3.19186292e-09  3.32054058e-09  3.33776517e-09  4.59894220e-01  1.63861299e-07  1.07922922e-07  8.00000000e-01 
 8.10000000e-01  3.27026689e-09  4.59894230e-01  3.09400919e-09  3.19186292e-09  3.32054058e-09  3.33776512e-09  4.59894230e-01  1.63861330e-07  1.07922929e-07  8.10000000e-01 
 8.20000000e-01  3.27026694e-09  4.59894252e-01  3.09400918e-09  3.19186292e-09  3.32054052e-09  3.33776518e-09  4.59894252e-01  1.63861346e-07  1.07922965e-07  8.20000000e-01 
 8.30000000e-01  3.27026694e-09  4.59894233e-01  3.09400918e-09  3.19186298e-09  3.32054059e-09  3.33776517e-09  4.59894233e-01  1.63861325e-07  1.07922702e-07  8.30000000e-01 
 8.40000000e-01  3.27026689e-09  4.59894231e-01  3.09400918e-09  3.19186291e-09  3.32054057e-09  3.33776512e-09  4.59894231e-01  1.63861321e-07  1.07922652e-07  8.40000000e-01 
 8.50000000e-01  3.27026689e-09  4.59894226e-01  3.09400913e-09  3.19186292e-09  3.32054058e-09  3.33776517e-09  4.59894226e-01  1.63861312e-07  1.07922546e-07  8.50000000e-01 
 8.60000000e-01  3.27026689e-09  4.59894217e-01  3.09400919e-09  3.19186292e-09  3.32054058e-09  3.33776517e-09  4.59894217e-01  1.63861300e-07  1.07922453e-07  8.60000000e-01 
 8.70000000e-01  3.27026689e-09  4.59894217e-01  3.09400918e-09  3.19186298e-09  3.32054052e-09  3.33776512e-09  4.59894217e-01  1.63861289e-07  1.07922375e-07  8.70000000e-01 
 8.80000000e-01  3.27026694e-09  4.59894229e-01  3.09400918e-09  3.19186291e-09  3.32054059e-09  3.33776512e-09  4.59894229e-01  1.63861316e-07  1.07922389e-07  8.80000000e-01 
 8.90000000e-01  3.27026689e-09  4.59894229e-01  3.09400918e-09  3.19186293e-09  3.32054057e-09  3.33776512e-09  4.59894229e-01  1.63861306e-07  1.07922304e-07  8.90000000e-01 
 9.00000000e-01  3.27026689e-09  4.59894242e-01  3.09400918e-09  3.19186298e-09  3.32054058e-09  3.33776518e-09  4.59894242e-01  1.63861325e-07  1.07922297e-07  9.00000000e-01 
 9.10000000e-01  3.27026689e-09  4.59894220e-01  3.09400912e-09  3.19186296e-09  3.32054058e-09  3.33776512e-09  4.59894220e-01  1.63861294e-07  1.07922077e-07  9.10000000e-01 
 9.20000000e-01  3.27026689e-09  4.59894230e-01  3.09400919e-09  3.19186297e-09  3.32054052e-09  3.33776517e-09  4.59894230e-01  1.63861316e-07  1.07921956e-07  9.20000000e-01 
 9.30000000e-01  3.27026689e-09  4.59894217e-01  3.09400918e-09  3.19186297e-09  3.32054059e-09  3.33776517e-09  4.59894218e-01  1.63861300e-07  1.07921935e-07  9.30000000e-01 
 9.40000000e-01  3.27026689e-09  4.59894235e-01  3.09400918e-09  3.19186291e-09  3.32054051e-09  3.33776517e-09  4.59894235e-01  1.63861312e-07  1.07921906e-07  9.40000000e-01 
 9.50000000e-01  3.27026689e-09  4.59894231e-01  3.09400918e-09  3.19186293e-09  3.32054059e-09  3.33776517e-09  4.59894231e-01  1.63861325e-07  1.07921736e-07  9.50000000e-01 
 9.60000000e-01  3.27026689e-09  4.59894232e-01  3.09400918e-09  3.19186292e-09  3.32054057e-09  3.33776517e-09  4.59894232e-01  1.63861314e-07  1.07921608e-07  9.60000000e-01 
 9.70000000e-01  3.27026689e-09  4.59894237e-01  3.09400918e-09  3.19186298e-09  3.32054058e-09  3.33776517e-09  4.59894237e-01  1.63861321e-07  1.07921686e-07  9.70000000e-01 
 9.80000000e-01  3.27026689e-09  4.59894220e-01  3.09400918e-09  3.19186291e-09  3.32054052e-09  3.33776517e-09  4.59894220e-01  1.63861292e-07  1.07921515e-07  9.80000000e-01 
 9.90000000e-01  3.27026689e-09  4.59894228e-01  3.09400918e-09  3.19186293e-09  3.32054053e-09  3.33776512e-09  4.59894228e-01  1.63861312e-07  1.07921373e-07  9.90000000e-01 
 1.00000000e+00  3.27026689e-09  4.59894222e-01  3.09400918e-09  3.19186298e-09  3.32054058e-09  3.33776517e-09  4.59894222e-01  1.63861306e-07  1.07921274e-07  1.00000000e+00 
 1.01000000e+00  3.27026689e-09  4.59894220e-01  3.09400918e-09  3.19186296e-09  3.32054057e-09  3.33776512e-09  4.59894220e-01  1.63861298e-07  1.07921210e-07  1.01000000e+00 
 1.02000000e+00  3.27026689e-09  4.59894217e-01  3.09400918e-09  3.19186297e-09  3.32054058e-09  3.33776512e-09  4.59894217e-01  1.63861289e-07  1.07921160e-07  1.02000000e+00 
 1.03000000e+00  3.27026689e-09  4.59894218e-01  3.09400918e-09  3.19186291e-09  3.32054058e-09  3.33776517e-09  4.59894218e-01  1.63861295e-07  1.07921089e-07  1.03000000e+00 
 1.04000000e+00  3.27026689e-09  4.59894229e-01  3.09400918e-09  3.19186293e-09  3.32054052e-09  3.33776517e-09  4.59894229e-01  1.63861316e-07  1.07921004e-07  1.04000000e+00 
 1.05000000e+00  3.27026689e-09  4.59894224e-01  3.09400913e-09  3.19186292e-09  3.32054053e-09  3.33776517e-09  4.59894224e-01  1.63861311e-07  1.07920947e-07  1.05000000e+00 
 1.06000000e+00  3.27026689e-09  4.59894228e-01  3.09400919e-09  3.19186292e-09  3.32054053e-09  3.33776517e-09  4.59894228e-01  1.63861311e-07  1.07920826e-07  1.06000000e+00 
 1.07000000e+00  3.27026689e-09  4.59894232e-01  3.09400912e-09  3.19186292e-09  3.32054053e-09  3.33776517e-09  4.59894232e-01  1.63861316e-07  1.07920734e-07  1.07000000e+00 
 1.08000000e+00  3.27026689e-09  4.59894227e-01  3.09400919e-09  3.19186298e-09  3.32054053e-09  3.33776512e-09  4.59894227e-01  1.63861310e-07  1.07920535e-07  1.08000000e+00 
 1.09000000e+00  3.27026689e-09  4.59894239e-01  3.09400918e-09  3.19186296e-09  3.32054058e-09  3.33776517e-09  4.59894239e-01  1.63861315e-07  1.07920542e-07  1.09000000e+00 
 1.10000000e+00  3.27026689e-09  4.59894234e-01  3.09400913e-09  3.19186291e-09  3.32054057e-09  3.33776512e-09  4.59894234e-01  1.63861333e-07  1.07920449e-07  1.10000000e+00 
