 v-sweep         v(b0)           v(b1)           v(b2)           v(b3)           v(b4)           v(b5)           v(b6)           i(vbias)        i(viout)        v(vout)        
 0.00000000e+00  4.58221290e-01  3.31465386e-09  3.26127535e-09  3.58198859e-09  3.40682338e-09  3.40242940e-09  4.58221290e-01  1.59250236e-07  1.01498023e-07  0.00000000e+00 
 1.00000000e-02  4.58221276e-01  3.31465383e-09  3.26127533e-09  3.58198861e-09  3.40682342e-09  3.40242937e-09  4.58221276e-01  1.59250204e-07  1.01497584e-07  1.00000000e-02 
 2.00000000e-02  4.58221280e-01  3.31465383e-09  3.26127533e-09  3.58198861e-09  3.40682340e-09  3.40242937e-09  4.58221280e-01  1.59250227e-07  1.01497147e-07  2.00000000e-02 
 3.00000000e-02  4.58221269e-01  3.31465383e-09  3.26127527e-09  3.58198861e-09  3.40682341e-09  3.40242937e-09  4.58221269e-01  1.59250196e-07  1.01496765e-07  3.00000000e-02 
 4.00000000e-02  4.58221258e-01  3.31465383e-09  3.26127532e-09  3.58198861e-09  3.40682341e-09  3.40242937e-09  4.58221258e-01  1.59250179e-07  1.01496291e-07  4.00000000e-02 
 5.00000000e-02  4.58221300e-01  3.31465384e-09  3.26127527e-09  3.58198861e-09  3.40682341e-09  3.40242937e-09  4.58221300e-01  1.59250244e-07  1.01495996e-07  5.00000000e-02 
 6.00000000e-02  4.58221305e-01  3.31465384e-09  3.26127527e-09  3.58198867e-09  3.40682341e-09  3.40242937e-09  4.58221305e-01  1.59250251e-07  1.01495890e-07  6.00000000e-02 
 7.00000000e-02  4.58221304e-01  3.31465384e-09  3.26127533e-09  3.58198861e-09  3.40682341e-09  3.40242937e-09  4.58221304e-01  1.59250247e-07  1.01495420e-07  7.00000000e-02 
 8.00000000e-02  4.58221293e-01  3.31465383e-09  3.26127533e-09  3.58198861e-09  3.40682341e-09  3.40242937e-09  4.58221293e-01  1.59250222e-07  1.01495143e-07  8.00000000e-02 
 9.00000000e-02  4.58221274e-01  3.31465383e-09  3.26127532e-09  3.58198861e-09  3.40682341e-09  3.40242937e-09  4.58221274e-01  1.59250204e-07  1.01494763e-07  9.00000000e-02 
 1.00000000e-01  4.58221299e-01  3.31465383e-09  3.26127533e-09  3.58198861e-09  3.40682341e-09  3.40242937e-09  4.58221299e-01  1.59250243e-07  1.01494741e-07  1.00000000e-01 
 1.10000000e-01  4.58221307e-01  3.31465384e-09  3.26127527e-09  3.58198861e-09  3.40682341e-09  3.40242937e-09  4.58221307e-01  1.59250243e-07  1.01494312e-07  1.10000000e-01 
 1.20000000e-01  4.58221283e-01  3.31465383e-09  3.26127527e-09  3.58198861e-09  3.40682341e-09  3.40242937e-09  4.58221283e-01  1.59250218e-07  1.01494059e-07  1.20000000e-01 
 1.30000000e-01  4.58221293e-01  3.31465383e-09  3.26127533e-09  3.58198861e-09  3.40682341e-09  3.40242937e-09  4.58221293e-01  1.59250236e-07  1.01493913e-07  1.30000000e-01 
 1.40000000e-01  4.58221279e-01  3.31465383e-09  3.26127533e-09  3.58198861e-09  3.40682341e-09  3.40242937e-09  4.58221279e-01  1.59250208e-07  1.01493600e-07  1.40000000e-01 
 1.50000000e-01  4.58221295e-01  3.31465389e-09  3.26127527e-09  3.58198867e-09  3.40682341e-09  3.40242937e-09  4.58221295e-01  1.59250231e-07  1.01493551e-07  1.50000000e-01 
 1.60000000e-01  4.58221292e-01  3.31465388e-09  3.26127533e-09  3.58198861e-09  3.40682341e-09  3.40242937e-09  4.58221292e-01  1.59250249e-07  1.01493209e-07  1.60000000e-01 
 1.70000000e-01  4.58221291e-01  3.31465384e-09  3.26127527e-09  3.58198867e-09  3.40682341e-09  3.40242937e-09  4.58221291e-01  1.59250219e-07  1.01493097e-07  1.70000000e-01 
 1.80000000e-01  4.58221292e-01  3.31465383e-09  3.26127533e-09  3.58198861e-09  3.40682341e-09  3.40242937e-09  4.58221292e-01  1.59250238e-07  1.01492789e-07  1.80000000e-01 
 1.90000000e-01  4.58221293e-01  3.31465383e-09  3.26127533e-09  3.58198861e-09  3.40682341e-09  3.40242937e-09  4.58221293e-01  1.59250232e-07  1.01492668e-07  1.90000000e-01 
 2.00000000e-01  4.58221275e-01  3.31465383e-09  3.26127527e-09  3.58198861e-09  3.40682341e-09  3.40242937e-09  4.58221275e-01  1.59250205e-07  1.01492395e-07  2.00000000e-01 
 2.10000000e-01  4.58221299e-01  3.31465384e-09  3.26127533e-09  3.58198861e-09  3.40682341e-09  3.40242937e-09  4.58221299e-01  1.59250252e-07  1.01492249e-07  2.10000000e-01 
 2.20000000e-01  4.58221286e-01  3.31465383e-09  3.26127527e-09  3.58198861e-09  3.40682341e-09  3.40242937e-09  4.58221286e-01  1.59250212e-07  1.01492192e-07  2.20000000e-01 
 2.30000000e-01  4.58221282e-01  3.31465389e-09  3.26127533e-09  3.58198867e-09  3.40682341e-09  3.40242937e-09  4.58221282e-01  1.59250221e-07  1.01492002e-07  2.30000000e-01 
 2.40000000e-01  4.58221286e-01  3.31465388e-09  3.26127533e-09  3.58198867e-09  3.40682341e-09  3.40242937e-09  4.58221285e-01  1.59250220e-07  1.01491826e-07  2.40000000e-01 
 2.50000000e-01  4.58221290e-01  3.31465384e-09  3.26127533e-09  3.58198861e-09  3.40682341e-09  3.40242937e-09  4.58221290e-01  1.59250228e-07  1.01491670e-07  2.50000000e-01 
 2.60000000e-01  4.58221270e-01  3.31465383e-09  3.26127532e-09  3.58198861e-09  3.40682341e-09  3.40242937e-09  4.58221270e-01  1.59250200e-07  1.01491620e-07  2.60000000e-01 
 2.70000000e-01  4.58221272e-01  3.31465383e-09  3.26127532e-09  3.58198861e-09  3.40682341e-09  3.40242937e-09  4.58221272e-01  1.59250201e-07  1.01491404e-07  2.70000000e-01 
 2.80000000e-01  4.58221275e-01  3.31465389e-09  3.26127533e-09  3.58198861e-09  3.40682341e-09  3.40242937e-09  4.58221275e-01  1.59250210e-07  1.01491203e-07  2.80000000e-01 
 2.90000000e-01  4.58221283e-01  3.31465382e-09  3.26127533e-09  3.58198861e-09  3.40682341e-09  3.40242937e-09  4.58221283e-01  1.59250229e-07  1.01491054e-07  2.90000000e-01 
 3.00000000e-01  4.58221287e-01  3.31465384e-09  3.26127527e-09  3.58198867e-09  3.40682341e-09  3.40242937e-09  4.58221287e-01  1.59250224e-07  1.01491057e-07  3.00000000e-01 
 3.10000000e-01  4.58221280e-01  3.31465383e-09  3.26127533e-09  3.58198861e-09  3.40682341e-09  3.40242937e-09  4.58221280e-01  1.59250211e-07  1.01490873e-07  3.10000000e-01 
 3.20000000e-01  4.58221266e-01  3.31465389e-09  3.26127532e-09  3.58198867e-09  3.40682341e-09  3.40242937e-09  4.58221266e-01  1.59250192e-07  1.01490691e-07  3.20000000e-01 
 3.30000000e-01  4.58221293e-01  3.31465382e-09  3.26127527e-09  3.58198861e-09  3.40682341e-09  3.40242937e-09  4.58221293e-01  1.59250219e-07  1.01490709e-07  3.30000000e-01 
 3.40000000e-01  4.58221297e-01  3.31465384e-09  3.26127527e-09  3.58198861e-09  3.40682341e-09  3.40242937e-09  4.58221297e-01  1.59250244e-07  1.01490571e-07  3.40000000e-01 
 3.50000000e-01  4.58221304e-01  3.31465384e-09  3.26127533e-09  3.58198867e-09  3.40682341e-09  3.40242937e-09  4.58221304e-01  1.59250254e-07  1.01490610e-07  3.50000000e-01 
 3.60000000e-01  4.58221279e-01  3.31465383e-09  3.26127533e-09  3.58198861e-09  3.40682341e-09  3.40242937e-09  4.58221279e-01  1.59250223e-07  1.01490322e-07  3.60000000e-01 
 3.70000000e-01  4.58221269e-01  3.31465383e-09  3.26127532e-09  3.58198861e-09  3.40682341e-09  3.40242937e-09  4.58221269e-01  1.59250199e-07  1.01490272e-07  3.70000000e-01 
 3.80000000e-01  4.58221274e-01  3.31465389e-09  3.26127532e-09  3.58198861e-09  3.40682341e-09  3.40242937e-09  4.58221274e-01  1.59250210e-07  1.01490215e-07  3.80000000e-01 
 3.90000000e-01  4.58221272e-01  3.31465387e-09  3.26127527e-09  3.58198861e-09  3.40682341e-09  3.40242937e-09  4.58221272e-01  1.59250205e-07  1.01490066e-07  3.90000000e-01 
 4.00000000e-01  4.58221262e-01  3.31465383e-09  3.26127527e-09  3.58198861e-09  3.40682341e-09  3.40242937e-09  4.58221262e-01  1.59250190e-07  1.01489945e-07  4.00000000e-01 
 4.10000000e-01  4.58221292e-01  3.31465383e-09  3.26127533e-09  3.58198867e-09  3.40682341e-09  3.40242937e-09  4.58221292e-01  1.59250230e-07  1.01489981e-07  4.10000000e-01 
 4.20000000e-01  4.58221289e-01  3.31465383e-09  3.26127533e-09  3.58198861e-09  3.40682341e-09  3.40242937e-09  4.58221289e-01  1.59250227e-07  1.01489892e-07  4.20000000e-01 
 4.30000000e-01  4.58221283e-01  3.31465383e-09  3.26127527e-09  3.58198861e-09  3.40682335e-09  3.40242937e-09  4.58221283e-01  1.59250227e-07  1.01489789e-07  4.30000000e-01 
 4.40000000e-01  4.58221279e-01  3.31465389e-09  3.26127527e-09  3.58198861e-09  3.40682342e-09  3.40242937e-09  4.58221279e-01  1.59250208e-07  1.01489587e-07  4.40000000e-01 
 4.50000000e-01  4.58221293e-01  3.31465382e-09  3.26127527e-09  3.58198861e-09  3.40682341e-09  3.40242937e-09  4.58221293e-01  1.59250237e-07  1.01489643e-07  4.50000000e-01 
 4.60000000e-01  4.58221284e-01  3.31465384e-09  3.26127533e-09  3.58198861e-09  3.40682341e-09  3.40242937e-09  4.58221284e-01  1.59250224e-07  1.01489523e-07  4.60000000e-01 
 4.70000000e-01  4.58221261e-01  3.31465388e-09  3.26127527e-09  3.58198866e-09  3.40682341e-09  3.40242937e-09  4.58221261e-01  1.59250182e-07  1.01489249e-07  4.70000000e-01 
 4.80000000e-01  4.58221294e-01  3.31465382e-09  3.26127533e-09  3.58198861e-09  3.40682341e-09  3.40242937e-09  4.58221294e-01  1.59250246e-07  1.01489391e-07  4.80000000e-01 
 4.90000000e-01  4.58221315e-01  3.31465384e-09  3.26127533e-09  3.58198861e-09  3.40682341e-09  3.40242937e-09  4.58221315e-01  1.59250263e-07  1.01489363e-07  4.90000000e-01 
 5.00000000e-01  4.58221291e-01  3.31465389e-09  3.26127533e-09  3.58198861e-09  3.40682341e-09  3.40242937e-09  4.58221291e-01  1.59250225e-07  1.01489150e-07  5.00000000e-01 
 5.10000000e-01  4.58221291e-01  3.31465388e-09  3.26127533e-09  3.58198867e-09  3.40682341e-09  3.40242937e-09  4.58221291e-01  1.59250225e-07  1.01489025e-07  5.10000000e-01 
 5.20000000e-01  4.58221288e-01  3.31465384e-09  3.26127527e-09  3.58198861e-09  3.40682341e-09  3.40242937e-09  4.58221288e-01  1.59250232e-07  1.01489032e-07  5.20000000e-01 
 5.30000000e-01  4.58221290e-01  3.31465383e-09  3.26127527e-09  3.58198861e-09  3.40682341e-09  3.40242937e-09  4.58221290e-01  1.59250227e-07  1.01488933e-07  5.30000000e-01 
 5.40000000e-01  4.58221279e-01  3.31465383e-09  3.26127533e-09  3.58198861e-09  3.40682341e-09  3.40242937e-09  4.58221279e-01  1.59250204e-07  1.01488823e-07  5.40000000e-01 
 5.50000000e-01  4.58221311e-01  3.31465384e-09  3.26127533e-09  3.58198861e-09  3.40682341e-09  3.40242937e-09  4.58221311e-01  1.59250257e-07  1.01488869e-07  5.50000000e-01 
 5.60000000e-01  4.58221249e-01  3.31465383e-09  3.26127532e-09  3.58198861e-09  3.40682341e-09  3.40242937e-09  4.58221249e-01  1.59250173e-07  1.01488471e-07  5.60000000e-01 
 5.70000000e-01  4.58221306e-01  3.31465384e-09  3.26127533e-09  3.58198861e-09  3.40682341e-09  3.40242937e-09  4.58221306e-01  1.59250236e-07  1.01488709e-07  5.70000000e-01 
 5.80000000e-01  4.58221251e-01  3.31465383e-09  3.26127532e-09  3.58198861e-09  3.40682341e-09  3.40242937e-09  4.58221251e-01  1.59250192e-07  1.01488503e-07  5.80000000e-01 
 5.90000000e-01  4.58221299e-01  3.31465384e-09  3.26127533e-09  3.58198861e-09  3.40682341e-09  3.40242937e-09  4.58221299e-01  1.59250224e-07  1.01488432e-07  5.90000000e-01 
 6.00000000e-01  4.58221305e-01  3.31465384e-09  3.26127527e-09  3.58198867e-09  3.40682341e-09  3.40242937e-09  4.58221305e-01  1.59250244e-07  1.01488432e-07  6.00000000e-01 
 6.10000000e-01  4.58221297e-01  3.31465389e-09  3.26127533e-09  3.58198867e-09  3.40682341e-09  3.40242937e-09  4.58221297e-01  1.59250245e-07  1.01488368e-07  6.10000000e-01 
 6.20000000e-01  4.58221287e-01  3.31465382e-09  3.26127533e-09  3.58198861e-09  3.40682341e-09  3.40242937e-09  4.58221287e-01  1.59250232e-07  1.01488233e-07  6.20000000e-01 
 6.30000000e-01  4.58221275e-01  3.31465384e-09  3.26127527e-09  3.58198861e-09  3.40682341e-09  3.40242937e-09  4.58221275e-01  1.59250209e-07  1.01488155e-07  6.30000000e-01 
 6.40000000e-01  4.58221275e-01  3.31465383e-09  3.26127532e-09  3.58198861e-09  3.40682341e-09  3.40242937e-09  4.58221275e-01  1.59250209e-07  1.01488027e-07  6.40000000e-01 
 6.50000000e-01  4.58221258e-01  3.31465383e-09  3.26127527e-09  3.58198861e-09  3.40682341e-09  3.40242937e-09  4.58221258e-01  1.59250179e-07  1.01487899e-07  6.50000000e-01 
 6.60000000e-01  4.58221284e-01  3.31465383e-09  3.26127527e-09  3.58198861e-09  3.40682341e-09  3.40242937e-09  4.58221284e-01  1.59250222e-07  1.01487728e-07  6.60000000e-01 
 6.70000000e-01  4.58221306e-01  3.31465389e-09  3.26127533e-09  3.58198861e-09  3.40682341e-09  3.40242937e-09  4.58221306e-01  1.59250246e-07  1.01487892e-07  6.70000000e-01 
 6.80000000e-01  4.58221312e-01  3.31465383e-09  3.26127533e-09  3.58198867e-09  3.40682341e-09  3.40242937e-09  4.58221312e-01  1.59250263e-07  1.01487814e-07  6.80000000e-01 
 6.90000000e-01  4.58221282e-01  3.31465384e-09  3.26127533e-09  3.58198861e-09  3.40682341e-09  3.40242937e-09  4.58221282e-01  1.59250212e-07  1.01487679e-07  6.90000000e-01 
 7.00000000e-01  4.58221266e-01  3.31465383e-09  3.26127532e-09  3.58198861e-09  3.40682341e-09  3.40242937e-09  4.58221266e-01  1.59250204e-07  1.01487579e-07  7.00000000e-01 
 7.10000000e-01  4.58221273e-01  3.31465383e-09  3.26127532e-09  3.58198861e-09  3.40682341e-09  3.40242937e-09  4.58221273e-01  1.59250205e-07  1.01487544e-07  7.10000000e-01 
 7.20000000e-01  4.58221259e-01  3.31465383e-09  3.26127532e-09  3.58198866e-09  3.40682341e-09  3.40242937e-09  4.58221258e-01  1.59250169e-07  1.01487366e-07  7.20000000e-01 
 7.30000000e-01  4.58221286e-01  3.31465389e-09  3.26127533e-09  3.58198861e-09  3.40682341e-09  3.40242937e-09  4.58221286e-01  1.59250228e-07  1.01487338e-07  7.30000000e-01 
 7.40000000e-01  4.58221274e-01  3.31465382e-09  3.26127532e-09  3.58198861e-09  3.40682341e-09  3.40242937e-09  4.58221274e-01  1.59250211e-07  1.01487323e-07  7.40000000e-01 
 7.50000000e-01  4.58221312e-01  3.31465384e-09  3.26127533e-09  3.58198861e-09  3.40682341e-09  3.40242937e-09  4.58221312e-01  1.59250258e-07  1.01487345e-07  7.50000000e-01 
 7.60000000e-01  4.58221245e-01  3.31465388e-09  3.26127532e-09  3.58198861e-09  3.40682341e-09  3.40242937e-09  4.58221245e-01  1.59250167e-07  1.01487139e-07  7.60000000e-01 
 7.70000000e-01  4.58221283e-01  3.31465383e-09  3.26127527e-09  3.58198861e-09  3.40682341e-09  3.40242937e-09  4.58221283e-01  1.59250195e-07  1.01487025e-07  7.70000000e-01 
 7.80000000e-01  4.58221284e-01  3.31465383e-09  3.26127533e-09  3.58198861e-09  3.40682341e-09  3.40242937e-09  4.58221284e-01  1.59250220e-07  1.01487061e-07  7.80000000e-01 
 7.90000000e-01  4.58221277e-01  3.31465383e-09  3.26127533e-09  3.58198861e-09  3.40682341e-09  3.40242937e-09  4.58221277e-01  1.59250203e-07  1.01486940e-07  7.90000000e-01 
 8.00000000e-01  4.58221294e-01  3.31465383e-09  3.26127527e-09  3.58198867e-09  3.40682341e-09  3.40242937e-09  4.58221294e-01  1.59250236e-07  1.01486876e-07  8.00000000e-01 
 8.10000000e-01  4.58221294e-01  3.31465383e-09  3.26127527e-09  3.58198861e-09  3.40682341e-09  3.40242937e-09  4.58221294e-01  1.59250239e-07  1.01486755e-07  8.10000000e-01 
 8.20000000e-01  4.58221301e-01  3.31465384e-09  3.26127527e-09  3.58198861e-09  3.40682341e-09  3.40242937e-09  4.58221301e-01  1.59250254e-07  1.01486755e-07  8.20000000e-01 
 8.30000000e-01  4.58221261e-01  3.31465383e-09  3.26127527e-09  3.58198861e-09  3.40682341e-09  3.40242937e-09  4.58221261e-01  1.59250186e-07  1.01486471e-07  8.30000000e-01 
 8.40000000e-01  4.58221315e-01  3.31465384e-09  3.26127527e-09  3.58198861e-09  3.40682341e-09  3.40242937e-09  4.58221315e-01  1.59250269e-07  1.01486599e-07  8.40000000e-01 
 8.50000000e-01  4.58221261e-01  3.31465383e-09  3.26127527e-09  3.58198861e-09  3.40682341e-09  3.40242937e-09  4.58221261e-01  1.59250191e-07  1.01486400e-07  8.50000000e-01 
 8.60000000e-01  4.58221270e-01  3.31465383e-09  3.26127527e-09  3.58198861e-09  3.40682341e-09  3.40242937e-09  4.58221270e-01  1.59250185e-07  1.01486421e-07  8.60000000e-01 
 8.70000000e-01  4.58221287e-01  3.31465383e-09  3.26127527e-09  3.58198861e-09  3.40682341e-09  3.40242937e-09  4.58221287e-01  1.59250220e-07  1.01486251e-07  8.70000000e-01 
 8.80000000e-01  4.58221304e-01  3.31465384e-09  3.26127533e-09  3.58198861e-09  3.40682341e-09  3.40242937e-09  4.58221304e-01  1.59250267e-07  1.01486222e-07  8.80000000e-01 
 8.90000000e-01  4.58221287e-01  3.31465389e-09  3.26127533e-09  3.58198861e-09  3.40682341e-09  3.40242937e-09  4.58221287e-01  1.59250224e-07  1.01486187e-07  8.90000000e-01 
 9.00000000e-01  4.58221302e-01  3.31465382e-09  3.26127527e-09  3.58198861e-09  3.40682341e-09  3.40242937e-09  4.58221302e-01  1.59250241e-07  1.01486116e-07  9.00000000e-01 
 9.10000000e-01  4.58221280e-01  3.31465384e-09  3.26127527e-09  3.58198867e-09  3.40682341e-09  3.40242937e-09  4.58221280e-01  1.59250215e-07  1.01486073e-07  9.10000000e-01 
 9.20000000e-01  4.58221283e-01  3.31465383e-09  3.26127533e-09  3.58198867e-09  3.40682341e-09  3.40242937e-09  4.58221282e-01  1.59250200e-07  1.01485959e-07  9.20000000e-01 
 9.30000000e-01  4.58221271e-01  3.31465389e-09  3.26127527e-09  3.58198861e-09  3.40682341e-09  3.40242937e-09  4.58221271e-01  1.59250209e-07  1.01485782e-07  9.30000000e-01 
 9.40000000e-01  4.58221275e-01  3.31465388e-09  3.26127533e-09  3.58198867e-09  3.40682335e-09  3.40242937e-09  4.58221275e-01  1.59250197e-07  1.01485831e-07  9.40000000e-01 
 9.50000000e-01  4.58221276e-01  3.31465384e-09  3.26127527e-09  3.58198861e-09  3.40682342e-09  3.40242937e-09  4.58221276e-01  1.59250201e-07  1.01485611e-07  9.50000000e-01 
 9.60000000e-01  4.58221280e-01  3.31465383e-09  3.26127533e-09  3.58198861e-09  3.40682340e-09  3.40242937e-09  4.58221280e-01  1.59250209e-07  1.01485554e-07  9.60000000e-01 
 9.70000000e-01  4.58221271e-01  3.31465383e-09  3.26127532e-09  3.58198861e-09  3.40682341e-09  3.40242937e-09  4.58221271e-01  1.59250198e-07  1.01485476e-07  9.70000000e-01 
 9.80000000e-01  4.58221293e-01  3.31465383e-09  3.26127533e-09  3.58198861e-09  3.40682341e-09  3.40242937e-09  4.58221293e-01  1.59250216e-07  1.01485426e-07  9.80000000e-01 
 9.90000000e-01  4.58221298e-01  3.31465383e-09  3.26127527e-09  3.58198861e-09  3.40682341e-09  3.40242937e-09  4.58221298e-01  1.59250235e-07  1.01485405e-07  9.90000000e-01 
 1.00000000e+00  4.58221280e-01  3.31465383e-09  3.26127527e-09  3.58198867e-09  3.40682341e-09  3.40242937e-09  4.58221280e-01  1.59250219e-07  1.01485270e-07  1.00000000e+00 
 1.01000000e+00  4.58221276e-01  3.31465383e-09  3.26127527e-09  3.58198861e-09  3.40682341e-09  3.40242937e-09  4.58221276e-01  1.59250201e-07  1.01485199e-07  1.01000000e+00 
 1.02000000e+00  4.58221275e-01  3.31465383e-09  3.26127527e-09  3.58198861e-09  3.40682335e-09  3.40242937e-09  4.58221275e-01  1.59250215e-07  1.01485071e-07  1.02000000e+00 
 1.03000000e+00  4.58221301e-01  3.31465384e-09  3.26127527e-09  3.58198861e-09  3.40682342e-09  3.40242937e-09  4.58221301e-01  1.59250237e-07  1.01485014e-07  1.03000000e+00 
 1.04000000e+00  4.58221291e-01  3.31465389e-09  3.26127527e-09  3.58198861e-09  3.40682341e-09  3.40242937e-09  4.58221291e-01  1.59250232e-07  1.01484893e-07  1.04000000e+00 
 1.05000000e+00  4.58221297e-01  3.31465388e-09  3.26127533e-09  3.58198867e-09  3.40682341e-09  3.40242937e-09  4.58221297e-01  1.59250245e-07  1.01484908e-07  1.05000000e+00 
 1.06000000e+00  4.58221276e-01  3.31465384e-09  3.26127533e-09  3.58198861e-09  3.40682341e-09  3.40242937e-09  4.58221276e-01  1.59250203e-07  1.01484765e-07  1.06000000e+00 
 1.07000000e+00  4.58221290e-01  3.31465383e-09  3.26127533e-09  3.58198861e-09  3.40682335e-09  3.40242937e-09  4.58221290e-01  1.59250221e-07  1.01484716e-07  1.07000000e+00 
 1.08000000e+00  4.58221297e-01  3.31465383e-09  3.26127533e-09  3.58198861e-09  3.40682342e-09  3.40242937e-09  4.58221297e-01  1.59250254e-07  1.01484545e-07  1.08000000e+00 
 1.09000000e+00  4.58221289e-01  3.31465383e-09  3.26127527e-09  3.58198867e-09  3.40682341e-09  3.40242937e-09  4.58221289e-01  1.59250231e-07  1.01484495e-07  1.09000000e+00 
 1.10000000e+00  4.58221273e-01  3.31465383e-09  3.26127527e-09  3.58198861e-09  3.40682341e-09  3.40242937e-09  4.58221273e-01  1.59250192e-07  1.01484417e-07  1.10000000e+00 
