 v-sweep         v(b0)           v(b1)           v(b2)           v(b3)           v(b4)           v(b5)           v(b6)           i(vbias)        i(viout)        v(vout)        
 0.00000000e+00  3.34558756e-09  4.58293606e-01  3.50471383e-09  3.33267824e-09  3.24126867e-09  4.58293606e-01  3.13537138e-09  1.58305641e-07  4.99489396e-08  0.00000000e+00 
 1.00000000e-02  3.34558753e-09  4.58293599e-01  3.50471380e-09  3.33267827e-09  3.24126870e-09  4.58293599e-01  3.13537141e-09  1.58305635e-07  4.99484668e-08  1.00000000e-02 
 2.00000000e-02  3.34558755e-09  4.58293610e-01  3.50471380e-09  3.33267828e-09  3.24126870e-09  4.58293610e-01  3.13537141e-09  1.58305636e-07  4.99480661e-08  2.00000000e-02 
 3.00000000e-02  3.34558754e-09  4.58293610e-01  3.50471380e-09  3.33267828e-09  3.24126864e-09  4.58293610e-01  3.13537135e-09  1.58305645e-07  4.99477224e-08  3.00000000e-02 
 4.00000000e-02  3.34558754e-09  4.58293603e-01  3.50471380e-09  3.33267827e-09  3.24126870e-09  4.58293603e-01  3.13537141e-09  1.58305644e-07  4.99474724e-08  4.00000000e-02 
 5.00000000e-02  3.34558760e-09  4.58293607e-01  3.50471380e-09  3.33267827e-09  3.24126870e-09  4.58293607e-01  3.13537135e-09  1.58305624e-07  4.99470292e-08  5.00000000e-02 
 6.00000000e-02  3.34558758e-09  4.58293615e-01  3.50471374e-09  3.33267828e-09  3.24126870e-09  4.58293615e-01  3.13537141e-09  1.58305663e-07  4.99467507e-08  6.00000000e-02 
 7.00000000e-02  3.34558759e-09  4.58293614e-01  3.50471375e-09  3.33267828e-09  3.24126864e-09  4.58293614e-01  3.13537141e-09  1.58305660e-07  4.99464825e-08  7.00000000e-02 
 8.00000000e-02  3.34558753e-09  4.58293598e-01  3.50471380e-09  3.33267827e-09  3.24126870e-09  4.58293598e-01  3.13537135e-09  1.58305639e-07  4.99460446e-08  8.00000000e-02 
 9.00000000e-02  3.34558755e-09  4.58293589e-01  3.50471379e-09  3.33267827e-09  3.24126870e-09  4.58293589e-01  3.13537141e-09  1.58305622e-07  4.99459167e-08  9.00000000e-02 
 1.00000000e-01  3.34558754e-09  4.58293628e-01  3.50471380e-09  3.33267828e-09  3.24126870e-09  4.58293628e-01  3.13537141e-09  1.58305692e-07  4.99456201e-08  1.00000000e-01 
 1.10000000e-01  3.34558754e-09  4.58293598e-01  3.50471380e-09  3.33267827e-09  3.24126870e-09  4.58293598e-01  3.13537135e-09  1.58305645e-07  4.99453527e-08  1.10000000e-01 
 1.20000000e-01  3.34558754e-09  4.58293606e-01  3.50471380e-09  3.33267827e-09  3.24126864e-09  4.58293606e-01  3.13537141e-09  1.58305634e-07  4.99450845e-08  1.20000000e-01 
 1.30000000e-01  3.34558754e-09  4.58293618e-01  3.50471380e-09  3.33267828e-09  3.24126864e-09  4.58293618e-01  3.13537141e-09  1.58305662e-07  4.99449415e-08  1.30000000e-01 
 1.40000000e-01  3.34558754e-09  4.58293617e-01  3.50471380e-09  3.33267828e-09  3.24126870e-09  4.58293617e-01  3.13537141e-09  1.58305663e-07  4.99445818e-08  1.40000000e-01 
 1.50000000e-01  3.34558754e-09  4.58293597e-01  3.50471374e-09  3.33267827e-09  3.24126870e-09  4.58293597e-01  3.13537141e-09  1.58305623e-07  4.99444486e-08  1.50000000e-01 
 1.60000000e-01  3.34558754e-09  4.58293607e-01  3.50471381e-09  3.33267827e-09  3.24126864e-09  4.58293607e-01  3.13537141e-09  1.58305642e-07  4.99442496e-08  1.60000000e-01 
 1.70000000e-01  3.34558754e-09  4.58293605e-01  3.50471379e-09  3.33267827e-09  3.24126870e-09  4.58293605e-01  3.13537141e-09  1.58305645e-07  4.99439921e-08  1.70000000e-01 
 1.80000000e-01  3.34558754e-09  4.58293610e-01  3.50471380e-09  3.33267828e-09  3.24126864e-09  4.58293610e-01  3.13537135e-09  1.58305647e-07  4.99439174e-08  1.80000000e-01 
 1.90000000e-01  3.34558754e-09  4.58293602e-01  3.50471380e-09  3.33267827e-09  3.24126870e-09  4.58293602e-01  3.13537141e-09  1.58305631e-07  4.99437789e-08  1.90000000e-01 
 2.00000000e-01  3.34558754e-09  4.58293620e-01  3.50471374e-09  3.33267828e-09  3.24126870e-09  4.58293620e-01  3.13537141e-09  1.58305656e-07  4.99436208e-08  2.00000000e-01 
 2.10000000e-01  3.34558754e-09  4.58293621e-01  3.50471381e-09  3.33267828e-09  3.24126870e-09  4.58293621e-01  3.13537141e-09  1.58305665e-07  4.99435906e-08  2.10000000e-01 
 2.20000000e-01  3.34558754e-09  4.58293604e-01  3.50471379e-09  3.33267827e-09  3.24126864e-09  4.58293604e-01  3.13537141e-09  1.58305634e-07  4.99432762e-08  2.20000000e-01 
 2.30000000e-01  3.34558754e-09  4.58293628e-01  3.50471380e-09  3.33267828e-09  3.24126870e-09  4.58293628e-01  3.13537141e-09  1.58305680e-07  4.99431501e-08  2.30000000e-01 
 2.40000000e-01  3.34558754e-09  4.58293615e-01  3.50471380e-09  3.33267828e-09  3.24126864e-09  4.58293615e-01  3.13537141e-09  1.58305669e-07  4.99430364e-08  2.40000000e-01 
 2.50000000e-01  3.34558754e-09  4.58293601e-01  3.50471380e-09  3.33267827e-09  3.24126864e-09  4.58293601e-01  3.13537135e-09  1.58305640e-07  4.99428054e-08  2.50000000e-01 
 2.60000000e-01  3.34558754e-09  4.58293611e-01  3.50471380e-09  3.33267828e-09  3.24126870e-09  4.58293611e-01  3.13537141e-09  1.58305650e-07  4.99428197e-08  2.60000000e-01 
 2.70000000e-01  3.34558754e-09  4.58293609e-01  3.50471380e-09  3.33267828e-09  3.24126870e-09  4.58293609e-01  3.13537141e-09  1.58305652e-07  4.99426029e-08  2.70000000e-01 
 2.80000000e-01  3.34558754e-09  4.58293619e-01  3.50471380e-09  3.33267828e-09  3.24126864e-09  4.58293619e-01  3.13537141e-09  1.58305655e-07  4.99425177e-08  2.80000000e-01 
 2.90000000e-01  3.34558754e-09  4.58293600e-01  3.50471380e-09  3.33267827e-09  3.24126870e-09  4.58293600e-01  3.13537141e-09  1.58305636e-07  4.99423471e-08  2.90000000e-01 
 3.00000000e-01  3.34558754e-09  4.58293596e-01  3.50471380e-09  3.33267827e-09  3.24126864e-09  4.58293596e-01  3.13537135e-09  1.58305620e-07  4.99423543e-08  3.00000000e-01 
 3.10000000e-01  3.34558754e-09  4.58293622e-01  3.50471380e-09  3.33267828e-09  3.24126870e-09  4.58293622e-01  3.13537141e-09  1.58305658e-07  4.99423152e-08  3.10000000e-01 
 3.20000000e-01  3.34558754e-09  4.58293626e-01  3.50471380e-09  3.33267828e-09  3.24126864e-09  4.58293626e-01  3.13537135e-09  1.58305680e-07  4.99420878e-08  3.20000000e-01 
 3.30000000e-01  3.34558754e-09  4.58293625e-01  3.50471380e-09  3.33267828e-09  3.24126870e-09  4.58293625e-01  3.13537141e-09  1.58305672e-07  4.99420736e-08  3.30000000e-01 
 3.40000000e-01  3.34558754e-09  4.58293613e-01  3.50471380e-09  3.33267828e-09  3.24126870e-09  4.58293613e-01  3.13537141e-09  1.58305655e-07  4.99419706e-08  3.40000000e-01 
 3.50000000e-01  3.34558754e-09  4.58293620e-01  3.50471380e-09  3.33267828e-09  3.24126864e-09  4.58293620e-01  3.13537141e-09  1.58305654e-07  4.99418178e-08  3.50000000e-01 
 3.60000000e-01  3.34558760e-09  4.58293614e-01  3.50471380e-09  3.33267828e-09  3.24126864e-09  4.58293614e-01  3.13537141e-09  1.58305647e-07  4.99416934e-08  3.60000000e-01 
 3.70000000e-01  3.34558753e-09  4.58293615e-01  3.50471380e-09  3.33267828e-09  3.24126870e-09  4.58293615e-01  3.13537135e-09  1.58305652e-07  4.99416970e-08  3.70000000e-01 
 3.80000000e-01  3.34558755e-09  4.58293613e-01  3.50471380e-09  3.33267828e-09  3.24126870e-09  4.58293613e-01  3.13537141e-09  1.58305653e-07  4.99415229e-08  3.80000000e-01 
 3.90000000e-01  3.34558754e-09  4.58293589e-01  3.50471380e-09  3.33267827e-09  3.24126870e-09  4.58293589e-01  3.13537141e-09  1.58305616e-07  4.99414412e-08  3.90000000e-01 
 4.00000000e-01  3.34558754e-09  4.58293605e-01  3.50471380e-09  3.33267827e-09  3.24126864e-09  4.58293605e-01  3.13537135e-09  1.58305639e-07  4.99413204e-08  4.00000000e-01 
 4.10000000e-01  3.34558760e-09  4.58293605e-01  3.50471374e-09  3.33267827e-09  3.24126870e-09  4.58293605e-01  3.13537135e-09  1.58305632e-07  4.99413133e-08  4.10000000e-01 
 4.20000000e-01  3.34558753e-09  4.58293612e-01  3.50471381e-09  3.33267828e-09  3.24126870e-09  4.58293611e-01  3.13537135e-09  1.58305650e-07  4.99412423e-08  4.20000000e-01 
 4.30000000e-01  3.34558755e-09  4.58293602e-01  3.50471379e-09  3.33267827e-09  3.24126864e-09  4.58293602e-01  3.13537135e-09  1.58305637e-07  4.99411037e-08  4.30000000e-01 
 4.40000000e-01  3.34558754e-09  4.58293612e-01  3.50471380e-09  3.33267828e-09  3.24126870e-09  4.58293612e-01  3.13537141e-09  1.58305643e-07  4.99411819e-08  4.40000000e-01 
 4.50000000e-01  3.34558754e-09  4.58293612e-01  3.50471380e-09  3.33267828e-09  3.24126864e-09  4.58293612e-01  3.13537141e-09  1.58305654e-07  4.99410788e-08  4.50000000e-01 
 4.60000000e-01  3.34558754e-09  4.58293616e-01  3.50471380e-09  3.33267828e-09  3.24126870e-09  4.58293616e-01  3.13537135e-09  1.58305656e-07  4.99410291e-08  4.60000000e-01 
 4.70000000e-01  3.34558754e-09  4.58293612e-01  3.50471374e-09  3.33267828e-09  3.24126870e-09  4.58293612e-01  3.13537141e-09  1.58305646e-07  4.99409083e-08  4.70000000e-01 
 4.80000000e-01  3.34558760e-09  4.58293625e-01  3.50471376e-09  3.33267828e-09  3.24126870e-09  4.58293625e-01  3.13537141e-09  1.58305667e-07  4.99409794e-08  4.80000000e-01 
 4.90000000e-01  3.34558753e-09  4.58293597e-01  3.50471380e-09  3.33267827e-09  3.24126870e-09  4.58293597e-01  3.13537141e-09  1.58305632e-07  4.99407413e-08  4.90000000e-01 
 5.00000000e-01  3.34558755e-09  4.58293602e-01  3.50471379e-09  3.33267827e-09  3.24126870e-09  4.58293602e-01  3.13537141e-09  1.58305638e-07  4.99407662e-08  5.00000000e-01 
 5.10000000e-01  3.34558760e-09  4.58293624e-01  3.50471380e-09  3.33267828e-09  3.24126864e-09  4.58293623e-01  3.13537141e-09  1.58305676e-07  4.99406454e-08  5.10000000e-01 
 5.20000000e-01  3.34558753e-09  4.58293609e-01  3.50471380e-09  3.33267828e-09  3.24126870e-09  4.58293609e-01  3.13537141e-09  1.58305640e-07  4.99405637e-08  5.20000000e-01 
 5.30000000e-01  3.34558755e-09  4.58293605e-01  3.50471374e-09  3.33267827e-09  3.24126870e-09  4.58293605e-01  3.13537141e-09  1.58305651e-07  4.99404145e-08  5.30000000e-01 
 5.40000000e-01  3.34558754e-09  4.58293608e-01  3.50471375e-09  3.33267827e-09  3.24126864e-09  4.58293608e-01  3.13537141e-09  1.58305654e-07  4.99404855e-08  5.40000000e-01 
 5.50000000e-01  3.34558754e-09  4.58293602e-01  3.50471380e-09  3.33267827e-09  3.24126870e-09  4.58293602e-01  3.13537135e-09  1.58305639e-07  4.99404074e-08  5.50000000e-01 
 5.60000000e-01  3.34558754e-09  4.58293622e-01  3.50471379e-09  3.33267828e-09  3.24126870e-09  4.58293622e-01  3.13537141e-09  1.58305656e-07  4.99403150e-08  5.60000000e-01 
 5.70000000e-01  3.34558754e-09  4.58293642e-01  3.50471374e-09  3.33267828e-09  3.24126870e-09  4.58293642e-01  3.13537135e-09  1.58305705e-07  4.99401871e-08  5.70000000e-01 
 5.80000000e-01  3.34558754e-09  4.58293604e-01  3.50471381e-09  3.33267827e-09  3.24126870e-09  4.58293604e-01  3.13537141e-09  1.58305638e-07  4.99402262e-08  5.80000000e-01 
 5.90000000e-01  3.34558754e-09  4.58293598e-01  3.50471379e-09  3.33267827e-09  3.24126870e-09  4.58293598e-01  3.13537141e-09  1.58305625e-07  4.99401480e-08  5.90000000e-01 
 6.00000000e-01  3.34558754e-09  4.58293624e-01  3.50471380e-09  3.33267828e-09  3.24126864e-09  4.58293624e-01  3.13537141e-09  1.58305660e-07  4.99401409e-08  6.00000000e-01 
 6.10000000e-01  3.34558760e-09  4.58293618e-01  3.50471380e-09  3.33267828e-09  3.24126864e-09  4.58293618e-01  3.13537141e-09  1.58305663e-07  4.99400130e-08  6.10000000e-01 
 6.20000000e-01  3.34558758e-09  4.58293620e-01  3.50471380e-09  3.33267828e-09  3.24126870e-09  4.58293620e-01  3.13537141e-09  1.58305666e-07  4.99399917e-08  6.20000000e-01 
 6.30000000e-01  3.34558753e-09  4.58293609e-01  3.50471380e-09  3.33267828e-09  3.24126870e-09  4.58293609e-01  3.13537141e-09  1.58305649e-07  4.99399917e-08  6.30000000e-01 
 6.40000000e-01  3.34558755e-09  4.58293615e-01  3.50471380e-09  3.33267828e-09  3.24126864e-09  4.58293615e-01  3.13537141e-09  1.58305655e-07  4.99398851e-08  6.40000000e-01 
 6.50000000e-01  3.34558754e-09  4.58293602e-01  3.50471380e-09  3.33267827e-09  3.24126870e-09  4.58293602e-01  3.13537141e-09  1.58305637e-07  4.99398638e-08  6.50000000e-01 
 6.60000000e-01  3.34558754e-09  4.58293619e-01  3.50471374e-09  3.33267828e-09  3.24126870e-09  4.58293619e-01  3.13537135e-09  1.58305657e-07  4.99397075e-08  6.60000000e-01 
 6.70000000e-01  3.34558754e-09  4.58293622e-01  3.50471375e-09  3.33267828e-09  3.24126864e-09  4.58293622e-01  3.13537141e-09  1.58305668e-07  4.99396435e-08  6.70000000e-01 
 6.80000000e-01  3.34558754e-09  4.58293598e-01  3.50471380e-09  3.33267827e-09  3.24126864e-09  4.58293598e-01  3.13537141e-09  1.58305639e-07  4.99396293e-08  6.80000000e-01 
 6.90000000e-01  3.34558754e-09  4.58293610e-01  3.50471379e-09  3.33267828e-09  3.24126870e-09  4.58293610e-01  3.13537135e-09  1.58305649e-07  4.99395298e-08  6.90000000e-01 
 7.00000000e-01  3.34558754e-09  4.58293598e-01  3.50471380e-09  3.33267827e-09  3.24126864e-09  4.58293598e-01  3.13537141e-09  1.58305624e-07  4.99394304e-08  7.00000000e-01 
 7.10000000e-01  3.34558754e-09  4.58293616e-01  3.50471380e-09  3.33267828e-09  3.24126864e-09  4.58293616e-01  3.13537141e-09  1.58305658e-07  4.99393593e-08  7.10000000e-01 
 7.20000000e-01  3.34558754e-09  4.58293608e-01  3.50471380e-09  3.33267827e-09  3.24126870e-09  4.58293608e-01  3.13537141e-09  1.58305639e-07  4.99393309e-08  7.20000000e-01 
 7.30000000e-01  3.34558754e-09  4.58293635e-01  3.50471380e-09  3.33267828e-09  3.24126870e-09  4.58293635e-01  3.13537141e-09  1.58305681e-07  4.99393948e-08  7.30000000e-01 
 7.40000000e-01  3.34558754e-09  4.58293602e-01  3.50471374e-09  3.33267827e-09  3.24126864e-09  4.58293602e-01  3.13537135e-09  1.58305645e-07  4.99392812e-08  7.40000000e-01 
 7.50000000e-01  3.34558754e-09  4.58293597e-01  3.50471375e-09  3.33267827e-09  3.24126870e-09  4.58293597e-01  3.13537141e-09  1.58305628e-07  4.99392172e-08  7.50000000e-01 
 7.60000000e-01  3.34558754e-09  4.58293616e-01  3.50471375e-09  3.33267828e-09  3.24126870e-09  4.58293616e-01  3.13537135e-09  1.58305640e-07  4.99391746e-08  7.60000000e-01 
 7.70000000e-01  3.34558754e-09  4.58293586e-01  3.50471380e-09  3.33267827e-09  3.24126864e-09  4.58293586e-01  3.13537141e-09  1.58305608e-07  4.99390325e-08  7.70000000e-01 
 7.80000000e-01  3.34558754e-09  4.58293608e-01  3.50471379e-09  3.33267827e-09  3.24126864e-09  4.58293608e-01  3.13537141e-09  1.58305647e-07  4.99390040e-08  7.80000000e-01 
 7.90000000e-01  3.34558754e-09  4.58293617e-01  3.50471380e-09  3.33267828e-09  3.24126864e-09  4.58293617e-01  3.13537135e-09  1.58305642e-07  4.99390111e-08  7.90000000e-01 
 8.00000000e-01  3.34558754e-09  4.58293614e-01  3.50471380e-09  3.33267828e-09  3.24126870e-09  4.58293614e-01  3.13537141e-09  1.58305650e-07  4.99389046e-08  8.00000000e-01 
 8.10000000e-01  3.34558754e-09  4.58293591e-01  3.50471380e-09  3.33267827e-09  3.24126870e-09  4.58293591e-01  3.13537135e-09  1.58305621e-07  4.99388477e-08  8.10000000e-01 
 8.20000000e-01  3.34558754e-09  4.58293631e-01  3.50471380e-09  3.33267822e-09  3.24126864e-09  4.58293631e-01  3.13537141e-09  1.58305680e-07  4.99388051e-08  8.20000000e-01 
 8.30000000e-01  3.34558754e-09  4.58293620e-01  3.50471380e-09  3.33267828e-09  3.24126864e-09  4.58293620e-01  3.13537141e-09  1.58305671e-07  4.99388406e-08  8.30000000e-01 
 8.40000000e-01  3.34558754e-09  4.58293623e-01  3.50471374e-09  3.33267828e-09  3.24126870e-09  4.58293623e-01  3.13537135e-09  1.58305659e-07  4.99386630e-08  8.40000000e-01 
 8.50000000e-01  3.34558760e-09  4.58293633e-01  3.50471381e-09  3.33267828e-09  3.24126870e-09  4.58293633e-01  3.13537141e-09  1.58305683e-07  4.99386772e-08  8.50000000e-01 
 8.60000000e-01  3.34558758e-09  4.58293612e-01  3.50471379e-09  3.33267828e-09  3.24126864e-09  4.58293612e-01  3.13537135e-09  1.58305655e-07  4.99385351e-08  8.60000000e-01 
 8.70000000e-01  3.34558759e-09  4.58293620e-01  3.50471374e-09  3.33267828e-09  3.24126864e-09  4.58293620e-01  3.13537141e-09  1.58305672e-07  4.99385564e-08  8.70000000e-01 
 8.80000000e-01  3.34558753e-09  4.58293626e-01  3.50471376e-09  3.33267828e-09  3.24126864e-09  4.58293626e-01  3.13537135e-09  1.58305672e-07  4.99384356e-08  8.80000000e-01 
 8.90000000e-01  3.34558755e-09  4.58293614e-01  3.50471375e-09  3.33267828e-09  3.24126870e-09  4.58293614e-01  3.13537141e-09  1.58305636e-07  4.99383077e-08  8.90000000e-01 
 9.00000000e-01  3.34558760e-09  4.58293612e-01  3.50471381e-09  3.33267828e-09  3.24126864e-09  4.58293612e-01  3.13537141e-09  1.58305649e-07  4.99383361e-08  9.00000000e-01 
 9.10000000e-01  3.34558758e-09  4.58293608e-01  3.50471379e-09  3.33267827e-09  3.24126870e-09  4.58293608e-01  3.13537141e-09  1.58305633e-07  4.99381585e-08  9.10000000e-01 
 9.20000000e-01  3.34558753e-09  4.58293595e-01  3.50471380e-09  3.33267827e-09  3.24126870e-09  4.58293595e-01  3.13537135e-09  1.58305611e-07  4.99381443e-08  9.20000000e-01 
 9.30000000e-01  3.34558755e-09  4.58293610e-01  3.50471380e-09  3.33267828e-09  3.24126870e-09  4.58293610e-01  3.13537135e-09  1.58305652e-07  4.99381159e-08  9.30000000e-01 
 9.40000000e-01  3.34558754e-09  4.58293623e-01  3.50471380e-09  3.33267828e-09  3.24126870e-09  4.58293623e-01  3.13537141e-09  1.58305662e-07  4.99380732e-08  9.40000000e-01 
 9.50000000e-01  3.34558754e-09  4.58293630e-01  3.50471380e-09  3.33267828e-09  3.24126864e-09  4.58293630e-01  3.13537135e-09  1.58305668e-07  4.99379311e-08  9.50000000e-01 
 9.60000000e-01  3.34558754e-09  4.58293612e-01  3.50471380e-09  3.33267828e-09  3.24126870e-09  4.58293612e-01  3.13537141e-09  1.58305650e-07  4.99379169e-08  9.60000000e-01 
 9.70000000e-01  3.34558760e-09  4.58293623e-01  3.50471380e-09  3.33267828e-09  3.24126870e-09  4.58293623e-01  3.13537141e-09  1.58305664e-07  4.99380519e-08  9.70000000e-01 
 9.80000000e-01  3.34558753e-09  4.58293612e-01  3.50471380e-09  3.33267828e-09  3.24126864e-09  4.58293611e-01  3.13537141e-09  1.58305660e-07  4.99379311e-08  9.80000000e-01 
 9.90000000e-01  3.34558755e-09  4.58293599e-01  3.50471374e-09  3.33267827e-09  3.24126864e-09  4.58293599e-01  3.13537135e-09  1.58305637e-07  4.99377606e-08  9.90000000e-01 
 1.00000000e+00  3.34558754e-09  4.58293615e-01  3.50471381e-09  3.33267828e-09  3.24126870e-09  4.58293615e-01  3.13537141e-09  1.58305660e-07  4.99376398e-08  1.00000000e+00 
 1.01000000e+00  3.34558754e-09  4.58293615e-01  3.50471379e-09  3.33267828e-09  3.24126864e-09  4.58293615e-01  3.13537141e-09  1.58305646e-07  4.99375687e-08  1.01000000e+00 
 1.02000000e+00  3.34558754e-09  4.58293617e-01  3.50471374e-09  3.33267828e-09  3.24126864e-09  4.58293617e-01  3.13537141e-09  1.58305643e-07  4.99377251e-08  1.02000000e+00 
 1.03000000e+00  3.34558754e-09  4.58293599e-01  3.50471381e-09  3.33267827e-09  3.24126870e-09  4.58293599e-01  3.13537141e-09  1.58305628e-07  4.99374977e-08  1.03000000e+00 
 1.04000000e+00  3.34558754e-09  4.58293627e-01  3.50471379e-09  3.33267828e-09  3.24126864e-09  4.58293627e-01  3.13537135e-09  1.58305672e-07  4.99374693e-08  1.04000000e+00 
 1.05000000e+00  3.34558754e-09  4.58293625e-01  3.50471380e-09  3.33267828e-09  3.24126864e-09  4.58293625e-01  3.13537141e-09  1.58305665e-07  4.99371993e-08  1.05000000e+00 
 1.06000000e+00  3.34558754e-09  4.58293589e-01  3.50471380e-09  3.33267827e-09  3.24126864e-09  4.58293589e-01  3.13537141e-09  1.58305615e-07  4.99372277e-08  1.06000000e+00 
 1.07000000e+00  3.34558754e-09  4.58293627e-01  3.50471380e-09  3.33267828e-09  3.24126870e-09  4.58293627e-01  3.13537135e-09  1.58305678e-07  4.99372561e-08  1.07000000e+00 
 1.08000000e+00  3.34558754e-09  4.58293623e-01  3.50471380e-09  3.33267828e-09  3.24126870e-09  4.58293623e-01  3.13537141e-09  1.58305684e-07  4.99371566e-08  1.08000000e+00 
 1.09000000e+00  3.34558754e-09  4.58293603e-01  3.50471374e-09  3.33267827e-09  3.24126870e-09  4.58293603e-01  3.13537135e-09  1.58305633e-07  4.99370714e-08  1.09000000e+00 
 1.10000000e+00  3.34558754e-09  4.58293629e-01  3.50471376e-09  3.33267828e-09  3.24126870e-09  4.58293629e-01  3.13537141e-09  1.58305676e-07  4.99371708e-08  1.10000000e+00 
