 v-sweep         v(b0)           v(b1)           v(b2)           v(b3)           v(b4)           v(b5)           v(b6)           i(vbias)        i(viout)        v(vout)        
 0.00000000e+00  3.22734056e-09  4.58606788e-01  4.58606788e-01  4.58606788e-01  3.67116270e-09  3.55522330e-09  3.36215393e-09  1.60276226e-07  2.17967784e-08  0.00000000e+00 
 1.00000000e-02  3.22734059e-09  4.58606787e-01  4.58606787e-01  4.58606787e-01  3.67116267e-09  3.55522327e-09  3.36215391e-09  1.60276204e-07  2.17963102e-08  1.00000000e-02 
 2.00000000e-02  3.22734053e-09  4.58606799e-01  4.58606799e-01  4.58606799e-01  3.67116263e-09  3.55522333e-09  3.36215391e-09  1.60276233e-07  2.17959648e-08  2.00000000e-02 
 3.00000000e-02  3.22734059e-09  4.58606792e-01  4.58606792e-01  4.58606792e-01  3.67116268e-09  3.55522326e-09  3.36215391e-09  1.60276213e-07  2.17956926e-08  3.00000000e-02 
 4.00000000e-02  3.22734059e-09  4.58606783e-01  4.58606783e-01  4.58606783e-01  3.67116266e-09  3.55522328e-09  3.36215390e-09  1.60276209e-07  2.17952834e-08  4.00000000e-02 
 5.00000000e-02  3.22734059e-09  4.58606805e-01  4.58606805e-01  4.58606805e-01  3.67116268e-09  3.55522327e-09  3.36215397e-09  1.60276255e-07  2.17950022e-08  5.00000000e-02 
 6.00000000e-02  3.22734059e-09  4.58606788e-01  4.58606788e-01  4.58606788e-01  3.67116266e-09  3.55522327e-09  3.36215391e-09  1.60276213e-07  2.17946545e-08  6.00000000e-02 
 7.00000000e-02  3.22734059e-09  4.58606776e-01  4.58606776e-01  4.58606776e-01  3.67116268e-09  3.55522327e-09  3.36215390e-09  1.60276210e-07  2.17943699e-08  7.00000000e-02 
 8.00000000e-02  3.22734059e-09  4.58606779e-01  4.58606779e-01  4.58606779e-01  3.67116266e-09  3.55522327e-09  3.36215396e-09  1.60276225e-07  2.17940910e-08  8.00000000e-02 
 9.00000000e-02  3.22734054e-09  4.58606815e-01  4.58606814e-01  4.58606814e-01  3.67116268e-09  3.55522327e-09  3.36215391e-09  1.60276249e-07  2.17939364e-08  9.00000000e-02 
 1.00000000e-01  3.22734059e-09  4.58606768e-01  4.58606768e-01  4.58606768e-01  3.67116266e-09  3.55522327e-09  3.36215390e-09  1.60276203e-07  2.17935927e-08  1.00000000e-01 
 1.10000000e-01  3.22734059e-09  4.58606784e-01  4.58606784e-01  4.58606784e-01  3.67116268e-09  3.55522327e-09  3.36215396e-09  1.60276219e-07  2.17932952e-08  1.10000000e-01 
 1.20000000e-01  3.22734053e-09  4.58606801e-01  4.58606801e-01  4.58606801e-01  3.67116266e-09  3.55522327e-09  3.36215391e-09  1.60276241e-07  2.17930971e-08  1.20000000e-01 
 1.30000000e-01  3.22734053e-09  4.58606789e-01  4.58606789e-01  4.58606789e-01  3.67116268e-09  3.55522327e-09  3.36215391e-09  1.60276221e-07  2.17928076e-08  1.30000000e-01 
 1.40000000e-01  3.22734053e-09  4.58606795e-01  4.58606795e-01  4.58606795e-01  3.67116266e-09  3.55522333e-09  3.36215396e-09  1.60276232e-07  2.17926637e-08  1.40000000e-01 
 1.50000000e-01  3.22734059e-09  4.58606779e-01  4.58606779e-01  4.58606779e-01  3.67116268e-09  3.55522326e-09  3.36215390e-09  1.60276209e-07  2.17925233e-08  1.50000000e-01 
 1.60000000e-01  3.22734053e-09  4.58606778e-01  4.58606778e-01  4.58606778e-01  3.67116266e-09  3.55522328e-09  3.36215390e-09  1.60276207e-07  2.17922143e-08  1.60000000e-01 
 1.70000000e-01  3.22734053e-09  4.58606804e-01  4.58606804e-01  4.58606804e-01  3.67116268e-09  3.55522327e-09  3.36215397e-09  1.60276248e-07  2.17920739e-08  1.70000000e-01 
 1.80000000e-01  3.22734053e-09  4.58606795e-01  4.58606795e-01  4.58606795e-01  3.67116266e-09  3.55522327e-09  3.36215391e-09  1.60276230e-07  2.17919229e-08  1.80000000e-01 
 1.90000000e-01  3.22734059e-09  4.58606778e-01  4.58606778e-01  4.58606778e-01  3.67116262e-09  3.55522327e-09  3.36215390e-09  1.60276201e-07  2.17918821e-08  1.90000000e-01 
 2.00000000e-01  3.22734053e-09  4.58606797e-01  4.58606797e-01  4.58606797e-01  3.67116262e-09  3.55522333e-09  3.36215391e-09  1.60276245e-07  2.17916387e-08  2.00000000e-01 
 2.10000000e-01  3.22734059e-09  4.58606774e-01  4.58606774e-01  4.58606774e-01  3.67116268e-09  3.55522332e-09  3.36215390e-09  1.60276209e-07  2.17915268e-08  2.10000000e-01 
 2.20000000e-01  3.22734053e-09  4.58606808e-01  4.58606808e-01  4.58606808e-01  3.67116266e-09  3.55522328e-09  3.36215397e-09  1.60276269e-07  2.17913847e-08  2.20000000e-01 
 2.30000000e-01  3.22734053e-09  4.58606789e-01  4.58606789e-01  4.58606789e-01  3.67116262e-09  3.55522327e-09  3.36215391e-09  1.60276224e-07  2.17911413e-08  2.30000000e-01 
 2.40000000e-01  3.22734053e-09  4.58606785e-01  4.58606785e-01  4.58606785e-01  3.67116268e-09  3.55522327e-09  3.36215390e-09  1.60276217e-07  2.17910880e-08  2.40000000e-01 
 2.50000000e-01  3.22734059e-09  4.58606794e-01  4.58606794e-01  4.58606794e-01  3.67116266e-09  3.55522327e-09  3.36215391e-09  1.60276226e-07  2.17909619e-08  2.50000000e-01 
 2.60000000e-01  3.22734059e-09  4.58606772e-01  4.58606772e-01  4.58606772e-01  3.67116268e-09  3.55522327e-09  3.36215390e-09  1.60276182e-07  2.17908802e-08  2.60000000e-01 
 2.70000000e-01  3.22734059e-09  4.58606777e-01  4.58606777e-01  4.58606777e-01  3.67116266e-09  3.55522327e-09  3.36215390e-09  1.60276211e-07  2.17906315e-08  2.70000000e-01 
 2.80000000e-01  3.22734059e-09  4.58606781e-01  4.58606781e-01  4.58606781e-01  3.67116268e-09  3.55522327e-09  3.36215396e-09  1.60276208e-07  2.17905498e-08  2.80000000e-01 
 2.90000000e-01  3.22734053e-09  4.58606797e-01  4.58606797e-01  4.58606797e-01  3.67116266e-09  3.55522327e-09  3.36215396e-09  1.60276240e-07  2.17905054e-08  2.90000000e-01 
 3.00000000e-01  3.22734059e-09  4.58606796e-01  4.58606796e-01  4.58606796e-01  3.67116268e-09  3.55522327e-09  3.36215396e-09  1.60276229e-07  2.17903846e-08  3.00000000e-01 
 3.10000000e-01  3.22734053e-09  4.58606789e-01  4.58606789e-01  4.58606789e-01  3.67116266e-09  3.55522327e-09  3.36215396e-09  1.60276219e-07  2.17902674e-08  3.10000000e-01 
 3.20000000e-01  3.22734059e-09  4.58606793e-01  4.58606793e-01  4.58606793e-01  3.67116263e-09  3.55522327e-09  3.36215391e-09  1.60276225e-07  2.17902105e-08  3.20000000e-01 
 3.30000000e-01  3.22734059e-09  4.58606781e-01  4.58606781e-01  4.58606781e-01  3.67116268e-09  3.55522327e-09  3.36215390e-09  1.60276211e-07  2.17900968e-08  3.30000000e-01 
 3.40000000e-01  3.22734053e-09  4.58606781e-01  4.58606781e-01  4.58606781e-01  3.67116266e-09  3.55522327e-09  3.36215396e-09  1.60276207e-07  2.17900045e-08  3.40000000e-01 
 3.50000000e-01  3.22734059e-09  4.58606793e-01  4.58606793e-01  4.58606793e-01  3.67116268e-09  3.55522327e-09  3.36215391e-09  1.60276228e-07  2.17899938e-08  3.50000000e-01 
 3.60000000e-01  3.22734059e-09  4.58606798e-01  4.58606798e-01  4.58606798e-01  3.67116266e-09  3.55522327e-09  3.36215391e-09  1.60276221e-07  2.17898304e-08  3.60000000e-01 
 3.70000000e-01  3.22734059e-09  4.58606778e-01  4.58606778e-01  4.58606778e-01  3.67116268e-09  3.55522327e-09  3.36215396e-09  1.60276207e-07  2.17897274e-08  3.70000000e-01 
 3.80000000e-01  3.22734059e-09  4.58606774e-01  4.58606774e-01  4.58606774e-01  3.67116266e-09  3.55522327e-09  3.36215390e-09  1.60276201e-07  2.17896279e-08  3.80000000e-01 
 3.90000000e-01  3.22734059e-09  4.58606753e-01  4.58606753e-01  4.58606753e-01  3.67116268e-09  3.55522327e-09  3.36215390e-09  1.60276156e-07  2.17895355e-08  3.90000000e-01 
 4.00000000e-01  3.22734053e-09  4.58606784e-01  4.58606784e-01  4.58606784e-01  3.67116266e-09  3.55522327e-09  3.36215390e-09  1.60276226e-07  2.17896314e-08  4.00000000e-01 
 4.10000000e-01  3.22734053e-09  4.58606806e-01  4.58606806e-01  4.58606806e-01  3.67116268e-09  3.55522327e-09  3.36215391e-09  1.60276248e-07  2.17894431e-08  4.10000000e-01 
 4.20000000e-01  3.22734059e-09  4.58606763e-01  4.58606763e-01  4.58606763e-01  3.67116266e-09  3.55522327e-09  3.36215390e-09  1.60276181e-07  2.17892691e-08  4.20000000e-01 
 4.30000000e-01  3.22734059e-09  4.58606791e-01  4.58606791e-01  4.58606791e-01  3.67116268e-09  3.55522327e-09  3.36215391e-09  1.60276233e-07  2.17892193e-08  4.30000000e-01 
 4.40000000e-01  3.22734053e-09  4.58606794e-01  4.58606794e-01  4.58606794e-01  3.67116266e-09  3.55522333e-09  3.36215391e-09  1.60276222e-07  2.17892797e-08  4.40000000e-01 
 4.50000000e-01  3.22734053e-09  4.58606782e-01  4.58606782e-01  4.58606782e-01  3.67116268e-09  3.55522332e-09  3.36215390e-09  1.60276217e-07  2.17891447e-08  4.50000000e-01 
 4.60000000e-01  3.22734059e-09  4.58606809e-01  4.58606809e-01  4.58606809e-01  3.67116266e-09  3.55522328e-09  3.36215391e-09  1.60276254e-07  2.17891625e-08  4.60000000e-01 
 4.70000000e-01  3.22734053e-09  4.58606767e-01  4.58606767e-01  4.58606767e-01  3.67116262e-09  3.55522327e-09  3.36215390e-09  1.60276197e-07  2.17890630e-08  4.70000000e-01 
 4.80000000e-01  3.22734059e-09  4.58606791e-01  4.58606791e-01  4.58606791e-01  3.67116268e-09  3.55522327e-09  3.36215391e-09  1.60276248e-07  2.17890026e-08  4.80000000e-01 
 4.90000000e-01  3.22734059e-09  4.58606789e-01  4.58606789e-01  4.58606789e-01  3.67116266e-09  3.55522333e-09  3.36215391e-09  1.60276231e-07  2.17889919e-08  4.90000000e-01 
 5.00000000e-01  3.22734053e-09  4.58606798e-01  4.58606798e-01  4.58606798e-01  3.67116263e-09  3.55522326e-09  3.36215396e-09  1.60276236e-07  2.17888818e-08  5.00000000e-01 
 5.10000000e-01  3.22734053e-09  4.58606779e-01  4.58606779e-01  4.58606779e-01  3.67116268e-09  3.55522328e-09  3.36215396e-09  1.60276208e-07  2.17888463e-08  5.10000000e-01 
 5.20000000e-01  3.22734059e-09  4.58606802e-01  4.58606802e-01  4.58606802e-01  3.67116266e-09  3.55522327e-09  3.36215391e-09  1.60276241e-07  2.17886331e-08  5.20000000e-01 
 5.30000000e-01  3.22734053e-09  4.58606792e-01  4.58606792e-01  4.58606792e-01  3.67116268e-09  3.55522327e-09  3.36215391e-09  1.60276224e-07  2.17886544e-08  5.30000000e-01 
 5.40000000e-01  3.22734053e-09  4.58606789e-01  4.58606789e-01  4.58606789e-01  3.67116266e-09  3.55522327e-09  3.36215391e-09  1.60276224e-07  2.17886402e-08  5.40000000e-01 
 5.50000000e-01  3.22734053e-09  4.58606796e-01  4.58606796e-01  4.58606796e-01  3.67116268e-09  3.55522327e-09  3.36215391e-09  1.60276234e-07  2.17884910e-08  5.50000000e-01 
 5.60000000e-01  3.22734059e-09  4.58606797e-01  4.58606797e-01  4.58606797e-01  3.67116266e-09  3.55522327e-09  3.36215391e-09  1.60276233e-07  2.17884697e-08  5.60000000e-01 
 5.70000000e-01  3.22734053e-09  4.58606793e-01  4.58606793e-01  4.58606793e-01  3.67116268e-09  3.55522327e-09  3.36215391e-09  1.60276220e-07  2.17884022e-08  5.70000000e-01 
 5.80000000e-01  3.22734059e-09  4.58606771e-01  4.58606771e-01  4.58606771e-01  3.67116266e-09  3.55522333e-09  3.36215390e-09  1.60276186e-07  2.17884804e-08  5.80000000e-01 
 5.90000000e-01  3.22734053e-09  4.58606802e-01  4.58606802e-01  4.58606802e-01  3.67116268e-09  3.55522326e-09  3.36215391e-09  1.60276253e-07  2.17883311e-08  5.90000000e-01 
 6.00000000e-01  3.22734059e-09  4.58606781e-01  4.58606781e-01  4.58606781e-01  3.67116266e-09  3.55522328e-09  3.36215390e-09  1.60276208e-07  2.17883169e-08  6.00000000e-01 
 6.10000000e-01  3.22734059e-09  4.58606774e-01  4.58606774e-01  4.58606774e-01  3.67116268e-09  3.55522327e-09  3.36215390e-09  1.60276216e-07  2.17881677e-08  6.10000000e-01 
 6.20000000e-01  3.22734059e-09  4.58606782e-01  4.58606782e-01  4.58606782e-01  3.67116266e-09  3.55522327e-09  3.36215396e-09  1.60276215e-07  2.17881393e-08  6.20000000e-01 
 6.30000000e-01  3.22734053e-09  4.58606784e-01  4.58606784e-01  4.58606784e-01  3.67116262e-09  3.55522327e-09  3.36215396e-09  1.60276217e-07  2.17881890e-08  6.30000000e-01 
 6.40000000e-01  3.22734053e-09  4.58606793e-01  4.58606793e-01  4.58606793e-01  3.67116268e-09  3.55522327e-09  3.36215396e-09  1.60276226e-07  2.17880540e-08  6.40000000e-01 
 6.50000000e-01  3.22734053e-09  4.58606768e-01  4.58606767e-01  4.58606767e-01  3.67116266e-09  3.55522327e-09  3.36215396e-09  1.60276179e-07  2.17880824e-08  6.50000000e-01 
 6.60000000e-01  3.22734053e-09  4.58606778e-01  4.58606778e-01  4.58606778e-01  3.67116268e-09  3.55522327e-09  3.36215390e-09  1.60276217e-07  2.17879759e-08  6.60000000e-01 
 6.70000000e-01  3.22734053e-09  4.58606769e-01  4.58606769e-01  4.58606769e-01  3.67116266e-09  3.55522327e-09  3.36215390e-09  1.60276187e-07  2.17879972e-08  6.70000000e-01 
 6.80000000e-01  3.22734053e-09  4.58606794e-01  4.58606794e-01  4.58606794e-01  3.67116268e-09  3.55522333e-09  3.36215391e-09  1.60276240e-07  2.17878551e-08  6.80000000e-01 
 6.90000000e-01  3.22734053e-09  4.58606805e-01  4.58606805e-01  4.58606805e-01  3.67116266e-09  3.55522326e-09  3.36215391e-09  1.60276244e-07  2.17878977e-08  6.90000000e-01 
 7.00000000e-01  3.22734053e-09  4.58606796e-01  4.58606796e-01  4.58606796e-01  3.67116268e-09  3.55522328e-09  3.36215391e-09  1.60276229e-07  2.17877982e-08  7.00000000e-01 
 7.10000000e-01  3.22734053e-09  4.58606791e-01  4.58606791e-01  4.58606791e-01  3.67116266e-09  3.55522327e-09  3.36215391e-09  1.60276214e-07  2.17877272e-08  7.10000000e-01 
 7.20000000e-01  3.22734054e-09  4.58606813e-01  4.58606813e-01  4.58606813e-01  3.67116268e-09  3.55522327e-09  3.36215391e-09  1.60276262e-07  2.17877272e-08  7.20000000e-01 
 7.30000000e-01  3.22734059e-09  4.58606785e-01  4.58606785e-01  4.58606785e-01  3.67116266e-09  3.55522333e-09  3.36215391e-09  1.60276203e-07  2.17876348e-08  7.30000000e-01 
 7.40000000e-01  3.22734059e-09  4.58606788e-01  4.58606788e-01  4.58606788e-01  3.67116262e-09  3.55522326e-09  3.36215391e-09  1.60276226e-07  2.17875638e-08  7.40000000e-01 
 7.50000000e-01  3.22734053e-09  4.58606777e-01  4.58606777e-01  4.58606777e-01  3.67116268e-09  3.55522328e-09  3.36215396e-09  1.60276200e-07  2.17875424e-08  7.50000000e-01 
 7.60000000e-01  3.22734053e-09  4.58606782e-01  4.58606782e-01  4.58606782e-01  3.67116266e-09  3.55522327e-09  3.36215396e-09  1.60276224e-07  2.17874998e-08  7.60000000e-01 
 7.70000000e-01  3.22734059e-09  4.58606780e-01  4.58606780e-01  4.58606780e-01  3.67116268e-09  3.55522333e-09  3.36215390e-09  1.60276213e-07  2.17873861e-08  7.70000000e-01 
 7.80000000e-01  3.22734059e-09  4.58606806e-01  4.58606806e-01  4.58606806e-01  3.67116266e-09  3.55522332e-09  3.36215391e-09  1.60276247e-07  2.17874288e-08  7.80000000e-01 
 7.90000000e-01  3.22734053e-09  4.58606767e-01  4.58606767e-01  4.58606766e-01  3.67116268e-09  3.55522328e-09  3.36215390e-09  1.60276187e-07  2.17873364e-08  7.90000000e-01 
 8.00000000e-01  3.22734053e-09  4.58606803e-01  4.58606802e-01  4.58606802e-01  3.67116266e-09  3.55522327e-09  3.36215391e-09  1.60276258e-07  2.17873293e-08  8.00000000e-01 
 8.10000000e-01  3.22734053e-09  4.58606770e-01  4.58606770e-01  4.58606770e-01  3.67116268e-09  3.55522327e-09  3.36215390e-09  1.60276198e-07  2.17872085e-08  8.10000000e-01 
 8.20000000e-01  3.22734053e-09  4.58606790e-01  4.58606790e-01  4.58606790e-01  3.67116266e-09  3.55522333e-09  3.36215391e-09  1.60276234e-07  2.17872440e-08  8.20000000e-01 
 8.30000000e-01  3.22734053e-09  4.58606798e-01  4.58606798e-01  4.58606798e-01  3.67116263e-09  3.55522326e-09  3.36215396e-09  1.60276222e-07  2.17870380e-08  8.30000000e-01 
 8.40000000e-01  3.22734059e-09  4.58606802e-01  4.58606802e-01  4.58606802e-01  3.67116262e-09  3.55522328e-09  3.36215396e-09  1.60276235e-07  2.17870948e-08  8.40000000e-01 
 8.50000000e-01  3.22734059e-09  4.58606757e-01  4.58606757e-01  4.58606757e-01  3.67116267e-09  3.55522327e-09  3.36215396e-09  1.60276175e-07  2.17870735e-08  8.50000000e-01 
 8.60000000e-01  3.22734059e-09  4.58606776e-01  4.58606776e-01  4.58606776e-01  3.67116266e-09  3.55522327e-09  3.36215390e-09  1.60276220e-07  2.17870451e-08  8.60000000e-01 
 8.70000000e-01  3.22734053e-09  4.58606777e-01  4.58606777e-01  4.58606777e-01  3.67116262e-09  3.55522327e-09  3.36215390e-09  1.60276200e-07  2.17869101e-08  8.70000000e-01 
 8.80000000e-01  3.22734053e-09  4.58606784e-01  4.58606784e-01  4.58606784e-01  3.67116268e-09  3.55522327e-09  3.36215390e-09  1.60276217e-07  2.17868035e-08  8.80000000e-01 
 8.90000000e-01  3.22734059e-09  4.58606763e-01  4.58606763e-01  4.58606763e-01  3.67116266e-09  3.55522327e-09  3.36215390e-09  1.60276181e-07  2.17868319e-08  8.90000000e-01 
 9.00000000e-01  3.22734059e-09  4.58606810e-01  4.58606810e-01  4.58606810e-01  3.67116268e-09  3.55522327e-09  3.36215391e-09  1.60276265e-07  2.17868177e-08  9.00000000e-01 
 9.10000000e-01  3.22734053e-09  4.58606798e-01  4.58606798e-01  4.58606798e-01  3.67116266e-09  3.55522327e-09  3.36215391e-09  1.60276239e-07  2.17866898e-08  9.10000000e-01 
 9.20000000e-01  3.22734059e-09  4.58606790e-01  4.58606790e-01  4.58606790e-01  3.67116263e-09  3.55522327e-09  3.36215391e-09  1.60276220e-07  2.17866685e-08  9.20000000e-01 
 9.30000000e-01  3.22734053e-09  4.58606768e-01  4.58606768e-01  4.58606768e-01  3.67116267e-09  3.55522327e-09  3.36215390e-09  1.60276190e-07  2.17865903e-08  9.30000000e-01 
 9.40000000e-01  3.22734059e-09  4.58606793e-01  4.58606793e-01  4.58606793e-01  3.67116266e-09  3.55522327e-09  3.36215391e-09  1.60276242e-07  2.17865761e-08  9.40000000e-01 
 9.50000000e-01  3.22734053e-09  4.58606801e-01  4.58606801e-01  4.58606801e-01  3.67116268e-09  3.55522327e-09  3.36215396e-09  1.60276243e-07  2.17865335e-08  9.50000000e-01 
 9.60000000e-01  3.22734059e-09  4.58606773e-01  4.58606773e-01  4.58606773e-01  3.67116266e-09  3.55522327e-09  3.36215390e-09  1.60276190e-07  2.17863914e-08  9.60000000e-01 
 9.70000000e-01  3.22734059e-09  4.58606806e-01  4.58606806e-01  4.58606806e-01  3.67116263e-09  3.55522327e-09  3.36215391e-09  1.60276256e-07  2.17863771e-08  9.70000000e-01 
 9.80000000e-01  3.22734053e-09  4.58606743e-01  4.58606743e-01  4.58606743e-01  3.67116262e-09  3.55522333e-09  3.36215390e-09  1.60276146e-07  2.17862990e-08  9.80000000e-01 
 9.90000000e-01  3.22734059e-09  4.58606773e-01  4.58606773e-01  4.58606773e-01  3.67116268e-09  3.55522326e-09  3.36215390e-09  1.60276213e-07  2.17861853e-08  9.90000000e-01 
 1.00000000e+00  3.22734059e-09  4.58606784e-01  4.58606784e-01  4.58606784e-01  3.67116266e-09  3.55522328e-09  3.36215396e-09  1.60276221e-07  2.17862208e-08  1.00000000e+00 
 1.01000000e+00  3.22734053e-09  4.58606776e-01  4.58606775e-01  4.58606775e-01  3.67116268e-09  3.55522327e-09  3.36215390e-09  1.60276186e-07  2.17862279e-08  1.01000000e+00 
 1.02000000e+00  3.22734059e-09  4.58606805e-01  4.58606805e-01  4.58606805e-01  3.67116266e-09  3.55522327e-09  3.36215391e-09  1.60276249e-07  2.17860929e-08  1.02000000e+00 
 1.03000000e+00  3.22734053e-09  4.58606806e-01  4.58606806e-01  4.58606806e-01  3.67116263e-09  3.55522327e-09  3.36215391e-09  1.60276256e-07  2.17861071e-08  1.03000000e+00 
 1.04000000e+00  3.22734059e-09  4.58606796e-01  4.58606796e-01  4.58606796e-01  3.67116268e-09  3.55522327e-09  3.36215396e-09  1.60276230e-07  2.17860574e-08  1.04000000e+00 
 1.05000000e+00  3.22734059e-09  4.58606789e-01  4.58606789e-01  4.58606789e-01  3.67116266e-09  3.55522327e-09  3.36215391e-09  1.60276222e-07  2.17858869e-08  1.05000000e+00 
 1.06000000e+00  3.22734059e-09  4.58606801e-01  4.58606801e-01  4.58606801e-01  3.67116268e-09  3.55522327e-09  3.36215391e-09  1.60276237e-07  2.17859295e-08  1.06000000e+00 
 1.07000000e+00  3.22734059e-09  4.58606782e-01  4.58606782e-01  4.58606782e-01  3.67116266e-09  3.55522327e-09  3.36215390e-09  1.60276224e-07  2.17856098e-08  1.07000000e+00 
 1.08000000e+00  3.22734059e-09  4.58606802e-01  4.58606802e-01  4.58606802e-01  3.67116263e-09  3.55522327e-09  3.36215391e-09  1.60276241e-07  2.17857874e-08  1.08000000e+00 
 1.09000000e+00  3.22734053e-09  4.58606791e-01  4.58606791e-01  4.58606791e-01  3.67116262e-09  3.55522333e-09  3.36215391e-09  1.60276218e-07  2.17856808e-08  1.09000000e+00 
 1.10000000e+00  3.22734053e-09  4.58606781e-01  4.58606781e-01  4.58606781e-01  3.67116268e-09  3.55522326e-09  3.36215396e-09  1.60276217e-07  2.17856879e-08  1.10000000e+00 
