 v-sweep         v(b0)           v(b1)           v(b2)           v(b3)           v(b4)           v(b5)           v(b6)           i(vbias)        i(viout)        v(vout)        
 0.00000000e+00  4.57584030e-01  3.13393334e-09  3.33832466e-09  3.21041979e-09  3.53292103e-09  4.57584029e-01  3.04753165e-09  1.58716503e-07  4.76843724e-08  0.00000000e+00 
 1.00000000e-02  4.57584007e-01  3.13393331e-09  3.33832468e-09  3.21041981e-09  3.53292106e-09  4.57584007e-01  3.04753168e-09  1.58716467e-07  4.76839505e-08  1.00000000e-02 
 2.00000000e-02  4.57584023e-01  3.13393326e-09  3.33832469e-09  3.21041981e-09  3.53292106e-09  4.57584023e-01  3.04753167e-09  1.58716502e-07  4.76835433e-08  2.00000000e-02 
 3.00000000e-02  4.57584014e-01  3.13393331e-09  3.33832474e-09  3.21041976e-09  3.53292100e-09  4.57584013e-01  3.04753167e-09  1.58716478e-07  4.76832356e-08  3.00000000e-02 
 4.00000000e-02  4.57583998e-01  3.13393331e-09  3.33832468e-09  3.21041975e-09  3.53292105e-09  4.57583998e-01  3.04753167e-09  1.58716450e-07  4.76828994e-08  4.00000000e-02 
 5.00000000e-02  4.57584000e-01  3.13393331e-09  3.33832468e-09  3.21041982e-09  3.53292100e-09  4.57584000e-01  3.04753167e-09  1.58716460e-07  4.76825672e-08  5.00000000e-02 
 6.00000000e-02  4.57584010e-01  3.13393325e-09  3.33832468e-09  3.21041975e-09  3.53292106e-09  4.57584010e-01  3.04753167e-09  1.58716486e-07  4.76823465e-08  6.00000000e-02 
 7.00000000e-02  4.57584004e-01  3.13393331e-09  3.33832468e-09  3.21041977e-09  3.53292106e-09  4.57584004e-01  3.04753167e-09  1.58716462e-07  4.76818358e-08  7.00000000e-02 
 8.00000000e-02  4.57584004e-01  3.13393325e-09  3.33832468e-09  3.21041975e-09  3.53292106e-09  4.57584004e-01  3.04753167e-09  1.58716458e-07  4.76816968e-08  8.00000000e-02 
 9.00000000e-02  4.57584005e-01  3.13393331e-09  3.33832474e-09  3.21041977e-09  3.53292100e-09  4.57584005e-01  3.04753167e-09  1.58716456e-07  4.76813717e-08  9.00000000e-02 
 1.00000000e-01  4.57584008e-01  3.13393331e-09  3.33832468e-09  3.21041975e-09  3.53292106e-09  4.57584008e-01  3.04753167e-09  1.58716471e-07  4.76811062e-08  1.00000000e-01 
 1.10000000e-01  4.57584004e-01  3.13393331e-09  3.33832468e-09  3.21041977e-09  3.53292105e-09  4.57584004e-01  3.04753167e-09  1.58716472e-07  4.76809046e-08  1.10000000e-01 
 1.20000000e-01  4.57584035e-01  3.13393326e-09  3.33832469e-09  3.21041975e-09  3.53292106e-09  4.57584035e-01  3.04753167e-09  1.58716511e-07  4.76807305e-08  1.20000000e-01 
 1.30000000e-01  4.57584029e-01  3.13393331e-09  3.33832469e-09  3.21041983e-09  3.53292100e-09  4.57584029e-01  3.04753167e-09  1.58716505e-07  4.76803566e-08  1.30000000e-01 
 1.40000000e-01  4.57584018e-01  3.13393331e-09  3.33832474e-09  3.21041981e-09  3.53292106e-09  4.57584018e-01  3.04753167e-09  1.58716483e-07  4.76801754e-08  1.40000000e-01 
 1.50000000e-01  4.57584025e-01  3.13393331e-09  3.33832469e-09  3.21041981e-09  3.53292106e-09  4.57584025e-01  3.04753167e-09  1.58716496e-07  4.76800111e-08  1.50000000e-01 
 1.60000000e-01  4.57584004e-01  3.13393325e-09  3.33832468e-09  3.21041981e-09  3.53292106e-09  4.57584004e-01  3.04753167e-09  1.58716476e-07  4.76797570e-08  1.60000000e-01 
 1.70000000e-01  4.57584033e-01  3.13393331e-09  3.33832469e-09  3.21041976e-09  3.53292106e-09  4.57584032e-01  3.04753167e-09  1.58716511e-07  4.76795936e-08  1.70000000e-01 
 1.80000000e-01  4.57584025e-01  3.13393331e-09  3.33832469e-09  3.21041981e-09  3.53292100e-09  4.57584024e-01  3.04753167e-09  1.58716503e-07  4.76794959e-08  1.80000000e-01 
 1.90000000e-01  4.57584005e-01  3.13393331e-09  3.33832468e-09  3.21041981e-09  3.53292106e-09  4.57584005e-01  3.04753167e-09  1.58716464e-07  4.76792188e-08  1.90000000e-01 
 2.00000000e-01  4.57584000e-01  3.13393331e-09  3.33832468e-09  3.21041981e-09  3.53292100e-09  4.57584000e-01  3.04753167e-09  1.58716455e-07  4.76790873e-08  2.00000000e-01 
 2.10000000e-01  4.57584027e-01  3.13393331e-09  3.33832469e-09  3.21041976e-09  3.53292100e-09  4.57584027e-01  3.04753167e-09  1.58716508e-07  4.76790660e-08  2.10000000e-01 
 2.20000000e-01  4.57583992e-01  3.13393331e-09  3.33832468e-09  3.21041975e-09  3.53292105e-09  4.57583991e-01  3.04753167e-09  1.58716448e-07  4.76788031e-08  2.20000000e-01 
 2.30000000e-01  4.57584016e-01  3.13393331e-09  3.33832469e-09  3.21041977e-09  3.53292106e-09  4.57584016e-01  3.04753167e-09  1.58716479e-07  4.76786290e-08  2.30000000e-01 
 2.40000000e-01  4.57584003e-01  3.13393325e-09  3.33832468e-09  3.21041981e-09  3.53292100e-09  4.57584002e-01  3.04753167e-09  1.58716469e-07  4.76785136e-08  2.40000000e-01 
 2.50000000e-01  4.57583999e-01  3.13393331e-09  3.33832468e-09  3.21041975e-09  3.53292100e-09  4.57583998e-01  3.04753167e-09  1.58716461e-07  4.76784656e-08  2.50000000e-01 
 2.60000000e-01  4.57584023e-01  3.13393326e-09  3.33832469e-09  3.21041983e-09  3.53292106e-09  4.57584023e-01  3.04753167e-09  1.58716484e-07  4.76782329e-08  2.60000000e-01 
 2.70000000e-01  4.57584021e-01  3.13393331e-09  3.33832469e-09  3.21041975e-09  3.53292100e-09  4.57584021e-01  3.04753167e-09  1.58716509e-07  4.76782205e-08  2.70000000e-01 
 2.80000000e-01  4.57584015e-01  3.13393331e-09  3.33832469e-09  3.21041977e-09  3.53292100e-09  4.57584015e-01  3.04753167e-09  1.58716485e-07  4.76780411e-08  2.80000000e-01 
 2.90000000e-01  4.57584012e-01  3.13393325e-09  3.33832469e-09  3.21041981e-09  3.53292106e-09  4.57584011e-01  3.04753167e-09  1.58716472e-07  4.76780038e-08  2.90000000e-01 
 3.00000000e-01  4.57584018e-01  3.13393331e-09  3.33832474e-09  3.21041976e-09  3.53292106e-09  4.57584018e-01  3.04753167e-09  1.58716493e-07  4.76778439e-08  3.00000000e-01 
 3.10000000e-01  4.57584019e-01  3.13393331e-09  3.33832469e-09  3.21041976e-09  3.53292106e-09  4.57584019e-01  3.04753167e-09  1.58716498e-07  4.76778723e-08  3.10000000e-01 
 3.20000000e-01  4.57583996e-01  3.13393331e-09  3.33832468e-09  3.21041981e-09  3.53292105e-09  4.57583996e-01  3.04753167e-09  1.58716455e-07  4.76776769e-08  3.20000000e-01 
 3.30000000e-01  4.57584012e-01  3.13393331e-09  3.33832469e-09  3.21041981e-09  3.53292106e-09  4.57584012e-01  3.04753167e-09  1.58716484e-07  4.76776236e-08  3.30000000e-01 
 3.40000000e-01  4.57584026e-01  3.13393331e-09  3.33832469e-09  3.21041981e-09  3.53292106e-09  4.57584026e-01  3.04753167e-09  1.58716498e-07  4.76773785e-08  3.40000000e-01 
 3.50000000e-01  4.57584021e-01  3.13393326e-09  3.33832469e-09  3.21041981e-09  3.53292106e-09  4.57584021e-01  3.04753167e-09  1.58716495e-07  4.76773465e-08  3.50000000e-01 
 3.60000000e-01  4.57584043e-01  3.13393331e-09  3.33832469e-09  3.21041976e-09  3.53292106e-09  4.57584043e-01  3.04753167e-09  1.58716514e-07  4.76772257e-08  3.60000000e-01 
 3.70000000e-01  4.57584020e-01  3.13393326e-09  3.33832469e-09  3.21041976e-09  3.53292106e-09  4.57584020e-01  3.04753167e-09  1.58716490e-07  4.76771902e-08  3.70000000e-01 
 3.80000000e-01  4.57584032e-01  3.13393326e-09  3.33832469e-09  3.21041981e-09  3.53292106e-09  4.57584031e-01  3.04753167e-09  1.58716512e-07  4.76771334e-08  3.80000000e-01 
 3.90000000e-01  4.57584012e-01  3.13393325e-09  3.33832469e-09  3.21041981e-09  3.53292100e-09  4.57584012e-01  3.04753167e-09  1.58716475e-07  4.76769735e-08  3.90000000e-01 
 4.00000000e-01  4.57584046e-01  3.13393326e-09  3.33832469e-09  3.21041976e-09  3.53292100e-09  4.57584046e-01  3.04753167e-09  1.58716529e-07  4.76769912e-08  4.00000000e-01 
 4.10000000e-01  4.57584011e-01  3.13393331e-09  3.33832468e-09  3.21041976e-09  3.53292106e-09  4.57584011e-01  3.04753167e-09  1.58716486e-07  4.76768456e-08  4.10000000e-01 
 4.20000000e-01  4.57584019e-01  3.13393331e-09  3.33832469e-09  3.21041981e-09  3.53292106e-09  4.57584018e-01  3.04753167e-09  1.58716490e-07  4.76768065e-08  4.20000000e-01 
 4.30000000e-01  4.57583993e-01  3.13393331e-09  3.33832468e-09  3.21041981e-09  3.53292100e-09  4.57583993e-01  3.04753167e-09  1.58716444e-07  4.76766999e-08  4.30000000e-01 
 4.40000000e-01  4.57584010e-01  3.13393331e-09  3.33832468e-09  3.21041981e-09  3.53292100e-09  4.57584010e-01  3.04753167e-09  1.58716488e-07  4.76765827e-08  4.40000000e-01 
 4.50000000e-01  4.57584009e-01  3.13393331e-09  3.33832468e-09  3.21041976e-09  3.53292106e-09  4.57584009e-01  3.04753167e-09  1.58716489e-07  4.76765365e-08  4.50000000e-01 
 4.60000000e-01  4.57584023e-01  3.13393331e-09  3.33832469e-09  3.21041977e-09  3.53292106e-09  4.57584023e-01  3.04753167e-09  1.58716504e-07  4.76765472e-08  4.60000000e-01 
 4.70000000e-01  4.57584023e-01  3.13393331e-09  3.33832474e-09  3.21041975e-09  3.53292106e-09  4.57584023e-01  3.04753167e-09  1.58716493e-07  4.76763802e-08  4.70000000e-01 
 4.80000000e-01  4.57584025e-01  3.13393331e-09  3.33832469e-09  3.21041977e-09  3.53292106e-09  4.57584024e-01  3.04753167e-09  1.58716490e-07  4.76764264e-08  4.80000000e-01 
 4.90000000e-01  4.57584034e-01  3.13393331e-09  3.33832469e-09  3.21041981e-09  3.53292106e-09  4.57584033e-01  3.04753167e-09  1.58716516e-07  4.76762558e-08  4.90000000e-01 
 5.00000000e-01  4.57584018e-01  3.13393331e-09  3.33832469e-09  3.21041981e-09  3.53292106e-09  4.57584018e-01  3.04753167e-09  1.58716490e-07  4.76762771e-08  5.00000000e-01 
 5.10000000e-01  4.57584007e-01  3.13393325e-09  3.33832468e-09  3.21041976e-09  3.53292100e-09  4.57584007e-01  3.04753167e-09  1.58716473e-07  4.76760889e-08  5.10000000e-01 
 5.20000000e-01  4.57584044e-01  3.13393331e-09  3.33832469e-09  3.21041977e-09  3.53292100e-09  4.57584044e-01  3.04753167e-09  1.58716523e-07  4.76762061e-08  5.20000000e-01 
 5.30000000e-01  4.57583991e-01  3.13393331e-09  3.33832468e-09  3.21041975e-09  3.53292105e-09  4.57583991e-01  3.04753167e-09  1.58716455e-07  4.76760214e-08  5.30000000e-01 
 5.40000000e-01  4.57584004e-01  3.13393331e-09  3.33832468e-09  3.21041977e-09  3.53292100e-09  4.57584004e-01  3.04753167e-09  1.58716473e-07  4.76758117e-08  5.40000000e-01 
 5.50000000e-01  4.57584021e-01  3.13393331e-09  3.33832469e-09  3.21041975e-09  3.53292106e-09  4.57584021e-01  3.04753167e-09  1.58716500e-07  4.76758935e-08  5.50000000e-01 
 5.60000000e-01  4.57583985e-01  3.13393331e-09  3.33832468e-09  3.21041977e-09  3.53292100e-09  4.57583985e-01  3.04753161e-09  1.58716444e-07  4.76757940e-08  5.60000000e-01 
 5.70000000e-01  4.57584033e-01  3.13393331e-09  3.33832469e-09  3.21041975e-09  3.53292106e-09  4.57584033e-01  3.04753163e-09  1.58716511e-07  4.76758224e-08  5.70000000e-01 
 5.80000000e-01  4.57584003e-01  3.13393325e-09  3.33832468e-09  3.21041977e-09  3.53292105e-09  4.57584003e-01  3.04753168e-09  1.58716464e-07  4.76756767e-08  5.80000000e-01 
 5.90000000e-01  4.57583990e-01  3.13393331e-09  3.33832468e-09  3.21041975e-09  3.53292105e-09  4.57583990e-01  3.04753166e-09  1.58716448e-07  4.76757336e-08  5.90000000e-01 
 6.00000000e-01  4.57584009e-01  3.13393325e-09  3.33832468e-09  3.21041977e-09  3.53292106e-09  4.57584009e-01  3.04753167e-09  1.58716468e-07  4.76756412e-08  6.00000000e-01 
 6.10000000e-01  4.57584009e-01  3.13393325e-09  3.33832468e-09  3.21041975e-09  3.53292106e-09  4.57584009e-01  3.04753167e-09  1.58716483e-07  4.76754849e-08  6.10000000e-01 
 6.20000000e-01  4.57584021e-01  3.13393326e-09  3.33832469e-09  3.21041977e-09  3.53292106e-09  4.57584021e-01  3.04753167e-09  1.58716491e-07  4.76754138e-08  6.20000000e-01 
 6.30000000e-01  4.57584038e-01  3.13393331e-09  3.33832474e-09  3.21041975e-09  3.53292100e-09  4.57584037e-01  3.04753167e-09  1.58716519e-07  4.76754707e-08  6.30000000e-01 
 6.40000000e-01  4.57584030e-01  3.13393331e-09  3.33832469e-09  3.21041983e-09  3.53292106e-09  4.57584030e-01  3.04753167e-09  1.58716507e-07  4.76753712e-08  6.40000000e-01 
 6.50000000e-01  4.57584017e-01  3.13393326e-09  3.33832469e-09  3.21041975e-09  3.53292106e-09  4.57584017e-01  3.04753167e-09  1.58716477e-07  4.76753570e-08  6.50000000e-01 
 6.60000000e-01  4.57584002e-01  3.13393331e-09  3.33832468e-09  3.21041982e-09  3.53292100e-09  4.57584002e-01  3.04753167e-09  1.58716468e-07  4.76753002e-08  6.60000000e-01 
 6.70000000e-01  4.57584013e-01  3.13393331e-09  3.33832469e-09  3.21041981e-09  3.53292106e-09  4.57584012e-01  3.04753167e-09  1.58716489e-07  4.76751936e-08  6.70000000e-01 
 6.80000000e-01  4.57584015e-01  3.13393331e-09  3.33832469e-09  3.21041981e-09  3.53292106e-09  4.57584014e-01  3.04753167e-09  1.58716483e-07  4.76751154e-08  6.80000000e-01 
 6.90000000e-01  4.57584016e-01  3.13393325e-09  3.33832469e-09  3.21041981e-09  3.53292106e-09  4.57584016e-01  3.04753167e-09  1.58716490e-07  4.76751509e-08  6.90000000e-01 
 7.00000000e-01  4.57584020e-01  3.13393331e-09  3.33832469e-09  3.21041981e-09  3.53292106e-09  4.57584019e-01  3.04753167e-09  1.58716487e-07  4.76749733e-08  7.00000000e-01 
 7.10000000e-01  4.57584048e-01  3.13393331e-09  3.33832469e-09  3.21041976e-09  3.53292106e-09  4.57584048e-01  3.04753167e-09  1.58716536e-07  4.76750159e-08  7.10000000e-01 
 7.20000000e-01  4.57583991e-01  3.13393325e-09  3.33832468e-09  3.21041975e-09  3.53292105e-09  4.57583991e-01  3.04753167e-09  1.58716442e-07  4.76748738e-08  7.20000000e-01 
 7.30000000e-01  4.57583990e-01  3.13393325e-09  3.33832468e-09  3.21041977e-09  3.53292105e-09  4.57583989e-01  3.04753167e-09  1.58716467e-07  4.76747744e-08  7.30000000e-01 
 7.40000000e-01  4.57584030e-01  3.13393331e-09  3.33832469e-09  3.21041975e-09  3.53292106e-09  4.57584030e-01  3.04753167e-09  1.58716495e-07  4.76748028e-08  7.40000000e-01 
 7.50000000e-01  4.57584018e-01  3.13393331e-09  3.33832469e-09  3.21041977e-09  3.53292100e-09  4.57584018e-01  3.04753167e-09  1.58716497e-07  4.76748170e-08  7.50000000e-01 
 7.60000000e-01  4.57584025e-01  3.13393331e-09  3.33832469e-09  3.21041975e-09  3.53292100e-09  4.57584025e-01  3.04753167e-09  1.58716486e-07  4.76746465e-08  7.60000000e-01 
 7.70000000e-01  4.57584040e-01  3.13393331e-09  3.33832469e-09  3.21041977e-09  3.53292106e-09  4.57584040e-01  3.04753167e-09  1.58716529e-07  4.76746465e-08  7.70000000e-01 
 7.80000000e-01  4.57583996e-01  3.13393325e-09  3.33832468e-09  3.21041981e-09  3.53292105e-09  4.57583996e-01  3.04753161e-09  1.58716456e-07  4.76745967e-08  7.80000000e-01 
 7.90000000e-01  4.57584033e-01  3.13393331e-09  3.33832469e-09  3.21041981e-09  3.53292106e-09  4.57584033e-01  3.04753168e-09  1.58716499e-07  4.76744972e-08  7.90000000e-01 
 8.00000000e-01  4.57584012e-01  3.13393331e-09  3.33832469e-09  3.21041981e-09  3.53292106e-09  4.57584012e-01  3.04753166e-09  1.58716476e-07  4.76745114e-08  8.00000000e-01 
 8.10000000e-01  4.57584010e-01  3.13393331e-09  3.33832468e-09  3.21041981e-09  3.53292106e-09  4.57584010e-01  3.04753167e-09  1.58716475e-07  4.76743764e-08  8.10000000e-01 
 8.20000000e-01  4.57584004e-01  3.13393331e-09  3.33832468e-09  3.21041981e-09  3.53292105e-09  4.57584003e-01  3.04753167e-09  1.58716474e-07  4.76743267e-08  8.20000000e-01 
 8.30000000e-01  4.57584037e-01  3.13393331e-09  3.33832469e-09  3.21041976e-09  3.53292106e-09  4.57584037e-01  3.04753167e-09  1.58716515e-07  4.76743196e-08  8.30000000e-01 
 8.40000000e-01  4.57584008e-01  3.13393325e-09  3.33832468e-09  3.21041976e-09  3.53292100e-09  4.57584008e-01  3.04753167e-09  1.58716470e-07  4.76741420e-08  8.40000000e-01 
 8.50000000e-01  4.57584021e-01  3.13393331e-09  3.33832469e-09  3.21041977e-09  3.53292106e-09  4.57584021e-01  3.04753167e-09  1.58716487e-07  4.76742272e-08  8.50000000e-01 
 8.60000000e-01  4.57584035e-01  3.13393331e-09  3.33832469e-09  3.21041975e-09  3.53292106e-09  4.57584035e-01  3.04753167e-09  1.58716528e-07  4.76740780e-08  8.60000000e-01 
 8.70000000e-01  4.57584008e-01  3.13393331e-09  3.33832468e-09  3.21041977e-09  3.53292100e-09  4.57584008e-01  3.04753167e-09  1.58716467e-07  4.76740212e-08  8.70000000e-01 
 8.80000000e-01  4.57584019e-01  3.13393326e-09  3.33832469e-09  3.21041981e-09  3.53292100e-09  4.57584019e-01  3.04753167e-09  1.58716496e-07  4.76739217e-08  8.80000000e-01 
 8.90000000e-01  4.57583990e-01  3.13393325e-09  3.33832468e-09  3.21041981e-09  3.53292105e-09  4.57583990e-01  3.04753167e-09  1.58716462e-07  4.76739146e-08  8.90000000e-01 
 9.00000000e-01  4.57584014e-01  3.13393331e-09  3.33832474e-09  3.21041981e-09  3.53292106e-09  4.57584014e-01  3.04753167e-09  1.58716490e-07  4.76738080e-08  9.00000000e-01 
 9.10000000e-01  4.57583988e-01  3.13393325e-09  3.33832468e-09  3.21041975e-09  3.53292105e-09  4.57583987e-01  3.04753167e-09  1.58716440e-07  4.76737014e-08  9.10000000e-01 
 9.20000000e-01  4.57584010e-01  3.13393325e-09  3.33832468e-09  3.21041977e-09  3.53292106e-09  4.57584010e-01  3.04753167e-09  1.58716475e-07  4.76736730e-08  9.20000000e-01 
 9.30000000e-01  4.57584000e-01  3.13393331e-09  3.33832468e-09  3.21041981e-09  3.53292100e-09  4.57584000e-01  3.04753167e-09  1.58716462e-07  4.76736801e-08  9.30000000e-01 
 9.40000000e-01  4.57584017e-01  3.13393326e-09  3.33832469e-09  3.21041981e-09  3.53292106e-09  4.57584017e-01  3.04753167e-09  1.58716489e-07  4.76735806e-08  9.40000000e-01 
 9.50000000e-01  4.57584015e-01  3.13393325e-09  3.33832474e-09  3.21041981e-09  3.53292100e-09  4.57584015e-01  3.04753167e-09  1.58716485e-07  4.76735167e-08  9.50000000e-01 
 9.60000000e-01  4.57583994e-01  3.13393331e-09  3.33832474e-09  3.21041981e-09  3.53292105e-09  4.57583994e-01  3.04753167e-09  1.58716448e-07  4.76735309e-08  9.60000000e-01 
 9.70000000e-01  4.57584008e-01  3.13393325e-09  3.33832468e-09  3.21041976e-09  3.53292100e-09  4.57584007e-01  3.04753167e-09  1.58716478e-07  4.76733817e-08  9.70000000e-01 
 9.80000000e-01  4.57584007e-01  3.13393331e-09  3.33832468e-09  3.21041977e-09  3.53292106e-09  4.57584007e-01  3.04753167e-09  1.58716461e-07  4.76733106e-08  9.80000000e-01 
 9.90000000e-01  4.57584022e-01  3.13393331e-09  3.33832469e-09  3.21041975e-09  3.53292106e-09  4.57584022e-01  3.04753167e-09  1.58716497e-07  4.76733177e-08  9.90000000e-01 
 1.00000000e+00  4.57584015e-01  3.13393331e-09  3.33832469e-09  3.21041977e-09  3.53292106e-09  4.57584015e-01  3.04753167e-09  1.58716485e-07  4.76732041e-08  1.00000000e+00 
 1.01000000e+00  4.57584005e-01  3.13393331e-09  3.33832468e-09  3.21041975e-09  3.53292100e-09  4.57584004e-01  3.04753167e-09  1.58716469e-07  4.76731472e-08  1.01000000e+00 
 1.02000000e+00  4.57584004e-01  3.13393331e-09  3.33832468e-09  3.21041977e-09  3.53292106e-09  4.57584004e-01  3.04753167e-09  1.58716463e-07  4.76730904e-08  1.02000000e+00 
 1.03000000e+00  4.57584031e-01  3.13393331e-09  3.33832469e-09  3.21041975e-09  3.53292106e-09  4.57584031e-01  3.04753167e-09  1.58716514e-07  4.76731259e-08  1.03000000e+00 
 1.04000000e+00  4.57584047e-01  3.13393331e-09  3.33832469e-09  3.21041977e-09  3.53292100e-09  4.57584047e-01  3.04753167e-09  1.58716527e-07  4.76730051e-08  1.04000000e+00 
 1.05000000e+00  4.57584007e-01  3.13393331e-09  3.33832468e-09  3.21041975e-09  3.53292106e-09  4.57584007e-01  3.04753167e-09  1.58716472e-07  4.76729909e-08  1.05000000e+00 
 1.06000000e+00  4.57584023e-01  3.13393331e-09  3.33832469e-09  3.21041977e-09  3.53292100e-09  4.57584022e-01  3.04753167e-09  1.58716504e-07  4.76728061e-08  1.06000000e+00 
 1.07000000e+00  4.57583970e-01  3.13393331e-09  3.33832468e-09  3.21041975e-09  3.53292105e-09  4.57583970e-01  3.04753167e-09  1.58716415e-07  4.76727493e-08  1.07000000e+00 
 1.08000000e+00  4.57584028e-01  3.13393331e-09  3.33832469e-09  3.21041977e-09  3.53292106e-09  4.57584028e-01  3.04753167e-09  1.58716512e-07  4.76727919e-08  1.08000000e+00 
 1.09000000e+00  4.57584015e-01  3.13393325e-09  3.33832469e-09  3.21041975e-09  3.53292106e-09  4.57584015e-01  3.04753167e-09  1.58716487e-07  4.76726925e-08  1.09000000e+00 
 1.10000000e+00  4.57584025e-01  3.13393331e-09  3.33832469e-09  3.21041977e-09  3.53292106e-09  4.57584025e-01  3.04753167e-09  1.58716509e-07  4.76725575e-08  1.10000000e+00 
