 v-sweep         v(b0)           v(b1)           v(b2)           v(b3)           v(b4)           v(b5)           v(b6)           i(vbias)        i(viout)        v(vout)        
 0.00000000e+00  3.30917323e-09  3.35320632e-09  4.59788459e-01  4.59788459e-01  3.22890476e-09  4.59788459e-01  4.59788459e-01  1.62019571e-07  1.70179195e-07  0.00000000e+00 
 1.00000000e-02  3.30917321e-09  3.35320631e-09  4.59788452e-01  4.59788452e-01  3.22890474e-09  4.59788452e-01  4.59788452e-01  1.62019569e-07  1.70178656e-07  1.00000000e-02 
 2.00000000e-02  3.30917321e-09  3.35320631e-09  4.59788477e-01  4.59788477e-01  3.22890480e-09  4.59788477e-01  4.59788477e-01  1.62019599e-07  1.70178254e-07  2.00000000e-02 
 3.00000000e-02  3.30917321e-09  3.35320630e-09  4.59788445e-01  4.59788445e-01  3.22890480e-09  4.59788446e-01  4.59788445e-01  1.62019548e-07  1.70177763e-07  3.00000000e-02 
 4.00000000e-02  3.30917326e-09  3.35320631e-09  4.59788462e-01  4.59788462e-01  3.22890480e-09  4.59788462e-01  4.59788462e-01  1.62019590e-07  1.70177465e-07  4.00000000e-02 
 5.00000000e-02  3.30917321e-09  3.35320631e-09  4.59788469e-01  4.59788469e-01  3.22890480e-09  4.59788469e-01  4.59788469e-01  1.62019594e-07  1.70177056e-07  5.00000000e-02 
 6.00000000e-02  3.30917321e-09  3.35320630e-09  4.59788445e-01  4.59788445e-01  3.22890480e-09  4.59788445e-01  4.59788445e-01  1.62019554e-07  1.70176551e-07  6.00000000e-02 
 7.00000000e-02  3.30917321e-09  3.35320630e-09  4.59788445e-01  4.59788445e-01  3.22890474e-09  4.59788445e-01  4.59788445e-01  1.62019549e-07  1.70176262e-07  7.00000000e-02 
 8.00000000e-02  3.30917321e-09  3.35320631e-09  4.59788470e-01  4.59788470e-01  3.22890480e-09  4.59788470e-01  4.59788470e-01  1.62019595e-07  1.70175962e-07  8.00000000e-02 
 9.00000000e-02  3.30917321e-09  3.35320630e-09  4.59788434e-01  4.59788434e-01  3.22890480e-09  4.59788434e-01  4.59788434e-01  1.62019527e-07  1.70175665e-07  9.00000000e-02 
 1.00000000e-01  3.30917321e-09  3.35320630e-09  4.59788436e-01  4.59788436e-01  3.22890480e-09  4.59788436e-01  4.59788436e-01  1.62019541e-07  1.70175155e-07  1.00000000e-01 
 1.10000000e-01  3.30917321e-09  3.35320630e-09  4.59788446e-01  4.59788446e-01  3.22890480e-09  4.59788446e-01  4.59788446e-01  1.62019562e-07  1.70174881e-07  1.10000000e-01 
 1.20000000e-01  3.30917321e-09  3.35320631e-09  4.59788464e-01  4.59788464e-01  3.22890480e-09  4.59788464e-01  4.59788464e-01  1.62019581e-07  1.70174805e-07  1.20000000e-01 
 1.30000000e-01  3.30917321e-09  3.35320631e-09  4.59788473e-01  4.59788473e-01  3.22890474e-09  4.59788473e-01  4.59788473e-01  1.62019592e-07  1.70174531e-07  1.30000000e-01 
 1.40000000e-01  3.30917321e-09  3.35320631e-09  4.59788481e-01  4.59788481e-01  3.22890474e-09  4.59788481e-01  4.59788481e-01  1.62019617e-07  1.70174207e-07  1.40000000e-01 
 1.50000000e-01  3.30917321e-09  3.35320631e-09  4.59788455e-01  4.59788455e-01  3.22890474e-09  4.59788455e-01  4.59788455e-01  1.62019568e-07  1.70173927e-07  1.50000000e-01 
 1.60000000e-01  3.30917326e-09  3.35320630e-09  4.59788446e-01  4.59788446e-01  3.22890474e-09  4.59788446e-01  4.59788446e-01  1.62019557e-07  1.70173641e-07  1.60000000e-01 
 1.70000000e-01  3.30917321e-09  3.35320631e-09  4.59788450e-01  4.59788450e-01  3.22890474e-09  4.59788450e-01  4.59788450e-01  1.62019560e-07  1.70173369e-07  1.70000000e-01 
 1.80000000e-01  3.30917321e-09  3.35320631e-09  4.59788456e-01  4.59788456e-01  3.22890480e-09  4.59788456e-01  4.59788456e-01  1.62019566e-07  1.70173166e-07  1.80000000e-01 
 1.90000000e-01  3.30917321e-09  3.35320630e-09  4.59788442e-01  4.59788442e-01  3.22890474e-09  4.59788442e-01  4.59788442e-01  1.62019544e-07  1.70172965e-07  1.90000000e-01 
 2.00000000e-01  3.30917321e-09  3.35320630e-09  4.59788424e-01  4.59788424e-01  3.22890480e-09  4.59788424e-01  4.59788424e-01  1.62019523e-07  1.70172616e-07  2.00000000e-01 
 2.10000000e-01  3.30917321e-09  3.35320631e-09  4.59788452e-01  4.59788452e-01  3.22890480e-09  4.59788452e-01  4.59788452e-01  1.62019555e-07  1.70172543e-07  2.10000000e-01 
 2.20000000e-01  3.30917321e-09  3.35320631e-09  4.59788449e-01  4.59788449e-01  3.22890474e-09  4.59788449e-01  4.59788449e-01  1.62019555e-07  1.70172335e-07  2.20000000e-01 
 2.30000000e-01  3.30917321e-09  3.35320630e-09  4.59788445e-01  4.59788445e-01  3.22890480e-09  4.59788445e-01  4.59788445e-01  1.62019545e-07  1.70172141e-07  2.30000000e-01 
 2.40000000e-01  3.30917321e-09  3.35320631e-09  4.59788453e-01  4.59788453e-01  3.22890480e-09  4.59788453e-01  4.59788453e-01  1.62019567e-07  1.70171829e-07  2.40000000e-01 
 2.50000000e-01  3.30917321e-09  3.35320631e-09  4.59788450e-01  4.59788450e-01  3.22890474e-09  4.59788450e-01  4.59788450e-01  1.62019568e-07  1.70171758e-07  2.50000000e-01 
 2.60000000e-01  3.30917321e-09  3.35320630e-09  4.59788445e-01  4.59788445e-01  3.22890474e-09  4.59788445e-01  4.59788445e-01  1.62019552e-07  1.70171528e-07  2.60000000e-01 
 2.70000000e-01  3.30917321e-09  3.35320631e-09  4.59788463e-01  4.59788463e-01  3.22890474e-09  4.59788463e-01  4.59788463e-01  1.62019576e-07  1.70171322e-07  2.70000000e-01 
 2.80000000e-01  3.30917321e-09  3.35320631e-09  4.59788476e-01  4.59788476e-01  3.22890474e-09  4.59788476e-01  4.59788476e-01  1.62019598e-07  1.70171345e-07  2.80000000e-01 
 2.90000000e-01  3.30917321e-09  3.35320631e-09  4.59788463e-01  4.59788463e-01  3.22890480e-09  4.59788463e-01  4.59788463e-01  1.62019579e-07  1.70170960e-07  2.90000000e-01 
 3.00000000e-01  3.30917321e-09  3.35320631e-09  4.59788455e-01  4.59788455e-01  3.22890474e-09  4.59788455e-01  4.59788455e-01  1.62019557e-07  1.70170850e-07  3.00000000e-01 
 3.10000000e-01  3.30917321e-09  3.35320631e-09  4.59788476e-01  4.59788476e-01  3.22890480e-09  4.59788476e-01  4.59788476e-01  1.62019601e-07  1.70170789e-07  3.10000000e-01 
 3.20000000e-01  3.30917321e-09  3.35320630e-09  4.59788436e-01  4.59788436e-01  3.22890480e-09  4.59788436e-01  4.59788436e-01  1.62019544e-07  1.70170477e-07  3.20000000e-01 
 3.30000000e-01  3.30917321e-09  3.35320631e-09  4.59788485e-01  4.59788485e-01  3.22890480e-09  4.59788485e-01  4.59788485e-01  1.62019621e-07  1.70170463e-07  3.30000000e-01 
 3.40000000e-01  3.30917321e-09  3.35320625e-09  4.59788451e-01  4.59788451e-01  3.22890474e-09  4.59788451e-01  4.59788451e-01  1.62019563e-07  1.70170168e-07  3.40000000e-01 
 3.50000000e-01  3.30917321e-09  3.35320631e-09  4.59788481e-01  4.59788481e-01  3.22890480e-09  4.59788482e-01  4.59788481e-01  1.62019604e-07  1.70170168e-07  3.50000000e-01 
 3.60000000e-01  3.30917321e-09  3.35320631e-09  4.59788463e-01  4.59788463e-01  3.22890480e-09  4.59788463e-01  4.59788463e-01  1.62019567e-07  1.70169947e-07  3.60000000e-01 
 3.70000000e-01  3.30917321e-09  3.35320631e-09  4.59788462e-01  4.59788462e-01  3.22890480e-09  4.59788462e-01  4.59788462e-01  1.62019574e-07  1.70169734e-07  3.70000000e-01 
 3.80000000e-01  3.30917321e-09  3.35320630e-09  4.59788444e-01  4.59788444e-01  3.22890480e-09  4.59788444e-01  4.59788444e-01  1.62019558e-07  1.70169507e-07  3.80000000e-01 
 3.90000000e-01  3.30917321e-09  3.35320631e-09  4.59788455e-01  4.59788455e-01  3.22890474e-09  4.59788455e-01  4.59788455e-01  1.62019571e-07  1.70169390e-07  3.90000000e-01 
 4.00000000e-01  3.30917326e-09  3.35320631e-09  4.59788459e-01  4.59788459e-01  3.22890480e-09  4.59788459e-01  4.59788459e-01  1.62019580e-07  1.70169375e-07  4.00000000e-01 
 4.10000000e-01  3.30917321e-09  3.35320631e-09  4.59788450e-01  4.59788450e-01  3.22890474e-09  4.59788450e-01  4.59788450e-01  1.62019552e-07  1.70169109e-07  4.10000000e-01 
 4.20000000e-01  3.30917321e-09  3.35320630e-09  4.59788442e-01  4.59788442e-01  3.22890480e-09  4.59788442e-01  4.59788442e-01  1.62019539e-07  1.70168917e-07  4.20000000e-01 
 4.30000000e-01  3.30917321e-09  3.35320631e-09  4.59788454e-01  4.59788454e-01  3.22890474e-09  4.59788454e-01  4.59788454e-01  1.62019564e-07  1.70168896e-07  4.30000000e-01 
 4.40000000e-01  3.30917321e-09  3.35320630e-09  4.59788446e-01  4.59788446e-01  3.22890480e-09  4.59788446e-01  4.59788446e-01  1.62019551e-07  1.70168690e-07  4.40000000e-01 
 4.50000000e-01  3.30917321e-09  3.35320630e-09  4.59788444e-01  4.59788444e-01  3.22890474e-09  4.59788444e-01  4.59788444e-01  1.62019544e-07  1.70168576e-07  4.50000000e-01 
 4.60000000e-01  3.30917321e-09  3.35320631e-09  4.59788456e-01  4.59788456e-01  3.22890474e-09  4.59788456e-01  4.59788456e-01  1.62019557e-07  1.70168555e-07  4.60000000e-01 
 4.70000000e-01  3.30917321e-09  3.35320631e-09  4.59788462e-01  4.59788462e-01  3.22890480e-09  4.59788462e-01  4.59788462e-01  1.62019568e-07  1.70168413e-07  4.70000000e-01 
 4.80000000e-01  3.30917321e-09  3.35320630e-09  4.59788439e-01  4.59788439e-01  3.22890474e-09  4.59788439e-01  4.59788439e-01  1.62019542e-07  1.70168104e-07  4.80000000e-01 
 4.90000000e-01  3.30917321e-09  3.35320630e-09  4.59788444e-01  4.59788444e-01  3.22890480e-09  4.59788444e-01  4.59788444e-01  1.62019553e-07  1.70168132e-07  4.90000000e-01 
 5.00000000e-01  3.30917321e-09  3.35320631e-09  4.59788487e-01  4.59788487e-01  3.22890480e-09  4.59788487e-01  4.59788487e-01  1.62019624e-07  1.70168118e-07  5.00000000e-01 
 5.10000000e-01  3.30917321e-09  3.35320631e-09  4.59788452e-01  4.59788452e-01  3.22890474e-09  4.59788452e-01  4.59788452e-01  1.62019572e-07  1.70167876e-07  5.10000000e-01 
 5.20000000e-01  3.30917321e-09  3.35320631e-09  4.59788454e-01  4.59788454e-01  3.22890480e-09  4.59788454e-01  4.59788454e-01  1.62019553e-07  1.70167734e-07  5.20000000e-01 
 5.30000000e-01  3.30917321e-09  3.35320625e-09  4.59788484e-01  4.59788484e-01  3.22890480e-09  4.59788484e-01  4.59788484e-01  1.62019597e-07  1.70167723e-07  5.30000000e-01 
 5.40000000e-01  3.30917321e-09  3.35320625e-09  4.59788479e-01  4.59788479e-01  3.22890480e-09  4.59788479e-01  4.59788479e-01  1.62019599e-07  1.70167421e-07  5.40000000e-01 
 5.50000000e-01  3.30917321e-09  3.35320631e-09  4.59788478e-01  4.59788478e-01  3.22890480e-09  4.59788478e-01  4.59788478e-01  1.62019597e-07  1.70167340e-07  5.50000000e-01 
 5.60000000e-01  3.30917321e-09  3.35320631e-09  4.59788448e-01  4.59788448e-01  3.22890474e-09  4.59788448e-01  4.59788448e-01  1.62019550e-07  1.70167162e-07  5.60000000e-01 
 5.70000000e-01  3.30917321e-09  3.35320631e-09  4.59788463e-01  4.59788463e-01  3.22890480e-09  4.59788463e-01  4.59788463e-01  1.62019560e-07  1.70166935e-07  5.70000000e-01 
 5.80000000e-01  3.30917321e-09  3.35320631e-09  4.59788475e-01  4.59788475e-01  3.22890480e-09  4.59788475e-01  4.59788475e-01  1.62019580e-07  1.70166977e-07  5.80000000e-01 
 5.90000000e-01  3.30917321e-09  3.35320631e-09  4.59788481e-01  4.59788481e-01  3.22890480e-09  4.59788481e-01  4.59788481e-01  1.62019614e-07  1.70166899e-07  5.90000000e-01 
 6.00000000e-01  3.30917321e-09  3.35320631e-09  4.59788453e-01  4.59788453e-01  3.22890474e-09  4.59788453e-01  4.59788453e-01  1.62019570e-07  1.70166651e-07  6.00000000e-01 
 6.10000000e-01  3.30917321e-09  3.35320630e-09  4.59788439e-01  4.59788439e-01  3.22890480e-09  4.59788439e-01  4.59788439e-01  1.62019536e-07  1.70166579e-07  6.10000000e-01 
 6.20000000e-01  3.30917321e-09  3.35320630e-09  4.59788430e-01  4.59788430e-01  3.22890480e-09  4.59788430e-01  4.59788430e-01  1.62019527e-07  1.70166338e-07  6.20000000e-01 
 6.30000000e-01  3.30917321e-09  3.35320631e-09  4.59788465e-01  4.59788465e-01  3.22890480e-09  4.59788465e-01  4.59788465e-01  1.62019580e-07  1.70166402e-07  6.30000000e-01 
 6.40000000e-01  3.30917321e-09  3.35320631e-09  4.59788475e-01  4.59788475e-01  3.22890480e-09  4.59788475e-01  4.59788475e-01  1.62019600e-07  1.70166203e-07  6.40000000e-01 
 6.50000000e-01  3.30917321e-09  3.35320631e-09  4.59788458e-01  4.59788458e-01  3.22890474e-09  4.59788459e-01  4.59788458e-01  1.62019574e-07  1.70166011e-07  6.50000000e-01 
 6.60000000e-01  3.30917321e-09  3.35320631e-09  4.59788458e-01  4.59788458e-01  3.22890480e-09  4.59788458e-01  4.59788458e-01  1.62019578e-07  1.70165869e-07  6.60000000e-01 
 6.70000000e-01  3.30917321e-09  3.35320625e-09  4.59788468e-01  4.59788468e-01  3.22890480e-09  4.59788468e-01  4.59788468e-01  1.62019597e-07  1.70165805e-07  6.70000000e-01 
 6.80000000e-01  3.30917321e-09  3.35320631e-09  4.59788465e-01  4.59788465e-01  3.22890480e-09  4.59788465e-01  4.59788465e-01  1.62019568e-07  1.70165627e-07  6.80000000e-01 
 6.90000000e-01  3.30917321e-09  3.35320631e-09  4.59788451e-01  4.59788451e-01  3.22890480e-09  4.59788451e-01  4.59788451e-01  1.62019549e-07  1.70165421e-07  6.90000000e-01 
 7.00000000e-01  3.30917321e-09  3.35320631e-09  4.59788474e-01  4.59788474e-01  3.22890474e-09  4.59788474e-01  4.59788474e-01  1.62019594e-07  1.70165492e-07  7.00000000e-01 
 7.10000000e-01  3.30917321e-09  3.35320631e-09  4.59788465e-01  4.59788465e-01  3.22890480e-09  4.59788465e-01  4.59788465e-01  1.62019575e-07  1.70165279e-07  7.10000000e-01 
 7.20000000e-01  3.30917321e-09  3.35320630e-09  4.59788441e-01  4.59788441e-01  3.22890474e-09  4.59788441e-01  4.59788441e-01  1.62019544e-07  1.70165016e-07  7.20000000e-01 
 7.30000000e-01  3.30917321e-09  3.35320630e-09  4.59788436e-01  4.59788436e-01  3.22890474e-09  4.59788436e-01  4.59788436e-01  1.62019531e-07  1.70164874e-07  7.30000000e-01 
 7.40000000e-01  3.30917321e-09  3.35320630e-09  4.59788440e-01  4.59788440e-01  3.22890480e-09  4.59788440e-01  4.59788440e-01  1.62019541e-07  1.70164796e-07  7.40000000e-01 
 7.50000000e-01  3.30917321e-09  3.35320631e-09  4.59788453e-01  4.59788453e-01  3.22890474e-09  4.59788454e-01  4.59788453e-01  1.62019545e-07  1.70164796e-07  7.50000000e-01 
 7.60000000e-01  3.30917321e-09  3.35320631e-09  4.59788458e-01  4.59788458e-01  3.22890474e-09  4.59788458e-01  4.59788458e-01  1.62019579e-07  1.70164718e-07  7.60000000e-01 
 7.70000000e-01  3.30917321e-09  3.35320630e-09  4.59788441e-01  4.59788441e-01  3.22890474e-09  4.59788441e-01  4.59788441e-01  1.62019551e-07  1.70164348e-07  7.70000000e-01 
 7.80000000e-01  3.30917321e-09  3.35320630e-09  4.59788446e-01  4.59788446e-01  3.22890474e-09  4.59788446e-01  4.59788446e-01  1.62019557e-07  1.70164377e-07  7.80000000e-01 
 7.90000000e-01  3.30917321e-09  3.35320631e-09  4.59788458e-01  4.59788458e-01  3.22890474e-09  4.59788458e-01  4.59788458e-01  1.62019560e-07  1.70164213e-07  7.90000000e-01 
 8.00000000e-01  3.30917321e-09  3.35320630e-09  4.59788445e-01  4.59788445e-01  3.22890480e-09  4.59788445e-01  4.59788445e-01  1.62019549e-07  1.70163958e-07  8.00000000e-01 
 8.10000000e-01  3.30917321e-09  3.35320630e-09  4.59788445e-01  4.59788445e-01  3.22890480e-09  4.59788445e-01  4.59788445e-01  1.62019552e-07  1.70163787e-07  8.10000000e-01 
 8.20000000e-01  3.30917321e-09  3.35320631e-09  4.59788458e-01  4.59788458e-01  3.22890474e-09  4.59788458e-01  4.59788458e-01  1.62019569e-07  1.70163865e-07  8.20000000e-01 
 8.30000000e-01  3.30917321e-09  3.35320630e-09  4.59788446e-01  4.59788446e-01  3.22890474e-09  4.59788446e-01  4.59788446e-01  1.62019542e-07  1.70163652e-07  8.30000000e-01 
 8.40000000e-01  3.30917321e-09  3.35320630e-09  4.59788437e-01  4.59788437e-01  3.22890474e-09  4.59788437e-01  4.59788437e-01  1.62019538e-07  1.70163382e-07  8.40000000e-01 
 8.50000000e-01  3.30917321e-09  3.35320631e-09  4.59788469e-01  4.59788469e-01  3.22890474e-09  4.59788469e-01  4.59788469e-01  1.62019583e-07  1.70163403e-07  8.50000000e-01 
 8.60000000e-01  3.30917321e-09  3.35320630e-09  4.59788426e-01  4.59788426e-01  3.22890480e-09  4.59788426e-01  4.59788426e-01  1.62019520e-07  1.70163126e-07  8.60000000e-01 
 8.70000000e-01  3.30917321e-09  3.35320630e-09  4.59788438e-01  4.59788438e-01  3.22890474e-09  4.59788438e-01  4.59788438e-01  1.62019534e-07  1.70163034e-07  8.70000000e-01 
 8.80000000e-01  3.30917321e-09  3.35320631e-09  4.59788454e-01  4.59788454e-01  3.22890480e-09  4.59788454e-01  4.59788454e-01  1.62019563e-07  1.70162814e-07  8.80000000e-01 
 8.90000000e-01  3.30917321e-09  3.35320631e-09  4.59788461e-01  4.59788462e-01  3.22890480e-09  4.59788462e-01  4.59788462e-01  1.62019575e-07  1.70162870e-07  8.90000000e-01 
 9.00000000e-01  3.30917321e-09  3.35320630e-09  4.59788433e-01  4.59788433e-01  3.22890480e-09  4.59788433e-01  4.59788433e-01  1.62019534e-07  1.70162551e-07  9.00000000e-01 
 9.10000000e-01  3.30917321e-09  3.35320631e-09  4.59788457e-01  4.59788457e-01  3.22890480e-09  4.59788457e-01  4.59788457e-01  1.62019572e-07  1.70162451e-07  9.10000000e-01 
 9.20000000e-01  3.30917321e-09  3.35320630e-09  4.59788438e-01  4.59788438e-01  3.22890474e-09  4.59788438e-01  4.59788438e-01  1.62019539e-07  1.70162345e-07  9.20000000e-01 
 9.30000000e-01  3.30917321e-09  3.35320630e-09  4.59788440e-01  4.59788440e-01  3.22890474e-09  4.59788440e-01  4.59788440e-01  1.62019545e-07  1.70162195e-07  9.30000000e-01 
 9.40000000e-01  3.30917321e-09  3.35320631e-09  4.59788465e-01  4.59788465e-01  3.22890480e-09  4.59788465e-01  4.59788465e-01  1.62019591e-07  1.70162167e-07  9.40000000e-01 
 9.50000000e-01  3.30917321e-09  3.35320631e-09  4.59788477e-01  4.59788477e-01  3.22890480e-09  4.59788477e-01  4.59788477e-01  1.62019600e-07  1.70162011e-07  9.50000000e-01 
 9.60000000e-01  3.30917321e-09  3.35320631e-09  4.59788466e-01  4.59788466e-01  3.22890480e-09  4.59788466e-01  4.59788466e-01  1.62019596e-07  1.70161812e-07  9.60000000e-01 
 9.70000000e-01  3.30917321e-09  3.35320631e-09  4.59788463e-01  4.59788463e-01  3.22890480e-09  4.59788463e-01  4.59788463e-01  1.62019577e-07  1.70161719e-07  9.70000000e-01 
 9.80000000e-01  3.30917321e-09  3.35320631e-09  4.59788457e-01  4.59788457e-01  3.22890474e-09  4.59788457e-01  4.59788457e-01  1.62019563e-07  1.70161535e-07  9.80000000e-01 
 9.90000000e-01  3.30917321e-09  3.35320631e-09  4.59788467e-01  4.59788467e-01  3.22890480e-09  4.59788467e-01  4.59788467e-01  1.62019594e-07  1.70161350e-07  9.90000000e-01 
 1.00000000e+00  3.30917321e-09  3.35320630e-09  4.59788444e-01  4.59788444e-01  3.22890474e-09  4.59788444e-01  4.59788444e-01  1.62019547e-07  1.70160973e-07  1.00000000e+00 
 1.01000000e+00  3.30917321e-09  3.35320631e-09  4.59788455e-01  4.59788455e-01  3.22890480e-09  4.59788455e-01  4.59788455e-01  1.62019551e-07  1.70160966e-07  1.01000000e+00 
 1.02000000e+00  3.30917321e-09  3.35320630e-09  4.59788422e-01  4.59788422e-01  3.22890474e-09  4.59788422e-01  4.59788422e-01  1.62019533e-07  1.70160654e-07  1.02000000e+00 
 1.03000000e+00  3.30917321e-09  3.35320630e-09  4.59788432e-01  4.59788432e-01  3.22890480e-09  4.59788432e-01  4.59788432e-01  1.62019529e-07  1.70160654e-07  1.03000000e+00 
 1.04000000e+00  3.30917321e-09  3.35320631e-09  4.59788457e-01  4.59788457e-01  3.22890480e-09  4.59788457e-01  4.59788457e-01  1.62019565e-07  1.70160440e-07  1.04000000e+00 
 1.05000000e+00  3.30917321e-09  3.35320631e-09  4.59788452e-01  4.59788452e-01  3.22890480e-09  4.59788452e-01  4.59788452e-01  1.62019570e-07  1.70160298e-07  1.05000000e+00 
 1.06000000e+00  3.30917321e-09  3.35320631e-09  4.59788452e-01  4.59788452e-01  3.22890480e-09  4.59788452e-01  4.59788452e-01  1.62019560e-07  1.70160256e-07  1.06000000e+00 
 1.07000000e+00  3.30917321e-09  3.35320630e-09  4.59788445e-01  4.59788445e-01  3.22890474e-09  4.59788445e-01  4.59788445e-01  1.62019539e-07  1.70159986e-07  1.07000000e+00 
 1.08000000e+00  3.30917321e-09  3.35320630e-09  4.59788448e-01  4.59788448e-01  3.22890480e-09  4.59788448e-01  4.59788448e-01  1.62019559e-07  1.70159723e-07  1.08000000e+00 
 1.09000000e+00  3.30917321e-09  3.35320631e-09  4.59788451e-01  4.59788451e-01  3.22890474e-09  4.59788451e-01  4.59788451e-01  1.62019560e-07  1.70159687e-07  1.09000000e+00 
 1.10000000e+00  3.30917321e-09  3.35320630e-09  4.59788441e-01  4.59788441e-01  3.22890480e-09  4.59788441e-01  4.59788441e-01  1.62019546e-07  1.70159396e-07  1.10000000e+00 
