 v-sweep         v(b0)           v(b1)           v(b2)           v(b3)           v(b4)           v(b5)           v(b6)           i(vbias)        i(viout)        v(vout)        
 0.00000000e+00  3.36844874e-09  3.30605466e-09  3.26102025e-09  3.45159043e-09  3.32018018e-09  3.52524731e-09  4.58255373e-01  1.59788029e-07  9.71079345e-08  0.00000000e+00 
 1.00000000e-02  3.36844873e-09  3.30605464e-09  3.26102023e-09  3.45159047e-09  3.32018015e-09  3.52524730e-09  4.58255384e-01  1.59788048e-07  9.71075996e-08  1.00000000e-02 
 2.00000000e-02  3.36844873e-09  3.30605470e-09  3.26102023e-09  3.45159041e-09  3.32018015e-09  3.52524730e-09  4.58255374e-01  1.59788026e-07  9.71070748e-08  2.00000000e-02 
 3.00000000e-02  3.36844872e-09  3.30605464e-09  3.26102023e-09  3.45159041e-09  3.32018015e-09  3.52524729e-09  4.58255357e-01  1.59787995e-07  9.71066494e-08  3.00000000e-02 
 4.00000000e-02  3.36844872e-09  3.30605471e-09  3.26102023e-09  3.45159041e-09  3.32018015e-09  3.52524729e-09  4.58255367e-01  1.59788030e-07  9.71064082e-08  4.00000000e-02 
 5.00000000e-02  3.36844878e-09  3.30605469e-09  3.26102028e-09  3.45159041e-09  3.32018015e-09  3.52524729e-09  4.58255355e-01  1.59788001e-07  9.71058731e-08  5.00000000e-02 
 6.00000000e-02  3.36844877e-09  3.30605469e-09  3.26102023e-09  3.45159041e-09  3.32018015e-09  3.52524729e-09  4.58255372e-01  1.59788039e-07  9.71056311e-08  6.00000000e-02 
 7.00000000e-02  3.36844872e-09  3.30605464e-09  3.26102029e-09  3.45159041e-09  3.32018015e-09  3.52524735e-09  4.58255361e-01  1.59788012e-07  9.71053047e-08  7.00000000e-02 
 8.00000000e-02  3.36844873e-09  3.30605465e-09  3.26102028e-09  3.45159041e-09  3.32018015e-09  3.52524729e-09  4.58255357e-01  1.59788005e-07  9.71051142e-08  8.00000000e-02 
 9.00000000e-02  3.36844873e-09  3.30605463e-09  3.26102023e-09  3.45159041e-09  3.32018015e-09  3.52524729e-09  4.58255372e-01  1.59788025e-07  9.71047616e-08  9.00000000e-02 
 1.00000000e-01  3.36844873e-09  3.30605465e-09  3.26102029e-09  3.45159041e-09  3.32018015e-09  3.52524730e-09  4.58255374e-01  1.59788025e-07  9.71043947e-08  1.00000000e-01 
 1.10000000e-01  3.36844872e-09  3.30605463e-09  3.26102029e-09  3.45159041e-09  3.32018015e-09  3.52524729e-09  4.58255368e-01  1.59788011e-07  9.71041949e-08  1.10000000e-01 
 1.20000000e-01  3.36844872e-09  3.30605465e-09  3.26102023e-09  3.45159041e-09  3.32018015e-09  3.52524729e-09  4.58255359e-01  1.59788007e-07  9.71039427e-08  1.20000000e-01 
 1.30000000e-01  3.36844872e-09  3.30605463e-09  3.26102023e-09  3.45159041e-09  3.32018015e-09  3.52524729e-09  4.58255356e-01  1.59787996e-07  9.71037464e-08  1.30000000e-01 
 1.40000000e-01  3.36844878e-09  3.30605465e-09  3.26102028e-09  3.45159041e-09  3.32018015e-09  3.52524729e-09  4.58255355e-01  1.59788009e-07  9.71033884e-08  1.40000000e-01 
 1.50000000e-01  3.36844877e-09  3.30605469e-09  3.26102023e-09  3.45159041e-09  3.32018015e-09  3.52524729e-09  4.58255368e-01  1.59788020e-07  9.71033209e-08  1.50000000e-01 
 1.60000000e-01  3.36844878e-09  3.30605469e-09  3.26102023e-09  3.45159041e-09  3.32018015e-09  3.52524729e-09  4.58255370e-01  1.59788031e-07  9.71030349e-08  1.60000000e-01 
 1.70000000e-01  3.36844872e-09  3.30605463e-09  3.26102023e-09  3.45159041e-09  3.32018015e-09  3.52524729e-09  4.58255337e-01  1.59787960e-07  9.71028307e-08  1.70000000e-01 
 1.80000000e-01  3.36844873e-09  3.30605465e-09  3.26102023e-09  3.45159041e-09  3.32018015e-09  3.52524729e-09  4.58255373e-01  1.59788032e-07  9.71026424e-08  1.80000000e-01 
 1.90000000e-01  3.36844878e-09  3.30605463e-09  3.26102023e-09  3.45159042e-09  3.32018015e-09  3.52524730e-09  4.58255382e-01  1.59788030e-07  9.71024594e-08  1.90000000e-01 
 2.00000000e-01  3.36844877e-09  3.30605465e-09  3.26102023e-09  3.45159041e-09  3.32018015e-09  3.52524729e-09  4.58255371e-01  1.59788010e-07  9.71023706e-08  2.00000000e-01 
 2.10000000e-01  3.36844878e-09  3.30605469e-09  3.26102029e-09  3.45159042e-09  3.32018015e-09  3.52524730e-09  4.58255382e-01  1.59788044e-07  9.71021610e-08  2.10000000e-01 
 2.20000000e-01  3.36844872e-09  3.30605464e-09  3.26102023e-09  3.45159041e-09  3.32018015e-09  3.52524735e-09  4.58255369e-01  1.59788025e-07  9.71019833e-08  2.20000000e-01 
 2.30000000e-01  3.36844879e-09  3.30605465e-09  3.26102023e-09  3.45159041e-09  3.32018015e-09  3.52524729e-09  4.58255367e-01  1.59788025e-07  9.71018697e-08  2.30000000e-01 
 2.40000000e-01  3.36844877e-09  3.30605463e-09  3.26102023e-09  3.45159041e-09  3.32018015e-09  3.52524729e-09  4.58255358e-01  1.59787987e-07  9.71017009e-08  2.40000000e-01 
 2.50000000e-01  3.36844872e-09  3.30605465e-09  3.26102023e-09  3.45159047e-09  3.32018015e-09  3.52524730e-09  4.58255381e-01  1.59788040e-07  9.71015464e-08  2.50000000e-01 
 2.60000000e-01  3.36844873e-09  3.30605463e-09  3.26102028e-09  3.45159041e-09  3.32018015e-09  3.52524729e-09  4.58255340e-01  1.59787963e-07  9.71012870e-08  2.60000000e-01 
 2.70000000e-01  3.36844872e-09  3.30605465e-09  3.26102023e-09  3.45159047e-09  3.32018015e-09  3.52524729e-09  4.58255356e-01  1.59787998e-07  9.71012497e-08  2.70000000e-01 
 2.80000000e-01  3.36844872e-09  3.30605463e-09  3.26102023e-09  3.45159041e-09  3.32018009e-09  3.52524729e-09  4.58255369e-01  1.59788004e-07  9.71012142e-08  2.80000000e-01 
 2.90000000e-01  3.36844872e-09  3.30605465e-09  3.26102023e-09  3.45159041e-09  3.32018016e-09  3.52524729e-09  4.58255352e-01  1.59787984e-07  9.71009229e-08  2.90000000e-01 
 3.00000000e-01  3.36844878e-09  3.30605469e-09  3.26102023e-09  3.45159042e-09  3.32018015e-09  3.52524730e-09  4.58255378e-01  1.59788037e-07  9.71009335e-08  3.00000000e-01 
 3.10000000e-01  3.36844871e-09  3.30605469e-09  3.26102029e-09  3.45159041e-09  3.32018015e-09  3.52524735e-09  4.58255364e-01  1.59788007e-07  9.71009229e-08  3.10000000e-01 
 3.20000000e-01  3.36844873e-09  3.30605463e-09  3.26102023e-09  3.45159041e-09  3.32018015e-09  3.52524735e-09  4.58255353e-01  1.59787994e-07  9.71007204e-08  3.20000000e-01 
 3.30000000e-01  3.36844873e-09  3.30605465e-09  3.26102023e-09  3.45159042e-09  3.32018015e-09  3.52524730e-09  4.58255379e-01  1.59788039e-07  9.71006173e-08  3.30000000e-01 
 3.40000000e-01  3.36844872e-09  3.30605463e-09  3.26102023e-09  3.45159041e-09  3.32018015e-09  3.52524729e-09  4.58255356e-01  1.59787998e-07  9.71004894e-08  3.40000000e-01 
 3.50000000e-01  3.36844878e-09  3.30605465e-09  3.26102029e-09  3.45159041e-09  3.32018015e-09  3.52524729e-09  4.58255370e-01  1.59788032e-07  9.71004965e-08  3.50000000e-01 
 3.60000000e-01  3.36844871e-09  3.30605469e-09  3.26102023e-09  3.45159041e-09  3.32018015e-09  3.52524729e-09  4.58255357e-01  1.59787998e-07  9.71002052e-08  3.60000000e-01 
 3.70000000e-01  3.36844879e-09  3.30605469e-09  3.26102023e-09  3.45159041e-09  3.32018015e-09  3.52524729e-09  4.58255350e-01  1.59788007e-07  9.71001270e-08  3.70000000e-01 
 3.80000000e-01  3.36844877e-09  3.30605464e-09  3.26102029e-09  3.45159042e-09  3.32018015e-09  3.52524730e-09  4.58255384e-01  1.59788046e-07  9.71000986e-08  3.80000000e-01 
 3.90000000e-01  3.36844878e-09  3.30605464e-09  3.26102023e-09  3.45159047e-09  3.32018015e-09  3.52524729e-09  4.58255359e-01  1.59787996e-07  9.71000276e-08  3.90000000e-01 
 4.00000000e-01  3.36844872e-09  3.30605465e-09  3.26102023e-09  3.45159041e-09  3.32018015e-09  3.52524729e-09  4.58255369e-01  1.59788018e-07  9.70999992e-08  4.00000000e-01 
 4.10000000e-01  3.36844873e-09  3.30605463e-09  3.26102023e-09  3.45159042e-09  3.32018015e-09  3.52524730e-09  4.58255380e-01  1.59788037e-07  9.70998286e-08  4.10000000e-01 
 4.20000000e-01  3.36844872e-09  3.30605465e-09  3.26102023e-09  3.45159041e-09  3.32018015e-09  3.52524729e-09  4.58255362e-01  1.59788006e-07  9.70997682e-08  4.20000000e-01 
 4.30000000e-01  3.36844872e-09  3.30605463e-09  3.26102023e-09  3.45159041e-09  3.32018015e-09  3.52524729e-09  4.58255363e-01  1.59788007e-07  9.70996474e-08  4.30000000e-01 
 4.40000000e-01  3.36844873e-09  3.30605471e-09  3.26102023e-09  3.45159041e-09  3.32018015e-09  3.52524730e-09  4.58255376e-01  1.59788030e-07  9.70995160e-08  4.40000000e-01 
 4.50000000e-01  3.36844872e-09  3.30605469e-09  3.26102028e-09  3.45159041e-09  3.32018015e-09  3.52524729e-09  4.58255358e-01  1.59788010e-07  9.70993845e-08  4.50000000e-01 
 4.60000000e-01  3.36844872e-09  3.30605469e-09  3.26102023e-09  3.45159041e-09  3.32018015e-09  3.52524729e-09  4.58255363e-01  1.59788004e-07  9.70994520e-08  4.60000000e-01 
 4.70000000e-01  3.36844872e-09  3.30605464e-09  3.26102023e-09  3.45159041e-09  3.32018015e-09  3.52524729e-09  4.58255369e-01  1.59788019e-07  9.70993526e-08  4.70000000e-01 
 4.80000000e-01  3.36844878e-09  3.30605471e-09  3.26102023e-09  3.45159042e-09  3.32018015e-09  3.52524730e-09  4.58255383e-01  1.59788035e-07  9.70992140e-08  4.80000000e-01 
 4.90000000e-01  3.36844871e-09  3.30605469e-09  3.26102029e-09  3.45159041e-09  3.32018015e-09  3.52524729e-09  4.58255364e-01  1.59788004e-07  9.70991181e-08  4.90000000e-01 
 5.00000000e-01  3.36844873e-09  3.30605470e-09  3.26102029e-09  3.45159041e-09  3.32018015e-09  3.52524730e-09  4.58255375e-01  1.59788045e-07  9.70990364e-08  5.00000000e-01 
 5.10000000e-01  3.36844872e-09  3.30605469e-09  3.26102023e-09  3.45159041e-09  3.32018015e-09  3.52524729e-09  4.58255350e-01  1.59787989e-07  9.70989831e-08  5.10000000e-01 
 5.20000000e-01  3.36844878e-09  3.30605470e-09  3.26102023e-09  3.45159041e-09  3.32018015e-09  3.52524730e-09  4.58255374e-01  1.59788031e-07  9.70989795e-08  5.20000000e-01 
 5.30000000e-01  3.36844877e-09  3.30605469e-09  3.26102029e-09  3.45159041e-09  3.32018015e-09  3.52524735e-09  4.58255365e-01  1.59788013e-07  9.70986562e-08  5.30000000e-01 
 5.40000000e-01  3.36844878e-09  3.30605464e-09  3.26102023e-09  3.45159041e-09  3.32018015e-09  3.52524729e-09  4.58255362e-01  1.59788015e-07  9.70987024e-08  5.40000000e-01 
 5.50000000e-01  3.36844878e-09  3.30605470e-09  3.26102028e-09  3.45159041e-09  3.32018015e-09  3.52524729e-09  4.58255356e-01  1.59788012e-07  9.70985319e-08  5.50000000e-01 
 5.60000000e-01  3.36844872e-09  3.30605469e-09  3.26102023e-09  3.45159047e-09  3.32018015e-09  3.52524730e-09  4.58255376e-01  1.59788049e-07  9.70986598e-08  5.60000000e-01 
 5.70000000e-01  3.36844873e-09  3.30605469e-09  3.26102023e-09  3.45159041e-09  3.32018015e-09  3.52524735e-09  4.58255365e-01  1.59788009e-07  9.70985248e-08  5.70000000e-01 
 5.80000000e-01  3.36844872e-09  3.30605464e-09  3.26102028e-09  3.45159041e-09  3.32018015e-09  3.52524729e-09  4.58255356e-01  1.59788003e-07  9.70984502e-08  5.80000000e-01 
 5.90000000e-01  3.36844878e-09  3.30605465e-09  3.26102029e-09  3.45159041e-09  3.32018015e-09  3.52524729e-09  4.58255366e-01  1.59788019e-07  9.70984146e-08  5.90000000e-01 
 6.00000000e-01  3.36844871e-09  3.30605463e-09  3.26102023e-09  3.45159041e-09  3.32018015e-09  3.52524729e-09  4.58255372e-01  1.59788020e-07  9.70982654e-08  6.00000000e-01 
 6.10000000e-01  3.36844873e-09  3.30605465e-09  3.26102029e-09  3.45159041e-09  3.32018015e-09  3.52524729e-09  4.58255362e-01  1.59788015e-07  9.70982441e-08  6.10000000e-01 
 6.20000000e-01  3.36844872e-09  3.30605463e-09  3.26102028e-09  3.45159041e-09  3.32018015e-09  3.52524729e-09  4.58255354e-01  1.59788012e-07  9.70981375e-08  6.20000000e-01 
 6.30000000e-01  3.36844878e-09  3.30605465e-09  3.26102023e-09  3.45159041e-09  3.32018015e-09  3.52524729e-09  4.58255367e-01  1.59788027e-07  9.70981517e-08  6.30000000e-01 
 6.40000000e-01  3.36844877e-09  3.30605469e-09  3.26102023e-09  3.45159041e-09  3.32018015e-09  3.52524729e-09  4.58255368e-01  1.59788017e-07  9.70980523e-08  6.40000000e-01 
 6.50000000e-01  3.36844878e-09  3.30605464e-09  3.26102023e-09  3.45159041e-09  3.32018015e-09  3.52524729e-09  4.58255371e-01  1.59788033e-07  9.70978320e-08  6.50000000e-01 
 6.60000000e-01  3.36844878e-09  3.30605465e-09  3.26102029e-09  3.45159042e-09  3.32018015e-09  3.52524730e-09  4.58255386e-01  1.59788053e-07  9.70979386e-08  6.60000000e-01 
 6.70000000e-01  3.36844878e-09  3.30605463e-09  3.26102023e-09  3.45159041e-09  3.32018015e-09  3.52524729e-09  4.58255370e-01  1.59788017e-07  9.70978746e-08  6.70000000e-01 
 6.80000000e-01  3.36844878e-09  3.30605465e-09  3.26102023e-09  3.45159041e-09  3.32018015e-09  3.52524730e-09  4.58255374e-01  1.59788036e-07  9.70977112e-08  6.80000000e-01 
 6.90000000e-01  3.36844872e-09  3.30605469e-09  3.26102023e-09  3.45159041e-09  3.32018015e-09  3.52524729e-09  4.58255363e-01  1.59788005e-07  9.70976686e-08  6.90000000e-01 
 7.00000000e-01  3.36844879e-09  3.30605470e-09  3.26102023e-09  3.45159047e-09  3.32018015e-09  3.52524730e-09  4.58255376e-01  1.59788043e-07  9.70975194e-08  7.00000000e-01 
 7.10000000e-01  3.36844877e-09  3.30605464e-09  3.26102023e-09  3.45159041e-09  3.32018015e-09  3.52524729e-09  4.58255364e-01  1.59788004e-07  9.70975478e-08  7.10000000e-01 
 7.20000000e-01  3.36844872e-09  3.30605465e-09  3.26102023e-09  3.45159041e-09  3.32018015e-09  3.52524729e-09  4.58255356e-01  1.59788004e-07  9.70975407e-08  7.20000000e-01 
 7.30000000e-01  3.36844873e-09  3.30605469e-09  3.26102023e-09  3.45159041e-09  3.32018015e-09  3.52524729e-09  4.58255373e-01  1.59788027e-07  9.70973559e-08  7.30000000e-01 
 7.40000000e-01  3.36844872e-09  3.30605469e-09  3.26102023e-09  3.45159041e-09  3.32018015e-09  3.52524735e-09  4.58255370e-01  1.59788018e-07  9.70973630e-08  7.40000000e-01 
 7.50000000e-01  3.36844873e-09  3.30605470e-09  3.26102023e-09  3.45159041e-09  3.32018015e-09  3.52524730e-09  4.58255377e-01  1.59788029e-07  9.70973133e-08  7.50000000e-01 
 7.60000000e-01  3.36844872e-09  3.30605463e-09  3.26102023e-09  3.45159041e-09  3.32018015e-09  3.52524729e-09  4.58255348e-01  1.59787983e-07  9.70972067e-08  7.60000000e-01 
 7.70000000e-01  3.36844873e-09  3.30605471e-09  3.26102023e-09  3.45159042e-09  3.32018015e-09  3.52524730e-09  4.58255378e-01  1.59788040e-07  9.70970788e-08  7.70000000e-01 
 7.80000000e-01  3.36844872e-09  3.30605469e-09  3.26102029e-09  3.45159041e-09  3.32018015e-09  3.52524729e-09  4.58255364e-01  1.59788018e-07  9.70969936e-08  7.80000000e-01 
 7.90000000e-01  3.36844872e-09  3.30605463e-09  3.26102023e-09  3.45159041e-09  3.32018015e-09  3.52524735e-09  4.58255353e-01  1.59787996e-07  9.70968728e-08  7.90000000e-01 
 8.00000000e-01  3.36844872e-09  3.30605465e-09  3.26102023e-09  3.45159041e-09  3.32018015e-09  3.52524729e-09  4.58255357e-01  1.59788010e-07  9.70968728e-08  8.00000000e-01 
 8.10000000e-01  3.36844878e-09  3.30605469e-09  3.26102023e-09  3.45159041e-09  3.32018015e-09  3.52524729e-09  4.58255361e-01  1.59788014e-07  9.70967875e-08  8.10000000e-01 
 8.20000000e-01  3.36844871e-09  3.30605469e-09  3.26102023e-09  3.45159041e-09  3.32018015e-09  3.52524735e-09  4.58255356e-01  1.59787996e-07  9.70966383e-08  8.20000000e-01 
 8.30000000e-01  3.36844873e-09  3.30605464e-09  3.26102029e-09  3.45159041e-09  3.32018015e-09  3.52524729e-09  4.58255364e-01  1.59788013e-07  9.70965814e-08  8.30000000e-01 
 8.40000000e-01  3.36844872e-09  3.30605465e-09  3.26102023e-09  3.45159041e-09  3.32018015e-09  3.52524729e-09  4.58255358e-01  1.59788006e-07  9.70966951e-08  8.40000000e-01 
 8.50000000e-01  3.36844872e-09  3.30605469e-09  3.26102023e-09  3.45159041e-09  3.32018015e-09  3.52524729e-09  4.58255363e-01  1.59787999e-07  9.70964606e-08  8.50000000e-01 
 8.60000000e-01  3.36844873e-09  3.30605464e-09  3.26102023e-09  3.45159041e-09  3.32018015e-09  3.52524730e-09  4.58255376e-01  1.59788026e-07  9.70963683e-08  8.60000000e-01 
 8.70000000e-01  3.36844872e-09  3.30605465e-09  3.26102023e-09  3.45159041e-09  3.32018015e-09  3.52524735e-09  4.58255363e-01  1.59788007e-07  9.70963399e-08  8.70000000e-01 
 8.80000000e-01  3.36844878e-09  3.30605469e-09  3.26102029e-09  3.45159047e-09  3.32018015e-09  3.52524730e-09  4.58255378e-01  1.59788041e-07  9.70962759e-08  8.80000000e-01 
 8.90000000e-01  3.36844877e-09  3.30605469e-09  3.26102023e-09  3.45159041e-09  3.32018015e-09  3.52524729e-09  4.58255369e-01  1.59788013e-07  9.70961551e-08  8.90000000e-01 
 9.00000000e-01  3.36844878e-09  3.30605464e-09  3.26102023e-09  3.45159041e-09  3.32018015e-09  3.52524735e-09  4.58255369e-01  1.59788010e-07  9.70961054e-08  9.00000000e-01 
 9.10000000e-01  3.36844878e-09  3.30605465e-09  3.26102023e-09  3.45159041e-09  3.32018015e-09  3.52524729e-09  4.58255369e-01  1.59788033e-07  9.70960272e-08  9.10000000e-01 
 9.20000000e-01  3.36844878e-09  3.30605469e-09  3.26102023e-09  3.45159041e-09  3.32018015e-09  3.52524729e-09  4.58255370e-01  1.59788028e-07  9.70959775e-08  9.20000000e-01 
 9.30000000e-01  3.36844878e-09  3.30605469e-09  3.26102023e-09  3.45159041e-09  3.32018015e-09  3.52524729e-09  4.58255364e-01  1.59788012e-07  9.70958709e-08  9.30000000e-01 
 9.40000000e-01  3.36844872e-09  3.30605469e-09  3.26102023e-09  3.45159041e-09  3.32018015e-09  3.52524729e-09  4.58255353e-01  1.59788005e-07  9.70957714e-08  9.40000000e-01 
 9.50000000e-01  3.36844873e-09  3.30605464e-09  3.26102029e-09  3.45159041e-09  3.32018009e-09  3.52524729e-09  4.58255366e-01  1.59788013e-07  9.70957217e-08  9.50000000e-01 
 9.60000000e-01  3.36844873e-09  3.30605465e-09  3.26102023e-09  3.45159042e-09  3.32018016e-09  3.52524735e-09  4.58255378e-01  1.59788024e-07  9.70956648e-08  9.60000000e-01 
 9.70000000e-01  3.36844873e-09  3.30605469e-09  3.26102023e-09  3.45159042e-09  3.32018020e-09  3.52524730e-09  4.58255385e-01  1.59788044e-07  9.70955796e-08  9.70000000e-01 
 9.80000000e-01  3.36844872e-09  3.30605469e-09  3.26102023e-09  3.45159041e-09  3.32018015e-09  3.52524729e-09  4.58255367e-01  1.59788022e-07  9.70954517e-08  9.80000000e-01 
 9.90000000e-01  3.36844878e-09  3.30605464e-09  3.26102029e-09  3.45159041e-09  3.32018015e-09  3.52524729e-09  4.58255364e-01  1.59788015e-07  9.70954588e-08  9.90000000e-01 
 1.00000000e+00  3.36844871e-09  3.30605465e-09  3.26102023e-09  3.45159041e-09  3.32018015e-09  3.52524729e-09  4.58255359e-01  1.59788006e-07  9.70953806e-08  1.00000000e+00 
 1.01000000e+00  3.36844879e-09  3.30605469e-09  3.26102023e-09  3.45159042e-09  3.32018015e-09  3.52524730e-09  4.58255380e-01  1.59788030e-07  9.70952954e-08  1.01000000e+00 
 1.02000000e+00  3.36844871e-09  3.30605464e-09  3.26102023e-09  3.45159041e-09  3.32018015e-09  3.52524729e-09  4.58255361e-01  1.59788014e-07  9.70950609e-08  1.02000000e+00 
 1.03000000e+00  3.36844873e-09  3.30605465e-09  3.26102023e-09  3.45159041e-09  3.32018015e-09  3.52524729e-09  4.58255359e-01  1.59788018e-07  9.70951106e-08  1.03000000e+00 
 1.04000000e+00  3.36844872e-09  3.30605469e-09  3.26102023e-09  3.45159041e-09  3.32018015e-09  3.52524729e-09  4.58255362e-01  1.59788007e-07  9.70949401e-08  1.04000000e+00 
 1.05000000e+00  3.36844878e-09  3.30605464e-09  3.26102023e-09  3.45159041e-09  3.32018015e-09  3.52524729e-09  4.58255367e-01  1.59788016e-07  9.70948406e-08  1.05000000e+00 
 1.06000000e+00  3.36844877e-09  3.30605471e-09  3.26102023e-09  3.45159041e-09  3.32018015e-09  3.52524729e-09  4.58255373e-01  1.59788014e-07  9.70948264e-08  1.06000000e+00 
 1.07000000e+00  3.36844872e-09  3.30605469e-09  3.26102023e-09  3.45159041e-09  3.32018015e-09  3.52524730e-09  4.58255375e-01  1.59788021e-07  9.70947909e-08  1.07000000e+00 
 1.08000000e+00  3.36844873e-09  3.30605469e-09  3.26102023e-09  3.45159041e-09  3.32018015e-09  3.52524729e-09  4.58255357e-01  1.59787988e-07  9.70945919e-08  1.08000000e+00 
 1.09000000e+00  3.36844873e-09  3.30605464e-09  3.26102023e-09  3.45159041e-09  3.32018015e-09  3.52524735e-09  4.58255376e-01  1.59788040e-07  9.70947127e-08  1.09000000e+00 
 1.10000000e+00  3.36844872e-09  3.30605471e-09  3.26102029e-09  3.45159041e-09  3.32018015e-09  3.52524729e-09  4.58255361e-01  1.59788001e-07  9.70944356e-08  1.10000000e+00 
