 v-sweep         v(b0)           v(b1)           v(b2)           v(b3)           v(b4)           v(b5)           v(b6)           i(vbias)        i(viout)        v(vout)        
 0.00000000e+00  3.54448527e-09  4.59086584e-01  3.41303479e-09  4.59086584e-01  3.41078256e-09  3.30297997e-09  3.36523182e-09  1.61532122e-07  1.57127471e-08  0.00000000e+00 
 1.00000000e-02  3.54448524e-09  4.59086569e-01  3.41303478e-09  4.59086569e-01  3.41078254e-09  3.30297995e-09  3.36523179e-09  1.61532095e-07  1.57122781e-08  1.00000000e-02 
 2.00000000e-02  3.54448526e-09  4.59086569e-01  3.41303484e-09  4.59086569e-01  3.41078254e-09  3.30297989e-09  3.36523180e-09  1.61532102e-07  1.57118545e-08  2.00000000e-02 
 3.00000000e-02  3.54448525e-09  4.59086579e-01  3.41303483e-09  4.59086579e-01  3.41078254e-09  3.30297995e-09  3.36523180e-09  1.61532114e-07  1.57116018e-08  3.00000000e-02 
 4.00000000e-02  3.54448531e-09  4.59086577e-01  3.41303483e-09  4.59086577e-01  3.41078254e-09  3.30297995e-09  3.36523180e-09  1.61532095e-07  1.57113602e-08  4.00000000e-02 
 5.00000000e-02  3.54448524e-09  4.59086565e-01  3.41303478e-09  4.59086565e-01  3.41078254e-09  3.30297995e-09  3.36523180e-09  1.61532095e-07  1.57108659e-08  5.00000000e-02 
 6.00000000e-02  3.54448526e-09  4.59086576e-01  3.41303485e-09  4.59086577e-01  3.41078254e-09  3.30297995e-09  3.36523180e-09  1.61532112e-07  1.57105569e-08  6.00000000e-02 
 7.00000000e-02  3.54448525e-09  4.59086571e-01  3.41303483e-09  4.59086571e-01  3.41078254e-09  3.30297995e-09  3.36523180e-09  1.61532087e-07  1.57103308e-08  7.00000000e-02 
 8.00000000e-02  3.54448525e-09  4.59086564e-01  3.41303483e-09  4.59086565e-01  3.41078254e-09  3.30297995e-09  3.36523180e-09  1.61532080e-07  1.57100883e-08  8.00000000e-02 
 9.00000000e-02  3.54448525e-09  4.59086556e-01  3.41303483e-09  4.59086556e-01  3.41078254e-09  3.30297995e-09  3.36523180e-09  1.61532093e-07  1.57097295e-08  9.00000000e-02 
 1.00000000e-01  3.54448525e-09  4.59086590e-01  3.41303478e-09  4.59086590e-01  3.41078254e-09  3.30297995e-09  3.36523180e-09  1.61532135e-07  1.57094462e-08  1.00000000e-01 
 1.10000000e-01  3.54448525e-09  4.59086560e-01  3.41303484e-09  4.59086560e-01  3.41078254e-09  3.30297995e-09  3.36523180e-09  1.61532083e-07  1.57091282e-08  1.10000000e-01 
 1.20000000e-01  3.54448531e-09  4.59086568e-01  3.41303483e-09  4.59086568e-01  3.41078254e-09  3.30297995e-09  3.36523180e-09  1.61532106e-07  1.57090447e-08  1.20000000e-01 
 1.30000000e-01  3.54448524e-09  4.59086577e-01  3.41303478e-09  4.59086577e-01  3.41078254e-09  3.30297990e-09  3.36523180e-09  1.61532119e-07  1.57087925e-08  1.30000000e-01 
 1.40000000e-01  3.54448526e-09  4.59086559e-01  3.41303479e-09  4.59086559e-01  3.41078254e-09  3.30297995e-09  3.36523180e-09  1.61532086e-07  1.57085633e-08  1.40000000e-01 
 1.50000000e-01  3.54448525e-09  4.59086589e-01  3.41303478e-09  4.59086589e-01  3.41078254e-09  3.30297990e-09  3.36523180e-09  1.61532133e-07  1.57084319e-08  1.50000000e-01 
 1.60000000e-01  3.54448525e-09  4.59086556e-01  3.41303478e-09  4.59086556e-01  3.41078254e-09  3.30297995e-09  3.36523180e-09  1.61532079e-07  1.57082329e-08  1.60000000e-01 
 1.70000000e-01  3.54448525e-09  4.59086568e-01  3.41303484e-09  4.59086569e-01  3.41078254e-09  3.30297995e-09  3.36523180e-09  1.61532112e-07  1.57079647e-08  1.70000000e-01 
 1.80000000e-01  3.54448531e-09  4.59086553e-01  3.41303483e-09  4.59086553e-01  3.41078254e-09  3.30297989e-09  3.36523180e-09  1.61532054e-07  1.57077995e-08  1.80000000e-01 
 1.90000000e-01  3.54448524e-09  4.59086555e-01  3.41303483e-09  4.59086555e-01  3.41078254e-09  3.30297995e-09  3.36523180e-09  1.61532084e-07  1.57077693e-08  1.90000000e-01 
 2.00000000e-01  3.54448526e-09  4.59086556e-01  3.41303483e-09  4.59086556e-01  3.41078254e-09  3.30297995e-09  3.36523180e-09  1.61532079e-07  1.57075384e-08  2.00000000e-01 
 2.10000000e-01  3.54448531e-09  4.59086561e-01  3.41303483e-09  4.59086561e-01  3.41078254e-09  3.30297989e-09  3.36523180e-09  1.61532098e-07  1.57073288e-08  2.10000000e-01 
 2.20000000e-01  3.54448530e-09  4.59086569e-01  3.41303483e-09  4.59086569e-01  3.41078254e-09  3.30297995e-09  3.36523180e-09  1.61532116e-07  1.57072950e-08  2.20000000e-01 
 2.30000000e-01  3.54448530e-09  4.59086591e-01  3.41303483e-09  4.59086591e-01  3.41078254e-09  3.30297995e-09  3.36523180e-09  1.61532136e-07  1.57070570e-08  2.30000000e-01 
 2.40000000e-01  3.54448524e-09  4.59086557e-01  3.41303478e-09  4.59086558e-01  3.41078254e-09  3.30297989e-09  3.36523180e-09  1.61532077e-07  1.57070268e-08  2.40000000e-01 
 2.50000000e-01  3.54448526e-09  4.59086560e-01  3.41303479e-09  4.59086561e-01  3.41078254e-09  3.30297995e-09  3.36523180e-09  1.61532072e-07  1.57069238e-08  2.50000000e-01 
 2.60000000e-01  3.54448525e-09  4.59086566e-01  3.41303484e-09  4.59086566e-01  3.41078254e-09  3.30297995e-09  3.36523180e-09  1.61532094e-07  1.57067976e-08  2.60000000e-01 
 2.70000000e-01  3.54448525e-09  4.59086556e-01  3.41303483e-09  4.59086556e-01  3.41078254e-09  3.30297995e-09  3.36523180e-09  1.61532091e-07  1.57067568e-08  2.70000000e-01 
 2.80000000e-01  3.54448531e-09  4.59086581e-01  3.41303483e-09  4.59086581e-01  3.41078254e-09  3.30297995e-09  3.36523180e-09  1.61532126e-07  1.57065614e-08  2.80000000e-01 
 2.90000000e-01  3.54448529e-09  4.59086562e-01  3.41303478e-09  4.59086562e-01  3.41078254e-09  3.30297989e-09  3.36523180e-09  1.61532085e-07  1.57064868e-08  2.90000000e-01 
 3.00000000e-01  3.54448524e-09  4.59086567e-01  3.41303484e-09  4.59086567e-01  3.41078260e-09  3.30297995e-09  3.36523180e-09  1.61532113e-07  1.57064974e-08  3.00000000e-01 
 3.10000000e-01  3.54448526e-09  4.59086562e-01  3.41303483e-09  4.59086562e-01  3.41078254e-09  3.30297995e-09  3.36523180e-09  1.61532089e-07  1.57062949e-08  3.10000000e-01 
 3.20000000e-01  3.54448525e-09  4.59086556e-01  3.41303483e-09  4.59086556e-01  3.41078254e-09  3.30297995e-09  3.36523180e-09  1.61532089e-07  1.57060960e-08  3.20000000e-01 
 3.30000000e-01  3.54448525e-09  4.59086569e-01  3.41303478e-09  4.59086569e-01  3.41078254e-09  3.30297989e-09  3.36523180e-09  1.61532102e-07  1.57060178e-08  3.30000000e-01 
 3.40000000e-01  3.54448531e-09  4.59086558e-01  3.41303484e-09  4.59086558e-01  3.41078254e-09  3.30297995e-09  3.36523180e-09  1.61532084e-07  1.57059041e-08  3.40000000e-01 
 3.50000000e-01  3.54448524e-09  4.59086547e-01  3.41303477e-09  4.59086547e-01  3.41078254e-09  3.30297995e-09  3.36523180e-09  1.61532066e-07  1.57059823e-08  3.50000000e-01 
 3.60000000e-01  3.54448526e-09  4.59086578e-01  3.41303479e-09  4.59086578e-01  3.41078254e-09  3.30297995e-09  3.36523180e-09  1.61532114e-07  1.57059006e-08  3.60000000e-01 
 3.70000000e-01  3.54448531e-09  4.59086583e-01  3.41303478e-09  4.59086583e-01  3.41078254e-09  3.30297995e-09  3.36523180e-09  1.61532116e-07  1.57057229e-08  3.70000000e-01 
 3.80000000e-01  3.54448530e-09  4.59086567e-01  3.41303484e-09  4.59086567e-01  3.41078254e-09  3.30297995e-09  3.36523180e-09  1.61532090e-07  1.57056448e-08  3.80000000e-01 
 3.90000000e-01  3.54448524e-09  4.59086561e-01  3.41303483e-09  4.59086561e-01  3.41078254e-09  3.30297995e-09  3.36523180e-09  1.61532092e-07  1.57056199e-08  3.90000000e-01 
 4.00000000e-01  3.54448531e-09  4.59086576e-01  3.41303483e-09  4.59086577e-01  3.41078254e-09  3.30297995e-09  3.36523180e-09  1.61532112e-07  1.57056164e-08  4.00000000e-01 
 4.10000000e-01  3.54448529e-09  4.59086557e-01  3.41303483e-09  4.59086557e-01  3.41078254e-09  3.30297995e-09  3.36523180e-09  1.61532081e-07  1.57054671e-08  4.10000000e-01 
 4.20000000e-01  3.54448524e-09  4.59086555e-01  3.41303483e-09  4.59086555e-01  3.41078254e-09  3.30297989e-09  3.36523180e-09  1.61532083e-07  1.57053712e-08  4.20000000e-01 
 4.30000000e-01  3.54448526e-09  4.59086554e-01  3.41303483e-09  4.59086555e-01  3.41078254e-09  3.30297995e-09  3.36523180e-09  1.61532093e-07  1.57052646e-08  4.30000000e-01 
 4.40000000e-01  3.54448525e-09  4.59086581e-01  3.41303483e-09  4.59086581e-01  3.41078254e-09  3.30297995e-09  3.36523180e-09  1.61532117e-07  1.57052860e-08  4.40000000e-01 
 4.50000000e-01  3.54448525e-09  4.59086562e-01  3.41303483e-09  4.59086562e-01  3.41078254e-09  3.30297995e-09  3.36523180e-09  1.61532093e-07  1.57052717e-08  4.50000000e-01 
 4.60000000e-01  3.54448531e-09  4.59086562e-01  3.41303483e-09  4.59086562e-01  3.41078254e-09  3.30297995e-09  3.36523180e-09  1.61532086e-07  1.57051794e-08  4.60000000e-01 
 4.70000000e-01  3.54448524e-09  4.59086555e-01  3.41303483e-09  4.59086555e-01  3.41078254e-09  3.30297995e-09  3.36523180e-09  1.61532086e-07  1.57050586e-08  4.70000000e-01 
 4.80000000e-01  3.54448526e-09  4.59086581e-01  3.41303483e-09  4.59086581e-01  3.41078254e-09  3.30297995e-09  3.36523180e-09  1.61532119e-07  1.57049449e-08  4.80000000e-01 
 4.90000000e-01  3.54448531e-09  4.59086560e-01  3.41303483e-09  4.59086560e-01  3.41078254e-09  3.30297989e-09  3.36523180e-09  1.61532088e-07  1.57048845e-08  4.90000000e-01 
 5.00000000e-01  3.54448530e-09  4.59086571e-01  3.41303478e-09  4.59086572e-01  3.41078254e-09  3.30297995e-09  3.36523180e-09  1.61532102e-07  1.57048916e-08  5.00000000e-01 
 5.10000000e-01  3.54448530e-09  4.59086561e-01  3.41303479e-09  4.59086561e-01  3.41078254e-09  3.30297989e-09  3.36523180e-09  1.61532083e-07  1.57048312e-08  5.10000000e-01 
 5.20000000e-01  3.54448530e-09  4.59086558e-01  3.41303484e-09  4.59086558e-01  3.41078254e-09  3.30297995e-09  3.36523180e-09  1.61532077e-07  1.57047779e-08  5.20000000e-01 
 5.30000000e-01  3.54448524e-09  4.59086567e-01  3.41303483e-09  4.59086567e-01  3.41078254e-09  3.30297989e-09  3.36523180e-09  1.61532109e-07  1.57046998e-08  5.30000000e-01 
 5.40000000e-01  3.54448526e-09  4.59086568e-01  3.41303483e-09  4.59086568e-01  3.41078254e-09  3.30297995e-09  3.36523180e-09  1.61532100e-07  1.57045505e-08  5.40000000e-01 
 5.50000000e-01  3.54448531e-09  4.59086581e-01  3.41303478e-09  4.59086581e-01  3.41078254e-09  3.30297995e-09  3.36523180e-09  1.61532120e-07  1.57044582e-08  5.50000000e-01 
 5.60000000e-01  3.54448524e-09  4.59086564e-01  3.41303484e-09  4.59086564e-01  3.41078254e-09  3.30297995e-09  3.36523180e-09  1.61532103e-07  1.57046038e-08  5.60000000e-01 
 5.70000000e-01  3.54448526e-09  4.59086576e-01  3.41303483e-09  4.59086577e-01  3.41078254e-09  3.30297995e-09  3.36523180e-09  1.61532121e-07  1.57044440e-08  5.70000000e-01 
 5.80000000e-01  3.54448531e-09  4.59086572e-01  3.41303483e-09  4.59086572e-01  3.41078254e-09  3.30297995e-09  3.36523180e-09  1.61532093e-07  1.57045932e-08  5.80000000e-01 
 5.90000000e-01  3.54448524e-09  4.59086569e-01  3.41303478e-09  4.59086569e-01  3.41078254e-09  3.30297995e-09  3.36523180e-09  1.61532082e-07  1.57043800e-08  5.90000000e-01 
 6.00000000e-01  3.54448531e-09  4.59086566e-01  3.41303479e-09  4.59086566e-01  3.41078254e-09  3.30297995e-09  3.36523180e-09  1.61532114e-07  1.57043800e-08  6.00000000e-01 
 6.10000000e-01  3.54448529e-09  4.59086554e-01  3.41303484e-09  4.59086554e-01  3.41078254e-09  3.30297995e-09  3.36523174e-09  1.61532086e-07  1.57043232e-08  6.10000000e-01 
 6.20000000e-01  3.54448530e-09  4.59086568e-01  3.41303483e-09  4.59086568e-01  3.41078254e-09  3.30297995e-09  3.36523180e-09  1.61532098e-07  1.57042805e-08  6.20000000e-01 
 6.30000000e-01  3.54448530e-09  4.59086579e-01  3.41303483e-09  4.59086579e-01  3.41078254e-09  3.30297995e-09  3.36523180e-09  1.61532114e-07  1.57042521e-08  6.30000000e-01 
 6.40000000e-01  3.54448530e-09  4.59086565e-01  3.41303483e-09  4.59086565e-01  3.41078254e-09  3.30297995e-09  3.36523180e-09  1.61532089e-07  1.57041171e-08  6.40000000e-01 
 6.50000000e-01  3.54448530e-09  4.59086570e-01  3.41303478e-09  4.59086570e-01  3.41078254e-09  3.30297995e-09  3.36523180e-09  1.61532105e-07  1.57041029e-08  6.50000000e-01 
 6.60000000e-01  3.54448525e-09  4.59086589e-01  3.41303485e-09  4.59086589e-01  3.41078254e-09  3.30297995e-09  3.36523180e-09  1.61532138e-07  1.57040603e-08  6.60000000e-01 
 6.70000000e-01  3.54448526e-09  4.59086567e-01  3.41303483e-09  4.59086567e-01  3.41078254e-09  3.30297989e-09  3.36523180e-09  1.61532097e-07  1.57038968e-08  6.70000000e-01 
 6.80000000e-01  3.54448531e-09  4.59086561e-01  3.41303483e-09  4.59086561e-01  3.41078254e-09  3.30297995e-09  3.36523180e-09  1.61532082e-07  1.57041242e-08  6.80000000e-01 
 6.90000000e-01  3.54448530e-09  4.59086577e-01  3.41303478e-09  4.59086577e-01  3.41078254e-09  3.30297995e-09  3.36523180e-09  1.61532109e-07  1.57039608e-08  6.90000000e-01 
 7.00000000e-01  3.54448524e-09  4.59086565e-01  3.41303484e-09  4.59086565e-01  3.41078254e-09  3.30297995e-09  3.36523180e-09  1.61532079e-07  1.57037263e-08  7.00000000e-01 
 7.10000000e-01  3.54448526e-09  4.59086567e-01  3.41303483e-09  4.59086568e-01  3.41078254e-09  3.30297989e-09  3.36523180e-09  1.61532104e-07  1.57036837e-08  7.10000000e-01 
 7.20000000e-01  3.54448531e-09  4.59086566e-01  3.41303483e-09  4.59086566e-01  3.41078254e-09  3.30297995e-09  3.36523180e-09  1.61532089e-07  1.57037405e-08  7.20000000e-01 
 7.30000000e-01  3.54448530e-09  4.59086577e-01  3.41303483e-09  4.59086577e-01  3.41078254e-09  3.30297995e-09  3.36523180e-09  1.61532122e-07  1.57037903e-08  7.30000000e-01 
 7.40000000e-01  3.54448530e-09  4.59086553e-01  3.41303483e-09  4.59086553e-01  3.41078254e-09  3.30297989e-09  3.36523180e-09  1.61532076e-07  1.57036126e-08  7.40000000e-01 
 7.50000000e-01  3.54448525e-09  4.59086575e-01  3.41303478e-09  4.59086575e-01  3.41078254e-09  3.30297995e-09  3.36523180e-09  1.61532117e-07  1.57035558e-08  7.50000000e-01 
 7.60000000e-01  3.54448526e-09  4.59086562e-01  3.41303479e-09  4.59086562e-01  3.41078254e-09  3.30297995e-09  3.36523180e-09  1.61532086e-07  1.57036482e-08  7.60000000e-01 
 7.70000000e-01  3.54448531e-09  4.59086554e-01  3.41303478e-09  4.59086554e-01  3.41078254e-09  3.30297995e-09  3.36523180e-09  1.61532076e-07  1.57034492e-08  7.70000000e-01 
 7.80000000e-01  3.54448529e-09  4.59086557e-01  3.41303478e-09  4.59086557e-01  3.41078254e-09  3.30297995e-09  3.36523180e-09  1.61532078e-07  1.57033142e-08  7.80000000e-01 
 7.90000000e-01  3.54448530e-09  4.59086552e-01  3.41303478e-09  4.59086552e-01  3.41078254e-09  3.30297995e-09  3.36523180e-09  1.61532075e-07  1.57034066e-08  7.90000000e-01 
 8.00000000e-01  3.54448530e-09  4.59086576e-01  3.41303478e-09  4.59086576e-01  3.41078254e-09  3.30297995e-09  3.36523180e-09  1.61532114e-07  1.57032076e-08  8.00000000e-01 
 8.10000000e-01  3.54448530e-09  4.59086544e-01  3.41303484e-09  4.59086545e-01  3.41078254e-09  3.30297995e-09  3.36523180e-09  1.61532059e-07  1.57033000e-08  8.10000000e-01 
 8.20000000e-01  3.54448530e-09  4.59086595e-01  3.41303483e-09  4.59086596e-01  3.41078254e-09  3.30297995e-09  3.36523180e-09  1.61532151e-07  1.57032432e-08  8.20000000e-01 
 8.30000000e-01  3.54448524e-09  4.59086570e-01  3.41303483e-09  4.59086571e-01  3.41078254e-09  3.30297995e-09  3.36523180e-09  1.61532104e-07  1.57030584e-08  8.30000000e-01 
 8.40000000e-01  3.54448526e-09  4.59086574e-01  3.41303483e-09  4.59086575e-01  3.41078254e-09  3.30297995e-09  3.36523180e-09  1.61532109e-07  1.57031010e-08  8.40000000e-01 
 8.50000000e-01  3.54448531e-09  4.59086560e-01  3.41303483e-09  4.59086560e-01  3.41078254e-09  3.30297995e-09  3.36523180e-09  1.61532080e-07  1.57029660e-08  8.50000000e-01 
 8.60000000e-01  3.54448530e-09  4.59086576e-01  3.41303483e-09  4.59086577e-01  3.41078254e-09  3.30297990e-09  3.36523180e-09  1.61532109e-07  1.57030655e-08  8.60000000e-01 
 8.70000000e-01  3.54448525e-09  4.59086585e-01  3.41303483e-09  4.59086585e-01  3.41078254e-09  3.30297995e-09  3.36523180e-09  1.61532116e-07  1.57029660e-08  8.70000000e-01 
 8.80000000e-01  3.54448526e-09  4.59086575e-01  3.41303478e-09  4.59086575e-01  3.41078254e-09  3.30297995e-09  3.36523180e-09  1.61532108e-07  1.57029021e-08  8.80000000e-01 
 8.90000000e-01  3.54448531e-09  4.59086586e-01  3.41303485e-09  4.59086586e-01  3.41078254e-09  3.30297995e-09  3.36523180e-09  1.61532128e-07  1.57029802e-08  8.90000000e-01 
 9.00000000e-01  3.54448524e-09  4.59086568e-01  3.41303483e-09  4.59086569e-01  3.41078254e-09  3.30297995e-09  3.36523180e-09  1.61532087e-07  1.57028666e-08  9.00000000e-01 
 9.10000000e-01  3.54448526e-09  4.59086570e-01  3.41303483e-09  4.59086570e-01  3.41078254e-09  3.30297995e-09  3.36523180e-09  1.61532117e-07  1.57027316e-08  9.10000000e-01 
 9.20000000e-01  3.54448531e-09  4.59086566e-01  3.41303483e-09  4.59086566e-01  3.41078254e-09  3.30297995e-09  3.36523180e-09  1.61532093e-07  1.57028097e-08  9.20000000e-01 
 9.30000000e-01  3.54448530e-09  4.59086576e-01  3.41303483e-09  4.59086576e-01  3.41078254e-09  3.30297990e-09  3.36523180e-09  1.61532112e-07  1.57027245e-08  9.30000000e-01 
 9.40000000e-01  3.54448525e-09  4.59086578e-01  3.41303483e-09  4.59086578e-01  3.41078254e-09  3.30297995e-09  3.36523180e-09  1.61532112e-07  1.57025823e-08  9.40000000e-01 
 9.50000000e-01  3.54448526e-09  4.59086557e-01  3.41303483e-09  4.59086558e-01  3.41078254e-09  3.30297995e-09  3.36523180e-09  1.61532091e-07  1.57025823e-08  9.50000000e-01 
 9.60000000e-01  3.54448531e-09  4.59086569e-01  3.41303478e-09  4.59086570e-01  3.41078254e-09  3.30297995e-09  3.36523180e-09  1.61532096e-07  1.57024687e-08  9.60000000e-01 
 9.70000000e-01  3.54448530e-09  4.59086593e-01  3.41303479e-09  4.59086593e-01  3.41078254e-09  3.30297995e-09  3.36523180e-09  1.61532126e-07  1.57024118e-08  9.70000000e-01 
 9.80000000e-01  3.54448524e-09  4.59086553e-01  3.41303484e-09  4.59086553e-01  3.41078254e-09  3.30297995e-09  3.36523180e-09  1.61532071e-07  1.57023550e-08  9.80000000e-01 
 9.90000000e-01  3.54448531e-09  4.59086579e-01  3.41303483e-09  4.59086579e-01  3.41078254e-09  3.30297990e-09  3.36523180e-09  1.61532119e-07  1.57023337e-08  9.90000000e-01 
 1.00000000e+00  3.54448530e-09  4.59086577e-01  3.41303483e-09  4.59086577e-01  3.41078254e-09  3.30297990e-09  3.36523180e-09  1.61532108e-07  1.57022129e-08  1.00000000e+00 
 1.01000000e+00  3.54448530e-09  4.59086576e-01  3.41303483e-09  4.59086576e-01  3.41078254e-09  3.30297995e-09  3.36523180e-09  1.61532116e-07  1.57022271e-08  1.01000000e+00 
 1.02000000e+00  3.54448530e-09  4.59086556e-01  3.41303483e-09  4.59086557e-01  3.41078254e-09  3.30297989e-09  3.36523180e-09  1.61532084e-07  1.57022342e-08  1.02000000e+00 
 1.03000000e+00  3.54448524e-09  4.59086565e-01  3.41303478e-09  4.59086565e-01  3.41078254e-09  3.30297995e-09  3.36523180e-09  1.61532094e-07  1.57020992e-08  1.03000000e+00 
 1.04000000e+00  3.54448526e-09  4.59086566e-01  3.41303479e-09  4.59086567e-01  3.41078254e-09  3.30297995e-09  3.36523180e-09  1.61532107e-07  1.57020921e-08  1.04000000e+00 
 1.05000000e+00  3.54448525e-09  4.59086560e-01  3.41303484e-09  4.59086560e-01  3.41078254e-09  3.30297995e-09  3.36523174e-09  1.61532087e-07  1.57020139e-08  1.05000000e+00 
 1.06000000e+00  3.54448531e-09  4.59086569e-01  3.41303483e-09  4.59086569e-01  3.41078254e-09  3.30297995e-09  3.36523180e-09  1.61532096e-07  1.57018860e-08  1.06000000e+00 
 1.07000000e+00  3.54448529e-09  4.59086560e-01  3.41303483e-09  4.59086560e-01  3.41078254e-09  3.30297995e-09  3.36523180e-09  1.61532079e-07  1.57019855e-08  1.07000000e+00 
 1.08000000e+00  3.54448525e-09  4.59086575e-01  3.41303483e-09  4.59086575e-01  3.41078254e-09  3.30297995e-09  3.36523180e-09  1.61532114e-07  1.57018363e-08  1.08000000e+00 
 1.09000000e+00  3.54448526e-09  4.59086568e-01  3.41303483e-09  4.59086568e-01  3.41078254e-09  3.30297995e-09  3.36523180e-09  1.61532100e-07  1.57017936e-08  1.09000000e+00 
 1.10000000e+00  3.54448531e-09  4.59086555e-01  3.41303478e-09  4.59086555e-01  3.41078254e-09  3.30297995e-09  3.36523180e-09  1.61532087e-07  1.57017013e-08  1.10000000e+00 
