 v-sweep         v(b0)           v(b1)           v(b2)           v(b3)           v(b4)           v(b5)           v(b6)           i(vbias)        i(viout)        v(vout)        
 0.00000000e+00  3.32782602e-09  3.20584821e-09  4.60558150e-01  3.49916366e-09  3.18321016e-09  3.34931490e-09  3.47588341e-09  1.62408792e-07  5.79492236e-09  0.00000000e+00 
 1.00000000e-02  3.32782600e-09  3.20584819e-09  4.60558150e-01  3.49916363e-09  3.18321013e-09  3.34931482e-09  3.47588344e-09  1.62408804e-07  5.79461779e-09  1.00000000e-02 
 2.00000000e-02  3.32782605e-09  3.20584819e-09  4.60558133e-01  3.49916363e-09  3.18321012e-09  3.34931488e-09  3.47588338e-09  1.62408776e-07  5.79403459e-09  2.00000000e-02 
 3.00000000e-02  3.32782606e-09  3.20584819e-09  4.60558150e-01  3.49916369e-09  3.18321013e-09  3.34931488e-09  3.47588338e-09  1.62408802e-07  5.79382697e-09  3.00000000e-02 
 4.00000000e-02  3.32782605e-09  3.20584819e-09  4.60558139e-01  3.49916362e-09  3.18321018e-09  3.34931488e-09  3.47588344e-09  1.62408783e-07  5.79336090e-09  4.00000000e-02 
 5.00000000e-02  3.32782600e-09  3.20584819e-09  4.60558153e-01  3.49916364e-09  3.18321018e-09  3.34931488e-09  3.47588338e-09  1.62408807e-07  5.79305670e-09  5.00000000e-02 
 6.00000000e-02  3.32782600e-09  3.20584819e-09  4.60558134e-01  3.49916363e-09  3.18321012e-09  3.34931488e-09  3.47588338e-09  1.62408773e-07  5.79270276e-09  6.00000000e-02 
 7.00000000e-02  3.32782606e-09  3.20584819e-09  4.60558159e-01  3.49916369e-09  3.18321013e-09  3.34931488e-09  3.47588338e-09  1.62408808e-07  5.79233062e-09  7.00000000e-02 
 8.00000000e-02  3.32782600e-09  3.20584819e-09  4.60558138e-01  3.49916368e-09  3.18321013e-09  3.34931488e-09  3.47588338e-09  1.62408777e-07  5.79213744e-09  8.00000000e-02 
 9.00000000e-02  3.32782600e-09  3.20584813e-09  4.60558157e-01  3.49916370e-09  3.18321018e-09  3.34931488e-09  3.47588338e-09  1.62408803e-07  5.79181858e-09  9.00000000e-02 
 1.00000000e-01  3.32782600e-09  3.20584819e-09  4.60558153e-01  3.49916362e-09  3.18321013e-09  3.34931488e-09  3.47588338e-09  1.62408802e-07  5.79157611e-09  1.00000000e-01 
 1.10000000e-01  3.32782605e-09  3.20584819e-09  4.60558133e-01  3.49916370e-09  3.18321012e-09  3.34931488e-09  3.47588344e-09  1.62408760e-07  5.79135762e-09  1.10000000e-01 
 1.20000000e-01  3.32782606e-09  3.20584813e-09  4.60558143e-01  3.49916362e-09  3.18321013e-09  3.34931488e-09  3.47588344e-09  1.62408796e-07  5.79108139e-09  1.20000000e-01 
 1.30000000e-01  3.32782606e-09  3.20584819e-09  4.60558160e-01  3.49916364e-09  3.18321013e-09  3.34931488e-09  3.47588338e-09  1.62408811e-07  5.79093307e-09  1.30000000e-01 
 1.40000000e-01  3.32782600e-09  3.20584813e-09  4.60558138e-01  3.49916369e-09  3.18321013e-09  3.34931488e-09  3.47588338e-09  1.62408782e-07  5.79068082e-09  1.40000000e-01 
 1.50000000e-01  3.32782605e-09  3.20584819e-09  4.60558135e-01  3.49916362e-09  3.18321012e-09  3.34931482e-09  3.47588338e-09  1.62408774e-07  5.79044546e-09  1.50000000e-01 
 1.60000000e-01  3.32782600e-09  3.20584819e-09  4.60558137e-01  3.49916364e-09  3.18321013e-09  3.34931488e-09  3.47588338e-09  1.62408774e-07  5.79032289e-09  1.60000000e-01 
 1.70000000e-01  3.32782600e-09  3.20584819e-09  4.60558144e-01  3.49916363e-09  3.18321013e-09  3.34931488e-09  3.47588338e-09  1.62408792e-07  5.79009907e-09  1.70000000e-01 
 1.80000000e-01  3.32782600e-09  3.20584819e-09  4.60558157e-01  3.49916363e-09  3.18321013e-09  3.34931488e-09  3.47588338e-09  1.62408816e-07  5.79005466e-09  1.80000000e-01 
 1.90000000e-01  3.32782606e-09  3.20584819e-09  4.60558168e-01  3.49916369e-09  3.18321018e-09  3.34931488e-09  3.47588339e-09  1.62408829e-07  5.78973491e-09  1.90000000e-01 
 2.00000000e-01  3.32782600e-09  3.20584819e-09  4.60558128e-01  3.49916368e-09  3.18321018e-09  3.34931487e-09  3.47588338e-09  1.62408758e-07  5.78964254e-09  2.00000000e-01 
 2.10000000e-01  3.32782600e-09  3.20584813e-09  4.60558134e-01  3.49916364e-09  3.18321012e-09  3.34931488e-09  3.47588344e-09  1.62408788e-07  5.78942227e-09  2.10000000e-01 
 2.20000000e-01  3.32782605e-09  3.20584819e-09  4.60558138e-01  3.49916363e-09  3.18321013e-09  3.34931482e-09  3.47588338e-09  1.62408770e-07  5.78920734e-09  2.20000000e-01 
 2.30000000e-01  3.32782606e-09  3.20584819e-09  4.60558151e-01  3.49916363e-09  3.18321018e-09  3.34931488e-09  3.47588344e-09  1.62408802e-07  5.78913628e-09  2.30000000e-01 
 2.40000000e-01  3.32782600e-09  3.20584819e-09  4.60558141e-01  3.49916363e-09  3.18321018e-09  3.34931488e-09  3.47588338e-09  1.62408784e-07  5.78893378e-09  2.40000000e-01 
 2.50000000e-01  3.32782606e-09  3.20584819e-09  4.60558153e-01  3.49916369e-09  3.18321013e-09  3.34931488e-09  3.47588338e-09  1.62408797e-07  5.78875436e-09  2.50000000e-01 
 2.60000000e-01  3.32782605e-09  3.20584819e-09  4.60558134e-01  3.49916368e-09  3.18321018e-09  3.34931488e-09  3.47588338e-09  1.62408785e-07  5.78868331e-09  2.60000000e-01 
 2.70000000e-01  3.32782600e-09  3.20584813e-09  4.60558152e-01  3.49916364e-09  3.18321013e-09  3.34931488e-09  3.47588338e-09  1.62408793e-07  5.78856607e-09  2.70000000e-01 
 2.80000000e-01  3.32782600e-09  3.20584813e-09  4.60558133e-01  3.49916369e-09  3.18321012e-09  3.34931488e-09  3.47588338e-09  1.62408783e-07  5.78856607e-09  2.80000000e-01 
 2.90000000e-01  3.32782600e-09  3.20584819e-09  4.60558160e-01  3.49916368e-09  3.18321013e-09  3.34931488e-09  3.47588338e-09  1.62408813e-07  5.78838311e-09  2.90000000e-01 
 3.00000000e-01  3.32782606e-09  3.20584819e-09  4.60558149e-01  3.49916364e-09  3.18321013e-09  3.34931488e-09  3.47588338e-09  1.62408788e-07  5.78816639e-09  3.00000000e-01 
 3.10000000e-01  3.32782606e-09  3.20584813e-09  4.60558145e-01  3.49916369e-09  3.18321013e-09  3.34931488e-09  3.47588338e-09  1.62408785e-07  5.78821258e-09  3.10000000e-01 
 3.20000000e-01  3.32782600e-09  3.20584819e-09  4.60558137e-01  3.49916368e-09  3.18321013e-09  3.34931488e-09  3.47588338e-09  1.62408771e-07  5.78798875e-09  3.20000000e-01 
 3.30000000e-01  3.32782600e-09  3.20584813e-09  4.60558141e-01  3.49916364e-09  3.18321013e-09  3.34931488e-09  3.47588338e-09  1.62408788e-07  5.78802783e-09  3.30000000e-01 
 3.40000000e-01  3.32782600e-09  3.20584819e-09  4.60558152e-01  3.49916369e-09  3.18321018e-09  3.34931482e-09  3.47588338e-09  1.62408798e-07  5.78784309e-09  3.40000000e-01 
 3.50000000e-01  3.32782605e-09  3.20584819e-09  4.60558126e-01  3.49916368e-09  3.18321018e-09  3.34931487e-09  3.47588338e-09  1.62408752e-07  5.78783599e-09  3.50000000e-01 
 3.60000000e-01  3.32782606e-09  3.20584813e-09  4.60558152e-01  3.49916364e-09  3.18321018e-09  3.34931488e-09  3.47588338e-09  1.62408806e-07  5.78763704e-09  3.60000000e-01 
 3.70000000e-01  3.32782605e-09  3.20584813e-09  4.60558134e-01  3.49916369e-09  3.18321018e-09  3.34931488e-09  3.47588338e-09  1.62408773e-07  5.78754467e-09  3.70000000e-01 
 3.80000000e-01  3.32782600e-09  3.20584813e-09  4.60558149e-01  3.49916368e-09  3.18321013e-09  3.34931488e-09  3.47588338e-09  1.62408793e-07  5.78754467e-09  3.80000000e-01 
 3.90000000e-01  3.32782605e-09  3.20584819e-09  4.60558137e-01  3.49916370e-09  3.18321013e-09  3.34931488e-09  3.47588338e-09  1.62408770e-07  5.78750203e-09  3.90000000e-01 
 4.00000000e-01  3.32782600e-09  3.20584819e-09  4.60558153e-01  3.49916362e-09  3.18321013e-09  3.34931488e-09  3.47588338e-09  1.62408797e-07  5.78734927e-09  4.00000000e-01 
 4.10000000e-01  3.32782600e-09  3.20584819e-09  4.60558132e-01  3.49916370e-09  3.18321018e-09  3.34931488e-09  3.47588338e-09  1.62408770e-07  5.78737414e-09  4.10000000e-01 
 4.20000000e-01  3.32782606e-09  3.20584819e-09  4.60558159e-01  3.49916368e-09  3.18321013e-09  3.34931488e-09  3.47588338e-09  1.62408815e-07  5.78717518e-09  4.20000000e-01 
 4.30000000e-01  3.32782600e-09  3.20584813e-09  4.60558155e-01  3.49916364e-09  3.18321013e-09  3.34931488e-09  3.47588338e-09  1.62408807e-07  5.78712189e-09  4.30000000e-01 
 4.40000000e-01  3.32782605e-09  3.20584819e-09  4.60558137e-01  3.49916363e-09  3.18321018e-09  3.34931488e-09  3.47588338e-09  1.62408786e-07  5.78695136e-09  4.40000000e-01 
 4.50000000e-01  3.32782600e-09  3.20584819e-09  4.60558134e-01  3.49916369e-09  3.18321012e-09  3.34931488e-09  3.47588338e-09  1.62408767e-07  5.78704018e-09  4.50000000e-01 
 4.60000000e-01  3.32782600e-09  3.20584813e-09  4.60558164e-01  3.49916362e-09  3.18321018e-09  3.34931488e-09  3.47588339e-09  1.62408806e-07  5.78697268e-09  4.60000000e-01 
 4.70000000e-01  3.32782606e-09  3.20584819e-09  4.60558145e-01  3.49916370e-09  3.18321013e-09  3.34931488e-09  3.47588338e-09  1.62408788e-07  5.78672044e-09  4.70000000e-01 
 4.80000000e-01  3.32782600e-09  3.20584813e-09  4.60558151e-01  3.49916362e-09  3.18321018e-09  3.34931488e-09  3.47588338e-09  1.62408791e-07  5.78679149e-09  4.80000000e-01 
 4.90000000e-01  3.32782606e-09  3.20584819e-09  4.60558144e-01  3.49916364e-09  3.18321018e-09  3.34931488e-09  3.47588344e-09  1.62408798e-07  5.78674175e-09  4.90000000e-01 
 5.00000000e-01  3.32782600e-09  3.20584819e-09  4.60558151e-01  3.49916369e-09  3.18321013e-09  3.34931488e-09  3.47588338e-09  1.62408813e-07  5.78664583e-09  5.00000000e-01 
 5.10000000e-01  3.32782600e-09  3.20584819e-09  4.60558160e-01  3.49916368e-09  3.18321013e-09  3.34931488e-09  3.47588338e-09  1.62408816e-07  5.78666004e-09  5.10000000e-01 
 5.20000000e-01  3.32782605e-09  3.20584819e-09  4.60558129e-01  3.49916364e-09  3.18321018e-09  3.34931487e-09  3.47588338e-09  1.62408762e-07  5.78655346e-09  5.20000000e-01 
 5.30000000e-01  3.32782600e-09  3.20584819e-09  4.60558146e-01  3.49916369e-09  3.18321013e-09  3.34931488e-09  3.47588338e-09  1.62408808e-07  5.78641135e-09  5.30000000e-01 
 5.40000000e-01  3.32782600e-09  3.20584813e-09  4.60558148e-01  3.49916362e-09  3.18321013e-09  3.34931488e-09  3.47588344e-09  1.62408793e-07  5.78639003e-09  5.40000000e-01 
 5.50000000e-01  3.32782606e-09  3.20584819e-09  4.60558154e-01  3.49916364e-09  3.18321013e-09  3.34931488e-09  3.47588338e-09  1.62408797e-07  5.78629766e-09  5.50000000e-01 
 5.60000000e-01  3.32782600e-09  3.20584819e-09  4.60558146e-01  3.49916363e-09  3.18321013e-09  3.34931488e-09  3.47588338e-09  1.62408786e-07  5.78618042e-09  5.60000000e-01 
 5.70000000e-01  3.32782606e-09  3.20584819e-09  4.60558142e-01  3.49916363e-09  3.18321013e-09  3.34931488e-09  3.47588338e-09  1.62408775e-07  5.78616266e-09  5.70000000e-01 
 5.80000000e-01  3.32782600e-09  3.20584819e-09  4.60558134e-01  3.49916369e-09  3.18321012e-09  3.34931488e-09  3.47588344e-09  1.62408775e-07  5.78624082e-09  5.80000000e-01 
 5.90000000e-01  3.32782600e-09  3.20584819e-09  4.60558146e-01  3.49916368e-09  3.18321013e-09  3.34931488e-09  3.47588344e-09  1.62408796e-07  5.78613424e-09  5.90000000e-01 
 6.00000000e-01  3.32782600e-09  3.20584819e-09  4.60558144e-01  3.49916364e-09  3.18321013e-09  3.34931488e-09  3.47588344e-09  1.62408784e-07  5.78600634e-09  6.00000000e-01 
 6.10000000e-01  3.32782600e-09  3.20584819e-09  4.60558133e-01  3.49916369e-09  3.18321012e-09  3.34931488e-09  3.47588344e-09  1.62408774e-07  5.78589976e-09  6.10000000e-01 
 6.20000000e-01  3.32782605e-09  3.20584813e-09  4.60558128e-01  3.49916368e-09  3.18321018e-09  3.34931487e-09  3.47588338e-09  1.62408757e-07  5.78586423e-09  6.20000000e-01 
 6.30000000e-01  3.32782600e-09  3.20584819e-09  4.60558153e-01  3.49916370e-09  3.18321018e-09  3.34931488e-09  3.47588338e-09  1.62408794e-07  5.78572923e-09  6.30000000e-01 
 6.40000000e-01  3.32782600e-09  3.20584819e-09  4.60558153e-01  3.49916368e-09  3.18321018e-09  3.34931488e-09  3.47588338e-09  1.62408809e-07  5.78581449e-09  6.40000000e-01 
 6.50000000e-01  3.32782600e-09  3.20584819e-09  4.60558150e-01  3.49916364e-09  3.18321013e-09  3.34931488e-09  3.47588338e-09  1.62408791e-07  5.78585713e-09  6.50000000e-01 
 6.60000000e-01  3.32782606e-09  3.20584819e-09  4.60558143e-01  3.49916369e-09  3.18321013e-09  3.34931488e-09  3.47588344e-09  1.62408781e-07  5.78565107e-09  6.60000000e-01 
 6.70000000e-01  3.32782600e-09  3.20584819e-09  4.60558122e-01  3.49916368e-09  3.18321018e-09  3.34931487e-09  3.47588338e-09  1.62408754e-07  5.78563686e-09  6.70000000e-01 
 6.80000000e-01  3.32782600e-09  3.20584819e-09  4.60558159e-01  3.49916364e-09  3.18321013e-09  3.34931488e-09  3.47588338e-09  1.62408808e-07  5.78553028e-09  6.80000000e-01 
 6.90000000e-01  3.32782600e-09  3.20584819e-09  4.60558130e-01  3.49916369e-09  3.18321012e-09  3.34931487e-09  3.47588338e-09  1.62408773e-07  5.78552317e-09  6.90000000e-01 
 7.00000000e-01  3.32782600e-09  3.20584813e-09  4.60558151e-01  3.49916369e-09  3.18321013e-09  3.34931488e-09  3.47588338e-09  1.62408795e-07  5.78546633e-09  7.00000000e-01 
 7.10000000e-01  3.32782606e-09  3.20584813e-09  4.60558147e-01  3.49916368e-09  3.18321013e-09  3.34931488e-09  3.47588338e-09  1.62408773e-07  5.78534554e-09  7.10000000e-01 
 7.20000000e-01  3.32782600e-09  3.20584813e-09  4.60558158e-01  3.49916370e-09  3.18321018e-09  3.34931488e-09  3.47588338e-09  1.62408803e-07  5.78523895e-09  7.20000000e-01 
 7.30000000e-01  3.32782606e-09  3.20584813e-09  4.60558155e-01  3.49916368e-09  3.18321013e-09  3.34931488e-09  3.47588344e-09  1.62408804e-07  5.78526027e-09  7.30000000e-01 
 7.40000000e-01  3.32782600e-09  3.20584813e-09  4.60558135e-01  3.49916364e-09  3.18321018e-09  3.34931488e-09  3.47588338e-09  1.62408784e-07  5.78524606e-09  7.40000000e-01 
 7.50000000e-01  3.32782606e-09  3.20584819e-09  4.60558150e-01  3.49916369e-09  3.18321018e-09  3.34931488e-09  3.47588338e-09  1.62408798e-07  5.78511106e-09  7.50000000e-01 
 7.60000000e-01  3.32782605e-09  3.20584819e-09  4.60558138e-01  3.49916368e-09  3.18321013e-09  3.34931488e-09  3.47588338e-09  1.62408782e-07  5.78507553e-09  7.60000000e-01 
 7.70000000e-01  3.32782600e-09  3.20584819e-09  4.60558150e-01  3.49916364e-09  3.18321013e-09  3.34931488e-09  3.47588344e-09  1.62408792e-07  5.78506132e-09  7.70000000e-01 
 7.80000000e-01  3.32782606e-09  3.20584819e-09  4.60558148e-01  3.49916363e-09  3.18321013e-09  3.34931488e-09  3.47588338e-09  1.62408792e-07  5.78495474e-09  7.80000000e-01 
 7.90000000e-01  3.32782606e-09  3.20584819e-09  4.60558141e-01  3.49916363e-09  3.18321013e-09  3.34931488e-09  3.47588338e-09  1.62408790e-07  5.78491921e-09  7.90000000e-01 
 8.00000000e-01  3.32782606e-09  3.20584813e-09  4.60558158e-01  3.49916369e-09  3.18321013e-09  3.34931482e-09  3.47588338e-09  1.62408820e-07  5.78495474e-09  8.00000000e-01 
 8.10000000e-01  3.32782600e-09  3.20584819e-09  4.60558145e-01  3.49916368e-09  3.18321013e-09  3.34931488e-09  3.47588338e-09  1.62408788e-07  5.78472026e-09  8.10000000e-01 
 8.20000000e-01  3.32782600e-09  3.20584819e-09  4.60558149e-01  3.49916364e-09  3.18321013e-09  3.34931488e-09  3.47588344e-09  1.62408789e-07  5.78470605e-09  8.20000000e-01 
 8.30000000e-01  3.32782606e-09  3.20584819e-09  4.60558146e-01  3.49916363e-09  3.18321013e-09  3.34931488e-09  3.47588338e-09  1.62408797e-07  5.78458526e-09  8.30000000e-01 
 8.40000000e-01  3.32782600e-09  3.20584819e-09  4.60558156e-01  3.49916363e-09  3.18321013e-09  3.34931488e-09  3.47588338e-09  1.62408799e-07  5.78457815e-09  8.40000000e-01 
 8.50000000e-01  3.32782600e-09  3.20584813e-09  4.60558169e-01  3.49916369e-09  3.18321013e-09  3.34931488e-09  3.47588339e-09  1.62408820e-07  5.78453552e-09  8.50000000e-01 
 8.60000000e-01  3.32782600e-09  3.20584819e-09  4.60558118e-01  3.49916362e-09  3.18321012e-09  3.34931487e-09  3.47588344e-09  1.62408746e-07  5.78450710e-09  8.60000000e-01 
 8.70000000e-01  3.32782605e-09  3.20584819e-09  4.60558129e-01  3.49916370e-09  3.18321012e-09  3.34931487e-09  3.47588338e-09  1.62408755e-07  5.78436499e-09  8.70000000e-01 
 8.80000000e-01  3.32782600e-09  3.20584819e-09  4.60558142e-01  3.49916368e-09  3.18321018e-09  3.34931488e-09  3.47588344e-09  1.62408785e-07  5.78432946e-09  8.80000000e-01 
 8.90000000e-01  3.32782606e-09  3.20584819e-09  4.60558146e-01  3.49916364e-09  3.18321013e-09  3.34931488e-09  3.47588338e-09  1.62408791e-07  5.78430104e-09  8.90000000e-01 
 9.00000000e-01  3.32782600e-09  3.20584819e-09  4.60558131e-01  3.49916363e-09  3.18321018e-09  3.34931487e-09  3.47588338e-09  1.62408772e-07  5.78420867e-09  9.00000000e-01 
 9.10000000e-01  3.32782606e-09  3.20584819e-09  4.60558143e-01  3.49916363e-09  3.18321013e-09  3.34931488e-09  3.47588338e-09  1.62408792e-07  5.78420156e-09  9.10000000e-01 
 9.20000000e-01  3.32782600e-09  3.20584819e-09  4.60558144e-01  3.49916369e-09  3.18321013e-09  3.34931488e-09  3.47588338e-09  1.62408785e-07  5.78414472e-09  9.20000000e-01 
 9.30000000e-01  3.32782600e-09  3.20584813e-09  4.60558141e-01  3.49916368e-09  3.18321018e-09  3.34931488e-09  3.47588338e-09  1.62408787e-07  5.78407366e-09  9.30000000e-01 
 9.40000000e-01  3.32782600e-09  3.20584819e-09  4.60558132e-01  3.49916370e-09  3.18321018e-09  3.34931488e-09  3.47588338e-09  1.62408764e-07  5.78402393e-09  9.40000000e-01 
 9.50000000e-01  3.32782600e-09  3.20584819e-09  4.60558155e-01  3.49916368e-09  3.18321013e-09  3.34931488e-09  3.47588338e-09  1.62408800e-07  5.78397419e-09  9.50000000e-01 
 9.60000000e-01  3.32782605e-09  3.20584813e-09  4.60558117e-01  3.49916369e-09  3.18321012e-09  3.34931487e-09  3.47588338e-09  1.62408734e-07  5.78378234e-09  9.60000000e-01 
 9.70000000e-01  3.32782600e-09  3.20584819e-09  4.60558140e-01  3.49916368e-09  3.18321013e-09  3.34931488e-09  3.47588338e-09  1.62408782e-07  5.78368997e-09  9.70000000e-01 
 9.80000000e-01  3.32782605e-09  3.20584819e-09  4.60558138e-01  3.49916370e-09  3.18321013e-09  3.34931488e-09  3.47588338e-09  1.62408777e-07  5.78369708e-09  9.80000000e-01 
 9.90000000e-01  3.32782600e-09  3.20584819e-09  4.60558155e-01  3.49916368e-09  3.18321013e-09  3.34931488e-09  3.47588338e-09  1.62408804e-07  5.78367576e-09  9.90000000e-01 
 1.00000000e+00  3.32782606e-09  3.20584819e-09  4.60558148e-01  3.49916364e-09  3.18321018e-09  3.34931488e-09  3.47588338e-09  1.62408786e-07  5.78356207e-09  1.00000000e+00 
 1.01000000e+00  3.32782600e-09  3.20584819e-09  4.60558127e-01  3.49916363e-09  3.18321012e-09  3.34931487e-09  3.47588338e-09  1.62408768e-07  5.78354076e-09  1.01000000e+00 
 1.02000000e+00  3.32782606e-09  3.20584819e-09  4.60558159e-01  3.49916363e-09  3.18321013e-09  3.34931488e-09  3.47588338e-09  1.62408811e-07  5.78341997e-09  1.02000000e+00 
 1.03000000e+00  3.32782606e-09  3.20584819e-09  4.60558166e-01  3.49916364e-09  3.18321013e-09  3.34931488e-09  3.47588339e-09  1.62408824e-07  5.78340575e-09  1.03000000e+00 
 1.04000000e+00  3.32782605e-09  3.20584819e-09  4.60558138e-01  3.49916363e-09  3.18321013e-09  3.34931488e-09  3.47588338e-09  1.62408782e-07  5.78323522e-09  1.04000000e+00 
 1.05000000e+00  3.32782600e-09  3.20584819e-09  4.60558153e-01  3.49916369e-09  3.18321018e-09  3.34931488e-09  3.47588344e-09  1.62408798e-07  5.78324233e-09  1.05000000e+00 
 1.06000000e+00  3.32782600e-09  3.20584819e-09  4.60558150e-01  3.49916362e-09  3.18321013e-09  3.34931488e-09  3.47588338e-09  1.62408794e-07  5.78324943e-09  1.06000000e+00 
 1.07000000e+00  3.32782600e-09  3.20584819e-09  4.60558125e-01  3.49916364e-09  3.18321012e-09  3.34931487e-09  3.47588338e-09  1.62408763e-07  5.78307890e-09  1.07000000e+00 
 1.08000000e+00  3.32782605e-09  3.20584813e-09  4.60558134e-01  3.49916363e-09  3.18321018e-09  3.34931488e-09  3.47588338e-09  1.62408778e-07  5.78310022e-09  1.08000000e+00 
 1.09000000e+00  3.32782600e-09  3.20584819e-09  4.60558145e-01  3.49916369e-09  3.18321018e-09  3.34931488e-09  3.47588338e-09  1.62408781e-07  5.78303627e-09  1.09000000e+00 
 1.10000000e+00  3.32782606e-09  3.20584819e-09  4.60558157e-01  3.49916368e-09  3.18321018e-09  3.34931488e-09  3.47588344e-09  1.62408804e-07  5.78292259e-09  1.10000000e+00 
