 v-sweep         v(b0)           v(b1)           v(b2)           v(b3)           v(b4)           v(b5)           v(b6)           i(vbias)        i(viout)        v(vout)        
 0.00000000e+00  3.39126189e-09  4.59564365e-01  3.31722711e-09  4.59564365e-01  4.59564365e-01  4.59564364e-01  4.59564365e-01  1.59423505e-07  1.88609149e-07  0.00000000e+00 
 1.00000000e-02  3.39126193e-09  4.59564391e-01  3.31722703e-09  4.59564391e-01  4.59564391e-01  4.59564391e-01  4.59564391e-01  1.59423526e-07  1.88608920e-07  1.00000000e-02 
 2.00000000e-02  3.39126187e-09  4.59564393e-01  3.31722709e-09  4.59564393e-01  4.59564393e-01  4.59564393e-01  4.59564393e-01  1.59423546e-07  1.88608370e-07  2.00000000e-02 
 3.00000000e-02  3.39126188e-09  4.59564345e-01  3.31722709e-09  4.59564345e-01  4.59564345e-01  4.59564345e-01  4.59564345e-01  1.59423481e-07  1.88607706e-07  3.00000000e-02 
 4.00000000e-02  3.39126188e-09  4.59564370e-01  3.31722703e-09  4.59564370e-01  4.59564370e-01  4.59564370e-01  4.59564370e-01  1.59423515e-07  1.88607476e-07  4.00000000e-02 
 5.00000000e-02  3.39126188e-09  4.59564377e-01  3.31722709e-09  4.59564377e-01  4.59564377e-01  4.59564377e-01  4.59564377e-01  1.59423521e-07  1.88607084e-07  5.00000000e-02 
 6.00000000e-02  3.39126188e-09  4.59564400e-01  3.31722709e-09  4.59564400e-01  4.59564400e-01  4.59564399e-01  4.59564400e-01  1.59423552e-07  1.88606746e-07  6.00000000e-02 
 7.00000000e-02  3.39126187e-09  4.59564366e-01  3.31722703e-09  4.59564366e-01  4.59564366e-01  4.59564366e-01  4.59564366e-01  1.59423504e-07  1.88606268e-07  7.00000000e-02 
 8.00000000e-02  3.39126188e-09  4.59564378e-01  3.31722709e-09  4.59564378e-01  4.59564378e-01  4.59564378e-01  4.59564378e-01  1.59423527e-07  1.88605891e-07  8.00000000e-02 
 9.00000000e-02  3.39126188e-09  4.59564375e-01  3.31722709e-09  4.59564375e-01  4.59564375e-01  4.59564375e-01  4.59564375e-01  1.59423506e-07  1.88605500e-07  9.00000000e-02 
 1.00000000e-01  3.39126188e-09  4.59564386e-01  3.31722709e-09  4.59564387e-01  4.59564386e-01  4.59564386e-01  4.59564386e-01  1.59423528e-07  1.88605197e-07  1.00000000e-01 
 1.10000000e-01  3.39126188e-09  4.59564377e-01  3.31722709e-09  4.59564377e-01  4.59564377e-01  4.59564377e-01  4.59564377e-01  1.59423520e-07  1.88604858e-07  1.10000000e-01 
 1.20000000e-01  3.39126187e-09  4.59564359e-01  3.31722709e-09  4.59564360e-01  4.59564359e-01  4.59564359e-01  4.59564359e-01  1.59423485e-07  1.88604454e-07  1.20000000e-01 
 1.30000000e-01  3.39126188e-09  4.59564370e-01  3.31722703e-09  4.59564370e-01  4.59564370e-01  4.59564370e-01  4.59564370e-01  1.59423518e-07  1.88604046e-07  1.30000000e-01 
 1.40000000e-01  3.39126187e-09  4.59564359e-01  3.31722703e-09  4.59564360e-01  4.59564359e-01  4.59564359e-01  4.59564360e-01  1.59423496e-07  1.88603894e-07  1.40000000e-01 
 1.50000000e-01  3.39126187e-09  4.59564354e-01  3.31722709e-09  4.59564354e-01  4.59564354e-01  4.59564354e-01  4.59564354e-01  1.59423486e-07  1.88603572e-07  1.50000000e-01 
 1.60000000e-01  3.39126188e-09  4.59564377e-01  3.31722709e-09  4.59564377e-01  4.59564377e-01  4.59564377e-01  4.59564377e-01  1.59423522e-07  1.88603313e-07  1.60000000e-01 
 1.70000000e-01  3.39126188e-09  4.59564374e-01  3.31722703e-09  4.59564374e-01  4.59564374e-01  4.59564374e-01  4.59564374e-01  1.59423504e-07  1.88603009e-07  1.70000000e-01 
 1.80000000e-01  3.39126188e-09  4.59564395e-01  3.31722709e-09  4.59564395e-01  4.59564395e-01  4.59564395e-01  4.59564395e-01  1.59423539e-07  1.88602979e-07  1.80000000e-01 
 1.90000000e-01  3.39126188e-09  4.59564381e-01  3.31722709e-09  4.59564381e-01  4.59564381e-01  4.59564381e-01  4.59564381e-01  1.59423522e-07  1.88602616e-07  1.90000000e-01 
 2.00000000e-01  3.39126188e-09  4.59564374e-01  3.31722709e-09  4.59564374e-01  4.59564374e-01  4.59564374e-01  4.59564374e-01  1.59423523e-07  1.88602304e-07  2.00000000e-01 
 2.10000000e-01  3.39126188e-09  4.59564380e-01  3.31722709e-09  4.59564380e-01  4.59564380e-01  4.59564380e-01  4.59564380e-01  1.59423530e-07  1.88602026e-07  2.10000000e-01 
 2.20000000e-01  3.39126188e-09  4.59564393e-01  3.31722703e-09  4.59564393e-01  4.59564393e-01  4.59564393e-01  4.59564393e-01  1.59423540e-07  1.88601883e-07  2.20000000e-01 
 2.30000000e-01  3.39126188e-09  4.59564381e-01  3.31722709e-09  4.59564381e-01  4.59564381e-01  4.59564381e-01  4.59564381e-01  1.59423521e-07  1.88601597e-07  2.30000000e-01 
 2.40000000e-01  3.39126187e-09  4.59564357e-01  3.31722703e-09  4.59564357e-01  4.59564357e-01  4.59564356e-01  4.59564357e-01  1.59423487e-07  1.88601298e-07  2.40000000e-01 
 2.50000000e-01  3.39126187e-09  4.59564361e-01  3.31722709e-09  4.59564361e-01  4.59564361e-01  4.59564361e-01  4.59564361e-01  1.59423511e-07  1.88601025e-07  2.50000000e-01 
 2.60000000e-01  3.39126188e-09  4.59564377e-01  3.31722709e-09  4.59564377e-01  4.59564377e-01  4.59564376e-01  4.59564377e-01  1.59423521e-07  1.88600961e-07  2.60000000e-01 
 2.70000000e-01  3.39126187e-09  4.59564359e-01  3.31722709e-09  4.59564359e-01  4.59564359e-01  4.59564359e-01  4.59564359e-01  1.59423501e-07  1.88600710e-07  2.70000000e-01 
 2.80000000e-01  3.39126187e-09  4.59564362e-01  3.31722703e-09  4.59564362e-01  4.59564362e-01  4.59564362e-01  4.59564362e-01  1.59423504e-07  1.88600440e-07  2.80000000e-01 
 2.90000000e-01  3.39126187e-09  4.59564346e-01  3.31722703e-09  4.59564346e-01  4.59564346e-01  4.59564346e-01  4.59564346e-01  1.59423466e-07  1.88600101e-07  2.90000000e-01 
 3.00000000e-01  3.39126188e-09  4.59564373e-01  3.31722709e-09  4.59564374e-01  4.59564373e-01  4.59564373e-01  4.59564373e-01  1.59423526e-07  1.88600097e-07  3.00000000e-01 
 3.10000000e-01  3.39126187e-09  4.59564351e-01  3.31722709e-09  4.59564351e-01  4.59564351e-01  4.59564351e-01  4.59564351e-01  1.59423478e-07  1.88599774e-07  3.10000000e-01 
 3.20000000e-01  3.39126187e-09  4.59564365e-01  3.31722709e-09  4.59564365e-01  4.59564365e-01  4.59564365e-01  4.59564365e-01  1.59423509e-07  1.88599678e-07  3.20000000e-01 
 3.30000000e-01  3.39126188e-09  4.59564367e-01  3.31722709e-09  4.59564368e-01  4.59564367e-01  4.59564367e-01  4.59564367e-01  1.59423501e-07  1.88599397e-07  3.30000000e-01 
 3.40000000e-01  3.39126188e-09  4.59564369e-01  3.31722709e-09  4.59564370e-01  4.59564369e-01  4.59564369e-01  4.59564369e-01  1.59423509e-07  1.88599316e-07  3.40000000e-01 
 3.50000000e-01  3.39126187e-09  4.59564361e-01  3.31722709e-09  4.59564361e-01  4.59564361e-01  4.59564361e-01  4.59564361e-01  1.59423497e-07  1.88599099e-07  3.50000000e-01 
 3.60000000e-01  3.39126188e-09  4.59564369e-01  3.31722709e-09  4.59564369e-01  4.59564369e-01  4.59564369e-01  4.59564369e-01  1.59423512e-07  1.88598957e-07  3.60000000e-01 
 3.70000000e-01  3.39126188e-09  4.59564384e-01  3.31722709e-09  4.59564384e-01  4.59564384e-01  4.59564384e-01  4.59564384e-01  1.59423533e-07  1.88598786e-07  3.70000000e-01 
 3.80000000e-01  3.39126188e-09  4.59564376e-01  3.31722703e-09  4.59564377e-01  4.59564376e-01  4.59564376e-01  4.59564376e-01  1.59423510e-07  1.88598612e-07  3.80000000e-01 
 3.90000000e-01  3.39126188e-09  4.59564394e-01  3.31722709e-09  4.59564394e-01  4.59564394e-01  4.59564394e-01  4.59564394e-01  1.59423552e-07  1.88598545e-07  3.90000000e-01 
 4.00000000e-01  3.39126188e-09  4.59564380e-01  3.31722709e-09  4.59564380e-01  4.59564380e-01  4.59564380e-01  4.59564380e-01  1.59423535e-07  1.88598293e-07  4.00000000e-01 
 4.10000000e-01  3.39126188e-09  4.59564370e-01  3.31722709e-09  4.59564370e-01  4.59564370e-01  4.59564370e-01  4.59564370e-01  1.59423505e-07  1.88598026e-07  4.10000000e-01 
 4.20000000e-01  3.39126187e-09  4.59564349e-01  3.31722709e-09  4.59564349e-01  4.59564349e-01  4.59564349e-01  4.59564349e-01  1.59423493e-07  1.88597827e-07  4.20000000e-01 
 4.30000000e-01  3.39126188e-09  4.59564371e-01  3.31722709e-09  4.59564371e-01  4.59564371e-01  4.59564371e-01  4.59564371e-01  1.59423523e-07  1.88597657e-07  4.30000000e-01 
 4.40000000e-01  3.39126187e-09  4.59564352e-01  3.31722703e-09  4.59564352e-01  4.59564352e-01  4.59564352e-01  4.59564352e-01  1.59423486e-07  1.88597500e-07  4.40000000e-01 
 4.50000000e-01  3.39126188e-09  4.59564371e-01  3.31722703e-09  4.59564371e-01  4.59564371e-01  4.59564371e-01  4.59564371e-01  1.59423526e-07  1.88597355e-07  4.50000000e-01 
 4.60000000e-01  3.39126188e-09  4.59564369e-01  3.31722709e-09  4.59564370e-01  4.59564369e-01  4.59564369e-01  4.59564369e-01  1.59423506e-07  1.88597227e-07  4.60000000e-01 
 4.70000000e-01  3.39126187e-09  4.59564365e-01  3.31722709e-09  4.59564366e-01  4.59564365e-01  4.59564365e-01  4.59564365e-01  1.59423507e-07  1.88596996e-07  4.70000000e-01 
 4.80000000e-01  3.39126188e-09  4.59564370e-01  3.31722709e-09  4.59564370e-01  4.59564370e-01  4.59564370e-01  4.59564370e-01  1.59423514e-07  1.88596907e-07  4.80000000e-01 
 4.90000000e-01  3.39126188e-09  4.59564374e-01  3.31722703e-09  4.59564375e-01  4.59564374e-01  4.59564374e-01  4.59564374e-01  1.59423520e-07  1.88596708e-07  4.90000000e-01 
 5.00000000e-01  3.39126188e-09  4.59564375e-01  3.31722709e-09  4.59564375e-01  4.59564375e-01  4.59564375e-01  4.59564375e-01  1.59423514e-07  1.88596609e-07  5.00000000e-01 
 5.10000000e-01  3.39126188e-09  4.59564384e-01  3.31722709e-09  4.59564384e-01  4.59564384e-01  4.59564384e-01  4.59564384e-01  1.59423526e-07  1.88596459e-07  5.10000000e-01 
 5.20000000e-01  3.39126187e-09  4.59564361e-01  3.31722709e-09  4.59564361e-01  4.59564361e-01  4.59564360e-01  4.59564361e-01  1.59423494e-07  1.88596282e-07  5.20000000e-01 
 5.30000000e-01  3.39126188e-09  4.59564385e-01  3.31722709e-09  4.59564385e-01  4.59564385e-01  4.59564385e-01  4.59564385e-01  1.59423553e-07  1.88596108e-07  5.30000000e-01 
 5.40000000e-01  3.39126193e-09  4.59564373e-01  3.31722709e-09  4.59564373e-01  4.59564373e-01  4.59564373e-01  4.59564373e-01  1.59423512e-07  1.88596001e-07  5.40000000e-01 
 5.50000000e-01  3.39126186e-09  4.59564393e-01  3.31722709e-09  4.59564393e-01  4.59564393e-01  4.59564393e-01  4.59564393e-01  1.59423549e-07  1.88595852e-07  5.50000000e-01 
 5.60000000e-01  3.39126188e-09  4.59564365e-01  3.31722709e-09  4.59564365e-01  4.59564365e-01  4.59564365e-01  4.59564365e-01  1.59423502e-07  1.88595621e-07  5.60000000e-01 
 5.70000000e-01  3.39126188e-09  4.59564378e-01  3.31722703e-09  4.59564378e-01  4.59564378e-01  4.59564378e-01  4.59564378e-01  1.59423533e-07  1.88595550e-07  5.70000000e-01 
 5.80000000e-01  3.39126188e-09  4.59564379e-01  3.31722709e-09  4.59564379e-01  4.59564379e-01  4.59564379e-01  4.59564379e-01  1.59423532e-07  1.88595401e-07  5.80000000e-01 
 5.90000000e-01  3.39126188e-09  4.59564377e-01  3.31722709e-09  4.59564377e-01  4.59564377e-01  4.59564377e-01  4.59564377e-01  1.59423522e-07  1.88595095e-07  5.90000000e-01 
 6.00000000e-01  3.39126188e-09  4.59564387e-01  3.31722709e-09  4.59564387e-01  4.59564387e-01  4.59564387e-01  4.59564387e-01  1.59423529e-07  1.88595145e-07  6.00000000e-01 
 6.10000000e-01  3.39126188e-09  4.59564372e-01  3.31722703e-09  4.59564372e-01  4.59564372e-01  4.59564372e-01  4.59564372e-01  1.59423522e-07  1.88594846e-07  6.10000000e-01 
 6.20000000e-01  3.39126188e-09  4.59564378e-01  3.31722709e-09  4.59564379e-01  4.59564378e-01  4.59564378e-01  4.59564378e-01  1.59423519e-07  1.88594711e-07  6.20000000e-01 
 6.30000000e-01  3.39126188e-09  4.59564391e-01  3.31722703e-09  4.59564391e-01  4.59564391e-01  4.59564391e-01  4.59564391e-01  1.59423532e-07  1.88594569e-07  6.30000000e-01 
 6.40000000e-01  3.39126188e-09  4.59564367e-01  3.31722709e-09  4.59564367e-01  4.59564367e-01  4.59564367e-01  4.59564367e-01  1.59423505e-07  1.88594363e-07  6.40000000e-01 
 6.50000000e-01  3.39126193e-09  4.59564378e-01  3.31722703e-09  4.59564378e-01  4.59564378e-01  4.59564378e-01  4.59564378e-01  1.59423525e-07  1.88594299e-07  6.50000000e-01 
 6.60000000e-01  3.39126192e-09  4.59564359e-01  3.31722709e-09  4.59564360e-01  4.59564359e-01  4.59564359e-01  4.59564359e-01  1.59423494e-07  1.88593994e-07  6.60000000e-01 
 6.70000000e-01  3.39126187e-09  4.59564382e-01  3.31722709e-09  4.59564382e-01  4.59564382e-01  4.59564382e-01  4.59564382e-01  1.59423532e-07  1.88593866e-07  6.70000000e-01 
 6.80000000e-01  3.39126188e-09  4.59564368e-01  3.31722709e-09  4.59564368e-01  4.59564368e-01  4.59564368e-01  4.59564368e-01  1.59423511e-07  1.88593674e-07  6.80000000e-01 
 6.90000000e-01  3.39126193e-09  4.59564388e-01  3.31722703e-09  4.59564388e-01  4.59564388e-01  4.59564388e-01  4.59564388e-01  1.59423528e-07  1.88593603e-07  6.90000000e-01 
 7.00000000e-01  3.39126186e-09  4.59564359e-01  3.31722703e-09  4.59564360e-01  4.59564359e-01  4.59564359e-01  4.59564359e-01  1.59423490e-07  1.88593269e-07  7.00000000e-01 
 7.10000000e-01  3.39126188e-09  4.59564379e-01  3.31722703e-09  4.59564379e-01  4.59564379e-01  4.59564379e-01  4.59564379e-01  1.59423529e-07  1.88593297e-07  7.10000000e-01 
 7.20000000e-01  3.39126188e-09  4.59564379e-01  3.31722709e-09  4.59564379e-01  4.59564379e-01  4.59564379e-01  4.59564379e-01  1.59423506e-07  1.88593127e-07  7.20000000e-01 
 7.30000000e-01  3.39126188e-09  4.59564380e-01  3.31722703e-09  4.59564380e-01  4.59564380e-01  4.59564380e-01  4.59564380e-01  1.59423516e-07  1.88592850e-07  7.30000000e-01 
 7.40000000e-01  3.39126187e-09  4.59564359e-01  3.31722709e-09  4.59564359e-01  4.59564359e-01  4.59564359e-01  4.59564359e-01  1.59423504e-07  1.88592715e-07  7.40000000e-01 
 7.50000000e-01  3.39126188e-09  4.59564389e-01  3.31722709e-09  4.59564389e-01  4.59564389e-01  4.59564389e-01  4.59564389e-01  1.59423543e-07  1.88592701e-07  7.50000000e-01 
 7.60000000e-01  3.39126188e-09  4.59564374e-01  3.31722709e-09  4.59564374e-01  4.59564374e-01  4.59564374e-01  4.59564374e-01  1.59423515e-07  1.88592381e-07  7.60000000e-01 
 7.70000000e-01  3.39126187e-09  4.59564360e-01  3.31722703e-09  4.59564360e-01  4.59564360e-01  4.59564360e-01  4.59564360e-01  1.59423497e-07  1.88592182e-07  7.70000000e-01 
 7.80000000e-01  3.39126188e-09  4.59564384e-01  3.31722709e-09  4.59564384e-01  4.59564384e-01  4.59564384e-01  4.59564384e-01  1.59423540e-07  1.88592132e-07  7.80000000e-01 
 7.90000000e-01  3.39126187e-09  4.59564355e-01  3.31722709e-09  4.59564355e-01  4.59564355e-01  4.59564355e-01  4.59564355e-01  1.59423481e-07  1.88591713e-07  7.90000000e-01 
 8.00000000e-01  3.39126188e-09  4.59564374e-01  3.31722703e-09  4.59564374e-01  4.59564374e-01  4.59564374e-01  4.59564374e-01  1.59423540e-07  1.88591507e-07  8.00000000e-01 
 8.10000000e-01  3.39126188e-09  4.59564373e-01  3.31722709e-09  4.59564373e-01  4.59564373e-01  4.59564373e-01  4.59564373e-01  1.59423510e-07  1.88591571e-07  8.10000000e-01 
 8.20000000e-01  3.39126188e-09  4.59564375e-01  3.31722703e-09  4.59564376e-01  4.59564375e-01  4.59564375e-01  4.59564375e-01  1.59423525e-07  1.88591279e-07  8.20000000e-01 
 8.30000000e-01  3.39126187e-09  4.59564347e-01  3.31722709e-09  4.59564348e-01  4.59564347e-01  4.59564347e-01  4.59564347e-01  1.59423477e-07  1.88591088e-07  8.30000000e-01 
 8.40000000e-01  3.39126188e-09  4.59564410e-01  3.31722703e-09  4.59564411e-01  4.59564410e-01  4.59564410e-01  4.59564410e-01  1.59423579e-07  1.88591152e-07  8.40000000e-01 
 8.50000000e-01  3.39126188e-09  4.59564370e-01  3.31722709e-09  4.59564370e-01  4.59564370e-01  4.59564370e-01  4.59564370e-01  1.59423515e-07  1.88590775e-07  8.50000000e-01 
 8.60000000e-01  3.39126187e-09  4.59564366e-01  3.31722703e-09  4.59564366e-01  4.59564366e-01  4.59564366e-01  4.59564366e-01  1.59423503e-07  1.88590619e-07  8.60000000e-01 
 8.70000000e-01  3.39126188e-09  4.59564374e-01  3.31722709e-09  4.59564374e-01  4.59564374e-01  4.59564374e-01  4.59564374e-01  1.59423514e-07  1.88590398e-07  8.70000000e-01 
 8.80000000e-01  3.39126188e-09  4.59564382e-01  3.31722709e-09  4.59564382e-01  4.59564382e-01  4.59564382e-01  4.59564382e-01  1.59423519e-07  1.88590207e-07  8.80000000e-01 
 8.90000000e-01  3.39126188e-09  4.59564378e-01  3.31722703e-09  4.59564378e-01  4.59564378e-01  4.59564378e-01  4.59564378e-01  1.59423521e-07  1.88590121e-07  8.90000000e-01 
 9.00000000e-01  3.39126188e-09  4.59564369e-01  3.31722709e-09  4.59564369e-01  4.59564369e-01  4.59564369e-01  4.59564369e-01  1.59423509e-07  1.88589887e-07  9.00000000e-01 
 9.10000000e-01  3.39126188e-09  4.59564385e-01  3.31722703e-09  4.59564385e-01  4.59564385e-01  4.59564385e-01  4.59564385e-01  1.59423527e-07  1.88589780e-07  9.10000000e-01 
 9.20000000e-01  3.39126187e-09  4.59564366e-01  3.31722709e-09  4.59564366e-01  4.59564366e-01  4.59564366e-01  4.59564366e-01  1.59423488e-07  1.88589397e-07  9.20000000e-01 
 9.30000000e-01  3.39126188e-09  4.59564374e-01  3.31722703e-09  4.59564374e-01  4.59564374e-01  4.59564374e-01  4.59564374e-01  1.59423521e-07  1.88589368e-07  9.30000000e-01 
 9.40000000e-01  3.39126188e-09  4.59564388e-01  3.31722703e-09  4.59564389e-01  4.59564388e-01  4.59564388e-01  4.59564388e-01  1.59423531e-07  1.88589198e-07  9.40000000e-01 
 9.50000000e-01  3.39126188e-09  4.59564377e-01  3.31722709e-09  4.59564377e-01  4.59564377e-01  4.59564377e-01  4.59564377e-01  1.59423516e-07  1.88588970e-07  9.50000000e-01 
 9.60000000e-01  3.39126188e-09  4.59564376e-01  3.31722709e-09  4.59564376e-01  4.59564376e-01  4.59564375e-01  4.59564376e-01  1.59423528e-07  1.88588693e-07  9.60000000e-01 
 9.70000000e-01  3.39126188e-09  4.59564387e-01  3.31722709e-09  4.59564387e-01  4.59564387e-01  4.59564387e-01  4.59564387e-01  1.59423528e-07  1.88588523e-07  9.70000000e-01 
 9.80000000e-01  3.39126188e-09  4.59564391e-01  3.31722709e-09  4.59564391e-01  4.59564391e-01  4.59564391e-01  4.59564391e-01  1.59423545e-07  1.88588359e-07  9.80000000e-01 
 9.90000000e-01  3.39126187e-09  4.59564350e-01  3.31722709e-09  4.59564350e-01  4.59564350e-01  4.59564349e-01  4.59564350e-01  1.59423483e-07  1.88588004e-07  9.90000000e-01 
 1.00000000e+00  3.39126188e-09  4.59564390e-01  3.31722703e-09  4.59564390e-01  4.59564390e-01  4.59564389e-01  4.59564390e-01  1.59423545e-07  1.88587954e-07  1.00000000e+00 
 1.01000000e+00  3.39126188e-09  4.59564371e-01  3.31722703e-09  4.59564372e-01  4.59564371e-01  4.59564371e-01  4.59564371e-01  1.59423501e-07  1.88587777e-07  1.01000000e+00 
 1.02000000e+00  3.39126188e-09  4.59564410e-01  3.31722709e-09  4.59564410e-01  4.59564410e-01  4.59564410e-01  4.59564410e-01  1.59423565e-07  1.88587656e-07  1.02000000e+00 
 1.03000000e+00  3.39126187e-09  4.59564364e-01  3.31722709e-09  4.59564364e-01  4.59564364e-01  4.59564364e-01  4.59564364e-01  1.59423501e-07  1.88587144e-07  1.03000000e+00 
 1.04000000e+00  3.39126188e-09  4.59564395e-01  3.31722703e-09  4.59564396e-01  4.59564395e-01  4.59564395e-01  4.59564395e-01  1.59423550e-07  1.88587180e-07  1.04000000e+00 
 1.05000000e+00  3.39126188e-09  4.59564379e-01  3.31722709e-09  4.59564380e-01  4.59564379e-01  4.59564379e-01  4.59564379e-01  1.59423513e-07  1.88586952e-07  1.05000000e+00 
 1.06000000e+00  3.39126187e-09  4.59564358e-01  3.31722703e-09  4.59564358e-01  4.59564358e-01  4.59564357e-01  4.59564358e-01  1.59423493e-07  1.88586547e-07  1.06000000e+00 
 1.07000000e+00  3.39126188e-09  4.59564371e-01  3.31722709e-09  4.59564371e-01  4.59564371e-01  4.59564371e-01  4.59564371e-01  1.59423510e-07  1.88586441e-07  1.07000000e+00 
 1.08000000e+00  3.39126187e-09  4.59564364e-01  3.31722703e-09  4.59564364e-01  4.59564364e-01  4.59564364e-01  4.59564364e-01  1.59423510e-07  1.88586071e-07  1.08000000e+00 
 1.09000000e+00  3.39126187e-09  4.59564362e-01  3.31722703e-09  4.59564362e-01  4.59564362e-01  4.59564362e-01  4.59564362e-01  1.59423505e-07  1.88586036e-07  1.09000000e+00 
 1.10000000e+00  3.39126188e-09  4.59564380e-01  3.31722703e-09  4.59564380e-01  4.59564380e-01  4.59564380e-01  4.59564380e-01  1.59423522e-07  1.88585851e-07  1.10000000e+00 
