 v-sweep         v(b0)           v(b1)           v(b2)           v(b3)           v(b4)           v(b5)           v(b6)           i(vbias)        i(viout)        v(vout)        
 0.00000000e+00  4.56142787e-01  3.20313185e-09  3.35784331e-09  4.56142788e-01  4.56142788e-01  4.56142788e-01  3.34801311e-09  1.52755524e-07  8.30447582e-08  0.00000000e+00 
 1.00000000e-02  4.56142838e-01  3.20313190e-09  3.35784330e-09  4.56142838e-01  4.56142838e-01  4.56142838e-01  3.34801304e-09  1.52755604e-07  8.30444987e-08  1.00000000e-02 
 2.00000000e-02  4.56142791e-01  3.20313190e-09  3.35784329e-09  4.56142791e-01  4.56142791e-01  4.56142791e-01  3.34801304e-09  1.52755540e-07  8.30441040e-08  2.00000000e-02 
 3.00000000e-02  4.56142796e-01  3.20313190e-09  3.35784329e-09  4.56142796e-01  4.56142796e-01  4.56142796e-01  3.34801304e-09  1.52755536e-07  8.30437386e-08  3.00000000e-02 
 4.00000000e-02  4.56142788e-01  3.20313190e-09  3.35784329e-09  4.56142789e-01  4.56142789e-01  4.56142789e-01  3.34801309e-09  1.52755537e-07  8.30433122e-08  4.00000000e-02 
 5.00000000e-02  4.56142817e-01  3.20313190e-09  3.35784329e-09  4.56142817e-01  4.56142817e-01  4.56142817e-01  3.34801310e-09  1.52755585e-07  8.30430542e-08  5.00000000e-02 
 6.00000000e-02  4.56142826e-01  3.20313190e-09  3.35784329e-09  4.56142826e-01  4.56142826e-01  4.56142826e-01  3.34801304e-09  1.52755577e-07  8.30427087e-08  6.00000000e-02 
 7.00000000e-02  4.56142805e-01  3.20313190e-09  3.35784329e-09  4.56142805e-01  4.56142805e-01  4.56142805e-01  3.34801310e-09  1.52755554e-07  8.30424116e-08  7.00000000e-02 
 8.00000000e-02  4.56142804e-01  3.20313190e-09  3.35784329e-09  4.56142804e-01  4.56142804e-01  4.56142804e-01  3.34801310e-09  1.52755546e-07  8.30421500e-08  8.00000000e-02 
 9.00000000e-02  4.56142794e-01  3.20313190e-09  3.35784329e-09  4.56142794e-01  4.56142794e-01  4.56142794e-01  3.34801310e-09  1.52755527e-07  8.30417912e-08  9.00000000e-02 
 1.00000000e-01  4.56142790e-01  3.20313190e-09  3.35784329e-09  4.56142790e-01  4.56142790e-01  4.56142790e-01  3.34801304e-09  1.52755528e-07  8.30415763e-08  1.00000000e-01 
 1.10000000e-01  4.56142804e-01  3.20313190e-09  3.35784329e-09  4.56142804e-01  4.56142804e-01  4.56142804e-01  3.34801310e-09  1.52755558e-07  8.30413418e-08  1.10000000e-01 
 1.20000000e-01  4.56142819e-01  3.20313190e-09  3.35784329e-09  4.56142819e-01  4.56142819e-01  4.56142819e-01  3.34801304e-09  1.52755580e-07  8.30410762e-08  1.20000000e-01 
 1.30000000e-01  4.56142814e-01  3.20313190e-09  3.35784329e-09  4.56142814e-01  4.56142814e-01  4.56142814e-01  3.34801304e-09  1.52755567e-07  8.30407716e-08  1.30000000e-01 
 1.40000000e-01  4.56142812e-01  3.20313190e-09  3.35784329e-09  4.56142812e-01  4.56142812e-01  4.56142812e-01  3.34801304e-09  1.52755566e-07  8.30406828e-08  1.40000000e-01 
 1.50000000e-01  4.56142809e-01  3.20313190e-09  3.35784329e-09  4.56142809e-01  4.56142809e-01  4.56142809e-01  3.34801304e-09  1.52755572e-07  8.30404545e-08  1.50000000e-01 
 1.60000000e-01  4.56142807e-01  3.20313190e-09  3.35784329e-09  4.56142807e-01  4.56142807e-01  4.56142807e-01  3.34801304e-09  1.52755548e-07  8.30401170e-08  1.60000000e-01 
 1.70000000e-01  4.56142798e-01  3.20313190e-09  3.35784329e-09  4.56142798e-01  4.56142798e-01  4.56142798e-01  3.34801310e-09  1.52755556e-07  8.30399625e-08  1.70000000e-01 
 1.80000000e-01  4.56142818e-01  3.20313190e-09  3.35784329e-09  4.56142818e-01  4.56142818e-01  4.56142818e-01  3.34801304e-09  1.52755578e-07  8.30397777e-08  1.80000000e-01 
 1.90000000e-01  4.56142813e-01  3.20313190e-09  3.35784329e-09  4.56142813e-01  4.56142813e-01  4.56142813e-01  3.34801304e-09  1.52755552e-07  8.30396836e-08  1.90000000e-01 
 2.00000000e-01  4.56142796e-01  3.20313190e-09  3.35784329e-09  4.56142796e-01  4.56142796e-01  4.56142796e-01  3.34801310e-09  1.52755540e-07  8.30394349e-08  2.00000000e-01 
 2.10000000e-01  4.56142778e-01  3.20313190e-09  3.35784329e-09  4.56142779e-01  4.56142778e-01  4.56142778e-01  3.34801304e-09  1.52755527e-07  8.30392235e-08  2.10000000e-01 
 2.20000000e-01  4.56142835e-01  3.20313190e-09  3.35784330e-09  4.56142835e-01  4.56142835e-01  4.56142835e-01  3.34801304e-09  1.52755604e-07  8.30391151e-08  2.20000000e-01 
 2.30000000e-01  4.56142823e-01  3.20313190e-09  3.35784329e-09  4.56142823e-01  4.56142823e-01  4.56142823e-01  3.34801304e-09  1.52755582e-07  8.30390103e-08  2.30000000e-01 
 2.40000000e-01  4.56142792e-01  3.20313190e-09  3.35784329e-09  4.56142792e-01  4.56142792e-01  4.56142792e-01  3.34801304e-09  1.52755529e-07  8.30387901e-08  2.40000000e-01 
 2.50000000e-01  4.56142808e-01  3.20313190e-09  3.35784329e-09  4.56142808e-01  4.56142808e-01  4.56142808e-01  3.34801304e-09  1.52755544e-07  8.30387901e-08  2.50000000e-01 
 2.60000000e-01  4.56142811e-01  3.20313190e-09  3.35784329e-09  4.56142811e-01  4.56142811e-01  4.56142811e-01  3.34801304e-09  1.52755553e-07  8.30385680e-08  2.60000000e-01 
 2.70000000e-01  4.56142810e-01  3.20313190e-09  3.35784329e-09  4.56142810e-01  4.56142810e-01  4.56142810e-01  3.34801310e-09  1.52755573e-07  8.30384401e-08  2.70000000e-01 
 2.80000000e-01  4.56142822e-01  3.20313190e-09  3.35784329e-09  4.56142822e-01  4.56142822e-01  4.56142822e-01  3.34801304e-09  1.52755586e-07  8.30383780e-08  2.80000000e-01 
 2.90000000e-01  4.56142818e-01  3.20313190e-09  3.35784329e-09  4.56142818e-01  4.56142818e-01  4.56142818e-01  3.34801304e-09  1.52755562e-07  8.30382945e-08  2.90000000e-01 
 3.00000000e-01  4.56142800e-01  3.20313190e-09  3.35784329e-09  4.56142800e-01  4.56142800e-01  4.56142800e-01  3.34801310e-09  1.52755544e-07  8.30380706e-08  3.00000000e-01 
 3.10000000e-01  4.56142808e-01  3.20313190e-09  3.35784329e-09  4.56142808e-01  4.56142808e-01  4.56142808e-01  3.34801304e-09  1.52755564e-07  8.30379179e-08  3.10000000e-01 
 3.20000000e-01  4.56142807e-01  3.20313184e-09  3.35784329e-09  4.56142807e-01  4.56142807e-01  4.56142807e-01  3.34801310e-09  1.52755542e-07  8.30378468e-08  3.20000000e-01 
 3.30000000e-01  4.56142794e-01  3.20313190e-09  3.35784329e-09  4.56142794e-01  4.56142794e-01  4.56142794e-01  3.34801310e-09  1.52755563e-07  8.30377331e-08  3.30000000e-01 
 3.40000000e-01  4.56142798e-01  3.20313190e-09  3.35784329e-09  4.56142798e-01  4.56142798e-01  4.56142798e-01  3.34801304e-09  1.52755543e-07  8.30377225e-08  3.40000000e-01 
 3.50000000e-01  4.56142777e-01  3.20313190e-09  3.35784329e-09  4.56142778e-01  4.56142777e-01  4.56142777e-01  3.34801304e-09  1.52755506e-07  8.30374525e-08  3.50000000e-01 
 3.60000000e-01  4.56142803e-01  3.20313190e-09  3.35784323e-09  4.56142803e-01  4.56142803e-01  4.56142803e-01  3.34801310e-09  1.52755544e-07  8.30374560e-08  3.60000000e-01 
 3.70000000e-01  4.56142824e-01  3.20313190e-09  3.35784329e-09  4.56142824e-01  4.56142824e-01  4.56142824e-01  3.34801304e-09  1.52755579e-07  8.30373779e-08  3.70000000e-01 
 3.80000000e-01  4.56142824e-01  3.20313190e-09  3.35784329e-09  4.56142824e-01  4.56142824e-01  4.56142824e-01  3.34801310e-09  1.52755594e-07  8.30373246e-08  3.80000000e-01 
 3.90000000e-01  4.56142811e-01  3.20313190e-09  3.35784329e-09  4.56142812e-01  4.56142811e-01  4.56142811e-01  3.34801304e-09  1.52755573e-07  8.30371540e-08  3.90000000e-01 
 4.00000000e-01  4.56142821e-01  3.20313190e-09  3.35784329e-09  4.56142821e-01  4.56142821e-01  4.56142821e-01  3.34801310e-09  1.52755574e-07  8.30371150e-08  4.00000000e-01 
 4.10000000e-01  4.56142811e-01  3.20313190e-09  3.35784329e-09  4.56142811e-01  4.56142811e-01  4.56142811e-01  3.34801304e-09  1.52755547e-07  8.30370936e-08  4.10000000e-01 
 4.20000000e-01  4.56142809e-01  3.20313184e-09  3.35784329e-09  4.56142809e-01  4.56142809e-01  4.56142809e-01  3.34801310e-09  1.52755574e-07  8.30369622e-08  4.20000000e-01 
 4.30000000e-01  4.56142806e-01  3.20313190e-09  3.35784329e-09  4.56142806e-01  4.56142806e-01  4.56142806e-01  3.34801310e-09  1.52755539e-07  8.30368698e-08  4.30000000e-01 
 4.40000000e-01  4.56142804e-01  3.20313190e-09  3.35784329e-09  4.56142804e-01  4.56142804e-01  4.56142804e-01  3.34801310e-09  1.52755561e-07  8.30367846e-08  4.40000000e-01 
 4.50000000e-01  4.56142816e-01  3.20313190e-09  3.35784329e-09  4.56142816e-01  4.56142816e-01  4.56142816e-01  3.34801304e-09  1.52755566e-07  8.30366389e-08  4.50000000e-01 
 4.60000000e-01  4.56142815e-01  3.20313190e-09  3.35784324e-09  4.56142815e-01  4.56142815e-01  4.56142815e-01  3.34801304e-09  1.52755560e-07  8.30366140e-08  4.60000000e-01 
 4.70000000e-01  4.56142806e-01  3.20313190e-09  3.35784329e-09  4.56142806e-01  4.56142806e-01  4.56142806e-01  3.34801304e-09  1.52755559e-07  8.30364719e-08  4.70000000e-01 
 4.80000000e-01  4.56142797e-01  3.20313190e-09  3.35784329e-09  4.56142797e-01  4.56142797e-01  4.56142797e-01  3.34801304e-09  1.52755536e-07  8.30364115e-08  4.80000000e-01 
 4.90000000e-01  4.56142790e-01  3.20313190e-09  3.35784329e-09  4.56142791e-01  4.56142791e-01  4.56142791e-01  3.34801309e-09  1.52755521e-07  8.30363653e-08  4.90000000e-01 
 5.00000000e-01  4.56142799e-01  3.20313190e-09  3.35784329e-09  4.56142800e-01  4.56142800e-01  4.56142800e-01  3.34801304e-09  1.52755552e-07  8.30363156e-08  5.00000000e-01 
 5.10000000e-01  4.56142808e-01  3.20313190e-09  3.35784329e-09  4.56142808e-01  4.56142808e-01  4.56142808e-01  3.34801304e-09  1.52755555e-07  8.30361451e-08  5.10000000e-01 
 5.20000000e-01  4.56142811e-01  3.20313190e-09  3.35784329e-09  4.56142811e-01  4.56142811e-01  4.56142811e-01  3.34801310e-09  1.52755577e-07  8.30361095e-08  5.20000000e-01 
 5.30000000e-01  4.56142799e-01  3.20313190e-09  3.35784329e-09  4.56142799e-01  4.56142799e-01  4.56142799e-01  3.34801304e-09  1.52755549e-07  8.30360527e-08  5.30000000e-01 
 5.40000000e-01  4.56142796e-01  3.20313190e-09  3.35784329e-09  4.56142796e-01  4.56142796e-01  4.56142796e-01  3.34801310e-09  1.52755547e-07  8.30360030e-08  5.40000000e-01 
 5.50000000e-01  4.56142812e-01  3.20313190e-09  3.35784329e-09  4.56142812e-01  4.56142812e-01  4.56142812e-01  3.34801304e-09  1.52755569e-07  8.30358786e-08  5.50000000e-01 
 5.60000000e-01  4.56142824e-01  3.20313190e-09  3.35784329e-09  4.56142824e-01  4.56142824e-01  4.56142824e-01  3.34801310e-09  1.52755578e-07  8.30359284e-08  5.60000000e-01 
 5.70000000e-01  4.56142815e-01  3.20313190e-09  3.35784329e-09  4.56142815e-01  4.56142815e-01  4.56142815e-01  3.34801310e-09  1.52755557e-07  8.30358644e-08  5.70000000e-01 
 5.80000000e-01  4.56142801e-01  3.20313190e-09  3.35784329e-09  4.56142801e-01  4.56142801e-01  4.56142801e-01  3.34801310e-09  1.52755555e-07  8.30357507e-08  5.80000000e-01 
 5.90000000e-01  4.56142825e-01  3.20313190e-09  3.35784329e-09  4.56142825e-01  4.56142825e-01  4.56142825e-01  3.34801310e-09  1.52755587e-07  8.30356370e-08  5.90000000e-01 
 6.00000000e-01  4.56142819e-01  3.20313190e-09  3.35784329e-09  4.56142820e-01  4.56142819e-01  4.56142819e-01  3.34801310e-09  1.52755579e-07  8.30356086e-08  6.00000000e-01 
 6.10000000e-01  4.56142786e-01  3.20313190e-09  3.35784329e-09  4.56142786e-01  4.56142786e-01  4.56142786e-01  3.34801309e-09  1.52755524e-07  8.30356299e-08  6.10000000e-01 
 6.20000000e-01  4.56142820e-01  3.20313190e-09  3.35784329e-09  4.56142820e-01  4.56142820e-01  4.56142820e-01  3.34801310e-09  1.52755570e-07  8.30355518e-08  6.20000000e-01 
 6.30000000e-01  4.56142824e-01  3.20313190e-09  3.35784329e-09  4.56142825e-01  4.56142825e-01  4.56142825e-01  3.34801310e-09  1.52755589e-07  8.30355589e-08  6.30000000e-01 
 6.40000000e-01  4.56142833e-01  3.20313190e-09  3.35784330e-09  4.56142833e-01  4.56142833e-01  4.56142833e-01  3.34801304e-09  1.52755603e-07  8.30355020e-08  6.40000000e-01 
 6.50000000e-01  4.56142830e-01  3.20313190e-09  3.35784330e-09  4.56142830e-01  4.56142830e-01  4.56142830e-01  3.34801310e-09  1.52755590e-07  8.30352320e-08  6.50000000e-01 
 6.60000000e-01  4.56142806e-01  3.20313196e-09  3.35784329e-09  4.56142807e-01  4.56142807e-01  4.56142807e-01  3.34801304e-09  1.52755548e-07  8.30353173e-08  6.60000000e-01 
 6.70000000e-01  4.56142784e-01  3.20313188e-09  3.35784329e-09  4.56142784e-01  4.56142784e-01  4.56142784e-01  3.34801309e-09  1.52755518e-07  8.30349833e-08  6.70000000e-01 
 6.80000000e-01  4.56142818e-01  3.20313190e-09  3.35784329e-09  4.56142818e-01  4.56142818e-01  4.56142818e-01  3.34801310e-09  1.52755564e-07  8.30351610e-08  6.80000000e-01 
 6.90000000e-01  4.56142810e-01  3.20313190e-09  3.35784329e-09  4.56142811e-01  4.56142811e-01  4.56142811e-01  3.34801310e-09  1.52755560e-07  8.30350118e-08  6.90000000e-01 
 7.00000000e-01  4.56142807e-01  3.20313190e-09  3.35784329e-09  4.56142808e-01  4.56142808e-01  4.56142808e-01  3.34801304e-09  1.52755562e-07  8.30349833e-08  7.00000000e-01 
 7.10000000e-01  4.56142796e-01  3.20313190e-09  3.35784329e-09  4.56142796e-01  4.56142796e-01  4.56142796e-01  3.34801304e-09  1.52755540e-07  8.30347844e-08  7.10000000e-01 
 7.20000000e-01  4.56142789e-01  3.20313190e-09  3.35784329e-09  4.56142789e-01  4.56142789e-01  4.56142789e-01  3.34801309e-09  1.52755519e-07  8.30347275e-08  7.20000000e-01 
 7.30000000e-01  4.56142765e-01  3.20313190e-09  3.35784328e-09  4.56142765e-01  4.56142765e-01  4.56142765e-01  3.34801303e-09  1.52755496e-07  8.30345641e-08  7.30000000e-01 
 7.40000000e-01  4.56142824e-01  3.20313190e-09  3.35784329e-09  4.56142824e-01  4.56142824e-01  4.56142824e-01  3.34801310e-09  1.52755568e-07  8.30347915e-08  7.40000000e-01 
 7.50000000e-01  4.56142783e-01  3.20313190e-09  3.35784329e-09  4.56142784e-01  4.56142784e-01  4.56142784e-01  3.34801304e-09  1.52755523e-07  8.30345925e-08  7.50000000e-01 
 7.60000000e-01  4.56142783e-01  3.20313190e-09  3.35784329e-09  4.56142784e-01  4.56142784e-01  4.56142784e-01  3.34801309e-09  1.52755516e-07  8.30345002e-08  7.60000000e-01 
 7.70000000e-01  4.56142771e-01  3.20313190e-09  3.35784329e-09  4.56142771e-01  4.56142771e-01  4.56142771e-01  3.34801304e-09  1.52755509e-07  8.30344291e-08  7.70000000e-01 
 7.80000000e-01  4.56142833e-01  3.20313190e-09  3.35784330e-09  4.56142833e-01  4.56142833e-01  4.56142833e-01  3.34801310e-09  1.52755580e-07  8.30344788e-08  7.80000000e-01 
 7.90000000e-01  4.56142820e-01  3.20313190e-09  3.35784329e-09  4.56142820e-01  4.56142820e-01  4.56142820e-01  3.34801310e-09  1.52755579e-07  8.30343794e-08  7.90000000e-01 
 8.00000000e-01  4.56142800e-01  3.20313190e-09  3.35784329e-09  4.56142801e-01  4.56142801e-01  4.56142801e-01  3.34801304e-09  1.52755555e-07  8.30341733e-08  8.00000000e-01 
 8.10000000e-01  4.56142774e-01  3.20313190e-09  3.35784329e-09  4.56142774e-01  4.56142774e-01  4.56142774e-01  3.34801309e-09  1.52755522e-07  8.30339886e-08  8.10000000e-01 
 8.20000000e-01  4.56142782e-01  3.20313190e-09  3.35784329e-09  4.56142782e-01  4.56142782e-01  4.56142782e-01  3.34801304e-09  1.52755505e-07  8.30340383e-08  8.20000000e-01 
 8.30000000e-01  4.56142795e-01  3.20313190e-09  3.35784329e-09  4.56142795e-01  4.56142795e-01  4.56142795e-01  3.34801304e-09  1.52755534e-07  8.30340596e-08  8.30000000e-01 
 8.40000000e-01  4.56142782e-01  3.20313190e-09  3.35784329e-09  4.56142782e-01  4.56142782e-01  4.56142782e-01  3.34801304e-09  1.52755531e-07  8.30339673e-08  8.40000000e-01 
 8.50000000e-01  4.56142762e-01  3.20313190e-09  3.35784328e-09  4.56142762e-01  4.56142762e-01  4.56142762e-01  3.34801309e-09  1.52755494e-07  8.30338962e-08  8.50000000e-01 
 8.60000000e-01  4.56142770e-01  3.20313190e-09  3.35784329e-09  4.56142770e-01  4.56142770e-01  4.56142770e-01  3.34801309e-09  1.52755489e-07  8.30338607e-08  8.60000000e-01 
 8.70000000e-01  4.56142780e-01  3.20313190e-09  3.35784329e-09  4.56142780e-01  4.56142780e-01  4.56142780e-01  3.34801304e-09  1.52755520e-07  8.30338038e-08  8.70000000e-01 
 8.80000000e-01  4.56142808e-01  3.20313190e-09  3.35784329e-09  4.56142808e-01  4.56142808e-01  4.56142808e-01  3.34801310e-09  1.52755561e-07  8.30336617e-08  8.80000000e-01 
 8.90000000e-01  4.56142816e-01  3.20313190e-09  3.35784329e-09  4.56142816e-01  4.56142816e-01  4.56142816e-01  3.34801310e-09  1.52755569e-07  8.30336191e-08  8.90000000e-01 
 9.00000000e-01  4.56142809e-01  3.20313190e-09  3.35784329e-09  4.56142810e-01  4.56142809e-01  4.56142809e-01  3.34801304e-09  1.52755562e-07  8.30335409e-08  9.00000000e-01 
 9.10000000e-01  4.56142775e-01  3.20313190e-09  3.35784329e-09  4.56142776e-01  4.56142776e-01  4.56142776e-01  3.34801304e-09  1.52755505e-07  8.30334912e-08  9.10000000e-01 
 9.20000000e-01  4.56142787e-01  3.20313190e-09  3.35784329e-09  4.56142787e-01  4.56142787e-01  4.56142787e-01  3.34801304e-09  1.52755530e-07  8.30334272e-08  9.20000000e-01 
 9.30000000e-01  4.56142812e-01  3.20313190e-09  3.35784329e-09  4.56142812e-01  4.56142812e-01  4.56142812e-01  3.34801304e-09  1.52755564e-07  8.30333065e-08  9.30000000e-01 
 9.40000000e-01  4.56142811e-01  3.20313190e-09  3.35784329e-09  4.56142811e-01  4.56142811e-01  4.56142811e-01  3.34801304e-09  1.52755565e-07  8.30332638e-08  9.40000000e-01 
 9.50000000e-01  4.56142799e-01  3.20313190e-09  3.35784329e-09  4.56142799e-01  4.56142799e-01  4.56142799e-01  3.34801304e-09  1.52755551e-07  8.30332070e-08  9.50000000e-01 
 9.60000000e-01  4.56142787e-01  3.20313190e-09  3.35784329e-09  4.56142787e-01  4.56142787e-01  4.56142787e-01  3.34801304e-09  1.52755532e-07  8.30331501e-08  9.60000000e-01 
 9.70000000e-01  4.56142784e-01  3.20313190e-09  3.35784329e-09  4.56142784e-01  4.56142784e-01  4.56142784e-01  3.34801304e-09  1.52755514e-07  8.30330578e-08  9.70000000e-01 
 9.80000000e-01  4.56142802e-01  3.20313190e-09  3.35784329e-09  4.56142802e-01  4.56142802e-01  4.56142802e-01  3.34801304e-09  1.52755550e-07  8.30329512e-08  9.80000000e-01 
 9.90000000e-01  4.56142813e-01  3.20313190e-09  3.35784329e-09  4.56142813e-01  4.56142813e-01  4.56142813e-01  3.34801310e-09  1.52755569e-07  8.30328304e-08  9.90000000e-01 
 1.00000000e+00  4.56142812e-01  3.20313190e-09  3.35784329e-09  4.56142812e-01  4.56142812e-01  4.56142812e-01  3.34801310e-09  1.52755570e-07  8.30328588e-08  1.00000000e+00 
 1.01000000e+00  4.56142808e-01  3.20313190e-09  3.35784329e-09  4.56142808e-01  4.56142808e-01  4.56142808e-01  3.34801310e-09  1.52755552e-07  8.30326883e-08  1.01000000e+00 
 1.02000000e+00  4.56142799e-01  3.20313190e-09  3.35784329e-09  4.56142799e-01  4.56142799e-01  4.56142799e-01  3.34801304e-09  1.52755544e-07  8.30327167e-08  1.02000000e+00 
 1.03000000e+00  4.56142791e-01  3.20313190e-09  3.35784329e-09  4.56142792e-01  4.56142791e-01  4.56142791e-01  3.34801310e-09  1.52755547e-07  8.30325106e-08  1.03000000e+00 
 1.04000000e+00  4.56142805e-01  3.20313190e-09  3.35784329e-09  4.56142806e-01  4.56142806e-01  4.56142806e-01  3.34801310e-09  1.52755563e-07  8.30325462e-08  1.04000000e+00 
 1.05000000e+00  4.56142784e-01  3.20313190e-09  3.35784329e-09  4.56142784e-01  4.56142784e-01  4.56142784e-01  3.34801309e-09  1.52755512e-07  8.30322975e-08  1.05000000e+00 
 1.06000000e+00  4.56142800e-01  3.20313190e-09  3.35784329e-09  4.56142800e-01  4.56142800e-01  4.56142800e-01  3.34801310e-09  1.52755545e-07  8.30323543e-08  1.06000000e+00 
 1.07000000e+00  4.56142819e-01  3.20313190e-09  3.35784329e-09  4.56142819e-01  4.56142819e-01  4.56142819e-01  3.34801304e-09  1.52755566e-07  8.30323685e-08  1.07000000e+00 
 1.08000000e+00  4.56142810e-01  3.20313190e-09  3.35784329e-09  4.56142810e-01  4.56142810e-01  4.56142810e-01  3.34801310e-09  1.52755561e-07  8.30322264e-08  1.08000000e+00 
 1.09000000e+00  4.56142802e-01  3.20313190e-09  3.35784329e-09  4.56142802e-01  4.56142802e-01  4.56142802e-01  3.34801304e-09  1.52755542e-07  8.30320772e-08  1.09000000e+00 
 1.10000000e+00  4.56142823e-01  3.20313190e-09  3.35784329e-09  4.56142823e-01  4.56142823e-01  4.56142823e-01  3.34801310e-09  1.52755605e-07  8.30320985e-08  1.10000000e+00 
