 v-sweep         v(b0)           v(b1)           v(b2)           v(b3)           v(b4)           v(b5)           v(b6)           i(vbias)        i(viout)        v(vout)        
 0.00000000e+00  3.45548070e-09  4.56659873e-01  3.29721598e-09  4.56659874e-01  3.29097904e-09  4.56659874e-01  3.22969952e-09  1.56784370e-07  6.37544585e-08  0.00000000e+00 
 1.00000000e-02  3.45548073e-09  4.56659889e-01  3.29721595e-09  4.56659889e-01  3.29097906e-09  4.56659889e-01  3.22969949e-09  1.56784411e-07  6.37540069e-08  1.00000000e-02 
 2.00000000e-02  3.45548073e-09  4.56659890e-01  3.29721595e-09  4.56659890e-01  3.29097906e-09  4.56659890e-01  3.22969949e-09  1.56784390e-07  6.37536244e-08  2.00000000e-02 
 3.00000000e-02  3.45548072e-09  4.56659843e-01  3.29721595e-09  4.56659843e-01  3.29097900e-09  4.56659843e-01  3.22969949e-09  1.56784340e-07  6.37531552e-08  3.00000000e-02 
 4.00000000e-02  3.45548072e-09  4.56659869e-01  3.29721595e-09  4.56659869e-01  3.29097907e-09  4.56659869e-01  3.22969949e-09  1.56784372e-07  6.37528923e-08  4.00000000e-02 
 5.00000000e-02  3.45548067e-09  4.56659864e-01  3.29721595e-09  4.56659864e-01  3.29097906e-09  4.56659864e-01  3.22969949e-09  1.56784370e-07  6.37524904e-08  5.00000000e-02 
 6.00000000e-02  3.45548068e-09  4.56659869e-01  3.29721595e-09  4.56659869e-01  3.29097906e-09  4.56659869e-01  3.22969949e-09  1.56784381e-07  6.37522493e-08  6.00000000e-02 
 7.00000000e-02  3.45548068e-09  4.56659895e-01  3.29721595e-09  4.56659895e-01  3.29097906e-09  4.56659895e-01  3.22969949e-09  1.56784404e-07  6.37519686e-08  7.00000000e-02 
 8.00000000e-02  3.45548067e-09  4.56659863e-01  3.29721600e-09  4.56659863e-01  3.29097906e-09  4.56659863e-01  3.22969949e-09  1.56784376e-07  6.37517186e-08  8.00000000e-02 
 9.00000000e-02  3.45548067e-09  4.56659864e-01  3.29721595e-09  4.56659864e-01  3.29097906e-09  4.56659864e-01  3.22969949e-09  1.56784368e-07  6.37513580e-08  9.00000000e-02 
 1.00000000e-01  3.45548067e-09  4.56659866e-01  3.29721595e-09  4.56659866e-01  3.29097906e-09  4.56659866e-01  3.22969949e-09  1.56784370e-07  6.37511022e-08  1.00000000e-01 
 1.10000000e-01  3.45548073e-09  4.56659855e-01  3.29721595e-09  4.56659855e-01  3.29097906e-09  4.56659855e-01  3.22969949e-09  1.56784359e-07  6.37507407e-08  1.10000000e-01 
 1.20000000e-01  3.45548072e-09  4.56659871e-01  3.29721595e-09  4.56659872e-01  3.29097906e-09  4.56659872e-01  3.22969949e-09  1.56784382e-07  6.37506199e-08  1.20000000e-01 
 1.30000000e-01  3.45548067e-09  4.56659896e-01  3.29721595e-09  4.56659896e-01  3.29097906e-09  4.56659896e-01  3.22969949e-09  1.56784412e-07  6.37504236e-08  1.30000000e-01 
 1.40000000e-01  3.45548074e-09  4.56659885e-01  3.29721595e-09  4.56659885e-01  3.29097906e-09  4.56659885e-01  3.22969949e-09  1.56784397e-07  6.37502122e-08  1.40000000e-01 
 1.50000000e-01  3.45548072e-09  4.56659885e-01  3.29721595e-09  4.56659885e-01  3.29097906e-09  4.56659885e-01  3.22969949e-09  1.56784405e-07  6.37499706e-08  1.50000000e-01 
 1.60000000e-01  3.45548073e-09  4.56659885e-01  3.29721595e-09  4.56659885e-01  3.29097906e-09  4.56659885e-01  3.22969949e-09  1.56784399e-07  6.37497450e-08  1.60000000e-01 
 1.70000000e-01  3.45548067e-09  4.56659881e-01  3.29721595e-09  4.56659881e-01  3.29097906e-09  4.56659881e-01  3.22969949e-09  1.56784402e-07  6.37495727e-08  1.70000000e-01 
 1.80000000e-01  3.45548068e-09  4.56659887e-01  3.29721595e-09  4.56659887e-01  3.29097906e-09  4.56659887e-01  3.22969949e-09  1.56784398e-07  6.37493649e-08  1.80000000e-01 
 1.90000000e-01  3.45548073e-09  4.56659889e-01  3.29721595e-09  4.56659889e-01  3.29097906e-09  4.56659889e-01  3.22969949e-09  1.56784404e-07  6.37492032e-08  1.90000000e-01 
 2.00000000e-01  3.45548066e-09  4.56659881e-01  3.29721595e-09  4.56659882e-01  3.29097906e-09  4.56659882e-01  3.22969949e-09  1.56784389e-07  6.37490878e-08  2.00000000e-01 
 2.10000000e-01  3.45548074e-09  4.56659888e-01  3.29721595e-09  4.56659888e-01  3.29097906e-09  4.56659888e-01  3.22969949e-09  1.56784387e-07  6.37489705e-08  2.10000000e-01 
 2.20000000e-01  3.45548072e-09  4.56659870e-01  3.29721595e-09  4.56659870e-01  3.29097906e-09  4.56659870e-01  3.22969949e-09  1.56784365e-07  6.37488107e-08  2.20000000e-01 
 2.30000000e-01  3.45548067e-09  4.56659871e-01  3.29721595e-09  4.56659871e-01  3.29097906e-09  4.56659871e-01  3.22969943e-09  1.56784373e-07  6.37486153e-08  2.30000000e-01 
 2.40000000e-01  3.45548068e-09  4.56659859e-01  3.29721595e-09  4.56659859e-01  3.29097906e-09  4.56659859e-01  3.22969949e-09  1.56784362e-07  6.37484749e-08  2.40000000e-01 
 2.50000000e-01  3.45548073e-09  4.56659856e-01  3.29721595e-09  4.56659856e-01  3.29097906e-09  4.56659856e-01  3.22969949e-09  1.56784348e-07  6.37483595e-08  2.50000000e-01 
 2.60000000e-01  3.45548072e-09  4.56659867e-01  3.29721595e-09  4.56659868e-01  3.29097906e-09  4.56659868e-01  3.22969949e-09  1.56784365e-07  6.37481659e-08  2.60000000e-01 
 2.70000000e-01  3.45548067e-09  4.56659855e-01  3.29721595e-09  4.56659856e-01  3.29097906e-09  4.56659856e-01  3.22969949e-09  1.56784364e-07  6.37481232e-08  2.70000000e-01 
 2.80000000e-01  3.45548068e-09  4.56659887e-01  3.29721595e-09  4.56659887e-01  3.29097906e-09  4.56659887e-01  3.22969949e-09  1.56784393e-07  6.37480237e-08  2.80000000e-01 
 2.90000000e-01  3.45548073e-09  4.56659853e-01  3.29721600e-09  4.56659853e-01  3.29097906e-09  4.56659853e-01  3.22969949e-09  1.56784350e-07  6.37477982e-08  2.90000000e-01 
 3.00000000e-01  3.45548072e-09  4.56659865e-01  3.29721595e-09  4.56659865e-01  3.29097906e-09  4.56659865e-01  3.22969949e-09  1.56784355e-07  6.37477555e-08  3.00000000e-01 
 3.10000000e-01  3.45548067e-09  4.56659887e-01  3.29721595e-09  4.56659887e-01  3.29097901e-09  4.56659887e-01  3.22969949e-09  1.56784402e-07  6.37476916e-08  3.10000000e-01 
 3.20000000e-01  3.45548068e-09  4.56659887e-01  3.29721595e-09  4.56659887e-01  3.29097902e-09  4.56659887e-01  3.22969949e-09  1.56784403e-07  6.37475495e-08  3.20000000e-01 
 3.30000000e-01  3.45548073e-09  4.56659872e-01  3.29721595e-09  4.56659872e-01  3.29097907e-09  4.56659872e-01  3.22969949e-09  1.56784365e-07  6.37474677e-08  3.30000000e-01 
 3.40000000e-01  3.45548066e-09  4.56659841e-01  3.29721595e-09  4.56659842e-01  3.29097905e-09  4.56659842e-01  3.22969949e-09  1.56784333e-07  6.37473185e-08  3.40000000e-01 
 3.50000000e-01  3.45548068e-09  4.56659874e-01  3.29721595e-09  4.56659874e-01  3.29097906e-09  4.56659874e-01  3.22969949e-09  1.56784381e-07  6.37472084e-08  3.50000000e-01 
 3.60000000e-01  3.45548068e-09  4.56659894e-01  3.29721595e-09  4.56659894e-01  3.29097906e-09  4.56659894e-01  3.22969949e-09  1.56784395e-07  6.37472155e-08  3.60000000e-01 
 3.70000000e-01  3.45548073e-09  4.56659891e-01  3.29721595e-09  4.56659891e-01  3.29097906e-09  4.56659891e-01  3.22969949e-09  1.56784411e-07  6.37470556e-08  3.70000000e-01 
 3.80000000e-01  3.45548072e-09  4.56659865e-01  3.29721595e-09  4.56659865e-01  3.29097906e-09  4.56659865e-01  3.22969949e-09  1.56784376e-07  6.37469704e-08  3.80000000e-01 
 3.90000000e-01  3.45548072e-09  4.56659853e-01  3.29721595e-09  4.56659853e-01  3.29097900e-09  4.56659853e-01  3.22969949e-09  1.56784349e-07  6.37469064e-08  3.90000000e-01 
 4.00000000e-01  3.45548072e-09  4.56659869e-01  3.29721595e-09  4.56659869e-01  3.29097907e-09  4.56659869e-01  3.22969949e-09  1.56784373e-07  6.37468567e-08  4.00000000e-01 
 4.10000000e-01  3.45548067e-09  4.56659883e-01  3.29721595e-09  4.56659883e-01  3.29097906e-09  4.56659883e-01  3.22969949e-09  1.56784385e-07  6.37467572e-08  4.10000000e-01 
 4.20000000e-01  3.45548068e-09  4.56659887e-01  3.29721595e-09  4.56659887e-01  3.29097906e-09  4.56659887e-01  3.22969949e-09  1.56784392e-07  6.37467075e-08  4.20000000e-01 
 4.30000000e-01  3.45548073e-09  4.56659876e-01  3.29721595e-09  4.56659877e-01  3.29097906e-09  4.56659877e-01  3.22969949e-09  1.56784393e-07  6.37466293e-08  4.30000000e-01 
 4.40000000e-01  3.45548066e-09  4.56659859e-01  3.29721595e-09  4.56659859e-01  3.29097906e-09  4.56659859e-01  3.22969949e-09  1.56784360e-07  6.37465369e-08  4.40000000e-01 
 4.50000000e-01  3.45548068e-09  4.56659880e-01  3.29721595e-09  4.56659880e-01  3.29097906e-09  4.56659880e-01  3.22969949e-09  1.56784397e-07  6.37465050e-08  4.50000000e-01 
 4.60000000e-01  3.45548073e-09  4.56659866e-01  3.29721595e-09  4.56659866e-01  3.29097906e-09  4.56659866e-01  3.22969949e-09  1.56784361e-07  6.37463948e-08  4.60000000e-01 
 4.70000000e-01  3.45548066e-09  4.56659873e-01  3.29721595e-09  4.56659873e-01  3.29097906e-09  4.56659873e-01  3.22969949e-09  1.56784383e-07  6.37462705e-08  4.70000000e-01 
 4.80000000e-01  3.45548068e-09  4.56659892e-01  3.29721595e-09  4.56659892e-01  3.29097906e-09  4.56659892e-01  3.22969949e-09  1.56784412e-07  6.37462847e-08  4.80000000e-01 
 4.90000000e-01  3.45548073e-09  4.56659896e-01  3.29721595e-09  4.56659897e-01  3.29097906e-09  4.56659897e-01  3.22969949e-09  1.56784414e-07  6.37461568e-08  4.90000000e-01 
 5.00000000e-01  3.45548072e-09  4.56659870e-01  3.29721595e-09  4.56659870e-01  3.29097906e-09  4.56659870e-01  3.22969949e-09  1.56784364e-07  6.37460609e-08  5.00000000e-01 
 5.10000000e-01  3.45548067e-09  4.56659876e-01  3.29721595e-09  4.56659876e-01  3.29097906e-09  4.56659876e-01  3.22969949e-09  1.56784385e-07  6.37460680e-08  5.10000000e-01 
 5.20000000e-01  3.45548074e-09  4.56659887e-01  3.29721595e-09  4.56659888e-01  3.29097901e-09  4.56659888e-01  3.22969949e-09  1.56784399e-07  6.37459578e-08  5.20000000e-01 
 5.30000000e-01  3.45548066e-09  4.56659900e-01  3.29721595e-09  4.56659900e-01  3.29097902e-09  4.56659900e-01  3.22969949e-09  1.56784429e-07  6.37458477e-08  5.30000000e-01 
 5.40000000e-01  3.45548068e-09  4.56659872e-01  3.29721595e-09  4.56659872e-01  3.29097907e-09  4.56659873e-01  3.22969949e-09  1.56784369e-07  6.37457411e-08  5.40000000e-01 
 5.50000000e-01  3.45548073e-09  4.56659894e-01  3.29721595e-09  4.56659895e-01  3.29097906e-09  4.56659895e-01  3.22969949e-09  1.56784399e-07  6.37457589e-08  5.50000000e-01 
 5.60000000e-01  3.45548066e-09  4.56659876e-01  3.29721595e-09  4.56659876e-01  3.29097906e-09  4.56659876e-01  3.22969949e-09  1.56784385e-07  6.37456630e-08  5.60000000e-01 
 5.70000000e-01  3.45548068e-09  4.56659865e-01  3.29721595e-09  4.56659865e-01  3.29097906e-09  4.56659865e-01  3.22969949e-09  1.56784371e-07  6.37456061e-08  5.70000000e-01 
 5.80000000e-01  3.45548073e-09  4.56659886e-01  3.29721595e-09  4.56659886e-01  3.29097906e-09  4.56659886e-01  3.22969949e-09  1.56784400e-07  6.37457021e-08  5.80000000e-01 
 5.90000000e-01  3.45548072e-09  4.56659878e-01  3.29721595e-09  4.56659878e-01  3.29097906e-09  4.56659878e-01  3.22969949e-09  1.56784386e-07  6.37455244e-08  5.90000000e-01 
 6.00000000e-01  3.45548073e-09  4.56659897e-01  3.29721595e-09  4.56659897e-01  3.29097906e-09  4.56659897e-01  3.22969949e-09  1.56784419e-07  6.37455457e-08  6.00000000e-01 
 6.10000000e-01  3.45548067e-09  4.56659860e-01  3.29721595e-09  4.56659860e-01  3.29097906e-09  4.56659860e-01  3.22969949e-09  1.56784348e-07  6.37453397e-08  6.10000000e-01 
 6.20000000e-01  3.45548068e-09  4.56659886e-01  3.29721595e-09  4.56659886e-01  3.29097906e-09  4.56659886e-01  3.22969949e-09  1.56784398e-07  6.37453752e-08  6.20000000e-01 
 6.30000000e-01  3.45548073e-09  4.56659891e-01  3.29721595e-09  4.56659891e-01  3.29097906e-09  4.56659891e-01  3.22969949e-09  1.56784400e-07  6.37452970e-08  6.30000000e-01 
 6.40000000e-01  3.45548072e-09  4.56659896e-01  3.29721595e-09  4.56659896e-01  3.29097906e-09  4.56659896e-01  3.22969949e-09  1.56784402e-07  6.37451762e-08  6.40000000e-01 
 6.50000000e-01  3.45548073e-09  4.56659881e-01  3.29721595e-09  4.56659881e-01  3.29097906e-09  4.56659881e-01  3.22969949e-09  1.56784387e-07  6.37450270e-08  6.50000000e-01 
 6.60000000e-01  3.45548072e-09  4.56659863e-01  3.29721600e-09  4.56659863e-01  3.29097906e-09  4.56659863e-01  3.22969949e-09  1.56784369e-07  6.37450270e-08  6.60000000e-01 
 6.70000000e-01  3.45548073e-09  4.56659889e-01  3.29721595e-09  4.56659889e-01  3.29097906e-09  4.56659889e-01  3.22969949e-09  1.56784407e-07  6.37450484e-08  6.70000000e-01 
 6.80000000e-01  3.45548072e-09  4.56659850e-01  3.29721595e-09  4.56659850e-01  3.29097906e-09  4.56659850e-01  3.22969949e-09  1.56784339e-07  6.37449702e-08  6.80000000e-01 
 6.90000000e-01  3.45548072e-09  4.56659864e-01  3.29721595e-09  4.56659865e-01  3.29097906e-09  4.56659865e-01  3.22969949e-09  1.56784365e-07  6.37448494e-08  6.90000000e-01 
 7.00000000e-01  3.45548073e-09  4.56659882e-01  3.29721595e-09  4.56659882e-01  3.29097906e-09  4.56659882e-01  3.22969949e-09  1.56784403e-07  6.37447286e-08  7.00000000e-01 
 7.10000000e-01  3.45548072e-09  4.56659844e-01  3.29721595e-09  4.56659844e-01  3.29097906e-09  4.56659844e-01  3.22969949e-09  1.56784337e-07  6.37446718e-08  7.10000000e-01 
 7.20000000e-01  3.45548067e-09  4.56659875e-01  3.29721595e-09  4.56659875e-01  3.29097906e-09  4.56659875e-01  3.22969949e-09  1.56784370e-07  6.37446789e-08  7.20000000e-01 
 7.30000000e-01  3.45548068e-09  4.56659883e-01  3.29721595e-09  4.56659883e-01  3.29097906e-09  4.56659883e-01  3.22969949e-09  1.56784396e-07  6.37445652e-08  7.30000000e-01 
 7.40000000e-01  3.45548073e-09  4.56659873e-01  3.29721595e-09  4.56659873e-01  3.29097906e-09  4.56659873e-01  3.22969949e-09  1.56784382e-07  6.37445297e-08  7.40000000e-01 
 7.50000000e-01  3.45548066e-09  4.56659885e-01  3.29721595e-09  4.56659885e-01  3.29097901e-09  4.56659885e-01  3.22969949e-09  1.56784389e-07  6.37445510e-08  7.50000000e-01 
 7.60000000e-01  3.45548068e-09  4.56659850e-01  3.29721595e-09  4.56659850e-01  3.29097902e-09  4.56659850e-01  3.22969949e-09  1.56784346e-07  6.37445154e-08  7.60000000e-01 
 7.70000000e-01  3.45548073e-09  4.56659876e-01  3.29721595e-09  4.56659876e-01  3.29097907e-09  4.56659876e-01  3.22969949e-09  1.56784378e-07  6.37442881e-08  7.70000000e-01 
 7.80000000e-01  3.45548072e-09  4.56659878e-01  3.29721595e-09  4.56659878e-01  3.29097906e-09  4.56659878e-01  3.22969949e-09  1.56784384e-07  6.37443165e-08  7.80000000e-01 
 7.90000000e-01  3.45548073e-09  4.56659882e-01  3.29721595e-09  4.56659882e-01  3.29097906e-09  4.56659882e-01  3.22969949e-09  1.56784408e-07  6.37442668e-08  7.90000000e-01 
 8.00000000e-01  3.45548073e-09  4.56659883e-01  3.29721595e-09  4.56659883e-01  3.29097901e-09  4.56659883e-01  3.22969949e-09  1.56784396e-07  6.37441886e-08  8.00000000e-01 
 8.10000000e-01  3.45548067e-09  4.56659892e-01  3.29721595e-09  4.56659892e-01  3.29097908e-09  4.56659892e-01  3.22969949e-09  1.56784414e-07  6.37442241e-08  8.10000000e-01 
 8.20000000e-01  3.45548073e-09  4.56659857e-01  3.29721595e-09  4.56659857e-01  3.29097906e-09  4.56659857e-01  3.22969949e-09  1.56784347e-07  6.37441175e-08  8.20000000e-01 
 8.30000000e-01  3.45548066e-09  4.56659881e-01  3.29721595e-09  4.56659881e-01  3.29097906e-09  4.56659881e-01  3.22969949e-09  1.56784398e-07  6.37440465e-08  8.30000000e-01 
 8.40000000e-01  3.45548068e-09  4.56659875e-01  3.29721595e-09  4.56659875e-01  3.29097901e-09  4.56659875e-01  3.22969949e-09  1.56784385e-07  6.37440820e-08  8.40000000e-01 
 8.50000000e-01  3.45548074e-09  4.56659912e-01  3.29721595e-09  4.56659913e-01  3.29097902e-09  4.56659913e-01  3.22969949e-09  1.56784442e-07  6.37439541e-08  8.50000000e-01 
 8.60000000e-01  3.45548072e-09  4.56659869e-01  3.29721595e-09  4.56659869e-01  3.29097901e-09  4.56659869e-01  3.22969949e-09  1.56784364e-07  6.37439257e-08  8.60000000e-01 
 8.70000000e-01  3.45548067e-09  4.56659896e-01  3.29721595e-09  4.56659897e-01  3.29097907e-09  4.56659897e-01  3.22969949e-09  1.56784415e-07  6.37437978e-08  8.70000000e-01 
 8.80000000e-01  3.45548068e-09  4.56659875e-01  3.29721595e-09  4.56659875e-01  3.29097906e-09  4.56659875e-01  3.22969949e-09  1.56784377e-07  6.37436983e-08  8.80000000e-01 
 8.90000000e-01  3.45548067e-09  4.56659872e-01  3.29721595e-09  4.56659872e-01  3.29097906e-09  4.56659872e-01  3.22969949e-09  1.56784374e-07  6.37436202e-08  8.90000000e-01 
 9.00000000e-01  3.45548067e-09  4.56659861e-01  3.29721595e-09  4.56659861e-01  3.29097906e-09  4.56659861e-01  3.22969949e-09  1.56784387e-07  6.37435633e-08  9.00000000e-01 
 9.10000000e-01  3.45548073e-09  4.56659882e-01  3.29721595e-09  4.56659882e-01  3.29097906e-09  4.56659883e-01  3.22969949e-09  1.56784402e-07  6.37434425e-08  9.10000000e-01 
 9.20000000e-01  3.45548066e-09  4.56659882e-01  3.29721595e-09  4.56659883e-01  3.29097906e-09  4.56659883e-01  3.22969949e-09  1.56784392e-07  6.37433430e-08  9.20000000e-01 
 9.30000000e-01  3.45548074e-09  4.56659863e-01  3.29721595e-09  4.56659863e-01  3.29097906e-09  4.56659863e-01  3.22969949e-09  1.56784365e-07  6.37433146e-08  9.30000000e-01 
 9.40000000e-01  3.45548072e-09  4.56659875e-01  3.29721595e-09  4.56659875e-01  3.29097906e-09  4.56659875e-01  3.22969949e-09  1.56784385e-07  6.37432791e-08  9.40000000e-01 
 9.50000000e-01  3.45548072e-09  4.56659874e-01  3.29721595e-09  4.56659874e-01  3.29097906e-09  4.56659874e-01  3.22969949e-09  1.56784381e-07  6.37431938e-08  9.50000000e-01 
 9.60000000e-01  3.45548073e-09  4.56659891e-01  3.29721595e-09  4.56659891e-01  3.29097901e-09  4.56659891e-01  3.22969949e-09  1.56784403e-07  6.37431299e-08  9.60000000e-01 
 9.70000000e-01  3.45548072e-09  4.56659854e-01  3.29721595e-09  4.56659854e-01  3.29097902e-09  4.56659854e-01  3.22969949e-09  1.56784343e-07  6.37431086e-08  9.70000000e-01 
 9.80000000e-01  3.45548067e-09  4.56659866e-01  3.29721595e-09  4.56659866e-01  3.29097907e-09  4.56659866e-01  3.22969949e-09  1.56784372e-07  6.37429522e-08  9.80000000e-01 
 9.90000000e-01  3.45548068e-09  4.56659876e-01  3.29721595e-09  4.56659876e-01  3.29097906e-09  4.56659876e-01  3.22969949e-09  1.56784373e-07  6.37429309e-08  9.90000000e-01 
 1.00000000e+00  3.45548073e-09  4.56659866e-01  3.29721595e-09  4.56659866e-01  3.29097900e-09  4.56659866e-01  3.22969949e-09  1.56784376e-07  6.37428599e-08  1.00000000e+00 
 1.01000000e+00  3.45548066e-09  4.56659849e-01  3.29721595e-09  4.56659849e-01  3.29097907e-09  4.56659849e-01  3.22969949e-09  1.56784339e-07  6.37427249e-08  1.01000000e+00 
 1.02000000e+00  3.45548068e-09  4.56659885e-01  3.29721595e-09  4.56659885e-01  3.29097906e-09  4.56659885e-01  3.22969949e-09  1.56784389e-07  6.37427036e-08  1.02000000e+00 
 1.03000000e+00  3.45548073e-09  4.56659886e-01  3.29721595e-09  4.56659886e-01  3.29097906e-09  4.56659886e-01  3.22969949e-09  1.56784392e-07  6.37427817e-08  1.03000000e+00 
 1.04000000e+00  3.45548072e-09  4.56659880e-01  3.29721595e-09  4.56659880e-01  3.29097906e-09  4.56659880e-01  3.22969949e-09  1.56784391e-07  6.37425046e-08  1.04000000e+00 
 1.05000000e+00  3.45548067e-09  4.56659886e-01  3.29721595e-09  4.56659887e-01  3.29097906e-09  4.56659887e-01  3.22969949e-09  1.56784399e-07  6.37425686e-08  1.05000000e+00 
 1.06000000e+00  3.45548074e-09  4.56659903e-01  3.29721595e-09  4.56659903e-01  3.29097906e-09  4.56659903e-01  3.22969949e-09  1.56784442e-07  6.37425330e-08  1.06000000e+00 
 1.07000000e+00  3.45548072e-09  4.56659871e-01  3.29721595e-09  4.56659871e-01  3.29097906e-09  4.56659871e-01  3.22969949e-09  1.56784373e-07  6.37422914e-08  1.07000000e+00 
 1.08000000e+00  3.45548072e-09  4.56659870e-01  3.29721595e-09  4.56659870e-01  3.29097906e-09  4.56659870e-01  3.22969949e-09  1.56784378e-07  6.37422914e-08  1.08000000e+00 
 1.09000000e+00  3.45548067e-09  4.56659869e-01  3.29721595e-09  4.56659869e-01  3.29097906e-09  4.56659869e-01  3.22969949e-09  1.56784379e-07  6.37421920e-08  1.09000000e+00 
 1.10000000e+00  3.45548074e-09  4.56659907e-01  3.29721595e-09  4.56659908e-01  3.29097906e-09  4.56659908e-01  3.22969949e-09  1.56784428e-07  6.37423909e-08  1.10000000e+00 
