 v-sweep         v(b0)           v(b1)           v(b2)           v(b3)           v(b4)           v(b5)           v(b6)           i(vbias)        i(viout)        v(vout)        
 0.00000000e+00  3.23322130e-09  4.57383662e-01  4.57383662e-01  4.57383662e-01  3.22072483e-09  4.57383662e-01  4.57383662e-01  1.56391846e-07  1.69219675e-07  0.00000000e+00 
 1.00000000e-02  3.23322133e-09  4.57383654e-01  4.57383654e-01  4.57383654e-01  3.22072487e-09  4.57383655e-01  4.57383654e-01  1.56391827e-07  1.69219224e-07  1.00000000e-02 
 2.00000000e-02  3.23322128e-09  4.57383664e-01  4.57383664e-01  4.57383665e-01  3.22072487e-09  4.57383665e-01  4.57383664e-01  1.56391846e-07  1.69218885e-07  2.00000000e-02 
 3.00000000e-02  3.23322128e-09  4.57383663e-01  4.57383663e-01  4.57383663e-01  3.22072481e-09  4.57383663e-01  4.57383663e-01  1.56391832e-07  1.69218421e-07  3.00000000e-02 
 4.00000000e-02  3.23322128e-09  4.57383651e-01  4.57383651e-01  4.57383651e-01  3.22072481e-09  4.57383651e-01  4.57383651e-01  1.56391823e-07  1.69217955e-07  4.00000000e-02 
 5.00000000e-02  3.23322128e-09  4.57383655e-01  4.57383655e-01  4.57383655e-01  3.22072487e-09  4.57383655e-01  4.57383655e-01  1.56391827e-07  1.69217514e-07  5.00000000e-02 
 6.00000000e-02  3.23322133e-09  4.57383652e-01  4.57383652e-01  4.57383652e-01  3.22072487e-09  4.57383652e-01  4.57383652e-01  1.56391832e-07  1.69217161e-07  6.00000000e-02 
 7.00000000e-02  3.23322134e-09  4.57383680e-01  4.57383680e-01  4.57383680e-01  3.22072487e-09  4.57383680e-01  4.57383680e-01  1.56391852e-07  1.69216914e-07  7.00000000e-02 
 8.00000000e-02  3.23322133e-09  4.57383663e-01  4.57383663e-01  4.57383663e-01  3.22072481e-09  4.57383663e-01  4.57383663e-01  1.56391823e-07  1.69216631e-07  8.00000000e-02 
 9.00000000e-02  3.23322128e-09  4.57383660e-01  4.57383660e-01  4.57383660e-01  3.22072481e-09  4.57383660e-01  4.57383660e-01  1.56391840e-07  1.69216252e-07  9.00000000e-02 
 1.00000000e-01  3.23322128e-09  4.57383659e-01  4.57383659e-01  4.57383659e-01  3.22072487e-09  4.57383659e-01  4.57383659e-01  1.56391829e-07  1.69215929e-07  1.00000000e-01 
 1.10000000e-01  3.23322128e-09  4.57383633e-01  4.57383633e-01  4.57383633e-01  3.22072481e-09  4.57383633e-01  4.57383633e-01  1.56391802e-07  1.69215466e-07  1.10000000e-01 
 1.20000000e-01  3.23322128e-09  4.57383648e-01  4.57383648e-01  4.57383648e-01  3.22072481e-09  4.57383648e-01  4.57383648e-01  1.56391813e-07  1.69215299e-07  1.20000000e-01 
 1.30000000e-01  3.23322128e-09  4.57383697e-01  4.57383697e-01  4.57383697e-01  3.22072482e-09  4.57383697e-01  4.57383697e-01  1.56391882e-07  1.69215154e-07  1.30000000e-01 
 1.40000000e-01  3.23322133e-09  4.57383646e-01  4.57383646e-01  4.57383646e-01  3.22072487e-09  4.57383646e-01  4.57383646e-01  1.56391806e-07  1.69214760e-07  1.40000000e-01 
 1.50000000e-01  3.23322128e-09  4.57383665e-01  4.57383665e-01  4.57383665e-01  3.22072481e-09  4.57383665e-01  4.57383665e-01  1.56391832e-07  1.69214523e-07  1.50000000e-01 
 1.60000000e-01  3.23322128e-09  4.57383670e-01  4.57383670e-01  4.57383670e-01  3.22072487e-09  4.57383670e-01  4.57383670e-01  1.56391851e-07  1.69214232e-07  1.60000000e-01 
 1.70000000e-01  3.23322128e-09  4.57383661e-01  4.57383661e-01  4.57383661e-01  3.22072487e-09  4.57383661e-01  4.57383661e-01  1.56391831e-07  1.69214008e-07  1.70000000e-01 
 1.80000000e-01  3.23322128e-09  4.57383652e-01  4.57383652e-01  4.57383652e-01  3.22072481e-09  4.57383652e-01  4.57383652e-01  1.56391815e-07  1.69213639e-07  1.80000000e-01 
 1.90000000e-01  3.23322128e-09  4.57383634e-01  4.57383634e-01  4.57383634e-01  3.22072481e-09  4.57383634e-01  4.57383634e-01  1.56391787e-07  1.69213367e-07  1.90000000e-01 
 2.00000000e-01  3.23322128e-09  4.57383654e-01  4.57383654e-01  4.57383654e-01  3.22072487e-09  4.57383654e-01  4.57383654e-01  1.56391818e-07  1.69213212e-07  2.00000000e-01 
 2.10000000e-01  3.23322128e-09  4.57383667e-01  4.57383667e-01  4.57383667e-01  3.22072481e-09  4.57383667e-01  4.57383667e-01  1.56391837e-07  1.69213040e-07  2.10000000e-01 
 2.20000000e-01  3.23322133e-09  4.57383662e-01  4.57383662e-01  4.57383662e-01  3.22072487e-09  4.57383662e-01  4.57383662e-01  1.56391827e-07  1.69212905e-07  2.20000000e-01 
 2.30000000e-01  3.23322128e-09  4.57383682e-01  4.57383682e-01  4.57383682e-01  3.22072487e-09  4.57383682e-01  4.57383682e-01  1.56391848e-07  1.69212722e-07  2.30000000e-01 
 2.40000000e-01  3.23322128e-09  4.57383648e-01  4.57383648e-01  4.57383649e-01  3.22072487e-09  4.57383649e-01  4.57383648e-01  1.56391813e-07  1.69212353e-07  2.40000000e-01 
 2.50000000e-01  3.23322128e-09  4.57383648e-01  4.57383648e-01  4.57383648e-01  3.22072481e-09  4.57383648e-01  4.57383648e-01  1.56391804e-07  1.69212091e-07  2.50000000e-01 
 2.60000000e-01  3.23322128e-09  4.57383669e-01  4.57383669e-01  4.57383669e-01  3.22072481e-09  4.57383669e-01  4.57383669e-01  1.56391848e-07  1.69212267e-07  2.60000000e-01 
 2.70000000e-01  3.23322133e-09  4.57383644e-01  4.57383644e-01  4.57383644e-01  3.22072481e-09  4.57383644e-01  4.57383644e-01  1.56391808e-07  1.69211797e-07  2.70000000e-01 
 2.80000000e-01  3.23322134e-09  4.57383677e-01  4.57383677e-01  4.57383678e-01  3.22072487e-09  4.57383678e-01  4.57383678e-01  1.56391855e-07  1.69211775e-07  2.80000000e-01 
 2.90000000e-01  3.23322128e-09  4.57383651e-01  4.57383651e-01  4.57383651e-01  3.22072481e-09  4.57383651e-01  4.57383651e-01  1.56391815e-07  1.69211475e-07  2.90000000e-01 
 3.00000000e-01  3.23322134e-09  4.57383678e-01  4.57383678e-01  4.57383678e-01  3.22072481e-09  4.57383678e-01  4.57383678e-01  1.56391864e-07  1.69211393e-07  3.00000000e-01 
 3.10000000e-01  3.23322133e-09  4.57383658e-01  4.57383658e-01  4.57383658e-01  3.22072481e-09  4.57383658e-01  4.57383658e-01  1.56391824e-07  1.69211233e-07  3.10000000e-01 
 3.20000000e-01  3.23322133e-09  4.57383671e-01  4.57383671e-01  4.57383671e-01  3.22072487e-09  4.57383671e-01  4.57383671e-01  1.56391848e-07  1.69211070e-07  3.20000000e-01 
 3.30000000e-01  3.23322128e-09  4.57383677e-01  4.57383677e-01  4.57383677e-01  3.22072481e-09  4.57383677e-01  4.57383677e-01  1.56391859e-07  1.69210960e-07  3.30000000e-01 
 3.40000000e-01  3.23322128e-09  4.57383658e-01  4.57383658e-01  4.57383658e-01  3.22072487e-09  4.57383658e-01  4.57383658e-01  1.56391832e-07  1.69210693e-07  3.40000000e-01 
 3.50000000e-01  3.23322128e-09  4.57383677e-01  4.57383677e-01  4.57383678e-01  3.22072481e-09  4.57383678e-01  4.57383677e-01  1.56391856e-07  1.69210686e-07  3.50000000e-01 
 3.60000000e-01  3.23322128e-09  4.57383656e-01  4.57383656e-01  4.57383656e-01  3.22072487e-09  4.57383656e-01  4.57383656e-01  1.56391825e-07  1.69210420e-07  3.60000000e-01 
 3.70000000e-01  3.23322128e-09  4.57383660e-01  4.57383660e-01  4.57383660e-01  3.22072481e-09  4.57383660e-01  4.57383660e-01  1.56391839e-07  1.69210324e-07  3.70000000e-01 
 3.80000000e-01  3.23322128e-09  4.57383663e-01  4.57383663e-01  4.57383663e-01  3.22072481e-09  4.57383663e-01  4.57383663e-01  1.56391846e-07  1.69210132e-07  3.80000000e-01 
 3.90000000e-01  3.23322133e-09  4.57383673e-01  4.57383673e-01  4.57383673e-01  3.22072487e-09  4.57383673e-01  4.57383673e-01  1.56391865e-07  1.69210029e-07  3.90000000e-01 
 4.00000000e-01  3.23322128e-09  4.57383664e-01  4.57383664e-01  4.57383664e-01  3.22072481e-09  4.57383664e-01  4.57383664e-01  1.56391835e-07  1.69209844e-07  4.00000000e-01 
 4.10000000e-01  3.23322133e-09  4.57383661e-01  4.57383661e-01  4.57383661e-01  3.22072481e-09  4.57383661e-01  4.57383661e-01  1.56391825e-07  1.69209677e-07  4.10000000e-01 
 4.20000000e-01  3.23322134e-09  4.57383689e-01  4.57383689e-01  4.57383689e-01  3.22072481e-09  4.57383689e-01  4.57383689e-01  1.56391870e-07  1.69209656e-07  4.20000000e-01 
 4.30000000e-01  3.23322128e-09  4.57383659e-01  4.57383659e-01  4.57383659e-01  3.22072487e-09  4.57383659e-01  4.57383659e-01  1.56391827e-07  1.69209461e-07  4.30000000e-01 
 4.40000000e-01  3.23322128e-09  4.57383660e-01  4.57383660e-01  4.57383660e-01  3.22072481e-09  4.57383660e-01  4.57383660e-01  1.56391824e-07  1.69209304e-07  4.40000000e-01 
 4.50000000e-01  3.23322128e-09  4.57383657e-01  4.57383657e-01  4.57383657e-01  3.22072481e-09  4.57383657e-01  4.57383657e-01  1.56391832e-07  1.69209191e-07  4.50000000e-01 
 4.60000000e-01  3.23322133e-09  4.57383661e-01  4.57383661e-01  4.57383661e-01  3.22072481e-09  4.57383661e-01  4.57383661e-01  1.56391825e-07  1.69209041e-07  4.60000000e-01 
 4.70000000e-01  3.23322128e-09  4.57383667e-01  4.57383667e-01  4.57383667e-01  3.22072481e-09  4.57383667e-01  4.57383667e-01  1.56391835e-07  1.69208942e-07  4.70000000e-01 
 4.80000000e-01  3.23322134e-09  4.57383680e-01  4.57383680e-01  4.57383680e-01  3.22072487e-09  4.57383680e-01  4.57383680e-01  1.56391875e-07  1.69208857e-07  4.80000000e-01 
 4.90000000e-01  3.23322128e-09  4.57383659e-01  4.57383659e-01  4.57383659e-01  3.22072481e-09  4.57383659e-01  4.57383659e-01  1.56391837e-07  1.69208644e-07  4.90000000e-01 
 5.00000000e-01  3.23322128e-09  4.57383677e-01  4.57383677e-01  4.57383677e-01  3.22072481e-09  4.57383677e-01  4.57383677e-01  1.56391857e-07  1.69208629e-07  5.00000000e-01 
 5.10000000e-01  3.23322128e-09  4.57383651e-01  4.57383651e-01  4.57383651e-01  3.22072487e-09  4.57383651e-01  4.57383651e-01  1.56391821e-07  1.69208359e-07  5.10000000e-01 
 5.20000000e-01  3.23322128e-09  4.57383647e-01  4.57383647e-01  4.57383647e-01  3.22072487e-09  4.57383647e-01  4.57383647e-01  1.56391802e-07  1.69208164e-07  5.20000000e-01 
 5.30000000e-01  3.23322133e-09  4.57383651e-01  4.57383651e-01  4.57383651e-01  3.22072487e-09  4.57383651e-01  4.57383651e-01  1.56391826e-07  1.69208111e-07  5.30000000e-01 
 5.40000000e-01  3.23322133e-09  4.57383653e-01  4.57383653e-01  4.57383653e-01  3.22072481e-09  4.57383653e-01  4.57383653e-01  1.56391820e-07  1.69208004e-07  5.40000000e-01 
 5.50000000e-01  3.23322134e-09  4.57383679e-01  4.57383679e-01  4.57383679e-01  3.22072487e-09  4.57383679e-01  4.57383679e-01  1.56391866e-07  1.69208011e-07  5.50000000e-01 
 5.60000000e-01  3.23322133e-09  4.57383660e-01  4.57383660e-01  4.57383660e-01  3.22072481e-09  4.57383660e-01  4.57383660e-01  1.56391839e-07  1.69207748e-07  5.60000000e-01 
 5.70000000e-01  3.23322133e-09  4.57383673e-01  4.57383673e-01  4.57383673e-01  3.22072481e-09  4.57383673e-01  4.57383673e-01  1.56391850e-07  1.69207702e-07  5.70000000e-01 
 5.80000000e-01  3.23322128e-09  4.57383621e-01  4.57383621e-01  4.57383621e-01  3.22072481e-09  4.57383621e-01  4.57383621e-01  1.56391769e-07  1.69207311e-07  5.80000000e-01 
 5.90000000e-01  3.23322128e-09  4.57383659e-01  4.57383659e-01  4.57383659e-01  3.22072481e-09  4.57383659e-01  4.57383659e-01  1.56391814e-07  1.69207311e-07  5.90000000e-01 
 6.00000000e-01  3.23322128e-09  4.57383673e-01  4.57383673e-01  4.57383673e-01  3.22072487e-09  4.57383673e-01  4.57383673e-01  1.56391848e-07  1.69207283e-07  6.00000000e-01 
 6.10000000e-01  3.23322128e-09  4.57383661e-01  4.57383661e-01  4.57383661e-01  3.22072487e-09  4.57383661e-01  4.57383661e-01  1.56391823e-07  1.69207098e-07  6.10000000e-01 
 6.20000000e-01  3.23322128e-09  4.57383662e-01  4.57383662e-01  4.57383662e-01  3.22072487e-09  4.57383662e-01  4.57383662e-01  1.56391834e-07  1.69206892e-07  6.20000000e-01 
 6.30000000e-01  3.23322128e-09  4.57383638e-01  4.57383638e-01  4.57383638e-01  3.22072487e-09  4.57383638e-01  4.57383638e-01  1.56391808e-07  1.69206956e-07  6.30000000e-01 
 6.40000000e-01  3.23322128e-09  4.57383665e-01  4.57383665e-01  4.57383665e-01  3.22072481e-09  4.57383665e-01  4.57383665e-01  1.56391841e-07  1.69206764e-07  6.40000000e-01 
 6.50000000e-01  3.23322128e-09  4.57383691e-01  4.57383691e-01  4.57383691e-01  3.22072487e-09  4.57383691e-01  4.57383691e-01  1.56391874e-07  1.69206722e-07  6.50000000e-01 
 6.60000000e-01  3.23322133e-09  4.57383641e-01  4.57383641e-01  4.57383641e-01  3.22072487e-09  4.57383641e-01  4.57383641e-01  1.56391796e-07  1.69206452e-07  6.60000000e-01 
 6.70000000e-01  3.23322133e-09  4.57383663e-01  4.57383663e-01  4.57383663e-01  3.22072487e-09  4.57383663e-01  4.57383663e-01  1.56391847e-07  1.69206366e-07  6.70000000e-01 
 6.80000000e-01  3.23322133e-09  4.57383648e-01  4.57383648e-01  4.57383648e-01  3.22072481e-09  4.57383648e-01  4.57383648e-01  1.56391811e-07  1.69206146e-07  6.80000000e-01 
 6.90000000e-01  3.23322133e-09  4.57383648e-01  4.57383648e-01  4.57383648e-01  3.22072487e-09  4.57383648e-01  4.57383648e-01  1.56391807e-07  1.69205997e-07  6.90000000e-01 
 7.00000000e-01  3.23322133e-09  4.57383653e-01  4.57383653e-01  4.57383653e-01  3.22072487e-09  4.57383653e-01  4.57383653e-01  1.56391808e-07  1.69205833e-07  7.00000000e-01 
 7.10000000e-01  3.23322128e-09  4.57383676e-01  4.57383676e-01  4.57383676e-01  3.22072487e-09  4.57383676e-01  4.57383676e-01  1.56391865e-07  1.69205883e-07  7.10000000e-01 
 7.20000000e-01  3.23322128e-09  4.57383672e-01  4.57383672e-01  4.57383672e-01  3.22072487e-09  4.57383672e-01  4.57383672e-01  1.56391829e-07  1.69205734e-07  7.20000000e-01 
 7.30000000e-01  3.23322133e-09  4.57383674e-01  4.57383674e-01  4.57383674e-01  3.22072487e-09  4.57383674e-01  4.57383674e-01  1.56391858e-07  1.69205585e-07  7.30000000e-01 
 7.40000000e-01  3.23322133e-09  4.57383662e-01  4.57383662e-01  4.57383662e-01  3.22072487e-09  4.57383662e-01  4.57383662e-01  1.56391829e-07  1.69205393e-07  7.40000000e-01 
 7.50000000e-01  3.23322133e-09  4.57383651e-01  4.57383651e-01  4.57383651e-01  3.22072481e-09  4.57383651e-01  4.57383651e-01  1.56391816e-07  1.69205151e-07  7.50000000e-01 
 7.60000000e-01  3.23322128e-09  4.57383672e-01  4.57383672e-01  4.57383672e-01  3.22072487e-09  4.57383672e-01  4.57383672e-01  1.56391849e-07  1.69205137e-07  7.60000000e-01 
 7.70000000e-01  3.23322133e-09  4.57383671e-01  4.57383671e-01  4.57383671e-01  3.22072487e-09  4.57383671e-01  4.57383671e-01  1.56391851e-07  1.69204917e-07  7.70000000e-01 
 7.80000000e-01  3.23322128e-09  4.57383655e-01  4.57383655e-01  4.57383655e-01  3.22072487e-09  4.57383655e-01  4.57383655e-01  1.56391826e-07  1.69204853e-07  7.80000000e-01 
 7.90000000e-01  3.23322128e-09  4.57383666e-01  4.57383666e-01  4.57383666e-01  3.22072487e-09  4.57383666e-01  4.57383666e-01  1.56391845e-07  1.69204760e-07  7.90000000e-01 
 8.00000000e-01  3.23322133e-09  4.57383641e-01  4.57383641e-01  4.57383642e-01  3.22072481e-09  4.57383642e-01  4.57383641e-01  1.56391796e-07  1.69204419e-07  8.00000000e-01 
 8.10000000e-01  3.23322133e-09  4.57383651e-01  4.57383651e-01  4.57383652e-01  3.22072481e-09  4.57383652e-01  4.57383651e-01  1.56391830e-07  1.69204391e-07  8.10000000e-01 
 8.20000000e-01  3.23322128e-09  4.57383683e-01  4.57383683e-01  4.57383683e-01  3.22072487e-09  4.57383683e-01  4.57383683e-01  1.56391862e-07  1.69204419e-07  8.20000000e-01 
 8.30000000e-01  3.23322133e-09  4.57383650e-01  4.57383650e-01  4.57383650e-01  3.22072481e-09  4.57383650e-01  4.57383650e-01  1.56391805e-07  1.69204071e-07  8.30000000e-01 
 8.40000000e-01  3.23322128e-09  4.57383669e-01  4.57383669e-01  4.57383669e-01  3.22072487e-09  4.57383669e-01  4.57383669e-01  1.56391850e-07  1.69204007e-07  8.40000000e-01 
 8.50000000e-01  3.23322133e-09  4.57383671e-01  4.57383671e-01  4.57383671e-01  3.22072481e-09  4.57383671e-01  4.57383671e-01  1.56391844e-07  1.69203922e-07  8.50000000e-01 
 8.60000000e-01  3.23322128e-09  4.57383677e-01  4.57383677e-01  4.57383678e-01  3.22072481e-09  4.57383678e-01  4.57383677e-01  1.56391845e-07  1.69203837e-07  8.60000000e-01 
 8.70000000e-01  3.23322134e-09  4.57383683e-01  4.57383683e-01  4.57383683e-01  3.22072481e-09  4.57383683e-01  4.57383683e-01  1.56391884e-07  1.69203574e-07  8.70000000e-01 
 8.80000000e-01  3.23322128e-09  4.57383670e-01  4.57383670e-01  4.57383670e-01  3.22072487e-09  4.57383670e-01  4.57383670e-01  1.56391841e-07  1.69203574e-07  8.80000000e-01 
 8.90000000e-01  3.23322128e-09  4.57383655e-01  4.57383655e-01  4.57383655e-01  3.22072487e-09  4.57383655e-01  4.57383655e-01  1.56391813e-07  1.69203204e-07  8.90000000e-01 
 9.00000000e-01  3.23322133e-09  4.57383666e-01  4.57383666e-01  4.57383666e-01  3.22072487e-09  4.57383666e-01  4.57383666e-01  1.56391846e-07  1.69203219e-07  9.00000000e-01 
 9.10000000e-01  3.23322128e-09  4.57383645e-01  4.57383645e-01  4.57383645e-01  3.22072481e-09  4.57383645e-01  4.57383645e-01  1.56391819e-07  1.69202949e-07  9.10000000e-01 
 9.20000000e-01  3.23322128e-09  4.57383662e-01  4.57383662e-01  4.57383662e-01  3.22072481e-09  4.57383662e-01  4.57383662e-01  1.56391842e-07  1.69202877e-07  9.20000000e-01 
 9.30000000e-01  3.23322128e-09  4.57383654e-01  4.57383654e-01  4.57383654e-01  3.22072487e-09  4.57383654e-01  4.57383654e-01  1.56391832e-07  1.69202707e-07  9.30000000e-01 
 9.40000000e-01  3.23322133e-09  4.57383672e-01  4.57383672e-01  4.57383672e-01  3.22072487e-09  4.57383672e-01  4.57383672e-01  1.56391839e-07  1.69202664e-07  9.40000000e-01 
 9.50000000e-01  3.23322133e-09  4.57383674e-01  4.57383674e-01  4.57383674e-01  3.22072481e-09  4.57383674e-01  4.57383674e-01  1.56391846e-07  1.69202366e-07  9.50000000e-01 
 9.60000000e-01  3.23322133e-09  4.57383657e-01  4.57383657e-01  4.57383657e-01  3.22072487e-09  4.57383658e-01  4.57383657e-01  1.56391832e-07  1.69202387e-07  9.60000000e-01 
 9.70000000e-01  3.23322128e-09  4.57383645e-01  4.57383645e-01  4.57383645e-01  3.22072487e-09  4.57383645e-01  4.57383645e-01  1.56391809e-07  1.69202089e-07  9.70000000e-01 
 9.80000000e-01  3.23322128e-09  4.57383672e-01  4.57383672e-01  4.57383672e-01  3.22072481e-09  4.57383672e-01  4.57383672e-01  1.56391857e-07  1.69202103e-07  9.80000000e-01 
 9.90000000e-01  3.23322133e-09  4.57383643e-01  4.57383643e-01  4.57383643e-01  3.22072481e-09  4.57383643e-01  4.57383643e-01  1.56391805e-07  1.69201684e-07  9.90000000e-01 
 1.00000000e+00  3.23322128e-09  4.57383663e-01  4.57383663e-01  4.57383663e-01  3.22072487e-09  4.57383663e-01  4.57383663e-01  1.56391837e-07  1.69201719e-07  1.00000000e+00 
 1.01000000e+00  3.23322128e-09  4.57383654e-01  4.57383654e-01  4.57383654e-01  3.22072481e-09  4.57383654e-01  4.57383654e-01  1.56391829e-07  1.69201435e-07  1.01000000e+00 
 1.02000000e+00  3.23322133e-09  4.57383655e-01  4.57383655e-01  4.57383655e-01  3.22072481e-09  4.57383655e-01  4.57383655e-01  1.56391828e-07  1.69201272e-07  1.02000000e+00 
 1.03000000e+00  3.23322134e-09  4.57383675e-01  4.57383675e-01  4.57383675e-01  3.22072481e-09  4.57383675e-01  4.57383675e-01  1.56391848e-07  1.69201265e-07  1.03000000e+00 
 1.04000000e+00  3.23322128e-09  4.57383683e-01  4.57383683e-01  4.57383683e-01  3.22072487e-09  4.57383683e-01  4.57383683e-01  1.56391853e-07  1.69201073e-07  1.04000000e+00 
 1.05000000e+00  3.23322128e-09  4.57383662e-01  4.57383662e-01  4.57383662e-01  3.22072487e-09  4.57383662e-01  4.57383662e-01  1.56391844e-07  1.69200803e-07  1.05000000e+00 
 1.06000000e+00  3.23322128e-09  4.57383654e-01  4.57383654e-01  4.57383654e-01  3.22072487e-09  4.57383654e-01  4.57383654e-01  1.56391836e-07  1.69200689e-07  1.06000000e+00 
 1.07000000e+00  3.23322133e-09  4.57383664e-01  4.57383664e-01  4.57383664e-01  3.22072481e-09  4.57383664e-01  4.57383664e-01  1.56391840e-07  1.69200469e-07  1.07000000e+00 
 1.08000000e+00  3.23322128e-09  4.57383659e-01  4.57383659e-01  4.57383659e-01  3.22072481e-09  4.57383659e-01  4.57383659e-01  1.56391825e-07  1.69200334e-07  1.08000000e+00 
 1.09000000e+00  3.23322128e-09  4.57383656e-01  4.57383656e-01  4.57383656e-01  3.22072481e-09  4.57383656e-01  4.57383656e-01  1.56391836e-07  1.69200270e-07  1.09000000e+00 
 1.10000000e+00  3.23322128e-09  4.57383619e-01  4.57383619e-01  4.57383619e-01  3.22072487e-09  4.57383619e-01  4.57383619e-01  1.56391775e-07  1.69199858e-07  1.10000000e+00 
