 v-sweep         v(b0)           v(b1)           v(b2)           v(b3)           v(b4)           v(b5)           v(b6)           i(vbias)        i(viout)        v(vout)        
 0.00000000e+00  3.33798922e-09  3.19106603e-09  4.58970996e-01  4.58970996e-01  3.31871912e-09  3.18809693e-09  3.18334133e-09  1.60345429e-07  1.71479161e-08  0.00000000e+00 
 1.00000000e-02  3.33798926e-09  3.19106601e-09  4.58971020e-01  4.58971020e-01  3.31871911e-09  3.18809692e-09  3.18334131e-09  1.60345464e-07  1.71476872e-08  1.00000000e-02 
 2.00000000e-02  3.33798926e-09  3.19106607e-09  4.58970995e-01  4.58970995e-01  3.31871910e-09  3.18809692e-09  3.18334137e-09  1.60345431e-07  1.71471590e-08  2.00000000e-02 
 3.00000000e-02  3.33798926e-09  3.19106607e-09  4.58970985e-01  4.58970985e-01  3.31871910e-09  3.18809691e-09  3.18334136e-09  1.60345401e-07  1.71469239e-08  3.00000000e-02 
 4.00000000e-02  3.33798920e-09  3.19106607e-09  4.58971007e-01  4.58971007e-01  3.31871916e-09  3.18809692e-09  3.18334138e-09  1.60345451e-07  1.71464998e-08  4.00000000e-02 
 5.00000000e-02  3.33798926e-09  3.19106601e-09  4.58971006e-01  4.58971006e-01  3.31871910e-09  3.18809692e-09  3.18334136e-09  1.60345447e-07  1.71461956e-08  5.00000000e-02 
 6.00000000e-02  3.33798926e-09  3.19106601e-09  4.58971008e-01  4.58971008e-01  3.31871910e-09  3.18809686e-09  3.18334138e-09  1.60345450e-07  1.71458661e-08  6.00000000e-02 
 7.00000000e-02  3.33798920e-09  3.19106607e-09  4.58970993e-01  4.58970993e-01  3.31871916e-09  3.18809686e-09  3.18334130e-09  1.60345420e-07  1.71455397e-08  7.00000000e-02 
 8.00000000e-02  3.33798926e-09  3.19106607e-09  4.58971006e-01  4.58971006e-01  3.31871910e-09  3.18809686e-09  3.18334138e-09  1.60345452e-07  1.71451813e-08  8.00000000e-02 
 9.00000000e-02  3.33798920e-09  3.19106601e-09  4.58971000e-01  4.58971000e-01  3.31871916e-09  3.18809692e-09  3.18334136e-09  1.60345441e-07  1.71449086e-08  9.00000000e-02 
 1.00000000e-01  3.33798926e-09  3.19106601e-09  4.58971019e-01  4.58971019e-01  3.31871911e-09  3.18809686e-09  3.18334132e-09  1.60345460e-07  1.71446795e-08  1.00000000e-01 
 1.10000000e-01  3.33798926e-09  3.19106601e-09  4.58970983e-01  4.58970984e-01  3.31871910e-09  3.18809691e-09  3.18334137e-09  1.60345415e-07  1.71445294e-08  1.10000000e-01 
 1.20000000e-01  3.33798926e-09  3.19106601e-09  4.58970998e-01  4.58970999e-01  3.31871910e-09  3.18809692e-09  3.18334136e-09  1.60345430e-07  1.71442709e-08  1.20000000e-01 
 1.30000000e-01  3.33798926e-09  3.19106601e-09  4.58971009e-01  4.58971009e-01  3.31871910e-09  3.18809692e-09  3.18334132e-09  1.60345456e-07  1.71440746e-08  1.30000000e-01 
 1.40000000e-01  3.33798926e-09  3.19106607e-09  4.58970985e-01  4.58970985e-01  3.31871910e-09  3.18809691e-09  3.18334137e-09  1.60345406e-07  1.71439209e-08  1.40000000e-01 
 1.50000000e-01  3.33798926e-09  3.19106607e-09  4.58971000e-01  4.58971001e-01  3.31871910e-09  3.18809686e-09  3.18334136e-09  1.60345434e-07  1.71437069e-08  1.50000000e-01 
 1.60000000e-01  3.33798926e-09  3.19106607e-09  4.58971015e-01  4.58971015e-01  3.31871911e-09  3.18809686e-09  3.18334138e-09  1.60345461e-07  1.71434582e-08  1.60000000e-01 
 1.70000000e-01  3.33798926e-09  3.19106601e-09  4.58970999e-01  4.58970999e-01  3.31871910e-09  3.18809686e-09  3.18334136e-09  1.60345429e-07  1.71432788e-08  1.70000000e-01 
 1.80000000e-01  3.33798926e-09  3.19106601e-09  4.58970998e-01  4.58970998e-01  3.31871910e-09  3.18809692e-09  3.18334138e-09  1.60345432e-07  1.71431136e-08  1.80000000e-01 
 1.90000000e-01  3.33798926e-09  3.19106601e-09  4.58970994e-01  4.58970994e-01  3.31871910e-09  3.18809692e-09  3.18334136e-09  1.60345434e-07  1.71429697e-08  1.90000000e-01 
 2.00000000e-01  3.33798926e-09  3.19106601e-09  4.58971012e-01  4.58971012e-01  3.31871910e-09  3.18809692e-09  3.18334138e-09  1.60345448e-07  1.71427637e-08  2.00000000e-01 
 2.10000000e-01  3.33798926e-09  3.19106607e-09  4.58970985e-01  4.58970985e-01  3.31871910e-09  3.18809691e-09  3.18334136e-09  1.60345416e-07  1.71426375e-08  2.10000000e-01 
 2.20000000e-01  3.33798920e-09  3.19106601e-09  4.58971010e-01  4.58971010e-01  3.31871910e-09  3.18809686e-09  3.18334132e-09  1.60345455e-07  1.71424919e-08  2.20000000e-01 
 2.30000000e-01  3.33798926e-09  3.19106607e-09  4.58971003e-01  4.58971003e-01  3.31871916e-09  3.18809686e-09  3.18334131e-09  1.60345426e-07  1.71423604e-08  2.30000000e-01 
 2.40000000e-01  3.33798920e-09  3.19106607e-09  4.58971021e-01  4.58971021e-01  3.31871911e-09  3.18809686e-09  3.18334137e-09  1.60345463e-07  1.71422592e-08  2.40000000e-01 
 2.50000000e-01  3.33798926e-09  3.19106607e-09  4.58970990e-01  4.58970990e-01  3.31871910e-09  3.18809692e-09  3.18334136e-09  1.60345438e-07  1.71421597e-08  2.50000000e-01 
 2.60000000e-01  3.33798920e-09  3.19106607e-09  4.58971006e-01  4.58971006e-01  3.31871910e-09  3.18809692e-09  3.18334132e-09  1.60345451e-07  1.71420140e-08  2.60000000e-01 
 2.70000000e-01  3.33798926e-09  3.19106601e-09  4.58971012e-01  4.58971012e-01  3.31871916e-09  3.18809692e-09  3.18334131e-09  1.60345455e-07  1.71419838e-08  2.70000000e-01 
 2.80000000e-01  3.33798926e-09  3.19106601e-09  4.58971002e-01  4.58971002e-01  3.31871910e-09  3.18809692e-09  3.18334137e-09  1.60345450e-07  1.71416463e-08  2.80000000e-01 
 2.90000000e-01  3.33798920e-09  3.19106607e-09  4.58971022e-01  4.58971022e-01  3.31871911e-09  3.18809692e-09  3.18334130e-09  1.60345476e-07  1.71417547e-08  2.90000000e-01 
 3.00000000e-01  3.33798926e-09  3.19106601e-09  4.58970978e-01  4.58970978e-01  3.31871910e-09  3.18809691e-09  3.18334138e-09  1.60345396e-07  1.71415273e-08  3.00000000e-01 
 3.10000000e-01  3.33798926e-09  3.19106601e-09  4.58970986e-01  4.58970986e-01  3.31871910e-09  3.18809691e-09  3.18334136e-09  1.60345419e-07  1.71414491e-08  3.10000000e-01 
 3.20000000e-01  3.33798926e-09  3.19106601e-09  4.58971020e-01  4.58971020e-01  3.31871916e-09  3.18809692e-09  3.18334132e-09  1.60345460e-07  1.71414136e-08  3.20000000e-01 
 3.30000000e-01  3.33798926e-09  3.19106601e-09  4.58970999e-01  4.58970999e-01  3.31871910e-09  3.18809686e-09  3.18334137e-09  1.60345434e-07  1.71412324e-08  3.30000000e-01 
 3.40000000e-01  3.33798926e-09  3.19106601e-09  4.58971028e-01  4.58971028e-01  3.31871911e-09  3.18809686e-09  3.18334130e-09  1.60345476e-07  1.71413035e-08  3.40000000e-01 
 3.50000000e-01  3.33798926e-09  3.19106607e-09  4.58971007e-01  4.58971007e-01  3.31871910e-09  3.18809686e-09  3.18334132e-09  1.60345446e-07  1.71412040e-08  3.50000000e-01 
 3.60000000e-01  3.33798926e-09  3.19106601e-09  4.58971005e-01  4.58971006e-01  3.31871910e-09  3.18809692e-09  3.18334131e-09  1.60345447e-07  1.71410477e-08  3.60000000e-01 
 3.70000000e-01  3.33798926e-09  3.19106601e-09  4.58971017e-01  4.58971017e-01  3.31871911e-09  3.18809692e-09  3.18334137e-09  1.60345468e-07  1.71409198e-08  3.70000000e-01 
 3.80000000e-01  3.33798926e-09  3.19106607e-09  4.58970978e-01  4.58970978e-01  3.31871910e-09  3.18809691e-09  3.18334130e-09  1.60345408e-07  1.71408203e-08  3.80000000e-01 
 3.90000000e-01  3.33798926e-09  3.19106601e-09  4.58970993e-01  4.58970993e-01  3.31871910e-09  3.18809692e-09  3.18334138e-09  1.60345427e-07  1.71407990e-08  3.90000000e-01 
 4.00000000e-01  3.33798920e-09  3.19106601e-09  4.58971007e-01  4.58971007e-01  3.31871910e-09  3.18809692e-09  3.18334130e-09  1.60345428e-07  1.71407102e-08  4.00000000e-01 
 4.10000000e-01  3.33798926e-09  3.19106601e-09  4.58970997e-01  4.58970997e-01  3.31871916e-09  3.18809692e-09  3.18334138e-09  1.60345435e-07  1.71406143e-08  4.10000000e-01 
 4.20000000e-01  3.33798926e-09  3.19106607e-09  4.58971012e-01  4.58971013e-01  3.31871910e-09  3.18809692e-09  3.18334136e-09  1.60345454e-07  1.71406711e-08  4.20000000e-01 
 4.30000000e-01  3.33798920e-09  3.19106607e-09  4.58971003e-01  4.58971003e-01  3.31871910e-09  3.18809686e-09  3.18334138e-09  1.60345437e-07  1.71404828e-08  4.30000000e-01 
 4.40000000e-01  3.33798926e-09  3.19106601e-09  4.58971001e-01  4.58971001e-01  3.31871916e-09  3.18809686e-09  3.18334136e-09  1.60345439e-07  1.71404722e-08  4.40000000e-01 
 4.50000000e-01  3.33798920e-09  3.19106607e-09  4.58971003e-01  4.58971003e-01  3.31871910e-09  3.18809686e-09  3.18334138e-09  1.60345455e-07  1.71404722e-08  4.50000000e-01 
 4.60000000e-01  3.33798926e-09  3.19106601e-09  4.58970994e-01  4.58970994e-01  3.31871916e-09  3.18809686e-09  3.18334130e-09  1.60345420e-07  1.71402306e-08  4.60000000e-01 
 4.70000000e-01  3.33798920e-09  3.19106607e-09  4.58971012e-01  4.58971012e-01  3.31871910e-09  3.18809692e-09  3.18334138e-09  1.60345455e-07  1.71402625e-08  4.70000000e-01 
 4.80000000e-01  3.33798926e-09  3.19106601e-09  4.58970982e-01  4.58970983e-01  3.31871910e-09  3.18809691e-09  3.18334136e-09  1.60345415e-07  1.71402164e-08  4.80000000e-01 
 4.90000000e-01  3.33798926e-09  3.19106607e-09  4.58971014e-01  4.58971014e-01  3.31871910e-09  3.18809692e-09  3.18334132e-09  1.60345448e-07  1.71401418e-08  4.90000000e-01 
 5.00000000e-01  3.33798926e-09  3.19106607e-09  4.58970999e-01  4.58970999e-01  3.31871910e-09  3.18809692e-09  3.18334131e-09  1.60345427e-07  1.71400991e-08  5.00000000e-01 
 5.10000000e-01  3.33798926e-09  3.19106601e-09  4.58971011e-01  4.58971011e-01  3.31871910e-09  3.18809692e-09  3.18334131e-09  1.60345458e-07  1.71401595e-08  5.10000000e-01 
 5.20000000e-01  3.33798920e-09  3.19106607e-09  4.58971034e-01  4.58971034e-01  3.31871911e-09  3.18809692e-09  3.18334131e-09  1.60345482e-07  1.71400423e-08  5.20000000e-01 
 5.30000000e-01  3.33798926e-09  3.19106607e-09  4.58971002e-01  4.58971002e-01  3.31871910e-09  3.18809692e-09  3.18334137e-09  1.60345440e-07  1.71399392e-08  5.30000000e-01 
 5.40000000e-01  3.33798926e-09  3.19106601e-09  4.58970995e-01  4.58970995e-01  3.31871910e-09  3.18809686e-09  3.18334136e-09  1.60345428e-07  1.71399144e-08  5.40000000e-01 
 5.50000000e-01  3.33798926e-09  3.19106607e-09  4.58971018e-01  4.58971018e-01  3.31871916e-09  3.18809692e-09  3.18334132e-09  1.60345453e-07  1.71397971e-08  5.50000000e-01 
 5.60000000e-01  3.33798920e-09  3.19106607e-09  4.58971022e-01  4.58971022e-01  3.31871911e-09  3.18809692e-09  3.18334131e-09  1.60345455e-07  1.71398469e-08  5.60000000e-01 
 5.70000000e-01  3.33798920e-09  3.19106607e-09  4.58971002e-01  4.58971002e-01  3.31871910e-09  3.18809692e-09  3.18334131e-09  1.60345452e-07  1.71397758e-08  5.70000000e-01 
 5.80000000e-01  3.33798926e-09  3.19106607e-09  4.58971037e-01  4.58971037e-01  3.31871916e-09  3.18809686e-09  3.18334137e-09  1.60345507e-07  1.71396621e-08  5.80000000e-01 
 5.90000000e-01  3.33798926e-09  3.19106607e-09  4.58971009e-01  4.58971009e-01  3.31871910e-09  3.18809692e-09  3.18334136e-09  1.60345451e-07  1.71396408e-08  5.90000000e-01 
 6.00000000e-01  3.33798926e-09  3.19106601e-09  4.58971014e-01  4.58971014e-01  3.31871910e-09  3.18809686e-09  3.18334138e-09  1.60345461e-07  1.71395200e-08  6.00000000e-01 
 6.10000000e-01  3.33798926e-09  3.19106601e-09  4.58971016e-01  4.58971016e-01  3.31871911e-09  3.18809686e-09  3.18334130e-09  1.60345464e-07  1.71394490e-08  6.10000000e-01 
 6.20000000e-01  3.33798926e-09  3.19106607e-09  4.58971014e-01  4.58971014e-01  3.31871910e-09  3.18809686e-09  3.18334132e-09  1.60345461e-07  1.71395271e-08  6.20000000e-01 
 6.30000000e-01  3.33798926e-09  3.19106601e-09  4.58971004e-01  4.58971004e-01  3.31871910e-09  3.18809692e-09  3.18334137e-09  1.60345441e-07  1.71394277e-08  6.30000000e-01 
 6.40000000e-01  3.33798926e-09  3.19106607e-09  4.58971020e-01  4.58971020e-01  3.31871911e-09  3.18809692e-09  3.18334130e-09  1.60345459e-07  1.71394063e-08  6.40000000e-01 
 6.50000000e-01  3.33798920e-09  3.19106601e-09  4.58971016e-01  4.58971016e-01  3.31871916e-09  3.18809692e-09  3.18334138e-09  1.60345463e-07  1.71393140e-08  6.50000000e-01 
 6.60000000e-01  3.33798926e-09  3.19106601e-09  4.58970990e-01  4.58970990e-01  3.31871916e-09  3.18809691e-09  3.18334136e-09  1.60345438e-07  1.71392358e-08  6.60000000e-01 
 6.70000000e-01  3.33798926e-09  3.19106601e-09  4.58970997e-01  4.58970997e-01  3.31871916e-09  3.18809692e-09  3.18334132e-09  1.60345444e-07  1.71392358e-08  6.70000000e-01 
 6.80000000e-01  3.33798926e-09  3.19106607e-09  4.58971002e-01  4.58971002e-01  3.31871910e-09  3.18809692e-09  3.18334131e-09  1.60345442e-07  1.71391790e-08  6.80000000e-01 
 6.90000000e-01  3.33798926e-09  3.19106607e-09  4.58971002e-01  4.58971002e-01  3.31871910e-09  3.18809686e-09  3.18334131e-09  1.60345427e-07  1.71390866e-08  6.90000000e-01 
 7.00000000e-01  3.33798920e-09  3.19106607e-09  4.58971008e-01  4.58971008e-01  3.31871910e-09  3.18809692e-09  3.18334131e-09  1.60345444e-07  1.71390653e-08  7.00000000e-01 
 7.10000000e-01  3.33798926e-09  3.19106601e-09  4.58971009e-01  4.58971010e-01  3.31871910e-09  3.18809692e-09  3.18334137e-09  1.60345457e-07  1.71390298e-08  7.10000000e-01 
 7.20000000e-01  3.33798926e-09  3.19106601e-09  4.58971000e-01  4.58971000e-01  3.31871910e-09  3.18809692e-09  3.18334130e-09  1.60345440e-07  1.71389161e-08  7.20000000e-01 
 7.30000000e-01  3.33798926e-09  3.19106607e-09  4.58971022e-01  4.58971022e-01  3.31871911e-09  3.18809692e-09  3.18334138e-09  1.60345471e-07  1.71390226e-08  7.30000000e-01 
 7.40000000e-01  3.33798926e-09  3.19106601e-09  4.58971001e-01  4.58971001e-01  3.31871910e-09  3.18809686e-09  3.18334130e-09  1.60345439e-07  1.71388876e-08  7.40000000e-01 
 7.50000000e-01  3.33798926e-09  3.19106607e-09  4.58970997e-01  4.58970997e-01  3.31871916e-09  3.18809692e-09  3.18334132e-09  1.60345425e-07  1.71388379e-08  7.50000000e-01 
 7.60000000e-01  3.33798920e-09  3.19106601e-09  4.58971001e-01  4.58971001e-01  3.31871910e-09  3.18809686e-09  3.18334131e-09  1.60345434e-07  1.71388379e-08  7.60000000e-01 
 7.70000000e-01  3.33798926e-09  3.19106601e-09  4.58971032e-01  4.58971032e-01  3.31871911e-09  3.18809692e-09  3.18334137e-09  1.60345480e-07  1.71388308e-08  7.70000000e-01 
 7.80000000e-01  3.33798926e-09  3.19106607e-09  4.58970992e-01  4.58970992e-01  3.31871916e-09  3.18809692e-09  3.18334130e-09  1.60345414e-07  1.71388166e-08  7.80000000e-01 
 7.90000000e-01  3.33798920e-09  3.19106601e-09  4.58971004e-01  4.58971004e-01  3.31871916e-09  3.18809692e-09  3.18334132e-09  1.60345443e-07  1.71385039e-08  7.90000000e-01 
 8.00000000e-01  3.33798926e-09  3.19106607e-09  4.58970996e-01  4.58970996e-01  3.31871910e-09  3.18809692e-09  3.18334137e-09  1.60345422e-07  1.71385821e-08  8.00000000e-01 
 8.10000000e-01  3.33798926e-09  3.19106607e-09  4.58971020e-01  4.58971020e-01  3.31871911e-09  3.18809686e-09  3.18334136e-09  1.60345465e-07  1.71384684e-08  8.10000000e-01 
 8.20000000e-01  3.33798926e-09  3.19106601e-09  4.58970983e-01  4.58970983e-01  3.31871910e-09  3.18809691e-09  3.18334138e-09  1.60345416e-07  1.71384613e-08  8.20000000e-01 
 8.30000000e-01  3.33798926e-09  3.19106601e-09  4.58971010e-01  4.58971010e-01  3.31871910e-09  3.18809692e-09  3.18334136e-09  1.60345444e-07  1.71383689e-08  8.30000000e-01 
 8.40000000e-01  3.33798920e-09  3.19106607e-09  4.58970987e-01  4.58970987e-01  3.31871910e-09  3.18809691e-09  3.18334138e-09  1.60345416e-07  1.71383476e-08  8.40000000e-01 
 8.50000000e-01  3.33798926e-09  3.19106601e-09  4.58971003e-01  4.58971003e-01  3.31871910e-09  3.18809692e-09  3.18334130e-09  1.60345439e-07  1.71383334e-08  8.50000000e-01 
 8.60000000e-01  3.33798926e-09  3.19106601e-09  4.58971008e-01  4.58971008e-01  3.31871910e-09  3.18809692e-09  3.18334132e-09  1.60345445e-07  1.71383050e-08  8.60000000e-01 
 8.70000000e-01  3.33798926e-09  3.19106601e-09  4.58971003e-01  4.58971003e-01  3.31871910e-09  3.18809692e-09  3.18334137e-09  1.60345438e-07  1.71381558e-08  8.70000000e-01 
 8.80000000e-01  3.33798926e-09  3.19106607e-09  4.58970995e-01  4.58970995e-01  3.31871916e-09  3.18809692e-09  3.18334136e-09  1.60345433e-07  1.71382482e-08  8.80000000e-01 
 8.90000000e-01  3.33798926e-09  3.19106607e-09  4.58971008e-01  4.58971008e-01  3.31871910e-09  3.18809692e-09  3.18334138e-09  1.60345446e-07  1.71381060e-08  8.90000000e-01 
 9.00000000e-01  3.33798926e-09  3.19106601e-09  4.58970998e-01  4.58970998e-01  3.31871910e-09  3.18809686e-09  3.18334136e-09  1.60345441e-07  1.71380492e-08  9.00000000e-01 
 9.10000000e-01  3.33798926e-09  3.19106607e-09  4.58971009e-01  4.58971009e-01  3.31871910e-09  3.18809692e-09  3.18334132e-09  1.60345457e-07  1.71379071e-08  9.10000000e-01 
 9.20000000e-01  3.33798926e-09  3.19106607e-09  4.58971021e-01  4.58971021e-01  3.31871911e-09  3.18809686e-09  3.18334137e-09  1.60345483e-07  1.71379639e-08  9.20000000e-01 
 9.30000000e-01  3.33798926e-09  3.19106606e-09  4.58970972e-01  4.58970972e-01  3.31871916e-09  3.18809686e-09  3.18334130e-09  1.60345401e-07  1.71379000e-08  9.30000000e-01 
 9.40000000e-01  3.33798926e-09  3.19106607e-09  4.58971005e-01  4.58971005e-01  3.31871910e-09  3.18809692e-09  3.18334132e-09  1.60345442e-07  1.71378787e-08  9.40000000e-01 
 9.50000000e-01  3.33798926e-09  3.19106601e-09  4.58970991e-01  4.58970991e-01  3.31871910e-09  3.18809692e-09  3.18334131e-09  1.60345429e-07  1.71377508e-08  9.50000000e-01 
 9.60000000e-01  3.33798926e-09  3.19106607e-09  4.58971013e-01  4.58971013e-01  3.31871910e-09  3.18809686e-09  3.18334137e-09  1.60345464e-07  1.71378360e-08  9.60000000e-01 
 9.70000000e-01  3.33798926e-09  3.19106607e-09  4.58971004e-01  4.58971004e-01  3.31871910e-09  3.18809686e-09  3.18334136e-09  1.60345443e-07  1.71376868e-08  9.70000000e-01 
 9.80000000e-01  3.33798926e-09  3.19106607e-09  4.58971024e-01  4.58971024e-01  3.31871911e-09  3.18809686e-09  3.18334132e-09  1.60345480e-07  1.71376087e-08  9.80000000e-01 
 9.90000000e-01  3.33798926e-09  3.19106601e-09  4.58971011e-01  4.58971011e-01  3.31871910e-09  3.18809692e-09  3.18334131e-09  1.60345449e-07  1.71376300e-08  9.90000000e-01 
 1.00000000e+00  3.33798920e-09  3.19106601e-09  4.58971014e-01  4.58971015e-01  3.31871911e-09  3.18809692e-09  3.18334131e-09  1.60345464e-07  1.71374950e-08  1.00000000e+00 
 1.01000000e+00  3.33798920e-09  3.19106601e-09  4.58970998e-01  4.58970998e-01  3.31871916e-09  3.18809692e-09  3.18334137e-09  1.60345421e-07  1.71375518e-08  1.01000000e+00 
 1.02000000e+00  3.33798920e-09  3.19106601e-09  4.58971017e-01  4.58971017e-01  3.31871911e-09  3.18809692e-09  3.18334136e-09  1.60345467e-07  1.71373884e-08  1.02000000e+00 
 1.03000000e+00  3.33798926e-09  3.19106601e-09  4.58971002e-01  4.58971002e-01  3.31871910e-09  3.18809692e-09  3.18334132e-09  1.60345439e-07  1.71373316e-08  1.03000000e+00 
 1.04000000e+00  3.33798926e-09  3.19106607e-09  4.58970999e-01  4.58970999e-01  3.31871916e-09  3.18809692e-09  3.18334137e-09  1.60345428e-07  1.71371823e-08  1.04000000e+00 
 1.05000000e+00  3.33798926e-09  3.19106601e-09  4.58970995e-01  4.58970995e-01  3.31871910e-09  3.18809692e-09  3.18334136e-09  1.60345431e-07  1.71371823e-08  1.05000000e+00 
 1.06000000e+00  3.33798926e-09  3.19106607e-09  4.58971012e-01  4.58971012e-01  3.31871916e-09  3.18809692e-09  3.18334138e-09  1.60345462e-07  1.71370971e-08  1.06000000e+00 
 1.07000000e+00  3.33798920e-09  3.19106607e-09  4.58971017e-01  4.58971017e-01  3.31871916e-09  3.18809692e-09  3.18334136e-09  1.60345463e-07  1.71371397e-08  1.07000000e+00 
 1.08000000e+00  3.33798926e-09  3.19106601e-09  4.58970989e-01  4.58970989e-01  3.31871910e-09  3.18809686e-09  3.18334138e-09  1.60345422e-07  1.71369976e-08  1.08000000e+00 
 1.09000000e+00  3.33798926e-09  3.19106607e-09  4.58971006e-01  4.58971007e-01  3.31871910e-09  3.18809692e-09  3.18334130e-09  1.60345439e-07  1.71369905e-08  1.09000000e+00 
 1.10000000e+00  3.33798926e-09  3.19106601e-09  4.58970990e-01  4.58970990e-01  3.31871916e-09  3.18809692e-09  3.18334138e-09  1.60345427e-07  1.71370473e-08  1.10000000e+00 
