 v-sweep         v(b0)           v(b1)           v(b2)           v(b3)           v(b4)           v(b5)           v(b6)           i(vbias)        i(viout)        v(vout)        
 0.00000000e+00  3.41187120e-09  4.58577091e-01  3.34472967e-09  3.61273838e-09  4.58577091e-01  3.45673943e-09  4.58577091e-01  1.61273527e-07  1.26665403e-07  0.00000000e+00 
 1.00000000e-02  3.41187118e-09  4.58577120e-01  3.34472965e-09  3.61273841e-09  4.58577120e-01  3.45673948e-09  4.58577120e-01  1.61273580e-07  1.26665160e-07  1.00000000e-02 
 2.00000000e-02  3.41187119e-09  4.58577081e-01  3.34472965e-09  3.61273841e-09  4.58577081e-01  3.45673946e-09  4.58577081e-01  1.61273513e-07  1.26664623e-07  2.00000000e-02 
 3.00000000e-02  3.41187124e-09  4.58577115e-01  3.34472965e-09  3.61273836e-09  4.58577115e-01  3.45673941e-09  4.58577115e-01  1.61273586e-07  1.26664419e-07  3.00000000e-02 
 4.00000000e-02  3.41187123e-09  4.58577098e-01  3.34472959e-09  3.61273837e-09  4.58577098e-01  3.45673942e-09  4.58577099e-01  1.61273542e-07  1.26663925e-07  4.00000000e-02 
 5.00000000e-02  3.41187123e-09  4.58577118e-01  3.34472965e-09  3.61273841e-09  4.58577118e-01  3.45673948e-09  4.58577119e-01  1.61273593e-07  1.26663491e-07  5.00000000e-02 
 6.00000000e-02  3.41187124e-09  4.58577124e-01  3.34472965e-09  3.61273836e-09  4.58577124e-01  3.45673947e-09  4.58577125e-01  1.61273576e-07  1.26663319e-07  6.00000000e-02 
 7.00000000e-02  3.41187118e-09  4.58577121e-01  3.34472965e-09  3.61273837e-09  4.58577121e-01  3.45673941e-09  4.58577122e-01  1.61273582e-07  1.26662908e-07  7.00000000e-02 
 8.00000000e-02  3.41187119e-09  4.58577115e-01  3.34472959e-09  3.61273835e-09  4.58577115e-01  3.45673943e-09  4.58577115e-01  1.61273558e-07  1.26662727e-07  8.00000000e-02 
 9.00000000e-02  3.41187124e-09  4.58577115e-01  3.34472965e-09  3.61273837e-09  4.58577115e-01  3.45673942e-09  4.58577115e-01  1.61273569e-07  1.26662252e-07  9.00000000e-02 
 1.00000000e-01  3.41187117e-09  4.58577123e-01  3.34472965e-09  3.61273835e-09  4.58577123e-01  3.45673948e-09  4.58577124e-01  1.61273601e-07  1.26662018e-07  1.00000000e-01 
 1.10000000e-01  3.41187125e-09  4.58577133e-01  3.34472965e-09  3.61273837e-09  4.58577133e-01  3.45673941e-09  4.58577133e-01  1.61273594e-07  1.26661800e-07  1.10000000e-01 
 1.20000000e-01  3.41187117e-09  4.58577140e-01  3.34472965e-09  3.61273835e-09  4.58577140e-01  3.45673943e-09  4.58577140e-01  1.61273620e-07  1.26661517e-07  1.20000000e-01 
 1.30000000e-01  3.41187125e-09  4.58577129e-01  3.34472965e-09  3.61273843e-09  4.58577129e-01  3.45673942e-09  4.58577129e-01  1.61273588e-07  1.26661312e-07  1.30000000e-01 
 1.40000000e-01  3.41187123e-09  4.58577085e-01  3.34472959e-09  3.61273835e-09  4.58577085e-01  3.45673947e-09  4.58577085e-01  1.61273531e-07  1.26660873e-07  1.40000000e-01 
 1.50000000e-01  3.41187123e-09  4.58577112e-01  3.34472965e-09  3.61273843e-09  4.58577112e-01  3.45673941e-09  4.58577112e-01  1.61273576e-07  1.26660783e-07  1.50000000e-01 
 1.60000000e-01  3.41187118e-09  4.58577102e-01  3.34472965e-09  3.61273835e-09  4.58577102e-01  3.45673943e-09  4.58577102e-01  1.61273556e-07  1.26660542e-07  1.60000000e-01 
 1.70000000e-01  3.41187119e-09  4.58577130e-01  3.34472965e-09  3.61273837e-09  4.58577130e-01  3.45673942e-09  4.58577130e-01  1.61273588e-07  1.26660344e-07  1.70000000e-01 
 1.80000000e-01  3.41187118e-09  4.58577135e-01  3.34472959e-09  3.61273841e-09  4.58577135e-01  3.45673942e-09  4.58577135e-01  1.61273593e-07  1.26660122e-07  1.80000000e-01 
 1.90000000e-01  3.41187118e-09  4.58577134e-01  3.34472959e-09  3.61273836e-09  4.58577134e-01  3.45673942e-09  4.58577134e-01  1.61273609e-07  1.26659931e-07  1.90000000e-01 
 2.00000000e-01  3.41187118e-09  4.58577114e-01  3.34472965e-09  3.61273843e-09  4.58577114e-01  3.45673942e-09  4.58577115e-01  1.61273578e-07  1.26659881e-07  2.00000000e-01 
 2.10000000e-01  3.41187118e-09  4.58577114e-01  3.34472965e-09  3.61273835e-09  4.58577114e-01  3.45673948e-09  4.58577115e-01  1.61273573e-07  1.26659597e-07  2.10000000e-01 
 2.20000000e-01  3.41187124e-09  4.58577100e-01  3.34472965e-09  3.61273837e-09  4.58577099e-01  3.45673946e-09  4.58577100e-01  1.61273540e-07  1.26659348e-07  2.20000000e-01 
 2.30000000e-01  3.41187123e-09  4.58577138e-01  3.34472965e-09  3.61273841e-09  4.58577138e-01  3.45673942e-09  4.58577138e-01  1.61273612e-07  1.26659222e-07  2.30000000e-01 
 2.40000000e-01  3.41187118e-09  4.58577138e-01  3.34472959e-09  3.61273836e-09  4.58577138e-01  3.45673943e-09  4.58577138e-01  1.61273597e-07  1.26659085e-07  2.40000000e-01 
 2.50000000e-01  3.41187125e-09  4.58577120e-01  3.34472959e-09  3.61273843e-09  4.58577120e-01  3.45673948e-09  4.58577120e-01  1.61273582e-07  1.26658874e-07  2.50000000e-01 
 2.60000000e-01  3.41187123e-09  4.58577120e-01  3.34472959e-09  3.61273841e-09  4.58577120e-01  3.45673941e-09  4.58577120e-01  1.61273578e-07  1.26658733e-07  2.60000000e-01 
 2.70000000e-01  3.41187123e-09  4.58577110e-01  3.34472965e-09  3.61273836e-09  4.58577110e-01  3.45673943e-09  4.58577110e-01  1.61273574e-07  1.26658705e-07  2.70000000e-01 
 2.80000000e-01  3.41187123e-09  4.58577099e-01  3.34472965e-09  3.61273837e-09  4.58577099e-01  3.45673948e-09  4.58577099e-01  1.61273553e-07  1.26658474e-07  2.80000000e-01 
 2.90000000e-01  3.41187118e-09  4.58577104e-01  3.34472965e-09  3.61273835e-09  4.58577104e-01  3.45673941e-09  4.58577104e-01  1.61273546e-07  1.26658247e-07  2.90000000e-01 
 3.00000000e-01  3.41187125e-09  4.58577124e-01  3.34472965e-09  3.61273837e-09  4.58577124e-01  3.45673943e-09  4.58577124e-01  1.61273581e-07  1.26658332e-07  3.00000000e-01 
 3.10000000e-01  3.41187123e-09  4.58577101e-01  3.34472965e-09  3.61273841e-09  4.58577101e-01  3.45673948e-09  4.58577101e-01  1.61273547e-07  1.26658058e-07  3.10000000e-01 
 3.20000000e-01  3.41187118e-09  4.58577110e-01  3.34472965e-09  3.61273841e-09  4.58577110e-01  3.45673946e-09  4.58577110e-01  1.61273552e-07  1.26657923e-07  3.20000000e-01 
 3.30000000e-01  3.41187125e-09  4.58577119e-01  3.34472959e-09  3.61273836e-09  4.58577118e-01  3.45673941e-09  4.58577119e-01  1.61273590e-07  1.26657905e-07  3.30000000e-01 
 3.40000000e-01  3.41187117e-09  4.58577103e-01  3.34472965e-09  3.61273842e-09  4.58577102e-01  3.45673943e-09  4.58577103e-01  1.61273537e-07  1.26657639e-07  3.40000000e-01 
 3.50000000e-01  3.41187125e-09  4.58577117e-01  3.34472965e-09  3.61273835e-09  4.58577117e-01  3.45673948e-09  4.58577118e-01  1.61273575e-07  1.26657557e-07  3.50000000e-01 
 3.60000000e-01  3.41187123e-09  4.58577110e-01  3.34472965e-09  3.61273837e-09  4.58577110e-01  3.45673946e-09  4.58577110e-01  1.61273568e-07  1.26657575e-07  3.60000000e-01 
 3.70000000e-01  3.41187124e-09  4.58577136e-01  3.34472965e-09  3.61273835e-09  4.58577136e-01  3.45673947e-09  4.58577136e-01  1.61273598e-07  1.26657451e-07  3.70000000e-01 
 3.80000000e-01  3.41187123e-09  4.58577097e-01  3.34472959e-09  3.61273837e-09  4.58577097e-01  3.45673941e-09  4.58577097e-01  1.61273534e-07  1.26657277e-07  3.80000000e-01 
 3.90000000e-01  3.41187118e-09  4.58577108e-01  3.34472965e-09  3.61273835e-09  4.58577108e-01  3.45673943e-09  4.58577108e-01  1.61273567e-07  1.26657081e-07  3.90000000e-01 
 4.00000000e-01  3.41187119e-09  4.58577100e-01  3.34472965e-09  3.61273837e-09  4.58577100e-01  3.45673948e-09  4.58577101e-01  1.61273549e-07  1.26657092e-07  4.00000000e-01 
 4.10000000e-01  3.41187118e-09  4.58577112e-01  3.34472959e-09  3.61273835e-09  4.58577112e-01  3.45673941e-09  4.58577112e-01  1.61273576e-07  1.26657113e-07  4.10000000e-01 
 4.20000000e-01  3.41187118e-09  4.58577099e-01  3.34472965e-09  3.61273842e-09  4.58577099e-01  3.45673948e-09  4.58577099e-01  1.61273551e-07  1.26656850e-07  4.20000000e-01 
 4.30000000e-01  3.41187118e-09  4.58577112e-01  3.34472965e-09  3.61273835e-09  4.58577112e-01  3.45673941e-09  4.58577113e-01  1.61273565e-07  1.26656790e-07  4.30000000e-01 
 4.40000000e-01  3.41187118e-09  4.58577132e-01  3.34472965e-09  3.61273837e-09  4.58577132e-01  3.45673943e-09  4.58577132e-01  1.61273587e-07  1.26656662e-07  4.40000000e-01 
 4.50000000e-01  3.41187118e-09  4.58577104e-01  3.34472965e-09  3.61273841e-09  4.58577104e-01  3.45673948e-09  4.58577104e-01  1.61273564e-07  1.26656612e-07  4.50000000e-01 
 4.60000000e-01  3.41187124e-09  4.58577111e-01  3.34472965e-09  3.61273841e-09  4.58577111e-01  3.45673941e-09  4.58577111e-01  1.61273561e-07  1.26656602e-07  4.60000000e-01 
 4.70000000e-01  3.41187123e-09  4.58577136e-01  3.34472965e-09  3.61273842e-09  4.58577136e-01  3.45673943e-09  4.58577136e-01  1.61273599e-07  1.26656428e-07  4.70000000e-01 
 4.80000000e-01  3.41187123e-09  4.58577114e-01  3.34472959e-09  3.61273836e-09  4.58577114e-01  3.45673942e-09  4.58577114e-01  1.61273566e-07  1.26656314e-07  4.80000000e-01 
 4.90000000e-01  3.41187118e-09  4.58577123e-01  3.34472965e-09  3.61273837e-09  4.58577123e-01  3.45673942e-09  4.58577123e-01  1.61273588e-07  1.26656253e-07  4.90000000e-01 
 5.00000000e-01  3.41187119e-09  4.58577103e-01  3.34472965e-09  3.61273835e-09  4.58577103e-01  3.45673942e-09  4.58577103e-01  1.61273553e-07  1.26656097e-07  5.00000000e-01 
 5.10000000e-01  3.41187124e-09  4.58577100e-01  3.34472959e-09  3.61273837e-09  4.58577100e-01  3.45673942e-09  4.58577100e-01  1.61273546e-07  1.26655973e-07  5.10000000e-01 
 5.20000000e-01  3.41187123e-09  4.58577112e-01  3.34472965e-09  3.61273841e-09  4.58577112e-01  3.45673948e-09  4.58577112e-01  1.61273570e-07  1.26655756e-07  5.20000000e-01 
 5.30000000e-01  3.41187118e-09  4.58577122e-01  3.34472965e-09  3.61273841e-09  4.58577122e-01  3.45673941e-09  4.58577123e-01  1.61273585e-07  1.26655895e-07  5.30000000e-01 
 5.40000000e-01  3.41187119e-09  4.58577118e-01  3.34472965e-09  3.61273836e-09  4.58577118e-01  3.45673943e-09  4.58577118e-01  1.61273579e-07  1.26655731e-07  5.40000000e-01 
 5.50000000e-01  3.41187124e-09  4.58577114e-01  3.34472965e-09  3.61273843e-09  4.58577114e-01  3.45673948e-09  4.58577114e-01  1.61273577e-07  1.26655731e-07  5.50000000e-01 
 5.60000000e-01  3.41187123e-09  4.58577135e-01  3.34472965e-09  3.61273841e-09  4.58577135e-01  3.45673941e-09  4.58577135e-01  1.61273599e-07  1.26655692e-07  5.60000000e-01 
 5.70000000e-01  3.41187123e-09  4.58577113e-01  3.34472965e-09  3.61273841e-09  4.58577113e-01  3.45673948e-09  4.58577113e-01  1.61273570e-07  1.26655497e-07  5.70000000e-01 
 5.80000000e-01  3.41187123e-09  4.58577110e-01  3.34472965e-09  3.61273841e-09  4.58577110e-01  3.45673941e-09  4.58577110e-01  1.61273558e-07  1.26655472e-07  5.80000000e-01 
 5.90000000e-01  3.41187118e-09  4.58577138e-01  3.34472965e-09  3.61273836e-09  4.58577138e-01  3.45673943e-09  4.58577138e-01  1.61273609e-07  1.26655344e-07  5.90000000e-01 
 6.00000000e-01  3.41187119e-09  4.58577104e-01  3.34472965e-09  3.61273837e-09  4.58577104e-01  3.45673942e-09  4.58577104e-01  1.61273537e-07  1.26655173e-07  6.00000000e-01 
 6.10000000e-01  3.41187118e-09  4.58577116e-01  3.34472959e-09  3.61273841e-09  4.58577116e-01  3.45673942e-09  4.58577116e-01  1.61273576e-07  1.26655152e-07  6.10000000e-01 
 6.20000000e-01  3.41187118e-09  4.58577122e-01  3.34472965e-09  3.61273841e-09  4.58577122e-01  3.45673942e-09  4.58577122e-01  1.61273577e-07  1.26655102e-07  6.20000000e-01 
 6.30000000e-01  3.41187118e-09  4.58577134e-01  3.34472959e-09  3.61273842e-09  4.58577134e-01  3.45673948e-09  4.58577134e-01  1.61273589e-07  1.26655046e-07  6.30000000e-01 
 6.40000000e-01  3.41187118e-09  4.58577125e-01  3.34472965e-09  3.61273836e-09  4.58577125e-01  3.45673941e-09  4.58577125e-01  1.61273598e-07  1.26654960e-07  6.40000000e-01 
 6.50000000e-01  3.41187124e-09  4.58577124e-01  3.34472965e-09  3.61273837e-09  4.58577124e-01  3.45673943e-09  4.58577124e-01  1.61273583e-07  1.26654783e-07  6.50000000e-01 
 6.60000000e-01  3.41187123e-09  4.58577114e-01  3.34472965e-09  3.61273841e-09  4.58577114e-01  3.45673942e-09  4.58577114e-01  1.61273559e-07  1.26654768e-07  6.60000000e-01 
 6.70000000e-01  3.41187123e-09  4.58577118e-01  3.34472965e-09  3.61273841e-09  4.58577118e-01  3.45673942e-09  4.58577118e-01  1.61273577e-07  1.26654705e-07  6.70000000e-01 
 6.80000000e-01  3.41187123e-09  4.58577110e-01  3.34472965e-09  3.61273841e-09  4.58577110e-01  3.45673948e-09  4.58577110e-01  1.61273560e-07  1.26654513e-07  6.80000000e-01 
 6.90000000e-01  3.41187123e-09  4.58577116e-01  3.34472965e-09  3.61273836e-09  4.58577116e-01  3.45673947e-09  4.58577116e-01  1.61273573e-07  1.26654477e-07  6.90000000e-01 
 7.00000000e-01  3.41187118e-09  4.58577109e-01  3.34472959e-09  3.61273842e-09  4.58577109e-01  3.45673941e-09  4.58577109e-01  1.61273560e-07  1.26654236e-07  7.00000000e-01 
 7.10000000e-01  3.41187125e-09  4.58577148e-01  3.34472960e-09  3.61273841e-09  4.58577148e-01  3.45673943e-09  4.58577148e-01  1.61273628e-07  1.26654321e-07  7.10000000e-01 
 7.20000000e-01  3.41187123e-09  4.58577115e-01  3.34472959e-09  3.61273836e-09  4.58577115e-01  3.45673942e-09  4.58577115e-01  1.61273565e-07  1.26654143e-07  7.20000000e-01 
 7.30000000e-01  3.41187118e-09  4.58577115e-01  3.34472965e-09  3.61273837e-09  4.58577115e-01  3.45673948e-09  4.58577115e-01  1.61273571e-07  1.26654143e-07  7.30000000e-01 
 7.40000000e-01  3.41187125e-09  4.58577133e-01  3.34472959e-09  3.61273841e-09  4.58577133e-01  3.45673941e-09  4.58577133e-01  1.61273598e-07  1.26654164e-07  7.40000000e-01 
 7.50000000e-01  3.41187117e-09  4.58577122e-01  3.34472959e-09  3.61273841e-09  4.58577122e-01  3.45673943e-09  4.58577122e-01  1.61273566e-07  1.26653958e-07  7.50000000e-01 
 7.60000000e-01  3.41187119e-09  4.58577125e-01  3.34472965e-09  3.61273836e-09  4.58577125e-01  3.45673948e-09  4.58577125e-01  1.61273578e-07  1.26653781e-07  7.60000000e-01 
 7.70000000e-01  3.41187124e-09  4.58577113e-01  3.34472965e-09  3.61273837e-09  4.58577113e-01  3.45673946e-09  4.58577113e-01  1.61273576e-07  1.26653717e-07  7.70000000e-01 
 7.80000000e-01  3.41187117e-09  4.58577124e-01  3.34472965e-09  3.61273841e-09  4.58577124e-01  3.45673942e-09  4.58577124e-01  1.61273578e-07  1.26653681e-07  7.80000000e-01 
 7.90000000e-01  3.41187125e-09  4.58577106e-01  3.34472965e-09  3.61273835e-09  4.58577106e-01  3.45673943e-09  4.58577106e-01  1.61273564e-07  1.26653518e-07  7.90000000e-01 
 8.00000000e-01  3.41187123e-09  4.58577112e-01  3.34472965e-09  3.61273837e-09  4.58577112e-01  3.45673942e-09  4.58577113e-01  1.61273570e-07  1.26653347e-07  8.00000000e-01 
 8.10000000e-01  3.41187124e-09  4.58577132e-01  3.34472965e-09  3.61273835e-09  4.58577132e-01  3.45673942e-09  4.58577132e-01  1.61273590e-07  1.26653447e-07  8.10000000e-01 
 8.20000000e-01  3.41187118e-09  4.58577115e-01  3.34472965e-09  3.61273837e-09  4.58577115e-01  3.45673942e-09  4.58577115e-01  1.61273587e-07  1.26653283e-07  8.20000000e-01 
 8.30000000e-01  3.41187119e-09  4.58577114e-01  3.34472959e-09  3.61273835e-09  4.58577114e-01  3.45673948e-09  4.58577114e-01  1.61273560e-07  1.26653212e-07  8.30000000e-01 
 8.40000000e-01  3.41187124e-09  4.58577113e-01  3.34472965e-09  3.61273837e-09  4.58577112e-01  3.45673941e-09  4.58577113e-01  1.61273568e-07  1.26653120e-07  8.40000000e-01 
 8.50000000e-01  3.41187123e-09  4.58577140e-01  3.34472965e-09  3.61273835e-09  4.58577140e-01  3.45673943e-09  4.58577140e-01  1.61273608e-07  1.26653127e-07  8.50000000e-01 
 8.60000000e-01  3.41187118e-09  4.58577140e-01  3.34472959e-09  3.61273837e-09  4.58577140e-01  3.45673942e-09  4.58577140e-01  1.61273603e-07  1.26653042e-07  8.60000000e-01 
 8.70000000e-01  3.41187125e-09  4.58577129e-01  3.34472959e-09  3.61273841e-09  4.58577129e-01  3.45673942e-09  4.58577129e-01  1.61273599e-07  1.26652836e-07  8.70000000e-01 
 8.80000000e-01  3.41187117e-09  4.58577113e-01  3.34472965e-09  3.61273841e-09  4.58577113e-01  3.45673942e-09  4.58577114e-01  1.61273572e-07  1.26652672e-07  8.80000000e-01 
 8.90000000e-01  3.41187119e-09  4.58577133e-01  3.34472965e-09  3.61273836e-09  4.58577133e-01  3.45673948e-09  4.58577133e-01  1.61273607e-07  1.26652679e-07  8.90000000e-01 
 9.00000000e-01  3.41187118e-09  4.58577111e-01  3.34472965e-09  3.61273842e-09  4.58577111e-01  3.45673941e-09  4.58577111e-01  1.61273562e-07  1.26652665e-07  9.00000000e-01 
 9.10000000e-01  3.41187118e-09  4.58577119e-01  3.34472965e-09  3.61273841e-09  4.58577119e-01  3.45673948e-09  4.58577119e-01  1.61273582e-07  1.26652445e-07  9.10000000e-01 
 9.20000000e-01  3.41187118e-09  4.58577101e-01  3.34472959e-09  3.61273835e-09  4.58577101e-01  3.45673946e-09  4.58577101e-01  1.61273542e-07  1.26652381e-07  9.20000000e-01 
 9.30000000e-01  3.41187124e-09  4.58577124e-01  3.34472965e-09  3.61273837e-09  4.58577124e-01  3.45673942e-09  4.58577124e-01  1.61273583e-07  1.26652353e-07  9.30000000e-01 
 9.40000000e-01  3.41187123e-09  4.58577114e-01  3.34472965e-09  3.61273841e-09  4.58577113e-01  3.45673948e-09  4.58577114e-01  1.61273568e-07  1.26652161e-07  9.40000000e-01 
 9.50000000e-01  3.41187118e-09  4.58577114e-01  3.34472965e-09  3.61273836e-09  4.58577114e-01  3.45673946e-09  4.58577114e-01  1.61273583e-07  1.26651962e-07  9.50000000e-01 
 9.60000000e-01  3.41187125e-09  4.58577116e-01  3.34472959e-09  3.61273843e-09  4.58577116e-01  3.45673947e-09  4.58577116e-01  1.61273567e-07  1.26651990e-07  9.60000000e-01 
 9.70000000e-01  3.41187123e-09  4.58577119e-01  3.34472965e-09  3.61273835e-09  4.58577119e-01  3.45673947e-09  4.58577119e-01  1.61273579e-07  1.26651855e-07  9.70000000e-01 
 9.80000000e-01  3.41187124e-09  4.58577120e-01  3.34472965e-09  3.61273843e-09  4.58577120e-01  3.45673941e-09  4.58577120e-01  1.61273575e-07  1.26651777e-07  9.80000000e-01 
 9.90000000e-01  3.41187123e-09  4.58577107e-01  3.34472959e-09  3.61273835e-09  4.58577107e-01  3.45673943e-09  4.58577107e-01  1.61273554e-07  1.26651528e-07  9.90000000e-01 
 1.00000000e+00  3.41187118e-09  4.58577115e-01  3.34472965e-09  3.61273837e-09  4.58577115e-01  3.45673948e-09  4.58577115e-01  1.61273580e-07  1.26651550e-07  1.00000000e+00 
 1.01000000e+00  3.41187125e-09  4.58577120e-01  3.34472965e-09  3.61273841e-09  4.58577120e-01  3.45673947e-09  4.58577120e-01  1.61273582e-07  1.26651521e-07  1.01000000e+00 
 1.02000000e+00  3.41187123e-09  4.58577115e-01  3.34472965e-09  3.61273841e-09  4.58577115e-01  3.45673947e-09  4.58577115e-01  1.61273575e-07  1.26651294e-07  1.02000000e+00 
 1.03000000e+00  3.41187118e-09  4.58577124e-01  3.34472959e-09  3.61273836e-09  4.58577124e-01  3.45673942e-09  4.58577124e-01  1.61273580e-07  1.26651166e-07  1.03000000e+00 
 1.04000000e+00  3.41187125e-09  4.58577123e-01  3.34472965e-09  3.61273837e-09  4.58577123e-01  3.45673943e-09  4.58577123e-01  1.61273585e-07  1.26651202e-07  1.04000000e+00 
 1.05000000e+00  3.41187117e-09  4.58577128e-01  3.34472959e-09  3.61273841e-09  4.58577128e-01  3.45673942e-09  4.58577128e-01  1.61273592e-07  1.26651116e-07  1.05000000e+00 
 1.06000000e+00  3.41187125e-09  4.58577119e-01  3.34472959e-09  3.61273841e-09  4.58577118e-01  3.45673942e-09  4.58577119e-01  1.61273569e-07  1.26650932e-07  1.06000000e+00 
 1.07000000e+00  3.41187117e-09  4.58577139e-01  3.34472959e-09  3.61273842e-09  4.58577139e-01  3.45673942e-09  4.58577139e-01  1.61273605e-07  1.26650932e-07  1.07000000e+00 
 1.08000000e+00  3.41187125e-09  4.58577098e-01  3.34472965e-09  3.61273841e-09  4.58577098e-01  3.45673948e-09  4.58577098e-01  1.61273540e-07  1.26650733e-07  1.08000000e+00 
 1.09000000e+00  3.41187123e-09  4.58577114e-01  3.34472965e-09  3.61273836e-09  4.58577114e-01  3.45673941e-09  4.58577115e-01  1.61273578e-07  1.26650640e-07  1.09000000e+00 
 1.10000000e+00  3.41187123e-09  4.58577095e-01  3.34472965e-09  3.61273842e-09  4.58577095e-01  3.45673942e-09  4.58577095e-01  1.61273539e-07  1.26650548e-07  1.10000000e+00 
