 v-sweep         v(b0)           v(b1)           v(b2)           v(b3)           v(b4)           v(b5)           v(b6)           i(vbias)        i(viout)        v(vout)        
 0.00000000e+00  3.21089297e-09  4.55176710e-01  4.55176710e-01  3.46498228e-09  3.39875104e-09  3.36374567e-09  3.49362855e-09  1.53075569e-07  8.54306872e-09  0.00000000e+00 
 1.00000000e-02  3.21089295e-09  4.55176706e-01  4.55176706e-01  3.46498226e-09  3.39875101e-09  3.36374570e-09  3.49362848e-09  1.53075555e-07  8.54261184e-09  1.00000000e-02 
 2.00000000e-02  3.21089296e-09  4.55176708e-01  4.55176708e-01  3.46498226e-09  3.39875101e-09  3.36374570e-09  3.49362853e-09  1.53075565e-07  8.54209659e-09  2.00000000e-02 
 3.00000000e-02  3.21089300e-09  4.55176702e-01  4.55176702e-01  3.46498226e-09  3.39875101e-09  3.36374570e-09  3.49362853e-09  1.53075562e-07  8.54180016e-09  3.00000000e-02 
 4.00000000e-02  3.21089295e-09  4.55176694e-01  4.55176694e-01  3.46498226e-09  3.39875101e-09  3.36374570e-09  3.49362853e-09  1.53075550e-07  8.54147242e-09  4.00000000e-02 
 5.00000000e-02  3.21089296e-09  4.55176706e-01  4.55176706e-01  3.46498226e-09  3.39875101e-09  3.36374570e-09  3.49362848e-09  1.53075570e-07  8.54119619e-09  5.00000000e-02 
 6.00000000e-02  3.21089294e-09  4.55176712e-01  4.55176712e-01  3.46498226e-09  3.39875101e-09  3.36374570e-09  3.49362853e-09  1.53075583e-07  8.54090532e-09  6.00000000e-02 
 7.00000000e-02  3.21089296e-09  4.55176713e-01  4.55176713e-01  3.46498226e-09  3.39875101e-09  3.36374570e-09  3.49362853e-09  1.53075575e-07  8.54045501e-09  7.00000000e-02 
 8.00000000e-02  3.21089294e-09  4.55176702e-01  4.55176702e-01  3.46498232e-09  3.39875101e-09  3.36374570e-09  3.49362853e-09  1.53075542e-07  8.54029203e-09  8.00000000e-02 
 9.00000000e-02  3.21089296e-09  4.55176693e-01  4.55176693e-01  3.46498231e-09  3.39875107e-09  3.36374570e-09  3.49362847e-09  1.53075544e-07  8.53998294e-09  9.00000000e-02 
 1.00000000e-01  3.21089294e-09  4.55176716e-01  4.55176716e-01  3.46498231e-09  3.39875101e-09  3.36374570e-09  3.49362848e-09  1.53075582e-07  8.53979021e-09  1.00000000e-01 
 1.10000000e-01  3.21089296e-09  4.55176699e-01  4.55176699e-01  3.46498225e-09  3.39875101e-09  3.36374570e-09  3.49362853e-09  1.53075551e-07  8.53956994e-09  1.10000000e-01 
 1.20000000e-01  3.21089294e-09  4.55176699e-01  4.55176699e-01  3.46498227e-09  3.39875101e-09  3.36374570e-09  3.49362848e-09  1.53075547e-07  8.53931148e-09  1.20000000e-01 
 1.30000000e-01  3.21089296e-09  4.55176711e-01  4.55176711e-01  3.46498232e-09  3.39875101e-09  3.36374570e-09  3.49362853e-09  1.53075578e-07  8.53903526e-09  1.30000000e-01 
 1.40000000e-01  3.21089294e-09  4.55176706e-01  4.55176706e-01  3.46498225e-09  3.39875101e-09  3.36374570e-09  3.49362848e-09  1.53075566e-07  8.53887094e-09  1.40000000e-01 
 1.50000000e-01  3.21089290e-09  4.55176701e-01  4.55176700e-01  3.46498227e-09  3.39875101e-09  3.36374570e-09  3.49362853e-09  1.53075546e-07  8.53864890e-09  1.50000000e-01 
 1.60000000e-01  3.21089296e-09  4.55176720e-01  4.55176720e-01  3.46498226e-09  3.39875101e-09  3.36374570e-09  3.49362853e-09  1.53075594e-07  8.53856186e-09  1.60000000e-01 
 1.70000000e-01  3.21089295e-09  4.55176701e-01  4.55176701e-01  3.46498226e-09  3.39875101e-09  3.36374570e-09  3.49362853e-09  1.53075549e-07  8.53835225e-09  1.70000000e-01 
 1.80000000e-01  3.21089295e-09  4.55176700e-01  4.55176699e-01  3.46498232e-09  3.39875101e-09  3.36374570e-09  3.49362853e-09  1.53075554e-07  8.53809823e-09  1.80000000e-01 
 1.90000000e-01  3.21089296e-09  4.55176711e-01  4.55176711e-01  3.46498225e-09  3.39875101e-09  3.36374570e-09  3.49362853e-09  1.53075574e-07  8.53788151e-09  1.90000000e-01 
 2.00000000e-01  3.21089295e-09  4.55176683e-01  4.55176683e-01  3.46498227e-09  3.39875101e-09  3.36374570e-09  3.49362853e-09  1.53075537e-07  8.53780513e-09  2.00000000e-01 
 2.10000000e-01  3.21089296e-09  4.55176712e-01  4.55176712e-01  3.46498226e-09  3.39875101e-09  3.36374570e-09  3.49362848e-09  1.53075558e-07  8.53775539e-09  2.10000000e-01 
 2.20000000e-01  3.21089296e-09  4.55176717e-01  4.55176717e-01  3.46498226e-09  3.39875101e-09  3.36374570e-09  3.49362853e-09  1.53075583e-07  8.53748716e-09  2.20000000e-01 
 2.30000000e-01  3.21089296e-09  4.55176715e-01  4.55176715e-01  3.46498232e-09  3.39875101e-09  3.36374570e-09  3.49362848e-09  1.53075579e-07  8.53734328e-09  2.30000000e-01 
 2.40000000e-01  3.21089295e-09  4.55176698e-01  4.55176698e-01  3.46498225e-09  3.39875101e-09  3.36374570e-09  3.49362853e-09  1.53075541e-07  8.53719584e-09  2.40000000e-01 
 2.50000000e-01  3.21089296e-09  4.55176708e-01  4.55176708e-01  3.46498227e-09  3.39875101e-09  3.36374570e-09  3.49362853e-09  1.53075551e-07  8.53723847e-09  2.50000000e-01 
 2.60000000e-01  3.21089290e-09  4.55176716e-01  4.55176716e-01  3.46498226e-09  3.39875101e-09  3.36374570e-09  3.49362853e-09  1.53075584e-07  8.53684767e-09  2.60000000e-01 
 2.70000000e-01  3.21089296e-09  4.55176711e-01  4.55176711e-01  3.46498226e-09  3.39875101e-09  3.36374570e-09  3.49362853e-09  1.53075568e-07  8.53692583e-09  2.70000000e-01 
 2.80000000e-01  3.21089295e-09  4.55176695e-01  4.55176695e-01  3.46498226e-09  3.39875101e-09  3.36374570e-09  3.49362853e-09  1.53075555e-07  8.53677307e-09  2.80000000e-01 
 2.90000000e-01  3.21089295e-09  4.55176666e-01  4.55176666e-01  3.46498226e-09  3.39875101e-09  3.36374570e-09  3.49362847e-09  1.53075495e-07  8.53663096e-09  2.90000000e-01 
 3.00000000e-01  3.21089295e-09  4.55176698e-01  4.55176698e-01  3.46498226e-09  3.39875101e-09  3.36374570e-09  3.49362854e-09  1.53075546e-07  8.53661319e-09  3.00000000e-01 
 3.10000000e-01  3.21089296e-09  4.55176721e-01  4.55176721e-01  3.46498226e-09  3.39875101e-09  3.36374570e-09  3.49362853e-09  1.53075587e-07  8.53641424e-09  3.10000000e-01 
 3.20000000e-01  3.21089295e-09  4.55176675e-01  4.55176675e-01  3.46498232e-09  3.39875101e-09  3.36374570e-09  3.49362847e-09  1.53075505e-07  8.53638937e-09  3.20000000e-01 
 3.30000000e-01  3.21089296e-09  4.55176715e-01  4.55176715e-01  3.46498225e-09  3.39875101e-09  3.36374570e-09  3.49362855e-09  1.53075569e-07  8.53635385e-09  3.30000000e-01 
 3.40000000e-01  3.21089296e-09  4.55176723e-01  4.55176723e-01  3.46498227e-09  3.39875101e-09  3.36374570e-09  3.49362853e-09  1.53075586e-07  8.53624726e-09  3.40000000e-01 
 3.50000000e-01  3.21089296e-09  4.55176719e-01  4.55176719e-01  3.46498226e-09  3.39875101e-09  3.36374570e-09  3.49362853e-09  1.53075581e-07  8.53615489e-09  3.50000000e-01 
 3.60000000e-01  3.21089295e-09  4.55176700e-01  4.55176700e-01  3.46498226e-09  3.39875101e-09  3.36374570e-09  3.49362853e-09  1.53075557e-07  8.53603055e-09  3.60000000e-01 
 3.70000000e-01  3.21089295e-09  4.55176701e-01  4.55176701e-01  3.46498226e-09  3.39875101e-09  3.36374570e-09  3.49362853e-09  1.53075560e-07  8.53596305e-09  3.70000000e-01 
 3.80000000e-01  3.21089295e-09  4.55176685e-01  4.55176685e-01  3.46498232e-09  3.39875101e-09  3.36374570e-09  3.49362853e-09  1.53075535e-07  8.53592752e-09  3.80000000e-01 
 3.90000000e-01  3.21089295e-09  4.55176694e-01  4.55176693e-01  3.46498225e-09  3.39875101e-09  3.36374570e-09  3.49362853e-09  1.53075518e-07  8.53588844e-09  3.90000000e-01 
 4.00000000e-01  3.21089296e-09  4.55176708e-01  4.55176708e-01  3.46498227e-09  3.39875101e-09  3.36374570e-09  3.49362853e-09  1.53075566e-07  8.53570725e-09  4.00000000e-01 
 4.10000000e-01  3.21089295e-09  4.55176699e-01  4.55176699e-01  3.46498226e-09  3.39875101e-09  3.36374570e-09  3.49362853e-09  1.53075550e-07  8.53574633e-09  4.10000000e-01 
 4.20000000e-01  3.21089290e-09  4.55176729e-01  4.55176729e-01  3.46498232e-09  3.39875101e-09  3.36374570e-09  3.49362853e-09  1.53075599e-07  8.53562199e-09  4.20000000e-01 
 4.30000000e-01  3.21089296e-09  4.55176709e-01  4.55176709e-01  3.46498231e-09  3.39875101e-09  3.36374570e-09  3.49362853e-09  1.53075566e-07  8.53567172e-09  4.30000000e-01 
 4.40000000e-01  3.21089296e-09  4.55176744e-01  4.55176744e-01  3.46498226e-09  3.39875102e-09  3.36374570e-09  3.49362854e-09  1.53075619e-07  8.53551185e-09  4.40000000e-01 
 4.50000000e-01  3.21089296e-09  4.55176709e-01  4.55176709e-01  3.46498227e-09  3.39875101e-09  3.36374570e-09  3.49362853e-09  1.53075560e-07  8.53556870e-09  4.50000000e-01 
 4.60000000e-01  3.21089290e-09  4.55176727e-01  4.55176727e-01  3.46498226e-09  3.39875101e-09  3.36374570e-09  3.49362848e-09  1.53075571e-07  8.53537685e-09  4.60000000e-01 
 4.70000000e-01  3.21089295e-09  4.55176697e-01  4.55176697e-01  3.46498232e-09  3.39875101e-09  3.36374570e-09  3.49362853e-09  1.53075546e-07  8.53539817e-09  4.70000000e-01 
 4.80000000e-01  3.21089295e-09  4.55176672e-01  4.55176672e-01  3.46498230e-09  3.39875101e-09  3.36374570e-09  3.49362847e-09  1.53075506e-07  8.53536974e-09  4.80000000e-01 
 4.90000000e-01  3.21089295e-09  4.55176680e-01  4.55176680e-01  3.46498231e-09  3.39875101e-09  3.36374570e-09  3.49362854e-09  1.53075515e-07  8.53519921e-09  4.90000000e-01 
 5.00000000e-01  3.21089296e-09  4.55176709e-01  4.55176709e-01  3.46498225e-09  3.39875101e-09  3.36374570e-09  3.49362853e-09  1.53075568e-07  8.53522408e-09  5.00000000e-01 
 5.10000000e-01  3.21089295e-09  4.55176700e-01  4.55176700e-01  3.46498232e-09  3.39875101e-09  3.36374570e-09  3.49362853e-09  1.53075554e-07  8.53525961e-09  5.10000000e-01 
 5.20000000e-01  3.21089295e-09  4.55176697e-01  4.55176697e-01  3.46498225e-09  3.39875101e-09  3.36374570e-09  3.49362847e-09  1.53075552e-07  8.53511395e-09  5.20000000e-01 
 5.30000000e-01  3.21089295e-09  4.55176696e-01  4.55176696e-01  3.46498227e-09  3.39875101e-09  3.36374570e-09  3.49362853e-09  1.53075561e-07  8.53500026e-09  5.30000000e-01 
 5.40000000e-01  3.21089296e-09  4.55176732e-01  4.55176732e-01  3.46498232e-09  3.39875102e-09  3.36374570e-09  3.49362848e-09  1.53075594e-07  8.53493987e-09  5.40000000e-01 
 5.50000000e-01  3.21089295e-09  4.55176699e-01  4.55176699e-01  3.46498225e-09  3.39875101e-09  3.36374570e-09  3.49362853e-09  1.53075536e-07  8.53495763e-09  5.50000000e-01 
 5.60000000e-01  3.21089295e-09  4.55176702e-01  4.55176702e-01  3.46498227e-09  3.39875101e-09  3.36374570e-09  3.49362853e-09  1.53075538e-07  8.53479776e-09  5.60000000e-01 
 5.70000000e-01  3.21089295e-09  4.55176701e-01  4.55176701e-01  3.46498226e-09  3.39875101e-09  3.36374570e-09  3.49362853e-09  1.53075558e-07  8.53474447e-09  5.70000000e-01 
 5.80000000e-01  3.21089295e-09  4.55176702e-01  4.55176702e-01  3.46498226e-09  3.39875101e-09  3.36374570e-09  3.49362848e-09  1.53075563e-07  8.53466275e-09  5.80000000e-01 
 5.90000000e-01  3.21089295e-09  4.55176679e-01  4.55176679e-01  3.46498226e-09  3.39875101e-09  3.36374570e-09  3.49362853e-09  1.53075522e-07  8.53466986e-09  5.90000000e-01 
 6.00000000e-01  3.21089295e-09  4.55176667e-01  4.55176667e-01  3.46498226e-09  3.39875101e-09  3.36374570e-09  3.49362853e-09  1.53075492e-07  8.53457038e-09  6.00000000e-01 
 6.10000000e-01  3.21089295e-09  4.55176680e-01  4.55176680e-01  3.46498226e-09  3.39875101e-09  3.36374570e-09  3.49362853e-09  1.53075535e-07  8.53463433e-09  6.10000000e-01 
 6.20000000e-01  3.21089295e-09  4.55176697e-01  4.55176697e-01  3.46498226e-09  3.39875101e-09  3.36374570e-09  3.49362853e-09  1.53075545e-07  8.53458459e-09  6.20000000e-01 
 6.30000000e-01  3.21089296e-09  4.55176712e-01  4.55176712e-01  3.46498226e-09  3.39875101e-09  3.36374570e-09  3.49362853e-09  1.53075571e-07  8.53447801e-09  6.30000000e-01 
 6.40000000e-01  3.21089290e-09  4.55176706e-01  4.55176706e-01  3.46498226e-09  3.39875101e-09  3.36374570e-09  3.49362853e-09  1.53075584e-07  8.53434301e-09  6.40000000e-01 
 6.50000000e-01  3.21089296e-09  4.55176730e-01  4.55176730e-01  3.46498232e-09  3.39875101e-09  3.36374570e-09  3.49362853e-09  1.53075604e-07  8.53427906e-09  6.50000000e-01 
 6.60000000e-01  3.21089295e-09  4.55176688e-01  4.55176688e-01  3.46498231e-09  3.39875101e-09  3.36374570e-09  3.49362853e-09  1.53075530e-07  8.53430748e-09  6.60000000e-01 
 6.70000000e-01  3.21089295e-09  4.55176689e-01  4.55176689e-01  3.46498231e-09  3.39875101e-09  3.36374570e-09  3.49362853e-09  1.53075535e-07  8.53435012e-09  6.70000000e-01 
 6.80000000e-01  3.21089295e-09  4.55176698e-01  4.55176698e-01  3.46498225e-09  3.39875101e-09  3.36374570e-09  3.49362853e-09  1.53075553e-07  8.53425774e-09  6.80000000e-01 
 6.90000000e-01  3.21089296e-09  4.55176711e-01  4.55176711e-01  3.46498227e-09  3.39875101e-09  3.36374570e-09  3.49362853e-09  1.53075563e-07  8.53425064e-09  6.90000000e-01 
 7.00000000e-01  3.21089296e-09  4.55176720e-01  4.55176720e-01  3.46498226e-09  3.39875101e-09  3.36374570e-09  3.49362853e-09  1.53075589e-07  8.53406590e-09  7.00000000e-01 
 7.10000000e-01  3.21089296e-09  4.55176710e-01  4.55176710e-01  3.46498226e-09  3.39875101e-09  3.36374570e-09  3.49362853e-09  1.53075571e-07  8.53409432e-09  7.10000000e-01 
 7.20000000e-01  3.21089295e-09  4.55176701e-01  4.55176701e-01  3.46498226e-09  3.39875101e-09  3.36374570e-09  3.49362853e-09  1.53075552e-07  8.53403748e-09  7.20000000e-01 
 7.30000000e-01  3.21089296e-09  4.55176703e-01  4.55176703e-01  3.46498226e-09  3.39875101e-09  3.36374570e-09  3.49362853e-09  1.53075554e-07  8.53398774e-09  7.30000000e-01 
 7.40000000e-01  3.21089295e-09  4.55176681e-01  4.55176681e-01  3.46498226e-09  3.39875101e-09  3.36374570e-09  3.49362853e-09  1.53075536e-07  8.53381721e-09  7.40000000e-01 
 7.50000000e-01  3.21089290e-09  4.55176727e-01  4.55176727e-01  3.46498232e-09  3.39875101e-09  3.36374570e-09  3.49362853e-09  1.53075601e-07  8.53381721e-09  7.50000000e-01 
 7.60000000e-01  3.21089296e-09  4.55176713e-01  4.55176713e-01  3.46498225e-09  3.39875101e-09  3.36374570e-09  3.49362848e-09  1.53075567e-07  8.53388826e-09  7.60000000e-01 
 7.70000000e-01  3.21089296e-09  4.55176708e-01  4.55176708e-01  3.46498227e-09  3.39875101e-09  3.36374570e-09  3.49362853e-09  1.53075554e-07  8.53395221e-09  7.70000000e-01 
 7.80000000e-01  3.21089296e-09  4.55176712e-01  4.55176712e-01  3.46498232e-09  3.39875101e-09  3.36374570e-09  3.49362853e-09  1.53075562e-07  8.53374615e-09  7.80000000e-01 
 7.90000000e-01  3.21089296e-09  4.55176704e-01  4.55176704e-01  3.46498225e-09  3.39875101e-09  3.36374570e-09  3.49362853e-09  1.53075558e-07  8.53373194e-09  7.90000000e-01 
 8.00000000e-01  3.21089295e-09  4.55176692e-01  4.55176692e-01  3.46498227e-09  3.39875101e-09  3.36374570e-09  3.49362853e-09  1.53075545e-07  8.53355431e-09  8.00000000e-01 
 8.10000000e-01  3.21089296e-09  4.55176706e-01  4.55176706e-01  3.46498226e-09  3.39875101e-09  3.36374570e-09  3.49362848e-09  1.53075560e-07  8.53358983e-09  8.10000000e-01 
 8.20000000e-01  3.21089296e-09  4.55176712e-01  4.55176712e-01  3.46498226e-09  3.39875101e-09  3.36374570e-09  3.49362853e-09  1.53075574e-07  8.53366089e-09  8.20000000e-01 
 8.30000000e-01  3.21089296e-09  4.55176722e-01  4.55176722e-01  3.46498226e-09  3.39875101e-09  3.36374570e-09  3.49362848e-09  1.53075593e-07  8.53341220e-09  8.30000000e-01 
 8.40000000e-01  3.21089296e-09  4.55176716e-01  4.55176716e-01  3.46498232e-09  3.39875101e-09  3.36374570e-09  3.49362853e-09  1.53075585e-07  8.53353299e-09  8.40000000e-01 
 8.50000000e-01  3.21089290e-09  4.55176698e-01  4.55176698e-01  3.46498231e-09  3.39875101e-09  3.36374570e-09  3.49362853e-09  1.53075551e-07  8.53351168e-09  8.50000000e-01 
 8.60000000e-01  3.21089296e-09  4.55176709e-01  4.55176709e-01  3.46498225e-09  3.39875101e-09  3.36374570e-09  3.49362848e-09  1.53075563e-07  8.53341220e-09  8.60000000e-01 
 8.70000000e-01  3.21089295e-09  4.55176692e-01  4.55176692e-01  3.46498227e-09  3.39875101e-09  3.36374570e-09  3.49362853e-09  1.53075544e-07  8.53327720e-09  8.70000000e-01 
 8.80000000e-01  3.21089296e-09  4.55176714e-01  4.55176714e-01  3.46498226e-09  3.39875101e-09  3.36374570e-09  3.49362853e-09  1.53075563e-07  8.53326299e-09  8.80000000e-01 
 8.90000000e-01  3.21089295e-09  4.55176683e-01  4.55176682e-01  3.46498226e-09  3.39875101e-09  3.36374570e-09  3.49362853e-09  1.53075529e-07  8.53327720e-09  8.90000000e-01 
 9.00000000e-01  3.21089296e-09  4.55176722e-01  4.55176721e-01  3.46498226e-09  3.39875101e-09  3.36374570e-09  3.49362853e-09  1.53075570e-07  8.53305693e-09  9.00000000e-01 
 9.10000000e-01  3.21089296e-09  4.55176715e-01  4.55176715e-01  3.46498226e-09  3.39875101e-09  3.36374570e-09  3.49362853e-09  1.53075567e-07  8.53321325e-09  9.10000000e-01 
 9.20000000e-01  3.21089290e-09  4.55176706e-01  4.55176706e-01  3.46498226e-09  3.39875101e-09  3.36374570e-09  3.49362853e-09  1.53075558e-07  8.53311377e-09  9.20000000e-01 
 9.30000000e-01  3.21089290e-09  4.55176692e-01  4.55176692e-01  3.46498226e-09  3.39875101e-09  3.36374570e-09  3.49362853e-09  1.53075563e-07  8.53295035e-09  9.30000000e-01 
 9.40000000e-01  3.21089295e-09  4.55176679e-01  4.55176679e-01  3.46498226e-09  3.39875101e-09  3.36374570e-09  3.49362853e-09  1.53075526e-07  8.53292903e-09  9.40000000e-01 
 9.50000000e-01  3.21089295e-09  4.55176695e-01  4.55176695e-01  3.46498232e-09  3.39875101e-09  3.36374570e-09  3.49362853e-09  1.53075525e-07  8.53292903e-09  9.50000000e-01 
 9.60000000e-01  3.21089295e-09  4.55176701e-01  4.55176701e-01  3.46498231e-09  3.39875101e-09  3.36374570e-09  3.49362853e-09  1.53075543e-07  8.53290771e-09  9.60000000e-01 
 9.70000000e-01  3.21089295e-09  4.55176703e-01  4.55176703e-01  3.46498231e-09  3.39875101e-09  3.36374570e-09  3.49362848e-09  1.53075549e-07  8.53280113e-09  9.70000000e-01 
 9.80000000e-01  3.21089296e-09  4.55176704e-01  4.55176704e-01  3.46498225e-09  3.39875101e-09  3.36374570e-09  3.49362853e-09  1.53075548e-07  8.53280113e-09  9.80000000e-01 
 9.90000000e-01  3.21089295e-09  4.55176698e-01  4.55176698e-01  3.46498227e-09  3.39875101e-09  3.36374570e-09  3.49362853e-09  1.53075545e-07  8.53277271e-09  9.90000000e-01 
 1.00000000e+00  3.21089290e-09  4.55176697e-01  4.55176697e-01  3.46498226e-09  3.39875101e-09  3.36374570e-09  3.49362853e-09  1.53075553e-07  8.53250270e-09  1.00000000e+00 
 1.01000000e+00  3.21089295e-09  4.55176687e-01  4.55176687e-01  3.46498226e-09  3.39875101e-09  3.36374570e-09  3.49362853e-09  1.53075524e-07  8.53241744e-09  1.01000000e+00 
 1.02000000e+00  3.21089295e-09  4.55176701e-01  4.55176701e-01  3.46498226e-09  3.39875101e-09  3.36374570e-09  3.49362853e-09  1.53075546e-07  8.53255955e-09  1.02000000e+00 
 1.03000000e+00  3.21089296e-09  4.55176719e-01  4.55176718e-01  3.46498226e-09  3.39875101e-09  3.36374570e-09  3.49362853e-09  1.53075590e-07  8.53250270e-09  1.03000000e+00 
 1.04000000e+00  3.21089295e-09  4.55176697e-01  4.55176697e-01  3.46498226e-09  3.39875101e-09  3.36374570e-09  3.49362847e-09  1.53075555e-07  8.53238902e-09  1.04000000e+00 
 1.05000000e+00  3.21089295e-09  4.55176686e-01  4.55176686e-01  3.46498232e-09  3.39875101e-09  3.36374570e-09  3.49362847e-09  1.53075531e-07  8.53233217e-09  1.05000000e+00 
 1.06000000e+00  3.21089295e-09  4.55176691e-01  4.55176691e-01  3.46498225e-09  3.39875101e-09  3.36374570e-09  3.49362853e-09  1.53075526e-07  8.53232507e-09  1.06000000e+00 
 1.07000000e+00  3.21089295e-09  4.55176695e-01  4.55176695e-01  3.46498227e-09  3.39875101e-09  3.36374570e-09  3.49362853e-09  1.53075555e-07  8.53219007e-09  1.07000000e+00 
 1.08000000e+00  3.21089290e-09  4.55176704e-01  4.55176704e-01  3.46498226e-09  3.39875101e-09  3.36374570e-09  3.49362853e-09  1.53075572e-07  8.53214033e-09  1.08000000e+00 
 1.09000000e+00  3.21089295e-09  4.55176692e-01  4.55176692e-01  3.46498232e-09  3.39875101e-09  3.36374570e-09  3.49362853e-09  1.53075536e-07  8.53206217e-09  1.09000000e+00 
 1.10000000e+00  3.21089295e-09  4.55176698e-01  4.55176698e-01  3.46498231e-09  3.39875101e-09  3.36374570e-09  3.49362847e-09  1.53075543e-07  8.53220428e-09  1.10000000e+00 
