 v-sweep         v(b0)           v(b1)           v(b2)           v(b3)           v(b4)           v(b5)           v(b6)           i(vbias)        i(viout)        v(vout)        
 0.00000000e+00  3.45979274e-09  3.25381597e-09  3.43340401e-09  3.16045168e-09  4.57661774e-01  3.52402196e-09  4.57661774e-01  1.56911118e-07  1.14558787e-07  0.00000000e+00 
 1.00000000e-02  3.45979277e-09  3.25381595e-09  3.43340404e-09  3.16045167e-09  4.57661763e-01  3.52402200e-09  4.57661763e-01  1.56911112e-07  1.14558349e-07  1.00000000e-02 
 2.00000000e-02  3.45979271e-09  3.25381595e-09  3.43340404e-09  3.16045167e-09  4.57661765e-01  3.52402200e-09  4.57661764e-01  1.56911110e-07  1.14557971e-07  2.00000000e-02 
 3.00000000e-02  3.45979272e-09  3.25381595e-09  3.43340404e-09  3.16045172e-09  4.57661755e-01  3.52402194e-09  4.57661755e-01  1.56911101e-07  1.14557513e-07  3.00000000e-02 
 4.00000000e-02  3.45979272e-09  3.25381595e-09  3.43340404e-09  3.16045172e-09  4.57661738e-01  3.52402199e-09  4.57661737e-01  1.56911063e-07  1.14557166e-07  4.00000000e-02 
 5.00000000e-02  3.45979272e-09  3.25381595e-09  3.43340404e-09  3.16045172e-09  4.57661745e-01  3.52402194e-09  4.57661744e-01  1.56911070e-07  1.14556763e-07  5.00000000e-02 
 6.00000000e-02  3.45979272e-09  3.25381595e-09  3.43340404e-09  3.16045167e-09  4.57661755e-01  3.52402194e-09  4.57661755e-01  1.56911093e-07  1.14556434e-07  6.00000000e-02 
 7.00000000e-02  3.45979272e-09  3.25381595e-09  3.43340404e-09  3.16045166e-09  4.57661743e-01  3.52402200e-09  4.57661743e-01  1.56911084e-07  1.14556150e-07  7.00000000e-02 
 8.00000000e-02  3.45979272e-09  3.25381601e-09  3.43340404e-09  3.16045166e-09  4.57661734e-01  3.52402194e-09  4.57661734e-01  1.56911057e-07  1.14555869e-07  8.00000000e-02 
 9.00000000e-02  3.45979272e-09  3.25381595e-09  3.43340404e-09  3.16045167e-09  4.57661761e-01  3.52402194e-09  4.57661761e-01  1.56911099e-07  1.14555603e-07  9.00000000e-02 
 1.00000000e-01  3.45979272e-09  3.25381595e-09  3.43340404e-09  3.16045167e-09  4.57661777e-01  3.52402194e-09  4.57661777e-01  1.56911133e-07  1.14555400e-07  1.00000000e-01 
 1.10000000e-01  3.45979272e-09  3.25381595e-09  3.43340404e-09  3.16045172e-09  4.57661795e-01  3.52402194e-09  4.57661795e-01  1.56911141e-07  1.14555116e-07  1.10000000e-01 
 1.20000000e-01  3.45979272e-09  3.25381595e-09  3.43340404e-09  3.16045167e-09  4.57661751e-01  3.52402194e-09  4.57661751e-01  1.56911081e-07  1.14554788e-07  1.20000000e-01 
 1.30000000e-01  3.45979272e-09  3.25381601e-09  3.43340404e-09  3.16045167e-09  4.57661783e-01  3.52402194e-09  4.57661783e-01  1.56911133e-07  1.14554568e-07  1.30000000e-01 
 1.40000000e-01  3.45979272e-09  3.25381595e-09  3.43340404e-09  3.16045167e-09  4.57661749e-01  3.52402194e-09  4.57661749e-01  1.56911077e-07  1.14554336e-07  1.40000000e-01 
 1.50000000e-01  3.45979272e-09  3.25381595e-09  3.43340404e-09  3.16045167e-09  4.57661768e-01  3.52402194e-09  4.57661768e-01  1.56911120e-07  1.14554267e-07  1.50000000e-01 
 1.60000000e-01  3.45979272e-09  3.25381595e-09  3.43340404e-09  3.16045167e-09  4.57661757e-01  3.52402194e-09  4.57661757e-01  1.56911092e-07  1.14553874e-07  1.60000000e-01 
 1.70000000e-01  3.45979272e-09  3.25381595e-09  3.43340404e-09  3.16045167e-09  4.57661753e-01  3.52402200e-09  4.57661753e-01  1.56911079e-07  1.14553629e-07  1.70000000e-01 
 1.80000000e-01  3.45979272e-09  3.25381595e-09  3.43340404e-09  3.16045167e-09  4.57661768e-01  3.52402194e-09  4.57661768e-01  1.56911108e-07  1.14553517e-07  1.80000000e-01 
 1.90000000e-01  3.45979272e-09  3.25381601e-09  3.43340404e-09  3.16045167e-09  4.57661773e-01  3.52402194e-09  4.57661773e-01  1.56911115e-07  1.14553300e-07  1.90000000e-01 
 2.00000000e-01  3.45979272e-09  3.25381595e-09  3.43340404e-09  3.16045167e-09  4.57661749e-01  3.52402194e-09  4.57661749e-01  1.56911091e-07  1.14553195e-07  2.00000000e-01 
 2.10000000e-01  3.45979272e-09  3.25381595e-09  3.43340404e-09  3.16045167e-09  4.57661748e-01  3.52402194e-09  4.57661748e-01  1.56911074e-07  1.14552838e-07  2.10000000e-01 
 2.20000000e-01  3.45979272e-09  3.25381595e-09  3.43340404e-09  3.16045167e-09  4.57661770e-01  3.52402194e-09  4.57661770e-01  1.56911131e-07  1.14552826e-07  2.20000000e-01 
 2.30000000e-01  3.45979272e-09  3.25381601e-09  3.43340404e-09  3.16045172e-09  4.57661779e-01  3.52402194e-09  4.57661779e-01  1.56911126e-07  1.14552627e-07  2.30000000e-01 
 2.40000000e-01  3.45979272e-09  3.25381595e-09  3.43340404e-09  3.16045172e-09  4.57661756e-01  3.52402194e-09  4.57661755e-01  1.56911102e-07  1.14552446e-07  2.40000000e-01 
 2.50000000e-01  3.45979272e-09  3.25381595e-09  3.43340404e-09  3.16045166e-09  4.57661745e-01  3.52402194e-09  4.57661745e-01  1.56911081e-07  1.14552181e-07  2.50000000e-01 
 2.60000000e-01  3.45979272e-09  3.25381595e-09  3.43340404e-09  3.16045167e-09  4.57661749e-01  3.52402194e-09  4.57661749e-01  1.56911059e-07  1.14552160e-07  2.60000000e-01 
 2.70000000e-01  3.45979272e-09  3.25381595e-09  3.43340404e-09  3.16045167e-09  4.57661753e-01  3.52402194e-09  4.57661753e-01  1.56911088e-07  1.14552050e-07  2.70000000e-01 
 2.80000000e-01  3.45979272e-09  3.25381601e-09  3.43340404e-09  3.16045167e-09  4.57661765e-01  3.52402194e-09  4.57661765e-01  1.56911120e-07  1.14551893e-07  2.80000000e-01 
 2.90000000e-01  3.45979272e-09  3.25381595e-09  3.43340404e-09  3.16045167e-09  4.57661760e-01  3.52402194e-09  4.57661760e-01  1.56911098e-07  1.14551749e-07  2.90000000e-01 
 3.00000000e-01  3.45979272e-09  3.25381595e-09  3.43340404e-09  3.16045167e-09  4.57661751e-01  3.52402200e-09  4.57661751e-01  1.56911090e-07  1.14551572e-07  3.00000000e-01 
 3.10000000e-01  3.45979278e-09  3.25381595e-09  3.43340404e-09  3.16045167e-09  4.57661773e-01  3.52402194e-09  4.57661773e-01  1.56911113e-07  1.14551518e-07  3.10000000e-01 
 3.20000000e-01  3.45979271e-09  3.25381595e-09  3.43340404e-09  3.16045172e-09  4.57661763e-01  3.52402194e-09  4.57661763e-01  1.56911098e-07  1.14551380e-07  3.20000000e-01 
 3.30000000e-01  3.45979272e-09  3.25381595e-09  3.43340404e-09  3.16045172e-09  4.57661745e-01  3.52402194e-09  4.57661745e-01  1.56911085e-07  1.14551263e-07  3.30000000e-01 
 3.40000000e-01  3.45979271e-09  3.25381595e-09  3.43340404e-09  3.16045166e-09  4.57661732e-01  3.52402199e-09  4.57661732e-01  1.56911058e-07  1.14551060e-07  3.40000000e-01 
 3.50000000e-01  3.45979272e-09  3.25381601e-09  3.43340404e-09  3.16045167e-09  4.57661757e-01  3.52402194e-09  4.57661757e-01  1.56911093e-07  1.14551057e-07  3.50000000e-01 
 3.60000000e-01  3.45979272e-09  3.25381595e-09  3.43340404e-09  3.16045167e-09  4.57661754e-01  3.52402200e-09  4.57661754e-01  1.56911095e-07  1.14551010e-07  3.60000000e-01 
 3.70000000e-01  3.45979272e-09  3.25381595e-09  3.43340404e-09  3.16045167e-09  4.57661761e-01  3.52402194e-09  4.57661761e-01  1.56911102e-07  1.14550897e-07  3.70000000e-01 
 3.80000000e-01  3.45979272e-09  3.25381595e-09  3.43340404e-09  3.16045167e-09  4.57661761e-01  3.52402194e-09  4.57661761e-01  1.56911105e-07  1.14550723e-07  3.80000000e-01 
 3.90000000e-01  3.45979272e-09  3.25381595e-09  3.43340404e-09  3.16045167e-09  4.57661754e-01  3.52402194e-09  4.57661754e-01  1.56911096e-07  1.14550545e-07  3.90000000e-01 
 4.00000000e-01  3.45979272e-09  3.25381595e-09  3.43340404e-09  3.16045167e-09  4.57661754e-01  3.52402200e-09  4.57661753e-01  1.56911085e-07  1.14550502e-07  4.00000000e-01 
 4.10000000e-01  3.45979272e-09  3.25381595e-09  3.43340404e-09  3.16045166e-09  4.57661737e-01  3.52402194e-09  4.57661737e-01  1.56911068e-07  1.14550460e-07  4.10000000e-01 
 4.20000000e-01  3.45979272e-09  3.25381595e-09  3.43340404e-09  3.16045167e-09  4.57661764e-01  3.52402200e-09  4.57661764e-01  1.56911107e-07  1.14550406e-07  4.20000000e-01 
 4.30000000e-01  3.45979272e-09  3.25381595e-09  3.43340404e-09  3.16045172e-09  4.57661788e-01  3.52402194e-09  4.57661788e-01  1.56911137e-07  1.14550343e-07  4.30000000e-01 
 4.40000000e-01  3.45979272e-09  3.25381595e-09  3.43340404e-09  3.16045167e-09  4.57661764e-01  3.52402194e-09  4.57661764e-01  1.56911099e-07  1.14550208e-07  4.40000000e-01 
 4.50000000e-01  3.45979271e-09  3.25381595e-09  3.43340404e-09  3.16045166e-09  4.57661728e-01  3.52402194e-09  4.57661728e-01  1.56911052e-07  1.14550058e-07  4.50000000e-01 
 4.60000000e-01  3.45979272e-09  3.25381595e-09  3.43340404e-09  3.16045172e-09  4.57661755e-01  3.52402194e-09  4.57661755e-01  1.56911093e-07  1.14549945e-07  4.60000000e-01 
 4.70000000e-01  3.45979272e-09  3.25381601e-09  3.43340404e-09  3.16045167e-09  4.57661785e-01  3.52402200e-09  4.57661785e-01  1.56911122e-07  1.14549973e-07  4.70000000e-01 
 4.80000000e-01  3.45979272e-09  3.25381595e-09  3.43340404e-09  3.16045172e-09  4.57661770e-01  3.52402194e-09  4.57661770e-01  1.56911108e-07  1.14549835e-07  4.80000000e-01 
 4.90000000e-01  3.45979272e-09  3.25381595e-09  3.43340404e-09  3.16045167e-09  4.57661751e-01  3.52402200e-09  4.57661751e-01  1.56911087e-07  1.14549685e-07  4.90000000e-01 
 5.00000000e-01  3.45979272e-09  3.25381595e-09  3.43340404e-09  3.16045172e-09  4.57661743e-01  3.52402194e-09  4.57661743e-01  1.56911067e-07  1.14549604e-07  5.00000000e-01 
 5.10000000e-01  3.45979272e-09  3.25381595e-09  3.43340404e-09  3.16045167e-09  4.57661780e-01  3.52402200e-09  4.57661780e-01  1.56911120e-07  1.14549657e-07  5.10000000e-01 
 5.20000000e-01  3.45979272e-09  3.25381595e-09  3.43340404e-09  3.16045167e-09  4.57661762e-01  3.52402200e-09  4.57661762e-01  1.56911091e-07  1.14549493e-07  5.20000000e-01 
 5.30000000e-01  3.45979272e-09  3.25381595e-09  3.43340404e-09  3.16045167e-09  4.57661754e-01  3.52402194e-09  4.57661754e-01  1.56911089e-07  1.14549380e-07  5.30000000e-01 
 5.40000000e-01  3.45979272e-09  3.25381595e-09  3.43340404e-09  3.16045172e-09  4.57661754e-01  3.52402194e-09  4.57661754e-01  1.56911085e-07  1.14549273e-07  5.40000000e-01 
 5.50000000e-01  3.45979272e-09  3.25381595e-09  3.43340404e-09  3.16045167e-09  4.57661750e-01  3.52402194e-09  4.57661750e-01  1.56911088e-07  1.14549181e-07  5.50000000e-01 
 5.60000000e-01  3.45979272e-09  3.25381595e-09  3.43340404e-09  3.16045167e-09  4.57661762e-01  3.52402200e-09  4.57661762e-01  1.56911094e-07  1.14549156e-07  5.60000000e-01 
 5.70000000e-01  3.45979272e-09  3.25381595e-09  3.43340404e-09  3.16045167e-09  4.57661766e-01  3.52402194e-09  4.57661766e-01  1.56911118e-07  1.14549071e-07  5.70000000e-01 
 5.80000000e-01  3.45979272e-09  3.25381595e-09  3.43340404e-09  3.16045167e-09  4.57661757e-01  3.52402194e-09  4.57661757e-01  1.56911092e-07  1.14548932e-07  5.80000000e-01 
 5.90000000e-01  3.45979272e-09  3.25381595e-09  3.43340404e-09  3.16045172e-09  4.57661756e-01  3.52402194e-09  4.57661756e-01  1.56911111e-07  1.14548875e-07  5.90000000e-01 
 6.00000000e-01  3.45979272e-09  3.25381595e-09  3.43340404e-09  3.16045167e-09  4.57661751e-01  3.52402200e-09  4.57661751e-01  1.56911101e-07  1.14548747e-07  6.00000000e-01 
 6.10000000e-01  3.45979272e-09  3.25381595e-09  3.43340404e-09  3.16045166e-09  4.57661736e-01  3.52402199e-09  4.57661736e-01  1.56911069e-07  1.14548754e-07  6.10000000e-01 
 6.20000000e-01  3.45979271e-09  3.25381595e-09  3.43340404e-09  3.16045166e-09  4.57661727e-01  3.52402194e-09  4.57661727e-01  1.56911042e-07  1.14548534e-07  6.20000000e-01 
 6.30000000e-01  3.45979272e-09  3.25381595e-09  3.43340404e-09  3.16045166e-09  4.57661744e-01  3.52402194e-09  4.57661744e-01  1.56911083e-07  1.14548435e-07  6.30000000e-01 
 6.40000000e-01  3.45979272e-09  3.25381595e-09  3.43340404e-09  3.16045167e-09  4.57661755e-01  3.52402194e-09  4.57661755e-01  1.56911095e-07  1.14548421e-07  6.40000000e-01 
 6.50000000e-01  3.45979272e-09  3.25381595e-09  3.43340404e-09  3.16045167e-09  4.57661776e-01  3.52402194e-09  4.57661776e-01  1.56911120e-07  1.14548513e-07  6.50000000e-01 
 6.60000000e-01  3.45979272e-09  3.25381595e-09  3.43340404e-09  3.16045167e-09  4.57661752e-01  3.52402200e-09  4.57661752e-01  1.56911078e-07  1.14548357e-07  6.60000000e-01 
 6.70000000e-01  3.45979272e-09  3.25381601e-09  3.43340404e-09  3.16045167e-09  4.57661747e-01  3.52402194e-09  4.57661747e-01  1.56911066e-07  1.14548186e-07  6.70000000e-01 
 6.80000000e-01  3.45979272e-09  3.25381595e-09  3.43340404e-09  3.16045166e-09  4.57661745e-01  3.52402194e-09  4.57661745e-01  1.56911073e-07  1.14548044e-07  6.80000000e-01 
 6.90000000e-01  3.45979272e-09  3.25381601e-09  3.43340404e-09  3.16045167e-09  4.57661754e-01  3.52402194e-09  4.57661753e-01  1.56911088e-07  1.14548087e-07  6.90000000e-01 
 7.00000000e-01  3.45979272e-09  3.25381595e-09  3.43340404e-09  3.16045166e-09  4.57661736e-01  3.52402199e-09  4.57661736e-01  1.56911074e-07  1.14547987e-07  7.00000000e-01 
 7.10000000e-01  3.45979272e-09  3.25381595e-09  3.43340404e-09  3.16045167e-09  4.57661747e-01  3.52402194e-09  4.57661747e-01  1.56911087e-07  1.14547838e-07  7.10000000e-01 
 7.20000000e-01  3.45979272e-09  3.25381595e-09  3.43340404e-09  3.16045166e-09  4.57661737e-01  3.52402199e-09  4.57661737e-01  1.56911069e-07  1.14547881e-07  7.20000000e-01 
 7.30000000e-01  3.45979272e-09  3.25381595e-09  3.43340404e-09  3.16045167e-09  4.57661751e-01  3.52402194e-09  4.57661751e-01  1.56911085e-07  1.14547774e-07  7.30000000e-01 
 7.40000000e-01  3.45979272e-09  3.25381595e-09  3.43340404e-09  3.16045172e-09  4.57661751e-01  3.52402194e-09  4.57661751e-01  1.56911106e-07  1.14547674e-07  7.40000000e-01 
 7.50000000e-01  3.45979272e-09  3.25381595e-09  3.43340404e-09  3.16045172e-09  4.57661792e-01  3.52402194e-09  4.57661792e-01  1.56911154e-07  1.14547788e-07  7.50000000e-01 
 7.60000000e-01  3.45979272e-09  3.25381595e-09  3.43340404e-09  3.16045167e-09  4.57661756e-01  3.52402194e-09  4.57661756e-01  1.56911077e-07  1.14547440e-07  7.60000000e-01 
 7.70000000e-01  3.45979272e-09  3.25381595e-09  3.43340404e-09  3.16045172e-09  4.57661745e-01  3.52402200e-09  4.57661745e-01  1.56911086e-07  1.14547468e-07  7.70000000e-01 
 7.80000000e-01  3.45979272e-09  3.25381595e-09  3.43340404e-09  3.16045167e-09  4.57661764e-01  3.52402194e-09  4.57661764e-01  1.56911109e-07  1.14547412e-07  7.80000000e-01 
 7.90000000e-01  3.45979272e-09  3.25381595e-09  3.43340404e-09  3.16045167e-09  4.57661785e-01  3.52402194e-09  4.57661784e-01  1.56911140e-07  1.14547390e-07  7.90000000e-01 
 8.00000000e-01  3.45979272e-09  3.25381595e-09  3.43340404e-09  3.16045172e-09  4.57661742e-01  3.52402194e-09  4.57661742e-01  1.56911067e-07  1.14547042e-07  8.00000000e-01 
 8.10000000e-01  3.45979272e-09  3.25381595e-09  3.43340404e-09  3.16045167e-09  4.57661753e-01  3.52402194e-09  4.57661753e-01  1.56911093e-07  1.14547042e-07  8.10000000e-01 
 8.20000000e-01  3.45979272e-09  3.25381595e-09  3.43340404e-09  3.16045167e-09  4.57661753e-01  3.52402194e-09  4.57661753e-01  1.56911099e-07  1.14547042e-07  8.20000000e-01 
 8.30000000e-01  3.45979272e-09  3.25381601e-09  3.43340404e-09  3.16045167e-09  4.57661763e-01  3.52402200e-09  4.57661763e-01  1.56911102e-07  1.14546822e-07  8.30000000e-01 
 8.40000000e-01  3.45979272e-09  3.25381601e-09  3.43340404e-09  3.16045167e-09  4.57661776e-01  3.52402194e-09  4.57661776e-01  1.56911129e-07  1.14546907e-07  8.40000000e-01 
 8.50000000e-01  3.45979272e-09  3.25381595e-09  3.43340404e-09  3.16045172e-09  4.57661757e-01  3.52402194e-09  4.57661757e-01  1.56911095e-07  1.14546651e-07  8.50000000e-01 
 8.60000000e-01  3.45979272e-09  3.25381595e-09  3.43340404e-09  3.16045167e-09  4.57661768e-01  3.52402194e-09  4.57661768e-01  1.56911108e-07  1.14546772e-07  8.60000000e-01 
 8.70000000e-01  3.45979272e-09  3.25381601e-09  3.43340404e-09  3.16045167e-09  4.57661760e-01  3.52402194e-09  4.57661760e-01  1.56911106e-07  1.14546545e-07  8.70000000e-01 
 8.80000000e-01  3.45979272e-09  3.25381595e-09  3.43340404e-09  3.16045167e-09  4.57661749e-01  3.52402200e-09  4.57661749e-01  1.56911099e-07  1.14546459e-07  8.80000000e-01 
 8.90000000e-01  3.45979271e-09  3.25381595e-09  3.43340404e-09  3.16045172e-09  4.57661727e-01  3.52402194e-09  4.57661727e-01  1.56911056e-07  1.14546339e-07  8.90000000e-01 
 9.00000000e-01  3.45979272e-09  3.25381601e-09  3.43340404e-09  3.16045172e-09  4.57661743e-01  3.52402200e-09  4.57661743e-01  1.56911075e-07  1.14546282e-07  9.00000000e-01 
 9.10000000e-01  3.45979272e-09  3.25381595e-09  3.43340404e-09  3.16045167e-09  4.57661784e-01  3.52402194e-09  4.57661784e-01  1.56911144e-07  1.14546296e-07  9.10000000e-01 
 9.20000000e-01  3.45979272e-09  3.25381595e-09  3.43340404e-09  3.16045167e-09  4.57661761e-01  3.52402194e-09  4.57661761e-01  1.56911090e-07  1.14546253e-07  9.20000000e-01 
 9.30000000e-01  3.45979272e-09  3.25381595e-09  3.43340404e-09  3.16045172e-09  4.57661755e-01  3.52402194e-09  4.57661755e-01  1.56911095e-07  1.14546133e-07  9.30000000e-01 
 9.40000000e-01  3.45979272e-09  3.25381595e-09  3.43340404e-09  3.16045172e-09  4.57661735e-01  3.52402194e-09  4.57661735e-01  1.56911063e-07  1.14545820e-07  9.40000000e-01 
 9.50000000e-01  3.45979272e-09  3.25381601e-09  3.43340404e-09  3.16045167e-09  4.57661749e-01  3.52402200e-09  4.57661749e-01  1.56911091e-07  1.14545855e-07  9.50000000e-01 
 9.60000000e-01  3.45979272e-09  3.25381595e-09  3.43340404e-09  3.16045167e-09  4.57661753e-01  3.52402194e-09  4.57661753e-01  1.56911103e-07  1.14545834e-07  9.60000000e-01 
 9.70000000e-01  3.45979272e-09  3.25381595e-09  3.43340404e-09  3.16045167e-09  4.57661749e-01  3.52402194e-09  4.57661749e-01  1.56911095e-07  1.14545763e-07  9.70000000e-01 
 9.80000000e-01  3.45979272e-09  3.25381601e-09  3.43340404e-09  3.16045167e-09  4.57661749e-01  3.52402200e-09  4.57661749e-01  1.56911091e-07  1.14545621e-07  9.80000000e-01 
 9.90000000e-01  3.45979272e-09  3.25381601e-09  3.43340404e-09  3.16045166e-09  4.57661744e-01  3.52402194e-09  4.57661744e-01  1.56911078e-07  1.14545522e-07  9.90000000e-01 
 1.00000000e+00  3.45979272e-09  3.25381595e-09  3.43340404e-09  3.16045172e-09  4.57661754e-01  3.52402194e-09  4.57661754e-01  1.56911099e-07  1.14545458e-07  1.00000000e+00 
 1.01000000e+00  3.45979272e-09  3.25381595e-09  3.43340404e-09  3.16045172e-09  4.57661756e-01  3.52402194e-09  4.57661756e-01  1.56911110e-07  1.14545415e-07  1.01000000e+00 
 1.02000000e+00  3.45979272e-09  3.25381595e-09  3.43340404e-09  3.16045172e-09  4.57661755e-01  3.52402200e-09  4.57661755e-01  1.56911097e-07  1.14545145e-07  1.02000000e+00 
 1.03000000e+00  3.45979272e-09  3.25381595e-09  3.43340404e-09  3.16045166e-09  4.57661741e-01  3.52402194e-09  4.57661741e-01  1.56911075e-07  1.14545074e-07  1.03000000e+00 
 1.04000000e+00  3.45979271e-09  3.25381595e-09  3.43340404e-09  3.16045166e-09  4.57661722e-01  3.52402194e-09  4.57661722e-01  1.56911037e-07  1.14544989e-07  1.04000000e+00 
 1.05000000e+00  3.45979272e-09  3.25381595e-09  3.43340404e-09  3.16045167e-09  4.57661751e-01  3.52402200e-09  4.57661750e-01  1.56911079e-07  1.14544939e-07  1.05000000e+00 
 1.06000000e+00  3.45979272e-09  3.25381595e-09  3.43340404e-09  3.16045167e-09  4.57661770e-01  3.52402194e-09  4.57661770e-01  1.56911111e-07  1.14544910e-07  1.06000000e+00 
 1.07000000e+00  3.45979272e-09  3.25381595e-09  3.43340404e-09  3.16045167e-09  4.57661767e-01  3.52402194e-09  4.57661766e-01  1.56911108e-07  1.14544804e-07  1.07000000e+00 
 1.08000000e+00  3.45979271e-09  3.25381595e-09  3.43340404e-09  3.16045166e-09  4.57661722e-01  3.52402199e-09  4.57661722e-01  1.56911059e-07  1.14544562e-07  1.08000000e+00 
 1.09000000e+00  3.45979272e-09  3.25381595e-09  3.43340404e-09  3.16045172e-09  4.57661754e-01  3.52402200e-09  4.57661754e-01  1.56911099e-07  1.14544626e-07  1.09000000e+00 
 1.10000000e+00  3.45979272e-09  3.25381595e-09  3.43340404e-09  3.16045172e-09  4.57661777e-01  3.52402200e-09  4.57661776e-01  1.56911116e-07  1.14544491e-07  1.10000000e+00 
