 v-sweep         v(b0)           v(b1)           v(b2)           v(b3)           v(b4)           v(b5)           v(b6)           i(vbias)        i(viout)        v(vout)        
 0.00000000e+00  4.56592280e-01  3.26149960e-09  4.56592280e-01  4.56592280e-01  3.22681516e-09  3.43772835e-09  3.18183045e-09  1.56791577e-07  1.97653224e-08  0.00000000e+00 
 1.00000000e-02  4.56592261e-01  3.26149963e-09  4.56592261e-01  4.56592261e-01  3.22681519e-09  3.43772837e-09  3.18183048e-09  1.56791550e-07  1.97648957e-08  1.00000000e-02 
 2.00000000e-02  4.56592260e-01  3.26149963e-09  4.56592260e-01  4.56592260e-01  3.22681519e-09  3.43772831e-09  3.18183048e-09  1.56791560e-07  1.97645511e-08  2.00000000e-02 
 3.00000000e-02  4.56592283e-01  3.26149969e-09  4.56592283e-01  4.56592283e-01  3.22681514e-09  3.43772838e-09  3.18183043e-09  1.56791573e-07  1.97641170e-08  3.00000000e-02 
 4.00000000e-02  4.56592245e-01  3.26149963e-09  4.56592245e-01  4.56592245e-01  3.22681513e-09  3.43772836e-09  3.18183043e-09  1.56791522e-07  1.97638483e-08  4.00000000e-02 
 5.00000000e-02  4.56592260e-01  3.26149963e-09  4.56592260e-01  4.56592260e-01  3.22681513e-09  3.43772831e-09  3.18183048e-09  1.56791544e-07  1.97634575e-08  5.00000000e-02 
 6.00000000e-02  4.56592274e-01  3.26149963e-09  4.56592274e-01  4.56592274e-01  3.22681513e-09  3.43772838e-09  3.18183048e-09  1.56791572e-07  1.97630508e-08  6.00000000e-02 
 7.00000000e-02  4.56592275e-01  3.26149963e-09  4.56592275e-01  4.56592275e-01  3.22681513e-09  3.43772837e-09  3.18183043e-09  1.56791554e-07  1.97628833e-08  7.00000000e-02 
 8.00000000e-02  4.56592274e-01  3.26149963e-09  4.56592274e-01  4.56592274e-01  3.22681513e-09  3.43772837e-09  3.18183048e-09  1.56791556e-07  1.97625960e-08  8.00000000e-02 
 9.00000000e-02  4.56592280e-01  3.26149963e-09  4.56592280e-01  4.56592280e-01  3.22681519e-09  3.43772837e-09  3.18183043e-09  1.56791583e-07  1.97623304e-08  9.00000000e-02 
 1.00000000e-01  4.56592259e-01  3.26149963e-09  4.56592259e-01  4.56592259e-01  3.22681513e-09  3.43772837e-09  3.18183048e-09  1.56791550e-07  1.97619681e-08  1.00000000e-01 
 1.10000000e-01  4.56592265e-01  3.26149963e-09  4.56592265e-01  4.56592265e-01  3.22681513e-09  3.43772831e-09  3.18183048e-09  1.56791543e-07  1.97618482e-08  1.10000000e-01 
 1.20000000e-01  4.56592268e-01  3.26149963e-09  4.56592268e-01  4.56592268e-01  3.22681513e-09  3.43772833e-09  3.18183048e-09  1.56791576e-07  1.97616110e-08  1.20000000e-01 
 1.30000000e-01  4.56592286e-01  3.26149963e-09  4.56592286e-01  4.56592286e-01  3.22681519e-09  3.43772838e-09  3.18183048e-09  1.56791597e-07  1.97613694e-08  1.30000000e-01 
 1.40000000e-01  4.56592278e-01  3.26149963e-09  4.56592278e-01  4.56592278e-01  3.22681513e-09  3.43772837e-09  3.18183043e-09  1.56791572e-07  1.97612078e-08  1.40000000e-01 
 1.50000000e-01  4.56592272e-01  3.26149963e-09  4.56592272e-01  4.56592272e-01  3.22681513e-09  3.43772831e-09  3.18183048e-09  1.56791571e-07  1.97608667e-08  1.50000000e-01 
 1.60000000e-01  4.56592266e-01  3.26149963e-09  4.56592266e-01  4.56592266e-01  3.22681513e-09  3.43772838e-09  3.18183048e-09  1.56791556e-07  1.97608543e-08  1.60000000e-01 
 1.70000000e-01  4.56592262e-01  3.26149963e-09  4.56592261e-01  4.56592262e-01  3.22681519e-09  3.43772836e-09  3.18183043e-09  1.56791559e-07  1.97605932e-08  1.70000000e-01 
 1.80000000e-01  4.56592249e-01  3.26149963e-09  4.56592249e-01  4.56592249e-01  3.22681519e-09  3.43772837e-09  3.18183043e-09  1.56791527e-07  1.97604688e-08  1.80000000e-01 
 1.90000000e-01  4.56592257e-01  3.26149963e-09  4.56592257e-01  4.56592257e-01  3.22681519e-09  3.43772831e-09  3.18183043e-09  1.56791551e-07  1.97603676e-08  1.90000000e-01 
 2.00000000e-01  4.56592279e-01  3.26149963e-09  4.56592279e-01  4.56592279e-01  3.22681519e-09  3.43772833e-09  3.18183043e-09  1.56791570e-07  1.97601491e-08  2.00000000e-01 
 2.10000000e-01  4.56592276e-01  3.26149963e-09  4.56592276e-01  4.56592276e-01  3.22681519e-09  3.43772832e-09  3.18183048e-09  1.56791565e-07  1.97600478e-08  2.10000000e-01 
 2.20000000e-01  4.56592251e-01  3.26149963e-09  4.56592251e-01  4.56592251e-01  3.22681513e-09  3.43772838e-09  3.18183048e-09  1.56791528e-07  1.97598737e-08  2.20000000e-01 
 2.30000000e-01  4.56592263e-01  3.26149963e-09  4.56592263e-01  4.56592263e-01  3.22681519e-09  3.43772836e-09  3.18183043e-09  1.56791553e-07  1.97596481e-08  2.30000000e-01 
 2.40000000e-01  4.56592238e-01  3.26149962e-09  4.56592238e-01  4.56592238e-01  3.22681513e-09  3.43772837e-09  3.18183048e-09  1.56791504e-07  1.97595700e-08  2.40000000e-01 
 2.50000000e-01  4.56592282e-01  3.26149963e-09  4.56592282e-01  4.56592282e-01  3.22681514e-09  3.43772832e-09  3.18183048e-09  1.56791591e-07  1.97594137e-08  2.50000000e-01 
 2.60000000e-01  4.56592255e-01  3.26149963e-09  4.56592255e-01  4.56592255e-01  3.22681513e-09  3.43772838e-09  3.18183048e-09  1.56791541e-07  1.97593710e-08  2.60000000e-01 
 2.70000000e-01  4.56592268e-01  3.26149963e-09  4.56592268e-01  4.56592268e-01  3.22681513e-09  3.43772837e-09  3.18183043e-09  1.56791549e-07  1.97592289e-08  2.70000000e-01 
 2.80000000e-01  4.56592289e-01  3.26149969e-09  4.56592289e-01  4.56592289e-01  3.22681514e-09  3.43772832e-09  3.18183048e-09  1.56791578e-07  1.97592307e-08  2.80000000e-01 
 2.90000000e-01  4.56592256e-01  3.26149963e-09  4.56592256e-01  4.56592256e-01  3.22681513e-09  3.43772833e-09  3.18183048e-09  1.56791547e-07  1.97589856e-08  2.90000000e-01 
 3.00000000e-01  4.56592283e-01  3.26149969e-09  4.56592283e-01  4.56592283e-01  3.22681514e-09  3.43772832e-09  3.18183043e-09  1.56791575e-07  1.97587511e-08  3.00000000e-01 
 3.10000000e-01  4.56592268e-01  3.26149963e-09  4.56592268e-01  4.56592268e-01  3.22681519e-09  3.43772838e-09  3.18183048e-09  1.56791548e-07  1.97588079e-08  3.10000000e-01 
 3.20000000e-01  4.56592255e-01  3.26149963e-09  4.56592254e-01  4.56592254e-01  3.22681519e-09  3.43772836e-09  3.18183043e-09  1.56791543e-07  1.97587404e-08  3.20000000e-01 
 3.30000000e-01  4.56592244e-01  3.26149962e-09  4.56592244e-01  4.56592244e-01  3.22681519e-09  3.43772837e-09  3.18183048e-09  1.56791524e-07  1.97586800e-08  3.30000000e-01 
 3.40000000e-01  4.56592254e-01  3.26149968e-09  4.56592254e-01  4.56592254e-01  3.22681519e-09  3.43772837e-09  3.18183048e-09  1.56791545e-07  1.97585237e-08  3.40000000e-01 
 3.50000000e-01  4.56592276e-01  3.26149963e-09  4.56592276e-01  4.56592276e-01  3.22681519e-09  3.43772837e-09  3.18183048e-09  1.56791565e-07  1.97584775e-08  3.50000000e-01 
 3.60000000e-01  4.56592264e-01  3.26149963e-09  4.56592264e-01  4.56592264e-01  3.22681513e-09  3.43772831e-09  3.18183043e-09  1.56791562e-07  1.97583745e-08  3.60000000e-01 
 3.70000000e-01  4.56592242e-01  3.26149962e-09  4.56592242e-01  4.56592242e-01  3.22681513e-09  3.43772838e-09  3.18183043e-09  1.56791529e-07  1.97582928e-08  3.70000000e-01 
 3.80000000e-01  4.56592245e-01  3.26149963e-09  4.56592245e-01  4.56592245e-01  3.22681513e-09  3.43772836e-09  3.18183043e-09  1.56791540e-07  1.97582466e-08  3.80000000e-01 
 3.90000000e-01  4.56592271e-01  3.26149963e-09  4.56592271e-01  4.56592271e-01  3.22681513e-09  3.43772831e-09  3.18183043e-09  1.56791557e-07  1.97581507e-08  3.90000000e-01 
 4.00000000e-01  4.56592256e-01  3.26149963e-09  4.56592256e-01  4.56592256e-01  3.22681519e-09  3.43772838e-09  3.18183048e-09  1.56791537e-07  1.97580832e-08  4.00000000e-01 
 4.10000000e-01  4.56592251e-01  3.26149963e-09  4.56592251e-01  4.56592251e-01  3.22681519e-09  3.43772836e-09  3.18183043e-09  1.56791518e-07  1.97581080e-08  4.10000000e-01 
 4.20000000e-01  4.56592242e-01  3.26149962e-09  4.56592242e-01  4.56592242e-01  3.22681513e-09  3.43772837e-09  3.18183048e-09  1.56791517e-07  1.97578984e-08  4.20000000e-01 
 4.30000000e-01  4.56592266e-01  3.26149969e-09  4.56592266e-01  4.56592266e-01  3.22681519e-09  3.43772831e-09  3.18183048e-09  1.56791555e-07  1.97579197e-08  4.30000000e-01 
 4.40000000e-01  4.56592278e-01  3.26149969e-09  4.56592278e-01  4.56592278e-01  3.22681519e-09  3.43772833e-09  3.18183048e-09  1.56791579e-07  1.97578878e-08  4.40000000e-01 
 4.50000000e-01  4.56592273e-01  3.26149963e-09  4.56592273e-01  4.56592273e-01  3.22681519e-09  3.43772832e-09  3.18183043e-09  1.56791571e-07  1.97577137e-08  4.50000000e-01 
 4.60000000e-01  4.56592259e-01  3.26149963e-09  4.56592259e-01  4.56592259e-01  3.22681513e-09  3.43772832e-09  3.18183043e-09  1.56791554e-07  1.97577030e-08  4.60000000e-01 
 4.70000000e-01  4.56592255e-01  3.26149963e-09  4.56592255e-01  4.56592255e-01  3.22681519e-09  3.43772832e-09  3.18183048e-09  1.56791533e-07  1.97576142e-08  4.70000000e-01 
 4.80000000e-01  4.56592263e-01  3.26149968e-09  4.56592263e-01  4.56592263e-01  3.22681513e-09  3.43772838e-09  3.18183048e-09  1.56791547e-07  1.97575467e-08  4.80000000e-01 
 4.90000000e-01  4.56592267e-01  3.26149963e-09  4.56592267e-01  4.56592267e-01  3.22681513e-09  3.43772831e-09  3.18183048e-09  1.56791559e-07  1.97575325e-08  4.90000000e-01 
 5.00000000e-01  4.56592273e-01  3.26149963e-09  4.56592273e-01  4.56592273e-01  3.22681519e-09  3.43772833e-09  3.18183048e-09  1.56791557e-07  1.97574472e-08  5.00000000e-01 
 5.10000000e-01  4.56592270e-01  3.26149963e-09  4.56592270e-01  4.56592270e-01  3.22681519e-09  3.43772832e-09  3.18183043e-09  1.56791564e-07  1.97574046e-08  5.10000000e-01 
 5.20000000e-01  4.56592282e-01  3.26149969e-09  4.56592282e-01  4.56592282e-01  3.22681514e-09  3.43772832e-09  3.18183048e-09  1.56791586e-07  1.97574579e-08  5.20000000e-01 
 5.30000000e-01  4.56592268e-01  3.26149963e-09  4.56592268e-01  4.56592268e-01  3.22681519e-09  3.43772838e-09  3.18183048e-09  1.56791555e-07  1.97573407e-08  5.30000000e-01 
 5.40000000e-01  4.56592261e-01  3.26149963e-09  4.56592261e-01  4.56592261e-01  3.22681513e-09  3.43772831e-09  3.18183048e-09  1.56791537e-07  1.97571950e-08  5.40000000e-01 
 5.50000000e-01  4.56592255e-01  3.26149963e-09  4.56592255e-01  4.56592255e-01  3.22681513e-09  3.43772833e-09  3.18183048e-09  1.56791541e-07  1.97572128e-08  5.50000000e-01 
 5.60000000e-01  4.56592268e-01  3.26149969e-09  4.56592268e-01  4.56592268e-01  3.22681513e-09  3.43772832e-09  3.18183048e-09  1.56791554e-07  1.97570813e-08  5.60000000e-01 
 5.70000000e-01  4.56592271e-01  3.26149963e-09  4.56592271e-01  4.56592271e-01  3.22681519e-09  3.43772838e-09  3.18183048e-09  1.56791565e-07  1.97570458e-08  5.70000000e-01 
 5.80000000e-01  4.56592264e-01  3.26149963e-09  4.56592264e-01  4.56592264e-01  3.22681513e-09  3.43772837e-09  3.18183043e-09  1.56791552e-07  1.97569960e-08  5.80000000e-01 
 5.90000000e-01  4.56592282e-01  3.26149969e-09  4.56592282e-01  4.56592282e-01  3.22681514e-09  3.43772832e-09  3.18183048e-09  1.56791584e-07  1.97570174e-08  5.90000000e-01 
 6.00000000e-01  4.56592289e-01  3.26149963e-09  4.56592289e-01  4.56592289e-01  3.22681519e-09  3.43772839e-09  3.18183048e-09  1.56791589e-07  1.97568113e-08  6.00000000e-01 
 6.10000000e-01  4.56592279e-01  3.26149969e-09  4.56592279e-01  4.56592279e-01  3.22681513e-09  3.43772831e-09  3.18183048e-09  1.56791578e-07  1.97569037e-08  6.10000000e-01 
 6.20000000e-01  4.56592291e-01  3.26149963e-09  4.56592291e-01  4.56592291e-01  3.22681519e-09  3.43772833e-09  3.18183048e-09  1.56791587e-07  1.97568752e-08  6.20000000e-01 
 6.30000000e-01  4.56592283e-01  3.26149963e-09  4.56592283e-01  4.56592283e-01  3.22681519e-09  3.43772838e-09  3.18183048e-09  1.56791583e-07  1.97567687e-08  6.30000000e-01 
 6.40000000e-01  4.56592279e-01  3.26149969e-09  4.56592279e-01  4.56592279e-01  3.22681519e-09  3.43772837e-09  3.18183043e-09  1.56791571e-07  1.97567616e-08  6.40000000e-01 
 6.50000000e-01  4.56592256e-01  3.26149963e-09  4.56592255e-01  4.56592255e-01  3.22681519e-09  3.43772837e-09  3.18183048e-09  1.56791541e-07  1.97565839e-08  6.50000000e-01 
 6.60000000e-01  4.56592264e-01  3.26149963e-09  4.56592264e-01  4.56592264e-01  3.22681519e-09  3.43772831e-09  3.18183048e-09  1.56791547e-07  1.97565555e-08  6.60000000e-01 
 6.70000000e-01  4.56592266e-01  3.26149963e-09  4.56592265e-01  4.56592265e-01  3.22681513e-09  3.43772838e-09  3.18183048e-09  1.56791559e-07  1.97566123e-08  6.70000000e-01 
 6.80000000e-01  4.56592289e-01  3.26149963e-09  4.56592289e-01  4.56592289e-01  3.22681514e-09  3.43772837e-09  3.18183043e-09  1.56791577e-07  1.97566123e-08  6.80000000e-01 
 6.90000000e-01  4.56592252e-01  3.26149963e-09  4.56592252e-01  4.56592252e-01  3.22681519e-09  3.43772837e-09  3.18183048e-09  1.56791539e-07  1.97565484e-08  6.90000000e-01 
 7.00000000e-01  4.56592263e-01  3.26149963e-09  4.56592263e-01  4.56592263e-01  3.22681519e-09  3.43772837e-09  3.18183043e-09  1.56791547e-07  1.97563992e-08  7.00000000e-01 
 7.10000000e-01  4.56592266e-01  3.26149963e-09  4.56592266e-01  4.56592266e-01  3.22681519e-09  3.43772837e-09  3.18183048e-09  1.56791556e-07  1.97562997e-08  7.10000000e-01 
 7.20000000e-01  4.56592268e-01  3.26149969e-09  4.56592268e-01  4.56592268e-01  3.22681519e-09  3.43772837e-09  3.18183048e-09  1.56791555e-07  1.97564773e-08  7.20000000e-01 
 7.30000000e-01  4.56592266e-01  3.26149963e-09  4.56592266e-01  4.56592266e-01  3.22681519e-09  3.43772837e-09  3.18183043e-09  1.56791553e-07  1.97563921e-08  7.30000000e-01 
 7.40000000e-01  4.56592272e-01  3.26149963e-09  4.56592272e-01  4.56592272e-01  3.22681519e-09  3.43772831e-09  3.18183043e-09  1.56791565e-07  1.97562002e-08  7.40000000e-01 
 7.50000000e-01  4.56592261e-01  3.26149963e-09  4.56592260e-01  4.56592260e-01  3.22681513e-09  3.43772838e-09  3.18183043e-09  1.56791547e-07  1.97563281e-08  7.50000000e-01 
 7.60000000e-01  4.56592237e-01  3.26149962e-09  4.56592237e-01  4.56592237e-01  3.22681513e-09  3.43772836e-09  3.18183043e-09  1.56791510e-07  1.97561292e-08  7.60000000e-01 
 7.70000000e-01  4.56592257e-01  3.26149963e-09  4.56592257e-01  4.56592257e-01  3.22681513e-09  3.43772837e-09  3.18183048e-09  1.56791552e-07  1.97560581e-08  7.70000000e-01 
 7.80000000e-01  4.56592259e-01  3.26149963e-09  4.56592259e-01  4.56592259e-01  3.22681513e-09  3.43772837e-09  3.18183048e-09  1.56791555e-07  1.97561079e-08  7.80000000e-01 
 7.90000000e-01  4.56592273e-01  3.26149963e-09  4.56592273e-01  4.56592273e-01  3.22681513e-09  3.43772831e-09  3.18183048e-09  1.56791575e-07  1.97558023e-08  7.90000000e-01 
 8.00000000e-01  4.56592248e-01  3.26149963e-09  4.56592248e-01  4.56592248e-01  3.22681519e-09  3.43772833e-09  3.18183048e-09  1.56791538e-07  1.97558876e-08  8.00000000e-01 
 8.10000000e-01  4.56592259e-01  3.26149963e-09  4.56592259e-01  4.56592259e-01  3.22681519e-09  3.43772838e-09  3.18183048e-09  1.56791544e-07  1.97558450e-08  8.10000000e-01 
 8.20000000e-01  4.56592266e-01  3.26149963e-09  4.56592266e-01  4.56592266e-01  3.22681513e-09  3.43772831e-09  3.18183048e-09  1.56791556e-07  1.97558663e-08  8.20000000e-01 
 8.30000000e-01  4.56592278e-01  3.26149963e-09  4.56592278e-01  4.56592278e-01  3.22681519e-09  3.43772833e-09  3.18183043e-09  1.56791589e-07  1.97557739e-08  8.30000000e-01 
 8.40000000e-01  4.56592254e-01  3.26149963e-09  4.56592254e-01  4.56592254e-01  3.22681519e-09  3.43772838e-09  3.18183048e-09  1.56791540e-07  1.97556815e-08  8.40000000e-01 
 8.50000000e-01  4.56592260e-01  3.26149963e-09  4.56592260e-01  4.56592260e-01  3.22681513e-09  3.43772836e-09  3.18183043e-09  1.56791535e-07  1.97556957e-08  8.50000000e-01 
 8.60000000e-01  4.56592274e-01  3.26149963e-09  4.56592274e-01  4.56592274e-01  3.22681519e-09  3.43772831e-09  3.18183048e-09  1.56791565e-07  1.97556034e-08  8.60000000e-01 
 8.70000000e-01  4.56592280e-01  3.26149963e-09  4.56592280e-01  4.56592280e-01  3.22681514e-09  3.43772833e-09  3.18183048e-09  1.56791573e-07  1.97556602e-08  8.70000000e-01 
 8.80000000e-01  4.56592302e-01  3.26149963e-09  4.56592302e-01  4.56592302e-01  3.22681519e-09  3.43772832e-09  3.18183048e-09  1.56791613e-07  1.97555323e-08  8.80000000e-01 
 8.90000000e-01  4.56592273e-01  3.26149963e-09  4.56592272e-01  4.56592272e-01  3.22681513e-09  3.43772832e-09  3.18183048e-09  1.56791559e-07  1.97554400e-08  8.90000000e-01 
 9.00000000e-01  4.56592222e-01  3.26149962e-09  4.56592222e-01  4.56592222e-01  3.22681519e-09  3.43772837e-09  3.18183042e-09  1.56791495e-07  1.97554613e-08  9.00000000e-01 
 9.10000000e-01  4.56592256e-01  3.26149963e-09  4.56592256e-01  4.56592256e-01  3.22681513e-09  3.43772831e-09  3.18183043e-09  1.56791536e-07  1.97554044e-08  9.10000000e-01 
 9.20000000e-01  4.56592263e-01  3.26149963e-09  4.56592263e-01  4.56592263e-01  3.22681519e-09  3.43772833e-09  3.18183048e-09  1.56791542e-07  1.97553192e-08  9.20000000e-01 
 9.30000000e-01  4.56592269e-01  3.26149969e-09  4.56592269e-01  4.56592269e-01  3.22681519e-09  3.43772838e-09  3.18183043e-09  1.56791564e-07  1.97552339e-08  9.30000000e-01 
 9.40000000e-01  4.56592274e-01  3.26149969e-09  4.56592274e-01  4.56592274e-01  3.22681513e-09  3.43772837e-09  3.18183048e-09  1.56791564e-07  1.97552907e-08  9.40000000e-01 
 9.50000000e-01  4.56592268e-01  3.26149963e-09  4.56592268e-01  4.56592268e-01  3.22681513e-09  3.43772831e-09  3.18183043e-09  1.56791567e-07  1.97551770e-08  9.50000000e-01 
 9.60000000e-01  4.56592266e-01  3.26149963e-09  4.56592266e-01  4.56592266e-01  3.22681513e-09  3.43772833e-09  3.18183048e-09  1.56791554e-07  1.97549994e-08  9.60000000e-01 
 9.70000000e-01  4.56592260e-01  3.26149963e-09  4.56592260e-01  4.56592260e-01  3.22681513e-09  3.43772832e-09  3.18183048e-09  1.56791528e-07  1.97551913e-08  9.70000000e-01 
 9.80000000e-01  4.56592276e-01  3.26149963e-09  4.56592276e-01  4.56592276e-01  3.22681519e-09  3.43772832e-09  3.18183043e-09  1.56791572e-07  1.97548715e-08  9.80000000e-01 
 9.90000000e-01  4.56592256e-01  3.26149963e-09  4.56592256e-01  4.56592256e-01  3.22681513e-09  3.43772838e-09  3.18183048e-09  1.56791549e-07  1.97548573e-08  9.90000000e-01 
 1.00000000e+00  4.56592266e-01  3.26149963e-09  4.56592266e-01  4.56592266e-01  3.22681519e-09  3.43772837e-09  3.18183043e-09  1.56791551e-07  1.97548360e-08  1.00000000e+00 
 1.01000000e+00  4.56592276e-01  3.26149963e-09  4.56592276e-01  4.56592276e-01  3.22681513e-09  3.43772837e-09  3.18183048e-09  1.56791577e-07  1.97549070e-08  1.01000000e+00 
 1.02000000e+00  4.56592264e-01  3.26149963e-09  4.56592264e-01  4.56592264e-01  3.22681513e-09  3.43772837e-09  3.18183043e-09  1.56791543e-07  1.97547152e-08  1.02000000e+00 
 1.03000000e+00  4.56592264e-01  3.26149963e-09  4.56592264e-01  4.56592264e-01  3.22681519e-09  3.43772831e-09  3.18183048e-09  1.56791537e-07  1.97547791e-08  1.03000000e+00 
 1.04000000e+00  4.56592293e-01  3.26149963e-09  4.56592293e-01  4.56592293e-01  3.22681514e-09  3.43772833e-09  3.18183043e-09  1.56791592e-07  1.97546299e-08  1.04000000e+00 
 1.05000000e+00  4.56592268e-01  3.26149963e-09  4.56592268e-01  4.56592268e-01  3.22681519e-09  3.43772832e-09  3.18183043e-09  1.56791548e-07  1.97545944e-08  1.05000000e+00 
 1.06000000e+00  4.56592257e-01  3.26149968e-09  4.56592257e-01  4.56592257e-01  3.22681519e-09  3.43772838e-09  3.18183048e-09  1.56791537e-07  1.97544665e-08  1.06000000e+00 
 1.07000000e+00  4.56592269e-01  3.26149963e-09  4.56592269e-01  4.56592269e-01  3.22681519e-09  3.43772831e-09  3.18183048e-09  1.56791549e-07  1.97545234e-08  1.07000000e+00 
 1.08000000e+00  4.56592278e-01  3.26149969e-09  4.56592278e-01  4.56592278e-01  3.22681513e-09  3.43772833e-09  3.18183043e-09  1.56791568e-07  1.97544168e-08  1.08000000e+00 
 1.09000000e+00  4.56592281e-01  3.26149963e-09  4.56592281e-01  4.56592281e-01  3.22681519e-09  3.43772832e-09  3.18183048e-09  1.56791572e-07  1.97543031e-08  1.09000000e+00 
 1.10000000e+00  4.56592262e-01  3.26149963e-09  4.56592262e-01  4.56592262e-01  3.22681519e-09  3.43772832e-09  3.18183048e-09  1.56791548e-07  1.97543883e-08  1.10000000e+00 
