 v-sweep         v(b0)           v(b1)           v(b2)           v(b3)           v(b4)           v(b5)           v(b6)           i(vbias)        i(viout)        v(vout)        
 0.00000000e+00  3.27026695e-09  4.59894927e-01  3.09400921e-09  3.19186298e-09  3.32054058e-09  4.59894927e-01  4.59894927e-01  1.63862252e-07  1.57368606e-07  0.00000000e+00 
 1.00000000e-02  3.27026693e-09  4.59894933e-01  3.09400924e-09  3.19186295e-09  3.32054061e-09  4.59894933e-01  4.59894934e-01  1.63862270e-07  1.57368155e-07  1.00000000e-02 
 2.00000000e-02  3.27026693e-09  4.59894923e-01  3.09400918e-09  3.19186295e-09  3.32054055e-09  4.59894923e-01  4.59894923e-01  1.63862244e-07  1.57367644e-07  2.00000000e-02 
 3.00000000e-02  3.27026693e-09  4.59894937e-01  3.09400924e-09  3.19186300e-09  3.32054057e-09  4.59894937e-01  4.59894937e-01  1.63862275e-07  1.57367333e-07  3.00000000e-02 
 4.00000000e-02  3.27026693e-09  4.59894940e-01  3.09400918e-09  3.19186295e-09  3.32054062e-09  4.59894940e-01  4.59894940e-01  1.63862274e-07  1.57366928e-07  4.00000000e-02 
 5.00000000e-02  3.27026693e-09  4.59894934e-01  3.09400924e-09  3.19186300e-09  3.32054060e-09  4.59894934e-01  4.59894934e-01  1.63862258e-07  1.57366483e-07  5.00000000e-02 
 6.00000000e-02  3.27026693e-09  4.59894920e-01  3.09400924e-09  3.19186295e-09  3.32054061e-09  4.59894920e-01  4.59894920e-01  1.63862242e-07  1.57366070e-07  6.00000000e-02 
 7.00000000e-02  3.27026698e-09  4.59894941e-01  3.09400924e-09  3.19186300e-09  3.32054061e-09  4.59894941e-01  4.59894941e-01  1.63862275e-07  1.57365779e-07  7.00000000e-02 
 8.00000000e-02  3.27026693e-09  4.59894941e-01  3.09400924e-09  3.19186295e-09  3.32054061e-09  4.59894941e-01  4.59894941e-01  1.63862279e-07  1.57365520e-07  8.00000000e-02 
 9.00000000e-02  3.27026693e-09  4.59894938e-01  3.09400924e-09  3.19186300e-09  3.32054061e-09  4.59894938e-01  4.59894938e-01  1.63862255e-07  1.57365239e-07  9.00000000e-02 
 1.00000000e-01  3.27026693e-09  4.59894947e-01  3.09400918e-09  3.19186300e-09  3.32054055e-09  4.59894947e-01  4.59894947e-01  1.63862275e-07  1.57364941e-07  1.00000000e-01 
 1.10000000e-01  3.27026693e-09  4.59894942e-01  3.09400918e-09  3.19186300e-09  3.32054062e-09  4.59894942e-01  4.59894942e-01  1.63862270e-07  1.57364685e-07  1.10000000e-01 
 1.20000000e-01  3.27026693e-09  4.59894932e-01  3.09400924e-09  3.19186295e-09  3.32054060e-09  4.59894932e-01  4.59894932e-01  1.63862266e-07  1.57364263e-07  1.20000000e-01 
 1.30000000e-01  3.27026693e-09  4.59894945e-01  3.09400924e-09  3.19186300e-09  3.32054061e-09  4.59894945e-01  4.59894945e-01  1.63862268e-07  1.57364119e-07  1.30000000e-01 
 1.40000000e-01  3.27026693e-09  4.59894952e-01  3.09400924e-09  3.19186295e-09  3.32054061e-09  4.59894952e-01  4.59894952e-01  1.63862290e-07  1.57363785e-07  1.40000000e-01 
 1.50000000e-01  3.27026693e-09  4.59894959e-01  3.09400924e-09  3.19186301e-09  3.32054061e-09  4.59894959e-01  4.59894959e-01  1.63862313e-07  1.57363507e-07  1.50000000e-01 
 1.60000000e-01  3.27026693e-09  4.59894950e-01  3.09400924e-09  3.19186300e-09  3.32054061e-09  4.59894950e-01  4.59894950e-01  1.63862296e-07  1.57363301e-07  1.60000000e-01 
 1.70000000e-01  3.27026693e-09  4.59894947e-01  3.09400924e-09  3.19186295e-09  3.32054055e-09  4.59894947e-01  4.59894947e-01  1.63862295e-07  1.57363099e-07  1.70000000e-01 
 1.80000000e-01  3.27026693e-09  4.59894939e-01  3.09400924e-09  3.19186295e-09  3.32054062e-09  4.59894939e-01  4.59894939e-01  1.63862270e-07  1.57362777e-07  1.80000000e-01 
 1.90000000e-01  3.27026698e-09  4.59894943e-01  3.09400924e-09  3.19186300e-09  3.32054060e-09  4.59894943e-01  4.59894943e-01  1.63862276e-07  1.57362603e-07  1.90000000e-01 
 2.00000000e-01  3.27026693e-09  4.59894922e-01  3.09400918e-09  3.19186295e-09  3.32054061e-09  4.59894922e-01  4.59894922e-01  1.63862258e-07  1.57362329e-07  2.00000000e-01 
 2.10000000e-01  3.27026693e-09  4.59894931e-01  3.09400924e-09  3.19186295e-09  3.32054061e-09  4.59894931e-01  4.59894931e-01  1.63862266e-07  1.57362168e-07  2.10000000e-01 
 2.20000000e-01  3.27026698e-09  4.59894919e-01  3.09400924e-09  3.19186295e-09  3.32054061e-09  4.59894919e-01  4.59894919e-01  1.63862240e-07  1.57362058e-07  2.20000000e-01 
 2.30000000e-01  3.27026693e-09  4.59894920e-01  3.09400924e-09  3.19186300e-09  3.32054061e-09  4.59894920e-01  4.59894920e-01  1.63862232e-07  1.57361674e-07  2.30000000e-01 
 2.40000000e-01  3.27026693e-09  4.59894937e-01  3.09400924e-09  3.19186295e-09  3.32054061e-09  4.59894937e-01  4.59894937e-01  1.63862266e-07  1.57361642e-07  2.40000000e-01 
 2.50000000e-01  3.27026693e-09  4.59894933e-01  3.09400924e-09  3.19186300e-09  3.32054061e-09  4.59894933e-01  4.59894933e-01  1.63862269e-07  1.57361340e-07  2.50000000e-01 
 2.60000000e-01  3.27026693e-09  4.59894924e-01  3.09400924e-09  3.19186295e-09  3.32054055e-09  4.59894924e-01  4.59894924e-01  1.63862262e-07  1.57361224e-07  2.60000000e-01 
 2.70000000e-01  3.27026693e-09  4.59894947e-01  3.09400918e-09  3.19186300e-09  3.32054062e-09  4.59894947e-01  4.59894947e-01  1.63862283e-07  1.57361118e-07  2.70000000e-01 
 2.80000000e-01  3.27026693e-09  4.59894933e-01  3.09400918e-09  3.19186300e-09  3.32054060e-09  4.59894933e-01  4.59894933e-01  1.63862272e-07  1.57360939e-07  2.80000000e-01 
 2.90000000e-01  3.27026693e-09  4.59894932e-01  3.09400918e-09  3.19186300e-09  3.32054055e-09  4.59894932e-01  4.59894932e-01  1.63862261e-07  1.57360724e-07  2.90000000e-01 
 3.00000000e-01  3.27026699e-09  4.59894955e-01  3.09400924e-09  3.19186300e-09  3.32054062e-09  4.59894955e-01  4.59894955e-01  1.63862295e-07  1.57360635e-07  3.00000000e-01 
 3.10000000e-01  3.27026699e-09  4.59894957e-01  3.09400918e-09  3.19186295e-09  3.32054060e-09  4.59894957e-01  4.59894957e-01  1.63862318e-07  1.57360553e-07  3.10000000e-01 
 3.20000000e-01  3.27026693e-09  4.59894936e-01  3.09400924e-09  3.19186295e-09  3.32054061e-09  4.59894936e-01  4.59894936e-01  1.63862262e-07  1.57360336e-07  3.20000000e-01 
 3.30000000e-01  3.27026698e-09  4.59894926e-01  3.09400924e-09  3.19186300e-09  3.32054055e-09  4.59894926e-01  4.59894926e-01  1.63862253e-07  1.57359999e-07  3.30000000e-01 
 3.40000000e-01  3.27026693e-09  4.59894954e-01  3.09400924e-09  3.19186300e-09  3.32054062e-09  4.59894954e-01  4.59894954e-01  1.63862295e-07  1.57360148e-07  3.40000000e-01 
 3.50000000e-01  3.27026693e-09  4.59894933e-01  3.09400918e-09  3.19186300e-09  3.32054060e-09  4.59894933e-01  4.59894933e-01  1.63862261e-07  1.57359864e-07  3.50000000e-01 
 3.60000000e-01  3.27026693e-09  4.59894949e-01  3.09400924e-09  3.19186295e-09  3.32054061e-09  4.59894949e-01  4.59894949e-01  1.63862282e-07  1.57359739e-07  3.60000000e-01 
 3.70000000e-01  3.27026699e-09  4.59894961e-01  3.09400918e-09  3.19186295e-09  3.32054061e-09  4.59894961e-01  4.59894961e-01  1.63862326e-07  1.57359771e-07  3.70000000e-01 
 3.80000000e-01  3.27026693e-09  4.59894934e-01  3.09400924e-09  3.19186295e-09  3.32054061e-09  4.59894934e-01  4.59894934e-01  1.63862280e-07  1.57359473e-07  3.80000000e-01 
 3.90000000e-01  3.27026693e-09  4.59894935e-01  3.09400918e-09  3.19186295e-09  3.32054055e-09  4.59894935e-01  4.59894935e-01  1.63862275e-07  1.57359327e-07  3.90000000e-01 
 4.00000000e-01  3.27026693e-09  4.59894937e-01  3.09400918e-09  3.19186300e-09  3.32054062e-09  4.59894937e-01  4.59894937e-01  1.63862280e-07  1.57359302e-07  4.00000000e-01 
 4.10000000e-01  3.27026693e-09  4.59894932e-01  3.09400924e-09  3.19186300e-09  3.32054060e-09  4.59894932e-01  4.59894932e-01  1.63862261e-07  1.57359057e-07  4.10000000e-01 
 4.20000000e-01  3.27026693e-09  4.59894938e-01  3.09400924e-09  3.19186295e-09  3.32054055e-09  4.59894938e-01  4.59894938e-01  1.63862266e-07  1.57359047e-07  4.20000000e-01 
 4.30000000e-01  3.27026693e-09  4.59894948e-01  3.09400918e-09  3.19186300e-09  3.32054057e-09  4.59894948e-01  4.59894948e-01  1.63862294e-07  1.57358915e-07  4.30000000e-01 
 4.40000000e-01  3.27026693e-09  4.59894951e-01  3.09400918e-09  3.19186300e-09  3.32054062e-09  4.59894951e-01  4.59894951e-01  1.63862294e-07  1.57358755e-07  4.40000000e-01 
 4.50000000e-01  3.27026693e-09  4.59894936e-01  3.09400924e-09  3.19186300e-09  3.32054060e-09  4.59894936e-01  4.59894936e-01  1.63862264e-07  1.57358581e-07  4.50000000e-01 
 4.60000000e-01  3.27026693e-09  4.59894921e-01  3.09400918e-09  3.19186300e-09  3.32054061e-09  4.59894921e-01  4.59894921e-01  1.63862260e-07  1.57358411e-07  4.60000000e-01 
 4.70000000e-01  3.27026693e-09  4.59894936e-01  3.09400924e-09  3.19186295e-09  3.32054061e-09  4.59894936e-01  4.59894936e-01  1.63862269e-07  1.57358361e-07  4.70000000e-01 
 4.80000000e-01  3.27026693e-09  4.59894942e-01  3.09400924e-09  3.19186300e-09  3.32054061e-09  4.59894942e-01  4.59894942e-01  1.63862281e-07  1.57358208e-07  4.80000000e-01 
 4.90000000e-01  3.27026693e-09  4.59894929e-01  3.09400924e-09  3.19186300e-09  3.32054055e-09  4.59894929e-01  4.59894929e-01  1.63862254e-07  1.57358098e-07  4.90000000e-01 
 5.00000000e-01  3.27026693e-09  4.59894955e-01  3.09400924e-09  3.19186295e-09  3.32054062e-09  4.59894955e-01  4.59894955e-01  1.63862296e-07  1.57358009e-07  5.00000000e-01 
 5.10000000e-01  3.27026693e-09  4.59894939e-01  3.09400924e-09  3.19186295e-09  3.32054055e-09  4.59894939e-01  4.59894939e-01  1.63862282e-07  1.57357832e-07  5.10000000e-01 
 5.20000000e-01  3.27026693e-09  4.59894944e-01  3.09400924e-09  3.19186295e-09  3.32054057e-09  4.59894944e-01  4.59894944e-01  1.63862279e-07  1.57357761e-07  5.20000000e-01 
 5.30000000e-01  3.27026693e-09  4.59894949e-01  3.09400924e-09  3.19186300e-09  3.32054056e-09  4.59894949e-01  4.59894949e-01  1.63862280e-07  1.57357672e-07  5.30000000e-01 
 5.40000000e-01  3.27026693e-09  4.59894911e-01  3.09400924e-09  3.19186295e-09  3.32054061e-09  4.59894911e-01  4.59894911e-01  1.63862226e-07  1.57357494e-07  5.40000000e-01 
 5.50000000e-01  3.27026698e-09  4.59894930e-01  3.09400918e-09  3.19186295e-09  3.32054060e-09  4.59894930e-01  4.59894930e-01  1.63862255e-07  1.57357388e-07  5.50000000e-01 
 5.60000000e-01  3.27026693e-09  4.59894934e-01  3.09400924e-09  3.19186300e-09  3.32054061e-09  4.59894934e-01  4.59894934e-01  1.63862278e-07  1.57357274e-07  5.60000000e-01 
 5.70000000e-01  3.27026699e-09  4.59894954e-01  3.09400924e-09  3.19186300e-09  3.32054061e-09  4.59894954e-01  4.59894954e-01  1.63862290e-07  1.57357242e-07  5.70000000e-01 
 5.80000000e-01  3.27026693e-09  4.59894948e-01  3.09400924e-09  3.19186295e-09  3.32054061e-09  4.59894948e-01  4.59894948e-01  1.63862295e-07  1.57357192e-07  5.80000000e-01 
 5.90000000e-01  3.27026693e-09  4.59894926e-01  3.09400918e-09  3.19186295e-09  3.32054061e-09  4.59894926e-01  4.59894926e-01  1.63862249e-07  1.57356880e-07  5.90000000e-01 
 6.00000000e-01  3.27026693e-09  4.59894919e-01  3.09400924e-09  3.19186300e-09  3.32054061e-09  4.59894919e-01  4.59894919e-01  1.63862236e-07  1.57356766e-07  6.00000000e-01 
 6.10000000e-01  3.27026693e-09  4.59894944e-01  3.09400924e-09  3.19186300e-09  3.32054061e-09  4.59894944e-01  4.59894944e-01  1.63862273e-07  1.57356709e-07  6.10000000e-01 
 6.20000000e-01  3.27026693e-09  4.59894947e-01  3.09400918e-09  3.19186300e-09  3.32054061e-09  4.59894947e-01  4.59894947e-01  1.63862295e-07  1.57356538e-07  6.20000000e-01 
 6.30000000e-01  3.27026693e-09  4.59894930e-01  3.09400924e-09  3.19186295e-09  3.32054055e-09  4.59894930e-01  4.59894930e-01  1.63862258e-07  1.57356475e-07  6.30000000e-01 
 6.40000000e-01  3.27026693e-09  4.59894935e-01  3.09400918e-09  3.19186300e-09  3.32054056e-09  4.59894935e-01  4.59894935e-01  1.63862266e-07  1.57356389e-07  6.40000000e-01 
 6.50000000e-01  3.27026698e-09  4.59894937e-01  3.09400924e-09  3.19186295e-09  3.32054056e-09  4.59894937e-01  4.59894937e-01  1.63862282e-07  1.57356183e-07  6.50000000e-01 
 6.60000000e-01  3.27026693e-09  4.59894942e-01  3.09400924e-09  3.19186300e-09  3.32054056e-09  4.59894942e-01  4.59894942e-01  1.63862279e-07  1.57356148e-07  6.60000000e-01 
 6.70000000e-01  3.27026693e-09  4.59894935e-01  3.09400924e-09  3.19186300e-09  3.32054056e-09  4.59894935e-01  4.59894935e-01  1.63862267e-07  1.57356098e-07  6.70000000e-01 
 6.80000000e-01  3.27026693e-09  4.59894946e-01  3.09400918e-09  3.19186295e-09  3.32054062e-09  4.59894946e-01  4.59894946e-01  1.63862288e-07  1.57355956e-07  6.80000000e-01 
 6.90000000e-01  3.27026693e-09  4.59894947e-01  3.09400924e-09  3.19186295e-09  3.32054060e-09  4.59894947e-01  4.59894947e-01  1.63862297e-07  1.57355743e-07  6.90000000e-01 
 7.00000000e-01  3.27026693e-09  4.59894946e-01  3.09400924e-09  3.19186295e-09  3.32054061e-09  4.59894946e-01  4.59894946e-01  1.63862277e-07  1.57355835e-07  7.00000000e-01 
 7.10000000e-01  3.27026693e-09  4.59894915e-01  3.09400924e-09  3.19186300e-09  3.32054061e-09  4.59894915e-01  4.59894915e-01  1.63862237e-07  1.57355373e-07  7.10000000e-01 
 7.20000000e-01  3.27026693e-09  4.59894937e-01  3.09400924e-09  3.19186295e-09  3.32054055e-09  4.59894937e-01  4.59894937e-01  1.63862268e-07  1.57355402e-07  7.20000000e-01 
 7.30000000e-01  3.27026693e-09  4.59894964e-01  3.09400924e-09  3.19186295e-09  3.32054062e-09  4.59894964e-01  4.59894964e-01  1.63862328e-07  1.57355437e-07  7.30000000e-01 
 7.40000000e-01  3.27026693e-09  4.59894941e-01  3.09400924e-09  3.19186295e-09  3.32054060e-09  4.59894941e-01  4.59894941e-01  1.63862281e-07  1.57355238e-07  7.40000000e-01 
 7.50000000e-01  3.27026693e-09  4.59894930e-01  3.09400924e-09  3.19186300e-09  3.32054061e-09  4.59894930e-01  4.59894930e-01  1.63862249e-07  1.57355124e-07  7.50000000e-01 
 7.60000000e-01  3.27026698e-09  4.59894932e-01  3.09400918e-09  3.19186295e-09  3.32054061e-09  4.59894932e-01  4.59894932e-01  1.63862249e-07  1.57355018e-07  7.60000000e-01 
 7.70000000e-01  3.27026693e-09  4.59894921e-01  3.09400924e-09  3.19186300e-09  3.32054055e-09  4.59894921e-01  4.59894921e-01  1.63862242e-07  1.57354691e-07  7.70000000e-01 
 7.80000000e-01  3.27026693e-09  4.59894944e-01  3.09400924e-09  3.19186295e-09  3.32054057e-09  4.59894944e-01  4.59894944e-01  1.63862278e-07  1.57354684e-07  7.80000000e-01 
 7.90000000e-01  3.27026699e-09  4.59894962e-01  3.09400924e-09  3.19186295e-09  3.32054056e-09  4.59894962e-01  4.59894962e-01  1.63862298e-07  1.57354748e-07  7.90000000e-01 
 8.00000000e-01  3.27026693e-09  4.59894930e-01  3.09400924e-09  3.19186300e-09  3.32054056e-09  4.59894930e-01  4.59894930e-01  1.63862275e-07  1.57354364e-07  8.00000000e-01 
 8.10000000e-01  3.27026693e-09  4.59894913e-01  3.09400924e-09  3.19186295e-09  3.32054061e-09  4.59894913e-01  4.59894913e-01  1.63862226e-07  1.57354201e-07  8.10000000e-01 
 8.20000000e-01  3.27026693e-09  4.59894949e-01  3.09400924e-09  3.19186300e-09  3.32054060e-09  4.59894949e-01  4.59894949e-01  1.63862287e-07  1.57354243e-07  8.20000000e-01 
 8.30000000e-01  3.27026693e-09  4.59894941e-01  3.09400924e-09  3.19186295e-09  3.32054061e-09  4.59894941e-01  4.59894941e-01  1.63862286e-07  1.57354059e-07  8.30000000e-01 
 8.40000000e-01  3.27026693e-09  4.59894940e-01  3.09400924e-09  3.19186295e-09  3.32054061e-09  4.59894940e-01  4.59894940e-01  1.63862283e-07  1.57353945e-07  8.40000000e-01 
 8.50000000e-01  3.27026693e-09  4.59894915e-01  3.09400924e-09  3.19186295e-09  3.32054061e-09  4.59894915e-01  4.59894915e-01  1.63862242e-07  1.57353803e-07  8.50000000e-01 
 8.60000000e-01  3.27026693e-09  4.59894936e-01  3.09400918e-09  3.19186295e-09  3.32054061e-09  4.59894936e-01  4.59894936e-01  1.63862270e-07  1.57353718e-07  8.60000000e-01 
 8.70000000e-01  3.27026693e-09  4.59894952e-01  3.09400924e-09  3.19186295e-09  3.32054061e-09  4.59894952e-01  4.59894952e-01  1.63862305e-07  1.57353625e-07  8.70000000e-01 
 8.80000000e-01  3.27026693e-09  4.59894939e-01  3.09400918e-09  3.19186300e-09  3.32054061e-09  4.59894939e-01  4.59894939e-01  1.63862274e-07  1.57353597e-07  8.80000000e-01 
 8.90000000e-01  3.27026693e-09  4.59894940e-01  3.09400918e-09  3.19186300e-09  3.32054061e-09  4.59894940e-01  4.59894940e-01  1.63862267e-07  1.57353320e-07  8.90000000e-01 
 9.00000000e-01  3.27026693e-09  4.59894917e-01  3.09400924e-09  3.19186300e-09  3.32054061e-09  4.59894917e-01  4.59894917e-01  1.63862245e-07  1.57353142e-07  9.00000000e-01 
 9.10000000e-01  3.27026693e-09  4.59894938e-01  3.09400924e-09  3.19186300e-09  3.32054061e-09  4.59894938e-01  4.59894938e-01  1.63862278e-07  1.57353142e-07  9.10000000e-01 
 9.20000000e-01  3.27026693e-09  4.59894940e-01  3.09400918e-09  3.19186300e-09  3.32054061e-09  4.59894940e-01  4.59894940e-01  1.63862288e-07  1.57353099e-07  9.20000000e-01 
 9.30000000e-01  3.27026693e-09  4.59894937e-01  3.09400924e-09  3.19186300e-09  3.32054061e-09  4.59894937e-01  4.59894937e-01  1.63862264e-07  1.57352844e-07  9.30000000e-01 
 9.40000000e-01  3.27026693e-09  4.59894939e-01  3.09400918e-09  3.19186295e-09  3.32054061e-09  4.59894939e-01  4.59894939e-01  1.63862275e-07  1.57352723e-07  9.40000000e-01 
 9.50000000e-01  3.27026693e-09  4.59894921e-01  3.09400924e-09  3.19186295e-09  3.32054061e-09  4.59894921e-01  4.59894921e-01  1.63862239e-07  1.57352559e-07  9.50000000e-01 
 9.60000000e-01  3.27026693e-09  4.59894930e-01  3.09400924e-09  3.19186300e-09  3.32054061e-09  4.59894930e-01  4.59894930e-01  1.63862254e-07  1.57352417e-07  9.60000000e-01 
 9.70000000e-01  3.27026693e-09  4.59894917e-01  3.09400924e-09  3.19186300e-09  3.32054061e-09  4.59894917e-01  4.59894917e-01  1.63862240e-07  1.57352233e-07  9.70000000e-01 
 9.80000000e-01  3.27026693e-09  4.59894930e-01  3.09400918e-09  3.19186300e-09  3.32054055e-09  4.59894930e-01  4.59894930e-01  1.63862250e-07  1.57352162e-07  9.80000000e-01 
 9.90000000e-01  3.27026693e-09  4.59894949e-01  3.09400924e-09  3.19186300e-09  3.32054057e-09  4.59894949e-01  4.59894949e-01  1.63862282e-07  1.57352112e-07  9.90000000e-01 
 1.00000000e+00  3.27026693e-09  4.59894938e-01  3.09400918e-09  3.19186300e-09  3.32054056e-09  4.59894938e-01  4.59894939e-01  1.63862283e-07  1.57351934e-07  1.00000000e+00 
 1.01000000e+00  3.27026693e-09  4.59894933e-01  3.09400924e-09  3.19186295e-09  3.32054062e-09  4.59894933e-01  4.59894933e-01  1.63862278e-07  1.57351757e-07  1.01000000e+00 
 1.02000000e+00  3.27026693e-09  4.59894929e-01  3.09400918e-09  3.19186300e-09  3.32054060e-09  4.59894929e-01  4.59894929e-01  1.63862252e-07  1.57351607e-07  1.02000000e+00 
 1.03000000e+00  3.27026693e-09  4.59894922e-01  3.09400924e-09  3.19186300e-09  3.32054061e-09  4.59894922e-01  4.59894922e-01  1.63862257e-07  1.57351408e-07  1.03000000e+00 
 1.04000000e+00  3.27026693e-09  4.59894935e-01  3.09400924e-09  3.19186300e-09  3.32054055e-09  4.59894935e-01  4.59894935e-01  1.63862263e-07  1.57351231e-07  1.04000000e+00 
 1.05000000e+00  3.27026693e-09  4.59894949e-01  3.09400924e-09  3.19186300e-09  3.32054062e-09  4.59894949e-01  4.59894949e-01  1.63862284e-07  1.57351174e-07  1.05000000e+00 
 1.06000000e+00  3.27026693e-09  4.59894947e-01  3.09400918e-09  3.19186300e-09  3.32054060e-09  4.59894947e-01  4.59894947e-01  1.63862297e-07  1.57351032e-07  1.06000000e+00 
 1.07000000e+00  3.27026693e-09  4.59894945e-01  3.09400924e-09  3.19186300e-09  3.32054061e-09  4.59894945e-01  4.59894945e-01  1.63862280e-07  1.57350946e-07  1.07000000e+00 
 1.08000000e+00  3.27026693e-09  4.59894927e-01  3.09400924e-09  3.19186300e-09  3.32054061e-09  4.59894927e-01  4.59894927e-01  1.63862243e-07  1.57350613e-07  1.08000000e+00 
 1.09000000e+00  3.27026693e-09  4.59894912e-01  3.09400924e-09  3.19186295e-09  3.32054061e-09  4.59894912e-01  4.59894912e-01  1.63862239e-07  1.57350485e-07  1.09000000e+00 
 1.10000000e+00  3.27026693e-09  4.59894931e-01  3.09400918e-09  3.19186295e-09  3.32054061e-09  4.59894931e-01  4.59894931e-01  1.63862266e-07  1.57350470e-07  1.10000000e+00 
