 v-sweep         v(b0)           v(b1)           v(b2)           v(b3)           v(b4)           v(b5)           v(b6)           i(vbias)        i(viout)        v(vout)        
 0.00000000e+00  4.55178286e-01  3.47903195e-09  3.32793346e-09  3.46498234e-09  4.55178286e-01  4.55178286e-01  4.55178286e-01  1.53077650e-07  1.62863042e-07  0.00000000e+00 
 1.00000000e-02  4.55178312e-01  3.47903199e-09  3.32793345e-09  3.46498237e-09  4.55178313e-01  4.55178312e-01  4.55178312e-01  1.53077703e-07  1.62862640e-07  1.00000000e-02 
 2.00000000e-02  4.55178273e-01  3.47903199e-09  3.32793345e-09  3.46498231e-09  4.55178273e-01  4.55178273e-01  4.55178272e-01  1.53077624e-07  1.62862090e-07  2.00000000e-02 
 3.00000000e-02  4.55178281e-01  3.47903199e-09  3.32793350e-09  3.46498231e-09  4.55178281e-01  4.55178281e-01  4.55178281e-01  1.53077666e-07  1.62861702e-07  3.00000000e-02 
 4.00000000e-02  4.55178297e-01  3.47903193e-09  3.32793350e-09  3.46498231e-09  4.55178297e-01  4.55178297e-01  4.55178297e-01  1.53077687e-07  1.62861499e-07  4.00000000e-02 
 5.00000000e-02  4.55178292e-01  3.47903194e-09  3.32793350e-09  3.46498231e-09  4.55178292e-01  4.55178292e-01  4.55178291e-01  1.53077663e-07  1.62861065e-07  5.00000000e-02 
 6.00000000e-02  4.55178277e-01  3.47903193e-09  3.32793345e-09  3.46498237e-09  4.55178277e-01  4.55178277e-01  4.55178277e-01  1.53077636e-07  1.62860517e-07  6.00000000e-02 
 7.00000000e-02  4.55178291e-01  3.47903194e-09  3.32793350e-09  3.46498237e-09  4.55178291e-01  4.55178291e-01  4.55178291e-01  1.53077647e-07  1.62860268e-07  7.00000000e-02 
 8.00000000e-02  4.55178298e-01  3.47903199e-09  3.32793345e-09  3.46498231e-09  4.55178298e-01  4.55178298e-01  4.55178298e-01  1.53077679e-07  1.62860022e-07  8.00000000e-02 
 9.00000000e-02  4.55178268e-01  3.47903198e-09  3.32793350e-09  3.46498231e-09  4.55178268e-01  4.55178268e-01  4.55178268e-01  1.53077646e-07  1.62859481e-07  9.00000000e-02 
 1.00000000e-01  4.55178269e-01  3.47903199e-09  3.32793350e-09  3.46498237e-09  4.55178269e-01  4.55178269e-01  4.55178269e-01  1.53077619e-07  1.62859153e-07  1.00000000e-01 
 1.10000000e-01  4.55178266e-01  3.47903193e-09  3.32793345e-09  3.46498237e-09  4.55178266e-01  4.55178266e-01  4.55178266e-01  1.53077620e-07  1.62858890e-07  1.10000000e-01 
 1.20000000e-01  4.55178298e-01  3.47903200e-09  3.32793350e-09  3.46498231e-09  4.55178298e-01  4.55178298e-01  4.55178298e-01  1.53077663e-07  1.62858772e-07  1.20000000e-01 
 1.30000000e-01  4.55178271e-01  3.47903192e-09  3.32793345e-09  3.46498231e-09  4.55178271e-01  4.55178271e-01  4.55178271e-01  1.53077632e-07  1.62858300e-07  1.30000000e-01 
 1.40000000e-01  4.55178279e-01  3.47903194e-09  3.32793345e-09  3.46498231e-09  4.55178279e-01  4.55178279e-01  4.55178279e-01  1.53077650e-07  1.62858149e-07  1.40000000e-01 
 1.50000000e-01  4.55178292e-01  3.47903194e-09  3.32793350e-09  3.46498231e-09  4.55178292e-01  4.55178292e-01  4.55178292e-01  1.53077665e-07  1.62857928e-07  1.50000000e-01 
 1.60000000e-01  4.55178277e-01  3.47903193e-09  3.32793350e-09  3.46498231e-09  4.55178277e-01  4.55178277e-01  4.55178277e-01  1.53077648e-07  1.62857692e-07  1.60000000e-01 
 1.70000000e-01  4.55178299e-01  3.47903194e-09  3.32793345e-09  3.46498237e-09  4.55178299e-01  4.55178299e-01  4.55178299e-01  1.53077676e-07  1.62857333e-07  1.70000000e-01 
 1.80000000e-01  4.55178330e-01  3.47903194e-09  3.32793350e-09  3.46498231e-09  4.55178330e-01  4.55178330e-01  4.55178330e-01  1.53077716e-07  1.62857296e-07  1.80000000e-01 
 1.90000000e-01  4.55178295e-01  3.47903194e-09  3.32793345e-09  3.46498237e-09  4.55178295e-01  4.55178295e-01  4.55178294e-01  1.53077666e-07  1.62857100e-07  1.90000000e-01 
 2.00000000e-01  4.55178274e-01  3.47903199e-09  3.32793350e-09  3.46498231e-09  4.55178274e-01  4.55178274e-01  4.55178274e-01  1.53077634e-07  1.62856633e-07  2.00000000e-01 
 2.10000000e-01  4.55178285e-01  3.47903198e-09  3.32793350e-09  3.46498237e-09  4.55178286e-01  4.55178286e-01  4.55178285e-01  1.53077654e-07  1.62856560e-07  2.10000000e-01 
 2.20000000e-01  4.55178298e-01  3.47903193e-09  3.32793345e-09  3.46498237e-09  4.55178298e-01  4.55178298e-01  4.55178298e-01  1.53077682e-07  1.62856450e-07  2.20000000e-01 
 2.30000000e-01  4.55178288e-01  3.47903194e-09  3.32793345e-09  3.46498231e-09  4.55178288e-01  4.55178288e-01  4.55178288e-01  1.53077650e-07  1.62856182e-07  2.30000000e-01 
 2.40000000e-01  4.55178279e-01  3.47903193e-09  3.32793345e-09  3.46498237e-09  4.55178280e-01  4.55178279e-01  4.55178279e-01  1.53077645e-07  1.62855985e-07  2.40000000e-01 
 2.50000000e-01  4.55178274e-01  3.47903199e-09  3.32793345e-09  3.46498237e-09  4.55178274e-01  4.55178274e-01  4.55178274e-01  1.53077639e-07  1.62855702e-07  2.50000000e-01 
 2.60000000e-01  4.55178329e-01  3.47903192e-09  3.32793350e-09  3.46498237e-09  4.55178329e-01  4.55178329e-01  4.55178329e-01  1.53077720e-07  1.62855768e-07  2.60000000e-01 
 2.70000000e-01  4.55178289e-01  3.47903200e-09  3.32793345e-09  3.46498231e-09  4.55178289e-01  4.55178289e-01  4.55178289e-01  1.53077663e-07  1.62855383e-07  2.70000000e-01 
 2.80000000e-01  4.55178273e-01  3.47903198e-09  3.32793350e-09  3.46498237e-09  4.55178273e-01  4.55178273e-01  4.55178272e-01  1.53077632e-07  1.62855310e-07  2.80000000e-01 
 2.90000000e-01  4.55178270e-01  3.47903193e-09  3.32793345e-09  3.46498231e-09  4.55178270e-01  4.55178270e-01  4.55178270e-01  1.53077633e-07  1.62854924e-07  2.90000000e-01 
 3.00000000e-01  4.55178305e-01  3.47903200e-09  3.32793350e-09  3.46498231e-09  4.55178305e-01  4.55178305e-01  4.55178305e-01  1.53077689e-07  1.62854999e-07  3.00000000e-01 
 3.10000000e-01  4.55178266e-01  3.47903192e-09  3.32793350e-09  3.46498237e-09  4.55178266e-01  4.55178266e-01  4.55178266e-01  1.53077617e-07  1.62854707e-07  3.10000000e-01 
 3.20000000e-01  4.55178279e-01  3.47903194e-09  3.32793345e-09  3.46498231e-09  4.55178279e-01  4.55178279e-01  4.55178279e-01  1.53077643e-07  1.62854619e-07  3.20000000e-01 
 3.30000000e-01  4.55178304e-01  3.47903194e-09  3.32793345e-09  3.46498231e-09  4.55178304e-01  4.55178304e-01  4.55178303e-01  1.53077693e-07  1.62854597e-07  3.30000000e-01 
 3.40000000e-01  4.55178271e-01  3.47903193e-09  3.32793345e-09  3.46498231e-09  4.55178272e-01  4.55178271e-01  4.55178271e-01  1.53077625e-07  1.62854281e-07  3.40000000e-01 
 3.50000000e-01  4.55178297e-01  3.47903194e-09  3.32793350e-09  3.46498231e-09  4.55178297e-01  4.55178297e-01  4.55178297e-01  1.53077668e-07  1.62854185e-07  3.50000000e-01 
 3.60000000e-01  4.55178288e-01  3.47903194e-09  3.32793350e-09  3.46498231e-09  4.55178288e-01  4.55178288e-01  4.55178288e-01  1.53077662e-07  1.62853990e-07  3.60000000e-01 
 3.70000000e-01  4.55178304e-01  3.47903199e-09  3.32793345e-09  3.46498231e-09  4.55178304e-01  4.55178304e-01  4.55178304e-01  1.53077682e-07  1.62853890e-07  3.70000000e-01 
 3.80000000e-01  4.55178311e-01  3.47903192e-09  3.32793345e-09  3.46498237e-09  4.55178311e-01  4.55178311e-01  4.55178311e-01  1.53077699e-07  1.62853773e-07  3.80000000e-01 
 3.90000000e-01  4.55178297e-01  3.47903194e-09  3.32793345e-09  3.46498237e-09  4.55178297e-01  4.55178297e-01  4.55178297e-01  1.53077679e-07  1.62853620e-07  3.90000000e-01 
 4.00000000e-01  4.55178303e-01  3.47903194e-09  3.32793350e-09  3.46498231e-09  4.55178303e-01  4.55178303e-01  4.55178303e-01  1.53077696e-07  1.62853524e-07  4.00000000e-01 
 4.10000000e-01  4.55178292e-01  3.47903199e-09  3.32793345e-09  3.46498237e-09  4.55178293e-01  4.55178292e-01  4.55178292e-01  1.53077660e-07  1.62853475e-07  4.10000000e-01 
 4.20000000e-01  4.55178294e-01  3.47903192e-09  3.32793350e-09  3.46498231e-09  4.55178294e-01  4.55178294e-01  4.55178294e-01  1.53077677e-07  1.62853212e-07  4.20000000e-01 
 4.30000000e-01  4.55178307e-01  3.47903194e-09  3.32793350e-09  3.46498231e-09  4.55178307e-01  4.55178307e-01  4.55178307e-01  1.53077690e-07  1.62853180e-07  4.30000000e-01 
 4.40000000e-01  4.55178300e-01  3.47903199e-09  3.32793345e-09  3.46498231e-09  4.55178300e-01  4.55178300e-01  4.55178300e-01  1.53077696e-07  1.62852988e-07  4.40000000e-01 
 4.50000000e-01  4.55178296e-01  3.47903198e-09  3.32793350e-09  3.46498231e-09  4.55178297e-01  4.55178296e-01  4.55178296e-01  1.53077692e-07  1.62852832e-07  4.50000000e-01 
 4.60000000e-01  4.55178308e-01  3.47903199e-09  3.32793350e-09  3.46498231e-09  4.55178308e-01  4.55178308e-01  4.55178308e-01  1.53077702e-07  1.62852860e-07  4.60000000e-01 
 4.70000000e-01  4.55178290e-01  3.47903193e-09  3.32793345e-09  3.46498231e-09  4.55178290e-01  4.55178290e-01  4.55178290e-01  1.53077664e-07  1.62852562e-07  4.70000000e-01 
 4.80000000e-01  4.55178288e-01  3.47903200e-09  3.32793350e-09  3.46498237e-09  4.55178288e-01  4.55178288e-01  4.55178288e-01  1.53077668e-07  1.62852523e-07  4.80000000e-01 
 4.90000000e-01  4.55178290e-01  3.47903198e-09  3.32793345e-09  3.46498231e-09  4.55178291e-01  4.55178290e-01  4.55178290e-01  1.53077672e-07  1.62852263e-07  4.90000000e-01 
 5.00000000e-01  4.55178296e-01  3.47903193e-09  3.32793345e-09  3.46498237e-09  4.55178296e-01  4.55178296e-01  4.55178296e-01  1.53077679e-07  1.62852192e-07  5.00000000e-01 
 5.10000000e-01  4.55178293e-01  3.47903194e-09  3.32793350e-09  3.46498231e-09  4.55178293e-01  4.55178293e-01  4.55178292e-01  1.53077665e-07  1.62852015e-07  5.10000000e-01 
 5.20000000e-01  4.55178296e-01  3.47903194e-09  3.32793350e-09  3.46498237e-09  4.55178296e-01  4.55178296e-01  4.55178296e-01  1.53077675e-07  1.62852039e-07  5.20000000e-01 
 5.30000000e-01  4.55178294e-01  3.47903194e-09  3.32793345e-09  3.46498231e-09  4.55178295e-01  4.55178294e-01  4.55178294e-01  1.53077666e-07  1.62851887e-07  5.30000000e-01 
 5.40000000e-01  4.55178305e-01  3.47903194e-09  3.32793350e-09  3.46498237e-09  4.55178305e-01  4.55178305e-01  4.55178305e-01  1.53077698e-07  1.62851720e-07  5.40000000e-01 
 5.50000000e-01  4.55178277e-01  3.47903199e-09  3.32793345e-09  3.46498237e-09  4.55178277e-01  4.55178277e-01  4.55178277e-01  1.53077652e-07  1.62851439e-07  5.50000000e-01 
 5.60000000e-01  4.55178289e-01  3.47903192e-09  3.32793345e-09  3.46498231e-09  4.55178289e-01  4.55178289e-01  4.55178289e-01  1.53077667e-07  1.62851467e-07  5.60000000e-01 
 5.70000000e-01  4.55178274e-01  3.47903194e-09  3.32793345e-09  3.46498237e-09  4.55178274e-01  4.55178274e-01  4.55178273e-01  1.53077629e-07  1.62851265e-07  5.70000000e-01 
 5.80000000e-01  4.55178292e-01  3.47903199e-09  3.32793345e-09  3.46498231e-09  4.55178292e-01  4.55178292e-01  4.55178292e-01  1.53077664e-07  1.62851315e-07  5.80000000e-01 
 5.90000000e-01  4.55178286e-01  3.47903192e-09  3.32793345e-09  3.46498237e-09  4.55178286e-01  4.55178286e-01  4.55178286e-01  1.53077671e-07  1.62851101e-07  5.90000000e-01 
 6.00000000e-01  4.55178302e-01  3.47903194e-09  3.32793350e-09  3.46498237e-09  4.55178302e-01  4.55178302e-01  4.55178302e-01  1.53077682e-07  1.62851116e-07  6.00000000e-01 
 6.10000000e-01  4.55178306e-01  3.47903199e-09  3.32793350e-09  3.46498231e-09  4.55178306e-01  4.55178306e-01  4.55178306e-01  1.53077691e-07  1.62850910e-07  6.10000000e-01 
 6.20000000e-01  4.55178283e-01  3.47903198e-09  3.32793350e-09  3.46498231e-09  4.55178283e-01  4.55178283e-01  4.55178283e-01  1.53077663e-07  1.62850831e-07  6.20000000e-01 
 6.30000000e-01  4.55178286e-01  3.47903199e-09  3.32793345e-09  3.46498237e-09  4.55178286e-01  4.55178286e-01  4.55178286e-01  1.53077653e-07  1.62850611e-07  6.30000000e-01 
 6.40000000e-01  4.55178314e-01  3.47903199e-09  3.32793345e-09  3.46498231e-09  4.55178314e-01  4.55178314e-01  4.55178314e-01  1.53077710e-07  1.62850689e-07  6.40000000e-01 
 6.50000000e-01  4.55178269e-01  3.47903193e-09  3.32793345e-09  3.46498231e-09  4.55178269e-01  4.55178269e-01  4.55178268e-01  1.53077608e-07  1.62850405e-07  6.50000000e-01 
 6.60000000e-01  4.55178289e-01  3.47903194e-09  3.32793350e-09  3.46498231e-09  4.55178289e-01  4.55178289e-01  4.55178289e-01  1.53077656e-07  1.62850256e-07  6.60000000e-01 
 6.70000000e-01  4.55178272e-01  3.47903199e-09  3.32793350e-09  3.46498231e-09  4.55178272e-01  4.55178272e-01  4.55178272e-01  1.53077632e-07  1.62850192e-07  6.70000000e-01 
 6.80000000e-01  4.55178279e-01  3.47903192e-09  3.32793350e-09  3.46498237e-09  4.55178280e-01  4.55178279e-01  4.55178279e-01  1.53077645e-07  1.62850064e-07  6.80000000e-01 
 6.90000000e-01  4.55178292e-01  3.47903194e-09  3.32793350e-09  3.46498237e-09  4.55178292e-01  4.55178292e-01  4.55178292e-01  1.53077676e-07  1.62849901e-07  6.90000000e-01 
 7.00000000e-01  4.55178295e-01  3.47903194e-09  3.32793345e-09  3.46498231e-09  4.55178295e-01  4.55178295e-01  4.55178295e-01  1.53077676e-07  1.62849766e-07  7.00000000e-01 
 7.10000000e-01  4.55178292e-01  3.47903194e-09  3.32793345e-09  3.46498231e-09  4.55178292e-01  4.55178292e-01  4.55178292e-01  1.53077679e-07  1.62849730e-07  7.10000000e-01 
 7.20000000e-01  4.55178295e-01  3.47903194e-09  3.32793345e-09  3.46498231e-09  4.55178295e-01  4.55178295e-01  4.55178295e-01  1.53077676e-07  1.62849595e-07  7.20000000e-01 
 7.30000000e-01  4.55178299e-01  3.47903194e-09  3.32793345e-09  3.46498237e-09  4.55178299e-01  4.55178299e-01  4.55178299e-01  1.53077670e-07  1.62849446e-07  7.30000000e-01 
 7.40000000e-01  4.55178299e-01  3.47903199e-09  3.32793345e-09  3.46498231e-09  4.55178299e-01  4.55178299e-01  4.55178299e-01  1.53077682e-07  1.62849389e-07  7.40000000e-01 
 7.50000000e-01  4.55178283e-01  3.47903198e-09  3.32793345e-09  3.46498237e-09  4.55178283e-01  4.55178283e-01  4.55178283e-01  1.53077665e-07  1.62849247e-07  7.50000000e-01 
 7.60000000e-01  4.55178285e-01  3.47903193e-09  3.32793345e-09  3.46498237e-09  4.55178285e-01  4.55178285e-01  4.55178285e-01  1.53077660e-07  1.62849112e-07  7.60000000e-01 
 7.70000000e-01  4.55178288e-01  3.47903194e-09  3.32793345e-09  3.46498231e-09  4.55178288e-01  4.55178288e-01  4.55178288e-01  1.53077651e-07  1.62849027e-07  7.70000000e-01 
 7.80000000e-01  4.55178305e-01  3.47903199e-09  3.32793345e-09  3.46498231e-09  4.55178305e-01  4.55178305e-01  4.55178305e-01  1.53077679e-07  1.62848949e-07  7.80000000e-01 
 7.90000000e-01  4.55178300e-01  3.47903198e-09  3.32793350e-09  3.46498237e-09  4.55178300e-01  4.55178300e-01  4.55178300e-01  1.53077678e-07  1.62848757e-07  7.90000000e-01 
 8.00000000e-01  4.55178289e-01  3.47903199e-09  3.32793345e-09  3.46498237e-09  4.55178289e-01  4.55178289e-01  4.55178288e-01  1.53077665e-07  1.62848508e-07  8.00000000e-01 
 8.10000000e-01  4.55178297e-01  3.47903193e-09  3.32793345e-09  3.46498231e-09  4.55178297e-01  4.55178297e-01  4.55178297e-01  1.53077672e-07  1.62848508e-07  8.10000000e-01 
 8.20000000e-01  4.55178265e-01  3.47903200e-09  3.32793345e-09  3.46498231e-09  4.55178265e-01  4.55178265e-01  4.55178265e-01  1.53077630e-07  1.62848195e-07  8.20000000e-01 
 8.30000000e-01  4.55178284e-01  3.47903192e-09  3.32793345e-09  3.46498237e-09  4.55178284e-01  4.55178284e-01  4.55178284e-01  1.53077649e-07  1.62848032e-07  8.30000000e-01 
 8.40000000e-01  4.55178293e-01  3.47903194e-09  3.32793345e-09  3.46498231e-09  4.55178293e-01  4.55178293e-01  4.55178292e-01  1.53077660e-07  1.62848195e-07  8.40000000e-01 
 8.50000000e-01  4.55178300e-01  3.47903194e-09  3.32793350e-09  3.46498237e-09  4.55178300e-01  4.55178300e-01  4.55178300e-01  1.53077684e-07  1.62848004e-07  8.50000000e-01 
 8.60000000e-01  4.55178302e-01  3.47903199e-09  3.32793345e-09  3.46498231e-09  4.55178302e-01  4.55178302e-01  4.55178302e-01  1.53077684e-07  1.62847869e-07  8.60000000e-01 
 8.70000000e-01  4.55178308e-01  3.47903192e-09  3.32793350e-09  3.46498237e-09  4.55178308e-01  4.55178308e-01  4.55178308e-01  1.53077696e-07  1.62847712e-07  8.70000000e-01 
 8.80000000e-01  4.55178276e-01  3.47903194e-09  3.32793345e-09  3.46498231e-09  4.55178276e-01  4.55178276e-01  4.55178276e-01  1.53077640e-07  1.62847485e-07  8.80000000e-01 
 8.90000000e-01  4.55178287e-01  3.47903199e-09  3.32793350e-09  3.46498231e-09  4.55178287e-01  4.55178287e-01  4.55178287e-01  1.53077653e-07  1.62847478e-07  8.90000000e-01 
 9.00000000e-01  4.55178278e-01  3.47903198e-09  3.32793350e-09  3.46498231e-09  4.55178278e-01  4.55178278e-01  4.55178278e-01  1.53077658e-07  1.62847286e-07  9.00000000e-01 
 9.10000000e-01  4.55178282e-01  3.47903199e-09  3.32793350e-09  3.46498231e-09  4.55178282e-01  4.55178282e-01  4.55178282e-01  1.53077647e-07  1.62847080e-07  9.10000000e-01 
 9.20000000e-01  4.55178292e-01  3.47903199e-09  3.32793350e-09  3.46498231e-09  4.55178293e-01  4.55178292e-01  4.55178292e-01  1.53077664e-07  1.62847073e-07  9.20000000e-01 
 9.30000000e-01  4.55178302e-01  3.47903199e-09  3.32793350e-09  3.46498237e-09  4.55178303e-01  4.55178302e-01  4.55178302e-01  1.53077691e-07  1.62846874e-07  9.30000000e-01 
 9.40000000e-01  4.55178304e-01  3.47903193e-09  3.32793345e-09  3.46498231e-09  4.55178304e-01  4.55178304e-01  4.55178304e-01  1.53077678e-07  1.62846760e-07  9.40000000e-01 
 9.50000000e-01  4.55178308e-01  3.47903194e-09  3.32793350e-09  3.46498231e-09  4.55178308e-01  4.55178308e-01  4.55178307e-01  1.53077699e-07  1.62846653e-07  9.50000000e-01 
 9.60000000e-01  4.55178273e-01  3.47903193e-09  3.32793345e-09  3.46498237e-09  4.55178273e-01  4.55178273e-01  4.55178273e-01  1.53077637e-07  1.62846440e-07  9.60000000e-01 
 9.70000000e-01  4.55178292e-01  3.47903194e-09  3.32793345e-09  3.46498237e-09  4.55178292e-01  4.55178292e-01  4.55178292e-01  1.53077666e-07  1.62846376e-07  9.70000000e-01 
 9.80000000e-01  4.55178304e-01  3.47903199e-09  3.32793345e-09  3.46498237e-09  4.55178304e-01  4.55178304e-01  4.55178303e-01  1.53077690e-07  1.62846185e-07  9.80000000e-01 
 9.90000000e-01  4.55178268e-01  3.47903198e-09  3.32793350e-09  3.46498231e-09  4.55178268e-01  4.55178268e-01  4.55178268e-01  1.53077630e-07  1.62845950e-07  9.90000000e-01 
 1.00000000e+00  4.55178272e-01  3.47903199e-09  3.32793345e-09  3.46498231e-09  4.55178273e-01  4.55178272e-01  4.55178272e-01  1.53077641e-07  1.62845730e-07  1.00000000e+00 
 1.01000000e+00  4.55178284e-01  3.47903199e-09  3.32793350e-09  3.46498237e-09  4.55178284e-01  4.55178284e-01  4.55178284e-01  1.53077654e-07  1.62845708e-07  1.01000000e+00 
 1.02000000e+00  4.55178325e-01  3.47903199e-09  3.32793345e-09  3.46498231e-09  4.55178325e-01  4.55178325e-01  4.55178325e-01  1.53077732e-07  1.62845723e-07  1.02000000e+00 
 1.03000000e+00  4.55178291e-01  3.47903199e-09  3.32793350e-09  3.46498231e-09  4.55178292e-01  4.55178291e-01  4.55178291e-01  1.53077662e-07  1.62845417e-07  1.03000000e+00 
 1.04000000e+00  4.55178292e-01  3.47903199e-09  3.32793350e-09  3.46498231e-09  4.55178292e-01  4.55178292e-01  4.55178292e-01  1.53077668e-07  1.62845311e-07  1.04000000e+00 
 1.05000000e+00  4.55178291e-01  3.47903199e-09  3.32793345e-09  3.46498237e-09  4.55178291e-01  4.55178291e-01  4.55178291e-01  1.53077673e-07  1.62845005e-07  1.05000000e+00 
 1.06000000e+00  4.55178314e-01  3.47903193e-09  3.32793350e-09  3.46498231e-09  4.55178314e-01  4.55178314e-01  4.55178314e-01  1.53077709e-07  1.62845097e-07  1.06000000e+00 
 1.07000000e+00  4.55178280e-01  3.47903200e-09  3.32793350e-09  3.46498231e-09  4.55178280e-01  4.55178280e-01  4.55178280e-01  1.53077639e-07  1.62844813e-07  1.07000000e+00 
 1.08000000e+00  4.55178289e-01  3.47903198e-09  3.32793345e-09  3.46498237e-09  4.55178289e-01  4.55178289e-01  4.55178288e-01  1.53077656e-07  1.62844628e-07  1.08000000e+00 
 1.09000000e+00  4.55178281e-01  3.47903199e-09  3.32793350e-09  3.46498231e-09  4.55178281e-01  4.55178281e-01  4.55178280e-01  1.53077653e-07  1.62844529e-07  1.09000000e+00 
 1.10000000e+00  4.55178280e-01  3.47903199e-09  3.32793350e-09  3.46498237e-09  4.55178280e-01  4.55178280e-01  4.55178280e-01  1.53077660e-07  1.62844273e-07  1.10000000e+00 
