 v-sweep         v(b0)           v(b1)           v(b2)           v(b3)           v(b4)           v(b5)           v(b6)           i(vbias)        i(viout)        v(vout)        
 0.00000000e+00  4.57665975e-01  4.57665975e-01  3.69369768e-09  4.57665975e-01  3.25626841e-09  4.57665975e-01  3.58309941e-09  1.58882361e-07  6.50989728e-08  0.00000000e+00 
 1.00000000e-02  4.57665988e-01  4.57665987e-01  3.69369772e-09  4.57665987e-01  3.25626837e-09  4.57665988e-01  3.58309939e-09  1.58882391e-07  6.50984632e-08  1.00000000e-02 
 2.00000000e-02  4.57665959e-01  4.57665959e-01  3.69369771e-09  4.57665959e-01  3.25626837e-09  4.57665959e-01  3.58309939e-09  1.58882350e-07  6.50981702e-08  2.00000000e-02 
 3.00000000e-02  4.57665953e-01  4.57665953e-01  3.69369765e-09  4.57665953e-01  3.25626837e-09  4.57665953e-01  3.58309933e-09  1.58882350e-07  6.50976661e-08  3.00000000e-02 
 4.00000000e-02  4.57665964e-01  4.57665964e-01  3.69369766e-09  4.57665964e-01  3.25626837e-09  4.57665964e-01  3.58309933e-09  1.58882351e-07  6.50974115e-08  4.00000000e-02 
 5.00000000e-02  4.57666004e-01  4.57666004e-01  3.69369772e-09  4.57666004e-01  3.25626838e-09  4.57666004e-01  3.58309933e-09  1.58882412e-07  6.50971597e-08  5.00000000e-02 
 6.00000000e-02  4.57665975e-01  4.57665975e-01  3.69369772e-09  4.57665975e-01  3.25626837e-09  4.57665975e-01  3.58309939e-09  1.58882385e-07  6.50968213e-08  6.00000000e-02 
 7.00000000e-02  4.57665980e-01  4.57665980e-01  3.69369766e-09  4.57665980e-01  3.25626837e-09  4.57665980e-01  3.58309939e-09  1.58882384e-07  6.50965180e-08  7.00000000e-02 
 8.00000000e-02  4.57665963e-01  4.57665963e-01  3.69369766e-09  4.57665963e-01  3.25626837e-09  4.57665963e-01  3.58309939e-09  1.58882355e-07  6.50962431e-08  8.00000000e-02 
 9.00000000e-02  4.57665989e-01  4.57665989e-01  3.69369766e-09  4.57665989e-01  3.25626837e-09  4.57665989e-01  3.58309933e-09  1.58882391e-07  6.50959251e-08  9.00000000e-02 
 1.00000000e-01  4.57665968e-01  4.57665968e-01  3.69369766e-09  4.57665968e-01  3.25626837e-09  4.57665968e-01  3.58309939e-09  1.58882356e-07  6.50955707e-08  1.00000000e-01 
 1.10000000e-01  4.57665947e-01  4.57665947e-01  3.69369765e-09  4.57665947e-01  3.25626843e-09  4.57665947e-01  3.58309939e-09  1.58882338e-07  6.50953194e-08  1.10000000e-01 
 1.20000000e-01  4.57665976e-01  4.57665976e-01  3.69369766e-09  4.57665976e-01  3.25626837e-09  4.57665976e-01  3.58309939e-09  1.58882388e-07  6.50952110e-08  1.20000000e-01 
 1.30000000e-01  4.57665988e-01  4.57665988e-01  3.69369766e-09  4.57665988e-01  3.25626837e-09  4.57665988e-01  3.58309939e-09  1.58882392e-07  6.50948957e-08  1.30000000e-01 
 1.40000000e-01  4.57665965e-01  4.57665965e-01  3.69369771e-09  4.57665965e-01  3.25626837e-09  4.57665965e-01  3.58309939e-09  1.58882352e-07  6.50946328e-08  1.40000000e-01 
 1.50000000e-01  4.57665980e-01  4.57665980e-01  3.69369766e-09  4.57665980e-01  3.25626837e-09  4.57665980e-01  3.58309939e-09  1.58882386e-07  6.50944241e-08  1.50000000e-01 
 1.60000000e-01  4.57665954e-01  4.57665954e-01  3.69369766e-09  4.57665954e-01  3.25626837e-09  4.57665954e-01  3.58309933e-09  1.58882327e-07  6.50943317e-08  1.60000000e-01 
 1.70000000e-01  4.57665972e-01  4.57665972e-01  3.69369766e-09  4.57665972e-01  3.25626837e-09  4.57665972e-01  3.58309933e-09  1.58882369e-07  6.50941043e-08  1.70000000e-01 
 1.80000000e-01  4.57665997e-01  4.57665997e-01  3.69369766e-09  4.57665997e-01  3.25626838e-09  4.57665997e-01  3.58309933e-09  1.58882394e-07  6.50939267e-08  1.80000000e-01 
 1.90000000e-01  4.57665954e-01  4.57665954e-01  3.69369766e-09  4.57665954e-01  3.25626837e-09  4.57665954e-01  3.58309933e-09  1.58882345e-07  6.50935892e-08  1.90000000e-01 
 2.00000000e-01  4.57665985e-01  4.57665984e-01  3.69369766e-09  4.57665984e-01  3.25626837e-09  4.57665985e-01  3.58309933e-09  1.58882395e-07  6.50934986e-08  2.00000000e-01 
 2.10000000e-01  4.57665992e-01  4.57665992e-01  3.69369766e-09  4.57665992e-01  3.25626838e-09  4.57665992e-01  3.58309933e-09  1.58882395e-07  6.50934577e-08  2.10000000e-01 
 2.20000000e-01  4.57665951e-01  4.57665951e-01  3.69369765e-09  4.57665951e-01  3.25626837e-09  4.57665951e-01  3.58309939e-09  1.58882336e-07  6.50932055e-08  2.20000000e-01 
 2.30000000e-01  4.57665964e-01  4.57665964e-01  3.69369766e-09  4.57665964e-01  3.25626837e-09  4.57665964e-01  3.58309933e-09  1.58882369e-07  6.50931238e-08  2.30000000e-01 
 2.40000000e-01  4.57665990e-01  4.57665990e-01  3.69369772e-09  4.57665990e-01  3.25626838e-09  4.57665990e-01  3.58309933e-09  1.58882392e-07  6.50929479e-08  2.40000000e-01 
 2.50000000e-01  4.57665991e-01  4.57665991e-01  3.69369766e-09  4.57665991e-01  3.25626838e-09  4.57665991e-01  3.58309933e-09  1.58882386e-07  6.50927099e-08  2.50000000e-01 
 2.60000000e-01  4.57665941e-01  4.57665941e-01  3.69369771e-09  4.57665941e-01  3.25626837e-09  4.57665941e-01  3.58309939e-09  1.58882311e-07  6.50926317e-08  2.60000000e-01 
 2.70000000e-01  4.57665948e-01  4.57665948e-01  3.69369765e-09  4.57665948e-01  3.25626837e-09  4.57665948e-01  3.58309933e-09  1.58882337e-07  6.50924576e-08  2.70000000e-01 
 2.80000000e-01  4.57665948e-01  4.57665948e-01  3.69369771e-09  4.57665948e-01  3.25626837e-09  4.57665948e-01  3.58309933e-09  1.58882332e-07  6.50925251e-08  2.80000000e-01 
 2.90000000e-01  4.57665948e-01  4.57665948e-01  3.69369765e-09  4.57665948e-01  3.25626837e-09  4.57665948e-01  3.58309933e-09  1.58882329e-07  6.50923191e-08  2.90000000e-01 
 3.00000000e-01  4.57665982e-01  4.57665982e-01  3.69369766e-09  4.57665982e-01  3.25626837e-09  4.57665982e-01  3.58309939e-09  1.58882369e-07  6.50923013e-08  3.00000000e-01 
 3.10000000e-01  4.57665991e-01  4.57665991e-01  3.69369766e-09  4.57665991e-01  3.25626838e-09  4.57665991e-01  3.58309933e-09  1.58882397e-07  6.50921166e-08  3.10000000e-01 
 3.20000000e-01  4.57665990e-01  4.57665990e-01  3.69369766e-09  4.57665990e-01  3.25626838e-09  4.57665990e-01  3.58309939e-09  1.58882390e-07  6.50920207e-08  3.20000000e-01 
 3.30000000e-01  4.57665979e-01  4.57665979e-01  3.69369772e-09  4.57665979e-01  3.25626837e-09  4.57665979e-01  3.58309933e-09  1.58882375e-07  6.50918999e-08  3.30000000e-01 
 3.40000000e-01  4.57665973e-01  4.57665973e-01  3.69369766e-09  4.57665973e-01  3.25626837e-09  4.57665973e-01  3.58309933e-09  1.58882373e-07  6.50917684e-08  3.40000000e-01 
 3.50000000e-01  4.57665984e-01  4.57665984e-01  3.69369772e-09  4.57665984e-01  3.25626837e-09  4.57665984e-01  3.58309939e-09  1.58882383e-07  6.50916370e-08  3.50000000e-01 
 3.60000000e-01  4.57665992e-01  4.57665992e-01  3.69369766e-09  4.57665992e-01  3.25626838e-09  4.57665992e-01  3.58309939e-09  1.58882386e-07  6.50916725e-08  3.60000000e-01 
 3.70000000e-01  4.57665979e-01  4.57665979e-01  3.69369766e-09  4.57665979e-01  3.25626837e-09  4.57665979e-01  3.58309933e-09  1.58882383e-07  6.50915624e-08  3.70000000e-01 
 3.80000000e-01  4.57665957e-01  4.57665957e-01  3.69369771e-09  4.57665957e-01  3.25626837e-09  4.57665957e-01  3.58309939e-09  1.58882342e-07  6.50913101e-08  3.80000000e-01 
 3.90000000e-01  4.57665986e-01  4.57665986e-01  3.69369766e-09  4.57665986e-01  3.25626837e-09  4.57665986e-01  3.58309933e-09  1.58882393e-07  6.50913492e-08  3.90000000e-01 
 4.00000000e-01  4.57665946e-01  4.57665946e-01  3.69369771e-09  4.57665946e-01  3.25626837e-09  4.57665946e-01  3.58309939e-09  1.58882332e-07  6.50912391e-08  4.00000000e-01 
 4.10000000e-01  4.57665978e-01  4.57665977e-01  3.69369766e-09  4.57665977e-01  3.25626837e-09  4.57665978e-01  3.58309933e-09  1.58882368e-07  6.50912355e-08  4.10000000e-01 
 4.20000000e-01  4.57665982e-01  4.57665981e-01  3.69369766e-09  4.57665981e-01  3.25626837e-09  4.57665982e-01  3.58309939e-09  1.58882379e-07  6.50912462e-08  4.20000000e-01 
 4.30000000e-01  4.57665969e-01  4.57665969e-01  3.69369766e-09  4.57665969e-01  3.25626837e-09  4.57665969e-01  3.58309933e-09  1.58882366e-07  6.50911289e-08  4.30000000e-01 
 4.40000000e-01  4.57665979e-01  4.57665979e-01  3.69369766e-09  4.57665979e-01  3.25626837e-09  4.57665979e-01  3.58309939e-09  1.58882373e-07  6.50909442e-08  4.40000000e-01 
 4.50000000e-01  4.57665980e-01  4.57665980e-01  3.69369772e-09  4.57665980e-01  3.25626837e-09  4.57665980e-01  3.58309933e-09  1.58882370e-07  6.50909655e-08  4.50000000e-01 
 4.60000000e-01  4.57665994e-01  4.57665994e-01  3.69369766e-09  4.57665994e-01  3.25626838e-09  4.57665994e-01  3.58309933e-09  1.58882400e-07  6.50909975e-08  4.60000000e-01 
 4.70000000e-01  4.57665989e-01  4.57665989e-01  3.69369772e-09  4.57665989e-01  3.25626837e-09  4.57665989e-01  3.58309933e-09  1.58882401e-07  6.50908447e-08  4.70000000e-01 
 4.80000000e-01  4.57665940e-01  4.57665940e-01  3.69369765e-09  4.57665940e-01  3.25626837e-09  4.57665940e-01  3.58309933e-09  1.58882319e-07  6.50906635e-08  4.80000000e-01 
 4.90000000e-01  4.57665956e-01  4.57665956e-01  3.69369771e-09  4.57665956e-01  3.25626837e-09  4.57665956e-01  3.58309939e-09  1.58882351e-07  6.50906493e-08  4.90000000e-01 
 5.00000000e-01  4.57665970e-01  4.57665970e-01  3.69369766e-09  4.57665970e-01  3.25626837e-09  4.57665970e-01  3.58309939e-09  1.58882362e-07  6.50905498e-08  5.00000000e-01 
 5.10000000e-01  4.57665998e-01  4.57665998e-01  3.69369772e-09  4.57665997e-01  3.25626838e-09  4.57665998e-01  3.58309939e-09  1.58882407e-07  6.50905534e-08  5.10000000e-01 
 5.20000000e-01  4.57665971e-01  4.57665971e-01  3.69369772e-09  4.57665971e-01  3.25626837e-09  4.57665971e-01  3.58309933e-09  1.58882357e-07  6.50904219e-08  5.20000000e-01 
 5.30000000e-01  4.57665964e-01  4.57665964e-01  3.69369771e-09  4.57665964e-01  3.25626837e-09  4.57665964e-01  3.58309939e-09  1.58882367e-07  6.50904575e-08  5.30000000e-01 
 5.40000000e-01  4.57665950e-01  4.57665949e-01  3.69369765e-09  4.57665949e-01  3.25626837e-09  4.57665950e-01  3.58309939e-09  1.58882339e-07  6.50902621e-08  5.40000000e-01 
 5.50000000e-01  4.57665993e-01  4.57665993e-01  3.69369766e-09  4.57665993e-01  3.25626838e-09  4.57665993e-01  3.58309939e-09  1.58882407e-07  6.50902159e-08  5.50000000e-01 
 5.60000000e-01  4.57666004e-01  4.57666003e-01  3.69369767e-09  4.57666003e-01  3.25626838e-09  4.57666004e-01  3.58309933e-09  1.58882417e-07  6.50901057e-08  5.60000000e-01 
 5.70000000e-01  4.57665971e-01  4.57665971e-01  3.69369766e-09  4.57665971e-01  3.25626837e-09  4.57665971e-01  3.58309939e-09  1.58882363e-07  6.50900560e-08  5.70000000e-01 
 5.80000000e-01  4.57665986e-01  4.57665986e-01  3.69369766e-09  4.57665986e-01  3.25626837e-09  4.57665986e-01  3.58309933e-09  1.58882386e-07  6.50900418e-08  5.80000000e-01 
 5.90000000e-01  4.57665978e-01  4.57665978e-01  3.69369766e-09  4.57665978e-01  3.25626837e-09  4.57665978e-01  3.58309939e-09  1.58882374e-07  6.50900489e-08  5.90000000e-01 
 6.00000000e-01  4.57665986e-01  4.57665986e-01  3.69369772e-09  4.57665986e-01  3.25626837e-09  4.57665986e-01  3.58309933e-09  1.58882387e-07  6.50898997e-08  6.00000000e-01 
 6.10000000e-01  4.57665960e-01  4.57665960e-01  3.69369771e-09  4.57665960e-01  3.25626837e-09  4.57665961e-01  3.58309933e-09  1.58882334e-07  6.50898500e-08  6.10000000e-01 
 6.20000000e-01  4.57665986e-01  4.57665986e-01  3.69369772e-09  4.57665986e-01  3.25626837e-09  4.57665986e-01  3.58309933e-09  1.58882385e-07  6.50897576e-08  6.20000000e-01 
 6.30000000e-01  4.57665983e-01  4.57665983e-01  3.69369766e-09  4.57665983e-01  3.25626837e-09  4.57665983e-01  3.58309939e-09  1.58882384e-07  6.50897221e-08  6.30000000e-01 
 6.40000000e-01  4.57665985e-01  4.57665985e-01  3.69369766e-09  4.57665985e-01  3.25626837e-09  4.57665985e-01  3.58309939e-09  1.58882378e-07  6.50897292e-08  6.40000000e-01 
 6.50000000e-01  4.57665958e-01  4.57665958e-01  3.69369766e-09  4.57665958e-01  3.25626837e-09  4.57665958e-01  3.58309939e-09  1.58882344e-07  6.50895160e-08  6.50000000e-01 
 6.60000000e-01  4.57665968e-01  4.57665968e-01  3.69369766e-09  4.57665968e-01  3.25626837e-09  4.57665968e-01  3.58309933e-09  1.58882367e-07  6.50895018e-08  6.60000000e-01 
 6.70000000e-01  4.57665983e-01  4.57665983e-01  3.69369766e-09  4.57665983e-01  3.25626837e-09  4.57665983e-01  3.58309933e-09  1.58882379e-07  6.50894876e-08  6.70000000e-01 
 6.80000000e-01  4.57665947e-01  4.57665947e-01  3.69369765e-09  4.57665947e-01  3.25626837e-09  4.57665947e-01  3.58309939e-09  1.58882324e-07  6.50893597e-08  6.80000000e-01 
 6.90000000e-01  4.57665977e-01  4.57665977e-01  3.69369766e-09  4.57665977e-01  3.25626837e-09  4.57665977e-01  3.58309939e-09  1.58882382e-07  6.50893597e-08  6.90000000e-01 
 7.00000000e-01  4.57665996e-01  4.57665996e-01  3.69369772e-09  4.57665996e-01  3.25626843e-09  4.57665996e-01  3.58309939e-09  1.58882407e-07  6.50893668e-08  7.00000000e-01 
 7.10000000e-01  4.57665983e-01  4.57665983e-01  3.69369766e-09  4.57665983e-01  3.25626843e-09  4.57665983e-01  3.58309939e-09  1.58882393e-07  6.50891678e-08  7.10000000e-01 
 7.20000000e-01  4.57665965e-01  4.57665965e-01  3.69369766e-09  4.57665965e-01  3.25626837e-09  4.57665965e-01  3.58309933e-09  1.58882353e-07  6.50891110e-08  7.20000000e-01 
 7.30000000e-01  4.57665964e-01  4.57665964e-01  3.69369766e-09  4.57665964e-01  3.25626837e-09  4.57665964e-01  3.58309939e-09  1.58882369e-07  6.50889973e-08  7.30000000e-01 
 7.40000000e-01  4.57665977e-01  4.57665977e-01  3.69369766e-09  4.57665977e-01  3.25626837e-09  4.57665977e-01  3.58309939e-09  1.58882371e-07  6.50889547e-08  7.40000000e-01 
 7.50000000e-01  4.57665943e-01  4.57665943e-01  3.69369771e-09  4.57665943e-01  3.25626837e-09  4.57665943e-01  3.58309939e-09  1.58882321e-07  6.50888055e-08  7.50000000e-01 
 7.60000000e-01  4.57665966e-01  4.57665966e-01  3.69369771e-09  4.57665966e-01  3.25626837e-09  4.57665966e-01  3.58309933e-09  1.58882378e-07  6.50888552e-08  7.60000000e-01 
 7.70000000e-01  4.57665979e-01  4.57665979e-01  3.69369766e-09  4.57665979e-01  3.25626837e-09  4.57665979e-01  3.58309939e-09  1.58882372e-07  6.50888907e-08  7.70000000e-01 
 7.80000000e-01  4.57665977e-01  4.57665977e-01  3.69369772e-09  4.57665977e-01  3.25626837e-09  4.57665977e-01  3.58309933e-09  1.58882351e-07  6.50886918e-08  7.80000000e-01 
 7.90000000e-01  4.57665997e-01  4.57665997e-01  3.69369766e-09  4.57665997e-01  3.25626838e-09  4.57665997e-01  3.58309939e-09  1.58882387e-07  6.50886705e-08  7.90000000e-01 
 8.00000000e-01  4.57665963e-01  4.57665963e-01  3.69369771e-09  4.57665963e-01  3.25626837e-09  4.57665963e-01  3.58309933e-09  1.58882364e-07  6.50885994e-08  8.00000000e-01 
 8.10000000e-01  4.57665956e-01  4.57665956e-01  3.69369766e-09  4.57665956e-01  3.25626837e-09  4.57665956e-01  3.58309939e-09  1.58882341e-07  6.50884644e-08  8.10000000e-01 
 8.20000000e-01  4.57665977e-01  4.57665977e-01  3.69369766e-09  4.57665977e-01  3.25626837e-09  4.57665977e-01  3.58309933e-09  1.58882385e-07  6.50884076e-08  8.20000000e-01 
 8.30000000e-01  4.57665975e-01  4.57665975e-01  3.69369772e-09  4.57665975e-01  3.25626837e-09  4.57665975e-01  3.58309939e-09  1.58882367e-07  6.50883436e-08  8.30000000e-01 
 8.40000000e-01  4.57665994e-01  4.57665994e-01  3.69369772e-09  4.57665994e-01  3.25626838e-09  4.57665994e-01  3.58309933e-09  1.58882400e-07  6.50882868e-08  8.40000000e-01 
 8.50000000e-01  4.57665970e-01  4.57665970e-01  3.69369766e-09  4.57665970e-01  3.25626837e-09  4.57665970e-01  3.58309939e-09  1.58882365e-07  6.50882654e-08  8.50000000e-01 
 8.60000000e-01  4.57665970e-01  4.57665970e-01  3.69369772e-09  4.57665970e-01  3.25626837e-09  4.57665970e-01  3.58309939e-09  1.58882377e-07  6.50881589e-08  8.60000000e-01 
 8.70000000e-01  4.57665970e-01  4.57665970e-01  3.69369766e-09  4.57665970e-01  3.25626837e-09  4.57665970e-01  3.58309933e-09  1.58882357e-07  6.50881162e-08  8.70000000e-01 
 8.80000000e-01  4.57665998e-01  4.57665997e-01  3.69369766e-09  4.57665997e-01  3.25626838e-09  4.57665998e-01  3.58309939e-09  1.58882407e-07  6.50881375e-08  8.80000000e-01 
 8.90000000e-01  4.57665942e-01  4.57665942e-01  3.69369765e-09  4.57665942e-01  3.25626837e-09  4.57665942e-01  3.58309933e-09  1.58882322e-07  6.50879954e-08  8.90000000e-01 
 9.00000000e-01  4.57665984e-01  4.57665984e-01  3.69369772e-09  4.57665984e-01  3.25626837e-09  4.57665984e-01  3.58309933e-09  1.58882384e-07  6.50879457e-08  9.00000000e-01 
 9.10000000e-01  4.57665978e-01  4.57665978e-01  3.69369766e-09  4.57665978e-01  3.25626837e-09  4.57665978e-01  3.58309933e-09  1.58882374e-07  6.50879315e-08  9.10000000e-01 
 9.20000000e-01  4.57665961e-01  4.57665961e-01  3.69369766e-09  4.57665961e-01  3.25626837e-09  4.57665961e-01  3.58309939e-09  1.58882350e-07  6.50877325e-08  9.20000000e-01 
 9.30000000e-01  4.57665976e-01  4.57665976e-01  3.69369766e-09  4.57665976e-01  3.25626837e-09  4.57665976e-01  3.58309933e-09  1.58882368e-07  6.50878746e-08  9.30000000e-01 
 9.40000000e-01  4.57665967e-01  4.57665967e-01  3.69369766e-09  4.57665967e-01  3.25626837e-09  4.57665967e-01  3.58309933e-09  1.58882350e-07  6.50876828e-08  9.40000000e-01 
 9.50000000e-01  4.57665987e-01  4.57665987e-01  3.69369766e-09  4.57665987e-01  3.25626837e-09  4.57665987e-01  3.58309939e-09  1.58882393e-07  6.50877823e-08  9.50000000e-01 
 9.60000000e-01  4.57665990e-01  4.57665990e-01  3.69369766e-09  4.57665990e-01  3.25626838e-09  4.57665990e-01  3.58309933e-09  1.58882392e-07  6.50876117e-08  9.60000000e-01 
 9.70000000e-01  4.57665959e-01  4.57665959e-01  3.69369771e-09  4.57665959e-01  3.25626837e-09  4.57665959e-01  3.58309933e-09  1.58882344e-07  6.50875265e-08  9.70000000e-01 
 9.80000000e-01  4.57666000e-01  4.57666000e-01  3.69369772e-09  4.57666000e-01  3.25626838e-09  4.57666000e-01  3.58309939e-09  1.58882425e-07  6.50875478e-08  9.80000000e-01 
 9.90000000e-01  4.57665990e-01  4.57665990e-01  3.69369766e-09  4.57665990e-01  3.25626838e-09  4.57665990e-01  3.58309939e-09  1.58882402e-07  6.50873488e-08  9.90000000e-01 
 1.00000000e+00  4.57665965e-01  4.57665965e-01  3.69369766e-09  4.57665965e-01  3.25626837e-09  4.57665965e-01  3.58309933e-09  1.58882355e-07  6.50872494e-08  1.00000000e+00 
 1.01000000e+00  4.57665964e-01  4.57665964e-01  3.69369766e-09  4.57665964e-01  3.25626837e-09  4.57665964e-01  3.58309933e-09  1.58882357e-07  6.50873062e-08  1.01000000e+00 
 1.02000000e+00  4.57666003e-01  4.57666003e-01  3.69369767e-09  4.57666003e-01  3.25626838e-09  4.57666003e-01  3.58309933e-09  1.58882410e-07  6.50871073e-08  1.02000000e+00 
 1.03000000e+00  4.57665996e-01  4.57665996e-01  3.69369772e-09  4.57665996e-01  3.25626838e-09  4.57665996e-01  3.58309939e-09  1.58882407e-07  6.50871499e-08  1.03000000e+00 
 1.04000000e+00  4.57665955e-01  4.57665955e-01  3.69369766e-09  4.57665955e-01  3.25626837e-09  4.57665955e-01  3.58309933e-09  1.58882341e-07  6.50868657e-08  1.04000000e+00 
 1.05000000e+00  4.57665985e-01  4.57665985e-01  3.69369772e-09  4.57665985e-01  3.25626837e-09  4.57665985e-01  3.58309939e-09  1.58882394e-07  6.50869438e-08  1.05000000e+00 
 1.06000000e+00  4.57665966e-01  4.57665966e-01  3.69369766e-09  4.57665966e-01  3.25626843e-09  4.57665967e-01  3.58309939e-09  1.58882365e-07  6.50868941e-08  1.06000000e+00 
 1.07000000e+00  4.57665997e-01  4.57665997e-01  3.69369772e-09  4.57665997e-01  3.25626838e-09  4.57665997e-01  3.58309933e-09  1.58882413e-07  6.50867307e-08  1.07000000e+00 
 1.08000000e+00  4.57665980e-01  4.57665980e-01  3.69369772e-09  4.57665980e-01  3.25626837e-09  4.57665980e-01  3.58309939e-09  1.58882384e-07  6.50866738e-08  1.08000000e+00 
 1.09000000e+00  4.57665984e-01  4.57665984e-01  3.69369766e-09  4.57665984e-01  3.25626837e-09  4.57665984e-01  3.58309933e-09  1.58882380e-07  6.50866809e-08  1.09000000e+00 
 1.10000000e+00  4.57665946e-01  4.57665946e-01  3.69369765e-09  4.57665946e-01  3.25626837e-09  4.57665946e-01  3.58309939e-09  1.58882325e-07  6.50864891e-08  1.10000000e+00 
