 v-sweep         v(b0)           v(b1)           v(b2)           v(b3)           v(b4)           v(b5)           v(b6)           i(vbias)        i(viout)        v(vout)        
 0.00000000e+00  3.26987599e-09  3.23784451e-09  3.43845974e-09  4.57945897e-01  4.57945897e-01  4.57945897e-01  4.57945897e-01  1.57270207e-07  1.80067216e-07  0.00000000e+00 
 1.00000000e-02  3.26987597e-09  3.23784449e-09  3.43845972e-09  4.57945893e-01  4.57945893e-01  4.57945893e-01  4.57945893e-01  1.57270243e-07  1.80066786e-07  1.00000000e-02 
 2.00000000e-02  3.26987597e-09  3.23784455e-09  3.43845972e-09  4.57945918e-01  4.57945918e-01  4.57945918e-01  4.57945918e-01  1.57270263e-07  1.80066386e-07  2.00000000e-02 
 3.00000000e-02  3.26987597e-09  3.23784455e-09  3.43845972e-09  4.57945918e-01  4.57945918e-01  4.57945918e-01  4.57945918e-01  1.57270271e-07  1.80066039e-07  3.00000000e-02 
 4.00000000e-02  3.26987603e-09  3.23784449e-09  3.43845972e-09  4.57945922e-01  4.57945922e-01  4.57945922e-01  4.57945922e-01  1.57270265e-07  1.80065563e-07  4.00000000e-02 
 5.00000000e-02  3.26987597e-09  3.23784449e-09  3.43845972e-09  4.57945919e-01  4.57945919e-01  4.57945919e-01  4.57945919e-01  1.57270259e-07  1.80065053e-07  5.00000000e-02 
 6.00000000e-02  3.26987597e-09  3.23784455e-09  3.43845972e-09  4.57945896e-01  4.57945896e-01  4.57945896e-01  4.57945896e-01  1.57270232e-07  1.80064700e-07  6.00000000e-02 
 7.00000000e-02  3.26987603e-09  3.23784449e-09  3.43845972e-09  4.57945927e-01  4.57945927e-01  4.57945927e-01  4.57945927e-01  1.57270283e-07  1.80064431e-07  7.00000000e-02 
 8.00000000e-02  3.26987597e-09  3.23784449e-09  3.43845978e-09  4.57945916e-01  4.57945916e-01  4.57945916e-01  4.57945916e-01  1.57270261e-07  1.80063886e-07  8.00000000e-02 
 9.00000000e-02  3.26987597e-09  3.23784449e-09  3.43845972e-09  4.57945926e-01  4.57945926e-01  4.57945926e-01  4.57945926e-01  1.57270274e-07  1.80063639e-07  9.00000000e-02 
 1.00000000e-01  3.26987597e-09  3.23784455e-09  3.43845972e-09  4.57945926e-01  4.57945926e-01  4.57945926e-01  4.57945926e-01  1.57270276e-07  1.80063350e-07  1.00000000e-01 
 1.10000000e-01  3.26987603e-09  3.23784455e-09  3.43845972e-09  4.57945915e-01  4.57945915e-01  4.57945916e-01  4.57945916e-01  1.57270274e-07  1.80063052e-07  1.10000000e-01 
 1.20000000e-01  3.26987597e-09  3.23784455e-09  3.43845972e-09  4.57945940e-01  4.57945940e-01  4.57945941e-01  4.57945941e-01  1.57270304e-07  1.80062739e-07  1.20000000e-01 
 1.30000000e-01  3.26987603e-09  3.23784449e-09  3.43845972e-09  4.57945916e-01  4.57945916e-01  4.57945916e-01  4.57945916e-01  1.57270254e-07  1.80062374e-07  1.30000000e-01 
 1.40000000e-01  3.26987597e-09  3.23784449e-09  3.43845972e-09  4.57945922e-01  4.57945922e-01  4.57945922e-01  4.57945922e-01  1.57270275e-07  1.80062158e-07  1.40000000e-01 
 1.50000000e-01  3.26987597e-09  3.23784449e-09  3.43845972e-09  4.57945917e-01  4.57945917e-01  4.57945917e-01  4.57945917e-01  1.57270266e-07  1.80061734e-07  1.50000000e-01 
 1.60000000e-01  3.26987597e-09  3.23784449e-09  3.43845972e-09  4.57945904e-01  4.57945904e-01  4.57945905e-01  4.57945904e-01  1.57270249e-07  1.80061496e-07  1.60000000e-01 
 1.70000000e-01  3.26987603e-09  3.23784455e-09  3.43845972e-09  4.57945926e-01  4.57945926e-01  4.57945926e-01  4.57945926e-01  1.57270292e-07  1.80061210e-07  1.70000000e-01 
 1.80000000e-01  3.26987603e-09  3.23784449e-09  3.43845972e-09  4.57945927e-01  4.57945927e-01  4.57945927e-01  4.57945927e-01  1.57270279e-07  1.80061075e-07  1.80000000e-01 
 1.90000000e-01  3.26987597e-09  3.23784455e-09  3.43845972e-09  4.57945913e-01  4.57945913e-01  4.57945913e-01  4.57945913e-01  1.57270256e-07  1.80060663e-07  1.90000000e-01 
 2.00000000e-01  3.26987597e-09  3.23784455e-09  3.43845972e-09  4.57945898e-01  4.57945898e-01  4.57945898e-01  4.57945898e-01  1.57270241e-07  1.80060480e-07  2.00000000e-01 
 2.10000000e-01  3.26987597e-09  3.23784449e-09  3.43845972e-09  4.57945925e-01  4.57945925e-01  4.57945925e-01  4.57945925e-01  1.57270293e-07  1.80060399e-07  2.10000000e-01 
 2.20000000e-01  3.26987597e-09  3.23784449e-09  3.43845972e-09  4.57945916e-01  4.57945916e-01  4.57945916e-01  4.57945916e-01  1.57270260e-07  1.80060040e-07  2.20000000e-01 
 2.30000000e-01  3.26987597e-09  3.23784449e-09  3.43845972e-09  4.57945912e-01  4.57945912e-01  4.57945912e-01  4.57945912e-01  1.57270251e-07  1.80059752e-07  2.30000000e-01 
 2.40000000e-01  3.26987597e-09  3.23784455e-09  3.43845972e-09  4.57945901e-01  4.57945901e-01  4.57945901e-01  4.57945901e-01  1.57270240e-07  1.80059585e-07  2.40000000e-01 
 2.50000000e-01  3.26987603e-09  3.23784449e-09  3.43845972e-09  4.57945928e-01  4.57945927e-01  4.57945928e-01  4.57945928e-01  1.57270279e-07  1.80059528e-07  2.50000000e-01 
 2.60000000e-01  3.26987597e-09  3.23784449e-09  3.43845972e-09  4.57945900e-01  4.57945900e-01  4.57945900e-01  4.57945900e-01  1.57270237e-07  1.80059107e-07  2.60000000e-01 
 2.70000000e-01  3.26987603e-09  3.23784449e-09  3.43845972e-09  4.57945928e-01  4.57945928e-01  4.57945928e-01  4.57945928e-01  1.57270289e-07  1.80059072e-07  2.70000000e-01 
 2.80000000e-01  3.26987603e-09  3.23784455e-09  3.43845972e-09  4.57945919e-01  4.57945919e-01  4.57945919e-01  4.57945919e-01  1.57270250e-07  1.80058837e-07  2.80000000e-01 
 2.90000000e-01  3.26987603e-09  3.23784449e-09  3.43845972e-09  4.57945908e-01  4.57945908e-01  4.57945908e-01  4.57945908e-01  1.57270267e-07  1.80058603e-07  2.90000000e-01 
 3.00000000e-01  3.26987602e-09  3.23784449e-09  3.43845972e-09  4.57945898e-01  4.57945898e-01  4.57945898e-01  4.57945898e-01  1.57270235e-07  1.80058287e-07  3.00000000e-01 
 3.10000000e-01  3.26987603e-09  3.23784449e-09  3.43845972e-09  4.57945917e-01  4.57945917e-01  4.57945917e-01  4.57945917e-01  1.57270274e-07  1.80058287e-07  3.10000000e-01 
 3.20000000e-01  3.26987603e-09  3.23784449e-09  3.43845972e-09  4.57945912e-01  4.57945912e-01  4.57945912e-01  4.57945912e-01  1.57270260e-07  1.80058013e-07  3.20000000e-01 
 3.30000000e-01  3.26987597e-09  3.23784455e-09  3.43845972e-09  4.57945909e-01  4.57945909e-01  4.57945909e-01  4.57945909e-01  1.57270261e-07  1.80057768e-07  3.30000000e-01 
 3.40000000e-01  3.26987597e-09  3.23784455e-09  3.43845972e-09  4.57945906e-01  4.57945906e-01  4.57945906e-01  4.57945906e-01  1.57270262e-07  1.80057761e-07  3.40000000e-01 
 3.50000000e-01  3.26987602e-09  3.23784455e-09  3.43845972e-09  4.57945871e-01  4.57945871e-01  4.57945871e-01  4.57945871e-01  1.57270204e-07  1.80057416e-07  3.50000000e-01 
 3.60000000e-01  3.26987603e-09  3.23784455e-09  3.43845972e-09  4.57945907e-01  4.57945907e-01  4.57945907e-01  4.57945907e-01  1.57270269e-07  1.80057235e-07  3.60000000e-01 
 3.70000000e-01  3.26987603e-09  3.23784455e-09  3.43845972e-09  4.57945932e-01  4.57945932e-01  4.57945932e-01  4.57945932e-01  1.57270268e-07  1.80057278e-07  3.70000000e-01 
 3.80000000e-01  3.26987597e-09  3.23784449e-09  3.43845972e-09  4.57945919e-01  4.57945919e-01  4.57945919e-01  4.57945919e-01  1.57270260e-07  1.80057064e-07  3.80000000e-01 
 3.90000000e-01  3.26987597e-09  3.23784449e-09  3.43845972e-09  4.57945903e-01  4.57945903e-01  4.57945903e-01  4.57945903e-01  1.57270255e-07  1.80056865e-07  3.90000000e-01 
 4.00000000e-01  3.26987603e-09  3.23784455e-09  3.43845972e-09  4.57945909e-01  4.57945909e-01  4.57945909e-01  4.57945909e-01  1.57270247e-07  1.80056698e-07  4.00000000e-01 
 4.10000000e-01  3.26987603e-09  3.23784449e-09  3.43845972e-09  4.57945908e-01  4.57945908e-01  4.57945908e-01  4.57945908e-01  1.57270238e-07  1.80056638e-07  4.10000000e-01 
 4.20000000e-01  3.26987597e-09  3.23784449e-09  3.43845972e-09  4.57945908e-01  4.57945908e-01  4.57945908e-01  4.57945908e-01  1.57270261e-07  1.80056340e-07  4.20000000e-01 
 4.30000000e-01  3.26987597e-09  3.23784455e-09  3.43845972e-09  4.57945885e-01  4.57945885e-01  4.57945885e-01  4.57945885e-01  1.57270209e-07  1.80056091e-07  4.30000000e-01 
 4.40000000e-01  3.26987597e-09  3.23784455e-09  3.43845972e-09  4.57945936e-01  4.57945936e-01  4.57945936e-01  4.57945936e-01  1.57270297e-07  1.80056198e-07  4.40000000e-01 
 4.50000000e-01  3.26987597e-09  3.23784449e-09  3.43845972e-09  4.57945941e-01  4.57945941e-01  4.57945941e-01  4.57945941e-01  1.57270308e-07  1.80056166e-07  4.50000000e-01 
 4.60000000e-01  3.26987597e-09  3.23784449e-09  3.43845972e-09  4.57945916e-01  4.57945916e-01  4.57945916e-01  4.57945916e-01  1.57270256e-07  1.80055817e-07  4.60000000e-01 
 4.70000000e-01  3.26987603e-09  3.23784449e-09  3.43845972e-09  4.57945949e-01  4.57945949e-01  4.57945949e-01  4.57945949e-01  1.57270319e-07  1.80055785e-07  4.70000000e-01 
 4.80000000e-01  3.26987603e-09  3.23784449e-09  3.43845972e-09  4.57945912e-01  4.57945912e-01  4.57945912e-01  4.57945912e-01  1.57270261e-07  1.80055494e-07  4.80000000e-01 
 4.90000000e-01  3.26987603e-09  3.23784455e-09  3.43845972e-09  4.57945911e-01  4.57945911e-01  4.57945911e-01  4.57945911e-01  1.57270265e-07  1.80055380e-07  4.90000000e-01 
 5.00000000e-01  3.26987597e-09  3.23784449e-09  3.43845972e-09  4.57945915e-01  4.57945915e-01  4.57945915e-01  4.57945915e-01  1.57270261e-07  1.80055199e-07  5.00000000e-01 
 5.10000000e-01  3.26987602e-09  3.23784455e-09  3.43845972e-09  4.57945892e-01  4.57945892e-01  4.57945892e-01  4.57945892e-01  1.57270233e-07  1.80055011e-07  5.10000000e-01 
 5.20000000e-01  3.26987597e-09  3.23784455e-09  3.43845972e-09  4.57945902e-01  4.57945902e-01  4.57945902e-01  4.57945902e-01  1.57270249e-07  1.80054830e-07  5.20000000e-01 
 5.30000000e-01  3.26987602e-09  3.23784455e-09  3.43845972e-09  4.57945899e-01  4.57945899e-01  4.57945899e-01  4.57945899e-01  1.57270239e-07  1.80054656e-07  5.30000000e-01 
 5.40000000e-01  3.26987603e-09  3.23784449e-09  3.43845972e-09  4.57945927e-01  4.57945927e-01  4.57945927e-01  4.57945927e-01  1.57270272e-07  1.80054670e-07  5.40000000e-01 
 5.50000000e-01  3.26987603e-09  3.23784449e-09  3.43845972e-09  4.57945918e-01  4.57945918e-01  4.57945918e-01  4.57945918e-01  1.57270252e-07  1.80054506e-07  5.50000000e-01 
 5.60000000e-01  3.26987602e-09  3.23784449e-09  3.43845972e-09  4.57945889e-01  4.57945889e-01  4.57945889e-01  4.57945889e-01  1.57270228e-07  1.80054275e-07  5.60000000e-01 
 5.70000000e-01  3.26987597e-09  3.23784455e-09  3.43845972e-09  4.57945927e-01  4.57945927e-01  4.57945927e-01  4.57945927e-01  1.57270284e-07  1.80054265e-07  5.70000000e-01 
 5.80000000e-01  3.26987597e-09  3.23784455e-09  3.43845972e-09  4.57945921e-01  4.57945921e-01  4.57945921e-01  4.57945921e-01  1.57270261e-07  1.80054016e-07  5.80000000e-01 
 5.90000000e-01  3.26987602e-09  3.23784449e-09  3.43845972e-09  4.57945890e-01  4.57945890e-01  4.57945890e-01  4.57945890e-01  1.57270229e-07  1.80053810e-07  5.90000000e-01 
 6.00000000e-01  3.26987597e-09  3.23784449e-09  3.43845972e-09  4.57945937e-01  4.57945937e-01  4.57945937e-01  4.57945937e-01  1.57270299e-07  1.80053860e-07  6.00000000e-01 
 6.10000000e-01  3.26987603e-09  3.23784449e-09  3.43845972e-09  4.57945911e-01  4.57945911e-01  4.57945912e-01  4.57945912e-01  1.57270248e-07  1.80053568e-07  6.10000000e-01 
 6.20000000e-01  3.26987603e-09  3.23784449e-09  3.43845972e-09  4.57945906e-01  4.57945906e-01  4.57945907e-01  4.57945907e-01  1.57270262e-07  1.80053370e-07  6.20000000e-01 
 6.30000000e-01  3.26987597e-09  3.23784449e-09  3.43845972e-09  4.57945897e-01  4.57945897e-01  4.57945897e-01  4.57945897e-01  1.57270238e-07  1.80053377e-07  6.30000000e-01 
 6.40000000e-01  3.26987597e-09  3.23784455e-09  3.43845972e-09  4.57945919e-01  4.57945919e-01  4.57945919e-01  4.57945919e-01  1.57270277e-07  1.80053121e-07  6.40000000e-01 
 6.50000000e-01  3.26987597e-09  3.23784455e-09  3.43845972e-09  4.57945883e-01  4.57945883e-01  4.57945883e-01  4.57945883e-01  1.57270195e-07  1.80053000e-07  6.50000000e-01 
 6.60000000e-01  3.26987597e-09  3.23784449e-09  3.43845972e-09  4.57945912e-01  4.57945912e-01  4.57945912e-01  4.57945912e-01  1.57270270e-07  1.80052879e-07  6.60000000e-01 
 6.70000000e-01  3.26987597e-09  3.23784449e-09  3.43845972e-09  4.57945894e-01  4.57945893e-01  4.57945894e-01  4.57945894e-01  1.57270219e-07  1.80052581e-07  6.70000000e-01 
 6.80000000e-01  3.26987597e-09  3.23784449e-09  3.43845972e-09  4.57945918e-01  4.57945918e-01  4.57945918e-01  4.57945918e-01  1.57270276e-07  1.80052623e-07  6.80000000e-01 
 6.90000000e-01  3.26987603e-09  3.23784449e-09  3.43845972e-09  4.57945926e-01  4.57945926e-01  4.57945926e-01  4.57945926e-01  1.57270286e-07  1.80052439e-07  6.90000000e-01 
 7.00000000e-01  3.26987603e-09  3.23784449e-09  3.43845972e-09  4.57945916e-01  4.57945916e-01  4.57945916e-01  4.57945916e-01  1.57270255e-07  1.80052325e-07  7.00000000e-01 
 7.10000000e-01  3.26987597e-09  3.23784449e-09  3.43845972e-09  4.57945903e-01  4.57945903e-01  4.57945903e-01  4.57945903e-01  1.57270251e-07  1.80052041e-07  7.10000000e-01 
 7.20000000e-01  3.26987603e-09  3.23784455e-09  3.43845972e-09  4.57945958e-01  4.57945958e-01  4.57945958e-01  4.57945958e-01  1.57270317e-07  1.80052147e-07  7.20000000e-01 
 7.30000000e-01  3.26987597e-09  3.23784455e-09  3.43845972e-09  4.57945919e-01  4.57945919e-01  4.57945919e-01  4.57945919e-01  1.57270265e-07  1.80051849e-07  7.30000000e-01 
 7.40000000e-01  3.26987597e-09  3.23784449e-09  3.43845972e-09  4.57945920e-01  4.57945920e-01  4.57945920e-01  4.57945920e-01  1.57270276e-07  1.80051636e-07  7.40000000e-01 
 7.50000000e-01  3.26987597e-09  3.23784449e-09  3.43845972e-09  4.57945927e-01  4.57945927e-01  4.57945927e-01  4.57945927e-01  1.57270292e-07  1.80051579e-07  7.50000000e-01 
 7.60000000e-01  3.26987603e-09  3.23784455e-09  3.43845972e-09  4.57945912e-01  4.57945912e-01  4.57945913e-01  4.57945912e-01  1.57270244e-07  1.80051323e-07  7.60000000e-01 
 7.70000000e-01  3.26987603e-09  3.23784449e-09  3.43845972e-09  4.57945935e-01  4.57945935e-01  4.57945935e-01  4.57945935e-01  1.57270302e-07  1.80051245e-07  7.70000000e-01 
 7.80000000e-01  3.26987603e-09  3.23784449e-09  3.43845972e-09  4.57945925e-01  4.57945925e-01  4.57945925e-01  4.57945925e-01  1.57270269e-07  1.80050897e-07  7.80000000e-01 
 7.90000000e-01  3.26987603e-09  3.23784449e-09  3.43845972e-09  4.57945919e-01  4.57945919e-01  4.57945919e-01  4.57945919e-01  1.57270265e-07  1.80050883e-07  7.90000000e-01 
 8.00000000e-01  3.26987603e-09  3.23784455e-09  3.43845972e-09  4.57945904e-01  4.57945904e-01  4.57945904e-01  4.57945904e-01  1.57270247e-07  1.80050620e-07  8.00000000e-01 
 8.10000000e-01  3.26987597e-09  3.23784455e-09  3.43845972e-09  4.57945929e-01  4.57945929e-01  4.57945929e-01  4.57945929e-01  1.57270287e-07  1.80050627e-07  8.10000000e-01 
 8.20000000e-01  3.26987597e-09  3.23784449e-09  3.43845972e-09  4.57945916e-01  4.57945916e-01  4.57945916e-01  4.57945916e-01  1.57270257e-07  1.80050449e-07  8.20000000e-01 
 8.30000000e-01  3.26987597e-09  3.23784455e-09  3.43845972e-09  4.57945888e-01  4.57945888e-01  4.57945888e-01  4.57945888e-01  1.57270221e-07  1.80050137e-07  8.30000000e-01 
 8.40000000e-01  3.26987597e-09  3.23784449e-09  3.43845972e-09  4.57945946e-01  4.57945946e-01  4.57945946e-01  4.57945946e-01  1.57270313e-07  1.80050201e-07  8.40000000e-01 
 8.50000000e-01  3.26987603e-09  3.23784455e-09  3.43845972e-09  4.57945925e-01  4.57945925e-01  4.57945925e-01  4.57945925e-01  1.57270289e-07  1.80049952e-07  8.50000000e-01 
 8.60000000e-01  3.26987597e-09  3.23784449e-09  3.43845972e-09  4.57945895e-01  4.57945895e-01  4.57945895e-01  4.57945895e-01  1.57270228e-07  1.80049675e-07  8.60000000e-01 
 8.70000000e-01  3.26987597e-09  3.23784455e-09  3.43845972e-09  4.57945931e-01  4.57945931e-01  4.57945931e-01  4.57945931e-01  1.57270281e-07  1.80049682e-07  8.70000000e-01 
 8.80000000e-01  3.26987603e-09  3.23784449e-09  3.43845972e-09  4.57945908e-01  4.57945908e-01  4.57945909e-01  4.57945909e-01  1.57270248e-07  1.80049398e-07  8.80000000e-01 
 8.90000000e-01  3.26987597e-09  3.23784449e-09  3.43845972e-09  4.57945923e-01  4.57945923e-01  4.57945923e-01  4.57945923e-01  1.57270276e-07  1.80049256e-07  8.90000000e-01 
 9.00000000e-01  3.26987602e-09  3.23784455e-09  3.43845972e-09  4.57945896e-01  4.57945896e-01  4.57945896e-01  4.57945896e-01  1.57270241e-07  1.80048914e-07  9.00000000e-01 
 9.10000000e-01  3.26987603e-09  3.23784449e-09  3.43845972e-09  4.57945919e-01  4.57945919e-01  4.57945919e-01  4.57945919e-01  1.57270282e-07  1.80048957e-07  9.10000000e-01 
 9.20000000e-01  3.26987603e-09  3.23784449e-09  3.43845972e-09  4.57945929e-01  4.57945929e-01  4.57945929e-01  4.57945929e-01  1.57270280e-07  1.80048751e-07  9.20000000e-01 
 9.30000000e-01  3.26987602e-09  3.23784455e-09  3.43845972e-09  4.57945902e-01  4.57945902e-01  4.57945902e-01  4.57945902e-01  1.57270225e-07  1.80048502e-07  9.30000000e-01 
 9.40000000e-01  3.26987603e-09  3.23784455e-09  3.43845972e-09  4.57945924e-01  4.57945924e-01  4.57945924e-01  4.57945924e-01  1.57270298e-07  1.80048374e-07  9.40000000e-01 
 9.50000000e-01  3.26987603e-09  3.23784449e-09  3.43845972e-09  4.57945924e-01  4.57945924e-01  4.57945924e-01  4.57945924e-01  1.57270269e-07  1.80048104e-07  9.50000000e-01 
 9.60000000e-01  3.26987597e-09  3.23784455e-09  3.43845972e-09  4.57945916e-01  4.57945916e-01  4.57945916e-01  4.57945916e-01  1.57270253e-07  1.80048040e-07  9.60000000e-01 
 9.70000000e-01  3.26987603e-09  3.23784449e-09  3.43845972e-09  4.57945916e-01  4.57945916e-01  4.57945916e-01  4.57945916e-01  1.57270266e-07  1.80047955e-07  9.70000000e-01 
 9.80000000e-01  3.26987597e-09  3.23784455e-09  3.43845972e-09  4.57945931e-01  4.57945931e-01  4.57945931e-01  4.57945931e-01  1.57270276e-07  1.80047678e-07  9.80000000e-01 
 9.90000000e-01  3.26987603e-09  3.23784449e-09  3.43845972e-09  4.57945919e-01  4.57945919e-01  4.57945919e-01  4.57945919e-01  1.57270269e-07  1.80047444e-07  9.90000000e-01 
 1.00000000e+00  3.26987602e-09  3.23784449e-09  3.43845972e-09  4.57945882e-01  4.57945882e-01  4.57945882e-01  4.57945882e-01  1.57270216e-07  1.80047138e-07  1.00000000e+00 
 1.01000000e+00  3.26987603e-09  3.23784449e-09  3.43845972e-09  4.57945939e-01  4.57945939e-01  4.57945939e-01  4.57945939e-01  1.57270294e-07  1.80047216e-07  1.01000000e+00 
 1.02000000e+00  3.26987597e-09  3.23784449e-09  3.43845972e-09  4.57945927e-01  4.57945927e-01  4.57945927e-01  4.57945927e-01  1.57270282e-07  1.80046897e-07  1.02000000e+00 
 1.03000000e+00  3.26987597e-09  3.23784449e-09  3.43845972e-09  4.57945916e-01  4.57945916e-01  4.57945916e-01  4.57945916e-01  1.57270270e-07  1.80046712e-07  1.03000000e+00 
 1.04000000e+00  3.26987597e-09  3.23784449e-09  3.43845972e-09  4.57945879e-01  4.57945879e-01  4.57945879e-01  4.57945879e-01  1.57270200e-07  1.80046307e-07  1.04000000e+00 
 1.05000000e+00  3.26987597e-09  3.23784449e-09  3.43845972e-09  4.57945933e-01  4.57945933e-01  4.57945933e-01  4.57945933e-01  1.57270296e-07  1.80046335e-07  1.05000000e+00 
 1.06000000e+00  3.26987597e-09  3.23784449e-09  3.43845972e-09  4.57945926e-01  4.57945926e-01  4.57945926e-01  4.57945926e-01  1.57270286e-07  1.80046086e-07  1.06000000e+00 
 1.07000000e+00  3.26987603e-09  3.23784449e-09  3.43845972e-09  4.57945930e-01  4.57945930e-01  4.57945930e-01  4.57945930e-01  1.57270267e-07  1.80046094e-07  1.07000000e+00 
 1.08000000e+00  3.26987603e-09  3.23784455e-09  3.43845972e-09  4.57945906e-01  4.57945906e-01  4.57945906e-01  4.57945906e-01  1.57270243e-07  1.80045653e-07  1.08000000e+00 
 1.09000000e+00  3.26987597e-09  3.23784455e-09  3.43845972e-09  4.57945942e-01  4.57945942e-01  4.57945942e-01  4.57945942e-01  1.57270316e-07  1.80045603e-07  1.09000000e+00 
 1.10000000e+00  3.26987597e-09  3.23784449e-09  3.43845972e-09  4.57945927e-01  4.57945927e-01  4.57945927e-01  4.57945927e-01  1.57270277e-07  1.80045319e-07  1.10000000e+00 
