 v-sweep         v(b0)           v(b1)           v(b2)           v(b3)           v(b4)           v(b5)           v(b6)           i(vbias)        i(viout)        v(vout)        
 0.00000000e+00  4.60920895e-01  4.60920895e-01  4.60920895e-01  4.60920895e-01  3.41168982e-09  4.60920895e-01  3.27063736e-09  1.67140752e-07  7.57489396e-08  0.00000000e+00 
 1.00000000e-02  4.60920913e-01  4.60920913e-01  4.60920913e-01  4.60920913e-01  3.41168980e-09  4.60920913e-01  3.27063734e-09  1.67140786e-07  7.57486535e-08  1.00000000e-02 
 2.00000000e-02  4.60920894e-01  4.60920894e-01  4.60920894e-01  4.60920894e-01  3.41168980e-09  4.60920894e-01  3.27063729e-09  1.67140744e-07  7.57481766e-08  2.00000000e-02 
 3.00000000e-02  4.60920893e-01  4.60920893e-01  4.60920893e-01  4.60920893e-01  3.41168986e-09  4.60920893e-01  3.27063734e-09  1.67140745e-07  7.57477041e-08  3.00000000e-02 
 4.00000000e-02  4.60920919e-01  4.60920919e-01  4.60920919e-01  4.60920919e-01  3.41168979e-09  4.60920919e-01  3.27063735e-09  1.67140795e-07  7.57475171e-08  4.00000000e-02 
 5.00000000e-02  4.60920900e-01  4.60920900e-01  4.60920900e-01  4.60920900e-01  3.41168987e-09  4.60920900e-01  3.27063729e-09  1.67140745e-07  7.57470895e-08  5.00000000e-02 
 6.00000000e-02  4.60920895e-01  4.60920895e-01  4.60920895e-01  4.60920895e-01  3.41168985e-09  4.60920895e-01  3.27063734e-09  1.67140757e-07  7.57467977e-08  6.00000000e-02 
 7.00000000e-02  4.60920913e-01  4.60920913e-01  4.60920913e-01  4.60920913e-01  3.41168981e-09  4.60920913e-01  3.27063729e-09  1.67140790e-07  7.57464198e-08  7.00000000e-02 
 8.00000000e-02  4.60920885e-01  4.60920885e-01  4.60920885e-01  4.60920885e-01  3.41168980e-09  4.60920885e-01  3.27063729e-09  1.67140728e-07  7.57460930e-08  8.00000000e-02 
 9.00000000e-02  4.60920917e-01  4.60920917e-01  4.60920917e-01  4.60920917e-01  3.41168986e-09  4.60920917e-01  3.27063735e-09  1.67140796e-07  7.57458753e-08  9.00000000e-02 
 1.00000000e-01  4.60920904e-01  4.60920904e-01  4.60920904e-01  4.60920904e-01  3.41168985e-09  4.60920904e-01  3.27063734e-09  1.67140761e-07  7.57456382e-08  1.00000000e-01 
 1.10000000e-01  4.60920907e-01  4.60920907e-01  4.60920907e-01  4.60920907e-01  3.41168981e-09  4.60920907e-01  3.27063735e-09  1.67140779e-07  7.57453726e-08  1.10000000e-01 
 1.20000000e-01  4.60920896e-01  4.60920896e-01  4.60920896e-01  4.60920896e-01  3.41168980e-09  4.60920896e-01  3.27063734e-09  1.67140756e-07  7.57450955e-08  1.20000000e-01 
 1.30000000e-01  4.60920926e-01  4.60920926e-01  4.60920926e-01  4.60920926e-01  3.41168986e-09  4.60920926e-01  3.27063735e-09  1.67140804e-07  7.57448593e-08  1.30000000e-01 
 1.40000000e-01  4.60920909e-01  4.60920909e-01  4.60920909e-01  4.60920909e-01  3.41168985e-09  4.60920909e-01  3.27063735e-09  1.67140770e-07  7.57446710e-08  1.40000000e-01 
 1.50000000e-01  4.60920924e-01  4.60920924e-01  4.60920924e-01  4.60920924e-01  3.41168981e-09  4.60920924e-01  3.27063735e-09  1.67140803e-07  7.57444543e-08  1.50000000e-01 
 1.60000000e-01  4.60920900e-01  4.60920900e-01  4.60920900e-01  4.60920900e-01  3.41168980e-09  4.60920900e-01  3.27063734e-09  1.67140762e-07  7.57443015e-08  1.60000000e-01 
 1.70000000e-01  4.60920908e-01  4.60920908e-01  4.60920908e-01  4.60920908e-01  3.41168986e-09  4.60920908e-01  3.27063735e-09  1.67140778e-07  7.57440795e-08  1.70000000e-01 
 1.80000000e-01  4.60920917e-01  4.60920917e-01  4.60920917e-01  4.60920917e-01  3.41168979e-09  4.60920917e-01  3.27063735e-09  1.67140782e-07  7.57438947e-08  1.80000000e-01 
 1.90000000e-01  4.60920892e-01  4.60920892e-01  4.60920892e-01  4.60920892e-01  3.41168987e-09  4.60920892e-01  3.27063729e-09  1.67140752e-07  7.57436212e-08  1.90000000e-01 
 2.00000000e-01  4.60920905e-01  4.60920905e-01  4.60920905e-01  4.60920905e-01  3.41168985e-09  4.60920905e-01  3.27063735e-09  1.67140774e-07  7.57434400e-08  2.00000000e-01 
 2.10000000e-01  4.60920911e-01  4.60920911e-01  4.60920911e-01  4.60920911e-01  3.41168981e-09  4.60920911e-01  3.27063729e-09  1.67140786e-07  7.57433867e-08  2.10000000e-01 
 2.20000000e-01  4.60920923e-01  4.60920924e-01  4.60920924e-01  4.60920924e-01  3.41168980e-09  4.60920924e-01  3.27063735e-09  1.67140800e-07  7.57432606e-08  2.20000000e-01 
 2.30000000e-01  4.60920908e-01  4.60920908e-01  4.60920908e-01  4.60920908e-01  3.41168986e-09  4.60920908e-01  3.27063735e-09  1.67140779e-07  7.57431398e-08  2.30000000e-01 
 2.40000000e-01  4.60920912e-01  4.60920912e-01  4.60920912e-01  4.60920912e-01  3.41168985e-09  4.60920912e-01  3.27063729e-09  1.67140785e-07  7.57430136e-08  2.40000000e-01 
 2.50000000e-01  4.60920898e-01  4.60920898e-01  4.60920898e-01  4.60920898e-01  3.41168987e-09  4.60920898e-01  3.27063734e-09  1.67140767e-07  7.57426868e-08  2.50000000e-01 
 2.60000000e-01  4.60920902e-01  4.60920902e-01  4.60920902e-01  4.60920902e-01  3.41168985e-09  4.60920902e-01  3.27063734e-09  1.67140771e-07  7.57426530e-08  2.60000000e-01 
 2.70000000e-01  4.60920919e-01  4.60920919e-01  4.60920919e-01  4.60920919e-01  3.41168987e-09  4.60920919e-01  3.27063735e-09  1.67140792e-07  7.57424772e-08  2.70000000e-01 
 2.80000000e-01  4.60920903e-01  4.60920903e-01  4.60920903e-01  4.60920903e-01  3.41168985e-09  4.60920903e-01  3.27063729e-09  1.67140750e-07  7.57423848e-08  2.80000000e-01 
 2.90000000e-01  4.60920905e-01  4.60920905e-01  4.60920905e-01  4.60920905e-01  3.41168987e-09  4.60920905e-01  3.27063729e-09  1.67140772e-07  7.57422711e-08  2.90000000e-01 
 3.00000000e-01  4.60920899e-01  4.60920899e-01  4.60920899e-01  4.60920899e-01  3.41168985e-09  4.60920899e-01  3.27063729e-09  1.67140752e-07  7.57421361e-08  3.00000000e-01 
 3.10000000e-01  4.60920932e-01  4.60920932e-01  4.60920932e-01  4.60920932e-01  3.41168981e-09  4.60920932e-01  3.27063729e-09  1.67140820e-07  7.57419762e-08  3.10000000e-01 
 3.20000000e-01  4.60920896e-01  4.60920896e-01  4.60920896e-01  4.60920896e-01  3.41168980e-09  4.60920896e-01  3.27063734e-09  1.67140741e-07  7.57420224e-08  3.20000000e-01 
 3.30000000e-01  4.60920907e-01  4.60920907e-01  4.60920907e-01  4.60920907e-01  3.41168980e-09  4.60920907e-01  3.27063729e-09  1.67140782e-07  7.57417560e-08  3.30000000e-01 
 3.40000000e-01  4.60920901e-01  4.60920901e-01  4.60920901e-01  4.60920901e-01  3.41168980e-09  4.60920901e-01  3.27063734e-09  1.67140758e-07  7.57417737e-08  3.40000000e-01 
 3.50000000e-01  4.60920895e-01  4.60920895e-01  4.60920895e-01  4.60920895e-01  3.41168986e-09  4.60920895e-01  3.27063734e-09  1.67140764e-07  7.57416529e-08  3.50000000e-01 
 3.60000000e-01  4.60920920e-01  4.60920920e-01  4.60920920e-01  4.60920920e-01  3.41168985e-09  4.60920920e-01  3.27063735e-09  1.67140798e-07  7.57415037e-08  3.60000000e-01 
 3.70000000e-01  4.60920896e-01  4.60920896e-01  4.60920896e-01  4.60920896e-01  3.41168987e-09  4.60920896e-01  3.27063734e-09  1.67140750e-07  7.57415179e-08  3.70000000e-01 
 3.80000000e-01  4.60920920e-01  4.60920920e-01  4.60920920e-01  4.60920920e-01  3.41168985e-09  4.60920920e-01  3.27063729e-09  1.67140786e-07  7.57413403e-08  3.80000000e-01 
 3.90000000e-01  4.60920898e-01  4.60920898e-01  4.60920898e-01  4.60920898e-01  3.41168987e-09  4.60920898e-01  3.27063734e-09  1.67140753e-07  7.57411946e-08  3.90000000e-01 
 4.00000000e-01  4.60920894e-01  4.60920894e-01  4.60920894e-01  4.60920894e-01  3.41168985e-09  4.60920894e-01  3.27063734e-09  1.67140752e-07  7.57413332e-08  4.00000000e-01 
 4.10000000e-01  4.60920908e-01  4.60920908e-01  4.60920908e-01  4.60920908e-01  3.41168987e-09  4.60920908e-01  3.27063735e-09  1.67140792e-07  7.57411165e-08  4.10000000e-01 
 4.20000000e-01  4.60920887e-01  4.60920887e-01  4.60920887e-01  4.60920887e-01  3.41168985e-09  4.60920887e-01  3.27063729e-09  1.67140746e-07  7.57410383e-08  4.20000000e-01 
 4.30000000e-01  4.60920888e-01  4.60920888e-01  4.60920888e-01  4.60920888e-01  3.41168981e-09  4.60920888e-01  3.27063729e-09  1.67140745e-07  7.57408927e-08  4.30000000e-01 
 4.40000000e-01  4.60920906e-01  4.60920906e-01  4.60920906e-01  4.60920906e-01  3.41168980e-09  4.60920906e-01  3.27063735e-09  1.67140779e-07  7.57409424e-08  4.40000000e-01 
 4.50000000e-01  4.60920919e-01  4.60920919e-01  4.60920919e-01  4.60920919e-01  3.41168980e-09  4.60920919e-01  3.27063735e-09  1.67140801e-07  7.57407612e-08  4.50000000e-01 
 4.60000000e-01  4.60920882e-01  4.60920882e-01  4.60920882e-01  4.60920882e-01  3.41168980e-09  4.60920882e-01  3.27063734e-09  1.67140725e-07  7.57406688e-08  4.60000000e-01 
 4.70000000e-01  4.60920920e-01  4.60920920e-01  4.60920920e-01  4.60920920e-01  3.41168986e-09  4.60920920e-01  3.27063735e-09  1.67140798e-07  7.57407257e-08  4.70000000e-01 
 4.80000000e-01  4.60920914e-01  4.60920915e-01  4.60920915e-01  4.60920914e-01  3.41168985e-09  4.60920914e-01  3.27063735e-09  1.67140772e-07  7.57404948e-08  4.80000000e-01 
 4.90000000e-01  4.60920907e-01  4.60920908e-01  4.60920908e-01  4.60920907e-01  3.41168981e-09  4.60920908e-01  3.27063735e-09  1.67140781e-07  7.57405125e-08  4.90000000e-01 
 5.00000000e-01  4.60920894e-01  4.60920894e-01  4.60920894e-01  4.60920894e-01  3.41168986e-09  4.60920894e-01  3.27063734e-09  1.67140766e-07  7.57404059e-08  5.00000000e-01 
 5.10000000e-01  4.60920889e-01  4.60920889e-01  4.60920889e-01  4.60920889e-01  3.41168985e-09  4.60920889e-01  3.27063734e-09  1.67140759e-07  7.57403065e-08  5.10000000e-01 
 5.20000000e-01  4.60920909e-01  4.60920909e-01  4.60920909e-01  4.60920909e-01  3.41168987e-09  4.60920909e-01  3.27063735e-09  1.67140779e-07  7.57402532e-08  5.20000000e-01 
 5.30000000e-01  4.60920909e-01  4.60920909e-01  4.60920909e-01  4.60920909e-01  3.41168985e-09  4.60920909e-01  3.27063735e-09  1.67140779e-07  7.57402248e-08  5.30000000e-01 
 5.40000000e-01  4.60920896e-01  4.60920896e-01  4.60920896e-01  4.60920896e-01  3.41168981e-09  4.60920896e-01  3.27063734e-09  1.67140755e-07  7.57400684e-08  5.40000000e-01 
 5.50000000e-01  4.60920922e-01  4.60920922e-01  4.60920922e-01  4.60920922e-01  3.41168980e-09  4.60920922e-01  3.27063735e-09  1.67140789e-07  7.57400009e-08  5.50000000e-01 
 5.60000000e-01  4.60920913e-01  4.60920913e-01  4.60920913e-01  4.60920913e-01  3.41168986e-09  4.60920913e-01  3.27063735e-09  1.67140769e-07  7.57399654e-08  5.60000000e-01 
 5.70000000e-01  4.60920899e-01  4.60920899e-01  4.60920899e-01  4.60920899e-01  3.41168985e-09  4.60920899e-01  3.27063734e-09  1.67140767e-07  7.57398908e-08  5.70000000e-01 
 5.80000000e-01  4.60920916e-01  4.60920916e-01  4.60920916e-01  4.60920916e-01  3.41168987e-09  4.60920916e-01  3.27063735e-09  1.67140784e-07  7.57399263e-08  5.80000000e-01 
 5.90000000e-01  4.60920914e-01  4.60920914e-01  4.60920914e-01  4.60920914e-01  3.41168985e-09  4.60920914e-01  3.27063729e-09  1.67140780e-07  7.57396990e-08  5.90000000e-01 
 6.00000000e-01  4.60920897e-01  4.60920897e-01  4.60920897e-01  4.60920897e-01  3.41168987e-09  4.60920897e-01  3.27063734e-09  1.67140746e-07  7.57397345e-08  6.00000000e-01 
 6.10000000e-01  4.60920900e-01  4.60920900e-01  4.60920900e-01  4.60920900e-01  3.41168979e-09  4.60920900e-01  3.27063734e-09  1.67140760e-07  7.57397203e-08  6.10000000e-01 
 6.20000000e-01  4.60920921e-01  4.60920921e-01  4.60920921e-01  4.60920921e-01  3.41168981e-09  4.60920921e-01  3.27063735e-09  1.67140795e-07  7.57395924e-08  6.20000000e-01 
 6.30000000e-01  4.60920905e-01  4.60920905e-01  4.60920905e-01  4.60920905e-01  3.41168986e-09  4.60920905e-01  3.27063734e-09  1.67140758e-07  7.57394858e-08  6.30000000e-01 
 6.40000000e-01  4.60920921e-01  4.60920921e-01  4.60920921e-01  4.60920921e-01  3.41168985e-09  4.60920921e-01  3.27063735e-09  1.67140801e-07  7.57393934e-08  6.40000000e-01 
 6.50000000e-01  4.60920892e-01  4.60920892e-01  4.60920892e-01  4.60920892e-01  3.41168981e-09  4.60920892e-01  3.27063734e-09  1.67140734e-07  7.57394645e-08  6.50000000e-01 
 6.60000000e-01  4.60920880e-01  4.60920880e-01  4.60920880e-01  4.60920880e-01  3.41168986e-09  4.60920880e-01  3.27063734e-09  1.67140728e-07  7.57393721e-08  6.60000000e-01 
 6.70000000e-01  4.60920895e-01  4.60920895e-01  4.60920895e-01  4.60920895e-01  3.41168985e-09  4.60920895e-01  3.27063734e-09  1.67140765e-07  7.57392300e-08  6.70000000e-01 
 6.80000000e-01  4.60920904e-01  4.60920904e-01  4.60920904e-01  4.60920904e-01  3.41168981e-09  4.60920904e-01  3.27063729e-09  1.67140768e-07  7.57392797e-08  6.80000000e-01 
 6.90000000e-01  4.60920909e-01  4.60920909e-01  4.60920909e-01  4.60920909e-01  3.41168980e-09  4.60920909e-01  3.27063735e-09  1.67140781e-07  7.57391305e-08  6.90000000e-01 
 7.00000000e-01  4.60920909e-01  4.60920909e-01  4.60920909e-01  4.60920909e-01  3.41168980e-09  4.60920909e-01  3.27063735e-09  1.67140770e-07  7.57390524e-08  7.00000000e-01 
 7.10000000e-01  4.60920913e-01  4.60920913e-01  4.60920913e-01  4.60920913e-01  3.41168980e-09  4.60920913e-01  3.27063729e-09  1.67140783e-07  7.57391234e-08  7.10000000e-01 
 7.20000000e-01  4.60920920e-01  4.60920920e-01  4.60920920e-01  4.60920920e-01  3.41168986e-09  4.60920920e-01  3.27063735e-09  1.67140785e-07  7.57389529e-08  7.20000000e-01 
 7.30000000e-01  4.60920911e-01  4.60920911e-01  4.60920911e-01  4.60920911e-01  3.41168985e-09  4.60920911e-01  3.27063735e-09  1.67140778e-07  7.57388747e-08  7.30000000e-01 
 7.40000000e-01  4.60920911e-01  4.60920911e-01  4.60920911e-01  4.60920911e-01  3.41168981e-09  4.60920911e-01  3.27063729e-09  1.67140764e-07  7.57388321e-08  7.40000000e-01 
 7.50000000e-01  4.60920900e-01  4.60920900e-01  4.60920900e-01  4.60920900e-01  3.41168986e-09  4.60920900e-01  3.27063734e-09  1.67140775e-07  7.57388179e-08  7.50000000e-01 
 7.60000000e-01  4.60920914e-01  4.60920914e-01  4.60920914e-01  4.60920914e-01  3.41168985e-09  4.60920914e-01  3.27063735e-09  1.67140778e-07  7.57386829e-08  7.60000000e-01 
 7.70000000e-01  4.60920919e-01  4.60920919e-01  4.60920919e-01  4.60920919e-01  3.41168981e-09  4.60920919e-01  3.27063729e-09  1.67140798e-07  7.57387184e-08  7.70000000e-01 
 7.80000000e-01  4.60920910e-01  4.60920910e-01  4.60920910e-01  4.60920910e-01  3.41168986e-09  4.60920910e-01  3.27063735e-09  1.67140766e-07  7.57385337e-08  7.80000000e-01 
 7.90000000e-01  4.60920910e-01  4.60920910e-01  4.60920910e-01  4.60920910e-01  3.41168985e-09  4.60920910e-01  3.27063729e-09  1.67140783e-07  7.57383773e-08  7.90000000e-01 
 8.00000000e-01  4.60920906e-01  4.60920907e-01  4.60920907e-01  4.60920907e-01  3.41168987e-09  4.60920907e-01  3.27063735e-09  1.67140777e-07  7.57383205e-08  8.00000000e-01 
 8.10000000e-01  4.60920908e-01  4.60920908e-01  4.60920908e-01  4.60920908e-01  3.41168985e-09  4.60920908e-01  3.27063735e-09  1.67140773e-07  7.57382494e-08  8.10000000e-01 
 8.20000000e-01  4.60920904e-01  4.60920904e-01  4.60920904e-01  4.60920904e-01  3.41168987e-09  4.60920904e-01  3.27063729e-09  1.67140774e-07  7.57382566e-08  8.20000000e-01 
 8.30000000e-01  4.60920880e-01  4.60920881e-01  4.60920881e-01  4.60920881e-01  3.41168985e-09  4.60920881e-01  3.27063734e-09  1.67140733e-07  7.57380008e-08  8.30000000e-01 
 8.40000000e-01  4.60920918e-01  4.60920918e-01  4.60920918e-01  4.60920918e-01  3.41168987e-09  4.60920918e-01  3.27063735e-09  1.67140788e-07  7.57381997e-08  8.40000000e-01 
 8.50000000e-01  4.60920919e-01  4.60920919e-01  4.60920919e-01  4.60920919e-01  3.41168985e-09  4.60920919e-01  3.27063729e-09  1.67140788e-07  7.57381429e-08  8.50000000e-01 
 8.60000000e-01  4.60920918e-01  4.60920918e-01  4.60920918e-01  4.60920918e-01  3.41168981e-09  4.60920918e-01  3.27063735e-09  1.67140788e-07  7.57381287e-08  8.60000000e-01 
 8.70000000e-01  4.60920885e-01  4.60920885e-01  4.60920885e-01  4.60920885e-01  3.41168986e-09  4.60920885e-01  3.27063734e-09  1.67140743e-07  7.57377734e-08  8.70000000e-01 
 8.80000000e-01  4.60920911e-01  4.60920911e-01  4.60920911e-01  4.60920911e-01  3.41168979e-09  4.60920911e-01  3.27063735e-09  1.67140786e-07  7.57376739e-08  8.80000000e-01 
 8.90000000e-01  4.60920895e-01  4.60920895e-01  4.60920895e-01  4.60920895e-01  3.41168981e-09  4.60920895e-01  3.27063734e-09  1.67140756e-07  7.57377308e-08  8.90000000e-01 
 9.00000000e-01  4.60920930e-01  4.60920930e-01  4.60920930e-01  4.60920930e-01  3.41168986e-09  4.60920930e-01  3.27063735e-09  1.67140818e-07  7.57376952e-08  9.00000000e-01 
 9.10000000e-01  4.60920898e-01  4.60920898e-01  4.60920898e-01  4.60920898e-01  3.41168985e-09  4.60920898e-01  3.27063734e-09  1.67140753e-07  7.57374181e-08  9.10000000e-01 
 9.20000000e-01  4.60920909e-01  4.60920909e-01  4.60920909e-01  4.60920909e-01  3.41168981e-09  4.60920909e-01  3.27063735e-09  1.67140785e-07  7.57375958e-08  9.20000000e-01 
 9.30000000e-01  4.60920893e-01  4.60920893e-01  4.60920893e-01  4.60920893e-01  3.41168980e-09  4.60920893e-01  3.27063734e-09  1.67140732e-07  7.57374963e-08  9.30000000e-01 
 9.40000000e-01  4.60920901e-01  4.60920901e-01  4.60920901e-01  4.60920901e-01  3.41168986e-09  4.60920901e-01  3.27063729e-09  1.67140759e-07  7.57373897e-08  9.40000000e-01 
 9.50000000e-01  4.60920906e-01  4.60920906e-01  4.60920906e-01  4.60920906e-01  3.41168985e-09  4.60920906e-01  3.27063735e-09  1.67140778e-07  7.57372760e-08  9.50000000e-01 
 9.60000000e-01  4.60920896e-01  4.60920896e-01  4.60920896e-01  4.60920896e-01  3.41168981e-09  4.60920896e-01  3.27063734e-09  1.67140760e-07  7.57372192e-08  9.60000000e-01 
 9.70000000e-01  4.60920926e-01  4.60920926e-01  4.60920926e-01  4.60920926e-01  3.41168986e-09  4.60920926e-01  3.27063729e-09  1.67140807e-07  7.57372831e-08  9.70000000e-01 
 9.80000000e-01  4.60920915e-01  4.60920915e-01  4.60920915e-01  4.60920915e-01  3.41168985e-09  4.60920915e-01  3.27063735e-09  1.67140772e-07  7.57371126e-08  9.80000000e-01 
 9.90000000e-01  4.60920902e-01  4.60920902e-01  4.60920902e-01  4.60920902e-01  3.41168981e-09  4.60920902e-01  3.27063734e-09  1.67140777e-07  7.57370699e-08  9.90000000e-01 
 1.00000000e+00  4.60920900e-01  4.60920900e-01  4.60920900e-01  4.60920900e-01  3.41168980e-09  4.60920900e-01  3.27063734e-09  1.67140758e-07  7.57367644e-08  1.00000000e+00 
 1.01000000e+00  4.60920900e-01  4.60920900e-01  4.60920900e-01  4.60920900e-01  3.41168980e-09  4.60920900e-01  3.27063729e-09  1.67140761e-07  7.57368639e-08  1.01000000e+00 
 1.02000000e+00  4.60920878e-01  4.60920878e-01  4.60920878e-01  4.60920878e-01  3.41168986e-09  4.60920878e-01  3.27063734e-09  1.67140733e-07  7.57367857e-08  1.02000000e+00 
 1.03000000e+00  4.60920917e-01  4.60920917e-01  4.60920917e-01  4.60920917e-01  3.41168985e-09  4.60920917e-01  3.27063735e-09  1.67140790e-07  7.57367857e-08  1.03000000e+00 
 1.04000000e+00  4.60920892e-01  4.60920892e-01  4.60920892e-01  4.60920892e-01  3.41168981e-09  4.60920892e-01  3.27063734e-09  1.67140750e-07  7.57367005e-08  1.04000000e+00 
 1.05000000e+00  4.60920904e-01  4.60920904e-01  4.60920904e-01  4.60920904e-01  3.41168986e-09  4.60920904e-01  3.27063734e-09  1.67140767e-07  7.57365086e-08  1.05000000e+00 
 1.06000000e+00  4.60920918e-01  4.60920918e-01  4.60920918e-01  4.60920918e-01  3.41168985e-09  4.60920918e-01  3.27063735e-09  1.67140796e-07  7.57365584e-08  1.06000000e+00 
 1.07000000e+00  4.60920888e-01  4.60920888e-01  4.60920888e-01  4.60920888e-01  3.41168981e-09  4.60920888e-01  3.27063734e-09  1.67140740e-07  7.57363381e-08  1.07000000e+00 
 1.08000000e+00  4.60920915e-01  4.60920915e-01  4.60920915e-01  4.60920915e-01  3.41168986e-09  4.60920915e-01  3.27063729e-09  1.67140784e-07  7.57362955e-08  1.08000000e+00 
 1.09000000e+00  4.60920912e-01  4.60920912e-01  4.60920912e-01  4.60920912e-01  3.41168985e-09  4.60920912e-01  3.27063729e-09  1.67140764e-07  7.57363381e-08  1.09000000e+00 
 1.10000000e+00  4.60920902e-01  4.60920902e-01  4.60920902e-01  4.60920902e-01  3.41168981e-09  4.60920902e-01  3.27063729e-09  1.67140760e-07  7.57362528e-08  1.10000000e+00 
