 v-sweep         v(b0)           v(b1)           v(b2)           v(b3)           v(b4)           v(b5)           v(b6)           i(vbias)        i(viout)        v(vout)        
 0.00000000e+00  3.38417305e-09  3.13295849e-09  4.59963174e-01  3.33668661e-09  3.37160751e-09  4.59963174e-01  3.25737291e-09  1.60018331e-07  5.60701006e-08  0.00000000e+00 
 1.00000000e-02  3.38417304e-09  3.13295848e-09  4.59963155e-01  3.33668660e-09  3.37160751e-09  4.59963155e-01  3.25737290e-09  1.60018305e-07  5.60694834e-08  1.00000000e-02 
 2.00000000e-02  3.38417310e-09  3.13295848e-09  4.59963171e-01  3.33668660e-09  3.37160757e-09  4.59963171e-01  3.25737290e-09  1.60018327e-07  5.60692155e-08  2.00000000e-02 
 3.00000000e-02  3.38417310e-09  3.13295848e-09  4.59963153e-01  3.33668660e-09  3.37160756e-09  4.59963153e-01  3.25737290e-09  1.60018299e-07  5.60688445e-08  3.00000000e-02 
 4.00000000e-02  3.38417310e-09  3.13295848e-09  4.59963162e-01  3.33668660e-09  3.37160756e-09  4.59963162e-01  3.25737290e-09  1.60018320e-07  5.60684321e-08  4.00000000e-02 
 5.00000000e-02  3.38417310e-09  3.13295848e-09  4.59963145e-01  3.33668660e-09  3.37160756e-09  4.59963145e-01  3.25737290e-09  1.60018292e-07  5.60681865e-08  5.00000000e-02 
 6.00000000e-02  3.38417305e-09  3.13295848e-09  4.59963167e-01  3.33668666e-09  3.37160756e-09  4.59963167e-01  3.25737290e-09  1.60018320e-07  5.60679028e-08  6.00000000e-02 
 7.00000000e-02  3.38417304e-09  3.13295842e-09  4.59963156e-01  3.33668660e-09  3.37160751e-09  4.59963156e-01  3.25737290e-09  1.60018297e-07  5.60675577e-08  7.00000000e-02 
 8.00000000e-02  3.38417305e-09  3.13295842e-09  4.59963164e-01  3.33668660e-09  3.37160751e-09  4.59963164e-01  3.25737290e-09  1.60018316e-07  5.60671705e-08  8.00000000e-02 
 9.00000000e-02  3.38417305e-09  3.13295848e-09  4.59963168e-01  3.33668666e-09  3.37160756e-09  4.59963168e-01  3.25737290e-09  1.60018319e-07  5.60669973e-08  9.00000000e-02 
 1.00000000e-01  3.38417310e-09  3.13295848e-09  4.59963178e-01  3.33668660e-09  3.37160751e-09  4.59963178e-01  3.25737290e-09  1.60018338e-07  5.60666411e-08  1.00000000e-01 
 1.10000000e-01  3.38417305e-09  3.13295848e-09  4.59963164e-01  3.33668666e-09  3.37160751e-09  4.59963164e-01  3.25737290e-09  1.60018311e-07  5.60664040e-08  1.10000000e-01 
 1.20000000e-01  3.38417310e-09  3.13295848e-09  4.59963150e-01  3.33668660e-09  3.37160751e-09  4.59963150e-01  3.25737290e-09  1.60018301e-07  5.60662627e-08  1.20000000e-01 
 1.30000000e-01  3.38417310e-09  3.13295848e-09  4.59963177e-01  3.33668666e-09  3.37160751e-09  4.59963177e-01  3.25737290e-09  1.60018324e-07  5.60660522e-08  1.30000000e-01 
 1.40000000e-01  3.38417304e-09  3.13295848e-09  4.59963150e-01  3.33668666e-09  3.37160751e-09  4.59963150e-01  3.25737290e-09  1.60018289e-07  5.60657272e-08  1.40000000e-01 
 1.50000000e-01  3.38417310e-09  3.13295848e-09  4.59963172e-01  3.33668660e-09  3.37160751e-09  4.59963172e-01  3.25737290e-09  1.60018328e-07  5.60654918e-08  1.50000000e-01 
 1.60000000e-01  3.38417310e-09  3.13295842e-09  4.59963167e-01  3.33668660e-09  3.37160751e-09  4.59963167e-01  3.25737290e-09  1.60018314e-07  5.60653142e-08  1.60000000e-01 
 1.70000000e-01  3.38417310e-09  3.13295848e-09  4.59963176e-01  3.33668660e-09  3.37160757e-09  4.59963176e-01  3.25737290e-09  1.60018339e-07  5.60651721e-08  1.70000000e-01 
 1.80000000e-01  3.38417305e-09  3.13295842e-09  4.59963167e-01  3.33668666e-09  3.37160751e-09  4.59963167e-01  3.25737290e-09  1.60018325e-07  5.60649962e-08  1.80000000e-01 
 1.90000000e-01  3.38417305e-09  3.13295848e-09  4.59963182e-01  3.33668666e-09  3.37160751e-09  4.59963182e-01  3.25737290e-09  1.60018356e-07  5.60648594e-08  1.90000000e-01 
 2.00000000e-01  3.38417310e-09  3.13295848e-09  4.59963160e-01  3.33668660e-09  3.37160751e-09  4.59963160e-01  3.25737290e-09  1.60018296e-07  5.60646427e-08  2.00000000e-01 
 2.10000000e-01  3.38417305e-09  3.13295848e-09  4.59963184e-01  3.33668666e-09  3.37160751e-09  4.59963184e-01  3.25737290e-09  1.60018352e-07  5.60645237e-08  2.10000000e-01 
 2.20000000e-01  3.38417305e-09  3.13295848e-09  4.59963165e-01  3.33668660e-09  3.37160751e-09  4.59963165e-01  3.25737290e-09  1.60018320e-07  5.60643993e-08  2.20000000e-01 
 2.30000000e-01  3.38417310e-09  3.13295848e-09  4.59963165e-01  3.33668666e-09  3.37160756e-09  4.59963165e-01  3.25737290e-09  1.60018312e-07  5.60642501e-08  2.30000000e-01 
 2.40000000e-01  3.38417305e-09  3.13295848e-09  4.59963171e-01  3.33668666e-09  3.37160757e-09  4.59963171e-01  3.25737290e-09  1.60018334e-07  5.60641258e-08  2.40000000e-01 
 2.50000000e-01  3.38417305e-09  3.13295842e-09  4.59963164e-01  3.33668666e-09  3.37160751e-09  4.59963164e-01  3.25737290e-09  1.60018321e-07  5.60640778e-08  2.50000000e-01 
 2.60000000e-01  3.38417310e-09  3.13295848e-09  4.59963179e-01  3.33668661e-09  3.37160751e-09  4.59963179e-01  3.25737290e-09  1.60018348e-07  5.60637989e-08  2.60000000e-01 
 2.70000000e-01  3.38417310e-09  3.13295848e-09  4.59963175e-01  3.33668666e-09  3.37160751e-09  4.59963175e-01  3.25737290e-09  1.60018322e-07  5.60637545e-08  2.70000000e-01 
 2.80000000e-01  3.38417310e-09  3.13295848e-09  4.59963171e-01  3.33668660e-09  3.37160757e-09  4.59963170e-01  3.25737290e-09  1.60018330e-07  5.60635538e-08  2.80000000e-01 
 2.90000000e-01  3.38417310e-09  3.13295848e-09  4.59963168e-01  3.33668666e-09  3.37160751e-09  4.59963167e-01  3.25737290e-09  1.60018324e-07  5.60634170e-08  2.90000000e-01 
 3.00000000e-01  3.38417310e-09  3.13295848e-09  4.59963171e-01  3.33668660e-09  3.37160751e-09  4.59963171e-01  3.25737290e-09  1.60018320e-07  5.60634206e-08  3.00000000e-01 
 3.10000000e-01  3.38417305e-09  3.13295848e-09  4.59963159e-01  3.33668666e-09  3.37160751e-09  4.59963159e-01  3.25737290e-09  1.60018302e-07  5.60632394e-08  3.10000000e-01 
 3.20000000e-01  3.38417310e-09  3.13295848e-09  4.59963174e-01  3.33668666e-09  3.37160757e-09  4.59963174e-01  3.25737290e-09  1.60018319e-07  5.60632145e-08  3.20000000e-01 
 3.30000000e-01  3.38417310e-09  3.13295848e-09  4.59963172e-01  3.33668660e-09  3.37160751e-09  4.59963172e-01  3.25737290e-09  1.60018337e-07  5.60630617e-08  3.30000000e-01 
 3.40000000e-01  3.38417305e-09  3.13295848e-09  4.59963158e-01  3.33668666e-09  3.37160751e-09  4.59963158e-01  3.25737290e-09  1.60018303e-07  5.60630262e-08  3.40000000e-01 
 3.50000000e-01  3.38417305e-09  3.13295848e-09  4.59963170e-01  3.33668660e-09  3.37160757e-09  4.59963170e-01  3.25737290e-09  1.60018325e-07  5.60628344e-08  3.50000000e-01 
 3.60000000e-01  3.38417310e-09  3.13295848e-09  4.59963171e-01  3.33668666e-09  3.37160751e-09  4.59963171e-01  3.25737290e-09  1.60018335e-07  5.60627846e-08  3.60000000e-01 
 3.70000000e-01  3.38417310e-09  3.13295848e-09  4.59963146e-01  3.33668660e-09  3.37160756e-09  4.59963146e-01  3.25737290e-09  1.60018302e-07  5.60626710e-08  3.70000000e-01 
 3.80000000e-01  3.38417310e-09  3.13295842e-09  4.59963180e-01  3.33668666e-09  3.37160757e-09  4.59963180e-01  3.25737290e-09  1.60018333e-07  5.60626461e-08  3.80000000e-01 
 3.90000000e-01  3.38417304e-09  3.13295848e-09  4.59963150e-01  3.33668660e-09  3.37160756e-09  4.59963150e-01  3.25737290e-09  1.60018284e-07  5.60624898e-08  3.90000000e-01 
 4.00000000e-01  3.38417310e-09  3.13295848e-09  4.59963175e-01  3.33668660e-09  3.37160751e-09  4.59963175e-01  3.25737290e-09  1.60018322e-07  5.60624649e-08  4.00000000e-01 
 4.10000000e-01  3.38417310e-09  3.13295848e-09  4.59963167e-01  3.33668660e-09  3.37160751e-09  4.59963167e-01  3.25737290e-09  1.60018324e-07  5.60623583e-08  4.10000000e-01 
 4.20000000e-01  3.38417310e-09  3.13295848e-09  4.59963176e-01  3.33668666e-09  3.37160757e-09  4.59963176e-01  3.25737290e-09  1.60018333e-07  5.60623228e-08  4.20000000e-01 
 4.30000000e-01  3.38417305e-09  3.13295848e-09  4.59963165e-01  3.33668660e-09  3.37160756e-09  4.59963165e-01  3.25737290e-09  1.60018318e-07  5.60621984e-08  4.30000000e-01 
 4.40000000e-01  3.38417310e-09  3.13295848e-09  4.59963164e-01  3.33668660e-09  3.37160756e-09  4.59963164e-01  3.25737290e-09  1.60018325e-07  5.60622517e-08  4.40000000e-01 
 4.50000000e-01  3.38417305e-09  3.13295848e-09  4.59963197e-01  3.33668667e-09  3.37160757e-09  4.59963197e-01  3.25737291e-09  1.60018364e-07  5.60620599e-08  4.50000000e-01 
 4.60000000e-01  3.38417304e-09  3.13295848e-09  4.59963151e-01  3.33668660e-09  3.37160751e-09  4.59963151e-01  3.25737290e-09  1.60018303e-07  5.60619178e-08  4.60000000e-01 
 4.70000000e-01  3.38417310e-09  3.13295848e-09  4.59963163e-01  3.33668660e-09  3.37160756e-09  4.59963163e-01  3.25737290e-09  1.60018311e-07  5.60618965e-08  4.70000000e-01 
 4.80000000e-01  3.38417310e-09  3.13295848e-09  4.59963154e-01  3.33668660e-09  3.37160751e-09  4.59963154e-01  3.25737290e-09  1.60018309e-07  5.60618467e-08  4.80000000e-01 
 4.90000000e-01  3.38417310e-09  3.13295848e-09  4.59963172e-01  3.33668660e-09  3.37160751e-09  4.59963171e-01  3.25737290e-09  1.60018331e-07  5.60618751e-08  4.90000000e-01 
 5.00000000e-01  3.38417305e-09  3.13295842e-09  4.59963170e-01  3.33668666e-09  3.37160757e-09  4.59963170e-01  3.25737290e-09  1.60018334e-07  5.60617863e-08  5.00000000e-01 
 5.10000000e-01  3.38417305e-09  3.13295848e-09  4.59963171e-01  3.33668660e-09  3.37160751e-09  4.59963171e-01  3.25737290e-09  1.60018333e-07  5.60618290e-08  5.10000000e-01 
 5.20000000e-01  3.38417310e-09  3.13295842e-09  4.59963163e-01  3.33668666e-09  3.37160756e-09  4.59963163e-01  3.25737290e-09  1.60018316e-07  5.60617401e-08  5.20000000e-01 
 5.30000000e-01  3.38417305e-09  3.13295848e-09  4.59963171e-01  3.33668660e-09  3.37160751e-09  4.59963171e-01  3.25737290e-09  1.60018323e-07  5.60614737e-08  5.30000000e-01 
 5.40000000e-01  3.38417304e-09  3.13295842e-09  4.59963154e-01  3.33668660e-09  3.37160751e-09  4.59963154e-01  3.25737290e-09  1.60018288e-07  5.60615163e-08  5.40000000e-01 
 5.50000000e-01  3.38417310e-09  3.13295848e-09  4.59963158e-01  3.33668660e-09  3.37160756e-09  4.59963158e-01  3.25737290e-09  1.60018311e-07  5.60614346e-08  5.50000000e-01 
 5.60000000e-01  3.38417310e-09  3.13295848e-09  4.59963172e-01  3.33668660e-09  3.37160757e-09  4.59963172e-01  3.25737290e-09  1.60018335e-07  5.60613529e-08  5.60000000e-01 
 5.70000000e-01  3.38417310e-09  3.13295848e-09  4.59963159e-01  3.33668660e-09  3.37160751e-09  4.59963159e-01  3.25737290e-09  1.60018310e-07  5.60612179e-08  5.70000000e-01 
 5.80000000e-01  3.38417310e-09  3.13295848e-09  4.59963165e-01  3.33668666e-09  3.37160751e-09  4.59963164e-01  3.25737290e-09  1.60018308e-07  5.60612037e-08  5.80000000e-01 
 5.90000000e-01  3.38417305e-09  3.13295842e-09  4.59963181e-01  3.33668661e-09  3.37160757e-09  4.59963181e-01  3.25737290e-09  1.60018349e-07  5.60611682e-08  5.90000000e-01 
 6.00000000e-01  3.38417305e-09  3.13295848e-09  4.59963167e-01  3.33668660e-09  3.37160751e-09  4.59963167e-01  3.25737290e-09  1.60018335e-07  5.60610900e-08  6.00000000e-01 
 6.10000000e-01  3.38417310e-09  3.13295848e-09  4.59963182e-01  3.33668661e-09  3.37160757e-09  4.59963182e-01  3.25737290e-09  1.60018338e-07  5.60610189e-08  6.10000000e-01 
 6.20000000e-01  3.38417310e-09  3.13295848e-09  4.59963161e-01  3.33668666e-09  3.37160751e-09  4.59963161e-01  3.25737290e-09  1.60018303e-07  5.60609195e-08  6.20000000e-01 
 6.30000000e-01  3.38417310e-09  3.13295848e-09  4.59963168e-01  3.33668660e-09  3.37160756e-09  4.59963168e-01  3.25737290e-09  1.60018333e-07  5.60609976e-08  6.30000000e-01 
 6.40000000e-01  3.38417310e-09  3.13295848e-09  4.59963172e-01  3.33668660e-09  3.37160757e-09  4.59963172e-01  3.25737290e-09  1.60018334e-07  5.60609337e-08  6.40000000e-01 
 6.50000000e-01  3.38417310e-09  3.13295848e-09  4.59963159e-01  3.33668660e-09  3.37160756e-09  4.59963159e-01  3.25737290e-09  1.60018320e-07  5.60607702e-08  6.50000000e-01 
 6.60000000e-01  3.38417310e-09  3.13295842e-09  4.59963193e-01  3.33668666e-09  3.37160751e-09  4.59963193e-01  3.25737291e-09  1.60018365e-07  5.60606921e-08  6.60000000e-01 
 6.70000000e-01  3.38417305e-09  3.13295848e-09  4.59963181e-01  3.33668666e-09  3.37160751e-09  4.59963181e-01  3.25737290e-09  1.60018341e-07  5.60606850e-08  6.70000000e-01 
 6.80000000e-01  3.38417305e-09  3.13295848e-09  4.59963171e-01  3.33668660e-09  3.37160757e-09  4.59963171e-01  3.25737290e-09  1.60018328e-07  5.60607347e-08  6.80000000e-01 
 6.90000000e-01  3.38417305e-09  3.13295848e-09  4.59963188e-01  3.33668661e-09  3.37160751e-09  4.59963188e-01  3.25737290e-09  1.60018365e-07  5.60606424e-08  6.90000000e-01 
 7.00000000e-01  3.38417305e-09  3.13295848e-09  4.59963170e-01  3.33668660e-09  3.37160757e-09  4.59963170e-01  3.25737290e-09  1.60018330e-07  5.60605429e-08  7.00000000e-01 
 7.10000000e-01  3.38417305e-09  3.13295842e-09  4.59963177e-01  3.33668666e-09  3.37160751e-09  4.59963177e-01  3.25737290e-09  1.60018333e-07  5.60604576e-08  7.10000000e-01 
 7.20000000e-01  3.38417310e-09  3.13295848e-09  4.59963141e-01  3.33668660e-09  3.37160756e-09  4.59963141e-01  3.25737290e-09  1.60018285e-07  5.60602942e-08  7.20000000e-01 
 7.30000000e-01  3.38417310e-09  3.13295848e-09  4.59963171e-01  3.33668660e-09  3.37160757e-09  4.59963171e-01  3.25737290e-09  1.60018330e-07  5.60603368e-08  7.30000000e-01 
 7.40000000e-01  3.38417304e-09  3.13295848e-09  4.59963148e-01  3.33668660e-09  3.37160756e-09  4.59963148e-01  3.25737290e-09  1.60018305e-07  5.60602373e-08  7.40000000e-01 
 7.50000000e-01  3.38417310e-09  3.13295848e-09  4.59963194e-01  3.33668666e-09  3.37160751e-09  4.59963194e-01  3.25737291e-09  1.60018351e-07  5.60602444e-08  7.50000000e-01 
 7.60000000e-01  3.38417304e-09  3.13295848e-09  4.59963146e-01  3.33668666e-09  3.37160756e-09  4.59963146e-01  3.25737290e-09  1.60018282e-07  5.60601237e-08  7.60000000e-01 
 7.70000000e-01  3.38417305e-09  3.13295842e-09  4.59963160e-01  3.33668660e-09  3.37160751e-09  4.59963160e-01  3.25737290e-09  1.60018307e-07  5.60600384e-08  7.70000000e-01 
 7.80000000e-01  3.38417305e-09  3.13295848e-09  4.59963158e-01  3.33668660e-09  3.37160751e-09  4.59963158e-01  3.25737290e-09  1.60018304e-07  5.60600881e-08  7.80000000e-01 
 7.90000000e-01  3.38417305e-09  3.13295848e-09  4.59963183e-01  3.33668666e-09  3.37160757e-09  4.59963183e-01  3.25737290e-09  1.60018336e-07  5.60599247e-08  7.90000000e-01 
 8.00000000e-01  3.38417310e-09  3.13295848e-09  4.59963156e-01  3.33668660e-09  3.37160751e-09  4.59963156e-01  3.25737290e-09  1.60018308e-07  5.60598963e-08  8.00000000e-01 
 8.10000000e-01  3.38417310e-09  3.13295848e-09  4.59963173e-01  3.33668660e-09  3.37160751e-09  4.59963173e-01  3.25737290e-09  1.60018324e-07  5.60597755e-08  8.10000000e-01 
 8.20000000e-01  3.38417305e-09  3.13295848e-09  4.59963172e-01  3.33668660e-09  3.37160757e-09  4.59963172e-01  3.25737290e-09  1.60018325e-07  5.60598892e-08  8.20000000e-01 
 8.30000000e-01  3.38417310e-09  3.13295842e-09  4.59963164e-01  3.33668666e-09  3.37160751e-09  4.59963164e-01  3.25737290e-09  1.60018324e-07  5.60595907e-08  8.30000000e-01 
 8.40000000e-01  3.38417304e-09  3.13295842e-09  4.59963151e-01  3.33668660e-09  3.37160751e-09  4.59963151e-01  3.25737290e-09  1.60018293e-07  5.60596192e-08  8.40000000e-01 
 8.50000000e-01  3.38417310e-09  3.13295842e-09  4.59963146e-01  3.33668666e-09  3.37160756e-09  4.59963146e-01  3.25737290e-09  1.60018290e-07  5.60595552e-08  8.50000000e-01 
 8.60000000e-01  3.38417305e-09  3.13295848e-09  4.59963185e-01  3.33668666e-09  3.37160751e-09  4.59963185e-01  3.25737290e-09  1.60018339e-07  5.60595979e-08  8.60000000e-01 
 8.70000000e-01  3.38417310e-09  3.13295848e-09  4.59963175e-01  3.33668660e-09  3.37160751e-09  4.59963175e-01  3.25737290e-09  1.60018328e-07  5.60594202e-08  8.70000000e-01 
 8.80000000e-01  3.38417305e-09  3.13295848e-09  4.59963183e-01  3.33668666e-09  3.37160757e-09  4.59963183e-01  3.25737290e-09  1.60018336e-07  5.60594344e-08  8.80000000e-01 
 8.90000000e-01  3.38417310e-09  3.13295848e-09  4.59963162e-01  3.33668666e-09  3.37160756e-09  4.59963162e-01  3.25737290e-09  1.60018302e-07  5.60594131e-08  8.90000000e-01 
 9.00000000e-01  3.38417305e-09  3.13295848e-09  4.59963160e-01  3.33668666e-09  3.37160756e-09  4.59963160e-01  3.25737290e-09  1.60018313e-07  5.60593065e-08  9.00000000e-01 
 9.10000000e-01  3.38417310e-09  3.13295848e-09  4.59963185e-01  3.33668661e-09  3.37160757e-09  4.59963185e-01  3.25737290e-09  1.60018351e-07  5.60593492e-08  9.10000000e-01 
 9.20000000e-01  3.38417310e-09  3.13295848e-09  4.59963148e-01  3.33668666e-09  3.37160756e-09  4.59963148e-01  3.25737290e-09  1.60018293e-07  5.60591147e-08  9.20000000e-01 
 9.30000000e-01  3.38417310e-09  3.13295848e-09  4.59963170e-01  3.33668660e-09  3.37160751e-09  4.59963170e-01  3.25737290e-09  1.60018310e-07  5.60591360e-08  9.30000000e-01 
 9.40000000e-01  3.38417305e-09  3.13295848e-09  4.59963165e-01  3.33668660e-09  3.37160756e-09  4.59963165e-01  3.25737290e-09  1.60018329e-07  5.60590934e-08  9.40000000e-01 
 9.50000000e-01  3.38417310e-09  3.13295848e-09  4.59963169e-01  3.33668660e-09  3.37160757e-09  4.59963169e-01  3.25737290e-09  1.60018329e-07  5.60590081e-08  9.50000000e-01 
 9.60000000e-01  3.38417310e-09  3.13295848e-09  4.59963168e-01  3.33668660e-09  3.37160756e-09  4.59963168e-01  3.25737290e-09  1.60018316e-07  5.60589228e-08  9.60000000e-01 
 9.70000000e-01  3.38417310e-09  3.13295848e-09  4.59963194e-01  3.33668666e-09  3.37160751e-09  4.59963194e-01  3.25737291e-09  1.60018366e-07  5.60587878e-08  9.70000000e-01 
 9.80000000e-01  3.38417305e-09  3.13295848e-09  4.59963162e-01  3.33668666e-09  3.37160751e-09  4.59963162e-01  3.25737290e-09  1.60018313e-07  5.60587097e-08  9.80000000e-01 
 9.90000000e-01  3.38417310e-09  3.13295848e-09  4.59963178e-01  3.33668660e-09  3.37160751e-09  4.59963178e-01  3.25737290e-09  1.60018336e-07  5.60587026e-08  9.90000000e-01 
 1.00000000e+00  3.38417305e-09  3.13295848e-09  4.59963172e-01  3.33668666e-09  3.37160751e-09  4.59963172e-01  3.25737290e-09  1.60018334e-07  5.60586528e-08  1.00000000e+00 
 1.01000000e+00  3.38417305e-09  3.13295848e-09  4.59963182e-01  3.33668666e-09  3.37160757e-09  4.59963182e-01  3.25737290e-09  1.60018343e-07  5.60584965e-08  1.01000000e+00 
 1.02000000e+00  3.38417305e-09  3.13295848e-09  4.59963175e-01  3.33668666e-09  3.37160751e-09  4.59963175e-01  3.25737290e-09  1.60018330e-07  5.60585249e-08  1.02000000e+00 
 1.03000000e+00  3.38417310e-09  3.13295848e-09  4.59963168e-01  3.33668660e-09  3.37160751e-09  4.59963168e-01  3.25737290e-09  1.60018321e-07  5.60584255e-08  1.03000000e+00 
 1.04000000e+00  3.38417310e-09  3.13295842e-09  4.59963176e-01  3.33668660e-09  3.37160757e-09  4.59963176e-01  3.25737290e-09  1.60018345e-07  5.60584255e-08  1.04000000e+00 
 1.05000000e+00  3.38417305e-09  3.13295848e-09  4.59963170e-01  3.33668666e-09  3.37160757e-09  4.59963170e-01  3.25737290e-09  1.60018337e-07  5.60582052e-08  1.05000000e+00 
 1.06000000e+00  3.38417310e-09  3.13295848e-09  4.59963150e-01  3.33668660e-09  3.37160756e-09  4.59963150e-01  3.25737290e-09  1.60018304e-07  5.60581910e-08  1.06000000e+00 
 1.07000000e+00  3.38417310e-09  3.13295842e-09  4.59963178e-01  3.33668660e-09  3.37160757e-09  4.59963178e-01  3.25737290e-09  1.60018327e-07  5.60581483e-08  1.07000000e+00 
 1.08000000e+00  3.38417304e-09  3.13295848e-09  4.59963148e-01  3.33668660e-09  3.37160756e-09  4.59963148e-01  3.25737290e-09  1.60018301e-07  5.60580489e-08  1.08000000e+00 
 1.09000000e+00  3.38417310e-09  3.13295848e-09  4.59963204e-01  3.33668667e-09  3.37160751e-09  4.59963203e-01  3.25737291e-09  1.60018368e-07  5.60581981e-08  1.09000000e+00 
 1.10000000e+00  3.38417305e-09  3.13295848e-09  4.59963170e-01  3.33668660e-09  3.37160757e-09  4.59963170e-01  3.25737290e-09  1.60018326e-07  5.60580489e-08  1.10000000e+00 
