 v-sweep         v(b0)           v(b1)           v(b2)           v(b3)           v(b4)           v(b5)           v(b6)           i(vbias)        i(viout)        v(vout)        
 0.00000000e+00  3.35495705e-09  3.17447158e-09  3.56620388e-09  4.59766271e-01  4.59766271e-01  3.58848884e-09  3.37514444e-09  1.60240810e-07  3.74722845e-08  0.00000000e+00 
 1.00000000e-02  3.35495709e-09  3.17447163e-09  3.56620392e-09  4.59766253e-01  4.59766253e-01  3.58848888e-09  3.37514442e-09  1.60240784e-07  3.74717909e-08  1.00000000e-02 
 2.00000000e-02  3.35495702e-09  3.17447156e-09  3.56620392e-09  4.59766274e-01  4.59766274e-01  3.58848888e-09  3.37514443e-09  1.60240810e-07  3.74713258e-08  2.00000000e-02 
 3.00000000e-02  3.35495704e-09  3.17447158e-09  3.56620392e-09  4.59766264e-01  4.59766264e-01  3.58848888e-09  3.37514443e-09  1.60240798e-07  3.74710076e-08  3.00000000e-02 
 4.00000000e-02  3.35495703e-09  3.17447163e-09  3.56620392e-09  4.59766263e-01  4.59766263e-01  3.58848888e-09  3.37514443e-09  1.60240787e-07  3.74706386e-08  4.00000000e-02 
 5.00000000e-02  3.35495709e-09  3.17447156e-09  3.56620392e-09  4.59766267e-01  4.59766267e-01  3.58848888e-09  3.37514443e-09  1.60240792e-07  3.74703850e-08  5.00000000e-02 
 6.00000000e-02  3.35495702e-09  3.17447158e-09  3.56620392e-09  4.59766269e-01  4.59766268e-01  3.58848888e-09  3.37514448e-09  1.60240810e-07  3.74700648e-08  6.00000000e-02 
 7.00000000e-02  3.35495704e-09  3.17447157e-09  3.56620392e-09  4.59766283e-01  4.59766282e-01  3.58848888e-09  3.37514448e-09  1.60240825e-07  3.74696261e-08  7.00000000e-02 
 8.00000000e-02  3.35495704e-09  3.17447163e-09  3.56620392e-09  4.59766291e-01  4.59766291e-01  3.58848888e-09  3.37514443e-09  1.60240829e-07  3.74694222e-08  8.00000000e-02 
 9.00000000e-02  3.35495703e-09  3.17447162e-09  3.56620392e-09  4.59766250e-01  4.59766250e-01  3.58848888e-09  3.37514442e-09  1.60240789e-07  3.74692233e-08  9.00000000e-02 
 1.00000000e-01  3.35495709e-09  3.17447157e-09  3.56620392e-09  4.59766264e-01  4.59766264e-01  3.58848888e-09  3.37514448e-09  1.60240802e-07  3.74689630e-08  1.00000000e-01 
 1.10000000e-01  3.35495702e-09  3.17447158e-09  3.56620392e-09  4.59766265e-01  4.59766265e-01  3.58848888e-09  3.37514443e-09  1.60240796e-07  3.74687117e-08  1.10000000e-01 
 1.20000000e-01  3.35495704e-09  3.17447163e-09  3.56620392e-09  4.59766256e-01  4.59766255e-01  3.58848888e-09  3.37514442e-09  1.60240770e-07  3.74684666e-08  1.20000000e-01 
 1.30000000e-01  3.35495703e-09  3.17447162e-09  3.56620386e-09  4.59766276e-01  4.59766276e-01  3.58848888e-09  3.37514443e-09  1.60240813e-07  3.74682481e-08  1.30000000e-01 
 1.40000000e-01  3.35495703e-09  3.17447157e-09  3.56620392e-09  4.59766275e-01  4.59766275e-01  3.58848888e-09  3.37514448e-09  1.60240811e-07  3.74679896e-08  1.40000000e-01 
 1.50000000e-01  3.35495709e-09  3.17447158e-09  3.56620392e-09  4.59766266e-01  4.59766266e-01  3.58848888e-09  3.37514448e-09  1.60240792e-07  3.74677853e-08  1.50000000e-01 
 1.60000000e-01  3.35495708e-09  3.17447163e-09  3.56620392e-09  4.59766269e-01  4.59766269e-01  3.58848888e-09  3.37514443e-09  1.60240811e-07  3.74675952e-08  1.60000000e-01 
 1.70000000e-01  3.35495708e-09  3.17447156e-09  3.56620392e-09  4.59766273e-01  4.59766272e-01  3.58848888e-09  3.37514448e-09  1.60240813e-07  3.74674460e-08  1.70000000e-01 
 1.80000000e-01  3.35495702e-09  3.17447158e-09  3.56620392e-09  4.59766263e-01  4.59766263e-01  3.58848888e-09  3.37514443e-09  1.60240796e-07  3.74672311e-08  1.80000000e-01 
 1.90000000e-01  3.35495704e-09  3.17447163e-09  3.56620392e-09  4.59766284e-01  4.59766284e-01  3.58848888e-09  3.37514443e-09  1.60240823e-07  3.74671529e-08  1.90000000e-01 
 2.00000000e-01  3.35495703e-09  3.17447156e-09  3.56620392e-09  4.59766281e-01  4.59766281e-01  3.58848888e-09  3.37514448e-09  1.60240820e-07  3.74669646e-08  2.00000000e-01 
 2.10000000e-01  3.35495703e-09  3.17447158e-09  3.56620392e-09  4.59766268e-01  4.59766268e-01  3.58848888e-09  3.37514448e-09  1.60240805e-07  3.74668723e-08  2.10000000e-01 
 2.20000000e-01  3.35495703e-09  3.17447157e-09  3.56620392e-09  4.59766265e-01  4.59766265e-01  3.58848888e-09  3.37514443e-09  1.60240790e-07  3.74666929e-08  2.20000000e-01 
 2.30000000e-01  3.35495708e-09  3.17447157e-09  3.56620392e-09  4.59766237e-01  4.59766237e-01  3.58848888e-09  3.37514442e-09  1.60240763e-07  3.74664140e-08  2.30000000e-01 
 2.40000000e-01  3.35495708e-09  3.17447157e-09  3.56620392e-09  4.59766275e-01  4.59766275e-01  3.58848888e-09  3.37514448e-09  1.60240813e-07  3.74663234e-08  2.40000000e-01 
 2.50000000e-01  3.35495708e-09  3.17447157e-09  3.56620392e-09  4.59766273e-01  4.59766273e-01  3.58848888e-09  3.37514448e-09  1.60240817e-07  3.74663180e-08  2.50000000e-01 
 2.60000000e-01  3.35495708e-09  3.17447157e-09  3.56620392e-09  4.59766260e-01  4.59766260e-01  3.58848888e-09  3.37514443e-09  1.60240777e-07  3.74661369e-08  2.60000000e-01 
 2.70000000e-01  3.35495708e-09  3.17447157e-09  3.56620392e-09  4.59766263e-01  4.59766263e-01  3.58848888e-09  3.37514443e-09  1.60240800e-07  3.74660232e-08  2.70000000e-01 
 2.80000000e-01  3.35495708e-09  3.17447157e-09  3.56620392e-09  4.59766264e-01  4.59766264e-01  3.58848888e-09  3.37514448e-09  1.60240804e-07  3.74658953e-08  2.80000000e-01 
 2.90000000e-01  3.35495708e-09  3.17447157e-09  3.56620392e-09  4.59766274e-01  4.59766274e-01  3.58848888e-09  3.37514443e-09  1.60240812e-07  3.74658242e-08  2.90000000e-01 
 3.00000000e-01  3.35495702e-09  3.17447157e-09  3.56620392e-09  4.59766258e-01  4.59766258e-01  3.58848882e-09  3.37514448e-09  1.60240785e-07  3.74656572e-08  3.00000000e-01 
 3.10000000e-01  3.35495704e-09  3.17447157e-09  3.56620392e-09  4.59766277e-01  4.59766277e-01  3.58848888e-09  3.37514448e-09  1.60240825e-07  3.74656111e-08  3.10000000e-01 
 3.20000000e-01  3.35495709e-09  3.17447157e-09  3.56620392e-09  4.59766282e-01  4.59766282e-01  3.58848888e-09  3.37514448e-09  1.60240817e-07  3.74655578e-08  3.20000000e-01 
 3.30000000e-01  3.35495708e-09  3.17447157e-09  3.56620392e-09  4.59766260e-01  4.59766260e-01  3.58848888e-09  3.37514448e-09  1.60240806e-07  3.74653091e-08  3.30000000e-01 
 3.40000000e-01  3.35495708e-09  3.17447163e-09  3.56620392e-09  4.59766283e-01  4.59766283e-01  3.58848888e-09  3.37514443e-09  1.60240814e-07  3.74653730e-08  3.40000000e-01 
 3.50000000e-01  3.35495708e-09  3.17447156e-09  3.56620392e-09  4.59766256e-01  4.59766256e-01  3.58848882e-09  3.37514448e-09  1.60240788e-07  3.74652736e-08  3.50000000e-01 
 3.60000000e-01  3.35495703e-09  3.17447158e-09  3.56620392e-09  4.59766268e-01  4.59766268e-01  3.58848888e-09  3.37514443e-09  1.60240801e-07  3.74650675e-08  3.60000000e-01 
 3.70000000e-01  3.35495704e-09  3.17447157e-09  3.56620392e-09  4.59766263e-01  4.59766263e-01  3.58848888e-09  3.37514448e-09  1.60240803e-07  3.74649964e-08  3.70000000e-01 
 3.80000000e-01  3.35495703e-09  3.17447157e-09  3.56620392e-09  4.59766249e-01  4.59766248e-01  3.58848888e-09  3.37514442e-09  1.60240773e-07  3.74649680e-08  3.80000000e-01 
 3.90000000e-01  3.35495703e-09  3.17447157e-09  3.56620392e-09  4.59766266e-01  4.59766266e-01  3.58848888e-09  3.37514443e-09  1.60240801e-07  3.74648828e-08  3.90000000e-01 
 4.00000000e-01  3.35495703e-09  3.17447157e-09  3.56620392e-09  4.59766251e-01  4.59766251e-01  3.58848888e-09  3.37514442e-09  1.60240779e-07  3.74646909e-08  4.00000000e-01 
 4.10000000e-01  3.35495703e-09  3.17447157e-09  3.56620392e-09  4.59766265e-01  4.59766265e-01  3.58848888e-09  3.37514443e-09  1.60240801e-07  3.74648153e-08  4.10000000e-01 
 4.20000000e-01  3.35495703e-09  3.17447157e-09  3.56620392e-09  4.59766265e-01  4.59766265e-01  3.58848888e-09  3.37514443e-09  1.60240809e-07  3.74646909e-08  4.20000000e-01 
 4.30000000e-01  3.35495709e-09  3.17447157e-09  3.56620392e-09  4.59766260e-01  4.59766260e-01  3.58848888e-09  3.37514443e-09  1.60240785e-07  3.74645950e-08  4.30000000e-01 
 4.40000000e-01  3.35495708e-09  3.17447163e-09  3.56620392e-09  4.59766299e-01  4.59766299e-01  3.58848888e-09  3.37514448e-09  1.60240853e-07  3.74645914e-08  4.40000000e-01 
 4.50000000e-01  3.35495702e-09  3.17447162e-09  3.56620392e-09  4.59766257e-01  4.59766257e-01  3.58848888e-09  3.37514442e-09  1.60240783e-07  3.74644102e-08  4.50000000e-01 
 4.60000000e-01  3.35495710e-09  3.17447162e-09  3.56620392e-09  4.59766290e-01  4.59766290e-01  3.58848888e-09  3.37514443e-09  1.60240841e-07  3.74644884e-08  4.60000000e-01 
 4.70000000e-01  3.35495702e-09  3.17447157e-09  3.56620392e-09  4.59766293e-01  4.59766293e-01  3.58848888e-09  3.37514443e-09  1.60240851e-07  3.74644173e-08  4.70000000e-01 
 4.80000000e-01  3.35495710e-09  3.17447158e-09  3.56620392e-09  4.59766290e-01  4.59766290e-01  3.58848888e-09  3.37514448e-09  1.60240818e-07  3.74644422e-08  4.80000000e-01 
 4.90000000e-01  3.35495708e-09  3.17447157e-09  3.56620392e-09  4.59766263e-01  4.59766263e-01  3.58848888e-09  3.37514443e-09  1.60240798e-07  3.74641651e-08  4.90000000e-01 
 5.00000000e-01  3.35495708e-09  3.17447163e-09  3.56620392e-09  4.59766254e-01  4.59766254e-01  3.58848888e-09  3.37514448e-09  1.60240777e-07  3.74640976e-08  5.00000000e-01 
 5.10000000e-01  3.35495708e-09  3.17447156e-09  3.56620392e-09  4.59766272e-01  4.59766272e-01  3.58848888e-09  3.37514443e-09  1.60240813e-07  3.74641935e-08  5.10000000e-01 
 5.20000000e-01  3.35495708e-09  3.17447163e-09  3.56620392e-09  4.59766255e-01  4.59766255e-01  3.58848888e-09  3.37514442e-09  1.60240785e-07  3.74641296e-08  5.20000000e-01 
 5.30000000e-01  3.35495703e-09  3.17447156e-09  3.56620392e-09  4.59766282e-01  4.59766282e-01  3.58848888e-09  3.37514443e-09  1.60240828e-07  3.74640798e-08  5.30000000e-01 
 5.40000000e-01  3.35495704e-09  3.17447158e-09  3.56620392e-09  4.59766287e-01  4.59766287e-01  3.58848888e-09  3.37514443e-09  1.60240839e-07  3.74640194e-08  5.40000000e-01 
 5.50000000e-01  3.35495703e-09  3.17447157e-09  3.56620392e-09  4.59766276e-01  4.59766276e-01  3.58848888e-09  3.37514443e-09  1.60240809e-07  3.74638915e-08  5.50000000e-01 
 5.60000000e-01  3.35495703e-09  3.17447157e-09  3.56620392e-09  4.59766265e-01  4.59766265e-01  3.58848888e-09  3.37514448e-09  1.60240802e-07  3.74638205e-08  5.60000000e-01 
 5.70000000e-01  3.35495703e-09  3.17447163e-09  3.56620392e-09  4.59766274e-01  4.59766273e-01  3.58848888e-09  3.37514448e-09  1.60240807e-07  3.74637494e-08  5.70000000e-01 
 5.80000000e-01  3.35495703e-09  3.17447162e-09  3.56620392e-09  4.59766269e-01  4.59766269e-01  3.58848888e-09  3.37514443e-09  1.60240815e-07  3.74636571e-08  5.80000000e-01 
 5.90000000e-01  3.35495703e-09  3.17447162e-09  3.56620392e-09  4.59766258e-01  4.59766257e-01  3.58848888e-09  3.37514442e-09  1.60240794e-07  3.74636357e-08  5.90000000e-01 
 6.00000000e-01  3.35495709e-09  3.17447162e-09  3.56620392e-09  4.59766274e-01  4.59766274e-01  3.58848888e-09  3.37514443e-09  1.60240816e-07  3.74635789e-08  6.00000000e-01 
 6.10000000e-01  3.35495708e-09  3.17447157e-09  3.56620392e-09  4.59766277e-01  4.59766277e-01  3.58848888e-09  3.37514443e-09  1.60240812e-07  3.74635007e-08  6.10000000e-01 
 6.20000000e-01  3.35495708e-09  3.17447158e-09  3.56620392e-09  4.59766283e-01  4.59766283e-01  3.58848888e-09  3.37514443e-09  1.60240840e-07  3.74634794e-08  6.20000000e-01 
 6.30000000e-01  3.35495708e-09  3.17447157e-09  3.56620392e-09  4.59766272e-01  4.59766272e-01  3.58848888e-09  3.37514443e-09  1.60240811e-07  3.74633871e-08  6.30000000e-01 
 6.40000000e-01  3.35495703e-09  3.17447163e-09  3.56620392e-09  4.59766277e-01  4.59766277e-01  3.58848888e-09  3.37514443e-09  1.60240810e-07  3.74634439e-08  6.40000000e-01 
 6.50000000e-01  3.35495710e-09  3.17447156e-09  3.56620392e-09  4.59766275e-01  4.59766275e-01  3.58848888e-09  3.37514448e-09  1.60240816e-07  3.74632876e-08  6.50000000e-01 
 6.60000000e-01  3.35495708e-09  3.17447158e-09  3.56620386e-09  4.59766271e-01  4.59766271e-01  3.58848888e-09  3.37514443e-09  1.60240817e-07  3.74631526e-08  6.60000000e-01 
 6.70000000e-01  3.35495703e-09  3.17447157e-09  3.56620392e-09  4.59766273e-01  4.59766273e-01  3.58848888e-09  3.37514448e-09  1.60240818e-07  3.74633231e-08  6.70000000e-01 
 6.80000000e-01  3.35495704e-09  3.17447163e-09  3.56620392e-09  4.59766258e-01  4.59766258e-01  3.58848888e-09  3.37514442e-09  1.60240789e-07  3.74631028e-08  6.80000000e-01 
 6.90000000e-01  3.35495703e-09  3.17447156e-09  3.56620392e-09  4.59766271e-01  4.59766271e-01  3.58848888e-09  3.37514448e-09  1.60240819e-07  3.74631881e-08  6.90000000e-01 
 7.00000000e-01  3.35495709e-09  3.17447164e-09  3.56620392e-09  4.59766276e-01  4.59766276e-01  3.58848888e-09  3.37514448e-09  1.60240816e-07  3.74630531e-08  7.00000000e-01 
 7.10000000e-01  3.35495708e-09  3.17447156e-09  3.56620392e-09  4.59766264e-01  4.59766264e-01  3.58848888e-09  3.37514443e-09  1.60240806e-07  3.74630673e-08  7.10000000e-01 
 7.20000000e-01  3.35495708e-09  3.17447158e-09  3.56620392e-09  4.59766278e-01  4.59766278e-01  3.58848888e-09  3.37514443e-09  1.60240814e-07  3.74628542e-08  7.20000000e-01 
 7.30000000e-01  3.35495703e-09  3.17447157e-09  3.56620392e-09  4.59766299e-01  4.59766299e-01  3.58848888e-09  3.37514443e-09  1.60240840e-07  3.74628399e-08  7.30000000e-01 
 7.40000000e-01  3.35495704e-09  3.17447163e-09  3.56620392e-09  4.59766293e-01  4.59766293e-01  3.58848888e-09  3.37514448e-09  1.60240840e-07  3.74627618e-08  7.40000000e-01 
 7.50000000e-01  3.35495703e-09  3.17447162e-09  3.56620392e-09  4.59766271e-01  4.59766271e-01  3.58848888e-09  3.37514443e-09  1.60240811e-07  3.74628257e-08  7.50000000e-01 
 7.60000000e-01  3.35495703e-09  3.17447162e-09  3.56620392e-09  4.59766267e-01  4.59766267e-01  3.58848888e-09  3.37514443e-09  1.60240796e-07  3.74626907e-08  7.60000000e-01 
 7.70000000e-01  3.35495703e-09  3.17447162e-09  3.56620392e-09  4.59766270e-01  4.59766270e-01  3.58848882e-09  3.37514443e-09  1.60240806e-07  3.74626552e-08  7.70000000e-01 
 7.80000000e-01  3.35495703e-09  3.17447156e-09  3.56620392e-09  4.59766250e-01  4.59766250e-01  3.58848888e-09  3.37514442e-09  1.60240776e-07  3.74625344e-08  7.80000000e-01 
 7.90000000e-01  3.35495709e-09  3.17447158e-09  3.56620392e-09  4.59766249e-01  4.59766249e-01  3.58848888e-09  3.37514448e-09  1.60240774e-07  3.74624918e-08  7.90000000e-01 
 8.00000000e-01  3.35495708e-09  3.17447157e-09  3.56620392e-09  4.59766259e-01  4.59766259e-01  3.58848888e-09  3.37514442e-09  1.60240801e-07  3.74624065e-08  8.00000000e-01 
 8.10000000e-01  3.35495708e-09  3.17447157e-09  3.56620392e-09  4.59766251e-01  4.59766251e-01  3.58848888e-09  3.37514442e-09  1.60240780e-07  3.74623852e-08  8.10000000e-01 
 8.20000000e-01  3.35495708e-09  3.17447163e-09  3.56620392e-09  4.59766257e-01  4.59766257e-01  3.58848888e-09  3.37514448e-09  1.60240792e-07  3.74624278e-08  8.20000000e-01 
 8.30000000e-01  3.35495708e-09  3.17447162e-09  3.56620392e-09  4.59766267e-01  4.59766267e-01  3.58848888e-09  3.37514448e-09  1.60240790e-07  3.74622928e-08  8.30000000e-01 
 8.40000000e-01  3.35495708e-09  3.17447157e-09  3.56620392e-09  4.59766256e-01  4.59766256e-01  3.58848888e-09  3.37514442e-09  1.60240790e-07  3.74622857e-08  8.40000000e-01 
 8.50000000e-01  3.35495703e-09  3.17447158e-09  3.56620392e-09  4.59766269e-01  4.59766269e-01  3.58848888e-09  3.37514448e-09  1.60240805e-07  3.74622502e-08  8.50000000e-01 
 8.60000000e-01  3.35495710e-09  3.17447157e-09  3.56620392e-09  4.59766269e-01  4.59766269e-01  3.58848888e-09  3.37514443e-09  1.60240806e-07  3.74621649e-08  8.60000000e-01 
 8.70000000e-01  3.35495708e-09  3.17447163e-09  3.56620392e-09  4.59766269e-01  4.59766268e-01  3.58848888e-09  3.37514448e-09  1.60240811e-07  3.74619091e-08  8.70000000e-01 
 8.80000000e-01  3.35495702e-09  3.17447156e-09  3.56620392e-09  4.59766259e-01  4.59766259e-01  3.58848888e-09  3.37514442e-09  1.60240794e-07  3.74619944e-08  8.80000000e-01 
 8.90000000e-01  3.35495704e-09  3.17447158e-09  3.56620392e-09  4.59766257e-01  4.59766256e-01  3.58848888e-09  3.37514442e-09  1.60240792e-07  3.74619162e-08  8.90000000e-01 
 9.00000000e-01  3.35495709e-09  3.17447157e-09  3.56620392e-09  4.59766282e-01  4.59766281e-01  3.58848888e-09  3.37514448e-09  1.60240817e-07  3.74618736e-08  9.00000000e-01 
 9.10000000e-01  3.35495702e-09  3.17447163e-09  3.56620392e-09  4.59766262e-01  4.59766262e-01  3.58848888e-09  3.37514448e-09  1.60240793e-07  3.74618949e-08  9.10000000e-01 
 9.20000000e-01  3.35495704e-09  3.17447162e-09  3.56620392e-09  4.59766253e-01  4.59766252e-01  3.58848888e-09  3.37514442e-09  1.60240792e-07  3.74618594e-08  9.20000000e-01 
 9.30000000e-01  3.35495703e-09  3.17447162e-09  3.56620392e-09  4.59766278e-01  4.59766278e-01  3.58848888e-09  3.37514448e-09  1.60240806e-07  3.74618736e-08  9.30000000e-01 
 9.40000000e-01  3.35495709e-09  3.17447162e-09  3.56620392e-09  4.59766295e-01  4.59766295e-01  3.58848888e-09  3.37514443e-09  1.60240849e-07  3.74618239e-08  9.40000000e-01 
 9.50000000e-01  3.35495708e-09  3.17447162e-09  3.56620392e-09  4.59766258e-01  4.59766258e-01  3.58848888e-09  3.37514448e-09  1.60240788e-07  3.74615894e-08  9.50000000e-01 
 9.60000000e-01  3.35495702e-09  3.17447157e-09  3.56620392e-09  4.59766262e-01  4.59766262e-01  3.58848888e-09  3.37514443e-09  1.60240782e-07  3.74615325e-08  9.60000000e-01 
 9.70000000e-01  3.35495709e-09  3.17447158e-09  3.56620392e-09  4.59766261e-01  4.59766261e-01  3.58848888e-09  3.37514443e-09  1.60240789e-07  3.74615041e-08  9.70000000e-01 
 9.80000000e-01  3.35495708e-09  3.17447157e-09  3.56620392e-09  4.59766278e-01  4.59766278e-01  3.58848888e-09  3.37514448e-09  1.60240799e-07  3.74615468e-08  9.80000000e-01 
 9.90000000e-01  3.35495702e-09  3.17447157e-09  3.56620392e-09  4.59766252e-01  4.59766252e-01  3.58848888e-09  3.37514448e-09  1.60240781e-07  3.74612981e-08  9.90000000e-01 
 1.00000000e+00  3.35495704e-09  3.17447157e-09  3.56620392e-09  4.59766265e-01  4.59766265e-01  3.58848888e-09  3.37514448e-09  1.60240803e-07  3.74612554e-08  1.00000000e+00 
 1.01000000e+00  3.35495709e-09  3.17447163e-09  3.56620392e-09  4.59766264e-01  4.59766263e-01  3.58848888e-09  3.37514443e-09  1.60240797e-07  3.74613549e-08  1.01000000e+00 
 1.02000000e+00  3.35495708e-09  3.17447162e-09  3.56620392e-09  4.59766271e-01  4.59766271e-01  3.58848888e-09  3.37514443e-09  1.60240808e-07  3.74612696e-08  1.02000000e+00 
 1.03000000e+00  3.35495708e-09  3.17447157e-09  3.56620392e-09  4.59766271e-01  4.59766271e-01  3.58848888e-09  3.37514443e-09  1.60240800e-07  3.74611346e-08  1.03000000e+00 
 1.04000000e+00  3.35495702e-09  3.17447158e-09  3.56620392e-09  4.59766263e-01  4.59766263e-01  3.58848888e-09  3.37514443e-09  1.60240801e-07  3.74609570e-08  1.04000000e+00 
 1.05000000e+00  3.35495709e-09  3.17447163e-09  3.56620392e-09  4.59766251e-01  4.59766251e-01  3.58848888e-09  3.37514448e-09  1.60240771e-07  3.74609854e-08  1.05000000e+00 
 1.06000000e+00  3.35495708e-09  3.17447156e-09  3.56620392e-09  4.59766260e-01  4.59766260e-01  3.58848888e-09  3.37514448e-09  1.60240789e-07  3.74609428e-08  1.06000000e+00 
 1.07000000e+00  3.35495703e-09  3.17447158e-09  3.56620392e-09  4.59766264e-01  4.59766264e-01  3.58848888e-09  3.37514443e-09  1.60240796e-07  3.74609215e-08  1.07000000e+00 
 1.08000000e+00  3.35495710e-09  3.17447157e-09  3.56620392e-09  4.59766278e-01  4.59766278e-01  3.58848888e-09  3.37514448e-09  1.60240823e-07  3.74607723e-08  1.08000000e+00 
 1.09000000e+00  3.35495707e-09  3.17447157e-09  3.56620392e-09  4.59766257e-01  4.59766256e-01  3.58848888e-09  3.37514448e-09  1.60240791e-07  3.74606870e-08  1.09000000e+00 
 1.10000000e+00  3.35495708e-09  3.17447163e-09  3.56620392e-09  4.59766269e-01  4.59766269e-01  3.58848888e-09  3.37514443e-09  1.60240822e-07  3.74608291e-08  1.10000000e+00 
