 v-sweep         v(b0)           v(b1)           v(b2)           v(b3)           v(b4)           v(b5)           v(b6)           i(vbias)        i(viout)        v(vout)        
 0.00000000e+00  3.23322126e-09  3.31552531e-09  3.56427180e-09  3.32001077e-09  4.57381480e-01  3.16327779e-09  4.57381480e-01  1.56388934e-07  1.25397613e-07  0.00000000e+00 
 1.00000000e-02  3.23322123e-09  3.31552534e-09  3.56427178e-09  3.32001080e-09  4.57381453e-01  3.16327777e-09  4.57381454e-01  1.56388876e-07  1.25397077e-07  1.00000000e-02 
 2.00000000e-02  3.23322124e-09  3.31552534e-09  3.56427178e-09  3.32001081e-09  4.57381464e-01  3.16327777e-09  4.57381464e-01  1.56388900e-07  1.25396682e-07  2.00000000e-02 
 3.00000000e-02  3.23322124e-09  3.31552529e-09  3.56427178e-09  3.32001080e-09  4.57381454e-01  3.16327777e-09  4.57381455e-01  1.56388890e-07  1.25396197e-07  3.00000000e-02 
 4.00000000e-02  3.23322129e-09  3.31552529e-09  3.56427184e-09  3.32001081e-09  4.57381465e-01  3.16327777e-09  4.57381465e-01  1.56388889e-07  1.25395992e-07  4.00000000e-02 
 5.00000000e-02  3.23322122e-09  3.31552529e-09  3.56427178e-09  3.32001080e-09  4.57381451e-01  3.16327777e-09  4.57381452e-01  1.56388891e-07  1.25395596e-07  5.00000000e-02 
 6.00000000e-02  3.23322124e-09  3.31552529e-09  3.56427184e-09  3.32001080e-09  4.57381449e-01  3.16327777e-09  4.57381449e-01  1.56388862e-07  1.25395168e-07  6.00000000e-02 
 7.00000000e-02  3.23322124e-09  3.31552529e-09  3.56427178e-09  3.32001081e-09  4.57381467e-01  3.16327771e-09  4.57381467e-01  1.56388887e-07  1.25394943e-07  7.00000000e-02 
 8.00000000e-02  3.23322124e-09  3.31552529e-09  3.56427184e-09  3.32001081e-09  4.57381464e-01  3.16327771e-09  4.57381464e-01  1.56388880e-07  1.25394736e-07  8.00000000e-02 
 9.00000000e-02  3.23322124e-09  3.31552534e-09  3.56427184e-09  3.32001080e-09  4.57381445e-01  3.16327777e-09  4.57381445e-01  1.56388860e-07  1.25394338e-07  9.00000000e-02 
 1.00000000e-01  3.23322124e-09  3.31552529e-09  3.56427178e-09  3.32001080e-09  4.57381460e-01  3.16327777e-09  4.57381460e-01  1.56388905e-07  1.25394130e-07  1.00000000e-01 
 1.10000000e-01  3.23322129e-09  3.31552529e-09  3.56427184e-09  3.32001081e-09  4.57381469e-01  3.16327777e-09  4.57381470e-01  1.56388891e-07  1.25393741e-07  1.10000000e-01 
 1.20000000e-01  3.23322122e-09  3.31552529e-09  3.56427184e-09  3.32001080e-09  4.57381459e-01  3.16327771e-09  4.57381459e-01  1.56388878e-07  1.25393462e-07  1.20000000e-01 
 1.30000000e-01  3.23322124e-09  3.31552529e-09  3.56427178e-09  3.32001081e-09  4.57381461e-01  3.16327777e-09  4.57381461e-01  1.56388882e-07  1.25393329e-07  1.30000000e-01 
 1.40000000e-01  3.23322124e-09  3.31552534e-09  3.56427184e-09  3.32001081e-09  4.57381474e-01  3.16327777e-09  4.57381474e-01  1.56388905e-07  1.25393040e-07  1.40000000e-01 
 1.50000000e-01  3.23322124e-09  3.31552529e-09  3.56427178e-09  3.32001081e-09  4.57381469e-01  3.16327777e-09  4.57381469e-01  1.56388892e-07  1.25392765e-07  1.50000000e-01 
 1.60000000e-01  3.23322124e-09  3.31552529e-09  3.56427178e-09  3.32001081e-09  4.57381474e-01  3.16327771e-09  4.57381474e-01  1.56388901e-07  1.25392662e-07  1.60000000e-01 
 1.70000000e-01  3.23322124e-09  3.31552529e-09  3.56427184e-09  3.32001080e-09  4.57381438e-01  3.16327777e-09  4.57381438e-01  1.56388851e-07  1.25392338e-07  1.70000000e-01 
 1.80000000e-01  3.23322124e-09  3.31552529e-09  3.56427184e-09  3.32001080e-09  4.57381445e-01  3.16327771e-09  4.57381446e-01  1.56388847e-07  1.25392107e-07  1.80000000e-01 
 1.90000000e-01  3.23322124e-09  3.31552529e-09  3.56427184e-09  3.32001080e-09  4.57381450e-01  3.16327771e-09  4.57381450e-01  1.56388873e-07  1.25392074e-07  1.90000000e-01 
 2.00000000e-01  3.23322124e-09  3.31552529e-09  3.56427184e-09  3.32001080e-09  4.57381453e-01  3.16327777e-09  4.57381453e-01  1.56388877e-07  1.25391795e-07  2.00000000e-01 
 2.10000000e-01  3.23322124e-09  3.31552529e-09  3.56427178e-09  3.32001081e-09  4.57381469e-01  3.16327771e-09  4.57381469e-01  1.56388884e-07  1.25391757e-07  2.10000000e-01 
 2.20000000e-01  3.23322129e-09  3.31552529e-09  3.56427184e-09  3.32001081e-09  4.57381464e-01  3.16327771e-09  4.57381464e-01  1.56388891e-07  1.25391448e-07  2.20000000e-01 
 2.30000000e-01  3.23322122e-09  3.31552529e-09  3.56427184e-09  3.32001080e-09  4.57381437e-01  3.16327777e-09  4.57381437e-01  1.56388843e-07  1.25391329e-07  2.30000000e-01 
 2.40000000e-01  3.23322124e-09  3.31552529e-09  3.56427184e-09  3.32001080e-09  4.57381444e-01  3.16327771e-09  4.57381444e-01  1.56388848e-07  1.25391102e-07  2.40000000e-01 
 2.50000000e-01  3.23322124e-09  3.31552534e-09  3.56427178e-09  3.32001081e-09  4.57381476e-01  3.16327777e-09  4.57381476e-01  1.56388907e-07  1.25390953e-07  2.50000000e-01 
 2.60000000e-01  3.23322124e-09  3.31552529e-09  3.56427178e-09  3.32001081e-09  4.57381467e-01  3.16327771e-09  4.57381467e-01  1.56388905e-07  1.25390878e-07  2.60000000e-01 
 2.70000000e-01  3.23322124e-09  3.31552529e-09  3.56427178e-09  3.32001081e-09  4.57381468e-01  3.16327777e-09  4.57381468e-01  1.56388882e-07  1.25390738e-07  2.70000000e-01 
 2.80000000e-01  3.23322124e-09  3.31552529e-09  3.56427184e-09  3.32001080e-09  4.57381459e-01  3.16327771e-09  4.57381460e-01  1.56388873e-07  1.25390471e-07  2.80000000e-01 
 2.90000000e-01  3.23322124e-09  3.31552529e-09  3.56427178e-09  3.32001080e-09  4.57381446e-01  3.16327777e-09  4.57381446e-01  1.56388864e-07  1.25390411e-07  2.90000000e-01 
 3.00000000e-01  3.23322129e-09  3.31552529e-09  3.56427184e-09  3.32001075e-09  4.57381468e-01  3.16327777e-09  4.57381468e-01  1.56388890e-07  1.25390432e-07  3.00000000e-01 
 3.10000000e-01  3.23322128e-09  3.31552529e-09  3.56427184e-09  3.32001080e-09  4.57381457e-01  3.16327777e-09  4.57381457e-01  1.56388880e-07  1.25390109e-07  3.10000000e-01 
 3.20000000e-01  3.23322123e-09  3.31552534e-09  3.56427184e-09  3.32001081e-09  4.57381470e-01  3.16327771e-09  4.57381470e-01  1.56388905e-07  1.25390113e-07  3.20000000e-01 
 3.30000000e-01  3.23322124e-09  3.31552529e-09  3.56427184e-09  3.32001081e-09  4.57381464e-01  3.16327771e-09  4.57381464e-01  1.56388881e-07  1.25389963e-07  3.30000000e-01 
 3.40000000e-01  3.23322129e-09  3.31552529e-09  3.56427184e-09  3.32001081e-09  4.57381470e-01  3.16327777e-09  4.57381470e-01  1.56388892e-07  1.25389750e-07  3.40000000e-01 
 3.50000000e-01  3.23322128e-09  3.31552529e-09  3.56427184e-09  3.32001081e-09  4.57381469e-01  3.16327771e-09  4.57381469e-01  1.56388907e-07  1.25389757e-07  3.50000000e-01 
 3.60000000e-01  3.23322123e-09  3.31552529e-09  3.56427178e-09  3.32001081e-09  4.57381466e-01  3.16327777e-09  4.57381467e-01  1.56388892e-07  1.25389576e-07  3.60000000e-01 
 3.70000000e-01  3.23322124e-09  3.31552529e-09  3.56427184e-09  3.32001081e-09  4.57381469e-01  3.16327777e-09  4.57381469e-01  1.56388897e-07  1.25389487e-07  3.70000000e-01 
 3.80000000e-01  3.23322124e-09  3.31552534e-09  3.56427184e-09  3.32001080e-09  4.57381450e-01  3.16327777e-09  4.57381450e-01  1.56388863e-07  1.25389352e-07  3.80000000e-01 
 3.90000000e-01  3.23322124e-09  3.31552529e-09  3.56427178e-09  3.32001080e-09  4.57381457e-01  3.16327771e-09  4.57381457e-01  1.56388880e-07  1.25389267e-07  3.90000000e-01 
 4.00000000e-01  3.23322129e-09  3.31552529e-09  3.56427184e-09  3.32001080e-09  4.57381461e-01  3.16327771e-09  4.57381461e-01  1.56388877e-07  1.25389061e-07  4.00000000e-01 
 4.10000000e-01  3.23322128e-09  3.31552534e-09  3.56427184e-09  3.32001080e-09  4.57381447e-01  3.16327777e-09  4.57381447e-01  1.56388878e-07  1.25389043e-07  4.10000000e-01 
 4.20000000e-01  3.23322129e-09  3.31552534e-09  3.56427178e-09  3.32001080e-09  4.57381440e-01  3.16327771e-09  4.57381440e-01  1.56388835e-07  1.25388940e-07  4.20000000e-01 
 4.30000000e-01  3.23322123e-09  3.31552529e-09  3.56427184e-09  3.32001080e-09  4.57381452e-01  3.16327771e-09  4.57381452e-01  1.56388867e-07  1.25388866e-07  4.30000000e-01 
 4.40000000e-01  3.23322124e-09  3.31552534e-09  3.56427184e-09  3.32001080e-09  4.57381456e-01  3.16327777e-09  4.57381456e-01  1.56388881e-07  1.25388802e-07  4.40000000e-01 
 4.50000000e-01  3.23322124e-09  3.31552529e-09  3.56427178e-09  3.32001081e-09  4.57381467e-01  3.16327777e-09  4.57381467e-01  1.56388890e-07  1.25388585e-07  4.50000000e-01 
 4.60000000e-01  3.23322124e-09  3.31552534e-09  3.56427178e-09  3.32001080e-09  4.57381457e-01  3.16327771e-09  4.57381457e-01  1.56388884e-07  1.25388578e-07  4.60000000e-01 
 4.70000000e-01  3.23322129e-09  3.31552534e-09  3.56427178e-09  3.32001080e-09  4.57381453e-01  3.16327771e-09  4.57381453e-01  1.56388873e-07  1.25388411e-07  4.70000000e-01 
 4.80000000e-01  3.23322128e-09  3.31552534e-09  3.56427184e-09  3.32001075e-09  4.57381464e-01  3.16327771e-09  4.57381464e-01  1.56388890e-07  1.25388393e-07  4.80000000e-01 
 4.90000000e-01  3.23322123e-09  3.31552529e-09  3.56427184e-09  3.32001081e-09  4.57381462e-01  3.16327771e-09  4.57381463e-01  1.56388886e-07  1.25388372e-07  4.90000000e-01 
 5.00000000e-01  3.23322124e-09  3.31552529e-09  3.56427184e-09  3.32001080e-09  4.57381449e-01  3.16327771e-09  4.57381449e-01  1.56388874e-07  1.25388212e-07  5.00000000e-01 
 5.10000000e-01  3.23322124e-09  3.31552529e-09  3.56427184e-09  3.32001081e-09  4.57381466e-01  3.16327777e-09  4.57381466e-01  1.56388890e-07  1.25388137e-07  5.10000000e-01 
 5.20000000e-01  3.23322124e-09  3.31552534e-09  3.56427184e-09  3.32001080e-09  4.57381445e-01  3.16327777e-09  4.57381445e-01  1.56388862e-07  1.25387960e-07  5.20000000e-01 
 5.30000000e-01  3.23322124e-09  3.31552534e-09  3.56427178e-09  3.32001081e-09  4.57381464e-01  3.16327771e-09  4.57381464e-01  1.56388888e-07  1.25387942e-07  5.30000000e-01 
 5.40000000e-01  3.23322124e-09  3.31552534e-09  3.56427178e-09  3.32001081e-09  4.57381468e-01  3.16327777e-09  4.57381468e-01  1.56388892e-07  1.25387928e-07  5.40000000e-01 
 5.50000000e-01  3.23322124e-09  3.31552529e-09  3.56427178e-09  3.32001081e-09  4.57381467e-01  3.16327771e-09  4.57381467e-01  1.56388889e-07  1.25387789e-07  5.50000000e-01 
 5.60000000e-01  3.23322124e-09  3.31552529e-09  3.56427184e-09  3.32001080e-09  4.57381450e-01  3.16327777e-09  4.57381450e-01  1.56388870e-07  1.25387622e-07  5.60000000e-01 
 5.70000000e-01  3.23322124e-09  3.31552529e-09  3.56427184e-09  3.32001081e-09  4.57381461e-01  3.16327777e-09  4.57381461e-01  1.56388880e-07  1.25387530e-07  5.70000000e-01 
 5.80000000e-01  3.23322124e-09  3.31552529e-09  3.56427178e-09  3.32001080e-09  4.57381455e-01  3.16327777e-09  4.57381455e-01  1.56388863e-07  1.25387409e-07  5.80000000e-01 
 5.90000000e-01  3.23322124e-09  3.31552529e-09  3.56427178e-09  3.32001080e-09  4.57381442e-01  3.16327771e-09  4.57381442e-01  1.56388861e-07  1.25387281e-07  5.90000000e-01 
 6.00000000e-01  3.23322124e-09  3.31552529e-09  3.56427178e-09  3.32001081e-09  4.57381464e-01  3.16327777e-09  4.57381465e-01  1.56388893e-07  1.25387338e-07  6.00000000e-01 
 6.10000000e-01  3.23322124e-09  3.31552534e-09  3.56427184e-09  3.32001081e-09  4.57381462e-01  3.16327771e-09  4.57381462e-01  1.56388885e-07  1.25387196e-07  6.10000000e-01 
 6.20000000e-01  3.23322124e-09  3.31552529e-09  3.56427178e-09  3.32001080e-09  4.57381449e-01  3.16327771e-09  4.57381449e-01  1.56388866e-07  1.25387110e-07  6.20000000e-01 
 6.30000000e-01  3.23322129e-09  3.31552534e-09  3.56427178e-09  3.32001080e-09  4.57381458e-01  3.16327777e-09  4.57381459e-01  1.56388878e-07  1.25387103e-07  6.30000000e-01 
 6.40000000e-01  3.23322128e-09  3.31552529e-09  3.56427184e-09  3.32001080e-09  4.57381449e-01  3.16327771e-09  4.57381449e-01  1.56388869e-07  1.25387061e-07  6.40000000e-01 
 6.50000000e-01  3.23322123e-09  3.31552529e-09  3.56427178e-09  3.32001080e-09  4.57381439e-01  3.16327771e-09  4.57381439e-01  1.56388850e-07  1.25386855e-07  6.50000000e-01 
 6.60000000e-01  3.23322124e-09  3.31552529e-09  3.56427178e-09  3.32001080e-09  4.57381438e-01  3.16327771e-09  4.57381438e-01  1.56388836e-07  1.25386734e-07  6.60000000e-01 
 6.70000000e-01  3.23322124e-09  3.31552529e-09  3.56427178e-09  3.32001080e-09  4.57381451e-01  3.16327777e-09  4.57381451e-01  1.56388873e-07  1.25386642e-07  6.70000000e-01 
 6.80000000e-01  3.23322124e-09  3.31552534e-09  3.56427184e-09  3.32001081e-09  4.57381462e-01  3.16327777e-09  4.57381462e-01  1.56388882e-07  1.25386592e-07  6.80000000e-01 
 6.90000000e-01  3.23322124e-09  3.31552529e-09  3.56427178e-09  3.32001080e-09  4.57381452e-01  3.16327771e-09  4.57381452e-01  1.56388871e-07  1.25386592e-07  6.90000000e-01 
 7.00000000e-01  3.23322124e-09  3.31552529e-09  3.56427178e-09  3.32001075e-09  4.57381458e-01  3.16327777e-09  4.57381458e-01  1.56388873e-07  1.25386414e-07  7.00000000e-01 
 7.10000000e-01  3.23322124e-09  3.31552534e-09  3.56427184e-09  3.32001081e-09  4.57381475e-01  3.16327771e-09  4.57381475e-01  1.56388899e-07  1.25386414e-07  7.10000000e-01 
 7.20000000e-01  3.23322129e-09  3.31552529e-09  3.56427178e-09  3.32001080e-09  4.57381456e-01  3.16327777e-09  4.57381456e-01  1.56388873e-07  1.25386244e-07  7.20000000e-01 
 7.30000000e-01  3.23322122e-09  3.31552529e-09  3.56427184e-09  3.32001081e-09  4.57381469e-01  3.16327777e-09  4.57381469e-01  1.56388897e-07  1.25386237e-07  7.30000000e-01 
 7.40000000e-01  3.23322124e-09  3.31552529e-09  3.56427178e-09  3.32001081e-09  4.57381469e-01  3.16327777e-09  4.57381470e-01  1.56388898e-07  1.25386187e-07  7.40000000e-01 
 7.50000000e-01  3.23322129e-09  3.31552529e-09  3.56427178e-09  3.32001081e-09  4.57381464e-01  3.16327771e-09  4.57381464e-01  1.56388888e-07  1.25386009e-07  7.50000000e-01 
 7.60000000e-01  3.23322128e-09  3.31552529e-09  3.56427184e-09  3.32001081e-09  4.57381468e-01  3.16327777e-09  4.57381468e-01  1.56388889e-07  1.25385966e-07  7.60000000e-01 
 7.70000000e-01  3.23322123e-09  3.31552534e-09  3.56427184e-09  3.32001081e-09  4.57381479e-01  3.16327771e-09  4.57381479e-01  1.56388914e-07  1.25385839e-07  7.70000000e-01 
 7.80000000e-01  3.23322124e-09  3.31552529e-09  3.56427178e-09  3.32001075e-09  4.57381443e-01  3.16327777e-09  4.57381443e-01  1.56388848e-07  1.25385753e-07  7.80000000e-01 
 7.90000000e-01  3.23322124e-09  3.31552534e-09  3.56427178e-09  3.32001081e-09  4.57381474e-01  3.16327777e-09  4.57381474e-01  1.56388897e-07  1.25385718e-07  7.90000000e-01 
 8.00000000e-01  3.23322124e-09  3.31552529e-09  3.56427178e-09  3.32001080e-09  4.57381460e-01  3.16327777e-09  4.57381460e-01  1.56388892e-07  1.25385540e-07  8.00000000e-01 
 8.10000000e-01  3.23322124e-09  3.31552534e-09  3.56427178e-09  3.32001081e-09  4.57381463e-01  3.16327771e-09  4.57381463e-01  1.56388888e-07  1.25385434e-07  8.10000000e-01 
 8.20000000e-01  3.23322129e-09  3.31552529e-09  3.56427184e-09  3.32001081e-09  4.57381479e-01  3.16327777e-09  4.57381479e-01  1.56388903e-07  1.25385476e-07  8.20000000e-01 
 8.30000000e-01  3.23322122e-09  3.31552529e-09  3.56427184e-09  3.32001081e-09  4.57381477e-01  3.16327777e-09  4.57381477e-01  1.56388913e-07  1.25385277e-07  8.30000000e-01 
 8.40000000e-01  3.23322124e-09  3.31552534e-09  3.56427178e-09  3.32001081e-09  4.57381466e-01  3.16327777e-09  4.57381466e-01  1.56388889e-07  1.25385242e-07  8.40000000e-01 
 8.50000000e-01  3.23322124e-09  3.31552529e-09  3.56427184e-09  3.32001075e-09  4.57381453e-01  3.16327771e-09  4.57381453e-01  1.56388870e-07  1.25385114e-07  8.50000000e-01 
 8.60000000e-01  3.23322124e-09  3.31552529e-09  3.56427178e-09  3.32001080e-09  4.57381453e-01  3.16327771e-09  4.57381453e-01  1.56388871e-07  1.25384915e-07  8.60000000e-01 
 8.70000000e-01  3.23322124e-09  3.31552534e-09  3.56427178e-09  3.32001081e-09  4.57381472e-01  3.16327771e-09  4.57381472e-01  1.56388891e-07  1.25384915e-07  8.70000000e-01 
 8.80000000e-01  3.23322124e-09  3.31552529e-09  3.56427178e-09  3.32001080e-09  4.57381442e-01  3.16327777e-09  4.57381443e-01  1.56388866e-07  1.25384837e-07  8.80000000e-01 
 8.90000000e-01  3.23322124e-09  3.31552529e-09  3.56427178e-09  3.32001081e-09  4.57381463e-01  3.16327777e-09  4.57381463e-01  1.56388886e-07  1.25384837e-07  8.90000000e-01 
 9.00000000e-01  3.23322124e-09  3.31552529e-09  3.56427178e-09  3.32001080e-09  4.57381450e-01  3.16327771e-09  4.57381450e-01  1.56388868e-07  1.25384567e-07  9.00000000e-01 
 9.10000000e-01  3.23322124e-09  3.31552534e-09  3.56427184e-09  3.32001081e-09  4.57381462e-01  3.16327777e-09  4.57381462e-01  1.56388892e-07  1.25384616e-07  9.10000000e-01 
 9.20000000e-01  3.23322124e-09  3.31552529e-09  3.56427178e-09  3.32001080e-09  4.57381447e-01  3.16327777e-09  4.57381447e-01  1.56388859e-07  1.25384403e-07  9.20000000e-01 
 9.30000000e-01  3.23322129e-09  3.31552534e-09  3.56427184e-09  3.32001080e-09  4.57381456e-01  3.16327777e-09  4.57381456e-01  1.56388863e-07  1.25384439e-07  9.30000000e-01 
 9.40000000e-01  3.23322122e-09  3.31552529e-09  3.56427178e-09  3.32001080e-09  4.57381431e-01  3.16327771e-09  4.57381431e-01  1.56388831e-07  1.25384283e-07  9.40000000e-01 
 9.50000000e-01  3.23322124e-09  3.31552529e-09  3.56427184e-09  3.32001080e-09  4.57381447e-01  3.16327777e-09  4.57381447e-01  1.56388859e-07  1.25384275e-07  9.50000000e-01 
 9.60000000e-01  3.23322124e-09  3.31552529e-09  3.56427184e-09  3.32001081e-09  4.57381466e-01  3.16327777e-09  4.57381466e-01  1.56388889e-07  1.25384055e-07  9.60000000e-01 
 9.70000000e-01  3.23322124e-09  3.31552529e-09  3.56427178e-09  3.32001081e-09  4.57381463e-01  3.16327777e-09  4.57381463e-01  1.56388894e-07  1.25384091e-07  9.70000000e-01 
 9.80000000e-01  3.23322124e-09  3.31552529e-09  3.56427184e-09  3.32001080e-09  4.57381446e-01  3.16327771e-09  4.57381446e-01  1.56388867e-07  1.25383984e-07  9.80000000e-01 
 9.90000000e-01  3.23322129e-09  3.31552534e-09  3.56427178e-09  3.32001080e-09  4.57381445e-01  3.16327777e-09  4.57381445e-01  1.56388856e-07  1.25383799e-07  9.90000000e-01 
 1.00000000e+00  3.23322122e-09  3.31552529e-09  3.56427178e-09  3.32001080e-09  4.57381451e-01  3.16327771e-09  4.57381451e-01  1.56388861e-07  1.25383686e-07  1.00000000e+00 
 1.01000000e+00  3.23322124e-09  3.31552534e-09  3.56427178e-09  3.32001080e-09  4.57381448e-01  3.16327771e-09  4.57381448e-01  1.56388862e-07  1.25383600e-07  1.01000000e+00 
 1.02000000e+00  3.23322124e-09  3.31552529e-09  3.56427184e-09  3.32001080e-09  4.57381452e-01  3.16327771e-09  4.57381452e-01  1.56388861e-07  1.25383487e-07  1.02000000e+00 
 1.03000000e+00  3.23322124e-09  3.31552529e-09  3.56427184e-09  3.32001080e-09  4.57381459e-01  3.16327777e-09  4.57381459e-01  1.56388876e-07  1.25383352e-07  1.03000000e+00 
 1.04000000e+00  3.23322129e-09  3.31552534e-09  3.56427184e-09  3.32001075e-09  4.57381474e-01  3.16327771e-09  4.57381474e-01  1.56388902e-07  1.25383224e-07  1.04000000e+00 
 1.05000000e+00  3.23322122e-09  3.31552529e-09  3.56427178e-09  3.32001080e-09  4.57381459e-01  3.16327777e-09  4.57381459e-01  1.56388873e-07  1.25383238e-07  1.05000000e+00 
 1.06000000e+00  3.23322124e-09  3.31552529e-09  3.56427184e-09  3.32001080e-09  4.57381441e-01  3.16327777e-09  4.57381441e-01  1.56388859e-07  1.25382954e-07  1.06000000e+00 
 1.07000000e+00  3.23322124e-09  3.31552534e-09  3.56427178e-09  3.32001080e-09  4.57381454e-01  3.16327777e-09  4.57381454e-01  1.56388872e-07  1.25382954e-07  1.07000000e+00 
 1.08000000e+00  3.23322124e-09  3.31552529e-09  3.56427178e-09  3.32001081e-09  4.57381469e-01  3.16327777e-09  4.57381469e-01  1.56388899e-07  1.25382918e-07  1.08000000e+00 
 1.09000000e+00  3.23322124e-09  3.31552529e-09  3.56427184e-09  3.32001080e-09  4.57381452e-01  3.16327777e-09  4.57381452e-01  1.56388882e-07  1.25382883e-07  1.09000000e+00 
 1.10000000e+00  3.23322124e-09  3.31552529e-09  3.56427178e-09  3.32001080e-09  4.57381457e-01  3.16327777e-09  4.57381458e-01  1.56388871e-07  1.25382684e-07  1.10000000e+00 
