 v-sweep         v(b0)           v(b1)           v(b2)           v(b3)           v(b4)           v(b5)           v(b6)           i(vbias)        i(viout)        v(vout)        
 0.00000000e+00  3.26987598e-09  4.57945881e-01  3.43845974e-09  4.57945881e-01  4.57945881e-01  4.57945881e-01  3.54991206e-09  1.57270200e-07  8.74180031e-08  0.00000000e+00 
 1.00000000e-02  3.26987603e-09  4.57945913e-01  3.43845972e-09  4.57945913e-01  4.57945913e-01  4.57945913e-01  3.54991209e-09  1.57270278e-07  8.74175327e-08  1.00000000e-02 
 2.00000000e-02  3.26987603e-09  4.57945905e-01  3.43845972e-09  4.57945905e-01  4.57945905e-01  4.57945905e-01  3.54991209e-09  1.57270245e-07  8.74171520e-08  2.00000000e-02 
 3.00000000e-02  3.26987597e-09  4.57945915e-01  3.43845972e-09  4.57945915e-01  4.57945915e-01  4.57945915e-01  3.54991209e-09  1.57270273e-07  8.74168340e-08  3.00000000e-02 
 4.00000000e-02  3.26987597e-09  4.57945908e-01  3.43845972e-09  4.57945908e-01  4.57945908e-01  4.57945908e-01  3.54991209e-09  1.57270258e-07  8.74164194e-08  4.00000000e-02 
 5.00000000e-02  3.26987602e-09  4.57945882e-01  3.43845972e-09  4.57945882e-01  4.57945882e-01  4.57945882e-01  3.54991203e-09  1.57270217e-07  8.74159971e-08  5.00000000e-02 
 6.00000000e-02  3.26987597e-09  4.57945894e-01  3.43845972e-09  4.57945894e-01  4.57945894e-01  4.57945894e-01  3.54991209e-09  1.57270250e-07  8.74156894e-08  6.00000000e-02 
 7.00000000e-02  3.26987597e-09  4.57945882e-01  3.43845972e-09  4.57945882e-01  4.57945882e-01  4.57945882e-01  3.54991209e-09  1.57270226e-07  8.74154589e-08  7.00000000e-02 
 8.00000000e-02  3.26987597e-09  4.57945923e-01  3.43845972e-09  4.57945923e-01  4.57945923e-01  4.57945923e-01  3.54991209e-09  1.57270280e-07  8.74151471e-08  8.00000000e-02 
 9.00000000e-02  3.26987597e-09  4.57945922e-01  3.43845972e-09  4.57945922e-01  4.57945922e-01  4.57945922e-01  3.54991204e-09  1.57270270e-07  8.74148309e-08  9.00000000e-02 
 1.00000000e-01  3.26987602e-09  4.57945893e-01  3.43845972e-09  4.57945893e-01  4.57945893e-01  4.57945893e-01  3.54991203e-09  1.57270224e-07  8.74145814e-08  1.00000000e-01 
 1.10000000e-01  3.26987597e-09  4.57945899e-01  3.43845972e-09  4.57945899e-01  4.57945899e-01  4.57945899e-01  3.54991209e-09  1.57270261e-07  8.74144366e-08  1.10000000e-01 
 1.20000000e-01  3.26987603e-09  4.57945934e-01  3.43845972e-09  4.57945934e-01  4.57945934e-01  4.57945934e-01  3.54991209e-09  1.57270290e-07  8.74142128e-08  1.20000000e-01 
 1.30000000e-01  3.26987602e-09  4.57945874e-01  3.43845972e-09  4.57945874e-01  4.57945874e-01  4.57945874e-01  3.54991209e-09  1.57270197e-07  8.74138131e-08  1.30000000e-01 
 1.40000000e-01  3.26987597e-09  4.57945910e-01  3.43845972e-09  4.57945910e-01  4.57945910e-01  4.57945910e-01  3.54991209e-09  1.57270270e-07  8.74136301e-08  1.40000000e-01 
 1.50000000e-01  3.26987597e-09  4.57945900e-01  3.43845972e-09  4.57945900e-01  4.57945900e-01  4.57945900e-01  3.54991203e-09  1.57270238e-07  8.74133619e-08  1.50000000e-01 
 1.60000000e-01  3.26987603e-09  4.57945904e-01  3.43845972e-09  4.57945904e-01  4.57945904e-01  4.57945904e-01  3.54991209e-09  1.57270246e-07  8.74131825e-08  1.60000000e-01 
 1.70000000e-01  3.26987597e-09  4.57945892e-01  3.43845972e-09  4.57945892e-01  4.57945892e-01  4.57945892e-01  3.54991209e-09  1.57270233e-07  8.74129373e-08  1.70000000e-01 
 1.80000000e-01  3.26987602e-09  4.57945898e-01  3.43845972e-09  4.57945898e-01  4.57945898e-01  4.57945898e-01  3.54991209e-09  1.57270250e-07  8.74127899e-08  1.80000000e-01 
 1.90000000e-01  3.26987603e-09  4.57945908e-01  3.43845972e-09  4.57945908e-01  4.57945908e-01  4.57945908e-01  3.54991209e-09  1.57270250e-07  8.74125963e-08  1.90000000e-01 
 2.00000000e-01  3.26987597e-09  4.57945917e-01  3.43845972e-09  4.57945916e-01  4.57945916e-01  4.57945917e-01  3.54991203e-09  1.57270269e-07  8.74124133e-08  2.00000000e-01 
 2.10000000e-01  3.26987597e-09  4.57945883e-01  3.43845972e-09  4.57945883e-01  4.57945883e-01  4.57945883e-01  3.54991209e-09  1.57270236e-07  8.74121628e-08  2.10000000e-01 
 2.20000000e-01  3.26987603e-09  4.57945909e-01  3.43845972e-09  4.57945909e-01  4.57945909e-01  4.57945909e-01  3.54991209e-09  1.57270253e-07  8.74121664e-08  2.20000000e-01 
 2.30000000e-01  3.26987597e-09  4.57945903e-01  3.43845972e-09  4.57945903e-01  4.57945903e-01  4.57945903e-01  3.54991209e-09  1.57270242e-07  8.74120296e-08  2.30000000e-01 
 2.40000000e-01  3.26987597e-09  4.57945879e-01  3.43845972e-09  4.57945879e-01  4.57945879e-01  4.57945879e-01  3.54991209e-09  1.57270232e-07  8.74117969e-08  2.40000000e-01 
 2.50000000e-01  3.26987597e-09  4.57945920e-01  3.43845972e-09  4.57945920e-01  4.57945920e-01  4.57945920e-01  3.54991209e-09  1.57270284e-07  8.74117578e-08  2.50000000e-01 
 2.60000000e-01  3.26987597e-09  4.57945900e-01  3.43845972e-09  4.57945899e-01  4.57945899e-01  4.57945900e-01  3.54991203e-09  1.57270245e-07  8.74116282e-08  2.60000000e-01 
 2.70000000e-01  3.26987603e-09  4.57945913e-01  3.43845972e-09  4.57945913e-01  4.57945913e-01  4.57945913e-01  3.54991203e-09  1.57270269e-07  8.74114683e-08  2.70000000e-01 
 2.80000000e-01  3.26987603e-09  4.57945914e-01  3.43845972e-09  4.57945914e-01  4.57945914e-01  4.57945914e-01  3.54991203e-09  1.57270255e-07  8.74114061e-08  2.80000000e-01 
 2.90000000e-01  3.26987597e-09  4.57945892e-01  3.43845972e-09  4.57945892e-01  4.57945892e-01  4.57945892e-01  3.54991209e-09  1.57270231e-07  8.74111130e-08  2.90000000e-01 
 3.00000000e-01  3.26987602e-09  4.57945891e-01  3.43845972e-09  4.57945891e-01  4.57945890e-01  4.57945891e-01  3.54991209e-09  1.57270235e-07  8.74111983e-08  3.00000000e-01 
 3.10000000e-01  3.26987597e-09  4.57945913e-01  3.43845972e-09  4.57945913e-01  4.57945913e-01  4.57945913e-01  3.54991209e-09  1.57270259e-07  8.74109389e-08  3.10000000e-01 
 3.20000000e-01  3.26987597e-09  4.57945898e-01  3.43845972e-09  4.57945897e-01  4.57945897e-01  4.57945898e-01  3.54991209e-09  1.57270239e-07  8.74108679e-08  3.20000000e-01 
 3.30000000e-01  3.26987603e-09  4.57945916e-01  3.43845972e-09  4.57945916e-01  4.57945916e-01  4.57945916e-01  3.54991209e-09  1.57270274e-07  8.74108039e-08  3.30000000e-01 
 3.40000000e-01  3.26987596e-09  4.57945858e-01  3.43845972e-09  4.57945858e-01  4.57945858e-01  4.57945858e-01  3.54991209e-09  1.57270170e-07  8.74105659e-08  3.40000000e-01 
 3.50000000e-01  3.26987602e-09  4.57945889e-01  3.43845972e-09  4.57945889e-01  4.57945889e-01  4.57945889e-01  3.54991209e-09  1.57270231e-07  8.74104984e-08  3.50000000e-01 
 3.60000000e-01  3.26987597e-09  4.57945890e-01  3.43845972e-09  4.57945890e-01  4.57945890e-01  4.57945890e-01  3.54991209e-09  1.57270231e-07  8.74104451e-08  3.60000000e-01 
 3.70000000e-01  3.26987603e-09  4.57945920e-01  3.43845972e-09  4.57945920e-01  4.57945920e-01  4.57945920e-01  3.54991203e-09  1.57270280e-07  8.74104167e-08  3.70000000e-01 
 3.80000000e-01  3.26987602e-09  4.57945898e-01  3.43845972e-09  4.57945897e-01  4.57945897e-01  4.57945897e-01  3.54991209e-09  1.57270249e-07  8.74101360e-08  3.80000000e-01 
 3.90000000e-01  3.26987597e-09  4.57945896e-01  3.43845972e-09  4.57945896e-01  4.57945896e-01  4.57945896e-01  3.54991209e-09  1.57270248e-07  8.74102035e-08  3.90000000e-01 
 4.00000000e-01  3.26987603e-09  4.57945904e-01  3.43845972e-09  4.57945904e-01  4.57945904e-01  4.57945904e-01  3.54991209e-09  1.57270243e-07  8.74101147e-08  4.00000000e-01 
 4.10000000e-01  3.26987603e-09  4.57945906e-01  3.43845972e-09  4.57945906e-01  4.57945906e-01  4.57945906e-01  3.54991209e-09  1.57270255e-07  8.74100152e-08  4.10000000e-01 
 4.20000000e-01  3.26987597e-09  4.57945886e-01  3.43845972e-09  4.57945886e-01  4.57945886e-01  4.57945886e-01  3.54991209e-09  1.57270217e-07  8.74098554e-08  4.20000000e-01 
 4.30000000e-01  3.26987603e-09  4.57945906e-01  3.43845972e-09  4.57945906e-01  4.57945906e-01  4.57945906e-01  3.54991203e-09  1.57270253e-07  8.74098731e-08  4.30000000e-01 
 4.40000000e-01  3.26987602e-09  4.57945898e-01  3.43845972e-09  4.57945898e-01  4.57945898e-01  4.57945898e-01  3.54991203e-09  1.57270239e-07  8.74097559e-08  4.40000000e-01 
 4.50000000e-01  3.26987602e-09  4.57945880e-01  3.43845972e-09  4.57945879e-01  4.57945879e-01  4.57945879e-01  3.54991203e-09  1.57270208e-07  8.74096422e-08  4.50000000e-01 
 4.60000000e-01  3.26987603e-09  4.57945913e-01  3.43845972e-09  4.57945912e-01  4.57945912e-01  4.57945913e-01  3.54991209e-09  1.57270264e-07  8.74097061e-08  4.60000000e-01 
 4.70000000e-01  3.26987597e-09  4.57945884e-01  3.43845972e-09  4.57945884e-01  4.57945884e-01  4.57945884e-01  3.54991209e-09  1.57270220e-07  8.74095178e-08  4.70000000e-01 
 4.80000000e-01  3.26987597e-09  4.57945923e-01  3.43845972e-09  4.57945923e-01  4.57945923e-01  4.57945923e-01  3.54991204e-09  1.57270270e-07  8.74095321e-08  4.80000000e-01 
 4.90000000e-01  3.26987597e-09  4.57945905e-01  3.43845972e-09  4.57945905e-01  4.57945905e-01  4.57945905e-01  3.54991203e-09  1.57270237e-07  8.74094113e-08  4.90000000e-01 
 5.00000000e-01  3.26987597e-09  4.57945912e-01  3.43845972e-09  4.57945911e-01  4.57945911e-01  4.57945911e-01  3.54991203e-09  1.57270263e-07  8.74092869e-08  5.00000000e-01 
 5.10000000e-01  3.26987602e-09  4.57945888e-01  3.43845972e-09  4.57945888e-01  4.57945888e-01  4.57945888e-01  3.54991209e-09  1.57270226e-07  8.74090809e-08  5.10000000e-01 
 5.20000000e-01  3.26987597e-09  4.57945882e-01  3.43845972e-09  4.57945882e-01  4.57945882e-01  4.57945882e-01  3.54991203e-09  1.57270211e-07  8.74091342e-08  5.20000000e-01 
 5.30000000e-01  3.26987603e-09  4.57945912e-01  3.43845972e-09  4.57945912e-01  4.57945912e-01  4.57945912e-01  3.54991209e-09  1.57270269e-07  8.74089991e-08  5.30000000e-01 
 5.40000000e-01  3.26987602e-09  4.57945877e-01  3.43845972e-09  4.57945877e-01  4.57945877e-01  4.57945877e-01  3.54991203e-09  1.57270204e-07  8.74089885e-08  5.40000000e-01 
 5.50000000e-01  3.26987597e-09  4.57945905e-01  3.43845972e-09  4.57945905e-01  4.57945905e-01  4.57945905e-01  3.54991203e-09  1.57270264e-07  8.74089281e-08  5.50000000e-01 
 5.60000000e-01  3.26987597e-09  4.57945895e-01  3.43845972e-09  4.57945895e-01  4.57945895e-01  4.57945895e-01  3.54991209e-09  1.57270227e-07  8.74088641e-08  5.60000000e-01 
 5.70000000e-01  3.26987597e-09  4.57945917e-01  3.43845972e-09  4.57945916e-01  4.57945916e-01  4.57945916e-01  3.54991203e-09  1.57270279e-07  8.74087647e-08  5.70000000e-01 
 5.80000000e-01  3.26987602e-09  4.57945884e-01  3.43845972e-09  4.57945884e-01  4.57945883e-01  4.57945884e-01  3.54991203e-09  1.57270222e-07  8.74086510e-08  5.80000000e-01 
 5.90000000e-01  3.26987602e-09  4.57945895e-01  3.43845972e-09  4.57945895e-01  4.57945895e-01  4.57945895e-01  3.54991209e-09  1.57270241e-07  8.74087362e-08  5.90000000e-01 
 6.00000000e-01  3.26987603e-09  4.57945912e-01  3.43845972e-09  4.57945912e-01  4.57945911e-01  4.57945912e-01  3.54991203e-09  1.57270252e-07  8.74085231e-08  6.00000000e-01 
 6.10000000e-01  3.26987603e-09  4.57945915e-01  3.43845972e-09  4.57945915e-01  4.57945915e-01  4.57945915e-01  3.54991203e-09  1.57270259e-07  8.74086155e-08  6.10000000e-01 
 6.20000000e-01  3.26987602e-09  4.57945886e-01  3.43845972e-09  4.57945886e-01  4.57945886e-01  4.57945886e-01  3.54991209e-09  1.57270229e-07  8.74084805e-08  6.20000000e-01 
 6.30000000e-01  3.26987603e-09  4.57945927e-01  3.43845972e-09  4.57945927e-01  4.57945927e-01  4.57945927e-01  3.54991209e-09  1.57270293e-07  8.74083810e-08  6.30000000e-01 
 6.40000000e-01  3.26987597e-09  4.57945904e-01  3.43845972e-09  4.57945904e-01  4.57945904e-01  4.57945904e-01  3.54991209e-09  1.57270241e-07  8.74083312e-08  6.40000000e-01 
 6.50000000e-01  3.26987597e-09  4.57945895e-01  3.43845972e-09  4.57945895e-01  4.57945895e-01  4.57945895e-01  3.54991209e-09  1.57270242e-07  8.74082033e-08  6.50000000e-01 
 6.60000000e-01  3.26987597e-09  4.57945915e-01  3.43845972e-09  4.57945915e-01  4.57945915e-01  4.57945915e-01  3.54991209e-09  1.57270259e-07  8.74081252e-08  6.60000000e-01 
 6.70000000e-01  3.26987602e-09  4.57945864e-01  3.43845972e-09  4.57945864e-01  4.57945864e-01  4.57945864e-01  3.54991209e-09  1.57270187e-07  8.74079973e-08  6.70000000e-01 
 6.80000000e-01  3.26987597e-09  4.57945896e-01  3.43845972e-09  4.57945896e-01  4.57945895e-01  4.57945896e-01  3.54991209e-09  1.57270262e-07  8.74079404e-08  6.80000000e-01 
 6.90000000e-01  3.26987597e-09  4.57945893e-01  3.43845972e-09  4.57945893e-01  4.57945893e-01  4.57945893e-01  3.54991209e-09  1.57270227e-07  8.74079831e-08  6.90000000e-01 
 7.00000000e-01  3.26987597e-09  4.57945903e-01  3.43845972e-09  4.57945903e-01  4.57945903e-01  4.57945903e-01  3.54991209e-09  1.57270264e-07  8.74077912e-08  7.00000000e-01 
 7.10000000e-01  3.26987597e-09  4.57945885e-01  3.43845972e-09  4.57945885e-01  4.57945885e-01  4.57945885e-01  3.54991209e-09  1.57270221e-07  8.74078125e-08  7.10000000e-01 
 7.20000000e-01  3.26987603e-09  4.57945916e-01  3.43845972e-09  4.57945916e-01  4.57945916e-01  4.57945916e-01  3.54991203e-09  1.57270276e-07  8.74078339e-08  7.20000000e-01 
 7.30000000e-01  3.26987597e-09  4.57945904e-01  3.43845972e-09  4.57945904e-01  4.57945904e-01  4.57945904e-01  3.54991209e-09  1.57270240e-07  8.74077415e-08  7.30000000e-01 
 7.40000000e-01  3.26987597e-09  4.57945913e-01  3.43845972e-09  4.57945913e-01  4.57945913e-01  4.57945913e-01  3.54991209e-09  1.57270260e-07  8.74076207e-08  7.40000000e-01 
 7.50000000e-01  3.26987597e-09  4.57945890e-01  3.43845972e-09  4.57945890e-01  4.57945890e-01  4.57945890e-01  3.54991203e-09  1.57270231e-07  8.74075994e-08  7.50000000e-01 
 7.60000000e-01  3.26987603e-09  4.57945912e-01  3.43845972e-09  4.57945912e-01  4.57945912e-01  4.57945912e-01  3.54991209e-09  1.57270266e-07  8.74075710e-08  7.60000000e-01 
 7.70000000e-01  3.26987602e-09  4.57945899e-01  3.43845972e-09  4.57945899e-01  4.57945899e-01  4.57945899e-01  3.54991209e-09  1.57270231e-07  8.74073791e-08  7.70000000e-01 
 7.80000000e-01  3.26987597e-09  4.57945894e-01  3.43845972e-09  4.57945894e-01  4.57945894e-01  4.57945894e-01  3.54991209e-09  1.57270232e-07  8.74073081e-08  7.80000000e-01 
 7.90000000e-01  3.26987603e-09  4.57945928e-01  3.43845972e-09  4.57945928e-01  4.57945928e-01  4.57945928e-01  3.54991209e-09  1.57270291e-07  8.74073152e-08  7.90000000e-01 
 8.00000000e-01  3.26987597e-09  4.57945899e-01  3.43845972e-09  4.57945899e-01  4.57945899e-01  4.57945899e-01  3.54991209e-09  1.57270232e-07  8.74071020e-08  8.00000000e-01 
 8.10000000e-01  3.26987597e-09  4.57945917e-01  3.43845972e-09  4.57945916e-01  4.57945916e-01  4.57945917e-01  3.54991209e-09  1.57270287e-07  8.74071091e-08  8.10000000e-01 
 8.20000000e-01  3.26987597e-09  4.57945886e-01  3.43845972e-09  4.57945886e-01  4.57945886e-01  4.57945886e-01  3.54991209e-09  1.57270228e-07  8.74069599e-08  8.20000000e-01 
 8.30000000e-01  3.26987603e-09  4.57945925e-01  3.43845972e-09  4.57945925e-01  4.57945925e-01  4.57945925e-01  3.54991209e-09  1.57270287e-07  8.74069528e-08  8.30000000e-01 
 8.40000000e-01  3.26987597e-09  4.57945893e-01  3.43845972e-09  4.57945893e-01  4.57945893e-01  4.57945893e-01  3.54991209e-09  1.57270225e-07  8.74069386e-08  8.40000000e-01 
 8.50000000e-01  3.26987597e-09  4.57945920e-01  3.43845972e-09  4.57945919e-01  4.57945919e-01  4.57945920e-01  3.54991209e-09  1.57270268e-07  8.74068888e-08  8.50000000e-01 
 8.60000000e-01  3.26987602e-09  4.57945888e-01  3.43845972e-09  4.57945888e-01  4.57945888e-01  4.57945888e-01  3.54991203e-09  1.57270222e-07  8.74067752e-08  8.60000000e-01 
 8.70000000e-01  3.26987597e-09  4.57945895e-01  3.43845972e-09  4.57945894e-01  4.57945894e-01  4.57945894e-01  3.54991209e-09  1.57270242e-07  8.74066117e-08  8.70000000e-01 
 8.80000000e-01  3.26987597e-09  4.57945880e-01  3.43845972e-09  4.57945880e-01  4.57945880e-01  4.57945880e-01  3.54991209e-09  1.57270205e-07  8.74065194e-08  8.80000000e-01 
 8.90000000e-01  3.26987597e-09  4.57945874e-01  3.43845972e-09  4.57945874e-01  4.57945874e-01  4.57945874e-01  3.54991203e-09  1.57270210e-07  8.74065123e-08  8.90000000e-01 
 9.00000000e-01  3.26987602e-09  4.57945875e-01  3.43845972e-09  4.57945875e-01  4.57945875e-01  4.57945875e-01  3.54991209e-09  1.57270204e-07  8.74064554e-08  9.00000000e-01 
 9.10000000e-01  3.26987602e-09  4.57945892e-01  3.43845972e-09  4.57945891e-01  4.57945891e-01  4.57945891e-01  3.54991209e-09  1.57270239e-07  8.74063986e-08  9.10000000e-01 
 9.20000000e-01  3.26987603e-09  4.57945909e-01  3.43845972e-09  4.57945908e-01  4.57945908e-01  4.57945909e-01  3.54991209e-09  1.57270257e-07  8.74062991e-08  9.20000000e-01 
 9.30000000e-01  3.26987597e-09  4.57945895e-01  3.43845972e-09  4.57945895e-01  4.57945895e-01  4.57945895e-01  3.54991209e-09  1.57270226e-07  8.74061001e-08  9.30000000e-01 
 9.40000000e-01  3.26987603e-09  4.57945907e-01  3.43845972e-09  4.57945907e-01  4.57945907e-01  4.57945907e-01  3.54991203e-09  1.57270262e-07  8.74061854e-08  9.40000000e-01 
 9.50000000e-01  3.26987602e-09  4.57945899e-01  3.43845972e-09  4.57945899e-01  4.57945899e-01  4.57945899e-01  3.54991203e-09  1.57270251e-07  8.74060930e-08  9.50000000e-01 
 9.60000000e-01  3.26987597e-09  4.57945905e-01  3.43845972e-09  4.57945905e-01  4.57945905e-01  4.57945905e-01  3.54991203e-09  1.57270241e-07  8.74061143e-08  9.60000000e-01 
 9.70000000e-01  3.26987597e-09  4.57945913e-01  3.43845972e-09  4.57945913e-01  4.57945913e-01  4.57945913e-01  3.54991203e-09  1.57270255e-07  8.74060504e-08  9.70000000e-01 
 9.80000000e-01  3.26987602e-09  4.57945898e-01  3.43845972e-09  4.57945898e-01  4.57945898e-01  4.57945898e-01  3.54991209e-09  1.57270241e-07  8.74058941e-08  9.80000000e-01 
 9.90000000e-01  3.26987603e-09  4.57945923e-01  3.43845972e-09  4.57945922e-01  4.57945922e-01  4.57945923e-01  3.54991204e-09  1.57270273e-07  8.74059154e-08  9.90000000e-01 
 1.00000000e+00  3.26987597e-09  4.57945901e-01  3.43845972e-09  4.57945901e-01  4.57945901e-01  4.57945901e-01  3.54991209e-09  1.57270241e-07  8.74056738e-08  1.00000000e+00 
 1.01000000e+00  3.26987602e-09  4.57945898e-01  3.43845972e-09  4.57945898e-01  4.57945898e-01  4.57945898e-01  3.54991209e-09  1.57270267e-07  8.74056880e-08  1.01000000e+00 
 1.02000000e+00  3.26987603e-09  4.57945903e-01  3.43845972e-09  4.57945903e-01  4.57945903e-01  4.57945903e-01  3.54991209e-09  1.57270228e-07  8.74055033e-08  1.02000000e+00 
 1.03000000e+00  3.26987597e-09  4.57945909e-01  3.43845972e-09  4.57945909e-01  4.57945909e-01  4.57945909e-01  3.54991209e-09  1.57270244e-07  8.74054535e-08  1.03000000e+00 
 1.04000000e+00  3.26987602e-09  4.57945886e-01  3.43845972e-09  4.57945886e-01  4.57945886e-01  4.57945886e-01  3.54991203e-09  1.57270219e-07  8.74052901e-08  1.04000000e+00 
 1.05000000e+00  3.26987597e-09  4.57945887e-01  3.43845972e-09  4.57945887e-01  4.57945887e-01  4.57945887e-01  3.54991203e-09  1.57270226e-07  8.74052262e-08  1.05000000e+00 
 1.06000000e+00  3.26987602e-09  4.57945900e-01  3.43845972e-09  4.57945900e-01  4.57945900e-01  4.57945900e-01  3.54991203e-09  1.57270253e-07  8.74051693e-08  1.06000000e+00 
 1.07000000e+00  3.26987602e-09  4.57945892e-01  3.43845972e-09  4.57945892e-01  4.57945892e-01  4.57945892e-01  3.54991209e-09  1.57270228e-07  8.74051551e-08  1.07000000e+00 
 1.08000000e+00  3.26987602e-09  4.57945898e-01  3.43845972e-09  4.57945898e-01  4.57945897e-01  4.57945898e-01  3.54991209e-09  1.57270243e-07  8.74051338e-08  1.08000000e+00 
 1.09000000e+00  3.26987602e-09  4.57945883e-01  3.43845972e-09  4.57945883e-01  4.57945883e-01  4.57945883e-01  3.54991209e-09  1.57270220e-07  8.74049633e-08  1.09000000e+00 
 1.10000000e+00  3.26987597e-09  4.57945879e-01  3.43845972e-09  4.57945879e-01  4.57945879e-01  4.57945879e-01  3.54991209e-09  1.57270217e-07  8.74047572e-08  1.10000000e+00 
