 v-sweep         v(b0)           v(b1)           v(b2)           v(b3)           v(b4)           v(b5)           v(b6)           i(vbias)        i(viout)        v(vout)        
 0.00000000e+00  3.32782615e-09  4.60561497e-01  4.60561498e-01  4.60561497e-01  4.60561497e-01  4.60561497e-01  4.60561497e-01  1.62413314e-07  1.99328126e-07  0.00000000e+00 
 1.00000000e-02  3.32782618e-09  4.60561479e-01  4.60561479e-01  4.60561479e-01  4.60561479e-01  4.60561479e-01  4.60561479e-01  1.62413296e-07  1.99327501e-07  1.00000000e-02 
 2.00000000e-02  3.32782617e-09  4.60561473e-01  4.60561474e-01  4.60561473e-01  4.60561473e-01  4.60561473e-01  4.60561473e-01  1.62413285e-07  1.99327020e-07  2.00000000e-02 
 3.00000000e-02  3.32782612e-09  4.60561475e-01  4.60561476e-01  4.60561475e-01  4.60561475e-01  4.60561475e-01  4.60561475e-01  1.62413289e-07  1.99326512e-07  3.00000000e-02 
 4.00000000e-02  3.32782613e-09  4.60561511e-01  4.60561511e-01  4.60561510e-01  4.60561510e-01  4.60561510e-01  4.60561510e-01  1.62413344e-07  1.99326320e-07  4.00000000e-02 
 5.00000000e-02  3.32782612e-09  4.60561518e-01  4.60561518e-01  4.60561517e-01  4.60561517e-01  4.60561518e-01  4.60561518e-01  1.62413343e-07  1.99325884e-07  5.00000000e-02 
 6.00000000e-02  3.32782618e-09  4.60561491e-01  4.60561491e-01  4.60561491e-01  4.60561491e-01  4.60561491e-01  4.60561491e-01  1.62413308e-07  1.99325346e-07  6.00000000e-02 
 7.00000000e-02  3.32782611e-09  4.60561474e-01  4.60561474e-01  4.60561473e-01  4.60561473e-01  4.60561474e-01  4.60561473e-01  1.62413279e-07  1.99324892e-07  7.00000000e-02 
 8.00000000e-02  3.32782613e-09  4.60561498e-01  4.60561498e-01  4.60561498e-01  4.60561498e-01  4.60561498e-01  4.60561498e-01  1.62413332e-07  1.99324607e-07  8.00000000e-02 
 9.00000000e-02  3.32782618e-09  4.60561527e-01  4.60561528e-01  4.60561527e-01  4.60561527e-01  4.60561527e-01  4.60561527e-01  1.62413351e-07  1.99324426e-07  9.00000000e-02 
 1.00000000e-01  3.32782611e-09  4.60561502e-01  4.60561502e-01  4.60561502e-01  4.60561502e-01  4.60561502e-01  4.60561502e-01  1.62413315e-07  1.99323908e-07  1.00000000e-01 
 1.10000000e-01  3.32782619e-09  4.60561515e-01  4.60561515e-01  4.60561515e-01  4.60561515e-01  4.60561515e-01  4.60561515e-01  1.62413339e-07  1.99323613e-07  1.10000000e-01 
 1.20000000e-01  3.32782611e-09  4.60561518e-01  4.60561518e-01  4.60561518e-01  4.60561518e-01  4.60561518e-01  4.60561518e-01  1.62413352e-07  1.99323326e-07  1.20000000e-01 
 1.30000000e-01  3.32782613e-09  4.60561506e-01  4.60561506e-01  4.60561506e-01  4.60561506e-01  4.60561506e-01  4.60561506e-01  1.62413334e-07  1.99322990e-07  1.30000000e-01 
 1.40000000e-01  3.32782612e-09  4.60561504e-01  4.60561504e-01  4.60561504e-01  4.60561504e-01  4.60561504e-01  4.60561504e-01  1.62413333e-07  1.99322720e-07  1.40000000e-01 
 1.50000000e-01  3.32782612e-09  4.60561490e-01  4.60561490e-01  4.60561490e-01  4.60561490e-01  4.60561490e-01  4.60561490e-01  1.62413307e-07  1.99322258e-07  1.50000000e-01 
 1.60000000e-01  3.32782618e-09  4.60561497e-01  4.60561497e-01  4.60561497e-01  4.60561497e-01  4.60561497e-01  4.60561497e-01  1.62413328e-07  1.99322075e-07  1.60000000e-01 
 1.70000000e-01  3.32782617e-09  4.60561499e-01  4.60561499e-01  4.60561499e-01  4.60561499e-01  4.60561499e-01  4.60561499e-01  1.62413330e-07  1.99321777e-07  1.70000000e-01 
 1.80000000e-01  3.32782617e-09  4.60561494e-01  4.60561494e-01  4.60561494e-01  4.60561494e-01  4.60561494e-01  4.60561494e-01  1.62413312e-07  1.99321597e-07  1.80000000e-01 
 1.90000000e-01  3.32782617e-09  4.60561509e-01  4.60561509e-01  4.60561509e-01  4.60561509e-01  4.60561509e-01  4.60561509e-01  1.62413337e-07  1.99321182e-07  1.90000000e-01 
 2.00000000e-01  3.32782617e-09  4.60561522e-01  4.60561522e-01  4.60561522e-01  4.60561522e-01  4.60561522e-01  4.60561522e-01  1.62413348e-07  1.99321002e-07  2.00000000e-01 
 2.10000000e-01  3.32782617e-09  4.60561486e-01  4.60561486e-01  4.60561486e-01  4.60561486e-01  4.60561486e-01  4.60561486e-01  1.62413289e-07  1.99320633e-07  2.10000000e-01 
 2.20000000e-01  3.32782612e-09  4.60561513e-01  4.60561513e-01  4.60561513e-01  4.60561513e-01  4.60561513e-01  4.60561513e-01  1.62413350e-07  1.99320626e-07  2.20000000e-01 
 2.30000000e-01  3.32782613e-09  4.60561523e-01  4.60561523e-01  4.60561523e-01  4.60561523e-01  4.60561523e-01  4.60561523e-01  1.62413359e-07  1.99320302e-07  2.30000000e-01 
 2.40000000e-01  3.32782618e-09  4.60561483e-01  4.60561483e-01  4.60561483e-01  4.60561483e-01  4.60561483e-01  4.60561483e-01  1.62413292e-07  1.99319832e-07  2.40000000e-01 
 2.50000000e-01  3.32782617e-09  4.60561496e-01  4.60561497e-01  4.60561496e-01  4.60561496e-01  4.60561496e-01  4.60561496e-01  1.62413313e-07  1.99319762e-07  2.50000000e-01 
 2.60000000e-01  3.32782617e-09  4.60561530e-01  4.60561530e-01  4.60561530e-01  4.60561530e-01  4.60561530e-01  4.60561530e-01  1.62413361e-07  1.99319745e-07  2.60000000e-01 
 2.70000000e-01  3.32782617e-09  4.60561510e-01  4.60561511e-01  4.60561510e-01  4.60561510e-01  4.60561510e-01  4.60561510e-01  1.62413347e-07  1.99319386e-07  2.70000000e-01 
 2.80000000e-01  3.32782617e-09  4.60561518e-01  4.60561518e-01  4.60561518e-01  4.60561518e-01  4.60561518e-01  4.60561518e-01  1.62413346e-07  1.99319212e-07  2.80000000e-01 
 2.90000000e-01  3.32782617e-09  4.60561513e-01  4.60561513e-01  4.60561513e-01  4.60561513e-01  4.60561513e-01  4.60561513e-01  1.62413346e-07  1.99319089e-07  2.90000000e-01 
 3.00000000e-01  3.32782617e-09  4.60561515e-01  4.60561515e-01  4.60561515e-01  4.60561515e-01  4.60561515e-01  4.60561515e-01  1.62413347e-07  1.99318748e-07  3.00000000e-01 
 3.10000000e-01  3.32782612e-09  4.60561515e-01  4.60561515e-01  4.60561515e-01  4.60561515e-01  4.60561515e-01  4.60561515e-01  1.62413341e-07  1.99318634e-07  3.10000000e-01 
 3.20000000e-01  3.32782613e-09  4.60561510e-01  4.60561510e-01  4.60561510e-01  4.60561510e-01  4.60561510e-01  4.60561510e-01  1.62413341e-07  1.99318489e-07  3.20000000e-01 
 3.30000000e-01  3.32782612e-09  4.60561515e-01  4.60561515e-01  4.60561515e-01  4.60561515e-01  4.60561515e-01  4.60561515e-01  1.62413350e-07  1.99318158e-07  3.30000000e-01 
 3.40000000e-01  3.32782612e-09  4.60561522e-01  4.60561522e-01  4.60561522e-01  4.60561522e-01  4.60561522e-01  4.60561522e-01  1.62413356e-07  1.99318112e-07  3.40000000e-01 
 3.50000000e-01  3.32782618e-09  4.60561506e-01  4.60561507e-01  4.60561506e-01  4.60561506e-01  4.60561506e-01  4.60561506e-01  1.62413327e-07  1.99317878e-07  3.50000000e-01 
 3.60000000e-01  3.32782617e-09  4.60561495e-01  4.60561495e-01  4.60561494e-01  4.60561495e-01  4.60561495e-01  4.60561495e-01  1.62413323e-07  1.99317562e-07  3.60000000e-01 
 3.70000000e-01  3.32782612e-09  4.60561494e-01  4.60561494e-01  4.60561494e-01  4.60561494e-01  4.60561494e-01  4.60561494e-01  1.62413309e-07  1.99317331e-07  3.70000000e-01 
 3.80000000e-01  3.32782619e-09  4.60561483e-01  4.60561483e-01  4.60561483e-01  4.60561483e-01  4.60561483e-01  4.60561483e-01  1.62413303e-07  1.99317125e-07  3.80000000e-01 
 3.90000000e-01  3.32782617e-09  4.60561499e-01  4.60561499e-01  4.60561499e-01  4.60561499e-01  4.60561499e-01  4.60561499e-01  1.62413326e-07  1.99316911e-07  3.90000000e-01 
 4.00000000e-01  3.32782617e-09  4.60561503e-01  4.60561503e-01  4.60561503e-01  4.60561503e-01  4.60561503e-01  4.60561503e-01  1.62413323e-07  1.99316847e-07  4.00000000e-01 
 4.10000000e-01  3.32782617e-09  4.60561511e-01  4.60561511e-01  4.60561511e-01  4.60561511e-01  4.60561511e-01  4.60561511e-01  1.62413336e-07  1.99316720e-07  4.10000000e-01 
 4.20000000e-01  3.32782617e-09  4.60561512e-01  4.60561512e-01  4.60561512e-01  4.60561512e-01  4.60561512e-01  4.60561512e-01  1.62413330e-07  1.99316624e-07  4.20000000e-01 
 4.30000000e-01  3.32782612e-09  4.60561492e-01  4.60561492e-01  4.60561491e-01  4.60561491e-01  4.60561491e-01  4.60561491e-01  1.62413300e-07  1.99316251e-07  4.30000000e-01 
 4.40000000e-01  3.32782619e-09  4.60561508e-01  4.60561508e-01  4.60561508e-01  4.60561508e-01  4.60561508e-01  4.60561508e-01  1.62413330e-07  1.99316162e-07  4.40000000e-01 
 4.50000000e-01  3.32782617e-09  4.60561496e-01  4.60561496e-01  4.60561496e-01  4.60561496e-01  4.60561496e-01  4.60561496e-01  1.62413315e-07  1.99315931e-07  4.50000000e-01 
 4.60000000e-01  3.32782612e-09  4.60561514e-01  4.60561514e-01  4.60561514e-01  4.60561514e-01  4.60561514e-01  4.60561514e-01  1.62413340e-07  1.99315902e-07  4.60000000e-01 
 4.70000000e-01  3.32782619e-09  4.60561494e-01  4.60561494e-01  4.60561493e-01  4.60561493e-01  4.60561494e-01  4.60561494e-01  1.62413308e-07  1.99315561e-07  4.70000000e-01 
 4.80000000e-01  3.32782617e-09  4.60561488e-01  4.60561489e-01  4.60561488e-01  4.60561488e-01  4.60561488e-01  4.60561488e-01  1.62413294e-07  1.99315455e-07  4.80000000e-01 
 4.90000000e-01  3.32782612e-09  4.60561505e-01  4.60561506e-01  4.60561505e-01  4.60561505e-01  4.60561505e-01  4.60561505e-01  1.62413330e-07  1.99315348e-07  4.90000000e-01 
 5.00000000e-01  3.32782613e-09  4.60561517e-01  4.60561517e-01  4.60561517e-01  4.60561517e-01  4.60561517e-01  4.60561517e-01  1.62413332e-07  1.99315192e-07  5.00000000e-01 
 5.10000000e-01  3.32782618e-09  4.60561523e-01  4.60561523e-01  4.60561523e-01  4.60561523e-01  4.60561523e-01  4.60561523e-01  1.62413361e-07  1.99315068e-07  5.10000000e-01 
 5.20000000e-01  3.32782617e-09  4.60561510e-01  4.60561510e-01  4.60561510e-01  4.60561510e-01  4.60561510e-01  4.60561510e-01  1.62413325e-07  1.99314780e-07  5.20000000e-01 
 5.30000000e-01  3.32782612e-09  4.60561471e-01  4.60561472e-01  4.60561471e-01  4.60561471e-01  4.60561471e-01  4.60561471e-01  1.62413293e-07  1.99314471e-07  5.30000000e-01 
 5.40000000e-01  3.32782613e-09  4.60561489e-01  4.60561489e-01  4.60561488e-01  4.60561488e-01  4.60561489e-01  4.60561489e-01  1.62413314e-07  1.99314332e-07  5.40000000e-01 
 5.50000000e-01  3.32782612e-09  4.60561519e-01  4.60561520e-01  4.60561519e-01  4.60561519e-01  4.60561519e-01  4.60561519e-01  1.62413361e-07  1.99314389e-07  5.50000000e-01 
 5.60000000e-01  3.32782618e-09  4.60561512e-01  4.60561512e-01  4.60561512e-01  4.60561512e-01  4.60561512e-01  4.60561512e-01  1.62413333e-07  1.99314144e-07  5.60000000e-01 
 5.70000000e-01  3.32782611e-09  4.60561515e-01  4.60561515e-01  4.60561515e-01  4.60561515e-01  4.60561515e-01  4.60561515e-01  1.62413338e-07  1.99314041e-07  5.70000000e-01 
 5.80000000e-01  3.32782613e-09  4.60561522e-01  4.60561522e-01  4.60561522e-01  4.60561522e-01  4.60561522e-01  4.60561522e-01  1.62413348e-07  1.99313845e-07  5.80000000e-01 
 5.90000000e-01  3.32782612e-09  4.60561517e-01  4.60561517e-01  4.60561517e-01  4.60561517e-01  4.60561517e-01  4.60561517e-01  1.62413338e-07  1.99313838e-07  5.90000000e-01 
 6.00000000e-01  3.32782612e-09  4.60561516e-01  4.60561516e-01  4.60561516e-01  4.60561516e-01  4.60561516e-01  4.60561516e-01  1.62413350e-07  1.99313625e-07  6.00000000e-01 
 6.10000000e-01  3.32782612e-09  4.60561512e-01  4.60561512e-01  4.60561512e-01  4.60561512e-01  4.60561512e-01  4.60561512e-01  1.62413344e-07  1.99313440e-07  6.10000000e-01 
 6.20000000e-01  3.32782618e-09  4.60561496e-01  4.60561496e-01  4.60561496e-01  4.60561496e-01  4.60561496e-01  4.60561496e-01  1.62413316e-07  1.99313106e-07  6.20000000e-01 
 6.30000000e-01  3.32782617e-09  4.60561516e-01  4.60561516e-01  4.60561515e-01  4.60561515e-01  4.60561516e-01  4.60561516e-01  1.62413342e-07  1.99313007e-07  6.30000000e-01 
 6.40000000e-01  3.32782617e-09  4.60561518e-01  4.60561518e-01  4.60561518e-01  4.60561518e-01  4.60561518e-01  4.60561518e-01  1.62413345e-07  1.99312908e-07  6.40000000e-01 
 6.50000000e-01  3.32782617e-09  4.60561524e-01  4.60561524e-01  4.60561524e-01  4.60561524e-01  4.60561524e-01  4.60561524e-01  1.62413348e-07  1.99312794e-07  6.50000000e-01 
 6.60000000e-01  3.32782612e-09  4.60561508e-01  4.60561508e-01  4.60561508e-01  4.60561508e-01  4.60561508e-01  4.60561508e-01  1.62413327e-07  1.99312410e-07  6.60000000e-01 
 6.70000000e-01  3.32782613e-09  4.60561520e-01  4.60561521e-01  4.60561520e-01  4.60561520e-01  4.60561520e-01  4.60561520e-01  1.62413342e-07  1.99312311e-07  6.70000000e-01 
 6.80000000e-01  3.32782618e-09  4.60561487e-01  4.60561488e-01  4.60561487e-01  4.60561487e-01  4.60561487e-01  4.60561487e-01  1.62413284e-07  1.99312012e-07  6.80000000e-01 
 6.90000000e-01  3.32782617e-09  4.60561470e-01  4.60561470e-01  4.60561470e-01  4.60561470e-01  4.60561470e-01  4.60561470e-01  1.62413272e-07  1.99311629e-07  6.90000000e-01 
 7.00000000e-01  3.32782612e-09  4.60561513e-01  4.60561513e-01  4.60561513e-01  4.60561513e-01  4.60561513e-01  4.60561513e-01  1.62413341e-07  1.99311749e-07  7.00000000e-01 
 7.10000000e-01  3.32782613e-09  4.60561502e-01  4.60561502e-01  4.60561502e-01  4.60561502e-01  4.60561502e-01  4.60561502e-01  1.62413321e-07  1.99311650e-07  7.10000000e-01 
 7.20000000e-01  3.32782612e-09  4.60561501e-01  4.60561501e-01  4.60561500e-01  4.60561500e-01  4.60561501e-01  4.60561500e-01  1.62413313e-07  1.99311351e-07  7.20000000e-01 
 7.30000000e-01  3.32782618e-09  4.60561495e-01  4.60561495e-01  4.60561495e-01  4.60561495e-01  4.60561495e-01  4.60561495e-01  1.62413318e-07  1.99311266e-07  7.30000000e-01 
 7.40000000e-01  3.32782617e-09  4.60561482e-01  4.60561482e-01  4.60561482e-01  4.60561482e-01  4.60561482e-01  4.60561482e-01  1.62413298e-07  1.99310989e-07  7.40000000e-01 
 7.50000000e-01  3.32782617e-09  4.60561515e-01  4.60561515e-01  4.60561515e-01  4.60561515e-01  4.60561515e-01  4.60561515e-01  1.62413329e-07  1.99311039e-07  7.50000000e-01 
 7.60000000e-01  3.32782612e-09  4.60561535e-01  4.60561535e-01  4.60561535e-01  4.60561535e-01  4.60561535e-01  4.60561535e-01  1.62413377e-07  1.99310890e-07  7.60000000e-01 
 7.70000000e-01  3.32782613e-09  4.60561512e-01  4.60561512e-01  4.60561512e-01  4.60561512e-01  4.60561512e-01  4.60561512e-01  1.62413328e-07  1.99310492e-07  7.70000000e-01 
 7.80000000e-01  3.32782612e-09  4.60561500e-01  4.60561500e-01  4.60561500e-01  4.60561500e-01  4.60561500e-01  4.60561500e-01  1.62413324e-07  1.99310342e-07  7.80000000e-01 
 7.90000000e-01  3.32782618e-09  4.60561495e-01  4.60561495e-01  4.60561495e-01  4.60561495e-01  4.60561495e-01  4.60561495e-01  1.62413301e-07  1.99310122e-07  7.90000000e-01 
 8.00000000e-01  3.32782611e-09  4.60561511e-01  4.60561511e-01  4.60561511e-01  4.60561511e-01  4.60561511e-01  4.60561511e-01  1.62413333e-07  1.99309937e-07  8.00000000e-01 
 8.10000000e-01  3.32782619e-09  4.60561483e-01  4.60561483e-01  4.60561483e-01  4.60561483e-01  4.60561483e-01  4.60561483e-01  1.62413298e-07  1.99309667e-07  8.10000000e-01 
 8.20000000e-01  3.32782617e-09  4.60561512e-01  4.60561512e-01  4.60561512e-01  4.60561512e-01  4.60561512e-01  4.60561512e-01  1.62413340e-07  1.99309646e-07  8.20000000e-01 
 8.30000000e-01  3.32782612e-09  4.60561515e-01  4.60561515e-01  4.60561515e-01  4.60561515e-01  4.60561515e-01  4.60561515e-01  1.62413335e-07  1.99309390e-07  8.30000000e-01 
 8.40000000e-01  3.32782619e-09  4.60561512e-01  4.60561512e-01  4.60561512e-01  4.60561512e-01  4.60561512e-01  4.60561512e-01  1.62413333e-07  1.99309284e-07  8.40000000e-01 
 8.50000000e-01  3.32782617e-09  4.60561510e-01  4.60561510e-01  4.60561509e-01  4.60561509e-01  4.60561510e-01  4.60561509e-01  1.62413331e-07  1.99309099e-07  8.50000000e-01 
 8.60000000e-01  3.32782612e-09  4.60561520e-01  4.60561520e-01  4.60561520e-01  4.60561520e-01  4.60561520e-01  4.60561520e-01  1.62413343e-07  1.99308907e-07  8.60000000e-01 
 8.70000000e-01  3.32782619e-09  4.60561508e-01  4.60561509e-01  4.60561508e-01  4.60561508e-01  4.60561508e-01  4.60561508e-01  1.62413323e-07  1.99308623e-07  8.70000000e-01 
 8.80000000e-01  3.32782617e-09  4.60561504e-01  4.60561504e-01  4.60561504e-01  4.60561504e-01  4.60561504e-01  4.60561504e-01  1.62413338e-07  1.99308403e-07  8.80000000e-01 
 8.90000000e-01  3.32782612e-09  4.60561507e-01  4.60561507e-01  4.60561507e-01  4.60561507e-01  4.60561507e-01  4.60561507e-01  1.62413334e-07  1.99308396e-07  8.90000000e-01 
 9.00000000e-01  3.32782613e-09  4.60561535e-01  4.60561535e-01  4.60561535e-01  4.60561535e-01  4.60561535e-01  4.60561535e-01  1.62413374e-07  1.99308204e-07  9.00000000e-01 
 9.10000000e-01  3.32782612e-09  4.60561492e-01  4.60561492e-01  4.60561492e-01  4.60561492e-01  4.60561492e-01  4.60561492e-01  1.62413307e-07  1.99307792e-07  9.10000000e-01 
 9.20000000e-01  3.32782618e-09  4.60561508e-01  4.60561508e-01  4.60561508e-01  4.60561508e-01  4.60561508e-01  4.60561508e-01  1.62413327e-07  1.99307777e-07  9.20000000e-01 
 9.30000000e-01  3.32782617e-09  4.60561515e-01  4.60561515e-01  4.60561515e-01  4.60561515e-01  4.60561515e-01  4.60561515e-01  1.62413337e-07  1.99307614e-07  9.30000000e-01 
 9.40000000e-01  3.32782612e-09  4.60561520e-01  4.60561520e-01  4.60561520e-01  4.60561520e-01  4.60561520e-01  4.60561520e-01  1.62413333e-07  1.99307301e-07  9.40000000e-01 
 9.50000000e-01  3.32782619e-09  4.60561513e-01  4.60561513e-01  4.60561513e-01  4.60561513e-01  4.60561513e-01  4.60561513e-01  1.62413346e-07  1.99307102e-07  9.50000000e-01 
 9.60000000e-01  3.32782617e-09  4.60561508e-01  4.60561508e-01  4.60561507e-01  4.60561508e-01  4.60561508e-01  4.60561508e-01  1.62413341e-07  1.99306911e-07  9.60000000e-01 
 9.70000000e-01  3.32782617e-09  4.60561493e-01  4.60561493e-01  4.60561493e-01  4.60561493e-01  4.60561493e-01  4.60561493e-01  1.62413312e-07  1.99306584e-07  9.70000000e-01 
 9.80000000e-01  3.32782612e-09  4.60561517e-01  4.60561517e-01  4.60561517e-01  4.60561517e-01  4.60561517e-01  4.60561517e-01  1.62413352e-07  1.99306506e-07  9.80000000e-01 
 9.90000000e-01  3.32782613e-09  4.60561517e-01  4.60561517e-01  4.60561517e-01  4.60561517e-01  4.60561517e-01  4.60561517e-01  1.62413344e-07  1.99306214e-07  9.90000000e-01 
 1.00000000e+00  3.32782618e-09  4.60561522e-01  4.60561523e-01  4.60561522e-01  4.60561522e-01  4.60561522e-01  4.60561522e-01  1.62413349e-07  1.99306136e-07  1.00000000e+00 
 1.01000000e+00  3.32782617e-09  4.60561540e-01  4.60561540e-01  4.60561540e-01  4.60561540e-01  4.60561540e-01  4.60561540e-01  1.62413384e-07  1.99305994e-07  1.01000000e+00 
 1.02000000e+00  3.32782612e-09  4.60561506e-01  4.60561506e-01  4.60561506e-01  4.60561506e-01  4.60561506e-01  4.60561506e-01  1.62413333e-07  1.99305653e-07  1.02000000e+00 
 1.03000000e+00  3.32782619e-09  4.60561500e-01  4.60561500e-01  4.60561500e-01  4.60561500e-01  4.60561500e-01  4.60561500e-01  1.62413317e-07  1.99305312e-07  1.03000000e+00 
 1.04000000e+00  3.32782611e-09  4.60561484e-01  4.60561484e-01  4.60561484e-01  4.60561484e-01  4.60561484e-01  4.60561484e-01  1.62413299e-07  1.99305070e-07  1.04000000e+00 
 1.05000000e+00  3.32782613e-09  4.60561522e-01  4.60561522e-01  4.60561522e-01  4.60561522e-01  4.60561522e-01  4.60561522e-01  1.62413355e-07  1.99304871e-07  1.05000000e+00 
 1.06000000e+00  3.32782618e-09  4.60561495e-01  4.60561495e-01  4.60561495e-01  4.60561495e-01  4.60561495e-01  4.60561495e-01  1.62413316e-07  1.99304623e-07  1.06000000e+00 
 1.07000000e+00  3.32782611e-09  4.60561509e-01  4.60561509e-01  4.60561508e-01  4.60561508e-01  4.60561509e-01  4.60561509e-01  1.62413327e-07  1.99304473e-07  1.07000000e+00 
 1.08000000e+00  3.32782613e-09  4.60561522e-01  4.60561522e-01  4.60561522e-01  4.60561522e-01  4.60561522e-01  4.60561522e-01  1.62413351e-07  1.99304289e-07  1.08000000e+00 
 1.09000000e+00  3.32782612e-09  4.60561497e-01  4.60561497e-01  4.60561497e-01  4.60561497e-01  4.60561497e-01  4.60561497e-01  1.62413298e-07  1.99303869e-07  1.09000000e+00 
 1.10000000e+00  3.32782618e-09  4.60561490e-01  4.60561490e-01  4.60561490e-01  4.60561490e-01  4.60561490e-01  4.60561490e-01  1.62413316e-07  1.99303628e-07  1.10000000e+00 
