 v-sweep         v(b0)           v(b1)           v(b2)           v(b3)           v(b4)           v(b5)           v(b6)           i(vbias)        i(viout)        v(vout)        
 0.00000000e+00  3.35211167e-09  4.58515355e-01  3.28927684e-09  4.58515355e-01  3.30653527e-09  3.36635526e-09  4.58515355e-01  1.59325054e-07  1.12649836e-07  0.00000000e+00 
 1.00000000e-02  3.35211164e-09  4.58515352e-01  3.28927686e-09  4.58515352e-01  3.30653530e-09  3.36635523e-09  4.58515352e-01  1.59325052e-07  1.12649413e-07  1.00000000e-02 
 2.00000000e-02  3.35211165e-09  4.58515339e-01  3.28927686e-09  4.58515339e-01  3.30653530e-09  3.36635523e-09  4.58515339e-01  1.59325037e-07  1.12649001e-07  2.00000000e-02 
 3.00000000e-02  3.35211164e-09  4.58515358e-01  3.28927681e-09  4.58515358e-01  3.30653530e-09  3.36635523e-09  4.58515358e-01  1.59325053e-07  1.12648637e-07  3.00000000e-02 
 4.00000000e-02  3.35211165e-09  4.58515374e-01  3.28927688e-09  4.58515374e-01  3.30653530e-09  3.36635523e-09  4.58515374e-01  1.59325064e-07  1.12648301e-07  4.00000000e-02 
 5.00000000e-02  3.35211164e-09  4.58515354e-01  3.28927686e-09  4.58515354e-01  3.30653530e-09  3.36635523e-09  4.58515354e-01  1.59325047e-07  1.12647921e-07  5.00000000e-02 
 6.00000000e-02  3.35211164e-09  4.58515338e-01  3.28927686e-09  4.58515339e-01  3.30653536e-09  3.36635523e-09  4.58515339e-01  1.59325027e-07  1.12647689e-07  6.00000000e-02 
 7.00000000e-02  3.35211164e-09  4.58515342e-01  3.28927686e-09  4.58515342e-01  3.30653530e-09  3.36635523e-09  4.58515342e-01  1.59325039e-07  1.12647206e-07  7.00000000e-02 
 8.00000000e-02  3.35211165e-09  4.58515374e-01  3.28927687e-09  4.58515374e-01  3.30653530e-09  3.36635523e-09  4.58515374e-01  1.59325078e-07  1.12647029e-07  8.00000000e-02 
 9.00000000e-02  3.35211164e-09  4.58515350e-01  3.28927686e-09  4.58515350e-01  3.30653530e-09  3.36635523e-09  4.58515350e-01  1.59325037e-07  1.12646614e-07  9.00000000e-02 
 1.00000000e-01  3.35211164e-09  4.58515334e-01  3.28927686e-09  4.58515335e-01  3.30653530e-09  3.36635523e-09  4.58515335e-01  1.59325009e-07  1.12646453e-07  1.00000000e-01 
 1.10000000e-01  3.35211164e-09  4.58515346e-01  3.28927686e-09  4.58515346e-01  3.30653530e-09  3.36635523e-09  4.58515346e-01  1.59325041e-07  1.12646067e-07  1.10000000e-01 
 1.20000000e-01  3.35211164e-09  4.58515346e-01  3.28927686e-09  4.58515347e-01  3.30653530e-09  3.36635523e-09  4.58515347e-01  1.59325040e-07  1.12645898e-07  1.20000000e-01 
 1.30000000e-01  3.35211164e-09  4.58515356e-01  3.28927686e-09  4.58515356e-01  3.30653530e-09  3.36635523e-09  4.58515356e-01  1.59325057e-07  1.12645600e-07  1.30000000e-01 
 1.40000000e-01  3.35211170e-09  4.58515359e-01  3.28927687e-09  4.58515359e-01  3.30653530e-09  3.36635523e-09  4.58515359e-01  1.59325058e-07  1.12645353e-07  1.40000000e-01 
 1.50000000e-01  3.35211163e-09  4.58515334e-01  3.28927681e-09  4.58515334e-01  3.30653530e-09  3.36635523e-09  4.58515334e-01  1.59325014e-07  1.12645152e-07  1.50000000e-01 
 1.60000000e-01  3.35211165e-09  4.58515348e-01  3.28927688e-09  4.58515348e-01  3.30653530e-09  3.36635523e-09  4.58515348e-01  1.59325054e-07  1.12644960e-07  1.60000000e-01 
 1.70000000e-01  3.35211170e-09  4.58515348e-01  3.28927686e-09  4.58515348e-01  3.30653530e-09  3.36635523e-09  4.58515348e-01  1.59325042e-07  1.12644692e-07  1.70000000e-01 
 1.80000000e-01  3.35211169e-09  4.58515346e-01  3.28927686e-09  4.58515346e-01  3.30653530e-09  3.36635523e-09  4.58515346e-01  1.59325038e-07  1.12644521e-07  1.80000000e-01 
 1.90000000e-01  3.35211164e-09  4.58515351e-01  3.28927686e-09  4.58515351e-01  3.30653530e-09  3.36635523e-09  4.58515351e-01  1.59325048e-07  1.12644289e-07  1.90000000e-01 
 2.00000000e-01  3.35211165e-09  4.58515349e-01  3.28927686e-09  4.58515349e-01  3.30653530e-09  3.36635523e-09  4.58515349e-01  1.59325046e-07  1.12644148e-07  2.00000000e-01 
 2.10000000e-01  3.35211164e-09  4.58515347e-01  3.28927686e-09  4.58515347e-01  3.30653530e-09  3.36635523e-09  4.58515347e-01  1.59325040e-07  1.12644017e-07  2.10000000e-01 
 2.20000000e-01  3.35211164e-09  4.58515338e-01  3.28927686e-09  4.58515338e-01  3.30653530e-09  3.36635523e-09  4.58515338e-01  1.59325034e-07  1.12643811e-07  2.20000000e-01 
 2.30000000e-01  3.35211164e-09  4.58515368e-01  3.28927681e-09  4.58515368e-01  3.30653530e-09  3.36635523e-09  4.58515368e-01  1.59325059e-07  1.12643644e-07  2.30000000e-01 
 2.40000000e-01  3.35211164e-09  4.58515359e-01  3.28927688e-09  4.58515359e-01  3.30653530e-09  3.36635523e-09  4.58515359e-01  1.59325062e-07  1.12643574e-07  2.40000000e-01 
 2.50000000e-01  3.35211164e-09  4.58515362e-01  3.28927686e-09  4.58515362e-01  3.30653530e-09  3.36635523e-09  4.58515362e-01  1.59325052e-07  1.12643349e-07  2.50000000e-01 
 2.60000000e-01  3.35211164e-09  4.58515342e-01  3.28927686e-09  4.58515342e-01  3.30653530e-09  3.36635523e-09  4.58515342e-01  1.59325042e-07  1.12643177e-07  2.60000000e-01 
 2.70000000e-01  3.35211164e-09  4.58515336e-01  3.28927686e-09  4.58515336e-01  3.30653530e-09  3.36635523e-09  4.58515336e-01  1.59325008e-07  1.12643082e-07  2.70000000e-01 
 2.80000000e-01  3.35211164e-09  4.58515338e-01  3.28927686e-09  4.58515338e-01  3.30653530e-09  3.36635523e-09  4.58515338e-01  1.59325029e-07  1.12642875e-07  2.80000000e-01 
 2.90000000e-01  3.35211170e-09  4.58515366e-01  3.28927687e-09  4.58515366e-01  3.30653536e-09  3.36635523e-09  4.58515367e-01  1.59325078e-07  1.12642830e-07  2.90000000e-01 
 3.00000000e-01  3.35211163e-09  4.58515341e-01  3.28927686e-09  4.58515341e-01  3.30653530e-09  3.36635523e-09  4.58515342e-01  1.59325018e-07  1.12642599e-07  3.00000000e-01 
 3.10000000e-01  3.35211165e-09  4.58515349e-01  3.28927686e-09  4.58515349e-01  3.30653530e-09  3.36635523e-09  4.58515349e-01  1.59325058e-07  1.12642628e-07  3.10000000e-01 
 3.20000000e-01  3.35211164e-09  4.58515340e-01  3.28927686e-09  4.58515341e-01  3.30653530e-09  3.36635523e-09  4.58515341e-01  1.59325031e-07  1.12642475e-07  3.20000000e-01 
 3.30000000e-01  3.35211164e-09  4.58515360e-01  3.28927681e-09  4.58515360e-01  3.30653530e-09  3.36635523e-09  4.58515360e-01  1.59325060e-07  1.12642333e-07  3.30000000e-01 
 3.40000000e-01  3.35211164e-09  4.58515349e-01  3.28927688e-09  4.58515349e-01  3.30653530e-09  3.36635523e-09  4.58515349e-01  1.59325046e-07  1.12642276e-07  3.40000000e-01 
 3.50000000e-01  3.35211164e-09  4.58515356e-01  3.28927686e-09  4.58515356e-01  3.30653530e-09  3.36635523e-09  4.58515356e-01  1.59325058e-07  1.12642262e-07  3.50000000e-01 
 3.60000000e-01  3.35211164e-09  4.58515341e-01  3.28927686e-09  4.58515341e-01  3.30653530e-09  3.36635523e-09  4.58515341e-01  1.59325048e-07  1.12641938e-07  3.60000000e-01 
 3.70000000e-01  3.35211164e-09  4.58515355e-01  3.28927686e-09  4.58515355e-01  3.30653530e-09  3.36635523e-09  4.58515355e-01  1.59325053e-07  1.12642002e-07  3.70000000e-01 
 3.80000000e-01  3.35211164e-09  4.58515344e-01  3.28927686e-09  4.58515344e-01  3.30653536e-09  3.36635523e-09  4.58515344e-01  1.59325045e-07  1.12641803e-07  3.80000000e-01 
 3.90000000e-01  3.35211164e-09  4.58515345e-01  3.28927686e-09  4.58515346e-01  3.30653530e-09  3.36635523e-09  4.58515346e-01  1.59325039e-07  1.12641771e-07  3.90000000e-01 
 4.00000000e-01  3.35211164e-09  4.58515331e-01  3.28927686e-09  4.58515331e-01  3.30653530e-09  3.36635523e-09  4.58515331e-01  1.59325015e-07  1.12641594e-07  4.00000000e-01 
 4.10000000e-01  3.35211164e-09  4.58515360e-01  3.28927687e-09  4.58515360e-01  3.30653530e-09  3.36635523e-09  4.58515360e-01  1.59325057e-07  1.12641626e-07  4.10000000e-01 
 4.20000000e-01  3.35211164e-09  4.58515361e-01  3.28927687e-09  4.58515361e-01  3.30653536e-09  3.36635523e-09  4.58515361e-01  1.59325058e-07  1.12641516e-07  4.20000000e-01 
 4.30000000e-01  3.35211164e-09  4.58515350e-01  3.28927686e-09  4.58515350e-01  3.30653530e-09  3.36635523e-09  4.58515350e-01  1.59325056e-07  1.12641345e-07  4.30000000e-01 
 4.40000000e-01  3.35211164e-09  4.58515356e-01  3.28927681e-09  4.58515356e-01  3.30653530e-09  3.36635523e-09  4.58515356e-01  1.59325057e-07  1.12641303e-07  4.40000000e-01 
 4.50000000e-01  3.35211164e-09  4.58515345e-01  3.28927682e-09  4.58515346e-01  3.30653530e-09  3.36635523e-09  4.58515346e-01  1.59325049e-07  1.12641271e-07  4.50000000e-01 
 4.60000000e-01  3.35211164e-09  4.58515354e-01  3.28927681e-09  4.58515354e-01  3.30653530e-09  3.36635523e-09  4.58515354e-01  1.59325042e-07  1.12641256e-07  4.60000000e-01 
 4.70000000e-01  3.35211164e-09  4.58515351e-01  3.28927687e-09  4.58515351e-01  3.30653530e-09  3.36635523e-09  4.58515351e-01  1.59325037e-07  1.12641064e-07  4.70000000e-01 
 4.80000000e-01  3.35211164e-09  4.58515361e-01  3.28927686e-09  4.58515361e-01  3.30653530e-09  3.36635523e-09  4.58515361e-01  1.59325058e-07  1.12640926e-07  4.80000000e-01 
 4.90000000e-01  3.35211164e-09  4.58515351e-01  3.28927686e-09  4.58515351e-01  3.30653530e-09  3.36635523e-09  4.58515351e-01  1.59325053e-07  1.12640837e-07  4.90000000e-01 
 5.00000000e-01  3.35211164e-09  4.58515371e-01  3.28927687e-09  4.58515371e-01  3.30653530e-09  3.36635523e-09  4.58515371e-01  1.59325077e-07  1.12640915e-07  5.00000000e-01 
 5.10000000e-01  3.35211164e-09  4.58515338e-01  3.28927681e-09  4.58515338e-01  3.30653530e-09  3.36635523e-09  4.58515338e-01  1.59325015e-07  1.12640624e-07  5.10000000e-01 
 5.20000000e-01  3.35211165e-09  4.58515372e-01  3.28927682e-09  4.58515373e-01  3.30653530e-09  3.36635523e-09  4.58515373e-01  1.59325092e-07  1.12640677e-07  5.20000000e-01 
 5.30000000e-01  3.35211164e-09  4.58515341e-01  3.28927681e-09  4.58515341e-01  3.30653530e-09  3.36635523e-09  4.58515341e-01  1.59325016e-07  1.12640450e-07  5.30000000e-01 
 5.40000000e-01  3.35211164e-09  4.58515362e-01  3.28927687e-09  4.58515363e-01  3.30653530e-09  3.36635523e-09  4.58515363e-01  1.59325075e-07  1.12640521e-07  5.40000000e-01 
 5.50000000e-01  3.35211164e-09  4.58515343e-01  3.28927686e-09  4.58515344e-01  3.30653530e-09  3.36635523e-09  4.58515344e-01  1.59325038e-07  1.12640372e-07  5.50000000e-01 
 5.60000000e-01  3.35211164e-09  4.58515360e-01  3.28927687e-09  4.58515360e-01  3.30653530e-09  3.36635523e-09  4.58515360e-01  1.59325062e-07  1.12640315e-07  5.60000000e-01 
 5.70000000e-01  3.35211165e-09  4.58515377e-01  3.28927687e-09  4.58515377e-01  3.30653530e-09  3.36635523e-09  4.58515377e-01  1.59325084e-07  1.12640304e-07  5.70000000e-01 
 5.80000000e-01  3.35211164e-09  4.58515341e-01  3.28927686e-09  4.58515341e-01  3.30653530e-09  3.36635523e-09  4.58515341e-01  1.59325022e-07  1.12640137e-07  5.80000000e-01 
 5.90000000e-01  3.35211164e-09  4.58515368e-01  3.28927681e-09  4.58515368e-01  3.30653530e-09  3.36635523e-09  4.58515368e-01  1.59325073e-07  1.12640087e-07  5.90000000e-01 
 6.00000000e-01  3.35211164e-09  4.58515335e-01  3.28927688e-09  4.58515335e-01  3.30653530e-09  3.36635523e-09  4.58515335e-01  1.59325016e-07  1.12640024e-07  6.00000000e-01 
 6.10000000e-01  3.35211164e-09  4.58515365e-01  3.28927686e-09  4.58515365e-01  3.30653530e-09  3.36635523e-09  4.58515365e-01  1.59325068e-07  1.12639860e-07  6.10000000e-01 
 6.20000000e-01  3.35211170e-09  4.58515345e-01  3.28927681e-09  4.58515346e-01  3.30653530e-09  3.36635523e-09  4.58515346e-01  1.59325021e-07  1.12639775e-07  6.20000000e-01 
 6.30000000e-01  3.35211163e-09  4.58515353e-01  3.28927688e-09  4.58515353e-01  3.30653530e-09  3.36635523e-09  4.58515353e-01  1.59325048e-07  1.12639739e-07  6.30000000e-01 
 6.40000000e-01  3.35211165e-09  4.58515342e-01  3.28927686e-09  4.58515342e-01  3.30653536e-09  3.36635523e-09  4.58515342e-01  1.59325028e-07  1.12639640e-07  6.40000000e-01 
 6.50000000e-01  3.35211164e-09  4.58515340e-01  3.28927686e-09  4.58515340e-01  3.30653530e-09  3.36635523e-09  4.58515340e-01  1.59325042e-07  1.12639611e-07  6.50000000e-01 
 6.60000000e-01  3.35211164e-09  4.58515357e-01  3.28927686e-09  4.58515357e-01  3.30653530e-09  3.36635523e-09  4.58515357e-01  1.59325065e-07  1.12639484e-07  6.60000000e-01 
 6.70000000e-01  3.35211164e-09  4.58515336e-01  3.28927686e-09  4.58515337e-01  3.30653530e-09  3.36635523e-09  4.58515337e-01  1.59325029e-07  1.12639363e-07  6.70000000e-01 
 6.80000000e-01  3.35211164e-09  4.58515338e-01  3.28927686e-09  4.58515338e-01  3.30653530e-09  3.36635523e-09  4.58515338e-01  1.59325028e-07  1.12639277e-07  6.80000000e-01 
 6.90000000e-01  3.35211164e-09  4.58515328e-01  3.28927686e-09  4.58515328e-01  3.30653530e-09  3.36635523e-09  4.58515328e-01  1.59325019e-07  1.12639249e-07  6.90000000e-01 
 7.00000000e-01  3.35211164e-09  4.58515350e-01  3.28927686e-09  4.58515350e-01  3.30653530e-09  3.36635523e-09  4.58515350e-01  1.59325050e-07  1.12639214e-07  7.00000000e-01 
 7.10000000e-01  3.35211164e-09  4.58515369e-01  3.28927687e-09  4.58515369e-01  3.30653530e-09  3.36635523e-09  4.58515369e-01  1.59325070e-07  1.12639128e-07  7.10000000e-01 
 7.20000000e-01  3.35211170e-09  4.58515353e-01  3.28927686e-09  4.58515354e-01  3.30653530e-09  3.36635523e-09  4.58515354e-01  1.59325031e-07  1.12639043e-07  7.20000000e-01 
 7.30000000e-01  3.35211169e-09  4.58515360e-01  3.28927687e-09  4.58515360e-01  3.30653530e-09  3.36635523e-09  4.58515360e-01  1.59325052e-07  1.12639057e-07  7.30000000e-01 
 7.40000000e-01  3.35211164e-09  4.58515336e-01  3.28927686e-09  4.58515336e-01  3.30653530e-09  3.36635523e-09  4.58515336e-01  1.59325026e-07  1.12638709e-07  7.40000000e-01 
 7.50000000e-01  3.35211165e-09  4.58515356e-01  3.28927681e-09  4.58515356e-01  3.30653530e-09  3.36635523e-09  4.58515356e-01  1.59325055e-07  1.12638844e-07  7.50000000e-01 
 7.60000000e-01  3.35211164e-09  4.58515354e-01  3.28927682e-09  4.58515354e-01  3.30653530e-09  3.36635523e-09  4.58515354e-01  1.59325049e-07  1.12638745e-07  7.60000000e-01 
 7.70000000e-01  3.35211164e-09  4.58515361e-01  3.28927681e-09  4.58515362e-01  3.30653530e-09  3.36635523e-09  4.58515362e-01  1.59325054e-07  1.12638631e-07  7.70000000e-01 
 7.80000000e-01  3.35211164e-09  4.58515327e-01  3.28927681e-09  4.58515328e-01  3.30653530e-09  3.36635523e-09  4.58515328e-01  1.59325021e-07  1.12638460e-07  7.80000000e-01 
 7.90000000e-01  3.35211164e-09  4.58515361e-01  3.28927681e-09  4.58515361e-01  3.30653530e-09  3.36635523e-09  4.58515361e-01  1.59325064e-07  1.12638361e-07  7.90000000e-01 
 8.00000000e-01  3.35211170e-09  4.58515353e-01  3.28927687e-09  4.58515354e-01  3.30653530e-09  3.36635523e-09  4.58515354e-01  1.59325044e-07  1.12638361e-07  8.00000000e-01 
 8.10000000e-01  3.35211163e-09  4.58515347e-01  3.28927686e-09  4.58515347e-01  3.30653530e-09  3.36635523e-09  4.58515347e-01  1.59325040e-07  1.12638361e-07  8.10000000e-01 
 8.20000000e-01  3.35211165e-09  4.58515361e-01  3.28927687e-09  4.58515361e-01  3.30653530e-09  3.36635523e-09  4.58515361e-01  1.59325064e-07  1.12638332e-07  8.20000000e-01 
 8.30000000e-01  3.35211165e-09  4.58515376e-01  3.28927687e-09  4.58515376e-01  3.30653530e-09  3.36635523e-09  4.58515376e-01  1.59325083e-07  1.12638169e-07  8.30000000e-01 
 8.40000000e-01  3.35211170e-09  4.58515345e-01  3.28927681e-09  4.58515346e-01  3.30653530e-09  3.36635523e-09  4.58515346e-01  1.59325040e-07  1.12637963e-07  8.40000000e-01 
 8.50000000e-01  3.35211169e-09  4.58515356e-01  3.28927682e-09  4.58515356e-01  3.30653530e-09  3.36635523e-09  4.58515356e-01  1.59325057e-07  1.12638070e-07  8.50000000e-01 
 8.60000000e-01  3.35211170e-09  4.58515394e-01  3.28927682e-09  4.58515394e-01  3.30653531e-09  3.36635524e-09  4.58515394e-01  1.59325105e-07  1.12638091e-07  8.60000000e-01 
 8.70000000e-01  3.35211164e-09  4.58515338e-01  3.28927687e-09  4.58515338e-01  3.30653530e-09  3.36635523e-09  4.58515338e-01  1.59325014e-07  1.12637665e-07  8.70000000e-01 
 8.80000000e-01  3.35211165e-09  4.58515348e-01  3.28927686e-09  4.58515348e-01  3.30653530e-09  3.36635523e-09  4.58515348e-01  1.59325040e-07  1.12637679e-07  8.80000000e-01 
 8.90000000e-01  3.35211164e-09  4.58515340e-01  3.28927686e-09  4.58515340e-01  3.30653530e-09  3.36635523e-09  4.58515340e-01  1.59325017e-07  1.12637586e-07  8.90000000e-01 
 9.00000000e-01  3.35211164e-09  4.58515363e-01  3.28927687e-09  4.58515363e-01  3.30653530e-09  3.36635523e-09  4.58515363e-01  1.59325062e-07  1.12637551e-07  9.00000000e-01 
 9.10000000e-01  3.35211164e-09  4.58515332e-01  3.28927686e-09  4.58515333e-01  3.30653530e-09  3.36635523e-09  4.58515333e-01  1.59325020e-07  1.12637387e-07  9.10000000e-01 
 9.20000000e-01  3.35211164e-09  4.58515362e-01  3.28927687e-09  4.58515362e-01  3.30653530e-09  3.36635523e-09  4.58515362e-01  1.59325063e-07  1.12637373e-07  9.20000000e-01 
 9.30000000e-01  3.35211164e-09  4.58515348e-01  3.28927686e-09  4.58515348e-01  3.30653530e-09  3.36635523e-09  4.58515348e-01  1.59325027e-07  1.12637274e-07  9.30000000e-01 
 9.40000000e-01  3.35211170e-09  4.58515361e-01  3.28927687e-09  4.58515361e-01  3.30653530e-09  3.36635523e-09  4.58515361e-01  1.59325069e-07  1.12637224e-07  9.40000000e-01 
 9.50000000e-01  3.35211163e-09  4.58515334e-01  3.28927686e-09  4.58515334e-01  3.30653530e-09  3.36635523e-09  4.58515335e-01  1.59325022e-07  1.12636975e-07  9.50000000e-01 
 9.60000000e-01  3.35211165e-09  4.58515340e-01  3.28927686e-09  4.58515340e-01  3.30653530e-09  3.36635523e-09  4.58515340e-01  1.59325033e-07  1.12637032e-07  9.60000000e-01 
 9.70000000e-01  3.35211164e-09  4.58515354e-01  3.28927686e-09  4.58515354e-01  3.30653530e-09  3.36635523e-09  4.58515354e-01  1.59325053e-07  1.12637004e-07  9.70000000e-01 
 9.80000000e-01  3.35211164e-09  4.58515359e-01  3.28927681e-09  4.58515359e-01  3.30653530e-09  3.36635523e-09  4.58515359e-01  1.59325065e-07  1.12636847e-07  9.80000000e-01 
 9.90000000e-01  3.35211164e-09  4.58515363e-01  3.28927688e-09  4.58515363e-01  3.30653530e-09  3.36635523e-09  4.58515363e-01  1.59325068e-07  1.12636826e-07  9.90000000e-01 
 1.00000000e+00  3.35211164e-09  4.58515367e-01  3.28927680e-09  4.58515368e-01  3.30653530e-09  3.36635523e-09  4.58515368e-01  1.59325068e-07  1.12636748e-07  1.00000000e+00 
 1.01000000e+00  3.35211164e-09  4.58515368e-01  3.28927688e-09  4.58515368e-01  3.30653530e-09  3.36635523e-09  4.58515368e-01  1.59325078e-07  1.12636606e-07  1.01000000e+00 
 1.02000000e+00  3.35211164e-09  4.58515356e-01  3.28927686e-09  4.58515356e-01  3.30653530e-09  3.36635523e-09  4.58515356e-01  1.59325045e-07  1.12636535e-07  1.02000000e+00 
 1.03000000e+00  3.35211164e-09  4.58515357e-01  3.28927686e-09  4.58515357e-01  3.30653530e-09  3.36635523e-09  4.58515357e-01  1.59325051e-07  1.12636435e-07  1.03000000e+00 
 1.04000000e+00  3.35211164e-09  4.58515341e-01  3.28927681e-09  4.58515341e-01  3.30653530e-09  3.36635523e-09  4.58515341e-01  1.59325039e-07  1.12636258e-07  1.04000000e+00 
 1.05000000e+00  3.35211164e-09  4.58515340e-01  3.28927682e-09  4.58515340e-01  3.30653530e-09  3.36635523e-09  4.58515340e-01  1.59325020e-07  1.12636165e-07  1.05000000e+00 
 1.06000000e+00  3.35211164e-09  4.58515348e-01  3.28927681e-09  4.58515348e-01  3.30653530e-09  3.36635523e-09  4.58515348e-01  1.59325043e-07  1.12636073e-07  1.06000000e+00 
 1.07000000e+00  3.35211170e-09  4.58515347e-01  3.28927687e-09  4.58515347e-01  3.30653530e-09  3.36635523e-09  4.58515347e-01  1.59325034e-07  1.12636023e-07  1.07000000e+00 
 1.08000000e+00  3.35211163e-09  4.58515332e-01  3.28927686e-09  4.58515333e-01  3.30653530e-09  3.36635523e-09  4.58515333e-01  1.59325012e-07  1.12635917e-07  1.08000000e+00 
 1.09000000e+00  3.35211165e-09  4.58515359e-01  3.28927681e-09  4.58515359e-01  3.30653530e-09  3.36635523e-09  4.58515359e-01  1.59325063e-07  1.12635938e-07  1.09000000e+00 
 1.10000000e+00  3.35211164e-09  4.58515345e-01  3.28927688e-09  4.58515345e-01  3.30653536e-09  3.36635523e-09  4.58515345e-01  1.59325026e-07  1.12635789e-07  1.10000000e+00 
