 v-sweep         v(b0)           v(b1)           v(b2)           v(b3)           v(b4)           v(b5)           v(b6)           i(vbias)        i(viout)        v(vout)        
 0.00000000e+00  3.25578143e-09  3.21047522e-09  3.19536752e-09  3.13555208e-09  3.21741473e-09  4.59439854e-01  4.59439854e-01  1.63043333e-07  1.48321285e-07  0.00000000e+00 
 1.00000000e-02  3.25578141e-09  3.21047520e-09  3.19536756e-09  3.13555206e-09  3.21741472e-09  4.59439837e-01  4.59439837e-01  1.63043288e-07  1.48320635e-07  1.00000000e-02 
 2.00000000e-02  3.25578141e-09  3.21047525e-09  3.19536750e-09  3.13555206e-09  3.21741472e-09  4.59439841e-01  4.59439841e-01  1.63043319e-07  1.48320316e-07  2.00000000e-02 
 3.00000000e-02  3.25578147e-09  3.21047520e-09  3.19536750e-09  3.13555206e-09  3.21741478e-09  4.59439833e-01  4.59439833e-01  1.63043308e-07  1.48319877e-07  3.00000000e-02 
 4.00000000e-02  3.25578147e-09  3.21047525e-09  3.19536750e-09  3.13555212e-09  3.21741471e-09  4.59439842e-01  4.59439842e-01  1.63043310e-07  1.48319350e-07  4.00000000e-02 
 5.00000000e-02  3.25578147e-09  3.21047525e-09  3.19536750e-09  3.13555206e-09  3.21741473e-09  4.59439853e-01  4.59439853e-01  1.63043322e-07  1.48319156e-07  5.00000000e-02 
 6.00000000e-02  3.25578141e-09  3.21047520e-09  3.19536750e-09  3.13555206e-09  3.21741472e-09  4.59439844e-01  4.59439844e-01  1.63043297e-07  1.48318864e-07  6.00000000e-02 
 7.00000000e-02  3.25578147e-09  3.21047520e-09  3.19536750e-09  3.13555206e-09  3.21741472e-09  4.59439831e-01  4.59439831e-01  1.63043294e-07  1.48318410e-07  7.00000000e-02 
 8.00000000e-02  3.25578147e-09  3.21047520e-09  3.19536750e-09  3.13555206e-09  3.21741472e-09  4.59439852e-01  4.59439852e-01  1.63043316e-07  1.48318117e-07  8.00000000e-02 
 9.00000000e-02  3.25578147e-09  3.21047525e-09  3.19536750e-09  3.13555212e-09  3.21741472e-09  4.59439840e-01  4.59439840e-01  1.63043296e-07  1.48317692e-07  9.00000000e-02 
 1.00000000e-01  3.25578141e-09  3.21047520e-09  3.19536750e-09  3.13555206e-09  3.21741478e-09  4.59439838e-01  4.59439838e-01  1.63043295e-07  1.48317347e-07  1.00000000e-01 
 1.10000000e-01  3.25578147e-09  3.21047520e-09  3.19536750e-09  3.13555206e-09  3.21741476e-09  4.59439831e-01  4.59439831e-01  1.63043286e-07  1.48317037e-07  1.10000000e-01 
 1.20000000e-01  3.25578141e-09  3.21047520e-09  3.19536750e-09  3.13555206e-09  3.21741477e-09  4.59439841e-01  4.59439841e-01  1.63043319e-07  1.48316871e-07  1.20000000e-01 
 1.30000000e-01  3.25578141e-09  3.21047525e-09  3.19536756e-09  3.13555206e-09  3.21741477e-09  4.59439847e-01  4.59439847e-01  1.63043322e-07  1.48316609e-07  1.30000000e-01 
 1.40000000e-01  3.25578147e-09  3.21047525e-09  3.19536750e-09  3.13555206e-09  3.21741477e-09  4.59439832e-01  4.59439832e-01  1.63043270e-07  1.48316321e-07  1.40000000e-01 
 1.50000000e-01  3.25578147e-09  3.21047520e-09  3.19536750e-09  3.13555206e-09  3.21741477e-09  4.59439829e-01  4.59439829e-01  1.63043295e-07  1.48316055e-07  1.50000000e-01 
 1.60000000e-01  3.25578147e-09  3.21047525e-09  3.19536750e-09  3.13555206e-09  3.21741477e-09  4.59439834e-01  4.59439834e-01  1.63043300e-07  1.48315845e-07  1.60000000e-01 
 1.70000000e-01  3.25578141e-09  3.21047525e-09  3.19536750e-09  3.13555206e-09  3.21741471e-09  4.59439840e-01  4.59439840e-01  1.63043311e-07  1.48315614e-07  1.70000000e-01 
 1.80000000e-01  3.25578141e-09  3.21047520e-09  3.19536750e-09  3.13555206e-09  3.21741473e-09  4.59439836e-01  4.59439836e-01  1.63043291e-07  1.48315380e-07  1.80000000e-01 
 1.90000000e-01  3.25578141e-09  3.21047525e-09  3.19536750e-09  3.13555206e-09  3.21741478e-09  4.59439847e-01  4.59439847e-01  1.63043319e-07  1.48315319e-07  1.90000000e-01 
 2.00000000e-01  3.25578141e-09  3.21047525e-09  3.19536750e-09  3.13555206e-09  3.21741477e-09  4.59439844e-01  4.59439844e-01  1.63043311e-07  1.48314919e-07  2.00000000e-01 
 2.10000000e-01  3.25578147e-09  3.21047525e-09  3.19536750e-09  3.13555206e-09  3.21741471e-09  4.59439846e-01  4.59439846e-01  1.63043314e-07  1.48314902e-07  2.10000000e-01 
 2.20000000e-01  3.25578147e-09  3.21047520e-09  3.19536750e-09  3.13555206e-09  3.21741473e-09  4.59439843e-01  4.59439843e-01  1.63043308e-07  1.48314658e-07  2.20000000e-01 
 2.30000000e-01  3.25578147e-09  3.21047520e-09  3.19536750e-09  3.13555206e-09  3.21741478e-09  4.59439857e-01  4.59439857e-01  1.63043333e-07  1.48314525e-07  2.30000000e-01 
 2.40000000e-01  3.25578147e-09  3.21047520e-09  3.19536750e-09  3.13555206e-09  3.21741471e-09  4.59439864e-01  4.59439864e-01  1.63043339e-07  1.48314324e-07  2.40000000e-01 
 2.50000000e-01  3.25578141e-09  3.21047520e-09  3.19536750e-09  3.13555206e-09  3.21741473e-09  4.59439844e-01  4.59439844e-01  1.63043313e-07  1.48314122e-07  2.50000000e-01 
 2.60000000e-01  3.25578141e-09  3.21047525e-09  3.19536750e-09  3.13555206e-09  3.21741478e-09  4.59439855e-01  4.59439855e-01  1.63043331e-07  1.48314045e-07  2.60000000e-01 
 2.70000000e-01  3.25578147e-09  3.21047525e-09  3.19536750e-09  3.13555206e-09  3.21741471e-09  4.59439861e-01  4.59439861e-01  1.63043330e-07  1.48313829e-07  2.70000000e-01 
 2.80000000e-01  3.25578141e-09  3.21047520e-09  3.19536750e-09  3.13555206e-09  3.21741473e-09  4.59439841e-01  4.59439841e-01  1.63043316e-07  1.48313628e-07  2.80000000e-01 
 2.90000000e-01  3.25578147e-09  3.21047525e-09  3.19536750e-09  3.13555206e-09  3.21741472e-09  4.59439842e-01  4.59439842e-01  1.63043316e-07  1.48313433e-07  2.90000000e-01 
 3.00000000e-01  3.25578147e-09  3.21047520e-09  3.19536750e-09  3.13555206e-09  3.21741478e-09  4.59439848e-01  4.59439848e-01  1.63043317e-07  1.48313354e-07  3.00000000e-01 
 3.10000000e-01  3.25578141e-09  3.21047525e-09  3.19536750e-09  3.13555206e-09  3.21741477e-09  4.59439848e-01  4.59439848e-01  1.63043327e-07  1.48313209e-07  3.10000000e-01 
 3.20000000e-01  3.25578147e-09  3.21047520e-09  3.19536756e-09  3.13555206e-09  3.21741477e-09  4.59439858e-01  4.59439858e-01  1.63043323e-07  1.48313170e-07  3.20000000e-01 
 3.30000000e-01  3.25578141e-09  3.21047520e-09  3.19536750e-09  3.13555206e-09  3.21741477e-09  4.59439837e-01  4.59439837e-01  1.63043292e-07  1.48312822e-07  3.30000000e-01 
 3.40000000e-01  3.25578147e-09  3.21047525e-09  3.19536750e-09  3.13555206e-09  3.21741471e-09  4.59439832e-01  4.59439832e-01  1.63043282e-07  1.48312683e-07  3.40000000e-01 
 3.50000000e-01  3.25578147e-09  3.21047520e-09  3.19536750e-09  3.13555206e-09  3.21741478e-09  4.59439853e-01  4.59439853e-01  1.63043323e-07  1.48312676e-07  3.50000000e-01 
 3.60000000e-01  3.25578147e-09  3.21047525e-09  3.19536756e-09  3.13555206e-09  3.21741477e-09  4.59439843e-01  4.59439843e-01  1.63043321e-07  1.48312495e-07  3.60000000e-01 
 3.70000000e-01  3.25578147e-09  3.21047525e-09  3.19536750e-09  3.13555206e-09  3.21741471e-09  4.59439812e-01  4.59439812e-01  1.63043267e-07  1.48312289e-07  3.70000000e-01 
 3.80000000e-01  3.25578147e-09  3.21047520e-09  3.19536750e-09  3.13555206e-09  3.21741473e-09  4.59439840e-01  4.59439840e-01  1.63043299e-07  1.48312228e-07  3.80000000e-01 
 3.90000000e-01  3.25578147e-09  3.21047520e-09  3.19536750e-09  3.13555206e-09  3.21741472e-09  4.59439833e-01  4.59439833e-01  1.63043295e-07  1.48312012e-07  3.90000000e-01 
 4.00000000e-01  3.25578147e-09  3.21047520e-09  3.19536750e-09  3.13555206e-09  3.21741478e-09  4.59439850e-01  4.59439850e-01  1.63043334e-07  1.48312147e-07  4.00000000e-01 
 4.10000000e-01  3.25578147e-09  3.21047520e-09  3.19536756e-09  3.13555206e-09  3.21741477e-09  4.59439851e-01  4.59439851e-01  1.63043324e-07  1.48311951e-07  4.10000000e-01 
 4.20000000e-01  3.25578141e-09  3.21047520e-09  3.19536756e-09  3.13555206e-09  3.21741471e-09  4.59439843e-01  4.59439843e-01  1.63043305e-07  1.48311791e-07  4.20000000e-01 
 4.30000000e-01  3.25578147e-09  3.21047525e-09  3.19536756e-09  3.13555206e-09  3.21741473e-09  4.59439852e-01  4.59439852e-01  1.63043318e-07  1.48311766e-07  4.30000000e-01 
 4.40000000e-01  3.25578147e-09  3.21047520e-09  3.19536750e-09  3.13555206e-09  3.21741478e-09  4.59439856e-01  4.59439856e-01  1.63043314e-07  1.48311599e-07  4.40000000e-01 
 4.50000000e-01  3.25578147e-09  3.21047520e-09  3.19536750e-09  3.13555206e-09  3.21741477e-09  4.59439866e-01  4.59439866e-01  1.63043342e-07  1.48311479e-07  4.50000000e-01 
 4.60000000e-01  3.25578147e-09  3.21047520e-09  3.19536750e-09  3.13555206e-09  3.21741477e-09  4.59439851e-01  4.59439851e-01  1.63043324e-07  1.48311337e-07  4.60000000e-01 
 4.70000000e-01  3.25578147e-09  3.21047520e-09  3.19536750e-09  3.13555206e-09  3.21741477e-09  4.59439843e-01  4.59439843e-01  1.63043304e-07  1.48311130e-07  4.70000000e-01 
 4.80000000e-01  3.25578147e-09  3.21047525e-09  3.19536750e-09  3.13555206e-09  3.21741477e-09  4.59439835e-01  4.59439835e-01  1.63043312e-07  1.48311017e-07  4.80000000e-01 
 4.90000000e-01  3.25578147e-09  3.21047520e-09  3.19536750e-09  3.13555206e-09  3.21741477e-09  4.59439842e-01  4.59439842e-01  1.63043312e-07  1.48310935e-07  4.90000000e-01 
 5.00000000e-01  3.25578141e-09  3.21047520e-09  3.19536750e-09  3.13555206e-09  3.21741477e-09  4.59439826e-01  4.59439826e-01  1.63043288e-07  1.48310768e-07  5.00000000e-01 
 5.10000000e-01  3.25578147e-09  3.21047520e-09  3.19536750e-09  3.13555206e-09  3.21741477e-09  4.59439851e-01  4.59439851e-01  1.63043325e-07  1.48310818e-07  5.10000000e-01 
 5.20000000e-01  3.25578141e-09  3.21047525e-09  3.19536750e-09  3.13555206e-09  3.21741477e-09  4.59439821e-01  4.59439821e-01  1.63043280e-07  1.48310615e-07  5.20000000e-01 
 5.30000000e-01  3.25578141e-09  3.21047525e-09  3.19536750e-09  3.13555206e-09  3.21741477e-09  4.59439857e-01  4.59439857e-01  1.63043318e-07  1.48310640e-07  5.30000000e-01 
 5.40000000e-01  3.25578141e-09  3.21047525e-09  3.19536756e-09  3.13555206e-09  3.21741471e-09  4.59439845e-01  4.59439845e-01  1.63043304e-07  1.48310484e-07  5.40000000e-01 
 5.50000000e-01  3.25578147e-09  3.21047520e-09  3.19536750e-09  3.13555206e-09  3.21741478e-09  4.59439832e-01  4.59439832e-01  1.63043294e-07  1.48310388e-07  5.50000000e-01 
 5.60000000e-01  3.25578141e-09  3.21047525e-09  3.19536750e-09  3.13555206e-09  3.21741471e-09  4.59439828e-01  4.59439828e-01  1.63043287e-07  1.48310164e-07  5.60000000e-01 
 5.70000000e-01  3.25578141e-09  3.21047525e-09  3.19536750e-09  3.13555206e-09  3.21741473e-09  4.59439866e-01  4.59439866e-01  1.63043338e-07  1.48310257e-07  5.70000000e-01 
 5.80000000e-01  3.25578147e-09  3.21047520e-09  3.19536750e-09  3.13555212e-09  3.21741478e-09  4.59439840e-01  4.59439840e-01  1.63043309e-07  1.48309930e-07  5.80000000e-01 
 5.90000000e-01  3.25578147e-09  3.21047525e-09  3.19536750e-09  3.13555206e-09  3.21741477e-09  4.59439860e-01  4.59439860e-01  1.63043336e-07  1.48309951e-07  5.90000000e-01 
 6.00000000e-01  3.25578147e-09  3.21047525e-09  3.19536750e-09  3.13555206e-09  3.21741471e-09  4.59439837e-01  4.59439837e-01  1.63043302e-07  1.48309731e-07  6.00000000e-01 
 6.10000000e-01  3.25578147e-09  3.21047520e-09  3.19536750e-09  3.13555206e-09  3.21741473e-09  4.59439831e-01  4.59439831e-01  1.63043280e-07  1.48309681e-07  6.10000000e-01 
 6.20000000e-01  3.25578141e-09  3.21047525e-09  3.19536756e-09  3.13555206e-09  3.21741472e-09  4.59439839e-01  4.59439839e-01  1.63043318e-07  1.48309582e-07  6.20000000e-01 
 6.30000000e-01  3.25578147e-09  3.21047525e-09  3.19536750e-09  3.13555206e-09  3.21741472e-09  4.59439846e-01  4.59439846e-01  1.63043319e-07  1.48309475e-07  6.30000000e-01 
 6.40000000e-01  3.25578147e-09  3.21047520e-09  3.19536750e-09  3.13555206e-09  3.21741478e-09  4.59439853e-01  4.59439853e-01  1.63043325e-07  1.48309397e-07  6.40000000e-01 
 6.50000000e-01  3.25578141e-09  3.21047525e-09  3.19536750e-09  3.13555212e-09  3.21741476e-09  4.59439831e-01  4.59439831e-01  1.63043284e-07  1.48309212e-07  6.50000000e-01 
 6.60000000e-01  3.25578147e-09  3.21047520e-09  3.19536750e-09  3.13555206e-09  3.21741471e-09  4.59439835e-01  4.59439835e-01  1.63043297e-07  1.48309134e-07  6.60000000e-01 
 6.70000000e-01  3.25578147e-09  3.21047520e-09  3.19536750e-09  3.13555206e-09  3.21741473e-09  4.59439840e-01  4.59439840e-01  1.63043319e-07  1.48308992e-07  6.70000000e-01 
 6.80000000e-01  3.25578141e-09  3.21047525e-09  3.19536750e-09  3.13555206e-09  3.21741478e-09  4.59439843e-01  4.59439843e-01  1.63043306e-07  1.48309020e-07  6.80000000e-01 
 6.90000000e-01  3.25578141e-09  3.21047520e-09  3.19536750e-09  3.13555206e-09  3.21741471e-09  4.59439851e-01  4.59439851e-01  1.63043320e-07  1.48308885e-07  6.90000000e-01 
 7.00000000e-01  3.25578147e-09  3.21047520e-09  3.19536750e-09  3.13555206e-09  3.21741473e-09  4.59439842e-01  4.59439842e-01  1.63043304e-07  1.48308793e-07  7.00000000e-01 
 7.10000000e-01  3.25578147e-09  3.21047520e-09  3.19536750e-09  3.13555206e-09  3.21741472e-09  4.59439834e-01  4.59439834e-01  1.63043291e-07  1.48308601e-07  7.10000000e-01 
 7.20000000e-01  3.25578147e-09  3.21047525e-09  3.19536750e-09  3.13555206e-09  3.21741478e-09  4.59439846e-01  4.59439846e-01  1.63043323e-07  1.48308565e-07  7.20000000e-01 
 7.30000000e-01  3.25578141e-09  3.21047520e-09  3.19536750e-09  3.13555212e-09  3.21741477e-09  4.59439840e-01  4.59439840e-01  1.63043311e-07  1.48308381e-07  7.30000000e-01 
 7.40000000e-01  3.25578141e-09  3.21047520e-09  3.19536750e-09  3.13555206e-09  3.21741477e-09  4.59439850e-01  4.59439850e-01  1.63043330e-07  1.48308359e-07  7.40000000e-01 
 7.50000000e-01  3.25578147e-09  3.21047525e-09  3.19536750e-09  3.13555206e-09  3.21741471e-09  4.59439846e-01  4.59439846e-01  1.63043311e-07  1.48308175e-07  7.50000000e-01 
 7.60000000e-01  3.25578147e-09  3.21047525e-09  3.19536756e-09  3.13555206e-09  3.21741478e-09  4.59439857e-01  4.59439857e-01  1.63043335e-07  1.48308203e-07  7.60000000e-01 
 7.70000000e-01  3.25578141e-09  3.21047525e-09  3.19536750e-09  3.13555206e-09  3.21741476e-09  4.59439836e-01  4.59439836e-01  1.63043312e-07  1.48308089e-07  7.70000000e-01 
 7.80000000e-01  3.25578147e-09  3.21047525e-09  3.19536750e-09  3.13555206e-09  3.21741471e-09  4.59439840e-01  4.59439840e-01  1.63043301e-07  1.48307876e-07  7.80000000e-01 
 7.90000000e-01  3.25578147e-09  3.21047525e-09  3.19536756e-09  3.13555206e-09  3.21741473e-09  4.59439840e-01  4.59439840e-01  1.63043299e-07  1.48307755e-07  7.90000000e-01 
 8.00000000e-01  3.25578141e-09  3.21047525e-09  3.19536750e-09  3.13555206e-09  3.21741478e-09  4.59439859e-01  4.59439859e-01  1.63043330e-07  1.48307592e-07  8.00000000e-01 
 8.10000000e-01  3.25578141e-09  3.21047525e-09  3.19536750e-09  3.13555206e-09  3.21741477e-09  4.59439853e-01  4.59439853e-01  1.63043313e-07  1.48307457e-07  8.10000000e-01 
 8.20000000e-01  3.25578147e-09  3.21047525e-09  3.19536750e-09  3.13555206e-09  3.21741477e-09  4.59439843e-01  4.59439843e-01  1.63043297e-07  1.48307358e-07  8.20000000e-01 
 8.30000000e-01  3.25578147e-09  3.21047520e-09  3.19536750e-09  3.13555206e-09  3.21741471e-09  4.59439838e-01  4.59439838e-01  1.63043305e-07  1.48307215e-07  8.30000000e-01 
 8.40000000e-01  3.25578141e-09  3.21047520e-09  3.19536750e-09  3.13555206e-09  3.21741478e-09  4.59439852e-01  4.59439852e-01  1.63043329e-07  1.48307279e-07  8.40000000e-01 
 8.50000000e-01  3.25578147e-09  3.21047520e-09  3.19536750e-09  3.13555206e-09  3.21741471e-09  4.59439838e-01  4.59439838e-01  1.63043316e-07  1.48307144e-07  8.50000000e-01 
 8.60000000e-01  3.25578141e-09  3.21047520e-09  3.19536756e-09  3.13555206e-09  3.21741473e-09  4.59439830e-01  4.59439830e-01  1.63043280e-07  1.48306853e-07  8.60000000e-01 
 8.70000000e-01  3.25578147e-09  3.21047525e-09  3.19536750e-09  3.13555206e-09  3.21741478e-09  4.59439853e-01  4.59439853e-01  1.63043334e-07  1.48306761e-07  8.70000000e-01 
 8.80000000e-01  3.25578141e-09  3.21047520e-09  3.19536756e-09  3.13555206e-09  3.21741477e-09  4.59439844e-01  4.59439844e-01  1.63043324e-07  1.48306654e-07  8.80000000e-01 
 8.90000000e-01  3.25578141e-09  3.21047525e-09  3.19536750e-09  3.13555206e-09  3.21741477e-09  4.59439832e-01  4.59439832e-01  1.63043293e-07  1.48306562e-07  8.90000000e-01 
 9.00000000e-01  3.25578147e-09  3.21047525e-09  3.19536750e-09  3.13555206e-09  3.21741477e-09  4.59439831e-01  4.59439831e-01  1.63043294e-07  1.48306370e-07  9.00000000e-01 
 9.10000000e-01  3.25578147e-09  3.21047520e-09  3.19536750e-09  3.13555206e-09  3.21741471e-09  4.59439836e-01  4.59439836e-01  1.63043330e-07  1.48306327e-07  9.10000000e-01 
 9.20000000e-01  3.25578147e-09  3.21047520e-09  3.19536756e-09  3.13555206e-09  3.21741478e-09  4.59439856e-01  4.59439856e-01  1.63043333e-07  1.48306249e-07  9.20000000e-01 
 9.30000000e-01  3.25578147e-09  3.21047525e-09  3.19536750e-09  3.13555206e-09  3.21741477e-09  4.59439851e-01  4.59439851e-01  1.63043323e-07  1.48306071e-07  9.30000000e-01 
 9.40000000e-01  3.25578141e-09  3.21047525e-09  3.19536750e-09  3.13555206e-09  3.21741472e-09  4.59439866e-01  4.59439866e-01  1.63043339e-07  1.48305972e-07  9.40000000e-01 
 9.50000000e-01  3.25578141e-09  3.21047520e-09  3.19536756e-09  3.13555206e-09  3.21741478e-09  4.59439839e-01  4.59439839e-01  1.63043304e-07  1.48305745e-07  9.50000000e-01 
 9.60000000e-01  3.25578141e-09  3.21047525e-09  3.19536750e-09  3.13555206e-09  3.21741477e-09  4.59439847e-01  4.59439847e-01  1.63043310e-07  1.48305851e-07  9.60000000e-01 
 9.70000000e-01  3.25578147e-09  3.21047520e-09  3.19536756e-09  3.13555206e-09  3.21741477e-09  4.59439855e-01  4.59439855e-01  1.63043329e-07  1.48305745e-07  9.70000000e-01 
 9.80000000e-01  3.25578141e-09  3.21047520e-09  3.19536750e-09  3.13555206e-09  3.21741477e-09  4.59439842e-01  4.59439842e-01  1.63043319e-07  1.48305574e-07  9.80000000e-01 
 9.90000000e-01  3.25578141e-09  3.21047525e-09  3.19536750e-09  3.13555206e-09  3.21741477e-09  4.59439840e-01  4.59439840e-01  1.63043303e-07  1.48305354e-07  9.90000000e-01 
 1.00000000e+00  3.25578141e-09  3.21047520e-09  3.19536750e-09  3.13555206e-09  3.21741471e-09  4.59439848e-01  4.59439848e-01  1.63043310e-07  1.48305226e-07  1.00000000e+00 
 1.01000000e+00  3.25578147e-09  3.21047525e-09  3.19536750e-09  3.13555206e-09  3.21741473e-09  4.59439824e-01  4.59439824e-01  1.63043274e-07  1.48305077e-07  1.01000000e+00 
 1.02000000e+00  3.25578147e-09  3.21047520e-09  3.19536756e-09  3.13555206e-09  3.21741478e-09  4.59439857e-01  4.59439857e-01  1.63043334e-07  1.48305062e-07  1.02000000e+00 
 1.03000000e+00  3.25578147e-09  3.21047520e-09  3.19536750e-09  3.13555206e-09  3.21741477e-09  4.59439849e-01  4.59439849e-01  1.63043325e-07  1.48304835e-07  1.03000000e+00 
 1.04000000e+00  3.25578147e-09  3.21047525e-09  3.19536750e-09  3.13555206e-09  3.21741471e-09  4.59439846e-01  4.59439846e-01  1.63043298e-07  1.48304693e-07  1.04000000e+00 
 1.05000000e+00  3.25578147e-09  3.21047520e-09  3.19536750e-09  3.13555206e-09  3.21741478e-09  4.59439849e-01  4.59439849e-01  1.63043315e-07  1.48304665e-07  1.05000000e+00 
 1.06000000e+00  3.25578141e-09  3.21047520e-09  3.19536750e-09  3.13555206e-09  3.21741477e-09  4.59439848e-01  4.59439848e-01  1.63043326e-07  1.48304423e-07  1.06000000e+00 
 1.07000000e+00  3.25578141e-09  3.21047520e-09  3.19536750e-09  3.13555206e-09  3.21741477e-09  4.59439839e-01  4.59439839e-01  1.63043307e-07  1.48304387e-07  1.07000000e+00 
 1.08000000e+00  3.25578147e-09  3.21047525e-09  3.19536750e-09  3.13555206e-09  3.21741471e-09  4.59439842e-01  4.59439842e-01  1.63043307e-07  1.48304245e-07  1.08000000e+00 
 1.09000000e+00  3.25578147e-09  3.21047520e-09  3.19536750e-09  3.13555206e-09  3.21741473e-09  4.59439839e-01  4.59439839e-01  1.63043300e-07  1.48303990e-07  1.09000000e+00 
 1.10000000e+00  3.25578147e-09  3.21047520e-09  3.19536750e-09  3.13555206e-09  3.21741472e-09  4.59439856e-01  4.59439856e-01  1.63043331e-07  1.48304053e-07  1.10000000e+00 
