 v-sweep         v(b0)           v(b1)           v(b2)           v(b3)           v(b4)           v(b5)           v(b6)           i(vbias)        i(viout)        v(vout)        
 0.00000000e+00  3.35998470e-09  3.42709332e-09  3.20534964e-09  4.56291941e-01  3.42564251e-09  3.22098483e-09  3.40564961e-09  1.55080041e-07  1.12997057e-08  0.00000000e+00 
 1.00000000e-02  3.35998467e-09  3.42709335e-09  3.20534968e-09  4.56291936e-01  3.42564254e-09  3.22098487e-09  3.40564958e-09  1.55080042e-07  1.12992020e-08  1.00000000e-02 
 2.00000000e-02  3.35998467e-09  3.42709329e-09  3.20534968e-09  4.56291936e-01  3.42564247e-09  3.22098481e-09  3.40564958e-09  1.55080042e-07  1.12988556e-08  2.00000000e-02 
 3.00000000e-02  3.35998462e-09  3.42709330e-09  3.20534968e-09  4.56291952e-01  3.42564255e-09  3.22098487e-09  3.40564958e-09  1.55080071e-07  1.12984211e-08  3.00000000e-02 
 4.00000000e-02  3.35998468e-09  3.42709330e-09  3.20534962e-09  4.56291957e-01  3.42564253e-09  3.22098487e-09  3.40564958e-09  1.55080072e-07  1.12982366e-08  4.00000000e-02 
 5.00000000e-02  3.35998462e-09  3.42709335e-09  3.20534968e-09  4.56291949e-01  3.42564254e-09  3.22098481e-09  3.40564963e-09  1.55080056e-07  1.12977716e-08  5.00000000e-02 
 6.00000000e-02  3.35998468e-09  3.42709335e-09  3.20534968e-09  4.56291958e-01  3.42564254e-09  3.22098481e-09  3.40564958e-09  1.55080070e-07  1.12975189e-08  6.00000000e-02 
 7.00000000e-02  3.35998468e-09  3.42709335e-09  3.20534968e-09  4.56291964e-01  3.42564254e-09  3.22098487e-09  3.40564958e-09  1.55080075e-07  1.12972169e-08  7.00000000e-02 
 8.00000000e-02  3.35998468e-09  3.42709330e-09  3.20534968e-09  4.56291955e-01  3.42564248e-09  3.22098481e-09  3.40564958e-09  1.55080060e-07  1.12969811e-08  8.00000000e-02 
 9.00000000e-02  3.35998467e-09  3.42709329e-09  3.20534968e-09  4.56291928e-01  3.42564249e-09  3.22098481e-09  3.40564957e-09  1.55080026e-07  1.12966037e-08  9.00000000e-02 
 1.00000000e-01  3.35998468e-09  3.42709330e-09  3.20534968e-09  4.56291958e-01  3.42564254e-09  3.22098481e-09  3.40564958e-09  1.55080077e-07  1.12964464e-08  1.00000000e-01 
 1.10000000e-01  3.35998467e-09  3.42709335e-09  3.20534968e-09  4.56291938e-01  3.42564253e-09  3.22098487e-09  3.40564958e-09  1.55080039e-07  1.12961542e-08  1.10000000e-01 
 1.20000000e-01  3.35998468e-09  3.42709335e-09  3.20534968e-09  4.56291954e-01  3.42564248e-09  3.22098481e-09  3.40564958e-09  1.55080057e-07  1.12958691e-08  1.20000000e-01 
 1.30000000e-01  3.35998468e-09  3.42709335e-09  3.20534962e-09  4.56291941e-01  3.42564249e-09  3.22098487e-09  3.40564958e-09  1.55080049e-07  1.12956977e-08  1.30000000e-01 
 1.40000000e-01  3.35998468e-09  3.42709335e-09  3.20534968e-09  4.56291967e-01  3.42564249e-09  3.22098487e-09  3.40564958e-09  1.55080090e-07  1.12954535e-08  1.40000000e-01 
 1.50000000e-01  3.35998467e-09  3.42709335e-09  3.20534968e-09  4.56291923e-01  3.42564248e-09  3.22098486e-09  3.40564957e-09  1.55080007e-07  1.12953487e-08  1.50000000e-01 
 1.60000000e-01  3.35998468e-09  3.42709335e-09  3.20534968e-09  4.56291951e-01  3.42564248e-09  3.22098481e-09  3.40564958e-09  1.55080058e-07  1.12950609e-08  1.60000000e-01 
 1.70000000e-01  3.35998462e-09  3.42709330e-09  3.20534962e-09  4.56291948e-01  3.42564248e-09  3.22098481e-09  3.40564958e-09  1.55080056e-07  1.12949241e-08  1.70000000e-01 
 1.80000000e-01  3.35998468e-09  3.42709335e-09  3.20534968e-09  4.56291944e-01  3.42564248e-09  3.22098487e-09  3.40564963e-09  1.55080070e-07  1.12947554e-08  1.80000000e-01 
 1.90000000e-01  3.35998468e-09  3.42709335e-09  3.20534968e-09  4.56291957e-01  3.42564254e-09  3.22098481e-09  3.40564958e-09  1.55080069e-07  1.12946452e-08  1.90000000e-01 
 2.00000000e-01  3.35998468e-09  3.42709335e-09  3.20534968e-09  4.56291947e-01  3.42564247e-09  3.22098487e-09  3.40564958e-09  1.55080051e-07  1.12945227e-08  2.00000000e-01 
 2.10000000e-01  3.35998468e-09  3.42709335e-09  3.20534962e-09  4.56291943e-01  3.42564249e-09  3.22098481e-09  3.40564958e-09  1.55080057e-07  1.12943308e-08  2.10000000e-01 
 2.20000000e-01  3.35998462e-09  3.42709335e-09  3.20534968e-09  4.56291964e-01  3.42564254e-09  3.22098487e-09  3.40564958e-09  1.55080082e-07  1.12941851e-08  2.20000000e-01 
 2.30000000e-01  3.35998467e-09  3.42709329e-09  3.20534968e-09  4.56291936e-01  3.42564247e-09  3.22098487e-09  3.40564958e-09  1.55080035e-07  1.12941052e-08  2.30000000e-01 
 2.40000000e-01  3.35998467e-09  3.42709335e-09  3.20534968e-09  4.56291933e-01  3.42564249e-09  3.22098486e-09  3.40564958e-09  1.55080042e-07  1.12939560e-08  2.40000000e-01 
 2.50000000e-01  3.35998468e-09  3.42709335e-09  3.20534968e-09  4.56291940e-01  3.42564254e-09  3.22098481e-09  3.40564963e-09  1.55080049e-07  1.12937730e-08  2.50000000e-01 
 2.60000000e-01  3.35998468e-09  3.42709335e-09  3.20534968e-09  4.56291953e-01  3.42564253e-09  3.22098487e-09  3.40564963e-09  1.55080066e-07  1.12937659e-08  2.60000000e-01 
 2.70000000e-01  3.35998468e-09  3.42709330e-09  3.20534968e-09  4.56291945e-01  3.42564248e-09  3.22098481e-09  3.40564963e-09  1.55080061e-07  1.12936416e-08  2.70000000e-01 
 2.80000000e-01  3.35998462e-09  3.42709335e-09  3.20534968e-09  4.56291931e-01  3.42564249e-09  3.22098481e-09  3.40564957e-09  1.55080040e-07  1.12935492e-08  2.80000000e-01 
 2.90000000e-01  3.35998468e-09  3.42709335e-09  3.20534968e-09  4.56291959e-01  3.42564249e-09  3.22098481e-09  3.40564958e-09  1.55080085e-07  1.12934515e-08  2.90000000e-01 
 3.00000000e-01  3.35998468e-09  3.42709335e-09  3.20534968e-09  4.56291945e-01  3.42564248e-09  3.22098487e-09  3.40564958e-09  1.55080037e-07  1.12932668e-08  3.00000000e-01 
 3.10000000e-01  3.35998468e-09  3.42709330e-09  3.20534968e-09  4.56291953e-01  3.42564248e-09  3.22098487e-09  3.40564958e-09  1.55080059e-07  1.12932383e-08  3.10000000e-01 
 3.20000000e-01  3.35998467e-09  3.42709335e-09  3.20534962e-09  4.56291938e-01  3.42564254e-09  3.22098487e-09  3.40564958e-09  1.55080043e-07  1.12931104e-08  3.20000000e-01 
 3.30000000e-01  3.35998467e-09  3.42709335e-09  3.20534968e-09  4.56291932e-01  3.42564253e-09  3.22098481e-09  3.40564958e-09  1.55080043e-07  1.12930358e-08  3.30000000e-01 
 3.40000000e-01  3.35998467e-09  3.42709335e-09  3.20534968e-09  4.56291937e-01  3.42564253e-09  3.22098487e-09  3.40564958e-09  1.55080045e-07  1.12929115e-08  3.40000000e-01 
 3.50000000e-01  3.35998462e-09  3.42709329e-09  3.20534968e-09  4.56291934e-01  3.42564248e-09  3.22098481e-09  3.40564958e-09  1.55080033e-07  1.12929257e-08  3.50000000e-01 
 3.60000000e-01  3.35998468e-09  3.42709335e-09  3.20534968e-09  4.56291959e-01  3.42564249e-09  3.22098487e-09  3.40564963e-09  1.55080069e-07  1.12927836e-08  3.60000000e-01 
 3.70000000e-01  3.35998467e-09  3.42709335e-09  3.20534968e-09  4.56291925e-01  3.42564248e-09  3.22098481e-09  3.40564957e-09  1.55080034e-07  1.12927161e-08  3.70000000e-01 
 3.80000000e-01  3.35998468e-09  3.42709335e-09  3.20534968e-09  4.56291940e-01  3.42564248e-09  3.22098487e-09  3.40564958e-09  1.55080052e-07  1.12926308e-08  3.80000000e-01 
 3.90000000e-01  3.35998468e-09  3.42709330e-09  3.20534968e-09  4.56291944e-01  3.42564254e-09  3.22098487e-09  3.40564963e-09  1.55080060e-07  1.12925953e-08  3.90000000e-01 
 4.00000000e-01  3.35998468e-09  3.42709335e-09  3.20534968e-09  4.56291956e-01  3.42564247e-09  3.22098481e-09  3.40564958e-09  1.55080075e-07  1.12924639e-08  4.00000000e-01 
 4.10000000e-01  3.35998467e-09  3.42709335e-09  3.20534968e-09  4.56291931e-01  3.42564249e-09  3.22098486e-09  3.40564963e-09  1.55080036e-07  1.12923821e-08  4.10000000e-01 
 4.20000000e-01  3.35998467e-09  3.42709335e-09  3.20534968e-09  4.56291929e-01  3.42564248e-09  3.22098481e-09  3.40564957e-09  1.55080032e-07  1.12923182e-08  4.20000000e-01 
 4.30000000e-01  3.35998462e-09  3.42709335e-09  3.20534968e-09  4.56291943e-01  3.42564254e-09  3.22098487e-09  3.40564958e-09  1.55080055e-07  1.12922756e-08  4.30000000e-01 
 4.40000000e-01  3.35998462e-09  3.42709330e-09  3.20534968e-09  4.56291943e-01  3.42564253e-09  3.22098481e-09  3.40564958e-09  1.55080051e-07  1.12921619e-08  4.40000000e-01 
 4.50000000e-01  3.35998468e-09  3.42709335e-09  3.20534968e-09  4.56291944e-01  3.42564253e-09  3.22098487e-09  3.40564958e-09  1.55080045e-07  1.12921619e-08  4.50000000e-01 
 4.60000000e-01  3.35998468e-09  3.42709335e-09  3.20534962e-09  4.56291945e-01  3.42564254e-09  3.22098487e-09  3.40564958e-09  1.55080048e-07  1.12921015e-08  4.60000000e-01 
 4.70000000e-01  3.35998467e-09  3.42709335e-09  3.20534968e-09  4.56291936e-01  3.42564248e-09  3.22098487e-09  3.40564958e-09  1.55080050e-07  1.12920056e-08  4.70000000e-01 
 4.80000000e-01  3.35998467e-09  3.42709335e-09  3.20534968e-09  4.56291923e-01  3.42564255e-09  3.22098481e-09  3.40564957e-09  1.55080026e-07  1.12918705e-08  4.80000000e-01 
 4.90000000e-01  3.35998462e-09  3.42709335e-09  3.20534968e-09  4.56291927e-01  3.42564253e-09  3.22098486e-09  3.40564963e-09  1.55080024e-07  1.12919274e-08  4.90000000e-01 
 5.00000000e-01  3.35998468e-09  3.42709330e-09  3.20534968e-09  4.56291947e-01  3.42564248e-09  3.22098487e-09  3.40564958e-09  1.55080064e-07  1.12918741e-08  5.00000000e-01 
 5.10000000e-01  3.35998462e-09  3.42709335e-09  3.20534968e-09  4.56291929e-01  3.42564249e-09  3.22098481e-09  3.40564957e-09  1.55080028e-07  1.12918386e-08  5.10000000e-01 
 5.20000000e-01  3.35998468e-09  3.42709330e-09  3.20534968e-09  4.56291958e-01  3.42564249e-09  3.22098487e-09  3.40564963e-09  1.55080071e-07  1.12917888e-08  5.20000000e-01 
 5.30000000e-01  3.35998468e-09  3.42709335e-09  3.20534968e-09  4.56291956e-01  3.42564249e-09  3.22098481e-09  3.40564958e-09  1.55080061e-07  1.12916645e-08  5.30000000e-01 
 5.40000000e-01  3.35998468e-09  3.42709335e-09  3.20534968e-09  4.56291964e-01  3.42564249e-09  3.22098481e-09  3.40564958e-09  1.55080076e-07  1.12916361e-08  5.40000000e-01 
 5.50000000e-01  3.35998462e-09  3.42709335e-09  3.20534962e-09  4.56291950e-01  3.42564248e-09  3.22098487e-09  3.40564963e-09  1.55080064e-07  1.12915792e-08  5.50000000e-01 
 5.60000000e-01  3.35998468e-09  3.42709335e-09  3.20534968e-09  4.56291942e-01  3.42564248e-09  3.22098487e-09  3.40564963e-09  1.55080056e-07  1.12915863e-08  5.60000000e-01 
 5.70000000e-01  3.35998468e-09  3.42709335e-09  3.20534968e-09  4.56291957e-01  3.42564249e-09  3.22098481e-09  3.40564958e-09  1.55080075e-07  1.12915366e-08  5.70000000e-01 
 5.80000000e-01  3.35998468e-09  3.42709335e-09  3.20534968e-09  4.56291957e-01  3.42564249e-09  3.22098481e-09  3.40564958e-09  1.55080060e-07  1.12914549e-08  5.80000000e-01 
 5.90000000e-01  3.35998468e-09  3.42709330e-09  3.20534968e-09  4.56291959e-01  3.42564254e-09  3.22098487e-09  3.40564958e-09  1.55080075e-07  1.12913980e-08  5.90000000e-01 
 6.00000000e-01  3.35998467e-09  3.42709335e-09  3.20534968e-09  4.56291937e-01  3.42564253e-09  3.22098481e-09  3.40564958e-09  1.55080028e-07  1.12912772e-08  6.00000000e-01 
 6.10000000e-01  3.35998467e-09  3.42709329e-09  3.20534968e-09  4.56291934e-01  3.42564253e-09  3.22098481e-09  3.40564963e-09  1.55080046e-07  1.12913270e-08  6.10000000e-01 
 6.20000000e-01  3.35998468e-09  3.42709330e-09  3.20534968e-09  4.56291947e-01  3.42564248e-09  3.22098481e-09  3.40564958e-09  1.55080059e-07  1.12913270e-08  6.20000000e-01 
 6.30000000e-01  3.35998468e-09  3.42709335e-09  3.20534968e-09  4.56291945e-01  3.42564255e-09  3.22098487e-09  3.40564958e-09  1.55080063e-07  1.12912133e-08  6.30000000e-01 
 6.40000000e-01  3.35998462e-09  3.42709330e-09  3.20534962e-09  4.56291953e-01  3.42564253e-09  3.22098487e-09  3.40564958e-09  1.55080063e-07  1.12911067e-08  6.40000000e-01 
 6.50000000e-01  3.35998468e-09  3.42709335e-09  3.20534968e-09  4.56291943e-01  3.42564248e-09  3.22098481e-09  3.40564958e-09  1.55080047e-07  1.12911138e-08  6.50000000e-01 
 6.60000000e-01  3.35998467e-09  3.42709335e-09  3.20534968e-09  4.56291929e-01  3.42564249e-09  3.22098486e-09  3.40564963e-09  1.55080032e-07  1.12910996e-08  6.60000000e-01 
 6.70000000e-01  3.35998468e-09  3.42709335e-09  3.20534968e-09  4.56291939e-01  3.42564248e-09  3.22098481e-09  3.40564963e-09  1.55080051e-07  1.12910499e-08  6.70000000e-01 
 6.80000000e-01  3.35998468e-09  3.42709335e-09  3.20534968e-09  4.56291968e-01  3.42564254e-09  3.22098481e-09  3.40564964e-09  1.55080090e-07  1.12909646e-08  6.80000000e-01 
 6.90000000e-01  3.35998468e-09  3.42709335e-09  3.20534968e-09  4.56291962e-01  3.42564253e-09  3.22098487e-09  3.40564958e-09  1.55080078e-07  1.12907586e-08  6.90000000e-01 
 7.00000000e-01  3.35998468e-09  3.42709335e-09  3.20534968e-09  4.56291973e-01  3.42564248e-09  3.22098481e-09  3.40564958e-09  1.55080088e-07  1.12909859e-08  7.00000000e-01 
 7.10000000e-01  3.35998468e-09  3.42709330e-09  3.20534968e-09  4.56291952e-01  3.42564249e-09  3.22098481e-09  3.40564958e-09  1.55080058e-07  1.12908083e-08  7.10000000e-01 
 7.20000000e-01  3.35998468e-09  3.42709335e-09  3.20534968e-09  4.56291960e-01  3.42564254e-09  3.22098481e-09  3.40564958e-09  1.55080069e-07  1.12908225e-08  7.20000000e-01 
 7.30000000e-01  3.35998462e-09  3.42709335e-09  3.20534968e-09  4.56291946e-01  3.42564253e-09  3.22098481e-09  3.40564958e-09  1.55080056e-07  1.12907017e-08  7.30000000e-01 
 7.40000000e-01  3.35998468e-09  3.42709330e-09  3.20534968e-09  4.56291959e-01  3.42564254e-09  3.22098481e-09  3.40564958e-09  1.55080069e-07  1.12905809e-08  7.40000000e-01 
 7.50000000e-01  3.35998468e-09  3.42709335e-09  3.20534962e-09  4.56291954e-01  3.42564248e-09  3.22098487e-09  3.40564958e-09  1.55080087e-07  1.12906022e-08  7.50000000e-01 
 7.60000000e-01  3.35998462e-09  3.42709335e-09  3.20534968e-09  4.56291956e-01  3.42564255e-09  3.22098487e-09  3.40564958e-09  1.55080063e-07  1.12906449e-08  7.60000000e-01 
 7.70000000e-01  3.35998467e-09  3.42709335e-09  3.20534968e-09  4.56291938e-01  3.42564247e-09  3.22098487e-09  3.40564958e-09  1.55080045e-07  1.12904814e-08  7.70000000e-01 
 7.80000000e-01  3.35998467e-09  3.42709329e-09  3.20534968e-09  4.56291928e-01  3.42564249e-09  3.22098486e-09  3.40564957e-09  1.55080027e-07  1.12904033e-08  7.80000000e-01 
 7.90000000e-01  3.35998468e-09  3.42709330e-09  3.20534968e-09  4.56291959e-01  3.42564249e-09  3.22098481e-09  3.40564958e-09  1.55080061e-07  1.12903820e-08  7.90000000e-01 
 8.00000000e-01  3.35998462e-09  3.42709335e-09  3.20534968e-09  4.56291941e-01  3.42564248e-09  3.22098481e-09  3.40564958e-09  1.55080026e-07  1.12904672e-08  8.00000000e-01 
 8.10000000e-01  3.35998467e-09  3.42709335e-09  3.20534968e-09  4.56291933e-01  3.42564254e-09  3.22098481e-09  3.40564958e-09  1.55080026e-07  1.12901759e-08  8.10000000e-01 
 8.20000000e-01  3.35998468e-09  3.42709335e-09  3.20534968e-09  4.56291961e-01  3.42564253e-09  3.22098481e-09  3.40564958e-09  1.55080080e-07  1.12901617e-08  8.20000000e-01 
 8.30000000e-01  3.35998462e-09  3.42709330e-09  3.20534968e-09  4.56291955e-01  3.42564254e-09  3.22098487e-09  3.40564963e-09  1.55080072e-07  1.12901617e-08  8.30000000e-01 
 8.40000000e-01  3.35998468e-09  3.42709335e-09  3.20534968e-09  4.56291954e-01  3.42564254e-09  3.22098487e-09  3.40564958e-09  1.55080059e-07  1.12901262e-08  8.40000000e-01 
 8.50000000e-01  3.35998468e-09  3.42709335e-09  3.20534968e-09  4.56291947e-01  3.42564248e-09  3.22098481e-09  3.40564958e-09  1.55080059e-07  1.12901759e-08  8.50000000e-01 
 8.60000000e-01  3.35998468e-09  3.42709330e-09  3.20534968e-09  4.56291943e-01  3.42564249e-09  3.22098481e-09  3.40564958e-09  1.55080056e-07  1.12900338e-08  8.60000000e-01 
 8.70000000e-01  3.35998468e-09  3.42709335e-09  3.20534962e-09  4.56291981e-01  3.42564249e-09  3.22098481e-09  3.40564958e-09  1.55080114e-07  1.12900338e-08  8.70000000e-01 
 8.80000000e-01  3.35998468e-09  3.42709335e-09  3.20534968e-09  4.56291957e-01  3.42564249e-09  3.22098481e-09  3.40564958e-09  1.55080077e-07  1.12899414e-08  8.80000000e-01 
 8.90000000e-01  3.35998468e-09  3.42709330e-09  3.20534968e-09  4.56291942e-01  3.42564248e-09  3.22098487e-09  3.40564963e-09  1.55080055e-07  1.12900338e-08  8.90000000e-01 
 9.00000000e-01  3.35998468e-09  3.42709335e-09  3.20534968e-09  4.56291941e-01  3.42564248e-09  3.22098481e-09  3.40564958e-09  1.55080061e-07  1.12898562e-08  9.00000000e-01 
 9.10000000e-01  3.35998468e-09  3.42709335e-09  3.20534968e-09  4.56291945e-01  3.42564248e-09  3.22098481e-09  3.40564958e-09  1.55080053e-07  1.12898775e-08  9.10000000e-01 
 9.20000000e-01  3.35998467e-09  3.42709329e-09  3.20534968e-09  4.56291937e-01  3.42564248e-09  3.22098481e-09  3.40564958e-09  1.55080034e-07  1.12897354e-08  9.20000000e-01 
 9.30000000e-01  3.35998467e-09  3.42709335e-09  3.20534968e-09  4.56291924e-01  3.42564248e-09  3.22098481e-09  3.40564957e-09  1.55080030e-07  1.12896501e-08  9.30000000e-01 
 9.40000000e-01  3.35998468e-09  3.42709335e-09  3.20534968e-09  4.56291979e-01  3.42564254e-09  3.22098481e-09  3.40564964e-09  1.55080105e-07  1.12896359e-08  9.40000000e-01 
 9.50000000e-01  3.35998468e-09  3.42709330e-09  3.20534968e-09  4.56291941e-01  3.42564253e-09  3.22098487e-09  3.40564958e-09  1.55080050e-07  1.12895790e-08  9.50000000e-01 
 9.60000000e-01  3.35998467e-09  3.42709329e-09  3.20534968e-09  4.56291935e-01  3.42564248e-09  3.22098487e-09  3.40564958e-09  1.55080034e-07  1.12894654e-08  9.60000000e-01 
 9.70000000e-01  3.35998468e-09  3.42709335e-09  3.20534968e-09  4.56291962e-01  3.42564255e-09  3.22098487e-09  3.40564958e-09  1.55080078e-07  1.12894369e-08  9.70000000e-01 
 9.80000000e-01  3.35998468e-09  3.42709335e-09  3.20534962e-09  4.56291944e-01  3.42564253e-09  3.22098487e-09  3.40564963e-09  1.55080054e-07  1.12894014e-08  9.80000000e-01 
 9.90000000e-01  3.35998468e-09  3.42709335e-09  3.20534968e-09  4.56291946e-01  3.42564248e-09  3.22098487e-09  3.40564958e-09  1.55080057e-07  1.12893659e-08  9.90000000e-01 
 1.00000000e+00  3.35998468e-09  3.42709335e-09  3.20534968e-09  4.56291947e-01  3.42564249e-09  3.22098481e-09  3.40564958e-09  1.55080049e-07  1.12892593e-08  1.00000000e+00 
 1.01000000e+00  3.35998468e-09  3.42709335e-09  3.20534968e-09  4.56291942e-01  3.42564248e-09  3.22098481e-09  3.40564958e-09  1.55080053e-07  1.12893446e-08  1.01000000e+00 
 1.02000000e+00  3.35998468e-09  3.42709335e-09  3.20534968e-09  4.56291948e-01  3.42564248e-09  3.22098487e-09  3.40564958e-09  1.55080059e-07  1.12891883e-08  1.02000000e+00 
 1.03000000e+00  3.35998467e-09  3.42709329e-09  3.20534968e-09  4.56291936e-01  3.42564254e-09  3.22098481e-09  3.40564958e-09  1.55080039e-07  1.12892735e-08  1.03000000e+00 
 1.04000000e+00  3.35998468e-09  3.42709330e-09  3.20534968e-09  4.56291986e-01  3.42564253e-09  3.22098487e-09  3.40564958e-09  1.55080108e-07  1.12891385e-08  1.04000000e+00 
 1.05000000e+00  3.35998468e-09  3.42709335e-09  3.20534968e-09  4.56291981e-01  3.42564254e-09  3.22098481e-09  3.40564958e-09  1.55080107e-07  1.12890035e-08  1.05000000e+00 
 1.06000000e+00  3.35998462e-09  3.42709335e-09  3.20534968e-09  4.56291948e-01  3.42564248e-09  3.22098481e-09  3.40564958e-09  1.55080052e-07  1.12890319e-08  1.06000000e+00 
 1.07000000e+00  3.35998468e-09  3.42709335e-09  3.20534968e-09  4.56291949e-01  3.42564255e-09  3.22098481e-09  3.40564958e-09  1.55080059e-07  1.12889893e-08  1.07000000e+00 
 1.08000000e+00  3.35998468e-09  3.42709335e-09  3.20534968e-09  4.56291952e-01  3.42564253e-09  3.22098481e-09  3.40564958e-09  1.55080064e-07  1.12887761e-08  1.08000000e+00 
 1.09000000e+00  3.35998468e-09  3.42709330e-09  3.20534968e-09  4.56291964e-01  3.42564254e-09  3.22098481e-09  3.40564964e-09  1.55080084e-07  1.12889040e-08  1.09000000e+00 
 1.10000000e+00  3.35998468e-09  3.42709335e-09  3.20534968e-09  4.56291969e-01  3.42564254e-09  3.22098487e-09  3.40564958e-09  1.55080088e-07  1.12888543e-08  1.10000000e+00 
