 v-sweep         v(b0)           v(b1)           v(b2)           v(b3)           v(b4)           v(b5)           v(b6)           i(vbias)        i(viout)        v(vout)        
 0.00000000e+00  4.59502227e-01  4.59502227e-01  3.25620682e-09  3.27474451e-09  4.59502227e-01  4.59502227e-01  3.20801510e-09  1.61917710e-07  8.04032002e-08  0.00000000e+00 
 1.00000000e-02  4.59502247e-01  4.59502247e-01  3.25620681e-09  3.27474455e-09  4.59502247e-01  4.59502247e-01  3.20801508e-09  1.61917720e-07  8.04028959e-08  1.00000000e-02 
 2.00000000e-02  4.59502223e-01  4.59502223e-01  3.25620686e-09  3.27474454e-09  4.59502223e-01  4.59502223e-01  3.20801508e-09  1.61917703e-07  8.04025158e-08  2.00000000e-02 
 3.00000000e-02  4.59502221e-01  4.59502221e-01  3.25620680e-09  3.27474454e-09  4.59502221e-01  4.59502221e-01  3.20801508e-09  1.61917689e-07  8.04020368e-08  3.00000000e-02 
 4.00000000e-02  4.59502229e-01  4.59502229e-01  3.25620680e-09  3.27474454e-09  4.59502229e-01  4.59502229e-01  3.20801508e-09  1.61917702e-07  8.04016822e-08  4.00000000e-02 
 5.00000000e-02  4.59502247e-01  4.59502247e-01  3.25620686e-09  3.27474454e-09  4.59502247e-01  4.59502247e-01  3.20801514e-09  1.61917740e-07  8.04014357e-08  5.00000000e-02 
 6.00000000e-02  4.59502216e-01  4.59502216e-01  3.25620686e-09  3.27474454e-09  4.59502216e-01  4.59502216e-01  3.20801508e-09  1.61917698e-07  8.04011160e-08  6.00000000e-02 
 7.00000000e-02  4.59502210e-01  4.59502210e-01  3.25620686e-09  3.27474454e-09  4.59502210e-01  4.59502210e-01  3.20801508e-09  1.61917668e-07  8.04006954e-08  7.00000000e-02 
 8.00000000e-02  4.59502221e-01  4.59502221e-01  3.25620680e-09  3.27474454e-09  4.59502221e-01  4.59502221e-01  3.20801508e-09  1.61917680e-07  8.04003291e-08  8.00000000e-02 
 9.00000000e-02  4.59502249e-01  4.59502249e-01  3.25620681e-09  3.27474454e-09  4.59502249e-01  4.59502249e-01  3.20801514e-09  1.61917744e-07  8.04002358e-08  9.00000000e-02 
 1.00000000e-01  4.59502232e-01  4.59502232e-01  3.25620680e-09  3.27474454e-09  4.59502232e-01  4.59502232e-01  3.20801508e-09  1.61917710e-07  8.03998130e-08  1.00000000e-01 
 1.10000000e-01  4.59502230e-01  4.59502230e-01  3.25620680e-09  3.27474454e-09  4.59502230e-01  4.59502230e-01  3.20801514e-09  1.61917712e-07  8.03997313e-08  1.10000000e-01 
 1.20000000e-01  4.59502214e-01  4.59502214e-01  3.25620686e-09  3.27474454e-09  4.59502214e-01  4.59502214e-01  3.20801508e-09  1.61917678e-07  8.03993636e-08  1.20000000e-01 
 1.30000000e-01  4.59502236e-01  4.59502236e-01  3.25620680e-09  3.27474454e-09  4.59502236e-01  4.59502236e-01  3.20801514e-09  1.61917700e-07  8.03991744e-08  1.30000000e-01 
 1.40000000e-01  4.59502242e-01  4.59502242e-01  3.25620686e-09  3.27474454e-09  4.59502242e-01  4.59502242e-01  3.20801508e-09  1.61917721e-07  8.03990590e-08  1.40000000e-01 
 1.50000000e-01  4.59502199e-01  4.59502199e-01  3.25620686e-09  3.27474454e-09  4.59502199e-01  4.59502199e-01  3.20801508e-09  1.61917674e-07  8.03987223e-08  1.50000000e-01 
 1.60000000e-01  4.59502198e-01  4.59502198e-01  3.25620686e-09  3.27474454e-09  4.59502198e-01  4.59502198e-01  3.20801514e-09  1.61917660e-07  8.03984186e-08  1.60000000e-01 
 1.70000000e-01  4.59502223e-01  4.59502223e-01  3.25620680e-09  3.27474454e-09  4.59502223e-01  4.59502223e-01  3.20801514e-09  1.61917686e-07  8.03983529e-08  1.70000000e-01 
 1.80000000e-01  4.59502213e-01  4.59502213e-01  3.25620680e-09  3.27474454e-09  4.59502213e-01  4.59502213e-01  3.20801508e-09  1.61917685e-07  8.03982108e-08  1.80000000e-01 
 1.90000000e-01  4.59502204e-01  4.59502204e-01  3.25620680e-09  3.27474460e-09  4.59502204e-01  4.59502204e-01  3.20801514e-09  1.61917666e-07  8.03979212e-08  1.90000000e-01 
 2.00000000e-01  4.59502206e-01  4.59502206e-01  3.25620686e-09  3.27474454e-09  4.59502206e-01  4.59502206e-01  3.20801514e-09  1.61917663e-07  8.03978430e-08  2.00000000e-01 
 2.10000000e-01  4.59502189e-01  4.59502189e-01  3.25620680e-09  3.27474454e-09  4.59502189e-01  4.59502189e-01  3.20801514e-09  1.61917643e-07  8.03975517e-08  2.10000000e-01 
 2.20000000e-01  4.59502205e-01  4.59502205e-01  3.25620680e-09  3.27474454e-09  4.59502205e-01  4.59502205e-01  3.20801514e-09  1.61917657e-07  8.03974629e-08  2.20000000e-01 
 2.30000000e-01  4.59502225e-01  4.59502225e-01  3.25620686e-09  3.27474454e-09  4.59502225e-01  4.59502225e-01  3.20801514e-09  1.61917696e-07  8.03973421e-08  2.30000000e-01 
 2.40000000e-01  4.59502224e-01  4.59502224e-01  3.25620680e-09  3.27474454e-09  4.59502224e-01  4.59502224e-01  3.20801514e-09  1.61917704e-07  8.03971503e-08  2.40000000e-01 
 2.50000000e-01  4.59502209e-01  4.59502209e-01  3.25620680e-09  3.27474454e-09  4.59502209e-01  4.59502209e-01  3.20801514e-09  1.61917672e-07  8.03970952e-08  2.50000000e-01 
 2.60000000e-01  4.59502218e-01  4.59502218e-01  3.25620680e-09  3.27474454e-09  4.59502218e-01  4.59502218e-01  3.20801508e-09  1.61917678e-07  8.03968678e-08  2.60000000e-01 
 2.70000000e-01  4.59502217e-01  4.59502217e-01  3.25620680e-09  3.27474454e-09  4.59502217e-01  4.59502217e-01  3.20801514e-09  1.61917674e-07  8.03967151e-08  2.70000000e-01 
 2.80000000e-01  4.59502205e-01  4.59502205e-01  3.25620680e-09  3.27474454e-09  4.59502205e-01  4.59502205e-01  3.20801514e-09  1.61917681e-07  8.03966476e-08  2.80000000e-01 
 2.90000000e-01  4.59502221e-01  4.59502221e-01  3.25620686e-09  3.27474454e-09  4.59502221e-01  4.59502221e-01  3.20801508e-09  1.61917691e-07  8.03964859e-08  2.90000000e-01 
 3.00000000e-01  4.59502228e-01  4.59502228e-01  3.25620680e-09  3.27474454e-09  4.59502228e-01  4.59502228e-01  3.20801514e-09  1.61917694e-07  8.03964184e-08  3.00000000e-01 
 3.10000000e-01  4.59502224e-01  4.59502224e-01  3.25620686e-09  3.27474454e-09  4.59502224e-01  4.59502224e-01  3.20801514e-09  1.61917702e-07  8.03963687e-08  3.10000000e-01 
 3.20000000e-01  4.59502215e-01  4.59502215e-01  3.25620686e-09  3.27474454e-09  4.59502215e-01  4.59502215e-01  3.20801514e-09  1.61917677e-07  8.03961555e-08  3.20000000e-01 
 3.30000000e-01  4.59502187e-01  4.59502187e-01  3.25620680e-09  3.27474454e-09  4.59502187e-01  4.59502187e-01  3.20801508e-09  1.61917655e-07  8.03959779e-08  3.30000000e-01 
 3.40000000e-01  4.59502204e-01  4.59502204e-01  3.25620686e-09  3.27474454e-09  4.59502204e-01  4.59502204e-01  3.20801514e-09  1.61917651e-07  8.03960560e-08  3.40000000e-01 
 3.50000000e-01  4.59502213e-01  4.59502213e-01  3.25620686e-09  3.27474454e-09  4.59502213e-01  4.59502213e-01  3.20801508e-09  1.61917691e-07  8.03959423e-08  3.50000000e-01 
 3.60000000e-01  4.59502224e-01  4.59502224e-01  3.25620686e-09  3.27474454e-09  4.59502224e-01  4.59502224e-01  3.20801514e-09  1.61917686e-07  8.03958855e-08  3.60000000e-01 
 3.70000000e-01  4.59502217e-01  4.59502217e-01  3.25620686e-09  3.27474454e-09  4.59502217e-01  4.59502217e-01  3.20801514e-09  1.61917697e-07  8.03957221e-08  3.70000000e-01 
 3.80000000e-01  4.59502232e-01  4.59502232e-01  3.25620680e-09  3.27474454e-09  4.59502232e-01  4.59502232e-01  3.20801514e-09  1.61917713e-07  8.03956688e-08  3.80000000e-01 
 3.90000000e-01  4.59502226e-01  4.59502226e-01  3.25620686e-09  3.27474454e-09  4.59502226e-01  4.59502226e-01  3.20801508e-09  1.61917698e-07  8.03955835e-08  3.90000000e-01 
 4.00000000e-01  4.59502213e-01  4.59502213e-01  3.25620680e-09  3.27474454e-09  4.59502213e-01  4.59502213e-01  3.20801508e-09  1.61917675e-07  8.03955160e-08  4.00000000e-01 
 4.10000000e-01  4.59502224e-01  4.59502224e-01  3.25620680e-09  3.27474454e-09  4.59502224e-01  4.59502224e-01  3.20801508e-09  1.61917699e-07  8.03952567e-08  4.10000000e-01 
 4.20000000e-01  4.59502231e-01  4.59502231e-01  3.25620680e-09  3.27474454e-09  4.59502231e-01  4.59502231e-01  3.20801508e-09  1.61917703e-07  8.03952815e-08  4.20000000e-01 
 4.30000000e-01  4.59502230e-01  4.59502230e-01  3.25620686e-09  3.27474454e-09  4.59502230e-01  4.59502230e-01  3.20801514e-09  1.61917712e-07  8.03951963e-08  4.30000000e-01 
 4.40000000e-01  4.59502225e-01  4.59502225e-01  3.25620686e-09  3.27474454e-09  4.59502225e-01  4.59502225e-01  3.20801514e-09  1.61917722e-07  8.03951252e-08  4.40000000e-01 
 4.50000000e-01  4.59502224e-01  4.59502224e-01  3.25620680e-09  3.27474454e-09  4.59502224e-01  4.59502224e-01  3.20801514e-09  1.61917689e-07  8.03950861e-08  4.50000000e-01 
 4.60000000e-01  4.59502226e-01  4.59502226e-01  3.25620680e-09  3.27474454e-09  4.59502226e-01  4.59502226e-01  3.20801514e-09  1.61917698e-07  8.03950009e-08  4.60000000e-01 
 4.70000000e-01  4.59502237e-01  4.59502237e-01  3.25620680e-09  3.27474454e-09  4.59502237e-01  4.59502237e-01  3.20801508e-09  1.61917704e-07  8.03948410e-08  4.70000000e-01 
 4.80000000e-01  4.59502220e-01  4.59502220e-01  3.25620686e-09  3.27474454e-09  4.59502220e-01  4.59502220e-01  3.20801514e-09  1.61917696e-07  8.03947522e-08  4.80000000e-01 
 4.90000000e-01  4.59502221e-01  4.59502221e-01  3.25620680e-09  3.27474454e-09  4.59502221e-01  4.59502221e-01  3.20801514e-09  1.61917686e-07  8.03948979e-08  4.90000000e-01 
 5.00000000e-01  4.59502214e-01  4.59502214e-01  3.25620680e-09  3.27474454e-09  4.59502214e-01  4.59502214e-01  3.20801514e-09  1.61917681e-07  8.03946918e-08  5.00000000e-01 
 5.10000000e-01  4.59502187e-01  4.59502187e-01  3.25620680e-09  3.27474454e-09  4.59502187e-01  4.59502187e-01  3.20801514e-09  1.61917643e-07  8.03944822e-08  5.10000000e-01 
 5.20000000e-01  4.59502185e-01  4.59502185e-01  3.25620680e-09  3.27474454e-09  4.59502185e-01  4.59502185e-01  3.20801514e-09  1.61917650e-07  8.03944893e-08  5.20000000e-01 
 5.30000000e-01  4.59502227e-01  4.59502227e-01  3.25620686e-09  3.27474460e-09  4.59502227e-01  4.59502227e-01  3.20801508e-09  1.61917705e-07  8.03944147e-08  5.30000000e-01 
 5.40000000e-01  4.59502204e-01  4.59502204e-01  3.25620686e-09  3.27474454e-09  4.59502204e-01  4.59502204e-01  3.20801508e-09  1.61917678e-07  8.03944573e-08  5.40000000e-01 
 5.50000000e-01  4.59502227e-01  4.59502227e-01  3.25620686e-09  3.27474454e-09  4.59502227e-01  4.59502227e-01  3.20801514e-09  1.61917693e-07  8.03943223e-08  5.50000000e-01 
 5.60000000e-01  4.59502222e-01  4.59502222e-01  3.25620680e-09  3.27474454e-09  4.59502222e-01  4.59502222e-01  3.20801514e-09  1.61917707e-07  8.03942299e-08  5.60000000e-01 
 5.70000000e-01  4.59502230e-01  4.59502230e-01  3.25620686e-09  3.27474454e-09  4.59502230e-01  4.59502230e-01  3.20801508e-09  1.61917704e-07  8.03941838e-08  5.70000000e-01 
 5.80000000e-01  4.59502227e-01  4.59502227e-01  3.25620680e-09  3.27474454e-09  4.59502227e-01  4.59502227e-01  3.20801514e-09  1.61917707e-07  8.03942228e-08  5.80000000e-01 
 5.90000000e-01  4.59502243e-01  4.59502244e-01  3.25620681e-09  3.27474454e-09  4.59502243e-01  4.59502244e-01  3.20801508e-09  1.61917733e-07  8.03940665e-08  5.90000000e-01 
 6.00000000e-01  4.59502209e-01  4.59502210e-01  3.25620680e-09  3.27474454e-09  4.59502209e-01  4.59502210e-01  3.20801514e-09  1.61917687e-07  8.03939741e-08  6.00000000e-01 
 6.10000000e-01  4.59502196e-01  4.59502196e-01  3.25620686e-09  3.27474454e-09  4.59502196e-01  4.59502196e-01  3.20801508e-09  1.61917661e-07  8.03939386e-08  6.10000000e-01 
 6.20000000e-01  4.59502202e-01  4.59502202e-01  3.25620686e-09  3.27474454e-09  4.59502202e-01  4.59502202e-01  3.20801508e-09  1.61917663e-07  8.03938249e-08  6.20000000e-01 
 6.30000000e-01  4.59502207e-01  4.59502207e-01  3.25620680e-09  3.27474454e-09  4.59502207e-01  4.59502207e-01  3.20801508e-09  1.61917679e-07  8.03937041e-08  6.30000000e-01 
 6.40000000e-01  4.59502201e-01  4.59502201e-01  3.25620686e-09  3.27474454e-09  4.59502201e-01  4.59502201e-01  3.20801508e-09  1.61917675e-07  8.03936402e-08  6.40000000e-01 
 6.50000000e-01  4.59502241e-01  4.59502241e-01  3.25620680e-09  3.27474454e-09  4.59502241e-01  4.59502241e-01  3.20801514e-09  1.61917728e-07  8.03936473e-08  6.50000000e-01 
 6.60000000e-01  4.59502210e-01  4.59502210e-01  3.25620680e-09  3.27474454e-09  4.59502210e-01  4.59502210e-01  3.20801514e-09  1.61917672e-07  8.03936544e-08  6.60000000e-01 
 6.70000000e-01  4.59502182e-01  4.59502182e-01  3.25620680e-09  3.27474454e-09  4.59502182e-01  4.59502182e-01  3.20801508e-09  1.61917635e-07  8.03934626e-08  6.70000000e-01 
 6.80000000e-01  4.59502201e-01  4.59502201e-01  3.25620686e-09  3.27474454e-09  4.59502201e-01  4.59502201e-01  3.20801514e-09  1.61917655e-07  8.03932991e-08  6.80000000e-01 
 6.90000000e-01  4.59502228e-01  4.59502228e-01  3.25620680e-09  3.27474454e-09  4.59502228e-01  4.59502228e-01  3.20801508e-09  1.61917699e-07  8.03933773e-08  6.90000000e-01 
 7.00000000e-01  4.59502211e-01  4.59502211e-01  3.25620680e-09  3.27474460e-09  4.59502211e-01  4.59502211e-01  3.20801514e-09  1.61917675e-07  8.03931854e-08  7.00000000e-01 
 7.10000000e-01  4.59502217e-01  4.59502217e-01  3.25620680e-09  3.27474454e-09  4.59502217e-01  4.59502217e-01  3.20801514e-09  1.61917680e-07  8.03932920e-08  7.10000000e-01 
 7.20000000e-01  4.59502214e-01  4.59502214e-01  3.25620686e-09  3.27474454e-09  4.59502214e-01  4.59502214e-01  3.20801508e-09  1.61917687e-07  8.03931002e-08  7.20000000e-01 
 7.30000000e-01  4.59502227e-01  4.59502228e-01  3.25620686e-09  3.27474460e-09  4.59502227e-01  4.59502228e-01  3.20801514e-09  1.61917691e-07  8.03931286e-08  7.30000000e-01 
 7.40000000e-01  4.59502222e-01  4.59502222e-01  3.25620686e-09  3.27474454e-09  4.59502222e-01  4.59502222e-01  3.20801508e-09  1.61917706e-07  8.03930504e-08  7.40000000e-01 
 7.50000000e-01  4.59502200e-01  4.59502200e-01  3.25620680e-09  3.27474454e-09  4.59502200e-01  4.59502200e-01  3.20801514e-09  1.61917650e-07  8.03929296e-08  7.50000000e-01 
 7.60000000e-01  4.59502212e-01  4.59502212e-01  3.25620680e-09  3.27474454e-09  4.59502212e-01  4.59502212e-01  3.20801508e-09  1.61917680e-07  8.03929154e-08  7.60000000e-01 
 7.70000000e-01  4.59502237e-01  4.59502237e-01  3.25620686e-09  3.27474454e-09  4.59502236e-01  4.59502237e-01  3.20801514e-09  1.61917715e-07  8.03928586e-08  7.70000000e-01 
 7.80000000e-01  4.59502238e-01  4.59502238e-01  3.25620680e-09  3.27474454e-09  4.59502238e-01  4.59502238e-01  3.20801514e-09  1.61917732e-07  8.03928089e-08  7.80000000e-01 
 7.90000000e-01  4.59502240e-01  4.59502240e-01  3.25620680e-09  3.27474454e-09  4.59502240e-01  4.59502240e-01  3.20801514e-09  1.61917728e-07  8.03927094e-08  7.90000000e-01 
 8.00000000e-01  4.59502215e-01  4.59502215e-01  3.25620680e-09  3.27474454e-09  4.59502215e-01  4.59502215e-01  3.20801514e-09  1.61917699e-07  8.03926810e-08  8.00000000e-01 
 8.10000000e-01  4.59502237e-01  4.59502237e-01  3.25620680e-09  3.27474454e-09  4.59502237e-01  4.59502237e-01  3.20801508e-09  1.61917711e-07  8.03925317e-08  8.10000000e-01 
 8.20000000e-01  4.59502223e-01  4.59502223e-01  3.25620686e-09  3.27474454e-09  4.59502223e-01  4.59502223e-01  3.20801508e-09  1.61917703e-07  8.03924038e-08  8.20000000e-01 
 8.30000000e-01  4.59502210e-01  4.59502210e-01  3.25620680e-09  3.27474454e-09  4.59502210e-01  4.59502210e-01  3.20801514e-09  1.61917683e-07  8.03924394e-08  8.30000000e-01 
 8.40000000e-01  4.59502235e-01  4.59502235e-01  3.25620686e-09  3.27474454e-09  4.59502235e-01  4.59502235e-01  3.20801508e-09  1.61917712e-07  8.03924323e-08  8.40000000e-01 
 8.50000000e-01  4.59502214e-01  4.59502214e-01  3.25620680e-09  3.27474454e-09  4.59502214e-01  4.59502214e-01  3.20801514e-09  1.61917682e-07  8.03923612e-08  8.50000000e-01 
 8.60000000e-01  4.59502237e-01  4.59502237e-01  3.25620680e-09  3.27474454e-09  4.59502237e-01  4.59502237e-01  3.20801514e-09  1.61917695e-07  8.03922049e-08  8.60000000e-01 
 8.70000000e-01  4.59502232e-01  4.59502232e-01  3.25620680e-09  3.27474454e-09  4.59502232e-01  4.59502232e-01  3.20801514e-09  1.61917720e-07  8.03922120e-08  8.70000000e-01 
 8.80000000e-01  4.59502223e-01  4.59502223e-01  3.25620680e-09  3.27474454e-09  4.59502223e-01  4.59502223e-01  3.20801514e-09  1.61917692e-07  8.03919846e-08  8.80000000e-01 
 8.90000000e-01  4.59502236e-01  4.59502236e-01  3.25620686e-09  3.27474454e-09  4.59502236e-01  4.59502236e-01  3.20801508e-09  1.61917716e-07  8.03920486e-08  8.90000000e-01 
 9.00000000e-01  4.59502215e-01  4.59502215e-01  3.25620686e-09  3.27474454e-09  4.59502215e-01  4.59502215e-01  3.20801514e-09  1.61917691e-07  8.03918496e-08  9.00000000e-01 
 9.10000000e-01  4.59502197e-01  4.59502197e-01  3.25620686e-09  3.27474454e-09  4.59502197e-01  4.59502197e-01  3.20801514e-09  1.61917646e-07  8.03918923e-08  9.10000000e-01 
 9.20000000e-01  4.59502186e-01  4.59502186e-01  3.25620686e-09  3.27474454e-09  4.59502186e-01  4.59502186e-01  3.20801514e-09  1.61917649e-07  8.03916222e-08  9.20000000e-01 
 9.30000000e-01  4.59502206e-01  4.59502206e-01  3.25620680e-09  3.27474454e-09  4.59502206e-01  4.59502206e-01  3.20801514e-09  1.61917671e-07  8.03917146e-08  9.30000000e-01 
 9.40000000e-01  4.59502213e-01  4.59502213e-01  3.25620680e-09  3.27474454e-09  4.59502213e-01  4.59502213e-01  3.20801514e-09  1.61917695e-07  8.03915086e-08  9.40000000e-01 
 9.50000000e-01  4.59502198e-01  4.59502198e-01  3.25620680e-09  3.27474454e-09  4.59502198e-01  4.59502198e-01  3.20801514e-09  1.61917661e-07  8.03915441e-08  9.50000000e-01 
 9.60000000e-01  4.59502224e-01  4.59502224e-01  3.25620686e-09  3.27474454e-09  4.59502224e-01  4.59502224e-01  3.20801514e-09  1.61917699e-07  8.03915512e-08  9.60000000e-01 
 9.70000000e-01  4.59502232e-01  4.59502232e-01  3.25620686e-09  3.27474460e-09  4.59502232e-01  4.59502232e-01  3.20801508e-09  1.61917717e-07  8.03915086e-08  9.70000000e-01 
 9.80000000e-01  4.59502244e-01  4.59502244e-01  3.25620681e-09  3.27474454e-09  4.59502244e-01  4.59502244e-01  3.20801508e-09  1.61917729e-07  8.03914162e-08  9.80000000e-01 
 9.90000000e-01  4.59502241e-01  4.59502241e-01  3.25620686e-09  3.27474454e-09  4.59502241e-01  4.59502241e-01  3.20801514e-09  1.61917726e-07  8.03912386e-08  9.90000000e-01 
 1.00000000e+00  4.59502216e-01  4.59502216e-01  3.25620680e-09  3.27474454e-09  4.59502216e-01  4.59502216e-01  3.20801514e-09  1.61917681e-07  8.03911817e-08  1.00000000e+00 
 1.01000000e+00  4.59502224e-01  4.59502224e-01  3.25620680e-09  3.27474454e-09  4.59502224e-01  4.59502224e-01  3.20801514e-09  1.61917687e-07  8.03911107e-08  1.01000000e+00 
 1.02000000e+00  4.59502233e-01  4.59502233e-01  3.25620686e-09  3.27474454e-09  4.59502233e-01  4.59502233e-01  3.20801514e-09  1.61917714e-07  8.03911249e-08  1.02000000e+00 
 1.03000000e+00  4.59502217e-01  4.59502217e-01  3.25620680e-09  3.27474454e-09  4.59502217e-01  4.59502217e-01  3.20801514e-09  1.61917691e-07  8.03910112e-08  1.03000000e+00 
 1.04000000e+00  4.59502223e-01  4.59502223e-01  3.25620680e-09  3.27474454e-09  4.59502223e-01  4.59502223e-01  3.20801514e-09  1.61917705e-07  8.03908833e-08  1.04000000e+00 
 1.05000000e+00  4.59502232e-01  4.59502232e-01  3.25620686e-09  3.27474454e-09  4.59502232e-01  4.59502232e-01  3.20801514e-09  1.61917702e-07  8.03907270e-08  1.05000000e+00 
 1.06000000e+00  4.59502232e-01  4.59502232e-01  3.25620686e-09  3.27474454e-09  4.59502232e-01  4.59502232e-01  3.20801514e-09  1.61917713e-07  8.03907554e-08  1.06000000e+00 
 1.07000000e+00  4.59502223e-01  4.59502223e-01  3.25620686e-09  3.27474454e-09  4.59502223e-01  4.59502223e-01  3.20801514e-09  1.61917704e-07  8.03906133e-08  1.07000000e+00 
 1.08000000e+00  4.59502225e-01  4.59502226e-01  3.25620680e-09  3.27474454e-09  4.59502225e-01  4.59502226e-01  3.20801508e-09  1.61917713e-07  8.03905991e-08  1.08000000e+00 
 1.09000000e+00  4.59502241e-01  4.59502241e-01  3.25620680e-09  3.27474454e-09  4.59502241e-01  4.59502241e-01  3.20801508e-09  1.61917715e-07  8.03905564e-08  1.09000000e+00 
 1.10000000e+00  4.59502204e-01  4.59502204e-01  3.25620680e-09  3.27474454e-09  4.59502204e-01  4.59502204e-01  3.20801514e-09  1.61917672e-07  8.03904285e-08  1.10000000e+00 
