 v-sweep         v(b0)           v(b1)           v(b2)           v(b3)           v(b4)           v(b5)           v(b6)           i(vbias)        i(viout)        v(vout)        
 0.00000000e+00  4.59292680e-01  4.59292680e-01  3.37776565e-09  4.59292680e-01  3.29432566e-09  3.53355591e-09  4.59292680e-01  1.61405109e-07  1.13346715e-07  0.00000000e+00 
 1.00000000e-02  4.59292709e-01  4.59292709e-01  3.37776568e-09  4.59292709e-01  3.29432564e-09  3.53355595e-09  4.59292709e-01  1.61405140e-07  1.13346440e-07  1.00000000e-02 
 2.00000000e-02  4.59292696e-01  4.59292696e-01  3.37776567e-09  4.59292696e-01  3.29432564e-09  3.53355595e-09  4.59292696e-01  1.61405120e-07  1.13345995e-07  2.00000000e-02 
 3.00000000e-02  4.59292671e-01  4.59292671e-01  3.37776562e-09  4.59292671e-01  3.29432564e-09  3.53355595e-09  4.59292671e-01  1.61405095e-07  1.13345495e-07  3.00000000e-02 
 4.00000000e-02  4.59292664e-01  4.59292664e-01  3.37776569e-09  4.59292664e-01  3.29432564e-09  3.53355600e-09  4.59292664e-01  1.61405078e-07  1.13345110e-07  4.00000000e-02 
 5.00000000e-02  4.59292661e-01  4.59292661e-01  3.37776561e-09  4.59292661e-01  3.29432564e-09  3.53355595e-09  4.59292661e-01  1.61405065e-07  1.13344790e-07  5.00000000e-02 
 6.00000000e-02  4.59292690e-01  4.59292690e-01  3.37776563e-09  4.59292690e-01  3.29432564e-09  3.53355595e-09  4.59292690e-01  1.61405106e-07  1.13344632e-07  6.00000000e-02 
 7.00000000e-02  4.59292696e-01  4.59292696e-01  3.37776562e-09  4.59292696e-01  3.29432564e-09  3.53355595e-09  4.59292696e-01  1.61405101e-07  1.13344278e-07  7.00000000e-02 
 8.00000000e-02  4.59292707e-01  4.59292707e-01  3.37776568e-09  4.59292707e-01  3.29432564e-09  3.53355595e-09  4.59292707e-01  1.61405142e-07  1.13343895e-07  8.00000000e-02 
 9.00000000e-02  4.59292691e-01  4.59292691e-01  3.37776567e-09  4.59292691e-01  3.29432564e-09  3.53355595e-09  4.59292691e-01  1.61405120e-07  1.13343575e-07  9.00000000e-02 
 1.00000000e-01  4.59292675e-01  4.59292675e-01  3.37776567e-09  4.59292675e-01  3.29432564e-09  3.53355595e-09  4.59292675e-01  1.61405084e-07  1.13343365e-07  1.00000000e-01 
 1.10000000e-01  4.59292674e-01  4.59292674e-01  3.37776567e-09  4.59292674e-01  3.29432564e-09  3.53355595e-09  4.59292674e-01  1.61405074e-07  1.13343074e-07  1.10000000e-01 
 1.20000000e-01  4.59292676e-01  4.59292676e-01  3.37776567e-09  4.59292676e-01  3.29432564e-09  3.53355595e-09  4.59292676e-01  1.61405083e-07  1.13342779e-07  1.20000000e-01 
 1.30000000e-01  4.59292680e-01  4.59292680e-01  3.37776567e-09  4.59292680e-01  3.29432564e-09  3.53355595e-09  4.59292680e-01  1.61405095e-07  1.13342460e-07  1.30000000e-01 
 1.40000000e-01  4.59292694e-01  4.59292694e-01  3.37776567e-09  4.59292694e-01  3.29432564e-09  3.53355595e-09  4.59292694e-01  1.61405112e-07  1.13342325e-07  1.40000000e-01 
 1.50000000e-01  4.59292691e-01  4.59292691e-01  3.37776567e-09  4.59292691e-01  3.29432564e-09  3.53355595e-09  4.59292691e-01  1.61405124e-07  1.13342166e-07  1.50000000e-01 
 1.60000000e-01  4.59292679e-01  4.59292679e-01  3.37776567e-09  4.59292679e-01  3.29432564e-09  3.53355600e-09  4.59292679e-01  1.61405094e-07  1.13341843e-07  1.60000000e-01 
 1.70000000e-01  4.59292687e-01  4.59292687e-01  3.37776567e-09  4.59292687e-01  3.29432564e-09  3.53355595e-09  4.59292687e-01  1.61405107e-07  1.13341667e-07  1.70000000e-01 
 1.80000000e-01  4.59292690e-01  4.59292690e-01  3.37776567e-09  4.59292690e-01  3.29432564e-09  3.53355595e-09  4.59292690e-01  1.61405103e-07  1.13341466e-07  1.80000000e-01 
 1.90000000e-01  4.59292673e-01  4.59292672e-01  3.37776567e-09  4.59292673e-01  3.29432564e-09  3.53355595e-09  4.59292673e-01  1.61405078e-07  1.13341173e-07  1.90000000e-01 
 2.00000000e-01  4.59292662e-01  4.59292661e-01  3.37776567e-09  4.59292662e-01  3.29432564e-09  3.53355600e-09  4.59292662e-01  1.61405065e-07  1.13341116e-07  2.00000000e-01 
 2.10000000e-01  4.59292717e-01  4.59292717e-01  3.37776568e-09  4.59292717e-01  3.29432564e-09  3.53355595e-09  4.59292717e-01  1.61405147e-07  1.13341079e-07  2.10000000e-01 
 2.20000000e-01  4.59292687e-01  4.59292687e-01  3.37776562e-09  4.59292687e-01  3.29432564e-09  3.53355600e-09  4.59292687e-01  1.61405107e-07  1.13340755e-07  2.20000000e-01 
 2.30000000e-01  4.59292685e-01  4.59292685e-01  3.37776569e-09  4.59292686e-01  3.29432564e-09  3.53355595e-09  4.59292686e-01  1.61405100e-07  1.13340697e-07  2.30000000e-01 
 2.40000000e-01  4.59292671e-01  4.59292671e-01  3.37776567e-09  4.59292671e-01  3.29432564e-09  3.53355600e-09  4.59292671e-01  1.61405089e-07  1.13340432e-07  2.40000000e-01 
 2.50000000e-01  4.59292654e-01  4.59292654e-01  3.37776567e-09  4.59292654e-01  3.29432564e-09  3.53355600e-09  4.59292654e-01  1.61405056e-07  1.13340281e-07  2.50000000e-01 
 2.60000000e-01  4.59292656e-01  4.59292656e-01  3.37776567e-09  4.59292656e-01  3.29432564e-09  3.53355594e-09  4.59292656e-01  1.61405063e-07  1.13340072e-07  2.60000000e-01 
 2.70000000e-01  4.59292641e-01  4.59292641e-01  3.37776567e-09  4.59292641e-01  3.29432563e-09  3.53355594e-09  4.59292641e-01  1.61405048e-07  1.13339945e-07  2.70000000e-01 
 2.80000000e-01  4.59292680e-01  4.59292680e-01  3.37776567e-09  4.59292680e-01  3.29432564e-09  3.53355595e-09  4.59292680e-01  1.61405089e-07  1.13339924e-07  2.80000000e-01 
 2.90000000e-01  4.59292698e-01  4.59292698e-01  3.37776567e-09  4.59292698e-01  3.29432564e-09  3.53355595e-09  4.59292698e-01  1.61405128e-07  1.13339802e-07  2.90000000e-01 
 3.00000000e-01  4.59292690e-01  4.59292690e-01  3.37776567e-09  4.59292690e-01  3.29432564e-09  3.53355595e-09  4.59292690e-01  1.61405118e-07  1.13339674e-07  3.00000000e-01 
 3.10000000e-01  4.59292652e-01  4.59292652e-01  3.37776567e-09  4.59292652e-01  3.29432564e-09  3.53355594e-09  4.59292652e-01  1.61405045e-07  1.13339425e-07  3.10000000e-01 
 3.20000000e-01  4.59292682e-01  4.59292682e-01  3.37776562e-09  4.59292682e-01  3.29432564e-09  3.53355595e-09  4.59292682e-01  1.61405095e-07  1.13339475e-07  3.20000000e-01 
 3.30000000e-01  4.59292685e-01  4.59292685e-01  3.37776563e-09  4.59292686e-01  3.29432564e-09  3.53355595e-09  4.59292685e-01  1.61405103e-07  1.13339258e-07  3.30000000e-01 
 3.40000000e-01  4.59292693e-01  4.59292693e-01  3.37776568e-09  4.59292693e-01  3.29432564e-09  3.53355595e-09  4.59292693e-01  1.61405112e-07  1.13339290e-07  3.40000000e-01 
 3.50000000e-01  4.59292700e-01  4.59292700e-01  3.37776567e-09  4.59292700e-01  3.29432564e-09  3.53355601e-09  4.59292700e-01  1.61405136e-07  1.13339137e-07  3.50000000e-01 
 3.60000000e-01  4.59292702e-01  4.59292702e-01  3.37776568e-09  4.59292702e-01  3.29432564e-09  3.53355601e-09  4.59292702e-01  1.61405131e-07  1.13339048e-07  3.60000000e-01 
 3.70000000e-01  4.59292700e-01  4.59292700e-01  3.37776562e-09  4.59292700e-01  3.29432564e-09  3.53355601e-09  4.59292700e-01  1.61405134e-07  1.13339080e-07  3.70000000e-01 
 3.80000000e-01  4.59292676e-01  4.59292676e-01  3.37776563e-09  4.59292676e-01  3.29432564e-09  3.53355595e-09  4.59292676e-01  1.61405085e-07  1.13338736e-07  3.80000000e-01 
 3.90000000e-01  4.59292691e-01  4.59292691e-01  3.37776562e-09  4.59292691e-01  3.29432564e-09  3.53355601e-09  4.59292691e-01  1.61405108e-07  1.13338832e-07  3.90000000e-01 
 4.00000000e-01  4.59292680e-01  4.59292680e-01  3.37776562e-09  4.59292680e-01  3.29432564e-09  3.53355595e-09  4.59292680e-01  1.61405096e-07  1.13338540e-07  4.00000000e-01 
 4.10000000e-01  4.59292673e-01  4.59292673e-01  3.37776568e-09  4.59292673e-01  3.29432564e-09  3.53355600e-09  4.59292673e-01  1.61405092e-07  1.13338487e-07  4.10000000e-01 
 4.20000000e-01  4.59292698e-01  4.59292698e-01  3.37776567e-09  4.59292698e-01  3.29432564e-09  3.53355601e-09  4.59292698e-01  1.61405121e-07  1.13338480e-07  4.20000000e-01 
 4.30000000e-01  4.59292692e-01  4.59292692e-01  3.37776567e-09  4.59292692e-01  3.29432564e-09  3.53355595e-09  4.59292692e-01  1.61405116e-07  1.13338309e-07  4.30000000e-01 
 4.40000000e-01  4.59292682e-01  4.59292682e-01  3.37776567e-09  4.59292682e-01  3.29432564e-09  3.53355595e-09  4.59292682e-01  1.61405095e-07  1.13338093e-07  4.40000000e-01 
 4.50000000e-01  4.59292704e-01  4.59292704e-01  3.37776568e-09  4.59292704e-01  3.29432564e-09  3.53355595e-09  4.59292704e-01  1.61405135e-07  1.13338224e-07  4.50000000e-01 
 4.60000000e-01  4.59292676e-01  4.59292676e-01  3.37776567e-09  4.59292676e-01  3.29432564e-09  3.53355595e-09  4.59292676e-01  1.61405092e-07  1.13338078e-07  4.60000000e-01 
 4.70000000e-01  4.59292671e-01  4.59292671e-01  3.37776562e-09  4.59292671e-01  3.29432564e-09  3.53355595e-09  4.59292671e-01  1.61405081e-07  1.13337865e-07  4.70000000e-01 
 4.80000000e-01  4.59292682e-01  4.59292682e-01  3.37776563e-09  4.59292682e-01  3.29432564e-09  3.53355600e-09  4.59292682e-01  1.61405093e-07  1.13337904e-07  4.80000000e-01 
 4.90000000e-01  4.59292666e-01  4.59292666e-01  3.37776562e-09  4.59292666e-01  3.29432564e-09  3.53355600e-09  4.59292666e-01  1.61405071e-07  1.13337741e-07  4.90000000e-01 
 5.00000000e-01  4.59292680e-01  4.59292680e-01  3.37776562e-09  4.59292680e-01  3.29432564e-09  3.53355600e-09  4.59292680e-01  1.61405089e-07  1.13337602e-07  5.00000000e-01 
 5.10000000e-01  4.59292680e-01  4.59292680e-01  3.37776568e-09  4.59292681e-01  3.29432564e-09  3.53355595e-09  4.59292681e-01  1.61405097e-07  1.13337464e-07  5.10000000e-01 
 5.20000000e-01  4.59292673e-01  4.59292673e-01  3.37776567e-09  4.59292673e-01  3.29432564e-09  3.53355595e-09  4.59292673e-01  1.61405078e-07  1.13337446e-07  5.20000000e-01 
 5.30000000e-01  4.59292680e-01  4.59292680e-01  3.37776567e-09  4.59292680e-01  3.29432564e-09  3.53355595e-09  4.59292680e-01  1.61405087e-07  1.13337510e-07  5.30000000e-01 
 5.40000000e-01  4.59292670e-01  4.59292670e-01  3.37776562e-09  4.59292670e-01  3.29432564e-09  3.53355600e-09  4.59292670e-01  1.61405071e-07  1.13337418e-07  5.40000000e-01 
 5.50000000e-01  4.59292671e-01  4.59292671e-01  3.37776563e-09  4.59292671e-01  3.29432564e-09  3.53355595e-09  4.59292671e-01  1.61405089e-07  1.13337194e-07  5.50000000e-01 
 5.60000000e-01  4.59292679e-01  4.59292679e-01  3.37776568e-09  4.59292679e-01  3.29432564e-09  3.53355595e-09  4.59292679e-01  1.61405095e-07  1.13337169e-07  5.60000000e-01 
 5.70000000e-01  4.59292718e-01  4.59292718e-01  3.37776567e-09  4.59292718e-01  3.29432564e-09  3.53355595e-09  4.59292718e-01  1.61405149e-07  1.13337283e-07  5.70000000e-01 
 5.80000000e-01  4.59292693e-01  4.59292693e-01  3.37776567e-09  4.59292693e-01  3.29432564e-09  3.53355595e-09  4.59292693e-01  1.61405117e-07  1.13337038e-07  5.80000000e-01 
 5.90000000e-01  4.59292681e-01  4.59292681e-01  3.37776567e-09  4.59292681e-01  3.29432564e-09  3.53355600e-09  4.59292681e-01  1.61405093e-07  1.13336988e-07  5.90000000e-01 
 6.00000000e-01  4.59292714e-01  4.59292714e-01  3.37776562e-09  4.59292714e-01  3.29432564e-09  3.53355601e-09  4.59292714e-01  1.61405146e-07  1.13336974e-07  6.00000000e-01 
 6.10000000e-01  4.59292683e-01  4.59292683e-01  3.37776563e-09  4.59292683e-01  3.29432564e-09  3.53355600e-09  4.59292683e-01  1.61405103e-07  1.13336810e-07  6.10000000e-01 
 6.20000000e-01  4.59292692e-01  4.59292692e-01  3.37776562e-09  4.59292692e-01  3.29432558e-09  3.53355595e-09  4.59292692e-01  1.61405109e-07  1.13336625e-07  6.20000000e-01 
 6.30000000e-01  4.59292691e-01  4.59292691e-01  3.37776568e-09  4.59292691e-01  3.29432564e-09  3.53355595e-09  4.59292691e-01  1.61405126e-07  1.13336696e-07  6.30000000e-01 
 6.40000000e-01  4.59292671e-01  4.59292671e-01  3.37776567e-09  4.59292671e-01  3.29432564e-09  3.53355595e-09  4.59292671e-01  1.61405076e-07  1.13336469e-07  6.40000000e-01 
 6.50000000e-01  4.59292677e-01  4.59292677e-01  3.37776567e-09  4.59292677e-01  3.29432564e-09  3.53355595e-09  4.59292677e-01  1.61405093e-07  1.13336455e-07  6.50000000e-01 
 6.60000000e-01  4.59292688e-01  4.59292688e-01  3.37776562e-09  4.59292688e-01  3.29432564e-09  3.53355600e-09  4.59292688e-01  1.61405096e-07  1.13336441e-07  6.60000000e-01 
 6.70000000e-01  4.59292689e-01  4.59292689e-01  3.37776569e-09  4.59292689e-01  3.29432564e-09  3.53355600e-09  4.59292689e-01  1.61405109e-07  1.13336398e-07  6.70000000e-01 
 6.80000000e-01  4.59292679e-01  4.59292679e-01  3.37776567e-09  4.59292679e-01  3.29432564e-09  3.53355595e-09  4.59292679e-01  1.61405089e-07  1.13336220e-07  6.80000000e-01 
 6.90000000e-01  4.59292675e-01  4.59292675e-01  3.37776567e-09  4.59292675e-01  3.29432564e-09  3.53355595e-09  4.59292675e-01  1.61405098e-07  1.13336178e-07  6.90000000e-01 
 7.00000000e-01  4.59292671e-01  4.59292671e-01  3.37776562e-09  4.59292671e-01  3.29432564e-09  3.53355595e-09  4.59292671e-01  1.61405076e-07  1.13335950e-07  7.00000000e-01 
 7.10000000e-01  4.59292694e-01  4.59292694e-01  3.37776563e-09  4.59292694e-01  3.29432564e-09  3.53355595e-09  4.59292694e-01  1.61405116e-07  1.13335986e-07  7.10000000e-01 
 7.20000000e-01  4.59292674e-01  4.59292674e-01  3.37776562e-09  4.59292674e-01  3.29432564e-09  3.53355595e-09  4.59292674e-01  1.61405102e-07  1.13335929e-07  7.20000000e-01 
 7.30000000e-01  4.59292687e-01  4.59292687e-01  3.37776568e-09  4.59292687e-01  3.29432564e-09  3.53355595e-09  4.59292687e-01  1.61405104e-07  1.13335908e-07  7.30000000e-01 
 7.40000000e-01  4.59292682e-01  4.59292682e-01  3.37776567e-09  4.59292682e-01  3.29432564e-09  3.53355595e-09  4.59292682e-01  1.61405095e-07  1.13335837e-07  7.40000000e-01 
 7.50000000e-01  4.59292682e-01  4.59292682e-01  3.37776562e-09  4.59292682e-01  3.29432564e-09  3.53355595e-09  4.59292682e-01  1.61405091e-07  1.13335716e-07  7.50000000e-01 
 7.60000000e-01  4.59292667e-01  4.59292667e-01  3.37776569e-09  4.59292667e-01  3.29432564e-09  3.53355595e-09  4.59292667e-01  1.61405081e-07  1.13335609e-07  7.60000000e-01 
 7.70000000e-01  4.59292664e-01  4.59292664e-01  3.37776567e-09  4.59292664e-01  3.29432564e-09  3.53355595e-09  4.59292664e-01  1.61405073e-07  1.13335432e-07  7.70000000e-01 
 7.80000000e-01  4.59292668e-01  4.59292668e-01  3.37776567e-09  4.59292668e-01  3.29432564e-09  3.53355595e-09  4.59292668e-01  1.61405082e-07  1.13335417e-07  7.80000000e-01 
 7.90000000e-01  4.59292686e-01  4.59292686e-01  3.37776567e-09  4.59292686e-01  3.29432564e-09  3.53355595e-09  4.59292686e-01  1.61405104e-07  1.13335346e-07  7.90000000e-01 
 8.00000000e-01  4.59292685e-01  4.59292685e-01  3.37776567e-09  4.59292686e-01  3.29432564e-09  3.53355600e-09  4.59292685e-01  1.61405106e-07  1.13335261e-07  8.00000000e-01 
 8.10000000e-01  4.59292670e-01  4.59292670e-01  3.37776567e-09  4.59292670e-01  3.29432564e-09  3.53355600e-09  4.59292670e-01  1.61405086e-07  1.13335140e-07  8.10000000e-01 
 8.20000000e-01  4.59292666e-01  4.59292666e-01  3.37776567e-09  4.59292666e-01  3.29432558e-09  3.53355595e-09  4.59292666e-01  1.61405078e-07  1.13334984e-07  8.20000000e-01 
 8.30000000e-01  4.59292688e-01  4.59292688e-01  3.37776567e-09  4.59292688e-01  3.29432564e-09  3.53355595e-09  4.59292688e-01  1.61405095e-07  1.13335048e-07  8.30000000e-01 
 8.40000000e-01  4.59292670e-01  4.59292670e-01  3.37776562e-09  4.59292670e-01  3.29432564e-09  3.53355595e-09  4.59292670e-01  1.61405094e-07  1.13334877e-07  8.40000000e-01 
 8.50000000e-01  4.59292680e-01  4.59292680e-01  3.37776569e-09  4.59292680e-01  3.29432564e-09  3.53355595e-09  4.59292680e-01  1.61405104e-07  1.13334956e-07  8.50000000e-01 
 8.60000000e-01  4.59292701e-01  4.59292701e-01  3.37776567e-09  4.59292701e-01  3.29432564e-09  3.53355601e-09  4.59292701e-01  1.61405131e-07  1.13334849e-07  8.60000000e-01 
 8.70000000e-01  4.59292696e-01  4.59292696e-01  3.37776567e-09  4.59292696e-01  3.29432564e-09  3.53355595e-09  4.59292696e-01  1.61405125e-07  1.13334714e-07  8.70000000e-01 
 8.80000000e-01  4.59292646e-01  4.59292646e-01  3.37776567e-09  4.59292646e-01  3.29432564e-09  3.53355594e-09  4.59292646e-01  1.61405045e-07  1.13334465e-07  8.80000000e-01 
 8.90000000e-01  4.59292677e-01  4.59292677e-01  3.37776562e-09  4.59292677e-01  3.29432564e-09  3.53355595e-09  4.59292677e-01  1.61405078e-07  1.13334586e-07  8.90000000e-01 
 9.00000000e-01  4.59292692e-01  4.59292692e-01  3.37776563e-09  4.59292692e-01  3.29432564e-09  3.53355601e-09  4.59292692e-01  1.61405119e-07  1.13334501e-07  9.00000000e-01 
 9.10000000e-01  4.59292679e-01  4.59292679e-01  3.37776568e-09  4.59292679e-01  3.29432564e-09  3.53355600e-09  4.59292679e-01  1.61405105e-07  1.13334316e-07  9.10000000e-01 
 9.20000000e-01  4.59292668e-01  4.59292668e-01  3.37776567e-09  4.59292668e-01  3.29432564e-09  3.53355595e-09  4.59292668e-01  1.61405079e-07  1.13334217e-07  9.20000000e-01 
 9.30000000e-01  4.59292707e-01  4.59292707e-01  3.37776568e-09  4.59292707e-01  3.29432564e-09  3.53355595e-09  4.59292707e-01  1.61405138e-07  1.13334238e-07  9.30000000e-01 
 9.40000000e-01  4.59292666e-01  4.59292666e-01  3.37776562e-09  4.59292666e-01  3.29432564e-09  3.53355595e-09  4.59292666e-01  1.61405076e-07  1.13334032e-07  9.40000000e-01 
 9.50000000e-01  4.59292682e-01  4.59292682e-01  3.37776563e-09  4.59292682e-01  3.29432564e-09  3.53355595e-09  4.59292682e-01  1.61405098e-07  1.13333940e-07  9.50000000e-01 
 9.60000000e-01  4.59292699e-01  4.59292699e-01  3.37776568e-09  4.59292699e-01  3.29432564e-09  3.53355601e-09  4.59292699e-01  1.61405118e-07  1.13334004e-07  9.60000000e-01 
 9.70000000e-01  4.59292683e-01  4.59292683e-01  3.37776567e-09  4.59292683e-01  3.29432564e-09  3.53355595e-09  4.59292683e-01  1.61405109e-07  1.13333833e-07  9.70000000e-01 
 9.80000000e-01  4.59292676e-01  4.59292676e-01  3.37776567e-09  4.59292676e-01  3.29432564e-09  3.53355595e-09  4.59292676e-01  1.61405090e-07  1.13333755e-07  9.80000000e-01 
 9.90000000e-01  4.59292676e-01  4.59292676e-01  3.37776567e-09  4.59292676e-01  3.29432564e-09  3.53355595e-09  4.59292676e-01  1.61405086e-07  1.13333655e-07  9.90000000e-01 
 1.00000000e+00  4.59292666e-01  4.59292666e-01  3.37776562e-09  4.59292666e-01  3.29432564e-09  3.53355595e-09  4.59292666e-01  1.61405070e-07  1.13333371e-07  1.00000000e+00 
 1.01000000e+00  4.59292665e-01  4.59292665e-01  3.37776569e-09  4.59292665e-01  3.29432564e-09  3.53355595e-09  4.59292665e-01  1.61405083e-07  1.13333371e-07  1.01000000e+00 
 1.02000000e+00  4.59292672e-01  4.59292672e-01  3.37776567e-09  4.59292672e-01  3.29432564e-09  3.53355600e-09  4.59292672e-01  1.61405077e-07  1.13333442e-07  1.02000000e+00 
 1.03000000e+00  4.59292671e-01  4.59292671e-01  3.37776567e-09  4.59292671e-01  3.29432564e-09  3.53355595e-09  4.59292671e-01  1.61405080e-07  1.13333229e-07  1.03000000e+00 
 1.04000000e+00  4.59292693e-01  4.59292693e-01  3.37776567e-09  4.59292693e-01  3.29432564e-09  3.53355595e-09  4.59292693e-01  1.61405109e-07  1.13333073e-07  1.04000000e+00 
 1.05000000e+00  4.59292664e-01  4.59292664e-01  3.37776567e-09  4.59292664e-01  3.29432564e-09  3.53355595e-09  4.59292664e-01  1.61405064e-07  1.13332952e-07  1.05000000e+00 
 1.06000000e+00  4.59292666e-01  4.59292666e-01  3.37776567e-09  4.59292666e-01  3.29432564e-09  3.53355595e-09  4.59292666e-01  1.61405071e-07  1.13332888e-07  1.06000000e+00 
 1.07000000e+00  4.59292685e-01  4.59292685e-01  3.37776567e-09  4.59292685e-01  3.29432564e-09  3.53355595e-09  4.59292685e-01  1.61405094e-07  1.13332874e-07  1.07000000e+00 
 1.08000000e+00  4.59292669e-01  4.59292669e-01  3.37776562e-09  4.59292669e-01  3.29432564e-09  3.53355595e-09  4.59292669e-01  1.61405091e-07  1.13332725e-07  1.08000000e+00 
 1.09000000e+00  4.59292691e-01  4.59292691e-01  3.37776563e-09  4.59292691e-01  3.29432564e-09  3.53355595e-09  4.59292691e-01  1.61405106e-07  1.13332781e-07  1.09000000e+00 
 1.10000000e+00  4.59292698e-01  4.59292698e-01  3.37776562e-09  4.59292698e-01  3.29432564e-09  3.53355595e-09  4.59292698e-01  1.61405119e-07  1.13332625e-07  1.10000000e+00 
