 v-sweep         v(b0)           v(b1)           v(b2)           v(b3)           v(b4)           v(b5)           v(b6)           i(vbias)        i(viout)        v(vout)        
 0.00000000e+00  3.46089575e-09  3.29345139e-09  4.58340803e-01  3.31016438e-09  4.58340803e-01  3.49495879e-09  3.36755263e-09  1.61015128e-07  3.21133738e-08  0.00000000e+00 
 1.00000000e-02  3.46089578e-09  3.29345136e-09  4.58340771e-01  3.31016429e-09  4.58340771e-01  3.49495881e-09  3.36755260e-09  1.61015093e-07  3.21129636e-08  1.00000000e-02 
 2.00000000e-02  3.46089572e-09  3.29345136e-09  4.58340784e-01  3.31016435e-09  4.58340784e-01  3.49495881e-09  3.36755261e-09  1.61015100e-07  3.21125853e-08  2.00000000e-02 
 3.00000000e-02  3.46089572e-09  3.29345136e-09  4.58340778e-01  3.31016435e-09  4.58340778e-01  3.49495875e-09  3.36755261e-09  1.61015086e-07  3.21122722e-08  3.00000000e-02 
 4.00000000e-02  3.46089578e-09  3.29345142e-09  4.58340806e-01  3.31016430e-09  4.58340806e-01  3.49495881e-09  3.36755261e-09  1.61015122e-07  3.21119891e-08  4.00000000e-02 
 5.00000000e-02  3.46089578e-09  3.29345136e-09  4.58340794e-01  3.31016430e-09  4.58340794e-01  3.49495876e-09  3.36755261e-09  1.61015114e-07  3.21116151e-08  5.00000000e-02 
 6.00000000e-02  3.46089578e-09  3.29345136e-09  4.58340794e-01  3.31016430e-09  4.58340794e-01  3.49495881e-09  3.36755261e-09  1.61015112e-07  3.21113700e-08  6.00000000e-02 
 7.00000000e-02  3.46089572e-09  3.29345136e-09  4.58340800e-01  3.31016430e-09  4.58340800e-01  3.49495876e-09  3.36755261e-09  1.61015118e-07  3.21109979e-08  7.00000000e-02 
 8.00000000e-02  3.46089578e-09  3.29345136e-09  4.58340789e-01  3.31016435e-09  4.58340789e-01  3.49495881e-09  3.36755255e-09  1.61015099e-07  3.21107869e-08  8.00000000e-02 
 9.00000000e-02  3.46089578e-09  3.29345136e-09  4.58340800e-01  3.31016435e-09  4.58340800e-01  3.49495881e-09  3.36755261e-09  1.61015136e-07  3.21104938e-08  9.00000000e-02 
 1.00000000e-01  3.46089578e-09  3.29345136e-09  4.58340786e-01  3.31016430e-09  4.58340786e-01  3.49495881e-09  3.36755261e-09  1.61015097e-07  3.21100782e-08  1.00000000e-01 
 1.10000000e-01  3.46089578e-09  3.29345136e-09  4.58340795e-01  3.31016430e-09  4.58340795e-01  3.49495881e-09  3.36755261e-09  1.61015118e-07  3.21098845e-08  1.10000000e-01 
 1.20000000e-01  3.46089578e-09  3.29345142e-09  4.58340795e-01  3.31016435e-09  4.58340795e-01  3.49495876e-09  3.36755261e-09  1.61015106e-07  3.21095843e-08  1.20000000e-01 
 1.30000000e-01  3.46089578e-09  3.29345136e-09  4.58340796e-01  3.31016430e-09  4.58340796e-01  3.49495881e-09  3.36755261e-09  1.61015116e-07  3.21094094e-08  1.30000000e-01 
 1.40000000e-01  3.46089572e-09  3.29345136e-09  4.58340781e-01  3.31016435e-09  4.58340781e-01  3.49495875e-09  3.36755261e-09  1.61015091e-07  3.21092104e-08  1.40000000e-01 
 1.50000000e-01  3.46089578e-09  3.29345136e-09  4.58340817e-01  3.31016435e-09  4.58340817e-01  3.49495881e-09  3.36755261e-09  1.61015144e-07  3.21090496e-08  1.50000000e-01 
 1.60000000e-01  3.46089578e-09  3.29345136e-09  4.58340778e-01  3.31016429e-09  4.58340778e-01  3.49495875e-09  3.36755261e-09  1.61015105e-07  3.21089253e-08  1.60000000e-01 
 1.70000000e-01  3.46089578e-09  3.29345142e-09  4.58340798e-01  3.31016435e-09  4.58340798e-01  3.49495876e-09  3.36755261e-09  1.61015128e-07  3.21085896e-08  1.70000000e-01 
 1.80000000e-01  3.46089572e-09  3.29345136e-09  4.58340808e-01  3.31016435e-09  4.58340808e-01  3.49495876e-09  3.36755261e-09  1.61015123e-07  3.21084119e-08  1.80000000e-01 
 1.90000000e-01  3.46089572e-09  3.29345136e-09  4.58340774e-01  3.31016429e-09  4.58340774e-01  3.49495881e-09  3.36755261e-09  1.61015080e-07  3.21083213e-08  1.90000000e-01 
 2.00000000e-01  3.46089578e-09  3.29345136e-09  4.58340791e-01  3.31016435e-09  4.58340791e-01  3.49495876e-09  3.36755261e-09  1.61015110e-07  3.21080531e-08  2.00000000e-01 
 2.10000000e-01  3.46089578e-09  3.29345136e-09  4.58340786e-01  3.31016435e-09  4.58340786e-01  3.49495876e-09  3.36755261e-09  1.61015094e-07  3.21079483e-08  2.10000000e-01 
 2.20000000e-01  3.46089572e-09  3.29345136e-09  4.58340794e-01  3.31016435e-09  4.58340794e-01  3.49495876e-09  3.36755261e-09  1.61015119e-07  3.21077458e-08  2.20000000e-01 
 2.30000000e-01  3.46089578e-09  3.29345136e-09  4.58340784e-01  3.31016430e-09  4.58340784e-01  3.49495881e-09  3.36755261e-09  1.61015089e-07  3.21078240e-08  2.30000000e-01 
 2.40000000e-01  3.46089578e-09  3.29345136e-09  4.58340791e-01  3.31016435e-09  4.58340791e-01  3.49495876e-09  3.36755261e-09  1.61015118e-07  3.21076499e-08  2.40000000e-01 
 2.50000000e-01  3.46089578e-09  3.29345142e-09  4.58340776e-01  3.31016435e-09  4.58340776e-01  3.49495875e-09  3.36755261e-09  1.61015083e-07  3.21074634e-08  2.50000000e-01 
 2.60000000e-01  3.46089572e-09  3.29345136e-09  4.58340804e-01  3.31016435e-09  4.58340804e-01  3.49495876e-09  3.36755261e-09  1.61015134e-07  3.21074491e-08  2.60000000e-01 
 2.70000000e-01  3.46089578e-09  3.29345142e-09  4.58340782e-01  3.31016430e-09  4.58340782e-01  3.49495875e-09  3.36755261e-09  1.61015097e-07  3.21072449e-08  2.70000000e-01 
 2.80000000e-01  3.46089572e-09  3.29345142e-09  4.58340813e-01  3.31016430e-09  4.58340813e-01  3.49495881e-09  3.36755261e-09  1.61015155e-07  3.21069997e-08  2.80000000e-01 
 2.90000000e-01  3.46089578e-09  3.29345136e-09  4.58340790e-01  3.31016430e-09  4.58340790e-01  3.49495876e-09  3.36755261e-09  1.61015121e-07  3.21070495e-08  2.90000000e-01 
 3.00000000e-01  3.46089578e-09  3.29345142e-09  4.58340782e-01  3.31016435e-09  4.58340782e-01  3.49495875e-09  3.36755261e-09  1.61015101e-07  3.21069251e-08  3.00000000e-01 
 3.10000000e-01  3.46089578e-09  3.29345142e-09  4.58340793e-01  3.31016435e-09  4.58340793e-01  3.49495876e-09  3.36755261e-09  1.61015126e-07  3.21069287e-08  3.10000000e-01 
 3.20000000e-01  3.46089572e-09  3.29345136e-09  4.58340793e-01  3.31016430e-09  4.58340794e-01  3.49495881e-09  3.36755261e-09  1.61015119e-07  3.21067368e-08  3.20000000e-01 
 3.30000000e-01  3.46089578e-09  3.29345142e-09  4.58340780e-01  3.31016435e-09  4.58340780e-01  3.49495881e-09  3.36755261e-09  1.61015099e-07  3.21066729e-08  3.30000000e-01 
 3.40000000e-01  3.46089578e-09  3.29345136e-09  4.58340797e-01  3.31016435e-09  4.58340798e-01  3.49495881e-09  3.36755261e-09  1.61015123e-07  3.21066800e-08  3.40000000e-01 
 3.50000000e-01  3.46089578e-09  3.29345136e-09  4.58340779e-01  3.31016435e-09  4.58340779e-01  3.49495875e-09  3.36755261e-09  1.61015089e-07  3.21064135e-08  3.50000000e-01 
 3.60000000e-01  3.46089578e-09  3.29345136e-09  4.58340780e-01  3.31016430e-09  4.58340780e-01  3.49495875e-09  3.36755261e-09  1.61015105e-07  3.21063105e-08  3.60000000e-01 
 3.70000000e-01  3.46089578e-09  3.29345136e-09  4.58340787e-01  3.31016435e-09  4.58340787e-01  3.49495876e-09  3.36755261e-09  1.61015097e-07  3.21062750e-08  3.70000000e-01 
 3.80000000e-01  3.46089578e-09  3.29345136e-09  4.58340804e-01  3.31016430e-09  4.58340804e-01  3.49495881e-09  3.36755261e-09  1.61015121e-07  3.21062430e-08  3.80000000e-01 
 3.90000000e-01  3.46089578e-09  3.29345136e-09  4.58340792e-01  3.31016430e-09  4.58340792e-01  3.49495876e-09  3.36755261e-09  1.61015112e-07  3.21061151e-08  3.90000000e-01 
 4.00000000e-01  3.46089578e-09  3.29345136e-09  4.58340794e-01  3.31016430e-09  4.58340794e-01  3.49495876e-09  3.36755261e-09  1.61015107e-07  3.21061222e-08  4.00000000e-01 
 4.10000000e-01  3.46089578e-09  3.29345136e-09  4.58340791e-01  3.31016430e-09  4.58340791e-01  3.49495876e-09  3.36755261e-09  1.61015090e-07  3.21059836e-08  4.10000000e-01 
 4.20000000e-01  3.46089578e-09  3.29345136e-09  4.58340788e-01  3.31016430e-09  4.58340788e-01  3.49495881e-09  3.36755261e-09  1.61015096e-07  3.21058664e-08  4.20000000e-01 
 4.30000000e-01  3.46089578e-09  3.29345136e-09  4.58340784e-01  3.31016435e-09  4.58340784e-01  3.49495876e-09  3.36755261e-09  1.61015095e-07  3.21058771e-08  4.30000000e-01 
 4.40000000e-01  3.46089572e-09  3.29345142e-09  4.58340803e-01  3.31016430e-09  4.58340803e-01  3.49495881e-09  3.36755261e-09  1.61015133e-07  3.21057563e-08  4.40000000e-01 
 4.50000000e-01  3.46089578e-09  3.29345136e-09  4.58340802e-01  3.31016435e-09  4.58340802e-01  3.49495876e-09  3.36755261e-09  1.61015131e-07  3.21057314e-08  4.50000000e-01 
 4.60000000e-01  3.46089578e-09  3.29345136e-09  4.58340783e-01  3.31016430e-09  4.58340783e-01  3.49495876e-09  3.36755261e-09  1.61015092e-07  3.21056035e-08  4.60000000e-01 
 4.70000000e-01  3.46089572e-09  3.29345136e-09  4.58340794e-01  3.31016435e-09  4.58340794e-01  3.49495876e-09  3.36755261e-09  1.61015113e-07  3.21056248e-08  4.70000000e-01 
 4.80000000e-01  3.46089578e-09  3.29345136e-09  4.58340793e-01  3.31016430e-09  4.58340793e-01  3.49495876e-09  3.36755261e-09  1.61015115e-07  3.21055857e-08  4.80000000e-01 
 4.90000000e-01  3.46089572e-09  3.29345136e-09  4.58340802e-01  3.31016430e-09  4.58340802e-01  3.49495881e-09  3.36755261e-09  1.61015120e-07  3.21054046e-08  4.90000000e-01 
 5.00000000e-01  3.46089578e-09  3.29345136e-09  4.58340797e-01  3.31016430e-09  4.58340797e-01  3.49495876e-09  3.36755261e-09  1.61015109e-07  3.21054614e-08  5.00000000e-01 
 5.10000000e-01  3.46089578e-09  3.29345142e-09  4.58340799e-01  3.31016430e-09  4.58340800e-01  3.49495881e-09  3.36755261e-09  1.61015118e-07  3.21052873e-08  5.10000000e-01 
 5.20000000e-01  3.46089578e-09  3.29345136e-09  4.58340799e-01  3.31016430e-09  4.58340799e-01  3.49495876e-09  3.36755261e-09  1.61015126e-07  3.21053193e-08  5.20000000e-01 
 5.30000000e-01  3.46089578e-09  3.29345136e-09  4.58340790e-01  3.31016430e-09  4.58340790e-01  3.49495881e-09  3.36755261e-09  1.61015111e-07  3.21051878e-08  5.30000000e-01 
 5.40000000e-01  3.46089578e-09  3.29345136e-09  4.58340782e-01  3.31016435e-09  4.58340782e-01  3.49495881e-09  3.36755261e-09  1.61015086e-07  3.21052376e-08  5.40000000e-01 
 5.50000000e-01  3.46089578e-09  3.29345136e-09  4.58340797e-01  3.31016430e-09  4.58340798e-01  3.49495876e-09  3.36755261e-09  1.61015107e-07  3.21051346e-08  5.50000000e-01 
 5.60000000e-01  3.46089578e-09  3.29345136e-09  4.58340805e-01  3.31016435e-09  4.58340805e-01  3.49495876e-09  3.36755261e-09  1.61015126e-07  3.21050493e-08  5.60000000e-01 
 5.70000000e-01  3.46089578e-09  3.29345142e-09  4.58340791e-01  3.31016435e-09  4.58340791e-01  3.49495876e-09  3.36755261e-09  1.61015101e-07  3.21050280e-08  5.70000000e-01 
 5.80000000e-01  3.46089572e-09  3.29345136e-09  4.58340792e-01  3.31016435e-09  4.58340792e-01  3.49495881e-09  3.36755261e-09  1.61015114e-07  3.21049427e-08  5.80000000e-01 
 5.90000000e-01  3.46089578e-09  3.29345136e-09  4.58340789e-01  3.31016430e-09  4.58340790e-01  3.49495876e-09  3.36755261e-09  1.61015097e-07  3.21049143e-08  5.90000000e-01 
 6.00000000e-01  3.46089578e-09  3.29345136e-09  4.58340789e-01  3.31016435e-09  4.58340789e-01  3.49495876e-09  3.36755261e-09  1.61015103e-07  3.21048788e-08  6.00000000e-01 
 6.10000000e-01  3.46089572e-09  3.29345136e-09  4.58340792e-01  3.31016430e-09  4.58340792e-01  3.49495876e-09  3.36755261e-09  1.61015111e-07  3.21047864e-08  6.10000000e-01 
 6.20000000e-01  3.46089578e-09  3.29345136e-09  4.58340793e-01  3.31016435e-09  4.58340793e-01  3.49495881e-09  3.36755261e-09  1.61015099e-07  3.21047366e-08  6.20000000e-01 
 6.30000000e-01  3.46089572e-09  3.29345142e-09  4.58340805e-01  3.31016435e-09  4.58340805e-01  3.49495881e-09  3.36755261e-09  1.61015127e-07  3.21047793e-08  6.30000000e-01 
 6.40000000e-01  3.46089578e-09  3.29345136e-09  4.58340782e-01  3.31016435e-09  4.58340782e-01  3.49495875e-09  3.36755261e-09  1.61015109e-07  3.21047011e-08  6.40000000e-01 
 6.50000000e-01  3.46089578e-09  3.29345142e-09  4.58340784e-01  3.31016430e-09  4.58340784e-01  3.49495876e-09  3.36755261e-09  1.61015099e-07  3.21045377e-08  6.50000000e-01 
 6.60000000e-01  3.46089578e-09  3.29345136e-09  4.58340792e-01  3.31016430e-09  4.58340792e-01  3.49495876e-09  3.36755261e-09  1.61015110e-07  3.21044098e-08  6.60000000e-01 
 6.70000000e-01  3.46089578e-09  3.29345136e-09  4.58340797e-01  3.31016430e-09  4.58340798e-01  3.49495876e-09  3.36755261e-09  1.61015125e-07  3.21045306e-08  6.70000000e-01 
 6.80000000e-01  3.46089578e-09  3.29345136e-09  4.58340784e-01  3.31016430e-09  4.58340784e-01  3.49495876e-09  3.36755261e-09  1.61015097e-07  3.21044666e-08  6.80000000e-01 
 6.90000000e-01  3.46089578e-09  3.29345136e-09  4.58340800e-01  3.31016430e-09  4.58340800e-01  3.49495876e-09  3.36755261e-09  1.61015118e-07  3.21043458e-08  6.90000000e-01 
 7.00000000e-01  3.46089578e-09  3.29345136e-09  4.58340784e-01  3.31016430e-09  4.58340784e-01  3.49495881e-09  3.36755261e-09  1.61015095e-07  3.21041824e-08  7.00000000e-01 
 7.10000000e-01  3.46089578e-09  3.29345142e-09  4.58340802e-01  3.31016430e-09  4.58340802e-01  3.49495876e-09  3.36755261e-09  1.61015132e-07  3.21042108e-08  7.10000000e-01 
 7.20000000e-01  3.46089578e-09  3.29345136e-09  4.58340803e-01  3.31016435e-09  4.58340803e-01  3.49495876e-09  3.36755261e-09  1.61015132e-07  3.21042748e-08  7.20000000e-01 
 7.30000000e-01  3.46089578e-09  3.29345136e-09  4.58340786e-01  3.31016435e-09  4.58340786e-01  3.49495876e-09  3.36755261e-09  1.61015099e-07  3.21040616e-08  7.30000000e-01 
 7.40000000e-01  3.46089578e-09  3.29345136e-09  4.58340799e-01  3.31016430e-09  4.58340799e-01  3.49495881e-09  3.36755261e-09  1.61015125e-07  3.21040829e-08  7.40000000e-01 
 7.50000000e-01  3.46089572e-09  3.29345136e-09  4.58340800e-01  3.31016430e-09  4.58340800e-01  3.49495881e-09  3.36755261e-09  1.61015121e-07  3.21040545e-08  7.50000000e-01 
 7.60000000e-01  3.46089578e-09  3.29345136e-09  4.58340779e-01  3.31016430e-09  4.58340779e-01  3.49495881e-09  3.36755261e-09  1.61015077e-07  3.21040545e-08  7.60000000e-01 
 7.70000000e-01  3.46089572e-09  3.29345136e-09  4.58340806e-01  3.31016430e-09  4.58340806e-01  3.49495876e-09  3.36755261e-09  1.61015154e-07  3.21039053e-08  7.70000000e-01 
 7.80000000e-01  3.46089572e-09  3.29345142e-09  4.58340793e-01  3.31016430e-09  4.58340793e-01  3.49495876e-09  3.36755261e-09  1.61015126e-07  3.21038698e-08  7.80000000e-01 
 7.90000000e-01  3.46089578e-09  3.29345136e-09  4.58340784e-01  3.31016435e-09  4.58340784e-01  3.49495876e-09  3.36755261e-09  1.61015097e-07  3.21039195e-08  7.90000000e-01 
 8.00000000e-01  3.46089578e-09  3.29345136e-09  4.58340803e-01  3.31016430e-09  4.58340803e-01  3.49495881e-09  3.36755261e-09  1.61015126e-07  3.21037845e-08  8.00000000e-01 
 8.10000000e-01  3.46089578e-09  3.29345136e-09  4.58340791e-01  3.31016430e-09  4.58340791e-01  3.49495876e-09  3.36755261e-09  1.61015097e-07  3.21037277e-08  8.10000000e-01 
 8.20000000e-01  3.46089578e-09  3.29345136e-09  4.58340793e-01  3.31016435e-09  4.58340793e-01  3.49495881e-09  3.36755261e-09  1.61015105e-07  3.21037064e-08  8.20000000e-01 
 8.30000000e-01  3.46089578e-09  3.29345136e-09  4.58340759e-01  3.31016429e-09  4.58340759e-01  3.49495875e-09  3.36755260e-09  1.61015058e-07  3.21035216e-08  8.30000000e-01 
 8.40000000e-01  3.46089578e-09  3.29345142e-09  4.58340793e-01  3.31016435e-09  4.58340793e-01  3.49495876e-09  3.36755261e-09  1.61015107e-07  3.21035358e-08  8.40000000e-01 
 8.50000000e-01  3.46089578e-09  3.29345136e-09  4.58340789e-01  3.31016430e-09  4.58340789e-01  3.49495876e-09  3.36755261e-09  1.61015114e-07  3.21036566e-08  8.50000000e-01 
 8.60000000e-01  3.46089578e-09  3.29345136e-09  4.58340775e-01  3.31016435e-09  4.58340775e-01  3.49495881e-09  3.36755261e-09  1.61015080e-07  3.21035003e-08  8.60000000e-01 
 8.70000000e-01  3.46089572e-09  3.29345136e-09  4.58340798e-01  3.31016435e-09  4.58340798e-01  3.49495881e-09  3.36755261e-09  1.61015111e-07  3.21034435e-08  8.70000000e-01 
 8.80000000e-01  3.46089572e-09  3.29345136e-09  4.58340789e-01  3.31016430e-09  4.58340789e-01  3.49495876e-09  3.36755261e-09  1.61015101e-07  3.21032374e-08  8.80000000e-01 
 8.90000000e-01  3.46089578e-09  3.29345136e-09  4.58340787e-01  3.31016435e-09  4.58340788e-01  3.49495881e-09  3.36755261e-09  1.61015105e-07  3.21032161e-08  8.90000000e-01 
 9.00000000e-01  3.46089572e-09  3.29345136e-09  4.58340796e-01  3.31016430e-09  4.58340796e-01  3.49495876e-09  3.36755261e-09  1.61015124e-07  3.21032800e-08  9.00000000e-01 
 9.10000000e-01  3.46089578e-09  3.29345136e-09  4.58340792e-01  3.31016435e-09  4.58340792e-01  3.49495881e-09  3.36755261e-09  1.61015113e-07  3.21031877e-08  9.10000000e-01 
 9.20000000e-01  3.46089578e-09  3.29345136e-09  4.58340797e-01  3.31016435e-09  4.58340797e-01  3.49495876e-09  3.36755261e-09  1.61015127e-07  3.21031450e-08  9.20000000e-01 
 9.30000000e-01  3.46089578e-09  3.29345136e-09  4.58340781e-01  3.31016430e-09  4.58340781e-01  3.49495875e-09  3.36755261e-09  1.61015089e-07  3.21031735e-08  9.30000000e-01 
 9.40000000e-01  3.46089572e-09  3.29345136e-09  4.58340796e-01  3.31016435e-09  4.58340796e-01  3.49495876e-09  3.36755261e-09  1.61015118e-07  3.21030313e-08  9.40000000e-01 
 9.50000000e-01  3.46089572e-09  3.29345142e-09  4.58340791e-01  3.31016430e-09  4.58340792e-01  3.49495881e-09  3.36755261e-09  1.61015111e-07  3.21029532e-08  9.50000000e-01 
 9.60000000e-01  3.46089572e-09  3.29345136e-09  4.58340797e-01  3.31016435e-09  4.58340797e-01  3.49495881e-09  3.36755261e-09  1.61015112e-07  3.21029603e-08  9.60000000e-01 
 9.70000000e-01  3.46089572e-09  3.29345142e-09  4.58340782e-01  3.31016430e-09  4.58340782e-01  3.49495881e-09  3.36755261e-09  1.61015081e-07  3.21027613e-08  9.70000000e-01 
 9.80000000e-01  3.46089572e-09  3.29345136e-09  4.58340787e-01  3.31016435e-09  4.58340787e-01  3.49495881e-09  3.36755261e-09  1.61015099e-07  3.21027613e-08  9.80000000e-01 
 9.90000000e-01  3.46089578e-09  3.29345142e-09  4.58340779e-01  3.31016430e-09  4.58340779e-01  3.49495881e-09  3.36755261e-09  1.61015091e-07  3.21026477e-08  9.90000000e-01 
 1.00000000e+00  3.46089578e-09  3.29345142e-09  4.58340798e-01  3.31016435e-09  4.58340798e-01  3.49495881e-09  3.36755261e-09  1.61015119e-07  3.21025695e-08  1.00000000e+00 
 1.01000000e+00  3.46089578e-09  3.29345142e-09  4.58340781e-01  3.31016430e-09  4.58340781e-01  3.49495875e-09  3.36755261e-09  1.61015097e-07  3.21027400e-08  1.01000000e+00 
 1.02000000e+00  3.46089578e-09  3.29345136e-09  4.58340810e-01  3.31016435e-09  4.58340810e-01  3.49495876e-09  3.36755261e-09  1.61015144e-07  3.21024771e-08  1.02000000e+00 
 1.03000000e+00  3.46089578e-09  3.29345136e-09  4.58340794e-01  3.31016430e-09  4.58340794e-01  3.49495881e-09  3.36755261e-09  1.61015117e-07  3.21025411e-08  1.03000000e+00 
 1.04000000e+00  3.46089578e-09  3.29345136e-09  4.58340786e-01  3.31016430e-09  4.58340786e-01  3.49495881e-09  3.36755261e-09  1.61015118e-07  3.21023776e-08  1.04000000e+00 
 1.05000000e+00  3.46089578e-09  3.29345136e-09  4.58340820e-01  3.31016430e-09  4.58340820e-01  3.49495876e-09  3.36755261e-09  1.61015154e-07  3.21024061e-08  1.05000000e+00 
 1.06000000e+00  3.46089578e-09  3.29345136e-09  4.58340806e-01  3.31016435e-09  4.58340806e-01  3.49495876e-09  3.36755261e-09  1.61015138e-07  3.21023137e-08  1.06000000e+00 
 1.07000000e+00  3.46089578e-09  3.29345136e-09  4.58340804e-01  3.31016430e-09  4.58340804e-01  3.49495876e-09  3.36755261e-09  1.61015123e-07  3.21022924e-08  1.07000000e+00 
 1.08000000e+00  3.46089578e-09  3.29345136e-09  4.58340782e-01  3.31016435e-09  4.58340782e-01  3.49495875e-09  3.36755261e-09  1.61015090e-07  3.21021147e-08  1.08000000e+00 
 1.09000000e+00  3.46089572e-09  3.29345142e-09  4.58340770e-01  3.31016435e-09  4.58340771e-01  3.49495875e-09  3.36755260e-09  1.61015085e-07  3.21022853e-08  1.09000000e+00 
 1.10000000e+00  3.46089572e-09  3.29345136e-09  4.58340786e-01  3.31016435e-09  4.58340786e-01  3.49495876e-09  3.36755261e-09  1.61015098e-07  3.21021858e-08  1.10000000e+00 
