 v-sweep         v(b0)           v(b1)           v(b2)           v(b3)           v(b4)           v(b5)           v(b6)           i(vbias)        i(viout)        v(vout)        
 0.00000000e+00  4.56597622e-01  3.34579939e-09  3.23765105e-09  4.56597621e-01  3.43920030e-09  3.29746876e-09  3.54177559e-09  1.57148682e-07  1.25207152e-08  0.00000000e+00 
 1.00000000e-02  4.56597594e-01  3.34579943e-09  3.23765109e-09  4.56597594e-01  3.43920033e-09  3.29746873e-09  3.54177555e-09  1.57148637e-07  1.25203454e-08  1.00000000e-02 
 2.00000000e-02  4.56597618e-01  3.34579942e-09  3.23765109e-09  4.56597618e-01  3.43920032e-09  3.29746879e-09  3.54177555e-09  1.57148657e-07  1.25199433e-08  2.00000000e-02 
 3.00000000e-02  4.56597589e-01  3.34579942e-09  3.23765109e-09  4.56597589e-01  3.43920032e-09  3.29746879e-09  3.54177555e-09  1.57148628e-07  1.25196595e-08  3.00000000e-02 
 4.00000000e-02  4.56597593e-01  3.34579936e-09  3.23765103e-09  4.56597593e-01  3.43920032e-09  3.29746873e-09  3.54177555e-09  1.57148622e-07  1.25192909e-08  4.00000000e-02 
 5.00000000e-02  4.56597590e-01  3.34579943e-09  3.23765103e-09  4.56597590e-01  3.43920032e-09  3.29746879e-09  3.54177555e-09  1.57148623e-07  1.25189570e-08  5.00000000e-02 
 6.00000000e-02  4.56597599e-01  3.34579942e-09  3.23765103e-09  4.56597598e-01  3.43920032e-09  3.29746879e-09  3.54177555e-09  1.57148650e-07  1.25186537e-08  6.00000000e-02 
 7.00000000e-02  4.56597610e-01  3.34579942e-09  3.23765109e-09  4.56597610e-01  3.43920032e-09  3.29746879e-09  3.54177555e-09  1.57148670e-07  1.25184934e-08  7.00000000e-02 
 8.00000000e-02  4.56597612e-01  3.34579942e-09  3.23765109e-09  4.56597612e-01  3.43920032e-09  3.29746879e-09  3.54177561e-09  1.57148670e-07  1.25180053e-08  8.00000000e-02 
 9.00000000e-02  4.56597603e-01  3.34579936e-09  3.23765103e-09  4.56597603e-01  3.43920032e-09  3.29746879e-09  3.54177555e-09  1.57148664e-07  1.25178472e-08  9.00000000e-02 
 1.00000000e-01  4.56597588e-01  3.34579943e-09  3.23765109e-09  4.56597588e-01  3.43920027e-09  3.29746873e-09  3.54177555e-09  1.57148632e-07  1.25176065e-08  1.00000000e-01 
 1.10000000e-01  4.56597605e-01  3.34579942e-09  3.23765103e-09  4.56597605e-01  3.43920034e-09  3.29746879e-09  3.54177555e-09  1.57148663e-07  1.25173489e-08  1.10000000e-01 
 1.20000000e-01  4.56597602e-01  3.34579942e-09  3.23765109e-09  4.56597602e-01  3.43920032e-09  3.29746879e-09  3.54177555e-09  1.57148655e-07  1.25169652e-08  1.20000000e-01 
 1.30000000e-01  4.56597611e-01  3.34579942e-09  3.23765103e-09  4.56597611e-01  3.43920032e-09  3.29746873e-09  3.54177561e-09  1.57148662e-07  1.25169022e-08  1.30000000e-01 
 1.40000000e-01  4.56597594e-01  3.34579942e-09  3.23765109e-09  4.56597594e-01  3.43920027e-09  3.29746873e-09  3.54177555e-09  1.57148645e-07  1.25166748e-08  1.40000000e-01 
 1.50000000e-01  4.56597605e-01  3.34579936e-09  3.23765109e-09  4.56597605e-01  3.43920034e-09  3.29746879e-09  3.54177555e-09  1.57148661e-07  1.25164359e-08  1.50000000e-01 
 1.60000000e-01  4.56597591e-01  3.34579943e-09  3.23765109e-09  4.56597590e-01  3.43920032e-09  3.29746873e-09  3.54177555e-09  1.57148633e-07  1.25162352e-08  1.60000000e-01 
 1.70000000e-01  4.56597595e-01  3.34579941e-09  3.23765109e-09  4.56597594e-01  3.43920027e-09  3.29746873e-09  3.54177555e-09  1.57148643e-07  1.25160202e-08  1.70000000e-01 
 1.80000000e-01  4.56597608e-01  3.34579936e-09  3.23765109e-09  4.56597608e-01  3.43920028e-09  3.29746873e-09  3.54177555e-09  1.57148666e-07  1.25160682e-08  1.80000000e-01 
 1.90000000e-01  4.56597617e-01  3.34579943e-09  3.23765109e-09  4.56597617e-01  3.43920027e-09  3.29746873e-09  3.54177555e-09  1.57148677e-07  1.25157378e-08  1.90000000e-01 
 2.00000000e-01  4.56597612e-01  3.34579942e-09  3.23765109e-09  4.56597612e-01  3.43920033e-09  3.29746873e-09  3.54177555e-09  1.57148670e-07  1.25156632e-08  2.00000000e-01 
 2.10000000e-01  4.56597610e-01  3.34579936e-09  3.23765109e-09  4.56597609e-01  3.43920026e-09  3.29746879e-09  3.54177555e-09  1.57148669e-07  1.25154127e-08  2.10000000e-01 
 2.20000000e-01  4.56597600e-01  3.34579938e-09  3.23765109e-09  4.56597599e-01  3.43920034e-09  3.29746879e-09  3.54177555e-09  1.57148646e-07  1.25153257e-08  2.20000000e-01 
 2.30000000e-01  4.56597615e-01  3.34579943e-09  3.23765109e-09  4.56597615e-01  3.43920032e-09  3.29746873e-09  3.54177555e-09  1.57148677e-07  1.25151303e-08  2.30000000e-01 
 2.40000000e-01  4.56597609e-01  3.34579942e-09  3.23765109e-09  4.56597609e-01  3.43920032e-09  3.29746873e-09  3.54177555e-09  1.57148661e-07  1.25150059e-08  2.40000000e-01 
 2.50000000e-01  4.56597620e-01  3.34579942e-09  3.23765109e-09  4.56597620e-01  3.43920032e-09  3.29746879e-09  3.54177556e-09  1.57148681e-07  1.25150024e-08  2.50000000e-01 
 2.60000000e-01  4.56597593e-01  3.34579936e-09  3.23765109e-09  4.56597593e-01  3.43920032e-09  3.29746873e-09  3.54177555e-09  1.57148644e-07  1.25148176e-08  2.60000000e-01 
 2.70000000e-01  4.56597594e-01  3.34579943e-09  3.23765109e-09  4.56597593e-01  3.43920032e-09  3.29746879e-09  3.54177555e-09  1.57148644e-07  1.25147750e-08  2.70000000e-01 
 2.80000000e-01  4.56597613e-01  3.34579936e-09  3.23765109e-09  4.56597612e-01  3.43920032e-09  3.29746873e-09  3.54177555e-09  1.57148663e-07  1.25145512e-08  2.80000000e-01 
 2.90000000e-01  4.56597577e-01  3.34579937e-09  3.23765108e-09  4.56597577e-01  3.43920032e-09  3.29746879e-09  3.54177555e-09  1.57148605e-07  1.25145547e-08  2.90000000e-01 
 3.00000000e-01  4.56597587e-01  3.34579943e-09  3.23765109e-09  4.56597587e-01  3.43920027e-09  3.29746873e-09  3.54177555e-09  1.57148620e-07  1.25143558e-08  3.00000000e-01 
 3.10000000e-01  4.56597576e-01  3.34579941e-09  3.23765103e-09  4.56597576e-01  3.43920028e-09  3.29746879e-09  3.54177555e-09  1.57148608e-07  1.25142137e-08  3.10000000e-01 
 3.20000000e-01  4.56597587e-01  3.34579942e-09  3.23765109e-09  4.56597587e-01  3.43920033e-09  3.29746873e-09  3.54177555e-09  1.57148626e-07  1.25143060e-08  3.20000000e-01 
 3.30000000e-01  4.56597621e-01  3.34579937e-09  3.23765103e-09  4.56597620e-01  3.43920032e-09  3.29746873e-09  3.54177556e-09  1.57148668e-07  1.25141355e-08  3.30000000e-01 
 3.40000000e-01  4.56597599e-01  3.34579938e-09  3.23765103e-09  4.56597598e-01  3.43920032e-09  3.29746879e-09  3.54177561e-09  1.57148643e-07  1.25140041e-08  3.40000000e-01 
 3.50000000e-01  4.56597612e-01  3.34579943e-09  3.23765109e-09  4.56597611e-01  3.43920027e-09  3.29746873e-09  3.54177555e-09  1.57148664e-07  1.25139330e-08  3.50000000e-01 
 3.60000000e-01  4.56597582e-01  3.34579941e-09  3.23765109e-09  4.56597581e-01  3.43920028e-09  3.29746879e-09  3.54177555e-09  1.57148614e-07  1.25137483e-08  3.60000000e-01 
 3.70000000e-01  4.56597605e-01  3.34579936e-09  3.23765109e-09  4.56597605e-01  3.43920033e-09  3.29746873e-09  3.54177555e-09  1.57148671e-07  1.25137696e-08  3.70000000e-01 
 3.80000000e-01  4.56597599e-01  3.34579943e-09  3.23765109e-09  4.56597598e-01  3.43920032e-09  3.29746873e-09  3.54177555e-09  1.57148648e-07  1.25136950e-08  3.80000000e-01 
 3.90000000e-01  4.56597593e-01  3.34579936e-09  3.23765109e-09  4.56597593e-01  3.43920032e-09  3.29746879e-09  3.54177555e-09  1.57148637e-07  1.25136772e-08  3.90000000e-01 
 4.00000000e-01  4.56597616e-01  3.34579943e-09  3.23765103e-09  4.56597616e-01  3.43920032e-09  3.29746879e-09  3.54177555e-09  1.57148676e-07  1.25135493e-08  4.00000000e-01 
 4.10000000e-01  4.56597592e-01  3.34579936e-09  3.23765109e-09  4.56597591e-01  3.43920032e-09  3.29746879e-09  3.54177555e-09  1.57148640e-07  1.25136062e-08  4.10000000e-01 
 4.20000000e-01  4.56597609e-01  3.34579943e-09  3.23765109e-09  4.56597609e-01  3.43920032e-09  3.29746873e-09  3.54177555e-09  1.57148658e-07  1.25135209e-08  4.20000000e-01 
 4.30000000e-01  4.56597594e-01  3.34579941e-09  3.23765109e-09  4.56597594e-01  3.43920032e-09  3.29746873e-09  3.54177555e-09  1.57148646e-07  1.25133290e-08  4.30000000e-01 
 4.40000000e-01  4.56597589e-01  3.34579936e-09  3.23765109e-09  4.56597589e-01  3.43920032e-09  3.29746873e-09  3.54177555e-09  1.57148634e-07  1.25133823e-08  4.40000000e-01 
 4.50000000e-01  4.56597592e-01  3.34579943e-09  3.23765103e-09  4.56597592e-01  3.43920032e-09  3.29746873e-09  3.54177555e-09  1.57148641e-07  1.25132544e-08  4.50000000e-01 
 4.60000000e-01  4.56597611e-01  3.34579936e-09  3.23765109e-09  4.56597611e-01  3.43920032e-09  3.29746879e-09  3.54177555e-09  1.57148668e-07  1.25132047e-08  4.60000000e-01 
 4.70000000e-01  4.56597596e-01  3.34579938e-09  3.23765109e-09  4.56597596e-01  3.43920027e-09  3.29746873e-09  3.54177555e-09  1.57148636e-07  1.25131194e-08  4.70000000e-01 
 4.80000000e-01  4.56597599e-01  3.34579937e-09  3.23765109e-09  4.56597599e-01  3.43920028e-09  3.29746879e-09  3.54177555e-09  1.57148653e-07  1.25130057e-08  4.80000000e-01 
 4.90000000e-01  4.56597593e-01  3.34579943e-09  3.23765109e-09  4.56597593e-01  3.43920033e-09  3.29746879e-09  3.54177555e-09  1.57148644e-07  1.25129915e-08  4.90000000e-01 
 5.00000000e-01  4.56597617e-01  3.34579936e-09  3.23765103e-09  4.56597617e-01  3.43920032e-09  3.29746879e-09  3.54177555e-09  1.57148679e-07  1.25128281e-08  5.00000000e-01 
 5.10000000e-01  4.56597614e-01  3.34579943e-09  3.23765109e-09  4.56597614e-01  3.43920032e-09  3.29746873e-09  3.54177555e-09  1.57148677e-07  1.25128352e-08  5.10000000e-01 
 5.20000000e-01  4.56597594e-01  3.34579936e-09  3.23765109e-09  4.56597594e-01  3.43920032e-09  3.29746873e-09  3.54177555e-09  1.57148630e-07  1.25128210e-08  5.20000000e-01 
 5.30000000e-01  4.56597613e-01  3.34579938e-09  3.23765103e-09  4.56597613e-01  3.43920032e-09  3.29746879e-09  3.54177555e-09  1.57148661e-07  1.25128139e-08  5.30000000e-01 
 5.40000000e-01  4.56597587e-01  3.34579943e-09  3.23765109e-09  4.56597587e-01  3.43920027e-09  3.29746873e-09  3.54177555e-09  1.57148638e-07  1.25128068e-08  5.40000000e-01 
 5.50000000e-01  4.56597613e-01  3.34579936e-09  3.23765109e-09  4.56597613e-01  3.43920028e-09  3.29746879e-09  3.54177555e-09  1.57148649e-07  1.25126185e-08  5.50000000e-01 
 5.60000000e-01  4.56597626e-01  3.34579943e-09  3.23765109e-09  4.56597626e-01  3.43920027e-09  3.29746873e-09  3.54177556e-09  1.57148697e-07  1.25126611e-08  5.60000000e-01 
 5.70000000e-01  4.56597591e-01  3.34579936e-09  3.23765103e-09  4.56597591e-01  3.43920033e-09  3.29746873e-09  3.54177555e-09  1.57148634e-07  1.25126540e-08  5.70000000e-01 
 5.80000000e-01  4.56597594e-01  3.34579938e-09  3.23765109e-09  4.56597594e-01  3.43920032e-09  3.29746873e-09  3.54177555e-09  1.57148633e-07  1.25124870e-08  5.80000000e-01 
 5.90000000e-01  4.56597608e-01  3.34579943e-09  3.23765109e-09  4.56597608e-01  3.43920032e-09  3.29746873e-09  3.54177555e-09  1.57148663e-07  1.25124444e-08  5.90000000e-01 
 6.00000000e-01  4.56597605e-01  3.34579942e-09  3.23765109e-09  4.56597605e-01  3.43920032e-09  3.29746873e-09  3.54177555e-09  1.57148651e-07  1.25123947e-08  6.00000000e-01 
 6.10000000e-01  4.56597619e-01  3.34579942e-09  3.23765109e-09  4.56597619e-01  3.43920032e-09  3.29746873e-09  3.54177556e-09  1.57148675e-07  1.25123734e-08  6.10000000e-01 
 6.20000000e-01  4.56597603e-01  3.34579936e-09  3.23765103e-09  4.56597603e-01  3.43920032e-09  3.29746873e-09  3.54177555e-09  1.57148649e-07  1.25123449e-08  6.20000000e-01 
 6.30000000e-01  4.56597604e-01  3.34579938e-09  3.23765103e-09  4.56597603e-01  3.43920032e-09  3.29746873e-09  3.54177555e-09  1.57148643e-07  1.25121673e-08  6.30000000e-01 
 6.40000000e-01  4.56597630e-01  3.34579943e-09  3.23765109e-09  4.56597630e-01  3.43920027e-09  3.29746873e-09  3.54177556e-09  1.57148682e-07  1.25123378e-08  6.40000000e-01 
 6.50000000e-01  4.56597582e-01  3.34579941e-09  3.23765103e-09  4.56597582e-01  3.43920033e-09  3.29746873e-09  3.54177555e-09  1.57148619e-07  1.25120678e-08  6.50000000e-01 
 6.60000000e-01  4.56597610e-01  3.34579942e-09  3.23765109e-09  4.56597609e-01  3.43920032e-09  3.29746879e-09  3.54177555e-09  1.57148660e-07  1.25120891e-08  6.60000000e-01 
 6.70000000e-01  4.56597607e-01  3.34579936e-09  3.23765109e-09  4.56597607e-01  3.43920027e-09  3.29746873e-09  3.54177555e-09  1.57148649e-07  1.25120678e-08  6.70000000e-01 
 6.80000000e-01  4.56597586e-01  3.34579938e-09  3.23765103e-09  4.56597586e-01  3.43920033e-09  3.29746873e-09  3.54177555e-09  1.57148626e-07  1.25118547e-08  6.80000000e-01 
 6.90000000e-01  4.56597613e-01  3.34579937e-09  3.23765109e-09  4.56597613e-01  3.43920032e-09  3.29746873e-09  3.54177561e-09  1.57148657e-07  1.25119328e-08  6.90000000e-01 
 7.00000000e-01  4.56597598e-01  3.34579943e-09  3.23765109e-09  4.56597598e-01  3.43920032e-09  3.29746873e-09  3.54177555e-09  1.57148646e-07  1.25118973e-08  7.00000000e-01 
 7.10000000e-01  4.56597601e-01  3.34579942e-09  3.23765109e-09  4.56597601e-01  3.43920032e-09  3.29746873e-09  3.54177555e-09  1.57148661e-07  1.25118049e-08  7.10000000e-01 
 7.20000000e-01  4.56597629e-01  3.34579942e-09  3.23765109e-09  4.56597629e-01  3.43920032e-09  3.29746879e-09  3.54177556e-09  1.57148687e-07  1.25118760e-08  7.20000000e-01 
 7.30000000e-01  4.56597609e-01  3.34579936e-09  3.23765109e-09  4.56597609e-01  3.43920027e-09  3.29746873e-09  3.54177555e-09  1.57148661e-07  1.25117054e-08  7.30000000e-01 
 7.40000000e-01  4.56597600e-01  3.34579938e-09  3.23765109e-09  4.56597600e-01  3.43920028e-09  3.29746879e-09  3.54177555e-09  1.57148649e-07  1.25117197e-08  7.40000000e-01 
 7.50000000e-01  4.56597619e-01  3.34579943e-09  3.23765109e-09  4.56597619e-01  3.43920033e-09  3.29746879e-09  3.54177556e-09  1.57148680e-07  1.25116486e-08  7.50000000e-01 
 7.60000000e-01  4.56597600e-01  3.34579936e-09  3.23765109e-09  4.56597600e-01  3.43920026e-09  3.29746873e-09  3.54177555e-09  1.57148646e-07  1.25116699e-08  7.60000000e-01 
 7.70000000e-01  4.56597616e-01  3.34579943e-09  3.23765103e-09  4.56597616e-01  3.43920034e-09  3.29746879e-09  3.54177555e-09  1.57148666e-07  1.25115420e-08  7.70000000e-01 
 7.80000000e-01  4.56597597e-01  3.34579941e-09  3.23765109e-09  4.56597597e-01  3.43920032e-09  3.29746879e-09  3.54177555e-09  1.57148646e-07  1.25114710e-08  7.80000000e-01 
 7.90000000e-01  4.56597614e-01  3.34579937e-09  3.23765109e-09  4.56597614e-01  3.43920032e-09  3.29746873e-09  3.54177555e-09  1.57148673e-07  1.25113431e-08  7.90000000e-01 
 8.00000000e-01  4.56597614e-01  3.34579938e-09  3.23765109e-09  4.56597614e-01  3.43920032e-09  3.29746873e-09  3.54177555e-09  1.57148675e-07  1.25113360e-08  8.00000000e-01 
 8.10000000e-01  4.56597603e-01  3.34579943e-09  3.23765109e-09  4.56597603e-01  3.43920032e-09  3.29746879e-09  3.54177555e-09  1.57148660e-07  1.25112720e-08  8.10000000e-01 
 8.20000000e-01  4.56597609e-01  3.34579942e-09  3.23765109e-09  4.56597609e-01  3.43920032e-09  3.29746879e-09  3.54177555e-09  1.57148656e-07  1.25111868e-08  8.20000000e-01 
 8.30000000e-01  4.56597595e-01  3.34579936e-09  3.23765109e-09  4.56597595e-01  3.43920032e-09  3.29746879e-09  3.54177555e-09  1.57148635e-07  1.25112010e-08  8.30000000e-01 
 8.40000000e-01  4.56597574e-01  3.34579943e-09  3.23765108e-09  4.56597574e-01  3.43920032e-09  3.29746879e-09  3.54177561e-09  1.57148626e-07  1.25111015e-08  8.40000000e-01 
 8.50000000e-01  4.56597620e-01  3.34579942e-09  3.23765109e-09  4.56597620e-01  3.43920032e-09  3.29746873e-09  3.54177556e-09  1.57148685e-07  1.25111086e-08  8.50000000e-01 
 8.60000000e-01  4.56597601e-01  3.34579942e-09  3.23765109e-09  4.56597601e-01  3.43920032e-09  3.29746873e-09  3.54177555e-09  1.57148640e-07  1.25111086e-08  8.60000000e-01 
 8.70000000e-01  4.56597617e-01  3.34579937e-09  3.23765109e-09  4.56597617e-01  3.43920032e-09  3.29746873e-09  3.54177555e-09  1.57148670e-07  1.25110304e-08  8.70000000e-01 
 8.80000000e-01  4.56597611e-01  3.34579943e-09  3.23765109e-09  4.56597610e-01  3.43920027e-09  3.29746879e-09  3.54177555e-09  1.57148664e-07  1.25107746e-08  8.80000000e-01 
 8.90000000e-01  4.56597591e-01  3.34579936e-09  3.23765109e-09  4.56597590e-01  3.43920028e-09  3.29746879e-09  3.54177555e-09  1.57148648e-07  1.25108457e-08  8.90000000e-01 
 9.00000000e-01  4.56597608e-01  3.34579938e-09  3.23765103e-09  4.56597608e-01  3.43920033e-09  3.29746873e-09  3.54177555e-09  1.57148662e-07  1.25108812e-08  9.00000000e-01 
 9.10000000e-01  4.56597621e-01  3.34579943e-09  3.23765109e-09  4.56597620e-01  3.43920032e-09  3.29746879e-09  3.54177556e-09  1.57148676e-07  1.25108883e-08  9.10000000e-01 
 9.20000000e-01  4.56597606e-01  3.34579942e-09  3.23765109e-09  4.56597606e-01  3.43920027e-09  3.29746873e-09  3.54177555e-09  1.57148651e-07  1.25106823e-08  9.20000000e-01 
 9.30000000e-01  4.56597592e-01  3.34579942e-09  3.23765109e-09  4.56597592e-01  3.43920028e-09  3.29746873e-09  3.54177555e-09  1.57148635e-07  1.25106467e-08  9.30000000e-01 
 9.40000000e-01  4.56597602e-01  3.34579942e-09  3.23765103e-09  4.56597602e-01  3.43920027e-09  3.29746879e-09  3.54177555e-09  1.57148648e-07  1.25106041e-08  9.40000000e-01 
 9.50000000e-01  4.56597605e-01  3.34579936e-09  3.23765109e-09  4.56597605e-01  3.43920033e-09  3.29746873e-09  3.54177555e-09  1.57148667e-07  1.25105970e-08  9.50000000e-01 
 9.60000000e-01  4.56597585e-01  3.34579943e-09  3.23765109e-09  4.56597585e-01  3.43920032e-09  3.29746873e-09  3.54177555e-09  1.57148629e-07  1.25104265e-08  9.60000000e-01 
 9.70000000e-01  4.56597600e-01  3.34579936e-09  3.23765109e-09  4.56597600e-01  3.43920032e-09  3.29746873e-09  3.54177555e-09  1.57148643e-07  1.25105615e-08  9.70000000e-01 
 9.80000000e-01  4.56597601e-01  3.34579938e-09  3.23765109e-09  4.56597601e-01  3.43920032e-09  3.29746873e-09  3.54177555e-09  1.57148650e-07  1.25104478e-08  9.80000000e-01 
 9.90000000e-01  4.56597610e-01  3.34579943e-09  3.23765109e-09  4.56597610e-01  3.43920032e-09  3.29746879e-09  3.54177555e-09  1.57148658e-07  1.25104052e-08  9.90000000e-01 
 1.00000000e+00  4.56597601e-01  3.34579942e-09  3.23765109e-09  4.56597601e-01  3.43920032e-09  3.29746873e-09  3.54177555e-09  1.57148651e-07  1.25102915e-08  1.00000000e+00 
 1.01000000e+00  4.56597595e-01  3.34579942e-09  3.23765109e-09  4.56597595e-01  3.43920032e-09  3.29746873e-09  3.54177555e-09  1.57148641e-07  1.25101920e-08  1.01000000e+00 
 1.02000000e+00  4.56597594e-01  3.34579942e-09  3.23765109e-09  4.56597594e-01  3.43920027e-09  3.29746879e-09  3.54177555e-09  1.57148634e-07  1.25101707e-08  1.02000000e+00 
 1.03000000e+00  4.56597587e-01  3.34579936e-09  3.23765109e-09  4.56597587e-01  3.43920028e-09  3.29746873e-09  3.54177555e-09  1.57148638e-07  1.25101849e-08  1.03000000e+00 
 1.04000000e+00  4.56597626e-01  3.34579938e-09  3.23765109e-09  4.56597626e-01  3.43920033e-09  3.29746873e-09  3.54177556e-09  1.57148694e-07  1.25100854e-08  1.04000000e+00 
 1.05000000e+00  4.56597597e-01  3.34579937e-09  3.23765109e-09  4.56597597e-01  3.43920032e-09  3.29746879e-09  3.54177555e-09  1.57148641e-07  1.25100499e-08  1.05000000e+00 
 1.06000000e+00  4.56597610e-01  3.34579937e-09  3.23765109e-09  4.56597610e-01  3.43920032e-09  3.29746879e-09  3.54177555e-09  1.57148665e-07  1.25099788e-08  1.06000000e+00 
 1.07000000e+00  4.56597593e-01  3.34579943e-09  3.23765109e-09  4.56597593e-01  3.43920032e-09  3.29746879e-09  3.54177555e-09  1.57148636e-07  1.25099504e-08  1.07000000e+00 
 1.08000000e+00  4.56597617e-01  3.34579942e-09  3.23765109e-09  4.56597617e-01  3.43920032e-09  3.29746873e-09  3.54177555e-09  1.57148666e-07  1.25098083e-08  1.08000000e+00 
 1.09000000e+00  4.56597604e-01  3.34579936e-09  3.23765109e-09  4.56597604e-01  3.43920027e-09  3.29746873e-09  3.54177555e-09  1.57148647e-07  1.25098154e-08  1.09000000e+00 
 1.10000000e+00  4.56597606e-01  3.34579938e-09  3.23765109e-09  4.56597606e-01  3.43920034e-09  3.29746873e-09  3.54177555e-09  1.57148661e-07  1.25099220e-08  1.10000000e+00 
