 v-sweep         v(b0)           v(b1)           v(b2)           v(b3)           v(b4)           v(b5)           v(b6)           i(vbias)        i(viout)        v(vout)        
 0.00000000e+00  4.58609409e-01  3.59069777e-09  4.58609409e-01  3.08694057e-09  4.58609409e-01  4.58609409e-01  4.58609409e-01  1.58875664e-07  1.73472746e-07  0.00000000e+00 
 1.00000000e-02  4.58609406e-01  3.59069780e-09  4.58609406e-01  3.08694060e-09  4.58609406e-01  4.58609406e-01  4.58609406e-01  1.58875658e-07  1.73472152e-07  1.00000000e-02 
 2.00000000e-02  4.58609406e-01  3.59069780e-09  4.58609406e-01  3.08694054e-09  4.58609406e-01  4.58609406e-01  4.58609406e-01  1.58875654e-07  1.73471708e-07  2.00000000e-02 
 3.00000000e-02  4.58609402e-01  3.59069780e-09  4.58609402e-01  3.08694054e-09  4.58609402e-01  4.58609402e-01  4.58609402e-01  1.58875642e-07  1.73471443e-07  3.00000000e-02 
 4.00000000e-02  4.58609414e-01  3.59069780e-09  4.58609414e-01  3.08694054e-09  4.58609414e-01  4.58609414e-01  4.58609414e-01  1.58875682e-07  1.73470947e-07  4.00000000e-02 
 5.00000000e-02  4.58609417e-01  3.59069780e-09  4.58609417e-01  3.08694054e-09  4.58609417e-01  4.58609417e-01  4.58609417e-01  1.58875681e-07  1.73470502e-07  5.00000000e-02 
 6.00000000e-02  4.58609392e-01  3.59069780e-09  4.58609392e-01  3.08694054e-09  4.58609392e-01  4.58609392e-01  4.58609392e-01  1.58875640e-07  1.73470184e-07  6.00000000e-02 
 7.00000000e-02  4.58609398e-01  3.59069780e-09  4.58609397e-01  3.08694054e-09  4.58609397e-01  4.58609397e-01  4.58609398e-01  1.58875643e-07  1.73469748e-07  7.00000000e-02 
 8.00000000e-02  4.58609417e-01  3.59069780e-09  4.58609417e-01  3.08694054e-09  4.58609417e-01  4.58609417e-01  4.58609417e-01  1.58875672e-07  1.73469545e-07  8.00000000e-02 
 9.00000000e-02  4.58609410e-01  3.59069780e-09  4.58609410e-01  3.08694054e-09  4.58609410e-01  4.58609410e-01  4.58609410e-01  1.58875665e-07  1.73469134e-07  9.00000000e-02 
 1.00000000e-01  4.58609418e-01  3.59069780e-09  4.58609418e-01  3.08694054e-09  4.58609418e-01  4.58609418e-01  4.58609418e-01  1.58875682e-07  1.73468879e-07  1.00000000e-01 
 1.10000000e-01  4.58609423e-01  3.59069780e-09  4.58609423e-01  3.08694060e-09  4.58609423e-01  4.58609423e-01  4.58609423e-01  1.58875693e-07  1.73468579e-07  1.10000000e-01 
 1.20000000e-01  4.58609416e-01  3.59069780e-09  4.58609416e-01  3.08694054e-09  4.58609416e-01  4.58609416e-01  4.58609416e-01  1.58875679e-07  1.73468222e-07  1.20000000e-01 
 1.30000000e-01  4.58609403e-01  3.59069780e-09  4.58609403e-01  3.08694060e-09  4.58609403e-01  4.58609403e-01  4.58609403e-01  1.58875669e-07  1.73467980e-07  1.30000000e-01 
 1.40000000e-01  4.58609413e-01  3.59069780e-09  4.58609413e-01  3.08694054e-09  4.58609413e-01  4.58609413e-01  4.58609413e-01  1.58875663e-07  1.73467740e-07  1.40000000e-01 
 1.50000000e-01  4.58609422e-01  3.59069774e-09  4.58609422e-01  3.08694054e-09  4.58609422e-01  4.58609422e-01  4.58609422e-01  1.58875681e-07  1.73467516e-07  1.50000000e-01 
 1.60000000e-01  4.58609391e-01  3.59069780e-09  4.58609391e-01  3.08694054e-09  4.58609391e-01  4.58609391e-01  4.58609391e-01  1.58875648e-07  1.73467122e-07  1.60000000e-01 
 1.70000000e-01  4.58609417e-01  3.59069780e-09  4.58609417e-01  3.08694054e-09  4.58609417e-01  4.58609417e-01  4.58609417e-01  1.58875673e-07  1.73467008e-07  1.70000000e-01 
 1.80000000e-01  4.58609408e-01  3.59069780e-09  4.58609408e-01  3.08694054e-09  4.58609408e-01  4.58609408e-01  4.58609408e-01  1.58875643e-07  1.73466709e-07  1.80000000e-01 
 1.90000000e-01  4.58609398e-01  3.59069780e-09  4.58609398e-01  3.08694054e-09  4.58609398e-01  4.58609398e-01  4.58609398e-01  1.58875639e-07  1.73466329e-07  1.90000000e-01 
 2.00000000e-01  4.58609386e-01  3.59069780e-09  4.58609386e-01  3.08694054e-09  4.58609386e-01  4.58609386e-01  4.58609386e-01  1.58875624e-07  1.73466256e-07  2.00000000e-01 
 2.10000000e-01  4.58609411e-01  3.59069780e-09  4.58609411e-01  3.08694054e-09  4.58609411e-01  4.58609411e-01  4.58609411e-01  1.58875663e-07  1.73466058e-07  2.10000000e-01 
 2.20000000e-01  4.58609398e-01  3.59069780e-09  4.58609398e-01  3.08694054e-09  4.58609398e-01  4.58609398e-01  4.58609398e-01  1.58875655e-07  1.73465782e-07  2.20000000e-01 
 2.30000000e-01  4.58609416e-01  3.59069780e-09  4.58609416e-01  3.08694060e-09  4.58609416e-01  4.58609416e-01  4.58609416e-01  1.58875680e-07  1.73465676e-07  2.30000000e-01 
 2.40000000e-01  4.58609398e-01  3.59069780e-09  4.58609398e-01  3.08694054e-09  4.58609398e-01  4.58609398e-01  4.58609398e-01  1.58875649e-07  1.73465363e-07  2.40000000e-01 
 2.50000000e-01  4.58609421e-01  3.59069780e-09  4.58609421e-01  3.08694060e-09  4.58609421e-01  4.58609421e-01  4.58609421e-01  1.58875684e-07  1.73465288e-07  2.50000000e-01 
 2.60000000e-01  4.58609423e-01  3.59069780e-09  4.58609423e-01  3.08694060e-09  4.58609423e-01  4.58609423e-01  4.58609423e-01  1.58875677e-07  1.73465212e-07  2.60000000e-01 
 2.70000000e-01  4.58609416e-01  3.59069780e-09  4.58609416e-01  3.08694060e-09  4.58609416e-01  4.58609416e-01  4.58609416e-01  1.58875676e-07  1.73464867e-07  2.70000000e-01 
 2.80000000e-01  4.58609400e-01  3.59069780e-09  4.58609400e-01  3.08694060e-09  4.58609400e-01  4.58609400e-01  4.58609400e-01  1.58875655e-07  1.73464752e-07  2.80000000e-01 
 2.90000000e-01  4.58609420e-01  3.59069780e-09  4.58609420e-01  3.08694060e-09  4.58609420e-01  4.58609420e-01  4.58609420e-01  1.58875677e-07  1.73464613e-07  2.90000000e-01 
 3.00000000e-01  4.58609395e-01  3.59069780e-09  4.58609395e-01  3.08694060e-09  4.58609395e-01  4.58609395e-01  4.58609395e-01  1.58875633e-07  1.73464176e-07  3.00000000e-01 
 3.10000000e-01  4.58609405e-01  3.59069780e-09  4.58609405e-01  3.08694060e-09  4.58609405e-01  4.58609405e-01  4.58609405e-01  1.58875649e-07  1.73464212e-07  3.10000000e-01 
 3.20000000e-01  4.58609409e-01  3.59069780e-09  4.58609409e-01  3.08694054e-09  4.58609409e-01  4.58609409e-01  4.58609409e-01  1.58875651e-07  1.73463995e-07  3.20000000e-01 
 3.30000000e-01  4.58609410e-01  3.59069780e-09  4.58609410e-01  3.08694060e-09  4.58609410e-01  4.58609410e-01  4.58609410e-01  1.58875663e-07  1.73463892e-07  3.30000000e-01 
 3.40000000e-01  4.58609405e-01  3.59069780e-09  4.58609405e-01  3.08694054e-09  4.58609405e-01  4.58609405e-01  4.58609405e-01  1.58875666e-07  1.73463746e-07  3.40000000e-01 
 3.50000000e-01  4.58609442e-01  3.59069780e-09  4.58609442e-01  3.08694060e-09  4.58609442e-01  4.58609442e-01  4.58609442e-01  1.58875710e-07  1.73463761e-07  3.50000000e-01 
 3.60000000e-01  4.58609430e-01  3.59069780e-09  4.58609430e-01  3.08694060e-09  4.58609430e-01  4.58609430e-01  4.58609430e-01  1.58875692e-07  1.73463466e-07  3.60000000e-01 
 3.70000000e-01  4.58609407e-01  3.59069780e-09  4.58609407e-01  3.08694060e-09  4.58609407e-01  4.58609407e-01  4.58609407e-01  1.58875658e-07  1.73463281e-07  3.70000000e-01 
 3.80000000e-01  4.58609418e-01  3.59069780e-09  4.58609418e-01  3.08694054e-09  4.58609418e-01  4.58609418e-01  4.58609418e-01  1.58875662e-07  1.73463167e-07  3.80000000e-01 
 3.90000000e-01  4.58609404e-01  3.59069780e-09  4.58609404e-01  3.08694054e-09  4.58609404e-01  4.58609404e-01  4.58609404e-01  1.58875654e-07  1.73462983e-07  3.90000000e-01 
 4.00000000e-01  4.58609443e-01  3.59069780e-09  4.58609443e-01  3.08694060e-09  4.58609443e-01  4.58609443e-01  4.58609443e-01  1.58875704e-07  1.73463032e-07  4.00000000e-01 
 4.10000000e-01  4.58609410e-01  3.59069780e-09  4.58609410e-01  3.08694060e-09  4.58609410e-01  4.58609410e-01  4.58609410e-01  1.58875670e-07  1.73462684e-07  4.10000000e-01 
 4.20000000e-01  4.58609415e-01  3.59069780e-09  4.58609415e-01  3.08694060e-09  4.58609415e-01  4.58609415e-01  4.58609415e-01  1.58875670e-07  1.73462613e-07  4.20000000e-01 
 4.30000000e-01  4.58609414e-01  3.59069780e-09  4.58609414e-01  3.08694060e-09  4.58609414e-01  4.58609414e-01  4.58609414e-01  1.58875676e-07  1.73462375e-07  4.30000000e-01 
 4.40000000e-01  4.58609391e-01  3.59069780e-09  4.58609391e-01  3.08694054e-09  4.58609391e-01  4.58609391e-01  4.58609391e-01  1.58875632e-07  1.73462279e-07  4.40000000e-01 
 4.50000000e-01  4.58609413e-01  3.59069780e-09  4.58609413e-01  3.08694054e-09  4.58609413e-01  4.58609413e-01  4.58609413e-01  1.58875665e-07  1.73462229e-07  4.50000000e-01 
 4.60000000e-01  4.58609400e-01  3.59069774e-09  4.58609400e-01  3.08694060e-09  4.58609400e-01  4.58609400e-01  4.58609400e-01  1.58875655e-07  1.73462038e-07  4.60000000e-01 
 4.70000000e-01  4.58609423e-01  3.59069780e-09  4.58609423e-01  3.08694054e-09  4.58609423e-01  4.58609423e-01  4.58609423e-01  1.58875682e-07  1.73461991e-07  4.70000000e-01 
 4.80000000e-01  4.58609389e-01  3.59069780e-09  4.58609389e-01  3.08694060e-09  4.58609389e-01  4.58609389e-01  4.58609389e-01  1.58875627e-07  1.73461665e-07  4.80000000e-01 
 4.90000000e-01  4.58609416e-01  3.59069780e-09  4.58609416e-01  3.08694060e-09  4.58609415e-01  4.58609416e-01  4.58609416e-01  1.58875665e-07  1.73461682e-07  4.90000000e-01 
 5.00000000e-01  4.58609408e-01  3.59069780e-09  4.58609408e-01  3.08694054e-09  4.58609408e-01  4.58609408e-01  4.58609408e-01  1.58875656e-07  1.73461533e-07  5.00000000e-01 
 5.10000000e-01  4.58609419e-01  3.59069780e-09  4.58609419e-01  3.08694054e-09  4.58609419e-01  4.58609419e-01  4.58609419e-01  1.58875672e-07  1.73461451e-07  5.10000000e-01 
 5.20000000e-01  4.58609418e-01  3.59069780e-09  4.58609418e-01  3.08694054e-09  4.58609418e-01  4.58609418e-01  4.58609418e-01  1.58875680e-07  1.73461345e-07  5.20000000e-01 
 5.30000000e-01  4.58609421e-01  3.59069780e-09  4.58609421e-01  3.08694054e-09  4.58609421e-01  4.58609421e-01  4.58609421e-01  1.58875681e-07  1.73461160e-07  5.30000000e-01 
 5.40000000e-01  4.58609424e-01  3.59069780e-09  4.58609424e-01  3.08694054e-09  4.58609424e-01  4.58609424e-01  4.58609424e-01  1.58875684e-07  1.73461107e-07  5.40000000e-01 
 5.50000000e-01  4.58609425e-01  3.59069780e-09  4.58609425e-01  3.08694054e-09  4.58609425e-01  4.58609425e-01  4.58609425e-01  1.58875673e-07  1.73460965e-07  5.50000000e-01 
 5.60000000e-01  4.58609405e-01  3.59069780e-09  4.58609405e-01  3.08694060e-09  4.58609405e-01  4.58609405e-01  4.58609405e-01  1.58875641e-07  1.73460844e-07  5.60000000e-01 
 5.70000000e-01  4.58609415e-01  3.59069780e-09  4.58609415e-01  3.08694054e-09  4.58609415e-01  4.58609415e-01  4.58609415e-01  1.58875662e-07  1.73460666e-07  5.70000000e-01 
 5.80000000e-01  4.58609421e-01  3.59069780e-09  4.58609421e-01  3.08694060e-09  4.58609421e-01  4.58609421e-01  4.58609421e-01  1.58875681e-07  1.73460563e-07  5.80000000e-01 
 5.90000000e-01  4.58609421e-01  3.59069780e-09  4.58609421e-01  3.08694060e-09  4.58609421e-01  4.58609421e-01  4.58609421e-01  1.58875678e-07  1.73460379e-07  5.90000000e-01 
 6.00000000e-01  4.58609406e-01  3.59069780e-09  4.58609406e-01  3.08694060e-09  4.58609405e-01  4.58609405e-01  4.58609406e-01  1.58875659e-07  1.73460222e-07  6.00000000e-01 
 6.10000000e-01  4.58609428e-01  3.59069780e-09  4.58609428e-01  3.08694060e-09  4.58609428e-01  4.58609428e-01  4.58609428e-01  1.58875680e-07  1.73460300e-07  6.10000000e-01 
 6.20000000e-01  4.58609411e-01  3.59069780e-09  4.58609411e-01  3.08694054e-09  4.58609411e-01  4.58609411e-01  4.58609411e-01  1.58875659e-07  1.73460002e-07  6.20000000e-01 
 6.30000000e-01  4.58609427e-01  3.59069780e-09  4.58609427e-01  3.08694060e-09  4.58609427e-01  4.58609427e-01  4.58609427e-01  1.58875673e-07  1.73460059e-07  6.30000000e-01 
 6.40000000e-01  4.58609403e-01  3.59069780e-09  4.58609403e-01  3.08694054e-09  4.58609403e-01  4.58609403e-01  4.58609403e-01  1.58875648e-07  1.73459767e-07  6.40000000e-01 
 6.50000000e-01  4.58609403e-01  3.59069774e-09  4.58609403e-01  3.08694054e-09  4.58609402e-01  4.58609402e-01  4.58609403e-01  1.58875640e-07  1.73459583e-07  6.50000000e-01 
 6.60000000e-01  4.58609404e-01  3.59069780e-09  4.58609404e-01  3.08694054e-09  4.58609404e-01  4.58609404e-01  4.58609404e-01  1.58875655e-07  1.73459433e-07  6.60000000e-01 
 6.70000000e-01  4.58609398e-01  3.59069780e-09  4.58609398e-01  3.08694054e-09  4.58609398e-01  4.58609398e-01  4.58609398e-01  1.58875647e-07  1.73459370e-07  6.70000000e-01 
 6.80000000e-01  4.58609436e-01  3.59069780e-09  4.58609436e-01  3.08694060e-09  4.58609436e-01  4.58609436e-01  4.58609436e-01  1.58875697e-07  1.73459291e-07  6.80000000e-01 
 6.90000000e-01  4.58609411e-01  3.59069780e-09  4.58609411e-01  3.08694060e-09  4.58609411e-01  4.58609411e-01  4.58609411e-01  1.58875655e-07  1.73459171e-07  6.90000000e-01 
 7.00000000e-01  4.58609414e-01  3.59069780e-09  4.58609414e-01  3.08694054e-09  4.58609414e-01  4.58609414e-01  4.58609414e-01  1.58875661e-07  1.73459014e-07  7.00000000e-01 
 7.10000000e-01  4.58609398e-01  3.59069780e-09  4.58609398e-01  3.08694060e-09  4.58609398e-01  4.58609398e-01  4.58609398e-01  1.58875662e-07  1.73458758e-07  7.10000000e-01 
 7.20000000e-01  4.58609438e-01  3.59069780e-09  4.58609438e-01  3.08694060e-09  4.58609438e-01  4.58609438e-01  4.58609438e-01  1.58875696e-07  1.73458879e-07  7.20000000e-01 
 7.30000000e-01  4.58609412e-01  3.59069780e-09  4.58609412e-01  3.08694060e-09  4.58609412e-01  4.58609412e-01  4.58609412e-01  1.58875666e-07  1.73458609e-07  7.30000000e-01 
 7.40000000e-01  4.58609402e-01  3.59069780e-09  4.58609402e-01  3.08694054e-09  4.58609402e-01  4.58609402e-01  4.58609402e-01  1.58875642e-07  1.73458488e-07  7.40000000e-01 
 7.50000000e-01  4.58609393e-01  3.59069780e-09  4.58609393e-01  3.08694060e-09  4.58609392e-01  4.58609393e-01  4.58609393e-01  1.58875622e-07  1.73458432e-07  7.50000000e-01 
 7.60000000e-01  4.58609430e-01  3.59069780e-09  4.58609430e-01  3.08694060e-09  4.58609430e-01  4.58609430e-01  4.58609430e-01  1.58875694e-07  1.73458425e-07  7.60000000e-01 
 7.70000000e-01  4.58609410e-01  3.59069780e-09  4.58609410e-01  3.08694060e-09  4.58609410e-01  4.58609410e-01  4.58609410e-01  1.58875666e-07  1.73458183e-07  7.70000000e-01 
 7.80000000e-01  4.58609431e-01  3.59069780e-09  4.58609431e-01  3.08694054e-09  4.58609431e-01  4.58609431e-01  4.58609431e-01  1.58875688e-07  1.73457998e-07  7.80000000e-01 
 7.90000000e-01  4.58609401e-01  3.59069780e-09  4.58609401e-01  3.08694060e-09  4.58609401e-01  4.58609401e-01  4.58609401e-01  1.58875631e-07  1.73457664e-07  7.90000000e-01 
 8.00000000e-01  4.58609428e-01  3.59069780e-09  4.58609428e-01  3.08694054e-09  4.58609428e-01  4.58609428e-01  4.58609428e-01  1.58875689e-07  1.73457778e-07  8.00000000e-01 
 8.10000000e-01  4.58609410e-01  3.59069780e-09  4.58609410e-01  3.08694060e-09  4.58609410e-01  4.58609410e-01  4.58609410e-01  1.58875659e-07  1.73457430e-07  8.10000000e-01 
 8.20000000e-01  4.58609427e-01  3.59069780e-09  4.58609427e-01  3.08694060e-09  4.58609427e-01  4.58609427e-01  4.58609427e-01  1.58875676e-07  1.73457529e-07  8.20000000e-01 
 8.30000000e-01  4.58609420e-01  3.59069780e-09  4.58609420e-01  3.08694054e-09  4.58609420e-01  4.58609420e-01  4.58609420e-01  1.58875675e-07  1.73457344e-07  8.30000000e-01 
 8.40000000e-01  4.58609402e-01  3.59069780e-09  4.58609402e-01  3.08694054e-09  4.58609401e-01  4.58609401e-01  4.58609402e-01  1.58875633e-07  1.73457153e-07  8.40000000e-01 
 8.50000000e-01  4.58609390e-01  3.59069780e-09  4.58609390e-01  3.08694060e-09  4.58609390e-01  4.58609390e-01  4.58609390e-01  1.58875616e-07  1.73457003e-07  8.50000000e-01 
 8.60000000e-01  4.58609380e-01  3.59069780e-09  4.58609380e-01  3.08694054e-09  4.58609380e-01  4.58609380e-01  4.58609380e-01  1.58875596e-07  1.73456712e-07  8.60000000e-01 
 8.70000000e-01  4.58609405e-01  3.59069780e-09  4.58609405e-01  3.08694060e-09  4.58609405e-01  4.58609405e-01  4.58609405e-01  1.58875663e-07  1.73456669e-07  8.70000000e-01 
 8.80000000e-01  4.58609400e-01  3.59069780e-09  4.58609400e-01  3.08694054e-09  4.58609400e-01  4.58609400e-01  4.58609400e-01  1.58875662e-07  1.73456520e-07  8.80000000e-01 
 8.90000000e-01  4.58609428e-01  3.59069780e-09  4.58609428e-01  3.08694054e-09  4.58609428e-01  4.58609428e-01  4.58609428e-01  1.58875685e-07  1.73456520e-07  8.90000000e-01 
 9.00000000e-01  4.58609421e-01  3.59069780e-09  4.58609421e-01  3.08694060e-09  4.58609421e-01  4.58609421e-01  4.58609421e-01  1.58875673e-07  1.73456407e-07  9.00000000e-01 
 9.10000000e-01  4.58609401e-01  3.59069780e-09  4.58609401e-01  3.08694054e-09  4.58609401e-01  4.58609401e-01  4.58609401e-01  1.58875667e-07  1.73456165e-07  9.10000000e-01 
 9.20000000e-01  4.58609403e-01  3.59069780e-09  4.58609403e-01  3.08694054e-09  4.58609403e-01  4.58609403e-01  4.58609403e-01  1.58875636e-07  1.73456073e-07  9.20000000e-01 
 9.30000000e-01  4.58609397e-01  3.59069780e-09  4.58609397e-01  3.08694054e-09  4.58609397e-01  4.58609397e-01  4.58609397e-01  1.58875649e-07  1.73455909e-07  9.30000000e-01 
 9.40000000e-01  4.58609438e-01  3.59069780e-09  4.58609438e-01  3.08694060e-09  4.58609438e-01  4.58609438e-01  4.58609438e-01  1.58875698e-07  1.73455831e-07  9.40000000e-01 
 9.50000000e-01  4.58609422e-01  3.59069780e-09  4.58609422e-01  3.08694060e-09  4.58609422e-01  4.58609422e-01  4.58609422e-01  1.58875684e-07  1.73455525e-07  9.50000000e-01 
 9.60000000e-01  4.58609393e-01  3.59069774e-09  4.58609393e-01  3.08694054e-09  4.58609393e-01  4.58609393e-01  4.58609393e-01  1.58875649e-07  1.73455355e-07  9.60000000e-01 
 9.70000000e-01  4.58609400e-01  3.59069780e-09  4.58609400e-01  3.08694060e-09  4.58609400e-01  4.58609400e-01  4.58609400e-01  1.58875632e-07  1.73455206e-07  9.70000000e-01 
 9.80000000e-01  4.58609399e-01  3.59069780e-09  4.58609399e-01  3.08694054e-09  4.58609399e-01  4.58609399e-01  4.58609399e-01  1.58875642e-07  1.73455092e-07  9.80000000e-01 
 9.90000000e-01  4.58609435e-01  3.59069780e-09  4.58609435e-01  3.08694054e-09  4.58609435e-01  4.58609435e-01  4.58609435e-01  1.58875690e-07  1.73455042e-07  9.90000000e-01 
 1.00000000e+00  4.58609395e-01  3.59069780e-09  4.58609395e-01  3.08694054e-09  4.58609395e-01  4.58609395e-01  4.58609395e-01  1.58875635e-07  1.73454694e-07  1.00000000e+00 
 1.01000000e+00  4.58609410e-01  3.59069780e-09  4.58609410e-01  3.08694060e-09  4.58609409e-01  4.58609410e-01  4.58609410e-01  1.58875653e-07  1.73454637e-07  1.01000000e+00 
 1.02000000e+00  4.58609419e-01  3.59069780e-09  4.58609419e-01  3.08694060e-09  4.58609419e-01  4.58609419e-01  4.58609419e-01  1.58875677e-07  1.73454538e-07  1.02000000e+00 
 1.03000000e+00  4.58609425e-01  3.59069780e-09  4.58609425e-01  3.08694054e-09  4.58609425e-01  4.58609425e-01  4.58609425e-01  1.58875684e-07  1.73454318e-07  1.03000000e+00 
 1.04000000e+00  4.58609414e-01  3.59069780e-09  4.58609414e-01  3.08694060e-09  4.58609414e-01  4.58609414e-01  4.58609414e-01  1.58875666e-07  1.73454161e-07  1.04000000e+00 
 1.05000000e+00  4.58609398e-01  3.59069780e-09  4.58609398e-01  3.08694060e-09  4.58609398e-01  4.58609398e-01  4.58609398e-01  1.58875642e-07  1.73453941e-07  1.05000000e+00 
 1.06000000e+00  4.58609419e-01  3.59069780e-09  4.58609419e-01  3.08694054e-09  4.58609419e-01  4.58609419e-01  4.58609419e-01  1.58875668e-07  1.73453870e-07  1.06000000e+00 
 1.07000000e+00  4.58609400e-01  3.59069780e-09  4.58609400e-01  3.08694054e-09  4.58609400e-01  4.58609400e-01  4.58609400e-01  1.58875659e-07  1.73453692e-07  1.07000000e+00 
 1.08000000e+00  4.58609399e-01  3.59069780e-09  4.58609399e-01  3.08694054e-09  4.58609399e-01  4.58609399e-01  4.58609399e-01  1.58875636e-07  1.73453472e-07  1.08000000e+00 
 1.09000000e+00  4.58609426e-01  3.59069780e-09  4.58609426e-01  3.08694054e-09  4.58609426e-01  4.58609426e-01  4.58609426e-01  1.58875688e-07  1.73453344e-07  1.09000000e+00 
 1.10000000e+00  4.58609414e-01  3.59069780e-09  4.58609414e-01  3.08694054e-09  4.58609413e-01  4.58609413e-01  4.58609414e-01  1.58875669e-07  1.73453316e-07  1.10000000e+00 
