 v-sweep         v(b0)           v(b1)           v(b2)           v(b3)           v(b4)           v(b5)           v(b6)           i(vbias)        i(viout)        v(vout)        
 0.00000000e+00  4.59027458e-01  4.59027458e-01  3.46472490e-09  3.49590210e-09  4.59027458e-01  3.26810912e-09  4.59027458e-01  1.61429287e-07  1.29270313e-07  0.00000000e+00 
 1.00000000e-02  4.59027486e-01  4.59027486e-01  3.46472494e-09  3.49590209e-09  4.59027486e-01  3.26810910e-09  4.59027486e-01  1.61429321e-07  1.29269889e-07  1.00000000e-02 
 2.00000000e-02  4.59027459e-01  4.59027459e-01  3.46472488e-09  3.49590214e-09  4.59027459e-01  3.26810910e-09  4.59027459e-01  1.61429284e-07  1.29269428e-07  2.00000000e-02 
 3.00000000e-02  4.59027436e-01  4.59027436e-01  3.46472493e-09  3.49590208e-09  4.59027436e-01  3.26810910e-09  4.59027436e-01  1.61429252e-07  1.29268987e-07  3.00000000e-02 
 4.00000000e-02  4.59027483e-01  4.59027482e-01  3.46472494e-09  3.49590214e-09  4.59027482e-01  3.26810910e-09  4.59027482e-01  1.61429325e-07  1.29268714e-07  4.00000000e-02 
 5.00000000e-02  4.59027443e-01  4.59027442e-01  3.46472488e-09  3.49590214e-09  4.59027442e-01  3.26810910e-09  4.59027442e-01  1.61429263e-07  1.29268338e-07  5.00000000e-02 
 6.00000000e-02  4.59027463e-01  4.59027463e-01  3.46472488e-09  3.49590209e-09  4.59027463e-01  3.26810910e-09  4.59027463e-01  1.61429289e-07  1.29267978e-07  6.00000000e-02 
 7.00000000e-02  4.59027443e-01  4.59027443e-01  3.46472488e-09  3.49590208e-09  4.59027443e-01  3.26810910e-09  4.59027443e-01  1.61429262e-07  1.29267466e-07  7.00000000e-02 
 8.00000000e-02  4.59027429e-01  4.59027429e-01  3.46472488e-09  3.49590208e-09  4.59027429e-01  3.26810910e-09  4.59027429e-01  1.61429245e-07  1.29267257e-07  8.00000000e-02 
 9.00000000e-02  4.59027456e-01  4.59027455e-01  3.46472488e-09  3.49590214e-09  4.59027455e-01  3.26810910e-09  4.59027455e-01  1.61429284e-07  1.29266964e-07  9.00000000e-02 
 1.00000000e-01  4.59027436e-01  4.59027436e-01  3.46472488e-09  3.49590214e-09  4.59027436e-01  3.26810910e-09  4.59027436e-01  1.61429259e-07  1.29266671e-07  1.00000000e-01 
 1.10000000e-01  4.59027458e-01  4.59027457e-01  3.46472493e-09  3.49590209e-09  4.59027457e-01  3.26810910e-09  4.59027457e-01  1.61429275e-07  1.29266534e-07  1.10000000e-01 
 1.20000000e-01  4.59027454e-01  4.59027453e-01  3.46472493e-09  3.49590208e-09  4.59027453e-01  3.26810910e-09  4.59027453e-01  1.61429284e-07  1.29266223e-07  1.20000000e-01 
 1.30000000e-01  4.59027473e-01  4.59027473e-01  3.46472488e-09  3.49590209e-09  4.59027473e-01  3.26810910e-09  4.59027473e-01  1.61429319e-07  1.29266014e-07  1.30000000e-01 
 1.40000000e-01  4.59027468e-01  4.59027468e-01  3.46472488e-09  3.49590209e-09  4.59027468e-01  3.26810910e-09  4.59027468e-01  1.61429294e-07  1.29265701e-07  1.40000000e-01 
 1.50000000e-01  4.59027417e-01  4.59027417e-01  3.46472493e-09  3.49590208e-09  4.59027417e-01  3.26810909e-09  4.59027417e-01  1.61429216e-07  1.29265274e-07  1.50000000e-01 
 1.60000000e-01  4.59027436e-01  4.59027436e-01  3.46472493e-09  3.49590214e-09  4.59027436e-01  3.26810910e-09  4.59027436e-01  1.61429262e-07  1.29265196e-07  1.60000000e-01 
 1.70000000e-01  4.59027427e-01  4.59027427e-01  3.46472488e-09  3.49590208e-09  4.59027427e-01  3.26810910e-09  4.59027427e-01  1.61429235e-07  1.29264869e-07  1.70000000e-01 
 1.80000000e-01  4.59027434e-01  4.59027433e-01  3.46472488e-09  3.49590214e-09  4.59027433e-01  3.26810910e-09  4.59027433e-01  1.61429252e-07  1.29264768e-07  1.80000000e-01 
 1.90000000e-01  4.59027438e-01  4.59027438e-01  3.46472488e-09  3.49590208e-09  4.59027438e-01  3.26810910e-09  4.59027438e-01  1.61429269e-07  1.29264581e-07  1.90000000e-01 
 2.00000000e-01  4.59027441e-01  4.59027440e-01  3.46472493e-09  3.49590208e-09  4.59027440e-01  3.26810910e-09  4.59027440e-01  1.61429264e-07  1.29264373e-07  2.00000000e-01 
 2.10000000e-01  4.59027438e-01  4.59027438e-01  3.46472493e-09  3.49590208e-09  4.59027438e-01  3.26810910e-09  4.59027438e-01  1.61429264e-07  1.29264125e-07  2.10000000e-01 
 2.20000000e-01  4.59027469e-01  4.59027469e-01  3.46472494e-09  3.49590209e-09  4.59027469e-01  3.26810910e-09  4.59027469e-01  1.61429312e-07  1.29264063e-07  2.20000000e-01 
 2.30000000e-01  4.59027442e-01  4.59027442e-01  3.46472493e-09  3.49590208e-09  4.59027442e-01  3.26810910e-09  4.59027442e-01  1.61429266e-07  1.29263807e-07  2.30000000e-01 
 2.40000000e-01  4.59027455e-01  4.59027455e-01  3.46472493e-09  3.49590214e-09  4.59027455e-01  3.26810910e-09  4.59027455e-01  1.61429273e-07  1.29263700e-07  2.40000000e-01 
 2.50000000e-01  4.59027453e-01  4.59027453e-01  3.46472493e-09  3.49590214e-09  4.59027453e-01  3.26810910e-09  4.59027453e-01  1.61429272e-07  1.29263581e-07  2.50000000e-01 
 2.60000000e-01  4.59027422e-01  4.59027421e-01  3.46472493e-09  3.49590214e-09  4.59027421e-01  3.26810909e-09  4.59027421e-01  1.61429236e-07  1.29263373e-07  2.60000000e-01 
 2.70000000e-01  4.59027447e-01  4.59027447e-01  3.46472493e-09  3.49590208e-09  4.59027447e-01  3.26810910e-09  4.59027447e-01  1.61429262e-07  1.29263213e-07  2.70000000e-01 
 2.80000000e-01  4.59027468e-01  4.59027468e-01  3.46472488e-09  3.49590209e-09  4.59027468e-01  3.26810910e-09  4.59027468e-01  1.61429291e-07  1.29263272e-07  2.80000000e-01 
 2.90000000e-01  4.59027464e-01  4.59027464e-01  3.46472494e-09  3.49590214e-09  4.59027464e-01  3.26810910e-09  4.59027464e-01  1.61429286e-07  1.29263093e-07  2.90000000e-01 
 3.00000000e-01  4.59027441e-01  4.59027441e-01  3.46472493e-09  3.49590214e-09  4.59027441e-01  3.26810910e-09  4.59027441e-01  1.61429256e-07  1.29262837e-07  3.00000000e-01 
 3.10000000e-01  4.59027467e-01  4.59027467e-01  3.46472494e-09  3.49590209e-09  4.59027467e-01  3.26810910e-09  4.59027467e-01  1.61429298e-07  1.29262816e-07  3.10000000e-01 
 3.20000000e-01  4.59027458e-01  4.59027458e-01  3.46472493e-09  3.49590209e-09  4.59027458e-01  3.26810910e-09  4.59027458e-01  1.61429289e-07  1.29262624e-07  3.20000000e-01 
 3.30000000e-01  4.59027467e-01  4.59027466e-01  3.46472494e-09  3.49590209e-09  4.59027466e-01  3.26810910e-09  4.59027466e-01  1.61429295e-07  1.29262400e-07  3.30000000e-01 
 3.40000000e-01  4.59027451e-01  4.59027451e-01  3.46472488e-09  3.49590214e-09  4.59027451e-01  3.26810910e-09  4.59027451e-01  1.61429277e-07  1.29262339e-07  3.40000000e-01 
 3.50000000e-01  4.59027444e-01  4.59027444e-01  3.46472488e-09  3.49590208e-09  4.59027444e-01  3.26810910e-09  4.59027444e-01  1.61429278e-07  1.29262180e-07  3.50000000e-01 
 3.60000000e-01  4.59027437e-01  4.59027436e-01  3.46472488e-09  3.49590214e-09  4.59027436e-01  3.26810910e-09  4.59027436e-01  1.61429261e-07  1.29262151e-07  3.60000000e-01 
 3.70000000e-01  4.59027439e-01  4.59027439e-01  3.46472493e-09  3.49590214e-09  4.59027439e-01  3.26810910e-09  4.59027439e-01  1.61429257e-07  1.29261888e-07  3.70000000e-01 
 3.80000000e-01  4.59027436e-01  4.59027435e-01  3.46472488e-09  3.49590208e-09  4.59027435e-01  3.26810910e-09  4.59027435e-01  1.61429248e-07  1.29261839e-07  3.80000000e-01 
 3.90000000e-01  4.59027424e-01  4.59027424e-01  3.46472488e-09  3.49590214e-09  4.59027424e-01  3.26810909e-09  4.59027424e-01  1.61429224e-07  1.29261579e-07  3.90000000e-01 
 4.00000000e-01  4.59027454e-01  4.59027454e-01  3.46472488e-09  3.49590208e-09  4.59027454e-01  3.26810910e-09  4.59027454e-01  1.61429268e-07  1.29261615e-07  4.00000000e-01 
 4.10000000e-01  4.59027453e-01  4.59027453e-01  3.46472488e-09  3.49590208e-09  4.59027453e-01  3.26810910e-09  4.59027453e-01  1.61429284e-07  1.29261487e-07  4.10000000e-01 
 4.20000000e-01  4.59027444e-01  4.59027444e-01  3.46472493e-09  3.49590208e-09  4.59027444e-01  3.26810910e-09  4.59027444e-01  1.61429268e-07  1.29261384e-07  4.20000000e-01 
 4.30000000e-01  4.59027438e-01  4.59027438e-01  3.46472493e-09  3.49590208e-09  4.59027438e-01  3.26810910e-09  4.59027438e-01  1.61429259e-07  1.29261181e-07  4.30000000e-01 
 4.40000000e-01  4.59027445e-01  4.59027444e-01  3.46472488e-09  3.49590214e-09  4.59027444e-01  3.26810910e-09  4.59027444e-01  1.61429273e-07  1.29261199e-07  4.40000000e-01 
 4.50000000e-01  4.59027450e-01  4.59027450e-01  3.46472493e-09  3.49590214e-09  4.59027450e-01  3.26810910e-09  4.59027450e-01  1.61429275e-07  1.29261146e-07  4.50000000e-01 
 4.60000000e-01  4.59027425e-01  4.59027425e-01  3.46472488e-09  3.49590208e-09  4.59027425e-01  3.26810909e-09  4.59027425e-01  1.61429238e-07  1.29261014e-07  4.60000000e-01 
 4.70000000e-01  4.59027466e-01  4.59027466e-01  3.46472488e-09  3.49590214e-09  4.59027466e-01  3.26810910e-09  4.59027466e-01  1.61429296e-07  1.29260943e-07  4.70000000e-01 
 4.80000000e-01  4.59027453e-01  4.59027453e-01  3.46472488e-09  3.49590208e-09  4.59027453e-01  3.26810910e-09  4.59027453e-01  1.61429277e-07  1.29260872e-07  4.80000000e-01 
 4.90000000e-01  4.59027435e-01  4.59027435e-01  3.46472493e-09  3.49590208e-09  4.59027435e-01  3.26810910e-09  4.59027435e-01  1.61429245e-07  1.29260766e-07  4.90000000e-01 
 5.00000000e-01  4.59027471e-01  4.59027471e-01  3.46472494e-09  3.49590209e-09  4.59027471e-01  3.26810910e-09  4.59027471e-01  1.61429294e-07  1.29260744e-07  5.00000000e-01 
 5.10000000e-01  4.59027459e-01  4.59027459e-01  3.46472488e-09  3.49590209e-09  4.59027459e-01  3.26810910e-09  4.59027459e-01  1.61429294e-07  1.29260574e-07  5.10000000e-01 
 5.20000000e-01  4.59027451e-01  4.59027451e-01  3.46472488e-09  3.49590214e-09  4.59027451e-01  3.26810910e-09  4.59027451e-01  1.61429270e-07  1.29260481e-07  5.20000000e-01 
 5.30000000e-01  4.59027445e-01  4.59027445e-01  3.46472488e-09  3.49590208e-09  4.59027445e-01  3.26810910e-09  4.59027445e-01  1.61429266e-07  1.29260314e-07  5.30000000e-01 
 5.40000000e-01  4.59027435e-01  4.59027435e-01  3.46472493e-09  3.49590208e-09  4.59027435e-01  3.26810910e-09  4.59027435e-01  1.61429249e-07  1.29260322e-07  5.40000000e-01 
 5.50000000e-01  4.59027446e-01  4.59027446e-01  3.46472493e-09  3.49590214e-09  4.59027446e-01  3.26810910e-09  4.59027446e-01  1.61429260e-07  1.29260226e-07  5.50000000e-01 
 5.60000000e-01  4.59027432e-01  4.59027432e-01  3.46472488e-09  3.49590208e-09  4.59027432e-01  3.26810910e-09  4.59027432e-01  1.61429255e-07  1.29260062e-07  5.60000000e-01 
 5.70000000e-01  4.59027458e-01  4.59027458e-01  3.46472493e-09  3.49590209e-09  4.59027458e-01  3.26810910e-09  4.59027458e-01  1.61429288e-07  1.29259991e-07  5.70000000e-01 
 5.80000000e-01  4.59027472e-01  4.59027472e-01  3.46472488e-09  3.49590209e-09  4.59027472e-01  3.26810910e-09  4.59027472e-01  1.61429311e-07  1.29260023e-07  5.80000000e-01 
 5.90000000e-01  4.59027456e-01  4.59027456e-01  3.46472488e-09  3.49590209e-09  4.59027456e-01  3.26810910e-09  4.59027456e-01  1.61429279e-07  1.29259753e-07  5.90000000e-01 
 6.00000000e-01  4.59027429e-01  4.59027429e-01  3.46472493e-09  3.49590208e-09  4.59027429e-01  3.26810910e-09  4.59027429e-01  1.61429237e-07  1.29259597e-07  6.00000000e-01 
 6.10000000e-01  4.59027428e-01  4.59027428e-01  3.46472488e-09  3.49590208e-09  4.59027428e-01  3.26810910e-09  4.59027428e-01  1.61429245e-07  1.29259583e-07  6.10000000e-01 
 6.20000000e-01  4.59027442e-01  4.59027442e-01  3.46472488e-09  3.49590208e-09  4.59027442e-01  3.26810910e-09  4.59027442e-01  1.61429260e-07  1.29259547e-07  6.20000000e-01 
 6.30000000e-01  4.59027461e-01  4.59027461e-01  3.46472488e-09  3.49590209e-09  4.59027461e-01  3.26810910e-09  4.59027461e-01  1.61429287e-07  1.29259547e-07  6.30000000e-01 
 6.40000000e-01  4.59027441e-01  4.59027441e-01  3.46472493e-09  3.49590208e-09  4.59027441e-01  3.26810910e-09  4.59027441e-01  1.61429260e-07  1.29259355e-07  6.40000000e-01 
 6.50000000e-01  4.59027457e-01  4.59027457e-01  3.46472488e-09  3.49590209e-09  4.59027457e-01  3.26810910e-09  4.59027457e-01  1.61429274e-07  1.29259256e-07  6.50000000e-01 
 6.60000000e-01  4.59027463e-01  4.59027463e-01  3.46472488e-09  3.49590209e-09  4.59027463e-01  3.26810910e-09  4.59027463e-01  1.61429299e-07  1.29259114e-07  6.60000000e-01 
 6.70000000e-01  4.59027417e-01  4.59027417e-01  3.46472493e-09  3.49590214e-09  4.59027417e-01  3.26810909e-09  4.59027417e-01  1.61429220e-07  1.29258929e-07  6.70000000e-01 
 6.80000000e-01  4.59027444e-01  4.59027444e-01  3.46472488e-09  3.49590208e-09  4.59027444e-01  3.26810910e-09  4.59027444e-01  1.61429263e-07  1.29258858e-07  6.80000000e-01 
 6.90000000e-01  4.59027422e-01  4.59027422e-01  3.46472493e-09  3.49590208e-09  4.59027422e-01  3.26810909e-09  4.59027422e-01  1.61429230e-07  1.29258865e-07  6.90000000e-01 
 7.00000000e-01  4.59027456e-01  4.59027456e-01  3.46472488e-09  3.49590214e-09  4.59027456e-01  3.26810910e-09  4.59027456e-01  1.61429285e-07  1.29258751e-07  7.00000000e-01 
 7.10000000e-01  4.59027470e-01  4.59027470e-01  3.46472494e-09  3.49590209e-09  4.59027470e-01  3.26810910e-09  4.59027470e-01  1.61429296e-07  1.29258865e-07  7.10000000e-01 
 7.20000000e-01  4.59027451e-01  4.59027451e-01  3.46472488e-09  3.49590214e-09  4.59027451e-01  3.26810910e-09  4.59027451e-01  1.61429275e-07  1.29258659e-07  7.20000000e-01 
 7.30000000e-01  4.59027432e-01  4.59027432e-01  3.46472488e-09  3.49590214e-09  4.59027432e-01  3.26810910e-09  4.59027432e-01  1.61429254e-07  1.29258524e-07  7.30000000e-01 
 7.40000000e-01  4.59027453e-01  4.59027453e-01  3.46472488e-09  3.49590208e-09  4.59027453e-01  3.26810910e-09  4.59027453e-01  1.61429278e-07  1.29258517e-07  7.40000000e-01 
 7.50000000e-01  4.59027475e-01  4.59027475e-01  3.46472494e-09  3.49590209e-09  4.59027475e-01  3.26810910e-09  4.59027475e-01  1.61429317e-07  1.29258318e-07  7.50000000e-01 
 7.60000000e-01  4.59027451e-01  4.59027451e-01  3.46472493e-09  3.49590208e-09  4.59027451e-01  3.26810910e-09  4.59027451e-01  1.61429276e-07  1.29258318e-07  7.60000000e-01 
 7.70000000e-01  4.59027436e-01  4.59027436e-01  3.46472493e-09  3.49590208e-09  4.59027436e-01  3.26810910e-09  4.59027436e-01  1.61429257e-07  1.29258140e-07  7.70000000e-01 
 7.80000000e-01  4.59027462e-01  4.59027462e-01  3.46472488e-09  3.49590209e-09  4.59027462e-01  3.26810910e-09  4.59027462e-01  1.61429297e-07  1.29258098e-07  7.80000000e-01 
 7.90000000e-01  4.59027458e-01  4.59027458e-01  3.46472488e-09  3.49590209e-09  4.59027458e-01  3.26810910e-09  4.59027458e-01  1.61429289e-07  1.29257977e-07  7.90000000e-01 
 8.00000000e-01  4.59027461e-01  4.59027460e-01  3.46472493e-09  3.49590209e-09  4.59027460e-01  3.26810910e-09  4.59027460e-01  1.61429284e-07  1.29257920e-07  8.00000000e-01 
 8.10000000e-01  4.59027435e-01  4.59027435e-01  3.46472493e-09  3.49590208e-09  4.59027435e-01  3.26810910e-09  4.59027435e-01  1.61429251e-07  1.29257742e-07  8.10000000e-01 
 8.20000000e-01  4.59027456e-01  4.59027456e-01  3.46472493e-09  3.49590214e-09  4.59027456e-01  3.26810910e-09  4.59027456e-01  1.61429273e-07  1.29257700e-07  8.20000000e-01 
 8.30000000e-01  4.59027453e-01  4.59027453e-01  3.46472488e-09  3.49590214e-09  4.59027453e-01  3.26810910e-09  4.59027453e-01  1.61429289e-07  1.29257572e-07  8.30000000e-01 
 8.40000000e-01  4.59027453e-01  4.59027453e-01  3.46472488e-09  3.49590214e-09  4.59027453e-01  3.26810910e-09  4.59027453e-01  1.61429268e-07  1.29257472e-07  8.40000000e-01 
 8.50000000e-01  4.59027476e-01  4.59027475e-01  3.46472488e-09  3.49590209e-09  4.59027475e-01  3.26810910e-09  4.59027475e-01  1.61429313e-07  1.29257423e-07  8.50000000e-01 
 8.60000000e-01  4.59027455e-01  4.59027455e-01  3.46472488e-09  3.49590208e-09  4.59027455e-01  3.26810910e-09  4.59027455e-01  1.61429286e-07  1.29257302e-07  8.60000000e-01 
 8.70000000e-01  4.59027449e-01  4.59027449e-01  3.46472488e-09  3.49590214e-09  4.59027449e-01  3.26810910e-09  4.59027449e-01  1.61429274e-07  1.29257167e-07  8.70000000e-01 
 8.80000000e-01  4.59027445e-01  4.59027445e-01  3.46472488e-09  3.49590208e-09  4.59027445e-01  3.26810910e-09  4.59027445e-01  1.61429269e-07  1.29257039e-07  8.80000000e-01 
 8.90000000e-01  4.59027437e-01  4.59027437e-01  3.46472493e-09  3.49590208e-09  4.59027437e-01  3.26810910e-09  4.59027437e-01  1.61429251e-07  1.29256982e-07  8.90000000e-01 
 9.00000000e-01  4.59027442e-01  4.59027442e-01  3.46472493e-09  3.49590214e-09  4.59027442e-01  3.26810910e-09  4.59027442e-01  1.61429266e-07  1.29256826e-07  9.00000000e-01 
 9.10000000e-01  4.59027444e-01  4.59027444e-01  3.46472488e-09  3.49590208e-09  4.59027444e-01  3.26810910e-09  4.59027444e-01  1.61429259e-07  1.29256811e-07  9.10000000e-01 
 9.20000000e-01  4.59027439e-01  4.59027439e-01  3.46472493e-09  3.49590208e-09  4.59027439e-01  3.26810910e-09  4.59027439e-01  1.61429257e-07  1.29256641e-07  9.20000000e-01 
 9.30000000e-01  4.59027451e-01  4.59027451e-01  3.46472493e-09  3.49590208e-09  4.59027451e-01  3.26810910e-09  4.59027451e-01  1.61429275e-07  1.29256563e-07  9.30000000e-01 
 9.40000000e-01  4.59027448e-01  4.59027448e-01  3.46472488e-09  3.49590208e-09  4.59027448e-01  3.26810910e-09  4.59027448e-01  1.61429258e-07  1.29256478e-07  9.40000000e-01 
 9.50000000e-01  4.59027442e-01  4.59027442e-01  3.46472493e-09  3.49590208e-09  4.59027442e-01  3.26810910e-09  4.59027441e-01  1.61429270e-07  1.29256392e-07  9.50000000e-01 
 9.60000000e-01  4.59027444e-01  4.59027444e-01  3.46472488e-09  3.49590214e-09  4.59027444e-01  3.26810910e-09  4.59027444e-01  1.61429261e-07  1.29256328e-07  9.60000000e-01 
 9.70000000e-01  4.59027455e-01  4.59027455e-01  3.46472493e-09  3.49590208e-09  4.59027455e-01  3.26810910e-09  4.59027455e-01  1.61429275e-07  1.29256172e-07  9.70000000e-01 
 9.80000000e-01  4.59027439e-01  4.59027439e-01  3.46472488e-09  3.49590214e-09  4.59027439e-01  3.26810910e-09  4.59027439e-01  1.61429260e-07  1.29255945e-07  9.80000000e-01 
 9.90000000e-01  4.59027459e-01  4.59027459e-01  3.46472488e-09  3.49590209e-09  4.59027459e-01  3.26810910e-09  4.59027459e-01  1.61429292e-07  1.29255994e-07  9.90000000e-01 
 1.00000000e+00  4.59027439e-01  4.59027439e-01  3.46472488e-09  3.49590208e-09  4.59027439e-01  3.26810910e-09  4.59027439e-01  1.61429249e-07  1.29255788e-07  1.00000000e+00 
 1.01000000e+00  4.59027443e-01  4.59027443e-01  3.46472488e-09  3.49590208e-09  4.59027443e-01  3.26810910e-09  4.59027442e-01  1.61429254e-07  1.29255689e-07  1.01000000e+00 
 1.02000000e+00  4.59027457e-01  4.59027456e-01  3.46472493e-09  3.49590209e-09  4.59027456e-01  3.26810910e-09  4.59027456e-01  1.61429287e-07  1.29255682e-07  1.02000000e+00 
 1.03000000e+00  4.59027425e-01  4.59027425e-01  3.46472493e-09  3.49590208e-09  4.59027425e-01  3.26810909e-09  4.59027425e-01  1.61429238e-07  1.29255497e-07  1.03000000e+00 
 1.04000000e+00  4.59027444e-01  4.59027443e-01  3.46472488e-09  3.49590208e-09  4.59027443e-01  3.26810910e-09  4.59027443e-01  1.61429265e-07  1.29255362e-07  1.04000000e+00 
 1.05000000e+00  4.59027434e-01  4.59027434e-01  3.46472488e-09  3.49590208e-09  4.59027434e-01  3.26810910e-09  4.59027434e-01  1.61429242e-07  1.29255184e-07  1.05000000e+00 
 1.06000000e+00  4.59027443e-01  4.59027443e-01  3.46472488e-09  3.49590214e-09  4.59027443e-01  3.26810910e-09  4.59027442e-01  1.61429257e-07  1.29255206e-07  1.06000000e+00 
 1.07000000e+00  4.59027421e-01  4.59027421e-01  3.46472493e-09  3.49590214e-09  4.59027421e-01  3.26810909e-09  4.59027421e-01  1.61429238e-07  1.29255042e-07  1.07000000e+00 
 1.08000000e+00  4.59027440e-01  4.59027440e-01  3.46472488e-09  3.49590208e-09  4.59027440e-01  3.26810910e-09  4.59027440e-01  1.61429250e-07  1.29254758e-07  1.08000000e+00 
 1.09000000e+00  4.59027442e-01  4.59027442e-01  3.46472493e-09  3.49590208e-09  4.59027442e-01  3.26810910e-09  4.59027442e-01  1.61429258e-07  1.29254879e-07  1.09000000e+00 
 1.10000000e+00  4.59027455e-01  4.59027455e-01  3.46472493e-09  3.49590208e-09  4.59027455e-01  3.26810910e-09  4.59027454e-01  1.61429271e-07  1.29254765e-07  1.10000000e+00 
