 v-sweep         v(b0)           v(b1)           v(b2)           v(b3)           v(b4)           v(b5)           v(b6)           i(vbias)        i(viout)        v(vout)        
 0.00000000e+00  4.58516806e-01  4.58516806e-01  4.58516806e-01  4.58516806e-01  4.58516806e-01  3.36635529e-09  3.28124004e-09  1.59326984e-07  4.70381341e-08  0.00000000e+00 
 1.00000000e-02  4.58516839e-01  4.58516839e-01  4.58516839e-01  4.58516839e-01  4.58516839e-01  3.36635527e-09  3.28124001e-09  1.59327042e-07  4.70377916e-08  1.00000000e-02 
 2.00000000e-02  4.58516884e-01  4.58516883e-01  4.58516884e-01  4.58516884e-01  4.58516883e-01  3.36635527e-09  3.28124002e-09  1.59327092e-07  4.70374495e-08  2.00000000e-02 
 3.00000000e-02  4.58516826e-01  4.58516825e-01  4.58516826e-01  4.58516826e-01  4.58516826e-01  3.36635526e-09  3.28124001e-09  1.59327028e-07  4.70369674e-08  3.00000000e-02 
 4.00000000e-02  4.58516849e-01  4.58516848e-01  4.58516848e-01  4.58516849e-01  4.58516848e-01  3.36635527e-09  3.28124001e-09  1.59327043e-07  4.70366288e-08  4.00000000e-02 
 5.00000000e-02  4.58516863e-01  4.58516862e-01  4.58516862e-01  4.58516863e-01  4.58516862e-01  3.36635527e-09  3.28124001e-09  1.59327069e-07  4.70364694e-08  5.00000000e-02 
 6.00000000e-02  4.58516846e-01  4.58516845e-01  4.58516845e-01  4.58516845e-01  4.58516845e-01  3.36635527e-09  3.28124007e-09  1.59327034e-07  4.70361008e-08  6.00000000e-02 
 7.00000000e-02  4.58516840e-01  4.58516840e-01  4.58516840e-01  4.58516840e-01  4.58516840e-01  3.36635527e-09  3.28124000e-09  1.59327041e-07  4.70357704e-08  7.00000000e-02 
 8.00000000e-02  4.58516853e-01  4.58516853e-01  4.58516853e-01  4.58516853e-01  4.58516853e-01  3.36635527e-09  3.28124002e-09  1.59327059e-07  4.70354236e-08  8.00000000e-02 
 9.00000000e-02  4.58516867e-01  4.58516866e-01  4.58516867e-01  4.58516867e-01  4.58516867e-01  3.36635527e-09  3.28124001e-09  1.59327071e-07  4.70352211e-08  9.00000000e-02 
 1.00000000e-01  4.58516879e-01  4.58516878e-01  4.58516879e-01  4.58516879e-01  4.58516879e-01  3.36635527e-09  3.28124002e-09  1.59327115e-07  4.70349359e-08  1.00000000e-01 
 1.10000000e-01  4.58516852e-01  4.58516851e-01  4.58516851e-01  4.58516851e-01  4.58516851e-01  3.36635527e-09  3.28124001e-09  1.59327072e-07  4.70347157e-08  1.10000000e-01 
 1.20000000e-01  4.58516848e-01  4.58516848e-01  4.58516848e-01  4.58516848e-01  4.58516848e-01  3.36635527e-09  3.28124001e-09  1.59327064e-07  4.70344315e-08  1.20000000e-01 
 1.30000000e-01  4.58516848e-01  4.58516848e-01  4.58516848e-01  4.58516848e-01  4.58516848e-01  3.36635527e-09  3.28124001e-09  1.59327060e-07  4.70342227e-08  1.30000000e-01 
 1.40000000e-01  4.58516848e-01  4.58516848e-01  4.58516848e-01  4.58516848e-01  4.58516848e-01  3.36635527e-09  3.28124001e-09  1.59327058e-07  4.70340185e-08  1.40000000e-01 
 1.50000000e-01  4.58516850e-01  4.58516850e-01  4.58516850e-01  4.58516850e-01  4.58516850e-01  3.36635527e-09  3.28124001e-09  1.59327069e-07  4.70337689e-08  1.50000000e-01 
 1.60000000e-01  4.58516842e-01  4.58516841e-01  4.58516842e-01  4.58516842e-01  4.58516842e-01  3.36635527e-09  3.28124001e-09  1.59327055e-07  4.70335557e-08  1.60000000e-01 
 1.70000000e-01  4.58516851e-01  4.58516851e-01  4.58516851e-01  4.58516851e-01  4.58516851e-01  3.36635527e-09  3.28124001e-09  1.59327049e-07  4.70334225e-08  1.70000000e-01 
 1.80000000e-01  4.58516874e-01  4.58516874e-01  4.58516874e-01  4.58516874e-01  4.58516874e-01  3.36635527e-09  3.28124002e-09  1.59327096e-07  4.70331774e-08  1.80000000e-01 
 1.90000000e-01  4.58516836e-01  4.58516836e-01  4.58516836e-01  4.58516836e-01  4.58516836e-01  3.36635527e-09  3.28124001e-09  1.59327029e-07  4.70330086e-08  1.90000000e-01 
 2.00000000e-01  4.58516856e-01  4.58516856e-01  4.58516856e-01  4.58516856e-01  4.58516856e-01  3.36635527e-09  3.28124001e-09  1.59327071e-07  4.70329642e-08  2.00000000e-01 
 2.10000000e-01  4.58516895e-01  4.58516895e-01  4.58516895e-01  4.58516895e-01  4.58516895e-01  3.36635527e-09  3.28124002e-09  1.59327117e-07  4.70328327e-08  2.10000000e-01 
 2.20000000e-01  4.58516826e-01  4.58516825e-01  4.58516825e-01  4.58516825e-01  4.58516825e-01  3.36635526e-09  3.28124001e-09  1.59327032e-07  4.70326604e-08  2.20000000e-01 
 2.30000000e-01  4.58516859e-01  4.58516859e-01  4.58516859e-01  4.58516859e-01  4.58516859e-01  3.36635527e-09  3.28124001e-09  1.59327062e-07  4.70324704e-08  2.30000000e-01 
 2.40000000e-01  4.58516859e-01  4.58516859e-01  4.58516859e-01  4.58516859e-01  4.58516859e-01  3.36635527e-09  3.28124001e-09  1.59327075e-07  4.70323531e-08  2.40000000e-01 
 2.50000000e-01  4.58516874e-01  4.58516874e-01  4.58516874e-01  4.58516874e-01  4.58516874e-01  3.36635527e-09  3.28124002e-09  1.59327084e-07  4.70322998e-08  2.50000000e-01 
 2.60000000e-01  4.58516842e-01  4.58516841e-01  4.58516841e-01  4.58516842e-01  4.58516841e-01  3.36635527e-09  3.28124007e-09  1.59327036e-07  4.70319872e-08  2.60000000e-01 
 2.70000000e-01  4.58516865e-01  4.58516865e-01  4.58516865e-01  4.58516865e-01  4.58516865e-01  3.36635527e-09  3.28124000e-09  1.59327094e-07  4.70320423e-08  2.70000000e-01 
 2.80000000e-01  4.58516849e-01  4.58516849e-01  4.58516849e-01  4.58516849e-01  4.58516849e-01  3.36635527e-09  3.28124002e-09  1.59327063e-07  4.70317723e-08  2.80000000e-01 
 2.90000000e-01  4.58516875e-01  4.58516875e-01  4.58516875e-01  4.58516875e-01  4.58516875e-01  3.36635527e-09  3.28124002e-09  1.59327095e-07  4.70318575e-08  2.90000000e-01 
 3.00000000e-01  4.58516846e-01  4.58516846e-01  4.58516846e-01  4.58516846e-01  4.58516846e-01  3.36635527e-09  3.28124001e-09  1.59327043e-07  4.70315271e-08  3.00000000e-01 
 3.10000000e-01  4.58516854e-01  4.58516853e-01  4.58516853e-01  4.58516853e-01  4.58516853e-01  3.36635527e-09  3.28124001e-09  1.59327067e-07  4.70314774e-08  3.10000000e-01 
 3.20000000e-01  4.58516832e-01  4.58516832e-01  4.58516832e-01  4.58516832e-01  4.58516832e-01  3.36635527e-09  3.28124007e-09  1.59327031e-07  4.70313601e-08  3.20000000e-01 
 3.30000000e-01  4.58516870e-01  4.58516870e-01  4.58516870e-01  4.58516870e-01  4.58516870e-01  3.36635527e-09  3.28124000e-09  1.59327092e-07  4.70313886e-08  3.30000000e-01 
 3.40000000e-01  4.58516850e-01  4.58516850e-01  4.58516850e-01  4.58516850e-01  4.58516850e-01  3.36635527e-09  3.28124002e-09  1.59327049e-07  4.70311541e-08  3.40000000e-01 
 3.50000000e-01  4.58516836e-01  4.58516836e-01  4.58516836e-01  4.58516836e-01  4.58516836e-01  3.36635527e-09  3.28124001e-09  1.59327040e-07  4.70311505e-08  3.50000000e-01 
 3.60000000e-01  4.58516811e-01  4.58516811e-01  4.58516811e-01  4.58516811e-01  4.58516811e-01  3.36635526e-09  3.28124007e-09  1.59327007e-07  4.70309622e-08  3.60000000e-01 
 3.70000000e-01  4.58516848e-01  4.58516848e-01  4.58516848e-01  4.58516848e-01  4.58516848e-01  3.36635527e-09  3.28124006e-09  1.59327062e-07  4.70309196e-08  3.70000000e-01 
 3.80000000e-01  4.58516844e-01  4.58516843e-01  4.58516844e-01  4.58516844e-01  4.58516844e-01  3.36635527e-09  3.28124002e-09  1.59327039e-07  4.70308983e-08  3.80000000e-01 
 3.90000000e-01  4.58516820e-01  4.58516819e-01  4.58516819e-01  4.58516819e-01  4.58516819e-01  3.36635526e-09  3.28124001e-09  1.59327015e-07  4.70307313e-08  3.90000000e-01 
 4.00000000e-01  4.58516854e-01  4.58516854e-01  4.58516854e-01  4.58516854e-01  4.58516854e-01  3.36635527e-09  3.28124007e-09  1.59327073e-07  4.70307384e-08  4.00000000e-01 
 4.10000000e-01  4.58516879e-01  4.58516879e-01  4.58516879e-01  4.58516879e-01  4.58516879e-01  3.36635527e-09  3.28124006e-09  1.59327090e-07  4.70306318e-08  4.10000000e-01 
 4.20000000e-01  4.58516837e-01  4.58516836e-01  4.58516836e-01  4.58516836e-01  4.58516836e-01  3.36635527e-09  3.28124002e-09  1.59327022e-07  4.70304897e-08  4.20000000e-01 
 4.30000000e-01  4.58516844e-01  4.58516844e-01  4.58516844e-01  4.58516844e-01  4.58516844e-01  3.36635527e-09  3.28124001e-09  1.59327051e-07  4.70305750e-08  4.30000000e-01 
 4.40000000e-01  4.58516844e-01  4.58516844e-01  4.58516844e-01  4.58516844e-01  4.58516844e-01  3.36635527e-09  3.28124001e-09  1.59327043e-07  4.70304897e-08  4.40000000e-01 
 4.50000000e-01  4.58516863e-01  4.58516863e-01  4.58516863e-01  4.58516863e-01  4.58516863e-01  3.36635527e-09  3.28124001e-09  1.59327063e-07  4.70304009e-08  4.50000000e-01 
 4.60000000e-01  4.58516846e-01  4.58516846e-01  4.58516846e-01  4.58516846e-01  4.58516846e-01  3.36635527e-09  3.28124001e-09  1.59327054e-07  4.70303405e-08  4.60000000e-01 
 4.70000000e-01  4.58516847e-01  4.58516847e-01  4.58516847e-01  4.58516847e-01  4.58516847e-01  3.36635527e-09  3.28124001e-09  1.59327061e-07  4.70302588e-08  4.70000000e-01 
 4.80000000e-01  4.58516844e-01  4.58516844e-01  4.58516844e-01  4.58516844e-01  4.58516844e-01  3.36635527e-09  3.28124001e-09  1.59327041e-07  4.70301913e-08  4.80000000e-01 
 4.90000000e-01  4.58516854e-01  4.58516854e-01  4.58516854e-01  4.58516854e-01  4.58516854e-01  3.36635527e-09  3.28124001e-09  1.59327062e-07  4.70299995e-08  4.90000000e-01 
 5.00000000e-01  4.58516833e-01  4.58516832e-01  4.58516832e-01  4.58516833e-01  4.58516832e-01  3.36635527e-09  3.28124001e-09  1.59327032e-07  4.70301735e-08  5.00000000e-01 
 5.10000000e-01  4.58516849e-01  4.58516849e-01  4.58516849e-01  4.58516849e-01  4.58516849e-01  3.36635527e-09  3.28124001e-09  1.59327075e-07  4.70300279e-08  5.10000000e-01 
 5.20000000e-01  4.58516865e-01  4.58516864e-01  4.58516864e-01  4.58516865e-01  4.58516864e-01  3.36635527e-09  3.28124001e-09  1.59327076e-07  4.70299391e-08  5.20000000e-01 
 5.30000000e-01  4.58516842e-01  4.58516842e-01  4.58516842e-01  4.58516842e-01  4.58516842e-01  3.36635527e-09  3.28124001e-09  1.59327041e-07  4.70298822e-08  5.30000000e-01 
 5.40000000e-01  4.58516816e-01  4.58516816e-01  4.58516816e-01  4.58516816e-01  4.58516816e-01  3.36635526e-09  3.28124001e-09  1.59327001e-07  4.70297827e-08  5.40000000e-01 
 5.50000000e-01  4.58516847e-01  4.58516847e-01  4.58516847e-01  4.58516847e-01  4.58516847e-01  3.36635527e-09  3.28124001e-09  1.59327059e-07  4.70297365e-08  5.50000000e-01 
 5.60000000e-01  4.58516838e-01  4.58516838e-01  4.58516838e-01  4.58516838e-01  4.58516838e-01  3.36635527e-09  3.28124001e-09  1.59327026e-07  4.70296619e-08  5.60000000e-01 
 5.70000000e-01  4.58516830e-01  4.58516830e-01  4.58516830e-01  4.58516830e-01  4.58516830e-01  3.36635526e-09  3.28124007e-09  1.59327024e-07  4.70296051e-08  5.70000000e-01 
 5.80000000e-01  4.58516837e-01  4.58516837e-01  4.58516837e-01  4.58516837e-01  4.58516837e-01  3.36635527e-09  3.28124006e-09  1.59327037e-07  4.70294168e-08  5.80000000e-01 
 5.90000000e-01  4.58516890e-01  4.58516890e-01  4.58516890e-01  4.58516890e-01  4.58516890e-01  3.36635527e-09  3.28124002e-09  1.59327109e-07  4.70295518e-08  5.90000000e-01 
 6.00000000e-01  4.58516871e-01  4.58516871e-01  4.58516871e-01  4.58516871e-01  4.58516871e-01  3.36635527e-09  3.28124007e-09  1.59327094e-07  4.70295092e-08  6.00000000e-01 
 6.10000000e-01  4.58516866e-01  4.58516865e-01  4.58516866e-01  4.58516866e-01  4.58516865e-01  3.36635527e-09  3.28124006e-09  1.59327066e-07  4.70294808e-08  6.10000000e-01 
 6.20000000e-01  4.58516837e-01  4.58516837e-01  4.58516837e-01  4.58516837e-01  4.58516837e-01  3.36635527e-09  3.28124008e-09  1.59327039e-07  4.70293386e-08  6.20000000e-01 
 6.30000000e-01  4.58516846e-01  4.58516846e-01  4.58516846e-01  4.58516846e-01  4.58516846e-01  3.36635527e-09  3.28124000e-09  1.59327054e-07  4.70293671e-08  6.30000000e-01 
 6.40000000e-01  4.58516853e-01  4.58516853e-01  4.58516853e-01  4.58516853e-01  4.58516853e-01  3.36635527e-09  3.28124002e-09  1.59327058e-07  4.70292747e-08  6.40000000e-01 
 6.50000000e-01  4.58516868e-01  4.58516868e-01  4.58516868e-01  4.58516868e-01  4.58516868e-01  3.36635527e-09  3.28124001e-09  1.59327087e-07  4.70290971e-08  6.50000000e-01 
 6.60000000e-01  4.58516832e-01  4.58516832e-01  4.58516832e-01  4.58516832e-01  4.58516832e-01  3.36635527e-09  3.28124001e-09  1.59327032e-07  4.70290615e-08  6.60000000e-01 
 6.70000000e-01  4.58516853e-01  4.58516853e-01  4.58516853e-01  4.58516853e-01  4.58516853e-01  3.36635527e-09  3.28124001e-09  1.59327061e-07  4.70290473e-08  6.70000000e-01 
 6.80000000e-01  4.58516879e-01  4.58516878e-01  4.58516878e-01  4.58516879e-01  4.58516878e-01  3.36635527e-09  3.28124002e-09  1.59327100e-07  4.70290544e-08  6.80000000e-01 
 6.90000000e-01  4.58516846e-01  4.58516846e-01  4.58516846e-01  4.58516846e-01  4.58516846e-01  3.36635527e-09  3.28124001e-09  1.59327046e-07  4.70287986e-08  6.90000000e-01 
 7.00000000e-01  4.58516833e-01  4.58516833e-01  4.58516833e-01  4.58516833e-01  4.58516833e-01  3.36635527e-09  3.28124001e-09  1.59327033e-07  4.70289550e-08  7.00000000e-01 
 7.10000000e-01  4.58516830e-01  4.58516829e-01  4.58516830e-01  4.58516830e-01  4.58516830e-01  3.36635526e-09  3.28124001e-09  1.59327017e-07  4.70287560e-08  7.10000000e-01 
 7.20000000e-01  4.58516829e-01  4.58516829e-01  4.58516829e-01  4.58516829e-01  4.58516829e-01  3.36635526e-09  3.28124001e-09  1.59327028e-07  4.70287986e-08  7.20000000e-01 
 7.30000000e-01  4.58516846e-01  4.58516846e-01  4.58516846e-01  4.58516846e-01  4.58516846e-01  3.36635527e-09  3.28124001e-09  1.59327054e-07  4.70286210e-08  7.30000000e-01 
 7.40000000e-01  4.58516890e-01  4.58516890e-01  4.58516890e-01  4.58516890e-01  4.58516890e-01  3.36635527e-09  3.28124002e-09  1.59327115e-07  4.70286849e-08  7.40000000e-01 
 7.50000000e-01  4.58516846e-01  4.58516846e-01  4.58516846e-01  4.58516846e-01  4.58516846e-01  3.36635527e-09  3.28124001e-09  1.59327045e-07  4.70285357e-08  7.50000000e-01 
 7.60000000e-01  4.58516850e-01  4.58516850e-01  4.58516850e-01  4.58516850e-01  4.58516850e-01  3.36635527e-09  3.28124001e-09  1.59327064e-07  4.70284860e-08  7.60000000e-01 
 7.70000000e-01  4.58516871e-01  4.58516871e-01  4.58516871e-01  4.58516871e-01  4.58516871e-01  3.36635527e-09  3.28124002e-09  1.59327082e-07  4.70283368e-08  7.70000000e-01 
 7.80000000e-01  4.58516853e-01  4.58516853e-01  4.58516853e-01  4.58516853e-01  4.58516853e-01  3.36635527e-09  3.28124007e-09  1.59327062e-07  4.70283723e-08  7.80000000e-01 
 7.90000000e-01  4.58516863e-01  4.58516863e-01  4.58516863e-01  4.58516863e-01  4.58516863e-01  3.36635527e-09  3.28124006e-09  1.59327072e-07  4.70283581e-08  7.90000000e-01 
 8.00000000e-01  4.58516885e-01  4.58516884e-01  4.58516884e-01  4.58516885e-01  4.58516884e-01  3.36635527e-09  3.28124002e-09  1.59327099e-07  4.70282018e-08  8.00000000e-01 
 8.10000000e-01  4.58516829e-01  4.58516829e-01  4.58516829e-01  4.58516829e-01  4.58516829e-01  3.36635526e-09  3.28124001e-09  1.59327015e-07  4.70281663e-08  8.10000000e-01 
 8.20000000e-01  4.58516831e-01  4.58516831e-01  4.58516831e-01  4.58516831e-01  4.58516831e-01  3.36635527e-09  3.28124001e-09  1.59327018e-07  4.70281805e-08  8.20000000e-01 
 8.30000000e-01  4.58516840e-01  4.58516840e-01  4.58516840e-01  4.58516840e-01  4.58516840e-01  3.36635527e-09  3.28124007e-09  1.59327037e-07  4.70281165e-08  8.30000000e-01 
 8.40000000e-01  4.58516821e-01  4.58516820e-01  4.58516821e-01  4.58516821e-01  4.58516821e-01  3.36635526e-09  3.28124006e-09  1.59327029e-07  4.70281236e-08  8.40000000e-01 
 8.50000000e-01  4.58516847e-01  4.58516847e-01  4.58516847e-01  4.58516847e-01  4.58516847e-01  3.36635527e-09  3.28124002e-09  1.59327038e-07  4.70280028e-08  8.50000000e-01 
 8.60000000e-01  4.58516841e-01  4.58516841e-01  4.58516841e-01  4.58516841e-01  4.58516841e-01  3.36635527e-09  3.28124001e-09  1.59327053e-07  4.70279460e-08  8.60000000e-01 
 8.70000000e-01  4.58516862e-01  4.58516862e-01  4.58516862e-01  4.58516862e-01  4.58516862e-01  3.36635527e-09  3.28124007e-09  1.59327079e-07  4.70278110e-08  8.70000000e-01 
 8.80000000e-01  4.58516856e-01  4.58516856e-01  4.58516856e-01  4.58516856e-01  4.58516856e-01  3.36635527e-09  3.28124006e-09  1.59327065e-07  4.70277897e-08  8.80000000e-01 
 8.90000000e-01  4.58516855e-01  4.58516854e-01  4.58516855e-01  4.58516855e-01  4.58516855e-01  3.36635527e-09  3.28124002e-09  1.59327061e-07  4.70277470e-08  8.90000000e-01 
 9.00000000e-01  4.58516840e-01  4.58516840e-01  4.58516840e-01  4.58516840e-01  4.58516840e-01  3.36635527e-09  3.28124007e-09  1.59327043e-07  4.70277115e-08  9.00000000e-01 
 9.10000000e-01  4.58516860e-01  4.58516859e-01  4.58516859e-01  4.58516860e-01  4.58516859e-01  3.36635527e-09  3.28124000e-09  1.59327070e-07  4.70276689e-08  9.10000000e-01 
 9.20000000e-01  4.58516880e-01  4.58516880e-01  4.58516880e-01  4.58516880e-01  4.58516880e-01  3.36635527e-09  3.28124002e-09  1.59327096e-07  4.70276547e-08  9.20000000e-01 
 9.30000000e-01  4.58516869e-01  4.58516869e-01  4.58516869e-01  4.58516869e-01  4.58516869e-01  3.36635527e-09  3.28124001e-09  1.59327078e-07  4.70275126e-08  9.30000000e-01 
 9.40000000e-01  4.58516864e-01  4.58516864e-01  4.58516864e-01  4.58516864e-01  4.58516864e-01  3.36635527e-09  3.28124001e-09  1.59327087e-07  4.70274060e-08  9.40000000e-01 
 9.50000000e-01  4.58516857e-01  4.58516857e-01  4.58516857e-01  4.58516857e-01  4.58516857e-01  3.36635527e-09  3.28124007e-09  1.59327062e-07  4.70274060e-08  9.50000000e-01 
 9.60000000e-01  4.58516841e-01  4.58516840e-01  4.58516840e-01  4.58516841e-01  4.58516840e-01  3.36635527e-09  3.28124000e-09  1.59327047e-07  4.70272710e-08  9.60000000e-01 
 9.70000000e-01  4.58516851e-01  4.58516851e-01  4.58516851e-01  4.58516851e-01  4.58516851e-01  3.36635527e-09  3.28124002e-09  1.59327059e-07  4.70272212e-08  9.70000000e-01 
 9.80000000e-01  4.58516883e-01  4.58516883e-01  4.58516883e-01  4.58516883e-01  4.58516883e-01  3.36635527e-09  3.28124002e-09  1.59327102e-07  4.70273207e-08  9.80000000e-01 
 9.90000000e-01  4.58516843e-01  4.58516843e-01  4.58516843e-01  4.58516843e-01  4.58516843e-01  3.36635527e-09  3.28124001e-09  1.59327032e-07  4.70271218e-08  9.90000000e-01 
 1.00000000e+00  4.58516871e-01  4.58516870e-01  4.58516870e-01  4.58516870e-01  4.58516870e-01  3.36635527e-09  3.28124007e-09  1.59327085e-07  4.70270152e-08  1.00000000e+00 
 1.01000000e+00  4.58516844e-01  4.58516844e-01  4.58516844e-01  4.58516844e-01  4.58516844e-01  3.36635527e-09  3.28124000e-09  1.59327041e-07  4.70270862e-08  1.01000000e+00 
 1.02000000e+00  4.58516837e-01  4.58516836e-01  4.58516836e-01  4.58516836e-01  4.58516836e-01  3.36635527e-09  3.28124002e-09  1.59327045e-07  4.70269725e-08  1.02000000e+00 
 1.03000000e+00  4.58516858e-01  4.58516858e-01  4.58516858e-01  4.58516858e-01  4.58516858e-01  3.36635532e-09  3.28124001e-09  1.59327067e-07  4.70268446e-08  1.03000000e+00 
 1.04000000e+00  4.58516859e-01  4.58516859e-01  4.58516859e-01  4.58516859e-01  4.58516859e-01  3.36635531e-09  3.28124001e-09  1.59327071e-07  4.70267807e-08  1.04000000e+00 
 1.05000000e+00  4.58516850e-01  4.58516850e-01  4.58516850e-01  4.58516850e-01  4.58516850e-01  3.36635527e-09  3.28124001e-09  1.59327051e-07  4.70267878e-08  1.05000000e+00 
 1.06000000e+00  4.58516881e-01  4.58516881e-01  4.58516881e-01  4.58516881e-01  4.58516881e-01  3.36635527e-09  3.28124002e-09  1.59327095e-07  4.70266599e-08  1.06000000e+00 
 1.07000000e+00  4.58516842e-01  4.58516842e-01  4.58516842e-01  4.58516842e-01  4.58516842e-01  3.36635527e-09  3.28124001e-09  1.59327043e-07  4.70266457e-08  1.07000000e+00 
 1.08000000e+00  4.58516854e-01  4.58516854e-01  4.58516854e-01  4.58516854e-01  4.58516854e-01  3.36635527e-09  3.28124001e-09  1.59327065e-07  4.70265888e-08  1.08000000e+00 
 1.09000000e+00  4.58516861e-01  4.58516861e-01  4.58516861e-01  4.58516861e-01  4.58516861e-01  3.36635527e-09  3.28124001e-09  1.59327071e-07  4.70265391e-08  1.09000000e+00 
 1.10000000e+00  4.58516831e-01  4.58516831e-01  4.58516831e-01  4.58516831e-01  4.58516831e-01  3.36635527e-09  3.28124001e-09  1.59327044e-07  4.70264538e-08  1.10000000e+00 
