 v-sweep         v(b0)           v(b1)           v(b2)           v(b3)           v(b4)           v(b5)           v(b6)           i(vbias)        i(viout)        v(vout)        
 0.00000000e+00  3.13894696e-09  3.47960836e-09  4.58004806e-01  4.58004807e-01  2.95656637e-09  3.19374223e-09  3.44479402e-09  1.58517028e-07  1.84744191e-08  0.00000000e+00 
 1.00000000e-02  3.13894694e-09  3.47960833e-09  4.58004806e-01  4.58004806e-01  2.95656635e-09  3.19374226e-09  3.44479400e-09  1.58516999e-07  1.84739368e-08  1.00000000e-02 
 2.00000000e-02  3.13894699e-09  3.47960832e-09  4.58004803e-01  4.58004803e-01  2.95656635e-09  3.19374226e-09  3.44479400e-09  1.58517005e-07  1.84737230e-08  2.00000000e-02 
 3.00000000e-02  3.13894698e-09  3.47960833e-09  4.58004806e-01  4.58004806e-01  2.95656635e-09  3.19374226e-09  3.44479400e-09  1.58517010e-07  1.84733318e-08  3.00000000e-02 
 4.00000000e-02  3.13894699e-09  3.47960833e-09  4.58004845e-01  4.58004845e-01  2.95656635e-09  3.19374226e-09  3.44479400e-09  1.58517058e-07  1.84729347e-08  4.00000000e-02 
 5.00000000e-02  3.13894699e-09  3.47960832e-09  4.58004802e-01  4.58004802e-01  2.95656635e-09  3.19374226e-09  3.44479400e-09  1.58517011e-07  1.84726385e-08  5.00000000e-02 
 6.00000000e-02  3.13894699e-09  3.47960832e-09  4.58004798e-01  4.58004798e-01  2.95656635e-09  3.19374226e-09  3.44479400e-09  1.58516976e-07  1.84722699e-08  6.00000000e-02 
 7.00000000e-02  3.13894699e-09  3.47960833e-09  4.58004813e-01  4.58004813e-01  2.95656635e-09  3.19374226e-09  3.44479400e-09  1.58517028e-07  1.84720297e-08  7.00000000e-02 
 8.00000000e-02  3.13894699e-09  3.47960832e-09  4.58004788e-01  4.58004788e-01  2.95656635e-09  3.19374226e-09  3.44479400e-09  1.58516988e-07  1.84717823e-08  8.00000000e-02 
 9.00000000e-02  3.13894699e-09  3.47960833e-09  4.58004822e-01  4.58004823e-01  2.95656635e-09  3.19374226e-09  3.44479400e-09  1.58517027e-07  1.84714875e-08  9.00000000e-02 
 1.00000000e-01  3.13894699e-09  3.47960833e-09  4.58004818e-01  4.58004819e-01  2.95656635e-09  3.19374226e-09  3.44479400e-09  1.58517029e-07  1.84711375e-08  1.00000000e-01 
 1.10000000e-01  3.13894699e-09  3.47960833e-09  4.58004816e-01  4.58004816e-01  2.95656635e-09  3.19374226e-09  3.44479400e-09  1.58517021e-07  1.84710700e-08  1.10000000e-01 
 1.20000000e-01  3.13894699e-09  3.47960833e-09  4.58004813e-01  4.58004814e-01  2.95656635e-09  3.19374226e-09  3.44479400e-09  1.58517025e-07  1.84706481e-08  1.20000000e-01 
 1.30000000e-01  3.13894699e-09  3.47960832e-09  4.58004804e-01  4.58004805e-01  2.95656635e-09  3.19374226e-09  3.44479406e-09  1.58517004e-07  1.84704980e-08  1.30000000e-01 
 1.40000000e-01  3.13894699e-09  3.47960832e-09  4.58004774e-01  4.58004774e-01  2.95656634e-09  3.19374226e-09  3.44479399e-09  1.58516972e-07  1.84703941e-08  1.40000000e-01 
 1.50000000e-01  3.13894699e-09  3.47960833e-09  4.58004812e-01  4.58004812e-01  2.95656635e-09  3.19374226e-09  3.44479401e-09  1.58517016e-07  1.84699811e-08  1.50000000e-01 
 1.60000000e-01  3.13894699e-09  3.47960833e-09  4.58004813e-01  4.58004814e-01  2.95656635e-09  3.19374226e-09  3.44479400e-09  1.58517025e-07  1.84697573e-08  1.60000000e-01 
 1.70000000e-01  3.13894699e-09  3.47960833e-09  4.58004806e-01  4.58004806e-01  2.95656635e-09  3.19374226e-09  3.44479400e-09  1.58517008e-07  1.84697733e-08  1.70000000e-01 
 1.80000000e-01  3.13894699e-09  3.47960833e-09  4.58004820e-01  4.58004820e-01  2.95656635e-09  3.19374226e-09  3.44479400e-09  1.58517033e-07  1.84694535e-08  1.80000000e-01 
 1.90000000e-01  3.13894699e-09  3.47960833e-09  4.58004834e-01  4.58004834e-01  2.95656640e-09  3.19374226e-09  3.44479406e-09  1.58517066e-07  1.84694624e-08  1.90000000e-01 
 2.00000000e-01  3.13894699e-09  3.47960833e-09  4.58004821e-01  4.58004821e-01  2.95656635e-09  3.19374226e-09  3.44479399e-09  1.58517036e-07  1.84692119e-08  2.00000000e-01 
 2.10000000e-01  3.13894699e-09  3.47960833e-09  4.58004812e-01  4.58004813e-01  2.95656635e-09  3.19374226e-09  3.44479401e-09  1.58517011e-07  1.84690023e-08  2.10000000e-01 
 2.20000000e-01  3.13894699e-09  3.47960832e-09  4.58004804e-01  4.58004804e-01  2.95656635e-09  3.19374226e-09  3.44479400e-09  1.58516997e-07  1.84689739e-08  2.20000000e-01 
 2.30000000e-01  3.13894699e-09  3.47960832e-09  4.58004802e-01  4.58004802e-01  2.95656635e-09  3.19374220e-09  3.44479406e-09  1.58516999e-07  1.84688034e-08  2.30000000e-01 
 2.40000000e-01  3.13894699e-09  3.47960827e-09  4.58004803e-01  4.58004804e-01  2.95656635e-09  3.19374226e-09  3.44479404e-09  1.58517003e-07  1.84686471e-08  2.40000000e-01 
 2.50000000e-01  3.13894699e-09  3.47960833e-09  4.58004825e-01  4.58004825e-01  2.95656635e-09  3.19374226e-09  3.44479399e-09  1.58517035e-07  1.84685369e-08  2.50000000e-01 
 2.60000000e-01  3.13894699e-09  3.47960833e-09  4.58004811e-01  4.58004811e-01  2.95656635e-09  3.19374226e-09  3.44479401e-09  1.58517036e-07  1.84683913e-08  2.60000000e-01 
 2.70000000e-01  3.13894699e-09  3.47960832e-09  4.58004777e-01  4.58004777e-01  2.95656634e-09  3.19374226e-09  3.44479400e-09  1.58516977e-07  1.84683397e-08  2.70000000e-01 
 2.80000000e-01  3.13894699e-09  3.47960833e-09  4.58004810e-01  4.58004810e-01  2.95656635e-09  3.19374226e-09  3.44479400e-09  1.58517010e-07  1.84682811e-08  2.80000000e-01 
 2.90000000e-01  3.13894699e-09  3.47960833e-09  4.58004817e-01  4.58004817e-01  2.95656635e-09  3.19374220e-09  3.44479400e-09  1.58517031e-07  1.84681390e-08  2.90000000e-01 
 3.00000000e-01  3.13894699e-09  3.47960832e-09  4.58004796e-01  4.58004796e-01  2.95656635e-09  3.19374226e-09  3.44479400e-09  1.58517002e-07  1.84679898e-08  3.00000000e-01 
 3.10000000e-01  3.13894699e-09  3.47960833e-09  4.58004819e-01  4.58004819e-01  2.95656635e-09  3.19374226e-09  3.44479400e-09  1.58517034e-07  1.84679045e-08  3.10000000e-01 
 3.20000000e-01  3.13894699e-09  3.47960833e-09  4.58004823e-01  4.58004823e-01  2.95656635e-09  3.19374226e-09  3.44479400e-09  1.58517045e-07  1.84678015e-08  3.20000000e-01 
 3.30000000e-01  3.13894699e-09  3.47960832e-09  4.58004798e-01  4.58004798e-01  2.95656635e-09  3.19374226e-09  3.44479400e-09  1.58517006e-07  1.84676949e-08  3.30000000e-01 
 3.40000000e-01  3.13894699e-09  3.47960832e-09  4.58004802e-01  4.58004803e-01  2.95656635e-09  3.19374226e-09  3.44479400e-09  1.58517008e-07  1.84675919e-08  3.40000000e-01 
 3.50000000e-01  3.13894699e-09  3.47960832e-09  4.58004805e-01  4.58004805e-01  2.95656635e-09  3.19374226e-09  3.44479400e-09  1.58517010e-07  1.84675990e-08  3.50000000e-01 
 3.60000000e-01  3.13894699e-09  3.47960832e-09  4.58004804e-01  4.58004804e-01  2.95656635e-09  3.19374226e-09  3.44479400e-09  1.58517010e-07  1.84674604e-08  3.60000000e-01 
 3.70000000e-01  3.13894699e-09  3.47960833e-09  4.58004815e-01  4.58004816e-01  2.95656635e-09  3.19374226e-09  3.44479400e-09  1.58517018e-07  1.84674533e-08  3.70000000e-01 
 3.80000000e-01  3.13894699e-09  3.47960833e-09  4.58004810e-01  4.58004810e-01  2.95656635e-09  3.19374226e-09  3.44479400e-09  1.58517020e-07  1.84673361e-08  3.80000000e-01 
 3.90000000e-01  3.13894699e-09  3.47960833e-09  4.58004830e-01  4.58004830e-01  2.95656635e-09  3.19374226e-09  3.44479400e-09  1.58517048e-07  1.84673254e-08  3.90000000e-01 
 4.00000000e-01  3.13894699e-09  3.47960832e-09  4.58004800e-01  4.58004800e-01  2.95656635e-09  3.19374226e-09  3.44479400e-09  1.58517017e-07  1.84671443e-08  4.00000000e-01 
 4.10000000e-01  3.13894699e-09  3.47960833e-09  4.58004811e-01  4.58004811e-01  2.95656635e-09  3.19374226e-09  3.44479400e-09  1.58517009e-07  1.84671265e-08  4.10000000e-01 
 4.20000000e-01  3.13894699e-09  3.47960833e-09  4.58004820e-01  4.58004820e-01  2.95656635e-09  3.19374226e-09  3.44479400e-09  1.58517018e-07  1.84670732e-08  4.20000000e-01 
 4.30000000e-01  3.13894699e-09  3.47960832e-09  4.58004791e-01  4.58004791e-01  2.95656635e-09  3.19374226e-09  3.44479400e-09  1.58516994e-07  1.84669169e-08  4.30000000e-01 
 4.40000000e-01  3.13894699e-09  3.47960833e-09  4.58004815e-01  4.58004815e-01  2.95656635e-09  3.19374226e-09  3.44479400e-09  1.58517002e-07  1.84669204e-08  4.40000000e-01 
 4.50000000e-01  3.13894699e-09  3.47960832e-09  4.58004801e-01  4.58004801e-01  2.95656635e-09  3.19374226e-09  3.44479400e-09  1.58517006e-07  1.84669275e-08  4.50000000e-01 
 4.60000000e-01  3.13894699e-09  3.47960833e-09  4.58004830e-01  4.58004830e-01  2.95656635e-09  3.19374226e-09  3.44479400e-09  1.58517028e-07  1.84668210e-08  4.60000000e-01 
 4.70000000e-01  3.13894699e-09  3.47960832e-09  4.58004795e-01  4.58004795e-01  2.95656635e-09  3.19374226e-09  3.44479400e-09  1.58516995e-07  1.84667357e-08  4.70000000e-01 
 4.80000000e-01  3.13894699e-09  3.47960832e-09  4.58004799e-01  4.58004799e-01  2.95656635e-09  3.19374226e-09  3.44479400e-09  1.58516997e-07  1.84667215e-08  4.80000000e-01 
 4.90000000e-01  3.13894699e-09  3.47960833e-09  4.58004837e-01  4.58004837e-01  2.95656635e-09  3.19374226e-09  3.44479400e-09  1.58517056e-07  1.84666256e-08  4.90000000e-01 
 5.00000000e-01  3.13894699e-09  3.47960833e-09  4.58004818e-01  4.58004818e-01  2.95656635e-09  3.19374226e-09  3.44479400e-09  1.58517038e-07  1.84664728e-08  5.00000000e-01 
 5.10000000e-01  3.13894699e-09  3.47960832e-09  4.58004795e-01  4.58004795e-01  2.95656635e-09  3.19374226e-09  3.44479400e-09  1.58517003e-07  1.84663698e-08  5.10000000e-01 
 5.20000000e-01  3.13894699e-09  3.47960833e-09  4.58004825e-01  4.58004825e-01  2.95656635e-09  3.19374226e-09  3.44479400e-09  1.58517029e-07  1.84664444e-08  5.20000000e-01 
 5.30000000e-01  3.13894699e-09  3.47960832e-09  4.58004794e-01  4.58004794e-01  2.95656635e-09  3.19374226e-09  3.44479400e-09  1.58517006e-07  1.84663698e-08  5.30000000e-01 
 5.40000000e-01  3.13894699e-09  3.47960832e-09  4.58004786e-01  4.58004786e-01  2.95656635e-09  3.19374226e-09  3.44479400e-09  1.58516980e-07  1.84663556e-08  5.40000000e-01 
 5.50000000e-01  3.13894699e-09  3.47960833e-09  4.58004815e-01  4.58004815e-01  2.95656635e-09  3.19374226e-09  3.44479406e-09  1.58517015e-07  1.84662063e-08  5.50000000e-01 
 5.60000000e-01  3.13894699e-09  3.47960832e-09  4.58004801e-01  4.58004802e-01  2.95656635e-09  3.19374226e-09  3.44479399e-09  1.58517010e-07  1.84662667e-08  5.60000000e-01 
 5.70000000e-01  3.13894699e-09  3.47960833e-09  4.58004806e-01  4.58004806e-01  2.95656635e-09  3.19374226e-09  3.44479401e-09  1.58517013e-07  1.84661459e-08  5.70000000e-01 
 5.80000000e-01  3.13894699e-09  3.47960833e-09  4.58004810e-01  4.58004810e-01  2.95656640e-09  3.19374226e-09  3.44479400e-09  1.58517019e-07  1.84661104e-08  5.80000000e-01 
 5.90000000e-01  3.13894699e-09  3.47960833e-09  4.58004826e-01  4.58004826e-01  2.95656635e-09  3.19374226e-09  3.44479400e-09  1.58517040e-07  1.84661317e-08  5.90000000e-01 
 6.00000000e-01  3.13894699e-09  3.47960832e-09  4.58004784e-01  4.58004784e-01  2.95656635e-09  3.19374226e-09  3.44479400e-09  1.58516982e-07  1.84659825e-08  6.00000000e-01 
 6.10000000e-01  3.13894699e-09  3.47960832e-09  4.58004799e-01  4.58004800e-01  2.95656635e-09  3.19374226e-09  3.44479400e-09  1.58516990e-07  1.84658830e-08  6.10000000e-01 
 6.20000000e-01  3.13894699e-09  3.47960832e-09  4.58004799e-01  4.58004799e-01  2.95656635e-09  3.19374226e-09  3.44479400e-09  1.58516990e-07  1.84660323e-08  6.20000000e-01 
 6.30000000e-01  3.13894699e-09  3.47960833e-09  4.58004826e-01  4.58004826e-01  2.95656640e-09  3.19374226e-09  3.44479400e-09  1.58517044e-07  1.84658404e-08  6.30000000e-01 
 6.40000000e-01  3.13894699e-09  3.47960832e-09  4.58004802e-01  4.58004802e-01  2.95656635e-09  3.19374226e-09  3.44479400e-09  1.58517011e-07  1.84657907e-08  6.40000000e-01 
 6.50000000e-01  3.13894699e-09  3.47960833e-09  4.58004825e-01  4.58004825e-01  2.95656635e-09  3.19374226e-09  3.44479400e-09  1.58517029e-07  1.84657978e-08  6.50000000e-01 
 6.60000000e-01  3.13894699e-09  3.47960832e-09  4.58004801e-01  4.58004801e-01  2.95656635e-09  3.19374226e-09  3.44479400e-09  1.58517012e-07  1.84657054e-08  6.60000000e-01 
 6.70000000e-01  3.13894699e-09  3.47960833e-09  4.58004808e-01  4.58004808e-01  2.95656635e-09  3.19374226e-09  3.44479400e-09  1.58517027e-07  1.84656983e-08  6.70000000e-01 
 6.80000000e-01  3.13894699e-09  3.47960833e-09  4.58004825e-01  4.58004825e-01  2.95656635e-09  3.19374220e-09  3.44479400e-09  1.58517032e-07  1.84655775e-08  6.80000000e-01 
 6.90000000e-01  3.13894699e-09  3.47960833e-09  4.58004817e-01  4.58004817e-01  2.95656635e-09  3.19374226e-09  3.44479400e-09  1.58517038e-07  1.84655562e-08  6.90000000e-01 
 7.00000000e-01  3.13894699e-09  3.47960832e-09  4.58004787e-01  4.58004787e-01  2.95656640e-09  3.19374226e-09  3.44479400e-09  1.58516985e-07  1.84655846e-08  7.00000000e-01 
 7.10000000e-01  3.13894699e-09  3.47960833e-09  4.58004837e-01  4.58004837e-01  2.95656635e-09  3.19374226e-09  3.44479400e-09  1.58517042e-07  1.84654283e-08  7.10000000e-01 
 7.20000000e-01  3.13894699e-09  3.47960833e-09  4.58004815e-01  4.58004815e-01  2.95656635e-09  3.19374226e-09  3.44479400e-09  1.58517022e-07  1.84653715e-08  7.20000000e-01 
 7.30000000e-01  3.13894699e-09  3.47960832e-09  4.58004781e-01  4.58004782e-01  2.95656635e-09  3.19374226e-09  3.44479400e-09  1.58516968e-07  1.84653999e-08  7.30000000e-01 
 7.40000000e-01  3.13894699e-09  3.47960833e-09  4.58004814e-01  4.58004814e-01  2.95656635e-09  3.19374226e-09  3.44479400e-09  1.58517030e-07  1.84652578e-08  7.40000000e-01 
 7.50000000e-01  3.13894699e-09  3.47960833e-09  4.58004813e-01  4.58004813e-01  2.95656635e-09  3.19374226e-09  3.44479400e-09  1.58517036e-07  1.84653288e-08  7.50000000e-01 
 7.60000000e-01  3.13894699e-09  3.47960833e-09  4.58004817e-01  4.58004817e-01  2.95656640e-09  3.19374220e-09  3.44479400e-09  1.58517028e-07  1.84653501e-08  7.60000000e-01 
 7.70000000e-01  3.13894699e-09  3.47960833e-09  4.58004807e-01  4.58004808e-01  2.95656635e-09  3.19374226e-09  3.44479406e-09  1.58516997e-07  1.84651796e-08  7.70000000e-01 
 7.80000000e-01  3.13894699e-09  3.47960833e-09  4.58004812e-01  4.58004813e-01  2.95656635e-09  3.19374220e-09  3.44479404e-09  1.58517019e-07  1.84651157e-08  7.80000000e-01 
 7.90000000e-01  3.13894699e-09  3.47960833e-09  4.58004809e-01  4.58004809e-01  2.95656635e-09  3.19374226e-09  3.44479399e-09  1.58517015e-07  1.84650446e-08  7.90000000e-01 
 8.00000000e-01  3.13894699e-09  3.47960833e-09  4.58004818e-01  4.58004818e-01  2.95656640e-09  3.19374226e-09  3.44479401e-09  1.58517023e-07  1.84649025e-08  8.00000000e-01 
 8.10000000e-01  3.13894699e-09  3.47960833e-09  4.58004813e-01  4.58004813e-01  2.95656635e-09  3.19374226e-09  3.44479400e-09  1.58517029e-07  1.84649736e-08  8.10000000e-01 
 8.20000000e-01  3.13894699e-09  3.47960833e-09  4.58004810e-01  4.58004810e-01  2.95656635e-09  3.19374220e-09  3.44479400e-09  1.58517020e-07  1.84649309e-08  8.20000000e-01 
 8.30000000e-01  3.13894699e-09  3.47960832e-09  4.58004788e-01  4.58004788e-01  2.95656635e-09  3.19374226e-09  3.44479400e-09  1.58516984e-07  1.84649096e-08  8.30000000e-01 
 8.40000000e-01  3.13894699e-09  3.47960833e-09  4.58004816e-01  4.58004816e-01  2.95656635e-09  3.19374226e-09  3.44479400e-09  1.58517021e-07  1.84649096e-08  8.40000000e-01 
 8.50000000e-01  3.13894699e-09  3.47960832e-09  4.58004794e-01  4.58004794e-01  2.95656635e-09  3.19374226e-09  3.44479400e-09  1.58517001e-07  1.84647533e-08  8.50000000e-01 
 8.60000000e-01  3.13894699e-09  3.47960833e-09  4.58004812e-01  4.58004812e-01  2.95656635e-09  3.19374226e-09  3.44479400e-09  1.58517003e-07  1.84647178e-08  8.60000000e-01 
 8.70000000e-01  3.13894699e-09  3.47960832e-09  4.58004797e-01  4.58004797e-01  2.95656640e-09  3.19374226e-09  3.44479400e-09  1.58517014e-07  1.84646112e-08  8.70000000e-01 
 8.80000000e-01  3.13894699e-09  3.47960833e-09  4.58004824e-01  4.58004824e-01  2.95656635e-09  3.19374226e-09  3.44479400e-09  1.58517052e-07  1.84645899e-08  8.80000000e-01 
 8.90000000e-01  3.13894699e-09  3.47960833e-09  4.58004831e-01  4.58004831e-01  2.95656635e-09  3.19374226e-09  3.44479400e-09  1.58517060e-07  1.84644620e-08  8.90000000e-01 
 9.00000000e-01  3.13894699e-09  3.47960833e-09  4.58004821e-01  4.58004821e-01  2.95656635e-09  3.19374226e-09  3.44479400e-09  1.58517040e-07  1.84646254e-08  9.00000000e-01 
 9.10000000e-01  3.13894699e-09  3.47960832e-09  4.58004795e-01  4.58004795e-01  2.95656635e-09  3.19374226e-09  3.44479400e-09  1.58516991e-07  1.84643980e-08  9.10000000e-01 
 9.20000000e-01  3.13894699e-09  3.47960833e-09  4.58004813e-01  4.58004814e-01  2.95656635e-09  3.19374220e-09  3.44479400e-09  1.58517018e-07  1.84644051e-08  9.20000000e-01 
 9.30000000e-01  3.13894699e-09  3.47960833e-09  4.58004811e-01  4.58004811e-01  2.95656635e-09  3.19374226e-09  3.44479400e-09  1.58517020e-07  1.84643838e-08  9.30000000e-01 
 9.40000000e-01  3.13894699e-09  3.47960833e-09  4.58004806e-01  4.58004806e-01  2.95656635e-09  3.19374226e-09  3.44479400e-09  1.58517018e-07  1.84642985e-08  9.40000000e-01 
 9.50000000e-01  3.13894699e-09  3.47960833e-09  4.58004806e-01  4.58004806e-01  2.95656635e-09  3.19374220e-09  3.44479400e-09  1.58517019e-07  1.84641848e-08  9.50000000e-01 
 9.60000000e-01  3.13894699e-09  3.47960832e-09  4.58004804e-01  4.58004804e-01  2.95656640e-09  3.19374226e-09  3.44479400e-09  1.58516998e-07  1.84641777e-08  9.60000000e-01 
 9.70000000e-01  3.13894699e-09  3.47960833e-09  4.58004813e-01  4.58004813e-01  2.95656635e-09  3.19374226e-09  3.44479400e-09  1.58517026e-07  1.84641138e-08  9.70000000e-01 
 9.80000000e-01  3.13894699e-09  3.47960833e-09  4.58004808e-01  4.58004809e-01  2.95656635e-09  3.19374226e-09  3.44479400e-09  1.58517013e-07  1.84641067e-08  9.80000000e-01 
 9.90000000e-01  3.13894699e-09  3.47960832e-09  4.58004797e-01  4.58004797e-01  2.95656635e-09  3.19374226e-09  3.44479400e-09  1.58516988e-07  1.84639504e-08  9.90000000e-01 
 1.00000000e+00  3.13894699e-09  3.47960833e-09  4.58004825e-01  4.58004825e-01  2.95656635e-09  3.19374226e-09  3.44479400e-09  1.58517025e-07  1.84639504e-08  1.00000000e+00 
 1.01000000e+00  3.13894699e-09  3.47960827e-09  4.58004813e-01  4.58004813e-01  2.95656635e-09  3.19374226e-09  3.44479400e-09  1.58517019e-07  1.84639219e-08  1.01000000e+00 
 1.02000000e+00  3.13894699e-09  3.47960832e-09  4.58004796e-01  4.58004796e-01  2.95656635e-09  3.19374226e-09  3.44479400e-09  1.58516997e-07  1.84638651e-08  1.02000000e+00 
 1.03000000e+00  3.13894699e-09  3.47960833e-09  4.58004810e-01  4.58004810e-01  2.95656635e-09  3.19374226e-09  3.44479400e-09  1.58517004e-07  1.84637656e-08  1.03000000e+00 
 1.04000000e+00  3.13894699e-09  3.47960832e-09  4.58004803e-01  4.58004803e-01  2.95656635e-09  3.19374226e-09  3.44479400e-09  1.58517006e-07  1.84637088e-08  1.04000000e+00 
 1.05000000e+00  3.13894699e-09  3.47960832e-09  4.58004788e-01  4.58004789e-01  2.95656635e-09  3.19374226e-09  3.44479406e-09  1.58516987e-07  1.84636448e-08  1.05000000e+00 
 1.06000000e+00  3.13894699e-09  3.47960833e-09  4.58004807e-01  4.58004807e-01  2.95656635e-09  3.19374226e-09  3.44479404e-09  1.58517001e-07  1.84636519e-08  1.06000000e+00 
 1.07000000e+00  3.13894699e-09  3.47960832e-09  4.58004799e-01  4.58004799e-01  2.95656635e-09  3.19374220e-09  3.44479405e-09  1.58517002e-07  1.84636235e-08  1.07000000e+00 
 1.08000000e+00  3.13894699e-09  3.47960833e-09  4.58004822e-01  4.58004822e-01  2.95656635e-09  3.19374226e-09  3.44479405e-09  1.58517048e-07  1.84633322e-08  1.08000000e+00 
 1.09000000e+00  3.13894699e-09  3.47960832e-09  4.58004796e-01  4.58004797e-01  2.95656635e-09  3.19374226e-09  3.44479399e-09  1.58517003e-07  1.84635169e-08  1.09000000e+00 
 1.10000000e+00  3.13894699e-09  3.47960833e-09  4.58004813e-01  4.58004813e-01  2.95656635e-09  3.19374220e-09  3.44479401e-09  1.58517001e-07  1.84634033e-08  1.10000000e+00 
