 v-sweep         v(b0)           v(b1)           v(b2)           v(b3)           v(b4)           v(b5)           v(b6)           i(vbias)        i(viout)        v(vout)        
 0.00000000e+00  4.58782939e-01  3.36972730e-09  3.35213414e-09  4.58782939e-01  4.58782939e-01  4.58782939e-01  3.33505190e-09  1.58589733e-07  8.80307195e-08  0.00000000e+00 
 1.00000000e-02  4.58782948e-01  3.36972733e-09  3.35213412e-09  4.58782948e-01  4.58782948e-01  4.58782948e-01  3.33505193e-09  1.58589751e-07  8.80302574e-08  1.00000000e-02 
 2.00000000e-02  4.58782942e-01  3.36972733e-09  3.35213412e-09  4.58782942e-01  4.58782942e-01  4.58782942e-01  3.33505192e-09  1.58589746e-07  8.80298952e-08  2.00000000e-02 
 3.00000000e-02  4.58782975e-01  3.36972733e-09  3.35213418e-09  4.58782975e-01  4.58782975e-01  4.58782975e-01  3.33505193e-09  1.58589778e-07  8.80296824e-08  3.00000000e-02 
 4.00000000e-02  4.58782952e-01  3.36972733e-09  3.35213412e-09  4.58782952e-01  4.58782952e-01  4.58782952e-01  3.33505193e-09  1.58589760e-07  8.80293176e-08  4.00000000e-02 
 5.00000000e-02  4.58782931e-01  3.36972733e-09  3.35213417e-09  4.58782931e-01  4.58782931e-01  4.58782931e-01  3.33505193e-09  1.58589722e-07  8.80289144e-08  5.00000000e-02 
 6.00000000e-02  4.58782938e-01  3.36972733e-09  3.35213417e-09  4.58782938e-01  4.58782938e-01  4.58782938e-01  3.33505193e-09  1.58589730e-07  8.80285049e-08  6.00000000e-02 
 7.00000000e-02  4.58782945e-01  3.36972733e-09  3.35213417e-09  4.58782945e-01  4.58782945e-01  4.58782945e-01  3.33505193e-09  1.58589746e-07  8.80281408e-08  7.00000000e-02 
 8.00000000e-02  4.58782946e-01  3.36972733e-09  3.35213412e-09  4.58782946e-01  4.58782946e-01  4.58782946e-01  3.33505193e-09  1.58589750e-07  8.80278357e-08  8.00000000e-02 
 9.00000000e-02  4.58782943e-01  3.36972733e-09  3.35213412e-09  4.58782943e-01  4.58782942e-01  4.58782942e-01  3.33505193e-09  1.58589752e-07  8.80276625e-08  9.00000000e-02 
 1.00000000e-01  4.58782958e-01  3.36972733e-09  3.35213418e-09  4.58782958e-01  4.58782958e-01  4.58782958e-01  3.33505193e-09  1.58589762e-07  8.80274937e-08  1.00000000e-01 
 1.10000000e-01  4.58782952e-01  3.36972733e-09  3.35213418e-09  4.58782952e-01  4.58782952e-01  4.58782952e-01  3.33505193e-09  1.58589759e-07  8.80271260e-08  1.10000000e-01 
 1.20000000e-01  4.58782921e-01  3.36972733e-09  3.35213417e-09  4.58782921e-01  4.58782921e-01  4.58782920e-01  3.33505193e-09  1.58589710e-07  8.80269235e-08  1.20000000e-01 
 1.30000000e-01  4.58782960e-01  3.36972733e-09  3.35213418e-09  4.58782960e-01  4.58782960e-01  4.58782960e-01  3.33505193e-09  1.58589760e-07  8.80267388e-08  1.30000000e-01 
 1.40000000e-01  4.58782952e-01  3.36972733e-09  3.35213412e-09  4.58782952e-01  4.58782952e-01  4.58782952e-01  3.33505193e-09  1.58589755e-07  8.80265576e-08  1.40000000e-01 
 1.50000000e-01  4.58782941e-01  3.36972733e-09  3.35213417e-09  4.58782941e-01  4.58782941e-01  4.58782941e-01  3.33505193e-09  1.58589733e-07  8.80261766e-08  1.50000000e-01 
 1.60000000e-01  4.58782952e-01  3.36972733e-09  3.35213418e-09  4.58782952e-01  4.58782952e-01  4.58782952e-01  3.33505193e-09  1.58589751e-07  8.80260878e-08  1.60000000e-01 
 1.70000000e-01  4.58782912e-01  3.36972733e-09  3.35213417e-09  4.58782912e-01  4.58782911e-01  4.58782911e-01  3.33505193e-09  1.58589688e-07  8.80257414e-08  1.70000000e-01 
 1.80000000e-01  4.58782931e-01  3.36972733e-09  3.35213417e-09  4.58782931e-01  4.58782931e-01  4.58782931e-01  3.33505193e-09  1.58589715e-07  8.80255886e-08  1.80000000e-01 
 1.90000000e-01  4.58782931e-01  3.36972733e-09  3.35213412e-09  4.58782931e-01  4.58782931e-01  4.58782931e-01  3.33505193e-09  1.58589724e-07  8.80254039e-08  1.90000000e-01 
 2.00000000e-01  4.58782926e-01  3.36972733e-09  3.35213411e-09  4.58782926e-01  4.58782926e-01  4.58782926e-01  3.33505193e-09  1.58589724e-07  8.80252298e-08  2.00000000e-01 
 2.10000000e-01  4.58782943e-01  3.36972733e-09  3.35213417e-09  4.58782943e-01  4.58782943e-01  4.58782943e-01  3.33505193e-09  1.58589737e-07  8.80250930e-08  2.10000000e-01 
 2.20000000e-01  4.58782918e-01  3.36972733e-09  3.35213417e-09  4.58782918e-01  4.58782918e-01  4.58782918e-01  3.33505193e-09  1.58589701e-07  8.80248852e-08  2.20000000e-01 
 2.30000000e-01  4.58782931e-01  3.36972733e-09  3.35213412e-09  4.58782931e-01  4.58782931e-01  4.58782931e-01  3.33505193e-09  1.58589712e-07  8.80247164e-08  2.30000000e-01 
 2.40000000e-01  4.58782929e-01  3.36972733e-09  3.35213417e-09  4.58782929e-01  4.58782929e-01  4.58782929e-01  3.33505193e-09  1.58589708e-07  8.80245992e-08  2.40000000e-01 
 2.50000000e-01  4.58782946e-01  3.36972733e-09  3.35213412e-09  4.58782946e-01  4.58782946e-01  4.58782946e-01  3.33505193e-09  1.58589734e-07  8.80245263e-08  2.50000000e-01 
 2.60000000e-01  4.58782917e-01  3.36972733e-09  3.35213417e-09  4.58782917e-01  4.58782917e-01  4.58782917e-01  3.33505198e-09  1.58589703e-07  8.80243967e-08  2.60000000e-01 
 2.70000000e-01  4.58782942e-01  3.36972733e-09  3.35213412e-09  4.58782943e-01  4.58782942e-01  4.58782942e-01  3.33505198e-09  1.58589737e-07  8.80242403e-08  2.70000000e-01 
 2.80000000e-01  4.58782953e-01  3.36972733e-09  3.35213418e-09  4.58782953e-01  4.58782952e-01  4.58782952e-01  3.33505198e-09  1.58589756e-07  8.80242599e-08  2.80000000e-01 
 2.90000000e-01  4.58782955e-01  3.36972733e-09  3.35213418e-09  4.58782955e-01  4.58782954e-01  4.58782954e-01  3.33505193e-09  1.58589756e-07  8.80240663e-08  2.90000000e-01 
 3.00000000e-01  4.58782953e-01  3.36972733e-09  3.35213418e-09  4.58782953e-01  4.58782953e-01  4.58782953e-01  3.33505193e-09  1.58589757e-07  8.80238495e-08  3.00000000e-01 
 3.10000000e-01  4.58782950e-01  3.36972733e-09  3.35213418e-09  4.58782951e-01  4.58782950e-01  4.58782950e-01  3.33505193e-09  1.58589750e-07  8.80238922e-08  3.10000000e-01 
 3.20000000e-01  4.58782925e-01  3.36972733e-09  3.35213417e-09  4.58782925e-01  4.58782925e-01  4.58782925e-01  3.33505193e-09  1.58589708e-07  8.80236755e-08  3.20000000e-01 
 3.30000000e-01  4.58782952e-01  3.36972733e-09  3.35213412e-09  4.58782952e-01  4.58782952e-01  4.58782952e-01  3.33505193e-09  1.58589749e-07  8.80234055e-08  3.30000000e-01 
 3.40000000e-01  4.58782950e-01  3.36972733e-09  3.35213412e-09  4.58782950e-01  4.58782950e-01  4.58782950e-01  3.33505193e-09  1.58589762e-07  8.80235724e-08  3.40000000e-01 
 3.50000000e-01  4.58782947e-01  3.36972733e-09  3.35213412e-09  4.58782947e-01  4.58782947e-01  4.58782947e-01  3.33505193e-09  1.58589744e-07  8.80233628e-08  3.50000000e-01 
 3.60000000e-01  4.58782977e-01  3.36972733e-09  3.35213412e-09  4.58782977e-01  4.58782977e-01  4.58782977e-01  3.33505193e-09  1.58589796e-07  8.80233806e-08  3.60000000e-01 
 3.70000000e-01  4.58782964e-01  3.36972733e-09  3.35213418e-09  4.58782964e-01  4.58782964e-01  4.58782964e-01  3.33505193e-09  1.58589764e-07  8.80231923e-08  3.70000000e-01 
 3.80000000e-01  4.58782938e-01  3.36972733e-09  3.35213417e-09  4.58782938e-01  4.58782938e-01  4.58782938e-01  3.33505193e-09  1.58589734e-07  8.80229258e-08  3.80000000e-01 
 3.90000000e-01  4.58782939e-01  3.36972733e-09  3.35213417e-09  4.58782939e-01  4.58782939e-01  4.58782939e-01  3.33505193e-09  1.58589738e-07  8.80230147e-08  3.90000000e-01 
 4.00000000e-01  4.58782952e-01  3.36972733e-09  3.35213418e-09  4.58782952e-01  4.58782952e-01  4.58782952e-01  3.33505193e-09  1.58589749e-07  8.80228619e-08  4.00000000e-01 
 4.10000000e-01  4.58782924e-01  3.36972733e-09  3.35213411e-09  4.58782924e-01  4.58782923e-01  4.58782923e-01  3.33505193e-09  1.58589718e-07  8.80226949e-08  4.10000000e-01 
 4.20000000e-01  4.58782957e-01  3.36972733e-09  3.35213412e-09  4.58782958e-01  4.58782957e-01  4.58782957e-01  3.33505193e-09  1.58589768e-07  8.80228122e-08  4.20000000e-01 
 4.30000000e-01  4.58782968e-01  3.36972733e-09  3.35213412e-09  4.58782968e-01  4.58782968e-01  4.58782968e-01  3.33505193e-09  1.58589785e-07  8.80226843e-08  4.30000000e-01 
 4.40000000e-01  4.58782932e-01  3.36972733e-09  3.35213412e-09  4.58782932e-01  4.58782932e-01  4.58782932e-01  3.33505193e-09  1.58589736e-07  8.80224853e-08  4.40000000e-01 
 4.50000000e-01  4.58782956e-01  3.36972733e-09  3.35213418e-09  4.58782956e-01  4.58782956e-01  4.58782956e-01  3.33505193e-09  1.58589760e-07  8.80224960e-08  4.50000000e-01 
 4.60000000e-01  4.58782974e-01  3.36972733e-09  3.35213418e-09  4.58782974e-01  4.58782974e-01  4.58782974e-01  3.33505193e-09  1.58589788e-07  8.80224178e-08  4.60000000e-01 
 4.70000000e-01  4.58782959e-01  3.36972733e-09  3.35213412e-09  4.58782959e-01  4.58782959e-01  4.58782959e-01  3.33505193e-09  1.58589771e-07  8.80224071e-08  4.70000000e-01 
 4.80000000e-01  4.58782950e-01  3.36972733e-09  3.35213418e-09  4.58782950e-01  4.58782950e-01  4.58782950e-01  3.33505193e-09  1.58589750e-07  8.80223041e-08  4.80000000e-01 
 4.90000000e-01  4.58782919e-01  3.36972733e-09  3.35213417e-09  4.58782919e-01  4.58782919e-01  4.58782919e-01  3.33505193e-09  1.58589706e-07  8.80221052e-08  4.90000000e-01 
 5.00000000e-01  4.58782957e-01  3.36972733e-09  3.35213418e-09  4.58782957e-01  4.58782957e-01  4.58782957e-01  3.33505193e-09  1.58589758e-07  8.80221798e-08  5.00000000e-01 
 5.10000000e-01  4.58782948e-01  3.36972733e-09  3.35213418e-09  4.58782948e-01  4.58782948e-01  4.58782948e-01  3.33505193e-09  1.58589765e-07  8.80220590e-08  5.10000000e-01 
 5.20000000e-01  4.58782938e-01  3.36972733e-09  3.35213417e-09  4.58782938e-01  4.58782938e-01  4.58782938e-01  3.33505193e-09  1.58589731e-07  8.80219702e-08  5.20000000e-01 
 5.30000000e-01  4.58782954e-01  3.36972733e-09  3.35213418e-09  4.58782954e-01  4.58782954e-01  4.58782954e-01  3.33505193e-09  1.58589752e-07  8.80218636e-08  5.30000000e-01 
 5.40000000e-01  4.58782959e-01  3.36972733e-09  3.35213412e-09  4.58782959e-01  4.58782959e-01  4.58782959e-01  3.33505198e-09  1.58589769e-07  8.80217996e-08  5.40000000e-01 
 5.50000000e-01  4.58782978e-01  3.36972733e-09  3.35213418e-09  4.58782978e-01  4.58782978e-01  4.58782978e-01  3.33505193e-09  1.58589797e-07  8.80217677e-08  5.50000000e-01 
 5.60000000e-01  4.58782940e-01  3.36972733e-09  3.35213412e-09  4.58782940e-01  4.58782940e-01  4.58782940e-01  3.33505193e-09  1.58589756e-07  8.80216753e-08  5.60000000e-01 
 5.70000000e-01  4.58782926e-01  3.36972733e-09  3.35213417e-09  4.58782926e-01  4.58782926e-01  4.58782926e-01  3.33505198e-09  1.58589730e-07  8.80215403e-08  5.70000000e-01 
 5.80000000e-01  4.58782940e-01  3.36972733e-09  3.35213417e-09  4.58782940e-01  4.58782940e-01  4.58782940e-01  3.33505193e-09  1.58589731e-07  8.80215083e-08  5.80000000e-01 
 5.90000000e-01  4.58782951e-01  3.36972733e-09  3.35213418e-09  4.58782951e-01  4.58782951e-01  4.58782951e-01  3.33505193e-09  1.58589748e-07  8.80214088e-08  5.90000000e-01 
 6.00000000e-01  4.58782960e-01  3.36972733e-09  3.35213412e-09  4.58782960e-01  4.58782960e-01  4.58782960e-01  3.33505193e-09  1.58589764e-07  8.80215225e-08  6.00000000e-01 
 6.10000000e-01  4.58782958e-01  3.36972733e-09  3.35213412e-09  4.58782959e-01  4.58782958e-01  4.58782958e-01  3.33505193e-09  1.58589754e-07  8.80213022e-08  6.10000000e-01 
 6.20000000e-01  4.58782938e-01  3.36972733e-09  3.35213417e-09  4.58782938e-01  4.58782938e-01  4.58782938e-01  3.33505193e-09  1.58589734e-07  8.80212099e-08  6.20000000e-01 
 6.30000000e-01  4.58782926e-01  3.36972733e-09  3.35213411e-09  4.58782926e-01  4.58782926e-01  4.58782926e-01  3.33505193e-09  1.58589718e-07  8.80210749e-08  6.30000000e-01 
 6.40000000e-01  4.58782938e-01  3.36972733e-09  3.35213412e-09  4.58782938e-01  4.58782938e-01  4.58782938e-01  3.33505193e-09  1.58589734e-07  8.80211957e-08  6.40000000e-01 
 6.50000000e-01  4.58782937e-01  3.36972728e-09  3.35213417e-09  4.58782937e-01  4.58782937e-01  4.58782937e-01  3.33505193e-09  1.58589730e-07  8.80209612e-08  6.50000000e-01 
 6.60000000e-01  4.58782948e-01  3.36972733e-09  3.35213418e-09  4.58782948e-01  4.58782948e-01  4.58782948e-01  3.33505193e-09  1.58589738e-07  8.80208191e-08  6.60000000e-01 
 6.70000000e-01  4.58782926e-01  3.36972733e-09  3.35213411e-09  4.58782926e-01  4.58782926e-01  4.58782926e-01  3.33505193e-09  1.58589717e-07  8.80208546e-08  6.70000000e-01 
 6.80000000e-01  4.58782934e-01  3.36972733e-09  3.35213412e-09  4.58782934e-01  4.58782934e-01  4.58782934e-01  3.33505193e-09  1.58589732e-07  8.80207836e-08  6.80000000e-01 
 6.90000000e-01  4.58782948e-01  3.36972733e-09  3.35213418e-09  4.58782948e-01  4.58782948e-01  4.58782948e-01  3.33505193e-09  1.58589737e-07  8.80207622e-08  6.90000000e-01 
 7.00000000e-01  4.58782932e-01  3.36972733e-09  3.35213417e-09  4.58782932e-01  4.58782932e-01  4.58782932e-01  3.33505193e-09  1.58589710e-07  8.80206699e-08  7.00000000e-01 
 7.10000000e-01  4.58782923e-01  3.36972733e-09  3.35213417e-09  4.58782923e-01  4.58782923e-01  4.58782923e-01  3.33505193e-09  1.58589704e-07  8.80205846e-08  7.10000000e-01 
 7.20000000e-01  4.58782933e-01  3.36972733e-09  3.35213412e-09  4.58782933e-01  4.58782933e-01  4.58782933e-01  3.33505193e-09  1.58589723e-07  8.80206201e-08  7.20000000e-01 
 7.30000000e-01  4.58782951e-01  3.36972733e-09  3.35213412e-09  4.58782951e-01  4.58782951e-01  4.58782951e-01  3.33505193e-09  1.58589756e-07  8.80204709e-08  7.30000000e-01 
 7.40000000e-01  4.58782944e-01  3.36972733e-09  3.35213417e-09  4.58782944e-01  4.58782944e-01  4.58782944e-01  3.33505193e-09  1.58589741e-07  8.80204425e-08  7.40000000e-01 
 7.50000000e-01  4.58782956e-01  3.36972733e-09  3.35213418e-09  4.58782957e-01  4.58782956e-01  4.58782956e-01  3.33505193e-09  1.58589762e-07  8.80202862e-08  7.50000000e-01 
 7.60000000e-01  4.58782954e-01  3.36972733e-09  3.35213418e-09  4.58782954e-01  4.58782954e-01  4.58782954e-01  3.33505193e-09  1.58589768e-07  8.80203288e-08  7.60000000e-01 
 7.70000000e-01  4.58782956e-01  3.36972733e-09  3.35213418e-09  4.58782956e-01  4.58782956e-01  4.58782956e-01  3.33505193e-09  1.58589774e-07  8.80201725e-08  7.70000000e-01 
 7.80000000e-01  4.58782937e-01  3.36972733e-09  3.35213417e-09  4.58782937e-01  4.58782937e-01  4.58782937e-01  3.33505193e-09  1.58589740e-07  8.80201441e-08  7.80000000e-01 
 7.90000000e-01  4.58782931e-01  3.36972733e-09  3.35213412e-09  4.58782932e-01  4.58782931e-01  4.58782931e-01  3.33505193e-09  1.58589713e-07  8.80199806e-08  7.90000000e-01 
 8.00000000e-01  4.58782951e-01  3.36972733e-09  3.35213412e-09  4.58782951e-01  4.58782951e-01  4.58782951e-01  3.33505193e-09  1.58589754e-07  8.80199877e-08  8.00000000e-01 
 8.10000000e-01  4.58782945e-01  3.36972728e-09  3.35213417e-09  4.58782945e-01  4.58782945e-01  4.58782945e-01  3.33505193e-09  1.58589765e-07  8.80198812e-08  8.10000000e-01 
 8.20000000e-01  4.58782964e-01  3.36972733e-09  3.35213418e-09  4.58782964e-01  4.58782964e-01  4.58782964e-01  3.33505193e-09  1.58589776e-07  8.80198243e-08  8.20000000e-01 
 8.30000000e-01  4.58782948e-01  3.36972733e-09  3.35213412e-09  4.58782948e-01  4.58782948e-01  4.58782948e-01  3.33505193e-09  1.58589749e-07  8.80196964e-08  8.30000000e-01 
 8.40000000e-01  4.58782944e-01  3.36972733e-09  3.35213417e-09  4.58782944e-01  4.58782944e-01  4.58782944e-01  3.33505193e-09  1.58589745e-07  8.80196893e-08  8.40000000e-01 
 8.50000000e-01  4.58782933e-01  3.36972733e-09  3.35213417e-09  4.58782933e-01  4.58782933e-01  4.58782933e-01  3.33505193e-09  1.58589729e-07  8.80195046e-08  8.50000000e-01 
 8.60000000e-01  4.58782957e-01  3.36972733e-09  3.35213418e-09  4.58782957e-01  4.58782957e-01  4.58782956e-01  3.33505193e-09  1.58589744e-07  8.80195685e-08  8.60000000e-01 
 8.70000000e-01  4.58782955e-01  3.36972733e-09  3.35213418e-09  4.58782955e-01  4.58782955e-01  4.58782955e-01  3.33505193e-09  1.58589761e-07  8.80194548e-08  8.70000000e-01 
 8.80000000e-01  4.58782950e-01  3.36972733e-09  3.35213412e-09  4.58782950e-01  4.58782950e-01  4.58782950e-01  3.33505193e-09  1.58589757e-07  8.80192772e-08  8.80000000e-01 
 8.90000000e-01  4.58782923e-01  3.36972733e-09  3.35213417e-09  4.58782923e-01  4.58782923e-01  4.58782923e-01  3.33505193e-09  1.58589710e-07  8.80193838e-08  8.90000000e-01 
 9.00000000e-01  4.58782955e-01  3.36972733e-09  3.35213412e-09  4.58782955e-01  4.58782955e-01  4.58782955e-01  3.33505193e-09  1.58589764e-07  8.80192346e-08  9.00000000e-01 
 9.10000000e-01  4.58782932e-01  3.36972733e-09  3.35213412e-09  4.58782932e-01  4.58782932e-01  4.58782932e-01  3.33505193e-09  1.58589739e-07  8.80190640e-08  9.10000000e-01 
 9.20000000e-01  4.58782947e-01  3.36972733e-09  3.35213418e-09  4.58782947e-01  4.58782947e-01  4.58782947e-01  3.33505198e-09  1.58589744e-07  8.80189930e-08  9.20000000e-01 
 9.30000000e-01  4.58782936e-01  3.36972733e-09  3.35213412e-09  4.58782936e-01  4.58782936e-01  4.58782936e-01  3.33505193e-09  1.58589718e-07  8.80190143e-08  9.30000000e-01 
 9.40000000e-01  4.58782937e-01  3.36972733e-09  3.35213417e-09  4.58782937e-01  4.58782937e-01  4.58782937e-01  3.33505193e-09  1.58589733e-07  8.80189077e-08  9.40000000e-01 
 9.50000000e-01  4.58782928e-01  3.36972733e-09  3.35213417e-09  4.58782928e-01  4.58782928e-01  4.58782928e-01  3.33505193e-09  1.58589726e-07  8.80187443e-08  9.50000000e-01 
 9.60000000e-01  4.58782942e-01  3.36972733e-09  3.35213417e-09  4.58782942e-01  4.58782942e-01  4.58782942e-01  3.33505193e-09  1.58589740e-07  8.80188296e-08  9.60000000e-01 
 9.70000000e-01  4.58782926e-01  3.36972728e-09  3.35213417e-09  4.58782926e-01  4.58782926e-01  4.58782926e-01  3.33505193e-09  1.58589717e-07  8.80187372e-08  9.70000000e-01 
 9.80000000e-01  4.58782945e-01  3.36972733e-09  3.35213417e-09  4.58782945e-01  4.58782945e-01  4.58782945e-01  3.33505193e-09  1.58589734e-07  8.80186803e-08  9.80000000e-01 
 9.90000000e-01  4.58782945e-01  3.36972733e-09  3.35213412e-09  4.58782945e-01  4.58782945e-01  4.58782945e-01  3.33505193e-09  1.58589745e-07  8.80184743e-08  9.90000000e-01 
 1.00000000e+00  4.58782901e-01  3.36972733e-09  3.35213411e-09  4.58782901e-01  4.58782901e-01  4.58782901e-01  3.33505192e-09  1.58589685e-07  8.80183961e-08  1.00000000e+00 
 1.01000000e+00  4.58782916e-01  3.36972733e-09  3.35213417e-09  4.58782916e-01  4.58782916e-01  4.58782916e-01  3.33505193e-09  1.58589704e-07  8.80183677e-08  1.01000000e+00 
 1.02000000e+00  4.58782961e-01  3.36972733e-09  3.35213418e-09  4.58782961e-01  4.58782961e-01  4.58782961e-01  3.33505193e-09  1.58589767e-07  8.80183464e-08  1.02000000e+00 
 1.03000000e+00  4.58782958e-01  3.36972733e-09  3.35213412e-09  4.58782958e-01  4.58782958e-01  4.58782958e-01  3.33505193e-09  1.58589757e-07  8.80181119e-08  1.03000000e+00 
 1.04000000e+00  4.58782941e-01  3.36972733e-09  3.35213417e-09  4.58782941e-01  4.58782941e-01  4.58782941e-01  3.33505198e-09  1.58589739e-07  8.80180693e-08  1.04000000e+00 
 1.05000000e+00  4.58782958e-01  3.36972733e-09  3.35213418e-09  4.58782958e-01  4.58782958e-01  4.58782958e-01  3.33505193e-09  1.58589761e-07  8.80181119e-08  1.05000000e+00 
 1.06000000e+00  4.58782962e-01  3.36972733e-09  3.35213418e-09  4.58782962e-01  4.58782962e-01  4.58782962e-01  3.33505193e-09  1.58589776e-07  8.80180551e-08  1.06000000e+00 
 1.07000000e+00  4.58782947e-01  3.36972733e-09  3.35213418e-09  4.58782947e-01  4.58782947e-01  4.58782947e-01  3.33505193e-09  1.58589749e-07  8.80179130e-08  1.07000000e+00 
 1.08000000e+00  4.58782957e-01  3.36972733e-09  3.35213418e-09  4.58782957e-01  4.58782957e-01  4.58782957e-01  3.33505193e-09  1.58589770e-07  8.80178632e-08  1.08000000e+00 
 1.09000000e+00  4.58782944e-01  3.36972733e-09  3.35213417e-09  4.58782944e-01  4.58782943e-01  4.58782943e-01  3.33505198e-09  1.58589743e-07  8.80177637e-08  1.09000000e+00 
 1.10000000e+00  4.58782960e-01  3.36972733e-09  3.35213412e-09  4.58782960e-01  4.58782960e-01  4.58782960e-01  3.33505193e-09  1.58589765e-07  8.80177069e-08  1.10000000e+00 
