 v-sweep         v(b0)           v(b1)           v(b2)           v(b3)           v(b4)           v(b5)           v(b6)           i(vbias)        i(viout)        v(vout)        
 0.00000000e+00  3.31439696e-09  4.56591522e-01  3.46032591e-09  4.56591522e-01  3.22681513e-09  3.43772830e-09  3.18183043e-09  1.56790550e-07  1.52845178e-08  0.00000000e+00 
 1.00000000e-02  3.31439694e-09  4.56591565e-01  3.46032595e-09  4.56591565e-01  3.22681517e-09  3.43772828e-09  3.18183041e-09  1.56790627e-07  1.52840740e-08  1.00000000e-02 
 2.00000000e-02  3.31439694e-09  4.56591551e-01  3.46032588e-09  4.56591551e-01  3.22681511e-09  3.43772828e-09  3.18183046e-09  1.56790608e-07  1.52836048e-08  2.00000000e-02 
 3.00000000e-02  3.31439694e-09  4.56591567e-01  3.46032590e-09  4.56591567e-01  3.22681517e-09  3.43772828e-09  3.18183046e-09  1.56790639e-07  1.52832291e-08  3.00000000e-02 
 4.00000000e-02  3.31439694e-09  4.56591557e-01  3.46032589e-09  4.56591557e-01  3.22681511e-09  3.43772834e-09  3.18183046e-09  1.56790604e-07  1.52828536e-08  4.00000000e-02 
 5.00000000e-02  3.31439699e-09  4.56591555e-01  3.46032589e-09  4.56591555e-01  3.22681516e-09  3.43772834e-09  3.18183046e-09  1.56790616e-07  1.52827226e-08  5.00000000e-02 
 6.00000000e-02  3.31439694e-09  4.56591572e-01  3.46032589e-09  4.56591572e-01  3.22681517e-09  3.43772834e-09  3.18183041e-09  1.56790631e-07  1.52823718e-08  6.00000000e-02 
 7.00000000e-02  3.31439693e-09  4.56591545e-01  3.46032595e-09  4.56591545e-01  3.22681516e-09  3.43772828e-09  3.18183041e-09  1.56790576e-07  1.52820410e-08  7.00000000e-02 
 8.00000000e-02  3.31439693e-09  4.56591529e-01  3.46032593e-09  4.56591529e-01  3.22681511e-09  3.43772833e-09  3.18183046e-09  1.56790573e-07  1.52817679e-08  8.00000000e-02 
 9.00000000e-02  3.31439699e-09  4.56591551e-01  3.46032588e-09  4.56591550e-01  3.22681511e-09  3.43772833e-09  3.18183046e-09  1.56790596e-07  1.52815565e-08  9.00000000e-02 
 1.00000000e-01  3.31439699e-09  4.56591553e-01  3.46032595e-09  4.56591553e-01  3.22681511e-09  3.43772833e-09  3.18183041e-09  1.56790594e-07  1.52812776e-08  1.00000000e-01 
 1.10000000e-01  3.31439699e-09  4.56591547e-01  3.46032593e-09  4.56591547e-01  3.22681516e-09  3.43772828e-09  3.18183046e-09  1.56790600e-07  1.52811088e-08  1.10000000e-01 
 1.20000000e-01  3.31439693e-09  4.56591545e-01  3.46032588e-09  4.56591545e-01  3.22681516e-09  3.43772833e-09  3.18183046e-09  1.56790597e-07  1.52807988e-08  1.20000000e-01 
 1.30000000e-01  3.31439699e-09  4.56591569e-01  3.46032590e-09  4.56591569e-01  3.22681511e-09  3.43772834e-09  3.18183041e-09  1.56790628e-07  1.52804835e-08  1.30000000e-01 
 1.40000000e-01  3.31439699e-09  4.56591555e-01  3.46032595e-09  4.56591555e-01  3.22681516e-09  3.43772828e-09  3.18183041e-09  1.56790598e-07  1.52803876e-08  1.40000000e-01 
 1.50000000e-01  3.31439694e-09  4.56591551e-01  3.46032594e-09  4.56591551e-01  3.22681511e-09  3.43772833e-09  3.18183041e-09  1.56790596e-07  1.52801594e-08  1.50000000e-01 
 1.60000000e-01  3.31439694e-09  4.56591561e-01  3.46032588e-09  4.56591561e-01  3.22681511e-09  3.43772828e-09  3.18183041e-09  1.56790607e-07  1.52799657e-08  1.60000000e-01 
 1.70000000e-01  3.31439693e-09  4.56591544e-01  3.46032595e-09  4.56591544e-01  3.22681511e-09  3.43772828e-09  3.18183046e-09  1.56790585e-07  1.52796975e-08  1.70000000e-01 
 1.80000000e-01  3.31439694e-09  4.56591563e-01  3.46032588e-09  4.56591563e-01  3.22681517e-09  3.43772834e-09  3.18183041e-09  1.56790607e-07  1.52796087e-08  1.80000000e-01 
 1.90000000e-01  3.31439694e-09  4.56591549e-01  3.46032590e-09  4.56591549e-01  3.22681511e-09  3.43772833e-09  3.18183041e-09  1.56790592e-07  1.52794488e-08  1.90000000e-01 
 2.00000000e-01  3.31439694e-09  4.56591564e-01  3.46032589e-09  4.56591564e-01  3.22681511e-09  3.43772828e-09  3.18183046e-09  1.56790613e-07  1.52793227e-08  2.00000000e-01 
 2.10000000e-01  3.31439694e-09  4.56591556e-01  3.46032595e-09  4.56591556e-01  3.22681511e-09  3.43772828e-09  3.18183041e-09  1.56790598e-07  1.52791930e-08  2.10000000e-01 
 2.20000000e-01  3.31439694e-09  4.56591550e-01  3.46032593e-09  4.56591550e-01  3.22681511e-09  3.43772833e-09  3.18183046e-09  1.56790603e-07  1.52790864e-08  2.20000000e-01 
 2.30000000e-01  3.31439694e-09  4.56591552e-01  3.46032588e-09  4.56591552e-01  3.22681511e-09  3.43772833e-09  3.18183041e-09  1.56790599e-07  1.52788200e-08  2.30000000e-01 
 2.40000000e-01  3.31439694e-09  4.56591562e-01  3.46032590e-09  4.56591562e-01  3.22681517e-09  3.43772828e-09  3.18183046e-09  1.56790616e-07  1.52787702e-08  2.40000000e-01 
 2.50000000e-01  3.31439694e-09  4.56591558e-01  3.46032595e-09  4.56591558e-01  3.22681511e-09  3.43772834e-09  3.18183046e-09  1.56790604e-07  1.52786352e-08  2.50000000e-01 
 2.60000000e-01  3.31439694e-09  4.56591552e-01  3.46032588e-09  4.56591552e-01  3.22681516e-09  3.43772828e-09  3.18183046e-09  1.56790607e-07  1.52785091e-08  2.60000000e-01 
 2.70000000e-01  3.31439694e-09  4.56591559e-01  3.46032590e-09  4.56591559e-01  3.22681516e-09  3.43772828e-09  3.18183041e-09  1.56790606e-07  1.52785464e-08  2.70000000e-01 
 2.80000000e-01  3.31439693e-09  4.56591543e-01  3.46032589e-09  4.56591543e-01  3.22681511e-09  3.43772833e-09  3.18183046e-09  1.56790578e-07  1.52782764e-08  2.80000000e-01 
 2.90000000e-01  3.31439694e-09  4.56591561e-01  3.46032589e-09  4.56591561e-01  3.22681517e-09  3.43772834e-09  3.18183046e-09  1.56790614e-07  1.52782391e-08  2.90000000e-01 
 3.00000000e-01  3.31439694e-09  4.56591547e-01  3.46032595e-09  4.56591547e-01  3.22681511e-09  3.43772833e-09  3.18183046e-09  1.56790591e-07  1.52781041e-08  3.00000000e-01 
 3.10000000e-01  3.31439694e-09  4.56591565e-01  3.46032594e-09  4.56591565e-01  3.22681517e-09  3.43772828e-09  3.18183046e-09  1.56790617e-07  1.52780544e-08  3.10000000e-01 
 3.20000000e-01  3.31439693e-09  4.56591521e-01  3.46032594e-09  4.56591521e-01  3.22681511e-09  3.43772833e-09  3.18183041e-09  1.56790552e-07  1.52778661e-08  3.20000000e-01 
 3.30000000e-01  3.31439693e-09  4.56591537e-01  3.46032588e-09  4.56591537e-01  3.22681511e-09  3.43772833e-09  3.18183046e-09  1.56790585e-07  1.52778235e-08  3.30000000e-01 
 3.40000000e-01  3.31439694e-09  4.56591570e-01  3.46032590e-09  4.56591570e-01  3.22681511e-09  3.43772828e-09  3.18183041e-09  1.56790634e-07  1.52777453e-08  3.40000000e-01 
 3.50000000e-01  3.31439694e-09  4.56591549e-01  3.46032595e-09  4.56591549e-01  3.22681511e-09  3.43772828e-09  3.18183046e-09  1.56790590e-07  1.52776458e-08  3.50000000e-01 
 3.60000000e-01  3.31439694e-09  4.56591572e-01  3.46032594e-09  4.56591572e-01  3.22681517e-09  3.43772834e-09  3.18183046e-09  1.56790643e-07  1.52776352e-08  3.60000000e-01 
 3.70000000e-01  3.31439693e-09  4.56591540e-01  3.46032594e-09  4.56591540e-01  3.22681516e-09  3.43772828e-09  3.18183046e-09  1.56790585e-07  1.52774078e-08  3.70000000e-01 
 3.80000000e-01  3.31439694e-09  4.56591560e-01  3.46032588e-09  4.56591560e-01  3.22681516e-09  3.43772834e-09  3.18183046e-09  1.56790624e-07  1.52773332e-08  3.80000000e-01 
 3.90000000e-01  3.31439693e-09  4.56591542e-01  3.46032590e-09  4.56591542e-01  3.22681511e-09  3.43772833e-09  3.18183046e-09  1.56790576e-07  1.52773865e-08  3.90000000e-01 
 4.00000000e-01  3.31439694e-09  4.56591561e-01  3.46032589e-09  4.56591561e-01  3.22681511e-09  3.43772834e-09  3.18183041e-09  1.56790608e-07  1.52772373e-08  4.00000000e-01 
 4.10000000e-01  3.31439694e-09  4.56591553e-01  3.46032595e-09  4.56591553e-01  3.22681511e-09  3.43772828e-09  3.18183046e-09  1.56790590e-07  1.52771520e-08  4.10000000e-01 
 4.20000000e-01  3.31439694e-09  4.56591562e-01  3.46032594e-09  4.56591562e-01  3.22681517e-09  3.43772828e-09  3.18183046e-09  1.56790618e-07  1.52771840e-08  4.20000000e-01 
 4.30000000e-01  3.31439693e-09  4.56591537e-01  3.46032588e-09  4.56591537e-01  3.22681511e-09  3.43772833e-09  3.18183046e-09  1.56790573e-07  1.52770170e-08  4.30000000e-01 
 4.40000000e-01  3.31439694e-09  4.56591552e-01  3.46032590e-09  4.56591552e-01  3.22681511e-09  3.43772833e-09  3.18183046e-09  1.56790603e-07  1.52769601e-08  4.40000000e-01 
 4.50000000e-01  3.31439694e-09  4.56591549e-01  3.46032589e-09  4.56591549e-01  3.22681516e-09  3.43772833e-09  3.18183041e-09  1.56790595e-07  1.52768536e-08  4.50000000e-01 
 4.60000000e-01  3.31439694e-09  4.56591564e-01  3.46032589e-09  4.56591564e-01  3.22681511e-09  3.43772834e-09  3.18183046e-09  1.56790630e-07  1.52768571e-08  4.60000000e-01 
 4.70000000e-01  3.31439694e-09  4.56591560e-01  3.46032595e-09  4.56591560e-01  3.22681516e-09  3.43772834e-09  3.18183046e-09  1.56790612e-07  1.52769282e-08  4.70000000e-01 
 4.80000000e-01  3.31439694e-09  4.56591559e-01  3.46032594e-09  4.56591559e-01  3.22681516e-09  3.43772834e-09  3.18183046e-09  1.56790610e-07  1.52766653e-08  4.80000000e-01 
 4.90000000e-01  3.31439694e-09  4.56591547e-01  3.46032594e-09  4.56591547e-01  3.22681511e-09  3.43772828e-09  3.18183041e-09  1.56790591e-07  1.52767647e-08  4.90000000e-01 
 5.00000000e-01  3.31439694e-09  4.56591564e-01  3.46032594e-09  4.56591564e-01  3.22681511e-09  3.43772834e-09  3.18183046e-09  1.56790605e-07  1.52767399e-08  5.00000000e-01 
 5.10000000e-01  3.31439693e-09  4.56591523e-01  3.46032588e-09  4.56591523e-01  3.22681511e-09  3.43772833e-09  3.18183046e-09  1.56790558e-07  1.52766013e-08  5.10000000e-01 
 5.20000000e-01  3.31439694e-09  4.56591558e-01  3.46032590e-09  4.56591558e-01  3.22681516e-09  3.43772828e-09  3.18183046e-09  1.56790606e-07  1.52764699e-08  5.20000000e-01 
 5.30000000e-01  3.31439694e-09  4.56591553e-01  3.46032595e-09  4.56591553e-01  3.22681511e-09  3.43772828e-09  3.18183046e-09  1.56790606e-07  1.52765445e-08  5.30000000e-01 
 5.40000000e-01  3.31439694e-09  4.56591549e-01  3.46032588e-09  4.56591549e-01  3.22681516e-09  3.43772828e-09  3.18183046e-09  1.56790590e-07  1.52764805e-08  5.40000000e-01 
 5.50000000e-01  3.31439699e-09  4.56591543e-01  3.46032590e-09  4.56591543e-01  3.22681511e-09  3.43772833e-09  3.18183041e-09  1.56790589e-07  1.52762674e-08  5.50000000e-01 
 5.60000000e-01  3.31439699e-09  4.56591566e-01  3.46032589e-09  4.56591566e-01  3.22681511e-09  3.43772828e-09  3.18183046e-09  1.56790633e-07  1.52763029e-08  5.60000000e-01 
 5.70000000e-01  3.31439694e-09  4.56591550e-01  3.46032595e-09  4.56591550e-01  3.22681516e-09  3.43772833e-09  3.18183046e-09  1.56790595e-07  1.52763064e-08  5.70000000e-01 
 5.80000000e-01  3.31439694e-09  4.56591561e-01  3.46032588e-09  4.56591561e-01  3.22681511e-09  3.43772828e-09  3.18183046e-09  1.56790621e-07  1.52762780e-08  5.80000000e-01 
 5.90000000e-01  3.31439694e-09  4.56591561e-01  3.46032590e-09  4.56591561e-01  3.22681511e-09  3.43772828e-09  3.18183041e-09  1.56790607e-07  1.52762638e-08  5.90000000e-01 
 6.00000000e-01  3.31439693e-09  4.56591535e-01  3.46032589e-09  4.56591535e-01  3.22681511e-09  3.43772828e-09  3.18183041e-09  1.56790569e-07  1.52760506e-08  6.00000000e-01 
 6.10000000e-01  3.31439694e-09  4.56591551e-01  3.46032589e-09  4.56591551e-01  3.22681516e-09  3.43772833e-09  3.18183041e-09  1.56790590e-07  1.52759867e-08  6.10000000e-01 
 6.20000000e-01  3.31439694e-09  4.56591554e-01  3.46032595e-09  4.56591554e-01  3.22681516e-09  3.43772833e-09  3.18183046e-09  1.56790593e-07  1.52759867e-08  6.20000000e-01 
 6.30000000e-01  3.31439699e-09  4.56591540e-01  3.46032593e-09  4.56591540e-01  3.22681511e-09  3.43772833e-09  3.18183046e-09  1.56790583e-07  1.52759583e-08  6.30000000e-01 
 6.40000000e-01  3.31439694e-09  4.56591548e-01  3.46032588e-09  4.56591548e-01  3.22681511e-09  3.43772828e-09  3.18183046e-09  1.56790600e-07  1.52759441e-08  6.40000000e-01 
 6.50000000e-01  3.31439694e-09  4.56591546e-01  3.46032590e-09  4.56591546e-01  3.22681511e-09  3.43772828e-09  3.18183046e-09  1.56790588e-07  1.52758872e-08  6.50000000e-01 
 6.60000000e-01  3.31439694e-09  4.56591558e-01  3.46032595e-09  4.56591558e-01  3.22681516e-09  3.43772828e-09  3.18183046e-09  1.56790611e-07  1.52758659e-08  6.60000000e-01 
 6.70000000e-01  3.31439694e-09  4.56591571e-01  3.46032588e-09  4.56591571e-01  3.22681517e-09  3.43772834e-09  3.18183041e-09  1.56790610e-07  1.52757025e-08  6.70000000e-01 
 6.80000000e-01  3.31439693e-09  4.56591543e-01  3.46032590e-09  4.56591543e-01  3.22681511e-09  3.43772833e-09  3.18183046e-09  1.56790591e-07  1.52757664e-08  6.80000000e-01 
 6.90000000e-01  3.31439694e-09  4.56591556e-01  3.46032589e-09  4.56591556e-01  3.22681516e-09  3.43772834e-09  3.18183041e-09  1.56790616e-07  1.52755604e-08  6.90000000e-01 
 7.00000000e-01  3.31439694e-09  4.56591556e-01  3.46032589e-09  4.56591556e-01  3.22681516e-09  3.43772828e-09  3.18183046e-09  1.56790606e-07  1.52755177e-08  7.00000000e-01 
 7.10000000e-01  3.31439694e-09  4.56591561e-01  3.46032595e-09  4.56591561e-01  3.22681511e-09  3.43772828e-09  3.18183041e-09  1.56790615e-07  1.52756101e-08  7.10000000e-01 
 7.20000000e-01  3.31439694e-09  4.56591560e-01  3.46032588e-09  4.56591560e-01  3.22681511e-09  3.43772834e-09  3.18183046e-09  1.56790607e-07  1.52754041e-08  7.20000000e-01 
 7.30000000e-01  3.31439694e-09  4.56591558e-01  3.46032590e-09  4.56591558e-01  3.22681516e-09  3.43772834e-09  3.18183046e-09  1.56790620e-07  1.52754680e-08  7.30000000e-01 
 7.40000000e-01  3.31439694e-09  4.56591556e-01  3.46032589e-09  4.56591556e-01  3.22681511e-09  3.43772828e-09  3.18183041e-09  1.56790613e-07  1.52753898e-08  7.40000000e-01 
 7.50000000e-01  3.31439694e-09  4.56591548e-01  3.46032589e-09  4.56591548e-01  3.22681511e-09  3.43772833e-09  3.18183041e-09  1.56790594e-07  1.52753685e-08  7.50000000e-01 
 7.60000000e-01  3.31439693e-09  4.56591545e-01  3.46032589e-09  4.56591545e-01  3.22681511e-09  3.43772828e-09  3.18183041e-09  1.56790598e-07  1.52752548e-08  7.60000000e-01 
 7.70000000e-01  3.31439694e-09  4.56591571e-01  3.46032589e-09  4.56591571e-01  3.22681517e-09  3.43772834e-09  3.18183046e-09  1.56790634e-07  1.52753685e-08  7.70000000e-01 
 7.80000000e-01  3.31439694e-09  4.56591550e-01  3.46032595e-09  4.56591550e-01  3.22681511e-09  3.43772828e-09  3.18183046e-09  1.56790606e-07  1.52751483e-08  7.80000000e-01 
 7.90000000e-01  3.31439694e-09  4.56591550e-01  3.46032588e-09  4.56591550e-01  3.22681516e-09  3.43772833e-09  3.18183041e-09  1.56790615e-07  1.52751198e-08  7.90000000e-01 
 8.00000000e-01  3.31439694e-09  4.56591565e-01  3.46032590e-09  4.56591565e-01  3.22681511e-09  3.43772828e-09  3.18183046e-09  1.56790623e-07  1.52751269e-08  8.00000000e-01 
 8.10000000e-01  3.31439693e-09  4.56591542e-01  3.46032589e-09  4.56591542e-01  3.22681511e-09  3.43772828e-09  3.18183041e-09  1.56790574e-07  1.52749919e-08  8.10000000e-01 
 8.20000000e-01  3.31439694e-09  4.56591551e-01  3.46032589e-09  4.56591551e-01  3.22681511e-09  3.43772833e-09  3.18183046e-09  1.56790617e-07  1.52750630e-08  8.20000000e-01 
 8.30000000e-01  3.31439699e-09  4.56591531e-01  3.46032595e-09  4.56591531e-01  3.22681511e-09  3.43772833e-09  3.18183046e-09  1.56790557e-07  1.52749067e-08  8.30000000e-01 
 8.40000000e-01  3.31439699e-09  4.56591547e-01  3.46032588e-09  4.56591547e-01  3.22681511e-09  3.43772828e-09  3.18183041e-09  1.56790589e-07  1.52749777e-08  8.40000000e-01 
 8.50000000e-01  3.31439694e-09  4.56591559e-01  3.46032590e-09  4.56591559e-01  3.22681516e-09  3.43772828e-09  3.18183041e-09  1.56790614e-07  1.52747930e-08  8.50000000e-01 
 8.60000000e-01  3.31439694e-09  4.56591550e-01  3.46032595e-09  4.56591550e-01  3.22681511e-09  3.43772828e-09  3.18183041e-09  1.56790591e-07  1.52747788e-08  8.60000000e-01 
 8.70000000e-01  3.31439694e-09  4.56591549e-01  3.46032593e-09  4.56591549e-01  3.22681516e-09  3.43772833e-09  3.18183046e-09  1.56790587e-07  1.52747930e-08  8.70000000e-01 
 8.80000000e-01  3.31439694e-09  4.56591548e-01  3.46032588e-09  4.56591548e-01  3.22681511e-09  3.43772828e-09  3.18183046e-09  1.56790596e-07  1.52745869e-08  8.80000000e-01 
 8.90000000e-01  3.31439694e-09  4.56591555e-01  3.46032595e-09  4.56591555e-01  3.22681511e-09  3.43772828e-09  3.18183046e-09  1.56790600e-07  1.52745869e-08  8.90000000e-01 
 9.00000000e-01  3.31439699e-09  4.56591547e-01  3.46032588e-09  4.56591547e-01  3.22681516e-09  3.43772833e-09  3.18183046e-09  1.56790596e-07  1.52746367e-08  9.00000000e-01 
 9.10000000e-01  3.31439694e-09  4.56591548e-01  3.46032590e-09  4.56591548e-01  3.22681511e-09  3.43772833e-09  3.18183046e-09  1.56790590e-07  1.52746296e-08  9.10000000e-01 
 9.20000000e-01  3.31439693e-09  4.56591543e-01  3.46032589e-09  4.56591543e-01  3.22681516e-09  3.43772828e-09  3.18183046e-09  1.56790598e-07  1.52745869e-08  9.20000000e-01 
 9.30000000e-01  3.31439694e-09  4.56591571e-01  3.46032595e-09  4.56591570e-01  3.22681511e-09  3.43772834e-09  3.18183046e-09  1.56790632e-07  1.52745869e-08  9.30000000e-01 
 9.40000000e-01  3.31439694e-09  4.56591552e-01  3.46032594e-09  4.56591552e-01  3.22681511e-09  3.43772828e-09  3.18183041e-09  1.56790595e-07  1.52744732e-08  9.40000000e-01 
 9.50000000e-01  3.31439694e-09  4.56591567e-01  3.46032594e-09  4.56591567e-01  3.22681517e-09  3.43772834e-09  3.18183046e-09  1.56790626e-07  1.52743169e-08  9.50000000e-01 
 9.60000000e-01  3.31439694e-09  4.56591551e-01  3.46032588e-09  4.56591551e-01  3.22681511e-09  3.43772833e-09  3.18183046e-09  1.56790597e-07  1.52742317e-08  9.60000000e-01 
 9.70000000e-01  3.31439694e-09  4.56591575e-01  3.46032590e-09  4.56591575e-01  3.22681511e-09  3.43772828e-09  3.18183046e-09  1.56790645e-07  1.52742601e-08  9.70000000e-01 
 9.80000000e-01  3.31439694e-09  4.56591558e-01  3.46032589e-09  4.56591558e-01  3.22681511e-09  3.43772834e-09  3.18183046e-09  1.56790610e-07  1.52742032e-08  9.80000000e-01 
 9.90000000e-01  3.31439694e-09  4.56591573e-01  3.46032589e-09  4.56591573e-01  3.22681511e-09  3.43772828e-09  3.18183046e-09  1.56790633e-07  1.52741819e-08  9.90000000e-01 
 1.00000000e+00  3.31439699e-09  4.56591538e-01  3.46032589e-09  4.56591538e-01  3.22681516e-09  3.43772833e-09  3.18183046e-09  1.56790560e-07  1.52740753e-08  1.00000000e+00 
 1.01000000e+00  3.31439694e-09  4.56591574e-01  3.46032589e-09  4.56591574e-01  3.22681511e-09  3.43772834e-09  3.18183046e-09  1.56790627e-07  1.52741038e-08  1.01000000e+00 
 1.02000000e+00  3.31439694e-09  4.56591568e-01  3.46032589e-09  4.56591568e-01  3.22681517e-09  3.43772828e-09  3.18183041e-09  1.56790630e-07  1.52740327e-08  1.02000000e+00 
 1.03000000e+00  3.31439694e-09  4.56591564e-01  3.46032589e-09  4.56591564e-01  3.22681511e-09  3.43772834e-09  3.18183041e-09  1.56790615e-07  1.52739617e-08  1.03000000e+00 
 1.04000000e+00  3.31439694e-09  4.56591548e-01  3.46032595e-09  4.56591548e-01  3.22681511e-09  3.43772833e-09  3.18183046e-09  1.56790575e-07  1.52738266e-08  1.04000000e+00 
 1.05000000e+00  3.31439699e-09  4.56591543e-01  3.46032593e-09  4.56591543e-01  3.22681516e-09  3.43772833e-09  3.18183046e-09  1.56790581e-07  1.52737627e-08  1.05000000e+00 
 1.06000000e+00  3.31439694e-09  4.56591563e-01  3.46032589e-09  4.56591563e-01  3.22681517e-09  3.43772834e-09  3.18183041e-09  1.56790625e-07  1.52737911e-08  1.06000000e+00 
 1.07000000e+00  3.31439694e-09  4.56591554e-01  3.46032590e-09  4.56591554e-01  3.22681516e-09  3.43772833e-09  3.18183046e-09  1.56790610e-07  1.52736774e-08  1.07000000e+00 
 1.08000000e+00  3.31439694e-09  4.56591554e-01  3.46032595e-09  4.56591554e-01  3.22681516e-09  3.43772833e-09  3.18183046e-09  1.56790606e-07  1.52736632e-08  1.08000000e+00 
 1.09000000e+00  3.31439693e-09  4.56591533e-01  3.46032593e-09  4.56591533e-01  3.22681511e-09  3.43772828e-09  3.18183046e-09  1.56790570e-07  1.52736206e-08  1.09000000e+00 
 1.10000000e+00  3.31439694e-09  4.56591546e-01  3.46032588e-09  4.56591546e-01  3.22681511e-09  3.43772828e-09  3.18183046e-09  1.56790592e-07  1.52735282e-08  1.10000000e+00 
