 v-sweep         v(b0)           v(b1)           v(b2)           v(b3)           v(b4)           v(b5)           v(b6)           i(vbias)        i(viout)        v(vout)        
 0.00000000e+00  3.41957025e-09  4.56987448e-01  4.56987448e-01  3.20888789e-09  3.43107541e-09  4.56987448e-01  3.43736648e-09  1.55863453e-07  5.38875168e-08  0.00000000e+00 
 1.00000000e-02  3.41957022e-09  4.56987428e-01  4.56987428e-01  3.20888792e-09  3.43107539e-09  4.56987428e-01  3.43736645e-09  1.55863426e-07  5.38869493e-08  1.00000000e-02 
 2.00000000e-02  3.41957023e-09  4.56987444e-01  4.56987444e-01  3.20888793e-09  3.43107539e-09  4.56987444e-01  3.43736652e-09  1.55863442e-07  5.38867040e-08  2.00000000e-02 
 3.00000000e-02  3.41957022e-09  4.56987428e-01  4.56987428e-01  3.20888792e-09  3.43107545e-09  4.56987428e-01  3.43736650e-09  1.55863422e-07  5.38863418e-08  3.00000000e-02 
 4.00000000e-02  3.41957022e-09  4.56987424e-01  4.56987424e-01  3.20888787e-09  3.43107539e-09  4.56987424e-01  3.43736651e-09  1.55863419e-07  5.38858145e-08  4.00000000e-02 
 5.00000000e-02  3.41957022e-09  4.56987469e-01  4.56987469e-01  3.20888787e-09  3.43107545e-09  4.56987469e-01  3.43736651e-09  1.55863474e-07  5.38855631e-08  5.00000000e-02 
 6.00000000e-02  3.41957022e-09  4.56987465e-01  4.56987465e-01  3.20888787e-09  3.43107539e-09  4.56987465e-01  3.43736645e-09  1.55863465e-07  5.38853913e-08  6.00000000e-02 
 7.00000000e-02  3.41957022e-09  4.56987454e-01  4.56987454e-01  3.20888787e-09  3.43107539e-09  4.56987454e-01  3.43736652e-09  1.55863452e-07  5.38850107e-08  7.00000000e-02 
 8.00000000e-02  3.41957022e-09  4.56987429e-01  4.56987429e-01  3.20888792e-09  3.43107545e-09  4.56987429e-01  3.43736650e-09  1.55863428e-07  5.38847020e-08  8.00000000e-02 
 9.00000000e-02  3.41957022e-09  4.56987424e-01  4.56987424e-01  3.20888792e-09  3.43107545e-09  4.56987424e-01  3.43736651e-09  1.55863409e-07  5.38844436e-08  9.00000000e-02 
 1.00000000e-01  3.41957022e-09  4.56987465e-01  4.56987465e-01  3.20888787e-09  3.43107539e-09  4.56987465e-01  3.43736651e-09  1.55863471e-07  5.38841718e-08  1.00000000e-01 
 1.10000000e-01  3.41957022e-09  4.56987460e-01  4.56987460e-01  3.20888787e-09  3.43107545e-09  4.56987460e-01  3.43736645e-09  1.55863461e-07  5.38837996e-08  1.10000000e-01 
 1.20000000e-01  3.41957022e-09  4.56987442e-01  4.56987442e-01  3.20888793e-09  3.43107539e-09  4.56987442e-01  3.43736652e-09  1.55863444e-07  5.38836469e-08  1.20000000e-01 
 1.30000000e-01  3.41957022e-09  4.56987440e-01  4.56987440e-01  3.20888793e-09  3.43107539e-09  4.56987440e-01  3.43736650e-09  1.55863445e-07  5.38834852e-08  1.30000000e-01 
 1.40000000e-01  3.41957022e-09  4.56987470e-01  4.56987470e-01  3.20888787e-09  3.43107545e-09  4.56987470e-01  3.43736645e-09  1.55863467e-07  5.38832037e-08  1.40000000e-01 
 1.50000000e-01  3.41957022e-09  4.56987448e-01  4.56987448e-01  3.20888793e-09  3.43107545e-09  4.56987448e-01  3.43736647e-09  1.55863439e-07  5.38830331e-08  1.50000000e-01 
 1.60000000e-01  3.41957022e-09  4.56987451e-01  4.56987451e-01  3.20888787e-09  3.43107545e-09  4.56987451e-01  3.43736650e-09  1.55863448e-07  5.38829426e-08  1.60000000e-01 
 1.70000000e-01  3.41957022e-09  4.56987448e-01  4.56987448e-01  3.20888793e-09  3.43107545e-09  4.56987448e-01  3.43736645e-09  1.55863449e-07  5.38825802e-08  1.70000000e-01 
 1.80000000e-01  3.41957022e-09  4.56987456e-01  4.56987456e-01  3.20888787e-09  3.43107545e-09  4.56987456e-01  3.43736652e-09  1.55863460e-07  5.38824221e-08  1.80000000e-01 
 1.90000000e-01  3.41957022e-09  4.56987410e-01  4.56987410e-01  3.20888786e-09  3.43107544e-09  4.56987410e-01  3.43736644e-09  1.55863390e-07  5.38821574e-08  1.90000000e-01 
 2.00000000e-01  3.41957022e-09  4.56987466e-01  4.56987466e-01  3.20888787e-09  3.43107545e-09  4.56987465e-01  3.43736647e-09  1.55863461e-07  5.38821503e-08  2.00000000e-01 
 2.10000000e-01  3.41957022e-09  4.56987434e-01  4.56987434e-01  3.20888787e-09  3.43107539e-09  4.56987434e-01  3.43736650e-09  1.55863421e-07  5.38820171e-08  2.10000000e-01 
 2.20000000e-01  3.41957022e-09  4.56987453e-01  4.56987453e-01  3.20888793e-09  3.43107545e-09  4.56987453e-01  3.43736651e-09  1.55863456e-07  5.38818075e-08  2.20000000e-01 
 2.30000000e-01  3.41957022e-09  4.56987458e-01  4.56987458e-01  3.20888787e-09  3.43107545e-09  4.56987458e-01  3.43736651e-09  1.55863444e-07  5.38817631e-08  2.30000000e-01 
 2.40000000e-01  3.41957022e-09  4.56987409e-01  4.56987409e-01  3.20888792e-09  3.43107544e-09  4.56987409e-01  3.43736651e-09  1.55863393e-07  5.38815872e-08  2.40000000e-01 
 2.50000000e-01  3.41957022e-09  4.56987453e-01  4.56987453e-01  3.20888793e-09  3.43107545e-09  4.56987453e-01  3.43736645e-09  1.55863461e-07  5.38814806e-08  2.50000000e-01 
 2.60000000e-01  3.41957022e-09  4.56987414e-01  4.56987414e-01  3.20888786e-09  3.43107539e-09  4.56987414e-01  3.43736646e-09  1.55863396e-07  5.38813296e-08  2.60000000e-01 
 2.70000000e-01  3.41957022e-09  4.56987431e-01  4.56987431e-01  3.20888792e-09  3.43107545e-09  4.56987430e-01  3.43736646e-09  1.55863423e-07  5.38812479e-08  2.70000000e-01 
 2.80000000e-01  3.41957022e-09  4.56987469e-01  4.56987469e-01  3.20888787e-09  3.43107545e-09  4.56987469e-01  3.43736646e-09  1.55863486e-07  5.38811378e-08  2.80000000e-01 
 2.90000000e-01  3.41957022e-09  4.56987448e-01  4.56987448e-01  3.20888793e-09  3.43107545e-09  4.56987448e-01  3.43736646e-09  1.55863452e-07  5.38809246e-08  2.90000000e-01 
 3.00000000e-01  3.41957022e-09  4.56987432e-01  4.56987432e-01  3.20888787e-09  3.43107545e-09  4.56987432e-01  3.43736652e-09  1.55863431e-07  5.38807718e-08  3.00000000e-01 
 3.10000000e-01  3.41957022e-09  4.56987421e-01  4.56987421e-01  3.20888792e-09  3.43107545e-09  4.56987421e-01  3.43736645e-09  1.55863408e-07  5.38806866e-08  3.10000000e-01 
 3.20000000e-01  3.41957022e-09  4.56987454e-01  4.56987454e-01  3.20888787e-09  3.43107545e-09  4.56987454e-01  3.43736647e-09  1.55863451e-07  5.38807470e-08  3.20000000e-01 
 3.30000000e-01  3.41957022e-09  4.56987441e-01  4.56987441e-01  3.20888793e-09  3.43107545e-09  4.56987441e-01  3.43736650e-09  1.55863425e-07  5.38805764e-08  3.30000000e-01 
 3.40000000e-01  3.41957022e-09  4.56987442e-01  4.56987442e-01  3.20888793e-09  3.43107545e-09  4.56987442e-01  3.43736651e-09  1.55863440e-07  5.38803739e-08  3.40000000e-01 
 3.50000000e-01  3.41957022e-09  4.56987433e-01  4.56987433e-01  3.20888792e-09  3.43107545e-09  4.56987433e-01  3.43736651e-09  1.55863429e-07  5.38803455e-08  3.50000000e-01 
 3.60000000e-01  3.41957022e-09  4.56987450e-01  4.56987450e-01  3.20888787e-09  3.43107545e-09  4.56987450e-01  3.43736651e-09  1.55863450e-07  5.38802958e-08  3.60000000e-01 
 3.70000000e-01  3.41957022e-09  4.56987432e-01  4.56987432e-01  3.20888787e-09  3.43107545e-09  4.56987432e-01  3.43736651e-09  1.55863410e-07  5.38802318e-08  3.70000000e-01 
 3.80000000e-01  3.41957022e-09  4.56987471e-01  4.56987471e-01  3.20888787e-09  3.43107545e-09  4.56987471e-01  3.43736651e-09  1.55863476e-07  5.38801359e-08  3.80000000e-01 
 3.90000000e-01  3.41957022e-09  4.56987447e-01  4.56987447e-01  3.20888787e-09  3.43107545e-09  4.56987447e-01  3.43736651e-09  1.55863447e-07  5.38801075e-08  3.90000000e-01 
 4.00000000e-01  3.41957022e-09  4.56987452e-01  4.56987452e-01  3.20888793e-09  3.43107539e-09  4.56987452e-01  3.43736651e-09  1.55863458e-07  5.38799547e-08  4.00000000e-01 
 4.10000000e-01  3.41957022e-09  4.56987425e-01  4.56987426e-01  3.20888787e-09  3.43107539e-09  4.56987425e-01  3.43736651e-09  1.55863422e-07  5.38797842e-08  4.10000000e-01 
 4.20000000e-01  3.41957022e-09  4.56987422e-01  4.56987422e-01  3.20888792e-09  3.43107545e-09  4.56987422e-01  3.43736651e-09  1.55863406e-07  5.38798410e-08  4.20000000e-01 
 4.30000000e-01  3.41957022e-09  4.56987458e-01  4.56987458e-01  3.20888787e-09  3.43107545e-09  4.56987458e-01  3.43736651e-09  1.55863461e-07  5.38797273e-08  4.30000000e-01 
 4.40000000e-01  3.41957022e-09  4.56987461e-01  4.56987461e-01  3.20888787e-09  3.43107545e-09  4.56987461e-01  3.43736651e-09  1.55863457e-07  5.38796741e-08  4.40000000e-01 
 4.50000000e-01  3.41957022e-09  4.56987454e-01  4.56987454e-01  3.20888793e-09  3.43107545e-09  4.56987454e-01  3.43736651e-09  1.55863448e-07  5.38796705e-08  4.50000000e-01 
 4.60000000e-01  3.41957022e-09  4.56987429e-01  4.56987429e-01  3.20888792e-09  3.43107539e-09  4.56987429e-01  3.43736651e-09  1.55863421e-07  5.38796101e-08  4.60000000e-01 
 4.70000000e-01  3.41957022e-09  4.56987420e-01  4.56987420e-01  3.20888787e-09  3.43107539e-09  4.56987420e-01  3.43736651e-09  1.55863413e-07  5.38795284e-08  4.70000000e-01 
 4.80000000e-01  3.41957022e-09  4.56987475e-01  4.56987475e-01  3.20888793e-09  3.43107545e-09  4.56987475e-01  3.43736651e-09  1.55863486e-07  5.38794467e-08  4.80000000e-01 
 4.90000000e-01  3.41957022e-09  4.56987452e-01  4.56987452e-01  3.20888787e-09  3.43107539e-09  4.56987452e-01  3.43736651e-09  1.55863448e-07  5.38793188e-08  4.90000000e-01 
 5.00000000e-01  3.41957022e-09  4.56987453e-01  4.56987453e-01  3.20888793e-09  3.43107539e-09  4.56987453e-01  3.43736651e-09  1.55863471e-07  5.38792797e-08  5.00000000e-01 
 5.10000000e-01  3.41957022e-09  4.56987432e-01  4.56987432e-01  3.20888792e-09  3.43107545e-09  4.56987432e-01  3.43736645e-09  1.55863417e-07  5.38791092e-08  5.10000000e-01 
 5.20000000e-01  3.41957022e-09  4.56987453e-01  4.56987453e-01  3.20888793e-09  3.43107545e-09  4.56987453e-01  3.43736647e-09  1.55863450e-07  5.38790950e-08  5.20000000e-01 
 5.30000000e-01  3.41957022e-09  4.56987442e-01  4.56987442e-01  3.20888793e-09  3.43107545e-09  4.56987442e-01  3.43736650e-09  1.55863436e-07  5.38790381e-08  5.30000000e-01 
 5.40000000e-01  3.41957022e-09  4.56987439e-01  4.56987439e-01  3.20888793e-09  3.43107545e-09  4.56987439e-01  3.43736651e-09  1.55863429e-07  5.38790701e-08  5.40000000e-01 
 5.50000000e-01  3.41957022e-09  4.56987447e-01  4.56987447e-01  3.20888793e-09  3.43107545e-09  4.56987447e-01  3.43736651e-09  1.55863436e-07  5.38788107e-08  5.50000000e-01 
 5.60000000e-01  3.41957022e-09  4.56987445e-01  4.56987445e-01  3.20888787e-09  3.43107539e-09  4.56987445e-01  3.43736645e-09  1.55863444e-07  5.38788605e-08  5.60000000e-01 
 5.70000000e-01  3.41957022e-09  4.56987445e-01  4.56987445e-01  3.20888787e-09  3.43107545e-09  4.56987445e-01  3.43736646e-09  1.55863440e-07  5.38788179e-08  5.70000000e-01 
 5.80000000e-01  3.41957022e-09  4.56987442e-01  4.56987442e-01  3.20888787e-09  3.43107545e-09  4.56987442e-01  3.43736650e-09  1.55863434e-07  5.38787575e-08  5.80000000e-01 
 5.90000000e-01  3.41957022e-09  4.56987442e-01  4.56987442e-01  3.20888793e-09  3.43107545e-09  4.56987442e-01  3.43736651e-09  1.55863442e-07  5.38786367e-08  5.90000000e-01 
 6.00000000e-01  3.41957022e-09  4.56987468e-01  4.56987468e-01  3.20888787e-09  3.43107539e-09  4.56987468e-01  3.43736651e-09  1.55863477e-07  5.38786296e-08  6.00000000e-01 
 6.10000000e-01  3.41957022e-09  4.56987444e-01  4.56987444e-01  3.20888793e-09  3.43107539e-09  4.56987444e-01  3.43736651e-09  1.55863432e-07  5.38785869e-08  6.10000000e-01 
 6.20000000e-01  3.41957022e-09  4.56987455e-01  4.56987455e-01  3.20888793e-09  3.43107545e-09  4.56987455e-01  3.43736651e-09  1.55863444e-07  5.38785656e-08  6.20000000e-01 
 6.30000000e-01  3.41957022e-09  4.56987452e-01  4.56987453e-01  3.20888793e-09  3.43107539e-09  4.56987452e-01  3.43736651e-09  1.55863434e-07  5.38785727e-08  6.30000000e-01 
 6.40000000e-01  3.41957022e-09  4.56987455e-01  4.56987455e-01  3.20888793e-09  3.43107545e-09  4.56987455e-01  3.43736651e-09  1.55863460e-07  5.38783880e-08  6.40000000e-01 
 6.50000000e-01  3.41957022e-09  4.56987447e-01  4.56987447e-01  3.20888787e-09  3.43107539e-09  4.56987447e-01  3.43736645e-09  1.55863439e-07  5.38784093e-08  6.50000000e-01 
 6.60000000e-01  3.41957022e-09  4.56987453e-01  4.56987453e-01  3.20888787e-09  3.43107545e-09  4.56987453e-01  3.43736652e-09  1.55863464e-07  5.38783524e-08  6.60000000e-01 
 6.70000000e-01  3.41957022e-09  4.56987443e-01  4.56987443e-01  3.20888793e-09  3.43107539e-09  4.56987443e-01  3.43736645e-09  1.55863428e-07  5.38781748e-08  6.70000000e-01 
 6.80000000e-01  3.41957022e-09  4.56987436e-01  4.56987436e-01  3.20888787e-09  3.43107545e-09  4.56987436e-01  3.43736646e-09  1.55863439e-07  5.38782672e-08  6.80000000e-01 
 6.90000000e-01  3.41957022e-09  4.56987461e-01  4.56987461e-01  3.20888793e-09  3.43107545e-09  4.56987461e-01  3.43736650e-09  1.55863473e-07  5.38780824e-08  6.90000000e-01 
 7.00000000e-01  3.41957022e-09  4.56987440e-01  4.56987440e-01  3.20888793e-09  3.43107539e-09  4.56987440e-01  3.43736651e-09  1.55863420e-07  5.38780256e-08  7.00000000e-01 
 7.10000000e-01  3.41957022e-09  4.56987458e-01  4.56987458e-01  3.20888793e-09  3.43107539e-09  4.56987458e-01  3.43736651e-09  1.55863457e-07  5.38779688e-08  7.10000000e-01 
 7.20000000e-01  3.41957022e-09  4.56987431e-01  4.56987431e-01  3.20888787e-09  3.43107545e-09  4.56987431e-01  3.43736651e-09  1.55863410e-07  5.38779545e-08  7.20000000e-01 
 7.30000000e-01  3.41957022e-09  4.56987459e-01  4.56987459e-01  3.20888793e-09  3.43107539e-09  4.56987459e-01  3.43736651e-09  1.55863451e-07  5.38778835e-08  7.30000000e-01 
 7.40000000e-01  3.41957022e-09  4.56987447e-01  4.56987447e-01  3.20888787e-09  3.43107539e-09  4.56987447e-01  3.43736651e-09  1.55863430e-07  5.38777769e-08  7.40000000e-01 
 7.50000000e-01  3.41957022e-09  4.56987440e-01  4.56987440e-01  3.20888793e-09  3.43107545e-09  4.56987440e-01  3.43736651e-09  1.55863438e-07  5.38777343e-08  7.50000000e-01 
 7.60000000e-01  3.41957022e-09  4.56987429e-01  4.56987429e-01  3.20888787e-09  3.43107545e-09  4.56987429e-01  3.43736651e-09  1.55863419e-07  5.38777059e-08  7.60000000e-01 
 7.70000000e-01  3.41957022e-09  4.56987424e-01  4.56987424e-01  3.20888787e-09  3.43107545e-09  4.56987424e-01  3.43736651e-09  1.55863412e-07  5.38775993e-08  7.70000000e-01 
 7.80000000e-01  3.41957022e-09  4.56987447e-01  4.56987447e-01  3.20888787e-09  3.43107545e-09  4.56987447e-01  3.43736651e-09  1.55863452e-07  5.38774927e-08  7.80000000e-01 
 7.90000000e-01  3.41957022e-09  4.56987452e-01  4.56987452e-01  3.20888787e-09  3.43107545e-09  4.56987452e-01  3.43736651e-09  1.55863434e-07  5.38774287e-08  7.90000000e-01 
 8.00000000e-01  3.41957022e-09  4.56987431e-01  4.56987431e-01  3.20888792e-09  3.43107545e-09  4.56987431e-01  3.43736645e-09  1.55863404e-07  5.38774358e-08  8.00000000e-01 
 8.10000000e-01  3.41957022e-09  4.56987463e-01  4.56987463e-01  3.20888787e-09  3.43107545e-09  4.56987463e-01  3.43736647e-09  1.55863474e-07  5.38774430e-08  8.10000000e-01 
 8.20000000e-01  3.41957022e-09  4.56987438e-01  4.56987438e-01  3.20888792e-09  3.43107545e-09  4.56987438e-01  3.43736650e-09  1.55863435e-07  5.38772795e-08  8.20000000e-01 
 8.30000000e-01  3.41957022e-09  4.56987471e-01  4.56987471e-01  3.20888793e-09  3.43107539e-09  4.56987470e-01  3.43736651e-09  1.55863473e-07  5.38772227e-08  8.30000000e-01 
 8.40000000e-01  3.41957022e-09  4.56987446e-01  4.56987446e-01  3.20888793e-09  3.43107545e-09  4.56987445e-01  3.43736645e-09  1.55863432e-07  5.38773151e-08  8.40000000e-01 
 8.50000000e-01  3.41957022e-09  4.56987458e-01  4.56987458e-01  3.20888787e-09  3.43107539e-09  4.56987458e-01  3.43736647e-09  1.55863459e-07  5.38770735e-08  8.50000000e-01 
 8.60000000e-01  3.41957022e-09  4.56987450e-01  4.56987450e-01  3.20888787e-09  3.43107545e-09  4.56987450e-01  3.43736650e-09  1.55863444e-07  5.38770379e-08  8.60000000e-01 
 8.70000000e-01  3.41957022e-09  4.56987428e-01  4.56987428e-01  3.20888792e-09  3.43107539e-09  4.56987428e-01  3.43736645e-09  1.55863423e-07  5.38769243e-08  8.70000000e-01 
 8.80000000e-01  3.41957022e-09  4.56987453e-01  4.56987453e-01  3.20888793e-09  3.43107545e-09  4.56987453e-01  3.43736652e-09  1.55863462e-07  5.38770237e-08  8.80000000e-01 
 8.90000000e-01  3.41957022e-09  4.56987445e-01  4.56987445e-01  3.20888793e-09  3.43107545e-09  4.56987445e-01  3.43736650e-09  1.55863445e-07  5.38769385e-08  8.90000000e-01 
 9.00000000e-01  3.41957022e-09  4.56987443e-01  4.56987443e-01  3.20888793e-09  3.43107545e-09  4.56987443e-01  3.43736651e-09  1.55863449e-07  5.38767253e-08  9.00000000e-01 
 9.10000000e-01  3.41957022e-09  4.56987441e-01  4.56987441e-01  3.20888793e-09  3.43107539e-09  4.56987441e-01  3.43736651e-09  1.55863437e-07  5.38767750e-08  9.10000000e-01 
 9.20000000e-01  3.41957022e-09  4.56987443e-01  4.56987443e-01  3.20888787e-09  3.43107539e-09  4.56987443e-01  3.43736645e-09  1.55863436e-07  5.38768177e-08  9.20000000e-01 
 9.30000000e-01  3.41957022e-09  4.56987441e-01  4.56987441e-01  3.20888793e-09  3.43107539e-09  4.56987441e-01  3.43736652e-09  1.55863431e-07  5.38766685e-08  9.30000000e-01 
 9.40000000e-01  3.41957022e-09  4.56987454e-01  4.56987454e-01  3.20888787e-09  3.43107545e-09  4.56987454e-01  3.43736650e-09  1.55863452e-07  5.38765832e-08  9.40000000e-01 
 9.50000000e-01  3.41957022e-09  4.56987421e-01  4.56987421e-01  3.20888792e-09  3.43107545e-09  4.56987421e-01  3.43736651e-09  1.55863398e-07  5.38764979e-08  9.50000000e-01 
 9.60000000e-01  3.41957022e-09  4.56987439e-01  4.56987439e-01  3.20888787e-09  3.43107545e-09  4.56987438e-01  3.43736651e-09  1.55863433e-07  5.38763913e-08  9.60000000e-01 
 9.70000000e-01  3.41957022e-09  4.56987459e-01  4.56987459e-01  3.20888793e-09  3.43107545e-09  4.56987459e-01  3.43736651e-09  1.55863471e-07  5.38763629e-08  9.70000000e-01 
 9.80000000e-01  3.41957022e-09  4.56987437e-01  4.56987437e-01  3.20888792e-09  3.43107545e-09  4.56987437e-01  3.43736645e-09  1.55863423e-07  5.38763487e-08  9.80000000e-01 
 9.90000000e-01  3.41957022e-09  4.56987433e-01  4.56987433e-01  3.20888787e-09  3.43107539e-09  4.56987433e-01  3.43736652e-09  1.55863424e-07  5.38762919e-08  9.90000000e-01 
 1.00000000e+00  3.41957022e-09  4.56987461e-01  4.56987461e-01  3.20888787e-09  3.43107545e-09  4.56987461e-01  3.43736650e-09  1.55863456e-07  5.38760858e-08  1.00000000e+00 
 1.01000000e+00  3.41957022e-09  4.56987476e-01  4.56987476e-01  3.20888793e-09  3.43107539e-09  4.56987476e-01  3.43736645e-09  1.55863474e-07  5.38761711e-08  1.01000000e+00 
 1.02000000e+00  3.41957022e-09  4.56987446e-01  4.56987446e-01  3.20888787e-09  3.43107545e-09  4.56987446e-01  3.43736652e-09  1.55863437e-07  5.38761284e-08  1.02000000e+00 
 1.03000000e+00  3.41957022e-09  4.56987430e-01  4.56987430e-01  3.20888787e-09  3.43107545e-09  4.56987430e-01  3.43736650e-09  1.55863424e-07  5.38759579e-08  1.03000000e+00 
 1.04000000e+00  3.41957022e-09  4.56987460e-01  4.56987460e-01  3.20888793e-09  3.43107539e-09  4.56987460e-01  3.43736645e-09  1.55863449e-07  5.38759366e-08  1.04000000e+00 
 1.05000000e+00  3.41957022e-09  4.56987437e-01  4.56987437e-01  3.20888792e-09  3.43107545e-09  4.56987437e-01  3.43736646e-09  1.55863411e-07  5.38758016e-08  1.05000000e+00 
 1.06000000e+00  3.41957022e-09  4.56987436e-01  4.56987436e-01  3.20888787e-09  3.43107539e-09  4.56987436e-01  3.43736645e-09  1.55863438e-07  5.38757874e-08  1.06000000e+00 
 1.07000000e+00  3.41957022e-09  4.56987425e-01  4.56987425e-01  3.20888792e-09  3.43107545e-09  4.56987425e-01  3.43736646e-09  1.55863406e-07  5.38756595e-08  1.07000000e+00 
 1.08000000e+00  3.41957022e-09  4.56987458e-01  4.56987458e-01  3.20888793e-09  3.43107545e-09  4.56987458e-01  3.43736645e-09  1.55863458e-07  5.38756595e-08  1.08000000e+00 
 1.09000000e+00  3.41957022e-09  4.56987448e-01  4.56987448e-01  3.20888793e-09  3.43107545e-09  4.56987448e-01  3.43736647e-09  1.55863434e-07  5.38755103e-08  1.09000000e+00 
 1.10000000e+00  3.41957022e-09  4.56987448e-01  4.56987448e-01  3.20888787e-09  3.43107545e-09  4.56987448e-01  3.43736645e-09  1.55863466e-07  5.38754819e-08  1.10000000e+00 
