 v-sweep         v(b0)           v(b1)           v(b2)           v(b3)           v(b4)           v(b5)           v(b6)           i(vbias)        i(viout)        v(vout)        
 0.00000000e+00  4.58782948e-01  4.58782948e-01  3.35213414e-09  4.58782948e-01  3.40977404e-09  3.24145536e-09  4.58782948e-01  1.58589764e-07  1.10720857e-07  0.00000000e+00 
 1.00000000e-02  4.58782960e-01  4.58782959e-01  3.35213412e-09  4.58782960e-01  3.40977401e-09  3.24145534e-09  4.58782959e-01  1.58589756e-07  1.10720455e-07  1.00000000e-02 
 2.00000000e-02  4.58782980e-01  4.58782980e-01  3.35213418e-09  4.58782980e-01  3.40977406e-09  3.24145534e-09  4.58782980e-01  1.58589804e-07  1.10720144e-07  2.00000000e-02 
 3.00000000e-02  4.58782971e-01  4.58782971e-01  3.35213412e-09  4.58782971e-01  3.40977406e-09  3.24145539e-09  4.58782971e-01  1.58589766e-07  1.10719667e-07  3.00000000e-02 
 4.00000000e-02  4.58782924e-01  4.58782924e-01  3.35213417e-09  4.58782924e-01  3.40977406e-09  3.24145538e-09  4.58782924e-01  1.58589711e-07  1.10719238e-07  4.00000000e-02 
 5.00000000e-02  4.58782919e-01  4.58782919e-01  3.35213417e-09  4.58782919e-01  3.40977406e-09  3.24145533e-09  4.58782919e-01  1.58589691e-07  1.10718795e-07  5.00000000e-02 
 6.00000000e-02  4.58782937e-01  4.58782937e-01  3.35213417e-09  4.58782937e-01  3.40977401e-09  3.24145534e-09  4.58782937e-01  1.58589735e-07  1.10718526e-07  6.00000000e-02 
 7.00000000e-02  4.58782963e-01  4.58782963e-01  3.35213418e-09  4.58782963e-01  3.40977401e-09  3.24145534e-09  4.58782963e-01  1.58589768e-07  1.10718213e-07  7.00000000e-02 
 8.00000000e-02  4.58782953e-01  4.58782953e-01  3.35213418e-09  4.58782953e-01  3.40977401e-09  3.24145539e-09  4.58782953e-01  1.58589755e-07  1.10717999e-07  8.00000000e-02 
 9.00000000e-02  4.58782965e-01  4.58782965e-01  3.35213418e-09  4.58782965e-01  3.40977401e-09  3.24145538e-09  4.58782965e-01  1.58589764e-07  1.10717782e-07  9.00000000e-02 
 1.00000000e-01  4.58782967e-01  4.58782967e-01  3.35213412e-09  4.58782967e-01  3.40977401e-09  3.24145539e-09  4.58782967e-01  1.58589776e-07  1.10717401e-07  1.00000000e-01 
 1.10000000e-01  4.58782969e-01  4.58782969e-01  3.35213418e-09  4.58782969e-01  3.40977406e-09  3.24145539e-09  4.58782969e-01  1.58589791e-07  1.10717106e-07  1.10000000e-01 
 1.20000000e-01  4.58782970e-01  4.58782970e-01  3.35213418e-09  4.58782970e-01  3.40977401e-09  3.24145533e-09  4.58782970e-01  1.58589790e-07  1.10716901e-07  1.20000000e-01 
 1.30000000e-01  4.58782970e-01  4.58782970e-01  3.35213418e-09  4.58782970e-01  3.40977401e-09  3.24145534e-09  4.58782970e-01  1.58589787e-07  1.10716692e-07  1.30000000e-01 
 1.40000000e-01  4.58782983e-01  4.58782983e-01  3.35213418e-09  4.58782983e-01  3.40977401e-09  3.24145539e-09  4.58782983e-01  1.58589810e-07  1.10716418e-07  1.40000000e-01 
 1.50000000e-01  4.58782978e-01  4.58782978e-01  3.35213412e-09  4.58782978e-01  3.40977401e-09  3.24145538e-09  4.58782978e-01  1.58589785e-07  1.10716265e-07  1.50000000e-01 
 1.60000000e-01  4.58782985e-01  4.58782985e-01  3.35213412e-09  4.58782985e-01  3.40977406e-09  3.24145533e-09  4.58782985e-01  1.58589805e-07  1.10716064e-07  1.60000000e-01 
 1.70000000e-01  4.58782965e-01  4.58782965e-01  3.35213412e-09  4.58782965e-01  3.40977401e-09  3.24145534e-09  4.58782965e-01  1.58589772e-07  1.10715792e-07  1.70000000e-01 
 1.80000000e-01  4.58782955e-01  4.58782955e-01  3.35213418e-09  4.58782955e-01  3.40977401e-09  3.24145534e-09  4.58782955e-01  1.58589753e-07  1.10715597e-07  1.80000000e-01 
 1.90000000e-01  4.58782960e-01  4.58782960e-01  3.35213418e-09  4.58782960e-01  3.40977406e-09  3.24145534e-09  4.58782960e-01  1.58589767e-07  1.10715398e-07  1.90000000e-01 
 2.00000000e-01  4.58782961e-01  4.58782961e-01  3.35213418e-09  4.58782961e-01  3.40977401e-09  3.24145534e-09  4.58782961e-01  1.58589775e-07  1.10715236e-07  2.00000000e-01 
 2.10000000e-01  4.58782961e-01  4.58782961e-01  3.35213418e-09  4.58782961e-01  3.40977401e-09  3.24145534e-09  4.58782961e-01  1.58589773e-07  1.10715103e-07  2.10000000e-01 
 2.20000000e-01  4.58782959e-01  4.58782959e-01  3.35213412e-09  4.58782959e-01  3.40977401e-09  3.24145534e-09  4.58782959e-01  1.58589765e-07  1.10714875e-07  2.20000000e-01 
 2.30000000e-01  4.58782949e-01  4.58782949e-01  3.35213418e-09  4.58782949e-01  3.40977401e-09  3.24145539e-09  4.58782949e-01  1.58589743e-07  1.10714671e-07  2.30000000e-01 
 2.40000000e-01  4.58782943e-01  4.58782943e-01  3.35213412e-09  4.58782943e-01  3.40977406e-09  3.24145538e-09  4.58782943e-01  1.58589741e-07  1.10714550e-07  2.40000000e-01 
 2.50000000e-01  4.58782958e-01  4.58782958e-01  3.35213418e-09  4.58782958e-01  3.40977401e-09  3.24145533e-09  4.58782958e-01  1.58589765e-07  1.10714426e-07  2.50000000e-01 
 2.60000000e-01  4.58782962e-01  4.58782962e-01  3.35213418e-09  4.58782962e-01  3.40977401e-09  3.24145534e-09  4.58782962e-01  1.58589766e-07  1.10714323e-07  2.60000000e-01 
 2.70000000e-01  4.58782957e-01  4.58782957e-01  3.35213418e-09  4.58782957e-01  3.40977401e-09  3.24145534e-09  4.58782957e-01  1.58589765e-07  1.10714211e-07  2.70000000e-01 
 2.80000000e-01  4.58782962e-01  4.58782962e-01  3.35213418e-09  4.58782962e-01  3.40977401e-09  3.24145539e-09  4.58782962e-01  1.58589765e-07  1.10713950e-07  2.80000000e-01 
 2.90000000e-01  4.58782984e-01  4.58782984e-01  3.35213418e-09  4.58782985e-01  3.40977406e-09  3.24145533e-09  4.58782984e-01  1.58589803e-07  1.10713994e-07  2.90000000e-01 
 3.00000000e-01  4.58782971e-01  4.58782971e-01  3.35213418e-09  4.58782971e-01  3.40977401e-09  3.24145534e-09  4.58782971e-01  1.58589790e-07  1.10713845e-07  3.00000000e-01 
 3.10000000e-01  4.58782950e-01  4.58782950e-01  3.35213418e-09  4.58782950e-01  3.40977401e-09  3.24145539e-09  4.58782950e-01  1.58589749e-07  1.10713607e-07  3.10000000e-01 
 3.20000000e-01  4.58782963e-01  4.58782963e-01  3.35213418e-09  4.58782963e-01  3.40977406e-09  3.24145538e-09  4.58782963e-01  1.58589766e-07  1.10713469e-07  3.20000000e-01 
 3.30000000e-01  4.58782972e-01  4.58782972e-01  3.35213418e-09  4.58782972e-01  3.40977401e-09  3.24145533e-09  4.58782972e-01  1.58589786e-07  1.10713373e-07  3.30000000e-01 
 3.40000000e-01  4.58782961e-01  4.58782961e-01  3.35213412e-09  4.58782961e-01  3.40977401e-09  3.24145534e-09  4.58782961e-01  1.58589768e-07  1.10713323e-07  3.40000000e-01 
 3.50000000e-01  4.58782956e-01  4.58782956e-01  3.35213412e-09  4.58782956e-01  3.40977401e-09  3.24145539e-09  4.58782956e-01  1.58589765e-07  1.10713124e-07  3.50000000e-01 
 3.60000000e-01  4.58782946e-01  4.58782946e-01  3.35213412e-09  4.58782947e-01  3.40977406e-09  3.24145538e-09  4.58782946e-01  1.58589750e-07  1.10713007e-07  3.60000000e-01 
 3.70000000e-01  4.58782962e-01  4.58782962e-01  3.35213412e-09  4.58782962e-01  3.40977406e-09  3.24145539e-09  4.58782962e-01  1.58589778e-07  1.10713042e-07  3.70000000e-01 
 3.80000000e-01  4.58782972e-01  4.58782972e-01  3.35213412e-09  4.58782972e-01  3.40977401e-09  3.24145533e-09  4.58782972e-01  1.58589792e-07  1.10713003e-07  3.80000000e-01 
 3.90000000e-01  4.58782965e-01  4.58782965e-01  3.35213412e-09  4.58782965e-01  3.40977406e-09  3.24145540e-09  4.58782965e-01  1.58589778e-07  1.10712747e-07  3.90000000e-01 
 4.00000000e-01  4.58782966e-01  4.58782966e-01  3.35213412e-09  4.58782966e-01  3.40977401e-09  3.24145532e-09  4.58782966e-01  1.58589769e-07  1.10712772e-07  4.00000000e-01 
 4.10000000e-01  4.58782973e-01  4.58782973e-01  3.35213418e-09  4.58782973e-01  3.40977401e-09  3.24145534e-09  4.58782973e-01  1.58589791e-07  1.10712655e-07  4.10000000e-01 
 4.20000000e-01  4.58782971e-01  4.58782971e-01  3.35213418e-09  4.58782971e-01  3.40977401e-09  3.24145534e-09  4.58782971e-01  1.58589789e-07  1.10712545e-07  4.20000000e-01 
 4.30000000e-01  4.58782962e-01  4.58782962e-01  3.35213418e-09  4.58782962e-01  3.40977401e-09  3.24145534e-09  4.58782962e-01  1.58589770e-07  1.10712314e-07  4.30000000e-01 
 4.40000000e-01  4.58782963e-01  4.58782963e-01  3.35213412e-09  4.58782963e-01  3.40977406e-09  3.24145539e-09  4.58782963e-01  1.58589758e-07  1.10712321e-07  4.40000000e-01 
 4.50000000e-01  4.58782970e-01  4.58782970e-01  3.35213418e-09  4.58782970e-01  3.40977401e-09  3.24145538e-09  4.58782970e-01  1.58589778e-07  1.10712289e-07  4.50000000e-01 
 4.60000000e-01  4.58782964e-01  4.58782964e-01  3.35213418e-09  4.58782964e-01  3.40977406e-09  3.24145539e-09  4.58782964e-01  1.58589772e-07  1.10712076e-07  4.60000000e-01 
 4.70000000e-01  4.58782961e-01  4.58782961e-01  3.35213418e-09  4.58782961e-01  3.40977406e-09  3.24145539e-09  4.58782961e-01  1.58589761e-07  1.10711998e-07  4.70000000e-01 
 4.80000000e-01  4.58782969e-01  4.58782969e-01  3.35213412e-09  4.58782969e-01  3.40977401e-09  3.24145533e-09  4.58782969e-01  1.58589775e-07  1.10711973e-07  4.80000000e-01 
 4.90000000e-01  4.58782977e-01  4.58782977e-01  3.35213418e-09  4.58782977e-01  3.40977406e-09  3.24145540e-09  4.58782977e-01  1.58589790e-07  1.10711998e-07  4.90000000e-01 
 5.00000000e-01  4.58782968e-01  4.58782968e-01  3.35213412e-09  4.58782968e-01  3.40977401e-09  3.24145538e-09  4.58782968e-01  1.58589789e-07  1.10711728e-07  5.00000000e-01 
 5.10000000e-01  4.58782956e-01  4.58782956e-01  3.35213418e-09  4.58782956e-01  3.40977406e-09  3.24145539e-09  4.58782956e-01  1.58589768e-07  1.10711685e-07  5.10000000e-01 
 5.20000000e-01  4.58782959e-01  4.58782959e-01  3.35213418e-09  4.58782959e-01  3.40977406e-09  3.24145539e-09  4.58782959e-01  1.58589775e-07  1.10711603e-07  5.20000000e-01 
 5.30000000e-01  4.58782974e-01  4.58782974e-01  3.35213412e-09  4.58782974e-01  3.40977406e-09  3.24145539e-09  4.58782974e-01  1.58589787e-07  1.10711706e-07  5.30000000e-01 
 5.40000000e-01  4.58782963e-01  4.58782963e-01  3.35213412e-09  4.58782963e-01  3.40977401e-09  3.24145539e-09  4.58782963e-01  1.58589766e-07  1.10711422e-07  5.40000000e-01 
 5.50000000e-01  4.58782963e-01  4.58782963e-01  3.35213412e-09  4.58782963e-01  3.40977406e-09  3.24145533e-09  4.58782963e-01  1.58589774e-07  1.10711401e-07  5.50000000e-01 
 5.60000000e-01  4.58782967e-01  4.58782967e-01  3.35213412e-09  4.58782967e-01  3.40977406e-09  3.24145534e-09  4.58782967e-01  1.58589772e-07  1.10711330e-07  5.60000000e-01 
 5.70000000e-01  4.58782987e-01  4.58782987e-01  3.35213412e-09  4.58782987e-01  3.40977406e-09  3.24145534e-09  4.58782987e-01  1.58589800e-07  1.10711330e-07  5.70000000e-01 
 5.80000000e-01  4.58782980e-01  4.58782980e-01  3.35213418e-09  4.58782980e-01  3.40977401e-09  3.24145539e-09  4.58782980e-01  1.58589802e-07  1.10711120e-07  5.80000000e-01 
 5.90000000e-01  4.58782977e-01  4.58782977e-01  3.35213412e-09  4.58782977e-01  3.40977401e-09  3.24145533e-09  4.58782977e-01  1.58589791e-07  1.10711113e-07  5.90000000e-01 
 6.00000000e-01  4.58782978e-01  4.58782978e-01  3.35213418e-09  4.58782979e-01  3.40977406e-09  3.24145534e-09  4.58782978e-01  1.58589801e-07  1.10711113e-07  6.00000000e-01 
 6.10000000e-01  4.58782963e-01  4.58782963e-01  3.35213412e-09  4.58782963e-01  3.40977401e-09  3.24145539e-09  4.58782963e-01  1.58589775e-07  1.10710914e-07  6.10000000e-01 
 6.20000000e-01  4.58782936e-01  4.58782936e-01  3.35213412e-09  4.58782936e-01  3.40977401e-09  3.24145532e-09  4.58782936e-01  1.58589729e-07  1.10710722e-07  6.20000000e-01 
 6.30000000e-01  4.58782959e-01  4.58782958e-01  3.35213412e-09  4.58782959e-01  3.40977406e-09  3.24145540e-09  4.58782958e-01  1.58589763e-07  1.10710708e-07  6.30000000e-01 
 6.40000000e-01  4.58782973e-01  4.58782973e-01  3.35213418e-09  4.58782973e-01  3.40977401e-09  3.24145533e-09  4.58782973e-01  1.58589796e-07  1.10710673e-07  6.40000000e-01 
 6.50000000e-01  4.58782962e-01  4.58782962e-01  3.35213412e-09  4.58782962e-01  3.40977401e-09  3.24145534e-09  4.58782962e-01  1.58589761e-07  1.10710687e-07  6.50000000e-01 
 6.60000000e-01  4.58782953e-01  4.58782953e-01  3.35213418e-09  4.58782953e-01  3.40977401e-09  3.24145534e-09  4.58782953e-01  1.58589751e-07  1.10710445e-07  6.60000000e-01 
 6.70000000e-01  4.58782969e-01  4.58782969e-01  3.35213412e-09  4.58782969e-01  3.40977401e-09  3.24145534e-09  4.58782969e-01  1.58589768e-07  1.10710459e-07  6.70000000e-01 
 6.80000000e-01  4.58782950e-01  4.58782950e-01  3.35213418e-09  4.58782950e-01  3.40977401e-09  3.24145539e-09  4.58782950e-01  1.58589748e-07  1.10710339e-07  6.80000000e-01 
 6.90000000e-01  4.58782930e-01  4.58782930e-01  3.35213417e-09  4.58782930e-01  3.40977406e-09  3.24145532e-09  4.58782930e-01  1.58589712e-07  1.10710168e-07  6.90000000e-01 
 7.00000000e-01  4.58782972e-01  4.58782972e-01  3.35213418e-09  4.58782972e-01  3.40977406e-09  3.24145534e-09  4.58782972e-01  1.58589785e-07  1.10710218e-07  7.00000000e-01 
 7.10000000e-01  4.58782942e-01  4.58782942e-01  3.35213412e-09  4.58782942e-01  3.40977401e-09  3.24145534e-09  4.58782942e-01  1.58589732e-07  1.10710062e-07  7.10000000e-01 
 7.20000000e-01  4.58782966e-01  4.58782966e-01  3.35213418e-09  4.58782966e-01  3.40977406e-09  3.24145534e-09  4.58782966e-01  1.58589773e-07  1.10709976e-07  7.20000000e-01 
 7.30000000e-01  4.58782989e-01  4.58782989e-01  3.35213412e-09  4.58782989e-01  3.40977401e-09  3.24145534e-09  4.58782989e-01  1.58589809e-07  1.10710126e-07  7.30000000e-01 
 7.40000000e-01  4.58782984e-01  4.58782984e-01  3.35213412e-09  4.58782984e-01  3.40977406e-09  3.24145534e-09  4.58782984e-01  1.58589801e-07  1.10709991e-07  7.40000000e-01 
 7.50000000e-01  4.58782978e-01  4.58782978e-01  3.35213418e-09  4.58782978e-01  3.40977406e-09  3.24145534e-09  4.58782978e-01  1.58589791e-07  1.10709841e-07  7.50000000e-01 
 7.60000000e-01  4.58782970e-01  4.58782970e-01  3.35213418e-09  4.58782970e-01  3.40977401e-09  3.24145539e-09  4.58782970e-01  1.58589782e-07  1.10709756e-07  7.60000000e-01 
 7.70000000e-01  4.58782962e-01  4.58782962e-01  3.35213418e-09  4.58782962e-01  3.40977401e-09  3.24145532e-09  4.58782962e-01  1.58589768e-07  1.10709642e-07  7.70000000e-01 
 7.80000000e-01  4.58782962e-01  4.58782961e-01  3.35213412e-09  4.58782962e-01  3.40977401e-09  3.24145534e-09  4.58782961e-01  1.58589775e-07  1.10709493e-07  7.80000000e-01 
 7.90000000e-01  4.58782982e-01  4.58782982e-01  3.35213412e-09  4.58782982e-01  3.40977406e-09  3.24145539e-09  4.58782982e-01  1.58589784e-07  1.10709522e-07  7.90000000e-01 
 8.00000000e-01  4.58782963e-01  4.58782963e-01  3.35213418e-09  4.58782963e-01  3.40977401e-09  3.24145538e-09  4.58782963e-01  1.58589769e-07  1.10709323e-07  8.00000000e-01 
 8.10000000e-01  4.58782987e-01  4.58782987e-01  3.35213412e-09  4.58782987e-01  3.40977401e-09  3.24145539e-09  4.58782987e-01  1.58589807e-07  1.10709301e-07  8.10000000e-01 
 8.20000000e-01  4.58782961e-01  4.58782961e-01  3.35213412e-09  4.58782961e-01  3.40977401e-09  3.24145533e-09  4.58782961e-01  1.58589771e-07  1.10709159e-07  8.20000000e-01 
 8.30000000e-01  4.58782944e-01  4.58782944e-01  3.35213412e-09  4.58782944e-01  3.40977401e-09  3.24145534e-09  4.58782944e-01  1.58589753e-07  1.10709038e-07  8.30000000e-01 
 8.40000000e-01  4.58782963e-01  4.58782963e-01  3.35213418e-09  4.58782963e-01  3.40977401e-09  3.24145534e-09  4.58782963e-01  1.58589753e-07  1.10709081e-07  8.40000000e-01 
 8.50000000e-01  4.58782959e-01  4.58782959e-01  3.35213418e-09  4.58782959e-01  3.40977406e-09  3.24145539e-09  4.58782959e-01  1.58589765e-07  1.10709081e-07  8.50000000e-01 
 8.60000000e-01  4.58782962e-01  4.58782962e-01  3.35213412e-09  4.58782962e-01  3.40977401e-09  3.24145538e-09  4.58782962e-01  1.58589759e-07  1.10708953e-07  8.60000000e-01 
 8.70000000e-01  4.58782960e-01  4.58782960e-01  3.35213418e-09  4.58782960e-01  3.40977401e-09  3.24145539e-09  4.58782960e-01  1.58589769e-07  1.10708783e-07  8.70000000e-01 
 8.80000000e-01  4.58782979e-01  4.58782979e-01  3.35213418e-09  4.58782979e-01  3.40977406e-09  3.24145533e-09  4.58782979e-01  1.58589794e-07  1.10708847e-07  8.80000000e-01 
 8.90000000e-01  4.58782950e-01  4.58782950e-01  3.35213418e-09  4.58782950e-01  3.40977401e-09  3.24145534e-09  4.58782950e-01  1.58589759e-07  1.10708541e-07  8.90000000e-01 
 9.00000000e-01  4.58782950e-01  4.58782950e-01  3.35213412e-09  4.58782950e-01  3.40977406e-09  3.24145534e-09  4.58782950e-01  1.58589754e-07  1.10708534e-07  9.00000000e-01 
 9.10000000e-01  4.58782937e-01  4.58782937e-01  3.35213417e-09  4.58782937e-01  3.40977406e-09  3.24145533e-09  4.58782937e-01  1.58589732e-07  1.10708378e-07  9.10000000e-01 
 9.20000000e-01  4.58782956e-01  4.58782956e-01  3.35213418e-09  4.58782956e-01  3.40977406e-09  3.24145539e-09  4.58782956e-01  1.58589760e-07  1.10708356e-07  9.20000000e-01 
 9.30000000e-01  4.58782980e-01  4.58782980e-01  3.35213412e-09  4.58782980e-01  3.40977401e-09  3.24145533e-09  4.58782980e-01  1.58589800e-07  1.10708449e-07  9.30000000e-01 
 9.40000000e-01  4.58782965e-01  4.58782965e-01  3.35213412e-09  4.58782965e-01  3.40977401e-09  3.24145540e-09  4.58782965e-01  1.58589772e-07  1.10708228e-07  9.40000000e-01 
 9.50000000e-01  4.58782944e-01  4.58782944e-01  3.35213417e-09  4.58782945e-01  3.40977401e-09  3.24145538e-09  4.58782944e-01  1.58589746e-07  1.10708164e-07  9.50000000e-01 
 9.60000000e-01  4.58782943e-01  4.58782943e-01  3.35213417e-09  4.58782943e-01  3.40977406e-09  3.24145533e-09  4.58782943e-01  1.58589735e-07  1.10707845e-07  9.60000000e-01 
 9.70000000e-01  4.58782955e-01  4.58782955e-01  3.35213412e-09  4.58782955e-01  3.40977401e-09  3.24145534e-09  4.58782955e-01  1.58589744e-07  1.10707930e-07  9.70000000e-01 
 9.80000000e-01  4.58782987e-01  4.58782987e-01  3.35213418e-09  4.58782987e-01  3.40977406e-09  3.24145534e-09  4.58782987e-01  1.58589811e-07  1.10707902e-07  9.80000000e-01 
 9.90000000e-01  4.58782948e-01  4.58782948e-01  3.35213418e-09  4.58782948e-01  3.40977401e-09  3.24145534e-09  4.58782948e-01  1.58589739e-07  1.10707738e-07  9.90000000e-01 
 1.00000000e+00  4.58782952e-01  4.58782952e-01  3.35213418e-09  4.58782952e-01  3.40977406e-09  3.24145539e-09  4.58782952e-01  1.58589745e-07  1.10707681e-07  1.00000000e+00 
 1.01000000e+00  4.58782967e-01  4.58782967e-01  3.35213418e-09  4.58782967e-01  3.40977401e-09  3.24145532e-09  4.58782967e-01  1.58589770e-07  1.10707596e-07  1.01000000e+00 
 1.02000000e+00  4.58782966e-01  4.58782966e-01  3.35213418e-09  4.58782966e-01  3.40977401e-09  3.24145534e-09  4.58782966e-01  1.58589785e-07  1.10707539e-07  1.02000000e+00 
 1.03000000e+00  4.58782979e-01  4.58782979e-01  3.35213418e-09  4.58782980e-01  3.40977406e-09  3.24145534e-09  4.58782979e-01  1.58589792e-07  1.10707440e-07  1.03000000e+00 
 1.04000000e+00  4.58782972e-01  4.58782972e-01  3.35213418e-09  4.58782972e-01  3.40977401e-09  3.24145539e-09  4.58782972e-01  1.58589785e-07  1.10707340e-07  1.04000000e+00 
 1.05000000e+00  4.58782973e-01  4.58782973e-01  3.35213418e-09  4.58782973e-01  3.40977401e-09  3.24145533e-09  4.58782973e-01  1.58589778e-07  1.10707276e-07  1.05000000e+00 
 1.06000000e+00  4.58782969e-01  4.58782968e-01  3.35213418e-09  4.58782969e-01  3.40977401e-09  3.24145534e-09  4.58782968e-01  1.58589780e-07  1.10707148e-07  1.06000000e+00 
 1.07000000e+00  4.58782960e-01  4.58782960e-01  3.35213418e-09  4.58782960e-01  3.40977401e-09  3.24145534e-09  4.58782960e-01  1.58589775e-07  1.10706978e-07  1.07000000e+00 
 1.08000000e+00  4.58782958e-01  4.58782958e-01  3.35213412e-09  4.58782958e-01  3.40977401e-09  3.24145534e-09  4.58782958e-01  1.58589761e-07  1.10706850e-07  1.08000000e+00 
 1.09000000e+00  4.58782966e-01  4.58782966e-01  3.35213412e-09  4.58782966e-01  3.40977406e-09  3.24145539e-09  4.58782966e-01  1.58589782e-07  1.10706836e-07  1.09000000e+00 
 1.10000000e+00  4.58782971e-01  4.58782971e-01  3.35213418e-09  4.58782971e-01  3.40977401e-09  3.24145538e-09  4.58782971e-01  1.58589778e-07  1.10706743e-07  1.10000000e+00 
