 v-sweep         v(b0)           v(b1)           v(b2)           v(b3)           v(b4)           v(b5)           v(b6)           i(vbias)        i(viout)        v(vout)        
 0.00000000e+00  3.45548079e-09  4.56660600e-01  3.29721593e-09  4.56660600e-01  4.56660600e-01  4.56660600e-01  3.22969954e-09  1.56785341e-07  8.71216971e-08  0.00000000e+00 
 1.00000000e-02  3.45548081e-09  4.56660582e-01  3.29721596e-09  4.56660582e-01  4.56660582e-01  4.56660582e-01  3.22969951e-09  1.56785316e-07  8.71212646e-08  1.00000000e-02 
 2.00000000e-02  3.45548075e-09  4.56660560e-01  3.29721596e-09  4.56660560e-01  4.56660560e-01  4.56660560e-01  3.22969952e-09  1.56785291e-07  8.71208259e-08  2.00000000e-02 
 3.00000000e-02  3.45548081e-09  4.56660578e-01  3.29721596e-09  4.56660578e-01  4.56660578e-01  4.56660578e-01  3.22969950e-09  1.56785325e-07  8.71204322e-08  3.00000000e-02 
 4.00000000e-02  3.45548075e-09  4.56660574e-01  3.29721596e-09  4.56660574e-01  4.56660574e-01  4.56660574e-01  3.22969952e-09  1.56785306e-07  8.71200241e-08  4.00000000e-02 
 5.00000000e-02  3.45548081e-09  4.56660594e-01  3.29721596e-09  4.56660594e-01  4.56660594e-01  4.56660595e-01  3.22969950e-09  1.56785339e-07  8.71198709e-08  5.00000000e-02 
 6.00000000e-02  3.45548076e-09  4.56660586e-01  3.29721596e-09  4.56660586e-01  4.56660586e-01  4.56660586e-01  3.22969947e-09  1.56785308e-07  8.71194676e-08  6.00000000e-02 
 7.00000000e-02  3.45548081e-09  4.56660556e-01  3.29721596e-09  4.56660556e-01  4.56660556e-01  4.56660556e-01  3.22969952e-09  1.56785284e-07  8.71190999e-08  7.00000000e-02 
 8.00000000e-02  3.45548075e-09  4.56660571e-01  3.29721596e-09  4.56660572e-01  4.56660571e-01  4.56660572e-01  3.22969952e-09  1.56785301e-07  8.71188721e-08  8.00000000e-02 
 9.00000000e-02  3.45548076e-09  4.56660586e-01  3.29721596e-09  4.56660586e-01  4.56660586e-01  4.56660586e-01  3.22969952e-09  1.56785320e-07  8.71185213e-08  9.00000000e-02 
 1.00000000e-01  3.45548081e-09  4.56660589e-01  3.29721596e-09  4.56660590e-01  4.56660590e-01  4.56660590e-01  3.22969952e-09  1.56785328e-07  8.71182682e-08  1.00000000e-01 
 1.10000000e-01  3.45548082e-09  4.56660608e-01  3.29721596e-09  4.56660608e-01  4.56660608e-01  4.56660608e-01  3.22969952e-09  1.56785353e-07  8.71180861e-08  1.10000000e-01 
 1.20000000e-01  3.45548081e-09  4.56660578e-01  3.29721596e-09  4.56660578e-01  4.56660578e-01  4.56660578e-01  3.22969952e-09  1.56785323e-07  8.71177415e-08  1.20000000e-01 
 1.30000000e-01  3.45548081e-09  4.56660596e-01  3.29721596e-09  4.56660596e-01  4.56660596e-01  4.56660596e-01  3.22969952e-09  1.56785328e-07  8.71176136e-08  1.30000000e-01 
 1.40000000e-01  3.45548076e-09  4.56660604e-01  3.29721596e-09  4.56660604e-01  4.56660604e-01  4.56660604e-01  3.22969952e-09  1.56785333e-07  8.71173427e-08  1.40000000e-01 
 1.50000000e-01  3.45548081e-09  4.56660592e-01  3.29721596e-09  4.56660593e-01  4.56660593e-01  4.56660593e-01  3.22969952e-09  1.56785335e-07  8.71171508e-08  1.50000000e-01 
 1.60000000e-01  3.45548081e-09  4.56660565e-01  3.29721596e-09  4.56660565e-01  4.56660565e-01  4.56660565e-01  3.22969952e-09  1.56785280e-07  8.71168364e-08  1.60000000e-01 
 1.70000000e-01  3.45548081e-09  4.56660604e-01  3.29721596e-09  4.56660604e-01  4.56660604e-01  4.56660604e-01  3.22969952e-09  1.56785346e-07  8.71167618e-08  1.70000000e-01 
 1.80000000e-01  3.45548075e-09  4.56660577e-01  3.29721596e-09  4.56660577e-01  4.56660577e-01  4.56660577e-01  3.22969952e-09  1.56785303e-07  8.71165824e-08  1.80000000e-01 
 1.90000000e-01  3.45548081e-09  4.56660587e-01  3.29721596e-09  4.56660587e-01  4.56660587e-01  4.56660587e-01  3.22969952e-09  1.56785330e-07  8.71164172e-08  1.90000000e-01 
 2.00000000e-01  3.45548081e-09  4.56660592e-01  3.29721596e-09  4.56660592e-01  4.56660592e-01  4.56660592e-01  3.22969952e-09  1.56785339e-07  8.71161898e-08  2.00000000e-01 
 2.10000000e-01  3.45548081e-09  4.56660580e-01  3.29721596e-09  4.56660580e-01  4.56660580e-01  4.56660580e-01  3.22969952e-09  1.56785325e-07  8.71161046e-08  2.10000000e-01 
 2.20000000e-01  3.45548081e-09  4.56660563e-01  3.29721596e-09  4.56660563e-01  4.56660563e-01  4.56660563e-01  3.22969952e-09  1.56785305e-07  8.71158310e-08  2.20000000e-01 
 2.30000000e-01  3.45548081e-09  4.56660590e-01  3.29721596e-09  4.56660590e-01  4.56660590e-01  4.56660590e-01  3.22969952e-09  1.56785332e-07  8.71156853e-08  2.30000000e-01 
 2.40000000e-01  3.45548081e-09  4.56660584e-01  3.29721596e-09  4.56660584e-01  4.56660584e-01  4.56660584e-01  3.22969952e-09  1.56785313e-07  8.71156747e-08  2.40000000e-01 
 2.50000000e-01  3.45548076e-09  4.56660608e-01  3.29721596e-09  4.56660608e-01  4.56660608e-01  4.56660608e-01  3.22969952e-09  1.56785357e-07  8.71155628e-08  2.50000000e-01 
 2.60000000e-01  3.45548076e-09  4.56660588e-01  3.29721596e-09  4.56660588e-01  4.56660588e-01  4.56660588e-01  3.22969952e-09  1.56785315e-07  8.71153105e-08  2.60000000e-01 
 2.70000000e-01  3.45548076e-09  4.56660598e-01  3.29721596e-09  4.56660598e-01  4.56660598e-01  4.56660598e-01  3.22969952e-09  1.56785340e-07  8.71151542e-08  2.70000000e-01 
 2.80000000e-01  3.45548081e-09  4.56660601e-01  3.29721596e-09  4.56660601e-01  4.56660601e-01  4.56660601e-01  3.22969952e-09  1.56785348e-07  8.71150778e-08  2.80000000e-01 
 2.90000000e-01  3.45548081e-09  4.56660584e-01  3.29721596e-09  4.56660584e-01  4.56660584e-01  4.56660584e-01  3.22969952e-09  1.56785321e-07  8.71149552e-08  2.90000000e-01 
 3.00000000e-01  3.45548076e-09  4.56660601e-01  3.29721596e-09  4.56660602e-01  4.56660602e-01  4.56660602e-01  3.22969952e-09  1.56785338e-07  8.71149091e-08  3.00000000e-01 
 3.10000000e-01  3.45548075e-09  4.56660571e-01  3.29721596e-09  4.56660571e-01  4.56660571e-01  4.56660571e-01  3.22969952e-09  1.56785301e-07  8.71146923e-08  3.10000000e-01 
 3.20000000e-01  3.45548082e-09  4.56660608e-01  3.29721596e-09  4.56660608e-01  4.56660608e-01  4.56660608e-01  3.22969952e-09  1.56785354e-07  8.71146710e-08  3.20000000e-01 
 3.30000000e-01  3.45548075e-09  4.56660579e-01  3.29721596e-09  4.56660579e-01  4.56660579e-01  4.56660579e-01  3.22969952e-09  1.56785311e-07  8.71144756e-08  3.30000000e-01 
 3.40000000e-01  3.45548081e-09  4.56660583e-01  3.29721596e-09  4.56660584e-01  4.56660583e-01  4.56660584e-01  3.22969952e-09  1.56785320e-07  8.71144152e-08  3.40000000e-01 
 3.50000000e-01  3.45548076e-09  4.56660584e-01  3.29721596e-09  4.56660584e-01  4.56660584e-01  4.56660584e-01  3.22969952e-09  1.56785323e-07  8.71143051e-08  3.50000000e-01 
 3.60000000e-01  3.45548081e-09  4.56660592e-01  3.29721596e-09  4.56660593e-01  4.56660593e-01  4.56660593e-01  3.22969952e-09  1.56785335e-07  8.71142269e-08  3.60000000e-01 
 3.70000000e-01  3.45548076e-09  4.56660592e-01  3.29721596e-09  4.56660592e-01  4.56660592e-01  4.56660592e-01  3.22969952e-09  1.56785328e-07  8.71141168e-08  3.70000000e-01 
 3.80000000e-01  3.45548081e-09  4.56660592e-01  3.29721596e-09  4.56660593e-01  4.56660593e-01  4.56660593e-01  3.22969952e-09  1.56785323e-07  8.71141168e-08  3.80000000e-01 
 3.90000000e-01  3.45548081e-09  4.56660579e-01  3.29721596e-09  4.56660580e-01  4.56660580e-01  4.56660580e-01  3.22969952e-09  1.56785310e-07  8.71139036e-08  3.90000000e-01 
 4.00000000e-01  3.45548081e-09  4.56660575e-01  3.29721596e-09  4.56660575e-01  4.56660575e-01  4.56660575e-01  3.22969952e-09  1.56785312e-07  8.71138610e-08  4.00000000e-01 
 4.10000000e-01  3.45548081e-09  4.56660580e-01  3.29721596e-09  4.56660580e-01  4.56660580e-01  4.56660580e-01  3.22969952e-09  1.56785326e-07  8.71137225e-08  4.10000000e-01 
 4.20000000e-01  3.45548081e-09  4.56660592e-01  3.29721596e-09  4.56660592e-01  4.56660592e-01  4.56660592e-01  3.22969952e-09  1.56785331e-07  8.71137402e-08  4.20000000e-01 
 4.30000000e-01  3.45548081e-09  4.56660593e-01  3.29721596e-09  4.56660593e-01  4.56660593e-01  4.56660593e-01  3.22969952e-09  1.56785323e-07  8.71135981e-08  4.30000000e-01 
 4.40000000e-01  3.45548075e-09  4.56660561e-01  3.29721596e-09  4.56660561e-01  4.56660561e-01  4.56660561e-01  3.22969952e-09  1.56785287e-07  8.71133636e-08  4.40000000e-01 
 4.50000000e-01  3.45548075e-09  4.56660573e-01  3.29721596e-09  4.56660574e-01  4.56660574e-01  4.56660574e-01  3.22969952e-09  1.56785306e-07  8.71134098e-08  4.50000000e-01 
 4.60000000e-01  3.45548081e-09  4.56660602e-01  3.29721596e-09  4.56660602e-01  4.56660602e-01  4.56660602e-01  3.22969952e-09  1.56785337e-07  8.71134773e-08  4.60000000e-01 
 4.70000000e-01  3.45548075e-09  4.56660582e-01  3.29721596e-09  4.56660582e-01  4.56660582e-01  4.56660582e-01  3.22969952e-09  1.56785321e-07  8.71132464e-08  4.70000000e-01 
 4.80000000e-01  3.45548076e-09  4.56660608e-01  3.29721596e-09  4.56660608e-01  4.56660608e-01  4.56660608e-01  3.22969952e-09  1.56785369e-07  8.71132713e-08  4.80000000e-01 
 4.90000000e-01  3.45548075e-09  4.56660575e-01  3.29721596e-09  4.56660575e-01  4.56660575e-01  4.56660575e-01  3.22969952e-09  1.56785297e-07  8.71131220e-08  4.90000000e-01 
 5.00000000e-01  3.45548081e-09  4.56660601e-01  3.29721596e-09  4.56660601e-01  4.56660601e-01  4.56660601e-01  3.22969952e-09  1.56785365e-07  8.71130794e-08  5.00000000e-01 
 5.10000000e-01  3.45548076e-09  4.56660588e-01  3.29721596e-09  4.56660588e-01  4.56660588e-01  4.56660588e-01  3.22969952e-09  1.56785327e-07  8.71129942e-08  5.10000000e-01 
 5.20000000e-01  3.45548081e-09  4.56660563e-01  3.29721596e-09  4.56660563e-01  4.56660563e-01  4.56660563e-01  3.22969952e-09  1.56785297e-07  8.71128663e-08  5.20000000e-01 
 5.30000000e-01  3.45548075e-09  4.56660566e-01  3.29721596e-09  4.56660566e-01  4.56660566e-01  4.56660566e-01  3.22969952e-09  1.56785290e-07  8.71128094e-08  5.30000000e-01 
 5.40000000e-01  3.45548081e-09  4.56660599e-01  3.29721596e-09  4.56660599e-01  4.56660599e-01  4.56660599e-01  3.22969952e-09  1.56785359e-07  8.71127845e-08  5.40000000e-01 
 5.50000000e-01  3.45548081e-09  4.56660568e-01  3.29721596e-09  4.56660568e-01  4.56660568e-01  4.56660568e-01  3.22969952e-09  1.56785305e-07  8.71126531e-08  5.50000000e-01 
 5.60000000e-01  3.45548081e-09  4.56660574e-01  3.29721596e-09  4.56660574e-01  4.56660574e-01  4.56660574e-01  3.22969952e-09  1.56785311e-07  8.71125465e-08  5.60000000e-01 
 5.70000000e-01  3.45548082e-09  4.56660611e-01  3.29721596e-09  4.56660611e-01  4.56660611e-01  4.56660611e-01  3.22969952e-09  1.56785359e-07  8.71125785e-08  5.70000000e-01 
 5.80000000e-01  3.45548076e-09  4.56660602e-01  3.29721596e-09  4.56660602e-01  4.56660602e-01  4.56660602e-01  3.22969952e-09  1.56785328e-07  8.71124470e-08  5.80000000e-01 
 5.90000000e-01  3.45548076e-09  4.56660601e-01  3.29721596e-09  4.56660601e-01  4.56660601e-01  4.56660601e-01  3.22969952e-09  1.56785348e-07  8.71123973e-08  5.90000000e-01 
 6.00000000e-01  3.45548081e-09  4.56660582e-01  3.29721596e-09  4.56660582e-01  4.56660582e-01  4.56660582e-01  3.22969946e-09  1.56785325e-07  8.71122694e-08  6.00000000e-01 
 6.10000000e-01  3.45548075e-09  4.56660576e-01  3.29721596e-09  4.56660576e-01  4.56660576e-01  4.56660576e-01  3.22969952e-09  1.56785309e-07  8.71123049e-08  6.10000000e-01 
 6.20000000e-01  3.45548081e-09  4.56660574e-01  3.29721596e-09  4.56660574e-01  4.56660574e-01  4.56660574e-01  3.22969952e-09  1.56785297e-07  8.71121415e-08  6.20000000e-01 
 6.30000000e-01  3.45548081e-09  4.56660592e-01  3.29721596e-09  4.56660593e-01  4.56660593e-01  4.56660593e-01  3.22969952e-09  1.56785341e-07  8.71120704e-08  6.30000000e-01 
 6.40000000e-01  3.45548081e-09  4.56660578e-01  3.29721596e-09  4.56660578e-01  4.56660578e-01  4.56660578e-01  3.22969952e-09  1.56785303e-07  8.71121415e-08  6.40000000e-01 
 6.50000000e-01  3.45548081e-09  4.56660563e-01  3.29721596e-09  4.56660563e-01  4.56660563e-01  4.56660563e-01  3.22969952e-09  1.56785294e-07  8.71119141e-08  6.50000000e-01 
 6.60000000e-01  3.45548076e-09  4.56660588e-01  3.29721596e-09  4.56660588e-01  4.56660588e-01  4.56660588e-01  3.22969952e-09  1.56785333e-07  8.71119497e-08  6.60000000e-01 
 6.70000000e-01  3.45548081e-09  4.56660579e-01  3.29721596e-09  4.56660579e-01  4.56660579e-01  4.56660579e-01  3.22969952e-09  1.56785303e-07  8.71117649e-08  6.70000000e-01 
 6.80000000e-01  3.45548076e-09  4.56660587e-01  3.29721596e-09  4.56660587e-01  4.56660587e-01  4.56660587e-01  3.22969952e-09  1.56785323e-07  8.71117791e-08  6.80000000e-01 
 6.90000000e-01  3.45548081e-09  4.56660571e-01  3.29721596e-09  4.56660571e-01  4.56660571e-01  4.56660571e-01  3.22969952e-09  1.56785295e-07  8.71117081e-08  6.90000000e-01 
 7.00000000e-01  3.45548076e-09  4.56660591e-01  3.29721596e-09  4.56660591e-01  4.56660591e-01  4.56660591e-01  3.22969952e-09  1.56785331e-07  8.71115660e-08  7.00000000e-01 
 7.10000000e-01  3.45548081e-09  4.56660597e-01  3.29721596e-09  4.56660598e-01  4.56660598e-01  4.56660598e-01  3.22969952e-09  1.56785336e-07  8.71115375e-08  7.10000000e-01 
 7.20000000e-01  3.45548076e-09  4.56660591e-01  3.29721596e-09  4.56660591e-01  4.56660591e-01  4.56660591e-01  3.22969952e-09  1.56785341e-07  8.71114878e-08  7.20000000e-01 
 7.30000000e-01  3.45548076e-09  4.56660601e-01  3.29721596e-09  4.56660602e-01  4.56660602e-01  4.56660602e-01  3.22969952e-09  1.56785335e-07  8.71114878e-08  7.30000000e-01 
 7.40000000e-01  3.45548076e-09  4.56660601e-01  3.29721596e-09  4.56660601e-01  4.56660601e-01  4.56660601e-01  3.22969952e-09  1.56785332e-07  8.71113457e-08  7.40000000e-01 
 7.50000000e-01  3.45548081e-09  4.56660597e-01  3.29721596e-09  4.56660597e-01  4.56660597e-01  4.56660597e-01  3.22969952e-09  1.56785339e-07  8.71112817e-08  7.50000000e-01 
 7.60000000e-01  3.45548076e-09  4.56660589e-01  3.29721596e-09  4.56660589e-01  4.56660589e-01  4.56660589e-01  3.22969952e-09  1.56785328e-07  8.71112462e-08  7.60000000e-01 
 7.70000000e-01  3.45548076e-09  4.56660605e-01  3.29721596e-09  4.56660605e-01  4.56660605e-01  4.56660605e-01  3.22969952e-09  1.56785344e-07  8.71111610e-08  7.70000000e-01 
 7.80000000e-01  3.45548075e-09  4.56660576e-01  3.29721596e-09  4.56660576e-01  4.56660576e-01  4.56660576e-01  3.22969952e-09  1.56785294e-07  8.71111823e-08  7.80000000e-01 
 7.90000000e-01  3.45548076e-09  4.56660587e-01  3.29721596e-09  4.56660587e-01  4.56660587e-01  4.56660587e-01  3.22969952e-09  1.56785324e-07  8.71109549e-08  7.90000000e-01 
 8.00000000e-01  3.45548076e-09  4.56660587e-01  3.29721596e-09  4.56660587e-01  4.56660587e-01  4.56660587e-01  3.22969952e-09  1.56785321e-07  8.71108838e-08  8.00000000e-01 
 8.10000000e-01  3.45548076e-09  4.56660598e-01  3.29721596e-09  4.56660598e-01  4.56660598e-01  4.56660598e-01  3.22969952e-09  1.56785342e-07  8.71108483e-08  8.10000000e-01 
 8.20000000e-01  3.45548082e-09  4.56660611e-01  3.29721596e-09  4.56660611e-01  4.56660611e-01  4.56660611e-01  3.22969952e-09  1.56785361e-07  8.71107986e-08  8.20000000e-01 
 8.30000000e-01  3.45548081e-09  4.56660590e-01  3.29721596e-09  4.56660591e-01  4.56660591e-01  4.56660591e-01  3.22969952e-09  1.56785336e-07  8.71107062e-08  8.30000000e-01 
 8.40000000e-01  3.45548081e-09  4.56660589e-01  3.29721596e-09  4.56660589e-01  4.56660589e-01  4.56660589e-01  3.22969952e-09  1.56785327e-07  8.71106423e-08  8.40000000e-01 
 8.50000000e-01  3.45548081e-09  4.56660592e-01  3.29721596e-09  4.56660592e-01  4.56660592e-01  4.56660592e-01  3.22969952e-09  1.56785328e-07  8.71106423e-08  8.50000000e-01 
 8.60000000e-01  3.45548075e-09  4.56660566e-01  3.29721596e-09  4.56660567e-01  4.56660566e-01  4.56660567e-01  3.22969952e-09  1.56785311e-07  8.71104220e-08  8.60000000e-01 
 8.70000000e-01  3.45548081e-09  4.56660568e-01  3.29721596e-09  4.56660568e-01  4.56660568e-01  4.56660568e-01  3.22969952e-09  1.56785296e-07  8.71104291e-08  8.70000000e-01 
 8.80000000e-01  3.45548081e-09  4.56660598e-01  3.29721596e-09  4.56660598e-01  4.56660598e-01  4.56660598e-01  3.22969952e-09  1.56785339e-07  8.71104007e-08  8.80000000e-01 
 8.90000000e-01  3.45548076e-09  4.56660605e-01  3.29721596e-09  4.56660605e-01  4.56660605e-01  4.56660605e-01  3.22969952e-09  1.56785351e-07  8.71102515e-08  8.90000000e-01 
 9.00000000e-01  3.45548076e-09  4.56660594e-01  3.29721596e-09  4.56660594e-01  4.56660594e-01  4.56660594e-01  3.22969952e-09  1.56785327e-07  8.71102941e-08  9.00000000e-01 
 9.10000000e-01  3.45548081e-09  4.56660586e-01  3.29721596e-09  4.56660586e-01  4.56660586e-01  4.56660586e-01  3.22969952e-09  1.56785323e-07  8.71102586e-08  9.10000000e-01 
 9.20000000e-01  3.45548081e-09  4.56660586e-01  3.29721596e-09  4.56660586e-01  4.56660586e-01  4.56660586e-01  3.22969952e-09  1.56785326e-07  8.71100525e-08  9.20000000e-01 
 9.30000000e-01  3.45548075e-09  4.56660578e-01  3.29721596e-09  4.56660578e-01  4.56660578e-01  4.56660578e-01  3.22969952e-09  1.56785300e-07  8.71099743e-08  9.30000000e-01 
 9.40000000e-01  3.45548076e-09  4.56660588e-01  3.29721596e-09  4.56660588e-01  4.56660588e-01  4.56660588e-01  3.22969952e-09  1.56785328e-07  8.71097825e-08  9.40000000e-01 
 9.50000000e-01  3.45548081e-09  4.56660590e-01  3.29721596e-09  4.56660590e-01  4.56660590e-01  4.56660590e-01  3.22969952e-09  1.56785335e-07  8.71098251e-08  9.50000000e-01 
 9.60000000e-01  3.45548081e-09  4.56660571e-01  3.29721596e-09  4.56660571e-01  4.56660571e-01  4.56660571e-01  3.22969952e-09  1.56785297e-07  8.71096475e-08  9.60000000e-01 
 9.70000000e-01  3.45548075e-09  4.56660574e-01  3.29721596e-09  4.56660574e-01  4.56660574e-01  4.56660574e-01  3.22969952e-09  1.56785308e-07  8.71096049e-08  9.70000000e-01 
 9.80000000e-01  3.45548076e-09  4.56660595e-01  3.29721596e-09  4.56660595e-01  4.56660595e-01  4.56660595e-01  3.22969952e-09  1.56785324e-07  8.71095764e-08  9.80000000e-01 
 9.90000000e-01  3.45548076e-09  4.56660600e-01  3.29721596e-09  4.56660600e-01  4.56660600e-01  4.56660600e-01  3.22969952e-09  1.56785331e-07  8.71095409e-08  9.90000000e-01 
 1.00000000e+00  3.45548076e-09  4.56660596e-01  3.29721596e-09  4.56660596e-01  4.56660596e-01  4.56660596e-01  3.22969952e-09  1.56785348e-07  8.71093775e-08  1.00000000e+00 
 1.01000000e+00  3.45548075e-09  4.56660584e-01  3.29721596e-09  4.56660584e-01  4.56660584e-01  4.56660584e-01  3.22969952e-09  1.56785320e-07  8.71093633e-08  1.01000000e+00 
 1.02000000e+00  3.45548076e-09  4.56660604e-01  3.29721596e-09  4.56660604e-01  4.56660604e-01  4.56660604e-01  3.22969952e-09  1.56785357e-07  8.71094699e-08  1.02000000e+00 
 1.03000000e+00  3.45548081e-09  4.56660588e-01  3.29721596e-09  4.56660588e-01  4.56660588e-01  4.56660588e-01  3.22969952e-09  1.56785319e-07  8.71092425e-08  1.03000000e+00 
 1.04000000e+00  3.45548076e-09  4.56660599e-01  3.29721596e-09  4.56660600e-01  4.56660600e-01  4.56660600e-01  3.22969952e-09  1.56785347e-07  8.71091004e-08  1.04000000e+00 
 1.05000000e+00  3.45548081e-09  4.56660596e-01  3.29721596e-09  4.56660596e-01  4.56660596e-01  4.56660596e-01  3.22969952e-09  1.56785323e-07  8.71091075e-08  1.05000000e+00 
 1.06000000e+00  3.45548082e-09  4.56660611e-01  3.29721601e-09  4.56660611e-01  4.56660611e-01  4.56660611e-01  3.22969952e-09  1.56785353e-07  8.71090577e-08  1.06000000e+00 
 1.07000000e+00  3.45548081e-09  4.56660586e-01  3.29721596e-09  4.56660586e-01  4.56660586e-01  4.56660586e-01  3.22969952e-09  1.56785325e-07  8.71088872e-08  1.07000000e+00 
 1.08000000e+00  3.45548081e-09  4.56660566e-01  3.29721596e-09  4.56660566e-01  4.56660566e-01  4.56660566e-01  3.22969952e-09  1.56785283e-07  8.71088801e-08  1.08000000e+00 
 1.09000000e+00  3.45548081e-09  4.56660586e-01  3.29721596e-09  4.56660586e-01  4.56660586e-01  4.56660586e-01  3.22969952e-09  1.56785328e-07  8.71087309e-08  1.09000000e+00 
 1.10000000e+00  3.45548076e-09  4.56660590e-01  3.29721596e-09  4.56660590e-01  4.56660590e-01  4.56660590e-01  3.22969952e-09  1.56785322e-07  8.71086456e-08  1.10000000e+00 
