 v-sweep         v(b0)           v(b1)           v(b2)           v(b3)           v(b4)           v(b5)           v(b6)           i(vbias)        i(viout)        v(vout)        
 0.00000000e+00  4.56599793e-01  4.56599793e-01  4.56599793e-01  4.56599793e-01  3.43920042e-09  3.29746889e-09  4.56599793e-01  1.57151557e-07  1.16577032e-07  0.00000000e+00 
 1.00000000e-02  4.56599802e-01  4.56599801e-01  4.56599801e-01  4.56599801e-01  3.43920044e-09  3.29746886e-09  4.56599801e-01  1.57151597e-07  1.16576530e-07  1.00000000e-02 
 2.00000000e-02  4.56599758e-01  4.56599758e-01  4.56599758e-01  4.56599758e-01  3.43920038e-09  3.29746886e-09  4.56599758e-01  1.57151537e-07  1.16576053e-07  2.00000000e-02 
 3.00000000e-02  4.56599809e-01  4.56599809e-01  4.56599809e-01  4.56599809e-01  3.43920039e-09  3.29746886e-09  4.56599809e-01  1.57151598e-07  1.16575775e-07  3.00000000e-02 
 4.00000000e-02  4.56599784e-01  4.56599784e-01  4.56599784e-01  4.56599784e-01  3.43920044e-09  3.29746892e-09  4.56599784e-01  1.57151566e-07  1.16575517e-07  4.00000000e-02 
 5.00000000e-02  4.56599769e-01  4.56599769e-01  4.56599769e-01  4.56599769e-01  3.43920044e-09  3.29746892e-09  4.56599769e-01  1.57151524e-07  1.16575038e-07  5.00000000e-02 
 6.00000000e-02  4.56599819e-01  4.56599819e-01  4.56599819e-01  4.56599819e-01  3.43920044e-09  3.29746892e-09  4.56599819e-01  1.57151611e-07  1.16574874e-07  6.00000000e-02 
 7.00000000e-02  4.56599801e-01  4.56599801e-01  4.56599801e-01  4.56599801e-01  3.43920044e-09  3.29746892e-09  4.56599801e-01  1.57151585e-07  1.16574509e-07  7.00000000e-02 
 8.00000000e-02  4.56599807e-01  4.56599807e-01  4.56599807e-01  4.56599807e-01  3.43920044e-09  3.29746892e-09  4.56599807e-01  1.57151612e-07  1.16574120e-07  8.00000000e-02 
 9.00000000e-02  4.56599780e-01  4.56599780e-01  4.56599780e-01  4.56599780e-01  3.43920039e-09  3.29746892e-09  4.56599780e-01  1.57151564e-07  1.16573797e-07  9.00000000e-02 
 1.00000000e-01  4.56599809e-01  4.56599809e-01  4.56599809e-01  4.56599809e-01  3.43920039e-09  3.29746892e-09  4.56599809e-01  1.57151604e-07  1.16573606e-07  1.00000000e-01 
 1.10000000e-01  4.56599811e-01  4.56599811e-01  4.56599811e-01  4.56599811e-01  3.43920044e-09  3.29746886e-09  4.56599811e-01  1.57151612e-07  1.16573296e-07  1.10000000e-01 
 1.20000000e-01  4.56599780e-01  4.56599780e-01  4.56599780e-01  4.56599780e-01  3.43920044e-09  3.29746892e-09  4.56599780e-01  1.57151574e-07  1.16572937e-07  1.20000000e-01 
 1.30000000e-01  4.56599783e-01  4.56599783e-01  4.56599783e-01  4.56599783e-01  3.43920044e-09  3.29746892e-09  4.56599783e-01  1.57151558e-07  1.16572722e-07  1.30000000e-01 
 1.40000000e-01  4.56599803e-01  4.56599803e-01  4.56599803e-01  4.56599803e-01  3.43920044e-09  3.29746892e-09  4.56599803e-01  1.57151574e-07  1.16572624e-07  1.40000000e-01 
 1.50000000e-01  4.56599788e-01  4.56599788e-01  4.56599788e-01  4.56599788e-01  3.43920044e-09  3.29746886e-09  4.56599788e-01  1.57151562e-07  1.16572245e-07  1.50000000e-01 
 1.60000000e-01  4.56599818e-01  4.56599818e-01  4.56599818e-01  4.56599818e-01  3.43920044e-09  3.29746892e-09  4.56599818e-01  1.57151618e-07  1.16572261e-07  1.60000000e-01 
 1.70000000e-01  4.56599800e-01  4.56599800e-01  4.56599800e-01  4.56599800e-01  3.43920044e-09  3.29746892e-09  4.56599800e-01  1.57151599e-07  1.16571915e-07  1.70000000e-01 
 1.80000000e-01  4.56599792e-01  4.56599792e-01  4.56599792e-01  4.56599792e-01  3.43920044e-09  3.29746892e-09  4.56599792e-01  1.57151579e-07  1.16571725e-07  1.80000000e-01 
 1.90000000e-01  4.56599778e-01  4.56599778e-01  4.56599778e-01  4.56599778e-01  3.43920039e-09  3.29746892e-09  4.56599778e-01  1.57151553e-07  1.16571492e-07  1.90000000e-01 
 2.00000000e-01  4.56599786e-01  4.56599786e-01  4.56599786e-01  4.56599786e-01  3.43920044e-09  3.29746892e-09  4.56599786e-01  1.57151559e-07  1.16571368e-07  2.00000000e-01 
 2.10000000e-01  4.56599781e-01  4.56599781e-01  4.56599781e-01  4.56599781e-01  3.43920044e-09  3.29746892e-09  4.56599781e-01  1.57151563e-07  1.16571149e-07  2.10000000e-01 
 2.20000000e-01  4.56599808e-01  4.56599807e-01  4.56599807e-01  4.56599807e-01  3.43920044e-09  3.29746892e-09  4.56599807e-01  1.57151595e-07  1.16571101e-07  2.20000000e-01 
 2.30000000e-01  4.56599791e-01  4.56599791e-01  4.56599791e-01  4.56599791e-01  3.43920044e-09  3.29746892e-09  4.56599791e-01  1.57151574e-07  1.16570838e-07  2.30000000e-01 
 2.40000000e-01  4.56599791e-01  4.56599791e-01  4.56599791e-01  4.56599791e-01  3.43920039e-09  3.29746886e-09  4.56599791e-01  1.57151570e-07  1.16570652e-07  2.40000000e-01 
 2.50000000e-01  4.56599770e-01  4.56599770e-01  4.56599770e-01  4.56599770e-01  3.43920044e-09  3.29746892e-09  4.56599770e-01  1.57151564e-07  1.16570499e-07  2.50000000e-01 
 2.60000000e-01  4.56599784e-01  4.56599784e-01  4.56599784e-01  4.56599784e-01  3.43920044e-09  3.29746892e-09  4.56599784e-01  1.57151557e-07  1.16570453e-07  2.60000000e-01 
 2.70000000e-01  4.56599806e-01  4.56599806e-01  4.56599806e-01  4.56599806e-01  3.43920044e-09  3.29746892e-09  4.56599806e-01  1.57151602e-07  1.16570270e-07  2.70000000e-01 
 2.80000000e-01  4.56599777e-01  4.56599777e-01  4.56599777e-01  4.56599777e-01  3.43920044e-09  3.29746886e-09  4.56599777e-01  1.57151563e-07  1.16570062e-07  2.80000000e-01 
 2.90000000e-01  4.56599789e-01  4.56599789e-01  4.56599789e-01  4.56599789e-01  3.43920044e-09  3.29746892e-09  4.56599789e-01  1.57151566e-07  1.16570039e-07  2.90000000e-01 
 3.00000000e-01  4.56599779e-01  4.56599779e-01  4.56599779e-01  4.56599779e-01  3.43920044e-09  3.29746892e-09  4.56599779e-01  1.57151551e-07  1.16569822e-07  3.00000000e-01 
 3.10000000e-01  4.56599782e-01  4.56599782e-01  4.56599782e-01  4.56599782e-01  3.43920039e-09  3.29746892e-09  4.56599782e-01  1.57151565e-07  1.16569723e-07  3.10000000e-01 
 3.20000000e-01  4.56599786e-01  4.56599786e-01  4.56599786e-01  4.56599786e-01  3.43920039e-09  3.29746892e-09  4.56599786e-01  1.57151568e-07  1.16569641e-07  3.20000000e-01 
 3.30000000e-01  4.56599774e-01  4.56599773e-01  4.56599773e-01  4.56599773e-01  3.43920039e-09  3.29746892e-09  4.56599773e-01  1.57151550e-07  1.16569488e-07  3.30000000e-01 
 3.40000000e-01  4.56599771e-01  4.56599771e-01  4.56599771e-01  4.56599771e-01  3.43920038e-09  3.29746892e-09  4.56599771e-01  1.57151527e-07  1.16569346e-07  3.40000000e-01 
 3.50000000e-01  4.56599785e-01  4.56599785e-01  4.56599785e-01  4.56599785e-01  3.43920039e-09  3.29746892e-09  4.56599785e-01  1.57151560e-07  1.16569286e-07  3.50000000e-01 
 3.60000000e-01  4.56599774e-01  4.56599774e-01  4.56599774e-01  4.56599774e-01  3.43920044e-09  3.29746892e-09  4.56599774e-01  1.57151542e-07  1.16569158e-07  3.60000000e-01 
 3.70000000e-01  4.56599772e-01  4.56599772e-01  4.56599772e-01  4.56599772e-01  3.43920044e-09  3.29746892e-09  4.56599772e-01  1.57151532e-07  1.16569051e-07  3.70000000e-01 
 3.80000000e-01  4.56599780e-01  4.56599780e-01  4.56599780e-01  4.56599780e-01  3.43920039e-09  3.29746886e-09  4.56599780e-01  1.57151550e-07  1.16568959e-07  3.80000000e-01 
 3.90000000e-01  4.56599806e-01  4.56599806e-01  4.56599806e-01  4.56599806e-01  3.43920044e-09  3.29746886e-09  4.56599806e-01  1.57151600e-07  1.16569030e-07  3.90000000e-01 
 4.00000000e-01  4.56599799e-01  4.56599799e-01  4.56599799e-01  4.56599799e-01  3.43920044e-09  3.29746886e-09  4.56599799e-01  1.57151585e-07  1.16568909e-07  4.00000000e-01 
 4.10000000e-01  4.56599813e-01  4.56599813e-01  4.56599813e-01  4.56599813e-01  3.43920039e-09  3.29746886e-09  4.56599813e-01  1.57151594e-07  1.16568824e-07  4.10000000e-01 
 4.20000000e-01  4.56599796e-01  4.56599795e-01  4.56599795e-01  4.56599795e-01  3.43920039e-09  3.29746892e-09  4.56599795e-01  1.57151592e-07  1.16568621e-07  4.20000000e-01 
 4.30000000e-01  4.56599807e-01  4.56599807e-01  4.56599807e-01  4.56599807e-01  3.43920044e-09  3.29746892e-09  4.56599807e-01  1.57151598e-07  1.16568508e-07  4.30000000e-01 
 4.40000000e-01  4.56599763e-01  4.56599763e-01  4.56599763e-01  4.56599763e-01  3.43920038e-09  3.29746892e-09  4.56599763e-01  1.57151549e-07  1.16568344e-07  4.40000000e-01 
 4.50000000e-01  4.56599837e-01  4.56599837e-01  4.56599837e-01  4.56599837e-01  3.43920045e-09  3.29746886e-09  4.56599837e-01  1.57151643e-07  1.16568525e-07  4.50000000e-01 
 4.60000000e-01  4.56599785e-01  4.56599785e-01  4.56599785e-01  4.56599785e-01  3.43920044e-09  3.29746886e-09  4.56599785e-01  1.57151577e-07  1.16568263e-07  4.60000000e-01 
 4.70000000e-01  4.56599803e-01  4.56599803e-01  4.56599803e-01  4.56599803e-01  3.43920044e-09  3.29746892e-09  4.56599803e-01  1.57151587e-07  1.16568177e-07  4.70000000e-01 
 4.80000000e-01  4.56599783e-01  4.56599783e-01  4.56599783e-01  4.56599783e-01  3.43920039e-09  3.29746886e-09  4.56599783e-01  1.57151563e-07  1.16568099e-07  4.80000000e-01 
 4.90000000e-01  4.56599778e-01  4.56599778e-01  4.56599778e-01  4.56599778e-01  3.43920044e-09  3.29746886e-09  4.56599778e-01  1.57151539e-07  1.16568000e-07  4.90000000e-01 
 5.00000000e-01  4.56599804e-01  4.56599804e-01  4.56599804e-01  4.56599804e-01  3.43920044e-09  3.29746892e-09  4.56599804e-01  1.57151593e-07  1.16567872e-07  5.00000000e-01 
 5.10000000e-01  4.56599812e-01  4.56599812e-01  4.56599812e-01  4.56599812e-01  3.43920039e-09  3.29746892e-09  4.56599812e-01  1.57151610e-07  1.16568003e-07  5.10000000e-01 
 5.20000000e-01  4.56599786e-01  4.56599786e-01  4.56599786e-01  4.56599786e-01  3.43920044e-09  3.29746886e-09  4.56599786e-01  1.57151561e-07  1.16567772e-07  5.20000000e-01 
 5.30000000e-01  4.56599802e-01  4.56599802e-01  4.56599802e-01  4.56599802e-01  3.43920039e-09  3.29746892e-09  4.56599802e-01  1.57151586e-07  1.16567726e-07  5.30000000e-01 
 5.40000000e-01  4.56599768e-01  4.56599767e-01  4.56599767e-01  4.56599767e-01  3.43920044e-09  3.29746892e-09  4.56599767e-01  1.57151547e-07  1.16567449e-07  5.40000000e-01 
 5.50000000e-01  4.56599803e-01  4.56599803e-01  4.56599803e-01  4.56599803e-01  3.43920039e-09  3.29746892e-09  4.56599803e-01  1.57151590e-07  1.16567424e-07  5.50000000e-01 
 5.60000000e-01  4.56599795e-01  4.56599795e-01  4.56599795e-01  4.56599795e-01  3.43920039e-09  3.29746892e-09  4.56599795e-01  1.57151570e-07  1.16567314e-07  5.60000000e-01 
 5.70000000e-01  4.56599779e-01  4.56599779e-01  4.56599779e-01  4.56599779e-01  3.43920039e-09  3.29746886e-09  4.56599779e-01  1.57151556e-07  1.16567193e-07  5.70000000e-01 
 5.80000000e-01  4.56599777e-01  4.56599777e-01  4.56599777e-01  4.56599777e-01  3.43920044e-09  3.29746892e-09  4.56599777e-01  1.57151542e-07  1.16567193e-07  5.80000000e-01 
 5.90000000e-01  4.56599784e-01  4.56599784e-01  4.56599784e-01  4.56599784e-01  3.43920044e-09  3.29746892e-09  4.56599784e-01  1.57151567e-07  1.16567179e-07  5.90000000e-01 
 6.00000000e-01  4.56599789e-01  4.56599789e-01  4.56599789e-01  4.56599789e-01  3.43920039e-09  3.29746892e-09  4.56599789e-01  1.57151581e-07  1.16567016e-07  6.00000000e-01 
 6.10000000e-01  4.56599828e-01  4.56599828e-01  4.56599828e-01  4.56599828e-01  3.43920039e-09  3.29746892e-09  4.56599828e-01  1.57151639e-07  1.16567108e-07  6.10000000e-01 
 6.20000000e-01  4.56599813e-01  4.56599813e-01  4.56599813e-01  4.56599813e-01  3.43920044e-09  3.29746892e-09  4.56599813e-01  1.57151607e-07  1.16567001e-07  6.20000000e-01 
 6.30000000e-01  4.56599821e-01  4.56599821e-01  4.56599821e-01  4.56599821e-01  3.43920044e-09  3.29746892e-09  4.56599821e-01  1.57151617e-07  1.16566994e-07  6.30000000e-01 
 6.40000000e-01  4.56599788e-01  4.56599788e-01  4.56599788e-01  4.56599788e-01  3.43920044e-09  3.29746886e-09  4.56599788e-01  1.57151571e-07  1.16566866e-07  6.40000000e-01 
 6.50000000e-01  4.56599788e-01  4.56599788e-01  4.56599788e-01  4.56599788e-01  3.43920044e-09  3.29746886e-09  4.56599788e-01  1.57151560e-07  1.16566682e-07  6.50000000e-01 
 6.60000000e-01  4.56599806e-01  4.56599805e-01  4.56599806e-01  4.56599805e-01  3.43920044e-09  3.29746892e-09  4.56599805e-01  1.57151607e-07  1.16566710e-07  6.60000000e-01 
 6.70000000e-01  4.56599765e-01  4.56599765e-01  4.56599765e-01  4.56599765e-01  3.43920044e-09  3.29746886e-09  4.56599765e-01  1.57151540e-07  1.16566483e-07  6.70000000e-01 
 6.80000000e-01  4.56599773e-01  4.56599773e-01  4.56599773e-01  4.56599773e-01  3.43920044e-09  3.29746892e-09  4.56599773e-01  1.57151537e-07  1.16566461e-07  6.80000000e-01 
 6.90000000e-01  4.56599765e-01  4.56599765e-01  4.56599765e-01  4.56599765e-01  3.43920044e-09  3.29746886e-09  4.56599765e-01  1.57151538e-07  1.16566277e-07  6.90000000e-01 
 7.00000000e-01  4.56599778e-01  4.56599777e-01  4.56599777e-01  4.56599777e-01  3.43920044e-09  3.29746892e-09  4.56599777e-01  1.57151543e-07  1.16566319e-07  7.00000000e-01 
 7.10000000e-01  4.56599813e-01  4.56599813e-01  4.56599813e-01  4.56599813e-01  3.43920044e-09  3.29746892e-09  4.56599813e-01  1.57151600e-07  1.16566319e-07  7.10000000e-01 
 7.20000000e-01  4.56599804e-01  4.56599804e-01  4.56599804e-01  4.56599804e-01  3.43920044e-09  3.29746892e-09  4.56599804e-01  1.57151595e-07  1.16566241e-07  7.20000000e-01 
 7.30000000e-01  4.56599790e-01  4.56599790e-01  4.56599790e-01  4.56599790e-01  3.43920044e-09  3.29746892e-09  4.56599790e-01  1.57151569e-07  1.16566184e-07  7.30000000e-01 
 7.40000000e-01  4.56599797e-01  4.56599796e-01  4.56599796e-01  4.56599796e-01  3.43920044e-09  3.29746892e-09  4.56599796e-01  1.57151574e-07  1.16566000e-07  7.40000000e-01 
 7.50000000e-01  4.56599783e-01  4.56599783e-01  4.56599783e-01  4.56599782e-01  3.43920039e-09  3.29746892e-09  4.56599783e-01  1.57151580e-07  1.16565836e-07  7.50000000e-01 
 7.60000000e-01  4.56599776e-01  4.56599776e-01  4.56599776e-01  4.56599776e-01  3.43920044e-09  3.29746892e-09  4.56599776e-01  1.57151535e-07  1.16565865e-07  7.60000000e-01 
 7.70000000e-01  4.56599787e-01  4.56599787e-01  4.56599787e-01  4.56599787e-01  3.43920044e-09  3.29746886e-09  4.56599787e-01  1.57151574e-07  1.16565772e-07  7.70000000e-01 
 7.80000000e-01  4.56599774e-01  4.56599774e-01  4.56599774e-01  4.56599774e-01  3.43920044e-09  3.29746886e-09  4.56599774e-01  1.57151547e-07  1.16565708e-07  7.80000000e-01 
 7.90000000e-01  4.56599771e-01  4.56599771e-01  4.56599771e-01  4.56599771e-01  3.43920038e-09  3.29746892e-09  4.56599771e-01  1.57151534e-07  1.16565630e-07  7.90000000e-01 
 8.00000000e-01  4.56599789e-01  4.56599789e-01  4.56599789e-01  4.56599789e-01  3.43920044e-09  3.29746892e-09  4.56599789e-01  1.57151568e-07  1.16565509e-07  8.00000000e-01 
 8.10000000e-01  4.56599795e-01  4.56599795e-01  4.56599795e-01  4.56599795e-01  3.43920044e-09  3.29746892e-09  4.56599795e-01  1.57151581e-07  1.16565339e-07  8.10000000e-01 
 8.20000000e-01  4.56599780e-01  4.56599780e-01  4.56599780e-01  4.56599780e-01  3.43920044e-09  3.29746892e-09  4.56599780e-01  1.57151560e-07  1.16565303e-07  8.20000000e-01 
 8.30000000e-01  4.56599786e-01  4.56599786e-01  4.56599786e-01  4.56599786e-01  3.43920039e-09  3.29746886e-09  4.56599786e-01  1.57151550e-07  1.16565253e-07  8.30000000e-01 
 8.40000000e-01  4.56599805e-01  4.56599805e-01  4.56599805e-01  4.56599805e-01  3.43920044e-09  3.29746886e-09  4.56599805e-01  1.57151596e-07  1.16565303e-07  8.40000000e-01 
 8.50000000e-01  4.56599779e-01  4.56599779e-01  4.56599779e-01  4.56599779e-01  3.43920044e-09  3.29746892e-09  4.56599779e-01  1.57151567e-07  1.16565097e-07  8.50000000e-01 
 8.60000000e-01  4.56599812e-01  4.56599812e-01  4.56599812e-01  4.56599812e-01  3.43920044e-09  3.29746886e-09  4.56599812e-01  1.57151589e-07  1.16565126e-07  8.60000000e-01 
 8.70000000e-01  4.56599789e-01  4.56599789e-01  4.56599789e-01  4.56599789e-01  3.43920039e-09  3.29746886e-09  4.56599789e-01  1.57151563e-07  1.16564998e-07  8.70000000e-01 
 8.80000000e-01  4.56599788e-01  4.56599788e-01  4.56599788e-01  4.56599788e-01  3.43920044e-09  3.29746892e-09  4.56599788e-01  1.57151578e-07  1.16564756e-07  8.80000000e-01 
 8.90000000e-01  4.56599782e-01  4.56599782e-01  4.56599782e-01  4.56599782e-01  3.43920039e-09  3.29746892e-09  4.56599782e-01  1.57151556e-07  1.16564799e-07  8.90000000e-01 
 9.00000000e-01  4.56599783e-01  4.56599783e-01  4.56599783e-01  4.56599783e-01  3.43920044e-09  3.29746892e-09  4.56599783e-01  1.57151565e-07  1.16564685e-07  9.00000000e-01 
 9.10000000e-01  4.56599774e-01  4.56599774e-01  4.56599774e-01  4.56599774e-01  3.43920044e-09  3.29746892e-09  4.56599774e-01  1.57151540e-07  1.16564593e-07  9.10000000e-01 
 9.20000000e-01  4.56599792e-01  4.56599792e-01  4.56599792e-01  4.56599792e-01  3.43920044e-09  3.29746892e-09  4.56599792e-01  1.57151563e-07  1.16564451e-07  9.20000000e-01 
 9.30000000e-01  4.56599778e-01  4.56599778e-01  4.56599778e-01  4.56599778e-01  3.43920039e-09  3.29746886e-09  4.56599778e-01  1.57151567e-07  1.16564600e-07  9.30000000e-01 
 9.40000000e-01  4.56599766e-01  4.56599766e-01  4.56599766e-01  4.56599766e-01  3.43920044e-09  3.29746892e-09  4.56599766e-01  1.57151532e-07  1.16564181e-07  9.40000000e-01 
 9.50000000e-01  4.56599816e-01  4.56599816e-01  4.56599816e-01  4.56599816e-01  3.43920044e-09  3.29746892e-09  4.56599816e-01  1.57151619e-07  1.16564287e-07  9.50000000e-01 
 9.60000000e-01  4.56599805e-01  4.56599805e-01  4.56599805e-01  4.56599805e-01  3.43920044e-09  3.29746886e-09  4.56599805e-01  1.57151590e-07  1.16564244e-07  9.60000000e-01 
 9.70000000e-01  4.56599805e-01  4.56599805e-01  4.56599805e-01  4.56599805e-01  3.43920044e-09  3.29746886e-09  4.56599805e-01  1.57151596e-07  1.16564031e-07  9.70000000e-01 
 9.80000000e-01  4.56599794e-01  4.56599794e-01  4.56599794e-01  4.56599794e-01  3.43920044e-09  3.29746886e-09  4.56599794e-01  1.57151588e-07  1.16563982e-07  9.80000000e-01 
 9.90000000e-01  4.56599775e-01  4.56599775e-01  4.56599775e-01  4.56599775e-01  3.43920039e-09  3.29746892e-09  4.56599775e-01  1.57151541e-07  1.16563768e-07  9.90000000e-01 
 1.00000000e+00  4.56599802e-01  4.56599802e-01  4.56599802e-01  4.56599802e-01  3.43920044e-09  3.29746892e-09  4.56599802e-01  1.57151578e-07  1.16563832e-07  1.00000000e+00 
 1.01000000e+00  4.56599788e-01  4.56599788e-01  4.56599788e-01  4.56599788e-01  3.43920044e-09  3.29746892e-09  4.56599788e-01  1.57151569e-07  1.16563733e-07  1.01000000e+00 
 1.02000000e+00  4.56599778e-01  4.56599778e-01  4.56599778e-01  4.56599778e-01  3.43920044e-09  3.29746892e-09  4.56599778e-01  1.57151550e-07  1.16563562e-07  1.02000000e+00 
 1.03000000e+00  4.56599790e-01  4.56599790e-01  4.56599790e-01  4.56599789e-01  3.43920044e-09  3.29746892e-09  4.56599790e-01  1.57151572e-07  1.16563520e-07  1.03000000e+00 
 1.04000000e+00  4.56599793e-01  4.56599793e-01  4.56599793e-01  4.56599793e-01  3.43920044e-09  3.29746886e-09  4.56599793e-01  1.57151578e-07  1.16563406e-07  1.04000000e+00 
 1.05000000e+00  4.56599800e-01  4.56599800e-01  4.56599800e-01  4.56599800e-01  3.43920039e-09  3.29746892e-09  4.56599800e-01  1.57151587e-07  1.16563420e-07  1.05000000e+00 
 1.06000000e+00  4.56599788e-01  4.56599788e-01  4.56599788e-01  4.56599788e-01  3.43920044e-09  3.29746892e-09  4.56599788e-01  1.57151575e-07  1.16563257e-07  1.06000000e+00 
 1.07000000e+00  4.56599789e-01  4.56599789e-01  4.56599789e-01  4.56599789e-01  3.43920044e-09  3.29746892e-09  4.56599789e-01  1.57151569e-07  1.16563051e-07  1.07000000e+00 
 1.08000000e+00  4.56599782e-01  4.56599782e-01  4.56599782e-01  4.56599782e-01  3.43920044e-09  3.29746886e-09  4.56599782e-01  1.57151561e-07  1.16563008e-07  1.08000000e+00 
 1.09000000e+00  4.56599792e-01  4.56599792e-01  4.56599792e-01  4.56599792e-01  3.43920039e-09  3.29746886e-09  4.56599792e-01  1.57151573e-07  1.16562980e-07  1.09000000e+00 
 1.10000000e+00  4.56599806e-01  4.56599806e-01  4.56599806e-01  4.56599805e-01  3.43920044e-09  3.29746892e-09  4.56599806e-01  1.57151602e-07  1.16562788e-07  1.10000000e+00 
