 v-sweep         v(b0)           v(b1)           v(b2)           v(b3)           v(b4)           v(b5)           v(b6)           i(vbias)        i(viout)        v(vout)        
 0.00000000e+00  3.55091444e-09  3.14814192e-09  4.57827029e-01  3.30882425e-09  4.57827029e-01  3.52551044e-09  3.34274832e-09  1.58144993e-07  3.04514875e-08  0.00000000e+00 
 1.00000000e-02  3.55091441e-09  3.14814189e-09  4.57827016e-01  3.30882429e-09  4.57827016e-01  3.52551041e-09  3.34274830e-09  1.58144981e-07  3.04511842e-08  1.00000000e-02 
 2.00000000e-02  3.55091436e-09  3.14814189e-09  4.57827026e-01  3.30882429e-09  4.57827026e-01  3.52551041e-09  3.34274831e-09  1.58144986e-07  3.04508301e-08  2.00000000e-02 
 3.00000000e-02  3.55091442e-09  3.14814189e-09  4.57827023e-01  3.30882424e-09  4.57827023e-01  3.52551041e-09  3.34274830e-09  1.58144988e-07  3.04504391e-08  3.00000000e-02 
 4.00000000e-02  3.55091441e-09  3.14814184e-09  4.57827013e-01  3.30882424e-09  4.57827013e-01  3.52551041e-09  3.34274830e-09  1.58144971e-07  3.04499972e-08  4.00000000e-02 
 5.00000000e-02  3.55091436e-09  3.14814191e-09  4.57827021e-01  3.30882424e-09  4.57827021e-01  3.52551041e-09  3.34274830e-09  1.58144994e-07  3.04497241e-08  5.00000000e-02 
 6.00000000e-02  3.55091437e-09  3.14814189e-09  4.57827021e-01  3.30882424e-09  4.57827021e-01  3.52551041e-09  3.34274830e-09  1.58144992e-07  3.04494452e-08  6.00000000e-02 
 7.00000000e-02  3.55091442e-09  3.14814189e-09  4.57827012e-01  3.30882424e-09  4.57827012e-01  3.52551041e-09  3.34274830e-09  1.58144961e-07  3.04491663e-08  7.00000000e-02 
 8.00000000e-02  3.55091441e-09  3.14814184e-09  4.57827028e-01  3.30882424e-09  4.57827028e-01  3.52551041e-09  3.34274831e-09  1.58144988e-07  3.04489269e-08  8.00000000e-02 
 9.00000000e-02  3.55091435e-09  3.14814185e-09  4.57827016e-01  3.30882429e-09  4.57827016e-01  3.52551041e-09  3.34274830e-09  1.58144973e-07  3.04485059e-08  9.00000000e-02 
 1.00000000e-01  3.55091437e-09  3.14814184e-09  4.57827015e-01  3.30882429e-09  4.57827014e-01  3.52551041e-09  3.34274830e-09  1.58144973e-07  3.04482253e-08  1.00000000e-01 
 1.10000000e-01  3.55091436e-09  3.14814190e-09  4.57827013e-01  3.30882429e-09  4.57827013e-01  3.52551041e-09  3.34274836e-09  1.58144977e-07  3.04481613e-08  1.10000000e-01 
 1.20000000e-01  3.55091442e-09  3.14814189e-09  4.57827025e-01  3.30882429e-09  4.57827025e-01  3.52551041e-09  3.34274830e-09  1.58144985e-07  3.04478309e-08  1.20000000e-01 
 1.30000000e-01  3.55091441e-09  3.14814190e-09  4.57827032e-01  3.30882429e-09  4.57827032e-01  3.52551041e-09  3.34274831e-09  1.58144997e-07  3.04477110e-08  1.30000000e-01 
 1.40000000e-01  3.55091441e-09  3.14814190e-09  4.57827040e-01  3.30882429e-09  4.57827040e-01  3.52551041e-09  3.34274831e-09  1.58145010e-07  3.04474872e-08  1.40000000e-01 
 1.50000000e-01  3.55091441e-09  3.14814189e-09  4.57827012e-01  3.30882429e-09  4.57827012e-01  3.52551041e-09  3.34274830e-09  1.58144976e-07  3.04471115e-08  1.50000000e-01 
 1.60000000e-01  3.55091436e-09  3.14814189e-09  4.57827020e-01  3.30882429e-09  4.57827020e-01  3.52551041e-09  3.34274830e-09  1.58144990e-07  3.04469605e-08  1.60000000e-01 
 1.70000000e-01  3.55091437e-09  3.14814189e-09  4.57827026e-01  3.30882429e-09  4.57827026e-01  3.52551041e-09  3.34274831e-09  1.58144985e-07  3.04467118e-08  1.70000000e-01 
 1.80000000e-01  3.55091436e-09  3.14814190e-09  4.57827036e-01  3.30882429e-09  4.57827036e-01  3.52551041e-09  3.34274831e-09  1.58145016e-07  3.04466674e-08  1.80000000e-01 
 1.90000000e-01  3.55091436e-09  3.14814189e-09  4.57827009e-01  3.30882424e-09  4.57827009e-01  3.52551041e-09  3.34274830e-09  1.58144958e-07  3.04464560e-08  1.90000000e-01 
 2.00000000e-01  3.55091436e-09  3.14814189e-09  4.57827024e-01  3.30882429e-09  4.57827024e-01  3.52551041e-09  3.34274830e-09  1.58144981e-07  3.04462890e-08  2.00000000e-01 
 2.10000000e-01  3.55091436e-09  3.14814189e-09  4.57827017e-01  3.30882429e-09  4.57827017e-01  3.52551047e-09  3.34274830e-09  1.58144977e-07  3.04462020e-08  2.10000000e-01 
 2.20000000e-01  3.55091436e-09  3.14814189e-09  4.57827028e-01  3.30882424e-09  4.57827028e-01  3.52551041e-09  3.34274831e-09  1.58144992e-07  3.04459835e-08  2.20000000e-01 
 2.30000000e-01  3.55091436e-09  3.14814189e-09  4.57827029e-01  3.30882429e-09  4.57827029e-01  3.52551041e-09  3.34274831e-09  1.58144985e-07  3.04458574e-08  2.30000000e-01 
 2.40000000e-01  3.55091436e-09  3.14814184e-09  4.57827011e-01  3.30882429e-09  4.57827011e-01  3.52551041e-09  3.34274830e-09  1.58144956e-07  3.04457668e-08  2.40000000e-01 
 2.50000000e-01  3.55091436e-09  3.14814191e-09  4.57827042e-01  3.30882429e-09  4.57827042e-01  3.52551041e-09  3.34274831e-09  1.58145010e-07  3.04457419e-08  2.50000000e-01 
 2.60000000e-01  3.55091436e-09  3.14814189e-09  4.57827009e-01  3.30882429e-09  4.57827009e-01  3.52551041e-09  3.34274830e-09  1.58144977e-07  3.04455785e-08  2.60000000e-01 
 2.70000000e-01  3.55091436e-09  3.14814184e-09  4.57827015e-01  3.30882429e-09  4.57827015e-01  3.52551041e-09  3.34274830e-09  1.58144972e-07  3.04453831e-08  2.70000000e-01 
 2.80000000e-01  3.55091442e-09  3.14814185e-09  4.57827034e-01  3.30882424e-09  4.57827034e-01  3.52551041e-09  3.34274831e-09  1.58144999e-07  3.04453085e-08  2.80000000e-01 
 2.90000000e-01  3.55091441e-09  3.14814184e-09  4.57827027e-01  3.30882429e-09  4.57827027e-01  3.52551041e-09  3.34274831e-09  1.58144992e-07  3.04451753e-08  2.90000000e-01 
 3.00000000e-01  3.55091441e-09  3.14814190e-09  4.57827020e-01  3.30882424e-09  4.57827020e-01  3.52551041e-09  3.34274830e-09  1.58144977e-07  3.04450971e-08  3.00000000e-01 
 3.10000000e-01  3.55091441e-09  3.14814189e-09  4.57827008e-01  3.30882423e-09  4.57827008e-01  3.52551041e-09  3.34274830e-09  1.58144959e-07  3.04450296e-08  3.10000000e-01 
 3.20000000e-01  3.55091436e-09  3.14814190e-09  4.57827030e-01  3.30882429e-09  4.57827030e-01  3.52551041e-09  3.34274831e-09  1.58145004e-07  3.04448449e-08  3.20000000e-01 
 3.30000000e-01  3.55091437e-09  3.14814189e-09  4.57827021e-01  3.30882424e-09  4.57827021e-01  3.52551041e-09  3.34274830e-09  1.58144974e-07  3.04447774e-08  3.30000000e-01 
 3.40000000e-01  3.55091436e-09  3.14814189e-09  4.57827024e-01  3.30882429e-09  4.57827024e-01  3.52551041e-09  3.34274830e-09  1.58144980e-07  3.04447383e-08  3.40000000e-01 
 3.50000000e-01  3.55091442e-09  3.14814189e-09  4.57827008e-01  3.30882423e-09  4.57827008e-01  3.52551041e-09  3.34274830e-09  1.58144952e-07  3.04445393e-08  3.50000000e-01 
 3.60000000e-01  3.55091435e-09  3.14814190e-09  4.57827043e-01  3.30882424e-09  4.57827043e-01  3.52551041e-09  3.34274831e-09  1.58145036e-07  3.04445855e-08  3.60000000e-01 
 3.70000000e-01  3.55091437e-09  3.14814189e-09  4.57827016e-01  3.30882429e-09  4.57827016e-01  3.52551041e-09  3.34274830e-09  1.58144975e-07  3.04444612e-08  3.70000000e-01 
 3.80000000e-01  3.55091442e-09  3.14814184e-09  4.57827029e-01  3.30882424e-09  4.57827028e-01  3.52551041e-09  3.34274831e-09  1.58144998e-07  3.04443191e-08  3.80000000e-01 
 3.90000000e-01  3.55091435e-09  3.14814185e-09  4.57827023e-01  3.30882429e-09  4.57827023e-01  3.52551041e-09  3.34274830e-09  1.58144987e-07  3.04442622e-08  3.90000000e-01 
 4.00000000e-01  3.55091442e-09  3.14814184e-09  4.57827015e-01  3.30882429e-09  4.57827015e-01  3.52551041e-09  3.34274830e-09  1.58144971e-07  3.04443013e-08  4.00000000e-01 
 4.10000000e-01  3.55091441e-09  3.14814184e-09  4.57827019e-01  3.30882429e-09  4.57827019e-01  3.52551041e-09  3.34274830e-09  1.58144978e-07  3.04441983e-08  4.10000000e-01 
 4.20000000e-01  3.55091436e-09  3.14814190e-09  4.57827020e-01  3.30882429e-09  4.57827020e-01  3.52551041e-09  3.34274830e-09  1.58144983e-07  3.04441024e-08  4.20000000e-01 
 4.30000000e-01  3.55091443e-09  3.14814183e-09  4.57827033e-01  3.30882424e-09  4.57827032e-01  3.52551041e-09  3.34274831e-09  1.58145000e-07  3.04440348e-08  4.30000000e-01 
 4.40000000e-01  3.55091441e-09  3.14814191e-09  4.57827006e-01  3.30882429e-09  4.57827005e-01  3.52551041e-09  3.34274830e-09  1.58144969e-07  3.04439283e-08  4.40000000e-01 
 4.50000000e-01  3.55091441e-09  3.14814189e-09  4.57827036e-01  3.30882429e-09  4.57827036e-01  3.52551041e-09  3.34274831e-09  1.58144995e-07  3.04439389e-08  4.50000000e-01 
 4.60000000e-01  3.55091441e-09  3.14814189e-09  4.57827014e-01  3.30882429e-09  4.57827014e-01  3.52551041e-09  3.34274830e-09  1.58144982e-07  3.04439247e-08  4.60000000e-01 
 4.70000000e-01  3.55091441e-09  3.14814189e-09  4.57827003e-01  3.30882423e-09  4.57827003e-01  3.52551041e-09  3.34274830e-09  1.58144948e-07  3.04438679e-08  4.70000000e-01 
 4.80000000e-01  3.55091435e-09  3.14814189e-09  4.57827013e-01  3.30882429e-09  4.57827013e-01  3.52551041e-09  3.34274830e-09  1.58144978e-07  3.04437222e-08  4.80000000e-01 
 4.90000000e-01  3.55091443e-09  3.14814190e-09  4.57827031e-01  3.30882429e-09  4.57827031e-01  3.52551041e-09  3.34274831e-09  1.58145003e-07  3.04435943e-08  4.90000000e-01 
 5.00000000e-01  3.55091435e-09  3.14814189e-09  4.57827005e-01  3.30882429e-09  4.57827005e-01  3.52551041e-09  3.34274830e-09  1.58144965e-07  3.04434842e-08  5.00000000e-01 
 5.10000000e-01  3.55091442e-09  3.14814189e-09  4.57827029e-01  3.30882429e-09  4.57827029e-01  3.52551041e-09  3.34274831e-09  1.58145000e-07  3.04435019e-08  5.10000000e-01 
 5.20000000e-01  3.55091435e-09  3.14814189e-09  4.57827021e-01  3.30882429e-09  4.57827020e-01  3.52551047e-09  3.34274830e-09  1.58144981e-07  3.04435019e-08  5.20000000e-01 
 5.30000000e-01  3.55091437e-09  3.14814184e-09  4.57827005e-01  3.30882429e-09  4.57827005e-01  3.52551041e-09  3.34274830e-09  1.58144952e-07  3.04433172e-08  5.30000000e-01 
 5.40000000e-01  3.55091442e-09  3.14814185e-09  4.57827025e-01  3.30882429e-09  4.57827025e-01  3.52551047e-09  3.34274830e-09  1.58144994e-07  3.04433811e-08  5.40000000e-01 
 5.50000000e-01  3.55091441e-09  3.14814190e-09  4.57827009e-01  3.30882429e-09  4.57827009e-01  3.52551041e-09  3.34274830e-09  1.58144965e-07  3.04432994e-08  5.50000000e-01 
 5.60000000e-01  3.55091441e-09  3.14814189e-09  4.57827027e-01  3.30882424e-09  4.57827027e-01  3.52551041e-09  3.34274836e-09  1.58144976e-07  3.04432248e-08  5.60000000e-01 
 5.70000000e-01  3.55091435e-09  3.14814189e-09  4.57826999e-01  3.30882429e-09  4.57826999e-01  3.52551041e-09  3.34274830e-09  1.58144956e-07  3.04430294e-08  5.70000000e-01 
 5.80000000e-01  3.55091442e-09  3.14814189e-09  4.57827024e-01  3.30882424e-09  4.57827024e-01  3.52551041e-09  3.34274830e-09  1.58144997e-07  3.04431111e-08  5.80000000e-01 
 5.90000000e-01  3.55091441e-09  3.14814184e-09  4.57827023e-01  3.30882424e-09  4.57827023e-01  3.52551047e-09  3.34274830e-09  1.58145000e-07  3.04430898e-08  5.90000000e-01 
 6.00000000e-01  3.55091441e-09  3.14814185e-09  4.57827041e-01  3.30882424e-09  4.57827040e-01  3.52551041e-09  3.34274831e-09  1.58145028e-07  3.04430117e-08  6.00000000e-01 
 6.10000000e-01  3.55091436e-09  3.14814190e-09  4.57827025e-01  3.30882424e-09  4.57827024e-01  3.52551041e-09  3.34274830e-09  1.58144981e-07  3.04429122e-08  6.10000000e-01 
 6.20000000e-01  3.55091442e-09  3.14814189e-09  4.57827026e-01  3.30882424e-09  4.57827025e-01  3.52551041e-09  3.34274831e-09  1.58144984e-07  3.04428625e-08  6.20000000e-01 
 6.30000000e-01  3.55091441e-09  3.14814189e-09  4.57827019e-01  3.30882429e-09  4.57827019e-01  3.52551041e-09  3.34274830e-09  1.58144973e-07  3.04428909e-08  6.30000000e-01 
 6.40000000e-01  3.55091435e-09  3.14814189e-09  4.57827011e-01  3.30882429e-09  4.57827011e-01  3.52551041e-09  3.34274830e-09  1.58144956e-07  3.04427772e-08  6.40000000e-01 
 6.50000000e-01  3.55091437e-09  3.14814189e-09  4.57827023e-01  3.30882429e-09  4.57827023e-01  3.52551041e-09  3.34274830e-09  1.58144984e-07  3.04427203e-08  6.50000000e-01 
 6.60000000e-01  3.55091436e-09  3.14814184e-09  4.57827028e-01  3.30882424e-09  4.57827027e-01  3.52551041e-09  3.34274831e-09  1.58144995e-07  3.04426706e-08  6.60000000e-01 
 6.70000000e-01  3.55091436e-09  3.14814191e-09  4.57827041e-01  3.30882429e-09  4.57827041e-01  3.52551041e-09  3.34274831e-09  1.58145002e-07  3.04427346e-08  6.70000000e-01 
 6.80000000e-01  3.55091442e-09  3.14814189e-09  4.57827034e-01  3.30882429e-09  4.57827034e-01  3.52551041e-09  3.34274831e-09  1.58145003e-07  3.04426422e-08  6.80000000e-01 
 6.90000000e-01  3.55091441e-09  3.14814189e-09  4.57827024e-01  3.30882429e-09  4.57827024e-01  3.52551041e-09  3.34274830e-09  1.58145006e-07  3.04425498e-08  6.90000000e-01 
 7.00000000e-01  3.55091436e-09  3.14814190e-09  4.57827043e-01  3.30882429e-09  4.57827042e-01  3.52551041e-09  3.34274831e-09  1.58145019e-07  3.04426067e-08  7.00000000e-01 
 7.10000000e-01  3.55091442e-09  3.14814189e-09  4.57827015e-01  3.30882429e-09  4.57827015e-01  3.52551041e-09  3.34274830e-09  1.58144988e-07  3.04424503e-08  7.10000000e-01 
 7.20000000e-01  3.55091441e-09  3.14814184e-09  4.57827025e-01  3.30882424e-09  4.57827025e-01  3.52551041e-09  3.34274830e-09  1.58144984e-07  3.04423864e-08  7.20000000e-01 
 7.30000000e-01  3.55091441e-09  3.14814185e-09  4.57827032e-01  3.30882429e-09  4.57827032e-01  3.52551041e-09  3.34274831e-09  1.58144987e-07  3.04422443e-08  7.30000000e-01 
 7.40000000e-01  3.55091435e-09  3.14814190e-09  4.57827011e-01  3.30882424e-09  4.57827011e-01  3.52551041e-09  3.34274830e-09  1.58144961e-07  3.04422372e-08  7.40000000e-01 
 7.50000000e-01  3.55091437e-09  3.14814189e-09  4.57827026e-01  3.30882424e-09  4.57827025e-01  3.52551041e-09  3.34274831e-09  1.58144995e-07  3.04421732e-08  7.50000000e-01 
 7.60000000e-01  3.55091436e-09  3.14814189e-09  4.57827011e-01  3.30882429e-09  4.57827011e-01  3.52551047e-09  3.34274830e-09  1.58144956e-07  3.04421235e-08  7.60000000e-01 
 7.70000000e-01  3.55091442e-09  3.14814189e-09  4.57827027e-01  3.30882429e-09  4.57827027e-01  3.52551041e-09  3.34274831e-09  1.58145004e-07  3.04422301e-08  7.70000000e-01 
 7.80000000e-01  3.55091441e-09  3.14814190e-09  4.57827031e-01  3.30882429e-09  4.57827031e-01  3.52551041e-09  3.34274836e-09  1.58145001e-07  3.04420738e-08  7.80000000e-01 
 7.90000000e-01  3.55091441e-09  3.14814189e-09  4.57827023e-01  3.30882429e-09  4.57827023e-01  3.52551041e-09  3.34274830e-09  1.58144985e-07  3.04419743e-08  7.90000000e-01 
 8.00000000e-01  3.55091441e-09  3.14814184e-09  4.57827021e-01  3.30882429e-09  4.57827021e-01  3.52551041e-09  3.34274830e-09  1.58144989e-07  3.04418180e-08  8.00000000e-01 
 8.10000000e-01  3.55091435e-09  3.14814185e-09  4.57827017e-01  3.30882424e-09  4.57827017e-01  3.52551041e-09  3.34274830e-09  1.58144977e-07  3.04418535e-08  8.10000000e-01 
 8.20000000e-01  3.55091437e-09  3.14814190e-09  4.57827026e-01  3.30882424e-09  4.57827026e-01  3.52551041e-09  3.34274831e-09  1.58144987e-07  3.04417398e-08  8.20000000e-01 
 8.30000000e-01  3.55091436e-09  3.14814189e-09  4.57826996e-01  3.30882429e-09  4.57826996e-01  3.52551041e-09  3.34274830e-09  1.58144949e-07  3.04417895e-08  8.30000000e-01 
 8.40000000e-01  3.55091436e-09  3.14814190e-09  4.57827042e-01  3.30882424e-09  4.57827041e-01  3.52551041e-09  3.34274831e-09  1.58145030e-07  3.04418108e-08  8.40000000e-01 
 8.50000000e-01  3.55091436e-09  3.14814189e-09  4.57827004e-01  3.30882429e-09  4.57827004e-01  3.52551041e-09  3.34274830e-09  1.58144961e-07  3.04416403e-08  8.50000000e-01 
 8.60000000e-01  3.55091442e-09  3.14814189e-09  4.57827019e-01  3.30882429e-09  4.57827019e-01  3.52551041e-09  3.34274830e-09  1.58144978e-07  3.04415977e-08  8.60000000e-01 
 8.70000000e-01  3.55091441e-09  3.14814190e-09  4.57827036e-01  3.30882429e-09  4.57827036e-01  3.52551041e-09  3.34274831e-09  1.58145010e-07  3.04416048e-08  8.70000000e-01 
 8.80000000e-01  3.55091435e-09  3.14814189e-09  4.57827017e-01  3.30882429e-09  4.57827017e-01  3.52551041e-09  3.34274830e-09  1.58144977e-07  3.04414129e-08  8.80000000e-01 
 8.90000000e-01  3.55091442e-09  3.14814189e-09  4.57827024e-01  3.30882429e-09  4.57827023e-01  3.52551041e-09  3.34274830e-09  1.58144980e-07  3.04414627e-08  8.90000000e-01 
 9.00000000e-01  3.55091441e-09  3.14814184e-09  4.57827019e-01  3.30882424e-09  4.57827019e-01  3.52551041e-09  3.34274830e-09  1.58144978e-07  3.04413419e-08  9.00000000e-01 
 9.10000000e-01  3.55091436e-09  3.14814185e-09  4.57827035e-01  3.30882429e-09  4.57827035e-01  3.52551047e-09  3.34274831e-09  1.58144996e-07  3.04413703e-08  9.10000000e-01 
 9.20000000e-01  3.55091442e-09  3.14814184e-09  4.57827006e-01  3.30882429e-09  4.57827006e-01  3.52551041e-09  3.34274830e-09  1.58144955e-07  3.04412993e-08  9.20000000e-01 
 9.30000000e-01  3.55091441e-09  3.14814190e-09  4.57827028e-01  3.30882429e-09  4.57827028e-01  3.52551041e-09  3.34274831e-09  1.58144997e-07  3.04411287e-08  9.30000000e-01 
 9.40000000e-01  3.55091435e-09  3.14814189e-09  4.57827004e-01  3.30882423e-09  4.57827004e-01  3.52551041e-09  3.34274830e-09  1.58144958e-07  3.04410790e-08  9.40000000e-01 
 9.50000000e-01  3.55091437e-09  3.14814189e-09  4.57827022e-01  3.30882429e-09  4.57827022e-01  3.52551041e-09  3.34274830e-09  1.58144987e-07  3.04410932e-08  9.50000000e-01 
 9.60000000e-01  3.55091442e-09  3.14814189e-09  4.57827028e-01  3.30882429e-09  4.57827028e-01  3.52551041e-09  3.34274831e-09  1.58144994e-07  3.04410293e-08  9.60000000e-01 
 9.70000000e-01  3.55091441e-09  3.14814189e-09  4.57827025e-01  3.30882424e-09  4.57827024e-01  3.52551041e-09  3.34274830e-09  1.58144985e-07  3.04410221e-08  9.70000000e-01 
 9.80000000e-01  3.55091441e-09  3.14814189e-09  4.57827019e-01  3.30882424e-09  4.57827019e-01  3.52551041e-09  3.34274830e-09  1.58144992e-07  3.04410008e-08  9.80000000e-01 
 9.90000000e-01  3.55091441e-09  3.14814189e-09  4.57827028e-01  3.30882424e-09  4.57827028e-01  3.52551041e-09  3.34274831e-09  1.58144994e-07  3.04409369e-08  9.90000000e-01 
 1.00000000e+00  3.55091441e-09  3.14814184e-09  4.57827038e-01  3.30882429e-09  4.57827038e-01  3.52551041e-09  3.34274836e-09  1.58145007e-07  3.04409440e-08  1.00000000e+00 
 1.01000000e+00  3.55091435e-09  3.14814191e-09  4.57827009e-01  3.30882424e-09  4.57827008e-01  3.52551041e-09  3.34274830e-09  1.58144975e-07  3.04408303e-08  1.01000000e+00 
 1.02000000e+00  3.55091442e-09  3.14814189e-09  4.57827023e-01  3.30882429e-09  4.57827023e-01  3.52551041e-09  3.34274830e-09  1.58144977e-07  3.04408303e-08  1.02000000e+00 
 1.03000000e+00  3.55091441e-09  3.14814184e-09  4.57827011e-01  3.30882424e-09  4.57827011e-01  3.52551041e-09  3.34274830e-09  1.58144980e-07  3.04407664e-08  1.03000000e+00 
 1.04000000e+00  3.55091441e-09  3.14814185e-09  4.57827022e-01  3.30882424e-09  4.57827022e-01  3.52551041e-09  3.34274836e-09  1.58144981e-07  3.04406029e-08  1.04000000e+00 
 1.05000000e+00  3.55091441e-09  3.14814190e-09  4.57827009e-01  3.30882429e-09  4.57827009e-01  3.52551041e-09  3.34274830e-09  1.58144960e-07  3.04405461e-08  1.05000000e+00 
 1.06000000e+00  3.55091441e-09  3.14814189e-09  4.57827027e-01  3.30882429e-09  4.57827027e-01  3.52551041e-09  3.34274831e-09  1.58144979e-07  3.04406242e-08  1.06000000e+00 
 1.07000000e+00  3.55091435e-09  3.14814189e-09  4.57827017e-01  3.30882429e-09  4.57827017e-01  3.52551041e-09  3.34274830e-09  1.58144970e-07  3.04404750e-08  1.07000000e+00 
 1.08000000e+00  3.55091442e-09  3.14814189e-09  4.57827023e-01  3.30882429e-09  4.57827023e-01  3.52551041e-09  3.34274830e-09  1.58144983e-07  3.04403187e-08  1.08000000e+00 
 1.09000000e+00  3.55091441e-09  3.14814184e-09  4.57827025e-01  3.30882429e-09  4.57827024e-01  3.52551041e-09  3.34274830e-09  1.58144979e-07  3.04402761e-08  1.09000000e+00 
 1.10000000e+00  3.55091441e-09  3.14814185e-09  4.57827019e-01  3.30882429e-09  4.57827019e-01  3.52551041e-09  3.34274830e-09  1.58144984e-07  3.04402761e-08  1.10000000e+00 
