 v-sweep         v(b0)           v(b1)           v(b2)           v(b3)           v(b4)           v(b5)           v(b6)           i(vbias)        i(viout)        v(vout)        
 0.00000000e+00  4.57903391e-01  3.37106781e-09  3.50420076e-09  3.57021836e-09  4.57903391e-01  3.26427686e-09  4.57903391e-01  1.56295508e-07  1.26251510e-07  0.00000000e+00 
 1.00000000e-02  4.57903379e-01  3.37106779e-09  3.50420074e-09  3.57021833e-09  4.57903379e-01  3.26427684e-09  4.57903379e-01  1.56295485e-07  1.26250991e-07  1.00000000e-02 
 2.00000000e-02  4.57903402e-01  3.37106785e-09  3.50420075e-09  3.57021840e-09  4.57903401e-01  3.26427684e-09  4.57903402e-01  1.56295535e-07  1.26250742e-07  2.00000000e-02 
 3.00000000e-02  4.57903357e-01  3.37106779e-09  3.50420074e-09  3.57021838e-09  4.57903357e-01  3.26427684e-09  4.57903357e-01  1.56295454e-07  1.26250026e-07  3.00000000e-02 
 4.00000000e-02  4.57903405e-01  3.37106779e-09  3.50420075e-09  3.57021833e-09  4.57903405e-01  3.26427684e-09  4.57903405e-01  1.56295533e-07  1.26249887e-07  4.00000000e-02 
 5.00000000e-02  4.57903402e-01  3.37106779e-09  3.50420075e-09  3.57021834e-09  4.57903402e-01  3.26427684e-09  4.57903402e-01  1.56295521e-07  1.26249565e-07  5.00000000e-02 
 6.00000000e-02  4.57903379e-01  3.37106779e-09  3.50420074e-09  3.57021834e-09  4.57903379e-01  3.26427684e-09  4.57903379e-01  1.56295474e-07  1.26249102e-07  6.00000000e-02 
 7.00000000e-02  4.57903420e-01  3.37106785e-09  3.50420075e-09  3.57021834e-09  4.57903420e-01  3.26427684e-09  4.57903420e-01  1.56295547e-07  1.26248909e-07  7.00000000e-02 
 8.00000000e-02  4.57903378e-01  3.37106784e-09  3.50420074e-09  3.57021839e-09  4.57903378e-01  3.26427684e-09  4.57903378e-01  1.56295486e-07  1.26248451e-07  8.00000000e-02 
 9.00000000e-02  4.57903412e-01  3.37106780e-09  3.50420075e-09  3.57021838e-09  4.57903412e-01  3.26427684e-09  4.57903412e-01  1.56295544e-07  1.26248271e-07  9.00000000e-02 
 1.00000000e-01  4.57903411e-01  3.37106785e-09  3.50420075e-09  3.57021839e-09  4.57903411e-01  3.26427684e-09  4.57903411e-01  1.56295532e-07  1.26248010e-07  1.00000000e-01 
 1.10000000e-01  4.57903398e-01  3.37106778e-09  3.50420074e-09  3.57021839e-09  4.57903397e-01  3.26427684e-09  4.57903398e-01  1.56295521e-07  1.26247597e-07  1.10000000e-01 
 1.20000000e-01  4.57903404e-01  3.37106780e-09  3.50420075e-09  3.57021833e-09  4.57903403e-01  3.26427684e-09  4.57903404e-01  1.56295514e-07  1.26247411e-07  1.20000000e-01 
 1.30000000e-01  4.57903406e-01  3.37106779e-09  3.50420069e-09  3.57021840e-09  4.57903405e-01  3.26427684e-09  4.57903406e-01  1.56295542e-07  1.26247287e-07  1.30000000e-01 
 1.40000000e-01  4.57903442e-01  3.37106780e-09  3.50420075e-09  3.57021838e-09  4.57903441e-01  3.26427684e-09  4.57903442e-01  1.56295584e-07  1.26247052e-07  1.40000000e-01 
 1.50000000e-01  4.57903398e-01  3.37106779e-09  3.50420074e-09  3.57021839e-09  4.57903397e-01  3.26427684e-09  4.57903398e-01  1.56295523e-07  1.26246794e-07  1.50000000e-01 
 1.60000000e-01  4.57903419e-01  3.37106785e-09  3.50420069e-09  3.57021839e-09  4.57903419e-01  3.26427684e-09  4.57903419e-01  1.56295562e-07  1.26246549e-07  1.60000000e-01 
 1.70000000e-01  4.57903407e-01  3.37106778e-09  3.50420075e-09  3.57021833e-09  4.57903407e-01  3.26427684e-09  4.57903407e-01  1.56295526e-07  1.26246315e-07  1.70000000e-01 
 1.80000000e-01  4.57903395e-01  3.37106780e-09  3.50420074e-09  3.57021834e-09  4.57903395e-01  3.26427684e-09  4.57903395e-01  1.56295524e-07  1.26246109e-07  1.80000000e-01 
 1.90000000e-01  4.57903394e-01  3.37106779e-09  3.50420074e-09  3.57021839e-09  4.57903394e-01  3.26427684e-09  4.57903394e-01  1.56295514e-07  1.26245874e-07  1.90000000e-01 
 2.00000000e-01  4.57903382e-01  3.37106785e-09  3.50420074e-09  3.57021838e-09  4.57903382e-01  3.26427684e-09  4.57903382e-01  1.56295495e-07  1.26245633e-07  2.00000000e-01 
 2.10000000e-01  4.57903419e-01  3.37106780e-09  3.50420075e-09  3.57021833e-09  4.57903419e-01  3.26427684e-09  4.57903419e-01  1.56295552e-07  1.26245579e-07  2.10000000e-01 
 2.20000000e-01  4.57903395e-01  3.37106779e-09  3.50420074e-09  3.57021834e-09  4.57903394e-01  3.26427684e-09  4.57903395e-01  1.56295518e-07  1.26245371e-07  2.20000000e-01 
 2.30000000e-01  4.57903418e-01  3.37106780e-09  3.50420075e-09  3.57021834e-09  4.57903417e-01  3.26427684e-09  4.57903418e-01  1.56295554e-07  1.26245290e-07  2.30000000e-01 
 2.40000000e-01  4.57903401e-01  3.37106779e-09  3.50420075e-09  3.57021834e-09  4.57903401e-01  3.26427684e-09  4.57903401e-01  1.56295512e-07  1.26245071e-07  2.40000000e-01 
 2.50000000e-01  4.57903401e-01  3.37106779e-09  3.50420075e-09  3.57021839e-09  4.57903401e-01  3.26427684e-09  4.57903401e-01  1.56295535e-07  1.26244878e-07  2.50000000e-01 
 2.60000000e-01  4.57903400e-01  3.37106779e-09  3.50420069e-09  3.57021838e-09  4.57903400e-01  3.26427684e-09  4.57903400e-01  1.56295517e-07  1.26244796e-07  2.60000000e-01 
 2.70000000e-01  4.57903403e-01  3.37106779e-09  3.50420075e-09  3.57021833e-09  4.57903403e-01  3.26427684e-09  4.57903403e-01  1.56295528e-07  1.26244675e-07  2.70000000e-01 
 2.80000000e-01  4.57903405e-01  3.37106779e-09  3.50420075e-09  3.57021834e-09  4.57903405e-01  3.26427684e-09  4.57903405e-01  1.56295533e-07  1.26244451e-07  2.80000000e-01 
 2.90000000e-01  4.57903421e-01  3.37106780e-09  3.50420075e-09  3.57021840e-09  4.57903421e-01  3.26427684e-09  4.57903421e-01  1.56295552e-07  1.26244394e-07  2.90000000e-01 
 3.00000000e-01  4.57903414e-01  3.37106780e-09  3.50420075e-09  3.57021838e-09  4.57903413e-01  3.26427684e-09  4.57903414e-01  1.56295553e-07  1.26244281e-07  3.00000000e-01 
 3.10000000e-01  4.57903376e-01  3.37106779e-09  3.50420074e-09  3.57021839e-09  4.57903376e-01  3.26427684e-09  4.57903376e-01  1.56295485e-07  1.26243986e-07  3.10000000e-01 
 3.20000000e-01  4.57903412e-01  3.37106780e-09  3.50420075e-09  3.57021839e-09  4.57903412e-01  3.26427684e-09  4.57903412e-01  1.56295535e-07  1.26244124e-07  3.20000000e-01 
 3.30000000e-01  4.57903422e-01  3.37106780e-09  3.50420075e-09  3.57021839e-09  4.57903422e-01  3.26427684e-09  4.57903422e-01  1.56295545e-07  1.26243858e-07  3.30000000e-01 
 3.40000000e-01  4.57903402e-01  3.37106779e-09  3.50420075e-09  3.57021833e-09  4.57903402e-01  3.26427684e-09  4.57903402e-01  1.56295511e-07  1.26243663e-07  3.40000000e-01 
 3.50000000e-01  4.57903402e-01  3.37106779e-09  3.50420075e-09  3.57021834e-09  4.57903401e-01  3.26427684e-09  4.57903402e-01  1.56295534e-07  1.26243595e-07  3.50000000e-01 
 3.60000000e-01  4.57903388e-01  3.37106779e-09  3.50420074e-09  3.57021834e-09  4.57903388e-01  3.26427684e-09  4.57903388e-01  1.56295497e-07  1.26243435e-07  3.60000000e-01 
 3.70000000e-01  4.57903428e-01  3.37106786e-09  3.50420075e-09  3.57021834e-09  4.57903428e-01  3.26427684e-09  4.57903428e-01  1.56295569e-07  1.26243489e-07  3.70000000e-01 
 3.80000000e-01  4.57903395e-01  3.37106778e-09  3.50420074e-09  3.57021839e-09  4.57903395e-01  3.26427684e-09  4.57903395e-01  1.56295500e-07  1.26243410e-07  3.80000000e-01 
 3.90000000e-01  4.57903425e-01  3.37106780e-09  3.50420069e-09  3.57021833e-09  4.57903425e-01  3.26427684e-09  4.57903425e-01  1.56295559e-07  1.26243254e-07  3.90000000e-01 
 4.00000000e-01  4.57903405e-01  3.37106785e-09  3.50420075e-09  3.57021840e-09  4.57903405e-01  3.26427690e-09  4.57903405e-01  1.56295530e-07  1.26243076e-07  4.00000000e-01 
 4.10000000e-01  4.57903415e-01  3.37106780e-09  3.50420075e-09  3.57021838e-09  4.57903415e-01  3.26427690e-09  4.57903415e-01  1.56295543e-07  1.26243101e-07  4.10000000e-01 
 4.20000000e-01  4.57903367e-01  3.37106779e-09  3.50420074e-09  3.57021833e-09  4.57903367e-01  3.26427684e-09  4.57903367e-01  1.56295472e-07  1.26242799e-07  4.20000000e-01 
 4.30000000e-01  4.57903408e-01  3.37106780e-09  3.50420075e-09  3.57021840e-09  4.57903408e-01  3.26427684e-09  4.57903408e-01  1.56295531e-07  1.26242924e-07  4.30000000e-01 
 4.40000000e-01  4.57903382e-01  3.37106785e-09  3.50420074e-09  3.57021832e-09  4.57903382e-01  3.26427684e-09  4.57903382e-01  1.56295508e-07  1.26242607e-07  4.40000000e-01 
 4.50000000e-01  4.57903402e-01  3.37106779e-09  3.50420075e-09  3.57021840e-09  4.57903402e-01  3.26427684e-09  4.57903402e-01  1.56295525e-07  1.26242607e-07  4.50000000e-01 
 4.60000000e-01  4.57903390e-01  3.37106779e-09  3.50420074e-09  3.57021832e-09  4.57903390e-01  3.26427684e-09  4.57903390e-01  1.56295499e-07  1.26242583e-07  4.60000000e-01 
 4.70000000e-01  4.57903422e-01  3.37106780e-09  3.50420075e-09  3.57021840e-09  4.57903422e-01  3.26427684e-09  4.57903422e-01  1.56295558e-07  1.26242401e-07  4.70000000e-01 
 4.80000000e-01  4.57903387e-01  3.37106779e-09  3.50420074e-09  3.57021838e-09  4.57903387e-01  3.26427684e-09  4.57903387e-01  1.56295506e-07  1.26242313e-07  4.80000000e-01 
 4.90000000e-01  4.57903420e-01  3.37106780e-09  3.50420075e-09  3.57021833e-09  4.57903420e-01  3.26427684e-09  4.57903420e-01  1.56295556e-07  1.26242352e-07  4.90000000e-01 
 5.00000000e-01  4.57903398e-01  3.37106779e-09  3.50420074e-09  3.57021834e-09  4.57903398e-01  3.26427684e-09  4.57903398e-01  1.56295509e-07  1.26242092e-07  5.00000000e-01 
 5.10000000e-01  4.57903404e-01  3.37106779e-09  3.50420075e-09  3.57021839e-09  4.57903404e-01  3.26427684e-09  4.57903404e-01  1.56295525e-07  1.26242035e-07  5.10000000e-01 
 5.20000000e-01  4.57903374e-01  3.37106779e-09  3.50420074e-09  3.57021838e-09  4.57903373e-01  3.26427684e-09  4.57903374e-01  1.56295478e-07  1.26241922e-07  5.20000000e-01 
 5.30000000e-01  4.57903415e-01  3.37106780e-09  3.50420075e-09  3.57021839e-09  4.57903415e-01  3.26427684e-09  4.57903415e-01  1.56295535e-07  1.26241805e-07  5.30000000e-01 
 5.40000000e-01  4.57903413e-01  3.37106780e-09  3.50420069e-09  3.57021833e-09  4.57903413e-01  3.26427684e-09  4.57903413e-01  1.56295530e-07  1.26241790e-07  5.40000000e-01 
 5.50000000e-01  4.57903396e-01  3.37106779e-09  3.50420069e-09  3.57021840e-09  4.57903396e-01  3.26427684e-09  4.57903396e-01  1.56295522e-07  1.26241616e-07  5.50000000e-01 
 5.60000000e-01  4.57903399e-01  3.37106779e-09  3.50420074e-09  3.57021832e-09  4.57903399e-01  3.26427684e-09  4.57903399e-01  1.56295514e-07  1.26241702e-07  5.60000000e-01 
 5.70000000e-01  4.57903421e-01  3.37106780e-09  3.50420075e-09  3.57021834e-09  4.57903421e-01  3.26427684e-09  4.57903421e-01  1.56295539e-07  1.26241531e-07  5.70000000e-01 
 5.80000000e-01  4.57903413e-01  3.37106780e-09  3.50420075e-09  3.57021834e-09  4.57903413e-01  3.26427684e-09  4.57903413e-01  1.56295532e-07  1.26241467e-07  5.80000000e-01 
 5.90000000e-01  4.57903388e-01  3.37106779e-09  3.50420074e-09  3.57021839e-09  4.57903388e-01  3.26427684e-09  4.57903388e-01  1.56295497e-07  1.26241382e-07  5.90000000e-01 
 6.00000000e-01  4.57903419e-01  3.37106780e-09  3.50420075e-09  3.57021838e-09  4.57903418e-01  3.26427684e-09  4.57903419e-01  1.56295540e-07  1.26241311e-07  6.00000000e-01 
 6.10000000e-01  4.57903396e-01  3.37106779e-09  3.50420069e-09  3.57021839e-09  4.57903396e-01  3.26427684e-09  4.57903396e-01  1.56295522e-07  1.26241240e-07  6.10000000e-01 
 6.20000000e-01  4.57903398e-01  3.37106779e-09  3.50420074e-09  3.57021833e-09  4.57903398e-01  3.26427684e-09  4.57903398e-01  1.56295517e-07  1.26241062e-07  6.20000000e-01 
 6.30000000e-01  4.57903411e-01  3.37106780e-09  3.50420075e-09  3.57021834e-09  4.57903411e-01  3.26427684e-09  4.57903411e-01  1.56295524e-07  1.26241154e-07  6.30000000e-01 
 6.40000000e-01  4.57903406e-01  3.37106779e-09  3.50420075e-09  3.57021839e-09  4.57903406e-01  3.26427684e-09  4.57903406e-01  1.56295532e-07  1.26240906e-07  6.40000000e-01 
 6.50000000e-01  4.57903394e-01  3.37106779e-09  3.50420074e-09  3.57021838e-09  4.57903394e-01  3.26427684e-09  4.57903394e-01  1.56295518e-07  1.26240884e-07  6.50000000e-01 
 6.60000000e-01  4.57903401e-01  3.37106779e-09  3.50420074e-09  3.57021833e-09  4.57903401e-01  3.26427684e-09  4.57903401e-01  1.56295521e-07  1.26240799e-07  6.60000000e-01 
 6.70000000e-01  4.57903389e-01  3.37106779e-09  3.50420074e-09  3.57021834e-09  4.57903389e-01  3.26427684e-09  4.57903389e-01  1.56295511e-07  1.26240700e-07  6.70000000e-01 
 6.80000000e-01  4.57903411e-01  3.37106780e-09  3.50420069e-09  3.57021839e-09  4.57903411e-01  3.26427684e-09  4.57903411e-01  1.56295536e-07  1.26240728e-07  6.80000000e-01 
 6.90000000e-01  4.57903413e-01  3.37106780e-09  3.50420069e-09  3.57021838e-09  4.57903413e-01  3.26427684e-09  4.57903413e-01  1.56295532e-07  1.26240522e-07  6.90000000e-01 
 7.00000000e-01  4.57903417e-01  3.37106780e-09  3.50420075e-09  3.57021839e-09  4.57903417e-01  3.26427684e-09  4.57903417e-01  1.56295535e-07  1.26240501e-07  7.00000000e-01 
 7.10000000e-01  4.57903420e-01  3.37106780e-09  3.50420075e-09  3.57021839e-09  4.57903420e-01  3.26427684e-09  4.57903420e-01  1.56295549e-07  1.26240344e-07  7.10000000e-01 
 7.20000000e-01  4.57903397e-01  3.37106785e-09  3.50420069e-09  3.57021839e-09  4.57903397e-01  3.26427684e-09  4.57903397e-01  1.56295508e-07  1.26240145e-07  7.20000000e-01 
 7.30000000e-01  4.57903401e-01  3.37106779e-09  3.50420075e-09  3.57021833e-09  4.57903401e-01  3.26427684e-09  4.57903401e-01  1.56295526e-07  1.26240209e-07  7.30000000e-01 
 7.40000000e-01  4.57903400e-01  3.37106779e-09  3.50420074e-09  3.57021834e-09  4.57903400e-01  3.26427684e-09  4.57903400e-01  1.56295520e-07  1.26240195e-07  7.40000000e-01 
 7.50000000e-01  4.57903393e-01  3.37106785e-09  3.50420069e-09  3.57021834e-09  4.57903393e-01  3.26427684e-09  4.57903393e-01  1.56295513e-07  1.26240124e-07  7.50000000e-01 
 7.60000000e-01  4.57903390e-01  3.37106779e-09  3.50420069e-09  3.57021839e-09  4.57903390e-01  3.26427684e-09  4.57903390e-01  1.56295520e-07  1.26239875e-07  7.60000000e-01 
 7.70000000e-01  4.57903401e-01  3.37106779e-09  3.50420075e-09  3.57021832e-09  4.57903401e-01  3.26427684e-09  4.57903401e-01  1.56295526e-07  1.26239804e-07  7.70000000e-01 
 7.80000000e-01  4.57903405e-01  3.37106779e-09  3.50420075e-09  3.57021834e-09  4.57903405e-01  3.26427684e-09  4.57903405e-01  1.56295528e-07  1.26239819e-07  7.80000000e-01 
 7.90000000e-01  4.57903393e-01  3.37106779e-09  3.50420074e-09  3.57021834e-09  4.57903393e-01  3.26427684e-09  4.57903393e-01  1.56295524e-07  1.26239584e-07  7.90000000e-01 
 8.00000000e-01  4.57903406e-01  3.37106779e-09  3.50420075e-09  3.57021834e-09  4.57903406e-01  3.26427684e-09  4.57903406e-01  1.56295537e-07  1.26239563e-07  8.00000000e-01 
 8.10000000e-01  4.57903409e-01  3.37106780e-09  3.50420075e-09  3.57021834e-09  4.57903409e-01  3.26427684e-09  4.57903409e-01  1.56295539e-07  1.26239428e-07  8.10000000e-01 
 8.20000000e-01  4.57903381e-01  3.37106779e-09  3.50420074e-09  3.57021834e-09  4.57903381e-01  3.26427684e-09  4.57903381e-01  1.56295496e-07  1.26239328e-07  8.20000000e-01 
 8.30000000e-01  4.57903398e-01  3.37106779e-09  3.50420074e-09  3.57021839e-09  4.57903397e-01  3.26427684e-09  4.57903398e-01  1.56295527e-07  1.26239250e-07  8.30000000e-01 
 8.40000000e-01  4.57903390e-01  3.37106779e-09  3.50420074e-09  3.57021832e-09  4.57903390e-01  3.26427684e-09  4.57903390e-01  1.56295501e-07  1.26239144e-07  8.40000000e-01 
 8.50000000e-01  4.57903406e-01  3.37106779e-09  3.50420075e-09  3.57021834e-09  4.57903406e-01  3.26427684e-09  4.57903406e-01  1.56295537e-07  1.26239080e-07  8.50000000e-01 
 8.60000000e-01  4.57903410e-01  3.37106780e-09  3.50420075e-09  3.57021839e-09  4.57903410e-01  3.26427684e-09  4.57903410e-01  1.56295535e-07  1.26239094e-07  8.60000000e-01 
 8.70000000e-01  4.57903410e-01  3.37106780e-09  3.50420075e-09  3.57021838e-09  4.57903410e-01  3.26427684e-09  4.57903410e-01  1.56295529e-07  1.26238980e-07  8.70000000e-01 
 8.80000000e-01  4.57903400e-01  3.37106779e-09  3.50420074e-09  3.57021833e-09  4.57903399e-01  3.26427684e-09  4.57903400e-01  1.56295531e-07  1.26238724e-07  8.80000000e-01 
 8.90000000e-01  4.57903396e-01  3.37106779e-09  3.50420074e-09  3.57021834e-09  4.57903396e-01  3.26427684e-09  4.57903396e-01  1.56295501e-07  1.26238710e-07  8.90000000e-01 
 9.00000000e-01  4.57903414e-01  3.37106780e-09  3.50420075e-09  3.57021839e-09  4.57903414e-01  3.26427684e-09  4.57903414e-01  1.56295545e-07  1.26238696e-07  9.00000000e-01 
 9.10000000e-01  4.57903391e-01  3.37106779e-09  3.50420074e-09  3.57021838e-09  4.57903391e-01  3.26427684e-09  4.57903391e-01  1.56295509e-07  1.26238568e-07  9.10000000e-01 
 9.20000000e-01  4.57903406e-01  3.37106779e-09  3.50420075e-09  3.57021839e-09  4.57903406e-01  3.26427684e-09  4.57903406e-01  1.56295533e-07  1.26238454e-07  9.20000000e-01 
 9.30000000e-01  4.57903362e-01  3.37106779e-09  3.50420074e-09  3.57021839e-09  4.57903361e-01  3.26427684e-09  4.57903362e-01  1.56295464e-07  1.26238305e-07  9.30000000e-01 
 9.40000000e-01  4.57903417e-01  3.37106780e-09  3.50420075e-09  3.57021839e-09  4.57903416e-01  3.26427684e-09  4.57903416e-01  1.56295552e-07  1.26238248e-07  9.40000000e-01 
 9.50000000e-01  4.57903416e-01  3.37106785e-09  3.50420069e-09  3.57021833e-09  4.57903416e-01  3.26427684e-09  4.57903416e-01  1.56295531e-07  1.26238163e-07  9.50000000e-01 
 9.60000000e-01  4.57903410e-01  3.37106784e-09  3.50420075e-09  3.57021834e-09  4.57903409e-01  3.26427684e-09  4.57903410e-01  1.56295534e-07  1.26237993e-07  9.60000000e-01 
 9.70000000e-01  4.57903419e-01  3.37106780e-09  3.50420075e-09  3.57021834e-09  4.57903419e-01  3.26427684e-09  4.57903419e-01  1.56295546e-07  1.26238085e-07  9.70000000e-01 
 9.80000000e-01  4.57903426e-01  3.37106780e-09  3.50420075e-09  3.57021834e-09  4.57903425e-01  3.26427684e-09  4.57903426e-01  1.56295569e-07  1.26237993e-07  9.80000000e-01 
 9.90000000e-01  4.57903403e-01  3.37106779e-09  3.50420075e-09  3.57021839e-09  4.57903403e-01  3.26427684e-09  4.57903403e-01  1.56295530e-07  1.26237836e-07  9.90000000e-01 
 1.00000000e+00  4.57903415e-01  3.37106780e-09  3.50420075e-09  3.57021833e-09  4.57903415e-01  3.26427684e-09  4.57903415e-01  1.56295532e-07  1.26237765e-07  1.00000000e+00 
 1.01000000e+00  4.57903420e-01  3.37106785e-09  3.50420075e-09  3.57021834e-09  4.57903420e-01  3.26427684e-09  4.57903420e-01  1.56295542e-07  1.26237751e-07  1.01000000e+00 
 1.02000000e+00  4.57903410e-01  3.37106778e-09  3.50420075e-09  3.57021834e-09  4.57903410e-01  3.26427684e-09  4.57903410e-01  1.56295549e-07  1.26237609e-07  1.02000000e+00 
 1.03000000e+00  4.57903393e-01  3.37106780e-09  3.50420074e-09  3.57021834e-09  4.57903393e-01  3.26427684e-09  4.57903393e-01  1.56295515e-07  1.26237374e-07  1.03000000e+00 
 1.04000000e+00  4.57903406e-01  3.37106779e-09  3.50420075e-09  3.57021834e-09  4.57903406e-01  3.26427684e-09  4.57903406e-01  1.56295542e-07  1.26237310e-07  1.04000000e+00 
 1.05000000e+00  4.57903381e-01  3.37106779e-09  3.50420074e-09  3.57021839e-09  4.57903381e-01  3.26427684e-09  4.57903381e-01  1.56295487e-07  1.26237168e-07  1.05000000e+00 
 1.06000000e+00  4.57903403e-01  3.37106779e-09  3.50420069e-09  3.57021832e-09  4.57903403e-01  3.26427684e-09  4.57903403e-01  1.56295524e-07  1.26237182e-07  1.06000000e+00 
 1.07000000e+00  4.57903377e-01  3.37106785e-09  3.50420074e-09  3.57021840e-09  4.57903377e-01  3.26427684e-09  4.57903377e-01  1.56295492e-07  1.26236777e-07  1.07000000e+00 
 1.08000000e+00  4.57903395e-01  3.37106779e-09  3.50420074e-09  3.57021838e-09  4.57903395e-01  3.26427684e-09  4.57903395e-01  1.56295524e-07  1.26236877e-07  1.08000000e+00 
 1.09000000e+00  4.57903388e-01  3.37106779e-09  3.50420074e-09  3.57021839e-09  4.57903388e-01  3.26427684e-09  4.57903388e-01  1.56295496e-07  1.26236642e-07  1.09000000e+00 
 1.10000000e+00  4.57903410e-01  3.37106780e-09  3.50420075e-09  3.57021839e-09  4.57903410e-01  3.26427684e-09  4.57903410e-01  1.56295540e-07  1.26236721e-07  1.10000000e+00 
