 v-sweep         v(b0)           v(b1)           v(b2)           v(b3)           v(b4)           v(b5)           v(b6)           i(vbias)        i(viout)        v(vout)        
 0.00000000e+00  4.56151342e-01  3.48513149e-09  3.61600341e-09  3.32916197e-09  4.56151342e-01  4.56151342e-01  4.56151342e-01  1.54508626e-07  1.61605391e-07  0.00000000e+00 
 1.00000000e-02  4.56151345e-01  3.48513153e-09  3.61600339e-09  3.32916201e-09  4.56151345e-01  4.56151345e-01  4.56151345e-01  1.54508631e-07  1.61604954e-07  1.00000000e-02 
 2.00000000e-02  4.56151356e-01  3.48513153e-09  3.61600333e-09  3.32916200e-09  4.56151356e-01  4.56151356e-01  4.56151356e-01  1.54508638e-07  1.61604479e-07  2.00000000e-02 
 3.00000000e-02  4.56151347e-01  3.48513147e-09  3.61600339e-09  3.32916194e-09  4.56151347e-01  4.56151346e-01  4.56151347e-01  1.54508621e-07  1.61604071e-07  3.00000000e-02 
 4.00000000e-02  4.56151362e-01  3.48513147e-09  3.61600339e-09  3.32916201e-09  4.56151362e-01  4.56151362e-01  4.56151362e-01  1.54508645e-07  1.61603766e-07  4.00000000e-02 
 5.00000000e-02  4.56151361e-01  3.48513147e-09  3.61600339e-09  3.32916194e-09  4.56151361e-01  4.56151361e-01  4.56151361e-01  1.54508642e-07  1.61603386e-07  5.00000000e-02 
 6.00000000e-02  4.56151361e-01  3.48513153e-09  3.61600339e-09  3.32916196e-09  4.56151361e-01  4.56151361e-01  4.56151361e-01  1.54508632e-07  1.61602963e-07  6.00000000e-02 
 7.00000000e-02  4.56151338e-01  3.48513147e-09  3.61600333e-09  3.32916195e-09  4.56151338e-01  4.56151338e-01  4.56151338e-01  1.54508607e-07  1.61602538e-07  7.00000000e-02 
 8.00000000e-02  4.56151377e-01  3.48513153e-09  3.61600339e-09  3.32916201e-09  4.56151377e-01  4.56151377e-01  4.56151377e-01  1.54508679e-07  1.61602325e-07  8.00000000e-02 
 9.00000000e-02  4.56151329e-01  3.48513147e-09  3.61600339e-09  3.32916199e-09  4.56151329e-01  4.56151329e-01  4.56151329e-01  1.54508614e-07  1.61601885e-07  9.00000000e-02 
 1.00000000e-01  4.56151337e-01  3.48513153e-09  3.61600339e-09  3.32916200e-09  4.56151337e-01  4.56151337e-01  4.56151337e-01  1.54508619e-07  1.61601528e-07  1.00000000e-01 
 1.10000000e-01  4.56151363e-01  3.48513147e-09  3.61600333e-09  3.32916194e-09  4.56151363e-01  4.56151363e-01  4.56151363e-01  1.54508655e-07  1.61601457e-07  1.10000000e-01 
 1.20000000e-01  4.56151364e-01  3.48513147e-09  3.61600333e-09  3.32916196e-09  4.56151364e-01  4.56151363e-01  4.56151364e-01  1.54508643e-07  1.61601157e-07  1.20000000e-01 
 1.30000000e-01  4.56151359e-01  3.48513153e-09  3.61600333e-09  3.32916195e-09  4.56151359e-01  4.56151359e-01  4.56151359e-01  1.54508644e-07  1.61600782e-07  1.30000000e-01 
 1.40000000e-01  4.56151360e-01  3.48513147e-09  3.61600339e-09  3.32916201e-09  4.56151360e-01  4.56151360e-01  4.56151360e-01  1.54508646e-07  1.61600515e-07  1.40000000e-01 
 1.50000000e-01  4.56151363e-01  3.48513147e-09  3.61600333e-09  3.32916200e-09  4.56151363e-01  4.56151363e-01  4.56151363e-01  1.54508642e-07  1.61600376e-07  1.50000000e-01 
 1.60000000e-01  4.56151355e-01  3.48513153e-09  3.61600333e-09  3.32916200e-09  4.56151355e-01  4.56151355e-01  4.56151355e-01  1.54508642e-07  1.61599981e-07  1.60000000e-01 
 1.70000000e-01  4.56151368e-01  3.48513147e-09  3.61600339e-09  3.32916200e-09  4.56151368e-01  4.56151368e-01  4.56151368e-01  1.54508660e-07  1.61599925e-07  1.70000000e-01 
 1.80000000e-01  4.56151355e-01  3.48513147e-09  3.61600339e-09  3.32916200e-09  4.56151355e-01  4.56151355e-01  4.56151355e-01  1.54508638e-07  1.61599612e-07  1.80000000e-01 
 1.90000000e-01  4.56151366e-01  3.48513153e-09  3.61600339e-09  3.32916195e-09  4.56151366e-01  4.56151366e-01  4.56151366e-01  1.54508679e-07  1.61599415e-07  1.90000000e-01 
 2.00000000e-01  4.56151359e-01  3.48513147e-09  3.61600333e-09  3.32916196e-09  4.56151359e-01  4.56151359e-01  4.56151359e-01  1.54508650e-07  1.61599040e-07  2.00000000e-01 
 2.10000000e-01  4.56151353e-01  3.48513153e-09  3.61600339e-09  3.32916195e-09  4.56151353e-01  4.56151352e-01  4.56151353e-01  1.54508654e-07  1.61598846e-07  2.10000000e-01 
 2.20000000e-01  4.56151334e-01  3.48513153e-09  3.61600333e-09  3.32916201e-09  4.56151334e-01  4.56151334e-01  4.56151334e-01  1.54508606e-07  1.61598591e-07  2.20000000e-01 
 2.30000000e-01  4.56151350e-01  3.48513147e-09  3.61600339e-09  3.32916200e-09  4.56151350e-01  4.56151350e-01  4.56151350e-01  1.54508644e-07  1.61598438e-07  2.30000000e-01 
 2.40000000e-01  4.56151343e-01  3.48513147e-09  3.61600333e-09  3.32916200e-09  4.56151342e-01  4.56151342e-01  4.56151342e-01  1.54508616e-07  1.61598303e-07  2.40000000e-01 
 2.50000000e-01  4.56151366e-01  3.48513147e-09  3.61600339e-09  3.32916200e-09  4.56151366e-01  4.56151365e-01  4.56151366e-01  1.54508683e-07  1.61598193e-07  2.50000000e-01 
 2.60000000e-01  4.56151343e-01  3.48513147e-09  3.61600333e-09  3.32916194e-09  4.56151343e-01  4.56151343e-01  4.56151343e-01  1.54508622e-07  1.61597930e-07  2.60000000e-01 
 2.70000000e-01  4.56151342e-01  3.48513147e-09  3.61600333e-09  3.32916196e-09  4.56151342e-01  4.56151341e-01  4.56151342e-01  1.54508622e-07  1.61597830e-07  2.70000000e-01 
 2.80000000e-01  4.56151376e-01  3.48513147e-09  3.61600339e-09  3.32916195e-09  4.56151376e-01  4.56151375e-01  4.56151376e-01  1.54508684e-07  1.61597784e-07  2.80000000e-01 
 2.90000000e-01  4.56151348e-01  3.48513147e-09  3.61600339e-09  3.32916195e-09  4.56151348e-01  4.56151348e-01  4.56151348e-01  1.54508631e-07  1.61597445e-07  2.90000000e-01 
 3.00000000e-01  4.56151356e-01  3.48513147e-09  3.61600333e-09  3.32916201e-09  4.56151356e-01  4.56151356e-01  4.56151356e-01  1.54508645e-07  1.61597466e-07  3.00000000e-01 
 3.10000000e-01  4.56151360e-01  3.48513153e-09  3.61600339e-09  3.32916200e-09  4.56151360e-01  4.56151360e-01  4.56151360e-01  1.54508657e-07  1.61597214e-07  3.10000000e-01 
 3.20000000e-01  4.56151353e-01  3.48513147e-09  3.61600333e-09  3.32916194e-09  4.56151353e-01  4.56151353e-01  4.56151353e-01  1.54508638e-07  1.61597107e-07  3.20000000e-01 
 3.30000000e-01  4.56151364e-01  3.48513147e-09  3.61600339e-09  3.32916201e-09  4.56151364e-01  4.56151364e-01  4.56151364e-01  1.54508659e-07  1.61596901e-07  3.30000000e-01 
 3.40000000e-01  4.56151382e-01  3.48513153e-09  3.61600334e-09  3.32916194e-09  4.56151382e-01  4.56151382e-01  4.56151382e-01  1.54508669e-07  1.61596823e-07  3.40000000e-01 
 3.50000000e-01  4.56151344e-01  3.48513147e-09  3.61600333e-09  3.32916196e-09  4.56151344e-01  4.56151344e-01  4.56151344e-01  1.54508621e-07  1.61596507e-07  3.50000000e-01 
 3.60000000e-01  4.56151368e-01  3.48513147e-09  3.61600334e-09  3.32916201e-09  4.56151368e-01  4.56151368e-01  4.56151368e-01  1.54508660e-07  1.61596489e-07  3.60000000e-01 
 3.70000000e-01  4.56151346e-01  3.48513153e-09  3.61600333e-09  3.32916194e-09  4.56151346e-01  4.56151346e-01  4.56151346e-01  1.54508623e-07  1.61596311e-07  3.70000000e-01 
 3.80000000e-01  4.56151319e-01  3.48513147e-09  3.61600333e-09  3.32916196e-09  4.56151319e-01  4.56151319e-01  4.56151319e-01  1.54508599e-07  1.61595992e-07  3.80000000e-01 
 3.90000000e-01  4.56151364e-01  3.48513147e-09  3.61600339e-09  3.32916195e-09  4.56151364e-01  4.56151364e-01  4.56151364e-01  1.54508649e-07  1.61596034e-07  3.90000000e-01 
 4.00000000e-01  4.56151350e-01  3.48513153e-09  3.61600333e-09  3.32916201e-09  4.56151350e-01  4.56151350e-01  4.56151350e-01  1.54508630e-07  1.61595931e-07  4.00000000e-01 
 4.10000000e-01  4.56151346e-01  3.48513153e-09  3.61600339e-09  3.32916194e-09  4.56151346e-01  4.56151346e-01  4.56151346e-01  1.54508627e-07  1.61595711e-07  4.10000000e-01 
 4.20000000e-01  4.56151365e-01  3.48513147e-09  3.61600333e-09  3.32916196e-09  4.56151365e-01  4.56151364e-01  4.56151365e-01  1.54508673e-07  1.61595679e-07  4.20000000e-01 
 4.30000000e-01  4.56151337e-01  3.48513147e-09  3.61600339e-09  3.32916195e-09  4.56151337e-01  4.56151337e-01  4.56151337e-01  1.54508608e-07  1.61595388e-07  4.30000000e-01 
 4.40000000e-01  4.56151368e-01  3.48513153e-09  3.61600334e-09  3.32916195e-09  4.56151368e-01  4.56151368e-01  4.56151368e-01  1.54508663e-07  1.61595480e-07  4.40000000e-01 
 4.50000000e-01  4.56151354e-01  3.48513147e-09  3.61600339e-09  3.32916201e-09  4.56151354e-01  4.56151354e-01  4.56151354e-01  1.54508622e-07  1.61595189e-07  4.50000000e-01 
 4.60000000e-01  4.56151368e-01  3.48513147e-09  3.61600339e-09  3.32916200e-09  4.56151368e-01  4.56151367e-01  4.56151368e-01  1.54508675e-07  1.61595068e-07  4.60000000e-01 
 4.70000000e-01  4.56151355e-01  3.48513147e-09  3.61600333e-09  3.32916200e-09  4.56151355e-01  4.56151355e-01  4.56151355e-01  1.54508641e-07  1.61594933e-07  4.70000000e-01 
 4.80000000e-01  4.56151355e-01  3.48513153e-09  3.61600333e-09  3.32916200e-09  4.56151355e-01  4.56151355e-01  4.56151355e-01  1.54508652e-07  1.61594873e-07  4.80000000e-01 
 4.90000000e-01  4.56151342e-01  3.48513147e-09  3.61600333e-09  3.32916200e-09  4.56151342e-01  4.56151342e-01  4.56151342e-01  1.54508635e-07  1.61594709e-07  4.90000000e-01 
 5.00000000e-01  4.56151333e-01  3.48513147e-09  3.61600333e-09  3.32916200e-09  4.56151333e-01  4.56151333e-01  4.56151333e-01  1.54508614e-07  1.61594624e-07  5.00000000e-01 
 5.10000000e-01  4.56151341e-01  3.48513147e-09  3.61600333e-09  3.32916200e-09  4.56151341e-01  4.56151341e-01  4.56151341e-01  1.54508636e-07  1.61594471e-07  5.10000000e-01 
 5.20000000e-01  4.56151357e-01  3.48513147e-09  3.61600333e-09  3.32916200e-09  4.56151357e-01  4.56151357e-01  4.56151357e-01  1.54508645e-07  1.61594460e-07  5.20000000e-01 
 5.30000000e-01  4.56151351e-01  3.48513147e-09  3.61600333e-09  3.32916200e-09  4.56151351e-01  4.56151351e-01  4.56151351e-01  1.54508640e-07  1.61594340e-07  5.30000000e-01 
 5.40000000e-01  4.56151355e-01  3.48513153e-09  3.61600339e-09  3.32916200e-09  4.56151355e-01  4.56151355e-01  4.56151355e-01  1.54508646e-07  1.61594233e-07  5.40000000e-01 
 5.50000000e-01  4.56151347e-01  3.48513147e-09  3.61600339e-09  3.32916194e-09  4.56151347e-01  4.56151347e-01  4.56151347e-01  1.54508640e-07  1.61593974e-07  5.50000000e-01 
 5.60000000e-01  4.56151361e-01  3.48513147e-09  3.61600339e-09  3.32916196e-09  4.56151361e-01  4.56151361e-01  4.56151361e-01  1.54508661e-07  1.61593931e-07  5.60000000e-01 
 5.70000000e-01  4.56151378e-01  3.48513147e-09  3.61600334e-09  3.32916201e-09  4.56151378e-01  4.56151378e-01  4.56151378e-01  1.54508679e-07  1.61593910e-07  5.70000000e-01 
 5.80000000e-01  4.56151353e-01  3.48513153e-09  3.61600333e-09  3.32916200e-09  4.56151353e-01  4.56151353e-01  4.56151353e-01  1.54508636e-07  1.61593640e-07  5.80000000e-01 
 5.90000000e-01  4.56151376e-01  3.48513147e-09  3.61600339e-09  3.32916200e-09  4.56151376e-01  4.56151376e-01  4.56151376e-01  1.54508690e-07  1.61593725e-07  5.90000000e-01 
 6.00000000e-01  4.56151342e-01  3.48513153e-09  3.61600333e-09  3.32916200e-09  4.56151342e-01  4.56151342e-01  4.56151342e-01  1.54508625e-07  1.61593356e-07  6.00000000e-01 
 6.10000000e-01  4.56151352e-01  3.48513153e-09  3.61600333e-09  3.32916200e-09  4.56151352e-01  4.56151352e-01  4.56151352e-01  1.54508658e-07  1.61593348e-07  6.10000000e-01 
 6.20000000e-01  4.56151345e-01  3.48513147e-09  3.61600339e-09  3.32916194e-09  4.56151345e-01  4.56151345e-01  4.56151345e-01  1.54508619e-07  1.61593235e-07  6.20000000e-01 
 6.30000000e-01  4.56151382e-01  3.48513153e-09  3.61600339e-09  3.32916202e-09  4.56151382e-01  4.56151382e-01  4.56151382e-01  1.54508680e-07  1.61593356e-07  6.30000000e-01 
 6.40000000e-01  4.56151365e-01  3.48513147e-09  3.61600334e-09  3.32916200e-09  4.56151365e-01  4.56151365e-01  4.56151365e-01  1.54508674e-07  1.61593078e-07  6.40000000e-01 
 6.50000000e-01  4.56151357e-01  3.48513153e-09  3.61600339e-09  3.32916200e-09  4.56151357e-01  4.56151357e-01  4.56151357e-01  1.54508645e-07  1.61592851e-07  6.50000000e-01 
 6.60000000e-01  4.56151353e-01  3.48513147e-09  3.61600339e-09  3.32916200e-09  4.56151353e-01  4.56151352e-01  4.56151353e-01  1.54508640e-07  1.61592737e-07  6.60000000e-01 
 6.70000000e-01  4.56151345e-01  3.48513147e-09  3.61600333e-09  3.32916194e-09  4.56151345e-01  4.56151345e-01  4.56151345e-01  1.54508635e-07  1.61592510e-07  6.70000000e-01 
 6.80000000e-01  4.56151357e-01  3.48513147e-09  3.61600339e-09  3.32916196e-09  4.56151357e-01  4.56151357e-01  4.56151357e-01  1.54508653e-07  1.61592475e-07  6.80000000e-01 
 6.90000000e-01  4.56151372e-01  3.48513147e-09  3.61600334e-09  3.32916195e-09  4.56151372e-01  4.56151372e-01  4.56151372e-01  1.54508665e-07  1.61592439e-07  6.90000000e-01 
 7.00000000e-01  4.56151330e-01  3.48513147e-09  3.61600339e-09  3.32916201e-09  4.56151330e-01  4.56151329e-01  4.56151330e-01  1.54508600e-07  1.61592105e-07  7.00000000e-01 
 7.10000000e-01  4.56151344e-01  3.48513147e-09  3.61600333e-09  3.32916199e-09  4.56151344e-01  4.56151344e-01  4.56151344e-01  1.54508629e-07  1.61592155e-07  7.10000000e-01 
 7.20000000e-01  4.56151372e-01  3.48513153e-09  3.61600339e-09  3.32916195e-09  4.56151372e-01  4.56151371e-01  4.56151372e-01  1.54508669e-07  1.61592105e-07  7.20000000e-01 
 7.30000000e-01  4.56151366e-01  3.48513153e-09  3.61600339e-09  3.32916201e-09  4.56151366e-01  4.56151366e-01  4.56151366e-01  1.54508661e-07  1.61591871e-07  7.30000000e-01 
 7.40000000e-01  4.56151351e-01  3.48513147e-09  3.61600333e-09  3.32916194e-09  4.56151351e-01  4.56151351e-01  4.56151351e-01  1.54508627e-07  1.61591750e-07  7.40000000e-01 
 7.50000000e-01  4.56151378e-01  3.48513153e-09  3.61600334e-09  3.32916201e-09  4.56151378e-01  4.56151377e-01  4.56151378e-01  1.54508698e-07  1.61591750e-07  7.50000000e-01 
 7.60000000e-01  4.56151328e-01  3.48513147e-09  3.61600339e-09  3.32916199e-09  4.56151328e-01  4.56151327e-01  4.56151328e-01  1.54508610e-07  1.61591394e-07  7.60000000e-01 
 7.70000000e-01  4.56151351e-01  3.48513153e-09  3.61600333e-09  3.32916200e-09  4.56151351e-01  4.56151351e-01  4.56151351e-01  1.54508637e-07  1.61591366e-07  7.70000000e-01 
 7.80000000e-01  4.56151354e-01  3.48513147e-09  3.61600339e-09  3.32916200e-09  4.56151354e-01  4.56151354e-01  4.56151354e-01  1.54508635e-07  1.61591181e-07  7.80000000e-01 
 7.90000000e-01  4.56151366e-01  3.48513147e-09  3.61600334e-09  3.32916200e-09  4.56151366e-01  4.56151366e-01  4.56151366e-01  1.54508663e-07  1.61591196e-07  7.90000000e-01 
 8.00000000e-01  4.56151356e-01  3.48513147e-09  3.61600333e-09  3.32916200e-09  4.56151356e-01  4.56151356e-01  4.56151356e-01  1.54508650e-07  1.61590989e-07  8.00000000e-01 
 8.10000000e-01  4.56151369e-01  3.48513147e-09  3.61600339e-09  3.32916195e-09  4.56151369e-01  4.56151369e-01  4.56151369e-01  1.54508676e-07  1.61590961e-07  8.10000000e-01 
 8.20000000e-01  4.56151385e-01  3.48513148e-09  3.61600340e-09  3.32916202e-09  4.56151385e-01  4.56151385e-01  4.56151385e-01  1.54508679e-07  1.61590776e-07  8.20000000e-01 
 8.30000000e-01  4.56151347e-01  3.48513153e-09  3.61600333e-09  3.32916194e-09  4.56151347e-01  4.56151347e-01  4.56151347e-01  1.54508625e-07  1.61590584e-07  8.30000000e-01 
 8.40000000e-01  4.56151350e-01  3.48513153e-09  3.61600333e-09  3.32916201e-09  4.56151350e-01  4.56151350e-01  4.56151350e-01  1.54508642e-07  1.61590556e-07  8.40000000e-01 
 8.50000000e-01  4.56151358e-01  3.48513153e-09  3.61600333e-09  3.32916200e-09  4.56151358e-01  4.56151358e-01  4.56151358e-01  1.54508643e-07  1.61590393e-07  8.50000000e-01 
 8.60000000e-01  4.56151360e-01  3.48513147e-09  3.61600333e-09  3.32916200e-09  4.56151360e-01  4.56151360e-01  4.56151360e-01  1.54508653e-07  1.61590229e-07  8.60000000e-01 
 8.70000000e-01  4.56151357e-01  3.48513147e-09  3.61600339e-09  3.32916200e-09  4.56151357e-01  4.56151357e-01  4.56151357e-01  1.54508649e-07  1.61590137e-07  8.70000000e-01 
 8.80000000e-01  4.56151341e-01  3.48513147e-09  3.61600339e-09  3.32916200e-09  4.56151341e-01  4.56151341e-01  4.56151341e-01  1.54508626e-07  1.61589981e-07  8.80000000e-01 
 8.90000000e-01  4.56151357e-01  3.48513147e-09  3.61600339e-09  3.32916200e-09  4.56151357e-01  4.56151357e-01  4.56151357e-01  1.54508645e-07  1.61589881e-07  8.90000000e-01 
 9.00000000e-01  4.56151354e-01  3.48513147e-09  3.61600339e-09  3.32916200e-09  4.56151354e-01  4.56151354e-01  4.56151354e-01  1.54508643e-07  1.61589625e-07  9.00000000e-01 
 9.10000000e-01  4.56151369e-01  3.48513147e-09  3.61600334e-09  3.32916195e-09  4.56151369e-01  4.56151369e-01  4.56151369e-01  1.54508679e-07  1.61589590e-07  9.10000000e-01 
 9.20000000e-01  4.56151343e-01  3.48513153e-09  3.61600333e-09  3.32916201e-09  4.56151343e-01  4.56151343e-01  4.56151343e-01  1.54508629e-07  1.61589476e-07  9.20000000e-01 
 9.30000000e-01  4.56151384e-01  3.48513148e-09  3.61600340e-09  3.32916200e-09  4.56151384e-01  4.56151384e-01  4.56151384e-01  1.54508707e-07  1.61589483e-07  9.30000000e-01 
 9.40000000e-01  4.56151357e-01  3.48513147e-09  3.61600333e-09  3.32916194e-09  4.56151357e-01  4.56151357e-01  4.56151357e-01  1.54508662e-07  1.61589234e-07  9.40000000e-01 
 9.50000000e-01  4.56151352e-01  3.48513147e-09  3.61600333e-09  3.32916201e-09  4.56151352e-01  4.56151352e-01  4.56151352e-01  1.54508639e-07  1.61588957e-07  9.50000000e-01 
 9.60000000e-01  4.56151353e-01  3.48513147e-09  3.61600339e-09  3.32916200e-09  4.56151353e-01  4.56151353e-01  4.56151353e-01  1.54508636e-07  1.61588900e-07  9.60000000e-01 
 9.70000000e-01  4.56151339e-01  3.48513147e-09  3.61600333e-09  3.32916200e-09  4.56151339e-01  4.56151339e-01  4.56151339e-01  1.54508625e-07  1.61588758e-07  9.70000000e-01 
 9.80000000e-01  4.56151338e-01  3.48513153e-09  3.61600333e-09  3.32916200e-09  4.56151338e-01  4.56151338e-01  4.56151338e-01  1.54508614e-07  1.61588588e-07  9.80000000e-01 
 9.90000000e-01  4.56151362e-01  3.48513153e-09  3.61600339e-09  3.32916194e-09  4.56151362e-01  4.56151361e-01  4.56151362e-01  1.54508658e-07  1.61588559e-07  9.90000000e-01 
 1.00000000e+00  4.56151365e-01  3.48513153e-09  3.61600339e-09  3.32916201e-09  4.56151365e-01  4.56151365e-01  4.56151365e-01  1.54508658e-07  1.61588325e-07  1.00000000e+00 
 1.01000000e+00  4.56151355e-01  3.48513153e-09  3.61600339e-09  3.32916200e-09  4.56151355e-01  4.56151355e-01  4.56151355e-01  1.54508653e-07  1.61588268e-07  1.01000000e+00 
 1.02000000e+00  4.56151360e-01  3.48513153e-09  3.61600333e-09  3.32916200e-09  4.56151360e-01  4.56151360e-01  4.56151360e-01  1.54508649e-07  1.61588112e-07  1.02000000e+00 
 1.03000000e+00  4.56151333e-01  3.48513153e-09  3.61600339e-09  3.32916200e-09  4.56151333e-01  4.56151333e-01  4.56151333e-01  1.54508602e-07  1.61587820e-07  1.03000000e+00 
 1.04000000e+00  4.56151364e-01  3.48513153e-09  3.61600333e-09  3.32916200e-09  4.56151364e-01  4.56151364e-01  4.56151364e-01  1.54508676e-07  1.61587757e-07  1.04000000e+00 
 1.05000000e+00  4.56151345e-01  3.48513147e-09  3.61600333e-09  3.32916194e-09  4.56151345e-01  4.56151345e-01  4.56151345e-01  1.54508636e-07  1.61587600e-07  1.05000000e+00 
 1.06000000e+00  4.56151348e-01  3.48513147e-09  3.61600333e-09  3.32916196e-09  4.56151348e-01  4.56151348e-01  4.56151348e-01  1.54508630e-07  1.61587430e-07  1.06000000e+00 
 1.07000000e+00  4.56151356e-01  3.48513153e-09  3.61600333e-09  3.32916201e-09  4.56151356e-01  4.56151356e-01  4.56151356e-01  1.54508660e-07  1.61587245e-07  1.07000000e+00 
 1.08000000e+00  4.56151364e-01  3.48513153e-09  3.61600339e-09  3.32916200e-09  4.56151364e-01  4.56151364e-01  4.56151364e-01  1.54508642e-07  1.61587160e-07  1.08000000e+00 
 1.09000000e+00  4.56151357e-01  3.48513153e-09  3.61600339e-09  3.32916194e-09  4.56151357e-01  4.56151357e-01  4.56151357e-01  1.54508638e-07  1.61587010e-07  1.09000000e+00 
 1.10000000e+00  4.56151337e-01  3.48513147e-09  3.61600333e-09  3.32916196e-09  4.56151337e-01  4.56151337e-01  4.56151337e-01  1.54508630e-07  1.61586890e-07  1.10000000e+00 
