 v-sweep         v(b0)           v(b1)           v(b2)           v(b3)           v(b4)           v(b5)           v(b6)           i(vbias)        i(viout)        v(vout)        
 0.00000000e+00  4.57206676e-01  4.57206676e-01  4.57206676e-01  3.30345245e-09  4.57206676e-01  3.48747159e-09  3.12559479e-09  1.58162633e-07  3.39800650e-08  0.00000000e+00 
 1.00000000e-02  4.57206686e-01  4.57206686e-01  4.57206686e-01  3.30345249e-09  4.57206686e-01  3.48747157e-09  3.12559477e-09  1.58162656e-07  3.39796358e-08  1.00000000e-02 
 2.00000000e-02  4.57206716e-01  4.57206716e-01  4.57206716e-01  3.30345249e-09  4.57206716e-01  3.48747164e-09  3.12559477e-09  1.58162696e-07  3.39793220e-08  2.00000000e-02 
 3.00000000e-02  4.57206685e-01  4.57206685e-01  4.57206685e-01  3.30345244e-09  4.57206685e-01  3.48747162e-09  3.12559477e-09  1.58162653e-07  3.39788646e-08  3.00000000e-02 
 4.00000000e-02  4.57206692e-01  4.57206692e-01  4.57206692e-01  3.30345250e-09  4.57206692e-01  3.48747157e-09  3.12559477e-09  1.58162660e-07  3.39785955e-08  4.00000000e-02 
 5.00000000e-02  4.57206685e-01  4.57206685e-01  4.57206685e-01  3.30345243e-09  4.57206685e-01  3.48747158e-09  3.12559477e-09  1.58162657e-07  3.39782136e-08  5.00000000e-02 
 6.00000000e-02  4.57206712e-01  4.57206712e-01  4.57206712e-01  3.30345245e-09  4.57206712e-01  3.48747162e-09  3.12559477e-09  1.58162694e-07  3.39779409e-08  6.00000000e-02 
 7.00000000e-02  4.57206667e-01  4.57206667e-01  4.57206667e-01  3.30345249e-09  4.57206667e-01  3.48747157e-09  3.12559477e-09  1.58162621e-07  3.39774826e-08  7.00000000e-02 
 8.00000000e-02  4.57206712e-01  4.57206712e-01  4.57206712e-01  3.30345248e-09  4.57206712e-01  3.48747158e-09  3.12559477e-09  1.58162683e-07  3.39772415e-08  8.00000000e-02 
 9.00000000e-02  4.57206706e-01  4.57206706e-01  4.57206706e-01  3.30345250e-09  4.57206706e-01  3.48747156e-09  3.12559472e-09  1.58162674e-07  3.39771731e-08  9.00000000e-02 
 1.00000000e-01  4.57206693e-01  4.57206693e-01  4.57206693e-01  3.30345248e-09  4.57206693e-01  3.48747158e-09  3.12559477e-09  1.58162679e-07  3.39767858e-08  1.00000000e-01 
 1.10000000e-01  4.57206696e-01  4.57206696e-01  4.57206696e-01  3.30345244e-09  4.57206696e-01  3.48747162e-09  3.12559477e-09  1.58162667e-07  3.39764661e-08  1.10000000e-01 
 1.20000000e-01  4.57206693e-01  4.57206693e-01  4.57206693e-01  3.30345244e-09  4.57206693e-01  3.48747163e-09  3.12559477e-09  1.58162677e-07  3.39762334e-08  1.20000000e-01 
 1.30000000e-01  4.57206686e-01  4.57206686e-01  4.57206686e-01  3.30345244e-09  4.57206686e-01  3.48747163e-09  3.12559477e-09  1.58162665e-07  3.39761694e-08  1.30000000e-01 
 1.40000000e-01  4.57206698e-01  4.57206697e-01  4.57206698e-01  3.30345244e-09  4.57206698e-01  3.48747163e-09  3.12559472e-09  1.58162664e-07  3.39759030e-08  1.40000000e-01 
 1.50000000e-01  4.57206684e-01  4.57206684e-01  4.57206684e-01  3.30345249e-09  4.57206684e-01  3.48747157e-09  3.12559477e-09  1.58162647e-07  3.39756490e-08  1.50000000e-01 
 1.60000000e-01  4.57206696e-01  4.57206696e-01  4.57206696e-01  3.30345248e-09  4.57206696e-01  3.48747158e-09  3.12559477e-09  1.58162679e-07  3.39754216e-08  1.60000000e-01 
 1.70000000e-01  4.57206702e-01  4.57206702e-01  4.57206702e-01  3.30345250e-09  4.57206702e-01  3.48747156e-09  3.12559477e-09  1.58162685e-07  3.39753239e-08  1.70000000e-01 
 1.80000000e-01  4.57206672e-01  4.57206672e-01  4.57206673e-01  3.30345248e-09  4.57206673e-01  3.48747158e-09  3.12559477e-09  1.58162626e-07  3.39751409e-08  1.80000000e-01 
 1.90000000e-01  4.57206689e-01  4.57206689e-01  4.57206689e-01  3.30345244e-09  4.57206689e-01  3.48747156e-09  3.12559472e-09  1.58162656e-07  3.39749224e-08  1.90000000e-01 
 2.00000000e-01  4.57206700e-01  4.57206700e-01  4.57206701e-01  3.30345250e-09  4.57206701e-01  3.48747158e-09  3.12559477e-09  1.58162683e-07  3.39748585e-08  2.00000000e-01 
 2.10000000e-01  4.57206688e-01  4.57206688e-01  4.57206688e-01  3.30345248e-09  4.57206688e-01  3.48747162e-09  3.12559477e-09  1.58162665e-07  3.39746400e-08  2.10000000e-01 
 2.20000000e-01  4.57206701e-01  4.57206701e-01  4.57206701e-01  3.30345250e-09  4.57206701e-01  3.48747157e-09  3.12559477e-09  1.58162672e-07  3.39744641e-08  2.20000000e-01 
 2.30000000e-01  4.57206702e-01  4.57206702e-01  4.57206702e-01  3.30345248e-09  4.57206702e-01  3.48747158e-09  3.12559472e-09  1.58162687e-07  3.39743647e-08  2.30000000e-01 
 2.40000000e-01  4.57206685e-01  4.57206684e-01  4.57206685e-01  3.30345244e-09  4.57206685e-01  3.48747156e-09  3.12559477e-09  1.58162660e-07  3.39742012e-08  2.40000000e-01 
 2.50000000e-01  4.57206693e-01  4.57206693e-01  4.57206693e-01  3.30345250e-09  4.57206693e-01  3.48747158e-09  3.12559477e-09  1.58162672e-07  3.39741106e-08  2.50000000e-01 
 2.60000000e-01  4.57206696e-01  4.57206696e-01  4.57206696e-01  3.30345248e-09  4.57206696e-01  3.48747156e-09  3.12559477e-09  1.58162667e-07  3.39739863e-08  2.60000000e-01 
 2.70000000e-01  4.57206698e-01  4.57206698e-01  4.57206698e-01  3.30345250e-09  4.57206698e-01  3.48747158e-09  3.12559477e-09  1.58162678e-07  3.39739330e-08  2.70000000e-01 
 2.80000000e-01  4.57206667e-01  4.57206667e-01  4.57206667e-01  3.30345248e-09  4.57206667e-01  3.48747156e-09  3.12559471e-09  1.58162621e-07  3.39737483e-08  2.80000000e-01 
 2.90000000e-01  4.57206699e-01  4.57206699e-01  4.57206699e-01  3.30345244e-09  4.57206699e-01  3.48747164e-09  3.12559477e-09  1.58162668e-07  3.39737340e-08  2.90000000e-01 
 3.00000000e-01  4.57206679e-01  4.57206679e-01  4.57206679e-01  3.30345249e-09  4.57206679e-01  3.48747162e-09  3.12559477e-09  1.58162644e-07  3.39735244e-08  3.00000000e-01 
 3.10000000e-01  4.57206685e-01  4.57206685e-01  4.57206685e-01  3.30345248e-09  4.57206685e-01  3.48747163e-09  3.12559477e-09  1.58162658e-07  3.39736204e-08  3.10000000e-01 
 3.20000000e-01  4.57206679e-01  4.57206679e-01  4.57206679e-01  3.30345250e-09  4.57206679e-01  3.48747163e-09  3.12559477e-09  1.58162643e-07  3.39733077e-08  3.20000000e-01 
 3.30000000e-01  4.57206693e-01  4.57206693e-01  4.57206693e-01  3.30345248e-09  4.57206693e-01  3.48747157e-09  3.12559477e-09  1.58162649e-07  3.39732615e-08  3.30000000e-01 
 3.40000000e-01  4.57206708e-01  4.57206708e-01  4.57206708e-01  3.30345245e-09  4.57206708e-01  3.48747158e-09  3.12559477e-09  1.58162685e-07  3.39732118e-08  3.40000000e-01 
 3.50000000e-01  4.57206689e-01  4.57206689e-01  4.57206689e-01  3.30345249e-09  4.57206689e-01  3.48747156e-09  3.12559477e-09  1.58162665e-07  3.39730626e-08  3.50000000e-01 
 3.60000000e-01  4.57206690e-01  4.57206690e-01  4.57206691e-01  3.30345243e-09  4.57206691e-01  3.48747158e-09  3.12559477e-09  1.58162642e-07  3.39730910e-08  3.60000000e-01 
 3.70000000e-01  4.57206694e-01  4.57206694e-01  4.57206694e-01  3.30345250e-09  4.57206694e-01  3.48747162e-09  3.12559477e-09  1.58162670e-07  3.39729809e-08  3.70000000e-01 
 3.80000000e-01  4.57206684e-01  4.57206684e-01  4.57206684e-01  3.30345248e-09  4.57206684e-01  3.48747157e-09  3.12559477e-09  1.58162651e-07  3.39727926e-08  3.80000000e-01 
 3.90000000e-01  4.57206682e-01  4.57206682e-01  4.57206682e-01  3.30345244e-09  4.57206682e-01  3.48747158e-09  3.12559477e-09  1.58162638e-07  3.39728388e-08  3.90000000e-01 
 4.00000000e-01  4.57206691e-01  4.57206691e-01  4.57206691e-01  3.30345244e-09  4.57206691e-01  3.48747162e-09  3.12559477e-09  1.58162675e-07  3.39725794e-08  4.00000000e-01 
 4.10000000e-01  4.57206679e-01  4.57206679e-01  4.57206679e-01  3.30345249e-09  4.57206679e-01  3.48747163e-09  3.12559477e-09  1.58162647e-07  3.39726007e-08  4.10000000e-01 
 4.20000000e-01  4.57206685e-01  4.57206685e-01  4.57206685e-01  3.30345248e-09  4.57206685e-01  3.48747163e-09  3.12559477e-09  1.58162663e-07  3.39724764e-08  4.20000000e-01 
 4.30000000e-01  4.57206691e-01  4.57206691e-01  4.57206691e-01  3.30345244e-09  4.57206691e-01  3.48747163e-09  3.12559477e-09  1.58162669e-07  3.39724622e-08  4.30000000e-01 
 4.40000000e-01  4.57206671e-01  4.57206671e-01  4.57206671e-01  3.30345244e-09  4.57206671e-01  3.48747163e-09  3.12559471e-09  1.58162633e-07  3.39723627e-08  4.40000000e-01 
 4.50000000e-01  4.57206712e-01  4.57206712e-01  4.57206712e-01  3.30345250e-09  4.57206712e-01  3.48747157e-09  3.12559477e-09  1.58162684e-07  3.39723734e-08  4.50000000e-01 
 4.60000000e-01  4.57206718e-01  4.57206718e-01  4.57206718e-01  3.30345249e-09  4.57206718e-01  3.48747158e-09  3.12559477e-09  1.58162696e-07  3.39722916e-08  4.60000000e-01 
 4.70000000e-01  4.57206675e-01  4.57206675e-01  4.57206675e-01  3.30345244e-09  4.57206675e-01  3.48747162e-09  3.12559477e-09  1.58162641e-07  3.39722170e-08  4.70000000e-01 
 4.80000000e-01  4.57206690e-01  4.57206690e-01  4.57206690e-01  3.30345249e-09  4.57206690e-01  3.48747157e-09  3.12559477e-09  1.58162663e-07  3.39722455e-08  4.80000000e-01 
 4.90000000e-01  4.57206682e-01  4.57206682e-01  4.57206682e-01  3.30345248e-09  4.57206682e-01  3.48747158e-09  3.12559477e-09  1.58162651e-07  3.39720643e-08  4.90000000e-01 
 5.00000000e-01  4.57206679e-01  4.57206679e-01  4.57206679e-01  3.30345250e-09  4.57206680e-01  3.48747156e-09  3.12559471e-09  1.58162651e-07  3.39720110e-08  5.00000000e-01 
 5.10000000e-01  4.57206700e-01  4.57206700e-01  4.57206700e-01  3.30345248e-09  4.57206700e-01  3.48747158e-09  3.12559472e-09  1.58162680e-07  3.39719470e-08  5.10000000e-01 
 5.20000000e-01  4.57206675e-01  4.57206675e-01  4.57206675e-01  3.30345244e-09  4.57206675e-01  3.48747162e-09  3.12559477e-09  1.58162639e-07  3.39718724e-08  5.20000000e-01 
 5.30000000e-01  4.57206698e-01  4.57206698e-01  4.57206698e-01  3.30345250e-09  4.57206698e-01  3.48747157e-09  3.12559472e-09  1.58162675e-07  3.39718795e-08  5.30000000e-01 
 5.40000000e-01  4.57206674e-01  4.57206674e-01  4.57206674e-01  3.30345242e-09  4.57206674e-01  3.48747158e-09  3.12559477e-09  1.58162641e-07  3.39718120e-08  5.40000000e-01 
 5.50000000e-01  4.57206715e-01  4.57206715e-01  4.57206715e-01  3.30345245e-09  4.57206715e-01  3.48747156e-09  3.12559477e-09  1.58162696e-07  3.39717943e-08  5.50000000e-01 
 5.60000000e-01  4.57206683e-01  4.57206682e-01  4.57206683e-01  3.30345244e-09  4.57206683e-01  3.48747158e-09  3.12559477e-09  1.58162647e-07  3.39716841e-08  5.60000000e-01 
 5.70000000e-01  4.57206697e-01  4.57206697e-01  4.57206697e-01  3.30345250e-09  4.57206697e-01  3.48747156e-09  3.12559477e-09  1.58162680e-07  3.39715776e-08  5.70000000e-01 
 5.80000000e-01  4.57206700e-01  4.57206700e-01  4.57206701e-01  3.30345248e-09  4.57206701e-01  3.48747158e-09  3.12559477e-09  1.58162681e-07  3.39714816e-08  5.80000000e-01 
 5.90000000e-01  4.57206698e-01  4.57206698e-01  4.57206698e-01  3.30345250e-09  4.57206698e-01  3.48747162e-09  3.12559477e-09  1.58162666e-07  3.39714816e-08  5.90000000e-01 
 6.00000000e-01  4.57206691e-01  4.57206691e-01  4.57206691e-01  3.30345248e-09  4.57206691e-01  3.48747157e-09  3.12559477e-09  1.58162670e-07  3.39714461e-08  6.00000000e-01 
 6.10000000e-01  4.57206702e-01  4.57206702e-01  4.57206702e-01  3.30345250e-09  4.57206702e-01  3.48747158e-09  3.12559477e-09  1.58162678e-07  3.39714674e-08  6.10000000e-01 
 6.20000000e-01  4.57206686e-01  4.57206686e-01  4.57206686e-01  3.30345248e-09  4.57206686e-01  3.48747162e-09  3.12559477e-09  1.58162654e-07  3.39713893e-08  6.20000000e-01 
 6.30000000e-01  4.57206679e-01  4.57206679e-01  4.57206679e-01  3.30345250e-09  4.57206679e-01  3.48747163e-09  3.12559471e-09  1.58162636e-07  3.39712258e-08  6.30000000e-01 
 6.40000000e-01  4.57206690e-01  4.57206690e-01  4.57206690e-01  3.30345248e-09  4.57206690e-01  3.48747163e-09  3.12559472e-09  1.58162665e-07  3.39714106e-08  6.40000000e-01 
 6.50000000e-01  4.57206674e-01  4.57206674e-01  4.57206674e-01  3.30345250e-09  4.57206674e-01  3.48747163e-09  3.12559477e-09  1.58162634e-07  3.39713111e-08  6.50000000e-01 
 6.60000000e-01  4.57206668e-01  4.57206668e-01  4.57206669e-01  3.30345242e-09  4.57206669e-01  3.48747157e-09  3.12559477e-09  1.58162622e-07  3.39711264e-08  6.60000000e-01 
 6.70000000e-01  4.57206665e-01  4.57206665e-01  4.57206665e-01  3.30345244e-09  4.57206665e-01  3.48747158e-09  3.12559477e-09  1.58162622e-07  3.39710766e-08  6.70000000e-01 
 6.80000000e-01  4.57206700e-01  4.57206700e-01  4.57206700e-01  3.30345244e-09  4.57206700e-01  3.48747162e-09  3.12559477e-09  1.58162665e-07  3.39710127e-08  6.80000000e-01 
 6.90000000e-01  4.57206693e-01  4.57206693e-01  4.57206693e-01  3.30345244e-09  4.57206693e-01  3.48747163e-09  3.12559477e-09  1.58162691e-07  3.39708990e-08  6.90000000e-01 
 7.00000000e-01  4.57206702e-01  4.57206702e-01  4.57206702e-01  3.30345244e-09  4.57206702e-01  3.48747157e-09  3.12559477e-09  1.58162678e-07  3.39709700e-08  7.00000000e-01 
 7.10000000e-01  4.57206711e-01  4.57206711e-01  4.57206711e-01  3.30345250e-09  4.57206711e-01  3.48747158e-09  3.12559477e-09  1.58162692e-07  3.39709416e-08  7.10000000e-01 
 7.20000000e-01  4.57206685e-01  4.57206685e-01  4.57206685e-01  3.30345248e-09  4.57206686e-01  3.48747156e-09  3.12559477e-09  1.58162661e-07  3.39708421e-08  7.20000000e-01 
 7.30000000e-01  4.57206681e-01  4.57206681e-01  4.57206682e-01  3.30345244e-09  4.57206682e-01  3.48747158e-09  3.12559477e-09  1.58162661e-07  3.39707213e-08  7.30000000e-01 
 7.40000000e-01  4.57206708e-01  4.57206708e-01  4.57206708e-01  3.30345250e-09  4.57206708e-01  3.48747162e-09  3.12559477e-09  1.58162677e-07  3.39707924e-08  7.40000000e-01 
 7.50000000e-01  4.57206667e-01  4.57206667e-01  4.57206667e-01  3.30345242e-09  4.57206667e-01  3.48747157e-09  3.12559471e-09  1.58162634e-07  3.39705934e-08  7.50000000e-01 
 7.60000000e-01  4.57206701e-01  4.57206701e-01  4.57206701e-01  3.30345250e-09  4.57206701e-01  3.48747158e-09  3.12559477e-09  1.58162688e-07  3.39706432e-08  7.60000000e-01 
 7.70000000e-01  4.57206697e-01  4.57206696e-01  4.57206697e-01  3.30345248e-09  4.57206697e-01  3.48747156e-09  3.12559477e-09  1.58162675e-07  3.39705934e-08  7.70000000e-01 
 7.80000000e-01  4.57206701e-01  4.57206701e-01  4.57206701e-01  3.30345245e-09  4.57206701e-01  3.48747164e-09  3.12559477e-09  1.58162679e-07  3.39705721e-08  7.80000000e-01 
 7.90000000e-01  4.57206709e-01  4.57206709e-01  4.57206709e-01  3.30345250e-09  4.57206709e-01  3.48747156e-09  3.12559477e-09  1.58162691e-07  3.39704371e-08  7.90000000e-01 
 8.00000000e-01  4.57206688e-01  4.57206688e-01  4.57206688e-01  3.30345243e-09  4.57206688e-01  3.48747158e-09  3.12559477e-09  1.58162657e-07  3.39704158e-08  8.00000000e-01 
 8.10000000e-01  4.57206688e-01  4.57206688e-01  4.57206689e-01  3.30345250e-09  4.57206689e-01  3.48747156e-09  3.12559477e-09  1.58162657e-07  3.39703305e-08  8.10000000e-01 
 8.20000000e-01  4.57206698e-01  4.57206698e-01  4.57206698e-01  3.30345248e-09  4.57206698e-01  3.48747158e-09  3.12559477e-09  1.58162664e-07  3.39702737e-08  8.20000000e-01 
 8.30000000e-01  4.57206698e-01  4.57206698e-01  4.57206698e-01  3.30345244e-09  4.57206698e-01  3.48747156e-09  3.12559472e-09  1.58162668e-07  3.39701174e-08  8.30000000e-01 
 8.40000000e-01  4.57206679e-01  4.57206679e-01  4.57206679e-01  3.30345244e-09  4.57206679e-01  3.48747158e-09  3.12559477e-09  1.58162641e-07  3.39701884e-08  8.40000000e-01 
 8.50000000e-01  4.57206665e-01  4.57206665e-01  4.57206665e-01  3.30345249e-09  4.57206665e-01  3.48747156e-09  3.12559477e-09  1.58162627e-07  3.39700961e-08  8.50000000e-01 
 8.60000000e-01  4.57206700e-01  4.57206700e-01  4.57206700e-01  3.30345248e-09  4.57206700e-01  3.48747158e-09  3.12559477e-09  1.58162671e-07  3.39699824e-08  8.60000000e-01 
 8.70000000e-01  4.57206713e-01  4.57206712e-01  4.57206713e-01  3.30345245e-09  4.57206713e-01  3.48747162e-09  3.12559477e-09  1.58162678e-07  3.39699966e-08  8.70000000e-01 
 8.80000000e-01  4.57206666e-01  4.57206666e-01  4.57206666e-01  3.30345244e-09  4.57206666e-01  3.48747157e-09  3.12559477e-09  1.58162633e-07  3.39698758e-08  8.80000000e-01 
 8.90000000e-01  4.57206688e-01  4.57206688e-01  4.57206688e-01  3.30345249e-09  4.57206688e-01  3.48747158e-09  3.12559477e-09  1.58162643e-07  3.39698119e-08  8.90000000e-01 
 9.00000000e-01  4.57206686e-01  4.57206686e-01  4.57206686e-01  3.30345243e-09  4.57206686e-01  3.48747162e-09  3.12559477e-09  1.58162646e-07  3.39698829e-08  9.00000000e-01 
 9.10000000e-01  4.57206700e-01  4.57206700e-01  4.57206700e-01  3.30345250e-09  4.57206700e-01  3.48747157e-09  3.12559472e-09  1.58162669e-07  3.39697266e-08  9.10000000e-01 
 9.20000000e-01  4.57206682e-01  4.57206682e-01  4.57206682e-01  3.30345248e-09  4.57206682e-01  3.48747158e-09  3.12559477e-09  1.58162652e-07  3.39696911e-08  9.20000000e-01 
 9.30000000e-01  4.57206664e-01  4.57206664e-01  4.57206664e-01  3.30345244e-09  4.57206664e-01  3.48747156e-09  3.12559477e-09  1.58162632e-07  3.39696626e-08  9.30000000e-01 
 9.40000000e-01  4.57206703e-01  4.57206703e-01  4.57206703e-01  3.30345250e-09  4.57206703e-01  3.48747158e-09  3.12559477e-09  1.58162676e-07  3.39695347e-08  9.40000000e-01 
 9.50000000e-01  4.57206691e-01  4.57206691e-01  4.57206691e-01  3.30345248e-09  4.57206691e-01  3.48747162e-09  3.12559477e-09  1.58162671e-07  3.39695561e-08  9.50000000e-01 
 9.60000000e-01  4.57206695e-01  4.57206695e-01  4.57206695e-01  3.30345250e-09  4.57206696e-01  3.48747157e-09  3.12559477e-09  1.58162667e-07  3.39694992e-08  9.60000000e-01 
 9.70000000e-01  4.57206689e-01  4.57206689e-01  4.57206690e-01  3.30345243e-09  4.57206690e-01  3.48747164e-09  3.12559477e-09  1.58162660e-07  3.39694353e-08  9.70000000e-01 
 9.80000000e-01  4.57206690e-01  4.57206690e-01  4.57206690e-01  3.30345250e-09  4.57206690e-01  3.48747162e-09  3.12559477e-09  1.58162651e-07  3.39693145e-08  9.80000000e-01 
 9.90000000e-01  4.57206690e-01  4.57206690e-01  4.57206690e-01  3.30345248e-09  4.57206690e-01  3.48747163e-09  3.12559477e-09  1.58162662e-07  3.39692221e-08  9.90000000e-01 
 1.00000000e+00  4.57206701e-01  4.57206700e-01  4.57206701e-01  3.30345245e-09  4.57206701e-01  3.48747163e-09  3.12559477e-09  1.58162674e-07  3.39692363e-08  1.00000000e+00 
 1.01000000e+00  4.57206697e-01  4.57206697e-01  4.57206697e-01  3.30345244e-09  4.57206697e-01  3.48747157e-09  3.12559477e-09  1.58162690e-07  3.39691795e-08  1.01000000e+00 
 1.02000000e+00  4.57206683e-01  4.57206683e-01  4.57206683e-01  3.30345244e-09  4.57206683e-01  3.48747164e-09  3.12559477e-09  1.58162667e-07  3.39691013e-08  1.02000000e+00 
 1.03000000e+00  4.57206693e-01  4.57206693e-01  4.57206693e-01  3.30345244e-09  4.57206693e-01  3.48747156e-09  3.12559477e-09  1.58162666e-07  3.39690942e-08  1.03000000e+00 
 1.04000000e+00  4.57206694e-01  4.57206694e-01  4.57206694e-01  3.30345250e-09  4.57206694e-01  3.48747158e-09  3.12559477e-09  1.58162681e-07  3.39689805e-08  1.04000000e+00 
 1.05000000e+00  4.57206682e-01  4.57206682e-01  4.57206682e-01  3.30345242e-09  4.57206682e-01  3.48747162e-09  3.12559477e-09  1.58162649e-07  3.39689237e-08  1.05000000e+00 
 1.06000000e+00  4.57206674e-01  4.57206674e-01  4.57206674e-01  3.30345250e-09  4.57206674e-01  3.48747157e-09  3.12559477e-09  1.58162632e-07  3.39688384e-08  1.06000000e+00 
 1.07000000e+00  4.57206687e-01  4.57206687e-01  4.57206687e-01  3.30345248e-09  4.57206687e-01  3.48747158e-09  3.12559477e-09  1.58162647e-07  3.39687034e-08  1.07000000e+00 
 1.08000000e+00  4.57206720e-01  4.57206720e-01  4.57206720e-01  3.30345245e-09  4.57206720e-01  3.48747162e-09  3.12559477e-09  1.58162715e-07  3.39687034e-08  1.08000000e+00 
 1.09000000e+00  4.57206683e-01  4.57206682e-01  4.57206683e-01  3.30345249e-09  4.57206683e-01  3.48747157e-09  3.12559477e-09  1.58162642e-07  3.39686963e-08  1.09000000e+00 
 1.10000000e+00  4.57206697e-01  4.57206697e-01  4.57206697e-01  3.30345248e-09  4.57206697e-01  3.48747158e-09  3.12559477e-09  1.58162665e-07  3.39686039e-08  1.10000000e+00 
