 v-sweep         v(b0)           v(b1)           v(b2)           v(b3)           v(b4)           v(b5)           v(b6)           i(vbias)        i(viout)        v(vout)        
 0.00000000e+00  4.55179039e-01  4.55179039e-01  3.32793349e-09  3.46498237e-09  4.55179039e-01  4.55179039e-01  4.55179039e-01  1.53078637e-07  1.65867921e-07  0.00000000e+00 
 1.00000000e-02  4.55179029e-01  4.55179029e-01  3.32793347e-09  3.46498234e-09  4.55179029e-01  4.55179029e-01  4.55179029e-01  1.53078626e-07  1.65867387e-07  1.00000000e-02 
 2.00000000e-02  4.55178995e-01  4.55178995e-01  3.32793352e-09  3.46498234e-09  4.55178995e-01  4.55178995e-01  4.55178995e-01  1.53078577e-07  1.65866760e-07  2.00000000e-02 
 3.00000000e-02  4.55179029e-01  4.55179029e-01  3.32793353e-09  3.46498240e-09  4.55179029e-01  4.55179029e-01  4.55179029e-01  1.53078628e-07  1.65866442e-07  3.00000000e-02 
 4.00000000e-02  4.55179037e-01  4.55179037e-01  3.32793353e-09  3.46498234e-09  4.55179037e-01  4.55179037e-01  4.55179037e-01  1.53078632e-07  1.65866055e-07  4.00000000e-02 
 5.00000000e-02  4.55179043e-01  4.55179043e-01  3.32793347e-09  3.46498234e-09  4.55179043e-01  4.55179043e-01  4.55179043e-01  1.53078651e-07  1.65865650e-07  5.00000000e-02 
 6.00000000e-02  4.55179034e-01  4.55179034e-01  3.32793347e-09  3.46498240e-09  4.55179034e-01  4.55179034e-01  4.55179034e-01  1.53078641e-07  1.65865321e-07  6.00000000e-02 
 7.00000000e-02  4.55179022e-01  4.55179022e-01  3.32793347e-09  3.46498240e-09  4.55179022e-01  4.55179022e-01  4.55179022e-01  1.53078638e-07  1.65864882e-07  7.00000000e-02 
 8.00000000e-02  4.55179054e-01  4.55179054e-01  3.32793353e-09  3.46498240e-09  4.55179054e-01  4.55179054e-01  4.55179054e-01  1.53078670e-07  1.65864672e-07  8.00000000e-02 
 9.00000000e-02  4.55179057e-01  4.55179057e-01  3.32793347e-09  3.46498234e-09  4.55179057e-01  4.55179057e-01  4.55179057e-01  1.53078667e-07  1.65864344e-07  9.00000000e-02 
 1.00000000e-01  4.55179033e-01  4.55179033e-01  3.32793347e-09  3.46498234e-09  4.55179033e-01  4.55179033e-01  4.55179033e-01  1.53078629e-07  1.65864001e-07  1.00000000e-01 
 1.10000000e-01  4.55179044e-01  4.55179044e-01  3.32793353e-09  3.46498234e-09  4.55179044e-01  4.55179044e-01  4.55179044e-01  1.53078652e-07  1.65863639e-07  1.10000000e-01 
 1.20000000e-01  4.55179037e-01  4.55179037e-01  3.32793347e-09  3.46498234e-09  4.55179037e-01  4.55179037e-01  4.55179037e-01  1.53078621e-07  1.65863249e-07  1.20000000e-01 
 1.30000000e-01  4.55179015e-01  4.55179015e-01  3.32793352e-09  3.46498234e-09  4.55179015e-01  4.55179015e-01  4.55179015e-01  1.53078615e-07  1.65863016e-07  1.30000000e-01 
 1.40000000e-01  4.55179042e-01  4.55179042e-01  3.32793347e-09  3.46498240e-09  4.55179042e-01  4.55179042e-01  4.55179042e-01  1.53078638e-07  1.65862762e-07  1.40000000e-01 
 1.50000000e-01  4.55179044e-01  4.55179044e-01  3.32793353e-09  3.46498240e-09  4.55179044e-01  4.55179044e-01  4.55179044e-01  1.53078650e-07  1.65862595e-07  1.50000000e-01 
 1.60000000e-01  4.55179047e-01  4.55179048e-01  3.32793347e-09  3.46498234e-09  4.55179048e-01  4.55179047e-01  4.55179047e-01  1.53078648e-07  1.65862351e-07  1.60000000e-01 
 1.70000000e-01  4.55179041e-01  4.55179041e-01  3.32793347e-09  3.46498240e-09  4.55179041e-01  4.55179041e-01  4.55179041e-01  1.53078636e-07  1.65862087e-07  1.70000000e-01 
 1.80000000e-01  4.55179042e-01  4.55179042e-01  3.32793353e-09  3.46498234e-09  4.55179042e-01  4.55179042e-01  4.55179042e-01  1.53078637e-07  1.65861884e-07  1.80000000e-01 
 1.90000000e-01  4.55179066e-01  4.55179066e-01  3.32793353e-09  3.46498234e-09  4.55179066e-01  4.55179066e-01  4.55179066e-01  1.53078682e-07  1.65861705e-07  1.90000000e-01 
 2.00000000e-01  4.55179020e-01  4.55179021e-01  3.32793347e-09  3.46498234e-09  4.55179021e-01  4.55179020e-01  4.55179020e-01  1.53078630e-07  1.65861323e-07  2.00000000e-01 
 2.10000000e-01  4.55179025e-01  4.55179025e-01  3.32793352e-09  3.46498240e-09  4.55179025e-01  4.55179025e-01  4.55179025e-01  1.53078625e-07  1.65861199e-07  2.10000000e-01 
 2.20000000e-01  4.55179037e-01  4.55179037e-01  3.32793347e-09  3.46498234e-09  4.55179037e-01  4.55179037e-01  4.55179037e-01  1.53078630e-07  1.65861014e-07  2.20000000e-01 
 2.30000000e-01  4.55179055e-01  4.55179055e-01  3.32793347e-09  3.46498234e-09  4.55179055e-01  4.55179055e-01  4.55179055e-01  1.53078667e-07  1.65860856e-07  2.30000000e-01 
 2.40000000e-01  4.55179019e-01  4.55179019e-01  3.32793352e-09  3.46498234e-09  4.55179019e-01  4.55179019e-01  4.55179018e-01  1.53078629e-07  1.65860516e-07  2.40000000e-01 
 2.50000000e-01  4.55179036e-01  4.55179036e-01  3.32793353e-09  3.46498234e-09  4.55179036e-01  4.55179036e-01  4.55179036e-01  1.53078636e-07  1.65860447e-07  2.50000000e-01 
 2.60000000e-01  4.55179033e-01  4.55179033e-01  3.32793353e-09  3.46498234e-09  4.55179033e-01  4.55179033e-01  4.55179033e-01  1.53078630e-07  1.65860259e-07  2.60000000e-01 
 2.70000000e-01  4.55179063e-01  4.55179063e-01  3.32793353e-09  3.46498240e-09  4.55179063e-01  4.55179063e-01  4.55179063e-01  1.53078688e-07  1.65860161e-07  2.70000000e-01 
 2.80000000e-01  4.55179039e-01  4.55179039e-01  3.32793353e-09  3.46498234e-09  4.55179039e-01  4.55179039e-01  4.55179039e-01  1.53078631e-07  1.65859889e-07  2.80000000e-01 
 2.90000000e-01  4.55179051e-01  4.55179051e-01  3.32793353e-09  3.46498234e-09  4.55179051e-01  4.55179051e-01  4.55179051e-01  1.53078662e-07  1.65859838e-07  2.90000000e-01 
 3.00000000e-01  4.55179025e-01  4.55179025e-01  3.32793352e-09  3.46498240e-09  4.55179025e-01  4.55179025e-01  4.55179025e-01  1.53078620e-07  1.65859550e-07  3.00000000e-01 
 3.10000000e-01  4.55179032e-01  4.55179032e-01  3.32793353e-09  3.46498240e-09  4.55179032e-01  4.55179032e-01  4.55179032e-01  1.53078619e-07  1.65859529e-07  3.10000000e-01 
 3.20000000e-01  4.55179038e-01  4.55179038e-01  3.32793353e-09  3.46498240e-09  4.55179038e-01  4.55179038e-01  4.55179038e-01  1.53078628e-07  1.65859248e-07  3.20000000e-01 
 3.30000000e-01  4.55179055e-01  4.55179055e-01  3.32793353e-09  3.46498240e-09  4.55179055e-01  4.55179055e-01  4.55179055e-01  1.53078659e-07  1.65859198e-07  3.30000000e-01 
 3.40000000e-01  4.55179040e-01  4.55179040e-01  3.32793353e-09  3.46498240e-09  4.55179040e-01  4.55179040e-01  4.55179040e-01  1.53078655e-07  1.65858868e-07  3.40000000e-01 
 3.50000000e-01  4.55179042e-01  4.55179042e-01  3.32793347e-09  3.46498234e-09  4.55179042e-01  4.55179042e-01  4.55179042e-01  1.53078650e-07  1.65858900e-07  3.50000000e-01 
 3.60000000e-01  4.55179028e-01  4.55179028e-01  3.32793347e-09  3.46498240e-09  4.55179028e-01  4.55179028e-01  4.55179028e-01  1.53078624e-07  1.65858644e-07  3.60000000e-01 
 3.70000000e-01  4.55179041e-01  4.55179041e-01  3.32793347e-09  3.46498240e-09  4.55179041e-01  4.55179041e-01  4.55179041e-01  1.53078640e-07  1.65858534e-07  3.70000000e-01 
 3.80000000e-01  4.55179054e-01  4.55179055e-01  3.32793353e-09  3.46498234e-09  4.55179055e-01  4.55179054e-01  4.55179054e-01  1.53078670e-07  1.65858413e-07  3.80000000e-01 
 3.90000000e-01  4.55179024e-01  4.55179024e-01  3.32793352e-09  3.46498234e-09  4.55179024e-01  4.55179024e-01  4.55179024e-01  1.53078631e-07  1.65858228e-07  3.90000000e-01 
 4.00000000e-01  4.55179050e-01  4.55179051e-01  3.32793347e-09  3.46498234e-09  4.55179051e-01  4.55179050e-01  4.55179050e-01  1.53078653e-07  1.65858186e-07  4.00000000e-01 
 4.10000000e-01  4.55179024e-01  4.55179024e-01  3.32793347e-09  3.46498240e-09  4.55179024e-01  4.55179024e-01  4.55179024e-01  1.53078631e-07  1.65857976e-07  4.10000000e-01 
 4.20000000e-01  4.55179038e-01  4.55179038e-01  3.32793353e-09  3.46498234e-09  4.55179038e-01  4.55179038e-01  4.55179038e-01  1.53078646e-07  1.65857770e-07  4.20000000e-01 
 4.30000000e-01  4.55179049e-01  4.55179049e-01  3.32793353e-09  3.46498234e-09  4.55179049e-01  4.55179049e-01  4.55179049e-01  1.53078648e-07  1.65857767e-07  4.30000000e-01 
 4.40000000e-01  4.55179050e-01  4.55179050e-01  3.32793347e-09  3.46498240e-09  4.55179050e-01  4.55179050e-01  4.55179050e-01  1.53078663e-07  1.65857660e-07  4.40000000e-01 
 4.50000000e-01  4.55179033e-01  4.55179033e-01  3.32793353e-09  3.46498234e-09  4.55179033e-01  4.55179033e-01  4.55179033e-01  1.53078625e-07  1.65857511e-07  4.50000000e-01 
 4.60000000e-01  4.55179075e-01  4.55179075e-01  3.32793347e-09  3.46498234e-09  4.55179075e-01  4.55179075e-01  4.55179075e-01  1.53078699e-07  1.65857411e-07  4.60000000e-01 
 4.70000000e-01  4.55179044e-01  4.55179044e-01  3.32793353e-09  3.46498240e-09  4.55179044e-01  4.55179044e-01  4.55179044e-01  1.53078663e-07  1.65857148e-07  4.70000000e-01 
 4.80000000e-01  4.55179058e-01  4.55179058e-01  3.32793353e-09  3.46498234e-09  4.55179058e-01  4.55179058e-01  4.55179058e-01  1.53078672e-07  1.65857152e-07  4.80000000e-01 
 4.90000000e-01  4.55179056e-01  4.55179056e-01  3.32793347e-09  3.46498240e-09  4.55179056e-01  4.55179056e-01  4.55179056e-01  1.53078674e-07  1.65856967e-07  4.90000000e-01 
 5.00000000e-01  4.55179021e-01  4.55179021e-01  3.32793352e-09  3.46498234e-09  4.55179021e-01  4.55179021e-01  4.55179021e-01  1.53078612e-07  1.65856740e-07  5.00000000e-01 
 5.10000000e-01  4.55179008e-01  4.55179008e-01  3.32793352e-09  3.46498234e-09  4.55179008e-01  4.55179008e-01  4.55179007e-01  1.53078602e-07  1.65856509e-07  5.10000000e-01 
 5.20000000e-01  4.55179040e-01  4.55179040e-01  3.32793347e-09  3.46498234e-09  4.55179040e-01  4.55179040e-01  4.55179040e-01  1.53078654e-07  1.65856594e-07  5.20000000e-01 
 5.30000000e-01  4.55179020e-01  4.55179020e-01  3.32793352e-09  3.46498240e-09  4.55179020e-01  4.55179020e-01  4.55179020e-01  1.53078620e-07  1.65856353e-07  5.30000000e-01 
 5.40000000e-01  4.55179040e-01  4.55179040e-01  3.32793347e-09  3.46498234e-09  4.55179040e-01  4.55179040e-01  4.55179040e-01  1.53078637e-07  1.65856374e-07  5.40000000e-01 
 5.50000000e-01  4.55179030e-01  4.55179030e-01  3.32793347e-09  3.46498240e-09  4.55179030e-01  4.55179030e-01  4.55179030e-01  1.53078617e-07  1.65856100e-07  5.50000000e-01 
 5.60000000e-01  4.55179055e-01  4.55179055e-01  3.32793347e-09  3.46498234e-09  4.55179055e-01  4.55179055e-01  4.55179055e-01  1.53078667e-07  1.65856122e-07  5.60000000e-01 
 5.70000000e-01  4.55179010e-01  4.55179010e-01  3.32793352e-09  3.46498240e-09  4.55179010e-01  4.55179010e-01  4.55179010e-01  1.53078600e-07  1.65855752e-07  5.70000000e-01 
 5.80000000e-01  4.55179030e-01  4.55179030e-01  3.32793353e-09  3.46498234e-09  4.55179030e-01  4.55179030e-01  4.55179030e-01  1.53078636e-07  1.65855894e-07  5.80000000e-01 
 5.90000000e-01  4.55179023e-01  4.55179023e-01  3.32793347e-09  3.46498234e-09  4.55179023e-01  4.55179023e-01  4.55179023e-01  1.53078617e-07  1.65855639e-07  5.90000000e-01 
 6.00000000e-01  4.55179058e-01  4.55179058e-01  3.32793347e-09  3.46498234e-09  4.55179058e-01  4.55179058e-01  4.55179058e-01  1.53078677e-07  1.65855731e-07  6.00000000e-01 
 6.10000000e-01  4.55179036e-01  4.55179036e-01  3.32793353e-09  3.46498240e-09  4.55179036e-01  4.55179036e-01  4.55179036e-01  1.53078630e-07  1.65855504e-07  6.10000000e-01 
 6.20000000e-01  4.55179037e-01  4.55179037e-01  3.32793347e-09  3.46498234e-09  4.55179037e-01  4.55179037e-01  4.55179037e-01  1.53078629e-07  1.65855383e-07  6.20000000e-01 
 6.30000000e-01  4.55179047e-01  4.55179047e-01  3.32793347e-09  3.46498240e-09  4.55179047e-01  4.55179047e-01  4.55179047e-01  1.53078661e-07  1.65855262e-07  6.30000000e-01 
 6.40000000e-01  4.55179036e-01  4.55179036e-01  3.32793353e-09  3.46498240e-09  4.55179036e-01  4.55179036e-01  4.55179036e-01  1.53078631e-07  1.65855070e-07  6.40000000e-01 
 6.50000000e-01  4.55179029e-01  4.55179029e-01  3.32793347e-09  3.46498240e-09  4.55179029e-01  4.55179029e-01  4.55179028e-01  1.53078633e-07  1.65855020e-07  6.50000000e-01 
 6.60000000e-01  4.55179055e-01  4.55179056e-01  3.32793347e-09  3.46498234e-09  4.55179056e-01  4.55179055e-01  4.55179055e-01  1.53078673e-07  1.65854836e-07  6.60000000e-01 
 6.70000000e-01  4.55179021e-01  4.55179021e-01  3.32793347e-09  3.46498234e-09  4.55179021e-01  4.55179021e-01  4.55179021e-01  1.53078627e-07  1.65854644e-07  6.70000000e-01 
 6.80000000e-01  4.55179051e-01  4.55179051e-01  3.32793347e-09  3.46498234e-09  4.55179051e-01  4.55179051e-01  4.55179051e-01  1.53078651e-07  1.65854622e-07  6.80000000e-01 
 6.90000000e-01  4.55179024e-01  4.55179024e-01  3.32793352e-09  3.46498234e-09  4.55179024e-01  4.55179024e-01  4.55179023e-01  1.53078625e-07  1.65854416e-07  6.90000000e-01 
 7.00000000e-01  4.55179036e-01  4.55179036e-01  3.32793347e-09  3.46498240e-09  4.55179036e-01  4.55179036e-01  4.55179036e-01  1.53078619e-07  1.65854374e-07  7.00000000e-01 
 7.10000000e-01  4.55179050e-01  4.55179050e-01  3.32793347e-09  3.46498234e-09  4.55179050e-01  4.55179050e-01  4.55179050e-01  1.53078644e-07  1.65854232e-07  7.10000000e-01 
 7.20000000e-01  4.55179070e-01  4.55179070e-01  3.32793347e-09  3.46498240e-09  4.55179070e-01  4.55179070e-01  4.55179070e-01  1.53078674e-07  1.65854210e-07  7.20000000e-01 
 7.30000000e-01  4.55179026e-01  4.55179026e-01  3.32793347e-09  3.46498234e-09  4.55179026e-01  4.55179026e-01  4.55179026e-01  1.53078609e-07  1.65853919e-07  7.30000000e-01 
 7.40000000e-01  4.55179053e-01  4.55179054e-01  3.32793347e-09  3.46498234e-09  4.55179054e-01  4.55179053e-01  4.55179053e-01  1.53078675e-07  1.65853876e-07  7.40000000e-01 
 7.50000000e-01  4.55179033e-01  4.55179033e-01  3.32793347e-09  3.46498234e-09  4.55179033e-01  4.55179033e-01  4.55179032e-01  1.53078638e-07  1.65853677e-07  7.50000000e-01 
 7.60000000e-01  4.55179031e-01  4.55179031e-01  3.32793353e-09  3.46498234e-09  4.55179031e-01  4.55179031e-01  4.55179031e-01  1.53078636e-07  1.65853635e-07  7.60000000e-01 
 7.70000000e-01  4.55179053e-01  4.55179053e-01  3.32793347e-09  3.46498234e-09  4.55179053e-01  4.55179053e-01  4.55179053e-01  1.53078658e-07  1.65853571e-07  7.70000000e-01 
 7.80000000e-01  4.55179072e-01  4.55179072e-01  3.32793353e-09  3.46498234e-09  4.55179072e-01  4.55179072e-01  4.55179072e-01  1.53078690e-07  1.65853521e-07  7.80000000e-01 
 7.90000000e-01  4.55179047e-01  4.55179047e-01  3.32793353e-09  3.46498234e-09  4.55179047e-01  4.55179047e-01  4.55179047e-01  1.53078649e-07  1.65853137e-07  7.90000000e-01 
 8.00000000e-01  4.55179031e-01  4.55179031e-01  3.32793353e-09  3.46498240e-09  4.55179031e-01  4.55179031e-01  4.55179031e-01  1.53078632e-07  1.65852946e-07  8.00000000e-01 
 8.10000000e-01  4.55179031e-01  4.55179031e-01  3.32793353e-09  3.46498234e-09  4.55179031e-01  4.55179031e-01  4.55179031e-01  1.53078624e-07  1.65852825e-07  8.10000000e-01 
 8.20000000e-01  4.55179057e-01  4.55179057e-01  3.32793353e-09  3.46498234e-09  4.55179057e-01  4.55179057e-01  4.55179057e-01  1.53078669e-07  1.65852782e-07  8.20000000e-01 
 8.30000000e-01  4.55179018e-01  4.55179018e-01  3.32793352e-09  3.46498240e-09  4.55179018e-01  4.55179018e-01  4.55179018e-01  1.53078631e-07  1.65852583e-07  8.30000000e-01 
 8.40000000e-01  4.55179044e-01  4.55179044e-01  3.32793353e-09  3.46498240e-09  4.55179044e-01  4.55179044e-01  4.55179044e-01  1.53078651e-07  1.65852541e-07  8.40000000e-01 
 8.50000000e-01  4.55179019e-01  4.55179019e-01  3.32793347e-09  3.46498240e-09  4.55179019e-01  4.55179019e-01  4.55179019e-01  1.53078607e-07  1.65852356e-07  8.50000000e-01 
 8.60000000e-01  4.55179062e-01  4.55179062e-01  3.32793347e-09  3.46498234e-09  4.55179062e-01  4.55179062e-01  4.55179062e-01  1.53078666e-07  1.65852313e-07  8.60000000e-01 
 8.70000000e-01  4.55179042e-01  4.55179042e-01  3.32793353e-09  3.46498234e-09  4.55179042e-01  4.55179042e-01  4.55179042e-01  1.53078651e-07  1.65852143e-07  8.70000000e-01 
 8.80000000e-01  4.55179048e-01  4.55179048e-01  3.32793347e-09  3.46498240e-09  4.55179048e-01  4.55179048e-01  4.55179048e-01  1.53078661e-07  1.65851944e-07  8.80000000e-01 
 8.90000000e-01  4.55179032e-01  4.55179033e-01  3.32793347e-09  3.46498240e-09  4.55179033e-01  4.55179032e-01  4.55179032e-01  1.53078633e-07  1.65851894e-07  8.90000000e-01 
 9.00000000e-01  4.55179049e-01  4.55179049e-01  3.32793353e-09  3.46498234e-09  4.55179049e-01  4.55179049e-01  4.55179049e-01  1.53078657e-07  1.65851638e-07  9.00000000e-01 
 9.10000000e-01  4.55179036e-01  4.55179036e-01  3.32793353e-09  3.46498234e-09  4.55179036e-01  4.55179036e-01  4.55179036e-01  1.53078639e-07  1.65851489e-07  9.10000000e-01 
 9.20000000e-01  4.55179043e-01  4.55179043e-01  3.32793353e-09  3.46498240e-09  4.55179043e-01  4.55179043e-01  4.55179043e-01  1.53078662e-07  1.65851411e-07  9.20000000e-01 
 9.30000000e-01  4.55179038e-01  4.55179038e-01  3.32793353e-09  3.46498240e-09  4.55179038e-01  4.55179038e-01  4.55179038e-01  1.53078631e-07  1.65851255e-07  9.30000000e-01 
 9.40000000e-01  4.55179073e-01  4.55179073e-01  3.32793347e-09  3.46498240e-09  4.55179073e-01  4.55179073e-01  4.55179073e-01  1.53078687e-07  1.65851290e-07  9.40000000e-01 
 9.50000000e-01  4.55179048e-01  4.55179048e-01  3.32793347e-09  3.46498234e-09  4.55179049e-01  4.55179048e-01  4.55179048e-01  1.53078647e-07  1.65851020e-07  9.50000000e-01 
 9.60000000e-01  4.55179022e-01  4.55179022e-01  3.32793352e-09  3.46498240e-09  4.55179022e-01  4.55179022e-01  4.55179022e-01  1.53078635e-07  1.65850771e-07  9.60000000e-01 
 9.70000000e-01  4.55179058e-01  4.55179058e-01  3.32793347e-09  3.46498234e-09  4.55179058e-01  4.55179058e-01  4.55179058e-01  1.53078665e-07  1.65850913e-07  9.70000000e-01 
 9.80000000e-01  4.55179014e-01  4.55179014e-01  3.32793352e-09  3.46498234e-09  4.55179014e-01  4.55179014e-01  4.55179014e-01  1.53078612e-07  1.65850459e-07  9.80000000e-01 
 9.90000000e-01  4.55179031e-01  4.55179031e-01  3.32793353e-09  3.46498240e-09  4.55179031e-01  4.55179031e-01  4.55179031e-01  1.53078630e-07  1.65850309e-07  9.90000000e-01 
 1.00000000e+00  4.55179056e-01  4.55179057e-01  3.32793353e-09  3.46498240e-09  4.55179057e-01  4.55179056e-01  4.55179056e-01  1.53078659e-07  1.65850267e-07  1.00000000e+00 
 1.01000000e+00  4.55179054e-01  4.55179054e-01  3.32793353e-09  3.46498234e-09  4.55179054e-01  4.55179054e-01  4.55179054e-01  1.53078663e-07  1.65850139e-07  1.01000000e+00 
 1.02000000e+00  4.55179022e-01  4.55179023e-01  3.32793347e-09  3.46498234e-09  4.55179023e-01  4.55179022e-01  4.55179022e-01  1.53078620e-07  1.65849983e-07  1.02000000e+00 
 1.03000000e+00  4.55179039e-01  4.55179039e-01  3.32793353e-09  3.46498234e-09  4.55179039e-01  4.55179039e-01  4.55179039e-01  1.53078654e-07  1.65849741e-07  1.03000000e+00 
 1.04000000e+00  4.55179045e-01  4.55179045e-01  3.32793347e-09  3.46498234e-09  4.55179045e-01  4.55179045e-01  4.55179045e-01  1.53078656e-07  1.65849649e-07  1.04000000e+00 
 1.05000000e+00  4.55179040e-01  4.55179041e-01  3.32793353e-09  3.46498240e-09  4.55179041e-01  4.55179041e-01  4.55179040e-01  1.53078647e-07  1.65849471e-07  1.05000000e+00 
 1.06000000e+00  4.55179072e-01  4.55179072e-01  3.32793353e-09  3.46498240e-09  4.55179072e-01  4.55179072e-01  4.55179072e-01  1.53078686e-07  1.65849464e-07  1.06000000e+00 
 1.07000000e+00  4.55179049e-01  4.55179049e-01  3.32793347e-09  3.46498234e-09  4.55179049e-01  4.55179049e-01  4.55179049e-01  1.53078672e-07  1.65849180e-07  1.07000000e+00 
 1.08000000e+00  4.55179049e-01  4.55179049e-01  3.32793347e-09  3.46498234e-09  4.55179049e-01  4.55179049e-01  4.55179049e-01  1.53078644e-07  1.65848896e-07  1.08000000e+00 
 1.09000000e+00  4.55179053e-01  4.55179053e-01  3.32793353e-09  3.46498234e-09  4.55179053e-01  4.55179053e-01  4.55179053e-01  1.53078660e-07  1.65849009e-07  1.09000000e+00 
 1.10000000e+00  4.55179043e-01  4.55179043e-01  3.32793347e-09  3.46498240e-09  4.55179043e-01  4.55179043e-01  4.55179043e-01  1.53078645e-07  1.65848640e-07  1.10000000e+00 
