 v-sweep         v(b0)           v(b1)           v(b2)           v(b3)           v(b4)           v(b5)           v(b6)           i(vbias)        i(viout)        v(vout)        
 0.00000000e+00  3.34577946e-09  3.17238142e-09  3.46940623e-09  3.32926962e-09  3.08378509e-09  3.32680858e-09  4.54464893e-01  1.53188766e-07  8.50739784e-08  0.00000000e+00 
 1.00000000e-02  3.34577945e-09  3.17238146e-09  3.46940626e-09  3.32926960e-09  3.08378513e-09  3.32680855e-09  4.54464904e-01  1.53188795e-07  8.50736398e-08  1.00000000e-02 
 2.00000000e-02  3.34577950e-09  3.17238141e-09  3.46940621e-09  3.32926960e-09  3.08378507e-09  3.32680855e-09  4.54464906e-01  1.53188787e-07  8.50732627e-08  2.00000000e-02 
 3.00000000e-02  3.34577943e-09  3.17238141e-09  3.46940622e-09  3.32926960e-09  3.08378513e-09  3.32680850e-09  4.54464882e-01  1.53188760e-07  8.50728574e-08  3.00000000e-02 
 4.00000000e-02  3.34577951e-09  3.17238146e-09  3.46940621e-09  3.32926966e-09  3.08378507e-09  3.32680851e-09  4.54464882e-01  1.53188756e-07  8.50725548e-08  4.00000000e-02 
 5.00000000e-02  3.34577949e-09  3.17238146e-09  3.46940621e-09  3.32926960e-09  3.08378513e-09  3.32680856e-09  4.54464878e-01  1.53188737e-07  8.50721502e-08  5.00000000e-02 
 6.00000000e-02  3.34577950e-09  3.17238146e-09  3.46940621e-09  3.32926960e-09  3.08378513e-09  3.32680855e-09  4.54464903e-01  1.53188796e-07  8.50719473e-08  6.00000000e-02 
 7.00000000e-02  3.34577950e-09  3.17238140e-09  3.46940621e-09  3.32926960e-09  3.08378507e-09  3.32680855e-09  4.54464877e-01  1.53188740e-07  8.50714366e-08  7.00000000e-02 
 8.00000000e-02  3.34577944e-09  3.17238141e-09  3.46940621e-09  3.32926966e-09  3.08378507e-09  3.32680855e-09  4.54464896e-01  1.53188768e-07  8.50711466e-08  8.00000000e-02 
 9.00000000e-02  3.34577945e-09  3.17238146e-09  3.46940621e-09  3.32926960e-09  3.08378513e-09  3.32680855e-09  4.54464887e-01  1.53188764e-07  8.50709290e-08  9.00000000e-02 
 1.00000000e-01  3.34577945e-09  3.17238141e-09  3.46940621e-09  3.32926966e-09  3.08378513e-09  3.32680855e-09  4.54464890e-01  1.53188776e-07  8.50707638e-08  1.00000000e-01 
 1.10000000e-01  3.34577950e-09  3.17238141e-09  3.46940621e-09  3.32926960e-09  3.08378507e-09  3.32680855e-09  4.54464909e-01  1.53188807e-07  8.50704893e-08  1.10000000e-01 
 1.20000000e-01  3.34577949e-09  3.17238141e-09  3.46940621e-09  3.32926960e-09  3.08378507e-09  3.32680855e-09  4.54464901e-01  1.53188772e-07  8.50702451e-08  1.20000000e-01 
 1.30000000e-01  3.34577950e-09  3.17238141e-09  3.46940621e-09  3.32926960e-09  3.08378513e-09  3.32680855e-09  4.54464901e-01  1.53188786e-07  8.50699715e-08  1.30000000e-01 
 1.40000000e-01  3.34577950e-09  3.17238146e-09  3.46940621e-09  3.32926960e-09  3.08378513e-09  3.32680855e-09  4.54464870e-01  1.53188752e-07  8.50695718e-08  1.40000000e-01 
 1.50000000e-01  3.34577950e-09  3.17238141e-09  3.46940621e-09  3.32926960e-09  3.08378507e-09  3.32680855e-09  4.54464893e-01  1.53188769e-07  8.50695052e-08  1.50000000e-01 
 1.60000000e-01  3.34577944e-09  3.17238141e-09  3.46940621e-09  3.32926960e-09  3.08378507e-09  3.32680855e-09  4.54464889e-01  1.53188762e-07  8.50692761e-08  1.60000000e-01 
 1.70000000e-01  3.34577951e-09  3.17238141e-09  3.46940621e-09  3.32926960e-09  3.08378513e-09  3.32680855e-09  4.54464888e-01  1.53188765e-07  8.50691286e-08  1.70000000e-01 
 1.80000000e-01  3.34577949e-09  3.17238140e-09  3.46940621e-09  3.32926960e-09  3.08378513e-09  3.32680849e-09  4.54464868e-01  1.53188732e-07  8.50688249e-08  1.80000000e-01 
 1.90000000e-01  3.34577950e-09  3.17238141e-09  3.46940621e-09  3.32926960e-09  3.08378513e-09  3.32680856e-09  4.54464888e-01  1.53188770e-07  8.50686526e-08  1.90000000e-01 
 2.00000000e-01  3.34577944e-09  3.17238141e-09  3.46940621e-09  3.32926960e-09  3.08378507e-09  3.32680855e-09  4.54464891e-01  1.53188767e-07  8.50686046e-08  2.00000000e-01 
 2.10000000e-01  3.34577951e-09  3.17238141e-09  3.46940627e-09  3.32926966e-09  3.08378507e-09  3.32680850e-09  4.54464916e-01  1.53188806e-07  8.50684962e-08  2.10000000e-01 
 2.20000000e-01  3.34577949e-09  3.17238140e-09  3.46940626e-09  3.32926960e-09  3.08378512e-09  3.32680856e-09  4.54464859e-01  1.53188732e-07  8.50681303e-08  2.20000000e-01 
 2.30000000e-01  3.34577950e-09  3.17238141e-09  3.46940621e-09  3.32926966e-09  3.08378507e-09  3.32680855e-09  4.54464902e-01  1.53188787e-07  8.50680575e-08  2.30000000e-01 
 2.40000000e-01  3.34577950e-09  3.17238141e-09  3.46940622e-09  3.32926960e-09  3.08378507e-09  3.32680855e-09  4.54464905e-01  1.53188792e-07  8.50679331e-08  2.40000000e-01 
 2.50000000e-01  3.34577944e-09  3.17238141e-09  3.46940621e-09  3.32926966e-09  3.08378513e-09  3.32680850e-09  4.54464895e-01  1.53188781e-07  8.50678301e-08  2.50000000e-01 
 2.60000000e-01  3.34577945e-09  3.17238141e-09  3.46940627e-09  3.32926960e-09  3.08378513e-09  3.32680851e-09  4.54464899e-01  1.53188794e-07  8.50677360e-08  2.60000000e-01 
 2.70000000e-01  3.34577944e-09  3.17238141e-09  3.46940626e-09  3.32926960e-09  3.08378507e-09  3.32680855e-09  4.54464882e-01  1.53188761e-07  8.50674340e-08  2.70000000e-01 
 2.80000000e-01  3.34577945e-09  3.17238141e-09  3.46940621e-09  3.32926960e-09  3.08378513e-09  3.32680855e-09  4.54464893e-01  1.53188778e-07  8.50674535e-08  2.80000000e-01 
 2.90000000e-01  3.34577945e-09  3.17238146e-09  3.46940622e-09  3.32926960e-09  3.08378513e-09  3.32680855e-09  4.54464889e-01  1.53188770e-07  8.50672954e-08  2.90000000e-01 
 3.00000000e-01  3.34577945e-09  3.17238141e-09  3.46940621e-09  3.32926966e-09  3.08378507e-09  3.32680855e-09  4.54464908e-01  1.53188811e-07  8.50672137e-08  3.00000000e-01 
 3.10000000e-01  3.34577945e-09  3.17238146e-09  3.46940621e-09  3.32926960e-09  3.08378507e-09  3.32680855e-09  4.54464896e-01  1.53188778e-07  8.50671356e-08  3.10000000e-01 
 3.20000000e-01  3.34577950e-09  3.17238140e-09  3.46940621e-09  3.32926966e-09  3.08378513e-09  3.32680855e-09  4.54464877e-01  1.53188753e-07  8.50669899e-08  3.20000000e-01 
 3.30000000e-01  3.34577949e-09  3.17238146e-09  3.46940621e-09  3.32926966e-09  3.08378507e-09  3.32680855e-09  4.54464895e-01  1.53188790e-07  8.50668407e-08  3.30000000e-01 
 3.40000000e-01  3.34577944e-09  3.17238141e-09  3.46940621e-09  3.32926960e-09  3.08378513e-09  3.32680855e-09  4.54464902e-01  1.53188789e-07  8.50669153e-08  3.40000000e-01 
 3.50000000e-01  3.34577951e-09  3.17238140e-09  3.46940621e-09  3.32926960e-09  3.08378507e-09  3.32680855e-09  4.54464867e-01  1.53188733e-07  8.50665778e-08  3.50000000e-01 
 3.60000000e-01  3.34577949e-09  3.17238140e-09  3.46940621e-09  3.32926960e-09  3.08378507e-09  3.32680855e-09  4.54464867e-01  1.53188734e-07  8.50664499e-08  3.60000000e-01 
 3.70000000e-01  3.34577950e-09  3.17238141e-09  3.46940621e-09  3.32926960e-09  3.08378513e-09  3.32680855e-09  4.54464891e-01  1.53188772e-07  8.50665209e-08  3.70000000e-01 
 3.80000000e-01  3.34577950e-09  3.17238146e-09  3.46940621e-09  3.32926960e-09  3.08378513e-09  3.32680855e-09  4.54464888e-01  1.53188772e-07  8.50663753e-08  3.80000000e-01 
 3.90000000e-01  3.34577944e-09  3.17238141e-09  3.46940627e-09  3.32926960e-09  3.08378513e-09  3.32680855e-09  4.54464913e-01  1.53188816e-07  8.50663504e-08  3.90000000e-01 
 4.00000000e-01  3.34577945e-09  3.17238146e-09  3.46940626e-09  3.32926960e-09  3.08378507e-09  3.32680855e-09  4.54464882e-01  1.53188758e-07  8.50661195e-08  4.00000000e-01 
 4.10000000e-01  3.34577945e-09  3.17238141e-09  3.46940621e-09  3.32926960e-09  3.08378507e-09  3.32680855e-09  4.54464901e-01  1.53188795e-07  8.50662190e-08  4.10000000e-01 
 4.20000000e-01  3.34577950e-09  3.17238140e-09  3.46940622e-09  3.32926966e-09  3.08378507e-09  3.32680855e-09  4.54464879e-01  1.53188762e-07  8.50660165e-08  4.20000000e-01 
 4.30000000e-01  3.34577949e-09  3.17238146e-09  3.46940621e-09  3.32926960e-09  3.08378513e-09  3.32680855e-09  4.54464889e-01  1.53188790e-07  8.50659383e-08  4.30000000e-01 
 4.40000000e-01  3.34577944e-09  3.17238141e-09  3.46940621e-09  3.32926960e-09  3.08378507e-09  3.32680855e-09  4.54464883e-01  1.53188755e-07  8.50658637e-08  4.40000000e-01 
 4.50000000e-01  3.34577945e-09  3.17238146e-09  3.46940627e-09  3.32926960e-09  3.08378513e-09  3.32680855e-09  4.54464899e-01  1.53188791e-07  8.50657642e-08  4.50000000e-01 
 4.60000000e-01  3.34577945e-09  3.17238141e-09  3.46940620e-09  3.32926960e-09  3.08378507e-09  3.32680855e-09  4.54464903e-01  1.53188776e-07  8.50656932e-08  4.60000000e-01 
 4.70000000e-01  3.34577945e-09  3.17238141e-09  3.46940622e-09  3.32926966e-09  3.08378513e-09  3.32680855e-09  4.54464889e-01  1.53188783e-07  8.50657429e-08  4.70000000e-01 
 4.80000000e-01  3.34577945e-09  3.17238141e-09  3.46940621e-09  3.32926960e-09  3.08378507e-09  3.32680855e-09  4.54464906e-01  1.53188797e-07  8.50655724e-08  4.80000000e-01 
 4.90000000e-01  3.34577950e-09  3.17238141e-09  3.46940621e-09  3.32926960e-09  3.08378507e-09  3.32680855e-09  4.54464893e-01  1.53188773e-07  8.50654480e-08  4.90000000e-01 
 5.00000000e-01  3.34577943e-09  3.17238141e-09  3.46940621e-09  3.32926960e-09  3.08378507e-09  3.32680855e-09  4.54464883e-01  1.53188761e-07  8.50654693e-08  5.00000000e-01 
 5.10000000e-01  3.34577945e-09  3.17238146e-09  3.46940621e-09  3.32926960e-09  3.08378513e-09  3.32680855e-09  4.54464885e-01  1.53188760e-07  8.50652384e-08  5.10000000e-01 
 5.20000000e-01  3.34577950e-09  3.17238146e-09  3.46940621e-09  3.32926960e-09  3.08378513e-09  3.32680855e-09  4.54464878e-01  1.53188740e-07  8.50652917e-08  5.20000000e-01 
 5.30000000e-01  3.34577949e-09  3.17238141e-09  3.46940621e-09  3.32926966e-09  3.08378513e-09  3.32680855e-09  4.54464892e-01  1.53188784e-07  8.50652171e-08  5.30000000e-01 
 5.40000000e-01  3.34577950e-09  3.17238140e-09  3.46940627e-09  3.32926966e-09  3.08378513e-09  3.32680855e-09  4.54464878e-01  1.53188759e-07  8.50650785e-08  5.40000000e-01 
 5.50000000e-01  3.34577950e-09  3.17238140e-09  3.46940626e-09  3.32926966e-09  3.08378507e-09  3.32680849e-09  4.54464879e-01  1.53188755e-07  8.50649506e-08  5.50000000e-01 
 5.60000000e-01  3.34577950e-09  3.17238141e-09  3.46940621e-09  3.32926966e-09  3.08378507e-09  3.32680851e-09  4.54464889e-01  1.53188772e-07  8.50650004e-08  5.60000000e-01 
 5.70000000e-01  3.34577944e-09  3.17238146e-09  3.46940622e-09  3.32926966e-09  3.08378507e-09  3.32680850e-09  4.54464882e-01  1.53188768e-07  8.50648370e-08  5.70000000e-01 
 5.80000000e-01  3.34577945e-09  3.17238140e-09  3.46940621e-09  3.32926960e-09  3.08378507e-09  3.32680850e-09  4.54464865e-01  1.53188737e-07  8.50647481e-08  5.80000000e-01 
 5.90000000e-01  3.34577945e-09  3.17238146e-09  3.46940621e-09  3.32926960e-09  3.08378513e-09  3.32680856e-09  4.54464890e-01  1.53188788e-07  8.50647126e-08  5.90000000e-01 
 6.00000000e-01  3.34577944e-09  3.17238146e-09  3.46940621e-09  3.32926960e-09  3.08378507e-09  3.32680855e-09  4.54464883e-01  1.53188760e-07  8.50646771e-08  6.00000000e-01 
 6.10000000e-01  3.34577945e-09  3.17238141e-09  3.46940621e-09  3.32926960e-09  3.08378507e-09  3.32680855e-09  4.54464890e-01  1.53188764e-07  8.50647055e-08  6.10000000e-01 
 6.20000000e-01  3.34577944e-09  3.17238141e-09  3.46940621e-09  3.32926960e-09  3.08378507e-09  3.32680855e-09  4.54464883e-01  1.53188760e-07  8.50645776e-08  6.20000000e-01 
 6.30000000e-01  3.34577950e-09  3.17238146e-09  3.46940621e-09  3.32926960e-09  3.08378513e-09  3.32680855e-09  4.54464888e-01  1.53188767e-07  8.50644284e-08  6.30000000e-01 
 6.40000000e-01  3.34577949e-09  3.17238141e-09  3.46940627e-09  3.32926966e-09  3.08378513e-09  3.32680855e-09  4.54464891e-01  1.53188775e-07  8.50645492e-08  6.40000000e-01 
 6.50000000e-01  3.34577950e-09  3.17238141e-09  3.46940620e-09  3.32926966e-09  3.08378513e-09  3.32680850e-09  4.54464899e-01  1.53188782e-07  8.50643787e-08  6.50000000e-01 
 6.60000000e-01  3.34577950e-09  3.17238141e-09  3.46940622e-09  3.32926966e-09  3.08378513e-09  3.32680851e-09  4.54464897e-01  1.53188779e-07  8.50642294e-08  6.60000000e-01 
 6.70000000e-01  3.34577944e-09  3.17238141e-09  3.46940627e-09  3.32926960e-09  3.08378513e-09  3.32680855e-09  4.54464898e-01  1.53188782e-07  8.50641371e-08  6.70000000e-01 
 6.80000000e-01  3.34577945e-09  3.17238146e-09  3.46940626e-09  3.32926960e-09  3.08378513e-09  3.32680855e-09  4.54464886e-01  1.53188779e-07  8.50641015e-08  6.80000000e-01 
 6.90000000e-01  3.34577950e-09  3.17238146e-09  3.46940621e-09  3.32926966e-09  3.08378507e-09  3.32680855e-09  4.54464897e-01  1.53188778e-07  8.50640163e-08  6.90000000e-01 
 7.00000000e-01  3.34577949e-09  3.17238141e-09  3.46940622e-09  3.32926966e-09  3.08378507e-09  3.32680855e-09  4.54464881e-01  1.53188758e-07  8.50639950e-08  7.00000000e-01 
 7.10000000e-01  3.34577950e-09  3.17238146e-09  3.46940627e-09  3.32926966e-09  3.08378507e-09  3.32680855e-09  4.54464877e-01  1.53188755e-07  8.50639097e-08  7.10000000e-01 
 7.20000000e-01  3.34577944e-09  3.17238140e-09  3.46940620e-09  3.32926960e-09  3.08378513e-09  3.32680855e-09  4.54464878e-01  1.53188750e-07  8.50638315e-08  7.20000000e-01 
 7.30000000e-01  3.34577945e-09  3.17238146e-09  3.46940622e-09  3.32926960e-09  3.08378507e-09  3.32680850e-09  4.54464890e-01  1.53188774e-07  8.50638031e-08  7.30000000e-01 
 7.40000000e-01  3.34577944e-09  3.17238140e-09  3.46940621e-09  3.32926965e-09  3.08378513e-09  3.32680851e-09  4.54464874e-01  1.53188750e-07  8.50636610e-08  7.40000000e-01 
 7.50000000e-01  3.34577944e-09  3.17238141e-09  3.46940621e-09  3.32926960e-09  3.08378507e-09  3.32680856e-09  4.54464884e-01  1.53188770e-07  8.50637818e-08  7.50000000e-01 
 7.60000000e-01  3.34577950e-09  3.17238146e-09  3.46940621e-09  3.32926960e-09  3.08378507e-09  3.32680849e-09  4.54464885e-01  1.53188769e-07  8.50636894e-08  7.60000000e-01 
 7.70000000e-01  3.34577949e-09  3.17238146e-09  3.46940621e-09  3.32926960e-09  3.08378513e-09  3.32680851e-09  4.54464877e-01  1.53188768e-07  8.50634265e-08  7.70000000e-01 
 7.80000000e-01  3.34577944e-09  3.17238140e-09  3.46940621e-09  3.32926960e-09  3.08378513e-09  3.32680850e-09  4.54464876e-01  1.53188758e-07  8.50634265e-08  7.80000000e-01 
 7.90000000e-01  3.34577951e-09  3.17238141e-09  3.46940621e-09  3.32926960e-09  3.08378507e-09  3.32680856e-09  4.54464891e-01  1.53188777e-07  8.50634123e-08  7.90000000e-01 
 8.00000000e-01  3.34577949e-09  3.17238141e-09  3.46940621e-09  3.32926966e-09  3.08378507e-09  3.32680855e-09  4.54464886e-01  1.53188766e-07  8.50632631e-08  8.00000000e-01 
 8.10000000e-01  3.34577950e-09  3.17238141e-09  3.46940621e-09  3.32926966e-09  3.08378513e-09  3.32680855e-09  4.54464913e-01  1.53188814e-07  8.50632986e-08  8.10000000e-01 
 8.20000000e-01  3.34577944e-09  3.17238146e-09  3.46940621e-09  3.32926960e-09  3.08378513e-09  3.32680855e-09  4.54464880e-01  1.53188753e-07  8.50631636e-08  8.20000000e-01 
 8.30000000e-01  3.34577951e-09  3.17238146e-09  3.46940621e-09  3.32926960e-09  3.08378513e-09  3.32680850e-09  4.54464884e-01  1.53188768e-07  8.50631139e-08  8.30000000e-01 
 8.40000000e-01  3.34577949e-09  3.17238146e-09  3.46940621e-09  3.32926960e-09  3.08378513e-09  3.32680857e-09  4.54464897e-01  1.53188793e-07  8.50630570e-08  8.40000000e-01 
 8.50000000e-01  3.34577944e-09  3.17238141e-09  3.46940621e-09  3.32926966e-09  3.08378513e-09  3.32680855e-09  4.54464889e-01  1.53188765e-07  8.50630784e-08  8.50000000e-01 
 8.60000000e-01  3.34577945e-09  3.17238141e-09  3.46940621e-09  3.32926960e-09  3.08378507e-09  3.32680855e-09  4.54464883e-01  1.53188770e-07  8.50628652e-08  8.60000000e-01 
 8.70000000e-01  3.34577945e-09  3.17238141e-09  3.46940621e-09  3.32926966e-09  3.08378513e-09  3.32680855e-09  4.54464895e-01  1.53188770e-07  8.50628439e-08  8.70000000e-01 
 8.80000000e-01  3.34577945e-09  3.17238141e-09  3.46940621e-09  3.32926960e-09  3.08378513e-09  3.32680850e-09  4.54464889e-01  1.53188773e-07  8.50626733e-08  8.80000000e-01 
 8.90000000e-01  3.34577944e-09  3.17238141e-09  3.46940621e-09  3.32926960e-09  3.08378507e-09  3.32680851e-09  4.54464880e-01  1.53188758e-07  8.50625952e-08  8.90000000e-01 
 9.00000000e-01  3.34577944e-09  3.17238141e-09  3.46940621e-09  3.32926960e-09  3.08378513e-09  3.32680856e-09  4.54464886e-01  1.53188760e-07  8.50626378e-08  9.00000000e-01 
 9.10000000e-01  3.34577944e-09  3.17238140e-09  3.46940621e-09  3.32926960e-09  3.08378507e-09  3.32680854e-09  4.54464855e-01  1.53188716e-07  8.50624318e-08  9.10000000e-01 
 9.20000000e-01  3.34577945e-09  3.17238141e-09  3.46940621e-09  3.32926966e-09  3.08378513e-09  3.32680855e-09  4.54464895e-01  1.53188787e-07  8.50624957e-08  9.20000000e-01 
 9.30000000e-01  3.34577944e-09  3.17238146e-09  3.46940621e-09  3.32926966e-09  3.08378507e-09  3.32680855e-09  4.54464875e-01  1.53188765e-07  8.50623323e-08  9.30000000e-01 
 9.40000000e-01  3.34577950e-09  3.17238141e-09  3.46940621e-09  3.32926960e-09  3.08378507e-09  3.32680855e-09  4.54464892e-01  1.53188770e-07  8.50622683e-08  9.40000000e-01 
 9.50000000e-01  3.34577943e-09  3.17238146e-09  3.46940621e-09  3.32926966e-09  3.08378513e-09  3.32680850e-09  4.54464898e-01  1.53188766e-07  8.50622257e-08  9.50000000e-01 
 9.60000000e-01  3.34577951e-09  3.17238141e-09  3.46940621e-09  3.32926960e-09  3.08378507e-09  3.32680857e-09  4.54464901e-01  1.53188789e-07  8.50620339e-08  9.60000000e-01 
 9.70000000e-01  3.34577949e-09  3.17238141e-09  3.46940627e-09  3.32926966e-09  3.08378507e-09  3.32680855e-09  4.54464887e-01  1.53188771e-07  8.50621049e-08  9.70000000e-01 
 9.80000000e-01  3.34577950e-09  3.17238141e-09  3.46940620e-09  3.32926960e-09  3.08378513e-09  3.32680855e-09  4.54464885e-01  1.53188765e-07  8.50620197e-08  9.80000000e-01 
 9.90000000e-01  3.34577950e-09  3.17238140e-09  3.46940622e-09  3.32926960e-09  3.08378507e-09  3.32680855e-09  4.54464879e-01  1.53188743e-07  8.50619273e-08  9.90000000e-01 
 1.00000000e+00  3.34577944e-09  3.17238140e-09  3.46940621e-09  3.32926960e-09  3.08378507e-09  3.32680855e-09  4.54464875e-01  1.53188754e-07  8.50617425e-08  1.00000000e+00 
 1.01000000e+00  3.34577951e-09  3.17238140e-09  3.46940621e-09  3.32926960e-09  3.08378507e-09  3.32680855e-09  4.54464874e-01  1.53188760e-07  8.50618278e-08  1.01000000e+00 
 1.02000000e+00  3.34577949e-09  3.17238141e-09  3.46940621e-09  3.32926960e-09  3.08378507e-09  3.32680855e-09  4.54464883e-01  1.53188757e-07  8.50616928e-08  1.02000000e+00 
 1.03000000e+00  3.34577950e-09  3.17238141e-09  3.46940621e-09  3.32926966e-09  3.08378507e-09  3.32680855e-09  4.54464891e-01  1.53188787e-07  8.50615933e-08  1.03000000e+00 
 1.04000000e+00  3.34577944e-09  3.17238146e-09  3.46940621e-09  3.32926960e-09  3.08378513e-09  3.32680855e-09  4.54464865e-01  1.53188743e-07  8.50614725e-08  1.04000000e+00 
 1.05000000e+00  3.34577945e-09  3.17238146e-09  3.46940621e-09  3.32926966e-09  3.08378507e-09  3.32680855e-09  4.54464891e-01  1.53188772e-07  8.50614441e-08  1.05000000e+00 
 1.06000000e+00  3.34577950e-09  3.17238141e-09  3.46940621e-09  3.32926960e-09  3.08378513e-09  3.32680855e-09  4.54464889e-01  1.53188775e-07  8.50613660e-08  1.06000000e+00 
 1.07000000e+00  3.34577949e-09  3.17238141e-09  3.46940621e-09  3.32926966e-09  3.08378513e-09  3.32680850e-09  4.54464898e-01  1.53188780e-07  8.50613588e-08  1.07000000e+00 
 1.08000000e+00  3.34577944e-09  3.17238141e-09  3.46940621e-09  3.32926960e-09  3.08378513e-09  3.32680851e-09  4.54464889e-01  1.53188759e-07  8.50613091e-08  1.08000000e+00 
 1.09000000e+00  3.34577945e-09  3.17238141e-09  3.46940621e-09  3.32926960e-09  3.08378507e-09  3.32680856e-09  4.54464889e-01  1.53188776e-07  8.50610817e-08  1.09000000e+00 
 1.10000000e+00  3.34577950e-09  3.17238141e-09  3.46940621e-09  3.32926966e-09  3.08378507e-09  3.32680855e-09  4.54464895e-01  1.53188778e-07  8.50611457e-08  1.10000000e+00 
