 v-sweep         v(b0)           v(b1)           v(b2)           v(b3)           v(b4)           v(b5)           v(b6)           i(vbias)        i(viout)        v(vout)        
 0.00000000e+00  3.35495705e-09  3.17447158e-09  3.56620388e-09  4.59766267e-01  3.48247186e-09  4.59766267e-01  3.37514444e-09  1.60240804e-07  6.13023948e-08  0.00000000e+00 
 1.00000000e-02  3.35495703e-09  3.17447157e-09  3.56620392e-09  4.59766262e-01  3.48247190e-09  4.59766261e-01  3.37514448e-09  1.60240798e-07  6.13019725e-08  1.00000000e-02 
 2.00000000e-02  3.35495703e-09  3.17447157e-09  3.56620392e-09  4.59766254e-01  3.48247190e-09  4.59766253e-01  3.37514448e-09  1.60240771e-07  6.13015871e-08  2.00000000e-02 
 3.00000000e-02  3.35495703e-09  3.17447163e-09  3.56620392e-09  4.59766257e-01  3.48247190e-09  4.59766257e-01  3.37514442e-09  1.60240781e-07  6.13011997e-08  3.00000000e-02 
 4.00000000e-02  3.35495709e-09  3.17447156e-09  3.56620392e-09  4.59766257e-01  3.48247184e-09  4.59766257e-01  3.37514448e-09  1.60240792e-07  6.13009674e-08  4.00000000e-02 
 5.00000000e-02  3.35495708e-09  3.17447158e-09  3.56620392e-09  4.59766268e-01  3.48247190e-09  4.59766268e-01  3.37514448e-09  1.60240808e-07  6.13006219e-08  5.00000000e-02 
 6.00000000e-02  3.35495708e-09  3.17447163e-09  3.56620392e-09  4.59766259e-01  3.48247184e-09  4.59766259e-01  3.37514448e-09  1.60240789e-07  6.13003013e-08  6.00000000e-02 
 7.00000000e-02  3.35495708e-09  3.17447162e-09  3.56620392e-09  4.59766251e-01  3.48247190e-09  4.59766251e-01  3.37514442e-09  1.60240774e-07  6.12998723e-08  7.00000000e-02 
 8.00000000e-02  3.35495702e-09  3.17447162e-09  3.56620392e-09  4.59766259e-01  3.48247184e-09  4.59766259e-01  3.37514448e-09  1.60240791e-07  6.12996613e-08  8.00000000e-02 
 9.00000000e-02  3.35495709e-09  3.17447162e-09  3.56620392e-09  4.59766247e-01  3.48247190e-09  4.59766247e-01  3.37514442e-09  1.60240766e-07  6.12993283e-08  9.00000000e-02 
 1.00000000e-01  3.35495707e-09  3.17447156e-09  3.56620392e-09  4.59766242e-01  3.48247190e-09  4.59766242e-01  3.37514442e-09  1.60240755e-07  6.12990991e-08  1.00000000e-01 
 1.10000000e-01  3.35495702e-09  3.17447158e-09  3.56620392e-09  4.59766261e-01  3.48247190e-09  4.59766261e-01  3.37514443e-09  1.60240798e-07  6.12988318e-08  1.10000000e-01 
 1.20000000e-01  3.35495704e-09  3.17447163e-09  3.56620392e-09  4.59766265e-01  3.48247190e-09  4.59766265e-01  3.37514443e-09  1.60240797e-07  6.12985440e-08  1.20000000e-01 
 1.30000000e-01  3.35495703e-09  3.17447156e-09  3.56620392e-09  4.59766258e-01  3.48247184e-09  4.59766258e-01  3.37514448e-09  1.60240779e-07  6.12984241e-08  1.30000000e-01 
 1.40000000e-01  3.35495709e-09  3.17447158e-09  3.56620392e-09  4.59766251e-01  3.48247190e-09  4.59766251e-01  3.37514448e-09  1.60240785e-07  6.12981825e-08  1.40000000e-01 
 1.50000000e-01  3.35495708e-09  3.17447157e-09  3.56620392e-09  4.59766282e-01  3.48247185e-09  4.59766282e-01  3.37514443e-09  1.60240816e-07  6.12979925e-08  1.50000000e-01 
 1.60000000e-01  3.35495708e-09  3.17447157e-09  3.56620392e-09  4.59766274e-01  3.48247190e-09  4.59766274e-01  3.37514443e-09  1.60240804e-07  6.12977882e-08  1.60000000e-01 
 1.70000000e-01  3.35495702e-09  3.17447157e-09  3.56620392e-09  4.59766250e-01  3.48247184e-09  4.59766250e-01  3.37514442e-09  1.60240770e-07  6.12975946e-08  1.70000000e-01 
 1.80000000e-01  3.35495709e-09  3.17447163e-09  3.56620386e-09  4.59766250e-01  3.48247184e-09  4.59766250e-01  3.37514448e-09  1.60240781e-07  6.12974151e-08  1.80000000e-01 
 1.90000000e-01  3.35495702e-09  3.17447162e-09  3.56620392e-09  4.59766255e-01  3.48247184e-09  4.59766255e-01  3.37514448e-09  1.60240782e-07  6.12971753e-08  1.90000000e-01 
 2.00000000e-01  3.35495710e-09  3.17447162e-09  3.56620392e-09  4.59766268e-01  3.48247185e-09  4.59766268e-01  3.37514448e-09  1.60240799e-07  6.12970332e-08  2.00000000e-01 
 2.10000000e-01  3.35495708e-09  3.17447162e-09  3.56620392e-09  4.59766267e-01  3.48247185e-09  4.59766267e-01  3.37514448e-09  1.60240813e-07  6.12968361e-08  2.10000000e-01 
 2.20000000e-01  3.35495708e-09  3.17447162e-09  3.56620392e-09  4.59766253e-01  3.48247190e-09  4.59766253e-01  3.37514442e-09  1.60240779e-07  6.12967384e-08  2.20000000e-01 
 2.30000000e-01  3.35495702e-09  3.17447156e-09  3.56620392e-09  4.59766244e-01  3.48247184e-09  4.59766244e-01  3.37514448e-09  1.60240759e-07  6.12965430e-08  2.30000000e-01 
 2.40000000e-01  3.35495704e-09  3.17447158e-09  3.56620392e-09  4.59766272e-01  3.48247185e-09  4.59766272e-01  3.37514443e-09  1.60240801e-07  6.12964630e-08  2.40000000e-01 
 2.50000000e-01  3.35495703e-09  3.17447157e-09  3.56620392e-09  4.59766264e-01  3.48247190e-09  4.59766264e-01  3.37514448e-09  1.60240800e-07  6.12963955e-08  2.50000000e-01 
 2.60000000e-01  3.35495709e-09  3.17447157e-09  3.56620386e-09  4.59766255e-01  3.48247190e-09  4.59766255e-01  3.37514448e-09  1.60240786e-07  6.12961770e-08  2.60000000e-01 
 2.70000000e-01  3.35495702e-09  3.17447163e-09  3.56620392e-09  4.59766249e-01  3.48247184e-09  4.59766249e-01  3.37514442e-09  1.60240784e-07  6.12961841e-08  2.70000000e-01 
 2.80000000e-01  3.35495704e-09  3.17447162e-09  3.56620392e-09  4.59766264e-01  3.48247190e-09  4.59766264e-01  3.37514443e-09  1.60240799e-07  6.12959106e-08  2.80000000e-01 
 2.90000000e-01  3.35495709e-09  3.17447162e-09  3.56620392e-09  4.59766268e-01  3.48247185e-09  4.59766268e-01  3.37514448e-09  1.60240808e-07  6.12958999e-08  2.90000000e-01 
 3.00000000e-01  3.35495707e-09  3.17447162e-09  3.56620392e-09  4.59766250e-01  3.48247184e-09  4.59766250e-01  3.37514442e-09  1.60240783e-07  6.12955837e-08  3.00000000e-01 
 3.10000000e-01  3.35495702e-09  3.17447157e-09  3.56620392e-09  4.59766257e-01  3.48247190e-09  4.59766257e-01  3.37514442e-09  1.60240783e-07  6.12955731e-08  3.10000000e-01 
 3.20000000e-01  3.35495704e-09  3.17447158e-09  3.56620392e-09  4.59766279e-01  3.48247185e-09  4.59766279e-01  3.37514443e-09  1.60240822e-07  6.12954132e-08  3.20000000e-01 
 3.30000000e-01  3.35495703e-09  3.17447157e-09  3.56620392e-09  4.59766283e-01  3.48247190e-09  4.59766283e-01  3.37514443e-09  1.60240833e-07  6.12954238e-08  3.30000000e-01 
 3.40000000e-01  3.35495709e-09  3.17447163e-09  3.56620392e-09  4.59766255e-01  3.48247190e-09  4.59766255e-01  3.37514448e-09  1.60240781e-07  6.12952391e-08  3.40000000e-01 
 3.50000000e-01  3.35495707e-09  3.17447162e-09  3.56620392e-09  4.59766250e-01  3.48247190e-09  4.59766249e-01  3.37514448e-09  1.60240775e-07  6.12952533e-08  3.50000000e-01 
 3.60000000e-01  3.35495708e-09  3.17447162e-09  3.56620392e-09  4.59766261e-01  3.48247190e-09  4.59766261e-01  3.37514443e-09  1.60240796e-07  6.12951716e-08  3.60000000e-01 
 3.70000000e-01  3.35495708e-09  3.17447157e-09  3.56620392e-09  4.59766266e-01  3.48247190e-09  4.59766266e-01  3.37514448e-09  1.60240802e-07  6.12950792e-08  3.70000000e-01 
 3.80000000e-01  3.35495702e-09  3.17447158e-09  3.56620392e-09  4.59766255e-01  3.48247190e-09  4.59766255e-01  3.37514442e-09  1.60240789e-07  6.12949691e-08  3.80000000e-01 
 3.90000000e-01  3.35495709e-09  3.17447157e-09  3.56620392e-09  4.59766254e-01  3.48247190e-09  4.59766254e-01  3.37514448e-09  1.60240781e-07  6.12948767e-08  3.90000000e-01 
 4.00000000e-01  3.35495707e-09  3.17447157e-09  3.56620392e-09  4.59766255e-01  3.48247190e-09  4.59766255e-01  3.37514448e-09  1.60240778e-07  6.12948092e-08  4.00000000e-01 
 4.10000000e-01  3.35495708e-09  3.17447157e-09  3.56620392e-09  4.59766251e-01  3.48247184e-09  4.59766251e-01  3.37514448e-09  1.60240779e-07  6.12947773e-08  4.10000000e-01 
 4.20000000e-01  3.35495709e-09  3.17447163e-09  3.56620392e-09  4.59766287e-01  3.48247190e-09  4.59766287e-01  3.37514443e-09  1.60240816e-07  6.12946280e-08  4.20000000e-01 
 4.30000000e-01  3.35495708e-09  3.17447156e-09  3.56620392e-09  4.59766274e-01  3.48247185e-09  4.59766274e-01  3.37514448e-09  1.60240814e-07  6.12945783e-08  4.30000000e-01 
 4.40000000e-01  3.35495708e-09  3.17447158e-09  3.56620392e-09  4.59766262e-01  3.48247190e-09  4.59766261e-01  3.37514443e-09  1.60240793e-07  6.12945179e-08  4.40000000e-01 
 4.50000000e-01  3.35495708e-09  3.17447157e-09  3.56620386e-09  4.59766254e-01  3.48247190e-09  4.59766254e-01  3.37514448e-09  1.60240791e-07  6.12944646e-08  4.50000000e-01 
 4.60000000e-01  3.35495708e-09  3.17447157e-09  3.56620392e-09  4.59766250e-01  3.48247190e-09  4.59766250e-01  3.37514442e-09  1.60240771e-07  6.12942870e-08  4.60000000e-01 
 4.70000000e-01  3.35495703e-09  3.17447157e-09  3.56620392e-09  4.59766270e-01  3.48247185e-09  4.59766270e-01  3.37514443e-09  1.60240820e-07  6.12942479e-08  4.70000000e-01 
 4.80000000e-01  3.35495709e-09  3.17447157e-09  3.56620392e-09  4.59766262e-01  3.48247184e-09  4.59766262e-01  3.37514443e-09  1.60240796e-07  6.12942976e-08  4.80000000e-01 
 4.90000000e-01  3.35495708e-09  3.17447163e-09  3.56620392e-09  4.59766259e-01  3.48247190e-09  4.59766259e-01  3.37514448e-09  1.60240785e-07  6.12941804e-08  4.90000000e-01 
 5.00000000e-01  3.35495708e-09  3.17447162e-09  3.56620392e-09  4.59766253e-01  3.48247184e-09  4.59766253e-01  3.37514442e-09  1.60240774e-07  6.12940809e-08  5.00000000e-01 
 5.10000000e-01  3.35495708e-09  3.17447162e-09  3.56620392e-09  4.59766277e-01  3.48247190e-09  4.59766277e-01  3.37514448e-09  1.60240801e-07  6.12940134e-08  5.10000000e-01 
 5.20000000e-01  3.35495702e-09  3.17447157e-09  3.56620386e-09  4.59766262e-01  3.48247184e-09  4.59766262e-01  3.37514448e-09  1.60240785e-07  6.12939957e-08  5.20000000e-01 
 5.30000000e-01  3.35495703e-09  3.17447158e-09  3.56620392e-09  4.59766247e-01  3.48247190e-09  4.59766246e-01  3.37514442e-09  1.60240771e-07  6.12939068e-08  5.30000000e-01 
 5.40000000e-01  3.35495709e-09  3.17447157e-09  3.56620392e-09  4.59766259e-01  3.48247190e-09  4.59766259e-01  3.37514448e-09  1.60240796e-07  6.12938251e-08  5.40000000e-01 
 5.50000000e-01  3.35495707e-09  3.17447157e-09  3.56620392e-09  4.59766255e-01  3.48247190e-09  4.59766255e-01  3.37514442e-09  1.60240782e-07  6.12936830e-08  5.50000000e-01 
 5.60000000e-01  3.35495702e-09  3.17447157e-09  3.56620392e-09  4.59766264e-01  3.48247190e-09  4.59766264e-01  3.37514448e-09  1.60240794e-07  6.12936617e-08  5.60000000e-01 
 5.70000000e-01  3.35495704e-09  3.17447163e-09  3.56620392e-09  4.59766288e-01  3.48247190e-09  4.59766288e-01  3.37514448e-09  1.60240815e-07  6.12937150e-08  5.70000000e-01 
 5.80000000e-01  3.35495709e-09  3.17447156e-09  3.56620392e-09  4.59766282e-01  3.48247185e-09  4.59766282e-01  3.37514448e-09  1.60240820e-07  6.12935196e-08  5.80000000e-01 
 5.90000000e-01  3.35495707e-09  3.17447158e-09  3.56620392e-09  4.59766245e-01  3.48247190e-09  4.59766244e-01  3.37514442e-09  1.60240756e-07  6.12935338e-08  5.90000000e-01 
 6.00000000e-01  3.35495708e-09  3.17447163e-09  3.56620392e-09  4.59766259e-01  3.48247190e-09  4.59766259e-01  3.37514443e-09  1.60240792e-07  6.12935196e-08  6.00000000e-01 
 6.10000000e-01  3.35495703e-09  3.17447162e-09  3.56620392e-09  4.59766266e-01  3.48247185e-09  4.59766266e-01  3.37514448e-09  1.60240797e-07  6.12933491e-08  6.10000000e-01 
 6.20000000e-01  3.35495704e-09  3.17447157e-09  3.56620392e-09  4.59766275e-01  3.48247185e-09  4.59766275e-01  3.37514443e-09  1.60240810e-07  6.12933135e-08  6.20000000e-01 
 6.30000000e-01  3.35495709e-09  3.17447158e-09  3.56620392e-09  4.59766264e-01  3.48247185e-09  4.59766264e-01  3.37514443e-09  1.60240813e-07  6.12932141e-08  6.30000000e-01 
 6.40000000e-01  3.35495708e-09  3.17447163e-09  3.56620392e-09  4.59766272e-01  3.48247190e-09  4.59766272e-01  3.37514443e-09  1.60240805e-07  6.12932283e-08  6.40000000e-01 
 6.50000000e-01  3.35495708e-09  3.17447162e-09  3.56620392e-09  4.59766250e-01  3.48247184e-09  4.59766250e-01  3.37514442e-09  1.60240777e-07  6.12930720e-08  6.50000000e-01 
 6.60000000e-01  3.35495702e-09  3.17447162e-09  3.56620392e-09  4.59766254e-01  3.48247190e-09  4.59766254e-01  3.37514442e-09  1.60240776e-07  6.12930435e-08  6.60000000e-01 
 6.70000000e-01  3.35495710e-09  3.17447157e-09  3.56620392e-09  4.59766269e-01  3.48247190e-09  4.59766268e-01  3.37514448e-09  1.60240804e-07  6.12929227e-08  6.70000000e-01 
 6.80000000e-01  3.35495702e-09  3.17447158e-09  3.56620392e-09  4.59766259e-01  3.48247184e-09  4.59766259e-01  3.37514443e-09  1.60240782e-07  6.12929441e-08  6.80000000e-01 
 6.90000000e-01  3.35495704e-09  3.17447163e-09  3.56620392e-09  4.59766256e-01  3.48247184e-09  4.59766256e-01  3.37514448e-09  1.60240794e-07  6.12929867e-08  6.90000000e-01 
 7.00000000e-01  3.35495709e-09  3.17447156e-09  3.56620392e-09  4.59766246e-01  3.48247184e-09  4.59766246e-01  3.37514448e-09  1.60240772e-07  6.12927522e-08  7.00000000e-01 
 7.10000000e-01  3.35495702e-09  3.17447158e-09  3.56620392e-09  4.59766261e-01  3.48247190e-09  4.59766261e-01  3.37514443e-09  1.60240792e-07  6.12928019e-08  7.10000000e-01 
 7.20000000e-01  3.35495704e-09  3.17447157e-09  3.56620392e-09  4.59766299e-01  3.48247190e-09  4.59766299e-01  3.37514448e-09  1.60240854e-07  6.12927309e-08  7.20000000e-01 
 7.30000000e-01  3.35495709e-09  3.17447157e-09  3.56620392e-09  4.59766267e-01  3.48247185e-09  4.59766267e-01  3.37514448e-09  1.60240807e-07  6.12925959e-08  7.30000000e-01 
 7.40000000e-01  3.35495702e-09  3.17447163e-09  3.56620392e-09  4.59766239e-01  3.48247190e-09  4.59766239e-01  3.37514442e-09  1.60240762e-07  6.12925390e-08  7.40000000e-01 
 7.50000000e-01  3.35495704e-09  3.17447162e-09  3.56620392e-09  4.59766293e-01  3.48247185e-09  4.59766293e-01  3.37514443e-09  1.60240846e-07  6.12926456e-08  7.50000000e-01 
 7.60000000e-01  3.35495703e-09  3.17447157e-09  3.56620392e-09  4.59766275e-01  3.48247190e-09  4.59766275e-01  3.37514448e-09  1.60240821e-07  6.12924680e-08  7.60000000e-01 
 7.70000000e-01  3.35495703e-09  3.17447158e-09  3.56620392e-09  4.59766275e-01  3.48247190e-09  4.59766275e-01  3.37514443e-09  1.60240801e-07  6.12923827e-08  7.70000000e-01 
 7.80000000e-01  3.35495703e-09  3.17447157e-09  3.56620392e-09  4.59766280e-01  3.48247190e-09  4.59766280e-01  3.37514443e-09  1.60240822e-07  6.12923827e-08  7.80000000e-01 
 7.90000000e-01  3.35495709e-09  3.17447157e-09  3.56620392e-09  4.59766274e-01  3.48247185e-09  4.59766274e-01  3.37514443e-09  1.60240820e-07  6.12923330e-08  7.90000000e-01 
 8.00000000e-01  3.35495707e-09  3.17447157e-09  3.56620392e-09  4.59766250e-01  3.48247184e-09  4.59766250e-01  3.37514442e-09  1.60240782e-07  6.12921340e-08  8.00000000e-01 
 8.10000000e-01  3.35495702e-09  3.17447157e-09  3.56620392e-09  4.59766260e-01  3.48247184e-09  4.59766260e-01  3.37514443e-09  1.60240789e-07  6.12921482e-08  8.10000000e-01 
 8.20000000e-01  3.35495709e-09  3.17447157e-09  3.56620392e-09  4.59766268e-01  3.48247185e-09  4.59766268e-01  3.37514448e-09  1.60240807e-07  6.12920346e-08  8.20000000e-01 
 8.30000000e-01  3.35495707e-09  3.17447157e-09  3.56620392e-09  4.59766252e-01  3.48247190e-09  4.59766252e-01  3.37514442e-09  1.60240784e-07  6.12920559e-08  8.30000000e-01 
 8.40000000e-01  3.35495708e-09  3.17447157e-09  3.56620392e-09  4.59766262e-01  3.48247190e-09  4.59766262e-01  3.37514443e-09  1.60240795e-07  6.12921127e-08  8.40000000e-01 
 8.50000000e-01  3.35495702e-09  3.17447157e-09  3.56620392e-09  4.59766264e-01  3.48247190e-09  4.59766264e-01  3.37514448e-09  1.60240803e-07  6.12918853e-08  8.50000000e-01 
 8.60000000e-01  3.35495710e-09  3.17447157e-09  3.56620392e-09  4.59766274e-01  3.48247185e-09  4.59766274e-01  3.37514443e-09  1.60240807e-07  6.12917290e-08  8.60000000e-01 
 8.70000000e-01  3.35495702e-09  3.17447157e-09  3.56620392e-09  4.59766272e-01  3.48247185e-09  4.59766272e-01  3.37514448e-09  1.60240816e-07  6.12917077e-08  8.70000000e-01 
 8.80000000e-01  3.35495704e-09  3.17447163e-09  3.56620392e-09  4.59766272e-01  3.48247190e-09  4.59766272e-01  3.37514448e-09  1.60240806e-07  6.12915585e-08  8.80000000e-01 
 8.90000000e-01  3.35495709e-09  3.17447162e-09  3.56620392e-09  4.59766278e-01  3.48247190e-09  4.59766277e-01  3.37514443e-09  1.60240821e-07  6.12917077e-08  8.90000000e-01 
 9.00000000e-01  3.35495708e-09  3.17447157e-09  3.56620392e-09  4.59766269e-01  3.48247185e-09  4.59766269e-01  3.37514443e-09  1.60240797e-07  6.12916509e-08  9.00000000e-01 
 9.10000000e-01  3.35495702e-09  3.17447158e-09  3.56620392e-09  4.59766260e-01  3.48247184e-09  4.59766260e-01  3.37514448e-09  1.60240795e-07  6.12915230e-08  9.10000000e-01 
 9.20000000e-01  3.35495704e-09  3.17447157e-09  3.56620392e-09  4.59766274e-01  3.48247190e-09  4.59766274e-01  3.37514448e-09  1.60240817e-07  6.12914519e-08  9.20000000e-01 
 9.30000000e-01  3.35495709e-09  3.17447157e-09  3.56620392e-09  4.59766267e-01  3.48247190e-09  4.59766267e-01  3.37514443e-09  1.60240786e-07  6.12913524e-08  9.30000000e-01 
 9.40000000e-01  3.35495707e-09  3.17447163e-09  3.56620392e-09  4.59766256e-01  3.48247184e-09  4.59766256e-01  3.37514448e-09  1.60240786e-07  6.12913382e-08  9.40000000e-01 
 9.50000000e-01  3.35495708e-09  3.17447162e-09  3.56620392e-09  4.59766251e-01  3.48247184e-09  4.59766251e-01  3.37514448e-09  1.60240785e-07  6.12911606e-08  9.50000000e-01 
 9.60000000e-01  3.35495702e-09  3.17447157e-09  3.56620392e-09  4.59766260e-01  3.48247184e-09  4.59766260e-01  3.37514443e-09  1.60240791e-07  6.12911393e-08  9.60000000e-01 
 9.70000000e-01  3.35495709e-09  3.17447158e-09  3.56620392e-09  4.59766248e-01  3.48247184e-09  4.59766248e-01  3.37514442e-09  1.60240766e-07  6.12910895e-08  9.70000000e-01 
 9.80000000e-01  3.35495707e-09  3.17447157e-09  3.56620392e-09  4.59766248e-01  3.48247184e-09  4.59766248e-01  3.37514442e-09  1.60240765e-07  6.12910611e-08  9.80000000e-01 
 9.90000000e-01  3.35495702e-09  3.17447163e-09  3.56620392e-09  4.59766258e-01  3.48247190e-09  4.59766258e-01  3.37514448e-09  1.60240788e-07  6.12909119e-08  9.90000000e-01 
 1.00000000e+00  3.35495709e-09  3.17447162e-09  3.56620392e-09  4.59766258e-01  3.48247190e-09  4.59766258e-01  3.37514442e-09  1.60240786e-07  6.12909261e-08  1.00000000e+00 
 1.01000000e+00  3.35495708e-09  3.17447157e-09  3.56620392e-09  4.59766285e-01  3.48247185e-09  4.59766285e-01  3.37514448e-09  1.60240828e-07  6.12909048e-08  1.01000000e+00 
 1.02000000e+00  3.35495703e-09  3.17447158e-09  3.56620392e-09  4.59766286e-01  3.48247190e-09  4.59766286e-01  3.37514443e-09  1.60240842e-07  6.12908480e-08  1.02000000e+00 
 1.03000000e+00  3.35495710e-09  3.17447157e-09  3.56620392e-09  4.59766278e-01  3.48247190e-09  4.59766278e-01  3.37514443e-09  1.60240828e-07  6.12907201e-08  1.03000000e+00 
 1.04000000e+00  3.35495707e-09  3.17447157e-09  3.56620386e-09  4.59766245e-01  3.48247190e-09  4.59766245e-01  3.37514448e-09  1.60240776e-07  6.12906064e-08  1.04000000e+00 
 1.05000000e+00  3.35495702e-09  3.17447157e-09  3.56620392e-09  4.59766256e-01  3.48247184e-09  4.59766256e-01  3.37514442e-09  1.60240791e-07  6.12904927e-08  1.05000000e+00 
 1.06000000e+00  3.35495709e-09  3.17447163e-09  3.56620386e-09  4.59766265e-01  3.48247185e-09  4.59766265e-01  3.37514448e-09  1.60240804e-07  6.12904927e-08  1.06000000e+00 
 1.07000000e+00  3.35495702e-09  3.17447162e-09  3.56620392e-09  4.59766286e-01  3.48247185e-09  4.59766286e-01  3.37514448e-09  1.60240842e-07  6.12905069e-08  1.07000000e+00 
 1.08000000e+00  3.35495709e-09  3.17447157e-09  3.56620392e-09  4.59766258e-01  3.48247184e-09  4.59766258e-01  3.37514442e-09  1.60240793e-07  6.12902653e-08  1.08000000e+00 
 1.09000000e+00  3.35495708e-09  3.17447158e-09  3.56620392e-09  4.59766272e-01  3.48247185e-09  4.59766272e-01  3.37514443e-09  1.60240811e-07  6.12902298e-08  1.09000000e+00 
 1.10000000e+00  3.35495708e-09  3.17447157e-09  3.56620392e-09  4.59766258e-01  3.48247190e-09  4.59766258e-01  3.37514448e-09  1.60240779e-07  6.12902085e-08  1.10000000e+00 
