 v-sweep         v(b0)           v(b1)           v(b2)           v(b3)           v(b4)           v(b5)           v(b6)           i(vbias)        i(viout)        v(vout)        
 0.00000000e+00  4.58977902e-01  3.40023760e-09  3.53022012e-09  4.58977902e-01  3.15754702e-09  4.58977902e-01  3.21866061e-09  1.59673143e-07  5.97293356e-08  0.00000000e+00 
 1.00000000e-02  4.58977916e-01  3.40023757e-09  3.53022015e-09  4.58977916e-01  3.15754700e-09  4.58977916e-01  3.21866059e-09  1.59673163e-07  5.97289646e-08  1.00000000e-02 
 2.00000000e-02  4.58977911e-01  3.40023757e-09  3.53022009e-09  4.58977911e-01  3.15754700e-09  4.58977911e-01  3.21866065e-09  1.59673159e-07  5.97285235e-08  2.00000000e-02 
 3.00000000e-02  4.58977907e-01  3.40023763e-09  3.53022009e-09  4.58977907e-01  3.15754706e-09  4.58977907e-01  3.21866064e-09  1.59673168e-07  5.97281360e-08  3.00000000e-02 
 4.00000000e-02  4.58977941e-01  3.40023757e-09  3.53022009e-09  4.58977941e-01  3.15754700e-09  4.58977941e-01  3.21866059e-09  1.59673199e-07  5.97278733e-08  4.00000000e-02 
 5.00000000e-02  4.58977919e-01  3.40023757e-09  3.53022009e-09  4.58977919e-01  3.15754700e-09  4.58977919e-01  3.21866065e-09  1.59673164e-07  5.97274799e-08  5.00000000e-02 
 6.00000000e-02  4.58977924e-01  3.40023763e-09  3.53022009e-09  4.58977924e-01  3.15754700e-09  4.58977924e-01  3.21866065e-09  1.59673175e-07  5.97271699e-08  6.00000000e-02 
 7.00000000e-02  4.58977917e-01  3.40023757e-09  3.53022009e-09  4.58977917e-01  3.15754700e-09  4.58977917e-01  3.21866065e-09  1.59673178e-07  5.97268475e-08  7.00000000e-02 
 8.00000000e-02  4.58977877e-01  3.40023757e-09  3.53022009e-09  4.58977877e-01  3.15754700e-09  4.58977878e-01  3.21866064e-09  1.59673107e-07  5.97265499e-08  8.00000000e-02 
 9.00000000e-02  4.58977907e-01  3.40023763e-09  3.53022009e-09  4.58977908e-01  3.15754706e-09  4.58977908e-01  3.21866065e-09  1.59673146e-07  5.97262337e-08  9.00000000e-02 
 1.00000000e-01  4.58977917e-01  3.40023757e-09  3.53022015e-09  4.58977917e-01  3.15754706e-09  4.58977917e-01  3.21866065e-09  1.59673177e-07  5.97259948e-08  1.00000000e-01 
 1.10000000e-01  4.58977913e-01  3.40023763e-09  3.53022009e-09  4.58977913e-01  3.15754700e-09  4.58977913e-01  3.21866065e-09  1.59673156e-07  5.97257328e-08  1.10000000e-01 
 1.20000000e-01  4.58977925e-01  3.40023757e-09  3.53022009e-09  4.58977925e-01  3.15754700e-09  4.58977925e-01  3.21866065e-09  1.59673180e-07  5.97255632e-08  1.20000000e-01 
 1.30000000e-01  4.58977916e-01  3.40023757e-09  3.53022009e-09  4.58977916e-01  3.15754706e-09  4.58977916e-01  3.21866065e-09  1.59673158e-07  5.97252994e-08  1.30000000e-01 
 1.40000000e-01  4.58977886e-01  3.40023763e-09  3.53022015e-09  4.58977886e-01  3.15754706e-09  4.58977886e-01  3.21866064e-09  1.59673108e-07  5.97249397e-08  1.40000000e-01 
 1.50000000e-01  4.58977932e-01  3.40023757e-09  3.53022009e-09  4.58977933e-01  3.15754706e-09  4.58977933e-01  3.21866065e-09  1.59673189e-07  5.97248331e-08  1.50000000e-01 
 1.60000000e-01  4.58977912e-01  3.40023757e-09  3.53022009e-09  4.58977912e-01  3.15754700e-09  4.58977912e-01  3.21866065e-09  1.59673157e-07  5.97246821e-08  1.60000000e-01 
 1.70000000e-01  4.58977922e-01  3.40023763e-09  3.53022015e-09  4.58977922e-01  3.15754706e-09  4.58977922e-01  3.21866065e-09  1.59673178e-07  5.97244885e-08  1.70000000e-01 
 1.80000000e-01  4.58977917e-01  3.40023757e-09  3.53022009e-09  4.58977917e-01  3.15754706e-09  4.58977917e-01  3.21866059e-09  1.59673165e-07  5.97243250e-08  1.80000000e-01 
 1.90000000e-01  4.58977907e-01  3.40023763e-09  3.53022009e-09  4.58977907e-01  3.15754700e-09  4.58977907e-01  3.21866059e-09  1.59673159e-07  5.97241030e-08  1.90000000e-01 
 2.00000000e-01  4.58977933e-01  3.40023757e-09  3.53022009e-09  4.58977933e-01  3.15754706e-09  4.58977933e-01  3.21866065e-09  1.59673187e-07  5.97239822e-08  2.00000000e-01 
 2.10000000e-01  4.58977926e-01  3.40023757e-09  3.53022009e-09  4.58977926e-01  3.15754706e-09  4.58977926e-01  3.21866065e-09  1.59673173e-07  5.97238525e-08  2.10000000e-01 
 2.20000000e-01  4.58977910e-01  3.40023763e-09  3.53022009e-09  4.58977910e-01  3.15754700e-09  4.58977910e-01  3.21866065e-09  1.59673156e-07  5.97237104e-08  2.20000000e-01 
 2.30000000e-01  4.58977941e-01  3.40023763e-09  3.53022009e-09  4.58977941e-01  3.15754706e-09  4.58977941e-01  3.21866065e-09  1.59673193e-07  5.97235310e-08  2.30000000e-01 
 2.40000000e-01  4.58977900e-01  3.40023763e-09  3.53022009e-09  4.58977900e-01  3.15754706e-09  4.58977900e-01  3.21866064e-09  1.59673129e-07  5.97233143e-08  2.40000000e-01 
 2.50000000e-01  4.58977914e-01  3.40023763e-09  3.53022009e-09  4.58977914e-01  3.15754706e-09  4.58977914e-01  3.21866065e-09  1.59673149e-07  5.97232397e-08  2.50000000e-01 
 2.60000000e-01  4.58977914e-01  3.40023763e-09  3.53022009e-09  4.58977914e-01  3.15754700e-09  4.58977914e-01  3.21866065e-09  1.59673155e-07  5.97231775e-08  2.60000000e-01 
 2.70000000e-01  4.58977918e-01  3.40023757e-09  3.53022015e-09  4.58977918e-01  3.15754700e-09  4.58977918e-01  3.21866059e-09  1.59673164e-07  5.97229839e-08  2.70000000e-01 
 2.80000000e-01  4.58977920e-01  3.40023757e-09  3.53022009e-09  4.58977920e-01  3.15754700e-09  4.58977920e-01  3.21866065e-09  1.59673177e-07  5.97228045e-08  2.80000000e-01 
 2.90000000e-01  4.58977928e-01  3.40023763e-09  3.53022015e-09  4.58977928e-01  3.15754706e-09  4.58977928e-01  3.21866065e-09  1.59673183e-07  5.97227867e-08  2.90000000e-01 
 3.00000000e-01  4.58977927e-01  3.40023757e-09  3.53022009e-09  4.58977927e-01  3.15754706e-09  4.58977927e-01  3.21866065e-09  1.59673187e-07  5.97227725e-08  3.00000000e-01 
 3.10000000e-01  4.58977913e-01  3.40023757e-09  3.53022015e-09  4.58977913e-01  3.15754706e-09  4.58977913e-01  3.21866065e-09  1.59673156e-07  5.97226126e-08  3.10000000e-01 
 3.20000000e-01  4.58977934e-01  3.40023757e-09  3.53022009e-09  4.58977934e-01  3.15754706e-09  4.58977934e-01  3.21866059e-09  1.59673196e-07  5.97225238e-08  3.20000000e-01 
 3.30000000e-01  4.58977926e-01  3.40023763e-09  3.53022015e-09  4.58977926e-01  3.15754706e-09  4.58977926e-01  3.21866065e-09  1.59673166e-07  5.97224350e-08  3.30000000e-01 
 3.40000000e-01  4.58977916e-01  3.40023757e-09  3.53022009e-09  4.58977916e-01  3.15754706e-09  4.58977916e-01  3.21866065e-09  1.59673170e-07  5.97221756e-08  3.40000000e-01 
 3.50000000e-01  4.58977924e-01  3.40023763e-09  3.53022009e-09  4.58977924e-01  3.15754706e-09  4.58977924e-01  3.21866065e-09  1.59673179e-07  5.97221437e-08  3.50000000e-01 
 3.60000000e-01  4.58977902e-01  3.40023757e-09  3.53022015e-09  4.58977902e-01  3.15754706e-09  4.58977902e-01  3.21866059e-09  1.59673140e-07  5.97220371e-08  3.60000000e-01 
 3.70000000e-01  4.58977924e-01  3.40023757e-09  3.53022009e-09  4.58977924e-01  3.15754700e-09  4.58977924e-01  3.21866065e-09  1.59673180e-07  5.97220193e-08  3.70000000e-01 
 3.80000000e-01  4.58977910e-01  3.40023763e-09  3.53022015e-09  4.58977910e-01  3.15754706e-09  4.58977910e-01  3.21866065e-09  1.59673155e-07  5.97219589e-08  3.80000000e-01 
 3.90000000e-01  4.58977918e-01  3.40023757e-09  3.53022009e-09  4.58977918e-01  3.15754706e-09  4.58977918e-01  3.21866065e-09  1.59673170e-07  5.97218346e-08  3.90000000e-01 
 4.00000000e-01  4.58977915e-01  3.40023757e-09  3.53022009e-09  4.58977915e-01  3.15754706e-09  4.58977915e-01  3.21866065e-09  1.59673166e-07  5.97216427e-08  4.00000000e-01 
 4.10000000e-01  4.58977896e-01  3.40023757e-09  3.53022009e-09  4.58977897e-01  3.15754706e-09  4.58977897e-01  3.21866064e-09  1.59673135e-07  5.97216747e-08  4.10000000e-01 
 4.20000000e-01  4.58977918e-01  3.40023763e-09  3.53022009e-09  4.58977918e-01  3.15754700e-09  4.58977918e-01  3.21866065e-09  1.59673162e-07  5.97216321e-08  4.20000000e-01 
 4.30000000e-01  4.58977927e-01  3.40023763e-09  3.53022009e-09  4.58977927e-01  3.15754706e-09  4.58977927e-01  3.21866065e-09  1.59673180e-07  5.97214616e-08  4.30000000e-01 
 4.40000000e-01  4.58977909e-01  3.40023757e-09  3.53022009e-09  4.58977909e-01  3.15754706e-09  4.58977909e-01  3.21866059e-09  1.59673161e-07  5.97214438e-08  4.40000000e-01 
 4.50000000e-01  4.58977939e-01  3.40023757e-09  3.53022015e-09  4.58977939e-01  3.15754700e-09  4.58977939e-01  3.21866065e-09  1.59673187e-07  5.97213550e-08  4.50000000e-01 
 4.60000000e-01  4.58977923e-01  3.40023757e-09  3.53022009e-09  4.58977923e-01  3.15754706e-09  4.58977923e-01  3.21866065e-09  1.59673162e-07  5.97212519e-08  4.60000000e-01 
 4.70000000e-01  4.58977916e-01  3.40023763e-09  3.53022015e-09  4.58977916e-01  3.15754706e-09  4.58977916e-01  3.21866065e-09  1.59673158e-07  5.97211098e-08  4.70000000e-01 
 4.80000000e-01  4.58977938e-01  3.40023757e-09  3.53022009e-09  4.58977938e-01  3.15754706e-09  4.58977938e-01  3.21866065e-09  1.59673202e-07  5.97211312e-08  4.80000000e-01 
 4.90000000e-01  4.58977912e-01  3.40023757e-09  3.53022009e-09  4.58977912e-01  3.15754706e-09  4.58977912e-01  3.21866065e-09  1.59673154e-07  5.97210779e-08  4.90000000e-01 
 5.00000000e-01  4.58977923e-01  3.40023757e-09  3.53022009e-09  4.58977923e-01  3.15754706e-09  4.58977923e-01  3.21866065e-09  1.59673169e-07  5.97209713e-08  5.00000000e-01 
 5.10000000e-01  4.58977939e-01  3.40023757e-09  3.53022009e-09  4.58977939e-01  3.15754700e-09  4.58977939e-01  3.21866065e-09  1.59673206e-07  5.97209464e-08  5.10000000e-01 
 5.20000000e-01  4.58977914e-01  3.40023763e-09  3.53022009e-09  4.58977914e-01  3.15754706e-09  4.58977914e-01  3.21866065e-09  1.59673163e-07  5.97208505e-08  5.20000000e-01 
 5.30000000e-01  4.58977915e-01  3.40023757e-09  3.53022015e-09  4.58977915e-01  3.15754700e-09  4.58977915e-01  3.21866059e-09  1.59673163e-07  5.97207581e-08  5.30000000e-01 
 5.40000000e-01  4.58977901e-01  3.40023757e-09  3.53022009e-09  4.58977901e-01  3.15754700e-09  4.58977901e-01  3.21866064e-09  1.59673162e-07  5.97206729e-08  5.40000000e-01 
 5.50000000e-01  4.58977930e-01  3.40023757e-09  3.53022015e-09  4.58977930e-01  3.15754706e-09  4.58977930e-01  3.21866065e-09  1.59673182e-07  5.97206657e-08  5.50000000e-01 
 5.60000000e-01  4.58977903e-01  3.40023757e-09  3.53022015e-09  4.58977903e-01  3.15754700e-09  4.58977903e-01  3.21866064e-09  1.59673153e-07  5.97205840e-08  5.60000000e-01 
 5.70000000e-01  4.58977936e-01  3.40023757e-09  3.53022009e-09  4.58977936e-01  3.15754706e-09  4.58977936e-01  3.21866065e-09  1.59673195e-07  5.97205521e-08  5.70000000e-01 
 5.80000000e-01  4.58977919e-01  3.40023763e-09  3.53022009e-09  4.58977919e-01  3.15754706e-09  4.58977919e-01  3.21866065e-09  1.59673165e-07  5.97204135e-08  5.80000000e-01 
 5.90000000e-01  4.58977913e-01  3.40023757e-09  3.53022009e-09  4.58977913e-01  3.15754706e-09  4.58977913e-01  3.21866065e-09  1.59673172e-07  5.97203922e-08  5.90000000e-01 
 6.00000000e-01  4.58977934e-01  3.40023757e-09  3.53022015e-09  4.58977934e-01  3.15754706e-09  4.58977934e-01  3.21866065e-09  1.59673187e-07  5.97204135e-08  6.00000000e-01 
 6.10000000e-01  4.58977917e-01  3.40023763e-09  3.53022009e-09  4.58977917e-01  3.15754706e-09  4.58977917e-01  3.21866065e-09  1.59673165e-07  5.97203638e-08  6.10000000e-01 
 6.20000000e-01  4.58977902e-01  3.40023757e-09  3.53022015e-09  4.58977902e-01  3.15754700e-09  4.58977902e-01  3.21866064e-09  1.59673137e-07  5.97202074e-08  6.20000000e-01 
 6.30000000e-01  4.58977936e-01  3.40023757e-09  3.53022015e-09  4.58977937e-01  3.15754706e-09  4.58977937e-01  3.21866059e-09  1.59673180e-07  5.97202430e-08  6.30000000e-01 
 6.40000000e-01  4.58977916e-01  3.40023763e-09  3.53022009e-09  4.58977916e-01  3.15754700e-09  4.58977916e-01  3.21866065e-09  1.59673161e-07  5.97201506e-08  6.40000000e-01 
 6.50000000e-01  4.58977918e-01  3.40023763e-09  3.53022015e-09  4.58977918e-01  3.15754706e-09  4.58977918e-01  3.21866059e-09  1.59673169e-07  5.97200511e-08  6.50000000e-01 
 6.60000000e-01  4.58977903e-01  3.40023757e-09  3.53022009e-09  4.58977903e-01  3.15754700e-09  4.58977903e-01  3.21866064e-09  1.59673153e-07  5.97199872e-08  6.60000000e-01 
 6.70000000e-01  4.58977922e-01  3.40023757e-09  3.53022009e-09  4.58977922e-01  3.15754706e-09  4.58977922e-01  3.21866059e-09  1.59673173e-07  5.97198593e-08  6.70000000e-01 
 6.80000000e-01  4.58977930e-01  3.40023757e-09  3.53022015e-09  4.58977930e-01  3.15754706e-09  4.58977930e-01  3.21866065e-09  1.59673190e-07  5.97199019e-08  6.80000000e-01 
 6.90000000e-01  4.58977930e-01  3.40023757e-09  3.53022015e-09  4.58977930e-01  3.15754706e-09  4.58977930e-01  3.21866065e-09  1.59673199e-07  5.97198380e-08  6.90000000e-01 
 7.00000000e-01  4.58977901e-01  3.40023763e-09  3.53022015e-09  4.58977901e-01  3.15754700e-09  4.58977901e-01  3.21866064e-09  1.59673151e-07  5.97197669e-08  7.00000000e-01 
 7.10000000e-01  4.58977921e-01  3.40023763e-09  3.53022009e-09  4.58977921e-01  3.15754700e-09  4.58977921e-01  3.21866065e-09  1.59673161e-07  5.97196106e-08  7.10000000e-01 
 7.20000000e-01  4.58977922e-01  3.40023757e-09  3.53022015e-09  4.58977922e-01  3.15754706e-09  4.58977922e-01  3.21866065e-09  1.59673171e-07  5.97195395e-08  7.20000000e-01 
 7.30000000e-01  4.58977918e-01  3.40023763e-09  3.53022009e-09  4.58977918e-01  3.15754706e-09  4.58977918e-01  3.21866065e-09  1.59673166e-07  5.97195182e-08  7.30000000e-01 
 7.40000000e-01  4.58977905e-01  3.40023763e-09  3.53022009e-09  4.58977905e-01  3.15754700e-09  4.58977905e-01  3.21866059e-09  1.59673139e-07  5.97194898e-08  7.40000000e-01 
 7.50000000e-01  4.58977898e-01  3.40023763e-09  3.53022009e-09  4.58977898e-01  3.15754700e-09  4.58977898e-01  3.21866064e-09  1.59673141e-07  5.97192908e-08  7.50000000e-01 
 7.60000000e-01  4.58977913e-01  3.40023763e-09  3.53022009e-09  4.58977913e-01  3.15754706e-09  4.58977913e-01  3.21866065e-09  1.59673169e-07  5.97194116e-08  7.60000000e-01 
 7.70000000e-01  4.58977885e-01  3.40023757e-09  3.53022009e-09  4.58977885e-01  3.15754706e-09  4.58977885e-01  3.21866064e-09  1.59673111e-07  5.97191914e-08  7.70000000e-01 
 7.80000000e-01  4.58977906e-01  3.40023763e-09  3.53022015e-09  4.58977906e-01  3.15754706e-09  4.58977906e-01  3.21866064e-09  1.59673147e-07  5.97192198e-08  7.80000000e-01 
 7.90000000e-01  4.58977911e-01  3.40023757e-09  3.53022009e-09  4.58977911e-01  3.15754706e-09  4.58977912e-01  3.21866065e-09  1.59673144e-07  5.97191487e-08  7.90000000e-01 
 8.00000000e-01  4.58977906e-01  3.40023757e-09  3.53022009e-09  4.58977906e-01  3.15754706e-09  4.58977906e-01  3.21866064e-09  1.59673162e-07  5.97190990e-08  8.00000000e-01 
 8.10000000e-01  4.58977916e-01  3.40023763e-09  3.53022015e-09  4.58977916e-01  3.15754700e-09  4.58977916e-01  3.21866065e-09  1.59673165e-07  5.97190066e-08  8.10000000e-01 
 8.20000000e-01  4.58977909e-01  3.40023763e-09  3.53022009e-09  4.58977909e-01  3.15754706e-09  4.58977909e-01  3.21866065e-09  1.59673170e-07  5.97190137e-08  8.20000000e-01 
 8.30000000e-01  4.58977922e-01  3.40023757e-09  3.53022009e-09  4.58977922e-01  3.15754706e-09  4.58977922e-01  3.21866065e-09  1.59673170e-07  5.97188503e-08  8.30000000e-01 
 8.40000000e-01  4.58977897e-01  3.40023757e-09  3.53022015e-09  4.58977897e-01  3.15754700e-09  4.58977897e-01  3.21866064e-09  1.59673137e-07  5.97188290e-08  8.40000000e-01 
 8.50000000e-01  4.58977897e-01  3.40023757e-09  3.53022009e-09  4.58977897e-01  3.15754706e-09  4.58977898e-01  3.21866064e-09  1.59673139e-07  5.97188290e-08  8.50000000e-01 
 8.60000000e-01  4.58977913e-01  3.40023757e-09  3.53022009e-09  4.58977913e-01  3.15754706e-09  4.58977913e-01  3.21866065e-09  1.59673164e-07  5.97187437e-08  8.60000000e-01 
 8.70000000e-01  4.58977900e-01  3.40023757e-09  3.53022015e-09  4.58977900e-01  3.15754706e-09  4.58977900e-01  3.21866064e-09  1.59673146e-07  5.97186229e-08  8.70000000e-01 
 8.80000000e-01  4.58977913e-01  3.40023757e-09  3.53022009e-09  4.58977913e-01  3.15754700e-09  4.58977913e-01  3.21866065e-09  1.59673175e-07  5.97185092e-08  8.80000000e-01 
 8.90000000e-01  4.58977906e-01  3.40023763e-09  3.53022009e-09  4.58977906e-01  3.15754706e-09  4.58977906e-01  3.21866064e-09  1.59673146e-07  5.97185448e-08  8.90000000e-01 
 9.00000000e-01  4.58977916e-01  3.40023757e-09  3.53022009e-09  4.58977916e-01  3.15754706e-09  4.58977916e-01  3.21866065e-09  1.59673171e-07  5.97184027e-08  9.00000000e-01 
 9.10000000e-01  4.58977921e-01  3.40023757e-09  3.53022009e-09  4.58977921e-01  3.15754706e-09  4.58977921e-01  3.21866065e-09  1.59673177e-07  5.97184098e-08  9.10000000e-01 
 9.20000000e-01  4.58977911e-01  3.40023757e-09  3.53022009e-09  4.58977911e-01  3.15754700e-09  4.58977911e-01  3.21866065e-09  1.59673161e-07  5.97182890e-08  9.20000000e-01 
 9.30000000e-01  4.58977914e-01  3.40023763e-09  3.53022015e-09  4.58977914e-01  3.15754706e-09  4.58977914e-01  3.21866065e-09  1.59673170e-07  5.97182677e-08  9.30000000e-01 
 9.40000000e-01  4.58977898e-01  3.40023763e-09  3.53022009e-09  4.58977898e-01  3.15754706e-09  4.58977898e-01  3.21866064e-09  1.59673128e-07  5.97181682e-08  9.40000000e-01 
 9.50000000e-01  4.58977918e-01  3.40023757e-09  3.53022015e-09  4.58977918e-01  3.15754706e-09  4.58977918e-01  3.21866065e-09  1.59673165e-07  5.97180758e-08  9.50000000e-01 
 9.60000000e-01  4.58977911e-01  3.40023757e-09  3.53022009e-09  4.58977911e-01  3.15754706e-09  4.58977911e-01  3.21866065e-09  1.59673164e-07  5.97180403e-08  9.60000000e-01 
 9.70000000e-01  4.58977916e-01  3.40023757e-09  3.53022015e-09  4.58977916e-01  3.15754706e-09  4.58977916e-01  3.21866059e-09  1.59673172e-07  5.97181042e-08  9.70000000e-01 
 9.80000000e-01  4.58977912e-01  3.40023763e-09  3.53022015e-09  4.58977912e-01  3.15754706e-09  4.58977912e-01  3.21866065e-09  1.59673164e-07  5.97179337e-08  9.80000000e-01 
 9.90000000e-01  4.58977910e-01  3.40023763e-09  3.53022009e-09  4.58977910e-01  3.15754706e-09  4.58977910e-01  3.21866065e-09  1.59673157e-07  5.97178982e-08  9.90000000e-01 
 1.00000000e+00  4.58977918e-01  3.40023763e-09  3.53022009e-09  4.58977918e-01  3.15754706e-09  4.58977918e-01  3.21866059e-09  1.59673174e-07  5.97177845e-08  1.00000000e+00 
 1.01000000e+00  4.58977918e-01  3.40023763e-09  3.53022015e-09  4.58977918e-01  3.15754706e-09  4.58977918e-01  3.21866059e-09  1.59673165e-07  5.97177916e-08  1.01000000e+00 
 1.02000000e+00  4.58977935e-01  3.40023757e-09  3.53022009e-09  4.58977935e-01  3.15754700e-09  4.58977935e-01  3.21866065e-09  1.59673198e-07  5.97176566e-08  1.02000000e+00 
 1.03000000e+00  4.58977907e-01  3.40023757e-09  3.53022009e-09  4.58977907e-01  3.15754706e-09  4.58977907e-01  3.21866065e-09  1.59673141e-07  5.97175998e-08  1.03000000e+00 
 1.04000000e+00  4.58977911e-01  3.40023763e-09  3.53022015e-09  4.58977911e-01  3.15754706e-09  4.58977911e-01  3.21866065e-09  1.59673156e-07  5.97174932e-08  1.04000000e+00 
 1.05000000e+00  4.58977917e-01  3.40023763e-09  3.53022009e-09  4.58977917e-01  3.15754706e-09  4.58977917e-01  3.21866065e-09  1.59673169e-07  5.97173937e-08  1.05000000e+00 
 1.06000000e+00  4.58977931e-01  3.40023757e-09  3.53022015e-09  4.58977931e-01  3.15754706e-09  4.58977931e-01  3.21866059e-09  1.59673180e-07  5.97174576e-08  1.06000000e+00 
 1.07000000e+00  4.58977914e-01  3.40023763e-09  3.53022009e-09  4.58977914e-01  3.15754706e-09  4.58977914e-01  3.21866059e-09  1.59673151e-07  5.97173795e-08  1.07000000e+00 
 1.08000000e+00  4.58977899e-01  3.40023757e-09  3.53022009e-09  4.58977899e-01  3.15754706e-09  4.58977899e-01  3.21866064e-09  1.59673140e-07  5.97171521e-08  1.08000000e+00 
 1.09000000e+00  4.58977925e-01  3.40023757e-09  3.53022009e-09  4.58977925e-01  3.15754700e-09  4.58977925e-01  3.21866059e-09  1.59673171e-07  5.97172090e-08  1.09000000e+00 
 1.10000000e+00  4.58977919e-01  3.40023763e-09  3.53022009e-09  4.58977919e-01  3.15754706e-09  4.58977919e-01  3.21866065e-09  1.59673160e-07  5.97170953e-08  1.10000000e+00 
