 v-sweep         v(b0)           v(b1)           v(b2)           v(b3)           v(b4)           v(b5)           v(b6)           i(vbias)        i(viout)        v(vout)        
 0.00000000e+00  4.58555525e-01  3.22087503e-09  3.52019201e-09  4.58555525e-01  4.58555525e-01  3.08302383e-09  4.58555525e-01  1.59025641e-07  1.34815430e-07  0.00000000e+00 
 1.00000000e-02  4.58555531e-01  3.22087500e-09  3.52019199e-09  4.58555531e-01  4.58555531e-01  3.08302387e-09  4.58555531e-01  1.59025658e-07  1.34814991e-07  1.00000000e-02 
 2.00000000e-02  4.58555534e-01  3.22087500e-09  3.52019199e-09  4.58555533e-01  4.58555533e-01  3.08302387e-09  4.58555533e-01  1.59025665e-07  1.34814529e-07  2.00000000e-02 
 3.00000000e-02  4.58555523e-01  3.22087494e-09  3.52019199e-09  4.58555523e-01  4.58555523e-01  3.08302387e-09  4.58555523e-01  1.59025635e-07  1.34813985e-07  3.00000000e-02 
 4.00000000e-02  4.58555531e-01  3.22087501e-09  3.52019199e-09  4.58555531e-01  4.58555531e-01  3.08302387e-09  4.58555531e-01  1.59025657e-07  1.34813850e-07  4.00000000e-02 
 5.00000000e-02  4.58555510e-01  3.22087494e-09  3.52019199e-09  4.58555509e-01  4.58555509e-01  3.08302387e-09  4.58555510e-01  1.59025640e-07  1.34813332e-07  5.00000000e-02 
 6.00000000e-02  4.58555518e-01  3.22087501e-09  3.52019199e-09  4.58555518e-01  4.58555518e-01  3.08302387e-09  4.58555518e-01  1.59025651e-07  1.34812945e-07  6.00000000e-02 
 7.00000000e-02  4.58555536e-01  3.22087494e-09  3.52019199e-09  4.58555536e-01  4.58555536e-01  3.08302387e-09  4.58555536e-01  1.59025653e-07  1.34812599e-07  7.00000000e-02 
 8.00000000e-02  4.58555532e-01  3.22087501e-09  3.52019199e-09  4.58555532e-01  4.58555532e-01  3.08302387e-09  4.58555532e-01  1.59025657e-07  1.34812447e-07  8.00000000e-02 
 9.00000000e-02  4.58555540e-01  3.22087494e-09  3.52019199e-09  4.58555540e-01  4.58555540e-01  3.08302387e-09  4.58555540e-01  1.59025674e-07  1.34811978e-07  9.00000000e-02 
 1.00000000e-01  4.58555519e-01  3.22087501e-09  3.52019199e-09  4.58555519e-01  4.58555519e-01  3.08302387e-09  4.58555519e-01  1.59025638e-07  1.34811692e-07  1.00000000e-01 
 1.10000000e-01  4.58555530e-01  3.22087500e-09  3.52019205e-09  4.58555530e-01  4.58555530e-01  3.08302387e-09  4.58555530e-01  1.59025657e-07  1.34811518e-07  1.10000000e-01 
 1.20000000e-01  4.58555526e-01  3.22087494e-09  3.52019199e-09  4.58555526e-01  4.58555526e-01  3.08302387e-09  4.58555526e-01  1.59025649e-07  1.34811136e-07  1.20000000e-01 
 1.30000000e-01  4.58555525e-01  3.22087501e-09  3.52019199e-09  4.58555525e-01  4.58555525e-01  3.08302387e-09  4.58555525e-01  1.59025643e-07  1.34810973e-07  1.30000000e-01 
 1.40000000e-01  4.58555542e-01  3.22087494e-09  3.52019199e-09  4.58555542e-01  4.58555542e-01  3.08302387e-09  4.58555542e-01  1.59025673e-07  1.34810698e-07  1.40000000e-01 
 1.50000000e-01  4.58555526e-01  3.22087496e-09  3.52019199e-09  4.58555526e-01  4.58555526e-01  3.08302387e-09  4.58555526e-01  1.59025644e-07  1.34810421e-07  1.50000000e-01 
 1.60000000e-01  4.58555520e-01  3.22087501e-09  3.52019199e-09  4.58555519e-01  4.58555520e-01  3.08302387e-09  4.58555520e-01  1.59025637e-07  1.34810191e-07  1.60000000e-01 
 1.70000000e-01  4.58555545e-01  3.22087500e-09  3.52019199e-09  4.58555545e-01  4.58555545e-01  3.08302387e-09  4.58555545e-01  1.59025682e-07  1.34810096e-07  1.70000000e-01 
 1.80000000e-01  4.58555543e-01  3.22087500e-09  3.52019199e-09  4.58555543e-01  4.58555543e-01  3.08302387e-09  4.58555543e-01  1.59025670e-07  1.34810023e-07  1.80000000e-01 
 1.90000000e-01  4.58555547e-01  3.22087500e-09  3.52019199e-09  4.58555547e-01  4.58555547e-01  3.08302387e-09  4.58555547e-01  1.59025684e-07  1.34809662e-07  1.90000000e-01 
 2.00000000e-01  4.58555524e-01  3.22087494e-09  3.52019199e-09  4.58555524e-01  4.58555524e-01  3.08302387e-09  4.58555524e-01  1.59025643e-07  1.34809468e-07  2.00000000e-01 
 2.10000000e-01  4.58555516e-01  3.22087501e-09  3.52019199e-09  4.58555515e-01  4.58555516e-01  3.08302387e-09  4.58555516e-01  1.59025626e-07  1.34809147e-07  2.10000000e-01 
 2.20000000e-01  4.58555536e-01  3.22087500e-09  3.52019199e-09  4.58555535e-01  4.58555535e-01  3.08302387e-09  4.58555536e-01  1.59025648e-07  1.34809103e-07  2.20000000e-01 
 2.30000000e-01  4.58555518e-01  3.22087500e-09  3.52019199e-09  4.58555517e-01  4.58555517e-01  3.08302387e-09  4.58555517e-01  1.59025656e-07  1.34808833e-07  2.30000000e-01 
 2.40000000e-01  4.58555547e-01  3.22087500e-09  3.52019199e-09  4.58555547e-01  4.58555547e-01  3.08302381e-09  4.58555547e-01  1.59025687e-07  1.34808719e-07  2.40000000e-01 
 2.50000000e-01  4.58555541e-01  3.22087495e-09  3.52019199e-09  4.58555541e-01  4.58555541e-01  3.08302387e-09  4.58555541e-01  1.59025671e-07  1.34808580e-07  2.50000000e-01 
 2.60000000e-01  4.58555522e-01  3.22087496e-09  3.52019199e-09  4.58555522e-01  4.58555522e-01  3.08302381e-09  4.58555522e-01  1.59025636e-07  1.34808351e-07  2.60000000e-01 
 2.70000000e-01  4.58555543e-01  3.22087501e-09  3.52019199e-09  4.58555543e-01  4.58555543e-01  3.08302387e-09  4.58555543e-01  1.59025666e-07  1.34808312e-07  2.70000000e-01 
 2.80000000e-01  4.58555533e-01  3.22087500e-09  3.52019199e-09  4.58555533e-01  4.58555533e-01  3.08302387e-09  4.58555533e-01  1.59025666e-07  1.34808111e-07  2.80000000e-01 
 2.90000000e-01  4.58555554e-01  3.22087500e-09  3.52019199e-09  4.58555554e-01  4.58555554e-01  3.08302387e-09  4.58555554e-01  1.59025683e-07  1.34808023e-07  2.90000000e-01 
 3.00000000e-01  4.58555526e-01  3.22087494e-09  3.52019199e-09  4.58555526e-01  4.58555526e-01  3.08302387e-09  4.58555526e-01  1.59025652e-07  1.34807792e-07  3.00000000e-01 
 3.10000000e-01  4.58555526e-01  3.22087501e-09  3.52019199e-09  4.58555525e-01  4.58555526e-01  3.08302387e-09  4.58555526e-01  1.59025651e-07  1.34807632e-07  3.10000000e-01 
 3.20000000e-01  4.58555530e-01  3.22087500e-09  3.52019199e-09  4.58555530e-01  4.58555530e-01  3.08302387e-09  4.58555530e-01  1.59025652e-07  1.34807511e-07  3.20000000e-01 
 3.30000000e-01  4.58555543e-01  3.22087495e-09  3.52019199e-09  4.58555543e-01  4.58555543e-01  3.08302387e-09  4.58555543e-01  1.59025682e-07  1.34807461e-07  3.30000000e-01 
 3.40000000e-01  4.58555521e-01  3.22087501e-09  3.52019199e-09  4.58555521e-01  4.58555521e-01  3.08302387e-09  4.58555521e-01  1.59025651e-07  1.34807213e-07  3.40000000e-01 
 3.50000000e-01  4.58555514e-01  3.22087499e-09  3.52019199e-09  4.58555514e-01  4.58555514e-01  3.08302387e-09  4.58555514e-01  1.59025633e-07  1.34807099e-07  3.50000000e-01 
 3.60000000e-01  4.58555557e-01  3.22087501e-09  3.52019199e-09  4.58555557e-01  4.58555557e-01  3.08302387e-09  4.58555557e-01  1.59025699e-07  1.34807117e-07  3.60000000e-01 
 3.70000000e-01  4.58555542e-01  3.22087500e-09  3.52019199e-09  4.58555542e-01  4.58555542e-01  3.08302387e-09  4.58555542e-01  1.59025679e-07  1.34806889e-07  3.70000000e-01 
 3.80000000e-01  4.58555547e-01  3.22087500e-09  3.52019199e-09  4.58555547e-01  4.58555547e-01  3.08302387e-09  4.58555547e-01  1.59025680e-07  1.34806879e-07  3.80000000e-01 
 3.90000000e-01  4.58555520e-01  3.22087500e-09  3.52019199e-09  4.58555520e-01  4.58555520e-01  3.08302387e-09  4.58555520e-01  1.59025631e-07  1.34806655e-07  3.90000000e-01 
 4.00000000e-01  4.58555520e-01  3.22087500e-09  3.52019199e-09  4.58555520e-01  4.58555520e-01  3.08302387e-09  4.58555520e-01  1.59025635e-07  1.34806569e-07  4.00000000e-01 
 4.10000000e-01  4.58555525e-01  3.22087494e-09  3.52019199e-09  4.58555525e-01  4.58555525e-01  3.08302387e-09  4.58555525e-01  1.59025648e-07  1.34806502e-07  4.10000000e-01 
 4.20000000e-01  4.58555538e-01  3.22087502e-09  3.52019199e-09  4.58555538e-01  4.58555538e-01  3.08302387e-09  4.58555538e-01  1.59025671e-07  1.34806417e-07  4.20000000e-01 
 4.30000000e-01  4.58555544e-01  3.22087500e-09  3.52019199e-09  4.58555543e-01  4.58555543e-01  3.08302387e-09  4.58555543e-01  1.59025669e-07  1.34806331e-07  4.30000000e-01 
 4.40000000e-01  4.58555528e-01  3.22087494e-09  3.52019199e-09  4.58555528e-01  4.58555528e-01  3.08302387e-09  4.58555528e-01  1.59025660e-07  1.34806172e-07  4.40000000e-01 
 4.50000000e-01  4.58555544e-01  3.22087502e-09  3.52019199e-09  4.58555544e-01  4.58555544e-01  3.08302387e-09  4.58555544e-01  1.59025665e-07  1.34806104e-07  4.50000000e-01 
 4.60000000e-01  4.58555515e-01  3.22087499e-09  3.52019199e-09  4.58555515e-01  4.58555515e-01  3.08302387e-09  4.58555515e-01  1.59025633e-07  1.34805873e-07  4.60000000e-01 
 4.70000000e-01  4.58555528e-01  3.22087500e-09  3.52019199e-09  4.58555528e-01  4.58555528e-01  3.08302387e-09  4.58555528e-01  1.59025667e-07  1.34805894e-07  4.70000000e-01 
 4.80000000e-01  4.58555553e-01  3.22087500e-09  3.52019199e-09  4.58555553e-01  4.58555553e-01  3.08302387e-09  4.58555553e-01  1.59025686e-07  1.34805710e-07  4.80000000e-01 
 4.90000000e-01  4.58555522e-01  3.22087494e-09  3.52019205e-09  4.58555522e-01  4.58555522e-01  3.08302387e-09  4.58555522e-01  1.59025630e-07  1.34805550e-07  4.90000000e-01 
 5.00000000e-01  4.58555543e-01  3.22087496e-09  3.52019199e-09  4.58555543e-01  4.58555543e-01  3.08302387e-09  4.58555543e-01  1.59025672e-07  1.34805546e-07  5.00000000e-01 
 5.10000000e-01  4.58555531e-01  3.22087501e-09  3.52019205e-09  4.58555531e-01  4.58555531e-01  3.08302387e-09  4.58555531e-01  1.59025659e-07  1.34805379e-07  5.10000000e-01 
 5.20000000e-01  4.58555532e-01  3.22087494e-09  3.52019205e-09  4.58555532e-01  4.58555532e-01  3.08302387e-09  4.58555532e-01  1.59025652e-07  1.34805294e-07  5.20000000e-01 
 5.30000000e-01  4.58555534e-01  3.22087501e-09  3.52019199e-09  4.58555534e-01  4.58555534e-01  3.08302387e-09  4.58555534e-01  1.59025654e-07  1.34805273e-07  5.30000000e-01 
 5.40000000e-01  4.58555540e-01  3.22087500e-09  3.52019199e-09  4.58555540e-01  4.58555540e-01  3.08302387e-09  4.58555540e-01  1.59025666e-07  1.34805138e-07  5.40000000e-01 
 5.50000000e-01  4.58555530e-01  3.22087494e-09  3.52019199e-09  4.58555530e-01  4.58555530e-01  3.08302387e-09  4.58555530e-01  1.59025651e-07  1.34805042e-07  5.50000000e-01 
 5.60000000e-01  4.58555541e-01  3.22087502e-09  3.52019199e-09  4.58555541e-01  4.58555541e-01  3.08302387e-09  4.58555541e-01  1.59025668e-07  1.34805013e-07  5.60000000e-01 
 5.70000000e-01  4.58555519e-01  3.22087499e-09  3.52019199e-09  4.58555519e-01  4.58555519e-01  3.08302387e-09  4.58555519e-01  1.59025643e-07  1.34804900e-07  5.70000000e-01 
 5.80000000e-01  4.58555548e-01  3.22087500e-09  3.52019199e-09  4.58555548e-01  4.58555548e-01  3.08302387e-09  4.58555548e-01  1.59025673e-07  1.34804800e-07  5.80000000e-01 
 5.90000000e-01  4.58555561e-01  3.22087501e-09  3.52019199e-09  4.58555560e-01  4.58555560e-01  3.08302387e-09  4.58555561e-01  1.59025696e-07  1.34804615e-07  5.90000000e-01 
 6.00000000e-01  4.58555548e-01  3.22087500e-09  3.52019199e-09  4.58555548e-01  4.58555548e-01  3.08302387e-09  4.58555548e-01  1.59025671e-07  1.34804630e-07  6.00000000e-01 
 6.10000000e-01  4.58555520e-01  3.22087500e-09  3.52019199e-09  4.58555520e-01  4.58555520e-01  3.08302387e-09  4.58555520e-01  1.59025628e-07  1.34804395e-07  6.10000000e-01 
 6.20000000e-01  4.58555545e-01  3.22087500e-09  3.52019199e-09  4.58555545e-01  4.58555545e-01  3.08302387e-09  4.58555545e-01  1.59025684e-07  1.34804388e-07  6.20000000e-01 
 6.30000000e-01  4.58555510e-01  3.22087500e-09  3.52019199e-09  4.58555509e-01  4.58555509e-01  3.08302387e-09  4.58555510e-01  1.59025623e-07  1.34804239e-07  6.30000000e-01 
 6.40000000e-01  4.58555546e-01  3.22087500e-09  3.52019199e-09  4.58555546e-01  4.58555546e-01  3.08302387e-09  4.58555546e-01  1.59025697e-07  1.34804267e-07  6.40000000e-01 
 6.50000000e-01  4.58555497e-01  3.22087500e-09  3.52019199e-09  4.58555497e-01  4.58555497e-01  3.08302387e-09  4.58555497e-01  1.59025623e-07  1.34803948e-07  6.50000000e-01 
 6.60000000e-01  4.58555514e-01  3.22087500e-09  3.52019199e-09  4.58555514e-01  4.58555514e-01  3.08302387e-09  4.58555514e-01  1.59025644e-07  1.34803905e-07  6.60000000e-01 
 6.70000000e-01  4.58555526e-01  3.22087500e-09  3.52019199e-09  4.58555526e-01  4.58555526e-01  3.08302387e-09  4.58555526e-01  1.59025648e-07  1.34803948e-07  6.70000000e-01 
 6.80000000e-01  4.58555534e-01  3.22087500e-09  3.52019199e-09  4.58555533e-01  4.58555534e-01  3.08302387e-09  4.58555534e-01  1.59025661e-07  1.34803742e-07  6.80000000e-01 
 6.90000000e-01  4.58555540e-01  3.22087500e-09  3.52019199e-09  4.58555540e-01  4.58555540e-01  3.08302387e-09  4.58555540e-01  1.59025680e-07  1.34803777e-07  6.90000000e-01 
 7.00000000e-01  4.58555523e-01  3.22087500e-09  3.52019199e-09  4.58555522e-01  4.58555522e-01  3.08302387e-09  4.58555523e-01  1.59025641e-07  1.34803436e-07  7.00000000e-01 
 7.10000000e-01  4.58555551e-01  3.22087500e-09  3.52019199e-09  4.58555551e-01  4.58555551e-01  3.08302387e-09  4.58555551e-01  1.59025678e-07  1.34803535e-07  7.10000000e-01 
 7.20000000e-01  4.58555554e-01  3.22087500e-09  3.52019199e-09  4.58555554e-01  4.58555554e-01  3.08302387e-09  4.58555554e-01  1.59025682e-07  1.34803372e-07  7.20000000e-01 
 7.30000000e-01  4.58555526e-01  3.22087500e-09  3.52019199e-09  4.58555526e-01  4.58555526e-01  3.08302387e-09  4.58555526e-01  1.59025655e-07  1.34803351e-07  7.30000000e-01 
 7.40000000e-01  4.58555533e-01  3.22087500e-09  3.52019199e-09  4.58555533e-01  4.58555533e-01  3.08302387e-09  4.58555533e-01  1.59025667e-07  1.34803145e-07  7.40000000e-01 
 7.50000000e-01  4.58555542e-01  3.22087495e-09  3.52019199e-09  4.58555542e-01  4.58555542e-01  3.08302387e-09  4.58555542e-01  1.59025676e-07  1.34803116e-07  7.50000000e-01 
 7.60000000e-01  4.58555515e-01  3.22087501e-09  3.52019205e-09  4.58555515e-01  4.58555515e-01  3.08302387e-09  4.58555515e-01  1.59025633e-07  1.34802981e-07  7.60000000e-01 
 7.70000000e-01  4.58555543e-01  3.22087500e-09  3.52019205e-09  4.58555543e-01  4.58555543e-01  3.08302387e-09  4.58555543e-01  1.59025683e-07  1.34802974e-07  7.70000000e-01 
 7.80000000e-01  4.58555543e-01  3.22087500e-09  3.52019199e-09  4.58555543e-01  4.58555543e-01  3.08302387e-09  4.58555543e-01  1.59025675e-07  1.34802853e-07  7.80000000e-01 
 7.90000000e-01  4.58555538e-01  3.22087500e-09  3.52019199e-09  4.58555537e-01  4.58555538e-01  3.08302387e-09  4.58555538e-01  1.59025677e-07  1.34802768e-07  7.90000000e-01 
 8.00000000e-01  4.58555502e-01  3.22087494e-09  3.52019199e-09  4.58555502e-01  4.58555502e-01  3.08302387e-09  4.58555502e-01  1.59025612e-07  1.34802420e-07  8.00000000e-01 
 8.10000000e-01  4.58555525e-01  3.22087496e-09  3.52019199e-09  4.58555525e-01  4.58555525e-01  3.08302387e-09  4.58555525e-01  1.59025648e-07  1.34802541e-07  8.10000000e-01 
 8.20000000e-01  4.58555539e-01  3.22087495e-09  3.52019199e-09  4.58555539e-01  4.58555539e-01  3.08302387e-09  4.58555539e-01  1.59025659e-07  1.34802384e-07  8.20000000e-01 
 8.30000000e-01  4.58555535e-01  3.22087501e-09  3.52019199e-09  4.58555535e-01  4.58555535e-01  3.08302387e-09  4.58555535e-01  1.59025664e-07  1.34802306e-07  8.30000000e-01 
 8.40000000e-01  4.58555549e-01  3.22087500e-09  3.52019205e-09  4.58555549e-01  4.58555549e-01  3.08302387e-09  4.58555549e-01  1.59025686e-07  1.34802271e-07  8.40000000e-01 
 8.50000000e-01  4.58555505e-01  3.22087500e-09  3.52019199e-09  4.58555505e-01  4.58555505e-01  3.08302387e-09  4.58555505e-01  1.59025612e-07  1.34802100e-07  8.50000000e-01 
 8.60000000e-01  4.58555523e-01  3.22087500e-09  3.52019199e-09  4.58555523e-01  4.58555523e-01  3.08302387e-09  4.58555523e-01  1.59025644e-07  1.34802050e-07  8.60000000e-01 
 8.70000000e-01  4.58555507e-01  3.22087500e-09  3.52019199e-09  4.58555507e-01  4.58555507e-01  3.08302387e-09  4.58555507e-01  1.59025625e-07  1.34801830e-07  8.70000000e-01 
 8.80000000e-01  4.58555539e-01  3.22087495e-09  3.52019199e-09  4.58555539e-01  4.58555539e-01  3.08302387e-09  4.58555539e-01  1.59025675e-07  1.34801844e-07  8.80000000e-01 
 8.90000000e-01  4.58555524e-01  3.22087496e-09  3.52019199e-09  4.58555524e-01  4.58555524e-01  3.08302387e-09  4.58555524e-01  1.59025649e-07  1.34801837e-07  8.90000000e-01 
 9.00000000e-01  4.58555537e-01  3.22087495e-09  3.52019199e-09  4.58555537e-01  4.58555537e-01  3.08302387e-09  4.58555537e-01  1.59025665e-07  1.34801525e-07  9.00000000e-01 
 9.10000000e-01  4.58555546e-01  3.22087501e-09  3.52019199e-09  4.58555546e-01  4.58555546e-01  3.08302387e-09  4.58555546e-01  1.59025672e-07  1.34801610e-07  9.10000000e-01 
 9.20000000e-01  4.58555522e-01  3.22087494e-09  3.52019199e-09  4.58555522e-01  4.58555522e-01  3.08302387e-09  4.58555522e-01  1.59025632e-07  1.34801411e-07  9.20000000e-01 
 9.30000000e-01  4.58555541e-01  3.22087496e-09  3.52019199e-09  4.58555541e-01  4.58555541e-01  3.08302387e-09  4.58555541e-01  1.59025676e-07  1.34801304e-07  9.30000000e-01 
 9.40000000e-01  4.58555561e-01  3.22087501e-09  3.52019199e-09  4.58555560e-01  4.58555560e-01  3.08302387e-09  4.58555561e-01  1.59025704e-07  1.34801255e-07  9.40000000e-01 
 9.50000000e-01  4.58555548e-01  3.22087500e-09  3.52019199e-09  4.58555548e-01  4.58555548e-01  3.08302387e-09  4.58555548e-01  1.59025682e-07  1.34801084e-07  9.50000000e-01 
 9.60000000e-01  4.58555541e-01  3.22087500e-09  3.52019199e-09  4.58555541e-01  4.58555541e-01  3.08302387e-09  4.58555541e-01  1.59025666e-07  1.34801056e-07  9.60000000e-01 
 9.70000000e-01  4.58555547e-01  3.22087500e-09  3.52019199e-09  4.58555547e-01  4.58555547e-01  3.08302387e-09  4.58555547e-01  1.59025682e-07  1.34800985e-07  9.70000000e-01 
 9.80000000e-01  4.58555524e-01  3.22087500e-09  3.52019199e-09  4.58555523e-01  4.58555524e-01  3.08302387e-09  4.58555524e-01  1.59025651e-07  1.34800693e-07  9.80000000e-01 
 9.90000000e-01  4.58555525e-01  3.22087500e-09  3.52019199e-09  4.58555525e-01  4.58555525e-01  3.08302387e-09  4.58555525e-01  1.59025654e-07  1.34800572e-07  9.90000000e-01 
 1.00000000e+00  4.58555522e-01  3.22087500e-09  3.52019199e-09  4.58555521e-01  4.58555521e-01  3.08302387e-09  4.58555522e-01  1.59025643e-07  1.34800509e-07  1.00000000e+00 
 1.01000000e+00  4.58555555e-01  3.22087500e-09  3.52019199e-09  4.58555555e-01  4.58555555e-01  3.08302387e-09  4.58555555e-01  1.59025677e-07  1.34800501e-07  1.01000000e+00 
 1.02000000e+00  4.58555535e-01  3.22087500e-09  3.52019199e-09  4.58555535e-01  4.58555535e-01  3.08302387e-09  4.58555535e-01  1.59025657e-07  1.34800217e-07  1.02000000e+00 
 1.03000000e+00  4.58555542e-01  3.22087500e-09  3.52019199e-09  4.58555542e-01  4.58555542e-01  3.08302387e-09  4.58555542e-01  1.59025673e-07  1.34800288e-07  1.03000000e+00 
 1.04000000e+00  4.58555544e-01  3.22087500e-09  3.52019199e-09  4.58555544e-01  4.58555544e-01  3.08302387e-09  4.58555544e-01  1.59025667e-07  1.34800025e-07  1.04000000e+00 
 1.05000000e+00  4.58555545e-01  3.22087500e-09  3.52019199e-09  4.58555544e-01  4.58555545e-01  3.08302387e-09  4.58555545e-01  1.59025673e-07  1.34799976e-07  1.05000000e+00 
 1.06000000e+00  4.58555517e-01  3.22087500e-09  3.52019199e-09  4.58555517e-01  4.58555517e-01  3.08302387e-09  4.58555517e-01  1.59025629e-07  1.34799777e-07  1.06000000e+00 
 1.07000000e+00  4.58555546e-01  3.22087500e-09  3.52019199e-09  4.58555546e-01  4.58555546e-01  3.08302387e-09  4.58555546e-01  1.59025665e-07  1.34799748e-07  1.07000000e+00 
 1.08000000e+00  4.58555533e-01  3.22087500e-09  3.52019199e-09  4.58555533e-01  4.58555533e-01  3.08302387e-09  4.58555533e-01  1.59025660e-07  1.34799542e-07  1.08000000e+00 
 1.09000000e+00  4.58555554e-01  3.22087500e-09  3.52019199e-09  4.58555554e-01  4.58555554e-01  3.08302387e-09  4.58555554e-01  1.59025699e-07  1.34799464e-07  1.09000000e+00 
 1.10000000e+00  4.58555548e-01  3.22087495e-09  3.52019199e-09  4.58555548e-01  4.58555548e-01  3.08302387e-09  4.58555548e-01  1.59025676e-07  1.34799400e-07  1.10000000e+00 
