 v-sweep         v(b0)           v(b1)           v(b2)           v(b3)           v(b4)           v(b5)           v(b6)           i(vbias)        i(viout)        v(vout)        
 0.00000000e+00  4.56258994e-01  3.26496432e-09  4.56258994e-01  4.56258994e-01  4.56258994e-01  4.56258994e-01  3.28274079e-09  1.55691871e-07  9.51213020e-08  0.00000000e+00 
 1.00000000e-02  4.56258996e-01  3.26496429e-09  4.56258996e-01  4.56258996e-01  4.56258996e-01  4.56258996e-01  3.28274082e-09  1.55691883e-07  9.51209499e-08  1.00000000e-02 
 2.00000000e-02  4.56259014e-01  3.26496429e-09  4.56259014e-01  4.56259014e-01  4.56259014e-01  4.56259014e-01  3.28274081e-09  1.55691894e-07  9.51205479e-08  2.00000000e-02 
 3.00000000e-02  4.56258989e-01  3.26496429e-09  4.56258989e-01  4.56258989e-01  4.56258989e-01  4.56258989e-01  3.28274081e-09  1.55691855e-07  9.51200647e-08  3.00000000e-02 
 4.00000000e-02  4.56259018e-01  3.26496429e-09  4.56259018e-01  4.56259018e-01  4.56259018e-01  4.56259018e-01  3.28274081e-09  1.55691900e-07  9.51198769e-08  4.00000000e-02 
 5.00000000e-02  4.56258992e-01  3.26496429e-09  4.56258992e-01  4.56258993e-01  4.56258993e-01  4.56258993e-01  3.28274081e-09  1.55691862e-07  9.51194012e-08  5.00000000e-02 
 6.00000000e-02  4.56259024e-01  3.26496429e-09  4.56259024e-01  4.56259024e-01  4.56259024e-01  4.56259024e-01  3.28274082e-09  1.55691911e-07  9.51192014e-08  6.00000000e-02 
 7.00000000e-02  4.56259009e-01  3.26496429e-09  4.56259009e-01  4.56259009e-01  4.56259009e-01  4.56259009e-01  3.28274081e-09  1.55691885e-07  9.51188412e-08  7.00000000e-02 
 8.00000000e-02  4.56259006e-01  3.26496429e-09  4.56259006e-01  4.56259006e-01  4.56259006e-01  4.56259006e-01  3.28274081e-09  1.55691883e-07  9.51185104e-08  8.00000000e-02 
 9.00000000e-02  4.56258979e-01  3.26496429e-09  4.56258979e-01  4.56258979e-01  4.56258979e-01  4.56258979e-01  3.28274081e-09  1.55691859e-07  9.51181116e-08  9.00000000e-02 
 1.00000000e-01  4.56259002e-01  3.26496429e-09  4.56259002e-01  4.56259002e-01  4.56259002e-01  4.56259002e-01  3.28274081e-09  1.55691881e-07  9.51179393e-08  1.00000000e-01 
 1.10000000e-01  4.56259010e-01  3.26496429e-09  4.56259010e-01  4.56259010e-01  4.56259010e-01  4.56259010e-01  3.28274081e-09  1.55691877e-07  9.51176746e-08  1.10000000e-01 
 1.20000000e-01  4.56258993e-01  3.26496429e-09  4.56258993e-01  4.56258993e-01  4.56258993e-01  4.56258993e-01  3.28274081e-09  1.55691869e-07  9.51174624e-08  1.20000000e-01 
 1.30000000e-01  4.56259002e-01  3.26496429e-09  4.56259002e-01  4.56259002e-01  4.56259002e-01  4.56259002e-01  3.28274081e-09  1.55691901e-07  9.51171364e-08  1.30000000e-01 
 1.40000000e-01  4.56258987e-01  3.26496429e-09  4.56258987e-01  4.56258987e-01  4.56258987e-01  4.56258987e-01  3.28274081e-09  1.55691864e-07  9.51169490e-08  1.40000000e-01 
 1.50000000e-01  4.56259002e-01  3.26496429e-09  4.56259002e-01  4.56259002e-01  4.56259002e-01  4.56259002e-01  3.28274081e-09  1.55691866e-07  9.51167056e-08  1.50000000e-01 
 1.60000000e-01  4.56259026e-01  3.26496429e-09  4.56259026e-01  4.56259026e-01  4.56259026e-01  4.56259026e-01  3.28274087e-09  1.55691910e-07  9.51166044e-08  1.60000000e-01 
 1.70000000e-01  4.56258994e-01  3.26496429e-09  4.56258994e-01  4.56258994e-01  4.56258994e-01  4.56258994e-01  3.28274081e-09  1.55691877e-07  9.51162384e-08  1.70000000e-01 
 1.80000000e-01  4.56258992e-01  3.26496429e-09  4.56258992e-01  4.56258992e-01  4.56258992e-01  4.56258992e-01  3.28274081e-09  1.55691858e-07  9.51160324e-08  1.80000000e-01 
 1.90000000e-01  4.56259003e-01  3.26496423e-09  4.56259003e-01  4.56259004e-01  4.56259003e-01  4.56259004e-01  3.28274081e-09  1.55691899e-07  9.51160484e-08  1.90000000e-01 
 2.00000000e-01  4.56259004e-01  3.26496429e-09  4.56259004e-01  4.56259004e-01  4.56259004e-01  4.56259004e-01  3.28274087e-09  1.55691879e-07  9.51158015e-08  2.00000000e-01 
 2.10000000e-01  4.56258993e-01  3.26496429e-09  4.56258993e-01  4.56258993e-01  4.56258993e-01  4.56258993e-01  3.28274081e-09  1.55691868e-07  9.51155865e-08  2.10000000e-01 
 2.20000000e-01  4.56259023e-01  3.26496429e-09  4.56259023e-01  4.56259024e-01  4.56259023e-01  4.56259023e-01  3.28274081e-09  1.55691910e-07  9.51155030e-08  2.20000000e-01 
 2.30000000e-01  4.56258984e-01  3.26496429e-09  4.56258984e-01  4.56258984e-01  4.56258984e-01  4.56258984e-01  3.28274081e-09  1.55691851e-07  9.51152703e-08  2.30000000e-01 
 2.40000000e-01  4.56259003e-01  3.26496429e-09  4.56259003e-01  4.56259003e-01  4.56259003e-01  4.56259003e-01  3.28274081e-09  1.55691882e-07  9.51152721e-08  2.40000000e-01 
 2.50000000e-01  4.56258985e-01  3.26496429e-09  4.56258985e-01  4.56258985e-01  4.56258985e-01  4.56258985e-01  3.28274081e-09  1.55691853e-07  9.51149843e-08  2.50000000e-01 
 2.60000000e-01  4.56259019e-01  3.26496429e-09  4.56259019e-01  4.56259019e-01  4.56259019e-01  4.56259019e-01  3.28274081e-09  1.55691892e-07  9.51150323e-08  2.60000000e-01 
 2.70000000e-01  4.56258985e-01  3.26496429e-09  4.56258985e-01  4.56258985e-01  4.56258985e-01  4.56258985e-01  3.28274081e-09  1.55691842e-07  9.51147907e-08  2.70000000e-01 
 2.80000000e-01  4.56258989e-01  3.26496429e-09  4.56258989e-01  4.56258989e-01  4.56258989e-01  4.56258989e-01  3.28274081e-09  1.55691864e-07  9.51146522e-08  2.80000000e-01 
 2.90000000e-01  4.56258987e-01  3.26496429e-09  4.56258987e-01  4.56258987e-01  4.56258987e-01  4.56258987e-01  3.28274087e-09  1.55691857e-07  9.51144763e-08  2.90000000e-01 
 3.00000000e-01  4.56259016e-01  3.26496429e-09  4.56259016e-01  4.56259016e-01  4.56259016e-01  4.56259016e-01  3.28274087e-09  1.55691908e-07  9.51144763e-08  3.00000000e-01 
 3.10000000e-01  4.56259002e-01  3.26496429e-09  4.56259002e-01  4.56259002e-01  4.56259002e-01  4.56259002e-01  3.28274081e-09  1.55691867e-07  9.51142987e-08  3.10000000e-01 
 3.20000000e-01  4.56259008e-01  3.26496429e-09  4.56259008e-01  4.56259008e-01  4.56259008e-01  4.56259008e-01  3.28274081e-09  1.55691893e-07  9.51142916e-08  3.20000000e-01 
 3.30000000e-01  4.56258989e-01  3.26496429e-09  4.56258989e-01  4.56258990e-01  4.56258989e-01  4.56258990e-01  3.28274081e-09  1.55691862e-07  9.51140180e-08  3.30000000e-01 
 3.40000000e-01  4.56258996e-01  3.26496429e-09  4.56258996e-01  4.56258996e-01  4.56258996e-01  4.56258996e-01  3.28274081e-09  1.55691857e-07  9.51140002e-08  3.40000000e-01 
 3.50000000e-01  4.56258988e-01  3.26496429e-09  4.56258988e-01  4.56258988e-01  4.56258988e-01  4.56258988e-01  3.28274087e-09  1.55691852e-07  9.51138048e-08  3.50000000e-01 
 3.60000000e-01  4.56259003e-01  3.26496429e-09  4.56259003e-01  4.56259003e-01  4.56259003e-01  4.56259003e-01  3.28274087e-09  1.55691882e-07  9.51137551e-08  3.60000000e-01 
 3.70000000e-01  4.56258997e-01  3.26496429e-09  4.56258997e-01  4.56258997e-01  4.56258997e-01  4.56258997e-01  3.28274081e-09  1.55691878e-07  9.51136840e-08  3.70000000e-01 
 3.80000000e-01  4.56259001e-01  3.26496429e-09  4.56259001e-01  4.56259001e-01  4.56259001e-01  4.56259001e-01  3.28274081e-09  1.55691897e-07  9.51136592e-08  3.80000000e-01 
 3.90000000e-01  4.56258998e-01  3.26496429e-09  4.56258998e-01  4.56258998e-01  4.56258998e-01  4.56258998e-01  3.28274081e-09  1.55691875e-07  9.51135455e-08  3.90000000e-01 
 4.00000000e-01  4.56259030e-01  3.26496429e-09  4.56259030e-01  4.56259030e-01  4.56259030e-01  4.56259030e-01  3.28274082e-09  1.55691915e-07  9.51135242e-08  4.00000000e-01 
 4.10000000e-01  4.56259001e-01  3.26496429e-09  4.56259001e-01  4.56259001e-01  4.56259001e-01  4.56259001e-01  3.28274081e-09  1.55691882e-07  9.51132577e-08  4.10000000e-01 
 4.20000000e-01  4.56258986e-01  3.26496423e-09  4.56258986e-01  4.56258986e-01  4.56258986e-01  4.56258986e-01  3.28274081e-09  1.55691850e-07  9.51131689e-08  4.20000000e-01 
 4.30000000e-01  4.56259008e-01  3.26496429e-09  4.56259008e-01  4.56259008e-01  4.56259008e-01  4.56259008e-01  3.28274081e-09  1.55691883e-07  9.51133003e-08  4.30000000e-01 
 4.40000000e-01  4.56258981e-01  3.26496429e-09  4.56258981e-01  4.56258981e-01  4.56258981e-01  4.56258981e-01  3.28274081e-09  1.55691857e-07  9.51129806e-08  4.40000000e-01 
 4.50000000e-01  4.56258991e-01  3.26496423e-09  4.56258991e-01  4.56258991e-01  4.56258991e-01  4.56258991e-01  3.28274081e-09  1.55691864e-07  9.51130410e-08  4.50000000e-01 
 4.60000000e-01  4.56259014e-01  3.26496423e-09  4.56259014e-01  4.56259014e-01  4.56259014e-01  4.56259014e-01  3.28274081e-09  1.55691896e-07  9.51130517e-08  4.60000000e-01 
 4.70000000e-01  4.56259016e-01  3.26496429e-09  4.56259016e-01  4.56259016e-01  4.56259016e-01  4.56259016e-01  3.28274081e-09  1.55691892e-07  9.51127674e-08  4.70000000e-01 
 4.80000000e-01  4.56258980e-01  3.26496429e-09  4.56258980e-01  4.56258980e-01  4.56258980e-01  4.56258980e-01  3.28274081e-09  1.55691855e-07  9.51126893e-08  4.80000000e-01 
 4.90000000e-01  4.56259010e-01  3.26496429e-09  4.56259010e-01  4.56259010e-01  4.56259010e-01  4.56259010e-01  3.28274087e-09  1.55691891e-07  9.51127213e-08  4.90000000e-01 
 5.00000000e-01  4.56259007e-01  3.26496429e-09  4.56259007e-01  4.56259007e-01  4.56259007e-01  4.56259007e-01  3.28274081e-09  1.55691878e-07  9.51126076e-08  5.00000000e-01 
 5.10000000e-01  4.56259014e-01  3.26496429e-09  4.56259014e-01  4.56259014e-01  4.56259014e-01  4.56259014e-01  3.28274081e-09  1.55691894e-07  9.51125045e-08  5.10000000e-01 
 5.20000000e-01  4.56259004e-01  3.26496429e-09  4.56259004e-01  4.56259004e-01  4.56259004e-01  4.56259004e-01  3.28274081e-09  1.55691876e-07  9.51125472e-08  5.20000000e-01 
 5.30000000e-01  4.56258990e-01  3.26496429e-09  4.56258990e-01  4.56258990e-01  4.56258990e-01  4.56258990e-01  3.28274081e-09  1.55691862e-07  9.51124264e-08  5.30000000e-01 
 5.40000000e-01  4.56259008e-01  3.26496429e-09  4.56259008e-01  4.56259008e-01  4.56259008e-01  4.56259008e-01  3.28274081e-09  1.55691889e-07  9.51123127e-08  5.40000000e-01 
 5.50000000e-01  4.56258969e-01  3.26496429e-09  4.56258969e-01  4.56258969e-01  4.56258969e-01  4.56258969e-01  3.28274081e-09  1.55691829e-07  9.51121706e-08  5.50000000e-01 
 5.60000000e-01  4.56258981e-01  3.26496429e-09  4.56258981e-01  4.56258981e-01  4.56258981e-01  4.56258981e-01  3.28274081e-09  1.55691860e-07  9.51120995e-08  5.60000000e-01 
 5.70000000e-01  4.56259003e-01  3.26496429e-09  4.56259003e-01  4.56259003e-01  4.56259003e-01  4.56259003e-01  3.28274081e-09  1.55691873e-07  9.51121883e-08  5.70000000e-01 
 5.80000000e-01  4.56258991e-01  3.26496429e-09  4.56258991e-01  4.56258991e-01  4.56258991e-01  4.56258991e-01  3.28274081e-09  1.55691857e-07  9.51119858e-08  5.80000000e-01 
 5.90000000e-01  4.56259016e-01  3.26496429e-09  4.56259016e-01  4.56259016e-01  4.56259016e-01  4.56259016e-01  3.28274081e-09  1.55691912e-07  9.51120143e-08  5.90000000e-01 
 6.00000000e-01  4.56258996e-01  3.26496429e-09  4.56258996e-01  4.56258996e-01  4.56258996e-01  4.56258996e-01  3.28274081e-09  1.55691870e-07  9.51118935e-08  6.00000000e-01 
 6.10000000e-01  4.56259005e-01  3.26496429e-09  4.56259005e-01  4.56259005e-01  4.56259005e-01  4.56259005e-01  3.28274087e-09  1.55691880e-07  9.51117940e-08  6.10000000e-01 
 6.20000000e-01  4.56258986e-01  3.26496429e-09  4.56258986e-01  4.56258986e-01  4.56258986e-01  4.56258986e-01  3.28274081e-09  1.55691868e-07  9.51117656e-08  6.20000000e-01 
 6.30000000e-01  4.56258998e-01  3.26496429e-09  4.56258998e-01  4.56258998e-01  4.56258998e-01  4.56258998e-01  3.28274081e-09  1.55691865e-07  9.51116235e-08  6.30000000e-01 
 6.40000000e-01  4.56259000e-01  3.26496429e-09  4.56259000e-01  4.56259000e-01  4.56259000e-01  4.56259000e-01  3.28274087e-09  1.55691855e-07  9.51116093e-08  6.40000000e-01 
 6.50000000e-01  4.56259011e-01  3.26496429e-09  4.56259011e-01  4.56259011e-01  4.56259011e-01  4.56259011e-01  3.28274081e-09  1.55691893e-07  9.51116519e-08  6.50000000e-01 
 6.60000000e-01  4.56258997e-01  3.26496429e-09  4.56258997e-01  4.56258997e-01  4.56258997e-01  4.56258997e-01  3.28274081e-09  1.55691874e-07  9.51114245e-08  6.60000000e-01 
 6.70000000e-01  4.56259022e-01  3.26496429e-09  4.56259022e-01  4.56259022e-01  4.56259022e-01  4.56259022e-01  3.28274081e-09  1.55691919e-07  9.51114245e-08  6.70000000e-01 
 6.80000000e-01  4.56258990e-01  3.26496429e-09  4.56258990e-01  4.56258990e-01  4.56258990e-01  4.56258990e-01  3.28274081e-09  1.55691867e-07  9.51112611e-08  6.80000000e-01 
 6.90000000e-01  4.56259007e-01  3.26496429e-09  4.56259007e-01  4.56259007e-01  4.56259007e-01  4.56259007e-01  3.28274081e-09  1.55691900e-07  9.51112966e-08  6.90000000e-01 
 7.00000000e-01  4.56258990e-01  3.26496429e-09  4.56258990e-01  4.56258990e-01  4.56258990e-01  4.56258990e-01  3.28274081e-09  1.55691862e-07  9.51111332e-08  7.00000000e-01 
 7.10000000e-01  4.56259014e-01  3.26496429e-09  4.56259014e-01  4.56259014e-01  4.56259014e-01  4.56259014e-01  3.28274081e-09  1.55691886e-07  9.51111758e-08  7.10000000e-01 
 7.20000000e-01  4.56259007e-01  3.26496429e-09  4.56259007e-01  4.56259007e-01  4.56259007e-01  4.56259007e-01  3.28274081e-09  1.55691868e-07  9.51109698e-08  7.20000000e-01 
 7.30000000e-01  4.56258996e-01  3.26496429e-09  4.56258996e-01  4.56258996e-01  4.56258996e-01  4.56258996e-01  3.28274087e-09  1.55691877e-07  9.51109485e-08  7.30000000e-01 
 7.40000000e-01  4.56258971e-01  3.26496429e-09  4.56258971e-01  4.56258971e-01  4.56258971e-01  4.56258971e-01  3.28274081e-09  1.55691840e-07  9.51107850e-08  7.40000000e-01 
 7.50000000e-01  4.56258994e-01  3.26496429e-09  4.56258994e-01  4.56258994e-01  4.56258994e-01  4.56258994e-01  3.28274081e-09  1.55691864e-07  9.51108348e-08  7.50000000e-01 
 7.60000000e-01  4.56259006e-01  3.26496429e-09  4.56259006e-01  4.56259006e-01  4.56259006e-01  4.56259006e-01  3.28274081e-09  1.55691882e-07  9.51107495e-08  7.60000000e-01 
 7.70000000e-01  4.56258987e-01  3.26496429e-09  4.56258987e-01  4.56258987e-01  4.56258987e-01  4.56258987e-01  3.28274081e-09  1.55691861e-07  9.51106713e-08  7.70000000e-01 
 7.80000000e-01  4.56259003e-01  3.26496429e-09  4.56259003e-01  4.56259003e-01  4.56259003e-01  4.56259003e-01  3.28274081e-09  1.55691871e-07  9.51105790e-08  7.80000000e-01 
 7.90000000e-01  4.56258998e-01  3.26496429e-09  4.56258998e-01  4.56258998e-01  4.56258998e-01  4.56258998e-01  3.28274081e-09  1.55691884e-07  9.51104724e-08  7.90000000e-01 
 8.00000000e-01  4.56258977e-01  3.26496429e-09  4.56258977e-01  4.56258977e-01  4.56258977e-01  4.56258977e-01  3.28274081e-09  1.55691836e-07  9.51103090e-08  8.00000000e-01 
 8.10000000e-01  4.56258981e-01  3.26496429e-09  4.56258982e-01  4.56258982e-01  4.56258982e-01  4.56258982e-01  3.28274081e-09  1.55691846e-07  9.51103303e-08  8.10000000e-01 
 8.20000000e-01  4.56259012e-01  3.26496429e-09  4.56259012e-01  4.56259012e-01  4.56259012e-01  4.56259012e-01  3.28274087e-09  1.55691899e-07  9.51102948e-08  8.20000000e-01 
 8.30000000e-01  4.56258988e-01  3.26496429e-09  4.56258988e-01  4.56258988e-01  4.56258988e-01  4.56258988e-01  3.28274081e-09  1.55691849e-07  9.51101882e-08  8.30000000e-01 
 8.40000000e-01  4.56258991e-01  3.26496429e-09  4.56258991e-01  4.56258991e-01  4.56258991e-01  4.56258991e-01  3.28274087e-09  1.55691862e-07  9.51101669e-08  8.40000000e-01 
 8.50000000e-01  4.56258996e-01  3.26496429e-09  4.56258996e-01  4.56258996e-01  4.56258996e-01  4.56258996e-01  3.28274081e-09  1.55691879e-07  9.51100674e-08  8.50000000e-01 
 8.60000000e-01  4.56259003e-01  3.26496429e-09  4.56259003e-01  4.56259003e-01  4.56259003e-01  4.56259003e-01  3.28274081e-09  1.55691866e-07  9.51100745e-08  8.60000000e-01 
 8.70000000e-01  4.56259011e-01  3.26496429e-09  4.56259011e-01  4.56259011e-01  4.56259011e-01  4.56259011e-01  3.28274081e-09  1.55691898e-07  9.51099253e-08  8.70000000e-01 
 8.80000000e-01  4.56258998e-01  3.26496429e-09  4.56258998e-01  4.56258998e-01  4.56258998e-01  4.56258998e-01  3.28274081e-09  1.55691864e-07  9.51097689e-08  8.80000000e-01 
 8.90000000e-01  4.56258976e-01  3.26496429e-09  4.56258976e-01  4.56258976e-01  4.56258976e-01  4.56258976e-01  3.28274081e-09  1.55691857e-07  9.51097121e-08  8.90000000e-01 
 9.00000000e-01  4.56258987e-01  3.26496429e-09  4.56258987e-01  4.56258987e-01  4.56258987e-01  4.56258987e-01  3.28274081e-09  1.55691853e-07  9.51096055e-08  9.00000000e-01 
 9.10000000e-01  4.56258967e-01  3.26496429e-09  4.56258967e-01  4.56258967e-01  4.56258967e-01  4.56258967e-01  3.28274081e-09  1.55691833e-07  9.51095487e-08  9.10000000e-01 
 9.20000000e-01  4.56258993e-01  3.26496429e-09  4.56258993e-01  4.56258993e-01  4.56258993e-01  4.56258993e-01  3.28274081e-09  1.55691874e-07  9.51095842e-08  9.20000000e-01 
 9.30000000e-01  4.56259007e-01  3.26496429e-09  4.56259007e-01  4.56259007e-01  4.56259007e-01  4.56259007e-01  3.28274081e-09  1.55691894e-07  9.51095700e-08  9.30000000e-01 
 9.40000000e-01  4.56259005e-01  3.26496429e-09  4.56259005e-01  4.56259005e-01  4.56259005e-01  4.56259005e-01  3.28274081e-09  1.55691885e-07  9.51093995e-08  9.40000000e-01 
 9.50000000e-01  4.56259005e-01  3.26496429e-09  4.56259005e-01  4.56259005e-01  4.56259005e-01  4.56259005e-01  3.28274081e-09  1.55691901e-07  9.51094066e-08  9.50000000e-01 
 9.60000000e-01  4.56258996e-01  3.26496429e-09  4.56258996e-01  4.56258996e-01  4.56258996e-01  4.56258996e-01  3.28274081e-09  1.55691862e-07  9.51091650e-08  9.60000000e-01 
 9.70000000e-01  4.56258991e-01  3.26496429e-09  4.56258991e-01  4.56258991e-01  4.56258991e-01  4.56258991e-01  3.28274081e-09  1.55691889e-07  9.51091366e-08  9.70000000e-01 
 9.80000000e-01  4.56258970e-01  3.26496429e-09  4.56258970e-01  4.56258970e-01  4.56258970e-01  4.56258970e-01  3.28274081e-09  1.55691830e-07  9.51091081e-08  9.80000000e-01 
 9.90000000e-01  4.56258975e-01  3.26496429e-09  4.56258975e-01  4.56258976e-01  4.56258975e-01  4.56258975e-01  3.28274081e-09  1.55691842e-07  9.51088879e-08  9.90000000e-01 
 1.00000000e+00  4.56259016e-01  3.26496429e-09  4.56259016e-01  4.56259016e-01  4.56259016e-01  4.56259016e-01  3.28274081e-09  1.55691906e-07  9.51089021e-08  1.00000000e+00 
 1.01000000e+00  4.56258986e-01  3.26496429e-09  4.56258987e-01  4.56258987e-01  4.56258987e-01  4.56258987e-01  3.28274081e-09  1.55691866e-07  9.51088595e-08  1.01000000e+00 
 1.02000000e+00  4.56259014e-01  3.26496429e-09  4.56259014e-01  4.56259014e-01  4.56259014e-01  4.56259014e-01  3.28274081e-09  1.55691894e-07  9.51087813e-08  1.02000000e+00 
 1.03000000e+00  4.56258981e-01  3.26496423e-09  4.56258981e-01  4.56258981e-01  4.56258981e-01  4.56258981e-01  3.28274081e-09  1.55691847e-07  9.51086250e-08  1.03000000e+00 
 1.04000000e+00  4.56258965e-01  3.26496423e-09  4.56258965e-01  4.56258965e-01  4.56258965e-01  4.56258965e-01  3.28274081e-09  1.55691834e-07  9.51085184e-08  1.04000000e+00 
 1.05000000e+00  4.56258992e-01  3.26496429e-09  4.56258992e-01  4.56258992e-01  4.56258992e-01  4.56258992e-01  3.28274081e-09  1.55691876e-07  9.51084829e-08  1.05000000e+00 
 1.06000000e+00  4.56258986e-01  3.26496429e-09  4.56258986e-01  4.56258986e-01  4.56258986e-01  4.56258986e-01  3.28274081e-09  1.55691842e-07  9.51083550e-08  1.06000000e+00 
 1.07000000e+00  4.56258992e-01  3.26496429e-09  4.56258992e-01  4.56258992e-01  4.56258992e-01  4.56258992e-01  3.28274081e-09  1.55691873e-07  9.51082555e-08  1.07000000e+00 
 1.08000000e+00  4.56258987e-01  3.26496423e-09  4.56258987e-01  4.56258987e-01  4.56258987e-01  4.56258987e-01  3.28274081e-09  1.55691872e-07  9.51081631e-08  1.08000000e+00 
 1.09000000e+00  4.56259008e-01  3.26496423e-09  4.56259008e-01  4.56259008e-01  4.56259008e-01  4.56259008e-01  3.28274081e-09  1.55691893e-07  9.51082058e-08  1.09000000e+00 
 1.10000000e+00  4.56258977e-01  3.26496429e-09  4.56258977e-01  4.56258977e-01  4.56258977e-01  4.56258977e-01  3.28274087e-09  1.55691823e-07  9.51080850e-08  1.10000000e+00 
