 v-sweep         v(b0)           v(b1)           v(b2)           v(b3)           v(b4)           v(b5)           v(b6)           i(vbias)        i(viout)        v(vout)        
 0.00000000e+00  3.74285806e-09  4.57633443e-01  4.57633443e-01  4.57633443e-01  4.57633443e-01  3.22666912e-09  3.18745788e-09  1.60229071e-07  4.37875455e-08  0.00000000e+00 
 1.00000000e-02  3.74285803e-09  4.57633402e-01  4.57633402e-01  4.57633402e-01  4.57633402e-01  3.22666909e-09  3.18745785e-09  1.60228992e-07  4.37869889e-08  1.00000000e-02 
 2.00000000e-02  3.74285803e-09  4.57633430e-01  4.57633430e-01  4.57633430e-01  4.57633430e-01  3.22666909e-09  3.18745785e-09  1.60229057e-07  4.37867287e-08  2.00000000e-02 
 3.00000000e-02  3.74285803e-09  4.57633430e-01  4.57633430e-01  4.57633430e-01  4.57633430e-01  3.22666909e-09  3.18745785e-09  1.60229053e-07  4.37863015e-08  3.00000000e-02 
 4.00000000e-02  3.74285803e-09  4.57633432e-01  4.57633432e-01  4.57633432e-01  4.57633432e-01  3.22666909e-09  3.18745791e-09  1.60229052e-07  4.37859451e-08  4.00000000e-02 
 5.00000000e-02  3.74285803e-09  4.57633420e-01  4.57633420e-01  4.57633420e-01  4.57633420e-01  3.22666909e-09  3.18745785e-09  1.60229023e-07  4.37856751e-08  5.00000000e-02 
 6.00000000e-02  3.74285803e-09  4.57633422e-01  4.57633422e-01  4.57633422e-01  4.57633422e-01  3.22666909e-09  3.18745785e-09  1.60229039e-07  4.37853656e-08  6.00000000e-02 
 7.00000000e-02  3.74285803e-09  4.57633422e-01  4.57633422e-01  4.57633422e-01  4.57633422e-01  3.22666909e-09  3.18745785e-09  1.60229019e-07  4.37850889e-08  7.00000000e-02 
 8.00000000e-02  3.74285808e-09  4.57633396e-01  4.57633396e-01  4.57633396e-01  4.57633396e-01  3.22666909e-09  3.18745791e-09  1.60228998e-07  4.37847403e-08  8.00000000e-02 
 9.00000000e-02  3.74285803e-09  4.57633426e-01  4.57633426e-01  4.57633426e-01  4.57633426e-01  3.22666909e-09  3.18745791e-09  1.60229040e-07  4.37844649e-08  9.00000000e-02 
 1.00000000e-01  3.74285809e-09  4.57633444e-01  4.57633444e-01  4.57633444e-01  4.57633444e-01  3.22666909e-09  3.18745785e-09  1.60229066e-07  4.37842544e-08  1.00000000e-01 
 1.10000000e-01  3.74285803e-09  4.57633412e-01  4.57633412e-01  4.57633412e-01  4.57633412e-01  3.22666915e-09  3.18745791e-09  1.60229028e-07  4.37839702e-08  1.10000000e-01 
 1.20000000e-01  3.74285803e-09  4.57633450e-01  4.57633450e-01  4.57633450e-01  4.57633449e-01  3.22666909e-09  3.18745791e-09  1.60229083e-07  4.37838032e-08  1.20000000e-01 
 1.30000000e-01  3.74285803e-09  4.57633433e-01  4.57633433e-01  4.57633433e-01  4.57633433e-01  3.22666909e-09  3.18745785e-09  1.60229058e-07  4.37835732e-08  1.30000000e-01 
 1.40000000e-01  3.74285809e-09  4.57633435e-01  4.57633435e-01  4.57633435e-01  4.57633435e-01  3.22666909e-09  3.18745785e-09  1.60229031e-07  4.37833334e-08  1.40000000e-01 
 1.50000000e-01  3.74285803e-09  4.57633423e-01  4.57633423e-01  4.57633423e-01  4.57633423e-01  3.22666909e-09  3.18745785e-09  1.60229030e-07  4.37830892e-08  1.50000000e-01 
 1.60000000e-01  3.74285808e-09  4.57633417e-01  4.57633417e-01  4.57633417e-01  4.57633417e-01  3.22666909e-09  3.18745791e-09  1.60229026e-07  4.37829506e-08  1.60000000e-01 
 1.70000000e-01  3.74285809e-09  4.57633426e-01  4.57633426e-01  4.57633426e-01  4.57633426e-01  3.22666909e-09  3.18745791e-09  1.60229041e-07  4.37828565e-08  1.70000000e-01 
 1.80000000e-01  3.74285803e-09  4.57633420e-01  4.57633420e-01  4.57633420e-01  4.57633420e-01  3.22666909e-09  3.18745791e-09  1.60229025e-07  4.37825793e-08  1.80000000e-01 
 1.90000000e-01  3.74285809e-09  4.57633428e-01  4.57633428e-01  4.57633428e-01  4.57633428e-01  3.22666909e-09  3.18745785e-09  1.60229046e-07  4.37824301e-08  1.90000000e-01 
 2.00000000e-01  3.74285802e-09  4.57633386e-01  4.57633386e-01  4.57633386e-01  4.57633386e-01  3.22666909e-09  3.18745785e-09  1.60228976e-07  4.37821903e-08  2.00000000e-01 
 2.10000000e-01  3.74285803e-09  4.57633456e-01  4.57633456e-01  4.57633456e-01  4.57633456e-01  3.22666909e-09  3.18745791e-09  1.60229083e-07  4.37820873e-08  2.10000000e-01 
 2.20000000e-01  3.74285803e-09  4.57633405e-01  4.57633405e-01  4.57633405e-01  4.57633405e-01  3.22666909e-09  3.18745785e-09  1.60229022e-07  4.37819097e-08  2.20000000e-01 
 2.30000000e-01  3.74285803e-09  4.57633455e-01  4.57633455e-01  4.57633455e-01  4.57633455e-01  3.22666909e-09  3.18745785e-09  1.60229081e-07  4.37817551e-08  2.30000000e-01 
 2.40000000e-01  3.74285809e-09  4.57633429e-01  4.57633429e-01  4.57633429e-01  4.57633429e-01  3.22666909e-09  3.18745785e-09  1.60229060e-07  4.37818191e-08  2.40000000e-01 
 2.50000000e-01  3.74285803e-09  4.57633417e-01  4.57633417e-01  4.57633417e-01  4.57633416e-01  3.22666909e-09  3.18745785e-09  1.60229020e-07  4.37816094e-08  2.50000000e-01 
 2.60000000e-01  3.74285803e-09  4.57633420e-01  4.57633420e-01  4.57633420e-01  4.57633419e-01  3.22666909e-09  3.18745785e-09  1.60229016e-07  4.37814247e-08  2.60000000e-01 
 2.70000000e-01  3.74285803e-09  4.57633419e-01  4.57633419e-01  4.57633419e-01  4.57633419e-01  3.22666909e-09  3.18745785e-09  1.60229027e-07  4.37812382e-08  2.70000000e-01 
 2.80000000e-01  3.74285808e-09  4.57633418e-01  4.57633418e-01  4.57633418e-01  4.57633418e-01  3.22666909e-09  3.18745785e-09  1.60229018e-07  4.37811192e-08  2.80000000e-01 
 2.90000000e-01  3.74285809e-09  4.57633434e-01  4.57633434e-01  4.57633434e-01  4.57633434e-01  3.22666909e-09  3.18745791e-09  1.60229058e-07  4.37810534e-08  2.90000000e-01 
 3.00000000e-01  3.74285808e-09  4.57633399e-01  4.57633399e-01  4.57633399e-01  4.57633399e-01  3.22666909e-09  3.18745791e-09  1.60229000e-07  4.37809824e-08  3.00000000e-01 
 3.10000000e-01  3.74285808e-09  4.57633417e-01  4.57633417e-01  4.57633417e-01  4.57633417e-01  3.22666909e-09  3.18745785e-09  1.60229049e-07  4.37809575e-08  3.10000000e-01 
 3.20000000e-01  3.74285809e-09  4.57633438e-01  4.57633438e-01  4.57633438e-01  4.57633438e-01  3.22666909e-09  3.18745785e-09  1.60229051e-07  4.37808616e-08  3.20000000e-01 
 3.30000000e-01  3.74285803e-09  4.57633417e-01  4.57633417e-01  4.57633417e-01  4.57633417e-01  3.22666909e-09  3.18745791e-09  1.60229031e-07  4.37806946e-08  3.30000000e-01 
 3.40000000e-01  3.74285809e-09  4.57633430e-01  4.57633430e-01  4.57633430e-01  4.57633430e-01  3.22666909e-09  3.18745791e-09  1.60229046e-07  4.37805241e-08  3.40000000e-01 
 3.50000000e-01  3.74285803e-09  4.57633419e-01  4.57633419e-01  4.57633419e-01  4.57633419e-01  3.22666909e-09  3.18745791e-09  1.60229016e-07  4.37805454e-08  3.50000000e-01 
 3.60000000e-01  3.74285803e-09  4.57633414e-01  4.57633414e-01  4.57633414e-01  4.57633414e-01  3.22666909e-09  3.18745791e-09  1.60229033e-07  4.37804566e-08  3.60000000e-01 
 3.70000000e-01  3.74285808e-09  4.57633418e-01  4.57633418e-01  4.57633418e-01  4.57633418e-01  3.22666909e-09  3.18745785e-09  1.60229025e-07  4.37804921e-08  3.70000000e-01 
 3.80000000e-01  3.74285809e-09  4.57633426e-01  4.57633426e-01  4.57633426e-01  4.57633426e-01  3.22666909e-09  3.18745791e-09  1.60229040e-07  4.37801937e-08  3.80000000e-01 
 3.90000000e-01  3.74285809e-09  4.57633429e-01  4.57633429e-01  4.57633429e-01  4.57633429e-01  3.22666909e-09  3.18745785e-09  1.60229044e-07  4.37801617e-08  3.90000000e-01 
 4.00000000e-01  3.74285808e-09  4.57633414e-01  4.57633414e-01  4.57633414e-01  4.57633414e-01  3.22666909e-09  3.18745785e-09  1.60229025e-07  4.37801688e-08  4.00000000e-01 
 4.10000000e-01  3.74285803e-09  4.57633414e-01  4.57633414e-01  4.57633414e-01  4.57633413e-01  3.22666909e-09  3.18745791e-09  1.60229025e-07  4.37801013e-08  4.10000000e-01 
 4.20000000e-01  3.74285808e-09  4.57633417e-01  4.57633417e-01  4.57633417e-01  4.57633417e-01  3.22666909e-09  3.18745791e-09  1.60229018e-07  4.37800054e-08  4.20000000e-01 
 4.30000000e-01  3.74285803e-09  4.57633434e-01  4.57633434e-01  4.57633433e-01  4.57633433e-01  3.22666909e-09  3.18745791e-09  1.60229056e-07  4.37800125e-08  4.30000000e-01 
 4.40000000e-01  3.74285808e-09  4.57633414e-01  4.57633414e-01  4.57633414e-01  4.57633414e-01  3.22666909e-09  3.18745791e-09  1.60229021e-07  4.37797887e-08  4.40000000e-01 
 4.50000000e-01  3.74285803e-09  4.57633413e-01  4.57633413e-01  4.57633413e-01  4.57633413e-01  3.22666909e-09  3.18745785e-09  1.60229024e-07  4.37797922e-08  4.50000000e-01 
 4.60000000e-01  3.74285809e-09  4.57633420e-01  4.57633420e-01  4.57633420e-01  4.57633420e-01  3.22666909e-09  3.18745791e-09  1.60229039e-07  4.37796643e-08  4.60000000e-01 
 4.70000000e-01  3.74285809e-09  4.57633426e-01  4.57633426e-01  4.57633426e-01  4.57633425e-01  3.22666909e-09  3.18745785e-09  1.60229033e-07  4.37796039e-08  4.70000000e-01 
 4.80000000e-01  3.74285803e-09  4.57633421e-01  4.57633421e-01  4.57633421e-01  4.57633421e-01  3.22666909e-09  3.18745785e-09  1.60229015e-07  4.37796537e-08  4.80000000e-01 
 4.90000000e-01  3.74285803e-09  4.57633411e-01  4.57633411e-01  4.57633410e-01  4.57633410e-01  3.22666909e-09  3.18745785e-09  1.60229029e-07  4.37793979e-08  4.90000000e-01 
 5.00000000e-01  3.74285803e-09  4.57633426e-01  4.57633426e-01  4.57633426e-01  4.57633426e-01  3.22666909e-09  3.18745785e-09  1.60229046e-07  4.37794796e-08  5.00000000e-01 
 5.10000000e-01  3.74285808e-09  4.57633409e-01  4.57633409e-01  4.57633409e-01  4.57633409e-01  3.22666909e-09  3.18745785e-09  1.60229010e-07  4.37794654e-08  5.10000000e-01 
 5.20000000e-01  3.74285803e-09  4.57633418e-01  4.57633418e-01  4.57633418e-01  4.57633418e-01  3.22666909e-09  3.18745785e-09  1.60229033e-07  4.37793553e-08  5.20000000e-01 
 5.30000000e-01  3.74285803e-09  4.57633421e-01  4.57633421e-01  4.57633421e-01  4.57633421e-01  3.22666909e-09  3.18745791e-09  1.60229019e-07  4.37792984e-08  5.30000000e-01 
 5.40000000e-01  3.74285803e-09  4.57633407e-01  4.57633407e-01  4.57633407e-01  4.57633407e-01  3.22666909e-09  3.18745785e-09  1.60228997e-07  4.37790391e-08  5.40000000e-01 
 5.50000000e-01  3.74285803e-09  4.57633438e-01  4.57633438e-01  4.57633438e-01  4.57633438e-01  3.22666909e-09  3.18745785e-09  1.60229063e-07  4.37791705e-08  5.50000000e-01 
 5.60000000e-01  3.74285803e-09  4.57633425e-01  4.57633425e-01  4.57633425e-01  4.57633425e-01  3.22666909e-09  3.18745791e-09  1.60229049e-07  4.37790710e-08  5.60000000e-01 
 5.70000000e-01  3.74285809e-09  4.57633451e-01  4.57633451e-01  4.57633451e-01  4.57633451e-01  3.22666909e-09  3.18745785e-09  1.60229086e-07  4.37790497e-08  5.70000000e-01 
 5.80000000e-01  3.74285809e-09  4.57633447e-01  4.57633447e-01  4.57633447e-01  4.57633447e-01  3.22666909e-09  3.18745785e-09  1.60229080e-07  4.37789680e-08  5.80000000e-01 
 5.90000000e-01  3.74285802e-09  4.57633388e-01  4.57633388e-01  4.57633388e-01  4.57633388e-01  3.22666903e-09  3.18745785e-09  1.60228971e-07  4.37788685e-08  5.90000000e-01 
 6.00000000e-01  3.74285808e-09  4.57633416e-01  4.57633416e-01  4.57633416e-01  4.57633416e-01  3.22666909e-09  3.18745785e-09  1.60229044e-07  4.37788756e-08  6.00000000e-01 
 6.10000000e-01  3.74285803e-09  4.57633422e-01  4.57633422e-01  4.57633422e-01  4.57633422e-01  3.22666909e-09  3.18745785e-09  1.60229035e-07  4.37787975e-08  6.10000000e-01 
 6.20000000e-01  3.74285809e-09  4.57633421e-01  4.57633421e-01  4.57633421e-01  4.57633421e-01  3.22666909e-09  3.18745785e-09  1.60229033e-07  4.37788330e-08  6.20000000e-01 
 6.30000000e-01  3.74285803e-09  4.57633420e-01  4.57633420e-01  4.57633420e-01  4.57633420e-01  3.22666909e-09  3.18745791e-09  1.60229042e-07  4.37786838e-08  6.30000000e-01 
 6.40000000e-01  3.74285803e-09  4.57633439e-01  4.57633439e-01  4.57633438e-01  4.57633438e-01  3.22666909e-09  3.18745785e-09  1.60229063e-07  4.37786767e-08  6.40000000e-01 
 6.50000000e-01  3.74285809e-09  4.57633436e-01  4.57633436e-01  4.57633436e-01  4.57633436e-01  3.22666909e-09  3.18745791e-09  1.60229067e-07  4.37785843e-08  6.50000000e-01 
 6.60000000e-01  3.74285808e-09  4.57633414e-01  4.57633414e-01  4.57633414e-01  4.57633414e-01  3.22666909e-09  3.18745785e-09  1.60229016e-07  4.37785417e-08  6.60000000e-01 
 6.70000000e-01  3.74285803e-09  4.57633407e-01  4.57633407e-01  4.57633407e-01  4.57633407e-01  3.22666909e-09  3.18745785e-09  1.60229013e-07  4.37785559e-08  6.70000000e-01 
 6.80000000e-01  3.74285803e-09  4.57633405e-01  4.57633405e-01  4.57633405e-01  4.57633405e-01  3.22666909e-09  3.18745791e-09  1.60229024e-07  4.37784067e-08  6.80000000e-01 
 6.90000000e-01  3.74285803e-09  4.57633412e-01  4.57633412e-01  4.57633412e-01  4.57633412e-01  3.22666909e-09  3.18745785e-09  1.60229021e-07  4.37782575e-08  6.90000000e-01 
 7.00000000e-01  3.74285803e-09  4.57633432e-01  4.57633432e-01  4.57633432e-01  4.57633432e-01  3.22666909e-09  3.18745785e-09  1.60229056e-07  4.37784067e-08  7.00000000e-01 
 7.10000000e-01  3.74285803e-09  4.57633429e-01  4.57633429e-01  4.57633429e-01  4.57633429e-01  3.22666909e-09  3.18745785e-09  1.60229039e-07  4.37781011e-08  7.10000000e-01 
 7.20000000e-01  3.74285803e-09  4.57633435e-01  4.57633435e-01  4.57633435e-01  4.57633435e-01  3.22666909e-09  3.18745791e-09  1.60229063e-07  4.37781011e-08  7.20000000e-01 
 7.30000000e-01  3.74285803e-09  4.57633445e-01  4.57633445e-01  4.57633445e-01  4.57633445e-01  3.22666909e-09  3.18745785e-09  1.60229065e-07  4.37781509e-08  7.30000000e-01 
 7.40000000e-01  3.74285803e-09  4.57633449e-01  4.57633449e-01  4.57633449e-01  4.57633449e-01  3.22666909e-09  3.18745785e-09  1.60229078e-07  4.37780656e-08  7.40000000e-01 
 7.50000000e-01  3.74285809e-09  4.57633423e-01  4.57633423e-01  4.57633423e-01  4.57633423e-01  3.22666909e-09  3.18745785e-09  1.60229038e-07  4.37779732e-08  7.50000000e-01 
 7.60000000e-01  3.74285808e-09  4.57633397e-01  4.57633397e-01  4.57633397e-01  4.57633397e-01  3.22666909e-09  3.18745791e-09  1.60228983e-07  4.37778596e-08  7.60000000e-01 
 7.70000000e-01  3.74285803e-09  4.57633450e-01  4.57633450e-01  4.57633450e-01  4.57633450e-01  3.22666909e-09  3.18745785e-09  1.60229080e-07  4.37779306e-08  7.70000000e-01 
 7.80000000e-01  3.74285803e-09  4.57633440e-01  4.57633440e-01  4.57633440e-01  4.57633440e-01  3.22666909e-09  3.18745791e-09  1.60229071e-07  4.37778311e-08  7.80000000e-01 
 7.90000000e-01  3.74285803e-09  4.57633413e-01  4.57633413e-01  4.57633413e-01  4.57633412e-01  3.22666909e-09  3.18745791e-09  1.60229012e-07  4.37777814e-08  7.90000000e-01 
 8.00000000e-01  3.74285808e-09  4.57633420e-01  4.57633420e-01  4.57633420e-01  4.57633420e-01  3.22666909e-09  3.18745785e-09  1.60229038e-07  4.37776748e-08  8.00000000e-01 
 8.10000000e-01  3.74285803e-09  4.57633445e-01  4.57633445e-01  4.57633445e-01  4.57633445e-01  3.22666903e-09  3.18745791e-09  1.60229070e-07  4.37776251e-08  8.10000000e-01 
 8.20000000e-01  3.74285809e-09  4.57633436e-01  4.57633436e-01  4.57633435e-01  4.57633435e-01  3.22666909e-09  3.18745785e-09  1.60229058e-07  4.37775896e-08  8.20000000e-01 
 8.30000000e-01  3.74285803e-09  4.57633423e-01  4.57633423e-01  4.57633423e-01  4.57633423e-01  3.22666909e-09  3.18745785e-09  1.60229024e-07  4.37774617e-08  8.30000000e-01 
 8.40000000e-01  3.74285803e-09  4.57633446e-01  4.57633446e-01  4.57633446e-01  4.57633446e-01  3.22666909e-09  3.18745791e-09  1.60229064e-07  4.37774830e-08  8.40000000e-01 
 8.50000000e-01  3.74285803e-09  4.57633434e-01  4.57633434e-01  4.57633434e-01  4.57633434e-01  3.22666909e-09  3.18745785e-09  1.60229066e-07  4.37774617e-08  8.50000000e-01 
 8.60000000e-01  3.74285803e-09  4.57633410e-01  4.57633410e-01  4.57633410e-01  4.57633410e-01  3.22666903e-09  3.18745791e-09  1.60229010e-07  4.37773693e-08  8.60000000e-01 
 8.70000000e-01  3.74285808e-09  4.57633409e-01  4.57633409e-01  4.57633409e-01  4.57633409e-01  3.22666909e-09  3.18745785e-09  1.60229014e-07  4.37772840e-08  8.70000000e-01 
 8.80000000e-01  3.74285808e-09  4.57633415e-01  4.57633415e-01  4.57633415e-01  4.57633415e-01  3.22666909e-09  3.18745785e-09  1.60229023e-07  4.37771206e-08  8.80000000e-01 
 8.90000000e-01  3.74285803e-09  4.57633414e-01  4.57633414e-01  4.57633414e-01  4.57633414e-01  3.22666909e-09  3.18745785e-09  1.60229031e-07  4.37772343e-08  8.90000000e-01 
 9.00000000e-01  3.74285803e-09  4.57633420e-01  4.57633420e-01  4.57633420e-01  4.57633420e-01  3.22666909e-09  3.18745785e-09  1.60229039e-07  4.37770922e-08  9.00000000e-01 
 9.10000000e-01  3.74285808e-09  4.57633417e-01  4.57633417e-01  4.57633417e-01  4.57633417e-01  3.22666909e-09  3.18745791e-09  1.60229025e-07  4.37771419e-08  9.10000000e-01 
 9.20000000e-01  3.74285803e-09  4.57633414e-01  4.57633414e-01  4.57633414e-01  4.57633414e-01  3.22666909e-09  3.18745785e-09  1.60229019e-07  4.37769785e-08  9.20000000e-01 
 9.30000000e-01  3.74285803e-09  4.57633434e-01  4.57633434e-01  4.57633434e-01  4.57633434e-01  3.22666909e-09  3.18745785e-09  1.60229050e-07  4.37769643e-08  9.30000000e-01 
 9.40000000e-01  3.74285803e-09  4.57633439e-01  4.57633439e-01  4.57633439e-01  4.57633439e-01  3.22666909e-09  3.18745785e-09  1.60229068e-07  4.37769359e-08  9.40000000e-01 
 9.50000000e-01  3.74285803e-09  4.57633429e-01  4.57633429e-01  4.57633429e-01  4.57633429e-01  3.22666909e-09  3.18745791e-09  1.60229043e-07  4.37767298e-08  9.50000000e-01 
 9.60000000e-01  3.74285809e-09  4.57633430e-01  4.57633430e-01  4.57633430e-01  4.57633430e-01  3.22666909e-09  3.18745785e-09  1.60229055e-07  4.37767724e-08  9.60000000e-01 
 9.70000000e-01  3.74285803e-09  4.57633418e-01  4.57633418e-01  4.57633418e-01  4.57633417e-01  3.22666909e-09  3.18745785e-09  1.60229030e-07  4.37767298e-08  9.70000000e-01 
 9.80000000e-01  3.74285803e-09  4.57633407e-01  4.57633407e-01  4.57633407e-01  4.57633407e-01  3.22666909e-09  3.18745785e-09  1.60229025e-07  4.37766232e-08  9.80000000e-01 
 9.90000000e-01  3.74285803e-09  4.57633425e-01  4.57633425e-01  4.57633425e-01  4.57633425e-01  3.22666909e-09  3.18745791e-09  1.60229033e-07  4.37765522e-08  9.90000000e-01 
 1.00000000e+00  3.74285808e-09  4.57633416e-01  4.57633416e-01  4.57633416e-01  4.57633416e-01  3.22666909e-09  3.18745785e-09  1.60229026e-07  4.37765664e-08  1.00000000e+00 
 1.01000000e+00  3.74285803e-09  4.57633435e-01  4.57633435e-01  4.57633435e-01  4.57633435e-01  3.22666909e-09  3.18745791e-09  1.60229050e-07  4.37764598e-08  1.01000000e+00 
 1.02000000e+00  3.74285809e-09  4.57633443e-01  4.57633443e-01  4.57633443e-01  4.57633443e-01  3.22666909e-09  3.18745791e-09  1.60229065e-07  4.37764953e-08  1.02000000e+00 
 1.03000000e+00  3.74285808e-09  4.57633416e-01  4.57633416e-01  4.57633416e-01  4.57633416e-01  3.22666909e-09  3.18745791e-09  1.60229034e-07  4.37763887e-08  1.03000000e+00 
 1.04000000e+00  3.74285803e-09  4.57633430e-01  4.57633430e-01  4.57633430e-01  4.57633430e-01  3.22666909e-09  3.18745785e-09  1.60229048e-07  4.37763177e-08  1.04000000e+00 
 1.05000000e+00  3.74285809e-09  4.57633428e-01  4.57633428e-01  4.57633428e-01  4.57633428e-01  3.22666909e-09  3.18745785e-09  1.60229031e-07  4.37760690e-08  1.05000000e+00 
 1.06000000e+00  3.74285803e-09  4.57633427e-01  4.57633427e-01  4.57633426e-01  4.57633426e-01  3.22666909e-09  3.18745791e-09  1.60229049e-07  4.37762537e-08  1.06000000e+00 
 1.07000000e+00  3.74285803e-09  4.57633423e-01  4.57633423e-01  4.57633423e-01  4.57633423e-01  3.22666909e-09  3.18745791e-09  1.60229031e-07  4.37759553e-08  1.07000000e+00 
 1.08000000e+00  3.74285803e-09  4.57633438e-01  4.57633438e-01  4.57633438e-01  4.57633438e-01  3.22666909e-09  3.18745785e-09  1.60229063e-07  4.37760050e-08  1.08000000e+00 
 1.09000000e+00  3.74285809e-09  4.57633460e-01  4.57633460e-01  4.57633460e-01  4.57633460e-01  3.22666909e-09  3.18745785e-09  1.60229104e-07  4.37761329e-08  1.09000000e+00 
 1.10000000e+00  3.74285803e-09  4.57633426e-01  4.57633426e-01  4.57633426e-01  4.57633426e-01  3.22666909e-09  3.18745785e-09  1.60229050e-07  4.37759482e-08  1.10000000e+00 
