 v-sweep         v(b0)           v(b1)           v(b2)           v(b3)           v(b4)           v(b5)           v(b6)           i(vbias)        i(viout)        v(vout)        
 0.00000000e+00  3.18811767e-09  3.17818915e-09  3.23073593e-09  3.70863904e-09  4.59001699e-01  4.59001699e-01  4.59001699e-01  1.61431511e-07  1.76387908e-07  0.00000000e+00 
 1.00000000e-02  3.18811764e-09  3.17818918e-09  3.23073596e-09  3.70863902e-09  4.59001731e-01  4.59001731e-01  4.59001731e-01  1.61431570e-07  1.76387523e-07  1.00000000e-02 
 2.00000000e-02  3.18811764e-09  3.17818918e-09  3.23073596e-09  3.70863901e-09  4.59001701e-01  4.59001701e-01  4.59001701e-01  1.61431529e-07  1.76387018e-07  2.00000000e-02 
 3.00000000e-02  3.18811764e-09  3.17818918e-09  3.23073596e-09  3.70863896e-09  4.59001722e-01  4.59001722e-01  4.59001722e-01  1.61431541e-07  1.76386634e-07  3.00000000e-02 
 4.00000000e-02  3.18811764e-09  3.17818913e-09  3.23073591e-09  3.70863903e-09  4.59001708e-01  4.59001708e-01  4.59001708e-01  1.61431510e-07  1.76386183e-07  4.00000000e-02 
 5.00000000e-02  3.18811764e-09  3.17818918e-09  3.23073591e-09  3.70863901e-09  4.59001718e-01  4.59001718e-01  4.59001718e-01  1.61431540e-07  1.76385807e-07  5.00000000e-02 
 6.00000000e-02  3.18811764e-09  3.17818918e-09  3.23073596e-09  3.70863901e-09  4.59001717e-01  4.59001717e-01  4.59001717e-01  1.61431546e-07  1.76385401e-07  6.00000000e-02 
 7.00000000e-02  3.18811764e-09  3.17818918e-09  3.23073591e-09  3.70863896e-09  4.59001731e-01  4.59001731e-01  4.59001731e-01  1.61431573e-07  1.76385153e-07  7.00000000e-02 
 8.00000000e-02  3.18811764e-09  3.17818913e-09  3.23073591e-09  3.70863897e-09  4.59001725e-01  4.59001725e-01  4.59001725e-01  1.61431550e-07  1.76384829e-07  8.00000000e-02 
 9.00000000e-02  3.18811764e-09  3.17818913e-09  3.23073596e-09  3.70863896e-09  4.59001713e-01  4.59001713e-01  4.59001713e-01  1.61431545e-07  1.76384463e-07  9.00000000e-02 
 1.00000000e-01  3.18811764e-09  3.17818918e-09  3.23073596e-09  3.70863896e-09  4.59001717e-01  4.59001717e-01  4.59001717e-01  1.61431546e-07  1.76384061e-07  1.00000000e-01 
 1.10000000e-01  3.18811764e-09  3.17818919e-09  3.23073596e-09  3.70863896e-09  4.59001744e-01  4.59001744e-01  4.59001744e-01  1.61431579e-07  1.76383832e-07  1.10000000e-01 
 1.20000000e-01  3.18811764e-09  3.17818918e-09  3.23073596e-09  3.70863902e-09  4.59001693e-01  4.59001692e-01  4.59001693e-01  1.61431502e-07  1.76383316e-07  1.20000000e-01 
 1.30000000e-01  3.18811764e-09  3.17818918e-09  3.23073591e-09  3.70863901e-09  4.59001722e-01  4.59001722e-01  4.59001722e-01  1.61431559e-07  1.76383178e-07  1.30000000e-01 
 1.40000000e-01  3.18811769e-09  3.17818919e-09  3.23073596e-09  3.70863902e-09  4.59001747e-01  4.59001747e-01  4.59001747e-01  1.61431590e-07  1.76383081e-07  1.40000000e-01 
 1.50000000e-01  3.18811764e-09  3.17818913e-09  3.23073596e-09  3.70863901e-09  4.59001713e-01  4.59001713e-01  4.59001713e-01  1.61431536e-07  1.76382617e-07  1.50000000e-01 
 1.60000000e-01  3.18811764e-09  3.17818918e-09  3.23073596e-09  3.70863896e-09  4.59001721e-01  4.59001721e-01  4.59001721e-01  1.61431560e-07  1.76382374e-07  1.60000000e-01 
 1.70000000e-01  3.18811764e-09  3.17818913e-09  3.23073596e-09  3.70863903e-09  4.59001709e-01  4.59001709e-01  4.59001709e-01  1.61431536e-07  1.76382215e-07  1.70000000e-01 
 1.80000000e-01  3.18811764e-09  3.17818918e-09  3.23073596e-09  3.70863901e-09  4.59001725e-01  4.59001725e-01  4.59001725e-01  1.61431542e-07  1.76382001e-07  1.80000000e-01 
 1.90000000e-01  3.18811764e-09  3.17818913e-09  3.23073596e-09  3.70863901e-09  4.59001723e-01  4.59001723e-01  4.59001723e-01  1.61431556e-07  1.76381683e-07  1.90000000e-01 
 2.00000000e-01  3.18811764e-09  3.17818912e-09  3.23073596e-09  3.70863901e-09  4.59001702e-01  4.59001702e-01  4.59001702e-01  1.61431538e-07  1.76381413e-07  2.00000000e-01 
 2.10000000e-01  3.18811764e-09  3.17818913e-09  3.23073596e-09  3.70863901e-09  4.59001725e-01  4.59001725e-01  4.59001725e-01  1.61431549e-07  1.76381215e-07  2.10000000e-01 
 2.20000000e-01  3.18811764e-09  3.17818913e-09  3.23073596e-09  3.70863896e-09  4.59001730e-01  4.59001730e-01  4.59001730e-01  1.61431563e-07  1.76381066e-07  2.20000000e-01 
 2.30000000e-01  3.18811764e-09  3.17818918e-09  3.23073596e-09  3.70863903e-09  4.59001732e-01  4.59001732e-01  4.59001732e-01  1.61431555e-07  1.76380869e-07  2.30000000e-01 
 2.40000000e-01  3.18811764e-09  3.17818918e-09  3.23073591e-09  3.70863901e-09  4.59001718e-01  4.59001718e-01  4.59001718e-01  1.61431550e-07  1.76380620e-07  2.40000000e-01 
 2.50000000e-01  3.18811764e-09  3.17818918e-09  3.23073596e-09  3.70863902e-09  4.59001731e-01  4.59001731e-01  4.59001731e-01  1.61431561e-07  1.76380532e-07  2.50000000e-01 
 2.60000000e-01  3.18811764e-09  3.17818918e-09  3.23073596e-09  3.70863902e-09  4.59001735e-01  4.59001735e-01  4.59001735e-01  1.61431564e-07  1.76380293e-07  2.60000000e-01 
 2.70000000e-01  3.18811764e-09  3.17818918e-09  3.23073596e-09  3.70863901e-09  4.59001726e-01  4.59001726e-01  4.59001726e-01  1.61431560e-07  1.76380169e-07  2.70000000e-01 
 2.80000000e-01  3.18811764e-09  3.17818918e-09  3.23073596e-09  3.70863902e-09  4.59001736e-01  4.59001736e-01  4.59001736e-01  1.61431577e-07  1.76379872e-07  2.80000000e-01 
 2.90000000e-01  3.18811764e-09  3.17818918e-09  3.23073591e-09  3.70863901e-09  4.59001722e-01  4.59001722e-01  4.59001722e-01  1.61431552e-07  1.76379665e-07  2.90000000e-01 
 3.00000000e-01  3.18811769e-09  3.17818918e-09  3.23073596e-09  3.70863902e-09  4.59001731e-01  4.59001731e-01  4.59001731e-01  1.61431571e-07  1.76379693e-07  3.00000000e-01 
 3.10000000e-01  3.18811764e-09  3.17818918e-09  3.23073596e-09  3.70863896e-09  4.59001736e-01  4.59001736e-01  4.59001736e-01  1.61431573e-07  1.76379444e-07  3.10000000e-01 
 3.20000000e-01  3.18811764e-09  3.17818913e-09  3.23073596e-09  3.70863897e-09  4.59001721e-01  4.59001721e-01  4.59001721e-01  1.61431551e-07  1.76379167e-07  3.20000000e-01 
 3.30000000e-01  3.18811764e-09  3.17818912e-09  3.23073596e-09  3.70863902e-09  4.59001698e-01  4.59001698e-01  4.59001698e-01  1.61431517e-07  1.76378887e-07  3.30000000e-01 
 3.40000000e-01  3.18811764e-09  3.17818918e-09  3.23073591e-09  3.70863901e-09  4.59001722e-01  4.59001722e-01  4.59001722e-01  1.61431551e-07  1.76378823e-07  3.40000000e-01 
 3.50000000e-01  3.18811764e-09  3.17818918e-09  3.23073596e-09  3.70863901e-09  4.59001720e-01  4.59001720e-01  4.59001721e-01  1.61431544e-07  1.76378819e-07  3.50000000e-01 
 3.60000000e-01  3.18811764e-09  3.17818913e-09  3.23073596e-09  3.70863902e-09  4.59001743e-01  4.59001743e-01  4.59001743e-01  1.61431595e-07  1.76378705e-07  3.60000000e-01 
 3.70000000e-01  3.18811764e-09  3.17818918e-09  3.23073596e-09  3.70863896e-09  4.59001736e-01  4.59001736e-01  4.59001736e-01  1.61431562e-07  1.76378524e-07  3.70000000e-01 
 3.80000000e-01  3.18811764e-09  3.17818918e-09  3.23073596e-09  3.70863897e-09  4.59001735e-01  4.59001735e-01  4.59001735e-01  1.61431564e-07  1.76378439e-07  3.80000000e-01 
 3.90000000e-01  3.18811764e-09  3.17818918e-09  3.23073596e-09  3.70863902e-09  4.59001727e-01  4.59001726e-01  4.59001727e-01  1.61431554e-07  1.76378176e-07  3.90000000e-01 
 4.00000000e-01  3.18811764e-09  3.17818913e-09  3.23073591e-09  3.70863901e-09  4.59001727e-01  4.59001727e-01  4.59001727e-01  1.61431558e-07  1.76377959e-07  4.00000000e-01 
 4.10000000e-01  3.18811769e-09  3.17818912e-09  3.23073596e-09  3.70863896e-09  4.59001704e-01  4.59001704e-01  4.59001704e-01  1.61431530e-07  1.76377732e-07  4.10000000e-01 
 4.20000000e-01  3.18811764e-09  3.17818918e-09  3.23073596e-09  3.70863897e-09  4.59001738e-01  4.59001738e-01  4.59001738e-01  1.61431568e-07  1.76377799e-07  4.20000000e-01 
 4.30000000e-01  3.18811764e-09  3.17818918e-09  3.23073596e-09  3.70863902e-09  4.59001718e-01  4.59001718e-01  4.59001718e-01  1.61431556e-07  1.76377480e-07  4.30000000e-01 
 4.40000000e-01  3.18811764e-09  3.17818918e-09  3.23073596e-09  3.70863901e-09  4.59001718e-01  4.59001718e-01  4.59001718e-01  1.61431539e-07  1.76377565e-07  4.40000000e-01 
 4.50000000e-01  3.18811764e-09  3.17818918e-09  3.23073596e-09  3.70863902e-09  4.59001732e-01  4.59001732e-01  4.59001732e-01  1.61431563e-07  1.76377252e-07  4.50000000e-01 
 4.60000000e-01  3.18811769e-09  3.17818918e-09  3.23073596e-09  3.70863902e-09  4.59001736e-01  4.59001736e-01  4.59001736e-01  1.61431576e-07  1.76377213e-07  4.60000000e-01 
 4.70000000e-01  3.18811764e-09  3.17818918e-09  3.23073596e-09  3.70863902e-09  4.59001738e-01  4.59001738e-01  4.59001738e-01  1.61431588e-07  1.76377174e-07  4.70000000e-01 
 4.80000000e-01  3.18811769e-09  3.17818918e-09  3.23073596e-09  3.70863902e-09  4.59001739e-01  4.59001739e-01  4.59001739e-01  1.61431570e-07  1.76377018e-07  4.80000000e-01 
 4.90000000e-01  3.18811764e-09  3.17818918e-09  3.23073596e-09  3.70863902e-09  4.59001739e-01  4.59001739e-01  4.59001739e-01  1.61431584e-07  1.76376822e-07  4.90000000e-01 
 5.00000000e-01  3.18811764e-09  3.17818918e-09  3.23073596e-09  3.70863896e-09  4.59001734e-01  4.59001734e-01  4.59001734e-01  1.61431562e-07  1.76376698e-07  5.00000000e-01 
 5.10000000e-01  3.18811764e-09  3.17818913e-09  3.23073596e-09  3.70863903e-09  4.59001713e-01  4.59001713e-01  4.59001713e-01  1.61431538e-07  1.76376389e-07  5.10000000e-01 
 5.20000000e-01  3.18811764e-09  3.17818918e-09  3.23073596e-09  3.70863901e-09  4.59001724e-01  4.59001724e-01  4.59001724e-01  1.61431549e-07  1.76376290e-07  5.20000000e-01 
 5.30000000e-01  3.18811764e-09  3.17818918e-09  3.23073596e-09  3.70863896e-09  4.59001712e-01  4.59001712e-01  4.59001712e-01  1.61431542e-07  1.76376133e-07  5.30000000e-01 
 5.40000000e-01  3.18811764e-09  3.17818913e-09  3.23073596e-09  3.70863903e-09  4.59001715e-01  4.59001715e-01  4.59001715e-01  1.61431557e-07  1.76376133e-07  5.40000000e-01 
 5.50000000e-01  3.18811770e-09  3.17818919e-09  3.23073596e-09  3.70863901e-09  4.59001755e-01  4.59001755e-01  4.59001755e-01  1.61431612e-07  1.76376126e-07  5.50000000e-01 
 5.60000000e-01  3.18811764e-09  3.17818918e-09  3.23073596e-09  3.70863901e-09  4.59001728e-01  4.59001728e-01  4.59001728e-01  1.61431559e-07  1.76375785e-07  5.60000000e-01 
 5.70000000e-01  3.18811764e-09  3.17818918e-09  3.23073596e-09  3.70863902e-09  4.59001733e-01  4.59001733e-01  4.59001733e-01  1.61431567e-07  1.76375735e-07  5.70000000e-01 
 5.80000000e-01  3.18811764e-09  3.17818913e-09  3.23073591e-09  3.70863901e-09  4.59001725e-01  4.59001725e-01  4.59001725e-01  1.61431553e-07  1.76375551e-07  5.80000000e-01 
 5.90000000e-01  3.18811764e-09  3.17818918e-09  3.23073596e-09  3.70863902e-09  4.59001736e-01  4.59001736e-01  4.59001736e-01  1.61431563e-07  1.76375373e-07  5.90000000e-01 
 6.00000000e-01  3.18811764e-09  3.17818913e-09  3.23073596e-09  3.70863896e-09  4.59001724e-01  4.59001724e-01  4.59001724e-01  1.61431547e-07  1.76375231e-07  6.00000000e-01 
 6.10000000e-01  3.18811764e-09  3.17818918e-09  3.23073591e-09  3.70863903e-09  4.59001729e-01  4.59001729e-01  4.59001729e-01  1.61431572e-07  1.76375195e-07  6.10000000e-01 
 6.20000000e-01  3.18811764e-09  3.17818913e-09  3.23073596e-09  3.70863895e-09  4.59001740e-01  4.59001740e-01  4.59001740e-01  1.61431576e-07  1.76375039e-07  6.20000000e-01 
 6.30000000e-01  3.18811764e-09  3.17818913e-09  3.23073596e-09  3.70863903e-09  4.59001743e-01  4.59001743e-01  4.59001743e-01  1.61431572e-07  1.76374925e-07  6.30000000e-01 
 6.40000000e-01  3.18811764e-09  3.17818918e-09  3.23073596e-09  3.70863901e-09  4.59001725e-01  4.59001724e-01  4.59001725e-01  1.61431545e-07  1.76374854e-07  6.40000000e-01 
 6.50000000e-01  3.18811764e-09  3.17818913e-09  3.23073596e-09  3.70863896e-09  4.59001712e-01  4.59001712e-01  4.59001712e-01  1.61431541e-07  1.76374634e-07  6.50000000e-01 
 6.60000000e-01  3.18811764e-09  3.17818918e-09  3.23073596e-09  3.70863903e-09  4.59001709e-01  4.59001709e-01  4.59001709e-01  1.61431528e-07  1.76374357e-07  6.60000000e-01 
 6.70000000e-01  3.18811764e-09  3.17818913e-09  3.23073596e-09  3.70863895e-09  4.59001743e-01  4.59001743e-01  4.59001743e-01  1.61431583e-07  1.76374449e-07  6.70000000e-01 
 6.80000000e-01  3.18811764e-09  3.17818918e-09  3.23073596e-09  3.70863903e-09  4.59001715e-01  4.59001715e-01  4.59001715e-01  1.61431541e-07  1.76374257e-07  6.80000000e-01 
 6.90000000e-01  3.18811769e-09  3.17818918e-09  3.23073596e-09  3.70863901e-09  4.59001737e-01  4.59001737e-01  4.59001737e-01  1.61431565e-07  1.76374186e-07  6.90000000e-01 
 7.00000000e-01  3.18811764e-09  3.17818918e-09  3.23073591e-09  3.70863896e-09  4.59001723e-01  4.59001723e-01  4.59001723e-01  1.61431553e-07  1.76374073e-07  7.00000000e-01 
 7.10000000e-01  3.18811764e-09  3.17818918e-09  3.23073591e-09  3.70863903e-09  4.59001731e-01  4.59001731e-01  4.59001731e-01  1.61431567e-07  1.76373895e-07  7.10000000e-01 
 7.20000000e-01  3.18811764e-09  3.17818913e-09  3.23073596e-09  3.70863901e-09  4.59001714e-01  4.59001714e-01  4.59001714e-01  1.61431536e-07  1.76373682e-07  7.20000000e-01 
 7.30000000e-01  3.18811764e-09  3.17818913e-09  3.23073596e-09  3.70863901e-09  4.59001729e-01  4.59001729e-01  4.59001729e-01  1.61431544e-07  1.76373533e-07  7.30000000e-01 
 7.40000000e-01  3.18811769e-09  3.17818918e-09  3.23073591e-09  3.70863896e-09  4.59001709e-01  4.59001709e-01  4.59001709e-01  1.61431534e-07  1.76373355e-07  7.40000000e-01 
 7.50000000e-01  3.18811764e-09  3.17818918e-09  3.23073596e-09  3.70863897e-09  4.59001720e-01  4.59001720e-01  4.59001720e-01  1.61431553e-07  1.76373334e-07  7.50000000e-01 
 7.60000000e-01  3.18811764e-09  3.17818913e-09  3.23073591e-09  3.70863896e-09  4.59001730e-01  4.59001730e-01  4.59001730e-01  1.61431557e-07  1.76373248e-07  7.60000000e-01 
 7.70000000e-01  3.18811764e-09  3.17818913e-09  3.23073596e-09  3.70863902e-09  4.59001726e-01  4.59001726e-01  4.59001726e-01  1.61431553e-07  1.76373092e-07  7.70000000e-01 
 7.80000000e-01  3.18811764e-09  3.17818918e-09  3.23073596e-09  3.70863901e-09  4.59001733e-01  4.59001733e-01  4.59001733e-01  1.61431570e-07  1.76372886e-07  7.80000000e-01 
 7.90000000e-01  3.18811764e-09  3.17818913e-09  3.23073596e-09  3.70863901e-09  4.59001719e-01  4.59001719e-01  4.59001719e-01  1.61431543e-07  1.76372680e-07  7.90000000e-01 
 8.00000000e-01  3.18811764e-09  3.17818918e-09  3.23073596e-09  3.70863901e-09  4.59001711e-01  4.59001711e-01  4.59001711e-01  1.61431543e-07  1.76372495e-07  8.00000000e-01 
 8.10000000e-01  3.18811764e-09  3.17818918e-09  3.23073591e-09  3.70863901e-09  4.59001703e-01  4.59001703e-01  4.59001703e-01  1.61431525e-07  1.76372275e-07  8.10000000e-01 
 8.20000000e-01  3.18811764e-09  3.17818913e-09  3.23073596e-09  3.70863901e-09  4.59001726e-01  4.59001726e-01  4.59001726e-01  1.61431562e-07  1.76372282e-07  8.20000000e-01 
 8.30000000e-01  3.18811764e-09  3.17818913e-09  3.23073596e-09  3.70863896e-09  4.59001739e-01  4.59001739e-01  4.59001739e-01  1.61431580e-07  1.76372254e-07  8.30000000e-01 
 8.40000000e-01  3.18811769e-09  3.17818918e-09  3.23073596e-09  3.70863897e-09  4.59001736e-01  4.59001736e-01  4.59001736e-01  1.61431576e-07  1.76372055e-07  8.40000000e-01 
 8.50000000e-01  3.18811764e-09  3.17818918e-09  3.23073596e-09  3.70863902e-09  4.59001709e-01  4.59001709e-01  4.59001709e-01  1.61431528e-07  1.76371898e-07  8.50000000e-01 
 8.60000000e-01  3.18811764e-09  3.17818913e-09  3.23073591e-09  3.70863901e-09  4.59001716e-01  4.59001716e-01  4.59001716e-01  1.61431541e-07  1.76371664e-07  8.60000000e-01 
 8.70000000e-01  3.18811764e-09  3.17818913e-09  3.23073596e-09  3.70863896e-09  4.59001715e-01  4.59001715e-01  4.59001715e-01  1.61431542e-07  1.76371501e-07  8.70000000e-01 
 8.80000000e-01  3.18811764e-09  3.17818918e-09  3.23073596e-09  3.70863897e-09  4.59001731e-01  4.59001731e-01  4.59001731e-01  1.61431570e-07  1.76371486e-07  8.80000000e-01 
 8.90000000e-01  3.18811764e-09  3.17818918e-09  3.23073596e-09  3.70863902e-09  4.59001724e-01  4.59001724e-01  4.59001724e-01  1.61431553e-07  1.76371252e-07  8.90000000e-01 
 9.00000000e-01  3.18811764e-09  3.17818913e-09  3.23073596e-09  3.70863901e-09  4.59001729e-01  4.59001729e-01  4.59001729e-01  1.61431564e-07  1.76371138e-07  9.00000000e-01 
 9.10000000e-01  3.18811764e-09  3.17818918e-09  3.23073596e-09  3.70863901e-09  4.59001718e-01  4.59001718e-01  4.59001718e-01  1.61431552e-07  1.76370840e-07  9.10000000e-01 
 9.20000000e-01  3.18811769e-09  3.17818918e-09  3.23073596e-09  3.70863901e-09  4.59001729e-01  4.59001729e-01  4.59001729e-01  1.61431548e-07  1.76370840e-07  9.20000000e-01 
 9.30000000e-01  3.18811764e-09  3.17818918e-09  3.23073591e-09  3.70863901e-09  4.59001726e-01  4.59001726e-01  4.59001726e-01  1.61431558e-07  1.76370619e-07  9.30000000e-01 
 9.40000000e-01  3.18811764e-09  3.17818918e-09  3.23073591e-09  3.70863901e-09  4.59001702e-01  4.59001702e-01  4.59001702e-01  1.61431532e-07  1.76370435e-07  9.40000000e-01 
 9.50000000e-01  3.18811764e-09  3.17818913e-09  3.23073596e-09  3.70863902e-09  4.59001733e-01  4.59001733e-01  4.59001733e-01  1.61431553e-07  1.76370328e-07  9.50000000e-01 
 9.60000000e-01  3.18811764e-09  3.17818918e-09  3.23073596e-09  3.70863901e-09  4.59001714e-01  4.59001714e-01  4.59001714e-01  1.61431530e-07  1.76370172e-07  9.60000000e-01 
 9.70000000e-01  3.18811764e-09  3.17818912e-09  3.23073596e-09  3.70863901e-09  4.59001706e-01  4.59001706e-01  4.59001706e-01  1.61431519e-07  1.76370065e-07  9.70000000e-01 
 9.80000000e-01  3.18811764e-09  3.17818913e-09  3.23073596e-09  3.70863901e-09  4.59001722e-01  4.59001722e-01  4.59001722e-01  1.61431555e-07  1.76369895e-07  9.80000000e-01 
 9.90000000e-01  3.18811764e-09  3.17818913e-09  3.23073596e-09  3.70863902e-09  4.59001732e-01  4.59001732e-01  4.59001732e-01  1.61431570e-07  1.76369696e-07  9.90000000e-01 
 1.00000000e+00  3.18811769e-09  3.17818913e-09  3.23073596e-09  3.70863901e-09  4.59001720e-01  4.59001720e-01  4.59001720e-01  1.61431541e-07  1.76369490e-07  1.00000000e+00 
 1.01000000e+00  3.18811769e-09  3.17818918e-09  3.23073596e-09  3.70863896e-09  4.59001730e-01  4.59001730e-01  4.59001730e-01  1.61431571e-07  1.76369454e-07  1.01000000e+00 
 1.02000000e+00  3.18811769e-09  3.17818913e-09  3.23073596e-09  3.70863903e-09  4.59001733e-01  4.59001733e-01  4.59001733e-01  1.61431577e-07  1.76369333e-07  1.02000000e+00 
 1.03000000e+00  3.18811764e-09  3.17818919e-09  3.23073596e-09  3.70863901e-09  4.59001748e-01  4.59001748e-01  4.59001748e-01  1.61431593e-07  1.76369177e-07  1.03000000e+00 
 1.04000000e+00  3.18811764e-09  3.17818918e-09  3.23073596e-09  3.70863896e-09  4.59001720e-01  4.59001720e-01  4.59001720e-01  1.61431558e-07  1.76368786e-07  1.04000000e+00 
 1.05000000e+00  3.18811769e-09  3.17818918e-09  3.23073596e-09  3.70863897e-09  4.59001706e-01  4.59001706e-01  4.59001706e-01  1.61431534e-07  1.76368680e-07  1.05000000e+00 
 1.06000000e+00  3.18811764e-09  3.17818918e-09  3.23073596e-09  3.70863902e-09  4.59001706e-01  4.59001706e-01  4.59001706e-01  1.61431531e-07  1.76368459e-07  1.06000000e+00 
 1.07000000e+00  3.18811764e-09  3.17818918e-09  3.23073596e-09  3.70863901e-09  4.59001722e-01  4.59001722e-01  4.59001722e-01  1.61431559e-07  1.76368260e-07  1.07000000e+00 
 1.08000000e+00  3.18811764e-09  3.17818913e-09  3.23073596e-09  3.70863901e-09  4.59001716e-01  4.59001716e-01  4.59001716e-01  1.61431541e-07  1.76368090e-07  1.08000000e+00 
 1.09000000e+00  3.18811764e-09  3.17818918e-09  3.23073596e-09  3.70863902e-09  4.59001736e-01  4.59001736e-01  4.59001736e-01  1.61431566e-07  1.76368040e-07  1.09000000e+00 
 1.10000000e+00  3.18811764e-09  3.17818918e-09  3.23073596e-09  3.70863901e-09  4.59001713e-01  4.59001713e-01  4.59001713e-01  1.61431533e-07  1.76367784e-07  1.10000000e+00 
