 v-sweep         v(b0)           v(b1)           v(b2)           v(b3)           v(b4)           v(b5)           v(b6)           i(vbias)        i(viout)        v(vout)        
 0.00000000e+00  4.59477634e-01  3.26305719e-09  3.64998662e-09  3.34065816e-09  3.07579696e-09  4.59477634e-01  4.59477634e-01  1.63708876e-07  1.49345163e-07  0.00000000e+00 
 1.00000000e-02  4.59477630e-01  3.26305717e-09  3.64998660e-09  3.34065819e-09  3.07579694e-09  4.59477630e-01  4.59477630e-01  1.63708847e-07  1.49344767e-07  1.00000000e-02 
 2.00000000e-02  4.59477631e-01  3.26305717e-09  3.64998665e-09  3.34065819e-09  3.07579700e-09  4.59477631e-01  4.59477631e-01  1.63708864e-07  1.49344409e-07  2.00000000e-02 
 3.00000000e-02  4.59477619e-01  3.26305717e-09  3.64998665e-09  3.34065819e-09  3.07579694e-09  4.59477619e-01  4.59477619e-01  1.63708849e-07  1.49343848e-07  3.00000000e-02 
 4.00000000e-02  4.59477612e-01  3.26305722e-09  3.64998665e-09  3.34065819e-09  3.07579694e-09  4.59477612e-01  4.59477612e-01  1.63708832e-07  1.49343466e-07  4.00000000e-02 
 5.00000000e-02  4.59477628e-01  3.26305717e-09  3.64998665e-09  3.34065819e-09  3.07579700e-09  4.59477628e-01  4.59477628e-01  1.63708857e-07  1.49343084e-07  5.00000000e-02 
 6.00000000e-02  4.59477647e-01  3.26305717e-09  3.64998660e-09  3.34065820e-09  3.07579700e-09  4.59477647e-01  4.59477647e-01  1.63708880e-07  1.49342795e-07  6.00000000e-02 
 7.00000000e-02  4.59477635e-01  3.26305722e-09  3.64998660e-09  3.34065819e-09  3.07579700e-09  4.59477635e-01  4.59477635e-01  1.63708870e-07  1.49342419e-07  7.00000000e-02 
 8.00000000e-02  4.59477635e-01  3.26305717e-09  3.64998660e-09  3.34065819e-09  3.07579694e-09  4.59477635e-01  4.59477635e-01  1.63708863e-07  1.49342086e-07  8.00000000e-02 
 9.00000000e-02  4.59477634e-01  3.26305722e-09  3.64998665e-09  3.34065819e-09  3.07579694e-09  4.59477634e-01  4.59477634e-01  1.63708878e-07  1.49341902e-07  9.00000000e-02 
 1.00000000e-01  4.59477629e-01  3.26305722e-09  3.64998665e-09  3.34065819e-09  3.07579694e-09  4.59477630e-01  4.59477630e-01  1.63708860e-07  1.49341539e-07  1.00000000e-01 
 1.10000000e-01  4.59477621e-01  3.26305722e-09  3.64998660e-09  3.34065819e-09  3.07579700e-09  4.59477621e-01  4.59477621e-01  1.63708851e-07  1.49341359e-07  1.10000000e-01 
 1.20000000e-01  4.59477624e-01  3.26305717e-09  3.64998665e-09  3.34065819e-09  3.07579694e-09  4.59477624e-01  4.59477624e-01  1.63708848e-07  1.49340980e-07  1.20000000e-01 
 1.30000000e-01  4.59477612e-01  3.26305717e-09  3.64998665e-09  3.34065819e-09  3.07579700e-09  4.59477612e-01  4.59477612e-01  1.63708839e-07  1.49340601e-07  1.30000000e-01 
 1.40000000e-01  4.59477633e-01  3.26305722e-09  3.64998665e-09  3.34065819e-09  3.07579700e-09  4.59477633e-01  4.59477633e-01  1.63708864e-07  1.49340424e-07  1.40000000e-01 
 1.50000000e-01  4.59477640e-01  3.26305717e-09  3.64998660e-09  3.34065825e-09  3.07579694e-09  4.59477640e-01  4.59477640e-01  1.63708865e-07  1.49340220e-07  1.50000000e-01 
 1.60000000e-01  4.59477662e-01  3.26305723e-09  3.64998666e-09  3.34065820e-09  3.07579694e-09  4.59477662e-01  4.59477662e-01  1.63708905e-07  1.49339916e-07  1.60000000e-01 
 1.70000000e-01  4.59477642e-01  3.26305721e-09  3.64998666e-09  3.34065820e-09  3.07579694e-09  4.59477642e-01  4.59477642e-01  1.63708882e-07  1.49339767e-07  1.70000000e-01 
 1.80000000e-01  4.59477630e-01  3.26305723e-09  3.64998665e-09  3.34065819e-09  3.07579694e-09  4.59477630e-01  4.59477630e-01  1.63708863e-07  1.49339458e-07  1.80000000e-01 
 1.90000000e-01  4.59477640e-01  3.26305721e-09  3.64998666e-09  3.34065820e-09  3.07579694e-09  4.59477641e-01  4.59477641e-01  1.63708879e-07  1.49339238e-07  1.90000000e-01 
 2.00000000e-01  4.59477639e-01  3.26305723e-09  3.64998666e-09  3.34065819e-09  3.07579694e-09  4.59477639e-01  4.59477639e-01  1.63708859e-07  1.49339115e-07  2.00000000e-01 
 2.10000000e-01  4.59477633e-01  3.26305716e-09  3.64998660e-09  3.34065819e-09  3.07579694e-09  4.59477633e-01  4.59477633e-01  1.63708877e-07  1.49338872e-07  2.10000000e-01 
 2.20000000e-01  4.59477632e-01  3.26305723e-09  3.64998660e-09  3.34065819e-09  3.07579700e-09  4.59477632e-01  4.59477632e-01  1.63708852e-07  1.49338755e-07  2.20000000e-01 
 2.30000000e-01  4.59477617e-01  3.26305721e-09  3.64998665e-09  3.34065819e-09  3.07579694e-09  4.59477617e-01  4.59477617e-01  1.63708852e-07  1.49338494e-07  2.30000000e-01 
 2.40000000e-01  4.59477612e-01  3.26305723e-09  3.64998660e-09  3.34065819e-09  3.07579694e-09  4.59477612e-01  4.59477612e-01  1.63708819e-07  1.49338261e-07  2.40000000e-01 
 2.50000000e-01  4.59477626e-01  3.26305721e-09  3.64998665e-09  3.34065819e-09  3.07579700e-09  4.59477627e-01  4.59477626e-01  1.63708863e-07  1.49338204e-07  2.50000000e-01 
 2.60000000e-01  4.59477618e-01  3.26305723e-09  3.64998665e-09  3.34065819e-09  3.07579694e-09  4.59477619e-01  4.59477619e-01  1.63708849e-07  1.49337900e-07  2.60000000e-01 
 2.70000000e-01  4.59477632e-01  3.26305721e-09  3.64998665e-09  3.34065819e-09  3.07579694e-09  4.59477632e-01  4.59477632e-01  1.63708851e-07  1.49337827e-07  2.70000000e-01 
 2.80000000e-01  4.59477637e-01  3.26305723e-09  3.64998660e-09  3.34065819e-09  3.07579694e-09  4.59477637e-01  4.59477637e-01  1.63708876e-07  1.49337703e-07  2.80000000e-01 
 2.90000000e-01  4.59477629e-01  3.26305716e-09  3.64998665e-09  3.34065819e-09  3.07579694e-09  4.59477630e-01  4.59477630e-01  1.63708863e-07  1.49337517e-07  2.90000000e-01 
 3.00000000e-01  4.59477639e-01  3.26305717e-09  3.64998660e-09  3.34065819e-09  3.07579700e-09  4.59477639e-01  4.59477639e-01  1.63708875e-07  1.49337321e-07  3.00000000e-01 
 3.10000000e-01  4.59477624e-01  3.26305717e-09  3.64998660e-09  3.34065819e-09  3.07579694e-09  4.59477625e-01  4.59477624e-01  1.63708849e-07  1.49337186e-07  3.10000000e-01 
 3.20000000e-01  4.59477619e-01  3.26305717e-09  3.64998660e-09  3.34065819e-09  3.07579694e-09  4.59477620e-01  4.59477619e-01  1.63708845e-07  1.49337009e-07  3.20000000e-01 
 3.30000000e-01  4.59477623e-01  3.26305717e-09  3.64998665e-09  3.34065819e-09  3.07579694e-09  4.59477623e-01  4.59477623e-01  1.63708857e-07  1.49337009e-07  3.30000000e-01 
 3.40000000e-01  4.59477638e-01  3.26305722e-09  3.64998660e-09  3.34065819e-09  3.07579700e-09  4.59477638e-01  4.59477638e-01  1.63708862e-07  1.49336845e-07  3.40000000e-01 
 3.50000000e-01  4.59477648e-01  3.26305717e-09  3.64998660e-09  3.34065820e-09  3.07579694e-09  4.59477648e-01  4.59477648e-01  1.63708896e-07  1.49336799e-07  3.50000000e-01 
 3.60000000e-01  4.59477643e-01  3.26305723e-09  3.64998666e-09  3.34065820e-09  3.07579694e-09  4.59477643e-01  4.59477643e-01  1.63708878e-07  1.49336554e-07  3.60000000e-01 
 3.70000000e-01  4.59477623e-01  3.26305717e-09  3.64998665e-09  3.34065819e-09  3.07579694e-09  4.59477623e-01  4.59477623e-01  1.63708857e-07  1.49336476e-07  3.70000000e-01 
 3.80000000e-01  4.59477614e-01  3.26305722e-09  3.64998665e-09  3.34065819e-09  3.07579694e-09  4.59477614e-01  4.59477614e-01  1.63708843e-07  1.49336223e-07  3.80000000e-01 
 3.90000000e-01  4.59477619e-01  3.26305717e-09  3.64998665e-09  3.34065819e-09  3.07579694e-09  4.59477619e-01  4.59477619e-01  1.63708837e-07  1.49336202e-07  3.90000000e-01 
 4.00000000e-01  4.59477641e-01  3.26305717e-09  3.64998666e-09  3.34065820e-09  3.07579694e-09  4.59477641e-01  4.59477641e-01  1.63708879e-07  1.49336056e-07  4.00000000e-01 
 4.10000000e-01  4.59477616e-01  3.26305717e-09  3.64998660e-09  3.34065819e-09  3.07579694e-09  4.59477616e-01  4.59477616e-01  1.63708836e-07  1.49335850e-07  4.10000000e-01 
 4.20000000e-01  4.59477637e-01  3.26305722e-09  3.64998665e-09  3.34065819e-09  3.07579694e-09  4.59477637e-01  4.59477637e-01  1.63708874e-07  1.49335879e-07  4.20000000e-01 
 4.30000000e-01  4.59477639e-01  3.26305723e-09  3.64998666e-09  3.34065819e-09  3.07579700e-09  4.59477639e-01  4.59477639e-01  1.63708867e-07  1.49335754e-07  4.30000000e-01 
 4.40000000e-01  4.59477647e-01  3.26305723e-09  3.64998660e-09  3.34065820e-09  3.07579700e-09  4.59477647e-01  4.59477647e-01  1.63708896e-07  1.49335669e-07  4.40000000e-01 
 4.50000000e-01  4.59477634e-01  3.26305722e-09  3.64998660e-09  3.34065819e-09  3.07579700e-09  4.59477634e-01  4.59477634e-01  1.63708865e-07  1.49335509e-07  4.50000000e-01 
 4.60000000e-01  4.59477630e-01  3.26305722e-09  3.64998660e-09  3.34065819e-09  3.07579694e-09  4.59477630e-01  4.59477630e-01  1.63708874e-07  1.49335378e-07  4.60000000e-01 
 4.70000000e-01  4.59477633e-01  3.26305722e-09  3.64998665e-09  3.34065819e-09  3.07579694e-09  4.59477633e-01  4.59477633e-01  1.63708858e-07  1.49335300e-07  4.70000000e-01 
 4.80000000e-01  4.59477642e-01  3.26305717e-09  3.64998660e-09  3.34065820e-09  3.07579700e-09  4.59477642e-01  4.59477642e-01  1.63708877e-07  1.49335239e-07  4.80000000e-01 
 4.90000000e-01  4.59477634e-01  3.26305717e-09  3.64998665e-09  3.34065819e-09  3.07579694e-09  4.59477634e-01  4.59477634e-01  1.63708867e-07  1.49335118e-07  4.90000000e-01 
 5.00000000e-01  4.59477628e-01  3.26305717e-09  3.64998660e-09  3.34065819e-09  3.07579694e-09  4.59477628e-01  4.59477628e-01  1.63708848e-07  1.49334948e-07  5.00000000e-01 
 5.10000000e-01  4.59477642e-01  3.26305717e-09  3.64998660e-09  3.34065825e-09  3.07579694e-09  4.59477642e-01  4.59477642e-01  1.63708887e-07  1.49334937e-07  5.10000000e-01 
 5.20000000e-01  4.59477647e-01  3.26305717e-09  3.64998660e-09  3.34065820e-09  3.07579694e-09  4.59477647e-01  4.59477647e-01  1.63708884e-07  1.49334731e-07  5.20000000e-01 
 5.30000000e-01  4.59477633e-01  3.26305722e-09  3.64998660e-09  3.34065819e-09  3.07579694e-09  4.59477633e-01  4.59477633e-01  1.63708858e-07  1.49334554e-07  5.30000000e-01 
 5.40000000e-01  4.59477636e-01  3.26305722e-09  3.64998665e-09  3.34065825e-09  3.07579694e-09  4.59477636e-01  4.59477636e-01  1.63708861e-07  1.49334632e-07  5.40000000e-01 
 5.50000000e-01  4.59477615e-01  3.26305717e-09  3.64998660e-09  3.34065819e-09  3.07579694e-09  4.59477615e-01  4.59477615e-01  1.63708842e-07  1.49334372e-07  5.50000000e-01 
 5.60000000e-01  4.59477616e-01  3.26305717e-09  3.64998665e-09  3.34065819e-09  3.07579700e-09  4.59477616e-01  4.59477616e-01  1.63708842e-07  1.49334262e-07  5.60000000e-01 
 5.70000000e-01  4.59477618e-01  3.26305722e-09  3.64998660e-09  3.34065819e-09  3.07579700e-09  4.59477619e-01  4.59477619e-01  1.63708856e-07  1.49334085e-07  5.70000000e-01 
 5.80000000e-01  4.59477629e-01  3.26305722e-09  3.64998665e-09  3.34065819e-09  3.07579694e-09  4.59477629e-01  4.59477629e-01  1.63708851e-07  1.49334056e-07  5.80000000e-01 
 5.90000000e-01  4.59477636e-01  3.26305722e-09  3.64998665e-09  3.34065819e-09  3.07579694e-09  4.59477637e-01  4.59477637e-01  1.63708874e-07  1.49334070e-07  5.90000000e-01 
 6.00000000e-01  4.59477638e-01  3.26305717e-09  3.64998666e-09  3.34065819e-09  3.07579700e-09  4.59477639e-01  4.59477639e-01  1.63708870e-07  1.49333886e-07  6.00000000e-01 
 6.10000000e-01  4.59477643e-01  3.26305717e-09  3.64998666e-09  3.34065820e-09  3.07579700e-09  4.59477644e-01  4.59477644e-01  1.63708874e-07  1.49333815e-07  6.10000000e-01 
 6.20000000e-01  4.59477636e-01  3.26305722e-09  3.64998665e-09  3.34065819e-09  3.07579700e-09  4.59477636e-01  4.59477636e-01  1.63708868e-07  1.49333722e-07  6.20000000e-01 
 6.30000000e-01  4.59477634e-01  3.26305722e-09  3.64998665e-09  3.34065819e-09  3.07579694e-09  4.59477634e-01  4.59477634e-01  1.63708876e-07  1.49333580e-07  6.30000000e-01 
 6.40000000e-01  4.59477622e-01  3.26305717e-09  3.64998665e-09  3.34065819e-09  3.07579694e-09  4.59477622e-01  4.59477622e-01  1.63708841e-07  1.49333410e-07  6.40000000e-01 
 6.50000000e-01  4.59477634e-01  3.26305717e-09  3.64998660e-09  3.34065819e-09  3.07579694e-09  4.59477634e-01  4.59477634e-01  1.63708861e-07  1.49333466e-07  6.50000000e-01 
 6.60000000e-01  4.59477634e-01  3.26305717e-09  3.64998665e-09  3.34065819e-09  3.07579700e-09  4.59477634e-01  4.59477634e-01  1.63708862e-07  1.49333296e-07  6.60000000e-01 
 6.70000000e-01  4.59477616e-01  3.26305717e-09  3.64998665e-09  3.34065819e-09  3.07579700e-09  4.59477616e-01  4.59477616e-01  1.63708846e-07  1.49333054e-07  6.70000000e-01 
 6.80000000e-01  4.59477614e-01  3.26305717e-09  3.64998665e-09  3.34065819e-09  3.07579694e-09  4.59477614e-01  4.59477614e-01  1.63708828e-07  1.49333026e-07  6.80000000e-01 
 6.90000000e-01  4.59477624e-01  3.26305717e-09  3.64998665e-09  3.34065819e-09  3.07579694e-09  4.59477624e-01  4.59477624e-01  1.63708859e-07  1.49332919e-07  6.90000000e-01 
 7.00000000e-01  4.59477635e-01  3.26305717e-09  3.64998665e-09  3.34065819e-09  3.07579694e-09  4.59477635e-01  4.59477635e-01  1.63708874e-07  1.49332905e-07  7.00000000e-01 
 7.10000000e-01  4.59477635e-01  3.26305722e-09  3.64998665e-09  3.34065819e-09  3.07579700e-09  4.59477635e-01  4.59477635e-01  1.63708855e-07  1.49332749e-07  7.10000000e-01 
 7.20000000e-01  4.59477634e-01  3.26305722e-09  3.64998665e-09  3.34065825e-09  3.07579694e-09  4.59477635e-01  4.59477635e-01  1.63708883e-07  1.49332777e-07  7.20000000e-01 
 7.30000000e-01  4.59477624e-01  3.26305722e-09  3.64998660e-09  3.34065819e-09  3.07579700e-09  4.59477624e-01  4.59477624e-01  1.63708845e-07  1.49332564e-07  7.30000000e-01 
 7.40000000e-01  4.59477641e-01  3.26305723e-09  3.64998660e-09  3.34065820e-09  3.07579694e-09  4.59477641e-01  4.59477641e-01  1.63708880e-07  1.49332507e-07  7.40000000e-01 
 7.50000000e-01  4.59477645e-01  3.26305717e-09  3.64998660e-09  3.34065825e-09  3.07579700e-09  4.59477645e-01  4.59477645e-01  1.63708887e-07  1.49332330e-07  7.50000000e-01 
 7.60000000e-01  4.59477630e-01  3.26305722e-09  3.64998665e-09  3.34065819e-09  3.07579694e-09  4.59477630e-01  4.59477630e-01  1.63708853e-07  1.49332379e-07  7.60000000e-01 
 7.70000000e-01  4.59477624e-01  3.26305722e-09  3.64998660e-09  3.34065819e-09  3.07579694e-09  4.59477624e-01  4.59477624e-01  1.63708858e-07  1.49331996e-07  7.70000000e-01 
 7.80000000e-01  4.59477625e-01  3.26305717e-09  3.64998660e-09  3.34065819e-09  3.07579700e-09  4.59477625e-01  4.59477625e-01  1.63708842e-07  1.49331967e-07  7.80000000e-01 
 7.90000000e-01  4.59477641e-01  3.26305717e-09  3.64998660e-09  3.34065825e-09  3.07579694e-09  4.59477642e-01  4.59477642e-01  1.63708875e-07  1.49331989e-07  7.90000000e-01 
 8.00000000e-01  4.59477654e-01  3.26305717e-09  3.64998666e-09  3.34065820e-09  3.07579694e-09  4.59477654e-01  4.59477654e-01  1.63708877e-07  1.49331846e-07  8.00000000e-01 
 8.10000000e-01  4.59477629e-01  3.26305717e-09  3.64998665e-09  3.34065819e-09  3.07579694e-09  4.59477630e-01  4.59477629e-01  1.63708858e-07  1.49331633e-07  8.10000000e-01 
 8.20000000e-01  4.59477623e-01  3.26305722e-09  3.64998665e-09  3.34065819e-09  3.07579694e-09  4.59477623e-01  4.59477623e-01  1.63708847e-07  1.49331477e-07  8.20000000e-01 
 8.30000000e-01  4.59477640e-01  3.26305723e-09  3.64998666e-09  3.34065820e-09  3.07579694e-09  4.59477640e-01  4.59477640e-01  1.63708873e-07  1.49331406e-07  8.30000000e-01 
 8.40000000e-01  4.59477653e-01  3.26305723e-09  3.64998660e-09  3.34065820e-09  3.07579694e-09  4.59477654e-01  4.59477654e-01  1.63708888e-07  1.49331406e-07  8.40000000e-01 
 8.50000000e-01  4.59477619e-01  3.26305717e-09  3.64998665e-09  3.34065819e-09  3.07579694e-09  4.59477619e-01  4.59477619e-01  1.63708837e-07  1.49331186e-07  8.50000000e-01 
 8.60000000e-01  4.59477640e-01  3.26305717e-09  3.64998666e-09  3.34065819e-09  3.07579694e-09  4.59477640e-01  4.59477640e-01  1.63708877e-07  1.49331044e-07  8.60000000e-01 
 8.70000000e-01  4.59477628e-01  3.26305717e-09  3.64998660e-09  3.34065825e-09  3.07579694e-09  4.59477628e-01  4.59477628e-01  1.63708855e-07  1.49331051e-07  8.70000000e-01 
 8.80000000e-01  4.59477653e-01  3.26305723e-09  3.64998666e-09  3.34065820e-09  3.07579694e-09  4.59477653e-01  4.59477653e-01  1.63708901e-07  1.49330944e-07  8.80000000e-01 
 8.90000000e-01  4.59477622e-01  3.26305722e-09  3.64998660e-09  3.34065819e-09  3.07579694e-09  4.59477622e-01  4.59477622e-01  1.63708850e-07  1.49330774e-07  8.90000000e-01 
 9.00000000e-01  4.59477662e-01  3.26305717e-09  3.64998666e-09  3.34065820e-09  3.07579694e-09  4.59477662e-01  4.59477662e-01  1.63708912e-07  1.49330738e-07  9.00000000e-01 
 9.10000000e-01  4.59477630e-01  3.26305722e-09  3.64998665e-09  3.34065819e-09  3.07579694e-09  4.59477630e-01  4.59477630e-01  1.63708858e-07  1.49330461e-07  9.10000000e-01 
 9.20000000e-01  4.59477628e-01  3.26305717e-09  3.64998665e-09  3.34065819e-09  3.07579694e-09  4.59477629e-01  4.59477629e-01  1.63708861e-07  1.49330354e-07  9.20000000e-01 
 9.30000000e-01  4.59477639e-01  3.26305723e-09  3.64998666e-09  3.34065819e-09  3.07579694e-09  4.59477640e-01  4.59477640e-01  1.63708892e-07  1.49330297e-07  9.30000000e-01 
 9.40000000e-01  4.59477652e-01  3.26305717e-09  3.64998660e-09  3.34065820e-09  3.07579694e-09  4.59477652e-01  4.59477652e-01  1.63708896e-07  1.49330212e-07  9.40000000e-01 
 9.50000000e-01  4.59477630e-01  3.26305717e-09  3.64998665e-09  3.34065819e-09  3.07579694e-09  4.59477630e-01  4.59477630e-01  1.63708865e-07  1.49329949e-07  9.50000000e-01 
 9.60000000e-01  4.59477624e-01  3.26305722e-09  3.64998665e-09  3.34065819e-09  3.07579694e-09  4.59477624e-01  4.59477624e-01  1.63708845e-07  1.49329878e-07  9.60000000e-01 
 9.70000000e-01  4.59477654e-01  3.26305717e-09  3.64998666e-09  3.34065820e-09  3.07579694e-09  4.59477654e-01  4.59477654e-01  1.63708912e-07  1.49329779e-07  9.70000000e-01 
 9.80000000e-01  4.59477652e-01  3.26305723e-09  3.64998660e-09  3.34065820e-09  3.07579694e-09  4.59477652e-01  4.59477652e-01  1.63708890e-07  1.49329644e-07  9.80000000e-01 
 9.90000000e-01  4.59477638e-01  3.26305722e-09  3.64998660e-09  3.34065819e-09  3.07579694e-09  4.59477639e-01  4.59477639e-01  1.63708864e-07  1.49329523e-07  9.90000000e-01 
 1.00000000e+00  4.59477623e-01  3.26305717e-09  3.64998665e-09  3.34065819e-09  3.07579700e-09  4.59477623e-01  4.59477623e-01  1.63708854e-07  1.49329317e-07  1.00000000e+00 
 1.01000000e+00  4.59477647e-01  3.26305723e-09  3.64998666e-09  3.34065820e-09  3.07579700e-09  4.59477647e-01  4.59477647e-01  1.63708896e-07  1.49329395e-07  1.01000000e+00 
 1.02000000e+00  4.59477631e-01  3.26305722e-09  3.64998665e-09  3.34065819e-09  3.07579694e-09  4.59477632e-01  4.59477631e-01  1.63708854e-07  1.49329217e-07  1.02000000e+00 
 1.03000000e+00  4.59477658e-01  3.26305723e-09  3.64998666e-09  3.34065820e-09  3.07579694e-09  4.59477658e-01  4.59477658e-01  1.63708916e-07  1.49329118e-07  1.03000000e+00 
 1.04000000e+00  4.59477635e-01  3.26305716e-09  3.64998660e-09  3.34065819e-09  3.07579694e-09  4.59477635e-01  4.59477635e-01  1.63708880e-07  1.49328798e-07  1.04000000e+00 
 1.05000000e+00  4.59477641e-01  3.26305723e-09  3.64998666e-09  3.34065820e-09  3.07579694e-09  4.59477641e-01  4.59477641e-01  1.63708875e-07  1.49328763e-07  1.05000000e+00 
 1.06000000e+00  4.59477635e-01  3.26305716e-09  3.64998665e-09  3.34065819e-09  3.07579694e-09  4.59477635e-01  4.59477635e-01  1.63708866e-07  1.49328550e-07  1.06000000e+00 
 1.07000000e+00  4.59477622e-01  3.26305723e-09  3.64998660e-09  3.34065819e-09  3.07579694e-09  4.59477622e-01  4.59477622e-01  1.63708847e-07  1.49328528e-07  1.07000000e+00 
 1.08000000e+00  4.59477637e-01  3.26305716e-09  3.64998666e-09  3.34065819e-09  3.07579700e-09  4.59477638e-01  4.59477638e-01  1.63708871e-07  1.49328365e-07  1.08000000e+00 
 1.09000000e+00  4.59477635e-01  3.26305717e-09  3.64998665e-09  3.34065819e-09  3.07579694e-09  4.59477635e-01  4.59477635e-01  1.63708863e-07  1.49328208e-07  1.09000000e+00 
 1.10000000e+00  4.59477611e-01  3.26305722e-09  3.64998665e-09  3.34065819e-09  3.07579694e-09  4.59477612e-01  4.59477612e-01  1.63708834e-07  1.49328031e-07  1.10000000e+00 
