 v-sweep         v(b0)           v(b1)           v(b2)           v(b3)           v(b4)           v(b5)           v(b6)           i(vbias)        i(viout)        v(vout)        
 0.00000000e+00  4.57005011e-01  4.57005011e-01  3.34182807e-09  3.39607612e-09  3.40129858e-09  3.21884398e-09  4.57005011e-01  1.55100851e-07  9.55272652e-08  0.00000000e+00 
 1.00000000e-02  4.57005031e-01  4.57005031e-01  3.34182804e-09  3.39607610e-09  3.40129861e-09  3.21884402e-09  4.57005031e-01  1.55100883e-07  9.55269900e-08  1.00000000e-02 
 2.00000000e-02  4.57005040e-01  4.57005040e-01  3.34182804e-09  3.39607610e-09  3.40129856e-09  3.21884396e-09  4.57005040e-01  1.55100900e-07  9.55264963e-08  2.00000000e-02 
 3.00000000e-02  4.57005021e-01  4.57005021e-01  3.34182804e-09  3.39607610e-09  3.40129856e-09  3.21884396e-09  4.57005021e-01  1.55100873e-07  9.55260582e-08  3.00000000e-02 
 4.00000000e-02  4.57005041e-01  4.57005041e-01  3.34182804e-09  3.39607610e-09  3.40129856e-09  3.21884396e-09  4.57005041e-01  1.55100893e-07  9.55257740e-08  4.00000000e-02 
 5.00000000e-02  4.57005063e-01  4.57005063e-01  3.34182805e-09  3.39607604e-09  3.40129862e-09  3.21884402e-09  4.57005063e-01  1.55100935e-07  9.55254515e-08  5.00000000e-02 
 6.00000000e-02  4.57005037e-01  4.57005037e-01  3.34182804e-09  3.39607610e-09  3.40129856e-09  3.21884402e-09  4.57005037e-01  1.55100894e-07  9.55250763e-08  6.00000000e-02 
 7.00000000e-02  4.57005020e-01  4.57005020e-01  3.34182804e-09  3.39607610e-09  3.40129861e-09  3.21884402e-09  4.57005020e-01  1.55100864e-07  9.55246908e-08  7.00000000e-02 
 8.00000000e-02  4.57005034e-01  4.57005035e-01  3.34182804e-09  3.39607610e-09  3.40129861e-09  3.21884396e-09  4.57005034e-01  1.55100897e-07  9.55245243e-08  8.00000000e-02 
 9.00000000e-02  4.57005024e-01  4.57005024e-01  3.34182804e-09  3.39607610e-09  3.40129861e-09  3.21884402e-09  4.57005024e-01  1.55100886e-07  9.55241335e-08  9.00000000e-02 
 1.00000000e-01  4.57005023e-01  4.57005023e-01  3.34182804e-09  3.39607610e-09  3.40129856e-09  3.21884402e-09  4.57005023e-01  1.55100879e-07  9.55238839e-08  1.00000000e-01 
 1.10000000e-01  4.57005029e-01  4.57005029e-01  3.34182804e-09  3.39607610e-09  3.40129856e-09  3.21884402e-09  4.57005029e-01  1.55100902e-07  9.55236130e-08  1.10000000e-01 
 1.20000000e-01  4.57005020e-01  4.57005020e-01  3.34182804e-09  3.39607610e-09  3.40129856e-09  3.21884396e-09  4.57005020e-01  1.55100883e-07  9.55232826e-08  1.20000000e-01 
 1.30000000e-01  4.57005040e-01  4.57005040e-01  3.34182804e-09  3.39607610e-09  3.40129862e-09  3.21884402e-09  4.57005039e-01  1.55100892e-07  9.55232897e-08  1.30000000e-01 
 1.40000000e-01  4.57005010e-01  4.57005010e-01  3.34182804e-09  3.39607610e-09  3.40129856e-09  3.21884402e-09  4.57005010e-01  1.55100852e-07  9.55229211e-08  1.40000000e-01 
 1.50000000e-01  4.57005038e-01  4.57005038e-01  3.34182804e-09  3.39607610e-09  3.40129861e-09  3.21884396e-09  4.57005038e-01  1.55100904e-07  9.55227950e-08  1.50000000e-01 
 1.60000000e-01  4.57005002e-01  4.57005002e-01  3.34182804e-09  3.39607604e-09  3.40129856e-09  3.21884402e-09  4.57005002e-01  1.55100834e-07  9.55225268e-08  1.60000000e-01 
 1.70000000e-01  4.57005011e-01  4.57005011e-01  3.34182804e-09  3.39607610e-09  3.40129861e-09  3.21884402e-09  4.57005011e-01  1.55100866e-07  9.55222443e-08  1.70000000e-01 
 1.80000000e-01  4.57005007e-01  4.57005007e-01  3.34182804e-09  3.39607610e-09  3.40129856e-09  3.21884402e-09  4.57005007e-01  1.55100867e-07  9.55221253e-08  1.80000000e-01 
 1.90000000e-01  4.57005028e-01  4.57005028e-01  3.34182804e-09  3.39607610e-09  3.40129861e-09  3.21884396e-09  4.57005028e-01  1.55100881e-07  9.55219654e-08  1.90000000e-01 
 2.00000000e-01  4.57005012e-01  4.57005012e-01  3.34182804e-09  3.39607610e-09  3.40129861e-09  3.21884402e-09  4.57005012e-01  1.55100855e-07  9.55217523e-08  2.00000000e-01 
 2.10000000e-01  4.57005025e-01  4.57005025e-01  3.34182804e-09  3.39607610e-09  3.40129861e-09  3.21884402e-09  4.57005025e-01  1.55100883e-07  9.55215764e-08  2.10000000e-01 
 2.20000000e-01  4.57005034e-01  4.57005034e-01  3.34182804e-09  3.39607610e-09  3.40129856e-09  3.21884402e-09  4.57005034e-01  1.55100897e-07  9.55214610e-08  2.20000000e-01 
 2.30000000e-01  4.57005033e-01  4.57005033e-01  3.34182804e-09  3.39607610e-09  3.40129856e-09  3.21884402e-09  4.57005033e-01  1.55100894e-07  9.55213739e-08  2.30000000e-01 
 2.40000000e-01  4.57005023e-01  4.57005023e-01  3.34182804e-09  3.39607610e-09  3.40129856e-09  3.21884402e-09  4.57005023e-01  1.55100888e-07  9.55211181e-08  2.40000000e-01 
 2.50000000e-01  4.57005026e-01  4.57005026e-01  3.34182799e-09  3.39607610e-09  3.40129856e-09  3.21884396e-09  4.57005026e-01  1.55100892e-07  9.55210879e-08  2.50000000e-01 
 2.60000000e-01  4.57005035e-01  4.57005036e-01  3.34182804e-09  3.39607610e-09  3.40129861e-09  3.21884402e-09  4.57005035e-01  1.55100883e-07  9.55209245e-08  2.60000000e-01 
 2.70000000e-01  4.57004991e-01  4.57004991e-01  3.34182804e-09  3.39607610e-09  3.40129861e-09  3.21884401e-09  4.57004991e-01  1.55100838e-07  9.55207344e-08  2.70000000e-01 
 2.80000000e-01  4.57005039e-01  4.57005039e-01  3.34182804e-09  3.39607610e-09  3.40129862e-09  3.21884402e-09  4.57005039e-01  1.55100897e-07  9.55206136e-08  2.80000000e-01 
 2.90000000e-01  4.57005018e-01  4.57005018e-01  3.34182804e-09  3.39607610e-09  3.40129856e-09  3.21884402e-09  4.57005018e-01  1.55100858e-07  9.55204094e-08  2.90000000e-01 
 3.00000000e-01  4.57005040e-01  4.57005040e-01  3.34182804e-09  3.39607610e-09  3.40129856e-09  3.21884402e-09  4.57005040e-01  1.55100906e-07  9.55205017e-08  3.00000000e-01 
 3.10000000e-01  4.57005024e-01  4.57005024e-01  3.34182804e-09  3.39607610e-09  3.40129856e-09  3.21884402e-09  4.57005024e-01  1.55100892e-07  9.55202779e-08  3.10000000e-01 
 3.20000000e-01  4.57005022e-01  4.57005022e-01  3.34182804e-09  3.39607610e-09  3.40129856e-09  3.21884402e-09  4.57005022e-01  1.55100880e-07  9.55201926e-08  3.20000000e-01 
 3.30000000e-01  4.57005021e-01  4.57005021e-01  3.34182804e-09  3.39607610e-09  3.40129856e-09  3.21884396e-09  4.57005021e-01  1.55100892e-07  9.55200044e-08  3.30000000e-01 
 3.40000000e-01  4.57005026e-01  4.57005026e-01  3.34182804e-09  3.39607610e-09  3.40129856e-09  3.21884396e-09  4.57005026e-01  1.55100888e-07  9.55199404e-08  3.40000000e-01 
 3.50000000e-01  4.57005037e-01  4.57005037e-01  3.34182804e-09  3.39607610e-09  3.40129856e-09  3.21884402e-09  4.57005037e-01  1.55100899e-07  9.55199475e-08  3.50000000e-01 
 3.60000000e-01  4.57005016e-01  4.57005016e-01  3.34182804e-09  3.39607610e-09  3.40129856e-09  3.21884402e-09  4.57005016e-01  1.55100872e-07  9.55197201e-08  3.60000000e-01 
 3.70000000e-01  4.57005025e-01  4.57005025e-01  3.34182804e-09  3.39607604e-09  3.40129861e-09  3.21884402e-09  4.57005025e-01  1.55100881e-07  9.55196242e-08  3.70000000e-01 
 3.80000000e-01  4.57005008e-01  4.57005008e-01  3.34182804e-09  3.39607610e-09  3.40129856e-09  3.21884402e-09  4.57005007e-01  1.55100859e-07  9.55194004e-08  3.80000000e-01 
 3.90000000e-01  4.57005052e-01  4.57005052e-01  3.34182804e-09  3.39607610e-09  3.40129856e-09  3.21884396e-09  4.57005052e-01  1.55100916e-07  9.55194750e-08  3.90000000e-01 
 4.00000000e-01  4.57005017e-01  4.57005017e-01  3.34182804e-09  3.39607610e-09  3.40129861e-09  3.21884396e-09  4.57005017e-01  1.55100862e-07  9.55192476e-08  4.00000000e-01 
 4.10000000e-01  4.57005045e-01  4.57005045e-01  3.34182804e-09  3.39607610e-09  3.40129856e-09  3.21884402e-09  4.57005045e-01  1.55100896e-07  9.55193649e-08  4.10000000e-01 
 4.20000000e-01  4.57005030e-01  4.57005030e-01  3.34182804e-09  3.39607610e-09  3.40129856e-09  3.21884396e-09  4.57005030e-01  1.55100886e-07  9.55193045e-08  4.20000000e-01 
 4.30000000e-01  4.57005033e-01  4.57005033e-01  3.34182804e-09  3.39607610e-09  3.40129861e-09  3.21884402e-09  4.57005033e-01  1.55100899e-07  9.55191979e-08  4.30000000e-01 
 4.40000000e-01  4.57004997e-01  4.57004998e-01  3.34182804e-09  3.39607610e-09  3.40129861e-09  3.21884401e-09  4.57004997e-01  1.55100842e-07  9.55189101e-08  4.40000000e-01 
 4.50000000e-01  4.57005023e-01  4.57005023e-01  3.34182804e-09  3.39607610e-09  3.40129856e-09  3.21884396e-09  4.57005023e-01  1.55100883e-07  9.55189101e-08  4.50000000e-01 
 4.60000000e-01  4.57005010e-01  4.57005010e-01  3.34182804e-09  3.39607610e-09  3.40129861e-09  3.21884402e-09  4.57005010e-01  1.55100850e-07  9.55187822e-08  4.60000000e-01 
 4.70000000e-01  4.57005030e-01  4.57005030e-01  3.34182804e-09  3.39607610e-09  3.40129856e-09  3.21884402e-09  4.57005030e-01  1.55100881e-07  9.55186970e-08  4.70000000e-01 
 4.80000000e-01  4.57005010e-01  4.57005010e-01  3.34182804e-09  3.39607610e-09  3.40129861e-09  3.21884396e-09  4.57005010e-01  1.55100867e-07  9.55186223e-08  4.80000000e-01 
 4.90000000e-01  4.57005029e-01  4.57005029e-01  3.34182804e-09  3.39607610e-09  3.40129861e-09  3.21884402e-09  4.57005029e-01  1.55100894e-07  9.55187716e-08  4.90000000e-01 
 5.00000000e-01  4.57005027e-01  4.57005027e-01  3.34182804e-09  3.39607610e-09  3.40129861e-09  3.21884396e-09  4.57005027e-01  1.55100883e-07  9.55185371e-08  5.00000000e-01 
 5.10000000e-01  4.57005054e-01  4.57005054e-01  3.34182804e-09  3.39607610e-09  3.40129856e-09  3.21884402e-09  4.57005054e-01  1.55100925e-07  9.55185335e-08  5.10000000e-01 
 5.20000000e-01  4.57005023e-01  4.57005023e-01  3.34182804e-09  3.39607610e-09  3.40129861e-09  3.21884402e-09  4.57005023e-01  1.55100883e-07  9.55183914e-08  5.20000000e-01 
 5.30000000e-01  4.57005043e-01  4.57005043e-01  3.34182804e-09  3.39607610e-09  3.40129856e-09  3.21884402e-09  4.57005043e-01  1.55100901e-07  9.55183488e-08  5.30000000e-01 
 5.40000000e-01  4.57005021e-01  4.57005021e-01  3.34182804e-09  3.39607610e-09  3.40129856e-09  3.21884402e-09  4.57005021e-01  1.55100871e-07  9.55181321e-08  5.40000000e-01 
 5.50000000e-01  4.57005026e-01  4.57005026e-01  3.34182804e-09  3.39607610e-09  3.40129861e-09  3.21884396e-09  4.57005026e-01  1.55100894e-07  9.55181321e-08  5.50000000e-01 
 5.60000000e-01  4.57005047e-01  4.57005047e-01  3.34182804e-09  3.39607610e-09  3.40129862e-09  3.21884396e-09  4.57005046e-01  1.55100910e-07  9.55182102e-08  5.60000000e-01 
 5.70000000e-01  4.57005014e-01  4.57005014e-01  3.34182804e-09  3.39607610e-09  3.40129861e-09  3.21884396e-09  4.57005014e-01  1.55100856e-07  9.55180255e-08  5.70000000e-01 
 5.80000000e-01  4.57005022e-01  4.57005023e-01  3.34182804e-09  3.39607610e-09  3.40129856e-09  3.21884402e-09  4.57005022e-01  1.55100877e-07  9.55179686e-08  5.80000000e-01 
 5.90000000e-01  4.57005031e-01  4.57005031e-01  3.34182804e-09  3.39607610e-09  3.40129856e-09  3.21884402e-09  4.57005031e-01  1.55100880e-07  9.55179118e-08  5.90000000e-01 
 6.00000000e-01  4.57005025e-01  4.57005025e-01  3.34182804e-09  3.39607610e-09  3.40129861e-09  3.21884402e-09  4.57005024e-01  1.55100887e-07  9.55178692e-08  6.00000000e-01 
 6.10000000e-01  4.57005027e-01  4.57005027e-01  3.34182804e-09  3.39607610e-09  3.40129856e-09  3.21884402e-09  4.57005027e-01  1.55100889e-07  9.55176702e-08  6.10000000e-01 
 6.20000000e-01  4.57005018e-01  4.57005018e-01  3.34182804e-09  3.39607610e-09  3.40129861e-09  3.21884402e-09  4.57005018e-01  1.55100852e-07  9.55176631e-08  6.20000000e-01 
 6.30000000e-01  4.57005042e-01  4.57005042e-01  3.34182804e-09  3.39607610e-09  3.40129856e-09  3.21884402e-09  4.57005042e-01  1.55100912e-07  9.55176773e-08  6.30000000e-01 
 6.40000000e-01  4.57005020e-01  4.57005020e-01  3.34182804e-09  3.39607610e-09  3.40129861e-09  3.21884402e-09  4.57005020e-01  1.55100884e-07  9.55175423e-08  6.40000000e-01 
 6.50000000e-01  4.57005013e-01  4.57005013e-01  3.34182804e-09  3.39607610e-09  3.40129856e-09  3.21884402e-09  4.57005013e-01  1.55100868e-07  9.55173931e-08  6.50000000e-01 
 6.60000000e-01  4.57005036e-01  4.57005036e-01  3.34182804e-09  3.39607610e-09  3.40129856e-09  3.21884402e-09  4.57005036e-01  1.55100894e-07  9.55174428e-08  6.60000000e-01 
 6.70000000e-01  4.57005014e-01  4.57005015e-01  3.34182804e-09  3.39607610e-09  3.40129861e-09  3.21884402e-09  4.57005014e-01  1.55100871e-07  9.55172936e-08  6.70000000e-01 
 6.80000000e-01  4.57005023e-01  4.57005023e-01  3.34182804e-09  3.39607610e-09  3.40129861e-09  3.21884402e-09  4.57005023e-01  1.55100878e-07  9.55172510e-08  6.80000000e-01 
 6.90000000e-01  4.57005023e-01  4.57005023e-01  3.34182799e-09  3.39607610e-09  3.40129856e-09  3.21884402e-09  4.57005023e-01  1.55100882e-07  9.55171515e-08  6.90000000e-01 
 7.00000000e-01  4.57005015e-01  4.57005015e-01  3.34182804e-09  3.39607610e-09  3.40129861e-09  3.21884402e-09  4.57005015e-01  1.55100873e-07  9.55171160e-08  7.00000000e-01 
 7.10000000e-01  4.57005022e-01  4.57005022e-01  3.34182799e-09  3.39607610e-09  3.40129861e-09  3.21884402e-09  4.57005022e-01  1.55100868e-07  9.55168957e-08  7.10000000e-01 
 7.20000000e-01  4.57005035e-01  4.57005035e-01  3.34182804e-09  3.39607610e-09  3.40129856e-09  3.21884402e-09  4.57005035e-01  1.55100894e-07  9.55169455e-08  7.20000000e-01 
 7.30000000e-01  4.57005013e-01  4.57005013e-01  3.34182798e-09  3.39607604e-09  3.40129856e-09  3.21884402e-09  4.57005013e-01  1.55100867e-07  9.55168105e-08  7.30000000e-01 
 7.40000000e-01  4.57005028e-01  4.57005029e-01  3.34182804e-09  3.39607610e-09  3.40129856e-09  3.21884402e-09  4.57005028e-01  1.55100890e-07  9.55167749e-08  7.40000000e-01 
 7.50000000e-01  4.57005046e-01  4.57005046e-01  3.34182804e-09  3.39607610e-09  3.40129862e-09  3.21884396e-09  4.57005046e-01  1.55100905e-07  9.55167820e-08  7.50000000e-01 
 7.60000000e-01  4.57005010e-01  4.57005010e-01  3.34182804e-09  3.39607610e-09  3.40129856e-09  3.21884402e-09  4.57005010e-01  1.55100861e-07  9.55166897e-08  7.60000000e-01 
 7.70000000e-01  4.57005003e-01  4.57005004e-01  3.34182798e-09  3.39607610e-09  3.40129856e-09  3.21884396e-09  4.57005003e-01  1.55100847e-07  9.55164410e-08  7.70000000e-01 
 7.80000000e-01  4.57005028e-01  4.57005028e-01  3.34182804e-09  3.39607610e-09  3.40129861e-09  3.21884396e-09  4.57005028e-01  1.55100884e-07  9.55164978e-08  7.80000000e-01 
 7.90000000e-01  4.57005030e-01  4.57005030e-01  3.34182804e-09  3.39607610e-09  3.40129856e-09  3.21884396e-09  4.57005030e-01  1.55100883e-07  9.55164055e-08  7.90000000e-01 
 8.00000000e-01  4.57005037e-01  4.57005037e-01  3.34182804e-09  3.39607610e-09  3.40129856e-09  3.21884396e-09  4.57005037e-01  1.55100897e-07  9.55163060e-08  8.00000000e-01 
 8.10000000e-01  4.57005034e-01  4.57005035e-01  3.34182804e-09  3.39607610e-09  3.40129856e-09  3.21884396e-09  4.57005034e-01  1.55100895e-07  9.55162847e-08  8.10000000e-01 
 8.20000000e-01  4.57005043e-01  4.57005043e-01  3.34182804e-09  3.39607610e-09  3.40129862e-09  3.21884396e-09  4.57005043e-01  1.55100923e-07  9.55162847e-08  8.20000000e-01 
 8.30000000e-01  4.57005006e-01  4.57005006e-01  3.34182804e-09  3.39607610e-09  3.40129856e-09  3.21884402e-09  4.57005006e-01  1.55100850e-07  9.55160999e-08  8.30000000e-01 
 8.40000000e-01  4.57005051e-01  4.57005051e-01  3.34182804e-09  3.39607610e-09  3.40129862e-09  3.21884396e-09  4.57005051e-01  1.55100925e-07  9.55162207e-08  8.40000000e-01 
 8.50000000e-01  4.57005040e-01  4.57005040e-01  3.34182804e-09  3.39607610e-09  3.40129862e-09  3.21884402e-09  4.57005040e-01  1.55100922e-07  9.55160431e-08  8.50000000e-01 
 8.60000000e-01  4.57005006e-01  4.57005006e-01  3.34182804e-09  3.39607610e-09  3.40129861e-09  3.21884396e-09  4.57005006e-01  1.55100866e-07  9.55158512e-08  8.60000000e-01 
 8.70000000e-01  4.57005027e-01  4.57005027e-01  3.34182804e-09  3.39607610e-09  3.40129861e-09  3.21884396e-09  4.57005027e-01  1.55100871e-07  9.55156878e-08  8.70000000e-01 
 8.80000000e-01  4.57005018e-01  4.57005018e-01  3.34182804e-09  3.39607610e-09  3.40129861e-09  3.21884396e-09  4.57005018e-01  1.55100872e-07  9.55156523e-08  8.80000000e-01 
 8.90000000e-01  4.57005041e-01  4.57005041e-01  3.34182804e-09  3.39607610e-09  3.40129862e-09  3.21884402e-09  4.57005041e-01  1.55100910e-07  9.55157375e-08  8.90000000e-01 
 9.00000000e-01  4.57005045e-01  4.57005045e-01  3.34182804e-09  3.39607610e-09  3.40129862e-09  3.21884396e-09  4.57005045e-01  1.55100916e-07  9.55156736e-08  9.00000000e-01 
 9.10000000e-01  4.57005024e-01  4.57005024e-01  3.34182804e-09  3.39607610e-09  3.40129856e-09  3.21884402e-09  4.57005024e-01  1.55100871e-07  9.55153894e-08  9.10000000e-01 
 9.20000000e-01  4.57005054e-01  4.57005054e-01  3.34182804e-09  3.39607610e-09  3.40129856e-09  3.21884396e-09  4.57005053e-01  1.55100922e-07  9.55154533e-08  9.20000000e-01 
 9.30000000e-01  4.57005008e-01  4.57005008e-01  3.34182798e-09  3.39607610e-09  3.40129856e-09  3.21884402e-09  4.57005008e-01  1.55100864e-07  9.55153681e-08  9.30000000e-01 
 9.40000000e-01  4.57005050e-01  4.57005050e-01  3.34182804e-09  3.39607610e-09  3.40129856e-09  3.21884396e-09  4.57005050e-01  1.55100926e-07  9.55152331e-08  9.40000000e-01 
 9.50000000e-01  4.57005019e-01  4.57005019e-01  3.34182804e-09  3.39607610e-09  3.40129861e-09  3.21884402e-09  4.57005019e-01  1.55100860e-07  9.55151194e-08  9.50000000e-01 
 9.60000000e-01  4.57005050e-01  4.57005050e-01  3.34182804e-09  3.39607610e-09  3.40129856e-09  3.21884402e-09  4.57005050e-01  1.55100918e-07  9.55150696e-08  9.60000000e-01 
 9.70000000e-01  4.57005019e-01  4.57005019e-01  3.34182804e-09  3.39607610e-09  3.40129856e-09  3.21884396e-09  4.57005019e-01  1.55100860e-07  9.55150128e-08  9.70000000e-01 
 9.80000000e-01  4.57005027e-01  4.57005027e-01  3.34182804e-09  3.39607610e-09  3.40129861e-09  3.21884396e-09  4.57005027e-01  1.55100884e-07  9.55149844e-08  9.80000000e-01 
 9.90000000e-01  4.57005001e-01  4.57005001e-01  3.34182804e-09  3.39607610e-09  3.40129855e-09  3.21884396e-09  4.57005001e-01  1.55100843e-07  9.55147428e-08  9.90000000e-01 
 1.00000000e+00  4.57005036e-01  4.57005036e-01  3.34182804e-09  3.39607610e-09  3.40129856e-09  3.21884402e-09  4.57005036e-01  1.55100889e-07  9.55148352e-08  1.00000000e+00 
 1.01000000e+00  4.57005023e-01  4.57005023e-01  3.34182804e-09  3.39607610e-09  3.40129856e-09  3.21884402e-09  4.57005023e-01  1.55100884e-07  9.55146646e-08  1.01000000e+00 
 1.02000000e+00  4.57005028e-01  4.57005029e-01  3.34182804e-09  3.39607604e-09  3.40129861e-09  3.21884402e-09  4.57005028e-01  1.55100872e-07  9.55146930e-08  1.02000000e+00 
 1.03000000e+00  4.57005021e-01  4.57005021e-01  3.34182804e-09  3.39607610e-09  3.40129856e-09  3.21884402e-09  4.57005020e-01  1.55100888e-07  9.55145012e-08  1.03000000e+00 
 1.04000000e+00  4.57004995e-01  4.57004995e-01  3.34182804e-09  3.39607610e-09  3.40129855e-09  3.21884396e-09  4.57004995e-01  1.55100842e-07  9.55144728e-08  1.04000000e+00 
 1.05000000e+00  4.57005040e-01  4.57005040e-01  3.34182804e-09  3.39607610e-09  3.40129856e-09  3.21884402e-09  4.57005040e-01  1.55100914e-07  9.55143520e-08  1.05000000e+00 
 1.06000000e+00  4.57005024e-01  4.57005024e-01  3.34182804e-09  3.39607610e-09  3.40129856e-09  3.21884402e-09  4.57005024e-01  1.55100883e-07  9.55142880e-08  1.06000000e+00 
 1.07000000e+00  4.57005010e-01  4.57005010e-01  3.34182804e-09  3.39607610e-09  3.40129861e-09  3.21884402e-09  4.57005010e-01  1.55100856e-07  9.55141743e-08  1.07000000e+00 
 1.08000000e+00  4.57005043e-01  4.57005043e-01  3.34182804e-09  3.39607610e-09  3.40129856e-09  3.21884402e-09  4.57005043e-01  1.55100916e-07  9.55141886e-08  1.08000000e+00 
 1.09000000e+00  4.57005022e-01  4.57005022e-01  3.34182804e-09  3.39607610e-09  3.40129856e-09  3.21884396e-09  4.57005022e-01  1.55100880e-07  9.55140251e-08  1.09000000e+00 
 1.10000000e+00  4.57005036e-01  4.57005036e-01  3.34182804e-09  3.39607610e-09  3.40129856e-09  3.21884396e-09  4.57005036e-01  1.55100892e-07  9.55139754e-08  1.10000000e+00 
