 v-sweep         v(b0)           v(b1)           v(b2)           v(b3)           v(b4)           v(b5)           v(b6)           i(vbias)        i(viout)        v(vout)        
 0.00000000e+00  3.32289959e-09  4.59503553e-01  4.59503553e-01  4.59503553e-01  4.59503553e-01  4.59503553e-01  4.59503553e-01  1.61919486e-07  1.98827971e-07  0.00000000e+00 
 1.00000000e-02  3.32289965e-09  4.59503567e-01  4.59503567e-01  4.59503567e-01  4.59503567e-01  4.59503567e-01  4.59503567e-01  1.61919504e-07  1.98827531e-07  1.00000000e-02 
 2.00000000e-02  3.32289958e-09  4.59503572e-01  4.59503572e-01  4.59503572e-01  4.59503572e-01  4.59503572e-01  4.59503572e-01  1.61919519e-07  1.98827109e-07  2.00000000e-02 
 3.00000000e-02  3.32289960e-09  4.59503561e-01  4.59503561e-01  4.59503561e-01  4.59503561e-01  4.59503561e-01  4.59503561e-01  1.61919518e-07  1.98826662e-07  3.00000000e-02 
 4.00000000e-02  3.32289965e-09  4.59503571e-01  4.59503571e-01  4.59503571e-01  4.59503570e-01  4.59503571e-01  4.59503570e-01  1.61919515e-07  1.98826286e-07  4.00000000e-02 
 5.00000000e-02  3.32289958e-09  4.59503557e-01  4.59503557e-01  4.59503557e-01  4.59503557e-01  4.59503557e-01  4.59503557e-01  1.61919488e-07  1.98825740e-07  5.00000000e-02 
 6.00000000e-02  3.32289960e-09  4.59503567e-01  4.59503567e-01  4.59503567e-01  4.59503567e-01  4.59503567e-01  4.59503567e-01  1.61919508e-07  1.98825295e-07  6.00000000e-02 
 7.00000000e-02  3.32289959e-09  4.59503563e-01  4.59503563e-01  4.59503563e-01  4.59503563e-01  4.59503563e-01  4.59503563e-01  1.61919507e-07  1.98824865e-07  7.00000000e-02 
 8.00000000e-02  3.32289959e-09  4.59503573e-01  4.59503573e-01  4.59503573e-01  4.59503573e-01  4.59503573e-01  4.59503573e-01  1.61919494e-07  1.98824571e-07  8.00000000e-02 
 9.00000000e-02  3.32289959e-09  4.59503552e-01  4.59503552e-01  4.59503552e-01  4.59503551e-01  4.59503552e-01  4.59503551e-01  1.61919474e-07  1.98824082e-07  9.00000000e-02 
 1.00000000e-01  3.32289959e-09  4.59503566e-01  4.59503566e-01  4.59503566e-01  4.59503566e-01  4.59503566e-01  4.59503566e-01  1.61919502e-07  1.98823793e-07  1.00000000e-01 
 1.10000000e-01  3.32289959e-09  4.59503572e-01  4.59503572e-01  4.59503572e-01  4.59503572e-01  4.59503572e-01  4.59503572e-01  1.61919517e-07  1.98823441e-07  1.10000000e-01 
 1.20000000e-01  3.32289965e-09  4.59503589e-01  4.59503589e-01  4.59503589e-01  4.59503589e-01  4.59503589e-01  4.59503589e-01  1.61919543e-07  1.98823221e-07  1.20000000e-01 
 1.30000000e-01  3.32289964e-09  4.59503558e-01  4.59503558e-01  4.59503558e-01  4.59503558e-01  4.59503558e-01  4.59503558e-01  1.61919489e-07  1.98822784e-07  1.30000000e-01 
 1.40000000e-01  3.32289959e-09  4.59503577e-01  4.59503577e-01  4.59503577e-01  4.59503577e-01  4.59503577e-01  4.59503577e-01  1.61919510e-07  1.98822535e-07  1.40000000e-01 
 1.50000000e-01  3.32289960e-09  4.59503543e-01  4.59503543e-01  4.59503543e-01  4.59503543e-01  4.59503543e-01  4.59503543e-01  1.61919486e-07  1.98822129e-07  1.50000000e-01 
 1.60000000e-01  3.32289959e-09  4.59503581e-01  4.59503581e-01  4.59503581e-01  4.59503581e-01  4.59503581e-01  4.59503581e-01  1.61919513e-07  1.98822045e-07  1.60000000e-01 
 1.70000000e-01  3.32289959e-09  4.59503562e-01  4.59503562e-01  4.59503562e-01  4.59503562e-01  4.59503562e-01  4.59503562e-01  1.61919491e-07  1.98821432e-07  1.70000000e-01 
 1.80000000e-01  3.32289960e-09  4.59503630e-01  4.59503630e-01  4.59503630e-01  4.59503630e-01  4.59503630e-01  4.59503630e-01  1.61919602e-07  1.98821599e-07  1.80000000e-01 
 1.90000000e-01  3.32289965e-09  4.59503571e-01  4.59503571e-01  4.59503571e-01  4.59503571e-01  4.59503571e-01  4.59503571e-01  1.61919522e-07  1.98821057e-07  1.90000000e-01 
 2.00000000e-01  3.32289964e-09  4.59503584e-01  4.59503584e-01  4.59503584e-01  4.59503584e-01  4.59503584e-01  4.59503584e-01  1.61919528e-07  1.98820773e-07  2.00000000e-01 
 2.10000000e-01  3.32289964e-09  4.59503557e-01  4.59503557e-01  4.59503557e-01  4.59503557e-01  4.59503557e-01  4.59503557e-01  1.61919490e-07  1.98820432e-07  2.10000000e-01 
 2.20000000e-01  3.32289959e-09  4.59503575e-01  4.59503575e-01  4.59503575e-01  4.59503575e-01  4.59503575e-01  4.59503575e-01  1.61919512e-07  1.98820315e-07  2.20000000e-01 
 2.30000000e-01  3.32289960e-09  4.59503569e-01  4.59503569e-01  4.59503569e-01  4.59503569e-01  4.59503569e-01  4.59503569e-01  1.61919505e-07  1.98820066e-07  2.30000000e-01 
 2.40000000e-01  3.32289959e-09  4.59503555e-01  4.59503555e-01  4.59503555e-01  4.59503555e-01  4.59503555e-01  4.59503555e-01  1.61919496e-07  1.98819622e-07  2.40000000e-01 
 2.50000000e-01  3.32289959e-09  4.59503575e-01  4.59503575e-01  4.59503575e-01  4.59503575e-01  4.59503575e-01  4.59503575e-01  1.61919520e-07  1.98819571e-07  2.50000000e-01 
 2.60000000e-01  3.32289959e-09  4.59503574e-01  4.59503574e-01  4.59503574e-01  4.59503574e-01  4.59503574e-01  4.59503574e-01  1.61919521e-07  1.98819313e-07  2.60000000e-01 
 2.70000000e-01  3.32289959e-09  4.59503563e-01  4.59503563e-01  4.59503563e-01  4.59503563e-01  4.59503563e-01  4.59503563e-01  1.61919509e-07  1.98819020e-07  2.70000000e-01 
 2.80000000e-01  3.32289965e-09  4.59503598e-01  4.59503598e-01  4.59503598e-01  4.59503598e-01  4.59503598e-01  4.59503598e-01  1.61919553e-07  1.98818956e-07  2.80000000e-01 
 2.90000000e-01  3.32289958e-09  4.59503567e-01  4.59503567e-01  4.59503567e-01  4.59503567e-01  4.59503567e-01  4.59503567e-01  1.61919500e-07  1.98818682e-07  2.90000000e-01 
 3.00000000e-01  3.32289960e-09  4.59503559e-01  4.59503559e-01  4.59503559e-01  4.59503559e-01  4.59503559e-01  4.59503559e-01  1.61919497e-07  1.98818430e-07  3.00000000e-01 
 3.10000000e-01  3.32289959e-09  4.59503567e-01  4.59503567e-01  4.59503567e-01  4.59503567e-01  4.59503567e-01  4.59503567e-01  1.61919504e-07  1.98818267e-07  3.10000000e-01 
 3.20000000e-01  3.32289959e-09  4.59503538e-01  4.59503538e-01  4.59503538e-01  4.59503538e-01  4.59503538e-01  4.59503538e-01  1.61919465e-07  1.98817879e-07  3.20000000e-01 
 3.30000000e-01  3.32289959e-09  4.59503581e-01  4.59503581e-01  4.59503581e-01  4.59503581e-01  4.59503581e-01  4.59503581e-01  1.61919522e-07  1.98817887e-07  3.30000000e-01 
 3.40000000e-01  3.32289959e-09  4.59503563e-01  4.59503563e-01  4.59503563e-01  4.59503563e-01  4.59503563e-01  4.59503563e-01  1.61919499e-07  1.98817677e-07  3.40000000e-01 
 3.50000000e-01  3.32289965e-09  4.59503584e-01  4.59503584e-01  4.59503584e-01  4.59503584e-01  4.59503584e-01  4.59503584e-01  1.61919529e-07  1.98817482e-07  3.50000000e-01 
 3.60000000e-01  3.32289958e-09  4.59503540e-01  4.59503540e-01  4.59503540e-01  4.59503540e-01  4.59503540e-01  4.59503540e-01  1.61919468e-07  1.98817087e-07  3.60000000e-01 
 3.70000000e-01  3.32289960e-09  4.59503573e-01  4.59503573e-01  4.59503573e-01  4.59503573e-01  4.59503573e-01  4.59503573e-01  1.61919512e-07  1.98817087e-07  3.70000000e-01 
 3.80000000e-01  3.32289959e-09  4.59503572e-01  4.59503572e-01  4.59503572e-01  4.59503572e-01  4.59503572e-01  4.59503572e-01  1.61919513e-07  1.98816863e-07  3.80000000e-01 
 3.90000000e-01  3.32289959e-09  4.59503554e-01  4.59503554e-01  4.59503554e-01  4.59503554e-01  4.59503554e-01  4.59503554e-01  1.61919484e-07  1.98816654e-07  3.90000000e-01 
 4.00000000e-01  3.32289960e-09  4.59503586e-01  4.59503586e-01  4.59503586e-01  4.59503585e-01  4.59503586e-01  4.59503585e-01  1.61919523e-07  1.98816636e-07  4.00000000e-01 
 4.10000000e-01  3.32289965e-09  4.59503547e-01  4.59503547e-01  4.59503547e-01  4.59503547e-01  4.59503547e-01  4.59503547e-01  1.61919475e-07  1.98816270e-07  4.10000000e-01 
 4.20000000e-01  3.32289964e-09  4.59503597e-01  4.59503597e-01  4.59503597e-01  4.59503597e-01  4.59503597e-01  4.59503597e-01  1.61919555e-07  1.98816210e-07  4.20000000e-01 
 4.30000000e-01  3.32289958e-09  4.59503554e-01  4.59503554e-01  4.59503554e-01  4.59503554e-01  4.59503554e-01  4.59503554e-01  1.61919485e-07  1.98815911e-07  4.30000000e-01 
 4.40000000e-01  3.32289960e-09  4.59503550e-01  4.59503551e-01  4.59503550e-01  4.59503550e-01  4.59503550e-01  4.59503550e-01  1.61919482e-07  1.98815783e-07  4.40000000e-01 
 4.50000000e-01  3.32289959e-09  4.59503535e-01  4.59503535e-01  4.59503535e-01  4.59503534e-01  4.59503535e-01  4.59503534e-01  1.61919457e-07  1.98815428e-07  4.50000000e-01 
 4.60000000e-01  3.32289965e-09  4.59503573e-01  4.59503573e-01  4.59503573e-01  4.59503573e-01  4.59503573e-01  4.59503573e-01  1.61919516e-07  1.98815322e-07  4.60000000e-01 
 4.70000000e-01  3.32289964e-09  4.59503551e-01  4.59503551e-01  4.59503551e-01  4.59503551e-01  4.59503551e-01  4.59503551e-01  1.61919482e-07  1.98815044e-07  4.70000000e-01 
 4.80000000e-01  3.32289965e-09  4.59503617e-01  4.59503617e-01  4.59503617e-01  4.59503617e-01  4.59503617e-01  4.59503617e-01  1.61919577e-07  1.98815219e-07  4.80000000e-01 
 4.90000000e-01  3.32289959e-09  4.59503558e-01  4.59503559e-01  4.59503558e-01  4.59503558e-01  4.59503558e-01  4.59503558e-01  1.61919487e-07  1.98814739e-07  4.90000000e-01 
 5.00000000e-01  3.32289960e-09  4.59503558e-01  4.59503558e-01  4.59503558e-01  4.59503558e-01  4.59503558e-01  4.59503558e-01  1.61919490e-07  1.98814572e-07  5.00000000e-01 
 5.10000000e-01  3.32289959e-09  4.59503582e-01  4.59503582e-01  4.59503582e-01  4.59503582e-01  4.59503582e-01  4.59503582e-01  1.61919516e-07  1.98814519e-07  5.10000000e-01 
 5.20000000e-01  3.32289959e-09  4.59503562e-01  4.59503562e-01  4.59503562e-01  4.59503562e-01  4.59503562e-01  4.59503562e-01  1.61919501e-07  1.98814288e-07  5.20000000e-01 
 5.30000000e-01  3.32289959e-09  4.59503546e-01  4.59503546e-01  4.59503546e-01  4.59503546e-01  4.59503546e-01  4.59503546e-01  1.61919473e-07  1.98813968e-07  5.30000000e-01 
 5.40000000e-01  3.32289959e-09  4.59503565e-01  4.59503565e-01  4.59503565e-01  4.59503565e-01  4.59503565e-01  4.59503565e-01  1.61919504e-07  1.98813911e-07  5.40000000e-01 
 5.50000000e-01  3.32289959e-09  4.59503557e-01  4.59503557e-01  4.59503557e-01  4.59503557e-01  4.59503557e-01  4.59503557e-01  1.61919502e-07  1.98813652e-07  5.50000000e-01 
 5.60000000e-01  3.32289959e-09  4.59503549e-01  4.59503549e-01  4.59503549e-01  4.59503549e-01  4.59503549e-01  4.59503549e-01  1.61919469e-07  1.98813506e-07  5.60000000e-01 
 5.70000000e-01  3.32289965e-09  4.59503567e-01  4.59503567e-01  4.59503567e-01  4.59503567e-01  4.59503567e-01  4.59503567e-01  1.61919502e-07  1.98813339e-07  5.70000000e-01 
 5.80000000e-01  3.32289964e-09  4.59503568e-01  4.59503568e-01  4.59503568e-01  4.59503568e-01  4.59503568e-01  4.59503568e-01  1.61919499e-07  1.98813133e-07  5.80000000e-01 
 5.90000000e-01  3.32289958e-09  4.59503554e-01  4.59503554e-01  4.59503554e-01  4.59503554e-01  4.59503554e-01  4.59503554e-01  1.61919484e-07  1.98812963e-07  5.90000000e-01 
 6.00000000e-01  3.32289960e-09  4.59503583e-01  4.59503583e-01  4.59503583e-01  4.59503583e-01  4.59503583e-01  4.59503583e-01  1.61919538e-07  1.98812934e-07  6.00000000e-01 
 6.10000000e-01  3.32289959e-09  4.59503557e-01  4.59503557e-01  4.59503557e-01  4.59503557e-01  4.59503557e-01  4.59503557e-01  1.61919479e-07  1.98812707e-07  6.10000000e-01 
 6.20000000e-01  3.32289959e-09  4.59503562e-01  4.59503562e-01  4.59503562e-01  4.59503562e-01  4.59503562e-01  4.59503562e-01  1.61919498e-07  1.98812472e-07  6.20000000e-01 
 6.30000000e-01  3.32289959e-09  4.59503559e-01  4.59503559e-01  4.59503559e-01  4.59503559e-01  4.59503559e-01  4.59503559e-01  1.61919497e-07  1.98812309e-07  6.30000000e-01 
 6.40000000e-01  3.32289965e-09  4.59503565e-01  4.59503565e-01  4.59503565e-01  4.59503565e-01  4.59503565e-01  4.59503565e-01  1.61919489e-07  1.98812195e-07  6.40000000e-01 
 6.50000000e-01  3.32289958e-09  4.59503560e-01  4.59503560e-01  4.59503560e-01  4.59503560e-01  4.59503560e-01  4.59503560e-01  1.61919496e-07  1.98811996e-07  6.50000000e-01 
 6.60000000e-01  3.32289966e-09  4.59503587e-01  4.59503587e-01  4.59503587e-01  4.59503586e-01  4.59503587e-01  4.59503587e-01  1.61919524e-07  1.98811925e-07  6.60000000e-01 
 6.70000000e-01  3.32289958e-09  4.59503562e-01  4.59503562e-01  4.59503562e-01  4.59503561e-01  4.59503562e-01  4.59503562e-01  1.61919504e-07  1.98811556e-07  6.70000000e-01 
 6.80000000e-01  3.32289960e-09  4.59503584e-01  4.59503584e-01  4.59503584e-01  4.59503584e-01  4.59503584e-01  4.59503584e-01  1.61919532e-07  1.98811485e-07  6.80000000e-01 
 6.90000000e-01  3.32289959e-09  4.59503546e-01  4.59503546e-01  4.59503546e-01  4.59503546e-01  4.59503546e-01  4.59503546e-01  1.61919480e-07  1.98811087e-07  6.90000000e-01 
 7.00000000e-01  3.32289960e-09  4.59503612e-01  4.59503612e-01  4.59503612e-01  4.59503612e-01  4.59503612e-01  4.59503612e-01  1.61919574e-07  1.98811229e-07  7.00000000e-01 
 7.10000000e-01  3.32289959e-09  4.59503567e-01  4.59503567e-01  4.59503567e-01  4.59503567e-01  4.59503567e-01  4.59503567e-01  1.61919495e-07  1.98810802e-07  7.10000000e-01 
 7.20000000e-01  3.32289959e-09  4.59503580e-01  4.59503580e-01  4.59503580e-01  4.59503580e-01  4.59503580e-01  4.59503580e-01  1.61919525e-07  1.98810746e-07  7.20000000e-01 
 7.30000000e-01  3.32289959e-09  4.59503575e-01  4.59503575e-01  4.59503575e-01  4.59503575e-01  4.59503575e-01  4.59503575e-01  1.61919512e-07  1.98810575e-07  7.30000000e-01 
 7.40000000e-01  3.32289959e-09  4.59503565e-01  4.59503565e-01  4.59503565e-01  4.59503565e-01  4.59503565e-01  4.59503565e-01  1.61919507e-07  1.98810177e-07  7.40000000e-01 
 7.50000000e-01  3.32289959e-09  4.59503572e-01  4.59503573e-01  4.59503573e-01  4.59503572e-01  4.59503572e-01  4.59503572e-01  1.61919498e-07  1.98810099e-07  7.50000000e-01 
 7.60000000e-01  3.32289960e-09  4.59503588e-01  4.59503588e-01  4.59503588e-01  4.59503588e-01  4.59503588e-01  4.59503588e-01  1.61919533e-07  1.98810113e-07  7.60000000e-01 
 7.70000000e-01  3.32289959e-09  4.59503553e-01  4.59503553e-01  4.59503553e-01  4.59503553e-01  4.59503553e-01  4.59503553e-01  1.61919480e-07  1.98809602e-07  7.70000000e-01 
 7.80000000e-01  3.32289960e-09  4.59503588e-01  4.59503588e-01  4.59503588e-01  4.59503588e-01  4.59503588e-01  4.59503588e-01  1.61919536e-07  1.98809616e-07  7.80000000e-01 
 7.90000000e-01  3.32289959e-09  4.59503565e-01  4.59503565e-01  4.59503565e-01  4.59503565e-01  4.59503565e-01  4.59503565e-01  1.61919500e-07  1.98809353e-07  7.90000000e-01 
 8.00000000e-01  3.32289959e-09  4.59503572e-01  4.59503572e-01  4.59503572e-01  4.59503571e-01  4.59503572e-01  4.59503571e-01  1.61919521e-07  1.98809154e-07  8.00000000e-01 
 8.10000000e-01  3.32289965e-09  4.59503553e-01  4.59503553e-01  4.59503553e-01  4.59503553e-01  4.59503553e-01  4.59503553e-01  1.61919492e-07  1.98808877e-07  8.10000000e-01 
 8.20000000e-01  3.32289964e-09  4.59503581e-01  4.59503581e-01  4.59503581e-01  4.59503581e-01  4.59503581e-01  4.59503581e-01  1.61919518e-07  1.98808927e-07  8.20000000e-01 
 8.30000000e-01  3.32289959e-09  4.59503564e-01  4.59503565e-01  4.59503564e-01  4.59503564e-01  4.59503564e-01  4.59503564e-01  1.61919487e-07  1.98808529e-07  8.30000000e-01 
 8.40000000e-01  3.32289960e-09  4.59503587e-01  4.59503587e-01  4.59503587e-01  4.59503587e-01  4.59503587e-01  4.59503587e-01  1.61919530e-07  1.98808479e-07  8.40000000e-01 
 8.50000000e-01  3.32289959e-09  4.59503545e-01  4.59503545e-01  4.59503545e-01  4.59503545e-01  4.59503545e-01  4.59503545e-01  1.61919476e-07  1.98807975e-07  8.50000000e-01 
 8.60000000e-01  3.32289959e-09  4.59503569e-01  4.59503569e-01  4.59503569e-01  4.59503569e-01  4.59503569e-01  4.59503569e-01  1.61919509e-07  1.98808003e-07  8.60000000e-01 
 8.70000000e-01  3.32289959e-09  4.59503540e-01  4.59503540e-01  4.59503540e-01  4.59503540e-01  4.59503540e-01  4.59503540e-01  1.61919478e-07  1.98807562e-07  8.70000000e-01 
 8.80000000e-01  3.32289960e-09  4.59503599e-01  4.59503599e-01  4.59503599e-01  4.59503599e-01  4.59503599e-01  4.59503599e-01  1.61919546e-07  1.98807648e-07  8.80000000e-01 
 8.90000000e-01  3.32289965e-09  4.59503570e-01  4.59503570e-01  4.59503570e-01  4.59503570e-01  4.59503570e-01  4.59503570e-01  1.61919503e-07  1.98807356e-07  8.90000000e-01 
 9.00000000e-01  3.32289964e-09  4.59503553e-01  4.59503553e-01  4.59503553e-01  4.59503553e-01  4.59503553e-01  4.59503553e-01  1.61919472e-07  1.98806987e-07  9.00000000e-01 
 9.10000000e-01  3.32289959e-09  4.59503568e-01  4.59503568e-01  4.59503568e-01  4.59503568e-01  4.59503568e-01  4.59503568e-01  1.61919507e-07  1.98806951e-07  9.10000000e-01 
 9.20000000e-01  3.32289965e-09  4.59503554e-01  4.59503554e-01  4.59503554e-01  4.59503554e-01  4.59503554e-01  4.59503554e-01  1.61919503e-07  1.98806610e-07  9.20000000e-01 
 9.30000000e-01  3.32289958e-09  4.59503557e-01  4.59503557e-01  4.59503557e-01  4.59503556e-01  4.59503557e-01  4.59503557e-01  1.61919486e-07  1.98806461e-07  9.30000000e-01 
 9.40000000e-01  3.32289960e-09  4.59503561e-01  4.59503561e-01  4.59503561e-01  4.59503561e-01  4.59503561e-01  4.59503561e-01  1.61919515e-07  1.98806227e-07  9.40000000e-01 
 9.50000000e-01  3.32289959e-09  4.59503555e-01  4.59503555e-01  4.59503555e-01  4.59503555e-01  4.59503555e-01  4.59503555e-01  1.61919500e-07  1.98805949e-07  9.50000000e-01 
 9.60000000e-01  3.32289959e-09  4.59503571e-01  4.59503571e-01  4.59503571e-01  4.59503571e-01  4.59503571e-01  4.59503571e-01  1.61919510e-07  1.98805814e-07  9.60000000e-01 
 9.70000000e-01  3.32289959e-09  4.59503572e-01  4.59503572e-01  4.59503572e-01  4.59503572e-01  4.59503572e-01  4.59503572e-01  1.61919502e-07  1.98805537e-07  9.70000000e-01 
 9.80000000e-01  3.32289959e-09  4.59503551e-01  4.59503551e-01  4.59503551e-01  4.59503551e-01  4.59503551e-01  4.59503551e-01  1.61919483e-07  1.98805303e-07  9.80000000e-01 
 9.90000000e-01  3.32289965e-09  4.59503595e-01  4.59503595e-01  4.59503595e-01  4.59503595e-01  4.59503595e-01  4.59503595e-01  1.61919544e-07  1.98805267e-07  9.90000000e-01 
 1.00000000e+00  3.32289964e-09  4.59503565e-01  4.59503565e-01  4.59503565e-01  4.59503565e-01  4.59503565e-01  4.59503565e-01  1.61919507e-07  1.98804841e-07  1.00000000e+00 
 1.01000000e+00  3.32289964e-09  4.59503566e-01  4.59503566e-01  4.59503566e-01  4.59503565e-01  4.59503566e-01  4.59503566e-01  1.61919501e-07  1.98804806e-07  1.01000000e+00 
 1.02000000e+00  3.32289964e-09  4.59503563e-01  4.59503563e-01  4.59503563e-01  4.59503563e-01  4.59503563e-01  4.59503563e-01  1.61919500e-07  1.98804429e-07  1.02000000e+00 
 1.03000000e+00  3.32289959e-09  4.59503599e-01  4.59503599e-01  4.59503599e-01  4.59503599e-01  4.59503599e-01  4.59503599e-01  1.61919549e-07  1.98804415e-07  1.03000000e+00 
 1.04000000e+00  3.32289960e-09  4.59503567e-01  4.59503567e-01  4.59503567e-01  4.59503566e-01  4.59503567e-01  4.59503567e-01  1.61919487e-07  1.98804024e-07  1.04000000e+00 
 1.05000000e+00  3.32289965e-09  4.59503572e-01  4.59503572e-01  4.59503572e-01  4.59503572e-01  4.59503572e-01  4.59503572e-01  1.61919502e-07  1.98803789e-07  1.05000000e+00 
 1.06000000e+00  3.32289958e-09  4.59503587e-01  4.59503587e-01  4.59503587e-01  4.59503586e-01  4.59503587e-01  4.59503587e-01  1.61919551e-07  1.98803647e-07  1.06000000e+00 
 1.07000000e+00  3.32289960e-09  4.59503554e-01  4.59503554e-01  4.59503554e-01  4.59503554e-01  4.59503554e-01  4.59503554e-01  1.61919475e-07  1.98803249e-07  1.07000000e+00 
 1.08000000e+00  3.32289965e-09  4.59503587e-01  4.59503587e-01  4.59503587e-01  4.59503587e-01  4.59503587e-01  4.59503587e-01  1.61919524e-07  1.98803029e-07  1.08000000e+00 
 1.09000000e+00  3.32289958e-09  4.59503563e-01  4.59503563e-01  4.59503563e-01  4.59503563e-01  4.59503563e-01  4.59503563e-01  1.61919495e-07  1.98802852e-07  1.09000000e+00 
 1.10000000e+00  3.32289960e-09  4.59503574e-01  4.59503574e-01  4.59503574e-01  4.59503573e-01  4.59503574e-01  4.59503574e-01  1.61919514e-07  1.98802539e-07  1.10000000e+00 
