 v-sweep         v(b0)           v(b1)           v(b2)           v(b3)           v(b4)           v(b5)           v(b6)           i(vbias)        i(viout)        v(vout)        
 0.00000000e+00  4.60757981e-01  3.41342634e-09  3.56792363e-09  4.60757981e-01  3.31362533e-09  4.60757981e-01  3.37936068e-09  1.62539744e-07  6.61677323e-08  0.00000000e+00 
 1.00000000e-02  4.60757987e-01  3.41342631e-09  3.56792360e-09  4.60757987e-01  3.31362530e-09  4.60757987e-01  3.37936071e-09  1.62539747e-07  6.61673119e-08  1.00000000e-02 
 2.00000000e-02  4.60757975e-01  3.41342633e-09  3.56792360e-09  4.60757975e-01  3.31362530e-09  4.60757975e-01  3.37936071e-09  1.62539724e-07  6.61669408e-08  2.00000000e-02 
 3.00000000e-02  4.60757974e-01  3.41342631e-09  3.56792366e-09  4.60757974e-01  3.31362530e-09  4.60757974e-01  3.37936071e-09  1.62539744e-07  6.61665878e-08  3.00000000e-02 
 4.00000000e-02  4.60757989e-01  3.41342633e-09  3.56792366e-09  4.60757989e-01  3.31362530e-09  4.60757989e-01  3.37936071e-09  1.62539757e-07  6.61662387e-08  4.00000000e-02 
 5.00000000e-02  4.60757981e-01  3.41342631e-09  3.56792360e-09  4.60757981e-01  3.31362530e-09  4.60757981e-01  3.37936071e-09  1.62539751e-07  6.61658643e-08  5.00000000e-02 
 6.00000000e-02  4.60757976e-01  3.41342627e-09  3.56792366e-09  4.60757976e-01  3.31362536e-09  4.60757976e-01  3.37936071e-09  1.62539735e-07  6.61655188e-08  6.00000000e-02 
 7.00000000e-02  4.60757991e-01  3.41342632e-09  3.56792366e-09  4.60757991e-01  3.31362530e-09  4.60757991e-01  3.37936071e-09  1.62539762e-07  6.61652932e-08  7.00000000e-02 
 8.00000000e-02  4.60757989e-01  3.41342631e-09  3.56792360e-09  4.60757989e-01  3.31362530e-09  4.60757989e-01  3.37936071e-09  1.62539766e-07  6.61650130e-08  8.00000000e-02 
 9.00000000e-02  4.60758002e-01  3.41342633e-09  3.56792366e-09  4.60758002e-01  3.31362530e-09  4.60758002e-01  3.37936071e-09  1.62539766e-07  6.61648158e-08  9.00000000e-02 
 1.00000000e-01  4.60757983e-01  3.41342631e-09  3.56792366e-09  4.60757983e-01  3.31362530e-09  4.60757983e-01  3.37936071e-09  1.62539760e-07  6.61645361e-08  1.00000000e-01 
 1.10000000e-01  4.60757982e-01  3.41342633e-09  3.56792360e-09  4.60757982e-01  3.31362530e-09  4.60757982e-01  3.37936071e-09  1.62539751e-07  6.61641897e-08  1.10000000e-01 
 1.20000000e-01  4.60757983e-01  3.41342631e-09  3.56792366e-09  4.60757983e-01  3.31362530e-09  4.60757983e-01  3.37936071e-09  1.62539741e-07  6.61639863e-08  1.20000000e-01 
 1.30000000e-01  4.60757987e-01  3.41342633e-09  3.56792366e-09  4.60757987e-01  3.31362530e-09  4.60757987e-01  3.37936071e-09  1.62539745e-07  6.61638113e-08  1.30000000e-01 
 1.40000000e-01  4.60757978e-01  3.41342631e-09  3.56792366e-09  4.60757978e-01  3.31362530e-09  4.60757978e-01  3.37936071e-09  1.62539739e-07  6.61634845e-08  1.40000000e-01 
 1.50000000e-01  4.60757962e-01  3.41342633e-09  3.56792360e-09  4.60757962e-01  3.31362530e-09  4.60757962e-01  3.37936071e-09  1.62539711e-07  6.61633379e-08  1.50000000e-01 
 1.60000000e-01  4.60757990e-01  3.41342631e-09  3.56792360e-09  4.60757990e-01  3.31362530e-09  4.60757990e-01  3.37936071e-09  1.62539766e-07  6.61631709e-08  1.60000000e-01 
 1.70000000e-01  4.60757979e-01  3.41342633e-09  3.56792366e-09  4.60757979e-01  3.31362530e-09  4.60757979e-01  3.37936065e-09  1.62539754e-07  6.61629542e-08  1.70000000e-01 
 1.80000000e-01  4.60757972e-01  3.41342631e-09  3.56792366e-09  4.60757972e-01  3.31362530e-09  4.60757972e-01  3.37936071e-09  1.62539735e-07  6.61628636e-08  1.80000000e-01 
 1.90000000e-01  4.60757994e-01  3.41342633e-09  3.56792366e-09  4.60757994e-01  3.31362530e-09  4.60757994e-01  3.37936071e-09  1.62539760e-07  6.61625101e-08  1.90000000e-01 
 2.00000000e-01  4.60757977e-01  3.41342631e-09  3.56792360e-09  4.60757977e-01  3.31362530e-09  4.60757977e-01  3.37936071e-09  1.62539749e-07  6.61623414e-08  2.00000000e-01 
 2.10000000e-01  4.60757960e-01  3.41342633e-09  3.56792366e-09  4.60757960e-01  3.31362530e-09  4.60757960e-01  3.37936071e-09  1.62539707e-07  6.61622916e-08  2.10000000e-01 
 2.20000000e-01  4.60757981e-01  3.41342631e-09  3.56792360e-09  4.60757981e-01  3.31362530e-09  4.60757981e-01  3.37936071e-09  1.62539744e-07  6.61621531e-08  2.20000000e-01 
 2.30000000e-01  4.60758002e-01  3.41342633e-09  3.56792361e-09  4.60758002e-01  3.31362536e-09  4.60758002e-01  3.37936071e-09  1.62539772e-07  6.61619257e-08  2.30000000e-01 
 2.40000000e-01  4.60757972e-01  3.41342631e-09  3.56792360e-09  4.60757972e-01  3.31362530e-09  4.60757972e-01  3.37936071e-09  1.62539727e-07  6.61618245e-08  2.40000000e-01 
 2.50000000e-01  4.60757988e-01  3.41342633e-09  3.56792366e-09  4.60757988e-01  3.31362536e-09  4.60757988e-01  3.37936071e-09  1.62539765e-07  6.61617232e-08  2.50000000e-01 
 2.60000000e-01  4.60757986e-01  3.41342631e-09  3.56792366e-09  4.60757986e-01  3.31362530e-09  4.60757986e-01  3.37936071e-09  1.62539749e-07  6.61614905e-08  2.60000000e-01 
 2.70000000e-01  4.60757977e-01  3.41342633e-09  3.56792366e-09  4.60757977e-01  3.31362530e-09  4.60757977e-01  3.37936071e-09  1.62539747e-07  6.61614319e-08  2.70000000e-01 
 2.80000000e-01  4.60757995e-01  3.41342631e-09  3.56792366e-09  4.60757995e-01  3.31362536e-09  4.60757995e-01  3.37936071e-09  1.62539766e-07  6.61613289e-08  2.80000000e-01 
 2.90000000e-01  4.60757974e-01  3.41342633e-09  3.56792366e-09  4.60757974e-01  3.31362530e-09  4.60757974e-01  3.37936071e-09  1.62539736e-07  6.61611956e-08  2.90000000e-01 
 3.00000000e-01  4.60757971e-01  3.41342631e-09  3.56792366e-09  4.60757970e-01  3.31362530e-09  4.60757971e-01  3.37936071e-09  1.62539740e-07  6.61611530e-08  3.00000000e-01 
 3.10000000e-01  4.60757986e-01  3.41342633e-09  3.56792366e-09  4.60757986e-01  3.31362530e-09  4.60757986e-01  3.37936071e-09  1.62539749e-07  6.61609540e-08  3.10000000e-01 
 3.20000000e-01  4.60757988e-01  3.41342631e-09  3.56792366e-09  4.60757988e-01  3.31362530e-09  4.60757988e-01  3.37936071e-09  1.62539754e-07  6.61608972e-08  3.20000000e-01 
 3.30000000e-01  4.60757991e-01  3.41342627e-09  3.56792366e-09  4.60757991e-01  3.31362530e-09  4.60757991e-01  3.37936071e-09  1.62539756e-07  6.61606450e-08  3.30000000e-01 
 3.40000000e-01  4.60757981e-01  3.41342632e-09  3.56792366e-09  4.60757981e-01  3.31362530e-09  4.60757981e-01  3.37936071e-09  1.62539745e-07  6.61605917e-08  3.40000000e-01 
 3.50000000e-01  4.60757995e-01  3.41342631e-09  3.56792366e-09  4.60757995e-01  3.31362530e-09  4.60757995e-01  3.37936071e-09  1.62539783e-07  6.61605739e-08  3.50000000e-01 
 3.60000000e-01  4.60758006e-01  3.41342627e-09  3.56792366e-09  4.60758006e-01  3.31362530e-09  4.60758006e-01  3.37936071e-09  1.62539798e-07  6.61605668e-08  3.60000000e-01 
 3.70000000e-01  4.60757969e-01  3.41342632e-09  3.56792366e-09  4.60757969e-01  3.31362530e-09  4.60757969e-01  3.37936071e-09  1.62539741e-07  6.61604602e-08  3.70000000e-01 
 3.80000000e-01  4.60757995e-01  3.41342631e-09  3.56792360e-09  4.60757995e-01  3.31362530e-09  4.60757995e-01  3.37936071e-09  1.62539770e-07  6.61602932e-08  3.80000000e-01 
 3.90000000e-01  4.60757993e-01  3.41342633e-09  3.56792366e-09  4.60757993e-01  3.31362530e-09  4.60757993e-01  3.37936071e-09  1.62539755e-07  6.61603075e-08  3.90000000e-01 
 4.00000000e-01  4.60757983e-01  3.41342631e-09  3.56792360e-09  4.60757983e-01  3.31362530e-09  4.60757983e-01  3.37936071e-09  1.62539752e-07  6.61602151e-08  4.00000000e-01 
 4.10000000e-01  4.60757970e-01  3.41342627e-09  3.56792360e-09  4.60757970e-01  3.31362530e-09  4.60757970e-01  3.37936071e-09  1.62539727e-07  6.61600659e-08  4.10000000e-01 
 4.20000000e-01  4.60757989e-01  3.41342632e-09  3.56792360e-09  4.60757989e-01  3.31362530e-09  4.60757989e-01  3.37936071e-09  1.62539764e-07  6.61601192e-08  4.20000000e-01 
 4.30000000e-01  4.60757993e-01  3.41342631e-09  3.56792366e-09  4.60757993e-01  3.31362530e-09  4.60757994e-01  3.37936071e-09  1.62539762e-07  6.61599380e-08  4.30000000e-01 
 4.40000000e-01  4.60757990e-01  3.41342633e-09  3.56792360e-09  4.60757990e-01  3.31362536e-09  4.60757990e-01  3.37936071e-09  1.62539760e-07  6.61598456e-08  4.40000000e-01 
 4.50000000e-01  4.60757980e-01  3.41342631e-09  3.56792360e-09  4.60757980e-01  3.31362530e-09  4.60757980e-01  3.37936071e-09  1.62539752e-07  6.61597461e-08  4.50000000e-01 
 4.60000000e-01  4.60757978e-01  3.41342633e-09  3.56792366e-09  4.60757978e-01  3.31362530e-09  4.60757978e-01  3.37936071e-09  1.62539750e-07  6.61596715e-08  4.60000000e-01 
 4.70000000e-01  4.60757997e-01  3.41342631e-09  3.56792360e-09  4.60757996e-01  3.31362530e-09  4.60757997e-01  3.37936071e-09  1.62539776e-07  6.61595685e-08  4.70000000e-01 
 4.80000000e-01  4.60757977e-01  3.41342633e-09  3.56792360e-09  4.60757977e-01  3.31362530e-09  4.60757977e-01  3.37936071e-09  1.62539745e-07  6.61595259e-08  4.80000000e-01 
 4.90000000e-01  4.60757974e-01  3.41342631e-09  3.56792366e-09  4.60757974e-01  3.31362530e-09  4.60757974e-01  3.37936077e-09  1.62539736e-07  6.61594051e-08  4.90000000e-01 
 5.00000000e-01  4.60757999e-01  3.41342633e-09  3.56792360e-09  4.60757999e-01  3.31362530e-09  4.60757999e-01  3.37936070e-09  1.62539786e-07  6.61594193e-08  5.00000000e-01 
 5.10000000e-01  4.60757994e-01  3.41342631e-09  3.56792366e-09  4.60757994e-01  3.31362530e-09  4.60757994e-01  3.37936072e-09  1.62539778e-07  6.61593731e-08  5.10000000e-01 
 5.20000000e-01  4.60757997e-01  3.41342633e-09  3.56792360e-09  4.60757997e-01  3.31362530e-09  4.60757997e-01  3.37936071e-09  1.62539760e-07  6.61593624e-08  5.20000000e-01 
 5.30000000e-01  4.60757984e-01  3.41342631e-09  3.56792366e-09  4.60757984e-01  3.31362530e-09  4.60757984e-01  3.37936077e-09  1.62539754e-07  6.61591883e-08  5.30000000e-01 
 5.40000000e-01  4.60758005e-01  3.41342627e-09  3.56792366e-09  4.60758005e-01  3.31362530e-09  4.60758005e-01  3.37936076e-09  1.62539780e-07  6.61592132e-08  5.40000000e-01 
 5.50000000e-01  4.60757992e-01  3.41342632e-09  3.56792366e-09  4.60757992e-01  3.31362530e-09  4.60757992e-01  3.37936071e-09  1.62539775e-07  6.61590818e-08  5.50000000e-01 
 5.60000000e-01  4.60757990e-01  3.41342631e-09  3.56792360e-09  4.60757990e-01  3.31362530e-09  4.60757990e-01  3.37936072e-09  1.62539755e-07  6.61591280e-08  5.60000000e-01 
 5.70000000e-01  4.60757989e-01  3.41342627e-09  3.56792366e-09  4.60757989e-01  3.31362530e-09  4.60757989e-01  3.37936071e-09  1.62539748e-07  6.61588757e-08  5.70000000e-01 
 5.80000000e-01  4.60757984e-01  3.41342632e-09  3.56792366e-09  4.60757984e-01  3.31362530e-09  4.60757984e-01  3.37936071e-09  1.62539746e-07  6.61588473e-08  5.80000000e-01 
 5.90000000e-01  4.60757991e-01  3.41342631e-09  3.56792366e-09  4.60757991e-01  3.31362530e-09  4.60757991e-01  3.37936071e-09  1.62539760e-07  6.61588686e-08  5.90000000e-01 
 6.00000000e-01  4.60757975e-01  3.41342633e-09  3.56792366e-09  4.60757975e-01  3.31362530e-09  4.60757975e-01  3.37936071e-09  1.62539719e-07  6.61587407e-08  6.00000000e-01 
 6.10000000e-01  4.60757968e-01  3.41342631e-09  3.56792366e-09  4.60757968e-01  3.31362536e-09  4.60757968e-01  3.37936071e-09  1.62539736e-07  6.61586981e-08  6.10000000e-01 
 6.20000000e-01  4.60757972e-01  3.41342633e-09  3.56792360e-09  4.60757972e-01  3.31362530e-09  4.60757972e-01  3.37936071e-09  1.62539724e-07  6.61586199e-08  6.20000000e-01 
 6.30000000e-01  4.60757975e-01  3.41342631e-09  3.56792360e-09  4.60757975e-01  3.31362530e-09  4.60757975e-01  3.37936071e-09  1.62539754e-07  6.61585133e-08  6.30000000e-01 
 6.40000000e-01  4.60757991e-01  3.41342633e-09  3.56792366e-09  4.60757990e-01  3.31362530e-09  4.60757991e-01  3.37936071e-09  1.62539757e-07  6.61583641e-08  6.40000000e-01 
 6.50000000e-01  4.60757994e-01  3.41342631e-09  3.56792366e-09  4.60757994e-01  3.31362530e-09  4.60757994e-01  3.37936071e-09  1.62539757e-07  6.61584281e-08  6.50000000e-01 
 6.60000000e-01  4.60757983e-01  3.41342633e-09  3.56792360e-09  4.60757983e-01  3.31362530e-09  4.60757983e-01  3.37936071e-09  1.62539751e-07  6.61584068e-08  6.60000000e-01 
 6.70000000e-01  4.60757976e-01  3.41342631e-09  3.56792366e-09  4.60757976e-01  3.31362530e-09  4.60757976e-01  3.37936071e-09  1.62539748e-07  6.61583215e-08  6.70000000e-01 
 6.80000000e-01  4.60757990e-01  3.41342627e-09  3.56792360e-09  4.60757990e-01  3.31362530e-09  4.60757990e-01  3.37936077e-09  1.62539746e-07  6.61583002e-08  6.80000000e-01 
 6.90000000e-01  4.60757994e-01  3.41342632e-09  3.56792366e-09  4.60757994e-01  3.31362530e-09  4.60757994e-01  3.37936070e-09  1.62539760e-07  6.61583002e-08  6.90000000e-01 
 7.00000000e-01  4.60757999e-01  3.41342631e-09  3.56792366e-09  4.60757999e-01  3.31362530e-09  4.60757999e-01  3.37936066e-09  1.62539779e-07  6.61581154e-08  7.00000000e-01 
 7.10000000e-01  4.60757986e-01  3.41342633e-09  3.56792360e-09  4.60757986e-01  3.31362536e-09  4.60757986e-01  3.37936071e-09  1.62539775e-07  6.61579875e-08  7.10000000e-01 
 7.20000000e-01  4.60757985e-01  3.41342631e-09  3.56792366e-09  4.60757985e-01  3.31362530e-09  4.60757985e-01  3.37936077e-09  1.62539764e-07  6.61580586e-08  7.20000000e-01 
 7.30000000e-01  4.60757981e-01  3.41342627e-09  3.56792360e-09  4.60757981e-01  3.31362530e-09  4.60757981e-01  3.37936070e-09  1.62539741e-07  6.61579449e-08  7.30000000e-01 
 7.40000000e-01  4.60757985e-01  3.41342632e-09  3.56792360e-09  4.60757985e-01  3.31362530e-09  4.60757985e-01  3.37936072e-09  1.62539750e-07  6.61578881e-08  7.40000000e-01 
 7.50000000e-01  4.60757979e-01  3.41342631e-09  3.56792366e-09  4.60757979e-01  3.31362530e-09  4.60757979e-01  3.37936071e-09  1.62539736e-07  6.61578454e-08  7.50000000e-01 
 7.60000000e-01  4.60758001e-01  3.41342633e-09  3.56792366e-09  4.60758001e-01  3.31362530e-09  4.60758001e-01  3.37936071e-09  1.62539776e-07  6.61578667e-08  7.60000000e-01 
 7.70000000e-01  4.60757980e-01  3.41342631e-09  3.56792360e-09  4.60757980e-01  3.31362530e-09  4.60757980e-01  3.37936071e-09  1.62539748e-07  6.61575257e-08  7.70000000e-01 
 7.80000000e-01  4.60757972e-01  3.41342633e-09  3.56792366e-09  4.60757972e-01  3.31362530e-09  4.60757972e-01  3.37936071e-09  1.62539747e-07  6.61574830e-08  7.80000000e-01 
 7.90000000e-01  4.60757996e-01  3.41342631e-09  3.56792366e-09  4.60757996e-01  3.31362530e-09  4.60757996e-01  3.37936071e-09  1.62539765e-07  6.61575825e-08  7.90000000e-01 
 8.00000000e-01  4.60757999e-01  3.41342627e-09  3.56792360e-09  4.60757999e-01  3.31362530e-09  4.60757999e-01  3.37936071e-09  1.62539768e-07  6.61573409e-08  8.00000000e-01 
 8.10000000e-01  4.60757984e-01  3.41342632e-09  3.56792366e-09  4.60757984e-01  3.31362530e-09  4.60757984e-01  3.37936071e-09  1.62539749e-07  6.61574546e-08  8.10000000e-01 
 8.20000000e-01  4.60757985e-01  3.41342631e-09  3.56792360e-09  4.60757984e-01  3.31362530e-09  4.60757985e-01  3.37936071e-09  1.62539761e-07  6.61572983e-08  8.20000000e-01 
 8.30000000e-01  4.60757993e-01  3.41342633e-09  3.56792360e-09  4.60757993e-01  3.31362530e-09  4.60757993e-01  3.37936071e-09  1.62539757e-07  6.61573836e-08  8.30000000e-01 
 8.40000000e-01  4.60758001e-01  3.41342631e-09  3.56792361e-09  4.60758001e-01  3.31362530e-09  4.60758001e-01  3.37936071e-09  1.62539778e-07  6.61573480e-08  8.40000000e-01 
 8.50000000e-01  4.60757995e-01  3.41342633e-09  3.56792366e-09  4.60757995e-01  3.31362530e-09  4.60757995e-01  3.37936071e-09  1.62539776e-07  6.61571775e-08  8.50000000e-01 
 8.60000000e-01  4.60757977e-01  3.41342631e-09  3.56792360e-09  4.60757977e-01  3.31362530e-09  4.60757977e-01  3.37936071e-09  1.62539729e-07  6.61571349e-08  8.60000000e-01 
 8.70000000e-01  4.60758002e-01  3.41342633e-09  3.56792361e-09  4.60758002e-01  3.31362530e-09  4.60758002e-01  3.37936071e-09  1.62539778e-07  6.61570425e-08  8.70000000e-01 
 8.80000000e-01  4.60757989e-01  3.41342631e-09  3.56792360e-09  4.60757989e-01  3.31362530e-09  4.60757989e-01  3.37936071e-09  1.62539766e-07  6.61569359e-08  8.80000000e-01 
 8.90000000e-01  4.60757993e-01  3.41342633e-09  3.56792360e-09  4.60757993e-01  3.31362530e-09  4.60757993e-01  3.37936071e-09  1.62539761e-07  6.61568791e-08  8.90000000e-01 
 9.00000000e-01  4.60757965e-01  3.41342631e-09  3.56792360e-09  4.60757965e-01  3.31362530e-09  4.60757965e-01  3.37936071e-09  1.62539729e-07  6.61567938e-08  9.00000000e-01 
 9.10000000e-01  4.60757986e-01  3.41342633e-09  3.56792366e-09  4.60757986e-01  3.31362530e-09  4.60757986e-01  3.37936071e-09  1.62539741e-07  6.61567370e-08  9.10000000e-01 
 9.20000000e-01  4.60757991e-01  3.41342631e-09  3.56792360e-09  4.60757991e-01  3.31362530e-09  4.60757991e-01  3.37936071e-09  1.62539781e-07  6.61567654e-08  9.20000000e-01 
 9.30000000e-01  4.60757969e-01  3.41342627e-09  3.56792360e-09  4.60757969e-01  3.31362536e-09  4.60757969e-01  3.37936071e-09  1.62539737e-07  6.61566233e-08  9.30000000e-01 
 9.40000000e-01  4.60758002e-01  3.41342632e-09  3.56792361e-09  4.60758002e-01  3.31362530e-09  4.60758002e-01  3.37936071e-09  1.62539795e-07  6.61565238e-08  9.40000000e-01 
 9.50000000e-01  4.60758006e-01  3.41342631e-09  3.56792361e-09  4.60758006e-01  3.31362530e-09  4.60758006e-01  3.37936071e-09  1.62539798e-07  6.61565096e-08  9.50000000e-01 
 9.60000000e-01  4.60758011e-01  3.41342633e-09  3.56792366e-09  4.60758011e-01  3.31362530e-09  4.60758011e-01  3.37936071e-09  1.62539794e-07  6.61564101e-08  9.60000000e-01 
 9.70000000e-01  4.60757982e-01  3.41342631e-09  3.56792360e-09  4.60757982e-01  3.31362530e-09  4.60757982e-01  3.37936071e-09  1.62539743e-07  6.61563675e-08  9.70000000e-01 
 9.80000000e-01  4.60757995e-01  3.41342633e-09  3.56792360e-09  4.60757995e-01  3.31362530e-09  4.60757995e-01  3.37936071e-09  1.62539776e-07  6.61561899e-08  9.80000000e-01 
 9.90000000e-01  4.60757968e-01  3.41342631e-09  3.56792366e-09  4.60757968e-01  3.31362530e-09  4.60757968e-01  3.37936071e-09  1.62539738e-07  6.61561188e-08  9.90000000e-01 
 1.00000000e+00  4.60758002e-01  3.41342633e-09  3.56792366e-09  4.60758002e-01  3.31362530e-09  4.60758002e-01  3.37936071e-09  1.62539780e-07  6.61560193e-08  1.00000000e+00 
 1.01000000e+00  4.60757999e-01  3.41342631e-09  3.56792366e-09  4.60757999e-01  3.31362530e-09  4.60757999e-01  3.37936071e-09  1.62539766e-07  6.61560620e-08  1.01000000e+00 
 1.02000000e+00  4.60757980e-01  3.41342633e-09  3.56792366e-09  4.60757980e-01  3.31362530e-09  4.60757980e-01  3.37936071e-09  1.62539741e-07  6.61560478e-08  1.02000000e+00 
 1.03000000e+00  4.60757979e-01  3.41342631e-09  3.56792360e-09  4.60757978e-01  3.31362530e-09  4.60757979e-01  3.37936071e-09  1.62539749e-07  6.61558417e-08  1.03000000e+00 
 1.04000000e+00  4.60757982e-01  3.41342627e-09  3.56792360e-09  4.60757982e-01  3.31362530e-09  4.60757982e-01  3.37936071e-09  1.62539750e-07  6.61558275e-08  1.04000000e+00 
 1.05000000e+00  4.60757983e-01  3.41342632e-09  3.56792360e-09  4.60757983e-01  3.31362530e-09  4.60757983e-01  3.37936071e-09  1.62539757e-07  6.61557209e-08  1.05000000e+00 
 1.06000000e+00  4.60757976e-01  3.41342631e-09  3.56792360e-09  4.60757976e-01  3.31362530e-09  4.60757976e-01  3.37936071e-09  1.62539734e-07  6.61557351e-08  1.06000000e+00 
 1.07000000e+00  4.60757987e-01  3.41342627e-09  3.56792360e-09  4.60757987e-01  3.31362530e-09  4.60757987e-01  3.37936071e-09  1.62539768e-07  6.61555433e-08  1.07000000e+00 
 1.08000000e+00  4.60757965e-01  3.41342632e-09  3.56792366e-09  4.60757965e-01  3.31362530e-09  4.60757965e-01  3.37936071e-09  1.62539725e-07  6.61554225e-08  1.08000000e+00 
 1.09000000e+00  4.60758022e-01  3.41342631e-09  3.56792366e-09  4.60758022e-01  3.31362530e-09  4.60758022e-01  3.37936072e-09  1.62539815e-07  6.61555077e-08  1.09000000e+00 
 1.10000000e+00  4.60757996e-01  3.41342627e-09  3.56792366e-09  4.60757996e-01  3.31362530e-09  4.60757996e-01  3.37936071e-09  1.62539765e-07  6.61554083e-08  1.10000000e+00 
