 v-sweep         v(b0)           v(b1)           v(b2)           v(b3)           v(b4)           v(b5)           v(b6)           i(vbias)        i(viout)        v(vout)        
 0.00000000e+00  4.58978647e-01  4.58978647e-01  3.53022017e-09  4.58978647e-01  3.15754707e-09  3.29972214e-09  4.58978647e-01  1.59674150e-07  1.15581942e-07  0.00000000e+00 
 1.00000000e-02  4.58978655e-01  4.58978655e-01  3.53022015e-09  4.58978655e-01  3.15754710e-09  3.29972217e-09  4.58978655e-01  1.59674166e-07  1.15581603e-07  1.00000000e-02 
 2.00000000e-02  4.58978636e-01  4.58978636e-01  3.53022014e-09  4.58978636e-01  3.15754710e-09  3.29972211e-09  4.58978636e-01  1.59674141e-07  1.15581084e-07  2.00000000e-02 
 3.00000000e-02  4.58978640e-01  4.58978640e-01  3.53022020e-09  4.58978640e-01  3.15754710e-09  3.29972211e-09  4.58978640e-01  1.59674144e-07  1.15580800e-07  3.00000000e-02 
 4.00000000e-02  4.58978641e-01  4.58978641e-01  3.53022015e-09  4.58978641e-01  3.15754704e-09  3.29972211e-09  4.58978641e-01  1.59674155e-07  1.15580358e-07  4.00000000e-02 
 5.00000000e-02  4.58978651e-01  4.58978651e-01  3.53022015e-09  4.58978651e-01  3.15754710e-09  3.29972211e-09  4.58978651e-01  1.59674162e-07  1.15580116e-07  5.00000000e-02 
 6.00000000e-02  4.58978650e-01  4.58978650e-01  3.53022020e-09  4.58978650e-01  3.15754710e-09  3.29972211e-09  4.58978650e-01  1.59674178e-07  1.15579716e-07  6.00000000e-02 
 7.00000000e-02  4.58978637e-01  4.58978637e-01  3.53022015e-09  4.58978637e-01  3.15754710e-09  3.29972217e-09  4.58978637e-01  1.59674137e-07  1.15579437e-07  7.00000000e-02 
 8.00000000e-02  4.58978656e-01  4.58978656e-01  3.53022015e-09  4.58978656e-01  3.15754710e-09  3.29972211e-09  4.58978656e-01  1.59674161e-07  1.15579096e-07  8.00000000e-02 
 9.00000000e-02  4.58978625e-01  4.58978625e-01  3.53022020e-09  4.58978625e-01  3.15754704e-09  3.29972217e-09  4.58978625e-01  1.59674123e-07  1.15578774e-07  9.00000000e-02 
 1.00000000e-01  4.58978643e-01  4.58978643e-01  3.53022020e-09  4.58978643e-01  3.15754710e-09  3.29972217e-09  4.58978643e-01  1.59674162e-07  1.15578573e-07  1.00000000e-01 
 1.10000000e-01  4.58978654e-01  4.58978654e-01  3.53022015e-09  4.58978654e-01  3.15754710e-09  3.29972211e-09  4.58978654e-01  1.59674170e-07  1.15578395e-07  1.10000000e-01 
 1.20000000e-01  4.58978647e-01  4.58978647e-01  3.53022020e-09  4.58978647e-01  3.15754704e-09  3.29972217e-09  4.58978647e-01  1.59674163e-07  1.15578082e-07  1.20000000e-01 
 1.30000000e-01  4.58978630e-01  4.58978630e-01  3.53022014e-09  4.58978630e-01  3.15754704e-09  3.29972211e-09  4.58978630e-01  1.59674133e-07  1.15577714e-07  1.30000000e-01 
 1.40000000e-01  4.58978660e-01  4.58978660e-01  3.53022020e-09  4.58978660e-01  3.15754710e-09  3.29972211e-09  4.58978660e-01  1.59674169e-07  1.15577611e-07  1.40000000e-01 
 1.50000000e-01  4.58978641e-01  4.58978641e-01  3.53022015e-09  4.58978641e-01  3.15754710e-09  3.29972217e-09  4.58978641e-01  1.59674151e-07  1.15577361e-07  1.50000000e-01 
 1.60000000e-01  4.58978655e-01  4.58978655e-01  3.53022015e-09  4.58978655e-01  3.15754710e-09  3.29972211e-09  4.58978655e-01  1.59674168e-07  1.15577052e-07  1.60000000e-01 
 1.70000000e-01  4.58978642e-01  4.58978642e-01  3.53022015e-09  4.58978642e-01  3.15754704e-09  3.29972211e-09  4.58978642e-01  1.59674148e-07  1.15576924e-07  1.70000000e-01 
 1.80000000e-01  4.58978659e-01  4.58978659e-01  3.53022020e-09  4.58978659e-01  3.15754704e-09  3.29972217e-09  4.58978659e-01  1.59674172e-07  1.15576757e-07  1.80000000e-01 
 1.90000000e-01  4.58978632e-01  4.58978632e-01  3.53022020e-09  4.58978632e-01  3.15754710e-09  3.29972217e-09  4.58978632e-01  1.59674128e-07  1.15576499e-07  1.90000000e-01 
 2.00000000e-01  4.58978655e-01  4.58978655e-01  3.53022015e-09  4.58978655e-01  3.15754710e-09  3.29972211e-09  4.58978655e-01  1.59674171e-07  1.15576402e-07  2.00000000e-01 
 2.10000000e-01  4.58978648e-01  4.58978648e-01  3.53022015e-09  4.58978648e-01  3.15754710e-09  3.29972211e-09  4.58978648e-01  1.59674172e-07  1.15576231e-07  2.10000000e-01 
 2.20000000e-01  4.58978645e-01  4.58978645e-01  3.53022020e-09  4.58978645e-01  3.15754710e-09  3.29972217e-09  4.58978645e-01  1.59674152e-07  1.15576064e-07  2.20000000e-01 
 2.30000000e-01  4.58978637e-01  4.58978637e-01  3.53022015e-09  4.58978637e-01  3.15754710e-09  3.29972211e-09  4.58978637e-01  1.59674133e-07  1.15575894e-07  2.30000000e-01 
 2.40000000e-01  4.58978645e-01  4.58978645e-01  3.53022020e-09  4.58978645e-01  3.15754710e-09  3.29972217e-09  4.58978645e-01  1.59674165e-07  1.15575700e-07  2.40000000e-01 
 2.50000000e-01  4.58978656e-01  4.58978657e-01  3.53022020e-09  4.58978656e-01  3.15754710e-09  3.29972211e-09  4.58978656e-01  1.59674168e-07  1.15575588e-07  2.50000000e-01 
 2.60000000e-01  4.58978656e-01  4.58978656e-01  3.53022015e-09  4.58978656e-01  3.15754704e-09  3.29972211e-09  4.58978656e-01  1.59674169e-07  1.15575437e-07  2.60000000e-01 
 2.70000000e-01  4.58978643e-01  4.58978643e-01  3.53022015e-09  4.58978643e-01  3.15754710e-09  3.29972211e-09  4.58978643e-01  1.59674148e-07  1.15575386e-07  2.70000000e-01 
 2.80000000e-01  4.58978628e-01  4.58978628e-01  3.53022020e-09  4.58978628e-01  3.15754710e-09  3.29972211e-09  4.58978628e-01  1.59674127e-07  1.15575055e-07  2.80000000e-01 
 2.90000000e-01  4.58978651e-01  4.58978651e-01  3.53022015e-09  4.58978651e-01  3.15754710e-09  3.29972217e-09  4.58978651e-01  1.59674163e-07  1.15575034e-07  2.90000000e-01 
 3.00000000e-01  4.58978645e-01  4.58978645e-01  3.53022015e-09  4.58978645e-01  3.15754710e-09  3.29972217e-09  4.58978645e-01  1.59674163e-07  1.15574853e-07  3.00000000e-01 
 3.10000000e-01  4.58978643e-01  4.58978643e-01  3.53022020e-09  4.58978643e-01  3.15754710e-09  3.29972211e-09  4.58978643e-01  1.59674152e-07  1.15574760e-07  3.10000000e-01 
 3.20000000e-01  4.58978660e-01  4.58978660e-01  3.53022020e-09  4.58978660e-01  3.15754710e-09  3.29972217e-09  4.58978660e-01  1.59674178e-07  1.15574704e-07  3.20000000e-01 
 3.30000000e-01  4.58978627e-01  4.58978627e-01  3.53022020e-09  4.58978627e-01  3.15754710e-09  3.29972217e-09  4.58978627e-01  1.59674138e-07  1.15574576e-07  3.30000000e-01 
 3.40000000e-01  4.58978649e-01  4.58978649e-01  3.53022015e-09  4.58978649e-01  3.15754704e-09  3.29972217e-09  4.58978649e-01  1.59674151e-07  1.15574469e-07  3.40000000e-01 
 3.50000000e-01  4.58978644e-01  4.58978644e-01  3.53022015e-09  4.58978644e-01  3.15754710e-09  3.29972211e-09  4.58978644e-01  1.59674148e-07  1.15574277e-07  3.50000000e-01 
 3.60000000e-01  4.58978638e-01  4.58978638e-01  3.53022020e-09  4.58978638e-01  3.15754704e-09  3.29972217e-09  4.58978638e-01  1.59674150e-07  1.15574263e-07  3.60000000e-01 
 3.70000000e-01  4.58978631e-01  4.58978631e-01  3.53022014e-09  4.58978631e-01  3.15754710e-09  3.29972211e-09  4.58978631e-01  1.59674144e-07  1.15574029e-07  3.70000000e-01 
 3.80000000e-01  4.58978649e-01  4.58978649e-01  3.53022015e-09  4.58978649e-01  3.15754710e-09  3.29972211e-09  4.58978649e-01  1.59674160e-07  1.15574093e-07  3.80000000e-01 
 3.90000000e-01  4.58978641e-01  4.58978641e-01  3.53022020e-09  4.58978641e-01  3.15754710e-09  3.29972217e-09  4.58978641e-01  1.59674145e-07  1.15573943e-07  3.90000000e-01 
 4.00000000e-01  4.58978645e-01  4.58978645e-01  3.53022020e-09  4.58978645e-01  3.15754710e-09  3.29972211e-09  4.58978645e-01  1.59674160e-07  1.15573769e-07  4.00000000e-01 
 4.10000000e-01  4.58978628e-01  4.58978628e-01  3.53022014e-09  4.58978628e-01  3.15754710e-09  3.29972217e-09  4.58978628e-01  1.59674130e-07  1.15573673e-07  4.10000000e-01 
 4.20000000e-01  4.58978646e-01  4.58978646e-01  3.53022015e-09  4.58978646e-01  3.15754710e-09  3.29972211e-09  4.58978646e-01  1.59674154e-07  1.15573581e-07  4.20000000e-01 
 4.30000000e-01  4.58978639e-01  4.58978639e-01  3.53022015e-09  4.58978639e-01  3.15754704e-09  3.29972211e-09  4.58978639e-01  1.59674152e-07  1.15573481e-07  4.30000000e-01 
 4.40000000e-01  4.58978652e-01  4.58978652e-01  3.53022015e-09  4.58978652e-01  3.15754710e-09  3.29972217e-09  4.58978652e-01  1.59674161e-07  1.15573418e-07  4.40000000e-01 
 4.50000000e-01  4.58978638e-01  4.58978638e-01  3.53022020e-09  4.58978638e-01  3.15754710e-09  3.29972217e-09  4.58978638e-01  1.59674146e-07  1.15573229e-07  4.50000000e-01 
 4.60000000e-01  4.58978640e-01  4.58978640e-01  3.53022015e-09  4.58978640e-01  3.15754704e-09  3.29972211e-09  4.58978640e-01  1.59674145e-07  1.15573314e-07  4.60000000e-01 
 4.70000000e-01  4.58978640e-01  4.58978640e-01  3.53022020e-09  4.58978640e-01  3.15754710e-09  3.29972211e-09  4.58978640e-01  1.59674155e-07  1.15573187e-07  4.70000000e-01 
 4.80000000e-01  4.58978637e-01  4.58978637e-01  3.53022020e-09  4.58978637e-01  3.15754710e-09  3.29972217e-09  4.58978637e-01  1.59674147e-07  1.15573073e-07  4.80000000e-01 
 4.90000000e-01  4.58978644e-01  4.58978644e-01  3.53022015e-09  4.58978644e-01  3.15754704e-09  3.29972211e-09  4.58978644e-01  1.59674144e-07  1.15572991e-07  4.90000000e-01 
 5.00000000e-01  4.58978658e-01  4.58978658e-01  3.53022015e-09  4.58978658e-01  3.15754704e-09  3.29972217e-09  4.58978658e-01  1.59674176e-07  1.15572902e-07  5.00000000e-01 
 5.10000000e-01  4.58978640e-01  4.58978641e-01  3.53022015e-09  4.58978641e-01  3.15754710e-09  3.29972211e-09  4.58978641e-01  1.59674142e-07  1.15572742e-07  5.10000000e-01 
 5.20000000e-01  4.58978644e-01  4.58978644e-01  3.53022015e-09  4.58978644e-01  3.15754710e-09  3.29972211e-09  4.58978644e-01  1.59674140e-07  1.15572675e-07  5.20000000e-01 
 5.30000000e-01  4.58978653e-01  4.58978653e-01  3.53022015e-09  4.58978653e-01  3.15754710e-09  3.29972217e-09  4.58978653e-01  1.59674181e-07  1.15572700e-07  5.30000000e-01 
 5.40000000e-01  4.58978648e-01  4.58978648e-01  3.53022020e-09  4.58978648e-01  3.15754710e-09  3.29972217e-09  4.58978648e-01  1.59674152e-07  1.15572607e-07  5.40000000e-01 
 5.50000000e-01  4.58978632e-01  4.58978632e-01  3.53022014e-09  4.58978632e-01  3.15754704e-09  3.29972217e-09  4.58978632e-01  1.59674128e-07  1.15572455e-07  5.50000000e-01 
 5.60000000e-01  4.58978653e-01  4.58978653e-01  3.53022015e-09  4.58978653e-01  3.15754704e-09  3.29972211e-09  4.58978653e-01  1.59674168e-07  1.15572522e-07  5.60000000e-01 
 5.70000000e-01  4.58978632e-01  4.58978632e-01  3.53022014e-09  4.58978632e-01  3.15754710e-09  3.29972211e-09  4.58978632e-01  1.59674140e-07  1.15572274e-07  5.70000000e-01 
 5.80000000e-01  4.58978620e-01  4.58978620e-01  3.53022014e-09  4.58978620e-01  3.15754710e-09  3.29972217e-09  4.58978620e-01  1.59674105e-07  1.15572114e-07  5.80000000e-01 
 5.90000000e-01  4.58978661e-01  4.58978661e-01  3.53022015e-09  4.58978661e-01  3.15754710e-09  3.29972217e-09  4.58978661e-01  1.59674184e-07  1.15572128e-07  5.90000000e-01 
 6.00000000e-01  4.58978636e-01  4.58978636e-01  3.53022014e-09  4.58978636e-01  3.15754704e-09  3.29972217e-09  4.58978636e-01  1.59674141e-07  1.15572085e-07  6.00000000e-01 
 6.10000000e-01  4.58978630e-01  4.58978630e-01  3.53022020e-09  4.58978630e-01  3.15754710e-09  3.29972211e-09  4.58978630e-01  1.59674131e-07  1.15571986e-07  6.10000000e-01 
 6.20000000e-01  4.58978666e-01  4.58978666e-01  3.53022015e-09  4.58978666e-01  3.15754710e-09  3.29972217e-09  4.58978666e-01  1.59674180e-07  1.15572064e-07  6.20000000e-01 
 6.30000000e-01  4.58978627e-01  4.58978627e-01  3.53022014e-09  4.58978627e-01  3.15754710e-09  3.29972211e-09  4.58978627e-01  1.59674132e-07  1.15571765e-07  6.30000000e-01 
 6.40000000e-01  4.58978671e-01  4.58978671e-01  3.53022015e-09  4.58978671e-01  3.15754710e-09  3.29972217e-09  4.58978671e-01  1.59674181e-07  1.15571915e-07  6.40000000e-01 
 6.50000000e-01  4.58978648e-01  4.58978648e-01  3.53022015e-09  4.58978648e-01  3.15754704e-09  3.29972217e-09  4.58978648e-01  1.59674163e-07  1.15571623e-07  6.50000000e-01 
 6.60000000e-01  4.58978647e-01  4.58978647e-01  3.53022015e-09  4.58978647e-01  3.15754710e-09  3.29972217e-09  4.58978647e-01  1.59674162e-07  1.15571666e-07  6.60000000e-01 
 6.70000000e-01  4.58978644e-01  4.58978644e-01  3.53022015e-09  4.58978644e-01  3.15754710e-09  3.29972211e-09  4.58978644e-01  1.59674155e-07  1.15571453e-07  6.70000000e-01 
 6.80000000e-01  4.58978647e-01  4.58978647e-01  3.53022020e-09  4.58978647e-01  3.15754710e-09  3.29972217e-09  4.58978647e-01  1.59674161e-07  1.15571439e-07  6.80000000e-01 
 6.90000000e-01  4.58978647e-01  4.58978647e-01  3.53022020e-09  4.58978647e-01  3.15754704e-09  3.29972217e-09  4.58978647e-01  1.59674170e-07  1.15571332e-07  6.90000000e-01 
 7.00000000e-01  4.58978632e-01  4.58978632e-01  3.53022014e-09  4.58978632e-01  3.15754710e-09  3.29972217e-09  4.58978632e-01  1.59674125e-07  1.15571254e-07  7.00000000e-01 
 7.10000000e-01  4.58978664e-01  4.58978664e-01  3.53022020e-09  4.58978664e-01  3.15754710e-09  3.29972217e-09  4.58978664e-01  1.59674185e-07  1.15571197e-07  7.10000000e-01 
 7.20000000e-01  4.58978641e-01  4.58978641e-01  3.53022015e-09  4.58978641e-01  3.15754710e-09  3.29972217e-09  4.58978641e-01  1.59674142e-07  1.15571240e-07  7.20000000e-01 
 7.30000000e-01  4.58978638e-01  4.58978638e-01  3.53022020e-09  4.58978638e-01  3.15754710e-09  3.29972217e-09  4.58978638e-01  1.59674142e-07  1.15570934e-07  7.30000000e-01 
 7.40000000e-01  4.58978628e-01  4.58978629e-01  3.53022014e-09  4.58978629e-01  3.15754710e-09  3.29972217e-09  4.58978629e-01  1.59674131e-07  1.15570849e-07  7.40000000e-01 
 7.50000000e-01  4.58978655e-01  4.58978655e-01  3.53022015e-09  4.58978655e-01  3.15754710e-09  3.29972211e-09  4.58978655e-01  1.59674164e-07  1.15570884e-07  7.50000000e-01 
 7.60000000e-01  4.58978649e-01  4.58978649e-01  3.53022015e-09  4.58978649e-01  3.15754710e-09  3.29972217e-09  4.58978649e-01  1.59674169e-07  1.15570735e-07  7.60000000e-01 
 7.70000000e-01  4.58978642e-01  4.58978642e-01  3.53022015e-09  4.58978642e-01  3.15754710e-09  3.29972211e-09  4.58978642e-01  1.59674151e-07  1.15570607e-07  7.70000000e-01 
 7.80000000e-01  4.58978641e-01  4.58978641e-01  3.53022015e-09  4.58978641e-01  3.15754710e-09  3.29972211e-09  4.58978641e-01  1.59674153e-07  1.15570636e-07  7.80000000e-01 
 7.90000000e-01  4.58978618e-01  4.58978618e-01  3.53022014e-09  4.58978618e-01  3.15754710e-09  3.29972217e-09  4.58978618e-01  1.59674109e-07  1.15570380e-07  7.90000000e-01 
 8.00000000e-01  4.58978632e-01  4.58978632e-01  3.53022014e-09  4.58978632e-01  3.15754710e-09  3.29972217e-09  4.58978632e-01  1.59674125e-07  1.15570401e-07  8.00000000e-01 
 8.10000000e-01  4.58978651e-01  4.58978651e-01  3.53022015e-09  4.58978651e-01  3.15754710e-09  3.29972211e-09  4.58978651e-01  1.59674153e-07  1.15570273e-07  8.10000000e-01 
 8.20000000e-01  4.58978628e-01  4.58978628e-01  3.53022020e-09  4.58978628e-01  3.15754710e-09  3.29972217e-09  4.58978628e-01  1.59674123e-07  1.15570117e-07  8.20000000e-01 
 8.30000000e-01  4.58978643e-01  4.58978643e-01  3.53022020e-09  4.58978643e-01  3.15754710e-09  3.29972211e-09  4.58978643e-01  1.59674146e-07  1.15570195e-07  8.30000000e-01 
 8.40000000e-01  4.58978645e-01  4.58978646e-01  3.53022015e-09  4.58978645e-01  3.15754710e-09  3.29972217e-09  4.58978645e-01  1.59674151e-07  1.15570217e-07  8.40000000e-01 
 8.50000000e-01  4.58978663e-01  4.58978663e-01  3.53022015e-09  4.58978663e-01  3.15754710e-09  3.29972211e-09  4.58978663e-01  1.59674176e-07  1.15570103e-07  8.50000000e-01 
 8.60000000e-01  4.58978655e-01  4.58978655e-01  3.53022020e-09  4.58978655e-01  3.15754710e-09  3.29972217e-09  4.58978655e-01  1.59674172e-07  1.15569975e-07  8.60000000e-01 
 8.70000000e-01  4.58978640e-01  4.58978640e-01  3.53022015e-09  4.58978640e-01  3.15754710e-09  3.29972217e-09  4.58978640e-01  1.59674148e-07  1.15569769e-07  8.70000000e-01 
 8.80000000e-01  4.58978657e-01  4.58978657e-01  3.53022020e-09  4.58978657e-01  3.15754704e-09  3.29972217e-09  4.58978657e-01  1.59674168e-07  1.15569868e-07  8.80000000e-01 
 8.90000000e-01  4.58978651e-01  4.58978651e-01  3.53022020e-09  4.58978651e-01  3.15754704e-09  3.29972217e-09  4.58978651e-01  1.59674156e-07  1.15569698e-07  8.90000000e-01 
 9.00000000e-01  4.58978629e-01  4.58978629e-01  3.53022014e-09  4.58978629e-01  3.15754710e-09  3.29972211e-09  4.58978629e-01  1.59674136e-07  1.15569620e-07  9.00000000e-01 
 9.10000000e-01  4.58978651e-01  4.58978651e-01  3.53022020e-09  4.58978651e-01  3.15754710e-09  3.29972217e-09  4.58978651e-01  1.59674154e-07  1.15569478e-07  9.10000000e-01 
 9.20000000e-01  4.58978649e-01  4.58978649e-01  3.53022020e-09  4.58978649e-01  3.15754710e-09  3.29972217e-09  4.58978649e-01  1.59674162e-07  1.15569392e-07  9.20000000e-01 
 9.30000000e-01  4.58978643e-01  4.58978643e-01  3.53022015e-09  4.58978643e-01  3.15754704e-09  3.29972217e-09  4.58978643e-01  1.59674142e-07  1.15569343e-07  9.30000000e-01 
 9.40000000e-01  4.58978648e-01  4.58978648e-01  3.53022015e-09  4.58978648e-01  3.15754704e-09  3.29972217e-09  4.58978648e-01  1.59674168e-07  1.15569208e-07  9.40000000e-01 
 9.50000000e-01  4.58978650e-01  4.58978650e-01  3.53022020e-09  4.58978650e-01  3.15754710e-09  3.29972211e-09  4.58978650e-01  1.59674164e-07  1.15569122e-07  9.50000000e-01 
 9.60000000e-01  4.58978634e-01  4.58978634e-01  3.53022014e-09  4.58978634e-01  3.15754710e-09  3.29972217e-09  4.58978634e-01  1.59674141e-07  1.15569065e-07  9.60000000e-01 
 9.70000000e-01  4.58978622e-01  4.58978622e-01  3.53022014e-09  4.58978622e-01  3.15754710e-09  3.29972211e-09  4.58978622e-01  1.59674117e-07  1.15568966e-07  9.70000000e-01 
 9.80000000e-01  4.58978642e-01  4.58978642e-01  3.53022020e-09  4.58978642e-01  3.15754710e-09  3.29972217e-09  4.58978642e-01  1.59674148e-07  1.15568916e-07  9.80000000e-01 
 9.90000000e-01  4.58978632e-01  4.58978632e-01  3.53022014e-09  4.58978632e-01  3.15754710e-09  3.29972217e-09  4.58978632e-01  1.59674128e-07  1.15568760e-07  9.90000000e-01 
 1.00000000e+00  4.58978648e-01  4.58978649e-01  3.53022015e-09  4.58978648e-01  3.15754710e-09  3.29972217e-09  4.58978648e-01  1.59674152e-07  1.15568596e-07  1.00000000e+00 
 1.01000000e+00  4.58978628e-01  4.58978628e-01  3.53022014e-09  4.58978628e-01  3.15754710e-09  3.29972211e-09  4.58978628e-01  1.59674136e-07  1.15568632e-07  1.01000000e+00 
 1.02000000e+00  4.58978649e-01  4.58978649e-01  3.53022015e-09  4.58978649e-01  3.15754710e-09  3.29972211e-09  4.58978649e-01  1.59674159e-07  1.15568497e-07  1.02000000e+00 
 1.03000000e+00  4.58978630e-01  4.58978630e-01  3.53022014e-09  4.58978630e-01  3.15754710e-09  3.29972217e-09  4.58978630e-01  1.59674131e-07  1.15568348e-07  1.03000000e+00 
 1.04000000e+00  4.58978633e-01  4.58978633e-01  3.53022014e-09  4.58978633e-01  3.15754704e-09  3.29972211e-09  4.58978633e-01  1.59674138e-07  1.15568227e-07  1.04000000e+00 
 1.05000000e+00  4.58978621e-01  4.58978621e-01  3.53022014e-09  4.58978621e-01  3.15754710e-09  3.29972211e-09  4.58978621e-01  1.59674117e-07  1.15568199e-07  1.05000000e+00 
 1.06000000e+00  4.58978647e-01  4.58978647e-01  3.53022020e-09  4.58978647e-01  3.15754710e-09  3.29972211e-09  4.58978647e-01  1.59674157e-07  1.15568263e-07  1.06000000e+00 
 1.07000000e+00  4.58978636e-01  4.58978636e-01  3.53022015e-09  4.58978636e-01  3.15754704e-09  3.29972217e-09  4.58978636e-01  1.59674143e-07  1.15567993e-07  1.07000000e+00 
 1.08000000e+00  4.58978656e-01  4.58978656e-01  3.53022020e-09  4.58978656e-01  3.15754704e-09  3.29972217e-09  4.58978656e-01  1.59674174e-07  1.15567978e-07  1.08000000e+00 
 1.09000000e+00  4.58978640e-01  4.58978640e-01  3.53022015e-09  4.58978640e-01  3.15754710e-09  3.29972217e-09  4.58978640e-01  1.59674135e-07  1.15567779e-07  1.09000000e+00 
 1.10000000e+00  4.58978660e-01  4.58978660e-01  3.53022015e-09  4.58978660e-01  3.15754710e-09  3.29972211e-09  4.58978660e-01  1.59674169e-07  1.15567801e-07  1.10000000e+00 
