 v-sweep         v(b0)           v(b1)           v(b2)           v(b3)           v(b4)           v(b5)           v(b6)           i(vbias)        i(viout)        v(vout)        
 0.00000000e+00  4.55841901e-01  4.55841901e-01  4.55841901e-01  3.34062739e-09  4.55841901e-01  3.26943390e-09  3.32315037e-09  1.53929383e-07  3.20883770e-08  0.00000000e+00 
 1.00000000e-02  4.55841890e-01  4.55841890e-01  4.55841890e-01  3.34062738e-09  4.55841890e-01  3.26943389e-09  3.32315036e-09  1.53929391e-07  3.20879694e-08  1.00000000e-02 
 2.00000000e-02  4.55841891e-01  4.55841891e-01  4.55841891e-01  3.34062733e-09  4.55841891e-01  3.26943395e-09  3.32315042e-09  1.53929389e-07  3.20875868e-08  2.00000000e-02 
 3.00000000e-02  4.55841930e-01  4.55841930e-01  4.55841930e-01  3.34062739e-09  4.55841930e-01  3.26943395e-09  3.32315035e-09  1.53929446e-07  3.20871716e-08  3.00000000e-02 
 4.00000000e-02  4.55841891e-01  4.55841891e-01  4.55841891e-01  3.34062738e-09  4.55841891e-01  3.26943395e-09  3.32315037e-09  1.53929386e-07  3.20867866e-08  4.00000000e-02 
 5.00000000e-02  4.55841873e-01  4.55841873e-01  4.55841873e-01  3.34062733e-09  4.55841873e-01  3.26943395e-09  3.32315036e-09  1.53929347e-07  3.20865627e-08  5.00000000e-02 
 6.00000000e-02  4.55841869e-01  4.55841869e-01  4.55841869e-01  3.34062738e-09  4.55841869e-01  3.26943395e-09  3.32315042e-09  1.53929347e-07  3.20860405e-08  6.00000000e-02 
 7.00000000e-02  4.55841907e-01  4.55841907e-01  4.55841907e-01  3.34062733e-09  4.55841907e-01  3.26943389e-09  3.32315041e-09  1.53929411e-07  3.20859113e-08  7.00000000e-02 
 8.00000000e-02  4.55841909e-01  4.55841909e-01  4.55841909e-01  3.34062733e-09  4.55841909e-01  3.26943395e-09  3.32315043e-09  1.53929411e-07  3.20856941e-08  8.00000000e-02 
 9.00000000e-02  4.55841888e-01  4.55841888e-01  4.55841888e-01  3.34062738e-09  4.55841888e-01  3.26943395e-09  3.32315041e-09  1.53929390e-07  3.20853326e-08  9.00000000e-02 
 1.00000000e-01  4.55841876e-01  4.55841876e-01  4.55841876e-01  3.34062738e-09  4.55841876e-01  3.26943395e-09  3.32315037e-09  1.53929361e-07  3.20850297e-08  1.00000000e-01 
 1.10000000e-01  4.55841875e-01  4.55841875e-01  4.55841875e-01  3.34062738e-09  4.55841875e-01  3.26943395e-09  3.32315036e-09  1.53929348e-07  3.20848921e-08  1.10000000e-01 
 1.20000000e-01  4.55841888e-01  4.55841888e-01  4.55841888e-01  3.34062738e-09  4.55841887e-01  3.26943395e-09  3.32315036e-09  1.53929372e-07  3.20845750e-08  1.20000000e-01 
 1.30000000e-01  4.55841922e-01  4.55841922e-01  4.55841922e-01  3.34062739e-09  4.55841922e-01  3.26943395e-09  3.32315037e-09  1.53929433e-07  3.20843991e-08  1.30000000e-01 
 1.40000000e-01  4.55841882e-01  4.55841882e-01  4.55841882e-01  3.34062733e-09  4.55841882e-01  3.26943395e-09  3.32315036e-09  1.53929372e-07  3.20841078e-08  1.40000000e-01 
 1.50000000e-01  4.55841892e-01  4.55841892e-01  4.55841892e-01  3.34062733e-09  4.55841892e-01  3.26943395e-09  3.32315036e-09  1.53929371e-07  3.20840563e-08  1.50000000e-01 
 1.60000000e-01  4.55841886e-01  4.55841886e-01  4.55841886e-01  3.34062733e-09  4.55841886e-01  3.26943395e-09  3.32315036e-09  1.53929396e-07  3.20836886e-08  1.60000000e-01 
 1.70000000e-01  4.55841892e-01  4.55841892e-01  4.55841892e-01  3.34062738e-09  4.55841892e-01  3.26943395e-09  3.32315036e-09  1.53929395e-07  3.20835571e-08  1.70000000e-01 
 1.80000000e-01  4.55841917e-01  4.55841917e-01  4.55841917e-01  3.34062739e-09  4.55841917e-01  3.26943395e-09  3.32315036e-09  1.53929431e-07  3.20835092e-08  1.80000000e-01 
 1.90000000e-01  4.55841908e-01  4.55841908e-01  4.55841908e-01  3.34062733e-09  4.55841908e-01  3.26943395e-09  3.32315036e-09  1.53929411e-07  3.20831983e-08  1.90000000e-01 
 2.00000000e-01  4.55841908e-01  4.55841908e-01  4.55841908e-01  3.34062733e-09  4.55841908e-01  3.26943395e-09  3.32315042e-09  1.53929411e-07  3.20831344e-08  2.00000000e-01 
 2.10000000e-01  4.55841902e-01  4.55841902e-01  4.55841902e-01  3.34062733e-09  4.55841902e-01  3.26943395e-09  3.32315041e-09  1.53929410e-07  3.20829709e-08  2.10000000e-01 
 2.20000000e-01  4.55841920e-01  4.55841920e-01  4.55841920e-01  3.34062733e-09  4.55841920e-01  3.26943395e-09  3.32315037e-09  1.53929445e-07  3.20828377e-08  2.20000000e-01 
 2.30000000e-01  4.55841921e-01  4.55841921e-01  4.55841921e-01  3.34062733e-09  4.55841921e-01  3.26943395e-09  3.32315037e-09  1.53929427e-07  3.20827507e-08  2.30000000e-01 
 2.40000000e-01  4.55841895e-01  4.55841895e-01  4.55841895e-01  3.34062738e-09  4.55841895e-01  3.26943395e-09  3.32315036e-09  1.53929401e-07  3.20825286e-08  2.40000000e-01 
 2.50000000e-01  4.55841909e-01  4.55841909e-01  4.55841909e-01  3.34062733e-09  4.55841909e-01  3.26943395e-09  3.32315036e-09  1.53929415e-07  3.20824842e-08  2.50000000e-01 
 2.60000000e-01  4.55841879e-01  4.55841879e-01  4.55841879e-01  3.34062738e-09  4.55841879e-01  3.26943395e-09  3.32315036e-09  1.53929372e-07  3.20822533e-08  2.60000000e-01 
 2.70000000e-01  4.55841852e-01  4.55841853e-01  4.55841852e-01  3.34062738e-09  4.55841852e-01  3.26943389e-09  3.32315036e-09  1.53929326e-07  3.20821272e-08  2.70000000e-01 
 2.80000000e-01  4.55841864e-01  4.55841864e-01  4.55841864e-01  3.34062738e-09  4.55841864e-01  3.26943395e-09  3.32315036e-09  1.53929326e-07  3.20821094e-08  2.80000000e-01 
 2.90000000e-01  4.55841899e-01  4.55841899e-01  4.55841899e-01  3.34062738e-09  4.55841899e-01  3.26943389e-09  3.32315036e-09  1.53929383e-07  3.20820739e-08  2.90000000e-01 
 3.00000000e-01  4.55841890e-01  4.55841890e-01  4.55841890e-01  3.34062738e-09  4.55841890e-01  3.26943395e-09  3.32315036e-09  1.53929382e-07  3.20818998e-08  3.00000000e-01 
 3.10000000e-01  4.55841886e-01  4.55841886e-01  4.55841886e-01  3.34062738e-09  4.55841886e-01  3.26943395e-09  3.32315036e-09  1.53929375e-07  3.20818181e-08  3.10000000e-01 
 3.20000000e-01  4.55841883e-01  4.55841883e-01  4.55841883e-01  3.34062733e-09  4.55841883e-01  3.26943395e-09  3.32315036e-09  1.53929374e-07  3.20817399e-08  3.20000000e-01 
 3.30000000e-01  4.55841897e-01  4.55841897e-01  4.55841897e-01  3.34062738e-09  4.55841897e-01  3.26943395e-09  3.32315036e-09  1.53929387e-07  3.20815943e-08  3.30000000e-01 
 3.40000000e-01  4.55841881e-01  4.55841881e-01  4.55841881e-01  3.34062738e-09  4.55841881e-01  3.26943395e-09  3.32315042e-09  1.53929377e-07  3.20815516e-08  3.40000000e-01 
 3.50000000e-01  4.55841860e-01  4.55841860e-01  4.55841860e-01  3.34062732e-09  4.55841860e-01  3.26943395e-09  3.32315035e-09  1.53929329e-07  3.20813847e-08  3.50000000e-01 
 3.60000000e-01  4.55841899e-01  4.55841899e-01  4.55841899e-01  3.34062733e-09  4.55841899e-01  3.26943395e-09  3.32315037e-09  1.53929386e-07  3.20813385e-08  3.60000000e-01 
 3.70000000e-01  4.55841882e-01  4.55841882e-01  4.55841882e-01  3.34062738e-09  4.55841882e-01  3.26943395e-09  3.32315042e-09  1.53929386e-07  3.20813385e-08  3.70000000e-01 
 3.80000000e-01  4.55841878e-01  4.55841878e-01  4.55841878e-01  3.34062733e-09  4.55841878e-01  3.26943395e-09  3.32315035e-09  1.53929368e-07  3.20811431e-08  3.80000000e-01 
 3.90000000e-01  4.55841881e-01  4.55841881e-01  4.55841881e-01  3.34062738e-09  4.55841880e-01  3.26943389e-09  3.32315043e-09  1.53929361e-07  3.20811218e-08  3.90000000e-01 
 4.00000000e-01  4.55841896e-01  4.55841896e-01  4.55841896e-01  3.34062738e-09  4.55841896e-01  3.26943395e-09  3.32315041e-09  1.53929388e-07  3.20810365e-08  4.00000000e-01 
 4.10000000e-01  4.55841886e-01  4.55841886e-01  4.55841886e-01  3.34062733e-09  4.55841886e-01  3.26943395e-09  3.32315037e-09  1.53929382e-07  3.20809548e-08  4.10000000e-01 
 4.20000000e-01  4.55841910e-01  4.55841910e-01  4.55841910e-01  3.34062733e-09  4.55841910e-01  3.26943395e-09  3.32315042e-09  1.53929403e-07  3.20808731e-08  4.20000000e-01 
 4.30000000e-01  4.55841898e-01  4.55841898e-01  4.55841898e-01  3.34062738e-09  4.55841898e-01  3.26943395e-09  3.32315035e-09  1.53929401e-07  3.20808589e-08  4.30000000e-01 
 4.40000000e-01  4.55841903e-01  4.55841903e-01  4.55841903e-01  3.34062733e-09  4.55841903e-01  3.26943395e-09  3.32315037e-09  1.53929408e-07  3.20806777e-08  4.40000000e-01 
 4.50000000e-01  4.55841895e-01  4.55841895e-01  4.55841895e-01  3.34062733e-09  4.55841895e-01  3.26943395e-09  3.32315036e-09  1.53929386e-07  3.20806919e-08  4.50000000e-01 
 4.60000000e-01  4.55841902e-01  4.55841903e-01  4.55841903e-01  3.34062738e-09  4.55841902e-01  3.26943395e-09  3.32315036e-09  1.53929402e-07  3.20807452e-08  4.60000000e-01 
 4.70000000e-01  4.55841927e-01  4.55841927e-01  4.55841927e-01  3.34062733e-09  4.55841927e-01  3.26943395e-09  3.32315037e-09  1.53929440e-07  3.20806350e-08  4.70000000e-01 
 4.80000000e-01  4.55841901e-01  4.55841901e-01  4.55841901e-01  3.34062733e-09  4.55841901e-01  3.26943389e-09  3.32315036e-09  1.53929396e-07  3.20805107e-08  4.80000000e-01 
 4.90000000e-01  4.55841922e-01  4.55841922e-01  4.55841922e-01  3.34062733e-09  4.55841921e-01  3.26943389e-09  3.32315037e-09  1.53929423e-07  3.20804183e-08  4.90000000e-01 
 5.00000000e-01  4.55841892e-01  4.55841892e-01  4.55841892e-01  3.34062738e-09  4.55841892e-01  3.26943395e-09  3.32315036e-09  1.53929391e-07  3.20803473e-08  5.00000000e-01 
 5.10000000e-01  4.55841911e-01  4.55841911e-01  4.55841911e-01  3.34062739e-09  4.55841911e-01  3.26943395e-09  3.32315036e-09  1.53929421e-07  3.20804041e-08  5.10000000e-01 
 5.20000000e-01  4.55841914e-01  4.55841914e-01  4.55841914e-01  3.34062733e-09  4.55841914e-01  3.26943395e-09  3.32315036e-09  1.53929419e-07  3.20802620e-08  5.20000000e-01 
 5.30000000e-01  4.55841868e-01  4.55841868e-01  4.55841868e-01  3.34062738e-09  4.55841868e-01  3.26943395e-09  3.32315036e-09  1.53929361e-07  3.20802229e-08  5.30000000e-01 
 5.40000000e-01  4.55841898e-01  4.55841898e-01  4.55841898e-01  3.34062738e-09  4.55841898e-01  3.26943395e-09  3.32315036e-09  1.53929398e-07  3.20801377e-08  5.40000000e-01 
 5.50000000e-01  4.55841903e-01  4.55841903e-01  4.55841903e-01  3.34062738e-09  4.55841903e-01  3.26943395e-09  3.32315036e-09  1.53929411e-07  3.20801092e-08  5.50000000e-01 
 5.60000000e-01  4.55841863e-01  4.55841863e-01  4.55841863e-01  3.34062733e-09  4.55841863e-01  3.26943395e-09  3.32315036e-09  1.53929348e-07  3.20799813e-08  5.60000000e-01 
 5.70000000e-01  4.55841916e-01  4.55841916e-01  4.55841916e-01  3.34062733e-09  4.55841916e-01  3.26943395e-09  3.32315036e-09  1.53929396e-07  3.20799600e-08  5.70000000e-01 
 5.80000000e-01  4.55841915e-01  4.55841915e-01  4.55841915e-01  3.34062739e-09  4.55841915e-01  3.26943395e-09  3.32315036e-09  1.53929419e-07  3.20799955e-08  5.80000000e-01 
 5.90000000e-01  4.55841871e-01  4.55841871e-01  4.55841871e-01  3.34062733e-09  4.55841871e-01  3.26943395e-09  3.32315036e-09  1.53929370e-07  3.20798250e-08  5.90000000e-01 
 6.00000000e-01  4.55841894e-01  4.55841894e-01  4.55841894e-01  3.34062738e-09  4.55841894e-01  3.26943395e-09  3.32315036e-09  1.53929384e-07  3.20798321e-08  6.00000000e-01 
 6.10000000e-01  4.55841896e-01  4.55841896e-01  4.55841896e-01  3.34062733e-09  4.55841896e-01  3.26943395e-09  3.32315036e-09  1.53929408e-07  3.20796900e-08  6.10000000e-01 
 6.20000000e-01  4.55841893e-01  4.55841893e-01  4.55841893e-01  3.34062738e-09  4.55841893e-01  3.26943389e-09  3.32315036e-09  1.53929404e-07  3.20796190e-08  6.20000000e-01 
 6.30000000e-01  4.55841908e-01  4.55841908e-01  4.55841908e-01  3.34062733e-09  4.55841908e-01  3.26943395e-09  3.32315036e-09  1.53929417e-07  3.20795266e-08  6.30000000e-01 
 6.40000000e-01  4.55841906e-01  4.55841906e-01  4.55841906e-01  3.34062733e-09  4.55841906e-01  3.26943395e-09  3.32315036e-09  1.53929408e-07  3.20795692e-08  6.40000000e-01 
 6.50000000e-01  4.55841911e-01  4.55841911e-01  4.55841911e-01  3.34062739e-09  4.55841911e-01  3.26943395e-09  3.32315036e-09  1.53929441e-07  3.20795905e-08  6.50000000e-01 
 6.60000000e-01  4.55841888e-01  4.55841888e-01  4.55841888e-01  3.34062738e-09  4.55841888e-01  3.26943395e-09  3.32315036e-09  1.53929387e-07  3.20793916e-08  6.60000000e-01 
 6.70000000e-01  4.55841901e-01  4.55841901e-01  4.55841901e-01  3.34062733e-09  4.55841901e-01  3.26943395e-09  3.32315036e-09  1.53929405e-07  3.20793845e-08  6.70000000e-01 
 6.80000000e-01  4.55841893e-01  4.55841893e-01  4.55841893e-01  3.34062733e-09  4.55841893e-01  3.26943395e-09  3.32315042e-09  1.53929403e-07  3.20793276e-08  6.80000000e-01 
 6.90000000e-01  4.55841865e-01  4.55841865e-01  4.55841865e-01  3.34062733e-09  4.55841865e-01  3.26943395e-09  3.32315041e-09  1.53929355e-07  3.20793276e-08  6.90000000e-01 
 7.00000000e-01  4.55841906e-01  4.55841906e-01  4.55841906e-01  3.34062733e-09  4.55841906e-01  3.26943395e-09  3.32315037e-09  1.53929393e-07  3.20791642e-08  7.00000000e-01 
 7.10000000e-01  4.55841906e-01  4.55841907e-01  4.55841906e-01  3.34062739e-09  4.55841906e-01  3.26943395e-09  3.32315036e-09  1.53929416e-07  3.20791855e-08  7.10000000e-01 
 7.20000000e-01  4.55841885e-01  4.55841885e-01  4.55841885e-01  3.34062738e-09  4.55841885e-01  3.26943395e-09  3.32315036e-09  1.53929378e-07  3.20790718e-08  7.20000000e-01 
 7.30000000e-01  4.55841912e-01  4.55841912e-01  4.55841912e-01  3.34062739e-09  4.55841912e-01  3.26943395e-09  3.32315036e-09  1.53929414e-07  3.20791003e-08  7.30000000e-01 
 7.40000000e-01  4.55841907e-01  4.55841907e-01  4.55841907e-01  3.34062739e-09  4.55841907e-01  3.26943395e-09  3.32315036e-09  1.53929426e-07  3.20791003e-08  7.40000000e-01 
 7.50000000e-01  4.55841897e-01  4.55841897e-01  4.55841897e-01  3.34062738e-09  4.55841897e-01  3.26943395e-09  3.32315036e-09  1.53929405e-07  3.20790576e-08  7.50000000e-01 
 7.60000000e-01  4.55841884e-01  4.55841884e-01  4.55841884e-01  3.34062733e-09  4.55841884e-01  3.26943395e-09  3.32315042e-09  1.53929372e-07  3.20790008e-08  7.60000000e-01 
 7.70000000e-01  4.55841911e-01  4.55841911e-01  4.55841911e-01  3.34062733e-09  4.55841911e-01  3.26943395e-09  3.32315035e-09  1.53929399e-07  3.20787521e-08  7.70000000e-01 
 7.80000000e-01  4.55841889e-01  4.55841889e-01  4.55841889e-01  3.34062738e-09  4.55841889e-01  3.26943395e-09  3.32315037e-09  1.53929395e-07  3.20788587e-08  7.80000000e-01 
 7.90000000e-01  4.55841915e-01  4.55841915e-01  4.55841915e-01  3.34062733e-09  4.55841915e-01  3.26943395e-09  3.32315036e-09  1.53929410e-07  3.20788018e-08  7.90000000e-01 
 8.00000000e-01  4.55841914e-01  4.55841914e-01  4.55841914e-01  3.34062733e-09  4.55841914e-01  3.26943395e-09  3.32315036e-09  1.53929423e-07  3.20787237e-08  8.00000000e-01 
 8.10000000e-01  4.55841910e-01  4.55841910e-01  4.55841910e-01  3.34062739e-09  4.55841910e-01  3.26943395e-09  3.32315036e-09  1.53929429e-07  3.20787379e-08  8.10000000e-01 
 8.20000000e-01  4.55841912e-01  4.55841912e-01  4.55841912e-01  3.34062739e-09  4.55841912e-01  3.26943389e-09  3.32315036e-09  1.53929428e-07  3.20786882e-08  8.20000000e-01 
 8.30000000e-01  4.55841884e-01  4.55841884e-01  4.55841884e-01  3.34062733e-09  4.55841884e-01  3.26943395e-09  3.32315036e-09  1.53929382e-07  3.20785674e-08  8.30000000e-01 
 8.40000000e-01  4.55841889e-01  4.55841889e-01  4.55841889e-01  3.34062738e-09  4.55841889e-01  3.26943395e-09  3.32315036e-09  1.53929390e-07  3.20785389e-08  8.40000000e-01 
 8.50000000e-01  4.55841899e-01  4.55841899e-01  4.55841899e-01  3.34062738e-09  4.55841899e-01  3.26943389e-09  3.32315036e-09  1.53929397e-07  3.20784892e-08  8.50000000e-01 
 8.60000000e-01  4.55841886e-01  4.55841886e-01  4.55841886e-01  3.34062733e-09  4.55841886e-01  3.26943395e-09  3.32315036e-09  1.53929381e-07  3.20783045e-08  8.60000000e-01 
 8.70000000e-01  4.55841874e-01  4.55841874e-01  4.55841874e-01  3.34062733e-09  4.55841874e-01  3.26943395e-09  3.32315036e-09  1.53929343e-07  3.20782760e-08  8.70000000e-01 
 8.80000000e-01  4.55841890e-01  4.55841890e-01  4.55841890e-01  3.34062738e-09  4.55841890e-01  3.26943395e-09  3.32315036e-09  1.53929375e-07  3.20782405e-08  8.80000000e-01 
 8.90000000e-01  4.55841872e-01  4.55841872e-01  4.55841872e-01  3.34062733e-09  4.55841872e-01  3.26943395e-09  3.32315036e-09  1.53929360e-07  3.20781410e-08  8.90000000e-01 
 9.00000000e-01  4.55841904e-01  4.55841904e-01  4.55841904e-01  3.34062733e-09  4.55841904e-01  3.26943389e-09  3.32315036e-09  1.53929403e-07  3.20782618e-08  9.00000000e-01 
 9.10000000e-01  4.55841910e-01  4.55841910e-01  4.55841910e-01  3.34062739e-09  4.55841910e-01  3.26943395e-09  3.32315036e-09  1.53929420e-07  3.20781552e-08  9.10000000e-01 
 9.20000000e-01  4.55841894e-01  4.55841894e-01  4.55841894e-01  3.34062733e-09  4.55841894e-01  3.26943395e-09  3.32315036e-09  1.53929391e-07  3.20782476e-08  9.20000000e-01 
 9.30000000e-01  4.55841898e-01  4.55841898e-01  4.55841898e-01  3.34062733e-09  4.55841898e-01  3.26943395e-09  3.32315036e-09  1.53929391e-07  3.20780629e-08  9.30000000e-01 
 9.40000000e-01  4.55841911e-01  4.55841911e-01  4.55841911e-01  3.34062733e-09  4.55841911e-01  3.26943395e-09  3.32315036e-09  1.53929402e-07  3.20779634e-08  9.40000000e-01 
 9.50000000e-01  4.55841880e-01  4.55841880e-01  4.55841880e-01  3.34062733e-09  4.55841880e-01  3.26943395e-09  3.32315036e-09  1.53929381e-07  3.20778994e-08  9.50000000e-01 
 9.60000000e-01  4.55841897e-01  4.55841897e-01  4.55841897e-01  3.34062733e-09  4.55841897e-01  3.26943395e-09  3.32315036e-09  1.53929372e-07  3.20778355e-08  9.60000000e-01 
 9.70000000e-01  4.55841891e-01  4.55841891e-01  4.55841891e-01  3.34062738e-09  4.55841891e-01  3.26943395e-09  3.32315042e-09  1.53929403e-07  3.20777929e-08  9.70000000e-01 
 9.80000000e-01  4.55841859e-01  4.55841859e-01  4.55841859e-01  3.34062738e-09  4.55841859e-01  3.26943395e-09  3.32315035e-09  1.53929352e-07  3.20777147e-08  9.80000000e-01 
 9.90000000e-01  4.55841882e-01  4.55841882e-01  4.55841882e-01  3.34062733e-09  4.55841882e-01  3.26943395e-09  3.32315037e-09  1.53929364e-07  3.20777218e-08  9.90000000e-01 
 1.00000000e+00  4.55841895e-01  4.55841895e-01  4.55841895e-01  3.34062738e-09  4.55841895e-01  3.26943395e-09  3.32315036e-09  1.53929392e-07  3.20775015e-08  1.00000000e+00 
 1.01000000e+00  4.55841892e-01  4.55841892e-01  4.55841892e-01  3.34062733e-09  4.55841891e-01  3.26943395e-09  3.32315036e-09  1.53929402e-07  3.20776437e-08  1.01000000e+00 
 1.02000000e+00  4.55841883e-01  4.55841883e-01  4.55841883e-01  3.34062738e-09  4.55841883e-01  3.26943395e-09  3.32315036e-09  1.53929376e-07  3.20775158e-08  1.02000000e+00 
 1.03000000e+00  4.55841918e-01  4.55841918e-01  4.55841918e-01  3.34062739e-09  4.55841918e-01  3.26943395e-09  3.32315036e-09  1.53929423e-07  3.20774305e-08  1.03000000e+00 
 1.04000000e+00  4.55841916e-01  4.55841916e-01  4.55841916e-01  3.34062739e-09  4.55841916e-01  3.26943395e-09  3.32315036e-09  1.53929431e-07  3.20774376e-08  1.04000000e+00 
 1.05000000e+00  4.55841897e-01  4.55841897e-01  4.55841897e-01  3.34062738e-09  4.55841897e-01  3.26943395e-09  3.32315036e-09  1.53929401e-07  3.20773310e-08  1.05000000e+00 
 1.06000000e+00  4.55841895e-01  4.55841895e-01  4.55841895e-01  3.34062733e-09  4.55841895e-01  3.26943395e-09  3.32315042e-09  1.53929389e-07  3.20772600e-08  1.06000000e+00 
 1.07000000e+00  4.55841903e-01  4.55841903e-01  4.55841903e-01  3.34062733e-09  4.55841903e-01  3.26943389e-09  3.32315035e-09  1.53929393e-07  3.20773452e-08  1.07000000e+00 
 1.08000000e+00  4.55841904e-01  4.55841904e-01  4.55841904e-01  3.34062739e-09  4.55841904e-01  3.26943395e-09  3.32315037e-09  1.53929407e-07  3.20771889e-08  1.08000000e+00 
 1.09000000e+00  4.55841880e-01  4.55841880e-01  4.55841880e-01  3.34062738e-09  4.55841880e-01  3.26943389e-09  3.32315036e-09  1.53929391e-07  3.20771036e-08  1.09000000e+00 
 1.10000000e+00  4.55841907e-01  4.55841907e-01  4.55841907e-01  3.34062733e-09  4.55841907e-01  3.26943395e-09  3.32315042e-09  1.53929402e-07  3.20770539e-08  1.10000000e+00 
