 v-sweep         v(b0)           v(b1)           v(b2)           v(b3)           v(b4)           v(b5)           v(b6)           i(vbias)        i(viout)        v(vout)        
 0.00000000e+00  4.57024108e-01  3.21516726e-09  3.31543970e-09  3.21017884e-09  3.24098393e-09  3.43394797e-09  3.24272183e-09  1.56646555e-07  1.62691821e-09  0.00000000e+00 
 1.00000000e-02  4.57024121e-01  3.21516724e-09  3.31543974e-09  3.21017882e-09  3.24098392e-09  3.43394801e-09  3.24272187e-09  1.56646566e-07  1.62645031e-09  1.00000000e-02 
 2.00000000e-02  4.57024100e-01  3.21516724e-09  3.31543974e-09  3.21017888e-09  3.24098392e-09  3.43394795e-09  3.24272187e-09  1.56646549e-07  1.62601177e-09  2.00000000e-02 
 3.00000000e-02  4.57024097e-01  3.21516724e-09  3.31543974e-09  3.21017882e-09  3.24098397e-09  3.43394800e-09  3.24272181e-09  1.56646525e-07  1.62564717e-09  3.00000000e-02 
 4.00000000e-02  4.57024109e-01  3.21516724e-09  3.31543974e-09  3.21017882e-09  3.24098392e-09  3.43394795e-09  3.24272187e-09  1.56646554e-07  1.62529901e-09  4.00000000e-02 
 5.00000000e-02  4.57024119e-01  3.21516724e-09  3.31543969e-09  3.21017882e-09  3.24098392e-09  3.43394795e-09  3.24272187e-09  1.56646570e-07  1.62483316e-09  5.00000000e-02 
 6.00000000e-02  4.57024118e-01  3.21516724e-09  3.31543974e-09  3.21017888e-09  3.24098392e-09  3.43394801e-09  3.24272187e-09  1.56646579e-07  1.62450764e-09  6.00000000e-02 
 7.00000000e-02  4.57024114e-01  3.21516724e-09  3.31543974e-09  3.21017882e-09  3.24098397e-09  3.43394795e-09  3.24272187e-09  1.56646563e-07  1.62418035e-09  7.00000000e-02 
 8.00000000e-02  4.57024103e-01  3.21516724e-09  3.31543974e-09  3.21017888e-09  3.24098392e-09  3.43394795e-09  3.24272182e-09  1.56646536e-07  1.62379443e-09  8.00000000e-02 
 9.00000000e-02  4.57024112e-01  3.21516718e-09  3.31543974e-09  3.21017882e-09  3.24098392e-09  3.43394800e-09  3.24272187e-09  1.56646563e-07  1.62347646e-09  9.00000000e-02 
 1.00000000e-01  4.57024115e-01  3.21516724e-09  3.31543974e-09  3.21017888e-09  3.24098392e-09  3.43394801e-09  3.24272187e-09  1.56646568e-07  1.62318692e-09  1.00000000e-01 
 1.10000000e-01  4.57024117e-01  3.21516724e-09  3.31543974e-09  3.21017882e-09  3.24098392e-09  3.43394801e-09  3.24272187e-09  1.56646572e-07  1.62280500e-09  1.10000000e-01 
 1.20000000e-01  4.57024096e-01  3.21516724e-09  3.31543974e-09  3.21017882e-09  3.24098392e-09  3.43394795e-09  3.24272187e-09  1.56646544e-07  1.62261493e-09  1.20000000e-01 
 1.30000000e-01  4.57024107e-01  3.21516724e-09  3.31543974e-09  3.21017882e-09  3.24098392e-09  3.43394795e-09  3.24272187e-09  1.56646553e-07  1.62232716e-09  1.30000000e-01 
 1.40000000e-01  4.57024096e-01  3.21516724e-09  3.31543974e-09  3.21017882e-09  3.24098392e-09  3.43394800e-09  3.24272187e-09  1.56646529e-07  1.62208025e-09  1.40000000e-01 
 1.50000000e-01  4.57024092e-01  3.21516724e-09  3.31543968e-09  3.21017888e-09  3.24098397e-09  3.43394800e-09  3.24272181e-09  1.56646536e-07  1.62186531e-09  1.50000000e-01 
 1.60000000e-01  4.57024108e-01  3.21516724e-09  3.31543974e-09  3.21017888e-09  3.24098392e-09  3.43394800e-09  3.24272182e-09  1.56646542e-07  1.62156155e-09  1.60000000e-01 
 1.70000000e-01  4.57024118e-01  3.21516724e-09  3.31543974e-09  3.21017882e-09  3.24098392e-09  3.43394801e-09  3.24272182e-09  1.56646577e-07  1.62134839e-09  1.70000000e-01 
 1.80000000e-01  4.57024099e-01  3.21516724e-09  3.31543974e-09  3.21017882e-09  3.24098392e-09  3.43394795e-09  3.24272187e-09  1.56646550e-07  1.62112812e-09  1.80000000e-01 
 1.90000000e-01  4.57024110e-01  3.21516724e-09  3.31543974e-09  3.21017888e-09  3.24098397e-09  3.43394800e-09  3.24272187e-09  1.56646541e-07  1.62092739e-09  1.90000000e-01 
 2.00000000e-01  4.57024094e-01  3.21516718e-09  3.31543968e-09  3.21017882e-09  3.24098392e-09  3.43394800e-09  3.24272181e-09  1.56646522e-07  1.62070002e-09  2.00000000e-01 
 2.10000000e-01  4.57024116e-01  3.21516724e-09  3.31543974e-09  3.21017882e-09  3.24098392e-09  3.43394801e-09  3.24272187e-09  1.56646555e-07  1.62052771e-09  2.10000000e-01 
 2.20000000e-01  4.57024130e-01  3.21516724e-09  3.31543974e-09  3.21017882e-09  3.24098392e-09  3.43394801e-09  3.24272182e-09  1.56646592e-07  1.62026659e-09  2.20000000e-01 
 2.30000000e-01  4.57024100e-01  3.21516724e-09  3.31543974e-09  3.21017882e-09  3.24098392e-09  3.43394800e-09  3.24272182e-09  1.56646552e-07  1.62011915e-09  2.30000000e-01 
 2.40000000e-01  4.57024115e-01  3.21516724e-09  3.31543974e-09  3.21017882e-09  3.24098397e-09  3.43394795e-09  3.24272182e-09  1.56646574e-07  1.61992730e-09  2.40000000e-01 
 2.50000000e-01  4.57024087e-01  3.21516724e-09  3.31543974e-09  3.21017882e-09  3.24098392e-09  3.43394800e-09  3.24272187e-09  1.56646536e-07  1.61978875e-09  2.50000000e-01 
 2.60000000e-01  4.57024131e-01  3.21516724e-09  3.31543974e-09  3.21017882e-09  3.24098392e-09  3.43394801e-09  3.24272182e-09  1.56646590e-07  1.61960756e-09  2.60000000e-01 
 2.70000000e-01  4.57024106e-01  3.21516724e-09  3.31543974e-09  3.21017882e-09  3.24098392e-09  3.43394800e-09  3.24272187e-09  1.56646546e-07  1.61944413e-09  2.70000000e-01 
 2.80000000e-01  4.57024107e-01  3.21516718e-09  3.31543974e-09  3.21017882e-09  3.24098392e-09  3.43394800e-09  3.24272182e-09  1.56646549e-07  1.61925229e-09  2.80000000e-01 
 2.90000000e-01  4.57024125e-01  3.21516724e-09  3.31543974e-09  3.21017888e-09  3.24098392e-09  3.43394795e-09  3.24272187e-09  1.56646578e-07  1.61920610e-09  2.90000000e-01 
 3.00000000e-01  4.57024117e-01  3.21516724e-09  3.31543974e-09  3.21017882e-09  3.24098392e-09  3.43394801e-09  3.24272182e-09  1.56646569e-07  1.61897873e-09  3.00000000e-01 
 3.10000000e-01  4.57024121e-01  3.21516724e-09  3.31543974e-09  3.21017882e-09  3.24098392e-09  3.43394801e-09  3.24272187e-09  1.56646587e-07  1.61883307e-09  3.10000000e-01 
 3.20000000e-01  4.57024119e-01  3.21516724e-09  3.31543974e-09  3.21017882e-09  3.24098397e-09  3.43394801e-09  3.24272187e-09  1.56646559e-07  1.61870872e-09  3.20000000e-01 
 3.30000000e-01  4.57024106e-01  3.21516724e-09  3.31543974e-09  3.21017888e-09  3.24098392e-09  3.43394795e-09  3.24272187e-09  1.56646545e-07  1.61855596e-09  3.30000000e-01 
 3.40000000e-01  4.57024108e-01  3.21516724e-09  3.31543974e-09  3.21017882e-09  3.24098392e-09  3.43394795e-09  3.24272182e-09  1.56646555e-07  1.61837477e-09  3.40000000e-01 
 3.50000000e-01  4.57024111e-01  3.21516724e-09  3.31543974e-09  3.21017882e-09  3.24098392e-09  3.43394795e-09  3.24272187e-09  1.56646560e-07  1.61823976e-09  3.50000000e-01 
 3.60000000e-01  4.57024095e-01  3.21516724e-09  3.31543974e-09  3.21017882e-09  3.24098392e-09  3.43394800e-09  3.24272187e-09  1.56646534e-07  1.61805858e-09  3.60000000e-01 
 3.70000000e-01  4.57024093e-01  3.21516724e-09  3.31543974e-09  3.21017882e-09  3.24098392e-09  3.43394800e-09  3.24272181e-09  1.56646532e-07  1.61805858e-09  3.70000000e-01 
 3.80000000e-01  4.57024109e-01  3.21516724e-09  3.31543974e-09  3.21017882e-09  3.24098392e-09  3.43394795e-09  3.24272182e-09  1.56646544e-07  1.61789870e-09  3.80000000e-01 
 3.90000000e-01  4.57024116e-01  3.21516724e-09  3.31543974e-09  3.21017882e-09  3.24098392e-09  3.43394801e-09  3.24272182e-09  1.56646569e-07  1.61776015e-09  3.90000000e-01 
 4.00000000e-01  4.57024105e-01  3.21516724e-09  3.31543974e-09  3.21017882e-09  3.24098392e-09  3.43394795e-09  3.24272187e-09  1.56646557e-07  1.61765712e-09  4.00000000e-01 
 4.10000000e-01  4.57024131e-01  3.21516724e-09  3.31543974e-09  3.21017882e-09  3.24098392e-09  3.43394795e-09  3.24272187e-09  1.56646596e-07  1.61751501e-09  4.10000000e-01 
 4.20000000e-01  4.57024097e-01  3.21516724e-09  3.31543974e-09  3.21017882e-09  3.24098397e-09  3.43394800e-09  3.24272181e-09  1.56646536e-07  1.61731251e-09  4.20000000e-01 
 4.30000000e-01  4.57024101e-01  3.21516724e-09  3.31543974e-09  3.21017888e-09  3.24098392e-09  3.43394795e-09  3.24272187e-09  1.56646559e-07  1.61712777e-09  4.30000000e-01 
 4.40000000e-01  4.57024118e-01  3.21516724e-09  3.31543974e-09  3.21017882e-09  3.24098392e-09  3.43394801e-09  3.24272187e-09  1.56646557e-07  1.61711711e-09  4.40000000e-01 
 4.50000000e-01  4.57024097e-01  3.21516724e-09  3.31543974e-09  3.21017888e-09  3.24098392e-09  3.43394800e-09  3.24272181e-09  1.56646530e-07  1.61699631e-09  4.50000000e-01 
 4.60000000e-01  4.57024106e-01  3.21516718e-09  3.31543974e-09  3.21017882e-09  3.24098392e-09  3.43394800e-09  3.24272182e-09  1.56646533e-07  1.61695368e-09  4.60000000e-01 
 4.70000000e-01  4.57024089e-01  3.21516724e-09  3.31543974e-09  3.21017882e-09  3.24098397e-09  3.43394800e-09  3.24272181e-09  1.56646527e-07  1.61670854e-09  4.70000000e-01 
 4.80000000e-01  4.57024139e-01  3.21516724e-09  3.31543969e-09  3.21017883e-09  3.24098392e-09  3.43394801e-09  3.24272182e-09  1.56646603e-07  1.61671565e-09  4.80000000e-01 
 4.90000000e-01  4.57024106e-01  3.21516724e-09  3.31543974e-09  3.21017882e-09  3.24098392e-09  3.43394800e-09  3.24272182e-09  1.56646563e-07  1.61650959e-09  4.90000000e-01 
 5.00000000e-01  4.57024114e-01  3.21516724e-09  3.31543974e-09  3.21017882e-09  3.24098397e-09  3.43394801e-09  3.24272182e-09  1.56646559e-07  1.61637459e-09  5.00000000e-01 
 5.10000000e-01  4.57024103e-01  3.21516724e-09  3.31543974e-09  3.21017888e-09  3.24098392e-09  3.43394800e-09  3.24272187e-09  1.56646527e-07  1.61627511e-09  5.10000000e-01 
 5.20000000e-01  4.57024089e-01  3.21516724e-09  3.31543974e-09  3.21017882e-09  3.24098392e-09  3.43394800e-09  3.24272187e-09  1.56646525e-07  1.61616498e-09  5.20000000e-01 
 5.30000000e-01  4.57024147e-01  3.21516724e-09  3.31543974e-09  3.21017883e-09  3.24098392e-09  3.43394801e-09  3.24272187e-09  1.56646605e-07  1.61609748e-09  5.30000000e-01 
 5.40000000e-01  4.57024101e-01  3.21516724e-09  3.31543974e-09  3.21017882e-09  3.24098392e-09  3.43394795e-09  3.24272187e-09  1.56646559e-07  1.61605129e-09  5.40000000e-01 
 5.50000000e-01  4.57024087e-01  3.21516724e-09  3.31543974e-09  3.21017888e-09  3.24098392e-09  3.43394800e-09  3.24272187e-09  1.56646517e-07  1.61587721e-09  5.50000000e-01 
 5.60000000e-01  4.57024111e-01  3.21516724e-09  3.31543974e-09  3.21017882e-09  3.24098392e-09  3.43394800e-09  3.24272187e-09  1.56646561e-07  1.61579550e-09  5.60000000e-01 
 5.70000000e-01  4.57024100e-01  3.21516724e-09  3.31543974e-09  3.21017882e-09  3.24098392e-09  3.43394795e-09  3.24272182e-09  1.56646547e-07  1.61557168e-09  5.70000000e-01 
 5.80000000e-01  4.57024112e-01  3.21516724e-09  3.31543974e-09  3.21017882e-09  3.24098392e-09  3.43394800e-09  3.24272182e-09  1.56646548e-07  1.61546154e-09  5.80000000e-01 
 5.90000000e-01  4.57024106e-01  3.21516724e-09  3.31543974e-09  3.21017882e-09  3.24098392e-09  3.43394800e-09  3.24272182e-09  1.56646545e-07  1.61540470e-09  5.90000000e-01 
 6.00000000e-01  4.57024103e-01  3.21516724e-09  3.31543974e-09  3.21017882e-09  3.24098392e-09  3.43394795e-09  3.24272187e-09  1.56646552e-07  1.61531943e-09  6.00000000e-01 
 6.10000000e-01  4.57024122e-01  3.21516724e-09  3.31543974e-09  3.21017882e-09  3.24098392e-09  3.43394801e-09  3.24272182e-09  1.56646580e-07  1.61517733e-09  6.10000000e-01 
 6.20000000e-01  4.57024112e-01  3.21516724e-09  3.31543974e-09  3.21017882e-09  3.24098392e-09  3.43394795e-09  3.24272182e-09  1.56646572e-07  1.61503522e-09  6.20000000e-01 
 6.30000000e-01  4.57024121e-01  3.21516724e-09  3.31543974e-09  3.21017882e-09  3.24098392e-09  3.43394801e-09  3.24272187e-09  1.56646577e-07  1.61493574e-09  6.30000000e-01 
 6.40000000e-01  4.57024090e-01  3.21516724e-09  3.31543974e-09  3.21017888e-09  3.24098392e-09  3.43394800e-09  3.24272181e-09  1.56646527e-07  1.61487179e-09  6.40000000e-01 
 6.50000000e-01  4.57024128e-01  3.21516724e-09  3.31543974e-09  3.21017882e-09  3.24098392e-09  3.43394795e-09  3.24272187e-09  1.56646588e-07  1.61480074e-09  6.50000000e-01 
 6.60000000e-01  4.57024112e-01  3.21516724e-09  3.31543974e-09  3.21017888e-09  3.24098397e-09  3.43394800e-09  3.24272182e-09  1.56646562e-07  1.61465152e-09  6.60000000e-01 
 6.70000000e-01  4.57024123e-01  3.21516724e-09  3.31543974e-09  3.21017882e-09  3.24098392e-09  3.43394795e-09  3.24272187e-09  1.56646578e-07  1.61439573e-09  6.70000000e-01 
 6.80000000e-01  4.57024111e-01  3.21516724e-09  3.31543974e-09  3.21017882e-09  3.24098392e-09  3.43394800e-09  3.24272182e-09  1.56646574e-07  1.61438152e-09  6.80000000e-01 
 6.90000000e-01  4.57024117e-01  3.21516724e-09  3.31543974e-09  3.21017882e-09  3.24098397e-09  3.43394801e-09  3.24272182e-09  1.56646562e-07  1.61428204e-09  6.90000000e-01 
 7.00000000e-01  4.57024091e-01  3.21516724e-09  3.31543974e-09  3.21017882e-09  3.24098397e-09  3.43394794e-09  3.24272187e-09  1.56646534e-07  1.61423941e-09  7.00000000e-01 
 7.10000000e-01  4.57024124e-01  3.21516724e-09  3.31543974e-09  3.21017882e-09  3.24098392e-09  3.43394801e-09  3.24272187e-09  1.56646589e-07  1.61406177e-09  7.10000000e-01 
 7.20000000e-01  4.57024093e-01  3.21516724e-09  3.31543974e-09  3.21017888e-09  3.24098392e-09  3.43394800e-09  3.24272187e-09  1.56646533e-07  1.61400493e-09  7.20000000e-01 
 7.30000000e-01  4.57024110e-01  3.21516724e-09  3.31543974e-09  3.21017882e-09  3.24098392e-09  3.43394800e-09  3.24272182e-09  1.56646567e-07  1.61382729e-09  7.30000000e-01 
 7.40000000e-01  4.57024097e-01  3.21516724e-09  3.31543974e-09  3.21017882e-09  3.24098397e-09  3.43394800e-09  3.24272187e-09  1.56646538e-07  1.61376335e-09  7.40000000e-01 
 7.50000000e-01  4.57024123e-01  3.21516724e-09  3.31543974e-09  3.21017882e-09  3.24098392e-09  3.43394795e-09  3.24272182e-09  1.56646571e-07  1.61362124e-09  7.50000000e-01 
 7.60000000e-01  4.57024102e-01  3.21516724e-09  3.31543968e-09  3.21017882e-09  3.24098392e-09  3.43394795e-09  3.24272187e-09  1.56646546e-07  1.61353597e-09  7.60000000e-01 
 7.70000000e-01  4.57024087e-01  3.21516724e-09  3.31543974e-09  3.21017882e-09  3.24098392e-09  3.43394800e-09  3.24272187e-09  1.56646513e-07  1.61345781e-09  7.70000000e-01 
 7.80000000e-01  4.57024123e-01  3.21516718e-09  3.31543974e-09  3.21017882e-09  3.24098392e-09  3.43394801e-09  3.24272187e-09  1.56646571e-07  1.61328728e-09  7.80000000e-01 
 7.90000000e-01  4.57024098e-01  3.21516724e-09  3.31543974e-09  3.21017882e-09  3.24098392e-09  3.43394795e-09  3.24272181e-09  1.56646540e-07  1.61315228e-09  7.90000000e-01 
 8.00000000e-01  4.57024105e-01  3.21516724e-09  3.31543974e-09  3.21017882e-09  3.24098392e-09  3.43394795e-09  3.24272182e-09  1.56646540e-07  1.61297464e-09  8.00000000e-01 
 8.10000000e-01  4.57024095e-01  3.21516724e-09  3.31543974e-09  3.21017882e-09  3.24098392e-09  3.43394795e-09  3.24272181e-09  1.56646537e-07  1.61288227e-09  8.10000000e-01 
 8.20000000e-01  4.57024124e-01  3.21516718e-09  3.31543974e-09  3.21017882e-09  3.24098392e-09  3.43394801e-09  3.24272182e-09  1.56646575e-07  1.61281832e-09  8.20000000e-01 
 8.30000000e-01  4.57024103e-01  3.21516724e-09  3.31543974e-09  3.21017882e-09  3.24098392e-09  3.43394795e-09  3.24272182e-09  1.56646557e-07  1.61265490e-09  8.30000000e-01 
 8.40000000e-01  4.57024097e-01  3.21516724e-09  3.31543974e-09  3.21017882e-09  3.24098392e-09  3.43394800e-09  3.24272187e-09  1.56646534e-07  1.61263358e-09  8.40000000e-01 
 8.50000000e-01  4.57024111e-01  3.21516724e-09  3.31543974e-09  3.21017882e-09  3.24098397e-09  3.43394795e-09  3.24272182e-09  1.56646570e-07  1.61252700e-09  8.50000000e-01 
 8.60000000e-01  4.57024110e-01  3.21516724e-09  3.31543974e-09  3.21017882e-09  3.24098392e-09  3.43394795e-09  3.24272182e-09  1.56646554e-07  1.61236358e-09  8.60000000e-01 
 8.70000000e-01  4.57024117e-01  3.21516724e-09  3.31543974e-09  3.21017888e-09  3.24098397e-09  3.43394795e-09  3.24272182e-09  1.56646574e-07  1.61220726e-09  8.70000000e-01 
 8.80000000e-01  4.57024104e-01  3.21516724e-09  3.31543974e-09  3.21017882e-09  3.24098392e-09  3.43394795e-09  3.24272182e-09  1.56646539e-07  1.61207225e-09  8.80000000e-01 
 8.90000000e-01  4.57024131e-01  3.21516724e-09  3.31543974e-09  3.21017888e-09  3.24098392e-09  3.43394801e-09  3.24272187e-09  1.56646580e-07  1.61200120e-09  8.90000000e-01 
 9.00000000e-01  4.57024104e-01  3.21516724e-09  3.31543974e-09  3.21017882e-09  3.24098392e-09  3.43394800e-09  3.24272182e-09  1.56646548e-07  1.61183777e-09  9.00000000e-01 
 9.10000000e-01  4.57024123e-01  3.21516724e-09  3.31543974e-09  3.21017882e-09  3.24098392e-09  3.43394795e-09  3.24272187e-09  1.56646563e-07  1.61168145e-09  9.10000000e-01 
 9.20000000e-01  4.57024080e-01  3.21516718e-09  3.31543974e-09  3.21017888e-09  3.24098397e-09  3.43394800e-09  3.24272187e-09  1.56646519e-07  1.61168856e-09  9.20000000e-01 
 9.30000000e-01  4.57024120e-01  3.21516724e-09  3.31543974e-09  3.21017882e-09  3.24098392e-09  3.43394795e-09  3.24272187e-09  1.56646592e-07  1.61159619e-09  9.30000000e-01 
 9.40000000e-01  4.57024107e-01  3.21516724e-09  3.31543974e-09  3.21017888e-09  3.24098392e-09  3.43394800e-09  3.24272182e-09  1.56646561e-07  1.61134039e-09  9.40000000e-01 
 9.50000000e-01  4.57024096e-01  3.21516724e-09  3.31543974e-09  3.21017882e-09  3.24098392e-09  3.43394800e-09  3.24272187e-09  1.56646536e-07  1.61124802e-09  9.50000000e-01 
 9.60000000e-01  4.57024097e-01  3.21516724e-09  3.31543974e-09  3.21017882e-09  3.24098392e-09  3.43394795e-09  3.24272181e-09  1.56646527e-07  1.61115565e-09  9.60000000e-01 
 9.70000000e-01  4.57024113e-01  3.21516724e-09  3.31543974e-09  3.21017888e-09  3.24098392e-09  3.43394795e-09  3.24272187e-09  1.56646562e-07  1.61107039e-09  9.70000000e-01 
 9.80000000e-01  4.57024114e-01  3.21516724e-09  3.31543974e-09  3.21017882e-09  3.24098392e-09  3.43394795e-09  3.24272182e-09  1.56646570e-07  1.61082880e-09  9.80000000e-01 
 9.90000000e-01  4.57024101e-01  3.21516718e-09  3.31543974e-09  3.21017882e-09  3.24098392e-09  3.43394800e-09  3.24272187e-09  1.56646543e-07  1.61074354e-09  9.90000000e-01 
 1.00000000e+00  4.57024083e-01  3.21516724e-09  3.31543974e-09  3.21017888e-09  3.24098391e-09  3.43394800e-09  3.24272187e-09  1.56646516e-07  1.61063696e-09  1.00000000e+00 
 1.01000000e+00  4.57024105e-01  3.21516724e-09  3.31543974e-09  3.21017882e-09  3.24098397e-09  3.43394800e-09  3.24272187e-09  1.56646543e-07  1.61053748e-09  1.01000000e+00 
 1.02000000e+00  4.57024100e-01  3.21516724e-09  3.31543974e-09  3.21017888e-09  3.24098392e-09  3.43394800e-09  3.24272182e-09  1.56646539e-07  1.61040958e-09  1.02000000e+00 
 1.03000000e+00  4.57024140e-01  3.21516718e-09  3.31543974e-09  3.21017883e-09  3.24098392e-09  3.43394795e-09  3.24272187e-09  1.56646596e-07  1.61023905e-09  1.03000000e+00 
 1.04000000e+00  4.57024110e-01  3.21516724e-09  3.31543974e-09  3.21017882e-09  3.24098392e-09  3.43394800e-09  3.24272187e-09  1.56646558e-07  1.61004010e-09  1.04000000e+00 
 1.05000000e+00  4.57024106e-01  3.21516724e-09  3.31543974e-09  3.21017888e-09  3.24098392e-09  3.43394800e-09  3.24272187e-09  1.56646546e-07  1.60996905e-09  1.05000000e+00 
 1.06000000e+00  4.57024103e-01  3.21516724e-09  3.31543974e-09  3.21017888e-09  3.24098397e-09  3.43394800e-09  3.24272182e-09  1.56646559e-07  1.60989799e-09  1.06000000e+00 
 1.07000000e+00  4.57024109e-01  3.21516724e-09  3.31543974e-09  3.21017882e-09  3.24098397e-09  3.43394800e-09  3.24272187e-09  1.56646553e-07  1.60978431e-09  1.07000000e+00 
 1.08000000e+00  4.57024113e-01  3.21516724e-09  3.31543974e-09  3.21017882e-09  3.24098392e-09  3.43394800e-09  3.24272187e-09  1.56646569e-07  1.60952141e-09  1.08000000e+00 
 1.09000000e+00  4.57024103e-01  3.21516724e-09  3.31543974e-09  3.21017882e-09  3.24098392e-09  3.43394800e-09  3.24272187e-09  1.56646557e-07  1.60945746e-09  1.09000000e+00 
 1.10000000e+00  4.57024101e-01  3.21516724e-09  3.31543974e-09  3.21017882e-09  3.24098392e-09  3.43394800e-09  3.24272182e-09  1.56646547e-07  1.60940772e-09  1.10000000e+00 
