 v-sweep         v(b0)           v(b1)           v(b2)           v(b3)           v(b4)           v(b5)           v(b6)           i(vbias)        i(viout)        v(vout)        
 0.00000000e+00  4.58357863e-01  4.58357863e-01  3.38584457e-09  4.58357863e-01  3.17861133e-09  3.00791410e-09  4.58357863e-01  1.57740114e-07  1.13361027e-07  0.00000000e+00 
 1.00000000e-02  4.58357850e-01  4.58357849e-01  3.38584455e-09  4.58357849e-01  3.17861135e-09  3.00791413e-09  4.58357849e-01  1.57740092e-07  1.13360581e-07  1.00000000e-02 
 2.00000000e-02  4.58357858e-01  4.58357858e-01  3.38584455e-09  4.58357858e-01  3.17861135e-09  3.00791412e-09  4.58357858e-01  1.57740119e-07  1.13360137e-07  2.00000000e-02 
 3.00000000e-02  4.58357829e-01  4.58357829e-01  3.38584454e-09  4.58357829e-01  3.17861135e-09  3.00791414e-09  4.58357829e-01  1.57740081e-07  1.13359767e-07  3.00000000e-02 
 4.00000000e-02  4.58357845e-01  4.58357845e-01  3.38584455e-09  4.58357845e-01  3.17861135e-09  3.00791412e-09  4.58357845e-01  1.57740113e-07  1.13359464e-07  4.00000000e-02 
 5.00000000e-02  4.58357869e-01  4.58357869e-01  3.38584455e-09  4.58357869e-01  3.17861136e-09  3.00791414e-09  4.58357869e-01  1.57740130e-07  1.13359206e-07  5.00000000e-02 
 6.00000000e-02  4.58357861e-01  4.58357861e-01  3.38584461e-09  4.58357861e-01  3.17861135e-09  3.00791412e-09  4.58357861e-01  1.57740118e-07  1.13358714e-07  6.00000000e-02 
 7.00000000e-02  4.58357830e-01  4.58357830e-01  3.38584453e-09  4.58357830e-01  3.17861135e-09  3.00791414e-09  4.58357830e-01  1.57740063e-07  1.13358367e-07  7.00000000e-02 
 8.00000000e-02  4.58357844e-01  4.58357844e-01  3.38584455e-09  4.58357844e-01  3.17861135e-09  3.00791418e-09  4.58357844e-01  1.57740095e-07  1.13357975e-07  8.00000000e-02 
 9.00000000e-02  4.58357830e-01  4.58357830e-01  3.38584460e-09  4.58357829e-01  3.17861135e-09  3.00791418e-09  4.58357830e-01  1.57740060e-07  1.13357778e-07  9.00000000e-02 
 1.00000000e-01  4.58357842e-01  4.58357842e-01  3.38584453e-09  4.58357842e-01  3.17861135e-09  3.00791413e-09  4.58357842e-01  1.57740096e-07  1.13357465e-07  1.00000000e-01 
 1.10000000e-01  4.58357867e-01  4.58357867e-01  3.38584456e-09  4.58357867e-01  3.17861136e-09  3.00791414e-09  4.58357867e-01  1.57740125e-07  1.13357356e-07  1.10000000e-01 
 1.20000000e-01  4.58357864e-01  4.58357864e-01  3.38584455e-09  4.58357864e-01  3.17861136e-09  3.00791412e-09  4.58357864e-01  1.57740127e-07  1.13357074e-07  1.20000000e-01 
 1.30000000e-01  4.58357834e-01  4.58357834e-01  3.38584460e-09  4.58357834e-01  3.17861135e-09  3.00791414e-09  4.58357834e-01  1.57740099e-07  1.13356753e-07  1.30000000e-01 
 1.40000000e-01  4.58357867e-01  4.58357867e-01  3.38584454e-09  4.58357867e-01  3.17861136e-09  3.00791412e-09  4.58357867e-01  1.57740124e-07  1.13356632e-07  1.40000000e-01 
 1.50000000e-01  4.58357857e-01  4.58357857e-01  3.38584455e-09  4.58357857e-01  3.17861135e-09  3.00791414e-09  4.58357857e-01  1.57740107e-07  1.13356284e-07  1.50000000e-01 
 1.60000000e-01  4.58357858e-01  4.58357858e-01  3.38584461e-09  4.58357858e-01  3.17861135e-09  3.00791412e-09  4.58357858e-01  1.57740117e-07  1.13356135e-07  1.60000000e-01 
 1.70000000e-01  4.58357842e-01  4.58357842e-01  3.38584459e-09  4.58357841e-01  3.17861135e-09  3.00791414e-09  4.58357841e-01  1.57740078e-07  1.13355890e-07  1.70000000e-01 
 1.80000000e-01  4.58357860e-01  4.58357860e-01  3.38584460e-09  4.58357860e-01  3.17861135e-09  3.00791412e-09  4.58357860e-01  1.57740121e-07  1.13355741e-07  1.80000000e-01 
 1.90000000e-01  4.58357868e-01  4.58357868e-01  3.38584460e-09  4.58357867e-01  3.17861136e-09  3.00791408e-09  4.58357867e-01  1.57740130e-07  1.13355510e-07  1.90000000e-01 
 2.00000000e-01  4.58357849e-01  4.58357848e-01  3.38584460e-09  4.58357848e-01  3.17861130e-09  3.00791413e-09  4.58357848e-01  1.57740098e-07  1.13355355e-07  2.00000000e-01 
 2.10000000e-01  4.58357846e-01  4.58357846e-01  3.38584460e-09  4.58357846e-01  3.17861131e-09  3.00791418e-09  4.58357846e-01  1.57740085e-07  1.13355160e-07  2.10000000e-01 
 2.20000000e-01  4.58357858e-01  4.58357858e-01  3.38584454e-09  4.58357858e-01  3.17861135e-09  3.00791413e-09  4.58357858e-01  1.57740104e-07  1.13355128e-07  2.20000000e-01 
 2.30000000e-01  4.58357847e-01  4.58357847e-01  3.38584455e-09  4.58357847e-01  3.17861135e-09  3.00791408e-09  4.58357847e-01  1.57740102e-07  1.13354773e-07  2.30000000e-01 
 2.40000000e-01  4.58357832e-01  4.58357832e-01  3.38584454e-09  4.58357832e-01  3.17861135e-09  3.00791413e-09  4.58357832e-01  1.57740069e-07  1.13354606e-07  2.40000000e-01 
 2.50000000e-01  4.58357846e-01  4.58357846e-01  3.38584460e-09  4.58357846e-01  3.17861135e-09  3.00791412e-09  4.58357846e-01  1.57740114e-07  1.13354515e-07  2.50000000e-01 
 2.60000000e-01  4.58357853e-01  4.58357853e-01  3.38584459e-09  4.58357853e-01  3.17861135e-09  3.00791414e-09  4.58357853e-01  1.57740100e-07  1.13354506e-07  2.60000000e-01 
 2.70000000e-01  4.58357872e-01  4.58357872e-01  3.38584454e-09  4.58357872e-01  3.17861136e-09  3.00791412e-09  4.58357872e-01  1.57740136e-07  1.13354291e-07  2.70000000e-01 
 2.80000000e-01  4.58357854e-01  4.58357854e-01  3.38584455e-09  4.58357854e-01  3.17861135e-09  3.00791414e-09  4.58357854e-01  1.57740099e-07  1.13354199e-07  2.80000000e-01 
 2.90000000e-01  4.58357862e-01  4.58357862e-01  3.38584461e-09  4.58357862e-01  3.17861135e-09  3.00791412e-09  4.58357862e-01  1.57740116e-07  1.13354123e-07  2.90000000e-01 
 3.00000000e-01  4.58357851e-01  4.58357851e-01  3.38584459e-09  4.58357851e-01  3.17861135e-09  3.00791414e-09  4.58357851e-01  1.57740095e-07  1.13353845e-07  3.00000000e-01 
 3.10000000e-01  4.58357858e-01  4.58357858e-01  3.38584460e-09  4.58357858e-01  3.17861135e-09  3.00791412e-09  4.58357858e-01  1.57740115e-07  1.13353838e-07  3.10000000e-01 
 3.20000000e-01  4.58357880e-01  4.58357880e-01  3.38584460e-09  4.58357880e-01  3.17861136e-09  3.00791414e-09  4.58357880e-01  1.57740150e-07  1.13353789e-07  3.20000000e-01 
 3.30000000e-01  4.58357863e-01  4.58357863e-01  3.38584454e-09  4.58357863e-01  3.17861136e-09  3.00791412e-09  4.58357863e-01  1.57740109e-07  1.13353551e-07  3.30000000e-01 
 3.40000000e-01  4.58357881e-01  4.58357881e-01  3.38584456e-09  4.58357881e-01  3.17861136e-09  3.00791414e-09  4.58357881e-01  1.57740139e-07  1.13353497e-07  3.40000000e-01 
 3.50000000e-01  4.58357866e-01  4.58357866e-01  3.38584461e-09  4.58357866e-01  3.17861136e-09  3.00791412e-09  4.58357866e-01  1.57740130e-07  1.13353341e-07  3.50000000e-01 
 3.60000000e-01  4.58357839e-01  4.58357839e-01  3.38584459e-09  4.58357839e-01  3.17861135e-09  3.00791414e-09  4.58357839e-01  1.57740072e-07  1.13353160e-07  3.60000000e-01 
 3.70000000e-01  4.58357860e-01  4.58357860e-01  3.38584460e-09  4.58357860e-01  3.17861135e-09  3.00791412e-09  4.58357860e-01  1.57740111e-07  1.13352986e-07  3.70000000e-01 
 3.80000000e-01  4.58357845e-01  4.58357845e-01  3.38584454e-09  4.58357845e-01  3.17861135e-09  3.00791408e-09  4.58357845e-01  1.57740097e-07  1.13352968e-07  3.80000000e-01 
 3.90000000e-01  4.58357864e-01  4.58357864e-01  3.38584456e-09  4.58357864e-01  3.17861136e-09  3.00791413e-09  4.58357864e-01  1.57740124e-07  1.13352840e-07  3.90000000e-01 
 4.00000000e-01  4.58357856e-01  4.58357856e-01  3.38584460e-09  4.58357856e-01  3.17861135e-09  3.00791412e-09  4.58357856e-01  1.57740109e-07  1.13352680e-07  4.00000000e-01 
 4.10000000e-01  4.58357847e-01  4.58357847e-01  3.38584459e-09  4.58357847e-01  3.17861135e-09  3.00791414e-09  4.58357847e-01  1.57740103e-07  1.13352730e-07  4.10000000e-01 
 4.20000000e-01  4.58357854e-01  4.58357854e-01  3.38584460e-09  4.58357854e-01  3.17861135e-09  3.00791412e-09  4.58357854e-01  1.57740111e-07  1.13352524e-07  4.20000000e-01 
 4.30000000e-01  4.58357848e-01  4.58357848e-01  3.38584454e-09  4.58357848e-01  3.17861135e-09  3.00791414e-09  4.58357848e-01  1.57740085e-07  1.13352485e-07  4.30000000e-01 
 4.40000000e-01  4.58357846e-01  4.58357846e-01  3.38584455e-09  4.58357846e-01  3.17861135e-09  3.00791418e-09  4.58357846e-01  1.57740108e-07  1.13352346e-07  4.40000000e-01 
 4.50000000e-01  4.58357875e-01  4.58357875e-01  3.38584461e-09  4.58357875e-01  3.17861136e-09  3.00791413e-09  4.58357875e-01  1.57740135e-07  1.13352382e-07  4.50000000e-01 
 4.60000000e-01  4.58357859e-01  4.58357859e-01  3.38584459e-09  4.58357859e-01  3.17861135e-09  3.00791414e-09  4.58357859e-01  1.57740119e-07  1.13352421e-07  4.60000000e-01 
 4.70000000e-01  4.58357848e-01  4.58357848e-01  3.38584460e-09  4.58357848e-01  3.17861135e-09  3.00791418e-09  4.58357848e-01  1.57740097e-07  1.13352119e-07  4.70000000e-01 
 4.80000000e-01  4.58357887e-01  4.58357887e-01  3.38584455e-09  4.58357887e-01  3.17861136e-09  3.00791413e-09  4.58357887e-01  1.57740155e-07  1.13352154e-07  4.80000000e-01 
 4.90000000e-01  4.58357842e-01  4.58357842e-01  3.38584455e-09  4.58357842e-01  3.17861135e-09  3.00791414e-09  4.58357842e-01  1.57740090e-07  1.13351987e-07  4.90000000e-01 
 5.00000000e-01  4.58357858e-01  4.58357858e-01  3.38584455e-09  4.58357858e-01  3.17861135e-09  3.00791412e-09  4.58357858e-01  1.57740110e-07  1.13351874e-07  5.00000000e-01 
 5.10000000e-01  4.58357853e-01  4.58357853e-01  3.38584460e-09  4.58357853e-01  3.17861135e-09  3.00791414e-09  4.58357853e-01  1.57740092e-07  1.13351831e-07  5.10000000e-01 
 5.20000000e-01  4.58357838e-01  4.58357838e-01  3.38584453e-09  4.58357838e-01  3.17861135e-09  3.00791418e-09  4.58357838e-01  1.57740086e-07  1.13351689e-07  5.20000000e-01 
 5.30000000e-01  4.58357860e-01  4.58357860e-01  3.38584461e-09  4.58357860e-01  3.17861135e-09  3.00791413e-09  4.58357860e-01  1.57740115e-07  1.13351749e-07  5.30000000e-01 
 5.40000000e-01  4.58357848e-01  4.58357848e-01  3.38584459e-09  4.58357848e-01  3.17861135e-09  3.00791414e-09  4.58357848e-01  1.57740094e-07  1.13351479e-07  5.40000000e-01 
 5.50000000e-01  4.58357834e-01  4.58357834e-01  3.38584454e-09  4.58357834e-01  3.17861135e-09  3.00791412e-09  4.58357834e-01  1.57740078e-07  1.13351522e-07  5.50000000e-01 
 5.60000000e-01  4.58357849e-01  4.58357849e-01  3.38584455e-09  4.58357849e-01  3.17861135e-09  3.00791414e-09  4.58357849e-01  1.57740100e-07  1.13351408e-07  5.60000000e-01 
 5.70000000e-01  4.58357831e-01  4.58357831e-01  3.38584454e-09  4.58357831e-01  3.17861135e-09  3.00791412e-09  4.58357831e-01  1.57740066e-07  1.13351344e-07  5.70000000e-01 
 5.80000000e-01  4.58357857e-01  4.58357857e-01  3.38584460e-09  4.58357857e-01  3.17861135e-09  3.00791414e-09  4.58357857e-01  1.57740120e-07  1.13351234e-07  5.80000000e-01 
 5.90000000e-01  4.58357829e-01  4.58357829e-01  3.38584459e-09  4.58357829e-01  3.17861135e-09  3.00791418e-09  4.58357829e-01  1.57740068e-07  1.13351142e-07  5.90000000e-01 
 6.00000000e-01  4.58357841e-01  4.58357841e-01  3.38584455e-09  4.58357841e-01  3.17861135e-09  3.00791413e-09  4.58357841e-01  1.57740094e-07  1.13351206e-07  6.00000000e-01 
 6.10000000e-01  4.58357843e-01  4.58357843e-01  3.38584455e-09  4.58357843e-01  3.17861135e-09  3.00791414e-09  4.58357843e-01  1.57740074e-07  1.13350922e-07  6.10000000e-01 
 6.20000000e-01  4.58357863e-01  4.58357863e-01  3.38584461e-09  4.58357863e-01  3.17861136e-09  3.00791418e-09  4.58357863e-01  1.57740126e-07  1.13350957e-07  6.20000000e-01 
 6.30000000e-01  4.58357849e-01  4.58357849e-01  3.38584453e-09  4.58357849e-01  3.17861135e-09  3.00791413e-09  4.58357849e-01  1.57740106e-07  1.13350922e-07  6.30000000e-01 
 6.40000000e-01  4.58357866e-01  4.58357866e-01  3.38584461e-09  4.58357866e-01  3.17861136e-09  3.00791414e-09  4.58357866e-01  1.57740132e-07  1.13350801e-07  6.40000000e-01 
 6.50000000e-01  4.58357822e-01  4.58357822e-01  3.38584453e-09  4.58357821e-01  3.17861135e-09  3.00791412e-09  4.58357822e-01  1.57740061e-07  1.13350765e-07  6.50000000e-01 
 6.60000000e-01  4.58357859e-01  4.58357859e-01  3.38584455e-09  4.58357859e-01  3.17861135e-09  3.00791414e-09  4.58357859e-01  1.57740126e-07  1.13350680e-07  6.60000000e-01 
 6.70000000e-01  4.58357879e-01  4.58357879e-01  3.38584461e-09  4.58357879e-01  3.17861136e-09  3.00791412e-09  4.58357879e-01  1.57740136e-07  1.13350616e-07  6.70000000e-01 
 6.80000000e-01  4.58357861e-01  4.58357861e-01  3.38584459e-09  4.58357861e-01  3.17861135e-09  3.00791414e-09  4.58357861e-01  1.57740108e-07  1.13350495e-07  6.80000000e-01 
 6.90000000e-01  4.58357842e-01  4.58357842e-01  3.38584460e-09  4.58357842e-01  3.17861135e-09  3.00791412e-09  4.58357842e-01  1.57740088e-07  1.13350403e-07  6.90000000e-01 
 7.00000000e-01  4.58357864e-01  4.58357864e-01  3.38584460e-09  4.58357864e-01  3.17861136e-09  3.00791414e-09  4.58357864e-01  1.57740113e-07  1.13350303e-07  7.00000000e-01 
 7.10000000e-01  4.58357844e-01  4.58357844e-01  3.38584460e-09  4.58357844e-01  3.17861135e-09  3.00791412e-09  4.58357844e-01  1.57740088e-07  1.13350204e-07  7.10000000e-01 
 7.20000000e-01  4.58357852e-01  4.58357852e-01  3.38584460e-09  4.58357852e-01  3.17861135e-09  3.00791414e-09  4.58357852e-01  1.57740102e-07  1.13350197e-07  7.20000000e-01 
 7.30000000e-01  4.58357853e-01  4.58357852e-01  3.38584460e-09  4.58357852e-01  3.17861135e-09  3.00791412e-09  4.58357852e-01  1.57740112e-07  1.13350083e-07  7.30000000e-01 
 7.40000000e-01  4.58357887e-01  4.58357887e-01  3.38584455e-09  4.58357887e-01  3.17861136e-09  3.00791414e-09  4.58357887e-01  1.57740142e-07  1.13350133e-07  7.40000000e-01 
 7.50000000e-01  4.58357870e-01  4.58357870e-01  3.38584456e-09  4.58357870e-01  3.17861136e-09  3.00791418e-09  4.58357870e-01  1.57740134e-07  1.13350019e-07  7.50000000e-01 
 7.60000000e-01  4.58357863e-01  4.58357863e-01  3.38584461e-09  4.58357863e-01  3.17861136e-09  3.00791413e-09  4.58357863e-01  1.57740123e-07  1.13349913e-07  7.60000000e-01 
 7.70000000e-01  4.58357835e-01  4.58357835e-01  3.38584453e-09  4.58357834e-01  3.17861135e-09  3.00791414e-09  4.58357835e-01  1.57740067e-07  1.13349770e-07  7.70000000e-01 
 7.80000000e-01  4.58357857e-01  4.58357857e-01  3.38584461e-09  4.58357857e-01  3.17861135e-09  3.00791418e-09  4.58357857e-01  1.57740110e-07  1.13349593e-07  7.80000000e-01 
 7.90000000e-01  4.58357865e-01  4.58357865e-01  3.38584454e-09  4.58357865e-01  3.17861136e-09  3.00791413e-09  4.58357865e-01  1.57740117e-07  1.13349635e-07  7.90000000e-01 
 8.00000000e-01  4.58357861e-01  4.58357861e-01  3.38584455e-09  4.58357861e-01  3.17861135e-09  3.00791414e-09  4.58357861e-01  1.57740103e-07  1.13349486e-07  8.00000000e-01 
 8.10000000e-01  4.58357868e-01  4.58357868e-01  3.38584461e-09  4.58357868e-01  3.17861136e-09  3.00791418e-09  4.58357868e-01  1.57740119e-07  1.13349472e-07  8.10000000e-01 
 8.20000000e-01  4.58357876e-01  4.58357876e-01  3.38584460e-09  4.58357876e-01  3.17861136e-09  3.00791413e-09  4.58357876e-01  1.57740140e-07  1.13349358e-07  8.20000000e-01 
 8.30000000e-01  4.58357851e-01  4.58357851e-01  3.38584460e-09  4.58357850e-01  3.17861135e-09  3.00791414e-09  4.58357851e-01  1.57740108e-07  1.13349280e-07  8.30000000e-01 
 8.40000000e-01  4.58357867e-01  4.58357867e-01  3.38584460e-09  4.58357867e-01  3.17861136e-09  3.00791412e-09  4.58357867e-01  1.57740121e-07  1.13349273e-07  8.40000000e-01 
 8.50000000e-01  4.58357860e-01  4.58357860e-01  3.38584454e-09  4.58357860e-01  3.17861135e-09  3.00791414e-09  4.58357860e-01  1.57740122e-07  1.13349159e-07  8.50000000e-01 
 8.60000000e-01  4.58357858e-01  4.58357858e-01  3.38584461e-09  4.58357858e-01  3.17861135e-09  3.00791412e-09  4.58357858e-01  1.57740121e-07  1.13349095e-07  8.60000000e-01 
 8.70000000e-01  4.58357871e-01  4.58357871e-01  3.38584454e-09  4.58357871e-01  3.17861136e-09  3.00791414e-09  4.58357871e-01  1.57740134e-07  1.13349024e-07  8.70000000e-01 
 8.80000000e-01  4.58357838e-01  4.58357838e-01  3.38584455e-09  4.58357838e-01  3.17861135e-09  3.00791418e-09  4.58357838e-01  1.57740079e-07  1.13348754e-07  8.80000000e-01 
 8.90000000e-01  4.58357869e-01  4.58357869e-01  3.38584455e-09  4.58357869e-01  3.17861136e-09  3.00791413e-09  4.58357869e-01  1.57740144e-07  1.13348861e-07  8.90000000e-01 
 9.00000000e-01  4.58357855e-01  4.58357855e-01  3.38584455e-09  4.58357855e-01  3.17861135e-09  3.00791414e-09  4.58357855e-01  1.57740106e-07  1.13348698e-07  9.00000000e-01 
 9.10000000e-01  4.58357862e-01  4.58357862e-01  3.38584461e-09  4.58357861e-01  3.17861135e-09  3.00791412e-09  4.58357862e-01  1.57740124e-07  1.13348527e-07  9.10000000e-01 
 9.20000000e-01  4.58357831e-01  4.58357831e-01  3.38584453e-09  4.58357831e-01  3.17861135e-09  3.00791414e-09  4.58357831e-01  1.57740076e-07  1.13348520e-07  9.20000000e-01 
 9.30000000e-01  4.58357844e-01  4.58357844e-01  3.38584455e-09  4.58357844e-01  3.17861135e-09  3.00791412e-09  4.58357844e-01  1.57740095e-07  1.13348392e-07  9.30000000e-01 
 9.40000000e-01  4.58357872e-01  4.58357872e-01  3.38584461e-09  4.58357872e-01  3.17861136e-09  3.00791414e-09  4.58357872e-01  1.57740135e-07  1.13348484e-07  9.40000000e-01 
 9.50000000e-01  4.58357839e-01  4.58357839e-01  3.38584453e-09  4.58357839e-01  3.17861135e-09  3.00791412e-09  4.58357839e-01  1.57740081e-07  1.13348200e-07  9.50000000e-01 
 9.60000000e-01  4.58357842e-01  4.58357842e-01  3.38584455e-09  4.58357842e-01  3.17861135e-09  3.00791414e-09  4.58357842e-01  1.57740091e-07  1.13348072e-07  9.60000000e-01 
 9.70000000e-01  4.58357851e-01  4.58357851e-01  3.38584460e-09  4.58357851e-01  3.17861135e-09  3.00791418e-09  4.58357851e-01  1.57740103e-07  1.13348086e-07  9.70000000e-01 
 9.80000000e-01  4.58357854e-01  4.58357854e-01  3.38584459e-09  4.58357854e-01  3.17861135e-09  3.00791413e-09  4.58357854e-01  1.57740103e-07  1.13347930e-07  9.80000000e-01 
 9.90000000e-01  4.58357854e-01  4.58357854e-01  3.38584454e-09  4.58357854e-01  3.17861135e-09  3.00791414e-09  4.58357854e-01  1.57740110e-07  1.13347902e-07  9.90000000e-01 
 1.00000000e+00  4.58357858e-01  4.58357858e-01  3.38584461e-09  4.58357858e-01  3.17861135e-09  3.00791412e-09  4.58357858e-01  1.57740119e-07  1.13347902e-07  1.00000000e+00 
 1.01000000e+00  4.58357844e-01  4.58357844e-01  3.38584459e-09  4.58357844e-01  3.17861135e-09  3.00791414e-09  4.58357844e-01  1.57740099e-07  1.13347831e-07  1.01000000e+00 
 1.02000000e+00  4.58357839e-01  4.58357839e-01  3.38584454e-09  4.58357839e-01  3.17861135e-09  3.00791412e-09  4.58357839e-01  1.57740099e-07  1.13347575e-07  1.02000000e+00 
 1.03000000e+00  4.58357853e-01  4.58357853e-01  3.38584455e-09  4.58357853e-01  3.17861135e-09  3.00791414e-09  4.58357853e-01  1.57740111e-07  1.13347639e-07  1.03000000e+00 
 1.04000000e+00  4.58357875e-01  4.58357875e-01  3.38584461e-09  4.58357875e-01  3.17861136e-09  3.00791412e-09  4.58357875e-01  1.57740136e-07  1.13347518e-07  1.04000000e+00 
 1.05000000e+00  4.58357843e-01  4.58357843e-01  3.38584453e-09  4.58357843e-01  3.17861135e-09  3.00791414e-09  4.58357843e-01  1.57740101e-07  1.13347241e-07  1.05000000e+00 
 1.06000000e+00  4.58357856e-01  4.58357856e-01  3.38584455e-09  4.58357856e-01  3.17861135e-09  3.00791418e-09  4.58357856e-01  1.57740114e-07  1.13347241e-07  1.06000000e+00 
 1.07000000e+00  4.58357843e-01  4.58357843e-01  3.38584460e-09  4.58357843e-01  3.17861135e-09  3.00791413e-09  4.58357843e-01  1.57740097e-07  1.13347177e-07  1.07000000e+00 
 1.08000000e+00  4.58357863e-01  4.58357863e-01  3.38584459e-09  4.58357863e-01  3.17861136e-09  3.00791414e-09  4.58357863e-01  1.57740113e-07  1.13347035e-07  1.08000000e+00 
 1.09000000e+00  4.58357840e-01  4.58357840e-01  3.38584454e-09  4.58357840e-01  3.17861135e-09  3.00791412e-09  4.58357840e-01  1.57740093e-07  1.13346907e-07  1.09000000e+00 
 1.10000000e+00  4.58357855e-01  4.58357855e-01  3.38584461e-09  4.58357855e-01  3.17861135e-09  3.00791414e-09  4.58357855e-01  1.57740119e-07  1.13346886e-07  1.10000000e+00 
