 v-sweep         v(b0)           v(b1)           v(b2)           v(b3)           v(b4)           v(b5)           v(b6)           i(vbias)        i(viout)        v(vout)        
 0.00000000e+00  4.58587742e-01  4.58587742e-01  4.58587741e-01  4.58587742e-01  3.10222784e-09  3.24353924e-09  3.30590608e-09  1.59490685e-07  2.41610205e-08  0.00000000e+00 
 1.00000000e-02  4.58587756e-01  4.58587756e-01  4.58587756e-01  4.58587756e-01  3.10222782e-09  3.24353928e-09  3.30590606e-09  1.59490707e-07  2.41606068e-08  1.00000000e-02 
 2.00000000e-02  4.58587755e-01  4.58587755e-01  4.58587755e-01  4.58587755e-01  3.10222782e-09  3.24353928e-09  3.30590600e-09  1.59490714e-07  2.41602660e-08  2.00000000e-02 
 3.00000000e-02  4.58587767e-01  4.58587766e-01  4.58587766e-01  4.58587767e-01  3.10222782e-09  3.24353928e-09  3.30590606e-09  1.59490723e-07  2.41598594e-08  3.00000000e-02 
 4.00000000e-02  4.58587741e-01  4.58587741e-01  4.58587741e-01  4.58587741e-01  3.10222782e-09  3.24353928e-09  3.30590606e-09  1.59490694e-07  2.41595464e-08  4.00000000e-02 
 5.00000000e-02  4.58587752e-01  4.58587752e-01  4.58587752e-01  4.58587752e-01  3.10222782e-09  3.24353928e-09  3.30590606e-09  1.59490691e-07  2.41593172e-08  5.00000000e-02 
 6.00000000e-02  4.58587765e-01  4.58587764e-01  4.58587764e-01  4.58587765e-01  3.10222782e-09  3.24353928e-09  3.30590606e-09  1.59490716e-07  2.41589513e-08  6.00000000e-02 
 7.00000000e-02  4.58587769e-01  4.58587769e-01  4.58587769e-01  4.58587769e-01  3.10222782e-09  3.24353928e-09  3.30590606e-09  1.59490726e-07  2.41588323e-08  7.00000000e-02 
 8.00000000e-02  4.58587757e-01  4.58587757e-01  4.58587757e-01  4.58587757e-01  3.10222782e-09  3.24353928e-09  3.30590600e-09  1.59490723e-07  2.41583979e-08  8.00000000e-02 
 9.00000000e-02  4.58587766e-01  4.58587766e-01  4.58587766e-01  4.58587766e-01  3.10222776e-09  3.24353928e-09  3.30590606e-09  1.59490725e-07  2.41580906e-08  9.00000000e-02 
 1.00000000e-01  4.58587756e-01  4.58587756e-01  4.58587756e-01  4.58587756e-01  3.10222783e-09  3.24353928e-09  3.30590606e-09  1.59490707e-07  2.41578784e-08  1.00000000e-01 
 1.10000000e-01  4.58587768e-01  4.58587768e-01  4.58587768e-01  4.58587768e-01  3.10222782e-09  3.24353922e-09  3.30590606e-09  1.59490724e-07  2.41575995e-08  1.10000000e-01 
 1.20000000e-01  4.58587759e-01  4.58587759e-01  4.58587759e-01  4.58587759e-01  3.10222782e-09  3.24353928e-09  3.30590600e-09  1.59490712e-07  2.41574609e-08  1.20000000e-01 
 1.30000000e-01  4.58587751e-01  4.58587751e-01  4.58587751e-01  4.58587751e-01  3.10222782e-09  3.24353928e-09  3.30590600e-09  1.59490702e-07  2.41571536e-08  1.30000000e-01 
 1.40000000e-01  4.58587756e-01  4.58587756e-01  4.58587756e-01  4.58587756e-01  3.10222782e-09  3.24353922e-09  3.30590606e-09  1.59490705e-07  2.41568943e-08  1.40000000e-01 
 1.50000000e-01  4.58587752e-01  4.58587752e-01  4.58587752e-01  4.58587752e-01  3.10222782e-09  3.24353928e-09  3.30590606e-09  1.59490707e-07  2.41567921e-08  1.50000000e-01 
 1.60000000e-01  4.58587769e-01  4.58587769e-01  4.58587769e-01  4.58587769e-01  3.10222776e-09  3.24353928e-09  3.30590606e-09  1.59490721e-07  2.41565488e-08  1.60000000e-01 
 1.70000000e-01  4.58587770e-01  4.58587770e-01  4.58587770e-01  4.58587770e-01  3.10222783e-09  3.24353928e-09  3.30590606e-09  1.59490733e-07  2.41563960e-08  1.70000000e-01 
 1.80000000e-01  4.58587747e-01  4.58587747e-01  4.58587747e-01  4.58587747e-01  3.10222781e-09  3.24353928e-09  3.30590606e-09  1.59490695e-07  2.41561793e-08  1.80000000e-01 
 1.90000000e-01  4.58587751e-01  4.58587751e-01  4.58587750e-01  4.58587751e-01  3.10222776e-09  3.24353928e-09  3.30590600e-09  1.59490691e-07  2.41560194e-08  1.90000000e-01 
 2.00000000e-01  4.58587790e-01  4.58587790e-01  4.58587790e-01  4.58587790e-01  3.10222778e-09  3.24353928e-09  3.30590606e-09  1.59490775e-07  2.41559714e-08  2.00000000e-01 
 2.10000000e-01  4.58587747e-01  4.58587747e-01  4.58587747e-01  4.58587747e-01  3.10222783e-09  3.24353928e-09  3.30590606e-09  1.59490685e-07  2.41557814e-08  2.10000000e-01 
 2.20000000e-01  4.58587756e-01  4.58587756e-01  4.58587756e-01  4.58587756e-01  3.10222782e-09  3.24353928e-09  3.30590606e-09  1.59490705e-07  2.41556517e-08  2.20000000e-01 
 2.30000000e-01  4.58587781e-01  4.58587781e-01  4.58587781e-01  4.58587781e-01  3.10222777e-09  3.24353928e-09  3.30590601e-09  1.59490744e-07  2.41555362e-08  2.30000000e-01 
 2.40000000e-01  4.58587754e-01  4.58587754e-01  4.58587754e-01  4.58587754e-01  3.10222783e-09  3.24353922e-09  3.30590606e-09  1.59490706e-07  2.41553728e-08  2.40000000e-01 
 2.50000000e-01  4.58587779e-01  4.58587779e-01  4.58587779e-01  4.58587779e-01  3.10222782e-09  3.24353928e-09  3.30590606e-09  1.59490745e-07  2.41552716e-08  2.50000000e-01 
 2.60000000e-01  4.58587766e-01  4.58587766e-01  4.58587766e-01  4.58587766e-01  3.10222782e-09  3.24353928e-09  3.30590600e-09  1.59490710e-07  2.41551579e-08  2.60000000e-01 
 2.70000000e-01  4.58587762e-01  4.58587762e-01  4.58587762e-01  4.58587762e-01  3.10222782e-09  3.24353928e-09  3.30590606e-09  1.59490720e-07  2.41550708e-08  2.70000000e-01 
 2.80000000e-01  4.58587761e-01  4.58587761e-01  4.58587761e-01  4.58587761e-01  3.10222782e-09  3.24353922e-09  3.30590600e-09  1.59490715e-07  2.41550193e-08  2.80000000e-01 
 2.90000000e-01  4.58587742e-01  4.58587742e-01  4.58587742e-01  4.58587742e-01  3.10222782e-09  3.24353928e-09  3.30590606e-09  1.59490689e-07  2.41547689e-08  2.90000000e-01 
 3.00000000e-01  4.58587753e-01  4.58587753e-01  4.58587753e-01  4.58587753e-01  3.10222782e-09  3.24353928e-09  3.30590606e-09  1.59490684e-07  2.41547262e-08  3.00000000e-01 
 3.10000000e-01  4.58587771e-01  4.58587771e-01  4.58587771e-01  4.58587771e-01  3.10222777e-09  3.24353928e-09  3.30590606e-09  1.59490734e-07  2.41546054e-08  3.10000000e-01 
 3.20000000e-01  4.58587763e-01  4.58587763e-01  4.58587763e-01  4.58587764e-01  3.10222783e-09  3.24353928e-09  3.30590606e-09  1.59490715e-07  2.41544704e-08  3.20000000e-01 
 3.30000000e-01  4.58587786e-01  4.58587786e-01  4.58587786e-01  4.58587786e-01  3.10222782e-09  3.24353928e-09  3.30590601e-09  1.59490760e-07  2.41544562e-08  3.30000000e-01 
 3.40000000e-01  4.58587777e-01  4.58587777e-01  4.58587777e-01  4.58587777e-01  3.10222782e-09  3.24353928e-09  3.30590606e-09  1.59490725e-07  2.41542573e-08  3.40000000e-01 
 3.50000000e-01  4.58587770e-01  4.58587770e-01  4.58587770e-01  4.58587770e-01  3.10222777e-09  3.24353928e-09  3.30590600e-09  1.59490734e-07  2.41541294e-08  3.50000000e-01 
 3.60000000e-01  4.58587754e-01  4.58587754e-01  4.58587754e-01  4.58587754e-01  3.10222783e-09  3.24353928e-09  3.30590606e-09  1.59490711e-07  2.41541116e-08  3.60000000e-01 
 3.70000000e-01  4.58587762e-01  4.58587762e-01  4.58587762e-01  4.58587762e-01  3.10222782e-09  3.24353928e-09  3.30590600e-09  1.59490730e-07  2.41540228e-08  3.70000000e-01 
 3.80000000e-01  4.58587791e-01  4.58587790e-01  4.58587790e-01  4.58587791e-01  3.10222782e-09  3.24353923e-09  3.30590601e-09  1.59490762e-07  2.41539482e-08  3.80000000e-01 
 3.90000000e-01  4.58587756e-01  4.58587756e-01  4.58587756e-01  4.58587756e-01  3.10222776e-09  3.24353928e-09  3.30590606e-09  1.59490700e-07  2.41538309e-08  3.90000000e-01 
 4.00000000e-01  4.58587759e-01  4.58587759e-01  4.58587759e-01  4.58587759e-01  3.10222778e-09  3.24353928e-09  3.30590600e-09  1.59490706e-07  2.41538984e-08  4.00000000e-01 
 4.10000000e-01  4.58587774e-01  4.58587774e-01  4.58587774e-01  4.58587774e-01  3.10222783e-09  3.24353922e-09  3.30590606e-09  1.59490737e-07  2.41537528e-08  4.10000000e-01 
 4.20000000e-01  4.58587771e-01  4.58587771e-01  4.58587771e-01  4.58587771e-01  3.10222782e-09  3.24353928e-09  3.30590600e-09  1.59490727e-07  2.41536462e-08  4.20000000e-01 
 4.30000000e-01  4.58587738e-01  4.58587738e-01  4.58587738e-01  4.58587738e-01  3.10222782e-09  3.24353922e-09  3.30590600e-09  1.59490681e-07  2.41536320e-08  4.30000000e-01 
 4.40000000e-01  4.58587738e-01  4.58587738e-01  4.58587738e-01  4.58587738e-01  3.10222782e-09  3.24353928e-09  3.30590606e-09  1.59490685e-07  2.41536426e-08  4.40000000e-01 
 4.50000000e-01  4.58587748e-01  4.58587747e-01  4.58587747e-01  4.58587748e-01  3.10222782e-09  3.24353928e-09  3.30590600e-09  1.59490691e-07  2.41534899e-08  4.50000000e-01 
 4.60000000e-01  4.58587775e-01  4.58587775e-01  4.58587775e-01  4.58587775e-01  3.10222777e-09  3.24353928e-09  3.30590601e-09  1.59490737e-07  2.41533691e-08  4.60000000e-01 
 4.70000000e-01  4.58587765e-01  4.58587764e-01  4.58587764e-01  4.58587765e-01  3.10222783e-09  3.24353928e-09  3.30590600e-09  1.59490722e-07  2.41534082e-08  4.70000000e-01 
 4.80000000e-01  4.58587767e-01  4.58587767e-01  4.58587767e-01  4.58587767e-01  3.10222776e-09  3.24353928e-09  3.30590600e-09  1.59490722e-07  2.41533158e-08  4.80000000e-01 
 4.90000000e-01  4.58587775e-01  4.58587774e-01  4.58587774e-01  4.58587775e-01  3.10222783e-09  3.24353928e-09  3.30590606e-09  1.59490744e-07  2.41532661e-08  4.90000000e-01 
 5.00000000e-01  4.58587767e-01  4.58587767e-01  4.58587767e-01  4.58587767e-01  3.10222782e-09  3.24353928e-09  3.30590606e-09  1.59490719e-07  2.41532199e-08  5.00000000e-01 
 5.10000000e-01  4.58587762e-01  4.58587762e-01  4.58587762e-01  4.58587762e-01  3.10222782e-09  3.24353922e-09  3.30590606e-09  1.59490722e-07  2.41531737e-08  5.10000000e-01 
 5.20000000e-01  4.58587767e-01  4.58587767e-01  4.58587767e-01  4.58587767e-01  3.10222782e-09  3.24353928e-09  3.30590600e-09  1.59490726e-07  2.41530422e-08  5.20000000e-01 
 5.30000000e-01  4.58587756e-01  4.58587756e-01  4.58587756e-01  4.58587756e-01  3.10222782e-09  3.24353928e-09  3.30590606e-09  1.59490705e-07  2.41529925e-08  5.30000000e-01 
 5.40000000e-01  4.58587773e-01  4.58587773e-01  4.58587773e-01  4.58587773e-01  3.10222782e-09  3.24353928e-09  3.30590606e-09  1.59490734e-07  2.41529534e-08  5.40000000e-01 
 5.50000000e-01  4.58587752e-01  4.58587752e-01  4.58587752e-01  4.58587752e-01  3.10222782e-09  3.24353922e-09  3.30590606e-09  1.59490702e-07  2.41529960e-08  5.50000000e-01 
 5.60000000e-01  4.58587766e-01  4.58587765e-01  4.58587765e-01  4.58587766e-01  3.10222782e-09  3.24353928e-09  3.30590606e-09  1.59490726e-07  2.41528753e-08  5.60000000e-01 
 5.70000000e-01  4.58587755e-01  4.58587755e-01  4.58587755e-01  4.58587755e-01  3.10222782e-09  3.24353928e-09  3.30590600e-09  1.59490708e-07  2.41527829e-08  5.70000000e-01 
 5.80000000e-01  4.58587758e-01  4.58587758e-01  4.58587758e-01  4.58587758e-01  3.10222782e-09  3.24353928e-09  3.30590606e-09  1.59490707e-07  2.41527474e-08  5.80000000e-01 
 5.90000000e-01  4.58587761e-01  4.58587761e-01  4.58587761e-01  4.58587761e-01  3.10222782e-09  3.24353928e-09  3.30590606e-09  1.59490715e-07  2.41527047e-08  5.90000000e-01 
 6.00000000e-01  4.58587759e-01  4.58587759e-01  4.58587759e-01  4.58587759e-01  3.10222782e-09  3.24353928e-09  3.30590606e-09  1.59490723e-07  2.41527260e-08  6.00000000e-01 
 6.10000000e-01  4.58587756e-01  4.58587756e-01  4.58587756e-01  4.58587757e-01  3.10222782e-09  3.24353922e-09  3.30590600e-09  1.59490697e-07  2.41525342e-08  6.10000000e-01 
 6.20000000e-01  4.58587773e-01  4.58587773e-01  4.58587773e-01  4.58587773e-01  3.10222782e-09  3.24353922e-09  3.30590601e-09  1.59490744e-07  2.41525271e-08  6.20000000e-01 
 6.30000000e-01  4.58587762e-01  4.58587762e-01  4.58587762e-01  4.58587762e-01  3.10222782e-09  3.24353928e-09  3.30590600e-09  1.59490714e-07  2.41525271e-08  6.30000000e-01 
 6.40000000e-01  4.58587773e-01  4.58587773e-01  4.58587773e-01  4.58587773e-01  3.10222782e-09  3.24353928e-09  3.30590606e-09  1.59490734e-07  2.41524276e-08  6.40000000e-01 
 6.50000000e-01  4.58587772e-01  4.58587772e-01  4.58587772e-01  4.58587772e-01  3.10222777e-09  3.24353928e-09  3.30590606e-09  1.59490733e-07  2.41523495e-08  6.50000000e-01 
 6.60000000e-01  4.58587763e-01  4.58587763e-01  4.58587763e-01  4.58587764e-01  3.10222778e-09  3.24353928e-09  3.30590600e-09  1.59490721e-07  2.41523423e-08  6.60000000e-01 
 6.70000000e-01  4.58587758e-01  4.58587758e-01  4.58587758e-01  4.58587758e-01  3.10222777e-09  3.24353928e-09  3.30590606e-09  1.59490701e-07  2.41522713e-08  6.70000000e-01 
 6.80000000e-01  4.58587773e-01  4.58587773e-01  4.58587773e-01  4.58587773e-01  3.10222783e-09  3.24353928e-09  3.30590601e-09  1.59490726e-07  2.41522713e-08  6.80000000e-01 
 6.90000000e-01  4.58587782e-01  4.58587782e-01  4.58587782e-01  4.58587782e-01  3.10222782e-09  3.24353928e-09  3.30590606e-09  1.59490729e-07  2.41521434e-08  6.90000000e-01 
 7.00000000e-01  4.58587764e-01  4.58587764e-01  4.58587764e-01  4.58587764e-01  3.10222776e-09  3.24353928e-09  3.30590606e-09  1.59490723e-07  2.41520794e-08  7.00000000e-01 
 7.10000000e-01  4.58587761e-01  4.58587761e-01  4.58587761e-01  4.58587761e-01  3.10222783e-09  3.24353928e-09  3.30590606e-09  1.59490724e-07  2.41520297e-08  7.10000000e-01 
 7.20000000e-01  4.58587750e-01  4.58587750e-01  4.58587750e-01  4.58587750e-01  3.10222782e-09  3.24353928e-09  3.30590606e-09  1.59490706e-07  2.41520013e-08  7.20000000e-01 
 7.30000000e-01  4.58587761e-01  4.58587761e-01  4.58587761e-01  4.58587761e-01  3.10222782e-09  3.24353922e-09  3.30590606e-09  1.59490712e-07  2.41518237e-08  7.30000000e-01 
 7.40000000e-01  4.58587753e-01  4.58587753e-01  4.58587753e-01  4.58587753e-01  3.10222782e-09  3.24353928e-09  3.30590606e-09  1.59490705e-07  2.41519160e-08  7.40000000e-01 
 7.50000000e-01  4.58587766e-01  4.58587766e-01  4.58587766e-01  4.58587766e-01  3.10222782e-09  3.24353928e-09  3.30590606e-09  1.59490716e-07  2.41519160e-08  7.50000000e-01 
 7.60000000e-01  4.58587772e-01  4.58587772e-01  4.58587772e-01  4.58587772e-01  3.10222782e-09  3.24353922e-09  3.30590606e-09  1.59490742e-07  2.41518450e-08  7.60000000e-01 
 7.70000000e-01  4.58587748e-01  4.58587748e-01  4.58587748e-01  4.58587748e-01  3.10222782e-09  3.24353928e-09  3.30590606e-09  1.59490710e-07  2.41517384e-08  7.70000000e-01 
 7.80000000e-01  4.58587783e-01  4.58587783e-01  4.58587783e-01  4.58587783e-01  3.10222782e-09  3.24353928e-09  3.30590601e-09  1.59490744e-07  2.41517881e-08  7.80000000e-01 
 7.90000000e-01  4.58587767e-01  4.58587767e-01  4.58587767e-01  4.58587767e-01  3.10222782e-09  3.24353928e-09  3.30590600e-09  1.59490725e-07  2.41516034e-08  7.90000000e-01 
 8.00000000e-01  4.58587752e-01  4.58587752e-01  4.58587752e-01  4.58587752e-01  3.10222776e-09  3.24353928e-09  3.30590606e-09  1.59490702e-07  2.41515963e-08  8.00000000e-01 
 8.10000000e-01  4.58587772e-01  4.58587772e-01  4.58587772e-01  4.58587772e-01  3.10222778e-09  3.24353928e-09  3.30590606e-09  1.59490728e-07  2.41514968e-08  8.10000000e-01 
 8.20000000e-01  4.58587760e-01  4.58587760e-01  4.58587760e-01  4.58587760e-01  3.10222777e-09  3.24353928e-09  3.30590600e-09  1.59490706e-07  2.41514826e-08  8.20000000e-01 
 8.30000000e-01  4.58587779e-01  4.58587779e-01  4.58587779e-01  4.58587779e-01  3.10222783e-09  3.24353928e-09  3.30590606e-09  1.59490746e-07  2.41514613e-08  8.30000000e-01 
 8.40000000e-01  4.58587766e-01  4.58587766e-01  4.58587766e-01  4.58587766e-01  3.10222776e-09  3.24353928e-09  3.30590606e-09  1.59490721e-07  2.41514542e-08  8.40000000e-01 
 8.50000000e-01  4.58587791e-01  4.58587791e-01  4.58587791e-01  4.58587791e-01  3.10222778e-09  3.24353923e-09  3.30590606e-09  1.59490756e-07  2.41513050e-08  8.50000000e-01 
 8.60000000e-01  4.58587760e-01  4.58587759e-01  4.58587759e-01  4.58587760e-01  3.10222783e-09  3.24353928e-09  3.30590600e-09  1.59490713e-07  2.41512268e-08  8.60000000e-01 
 8.70000000e-01  4.58587748e-01  4.58587748e-01  4.58587748e-01  4.58587748e-01  3.10222781e-09  3.24353928e-09  3.30590600e-09  1.59490707e-07  2.41511131e-08  8.70000000e-01 
 8.80000000e-01  4.58587750e-01  4.58587749e-01  4.58587749e-01  4.58587750e-01  3.10222782e-09  3.24353928e-09  3.30590606e-09  1.59490712e-07  2.41511060e-08  8.80000000e-01 
 8.90000000e-01  4.58587749e-01  4.58587749e-01  4.58587749e-01  4.58587749e-01  3.10222776e-09  3.24353928e-09  3.30590606e-09  1.59490708e-07  2.41510349e-08  8.90000000e-01 
 9.00000000e-01  4.58587773e-01  4.58587773e-01  4.58587772e-01  4.58587773e-01  3.10222783e-09  3.24353928e-09  3.30590606e-09  1.59490736e-07  2.41510278e-08  9.00000000e-01 
 9.10000000e-01  4.58587769e-01  4.58587769e-01  4.58587769e-01  4.58587769e-01  3.10222782e-09  3.24353928e-09  3.30590606e-09  1.59490731e-07  2.41511060e-08  9.10000000e-01 
 9.20000000e-01  4.58587760e-01  4.58587760e-01  4.58587760e-01  4.58587760e-01  3.10222782e-09  3.24353928e-09  3.30590606e-09  1.59490709e-07  2.41508360e-08  9.20000000e-01 
 9.30000000e-01  4.58587768e-01  4.58587768e-01  4.58587768e-01  4.58587768e-01  3.10222782e-09  3.24353928e-09  3.30590606e-09  1.59490736e-07  2.41508573e-08  9.30000000e-01 
 9.40000000e-01  4.58587780e-01  4.58587780e-01  4.58587780e-01  4.58587780e-01  3.10222782e-09  3.24353928e-09  3.30590606e-09  1.59490735e-07  2.41507578e-08  9.40000000e-01 
 9.50000000e-01  4.58587778e-01  4.58587778e-01  4.58587778e-01  4.58587778e-01  3.10222782e-09  3.24353928e-09  3.30590606e-09  1.59490729e-07  2.41507863e-08  9.50000000e-01 
 9.60000000e-01  4.58587786e-01  4.58587786e-01  4.58587786e-01  4.58587786e-01  3.10222782e-09  3.24353928e-09  3.30590606e-09  1.59490759e-07  2.41507081e-08  9.60000000e-01 
 9.70000000e-01  4.58587772e-01  4.58587772e-01  4.58587772e-01  4.58587772e-01  3.10222782e-09  3.24353928e-09  3.30590606e-09  1.59490725e-07  2.41506868e-08  9.70000000e-01 
 9.80000000e-01  4.58587771e-01  4.58587771e-01  4.58587771e-01  4.58587771e-01  3.10222777e-09  3.24353928e-09  3.30590606e-09  1.59490730e-07  2.41506797e-08  9.80000000e-01 
 9.90000000e-01  4.58587758e-01  4.58587758e-01  4.58587758e-01  4.58587758e-01  3.10222778e-09  3.24353928e-09  3.30590606e-09  1.59490739e-07  2.41504452e-08  9.90000000e-01 
 1.00000000e+00  4.58587790e-01  4.58587790e-01  4.58587790e-01  4.58587790e-01  3.10222777e-09  3.24353928e-09  3.30590606e-09  1.59490764e-07  2.41504878e-08  1.00000000e+00 
 1.01000000e+00  4.58587769e-01  4.58587769e-01  4.58587769e-01  4.58587769e-01  3.10222783e-09  3.24353922e-09  3.30590600e-09  1.59490713e-07  2.41505731e-08  1.01000000e+00 
 1.02000000e+00  4.58587755e-01  4.58587755e-01  4.58587754e-01  4.58587755e-01  3.10222782e-09  3.24353928e-09  3.30590606e-09  1.59490722e-07  2.41503670e-08  1.02000000e+00 
 1.03000000e+00  4.58587769e-01  4.58587769e-01  4.58587769e-01  4.58587769e-01  3.10222782e-09  3.24353922e-09  3.30590606e-09  1.59490717e-07  2.41504310e-08  1.03000000e+00 
 1.04000000e+00  4.58587767e-01  4.58587767e-01  4.58587767e-01  4.58587767e-01  3.10222782e-09  3.24353928e-09  3.30590606e-09  1.59490729e-07  2.41504310e-08  1.04000000e+00 
 1.05000000e+00  4.58587764e-01  4.58587764e-01  4.58587764e-01  4.58587764e-01  3.10222782e-09  3.24353928e-09  3.30590606e-09  1.59490705e-07  2.41503315e-08  1.05000000e+00 
 1.06000000e+00  4.58587764e-01  4.58587764e-01  4.58587763e-01  4.58587764e-01  3.10222782e-09  3.24353928e-09  3.30590606e-09  1.59490720e-07  2.41502391e-08  1.06000000e+00 
 1.07000000e+00  4.58587772e-01  4.58587772e-01  4.58587772e-01  4.58587772e-01  3.10222782e-09  3.24353928e-09  3.30590601e-09  1.59490732e-07  2.41502178e-08  1.07000000e+00 
 1.08000000e+00  4.58587762e-01  4.58587762e-01  4.58587762e-01  4.58587762e-01  3.10222782e-09  3.24353928e-09  3.30590606e-09  1.59490725e-07  2.41501041e-08  1.08000000e+00 
 1.09000000e+00  4.58587781e-01  4.58587781e-01  4.58587781e-01  4.58587781e-01  3.10222782e-09  3.24353922e-09  3.30590601e-09  1.59490750e-07  2.41500047e-08  1.09000000e+00 
 1.10000000e+00  4.58587774e-01  4.58587774e-01  4.58587774e-01  4.58587774e-01  3.10222782e-09  3.24353928e-09  3.30590606e-09  1.59490736e-07  2.41500544e-08  1.10000000e+00 
