 v-sweep         v(b0)           v(b1)           v(b2)           v(b3)           v(b4)           v(b5)           v(b6)           i(vbias)        i(viout)        v(vout)        
 0.00000000e+00  3.50554924e-09  4.60383843e-01  4.60383843e-01  4.60383843e-01  4.60383843e-01  3.29352001e-09  4.60383843e-01  1.63303468e-07  1.49174310e-07  0.00000000e+00 
 1.00000000e-02  3.50554922e-09  4.60383872e-01  4.60383872e-01  4.60383872e-01  4.60383872e-01  3.29352005e-09  4.60383872e-01  1.63303511e-07  1.49173854e-07  1.00000000e-02 
 2.00000000e-02  3.50554922e-09  4.60383884e-01  4.60383884e-01  4.60383883e-01  4.60383883e-01  3.29352004e-09  4.60383884e-01  1.63303538e-07  1.49173554e-07  2.00000000e-02 
 3.00000000e-02  3.50554922e-09  4.60383859e-01  4.60383859e-01  4.60383859e-01  4.60383859e-01  3.29352004e-09  4.60383859e-01  1.63303498e-07  1.49173051e-07  3.00000000e-02 
 4.00000000e-02  3.50554922e-09  4.60383862e-01  4.60383862e-01  4.60383862e-01  4.60383862e-01  3.29352004e-09  4.60383862e-01  1.63303492e-07  1.49172724e-07  4.00000000e-02 
 5.00000000e-02  3.50554927e-09  4.60383855e-01  4.60383855e-01  4.60383855e-01  4.60383855e-01  3.29352004e-09  4.60383855e-01  1.63303484e-07  1.49172266e-07  5.00000000e-02 
 6.00000000e-02  3.50554922e-09  4.60383867e-01  4.60383867e-01  4.60383867e-01  4.60383867e-01  3.29351999e-09  4.60383867e-01  1.63303507e-07  1.49171975e-07  6.00000000e-02 
 7.00000000e-02  3.50554922e-09  4.60383882e-01  4.60383882e-01  4.60383882e-01  4.60383882e-01  3.29352000e-09  4.60383882e-01  1.63303527e-07  1.49171600e-07  7.00000000e-02 
 8.00000000e-02  3.50554922e-09  4.60383896e-01  4.60383896e-01  4.60383896e-01  4.60383896e-01  3.29352005e-09  4.60383896e-01  1.63303553e-07  1.49171433e-07  8.00000000e-02 
 9.00000000e-02  3.50554922e-09  4.60383866e-01  4.60383866e-01  4.60383866e-01  4.60383866e-01  3.29352004e-09  4.60383866e-01  1.63303501e-07  1.49170947e-07  9.00000000e-02 
 1.00000000e-01  3.50554922e-09  4.60383891e-01  4.60383891e-01  4.60383891e-01  4.60383891e-01  3.29351999e-09  4.60383891e-01  1.63303541e-07  1.49170826e-07  1.00000000e-01 
 1.10000000e-01  3.50554922e-09  4.60383871e-01  4.60383871e-01  4.60383871e-01  4.60383871e-01  3.29352006e-09  4.60383871e-01  1.63303509e-07  1.49170505e-07  1.10000000e-01 
 1.20000000e-01  3.50554922e-09  4.60383863e-01  4.60383863e-01  4.60383863e-01  4.60383863e-01  3.29352004e-09  4.60383863e-01  1.63303489e-07  1.49170229e-07  1.20000000e-01 
 1.30000000e-01  3.50554927e-09  4.60383865e-01  4.60383865e-01  4.60383865e-01  4.60383865e-01  3.29352004e-09  4.60383865e-01  1.63303497e-07  1.49169931e-07  1.30000000e-01 
 1.40000000e-01  3.50554922e-09  4.60383876e-01  4.60383876e-01  4.60383876e-01  4.60383876e-01  3.29352004e-09  4.60383876e-01  1.63303512e-07  1.49169634e-07  1.40000000e-01 
 1.50000000e-01  3.50554922e-09  4.60383861e-01  4.60383861e-01  4.60383861e-01  4.60383861e-01  3.29351999e-09  4.60383861e-01  1.63303497e-07  1.49169365e-07  1.50000000e-01 
 1.60000000e-01  3.50554922e-09  4.60383864e-01  4.60383864e-01  4.60383864e-01  4.60383864e-01  3.29352000e-09  4.60383864e-01  1.63303501e-07  1.49169113e-07  1.60000000e-01 
 1.70000000e-01  3.50554922e-09  4.60383871e-01  4.60383871e-01  4.60383871e-01  4.60383871e-01  3.29352005e-09  4.60383871e-01  1.63303506e-07  1.49168867e-07  1.70000000e-01 
 1.80000000e-01  3.50554922e-09  4.60383885e-01  4.60383885e-01  4.60383885e-01  4.60383885e-01  3.29352004e-09  4.60383885e-01  1.63303532e-07  1.49168850e-07  1.80000000e-01 
 1.90000000e-01  3.50554922e-09  4.60383852e-01  4.60383852e-01  4.60383852e-01  4.60383852e-01  3.29352004e-09  4.60383852e-01  1.63303489e-07  1.49168425e-07  1.90000000e-01 
 2.00000000e-01  3.50554927e-09  4.60383843e-01  4.60383843e-01  4.60383843e-01  4.60383843e-01  3.29351998e-09  4.60383843e-01  1.63303462e-07  1.49168185e-07  2.00000000e-01 
 2.10000000e-01  3.50554922e-09  4.60383853e-01  4.60383853e-01  4.60383853e-01  4.60383853e-01  3.29352005e-09  4.60383853e-01  1.63303483e-07  1.49168070e-07  2.10000000e-01 
 2.20000000e-01  3.50554922e-09  4.60383860e-01  4.60383860e-01  4.60383860e-01  4.60383860e-01  3.29352004e-09  4.60383860e-01  1.63303499e-07  1.49167928e-07  2.20000000e-01 
 2.30000000e-01  3.50554922e-09  4.60383882e-01  4.60383882e-01  4.60383882e-01  4.60383882e-01  3.29352004e-09  4.60383882e-01  1.63303530e-07  1.49167720e-07  2.30000000e-01 
 2.40000000e-01  3.50554922e-09  4.60383874e-01  4.60383874e-01  4.60383874e-01  4.60383874e-01  3.29352004e-09  4.60383874e-01  1.63303511e-07  1.49167642e-07  2.40000000e-01 
 2.50000000e-01  3.50554922e-09  4.60383863e-01  4.60383863e-01  4.60383863e-01  4.60383863e-01  3.29351999e-09  4.60383863e-01  1.63303505e-07  1.49167285e-07  2.50000000e-01 
 2.60000000e-01  3.50554922e-09  4.60383865e-01  4.60383865e-01  4.60383864e-01  4.60383864e-01  3.29352000e-09  4.60383865e-01  1.63303495e-07  1.49167168e-07  2.60000000e-01 
 2.70000000e-01  3.50554922e-09  4.60383841e-01  4.60383841e-01  4.60383841e-01  4.60383841e-01  3.29352005e-09  4.60383841e-01  1.63303455e-07  1.49166839e-07  2.70000000e-01 
 2.80000000e-01  3.50554922e-09  4.60383871e-01  4.60383871e-01  4.60383871e-01  4.60383871e-01  3.29352004e-09  4.60383871e-01  1.63303509e-07  1.49167018e-07  2.80000000e-01 
 2.90000000e-01  3.50554922e-09  4.60383865e-01  4.60383865e-01  4.60383865e-01  4.60383865e-01  3.29352004e-09  4.60383865e-01  1.63303497e-07  1.49166752e-07  2.90000000e-01 
 3.00000000e-01  3.50554922e-09  4.60383849e-01  4.60383849e-01  4.60383849e-01  4.60383849e-01  3.29352004e-09  4.60383849e-01  1.63303474e-07  1.49166556e-07  3.00000000e-01 
 3.10000000e-01  3.50554922e-09  4.60383864e-01  4.60383864e-01  4.60383864e-01  4.60383864e-01  3.29351999e-09  4.60383864e-01  1.63303503e-07  1.49166425e-07  3.10000000e-01 
 3.20000000e-01  3.50554922e-09  4.60383864e-01  4.60383864e-01  4.60383864e-01  4.60383864e-01  3.29352006e-09  4.60383864e-01  1.63303495e-07  1.49166237e-07  3.20000000e-01 
 3.30000000e-01  3.50554922e-09  4.60383866e-01  4.60383866e-01  4.60383866e-01  4.60383866e-01  3.29352004e-09  4.60383866e-01  1.63303502e-07  1.49166194e-07  3.30000000e-01 
 3.40000000e-01  3.50554922e-09  4.60383864e-01  4.60383864e-01  4.60383864e-01  4.60383864e-01  3.29351999e-09  4.60383864e-01  1.63303502e-07  1.49165963e-07  3.40000000e-01 
 3.50000000e-01  3.50554922e-09  4.60383840e-01  4.60383840e-01  4.60383840e-01  4.60383840e-01  3.29352000e-09  4.60383840e-01  1.63303461e-07  1.49165864e-07  3.50000000e-01 
 3.60000000e-01  3.50554922e-09  4.60383846e-01  4.60383846e-01  4.60383846e-01  4.60383846e-01  3.29352005e-09  4.60383846e-01  1.63303471e-07  1.49165718e-07  3.60000000e-01 
 3.70000000e-01  3.50554922e-09  4.60383862e-01  4.60383862e-01  4.60383861e-01  4.60383862e-01  3.29352004e-09  4.60383862e-01  1.63303487e-07  1.49165711e-07  3.70000000e-01 
 3.80000000e-01  3.50554928e-09  4.60383877e-01  4.60383877e-01  4.60383877e-01  4.60383877e-01  3.29351999e-09  4.60383877e-01  1.63303523e-07  1.49165622e-07  3.80000000e-01 
 3.90000000e-01  3.50554922e-09  4.60383863e-01  4.60383862e-01  4.60383862e-01  4.60383862e-01  3.29352000e-09  4.60383863e-01  1.63303499e-07  1.49165327e-07  3.90000000e-01 
 4.00000000e-01  3.50554922e-09  4.60383874e-01  4.60383874e-01  4.60383874e-01  4.60383874e-01  3.29352005e-09  4.60383874e-01  1.63303502e-07  1.49165366e-07  4.00000000e-01 
 4.10000000e-01  3.50554922e-09  4.60383860e-01  4.60383860e-01  4.60383860e-01  4.60383860e-01  3.29351998e-09  4.60383860e-01  1.63303487e-07  1.49165185e-07  4.10000000e-01 
 4.20000000e-01  3.50554922e-09  4.60383860e-01  4.60383860e-01  4.60383860e-01  4.60383860e-01  3.29352006e-09  4.60383860e-01  1.63303495e-07  1.49165096e-07  4.20000000e-01 
 4.30000000e-01  3.50554922e-09  4.60383859e-01  4.60383859e-01  4.60383859e-01  4.60383859e-01  3.29352004e-09  4.60383859e-01  1.63303485e-07  1.49164897e-07  4.30000000e-01 
 4.40000000e-01  3.50554922e-09  4.60383845e-01  4.60383845e-01  4.60383845e-01  4.60383845e-01  3.29352004e-09  4.60383845e-01  1.63303468e-07  1.49164684e-07  4.40000000e-01 
 4.50000000e-01  3.50554922e-09  4.60383855e-01  4.60383855e-01  4.60383855e-01  4.60383855e-01  3.29352004e-09  4.60383855e-01  1.63303491e-07  1.49164606e-07  4.50000000e-01 
 4.60000000e-01  3.50554928e-09  4.60383867e-01  4.60383867e-01  4.60383867e-01  4.60383867e-01  3.29351999e-09  4.60383867e-01  1.63303491e-07  1.49164595e-07  4.60000000e-01 
 4.70000000e-01  3.50554922e-09  4.60383859e-01  4.60383858e-01  4.60383858e-01  4.60383858e-01  3.29352005e-09  4.60383858e-01  1.63303492e-07  1.49164325e-07  4.70000000e-01 
 4.80000000e-01  3.50554922e-09  4.60383861e-01  4.60383861e-01  4.60383861e-01  4.60383861e-01  3.29352004e-09  4.60383861e-01  1.63303493e-07  1.49164379e-07  4.80000000e-01 
 4.90000000e-01  3.50554922e-09  4.60383871e-01  4.60383871e-01  4.60383871e-01  4.60383871e-01  3.29351999e-09  4.60383871e-01  1.63303500e-07  1.49164240e-07  4.90000000e-01 
 5.00000000e-01  3.50554922e-09  4.60383873e-01  4.60383873e-01  4.60383873e-01  4.60383873e-01  3.29352006e-09  4.60383873e-01  1.63303513e-07  1.49164070e-07  5.00000000e-01 
 5.10000000e-01  3.50554922e-09  4.60383864e-01  4.60383864e-01  4.60383864e-01  4.60383864e-01  3.29352004e-09  4.60383864e-01  1.63303494e-07  1.49163974e-07  5.10000000e-01 
 5.20000000e-01  3.50554922e-09  4.60383853e-01  4.60383853e-01  4.60383853e-01  4.60383853e-01  3.29352004e-09  4.60383853e-01  1.63303483e-07  1.49163796e-07  5.20000000e-01 
 5.30000000e-01  3.50554922e-09  4.60383859e-01  4.60383859e-01  4.60383858e-01  4.60383859e-01  3.29352004e-09  4.60383859e-01  1.63303487e-07  1.49163796e-07  5.30000000e-01 
 5.40000000e-01  3.50554922e-09  4.60383860e-01  4.60383860e-01  4.60383860e-01  4.60383860e-01  3.29351999e-09  4.60383860e-01  1.63303483e-07  1.49163736e-07  5.40000000e-01 
 5.50000000e-01  3.50554921e-09  4.60383825e-01  4.60383825e-01  4.60383825e-01  4.60383825e-01  3.29352005e-09  4.60383825e-01  1.63303435e-07  1.49163423e-07  5.50000000e-01 
 5.60000000e-01  3.50554922e-09  4.60383853e-01  4.60383853e-01  4.60383853e-01  4.60383853e-01  3.29352004e-09  4.60383853e-01  1.63303489e-07  1.49163402e-07  5.60000000e-01 
 5.70000000e-01  3.50554922e-09  4.60383858e-01  4.60383858e-01  4.60383857e-01  4.60383857e-01  3.29352004e-09  4.60383858e-01  1.63303493e-07  1.49163299e-07  5.70000000e-01 
 5.80000000e-01  3.50554928e-09  4.60383871e-01  4.60383871e-01  4.60383871e-01  4.60383871e-01  3.29351999e-09  4.60383871e-01  1.63303507e-07  1.49163270e-07  5.80000000e-01 
 5.90000000e-01  3.50554922e-09  4.60383882e-01  4.60383882e-01  4.60383881e-01  4.60383882e-01  3.29352006e-09  4.60383882e-01  1.63303529e-07  1.49163242e-07  5.90000000e-01 
 6.00000000e-01  3.50554922e-09  4.60383872e-01  4.60383872e-01  4.60383872e-01  4.60383872e-01  3.29352004e-09  4.60383872e-01  1.63303508e-07  1.49163078e-07  6.00000000e-01 
 6.10000000e-01  3.50554922e-09  4.60383868e-01  4.60383868e-01  4.60383868e-01  4.60383868e-01  3.29352004e-09  4.60383868e-01  1.63303507e-07  1.49162950e-07  6.10000000e-01 
 6.20000000e-01  3.50554921e-09  4.60383836e-01  4.60383836e-01  4.60383836e-01  4.60383836e-01  3.29352004e-09  4.60383836e-01  1.63303457e-07  1.49162631e-07  6.20000000e-01 
 6.30000000e-01  3.50554922e-09  4.60383879e-01  4.60383879e-01  4.60383879e-01  4.60383879e-01  3.29352004e-09  4.60383879e-01  1.63303517e-07  1.49162894e-07  6.30000000e-01 
 6.40000000e-01  3.50554922e-09  4.60383867e-01  4.60383867e-01  4.60383867e-01  4.60383867e-01  3.29352004e-09  4.60383867e-01  1.63303509e-07  1.49162695e-07  6.40000000e-01 
 6.50000000e-01  3.50554922e-09  4.60383866e-01  4.60383866e-01  4.60383866e-01  4.60383866e-01  3.29351999e-09  4.60383866e-01  1.63303492e-07  1.49162439e-07  6.50000000e-01 
 6.60000000e-01  3.50554922e-09  4.60383858e-01  4.60383858e-01  4.60383858e-01  4.60383858e-01  3.29352000e-09  4.60383858e-01  1.63303490e-07  1.49162361e-07  6.60000000e-01 
 6.70000000e-01  3.50554922e-09  4.60383859e-01  4.60383859e-01  4.60383859e-01  4.60383859e-01  3.29351999e-09  4.60383859e-01  1.63303503e-07  1.49162247e-07  6.70000000e-01 
 6.80000000e-01  3.50554922e-09  4.60383851e-01  4.60383850e-01  4.60383850e-01  4.60383850e-01  3.29351999e-09  4.60383850e-01  1.63303480e-07  1.49162098e-07  6.80000000e-01 
 6.90000000e-01  3.50554928e-09  4.60383869e-01  4.60383869e-01  4.60383869e-01  4.60383869e-01  3.29352005e-09  4.60383869e-01  1.63303512e-07  1.49162091e-07  6.90000000e-01 
 7.00000000e-01  3.50554922e-09  4.60383874e-01  4.60383874e-01  4.60383874e-01  4.60383874e-01  3.29352004e-09  4.60383874e-01  1.63303515e-07  1.49161998e-07  7.00000000e-01 
 7.10000000e-01  3.50554928e-09  4.60383887e-01  4.60383887e-01  4.60383886e-01  4.60383887e-01  3.29351999e-09  4.60383887e-01  1.63303519e-07  1.49161984e-07  7.10000000e-01 
 7.20000000e-01  3.50554922e-09  4.60383845e-01  4.60383844e-01  4.60383844e-01  4.60383844e-01  3.29352005e-09  4.60383844e-01  1.63303479e-07  1.49161799e-07  7.20000000e-01 
 7.30000000e-01  3.50554922e-09  4.60383875e-01  4.60383875e-01  4.60383875e-01  4.60383875e-01  3.29352004e-09  4.60383875e-01  1.63303519e-07  1.49161686e-07  7.30000000e-01 
 7.40000000e-01  3.50554922e-09  4.60383873e-01  4.60383873e-01  4.60383873e-01  4.60383873e-01  3.29352004e-09  4.60383873e-01  1.63303522e-07  1.49161529e-07  7.40000000e-01 
 7.50000000e-01  3.50554922e-09  4.60383869e-01  4.60383869e-01  4.60383869e-01  4.60383869e-01  3.29352004e-09  4.60383869e-01  1.63303498e-07  1.49161409e-07  7.50000000e-01 
 7.60000000e-01  3.50554922e-09  4.60383850e-01  4.60383850e-01  4.60383850e-01  4.60383850e-01  3.29351999e-09  4.60383850e-01  1.63303478e-07  1.49161387e-07  7.60000000e-01 
 7.70000000e-01  3.50554922e-09  4.60383846e-01  4.60383846e-01  4.60383845e-01  4.60383846e-01  3.29352000e-09  4.60383846e-01  1.63303476e-07  1.49161188e-07  7.70000000e-01 
 7.80000000e-01  3.50554922e-09  4.60383857e-01  4.60383857e-01  4.60383857e-01  4.60383857e-01  3.29352005e-09  4.60383857e-01  1.63303486e-07  1.49161004e-07  7.80000000e-01 
 7.90000000e-01  3.50554927e-09  4.60383860e-01  4.60383860e-01  4.60383860e-01  4.60383860e-01  3.29352004e-09  4.60383860e-01  1.63303487e-07  1.49160940e-07  7.90000000e-01 
 8.00000000e-01  3.50554922e-09  4.60383873e-01  4.60383873e-01  4.60383873e-01  4.60383873e-01  3.29351999e-09  4.60383873e-01  1.63303509e-07  1.49160876e-07  8.00000000e-01 
 8.10000000e-01  3.50554922e-09  4.60383856e-01  4.60383855e-01  4.60383855e-01  4.60383855e-01  3.29352000e-09  4.60383855e-01  1.63303481e-07  1.49160677e-07  8.10000000e-01 
 8.20000000e-01  3.50554922e-09  4.60383872e-01  4.60383872e-01  4.60383872e-01  4.60383872e-01  3.29351999e-09  4.60383872e-01  1.63303502e-07  1.49160648e-07  8.20000000e-01 
 8.30000000e-01  3.50554922e-09  4.60383849e-01  4.60383849e-01  4.60383849e-01  4.60383849e-01  3.29351999e-09  4.60383849e-01  1.63303472e-07  1.49160407e-07  8.30000000e-01 
 8.40000000e-01  3.50554922e-09  4.60383859e-01  4.60383859e-01  4.60383858e-01  4.60383858e-01  3.29352005e-09  4.60383859e-01  1.63303500e-07  1.49160343e-07  8.40000000e-01 
 8.50000000e-01  3.50554922e-09  4.60383859e-01  4.60383859e-01  4.60383859e-01  4.60383859e-01  3.29352004e-09  4.60383859e-01  1.63303498e-07  1.49160336e-07  8.50000000e-01 
 8.60000000e-01  3.50554922e-09  4.60383855e-01  4.60383855e-01  4.60383855e-01  4.60383855e-01  3.29352004e-09  4.60383855e-01  1.63303488e-07  1.49160108e-07  8.60000000e-01 
 8.70000000e-01  3.50554922e-09  4.60383869e-01  4.60383869e-01  4.60383869e-01  4.60383869e-01  3.29352004e-09  4.60383869e-01  1.63303502e-07  1.49159995e-07  8.70000000e-01 
 8.80000000e-01  3.50554922e-09  4.60383860e-01  4.60383860e-01  4.60383860e-01  4.60383860e-01  3.29351999e-09  4.60383860e-01  1.63303490e-07  1.49159995e-07  8.80000000e-01 
 8.90000000e-01  3.50554922e-09  4.60383875e-01  4.60383875e-01  4.60383875e-01  4.60383875e-01  3.29352000e-09  4.60383875e-01  1.63303514e-07  1.49159867e-07  8.90000000e-01 
 9.00000000e-01  3.50554922e-09  4.60383859e-01  4.60383859e-01  4.60383859e-01  4.60383859e-01  3.29352005e-09  4.60383859e-01  1.63303497e-07  1.49159753e-07  9.00000000e-01 
 9.10000000e-01  3.50554922e-09  4.60383861e-01  4.60383861e-01  4.60383861e-01  4.60383861e-01  3.29352004e-09  4.60383861e-01  1.63303489e-07  1.49159590e-07  9.10000000e-01 
 9.20000000e-01  3.50554922e-09  4.60383858e-01  4.60383858e-01  4.60383858e-01  4.60383858e-01  3.29351999e-09  4.60383858e-01  1.63303487e-07  1.49159497e-07  9.20000000e-01 
 9.30000000e-01  3.50554922e-09  4.60383867e-01  4.60383867e-01  4.60383867e-01  4.60383867e-01  3.29352006e-09  4.60383867e-01  1.63303505e-07  1.49159483e-07  9.30000000e-01 
 9.40000000e-01  3.50554922e-09  4.60383856e-01  4.60383856e-01  4.60383856e-01  4.60383856e-01  3.29352004e-09  4.60383856e-01  1.63303488e-07  1.49159220e-07  9.40000000e-01 
 9.50000000e-01  3.50554922e-09  4.60383872e-01  4.60383872e-01  4.60383872e-01  4.60383872e-01  3.29352004e-09  4.60383872e-01  1.63303512e-07  1.49159199e-07  9.50000000e-01 
 9.60000000e-01  3.50554922e-09  4.60383871e-01  4.60383871e-01  4.60383871e-01  4.60383871e-01  3.29351999e-09  4.60383871e-01  1.63303493e-07  1.49159057e-07  9.60000000e-01 
 9.70000000e-01  3.50554922e-09  4.60383852e-01  4.60383852e-01  4.60383852e-01  4.60383852e-01  3.29352005e-09  4.60383852e-01  1.63303477e-07  1.49158858e-07  9.70000000e-01 
 9.80000000e-01  3.50554921e-09  4.60383834e-01  4.60383833e-01  4.60383833e-01  4.60383833e-01  3.29352004e-09  4.60383833e-01  1.63303449e-07  1.49158581e-07  9.80000000e-01 
 9.90000000e-01  3.50554922e-09  4.60383844e-01  4.60383843e-01  4.60383843e-01  4.60383843e-01  3.29352004e-09  4.60383843e-01  1.63303473e-07  1.49158453e-07  9.90000000e-01 
 1.00000000e+00  3.50554922e-09  4.60383858e-01  4.60383857e-01  4.60383857e-01  4.60383857e-01  3.29351999e-09  4.60383858e-01  1.63303483e-07  1.49158396e-07  1.00000000e+00 
 1.01000000e+00  3.50554922e-09  4.60383893e-01  4.60383893e-01  4.60383893e-01  4.60383893e-01  3.29352000e-09  4.60383893e-01  1.63303537e-07  1.49158531e-07  1.01000000e+00 
 1.02000000e+00  3.50554921e-09  4.60383835e-01  4.60383835e-01  4.60383835e-01  4.60383835e-01  3.29352005e-09  4.60383835e-01  1.63303447e-07  1.49158197e-07  1.02000000e+00 
 1.03000000e+00  3.50554922e-09  4.60383891e-01  4.60383891e-01  4.60383891e-01  4.60383891e-01  3.29351998e-09  4.60383891e-01  1.63303536e-07  1.49158140e-07  1.03000000e+00 
 1.04000000e+00  3.50554922e-09  4.60383866e-01  4.60383866e-01  4.60383866e-01  4.60383866e-01  3.29352006e-09  4.60383866e-01  1.63303503e-07  1.49157984e-07  1.04000000e+00 
 1.05000000e+00  3.50554922e-09  4.60383855e-01  4.60383855e-01  4.60383855e-01  4.60383855e-01  3.29351998e-09  4.60383855e-01  1.63303479e-07  1.49157827e-07  1.05000000e+00 
 1.06000000e+00  3.50554922e-09  4.60383878e-01  4.60383878e-01  4.60383878e-01  4.60383878e-01  3.29352006e-09  4.60383878e-01  1.63303515e-07  1.49157735e-07  1.06000000e+00 
 1.07000000e+00  3.50554922e-09  4.60383889e-01  4.60383889e-01  4.60383889e-01  4.60383889e-01  3.29352004e-09  4.60383889e-01  1.63303532e-07  1.49157543e-07  1.07000000e+00 
 1.08000000e+00  3.50554922e-09  4.60383872e-01  4.60383872e-01  4.60383872e-01  4.60383872e-01  3.29352004e-09  4.60383872e-01  1.63303521e-07  1.49157373e-07  1.08000000e+00 
 1.09000000e+00  3.50554922e-09  4.60383855e-01  4.60383855e-01  4.60383855e-01  4.60383855e-01  3.29352004e-09  4.60383855e-01  1.63303494e-07  1.49157287e-07  1.09000000e+00 
 1.10000000e+00  3.50554922e-09  4.60383870e-01  4.60383870e-01  4.60383870e-01  4.60383870e-01  3.29352004e-09  4.60383870e-01  1.63303498e-07  1.49157209e-07  1.10000000e+00 
