 v-sweep         v(b0)           v(b1)           v(b2)           v(b3)           v(b4)           v(b5)           v(b6)           i(vbias)        i(viout)        v(vout)        
 0.00000000e+00  3.39664539e-09  4.61185791e-01  4.61185791e-01  4.61185791e-01  4.61185791e-01  4.61185791e-01  4.61185791e-01  1.64090460e-07  1.97310322e-07  0.00000000e+00 
 1.00000000e-02  3.39664543e-09  4.61185796e-01  4.61185796e-01  4.61185796e-01  4.61185796e-01  4.61185796e-01  4.61185796e-01  1.64090473e-07  1.97309742e-07  1.00000000e-02 
 2.00000000e-02  3.39664543e-09  4.61185765e-01  4.61185765e-01  4.61185765e-01  4.61185765e-01  4.61185765e-01  4.61185765e-01  1.64090417e-07  1.97309094e-07  2.00000000e-02 
 3.00000000e-02  3.39664543e-09  4.61185800e-01  4.61185800e-01  4.61185799e-01  4.61185800e-01  4.61185799e-01  4.61185800e-01  1.64090464e-07  1.97308762e-07  3.00000000e-02 
 4.00000000e-02  3.39664543e-09  4.61185788e-01  4.61185788e-01  4.61185788e-01  4.61185788e-01  4.61185788e-01  4.61185788e-01  1.64090468e-07  1.97308295e-07  4.00000000e-02 
 5.00000000e-02  3.39664543e-09  4.61185781e-01  4.61185781e-01  4.61185781e-01  4.61185781e-01  4.61185781e-01  4.61185781e-01  1.64090440e-07  1.97307862e-07  5.00000000e-02 
 6.00000000e-02  3.39664543e-09  4.61185798e-01  4.61185798e-01  4.61185798e-01  4.61185798e-01  4.61185798e-01  4.61185798e-01  1.64090468e-07  1.97307550e-07  6.00000000e-02 
 7.00000000e-02  3.39664543e-09  4.61185787e-01  4.61185786e-01  4.61185786e-01  4.61185786e-01  4.61185786e-01  4.61185786e-01  1.64090454e-07  1.97307073e-07  7.00000000e-02 
 8.00000000e-02  3.39664543e-09  4.61185788e-01  4.61185788e-01  4.61185788e-01  4.61185788e-01  4.61185788e-01  4.61185788e-01  1.64090453e-07  1.97306535e-07  8.00000000e-02 
 9.00000000e-02  3.39664543e-09  4.61185770e-01  4.61185770e-01  4.61185770e-01  4.61185770e-01  4.61185770e-01  4.61185770e-01  1.64090427e-07  1.97306272e-07  9.00000000e-02 
 1.00000000e-01  3.39664543e-09  4.61185774e-01  4.61185774e-01  4.61185774e-01  4.61185774e-01  4.61185774e-01  4.61185774e-01  1.64090437e-07  1.97305937e-07  1.00000000e-01 
 1.10000000e-01  3.39664543e-09  4.61185788e-01  4.61185788e-01  4.61185788e-01  4.61185788e-01  4.61185788e-01  4.61185788e-01  1.64090447e-07  1.97305563e-07  1.10000000e-01 
 1.20000000e-01  3.39664543e-09  4.61185792e-01  4.61185792e-01  4.61185792e-01  4.61185792e-01  4.61185792e-01  4.61185792e-01  1.64090457e-07  1.97305162e-07  1.20000000e-01 
 1.30000000e-01  3.39664543e-09  4.61185789e-01  4.61185789e-01  4.61185788e-01  4.61185789e-01  4.61185788e-01  4.61185789e-01  1.64090455e-07  1.97304899e-07  1.30000000e-01 
 1.40000000e-01  3.39664543e-09  4.61185800e-01  4.61185799e-01  4.61185799e-01  4.61185800e-01  4.61185799e-01  4.61185799e-01  1.64090470e-07  1.97304603e-07  1.40000000e-01 
 1.50000000e-01  3.39664543e-09  4.61185768e-01  4.61185767e-01  4.61185767e-01  4.61185768e-01  4.61185767e-01  4.61185768e-01  1.64090429e-07  1.97304171e-07  1.50000000e-01 
 1.60000000e-01  3.39664543e-09  4.61185785e-01  4.61185784e-01  4.61185784e-01  4.61185785e-01  4.61185784e-01  4.61185784e-01  1.64090450e-07  1.97303974e-07  1.60000000e-01 
 1.70000000e-01  3.39664543e-09  4.61185778e-01  4.61185778e-01  4.61185778e-01  4.61185778e-01  4.61185778e-01  4.61185778e-01  1.64090447e-07  1.97303665e-07  1.70000000e-01 
 1.80000000e-01  3.39664543e-09  4.61185807e-01  4.61185807e-01  4.61185806e-01  4.61185807e-01  4.61185806e-01  4.61185807e-01  1.64090484e-07  1.97303432e-07  1.80000000e-01 
 1.90000000e-01  3.39664543e-09  4.61185790e-01  4.61185790e-01  4.61185790e-01  4.61185790e-01  4.61185790e-01  4.61185790e-01  1.64090463e-07  1.97303155e-07  1.90000000e-01 
 2.00000000e-01  3.39664543e-09  4.61185793e-01  4.61185793e-01  4.61185793e-01  4.61185793e-01  4.61185793e-01  4.61185793e-01  1.64090460e-07  1.97302940e-07  2.00000000e-01 
 2.10000000e-01  3.39664543e-09  4.61185786e-01  4.61185785e-01  4.61185785e-01  4.61185786e-01  4.61185785e-01  4.61185785e-01  1.64090445e-07  1.97302699e-07  2.10000000e-01 
 2.20000000e-01  3.39664543e-09  4.61185789e-01  4.61185789e-01  4.61185789e-01  4.61185789e-01  4.61185789e-01  4.61185789e-01  1.64090452e-07  1.97302368e-07  2.20000000e-01 
 2.30000000e-01  3.39664543e-09  4.61185797e-01  4.61185797e-01  4.61185796e-01  4.61185797e-01  4.61185796e-01  4.61185797e-01  1.64090457e-07  1.97302196e-07  2.30000000e-01 
 2.40000000e-01  3.39664543e-09  4.61185803e-01  4.61185803e-01  4.61185803e-01  4.61185803e-01  4.61185803e-01  4.61185803e-01  1.64090474e-07  1.97302004e-07  2.40000000e-01 
 2.50000000e-01  3.39664543e-09  4.61185808e-01  4.61185808e-01  4.61185807e-01  4.61185808e-01  4.61185807e-01  4.61185808e-01  1.64090491e-07  1.97301771e-07  2.50000000e-01 
 2.60000000e-01  3.39664543e-09  4.61185794e-01  4.61185794e-01  4.61185794e-01  4.61185794e-01  4.61185794e-01  4.61185794e-01  1.64090470e-07  1.97301413e-07  2.60000000e-01 
 2.70000000e-01  3.39664543e-09  4.61185803e-01  4.61185803e-01  4.61185803e-01  4.61185803e-01  4.61185803e-01  4.61185803e-01  1.64090484e-07  1.97301349e-07  2.70000000e-01 
 2.80000000e-01  3.39664543e-09  4.61185802e-01  4.61185802e-01  4.61185802e-01  4.61185802e-01  4.61185802e-01  4.61185802e-01  1.64090477e-07  1.97301105e-07  2.80000000e-01 
 2.90000000e-01  3.39664543e-09  4.61185790e-01  4.61185790e-01  4.61185790e-01  4.61185790e-01  4.61185790e-01  4.61185790e-01  1.64090461e-07  1.97300746e-07  2.90000000e-01 
 3.00000000e-01  3.39664543e-09  4.61185801e-01  4.61185801e-01  4.61185801e-01  4.61185801e-01  4.61185801e-01  4.61185801e-01  1.64090480e-07  1.97300569e-07  3.00000000e-01 
 3.10000000e-01  3.39664543e-09  4.61185781e-01  4.61185781e-01  4.61185781e-01  4.61185781e-01  4.61185781e-01  4.61185781e-01  1.64090457e-07  1.97300327e-07  3.10000000e-01 
 3.20000000e-01  3.39664543e-09  4.61185787e-01  4.61185787e-01  4.61185787e-01  4.61185787e-01  4.61185787e-01  4.61185787e-01  1.64090460e-07  1.97300039e-07  3.20000000e-01 
 3.30000000e-01  3.39664543e-09  4.61185771e-01  4.61185771e-01  4.61185771e-01  4.61185771e-01  4.61185771e-01  4.61185771e-01  1.64090428e-07  1.97299919e-07  3.30000000e-01 
 3.40000000e-01  3.39664543e-09  4.61185797e-01  4.61185797e-01  4.61185797e-01  4.61185797e-01  4.61185797e-01  4.61185797e-01  1.64090475e-07  1.97299769e-07  3.40000000e-01 
 3.50000000e-01  3.39664543e-09  4.61185795e-01  4.61185795e-01  4.61185795e-01  4.61185795e-01  4.61185795e-01  4.61185795e-01  1.64090478e-07  1.97299631e-07  3.50000000e-01 
 3.60000000e-01  3.39664543e-09  4.61185793e-01  4.61185793e-01  4.61185793e-01  4.61185793e-01  4.61185793e-01  4.61185793e-01  1.64090457e-07  1.97299350e-07  3.60000000e-01 
 3.70000000e-01  3.39664543e-09  4.61185794e-01  4.61185794e-01  4.61185794e-01  4.61185794e-01  4.61185794e-01  4.61185794e-01  1.64090467e-07  1.97299222e-07  3.70000000e-01 
 3.80000000e-01  3.39664543e-09  4.61185778e-01  4.61185778e-01  4.61185778e-01  4.61185778e-01  4.61185778e-01  4.61185778e-01  1.64090435e-07  1.97298892e-07  3.80000000e-01 
 3.90000000e-01  3.39664543e-09  4.61185794e-01  4.61185794e-01  4.61185794e-01  4.61185794e-01  4.61185794e-01  4.61185794e-01  1.64090479e-07  1.97298746e-07  3.90000000e-01 
 4.00000000e-01  3.39664543e-09  4.61185805e-01  4.61185805e-01  4.61185805e-01  4.61185805e-01  4.61185805e-01  4.61185805e-01  1.64090472e-07  1.97298633e-07  4.00000000e-01 
 4.10000000e-01  3.39664543e-09  4.61185793e-01  4.61185793e-01  4.61185792e-01  4.61185793e-01  4.61185792e-01  4.61185793e-01  1.64090471e-07  1.97298441e-07  4.10000000e-01 
 4.20000000e-01  3.39664543e-09  4.61185794e-01  4.61185793e-01  4.61185793e-01  4.61185793e-01  4.61185793e-01  4.61185793e-01  1.64090460e-07  1.97298281e-07  4.20000000e-01 
 4.30000000e-01  3.39664543e-09  4.61185777e-01  4.61185776e-01  4.61185776e-01  4.61185777e-01  4.61185776e-01  4.61185776e-01  1.64090433e-07  1.97298021e-07  4.30000000e-01 
 4.40000000e-01  3.39664543e-09  4.61185799e-01  4.61185799e-01  4.61185799e-01  4.61185799e-01  4.61185799e-01  4.61185799e-01  1.64090484e-07  1.97297826e-07  4.40000000e-01 
 4.50000000e-01  3.39664543e-09  4.61185802e-01  4.61185802e-01  4.61185802e-01  4.61185802e-01  4.61185802e-01  4.61185802e-01  1.64090477e-07  1.97297734e-07  4.50000000e-01 
 4.60000000e-01  3.39664543e-09  4.61185802e-01  4.61185802e-01  4.61185802e-01  4.61185802e-01  4.61185802e-01  4.61185802e-01  1.64090473e-07  1.97297570e-07  4.60000000e-01 
 4.70000000e-01  3.39664543e-09  4.61185795e-01  4.61185795e-01  4.61185795e-01  4.61185795e-01  4.61185795e-01  4.61185795e-01  1.64090469e-07  1.97297243e-07  4.70000000e-01 
 4.80000000e-01  3.39664543e-09  4.61185792e-01  4.61185792e-01  4.61185792e-01  4.61185792e-01  4.61185792e-01  4.61185792e-01  1.64090466e-07  1.97297087e-07  4.80000000e-01 
 4.90000000e-01  3.39664543e-09  4.61185786e-01  4.61185786e-01  4.61185786e-01  4.61185786e-01  4.61185786e-01  4.61185786e-01  1.64090447e-07  1.97296984e-07  4.90000000e-01 
 5.00000000e-01  3.39664543e-09  4.61185790e-01  4.61185790e-01  4.61185790e-01  4.61185790e-01  4.61185790e-01  4.61185790e-01  1.64090465e-07  1.97296849e-07  5.00000000e-01 
 5.10000000e-01  3.39664543e-09  4.61185801e-01  4.61185801e-01  4.61185801e-01  4.61185801e-01  4.61185801e-01  4.61185801e-01  1.64090469e-07  1.97296593e-07  5.10000000e-01 
 5.20000000e-01  3.39664543e-09  4.61185792e-01  4.61185791e-01  4.61185791e-01  4.61185792e-01  4.61185791e-01  4.61185791e-01  1.64090451e-07  1.97296409e-07  5.20000000e-01 
 5.30000000e-01  3.39664543e-09  4.61185792e-01  4.61185792e-01  4.61185792e-01  4.61185792e-01  4.61185792e-01  4.61185792e-01  1.64090465e-07  1.97296213e-07  5.30000000e-01 
 5.40000000e-01  3.39664543e-09  4.61185785e-01  4.61185785e-01  4.61185785e-01  4.61185785e-01  4.61185785e-01  4.61185785e-01  1.64090443e-07  1.97296021e-07  5.40000000e-01 
 5.50000000e-01  3.39664543e-09  4.61185795e-01  4.61185795e-01  4.61185795e-01  4.61185795e-01  4.61185795e-01  4.61185795e-01  1.64090455e-07  1.97295975e-07  5.50000000e-01 
 5.60000000e-01  3.39664543e-09  4.61185775e-01  4.61185775e-01  4.61185775e-01  4.61185775e-01  4.61185775e-01  4.61185775e-01  1.64090446e-07  1.97295609e-07  5.60000000e-01 
 5.70000000e-01  3.39664543e-09  4.61185809e-01  4.61185808e-01  4.61185808e-01  4.61185809e-01  4.61185808e-01  4.61185809e-01  1.64090495e-07  1.97295545e-07  5.70000000e-01 
 5.80000000e-01  3.39664543e-09  4.61185798e-01  4.61185798e-01  4.61185798e-01  4.61185798e-01  4.61185798e-01  4.61185798e-01  1.64090467e-07  1.97295321e-07  5.80000000e-01 
 5.90000000e-01  3.39664543e-09  4.61185795e-01  4.61185795e-01  4.61185795e-01  4.61185795e-01  4.61185795e-01  4.61185795e-01  1.64090474e-07  1.97295158e-07  5.90000000e-01 
 6.00000000e-01  3.39664543e-09  4.61185808e-01  4.61185808e-01  4.61185808e-01  4.61185808e-01  4.61185808e-01  4.61185808e-01  1.64090484e-07  1.97294995e-07  6.00000000e-01 
 6.10000000e-01  3.39664543e-09  4.61185782e-01  4.61185782e-01  4.61185781e-01  4.61185782e-01  4.61185782e-01  4.61185782e-01  1.64090447e-07  1.97294732e-07  6.10000000e-01 
 6.20000000e-01  3.39664543e-09  4.61185802e-01  4.61185802e-01  4.61185802e-01  4.61185802e-01  4.61185802e-01  4.61185802e-01  1.64090480e-07  1.97294611e-07  6.20000000e-01 
 6.30000000e-01  3.39664543e-09  4.61185795e-01  4.61185795e-01  4.61185795e-01  4.61185795e-01  4.61185795e-01  4.61185795e-01  1.64090471e-07  1.97294334e-07  6.30000000e-01 
 6.40000000e-01  3.39664543e-09  4.61185789e-01  4.61185789e-01  4.61185789e-01  4.61185789e-01  4.61185789e-01  4.61185789e-01  1.64090442e-07  1.97294128e-07  6.40000000e-01 
 6.50000000e-01  3.39664543e-09  4.61185794e-01  4.61185794e-01  4.61185794e-01  4.61185794e-01  4.61185794e-01  4.61185794e-01  1.64090464e-07  1.97294057e-07  6.50000000e-01 
 6.60000000e-01  3.39664543e-09  4.61185790e-01  4.61185789e-01  4.61185789e-01  4.61185789e-01  4.61185789e-01  4.61185789e-01  1.64090467e-07  1.97293829e-07  6.60000000e-01 
 6.70000000e-01  3.39664543e-09  4.61185796e-01  4.61185796e-01  4.61185796e-01  4.61185796e-01  4.61185796e-01  4.61185796e-01  1.64090475e-07  1.97293659e-07  6.70000000e-01 
 6.80000000e-01  3.39664543e-09  4.61185800e-01  4.61185800e-01  4.61185800e-01  4.61185800e-01  4.61185800e-01  4.61185800e-01  1.64090478e-07  1.97293524e-07  6.80000000e-01 
 6.90000000e-01  3.39664543e-09  4.61185796e-01  4.61185795e-01  4.61185795e-01  4.61185796e-01  4.61185795e-01  4.61185796e-01  1.64090465e-07  1.97293311e-07  6.90000000e-01 
 7.00000000e-01  3.39664543e-09  4.61185790e-01  4.61185790e-01  4.61185790e-01  4.61185790e-01  4.61185790e-01  4.61185790e-01  1.64090446e-07  1.97293069e-07  7.00000000e-01 
 7.10000000e-01  3.39664543e-09  4.61185789e-01  4.61185789e-01  4.61185789e-01  4.61185789e-01  4.61185789e-01  4.61185789e-01  1.64090457e-07  1.97292877e-07  7.10000000e-01 
 7.20000000e-01  3.39664543e-09  4.61185778e-01  4.61185778e-01  4.61185778e-01  4.61185778e-01  4.61185778e-01  4.61185778e-01  1.64090438e-07  1.97292685e-07  7.20000000e-01 
 7.30000000e-01  3.39664542e-09  4.61185759e-01  4.61185759e-01  4.61185759e-01  4.61185759e-01  4.61185759e-01  4.61185759e-01  1.64090414e-07  1.97292437e-07  7.30000000e-01 
 7.40000000e-01  3.39664543e-09  4.61185789e-01  4.61185789e-01  4.61185788e-01  4.61185789e-01  4.61185788e-01  4.61185789e-01  1.64090458e-07  1.97292472e-07  7.40000000e-01 
 7.50000000e-01  3.39664543e-09  4.61185808e-01  4.61185807e-01  4.61185807e-01  4.61185808e-01  4.61185807e-01  4.61185808e-01  1.64090485e-07  1.97292245e-07  7.50000000e-01 
 7.60000000e-01  3.39664543e-09  4.61185787e-01  4.61185787e-01  4.61185787e-01  4.61185787e-01  4.61185787e-01  4.61185787e-01  1.64090446e-07  1.97292060e-07  7.60000000e-01 
 7.70000000e-01  3.39664543e-09  4.61185802e-01  4.61185802e-01  4.61185802e-01  4.61185802e-01  4.61185802e-01  4.61185802e-01  1.64090479e-07  1.97291989e-07  7.70000000e-01 
 7.80000000e-01  3.39664543e-09  4.61185799e-01  4.61185799e-01  4.61185799e-01  4.61185799e-01  4.61185799e-01  4.61185799e-01  1.64090479e-07  1.97291662e-07  7.80000000e-01 
 7.90000000e-01  3.39664543e-09  4.61185790e-01  4.61185790e-01  4.61185790e-01  4.61185790e-01  4.61185790e-01  4.61185790e-01  1.64090453e-07  1.97291413e-07  7.90000000e-01 
 8.00000000e-01  3.39664543e-09  4.61185783e-01  4.61185783e-01  4.61185783e-01  4.61185783e-01  4.61185783e-01  4.61185783e-01  1.64090453e-07  1.97291172e-07  8.00000000e-01 
 8.10000000e-01  3.39664543e-09  4.61185800e-01  4.61185799e-01  4.61185799e-01  4.61185799e-01  4.61185799e-01  4.61185799e-01  1.64090475e-07  1.97291072e-07  8.10000000e-01 
 8.20000000e-01  3.39664543e-09  4.61185769e-01  4.61185769e-01  4.61185769e-01  4.61185769e-01  4.61185769e-01  4.61185769e-01  1.64090419e-07  1.97290703e-07  8.20000000e-01 
 8.30000000e-01  3.39664543e-09  4.61185776e-01  4.61185776e-01  4.61185776e-01  4.61185776e-01  4.61185776e-01  4.61185776e-01  1.64090442e-07  1.97290539e-07  8.30000000e-01 
 8.40000000e-01  3.39664543e-09  4.61185812e-01  4.61185812e-01  4.61185812e-01  4.61185812e-01  4.61185812e-01  4.61185812e-01  1.64090488e-07  1.97290539e-07  8.40000000e-01 
 8.50000000e-01  3.39664543e-09  4.61185813e-01  4.61185813e-01  4.61185813e-01  4.61185813e-01  4.61185813e-01  4.61185813e-01  1.64090506e-07  1.97290206e-07  8.50000000e-01 
 8.60000000e-01  3.39664543e-09  4.61185814e-01  4.61185814e-01  4.61185814e-01  4.61185814e-01  4.61185814e-01  4.61185814e-01  1.64090490e-07  1.97290142e-07  8.60000000e-01 
 8.70000000e-01  3.39664543e-09  4.61185799e-01  4.61185799e-01  4.61185799e-01  4.61185799e-01  4.61185799e-01  4.61185799e-01  1.64090480e-07  1.97289943e-07  8.70000000e-01 
 8.80000000e-01  3.39664543e-09  4.61185808e-01  4.61185807e-01  4.61185807e-01  4.61185808e-01  4.61185807e-01  4.61185808e-01  1.64090472e-07  1.97289786e-07  8.80000000e-01 
 8.90000000e-01  3.39664543e-09  4.61185798e-01  4.61185798e-01  4.61185798e-01  4.61185798e-01  4.61185798e-01  4.61185798e-01  1.64090467e-07  1.97289523e-07  8.90000000e-01 
 9.00000000e-01  3.39664543e-09  4.61185785e-01  4.61185784e-01  4.61185784e-01  4.61185784e-01  4.61185784e-01  4.61185784e-01  1.64090448e-07  1.97289246e-07  9.00000000e-01 
 9.10000000e-01  3.39664543e-09  4.61185784e-01  4.61185784e-01  4.61185784e-01  4.61185784e-01  4.61185784e-01  4.61185784e-01  1.64090451e-07  1.97288927e-07  9.10000000e-01 
 9.20000000e-01  3.39664543e-09  4.61185796e-01  4.61185795e-01  4.61185795e-01  4.61185796e-01  4.61185795e-01  4.61185796e-01  1.64090462e-07  1.97288749e-07  9.20000000e-01 
 9.30000000e-01  3.39664543e-09  4.61185790e-01  4.61185790e-01  4.61185790e-01  4.61185790e-01  4.61185790e-01  4.61185790e-01  1.64090463e-07  1.97288628e-07  9.30000000e-01 
 9.40000000e-01  3.39664543e-09  4.61185815e-01  4.61185815e-01  4.61185815e-01  4.61185815e-01  4.61185815e-01  4.61185815e-01  1.64090495e-07  1.97288536e-07  9.40000000e-01 
 9.50000000e-01  3.39664543e-09  4.61185774e-01  4.61185774e-01  4.61185774e-01  4.61185774e-01  4.61185774e-01  4.61185774e-01  1.64090440e-07  1.97287989e-07  9.50000000e-01 
 9.60000000e-01  3.39664543e-09  4.61185786e-01  4.61185786e-01  4.61185786e-01  4.61185786e-01  4.61185786e-01  4.61185786e-01  1.64090454e-07  1.97287832e-07  9.60000000e-01 
 9.70000000e-01  3.39664543e-09  4.61185790e-01  4.61185790e-01  4.61185790e-01  4.61185790e-01  4.61185790e-01  4.61185790e-01  1.64090470e-07  1.97287704e-07  9.70000000e-01 
 9.80000000e-01  3.39664543e-09  4.61185801e-01  4.61185801e-01  4.61185801e-01  4.61185801e-01  4.61185801e-01  4.61185801e-01  1.64090469e-07  1.97287555e-07  9.80000000e-01 
 9.90000000e-01  3.39664543e-09  4.61185781e-01  4.61185780e-01  4.61185780e-01  4.61185781e-01  4.61185780e-01  4.61185780e-01  1.64090446e-07  1.97287250e-07  9.90000000e-01 
 1.00000000e+00  3.39664543e-09  4.61185823e-01  4.61185823e-01  4.61185823e-01  4.61185823e-01  4.61185823e-01  4.61185823e-01  1.64090511e-07  1.97287086e-07  1.00000000e+00 
 1.01000000e+00  3.39664543e-09  4.61185799e-01  4.61185799e-01  4.61185799e-01  4.61185799e-01  4.61185799e-01  4.61185799e-01  1.64090469e-07  1.97286816e-07  1.01000000e+00 
 1.02000000e+00  3.39664543e-09  4.61185775e-01  4.61185775e-01  4.61185775e-01  4.61185775e-01  4.61185775e-01  4.61185775e-01  1.64090431e-07  1.97286397e-07  1.02000000e+00 
 1.03000000e+00  3.39664543e-09  4.61185805e-01  4.61185805e-01  4.61185805e-01  4.61185805e-01  4.61185805e-01  4.61185805e-01  1.64090479e-07  1.97286312e-07  1.03000000e+00 
 1.04000000e+00  3.39664543e-09  4.61185785e-01  4.61185785e-01  4.61185785e-01  4.61185785e-01  4.61185785e-01  4.61185785e-01  1.64090450e-07  1.97285999e-07  1.04000000e+00 
 1.05000000e+00  3.39664543e-09  4.61185823e-01  4.61185823e-01  4.61185823e-01  4.61185823e-01  4.61185823e-01  4.61185823e-01  1.64090508e-07  1.97286028e-07  1.05000000e+00 
 1.06000000e+00  3.39664543e-09  4.61185798e-01  4.61185798e-01  4.61185798e-01  4.61185798e-01  4.61185798e-01  4.61185798e-01  1.64090476e-07  1.97285608e-07  1.06000000e+00 
 1.07000000e+00  3.39664543e-09  4.61185799e-01  4.61185798e-01  4.61185798e-01  4.61185799e-01  4.61185798e-01  4.61185799e-01  1.64090469e-07  1.97285246e-07  1.07000000e+00 
 1.08000000e+00  3.39664543e-09  4.61185799e-01  4.61185799e-01  4.61185799e-01  4.61185799e-01  4.61185799e-01  4.61185799e-01  1.64090483e-07  1.97285132e-07  1.08000000e+00 
 1.09000000e+00  3.39664543e-09  4.61185794e-01  4.61185793e-01  4.61185793e-01  4.61185793e-01  4.61185793e-01  4.61185793e-01  1.64090457e-07  1.97284869e-07  1.09000000e+00 
 1.10000000e+00  3.39664543e-09  4.61185793e-01  4.61185793e-01  4.61185793e-01  4.61185793e-01  4.61185793e-01  4.61185793e-01  1.64090459e-07  1.97284614e-07  1.10000000e+00 
