 v-sweep         v(b0)           v(b1)           v(b2)           v(b3)           v(b4)           v(b5)           v(b6)           i(vbias)        i(viout)        v(vout)        
 0.00000000e+00  4.56295769e-01  4.56295769e-01  3.20534981e-09  4.56295769e-01  4.56295769e-01  4.56295769e-01  4.56295769e-01  1.55085154e-07  1.74206552e-07  0.00000000e+00 
 1.00000000e-02  4.56295776e-01  4.56295776e-01  3.20534978e-09  4.56295776e-01  4.56295776e-01  4.56295776e-01  4.56295776e-01  1.55085147e-07  1.74206128e-07  1.00000000e-02 
 2.00000000e-02  4.56295755e-01  4.56295755e-01  3.20534978e-09  4.56295755e-01  4.56295755e-01  4.56295755e-01  4.56295755e-01  1.55085120e-07  1.74205587e-07  2.00000000e-02 
 3.00000000e-02  4.56295775e-01  4.56295775e-01  3.20534978e-09  4.56295775e-01  4.56295775e-01  4.56295775e-01  4.56295775e-01  1.55085141e-07  1.74205353e-07  3.00000000e-02 
 4.00000000e-02  4.56295779e-01  4.56295779e-01  3.20534978e-09  4.56295779e-01  4.56295779e-01  4.56295779e-01  4.56295779e-01  1.55085142e-07  1.74204936e-07  4.00000000e-02 
 5.00000000e-02  4.56295759e-01  4.56295759e-01  3.20534978e-09  4.56295759e-01  4.56295759e-01  4.56295759e-01  4.56295759e-01  1.55085123e-07  1.74204362e-07  5.00000000e-02 
 6.00000000e-02  4.56295763e-01  4.56295763e-01  3.20534978e-09  4.56295763e-01  4.56295763e-01  4.56295763e-01  4.56295763e-01  1.55085130e-07  1.74204009e-07  6.00000000e-02 
 7.00000000e-02  4.56295776e-01  4.56295776e-01  3.20534978e-09  4.56295776e-01  4.56295776e-01  4.56295776e-01  4.56295776e-01  1.55085148e-07  1.74203775e-07  7.00000000e-02 
 8.00000000e-02  4.56295776e-01  4.56295776e-01  3.20534978e-09  4.56295776e-01  4.56295776e-01  4.56295776e-01  4.56295776e-01  1.55085154e-07  1.74203442e-07  8.00000000e-02 
 9.00000000e-02  4.56295773e-01  4.56295773e-01  3.20534978e-09  4.56295773e-01  4.56295773e-01  4.56295773e-01  4.56295773e-01  1.55085145e-07  1.74203064e-07  9.00000000e-02 
 1.00000000e-01  4.56295777e-01  4.56295777e-01  3.20534978e-09  4.56295777e-01  4.56295777e-01  4.56295777e-01  4.56295777e-01  1.55085142e-07  1.74202674e-07  1.00000000e-01 
 1.10000000e-01  4.56295775e-01  4.56295775e-01  3.20534978e-09  4.56295775e-01  4.56295775e-01  4.56295775e-01  4.56295775e-01  1.55085148e-07  1.74202326e-07  1.10000000e-01 
 1.20000000e-01  4.56295784e-01  4.56295784e-01  3.20534978e-09  4.56295784e-01  4.56295784e-01  4.56295784e-01  4.56295784e-01  1.55085160e-07  1.74202135e-07  1.20000000e-01 
 1.30000000e-01  4.56295779e-01  4.56295779e-01  3.20534978e-09  4.56295779e-01  4.56295779e-01  4.56295779e-01  4.56295779e-01  1.55085151e-07  1.74201772e-07  1.30000000e-01 
 1.40000000e-01  4.56295767e-01  4.56295767e-01  3.20534978e-09  4.56295767e-01  4.56295767e-01  4.56295767e-01  4.56295767e-01  1.55085126e-07  1.74201469e-07  1.40000000e-01 
 1.50000000e-01  4.56295776e-01  4.56295776e-01  3.20534978e-09  4.56295776e-01  4.56295776e-01  4.56295776e-01  4.56295776e-01  1.55085142e-07  1.74201185e-07  1.50000000e-01 
 1.60000000e-01  4.56295788e-01  4.56295789e-01  3.20534978e-09  4.56295789e-01  4.56295788e-01  4.56295789e-01  4.56295789e-01  1.55085181e-07  1.74201030e-07  1.60000000e-01 
 1.70000000e-01  4.56295801e-01  4.56295801e-01  3.20534978e-09  4.56295801e-01  4.56295801e-01  4.56295801e-01  4.56295801e-01  1.55085193e-07  1.74200983e-07  1.70000000e-01 
 1.80000000e-01  4.56295803e-01  4.56295803e-01  3.20534978e-09  4.56295803e-01  4.56295803e-01  4.56295803e-01  4.56295803e-01  1.55085184e-07  1.74200679e-07  1.80000000e-01 
 1.90000000e-01  4.56295755e-01  4.56295755e-01  3.20534978e-09  4.56295755e-01  4.56295755e-01  4.56295755e-01  4.56295755e-01  1.55085130e-07  1.74200249e-07  1.90000000e-01 
 2.00000000e-01  4.56295772e-01  4.56295772e-01  3.20534978e-09  4.56295772e-01  4.56295772e-01  4.56295772e-01  4.56295772e-01  1.55085152e-07  1.74200107e-07  2.00000000e-01 
 2.10000000e-01  4.56295757e-01  4.56295758e-01  3.20534978e-09  4.56295758e-01  4.56295757e-01  4.56295758e-01  4.56295758e-01  1.55085115e-07  1.74199725e-07  2.10000000e-01 
 2.20000000e-01  4.56295766e-01  4.56295766e-01  3.20534978e-09  4.56295766e-01  4.56295766e-01  4.56295766e-01  4.56295766e-01  1.55085132e-07  1.74199577e-07  2.20000000e-01 
 2.30000000e-01  4.56295767e-01  4.56295767e-01  3.20534978e-09  4.56295767e-01  4.56295767e-01  4.56295767e-01  4.56295767e-01  1.55085143e-07  1.74199430e-07  2.30000000e-01 
 2.40000000e-01  4.56295771e-01  4.56295771e-01  3.20534978e-09  4.56295771e-01  4.56295771e-01  4.56295771e-01  4.56295771e-01  1.55085141e-07  1.74199247e-07  2.40000000e-01 
 2.50000000e-01  4.56295790e-01  4.56295791e-01  3.20534978e-09  4.56295791e-01  4.56295790e-01  4.56295791e-01  4.56295791e-01  1.55085179e-07  1.74199100e-07  2.50000000e-01 
 2.60000000e-01  4.56295775e-01  4.56295775e-01  3.20534978e-09  4.56295775e-01  4.56295775e-01  4.56295775e-01  4.56295775e-01  1.55085151e-07  1.74198924e-07  2.60000000e-01 
 2.70000000e-01  4.56295760e-01  4.56295760e-01  3.20534978e-09  4.56295760e-01  4.56295760e-01  4.56295760e-01  4.56295760e-01  1.55085124e-07  1.74198533e-07  2.70000000e-01 
 2.80000000e-01  4.56295779e-01  4.56295779e-01  3.20534978e-09  4.56295779e-01  4.56295779e-01  4.56295779e-01  4.56295779e-01  1.55085147e-07  1.74198547e-07  2.80000000e-01 
 2.90000000e-01  4.56295770e-01  4.56295770e-01  3.20534978e-09  4.56295770e-01  4.56295770e-01  4.56295770e-01  4.56295770e-01  1.55085151e-07  1.74198281e-07  2.90000000e-01 
 3.00000000e-01  4.56295780e-01  4.56295780e-01  3.20534978e-09  4.56295780e-01  4.56295780e-01  4.56295780e-01  4.56295780e-01  1.55085152e-07  1.74198185e-07  3.00000000e-01 
 3.10000000e-01  4.56295773e-01  4.56295773e-01  3.20534978e-09  4.56295773e-01  4.56295773e-01  4.56295773e-01  4.56295773e-01  1.55085142e-07  1.74197901e-07  3.10000000e-01 
 3.20000000e-01  4.56295765e-01  4.56295765e-01  3.20534978e-09  4.56295765e-01  4.56295765e-01  4.56295765e-01  4.56295765e-01  1.55085143e-07  1.74197755e-07  3.20000000e-01 
 3.30000000e-01  4.56295778e-01  4.56295779e-01  3.20534978e-09  4.56295779e-01  4.56295778e-01  4.56295779e-01  4.56295779e-01  1.55085161e-07  1.74197616e-07  3.30000000e-01 
 3.40000000e-01  4.56295750e-01  4.56295750e-01  3.20534978e-09  4.56295750e-01  4.56295750e-01  4.56295750e-01  4.56295750e-01  1.55085118e-07  1.74197300e-07  3.40000000e-01 
 3.50000000e-01  4.56295759e-01  4.56295759e-01  3.20534978e-09  4.56295759e-01  4.56295759e-01  4.56295759e-01  4.56295759e-01  1.55085124e-07  1.74197186e-07  3.50000000e-01 
 3.60000000e-01  4.56295770e-01  4.56295770e-01  3.20534978e-09  4.56295770e-01  4.56295770e-01  4.56295770e-01  4.56295770e-01  1.55085146e-07  1.74197062e-07  3.60000000e-01 
 3.70000000e-01  4.56295777e-01  4.56295778e-01  3.20534978e-09  4.56295778e-01  4.56295777e-01  4.56295778e-01  4.56295778e-01  1.55085145e-07  1.74197087e-07  3.70000000e-01 
 3.80000000e-01  4.56295769e-01  4.56295769e-01  3.20534978e-09  4.56295769e-01  4.56295769e-01  4.56295769e-01  4.56295769e-01  1.55085137e-07  1.74196696e-07  3.80000000e-01 
 3.90000000e-01  4.56295763e-01  4.56295763e-01  3.20534978e-09  4.56295763e-01  4.56295763e-01  4.56295763e-01  4.56295763e-01  1.55085127e-07  1.74196622e-07  3.90000000e-01 
 4.00000000e-01  4.56295765e-01  4.56295765e-01  3.20534978e-09  4.56295765e-01  4.56295765e-01  4.56295765e-01  4.56295765e-01  1.55085132e-07  1.74196462e-07  4.00000000e-01 
 4.10000000e-01  4.56295774e-01  4.56295774e-01  3.20534978e-09  4.56295774e-01  4.56295774e-01  4.56295774e-01  4.56295774e-01  1.55085149e-07  1.74196444e-07  4.10000000e-01 
 4.20000000e-01  4.56295774e-01  4.56295774e-01  3.20534978e-09  4.56295774e-01  4.56295774e-01  4.56295774e-01  4.56295774e-01  1.55085126e-07  1.74196206e-07  4.20000000e-01 
 4.30000000e-01  4.56295763e-01  4.56295763e-01  3.20534978e-09  4.56295763e-01  4.56295763e-01  4.56295763e-01  4.56295763e-01  1.55085125e-07  1.74196146e-07  4.30000000e-01 
 4.40000000e-01  4.56295770e-01  4.56295771e-01  3.20534978e-09  4.56295771e-01  4.56295770e-01  4.56295771e-01  4.56295771e-01  1.55085143e-07  1.74196018e-07  4.40000000e-01 
 4.50000000e-01  4.56295784e-01  4.56295784e-01  3.20534978e-09  4.56295784e-01  4.56295784e-01  4.56295784e-01  4.56295784e-01  1.55085158e-07  1.74195947e-07  4.50000000e-01 
 4.60000000e-01  4.56295770e-01  4.56295771e-01  3.20534978e-09  4.56295771e-01  4.56295770e-01  4.56295771e-01  4.56295771e-01  1.55085150e-07  1.74195719e-07  4.60000000e-01 
 4.70000000e-01  4.56295778e-01  4.56295778e-01  3.20534978e-09  4.56295778e-01  4.56295778e-01  4.56295778e-01  4.56295778e-01  1.55085162e-07  1.74195563e-07  4.70000000e-01 
 4.80000000e-01  4.56295763e-01  4.56295763e-01  3.20534978e-09  4.56295763e-01  4.56295763e-01  4.56295763e-01  4.56295763e-01  1.55085144e-07  1.74195439e-07  4.80000000e-01 
 4.90000000e-01  4.56295779e-01  4.56295779e-01  3.20534978e-09  4.56295779e-01  4.56295779e-01  4.56295779e-01  4.56295779e-01  1.55085164e-07  1.74195339e-07  4.90000000e-01 
 5.00000000e-01  4.56295787e-01  4.56295787e-01  3.20534978e-09  4.56295787e-01  4.56295787e-01  4.56295787e-01  4.56295787e-01  1.55085166e-07  1.74195211e-07  5.00000000e-01 
 5.10000000e-01  4.56295785e-01  4.56295786e-01  3.20534978e-09  4.56295785e-01  4.56295785e-01  4.56295785e-01  4.56295785e-01  1.55085164e-07  1.74195051e-07  5.10000000e-01 
 5.20000000e-01  4.56295791e-01  4.56295792e-01  3.20534978e-09  4.56295792e-01  4.56295791e-01  4.56295792e-01  4.56295792e-01  1.55085170e-07  1.74195076e-07  5.20000000e-01 
 5.30000000e-01  4.56295758e-01  4.56295758e-01  3.20534978e-09  4.56295758e-01  4.56295758e-01  4.56295758e-01  4.56295758e-01  1.55085127e-07  1.74194714e-07  5.30000000e-01 
 5.40000000e-01  4.56295790e-01  4.56295790e-01  3.20534978e-09  4.56295790e-01  4.56295790e-01  4.56295790e-01  4.56295790e-01  1.55085157e-07  1.74194728e-07  5.40000000e-01 
 5.50000000e-01  4.56295751e-01  4.56295751e-01  3.20534978e-09  4.56295751e-01  4.56295751e-01  4.56295751e-01  4.56295751e-01  1.55085107e-07  1.74194451e-07  5.50000000e-01 
 5.60000000e-01  4.56295789e-01  4.56295789e-01  3.20534978e-09  4.56295789e-01  4.56295789e-01  4.56295789e-01  4.56295789e-01  1.55085169e-07  1.74194486e-07  5.60000000e-01 
 5.70000000e-01  4.56295788e-01  4.56295788e-01  3.20534978e-09  4.56295788e-01  4.56295787e-01  4.56295788e-01  4.56295788e-01  1.55085154e-07  1.74194312e-07  5.70000000e-01 
 5.80000000e-01  4.56295766e-01  4.56295767e-01  3.20534978e-09  4.56295767e-01  4.56295766e-01  4.56295767e-01  4.56295767e-01  1.55085125e-07  1.74194092e-07  5.80000000e-01 
 5.90000000e-01  4.56295772e-01  4.56295772e-01  3.20534978e-09  4.56295772e-01  4.56295772e-01  4.56295772e-01  4.56295772e-01  1.55085138e-07  1.74193914e-07  5.90000000e-01 
 6.00000000e-01  4.56295767e-01  4.56295768e-01  3.20534978e-09  4.56295768e-01  4.56295767e-01  4.56295768e-01  4.56295767e-01  1.55085126e-07  1.74193715e-07  6.00000000e-01 
 6.10000000e-01  4.56295752e-01  4.56295752e-01  3.20534978e-09  4.56295752e-01  4.56295752e-01  4.56295752e-01  4.56295752e-01  1.55085120e-07  1.74193588e-07  6.10000000e-01 
 6.20000000e-01  4.56295770e-01  4.56295770e-01  3.20534978e-09  4.56295770e-01  4.56295770e-01  4.56295770e-01  4.56295770e-01  1.55085145e-07  1.74193545e-07  6.20000000e-01 
 6.30000000e-01  4.56295773e-01  4.56295773e-01  3.20534978e-09  4.56295773e-01  4.56295773e-01  4.56295773e-01  4.56295773e-01  1.55085138e-07  1.74193424e-07  6.30000000e-01 
 6.40000000e-01  4.56295777e-01  4.56295777e-01  3.20534978e-09  4.56295777e-01  4.56295777e-01  4.56295777e-01  4.56295777e-01  1.55085155e-07  1.74193318e-07  6.40000000e-01 
 6.50000000e-01  4.56295797e-01  4.56295797e-01  3.20534978e-09  4.56295797e-01  4.56295797e-01  4.56295797e-01  4.56295797e-01  1.55085179e-07  1.74193232e-07  6.50000000e-01 
 6.60000000e-01  4.56295754e-01  4.56295755e-01  3.20534973e-09  4.56295755e-01  4.56295754e-01  4.56295755e-01  4.56295754e-01  1.55085107e-07  1.74192955e-07  6.60000000e-01 
 6.70000000e-01  4.56295791e-01  4.56295791e-01  3.20534978e-09  4.56295791e-01  4.56295791e-01  4.56295791e-01  4.56295791e-01  1.55085162e-07  1.74192948e-07  6.70000000e-01 
 6.80000000e-01  4.56295738e-01  4.56295738e-01  3.20534978e-09  4.56295738e-01  4.56295738e-01  4.56295738e-01  4.56295738e-01  1.55085091e-07  1.74192593e-07  6.80000000e-01 
 6.90000000e-01  4.56295786e-01  4.56295786e-01  3.20534978e-09  4.56295786e-01  4.56295786e-01  4.56295786e-01  4.56295786e-01  1.55085174e-07  1.74192721e-07  6.90000000e-01 
 7.00000000e-01  4.56295769e-01  4.56295769e-01  3.20534978e-09  4.56295769e-01  4.56295769e-01  4.56295769e-01  4.56295769e-01  1.55085125e-07  1.74192635e-07  7.00000000e-01 
 7.10000000e-01  4.56295787e-01  4.56295787e-01  3.20534978e-09  4.56295787e-01  4.56295787e-01  4.56295787e-01  4.56295787e-01  1.55085153e-07  1.74192351e-07  7.10000000e-01 
 7.20000000e-01  4.56295764e-01  4.56295764e-01  3.20534978e-09  4.56295764e-01  4.56295764e-01  4.56295764e-01  4.56295764e-01  1.55085127e-07  1.74192138e-07  7.20000000e-01 
 7.30000000e-01  4.56295764e-01  4.56295765e-01  3.20534978e-09  4.56295765e-01  4.56295764e-01  4.56295765e-01  4.56295765e-01  1.55085143e-07  1.74192031e-07  7.30000000e-01 
 7.40000000e-01  4.56295783e-01  4.56295783e-01  3.20534978e-09  4.56295783e-01  4.56295783e-01  4.56295783e-01  4.56295783e-01  1.55085154e-07  1.74191904e-07  7.40000000e-01 
 7.50000000e-01  4.56295759e-01  4.56295760e-01  3.20534978e-09  4.56295759e-01  4.56295759e-01  4.56295760e-01  4.56295759e-01  1.55085139e-07  1.74191847e-07  7.50000000e-01 
 7.60000000e-01  4.56295778e-01  4.56295778e-01  3.20534978e-09  4.56295778e-01  4.56295778e-01  4.56295778e-01  4.56295778e-01  1.55085157e-07  1.74191641e-07  7.60000000e-01 
 7.70000000e-01  4.56295787e-01  4.56295787e-01  3.20534978e-09  4.56295787e-01  4.56295787e-01  4.56295787e-01  4.56295787e-01  1.55085164e-07  1.74191598e-07  7.70000000e-01 
 7.80000000e-01  4.56295780e-01  4.56295780e-01  3.20534978e-09  4.56295780e-01  4.56295780e-01  4.56295780e-01  4.56295780e-01  1.55085148e-07  1.74191378e-07  7.80000000e-01 
 7.90000000e-01  4.56295778e-01  4.56295779e-01  3.20534978e-09  4.56295779e-01  4.56295778e-01  4.56295779e-01  4.56295779e-01  1.55085152e-07  1.74191243e-07  7.90000000e-01 
 8.00000000e-01  4.56295761e-01  4.56295761e-01  3.20534978e-09  4.56295761e-01  4.56295761e-01  4.56295761e-01  4.56295761e-01  1.55085126e-07  1.74191079e-07  8.00000000e-01 
 8.10000000e-01  4.56295775e-01  4.56295776e-01  3.20534978e-09  4.56295776e-01  4.56295775e-01  4.56295776e-01  4.56295776e-01  1.55085154e-07  1.74190802e-07  8.10000000e-01 
 8.20000000e-01  4.56295766e-01  4.56295767e-01  3.20534978e-09  4.56295766e-01  4.56295766e-01  4.56295766e-01  4.56295766e-01  1.55085133e-07  1.74190745e-07  8.20000000e-01 
 8.30000000e-01  4.56295749e-01  4.56295749e-01  3.20534978e-09  4.56295749e-01  4.56295749e-01  4.56295749e-01  4.56295749e-01  1.55085123e-07  1.74190511e-07  8.30000000e-01 
 8.40000000e-01  4.56295766e-01  4.56295767e-01  3.20534978e-09  4.56295767e-01  4.56295766e-01  4.56295767e-01  4.56295766e-01  1.55085131e-07  1.74190461e-07  8.40000000e-01 
 8.50000000e-01  4.56295782e-01  4.56295782e-01  3.20534978e-09  4.56295782e-01  4.56295782e-01  4.56295782e-01  4.56295782e-01  1.55085164e-07  1.74190454e-07  8.50000000e-01 
 8.60000000e-01  4.56295789e-01  4.56295789e-01  3.20534978e-09  4.56295789e-01  4.56295789e-01  4.56295789e-01  4.56295789e-01  1.55085168e-07  1.74190333e-07  8.60000000e-01 
 8.70000000e-01  4.56295766e-01  4.56295766e-01  3.20534978e-09  4.56295766e-01  4.56295766e-01  4.56295766e-01  4.56295766e-01  1.55085129e-07  1.74189935e-07  8.70000000e-01 
 8.80000000e-01  4.56295751e-01  4.56295751e-01  3.20534978e-09  4.56295751e-01  4.56295751e-01  4.56295751e-01  4.56295751e-01  1.55085111e-07  1.74189793e-07  8.80000000e-01 
 8.90000000e-01  4.56295783e-01  4.56295784e-01  3.20534978e-09  4.56295784e-01  4.56295783e-01  4.56295784e-01  4.56295784e-01  1.55085155e-07  1.74189815e-07  8.90000000e-01 
 9.00000000e-01  4.56295778e-01  4.56295778e-01  3.20534978e-09  4.56295778e-01  4.56295778e-01  4.56295778e-01  4.56295778e-01  1.55085147e-07  1.74189729e-07  9.00000000e-01 
 9.10000000e-01  4.56295769e-01  4.56295769e-01  3.20534978e-09  4.56295769e-01  4.56295769e-01  4.56295769e-01  4.56295769e-01  1.55085142e-07  1.74189537e-07  9.10000000e-01 
 9.20000000e-01  4.56295768e-01  4.56295768e-01  3.20534978e-09  4.56295768e-01  4.56295768e-01  4.56295768e-01  4.56295768e-01  1.55085132e-07  1.74189353e-07  9.20000000e-01 
 9.30000000e-01  4.56295765e-01  4.56295765e-01  3.20534978e-09  4.56295765e-01  4.56295765e-01  4.56295765e-01  4.56295765e-01  1.55085138e-07  1.74189204e-07  9.30000000e-01 
 9.40000000e-01  4.56295787e-01  4.56295788e-01  3.20534978e-09  4.56295788e-01  4.56295787e-01  4.56295788e-01  4.56295788e-01  1.55085163e-07  1.74189161e-07  9.40000000e-01 
 9.50000000e-01  4.56295798e-01  4.56295798e-01  3.20534978e-09  4.56295798e-01  4.56295798e-01  4.56295798e-01  4.56295798e-01  1.55085174e-07  1.74188933e-07  9.50000000e-01 
 9.60000000e-01  4.56295779e-01  4.56295780e-01  3.20534978e-09  4.56295780e-01  4.56295779e-01  4.56295780e-01  4.56295780e-01  1.55085160e-07  1.74188735e-07  9.60000000e-01 
 9.70000000e-01  4.56295757e-01  4.56295757e-01  3.20534978e-09  4.56295757e-01  4.56295757e-01  4.56295757e-01  4.56295757e-01  1.55085124e-07  1.74188486e-07  9.70000000e-01 
 9.80000000e-01  4.56295760e-01  4.56295760e-01  3.20534978e-09  4.56295760e-01  4.56295760e-01  4.56295760e-01  4.56295760e-01  1.55085128e-07  1.74188408e-07  9.80000000e-01 
 9.90000000e-01  4.56295790e-01  4.56295790e-01  3.20534978e-09  4.56295790e-01  4.56295790e-01  4.56295790e-01  4.56295790e-01  1.55085166e-07  1.74188315e-07  9.90000000e-01 
 1.00000000e+00  4.56295781e-01  4.56295781e-01  3.20534978e-09  4.56295781e-01  4.56295781e-01  4.56295781e-01  4.56295781e-01  1.55085167e-07  1.74187988e-07  1.00000000e+00 
 1.01000000e+00  4.56295770e-01  4.56295771e-01  3.20534978e-09  4.56295771e-01  4.56295770e-01  4.56295771e-01  4.56295771e-01  1.55085141e-07  1.74187988e-07  1.01000000e+00 
 1.02000000e+00  4.56295770e-01  4.56295770e-01  3.20534978e-09  4.56295770e-01  4.56295770e-01  4.56295770e-01  4.56295770e-01  1.55085138e-07  1.74187747e-07  1.02000000e+00 
 1.03000000e+00  4.56295771e-01  4.56295771e-01  3.20534978e-09  4.56295771e-01  4.56295771e-01  4.56295771e-01  4.56295771e-01  1.55085139e-07  1.74187605e-07  1.03000000e+00 
 1.04000000e+00  4.56295773e-01  4.56295773e-01  3.20534978e-09  4.56295773e-01  4.56295773e-01  4.56295773e-01  4.56295773e-01  1.55085133e-07  1.74187385e-07  1.04000000e+00 
 1.05000000e+00  4.56295766e-01  4.56295766e-01  3.20534978e-09  4.56295766e-01  4.56295766e-01  4.56295766e-01  4.56295766e-01  1.55085138e-07  1.74187129e-07  1.05000000e+00 
 1.06000000e+00  4.56295725e-01  4.56295725e-01  3.20534978e-09  4.56295725e-01  4.56295725e-01  4.56295725e-01  4.56295725e-01  1.55085079e-07  1.74186866e-07  1.06000000e+00 
 1.07000000e+00  4.56295772e-01  4.56295772e-01  3.20534978e-09  4.56295772e-01  4.56295772e-01  4.56295772e-01  4.56295772e-01  1.55085147e-07  1.74186781e-07  1.07000000e+00 
 1.08000000e+00  4.56295783e-01  4.56295783e-01  3.20534978e-09  4.56295783e-01  4.56295782e-01  4.56295783e-01  4.56295783e-01  1.55085144e-07  1.74186681e-07  1.08000000e+00 
 1.09000000e+00  4.56295762e-01  4.56295762e-01  3.20534978e-09  4.56295762e-01  4.56295762e-01  4.56295762e-01  4.56295762e-01  1.55085138e-07  1.74186489e-07  1.09000000e+00 
 1.10000000e+00  4.56295779e-01  4.56295779e-01  3.20534978e-09  4.56295779e-01  4.56295779e-01  4.56295779e-01  4.56295779e-01  1.55085158e-07  1.74186397e-07  1.10000000e+00 
