 v-sweep         v(b0)           v(b1)           v(b2)           v(b3)           v(b4)           v(b5)           v(b6)           i(vbias)        i(viout)        v(vout)        
 0.00000000e+00  4.59226294e-01  4.59226293e-01  3.14727609e-09  3.46179675e-09  3.25783388e-09  3.34238935e-09  3.42932592e-09  1.62446831e-07  4.22660541e-09  0.00000000e+00 
 1.00000000e-02  4.59226299e-01  4.59226299e-01  3.14727607e-09  3.46179678e-09  3.25783390e-09  3.34238932e-09  3.42932601e-09  1.62446831e-07  4.22612667e-09  1.00000000e-02 
 2.00000000e-02  4.59226285e-01  4.59226285e-01  3.14727607e-09  3.46179672e-09  3.25783390e-09  3.34238932e-09  3.42932600e-09  1.62446816e-07  4.22571866e-09  2.00000000e-02 
 3.00000000e-02  4.59226288e-01  4.59226288e-01  3.14727612e-09  3.46179678e-09  3.25783390e-09  3.34238938e-09  3.42932600e-09  1.62446805e-07  4.22535207e-09  3.00000000e-02 
 4.00000000e-02  4.59226288e-01  4.59226288e-01  3.14727606e-09  3.46179678e-09  3.25783390e-09  3.34238932e-09  3.42932595e-09  1.62446817e-07  4.22511981e-09  4.00000000e-02 
 5.00000000e-02  4.59226308e-01  4.59226308e-01  3.14727607e-09  3.46179672e-09  3.25783390e-09  3.34238932e-09  3.42932595e-09  1.62446842e-07  4.22472457e-09  5.00000000e-02 
 6.00000000e-02  4.59226289e-01  4.59226289e-01  3.14727612e-09  3.46179678e-09  3.25783390e-09  3.34238932e-09  3.42932595e-09  1.62446823e-07  4.22426627e-09  6.00000000e-02 
 7.00000000e-02  4.59226303e-01  4.59226302e-01  3.14727606e-09  3.46179672e-09  3.25783390e-09  3.34238932e-09  3.42932595e-09  1.62446831e-07  4.22408286e-09  7.00000000e-02 
 8.00000000e-02  4.59226281e-01  4.59226281e-01  3.14727607e-09  3.46179672e-09  3.25783390e-09  3.34238932e-09  3.42932595e-09  1.62446815e-07  4.22383550e-09  8.00000000e-02 
 9.00000000e-02  4.59226289e-01  4.59226289e-01  3.14727607e-09  3.46179672e-09  3.25783390e-09  3.34238932e-09  3.42932595e-09  1.62446813e-07  4.22352731e-09  9.00000000e-02 
 1.00000000e-01  4.59226290e-01  4.59226290e-01  3.14727607e-09  3.46179678e-09  3.25783390e-09  3.34238932e-09  3.42932595e-09  1.62446830e-07  4.22325730e-09  1.00000000e-01 
 1.10000000e-01  4.59226306e-01  4.59226305e-01  3.14727607e-09  3.46179672e-09  3.25783390e-09  3.34238932e-09  3.42932595e-09  1.62446839e-07  4.22299351e-09  1.10000000e-01 
 1.20000000e-01  4.59226306e-01  4.59226306e-01  3.14727613e-09  3.46179678e-09  3.25783390e-09  3.34238932e-09  3.42932595e-09  1.62446850e-07  4.22271551e-09  1.20000000e-01 
 1.30000000e-01  4.59226284e-01  4.59226284e-01  3.14727611e-09  3.46179672e-09  3.25783390e-09  3.34238932e-09  3.42932595e-09  1.62446811e-07  4.22247304e-09  1.30000000e-01 
 1.40000000e-01  4.59226293e-01  4.59226293e-01  3.14727607e-09  3.46179672e-09  3.25783390e-09  3.34238932e-09  3.42932595e-09  1.62446819e-07  4.22225277e-09  1.40000000e-01 
 1.50000000e-01  4.59226285e-01  4.59226285e-01  3.14727607e-09  3.46179678e-09  3.25783390e-09  3.34238932e-09  3.42932595e-09  1.62446805e-07  4.22215329e-09  1.50000000e-01 
 1.60000000e-01  4.59226278e-01  4.59226278e-01  3.14727612e-09  3.46179672e-09  3.25783390e-09  3.34238932e-09  3.42932595e-09  1.62446778e-07  4.22185309e-09  1.60000000e-01 
 1.70000000e-01  4.59226292e-01  4.59226291e-01  3.14727611e-09  3.46179672e-09  3.25783390e-09  3.34238938e-09  3.42932595e-09  1.62446822e-07  4.22174828e-09  1.70000000e-01 
 1.80000000e-01  4.59226282e-01  4.59226282e-01  3.14727613e-09  3.46179672e-09  3.25783390e-09  3.34238932e-09  3.42932595e-09  1.62446810e-07  4.22151913e-09  1.80000000e-01 
 1.90000000e-01  4.59226300e-01  4.59226300e-01  3.14727611e-09  3.46179672e-09  3.25783390e-09  3.34238932e-09  3.42932595e-09  1.62446830e-07  4.22142143e-09  1.90000000e-01 
 2.00000000e-01  4.59226294e-01  4.59226293e-01  3.14727613e-09  3.46179678e-09  3.25783390e-09  3.34238932e-09  3.42932595e-09  1.62446831e-07  4.22111057e-09  2.00000000e-01 
 2.10000000e-01  4.59226287e-01  4.59226287e-01  3.14727605e-09  3.46179672e-09  3.25783390e-09  3.34238932e-09  3.42932595e-09  1.62446824e-07  4.22105906e-09  2.10000000e-01 
 2.20000000e-01  4.59226295e-01  4.59226295e-01  3.14727607e-09  3.46179672e-09  3.25783390e-09  3.34238932e-09  3.42932595e-09  1.62446824e-07  4.22084945e-09  2.20000000e-01 
 2.30000000e-01  4.59226289e-01  4.59226289e-01  3.14727607e-09  3.46179672e-09  3.25783390e-09  3.34238932e-09  3.42932595e-09  1.62446823e-07  4.22079793e-09  2.30000000e-01 
 2.40000000e-01  4.59226303e-01  4.59226303e-01  3.14727607e-09  3.46179678e-09  3.25783390e-09  3.34238932e-09  3.42932595e-09  1.62446842e-07  4.22052970e-09  2.40000000e-01 
 2.50000000e-01  4.59226288e-01  4.59226288e-01  3.14727607e-09  3.46179672e-09  3.25783390e-09  3.34238932e-09  3.42932595e-09  1.62446818e-07  4.22043733e-09  2.50000000e-01 
 2.60000000e-01  4.59226289e-01  4.59226289e-01  3.14727612e-09  3.46179672e-09  3.25783390e-09  3.34238932e-09  3.42932595e-09  1.62446816e-07  4.22019930e-09  2.60000000e-01 
 2.70000000e-01  4.59226296e-01  4.59226296e-01  3.14727611e-09  3.46179672e-09  3.25783390e-09  3.34238932e-09  3.42932595e-09  1.62446832e-07  4.22025259e-09  2.70000000e-01 
 2.80000000e-01  4.59226281e-01  4.59226281e-01  3.14727607e-09  3.46179678e-09  3.25783390e-09  3.34238932e-09  3.42932595e-09  1.62446818e-07  4.22009983e-09  2.80000000e-01 
 2.90000000e-01  4.59226280e-01  4.59226279e-01  3.14727612e-09  3.46179678e-09  3.25783390e-09  3.34238932e-09  3.42932595e-09  1.62446792e-07  4.21983870e-09  2.90000000e-01 
 3.00000000e-01  4.59226273e-01  4.59226273e-01  3.14727605e-09  3.46179672e-09  3.25783390e-09  3.34238932e-09  3.42932595e-09  1.62446790e-07  4.21973212e-09  3.00000000e-01 
 3.10000000e-01  4.59226274e-01  4.59226274e-01  3.14727607e-09  3.46179678e-09  3.25783390e-09  3.34238932e-09  3.42932595e-09  1.62446808e-07  4.21964685e-09  3.10000000e-01 
 3.20000000e-01  4.59226280e-01  4.59226280e-01  3.14727607e-09  3.46179678e-09  3.25783390e-09  3.34238932e-09  3.42932595e-09  1.62446796e-07  4.21957225e-09  3.20000000e-01 
 3.30000000e-01  4.59226296e-01  4.59226296e-01  3.14727607e-09  3.46179672e-09  3.25783390e-09  3.34238932e-09  3.42932601e-09  1.62446832e-07  4.21948343e-09  3.30000000e-01 
 3.40000000e-01  4.59226297e-01  4.59226297e-01  3.14727607e-09  3.46179678e-09  3.25783390e-09  3.34238938e-09  3.42932595e-09  1.62446845e-07  4.21943014e-09  3.40000000e-01 
 3.50000000e-01  4.59226274e-01  4.59226273e-01  3.14727607e-09  3.46179672e-09  3.25783390e-09  3.34238932e-09  3.42932595e-09  1.62446802e-07  4.21930579e-09  3.50000000e-01 
 3.60000000e-01  4.59226302e-01  4.59226302e-01  3.14727612e-09  3.46179678e-09  3.25783390e-09  3.34238932e-09  3.42932595e-09  1.62446834e-07  4.21914592e-09  3.60000000e-01 
 3.70000000e-01  4.59226291e-01  4.59226291e-01  3.14727611e-09  3.46179678e-09  3.25783390e-09  3.34238938e-09  3.42932601e-09  1.62446828e-07  4.21915303e-09  3.70000000e-01 
 3.80000000e-01  4.59226289e-01  4.59226289e-01  3.14727607e-09  3.46179672e-09  3.25783390e-09  3.34238932e-09  3.42932595e-09  1.62446821e-07  4.21897539e-09  3.80000000e-01 
 3.90000000e-01  4.59226291e-01  4.59226291e-01  3.14727607e-09  3.46179678e-09  3.25783390e-09  3.34238932e-09  3.42932595e-09  1.62446828e-07  4.21891500e-09  3.90000000e-01 
 4.00000000e-01  4.59226288e-01  4.59226288e-01  3.14727607e-09  3.46179672e-09  3.25783390e-09  3.34238932e-09  3.42932595e-09  1.62446806e-07  4.21888657e-09  4.00000000e-01 
 4.10000000e-01  4.59226292e-01  4.59226291e-01  3.14727612e-09  3.46179678e-09  3.25783390e-09  3.34238932e-09  3.42932595e-09  1.62446815e-07  4.21871604e-09  4.10000000e-01 
 4.20000000e-01  4.59226292e-01  4.59226292e-01  3.14727606e-09  3.46179672e-09  3.25783390e-09  3.34238932e-09  3.42932595e-09  1.62446813e-07  4.21871604e-09  4.20000000e-01 
 4.30000000e-01  4.59226306e-01  4.59226306e-01  3.14727607e-09  3.46179678e-09  3.25783390e-09  3.34238932e-09  3.42932601e-09  1.62446844e-07  4.21865565e-09  4.30000000e-01 
 4.40000000e-01  4.59226282e-01  4.59226281e-01  3.14727607e-09  3.46179678e-09  3.25783390e-09  3.34238932e-09  3.42932595e-09  1.62446807e-07  4.21853130e-09  4.40000000e-01 
 4.50000000e-01  4.59226272e-01  4.59226272e-01  3.14727612e-09  3.46179672e-09  3.25783390e-09  3.34238932e-09  3.42932595e-09  1.62446793e-07  4.21837143e-09  4.50000000e-01 
 4.60000000e-01  4.59226293e-01  4.59226293e-01  3.14727611e-09  3.46179672e-09  3.25783390e-09  3.34238932e-09  3.42932595e-09  1.62446818e-07  4.21832880e-09  4.60000000e-01 
 4.70000000e-01  4.59226287e-01  4.59226286e-01  3.14727607e-09  3.46179678e-09  3.25783390e-09  3.34238932e-09  3.42932595e-09  1.62446814e-07  4.21819024e-09  4.70000000e-01 
 4.80000000e-01  4.59226297e-01  4.59226297e-01  3.14727607e-09  3.46179672e-09  3.25783390e-09  3.34238932e-09  3.42932601e-09  1.62446836e-07  4.21817603e-09  4.80000000e-01 
 4.90000000e-01  4.59226296e-01  4.59226296e-01  3.14727612e-09  3.46179672e-09  3.25783390e-09  3.34238932e-09  3.42932595e-09  1.62446834e-07  4.21810498e-09  4.90000000e-01 
 5.00000000e-01  4.59226284e-01  4.59226284e-01  3.14727611e-09  3.46179678e-09  3.25783390e-09  3.34238932e-09  3.42932595e-09  1.62446815e-07  4.21808011e-09  5.00000000e-01 
 5.10000000e-01  4.59226305e-01  4.59226305e-01  3.14727607e-09  3.46179672e-09  3.25783390e-09  3.34238932e-09  3.42932595e-09  1.62446836e-07  4.21796997e-09  5.10000000e-01 
 5.20000000e-01  4.59226289e-01  4.59226288e-01  3.14727612e-09  3.46179678e-09  3.25783390e-09  3.34238932e-09  3.42932595e-09  1.62446820e-07  4.21781721e-09  5.20000000e-01 
 5.30000000e-01  4.59226286e-01  4.59226286e-01  3.14727611e-09  3.46179672e-09  3.25783390e-09  3.34238932e-09  3.42932600e-09  1.62446819e-07  4.21780655e-09  5.30000000e-01 
 5.40000000e-01  4.59226289e-01  4.59226289e-01  3.14727607e-09  3.46179678e-09  3.25783390e-09  3.34238932e-09  3.42932600e-09  1.62446828e-07  4.21777102e-09  5.40000000e-01 
 5.50000000e-01  4.59226302e-01  4.59226302e-01  3.14727612e-09  3.46179678e-09  3.25783390e-09  3.34238932e-09  3.42932595e-09  1.62446824e-07  4.21752233e-09  5.50000000e-01 
 5.60000000e-01  4.59226283e-01  4.59226283e-01  3.14727605e-09  3.46179672e-09  3.25783390e-09  3.34238937e-09  3.42932595e-09  1.62446806e-07  4.21748680e-09  5.60000000e-01 
 5.70000000e-01  4.59226294e-01  4.59226294e-01  3.14727613e-09  3.46179672e-09  3.25783390e-09  3.34238932e-09  3.42932595e-09  1.62446837e-07  4.21737312e-09  5.70000000e-01 
 5.80000000e-01  4.59226294e-01  4.59226294e-01  3.14727611e-09  3.46179672e-09  3.25783390e-09  3.34238932e-09  3.42932595e-09  1.62446832e-07  4.21743351e-09  5.80000000e-01 
 5.90000000e-01  4.59226304e-01  4.59226304e-01  3.14727613e-09  3.46179678e-09  3.25783390e-09  3.34238932e-09  3.42932595e-09  1.62446848e-07  4.21746194e-09  5.90000000e-01 
 6.00000000e-01  4.59226295e-01  4.59226295e-01  3.14727606e-09  3.46179672e-09  3.25783390e-09  3.34238932e-09  3.42932595e-09  1.62446827e-07  4.21739799e-09  6.00000000e-01 
 6.10000000e-01  4.59226277e-01  4.59226277e-01  3.14727607e-09  3.46179672e-09  3.25783390e-09  3.34238932e-09  3.42932595e-09  1.62446804e-07  4.21729140e-09  6.10000000e-01 
 6.20000000e-01  4.59226288e-01  4.59226288e-01  3.14727612e-09  3.46179672e-09  3.25783390e-09  3.34238932e-09  3.42932595e-09  1.62446804e-07  4.21713509e-09  6.20000000e-01 
 6.30000000e-01  4.59226306e-01  4.59226306e-01  3.14727606e-09  3.46179672e-09  3.25783390e-09  3.34238932e-09  3.42932595e-09  1.62446839e-07  4.21708535e-09  6.30000000e-01 
 6.40000000e-01  4.59226296e-01  4.59226296e-01  3.14727613e-09  3.46179678e-09  3.25783390e-09  3.34238932e-09  3.42932595e-09  1.62446828e-07  4.21713509e-09  6.40000000e-01 
 6.50000000e-01  4.59226287e-01  4.59226287e-01  3.14727611e-09  3.46179678e-09  3.25783390e-09  3.34238938e-09  3.42932595e-09  1.62446813e-07  4.21684376e-09  6.50000000e-01 
 6.60000000e-01  4.59226297e-01  4.59226297e-01  3.14727607e-09  3.46179678e-09  3.25783390e-09  3.34238932e-09  3.42932595e-09  1.62446829e-07  4.21681534e-09  6.60000000e-01 
 6.70000000e-01  4.59226282e-01  4.59226282e-01  3.14727612e-09  3.46179672e-09  3.25783390e-09  3.34238932e-09  3.42932595e-09  1.62446801e-07  4.21695745e-09  6.70000000e-01 
 6.80000000e-01  4.59226306e-01  4.59226306e-01  3.14727611e-09  3.46179672e-09  3.25783390e-09  3.34238932e-09  3.42932595e-09  1.62446840e-07  4.21665902e-09  6.80000000e-01 
 6.90000000e-01  4.59226285e-01  4.59226285e-01  3.14727607e-09  3.46179672e-09  3.25783390e-09  3.34238932e-09  3.42932595e-09  1.62446818e-07  4.21675139e-09  6.90000000e-01 
 7.00000000e-01  4.59226285e-01  4.59226285e-01  3.14727612e-09  3.46179678e-09  3.25783390e-09  3.34238932e-09  3.42932595e-09  1.62446818e-07  4.21655955e-09  7.00000000e-01 
 7.10000000e-01  4.59226292e-01  4.59226292e-01  3.14727611e-09  3.46179678e-09  3.25783390e-09  3.34238932e-09  3.42932595e-09  1.62446821e-07  4.21643875e-09  7.10000000e-01 
 7.20000000e-01  4.59226294e-01  4.59226293e-01  3.14727607e-09  3.46179678e-09  3.25783390e-09  3.34238932e-09  3.42932601e-09  1.62446828e-07  4.21645296e-09  7.20000000e-01 
 7.30000000e-01  4.59226297e-01  4.59226297e-01  3.14727607e-09  3.46179672e-09  3.25783390e-09  3.34238932e-09  3.42932595e-09  1.62446829e-07  4.21641033e-09  7.30000000e-01 
 7.40000000e-01  4.59226296e-01  4.59226296e-01  3.14727607e-09  3.46179678e-09  3.25783390e-09  3.34238932e-09  3.42932595e-09  1.62446830e-07  4.21634638e-09  7.40000000e-01 
 7.50000000e-01  4.59226293e-01  4.59226293e-01  3.14727612e-09  3.46179678e-09  3.25783390e-09  3.34238932e-09  3.42932595e-09  1.62446830e-07  4.21627533e-09  7.50000000e-01 
 7.60000000e-01  4.59226266e-01  4.59226266e-01  3.14727611e-09  3.46179678e-09  3.25783390e-09  3.34238932e-09  3.42932600e-09  1.62446779e-07  4.21625401e-09  7.60000000e-01 
 7.70000000e-01  4.59226270e-01  4.59226269e-01  3.14727607e-09  3.46179672e-09  3.25783390e-09  3.34238932e-09  3.42932595e-09  1.62446796e-07  4.21610480e-09  7.70000000e-01 
 7.80000000e-01  4.59226283e-01  4.59226283e-01  3.14727607e-09  3.46179678e-09  3.25783390e-09  3.34238932e-09  3.42932595e-09  1.62446804e-07  4.21611190e-09  7.80000000e-01 
 7.90000000e-01  4.59226284e-01  4.59226284e-01  3.14727612e-09  3.46179678e-09  3.25783390e-09  3.34238932e-09  3.42932595e-09  1.62446814e-07  4.21582058e-09  7.90000000e-01 
 8.00000000e-01  4.59226293e-01  4.59226293e-01  3.14727606e-09  3.46179678e-09  3.25783390e-09  3.34238932e-09  3.42932595e-09  1.62446826e-07  4.21594848e-09  8.00000000e-01 
 8.10000000e-01  4.59226287e-01  4.59226287e-01  3.14727607e-09  3.46179672e-09  3.25783390e-09  3.34238932e-09  3.42932600e-09  1.62446815e-07  4.21579216e-09  8.10000000e-01 
 8.20000000e-01  4.59226285e-01  4.59226285e-01  3.14727612e-09  3.46179672e-09  3.25783390e-09  3.34238932e-09  3.42932595e-09  1.62446817e-07  4.21576374e-09  8.20000000e-01 
 8.30000000e-01  4.59226294e-01  4.59226294e-01  3.14727606e-09  3.46179672e-09  3.25783390e-09  3.34238932e-09  3.42932595e-09  1.62446829e-07  4.21572821e-09  8.30000000e-01 
 8.40000000e-01  4.59226269e-01  4.59226269e-01  3.14727613e-09  3.46179678e-09  3.25783390e-09  3.34238932e-09  3.42932595e-09  1.62446778e-07  4.21556479e-09  8.40000000e-01 
 8.50000000e-01  4.59226288e-01  4.59226287e-01  3.14727611e-09  3.46179678e-09  3.25783390e-09  3.34238932e-09  3.42932595e-09  1.62446810e-07  4.21560742e-09  8.50000000e-01 
 8.60000000e-01  4.59226290e-01  4.59226290e-01  3.14727607e-09  3.46179678e-09  3.25783390e-09  3.34238932e-09  3.42932595e-09  1.62446822e-07  4.21549373e-09  8.60000000e-01 
 8.70000000e-01  4.59226276e-01  4.59226275e-01  3.14727607e-09  3.46179678e-09  3.25783390e-09  3.34238932e-09  3.42932600e-09  1.62446806e-07  4.21540136e-09  8.70000000e-01 
 8.80000000e-01  4.59226286e-01  4.59226286e-01  3.14727612e-09  3.46179672e-09  3.25783390e-09  3.34238932e-09  3.42932595e-09  1.62446799e-07  4.21535873e-09  8.80000000e-01 
 8.90000000e-01  4.59226272e-01  4.59226271e-01  3.14727611e-09  3.46179672e-09  3.25783390e-09  3.34238932e-09  3.42932600e-09  1.62446792e-07  4.21519530e-09  8.90000000e-01 
 9.00000000e-01  4.59226304e-01  4.59226304e-01  3.14727607e-09  3.46179672e-09  3.25783390e-09  3.34238932e-09  3.42932595e-09  1.62446843e-07  4.21530189e-09  9.00000000e-01 
 9.10000000e-01  4.59226295e-01  4.59226295e-01  3.14727612e-09  3.46179678e-09  3.25783390e-09  3.34238932e-09  3.42932595e-09  1.62446829e-07  4.21515267e-09  9.10000000e-01 
 9.20000000e-01  4.59226293e-01  4.59226293e-01  3.14727611e-09  3.46179678e-09  3.25783390e-09  3.34238932e-09  3.42932595e-09  1.62446832e-07  4.21499635e-09  9.20000000e-01 
 9.30000000e-01  4.59226305e-01  4.59226305e-01  3.14727613e-09  3.46179672e-09  3.25783390e-09  3.34238932e-09  3.42932595e-09  1.62446853e-07  4.21506741e-09  9.30000000e-01 
 9.40000000e-01  4.59226283e-01  4.59226283e-01  3.14727605e-09  3.46179678e-09  3.25783390e-09  3.34238932e-09  3.42932595e-09  1.62446797e-07  4.21488267e-09  9.40000000e-01 
 9.50000000e-01  4.59226288e-01  4.59226288e-01  3.14727613e-09  3.46179672e-09  3.25783390e-09  3.34238932e-09  3.42932595e-09  1.62446804e-07  4.21492530e-09  9.50000000e-01 
 9.60000000e-01  4.59226287e-01  4.59226287e-01  3.14727611e-09  3.46179672e-09  3.25783390e-09  3.34238932e-09  3.42932600e-09  1.62446816e-07  4.21478319e-09  9.60000000e-01 
 9.70000000e-01  4.59226283e-01  4.59226283e-01  3.14727613e-09  3.46179678e-09  3.25783390e-09  3.34238932e-09  3.42932595e-09  1.62446801e-07  4.21482582e-09  9.70000000e-01 
 9.80000000e-01  4.59226295e-01  4.59226295e-01  3.14727611e-09  3.46179672e-09  3.25783390e-09  3.34238932e-09  3.42932601e-09  1.62446825e-07  4.21457003e-09  9.80000000e-01 
 9.90000000e-01  4.59226278e-01  4.59226278e-01  3.14727607e-09  3.46179672e-09  3.25783390e-09  3.34238932e-09  3.42932595e-09  1.62446815e-07  4.21464108e-09  9.90000000e-01 
 1.00000000e+00  4.59226263e-01  4.59226262e-01  3.14727612e-09  3.46179678e-09  3.25783390e-09  3.34238932e-09  3.42932600e-09  1.62446766e-07  4.21447055e-09  1.00000000e+00 
 1.01000000e+00  4.59226303e-01  4.59226303e-01  3.14727612e-09  3.46179672e-09  3.25783390e-09  3.34238932e-09  3.42932601e-09  1.62446841e-07  4.21450608e-09  1.01000000e+00 
 1.02000000e+00  4.59226294e-01  4.59226294e-01  3.14727611e-09  3.46179678e-09  3.25783390e-09  3.34238932e-09  3.42932595e-09  1.62446844e-07  4.21433555e-09  1.02000000e+00 
 1.03000000e+00  4.59226276e-01  4.59226275e-01  3.14727613e-09  3.46179672e-09  3.25783390e-09  3.34238932e-09  3.42932595e-09  1.62446808e-07  4.21412949e-09  1.03000000e+00 
 1.04000000e+00  4.59226271e-01  4.59226271e-01  3.14727605e-09  3.46179678e-09  3.25783390e-09  3.34238932e-09  3.42932595e-09  1.62446787e-07  4.21420054e-09  1.04000000e+00 
 1.05000000e+00  4.59226277e-01  4.59226277e-01  3.14727607e-09  3.46179678e-09  3.25783390e-09  3.34238932e-09  3.42932595e-09  1.62446790e-07  4.21414370e-09  1.05000000e+00 
 1.06000000e+00  4.59226268e-01  4.59226268e-01  3.14727607e-09  3.46179678e-09  3.25783390e-09  3.34238932e-09  3.42932595e-09  1.62446782e-07  4.21407265e-09  1.06000000e+00 
 1.07000000e+00  4.59226298e-01  4.59226298e-01  3.14727612e-09  3.46179672e-09  3.25783390e-09  3.34238932e-09  3.42932595e-09  1.62446824e-07  4.21394475e-09  1.07000000e+00 
 1.08000000e+00  4.59226283e-01  4.59226283e-01  3.14727611e-09  3.46179672e-09  3.25783390e-09  3.34238932e-09  3.42932600e-09  1.62446807e-07  4.21380975e-09  1.08000000e+00 
 1.09000000e+00  4.59226274e-01  4.59226273e-01  3.14727607e-09  3.46179678e-09  3.25783390e-09  3.34238932e-09  3.42932595e-09  1.62446800e-07  4.21381685e-09  1.09000000e+00 
 1.10000000e+00  4.59226296e-01  4.59226296e-01  3.14727607e-09  3.46179672e-09  3.25783390e-09  3.34238932e-09  3.42932595e-09  1.62446835e-07  4.21371027e-09  1.10000000e+00 
