 v-sweep         v(b0)           v(b1)           v(b2)           v(b3)           v(b4)           v(b5)           v(b6)           i(vbias)        i(viout)        v(vout)        
 0.00000000e+00  4.58782211e-01  3.36972727e-09  3.35213403e-09  3.43563860e-09  3.40977402e-09  4.58782211e-01  4.58782211e-01  1.58588758e-07  1.44158521e-07  0.00000000e+00 
 1.00000000e-02  4.58782187e-01  3.36972730e-09  3.35213405e-09  3.43563863e-09  3.40977399e-09  4.58782187e-01  4.58782187e-01  1.58588722e-07  1.44157898e-07  1.00000000e-02 
 2.00000000e-02  4.58782223e-01  3.36972730e-09  3.35213406e-09  3.43563863e-09  3.40977404e-09  4.58782223e-01  4.58782223e-01  1.58588780e-07  1.44157695e-07  2.00000000e-02 
 3.00000000e-02  4.58782205e-01  3.36972730e-09  3.35213400e-09  3.43563858e-09  3.40977399e-09  4.58782205e-01  4.58782205e-01  1.58588742e-07  1.44157214e-07  3.00000000e-02 
 4.00000000e-02  4.58782199e-01  3.36972730e-09  3.35213401e-09  3.43563858e-09  3.40977399e-09  4.58782199e-01  4.58782199e-01  1.58588737e-07  1.44156970e-07  4.00000000e-02 
 5.00000000e-02  4.58782187e-01  3.36972730e-09  3.35213404e-09  3.43563863e-09  3.40977404e-09  4.58782187e-01  4.58782187e-01  1.58588706e-07  1.44156386e-07  5.00000000e-02 
 6.00000000e-02  4.58782190e-01  3.36972730e-09  3.35213405e-09  3.43563863e-09  3.40977404e-09  4.58782190e-01  4.58782190e-01  1.58588723e-07  1.44156179e-07  6.00000000e-02 
 7.00000000e-02  4.58782196e-01  3.36972730e-09  3.35213405e-09  3.43563863e-09  3.40977399e-09  4.58782196e-01  4.58782196e-01  1.58588740e-07  1.44155820e-07  7.00000000e-02 
 8.00000000e-02  4.58782193e-01  3.36972730e-09  3.35213399e-09  3.43563863e-09  3.40977399e-09  4.58782193e-01  4.58782193e-01  1.58588742e-07  1.44155380e-07  8.00000000e-02 
 9.00000000e-02  4.58782197e-01  3.36972730e-09  3.35213401e-09  3.43563863e-09  3.40977404e-09  4.58782197e-01  4.58782197e-01  1.58588730e-07  1.44155092e-07  9.00000000e-02 
 1.00000000e-01  4.58782187e-01  3.36972736e-09  3.35213399e-09  3.43563863e-09  3.40977399e-09  4.58782187e-01  4.58782187e-01  1.58588730e-07  1.44154809e-07  1.00000000e-01 
 1.10000000e-01  4.58782178e-01  3.36972730e-09  3.35213406e-09  3.43563863e-09  3.40977399e-09  4.58782178e-01  4.58782178e-01  1.58588718e-07  1.44154613e-07  1.10000000e-01 
 1.20000000e-01  4.58782206e-01  3.36972730e-09  3.35213405e-09  3.43563863e-09  3.40977399e-09  4.58782206e-01  4.58782206e-01  1.58588731e-07  1.44154335e-07  1.20000000e-01 
 1.30000000e-01  4.58782209e-01  3.36972730e-09  3.35213405e-09  3.43563863e-09  3.40977399e-09  4.58782209e-01  4.58782209e-01  1.58588756e-07  1.44154164e-07  1.30000000e-01 
 1.40000000e-01  4.58782177e-01  3.36972730e-09  3.35213405e-09  3.43563863e-09  3.40977399e-09  4.58782177e-01  4.58782177e-01  1.58588703e-07  1.44153829e-07  1.40000000e-01 
 1.50000000e-01  4.58782206e-01  3.36972730e-09  3.35213405e-09  3.43563858e-09  3.40977404e-09  4.58782206e-01  4.58782206e-01  1.58588752e-07  1.44153546e-07  1.50000000e-01 
 1.60000000e-01  4.58782183e-01  3.36972730e-09  3.35213399e-09  3.43563857e-09  3.40977399e-09  4.58782182e-01  4.58782182e-01  1.58588722e-07  1.44153271e-07  1.60000000e-01 
 1.70000000e-01  4.58782214e-01  3.36972730e-09  3.35213401e-09  3.43563863e-09  3.40977404e-09  4.58782214e-01  4.58782214e-01  1.58588755e-07  1.44153184e-07  1.70000000e-01 
 1.80000000e-01  4.58782205e-01  3.36972730e-09  3.35213399e-09  3.43563858e-09  3.40977399e-09  4.58782205e-01  4.58782205e-01  1.58588755e-07  1.44152967e-07  1.80000000e-01 
 1.90000000e-01  4.58782205e-01  3.36972730e-09  3.35213401e-09  3.43563863e-09  3.40977399e-09  4.58782205e-01  4.58782205e-01  1.58588749e-07  1.44152752e-07  1.90000000e-01 
 2.00000000e-01  4.58782189e-01  3.36972730e-09  3.35213404e-09  3.43563857e-09  3.40977399e-09  4.58782189e-01  4.58782189e-01  1.58588725e-07  1.44152418e-07  2.00000000e-01 
 2.10000000e-01  4.58782196e-01  3.36972730e-09  3.35213405e-09  3.43563863e-09  3.40977399e-09  4.58782196e-01  4.58782196e-01  1.58588738e-07  1.44152258e-07  2.10000000e-01 
 2.20000000e-01  4.58782175e-01  3.36972730e-09  3.35213399e-09  3.43563857e-09  3.40977399e-09  4.58782175e-01  4.58782175e-01  1.58588710e-07  1.44152043e-07  2.20000000e-01 
 2.30000000e-01  4.58782178e-01  3.36972730e-09  3.35213400e-09  3.43563857e-09  3.40977404e-09  4.58782178e-01  4.58782178e-01  1.58588709e-07  1.44151867e-07  2.30000000e-01 
 2.40000000e-01  4.58782209e-01  3.36972730e-09  3.35213406e-09  3.43563863e-09  3.40977404e-09  4.58782209e-01  4.58782209e-01  1.58588747e-07  1.44151864e-07  2.40000000e-01 
 2.50000000e-01  4.58782190e-01  3.36972730e-09  3.35213399e-09  3.43563857e-09  3.40977399e-09  4.58782190e-01  4.58782190e-01  1.58588722e-07  1.44151572e-07  2.50000000e-01 
 2.60000000e-01  4.58782201e-01  3.36972730e-09  3.35213406e-09  3.43563858e-09  3.40977404e-09  4.58782201e-01  4.58782201e-01  1.58588733e-07  1.44151498e-07  2.60000000e-01 
 2.70000000e-01  4.58782184e-01  3.36972730e-09  3.35213399e-09  3.43563863e-09  3.40977399e-09  4.58782184e-01  4.58782184e-01  1.58588712e-07  1.44151315e-07  2.70000000e-01 
 2.80000000e-01  4.58782198e-01  3.36972730e-09  3.35213401e-09  3.43563863e-09  3.40977399e-09  4.58782197e-01  4.58782197e-01  1.58588745e-07  1.44151224e-07  2.80000000e-01 
 2.90000000e-01  4.58782186e-01  3.36972730e-09  3.35213404e-09  3.43563857e-09  3.40977399e-09  4.58782186e-01  4.58782186e-01  1.58588726e-07  1.44150942e-07  2.90000000e-01 
 3.00000000e-01  4.58782201e-01  3.36972730e-09  3.35213405e-09  3.43563863e-09  3.40977399e-09  4.58782201e-01  4.58782201e-01  1.58588746e-07  1.44150860e-07  3.00000000e-01 
 3.10000000e-01  4.58782205e-01  3.36972730e-09  3.35213400e-09  3.43563858e-09  3.40977399e-09  4.58782205e-01  4.58782205e-01  1.58588752e-07  1.44150789e-07  3.10000000e-01 
 3.20000000e-01  4.58782203e-01  3.36972730e-09  3.35213401e-09  3.43563858e-09  3.40977399e-09  4.58782203e-01  4.58782203e-01  1.58588757e-07  1.44150576e-07  3.20000000e-01 
 3.30000000e-01  4.58782209e-01  3.36972730e-09  3.35213405e-09  3.43563863e-09  3.40977399e-09  4.58782209e-01  4.58782209e-01  1.58588753e-07  1.44150487e-07  3.30000000e-01 
 3.40000000e-01  4.58782209e-01  3.36972730e-09  3.35213400e-09  3.43563863e-09  3.40977404e-09  4.58782209e-01  4.58782209e-01  1.58588754e-07  1.44150302e-07  3.40000000e-01 
 3.50000000e-01  4.58782200e-01  3.36972730e-09  3.35213401e-09  3.43563863e-09  3.40977404e-09  4.58782200e-01  4.58782200e-01  1.58588748e-07  1.44150274e-07  3.50000000e-01 
 3.60000000e-01  4.58782205e-01  3.36972730e-09  3.35213405e-09  3.43563858e-09  3.40977399e-09  4.58782205e-01  4.58782205e-01  1.58588751e-07  1.44150125e-07  3.60000000e-01 
 3.70000000e-01  4.58782203e-01  3.36972730e-09  3.35213405e-09  3.43563863e-09  3.40977399e-09  4.58782203e-01  4.58782203e-01  1.58588741e-07  1.44149965e-07  3.70000000e-01 
 3.80000000e-01  4.58782188e-01  3.36972730e-09  3.35213405e-09  3.43563863e-09  3.40977399e-09  4.58782188e-01  4.58782188e-01  1.58588723e-07  1.44149816e-07  3.80000000e-01 
 3.90000000e-01  4.58782210e-01  3.36972730e-09  3.35213400e-09  3.43563863e-09  3.40977404e-09  4.58782210e-01  4.58782210e-01  1.58588749e-07  1.44149737e-07  3.90000000e-01 
 4.00000000e-01  4.58782199e-01  3.36972730e-09  3.35213401e-09  3.43563858e-09  3.40977404e-09  4.58782198e-01  4.58782198e-01  1.58588736e-07  1.44149656e-07  4.00000000e-01 
 4.10000000e-01  4.58782186e-01  3.36972730e-09  3.35213399e-09  3.43563863e-09  3.40977399e-09  4.58782186e-01  4.58782186e-01  1.58588718e-07  1.44149475e-07  4.10000000e-01 
 4.20000000e-01  4.58782204e-01  3.36972730e-09  3.35213406e-09  3.43563863e-09  3.40977399e-09  4.58782204e-01  4.58782204e-01  1.58588744e-07  1.44149389e-07  4.20000000e-01 
 4.30000000e-01  4.58782211e-01  3.36972730e-09  3.35213405e-09  3.43563858e-09  3.40977399e-09  4.58782211e-01  4.58782211e-01  1.58588754e-07  1.44149332e-07  4.30000000e-01 
 4.40000000e-01  4.58782196e-01  3.36972730e-09  3.35213405e-09  3.43563858e-09  3.40977399e-09  4.58782196e-01  4.58782196e-01  1.58588728e-07  1.44149208e-07  4.40000000e-01 
 4.50000000e-01  4.58782189e-01  3.36972730e-09  3.35213399e-09  3.43563863e-09  3.40977404e-09  4.58782189e-01  4.58782189e-01  1.58588718e-07  1.44149119e-07  4.50000000e-01 
 4.60000000e-01  4.58782181e-01  3.36972730e-09  3.35213406e-09  3.43563857e-09  3.40977404e-09  4.58782181e-01  4.58782181e-01  1.58588708e-07  1.44148984e-07  4.60000000e-01 
 4.70000000e-01  4.58782201e-01  3.36972730e-09  3.35213405e-09  3.43563863e-09  3.40977404e-09  4.58782201e-01  4.58782201e-01  1.58588734e-07  1.44148878e-07  4.70000000e-01 
 4.80000000e-01  4.58782191e-01  3.36972730e-09  3.35213405e-09  3.43563863e-09  3.40977399e-09  4.58782191e-01  4.58782191e-01  1.58588732e-07  1.44148686e-07  4.80000000e-01 
 4.90000000e-01  4.58782183e-01  3.36972730e-09  3.35213405e-09  3.43563863e-09  3.40977404e-09  4.58782183e-01  4.58782183e-01  1.58588719e-07  1.44148604e-07  4.90000000e-01 
 5.00000000e-01  4.58782208e-01  3.36972730e-09  3.35213405e-09  3.43563863e-09  3.40977404e-09  4.58782208e-01  4.58782208e-01  1.58588752e-07  1.44148569e-07  5.00000000e-01 
 5.10000000e-01  4.58782217e-01  3.36972730e-09  3.35213400e-09  3.43563858e-09  3.40977399e-09  4.58782217e-01  4.58782217e-01  1.58588760e-07  1.44148498e-07  5.10000000e-01 
 5.20000000e-01  4.58782191e-01  3.36972730e-09  3.35213406e-09  3.43563863e-09  3.40977404e-09  4.58782191e-01  4.58782191e-01  1.58588732e-07  1.44148409e-07  5.20000000e-01 
 5.30000000e-01  4.58782181e-01  3.36972730e-09  3.35213399e-09  3.43563863e-09  3.40977404e-09  4.58782181e-01  4.58782181e-01  1.58588715e-07  1.44148210e-07  5.30000000e-01 
 5.40000000e-01  4.58782193e-01  3.36972730e-09  3.35213401e-09  3.43563863e-09  3.40977399e-09  4.58782193e-01  4.58782193e-01  1.58588724e-07  1.44148075e-07  5.40000000e-01 
 5.50000000e-01  4.58782173e-01  3.36972730e-09  3.35213398e-09  3.43563863e-09  3.40977399e-09  4.58782173e-01  4.58782173e-01  1.58588708e-07  1.44147801e-07  5.50000000e-01 
 5.60000000e-01  4.58782196e-01  3.36972730e-09  3.35213406e-09  3.43563863e-09  3.40977399e-09  4.58782196e-01  4.58782196e-01  1.58588725e-07  1.44147894e-07  5.60000000e-01 
 5.70000000e-01  4.58782209e-01  3.36972730e-09  3.35213405e-09  3.43563863e-09  3.40977404e-09  4.58782209e-01  4.58782209e-01  1.58588755e-07  1.44147741e-07  5.70000000e-01 
 5.80000000e-01  4.58782209e-01  3.36972730e-09  3.35213405e-09  3.43563863e-09  3.40977404e-09  4.58782209e-01  4.58782209e-01  1.58588749e-07  1.44147755e-07  5.80000000e-01 
 5.90000000e-01  4.58782208e-01  3.36972724e-09  3.35213405e-09  3.43563863e-09  3.40977399e-09  4.58782208e-01  4.58782208e-01  1.58588760e-07  1.44147677e-07  5.90000000e-01 
 6.00000000e-01  4.58782178e-01  3.36972730e-09  3.35213405e-09  3.43563863e-09  3.40977404e-09  4.58782178e-01  4.58782178e-01  1.58588707e-07  1.44147457e-07  6.00000000e-01 
 6.10000000e-01  4.58782198e-01  3.36972730e-09  3.35213405e-09  3.43563863e-09  3.40977399e-09  4.58782198e-01  4.58782198e-01  1.58588741e-07  1.44147414e-07  6.10000000e-01 
 6.20000000e-01  4.58782194e-01  3.36972730e-09  3.35213405e-09  3.43563863e-09  3.40977399e-09  4.58782194e-01  4.58782194e-01  1.58588733e-07  1.44147265e-07  6.20000000e-01 
 6.30000000e-01  4.58782189e-01  3.36972730e-09  3.35213399e-09  3.43563863e-09  3.40977399e-09  4.58782189e-01  4.58782189e-01  1.58588729e-07  1.44147172e-07  6.30000000e-01 
 6.40000000e-01  4.58782186e-01  3.36972730e-09  3.35213400e-09  3.43563857e-09  3.40977399e-09  4.58782186e-01  4.58782186e-01  1.58588721e-07  1.44147130e-07  6.40000000e-01 
 6.50000000e-01  4.58782188e-01  3.36972730e-09  3.35213400e-09  3.43563863e-09  3.40977404e-09  4.58782188e-01  4.58782188e-01  1.58588727e-07  1.44146910e-07  6.50000000e-01 
 6.60000000e-01  4.58782184e-01  3.36972730e-09  3.35213406e-09  3.43563857e-09  3.40977404e-09  4.58782184e-01  4.58782184e-01  1.58588723e-07  1.44146782e-07  6.60000000e-01 
 6.70000000e-01  4.58782211e-01  3.36972730e-09  3.35213405e-09  3.43563858e-09  3.40977404e-09  4.58782211e-01  4.58782211e-01  1.58588755e-07  1.44146824e-07  6.70000000e-01 
 6.80000000e-01  4.58782205e-01  3.36972730e-09  3.35213400e-09  3.43563858e-09  3.40977399e-09  4.58782205e-01  4.58782205e-01  1.58588741e-07  1.44146803e-07  6.80000000e-01 
 6.90000000e-01  4.58782180e-01  3.36972730e-09  3.35213406e-09  3.43563857e-09  3.40977404e-09  4.58782179e-01  4.58782180e-01  1.58588716e-07  1.44146554e-07  6.90000000e-01 
 7.00000000e-01  4.58782212e-01  3.36972730e-09  3.35213405e-09  3.43563858e-09  3.40977399e-09  4.58782212e-01  4.58782212e-01  1.58588757e-07  1.44146490e-07  7.00000000e-01 
 7.10000000e-01  4.58782198e-01  3.36972730e-09  3.35213405e-09  3.43563863e-09  3.40977404e-09  4.58782198e-01  4.58782198e-01  1.58588744e-07  1.44146391e-07  7.10000000e-01 
 7.20000000e-01  4.58782217e-01  3.36972730e-09  3.35213405e-09  3.43563858e-09  3.40977399e-09  4.58782217e-01  4.58782217e-01  1.58588770e-07  1.44146348e-07  7.20000000e-01 
 7.30000000e-01  4.58782215e-01  3.36972730e-09  3.35213405e-09  3.43563863e-09  3.40977399e-09  4.58782215e-01  4.58782215e-01  1.58588763e-07  1.44146199e-07  7.30000000e-01 
 7.40000000e-01  4.58782206e-01  3.36972730e-09  3.35213405e-09  3.43563863e-09  3.40977404e-09  4.58782206e-01  4.58782206e-01  1.58588754e-07  1.44146057e-07  7.40000000e-01 
 7.50000000e-01  4.58782209e-01  3.36972730e-09  3.35213400e-09  3.43563858e-09  3.40977399e-09  4.58782209e-01  4.58782209e-01  1.58588759e-07  1.44146000e-07  7.50000000e-01 
 7.60000000e-01  4.58782197e-01  3.36972730e-09  3.35213406e-09  3.43563863e-09  3.40977399e-09  4.58782196e-01  4.58782197e-01  1.58588738e-07  1.44145950e-07  7.60000000e-01 
 7.70000000e-01  4.58782219e-01  3.36972730e-09  3.35213405e-09  3.43563858e-09  3.40977399e-09  4.58782219e-01  4.58782219e-01  1.58588768e-07  1.44145872e-07  7.70000000e-01 
 7.80000000e-01  4.58782188e-01  3.36972730e-09  3.35213405e-09  3.43563857e-09  3.40977399e-09  4.58782188e-01  4.58782188e-01  1.58588730e-07  1.44145631e-07  7.80000000e-01 
 7.90000000e-01  4.58782215e-01  3.36972730e-09  3.35213405e-09  3.43563858e-09  3.40977399e-09  4.58782215e-01  4.58782215e-01  1.58588760e-07  1.44145517e-07  7.90000000e-01 
 8.00000000e-01  4.58782199e-01  3.36972730e-09  3.35213399e-09  3.43563858e-09  3.40977399e-09  4.58782199e-01  4.58782199e-01  1.58588747e-07  1.44145361e-07  8.00000000e-01 
 8.10000000e-01  4.58782190e-01  3.36972730e-09  3.35213401e-09  3.43563863e-09  3.40977399e-09  4.58782189e-01  4.58782189e-01  1.58588725e-07  1.44145247e-07  8.10000000e-01 
 8.20000000e-01  4.58782201e-01  3.36972730e-09  3.35213400e-09  3.43563858e-09  3.40977399e-09  4.58782200e-01  4.58782200e-01  1.58588738e-07  1.44145311e-07  8.20000000e-01 
 8.30000000e-01  4.58782213e-01  3.36972730e-09  3.35213400e-09  3.43563863e-09  3.40977399e-09  4.58782213e-01  4.58782213e-01  1.58588752e-07  1.44145190e-07  8.30000000e-01 
 8.40000000e-01  4.58782216e-01  3.36972730e-09  3.35213400e-09  3.43563858e-09  3.40977399e-09  4.58782216e-01  4.58782216e-01  1.58588761e-07  1.44145197e-07  8.40000000e-01 
 8.50000000e-01  4.58782210e-01  3.36972730e-09  3.35213400e-09  3.43563863e-09  3.40977404e-09  4.58782210e-01  4.58782210e-01  1.58588756e-07  1.44145027e-07  8.50000000e-01 
 8.60000000e-01  4.58782183e-01  3.36972730e-09  3.35213400e-09  3.43563863e-09  3.40977399e-09  4.58782183e-01  4.58782183e-01  1.58588730e-07  1.44144806e-07  8.60000000e-01 
 8.70000000e-01  4.58782205e-01  3.36972730e-09  3.35213406e-09  3.43563858e-09  3.40977399e-09  4.58782205e-01  4.58782205e-01  1.58588759e-07  1.44144728e-07  8.70000000e-01 
 8.80000000e-01  4.58782203e-01  3.36972730e-09  3.35213405e-09  3.43563863e-09  3.40977399e-09  4.58782203e-01  4.58782203e-01  1.58588742e-07  1.44144579e-07  8.80000000e-01 
 8.90000000e-01  4.58782211e-01  3.36972730e-09  3.35213400e-09  3.43563863e-09  3.40977399e-09  4.58782211e-01  4.58782211e-01  1.58588761e-07  1.44144558e-07  8.90000000e-01 
 9.00000000e-01  4.58782201e-01  3.36972730e-09  3.35213401e-09  3.43563863e-09  3.40977399e-09  4.58782201e-01  4.58782201e-01  1.58588746e-07  1.44144316e-07  9.00000000e-01 
 9.10000000e-01  4.58782208e-01  3.36972730e-09  3.35213399e-09  3.43563863e-09  3.40977404e-09  4.58782208e-01  4.58782208e-01  1.58588752e-07  1.44144344e-07  9.10000000e-01 
 9.20000000e-01  4.58782191e-01  3.36972730e-09  3.35213406e-09  3.43563863e-09  3.40977399e-09  4.58782191e-01  4.58782191e-01  1.58588724e-07  1.44144238e-07  9.20000000e-01 
 9.30000000e-01  4.58782185e-01  3.36972730e-09  3.35213404e-09  3.43563863e-09  3.40977404e-09  4.58782185e-01  4.58782185e-01  1.58588727e-07  1.44144003e-07  9.30000000e-01 
 9.40000000e-01  4.58782192e-01  3.36972730e-09  3.35213405e-09  3.43563863e-09  3.40977404e-09  4.58782192e-01  4.58782192e-01  1.58588720e-07  1.44143876e-07  9.40000000e-01 
 9.50000000e-01  4.58782183e-01  3.36972730e-09  3.35213405e-09  3.43563863e-09  3.40977404e-09  4.58782183e-01  4.58782183e-01  1.58588712e-07  1.44143677e-07  9.50000000e-01 
 9.60000000e-01  4.58782179e-01  3.36972730e-09  3.35213405e-09  3.43563857e-09  3.40977399e-09  4.58782179e-01  4.58782179e-01  1.58588703e-07  1.44143534e-07  9.60000000e-01 
 9.70000000e-01  4.58782184e-01  3.36972730e-09  3.35213405e-09  3.43563863e-09  3.40977404e-09  4.58782184e-01  4.58782184e-01  1.58588717e-07  1.44143542e-07  9.70000000e-01 
 9.80000000e-01  4.58782196e-01  3.36972730e-09  3.35213405e-09  3.43563863e-09  3.40977404e-09  4.58782196e-01  4.58782196e-01  1.58588742e-07  1.44143428e-07  9.80000000e-01 
 9.90000000e-01  4.58782188e-01  3.36972730e-09  3.35213405e-09  3.43563857e-09  3.40977399e-09  4.58782188e-01  4.58782188e-01  1.58588731e-07  1.44143407e-07  9.90000000e-01 
 1.00000000e+00  4.58782198e-01  3.36972730e-09  3.35213405e-09  3.43563863e-09  3.40977404e-09  4.58782198e-01  4.58782198e-01  1.58588756e-07  1.44143343e-07  1.00000000e+00 
 1.01000000e+00  4.58782179e-01  3.36972730e-09  3.35213405e-09  3.43563857e-09  3.40977399e-09  4.58782179e-01  4.58782179e-01  1.58588707e-07  1.44143058e-07  1.01000000e+00 
 1.02000000e+00  4.58782205e-01  3.36972730e-09  3.35213400e-09  3.43563863e-09  3.40977399e-09  4.58782205e-01  4.58782205e-01  1.58588748e-07  1.44143037e-07  1.02000000e+00 
 1.03000000e+00  4.58782203e-01  3.36972730e-09  3.35213406e-09  3.43563858e-09  3.40977399e-09  4.58782203e-01  4.58782203e-01  1.58588736e-07  1.44142930e-07  1.03000000e+00 
 1.04000000e+00  4.58782192e-01  3.36972730e-09  3.35213404e-09  3.43563863e-09  3.40977399e-09  4.58782192e-01  4.58782192e-01  1.58588734e-07  1.44142668e-07  1.04000000e+00 
 1.05000000e+00  4.58782204e-01  3.36972730e-09  3.35213400e-09  3.43563858e-09  3.40977399e-09  4.58782204e-01  4.58782204e-01  1.58588744e-07  1.44142632e-07  1.05000000e+00 
 1.06000000e+00  4.58782194e-01  3.36972724e-09  3.35213406e-09  3.43563858e-09  3.40977399e-09  4.58782194e-01  4.58782194e-01  1.58588731e-07  1.44142504e-07  1.06000000e+00 
 1.07000000e+00  4.58782179e-01  3.36972730e-09  3.35213404e-09  3.43563857e-09  3.40977399e-09  4.58782179e-01  4.58782179e-01  1.58588710e-07  1.44142270e-07  1.07000000e+00 
 1.08000000e+00  4.58782220e-01  3.36972730e-09  3.35213400e-09  3.43563863e-09  3.40977399e-09  4.58782220e-01  4.58782220e-01  1.58588772e-07  1.44142284e-07  1.08000000e+00 
 1.09000000e+00  4.58782201e-01  3.36972730e-09  3.35213401e-09  3.43563858e-09  3.40977399e-09  4.58782201e-01  4.58782201e-01  1.58588743e-07  1.44142319e-07  1.09000000e+00 
 1.10000000e+00  4.58782185e-01  3.36972730e-09  3.35213404e-09  3.43563863e-09  3.40977404e-09  4.58782184e-01  4.58782185e-01  1.58588712e-07  1.44141950e-07  1.10000000e+00 
