 v-sweep         v(b0)           v(b1)           v(b2)           v(b3)           v(b4)           v(b5)           v(b6)           i(vbias)        i(viout)        v(vout)        
 0.00000000e+00  4.61185851e-01  4.61185850e-01  3.85323389e-09  4.61185850e-01  4.61185850e-01  4.61185850e-01  4.61185850e-01  1.64090541e-07  1.92655255e-07  0.00000000e+00 
 1.00000000e-02  4.61185860e-01  4.61185860e-01  3.85323387e-09  4.61185860e-01  4.61185860e-01  4.61185860e-01  4.61185860e-01  1.64090560e-07  1.92654853e-07  1.00000000e-02 
 2.00000000e-02  4.61185852e-01  4.61185852e-01  3.85323387e-09  4.61185852e-01  4.61185852e-01  4.61185852e-01  4.61185852e-01  1.64090545e-07  1.92654398e-07  2.00000000e-02 
 3.00000000e-02  4.61185875e-01  4.61185875e-01  3.85323382e-09  4.61185875e-01  4.61185875e-01  4.61185875e-01  4.61185875e-01  1.64090568e-07  1.92653979e-07  3.00000000e-02 
 4.00000000e-02  4.61185855e-01  4.61185855e-01  3.85323388e-09  4.61185855e-01  4.61185855e-01  4.61185855e-01  4.61185855e-01  1.64090553e-07  1.92653622e-07  4.00000000e-02 
 5.00000000e-02  4.61185879e-01  4.61185879e-01  3.85323387e-09  4.61185878e-01  4.61185879e-01  4.61185878e-01  4.61185879e-01  1.64090582e-07  1.92653217e-07  5.00000000e-02 
 6.00000000e-02  4.61185861e-01  4.61185861e-01  3.85323387e-09  4.61185861e-01  4.61185861e-01  4.61185861e-01  4.61185861e-01  1.64090569e-07  1.92652642e-07  6.00000000e-02 
 7.00000000e-02  4.61185866e-01  4.61185866e-01  3.85323387e-09  4.61185865e-01  4.61185866e-01  4.61185865e-01  4.61185866e-01  1.64090553e-07  1.92652283e-07  7.00000000e-02 
 8.00000000e-02  4.61185871e-01  4.61185871e-01  3.85323387e-09  4.61185871e-01  4.61185871e-01  4.61185871e-01  4.61185871e-01  1.64090577e-07  1.92651926e-07  8.00000000e-02 
 9.00000000e-02  4.61185871e-01  4.61185871e-01  3.85323382e-09  4.61185871e-01  4.61185871e-01  4.61185871e-01  4.61185871e-01  1.64090568e-07  1.92651607e-07  9.00000000e-02 
 1.00000000e-01  4.61185888e-01  4.61185888e-01  3.85323383e-09  4.61185888e-01  4.61185888e-01  4.61185888e-01  4.61185888e-01  1.64090605e-07  1.92651312e-07  1.00000000e-01 
 1.10000000e-01  4.61185856e-01  4.61185856e-01  3.85323388e-09  4.61185856e-01  4.61185856e-01  4.61185856e-01  4.61185856e-01  1.64090550e-07  1.92650893e-07  1.10000000e-01 
 1.20000000e-01  4.61185847e-01  4.61185847e-01  3.85323387e-09  4.61185847e-01  4.61185847e-01  4.61185847e-01  4.61185847e-01  1.64090541e-07  1.92650481e-07  1.20000000e-01 
 1.30000000e-01  4.61185861e-01  4.61185861e-01  3.85323387e-09  4.61185860e-01  4.61185861e-01  4.61185860e-01  4.61185860e-01  1.64090560e-07  1.92650282e-07  1.30000000e-01 
 1.40000000e-01  4.61185879e-01  4.61185879e-01  3.85323387e-09  4.61185879e-01  4.61185879e-01  4.61185879e-01  4.61185879e-01  1.64090589e-07  1.92649996e-07  1.40000000e-01 
 1.50000000e-01  4.61185843e-01  4.61185843e-01  3.85323387e-09  4.61185842e-01  4.61185843e-01  4.61185842e-01  4.61185842e-01  1.64090520e-07  1.92649608e-07  1.50000000e-01 
 1.60000000e-01  4.61185843e-01  4.61185843e-01  3.85323387e-09  4.61185843e-01  4.61185843e-01  4.61185843e-01  4.61185843e-01  1.64090544e-07  1.92649226e-07  1.60000000e-01 
 1.70000000e-01  4.61185861e-01  4.61185861e-01  3.85323387e-09  4.61185861e-01  4.61185861e-01  4.61185861e-01  4.61185861e-01  1.64090552e-07  1.92648958e-07  1.70000000e-01 
 1.80000000e-01  4.61185859e-01  4.61185859e-01  3.85323387e-09  4.61185859e-01  4.61185859e-01  4.61185859e-01  4.61185859e-01  1.64090542e-07  1.92648795e-07  1.80000000e-01 
 1.90000000e-01  4.61185865e-01  4.61185865e-01  3.85323387e-09  4.61185865e-01  4.61185865e-01  4.61185865e-01  4.61185865e-01  1.64090571e-07  1.92648573e-07  1.90000000e-01 
 2.00000000e-01  4.61185858e-01  4.61185858e-01  3.85323387e-09  4.61185857e-01  4.61185857e-01  4.61185857e-01  4.61185857e-01  1.64090561e-07  1.92648269e-07  2.00000000e-01 
 2.10000000e-01  4.61185870e-01  4.61185870e-01  3.85323387e-09  4.61185870e-01  4.61185870e-01  4.61185870e-01  4.61185870e-01  1.64090583e-07  1.92647923e-07  2.10000000e-01 
 2.20000000e-01  4.61185870e-01  4.61185870e-01  3.85323382e-09  4.61185870e-01  4.61185870e-01  4.61185870e-01  4.61185870e-01  1.64090559e-07  1.92647706e-07  2.20000000e-01 
 2.30000000e-01  4.61185871e-01  4.61185871e-01  3.85323388e-09  4.61185870e-01  4.61185871e-01  4.61185870e-01  4.61185870e-01  1.64090577e-07  1.92647558e-07  2.30000000e-01 
 2.40000000e-01  4.61185861e-01  4.61185861e-01  3.85323387e-09  4.61185861e-01  4.61185861e-01  4.61185861e-01  4.61185861e-01  1.64090552e-07  1.92647370e-07  2.40000000e-01 
 2.50000000e-01  4.61185860e-01  4.61185860e-01  3.85323387e-09  4.61185860e-01  4.61185860e-01  4.61185860e-01  4.61185860e-01  1.64090561e-07  1.92646969e-07  2.50000000e-01 
 2.60000000e-01  4.61185847e-01  4.61185847e-01  3.85323387e-09  4.61185846e-01  4.61185847e-01  4.61185846e-01  4.61185846e-01  1.64090539e-07  1.92646798e-07  2.60000000e-01 
 2.70000000e-01  4.61185863e-01  4.61185863e-01  3.85323387e-09  4.61185862e-01  4.61185862e-01  4.61185862e-01  4.61185862e-01  1.64090564e-07  1.92646640e-07  2.70000000e-01 
 2.80000000e-01  4.61185851e-01  4.61185850e-01  3.85323387e-09  4.61185850e-01  4.61185850e-01  4.61185850e-01  4.61185850e-01  1.64090546e-07  1.92646354e-07  2.80000000e-01 
 2.90000000e-01  4.61185860e-01  4.61185860e-01  3.85323387e-09  4.61185860e-01  4.61185860e-01  4.61185860e-01  4.61185860e-01  1.64090559e-07  1.92646180e-07  2.90000000e-01 
 3.00000000e-01  4.61185864e-01  4.61185864e-01  3.85323387e-09  4.61185863e-01  4.61185864e-01  4.61185863e-01  4.61185863e-01  1.64090559e-07  1.92646038e-07  3.00000000e-01 
 3.10000000e-01  4.61185892e-01  4.61185892e-01  3.85323387e-09  4.61185891e-01  4.61185892e-01  4.61185891e-01  4.61185891e-01  1.64090596e-07  1.92646002e-07  3.10000000e-01 
 3.20000000e-01  4.61185851e-01  4.61185851e-01  3.85323387e-09  4.61185850e-01  4.61185850e-01  4.61185850e-01  4.61185850e-01  1.64090537e-07  1.92645494e-07  3.20000000e-01 
 3.30000000e-01  4.61185847e-01  4.61185847e-01  3.85323387e-09  4.61185847e-01  4.61185847e-01  4.61185847e-01  4.61185847e-01  1.64090539e-07  1.92645331e-07  3.30000000e-01 
 3.40000000e-01  4.61185886e-01  4.61185886e-01  3.85323387e-09  4.61185886e-01  4.61185886e-01  4.61185886e-01  4.61185886e-01  1.64090592e-07  1.92645452e-07  3.40000000e-01 
 3.50000000e-01  4.61185868e-01  4.61185868e-01  3.85323387e-09  4.61185868e-01  4.61185868e-01  4.61185868e-01  4.61185868e-01  1.64090576e-07  1.92645054e-07  3.50000000e-01 
 3.60000000e-01  4.61185869e-01  4.61185869e-01  3.85323382e-09  4.61185868e-01  4.61185868e-01  4.61185868e-01  4.61185868e-01  1.64090575e-07  1.92644919e-07  3.60000000e-01 
 3.70000000e-01  4.61185855e-01  4.61185855e-01  3.85323388e-09  4.61185855e-01  4.61185855e-01  4.61185855e-01  4.61185855e-01  1.64090550e-07  1.92644595e-07  3.70000000e-01 
 3.80000000e-01  4.61185857e-01  4.61185857e-01  3.85323387e-09  4.61185857e-01  4.61185857e-01  4.61185857e-01  4.61185857e-01  1.64090551e-07  1.92644436e-07  3.80000000e-01 
 3.90000000e-01  4.61185889e-01  4.61185889e-01  3.85323382e-09  4.61185889e-01  4.61185889e-01  4.61185889e-01  4.61185889e-01  1.64090606e-07  1.92644485e-07  3.90000000e-01 
 4.00000000e-01  4.61185838e-01  4.61185838e-01  3.85323383e-09  4.61185837e-01  4.61185838e-01  4.61185837e-01  4.61185838e-01  1.64090526e-07  1.92643984e-07  4.00000000e-01 
 4.10000000e-01  4.61185850e-01  4.61185850e-01  3.85323388e-09  4.61185850e-01  4.61185850e-01  4.61185850e-01  4.61185850e-01  1.64090543e-07  1.92643878e-07  4.10000000e-01 
 4.20000000e-01  4.61185874e-01  4.61185874e-01  3.85323387e-09  4.61185874e-01  4.61185874e-01  4.61185874e-01  4.61185874e-01  1.64090588e-07  1.92643896e-07  4.20000000e-01 
 4.30000000e-01  4.61185854e-01  4.61185854e-01  3.85323387e-09  4.61185854e-01  4.61185854e-01  4.61185854e-01  4.61185854e-01  1.64090554e-07  1.92643508e-07  4.30000000e-01 
 4.40000000e-01  4.61185845e-01  4.61185845e-01  3.85323387e-09  4.61185845e-01  4.61185845e-01  4.61185845e-01  4.61185845e-01  1.64090536e-07  1.92643217e-07  4.40000000e-01 
 4.50000000e-01  4.61185861e-01  4.61185861e-01  3.85323387e-09  4.61185860e-01  4.61185861e-01  4.61185860e-01  4.61185860e-01  1.64090553e-07  1.92643181e-07  4.50000000e-01 
 4.60000000e-01  4.61185865e-01  4.61185865e-01  3.85323387e-09  4.61185865e-01  4.61185865e-01  4.61185865e-01  4.61185865e-01  1.64090571e-07  1.92643007e-07  4.60000000e-01 
 4.70000000e-01  4.61185884e-01  4.61185884e-01  3.85323387e-09  4.61185884e-01  4.61185884e-01  4.61185884e-01  4.61185884e-01  1.64090582e-07  1.92642940e-07  4.70000000e-01 
 4.80000000e-01  4.61185859e-01  4.61185859e-01  3.85323387e-09  4.61185859e-01  4.61185859e-01  4.61185859e-01  4.61185859e-01  1.64090542e-07  1.92642638e-07  4.80000000e-01 
 4.90000000e-01  4.61185865e-01  4.61185865e-01  3.85323387e-09  4.61185864e-01  4.61185865e-01  4.61185864e-01  4.61185865e-01  1.64090559e-07  1.92642563e-07  4.90000000e-01 
 5.00000000e-01  4.61185871e-01  4.61185871e-01  3.85323382e-09  4.61185871e-01  4.61185871e-01  4.61185871e-01  4.61185871e-01  1.64090592e-07  1.92642364e-07  5.00000000e-01 
 5.10000000e-01  4.61185859e-01  4.61185859e-01  3.85323388e-09  4.61185858e-01  4.61185859e-01  4.61185858e-01  4.61185858e-01  1.64090544e-07  1.92642151e-07  5.10000000e-01 
 5.20000000e-01  4.61185851e-01  4.61185851e-01  3.85323387e-09  4.61185851e-01  4.61185851e-01  4.61185851e-01  4.61185851e-01  1.64090532e-07  1.92641984e-07  5.20000000e-01 
 5.30000000e-01  4.61185883e-01  4.61185883e-01  3.85323387e-09  4.61185882e-01  4.61185883e-01  4.61185882e-01  4.61185883e-01  1.64090582e-07  1.92641934e-07  5.30000000e-01 
 5.40000000e-01  4.61185853e-01  4.61185853e-01  3.85323387e-09  4.61185853e-01  4.61185853e-01  4.61185853e-01  4.61185853e-01  1.64090556e-07  1.92641647e-07  5.40000000e-01 
 5.50000000e-01  4.61185848e-01  4.61185848e-01  3.85323387e-09  4.61185848e-01  4.61185848e-01  4.61185848e-01  4.61185848e-01  1.64090525e-07  1.92641405e-07  5.50000000e-01 
 5.60000000e-01  4.61185882e-01  4.61185882e-01  3.85323387e-09  4.61185882e-01  4.61185882e-01  4.61185882e-01  4.61185882e-01  1.64090590e-07  1.92641430e-07  5.60000000e-01 
 5.70000000e-01  4.61185838e-01  4.61185838e-01  3.85323387e-09  4.61185838e-01  4.61185838e-01  4.61185838e-01  4.61185838e-01  1.64090517e-07  1.92641114e-07  5.70000000e-01 
 5.80000000e-01  4.61185856e-01  4.61185856e-01  3.85323387e-09  4.61185856e-01  4.61185856e-01  4.61185856e-01  4.61185856e-01  1.64090552e-07  1.92640947e-07  5.80000000e-01 
 5.90000000e-01  4.61185837e-01  4.61185837e-01  3.85323387e-09  4.61185837e-01  4.61185837e-01  4.61185837e-01  4.61185837e-01  1.64090530e-07  1.92640748e-07  5.90000000e-01 
 6.00000000e-01  4.61185836e-01  4.61185836e-01  3.85323387e-09  4.61185836e-01  4.61185836e-01  4.61185836e-01  4.61185836e-01  1.64090532e-07  1.92640520e-07  6.00000000e-01 
 6.10000000e-01  4.61185849e-01  4.61185849e-01  3.85323387e-09  4.61185849e-01  4.61185849e-01  4.61185849e-01  4.61185849e-01  1.64090550e-07  1.92640385e-07  6.10000000e-01 
 6.20000000e-01  4.61185862e-01  4.61185862e-01  3.85323387e-09  4.61185862e-01  4.61185862e-01  4.61185862e-01  4.61185862e-01  1.64090566e-07  1.92640350e-07  6.20000000e-01 
 6.30000000e-01  4.61185874e-01  4.61185874e-01  3.85323387e-09  4.61185874e-01  4.61185874e-01  4.61185874e-01  4.61185874e-01  1.64090579e-07  1.92640236e-07  6.30000000e-01 
 6.40000000e-01  4.61185850e-01  4.61185850e-01  3.85323387e-09  4.61185850e-01  4.61185850e-01  4.61185850e-01  4.61185850e-01  1.64090540e-07  1.92639874e-07  6.40000000e-01 
 6.50000000e-01  4.61185849e-01  4.61185849e-01  3.85323387e-09  4.61185849e-01  4.61185849e-01  4.61185849e-01  4.61185849e-01  1.64090550e-07  1.92639767e-07  6.50000000e-01 
 6.60000000e-01  4.61185871e-01  4.61185871e-01  3.85323382e-09  4.61185871e-01  4.61185871e-01  4.61185871e-01  4.61185871e-01  1.64090573e-07  1.92639597e-07  6.60000000e-01 
 6.70000000e-01  4.61185840e-01  4.61185840e-01  3.85323388e-09  4.61185840e-01  4.61185840e-01  4.61185840e-01  4.61185840e-01  1.64090541e-07  1.92639362e-07  6.70000000e-01 
 6.80000000e-01  4.61185864e-01  4.61185864e-01  3.85323387e-09  4.61185864e-01  4.61185864e-01  4.61185864e-01  4.61185864e-01  1.64090556e-07  1.92639249e-07  6.80000000e-01 
 6.90000000e-01  4.61185860e-01  4.61185860e-01  3.85323382e-09  4.61185860e-01  4.61185860e-01  4.61185860e-01  4.61185860e-01  1.64090559e-07  1.92639021e-07  6.90000000e-01 
 7.00000000e-01  4.61185859e-01  4.61185859e-01  3.85323383e-09  4.61185859e-01  4.61185859e-01  4.61185859e-01  4.61185859e-01  1.64090568e-07  1.92638915e-07  7.00000000e-01 
 7.10000000e-01  4.61185852e-01  4.61185852e-01  3.85323388e-09  4.61185852e-01  4.61185852e-01  4.61185852e-01  4.61185852e-01  1.64090528e-07  1.92638730e-07  7.10000000e-01 
 7.20000000e-01  4.61185867e-01  4.61185867e-01  3.85323387e-09  4.61185867e-01  4.61185867e-01  4.61185867e-01  4.61185867e-01  1.64090573e-07  1.92638510e-07  7.20000000e-01 
 7.30000000e-01  4.61185835e-01  4.61185835e-01  3.85323381e-09  4.61185835e-01  4.61185835e-01  4.61185835e-01  4.61185835e-01  1.64090522e-07  1.92638190e-07  7.30000000e-01 
 7.40000000e-01  4.61185870e-01  4.61185870e-01  3.85323383e-09  4.61185870e-01  4.61185870e-01  4.61185870e-01  4.61185870e-01  1.64090566e-07  1.92638240e-07  7.40000000e-01 
 7.50000000e-01  4.61185854e-01  4.61185854e-01  3.85323382e-09  4.61185854e-01  4.61185854e-01  4.61185854e-01  4.61185854e-01  1.64090538e-07  1.92638083e-07  7.50000000e-01 
 7.60000000e-01  4.61185865e-01  4.61185865e-01  3.85323382e-09  4.61185865e-01  4.61185865e-01  4.61185865e-01  4.61185865e-01  1.64090571e-07  1.92637891e-07  7.60000000e-01 
 7.70000000e-01  4.61185866e-01  4.61185866e-01  3.85323388e-09  4.61185865e-01  4.61185866e-01  4.61185865e-01  4.61185866e-01  1.64090564e-07  1.92637607e-07  7.70000000e-01 
 7.80000000e-01  4.61185867e-01  4.61185867e-01  3.85323387e-09  4.61185867e-01  4.61185867e-01  4.61185867e-01  4.61185867e-01  1.64090573e-07  1.92637515e-07  7.80000000e-01 
 7.90000000e-01  4.61185867e-01  4.61185867e-01  3.85323382e-09  4.61185867e-01  4.61185867e-01  4.61185867e-01  4.61185867e-01  1.64090559e-07  1.92637302e-07  7.90000000e-01 
 8.00000000e-01  4.61185860e-01  4.61185860e-01  3.85323388e-09  4.61185860e-01  4.61185860e-01  4.61185860e-01  4.61185860e-01  1.64090557e-07  1.92637067e-07  8.00000000e-01 
 8.10000000e-01  4.61185860e-01  4.61185860e-01  3.85323387e-09  4.61185860e-01  4.61185860e-01  4.61185860e-01  4.61185860e-01  1.64090557e-07  1.92636925e-07  8.10000000e-01 
 8.20000000e-01  4.61185854e-01  4.61185854e-01  3.85323387e-09  4.61185854e-01  4.61185854e-01  4.61185854e-01  4.61185854e-01  1.64090552e-07  1.92636712e-07  8.20000000e-01 
 8.30000000e-01  4.61185854e-01  4.61185854e-01  3.85323387e-09  4.61185854e-01  4.61185854e-01  4.61185854e-01  4.61185854e-01  1.64090556e-07  1.92636463e-07  8.30000000e-01 
 8.40000000e-01  4.61185864e-01  4.61185864e-01  3.85323387e-09  4.61185864e-01  4.61185864e-01  4.61185864e-01  4.61185864e-01  1.64090574e-07  1.92636449e-07  8.40000000e-01 
 8.50000000e-01  4.61185886e-01  4.61185886e-01  3.85323387e-09  4.61185885e-01  4.61185886e-01  4.61185886e-01  4.61185886e-01  1.64090589e-07  1.92636385e-07  8.50000000e-01 
 8.60000000e-01  4.61185870e-01  4.61185870e-01  3.85323382e-09  4.61185870e-01  4.61185870e-01  4.61185870e-01  4.61185870e-01  1.64090573e-07  1.92636065e-07  8.60000000e-01 
 8.70000000e-01  4.61185864e-01  4.61185864e-01  3.85323388e-09  4.61185864e-01  4.61185864e-01  4.61185864e-01  4.61185864e-01  1.64090575e-07  1.92635774e-07  8.70000000e-01 
 8.80000000e-01  4.61185877e-01  4.61185877e-01  3.85323387e-09  4.61185877e-01  4.61185877e-01  4.61185877e-01  4.61185877e-01  1.64090565e-07  1.92635611e-07  8.80000000e-01 
 8.90000000e-01  4.61185860e-01  4.61185860e-01  3.85323387e-09  4.61185860e-01  4.61185860e-01  4.61185860e-01  4.61185860e-01  1.64090553e-07  1.92635383e-07  8.90000000e-01 
 9.00000000e-01  4.61185874e-01  4.61185874e-01  3.85323387e-09  4.61185874e-01  4.61185874e-01  4.61185874e-01  4.61185874e-01  1.64090584e-07  1.92635227e-07  9.00000000e-01 
 9.10000000e-01  4.61185855e-01  4.61185855e-01  3.85323382e-09  4.61185855e-01  4.61185855e-01  4.61185855e-01  4.61185855e-01  1.64090545e-07  1.92634978e-07  9.10000000e-01 
 9.20000000e-01  4.61185883e-01  4.61185883e-01  3.85323383e-09  4.61185883e-01  4.61185883e-01  4.61185883e-01  4.61185883e-01  1.64090595e-07  1.92634957e-07  9.20000000e-01 
 9.30000000e-01  4.61185830e-01  4.61185830e-01  3.85323388e-09  4.61185830e-01  4.61185830e-01  4.61185830e-01  4.61185830e-01  1.64090513e-07  1.92634488e-07  9.30000000e-01 
 9.40000000e-01  4.61185854e-01  4.61185854e-01  3.85323387e-09  4.61185854e-01  4.61185854e-01  4.61185854e-01  4.61185854e-01  1.64090543e-07  1.92634289e-07  9.40000000e-01 
 9.50000000e-01  4.61185856e-01  4.61185856e-01  3.85323387e-09  4.61185856e-01  4.61185856e-01  4.61185856e-01  4.61185856e-01  1.64090551e-07  1.92634076e-07  9.50000000e-01 
 9.60000000e-01  4.61185875e-01  4.61185875e-01  3.85323387e-09  4.61185875e-01  4.61185875e-01  4.61185875e-01  4.61185875e-01  1.64090566e-07  1.92633998e-07  9.60000000e-01 
 9.70000000e-01  4.61185856e-01  4.61185856e-01  3.85323387e-09  4.61185856e-01  4.61185856e-01  4.61185856e-01  4.61185856e-01  1.64090542e-07  1.92633721e-07  9.70000000e-01 
 9.80000000e-01  4.61185870e-01  4.61185870e-01  3.85323387e-09  4.61185869e-01  4.61185869e-01  4.61185869e-01  4.61185869e-01  1.64090573e-07  1.92633621e-07  9.80000000e-01 
 9.90000000e-01  4.61185837e-01  4.61185837e-01  3.85323387e-09  4.61185837e-01  4.61185837e-01  4.61185837e-01  4.61185837e-01  1.64090521e-07  1.92633159e-07  9.90000000e-01 
 1.00000000e+00  4.61185860e-01  4.61185860e-01  3.85323387e-09  4.61185860e-01  4.61185860e-01  4.61185860e-01  4.61185860e-01  1.64090552e-07  1.92633159e-07  1.00000000e+00 
 1.01000000e+00  4.61185874e-01  4.61185873e-01  3.85323387e-09  4.61185873e-01  4.61185873e-01  4.61185873e-01  4.61185873e-01  1.64090572e-07  1.92633031e-07  1.01000000e+00 
 1.02000000e+00  4.61185848e-01  4.61185848e-01  3.85323387e-09  4.61185848e-01  4.61185848e-01  4.61185848e-01  4.61185848e-01  1.64090531e-07  1.92632562e-07  1.02000000e+00 
 1.03000000e+00  4.61185846e-01  4.61185846e-01  3.85323387e-09  4.61185846e-01  4.61185846e-01  4.61185846e-01  4.61185846e-01  1.64090528e-07  1.92632314e-07  1.03000000e+00 
 1.04000000e+00  4.61185858e-01  4.61185858e-01  3.85323387e-09  4.61185858e-01  4.61185858e-01  4.61185858e-01  4.61185858e-01  1.64090544e-07  1.92632200e-07  1.04000000e+00 
 1.05000000e+00  4.61185862e-01  4.61185862e-01  3.85323387e-09  4.61185862e-01  4.61185862e-01  4.61185862e-01  4.61185862e-01  1.64090557e-07  1.92631944e-07  1.05000000e+00 
 1.06000000e+00  4.61185843e-01  4.61185843e-01  3.85323387e-09  4.61185843e-01  4.61185843e-01  4.61185843e-01  4.61185843e-01  1.64090537e-07  1.92631703e-07  1.06000000e+00 
 1.07000000e+00  4.61185849e-01  4.61185849e-01  3.85323387e-09  4.61185849e-01  4.61185849e-01  4.61185849e-01  4.61185849e-01  1.64090548e-07  1.92631369e-07  1.07000000e+00 
 1.08000000e+00  4.61185860e-01  4.61185860e-01  3.85323387e-09  4.61185860e-01  4.61185860e-01  4.61185860e-01  4.61185860e-01  1.64090550e-07  1.92631127e-07  1.08000000e+00 
 1.09000000e+00  4.61185886e-01  4.61185886e-01  3.85323387e-09  4.61185886e-01  4.61185886e-01  4.61185886e-01  4.61185886e-01  1.64090592e-07  1.92631148e-07  1.09000000e+00 
 1.10000000e+00  4.61185839e-01  4.61185839e-01  3.85323381e-09  4.61185838e-01  4.61185839e-01  4.61185838e-01  4.61185838e-01  1.64090525e-07  1.92630615e-07  1.10000000e+00 
