 v-sweep         v(b0)           v(b1)           v(b2)           v(b3)           v(b4)           v(b5)           v(b6)           i(vbias)        i(viout)        v(vout)        
 0.00000000e+00  3.18072235e-09  4.60807693e-01  4.60807693e-01  3.46119700e-09  3.26936784e-09  3.44088951e-09  3.48285005e-09  1.62629091e-07  8.97799502e-09  0.00000000e+00 
 1.00000000e-02  3.18072233e-09  4.60807723e-01  4.60807723e-01  3.46119703e-09  3.26936782e-09  3.44088948e-09  3.48285002e-09  1.62629146e-07  8.97751673e-09  1.00000000e-02 
 2.00000000e-02  3.18072238e-09  4.60807712e-01  4.60807712e-01  3.46119697e-09  3.26936782e-09  3.44088949e-09  3.48285002e-09  1.62629123e-07  8.97706665e-09  2.00000000e-02 
 3.00000000e-02  3.18072238e-09  4.60807713e-01  4.60807713e-01  3.46119697e-09  3.26936788e-09  3.44088955e-09  3.48285002e-09  1.62629126e-07  8.97664898e-09  3.00000000e-02 
 4.00000000e-02  3.18072238e-09  4.60807710e-01  4.60807710e-01  3.46119697e-09  3.26936788e-09  3.44088948e-09  3.48285002e-09  1.62629119e-07  8.97640495e-09  4.00000000e-02 
 5.00000000e-02  3.18072233e-09  4.60807720e-01  4.60807720e-01  3.46119697e-09  3.26936782e-09  3.44088950e-09  3.48285002e-09  1.62629135e-07  8.97607944e-09  5.00000000e-02 
 6.00000000e-02  3.18072232e-09  4.60807695e-01  4.60807695e-01  3.46119697e-09  3.26936787e-09  3.44088954e-09  3.48285002e-09  1.62629095e-07  8.97579300e-09  6.00000000e-02 
 7.00000000e-02  3.18072238e-09  4.60807725e-01  4.60807725e-01  3.46119697e-09  3.26936782e-09  3.44088953e-09  3.48285002e-09  1.62629136e-07  8.97545904e-09  7.00000000e-02 
 8.00000000e-02  3.18072238e-09  4.60807689e-01  4.60807689e-01  3.46119703e-09  3.26936782e-09  3.44088948e-09  3.48285002e-09  1.62629088e-07  8.97515484e-09  8.00000000e-02 
 9.00000000e-02  3.18072233e-09  4.60807707e-01  4.60807707e-01  3.46119697e-09  3.26936782e-09  3.44088949e-09  3.48285002e-09  1.62629133e-07  8.97487862e-09  9.00000000e-02 
 1.00000000e-01  3.18072238e-09  4.60807700e-01  4.60807700e-01  3.46119697e-09  3.26936782e-09  3.44088949e-09  3.48285002e-09  1.62629110e-07  8.97471697e-09  1.00000000e-01 
 1.10000000e-01  3.18072238e-09  4.60807703e-01  4.60807703e-01  3.46119697e-09  3.26936782e-09  3.44088954e-09  3.48285002e-09  1.62629109e-07  8.97447272e-09  1.10000000e-01 
 1.20000000e-01  3.18072238e-09  4.60807710e-01  4.60807710e-01  3.46119697e-09  3.26936782e-09  3.44088953e-09  3.48285002e-09  1.62629114e-07  8.97412367e-09  1.20000000e-01 
 1.30000000e-01  3.18072233e-09  4.60807699e-01  4.60807699e-01  3.46119697e-09  3.26936787e-09  3.44088948e-09  3.48285002e-09  1.62629090e-07  8.97401264e-09  1.30000000e-01 
 1.40000000e-01  3.18072233e-09  4.60807722e-01  4.60807722e-01  3.46119697e-09  3.26936782e-09  3.44088950e-09  3.48285002e-09  1.62629138e-07  8.97370622e-09  1.40000000e-01 
 1.50000000e-01  3.18072238e-09  4.60807714e-01  4.60807714e-01  3.46119703e-09  3.26936782e-09  3.44088955e-09  3.48285002e-09  1.62629124e-07  8.97355257e-09  1.50000000e-01 
 1.60000000e-01  3.18072238e-09  4.60807705e-01  4.60807705e-01  3.46119697e-09  3.26936782e-09  3.44088953e-09  3.48285002e-09  1.62629115e-07  8.97338737e-09  1.60000000e-01 
 1.70000000e-01  3.18072233e-09  4.60807711e-01  4.60807711e-01  3.46119703e-09  3.26936782e-09  3.44088948e-09  3.48285002e-09  1.62629115e-07  8.97324526e-09  1.70000000e-01 
 1.80000000e-01  3.18072233e-09  4.60807726e-01  4.60807726e-01  3.46119697e-09  3.26936788e-09  3.44088950e-09  3.48284997e-09  1.62629136e-07  8.97312091e-09  1.80000000e-01 
 1.90000000e-01  3.18072238e-09  4.60807694e-01  4.60807694e-01  3.46119703e-09  3.26936782e-09  3.44088949e-09  3.48285002e-09  1.62629087e-07  8.97291663e-09  1.90000000e-01 
 2.00000000e-01  3.18072238e-09  4.60807736e-01  4.60807736e-01  3.46119697e-09  3.26936788e-09  3.44088949e-09  3.48285002e-09  1.62629159e-07  8.97274255e-09  2.00000000e-01 
 2.10000000e-01  3.18072233e-09  4.60807703e-01  4.60807703e-01  3.46119697e-09  3.26936782e-09  3.44088949e-09  3.48285002e-09  1.62629110e-07  8.97247077e-09  2.10000000e-01 
 2.20000000e-01  3.18072238e-09  4.60807716e-01  4.60807716e-01  3.46119697e-09  3.26936782e-09  3.44088949e-09  3.48285002e-09  1.62629137e-07  8.97245478e-09  2.20000000e-01 
 2.30000000e-01  3.18072238e-09  4.60807702e-01  4.60807702e-01  3.46119697e-09  3.26936782e-09  3.44088949e-09  3.48285002e-09  1.62629107e-07  8.97233932e-09  2.30000000e-01 
 2.40000000e-01  3.18072232e-09  4.60807693e-01  4.60807693e-01  3.46119703e-09  3.26936782e-09  3.44088954e-09  3.48285002e-09  1.62629099e-07  8.97216168e-09  2.40000000e-01 
 2.50000000e-01  3.18072238e-09  4.60807719e-01  4.60807719e-01  3.46119697e-09  3.26936788e-09  3.44088948e-09  3.48284997e-09  1.62629125e-07  8.97208174e-09  2.50000000e-01 
 2.60000000e-01  3.18072238e-09  4.60807712e-01  4.60807712e-01  3.46119703e-09  3.26936788e-09  3.44088955e-09  3.48285002e-09  1.62629117e-07  8.97191477e-09  2.60000000e-01 
 2.70000000e-01  3.18072238e-09  4.60807698e-01  4.60807698e-01  3.46119697e-09  3.26936787e-09  3.44088953e-09  3.48285002e-09  1.62629095e-07  8.97186681e-09  2.70000000e-01 
 2.80000000e-01  3.18072238e-09  4.60807711e-01  4.60807711e-01  3.46119697e-09  3.26936782e-09  3.44088954e-09  3.48285002e-09  1.62629128e-07  8.97168029e-09  2.80000000e-01 
 2.90000000e-01  3.18072233e-09  4.60807697e-01  4.60807697e-01  3.46119697e-09  3.26936787e-09  3.44088948e-09  3.48285002e-09  1.62629103e-07  8.97157904e-09  2.90000000e-01 
 3.00000000e-01  3.18072238e-09  4.60807729e-01  4.60807729e-01  3.46119697e-09  3.26936788e-09  3.44088950e-09  3.48284997e-09  1.62629158e-07  8.97144048e-09  3.00000000e-01 
 3.10000000e-01  3.18072238e-09  4.60807694e-01  4.60807694e-01  3.46119697e-09  3.26936782e-09  3.44088949e-09  3.48285002e-09  1.62629111e-07  8.97146180e-09  3.10000000e-01 
 3.20000000e-01  3.18072238e-09  4.60807699e-01  4.60807699e-01  3.46119697e-09  3.26936782e-09  3.44088954e-09  3.48285002e-09  1.62629096e-07  8.97134100e-09  3.20000000e-01 
 3.30000000e-01  3.18072238e-09  4.60807726e-01  4.60807725e-01  3.46119697e-09  3.26936788e-09  3.44088953e-09  3.48285002e-09  1.62629136e-07  8.97125929e-09  3.30000000e-01 
 3.40000000e-01  3.18072233e-09  4.60807729e-01  4.60807729e-01  3.46119697e-09  3.26936782e-09  3.44088948e-09  3.48285002e-09  1.62629146e-07  8.97112784e-09  3.40000000e-01 
 3.50000000e-01  3.18072238e-09  4.60807700e-01  4.60807700e-01  3.46119697e-09  3.26936782e-09  3.44088949e-09  3.48285002e-09  1.62629095e-07  8.97117403e-09  3.50000000e-01 
 3.60000000e-01  3.18072238e-09  4.60807709e-01  4.60807709e-01  3.46119697e-09  3.26936782e-09  3.44088949e-09  3.48285002e-09  1.62629126e-07  8.97097507e-09  3.60000000e-01 
 3.70000000e-01  3.18072233e-09  4.60807706e-01  4.60807706e-01  3.46119697e-09  3.26936782e-09  3.44088949e-09  3.48285002e-09  1.62629096e-07  8.97084718e-09  3.70000000e-01 
 3.80000000e-01  3.18072238e-09  4.60807709e-01  4.60807709e-01  3.46119697e-09  3.26936782e-09  3.44088949e-09  3.48285002e-09  1.62629125e-07  8.97078323e-09  3.80000000e-01 
 3.90000000e-01  3.18072238e-09  4.60807713e-01  4.60807713e-01  3.46119697e-09  3.26936788e-09  3.44088949e-09  3.48285002e-09  1.62629128e-07  8.97082231e-09  3.90000000e-01 
 4.00000000e-01  3.18072238e-09  4.60807714e-01  4.60807714e-01  3.46119703e-09  3.26936782e-09  3.44088955e-09  3.48285002e-09  1.62629118e-07  8.97074770e-09  4.00000000e-01 
 4.10000000e-01  3.18072233e-09  4.60807729e-01  4.60807729e-01  3.46119697e-09  3.26936782e-09  3.44088948e-09  3.48285002e-09  1.62629146e-07  8.97065533e-09  4.10000000e-01 
 4.20000000e-01  3.18072233e-09  4.60807709e-01  4.60807709e-01  3.46119697e-09  3.26936788e-09  3.44088949e-09  3.48285002e-09  1.62629111e-07  8.97039598e-09  4.20000000e-01 
 4.30000000e-01  3.18072233e-09  4.60807707e-01  4.60807707e-01  3.46119697e-09  3.26936782e-09  3.44088955e-09  3.48285002e-09  1.62629115e-07  8.97039598e-09  4.30000000e-01 
 4.40000000e-01  3.18072238e-09  4.60807702e-01  4.60807702e-01  3.46119697e-09  3.26936782e-09  3.44088953e-09  3.48285002e-09  1.62629107e-07  8.97048480e-09  4.40000000e-01 
 4.50000000e-01  3.18072233e-09  4.60807716e-01  4.60807716e-01  3.46119697e-09  3.26936788e-09  3.44088954e-09  3.48284997e-09  1.62629133e-07  8.97041019e-09  4.50000000e-01 
 4.60000000e-01  3.18072238e-09  4.60807710e-01  4.60807710e-01  3.46119703e-09  3.26936788e-09  3.44088948e-09  3.48285002e-09  1.62629123e-07  8.97038177e-09  4.60000000e-01 
 4.70000000e-01  3.18072238e-09  4.60807713e-01  4.60807713e-01  3.46119697e-09  3.26936788e-09  3.44088949e-09  3.48285002e-09  1.62629119e-07  8.97032493e-09  4.70000000e-01 
 4.80000000e-01  3.18072233e-09  4.60807720e-01  4.60807720e-01  3.46119697e-09  3.26936782e-09  3.44088949e-09  3.48285002e-09  1.62629129e-07  8.97025743e-09  4.80000000e-01 
 4.90000000e-01  3.18072238e-09  4.60807705e-01  4.60807705e-01  3.46119697e-09  3.26936782e-09  3.44088955e-09  3.48285002e-09  1.62629099e-07  8.97015084e-09  4.90000000e-01 
 5.00000000e-01  3.18072238e-09  4.60807712e-01  4.60807712e-01  3.46119697e-09  3.26936782e-09  3.44088953e-09  3.48285002e-09  1.62629117e-07  8.97000163e-09  5.00000000e-01 
 5.10000000e-01  3.18072238e-09  4.60807701e-01  4.60807701e-01  3.46119697e-09  3.26936787e-09  3.44088954e-09  3.48285002e-09  1.62629110e-07  8.96997676e-09  5.10000000e-01 
 5.20000000e-01  3.18072238e-09  4.60807712e-01  4.60807712e-01  3.46119697e-09  3.26936782e-09  3.44088948e-09  3.48285002e-09  1.62629130e-07  8.96995545e-09  5.20000000e-01 
 5.30000000e-01  3.18072238e-09  4.60807697e-01  4.60807697e-01  3.46119697e-09  3.26936782e-09  3.44088949e-09  3.48285002e-09  1.62629109e-07  8.96993058e-09  5.30000000e-01 
 5.40000000e-01  3.18072238e-09  4.60807723e-01  4.60807723e-01  3.46119703e-09  3.26936782e-09  3.44088955e-09  3.48285002e-09  1.62629136e-07  8.96977070e-09  5.40000000e-01 
 5.50000000e-01  3.18072233e-09  4.60807726e-01  4.60807726e-01  3.46119697e-09  3.26936782e-09  3.44088953e-09  3.48285002e-09  1.62629145e-07  8.96981689e-09  5.50000000e-01 
 5.60000000e-01  3.18072238e-09  4.60807705e-01  4.60807705e-01  3.46119697e-09  3.26936782e-09  3.44088954e-09  3.48285002e-09  1.62629114e-07  8.96978491e-09  5.60000000e-01 
 5.70000000e-01  3.18072238e-09  4.60807716e-01  4.60807716e-01  3.46119697e-09  3.26936782e-09  3.44088954e-09  3.48285002e-09  1.62629132e-07  8.96971031e-09  5.70000000e-01 
 5.80000000e-01  3.18072233e-09  4.60807708e-01  4.60807708e-01  3.46119697e-09  3.26936782e-09  3.44088948e-09  3.48285002e-09  1.62629106e-07  8.96962149e-09  5.80000000e-01 
 5.90000000e-01  3.18072238e-09  4.60807711e-01  4.60807711e-01  3.46119703e-09  3.26936782e-09  3.44088955e-09  3.48285002e-09  1.62629131e-07  8.96960728e-09  5.90000000e-01 
 6.00000000e-01  3.18072238e-09  4.60807726e-01  4.60807726e-01  3.46119697e-09  3.26936782e-09  3.44088953e-09  3.48284997e-09  1.62629141e-07  8.96969965e-09  6.00000000e-01 
 6.10000000e-01  3.18072233e-09  4.60807722e-01  4.60807722e-01  3.46119697e-09  3.26936788e-09  3.44088954e-09  3.48285002e-09  1.62629137e-07  8.96940122e-09  6.10000000e-01 
 6.20000000e-01  3.18072233e-09  4.60807710e-01  4.60807710e-01  3.46119697e-09  3.26936782e-09  3.44088948e-09  3.48285002e-09  1.62629107e-07  8.96942964e-09  6.20000000e-01 
 6.30000000e-01  3.18072233e-09  4.60807717e-01  4.60807717e-01  3.46119703e-09  3.26936788e-09  3.44088950e-09  3.48285002e-09  1.62629133e-07  8.96926622e-09  6.30000000e-01 
 6.40000000e-01  3.18072238e-09  4.60807721e-01  4.60807721e-01  3.46119697e-09  3.26936782e-09  3.44088949e-09  3.48285002e-09  1.62629148e-07  8.96938701e-09  6.40000000e-01 
 6.50000000e-01  3.18072238e-09  4.60807713e-01  4.60807713e-01  3.46119697e-09  3.26936782e-09  3.44088949e-09  3.48285002e-09  1.62629133e-07  8.96927332e-09  6.50000000e-01 
 6.60000000e-01  3.18072233e-09  4.60807710e-01  4.60807710e-01  3.46119697e-09  3.26936782e-09  3.44088949e-09  3.48285002e-09  1.62629121e-07  8.96934438e-09  6.60000000e-01 
 6.70000000e-01  3.18072238e-09  4.60807720e-01  4.60807720e-01  3.46119697e-09  3.26936782e-09  3.44088955e-09  3.48285002e-09  1.62629128e-07  8.96915964e-09  6.70000000e-01 
 6.80000000e-01  3.18072233e-09  4.60807709e-01  4.60807709e-01  3.46119697e-09  3.26936782e-09  3.44088948e-09  3.48285002e-09  1.62629121e-07  8.96912411e-09  6.80000000e-01 
 6.90000000e-01  3.18072233e-09  4.60807712e-01  4.60807712e-01  3.46119697e-09  3.26936782e-09  3.44088949e-09  3.48285002e-09  1.62629127e-07  8.96906016e-09  6.90000000e-01 
 7.00000000e-01  3.18072233e-09  4.60807700e-01  4.60807700e-01  3.46119697e-09  3.26936782e-09  3.44088949e-09  3.48285002e-09  1.62629093e-07  8.96898200e-09  7.00000000e-01 
 7.10000000e-01  3.18072233e-09  4.60807716e-01  4.60807716e-01  3.46119697e-09  3.26936788e-09  3.44088955e-09  3.48285002e-09  1.62629134e-07  8.96899621e-09  7.10000000e-01 
 7.20000000e-01  3.18072238e-09  4.60807704e-01  4.60807704e-01  3.46119703e-09  3.26936787e-09  3.44088948e-09  3.48285002e-09  1.62629111e-07  8.96892516e-09  7.20000000e-01 
 7.30000000e-01  3.18072238e-09  4.60807719e-01  4.60807719e-01  3.46119697e-09  3.26936782e-09  3.44088955e-09  3.48285002e-09  1.62629143e-07  8.96876173e-09  7.30000000e-01 
 7.40000000e-01  3.18072238e-09  4.60807696e-01  4.60807696e-01  3.46119697e-09  3.26936787e-09  3.44088953e-09  3.48284997e-09  1.62629088e-07  8.96874752e-09  7.40000000e-01 
 7.50000000e-01  3.18072233e-09  4.60807708e-01  4.60807708e-01  3.46119697e-09  3.26936787e-09  3.44088954e-09  3.48285002e-09  1.62629134e-07  8.96879726e-09  7.50000000e-01 
 7.60000000e-01  3.18072238e-09  4.60807718e-01  4.60807718e-01  3.46119697e-09  3.26936782e-09  3.44088948e-09  3.48284997e-09  1.62629139e-07  8.96862673e-09  7.60000000e-01 
 7.70000000e-01  3.18072232e-09  4.60807686e-01  4.60807686e-01  3.46119697e-09  3.26936782e-09  3.44088949e-09  3.48285002e-09  1.62629086e-07  8.96849883e-09  7.70000000e-01 
 7.80000000e-01  3.18072233e-09  4.60807706e-01  4.60807706e-01  3.46119697e-09  3.26936787e-09  3.44088949e-09  3.48285002e-09  1.62629128e-07  8.96846331e-09  7.80000000e-01 
 7.90000000e-01  3.18072233e-09  4.60807709e-01  4.60807709e-01  3.46119703e-09  3.26936788e-09  3.44088955e-09  3.48285002e-09  1.62629114e-07  8.96856989e-09  7.90000000e-01 
 8.00000000e-01  3.18072238e-09  4.60807703e-01  4.60807703e-01  3.46119697e-09  3.26936782e-09  3.44088948e-09  3.48285002e-09  1.62629107e-07  8.96839225e-09  8.00000000e-01 
 8.10000000e-01  3.18072232e-09  4.60807690e-01  4.60807690e-01  3.46119697e-09  3.26936782e-09  3.44088949e-09  3.48285002e-09  1.62629083e-07  8.96839936e-09  8.10000000e-01 
 8.20000000e-01  3.18072238e-09  4.60807707e-01  4.60807707e-01  3.46119703e-09  3.26936787e-09  3.44088949e-09  3.48285002e-09  1.62629120e-07  8.96835672e-09  8.20000000e-01 
 8.30000000e-01  3.18072238e-09  4.60807731e-01  4.60807731e-01  3.46119697e-09  3.26936782e-09  3.44088949e-09  3.48284997e-09  1.62629142e-07  8.96828567e-09  8.30000000e-01 
 8.40000000e-01  3.18072238e-09  4.60807711e-01  4.60807711e-01  3.46119697e-09  3.26936782e-09  3.44088949e-09  3.48285002e-09  1.62629119e-07  8.96829278e-09  8.40000000e-01 
 8.50000000e-01  3.18072233e-09  4.60807725e-01  4.60807725e-01  3.46119697e-09  3.26936788e-09  3.44088949e-09  3.48285002e-09  1.62629153e-07  8.96811514e-09  8.50000000e-01 
 8.60000000e-01  3.18072233e-09  4.60807721e-01  4.60807721e-01  3.46119703e-09  3.26936782e-09  3.44088949e-09  3.48284997e-09  1.62629135e-07  8.96812224e-09  8.60000000e-01 
 8.70000000e-01  3.18072238e-09  4.60807701e-01  4.60807701e-01  3.46119697e-09  3.26936782e-09  3.44088954e-09  3.48285002e-09  1.62629101e-07  8.96814356e-09  8.70000000e-01 
 8.80000000e-01  3.18072233e-09  4.60807705e-01  4.60807705e-01  3.46119697e-09  3.26936782e-09  3.44088948e-09  3.48285002e-09  1.62629120e-07  8.96806540e-09  8.80000000e-01 
 8.90000000e-01  3.18072238e-09  4.60807716e-01  4.60807716e-01  3.46119697e-09  3.26936782e-09  3.44088950e-09  3.48285002e-09  1.62629124e-07  8.96802987e-09  8.90000000e-01 
 9.00000000e-01  3.18072233e-09  4.60807712e-01  4.60807712e-01  3.46119703e-09  3.26936782e-09  3.44088949e-09  3.48285002e-09  1.62629137e-07  8.96797303e-09  9.00000000e-01 
 9.10000000e-01  3.18072238e-09  4.60807713e-01  4.60807713e-01  3.46119697e-09  3.26936788e-09  3.44088955e-09  3.48285002e-09  1.62629110e-07  8.96785224e-09  9.10000000e-01 
 9.20000000e-01  3.18072238e-09  4.60807698e-01  4.60807698e-01  3.46119697e-09  3.26936782e-09  3.44088953e-09  3.48285002e-09  1.62629110e-07  8.96783092e-09  9.20000000e-01 
 9.30000000e-01  3.18072233e-09  4.60807699e-01  4.60807699e-01  3.46119697e-09  3.26936782e-09  3.44088948e-09  3.48285002e-09  1.62629106e-07  8.96788066e-09  9.30000000e-01 
 9.40000000e-01  3.18072238e-09  4.60807720e-01  4.60807720e-01  3.46119697e-09  3.26936788e-09  3.44088950e-09  3.48285002e-09  1.62629136e-07  8.96774566e-09  9.40000000e-01 
 9.50000000e-01  3.18072238e-09  4.60807717e-01  4.60807717e-01  3.46119697e-09  3.26936788e-09  3.44088955e-09  3.48285002e-09  1.62629133e-07  8.96772434e-09  9.50000000e-01 
 9.60000000e-01  3.18072238e-09  4.60807707e-01  4.60807707e-01  3.46119697e-09  3.26936782e-09  3.44088953e-09  3.48285002e-09  1.62629109e-07  8.96762486e-09  9.60000000e-01 
 9.70000000e-01  3.18072233e-09  4.60807699e-01  4.60807699e-01  3.46119697e-09  3.26936782e-09  3.44088948e-09  3.48285002e-09  1.62629100e-07  8.96766039e-09  9.70000000e-01 
 9.80000000e-01  3.18072238e-09  4.60807712e-01  4.60807712e-01  3.46119703e-09  3.26936782e-09  3.44088955e-09  3.48285002e-09  1.62629120e-07  8.96758934e-09  9.80000000e-01 
 9.90000000e-01  3.18072238e-09  4.60807703e-01  4.60807703e-01  3.46119697e-09  3.26936782e-09  3.44088953e-09  3.48285002e-09  1.62629108e-07  8.96742591e-09  9.90000000e-01 
 1.00000000e+00  3.18072233e-09  4.60807704e-01  4.60807704e-01  3.46119697e-09  3.26936787e-09  3.44088954e-09  3.48285002e-09  1.62629106e-07  8.96735486e-09  1.00000000e+00 
 1.01000000e+00  3.18072233e-09  4.60807702e-01  4.60807702e-01  3.46119697e-09  3.26936782e-09  3.44088954e-09  3.48285002e-09  1.62629105e-07  8.96730512e-09  1.01000000e+00 
 1.02000000e+00  3.18072238e-09  4.60807721e-01  4.60807721e-01  3.46119697e-09  3.26936782e-09  3.44088954e-09  3.48285002e-09  1.62629135e-07  8.96737617e-09  1.02000000e+00 
 1.03000000e+00  3.18072233e-09  4.60807709e-01  4.60807709e-01  3.46119697e-09  3.26936782e-09  3.44088948e-09  3.48285002e-09  1.62629123e-07  8.96723407e-09  1.03000000e+00 
 1.04000000e+00  3.18072232e-09  4.60807690e-01  4.60807690e-01  3.46119703e-09  3.26936782e-09  3.44088949e-09  3.48285002e-09  1.62629085e-07  8.96713459e-09  1.04000000e+00 
 1.05000000e+00  3.18072238e-09  4.60807716e-01  4.60807716e-01  3.46119703e-09  3.26936788e-09  3.44088949e-09  3.48285002e-09  1.62629141e-07  8.96699959e-09  1.05000000e+00 
 1.06000000e+00  3.18072233e-09  4.60807710e-01  4.60807710e-01  3.46119697e-09  3.26936788e-09  3.44088955e-09  3.48284997e-09  1.62629120e-07  8.96707064e-09  1.06000000e+00 
 1.07000000e+00  3.18072233e-09  4.60807713e-01  4.60807713e-01  3.46119703e-09  3.26936782e-09  3.44088953e-09  3.48285002e-09  1.62629112e-07  8.96709196e-09  1.07000000e+00 
 1.08000000e+00  3.18072233e-09  4.60807707e-01  4.60807707e-01  3.46119703e-09  3.26936782e-09  3.44088954e-09  3.48285002e-09  1.62629119e-07  8.96702801e-09  1.08000000e+00 
 1.09000000e+00  3.18072233e-09  4.60807714e-01  4.60807714e-01  3.46119697e-09  3.26936782e-09  3.44088954e-09  3.48285002e-09  1.62629122e-07  8.96691432e-09  1.09000000e+00 
 1.10000000e+00  3.18072238e-09  4.60807701e-01  4.60807701e-01  3.46119697e-09  3.26936787e-09  3.44088948e-09  3.48285002e-09  1.62629108e-07  8.96675090e-09  1.10000000e+00 
