 v-sweep         v(b0)           v(b1)           v(b2)           v(b3)           v(b4)           v(b5)           v(b6)           i(vbias)        i(viout)        v(vout)        
 0.00000000e+00  4.58781491e-01  3.36972724e-09  3.35213391e-09  3.43563855e-09  3.40977394e-09  4.58781491e-01  3.33505189e-09  1.58587787e-07  5.11564371e-08  0.00000000e+00 
 1.00000000e-02  4.58781507e-01  3.36972727e-09  3.35213389e-09  3.43563858e-09  3.40977403e-09  4.58781507e-01  3.33505186e-09  1.58587814e-07  5.11559148e-08  1.00000000e-02 
 2.00000000e-02  4.58781503e-01  3.36972727e-09  3.35213394e-09  3.43563858e-09  3.40977403e-09  4.58781503e-01  3.33505186e-09  1.58587802e-07  5.11556115e-08  2.00000000e-02 
 3.00000000e-02  4.58781510e-01  3.36972727e-09  3.35213394e-09  3.43563858e-09  3.40977403e-09  4.58781510e-01  3.33505186e-09  1.58587809e-07  5.11553484e-08  3.00000000e-02 
 4.00000000e-02  4.58781497e-01  3.36972727e-09  3.35213394e-09  3.43563858e-09  3.40977402e-09  4.58781497e-01  3.33505186e-09  1.58587799e-07  5.11549478e-08  4.00000000e-02 
 5.00000000e-02  4.58781478e-01  3.36972727e-09  3.35213388e-09  3.43563858e-09  3.40977397e-09  4.58781478e-01  3.33505186e-09  1.58587765e-07  5.11545517e-08  5.00000000e-02 
 6.00000000e-02  4.58781496e-01  3.36972727e-09  3.35213388e-09  3.43563858e-09  3.40977397e-09  4.58781496e-01  3.33505186e-09  1.58587782e-07  5.11542475e-08  6.00000000e-02 
 7.00000000e-02  4.58781493e-01  3.36972727e-09  3.35213394e-09  3.43563852e-09  3.40977402e-09  4.58781493e-01  3.33505186e-09  1.58587795e-07  5.11539415e-08  7.00000000e-02 
 8.00000000e-02  4.58781515e-01  3.36972727e-09  3.35213389e-09  3.43563858e-09  3.40977397e-09  4.58781515e-01  3.33505187e-09  1.58587822e-07  5.11535978e-08  8.00000000e-02 
 9.00000000e-02  4.58781500e-01  3.36972727e-09  3.35213389e-09  3.43563852e-09  3.40977402e-09  4.58781500e-01  3.33505186e-09  1.58587784e-07  5.11535099e-08  9.00000000e-02 
 1.00000000e-01  4.58781514e-01  3.36972733e-09  3.35213394e-09  3.43563852e-09  3.40977403e-09  4.58781514e-01  3.33505186e-09  1.58587819e-07  5.11531937e-08  1.00000000e-01 
 1.10000000e-01  4.58781491e-01  3.36972727e-09  3.35213388e-09  3.43563852e-09  3.40977402e-09  4.58781491e-01  3.33505186e-09  1.58587791e-07  5.11529077e-08  1.10000000e-01 
 1.20000000e-01  4.58781492e-01  3.36972727e-09  3.35213388e-09  3.43563852e-09  3.40977402e-09  4.58781492e-01  3.33505186e-09  1.58587784e-07  5.11526794e-08  1.20000000e-01 
 1.30000000e-01  4.58781506e-01  3.36972727e-09  3.35213389e-09  3.43563858e-09  3.40977397e-09  4.58781506e-01  3.33505186e-09  1.58587796e-07  5.11524485e-08  1.30000000e-01 
 1.40000000e-01  4.58781500e-01  3.36972727e-09  3.35213389e-09  3.43563852e-09  3.40977397e-09  4.58781500e-01  3.33505186e-09  1.58587805e-07  5.11521510e-08  1.40000000e-01 
 1.50000000e-01  4.58781488e-01  3.36972727e-09  3.35213388e-09  3.43563852e-09  3.40977402e-09  4.58781488e-01  3.33505186e-09  1.58587783e-07  5.11518277e-08  1.50000000e-01 
 1.60000000e-01  4.58781517e-01  3.36972727e-09  3.35213389e-09  3.43563858e-09  3.40977397e-09  4.58781517e-01  3.33505187e-09  1.58587823e-07  5.11517939e-08  1.60000000e-01 
 1.70000000e-01  4.58781512e-01  3.36972727e-09  3.35213389e-09  3.43563858e-09  3.40977403e-09  4.58781512e-01  3.33505186e-09  1.58587806e-07  5.11517229e-08  1.70000000e-01 
 1.80000000e-01  4.58781495e-01  3.36972727e-09  3.35213388e-09  3.43563852e-09  3.40977402e-09  4.58781495e-01  3.33505186e-09  1.58587789e-07  5.11514440e-08  1.80000000e-01 
 1.90000000e-01  4.58781491e-01  3.36972727e-09  3.35213388e-09  3.43563852e-09  3.40977397e-09  4.58781491e-01  3.33505186e-09  1.58587784e-07  5.11513178e-08  1.90000000e-01 
 2.00000000e-01  4.58781508e-01  3.36972727e-09  3.35213389e-09  3.43563858e-09  3.40977403e-09  4.58781508e-01  3.33505186e-09  1.58587817e-07  5.11512077e-08  2.00000000e-01 
 2.10000000e-01  4.58781483e-01  3.36972727e-09  3.35213394e-09  3.43563858e-09  3.40977402e-09  4.58781483e-01  3.33505186e-09  1.58587767e-07  5.11509377e-08  2.10000000e-01 
 2.20000000e-01  4.58781500e-01  3.36972727e-09  3.35213394e-09  3.43563852e-09  3.40977397e-09  4.58781500e-01  3.33505186e-09  1.58587794e-07  5.11507867e-08  2.20000000e-01 
 2.30000000e-01  4.58781479e-01  3.36972727e-09  3.35213394e-09  3.43563852e-09  3.40977397e-09  4.58781479e-01  3.33505186e-09  1.58587777e-07  5.11506588e-08  2.30000000e-01 
 2.40000000e-01  4.58781499e-01  3.36972727e-09  3.35213394e-09  3.43563858e-09  3.40977397e-09  4.58781499e-01  3.33505186e-09  1.58587788e-07  5.11505842e-08  2.40000000e-01 
 2.50000000e-01  4.58781491e-01  3.36972727e-09  3.35213394e-09  3.43563852e-09  3.40977397e-09  4.58781491e-01  3.33505186e-09  1.58587780e-07  5.11503639e-08  2.50000000e-01 
 2.60000000e-01  4.58781503e-01  3.36972727e-09  3.35213394e-09  3.43563858e-09  3.40977397e-09  4.58781503e-01  3.33505192e-09  1.58587809e-07  5.11503000e-08  2.60000000e-01 
 2.70000000e-01  4.58781476e-01  3.36972727e-09  3.35213388e-09  3.43563852e-09  3.40977397e-09  4.58781476e-01  3.33505185e-09  1.58587757e-07  5.11501455e-08  2.70000000e-01 
 2.80000000e-01  4.58781485e-01  3.36972727e-09  3.35213394e-09  3.43563852e-09  3.40977397e-09  4.58781485e-01  3.33505187e-09  1.58587773e-07  5.11500229e-08  2.80000000e-01 
 2.90000000e-01  4.58781490e-01  3.36972727e-09  3.35213388e-09  3.43563858e-09  3.40977397e-09  4.58781490e-01  3.33505186e-09  1.58587786e-07  5.11499394e-08  2.90000000e-01 
 3.00000000e-01  4.58781472e-01  3.36972727e-09  3.35213388e-09  3.43563852e-09  3.40977397e-09  4.58781472e-01  3.33505186e-09  1.58587755e-07  5.11498293e-08  3.00000000e-01 
 3.10000000e-01  4.58781484e-01  3.36972727e-09  3.35213388e-09  3.43563858e-09  3.40977397e-09  4.58781484e-01  3.33505186e-09  1.58587772e-07  5.11496978e-08  3.10000000e-01 
 3.20000000e-01  4.58781479e-01  3.36972727e-09  3.35213388e-09  3.43563852e-09  3.40977397e-09  4.58781479e-01  3.33505186e-09  1.58587764e-07  5.11496374e-08  3.20000000e-01 
 3.30000000e-01  4.58781499e-01  3.36972727e-09  3.35213389e-09  3.43563858e-09  3.40977397e-09  4.58781499e-01  3.33505186e-09  1.58587792e-07  5.11494953e-08  3.30000000e-01 
 3.40000000e-01  4.58781462e-01  3.36972727e-09  3.35213394e-09  3.43563858e-09  3.40977397e-09  4.58781462e-01  3.33505186e-09  1.58587746e-07  5.11492182e-08  3.40000000e-01 
 3.50000000e-01  4.58781495e-01  3.36972727e-09  3.35213388e-09  3.43563852e-09  3.40977397e-09  4.58781495e-01  3.33505186e-09  1.58587784e-07  5.11492928e-08  3.50000000e-01 
 3.60000000e-01  4.58781510e-01  3.36972727e-09  3.35213389e-09  3.43563852e-09  3.40977397e-09  4.58781510e-01  3.33505186e-09  1.58587814e-07  5.11493035e-08  3.60000000e-01 
 3.70000000e-01  4.58781492e-01  3.36972727e-09  3.35213388e-09  3.43563852e-09  3.40977397e-09  4.58781492e-01  3.33505186e-09  1.58587794e-07  5.11491329e-08  3.70000000e-01 
 3.80000000e-01  4.58781502e-01  3.36972727e-09  3.35213389e-09  3.43563858e-09  3.40977397e-09  4.58781502e-01  3.33505186e-09  1.58587789e-07  5.11491436e-08  3.80000000e-01 
 3.90000000e-01  4.58781489e-01  3.36972721e-09  3.35213394e-09  3.43563852e-09  3.40977397e-09  4.58781489e-01  3.33505186e-09  1.58587779e-07  5.11489660e-08  3.90000000e-01 
 4.00000000e-01  4.58781513e-01  3.36972728e-09  3.35213389e-09  3.43563858e-09  3.40977403e-09  4.58781513e-01  3.33505186e-09  1.58587814e-07  5.11489269e-08  4.00000000e-01 
 4.10000000e-01  4.58781485e-01  3.36972726e-09  3.35213388e-09  3.43563852e-09  3.40977397e-09  4.58781485e-01  3.33505186e-09  1.58587779e-07  5.11487528e-08  4.10000000e-01 
 4.20000000e-01  4.58781463e-01  3.36972727e-09  3.35213388e-09  3.43563852e-09  3.40977397e-09  4.58781463e-01  3.33505186e-09  1.58587749e-07  5.11486995e-08  4.20000000e-01 
 4.30000000e-01  4.58781501e-01  3.36972727e-09  3.35213394e-09  3.43563852e-09  3.40977402e-09  4.58781501e-01  3.33505186e-09  1.58587791e-07  5.11485929e-08  4.30000000e-01 
 4.40000000e-01  4.58781501e-01  3.36972727e-09  3.35213394e-09  3.43563858e-09  3.40977397e-09  4.58781501e-01  3.33505186e-09  1.58587791e-07  5.11486355e-08  4.40000000e-01 
 4.50000000e-01  4.58781477e-01  3.36972727e-09  3.35213394e-09  3.43563852e-09  3.40977402e-09  4.58781477e-01  3.33505186e-09  1.58587761e-07  5.11486142e-08  4.50000000e-01 
 4.60000000e-01  4.58781473e-01  3.36972727e-09  3.35213394e-09  3.43563852e-09  3.40977397e-09  4.58781473e-01  3.33505186e-09  1.58587749e-07  5.11484224e-08  4.60000000e-01 
 4.70000000e-01  4.58781498e-01  3.36972727e-09  3.35213388e-09  3.43563858e-09  3.40977402e-09  4.58781497e-01  3.33505186e-09  1.58587788e-07  5.11483691e-08  4.70000000e-01 
 4.80000000e-01  4.58781496e-01  3.36972727e-09  3.35213388e-09  3.43563858e-09  3.40977397e-09  4.58781495e-01  3.33505186e-09  1.58587787e-07  5.11483478e-08  4.80000000e-01 
 4.90000000e-01  4.58781506e-01  3.36972727e-09  3.35213389e-09  3.43563852e-09  3.40977397e-09  4.58781506e-01  3.33505186e-09  1.58587795e-07  5.11483087e-08  4.90000000e-01 
 5.00000000e-01  4.58781481e-01  3.36972727e-09  3.35213388e-09  3.43563852e-09  3.40977397e-09  4.58781481e-01  3.33505186e-09  1.58587783e-07  5.11481808e-08  5.00000000e-01 
 5.10000000e-01  4.58781497e-01  3.36972727e-09  3.35213388e-09  3.43563858e-09  3.40977402e-09  4.58781497e-01  3.33505186e-09  1.58587788e-07  5.11481666e-08  5.10000000e-01 
 5.20000000e-01  4.58781480e-01  3.36972727e-09  3.35213394e-09  3.43563858e-09  3.40977397e-09  4.58781480e-01  3.33505186e-09  1.58587784e-07  5.11478895e-08  5.20000000e-01 
 5.30000000e-01  4.58781489e-01  3.36972727e-09  3.35213394e-09  3.43563858e-09  3.40977402e-09  4.58781489e-01  3.33505186e-09  1.58587783e-07  5.11480849e-08  5.30000000e-01 
 5.40000000e-01  4.58781480e-01  3.36972727e-09  3.35213394e-09  3.43563852e-09  3.40977397e-09  4.58781480e-01  3.33505186e-09  1.58587759e-07  5.11479712e-08  5.40000000e-01 
 5.50000000e-01  4.58781512e-01  3.36972727e-09  3.35213389e-09  3.43563858e-09  3.40977397e-09  4.58781512e-01  3.33505186e-09  1.58587814e-07  5.11478291e-08  5.50000000e-01 
 5.60000000e-01  4.58781504e-01  3.36972727e-09  3.35213394e-09  3.43563852e-09  3.40977397e-09  4.58781504e-01  3.33505186e-09  1.58587797e-07  5.11478291e-08  5.60000000e-01 
 5.70000000e-01  4.58781500e-01  3.36972727e-09  3.35213389e-09  3.43563858e-09  3.40977397e-09  4.58781500e-01  3.33505186e-09  1.58587796e-07  5.11477651e-08  5.70000000e-01 
 5.80000000e-01  4.58781508e-01  3.36972727e-09  3.35213394e-09  3.43563858e-09  3.40977397e-09  4.58781508e-01  3.33505186e-09  1.58587801e-07  5.11477367e-08  5.80000000e-01 
 5.90000000e-01  4.58781498e-01  3.36972727e-09  3.35213394e-09  3.43563852e-09  3.40977397e-09  4.58781498e-01  3.33505186e-09  1.58587808e-07  5.11476372e-08  5.90000000e-01 
 6.00000000e-01  4.58781511e-01  3.36972727e-09  3.35213394e-09  3.43563852e-09  3.40977397e-09  4.58781511e-01  3.33505186e-09  1.58587818e-07  5.11475804e-08  6.00000000e-01 
 6.10000000e-01  4.58781497e-01  3.36972727e-09  3.35213388e-09  3.43563852e-09  3.40977397e-09  4.58781497e-01  3.33505186e-09  1.58587798e-07  5.11475235e-08  6.10000000e-01 
 6.20000000e-01  4.58781498e-01  3.36972727e-09  3.35213394e-09  3.43563852e-09  3.40977397e-09  4.58781498e-01  3.33505186e-09  1.58587799e-07  5.11474383e-08  6.20000000e-01 
 6.30000000e-01  4.58781493e-01  3.36972727e-09  3.35213388e-09  3.43563852e-09  3.40977397e-09  4.58781493e-01  3.33505186e-09  1.58587794e-07  5.11474028e-08  6.30000000e-01 
 6.40000000e-01  4.58781507e-01  3.36972727e-09  3.35213389e-09  3.43563858e-09  3.40977397e-09  4.58781507e-01  3.33505186e-09  1.58587805e-07  5.11474667e-08  6.40000000e-01 
 6.50000000e-01  4.58781499e-01  3.36972727e-09  3.35213389e-09  3.43563852e-09  3.40977402e-09  4.58781499e-01  3.33505186e-09  1.58587803e-07  5.11472891e-08  6.50000000e-01 
 6.60000000e-01  4.58781501e-01  3.36972727e-09  3.35213394e-09  3.43563858e-09  3.40977397e-09  4.58781501e-01  3.33505186e-09  1.58587802e-07  5.11473317e-08  6.60000000e-01 
 6.70000000e-01  4.58781503e-01  3.36972727e-09  3.35213394e-09  3.43563858e-09  3.40977397e-09  4.58781503e-01  3.33505186e-09  1.58587801e-07  5.11471185e-08  6.70000000e-01 
 6.80000000e-01  4.58781519e-01  3.36972727e-09  3.35213395e-09  3.43563852e-09  3.40977397e-09  4.58781519e-01  3.33505187e-09  1.58587829e-07  5.11471967e-08  6.80000000e-01 
 6.90000000e-01  4.58781483e-01  3.36972727e-09  3.35213388e-09  3.43563858e-09  3.40977402e-09  4.58781483e-01  3.33505186e-09  1.58587775e-07  5.11470546e-08  6.90000000e-01 
 7.00000000e-01  4.58781516e-01  3.36972727e-09  3.35213389e-09  3.43563852e-09  3.40977403e-09  4.58781515e-01  3.33505187e-09  1.58587805e-07  5.11469338e-08  7.00000000e-01 
 7.10000000e-01  4.58781503e-01  3.36972727e-09  3.35213394e-09  3.43563858e-09  3.40977397e-09  4.58781503e-01  3.33505186e-09  1.58587797e-07  5.11469196e-08  7.10000000e-01 
 7.20000000e-01  4.58781510e-01  3.36972727e-09  3.35213394e-09  3.43563858e-09  3.40977397e-09  4.58781510e-01  3.33505186e-09  1.58587813e-07  5.11469267e-08  7.20000000e-01 
 7.30000000e-01  4.58781477e-01  3.36972727e-09  3.35213388e-09  3.43563858e-09  3.40977402e-09  4.58781477e-01  3.33505186e-09  1.58587768e-07  5.11468627e-08  7.30000000e-01 
 7.40000000e-01  4.58781497e-01  3.36972727e-09  3.35213388e-09  3.43563858e-09  3.40977402e-09  4.58781497e-01  3.33505186e-09  1.58587779e-07  5.11467064e-08  7.40000000e-01 
 7.50000000e-01  4.58781504e-01  3.36972727e-09  3.35213394e-09  3.43563858e-09  3.40977403e-09  4.58781504e-01  3.33505186e-09  1.58587808e-07  5.11467348e-08  7.50000000e-01 
 7.60000000e-01  4.58781483e-01  3.36972727e-09  3.35213388e-09  3.43563852e-09  3.40977397e-09  4.58781483e-01  3.33505186e-09  1.58587756e-07  5.11467420e-08  7.60000000e-01 
 7.70000000e-01  4.58781494e-01  3.36972727e-09  3.35213388e-09  3.43563858e-09  3.40977397e-09  4.58781494e-01  3.33505186e-09  1.58587786e-07  5.11465856e-08  7.70000000e-01 
 7.80000000e-01  4.58781504e-01  3.36972727e-09  3.35213394e-09  3.43563858e-09  3.40977403e-09  4.58781504e-01  3.33505186e-09  1.58587812e-07  5.11465714e-08  7.80000000e-01 
 7.90000000e-01  4.58781487e-01  3.36972727e-09  3.35213394e-09  3.43563852e-09  3.40977397e-09  4.58781487e-01  3.33505186e-09  1.58587776e-07  5.11464293e-08  7.90000000e-01 
 8.00000000e-01  4.58781486e-01  3.36972727e-09  3.35213388e-09  3.43563852e-09  3.40977397e-09  4.58781486e-01  3.33505186e-09  1.58587766e-07  5.11463227e-08  8.00000000e-01 
 8.10000000e-01  4.58781516e-01  3.36972727e-09  3.35213389e-09  3.43563858e-09  3.40977397e-09  4.58781516e-01  3.33505187e-09  1.58587829e-07  5.11462588e-08  8.10000000e-01 
 8.20000000e-01  4.58781463e-01  3.36972727e-09  3.35213388e-09  3.43563858e-09  3.40977402e-09  4.58781463e-01  3.33505186e-09  1.58587736e-07  5.11461451e-08  8.20000000e-01 
 8.30000000e-01  4.58781503e-01  3.36972727e-09  3.35213394e-09  3.43563858e-09  3.40977397e-09  4.58781503e-01  3.33505186e-09  1.58587798e-07  5.11462517e-08  8.30000000e-01 
 8.40000000e-01  4.58781500e-01  3.36972727e-09  3.35213389e-09  3.43563852e-09  3.40977397e-09  4.58781500e-01  3.33505186e-09  1.58587806e-07  5.11462019e-08  8.40000000e-01 
 8.50000000e-01  4.58781497e-01  3.36972727e-09  3.35213394e-09  3.43563852e-09  3.40977402e-09  4.58781497e-01  3.33505186e-09  1.58587794e-07  5.11460527e-08  8.50000000e-01 
 8.60000000e-01  4.58781477e-01  3.36972727e-09  3.35213394e-09  3.43563858e-09  3.40977397e-09  4.58781477e-01  3.33505186e-09  1.58587763e-07  5.11460954e-08  8.60000000e-01 
 8.70000000e-01  4.58781502e-01  3.36972727e-09  3.35213394e-09  3.43563852e-09  3.40977397e-09  4.58781502e-01  3.33505186e-09  1.58587791e-07  5.11459533e-08  8.70000000e-01 
 8.80000000e-01  4.58781468e-01  3.36972727e-09  3.35213394e-09  3.43563852e-09  3.40977402e-09  4.58781468e-01  3.33505186e-09  1.58587754e-07  5.11459319e-08  8.80000000e-01 
 8.90000000e-01  4.58781505e-01  3.36972727e-09  3.35213394e-09  3.43563852e-09  3.40977397e-09  4.58781505e-01  3.33505186e-09  1.58587800e-07  5.11457685e-08  8.90000000e-01 
 9.00000000e-01  4.58781503e-01  3.36972727e-09  3.35213394e-09  3.43563852e-09  3.40977403e-09  4.58781503e-01  3.33505186e-09  1.58587801e-07  5.11457685e-08  9.00000000e-01 
 9.10000000e-01  4.58781481e-01  3.36972727e-09  3.35213388e-09  3.43563858e-09  3.40977397e-09  4.58781480e-01  3.33505186e-09  1.58587780e-07  5.11457188e-08  9.10000000e-01 
 9.20000000e-01  4.58781508e-01  3.36972727e-09  3.35213389e-09  3.43563858e-09  3.40977397e-09  4.58781508e-01  3.33505186e-09  1.58587801e-07  5.11456761e-08  9.20000000e-01 
 9.30000000e-01  4.58781483e-01  3.36972727e-09  3.35213388e-09  3.43563852e-09  3.40977402e-09  4.58781483e-01  3.33505186e-09  1.58587779e-07  5.11455198e-08  9.30000000e-01 
 9.40000000e-01  4.58781494e-01  3.36972727e-09  3.35213394e-09  3.43563858e-09  3.40977397e-09  4.58781494e-01  3.33505186e-09  1.58587790e-07  5.11455482e-08  9.40000000e-01 
 9.50000000e-01  4.58781497e-01  3.36972727e-09  3.35213388e-09  3.43563852e-09  3.40977402e-09  4.58781497e-01  3.33505186e-09  1.58587805e-07  5.11454630e-08  9.50000000e-01 
 9.60000000e-01  4.58781497e-01  3.36972727e-09  3.35213388e-09  3.43563852e-09  3.40977397e-09  4.58781497e-01  3.33505186e-09  1.58587785e-07  5.11453635e-08  9.60000000e-01 
 9.70000000e-01  4.58781506e-01  3.36972727e-09  3.35213389e-09  3.43563858e-09  3.40977397e-09  4.58781506e-01  3.33505186e-09  1.58587810e-07  5.11453635e-08  9.70000000e-01 
 9.80000000e-01  4.58781491e-01  3.36972727e-09  3.35213388e-09  3.43563852e-09  3.40977397e-09  4.58781491e-01  3.33505186e-09  1.58587776e-07  5.11452214e-08  9.80000000e-01 
 9.90000000e-01  4.58781484e-01  3.36972727e-09  3.35213394e-09  3.43563852e-09  3.40977397e-09  4.58781484e-01  3.33505186e-09  1.58587768e-07  5.11451432e-08  9.90000000e-01 
 1.00000000e+00  4.58781483e-01  3.36972727e-09  3.35213388e-09  3.43563852e-09  3.40977397e-09  4.58781483e-01  3.33505186e-09  1.58587766e-07  5.11451503e-08  1.00000000e+00 
 1.01000000e+00  4.58781506e-01  3.36972727e-09  3.35213389e-09  3.43563858e-09  3.40977403e-09  4.58781506e-01  3.33505186e-09  1.58587824e-07  5.11451290e-08  1.01000000e+00 
 1.02000000e+00  4.58781482e-01  3.36972727e-09  3.35213388e-09  3.43563852e-09  3.40977397e-09  4.58781482e-01  3.33505186e-09  1.58587770e-07  5.11451361e-08  1.02000000e+00 
 1.03000000e+00  4.58781496e-01  3.36972727e-09  3.35213394e-09  3.43563852e-09  3.40977402e-09  4.58781496e-01  3.33505186e-09  1.58587791e-07  5.11449514e-08  1.03000000e+00 
 1.04000000e+00  4.58781473e-01  3.36972727e-09  3.35213388e-09  3.43563858e-09  3.40977402e-09  4.58781473e-01  3.33505186e-09  1.58587749e-07  5.11447524e-08  1.04000000e+00 
 1.05000000e+00  4.58781492e-01  3.36972727e-09  3.35213394e-09  3.43563852e-09  3.40977397e-09  4.58781492e-01  3.33505186e-09  1.58587789e-07  5.11448448e-08  1.05000000e+00 
 1.06000000e+00  4.58781493e-01  3.36972727e-09  3.35213394e-09  3.43563858e-09  3.40977397e-09  4.58781493e-01  3.33505186e-09  1.58587774e-07  5.11448732e-08  1.06000000e+00 
 1.07000000e+00  4.58781496e-01  3.36972727e-09  3.35213388e-09  3.43563858e-09  3.40977397e-09  4.58781496e-01  3.33505186e-09  1.58587791e-07  5.11448519e-08  1.07000000e+00 
 1.08000000e+00  4.58781480e-01  3.36972727e-09  3.35213388e-09  3.43563858e-09  3.40977397e-09  4.58781480e-01  3.33505186e-09  1.58587764e-07  5.11446601e-08  1.08000000e+00 
 1.09000000e+00  4.58781507e-01  3.36972727e-09  3.35213394e-09  3.43563858e-09  3.40977397e-09  4.58781507e-01  3.33505186e-09  1.58587805e-07  5.11445748e-08  1.09000000e+00 
 1.10000000e+00  4.58781481e-01  3.36972727e-09  3.35213394e-09  3.43563858e-09  3.40977397e-09  4.58781481e-01  3.33505186e-09  1.58587776e-07  5.11444895e-08  1.10000000e+00 
