 v-sweep         v(b0)           v(b1)           v(b2)           v(b3)           v(b4)           v(b5)           v(b6)           i(vbias)        i(viout)        v(vout)        
 0.00000000e+00  3.39070461e-09  3.35100224e-09  3.11428819e-09  3.60502572e-09  3.31578913e-09  3.35915123e-09  4.58936015e-01  1.63015016e-07  9.81208378e-08  0.00000000e+00 
 1.00000000e-02  3.39070458e-09  3.35100228e-09  3.11428821e-09  3.60502569e-09  3.31578916e-09  3.35915121e-09  4.58936040e-01  1.63015055e-07  9.81204382e-08  1.00000000e-02 
 2.00000000e-02  3.39070459e-09  3.35100228e-09  3.11428821e-09  3.60502575e-09  3.31578916e-09  3.35915121e-09  4.58936045e-01  1.63015051e-07  9.81199944e-08  2.00000000e-02 
 3.00000000e-02  3.39070458e-09  3.35100228e-09  3.11428821e-09  3.60502569e-09  3.31578916e-09  3.35915121e-09  4.58936019e-01  1.63015016e-07  9.81194792e-08  3.00000000e-02 
 4.00000000e-02  3.39070458e-09  3.35100228e-09  3.11428821e-09  3.60502575e-09  3.31578916e-09  3.35915115e-09  4.58936039e-01  1.63015052e-07  9.81192207e-08  4.00000000e-02 
 5.00000000e-02  3.39070464e-09  3.35100228e-09  3.11428816e-09  3.60502569e-09  3.31578916e-09  3.35915121e-09  4.58936035e-01  1.63015039e-07  9.81188832e-08  5.00000000e-02 
 6.00000000e-02  3.39070457e-09  3.35100233e-09  3.11428821e-09  3.60502575e-09  3.31578916e-09  3.35915121e-09  4.58936040e-01  1.63015059e-07  9.81186097e-08  6.00000000e-02 
 7.00000000e-02  3.39070465e-09  3.35100232e-09  3.11428816e-09  3.60502575e-09  3.31578916e-09  3.35915121e-09  4.58936032e-01  1.63015046e-07  9.81183375e-08  7.00000000e-02 
 8.00000000e-02  3.39070463e-09  3.35100228e-09  3.11428816e-09  3.60502575e-09  3.31578916e-09  3.35915121e-09  4.58936032e-01  1.63015046e-07  9.81178809e-08  8.00000000e-02 
 9.00000000e-02  3.39070464e-09  3.35100228e-09  3.11428816e-09  3.60502575e-09  3.31578916e-09  3.35915115e-09  4.58936040e-01  1.63015052e-07  9.81177894e-08  9.00000000e-02 
 1.00000000e-01  3.39070458e-09  3.35100228e-09  3.11428816e-09  3.60502575e-09  3.31578916e-09  3.35915121e-09  4.58936041e-01  1.63015044e-07  9.81174377e-08  1.00000000e-01 
 1.10000000e-01  3.39070459e-09  3.35100228e-09  3.11428816e-09  3.60502575e-09  3.31578916e-09  3.35915121e-09  4.58936019e-01  1.63015016e-07  9.81170771e-08  1.10000000e-01 
 1.20000000e-01  3.39070464e-09  3.35100228e-09  3.11428816e-09  3.60502575e-09  3.31578916e-09  3.35915121e-09  4.58936050e-01  1.63015088e-07  9.81169359e-08  1.20000000e-01 
 1.30000000e-01  3.39070457e-09  3.35100228e-09  3.11428821e-09  3.60502575e-09  3.31578916e-09  3.35915115e-09  4.58936049e-01  1.63015074e-07  9.81166339e-08  1.30000000e-01 
 1.40000000e-01  3.39070459e-09  3.35100228e-09  3.11428821e-09  3.60502569e-09  3.31578916e-09  3.35915121e-09  4.58936017e-01  1.63015007e-07  9.81164021e-08  1.40000000e-01 
 1.50000000e-01  3.39070458e-09  3.35100228e-09  3.11428816e-09  3.60502575e-09  3.31578916e-09  3.35915115e-09  4.58936043e-01  1.63015055e-07  9.81161534e-08  1.50000000e-01 
 1.60000000e-01  3.39070464e-09  3.35100228e-09  3.11428821e-09  3.60502575e-09  3.31578916e-09  3.35915121e-09  4.58936033e-01  1.63015037e-07  9.81160362e-08  1.60000000e-01 
 1.70000000e-01  3.39070463e-09  3.35100228e-09  3.11428816e-09  3.60502575e-09  3.31578916e-09  3.35915121e-09  4.58936018e-01  1.63015018e-07  9.81158230e-08  1.70000000e-01 
 1.80000000e-01  3.39070458e-09  3.35100228e-09  3.11428816e-09  3.60502575e-09  3.31578916e-09  3.35915121e-09  4.58936034e-01  1.63015052e-07  9.81155850e-08  1.80000000e-01 
 1.90000000e-01  3.39070459e-09  3.35100233e-09  3.11428816e-09  3.60502575e-09  3.31578916e-09  3.35915121e-09  4.58936031e-01  1.63015049e-07  9.81153985e-08  1.90000000e-01 
 2.00000000e-01  3.39070458e-09  3.35100226e-09  3.11428816e-09  3.60502575e-09  3.31578916e-09  3.35915121e-09  4.58936013e-01  1.63015021e-07  9.81152315e-08  2.00000000e-01 
 2.10000000e-01  3.39070458e-09  3.35100228e-09  3.11428816e-09  3.60502575e-09  3.31578916e-09  3.35915115e-09  4.58936045e-01  1.63015066e-07  9.81151249e-08  2.10000000e-01 
 2.20000000e-01  3.39070464e-09  3.35100228e-09  3.11428821e-09  3.60502575e-09  3.31578916e-09  3.35915121e-09  4.58936021e-01  1.63015022e-07  9.81149739e-08  2.20000000e-01 
 2.30000000e-01  3.39070463e-09  3.35100233e-09  3.11428821e-09  3.60502569e-09  3.31578916e-09  3.35915121e-09  4.58936038e-01  1.63015056e-07  9.81147714e-08  2.30000000e-01 
 2.40000000e-01  3.39070458e-09  3.35100227e-09  3.11428816e-09  3.60502575e-09  3.31578916e-09  3.35915121e-09  4.58936038e-01  1.63015041e-07  9.81146897e-08  2.40000000e-01 
 2.50000000e-01  3.39070459e-09  3.35100234e-09  3.11428821e-09  3.60502575e-09  3.31578916e-09  3.35915115e-09  4.58936030e-01  1.63015031e-07  9.81144872e-08  2.50000000e-01 
 2.60000000e-01  3.39070458e-09  3.35100227e-09  3.11428821e-09  3.60502575e-09  3.31578916e-09  3.35915115e-09  4.58936045e-01  1.63015063e-07  9.81144694e-08  2.60000000e-01 
 2.70000000e-01  3.39070459e-09  3.35100234e-09  3.11428816e-09  3.60502575e-09  3.31578916e-09  3.35915115e-09  4.58936050e-01  1.63015050e-07  9.81141870e-08  2.70000000e-01 
 2.80000000e-01  3.39070458e-09  3.35100226e-09  3.11428821e-09  3.60502575e-09  3.31578916e-09  3.35915121e-09  4.58936020e-01  1.63015020e-07  9.81140413e-08  2.80000000e-01 
 2.90000000e-01  3.39070458e-09  3.35100228e-09  3.11428816e-09  3.60502569e-09  3.31578916e-09  3.35915121e-09  4.58936037e-01  1.63015054e-07  9.81139472e-08  2.90000000e-01 
 3.00000000e-01  3.39070458e-09  3.35100228e-09  3.11428816e-09  3.60502569e-09  3.31578916e-09  3.35915115e-09  4.58936041e-01  1.63015048e-07  9.81138868e-08  3.00000000e-01 
 3.10000000e-01  3.39070464e-09  3.35100228e-09  3.11428821e-09  3.60502575e-09  3.31578916e-09  3.35915115e-09  4.58936036e-01  1.63015040e-07  9.81137305e-08  3.10000000e-01 
 3.20000000e-01  3.39070463e-09  3.35100228e-09  3.11428821e-09  3.60502575e-09  3.31578916e-09  3.35915121e-09  4.58936049e-01  1.63015079e-07  9.81135777e-08  3.20000000e-01 
 3.30000000e-01  3.39070458e-09  3.35100228e-09  3.11428821e-09  3.60502569e-09  3.31578916e-09  3.35915115e-09  4.58936042e-01  1.63015045e-07  9.81135884e-08  3.30000000e-01 
 3.40000000e-01  3.39070459e-09  3.35100228e-09  3.11428816e-09  3.60502575e-09  3.31578916e-09  3.35915115e-09  4.58936047e-01  1.63015059e-07  9.81133610e-08  3.40000000e-01 
 3.50000000e-01  3.39070458e-09  3.35100228e-09  3.11428816e-09  3.60502575e-09  3.31578916e-09  3.35915121e-09  4.58936028e-01  1.63015036e-07  9.81133219e-08  3.50000000e-01 
 3.60000000e-01  3.39070459e-09  3.35100228e-09  3.11428816e-09  3.60502575e-09  3.31578916e-09  3.35915121e-09  4.58936050e-01  1.63015068e-07  9.81131798e-08  3.60000000e-01 
 3.70000000e-01  3.39070459e-09  3.35100228e-09  3.11428816e-09  3.60502569e-09  3.31578916e-09  3.35915121e-09  4.58936052e-01  1.63015077e-07  9.81131159e-08  3.70000000e-01 
 3.80000000e-01  3.39070464e-09  3.35100233e-09  3.11428816e-09  3.60502575e-09  3.31578916e-09  3.35915121e-09  4.58936036e-01  1.63015037e-07  9.81130377e-08  3.80000000e-01 
 3.90000000e-01  3.39070457e-09  3.35100232e-09  3.11428821e-09  3.60502569e-09  3.31578916e-09  3.35915115e-09  4.58936048e-01  1.63015070e-07  9.81129524e-08  3.90000000e-01 
 4.00000000e-01  3.39070459e-09  3.35100227e-09  3.11428821e-09  3.60502575e-09  3.31578916e-09  3.35915121e-09  4.58936024e-01  1.63015028e-07  9.81129240e-08  4.00000000e-01 
 4.10000000e-01  3.39070458e-09  3.35100228e-09  3.11428821e-09  3.60502569e-09  3.31578916e-09  3.35915115e-09  4.58936030e-01  1.63015041e-07  9.81127890e-08  4.10000000e-01 
 4.20000000e-01  3.39070458e-09  3.35100233e-09  3.11428816e-09  3.60502575e-09  3.31578916e-09  3.35915115e-09  4.58936032e-01  1.63015041e-07  9.81125119e-08  4.20000000e-01 
 4.30000000e-01  3.39070458e-09  3.35100232e-09  3.11428821e-09  3.60502575e-09  3.31578916e-09  3.35915115e-09  4.58936021e-01  1.63015026e-07  9.81124337e-08  4.30000000e-01 
 4.40000000e-01  3.39070459e-09  3.35100234e-09  3.11428816e-09  3.60502575e-09  3.31578916e-09  3.35915115e-09  4.58936056e-01  1.63015087e-07  9.81124693e-08  4.40000000e-01 
 4.50000000e-01  3.39070458e-09  3.35100232e-09  3.11428821e-09  3.60502569e-09  3.31578916e-09  3.35915115e-09  4.58936035e-01  1.63015051e-07  9.81123591e-08  4.50000000e-01 
 4.60000000e-01  3.39070458e-09  3.35100233e-09  3.11428816e-09  3.60502575e-09  3.31578916e-09  3.35915115e-09  4.58936043e-01  1.63015052e-07  9.81122845e-08  4.60000000e-01 
 4.70000000e-01  3.39070459e-09  3.35100227e-09  3.11428816e-09  3.60502575e-09  3.31578916e-09  3.35915121e-09  4.58936057e-01  1.63015074e-07  9.81122135e-08  4.70000000e-01 
 4.80000000e-01  3.39070459e-09  3.35100234e-09  3.11428821e-09  3.60502575e-09  3.31578916e-09  3.35915121e-09  4.58936051e-01  1.63015064e-07  9.81122135e-08  4.80000000e-01 
 4.90000000e-01  3.39070458e-09  3.35100232e-09  3.11428821e-09  3.60502575e-09  3.31578916e-09  3.35915121e-09  4.58936030e-01  1.63015029e-07  9.81119861e-08  4.90000000e-01 
 5.00000000e-01  3.39070458e-09  3.35100228e-09  3.11428816e-09  3.60502575e-09  3.31578916e-09  3.35915121e-09  4.58936036e-01  1.63015047e-07  9.81119612e-08  5.00000000e-01 
 5.10000000e-01  3.39070464e-09  3.35100228e-09  3.11428816e-09  3.60502575e-09  3.31578916e-09  3.35915121e-09  4.58936026e-01  1.63015029e-07  9.81118937e-08  5.10000000e-01 
 5.20000000e-01  3.39070463e-09  3.35100228e-09  3.11428816e-09  3.60502575e-09  3.31578916e-09  3.35915121e-09  4.58936027e-01  1.63015042e-07  9.81117445e-08  5.20000000e-01 
 5.30000000e-01  3.39070464e-09  3.35100228e-09  3.11428816e-09  3.60502575e-09  3.31578916e-09  3.35915121e-09  4.58936040e-01  1.63015060e-07  9.81116806e-08  5.30000000e-01 
 5.40000000e-01  3.39070458e-09  3.35100228e-09  3.11428816e-09  3.60502575e-09  3.31578916e-09  3.35915121e-09  4.58936041e-01  1.63015041e-07  9.81116450e-08  5.40000000e-01 
 5.50000000e-01  3.39070465e-09  3.35100228e-09  3.11428816e-09  3.60502575e-09  3.31578916e-09  3.35915121e-09  4.58936031e-01  1.63015040e-07  9.81115384e-08  5.50000000e-01 
 5.60000000e-01  3.39070463e-09  3.35100228e-09  3.11428821e-09  3.60502575e-09  3.31578916e-09  3.35915121e-09  4.58936015e-01  1.63015015e-07  9.81113892e-08  5.60000000e-01 
 5.70000000e-01  3.39070458e-09  3.35100228e-09  3.11428816e-09  3.60502575e-09  3.31578922e-09  3.35915121e-09  4.58936052e-01  1.63015073e-07  9.81114567e-08  5.70000000e-01 
 5.80000000e-01  3.39070459e-09  3.35100228e-09  3.11428816e-09  3.60502575e-09  3.31578916e-09  3.35915121e-09  4.58936040e-01  1.63015052e-07  9.81113857e-08  5.80000000e-01 
 5.90000000e-01  3.39070458e-09  3.35100228e-09  3.11428816e-09  3.60502575e-09  3.31578916e-09  3.35915121e-09  4.58936035e-01  1.63015050e-07  9.81111796e-08  5.90000000e-01 
 6.00000000e-01  3.39070464e-09  3.35100233e-09  3.11428821e-09  3.60502569e-09  3.31578916e-09  3.35915121e-09  4.58936030e-01  1.63015045e-07  9.81111725e-08  6.00000000e-01 
 6.10000000e-01  3.39070463e-09  3.35100226e-09  3.11428821e-09  3.60502575e-09  3.31578916e-09  3.35915121e-09  4.58936020e-01  1.63015032e-07  9.81111157e-08  6.10000000e-01 
 6.20000000e-01  3.39070458e-09  3.35100228e-09  3.11428816e-09  3.60502575e-09  3.31578916e-09  3.35915115e-09  4.58936035e-01  1.63015044e-07  9.81110588e-08  6.20000000e-01 
 6.30000000e-01  3.39070459e-09  3.35100228e-09  3.11428816e-09  3.60502575e-09  3.31578916e-09  3.35915115e-09  4.58936043e-01  1.63015052e-07  9.81109736e-08  6.30000000e-01 
 6.40000000e-01  3.39070458e-09  3.35100228e-09  3.11428816e-09  3.60502569e-09  3.31578916e-09  3.35915121e-09  4.58936029e-01  1.63015039e-07  9.81109238e-08  6.40000000e-01 
 6.50000000e-01  3.39070458e-09  3.35100228e-09  3.11428816e-09  3.60502569e-09  3.31578916e-09  3.35915121e-09  4.58936021e-01  1.63015024e-07  9.81108101e-08  6.50000000e-01 
 6.60000000e-01  3.39070458e-09  3.35100228e-09  3.11428816e-09  3.60502575e-09  3.31578916e-09  3.35915121e-09  4.58936034e-01  1.63015042e-07  9.81106822e-08  6.60000000e-01 
 6.70000000e-01  3.39070458e-09  3.35100228e-09  3.11428816e-09  3.60502575e-09  3.31578916e-09  3.35915121e-09  4.58936022e-01  1.63015026e-07  9.81106538e-08  6.70000000e-01 
 6.80000000e-01  3.39070458e-09  3.35100228e-09  3.11428816e-09  3.60502575e-09  3.31578916e-09  3.35915121e-09  4.58936029e-01  1.63015034e-07  9.81106041e-08  6.80000000e-01 
 6.90000000e-01  3.39070464e-09  3.35100228e-09  3.11428816e-09  3.60502575e-09  3.31578916e-09  3.35915121e-09  4.58936014e-01  1.63015002e-07  9.81104691e-08  6.90000000e-01 
 7.00000000e-01  3.39070457e-09  3.35100228e-09  3.11428816e-09  3.60502575e-09  3.31578916e-09  3.35915121e-09  4.58936022e-01  1.63015037e-07  9.81104122e-08  7.00000000e-01 
 7.10000000e-01  3.39070459e-09  3.35100228e-09  3.11428816e-09  3.60502569e-09  3.31578916e-09  3.35915121e-09  4.58936034e-01  1.63015047e-07  9.81104549e-08  7.10000000e-01 
 7.20000000e-01  3.39070458e-09  3.35100233e-09  3.11428816e-09  3.60502575e-09  3.31578916e-09  3.35915121e-09  4.58936034e-01  1.63015048e-07  9.81104193e-08  7.20000000e-01 
 7.30000000e-01  3.39070458e-09  3.35100227e-09  3.11428816e-09  3.60502575e-09  3.31578916e-09  3.35915121e-09  4.58936036e-01  1.63015042e-07  9.81102630e-08  7.30000000e-01 
 7.40000000e-01  3.39070458e-09  3.35100228e-09  3.11428821e-09  3.60502575e-09  3.31578916e-09  3.35915121e-09  4.58936043e-01  1.63015052e-07  9.81101778e-08  7.40000000e-01 
 7.50000000e-01  3.39070458e-09  3.35100228e-09  3.11428816e-09  3.60502575e-09  3.31578916e-09  3.35915115e-09  4.58936013e-01  1.63015005e-07  9.81101067e-08  7.50000000e-01 
 7.60000000e-01  3.39070458e-09  3.35100228e-09  3.11428821e-09  3.60502575e-09  3.31578916e-09  3.35915121e-09  4.58936029e-01  1.63015044e-07  9.81099291e-08  7.60000000e-01 
 7.70000000e-01  3.39070458e-09  3.35100228e-09  3.11428816e-09  3.60502575e-09  3.31578916e-09  3.35915121e-09  4.58936038e-01  1.63015044e-07  9.81098651e-08  7.70000000e-01 
 7.80000000e-01  3.39070458e-09  3.35100228e-09  3.11428816e-09  3.60502575e-09  3.31578916e-09  3.35915115e-09  4.58936031e-01  1.63015043e-07  9.81098154e-08  7.80000000e-01 
 7.90000000e-01  3.39070464e-09  3.35100234e-09  3.11428816e-09  3.60502575e-09  3.31578916e-09  3.35915121e-09  4.58936053e-01  1.63015069e-07  9.81099291e-08  7.90000000e-01 
 8.00000000e-01  3.39070457e-09  3.35100227e-09  3.11428821e-09  3.60502575e-09  3.31578916e-09  3.35915121e-09  4.58936042e-01  1.63015052e-07  9.81097301e-08  8.00000000e-01 
 8.10000000e-01  3.39070459e-09  3.35100228e-09  3.11428816e-09  3.60502575e-09  3.31578916e-09  3.35915121e-09  4.58936050e-01  1.63015067e-07  9.81097301e-08  8.10000000e-01 
 8.20000000e-01  3.39070464e-09  3.35100228e-09  3.11428816e-09  3.60502575e-09  3.31578916e-09  3.35915115e-09  4.58936038e-01  1.63015049e-07  9.81096164e-08  8.20000000e-01 
 8.30000000e-01  3.39070463e-09  3.35100233e-09  3.11428816e-09  3.60502575e-09  3.31578916e-09  3.35915121e-09  4.58936022e-01  1.63015015e-07  9.81094033e-08  8.30000000e-01 
 8.40000000e-01  3.39070464e-09  3.35100232e-09  3.11428816e-09  3.60502575e-09  3.31578916e-09  3.35915121e-09  4.58936044e-01  1.63015058e-07  9.81094175e-08  8.40000000e-01 
 8.50000000e-01  3.39070463e-09  3.35100227e-09  3.11428816e-09  3.60502575e-09  3.31578916e-09  3.35915121e-09  4.58936033e-01  1.63015041e-07  9.81094317e-08  8.50000000e-01 
 8.60000000e-01  3.39070463e-09  3.35100228e-09  3.11428816e-09  3.60502575e-09  3.31578916e-09  3.35915121e-09  4.58936026e-01  1.63015039e-07  9.81092256e-08  8.60000000e-01 
 8.70000000e-01  3.39070458e-09  3.35100233e-09  3.11428821e-09  3.60502575e-09  3.31578916e-09  3.35915120e-09  4.58936006e-01  1.63015010e-07  9.81091191e-08  8.70000000e-01 
 8.80000000e-01  3.39070459e-09  3.35100226e-09  3.11428816e-09  3.60502575e-09  3.31578916e-09  3.35915121e-09  4.58936033e-01  1.63015039e-07  9.81091048e-08  8.80000000e-01 
 8.90000000e-01  3.39070458e-09  3.35100228e-09  3.11428821e-09  3.60502575e-09  3.31578916e-09  3.35915121e-09  4.58936041e-01  1.63015049e-07  9.81090764e-08  8.90000000e-01 
 9.00000000e-01  3.39070458e-09  3.35100228e-09  3.11428816e-09  3.60502569e-09  3.31578916e-09  3.35915121e-09  4.58936042e-01  1.63015060e-07  9.81089059e-08  9.00000000e-01 
 9.10000000e-01  3.39070464e-09  3.35100228e-09  3.11428816e-09  3.60502575e-09  3.31578916e-09  3.35915121e-09  4.58936053e-01  1.63015067e-07  9.81089769e-08  9.10000000e-01 
 9.20000000e-01  3.39070463e-09  3.35100228e-09  3.11428821e-09  3.60502575e-09  3.31578916e-09  3.35915121e-09  4.58936045e-01  1.63015054e-07  9.81088633e-08  9.20000000e-01 
 9.30000000e-01  3.39070458e-09  3.35100228e-09  3.11428821e-09  3.60502575e-09  3.31578916e-09  3.35915121e-09  4.58936040e-01  1.63015052e-07  9.81087638e-08  9.30000000e-01 
 9.40000000e-01  3.39070459e-09  3.35100228e-09  3.11428821e-09  3.60502575e-09  3.31578916e-09  3.35915121e-09  4.58936049e-01  1.63015066e-07  9.81086359e-08  9.40000000e-01 
 9.50000000e-01  3.39070458e-09  3.35100228e-09  3.11428821e-09  3.60502575e-09  3.31578916e-09  3.35915121e-09  4.58936046e-01  1.63015054e-07  9.81085435e-08  9.50000000e-01 
 9.60000000e-01  3.39070458e-09  3.35100228e-09  3.11428821e-09  3.60502575e-09  3.31578916e-09  3.35915121e-09  4.58936039e-01  1.63015044e-07  9.81085080e-08  9.60000000e-01 
 9.70000000e-01  3.39070458e-09  3.35100228e-09  3.11428816e-09  3.60502569e-09  3.31578916e-09  3.35915121e-09  4.58936041e-01  1.63015063e-07  9.81084156e-08  9.70000000e-01 
 9.80000000e-01  3.39070458e-09  3.35100228e-09  3.11428821e-09  3.60502575e-09  3.31578916e-09  3.35915121e-09  4.58936030e-01  1.63015032e-07  9.81082806e-08  9.80000000e-01 
 9.90000000e-01  3.39070464e-09  3.35100228e-09  3.11428816e-09  3.60502575e-09  3.31578916e-09  3.35915121e-09  4.58936039e-01  1.63015049e-07  9.81082238e-08  9.90000000e-01 
 1.00000000e+00  3.39070463e-09  3.35100228e-09  3.11428816e-09  3.60502575e-09  3.31578916e-09  3.35915121e-09  4.58936036e-01  1.63015047e-07  9.81081243e-08  1.00000000e+00 
 1.01000000e+00  3.39070458e-09  3.35100228e-09  3.11428816e-09  3.60502575e-09  3.31578916e-09  3.35915121e-09  4.58936026e-01  1.63015042e-07  9.81080674e-08  1.01000000e+00 
 1.02000000e+00  3.39070459e-09  3.35100228e-09  3.11428821e-09  3.60502575e-09  3.31578916e-09  3.35915121e-09  4.58936036e-01  1.63015061e-07  9.81079538e-08  1.02000000e+00 
 1.03000000e+00  3.39070464e-09  3.35100228e-09  3.11428816e-09  3.60502575e-09  3.31578916e-09  3.35915115e-09  4.58936045e-01  1.63015065e-07  9.81079253e-08  1.03000000e+00 
 1.04000000e+00  3.39070457e-09  3.35100228e-09  3.11428816e-09  3.60502575e-09  3.31578916e-09  3.35915115e-09  4.58936027e-01  1.63015025e-07  9.81078259e-08  1.04000000e+00 
 1.05000000e+00  3.39070459e-09  3.35100228e-09  3.11428816e-09  3.60502575e-09  3.31578916e-09  3.35915121e-09  4.58936045e-01  1.63015068e-07  9.81077335e-08  1.05000000e+00 
 1.06000000e+00  3.39070458e-09  3.35100228e-09  3.11428816e-09  3.60502575e-09  3.31578916e-09  3.35915121e-09  4.58936035e-01  1.63015055e-07  9.81077193e-08  1.06000000e+00 
 1.07000000e+00  3.39070458e-09  3.35100233e-09  3.11428821e-09  3.60502575e-09  3.31578916e-09  3.35915121e-09  4.58936046e-01  1.63015063e-07  9.81075772e-08  1.07000000e+00 
 1.08000000e+00  3.39070458e-09  3.35100227e-09  3.11428816e-09  3.60502575e-09  3.31578916e-09  3.35915121e-09  4.58936039e-01  1.63015053e-07  9.81074351e-08  1.08000000e+00 
 1.09000000e+00  3.39070458e-09  3.35100228e-09  3.11428821e-09  3.60502569e-09  3.31578916e-09  3.35915115e-09  4.58936046e-01  1.63015068e-07  9.81073711e-08  1.09000000e+00 
 1.10000000e+00  3.39070458e-09  3.35100228e-09  3.11428821e-09  3.60502575e-09  3.31578916e-09  3.35915115e-09  4.58936028e-01  1.63015041e-07  9.81073711e-08  1.10000000e+00 
