 v-sweep         v(b0)           v(b1)           v(b2)           v(b3)           v(b4)           v(b5)           v(b6)           i(vbias)        i(viout)        v(vout)        
 0.00000000e+00  4.60195287e-01  4.60195287e-01  3.14034006e-09  4.60195287e-01  4.60195287e-01  4.60195287e-01  3.37240535e-09  1.62504615e-07  9.68938685e-08  0.00000000e+00 
 1.00000000e-02  4.60195288e-01  4.60195288e-01  3.14034004e-09  4.60195288e-01  4.60195288e-01  4.60195288e-01  3.37240533e-09  1.62504636e-07  9.68935097e-08  1.00000000e-02 
 2.00000000e-02  4.60195275e-01  4.60195275e-01  3.14034004e-09  4.60195275e-01  4.60195275e-01  4.60195275e-01  3.37240533e-09  1.62504603e-07  9.68930907e-08  2.00000000e-02 
 3.00000000e-02  4.60195267e-01  4.60195267e-01  3.14033998e-09  4.60195267e-01  4.60195267e-01  4.60195267e-01  3.37240539e-09  1.62504615e-07  9.68926144e-08  3.00000000e-02 
 4.00000000e-02  4.60195289e-01  4.60195289e-01  3.14034004e-09  4.60195289e-01  4.60195289e-01  4.60195289e-01  3.37240539e-09  1.62504628e-07  9.68922693e-08  4.00000000e-02 
 5.00000000e-02  4.60195281e-01  4.60195281e-01  3.14034004e-09  4.60195281e-01  4.60195281e-01  4.60195281e-01  3.37240533e-09  1.62504617e-07  9.68919713e-08  5.00000000e-02 
 6.00000000e-02  4.60195293e-01  4.60195293e-01  3.14034004e-09  4.60195293e-01  4.60195293e-01  4.60195293e-01  3.37240533e-09  1.62504636e-07  9.68917004e-08  6.00000000e-02 
 7.00000000e-02  4.60195258e-01  4.60195258e-01  3.14034004e-09  4.60195258e-01  4.60195258e-01  4.60195258e-01  3.37240539e-09  1.62504578e-07  9.68912177e-08  7.00000000e-02 
 8.00000000e-02  4.60195259e-01  4.60195259e-01  3.14034004e-09  4.60195259e-01  4.60195259e-01  4.60195259e-01  3.37240539e-09  1.62504596e-07  9.68909326e-08  8.00000000e-02 
 9.00000000e-02  4.60195300e-01  4.60195300e-01  3.14034004e-09  4.60195300e-01  4.60195300e-01  4.60195300e-01  3.37240533e-09  1.62504644e-07  9.68907381e-08  9.00000000e-02 
 1.00000000e-01  4.60195291e-01  4.60195291e-01  3.14034004e-09  4.60195291e-01  4.60195291e-01  4.60195291e-01  3.37240533e-09  1.62504644e-07  9.68905889e-08  1.00000000e-01 
 1.10000000e-01  4.60195296e-01  4.60195296e-01  3.14034004e-09  4.60195296e-01  4.60195296e-01  4.60195296e-01  3.37240539e-09  1.62504642e-07  9.68902265e-08  1.10000000e-01 
 1.20000000e-01  4.60195305e-01  4.60195305e-01  3.14034004e-09  4.60195305e-01  4.60195305e-01  4.60195305e-01  3.37240534e-09  1.62504658e-07  9.68901306e-08  1.20000000e-01 
 1.30000000e-01  4.60195289e-01  4.60195289e-01  3.14034004e-09  4.60195289e-01  4.60195289e-01  4.60195289e-01  3.37240533e-09  1.62504622e-07  9.68897442e-08  1.30000000e-01 
 1.40000000e-01  4.60195291e-01  4.60195291e-01  3.14034004e-09  4.60195291e-01  4.60195291e-01  4.60195291e-01  3.37240539e-09  1.62504635e-07  9.68895044e-08  1.40000000e-01 
 1.50000000e-01  4.60195296e-01  4.60195296e-01  3.14034004e-09  4.60195295e-01  4.60195296e-01  4.60195296e-01  3.37240533e-09  1.62504628e-07  9.68892966e-08  1.50000000e-01 
 1.60000000e-01  4.60195298e-01  4.60195298e-01  3.14034004e-09  4.60195298e-01  4.60195298e-01  4.60195298e-01  3.37240533e-09  1.62504652e-07  9.68891829e-08  1.60000000e-01 
 1.70000000e-01  4.60195292e-01  4.60195292e-01  3.14034004e-09  4.60195292e-01  4.60195292e-01  4.60195292e-01  3.37240539e-09  1.62504640e-07  9.68889839e-08  1.70000000e-01 
 1.80000000e-01  4.60195293e-01  4.60195293e-01  3.14034004e-09  4.60195293e-01  4.60195293e-01  4.60195293e-01  3.37240539e-09  1.62504645e-07  9.68886891e-08  1.80000000e-01 
 1.90000000e-01  4.60195280e-01  4.60195280e-01  3.14034004e-09  4.60195280e-01  4.60195280e-01  4.60195280e-01  3.37240533e-09  1.62504610e-07  9.68885470e-08  1.90000000e-01 
 2.00000000e-01  4.60195299e-01  4.60195299e-01  3.14034004e-09  4.60195299e-01  4.60195299e-01  4.60195299e-01  3.37240533e-09  1.62504651e-07  9.68883924e-08  2.00000000e-01 
 2.10000000e-01  4.60195282e-01  4.60195282e-01  3.14034004e-09  4.60195281e-01  4.60195282e-01  4.60195282e-01  3.37240539e-09  1.62504629e-07  9.68881473e-08  2.10000000e-01 
 2.20000000e-01  4.60195278e-01  4.60195278e-01  3.14034004e-09  4.60195277e-01  4.60195278e-01  4.60195278e-01  3.37240539e-09  1.62504613e-07  9.68880496e-08  2.20000000e-01 
 2.30000000e-01  4.60195287e-01  4.60195287e-01  3.14034004e-09  4.60195287e-01  4.60195287e-01  4.60195287e-01  3.37240533e-09  1.62504627e-07  9.68879714e-08  2.30000000e-01 
 2.40000000e-01  4.60195293e-01  4.60195293e-01  3.14033998e-09  4.60195293e-01  4.60195293e-01  4.60195293e-01  3.37240533e-09  1.62504630e-07  9.68877814e-08  2.40000000e-01 
 2.50000000e-01  4.60195281e-01  4.60195281e-01  3.14034004e-09  4.60195280e-01  4.60195281e-01  4.60195281e-01  3.37240533e-09  1.62504616e-07  9.68875771e-08  2.50000000e-01 
 2.60000000e-01  4.60195294e-01  4.60195294e-01  3.14034004e-09  4.60195294e-01  4.60195294e-01  4.60195294e-01  3.37240539e-09  1.62504644e-07  9.68875167e-08  2.60000000e-01 
 2.70000000e-01  4.60195271e-01  4.60195271e-01  3.14034004e-09  4.60195271e-01  4.60195271e-01  4.60195271e-01  3.37240533e-09  1.62504604e-07  9.68872520e-08  2.70000000e-01 
 2.80000000e-01  4.60195299e-01  4.60195299e-01  3.14034004e-09  4.60195299e-01  4.60195299e-01  4.60195299e-01  3.37240533e-09  1.62504655e-07  9.68871472e-08  2.80000000e-01 
 2.90000000e-01  4.60195301e-01  4.60195301e-01  3.14034004e-09  4.60195301e-01  4.60195301e-01  4.60195301e-01  3.37240539e-09  1.62504662e-07  9.68869998e-08  2.90000000e-01 
 3.00000000e-01  4.60195270e-01  4.60195270e-01  3.14034004e-09  4.60195270e-01  4.60195270e-01  4.60195270e-01  3.37240539e-09  1.62504596e-07  9.68867759e-08  3.00000000e-01 
 3.10000000e-01  4.60195307e-01  4.60195307e-01  3.14034004e-09  4.60195307e-01  4.60195307e-01  4.60195307e-01  3.37240534e-09  1.62504662e-07  9.68869358e-08  3.10000000e-01 
 3.20000000e-01  4.60195286e-01  4.60195286e-01  3.14034004e-09  4.60195286e-01  4.60195286e-01  4.60195286e-01  3.37240533e-09  1.62504628e-07  9.68866800e-08  3.20000000e-01 
 3.30000000e-01  4.60195285e-01  4.60195285e-01  3.14034004e-09  4.60195285e-01  4.60195285e-01  4.60195285e-01  3.37240539e-09  1.62504640e-07  9.68866161e-08  3.30000000e-01 
 3.40000000e-01  4.60195289e-01  4.60195289e-01  3.14034004e-09  4.60195289e-01  4.60195289e-01  4.60195289e-01  3.37240533e-09  1.62504629e-07  9.68864420e-08  3.40000000e-01 
 3.50000000e-01  4.60195276e-01  4.60195276e-01  3.14034004e-09  4.60195276e-01  4.60195276e-01  4.60195276e-01  3.37240539e-09  1.62504613e-07  9.68863993e-08  3.50000000e-01 
 3.60000000e-01  4.60195323e-01  4.60195323e-01  3.14033998e-09  4.60195322e-01  4.60195323e-01  4.60195323e-01  3.37240534e-09  1.62504681e-07  9.68864242e-08  3.60000000e-01 
 3.70000000e-01  4.60195321e-01  4.60195321e-01  3.14034004e-09  4.60195321e-01  4.60195321e-01  4.60195321e-01  3.37240534e-09  1.62504683e-07  9.68862430e-08  3.70000000e-01 
 3.80000000e-01  4.60195297e-01  4.60195297e-01  3.14034004e-09  4.60195297e-01  4.60195297e-01  4.60195297e-01  3.37240533e-09  1.62504626e-07  9.68861151e-08  3.80000000e-01 
 3.90000000e-01  4.60195270e-01  4.60195270e-01  3.14034004e-09  4.60195270e-01  4.60195270e-01  4.60195270e-01  3.37240533e-09  1.62504602e-07  9.68858558e-08  3.90000000e-01 
 4.00000000e-01  4.60195301e-01  4.60195301e-01  3.14034004e-09  4.60195301e-01  4.60195301e-01  4.60195301e-01  3.37240534e-09  1.62504643e-07  9.68859482e-08  4.00000000e-01 
 4.10000000e-01  4.60195280e-01  4.60195280e-01  3.14033998e-09  4.60195280e-01  4.60195280e-01  4.60195280e-01  3.37240533e-09  1.62504618e-07  9.68858167e-08  4.10000000e-01 
 4.20000000e-01  4.60195289e-01  4.60195289e-01  3.14034004e-09  4.60195289e-01  4.60195289e-01  4.60195289e-01  3.37240539e-09  1.62504634e-07  9.68856391e-08  4.20000000e-01 
 4.30000000e-01  4.60195268e-01  4.60195268e-01  3.14034004e-09  4.60195268e-01  4.60195268e-01  4.60195268e-01  3.37240533e-09  1.62504600e-07  9.68855218e-08  4.30000000e-01 
 4.40000000e-01  4.60195312e-01  4.60195312e-01  3.14034004e-09  4.60195312e-01  4.60195312e-01  4.60195312e-01  3.37240534e-09  1.62504661e-07  9.68856781e-08  4.40000000e-01 
 4.50000000e-01  4.60195277e-01  4.60195277e-01  3.14034004e-09  4.60195277e-01  4.60195277e-01  4.60195277e-01  3.37240533e-09  1.62504627e-07  9.68855218e-08  4.50000000e-01 
 4.60000000e-01  4.60195266e-01  4.60195266e-01  3.14034004e-09  4.60195266e-01  4.60195266e-01  4.60195266e-01  3.37240539e-09  1.62504603e-07  9.68853229e-08  4.60000000e-01 
 4.70000000e-01  4.60195294e-01  4.60195294e-01  3.14034004e-09  4.60195294e-01  4.60195294e-01  4.60195294e-01  3.37240533e-09  1.62504644e-07  9.68852198e-08  4.70000000e-01 
 4.80000000e-01  4.60195284e-01  4.60195284e-01  3.14034004e-09  4.60195283e-01  4.60195284e-01  4.60195284e-01  3.37240533e-09  1.62504615e-07  9.68851595e-08  4.80000000e-01 
 4.90000000e-01  4.60195267e-01  4.60195267e-01  3.14034004e-09  4.60195267e-01  4.60195267e-01  4.60195267e-01  3.37240539e-09  1.62504615e-07  9.68852021e-08  4.90000000e-01 
 5.00000000e-01  4.60195294e-01  4.60195294e-01  3.14034004e-09  4.60195294e-01  4.60195294e-01  4.60195294e-01  3.37240539e-09  1.62504649e-07  9.68850067e-08  5.00000000e-01 
 5.10000000e-01  4.60195284e-01  4.60195284e-01  3.14034004e-09  4.60195284e-01  4.60195284e-01  4.60195284e-01  3.37240539e-09  1.62504617e-07  9.68850387e-08  5.10000000e-01 
 5.20000000e-01  4.60195287e-01  4.60195287e-01  3.14033998e-09  4.60195287e-01  4.60195287e-01  4.60195287e-01  3.37240533e-09  1.62504646e-07  9.68848930e-08  5.20000000e-01 
 5.30000000e-01  4.60195291e-01  4.60195291e-01  3.14034004e-09  4.60195291e-01  4.60195291e-01  4.60195291e-01  3.37240533e-09  1.62504637e-07  9.68848965e-08  5.30000000e-01 
 5.40000000e-01  4.60195287e-01  4.60195287e-01  3.14034004e-09  4.60195287e-01  4.60195287e-01  4.60195287e-01  3.37240533e-09  1.62504634e-07  9.68847473e-08  5.40000000e-01 
 5.50000000e-01  4.60195285e-01  4.60195285e-01  3.14033998e-09  4.60195285e-01  4.60195285e-01  4.60195285e-01  3.37240539e-09  1.62504632e-07  9.68847260e-08  5.50000000e-01 
 5.60000000e-01  4.60195292e-01  4.60195292e-01  3.14034004e-09  4.60195292e-01  4.60195292e-01  4.60195292e-01  3.37240539e-09  1.62504637e-07  9.68846869e-08  5.60000000e-01 
 5.70000000e-01  4.60195296e-01  4.60195296e-01  3.14034004e-09  4.60195296e-01  4.60195296e-01  4.60195296e-01  3.37240533e-09  1.62504642e-07  9.68846443e-08  5.70000000e-01 
 5.80000000e-01  4.60195280e-01  4.60195280e-01  3.14034004e-09  4.60195279e-01  4.60195280e-01  4.60195280e-01  3.37240539e-09  1.62504611e-07  9.68843636e-08  5.80000000e-01 
 5.90000000e-01  4.60195289e-01  4.60195289e-01  3.14034004e-09  4.60195289e-01  4.60195289e-01  4.60195289e-01  3.37240539e-09  1.62504632e-07  9.68844773e-08  5.90000000e-01 
 6.00000000e-01  4.60195292e-01  4.60195292e-01  3.14034004e-09  4.60195292e-01  4.60195292e-01  4.60195292e-01  3.37240539e-09  1.62504631e-07  9.68843707e-08  6.00000000e-01 
 6.10000000e-01  4.60195291e-01  4.60195291e-01  3.14034004e-09  4.60195291e-01  4.60195291e-01  4.60195291e-01  3.37240533e-09  1.62504634e-07  9.68842144e-08  6.10000000e-01 
 6.20000000e-01  4.60195288e-01  4.60195288e-01  3.14034004e-09  4.60195288e-01  4.60195288e-01  4.60195288e-01  3.37240533e-09  1.62504632e-07  9.68841576e-08  6.20000000e-01 
 6.30000000e-01  4.60195311e-01  4.60195311e-01  3.14034004e-09  4.60195311e-01  4.60195311e-01  4.60195311e-01  3.37240534e-09  1.62504664e-07  9.68842357e-08  6.30000000e-01 
 6.40000000e-01  4.60195296e-01  4.60195296e-01  3.14033998e-09  4.60195296e-01  4.60195296e-01  4.60195296e-01  3.37240539e-09  1.62504637e-07  9.68840794e-08  6.40000000e-01 
 6.50000000e-01  4.60195300e-01  4.60195300e-01  3.14033998e-09  4.60195300e-01  4.60195300e-01  4.60195300e-01  3.37240534e-09  1.62504655e-07  9.68840226e-08  6.50000000e-01 
 6.60000000e-01  4.60195289e-01  4.60195289e-01  3.14034004e-09  4.60195289e-01  4.60195289e-01  4.60195289e-01  3.37240533e-09  1.62504632e-07  9.68839657e-08  6.60000000e-01 
 6.70000000e-01  4.60195279e-01  4.60195279e-01  3.14033998e-09  4.60195279e-01  4.60195279e-01  4.60195279e-01  3.37240533e-09  1.62504623e-07  9.68838165e-08  6.70000000e-01 
 6.80000000e-01  4.60195303e-01  4.60195303e-01  3.14034004e-09  4.60195303e-01  4.60195303e-01  4.60195303e-01  3.37240534e-09  1.62504646e-07  9.68837952e-08  6.80000000e-01 
 6.90000000e-01  4.60195296e-01  4.60195296e-01  3.14034004e-09  4.60195296e-01  4.60195296e-01  4.60195296e-01  3.37240539e-09  1.62504638e-07  9.68837099e-08  6.90000000e-01 
 7.00000000e-01  4.60195291e-01  4.60195291e-01  3.14034004e-09  4.60195291e-01  4.60195291e-01  4.60195291e-01  3.37240539e-09  1.62504633e-07  9.68835892e-08  7.00000000e-01 
 7.10000000e-01  4.60195309e-01  4.60195310e-01  3.14034004e-09  4.60195309e-01  4.60195310e-01  4.60195310e-01  3.37240539e-09  1.62504658e-07  9.68836034e-08  7.10000000e-01 
 7.20000000e-01  4.60195275e-01  4.60195275e-01  3.14034004e-09  4.60195275e-01  4.60195275e-01  4.60195275e-01  3.37240533e-09  1.62504612e-07  9.68834115e-08  7.20000000e-01 
 7.30000000e-01  4.60195284e-01  4.60195284e-01  3.14034004e-09  4.60195284e-01  4.60195284e-01  4.60195284e-01  3.37240539e-09  1.62504628e-07  9.68833191e-08  7.30000000e-01 
 7.40000000e-01  4.60195281e-01  4.60195281e-01  3.14034004e-09  4.60195281e-01  4.60195281e-01  4.60195281e-01  3.37240539e-09  1.62504616e-07  9.68833902e-08  7.40000000e-01 
 7.50000000e-01  4.60195287e-01  4.60195287e-01  3.14034004e-09  4.60195287e-01  4.60195287e-01  4.60195287e-01  3.37240533e-09  1.62504631e-07  9.68832197e-08  7.50000000e-01 
 7.60000000e-01  4.60195297e-01  4.60195297e-01  3.14034004e-09  4.60195297e-01  4.60195297e-01  4.60195297e-01  3.37240533e-09  1.62504627e-07  9.68830918e-08  7.60000000e-01 
 7.70000000e-01  4.60195266e-01  4.60195266e-01  3.14034004e-09  4.60195266e-01  4.60195266e-01  4.60195266e-01  3.37240539e-09  1.62504609e-07  9.68829639e-08  7.70000000e-01 
 7.80000000e-01  4.60195282e-01  4.60195282e-01  3.14033998e-09  4.60195282e-01  4.60195282e-01  4.60195282e-01  3.37240533e-09  1.62504632e-07  9.68830349e-08  7.80000000e-01 
 7.90000000e-01  4.60195305e-01  4.60195305e-01  3.14034004e-09  4.60195305e-01  4.60195305e-01  4.60195305e-01  3.37240534e-09  1.62504647e-07  9.68828999e-08  7.90000000e-01 
 8.00000000e-01  4.60195291e-01  4.60195291e-01  3.14034004e-09  4.60195291e-01  4.60195291e-01  4.60195291e-01  3.37240533e-09  1.62504636e-07  9.68828786e-08  8.00000000e-01 
 8.10000000e-01  4.60195296e-01  4.60195296e-01  3.14034004e-09  4.60195296e-01  4.60195296e-01  4.60195296e-01  3.37240539e-09  1.62504648e-07  9.68828218e-08  8.10000000e-01 
 8.20000000e-01  4.60195281e-01  4.60195281e-01  3.14034004e-09  4.60195281e-01  4.60195281e-01  4.60195281e-01  3.37240533e-09  1.62504617e-07  9.68826868e-08  8.20000000e-01 
 8.30000000e-01  4.60195299e-01  4.60195299e-01  3.14034004e-09  4.60195299e-01  4.60195299e-01  4.60195299e-01  3.37240533e-09  1.62504641e-07  9.68826370e-08  8.30000000e-01 
 8.40000000e-01  4.60195267e-01  4.60195267e-01  3.14033998e-09  4.60195267e-01  4.60195267e-01  4.60195267e-01  3.37240539e-09  1.62504588e-07  9.68825518e-08  8.40000000e-01 
 8.50000000e-01  4.60195297e-01  4.60195297e-01  3.14034004e-09  4.60195297e-01  4.60195297e-01  4.60195297e-01  3.37240539e-09  1.62504641e-07  9.68825447e-08  8.50000000e-01 
 8.60000000e-01  4.60195268e-01  4.60195268e-01  3.14034004e-09  4.60195268e-01  4.60195268e-01  4.60195268e-01  3.37240533e-09  1.62504596e-07  9.68824239e-08  8.60000000e-01 
 8.70000000e-01  4.60195311e-01  4.60195311e-01  3.14034004e-09  4.60195311e-01  4.60195311e-01  4.60195311e-01  3.37240534e-09  1.62504670e-07  9.68824523e-08  8.70000000e-01 
 8.80000000e-01  4.60195280e-01  4.60195280e-01  3.14034004e-09  4.60195280e-01  4.60195280e-01  4.60195280e-01  3.37240533e-09  1.62504624e-07  9.68823031e-08  8.80000000e-01 
 8.90000000e-01  4.60195306e-01  4.60195306e-01  3.14034004e-09  4.60195306e-01  4.60195306e-01  4.60195306e-01  3.37240539e-09  1.62504672e-07  9.68822746e-08  8.90000000e-01 
 9.00000000e-01  4.60195268e-01  4.60195268e-01  3.14034004e-09  4.60195268e-01  4.60195268e-01  4.60195268e-01  3.37240533e-09  1.62504596e-07  9.68820615e-08  9.00000000e-01 
 9.10000000e-01  4.60195284e-01  4.60195284e-01  3.14033998e-09  4.60195284e-01  4.60195284e-01  4.60195284e-01  3.37240533e-09  1.62504626e-07  9.68820189e-08  9.10000000e-01 
 9.20000000e-01  4.60195296e-01  4.60195296e-01  3.14034004e-09  4.60195296e-01  4.60195296e-01  4.60195296e-01  3.37240539e-09  1.62504641e-07  9.68820544e-08  9.20000000e-01 
 9.30000000e-01  4.60195258e-01  4.60195258e-01  3.14034004e-09  4.60195258e-01  4.60195258e-01  4.60195258e-01  3.37240539e-09  1.62504576e-07  9.68818483e-08  9.30000000e-01 
 9.40000000e-01  4.60195291e-01  4.60195291e-01  3.14034004e-09  4.60195291e-01  4.60195291e-01  4.60195291e-01  3.37240533e-09  1.62504625e-07  9.68818270e-08  9.40000000e-01 
 9.50000000e-01  4.60195285e-01  4.60195285e-01  3.14033998e-09  4.60195285e-01  4.60195285e-01  4.60195285e-01  3.37240533e-09  1.62504627e-07  9.68817560e-08  9.50000000e-01 
 9.60000000e-01  4.60195301e-01  4.60195301e-01  3.14034004e-09  4.60195301e-01  4.60195301e-01  4.60195301e-01  3.37240539e-09  1.62504653e-07  9.68816138e-08  9.60000000e-01 
 9.70000000e-01  4.60195303e-01  4.60195303e-01  3.14033998e-09  4.60195303e-01  4.60195303e-01  4.60195303e-01  3.37240534e-09  1.62504647e-07  9.68815357e-08  9.70000000e-01 
 9.80000000e-01  4.60195264e-01  4.60195264e-01  3.14034004e-09  4.60195264e-01  4.60195264e-01  4.60195264e-01  3.37240533e-09  1.62504600e-07  9.68815144e-08  9.80000000e-01 
 9.90000000e-01  4.60195286e-01  4.60195286e-01  3.14034004e-09  4.60195286e-01  4.60195286e-01  4.60195286e-01  3.37240539e-09  1.62504645e-07  9.68814149e-08  9.90000000e-01 
 1.00000000e+00  4.60195294e-01  4.60195294e-01  3.14033998e-09  4.60195294e-01  4.60195294e-01  4.60195294e-01  3.37240539e-09  1.62504632e-07  9.68814007e-08  1.00000000e+00 
 1.01000000e+00  4.60195304e-01  4.60195304e-01  3.14034004e-09  4.60195304e-01  4.60195304e-01  4.60195304e-01  3.37240534e-09  1.62504652e-07  9.68813865e-08  1.01000000e+00 
 1.02000000e+00  4.60195304e-01  4.60195304e-01  3.14034004e-09  4.60195304e-01  4.60195304e-01  4.60195304e-01  3.37240539e-09  1.62504659e-07  9.68810951e-08  1.02000000e+00 
 1.03000000e+00  4.60195279e-01  4.60195279e-01  3.14033998e-09  4.60195279e-01  4.60195279e-01  4.60195279e-01  3.37240533e-09  1.62504619e-07  9.68810809e-08  1.03000000e+00 
 1.04000000e+00  4.60195283e-01  4.60195283e-01  3.14033998e-09  4.60195283e-01  4.60195283e-01  4.60195283e-01  3.37240533e-09  1.62504635e-07  9.68810809e-08  1.04000000e+00 
 1.05000000e+00  4.60195288e-01  4.60195288e-01  3.14034004e-09  4.60195288e-01  4.60195288e-01  4.60195288e-01  3.37240533e-09  1.62504623e-07  9.68808749e-08  1.05000000e+00 
 1.06000000e+00  4.60195296e-01  4.60195296e-01  3.14034004e-09  4.60195296e-01  4.60195296e-01  4.60195296e-01  3.37240533e-09  1.62504641e-07  9.68807470e-08  1.06000000e+00 
 1.07000000e+00  4.60195270e-01  4.60195270e-01  3.14033998e-09  4.60195270e-01  4.60195270e-01  4.60195270e-01  3.37240533e-09  1.62504593e-07  9.68806901e-08  1.07000000e+00 
 1.08000000e+00  4.60195293e-01  4.60195293e-01  3.14034004e-09  4.60195293e-01  4.60195293e-01  4.60195293e-01  3.37240533e-09  1.62504644e-07  9.68806049e-08  1.08000000e+00 
 1.09000000e+00  4.60195267e-01  4.60195267e-01  3.14034004e-09  4.60195267e-01  4.60195267e-01  4.60195267e-01  3.37240533e-09  1.62504609e-07  9.68805054e-08  1.09000000e+00 
 1.10000000e+00  4.60195301e-01  4.60195301e-01  3.14034004e-09  4.60195300e-01  4.60195301e-01  4.60195301e-01  3.37240539e-09  1.62504656e-07  9.68804983e-08  1.10000000e+00 
