 v-sweep         v(b0)           v(b1)           v(b2)           v(b3)           v(b4)           v(b5)           v(b6)           i(vbias)        i(viout)        v(vout)        
 0.00000000e+00  4.54465656e-01  3.17238147e-09  4.54465656e-01  3.32926966e-09  3.08378520e-09  3.32680861e-09  3.55379813e-09  1.53189785e-07  7.04479043e-09  0.00000000e+00 
 1.00000000e-02  4.54465677e-01  3.17238151e-09  4.54465677e-01  3.32926964e-09  3.08378518e-09  3.32680854e-09  3.55379816e-09  1.53189816e-07  7.04431147e-09  1.00000000e-02 
 2.00000000e-02  4.54465714e-01  3.17238150e-09  4.54465714e-01  3.32926970e-09  3.08378513e-09  3.32680860e-09  3.55379817e-09  1.53189870e-07  7.04395675e-09  2.00000000e-02 
 3.00000000e-02  4.54465677e-01  3.17238145e-09  4.54465677e-01  3.32926970e-09  3.08378513e-09  3.32680860e-09  3.55379816e-09  1.53189809e-07  7.04377157e-09  3.00000000e-02 
 4.00000000e-02  4.54465697e-01  3.17238146e-09  4.54465697e-01  3.32926964e-09  3.08378519e-09  3.32680860e-09  3.55379816e-09  1.53189831e-07  7.04323710e-09  4.00000000e-02 
 5.00000000e-02  4.54465695e-01  3.17238146e-09  4.54465695e-01  3.32926970e-09  3.08378513e-09  3.32680860e-09  3.55379811e-09  1.53189843e-07  7.04301684e-09  5.00000000e-02 
 6.00000000e-02  4.54465694e-01  3.17238146e-09  4.54465694e-01  3.32926964e-09  3.08378519e-09  3.32680860e-09  3.55379811e-09  1.53189843e-07  7.04259850e-09  6.00000000e-02 
 7.00000000e-02  4.54465673e-01  3.17238145e-09  4.54465673e-01  3.32926964e-09  3.08378513e-09  3.32680860e-09  3.55379816e-09  1.53189817e-07  7.04230940e-09  7.00000000e-02 
 8.00000000e-02  4.54465680e-01  3.17238151e-09  4.54465680e-01  3.32926964e-09  3.08378518e-09  3.32680860e-09  3.55379816e-09  1.53189810e-07  7.04206826e-09  8.00000000e-02 
 9.00000000e-02  4.54465698e-01  3.17238144e-09  4.54465698e-01  3.32926964e-09  3.08378513e-09  3.32680860e-09  3.55379811e-09  1.53189838e-07  7.04181513e-09  9.00000000e-02 
 1.00000000e-01  4.54465691e-01  3.17238146e-09  4.54465691e-01  3.32926970e-09  3.08378519e-09  3.32680860e-09  3.55379816e-09  1.53189837e-07  7.04160374e-09  1.00000000e-01 
 1.10000000e-01  4.54465677e-01  3.17238151e-09  4.54465678e-01  3.32926970e-09  3.08378513e-09  3.32680860e-09  3.55379811e-09  1.53189797e-07  7.04124137e-09  1.10000000e-01 
 1.20000000e-01  4.54465687e-01  3.17238150e-09  4.54465687e-01  3.32926970e-09  3.08378513e-09  3.32680860e-09  3.55379816e-09  1.53189830e-07  7.04111525e-09  1.20000000e-01 
 1.30000000e-01  4.54465704e-01  3.17238145e-09  4.54465704e-01  3.32926970e-09  3.08378519e-09  3.32680860e-09  3.55379817e-09  1.53189861e-07  7.04094383e-09  1.30000000e-01 
 1.40000000e-01  4.54465688e-01  3.17238146e-09  4.54465688e-01  3.32926964e-09  3.08378518e-09  3.32680860e-09  3.55379816e-09  1.53189823e-07  7.04076975e-09  1.40000000e-01 
 1.50000000e-01  4.54465692e-01  3.17238146e-09  4.54465692e-01  3.32926970e-09  3.08378519e-09  3.32680860e-09  3.55379816e-09  1.53189830e-07  7.04052638e-09  1.50000000e-01 
 1.60000000e-01  4.54465707e-01  3.17238146e-09  4.54465707e-01  3.32926964e-09  3.08378519e-09  3.32680854e-09  3.55379811e-09  1.53189854e-07  7.04025105e-09  1.60000000e-01 
 1.70000000e-01  4.54465668e-01  3.17238145e-09  4.54465668e-01  3.32926964e-09  3.08378518e-09  3.32680860e-09  3.55379816e-09  1.53189800e-07  7.04014447e-09  1.70000000e-01 
 1.80000000e-01  4.54465675e-01  3.17238151e-09  4.54465675e-01  3.32926964e-09  3.08378518e-09  3.32680854e-09  3.55379811e-09  1.53189816e-07  7.03994552e-09  1.80000000e-01 
 1.90000000e-01  4.54465675e-01  3.17238144e-09  4.54465675e-01  3.32926964e-09  3.08378518e-09  3.32680854e-09  3.55379811e-09  1.53189804e-07  7.03978031e-09  1.90000000e-01 
 2.00000000e-01  4.54465694e-01  3.17238146e-09  4.54465694e-01  3.32926964e-09  3.08378513e-09  3.32680860e-09  3.55379816e-09  1.53189823e-07  7.03968084e-09  2.00000000e-01 
 2.10000000e-01  4.54465672e-01  3.17238145e-09  4.54465672e-01  3.32926964e-09  3.08378513e-09  3.32680860e-09  3.55379816e-09  1.53189807e-07  7.03944103e-09  2.10000000e-01 
 2.20000000e-01  4.54465665e-01  3.17238151e-09  4.54465665e-01  3.32926964e-09  3.08378513e-09  3.32680860e-09  3.55379816e-09  1.53189808e-07  7.03935399e-09  2.20000000e-01 
 2.30000000e-01  4.54465696e-01  3.17238150e-09  4.54465696e-01  3.32926964e-09  3.08378519e-09  3.32680860e-09  3.55379811e-09  1.53189847e-07  7.03931669e-09  2.30000000e-01 
 2.40000000e-01  4.54465659e-01  3.17238151e-09  4.54465659e-01  3.32926964e-09  3.08378513e-09  3.32680854e-09  3.55379811e-09  1.53189784e-07  7.03903247e-09  2.40000000e-01 
 2.50000000e-01  4.54465673e-01  3.17238151e-09  4.54465673e-01  3.32926970e-09  3.08378518e-09  3.32680860e-09  3.55379811e-09  1.53189807e-07  7.03890812e-09  2.50000000e-01 
 2.60000000e-01  4.54465667e-01  3.17238145e-09  4.54465668e-01  3.32926964e-09  3.08378513e-09  3.32680860e-09  3.55379811e-09  1.53189804e-07  7.03891523e-09  2.60000000e-01 
 2.70000000e-01  4.54465692e-01  3.17238146e-09  4.54465692e-01  3.32926970e-09  3.08378519e-09  3.32680860e-09  3.55379811e-09  1.53189835e-07  7.03869141e-09  2.70000000e-01 
 2.80000000e-01  4.54465697e-01  3.17238146e-09  4.54465697e-01  3.32926964e-09  3.08378519e-09  3.32680860e-09  3.55379811e-09  1.53189842e-07  7.03866121e-09  2.80000000e-01 
 2.90000000e-01  4.54465701e-01  3.17238146e-09  4.54465701e-01  3.32926970e-09  3.08378519e-09  3.32680860e-09  3.55379811e-09  1.53189844e-07  7.03855108e-09  2.90000000e-01 
 3.00000000e-01  4.54465684e-01  3.17238146e-09  4.54465684e-01  3.32926964e-09  3.08378513e-09  3.32680860e-09  3.55379811e-09  1.53189836e-07  7.03828462e-09  3.00000000e-01 
 3.10000000e-01  4.54465694e-01  3.17238151e-09  4.54465694e-01  3.32926970e-09  3.08378519e-09  3.32680860e-09  3.55379811e-09  1.53189823e-07  7.03826331e-09  3.10000000e-01 
 3.20000000e-01  4.54465692e-01  3.17238150e-09  4.54465692e-01  3.32926964e-09  3.08378519e-09  3.32680860e-09  3.55379816e-09  1.53189833e-07  7.03822778e-09  3.20000000e-01 
 3.30000000e-01  4.54465670e-01  3.17238145e-09  4.54465670e-01  3.32926964e-09  3.08378518e-09  3.32680854e-09  3.55379811e-09  1.53189804e-07  7.03818515e-09  3.30000000e-01 
 3.40000000e-01  4.54465682e-01  3.17238146e-09  4.54465682e-01  3.32926964e-09  3.08378513e-09  3.32680860e-09  3.55379816e-09  1.53189818e-07  7.03814251e-09  3.40000000e-01 
 3.50000000e-01  4.54465679e-01  3.17238146e-09  4.54465680e-01  3.32926970e-09  3.08378518e-09  3.32680860e-09  3.55379816e-09  1.53189831e-07  7.03786540e-09  3.50000000e-01 
 3.60000000e-01  4.54465659e-01  3.17238151e-09  4.54465660e-01  3.32926969e-09  3.08378518e-09  3.32680860e-09  3.55379811e-09  1.53189786e-07  7.03785119e-09  3.60000000e-01 
 3.70000000e-01  4.54465691e-01  3.17238144e-09  4.54465691e-01  3.32926964e-09  3.08378519e-09  3.32680860e-09  3.55379811e-09  1.53189843e-07  7.03773395e-09  3.70000000e-01 
 3.80000000e-01  4.54465688e-01  3.17238146e-09  4.54465688e-01  3.32926970e-09  3.08378513e-09  3.32680860e-09  3.55379811e-09  1.53189841e-07  7.03785119e-09  3.80000000e-01 
 3.90000000e-01  4.54465687e-01  3.17238146e-09  4.54465687e-01  3.32926964e-09  3.08378513e-09  3.32680860e-09  3.55379816e-09  1.53189830e-07  7.03758829e-09  3.90000000e-01 
 4.00000000e-01  4.54465701e-01  3.17238151e-09  4.54465701e-01  3.32926964e-09  3.08378513e-09  3.32680860e-09  3.55379816e-09  1.53189850e-07  7.03771974e-09  4.00000000e-01 
 4.10000000e-01  4.54465690e-01  3.17238144e-09  4.54465691e-01  3.32926964e-09  3.08378513e-09  3.32680854e-09  3.55379811e-09  1.53189832e-07  7.03750302e-09  4.10000000e-01 
 4.20000000e-01  4.54465688e-01  3.17238146e-09  4.54465688e-01  3.32926970e-09  3.08378518e-09  3.32680860e-09  3.55379811e-09  1.53189830e-07  7.03754921e-09  4.20000000e-01 
 4.30000000e-01  4.54465688e-01  3.17238151e-09  4.54465688e-01  3.32926964e-09  3.08378518e-09  3.32680860e-09  3.55379816e-09  1.53189824e-07  7.03738579e-09  4.30000000e-01 
 4.40000000e-01  4.54465683e-01  3.17238144e-09  4.54465683e-01  3.32926964e-09  3.08378513e-09  3.32680860e-09  3.55379811e-09  1.53189804e-07  7.03727565e-09  4.40000000e-01 
 4.50000000e-01  4.54465699e-01  3.17238146e-09  4.54465699e-01  3.32926964e-09  3.08378519e-09  3.32680860e-09  3.55379811e-09  1.53189850e-07  7.03720104e-09  4.50000000e-01 
 4.60000000e-01  4.54465679e-01  3.17238146e-09  4.54465679e-01  3.32926964e-09  3.08378518e-09  3.32680860e-09  3.55379811e-09  1.53189821e-07  7.03718683e-09  4.60000000e-01 
 4.70000000e-01  4.54465667e-01  3.17238145e-09  4.54465667e-01  3.32926964e-09  3.08378518e-09  3.32680860e-09  3.55379816e-09  1.53189811e-07  7.03721170e-09  4.70000000e-01 
 4.80000000e-01  4.54465662e-01  3.17238145e-09  4.54465662e-01  3.32926964e-09  3.08378518e-09  3.32680860e-09  3.55379811e-09  1.53189775e-07  7.03710512e-09  4.80000000e-01 
 4.90000000e-01  4.54465680e-01  3.17238146e-09  4.54465680e-01  3.32926964e-09  3.08378518e-09  3.32680860e-09  3.55379811e-09  1.53189823e-07  7.03700564e-09  4.90000000e-01 
 5.00000000e-01  4.54465696e-01  3.17238146e-09  4.54465696e-01  3.32926964e-09  3.08378519e-09  3.32680860e-09  3.55379816e-09  1.53189845e-07  7.03690617e-09  5.00000000e-01 
 5.10000000e-01  4.54465701e-01  3.17238146e-09  4.54465701e-01  3.32926970e-09  3.08378513e-09  3.32680860e-09  3.55379811e-09  1.53189849e-07  7.03677472e-09  5.10000000e-01 
 5.20000000e-01  4.54465702e-01  3.17238146e-09  4.54465702e-01  3.32926964e-09  3.08378513e-09  3.32680860e-09  3.55379816e-09  1.53189858e-07  7.03687064e-09  5.20000000e-01 
 5.30000000e-01  4.54465677e-01  3.17238151e-09  4.54465677e-01  3.32926964e-09  3.08378518e-09  3.32680860e-09  3.55379811e-09  1.53189824e-07  7.03678538e-09  5.30000000e-01 
 5.40000000e-01  4.54465684e-01  3.17238144e-09  4.54465684e-01  3.32926964e-09  3.08378513e-09  3.32680860e-09  3.55379816e-09  1.53189826e-07  7.03682090e-09  5.40000000e-01 
 5.50000000e-01  4.54465664e-01  3.17238146e-09  4.54465665e-01  3.32926964e-09  3.08378518e-09  3.32680860e-09  3.55379816e-09  1.53189802e-07  7.03670011e-09  5.50000000e-01 
 5.60000000e-01  4.54465654e-01  3.17238145e-09  4.54465654e-01  3.32926969e-09  3.08378513e-09  3.32680860e-09  3.55379816e-09  1.53189768e-07  7.03652603e-09  5.60000000e-01 
 5.70000000e-01  4.54465693e-01  3.17238151e-09  4.54465693e-01  3.32926964e-09  3.08378519e-09  3.32680860e-09  3.55379811e-09  1.53189834e-07  7.03656511e-09  5.70000000e-01 
 5.80000000e-01  4.54465684e-01  3.17238150e-09  4.54465684e-01  3.32926964e-09  3.08378513e-09  3.32680860e-09  3.55379811e-09  1.53189818e-07  7.03644076e-09  5.80000000e-01 
 5.90000000e-01  4.54465675e-01  3.17238145e-09  4.54465676e-01  3.32926970e-09  3.08378518e-09  3.32680854e-09  3.55379811e-09  1.53189810e-07  7.03654024e-09  5.90000000e-01 
 6.00000000e-01  4.54465686e-01  3.17238146e-09  4.54465686e-01  3.32926964e-09  3.08378513e-09  3.32680860e-09  3.55379816e-09  1.53189823e-07  7.03641945e-09  6.00000000e-01 
 6.10000000e-01  4.54465671e-01  3.17238145e-09  4.54465671e-01  3.32926970e-09  3.08378518e-09  3.32680860e-09  3.55379816e-09  1.53189805e-07  7.03631287e-09  6.10000000e-01 
 6.20000000e-01  4.54465683e-01  3.17238146e-09  4.54465683e-01  3.32926970e-09  3.08378518e-09  3.32680854e-09  3.55379811e-09  1.53189817e-07  7.03630576e-09  6.20000000e-01 
 6.30000000e-01  4.54465666e-01  3.17238145e-09  4.54465666e-01  3.32926970e-09  3.08378513e-09  3.32680860e-09  3.55379811e-09  1.53189794e-07  7.03627023e-09  6.30000000e-01 
 6.40000000e-01  4.54465703e-01  3.17238146e-09  4.54465703e-01  3.32926970e-09  3.08378519e-09  3.32680860e-09  3.55379816e-09  1.53189841e-07  7.03622760e-09  6.40000000e-01 
 6.50000000e-01  4.54465705e-01  3.17238146e-09  4.54465705e-01  3.32926970e-09  3.08378513e-09  3.32680860e-09  3.55379811e-09  1.53189854e-07  7.03620628e-09  6.50000000e-01 
 6.60000000e-01  4.54465689e-01  3.17238146e-09  4.54465689e-01  3.32926964e-09  3.08378519e-09  3.32680860e-09  3.55379816e-09  1.53189834e-07  7.03604286e-09  6.60000000e-01 
 6.70000000e-01  4.54465706e-01  3.17238151e-09  4.54465706e-01  3.32926970e-09  3.08378513e-09  3.32680860e-09  3.55379811e-09  1.53189862e-07  7.03609260e-09  6.70000000e-01 
 6.80000000e-01  4.54465700e-01  3.17238144e-09  4.54465700e-01  3.32926964e-09  3.08378519e-09  3.32680860e-09  3.55379811e-09  1.53189864e-07  7.03597891e-09  6.80000000e-01 
 6.90000000e-01  4.54465674e-01  3.17238152e-09  4.54465674e-01  3.32926964e-09  3.08378518e-09  3.32680860e-09  3.55379816e-09  1.53189822e-07  7.03590075e-09  6.90000000e-01 
 7.00000000e-01  4.54465666e-01  3.17238150e-09  4.54465666e-01  3.32926970e-09  3.08378518e-09  3.32680860e-09  3.55379811e-09  1.53189811e-07  7.03594338e-09  7.00000000e-01 
 7.10000000e-01  4.54465698e-01  3.17238151e-09  4.54465698e-01  3.32926970e-09  3.08378519e-09  3.32680860e-09  3.55379811e-09  1.53189834e-07  7.03577285e-09  7.10000000e-01 
 7.20000000e-01  4.54465667e-01  3.17238151e-09  4.54465667e-01  3.32926970e-09  3.08378513e-09  3.32680854e-09  3.55379811e-09  1.53189797e-07  7.03561653e-09  7.20000000e-01 
 7.30000000e-01  4.54465692e-01  3.17238145e-09  4.54465692e-01  3.32926970e-09  3.08378519e-09  3.32680860e-09  3.55379811e-09  1.53189837e-07  7.03570180e-09  7.30000000e-01 
 7.40000000e-01  4.54465678e-01  3.17238146e-09  4.54465678e-01  3.32926970e-09  3.08378518e-09  3.32680860e-09  3.55379816e-09  1.53189804e-07  7.03564496e-09  7.40000000e-01 
 7.50000000e-01  4.54465686e-01  3.17238146e-09  4.54465686e-01  3.32926964e-09  3.08378518e-09  3.32680860e-09  3.55379811e-09  1.53189816e-07  7.03563785e-09  7.50000000e-01 
 7.60000000e-01  4.54465671e-01  3.17238145e-09  4.54465671e-01  3.32926964e-09  3.08378518e-09  3.32680860e-09  3.55379816e-09  1.53189812e-07  7.03562364e-09  7.60000000e-01 
 7.70000000e-01  4.54465691e-01  3.17238151e-09  4.54465691e-01  3.32926964e-09  3.08378513e-09  3.32680860e-09  3.55379811e-09  1.53189833e-07  7.03550995e-09  7.70000000e-01 
 7.80000000e-01  4.54465689e-01  3.17238150e-09  4.54465689e-01  3.32926970e-09  3.08378519e-09  3.32680860e-09  3.55379811e-09  1.53189839e-07  7.03552416e-09  7.80000000e-01 
 7.90000000e-01  4.54465686e-01  3.17238151e-09  4.54465686e-01  3.32926964e-09  3.08378518e-09  3.32680860e-09  3.55379811e-09  1.53189815e-07  7.03542469e-09  7.90000000e-01 
 8.00000000e-01  4.54465691e-01  3.17238145e-09  4.54465691e-01  3.32926970e-09  3.08378513e-09  3.32680860e-09  3.55379816e-09  1.53189841e-07  7.03538205e-09  8.00000000e-01 
 8.10000000e-01  4.54465708e-01  3.17238146e-09  4.54465708e-01  3.32926964e-09  3.08378513e-09  3.32680860e-09  3.55379811e-09  1.53189861e-07  7.03533942e-09  8.10000000e-01 
 8.20000000e-01  4.54465667e-01  3.17238145e-09  4.54465667e-01  3.32926964e-09  3.08378518e-09  3.32680860e-09  3.55379811e-09  1.53189805e-07  7.03528968e-09  8.20000000e-01 
 8.30000000e-01  4.54465680e-01  3.17238146e-09  4.54465680e-01  3.32926964e-09  3.08378518e-09  3.32680860e-09  3.55379811e-09  1.53189816e-07  7.03514758e-09  8.30000000e-01 
 8.40000000e-01  4.54465690e-01  3.17238146e-09  4.54465690e-01  3.32926970e-09  3.08378519e-09  3.32680860e-09  3.55379811e-09  1.53189838e-07  7.03524705e-09  8.40000000e-01 
 8.50000000e-01  4.54465696e-01  3.17238146e-09  4.54465696e-01  3.32926964e-09  3.08378519e-09  3.32680860e-09  3.55379811e-09  1.53189848e-07  7.03497705e-09  8.50000000e-01 
 8.60000000e-01  4.54465688e-01  3.17238151e-09  4.54465688e-01  3.32926970e-09  3.08378513e-09  3.32680860e-09  3.55379816e-09  1.53189825e-07  7.03499126e-09  8.60000000e-01 
 8.70000000e-01  4.54465668e-01  3.17238144e-09  4.54465668e-01  3.32926964e-09  3.08378518e-09  3.32680860e-09  3.55379816e-09  1.53189786e-07  7.03505521e-09  8.70000000e-01 
 8.80000000e-01  4.54465680e-01  3.17238146e-09  4.54465680e-01  3.32926970e-09  3.08378518e-09  3.32680860e-09  3.55379811e-09  1.53189826e-07  7.03496994e-09  8.80000000e-01 
 8.90000000e-01  4.54465693e-01  3.17238146e-09  4.54465693e-01  3.32926970e-09  3.08378519e-09  3.32680860e-09  3.55379811e-09  1.53189842e-07  7.03490599e-09  8.90000000e-01 
 9.00000000e-01  4.54465676e-01  3.17238151e-09  4.54465676e-01  3.32926964e-09  3.08378518e-09  3.32680860e-09  3.55379811e-09  1.53189814e-07  7.03465730e-09  9.00000000e-01 
 9.10000000e-01  4.54465679e-01  3.17238144e-09  4.54465679e-01  3.32926964e-09  3.08378513e-09  3.32680860e-09  3.55379811e-09  1.53189827e-07  7.03468572e-09  9.10000000e-01 
 9.20000000e-01  4.54465685e-01  3.17238146e-09  4.54465685e-01  3.32926964e-09  3.08378513e-09  3.32680860e-09  3.55379816e-09  1.53189830e-07  7.03481362e-09  9.20000000e-01 
 9.30000000e-01  4.54465664e-01  3.17238151e-09  4.54465664e-01  3.32926964e-09  3.08378513e-09  3.32680860e-09  3.55379816e-09  1.53189787e-07  7.03478520e-09  9.30000000e-01 
 9.40000000e-01  4.54465679e-01  3.17238144e-09  4.54465679e-01  3.32926970e-09  3.08378518e-09  3.32680860e-09  3.55379811e-09  1.53189813e-07  7.03471414e-09  9.40000000e-01 
 9.50000000e-01  4.54465701e-01  3.17238152e-09  4.54465701e-01  3.32926970e-09  3.08378519e-09  3.32680860e-09  3.55379816e-09  1.53189853e-07  7.03455783e-09  9.50000000e-01 
 9.60000000e-01  4.54465689e-01  3.17238150e-09  4.54465689e-01  3.32926964e-09  3.08378519e-09  3.32680854e-09  3.55379816e-09  1.53189838e-07  7.03449388e-09  9.60000000e-01 
 9.70000000e-01  4.54465687e-01  3.17238145e-09  4.54465687e-01  3.32926964e-09  3.08378518e-09  3.32680860e-09  3.55379811e-09  1.53189826e-07  7.03455783e-09  9.70000000e-01 
 9.80000000e-01  4.54465663e-01  3.17238152e-09  4.54465663e-01  3.32926964e-09  3.08378513e-09  3.32680860e-09  3.55379816e-09  1.53189788e-07  7.03448677e-09  9.80000000e-01 
 9.90000000e-01  4.54465686e-01  3.17238144e-09  4.54465686e-01  3.32926964e-09  3.08378513e-09  3.32680860e-09  3.55379811e-09  1.53189818e-07  7.03441572e-09  9.90000000e-01 
 1.00000000e+00  4.54465697e-01  3.17238146e-09  4.54465697e-01  3.32926970e-09  3.08378519e-09  3.32680860e-09  3.55379811e-09  1.53189838e-07  7.03427361e-09  1.00000000e+00 
 1.01000000e+00  4.54465687e-01  3.17238146e-09  4.54465687e-01  3.32926964e-09  3.08378518e-09  3.32680860e-09  3.55379811e-09  1.53189828e-07  7.03432335e-09  1.01000000e+00 
 1.02000000e+00  4.54465705e-01  3.17238146e-09  4.54465705e-01  3.32926964e-09  3.08378519e-09  3.32680860e-09  3.55379811e-09  1.53189856e-07  7.03435887e-09  1.02000000e+00 
 1.03000000e+00  4.54465707e-01  3.17238151e-09  4.54465708e-01  3.32926970e-09  3.08378513e-09  3.32680860e-09  3.55379811e-09  1.53189864e-07  7.03414571e-09  1.03000000e+00 
 1.04000000e+00  4.54465680e-01  3.17238150e-09  4.54465680e-01  3.32926970e-09  3.08378518e-09  3.32680860e-09  3.55379816e-09  1.53189826e-07  7.03418834e-09  1.04000000e+00 
 1.05000000e+00  4.54465680e-01  3.17238145e-09  4.54465680e-01  3.32926964e-09  3.08378513e-09  3.32680860e-09  3.55379816e-09  1.53189831e-07  7.03413150e-09  1.05000000e+00 
 1.06000000e+00  4.54465699e-01  3.17238146e-09  4.54465699e-01  3.32926970e-09  3.08378513e-09  3.32680860e-09  3.55379811e-09  1.53189841e-07  7.03414571e-09  1.06000000e+00 
 1.07000000e+00  4.54465666e-01  3.17238145e-09  4.54465666e-01  3.32926964e-09  3.08378518e-09  3.32680854e-09  3.55379811e-09  1.53189799e-07  7.03392544e-09  1.07000000e+00 
 1.08000000e+00  4.54465688e-01  3.17238151e-09  4.54465689e-01  3.32926964e-09  3.08378513e-09  3.32680860e-09  3.55379811e-09  1.53189831e-07  7.03380465e-09  1.08000000e+00 
 1.09000000e+00  4.54465700e-01  3.17238150e-09  4.54465700e-01  3.32926964e-09  3.08378513e-09  3.32680854e-09  3.55379811e-09  1.53189842e-07  7.03384728e-09  1.09000000e+00 
 1.10000000e+00  4.54465714e-01  3.17238145e-09  4.54465714e-01  3.32926964e-09  3.08378519e-09  3.32680854e-09  3.55379811e-09  1.53189874e-07  7.03386149e-09  1.10000000e+00 
