 v-sweep         v(b0)           v(b1)           v(b2)           v(b3)           v(b4)           v(b5)           v(b6)           i(vbias)        i(viout)        v(vout)        
 0.00000000e+00  3.27170266e-09  3.05359070e-09  3.70990662e-09  3.59595550e-09  4.58367299e-01  3.25471111e-09  4.58367299e-01  1.60211629e-07  1.23559544e-07  0.00000000e+00 
 1.00000000e-02  3.27170263e-09  3.05359067e-09  3.70990660e-09  3.59595553e-09  4.58367305e-01  3.25471108e-09  4.58367305e-01  1.60211632e-07  1.23559178e-07  1.00000000e-02 
 2.00000000e-02  3.27170264e-09  3.05359067e-09  3.70990660e-09  3.59595553e-09  4.58367310e-01  3.25471108e-09  4.58367310e-01  1.60211649e-07  1.23558712e-07  2.00000000e-02 
 3.00000000e-02  3.27170264e-09  3.05359066e-09  3.70990660e-09  3.59595553e-09  4.58367294e-01  3.25471108e-09  4.58367294e-01  1.60211620e-07  1.23558362e-07  3.00000000e-02 
 4.00000000e-02  3.27170269e-09  3.05359066e-09  3.70990665e-09  3.59595553e-09  4.58367289e-01  3.25471108e-09  4.58367289e-01  1.60211614e-07  1.23557981e-07  4.00000000e-02 
 5.00000000e-02  3.27170262e-09  3.05359066e-09  3.70990660e-09  3.59595553e-09  4.58367282e-01  3.25471108e-09  4.58367282e-01  1.60211586e-07  1.23557600e-07  5.00000000e-02 
 6.00000000e-02  3.27170264e-09  3.05359067e-09  3.70990665e-09  3.59595554e-09  4.58367323e-01  3.25471108e-09  4.58367323e-01  1.60211660e-07  1.23557278e-07  6.00000000e-02 
 7.00000000e-02  3.27170264e-09  3.05359067e-09  3.70990665e-09  3.59595553e-09  4.58367297e-01  3.25471108e-09  4.58367297e-01  1.60211633e-07  1.23556937e-07  7.00000000e-02 
 8.00000000e-02  3.27170269e-09  3.05359066e-09  3.70990660e-09  3.59595553e-09  4.58367288e-01  3.25471108e-09  4.58367288e-01  1.60211619e-07  1.23556612e-07  8.00000000e-02 
 9.00000000e-02  3.27170268e-09  3.05359061e-09  3.70990660e-09  3.59595553e-09  4.58367292e-01  3.25471114e-09  4.58367292e-01  1.60211618e-07  1.23556323e-07  9.00000000e-02 
 1.00000000e-01  3.27170269e-09  3.05359068e-09  3.70990665e-09  3.59595553e-09  4.58367296e-01  3.25471108e-09  4.58367296e-01  1.60211610e-07  1.23555966e-07  1.00000000e-01 
 1.10000000e-01  3.27170269e-09  3.05359066e-09  3.70990665e-09  3.59595553e-09  4.58367297e-01  3.25471108e-09  4.58367297e-01  1.60211634e-07  1.23555798e-07  1.10000000e-01 
 1.20000000e-01  3.27170263e-09  3.05359066e-09  3.70990660e-09  3.59595553e-09  4.58367274e-01  3.25471108e-09  4.58367274e-01  1.60211603e-07  1.23555548e-07  1.20000000e-01 
 1.30000000e-01  3.27170264e-09  3.05359066e-09  3.70990660e-09  3.59595553e-09  4.58367287e-01  3.25471108e-09  4.58367287e-01  1.60211597e-07  1.23555193e-07  1.30000000e-01 
 1.40000000e-01  3.27170264e-09  3.05359067e-09  3.70990660e-09  3.59595553e-09  4.58367315e-01  3.25471108e-09  4.58367315e-01  1.60211659e-07  1.23555028e-07  1.40000000e-01 
 1.50000000e-01  3.27170269e-09  3.05359066e-09  3.70990660e-09  3.59595553e-09  4.58367291e-01  3.25471108e-09  4.58367291e-01  1.60211633e-07  1.23554914e-07  1.50000000e-01 
 1.60000000e-01  3.27170268e-09  3.05359067e-09  3.70990660e-09  3.59595553e-09  4.58367318e-01  3.25471108e-09  4.58367318e-01  1.60211642e-07  1.23554599e-07  1.60000000e-01 
 1.70000000e-01  3.27170269e-09  3.05359067e-09  3.70990665e-09  3.59595553e-09  4.58367316e-01  3.25471108e-09  4.58367316e-01  1.60211655e-07  1.23554424e-07  1.70000000e-01 
 1.80000000e-01  3.27170263e-09  3.05359067e-09  3.70990665e-09  3.59595553e-09  4.58367315e-01  3.25471108e-09  4.58367315e-01  1.60211649e-07  1.23554294e-07  1.80000000e-01 
 1.90000000e-01  3.27170264e-09  3.05359067e-09  3.70990660e-09  3.59595553e-09  4.58367304e-01  3.25471108e-09  4.58367304e-01  1.60211631e-07  1.23554036e-07  1.90000000e-01 
 2.00000000e-01  3.27170264e-09  3.05359067e-09  3.70990660e-09  3.59595553e-09  4.58367300e-01  3.25471108e-09  4.58367300e-01  1.60211632e-07  1.23553885e-07  2.00000000e-01 
 2.10000000e-01  3.27170269e-09  3.05359067e-09  3.70990660e-09  3.59595553e-09  4.58367309e-01  3.25471108e-09  4.58367309e-01  1.60211636e-07  1.23553683e-07  2.10000000e-01 
 2.20000000e-01  3.27170268e-09  3.05359067e-09  3.70990665e-09  3.59595553e-09  4.58367297e-01  3.25471108e-09  4.58367297e-01  1.60211614e-07  1.23553495e-07  2.20000000e-01 
 2.30000000e-01  3.27170263e-09  3.05359066e-09  3.70990660e-09  3.59595553e-09  4.58367287e-01  3.25471114e-09  4.58367287e-01  1.60211621e-07  1.23553285e-07  2.30000000e-01 
 2.40000000e-01  3.27170264e-09  3.05359067e-09  3.70990660e-09  3.59595553e-09  4.58367300e-01  3.25471108e-09  4.58367300e-01  1.60211638e-07  1.23553086e-07  2.40000000e-01 
 2.50000000e-01  3.27170264e-09  3.05359067e-09  3.70990665e-09  3.59595553e-09  4.58367309e-01  3.25471108e-09  4.58367309e-01  1.60211631e-07  1.23553008e-07  2.50000000e-01 
 2.60000000e-01  3.27170264e-09  3.05359066e-09  3.70990660e-09  3.59595553e-09  4.58367286e-01  3.25471108e-09  4.58367286e-01  1.60211599e-07  1.23552756e-07  2.60000000e-01 
 2.70000000e-01  3.27170269e-09  3.05359067e-09  3.70990665e-09  3.59595553e-09  4.58367310e-01  3.25471108e-09  4.58367311e-01  1.60211643e-07  1.23552830e-07  2.70000000e-01 
 2.80000000e-01  3.27170262e-09  3.05359066e-09  3.70990665e-09  3.59595553e-09  4.58367293e-01  3.25471108e-09  4.58367293e-01  1.60211619e-07  1.23552480e-07  2.80000000e-01 
 2.90000000e-01  3.27170264e-09  3.05359067e-09  3.70990660e-09  3.59595553e-09  4.58367301e-01  3.25471108e-09  4.58367301e-01  1.60211630e-07  1.23552457e-07  2.90000000e-01 
 3.00000000e-01  3.27170264e-09  3.05359067e-09  3.70990660e-09  3.59595553e-09  4.58367307e-01  3.25471108e-09  4.58367307e-01  1.60211643e-07  1.23552407e-07  3.00000000e-01 
 3.10000000e-01  3.27170264e-09  3.05359067e-09  3.70990665e-09  3.59595554e-09  4.58367321e-01  3.25471108e-09  4.58367321e-01  1.60211662e-07  1.23552223e-07  3.10000000e-01 
 3.20000000e-01  3.27170264e-09  3.05359066e-09  3.70990665e-09  3.59595553e-09  4.58367286e-01  3.25471108e-09  4.58367287e-01  1.60211608e-07  1.23552013e-07  3.20000000e-01 
 3.30000000e-01  3.27170264e-09  3.05359067e-09  3.70990660e-09  3.59595554e-09  4.58367335e-01  3.25471114e-09  4.58367335e-01  1.60211678e-07  1.23551992e-07  3.30000000e-01 
 3.40000000e-01  3.27170269e-09  3.05359067e-09  3.70990660e-09  3.59595553e-09  4.58367308e-01  3.25471108e-09  4.58367308e-01  1.60211632e-07  1.23551768e-07  3.40000000e-01 
 3.50000000e-01  3.27170268e-09  3.05359066e-09  3.70990665e-09  3.59595552e-09  4.58367255e-01  3.25471108e-09  4.58367255e-01  1.60211564e-07  1.23551569e-07  3.50000000e-01 
 3.60000000e-01  3.27170263e-09  3.05359067e-09  3.70990665e-09  3.59595553e-09  4.58367299e-01  3.25471108e-09  4.58367299e-01  1.60211616e-07  1.23551672e-07  3.60000000e-01 
 3.70000000e-01  3.27170264e-09  3.05359067e-09  3.70990660e-09  3.59595553e-09  4.58367309e-01  3.25471108e-09  4.58367309e-01  1.60211625e-07  1.23551416e-07  3.70000000e-01 
 3.80000000e-01  3.27170269e-09  3.05359066e-09  3.70990660e-09  3.59595553e-09  4.58367289e-01  3.25471114e-09  4.58367289e-01  1.60211617e-07  1.23551359e-07  3.80000000e-01 
 3.90000000e-01  3.27170268e-09  3.05359067e-09  3.70990665e-09  3.59595553e-09  4.58367301e-01  3.25471108e-09  4.58367301e-01  1.60211640e-07  1.23551214e-07  3.90000000e-01 
 4.00000000e-01  3.27170269e-09  3.05359066e-09  3.70990660e-09  3.59595553e-09  4.58367292e-01  3.25471114e-09  4.58367292e-01  1.60211618e-07  1.23551093e-07  4.00000000e-01 
 4.10000000e-01  3.27170269e-09  3.05359067e-09  3.70990660e-09  3.59595553e-09  4.58367300e-01  3.25471108e-09  4.58367300e-01  1.60211616e-07  1.23551054e-07  4.10000000e-01 
 4.20000000e-01  3.27170263e-09  3.05359067e-09  3.70990665e-09  3.59595553e-09  4.58367316e-01  3.25471108e-09  4.58367316e-01  1.60211652e-07  1.23551018e-07  4.20000000e-01 
 4.30000000e-01  3.27170264e-09  3.05359061e-09  3.70990660e-09  3.59595553e-09  4.58367281e-01  3.25471108e-09  4.58367281e-01  1.60211605e-07  1.23550883e-07  4.30000000e-01 
 4.40000000e-01  3.27170264e-09  3.05359068e-09  3.70990660e-09  3.59595553e-09  4.58367305e-01  3.25471108e-09  4.58367305e-01  1.60211642e-07  1.23550901e-07  4.40000000e-01 
 4.50000000e-01  3.27170264e-09  3.05359066e-09  3.70990660e-09  3.59595553e-09  4.58367295e-01  3.25471108e-09  4.58367295e-01  1.60211629e-07  1.23550706e-07  4.50000000e-01 
 4.60000000e-01  3.27170269e-09  3.05359066e-09  3.70990660e-09  3.59595553e-09  4.58367294e-01  3.25471108e-09  4.58367294e-01  1.60211621e-07  1.23550549e-07  4.60000000e-01 
 4.70000000e-01  3.27170263e-09  3.05359067e-09  3.70990665e-09  3.59595554e-09  4.58367327e-01  3.25471109e-09  4.58367327e-01  1.60211669e-07  1.23550617e-07  4.70000000e-01 
 4.80000000e-01  3.27170264e-09  3.05359067e-09  3.70990660e-09  3.59595553e-09  4.58367318e-01  3.25471108e-09  4.58367318e-01  1.60211654e-07  1.23550432e-07  4.80000000e-01 
 4.90000000e-01  3.27170269e-09  3.05359066e-09  3.70990665e-09  3.59595553e-09  4.58367272e-01  3.25471108e-09  4.58367272e-01  1.60211595e-07  1.23550262e-07  4.90000000e-01 
 5.00000000e-01  3.27170262e-09  3.05359066e-09  3.70990665e-09  3.59595553e-09  4.58367288e-01  3.25471108e-09  4.58367288e-01  1.60211601e-07  1.23550230e-07  5.00000000e-01 
 5.10000000e-01  3.27170264e-09  3.05359067e-09  3.70990665e-09  3.59595553e-09  4.58367310e-01  3.25471108e-09  4.58367310e-01  1.60211654e-07  1.23550219e-07  5.10000000e-01 
 5.20000000e-01  3.27170264e-09  3.05359067e-09  3.70990660e-09  3.59595553e-09  4.58367299e-01  3.25471114e-09  4.58367299e-01  1.60211625e-07  1.23550034e-07  5.20000000e-01 
 5.30000000e-01  3.27170269e-09  3.05359067e-09  3.70990660e-09  3.59595553e-09  4.58367305e-01  3.25471108e-09  4.58367305e-01  1.60211626e-07  1.23550031e-07  5.30000000e-01 
 5.40000000e-01  3.27170268e-09  3.05359067e-09  3.70990665e-09  3.59595553e-09  4.58367312e-01  3.25471108e-09  4.58367312e-01  1.60211649e-07  1.23549938e-07  5.40000000e-01 
 5.50000000e-01  3.27170269e-09  3.05359067e-09  3.70990660e-09  3.59595553e-09  4.58367316e-01  3.25471108e-09  4.58367316e-01  1.60211655e-07  1.23549896e-07  5.50000000e-01 
 5.60000000e-01  3.27170269e-09  3.05359067e-09  3.70990660e-09  3.59595553e-09  4.58367315e-01  3.25471114e-09  4.58367315e-01  1.60211646e-07  1.23549881e-07  5.60000000e-01 
 5.70000000e-01  3.27170263e-09  3.05359067e-09  3.70990660e-09  3.59595553e-09  4.58367308e-01  3.25471108e-09  4.58367308e-01  1.60211652e-07  1.23549714e-07  5.70000000e-01 
 5.80000000e-01  3.27170264e-09  3.05359066e-09  3.70990665e-09  3.59595553e-09  4.58367292e-01  3.25471108e-09  4.58367292e-01  1.60211620e-07  1.23549540e-07  5.80000000e-01 
 5.90000000e-01  3.27170269e-09  3.05359067e-09  3.70990660e-09  3.59595553e-09  4.58367303e-01  3.25471108e-09  4.58367303e-01  1.60211624e-07  1.23549533e-07  5.90000000e-01 
 6.00000000e-01  3.27170262e-09  3.05359066e-09  3.70990665e-09  3.59595553e-09  4.58367295e-01  3.25471108e-09  4.58367295e-01  1.60211618e-07  1.23549313e-07  6.00000000e-01 
 6.10000000e-01  3.27170264e-09  3.05359066e-09  3.70990659e-09  3.59595553e-09  4.58367270e-01  3.25471108e-09  4.58367270e-01  1.60211584e-07  1.23549178e-07  6.10000000e-01 
 6.20000000e-01  3.27170264e-09  3.05359066e-09  3.70990665e-09  3.59595553e-09  4.58367291e-01  3.25471108e-09  4.58367291e-01  1.60211599e-07  1.23549107e-07  6.20000000e-01 
 6.30000000e-01  3.27170269e-09  3.05359067e-09  3.70990660e-09  3.59595554e-09  4.58367319e-01  3.25471108e-09  4.58367319e-01  1.60211656e-07  1.23549228e-07  6.30000000e-01 
 6.40000000e-01  3.27170268e-09  3.05359067e-09  3.70990665e-09  3.59595553e-09  4.58367316e-01  3.25471114e-09  4.58367316e-01  1.60211646e-07  1.23549142e-07  6.40000000e-01 
 6.50000000e-01  3.27170263e-09  3.05359067e-09  3.70990660e-09  3.59595553e-09  4.58367302e-01  3.25471114e-09  4.58367302e-01  1.60211641e-07  1.23548922e-07  6.50000000e-01 
 6.60000000e-01  3.27170264e-09  3.05359067e-09  3.70990660e-09  3.59595553e-09  4.58367310e-01  3.25471108e-09  4.58367310e-01  1.60211649e-07  1.23548872e-07  6.60000000e-01 
 6.70000000e-01  3.27170269e-09  3.05359066e-09  3.70990665e-09  3.59595553e-09  4.58367290e-01  3.25471108e-09  4.58367290e-01  1.60211617e-07  1.23548773e-07  6.70000000e-01 
 6.80000000e-01  3.27170263e-09  3.05359067e-09  3.70990660e-09  3.59595554e-09  4.58367332e-01  3.25471109e-09  4.58367332e-01  1.60211663e-07  1.23548809e-07  6.80000000e-01 
 6.90000000e-01  3.27170264e-09  3.05359066e-09  3.70990660e-09  3.59595553e-09  4.58367286e-01  3.25471108e-09  4.58367287e-01  1.60211604e-07  1.23548695e-07  6.90000000e-01 
 7.00000000e-01  3.27170264e-09  3.05359066e-09  3.70990665e-09  3.59595553e-09  4.58367267e-01  3.25471108e-09  4.58367267e-01  1.60211565e-07  1.23548475e-07  7.00000000e-01 
 7.10000000e-01  3.27170264e-09  3.05359067e-09  3.70990665e-09  3.59595553e-09  4.58367318e-01  3.25471108e-09  4.58367318e-01  1.60211650e-07  1.23548482e-07  7.10000000e-01 
 7.20000000e-01  3.27170264e-09  3.05359066e-09  3.70990660e-09  3.59595553e-09  4.58367294e-01  3.25471108e-09  4.58367294e-01  1.60211623e-07  1.23548347e-07  7.20000000e-01 
 7.30000000e-01  3.27170269e-09  3.05359066e-09  3.70990665e-09  3.59595553e-09  4.58367276e-01  3.25471114e-09  4.58367276e-01  1.60211596e-07  1.23548276e-07  7.30000000e-01 
 7.40000000e-01  3.27170262e-09  3.05359067e-09  3.70990665e-09  3.59595553e-09  4.58367304e-01  3.25471108e-09  4.58367304e-01  1.60211621e-07  1.23548190e-07  7.40000000e-01 
 7.50000000e-01  3.27170264e-09  3.05359067e-09  3.70990665e-09  3.59595553e-09  4.58367303e-01  3.25471108e-09  4.58367303e-01  1.60211639e-07  1.23548041e-07  7.50000000e-01 
 7.60000000e-01  3.27170264e-09  3.05359067e-09  3.70990660e-09  3.59595553e-09  4.58367317e-01  3.25471108e-09  4.58367317e-01  1.60211666e-07  1.23548020e-07  7.60000000e-01 
 7.70000000e-01  3.27170269e-09  3.05359066e-09  3.70990660e-09  3.59595553e-09  4.58367278e-01  3.25471108e-09  4.58367278e-01  1.60211597e-07  1.23547778e-07  7.70000000e-01 
 7.80000000e-01  3.27170268e-09  3.05359067e-09  3.70990665e-09  3.59595553e-09  4.58367309e-01  3.25471108e-09  4.58367309e-01  1.60211628e-07  1.23547899e-07  7.80000000e-01 
 7.90000000e-01  3.27170263e-09  3.05359066e-09  3.70990665e-09  3.59595553e-09  4.58367294e-01  3.25471108e-09  4.58367294e-01  1.60211624e-07  1.23547665e-07  7.90000000e-01 
 8.00000000e-01  3.27170264e-09  3.05359066e-09  3.70990660e-09  3.59595553e-09  4.58367286e-01  3.25471108e-09  4.58367286e-01  1.60211613e-07  1.23547572e-07  8.00000000e-01 
 8.10000000e-01  3.27170264e-09  3.05359066e-09  3.70990660e-09  3.59595553e-09  4.58367289e-01  3.25471108e-09  4.58367289e-01  1.60211608e-07  1.23547608e-07  8.10000000e-01 
 8.20000000e-01  3.27170269e-09  3.05359066e-09  3.70990665e-09  3.59595553e-09  4.58367279e-01  3.25471108e-09  4.58367279e-01  1.60211604e-07  1.23547331e-07  8.20000000e-01 
 8.30000000e-01  3.27170268e-09  3.05359066e-09  3.70990660e-09  3.59595553e-09  4.58367293e-01  3.25471108e-09  4.58367293e-01  1.60211611e-07  1.23547359e-07  8.30000000e-01 
 8.40000000e-01  3.27170269e-09  3.05359066e-09  3.70990665e-09  3.59595553e-09  4.58367290e-01  3.25471108e-09  4.58367290e-01  1.60211622e-07  1.23547267e-07  8.40000000e-01 
 8.50000000e-01  3.27170263e-09  3.05359067e-09  3.70990665e-09  3.59595553e-09  4.58367303e-01  3.25471108e-09  4.58367303e-01  1.60211625e-07  1.23547274e-07  8.50000000e-01 
 8.60000000e-01  3.27170264e-09  3.05359067e-09  3.70990665e-09  3.59595553e-09  4.58367301e-01  3.25471108e-09  4.58367301e-01  1.60211635e-07  1.23547267e-07  8.60000000e-01 
 8.70000000e-01  3.27170264e-09  3.05359066e-09  3.70990660e-09  3.59595553e-09  4.58367285e-01  3.25471108e-09  4.58367285e-01  1.60211616e-07  1.23546911e-07  8.70000000e-01 
 8.80000000e-01  3.27170264e-09  3.05359067e-09  3.70990665e-09  3.59595554e-09  4.58367325e-01  3.25471108e-09  4.58367325e-01  1.60211668e-07  1.23547011e-07  8.80000000e-01 
 8.90000000e-01  3.27170269e-09  3.05359067e-09  3.70990665e-09  3.59595553e-09  4.58367302e-01  3.25471108e-09  4.58367302e-01  1.60211631e-07  1.23546933e-07  8.90000000e-01 
 9.00000000e-01  3.27170268e-09  3.05359067e-09  3.70990660e-09  3.59595554e-09  4.58367319e-01  3.25471108e-09  4.58367319e-01  1.60211659e-07  1.23546890e-07  9.00000000e-01 
 9.10000000e-01  3.27170269e-09  3.05359067e-09  3.70990665e-09  3.59595553e-09  4.58367304e-01  3.25471108e-09  4.58367304e-01  1.60211631e-07  1.23546656e-07  9.10000000e-01 
 9.20000000e-01  3.27170263e-09  3.05359067e-09  3.70990660e-09  3.59595553e-09  4.58367311e-01  3.25471114e-09  4.58367311e-01  1.60211641e-07  1.23546727e-07  9.20000000e-01 
 9.30000000e-01  3.27170264e-09  3.05359066e-09  3.70990660e-09  3.59595553e-09  4.58367285e-01  3.25471108e-09  4.58367285e-01  1.60211610e-07  1.23546585e-07  9.30000000e-01 
 9.40000000e-01  3.27170269e-09  3.05359066e-09  3.70990660e-09  3.59595553e-09  4.58367292e-01  3.25471108e-09  4.58367292e-01  1.60211618e-07  1.23546435e-07  9.40000000e-01 
 9.50000000e-01  3.27170268e-09  3.05359066e-09  3.70990660e-09  3.59595553e-09  4.58367291e-01  3.25471108e-09  4.58367291e-01  1.60211615e-07  1.23546158e-07  9.50000000e-01 
 9.60000000e-01  3.27170269e-09  3.05359066e-09  3.70990660e-09  3.59595553e-09  4.58367274e-01  3.25471108e-09  4.58367274e-01  1.60211590e-07  1.23546101e-07  9.60000000e-01 
 9.70000000e-01  3.27170263e-09  3.05359067e-09  3.70990665e-09  3.59595553e-09  4.58367310e-01  3.25471108e-09  4.58367310e-01  1.60211649e-07  1.23546151e-07  9.70000000e-01 
 9.80000000e-01  3.27170264e-09  3.05359067e-09  3.70990660e-09  3.59595553e-09  4.58367316e-01  3.25471108e-09  4.58367316e-01  1.60211635e-07  1.23546158e-07  9.80000000e-01 
 9.90000000e-01  3.27170264e-09  3.05359067e-09  3.70990665e-09  3.59595553e-09  4.58367299e-01  3.25471108e-09  4.58367299e-01  1.60211630e-07  1.23545917e-07  9.90000000e-01 
 1.00000000e+00  3.27170264e-09  3.05359067e-09  3.70990665e-09  3.59595553e-09  4.58367306e-01  3.25471108e-09  4.58367306e-01  1.60211644e-07  1.23545853e-07  1.00000000e+00 
 1.01000000e+00  3.27170269e-09  3.05359066e-09  3.70990660e-09  3.59595553e-09  4.58367295e-01  3.25471114e-09  4.58367295e-01  1.60211618e-07  1.23545846e-07  1.01000000e+00 
 1.02000000e+00  3.27170268e-09  3.05359067e-09  3.70990665e-09  3.59595553e-09  4.58367308e-01  3.25471108e-09  4.58367308e-01  1.60211630e-07  1.23545682e-07  1.02000000e+00 
 1.03000000e+00  3.27170269e-09  3.05359067e-09  3.70990665e-09  3.59595553e-09  4.58367312e-01  3.25471114e-09  4.58367312e-01  1.60211659e-07  1.23545618e-07  1.03000000e+00 
 1.04000000e+00  3.27170269e-09  3.05359066e-09  3.70990660e-09  3.59595553e-09  4.58367282e-01  3.25471108e-09  4.58367283e-01  1.60211613e-07  1.23545362e-07  1.04000000e+00 
 1.05000000e+00  3.27170263e-09  3.05359067e-09  3.70990660e-09  3.59595554e-09  4.58367324e-01  3.25471108e-09  4.58367324e-01  1.60211648e-07  1.23545369e-07  1.05000000e+00 
 1.06000000e+00  3.27170264e-09  3.05359066e-09  3.70990660e-09  3.59595553e-09  4.58367293e-01  3.25471108e-09  4.58367293e-01  1.60211615e-07  1.23545220e-07  1.06000000e+00 
 1.07000000e+00  3.27170264e-09  3.05359067e-09  3.70990665e-09  3.59595553e-09  4.58367310e-01  3.25471108e-09  4.58367311e-01  1.60211634e-07  1.23545234e-07  1.07000000e+00 
 1.08000000e+00  3.27170269e-09  3.05359066e-09  3.70990659e-09  3.59595553e-09  4.58367269e-01  3.25471108e-09  4.58367269e-01  1.60211589e-07  1.23544972e-07  1.08000000e+00 
 1.09000000e+00  3.27170268e-09  3.05359067e-09  3.70990660e-09  3.59595553e-09  4.58367307e-01  3.25471114e-09  4.58367307e-01  1.60211632e-07  1.23545043e-07  1.09000000e+00 
 1.10000000e+00  3.27170263e-09  3.05359067e-09  3.70990660e-09  3.59595553e-09  4.58367303e-01  3.25471108e-09  4.58367303e-01  1.60211627e-07  1.23544737e-07  1.10000000e+00 
