 v-sweep         v(b0)           v(b1)           v(b2)           v(b3)           v(b4)           v(b5)           v(b6)           i(vbias)        i(viout)        v(vout)        
 0.00000000e+00  4.55178283e-01  3.47903195e-09  4.55178283e-01  3.46498234e-09  3.39875111e-09  4.55178283e-01  4.55178283e-01  1.53077664e-07  1.45816792e-07  0.00000000e+00 
 1.00000000e-02  4.55178299e-01  3.47903199e-09  4.55178299e-01  3.46498231e-09  3.39875109e-09  4.55178299e-01  4.55178299e-01  1.53077670e-07  1.45816415e-07  1.00000000e-02 
 2.00000000e-02  4.55178279e-01  3.47903199e-09  4.55178279e-01  3.46498237e-09  3.39875109e-09  4.55178279e-01  4.55178279e-01  1.53077651e-07  1.45815943e-07  2.00000000e-02 
 3.00000000e-02  4.55178293e-01  3.47903199e-09  4.55178293e-01  3.46498231e-09  3.39875109e-09  4.55178293e-01  4.55178293e-01  1.53077669e-07  1.45815594e-07  3.00000000e-02 
 4.00000000e-02  4.55178265e-01  3.47903199e-09  4.55178265e-01  3.46498231e-09  3.39875109e-09  4.55178265e-01  4.55178265e-01  1.53077630e-07  1.45815123e-07  4.00000000e-02 
 5.00000000e-02  4.55178265e-01  3.47903193e-09  4.55178265e-01  3.46498231e-09  3.39875109e-09  4.55178265e-01  4.55178265e-01  1.53077624e-07  1.45814691e-07  5.00000000e-02 
 6.00000000e-02  4.55178255e-01  3.47903194e-09  4.55178255e-01  3.46498231e-09  3.39875109e-09  4.55178255e-01  4.55178255e-01  1.53077624e-07  1.45814341e-07  6.00000000e-02 
 7.00000000e-02  4.55178286e-01  3.47903199e-09  4.55178286e-01  3.46498237e-09  3.39875109e-09  4.55178286e-01  4.55178286e-01  1.53077660e-07  1.45814064e-07  7.00000000e-02 
 8.00000000e-02  4.55178288e-01  3.47903192e-09  4.55178288e-01  3.46498231e-09  3.39875109e-09  4.55178288e-01  4.55178288e-01  1.53077669e-07  1.45813787e-07  8.00000000e-02 
 9.00000000e-02  4.55178288e-01  3.47903194e-09  4.55178288e-01  3.46498231e-09  3.39875109e-09  4.55178288e-01  4.55178287e-01  1.53077660e-07  1.45813462e-07  9.00000000e-02 
 1.00000000e-01  4.55178291e-01  3.47903194e-09  4.55178291e-01  3.46498231e-09  3.39875109e-09  4.55178291e-01  4.55178291e-01  1.53077662e-07  1.45813272e-07  1.00000000e-01 
 1.10000000e-01  4.55178291e-01  3.47903194e-09  4.55178291e-01  3.46498237e-09  3.39875109e-09  4.55178291e-01  4.55178291e-01  1.53077680e-07  1.45812943e-07  1.10000000e-01 
 1.20000000e-01  4.55178291e-01  3.47903194e-09  4.55178291e-01  3.46498237e-09  3.39875109e-09  4.55178291e-01  4.55178291e-01  1.53077689e-07  1.45812685e-07  1.20000000e-01 
 1.30000000e-01  4.55178270e-01  3.47903193e-09  4.55178270e-01  3.46498237e-09  3.39875109e-09  4.55178270e-01  4.55178270e-01  1.53077639e-07  1.45812356e-07  1.30000000e-01 
 1.40000000e-01  4.55178268e-01  3.47903193e-09  4.55178268e-01  3.46498237e-09  3.39875109e-09  4.55178268e-01  4.55178267e-01  1.53077628e-07  1.45812071e-07  1.40000000e-01 
 1.50000000e-01  4.55178269e-01  3.47903193e-09  4.55178269e-01  3.46498231e-09  3.39875109e-09  4.55178269e-01  4.55178269e-01  1.53077638e-07  1.45811844e-07  1.50000000e-01 
 1.60000000e-01  4.55178291e-01  3.47903194e-09  4.55178291e-01  3.46498231e-09  3.39875109e-09  4.55178291e-01  4.55178291e-01  1.53077668e-07  1.45811688e-07  1.60000000e-01 
 1.70000000e-01  4.55178288e-01  3.47903194e-09  4.55178288e-01  3.46498231e-09  3.39875109e-09  4.55178288e-01  4.55178288e-01  1.53077660e-07  1.45811425e-07  1.70000000e-01 
 1.80000000e-01  4.55178266e-01  3.47903193e-09  4.55178266e-01  3.46498231e-09  3.39875109e-09  4.55178266e-01  4.55178266e-01  1.53077642e-07  1.45811216e-07  1.80000000e-01 
 1.90000000e-01  4.55178291e-01  3.47903194e-09  4.55178291e-01  3.46498231e-09  3.39875109e-09  4.55178291e-01  4.55178291e-01  1.53077650e-07  1.45811075e-07  1.90000000e-01 
 2.00000000e-01  4.55178304e-01  3.47903194e-09  4.55178304e-01  3.46498237e-09  3.39875109e-09  4.55178304e-01  4.55178304e-01  1.53077693e-07  1.45810823e-07  2.00000000e-01 
 2.10000000e-01  4.55178289e-01  3.47903199e-09  4.55178289e-01  3.46498231e-09  3.39875109e-09  4.55178289e-01  4.55178289e-01  1.53077663e-07  1.45810677e-07  2.10000000e-01 
 2.20000000e-01  4.55178267e-01  3.47903198e-09  4.55178267e-01  3.46498231e-09  3.39875109e-09  4.55178267e-01  4.55178267e-01  1.53077633e-07  1.45810471e-07  2.20000000e-01 
 2.30000000e-01  4.55178281e-01  3.47903199e-09  4.55178281e-01  3.46498231e-09  3.39875109e-09  4.55178281e-01  4.55178281e-01  1.53077642e-07  1.45810249e-07  2.30000000e-01 
 2.40000000e-01  4.55178279e-01  3.47903193e-09  4.55178279e-01  3.46498231e-09  3.39875109e-09  4.55178279e-01  4.55178279e-01  1.53077677e-07  1.45810041e-07  2.40000000e-01 
 2.50000000e-01  4.55178296e-01  3.47903194e-09  4.55178296e-01  3.46498231e-09  3.39875109e-09  4.55178296e-01  4.55178296e-01  1.53077685e-07  1.45809986e-07  2.50000000e-01 
 2.60000000e-01  4.55178283e-01  3.47903199e-09  4.55178283e-01  3.46498237e-09  3.39875109e-09  4.55178283e-01  4.55178283e-01  1.53077651e-07  1.45809725e-07  2.60000000e-01 
 2.70000000e-01  4.55178301e-01  3.47903198e-09  4.55178301e-01  3.46498231e-09  3.39875109e-09  4.55178301e-01  4.55178300e-01  1.53077660e-07  1.45809656e-07  2.70000000e-01 
 2.80000000e-01  4.55178290e-01  3.47903193e-09  4.55178290e-01  3.46498231e-09  3.39875109e-09  4.55178290e-01  4.55178290e-01  1.53077658e-07  1.45809462e-07  2.80000000e-01 
 2.90000000e-01  4.55178296e-01  3.47903200e-09  4.55178296e-01  3.46498231e-09  3.39875109e-09  4.55178296e-01  4.55178296e-01  1.53077671e-07  1.45809452e-07  2.90000000e-01 
 3.00000000e-01  4.55178282e-01  3.47903192e-09  4.55178282e-01  3.46498231e-09  3.39875109e-09  4.55178282e-01  4.55178282e-01  1.53077668e-07  1.45809132e-07  3.00000000e-01 
 3.10000000e-01  4.55178266e-01  3.47903200e-09  4.55178266e-01  3.46498231e-09  3.39875109e-09  4.55178266e-01  4.55178265e-01  1.53077644e-07  1.45809018e-07  3.10000000e-01 
 3.20000000e-01  4.55178287e-01  3.47903198e-09  4.55178287e-01  3.46498231e-09  3.39875109e-09  4.55178287e-01  4.55178287e-01  1.53077670e-07  1.45808908e-07  3.20000000e-01 
 3.30000000e-01  4.55178265e-01  3.47903193e-09  4.55178265e-01  3.46498237e-09  3.39875109e-09  4.55178265e-01  4.55178265e-01  1.53077637e-07  1.45808773e-07  3.30000000e-01 
 3.40000000e-01  4.55178267e-01  3.47903194e-09  4.55178267e-01  3.46498231e-09  3.39875109e-09  4.55178267e-01  4.55178267e-01  1.53077614e-07  1.45808496e-07  3.40000000e-01 
 3.50000000e-01  4.55178278e-01  3.47903193e-09  4.55178278e-01  3.46498237e-09  3.39875109e-09  4.55178278e-01  4.55178277e-01  1.53077649e-07  1.45808521e-07  3.50000000e-01 
 3.60000000e-01  4.55178272e-01  3.47903199e-09  4.55178272e-01  3.46498237e-09  3.39875109e-09  4.55178272e-01  4.55178272e-01  1.53077637e-07  1.45808400e-07  3.60000000e-01 
 3.70000000e-01  4.55178268e-01  3.47903192e-09  4.55178268e-01  3.46498231e-09  3.39875109e-09  4.55178268e-01  4.55178268e-01  1.53077644e-07  1.45808190e-07  3.70000000e-01 
 3.80000000e-01  4.55178277e-01  3.47903194e-09  4.55178277e-01  3.46498237e-09  3.39875109e-09  4.55178277e-01  4.55178277e-01  1.53077657e-07  1.45808102e-07  3.80000000e-01 
 3.90000000e-01  4.55178269e-01  3.47903193e-09  4.55178269e-01  3.46498231e-09  3.39875109e-09  4.55178269e-01  4.55178268e-01  1.53077639e-07  1.45807913e-07  3.90000000e-01 
 4.00000000e-01  4.55178264e-01  3.47903199e-09  4.55178264e-01  3.46498231e-09  3.39875109e-09  4.55178264e-01  4.55178264e-01  1.53077642e-07  1.45807856e-07  4.00000000e-01 
 4.10000000e-01  4.55178252e-01  3.47903192e-09  4.55178252e-01  3.46498237e-09  3.39875109e-09  4.55178252e-01  4.55178252e-01  1.53077617e-07  1.45807700e-07  4.10000000e-01 
 4.20000000e-01  4.55178262e-01  3.47903200e-09  4.55178262e-01  3.46498237e-09  3.39875109e-09  4.55178262e-01  4.55178262e-01  1.53077627e-07  1.45807579e-07  4.20000000e-01 
 4.30000000e-01  4.55178294e-01  3.47903198e-09  4.55178294e-01  3.46498237e-09  3.39875109e-09  4.55178294e-01  4.55178294e-01  1.53077677e-07  1.45807597e-07  4.30000000e-01 
 4.40000000e-01  4.55178289e-01  3.47903193e-09  4.55178289e-01  3.46498231e-09  3.39875109e-09  4.55178289e-01  4.55178289e-01  1.53077660e-07  1.45807451e-07  4.40000000e-01 
 4.50000000e-01  4.55178264e-01  3.47903194e-09  4.55178264e-01  3.46498231e-09  3.39875109e-09  4.55178264e-01  4.55178264e-01  1.53077635e-07  1.45807348e-07  4.50000000e-01 
 4.60000000e-01  4.55178264e-01  3.47903193e-09  4.55178264e-01  3.46498231e-09  3.39875109e-09  4.55178264e-01  4.55178264e-01  1.53077615e-07  1.45807135e-07  4.60000000e-01 
 4.70000000e-01  4.55178270e-01  3.47903193e-09  4.55178270e-01  3.46498237e-09  3.39875109e-09  4.55178270e-01  4.55178269e-01  1.53077639e-07  1.45807054e-07  4.70000000e-01 
 4.80000000e-01  4.55178281e-01  3.47903199e-09  4.55178281e-01  3.46498237e-09  3.39875109e-09  4.55178281e-01  4.55178281e-01  1.53077664e-07  1.45807068e-07  4.80000000e-01 
 4.90000000e-01  4.55178300e-01  3.47903192e-09  4.55178300e-01  3.46498237e-09  3.39875109e-09  4.55178300e-01  4.55178300e-01  1.53077688e-07  1.45807000e-07  4.90000000e-01 
 5.00000000e-01  4.55178279e-01  3.47903194e-09  4.55178279e-01  3.46498237e-09  3.39875109e-09  4.55178279e-01  4.55178279e-01  1.53077641e-07  1.45806805e-07  5.00000000e-01 
 5.10000000e-01  4.55178261e-01  3.47903193e-09  4.55178261e-01  3.46498237e-09  3.39875109e-09  4.55178261e-01  4.55178261e-01  1.53077616e-07  1.45806677e-07  5.10000000e-01 
 5.20000000e-01  4.55178287e-01  3.47903199e-09  4.55178287e-01  3.46498231e-09  3.39875109e-09  4.55178287e-01  4.55178287e-01  1.53077665e-07  1.45806780e-07  5.20000000e-01 
 5.30000000e-01  4.55178277e-01  3.47903198e-09  4.55178277e-01  3.46498237e-09  3.39875109e-09  4.55178277e-01  4.55178277e-01  1.53077649e-07  1.45806510e-07  5.30000000e-01 
 5.40000000e-01  4.55178298e-01  3.47903193e-09  4.55178298e-01  3.46498237e-09  3.39875109e-09  4.55178298e-01  4.55178297e-01  1.53077691e-07  1.45806517e-07  5.40000000e-01 
 5.50000000e-01  4.55178267e-01  3.47903194e-09  4.55178267e-01  3.46498237e-09  3.39875109e-09  4.55178267e-01  4.55178267e-01  1.53077632e-07  1.45806297e-07  5.50000000e-01 
 5.60000000e-01  4.55178261e-01  3.47903193e-09  4.55178261e-01  3.46498237e-09  3.39875109e-09  4.55178261e-01  4.55178261e-01  1.53077625e-07  1.45806151e-07  5.60000000e-01 
 5.70000000e-01  4.55178268e-01  3.47903193e-09  4.55178268e-01  3.46498231e-09  3.39875109e-09  4.55178268e-01  4.55178268e-01  1.53077633e-07  1.45806073e-07  5.70000000e-01 
 5.80000000e-01  4.55178282e-01  3.47903193e-09  4.55178282e-01  3.46498237e-09  3.39875109e-09  4.55178282e-01  4.55178282e-01  1.53077643e-07  1.45806020e-07  5.80000000e-01 
 5.90000000e-01  4.55178261e-01  3.47903193e-09  4.55178261e-01  3.46498237e-09  3.39875109e-09  4.55178261e-01  4.55178261e-01  1.53077639e-07  1.45805821e-07  5.90000000e-01 
 6.00000000e-01  4.55178271e-01  3.47903199e-09  4.55178271e-01  3.46498231e-09  3.39875109e-09  4.55178271e-01  4.55178270e-01  1.53077639e-07  1.45805828e-07  6.00000000e-01 
 6.10000000e-01  4.55178283e-01  3.47903198e-09  4.55178283e-01  3.46498231e-09  3.39875109e-09  4.55178283e-01  4.55178283e-01  1.53077658e-07  1.45805707e-07  6.10000000e-01 
 6.20000000e-01  4.55178262e-01  3.47903193e-09  4.55178262e-01  3.46498231e-09  3.39875109e-09  4.55178262e-01  4.55178261e-01  1.53077619e-07  1.45805480e-07  6.20000000e-01 
 6.30000000e-01  4.55178263e-01  3.47903200e-09  4.55178263e-01  3.46498237e-09  3.39875109e-09  4.55178263e-01  4.55178263e-01  1.53077616e-07  1.45805551e-07  6.30000000e-01 
 6.40000000e-01  4.55178258e-01  3.47903192e-09  4.55178258e-01  3.46498237e-09  3.39875109e-09  4.55178258e-01  4.55178258e-01  1.53077616e-07  1.45805302e-07  6.40000000e-01 
 6.50000000e-01  4.55178280e-01  3.47903200e-09  4.55178280e-01  3.46498231e-09  3.39875109e-09  4.55178280e-01  4.55178279e-01  1.53077654e-07  1.45805245e-07  6.50000000e-01 
 6.60000000e-01  4.55178289e-01  3.47903198e-09  4.55178289e-01  3.46498231e-09  3.39875109e-09  4.55178289e-01  4.55178289e-01  1.53077671e-07  1.45805181e-07  6.60000000e-01 
 6.70000000e-01  4.55178280e-01  3.47903193e-09  4.55178280e-01  3.46498237e-09  3.39875109e-09  4.55178280e-01  4.55178280e-01  1.53077656e-07  1.45805075e-07  6.70000000e-01 
 6.80000000e-01  4.55178282e-01  3.47903194e-09  4.55178282e-01  3.46498231e-09  3.39875109e-09  4.55178282e-01  4.55178282e-01  1.53077655e-07  1.45805075e-07  6.80000000e-01 
 6.90000000e-01  4.55178278e-01  3.47903199e-09  4.55178278e-01  3.46498231e-09  3.39875109e-09  4.55178278e-01  4.55178278e-01  1.53077650e-07  1.45804940e-07  6.90000000e-01 
 7.00000000e-01  4.55178306e-01  3.47903198e-09  4.55178306e-01  3.46498231e-09  3.39875109e-09  4.55178306e-01  4.55178306e-01  1.53077690e-07  1.45804890e-07  7.00000000e-01 
 7.10000000e-01  4.55178293e-01  3.47903193e-09  4.55178293e-01  3.46498231e-09  3.39875109e-09  4.55178293e-01  4.55178293e-01  1.53077648e-07  1.45804670e-07  7.10000000e-01 
 7.20000000e-01  4.55178278e-01  3.47903194e-09  4.55178278e-01  3.46498231e-09  3.39875109e-09  4.55178278e-01  4.55178278e-01  1.53077648e-07  1.45804627e-07  7.20000000e-01 
 7.30000000e-01  4.55178282e-01  3.47903199e-09  4.55178282e-01  3.46498237e-09  3.39875109e-09  4.55178282e-01  4.55178282e-01  1.53077652e-07  1.45804506e-07  7.30000000e-01 
 7.40000000e-01  4.55178292e-01  3.47903192e-09  4.55178292e-01  3.46498231e-09  3.39875109e-09  4.55178292e-01  4.55178292e-01  1.53077673e-07  1.45804407e-07  7.40000000e-01 
 7.50000000e-01  4.55178308e-01  3.47903200e-09  4.55178308e-01  3.46498237e-09  3.39875109e-09  4.55178308e-01  4.55178308e-01  1.53077691e-07  1.45804350e-07  7.50000000e-01 
 7.60000000e-01  4.55178302e-01  3.47903192e-09  4.55178302e-01  3.46498231e-09  3.39875109e-09  4.55178302e-01  4.55178302e-01  1.53077672e-07  1.45804293e-07  7.60000000e-01 
 7.70000000e-01  4.55178289e-01  3.47903200e-09  4.55178289e-01  3.46498231e-09  3.39875109e-09  4.55178289e-01  4.55178289e-01  1.53077681e-07  1.45804229e-07  7.70000000e-01 
 7.80000000e-01  4.55178289e-01  3.47903198e-09  4.55178289e-01  3.46498237e-09  3.39875109e-09  4.55178289e-01  4.55178289e-01  1.53077662e-07  1.45804037e-07  7.80000000e-01 
 7.90000000e-01  4.55178282e-01  3.47903193e-09  4.55178282e-01  3.46498237e-09  3.39875109e-09  4.55178282e-01  4.55178282e-01  1.53077645e-07  1.45803867e-07  7.90000000e-01 
 8.00000000e-01  4.55178276e-01  3.47903194e-09  4.55178276e-01  3.46498237e-09  3.39875109e-09  4.55178276e-01  4.55178275e-01  1.53077643e-07  1.45803725e-07  8.00000000e-01 
 8.10000000e-01  4.55178289e-01  3.47903194e-09  4.55178289e-01  3.46498237e-09  3.39875109e-09  4.55178289e-01  4.55178288e-01  1.53077656e-07  1.45803718e-07  8.10000000e-01 
 8.20000000e-01  4.55178296e-01  3.47903194e-09  4.55178296e-01  3.46498231e-09  3.39875109e-09  4.55178296e-01  4.55178296e-01  1.53077681e-07  1.45803654e-07  8.20000000e-01 
 8.30000000e-01  4.55178299e-01  3.47903199e-09  4.55178299e-01  3.46498237e-09  3.39875109e-09  4.55178299e-01  4.55178299e-01  1.53077681e-07  1.45803575e-07  8.30000000e-01 
 8.40000000e-01  4.55178281e-01  3.47903198e-09  4.55178281e-01  3.46498237e-09  3.39875109e-09  4.55178281e-01  4.55178281e-01  1.53077657e-07  1.45803469e-07  8.40000000e-01 
 8.50000000e-01  4.55178283e-01  3.47903199e-09  4.55178283e-01  3.46498231e-09  3.39875109e-09  4.55178283e-01  4.55178283e-01  1.53077671e-07  1.45803206e-07  8.50000000e-01 
 8.60000000e-01  4.55178263e-01  3.47903199e-09  4.55178263e-01  3.46498237e-09  3.39875109e-09  4.55178263e-01  4.55178263e-01  1.53077641e-07  1.45803043e-07  8.60000000e-01 
 8.70000000e-01  4.55178280e-01  3.47903199e-09  4.55178280e-01  3.46498237e-09  3.39875109e-09  4.55178280e-01  4.55178280e-01  1.53077652e-07  1.45802993e-07  8.70000000e-01 
 8.80000000e-01  4.55178290e-01  3.47903199e-09  4.55178290e-01  3.46498231e-09  3.39875109e-09  4.55178290e-01  4.55178290e-01  1.53077669e-07  1.45802886e-07  8.80000000e-01 
 8.90000000e-01  4.55178277e-01  3.47903199e-09  4.55178277e-01  3.46498237e-09  3.39875109e-09  4.55178277e-01  4.55178277e-01  1.53077644e-07  1.45802851e-07  8.90000000e-01 
 9.00000000e-01  4.55178287e-01  3.47903199e-09  4.55178287e-01  3.46498231e-09  3.39875109e-09  4.55178287e-01  4.55178287e-01  1.53077665e-07  1.45802758e-07  9.00000000e-01 
 9.10000000e-01  4.55178264e-01  3.47903193e-09  4.55178264e-01  3.46498237e-09  3.39875109e-09  4.55178264e-01  4.55178264e-01  1.53077639e-07  1.45802545e-07  9.10000000e-01 
 9.20000000e-01  4.55178273e-01  3.47903200e-09  4.55178273e-01  3.46498237e-09  3.39875109e-09  4.55178273e-01  4.55178273e-01  1.53077635e-07  1.45802460e-07  9.20000000e-01 
 9.30000000e-01  4.55178262e-01  3.47903192e-09  4.55178262e-01  3.46498231e-09  3.39875109e-09  4.55178262e-01  4.55178262e-01  1.53077635e-07  1.45802261e-07  9.30000000e-01 
 9.40000000e-01  4.55178288e-01  3.47903194e-09  4.55178288e-01  3.46498231e-09  3.39875109e-09  4.55178288e-01  4.55178288e-01  1.53077653e-07  1.45802254e-07  9.40000000e-01 
 9.50000000e-01  4.55178267e-01  3.47903199e-09  4.55178267e-01  3.46498231e-09  3.39875109e-09  4.55178267e-01  4.55178267e-01  1.53077629e-07  1.45802034e-07  9.50000000e-01 
 9.60000000e-01  4.55178262e-01  3.47903198e-09  4.55178262e-01  3.46498237e-09  3.39875109e-09  4.55178262e-01  4.55178262e-01  1.53077627e-07  1.45801948e-07  9.60000000e-01 
 9.70000000e-01  4.55178266e-01  3.47903193e-09  4.55178266e-01  3.46498237e-09  3.39875109e-09  4.55178266e-01  4.55178266e-01  1.53077638e-07  1.45801891e-07  9.70000000e-01 
 9.80000000e-01  4.55178297e-01  3.47903200e-09  4.55178297e-01  3.46498237e-09  3.39875109e-09  4.55178297e-01  4.55178297e-01  1.53077676e-07  1.45801870e-07  9.80000000e-01 
 9.90000000e-01  4.55178288e-01  3.47903198e-09  4.55178288e-01  3.46498231e-09  3.39875109e-09  4.55178288e-01  4.55178288e-01  1.53077651e-07  1.45801629e-07  9.90000000e-01 
 1.00000000e+00  4.55178314e-01  3.47903199e-09  4.55178314e-01  3.46498231e-09  3.39875109e-09  4.55178314e-01  4.55178314e-01  1.53077701e-07  1.45801607e-07  1.00000000e+00 
 1.01000000e+00  4.55178246e-01  3.47903199e-09  4.55178246e-01  3.46498231e-09  3.39875109e-09  4.55178246e-01  4.55178246e-01  1.53077598e-07  1.45801337e-07  1.01000000e+00 
 1.02000000e+00  4.55178266e-01  3.47903199e-09  4.55178266e-01  3.46498237e-09  3.39875109e-09  4.55178266e-01  4.55178266e-01  1.53077628e-07  1.45801295e-07  1.02000000e+00 
 1.03000000e+00  4.55178271e-01  3.47903193e-09  4.55178271e-01  3.46498237e-09  3.39875109e-09  4.55178271e-01  4.55178271e-01  1.53077642e-07  1.45801089e-07  1.03000000e+00 
 1.04000000e+00  4.55178288e-01  3.47903194e-09  4.55178288e-01  3.46498237e-09  3.39875109e-09  4.55178288e-01  4.55178288e-01  1.53077662e-07  1.45801124e-07  1.04000000e+00 
 1.05000000e+00  4.55178274e-01  3.47903193e-09  4.55178274e-01  3.46498237e-09  3.39875109e-09  4.55178274e-01  4.55178274e-01  1.53077640e-07  1.45800882e-07  1.05000000e+00 
 1.06000000e+00  4.55178287e-01  3.47903193e-09  4.55178287e-01  3.46498237e-09  3.39875109e-09  4.55178287e-01  4.55178287e-01  1.53077667e-07  1.45800811e-07  1.06000000e+00 
 1.07000000e+00  4.55178309e-01  3.47903194e-09  4.55178309e-01  3.46498231e-09  3.39875109e-09  4.55178309e-01  4.55178309e-01  1.53077703e-07  1.45800726e-07  1.07000000e+00 
 1.08000000e+00  4.55178296e-01  3.47903194e-09  4.55178296e-01  3.46498231e-09  3.39875109e-09  4.55178296e-01  4.55178296e-01  1.53077671e-07  1.45800641e-07  1.08000000e+00 
 1.09000000e+00  4.55178298e-01  3.47903199e-09  4.55178298e-01  3.46498231e-09  3.39875109e-09  4.55178298e-01  4.55178298e-01  1.53077674e-07  1.45800541e-07  1.09000000e+00 
 1.10000000e+00  4.55178315e-01  3.47903192e-09  4.55178315e-01  3.46498231e-09  3.39875109e-09  4.55178315e-01  4.55178315e-01  1.53077704e-07  1.45800435e-07  1.10000000e+00 
