 v-sweep         v(b0)           v(b1)           v(b2)           v(b3)           v(b4)           v(b5)           v(b6)           i(vbias)        i(viout)        v(vout)        
 0.00000000e+00  4.58516849e-01  4.58516849e-01  4.58516849e-01  3.32992069e-09  4.58516849e-01  4.58516849e-01  3.28124004e-09  1.59327055e-07  8.64008874e-08  0.00000000e+00 
 1.00000000e-02  4.58516841e-01  4.58516841e-01  4.58516841e-01  3.32992071e-09  4.58516841e-01  4.58516841e-01  3.28124007e-09  1.59327045e-07  8.64005005e-08  1.00000000e-02 
 2.00000000e-02  4.58516857e-01  4.58516857e-01  4.58516857e-01  3.32992072e-09  4.58516857e-01  4.58516857e-01  3.28124000e-09  1.59327078e-07  8.64001817e-08  2.00000000e-02 
 3.00000000e-02  4.58516824e-01  4.58516824e-01  4.58516824e-01  3.32992071e-09  4.58516824e-01  4.58516824e-01  3.28124002e-09  1.59327021e-07  8.63995979e-08  3.00000000e-02 
 4.00000000e-02  4.58516851e-01  4.58516851e-01  4.58516851e-01  3.32992071e-09  4.58516851e-01  4.58516851e-01  3.28124001e-09  1.59327070e-07  8.63991851e-08  4.00000000e-02 
 5.00000000e-02  4.58516847e-01  4.58516846e-01  4.58516846e-01  3.32992071e-09  4.58516846e-01  4.58516847e-01  3.28124001e-09  1.59327050e-07  8.63989857e-08  5.00000000e-02 
 6.00000000e-02  4.58516823e-01  4.58516823e-01  4.58516823e-01  3.32992071e-09  4.58516823e-01  4.58516823e-01  3.28124001e-09  1.59327030e-07  8.63985914e-08  6.00000000e-02 
 7.00000000e-02  4.58516843e-01  4.58516843e-01  4.58516843e-01  3.32992066e-09  4.58516843e-01  4.58516843e-01  3.28124001e-09  1.59327059e-07  8.63983769e-08  7.00000000e-02 
 8.00000000e-02  4.58516828e-01  4.58516827e-01  4.58516827e-01  3.32992066e-09  4.58516827e-01  4.58516827e-01  3.28124001e-09  1.59327027e-07  8.63980363e-08  8.00000000e-02 
 9.00000000e-02  4.58516818e-01  4.58516818e-01  4.58516818e-01  3.32992071e-09  4.58516818e-01  4.58516818e-01  3.28124001e-09  1.59327012e-07  8.63977254e-08  9.00000000e-02 
 1.00000000e-01  4.58516824e-01  4.58516823e-01  4.58516824e-01  3.32992066e-09  4.58516824e-01  4.58516824e-01  3.28124001e-09  1.59327025e-07  8.63974225e-08  1.00000000e-01 
 1.10000000e-01  4.58516851e-01  4.58516851e-01  4.58516851e-01  3.32992071e-09  4.58516851e-01  4.58516851e-01  3.28124001e-09  1.59327062e-07  8.63972609e-08  1.10000000e-01 
 1.20000000e-01  4.58516835e-01  4.58516835e-01  4.58516835e-01  3.32992071e-09  4.58516835e-01  4.58516835e-01  3.28124001e-09  1.59327036e-07  8.63969607e-08  1.20000000e-01 
 1.30000000e-01  4.58516824e-01  4.58516824e-01  4.58516824e-01  3.32992071e-09  4.58516824e-01  4.58516824e-01  3.28124001e-09  1.59327023e-07  8.63966401e-08  1.30000000e-01 
 1.40000000e-01  4.58516844e-01  4.58516844e-01  4.58516844e-01  3.32992071e-09  4.58516844e-01  4.58516844e-01  3.28124001e-09  1.59327051e-07  8.63964411e-08  1.40000000e-01 
 1.50000000e-01  4.58516838e-01  4.58516838e-01  4.58516838e-01  3.32992066e-09  4.58516838e-01  4.58516838e-01  3.28124007e-09  1.59327055e-07  8.63963194e-08  1.50000000e-01 
 1.60000000e-01  4.58516852e-01  4.58516851e-01  4.58516851e-01  3.32992071e-09  4.58516851e-01  4.58516851e-01  3.28124006e-09  1.59327065e-07  8.63962306e-08  1.60000000e-01 
 1.70000000e-01  4.58516834e-01  4.58516833e-01  4.58516833e-01  3.32992071e-09  4.58516833e-01  4.58516834e-01  3.28124002e-09  1.59327034e-07  8.63958878e-08  1.70000000e-01 
 1.80000000e-01  4.58516818e-01  4.58516818e-01  4.58516818e-01  3.32992071e-09  4.58516818e-01  4.58516818e-01  3.28124001e-09  1.59327024e-07  8.63956728e-08  1.80000000e-01 
 1.90000000e-01  4.58516854e-01  4.58516854e-01  4.58516854e-01  3.32992071e-09  4.58516854e-01  4.58516854e-01  3.28124007e-09  1.59327068e-07  8.63956533e-08  1.90000000e-01 
 2.00000000e-01  4.58516836e-01  4.58516836e-01  4.58516836e-01  3.32992071e-09  4.58516836e-01  4.58516836e-01  3.28124000e-09  1.59327025e-07  8.63953851e-08  2.00000000e-01 
 2.10000000e-01  4.58516829e-01  4.58516828e-01  4.58516828e-01  3.32992071e-09  4.58516828e-01  4.58516828e-01  3.28124002e-09  1.59327032e-07  8.63951044e-08  2.10000000e-01 
 2.20000000e-01  4.58516821e-01  4.58516821e-01  4.58516821e-01  3.32992066e-09  4.58516821e-01  4.58516821e-01  3.28124001e-09  1.59327021e-07  8.63949108e-08  2.20000000e-01 
 2.30000000e-01  4.58516863e-01  4.58516863e-01  4.58516863e-01  3.32992072e-09  4.58516863e-01  4.58516863e-01  3.28124001e-09  1.59327077e-07  8.63948078e-08  2.30000000e-01 
 2.40000000e-01  4.58516847e-01  4.58516847e-01  4.58516847e-01  3.32992066e-09  4.58516847e-01  4.58516847e-01  3.28124001e-09  1.59327040e-07  8.63948824e-08  2.40000000e-01 
 2.50000000e-01  4.58516834e-01  4.58516834e-01  4.58516834e-01  3.32992071e-09  4.58516834e-01  4.58516834e-01  3.28124001e-09  1.59327044e-07  8.63944685e-08  2.50000000e-01 
 2.60000000e-01  4.58516837e-01  4.58516837e-01  4.58516837e-01  3.32992066e-09  4.58516837e-01  4.58516837e-01  3.28124001e-09  1.59327031e-07  8.63943495e-08  2.60000000e-01 
 2.70000000e-01  4.58516849e-01  4.58516849e-01  4.58516849e-01  3.32992071e-09  4.58516849e-01  4.58516849e-01  3.28124001e-09  1.59327051e-07  8.63943956e-08  2.70000000e-01 
 2.80000000e-01  4.58516829e-01  4.58516829e-01  4.58516829e-01  3.32992066e-09  4.58516829e-01  4.58516829e-01  3.28124007e-09  1.59327013e-07  8.63941736e-08  2.80000000e-01 
 2.90000000e-01  4.58516830e-01  4.58516830e-01  4.58516830e-01  3.32992071e-09  4.58516830e-01  4.58516830e-01  3.28124006e-09  1.59327033e-07  8.63940777e-08  2.90000000e-01 
 3.00000000e-01  4.58516837e-01  4.58516836e-01  4.58516837e-01  3.32992071e-09  4.58516837e-01  4.58516837e-01  3.28124002e-09  1.59327035e-07  8.63939711e-08  3.00000000e-01 
 3.10000000e-01  4.58516831e-01  4.58516831e-01  4.58516831e-01  3.32992071e-09  4.58516831e-01  4.58516831e-01  3.28124007e-09  1.59327031e-07  8.63937899e-08  3.10000000e-01 
 3.20000000e-01  4.58516815e-01  4.58516815e-01  4.58516815e-01  3.32992066e-09  4.58516815e-01  4.58516815e-01  3.28124000e-09  1.59327002e-07  8.63936975e-08  3.20000000e-01 
 3.30000000e-01  4.58516828e-01  4.58516828e-01  4.58516828e-01  3.32992066e-09  4.58516828e-01  4.58516828e-01  3.28124002e-09  1.59327025e-07  8.63937366e-08  3.30000000e-01 
 3.40000000e-01  4.58516846e-01  4.58516846e-01  4.58516846e-01  3.32992071e-09  4.58516846e-01  4.58516846e-01  3.28124001e-09  1.59327055e-07  8.63936620e-08  3.40000000e-01 
 3.50000000e-01  4.58516821e-01  4.58516820e-01  4.58516821e-01  3.32992071e-09  4.58516820e-01  4.58516821e-01  3.28124001e-09  1.59327020e-07  8.63933138e-08  3.50000000e-01 
 3.60000000e-01  4.58516830e-01  4.58516830e-01  4.58516830e-01  3.32992071e-09  4.58516830e-01  4.58516830e-01  3.28124001e-09  1.59327021e-07  8.63932392e-08  3.60000000e-01 
 3.70000000e-01  4.58516825e-01  4.58516825e-01  4.58516825e-01  3.32992071e-09  4.58516825e-01  4.58516825e-01  3.28124001e-09  1.59327026e-07  8.63932819e-08  3.70000000e-01 
 3.80000000e-01  4.58516838e-01  4.58516838e-01  4.58516838e-01  3.32992071e-09  4.58516838e-01  4.58516838e-01  3.28124001e-09  1.59327051e-07  8.63932179e-08  3.80000000e-01 
 3.90000000e-01  4.58516847e-01  4.58516847e-01  4.58516847e-01  3.32992066e-09  4.58516847e-01  4.58516847e-01  3.28124001e-09  1.59327051e-07  8.63930261e-08  3.90000000e-01 
 4.00000000e-01  4.58516858e-01  4.58516858e-01  4.58516858e-01  3.32992072e-09  4.58516858e-01  4.58516858e-01  3.28124001e-09  1.59327065e-07  8.63930154e-08  4.00000000e-01 
 4.10000000e-01  4.58516857e-01  4.58516857e-01  4.58516857e-01  3.32992072e-09  4.58516857e-01  4.58516857e-01  3.28124001e-09  1.59327064e-07  8.63930367e-08  4.10000000e-01 
 4.20000000e-01  4.58516848e-01  4.58516848e-01  4.58516848e-01  3.32992066e-09  4.58516848e-01  4.58516848e-01  3.28124007e-09  1.59327062e-07  8.63928271e-08  4.20000000e-01 
 4.30000000e-01  4.58516837e-01  4.58516837e-01  4.58516837e-01  3.32992066e-09  4.58516837e-01  4.58516837e-01  3.28124000e-09  1.59327032e-07  8.63927845e-08  4.30000000e-01 
 4.40000000e-01  4.58516851e-01  4.58516851e-01  4.58516851e-01  3.32992071e-09  4.58516851e-01  4.58516851e-01  3.28124002e-09  1.59327056e-07  8.63926353e-08  4.40000000e-01 
 4.50000000e-01  4.58516846e-01  4.58516846e-01  4.58516846e-01  3.32992071e-09  4.58516846e-01  4.58516846e-01  3.28124007e-09  1.59327041e-07  8.63926140e-08  4.50000000e-01 
 4.60000000e-01  4.58516820e-01  4.58516819e-01  4.58516820e-01  3.32992071e-09  4.58516820e-01  4.58516820e-01  3.28124006e-09  1.59327010e-07  8.63924861e-08  4.60000000e-01 
 4.70000000e-01  4.58516823e-01  4.58516823e-01  4.58516823e-01  3.32992071e-09  4.58516823e-01  4.58516823e-01  3.28124002e-09  1.59327009e-07  8.63923653e-08  4.70000000e-01 
 4.80000000e-01  4.58516813e-01  4.58516813e-01  4.58516813e-01  3.32992065e-09  4.58516813e-01  4.58516813e-01  3.28124001e-09  1.59327000e-07  8.63922480e-08  4.80000000e-01 
 4.90000000e-01  4.58516837e-01  4.58516837e-01  4.58516837e-01  3.32992071e-09  4.58516837e-01  4.58516837e-01  3.28124001e-09  1.59327053e-07  8.63922196e-08  4.90000000e-01 
 5.00000000e-01  4.58516848e-01  4.58516847e-01  4.58516847e-01  3.32992071e-09  4.58516847e-01  4.58516848e-01  3.28124001e-09  1.59327056e-07  8.63921485e-08  5.00000000e-01 
 5.10000000e-01  4.58516861e-01  4.58516861e-01  4.58516861e-01  3.32992072e-09  4.58516861e-01  4.58516861e-01  3.28124001e-09  1.59327077e-07  8.63920881e-08  5.10000000e-01 
 5.20000000e-01  4.58516853e-01  4.58516853e-01  4.58516853e-01  3.32992071e-09  4.58516853e-01  4.58516853e-01  3.28124001e-09  1.59327062e-07  8.63920242e-08  5.20000000e-01 
 5.30000000e-01  4.58516855e-01  4.58516855e-01  4.58516855e-01  3.32992071e-09  4.58516855e-01  4.58516855e-01  3.28124001e-09  1.59327063e-07  8.63920384e-08  5.30000000e-01 
 5.40000000e-01  4.58516844e-01  4.58516844e-01  4.58516844e-01  3.32992071e-09  4.58516844e-01  4.58516844e-01  3.28124001e-09  1.59327054e-07  8.63919389e-08  5.40000000e-01 
 5.50000000e-01  4.58516831e-01  4.58516831e-01  4.58516831e-01  3.32992071e-09  4.58516831e-01  4.58516831e-01  3.28124001e-09  1.59327036e-07  8.63918608e-08  5.50000000e-01 
 5.60000000e-01  4.58516840e-01  4.58516839e-01  4.58516839e-01  3.32992071e-09  4.58516839e-01  4.58516840e-01  3.28124007e-09  1.59327041e-07  8.63918679e-08  5.60000000e-01 
 5.70000000e-01  4.58516835e-01  4.58516835e-01  4.58516835e-01  3.32992071e-09  4.58516835e-01  4.58516835e-01  3.28124006e-09  1.59327038e-07  8.63916654e-08  5.70000000e-01 
 5.80000000e-01  4.58516825e-01  4.58516824e-01  4.58516824e-01  3.32992071e-09  4.58516824e-01  4.58516825e-01  3.28124002e-09  1.59327021e-07  8.63915233e-08  5.80000000e-01 
 5.90000000e-01  4.58516855e-01  4.58516855e-01  4.58516855e-01  3.32992066e-09  4.58516855e-01  4.58516855e-01  3.28124001e-09  1.59327080e-07  8.63916227e-08  5.90000000e-01 
 6.00000000e-01  4.58516802e-01  4.58516801e-01  4.58516802e-01  3.32992071e-09  4.58516802e-01  4.58516802e-01  3.28124007e-09  1.59326971e-07  8.63913314e-08  6.00000000e-01 
 6.10000000e-01  4.58516826e-01  4.58516826e-01  4.58516826e-01  3.32992071e-09  4.58516826e-01  4.58516826e-01  3.28124006e-09  1.59327024e-07  8.63912746e-08  6.10000000e-01 
 6.20000000e-01  4.58516859e-01  4.58516859e-01  4.58516859e-01  3.32992072e-09  4.58516859e-01  4.58516859e-01  3.28124002e-09  1.59327073e-07  8.63913741e-08  6.20000000e-01 
 6.30000000e-01  4.58516831e-01  4.58516831e-01  4.58516831e-01  3.32992071e-09  4.58516831e-01  4.58516831e-01  3.28124001e-09  1.59327027e-07  8.63911538e-08  6.30000000e-01 
 6.40000000e-01  4.58516804e-01  4.58516804e-01  4.58516804e-01  3.32992065e-09  4.58516804e-01  4.58516804e-01  3.28124001e-09  1.59327000e-07  8.63911538e-08  6.40000000e-01 
 6.50000000e-01  4.58516839e-01  4.58516839e-01  4.58516839e-01  3.32992066e-09  4.58516839e-01  4.58516839e-01  3.28124001e-09  1.59327047e-07  8.63911538e-08  6.50000000e-01 
 6.60000000e-01  4.58516798e-01  4.58516797e-01  4.58516798e-01  3.32992071e-09  4.58516798e-01  4.58516798e-01  3.28124001e-09  1.59326982e-07  8.63908554e-08  6.60000000e-01 
 6.70000000e-01  4.58516847e-01  4.58516847e-01  4.58516847e-01  3.32992071e-09  4.58516847e-01  4.58516847e-01  3.28124001e-09  1.59327053e-07  8.63911325e-08  6.70000000e-01 
 6.80000000e-01  4.58516827e-01  4.58516827e-01  4.58516827e-01  3.32992066e-09  4.58516827e-01  4.58516827e-01  3.28124001e-09  1.59327011e-07  8.63908411e-08  6.80000000e-01 
 6.90000000e-01  4.58516829e-01  4.58516829e-01  4.58516829e-01  3.32992066e-09  4.58516829e-01  4.58516829e-01  3.28124001e-09  1.59327023e-07  8.63908127e-08  6.90000000e-01 
 7.00000000e-01  4.58516822e-01  4.58516822e-01  4.58516822e-01  3.32992066e-09  4.58516822e-01  4.58516822e-01  3.28124001e-09  1.59327024e-07  8.63906990e-08  7.00000000e-01 
 7.10000000e-01  4.58516815e-01  4.58516815e-01  4.58516815e-01  3.32992071e-09  4.58516815e-01  4.58516815e-01  3.28124001e-09  1.59327013e-07  8.63906706e-08  7.10000000e-01 
 7.20000000e-01  4.58516826e-01  4.58516826e-01  4.58516826e-01  3.32992071e-09  4.58516826e-01  4.58516826e-01  3.28124001e-09  1.59327032e-07  8.63906280e-08  7.20000000e-01 
 7.30000000e-01  4.58516837e-01  4.58516837e-01  4.58516837e-01  3.32992066e-09  4.58516837e-01  4.58516837e-01  3.28124007e-09  1.59327028e-07  8.63906138e-08  7.30000000e-01 
 7.40000000e-01  4.58516842e-01  4.58516842e-01  4.58516842e-01  3.32992071e-09  4.58516842e-01  4.58516842e-01  3.28124000e-09  1.59327050e-07  8.63906067e-08  7.40000000e-01 
 7.50000000e-01  4.58516843e-01  4.58516842e-01  4.58516842e-01  3.32992071e-09  4.58516842e-01  4.58516842e-01  3.28124002e-09  1.59327049e-07  8.63905072e-08  7.50000000e-01 
 7.60000000e-01  4.58516844e-01  4.58516843e-01  4.58516844e-01  3.32992071e-09  4.58516844e-01  4.58516844e-01  3.28124001e-09  1.59327044e-07  8.63903367e-08  7.60000000e-01 
 7.70000000e-01  4.58516854e-01  4.58516853e-01  4.58516853e-01  3.32992071e-09  4.58516853e-01  4.58516854e-01  3.28124001e-09  1.59327065e-07  8.63902443e-08  7.70000000e-01 
 7.80000000e-01  4.58516842e-01  4.58516842e-01  4.58516842e-01  3.32992071e-09  4.58516842e-01  4.58516842e-01  3.28124007e-09  1.59327036e-07  8.63902585e-08  7.80000000e-01 
 7.90000000e-01  4.58516817e-01  4.58516817e-01  4.58516817e-01  3.32992066e-09  4.58516817e-01  4.58516817e-01  3.28124000e-09  1.59327015e-07  8.63901661e-08  7.90000000e-01 
 8.00000000e-01  4.58516836e-01  4.58516836e-01  4.58516836e-01  3.32992066e-09  4.58516836e-01  4.58516836e-01  3.28124002e-09  1.59327037e-07  8.63900596e-08  8.00000000e-01 
 8.10000000e-01  4.58516836e-01  4.58516836e-01  4.58516836e-01  3.32992071e-09  4.58516836e-01  4.58516836e-01  3.28124001e-09  1.59327053e-07  8.63899743e-08  8.10000000e-01 
 8.20000000e-01  4.58516857e-01  4.58516857e-01  4.58516857e-01  3.32992066e-09  4.58516857e-01  4.58516857e-01  3.28124001e-09  1.59327075e-07  8.63899032e-08  8.20000000e-01 
 8.30000000e-01  4.58516829e-01  4.58516829e-01  4.58516829e-01  3.32992071e-09  4.58516829e-01  4.58516829e-01  3.28124001e-09  1.59327022e-07  8.63897824e-08  8.30000000e-01 
 8.40000000e-01  4.58516801e-01  4.58516801e-01  4.58516801e-01  3.32992065e-09  4.58516801e-01  4.58516801e-01  3.28124001e-09  1.59326978e-07  8.63896545e-08  8.40000000e-01 
 8.50000000e-01  4.58516852e-01  4.58516852e-01  4.58516852e-01  3.32992071e-09  4.58516852e-01  4.58516852e-01  3.28124001e-09  1.59327053e-07  8.63896972e-08  8.50000000e-01 
 8.60000000e-01  4.58516845e-01  4.58516844e-01  4.58516845e-01  3.32992071e-09  4.58516845e-01  4.58516845e-01  3.28124001e-09  1.59327039e-07  8.63896759e-08  8.60000000e-01 
 8.70000000e-01  4.58516854e-01  4.58516854e-01  4.58516854e-01  3.32992071e-09  4.58516854e-01  4.58516854e-01  3.28124001e-09  1.59327061e-07  8.63895622e-08  8.70000000e-01 
 8.80000000e-01  4.58516829e-01  4.58516829e-01  4.58516829e-01  3.32992071e-09  4.58516829e-01  4.58516829e-01  3.28124001e-09  1.59327035e-07  8.63894982e-08  8.80000000e-01 
 8.90000000e-01  4.58516861e-01  4.58516861e-01  4.58516861e-01  3.32992066e-09  4.58516861e-01  4.58516861e-01  3.28124001e-09  1.59327087e-07  8.63893419e-08  8.90000000e-01 
 9.00000000e-01  4.58516837e-01  4.58516837e-01  4.58516837e-01  3.32992066e-09  4.58516837e-01  4.58516837e-01  3.28124007e-09  1.59327027e-07  8.63893561e-08  9.00000000e-01 
 9.10000000e-01  4.58516845e-01  4.58516845e-01  4.58516845e-01  3.32992066e-09  4.58516845e-01  4.58516845e-01  3.28124006e-09  1.59327061e-07  8.63892282e-08  9.10000000e-01 
 9.20000000e-01  4.58516859e-01  4.58516859e-01  4.58516859e-01  3.32992072e-09  4.58516859e-01  4.58516859e-01  3.28124002e-09  1.59327065e-07  8.63893206e-08  9.20000000e-01 
 9.30000000e-01  4.58516846e-01  4.58516846e-01  4.58516846e-01  3.32992071e-09  4.58516846e-01  4.58516846e-01  3.28124001e-09  1.59327050e-07  8.63892424e-08  9.30000000e-01 
 9.40000000e-01  4.58516819e-01  4.58516819e-01  4.58516819e-01  3.32992071e-09  4.58516819e-01  4.58516819e-01  3.28124001e-09  1.59327016e-07  8.63890293e-08  9.40000000e-01 
 9.50000000e-01  4.58516842e-01  4.58516842e-01  4.58516842e-01  3.32992071e-09  4.58516842e-01  4.58516842e-01  3.28124001e-09  1.59327052e-07  8.63889653e-08  9.50000000e-01 
 9.60000000e-01  4.58516827e-01  4.58516827e-01  4.58516827e-01  3.32992066e-09  4.58516827e-01  4.58516827e-01  3.28124007e-09  1.59327033e-07  8.63887593e-08  9.60000000e-01 
 9.70000000e-01  4.58516850e-01  4.58516850e-01  4.58516850e-01  3.32992071e-09  4.58516850e-01  4.58516850e-01  3.28124006e-09  1.59327067e-07  8.63888090e-08  9.70000000e-01 
 9.80000000e-01  4.58516862e-01  4.58516862e-01  4.58516862e-01  3.32992072e-09  4.58516862e-01  4.58516862e-01  3.28124002e-09  1.59327086e-07  8.63888161e-08  9.80000000e-01 
 9.90000000e-01  4.58516834e-01  4.58516834e-01  4.58516834e-01  3.32992066e-09  4.58516834e-01  4.58516834e-01  3.28124001e-09  1.59327027e-07  8.63887877e-08  9.90000000e-01 
 1.00000000e+00  4.58516815e-01  4.58516815e-01  4.58516815e-01  3.32992066e-09  4.58516815e-01  4.58516815e-01  3.28124001e-09  1.59327011e-07  8.63884821e-08  1.00000000e+00 
 1.01000000e+00  4.58516826e-01  4.58516826e-01  4.58516826e-01  3.32992071e-09  4.58516826e-01  4.58516826e-01  3.28124007e-09  1.59327033e-07  8.63885106e-08  1.01000000e+00 
 1.02000000e+00  4.58516861e-01  4.58516861e-01  4.58516861e-01  3.32992072e-09  4.58516861e-01  4.58516861e-01  3.28124006e-09  1.59327079e-07  8.63885532e-08  1.02000000e+00 
 1.03000000e+00  4.58516807e-01  4.58516807e-01  4.58516807e-01  3.32992065e-09  4.58516807e-01  4.58516807e-01  3.28124002e-09  1.59326996e-07  8.63882406e-08  1.03000000e+00 
 1.04000000e+00  4.58516835e-01  4.58516835e-01  4.58516835e-01  3.32992071e-09  4.58516835e-01  4.58516835e-01  3.28124001e-09  1.59327036e-07  8.63883542e-08  1.04000000e+00 
 1.05000000e+00  4.58516843e-01  4.58516843e-01  4.58516843e-01  3.32992066e-09  4.58516843e-01  4.58516843e-01  3.28124001e-09  1.59327056e-07  8.63882406e-08  1.05000000e+00 
 1.06000000e+00  4.58516819e-01  4.58516819e-01  4.58516819e-01  3.32992066e-09  4.58516819e-01  4.58516819e-01  3.28124001e-09  1.59327013e-07  8.63881411e-08  1.06000000e+00 
 1.07000000e+00  4.58516818e-01  4.58516817e-01  4.58516817e-01  3.32992071e-09  4.58516817e-01  4.58516818e-01  3.28124007e-09  1.59327022e-07  8.63880274e-08  1.07000000e+00 
 1.08000000e+00  4.58516826e-01  4.58516826e-01  4.58516826e-01  3.32992071e-09  4.58516826e-01  4.58516826e-01  3.28124000e-09  1.59327025e-07  8.63878782e-08  1.08000000e+00 
 1.09000000e+00  4.58516855e-01  4.58516854e-01  4.58516855e-01  3.32992071e-09  4.58516855e-01  4.58516855e-01  3.28124002e-09  1.59327071e-07  8.63879350e-08  1.09000000e+00 
 1.10000000e+00  4.58516846e-01  4.58516846e-01  4.58516846e-01  3.32992071e-09  4.58516846e-01  4.58516846e-01  3.28124007e-09  1.59327037e-07  8.63878782e-08  1.10000000e+00 
