 v-sweep         v(b0)           v(b1)           v(b2)           v(b3)           v(b4)           v(b5)           v(b6)           i(vbias)        i(viout)        v(vout)        
 0.00000000e+00  3.41989867e-09  4.57025586e-01  3.31543986e-09  4.57025586e-01  4.57025586e-01  3.43394823e-09  3.24272193e-09  1.56648538e-07  3.81698239e-08  0.00000000e+00 
 1.00000000e-02  3.41989860e-09  4.57025594e-01  3.31543983e-09  4.57025594e-01  4.57025594e-01  3.43394821e-09  3.24272192e-09  1.56648553e-07  3.81694555e-08  1.00000000e-02 
 2.00000000e-02  3.41989859e-09  4.57025577e-01  3.31543983e-09  4.57025577e-01  4.57025577e-01  3.43394821e-09  3.24272186e-09  1.56648522e-07  3.81691718e-08  2.00000000e-02 
 3.00000000e-02  3.41989859e-09  4.57025561e-01  3.31543983e-09  4.57025561e-01  4.57025561e-01  3.43394815e-09  3.24272192e-09  1.56648489e-07  3.81686924e-08  3.00000000e-02 
 4.00000000e-02  3.41989859e-09  4.57025567e-01  3.31543983e-09  4.57025567e-01  4.57025567e-01  3.43394821e-09  3.24272192e-09  1.56648508e-07  3.81683187e-08  4.00000000e-02 
 5.00000000e-02  3.41989865e-09  4.57025564e-01  3.31543983e-09  4.57025564e-01  4.57025564e-01  3.43394821e-09  3.24272186e-09  1.56648505e-07  3.81680278e-08  5.00000000e-02 
 6.00000000e-02  3.41989865e-09  4.57025607e-01  3.31543983e-09  4.57025607e-01  4.57025607e-01  3.43394822e-09  3.24272186e-09  1.56648562e-07  3.81675753e-08  6.00000000e-02 
 7.00000000e-02  3.41989865e-09  4.57025603e-01  3.31543983e-09  4.57025603e-01  4.57025603e-01  3.43394822e-09  3.24272192e-09  1.56648553e-07  3.81674390e-08  7.00000000e-02 
 8.00000000e-02  3.41989860e-09  4.57025607e-01  3.31543983e-09  4.57025607e-01  4.57025607e-01  3.43394822e-09  3.24272186e-09  1.56648569e-07  3.81670953e-08  8.00000000e-02 
 9.00000000e-02  3.41989859e-09  4.57025572e-01  3.31543983e-09  4.57025572e-01  4.57025572e-01  3.43394821e-09  3.24272186e-09  1.56648514e-07  3.81667649e-08  9.00000000e-02 
 1.00000000e-01  3.41989859e-09  4.57025571e-01  3.31543983e-09  4.57025571e-01  4.57025571e-01  3.43394821e-09  3.24272192e-09  1.56648529e-07  3.81665624e-08  1.00000000e-01 
 1.10000000e-01  3.41989865e-09  4.57025578e-01  3.31543983e-09  4.57025578e-01  4.57025578e-01  3.43394821e-09  3.24272186e-09  1.56648531e-07  3.81663412e-08  1.10000000e-01 
 1.20000000e-01  3.41989860e-09  4.57025595e-01  3.31543983e-09  4.57025595e-01  4.57025595e-01  3.43394821e-09  3.24272192e-09  1.56648538e-07  3.81660712e-08  1.20000000e-01 
 1.30000000e-01  3.41989865e-09  4.57025593e-01  3.31543983e-09  4.57025593e-01  4.57025593e-01  3.43394821e-09  3.24272192e-09  1.56648547e-07  3.81658927e-08  1.30000000e-01 
 1.40000000e-01  3.41989865e-09  4.57025594e-01  3.31543983e-09  4.57025594e-01  4.57025594e-01  3.43394821e-09  3.24272192e-09  1.56648553e-07  3.81657150e-08  1.40000000e-01 
 1.50000000e-01  3.41989860e-09  4.57025599e-01  3.31543983e-09  4.57025599e-01  4.57025599e-01  3.43394816e-09  3.24272186e-09  1.56648557e-07  3.81655241e-08  1.50000000e-01 
 1.60000000e-01  3.41989865e-09  4.57025604e-01  3.31543983e-09  4.57025604e-01  4.57025604e-01  3.43394822e-09  3.24272186e-09  1.56648554e-07  3.81652843e-08  1.60000000e-01 
 1.70000000e-01  3.41989860e-09  4.57025601e-01  3.31543983e-09  4.57025601e-01  4.57025601e-01  3.43394822e-09  3.24272186e-09  1.56648556e-07  3.81651262e-08  1.70000000e-01 
 1.80000000e-01  3.41989865e-09  4.57025599e-01  3.31543983e-09  4.57025599e-01  4.57025599e-01  3.43394816e-09  3.24272192e-09  1.56648544e-07  3.81649219e-08  1.80000000e-01 
 1.90000000e-01  3.41989859e-09  4.57025581e-01  3.31543983e-09  4.57025581e-01  4.57025581e-01  3.43394821e-09  3.24272192e-09  1.56648522e-07  3.81647300e-08  1.90000000e-01 
 2.00000000e-01  3.41989865e-09  4.57025565e-01  3.31543983e-09  4.57025565e-01  4.57025565e-01  3.43394821e-09  3.24272192e-09  1.56648505e-07  3.81645471e-08  2.00000000e-01 
 2.10000000e-01  3.41989865e-09  4.57025599e-01  3.31543983e-09  4.57025599e-01  4.57025599e-01  3.43394816e-09  3.24272192e-09  1.56648556e-07  3.81644440e-08  2.10000000e-01 
 2.20000000e-01  3.41989865e-09  4.57025592e-01  3.31543983e-09  4.57025592e-01  4.57025592e-01  3.43394821e-09  3.24272186e-09  1.56648534e-07  3.81642824e-08  2.20000000e-01 
 2.30000000e-01  3.41989860e-09  4.57025600e-01  3.31543983e-09  4.57025600e-01  4.57025600e-01  3.43394821e-09  3.24272192e-09  1.56648548e-07  3.81641936e-08  2.30000000e-01 
 2.40000000e-01  3.41989865e-09  4.57025589e-01  3.31543983e-09  4.57025589e-01  4.57025589e-01  3.43394821e-09  3.24272192e-09  1.56648551e-07  3.81640710e-08  2.40000000e-01 
 2.50000000e-01  3.41989860e-09  4.57025599e-01  3.31543983e-09  4.57025599e-01  4.57025599e-01  3.43394821e-09  3.24272186e-09  1.56648560e-07  3.81639236e-08  2.50000000e-01 
 2.60000000e-01  3.41989859e-09  4.57025581e-01  3.31543983e-09  4.57025581e-01  4.57025581e-01  3.43394821e-09  3.24272186e-09  1.56648531e-07  3.81638277e-08  2.60000000e-01 
 2.70000000e-01  3.41989865e-09  4.57025590e-01  3.31543983e-09  4.57025590e-01  4.57025590e-01  3.43394816e-09  3.24272192e-09  1.56648528e-07  3.81636145e-08  2.70000000e-01 
 2.80000000e-01  3.41989859e-09  4.57025579e-01  3.31543983e-09  4.57025579e-01  4.57025579e-01  3.43394815e-09  3.24272192e-09  1.56648521e-07  3.81635985e-08  2.80000000e-01 
 2.90000000e-01  3.41989865e-09  4.57025599e-01  3.31543983e-09  4.57025599e-01  4.57025599e-01  3.43394821e-09  3.24272192e-09  1.56648549e-07  3.81635452e-08  2.90000000e-01 
 3.00000000e-01  3.41989859e-09  4.57025588e-01  3.31543983e-09  4.57025588e-01  4.57025588e-01  3.43394821e-09  3.24272186e-09  1.56648541e-07  3.81633853e-08  3.00000000e-01 
 3.10000000e-01  3.41989859e-09  4.57025572e-01  3.31543983e-09  4.57025572e-01  4.57025572e-01  3.43394821e-09  3.24272192e-09  1.56648520e-07  3.81631864e-08  3.10000000e-01 
 3.20000000e-01  3.41989865e-09  4.57025602e-01  3.31543983e-09  4.57025602e-01  4.57025602e-01  3.43394822e-09  3.24272186e-09  1.56648562e-07  3.81631331e-08  3.20000000e-01 
 3.30000000e-01  3.41989865e-09  4.57025580e-01  3.31543983e-09  4.57025580e-01  4.57025580e-01  3.43394821e-09  3.24272192e-09  1.56648520e-07  3.81631260e-08  3.30000000e-01 
 3.40000000e-01  3.41989859e-09  4.57025572e-01  3.31543983e-09  4.57025572e-01  4.57025572e-01  3.43394821e-09  3.24272186e-09  1.56648498e-07  3.81629413e-08  3.40000000e-01 
 3.50000000e-01  3.41989859e-09  4.57025562e-01  3.31543983e-09  4.57025562e-01  4.57025562e-01  3.43394821e-09  3.24272192e-09  1.56648479e-07  3.81627849e-08  3.50000000e-01 
 3.60000000e-01  3.41989865e-09  4.57025599e-01  3.31543983e-09  4.57025599e-01  4.57025599e-01  3.43394821e-09  3.24272192e-09  1.56648545e-07  3.81628311e-08  3.60000000e-01 
 3.70000000e-01  3.41989860e-09  4.57025601e-01  3.31543983e-09  4.57025601e-01  4.57025601e-01  3.43394822e-09  3.24272186e-09  1.56648551e-07  3.81627459e-08  3.70000000e-01 
 3.80000000e-01  3.41989860e-09  4.57025596e-01  3.31543983e-09  4.57025596e-01  4.57025596e-01  3.43394821e-09  3.24272186e-09  1.56648544e-07  3.81626712e-08  3.80000000e-01 
 3.90000000e-01  3.41989865e-09  4.57025592e-01  3.31543983e-09  4.57025592e-01  4.57025592e-01  3.43394821e-09  3.24272186e-09  1.56648546e-07  3.81625540e-08  3.90000000e-01 
 4.00000000e-01  3.41989865e-09  4.57025577e-01  3.31543983e-09  4.57025577e-01  4.57025577e-01  3.43394815e-09  3.24272186e-09  1.56648511e-07  3.81625789e-08  4.00000000e-01 
 4.10000000e-01  3.41989865e-09  4.57025582e-01  3.31543983e-09  4.57025582e-01  4.57025582e-01  3.43394821e-09  3.24272192e-09  1.56648526e-07  3.81623870e-08  4.10000000e-01 
 4.20000000e-01  3.41989865e-09  4.57025575e-01  3.31543983e-09  4.57025575e-01  4.57025575e-01  3.43394815e-09  3.24272186e-09  1.56648502e-07  3.81622698e-08  4.20000000e-01 
 4.30000000e-01  3.41989865e-09  4.57025569e-01  3.31543983e-09  4.57025569e-01  4.57025569e-01  3.43394821e-09  3.24272192e-09  1.56648511e-07  3.81621774e-08  4.30000000e-01 
 4.40000000e-01  3.41989859e-09  4.57025588e-01  3.31543983e-09  4.57025588e-01  4.57025588e-01  3.43394821e-09  3.24272186e-09  1.56648536e-07  3.81622378e-08  4.40000000e-01 
 4.50000000e-01  3.41989859e-09  4.57025575e-01  3.31543983e-09  4.57025575e-01  4.57025575e-01  3.43394821e-09  3.24272186e-09  1.56648510e-07  3.81621881e-08  4.50000000e-01 
 4.60000000e-01  3.41989860e-09  4.57025599e-01  3.31543983e-09  4.57025599e-01  4.57025599e-01  3.43394816e-09  3.24272186e-09  1.56648555e-07  3.81621099e-08  4.60000000e-01 
 4.70000000e-01  3.41989865e-09  4.57025594e-01  3.31543983e-09  4.57025594e-01  4.57025594e-01  3.43394816e-09  3.24272192e-09  1.56648545e-07  3.81619465e-08  4.70000000e-01 
 4.80000000e-01  3.41989865e-09  4.57025585e-01  3.31543983e-09  4.57025585e-01  4.57025585e-01  3.43394816e-09  3.24272192e-09  1.56648518e-07  3.81619998e-08  4.80000000e-01 
 4.90000000e-01  3.41989859e-09  4.57025563e-01  3.31543983e-09  4.57025563e-01  4.57025563e-01  3.43394815e-09  3.24272192e-09  1.56648499e-07  3.81618577e-08  4.90000000e-01 
 5.00000000e-01  3.41989865e-09  4.57025580e-01  3.31543983e-09  4.57025580e-01  4.57025580e-01  3.43394815e-09  3.24272186e-09  1.56648527e-07  3.81618399e-08  5.00000000e-01 
 5.10000000e-01  3.41989865e-09  4.57025596e-01  3.31543983e-09  4.57025596e-01  4.57025596e-01  3.43394821e-09  3.24272192e-09  1.56648559e-07  3.81618150e-08  5.10000000e-01 
 5.20000000e-01  3.41989859e-09  4.57025578e-01  3.31543983e-09  4.57025578e-01  4.57025578e-01  3.43394821e-09  3.24272192e-09  1.56648534e-07  3.81618257e-08  5.20000000e-01 
 5.30000000e-01  3.41989865e-09  4.57025594e-01  3.31543983e-09  4.57025594e-01  4.57025594e-01  3.43394821e-09  3.24272192e-09  1.56648554e-07  3.81615948e-08  5.30000000e-01 
 5.40000000e-01  3.41989860e-09  4.57025600e-01  3.31543983e-09  4.57025600e-01  4.57025600e-01  3.43394816e-09  3.24272186e-09  1.56648568e-07  3.81615131e-08  5.40000000e-01 
 5.50000000e-01  3.41989859e-09  4.57025584e-01  3.31543983e-09  4.57025584e-01  4.57025584e-01  3.43394821e-09  3.24272192e-09  1.56648535e-07  3.81614562e-08  5.50000000e-01 
 5.60000000e-01  3.41989865e-09  4.57025581e-01  3.31543983e-09  4.57025581e-01  4.57025581e-01  3.43394821e-09  3.24272192e-09  1.56648531e-07  3.81613354e-08  5.60000000e-01 
 5.70000000e-01  3.41989865e-09  4.57025586e-01  3.31543983e-09  4.57025586e-01  4.57025586e-01  3.43394821e-09  3.24272192e-09  1.56648524e-07  3.81613781e-08  5.70000000e-01 
 5.80000000e-01  3.41989859e-09  4.57025590e-01  3.31543983e-09  4.57025590e-01  4.57025590e-01  3.43394821e-09  3.24272192e-09  1.56648532e-07  3.81612324e-08  5.80000000e-01 
 5.90000000e-01  3.41989865e-09  4.57025593e-01  3.31543983e-09  4.57025593e-01  4.57025593e-01  3.43394821e-09  3.24272192e-09  1.56648533e-07  3.81612821e-08  5.90000000e-01 
 6.00000000e-01  3.41989865e-09  4.57025585e-01  3.31543983e-09  4.57025585e-01  4.57025585e-01  3.43394821e-09  3.24272192e-09  1.56648529e-07  3.81612040e-08  6.00000000e-01 
 6.10000000e-01  3.41989860e-09  4.57025597e-01  3.31543983e-09  4.57025598e-01  4.57025597e-01  3.43394821e-09  3.24272186e-09  1.56648554e-07  3.81611827e-08  6.10000000e-01 
 6.20000000e-01  3.41989865e-09  4.57025588e-01  3.31543983e-09  4.57025588e-01  4.57025588e-01  3.43394821e-09  3.24272192e-09  1.56648531e-07  3.81610121e-08  6.20000000e-01 
 6.30000000e-01  3.41989865e-09  4.57025605e-01  3.31543983e-09  4.57025605e-01  4.57025605e-01  3.43394822e-09  3.24272186e-09  1.56648571e-07  3.81610903e-08  6.30000000e-01 
 6.40000000e-01  3.41989865e-09  4.57025604e-01  3.31543983e-09  4.57025604e-01  4.57025604e-01  3.43394822e-09  3.24272186e-09  1.56648559e-07  3.81610832e-08  6.40000000e-01 
 6.50000000e-01  3.41989865e-09  4.57025589e-01  3.31543983e-09  4.57025589e-01  4.57025589e-01  3.43394821e-09  3.24272192e-09  1.56648536e-07  3.81609979e-08  6.50000000e-01 
 6.60000000e-01  3.41989859e-09  4.57025580e-01  3.31543983e-09  4.57025580e-01  4.57025580e-01  3.43394821e-09  3.24272186e-09  1.56648533e-07  3.81608345e-08  6.60000000e-01 
 6.70000000e-01  3.41989859e-09  4.57025568e-01  3.31543983e-09  4.57025568e-01  4.57025568e-01  3.43394821e-09  3.24272192e-09  1.56648495e-07  3.81608203e-08  6.70000000e-01 
 6.80000000e-01  3.41989865e-09  4.57025574e-01  3.31543983e-09  4.57025574e-01  4.57025574e-01  3.43394821e-09  3.24272192e-09  1.56648504e-07  3.81607350e-08  6.80000000e-01 
 6.90000000e-01  3.41989859e-09  4.57025581e-01  3.31543983e-09  4.57025581e-01  4.57025581e-01  3.43394821e-09  3.24272192e-09  1.56648515e-07  3.81607919e-08  6.90000000e-01 
 7.00000000e-01  3.41989860e-09  4.57025593e-01  3.31543983e-09  4.57025593e-01  4.57025593e-01  3.43394816e-09  3.24272192e-09  1.56648537e-07  3.81605716e-08  7.00000000e-01 
 7.10000000e-01  3.41989860e-09  4.57025606e-01  3.31543983e-09  4.57025606e-01  4.57025606e-01  3.43394822e-09  3.24272186e-09  1.56648574e-07  3.81606071e-08  7.10000000e-01 
 7.20000000e-01  3.41989865e-09  4.57025591e-01  3.31543983e-09  4.57025591e-01  4.57025591e-01  3.43394816e-09  3.24272192e-09  1.56648530e-07  3.81605361e-08  7.20000000e-01 
 7.30000000e-01  3.41989865e-09  4.57025594e-01  3.31543983e-09  4.57025594e-01  4.57025594e-01  3.43394821e-09  3.24272186e-09  1.56648532e-07  3.81605361e-08  7.30000000e-01 
 7.40000000e-01  3.41989859e-09  4.57025589e-01  3.31543983e-09  4.57025589e-01  4.57025589e-01  3.43394821e-09  3.24272186e-09  1.56648531e-07  3.81605361e-08  7.40000000e-01 
 7.50000000e-01  3.41989865e-09  4.57025569e-01  3.31543983e-09  4.57025569e-01  4.57025569e-01  3.43394815e-09  3.24272186e-09  1.56648505e-07  3.81604366e-08  7.50000000e-01 
 7.60000000e-01  3.41989865e-09  4.57025592e-01  3.31543983e-09  4.57025592e-01  4.57025591e-01  3.43394821e-09  3.24272192e-09  1.56648541e-07  3.81602518e-08  7.60000000e-01 
 7.70000000e-01  3.41989859e-09  4.57025588e-01  3.31543983e-09  4.57025588e-01  4.57025588e-01  3.43394821e-09  3.24272186e-09  1.56648529e-07  3.81603797e-08  7.70000000e-01 
 7.80000000e-01  3.41989860e-09  4.57025604e-01  3.31543983e-09  4.57025604e-01  4.57025604e-01  3.43394822e-09  3.24272192e-09  1.56648556e-07  3.81602661e-08  7.80000000e-01 
 7.90000000e-01  3.41989859e-09  4.57025586e-01  3.31543983e-09  4.57025586e-01  4.57025586e-01  3.43394821e-09  3.24272192e-09  1.56648527e-07  3.81601808e-08  7.90000000e-01 
 8.00000000e-01  3.41989865e-09  4.57025610e-01  3.31543983e-09  4.57025610e-01  4.57025610e-01  3.43394816e-09  3.24272192e-09  1.56648577e-07  3.81600529e-08  8.00000000e-01 
 8.10000000e-01  3.41989860e-09  4.57025601e-01  3.31543983e-09  4.57025601e-01  4.57025601e-01  3.43394816e-09  3.24272192e-09  1.56648546e-07  3.81600316e-08  8.10000000e-01 
 8.20000000e-01  3.41989865e-09  4.57025579e-01  3.31543983e-09  4.57025579e-01  4.57025579e-01  3.43394821e-09  3.24272192e-09  1.56648516e-07  3.81600103e-08  8.20000000e-01 
 8.30000000e-01  3.41989860e-09  4.57025594e-01  3.31543983e-09  4.57025594e-01  4.57025594e-01  3.43394816e-09  3.24272186e-09  1.56648546e-07  3.81599321e-08  8.30000000e-01 
 8.40000000e-01  3.41989865e-09  4.57025586e-01  3.31543983e-09  4.57025587e-01  4.57025586e-01  3.43394821e-09  3.24272186e-09  1.56648535e-07  3.81600103e-08  8.40000000e-01 
 8.50000000e-01  3.41989865e-09  4.57025605e-01  3.31543983e-09  4.57025605e-01  4.57025605e-01  3.43394822e-09  3.24272186e-09  1.56648559e-07  3.81598113e-08  8.50000000e-01 
 8.60000000e-01  3.41989865e-09  4.57025603e-01  3.31543983e-09  4.57025603e-01  4.57025603e-01  3.43394816e-09  3.24272192e-09  1.56648566e-07  3.81598753e-08  8.60000000e-01 
 8.70000000e-01  3.41989865e-09  4.57025587e-01  3.31543983e-09  4.57025587e-01  4.57025587e-01  3.43394821e-09  3.24272192e-09  1.56648536e-07  3.81596834e-08  8.70000000e-01 
 8.80000000e-01  3.41989865e-09  4.57025603e-01  3.31543983e-09  4.57025603e-01  4.57025603e-01  3.43394816e-09  3.24272192e-09  1.56648556e-07  3.81595342e-08  8.80000000e-01 
 8.90000000e-01  3.41989865e-09  4.57025596e-01  3.31543983e-09  4.57025596e-01  4.57025596e-01  3.43394816e-09  3.24272192e-09  1.56648548e-07  3.81595484e-08  8.90000000e-01 
 9.00000000e-01  3.41989865e-09  4.57025608e-01  3.31543983e-09  4.57025609e-01  4.57025608e-01  3.43394822e-09  3.24272186e-09  1.56648561e-07  3.81595981e-08  9.00000000e-01 
 9.10000000e-01  3.41989866e-09  4.57025617e-01  3.31543983e-09  4.57025617e-01  4.57025617e-01  3.43394822e-09  3.24272186e-09  1.56648582e-07  3.81595910e-08  9.10000000e-01 
 9.20000000e-01  3.41989859e-09  4.57025585e-01  3.31543983e-09  4.57025585e-01  4.57025585e-01  3.43394821e-09  3.24272186e-09  1.56648533e-07  3.81593992e-08  9.20000000e-01 
 9.30000000e-01  3.41989860e-09  4.57025604e-01  3.31543983e-09  4.57025604e-01  4.57025604e-01  3.43394822e-09  3.24272186e-09  1.56648555e-07  3.81593921e-08  9.30000000e-01 
 9.40000000e-01  3.41989859e-09  4.57025591e-01  3.31543983e-09  4.57025591e-01  4.57025591e-01  3.43394821e-09  3.24272186e-09  1.56648540e-07  3.81592002e-08  9.40000000e-01 
 9.50000000e-01  3.41989860e-09  4.57025607e-01  3.31543983e-09  4.57025607e-01  4.57025607e-01  3.43394822e-09  3.24272186e-09  1.56648566e-07  3.81593068e-08  9.50000000e-01 
 9.60000000e-01  3.41989865e-09  4.57025601e-01  3.31543983e-09  4.57025601e-01  4.57025601e-01  3.43394822e-09  3.24272192e-09  1.56648550e-07  3.81591931e-08  9.60000000e-01 
 9.70000000e-01  3.41989859e-09  4.57025564e-01  3.31543983e-09  4.57025564e-01  4.57025564e-01  3.43394821e-09  3.24272192e-09  1.56648508e-07  3.81592002e-08  9.70000000e-01 
 9.80000000e-01  3.41989859e-09  4.57025584e-01  3.31543983e-09  4.57025584e-01  4.57025584e-01  3.43394821e-09  3.24272186e-09  1.56648523e-07  3.81591008e-08  9.80000000e-01 
 9.90000000e-01  3.41989865e-09  4.57025604e-01  3.31543983e-09  4.57025604e-01  4.57025604e-01  3.43394816e-09  3.24272192e-09  1.56648558e-07  3.81589729e-08  9.90000000e-01 
 1.00000000e+00  3.41989860e-09  4.57025612e-01  3.31543983e-09  4.57025612e-01  4.57025612e-01  3.43394816e-09  3.24272186e-09  1.56648559e-07  3.81589516e-08  1.00000000e+00 
 1.01000000e+00  3.41989865e-09  4.57025594e-01  3.31543983e-09  4.57025594e-01  4.57025594e-01  3.43394821e-09  3.24272192e-09  1.56648544e-07  3.81589089e-08  1.01000000e+00 
 1.02000000e+00  3.41989865e-09  4.57025592e-01  3.31543983e-09  4.57025592e-01  4.57025592e-01  3.43394816e-09  3.24272186e-09  1.56648556e-07  3.81588237e-08  1.02000000e+00 
 1.03000000e+00  3.41989865e-09  4.57025584e-01  3.31543983e-09  4.57025584e-01  4.57025584e-01  3.43394816e-09  3.24272192e-09  1.56648534e-07  3.81588023e-08  1.03000000e+00 
 1.04000000e+00  3.41989865e-09  4.57025602e-01  3.31543983e-09  4.57025602e-01  4.57025602e-01  3.43394822e-09  3.24272192e-09  1.56648549e-07  3.81586531e-08  1.04000000e+00 
 1.05000000e+00  3.41989865e-09  4.57025602e-01  3.31543983e-09  4.57025602e-01  4.57025602e-01  3.43394822e-09  3.24272186e-09  1.56648563e-07  3.81586176e-08  1.05000000e+00 
 1.06000000e+00  3.41989860e-09  4.57025605e-01  3.31543983e-09  4.57025605e-01  4.57025605e-01  3.43394822e-09  3.24272192e-09  1.56648561e-07  3.81586531e-08  1.06000000e+00 
 1.07000000e+00  3.41989859e-09  4.57025581e-01  3.31543983e-09  4.57025581e-01  4.57025581e-01  3.43394816e-09  3.24272186e-09  1.56648528e-07  3.81585394e-08  1.07000000e+00 
 1.08000000e+00  3.41989865e-09  4.57025579e-01  3.31543983e-09  4.57025579e-01  4.57025579e-01  3.43394821e-09  3.24272186e-09  1.56648527e-07  3.81584826e-08  1.08000000e+00 
 1.09000000e+00  3.41989865e-09  4.57025571e-01  3.31543983e-09  4.57025571e-01  4.57025571e-01  3.43394821e-09  3.24272192e-09  1.56648504e-07  3.81583618e-08  1.09000000e+00 
 1.10000000e+00  3.41989859e-09  4.57025592e-01  3.31543983e-09  4.57025592e-01  4.57025592e-01  3.43394816e-09  3.24272192e-09  1.56648542e-07  3.81584044e-08  1.10000000e+00 
