 v-sweep         v(b0)           v(b1)           v(b2)           v(b3)           v(b4)           v(b5)           v(b6)           i(vbias)        i(viout)        v(vout)        
 0.00000000e+00  4.55509240e-01  3.37743118e-09  3.11154225e-09  4.55509240e-01  3.15270059e-09  4.55509240e-01  4.55509240e-01  1.54938750e-07  1.44693065e-07  0.00000000e+00 
 1.00000000e-02  4.55509267e-01  3.37743122e-09  3.11154222e-09  4.55509267e-01  3.15270062e-09  4.55509267e-01  4.55509267e-01  1.54938791e-07  1.44692686e-07  1.00000000e-02 
 2.00000000e-02  4.55509247e-01  3.37743122e-09  3.11154222e-09  4.55509247e-01  3.15270062e-09  4.55509247e-01  4.55509247e-01  1.54938748e-07  1.44692275e-07  2.00000000e-02 
 3.00000000e-02  4.55509229e-01  3.37743122e-09  3.11154228e-09  4.55509229e-01  3.15270062e-09  4.55509229e-01  4.55509229e-01  1.54938726e-07  1.44691610e-07  3.00000000e-02 
 4.00000000e-02  4.55509255e-01  3.37743122e-09  3.11154222e-09  4.55509255e-01  3.15270062e-09  4.55509255e-01  4.55509255e-01  1.54938746e-07  1.44691559e-07  4.00000000e-02 
 5.00000000e-02  4.55509248e-01  3.37743122e-09  3.11154228e-09  4.55509248e-01  3.15270062e-09  4.55509248e-01  4.55509248e-01  1.54938744e-07  1.44691091e-07  5.00000000e-02 
 6.00000000e-02  4.55509244e-01  3.37743116e-09  3.11154228e-09  4.55509244e-01  3.15270062e-09  4.55509244e-01  4.55509244e-01  1.54938732e-07  1.44690711e-07  6.00000000e-02 
 7.00000000e-02  4.55509248e-01  3.37743116e-09  3.11154228e-09  4.55509248e-01  3.15270062e-09  4.55509248e-01  4.55509249e-01  1.54938754e-07  1.44690472e-07  7.00000000e-02 
 8.00000000e-02  4.55509264e-01  3.37743122e-09  3.11154222e-09  4.55509264e-01  3.15270062e-09  4.55509264e-01  4.55509264e-01  1.54938770e-07  1.44690079e-07  8.00000000e-02 
 9.00000000e-02  4.55509263e-01  3.37743122e-09  3.11154222e-09  4.55509263e-01  3.15270062e-09  4.55509263e-01  4.55509263e-01  1.54938772e-07  1.44689805e-07  9.00000000e-02 
 1.00000000e-01  4.55509266e-01  3.37743116e-09  3.11154222e-09  4.55509266e-01  3.15270062e-09  4.55509266e-01  4.55509266e-01  1.54938770e-07  1.44689404e-07  1.00000000e-01 
 1.10000000e-01  4.55509222e-01  3.37743122e-09  3.11154222e-09  4.55509221e-01  3.15270062e-09  4.55509222e-01  4.55509222e-01  1.54938716e-07  1.44689049e-07  1.10000000e-01 
 1.20000000e-01  4.55509256e-01  3.37743116e-09  3.11154222e-09  4.55509256e-01  3.15270062e-09  4.55509256e-01  4.55509256e-01  1.54938761e-07  1.44688980e-07  1.20000000e-01 
 1.30000000e-01  4.55509241e-01  3.37743122e-09  3.11154222e-09  4.55509240e-01  3.15270062e-09  4.55509241e-01  4.55509241e-01  1.54938740e-07  1.44688645e-07  1.30000000e-01 
 1.40000000e-01  4.55509237e-01  3.37743116e-09  3.11154222e-09  4.55509237e-01  3.15270062e-09  4.55509237e-01  4.55509237e-01  1.54938732e-07  1.44688431e-07  1.40000000e-01 
 1.50000000e-01  4.55509255e-01  3.37743116e-09  3.11154222e-09  4.55509255e-01  3.15270062e-09  4.55509255e-01  4.55509255e-01  1.54938764e-07  1.44688141e-07  1.50000000e-01 
 1.60000000e-01  4.55509253e-01  3.37743116e-09  3.11154228e-09  4.55509253e-01  3.15270062e-09  4.55509253e-01  4.55509253e-01  1.54938753e-07  1.44687972e-07  1.60000000e-01 
 1.70000000e-01  4.55509273e-01  3.37743122e-09  3.11154228e-09  4.55509273e-01  3.15270063e-09  4.55509273e-01  4.55509273e-01  1.54938785e-07  1.44687810e-07  1.70000000e-01 
 1.80000000e-01  4.55509256e-01  3.37743116e-09  3.11154222e-09  4.55509256e-01  3.15270062e-09  4.55509256e-01  4.55509256e-01  1.54938759e-07  1.44687579e-07  1.80000000e-01 
 1.90000000e-01  4.55509238e-01  3.37743122e-09  3.11154222e-09  4.55509238e-01  3.15270062e-09  4.55509238e-01  4.55509238e-01  1.54938732e-07  1.44687229e-07  1.90000000e-01 
 2.00000000e-01  4.55509250e-01  3.37743122e-09  3.11154222e-09  4.55509250e-01  3.15270062e-09  4.55509250e-01  4.55509250e-01  1.54938748e-07  1.44687089e-07  2.00000000e-01 
 2.10000000e-01  4.55509253e-01  3.37743122e-09  3.11154228e-09  4.55509253e-01  3.15270062e-09  4.55509253e-01  4.55509253e-01  1.54938748e-07  1.44687014e-07  2.10000000e-01 
 2.20000000e-01  4.55509264e-01  3.37743116e-09  3.11154228e-09  4.55509264e-01  3.15270062e-09  4.55509264e-01  4.55509264e-01  1.54938778e-07  1.44686890e-07  2.20000000e-01 
 2.30000000e-01  4.55509256e-01  3.37743116e-09  3.11154228e-09  4.55509256e-01  3.15270062e-09  4.55509256e-01  4.55509256e-01  1.54938769e-07  1.44686730e-07  2.30000000e-01 
 2.40000000e-01  4.55509239e-01  3.37743122e-09  3.11154228e-09  4.55509239e-01  3.15270062e-09  4.55509239e-01  4.55509239e-01  1.54938728e-07  1.44686348e-07  2.40000000e-01 
 2.50000000e-01  4.55509246e-01  3.37743116e-09  3.11154222e-09  4.55509246e-01  3.15270062e-09  4.55509246e-01  4.55509246e-01  1.54938750e-07  1.44686215e-07  2.50000000e-01 
 2.60000000e-01  4.55509257e-01  3.37743116e-09  3.11154228e-09  4.55509257e-01  3.15270062e-09  4.55509257e-01  4.55509257e-01  1.54938767e-07  1.44686151e-07  2.60000000e-01 
 2.70000000e-01  4.55509248e-01  3.37743122e-09  3.11154222e-09  4.55509248e-01  3.15270062e-09  4.55509248e-01  4.55509248e-01  1.54938755e-07  1.44685941e-07  2.70000000e-01 
 2.80000000e-01  4.55509247e-01  3.37743116e-09  3.11154222e-09  4.55509247e-01  3.15270062e-09  4.55509247e-01  4.55509247e-01  1.54938751e-07  1.44685826e-07  2.80000000e-01 
 2.90000000e-01  4.55509260e-01  3.37743116e-09  3.11154228e-09  4.55509260e-01  3.15270062e-09  4.55509260e-01  4.55509261e-01  1.54938769e-07  1.44685711e-07  2.90000000e-01 
 3.00000000e-01  4.55509242e-01  3.37743116e-09  3.11154222e-09  4.55509242e-01  3.15270062e-09  4.55509242e-01  4.55509242e-01  1.54938747e-07  1.44685373e-07  3.00000000e-01 
 3.10000000e-01  4.55509263e-01  3.37743116e-09  3.11154222e-09  4.55509263e-01  3.15270062e-09  4.55509263e-01  4.55509263e-01  1.54938776e-07  1.44685444e-07  3.10000000e-01 
 3.20000000e-01  4.55509261e-01  3.37743116e-09  3.11154228e-09  4.55509261e-01  3.15270062e-09  4.55509261e-01  4.55509261e-01  1.54938763e-07  1.44685245e-07  3.20000000e-01 
 3.30000000e-01  4.55509254e-01  3.37743122e-09  3.11154228e-09  4.55509254e-01  3.15270062e-09  4.55509254e-01  4.55509254e-01  1.54938759e-07  1.44685153e-07  3.30000000e-01 
 3.40000000e-01  4.55509249e-01  3.37743116e-09  3.11154228e-09  4.55509249e-01  3.15270062e-09  4.55509249e-01  4.55509249e-01  1.54938762e-07  1.44684954e-07  3.40000000e-01 
 3.50000000e-01  4.55509245e-01  3.37743116e-09  3.11154228e-09  4.55509244e-01  3.15270062e-09  4.55509245e-01  4.55509245e-01  1.54938731e-07  1.44684773e-07  3.50000000e-01 
 3.60000000e-01  4.55509264e-01  3.37743122e-09  3.11154228e-09  4.55509264e-01  3.15270062e-09  4.55509264e-01  4.55509264e-01  1.54938771e-07  1.44684726e-07  3.60000000e-01 
 3.70000000e-01  4.55509255e-01  3.37743116e-09  3.11154222e-09  4.55509255e-01  3.15270062e-09  4.55509255e-01  4.55509255e-01  1.54938758e-07  1.44684485e-07  3.70000000e-01 
 3.80000000e-01  4.55509262e-01  3.37743116e-09  3.11154228e-09  4.55509262e-01  3.15270062e-09  4.55509262e-01  4.55509262e-01  1.54938773e-07  1.44684542e-07  3.80000000e-01 
 3.90000000e-01  4.55509261e-01  3.37743122e-09  3.11154222e-09  4.55509261e-01  3.15270062e-09  4.55509261e-01  4.55509261e-01  1.54938762e-07  1.44684364e-07  3.90000000e-01 
 4.00000000e-01  4.55509266e-01  3.37743122e-09  3.11154228e-09  4.55509266e-01  3.15270062e-09  4.55509266e-01  4.55509266e-01  1.54938776e-07  1.44684321e-07  4.00000000e-01 
 4.10000000e-01  4.55509243e-01  3.37743122e-09  3.11154228e-09  4.55509243e-01  3.15270062e-09  4.55509243e-01  4.55509243e-01  1.54938749e-07  1.44684083e-07  4.10000000e-01 
 4.20000000e-01  4.55509255e-01  3.37743116e-09  3.11154228e-09  4.55509255e-01  3.15270062e-09  4.55509255e-01  4.55509255e-01  1.54938754e-07  1.44684019e-07  4.20000000e-01 
 4.30000000e-01  4.55509267e-01  3.37743116e-09  3.11154222e-09  4.55509267e-01  3.15270062e-09  4.55509267e-01  4.55509267e-01  1.54938779e-07  1.44684009e-07  4.30000000e-01 
 4.40000000e-01  4.55509241e-01  3.37743116e-09  3.11154222e-09  4.55509241e-01  3.15270062e-09  4.55509241e-01  4.55509241e-01  1.54938747e-07  1.44683689e-07  4.40000000e-01 
 4.50000000e-01  4.55509261e-01  3.37743116e-09  3.11154228e-09  4.55509261e-01  3.15270062e-09  4.55509261e-01  4.55509261e-01  1.54938765e-07  1.44683831e-07  4.50000000e-01 
 4.60000000e-01  4.55509261e-01  3.37743122e-09  3.11154222e-09  4.55509261e-01  3.15270062e-09  4.55509261e-01  4.55509261e-01  1.54938767e-07  1.44683675e-07  4.60000000e-01 
 4.70000000e-01  4.55509270e-01  3.37743122e-09  3.11154222e-09  4.55509270e-01  3.15270062e-09  4.55509270e-01  4.55509270e-01  1.54938771e-07  1.44683440e-07  4.70000000e-01 
 4.80000000e-01  4.55509256e-01  3.37743122e-09  3.11154222e-09  4.55509256e-01  3.15270062e-09  4.55509256e-01  4.55509256e-01  1.54938757e-07  1.44683316e-07  4.80000000e-01 
 4.90000000e-01  4.55509259e-01  3.37743122e-09  3.11154228e-09  4.55509259e-01  3.15270062e-09  4.55509259e-01  4.55509259e-01  1.54938755e-07  1.44683259e-07  4.90000000e-01 
 5.00000000e-01  4.55509251e-01  3.37743116e-09  3.11154228e-09  4.55509251e-01  3.15270062e-09  4.55509251e-01  4.55509251e-01  1.54938752e-07  1.44683142e-07  5.00000000e-01 
 5.10000000e-01  4.55509241e-01  3.37743116e-09  3.11154228e-09  4.55509241e-01  3.15270062e-09  4.55509241e-01  4.55509241e-01  1.54938739e-07  1.44683014e-07  5.10000000e-01 
 5.20000000e-01  4.55509235e-01  3.37743116e-09  3.11154228e-09  4.55509235e-01  3.15270062e-09  4.55509235e-01  4.55509235e-01  1.54938736e-07  1.44682900e-07  5.20000000e-01 
 5.30000000e-01  4.55509236e-01  3.37743122e-09  3.11154222e-09  4.55509236e-01  3.15270062e-09  4.55509236e-01  4.55509236e-01  1.54938732e-07  1.44682790e-07  5.30000000e-01 
 5.40000000e-01  4.55509270e-01  3.37743122e-09  3.11154228e-09  4.55509270e-01  3.15270062e-09  4.55509270e-01  4.55509270e-01  1.54938764e-07  1.44682836e-07  5.40000000e-01 
 5.50000000e-01  4.55509262e-01  3.37743116e-09  3.11154228e-09  4.55509262e-01  3.15270062e-09  4.55509262e-01  4.55509262e-01  1.54938758e-07  1.44682623e-07  5.50000000e-01 
 5.60000000e-01  4.55509277e-01  3.37743116e-09  3.11154228e-09  4.55509277e-01  3.15270063e-09  4.55509277e-01  4.55509277e-01  1.54938785e-07  1.44682652e-07  5.60000000e-01 
 5.70000000e-01  4.55509262e-01  3.37743122e-09  3.11154228e-09  4.55509262e-01  3.15270062e-09  4.55509262e-01  4.55509262e-01  1.54938767e-07  1.44682431e-07  5.70000000e-01 
 5.80000000e-01  4.55509253e-01  3.37743116e-09  3.11154222e-09  4.55509252e-01  3.15270062e-09  4.55509253e-01  4.55509253e-01  1.54938747e-07  1.44682346e-07  5.80000000e-01 
 5.90000000e-01  4.55509237e-01  3.37743122e-09  3.11154222e-09  4.55509237e-01  3.15270062e-09  4.55509237e-01  4.55509237e-01  1.54938733e-07  1.44682232e-07  5.90000000e-01 
 6.00000000e-01  4.55509229e-01  3.37743122e-09  3.11154228e-09  4.55509229e-01  3.15270062e-09  4.55509229e-01  4.55509229e-01  1.54938726e-07  1.44682126e-07  6.00000000e-01 
 6.10000000e-01  4.55509232e-01  3.37743122e-09  3.11154228e-09  4.55509232e-01  3.15270062e-09  4.55509232e-01  4.55509232e-01  1.54938723e-07  1.44682033e-07  6.10000000e-01 
 6.20000000e-01  4.55509250e-01  3.37743116e-09  3.11154222e-09  4.55509250e-01  3.15270062e-09  4.55509250e-01  4.55509250e-01  1.54938748e-07  1.44681913e-07  6.20000000e-01 
 6.30000000e-01  4.55509249e-01  3.37743116e-09  3.11154222e-09  4.55509249e-01  3.15270062e-09  4.55509249e-01  4.55509249e-01  1.54938753e-07  1.44681870e-07  6.30000000e-01 
 6.40000000e-01  4.55509257e-01  3.37743122e-09  3.11154222e-09  4.55509257e-01  3.15270062e-09  4.55509257e-01  4.55509257e-01  1.54938748e-07  1.44681707e-07  6.40000000e-01 
 6.50000000e-01  4.55509264e-01  3.37743116e-09  3.11154222e-09  4.55509264e-01  3.15270062e-09  4.55509264e-01  4.55509264e-01  1.54938768e-07  1.44681671e-07  6.50000000e-01 
 6.60000000e-01  4.55509245e-01  3.37743122e-09  3.11154222e-09  4.55509245e-01  3.15270062e-09  4.55509245e-01  4.55509245e-01  1.54938742e-07  1.44681579e-07  6.60000000e-01 
 6.70000000e-01  4.55509247e-01  3.37743122e-09  3.11154228e-09  4.55509247e-01  3.15270062e-09  4.55509247e-01  4.55509247e-01  1.54938753e-07  1.44681430e-07  6.70000000e-01 
 6.80000000e-01  4.55509263e-01  3.37743122e-09  3.11154222e-09  4.55509263e-01  3.15270062e-09  4.55509263e-01  4.55509263e-01  1.54938764e-07  1.44681422e-07  6.80000000e-01 
 6.90000000e-01  4.55509264e-01  3.37743122e-09  3.11154228e-09  4.55509264e-01  3.15270062e-09  4.55509264e-01  4.55509264e-01  1.54938770e-07  1.44681451e-07  6.90000000e-01 
 7.00000000e-01  4.55509223e-01  3.37743116e-09  3.11154228e-09  4.55509223e-01  3.15270062e-09  4.55509223e-01  4.55509223e-01  1.54938699e-07  1.44680975e-07  7.00000000e-01 
 7.10000000e-01  4.55509253e-01  3.37743122e-09  3.11154222e-09  4.55509253e-01  3.15270062e-09  4.55509253e-01  4.55509253e-01  1.54938758e-07  1.44681053e-07  7.10000000e-01 
 7.20000000e-01  4.55509281e-01  3.37743116e-09  3.11154222e-09  4.55509281e-01  3.15270063e-09  4.55509281e-01  4.55509281e-01  1.54938808e-07  1.44680953e-07  7.20000000e-01 
 7.30000000e-01  4.55509265e-01  3.37743116e-09  3.11154228e-09  4.55509265e-01  3.15270062e-09  4.55509265e-01  4.55509265e-01  1.54938769e-07  1.44680968e-07  7.30000000e-01 
 7.40000000e-01  4.55509264e-01  3.37743122e-09  3.11154228e-09  4.55509264e-01  3.15270062e-09  4.55509264e-01  4.55509264e-01  1.54938768e-07  1.44680776e-07  7.40000000e-01 
 7.50000000e-01  4.55509254e-01  3.37743122e-09  3.11154228e-09  4.55509254e-01  3.15270062e-09  4.55509254e-01  4.55509254e-01  1.54938747e-07  1.44680605e-07  7.50000000e-01 
 7.60000000e-01  4.55509266e-01  3.37743122e-09  3.11154228e-09  4.55509265e-01  3.15270062e-09  4.55509266e-01  4.55509266e-01  1.54938762e-07  1.44680577e-07  7.60000000e-01 
 7.70000000e-01  4.55509271e-01  3.37743116e-09  3.11154222e-09  4.55509271e-01  3.15270063e-09  4.55509271e-01  4.55509271e-01  1.54938777e-07  1.44680421e-07  7.70000000e-01 
 7.80000000e-01  4.55509265e-01  3.37743116e-09  3.11154222e-09  4.55509265e-01  3.15270062e-09  4.55509265e-01  4.55509265e-01  1.54938766e-07  1.44680435e-07  7.80000000e-01 
 7.90000000e-01  4.55509265e-01  3.37743122e-09  3.11154222e-09  4.55509265e-01  3.15270062e-09  4.55509265e-01  4.55509265e-01  1.54938772e-07  1.44680222e-07  7.90000000e-01 
 8.00000000e-01  4.55509259e-01  3.37743122e-09  3.11154222e-09  4.55509259e-01  3.15270062e-09  4.55509259e-01  4.55509259e-01  1.54938760e-07  1.44680151e-07  8.00000000e-01 
 8.10000000e-01  4.55509249e-01  3.37743116e-09  3.11154222e-09  4.55509249e-01  3.15270062e-09  4.55509249e-01  4.55509249e-01  1.54938748e-07  1.44680023e-07  8.10000000e-01 
 8.20000000e-01  4.55509262e-01  3.37743116e-09  3.11154222e-09  4.55509262e-01  3.15270062e-09  4.55509262e-01  4.55509262e-01  1.54938758e-07  1.44679987e-07  8.20000000e-01 
 8.30000000e-01  4.55509264e-01  3.37743116e-09  3.11154222e-09  4.55509264e-01  3.15270062e-09  4.55509264e-01  4.55509264e-01  1.54938764e-07  1.44679909e-07  8.30000000e-01 
 8.40000000e-01  4.55509261e-01  3.37743122e-09  3.11154228e-09  4.55509261e-01  3.15270062e-09  4.55509261e-01  4.55509261e-01  1.54938775e-07  1.44679788e-07  8.40000000e-01 
 8.50000000e-01  4.55509282e-01  3.37743122e-09  3.11154228e-09  4.55509282e-01  3.15270063e-09  4.55509282e-01  4.55509282e-01  1.54938798e-07  1.44679660e-07  8.50000000e-01 
 8.60000000e-01  4.55509265e-01  3.37743116e-09  3.11154228e-09  4.55509265e-01  3.15270062e-09  4.55509265e-01  4.55509265e-01  1.54938776e-07  1.44679639e-07  8.60000000e-01 
 8.70000000e-01  4.55509263e-01  3.37743116e-09  3.11154228e-09  4.55509263e-01  3.15270062e-09  4.55509263e-01  4.55509263e-01  1.54938777e-07  1.44679454e-07  8.70000000e-01 
 8.80000000e-01  4.55509254e-01  3.37743122e-09  3.11154222e-09  4.55509254e-01  3.15270062e-09  4.55509254e-01  4.55509254e-01  1.54938762e-07  1.44679305e-07  8.80000000e-01 
 8.90000000e-01  4.55509258e-01  3.37743116e-09  3.11154222e-09  4.55509258e-01  3.15270062e-09  4.55509258e-01  4.55509258e-01  1.54938760e-07  1.44679177e-07  8.90000000e-01 
 9.00000000e-01  4.55509265e-01  3.37743122e-09  3.11154222e-09  4.55509265e-01  3.15270062e-09  4.55509265e-01  4.55509265e-01  1.54938771e-07  1.44679092e-07  9.00000000e-01 
 9.10000000e-01  4.55509243e-01  3.37743122e-09  3.11154222e-09  4.55509243e-01  3.15270062e-09  4.55509243e-01  4.55509243e-01  1.54938748e-07  1.44678971e-07  9.10000000e-01 
 9.20000000e-01  4.55509246e-01  3.37743122e-09  3.11154222e-09  4.55509246e-01  3.15270062e-09  4.55509246e-01  4.55509246e-01  1.54938728e-07  1.44678822e-07  9.20000000e-01 
 9.30000000e-01  4.55509253e-01  3.37743122e-09  3.11154222e-09  4.55509253e-01  3.15270062e-09  4.55509253e-01  4.55509253e-01  1.54938763e-07  1.44678822e-07  9.30000000e-01 
 9.40000000e-01  4.55509272e-01  3.37743122e-09  3.11154228e-09  4.55509272e-01  3.15270063e-09  4.55509272e-01  4.55509272e-01  1.54938787e-07  1.44678658e-07  9.40000000e-01 
 9.50000000e-01  4.55509233e-01  3.37743116e-09  3.11154222e-09  4.55509233e-01  3.15270062e-09  4.55509233e-01  4.55509233e-01  1.54938733e-07  1.44678467e-07  9.50000000e-01 
 9.60000000e-01  4.55509269e-01  3.37743116e-09  3.11154228e-09  4.55509269e-01  3.15270062e-09  4.55509269e-01  4.55509269e-01  1.54938774e-07  1.44678467e-07  9.60000000e-01 
 9.70000000e-01  4.55509265e-01  3.37743116e-09  3.11154222e-09  4.55509265e-01  3.15270062e-09  4.55509265e-01  4.55509265e-01  1.54938769e-07  1.44678310e-07  9.70000000e-01 
 9.80000000e-01  4.55509252e-01  3.37743122e-09  3.11154222e-09  4.55509252e-01  3.15270062e-09  4.55509252e-01  4.55509252e-01  1.54938758e-07  1.44678175e-07  9.80000000e-01 
 9.90000000e-01  4.55509256e-01  3.37743116e-09  3.11154228e-09  4.55509256e-01  3.15270062e-09  4.55509256e-01  4.55509256e-01  1.54938758e-07  1.44677998e-07  9.90000000e-01 
 1.00000000e+00  4.55509284e-01  3.37743122e-09  3.11154222e-09  4.55509284e-01  3.15270063e-09  4.55509284e-01  4.55509284e-01  1.54938820e-07  1.44678083e-07  1.00000000e+00 
 1.01000000e+00  4.55509246e-01  3.37743122e-09  3.11154228e-09  4.55509246e-01  3.15270062e-09  4.55509246e-01  4.55509246e-01  1.54938742e-07  1.44677827e-07  1.01000000e+00 
 1.02000000e+00  4.55509248e-01  3.37743116e-09  3.11154228e-09  4.55509248e-01  3.15270062e-09  4.55509248e-01  4.55509248e-01  1.54938752e-07  1.44677742e-07  1.02000000e+00 
 1.03000000e+00  4.55509273e-01  3.37743116e-09  3.11154228e-09  4.55509273e-01  3.15270063e-09  4.55509273e-01  4.55509273e-01  1.54938791e-07  1.44677735e-07  1.03000000e+00 
 1.04000000e+00  4.55509265e-01  3.37743122e-09  3.11154228e-09  4.55509265e-01  3.15270062e-09  4.55509265e-01  4.55509265e-01  1.54938775e-07  1.44677429e-07  1.04000000e+00 
 1.05000000e+00  4.55509272e-01  3.37743122e-09  3.11154222e-09  4.55509272e-01  3.15270063e-09  4.55509273e-01  4.55509273e-01  1.54938796e-07  1.44677379e-07  1.05000000e+00 
 1.06000000e+00  4.55509252e-01  3.37743122e-09  3.11154222e-09  4.55509252e-01  3.15270062e-09  4.55509252e-01  4.55509252e-01  1.54938758e-07  1.44677237e-07  1.06000000e+00 
 1.07000000e+00  4.55509255e-01  3.37743122e-09  3.11154222e-09  4.55509255e-01  3.15270062e-09  4.55509255e-01  4.55509255e-01  1.54938750e-07  1.44677038e-07  1.07000000e+00 
 1.08000000e+00  4.55509249e-01  3.37743122e-09  3.11154222e-09  4.55509249e-01  3.15270062e-09  4.55509249e-01  4.55509249e-01  1.54938750e-07  1.44677017e-07  1.08000000e+00 
 1.09000000e+00  4.55509254e-01  3.37743122e-09  3.11154222e-09  4.55509254e-01  3.15270062e-09  4.55509254e-01  4.55509254e-01  1.54938761e-07  1.44676783e-07  1.09000000e+00 
 1.10000000e+00  4.55509257e-01  3.37743122e-09  3.11154222e-09  4.55509257e-01  3.15270062e-09  4.55509257e-01  4.55509257e-01  1.54938766e-07  1.44676733e-07  1.10000000e+00 
