 v-sweep         v(b0)           v(b1)           v(b2)           v(b3)           v(b4)           v(b5)           v(b6)           i(vbias)        i(viout)        v(vout)        
 0.00000000e+00  4.61034067e-01  4.61034067e-01  3.28125087e-09  4.61034067e-01  4.61034067e-01  3.34506685e-09  4.61034067e-01  1.62333983e-07  1.40934898e-07  0.00000000e+00 
 1.00000000e-02  4.61034079e-01  4.61034079e-01  3.28125091e-09  4.61034079e-01  4.61034079e-01  3.34506682e-09  4.61034079e-01  1.62333993e-07  1.40934606e-07  1.00000000e-02 
 2.00000000e-02  4.61034086e-01  4.61034086e-01  3.28125084e-09  4.61034086e-01  4.61034086e-01  3.34506684e-09  4.61034086e-01  1.62334014e-07  1.40934185e-07  2.00000000e-02 
 3.00000000e-02  4.61034075e-01  4.61034076e-01  3.28125086e-09  4.61034075e-01  4.61034076e-01  3.34506683e-09  4.61034075e-01  1.62334005e-07  1.40933852e-07  3.00000000e-02 
 4.00000000e-02  4.61034091e-01  4.61034091e-01  3.28125091e-09  4.61034091e-01  4.61034091e-01  3.34506689e-09  4.61034091e-01  1.62334035e-07  1.40933313e-07  4.00000000e-02 
 5.00000000e-02  4.61034088e-01  4.61034088e-01  3.28125090e-09  4.61034088e-01  4.61034088e-01  3.34506688e-09  4.61034088e-01  1.62334009e-07  1.40933079e-07  5.00000000e-02 
 6.00000000e-02  4.61034069e-01  4.61034070e-01  3.28125090e-09  4.61034069e-01  4.61034070e-01  3.34506682e-09  4.61034069e-01  1.62333996e-07  1.40932626e-07  6.00000000e-02 
 7.00000000e-02  4.61034067e-01  4.61034067e-01  3.28125084e-09  4.61034067e-01  4.61034067e-01  3.34506684e-09  4.61034067e-01  1.62333980e-07  1.40932259e-07  7.00000000e-02 
 8.00000000e-02  4.61034070e-01  4.61034070e-01  3.28125086e-09  4.61034070e-01  4.61034070e-01  3.34506683e-09  4.61034070e-01  1.62333982e-07  1.40932023e-07  8.00000000e-02 
 9.00000000e-02  4.61034089e-01  4.61034089e-01  3.28125085e-09  4.61034089e-01  4.61034089e-01  3.34506689e-09  4.61034089e-01  1.62334024e-07  1.40931730e-07  9.00000000e-02 
 1.00000000e-01  4.61034070e-01  4.61034070e-01  3.28125091e-09  4.61034070e-01  4.61034070e-01  3.34506687e-09  4.61034070e-01  1.62333980e-07  1.40931301e-07  1.00000000e-01 
 1.10000000e-01  4.61034076e-01  4.61034077e-01  3.28125089e-09  4.61034076e-01  4.61034077e-01  3.34506688e-09  4.61034076e-01  1.62333995e-07  1.40931015e-07  1.10000000e-01 
 1.20000000e-01  4.61034074e-01  4.61034074e-01  3.28125084e-09  4.61034074e-01  4.61034074e-01  3.34506682e-09  4.61034074e-01  1.62334002e-07  1.40930784e-07  1.20000000e-01 
 1.30000000e-01  4.61034077e-01  4.61034077e-01  3.28125086e-09  4.61034077e-01  4.61034077e-01  3.34506684e-09  4.61034077e-01  1.62334001e-07  1.40930586e-07  1.30000000e-01 
 1.40000000e-01  4.61034083e-01  4.61034083e-01  3.28125091e-09  4.61034083e-01  4.61034083e-01  3.34506689e-09  4.61034083e-01  1.62333996e-07  1.40930267e-07  1.40000000e-01 
 1.50000000e-01  4.61034063e-01  4.61034063e-01  3.28125089e-09  4.61034063e-01  4.61034063e-01  3.34506682e-09  4.61034063e-01  1.62333975e-07  1.40930153e-07  1.50000000e-01 
 1.60000000e-01  4.61034091e-01  4.61034091e-01  3.28125090e-09  4.61034091e-01  4.61034091e-01  3.34506684e-09  4.61034091e-01  1.62334027e-07  1.40929824e-07  1.60000000e-01 
 1.70000000e-01  4.61034078e-01  4.61034078e-01  3.28125084e-09  4.61034078e-01  4.61034078e-01  3.34506689e-09  4.61034078e-01  1.62333993e-07  1.40929574e-07  1.70000000e-01 
 1.80000000e-01  4.61034069e-01  4.61034069e-01  3.28125086e-09  4.61034069e-01  4.61034069e-01  3.34506687e-09  4.61034069e-01  1.62334002e-07  1.40929290e-07  1.80000000e-01 
 1.90000000e-01  4.61034076e-01  4.61034077e-01  3.28125091e-09  4.61034076e-01  4.61034077e-01  3.34506688e-09  4.61034076e-01  1.62333993e-07  1.40929210e-07  1.90000000e-01 
 2.00000000e-01  4.61034084e-01  4.61034084e-01  3.28125090e-09  4.61034084e-01  4.61034084e-01  3.34506688e-09  4.61034084e-01  1.62334012e-07  1.40929082e-07  2.00000000e-01 
 2.10000000e-01  4.61034070e-01  4.61034071e-01  3.28125084e-09  4.61034071e-01  4.61034071e-01  3.34506688e-09  4.61034070e-01  1.62333991e-07  1.40928767e-07  2.10000000e-01 
 2.20000000e-01  4.61034071e-01  4.61034071e-01  3.28125086e-09  4.61034071e-01  4.61034071e-01  3.34506688e-09  4.61034071e-01  1.62333991e-07  1.40928659e-07  2.20000000e-01 
 2.30000000e-01  4.61034090e-01  4.61034090e-01  3.28125091e-09  4.61034090e-01  4.61034090e-01  3.34506682e-09  4.61034090e-01  1.62334017e-07  1.40928671e-07  2.30000000e-01 
 2.40000000e-01  4.61034076e-01  4.61034077e-01  3.28125084e-09  4.61034077e-01  4.61034077e-01  3.34506684e-09  4.61034076e-01  1.62334004e-07  1.40928318e-07  2.40000000e-01 
 2.50000000e-01  4.61034064e-01  4.61034064e-01  3.28125086e-09  4.61034064e-01  4.61034064e-01  3.34506683e-09  4.61034064e-01  1.62333977e-07  1.40928133e-07  2.50000000e-01 
 2.60000000e-01  4.61034040e-01  4.61034040e-01  3.28125085e-09  4.61034040e-01  4.61034040e-01  3.34506689e-09  4.61034040e-01  1.62333942e-07  1.40927762e-07  2.60000000e-01 
 2.70000000e-01  4.61034093e-01  4.61034093e-01  3.28125085e-09  4.61034093e-01  4.61034093e-01  3.34506688e-09  4.61034093e-01  1.62334026e-07  1.40927913e-07  2.70000000e-01 
 2.80000000e-01  4.61034092e-01  4.61034092e-01  3.28125085e-09  4.61034092e-01  4.61034092e-01  3.34506688e-09  4.61034092e-01  1.62334023e-07  1.40927698e-07  2.80000000e-01 
 2.90000000e-01  4.61034110e-01  4.61034111e-01  3.28125091e-09  4.61034110e-01  4.61034111e-01  3.34506688e-09  4.61034110e-01  1.62334044e-07  1.40927625e-07  2.90000000e-01 
 3.00000000e-01  4.61034072e-01  4.61034072e-01  3.28125089e-09  4.61034072e-01  4.61034072e-01  3.34506682e-09  4.61034072e-01  1.62333990e-07  1.40927359e-07  3.00000000e-01 
 3.10000000e-01  4.61034084e-01  4.61034084e-01  3.28125090e-09  4.61034084e-01  4.61034084e-01  3.34506689e-09  4.61034084e-01  1.62334021e-07  1.40927266e-07  3.10000000e-01 
 3.20000000e-01  4.61034080e-01  4.61034080e-01  3.28125090e-09  4.61034080e-01  4.61034080e-01  3.34506682e-09  4.61034080e-01  1.62333996e-07  1.40927170e-07  3.20000000e-01 
 3.30000000e-01  4.61034083e-01  4.61034083e-01  3.28125084e-09  4.61034083e-01  4.61034083e-01  3.34506684e-09  4.61034083e-01  1.62334003e-07  1.40927003e-07  3.30000000e-01 
 3.40000000e-01  4.61034077e-01  4.61034077e-01  3.28125086e-09  4.61034077e-01  4.61034077e-01  3.34506683e-09  4.61034077e-01  1.62334008e-07  1.40926854e-07  3.40000000e-01 
 3.50000000e-01  4.61034064e-01  4.61034064e-01  3.28125085e-09  4.61034064e-01  4.61034064e-01  3.34506683e-09  4.61034064e-01  1.62333975e-07  1.40926634e-07  3.50000000e-01 
 3.60000000e-01  4.61034075e-01  4.61034075e-01  3.28125091e-09  4.61034075e-01  4.61034075e-01  3.34506689e-09  4.61034075e-01  1.62334003e-07  1.40926552e-07  3.60000000e-01 
 3.70000000e-01  4.61034081e-01  4.61034081e-01  3.28125089e-09  4.61034081e-01  4.61034081e-01  3.34506688e-09  4.61034081e-01  1.62334010e-07  1.40926424e-07  3.70000000e-01 
 3.80000000e-01  4.61034075e-01  4.61034075e-01  3.28125084e-09  4.61034075e-01  4.61034075e-01  3.34506682e-09  4.61034075e-01  1.62333997e-07  1.40926392e-07  3.80000000e-01 
 3.90000000e-01  4.61034086e-01  4.61034086e-01  3.28125086e-09  4.61034086e-01  4.61034086e-01  3.34506684e-09  4.61034086e-01  1.62334006e-07  1.40926335e-07  3.90000000e-01 
 4.00000000e-01  4.61034078e-01  4.61034079e-01  3.28125091e-09  4.61034079e-01  4.61034079e-01  3.34506689e-09  4.61034079e-01  1.62333997e-07  1.40926158e-07  4.00000000e-01 
 4.10000000e-01  4.61034068e-01  4.61034068e-01  3.28125084e-09  4.61034068e-01  4.61034068e-01  3.34506682e-09  4.61034068e-01  1.62333988e-07  1.40926019e-07  4.10000000e-01 
 4.20000000e-01  4.61034069e-01  4.61034069e-01  3.28125086e-09  4.61034069e-01  4.61034069e-01  3.34506684e-09  4.61034069e-01  1.62333985e-07  1.40925895e-07  4.20000000e-01 
 4.30000000e-01  4.61034080e-01  4.61034080e-01  3.28125085e-09  4.61034080e-01  4.61034080e-01  3.34506683e-09  4.61034080e-01  1.62333990e-07  1.40925788e-07  4.30000000e-01 
 4.40000000e-01  4.61034078e-01  4.61034078e-01  3.28125085e-09  4.61034078e-01  4.61034078e-01  3.34506689e-09  4.61034078e-01  1.62334007e-07  1.40925692e-07  4.40000000e-01 
 4.50000000e-01  4.61034099e-01  4.61034099e-01  3.28125085e-09  4.61034099e-01  4.61034099e-01  3.34506688e-09  4.61034099e-01  1.62334029e-07  1.40925692e-07  4.50000000e-01 
 4.60000000e-01  4.61034077e-01  4.61034077e-01  3.28125085e-09  4.61034077e-01  4.61034077e-01  3.34506688e-09  4.61034077e-01  1.62334007e-07  1.40925444e-07  4.60000000e-01 
 4.70000000e-01  4.61034070e-01  4.61034070e-01  3.28125091e-09  4.61034070e-01  4.61034070e-01  3.34506688e-09  4.61034070e-01  1.62333995e-07  1.40925287e-07  4.70000000e-01 
 4.80000000e-01  4.61034070e-01  4.61034070e-01  3.28125084e-09  4.61034070e-01  4.61034070e-01  3.34506682e-09  4.61034070e-01  1.62333987e-07  1.40925231e-07  4.80000000e-01 
 4.90000000e-01  4.61034073e-01  4.61034073e-01  3.28125086e-09  4.61034073e-01  4.61034073e-01  3.34506689e-09  4.61034073e-01  1.62333995e-07  1.40925149e-07  4.90000000e-01 
 5.00000000e-01  4.61034073e-01  4.61034073e-01  3.28125085e-09  4.61034073e-01  4.61034073e-01  3.34506682e-09  4.61034073e-01  1.62333993e-07  1.40925110e-07  5.00000000e-01 
 5.10000000e-01  4.61034092e-01  4.61034093e-01  3.28125085e-09  4.61034092e-01  4.61034093e-01  3.34506689e-09  4.61034092e-01  1.62334035e-07  1.40925028e-07  5.10000000e-01 
 5.20000000e-01  4.61034094e-01  4.61034094e-01  3.28125091e-09  4.61034094e-01  4.61034095e-01  3.34506682e-09  4.61034094e-01  1.62334031e-07  1.40924993e-07  5.20000000e-01 
 5.30000000e-01  4.61034115e-01  4.61034115e-01  3.28125084e-09  4.61034115e-01  4.61034115e-01  3.34506684e-09  4.61034115e-01  1.62334053e-07  1.40924850e-07  5.30000000e-01 
 5.40000000e-01  4.61034091e-01  4.61034091e-01  3.28125086e-09  4.61034091e-01  4.61034091e-01  3.34506689e-09  4.61034091e-01  1.62334027e-07  1.40924680e-07  5.40000000e-01 
 5.50000000e-01  4.61034058e-01  4.61034059e-01  3.28125085e-09  4.61034058e-01  4.61034059e-01  3.34506682e-09  4.61034058e-01  1.62333981e-07  1.40924520e-07  5.50000000e-01 
 5.60000000e-01  4.61034104e-01  4.61034105e-01  3.28125085e-09  4.61034104e-01  4.61034105e-01  3.34506689e-09  4.61034104e-01  1.62334051e-07  1.40924616e-07  5.60000000e-01 
 5.70000000e-01  4.61034067e-01  4.61034067e-01  3.28125085e-09  4.61034067e-01  4.61034067e-01  3.34506687e-09  4.61034067e-01  1.62333978e-07  1.40924328e-07  5.70000000e-01 
 5.80000000e-01  4.61034084e-01  4.61034084e-01  3.28125085e-09  4.61034084e-01  4.61034084e-01  3.34506682e-09  4.61034084e-01  1.62334011e-07  1.40924314e-07  5.80000000e-01 
 5.90000000e-01  4.61034089e-01  4.61034089e-01  3.28125085e-09  4.61034089e-01  4.61034089e-01  3.34506684e-09  4.61034089e-01  1.62334010e-07  1.40924129e-07  5.90000000e-01 
 6.00000000e-01  4.61034077e-01  4.61034077e-01  3.28125091e-09  4.61034077e-01  4.61034077e-01  3.34506683e-09  4.61034077e-01  1.62333996e-07  1.40924094e-07  6.00000000e-01 
 6.10000000e-01  4.61034049e-01  4.61034049e-01  3.28125089e-09  4.61034049e-01  4.61034049e-01  3.34506683e-09  4.61034049e-01  1.62333959e-07  1.40923788e-07  6.10000000e-01 
 6.20000000e-01  4.61034084e-01  4.61034084e-01  3.28125090e-09  4.61034084e-01  4.61034084e-01  3.34506689e-09  4.61034084e-01  1.62334017e-07  1.40923873e-07  6.20000000e-01 
 6.30000000e-01  4.61034046e-01  4.61034046e-01  3.28125090e-09  4.61034046e-01  4.61034046e-01  3.34506687e-09  4.61034046e-01  1.62333948e-07  1.40923767e-07  6.30000000e-01 
 6.40000000e-01  4.61034105e-01  4.61034105e-01  3.28125090e-09  4.61034105e-01  4.61034105e-01  3.34506683e-09  4.61034105e-01  1.62334050e-07  1.40923774e-07  6.40000000e-01 
 6.50000000e-01  4.61034099e-01  4.61034099e-01  3.28125085e-09  4.61034099e-01  4.61034099e-01  3.34506684e-09  4.61034099e-01  1.62334031e-07  1.40923511e-07  6.50000000e-01 
 6.60000000e-01  4.61034060e-01  4.61034060e-01  3.28125086e-09  4.61034060e-01  4.61034060e-01  3.34506683e-09  4.61034060e-01  1.62333976e-07  1.40923369e-07  6.60000000e-01 
 6.70000000e-01  4.61034070e-01  4.61034070e-01  3.28125085e-09  4.61034070e-01  4.61034070e-01  3.34506689e-09  4.61034070e-01  1.62333996e-07  1.40923490e-07  6.70000000e-01 
 6.80000000e-01  4.61034076e-01  4.61034076e-01  3.28125085e-09  4.61034076e-01  4.61034076e-01  3.34506682e-09  4.61034076e-01  1.62333993e-07  1.40923248e-07  6.80000000e-01 
 6.90000000e-01  4.61034068e-01  4.61034068e-01  3.28125085e-09  4.61034068e-01  4.61034068e-01  3.34506684e-09  4.61034068e-01  1.62333995e-07  1.40923170e-07  6.90000000e-01 
 7.00000000e-01  4.61034067e-01  4.61034067e-01  3.28125091e-09  4.61034067e-01  4.61034067e-01  3.34506683e-09  4.61034067e-01  1.62333982e-07  1.40922964e-07  7.00000000e-01 
 7.10000000e-01  4.61034066e-01  4.61034066e-01  3.28125089e-09  4.61034066e-01  4.61034066e-01  3.34506689e-09  4.61034066e-01  1.62333973e-07  1.40922985e-07  7.10000000e-01 
 7.20000000e-01  4.61034088e-01  4.61034088e-01  3.28125084e-09  4.61034088e-01  4.61034088e-01  3.34506688e-09  4.61034088e-01  1.62334019e-07  1.40922936e-07  7.20000000e-01 
 7.30000000e-01  4.61034045e-01  4.61034045e-01  3.28125085e-09  4.61034045e-01  4.61034045e-01  3.34506688e-09  4.61034045e-01  1.62333946e-07  1.40922637e-07  7.30000000e-01 
 7.40000000e-01  4.61034083e-01  4.61034083e-01  3.28125085e-09  4.61034083e-01  4.61034083e-01  3.34506682e-09  4.61034083e-01  1.62334025e-07  1.40922744e-07  7.40000000e-01 
 7.50000000e-01  4.61034087e-01  4.61034087e-01  3.28125085e-09  4.61034087e-01  4.61034087e-01  3.34506689e-09  4.61034087e-01  1.62334012e-07  1.40922587e-07  7.50000000e-01 
 7.60000000e-01  4.61034072e-01  4.61034072e-01  3.28125091e-09  4.61034072e-01  4.61034072e-01  3.34506687e-09  4.61034072e-01  1.62333988e-07  1.40922523e-07  7.60000000e-01 
 7.70000000e-01  4.61034070e-01  4.61034070e-01  3.28125084e-09  4.61034070e-01  4.61034070e-01  3.34506682e-09  4.61034070e-01  1.62334000e-07  1.40922282e-07  7.70000000e-01 
 7.80000000e-01  4.61034090e-01  4.61034090e-01  3.28125086e-09  4.61034090e-01  4.61034090e-01  3.34506684e-09  4.61034090e-01  1.62334026e-07  1.40922360e-07  7.80000000e-01 
 7.90000000e-01  4.61034093e-01  4.61034093e-01  3.28125085e-09  4.61034093e-01  4.61034093e-01  3.34506689e-09  4.61034093e-01  1.62334027e-07  1.40922189e-07  7.90000000e-01 
 8.00000000e-01  4.61034102e-01  4.61034102e-01  3.28125085e-09  4.61034102e-01  4.61034102e-01  3.34506688e-09  4.61034102e-01  1.62334033e-07  1.40922204e-07  8.00000000e-01 
 8.10000000e-01  4.61034079e-01  4.61034079e-01  3.28125085e-09  4.61034079e-01  4.61034079e-01  3.34506682e-09  4.61034079e-01  1.62334003e-07  1.40921898e-07  8.10000000e-01 
 8.20000000e-01  4.61034087e-01  4.61034087e-01  3.28125091e-09  4.61034087e-01  4.61034087e-01  3.34506689e-09  4.61034087e-01  1.62334019e-07  1.40921948e-07  8.20000000e-01 
 8.30000000e-01  4.61034085e-01  4.61034085e-01  3.28125090e-09  4.61034085e-01  4.61034085e-01  3.34506682e-09  4.61034085e-01  1.62334003e-07  1.40921806e-07  8.30000000e-01 
 8.40000000e-01  4.61034086e-01  4.61034086e-01  3.28125090e-09  4.61034086e-01  4.61034086e-01  3.34506684e-09  4.61034086e-01  1.62334018e-07  1.40921685e-07  8.40000000e-01 
 8.50000000e-01  4.61034080e-01  4.61034080e-01  3.28125090e-09  4.61034080e-01  4.61034080e-01  3.34506689e-09  4.61034080e-01  1.62334001e-07  1.40921536e-07  8.50000000e-01 
 8.60000000e-01  4.61034101e-01  4.61034102e-01  3.28125085e-09  4.61034102e-01  4.61034102e-01  3.34506682e-09  4.61034102e-01  1.62334040e-07  1.40921571e-07  8.60000000e-01 
 8.70000000e-01  4.61034080e-01  4.61034080e-01  3.28125086e-09  4.61034080e-01  4.61034080e-01  3.34506684e-09  4.61034080e-01  1.62333995e-07  1.40921266e-07  8.70000000e-01 
 8.80000000e-01  4.61034079e-01  4.61034079e-01  3.28125085e-09  4.61034079e-01  4.61034079e-01  3.34506683e-09  4.61034079e-01  1.62334013e-07  1.40921230e-07  8.80000000e-01 
 8.90000000e-01  4.61034052e-01  4.61034052e-01  3.28125091e-09  4.61034052e-01  4.61034053e-01  3.34506689e-09  4.61034052e-01  1.62333968e-07  1.40921067e-07  8.90000000e-01 
 9.00000000e-01  4.61034093e-01  4.61034093e-01  3.28125084e-09  4.61034093e-01  4.61034093e-01  3.34506688e-09  4.61034093e-01  1.62334015e-07  1.40921095e-07  9.00000000e-01 
 9.10000000e-01  4.61034090e-01  4.61034090e-01  3.28125086e-09  4.61034090e-01  4.61034090e-01  3.34506688e-09  4.61034090e-01  1.62334013e-07  1.40920896e-07  9.10000000e-01 
 9.20000000e-01  4.61034072e-01  4.61034072e-01  3.28125091e-09  4.61034072e-01  4.61034072e-01  3.34506688e-09  4.61034072e-01  1.62333999e-07  1.40920747e-07  9.20000000e-01 
 9.30000000e-01  4.61034066e-01  4.61034067e-01  3.28125084e-09  4.61034066e-01  4.61034067e-01  3.34506688e-09  4.61034066e-01  1.62333983e-07  1.40920619e-07  9.30000000e-01 
 9.40000000e-01  4.61034059e-01  4.61034059e-01  3.28125086e-09  4.61034059e-01  4.61034059e-01  3.34506682e-09  4.61034059e-01  1.62333980e-07  1.40920513e-07  9.40000000e-01 
 9.50000000e-01  4.61034079e-01  4.61034080e-01  3.28125091e-09  4.61034080e-01  4.61034080e-01  3.34506684e-09  4.61034080e-01  1.62334005e-07  1.40920449e-07  9.50000000e-01 
 9.60000000e-01  4.61034075e-01  4.61034075e-01  3.28125084e-09  4.61034075e-01  4.61034075e-01  3.34506683e-09  4.61034075e-01  1.62334005e-07  1.40920420e-07  9.60000000e-01 
 9.70000000e-01  4.61034078e-01  4.61034079e-01  3.28125086e-09  4.61034078e-01  4.61034079e-01  3.34506683e-09  4.61034078e-01  1.62334010e-07  1.40920314e-07  9.70000000e-01 
 9.80000000e-01  4.61034058e-01  4.61034058e-01  3.28125091e-09  4.61034058e-01  4.61034058e-01  3.34506683e-09  4.61034058e-01  1.62333982e-07  1.40920108e-07  9.80000000e-01 
 9.90000000e-01  4.61034063e-01  4.61034063e-01  3.28125089e-09  4.61034063e-01  4.61034063e-01  3.34506683e-09  4.61034063e-01  1.62333989e-07  1.40920065e-07  9.90000000e-01 
 1.00000000e+00  4.61034078e-01  4.61034078e-01  3.28125084e-09  4.61034078e-01  4.61034078e-01  3.34506689e-09  4.61034078e-01  1.62334006e-07  1.40919859e-07  1.00000000e+00 
 1.01000000e+00  4.61034106e-01  4.61034106e-01  3.28125091e-09  4.61034106e-01  4.61034106e-01  3.34506682e-09  4.61034106e-01  1.62334043e-07  1.40919873e-07  1.01000000e+00 
 1.02000000e+00  4.61034089e-01  4.61034089e-01  3.28125090e-09  4.61034089e-01  4.61034089e-01  3.34506684e-09  4.61034089e-01  1.62334007e-07  1.40919809e-07  1.02000000e+00 
 1.03000000e+00  4.61034087e-01  4.61034087e-01  3.28125090e-09  4.61034087e-01  4.61034087e-01  3.34506683e-09  4.61034087e-01  1.62334033e-07  1.40919603e-07  1.03000000e+00 
 1.04000000e+00  4.61034075e-01  4.61034075e-01  3.28125084e-09  4.61034075e-01  4.61034075e-01  3.34506689e-09  4.61034075e-01  1.62333990e-07  1.40919369e-07  1.04000000e+00 
 1.05000000e+00  4.61034084e-01  4.61034084e-01  3.28125086e-09  4.61034084e-01  4.61034084e-01  3.34506688e-09  4.61034084e-01  1.62334011e-07  1.40919326e-07  1.05000000e+00 
 1.06000000e+00  4.61034071e-01  4.61034071e-01  3.28125091e-09  4.61034071e-01  4.61034071e-01  3.34506688e-09  4.61034071e-01  1.62333990e-07  1.40919227e-07  1.06000000e+00 
 1.07000000e+00  4.61034077e-01  4.61034077e-01  3.28125089e-09  4.61034077e-01  4.61034077e-01  3.34506688e-09  4.61034077e-01  1.62333998e-07  1.40919049e-07  1.07000000e+00 
 1.08000000e+00  4.61034084e-01  4.61034084e-01  3.28125084e-09  4.61034084e-01  4.61034084e-01  3.34506682e-09  4.61034084e-01  1.62334024e-07  1.40918957e-07  1.08000000e+00 
 1.09000000e+00  4.61034081e-01  4.61034081e-01  3.28125086e-09  4.61034081e-01  4.61034081e-01  3.34506689e-09  4.61034081e-01  1.62334001e-07  1.40918857e-07  1.09000000e+00 
 1.10000000e+00  4.61034049e-01  4.61034049e-01  3.28125085e-09  4.61034049e-01  4.61034049e-01  3.34506682e-09  4.61034049e-01  1.62333965e-07  1.40918722e-07  1.10000000e+00 
