 v-sweep         v(b0)           v(b1)           v(b2)           v(b3)           v(b4)           v(b5)           v(b6)           i(vbias)        i(viout)        v(vout)        
 0.00000000e+00  3.54448534e-09  4.59087296e-01  3.41303488e-09  4.59087296e-01  3.41078262e-09  3.30297995e-09  4.59087296e-01  1.61533095e-07  1.09707725e-07  0.00000000e+00 
 1.00000000e-02  3.54448531e-09  4.59087252e-01  3.41303480e-09  4.59087252e-01  3.41078260e-09  3.30297993e-09  4.59087252e-01  1.61533018e-07  1.09707312e-07  1.00000000e-02 
 2.00000000e-02  3.54448531e-09  4.59087285e-01  3.41303480e-09  4.59087285e-01  3.41078260e-09  3.30297999e-09  4.59087285e-01  1.61533077e-07  1.09706946e-07  2.00000000e-02 
 3.00000000e-02  3.54448531e-09  4.59087260e-01  3.41303485e-09  4.59087260e-01  3.41078260e-09  3.30297999e-09  4.59087260e-01  1.61533023e-07  1.09706516e-07  3.00000000e-02 
 4.00000000e-02  3.54448537e-09  4.59087252e-01  3.41303485e-09  4.59087252e-01  3.41078260e-09  3.30297999e-09  4.59087252e-01  1.61533018e-07  1.09706104e-07  4.00000000e-02 
 5.00000000e-02  3.54448537e-09  4.59087276e-01  3.41303485e-09  4.59087276e-01  3.41078266e-09  3.30297999e-09  4.59087276e-01  1.61533060e-07  1.09705789e-07  5.00000000e-02 
 6.00000000e-02  3.54448537e-09  4.59087257e-01  3.41303485e-09  4.59087257e-01  3.41078260e-09  3.30297999e-09  4.59087257e-01  1.61533039e-07  1.09705404e-07  6.00000000e-02 
 7.00000000e-02  3.54448532e-09  4.59087289e-01  3.41303485e-09  4.59087289e-01  3.41078260e-09  3.30297999e-09  4.59087289e-01  1.61533089e-07  1.09705220e-07  7.00000000e-02 
 8.00000000e-02  3.54448537e-09  4.59087259e-01  3.41303480e-09  4.59087259e-01  3.41078260e-09  3.30297999e-09  4.59087259e-01  1.61533034e-07  1.09704740e-07  8.00000000e-02 
 9.00000000e-02  3.54448537e-09  4.59087262e-01  3.41303485e-09  4.59087262e-01  3.41078260e-09  3.30297999e-09  4.59087262e-01  1.61533033e-07  1.09704575e-07  9.00000000e-02 
 1.00000000e-01  3.54448537e-09  4.59087278e-01  3.41303485e-09  4.59087278e-01  3.41078260e-09  3.30297993e-09  4.59087278e-01  1.61533061e-07  1.09704293e-07  1.00000000e-01 
 1.10000000e-01  3.54448531e-09  4.59087258e-01  3.41303485e-09  4.59087259e-01  3.41078260e-09  3.30297999e-09  4.59087258e-01  1.61533031e-07  1.09703967e-07  1.10000000e-01 
 1.20000000e-01  3.54448531e-09  4.59087241e-01  3.41303485e-09  4.59087241e-01  3.41078260e-09  3.30297999e-09  4.59087241e-01  1.61533005e-07  1.09703715e-07  1.20000000e-01 
 1.30000000e-01  3.54448537e-09  4.59087280e-01  3.41303485e-09  4.59087280e-01  3.41078260e-09  3.30297999e-09  4.59087280e-01  1.61533070e-07  1.09703645e-07  1.30000000e-01 
 1.40000000e-01  3.54448531e-09  4.59087248e-01  3.41303480e-09  4.59087248e-01  3.41078260e-09  3.30297999e-09  4.59087248e-01  1.61533006e-07  1.09703261e-07  1.40000000e-01 
 1.50000000e-01  3.54448531e-09  4.59087278e-01  3.41303485e-09  4.59087278e-01  3.41078260e-09  3.30297999e-09  4.59087278e-01  1.61533061e-07  1.09703153e-07  1.50000000e-01 
 1.60000000e-01  3.54448537e-09  4.59087276e-01  3.41303485e-09  4.59087276e-01  3.41078260e-09  3.30297999e-09  4.59087276e-01  1.61533051e-07  1.09702917e-07  1.60000000e-01 
 1.70000000e-01  3.54448531e-09  4.59087245e-01  3.41303485e-09  4.59087245e-01  3.41078260e-09  3.30297999e-09  4.59087245e-01  1.61533009e-07  1.09702468e-07  1.70000000e-01 
 1.80000000e-01  3.54448537e-09  4.59087268e-01  3.41303485e-09  4.59087268e-01  3.41078260e-09  3.30297999e-09  4.59087268e-01  1.61533040e-07  1.09702448e-07  1.80000000e-01 
 1.90000000e-01  3.54448537e-09  4.59087272e-01  3.41303485e-09  4.59087272e-01  3.41078260e-09  3.30297999e-09  4.59087272e-01  1.61533049e-07  1.09702270e-07  1.90000000e-01 
 2.00000000e-01  3.54448531e-09  4.59087261e-01  3.41303485e-09  4.59087261e-01  3.41078260e-09  3.30297999e-09  4.59087261e-01  1.61533043e-07  1.09702063e-07  2.00000000e-01 
 2.10000000e-01  3.54448537e-09  4.59087265e-01  3.41303485e-09  4.59087265e-01  3.41078260e-09  3.30297999e-09  4.59087265e-01  1.61533041e-07  1.09701958e-07  2.10000000e-01 
 2.20000000e-01  3.54448537e-09  4.59087244e-01  3.41303485e-09  4.59087245e-01  3.41078260e-09  3.30297999e-09  4.59087244e-01  1.61533013e-07  1.09701736e-07  2.20000000e-01 
 2.30000000e-01  3.54448537e-09  4.59087272e-01  3.41303480e-09  4.59087272e-01  3.41078260e-09  3.30297999e-09  4.59087272e-01  1.61533061e-07  1.09701595e-07  2.30000000e-01 
 2.40000000e-01  3.54448537e-09  4.59087266e-01  3.41303485e-09  4.59087266e-01  3.41078260e-09  3.30297999e-09  4.59087266e-01  1.61533037e-07  1.09701412e-07  2.40000000e-01 
 2.50000000e-01  3.54448537e-09  4.59087274e-01  3.41303485e-09  4.59087274e-01  3.41078260e-09  3.30297993e-09  4.59087274e-01  1.61533061e-07  1.09701297e-07  2.50000000e-01 
 2.60000000e-01  3.54448537e-09  4.59087260e-01  3.41303485e-09  4.59087260e-01  3.41078266e-09  3.30297999e-09  4.59087260e-01  1.61533029e-07  1.09701197e-07  2.60000000e-01 
 2.70000000e-01  3.54448537e-09  4.59087267e-01  3.41303485e-09  4.59087267e-01  3.41078260e-09  3.30297999e-09  4.59087267e-01  1.61533037e-07  1.09701086e-07  2.70000000e-01 
 2.80000000e-01  3.54448531e-09  4.59087278e-01  3.41303485e-09  4.59087278e-01  3.41078260e-09  3.30297999e-09  4.59087278e-01  1.61533056e-07  1.09700919e-07  2.80000000e-01 
 2.90000000e-01  3.54448531e-09  4.59087281e-01  3.41303480e-09  4.59087281e-01  3.41078260e-09  3.30297999e-09  4.59087281e-01  1.61533059e-07  1.09700846e-07  2.90000000e-01 
 3.00000000e-01  3.54448531e-09  4.59087236e-01  3.41303485e-09  4.59087236e-01  3.41078260e-09  3.30297999e-09  4.59087236e-01  1.61532995e-07  1.09700455e-07  3.00000000e-01 
 3.10000000e-01  3.54448537e-09  4.59087238e-01  3.41303480e-09  4.59087238e-01  3.41078260e-09  3.30297999e-09  4.59087238e-01  1.61533011e-07  1.09700412e-07  3.10000000e-01 
 3.20000000e-01  3.54448532e-09  4.59087289e-01  3.41303485e-09  4.59087289e-01  3.41078260e-09  3.30297999e-09  4.59087289e-01  1.61533079e-07  1.09700544e-07  3.20000000e-01 
 3.30000000e-01  3.54448537e-09  4.59087281e-01  3.41303480e-09  4.59087281e-01  3.41078260e-09  3.30297999e-09  4.59087281e-01  1.61533067e-07  1.09700345e-07  3.30000000e-01 
 3.40000000e-01  3.54448531e-09  4.59087276e-01  3.41303485e-09  4.59087276e-01  3.41078260e-09  3.30297999e-09  4.59087276e-01  1.61533043e-07  1.09700231e-07  3.40000000e-01 
 3.50000000e-01  3.54448531e-09  4.59087283e-01  3.41303480e-09  4.59087283e-01  3.41078260e-09  3.30297993e-09  4.59087283e-01  1.61533074e-07  1.09700107e-07  3.50000000e-01 
 3.60000000e-01  3.54448537e-09  4.59087243e-01  3.41303485e-09  4.59087243e-01  3.41078260e-09  3.30297999e-09  4.59087243e-01  1.61533007e-07  1.09699869e-07  3.60000000e-01 
 3.70000000e-01  3.54448532e-09  4.59087295e-01  3.41303480e-09  4.59087295e-01  3.41078260e-09  3.30297993e-09  4.59087295e-01  1.61533090e-07  1.09699940e-07  3.70000000e-01 
 3.80000000e-01  3.54448537e-09  4.59087276e-01  3.41303485e-09  4.59087276e-01  3.41078260e-09  3.30297993e-09  4.59087276e-01  1.61533054e-07  1.09699780e-07  3.80000000e-01 
 3.90000000e-01  3.54448537e-09  4.59087292e-01  3.41303485e-09  4.59087292e-01  3.41078260e-09  3.30297999e-09  4.59087292e-01  1.61533081e-07  1.09699762e-07  3.90000000e-01 
 4.00000000e-01  3.54448537e-09  4.59087263e-01  3.41303480e-09  4.59087263e-01  3.41078260e-09  3.30297999e-09  4.59087263e-01  1.61533026e-07  1.09699666e-07  4.00000000e-01 
 4.10000000e-01  3.54448531e-09  4.59087264e-01  3.41303485e-09  4.59087264e-01  3.41078260e-09  3.30297999e-09  4.59087264e-01  1.61533030e-07  1.09699499e-07  4.10000000e-01 
 4.20000000e-01  3.54448537e-09  4.59087256e-01  3.41303485e-09  4.59087257e-01  3.41078260e-09  3.30297993e-09  4.59087257e-01  1.61533034e-07  1.09699357e-07  4.20000000e-01 
 4.30000000e-01  3.54448537e-09  4.59087289e-01  3.41303485e-09  4.59087289e-01  3.41078260e-09  3.30297999e-09  4.59087289e-01  1.61533080e-07  1.09699471e-07  4.30000000e-01 
 4.40000000e-01  3.54448537e-09  4.59087242e-01  3.41303485e-09  4.59087243e-01  3.41078260e-09  3.30297999e-09  4.59087243e-01  1.61533011e-07  1.09699016e-07  4.40000000e-01 
 4.50000000e-01  3.54448531e-09  4.59087281e-01  3.41303480e-09  4.59087281e-01  3.41078260e-09  3.30297999e-09  4.59087281e-01  1.61533075e-07  1.09699108e-07  4.50000000e-01 
 4.60000000e-01  3.54448537e-09  4.59087255e-01  3.41303480e-09  4.59087256e-01  3.41078260e-09  3.30297999e-09  4.59087256e-01  1.61533025e-07  1.09699073e-07  4.60000000e-01 
 4.70000000e-01  3.54448531e-09  4.59087259e-01  3.41303485e-09  4.59087259e-01  3.41078260e-09  3.30297999e-09  4.59087259e-01  1.61533033e-07  1.09698849e-07  4.70000000e-01 
 4.80000000e-01  3.54448532e-09  4.59087289e-01  3.41303485e-09  4.59087289e-01  3.41078260e-09  3.30297993e-09  4.59087289e-01  1.61533060e-07  1.09698917e-07  4.80000000e-01 
 4.90000000e-01  3.54448537e-09  4.59087246e-01  3.41303480e-09  4.59087246e-01  3.41078260e-09  3.30297993e-09  4.59087246e-01  1.61533012e-07  1.09698636e-07  4.90000000e-01 
 5.00000000e-01  3.54448537e-09  4.59087266e-01  3.41303485e-09  4.59087267e-01  3.41078260e-09  3.30297999e-09  4.59087266e-01  1.61533034e-07  1.09698640e-07  5.00000000e-01 
 5.10000000e-01  3.54448531e-09  4.59087283e-01  3.41303485e-09  4.59087283e-01  3.41078260e-09  3.30297999e-09  4.59087283e-01  1.61533061e-07  1.09698640e-07  5.10000000e-01 
 5.20000000e-01  3.54448531e-09  4.59087280e-01  3.41303485e-09  4.59087280e-01  3.41078260e-09  3.30297999e-09  4.59087280e-01  1.61533063e-07  1.09698551e-07  5.20000000e-01 
 5.30000000e-01  3.54448531e-09  4.59087277e-01  3.41303485e-09  4.59087278e-01  3.41078260e-09  3.30297999e-09  4.59087277e-01  1.61533057e-07  1.09698480e-07  5.30000000e-01 
 5.40000000e-01  3.54448532e-09  4.59087297e-01  3.41303485e-09  4.59087297e-01  3.41078260e-09  3.30297999e-09  4.59087297e-01  1.61533088e-07  1.09698554e-07  5.40000000e-01 
 5.50000000e-01  3.54448531e-09  4.59087256e-01  3.41303480e-09  4.59087256e-01  3.41078260e-09  3.30297999e-09  4.59087256e-01  1.61533028e-07  1.09698277e-07  5.50000000e-01 
 5.60000000e-01  3.54448531e-09  4.59087247e-01  3.41303485e-09  4.59087247e-01  3.41078260e-09  3.30297999e-09  4.59087247e-01  1.61533019e-07  1.09698149e-07  5.60000000e-01 
 5.70000000e-01  3.54448531e-09  4.59087270e-01  3.41303485e-09  4.59087270e-01  3.41078260e-09  3.30297999e-09  4.59087270e-01  1.61533042e-07  1.09698160e-07  5.70000000e-01 
 5.80000000e-01  3.54448537e-09  4.59087284e-01  3.41303480e-09  4.59087284e-01  3.41078260e-09  3.30297999e-09  4.59087284e-01  1.61533063e-07  1.09698114e-07  5.80000000e-01 
 5.90000000e-01  3.54448531e-09  4.59087243e-01  3.41303480e-09  4.59087243e-01  3.41078260e-09  3.30297999e-09  4.59087243e-01  1.61533012e-07  1.09697829e-07  5.90000000e-01 
 6.00000000e-01  3.54448537e-09  4.59087301e-01  3.41303485e-09  4.59087301e-01  3.41078261e-09  3.30297999e-09  4.59087301e-01  1.61533101e-07  1.09697936e-07  6.00000000e-01 
 6.10000000e-01  3.54448537e-09  4.59087268e-01  3.41303480e-09  4.59087268e-01  3.41078260e-09  3.30297999e-09  4.59087268e-01  1.61533041e-07  1.09697844e-07  6.10000000e-01 
 6.20000000e-01  3.54448531e-09  4.59087256e-01  3.41303485e-09  4.59087256e-01  3.41078260e-09  3.30297999e-09  4.59087256e-01  1.61533019e-07  1.09697687e-07  6.20000000e-01 
 6.30000000e-01  3.54448537e-09  4.59087300e-01  3.41303480e-09  4.59087301e-01  3.41078261e-09  3.30297993e-09  4.59087300e-01  1.61533090e-07  1.09697709e-07  6.30000000e-01 
 6.40000000e-01  3.54448531e-09  4.59087276e-01  3.41303485e-09  4.59087276e-01  3.41078260e-09  3.30297999e-09  4.59087276e-01  1.61533060e-07  1.09697595e-07  6.40000000e-01 
 6.50000000e-01  3.54448537e-09  4.59087288e-01  3.41303485e-09  4.59087288e-01  3.41078260e-09  3.30297999e-09  4.59087288e-01  1.61533069e-07  1.09697552e-07  6.50000000e-01 
 6.60000000e-01  3.54448531e-09  4.59087275e-01  3.41303485e-09  4.59087275e-01  3.41078260e-09  3.30297999e-09  4.59087275e-01  1.61533053e-07  1.09697552e-07  6.60000000e-01 
 6.70000000e-01  3.54448531e-09  4.59087254e-01  3.41303485e-09  4.59087254e-01  3.41078260e-09  3.30297999e-09  4.59087254e-01  1.61533025e-07  1.09697282e-07  6.70000000e-01 
 6.80000000e-01  3.54448537e-09  4.59087284e-01  3.41303485e-09  4.59087284e-01  3.41078260e-09  3.30297993e-09  4.59087284e-01  1.61533081e-07  1.09697226e-07  6.80000000e-01 
 6.90000000e-01  3.54448531e-09  4.59087276e-01  3.41303485e-09  4.59087276e-01  3.41078260e-09  3.30297999e-09  4.59087276e-01  1.61533053e-07  1.09697297e-07  6.90000000e-01 
 7.00000000e-01  3.54448531e-09  4.59087239e-01  3.41303485e-09  4.59087239e-01  3.41078260e-09  3.30297999e-09  4.59087239e-01  1.61533000e-07  1.09696991e-07  7.00000000e-01 
 7.10000000e-01  3.54448537e-09  4.59087274e-01  3.41303485e-09  4.59087275e-01  3.41078260e-09  3.30297999e-09  4.59087275e-01  1.61533060e-07  1.09697005e-07  7.10000000e-01 
 7.20000000e-01  3.54448532e-09  4.59087288e-01  3.41303485e-09  4.59087288e-01  3.41078260e-09  3.30297993e-09  4.59087288e-01  1.61533071e-07  1.09697048e-07  7.20000000e-01 
 7.30000000e-01  3.54448537e-09  4.59087233e-01  3.41303485e-09  4.59087233e-01  3.41078260e-09  3.30297993e-09  4.59087233e-01  1.61532984e-07  1.09696728e-07  7.30000000e-01 
 7.40000000e-01  3.54448531e-09  4.59087250e-01  3.41303485e-09  4.59087251e-01  3.41078260e-09  3.30297999e-09  4.59087251e-01  1.61533029e-07  1.09696728e-07  7.40000000e-01 
 7.50000000e-01  3.54448537e-09  4.59087269e-01  3.41303480e-09  4.59087270e-01  3.41078260e-09  3.30297999e-09  4.59087269e-01  1.61533047e-07  1.09696707e-07  7.50000000e-01 
 7.60000000e-01  3.54448531e-09  4.59087243e-01  3.41303485e-09  4.59087243e-01  3.41078260e-09  3.30297999e-09  4.59087243e-01  1.61533022e-07  1.09696664e-07  7.60000000e-01 
 7.70000000e-01  3.54448531e-09  4.59087282e-01  3.41303485e-09  4.59087282e-01  3.41078260e-09  3.30297993e-09  4.59087282e-01  1.61533062e-07  1.09696543e-07  7.70000000e-01 
 7.80000000e-01  3.54448537e-09  4.59087270e-01  3.41303485e-09  4.59087270e-01  3.41078260e-09  3.30297999e-09  4.59087270e-01  1.61533047e-07  1.09696465e-07  7.80000000e-01 
 7.90000000e-01  3.54448537e-09  4.59087268e-01  3.41303480e-09  4.59087268e-01  3.41078260e-09  3.30297993e-09  4.59087268e-01  1.61533027e-07  1.09696380e-07  7.90000000e-01 
 8.00000000e-01  3.54448537e-09  4.59087270e-01  3.41303480e-09  4.59087270e-01  3.41078260e-09  3.30297999e-09  4.59087270e-01  1.61533045e-07  1.09696188e-07  8.00000000e-01 
 8.10000000e-01  3.54448537e-09  4.59087268e-01  3.41303485e-09  4.59087268e-01  3.41078260e-09  3.30297993e-09  4.59087268e-01  1.61533037e-07  1.09696174e-07  8.10000000e-01 
 8.20000000e-01  3.54448531e-09  4.59087240e-01  3.41303480e-09  4.59087240e-01  3.41078260e-09  3.30297999e-09  4.59087240e-01  1.61532998e-07  1.09695989e-07  8.20000000e-01 
 8.30000000e-01  3.54448531e-09  4.59087275e-01  3.41303480e-09  4.59087275e-01  3.41078260e-09  3.30297999e-09  4.59087275e-01  1.61533049e-07  1.09696124e-07  8.30000000e-01 
 8.40000000e-01  3.54448531e-09  4.59087242e-01  3.41303485e-09  4.59087242e-01  3.41078260e-09  3.30297993e-09  4.59087242e-01  1.61532994e-07  1.09695925e-07  8.40000000e-01 
 8.50000000e-01  3.54448531e-09  4.59087279e-01  3.41303485e-09  4.59087279e-01  3.41078260e-09  3.30297999e-09  4.59087279e-01  1.61533051e-07  1.09695968e-07  8.50000000e-01 
 8.60000000e-01  3.54448537e-09  4.59087281e-01  3.41303485e-09  4.59087281e-01  3.41078260e-09  3.30297999e-09  4.59087281e-01  1.61533062e-07  1.09695797e-07  8.60000000e-01 
 8.70000000e-01  3.54448531e-09  4.59087266e-01  3.41303485e-09  4.59087266e-01  3.41078260e-09  3.30297993e-09  4.59087266e-01  1.61533044e-07  1.09695620e-07  8.70000000e-01 
 8.80000000e-01  3.54448537e-09  4.59087284e-01  3.41303485e-09  4.59087284e-01  3.41078260e-09  3.30297999e-09  4.59087284e-01  1.61533073e-07  1.09695733e-07  8.80000000e-01 
 8.90000000e-01  3.54448531e-09  4.59087260e-01  3.41303485e-09  4.59087260e-01  3.41078260e-09  3.30297999e-09  4.59087260e-01  1.61533030e-07  1.09695584e-07  8.90000000e-01 
 9.00000000e-01  3.54448537e-09  4.59087253e-01  3.41303480e-09  4.59087254e-01  3.41078260e-09  3.30297999e-09  4.59087253e-01  1.61533016e-07  1.09695463e-07  9.00000000e-01 
 9.10000000e-01  3.54448537e-09  4.59087256e-01  3.41303485e-09  4.59087256e-01  3.41078260e-09  3.30297999e-09  4.59087256e-01  1.61533025e-07  1.09695350e-07  9.10000000e-01 
 9.20000000e-01  3.54448531e-09  4.59087264e-01  3.41303485e-09  4.59087264e-01  3.41078260e-09  3.30297999e-09  4.59087264e-01  1.61533041e-07  1.09695229e-07  9.20000000e-01 
 9.30000000e-01  3.54448531e-09  4.59087239e-01  3.41303485e-09  4.59087239e-01  3.41078260e-09  3.30297993e-09  4.59087239e-01  1.61533007e-07  1.09695158e-07  9.30000000e-01 
 9.40000000e-01  3.54448531e-09  4.59087275e-01  3.41303485e-09  4.59087275e-01  3.41078260e-09  3.30297993e-09  4.59087275e-01  1.61533054e-07  1.09695108e-07  9.40000000e-01 
 9.50000000e-01  3.54448537e-09  4.59087267e-01  3.41303485e-09  4.59087268e-01  3.41078260e-09  3.30297999e-09  4.59087268e-01  1.61533030e-07  1.09694980e-07  9.50000000e-01 
 9.60000000e-01  3.54448537e-09  4.59087264e-01  3.41303485e-09  4.59087264e-01  3.41078260e-09  3.30297999e-09  4.59087264e-01  1.61533035e-07  1.09694909e-07  9.60000000e-01 
 9.70000000e-01  3.54448531e-09  4.59087243e-01  3.41303485e-09  4.59087243e-01  3.41078260e-09  3.30297993e-09  4.59087243e-01  1.61533025e-07  1.09694824e-07  9.70000000e-01 
 9.80000000e-01  3.54448531e-09  4.59087256e-01  3.41303485e-09  4.59087257e-01  3.41078260e-09  3.30297999e-09  4.59087256e-01  1.61533026e-07  1.09694803e-07  9.80000000e-01 
 9.90000000e-01  3.54448537e-09  4.59087250e-01  3.41303485e-09  4.59087250e-01  3.41078260e-09  3.30297993e-09  4.59087250e-01  1.61533025e-07  1.09694717e-07  9.90000000e-01 
 1.00000000e+00  3.54448537e-09  4.59087283e-01  3.41303485e-09  4.59087283e-01  3.41078260e-09  3.30297999e-09  4.59087283e-01  1.61533066e-07  1.09694561e-07  1.00000000e+00 
 1.01000000e+00  3.54448531e-09  4.59087268e-01  3.41303485e-09  4.59087268e-01  3.41078260e-09  3.30297999e-09  4.59087268e-01  1.61533036e-07  1.09694604e-07  1.01000000e+00 
 1.02000000e+00  3.54448531e-09  4.59087253e-01  3.41303485e-09  4.59087253e-01  3.41078260e-09  3.30297999e-09  4.59087253e-01  1.61533016e-07  1.09694433e-07  1.02000000e+00 
 1.03000000e+00  3.54448537e-09  4.59087277e-01  3.41303480e-09  4.59087277e-01  3.41078260e-09  3.30297999e-09  4.59087277e-01  1.61533055e-07  1.09694398e-07  1.03000000e+00 
 1.04000000e+00  3.54448537e-09  4.59087266e-01  3.41303485e-09  4.59087266e-01  3.41078266e-09  3.30297999e-09  4.59087266e-01  1.61533047e-07  1.09694071e-07  1.04000000e+00 
 1.05000000e+00  3.54448537e-09  4.59087263e-01  3.41303485e-09  4.59087263e-01  3.41078260e-09  3.30297999e-09  4.59087263e-01  1.61533028e-07  1.09694170e-07  1.05000000e+00 
 1.06000000e+00  3.54448537e-09  4.59087254e-01  3.41303485e-09  4.59087254e-01  3.41078260e-09  3.30297999e-09  4.59087254e-01  1.61533031e-07  1.09694071e-07  1.06000000e+00 
 1.07000000e+00  3.54448531e-09  4.59087263e-01  3.41303485e-09  4.59087263e-01  3.41078260e-09  3.30297999e-09  4.59087263e-01  1.61533048e-07  1.09693850e-07  1.07000000e+00 
 1.08000000e+00  3.54448531e-09  4.59087284e-01  3.41303485e-09  4.59087285e-01  3.41078260e-09  3.30297999e-09  4.59087285e-01  1.61533070e-07  1.09693985e-07  1.08000000e+00 
 1.09000000e+00  3.54448537e-09  4.59087273e-01  3.41303485e-09  4.59087273e-01  3.41078260e-09  3.30297999e-09  4.59087273e-01  1.61533040e-07  1.09693737e-07  1.09000000e+00 
 1.10000000e+00  3.54448531e-09  4.59087271e-01  3.41303485e-09  4.59087271e-01  3.41078260e-09  3.30297993e-09  4.59087271e-01  1.61533052e-07  1.09693595e-07  1.10000000e+00 
