 v-sweep         v(b0)           v(b1)           v(b2)           v(b3)           v(b4)           v(b5)           v(b6)           i(vbias)        i(viout)        v(vout)        
 0.00000000e+00  4.57969177e-01  4.57969176e-01  3.28486993e-09  4.57969177e-01  4.57969177e-01  4.57969176e-01  3.27228755e-09  1.57686960e-07  9.06440398e-08  0.00000000e+00 
 1.00000000e-02  4.57969148e-01  4.57969148e-01  3.28486996e-09  4.57969148e-01  4.57969148e-01  4.57969148e-01  3.27228759e-09  1.57686929e-07  9.06435059e-08  1.00000000e-02 
 2.00000000e-02  4.57969185e-01  4.57969185e-01  3.28486997e-09  4.57969186e-01  4.57969185e-01  4.57969185e-01  3.27228759e-09  1.57686980e-07  9.06432527e-08  2.00000000e-02 
 3.00000000e-02  4.57969180e-01  4.57969180e-01  3.28486991e-09  4.57969180e-01  4.57969180e-01  4.57969180e-01  3.27228759e-09  1.57686979e-07  9.06428859e-08  3.00000000e-02 
 4.00000000e-02  4.57969178e-01  4.57969178e-01  3.28486991e-09  4.57969178e-01  4.57969178e-01  4.57969178e-01  3.27228759e-09  1.57686982e-07  9.06424851e-08  4.00000000e-02 
 5.00000000e-02  4.57969186e-01  4.57969186e-01  3.28486997e-09  4.57969186e-01  4.57969186e-01  4.57969186e-01  3.27228759e-09  1.57686992e-07  9.06422071e-08  5.00000000e-02 
 6.00000000e-02  4.57969190e-01  4.57969190e-01  3.28486997e-09  4.57969190e-01  4.57969190e-01  4.57969190e-01  3.27228759e-09  1.57686993e-07  9.06419051e-08  6.00000000e-02 
 7.00000000e-02  4.57969170e-01  4.57969170e-01  3.28486997e-09  4.57969170e-01  4.57969170e-01  4.57969170e-01  3.27228759e-09  1.57686966e-07  9.06415347e-08  7.00000000e-02 
 8.00000000e-02  4.57969179e-01  4.57969179e-01  3.28486997e-09  4.57969179e-01  4.57969179e-01  4.57969179e-01  3.27228759e-09  1.57686951e-07  9.06413016e-08  8.00000000e-02 
 9.00000000e-02  4.57969174e-01  4.57969174e-01  3.28486997e-09  4.57969174e-01  4.57969174e-01  4.57969174e-01  3.27228759e-09  1.57686963e-07  9.06409445e-08  9.00000000e-02 
 1.00000000e-01  4.57969189e-01  4.57969189e-01  3.28486997e-09  4.57969190e-01  4.57969189e-01  4.57969189e-01  3.27228759e-09  1.57686981e-07  9.06406896e-08  1.00000000e-01 
 1.10000000e-01  4.57969189e-01  4.57969189e-01  3.28486997e-09  4.57969189e-01  4.57969189e-01  4.57969189e-01  3.27228759e-09  1.57686991e-07  9.06404658e-08  1.10000000e-01 
 1.20000000e-01  4.57969208e-01  4.57969208e-01  3.28486991e-09  4.57969208e-01  4.57969208e-01  4.57969208e-01  3.27228759e-09  1.57687009e-07  9.06402651e-08  1.20000000e-01 
 1.30000000e-01  4.57969177e-01  4.57969177e-01  3.28486991e-09  4.57969177e-01  4.57969177e-01  4.57969177e-01  3.27228759e-09  1.57686966e-07  9.06399258e-08  1.30000000e-01 
 1.40000000e-01  4.57969170e-01  4.57969170e-01  3.28486997e-09  4.57969170e-01  4.57969170e-01  4.57969170e-01  3.27228759e-09  1.57686956e-07  9.06397881e-08  1.40000000e-01 
 1.50000000e-01  4.57969207e-01  4.57969207e-01  3.28486997e-09  4.57969207e-01  4.57969207e-01  4.57969207e-01  3.27228759e-09  1.57687010e-07  9.06395616e-08  1.50000000e-01 
 1.60000000e-01  4.57969167e-01  4.57969167e-01  3.28486997e-09  4.57969167e-01  4.57969167e-01  4.57969167e-01  3.27228759e-09  1.57686956e-07  9.06392845e-08  1.60000000e-01 
 1.70000000e-01  4.57969175e-01  4.57969175e-01  3.28486997e-09  4.57969176e-01  4.57969175e-01  4.57969175e-01  3.27228759e-09  1.57686963e-07  9.06391513e-08  1.70000000e-01 
 1.80000000e-01  4.57969152e-01  4.57969152e-01  3.28486996e-09  4.57969152e-01  4.57969152e-01  4.57969152e-01  3.27228759e-09  1.57686925e-07  9.06388120e-08  1.80000000e-01 
 1.90000000e-01  4.57969177e-01  4.57969177e-01  3.28486997e-09  4.57969177e-01  4.57969177e-01  4.57969177e-01  3.27228759e-09  1.57686978e-07  9.06386539e-08  1.90000000e-01 
 2.00000000e-01  4.57969189e-01  4.57969189e-01  3.28486997e-09  4.57969189e-01  4.57969189e-01  4.57969189e-01  3.27228759e-09  1.57686990e-07  9.06386042e-08  2.00000000e-01 
 2.10000000e-01  4.57969194e-01  4.57969193e-01  3.28486997e-09  4.57969194e-01  4.57969193e-01  4.57969193e-01  3.27228759e-09  1.57687014e-07  9.06384727e-08  2.10000000e-01 
 2.20000000e-01  4.57969168e-01  4.57969168e-01  3.28486997e-09  4.57969168e-01  4.57969168e-01  4.57969168e-01  3.27228759e-09  1.57686960e-07  9.06382933e-08  2.20000000e-01 
 2.30000000e-01  4.57969185e-01  4.57969185e-01  3.28486991e-09  4.57969185e-01  4.57969185e-01  4.57969185e-01  3.27228759e-09  1.57686977e-07  9.06382152e-08  2.30000000e-01 
 2.40000000e-01  4.57969182e-01  4.57969182e-01  3.28486991e-09  4.57969182e-01  4.57969182e-01  4.57969182e-01  3.27228759e-09  1.57686994e-07  9.06379256e-08  2.40000000e-01 
 2.50000000e-01  4.57969178e-01  4.57969177e-01  3.28486997e-09  4.57969178e-01  4.57969177e-01  4.57969177e-01  3.27228759e-09  1.57686968e-07  9.06378812e-08  2.50000000e-01 
 2.60000000e-01  4.57969199e-01  4.57969199e-01  3.28486997e-09  4.57969199e-01  4.57969199e-01  4.57969199e-01  3.27228759e-09  1.57686999e-07  9.06377959e-08  2.60000000e-01 
 2.70000000e-01  4.57969171e-01  4.57969171e-01  3.28486997e-09  4.57969171e-01  4.57969171e-01  4.57969171e-01  3.27228759e-09  1.57686958e-07  9.06375810e-08  2.70000000e-01 
 2.80000000e-01  4.57969160e-01  4.57969159e-01  3.28486997e-09  4.57969160e-01  4.57969159e-01  4.57969159e-01  3.27228759e-09  1.57686946e-07  9.06374744e-08  2.80000000e-01 
 2.90000000e-01  4.57969188e-01  4.57969188e-01  3.28486997e-09  4.57969188e-01  4.57969188e-01  4.57969188e-01  3.27228759e-09  1.57686979e-07  9.06373927e-08  2.90000000e-01 
 3.00000000e-01  4.57969177e-01  4.57969177e-01  3.28486997e-09  4.57969177e-01  4.57969177e-01  4.57969177e-01  3.27228759e-09  1.57686975e-07  9.06370694e-08  3.00000000e-01 
 3.10000000e-01  4.57969164e-01  4.57969164e-01  3.28486991e-09  4.57969164e-01  4.57969164e-01  4.57969164e-01  3.27228759e-09  1.57686956e-07  9.06371049e-08  3.10000000e-01 
 3.20000000e-01  4.57969171e-01  4.57969171e-01  3.28486991e-09  4.57969171e-01  4.57969171e-01  4.57969171e-01  3.27228759e-09  1.57686952e-07  9.06368847e-08  3.20000000e-01 
 3.30000000e-01  4.57969157e-01  4.57969157e-01  3.28486997e-09  4.57969157e-01  4.57969157e-01  4.57969157e-01  3.27228759e-09  1.57686943e-07  9.06368243e-08  3.30000000e-01 
 3.40000000e-01  4.57969165e-01  4.57969164e-01  3.28486991e-09  4.57969165e-01  4.57969164e-01  4.57969164e-01  3.27228759e-09  1.57686955e-07  9.06367994e-08  3.40000000e-01 
 3.50000000e-01  4.57969150e-01  4.57969150e-01  3.28486996e-09  4.57969150e-01  4.57969150e-01  4.57969150e-01  3.27228759e-09  1.57686924e-07  9.06366608e-08  3.50000000e-01 
 3.60000000e-01  4.57969179e-01  4.57969179e-01  3.28486997e-09  4.57969179e-01  4.57969179e-01  4.57969179e-01  3.27228759e-09  1.57686975e-07  9.06365472e-08  3.60000000e-01 
 3.70000000e-01  4.57969183e-01  4.57969182e-01  3.28486997e-09  4.57969183e-01  4.57969182e-01  4.57969182e-01  3.27228759e-09  1.57686980e-07  9.06364228e-08  3.70000000e-01 
 3.80000000e-01  4.57969164e-01  4.57969164e-01  3.28486997e-09  4.57969164e-01  4.57969164e-01  4.57969164e-01  3.27228759e-09  1.57686939e-07  9.06363944e-08  3.80000000e-01 
 3.90000000e-01  4.57969171e-01  4.57969171e-01  3.28486997e-09  4.57969171e-01  4.57969171e-01  4.57969171e-01  3.27228759e-09  1.57686964e-07  9.06362772e-08  3.90000000e-01 
 4.00000000e-01  4.57969193e-01  4.57969193e-01  3.28486997e-09  4.57969193e-01  4.57969193e-01  4.57969193e-01  3.27228759e-09  1.57687003e-07  9.06362700e-08  4.00000000e-01 
 4.10000000e-01  4.57969154e-01  4.57969154e-01  3.28486996e-09  4.57969154e-01  4.57969154e-01  4.57969154e-01  3.27228759e-09  1.57686937e-07  9.06359965e-08  4.10000000e-01 
 4.20000000e-01  4.57969175e-01  4.57969175e-01  3.28486991e-09  4.57969175e-01  4.57969175e-01  4.57969175e-01  3.27228759e-09  1.57686965e-07  9.06359219e-08  4.20000000e-01 
 4.30000000e-01  4.57969208e-01  4.57969208e-01  3.28486997e-09  4.57969208e-01  4.57969208e-01  4.57969208e-01  3.27228759e-09  1.57687016e-07  9.06360249e-08  4.30000000e-01 
 4.40000000e-01  4.57969179e-01  4.57969179e-01  3.28486991e-09  4.57969179e-01  4.57969179e-01  4.57969179e-01  3.27228759e-09  1.57686968e-07  9.06359432e-08  4.40000000e-01 
 4.50000000e-01  4.57969176e-01  4.57969175e-01  3.28486991e-09  4.57969176e-01  4.57969176e-01  4.57969175e-01  3.27228759e-09  1.57686970e-07  9.06358082e-08  4.50000000e-01 
 4.60000000e-01  4.57969186e-01  4.57969186e-01  3.28486997e-09  4.57969186e-01  4.57969186e-01  4.57969186e-01  3.27228759e-09  1.57686996e-07  9.06356341e-08  4.60000000e-01 
 4.70000000e-01  4.57969197e-01  4.57969196e-01  3.28486997e-09  4.57969197e-01  4.57969197e-01  4.57969196e-01  3.27228759e-09  1.57687011e-07  9.06357407e-08  4.70000000e-01 
 4.80000000e-01  4.57969199e-01  4.57969199e-01  3.28486997e-09  4.57969199e-01  4.57969199e-01  4.57969199e-01  3.27228759e-09  1.57687003e-07  9.06356696e-08  4.80000000e-01 
 4.90000000e-01  4.57969174e-01  4.57969173e-01  3.28486997e-09  4.57969174e-01  4.57969174e-01  4.57969173e-01  3.27228759e-09  1.57686968e-07  9.06354423e-08  4.90000000e-01 
 5.00000000e-01  4.57969180e-01  4.57969180e-01  3.28486997e-09  4.57969181e-01  4.57969180e-01  4.57969180e-01  3.27228759e-09  1.57686971e-07  9.06354423e-08  5.00000000e-01 
 5.10000000e-01  4.57969182e-01  4.57969182e-01  3.28486997e-09  4.57969183e-01  4.57969182e-01  4.57969182e-01  3.27228759e-09  1.57686973e-07  9.06353002e-08  5.10000000e-01 
 5.20000000e-01  4.57969166e-01  4.57969166e-01  3.28486997e-09  4.57969166e-01  4.57969166e-01  4.57969166e-01  3.27228759e-09  1.57686951e-07  9.06352717e-08  5.20000000e-01 
 5.30000000e-01  4.57969171e-01  4.57969171e-01  3.28486997e-09  4.57969171e-01  4.57969171e-01  4.57969171e-01  3.27228759e-09  1.57686965e-07  9.06352113e-08  5.30000000e-01 
 5.40000000e-01  4.57969165e-01  4.57969165e-01  3.28486997e-09  4.57969165e-01  4.57969165e-01  4.57969165e-01  3.27228759e-09  1.57686952e-07  9.06351580e-08  5.40000000e-01 
 5.50000000e-01  4.57969156e-01  4.57969156e-01  3.28486997e-09  4.57969156e-01  4.57969156e-01  4.57969156e-01  3.27228759e-09  1.57686939e-07  9.06350124e-08  5.50000000e-01 
 5.60000000e-01  4.57969172e-01  4.57969172e-01  3.28486991e-09  4.57969172e-01  4.57969172e-01  4.57969172e-01  3.27228759e-09  1.57686959e-07  9.06350195e-08  5.60000000e-01 
 5.70000000e-01  4.57969201e-01  4.57969201e-01  3.28486991e-09  4.57969201e-01  4.57969201e-01  4.57969201e-01  3.27228759e-09  1.57687000e-07  9.06348738e-08  5.70000000e-01 
 5.80000000e-01  4.57969159e-01  4.57969159e-01  3.28486997e-09  4.57969159e-01  4.57969159e-01  4.57969159e-01  3.27228759e-09  1.57686948e-07  9.06348632e-08  5.80000000e-01 
 5.90000000e-01  4.57969188e-01  4.57969188e-01  3.28486997e-09  4.57969188e-01  4.57969188e-01  4.57969188e-01  3.27228759e-09  1.57686977e-07  9.06347353e-08  5.90000000e-01 
 6.00000000e-01  4.57969174e-01  4.57969174e-01  3.28486997e-09  4.57969174e-01  4.57969174e-01  4.57969174e-01  3.27228759e-09  1.57686975e-07  9.06347282e-08  6.00000000e-01 
 6.10000000e-01  4.57969179e-01  4.57969179e-01  3.28486997e-09  4.57969179e-01  4.57969179e-01  4.57969179e-01  3.27228759e-09  1.57686977e-07  9.06345647e-08  6.10000000e-01 
 6.20000000e-01  4.57969164e-01  4.57969164e-01  3.28486997e-09  4.57969164e-01  4.57969164e-01  4.57969164e-01  3.27228759e-09  1.57686957e-07  9.06345079e-08  6.20000000e-01 
 6.30000000e-01  4.57969177e-01  4.57969177e-01  3.28486997e-09  4.57969177e-01  4.57969177e-01  4.57969177e-01  3.27228759e-09  1.57686958e-07  9.06344368e-08  6.30000000e-01 
 6.40000000e-01  4.57969194e-01  4.57969194e-01  3.28486997e-09  4.57969194e-01  4.57969194e-01  4.57969194e-01  3.27228759e-09  1.57686981e-07  9.06345150e-08  6.40000000e-01 
 6.50000000e-01  4.57969179e-01  4.57969179e-01  3.28486997e-09  4.57969179e-01  4.57969179e-01  4.57969179e-01  3.27228759e-09  1.57686979e-07  9.06343445e-08  6.50000000e-01 
 6.60000000e-01  4.57969167e-01  4.57969167e-01  3.28486991e-09  4.57969167e-01  4.57969167e-01  4.57969167e-01  3.27228759e-09  1.57686957e-07  9.06342166e-08  6.60000000e-01 
 6.70000000e-01  4.57969151e-01  4.57969151e-01  3.28486996e-09  4.57969151e-01  4.57969151e-01  4.57969151e-01  3.27228759e-09  1.57686924e-07  9.06340247e-08  6.70000000e-01 
 6.80000000e-01  4.57969188e-01  4.57969187e-01  3.28486997e-09  4.57969188e-01  4.57969187e-01  4.57969187e-01  3.27228759e-09  1.57686993e-07  9.06342024e-08  6.80000000e-01 
 6.90000000e-01  4.57969177e-01  4.57969176e-01  3.28486997e-09  4.57969177e-01  4.57969177e-01  4.57969176e-01  3.27228759e-09  1.57686951e-07  9.06340603e-08  6.90000000e-01 
 7.00000000e-01  4.57969186e-01  4.57969186e-01  3.28486997e-09  4.57969186e-01  4.57969186e-01  4.57969186e-01  3.27228759e-09  1.57686988e-07  9.06339324e-08  7.00000000e-01 
 7.10000000e-01  4.57969182e-01  4.57969182e-01  3.28486997e-09  4.57969182e-01  4.57969182e-01  4.57969182e-01  3.27228759e-09  1.57686984e-07  9.06338897e-08  7.10000000e-01 
 7.20000000e-01  4.57969157e-01  4.57969157e-01  3.28486997e-09  4.57969157e-01  4.57969157e-01  4.57969157e-01  3.27228759e-09  1.57686941e-07  9.06337831e-08  7.20000000e-01 
 7.30000000e-01  4.57969166e-01  4.57969166e-01  3.28486997e-09  4.57969166e-01  4.57969166e-01  4.57969166e-01  3.27228759e-09  1.57686954e-07  9.06338400e-08  7.30000000e-01 
 7.40000000e-01  4.57969202e-01  4.57969202e-01  3.28486997e-09  4.57969202e-01  4.57969202e-01  4.57969202e-01  3.27228759e-09  1.57687008e-07  9.06337050e-08  7.40000000e-01 
 7.50000000e-01  4.57969185e-01  4.57969185e-01  3.28486991e-09  4.57969185e-01  4.57969185e-01  4.57969185e-01  3.27228759e-09  1.57686979e-07  9.06336837e-08  7.50000000e-01 
 7.60000000e-01  4.57969172e-01  4.57969172e-01  3.28486991e-09  4.57969172e-01  4.57969172e-01  4.57969172e-01  3.27228759e-09  1.57686956e-07  9.06335273e-08  7.60000000e-01 
 7.70000000e-01  4.57969179e-01  4.57969179e-01  3.28486997e-09  4.57969179e-01  4.57969179e-01  4.57969179e-01  3.27228759e-09  1.57686958e-07  9.06334847e-08  7.70000000e-01 
 7.80000000e-01  4.57969167e-01  4.57969167e-01  3.28486997e-09  4.57969167e-01  4.57969167e-01  4.57969167e-01  3.27228759e-09  1.57686943e-07  9.06334279e-08  7.80000000e-01 
 7.90000000e-01  4.57969160e-01  4.57969160e-01  3.28486991e-09  4.57969160e-01  4.57969160e-01  4.57969160e-01  3.27228759e-09  1.57686925e-07  9.06332716e-08  7.90000000e-01 
 8.00000000e-01  4.57969190e-01  4.57969190e-01  3.28486997e-09  4.57969190e-01  4.57969190e-01  4.57969190e-01  3.27228759e-09  1.57686975e-07  9.06331934e-08  8.00000000e-01 
 8.10000000e-01  4.57969198e-01  4.57969198e-01  3.28486997e-09  4.57969198e-01  4.57969198e-01  4.57969198e-01  3.27228759e-09  1.57687005e-07  9.06332076e-08  8.10000000e-01 
 8.20000000e-01  4.57969195e-01  4.57969195e-01  3.28486997e-09  4.57969195e-01  4.57969195e-01  4.57969195e-01  3.27228759e-09  1.57687004e-07  9.06331650e-08  8.20000000e-01 
 8.30000000e-01  4.57969182e-01  4.57969182e-01  3.28486997e-09  4.57969182e-01  4.57969182e-01  4.57969182e-01  3.27228759e-09  1.57686982e-07  9.06330726e-08  8.30000000e-01 
 8.40000000e-01  4.57969166e-01  4.57969166e-01  3.28486991e-09  4.57969166e-01  4.57969166e-01  4.57969166e-01  3.27228759e-09  1.57686958e-07  9.06329873e-08  8.40000000e-01 
 8.50000000e-01  4.57969183e-01  4.57969182e-01  3.28486997e-09  4.57969183e-01  4.57969182e-01  4.57969182e-01  3.27228759e-09  1.57686981e-07  9.06330015e-08  8.50000000e-01 
 8.60000000e-01  4.57969191e-01  4.57969191e-01  3.28486997e-09  4.57969191e-01  4.57969191e-01  4.57969191e-01  3.27228759e-09  1.57687000e-07  9.06328950e-08  8.60000000e-01 
 8.70000000e-01  4.57969174e-01  4.57969174e-01  3.28486997e-09  4.57969174e-01  4.57969174e-01  4.57969174e-01  3.27228759e-09  1.57686985e-07  9.06328026e-08  8.70000000e-01 
 8.80000000e-01  4.57969186e-01  4.57969186e-01  3.28486997e-09  4.57969186e-01  4.57969186e-01  4.57969186e-01  3.27228759e-09  1.57686989e-07  9.06327529e-08  8.80000000e-01 
 8.90000000e-01  4.57969164e-01  4.57969164e-01  3.28486997e-09  4.57969164e-01  4.57969164e-01  4.57969164e-01  3.27228759e-09  1.57686950e-07  9.06326250e-08  8.90000000e-01 
 9.00000000e-01  4.57969164e-01  4.57969164e-01  3.28486997e-09  4.57969164e-01  4.57969164e-01  4.57969164e-01  3.27228759e-09  1.57686939e-07  9.06326321e-08  9.00000000e-01 
 9.10000000e-01  4.57969173e-01  4.57969173e-01  3.28486997e-09  4.57969173e-01  4.57969173e-01  4.57969173e-01  3.27228759e-09  1.57686964e-07  9.06324047e-08  9.10000000e-01 
 9.20000000e-01  4.57969200e-01  4.57969200e-01  3.28486997e-09  4.57969200e-01  4.57969200e-01  4.57969200e-01  3.27228759e-09  1.57686999e-07  9.06324260e-08  9.20000000e-01 
 9.30000000e-01  4.57969181e-01  4.57969181e-01  3.28486997e-09  4.57969181e-01  4.57969181e-01  4.57969181e-01  3.27228759e-09  1.57686970e-07  9.06322910e-08  9.30000000e-01 
 9.40000000e-01  4.57969183e-01  4.57969183e-01  3.28486991e-09  4.57969183e-01  4.57969183e-01  4.57969183e-01  3.27228759e-09  1.57686979e-07  9.06323123e-08  9.40000000e-01 
 9.50000000e-01  4.57969196e-01  4.57969196e-01  3.28486997e-09  4.57969196e-01  4.57969196e-01  4.57969196e-01  3.27228759e-09  1.57686992e-07  9.06322128e-08  9.50000000e-01 
 9.60000000e-01  4.57969185e-01  4.57969185e-01  3.28486997e-09  4.57969185e-01  4.57969185e-01  4.57969185e-01  3.27228759e-09  1.57686997e-07  9.06321205e-08  9.60000000e-01 
 9.70000000e-01  4.57969172e-01  4.57969172e-01  3.28486997e-09  4.57969172e-01  4.57969172e-01  4.57969172e-01  3.27228759e-09  1.57686959e-07  9.06320068e-08  9.70000000e-01 
 9.80000000e-01  4.57969160e-01  4.57969160e-01  3.28486991e-09  4.57969160e-01  4.57969160e-01  4.57969160e-01  3.27228759e-09  1.57686953e-07  9.06320281e-08  9.80000000e-01 
 9.90000000e-01  4.57969157e-01  4.57969157e-01  3.28486997e-09  4.57969157e-01  4.57969157e-01  4.57969157e-01  3.27228759e-09  1.57686950e-07  9.06317936e-08  9.90000000e-01 
 1.00000000e+00  4.57969193e-01  4.57969193e-01  3.28486997e-09  4.57969193e-01  4.57969193e-01  4.57969193e-01  3.27228759e-09  1.57686998e-07  9.06316870e-08  1.00000000e+00 
 1.01000000e+00  4.57969203e-01  4.57969203e-01  3.28486991e-09  4.57969203e-01  4.57969203e-01  4.57969203e-01  3.27228759e-09  1.57687001e-07  9.06318434e-08  1.01000000e+00 
 1.02000000e+00  4.57969164e-01  4.57969164e-01  3.28486997e-09  4.57969164e-01  4.57969164e-01  4.57969164e-01  3.27228759e-09  1.57686957e-07  9.06315449e-08  1.02000000e+00 
 1.03000000e+00  4.57969183e-01  4.57969182e-01  3.28486997e-09  4.57969183e-01  4.57969183e-01  4.57969182e-01  3.27228759e-09  1.57686986e-07  9.06316018e-08  1.03000000e+00 
 1.04000000e+00  4.57969178e-01  4.57969178e-01  3.28486997e-09  4.57969178e-01  4.57969178e-01  4.57969178e-01  3.27228759e-09  1.57686985e-07  9.06315023e-08  1.04000000e+00 
 1.05000000e+00  4.57969177e-01  4.57969177e-01  3.28486991e-09  4.57969177e-01  4.57969177e-01  4.57969177e-01  3.27228759e-09  1.57686978e-07  9.06313673e-08  1.05000000e+00 
 1.06000000e+00  4.57969157e-01  4.57969157e-01  3.28486997e-09  4.57969157e-01  4.57969157e-01  4.57969157e-01  3.27228759e-09  1.57686939e-07  9.06312962e-08  1.06000000e+00 
 1.07000000e+00  4.57969174e-01  4.57969174e-01  3.28486997e-09  4.57969174e-01  4.57969174e-01  4.57969174e-01  3.27228759e-09  1.57686965e-07  9.06311328e-08  1.07000000e+00 
 1.08000000e+00  4.57969177e-01  4.57969176e-01  3.28486991e-09  4.57969177e-01  4.57969176e-01  4.57969176e-01  3.27228759e-09  1.57686971e-07  9.06310902e-08  1.08000000e+00 
 1.09000000e+00  4.57969176e-01  4.57969176e-01  3.28486997e-09  4.57969176e-01  4.57969176e-01  4.57969176e-01  3.27228759e-09  1.57686964e-07  9.06311399e-08  1.09000000e+00 
 1.10000000e+00  4.57969164e-01  4.57969164e-01  3.28486997e-09  4.57969164e-01  4.57969164e-01  4.57969164e-01  3.27228759e-09  1.57686954e-07  9.06309552e-08  1.10000000e+00 
