 v-sweep         v(b0)           v(b1)           v(b2)           v(b3)           v(b4)           v(b5)           v(b6)           i(vbias)        i(viout)        v(vout)        
 0.00000000e+00  4.55476773e-01  4.55476773e-01  3.52277191e-09  3.33159388e-09  4.55476773e-01  3.20654057e-09  4.55476773e-01  1.53206642e-07  1.22151677e-07  0.00000000e+00 
 1.00000000e-02  4.55476751e-01  4.55476751e-01  3.52277189e-09  3.33159391e-09  4.55476751e-01  3.20654055e-09  4.55476751e-01  1.53206612e-07  1.22151110e-07  1.00000000e-02 
 2.00000000e-02  4.55476759e-01  4.55476759e-01  3.52277195e-09  3.33159386e-09  4.55476759e-01  3.20654055e-09  4.55476759e-01  1.53206612e-07  1.22150928e-07  2.00000000e-02 
 3.00000000e-02  4.55476758e-01  4.55476758e-01  3.52277189e-09  3.33159391e-09  4.55476758e-01  3.20654055e-09  4.55476758e-01  1.53206619e-07  1.22150485e-07  3.00000000e-02 
 4.00000000e-02  4.55476757e-01  4.55476758e-01  3.52277189e-09  3.33159391e-09  4.55476758e-01  3.20654055e-09  4.55476758e-01  1.53206608e-07  1.22150059e-07  4.00000000e-02 
 5.00000000e-02  4.55476757e-01  4.55476757e-01  3.52277189e-09  3.33159391e-09  4.55476757e-01  3.20654055e-09  4.55476757e-01  1.53206625e-07  1.22149682e-07  5.00000000e-02 
 6.00000000e-02  4.55476762e-01  4.55476762e-01  3.52277189e-09  3.33159386e-09  4.55476762e-01  3.20654061e-09  4.55476762e-01  1.53206624e-07  1.22149515e-07  6.00000000e-02 
 7.00000000e-02  4.55476737e-01  4.55476737e-01  3.52277195e-09  3.33159386e-09  4.55476737e-01  3.20654054e-09  4.55476737e-01  1.53206591e-07  1.22149066e-07  7.00000000e-02 
 8.00000000e-02  4.55476781e-01  4.55476781e-01  3.52277189e-09  3.33159386e-09  4.55476781e-01  3.20654056e-09  4.55476781e-01  1.53206651e-07  1.22148783e-07  8.00000000e-02 
 9.00000000e-02  4.55476755e-01  4.55476755e-01  3.52277189e-09  3.33159386e-09  4.55476755e-01  3.20654055e-09  4.55476755e-01  1.53206603e-07  1.22148460e-07  9.00000000e-02 
 1.00000000e-01  4.55476776e-01  4.55476777e-01  3.52277195e-09  3.33159386e-09  4.55476777e-01  3.20654055e-09  4.55476777e-01  1.53206623e-07  1.22148230e-07  1.00000000e-01 
 1.10000000e-01  4.55476771e-01  4.55476771e-01  3.52277189e-09  3.33159386e-09  4.55476771e-01  3.20654055e-09  4.55476771e-01  1.53206637e-07  1.22147955e-07  1.10000000e-01 
 1.20000000e-01  4.55476745e-01  4.55476745e-01  3.52277189e-09  3.33159386e-09  4.55476745e-01  3.20654055e-09  4.55476745e-01  1.53206593e-07  1.22147564e-07  1.20000000e-01 
 1.30000000e-01  4.55476758e-01  4.55476758e-01  3.52277195e-09  3.33159391e-09  4.55476758e-01  3.20654055e-09  4.55476758e-01  1.53206614e-07  1.22147496e-07  1.30000000e-01 
 1.40000000e-01  4.55476739e-01  4.55476740e-01  3.52277189e-09  3.33159386e-09  4.55476740e-01  3.20654055e-09  4.55476740e-01  1.53206582e-07  1.22147132e-07  1.40000000e-01 
 1.50000000e-01  4.55476748e-01  4.55476748e-01  3.52277195e-09  3.33159391e-09  4.55476748e-01  3.20654055e-09  4.55476748e-01  1.53206594e-07  1.22147002e-07  1.50000000e-01 
 1.60000000e-01  4.55476759e-01  4.55476759e-01  3.52277195e-09  3.33159386e-09  4.55476759e-01  3.20654055e-09  4.55476760e-01  1.53206612e-07  1.22146668e-07  1.60000000e-01 
 1.70000000e-01  4.55476759e-01  4.55476759e-01  3.52277195e-09  3.33159391e-09  4.55476759e-01  3.20654055e-09  4.55476759e-01  1.53206633e-07  1.22146590e-07  1.70000000e-01 
 1.80000000e-01  4.55476770e-01  4.55476770e-01  3.52277195e-09  3.33159392e-09  4.55476770e-01  3.20654055e-09  4.55476770e-01  1.53206627e-07  1.22146394e-07  1.80000000e-01 
 1.90000000e-01  4.55476737e-01  4.55476737e-01  3.52277195e-09  3.33159386e-09  4.55476737e-01  3.20654061e-09  4.55476737e-01  1.53206567e-07  1.22146067e-07  1.90000000e-01 
 2.00000000e-01  4.55476757e-01  4.55476758e-01  3.52277195e-09  3.33159386e-09  4.55476758e-01  3.20654059e-09  4.55476758e-01  1.53206611e-07  1.22146053e-07  2.00000000e-01 
 2.10000000e-01  4.55476765e-01  4.55476765e-01  3.52277189e-09  3.33159386e-09  4.55476765e-01  3.20654060e-09  4.55476765e-01  1.53206622e-07  1.22145767e-07  2.10000000e-01 
 2.20000000e-01  4.55476752e-01  4.55476752e-01  3.52277195e-09  3.33159386e-09  4.55476752e-01  3.20654054e-09  4.55476752e-01  1.53206607e-07  1.22145604e-07  2.20000000e-01 
 2.30000000e-01  4.55476730e-01  4.55476730e-01  3.52277195e-09  3.33159385e-09  4.55476730e-01  3.20654055e-09  4.55476731e-01  1.53206561e-07  1.22145368e-07  2.30000000e-01 
 2.40000000e-01  4.55476747e-01  4.55476747e-01  3.52277195e-09  3.33159391e-09  4.55476747e-01  3.20654055e-09  4.55476747e-01  1.53206596e-07  1.22145309e-07  2.40000000e-01 
 2.50000000e-01  4.55476748e-01  4.55476749e-01  3.52277189e-09  3.33159386e-09  4.55476749e-01  3.20654055e-09  4.55476749e-01  1.53206614e-07  1.22145096e-07  2.50000000e-01 
 2.60000000e-01  4.55476769e-01  4.55476769e-01  3.52277189e-09  3.33159386e-09  4.55476769e-01  3.20654055e-09  4.55476769e-01  1.53206617e-07  1.22144961e-07  2.60000000e-01 
 2.70000000e-01  4.55476781e-01  4.55476781e-01  3.52277189e-09  3.33159386e-09  4.55476781e-01  3.20654055e-09  4.55476781e-01  1.53206638e-07  1.22144996e-07  2.70000000e-01 
 2.80000000e-01  4.55476767e-01  4.55476767e-01  3.52277195e-09  3.33159392e-09  4.55476767e-01  3.20654055e-09  4.55476767e-01  1.53206631e-07  1.22144792e-07  2.80000000e-01 
 2.90000000e-01  4.55476781e-01  4.55476781e-01  3.52277195e-09  3.33159392e-09  4.55476781e-01  3.20654055e-09  4.55476781e-01  1.53206641e-07  1.22144709e-07  2.90000000e-01 
 3.00000000e-01  4.55476770e-01  4.55476770e-01  3.52277189e-09  3.33159386e-09  4.55476770e-01  3.20654055e-09  4.55476770e-01  1.53206620e-07  1.22144407e-07  3.00000000e-01 
 3.10000000e-01  4.55476767e-01  4.55476767e-01  3.52277189e-09  3.33159392e-09  4.55476767e-01  3.20654055e-09  4.55476767e-01  1.53206625e-07  1.22144520e-07  3.10000000e-01 
 3.20000000e-01  4.55476760e-01  4.55476760e-01  3.52277195e-09  3.33159386e-09  4.55476760e-01  3.20654055e-09  4.55476760e-01  1.53206613e-07  1.22144186e-07  3.20000000e-01 
 3.30000000e-01  4.55476774e-01  4.55476774e-01  3.52277195e-09  3.33159386e-09  4.55476774e-01  3.20654055e-09  4.55476775e-01  1.53206640e-07  1.22144169e-07  3.30000000e-01 
 3.40000000e-01  4.55476754e-01  4.55476754e-01  3.52277195e-09  3.33159386e-09  4.55476754e-01  3.20654055e-09  4.55476754e-01  1.53206591e-07  1.22143955e-07  3.40000000e-01 
 3.50000000e-01  4.55476783e-01  4.55476784e-01  3.52277189e-09  3.33159386e-09  4.55476784e-01  3.20654055e-09  4.55476784e-01  1.53206651e-07  1.22143970e-07  3.50000000e-01 
 3.60000000e-01  4.55476759e-01  4.55476759e-01  3.52277195e-09  3.33159391e-09  4.55476759e-01  3.20654055e-09  4.55476759e-01  1.53206608e-07  1.22143771e-07  3.60000000e-01 
 3.70000000e-01  4.55476756e-01  4.55476756e-01  3.52277195e-09  3.33159386e-09  4.55476756e-01  3.20654055e-09  4.55476756e-01  1.53206605e-07  1.22143756e-07  3.70000000e-01 
 3.80000000e-01  4.55476762e-01  4.55476762e-01  3.52277195e-09  3.33159386e-09  4.55476762e-01  3.20654055e-09  4.55476762e-01  1.53206612e-07  1.22143625e-07  3.80000000e-01 
 3.90000000e-01  4.55476754e-01  4.55476755e-01  3.52277195e-09  3.33159386e-09  4.55476755e-01  3.20654061e-09  4.55476755e-01  1.53206613e-07  1.22143458e-07  3.90000000e-01 
 4.00000000e-01  4.55476763e-01  4.55476763e-01  3.52277195e-09  3.33159386e-09  4.55476763e-01  3.20654059e-09  4.55476763e-01  1.53206629e-07  1.22143430e-07  4.00000000e-01 
 4.10000000e-01  4.55476759e-01  4.55476760e-01  3.52277189e-09  3.33159386e-09  4.55476760e-01  3.20654054e-09  4.55476760e-01  1.53206613e-07  1.22143248e-07  4.10000000e-01 
 4.20000000e-01  4.55476778e-01  4.55476778e-01  3.52277195e-09  3.33159392e-09  4.55476778e-01  3.20654056e-09  4.55476778e-01  1.53206642e-07  1.22143152e-07  4.20000000e-01 
 4.30000000e-01  4.55476763e-01  4.55476764e-01  3.52277195e-09  3.33159386e-09  4.55476764e-01  3.20654055e-09  4.55476764e-01  1.53206610e-07  1.22143071e-07  4.30000000e-01 
 4.40000000e-01  4.55476749e-01  4.55476749e-01  3.52277189e-09  3.33159391e-09  4.55476749e-01  3.20654055e-09  4.55476749e-01  1.53206592e-07  1.22142996e-07  4.40000000e-01 
 4.50000000e-01  4.55476754e-01  4.55476754e-01  3.52277189e-09  3.33159386e-09  4.55476754e-01  3.20654055e-09  4.55476754e-01  1.53206607e-07  1.22142971e-07  4.50000000e-01 
 4.60000000e-01  4.55476780e-01  4.55476780e-01  3.52277195e-09  3.33159386e-09  4.55476780e-01  3.20654055e-09  4.55476780e-01  1.53206647e-07  1.22142875e-07  4.60000000e-01 
 4.70000000e-01  4.55476771e-01  4.55476771e-01  3.52277195e-09  3.33159386e-09  4.55476771e-01  3.20654055e-09  4.55476771e-01  1.53206624e-07  1.22142769e-07  4.70000000e-01 
 4.80000000e-01  4.55476768e-01  4.55476769e-01  3.52277189e-09  3.33159392e-09  4.55476769e-01  3.20654055e-09  4.55476769e-01  1.53206625e-07  1.22142698e-07  4.80000000e-01 
 4.90000000e-01  4.55476750e-01  4.55476750e-01  3.52277189e-09  3.33159386e-09  4.55476750e-01  3.20654055e-09  4.55476750e-01  1.53206602e-07  1.22142549e-07  4.90000000e-01 
 5.00000000e-01  4.55476755e-01  4.55476755e-01  3.52277195e-09  3.33159391e-09  4.55476755e-01  3.20654055e-09  4.55476755e-01  1.53206605e-07  1.22142517e-07  5.00000000e-01 
 5.10000000e-01  4.55476780e-01  4.55476780e-01  3.52277195e-09  3.33159392e-09  4.55476780e-01  3.20654055e-09  4.55476780e-01  1.53206643e-07  1.22142506e-07  5.10000000e-01 
 5.20000000e-01  4.55476755e-01  4.55476755e-01  3.52277195e-09  3.33159386e-09  4.55476755e-01  3.20654055e-09  4.55476755e-01  1.53206601e-07  1.22142279e-07  5.20000000e-01 
 5.30000000e-01  4.55476756e-01  4.55476756e-01  3.52277195e-09  3.33159391e-09  4.55476756e-01  3.20654055e-09  4.55476756e-01  1.53206600e-07  1.22142250e-07  5.30000000e-01 
 5.40000000e-01  4.55476747e-01  4.55476747e-01  3.52277195e-09  3.33159386e-09  4.55476747e-01  3.20654055e-09  4.55476747e-01  1.53206598e-07  1.22142151e-07  5.40000000e-01 
 5.50000000e-01  4.55476766e-01  4.55476766e-01  3.52277189e-09  3.33159386e-09  4.55476766e-01  3.20654055e-09  4.55476767e-01  1.53206627e-07  1.22142076e-07  5.50000000e-01 
 5.60000000e-01  4.55476754e-01  4.55476755e-01  3.52277195e-09  3.33159386e-09  4.55476755e-01  3.20654055e-09  4.55476755e-01  1.53206598e-07  1.22141895e-07  5.60000000e-01 
 5.70000000e-01  4.55476748e-01  4.55476748e-01  3.52277189e-09  3.33159391e-09  4.55476748e-01  3.20654055e-09  4.55476748e-01  1.53206605e-07  1.22141895e-07  5.70000000e-01 
 5.80000000e-01  4.55476778e-01  4.55476779e-01  3.52277195e-09  3.33159386e-09  4.55476779e-01  3.20654055e-09  4.55476779e-01  1.53206636e-07  1.22141834e-07  5.80000000e-01 
 5.90000000e-01  4.55476754e-01  4.55476754e-01  3.52277195e-09  3.33159386e-09  4.55476754e-01  3.20654055e-09  4.55476754e-01  1.53206600e-07  1.22141643e-07  5.90000000e-01 
 6.00000000e-01  4.55476761e-01  4.55476761e-01  3.52277189e-09  3.33159386e-09  4.55476761e-01  3.20654055e-09  4.55476761e-01  1.53206614e-07  1.22141657e-07  6.00000000e-01 
 6.10000000e-01  4.55476741e-01  4.55476741e-01  3.52277195e-09  3.33159386e-09  4.55476741e-01  3.20654055e-09  4.55476741e-01  1.53206587e-07  1.22141600e-07  6.10000000e-01 
 6.20000000e-01  4.55476785e-01  4.55476785e-01  3.52277189e-09  3.33159386e-09  4.55476785e-01  3.20654055e-09  4.55476785e-01  1.53206646e-07  1.22141529e-07  6.20000000e-01 
 6.30000000e-01  4.55476753e-01  4.55476754e-01  3.52277189e-09  3.33159386e-09  4.55476754e-01  3.20654055e-09  4.55476754e-01  1.53206597e-07  1.22141330e-07  6.30000000e-01 
 6.40000000e-01  4.55476767e-01  4.55476767e-01  3.52277195e-09  3.33159392e-09  4.55476767e-01  3.20654055e-09  4.55476767e-01  1.53206624e-07  1.22141437e-07  6.40000000e-01 
 6.50000000e-01  4.55476747e-01  4.55476747e-01  3.52277195e-09  3.33159386e-09  4.55476747e-01  3.20654055e-09  4.55476747e-01  1.53206598e-07  1.22141209e-07  6.50000000e-01 
 6.60000000e-01  4.55476763e-01  4.55476763e-01  3.52277195e-09  3.33159391e-09  4.55476763e-01  3.20654055e-09  4.55476763e-01  1.53206613e-07  1.22141159e-07  6.60000000e-01 
 6.70000000e-01  4.55476779e-01  4.55476779e-01  3.52277195e-09  3.33159392e-09  4.55476779e-01  3.20654055e-09  4.55476779e-01  1.53206648e-07  1.22141010e-07  6.70000000e-01 
 6.80000000e-01  4.55476742e-01  4.55476743e-01  3.52277189e-09  3.33159386e-09  4.55476743e-01  3.20654061e-09  4.55476743e-01  1.53206600e-07  1.22141032e-07  6.80000000e-01 
 6.90000000e-01  4.55476782e-01  4.55476782e-01  3.52277195e-09  3.33159392e-09  4.55476782e-01  3.20654060e-09  4.55476782e-01  1.53206638e-07  1.22141017e-07  6.90000000e-01 
 7.00000000e-01  4.55476733e-01  4.55476733e-01  3.52277189e-09  3.33159385e-09  4.55476733e-01  3.20654054e-09  4.55476733e-01  1.53206584e-07  1.22140783e-07  7.00000000e-01 
 7.10000000e-01  4.55476777e-01  4.55476777e-01  3.52277195e-09  3.33159386e-09  4.55476777e-01  3.20654056e-09  4.55476777e-01  1.53206625e-07  1.22140683e-07  7.10000000e-01 
 7.20000000e-01  4.55476765e-01  4.55476765e-01  3.52277195e-09  3.33159386e-09  4.55476765e-01  3.20654061e-09  4.55476765e-01  1.53206628e-07  1.22140790e-07  7.20000000e-01 
 7.30000000e-01  4.55476777e-01  4.55476777e-01  3.52277195e-09  3.33159386e-09  4.55476777e-01  3.20654054e-09  4.55476777e-01  1.53206627e-07  1.22140584e-07  7.30000000e-01 
 7.40000000e-01  4.55476783e-01  4.55476783e-01  3.52277189e-09  3.33159386e-09  4.55476783e-01  3.20654056e-09  4.55476783e-01  1.53206656e-07  1.22140627e-07  7.40000000e-01 
 7.50000000e-01  4.55476752e-01  4.55476753e-01  3.52277189e-09  3.33159386e-09  4.55476753e-01  3.20654055e-09  4.55476753e-01  1.53206606e-07  1.22140335e-07  7.50000000e-01 
 7.60000000e-01  4.55476791e-01  4.55476791e-01  3.52277195e-09  3.33159392e-09  4.55476791e-01  3.20654055e-09  4.55476791e-01  1.53206650e-07  1.22140534e-07  7.60000000e-01 
 7.70000000e-01  4.55476772e-01  4.55476772e-01  3.52277189e-09  3.33159386e-09  4.55476772e-01  3.20654055e-09  4.55476772e-01  1.53206629e-07  1.22140250e-07  7.70000000e-01 
 7.80000000e-01  4.55476750e-01  4.55476751e-01  3.52277189e-09  3.33159386e-09  4.55476751e-01  3.20654061e-09  4.55476751e-01  1.53206605e-07  1.22140186e-07  7.80000000e-01 
 7.90000000e-01  4.55476777e-01  4.55476777e-01  3.52277189e-09  3.33159386e-09  4.55476777e-01  3.20654054e-09  4.55476777e-01  1.53206628e-07  1.22140172e-07  7.90000000e-01 
 8.00000000e-01  4.55476763e-01  4.55476764e-01  3.52277189e-09  3.33159386e-09  4.55476764e-01  3.20654056e-09  4.55476764e-01  1.53206610e-07  1.22140037e-07  8.00000000e-01 
 8.10000000e-01  4.55476756e-01  4.55476756e-01  3.52277195e-09  3.33159386e-09  4.55476756e-01  3.20654055e-09  4.55476756e-01  1.53206609e-07  1.22139845e-07  8.10000000e-01 
 8.20000000e-01  4.55476756e-01  4.55476756e-01  3.52277189e-09  3.33159386e-09  4.55476756e-01  3.20654061e-09  4.55476756e-01  1.53206607e-07  1.22139696e-07  8.20000000e-01 
 8.30000000e-01  4.55476808e-01  4.55476808e-01  3.52277195e-09  3.33159386e-09  4.55476808e-01  3.20654054e-09  4.55476809e-01  1.53206676e-07  1.22139880e-07  8.30000000e-01 
 8.40000000e-01  4.55476785e-01  4.55476785e-01  3.52277189e-09  3.33159386e-09  4.55476785e-01  3.20654056e-09  4.55476785e-01  1.53206647e-07  1.22139689e-07  8.40000000e-01 
 8.50000000e-01  4.55476763e-01  4.55476763e-01  3.52277195e-09  3.33159386e-09  4.55476763e-01  3.20654055e-09  4.55476763e-01  1.53206628e-07  1.22139518e-07  8.50000000e-01 
 8.60000000e-01  4.55476768e-01  4.55476768e-01  3.52277189e-09  3.33159386e-09  4.55476768e-01  3.20654055e-09  4.55476768e-01  1.53206630e-07  1.22139546e-07  8.60000000e-01 
 8.70000000e-01  4.55476761e-01  4.55476761e-01  3.52277189e-09  3.33159386e-09  4.55476761e-01  3.20654055e-09  4.55476761e-01  1.53206618e-07  1.22139255e-07  8.70000000e-01 
 8.80000000e-01  4.55476757e-01  4.55476757e-01  3.52277189e-09  3.33159386e-09  4.55476757e-01  3.20654055e-09  4.55476757e-01  1.53206595e-07  1.22139241e-07  8.80000000e-01 
 8.90000000e-01  4.55476768e-01  4.55476768e-01  3.52277195e-09  3.33159386e-09  4.55476768e-01  3.20654055e-09  4.55476768e-01  1.53206632e-07  1.22139241e-07  8.90000000e-01 
 9.00000000e-01  4.55476748e-01  4.55476749e-01  3.52277189e-09  3.33159386e-09  4.55476749e-01  3.20654055e-09  4.55476749e-01  1.53206593e-07  1.22139120e-07  9.00000000e-01 
 9.10000000e-01  4.55476797e-01  4.55476797e-01  3.52277190e-09  3.33159386e-09  4.55476797e-01  3.20654055e-09  4.55476797e-01  1.53206674e-07  1.22139070e-07  9.10000000e-01 
 9.20000000e-01  4.55476757e-01  4.55476757e-01  3.52277195e-09  3.33159386e-09  4.55476757e-01  3.20654061e-09  4.55476757e-01  1.53206608e-07  1.22138815e-07  9.20000000e-01 
 9.30000000e-01  4.55476767e-01  4.55476767e-01  3.52277189e-09  3.33159392e-09  4.55476767e-01  3.20654059e-09  4.55476767e-01  1.53206623e-07  1.22138779e-07  9.30000000e-01 
 9.40000000e-01  4.55476760e-01  4.55476760e-01  3.52277189e-09  3.33159386e-09  4.55476760e-01  3.20654054e-09  4.55476760e-01  1.53206602e-07  1.22138708e-07  9.40000000e-01 
 9.50000000e-01  4.55476756e-01  4.55476756e-01  3.52277195e-09  3.33159386e-09  4.55476756e-01  3.20654056e-09  4.55476756e-01  1.53206603e-07  1.22138580e-07  9.50000000e-01 
 9.60000000e-01  4.55476763e-01  4.55476763e-01  3.52277195e-09  3.33159386e-09  4.55476763e-01  3.20654055e-09  4.55476763e-01  1.53206622e-07  1.22138587e-07  9.60000000e-01 
 9.70000000e-01  4.55476759e-01  4.55476759e-01  3.52277195e-09  3.33159391e-09  4.55476759e-01  3.20654055e-09  4.55476759e-01  1.53206608e-07  1.22138459e-07  9.70000000e-01 
 9.80000000e-01  4.55476776e-01  4.55476776e-01  3.52277189e-09  3.33159386e-09  4.55476776e-01  3.20654055e-09  4.55476776e-01  1.53206639e-07  1.22138410e-07  9.80000000e-01 
 9.90000000e-01  4.55476781e-01  4.55476782e-01  3.52277189e-09  3.33159386e-09  4.55476782e-01  3.20654055e-09  4.55476782e-01  1.53206661e-07  1.22138317e-07  9.90000000e-01 
 1.00000000e+00  4.55476750e-01  4.55476750e-01  3.52277195e-09  3.33159391e-09  4.55476750e-01  3.20654061e-09  4.55476750e-01  1.53206586e-07  1.22138154e-07  1.00000000e+00 
 1.01000000e+00  4.55476775e-01  4.55476775e-01  3.52277195e-09  3.33159386e-09  4.55476775e-01  3.20654060e-09  4.55476775e-01  1.53206644e-07  1.22138161e-07  1.01000000e+00 
 1.02000000e+00  4.55476776e-01  4.55476776e-01  3.52277189e-09  3.33159386e-09  4.55476776e-01  3.20654054e-09  4.55476776e-01  1.53206645e-07  1.22138019e-07  1.02000000e+00 
 1.03000000e+00  4.55476758e-01  4.55476759e-01  3.52277189e-09  3.33159386e-09  4.55476759e-01  3.20654056e-09  4.55476759e-01  1.53206621e-07  1.22137912e-07  1.03000000e+00 
 1.04000000e+00  4.55476747e-01  4.55476748e-01  3.52277189e-09  3.33159386e-09  4.55476748e-01  3.20654055e-09  4.55476748e-01  1.53206609e-07  1.22137784e-07  1.04000000e+00 
 1.05000000e+00  4.55476764e-01  4.55476764e-01  3.52277189e-09  3.33159386e-09  4.55476764e-01  3.20654055e-09  4.55476764e-01  1.53206631e-07  1.22137614e-07  1.05000000e+00 
 1.06000000e+00  4.55476755e-01  4.55476755e-01  3.52277195e-09  3.33159391e-09  4.55476755e-01  3.20654055e-09  4.55476755e-01  1.53206602e-07  1.22137614e-07  1.06000000e+00 
 1.07000000e+00  4.55476762e-01  4.55476762e-01  3.52277195e-09  3.33159391e-09  4.55476762e-01  3.20654055e-09  4.55476762e-01  1.53206618e-07  1.22137500e-07  1.07000000e+00 
 1.08000000e+00  4.55476762e-01  4.55476762e-01  3.52277195e-09  3.33159386e-09  4.55476762e-01  3.20654055e-09  4.55476762e-01  1.53206605e-07  1.22137287e-07  1.08000000e+00 
 1.09000000e+00  4.55476786e-01  4.55476786e-01  3.52277189e-09  3.33159386e-09  4.55476786e-01  3.20654055e-09  4.55476786e-01  1.53206647e-07  1.22137408e-07  1.09000000e+00 
 1.10000000e+00  4.55476749e-01  4.55476749e-01  3.52277189e-09  3.33159386e-09  4.55476749e-01  3.20654055e-09  4.55476749e-01  1.53206592e-07  1.22137280e-07  1.10000000e+00 
