 v-sweep         v(b0)           v(b1)           v(b2)           v(b3)           v(b4)           v(b5)           v(b6)           i(vbias)        i(viout)        v(vout)        
 0.00000000e+00  3.39070455e-09  4.58936032e-01  3.11428819e-09  3.60502572e-09  3.31578914e-09  3.35915117e-09  3.33469298e-09  1.63015044e-07  3.10818683e-09  0.00000000e+00 
 1.00000000e-02  3.39070458e-09  4.58935989e-01  3.11428821e-09  3.60502575e-09  3.31578916e-09  3.35915115e-09  3.33469294e-09  1.63014986e-07  3.10776505e-09  1.00000000e-02 
 2.00000000e-02  3.39070458e-09  4.58936010e-01  3.11428816e-09  3.60502575e-09  3.31578916e-09  3.35915115e-09  3.33469295e-09  1.63015019e-07  3.10733972e-09  2.00000000e-02 
 3.00000000e-02  3.39070464e-09  4.58936019e-01  3.11428821e-09  3.60502575e-09  3.31578916e-09  3.35915121e-09  3.33469294e-09  1.63015028e-07  3.10710280e-09  3.00000000e-02 
 4.00000000e-02  3.39070457e-09  4.58936028e-01  3.11428816e-09  3.60502575e-09  3.31578916e-09  3.35915115e-09  3.33469290e-09  1.63015034e-07  3.10661097e-09  4.00000000e-02 
 5.00000000e-02  3.39070459e-09  4.58936002e-01  3.11428816e-09  3.60502575e-09  3.31578916e-09  3.35915120e-09  3.33469289e-09  1.63014995e-07  3.10630632e-09  5.00000000e-02 
 6.00000000e-02  3.39070464e-09  4.58936017e-01  3.11428816e-09  3.60502575e-09  3.31578916e-09  3.35915121e-09  3.33469295e-09  1.63015020e-07  3.10595327e-09  6.00000000e-02 
 7.00000000e-02  3.39070457e-09  4.58936013e-01  3.11428816e-09  3.60502569e-09  3.31578916e-09  3.35915121e-09  3.33469289e-09  1.63015014e-07  3.10568815e-09  7.00000000e-02 
 8.00000000e-02  3.39070459e-09  4.58936002e-01  3.11428816e-09  3.60502575e-09  3.31578916e-09  3.35915120e-09  3.33469295e-09  1.63014999e-07  3.10518633e-09  8.00000000e-02 
 9.00000000e-02  3.39070458e-09  4.58936017e-01  3.11428816e-09  3.60502575e-09  3.31578916e-09  3.35915115e-09  3.33469295e-09  1.63015032e-07  3.10495896e-09  9.00000000e-02 
 1.00000000e-01  3.39070464e-09  4.58936022e-01  3.11428816e-09  3.60502575e-09  3.31578916e-09  3.35915121e-09  3.33469295e-09  1.63015016e-07  3.10480353e-09  1.00000000e-01 
 1.10000000e-01  3.39070463e-09  4.58936016e-01  3.11428816e-09  3.60502575e-09  3.31578916e-09  3.35915121e-09  3.33469289e-09  1.63015013e-07  3.10446868e-09  1.10000000e-01 
 1.20000000e-01  3.39070463e-09  4.58936024e-01  3.11428816e-09  3.60502575e-09  3.31578916e-09  3.35915121e-09  3.33469295e-09  1.63015031e-07  3.10427772e-09  1.20000000e-01 
 1.30000000e-01  3.39070458e-09  4.58936014e-01  3.11428816e-09  3.60502575e-09  3.31578916e-09  3.35915115e-09  3.33469289e-09  1.63015019e-07  3.10404324e-09  1.30000000e-01 
 1.40000000e-01  3.39070459e-09  4.58936040e-01  3.11428821e-09  3.60502575e-09  3.31578916e-09  3.35915121e-09  3.33469295e-09  1.63015062e-07  3.10370218e-09  1.40000000e-01 
 1.50000000e-01  3.39070458e-09  4.58936014e-01  3.11428816e-09  3.60502575e-09  3.31578916e-09  3.35915121e-09  3.33469294e-09  1.63015014e-07  3.10364534e-09  1.50000000e-01 
 1.60000000e-01  3.39070458e-09  4.58936001e-01  3.11428821e-09  3.60502575e-09  3.31578916e-09  3.35915115e-09  3.33469295e-09  1.63015008e-07  3.10342330e-09  1.60000000e-01 
 1.70000000e-01  3.39070458e-09  4.58936011e-01  3.11428821e-09  3.60502575e-09  3.31578916e-09  3.35915121e-09  3.33469295e-09  1.63015020e-07  3.10321546e-09  1.70000000e-01 
 1.80000000e-01  3.39070458e-09  4.58936013e-01  3.11428821e-09  3.60502569e-09  3.31578916e-09  3.35915121e-09  3.33469289e-09  1.63015007e-07  3.10300408e-09  1.80000000e-01 
 1.90000000e-01  3.39070458e-09  4.58935995e-01  3.11428816e-09  3.60502575e-09  3.31578916e-09  3.35915115e-09  3.33469294e-09  1.63014997e-07  3.10284243e-09  1.90000000e-01 
 2.00000000e-01  3.39070458e-09  4.58936007e-01  3.11428821e-09  3.60502575e-09  3.31578916e-09  3.35915121e-09  3.33469295e-09  1.63015012e-07  3.10250492e-09  2.00000000e-01 
 2.10000000e-01  3.39070458e-09  4.58936000e-01  3.11428821e-09  3.60502575e-09  3.31578916e-09  3.35915115e-09  3.33469295e-09  1.63014999e-07  3.10242321e-09  2.10000000e-01 
 2.20000000e-01  3.39070458e-09  4.58936027e-01  3.11428816e-09  3.60502575e-09  3.31578916e-09  3.35915121e-09  3.33469295e-09  1.63015038e-07  3.10224735e-09  2.20000000e-01 
 2.30000000e-01  3.39070458e-09  4.58936010e-01  3.11428821e-09  3.60502575e-09  3.31578916e-09  3.35915115e-09  3.33469295e-09  1.63015005e-07  3.10224735e-09  2.30000000e-01 
 2.40000000e-01  3.39070458e-09  4.58936026e-01  3.11428821e-09  3.60502569e-09  3.31578916e-09  3.35915115e-09  3.33469289e-09  1.63015041e-07  3.10198267e-09  2.40000000e-01 
 2.50000000e-01  3.39070458e-09  4.58936009e-01  3.11428821e-09  3.60502575e-09  3.31578916e-09  3.35915121e-09  3.33469289e-09  1.63015006e-07  3.10179082e-09  2.50000000e-01 
 2.60000000e-01  3.39070458e-09  4.58936010e-01  3.11428816e-09  3.60502569e-09  3.31578916e-09  3.35915121e-09  3.33469289e-09  1.63015027e-07  3.10176418e-09  2.60000000e-01 
 2.70000000e-01  3.39070464e-09  4.58936003e-01  3.11428821e-09  3.60502569e-09  3.31578916e-09  3.35915120e-09  3.33469295e-09  1.63014997e-07  3.10155812e-09  2.70000000e-01 
 2.80000000e-01  3.39070457e-09  4.58936011e-01  3.11428816e-09  3.60502575e-09  3.31578916e-09  3.35915121e-09  3.33469289e-09  1.63015012e-07  3.10152437e-09  2.80000000e-01 
 2.90000000e-01  3.39070459e-09  4.58936009e-01  3.11428816e-09  3.60502575e-09  3.31578916e-09  3.35915121e-09  3.33469295e-09  1.63015000e-07  3.10130233e-09  2.90000000e-01 
 3.00000000e-01  3.39070458e-09  4.58936032e-01  3.11428821e-09  3.60502575e-09  3.31578916e-09  3.35915115e-09  3.33469290e-09  1.63015049e-07  3.10117798e-09  3.00000000e-01 
 3.10000000e-01  3.39070458e-09  4.58936010e-01  3.11428816e-09  3.60502575e-09  3.31578916e-09  3.35915121e-09  3.33469289e-09  1.63014993e-07  3.10104653e-09  3.10000000e-01 
 3.20000000e-01  3.39070458e-09  4.58936016e-01  3.11428821e-09  3.60502575e-09  3.31578916e-09  3.35915121e-09  3.33469295e-09  1.63015026e-07  3.10098258e-09  3.20000000e-01 
 3.30000000e-01  3.39070458e-09  4.58936006e-01  3.11428816e-09  3.60502569e-09  3.31578916e-09  3.35915120e-09  3.33469289e-09  1.63015002e-07  3.10080495e-09  3.30000000e-01 
 3.40000000e-01  3.39070464e-09  4.58936015e-01  3.11428816e-09  3.60502575e-09  3.31578916e-09  3.35915115e-09  3.33469289e-09  1.63015030e-07  3.10064863e-09  3.40000000e-01 
 3.50000000e-01  3.39070457e-09  4.58936017e-01  3.11428816e-09  3.60502569e-09  3.31578916e-09  3.35915121e-09  3.33469289e-09  1.63015020e-07  3.10066994e-09  3.50000000e-01 
 3.60000000e-01  3.39070459e-09  4.58936014e-01  3.11428816e-09  3.60502575e-09  3.31578916e-09  3.35915121e-09  3.33469289e-09  1.63015013e-07  3.10061665e-09  3.60000000e-01 
 3.70000000e-01  3.39070458e-09  4.58936030e-01  3.11428816e-09  3.60502575e-09  3.31578916e-09  3.35915115e-09  3.33469295e-09  1.63015042e-07  3.10050652e-09  3.70000000e-01 
 3.80000000e-01  3.39070458e-09  4.58935997e-01  3.11428821e-09  3.60502575e-09  3.31578916e-09  3.35915120e-09  3.33469293e-09  1.63014987e-07  3.10031467e-09  3.80000000e-01 
 3.90000000e-01  3.39070458e-09  4.58936020e-01  3.11428821e-09  3.60502575e-09  3.31578916e-09  3.35915115e-09  3.33469296e-09  1.63015033e-07  3.10016190e-09  3.90000000e-01 
 4.00000000e-01  3.39070458e-09  4.58936003e-01  3.11428816e-09  3.60502569e-09  3.31578916e-09  3.35915115e-09  3.33469293e-09  1.63014988e-07  3.10009085e-09  4.00000000e-01 
 4.10000000e-01  3.39070458e-09  4.58936016e-01  3.11428821e-09  3.60502569e-09  3.31578916e-09  3.35915115e-09  3.33469290e-09  1.63015022e-07  3.09998072e-09  4.10000000e-01 
 4.20000000e-01  3.39070458e-09  4.58935999e-01  3.11428816e-09  3.60502575e-09  3.31578916e-09  3.35915115e-09  3.33469289e-09  1.63014994e-07  3.09996295e-09  4.20000000e-01 
 4.30000000e-01  3.39070458e-09  4.58936027e-01  3.11428816e-09  3.60502575e-09  3.31578916e-09  3.35915115e-09  3.33469295e-09  1.63015046e-07  3.09983861e-09  4.30000000e-01 
 4.40000000e-01  3.39070458e-09  4.58936023e-01  3.11428816e-09  3.60502575e-09  3.31578916e-09  3.35915115e-09  3.33469295e-09  1.63015027e-07  3.09966808e-09  4.40000000e-01 
 4.50000000e-01  3.39070458e-09  4.58936007e-01  3.11428816e-09  3.60502575e-09  3.31578916e-09  3.35915121e-09  3.33469295e-09  1.63015010e-07  3.09971782e-09  4.50000000e-01 
 4.60000000e-01  3.39070458e-09  4.58936029e-01  3.11428821e-09  3.60502575e-09  3.31578916e-09  3.35915115e-09  3.33469295e-09  1.63015050e-07  3.09958992e-09  4.60000000e-01 
 4.70000000e-01  3.39070464e-09  4.58936014e-01  3.11428821e-09  3.60502575e-09  3.31578916e-09  3.35915115e-09  3.33469289e-09  1.63015018e-07  3.09945136e-09  4.70000000e-01 
 4.80000000e-01  3.39070463e-09  4.58936005e-01  3.11428816e-09  3.60502575e-09  3.31578916e-09  3.35915115e-09  3.33469289e-09  1.63015004e-07  3.09951886e-09  4.80000000e-01 
 4.90000000e-01  3.39070458e-09  4.58936007e-01  3.11428816e-09  3.60502575e-09  3.31578916e-09  3.35915115e-09  3.33469289e-09  1.63015006e-07  3.09935899e-09  4.90000000e-01 
 5.00000000e-01  3.39070459e-09  4.58936032e-01  3.11428816e-09  3.60502575e-09  3.31578916e-09  3.35915121e-09  3.33469295e-09  1.63015041e-07  3.09927373e-09  5.00000000e-01 
 5.10000000e-01  3.39070458e-09  4.58936011e-01  3.11428816e-09  3.60502575e-09  3.31578916e-09  3.35915121e-09  3.33469294e-09  1.63015006e-07  3.09914583e-09  5.10000000e-01 
 5.20000000e-01  3.39070458e-09  4.58936003e-01  3.11428816e-09  3.60502569e-09  3.31578916e-09  3.35915120e-09  3.33469290e-09  1.63015006e-07  3.09911030e-09  5.20000000e-01 
 5.30000000e-01  3.39070458e-09  4.58936017e-01  3.11428816e-09  3.60502575e-09  3.31578916e-09  3.35915121e-09  3.33469289e-09  1.63015017e-07  3.09896109e-09  5.30000000e-01 
 5.40000000e-01  3.39070458e-09  4.58936019e-01  3.11428821e-09  3.60502575e-09  3.31578916e-09  3.35915121e-09  3.33469295e-09  1.63015020e-07  3.09889714e-09  5.40000000e-01 
 5.50000000e-01  3.39070458e-09  4.58936020e-01  3.11428816e-09  3.60502575e-09  3.31578916e-09  3.35915115e-09  3.33469289e-09  1.63015018e-07  3.09880477e-09  5.50000000e-01 
 5.60000000e-01  3.39070458e-09  4.58936033e-01  3.11428816e-09  3.60502575e-09  3.31578916e-09  3.35915121e-09  3.33469295e-09  1.63015034e-07  3.09873016e-09  5.60000000e-01 
 5.70000000e-01  3.39070464e-09  4.58936020e-01  3.11428816e-09  3.60502575e-09  3.31578916e-09  3.35915115e-09  3.33469288e-09  1.63015025e-07  3.09871950e-09  5.70000000e-01 
 5.80000000e-01  3.39070463e-09  4.58936021e-01  3.11428816e-09  3.60502569e-09  3.31578916e-09  3.35915121e-09  3.33469296e-09  1.63015029e-07  3.09869108e-09  5.80000000e-01 
 5.90000000e-01  3.39070458e-09  4.58936028e-01  3.11428816e-09  3.60502575e-09  3.31578916e-09  3.35915121e-09  3.33469288e-09  1.63015042e-07  3.09857029e-09  5.90000000e-01 
 6.00000000e-01  3.39070459e-09  4.58936005e-01  3.11428821e-09  3.60502575e-09  3.31578916e-09  3.35915120e-09  3.33469295e-09  1.63015004e-07  3.09844950e-09  6.00000000e-01 
 6.10000000e-01  3.39070464e-09  4.58935995e-01  3.11428816e-09  3.60502575e-09  3.31578916e-09  3.35915120e-09  3.33469293e-09  1.63015000e-07  3.09836423e-09  6.10000000e-01 
 6.20000000e-01  3.39070457e-09  4.58936026e-01  3.11428821e-09  3.60502575e-09  3.31578916e-09  3.35915115e-09  3.33469290e-09  1.63015047e-07  3.09829318e-09  6.20000000e-01 
 6.30000000e-01  3.39070459e-09  4.58936019e-01  3.11428816e-09  3.60502575e-09  3.31578916e-09  3.35915121e-09  3.33469289e-09  1.63015019e-07  3.09828607e-09  6.30000000e-01 
 6.40000000e-01  3.39070458e-09  4.58936011e-01  3.11428821e-09  3.60502575e-09  3.31578916e-09  3.35915121e-09  3.33469295e-09  1.63015009e-07  3.09812975e-09  6.40000000e-01 
 6.50000000e-01  3.39070464e-09  4.58936031e-01  3.11428816e-09  3.60502575e-09  3.31578916e-09  3.35915121e-09  3.33469290e-09  1.63015048e-07  3.09805870e-09  6.50000000e-01 
 6.60000000e-01  3.39070457e-09  4.58935994e-01  3.11428821e-09  3.60502575e-09  3.31578916e-09  3.35915120e-09  3.33469289e-09  1.63014992e-07  3.09804449e-09  6.60000000e-01 
 6.70000000e-01  3.39070465e-09  4.58936013e-01  3.11428816e-09  3.60502575e-09  3.31578916e-09  3.35915121e-09  3.33469295e-09  1.63015011e-07  3.09793080e-09  6.70000000e-01 
 6.80000000e-01  3.39070457e-09  4.58935997e-01  3.11428816e-09  3.60502575e-09  3.31578916e-09  3.35915120e-09  3.33469295e-09  1.63014988e-07  3.09784554e-09  6.80000000e-01 
 6.90000000e-01  3.39070464e-09  4.58936004e-01  3.11428821e-09  3.60502575e-09  3.31578916e-09  3.35915120e-09  3.33469295e-09  1.63014996e-07  3.09781711e-09  6.90000000e-01 
 7.00000000e-01  3.39070457e-09  4.58936004e-01  3.11428821e-09  3.60502569e-09  3.31578916e-09  3.35915120e-09  3.33469295e-09  1.63014998e-07  3.09776027e-09  7.00000000e-01 
 7.10000000e-01  3.39070459e-09  4.58936030e-01  3.11428816e-09  3.60502575e-09  3.31578916e-09  3.35915121e-09  3.33469290e-09  1.63015045e-07  3.09760395e-09  7.10000000e-01 
 7.20000000e-01  3.39070458e-09  4.58936018e-01  3.11428816e-09  3.60502569e-09  3.31578916e-09  3.35915121e-09  3.33469289e-09  1.63015013e-07  3.09766790e-09  7.20000000e-01 
 7.30000000e-01  3.39070458e-09  4.58936023e-01  3.11428821e-09  3.60502569e-09  3.31578916e-09  3.35915115e-09  3.33469295e-09  1.63015032e-07  3.09747605e-09  7.30000000e-01 
 7.40000000e-01  3.39070464e-09  4.58936024e-01  3.11428821e-09  3.60502575e-09  3.31578916e-09  3.35915121e-09  3.33469289e-09  1.63015023e-07  3.09740500e-09  7.40000000e-01 
 7.50000000e-01  3.39070457e-09  4.58936003e-01  3.11428821e-09  3.60502575e-09  3.31578916e-09  3.35915115e-09  3.33469295e-09  1.63015006e-07  3.09727000e-09  7.50000000e-01 
 7.60000000e-01  3.39070459e-09  4.58936036e-01  3.11428816e-09  3.60502575e-09  3.31578916e-09  3.35915121e-09  3.33469295e-09  1.63015061e-07  3.09727710e-09  7.60000000e-01 
 7.70000000e-01  3.39070458e-09  4.58936029e-01  3.11428816e-09  3.60502569e-09  3.31578916e-09  3.35915121e-09  3.33469294e-09  1.63015043e-07  3.09722736e-09  7.70000000e-01 
 7.80000000e-01  3.39070458e-09  4.58936026e-01  3.11428816e-09  3.60502569e-09  3.31578916e-09  3.35915121e-09  3.33469296e-09  1.63015031e-07  3.09702841e-09  7.80000000e-01 
 7.90000000e-01  3.39070458e-09  4.58936018e-01  3.11428821e-09  3.60502575e-09  3.31578916e-09  3.35915121e-09  3.33469294e-09  1.63015030e-07  3.09702131e-09  7.90000000e-01 
 8.00000000e-01  3.39070458e-09  4.58936002e-01  3.11428821e-09  3.60502569e-09  3.31578916e-09  3.35915120e-09  3.33469290e-09  1.63015000e-07  3.09685078e-09  8.00000000e-01 
 8.10000000e-01  3.39070464e-09  4.58936015e-01  3.11428816e-09  3.60502575e-09  3.31578916e-09  3.35915115e-09  3.33469289e-09  1.63015028e-07  3.09680814e-09  8.10000000e-01 
 8.20000000e-01  3.39070457e-09  4.58936009e-01  3.11428821e-09  3.60502575e-09  3.31578916e-09  3.35915121e-09  3.33469295e-09  1.63015013e-07  3.09672288e-09  8.20000000e-01 
 8.30000000e-01  3.39070459e-09  4.58936035e-01  3.11428816e-09  3.60502575e-09  3.31578916e-09  3.35915121e-09  3.33469295e-09  1.63015044e-07  3.09672288e-09  8.30000000e-01 
 8.40000000e-01  3.39070458e-09  4.58936019e-01  3.11428816e-09  3.60502569e-09  3.31578916e-09  3.35915121e-09  3.33469294e-09  1.63015013e-07  3.09670867e-09  8.40000000e-01 
 8.50000000e-01  3.39070458e-09  4.58936011e-01  3.11428821e-09  3.60502575e-09  3.31578916e-09  3.35915121e-09  3.33469290e-09  1.63015021e-07  3.09655945e-09  8.50000000e-01 
 8.60000000e-01  3.39070458e-09  4.58936018e-01  3.11428821e-09  3.60502575e-09  3.31578916e-09  3.35915121e-09  3.33469295e-09  1.63015027e-07  3.09650972e-09  8.60000000e-01 
 8.70000000e-01  3.39070458e-09  4.58935990e-01  3.11428816e-09  3.60502575e-09  3.31578916e-09  3.35915120e-09  3.33469294e-09  1.63014981e-07  3.09645287e-09  8.70000000e-01 
 8.80000000e-01  3.39070458e-09  4.58936019e-01  3.11428816e-09  3.60502575e-09  3.31578916e-09  3.35915121e-09  3.33469295e-09  1.63015025e-07  3.09622550e-09  8.80000000e-01 
 8.90000000e-01  3.39070458e-09  4.58936008e-01  3.11428816e-09  3.60502575e-09  3.31578916e-09  3.35915121e-09  3.33469289e-09  1.63015007e-07  3.09626103e-09  8.90000000e-01 
 9.00000000e-01  3.39070458e-09  4.58936035e-01  3.11428816e-09  3.60502569e-09  3.31578916e-09  3.35915121e-09  3.33469295e-09  1.63015056e-07  3.09618997e-09  9.00000000e-01 
 9.10000000e-01  3.39070464e-09  4.58936011e-01  3.11428821e-09  3.60502575e-09  3.31578916e-09  3.35915121e-09  3.33469294e-09  1.63015016e-07  3.09596970e-09  9.10000000e-01 
 9.20000000e-01  3.39070457e-09  4.58936014e-01  3.11428821e-09  3.60502575e-09  3.31578916e-09  3.35915121e-09  3.33469295e-09  1.63015031e-07  3.09587733e-09  9.20000000e-01 
 9.30000000e-01  3.39070459e-09  4.58936013e-01  3.11428821e-09  3.60502575e-09  3.31578916e-09  3.35915121e-09  3.33469288e-09  1.63015013e-07  3.09596260e-09  9.30000000e-01 
 9.40000000e-01  3.39070458e-09  4.58936035e-01  3.11428816e-09  3.60502575e-09  3.31578916e-09  3.35915121e-09  3.33469290e-09  1.63015050e-07  3.09582049e-09  9.40000000e-01 
 9.50000000e-01  3.39070464e-09  4.58936026e-01  3.11428816e-09  3.60502575e-09  3.31578916e-09  3.35915121e-09  3.33469289e-09  1.63015030e-07  3.09562154e-09  9.50000000e-01 
 9.60000000e-01  3.39070457e-09  4.58936014e-01  3.11428816e-09  3.60502575e-09  3.31578916e-09  3.35915115e-09  3.33469295e-09  1.63015023e-07  3.09562864e-09  9.60000000e-01 
 9.70000000e-01  3.39070459e-09  4.58936033e-01  3.11428821e-09  3.60502569e-09  3.31578916e-09  3.35915121e-09  3.33469295e-09  1.63015047e-07  3.09551496e-09  9.70000000e-01 
 9.80000000e-01  3.39070458e-09  4.58936008e-01  3.11428821e-09  3.60502569e-09  3.31578916e-09  3.35915121e-09  3.33469288e-09  1.63015000e-07  3.09546522e-09  9.80000000e-01 
 9.90000000e-01  3.39070458e-09  4.58936015e-01  3.11428821e-09  3.60502575e-09  3.31578916e-09  3.35915121e-09  3.33469290e-09  1.63015020e-07  3.09555048e-09  9.90000000e-01 
 1.00000000e+00  3.39070458e-09  4.58936014e-01  3.11428816e-09  3.60502569e-09  3.31578922e-09  3.35915121e-09  3.33469289e-09  1.63015003e-07  3.09523784e-09  1.00000000e+00 
 1.01000000e+00  3.39070464e-09  4.58936012e-01  3.11428816e-09  3.60502569e-09  3.31578916e-09  3.35915121e-09  3.33469295e-09  1.63015008e-07  3.09530179e-09  1.01000000e+00 
 1.02000000e+00  3.39070457e-09  4.58936028e-01  3.11428816e-09  3.60502575e-09  3.31578922e-09  3.35915121e-09  3.33469289e-09  1.63015040e-07  3.09510995e-09  1.02000000e+00 
 1.03000000e+00  3.39070459e-09  4.58936025e-01  3.11428816e-09  3.60502575e-09  3.31578916e-09  3.35915115e-09  3.33469289e-09  1.63015036e-07  3.09495363e-09  1.03000000e+00 
 1.04000000e+00  3.39070458e-09  4.58936015e-01  3.11428816e-09  3.60502575e-09  3.31578916e-09  3.35915115e-09  3.33469289e-09  1.63015023e-07  3.09499626e-09  1.04000000e+00 
 1.05000000e+00  3.39070464e-09  4.58936040e-01  3.11428816e-09  3.60502575e-09  3.31578916e-09  3.35915115e-09  3.33469295e-09  1.63015059e-07  3.09478310e-09  1.05000000e+00 
 1.06000000e+00  3.39070463e-09  4.58936005e-01  3.11428821e-09  3.60502569e-09  3.31578916e-09  3.35915115e-09  3.33469293e-09  1.63014992e-07  3.09478310e-09  1.06000000e+00 
 1.07000000e+00  3.39070463e-09  4.58936005e-01  3.11428816e-09  3.60502575e-09  3.31578916e-09  3.35915120e-09  3.33469295e-09  1.63015006e-07  3.09468362e-09  1.07000000e+00 
 1.08000000e+00  3.39070463e-09  4.58936032e-01  3.11428816e-09  3.60502575e-09  3.31578916e-09  3.35915115e-09  3.33469294e-09  1.63015049e-07  3.09462678e-09  1.08000000e+00 
 1.09000000e+00  3.39070463e-09  4.58936026e-01  3.11428816e-09  3.60502575e-09  3.31578916e-09  3.35915121e-09  3.33469296e-09  1.63015036e-07  3.09456993e-09  1.09000000e+00 
 1.10000000e+00  3.39070458e-09  4.58936013e-01  3.11428816e-09  3.60502569e-09  3.31578916e-09  3.35915121e-09  3.33469294e-09  1.63015027e-07  3.09456993e-09  1.10000000e+00 
