 v-sweep         v(b0)           v(b1)           v(b2)           v(b3)           v(b4)           v(b5)           v(b6)           i(vbias)        i(viout)        v(vout)        
 0.00000000e+00  4.57587548e-01  4.57587548e-01  4.57587548e-01  4.57587548e-01  4.57587548e-01  4.57587548e-01  4.57587548e-01  1.58721232e-07  1.81996251e-07  0.00000000e+00 
 1.00000000e-02  4.57587559e-01  4.57587559e-01  4.57587559e-01  4.57587559e-01  4.57587559e-01  4.57587559e-01  4.57587559e-01  1.58721237e-07  1.81995775e-07  1.00000000e-02 
 2.00000000e-02  4.57587560e-01  4.57587560e-01  4.57587560e-01  4.57587560e-01  4.57587560e-01  4.57587560e-01  4.57587560e-01  1.58721247e-07  1.81995338e-07  2.00000000e-02 
 3.00000000e-02  4.57587531e-01  4.57587531e-01  4.57587531e-01  4.57587531e-01  4.57587531e-01  4.57587531e-01  4.57587531e-01  1.58721206e-07  1.81994628e-07  3.00000000e-02 
 4.00000000e-02  4.57587559e-01  4.57587559e-01  4.57587559e-01  4.57587559e-01  4.57587559e-01  4.57587559e-01  4.57587559e-01  1.58721246e-07  1.81994463e-07  4.00000000e-02 
 5.00000000e-02  4.57587582e-01  4.57587582e-01  4.57587582e-01  4.57587582e-01  4.57587582e-01  4.57587582e-01  4.57587582e-01  1.58721261e-07  1.81994106e-07  5.00000000e-02 
 6.00000000e-02  4.57587591e-01  4.57587591e-01  4.57587591e-01  4.57587591e-01  4.57587591e-01  4.57587591e-01  4.57587591e-01  1.58721296e-07  1.81993744e-07  6.00000000e-02 
 7.00000000e-02  4.57587543e-01  4.57587543e-01  4.57587543e-01  4.57587543e-01  4.57587543e-01  4.57587543e-01  4.57587543e-01  1.58721218e-07  1.81993161e-07  7.00000000e-02 
 8.00000000e-02  4.57587585e-01  4.57587585e-01  4.57587585e-01  4.57587585e-01  4.57587585e-01  4.57587585e-01  4.57587585e-01  1.58721291e-07  1.81992975e-07  8.00000000e-02 
 9.00000000e-02  4.57587556e-01  4.57587556e-01  4.57587556e-01  4.57587556e-01  4.57587556e-01  4.57587556e-01  4.57587556e-01  1.58721232e-07  1.81992458e-07  9.00000000e-02 
 1.00000000e-01  4.57587595e-01  4.57587594e-01  4.57587594e-01  4.57587594e-01  4.57587594e-01  4.57587594e-01  4.57587594e-01  1.58721301e-07  1.81992322e-07  1.00000000e-01 
 1.10000000e-01  4.57587598e-01  4.57587598e-01  4.57587598e-01  4.57587598e-01  4.57587598e-01  4.57587598e-01  4.57587598e-01  1.58721298e-07  1.81992025e-07  1.10000000e-01 
 1.20000000e-01  4.57587557e-01  4.57587557e-01  4.57587557e-01  4.57587557e-01  4.57587557e-01  4.57587557e-01  4.57587557e-01  1.58721241e-07  1.81991532e-07  1.20000000e-01 
 1.30000000e-01  4.57587579e-01  4.57587579e-01  4.57587579e-01  4.57587579e-01  4.57587579e-01  4.57587579e-01  4.57587579e-01  1.58721281e-07  1.81991290e-07  1.30000000e-01 
 1.40000000e-01  4.57587564e-01  4.57587564e-01  4.57587564e-01  4.57587564e-01  4.57587564e-01  4.57587564e-01  4.57587564e-01  1.58721246e-07  1.81991111e-07  1.40000000e-01 
 1.50000000e-01  4.57587580e-01  4.57587580e-01  4.57587580e-01  4.57587580e-01  4.57587580e-01  4.57587580e-01  4.57587580e-01  1.58721284e-07  1.81990959e-07  1.50000000e-01 
 1.60000000e-01  4.57587575e-01  4.57587575e-01  4.57587575e-01  4.57587575e-01  4.57587575e-01  4.57587575e-01  4.57587575e-01  1.58721273e-07  1.81990488e-07  1.60000000e-01 
 1.70000000e-01  4.57587565e-01  4.57587565e-01  4.57587565e-01  4.57587565e-01  4.57587565e-01  4.57587565e-01  4.57587565e-01  1.58721265e-07  1.81990224e-07  1.70000000e-01 
 1.80000000e-01  4.57587553e-01  4.57587553e-01  4.57587553e-01  4.57587553e-01  4.57587553e-01  4.57587553e-01  4.57587553e-01  1.58721242e-07  1.81989916e-07  1.80000000e-01 
 1.90000000e-01  4.57587573e-01  4.57587573e-01  4.57587573e-01  4.57587573e-01  4.57587573e-01  4.57587573e-01  4.57587573e-01  1.58721263e-07  1.81989694e-07  1.90000000e-01 
 2.00000000e-01  4.57587571e-01  4.57587571e-01  4.57587571e-01  4.57587571e-01  4.57587571e-01  4.57587571e-01  4.57587571e-01  1.58721259e-07  1.81989531e-07  2.00000000e-01 
 2.10000000e-01  4.57587566e-01  4.57587566e-01  4.57587565e-01  4.57587566e-01  4.57587565e-01  4.57587565e-01  4.57587566e-01  1.58721266e-07  1.81989233e-07  2.10000000e-01 
 2.20000000e-01  4.57587588e-01  4.57587588e-01  4.57587588e-01  4.57587588e-01  4.57587588e-01  4.57587588e-01  4.57587588e-01  1.58721287e-07  1.81989106e-07  2.20000000e-01 
 2.30000000e-01  4.57587564e-01  4.57587564e-01  4.57587564e-01  4.57587564e-01  4.57587564e-01  4.57587564e-01  4.57587564e-01  1.58721247e-07  1.81988852e-07  2.30000000e-01 
 2.40000000e-01  4.57587569e-01  4.57587569e-01  4.57587568e-01  4.57587569e-01  4.57587568e-01  4.57587568e-01  4.57587568e-01  1.58721251e-07  1.81988554e-07  2.40000000e-01 
 2.50000000e-01  4.57587556e-01  4.57587556e-01  4.57587556e-01  4.57587556e-01  4.57587556e-01  4.57587556e-01  4.57587556e-01  1.58721240e-07  1.81988316e-07  2.50000000e-01 
 2.60000000e-01  4.57587569e-01  4.57587569e-01  4.57587568e-01  4.57587568e-01  4.57587568e-01  4.57587568e-01  4.57587568e-01  1.58721260e-07  1.81988295e-07  2.60000000e-01 
 2.70000000e-01  4.57587554e-01  4.57587554e-01  4.57587554e-01  4.57587554e-01  4.57587554e-01  4.57587554e-01  4.57587554e-01  1.58721255e-07  1.81987982e-07  2.70000000e-01 
 2.80000000e-01  4.57587544e-01  4.57587544e-01  4.57587544e-01  4.57587544e-01  4.57587544e-01  4.57587544e-01  4.57587544e-01  1.58721227e-07  1.81987815e-07  2.80000000e-01 
 2.90000000e-01  4.57587604e-01  4.57587604e-01  4.57587604e-01  4.57587604e-01  4.57587604e-01  4.57587604e-01  4.57587604e-01  1.58721319e-07  1.81987918e-07  2.90000000e-01 
 3.00000000e-01  4.57587584e-01  4.57587584e-01  4.57587584e-01  4.57587584e-01  4.57587584e-01  4.57587584e-01  4.57587584e-01  1.58721278e-07  1.81987541e-07  3.00000000e-01 
 3.10000000e-01  4.57587556e-01  4.57587556e-01  4.57587556e-01  4.57587556e-01  4.57587556e-01  4.57587556e-01  4.57587556e-01  1.58721240e-07  1.81987318e-07  3.10000000e-01 
 3.20000000e-01  4.57587553e-01  4.57587553e-01  4.57587553e-01  4.57587553e-01  4.57587553e-01  4.57587553e-01  4.57587553e-01  1.58721233e-07  1.81987115e-07  3.20000000e-01 
 3.30000000e-01  4.57587564e-01  4.57587564e-01  4.57587564e-01  4.57587564e-01  4.57587564e-01  4.57587564e-01  4.57587564e-01  1.58721248e-07  1.81986895e-07  3.30000000e-01 
 3.40000000e-01  4.57587564e-01  4.57587564e-01  4.57587563e-01  4.57587564e-01  4.57587563e-01  4.57587563e-01  4.57587563e-01  1.58721253e-07  1.81986731e-07  3.40000000e-01 
 3.50000000e-01  4.57587565e-01  4.57587565e-01  4.57587565e-01  4.57587565e-01  4.57587565e-01  4.57587565e-01  4.57587565e-01  1.58721260e-07  1.81986604e-07  3.50000000e-01 
 3.60000000e-01  4.57587547e-01  4.57587547e-01  4.57587547e-01  4.57587547e-01  4.57587547e-01  4.57587547e-01  4.57587547e-01  1.58721231e-07  1.81986273e-07  3.60000000e-01 
 3.70000000e-01  4.57587570e-01  4.57587570e-01  4.57587570e-01  4.57587570e-01  4.57587570e-01  4.57587570e-01  4.57587570e-01  1.58721264e-07  1.81986351e-07  3.70000000e-01 
 3.80000000e-01  4.57587573e-01  4.57587573e-01  4.57587573e-01  4.57587573e-01  4.57587573e-01  4.57587573e-01  4.57587573e-01  1.58721271e-07  1.81986113e-07  3.80000000e-01 
 3.90000000e-01  4.57587562e-01  4.57587562e-01  4.57587562e-01  4.57587562e-01  4.57587562e-01  4.57587562e-01  4.57587562e-01  1.58721247e-07  1.81985925e-07  3.90000000e-01 
 4.00000000e-01  4.57587569e-01  4.57587569e-01  4.57587569e-01  4.57587569e-01  4.57587569e-01  4.57587569e-01  4.57587569e-01  1.58721273e-07  1.81985683e-07  4.00000000e-01 
 4.10000000e-01  4.57587552e-01  4.57587552e-01  4.57587552e-01  4.57587552e-01  4.57587552e-01  4.57587552e-01  4.57587552e-01  1.58721233e-07  1.81985619e-07  4.10000000e-01 
 4.20000000e-01  4.57587561e-01  4.57587561e-01  4.57587561e-01  4.57587561e-01  4.57587561e-01  4.57587561e-01  4.57587561e-01  1.58721258e-07  1.81985516e-07  4.20000000e-01 
 4.30000000e-01  4.57587554e-01  4.57587554e-01  4.57587554e-01  4.57587554e-01  4.57587554e-01  4.57587554e-01  4.57587554e-01  1.58721233e-07  1.81985268e-07  4.30000000e-01 
 4.40000000e-01  4.57587568e-01  4.57587568e-01  4.57587568e-01  4.57587568e-01  4.57587568e-01  4.57587568e-01  4.57587568e-01  1.58721259e-07  1.81985204e-07  4.40000000e-01 
 4.50000000e-01  4.57587562e-01  4.57587562e-01  4.57587562e-01  4.57587562e-01  4.57587562e-01  4.57587562e-01  4.57587562e-01  1.58721251e-07  1.81985019e-07  4.50000000e-01 
 4.60000000e-01  4.57587585e-01  4.57587585e-01  4.57587585e-01  4.57587585e-01  4.57587585e-01  4.57587585e-01  4.57587585e-01  1.58721284e-07  1.81984984e-07  4.60000000e-01 
 4.70000000e-01  4.57587536e-01  4.57587536e-01  4.57587536e-01  4.57587536e-01  4.57587536e-01  4.57587536e-01  4.57587536e-01  1.58721220e-07  1.81984561e-07  4.70000000e-01 
 4.80000000e-01  4.57587584e-01  4.57587584e-01  4.57587583e-01  4.57587584e-01  4.57587583e-01  4.57587583e-01  4.57587583e-01  1.58721282e-07  1.81984589e-07  4.80000000e-01 
 4.90000000e-01  4.57587569e-01  4.57587569e-01  4.57587569e-01  4.57587569e-01  4.57587569e-01  4.57587569e-01  4.57587569e-01  1.58721262e-07  1.81984429e-07  4.90000000e-01 
 5.00000000e-01  4.57587546e-01  4.57587546e-01  4.57587546e-01  4.57587546e-01  4.57587546e-01  4.57587546e-01  4.57587546e-01  1.58721235e-07  1.81984216e-07  5.00000000e-01 
 5.10000000e-01  4.57587559e-01  4.57587559e-01  4.57587559e-01  4.57587559e-01  4.57587559e-01  4.57587559e-01  4.57587559e-01  1.58721238e-07  1.81984149e-07  5.10000000e-01 
 5.20000000e-01  4.57587573e-01  4.57587573e-01  4.57587573e-01  4.57587573e-01  4.57587573e-01  4.57587573e-01  4.57587573e-01  1.58721274e-07  1.81984081e-07  5.20000000e-01 
 5.30000000e-01  4.57587549e-01  4.57587549e-01  4.57587549e-01  4.57587549e-01  4.57587549e-01  4.57587549e-01  4.57587549e-01  1.58721229e-07  1.81983655e-07  5.30000000e-01 
 5.40000000e-01  4.57587567e-01  4.57587567e-01  4.57587567e-01  4.57587567e-01  4.57587567e-01  4.57587567e-01  4.57587567e-01  1.58721265e-07  1.81983761e-07  5.40000000e-01 
 5.50000000e-01  4.57587552e-01  4.57587552e-01  4.57587552e-01  4.57587552e-01  4.57587552e-01  4.57587552e-01  4.57587552e-01  1.58721240e-07  1.81983552e-07  5.50000000e-01 
 5.60000000e-01  4.57587567e-01  4.57587567e-01  4.57587566e-01  4.57587567e-01  4.57587566e-01  4.57587566e-01  4.57587567e-01  1.58721241e-07  1.81983456e-07  5.60000000e-01 
 5.70000000e-01  4.57587558e-01  4.57587558e-01  4.57587557e-01  4.57587558e-01  4.57587557e-01  4.57587557e-01  4.57587558e-01  1.58721241e-07  1.81983332e-07  5.70000000e-01 
 5.80000000e-01  4.57587579e-01  4.57587579e-01  4.57587579e-01  4.57587579e-01  4.57587579e-01  4.57587579e-01  4.57587579e-01  1.58721276e-07  1.81983275e-07  5.80000000e-01 
 5.90000000e-01  4.57587567e-01  4.57587567e-01  4.57587566e-01  4.57587566e-01  4.57587566e-01  4.57587566e-01  4.57587566e-01  1.58721257e-07  1.81982976e-07  5.90000000e-01 
 6.00000000e-01  4.57587574e-01  4.57587574e-01  4.57587574e-01  4.57587574e-01  4.57587574e-01  4.57587574e-01  4.57587574e-01  1.58721257e-07  1.81982891e-07  6.00000000e-01 
 6.10000000e-01  4.57587553e-01  4.57587553e-01  4.57587552e-01  4.57587553e-01  4.57587552e-01  4.57587552e-01  4.57587553e-01  1.58721251e-07  1.81982628e-07  6.10000000e-01 
 6.20000000e-01  4.57587574e-01  4.57587574e-01  4.57587574e-01  4.57587574e-01  4.57587574e-01  4.57587574e-01  4.57587574e-01  1.58721275e-07  1.81982656e-07  6.20000000e-01 
 6.30000000e-01  4.57587572e-01  4.57587572e-01  4.57587572e-01  4.57587572e-01  4.57587572e-01  4.57587572e-01  4.57587572e-01  1.58721275e-07  1.81982529e-07  6.30000000e-01 
 6.40000000e-01  4.57587574e-01  4.57587574e-01  4.57587573e-01  4.57587573e-01  4.57587573e-01  4.57587573e-01  4.57587573e-01  1.58721276e-07  1.81982280e-07  6.40000000e-01 
 6.50000000e-01  4.57587558e-01  4.57587558e-01  4.57587558e-01  4.57587558e-01  4.57587558e-01  4.57587558e-01  4.57587558e-01  1.58721244e-07  1.81982152e-07  6.50000000e-01 
 6.60000000e-01  4.57587584e-01  4.57587584e-01  4.57587584e-01  4.57587584e-01  4.57587584e-01  4.57587584e-01  4.57587584e-01  1.58721287e-07  1.81982195e-07  6.60000000e-01 
 6.70000000e-01  4.57587564e-01  4.57587564e-01  4.57587564e-01  4.57587564e-01  4.57587564e-01  4.57587564e-01  4.57587564e-01  1.58721255e-07  1.81981910e-07  6.70000000e-01 
 6.80000000e-01  4.57587542e-01  4.57587542e-01  4.57587542e-01  4.57587542e-01  4.57587542e-01  4.57587542e-01  4.57587542e-01  1.58721222e-07  1.81981534e-07  6.80000000e-01 
 6.90000000e-01  4.57587572e-01  4.57587572e-01  4.57587572e-01  4.57587572e-01  4.57587572e-01  4.57587572e-01  4.57587572e-01  1.58721271e-07  1.81981626e-07  6.90000000e-01 
 7.00000000e-01  4.57587570e-01  4.57587570e-01  4.57587570e-01  4.57587570e-01  4.57587570e-01  4.57587570e-01  4.57587570e-01  1.58721259e-07  1.81981328e-07  7.00000000e-01 
 7.10000000e-01  4.57587559e-01  4.57587559e-01  4.57587559e-01  4.57587559e-01  4.57587559e-01  4.57587559e-01  4.57587559e-01  1.58721249e-07  1.81981214e-07  7.10000000e-01 
 7.20000000e-01  4.57587531e-01  4.57587531e-01  4.57587531e-01  4.57587531e-01  4.57587531e-01  4.57587531e-01  4.57587531e-01  1.58721202e-07  1.81981029e-07  7.20000000e-01 
 7.30000000e-01  4.57587587e-01  4.57587587e-01  4.57587587e-01  4.57587587e-01  4.57587587e-01  4.57587587e-01  4.57587587e-01  1.58721285e-07  1.81981093e-07  7.30000000e-01 
 7.40000000e-01  4.57587580e-01  4.57587580e-01  4.57587580e-01  4.57587580e-01  4.57587580e-01  4.57587580e-01  4.57587580e-01  1.58721272e-07  1.81980951e-07  7.40000000e-01 
 7.50000000e-01  4.57587555e-01  4.57587555e-01  4.57587555e-01  4.57587555e-01  4.57587555e-01  4.57587555e-01  4.57587555e-01  1.58721238e-07  1.81980617e-07  7.50000000e-01 
 7.60000000e-01  4.57587585e-01  4.57587585e-01  4.57587584e-01  4.57587585e-01  4.57587584e-01  4.57587584e-01  4.57587584e-01  1.58721287e-07  1.81980525e-07  7.60000000e-01 
 7.70000000e-01  4.57587579e-01  4.57587579e-01  4.57587579e-01  4.57587579e-01  4.57587579e-01  4.57587579e-01  4.57587579e-01  1.58721248e-07  1.81980440e-07  7.70000000e-01 
 7.80000000e-01  4.57587571e-01  4.57587571e-01  4.57587571e-01  4.57587571e-01  4.57587571e-01  4.57587571e-01  4.57587571e-01  1.58721262e-07  1.81980269e-07  7.80000000e-01 
 7.90000000e-01  4.57587571e-01  4.57587571e-01  4.57587571e-01  4.57587571e-01  4.57587571e-01  4.57587571e-01  4.57587571e-01  1.58721262e-07  1.81979964e-07  7.90000000e-01 
 8.00000000e-01  4.57587608e-01  4.57587608e-01  4.57587608e-01  4.57587608e-01  4.57587608e-01  4.57587608e-01  4.57587608e-01  1.58721328e-07  1.81980077e-07  8.00000000e-01 
 8.10000000e-01  4.57587572e-01  4.57587572e-01  4.57587572e-01  4.57587572e-01  4.57587572e-01  4.57587572e-01  4.57587572e-01  1.58721272e-07  1.81979836e-07  8.10000000e-01 
 8.20000000e-01  4.57587582e-01  4.57587582e-01  4.57587582e-01  4.57587582e-01  4.57587582e-01  4.57587582e-01  4.57587582e-01  1.58721273e-07  1.81979644e-07  8.20000000e-01 
 8.30000000e-01  4.57587560e-01  4.57587560e-01  4.57587560e-01  4.57587560e-01  4.57587560e-01  4.57587560e-01  4.57587560e-01  1.58721245e-07  1.81979459e-07  8.30000000e-01 
 8.40000000e-01  4.57587559e-01  4.57587559e-01  4.57587558e-01  4.57587558e-01  4.57587558e-01  4.57587558e-01  4.57587558e-01  1.58721247e-07  1.81979360e-07  8.40000000e-01 
 8.50000000e-01  4.57587571e-01  4.57587571e-01  4.57587570e-01  4.57587571e-01  4.57587570e-01  4.57587570e-01  4.57587570e-01  1.58721268e-07  1.81979196e-07  8.50000000e-01 
 8.60000000e-01  4.57587567e-01  4.57587567e-01  4.57587567e-01  4.57587567e-01  4.57587567e-01  4.57587567e-01  4.57587567e-01  1.58721249e-07  1.81979004e-07  8.60000000e-01 
 8.70000000e-01  4.57587569e-01  4.57587569e-01  4.57587569e-01  4.57587569e-01  4.57587569e-01  4.57587569e-01  4.57587569e-01  1.58721254e-07  1.81978812e-07  8.70000000e-01 
 8.80000000e-01  4.57587571e-01  4.57587571e-01  4.57587571e-01  4.57587571e-01  4.57587571e-01  4.57587571e-01  4.57587571e-01  1.58721256e-07  1.81978677e-07  8.80000000e-01 
 8.90000000e-01  4.57587556e-01  4.57587556e-01  4.57587556e-01  4.57587556e-01  4.57587556e-01  4.57587556e-01  4.57587556e-01  1.58721236e-07  1.81978550e-07  8.90000000e-01 
 9.00000000e-01  4.57587556e-01  4.57587556e-01  4.57587555e-01  4.57587556e-01  4.57587555e-01  4.57587555e-01  4.57587556e-01  1.58721243e-07  1.81978301e-07  9.00000000e-01 
 9.10000000e-01  4.57587537e-01  4.57587537e-01  4.57587537e-01  4.57587537e-01  4.57587537e-01  4.57587537e-01  4.57587537e-01  1.58721219e-07  1.81977967e-07  9.10000000e-01 
 9.20000000e-01  4.57587570e-01  4.57587570e-01  4.57587570e-01  4.57587570e-01  4.57587570e-01  4.57587570e-01  4.57587570e-01  1.58721269e-07  1.81977917e-07  9.20000000e-01 
 9.30000000e-01  4.57587565e-01  4.57587565e-01  4.57587565e-01  4.57587565e-01  4.57587565e-01  4.57587565e-01  4.57587565e-01  1.58721273e-07  1.81977782e-07  9.30000000e-01 
 9.40000000e-01  4.57587556e-01  4.57587556e-01  4.57587556e-01  4.57587556e-01  4.57587556e-01  4.57587556e-01  4.57587556e-01  1.58721239e-07  1.81977533e-07  9.40000000e-01 
 9.50000000e-01  4.57587564e-01  4.57587564e-01  4.57587564e-01  4.57587564e-01  4.57587564e-01  4.57587564e-01  4.57587564e-01  1.58721262e-07  1.81977427e-07  9.50000000e-01 
 9.60000000e-01  4.57587555e-01  4.57587555e-01  4.57587555e-01  4.57587555e-01  4.57587555e-01  4.57587555e-01  4.57587555e-01  1.58721236e-07  1.81977185e-07  9.60000000e-01 
 9.70000000e-01  4.57587552e-01  4.57587552e-01  4.57587552e-01  4.57587552e-01  4.57587552e-01  4.57587552e-01  4.57587552e-01  1.58721235e-07  1.81977121e-07  9.70000000e-01 
 9.80000000e-01  4.57587544e-01  4.57587544e-01  4.57587543e-01  4.57587544e-01  4.57587543e-01  4.57587543e-01  4.57587544e-01  1.58721238e-07  1.81976965e-07  9.80000000e-01 
 9.90000000e-01  4.57587545e-01  4.57587545e-01  4.57587544e-01  4.57587544e-01  4.57587544e-01  4.57587544e-01  4.57587544e-01  1.58721227e-07  1.81976617e-07  9.90000000e-01 
 1.00000000e+00  4.57587523e-01  4.57587523e-01  4.57587523e-01  4.57587523e-01  4.57587523e-01  4.57587523e-01  4.57587523e-01  1.58721209e-07  1.81976489e-07  1.00000000e+00 
 1.01000000e+00  4.57587556e-01  4.57587556e-01  4.57587556e-01  4.57587556e-01  4.57587556e-01  4.57587556e-01  4.57587556e-01  1.58721226e-07  1.81976432e-07  1.01000000e+00 
 1.02000000e+00  4.57587568e-01  4.57587568e-01  4.57587568e-01  4.57587568e-01  4.57587568e-01  4.57587568e-01  4.57587568e-01  1.58721264e-07  1.81976183e-07  1.02000000e+00 
 1.03000000e+00  4.57587540e-01  4.57587540e-01  4.57587540e-01  4.57587540e-01  4.57587540e-01  4.57587540e-01  4.57587540e-01  1.58721213e-07  1.81975970e-07  1.03000000e+00 
 1.04000000e+00  4.57587568e-01  4.57587568e-01  4.57587568e-01  4.57587568e-01  4.57587568e-01  4.57587568e-01  4.57587568e-01  1.58721265e-07  1.81975821e-07  1.04000000e+00 
 1.05000000e+00  4.57587563e-01  4.57587563e-01  4.57587563e-01  4.57587563e-01  4.57587563e-01  4.57587563e-01  4.57587563e-01  1.58721256e-07  1.81975643e-07  1.05000000e+00 
 1.06000000e+00  4.57587570e-01  4.57587570e-01  4.57587570e-01  4.57587570e-01  4.57587570e-01  4.57587570e-01  4.57587570e-01  1.58721261e-07  1.81975537e-07  1.06000000e+00 
 1.07000000e+00  4.57587560e-01  4.57587560e-01  4.57587559e-01  4.57587560e-01  4.57587559e-01  4.57587559e-01  4.57587559e-01  1.58721258e-07  1.81975210e-07  1.07000000e+00 
 1.08000000e+00  4.57587556e-01  4.57587556e-01  4.57587556e-01  4.57587556e-01  4.57587556e-01  4.57587556e-01  4.57587556e-01  1.58721258e-07  1.81975068e-07  1.08000000e+00 
 1.09000000e+00  4.57587550e-01  4.57587549e-01  4.57587549e-01  4.57587549e-01  4.57587549e-01  4.57587549e-01  4.57587549e-01  1.58721236e-07  1.81974869e-07  1.09000000e+00 
 1.10000000e+00  4.57587554e-01  4.57587554e-01  4.57587554e-01  4.57587554e-01  4.57587554e-01  4.57587554e-01  4.57587554e-01  1.58721254e-07  1.81974656e-07  1.10000000e+00 
