 v-sweep         v(b0)           v(b1)           v(b2)           v(b3)           v(b4)           v(b5)           v(b6)           i(vbias)        i(viout)        v(vout)        
 0.00000000e+00  4.58268847e-01  3.38703496e-09  3.45427016e-09  3.45898236e-09  3.23751248e-09  4.58268847e-01  4.58268847e-01  1.59044983e-07  1.45653205e-07  0.00000000e+00 
 1.00000000e-02  4.58268857e-01  3.38703499e-09  3.45427013e-09  3.45898233e-09  3.23751252e-09  4.58268857e-01  4.58268857e-01  1.59044980e-07  1.45652835e-07  1.00000000e-02 
 2.00000000e-02  4.58268859e-01  3.38703499e-09  3.45427013e-09  3.45898233e-09  3.23751252e-09  4.58268859e-01  4.58268859e-01  1.59044991e-07  1.45652491e-07  2.00000000e-02 
 3.00000000e-02  4.58268849e-01  3.38703493e-09  3.45427013e-09  3.45898233e-09  3.23751251e-09  4.58268849e-01  4.58268849e-01  1.59044982e-07  1.45652016e-07  3.00000000e-02 
 4.00000000e-02  4.58268828e-01  3.38703499e-09  3.45427013e-09  3.45898233e-09  3.23751251e-09  4.58268828e-01  4.58268828e-01  1.59044951e-07  1.45651565e-07  4.00000000e-02 
 5.00000000e-02  4.58268867e-01  3.38703499e-09  3.45427013e-09  3.45898233e-09  3.23751252e-09  4.58268867e-01  4.58268867e-01  1.59044991e-07  1.45651362e-07  5.00000000e-02 
 6.00000000e-02  4.58268844e-01  3.38703493e-09  3.45427013e-09  3.45898233e-09  3.23751246e-09  4.58268844e-01  4.58268844e-01  1.59044968e-07  1.45650790e-07  6.00000000e-02 
 7.00000000e-02  4.58268852e-01  3.38703499e-09  3.45427013e-09  3.45898233e-09  3.23751251e-09  4.58268852e-01  4.58268852e-01  1.59044973e-07  1.45650634e-07  7.00000000e-02 
 8.00000000e-02  4.58268861e-01  3.38703499e-09  3.45427013e-09  3.45898233e-09  3.23751252e-09  4.58268861e-01  4.58268861e-01  1.59044990e-07  1.45650258e-07  8.00000000e-02 
 9.00000000e-02  4.58268849e-01  3.38703493e-09  3.45427013e-09  3.45898233e-09  3.23751251e-09  4.58268849e-01  4.58268849e-01  1.59044985e-07  1.45650033e-07  9.00000000e-02 
 1.00000000e-01  4.58268841e-01  3.38703499e-09  3.45427013e-09  3.45898233e-09  3.23751246e-09  4.58268841e-01  4.58268841e-01  1.59044976e-07  1.45649657e-07  1.00000000e-01 
 1.10000000e-01  4.58268844e-01  3.38703499e-09  3.45427013e-09  3.45898233e-09  3.23751251e-09  4.58268844e-01  4.58268844e-01  1.59044964e-07  1.45649517e-07  1.10000000e-01 
 1.20000000e-01  4.58268826e-01  3.38703498e-09  3.45427013e-09  3.45898233e-09  3.23751251e-09  4.58268826e-01  4.58268826e-01  1.59044935e-07  1.45649079e-07  1.20000000e-01 
 1.30000000e-01  4.58268872e-01  3.38703499e-09  3.45427013e-09  3.45898233e-09  3.23751246e-09  4.58268872e-01  4.58268872e-01  1.59045000e-07  1.45648937e-07  1.30000000e-01 
 1.40000000e-01  4.58268858e-01  3.38703499e-09  3.45427013e-09  3.45898233e-09  3.23751252e-09  4.58268858e-01  4.58268858e-01  1.59045000e-07  1.45648609e-07  1.40000000e-01 
 1.50000000e-01  4.58268859e-01  3.38703499e-09  3.45427013e-09  3.45898233e-09  3.23751252e-09  4.58268859e-01  4.58268859e-01  1.59045001e-07  1.45648437e-07  1.50000000e-01 
 1.60000000e-01  4.58268819e-01  3.38703498e-09  3.45427013e-09  3.45898233e-09  3.23751251e-09  4.58268819e-01  4.58268819e-01  1.59044951e-07  1.45648107e-07  1.60000000e-01 
 1.70000000e-01  4.58268826e-01  3.38703499e-09  3.45427013e-09  3.45898233e-09  3.23751251e-09  4.58268826e-01  4.58268826e-01  1.59044938e-07  1.45647856e-07  1.70000000e-01 
 1.80000000e-01  4.58268845e-01  3.38703499e-09  3.45427013e-09  3.45898233e-09  3.23751251e-09  4.58268845e-01  4.58268845e-01  1.59044963e-07  1.45647649e-07  1.80000000e-01 
 1.90000000e-01  4.58268856e-01  3.38703493e-09  3.45427013e-09  3.45898233e-09  3.23751246e-09  4.58268856e-01  4.58268856e-01  1.59044978e-07  1.45647615e-07  1.90000000e-01 
 2.00000000e-01  4.58268829e-01  3.38703499e-09  3.45427019e-09  3.45898233e-09  3.23751251e-09  4.58268829e-01  4.58268829e-01  1.59044950e-07  1.45647297e-07  2.00000000e-01 
 2.10000000e-01  4.58268821e-01  3.38703493e-09  3.45427013e-09  3.45898233e-09  3.23751245e-09  4.58268821e-01  4.58268821e-01  1.59044926e-07  1.45646984e-07  2.10000000e-01 
 2.20000000e-01  4.58268846e-01  3.38703493e-09  3.45427013e-09  3.45898233e-09  3.23751251e-09  4.58268846e-01  4.58268846e-01  1.59044968e-07  1.45646872e-07  2.20000000e-01 
 2.30000000e-01  4.58268860e-01  3.38703499e-09  3.45427013e-09  3.45898233e-09  3.23751252e-09  4.58268860e-01  4.58268860e-01  1.59044993e-07  1.45646815e-07  2.30000000e-01 
 2.40000000e-01  4.58268823e-01  3.38703498e-09  3.45427013e-09  3.45898233e-09  3.23751245e-09  4.58268823e-01  4.58268823e-01  1.59044945e-07  1.45646533e-07  2.40000000e-01 
 2.50000000e-01  4.58268839e-01  3.38703499e-09  3.45427013e-09  3.45898233e-09  3.23751251e-09  4.58268839e-01  4.58268839e-01  1.59044954e-07  1.45646339e-07  2.50000000e-01 
 2.60000000e-01  4.58268845e-01  3.38703499e-09  3.45427013e-09  3.45898233e-09  3.23751251e-09  4.58268846e-01  4.58268846e-01  1.59044976e-07  1.45646213e-07  2.60000000e-01 
 2.70000000e-01  4.58268842e-01  3.38703499e-09  3.45427013e-09  3.45898233e-09  3.23751251e-09  4.58268842e-01  4.58268842e-01  1.59044966e-07  1.45646126e-07  2.70000000e-01 
 2.80000000e-01  4.58268845e-01  3.38703493e-09  3.45427013e-09  3.45898233e-09  3.23751251e-09  4.58268845e-01  4.58268845e-01  1.59044976e-07  1.45645888e-07  2.80000000e-01 
 2.90000000e-01  4.58268849e-01  3.38703499e-09  3.45427013e-09  3.45898233e-09  3.23751246e-09  4.58268849e-01  4.58268849e-01  1.59044971e-07  1.45645842e-07  2.90000000e-01 
 3.00000000e-01  4.58268845e-01  3.38703499e-09  3.45427013e-09  3.45898233e-09  3.23751251e-09  4.58268846e-01  4.58268846e-01  1.59044974e-07  1.45645647e-07  3.00000000e-01 
 3.10000000e-01  4.58268849e-01  3.38703493e-09  3.45427013e-09  3.45898233e-09  3.23751251e-09  4.58268850e-01  4.58268850e-01  1.59044969e-07  1.45645572e-07  3.10000000e-01 
 3.20000000e-01  4.58268853e-01  3.38703499e-09  3.45427013e-09  3.45898233e-09  3.23751251e-09  4.58268853e-01  4.58268853e-01  1.59044984e-07  1.45645394e-07  3.20000000e-01 
 3.30000000e-01  4.58268831e-01  3.38703493e-09  3.45427013e-09  3.45898233e-09  3.23751251e-09  4.58268831e-01  4.58268831e-01  1.59044947e-07  1.45645167e-07  3.30000000e-01 
 3.40000000e-01  4.58268832e-01  3.38703493e-09  3.45427013e-09  3.45898233e-09  3.23751251e-09  4.58268832e-01  4.58268832e-01  1.59044961e-07  1.45645032e-07  3.40000000e-01 
 3.50000000e-01  4.58268844e-01  3.38703499e-09  3.45427013e-09  3.45898233e-09  3.23751246e-09  4.58268844e-01  4.58268844e-01  1.59044973e-07  1.45644979e-07  3.50000000e-01 
 3.60000000e-01  4.58268828e-01  3.38703499e-09  3.45427013e-09  3.45898233e-09  3.23751251e-09  4.58268828e-01  4.58268828e-01  1.59044942e-07  1.45644780e-07  3.60000000e-01 
 3.70000000e-01  4.58268874e-01  3.38703493e-09  3.45427013e-09  3.45898233e-09  3.23751252e-09  4.58268874e-01  4.58268874e-01  1.59045006e-07  1.45644872e-07  3.70000000e-01 
 3.80000000e-01  4.58268861e-01  3.38703499e-09  3.45427013e-09  3.45898233e-09  3.23751252e-09  4.58268861e-01  4.58268861e-01  1.59044981e-07  1.45644723e-07  3.80000000e-01 
 3.90000000e-01  4.58268843e-01  3.38703499e-09  3.45427013e-09  3.45898233e-09  3.23751251e-09  4.58268843e-01  4.58268843e-01  1.59044987e-07  1.45644428e-07  3.90000000e-01 
 4.00000000e-01  4.58268836e-01  3.38703499e-09  3.45427013e-09  3.45898233e-09  3.23751251e-09  4.58268836e-01  4.58268836e-01  1.59044945e-07  1.45644346e-07  4.00000000e-01 
 4.10000000e-01  4.58268845e-01  3.38703493e-09  3.45427013e-09  3.45898233e-09  3.23751251e-09  4.58268845e-01  4.58268845e-01  1.59044977e-07  1.45644186e-07  4.10000000e-01 
 4.20000000e-01  4.58268838e-01  3.38703493e-09  3.45427013e-09  3.45898233e-09  3.23751251e-09  4.58268838e-01  4.58268838e-01  1.59044955e-07  1.45644151e-07  4.20000000e-01 
 4.30000000e-01  4.58268841e-01  3.38703499e-09  3.45427013e-09  3.45898233e-09  3.23751251e-09  4.58268841e-01  4.58268841e-01  1.59044972e-07  1.45644105e-07  4.30000000e-01 
 4.40000000e-01  4.58268843e-01  3.38703499e-09  3.45427013e-09  3.45898233e-09  3.23751251e-09  4.58268843e-01  4.58268843e-01  1.59044955e-07  1.45643984e-07  4.40000000e-01 
 4.50000000e-01  4.58268829e-01  3.38703499e-09  3.45427013e-09  3.45898233e-09  3.23751251e-09  4.58268829e-01  4.58268829e-01  1.59044955e-07  1.45643710e-07  4.50000000e-01 
 4.60000000e-01  4.58268848e-01  3.38703499e-09  3.45427013e-09  3.45898233e-09  3.23751251e-09  4.58268848e-01  4.58268848e-01  1.59044972e-07  1.45643735e-07  4.60000000e-01 
 4.70000000e-01  4.58268863e-01  3.38703493e-09  3.45427013e-09  3.45898233e-09  3.23751246e-09  4.58268863e-01  4.58268863e-01  1.59045001e-07  1.45643590e-07  4.70000000e-01 
 4.80000000e-01  4.58268849e-01  3.38703499e-09  3.45427013e-09  3.45898233e-09  3.23751251e-09  4.58268849e-01  4.58268849e-01  1.59044984e-07  1.45643522e-07  4.80000000e-01 
 4.90000000e-01  4.58268839e-01  3.38703499e-09  3.45427013e-09  3.45898233e-09  3.23751251e-09  4.58268840e-01  4.58268840e-01  1.59044971e-07  1.45643444e-07  4.90000000e-01 
 5.00000000e-01  4.58268842e-01  3.38703493e-09  3.45427013e-09  3.45898233e-09  3.23751251e-09  4.58268842e-01  4.58268842e-01  1.59044965e-07  1.45643334e-07  5.00000000e-01 
 5.10000000e-01  4.58268848e-01  3.38703499e-09  3.45427013e-09  3.45898233e-09  3.23751251e-09  4.58268848e-01  4.58268848e-01  1.59044973e-07  1.45643174e-07  5.10000000e-01 
 5.20000000e-01  4.58268857e-01  3.38703499e-09  3.45427013e-09  3.45898233e-09  3.23751252e-09  4.58268857e-01  4.58268857e-01  1.59044997e-07  1.45643039e-07  5.20000000e-01 
 5.30000000e-01  4.58268841e-01  3.38703499e-09  3.45427013e-09  3.45898233e-09  3.23751251e-09  4.58268841e-01  4.58268841e-01  1.59044969e-07  1.45642876e-07  5.30000000e-01 
 5.40000000e-01  4.58268837e-01  3.38703493e-09  3.45427013e-09  3.45898233e-09  3.23751251e-09  4.58268837e-01  4.58268837e-01  1.59044954e-07  1.45642879e-07  5.40000000e-01 
 5.50000000e-01  4.58268842e-01  3.38703499e-09  3.45427013e-09  3.45898233e-09  3.23751251e-09  4.58268842e-01  4.58268842e-01  1.59044966e-07  1.45642712e-07  5.50000000e-01 
 5.60000000e-01  4.58268852e-01  3.38703499e-09  3.45427013e-09  3.45898233e-09  3.23751251e-09  4.58268852e-01  4.58268852e-01  1.59044970e-07  1.45642638e-07  5.60000000e-01 
 5.70000000e-01  4.58268836e-01  3.38703499e-09  3.45427013e-09  3.45898233e-09  3.23751251e-09  4.58268836e-01  4.58268836e-01  1.59044954e-07  1.45642463e-07  5.70000000e-01 
 5.80000000e-01  4.58268851e-01  3.38703493e-09  3.45427013e-09  3.45898233e-09  3.23751251e-09  4.58268851e-01  4.58268851e-01  1.59044972e-07  1.45642538e-07  5.80000000e-01 
 5.90000000e-01  4.58268848e-01  3.38703499e-09  3.45427013e-09  3.45898233e-09  3.23751251e-09  4.58268848e-01  4.58268848e-01  1.59044968e-07  1.45642318e-07  5.90000000e-01 
 6.00000000e-01  4.58268835e-01  3.38703499e-09  3.45427013e-09  3.45898233e-09  3.23751251e-09  4.58268835e-01  4.58268835e-01  1.59044957e-07  1.45642261e-07  6.00000000e-01 
 6.10000000e-01  4.58268866e-01  3.38703499e-09  3.45427013e-09  3.45898233e-09  3.23751252e-09  4.58268866e-01  4.58268866e-01  1.59045002e-07  1.45642211e-07  6.10000000e-01 
 6.20000000e-01  4.58268827e-01  3.38703493e-09  3.45427013e-09  3.45898233e-09  3.23751246e-09  4.58268827e-01  4.58268827e-01  1.59044946e-07  1.45641927e-07  6.20000000e-01 
 6.30000000e-01  4.58268845e-01  3.38703499e-09  3.45427013e-09  3.45898233e-09  3.23751251e-09  4.58268845e-01  4.58268845e-01  1.59044964e-07  1.45641977e-07  6.30000000e-01 
 6.40000000e-01  4.58268822e-01  3.38703498e-09  3.45427013e-09  3.45898233e-09  3.23751251e-09  4.58268822e-01  4.58268822e-01  1.59044925e-07  1.45641700e-07  6.40000000e-01 
 6.50000000e-01  4.58268867e-01  3.38703499e-09  3.45427013e-09  3.45898233e-09  3.23751252e-09  4.58268867e-01  4.58268867e-01  1.59045016e-07  1.45641927e-07  6.50000000e-01 
 6.60000000e-01  4.58268820e-01  3.38703498e-09  3.45427013e-09  3.45898233e-09  3.23751245e-09  4.58268820e-01  4.58268820e-01  1.59044935e-07  1.45641621e-07  6.60000000e-01 
 6.70000000e-01  4.58268850e-01  3.38703499e-09  3.45427013e-09  3.45898233e-09  3.23751251e-09  4.58268850e-01  4.58268850e-01  1.59044964e-07  1.45641550e-07  6.70000000e-01 
 6.80000000e-01  4.58268836e-01  3.38703499e-09  3.45427013e-09  3.45898227e-09  3.23751251e-09  4.58268836e-01  4.58268836e-01  1.59044963e-07  1.45641451e-07  6.80000000e-01 
 6.90000000e-01  4.58268831e-01  3.38703499e-09  3.45427013e-09  3.45898234e-09  3.23751251e-09  4.58268831e-01  4.58268831e-01  1.59044948e-07  1.45641209e-07  6.90000000e-01 
 7.00000000e-01  4.58268839e-01  3.38703499e-09  3.45427013e-09  3.45898232e-09  3.23751251e-09  4.58268839e-01  4.58268839e-01  1.59044960e-07  1.45641209e-07  7.00000000e-01 
 7.10000000e-01  4.58268852e-01  3.38703493e-09  3.45427013e-09  3.45898233e-09  3.23751251e-09  4.58268852e-01  4.58268852e-01  1.59044971e-07  1.45641089e-07  7.10000000e-01 
 7.20000000e-01  4.58268837e-01  3.38703499e-09  3.45427013e-09  3.45898233e-09  3.23751251e-09  4.58268837e-01  4.58268837e-01  1.59044958e-07  1.45640897e-07  7.20000000e-01 
 7.30000000e-01  4.58268859e-01  3.38703499e-09  3.45427013e-09  3.45898233e-09  3.23751252e-09  4.58268859e-01  4.58268859e-01  1.59044986e-07  1.45640989e-07  7.30000000e-01 
 7.40000000e-01  4.58268846e-01  3.38703499e-09  3.45427013e-09  3.45898233e-09  3.23751251e-09  4.58268846e-01  4.58268846e-01  1.59044974e-07  1.45640861e-07  7.40000000e-01 
 7.50000000e-01  4.58268852e-01  3.38703499e-09  3.45427013e-09  3.45898233e-09  3.23751251e-09  4.58268853e-01  4.58268853e-01  1.59044985e-07  1.45640726e-07  7.50000000e-01 
 7.60000000e-01  4.58268849e-01  3.38703499e-09  3.45427013e-09  3.45898233e-09  3.23751251e-09  4.58268849e-01  4.58268849e-01  1.59044968e-07  1.45640762e-07  7.60000000e-01 
 7.70000000e-01  4.58268845e-01  3.38703493e-09  3.45427013e-09  3.45898233e-09  3.23751251e-09  4.58268845e-01  4.58268845e-01  1.59044979e-07  1.45640456e-07  7.70000000e-01 
 7.80000000e-01  4.58268826e-01  3.38703498e-09  3.45427013e-09  3.45898233e-09  3.23751251e-09  4.58268826e-01  4.58268826e-01  1.59044941e-07  1.45640399e-07  7.80000000e-01 
 7.90000000e-01  4.58268828e-01  3.38703499e-09  3.45427013e-09  3.45898233e-09  3.23751251e-09  4.58268828e-01  4.58268828e-01  1.59044955e-07  1.45640215e-07  7.90000000e-01 
 8.00000000e-01  4.58268834e-01  3.38703499e-09  3.45427013e-09  3.45898233e-09  3.23751251e-09  4.58268834e-01  4.58268834e-01  1.59044946e-07  1.45640087e-07  8.00000000e-01 
 8.10000000e-01  4.58268833e-01  3.38703499e-09  3.45427013e-09  3.45898227e-09  3.23751246e-09  4.58268833e-01  4.58268833e-01  1.59044961e-07  1.45639973e-07  8.10000000e-01 
 8.20000000e-01  4.58268836e-01  3.38703499e-09  3.45427013e-09  3.45898234e-09  3.23751251e-09  4.58268836e-01  4.58268836e-01  1.59044946e-07  1.45640058e-07  8.20000000e-01 
 8.30000000e-01  4.58268819e-01  3.38703498e-09  3.45427013e-09  3.45898232e-09  3.23751245e-09  4.58268819e-01  4.58268819e-01  1.59044930e-07  1.45639724e-07  8.30000000e-01 
 8.40000000e-01  4.58268891e-01  3.38703494e-09  3.45427013e-09  3.45898233e-09  3.23751252e-09  4.58268891e-01  4.58268891e-01  1.59045050e-07  1.45639994e-07  8.40000000e-01 
 8.50000000e-01  4.58268839e-01  3.38703493e-09  3.45427013e-09  3.45898233e-09  3.23751251e-09  4.58268839e-01  4.58268839e-01  1.59044959e-07  1.45639582e-07  8.50000000e-01 
 8.60000000e-01  4.58268854e-01  3.38703499e-09  3.45427013e-09  3.45898233e-09  3.23751251e-09  4.58268854e-01  4.58268854e-01  1.59044972e-07  1.45639568e-07  8.60000000e-01 
 8.70000000e-01  4.58268852e-01  3.38703499e-09  3.45427013e-09  3.45898233e-09  3.23751246e-09  4.58268852e-01  4.58268852e-01  1.59044964e-07  1.45639461e-07  8.70000000e-01 
 8.80000000e-01  4.58268845e-01  3.38703493e-09  3.45427013e-09  3.45898233e-09  3.23751251e-09  4.58268845e-01  4.58268845e-01  1.59044978e-07  1.45639177e-07  8.80000000e-01 
 8.90000000e-01  4.58268827e-01  3.38703499e-09  3.45427013e-09  3.45898233e-09  3.23751246e-09  4.58268828e-01  4.58268828e-01  1.59044955e-07  1.45639099e-07  8.90000000e-01 
 9.00000000e-01  4.58268831e-01  3.38703493e-09  3.45427013e-09  3.45898233e-09  3.23751251e-09  4.58268831e-01  4.58268831e-01  1.59044944e-07  1.45638978e-07  9.00000000e-01 
 9.10000000e-01  4.58268833e-01  3.38703499e-09  3.45427013e-09  3.45898233e-09  3.23751251e-09  4.58268834e-01  4.58268834e-01  1.59044955e-07  1.45638971e-07  9.10000000e-01 
 9.20000000e-01  4.58268831e-01  3.38703499e-09  3.45427013e-09  3.45898233e-09  3.23751246e-09  4.58268831e-01  4.58268831e-01  1.59044957e-07  1.45638843e-07  9.20000000e-01 
 9.30000000e-01  4.58268839e-01  3.38703499e-09  3.45427013e-09  3.45898233e-09  3.23751251e-09  4.58268839e-01  4.58268839e-01  1.59044950e-07  1.45638758e-07  9.30000000e-01 
 9.40000000e-01  4.58268820e-01  3.38703493e-09  3.45427013e-09  3.45898233e-09  3.23751251e-09  4.58268820e-01  4.58268820e-01  1.59044938e-07  1.45638595e-07  9.40000000e-01 
 9.50000000e-01  4.58268861e-01  3.38703499e-09  3.45427013e-09  3.45898233e-09  3.23751252e-09  4.58268861e-01  4.58268861e-01  1.59045001e-07  1.45638673e-07  9.50000000e-01 
 9.60000000e-01  4.58268847e-01  3.38703499e-09  3.45427013e-09  3.45898233e-09  3.23751246e-09  4.58268847e-01  4.58268847e-01  1.59044976e-07  1.45638282e-07  9.60000000e-01 
 9.70000000e-01  4.58268867e-01  3.38703499e-09  3.45427013e-09  3.45898233e-09  3.23751252e-09  4.58268867e-01  4.58268867e-01  1.59045007e-07  1.45638346e-07  9.70000000e-01 
 9.80000000e-01  4.58268841e-01  3.38703499e-09  3.45427013e-09  3.45898233e-09  3.23751251e-09  4.58268841e-01  4.58268841e-01  1.59044960e-07  1.45638268e-07  9.80000000e-01 
 9.90000000e-01  4.58268846e-01  3.38703493e-09  3.45427013e-09  3.45898233e-09  3.23751251e-09  4.58268846e-01  4.58268846e-01  1.59044967e-07  1.45638090e-07  9.90000000e-01 
 1.00000000e+00  4.58268845e-01  3.38703493e-09  3.45427013e-09  3.45898233e-09  3.23751251e-09  4.58268845e-01  4.58268845e-01  1.59044975e-07  1.45637841e-07  1.00000000e+00 
 1.01000000e+00  4.58268840e-01  3.38703499e-09  3.45427013e-09  3.45898233e-09  3.23751251e-09  4.58268840e-01  4.58268840e-01  1.59044954e-07  1.45637856e-07  1.01000000e+00 
 1.02000000e+00  4.58268841e-01  3.38703499e-09  3.45427013e-09  3.45898233e-09  3.23751251e-09  4.58268841e-01  4.58268841e-01  1.59044968e-07  1.45637699e-07  1.02000000e+00 
 1.03000000e+00  4.58268826e-01  3.38703499e-09  3.45427013e-09  3.45898233e-09  3.23751251e-09  4.58268826e-01  4.58268826e-01  1.59044949e-07  1.45637529e-07  1.03000000e+00 
 1.04000000e+00  4.58268845e-01  3.38703499e-09  3.45427013e-09  3.45898233e-09  3.23751246e-09  4.58268845e-01  4.58268845e-01  1.59044968e-07  1.45637394e-07  1.04000000e+00 
 1.05000000e+00  4.58268835e-01  3.38703499e-09  3.45427013e-09  3.45898233e-09  3.23751251e-09  4.58268835e-01  4.58268835e-01  1.59044964e-07  1.45637323e-07  1.05000000e+00 
 1.06000000e+00  4.58268856e-01  3.38703493e-09  3.45427013e-09  3.45898233e-09  3.23751252e-09  4.58268856e-01  4.58268856e-01  1.59044979e-07  1.45637159e-07  1.06000000e+00 
 1.07000000e+00  4.58268827e-01  3.38703499e-09  3.45427013e-09  3.45898233e-09  3.23751251e-09  4.58268827e-01  4.58268827e-01  1.59044950e-07  1.45636974e-07  1.07000000e+00 
 1.08000000e+00  4.58268831e-01  3.38703499e-09  3.45427013e-09  3.45898233e-09  3.23751251e-09  4.58268831e-01  4.58268831e-01  1.59044952e-07  1.45637010e-07  1.08000000e+00 
 1.09000000e+00  4.58268851e-01  3.38703499e-09  3.45427013e-09  3.45898233e-09  3.23751251e-09  4.58268851e-01  4.58268851e-01  1.59044979e-07  1.45636911e-07  1.09000000e+00 
 1.10000000e+00  4.58268848e-01  3.38703493e-09  3.45427013e-09  3.45898233e-09  3.23751251e-09  4.58268848e-01  4.58268848e-01  1.59044973e-07  1.45636690e-07  1.10000000e+00 
