 v-sweep         v(b0)           v(b1)           v(b2)           v(b3)           v(b4)           v(b5)           v(b6)           i(vbias)        i(viout)        v(vout)        
 0.00000000e+00  4.59088683e-01  4.59088683e-01  3.41303486e-09  4.59088683e-01  4.59088683e-01  3.30298008e-09  4.59088683e-01  1.61534947e-07  1.36195008e-07  0.00000000e+00 
 1.00000000e-02  4.59088684e-01  4.59088684e-01  3.41303490e-09  4.59088685e-01  4.59088684e-01  3.30298006e-09  4.59088684e-01  1.61534954e-07  1.36194509e-07  1.00000000e-02 
 2.00000000e-02  4.59088676e-01  4.59088676e-01  3.41303484e-09  4.59088676e-01  4.59088676e-01  3.30298006e-09  4.59088676e-01  1.61534938e-07  1.36194082e-07  2.00000000e-02 
 3.00000000e-02  4.59088679e-01  4.59088679e-01  3.41303484e-09  4.59088679e-01  4.59088679e-01  3.30298006e-09  4.59088679e-01  1.61534942e-07  1.36193610e-07  3.00000000e-02 
 4.00000000e-02  4.59088654e-01  4.59088654e-01  3.41303490e-09  4.59088654e-01  4.59088654e-01  3.30298006e-09  4.59088654e-01  1.61534908e-07  1.36193174e-07  4.00000000e-02 
 5.00000000e-02  4.59088672e-01  4.59088672e-01  3.41303490e-09  4.59088672e-01  4.59088672e-01  3.30298006e-09  4.59088672e-01  1.61534919e-07  1.36192824e-07  5.00000000e-02 
 6.00000000e-02  4.59088676e-01  4.59088676e-01  3.41303484e-09  4.59088676e-01  4.59088676e-01  3.30298006e-09  4.59088676e-01  1.61534936e-07  1.36192503e-07  6.00000000e-02 
 7.00000000e-02  4.59088638e-01  4.59088638e-01  3.41303489e-09  4.59088638e-01  4.59088638e-01  3.30298006e-09  4.59088638e-01  1.61534876e-07  1.36192185e-07  7.00000000e-02 
 8.00000000e-02  4.59088682e-01  4.59088682e-01  3.41303490e-09  4.59088682e-01  4.59088682e-01  3.30298006e-09  4.59088682e-01  1.61534951e-07  1.36191939e-07  8.00000000e-02 
 9.00000000e-02  4.59088691e-01  4.59088691e-01  3.41303490e-09  4.59088691e-01  4.59088691e-01  3.30298006e-09  4.59088691e-01  1.61534961e-07  1.36191733e-07  9.00000000e-02 
 1.00000000e-01  4.59088668e-01  4.59088668e-01  3.41303490e-09  4.59088668e-01  4.59088668e-01  3.30298006e-09  4.59088668e-01  1.61534921e-07  1.36191372e-07  1.00000000e-01 
 1.10000000e-01  4.59088654e-01  4.59088654e-01  3.41303484e-09  4.59088654e-01  4.59088654e-01  3.30298006e-09  4.59088654e-01  1.61534908e-07  1.36190964e-07  1.10000000e-01 
 1.20000000e-01  4.59088696e-01  4.59088696e-01  3.41303490e-09  4.59088696e-01  4.59088696e-01  3.30298006e-09  4.59088696e-01  1.61534950e-07  1.36190907e-07  1.20000000e-01 
 1.30000000e-01  4.59088696e-01  4.59088696e-01  3.41303490e-09  4.59088696e-01  4.59088696e-01  3.30298006e-09  4.59088696e-01  1.61534965e-07  1.36190656e-07  1.30000000e-01 
 1.40000000e-01  4.59088676e-01  4.59088676e-01  3.41303484e-09  4.59088677e-01  4.59088676e-01  3.30298006e-09  4.59088676e-01  1.61534930e-07  1.36190287e-07  1.40000000e-01 
 1.50000000e-01  4.59088671e-01  4.59088671e-01  3.41303490e-09  4.59088671e-01  4.59088671e-01  3.30298000e-09  4.59088671e-01  1.61534935e-07  1.36190003e-07  1.50000000e-01 
 1.60000000e-01  4.59088666e-01  4.59088665e-01  3.41303490e-09  4.59088666e-01  4.59088665e-01  3.30298007e-09  4.59088666e-01  1.61534925e-07  1.36189756e-07  1.60000000e-01 
 1.70000000e-01  4.59088673e-01  4.59088673e-01  3.41303484e-09  4.59088673e-01  4.59088673e-01  3.30298005e-09  4.59088673e-01  1.61534932e-07  1.36189652e-07  1.70000000e-01 
 1.80000000e-01  4.59088670e-01  4.59088670e-01  3.41303490e-09  4.59088671e-01  4.59088670e-01  3.30298006e-09  4.59088670e-01  1.61534931e-07  1.36189351e-07  1.80000000e-01 
 1.90000000e-01  4.59088672e-01  4.59088672e-01  3.41303490e-09  4.59088672e-01  4.59088672e-01  3.30298006e-09  4.59088672e-01  1.61534944e-07  1.36189223e-07  1.90000000e-01 
 2.00000000e-01  4.59088669e-01  4.59088669e-01  3.41303490e-09  4.59088669e-01  4.59088669e-01  3.30298006e-09  4.59088669e-01  1.61534932e-07  1.36189046e-07  2.00000000e-01 
 2.10000000e-01  4.59088677e-01  4.59088677e-01  3.41303484e-09  4.59088677e-01  4.59088677e-01  3.30298006e-09  4.59088677e-01  1.61534931e-07  1.36188900e-07  2.10000000e-01 
 2.20000000e-01  4.59088666e-01  4.59088666e-01  3.41303490e-09  4.59088666e-01  4.59088666e-01  3.30298006e-09  4.59088666e-01  1.61534919e-07  1.36188637e-07  2.20000000e-01 
 2.30000000e-01  4.59088670e-01  4.59088670e-01  3.41303490e-09  4.59088670e-01  4.59088670e-01  3.30298006e-09  4.59088670e-01  1.61534925e-07  1.36188584e-07  2.30000000e-01 
 2.40000000e-01  4.59088694e-01  4.59088694e-01  3.41303490e-09  4.59088694e-01  4.59088694e-01  3.30298006e-09  4.59088694e-01  1.61534963e-07  1.36188351e-07  2.40000000e-01 
 2.50000000e-01  4.59088693e-01  4.59088693e-01  3.41303490e-09  4.59088693e-01  4.59088693e-01  3.30298006e-09  4.59088693e-01  1.61534962e-07  1.36188220e-07  2.50000000e-01 
 2.60000000e-01  4.59088674e-01  4.59088674e-01  3.41303490e-09  4.59088674e-01  4.59088674e-01  3.30298006e-09  4.59088674e-01  1.61534947e-07  1.36188017e-07  2.60000000e-01 
 2.70000000e-01  4.59088677e-01  4.59088677e-01  3.41303484e-09  4.59088677e-01  4.59088677e-01  3.30298006e-09  4.59088677e-01  1.61534936e-07  1.36187895e-07  2.70000000e-01 
 2.80000000e-01  4.59088678e-01  4.59088678e-01  3.41303490e-09  4.59088678e-01  4.59088678e-01  3.30298006e-09  4.59088678e-01  1.61534939e-07  1.36187740e-07  2.80000000e-01 
 2.90000000e-01  4.59088650e-01  4.59088650e-01  3.41303490e-09  4.59088651e-01  4.59088650e-01  3.30298006e-09  4.59088650e-01  1.61534896e-07  1.36187499e-07  2.90000000e-01 
 3.00000000e-01  4.59088657e-01  4.59088657e-01  3.41303490e-09  4.59088657e-01  4.59088657e-01  3.30298006e-09  4.59088657e-01  1.61534911e-07  1.36187346e-07  3.00000000e-01 
 3.10000000e-01  4.59088658e-01  4.59088658e-01  3.41303484e-09  4.59088658e-01  4.59088658e-01  3.30298006e-09  4.59088658e-01  1.61534912e-07  1.36187325e-07  3.10000000e-01 
 3.20000000e-01  4.59088680e-01  4.59088680e-01  3.41303490e-09  4.59088680e-01  4.59088680e-01  3.30298006e-09  4.59088680e-01  1.61534944e-07  1.36187250e-07  3.20000000e-01 
 3.30000000e-01  4.59088651e-01  4.59088651e-01  3.41303490e-09  4.59088651e-01  4.59088651e-01  3.30298006e-09  4.59088651e-01  1.61534901e-07  1.36186980e-07  3.30000000e-01 
 3.40000000e-01  4.59088676e-01  4.59088675e-01  3.41303484e-09  4.59088676e-01  4.59088675e-01  3.30298006e-09  4.59088676e-01  1.61534943e-07  1.36186994e-07  3.40000000e-01 
 3.50000000e-01  4.59088669e-01  4.59088669e-01  3.41303484e-09  4.59088670e-01  4.59088669e-01  3.30298000e-09  4.59088669e-01  1.61534930e-07  1.36186738e-07  3.50000000e-01 
 3.60000000e-01  4.59088696e-01  4.59088695e-01  3.41303490e-09  4.59088696e-01  4.59088695e-01  3.30298001e-09  4.59088696e-01  1.61534966e-07  1.36186650e-07  3.60000000e-01 
 3.70000000e-01  4.59088689e-01  4.59088689e-01  3.41303490e-09  4.59088689e-01  4.59088689e-01  3.30298007e-09  4.59088689e-01  1.61534951e-07  1.36186603e-07  3.70000000e-01 
 3.80000000e-01  4.59088683e-01  4.59088683e-01  3.41303490e-09  4.59088683e-01  4.59088683e-01  3.30298005e-09  4.59088683e-01  1.61534944e-07  1.36186486e-07  3.80000000e-01 
 3.90000000e-01  4.59088665e-01  4.59088665e-01  3.41303490e-09  4.59088665e-01  4.59088665e-01  3.30298006e-09  4.59088665e-01  1.61534917e-07  1.36186301e-07  3.90000000e-01 
 4.00000000e-01  4.59088689e-01  4.59088689e-01  3.41303490e-09  4.59088689e-01  4.59088689e-01  3.30298006e-09  4.59088689e-01  1.61534957e-07  1.36186411e-07  4.00000000e-01 
 4.10000000e-01  4.59088674e-01  4.59088674e-01  3.41303490e-09  4.59088674e-01  4.59088674e-01  3.30298006e-09  4.59088674e-01  1.61534939e-07  1.36186248e-07  4.10000000e-01 
 4.20000000e-01  4.59088663e-01  4.59088663e-01  3.41303490e-09  4.59088663e-01  4.59088663e-01  3.30298006e-09  4.59088663e-01  1.61534916e-07  1.36185971e-07  4.20000000e-01 
 4.30000000e-01  4.59088676e-01  4.59088676e-01  3.41303490e-09  4.59088676e-01  4.59088676e-01  3.30298006e-09  4.59088676e-01  1.61534952e-07  1.36185971e-07  4.30000000e-01 
 4.40000000e-01  4.59088671e-01  4.59088671e-01  3.41303490e-09  4.59088671e-01  4.59088671e-01  3.30298006e-09  4.59088671e-01  1.61534938e-07  1.36185722e-07  4.40000000e-01 
 4.50000000e-01  4.59088685e-01  4.59088685e-01  3.41303490e-09  4.59088685e-01  4.59088685e-01  3.30298006e-09  4.59088685e-01  1.61534953e-07  1.36185744e-07  4.50000000e-01 
 4.60000000e-01  4.59088658e-01  4.59088658e-01  3.41303490e-09  4.59088658e-01  4.59088658e-01  3.30298006e-09  4.59088658e-01  1.61534907e-07  1.36185616e-07  4.60000000e-01 
 4.70000000e-01  4.59088663e-01  4.59088663e-01  3.41303490e-09  4.59088663e-01  4.59088663e-01  3.30298006e-09  4.59088663e-01  1.61534928e-07  1.36185509e-07  4.70000000e-01 
 4.80000000e-01  4.59088679e-01  4.59088679e-01  3.41303484e-09  4.59088679e-01  4.59088679e-01  3.30298006e-09  4.59088679e-01  1.61534934e-07  1.36185452e-07  4.80000000e-01 
 4.90000000e-01  4.59088669e-01  4.59088669e-01  3.41303490e-09  4.59088670e-01  4.59088669e-01  3.30298006e-09  4.59088669e-01  1.61534926e-07  1.36185431e-07  4.90000000e-01 
 5.00000000e-01  4.59088668e-01  4.59088668e-01  3.41303490e-09  4.59088668e-01  4.59088668e-01  3.30298006e-09  4.59088668e-01  1.61534924e-07  1.36185076e-07  5.00000000e-01 
 5.10000000e-01  4.59088676e-01  4.59088676e-01  3.41303490e-09  4.59088676e-01  4.59088676e-01  3.30298006e-09  4.59088676e-01  1.61534939e-07  1.36185204e-07  5.10000000e-01 
 5.20000000e-01  4.59088681e-01  4.59088681e-01  3.41303490e-09  4.59088681e-01  4.59088681e-01  3.30298006e-09  4.59088681e-01  1.61534941e-07  1.36184958e-07  5.20000000e-01 
 5.30000000e-01  4.59088684e-01  4.59088683e-01  3.41303490e-09  4.59088684e-01  4.59088683e-01  3.30298006e-09  4.59088684e-01  1.61534945e-07  1.36184966e-07  5.30000000e-01 
 5.40000000e-01  4.59088670e-01  4.59088670e-01  3.41303490e-09  4.59088670e-01  4.59088670e-01  3.30298006e-09  4.59088670e-01  1.61534923e-07  1.36184806e-07  5.40000000e-01 
 5.50000000e-01  4.59088663e-01  4.59088663e-01  3.41303490e-09  4.59088664e-01  4.59088663e-01  3.30298006e-09  4.59088663e-01  1.61534914e-07  1.36184667e-07  5.50000000e-01 
 5.60000000e-01  4.59088674e-01  4.59088674e-01  3.41303490e-09  4.59088674e-01  4.59088674e-01  3.30298006e-09  4.59088674e-01  1.61534930e-07  1.36184646e-07  5.60000000e-01 
 5.70000000e-01  4.59088674e-01  4.59088674e-01  3.41303490e-09  4.59088674e-01  4.59088674e-01  3.30298006e-09  4.59088674e-01  1.61534924e-07  1.36184514e-07  5.70000000e-01 
 5.80000000e-01  4.59088669e-01  4.59088669e-01  3.41303484e-09  4.59088669e-01  4.59088669e-01  3.30298006e-09  4.59088669e-01  1.61534915e-07  1.36184468e-07  5.80000000e-01 
 5.90000000e-01  4.59088670e-01  4.59088670e-01  3.41303484e-09  4.59088670e-01  4.59088670e-01  3.30298006e-09  4.59088670e-01  1.61534930e-07  1.36184362e-07  5.90000000e-01 
 6.00000000e-01  4.59088714e-01  4.59088714e-01  3.41303490e-09  4.59088714e-01  4.59088714e-01  3.30298006e-09  4.59088714e-01  1.61534998e-07  1.36184511e-07  6.00000000e-01 
 6.10000000e-01  4.59088691e-01  4.59088691e-01  3.41303490e-09  4.59088691e-01  4.59088691e-01  3.30298006e-09  4.59088691e-01  1.61534954e-07  1.36184205e-07  6.10000000e-01 
 6.20000000e-01  4.59088673e-01  4.59088673e-01  3.41303490e-09  4.59088674e-01  4.59088673e-01  3.30298006e-09  4.59088673e-01  1.61534930e-07  1.36184028e-07  6.20000000e-01 
 6.30000000e-01  4.59088685e-01  4.59088685e-01  3.41303490e-09  4.59088686e-01  4.59088685e-01  3.30298006e-09  4.59088685e-01  1.61534956e-07  1.36184092e-07  6.30000000e-01 
 6.40000000e-01  4.59088652e-01  4.59088652e-01  3.41303490e-09  4.59088652e-01  4.59088652e-01  3.30298006e-09  4.59088652e-01  1.61534895e-07  1.36183836e-07  6.40000000e-01 
 6.50000000e-01  4.59088685e-01  4.59088685e-01  3.41303490e-09  4.59088685e-01  4.59088685e-01  3.30298000e-09  4.59088685e-01  1.61534962e-07  1.36183900e-07  6.50000000e-01 
 6.60000000e-01  4.59088673e-01  4.59088673e-01  3.41303490e-09  4.59088673e-01  4.59088673e-01  3.30298007e-09  4.59088673e-01  1.61534916e-07  1.36183765e-07  6.60000000e-01 
 6.70000000e-01  4.59088678e-01  4.59088678e-01  3.41303490e-09  4.59088678e-01  4.59088678e-01  3.30298005e-09  4.59088678e-01  1.61534931e-07  1.36183715e-07  6.70000000e-01 
 6.80000000e-01  4.59088659e-01  4.59088659e-01  3.41303490e-09  4.59088659e-01  4.59088659e-01  3.30298000e-09  4.59088659e-01  1.61534898e-07  1.36183431e-07  6.80000000e-01 
 6.90000000e-01  4.59088660e-01  4.59088660e-01  3.41303484e-09  4.59088660e-01  4.59088660e-01  3.30298007e-09  4.59088660e-01  1.61534908e-07  1.36183409e-07  6.90000000e-01 
 7.00000000e-01  4.59088662e-01  4.59088662e-01  3.41303490e-09  4.59088662e-01  4.59088662e-01  3.30298005e-09  4.59088662e-01  1.61534916e-07  1.36183338e-07  7.00000000e-01 
 7.10000000e-01  4.59088684e-01  4.59088684e-01  3.41303490e-09  4.59088684e-01  4.59088684e-01  3.30298006e-09  4.59088684e-01  1.61534961e-07  1.36183289e-07  7.10000000e-01 
 7.20000000e-01  4.59088702e-01  4.59088702e-01  3.41303484e-09  4.59088702e-01  4.59088702e-01  3.30298006e-09  4.59088702e-01  1.61534976e-07  1.36183303e-07  7.20000000e-01 
 7.30000000e-01  4.59088676e-01  4.59088676e-01  3.41303490e-09  4.59088676e-01  4.59088676e-01  3.30298006e-09  4.59088676e-01  1.61534947e-07  1.36183054e-07  7.30000000e-01 
 7.40000000e-01  4.59088678e-01  4.59088678e-01  3.41303490e-09  4.59088678e-01  4.59088678e-01  3.30298006e-09  4.59088678e-01  1.61534943e-07  1.36183040e-07  7.40000000e-01 
 7.50000000e-01  4.59088683e-01  4.59088682e-01  3.41303490e-09  4.59088683e-01  4.59088682e-01  3.30298006e-09  4.59088683e-01  1.61534933e-07  1.36182877e-07  7.50000000e-01 
 7.60000000e-01  4.59088684e-01  4.59088684e-01  3.41303490e-09  4.59088684e-01  4.59088684e-01  3.30298006e-09  4.59088684e-01  1.61534938e-07  1.36182862e-07  7.60000000e-01 
 7.70000000e-01  4.59088693e-01  4.59088693e-01  3.41303490e-09  4.59088693e-01  4.59088693e-01  3.30298006e-09  4.59088693e-01  1.61534947e-07  1.36182805e-07  7.70000000e-01 
 7.80000000e-01  4.59088656e-01  4.59088656e-01  3.41303490e-09  4.59088656e-01  4.59088656e-01  3.30298006e-09  4.59088656e-01  1.61534894e-07  1.36182635e-07  7.80000000e-01 
 7.90000000e-01  4.59088675e-01  4.59088675e-01  3.41303490e-09  4.59088675e-01  4.59088675e-01  3.30298006e-09  4.59088675e-01  1.61534946e-07  1.36182528e-07  7.90000000e-01 
 8.00000000e-01  4.59088685e-01  4.59088685e-01  3.41303484e-09  4.59088685e-01  4.59088685e-01  3.30298006e-09  4.59088685e-01  1.61534946e-07  1.36182315e-07  8.00000000e-01 
 8.10000000e-01  4.59088684e-01  4.59088684e-01  3.41303490e-09  4.59088684e-01  4.59088684e-01  3.30298006e-09  4.59088684e-01  1.61534947e-07  1.36182223e-07  8.10000000e-01 
 8.20000000e-01  4.59088665e-01  4.59088665e-01  3.41303490e-09  4.59088665e-01  4.59088665e-01  3.30298006e-09  4.59088665e-01  1.61534927e-07  1.36182194e-07  8.20000000e-01 
 8.30000000e-01  4.59088669e-01  4.59088669e-01  3.41303490e-09  4.59088669e-01  4.59088669e-01  3.30298006e-09  4.59088669e-01  1.61534923e-07  1.36182038e-07  8.30000000e-01 
 8.40000000e-01  4.59088665e-01  4.59088665e-01  3.41303484e-09  4.59088665e-01  4.59088665e-01  3.30298006e-09  4.59088665e-01  1.61534918e-07  1.36182010e-07  8.40000000e-01 
 8.50000000e-01  4.59088676e-01  4.59088676e-01  3.41303484e-09  4.59088676e-01  4.59088676e-01  3.30298006e-09  4.59088676e-01  1.61534931e-07  1.36181995e-07  8.50000000e-01 
 8.60000000e-01  4.59088688e-01  4.59088688e-01  3.41303484e-09  4.59088688e-01  4.59088688e-01  3.30298006e-09  4.59088688e-01  1.61534959e-07  1.36181860e-07  8.60000000e-01 
 8.70000000e-01  4.59088662e-01  4.59088661e-01  3.41303490e-09  4.59088662e-01  4.59088661e-01  3.30298006e-09  4.59088662e-01  1.61534909e-07  1.36181640e-07  8.70000000e-01 
 8.80000000e-01  4.59088670e-01  4.59088670e-01  3.41303490e-09  4.59088670e-01  4.59088670e-01  3.30298006e-09  4.59088670e-01  1.61534934e-07  1.36181626e-07  8.80000000e-01 
 8.90000000e-01  4.59088676e-01  4.59088676e-01  3.41303484e-09  4.59088676e-01  4.59088676e-01  3.30298006e-09  4.59088676e-01  1.61534926e-07  1.36181598e-07  8.90000000e-01 
 9.00000000e-01  4.59088662e-01  4.59088662e-01  3.41303490e-09  4.59088662e-01  4.59088662e-01  3.30298006e-09  4.59088662e-01  1.61534921e-07  1.36181406e-07  9.00000000e-01 
 9.10000000e-01  4.59088674e-01  4.59088674e-01  3.41303490e-09  4.59088674e-01  4.59088674e-01  3.30298006e-09  4.59088674e-01  1.61534955e-07  1.36181285e-07  9.10000000e-01 
 9.20000000e-01  4.59088675e-01  4.59088675e-01  3.41303484e-09  4.59088675e-01  4.59088675e-01  3.30298006e-09  4.59088675e-01  1.61534931e-07  1.36181150e-07  9.20000000e-01 
 9.30000000e-01  4.59088656e-01  4.59088656e-01  3.41303490e-09  4.59088656e-01  4.59088656e-01  3.30298006e-09  4.59088656e-01  1.61534899e-07  1.36181029e-07  9.30000000e-01 
 9.40000000e-01  4.59088674e-01  4.59088674e-01  3.41303484e-09  4.59088674e-01  4.59088674e-01  3.30298006e-09  4.59088674e-01  1.61534926e-07  1.36180994e-07  9.40000000e-01 
 9.50000000e-01  4.59088681e-01  4.59088681e-01  3.41303490e-09  4.59088681e-01  4.59088681e-01  3.30298006e-09  4.59088681e-01  1.61534943e-07  1.36180887e-07  9.50000000e-01 
 9.60000000e-01  4.59088651e-01  4.59088651e-01  3.41303490e-09  4.59088651e-01  4.59088651e-01  3.30298006e-09  4.59088651e-01  1.61534901e-07  1.36180759e-07  9.60000000e-01 
 9.70000000e-01  4.59088689e-01  4.59088689e-01  3.41303484e-09  4.59088689e-01  4.59088689e-01  3.30298006e-09  4.59088689e-01  1.61534958e-07  1.36180773e-07  9.70000000e-01 
 9.80000000e-01  4.59088690e-01  4.59088690e-01  3.41303490e-09  4.59088691e-01  4.59088690e-01  3.30298006e-09  4.59088690e-01  1.61534965e-07  1.36180624e-07  9.80000000e-01 
 9.90000000e-01  4.59088686e-01  4.59088686e-01  3.41303490e-09  4.59088686e-01  4.59088686e-01  3.30298000e-09  4.59088686e-01  1.61534942e-07  1.36180411e-07  9.90000000e-01 
 1.00000000e+00  4.59088660e-01  4.59088660e-01  3.41303490e-09  4.59088660e-01  4.59088660e-01  3.30298007e-09  4.59088660e-01  1.61534913e-07  1.36180269e-07  1.00000000e+00 
 1.01000000e+00  4.59088675e-01  4.59088675e-01  3.41303490e-09  4.59088675e-01  4.59088675e-01  3.30298005e-09  4.59088675e-01  1.61534935e-07  1.36180290e-07  1.01000000e+00 
 1.02000000e+00  4.59088677e-01  4.59088677e-01  3.41303490e-09  4.59088677e-01  4.59088677e-01  3.30298006e-09  4.59088677e-01  1.61534948e-07  1.36179985e-07  1.02000000e+00 
 1.03000000e+00  4.59088683e-01  4.59088683e-01  3.41303484e-09  4.59088684e-01  4.59088683e-01  3.30298006e-09  4.59088684e-01  1.61534956e-07  1.36180049e-07  1.03000000e+00 
 1.04000000e+00  4.59088689e-01  4.59088689e-01  3.41303490e-09  4.59088689e-01  4.59088689e-01  3.30298006e-09  4.59088689e-01  1.61534942e-07  1.36179978e-07  1.04000000e+00 
 1.05000000e+00  4.59088668e-01  4.59088668e-01  3.41303484e-09  4.59088669e-01  4.59088668e-01  3.30298000e-09  4.59088668e-01  1.61534924e-07  1.36179779e-07  1.05000000e+00 
 1.06000000e+00  4.59088674e-01  4.59088674e-01  3.41303490e-09  4.59088674e-01  4.59088674e-01  3.30298007e-09  4.59088674e-01  1.61534929e-07  1.36179700e-07  1.06000000e+00 
 1.07000000e+00  4.59088657e-01  4.59088657e-01  3.41303484e-09  4.59088657e-01  4.59088657e-01  3.30298005e-09  4.59088657e-01  1.61534905e-07  1.36179466e-07  1.07000000e+00 
 1.08000000e+00  4.59088673e-01  4.59088673e-01  3.41303490e-09  4.59088674e-01  4.59088673e-01  3.30298000e-09  4.59088673e-01  1.61534939e-07  1.36179359e-07  1.08000000e+00 
 1.09000000e+00  4.59088676e-01  4.59088676e-01  3.41303490e-09  4.59088676e-01  4.59088676e-01  3.30298007e-09  4.59088676e-01  1.61534932e-07  1.36179246e-07  1.09000000e+00 
 1.10000000e+00  4.59088691e-01  4.59088691e-01  3.41303490e-09  4.59088691e-01  4.59088691e-01  3.30298005e-09  4.59088691e-01  1.61534962e-07  1.36179246e-07  1.10000000e+00 
