 v-sweep         v(b0)           v(b1)           v(b2)           v(b3)           v(b4)           v(b5)           v(b6)           i(vbias)        i(viout)        v(vout)        
 0.00000000e+00  4.58256091e-01  3.30605477e-09  4.58256091e-01  3.45159046e-09  3.32018020e-09  3.52524737e-09  3.15050330e-09  1.59789000e-07  7.75414174e-09  0.00000000e+00 
 1.00000000e-02  4.58256087e-01  3.30605481e-09  4.58256087e-01  3.45159044e-09  3.32018019e-09  3.52524741e-09  3.15050328e-09  1.59788994e-07  7.75371167e-09  1.00000000e-02 
 2.00000000e-02  4.58256081e-01  3.30605481e-09  4.58256081e-01  3.45159044e-09  3.32018019e-09  3.52524735e-09  3.15050328e-09  1.59788984e-07  7.75331310e-09  2.00000000e-02 
 3.00000000e-02  4.58256076e-01  3.30605475e-09  4.58256076e-01  3.45159044e-09  3.32018019e-09  3.52524735e-09  3.15050323e-09  1.59788963e-07  7.75292142e-09  3.00000000e-02 
 4.00000000e-02  4.58256079e-01  3.30605481e-09  4.58256079e-01  3.45159044e-09  3.32018019e-09  3.52524741e-09  3.15050328e-09  1.59788984e-07  7.75259723e-09  4.00000000e-02 
 5.00000000e-02  4.58256079e-01  3.30605475e-09  4.58256079e-01  3.45159044e-09  3.32018019e-09  3.52524741e-09  3.15050323e-09  1.59788976e-07  7.75209053e-09  5.00000000e-02 
 6.00000000e-02  4.58256079e-01  3.30605475e-09  4.58256079e-01  3.45159044e-09  3.32018019e-09  3.52524741e-09  3.15050323e-09  1.59788959e-07  7.75205677e-09  6.00000000e-02 
 7.00000000e-02  4.58256082e-01  3.30605481e-09  4.58256082e-01  3.45159044e-09  3.32018019e-09  3.52524735e-09  3.15050328e-09  1.59788990e-07  7.75175701e-09  7.00000000e-02 
 8.00000000e-02  4.58256081e-01  3.30605475e-09  4.58256081e-01  3.45159044e-09  3.32018019e-09  3.52524735e-09  3.15050328e-09  1.59788976e-07  7.75136133e-09  8.00000000e-02 
 9.00000000e-02  4.58256071e-01  3.30605475e-09  4.58256071e-01  3.45159044e-09  3.32018019e-09  3.52524741e-09  3.15050328e-09  1.59788977e-07  7.75111175e-09  9.00000000e-02 
 1.00000000e-01  4.58256087e-01  3.30605475e-09  4.58256087e-01  3.45159044e-09  3.32018013e-09  3.52524735e-09  3.15050323e-09  1.59788986e-07  7.75085773e-09  1.00000000e-01 
 1.10000000e-01  4.58256065e-01  3.30605480e-09  4.58256065e-01  3.45159044e-09  3.32018020e-09  3.52524741e-09  3.15050328e-09  1.59788957e-07  7.75049092e-09  1.10000000e-01 
 1.20000000e-01  4.58256082e-01  3.30605475e-09  4.58256082e-01  3.45159044e-09  3.32018018e-09  3.52524735e-09  3.15050323e-09  1.59788979e-07  7.75049003e-09  1.20000000e-01 
 1.30000000e-01  4.58256069e-01  3.30605475e-09  4.58256069e-01  3.45159044e-09  3.32018019e-09  3.52524735e-09  3.15050323e-09  1.59788975e-07  7.75019959e-09  1.30000000e-01 
 1.40000000e-01  4.58256063e-01  3.30605480e-09  4.58256064e-01  3.45159049e-09  3.32018018e-09  3.52524735e-09  3.15050328e-09  1.59788948e-07  7.74992071e-09  1.40000000e-01 
 1.50000000e-01  4.58256067e-01  3.30605480e-09  4.58256067e-01  3.45159044e-09  3.32018018e-09  3.52524735e-09  3.15050328e-09  1.59788949e-07  7.74963027e-09  1.50000000e-01 
 1.60000000e-01  4.58256079e-01  3.30605475e-09  4.58256079e-01  3.45159044e-09  3.32018013e-09  3.52524735e-09  3.15050323e-09  1.59788975e-07  7.74963915e-09  1.60000000e-01 
 1.70000000e-01  4.58256077e-01  3.30605481e-09  4.58256077e-01  3.45159044e-09  3.32018014e-09  3.52524735e-09  3.15050323e-09  1.59788975e-07  7.74956810e-09  1.70000000e-01 
 1.80000000e-01  4.58256095e-01  3.30605475e-09  4.58256095e-01  3.45159044e-09  3.32018018e-09  3.52524735e-09  3.15050328e-09  1.59789001e-07  7.74930164e-09  1.80000000e-01 
 1.90000000e-01  4.58256063e-01  3.30605480e-09  4.58256063e-01  3.45159044e-09  3.32018018e-09  3.52524735e-09  3.15050323e-09  1.59788951e-07  7.74906184e-09  1.90000000e-01 
 2.00000000e-01  4.58256070e-01  3.30605475e-09  4.58256070e-01  3.45159044e-09  3.32018019e-09  3.52524735e-09  3.15050323e-09  1.59788957e-07  7.74891440e-09  2.00000000e-01 
 2.10000000e-01  4.58256073e-01  3.30605475e-09  4.58256073e-01  3.45159044e-09  3.32018019e-09  3.52524735e-09  3.15050328e-09  1.59788977e-07  7.74871189e-09  2.10000000e-01 
 2.20000000e-01  4.58256101e-01  3.30605481e-09  4.58256101e-01  3.45159044e-09  3.32018019e-09  3.52524736e-09  3.15050323e-09  1.59788997e-07  7.74863018e-09  2.20000000e-01 
 2.30000000e-01  4.58256083e-01  3.30605481e-09  4.58256083e-01  3.45159044e-09  3.32018019e-09  3.52524735e-09  3.15050328e-09  1.59788973e-07  7.74852360e-09  2.30000000e-01 
 2.40000000e-01  4.58256073e-01  3.30605475e-09  4.58256073e-01  3.45159044e-09  3.32018019e-09  3.52524735e-09  3.15050323e-09  1.59788969e-07  7.74839570e-09  2.40000000e-01 
 2.50000000e-01  4.58256079e-01  3.30605475e-09  4.58256079e-01  3.45159044e-09  3.32018019e-09  3.52524735e-09  3.15050328e-09  1.59788984e-07  7.74819142e-09  2.50000000e-01 
 2.60000000e-01  4.58256073e-01  3.30605480e-09  4.58256073e-01  3.45159044e-09  3.32018019e-09  3.52524735e-09  3.15050323e-09  1.59788977e-07  7.74813813e-09  2.60000000e-01 
 2.70000000e-01  4.58256075e-01  3.30605480e-09  4.58256075e-01  3.45159044e-09  3.32018019e-09  3.52524735e-09  3.15050323e-09  1.59788967e-07  7.74795339e-09  2.70000000e-01 
 2.80000000e-01  4.58256062e-01  3.30605475e-09  4.58256062e-01  3.45159044e-09  3.32018018e-09  3.52524735e-09  3.15050323e-09  1.59788952e-07  7.74783260e-09  2.80000000e-01 
 2.90000000e-01  4.58256080e-01  3.30605481e-09  4.58256080e-01  3.45159044e-09  3.32018019e-09  3.52524735e-09  3.15050328e-09  1.59788979e-07  7.74780062e-09  2.90000000e-01 
 3.00000000e-01  4.58256062e-01  3.30605480e-09  4.58256062e-01  3.45159044e-09  3.32018018e-09  3.52524735e-09  3.15050328e-09  1.59788948e-07  7.74769404e-09  3.00000000e-01 
 3.10000000e-01  4.58256061e-01  3.30605480e-09  4.58256061e-01  3.45159044e-09  3.32018018e-09  3.52524735e-09  3.15050323e-09  1.59788949e-07  7.74759457e-09  3.10000000e-01 
 3.20000000e-01  4.58256083e-01  3.30605481e-09  4.58256083e-01  3.45159044e-09  3.32018019e-09  3.52524741e-09  3.15050328e-09  1.59788983e-07  7.74741693e-09  3.20000000e-01 
 3.30000000e-01  4.58256079e-01  3.30605475e-09  4.58256079e-01  3.45159044e-09  3.32018019e-09  3.52524735e-09  3.15050328e-09  1.59788972e-07  7.74741693e-09  3.30000000e-01 
 3.40000000e-01  4.58256084e-01  3.30605475e-09  4.58256084e-01  3.45159044e-09  3.32018019e-09  3.52524735e-09  3.15050323e-09  1.59788965e-07  7.74727482e-09  3.40000000e-01 
 3.50000000e-01  4.58256057e-01  3.30605480e-09  4.58256057e-01  3.45159044e-09  3.32018018e-09  3.52524735e-09  3.15050323e-09  1.59788940e-07  7.74723929e-09  3.50000000e-01 
 3.60000000e-01  4.58256072e-01  3.30605475e-09  4.58256072e-01  3.45159044e-09  3.32018019e-09  3.52524735e-09  3.15050323e-09  1.59788963e-07  7.74699060e-09  3.60000000e-01 
 3.70000000e-01  4.58256050e-01  3.30605474e-09  4.58256050e-01  3.45159044e-09  3.32018018e-09  3.52524735e-09  3.15050323e-09  1.59788926e-07  7.74713982e-09  3.70000000e-01 
 3.80000000e-01  4.58256081e-01  3.30605481e-09  4.58256081e-01  3.45159044e-09  3.32018019e-09  3.52524735e-09  3.15050328e-09  1.59788979e-07  7.74696574e-09  3.80000000e-01 
 3.90000000e-01  4.58256073e-01  3.30605475e-09  4.58256073e-01  3.45159044e-09  3.32018019e-09  3.52524735e-09  3.15050323e-09  1.59788967e-07  7.74686626e-09  3.90000000e-01 
 4.00000000e-01  4.58256073e-01  3.30605480e-09  4.58256073e-01  3.45159044e-09  3.32018019e-09  3.52524735e-09  3.15050328e-09  1.59788973e-07  7.74681652e-09  4.00000000e-01 
 4.10000000e-01  4.58256093e-01  3.30605481e-09  4.58256093e-01  3.45159044e-09  3.32018019e-09  3.52524735e-09  3.15050328e-09  1.59788995e-07  7.74664599e-09  4.10000000e-01 
 4.20000000e-01  4.58256081e-01  3.30605481e-09  4.58256081e-01  3.45159044e-09  3.32018019e-09  3.52524735e-09  3.15050323e-09  1.59788987e-07  7.74670639e-09  4.20000000e-01 
 4.30000000e-01  4.58256083e-01  3.30605481e-09  4.58256083e-01  3.45159044e-09  3.32018019e-09  3.52524735e-09  3.15050323e-09  1.59788980e-07  7.74659270e-09  4.30000000e-01 
 4.40000000e-01  4.58256088e-01  3.30605481e-09  4.58256088e-01  3.45159044e-09  3.32018019e-09  3.52524735e-09  3.15050328e-09  1.59788982e-07  7.74649678e-09  4.40000000e-01 
 4.50000000e-01  4.58256073e-01  3.30605475e-09  4.58256073e-01  3.45159044e-09  3.32018019e-09  3.52524735e-09  3.15050328e-09  1.59788968e-07  7.74647191e-09  4.50000000e-01 
 4.60000000e-01  4.58256093e-01  3.30605475e-09  4.58256093e-01  3.45159044e-09  3.32018019e-09  3.52524735e-09  3.15050328e-09  1.59788993e-07  7.74647546e-09  4.60000000e-01 
 4.70000000e-01  4.58256066e-01  3.30605480e-09  4.58256066e-01  3.45159044e-09  3.32018018e-09  3.52524735e-09  3.15050323e-09  1.59788952e-07  7.74629072e-09  4.70000000e-01 
 4.80000000e-01  4.58256057e-01  3.30605480e-09  4.58256057e-01  3.45159044e-09  3.32018018e-09  3.52524735e-09  3.15050328e-09  1.59788958e-07  7.74635467e-09  4.80000000e-01 
 4.90000000e-01  4.58256076e-01  3.30605481e-09  4.58256076e-01  3.45159044e-09  3.32018019e-09  3.52524735e-09  3.15050328e-09  1.59788956e-07  7.74624809e-09  4.90000000e-01 
 5.00000000e-01  4.58256078e-01  3.30605475e-09  4.58256078e-01  3.45159044e-09  3.32018019e-09  3.52524735e-09  3.15050328e-09  1.59788983e-07  7.74609177e-09  5.00000000e-01 
 5.10000000e-01  4.58256061e-01  3.30605475e-09  4.58256061e-01  3.45159044e-09  3.32018018e-09  3.52524741e-09  3.15050323e-09  1.59788944e-07  7.74604558e-09  5.10000000e-01 
 5.20000000e-01  4.58256068e-01  3.30605480e-09  4.58256068e-01  3.45159044e-09  3.32018018e-09  3.52524735e-09  3.15050323e-09  1.59788954e-07  7.74609887e-09  5.20000000e-01 
 5.30000000e-01  4.58256080e-01  3.30605481e-09  4.58256080e-01  3.45159044e-09  3.32018019e-09  3.52524735e-09  3.15050328e-09  1.59788968e-07  7.74603848e-09  5.30000000e-01 
 5.40000000e-01  4.58256077e-01  3.30605481e-09  4.58256077e-01  3.45159044e-09  3.32018019e-09  3.52524735e-09  3.15050328e-09  1.59788970e-07  7.74600650e-09  5.40000000e-01 
 5.50000000e-01  4.58256068e-01  3.30605480e-09  4.58256068e-01  3.45159044e-09  3.32018018e-09  3.52524735e-09  3.15050323e-09  1.59788964e-07  7.74582531e-09  5.50000000e-01 
 5.60000000e-01  4.58256083e-01  3.30605481e-09  4.58256083e-01  3.45159044e-09  3.32018019e-09  3.52524735e-09  3.15050328e-09  1.59788980e-07  7.74581821e-09  5.60000000e-01 
 5.70000000e-01  4.58256050e-01  3.30605474e-09  4.58256050e-01  3.45159044e-09  3.32018018e-09  3.52524741e-09  3.15050323e-09  1.59788939e-07  7.74572584e-09  5.70000000e-01 
 5.80000000e-01  4.58256071e-01  3.30605480e-09  4.58256071e-01  3.45159044e-09  3.32018019e-09  3.52524735e-09  3.15050323e-09  1.59788952e-07  7.74562636e-09  5.80000000e-01 
 5.90000000e-01  4.58256071e-01  3.30605480e-09  4.58256071e-01  3.45159044e-09  3.32018019e-09  3.52524735e-09  3.15050323e-09  1.59788969e-07  7.74567610e-09  5.90000000e-01 
 6.00000000e-01  4.58256069e-01  3.30605475e-09  4.58256069e-01  3.45159044e-09  3.32018019e-09  3.52524735e-09  3.15050323e-09  1.59788968e-07  7.74565478e-09  6.00000000e-01 
 6.10000000e-01  4.58256080e-01  3.30605481e-09  4.58256080e-01  3.45159044e-09  3.32018019e-09  3.52524735e-09  3.15050328e-09  1.59788973e-07  7.74555531e-09  6.10000000e-01 
 6.20000000e-01  4.58256077e-01  3.30605481e-09  4.58256077e-01  3.45159044e-09  3.32018019e-09  3.52524735e-09  3.15050323e-09  1.59788990e-07  7.74551268e-09  6.20000000e-01 
 6.30000000e-01  4.58256075e-01  3.30605475e-09  4.58256075e-01  3.45159044e-09  3.32018019e-09  3.52524735e-09  3.15050323e-09  1.59788981e-07  7.74548425e-09  6.30000000e-01 
 6.40000000e-01  4.58256085e-01  3.30605481e-09  4.58256085e-01  3.45159044e-09  3.32018019e-09  3.52524735e-09  3.15050323e-09  1.59788993e-07  7.74538478e-09  6.40000000e-01 
 6.50000000e-01  4.58256073e-01  3.30605475e-09  4.58256073e-01  3.45159044e-09  3.32018019e-09  3.52524735e-09  3.15050328e-09  1.59788983e-07  7.74522846e-09  6.50000000e-01 
 6.60000000e-01  4.58256079e-01  3.30605475e-09  4.58256079e-01  3.45159044e-09  3.32018019e-09  3.52524735e-09  3.15050323e-09  1.59788973e-07  7.74529241e-09  6.60000000e-01 
 6.70000000e-01  4.58256082e-01  3.30605475e-09  4.58256082e-01  3.45159044e-09  3.32018013e-09  3.52524735e-09  3.15050323e-09  1.59788975e-07  7.74530662e-09  6.70000000e-01 
 6.80000000e-01  4.58256097e-01  3.30605475e-09  4.58256097e-01  3.45159044e-09  3.32018020e-09  3.52524735e-09  3.15050323e-09  1.59789009e-07  7.74517872e-09  6.80000000e-01 
 6.90000000e-01  4.58256069e-01  3.30605480e-09  4.58256069e-01  3.45159044e-09  3.32018018e-09  3.52524741e-09  3.15050328e-09  1.59788961e-07  7.74512188e-09  6.90000000e-01 
 7.00000000e-01  4.58256063e-01  3.30605475e-09  4.58256063e-01  3.45159044e-09  3.32018018e-09  3.52524735e-09  3.15050328e-09  1.59788952e-07  7.74512188e-09  7.00000000e-01 
 7.10000000e-01  4.58256089e-01  3.30605481e-09  4.58256089e-01  3.45159044e-09  3.32018019e-09  3.52524735e-09  3.15050323e-09  1.59789004e-07  7.74511477e-09  7.10000000e-01 
 7.20000000e-01  4.58256065e-01  3.30605475e-09  4.58256066e-01  3.45159049e-09  3.32018018e-09  3.52524741e-09  3.15050323e-09  1.59788961e-07  7.74502951e-09  7.20000000e-01 
 7.30000000e-01  4.58256067e-01  3.30605475e-09  4.58256067e-01  3.45159044e-09  3.32018018e-09  3.52524741e-09  3.15050323e-09  1.59788955e-07  7.74497977e-09  7.30000000e-01 
 7.40000000e-01  4.58256090e-01  3.30605481e-09  4.58256090e-01  3.45159044e-09  3.32018019e-09  3.52524735e-09  3.15050323e-09  1.59788995e-07  7.74492293e-09  7.40000000e-01 
 7.50000000e-01  4.58256072e-01  3.30605475e-09  4.58256072e-01  3.45159044e-09  3.32018019e-09  3.52524735e-09  3.15050323e-09  1.59788972e-07  7.74495135e-09  7.50000000e-01 
 7.60000000e-01  4.58256086e-01  3.30605475e-09  4.58256086e-01  3.45159044e-09  3.32018019e-09  3.52524735e-09  3.15050323e-09  1.59788983e-07  7.74486608e-09  7.60000000e-01 
 7.70000000e-01  4.58256071e-01  3.30605480e-09  4.58256071e-01  3.45159044e-09  3.32018019e-09  3.52524735e-09  3.15050323e-09  1.59788962e-07  7.74472397e-09  7.70000000e-01 
 7.80000000e-01  4.58256085e-01  3.30605481e-09  4.58256085e-01  3.45159049e-09  3.32018019e-09  3.52524735e-09  3.15050323e-09  1.59788979e-07  7.74456765e-09  7.80000000e-01 
 7.90000000e-01  4.58256071e-01  3.30605480e-09  4.58256071e-01  3.45159049e-09  3.32018019e-09  3.52524735e-09  3.15050328e-09  1.59788967e-07  7.74462450e-09  7.90000000e-01 
 8.00000000e-01  4.58256085e-01  3.30605481e-09  4.58256085e-01  3.45159044e-09  3.32018019e-09  3.52524741e-09  3.15050328e-09  1.59788986e-07  7.74448949e-09  8.00000000e-01 
 8.10000000e-01  4.58256073e-01  3.30605480e-09  4.58256073e-01  3.45159044e-09  3.32018019e-09  3.52524735e-09  3.15050323e-09  1.59788976e-07  7.74446818e-09  8.10000000e-01 
 8.20000000e-01  4.58256079e-01  3.30605475e-09  4.58256079e-01  3.45159044e-09  3.32018019e-09  3.52524735e-09  3.15050328e-09  1.59788964e-07  7.74440423e-09  8.20000000e-01 
 8.30000000e-01  4.58256066e-01  3.30605480e-09  4.58256066e-01  3.45159049e-09  3.32018018e-09  3.52524735e-09  3.15050323e-09  1.59788943e-07  7.74434739e-09  8.30000000e-01 
 8.40000000e-01  4.58256071e-01  3.30605475e-09  4.58256071e-01  3.45159044e-09  3.32018013e-09  3.52524735e-09  3.15050323e-09  1.59788962e-07  7.74431896e-09  8.40000000e-01 
 8.50000000e-01  4.58256084e-01  3.30605475e-09  4.58256084e-01  3.45159044e-09  3.32018014e-09  3.52524741e-09  3.15050328e-09  1.59788985e-07  7.74429765e-09  8.50000000e-01 
 8.60000000e-01  4.58256069e-01  3.30605480e-09  4.58256069e-01  3.45159044e-09  3.32018018e-09  3.52524735e-09  3.15050323e-09  1.59788958e-07  7.74421949e-09  8.60000000e-01 
 8.70000000e-01  4.58256079e-01  3.30605475e-09  4.58256079e-01  3.45159044e-09  3.32018019e-09  3.52524735e-09  3.15050328e-09  1.59788977e-07  7.74416975e-09  8.70000000e-01 
 8.80000000e-01  4.58256068e-01  3.30605480e-09  4.58256068e-01  3.45159044e-09  3.32018019e-09  3.52524735e-09  3.15050328e-09  1.59788966e-07  7.74393527e-09  8.80000000e-01 
 8.90000000e-01  4.58256070e-01  3.30605475e-09  4.58256070e-01  3.45159049e-09  3.32018019e-09  3.52524735e-09  3.15050328e-09  1.59788955e-07  7.74407027e-09  8.90000000e-01 
 9.00000000e-01  4.58256077e-01  3.30605475e-09  4.58256077e-01  3.45159044e-09  3.32018019e-09  3.52524741e-09  3.15050328e-09  1.59788965e-07  7.74397790e-09  9.00000000e-01 
 9.10000000e-01  4.58256091e-01  3.30605481e-09  4.58256091e-01  3.45159044e-09  3.32018019e-09  3.52524735e-09  3.15050323e-09  1.59788996e-07  7.74395659e-09  9.10000000e-01 
 9.20000000e-01  4.58256050e-01  3.30605480e-09  4.58256050e-01  3.45159044e-09  3.32018018e-09  3.52524735e-09  3.15050328e-09  1.59788930e-07  7.74389974e-09  9.20000000e-01 
 9.30000000e-01  4.58256071e-01  3.30605480e-09  4.58256071e-01  3.45159044e-09  3.32018019e-09  3.52524735e-09  3.15050323e-09  1.59788951e-07  7.74383579e-09  9.30000000e-01 
 9.40000000e-01  4.58256064e-01  3.30605475e-09  4.58256064e-01  3.45159044e-09  3.32018018e-09  3.52524735e-09  3.15050323e-09  1.59788961e-07  7.74376474e-09  9.40000000e-01 
 9.50000000e-01  4.58256059e-01  3.30605480e-09  4.58256059e-01  3.45159044e-09  3.32018018e-09  3.52524735e-09  3.15050328e-09  1.59788948e-07  7.74378606e-09  9.50000000e-01 
 9.60000000e-01  4.58256075e-01  3.30605480e-09  4.58256075e-01  3.45159044e-09  3.32018019e-09  3.52524735e-09  3.15050323e-09  1.59788957e-07  7.74367948e-09  9.60000000e-01 
 9.70000000e-01  4.58256076e-01  3.30605481e-09  4.58256076e-01  3.45159044e-09  3.32018019e-09  3.52524735e-09  3.15050328e-09  1.59788980e-07  7.74352316e-09  9.70000000e-01 
 9.80000000e-01  4.58256079e-01  3.30605475e-09  4.58256079e-01  3.45159044e-09  3.32018019e-09  3.52524735e-09  3.15050323e-09  1.59788969e-07  7.74362263e-09  9.80000000e-01 
 9.90000000e-01  4.58256071e-01  3.30605475e-09  4.58256071e-01  3.45159044e-09  3.32018019e-09  3.52524735e-09  3.15050323e-09  1.59788968e-07  7.74344500e-09  9.90000000e-01 
 1.00000000e+00  4.58256092e-01  3.30605475e-09  4.58256092e-01  3.45159044e-09  3.32018019e-09  3.52524735e-09  3.15050323e-09  1.59789001e-07  7.74343789e-09  1.00000000e+00 
 1.01000000e+00  4.58256082e-01  3.30605481e-09  4.58256082e-01  3.45159044e-09  3.32018019e-09  3.52524741e-09  3.15050328e-09  1.59788993e-07  7.74345210e-09  1.01000000e+00 
 1.02000000e+00  4.58256085e-01  3.30605481e-09  4.58256085e-01  3.45159044e-09  3.32018019e-09  3.52524735e-09  3.15050328e-09  1.59788979e-07  7.74336684e-09  1.02000000e+00 
 1.03000000e+00  4.58256074e-01  3.30605480e-09  4.58256074e-01  3.45159044e-09  3.32018019e-09  3.52524735e-09  3.15050323e-09  1.59788967e-07  7.74333841e-09  1.03000000e+00 
 1.04000000e+00  4.58256065e-01  3.30605475e-09  4.58256065e-01  3.45159044e-09  3.32018018e-09  3.52524735e-09  3.15050323e-09  1.59788968e-07  7.74325315e-09  1.04000000e+00 
 1.05000000e+00  4.58256089e-01  3.30605475e-09  4.58256089e-01  3.45159044e-09  3.32018019e-09  3.52524741e-09  3.15050328e-09  1.59788984e-07  7.74329578e-09  1.05000000e+00 
 1.06000000e+00  4.58256051e-01  3.30605474e-09  4.58256051e-01  3.45159044e-09  3.32018018e-09  3.52524735e-09  3.15050323e-09  1.59788931e-07  7.74315367e-09  1.06000000e+00 
 1.07000000e+00  4.58256087e-01  3.30605481e-09  4.58256087e-01  3.45159044e-09  3.32018019e-09  3.52524735e-09  3.15050323e-09  1.59788974e-07  7.74303999e-09  1.07000000e+00 
 1.08000000e+00  4.58256087e-01  3.30605475e-09  4.58256087e-01  3.45159044e-09  3.32018019e-09  3.52524735e-09  3.15050328e-09  1.59788993e-07  7.74306130e-09  1.08000000e+00 
 1.09000000e+00  4.58256068e-01  3.30605475e-09  4.58256068e-01  3.45159044e-09  3.32018018e-09  3.52524735e-09  3.15050323e-09  1.59788957e-07  7.74298314e-09  1.09000000e+00 
 1.10000000e+00  4.58256080e-01  3.30605475e-09  4.58256080e-01  3.45159044e-09  3.32018019e-09  3.52524741e-09  3.15050328e-09  1.59788970e-07  7.74294051e-09  1.10000000e+00 
