 v-sweep         v(b0)           v(b1)           v(b2)           v(b3)           v(b4)           v(b5)           v(b6)           i(vbias)        i(viout)        v(vout)        
 0.00000000e+00  4.59479036e-01  4.59479036e-01  4.59479036e-01  4.59479036e-01  3.07579699e-09  4.59479036e-01  3.37390868e-09  1.63710764e-07  7.15276142e-08  0.00000000e+00 
 1.00000000e-02  4.59479028e-01  4.59479028e-01  4.59479028e-01  4.59479028e-01  3.07579697e-09  4.59479028e-01  3.37390866e-09  1.63710761e-07  7.15271000e-08  1.00000000e-02 
 2.00000000e-02  4.59479010e-01  4.59479010e-01  4.59479010e-01  4.59479010e-01  3.07579697e-09  4.59479010e-01  3.37390866e-09  1.63710746e-07  7.15267197e-08  2.00000000e-02 
 3.00000000e-02  4.59479027e-01  4.59479027e-01  4.59479027e-01  4.59479027e-01  3.07579703e-09  4.59479027e-01  3.37390866e-09  1.63710765e-07  7.15265334e-08  3.00000000e-02 
 4.00000000e-02  4.59479020e-01  4.59479020e-01  4.59479020e-01  4.59479020e-01  3.07579697e-09  4.59479020e-01  3.37390866e-09  1.63710741e-07  7.15259278e-08  4.00000000e-02 
 5.00000000e-02  4.59479013e-01  4.59479013e-01  4.59479014e-01  4.59479013e-01  3.07579697e-09  4.59479014e-01  3.37390866e-09  1.63710741e-07  7.15257342e-08  5.00000000e-02 
 6.00000000e-02  4.59479011e-01  4.59479011e-01  4.59479011e-01  4.59479011e-01  3.07579703e-09  4.59479011e-01  3.37390860e-09  1.63710734e-07  7.15253679e-08  6.00000000e-02 
 7.00000000e-02  4.59479017e-01  4.59479018e-01  4.59479018e-01  4.59479017e-01  3.07579697e-09  4.59479018e-01  3.37390866e-09  1.63710745e-07  7.15251098e-08  7.00000000e-02 
 8.00000000e-02  4.59479029e-01  4.59479029e-01  4.59479030e-01  4.59479029e-01  3.07579703e-09  4.59479029e-01  3.37390866e-09  1.63710766e-07  7.15248767e-08  8.00000000e-02 
 9.00000000e-02  4.59479018e-01  4.59479019e-01  4.59479019e-01  4.59479018e-01  3.07579697e-09  4.59479019e-01  3.37390866e-09  1.63710756e-07  7.15245090e-08  9.00000000e-02 
 1.00000000e-01  4.59479031e-01  4.59479031e-01  4.59479031e-01  4.59479031e-01  3.07579697e-09  4.59479031e-01  3.37390866e-09  1.63710761e-07  7.15242496e-08  1.00000000e-01 
 1.10000000e-01  4.59479034e-01  4.59479034e-01  4.59479034e-01  4.59479034e-01  3.07579697e-09  4.59479034e-01  3.37390860e-09  1.63710763e-07  7.15240684e-08  1.10000000e-01 
 1.20000000e-01  4.59479023e-01  4.59479023e-01  4.59479023e-01  4.59479023e-01  3.07579697e-09  4.59479023e-01  3.37390866e-09  1.63710740e-07  7.15237167e-08  1.20000000e-01 
 1.30000000e-01  4.59478995e-01  4.59478995e-01  4.59478995e-01  4.59478995e-01  3.07579697e-09  4.59478995e-01  3.37390866e-09  1.63710711e-07  7.15234210e-08  1.30000000e-01 
 1.40000000e-01  4.59479019e-01  4.59479019e-01  4.59479019e-01  4.59479019e-01  3.07579697e-09  4.59479019e-01  3.37390866e-09  1.63710750e-07  7.15233224e-08  1.40000000e-01 
 1.50000000e-01  4.59479013e-01  4.59479013e-01  4.59479013e-01  4.59479013e-01  3.07579703e-09  4.59479013e-01  3.37390866e-09  1.63710734e-07  7.15230080e-08  1.50000000e-01 
 1.60000000e-01  4.59479010e-01  4.59479010e-01  4.59479010e-01  4.59479010e-01  3.07579703e-09  4.59479010e-01  3.37390866e-09  1.63710734e-07  7.15229280e-08  1.60000000e-01 
 1.70000000e-01  4.59479007e-01  4.59479007e-01  4.59479007e-01  4.59479007e-01  3.07579697e-09  4.59479007e-01  3.37390866e-09  1.63710741e-07  7.15226331e-08  1.70000000e-01 
 1.80000000e-01  4.59479018e-01  4.59479018e-01  4.59479018e-01  4.59479018e-01  3.07579697e-09  4.59479018e-01  3.37390866e-09  1.63710745e-07  7.15223845e-08  1.80000000e-01 
 1.90000000e-01  4.59479006e-01  4.59479006e-01  4.59479006e-01  4.59479006e-01  3.07579697e-09  4.59479006e-01  3.37390866e-09  1.63710738e-07  7.15223294e-08  1.90000000e-01 
 2.00000000e-01  4.59479014e-01  4.59479015e-01  4.59479015e-01  4.59479014e-01  3.07579697e-09  4.59479015e-01  3.37390860e-09  1.63710743e-07  7.15221837e-08  2.00000000e-01 
 2.10000000e-01  4.59479039e-01  4.59479039e-01  4.59479039e-01  4.59479039e-01  3.07579697e-09  4.59479039e-01  3.37390860e-09  1.63710784e-07  7.15221535e-08  2.10000000e-01 
 2.20000000e-01  4.59479023e-01  4.59479024e-01  4.59479024e-01  4.59479023e-01  3.07579703e-09  4.59479024e-01  3.37390866e-09  1.63710761e-07  7.15217752e-08  2.20000000e-01 
 2.30000000e-01  4.59479007e-01  4.59479007e-01  4.59479007e-01  4.59479007e-01  3.07579697e-09  4.59479007e-01  3.37390866e-09  1.63710732e-07  7.15216224e-08  2.30000000e-01 
 2.40000000e-01  4.59479044e-01  4.59479044e-01  4.59479044e-01  4.59479044e-01  3.07579703e-09  4.59479044e-01  3.37390866e-09  1.63710780e-07  7.15217290e-08  2.40000000e-01 
 2.50000000e-01  4.59479012e-01  4.59479012e-01  4.59479012e-01  4.59479012e-01  3.07579697e-09  4.59479012e-01  3.37390866e-09  1.63710737e-07  7.15213790e-08  2.50000000e-01 
 2.60000000e-01  4.59479027e-01  4.59479027e-01  4.59479027e-01  4.59479027e-01  3.07579697e-09  4.59479027e-01  3.37390866e-09  1.63710756e-07  7.15213435e-08  2.60000000e-01 
 2.70000000e-01  4.59479037e-01  4.59479038e-01  4.59479038e-01  4.59479037e-01  3.07579703e-09  4.59479038e-01  3.37390866e-09  1.63710777e-07  7.15212209e-08  2.70000000e-01 
 2.80000000e-01  4.59479028e-01  4.59479028e-01  4.59479029e-01  4.59479028e-01  3.07579697e-09  4.59479029e-01  3.37390866e-09  1.63710754e-07  7.15211179e-08  2.80000000e-01 
 2.90000000e-01  4.59479018e-01  4.59479018e-01  4.59479018e-01  4.59479018e-01  3.07579697e-09  4.59479018e-01  3.37390866e-09  1.63710753e-07  7.15208905e-08  2.90000000e-01 
 3.00000000e-01  4.59479023e-01  4.59479023e-01  4.59479023e-01  4.59479023e-01  3.07579697e-09  4.59479023e-01  3.37390866e-09  1.63710757e-07  7.15208586e-08  3.00000000e-01 
 3.10000000e-01  4.59479019e-01  4.59479019e-01  4.59479019e-01  4.59479019e-01  3.07579697e-09  4.59479019e-01  3.37390866e-09  1.63710746e-07  7.15206916e-08  3.10000000e-01 
 3.20000000e-01  4.59479010e-01  4.59479010e-01  4.59479010e-01  4.59479010e-01  3.07579697e-09  4.59479010e-01  3.37390866e-09  1.63710746e-07  7.15205530e-08  3.20000000e-01 
 3.30000000e-01  4.59479028e-01  4.59479028e-01  4.59479028e-01  4.59479028e-01  3.07579697e-09  4.59479028e-01  3.37390860e-09  1.63710762e-07  7.15204678e-08  3.30000000e-01 
 3.40000000e-01  4.59479043e-01  4.59479043e-01  4.59479043e-01  4.59479043e-01  3.07579703e-09  4.59479043e-01  3.37390866e-09  1.63710796e-07  7.15204571e-08  3.40000000e-01 
 3.50000000e-01  4.59479060e-01  4.59479060e-01  4.59479060e-01  4.59479060e-01  3.07579697e-09  4.59479060e-01  3.37390866e-09  1.63710813e-07  7.15203718e-08  3.50000000e-01 
 3.60000000e-01  4.59479014e-01  4.59479014e-01  4.59479014e-01  4.59479014e-01  3.07579697e-09  4.59479014e-01  3.37390866e-09  1.63710744e-07  7.15202546e-08  3.60000000e-01 
 3.70000000e-01  4.59479046e-01  4.59479046e-01  4.59479046e-01  4.59479046e-01  3.07579697e-09  4.59479046e-01  3.37390866e-09  1.63710801e-07  7.15201089e-08  3.70000000e-01 
 3.80000000e-01  4.59479032e-01  4.59479033e-01  4.59479033e-01  4.59479033e-01  3.07579697e-09  4.59479033e-01  3.37390866e-09  1.63710763e-07  7.15200059e-08  3.80000000e-01 
 3.90000000e-01  4.59479012e-01  4.59479012e-01  4.59479012e-01  4.59479012e-01  3.07579697e-09  4.59479012e-01  3.37390866e-09  1.63710746e-07  7.15199278e-08  3.90000000e-01 
 4.00000000e-01  4.59479029e-01  4.59479029e-01  4.59479029e-01  4.59479029e-01  3.07579703e-09  4.59479029e-01  3.37390866e-09  1.63710767e-07  7.15199526e-08  4.00000000e-01 
 4.10000000e-01  4.59479014e-01  4.59479014e-01  4.59479014e-01  4.59479014e-01  3.07579697e-09  4.59479014e-01  3.37390866e-09  1.63710741e-07  7.15197501e-08  4.10000000e-01 
 4.20000000e-01  4.59479019e-01  4.59479019e-01  4.59479019e-01  4.59479019e-01  3.07579697e-09  4.59479019e-01  3.37390866e-09  1.63710734e-07  7.15196435e-08  4.20000000e-01 
 4.30000000e-01  4.59479033e-01  4.59479033e-01  4.59479033e-01  4.59479033e-01  3.07579697e-09  4.59479033e-01  3.37390866e-09  1.63710766e-07  7.15196080e-08  4.30000000e-01 
 4.40000000e-01  4.59479031e-01  4.59479031e-01  4.59479031e-01  4.59479031e-01  3.07579697e-09  4.59479031e-01  3.37390866e-09  1.63710759e-07  7.15195974e-08  4.40000000e-01 
 4.50000000e-01  4.59479037e-01  4.59479037e-01  4.59479037e-01  4.59479037e-01  3.07579703e-09  4.59479037e-01  3.37390866e-09  1.63710784e-07  7.15194837e-08  4.50000000e-01 
 4.60000000e-01  4.59479017e-01  4.59479018e-01  4.59479018e-01  4.59479017e-01  3.07579703e-09  4.59479018e-01  3.37390866e-09  1.63710741e-07  7.15194091e-08  4.60000000e-01 
 4.70000000e-01  4.59479019e-01  4.59479019e-01  4.59479019e-01  4.59479019e-01  3.07579697e-09  4.59479019e-01  3.37390866e-09  1.63710758e-07  7.15193309e-08  4.70000000e-01 
 4.80000000e-01  4.59479009e-01  4.59479009e-01  4.59479009e-01  4.59479009e-01  3.07579703e-09  4.59479009e-01  3.37390866e-09  1.63710722e-07  7.15192030e-08  4.80000000e-01 
 4.90000000e-01  4.59479016e-01  4.59479016e-01  4.59479016e-01  4.59479016e-01  3.07579697e-09  4.59479016e-01  3.37390866e-09  1.63710741e-07  7.15193451e-08  4.90000000e-01 
 5.00000000e-01  4.59478999e-01  4.59478999e-01  4.59478999e-01  4.59478999e-01  3.07579697e-09  4.59478999e-01  3.37390866e-09  1.63710728e-07  7.15190431e-08  5.00000000e-01 
 5.10000000e-01  4.59479042e-01  4.59479043e-01  4.59479043e-01  4.59479043e-01  3.07579697e-09  4.59479043e-01  3.37390866e-09  1.63710790e-07  7.15191142e-08  5.10000000e-01 
 5.20000000e-01  4.59479036e-01  4.59479036e-01  4.59479037e-01  4.59479036e-01  3.07579697e-09  4.59479036e-01  3.37390866e-09  1.63710772e-07  7.15190538e-08  5.20000000e-01 
 5.30000000e-01  4.59479036e-01  4.59479036e-01  4.59479036e-01  4.59479036e-01  3.07579703e-09  4.59479036e-01  3.37390866e-09  1.63710780e-07  7.15189756e-08  5.30000000e-01 
 5.40000000e-01  4.59479055e-01  4.59479055e-01  4.59479055e-01  4.59479055e-01  3.07579697e-09  4.59479055e-01  3.37390866e-09  1.63710798e-07  7.15188833e-08  5.40000000e-01 
 5.50000000e-01  4.59479020e-01  4.59479020e-01  4.59479020e-01  4.59479020e-01  3.07579703e-09  4.59479020e-01  3.37390866e-09  1.63710743e-07  7.15188158e-08  5.50000000e-01 
 5.60000000e-01  4.59479015e-01  4.59479015e-01  4.59479015e-01  4.59479015e-01  3.07579703e-09  4.59479015e-01  3.37390866e-09  1.63710749e-07  7.15186239e-08  5.60000000e-01 
 5.70000000e-01  4.59479018e-01  4.59479019e-01  4.59479019e-01  4.59479018e-01  3.07579697e-09  4.59479019e-01  3.37390866e-09  1.63710730e-07  7.15187518e-08  5.70000000e-01 
 5.80000000e-01  4.59479021e-01  4.59479021e-01  4.59479021e-01  4.59479021e-01  3.07579697e-09  4.59479021e-01  3.37390866e-09  1.63710766e-07  7.15186772e-08  5.80000000e-01 
 5.90000000e-01  4.59479035e-01  4.59479035e-01  4.59479035e-01  4.59479035e-01  3.07579697e-09  4.59479035e-01  3.37390866e-09  1.63710766e-07  7.15184854e-08  5.90000000e-01 
 6.00000000e-01  4.59479020e-01  4.59479021e-01  4.59479021e-01  4.59479021e-01  3.07579703e-09  4.59479021e-01  3.37390860e-09  1.63710740e-07  7.15183290e-08  6.00000000e-01 
 6.10000000e-01  4.59479029e-01  4.59479030e-01  4.59479030e-01  4.59479030e-01  3.07579697e-09  4.59479030e-01  3.37390866e-09  1.63710752e-07  7.15184569e-08  6.10000000e-01 
 6.20000000e-01  4.59479025e-01  4.59479025e-01  4.59479025e-01  4.59479025e-01  3.07579697e-09  4.59479025e-01  3.37390866e-09  1.63710761e-07  7.15182722e-08  6.20000000e-01 
 6.30000000e-01  4.59479035e-01  4.59479035e-01  4.59479035e-01  4.59479035e-01  3.07579697e-09  4.59479035e-01  3.37390866e-09  1.63710768e-07  7.15182509e-08  6.30000000e-01 
 6.40000000e-01  4.59479038e-01  4.59479038e-01  4.59479038e-01  4.59479038e-01  3.07579697e-09  4.59479038e-01  3.37390866e-09  1.63710771e-07  7.15182864e-08  6.40000000e-01 
 6.50000000e-01  4.59479040e-01  4.59479041e-01  4.59479041e-01  4.59479041e-01  3.07579703e-09  4.59479041e-01  3.37390866e-09  1.63710797e-07  7.15181230e-08  6.50000000e-01 
 6.60000000e-01  4.59479015e-01  4.59479015e-01  4.59479016e-01  4.59479015e-01  3.07579703e-09  4.59479016e-01  3.37390866e-09  1.63710741e-07  7.15181088e-08  6.60000000e-01 
 6.70000000e-01  4.59479035e-01  4.59479035e-01  4.59479035e-01  4.59479035e-01  3.07579703e-09  4.59479035e-01  3.37390860e-09  1.63710760e-07  7.15179809e-08  6.70000000e-01 
 6.80000000e-01  4.59479032e-01  4.59479032e-01  4.59479032e-01  4.59479032e-01  3.07579703e-09  4.59479032e-01  3.37390866e-09  1.63710765e-07  7.15178601e-08  6.80000000e-01 
 6.90000000e-01  4.59479011e-01  4.59479011e-01  4.59479011e-01  4.59479011e-01  3.07579697e-09  4.59479011e-01  3.37390860e-09  1.63710741e-07  7.15178032e-08  6.90000000e-01 
 7.00000000e-01  4.59479019e-01  4.59479019e-01  4.59479019e-01  4.59479019e-01  3.07579697e-09  4.59479019e-01  3.37390866e-09  1.63710751e-07  7.15176895e-08  7.00000000e-01 
 7.10000000e-01  4.59479041e-01  4.59479041e-01  4.59479041e-01  4.59479041e-01  3.07579697e-09  4.59479041e-01  3.37390866e-09  1.63710780e-07  7.15177535e-08  7.10000000e-01 
 7.20000000e-01  4.59479025e-01  4.59479025e-01  4.59479025e-01  4.59479025e-01  3.07579697e-09  4.59479025e-01  3.37390866e-09  1.63710754e-07  7.15176256e-08  7.20000000e-01 
 7.30000000e-01  4.59479019e-01  4.59479019e-01  4.59479019e-01  4.59479019e-01  3.07579703e-09  4.59479019e-01  3.37390866e-09  1.63710740e-07  7.15176043e-08  7.30000000e-01 
 7.40000000e-01  4.59479013e-01  4.59479013e-01  4.59479013e-01  4.59479013e-01  3.07579703e-09  4.59479013e-01  3.37390866e-09  1.63710734e-07  7.15175332e-08  7.40000000e-01 
 7.50000000e-01  4.59479004e-01  4.59479004e-01  4.59479004e-01  4.59479004e-01  3.07579697e-09  4.59479004e-01  3.37390866e-09  1.63710722e-07  7.15175048e-08  7.50000000e-01 
 7.60000000e-01  4.59479020e-01  4.59479020e-01  4.59479021e-01  4.59479020e-01  3.07579697e-09  4.59479020e-01  3.37390866e-09  1.63710742e-07  7.15173911e-08  7.60000000e-01 
 7.70000000e-01  4.59479026e-01  4.59479026e-01  4.59479026e-01  4.59479026e-01  3.07579697e-09  4.59479026e-01  3.37390866e-09  1.63710749e-07  7.15173627e-08  7.70000000e-01 
 7.80000000e-01  4.59479009e-01  4.59479010e-01  4.59479010e-01  4.59479010e-01  3.07579697e-09  4.59479010e-01  3.37390866e-09  1.63710732e-07  7.15171851e-08  7.80000000e-01 
 7.90000000e-01  4.59479029e-01  4.59479029e-01  4.59479029e-01  4.59479029e-01  3.07579703e-09  4.59479029e-01  3.37390866e-09  1.63710771e-07  7.15172490e-08  7.90000000e-01 
 8.00000000e-01  4.59479021e-01  4.59479022e-01  4.59479022e-01  4.59479021e-01  3.07579697e-09  4.59479022e-01  3.37390866e-09  1.63710756e-07  7.15170998e-08  8.00000000e-01 
 8.10000000e-01  4.59479038e-01  4.59479038e-01  4.59479038e-01  4.59479038e-01  3.07579703e-09  4.59479038e-01  3.37390866e-09  1.63710781e-07  7.15170998e-08  8.10000000e-01 
 8.20000000e-01  4.59479029e-01  4.59479029e-01  4.59479029e-01  4.59479029e-01  3.07579703e-09  4.59479029e-01  3.37390866e-09  1.63710754e-07  7.15169364e-08  8.20000000e-01 
 8.30000000e-01  4.59478997e-01  4.59478997e-01  4.59478997e-01  4.59478997e-01  3.07579697e-09  4.59478997e-01  3.37390866e-09  1.63710724e-07  7.15169080e-08  8.30000000e-01 
 8.40000000e-01  4.59479037e-01  4.59479037e-01  4.59479037e-01  4.59479037e-01  3.07579697e-09  4.59479037e-01  3.37390866e-09  1.63710766e-07  7.15167801e-08  8.40000000e-01 
 8.50000000e-01  4.59479024e-01  4.59479024e-01  4.59479024e-01  4.59479024e-01  3.07579697e-09  4.59479024e-01  3.37390866e-09  1.63710766e-07  7.15167872e-08  8.50000000e-01 
 8.60000000e-01  4.59479015e-01  4.59479015e-01  4.59479015e-01  4.59479015e-01  3.07579697e-09  4.59479015e-01  3.37390866e-09  1.63710745e-07  7.15167090e-08  8.60000000e-01 
 8.70000000e-01  4.59479016e-01  4.59479016e-01  4.59479016e-01  4.59479016e-01  3.07579697e-09  4.59479016e-01  3.37390860e-09  1.63710746e-07  7.15167232e-08  8.70000000e-01 
 8.80000000e-01  4.59479030e-01  4.59479030e-01  4.59479030e-01  4.59479030e-01  3.07579697e-09  4.59479030e-01  3.37390866e-09  1.63710764e-07  7.15164887e-08  8.80000000e-01 
 8.90000000e-01  4.59479021e-01  4.59479021e-01  4.59479021e-01  4.59479021e-01  3.07579697e-09  4.59479021e-01  3.37390866e-09  1.63710753e-07  7.15164674e-08  8.90000000e-01 
 9.00000000e-01  4.59478983e-01  4.59478983e-01  4.59478983e-01  4.59478983e-01  3.07579697e-09  4.59478983e-01  3.37390866e-09  1.63710699e-07  7.15164177e-08  9.00000000e-01 
 9.10000000e-01  4.59479019e-01  4.59479019e-01  4.59479019e-01  4.59479019e-01  3.07579703e-09  4.59479019e-01  3.37390866e-09  1.63710737e-07  7.15163395e-08  9.10000000e-01 
 9.20000000e-01  4.59479022e-01  4.59479022e-01  4.59479022e-01  4.59479022e-01  3.07579703e-09  4.59479022e-01  3.37390866e-09  1.63710760e-07  7.15163537e-08  9.20000000e-01 
 9.30000000e-01  4.59479018e-01  4.59479018e-01  4.59479018e-01  4.59479018e-01  3.07579697e-09  4.59479018e-01  3.37390866e-09  1.63710754e-07  7.15163111e-08  9.30000000e-01 
 9.40000000e-01  4.59479011e-01  4.59479011e-01  4.59479011e-01  4.59479011e-01  3.07579697e-09  4.59479011e-01  3.37390860e-09  1.63710738e-07  7.15160908e-08  9.40000000e-01 
 9.50000000e-01  4.59479038e-01  4.59479039e-01  4.59479039e-01  4.59479038e-01  3.07579703e-09  4.59479039e-01  3.37390866e-09  1.63710779e-07  7.15160766e-08  9.50000000e-01 
 9.60000000e-01  4.59479017e-01  4.59479017e-01  4.59479017e-01  4.59479017e-01  3.07579697e-09  4.59479017e-01  3.37390866e-09  1.63710753e-07  7.15159842e-08  9.60000000e-01 
 9.70000000e-01  4.59479023e-01  4.59479023e-01  4.59479024e-01  4.59479023e-01  3.07579697e-09  4.59479024e-01  3.37390866e-09  1.63710755e-07  7.15160056e-08  9.70000000e-01 
 9.80000000e-01  4.59479022e-01  4.59479022e-01  4.59479022e-01  4.59479022e-01  3.07579697e-09  4.59479022e-01  3.37390860e-09  1.63710762e-07  7.15159416e-08  9.80000000e-01 
 9.90000000e-01  4.59479028e-01  4.59479028e-01  4.59479028e-01  4.59479028e-01  3.07579697e-09  4.59479028e-01  3.37390860e-09  1.63710761e-07  7.15158279e-08  9.90000000e-01 
 1.00000000e+00  4.59479017e-01  4.59479017e-01  4.59479017e-01  4.59479017e-01  3.07579703e-09  4.59479017e-01  3.37390866e-09  1.63710746e-07  7.15157356e-08  1.00000000e+00 
 1.01000000e+00  4.59479030e-01  4.59479030e-01  4.59479030e-01  4.59479030e-01  3.07579703e-09  4.59479030e-01  3.37390866e-09  1.63710756e-07  7.15158137e-08  1.01000000e+00 
 1.02000000e+00  4.59479006e-01  4.59479006e-01  4.59479006e-01  4.59479006e-01  3.07579697e-09  4.59479006e-01  3.37390860e-09  1.63710727e-07  7.15156148e-08  1.02000000e+00 
 1.03000000e+00  4.59479040e-01  4.59479040e-01  4.59479040e-01  4.59479040e-01  3.07579703e-09  4.59479040e-01  3.37390866e-09  1.63710777e-07  7.15155721e-08  1.03000000e+00 
 1.04000000e+00  4.59479036e-01  4.59479036e-01  4.59479036e-01  4.59479036e-01  3.07579697e-09  4.59479036e-01  3.37390866e-09  1.63710764e-07  7.15154442e-08  1.04000000e+00 
 1.05000000e+00  4.59479035e-01  4.59479036e-01  4.59479036e-01  4.59479035e-01  3.07579697e-09  4.59479036e-01  3.37390866e-09  1.63710766e-07  7.15153519e-08  1.05000000e+00 
 1.06000000e+00  4.59478995e-01  4.59478995e-01  4.59478995e-01  4.59478995e-01  3.07579697e-09  4.59478995e-01  3.37390866e-09  1.63710712e-07  7.15151884e-08  1.06000000e+00 
 1.07000000e+00  4.59479022e-01  4.59479022e-01  4.59479022e-01  4.59479022e-01  3.07579703e-09  4.59479022e-01  3.37390866e-09  1.63710752e-07  7.15153021e-08  1.07000000e+00 
 1.08000000e+00  4.59479039e-01  4.59479039e-01  4.59479039e-01  4.59479039e-01  3.07579703e-09  4.59479039e-01  3.37390866e-09  1.63710782e-07  7.15152169e-08  1.08000000e+00 
 1.09000000e+00  4.59479011e-01  4.59479011e-01  4.59479011e-01  4.59479011e-01  3.07579703e-09  4.59479011e-01  3.37390866e-09  1.63710737e-07  7.15149753e-08  1.09000000e+00 
 1.10000000e+00  4.59479057e-01  4.59479057e-01  4.59479057e-01  4.59479057e-01  3.07579697e-09  4.59479057e-01  3.37390866e-09  1.63710806e-07  7.15150748e-08  1.10000000e+00 
