 v-sweep         v(b0)           v(b1)           v(b2)           v(b3)           v(b4)           v(b5)           v(b6)           i(vbias)        i(viout)        v(vout)        
 0.00000000e+00  3.39070484e-09  4.58938838e-01  4.58938838e-01  3.60502589e-09  4.58938838e-01  4.58938838e-01  4.58938838e-01  1.63018848e-07  1.82560041e-07  0.00000000e+00 
 1.00000000e-02  3.39070487e-09  4.58938808e-01  4.58938808e-01  3.60502586e-09  4.58938808e-01  4.58938808e-01  4.58938808e-01  1.63018785e-07  1.82559507e-07  1.00000000e-02 
 2.00000000e-02  3.39070487e-09  4.58938836e-01  4.58938836e-01  3.60502587e-09  4.58938836e-01  4.58938836e-01  4.58938835e-01  1.63018825e-07  1.82559227e-07  2.00000000e-02 
 3.00000000e-02  3.39070481e-09  4.58938843e-01  4.58938843e-01  3.60502592e-09  4.58938843e-01  4.58938843e-01  4.58938843e-01  1.63018847e-07  1.82558800e-07  3.00000000e-02 
 4.00000000e-02  3.39070482e-09  4.58938853e-01  4.58938853e-01  3.60502591e-09  4.58938853e-01  4.58938853e-01  4.58938853e-01  1.63018862e-07  1.82558438e-07  4.00000000e-02 
 5.00000000e-02  3.39070480e-09  4.58938837e-01  4.58938837e-01  3.60502592e-09  4.58938837e-01  4.58938837e-01  4.58938837e-01  1.63018847e-07  1.82557832e-07  5.00000000e-02 
 6.00000000e-02  3.39070482e-09  4.58938811e-01  4.58938811e-01  3.60502592e-09  4.58938811e-01  4.58938811e-01  4.58938810e-01  1.63018794e-07  1.82557365e-07  6.00000000e-02 
 7.00000000e-02  3.39070482e-09  4.58938828e-01  4.58938828e-01  3.60502592e-09  4.58938828e-01  4.58938828e-01  4.58938828e-01  1.63018818e-07  1.82557105e-07  7.00000000e-02 
 8.00000000e-02  3.39070482e-09  4.58938826e-01  4.58938826e-01  3.60502592e-09  4.58938827e-01  4.58938826e-01  4.58938826e-01  1.63018793e-07  1.82556746e-07  8.00000000e-02 
 9.00000000e-02  3.39070487e-09  4.58938826e-01  4.58938826e-01  3.60502592e-09  4.58938826e-01  4.58938826e-01  4.58938826e-01  1.63018804e-07  1.82556348e-07  9.00000000e-02 
 1.00000000e-01  3.39070486e-09  4.58938832e-01  4.58938832e-01  3.60502592e-09  4.58938832e-01  4.58938832e-01  4.58938832e-01  1.63018824e-07  1.82556106e-07  1.00000000e-01 
 1.10000000e-01  3.39070481e-09  4.58938839e-01  4.58938838e-01  3.60502592e-09  4.58938839e-01  4.58938839e-01  4.58938838e-01  1.63018825e-07  1.82555803e-07  1.10000000e-01 
 1.20000000e-01  3.39070482e-09  4.58938816e-01  4.58938816e-01  3.60502592e-09  4.58938816e-01  4.58938816e-01  4.58938816e-01  1.63018786e-07  1.82555435e-07  1.20000000e-01 
 1.30000000e-01  3.39070481e-09  4.58938806e-01  4.58938806e-01  3.60502592e-09  4.58938806e-01  4.58938806e-01  4.58938806e-01  1.63018798e-07  1.82555082e-07  1.30000000e-01 
 1.40000000e-01  3.39070482e-09  4.58938850e-01  4.58938850e-01  3.60502592e-09  4.58938850e-01  4.58938850e-01  4.58938850e-01  1.63018844e-07  1.82554849e-07  1.40000000e-01 
 1.50000000e-01  3.39070482e-09  4.58938836e-01  4.58938836e-01  3.60502592e-09  4.58938836e-01  4.58938836e-01  4.58938835e-01  1.63018839e-07  1.82554613e-07  1.50000000e-01 
 1.60000000e-01  3.39070487e-09  4.58938820e-01  4.58938820e-01  3.60502592e-09  4.58938820e-01  4.58938820e-01  4.58938820e-01  1.63018798e-07  1.82554164e-07  1.60000000e-01 
 1.70000000e-01  3.39070486e-09  4.58938801e-01  4.58938801e-01  3.60502592e-09  4.58938801e-01  4.58938801e-01  4.58938801e-01  1.63018779e-07  1.82553901e-07  1.70000000e-01 
 1.80000000e-01  3.39070481e-09  4.58938820e-01  4.58938820e-01  3.60502592e-09  4.58938820e-01  4.58938820e-01  4.58938820e-01  1.63018802e-07  1.82553746e-07  1.80000000e-01 
 1.90000000e-01  3.39070482e-09  4.58938837e-01  4.58938837e-01  3.60502592e-09  4.58938837e-01  4.58938837e-01  4.58938836e-01  1.63018823e-07  1.82553501e-07  1.90000000e-01 
 2.00000000e-01  3.39070487e-09  4.58938826e-01  4.58938826e-01  3.60502592e-09  4.58938826e-01  4.58938826e-01  4.58938825e-01  1.63018813e-07  1.82553329e-07  2.00000000e-01 
 2.10000000e-01  3.39070480e-09  4.58938800e-01  4.58938800e-01  3.60502592e-09  4.58938800e-01  4.58938800e-01  4.58938800e-01  1.63018767e-07  1.82552911e-07  2.10000000e-01 
 2.20000000e-01  3.39070482e-09  4.58938851e-01  4.58938851e-01  3.60502592e-09  4.58938851e-01  4.58938851e-01  4.58938850e-01  1.63018873e-07  1.82552814e-07  2.20000000e-01 
 2.30000000e-01  3.39070482e-09  4.58938848e-01  4.58938848e-01  3.60502592e-09  4.58938848e-01  4.58938848e-01  4.58938848e-01  1.63018861e-07  1.82552697e-07  2.30000000e-01 
 2.40000000e-01  3.39070482e-09  4.58938823e-01  4.58938823e-01  3.60502592e-09  4.58938823e-01  4.58938823e-01  4.58938823e-01  1.63018826e-07  1.82552263e-07  2.40000000e-01 
 2.50000000e-01  3.39070482e-09  4.58938835e-01  4.58938835e-01  3.60502592e-09  4.58938835e-01  4.58938835e-01  4.58938835e-01  1.63018827e-07  1.82552183e-07  2.50000000e-01 
 2.60000000e-01  3.39070481e-09  4.58938811e-01  4.58938811e-01  3.60502592e-09  4.58938811e-01  4.58938811e-01  4.58938811e-01  1.63018796e-07  1.82551849e-07  2.60000000e-01 
 2.70000000e-01  3.39070487e-09  4.58938822e-01  4.58938822e-01  3.60502592e-09  4.58938822e-01  4.58938822e-01  4.58938822e-01  1.63018810e-07  1.82551684e-07  2.70000000e-01 
 2.80000000e-01  3.39070486e-09  4.58938822e-01  4.58938822e-01  3.60502586e-09  4.58938822e-01  4.58938822e-01  4.58938822e-01  1.63018797e-07  1.82551544e-07  2.80000000e-01 
 2.90000000e-01  3.39070487e-09  4.58938819e-01  4.58938819e-01  3.60502587e-09  4.58938819e-01  4.58938819e-01  4.58938819e-01  1.63018807e-07  1.82551371e-07  2.90000000e-01 
 3.00000000e-01  3.39070487e-09  4.58938837e-01  4.58938837e-01  3.60502592e-09  4.58938837e-01  4.58938837e-01  4.58938836e-01  1.63018816e-07  1.82551275e-07  3.00000000e-01 
 3.10000000e-01  3.39070481e-09  4.58938801e-01  4.58938801e-01  3.60502591e-09  4.58938801e-01  4.58938801e-01  4.58938800e-01  1.63018782e-07  1.82550874e-07  3.10000000e-01 
 3.20000000e-01  3.39070488e-09  4.58938851e-01  4.58938851e-01  3.60502592e-09  4.58938851e-01  4.58938851e-01  4.58938851e-01  1.63018850e-07  1.82550909e-07  3.20000000e-01 
 3.30000000e-01  3.39070486e-09  4.58938825e-01  4.58938825e-01  3.60502592e-09  4.58938825e-01  4.58938825e-01  4.58938824e-01  1.63018824e-07  1.82550639e-07  3.30000000e-01 
 3.40000000e-01  3.39070487e-09  4.58938826e-01  4.58938826e-01  3.60502586e-09  4.58938826e-01  4.58938826e-01  4.58938826e-01  1.63018814e-07  1.82550430e-07  3.40000000e-01 
 3.50000000e-01  3.39070487e-09  4.58938808e-01  4.58938808e-01  3.60502587e-09  4.58938808e-01  4.58938808e-01  4.58938807e-01  1.63018773e-07  1.82550320e-07  3.50000000e-01 
 3.60000000e-01  3.39070481e-09  4.58938838e-01  4.58938838e-01  3.60502592e-09  4.58938838e-01  4.58938838e-01  4.58938838e-01  1.63018843e-07  1.82550107e-07  3.60000000e-01 
 3.70000000e-01  3.39070482e-09  4.58938830e-01  4.58938830e-01  3.60502591e-09  4.58938830e-01  4.58938830e-01  4.58938830e-01  1.63018837e-07  1.82549982e-07  3.70000000e-01 
 3.80000000e-01  3.39070482e-09  4.58938825e-01  4.58938825e-01  3.60502592e-09  4.58938825e-01  4.58938825e-01  4.58938824e-01  1.63018806e-07  1.82549773e-07  3.80000000e-01 
 3.90000000e-01  3.39070482e-09  4.58938826e-01  4.58938826e-01  3.60502592e-09  4.58938826e-01  4.58938826e-01  4.58938826e-01  1.63018811e-07  1.82549666e-07  3.90000000e-01 
 4.00000000e-01  3.39070487e-09  4.58938838e-01  4.58938838e-01  3.60502592e-09  4.58938838e-01  4.58938838e-01  4.58938838e-01  1.63018832e-07  1.82549616e-07  4.00000000e-01 
 4.10000000e-01  3.39070486e-09  4.58938824e-01  4.58938824e-01  3.60502592e-09  4.58938824e-01  4.58938824e-01  4.58938824e-01  1.63018811e-07  1.82549346e-07  4.10000000e-01 
 4.20000000e-01  3.39070487e-09  4.58938833e-01  4.58938833e-01  3.60502592e-09  4.58938833e-01  4.58938833e-01  4.58938833e-01  1.63018820e-07  1.82549215e-07  4.20000000e-01 
 4.30000000e-01  3.39070487e-09  4.58938822e-01  4.58938821e-01  3.60502592e-09  4.58938822e-01  4.58938822e-01  4.58938821e-01  1.63018803e-07  1.82549023e-07  4.30000000e-01 
 4.40000000e-01  3.39070481e-09  4.58938841e-01  4.58938841e-01  3.60502592e-09  4.58938841e-01  4.58938841e-01  4.58938841e-01  1.63018833e-07  1.82549019e-07  4.40000000e-01 
 4.50000000e-01  3.39070482e-09  4.58938832e-01  4.58938831e-01  3.60502592e-09  4.58938832e-01  4.58938831e-01  4.58938831e-01  1.63018847e-07  1.82548735e-07  4.50000000e-01 
 4.60000000e-01  3.39070487e-09  4.58938835e-01  4.58938835e-01  3.60502592e-09  4.58938835e-01  4.58938835e-01  4.58938834e-01  1.63018823e-07  1.82548519e-07  4.60000000e-01 
 4.70000000e-01  3.39070480e-09  4.58938823e-01  4.58938823e-01  3.60502592e-09  4.58938823e-01  4.58938823e-01  4.58938822e-01  1.63018803e-07  1.82548302e-07  4.70000000e-01 
 4.80000000e-01  3.39070482e-09  4.58938825e-01  4.58938825e-01  3.60502586e-09  4.58938825e-01  4.58938825e-01  4.58938824e-01  1.63018810e-07  1.82548359e-07  4.80000000e-01 
 4.90000000e-01  3.39070487e-09  4.58938803e-01  4.58938803e-01  3.60502587e-09  4.58938803e-01  4.58938803e-01  4.58938803e-01  1.63018781e-07  1.82547833e-07  4.90000000e-01 
 5.00000000e-01  3.39070486e-09  4.58938836e-01  4.58938836e-01  3.60502592e-09  4.58938836e-01  4.58938836e-01  4.58938835e-01  1.63018818e-07  1.82547996e-07  5.00000000e-01 
 5.10000000e-01  3.39070481e-09  4.58938819e-01  4.58938819e-01  3.60502591e-09  4.58938819e-01  4.58938819e-01  4.58938819e-01  1.63018809e-07  1.82547751e-07  5.10000000e-01 
 5.20000000e-01  3.39070482e-09  4.58938830e-01  4.58938830e-01  3.60502592e-09  4.58938830e-01  4.58938830e-01  4.58938830e-01  1.63018817e-07  1.82547701e-07  5.20000000e-01 
 5.30000000e-01  3.39070482e-09  4.58938840e-01  4.58938840e-01  3.60502592e-09  4.58938840e-01  4.58938840e-01  4.58938839e-01  1.63018822e-07  1.82547495e-07  5.30000000e-01 
 5.40000000e-01  3.39070487e-09  4.58938846e-01  4.58938846e-01  3.60502592e-09  4.58938846e-01  4.58938846e-01  4.58938846e-01  1.63018833e-07  1.82547449e-07  5.40000000e-01 
 5.50000000e-01  3.39070486e-09  4.58938853e-01  4.58938852e-01  3.60502592e-09  4.58938853e-01  4.58938853e-01  4.58938852e-01  1.63018862e-07  1.82547229e-07  5.50000000e-01 
 5.60000000e-01  3.39070481e-09  4.58938823e-01  4.58938823e-01  3.60502592e-09  4.58938823e-01  4.58938823e-01  4.58938823e-01  1.63018832e-07  1.82547051e-07  5.60000000e-01 
 5.70000000e-01  3.39070488e-09  4.58938800e-01  4.58938800e-01  3.60502592e-09  4.58938800e-01  4.58938800e-01  4.58938800e-01  1.63018777e-07  1.82546739e-07  5.70000000e-01 
 5.80000000e-01  3.39070480e-09  4.58938823e-01  4.58938823e-01  3.60502592e-09  4.58938823e-01  4.58938823e-01  4.58938822e-01  1.63018794e-07  1.82546749e-07  5.80000000e-01 
 5.90000000e-01  3.39070482e-09  4.58938829e-01  4.58938829e-01  3.60502592e-09  4.58938829e-01  4.58938829e-01  4.58938829e-01  1.63018818e-07  1.82546721e-07  5.90000000e-01 
 6.00000000e-01  3.39070487e-09  4.58938817e-01  4.58938817e-01  3.60502586e-09  4.58938817e-01  4.58938817e-01  4.58938817e-01  1.63018795e-07  1.82546394e-07  6.00000000e-01 
 6.10000000e-01  3.39070486e-09  4.58938857e-01  4.58938857e-01  3.60502593e-09  4.58938857e-01  4.58938857e-01  4.58938857e-01  1.63018846e-07  1.82546444e-07  6.10000000e-01 
 6.20000000e-01  3.39070481e-09  4.58938833e-01  4.58938833e-01  3.60502591e-09  4.58938833e-01  4.58938833e-01  4.58938832e-01  1.63018827e-07  1.82546216e-07  6.20000000e-01 
 6.30000000e-01  3.39070482e-09  4.58938822e-01  4.58938822e-01  3.60502592e-09  4.58938822e-01  4.58938822e-01  4.58938822e-01  1.63018819e-07  1.82546067e-07  6.30000000e-01 
 6.40000000e-01  3.39070487e-09  4.58938838e-01  4.58938838e-01  3.60502592e-09  4.58938838e-01  4.58938838e-01  4.58938837e-01  1.63018817e-07  1.82545975e-07  6.40000000e-01 
 6.50000000e-01  3.39070486e-09  4.58938839e-01  4.58938839e-01  3.60502592e-09  4.58938839e-01  4.58938839e-01  4.58938839e-01  1.63018831e-07  1.82545790e-07  6.50000000e-01 
 6.60000000e-01  3.39070481e-09  4.58938849e-01  4.58938848e-01  3.60502586e-09  4.58938849e-01  4.58938849e-01  4.58938848e-01  1.63018840e-07  1.82545655e-07  6.60000000e-01 
 6.70000000e-01  3.39070488e-09  4.58938844e-01  4.58938844e-01  3.60502593e-09  4.58938844e-01  4.58938844e-01  4.58938844e-01  1.63018840e-07  1.82545449e-07  6.70000000e-01 
 6.80000000e-01  3.39070480e-09  4.58938819e-01  4.58938819e-01  3.60502591e-09  4.58938819e-01  4.58938819e-01  4.58938819e-01  1.63018794e-07  1.82545151e-07  6.80000000e-01 
 6.90000000e-01  3.39070482e-09  4.58938840e-01  4.58938840e-01  3.60502592e-09  4.58938840e-01  4.58938840e-01  4.58938839e-01  1.63018832e-07  1.82545186e-07  6.90000000e-01 
 7.00000000e-01  3.39070487e-09  4.58938818e-01  4.58938818e-01  3.60502592e-09  4.58938819e-01  4.58938818e-01  4.58938818e-01  1.63018813e-07  1.82544873e-07  7.00000000e-01 
 7.10000000e-01  3.39070486e-09  4.58938838e-01  4.58938838e-01  3.60502592e-09  4.58938838e-01  4.58938838e-01  4.58938838e-01  1.63018834e-07  1.82544866e-07  7.10000000e-01 
 7.20000000e-01  3.39070487e-09  4.58938849e-01  4.58938849e-01  3.60502592e-09  4.58938849e-01  4.58938849e-01  4.58938848e-01  1.63018843e-07  1.82544852e-07  7.20000000e-01 
 7.30000000e-01  3.39070487e-09  4.58938834e-01  4.58938834e-01  3.60502592e-09  4.58938834e-01  4.58938834e-01  4.58938834e-01  1.63018833e-07  1.82544476e-07  7.30000000e-01 
 7.40000000e-01  3.39070481e-09  4.58938830e-01  4.58938829e-01  3.60502592e-09  4.58938830e-01  4.58938829e-01  4.58938829e-01  1.63018828e-07  1.82544362e-07  7.40000000e-01 
 7.50000000e-01  3.39070482e-09  4.58938827e-01  4.58938827e-01  3.60502592e-09  4.58938827e-01  4.58938827e-01  4.58938827e-01  1.63018810e-07  1.82544262e-07  7.50000000e-01 
 7.60000000e-01  3.39070482e-09  4.58938822e-01  4.58938822e-01  3.60502592e-09  4.58938822e-01  4.58938822e-01  4.58938822e-01  1.63018802e-07  1.82543964e-07  7.60000000e-01 
 7.70000000e-01  3.39070487e-09  4.58938828e-01  4.58938828e-01  3.60502592e-09  4.58938829e-01  4.58938828e-01  4.58938828e-01  1.63018814e-07  1.82543843e-07  7.70000000e-01 
 7.80000000e-01  3.39070481e-09  4.58938845e-01  4.58938845e-01  3.60502592e-09  4.58938845e-01  4.58938845e-01  4.58938845e-01  1.63018836e-07  1.82543666e-07  7.80000000e-01 
 7.90000000e-01  3.39070482e-09  4.58938814e-01  4.58938814e-01  3.60502592e-09  4.58938814e-01  4.58938814e-01  4.58938814e-01  1.63018808e-07  1.82543481e-07  7.90000000e-01 
 8.00000000e-01  3.39070487e-09  4.58938834e-01  4.58938834e-01  3.60502592e-09  4.58938834e-01  4.58938834e-01  4.58938834e-01  1.63018822e-07  1.82543289e-07  8.00000000e-01 
 8.10000000e-01  3.39070480e-09  4.58938823e-01  4.58938823e-01  3.60502592e-09  4.58938823e-01  4.58938823e-01  4.58938823e-01  1.63018815e-07  1.82543154e-07  8.10000000e-01 
 8.20000000e-01  3.39070482e-09  4.58938841e-01  4.58938841e-01  3.60502586e-09  4.58938841e-01  4.58938841e-01  4.58938840e-01  1.63018840e-07  1.82543054e-07  8.20000000e-01 
 8.30000000e-01  3.39070482e-09  4.58938824e-01  4.58938824e-01  3.60502593e-09  4.58938824e-01  4.58938824e-01  4.58938824e-01  1.63018822e-07  1.82542827e-07  8.30000000e-01 
 8.40000000e-01  3.39070482e-09  4.58938843e-01  4.58938843e-01  3.60502591e-09  4.58938843e-01  4.58938843e-01  4.58938843e-01  1.63018837e-07  1.82542834e-07  8.40000000e-01 
 8.50000000e-01  3.39070487e-09  4.58938827e-01  4.58938827e-01  3.60502592e-09  4.58938828e-01  4.58938827e-01  4.58938827e-01  1.63018819e-07  1.82542557e-07  8.50000000e-01 
 8.60000000e-01  3.39070486e-09  4.58938849e-01  4.58938849e-01  3.60502592e-09  4.58938849e-01  4.58938849e-01  4.58938848e-01  1.63018850e-07  1.82542486e-07  8.60000000e-01 
 8.70000000e-01  3.39070487e-09  4.58938843e-01  4.58938843e-01  3.60502592e-09  4.58938843e-01  4.58938843e-01  4.58938842e-01  1.63018841e-07  1.82542209e-07  8.70000000e-01 
 8.80000000e-01  3.39070481e-09  4.58938824e-01  4.58938824e-01  3.60502592e-09  4.58938824e-01  4.58938824e-01  4.58938823e-01  1.63018813e-07  1.82542024e-07  8.80000000e-01 
 8.90000000e-01  3.39070482e-09  4.58938809e-01  4.58938809e-01  3.60502592e-09  4.58938809e-01  4.58938809e-01  4.58938809e-01  1.63018791e-07  1.82541839e-07  8.90000000e-01 
 9.00000000e-01  3.39070481e-09  4.58938812e-01  4.58938812e-01  3.60502592e-09  4.58938812e-01  4.58938812e-01  4.58938811e-01  1.63018792e-07  1.82541662e-07  9.00000000e-01 
 9.10000000e-01  3.39070482e-09  4.58938821e-01  4.58938821e-01  3.60502586e-09  4.58938821e-01  4.58938821e-01  4.58938821e-01  1.63018801e-07  1.82541491e-07  9.10000000e-01 
 9.20000000e-01  3.39070482e-09  4.58938838e-01  4.58938838e-01  3.60502593e-09  4.58938838e-01  4.58938838e-01  4.58938838e-01  1.63018826e-07  1.82541406e-07  9.20000000e-01 
 9.30000000e-01  3.39070482e-09  4.58938837e-01  4.58938837e-01  3.60502591e-09  4.58938837e-01  4.58938837e-01  4.58938837e-01  1.63018829e-07  1.82541271e-07  9.30000000e-01 
 9.40000000e-01  3.39070482e-09  4.58938830e-01  4.58938830e-01  3.60502592e-09  4.58938830e-01  4.58938830e-01  4.58938830e-01  1.63018811e-07  1.82541022e-07  9.40000000e-01 
 9.50000000e-01  3.39070482e-09  4.58938816e-01  4.58938816e-01  3.60502592e-09  4.58938816e-01  4.58938816e-01  4.58938815e-01  1.63018780e-07  1.82540767e-07  9.50000000e-01 
 9.60000000e-01  3.39070482e-09  4.58938849e-01  4.58938849e-01  3.60502592e-09  4.58938849e-01  4.58938849e-01  4.58938848e-01  1.63018846e-07  1.82540745e-07  9.60000000e-01 
 9.70000000e-01  3.39070487e-09  4.58938829e-01  4.58938829e-01  3.60502592e-09  4.58938829e-01  4.58938829e-01  4.58938829e-01  1.63018831e-07  1.82540532e-07  9.70000000e-01 
 9.80000000e-01  3.39070480e-09  4.58938837e-01  4.58938837e-01  3.60502592e-09  4.58938837e-01  4.58938837e-01  4.58938837e-01  1.63018836e-07  1.82540262e-07  9.80000000e-01 
 9.90000000e-01  3.39070482e-09  4.58938848e-01  4.58938848e-01  3.60502586e-09  4.58938848e-01  4.58938848e-01  4.58938848e-01  1.63018840e-07  1.82540298e-07  9.90000000e-01 
 1.00000000e+00  3.39070487e-09  4.58938832e-01  4.58938832e-01  3.60502587e-09  4.58938832e-01  4.58938832e-01  4.58938832e-01  1.63018820e-07  1.82539949e-07  1.00000000e+00 
 1.01000000e+00  3.39070486e-09  4.58938804e-01  4.58938804e-01  3.60502592e-09  4.58938804e-01  4.58938804e-01  4.58938804e-01  1.63018777e-07  1.82539715e-07  1.01000000e+00 
 1.02000000e+00  3.39070481e-09  4.58938823e-01  4.58938823e-01  3.60502591e-09  4.58938823e-01  4.58938823e-01  4.58938823e-01  1.63018812e-07  1.82539566e-07  1.02000000e+00 
 1.03000000e+00  3.39070482e-09  4.58938820e-01  4.58938820e-01  3.60502592e-09  4.58938820e-01  4.58938820e-01  4.58938819e-01  1.63018807e-07  1.82539310e-07  1.03000000e+00 
 1.04000000e+00  3.39070487e-09  4.58938821e-01  4.58938821e-01  3.60502592e-09  4.58938821e-01  4.58938821e-01  4.58938821e-01  1.63018796e-07  1.82539154e-07  1.04000000e+00 
 1.05000000e+00  3.39070486e-09  4.58938857e-01  4.58938857e-01  3.60502592e-09  4.58938857e-01  4.58938857e-01  4.58938857e-01  1.63018857e-07  1.82539040e-07  1.05000000e+00 
 1.06000000e+00  3.39070487e-09  4.58938855e-01  4.58938855e-01  3.60502592e-09  4.58938855e-01  4.58938855e-01  4.58938855e-01  1.63018865e-07  1.82538884e-07  1.06000000e+00 
 1.07000000e+00  3.39070487e-09  4.58938833e-01  4.58938833e-01  3.60502592e-09  4.58938833e-01  4.58938833e-01  4.58938833e-01  1.63018843e-07  1.82538621e-07  1.07000000e+00 
 1.08000000e+00  3.39070481e-09  4.58938832e-01  4.58938832e-01  3.60502592e-09  4.58938832e-01  4.58938832e-01  4.58938832e-01  1.63018828e-07  1.82538216e-07  1.08000000e+00 
 1.09000000e+00  3.39070482e-09  4.58938829e-01  4.58938829e-01  3.60502592e-09  4.58938829e-01  4.58938829e-01  4.58938829e-01  1.63018819e-07  1.82538137e-07  1.09000000e+00 
 1.10000000e+00  3.39070482e-09  4.58938825e-01  4.58938825e-01  3.60502592e-09  4.58938825e-01  4.58938825e-01  4.58938825e-01  1.63018812e-07  1.82537981e-07  1.10000000e+00 
