 v-sweep         v(b0)           v(b1)           v(b2)           v(b3)           v(b4)           v(b5)           v(b6)           i(vbias)        i(viout)        v(vout)        
 0.00000000e+00  4.57663955e-01  4.57663955e-01  3.43340420e-09  3.16045180e-09  4.57663955e-01  4.57663955e-01  4.57663955e-01  1.56914014e-07  1.66230039e-07  0.00000000e+00 
 1.00000000e-02  4.57663947e-01  4.57663947e-01  3.43340424e-09  3.16045185e-09  4.57663947e-01  4.57663947e-01  4.57663947e-01  1.56914017e-07  1.66229489e-07  1.00000000e-02 
 2.00000000e-02  4.57663935e-01  4.57663935e-01  3.43340423e-09  3.16045178e-09  4.57663935e-01  4.57663935e-01  4.57663935e-01  1.56913989e-07  1.66229018e-07  2.00000000e-02 
 3.00000000e-02  4.57663962e-01  4.57663962e-01  3.43340424e-09  3.16045180e-09  4.57663962e-01  4.57663962e-01  4.57663962e-01  1.56914034e-07  1.66228712e-07  3.00000000e-02 
 4.00000000e-02  4.57663970e-01  4.57663970e-01  3.43340424e-09  3.16045185e-09  4.57663970e-01  4.57663970e-01  4.57663970e-01  1.56914052e-07  1.66228398e-07  4.00000000e-02 
 5.00000000e-02  4.57663953e-01  4.57663953e-01  3.43340424e-09  3.16045184e-09  4.57663953e-01  4.57663953e-01  4.57663953e-01  1.56914009e-07  1.66227886e-07  5.00000000e-02 
 6.00000000e-02  4.57663946e-01  4.57663946e-01  3.43340424e-09  3.16045180e-09  4.57663946e-01  4.57663946e-01  4.57663946e-01  1.56913999e-07  1.66227467e-07  6.00000000e-02 
 7.00000000e-02  4.57663951e-01  4.57663951e-01  3.43340424e-09  3.16045179e-09  4.57663952e-01  4.57663951e-01  4.57663951e-01  1.56914019e-07  1.66227244e-07  7.00000000e-02 
 8.00000000e-02  4.57663929e-01  4.57663929e-01  3.43340423e-09  3.16045179e-09  4.57663930e-01  4.57663929e-01  4.57663929e-01  1.56913979e-07  1.66226855e-07  8.00000000e-02 
 9.00000000e-02  4.57663946e-01  4.57663946e-01  3.43340424e-09  3.16045185e-09  4.57663946e-01  4.57663946e-01  4.57663946e-01  1.56914005e-07  1.66226398e-07  9.00000000e-02 
 1.00000000e-01  4.57663949e-01  4.57663949e-01  3.43340424e-09  3.16045178e-09  4.57663949e-01  4.57663949e-01  4.57663949e-01  1.56914010e-07  1.66226153e-07  1.00000000e-01 
 1.10000000e-01  4.57663947e-01  4.57663947e-01  3.43340424e-09  3.16045180e-09  4.57663947e-01  4.57663947e-01  4.57663947e-01  1.56914013e-07  1.66225913e-07  1.10000000e-01 
 1.20000000e-01  4.57663973e-01  4.57663973e-01  3.43340424e-09  3.16045179e-09  4.57663974e-01  4.57663973e-01  4.57663973e-01  1.56914048e-07  1.66225731e-07  1.20000000e-01 
 1.30000000e-01  4.57663941e-01  4.57663941e-01  3.43340424e-09  3.16045179e-09  4.57663941e-01  4.57663941e-01  4.57663941e-01  1.56913995e-07  1.66225176e-07  1.30000000e-01 
 1.40000000e-01  4.57663958e-01  4.57663958e-01  3.43340424e-09  3.16045179e-09  4.57663958e-01  4.57663958e-01  4.57663958e-01  1.56914029e-07  1.66225036e-07  1.40000000e-01 
 1.50000000e-01  4.57663921e-01  4.57663921e-01  3.43340423e-09  3.16045179e-09  4.57663921e-01  4.57663921e-01  4.57663921e-01  1.56913966e-07  1.66224748e-07  1.50000000e-01 
 1.60000000e-01  4.57663927e-01  4.57663927e-01  3.43340423e-09  3.16045179e-09  4.57663927e-01  4.57663927e-01  4.57663927e-01  1.56913973e-07  1.66224417e-07  1.60000000e-01 
 1.70000000e-01  4.57663963e-01  4.57663963e-01  3.43340424e-09  3.16045179e-09  4.57663963e-01  4.57663963e-01  4.57663963e-01  1.56914029e-07  1.66224403e-07  1.70000000e-01 
 1.80000000e-01  4.57663939e-01  4.57663939e-01  3.43340424e-09  3.16045179e-09  4.57663940e-01  4.57663939e-01  4.57663939e-01  1.56913995e-07  1.66224014e-07  1.80000000e-01 
 1.90000000e-01  4.57663939e-01  4.57663939e-01  3.43340424e-09  3.16045185e-09  4.57663939e-01  4.57663939e-01  4.57663939e-01  1.56914005e-07  1.66223789e-07  1.90000000e-01 
 2.00000000e-01  4.57663956e-01  4.57663956e-01  3.43340424e-09  3.16045178e-09  4.57663956e-01  4.57663956e-01  4.57663956e-01  1.56914010e-07  1.66223645e-07  2.00000000e-01 
 2.10000000e-01  4.57663959e-01  4.57663959e-01  3.43340424e-09  3.16045180e-09  4.57663960e-01  4.57663959e-01  4.57663959e-01  1.56914038e-07  1.66223415e-07  2.10000000e-01 
 2.20000000e-01  4.57663943e-01  4.57663943e-01  3.43340424e-09  3.16045179e-09  4.57663943e-01  4.57663943e-01  4.57663943e-01  1.56913996e-07  1.66223277e-07  2.20000000e-01 
 2.30000000e-01  4.57663932e-01  4.57663932e-01  3.43340423e-09  3.16045179e-09  4.57663932e-01  4.57663932e-01  4.57663932e-01  1.56913979e-07  1.66223003e-07  2.30000000e-01 
 2.40000000e-01  4.57663951e-01  4.57663951e-01  3.43340424e-09  3.16045179e-09  4.57663951e-01  4.57663951e-01  4.57663951e-01  1.56913993e-07  1.66222884e-07  2.40000000e-01 
 2.50000000e-01  4.57663941e-01  4.57663941e-01  3.43340424e-09  3.16045185e-09  4.57663941e-01  4.57663941e-01  4.57663941e-01  1.56914008e-07  1.66222629e-07  2.50000000e-01 
 2.60000000e-01  4.57663966e-01  4.57663966e-01  3.43340424e-09  3.16045178e-09  4.57663966e-01  4.57663966e-01  4.57663966e-01  1.56914039e-07  1.66222540e-07  2.60000000e-01 
 2.70000000e-01  4.57663960e-01  4.57663960e-01  3.43340424e-09  3.16045180e-09  4.57663960e-01  4.57663960e-01  4.57663960e-01  1.56914041e-07  1.66222360e-07  2.70000000e-01 
 2.80000000e-01  4.57663953e-01  4.57663953e-01  3.43340424e-09  3.16045179e-09  4.57663953e-01  4.57663953e-01  4.57663953e-01  1.56914019e-07  1.66222121e-07  2.80000000e-01 
 2.90000000e-01  4.57663941e-01  4.57663941e-01  3.43340424e-09  3.16045179e-09  4.57663942e-01  4.57663941e-01  4.57663941e-01  1.56914018e-07  1.66221849e-07  2.90000000e-01 
 3.00000000e-01  4.57663947e-01  4.57663947e-01  3.43340424e-09  3.16045179e-09  4.57663947e-01  4.57663947e-01  4.57663947e-01  1.56914006e-07  1.66221774e-07  3.00000000e-01 
 3.10000000e-01  4.57663952e-01  4.57663952e-01  3.43340424e-09  3.16045179e-09  4.57663952e-01  4.57663952e-01  4.57663952e-01  1.56914016e-07  1.66221572e-07  3.10000000e-01 
 3.20000000e-01  4.57663985e-01  4.57663985e-01  3.43340424e-09  3.16045179e-09  4.57663985e-01  4.57663985e-01  4.57663985e-01  1.56914068e-07  1.66221575e-07  3.20000000e-01 
 3.30000000e-01  4.57663951e-01  4.57663951e-01  3.43340429e-09  3.16045179e-09  4.57663951e-01  4.57663951e-01  4.57663951e-01  1.56914029e-07  1.66221270e-07  3.30000000e-01 
 3.40000000e-01  4.57663933e-01  4.57663933e-01  3.43340423e-09  3.16045179e-09  4.57663933e-01  4.57663933e-01  4.57663933e-01  1.56913984e-07  1.66221081e-07  3.40000000e-01 
 3.50000000e-01  4.57663938e-01  4.57663938e-01  3.43340424e-09  3.16045179e-09  4.57663939e-01  4.57663938e-01  4.57663938e-01  1.56913992e-07  1.66220932e-07  3.50000000e-01 
 3.60000000e-01  4.57663951e-01  4.57663951e-01  3.43340424e-09  3.16045179e-09  4.57663951e-01  4.57663951e-01  4.57663951e-01  1.56914000e-07  1.66220822e-07  3.60000000e-01 
 3.70000000e-01  4.57663946e-01  4.57663946e-01  3.43340424e-09  3.16045179e-09  4.57663946e-01  4.57663946e-01  4.57663946e-01  1.56914007e-07  1.66220556e-07  3.70000000e-01 
 3.80000000e-01  4.57663940e-01  4.57663940e-01  3.43340424e-09  3.16045179e-09  4.57663941e-01  4.57663940e-01  4.57663940e-01  1.56914003e-07  1.66220449e-07  3.80000000e-01 
 3.90000000e-01  4.57663954e-01  4.57663954e-01  3.43340424e-09  3.16045179e-09  4.57663954e-01  4.57663954e-01  4.57663954e-01  1.56914019e-07  1.66220438e-07  3.90000000e-01 
 4.00000000e-01  4.57663942e-01  4.57663942e-01  3.43340424e-09  3.16045179e-09  4.57663942e-01  4.57663942e-01  4.57663942e-01  1.56914003e-07  1.66220264e-07  4.00000000e-01 
 4.10000000e-01  4.57663962e-01  4.57663962e-01  3.43340424e-09  3.16045179e-09  4.57663962e-01  4.57663962e-01  4.57663962e-01  1.56914035e-07  1.66220179e-07  4.10000000e-01 
 4.20000000e-01  4.57663942e-01  4.57663943e-01  3.43340424e-09  3.16045179e-09  4.57663943e-01  4.57663942e-01  4.57663943e-01  1.56914004e-07  1.66219952e-07  4.20000000e-01 
 4.30000000e-01  4.57663958e-01  4.57663958e-01  3.43340424e-09  3.16045179e-09  4.57663958e-01  4.57663958e-01  4.57663958e-01  1.56914017e-07  1.66219881e-07  4.30000000e-01 
 4.40000000e-01  4.57663975e-01  4.57663975e-01  3.43340424e-09  3.16045179e-09  4.57663975e-01  4.57663975e-01  4.57663975e-01  1.56914039e-07  1.66219884e-07  4.40000000e-01 
 4.50000000e-01  4.57663949e-01  4.57663949e-01  3.43340424e-09  3.16045179e-09  4.57663949e-01  4.57663949e-01  4.57663949e-01  1.56914014e-07  1.66219575e-07  4.50000000e-01 
 4.60000000e-01  4.57663960e-01  4.57663960e-01  3.43340424e-09  3.16045179e-09  4.57663960e-01  4.57663960e-01  4.57663960e-01  1.56914023e-07  1.66219536e-07  4.60000000e-01 
 4.70000000e-01  4.57663933e-01  4.57663933e-01  3.43340423e-09  3.16045179e-09  4.57663933e-01  4.57663933e-01  4.57663933e-01  1.56913983e-07  1.66219245e-07  4.70000000e-01 
 4.80000000e-01  4.57663935e-01  4.57663935e-01  3.43340423e-09  3.16045179e-09  4.57663935e-01  4.57663935e-01  4.57663935e-01  1.56914006e-07  1.66219152e-07  4.80000000e-01 
 4.90000000e-01  4.57663964e-01  4.57663964e-01  3.43340424e-09  3.16045179e-09  4.57663964e-01  4.57663964e-01  4.57663964e-01  1.56914021e-07  1.66219177e-07  4.90000000e-01 
 5.00000000e-01  4.57663977e-01  4.57663977e-01  3.43340424e-09  3.16045179e-09  4.57663977e-01  4.57663977e-01  4.57663977e-01  1.56914045e-07  1.66219117e-07  5.00000000e-01 
 5.10000000e-01  4.57663974e-01  4.57663974e-01  3.43340424e-09  3.16045179e-09  4.57663975e-01  4.57663974e-01  4.57663974e-01  1.56914050e-07  1.66218936e-07  5.10000000e-01 
 5.20000000e-01  4.57663951e-01  4.57663951e-01  3.43340424e-09  3.16045179e-09  4.57663951e-01  4.57663951e-01  4.57663951e-01  1.56914010e-07  1.66218701e-07  5.20000000e-01 
 5.30000000e-01  4.57663962e-01  4.57663962e-01  3.43340424e-09  3.16045179e-09  4.57663962e-01  4.57663962e-01  4.57663962e-01  1.56914030e-07  1.66218570e-07  5.30000000e-01 
 5.40000000e-01  4.57663958e-01  4.57663958e-01  3.43340424e-09  3.16045179e-09  4.57663959e-01  4.57663958e-01  4.57663958e-01  1.56914024e-07  1.66218506e-07  5.40000000e-01 
 5.50000000e-01  4.57663949e-01  4.57663949e-01  3.43340424e-09  3.16045179e-09  4.57663949e-01  4.57663949e-01  4.57663949e-01  1.56914010e-07  1.66218371e-07  5.50000000e-01 
 5.60000000e-01  4.57663952e-01  4.57663952e-01  3.43340424e-09  3.16045179e-09  4.57663952e-01  4.57663952e-01  4.57663952e-01  1.56914019e-07  1.66218381e-07  5.60000000e-01 
 5.70000000e-01  4.57663958e-01  4.57663958e-01  3.43340424e-09  3.16045179e-09  4.57663958e-01  4.57663958e-01  4.57663958e-01  1.56914021e-07  1.66218086e-07  5.70000000e-01 
 5.80000000e-01  4.57663955e-01  4.57663955e-01  3.43340424e-09  3.16045179e-09  4.57663956e-01  4.57663955e-01  4.57663955e-01  1.56914025e-07  1.66218058e-07  5.80000000e-01 
 5.90000000e-01  4.57663954e-01  4.57663954e-01  3.43340424e-09  3.16045185e-09  4.57663954e-01  4.57663954e-01  4.57663954e-01  1.56914016e-07  1.66217980e-07  5.90000000e-01 
 6.00000000e-01  4.57663948e-01  4.57663948e-01  3.43340424e-09  3.16045178e-09  4.57663948e-01  4.57663948e-01  4.57663948e-01  1.56914010e-07  1.66217752e-07  6.00000000e-01 
 6.10000000e-01  4.57663948e-01  4.57663948e-01  3.43340424e-09  3.16045180e-09  4.57663948e-01  4.57663948e-01  4.57663948e-01  1.56914000e-07  1.66217689e-07  6.10000000e-01 
 6.20000000e-01  4.57663946e-01  4.57663946e-01  3.43340424e-09  3.16045185e-09  4.57663946e-01  4.57663946e-01  4.57663946e-01  1.56914002e-07  1.66217518e-07  6.20000000e-01 
 6.30000000e-01  4.57663960e-01  4.57663960e-01  3.43340424e-09  3.16045178e-09  4.57663961e-01  4.57663960e-01  4.57663960e-01  1.56914034e-07  1.66217454e-07  6.30000000e-01 
 6.40000000e-01  4.57663936e-01  4.57663936e-01  3.43340423e-09  3.16045180e-09  4.57663936e-01  4.57663936e-01  4.57663936e-01  1.56913992e-07  1.66217241e-07  6.40000000e-01 
 6.50000000e-01  4.57663952e-01  4.57663952e-01  3.43340424e-09  3.16045179e-09  4.57663952e-01  4.57663952e-01  4.57663952e-01  1.56914011e-07  1.66217234e-07  6.50000000e-01 
 6.60000000e-01  4.57663961e-01  4.57663961e-01  3.43340424e-09  3.16045179e-09  4.57663961e-01  4.57663961e-01  4.57663961e-01  1.56914030e-07  1.66217006e-07  6.60000000e-01 
 6.70000000e-01  4.57663936e-01  4.57663936e-01  3.43340423e-09  3.16045179e-09  4.57663936e-01  4.57663936e-01  4.57663936e-01  1.56913992e-07  1.66216815e-07  6.70000000e-01 
 6.80000000e-01  4.57663944e-01  4.57663944e-01  3.43340424e-09  3.16045179e-09  4.57663944e-01  4.57663944e-01  4.57663944e-01  1.56914018e-07  1.66216722e-07  6.80000000e-01 
 6.90000000e-01  4.57663952e-01  4.57663952e-01  3.43340424e-09  3.16045179e-09  4.57663952e-01  4.57663952e-01  4.57663952e-01  1.56914003e-07  1.66216708e-07  6.90000000e-01 
 7.00000000e-01  4.57663936e-01  4.57663936e-01  3.43340423e-09  3.16045179e-09  4.57663936e-01  4.57663936e-01  4.57663936e-01  1.56913987e-07  1.66216374e-07  7.00000000e-01 
 7.10000000e-01  4.57663941e-01  4.57663941e-01  3.43340424e-09  3.16045179e-09  4.57663941e-01  4.57663941e-01  4.57663941e-01  1.56914000e-07  1.66216296e-07  7.10000000e-01 
 7.20000000e-01  4.57663951e-01  4.57663951e-01  3.43340424e-09  3.16045185e-09  4.57663951e-01  4.57663951e-01  4.57663951e-01  1.56914017e-07  1.66216196e-07  7.20000000e-01 
 7.30000000e-01  4.57663952e-01  4.57663952e-01  3.43340424e-09  3.16045184e-09  4.57663952e-01  4.57663952e-01  4.57663952e-01  1.56914027e-07  1.66216097e-07  7.30000000e-01 
 7.40000000e-01  4.57663951e-01  4.57663951e-01  3.43340424e-09  3.16045185e-09  4.57663951e-01  4.57663951e-01  4.57663951e-01  1.56914016e-07  1.66216068e-07  7.40000000e-01 
 7.50000000e-01  4.57663940e-01  4.57663940e-01  3.43340424e-09  3.16045178e-09  4.57663940e-01  4.57663940e-01  4.57663940e-01  1.56914019e-07  1.66215848e-07  7.50000000e-01 
 7.60000000e-01  4.57663945e-01  4.57663945e-01  3.43340424e-09  3.16045180e-09  4.57663946e-01  4.57663945e-01  4.57663945e-01  1.56914004e-07  1.66215777e-07  7.60000000e-01 
 7.70000000e-01  4.57663942e-01  4.57663942e-01  3.43340424e-09  3.16045185e-09  4.57663942e-01  4.57663942e-01  4.57663942e-01  1.56914012e-07  1.66215628e-07  7.70000000e-01 
 7.80000000e-01  4.57663957e-01  4.57663957e-01  3.43340424e-09  3.16045178e-09  4.57663957e-01  4.57663957e-01  4.57663957e-01  1.56914017e-07  1.66215550e-07  7.80000000e-01 
 7.90000000e-01  4.57663954e-01  4.57663954e-01  3.43340424e-09  3.16045180e-09  4.57663954e-01  4.57663954e-01  4.57663954e-01  1.56914029e-07  1.66215401e-07  7.90000000e-01 
 8.00000000e-01  4.57663951e-01  4.57663951e-01  3.43340424e-09  3.16045185e-09  4.57663951e-01  4.57663951e-01  4.57663951e-01  1.56914025e-07  1.66215138e-07  8.00000000e-01 
 8.10000000e-01  4.57663966e-01  4.57663966e-01  3.43340424e-09  3.16045178e-09  4.57663966e-01  4.57663966e-01  4.57663966e-01  1.56914026e-07  1.66215131e-07  8.10000000e-01 
 8.20000000e-01  4.57663935e-01  4.57663935e-01  3.43340423e-09  3.16045185e-09  4.57663936e-01  4.57663935e-01  4.57663935e-01  1.56913982e-07  1.66214910e-07  8.20000000e-01 
 8.30000000e-01  4.57663953e-01  4.57663953e-01  3.43340424e-09  3.16045178e-09  4.57663954e-01  4.57663953e-01  4.57663953e-01  1.56914026e-07  1.66214711e-07  8.30000000e-01 
 8.40000000e-01  4.57663956e-01  4.57663956e-01  3.43340424e-09  3.16045185e-09  4.57663956e-01  4.57663956e-01  4.57663956e-01  1.56914040e-07  1.66214782e-07  8.40000000e-01 
 8.50000000e-01  4.57663948e-01  4.57663948e-01  3.43340424e-09  3.16045184e-09  4.57663948e-01  4.57663948e-01  4.57663948e-01  1.56914019e-07  1.66214647e-07  8.50000000e-01 
 8.60000000e-01  4.57663959e-01  4.57663959e-01  3.43340424e-09  3.16045180e-09  4.57663959e-01  4.57663959e-01  4.57663959e-01  1.56914019e-07  1.66214519e-07  8.60000000e-01 
 8.70000000e-01  4.57663989e-01  4.57663989e-01  3.43340424e-09  3.16045179e-09  4.57663989e-01  4.57663989e-01  4.57663989e-01  1.56914061e-07  1.66214342e-07  8.70000000e-01 
 8.80000000e-01  4.57663963e-01  4.57663963e-01  3.43340429e-09  3.16045179e-09  4.57663963e-01  4.57663963e-01  4.57663963e-01  1.56914037e-07  1.66214235e-07  8.80000000e-01 
 8.90000000e-01  4.57663942e-01  4.57663942e-01  3.43340424e-09  3.16045179e-09  4.57663942e-01  4.57663942e-01  4.57663942e-01  1.56913990e-07  1.66214036e-07  8.90000000e-01 
 9.00000000e-01  4.57663938e-01  4.57663938e-01  3.43340424e-09  3.16045179e-09  4.57663938e-01  4.57663938e-01  4.57663938e-01  1.56913998e-07  1.66213724e-07  9.00000000e-01 
 9.10000000e-01  4.57663940e-01  4.57663940e-01  3.43340424e-09  3.16045179e-09  4.57663941e-01  4.57663940e-01  4.57663940e-01  1.56914001e-07  1.66213631e-07  9.10000000e-01 
 9.20000000e-01  4.57663937e-01  4.57663937e-01  3.43340423e-09  3.16045179e-09  4.57663937e-01  4.57663937e-01  4.57663937e-01  1.56913990e-07  1.66213660e-07  9.20000000e-01 
 9.30000000e-01  4.57663940e-01  4.57663940e-01  3.43340424e-09  3.16045179e-09  4.57663940e-01  4.57663940e-01  4.57663940e-01  1.56913984e-07  1.66213596e-07  9.30000000e-01 
 9.40000000e-01  4.57663934e-01  4.57663934e-01  3.43340423e-09  3.16045185e-09  4.57663934e-01  4.57663934e-01  4.57663934e-01  1.56913994e-07  1.66213205e-07  9.40000000e-01 
 9.50000000e-01  4.57663940e-01  4.57663940e-01  3.43340424e-09  3.16045178e-09  4.57663940e-01  4.57663940e-01  4.57663940e-01  1.56913977e-07  1.66213127e-07  9.50000000e-01 
 9.60000000e-01  4.57663949e-01  4.57663949e-01  3.43340424e-09  3.16045180e-09  4.57663949e-01  4.57663949e-01  4.57663949e-01  1.56914007e-07  1.66213042e-07  9.60000000e-01 
 9.70000000e-01  4.57663942e-01  4.57663942e-01  3.43340424e-09  3.16045179e-09  4.57663942e-01  4.57663942e-01  4.57663942e-01  1.56914004e-07  1.66212899e-07  9.70000000e-01 
 9.80000000e-01  4.57663966e-01  4.57663966e-01  3.43340424e-09  3.16045179e-09  4.57663966e-01  4.57663966e-01  4.57663966e-01  1.56914032e-07  1.66212835e-07  9.80000000e-01 
 9.90000000e-01  4.57663970e-01  4.57663970e-01  3.43340424e-09  3.16045179e-09  4.57663970e-01  4.57663970e-01  4.57663970e-01  1.56914056e-07  1.66212665e-07  9.90000000e-01 
 1.00000000e+00  4.57663941e-01  4.57663941e-01  3.43340429e-09  3.16045185e-09  4.57663941e-01  4.57663941e-01  4.57663941e-01  1.56913988e-07  1.66212402e-07  1.00000000e+00 
 1.01000000e+00  4.57663964e-01  4.57663964e-01  3.43340424e-09  3.16045184e-09  4.57663964e-01  4.57663964e-01  4.57663964e-01  1.56914026e-07  1.66212331e-07  1.01000000e+00 
 1.02000000e+00  4.57663972e-01  4.57663972e-01  3.43340424e-09  3.16045180e-09  4.57663972e-01  4.57663972e-01  4.57663972e-01  1.56914047e-07  1.66212274e-07  1.02000000e+00 
 1.03000000e+00  4.57663940e-01  4.57663940e-01  3.43340424e-09  3.16045179e-09  4.57663940e-01  4.57663940e-01  4.57663940e-01  1.56913995e-07  1.66211898e-07  1.03000000e+00 
 1.04000000e+00  4.57663932e-01  4.57663932e-01  3.43340423e-09  3.16045179e-09  4.57663932e-01  4.57663932e-01  4.57663932e-01  1.56913981e-07  1.66211798e-07  1.04000000e+00 
 1.05000000e+00  4.57663957e-01  4.57663957e-01  3.43340424e-09  3.16045179e-09  4.57663957e-01  4.57663957e-01  4.57663957e-01  1.56914023e-07  1.66211628e-07  1.05000000e+00 
 1.06000000e+00  4.57663933e-01  4.57663933e-01  3.43340423e-09  3.16045179e-09  4.57663933e-01  4.57663933e-01  4.57663933e-01  1.56913992e-07  1.66211485e-07  1.06000000e+00 
 1.07000000e+00  4.57663929e-01  4.57663929e-01  3.43340423e-09  3.16045179e-09  4.57663929e-01  4.57663929e-01  4.57663929e-01  1.56913996e-07  1.66211194e-07  1.07000000e+00 
 1.08000000e+00  4.57663947e-01  4.57663947e-01  3.43340424e-09  3.16045179e-09  4.57663947e-01  4.57663947e-01  4.57663947e-01  1.56914006e-07  1.66211052e-07  1.08000000e+00 
 1.09000000e+00  4.57663953e-01  4.57663953e-01  3.43340429e-09  3.16045179e-09  4.57663953e-01  4.57663953e-01  4.57663953e-01  1.56914028e-07  1.66211002e-07  1.09000000e+00 
 1.10000000e+00  4.57663920e-01  4.57663920e-01  3.43340423e-09  3.16045179e-09  4.57663920e-01  4.57663920e-01  4.57663920e-01  1.56913968e-07  1.66210704e-07  1.10000000e+00 
