 v-sweep         v(b0)           v(b1)           v(b2)           v(b3)           v(b4)           v(b5)           v(b6)           i(vbias)        i(viout)        v(vout)        
 0.00000000e+00  4.57571946e-01  3.31400002e-09  3.44697026e-09  4.57571947e-01  4.57571946e-01  4.57571947e-01  3.57926901e-09  1.58437597e-07  8.24209580e-08  0.00000000e+00 
 1.00000000e-02  4.57571939e-01  3.31400000e-09  3.44697029e-09  4.57571940e-01  4.57571940e-01  4.57571940e-01  3.57926899e-09  1.58437589e-07  8.24205262e-08  1.00000000e-02 
 2.00000000e-02  4.57571946e-01  3.31400000e-09  3.44697028e-09  4.57571946e-01  4.57571946e-01  4.57571946e-01  3.57926899e-09  1.58437590e-07  8.24200774e-08  2.00000000e-02 
 3.00000000e-02  4.57571914e-01  3.31400000e-09  3.44697024e-09  4.57571914e-01  4.57571914e-01  4.57571914e-01  3.57926899e-09  1.58437559e-07  8.24197086e-08  3.00000000e-02 
 4.00000000e-02  4.57571916e-01  3.31400000e-09  3.44697023e-09  4.57571916e-01  4.57571916e-01  4.57571916e-01  3.57926905e-09  1.58437564e-07  8.24192772e-08  4.00000000e-02 
 5.00000000e-02  4.57571920e-01  3.31400000e-09  3.44697023e-09  4.57571920e-01  4.57571920e-01  4.57571920e-01  3.57926899e-09  1.58437560e-07  8.24190267e-08  5.00000000e-02 
 6.00000000e-02  4.57571944e-01  3.31400000e-09  3.44697029e-09  4.57571944e-01  4.57571944e-01  4.57571944e-01  3.57926899e-09  1.58437609e-07  8.24187372e-08  6.00000000e-02 
 7.00000000e-02  4.57571946e-01  3.31400000e-09  3.44697028e-09  4.57571946e-01  4.57571946e-01  4.57571946e-01  3.57926905e-09  1.58437607e-07  8.24183846e-08  7.00000000e-02 
 8.00000000e-02  4.57571912e-01  3.31400000e-09  3.44697024e-09  4.57571912e-01  4.57571912e-01  4.57571912e-01  3.57926899e-09  1.58437538e-07  8.24179907e-08  8.00000000e-02 
 9.00000000e-02  4.57571953e-01  3.31400000e-09  3.44697029e-09  4.57571953e-01  4.57571953e-01  4.57571953e-01  3.57926899e-09  1.58437605e-07  8.24179569e-08  9.00000000e-02 
 1.00000000e-01  4.57571933e-01  3.31400005e-09  3.44697028e-09  4.57571933e-01  4.57571933e-01  4.57571933e-01  3.57926899e-09  1.58437580e-07  8.24176576e-08  1.00000000e-01 
 1.10000000e-01  4.57571926e-01  3.31400000e-09  3.44697024e-09  4.57571926e-01  4.57571926e-01  4.57571926e-01  3.57926899e-09  1.58437578e-07  8.24172206e-08  1.10000000e-01 
 1.20000000e-01  4.57571937e-01  3.31400000e-09  3.44697029e-09  4.57571937e-01  4.57571937e-01  4.57571937e-01  3.57926899e-09  1.58437576e-07  8.24169817e-08  1.20000000e-01 
 1.30000000e-01  4.57571942e-01  3.31400000e-09  3.44697028e-09  4.57571942e-01  4.57571942e-01  4.57571942e-01  3.57926899e-09  1.58437586e-07  8.24168360e-08  1.30000000e-01 
 1.40000000e-01  4.57571932e-01  3.31400005e-09  3.44697024e-09  4.57571932e-01  4.57571932e-01  4.57571932e-01  3.57926899e-09  1.58437578e-07  8.24166504e-08  1.40000000e-01 
 1.50000000e-01  4.57571948e-01  3.31400000e-09  3.44697029e-09  4.57571948e-01  4.57571948e-01  4.57571948e-01  3.57926899e-09  1.58437598e-07  8.24164754e-08  1.50000000e-01 
 1.60000000e-01  4.57571927e-01  3.31400005e-09  3.44697028e-09  4.57571928e-01  4.57571928e-01  4.57571928e-01  3.57926905e-09  1.58437572e-07  8.24162250e-08  1.60000000e-01 
 1.70000000e-01  4.57571958e-01  3.31400000e-09  3.44697024e-09  4.57571958e-01  4.57571958e-01  4.57571958e-01  3.57926899e-09  1.58437626e-07  8.24160740e-08  1.70000000e-01 
 1.80000000e-01  4.57571942e-01  3.31400000e-09  3.44697029e-09  4.57571942e-01  4.57571942e-01  4.57571942e-01  3.57926899e-09  1.58437582e-07  8.24158324e-08  1.80000000e-01 
 1.90000000e-01  4.57571948e-01  3.31400000e-09  3.44697028e-09  4.57571948e-01  4.57571948e-01  4.57571948e-01  3.57926899e-09  1.58437600e-07  8.24157436e-08  1.90000000e-01 
 2.00000000e-01  4.57571933e-01  3.31400000e-09  3.44697030e-09  4.57571933e-01  4.57571933e-01  4.57571933e-01  3.57926899e-09  1.58437569e-07  8.24155109e-08  2.00000000e-01 
 2.10000000e-01  4.57571929e-01  3.31400000e-09  3.44697028e-09  4.57571929e-01  4.57571929e-01  4.57571929e-01  3.57926905e-09  1.58437565e-07  8.24152995e-08  2.10000000e-01 
 2.20000000e-01  4.57571949e-01  3.31400000e-09  3.44697024e-09  4.57571949e-01  4.57571949e-01  4.57571949e-01  3.57926905e-09  1.58437598e-07  8.24151609e-08  2.20000000e-01 
 2.30000000e-01  4.57571933e-01  3.31400000e-09  3.44697029e-09  4.57571933e-01  4.57571933e-01  4.57571933e-01  3.57926899e-09  1.58437578e-07  8.24151289e-08  2.30000000e-01 
 2.40000000e-01  4.57571935e-01  3.31400000e-09  3.44697028e-09  4.57571935e-01  4.57571935e-01  4.57571935e-01  3.57926899e-09  1.58437584e-07  8.24148572e-08  2.40000000e-01 
 2.50000000e-01  4.57571925e-01  3.31400000e-09  3.44697024e-09  4.57571926e-01  4.57571925e-01  4.57571926e-01  3.57926899e-09  1.58437564e-07  8.24147026e-08  2.50000000e-01 
 2.60000000e-01  4.57571955e-01  3.31400000e-09  3.44697024e-09  4.57571956e-01  4.57571955e-01  4.57571956e-01  3.57926905e-09  1.58437625e-07  8.24146635e-08  2.60000000e-01 
 2.70000000e-01  4.57571943e-01  3.31400000e-09  3.44697029e-09  4.57571943e-01  4.57571943e-01  4.57571943e-01  3.57926899e-09  1.58437593e-07  8.24145356e-08  2.70000000e-01 
 2.80000000e-01  4.57571954e-01  3.31400000e-09  3.44697028e-09  4.57571954e-01  4.57571954e-01  4.57571954e-01  3.57926899e-09  1.58437597e-07  8.24144468e-08  2.80000000e-01 
 2.90000000e-01  4.57571929e-01  3.31400000e-09  3.44697029e-09  4.57571929e-01  4.57571929e-01  4.57571929e-01  3.57926899e-09  1.58437563e-07  8.24141928e-08  2.90000000e-01 
 3.00000000e-01  4.57571953e-01  3.31400000e-09  3.44697029e-09  4.57571953e-01  4.57571953e-01  4.57571953e-01  3.57926899e-09  1.58437621e-07  8.24140578e-08  3.00000000e-01 
 3.10000000e-01  4.57571923e-01  3.31400000e-09  3.44697029e-09  4.57571923e-01  4.57571923e-01  4.57571923e-01  3.57926899e-09  1.58437565e-07  8.24139086e-08  3.10000000e-01 
 3.20000000e-01  4.57571937e-01  3.31400000e-09  3.44697029e-09  4.57571938e-01  4.57571937e-01  4.57571938e-01  3.57926899e-09  1.58437593e-07  8.24139903e-08  3.20000000e-01 
 3.30000000e-01  4.57571931e-01  3.31400000e-09  3.44697029e-09  4.57571931e-01  4.57571931e-01  4.57571931e-01  3.57926899e-09  1.58437568e-07  8.24137274e-08  3.30000000e-01 
 3.40000000e-01  4.57571936e-01  3.31400000e-09  3.44697029e-09  4.57571936e-01  4.57571936e-01  4.57571936e-01  3.57926899e-09  1.58437589e-07  8.24138269e-08  3.40000000e-01 
 3.50000000e-01  4.57571938e-01  3.31400000e-09  3.44697023e-09  4.57571938e-01  4.57571938e-01  4.57571938e-01  3.57926899e-09  1.58437582e-07  8.24136350e-08  3.50000000e-01 
 3.60000000e-01  4.57571942e-01  3.31400000e-09  3.44697030e-09  4.57571943e-01  4.57571943e-01  4.57571943e-01  3.57926899e-09  1.58437583e-07  8.24134965e-08  3.60000000e-01 
 3.70000000e-01  4.57571925e-01  3.31400000e-09  3.44697028e-09  4.57571925e-01  4.57571925e-01  4.57571926e-01  3.57926899e-09  1.58437550e-07  8.24135391e-08  3.70000000e-01 
 3.80000000e-01  4.57571960e-01  3.31400000e-09  3.44697024e-09  4.57571960e-01  4.57571960e-01  4.57571960e-01  3.57926899e-09  1.58437629e-07  8.24133437e-08  3.80000000e-01 
 3.90000000e-01  4.57571947e-01  3.31400000e-09  3.44697029e-09  4.57571947e-01  4.57571947e-01  4.57571947e-01  3.57926899e-09  1.58437616e-07  8.24133508e-08  3.90000000e-01 
 4.00000000e-01  4.57571918e-01  3.31400000e-09  3.44697028e-09  4.57571918e-01  4.57571918e-01  4.57571918e-01  3.57926899e-09  1.58437546e-07  8.24132051e-08  4.00000000e-01 
 4.10000000e-01  4.57571939e-01  3.31400000e-09  3.44697024e-09  4.57571939e-01  4.57571939e-01  4.57571939e-01  3.57926905e-09  1.58437584e-07  8.24130488e-08  4.10000000e-01 
 4.20000000e-01  4.57571939e-01  3.31400000e-09  3.44697029e-09  4.57571939e-01  4.57571939e-01  4.57571939e-01  3.57926899e-09  1.58437576e-07  8.24130240e-08  4.20000000e-01 
 4.30000000e-01  4.57571928e-01  3.31400000e-09  3.44697028e-09  4.57571929e-01  4.57571929e-01  4.57571929e-01  3.57926899e-09  1.58437577e-07  8.24127895e-08  4.30000000e-01 
 4.40000000e-01  4.57571937e-01  3.31400000e-09  3.44697030e-09  4.57571937e-01  4.57571937e-01  4.57571937e-01  3.57926905e-09  1.58437598e-07  8.24128747e-08  4.40000000e-01 
 4.50000000e-01  4.57571950e-01  3.31400000e-09  3.44697028e-09  4.57571950e-01  4.57571950e-01  4.57571950e-01  3.57926899e-09  1.58437595e-07  8.24127433e-08  4.50000000e-01 
 4.60000000e-01  4.57571941e-01  3.31400000e-09  3.44697030e-09  4.57571941e-01  4.57571941e-01  4.57571941e-01  3.57926899e-09  1.58437586e-07  8.24126971e-08  4.60000000e-01 
 4.70000000e-01  4.57571913e-01  3.31400000e-09  3.44697028e-09  4.57571913e-01  4.57571913e-01  4.57571913e-01  3.57926899e-09  1.58437544e-07  8.24125621e-08  4.70000000e-01 
 4.80000000e-01  4.57571951e-01  3.31400000e-09  3.44697030e-09  4.57571951e-01  4.57571951e-01  4.57571951e-01  3.57926899e-09  1.58437612e-07  8.24125266e-08  4.80000000e-01 
 4.90000000e-01  4.57571953e-01  3.31400000e-09  3.44697028e-09  4.57571954e-01  4.57571953e-01  4.57571954e-01  3.57926899e-09  1.58437591e-07  8.24124697e-08  4.90000000e-01 
 5.00000000e-01  4.57571921e-01  3.31400000e-09  3.44697029e-09  4.57571922e-01  4.57571921e-01  4.57571922e-01  3.57926905e-09  1.58437554e-07  8.24122495e-08  5.00000000e-01 
 5.10000000e-01  4.57571948e-01  3.31400000e-09  3.44697029e-09  4.57571948e-01  4.57571948e-01  4.57571949e-01  3.57926899e-09  1.58437624e-07  8.24123099e-08  5.10000000e-01 
 5.20000000e-01  4.57571937e-01  3.31400000e-09  3.44697029e-09  4.57571938e-01  4.57571938e-01  4.57571938e-01  3.57926899e-09  1.58437596e-07  8.24122424e-08  5.20000000e-01 
 5.30000000e-01  4.57571927e-01  3.31400005e-09  3.44697029e-09  4.57571927e-01  4.57571927e-01  4.57571927e-01  3.57926899e-09  1.58437582e-07  8.24121251e-08  5.30000000e-01 
 5.40000000e-01  4.57571930e-01  3.31400005e-09  3.44697029e-09  4.57571930e-01  4.57571930e-01  4.57571930e-01  3.57926899e-09  1.58437583e-07  8.24120612e-08  5.40000000e-01 
 5.50000000e-01  4.57571924e-01  3.31400000e-09  3.44697029e-09  4.57571924e-01  4.57571924e-01  4.57571924e-01  3.57926899e-09  1.58437568e-07  8.24119617e-08  5.50000000e-01 
 5.60000000e-01  4.57571941e-01  3.31400000e-09  3.44697029e-09  4.57571942e-01  4.57571942e-01  4.57571942e-01  3.57926899e-09  1.58437601e-07  8.24119617e-08  5.60000000e-01 
 5.70000000e-01  4.57571936e-01  3.31400000e-09  3.44697029e-09  4.57571936e-01  4.57571936e-01  4.57571936e-01  3.57926899e-09  1.58437598e-07  8.24118871e-08  5.70000000e-01 
 5.80000000e-01  4.57571945e-01  3.31400006e-09  3.44697029e-09  4.57571945e-01  4.57571945e-01  4.57571945e-01  3.57926899e-09  1.58437592e-07  8.24117876e-08  5.80000000e-01 
 5.90000000e-01  4.57571929e-01  3.31400005e-09  3.44697023e-09  4.57571930e-01  4.57571930e-01  4.57571930e-01  3.57926899e-09  1.58437565e-07  8.24118160e-08  5.90000000e-01 
 6.00000000e-01  4.57571921e-01  3.31400000e-09  3.44697030e-09  4.57571921e-01  4.57571921e-01  4.57571921e-01  3.57926899e-09  1.58437560e-07  8.24115887e-08  6.00000000e-01 
 6.10000000e-01  4.57571921e-01  3.31400000e-09  3.44697028e-09  4.57571921e-01  4.57571921e-01  4.57571921e-01  3.57926905e-09  1.58437553e-07  8.24116029e-08  6.10000000e-01 
 6.20000000e-01  4.57571942e-01  3.31400000e-09  3.44697024e-09  4.57571942e-01  4.57571942e-01  4.57571942e-01  3.57926899e-09  1.58437597e-07  8.24115531e-08  6.20000000e-01 
 6.30000000e-01  4.57571959e-01  3.31400000e-09  3.44697030e-09  4.57571959e-01  4.57571959e-01  4.57571959e-01  3.57926899e-09  1.58437624e-07  8.24114750e-08  6.30000000e-01 
 6.40000000e-01  4.57571955e-01  3.31400000e-09  3.44697028e-09  4.57571955e-01  4.57571955e-01  4.57571955e-01  3.57926899e-09  1.58437616e-07  8.24115958e-08  6.40000000e-01 
 6.50000000e-01  4.57571943e-01  3.31400000e-09  3.44697029e-09  4.57571943e-01  4.57571943e-01  4.57571943e-01  3.57926899e-09  1.58437592e-07  8.24112973e-08  6.50000000e-01 
 6.60000000e-01  4.57571931e-01  3.31400005e-09  3.44697029e-09  4.57571931e-01  4.57571931e-01  4.57571931e-01  3.57926905e-09  1.58437572e-07  8.24111339e-08  6.60000000e-01 
 6.70000000e-01  4.57571922e-01  3.31400000e-09  3.44697029e-09  4.57571922e-01  4.57571922e-01  4.57571922e-01  3.57926905e-09  1.58437556e-07  8.24112050e-08  6.70000000e-01 
 6.80000000e-01  4.57571933e-01  3.31400000e-09  3.44697029e-09  4.57571934e-01  4.57571934e-01  4.57571934e-01  3.57926905e-09  1.58437583e-07  8.24111623e-08  6.80000000e-01 
 6.90000000e-01  4.57571940e-01  3.31400000e-09  3.44697029e-09  4.57571940e-01  4.57571940e-01  4.57571940e-01  3.57926899e-09  1.58437578e-07  8.24111481e-08  6.90000000e-01 
 7.00000000e-01  4.57571906e-01  3.31400000e-09  3.44697028e-09  4.57571906e-01  4.57571906e-01  4.57571906e-01  3.57926899e-09  1.58437536e-07  8.24110415e-08  7.00000000e-01 
 7.10000000e-01  4.57571939e-01  3.31400000e-09  3.44697029e-09  4.57571940e-01  4.57571939e-01  4.57571940e-01  3.57926899e-09  1.58437581e-07  8.24108994e-08  7.10000000e-01 
 7.20000000e-01  4.57571933e-01  3.31400000e-09  3.44697029e-09  4.57571933e-01  4.57571933e-01  4.57571933e-01  3.57926899e-09  1.58437582e-07  8.24109208e-08  7.20000000e-01 
 7.30000000e-01  4.57571901e-01  3.31399999e-09  3.44697028e-09  4.57571901e-01  4.57571901e-01  4.57571901e-01  3.57926899e-09  1.58437531e-07  8.24106792e-08  7.30000000e-01 
 7.40000000e-01  4.57571951e-01  3.31400000e-09  3.44697029e-09  4.57571951e-01  4.57571951e-01  4.57571951e-01  3.57926899e-09  1.58437600e-07  8.24107218e-08  7.40000000e-01 
 7.50000000e-01  4.57571946e-01  3.31400000e-09  3.44697029e-09  4.57571946e-01  4.57571946e-01  4.57571946e-01  3.57926905e-09  1.58437615e-07  8.24106650e-08  7.50000000e-01 
 7.60000000e-01  4.57571925e-01  3.31400000e-09  3.44697029e-09  4.57571925e-01  4.57571925e-01  4.57571925e-01  3.57926905e-09  1.58437558e-07  8.24104802e-08  7.60000000e-01 
 7.70000000e-01  4.57571944e-01  3.31400000e-09  3.44697029e-09  4.57571944e-01  4.57571944e-01  4.57571944e-01  3.57926899e-09  1.58437591e-07  8.24104234e-08  7.70000000e-01 
 7.80000000e-01  4.57571946e-01  3.31400000e-09  3.44697029e-09  4.57571946e-01  4.57571946e-01  4.57571946e-01  3.57926899e-09  1.58437595e-07  8.24102955e-08  7.80000000e-01 
 7.90000000e-01  4.57571946e-01  3.31400000e-09  3.44697023e-09  4.57571946e-01  4.57571946e-01  4.57571946e-01  3.57926899e-09  1.58437597e-07  8.24103523e-08  7.90000000e-01 
 8.00000000e-01  4.57571927e-01  3.31400000e-09  3.44697024e-09  4.57571928e-01  4.57571927e-01  4.57571928e-01  3.57926905e-09  1.58437565e-07  8.24102813e-08  8.00000000e-01 
 8.10000000e-01  4.57571927e-01  3.31400005e-09  3.44697029e-09  4.57571927e-01  4.57571927e-01  4.57571927e-01  3.57926899e-09  1.58437586e-07  8.24101321e-08  8.10000000e-01 
 8.20000000e-01  4.57571942e-01  3.31400000e-09  3.44697028e-09  4.57571942e-01  4.57571942e-01  4.57571942e-01  3.57926899e-09  1.58437610e-07  8.24102102e-08  8.20000000e-01 
 8.30000000e-01  4.57571940e-01  3.31400000e-09  3.44697030e-09  4.57571940e-01  4.57571940e-01  4.57571940e-01  3.57926899e-09  1.58437578e-07  8.24101321e-08  8.30000000e-01 
 8.40000000e-01  4.57571917e-01  3.31400005e-09  3.44697028e-09  4.57571918e-01  4.57571917e-01  4.57571918e-01  3.57926899e-09  1.58437550e-07  8.24100184e-08  8.40000000e-01 
 8.50000000e-01  4.57571967e-01  3.31400000e-09  3.44697030e-09  4.57571967e-01  4.57571967e-01  4.57571967e-01  3.57926899e-09  1.58437634e-07  8.24099828e-08  8.50000000e-01 
 8.60000000e-01  4.57571952e-01  3.31400000e-09  3.44697028e-09  4.57571952e-01  4.57571952e-01  4.57571952e-01  3.57926905e-09  1.58437610e-07  8.24099970e-08  8.60000000e-01 
 8.70000000e-01  4.57571945e-01  3.31400000e-09  3.44697029e-09  4.57571946e-01  4.57571946e-01  4.57571946e-01  3.57926899e-09  1.58437594e-07  8.24097910e-08  8.70000000e-01 
 8.80000000e-01  4.57571927e-01  3.31400000e-09  3.44697029e-09  4.57571928e-01  4.57571927e-01  4.57571928e-01  3.57926899e-09  1.58437578e-07  8.24096489e-08  8.80000000e-01 
 8.90000000e-01  4.57571935e-01  3.31400000e-09  3.44697029e-09  4.57571935e-01  4.57571935e-01  4.57571935e-01  3.57926905e-09  1.58437583e-07  8.24096631e-08  8.90000000e-01 
 9.00000000e-01  4.57571940e-01  3.31400000e-09  3.44697029e-09  4.57571940e-01  4.57571940e-01  4.57571940e-01  3.57926899e-09  1.58437575e-07  8.24095920e-08  9.00000000e-01 
 9.10000000e-01  4.57571947e-01  3.31400000e-09  3.44697029e-09  4.57571947e-01  4.57571947e-01  4.57571947e-01  3.57926899e-09  1.58437593e-07  8.24095636e-08  9.10000000e-01 
 9.20000000e-01  4.57571954e-01  3.31400000e-09  3.44697029e-09  4.57571954e-01  4.57571954e-01  4.57571954e-01  3.57926899e-09  1.58437596e-07  8.24095423e-08  9.20000000e-01 
 9.30000000e-01  4.57571952e-01  3.31400000e-09  3.44697029e-09  4.57571953e-01  4.57571953e-01  4.57571953e-01  3.57926899e-09  1.58437598e-07  8.24094002e-08  9.30000000e-01 
 9.40000000e-01  4.57571953e-01  3.31400006e-09  3.44697029e-09  4.57571953e-01  4.57571953e-01  4.57571953e-01  3.57926899e-09  1.58437603e-07  8.24092439e-08  9.40000000e-01 
 9.50000000e-01  4.57571919e-01  3.31400000e-09  3.44697029e-09  4.57571919e-01  4.57571919e-01  4.57571919e-01  3.57926899e-09  1.58437551e-07  8.24091302e-08  9.50000000e-01 
 9.60000000e-01  4.57571924e-01  3.31400000e-09  3.44697029e-09  4.57571924e-01  4.57571924e-01  4.57571924e-01  3.57926899e-09  1.58437569e-07  8.24090947e-08  9.60000000e-01 
 9.70000000e-01  4.57571942e-01  3.31400000e-09  3.44697029e-09  4.57571942e-01  4.57571942e-01  4.57571942e-01  3.57926899e-09  1.58437581e-07  8.24091799e-08  9.70000000e-01 
 9.80000000e-01  4.57571938e-01  3.31400000e-09  3.44697029e-09  4.57571939e-01  4.57571938e-01  4.57571939e-01  3.57926899e-09  1.58437582e-07  8.24089383e-08  9.80000000e-01 
 9.90000000e-01  4.57571938e-01  3.31400000e-09  3.44697029e-09  4.57571939e-01  4.57571938e-01  4.57571939e-01  3.57926899e-09  1.58437588e-07  8.24088033e-08  9.90000000e-01 
 1.00000000e+00  4.57571950e-01  3.31400006e-09  3.44697029e-09  4.57571950e-01  4.57571950e-01  4.57571950e-01  3.57926905e-09  1.58437595e-07  8.24088531e-08  1.00000000e+00 
 1.01000000e+00  4.57571932e-01  3.31400000e-09  3.44697029e-09  4.57571932e-01  4.57571932e-01  4.57571932e-01  3.57926905e-09  1.58437583e-07  8.24087891e-08  1.01000000e+00 
 1.02000000e+00  4.57571953e-01  3.31400000e-09  3.44697029e-09  4.57571953e-01  4.57571953e-01  4.57571953e-01  3.57926899e-09  1.58437609e-07  8.24087394e-08  1.02000000e+00 
 1.03000000e+00  4.57571959e-01  3.31400000e-09  3.44697029e-09  4.57571959e-01  4.57571959e-01  4.57571960e-01  3.57926905e-09  1.58437609e-07  8.24087394e-08  1.03000000e+00 
 1.04000000e+00  4.57571959e-01  3.31400000e-09  3.44697029e-09  4.57571959e-01  4.57571959e-01  4.57571959e-01  3.57926899e-09  1.58437618e-07  8.24085546e-08  1.04000000e+00 
 1.05000000e+00  4.57571941e-01  3.31400000e-09  3.44697029e-09  4.57571941e-01  4.57571941e-01  4.57571941e-01  3.57926905e-09  1.58437582e-07  8.24084125e-08  1.05000000e+00 
 1.06000000e+00  4.57571956e-01  3.31400000e-09  3.44697029e-09  4.57571956e-01  4.57571956e-01  4.57571956e-01  3.57926899e-09  1.58437611e-07  8.24084339e-08  1.06000000e+00 
 1.07000000e+00  4.57571937e-01  3.31400000e-09  3.44697029e-09  4.57571937e-01  4.57571937e-01  4.57571937e-01  3.57926899e-09  1.58437593e-07  8.24083770e-08  1.07000000e+00 
 1.08000000e+00  4.57571932e-01  3.31400005e-09  3.44697029e-09  4.57571932e-01  4.57571932e-01  4.57571932e-01  3.57926899e-09  1.58437577e-07  8.24081283e-08  1.08000000e+00 
 1.09000000e+00  4.57571914e-01  3.31400000e-09  3.44697028e-09  4.57571914e-01  4.57571914e-01  4.57571914e-01  3.57926905e-09  1.58437543e-07  8.24081710e-08  1.09000000e+00 
 1.10000000e+00  4.57571944e-01  3.31400000e-09  3.44697029e-09  4.57571944e-01  4.57571944e-01  4.57571944e-01  3.57926899e-09  1.58437598e-07  8.24081141e-08  1.10000000e+00 
