 v-sweep         v(b0)           v(b1)           v(b2)           v(b3)           v(b4)           v(b5)           v(b6)           i(vbias)        i(viout)        v(vout)        
 0.00000000e+00  4.56827987e-01  3.29800136e-09  3.46448529e-09  3.50332037e-09  3.33970842e-09  4.56827987e-01  3.13281333e-09  1.57439908e-07  4.93989752e-08  0.00000000e+00 
 1.00000000e-02  4.56827991e-01  3.29800140e-09  3.46448532e-09  3.50332040e-09  3.33970845e-09  4.56827991e-01  3.13281330e-09  1.57439917e-07  4.93984087e-08  1.00000000e-02 
 2.00000000e-02  4.56827980e-01  3.29800140e-09  3.46448526e-09  3.50332040e-09  3.33970838e-09  4.56827980e-01  3.13281330e-09  1.57439892e-07  4.93980721e-08  2.00000000e-02 
 3.00000000e-02  4.56827988e-01  3.29800140e-09  3.46448526e-09  3.50332040e-09  3.33970840e-09  4.56827988e-01  3.13281330e-09  1.57439892e-07  4.93978187e-08  3.00000000e-02 
 4.00000000e-02  4.56828008e-01  3.29800140e-09  3.46448526e-09  3.50332040e-09  3.33970839e-09  4.56828008e-01  3.13281330e-09  1.57439931e-07  4.93975323e-08  4.00000000e-02 
 5.00000000e-02  4.56827991e-01  3.29800140e-09  3.46448526e-09  3.50332040e-09  3.33970839e-09  4.56827991e-01  3.13281330e-09  1.57439907e-07  4.93971801e-08  5.00000000e-02 
 6.00000000e-02  4.56827987e-01  3.29800134e-09  3.46448526e-09  3.50332040e-09  3.33970839e-09  4.56827987e-01  3.13281330e-09  1.57439911e-07  4.93968688e-08  6.00000000e-02 
 7.00000000e-02  4.56827976e-01  3.29800140e-09  3.46448531e-09  3.50332040e-09  3.33970839e-09  4.56827976e-01  3.13281330e-09  1.57439895e-07  4.93964301e-08  7.00000000e-02 
 8.00000000e-02  4.56828017e-01  3.29800140e-09  3.46448526e-09  3.50332040e-09  3.33970840e-09  4.56828017e-01  3.13281330e-09  1.57439933e-07  4.93962116e-08  8.00000000e-02 
 9.00000000e-02  4.56828001e-01  3.29800140e-09  3.46448526e-09  3.50332040e-09  3.33970839e-09  4.56828001e-01  3.13281330e-09  1.57439914e-07  4.93960082e-08  9.00000000e-02 
 1.00000000e-01  4.56828001e-01  3.29800140e-09  3.46448532e-09  3.50332040e-09  3.33970839e-09  4.56828001e-01  3.13281330e-09  1.57439921e-07  4.93957248e-08  1.00000000e-01 
 1.10000000e-01  4.56828003e-01  3.29800140e-09  3.46448526e-09  3.50332040e-09  3.33970839e-09  4.56828003e-01  3.13281330e-09  1.57439930e-07  4.93954566e-08  1.10000000e-01 
 1.20000000e-01  4.56827990e-01  3.29800140e-09  3.46448526e-09  3.50332040e-09  3.33970839e-09  4.56827990e-01  3.13281330e-09  1.57439910e-07  4.93952230e-08  1.20000000e-01 
 1.30000000e-01  4.56828015e-01  3.29800140e-09  3.46448526e-09  3.50332040e-09  3.33970840e-09  4.56828015e-01  3.13281330e-09  1.57439934e-07  4.93950765e-08  1.30000000e-01 
 1.40000000e-01  4.56827995e-01  3.29800140e-09  3.46448532e-09  3.50332040e-09  3.33970839e-09  4.56827995e-01  3.13281330e-09  1.57439902e-07  4.93947949e-08  1.40000000e-01 
 1.50000000e-01  4.56827988e-01  3.29800140e-09  3.46448526e-09  3.50332040e-09  3.33970839e-09  4.56827988e-01  3.13281330e-09  1.57439910e-07  4.93945223e-08  1.50000000e-01 
 1.60000000e-01  4.56827993e-01  3.29800140e-09  3.46448532e-09  3.50332040e-09  3.33970839e-09  4.56827993e-01  3.13281330e-09  1.57439915e-07  4.93943748e-08  1.60000000e-01 
 1.70000000e-01  4.56827996e-01  3.29800140e-09  3.46448526e-09  3.50332040e-09  3.33970839e-09  4.56827996e-01  3.13281330e-09  1.57439918e-07  4.93942043e-08  1.70000000e-01 
 1.80000000e-01  4.56828006e-01  3.29800140e-09  3.46448526e-09  3.50332040e-09  3.33970839e-09  4.56828006e-01  3.13281330e-09  1.57439922e-07  4.93941084e-08  1.80000000e-01 
 1.90000000e-01  4.56827999e-01  3.29800140e-09  3.46448526e-09  3.50332040e-09  3.33970839e-09  4.56827999e-01  3.13281330e-09  1.57439921e-07  4.93937762e-08  1.90000000e-01 
 2.00000000e-01  4.56828011e-01  3.29800140e-09  3.46448526e-09  3.50332040e-09  3.33970840e-09  4.56828011e-01  3.13281330e-09  1.57439936e-07  4.93937460e-08  2.00000000e-01 
 2.10000000e-01  4.56827990e-01  3.29800140e-09  3.46448526e-09  3.50332040e-09  3.33970839e-09  4.56827990e-01  3.13281330e-09  1.57439909e-07  4.93935453e-08  2.10000000e-01 
 2.20000000e-01  4.56828007e-01  3.29800140e-09  3.46448532e-09  3.50332040e-09  3.33970839e-09  4.56828007e-01  3.13281330e-09  1.57439911e-07  4.93933836e-08  2.20000000e-01 
 2.30000000e-01  4.56827997e-01  3.29800140e-09  3.46448526e-09  3.50332040e-09  3.33970839e-09  4.56827997e-01  3.13281330e-09  1.57439915e-07  4.93933516e-08  2.30000000e-01 
 2.40000000e-01  4.56828001e-01  3.29800140e-09  3.46448526e-09  3.50332040e-09  3.33970839e-09  4.56828001e-01  3.13281330e-09  1.57439908e-07  4.93930514e-08  2.40000000e-01 
 2.50000000e-01  4.56828012e-01  3.29800140e-09  3.46448526e-09  3.50332040e-09  3.33970840e-09  4.56828012e-01  3.13281330e-09  1.57439934e-07  4.93929750e-08  2.50000000e-01 
 2.60000000e-01  4.56828001e-01  3.29800140e-09  3.46448532e-09  3.50332040e-09  3.33970839e-09  4.56828001e-01  3.13281330e-09  1.57439928e-07  4.93929591e-08  2.60000000e-01 
 2.70000000e-01  4.56827992e-01  3.29800140e-09  3.46448526e-09  3.50332040e-09  3.33970839e-09  4.56827992e-01  3.13281330e-09  1.57439921e-07  4.93928365e-08  2.70000000e-01 
 2.80000000e-01  4.56828017e-01  3.29800140e-09  3.46448526e-09  3.50332040e-09  3.33970840e-09  4.56828017e-01  3.13281330e-09  1.57439938e-07  4.93926731e-08  2.80000000e-01 
 2.90000000e-01  4.56827987e-01  3.29800140e-09  3.46448532e-09  3.50332040e-09  3.33970839e-09  4.56827988e-01  3.13281330e-09  1.57439886e-07  4.93925363e-08  2.90000000e-01 
 3.00000000e-01  4.56827997e-01  3.29800140e-09  3.46448526e-09  3.50332040e-09  3.33970839e-09  4.56827997e-01  3.13281330e-09  1.57439914e-07  4.93924404e-08  3.00000000e-01 
 3.10000000e-01  4.56827979e-01  3.29800140e-09  3.46448526e-09  3.50332040e-09  3.33970839e-09  4.56827979e-01  3.13281330e-09  1.57439892e-07  4.93923125e-08  3.10000000e-01 
 3.20000000e-01  4.56827994e-01  3.29800140e-09  3.46448526e-09  3.50332040e-09  3.33970839e-09  4.56827994e-01  3.13281336e-09  1.57439915e-07  4.93922556e-08  3.20000000e-01 
 3.30000000e-01  4.56827979e-01  3.29800140e-09  3.46448526e-09  3.50332040e-09  3.33970839e-09  4.56827979e-01  3.13281330e-09  1.57439884e-07  4.93920780e-08  3.30000000e-01 
 3.40000000e-01  4.56828004e-01  3.29800134e-09  3.46448532e-09  3.50332040e-09  3.33970845e-09  4.56828004e-01  3.13281336e-09  1.57439923e-07  4.93919607e-08  3.40000000e-01 
 3.50000000e-01  4.56828016e-01  3.29800140e-09  3.46448526e-09  3.50332040e-09  3.33970844e-09  4.56828016e-01  3.13281330e-09  1.57439944e-07  4.93919288e-08  3.50000000e-01 
 3.60000000e-01  4.56827986e-01  3.29800134e-09  3.46448532e-09  3.50332040e-09  3.33970840e-09  4.56827986e-01  3.13281330e-09  1.57439894e-07  4.93918328e-08  3.60000000e-01 
 3.70000000e-01  4.56828009e-01  3.29800140e-09  3.46448526e-09  3.50332040e-09  3.33970845e-09  4.56828009e-01  3.13281330e-09  1.57439931e-07  4.93917618e-08  3.70000000e-01 
 3.80000000e-01  4.56827987e-01  3.29800140e-09  3.46448532e-09  3.50332040e-09  3.33970844e-09  4.56827987e-01  3.13281330e-09  1.57439895e-07  4.93917938e-08  3.80000000e-01 
 3.90000000e-01  4.56828014e-01  3.29800140e-09  3.46448526e-09  3.50332040e-09  3.33970840e-09  4.56828014e-01  3.13281330e-09  1.57439944e-07  4.93916410e-08  3.90000000e-01 
 4.00000000e-01  4.56827975e-01  3.29800140e-09  3.46448526e-09  3.50332040e-09  3.33970839e-09  4.56827975e-01  3.13281330e-09  1.57439871e-07  4.93914456e-08  4.00000000e-01 
 4.10000000e-01  4.56828011e-01  3.29800140e-09  3.46448526e-09  3.50332040e-09  3.33970840e-09  4.56828011e-01  3.13281330e-09  1.57439930e-07  4.93914882e-08  4.10000000e-01 
 4.20000000e-01  4.56827991e-01  3.29800140e-09  3.46448526e-09  3.50332040e-09  3.33970845e-09  4.56827991e-01  3.13281330e-09  1.57439892e-07  4.93914314e-08  4.20000000e-01 
 4.30000000e-01  4.56827983e-01  3.29800140e-09  3.46448526e-09  3.50332040e-09  3.33970838e-09  4.56827983e-01  3.13281330e-09  1.57439890e-07  4.93912147e-08  4.30000000e-01 
 4.40000000e-01  4.56828003e-01  3.29800140e-09  3.46448532e-09  3.50332040e-09  3.33970840e-09  4.56828003e-01  3.13281330e-09  1.57439928e-07  4.93912751e-08  4.40000000e-01 
 4.50000000e-01  4.56827996e-01  3.29800140e-09  3.46448526e-09  3.50332040e-09  3.33970839e-09  4.56827996e-01  3.13281330e-09  1.57439899e-07  4.93911081e-08  4.50000000e-01 
 4.60000000e-01  4.56827997e-01  3.29800140e-09  3.46448526e-09  3.50332040e-09  3.33970845e-09  4.56827997e-01  3.13281330e-09  1.57439911e-07  4.93910868e-08  4.60000000e-01 
 4.70000000e-01  4.56828001e-01  3.29800140e-09  3.46448532e-09  3.50332040e-09  3.33970838e-09  4.56828001e-01  3.13281330e-09  1.57439923e-07  4.93909766e-08  4.70000000e-01 
 4.80000000e-01  4.56828014e-01  3.29800140e-09  3.46448526e-09  3.50332040e-09  3.33970840e-09  4.56828014e-01  3.13281330e-09  1.57439947e-07  4.93910868e-08  4.80000000e-01 
 4.90000000e-01  4.56827996e-01  3.29800140e-09  3.46448526e-09  3.50332040e-09  3.33970839e-09  4.56827996e-01  3.13281330e-09  1.57439912e-07  4.93908736e-08  4.90000000e-01 
 5.00000000e-01  4.56828006e-01  3.29800140e-09  3.46448526e-09  3.50332040e-09  3.33970845e-09  4.56828006e-01  3.13281330e-09  1.57439937e-07  4.93908239e-08  5.00000000e-01 
 5.10000000e-01  4.56827994e-01  3.29800140e-09  3.46448532e-09  3.50332040e-09  3.33970844e-09  4.56827994e-01  3.13281330e-09  1.57439904e-07  4.93907706e-08  5.10000000e-01 
 5.20000000e-01  4.56828001e-01  3.29800140e-09  3.46448526e-09  3.50332040e-09  3.33970840e-09  4.56828001e-01  3.13281330e-09  1.57439913e-07  4.93907031e-08  5.20000000e-01 
 5.30000000e-01  4.56828000e-01  3.29800140e-09  3.46448532e-09  3.50332040e-09  3.33970839e-09  4.56828000e-01  3.13281330e-09  1.57439906e-07  4.93906427e-08  5.30000000e-01 
 5.40000000e-01  4.56827994e-01  3.29800140e-09  3.46448532e-09  3.50332040e-09  3.33970839e-09  4.56827994e-01  3.13281330e-09  1.57439910e-07  4.93905610e-08  5.40000000e-01 
 5.50000000e-01  4.56827988e-01  3.29800140e-09  3.46448532e-09  3.50332040e-09  3.33970839e-09  4.56827989e-01  3.13281330e-09  1.57439919e-07  4.93906285e-08  5.50000000e-01 
 5.60000000e-01  4.56827980e-01  3.29800140e-09  3.46448526e-09  3.50332040e-09  3.33970839e-09  4.56827980e-01  3.13281336e-09  1.57439894e-07  4.93903691e-08  5.60000000e-01 
 5.70000000e-01  4.56828027e-01  3.29800140e-09  3.46448532e-09  3.50332040e-09  3.33970840e-09  4.56828027e-01  3.13281330e-09  1.57439964e-07  4.93903123e-08  5.70000000e-01 
 5.80000000e-01  4.56827998e-01  3.29800140e-09  3.46448526e-09  3.50332040e-09  3.33970839e-09  4.56827998e-01  3.13281330e-09  1.57439905e-07  4.93904295e-08  5.80000000e-01 
 5.90000000e-01  4.56828014e-01  3.29800140e-09  3.46448526e-09  3.50332040e-09  3.33970840e-09  4.56828015e-01  3.13281330e-09  1.57439942e-07  4.93903585e-08  5.90000000e-01 
 6.00000000e-01  4.56827986e-01  3.29800140e-09  3.46448532e-09  3.50332040e-09  3.33970839e-09  4.56827986e-01  3.13281330e-09  1.57439908e-07  4.93902874e-08  6.00000000e-01 
 6.10000000e-01  4.56827985e-01  3.29800140e-09  3.46448532e-09  3.50332040e-09  3.33970845e-09  4.56827986e-01  3.13281330e-09  1.57439888e-07  4.93901808e-08  6.10000000e-01 
 6.20000000e-01  4.56828013e-01  3.29800140e-09  3.46448526e-09  3.50332040e-09  3.33970844e-09  4.56828013e-01  3.13281330e-09  1.57439937e-07  4.93900600e-08  6.20000000e-01 
 6.30000000e-01  4.56827994e-01  3.29800140e-09  3.46448532e-09  3.50332040e-09  3.33970840e-09  4.56827995e-01  3.13281336e-09  1.57439900e-07  4.93900529e-08  6.30000000e-01 
 6.40000000e-01  4.56827993e-01  3.29800140e-09  3.46448526e-09  3.50332040e-09  3.33970839e-09  4.56827993e-01  3.13281330e-09  1.57439903e-07  4.93900529e-08  6.40000000e-01 
 6.50000000e-01  4.56827998e-01  3.29800140e-09  3.46448526e-09  3.50332040e-09  3.33970839e-09  4.56827998e-01  3.13281330e-09  1.57439922e-07  4.93899961e-08  6.50000000e-01 
 6.60000000e-01  4.56827967e-01  3.29800140e-09  3.46448526e-09  3.50332040e-09  3.33970839e-09  4.56827967e-01  3.13281330e-09  1.57439870e-07  4.93898256e-08  6.60000000e-01 
 6.70000000e-01  4.56827989e-01  3.29800134e-09  3.46448532e-09  3.50332040e-09  3.33970839e-09  4.56827989e-01  3.13281330e-09  1.57439905e-07  4.93897758e-08  6.70000000e-01 
 6.80000000e-01  4.56828006e-01  3.29800140e-09  3.46448526e-09  3.50332040e-09  3.33970839e-09  4.56828006e-01  3.13281336e-09  1.57439937e-07  4.93897900e-08  6.80000000e-01 
 6.90000000e-01  4.56827992e-01  3.29800134e-09  3.46448526e-09  3.50332040e-09  3.33970839e-09  4.56827992e-01  3.13281330e-09  1.57439904e-07  4.93895911e-08  6.90000000e-01 
 7.00000000e-01  4.56828021e-01  3.29800140e-09  3.46448526e-09  3.50332040e-09  3.33970840e-09  4.56828021e-01  3.13281336e-09  1.57439946e-07  4.93896550e-08  7.00000000e-01 
 7.10000000e-01  4.56827983e-01  3.29800140e-09  3.46448532e-09  3.50332040e-09  3.33970839e-09  4.56827983e-01  3.13281330e-09  1.57439884e-07  4.93896550e-08  7.10000000e-01 
 7.20000000e-01  4.56827976e-01  3.29800134e-09  3.46448526e-09  3.50332040e-09  3.33970845e-09  4.56827976e-01  3.13281330e-09  1.57439872e-07  4.93894987e-08  7.20000000e-01 
 7.30000000e-01  4.56827997e-01  3.29800140e-09  3.46448532e-09  3.50332040e-09  3.33970838e-09  4.56827997e-01  3.13281330e-09  1.57439899e-07  4.93894561e-08  7.30000000e-01 
 7.40000000e-01  4.56828012e-01  3.29800140e-09  3.46448526e-09  3.50332040e-09  3.33970840e-09  4.56828012e-01  3.13281330e-09  1.57439935e-07  4.93894063e-08  7.40000000e-01 
 7.50000000e-01  4.56827991e-01  3.29800140e-09  3.46448532e-09  3.50332040e-09  3.33970839e-09  4.56827991e-01  3.13281330e-09  1.57439908e-07  4.93893495e-08  7.50000000e-01 
 7.60000000e-01  4.56828003e-01  3.29800140e-09  3.46448532e-09  3.50332040e-09  3.33970839e-09  4.56828003e-01  3.13281330e-09  1.57439925e-07  4.93893850e-08  7.60000000e-01 
 7.70000000e-01  4.56828019e-01  3.29800140e-09  3.46448526e-09  3.50332040e-09  3.33970840e-09  4.56828019e-01  3.13281330e-09  1.57439955e-07  4.93892713e-08  7.70000000e-01 
 7.80000000e-01  4.56827993e-01  3.29800140e-09  3.46448526e-09  3.50332040e-09  3.33970839e-09  4.56827993e-01  3.13281330e-09  1.57439896e-07  4.93891434e-08  7.80000000e-01 
 7.90000000e-01  4.56827994e-01  3.29800140e-09  3.46448532e-09  3.50332035e-09  3.33970839e-09  4.56827995e-01  3.13281330e-09  1.57439909e-07  4.93891079e-08  7.90000000e-01 
 8.00000000e-01  4.56828010e-01  3.29800140e-09  3.46448532e-09  3.50332040e-09  3.33970840e-09  4.56828010e-01  3.13281330e-09  1.57439929e-07  4.93889942e-08  8.00000000e-01 
 8.10000000e-01  4.56827990e-01  3.29800140e-09  3.46448526e-09  3.50332040e-09  3.33970839e-09  4.56827990e-01  3.13281330e-09  1.57439896e-07  4.93890724e-08  8.10000000e-01 
 8.20000000e-01  4.56827984e-01  3.29800140e-09  3.46448526e-09  3.50332040e-09  3.33970839e-09  4.56827984e-01  3.13281330e-09  1.57439910e-07  4.93889516e-08  8.20000000e-01 
 8.30000000e-01  4.56827991e-01  3.29800140e-09  3.46448526e-09  3.50332040e-09  3.33970839e-09  4.56827991e-01  3.13281330e-09  1.57439914e-07  4.93888450e-08  8.30000000e-01 
 8.40000000e-01  4.56828006e-01  3.29800140e-09  3.46448526e-09  3.50332040e-09  3.33970839e-09  4.56828006e-01  3.13281330e-09  1.57439921e-07  4.93888948e-08  8.40000000e-01 
 8.50000000e-01  4.56827993e-01  3.29800140e-09  3.46448526e-09  3.50332040e-09  3.33970839e-09  4.56827993e-01  3.13281330e-09  1.57439920e-07  4.93887313e-08  8.50000000e-01 
 8.60000000e-01  4.56827992e-01  3.29800140e-09  3.46448526e-09  3.50332040e-09  3.33970839e-09  4.56827992e-01  3.13281330e-09  1.57439906e-07  4.93887384e-08  8.60000000e-01 
 8.70000000e-01  4.56827999e-01  3.29800140e-09  3.46448526e-09  3.50332040e-09  3.33970839e-09  4.56827999e-01  3.13281330e-09  1.57439916e-07  4.93885608e-08  8.70000000e-01 
 8.80000000e-01  4.56827973e-01  3.29800140e-09  3.46448526e-09  3.50332040e-09  3.33970839e-09  4.56827973e-01  3.13281330e-09  1.57439885e-07  4.93885892e-08  8.80000000e-01 
 8.90000000e-01  4.56827996e-01  3.29800140e-09  3.46448526e-09  3.50332040e-09  3.33970839e-09  4.56827996e-01  3.13281330e-09  1.57439906e-07  4.93885537e-08  8.90000000e-01 
 9.00000000e-01  4.56828012e-01  3.29800140e-09  3.46448532e-09  3.50332040e-09  3.33970840e-09  4.56828012e-01  3.13281330e-09  1.57439949e-07  4.93885324e-08  9.00000000e-01 
 9.10000000e-01  4.56827996e-01  3.29800140e-09  3.46448526e-09  3.50332040e-09  3.33970839e-09  4.56827996e-01  3.13281330e-09  1.57439912e-07  4.93883832e-08  9.10000000e-01 
 9.20000000e-01  4.56828011e-01  3.29800140e-09  3.46448526e-09  3.50332040e-09  3.33970840e-09  4.56828011e-01  3.13281330e-09  1.57439937e-07  4.93883547e-08  9.20000000e-01 
 9.30000000e-01  4.56827988e-01  3.29800140e-09  3.46448532e-09  3.50332040e-09  3.33970845e-09  4.56827988e-01  3.13281336e-09  1.57439900e-07  4.93883476e-08  9.30000000e-01 
 9.40000000e-01  4.56827992e-01  3.29800140e-09  3.46448526e-09  3.50332040e-09  3.33970844e-09  4.56827992e-01  3.13281330e-09  1.57439900e-07  4.93882268e-08  9.40000000e-01 
 9.50000000e-01  4.56828016e-01  3.29800140e-09  3.46448526e-09  3.50332040e-09  3.33970840e-09  4.56828016e-01  3.13281330e-09  1.57439942e-07  4.93882624e-08  9.50000000e-01 
 9.60000000e-01  4.56827995e-01  3.29800140e-09  3.46448526e-09  3.50332040e-09  3.33970839e-09  4.56827995e-01  3.13281330e-09  1.57439914e-07  4.93880705e-08  9.60000000e-01 
 9.70000000e-01  4.56828020e-01  3.29800140e-09  3.46448532e-09  3.50332040e-09  3.33970840e-09  4.56828020e-01  3.13281330e-09  1.57439951e-07  4.93880634e-08  9.70000000e-01 
 9.80000000e-01  4.56828002e-01  3.29800134e-09  3.46448526e-09  3.50332040e-09  3.33970839e-09  4.56828002e-01  3.13281330e-09  1.57439916e-07  4.93879782e-08  9.80000000e-01 
 9.90000000e-01  4.56827990e-01  3.29800140e-09  3.46448532e-09  3.50332040e-09  3.33970839e-09  4.56827990e-01  3.13281336e-09  1.57439909e-07  4.93879568e-08  9.90000000e-01 
 1.00000000e+00  4.56828000e-01  3.29800140e-09  3.46448532e-09  3.50332040e-09  3.33970839e-09  4.56828000e-01  3.13281330e-09  1.57439917e-07  4.93878005e-08  1.00000000e+00 
 1.01000000e+00  4.56828007e-01  3.29800140e-09  3.46448526e-09  3.50332035e-09  3.33970839e-09  4.56828007e-01  3.13281330e-09  1.57439937e-07  4.93878005e-08  1.01000000e+00 
 1.02000000e+00  4.56827984e-01  3.29800140e-09  3.46448526e-09  3.50332040e-09  3.33970839e-09  4.56827984e-01  3.13281330e-09  1.57439905e-07  4.93876797e-08  1.02000000e+00 
 1.03000000e+00  4.56828005e-01  3.29800140e-09  3.46448532e-09  3.50332040e-09  3.33970839e-09  4.56828005e-01  3.13281330e-09  1.57439919e-07  4.93877650e-08  1.03000000e+00 
 1.04000000e+00  4.56827991e-01  3.29800140e-09  3.46448526e-09  3.50332040e-09  3.33970839e-09  4.56827991e-01  3.13281336e-09  1.57439909e-07  4.93876158e-08  1.04000000e+00 
 1.05000000e+00  4.56827985e-01  3.29800140e-09  3.46448526e-09  3.50332040e-09  3.33970839e-09  4.56827985e-01  3.13281330e-09  1.57439908e-07  4.93875589e-08  1.05000000e+00 
 1.06000000e+00  4.56827986e-01  3.29800140e-09  3.46448526e-09  3.50332040e-09  3.33970839e-09  4.56827986e-01  3.13281336e-09  1.57439903e-07  4.93874310e-08  1.06000000e+00 
 1.07000000e+00  4.56827986e-01  3.29800140e-09  3.46448532e-09  3.50332040e-09  3.33970839e-09  4.56827986e-01  3.13281330e-09  1.57439905e-07  4.93873600e-08  1.07000000e+00 
 1.08000000e+00  4.56827994e-01  3.29800140e-09  3.46448526e-09  3.50332040e-09  3.33970845e-09  4.56827994e-01  3.13281330e-09  1.57439903e-07  4.93873102e-08  1.08000000e+00 
 1.09000000e+00  4.56827990e-01  3.29800134e-09  3.46448526e-09  3.50332040e-09  3.33970844e-09  4.56827990e-01  3.13281336e-09  1.57439899e-07  4.93873529e-08  1.09000000e+00 
 1.10000000e+00  4.56828015e-01  3.29800134e-09  3.46448526e-09  3.50332040e-09  3.33970840e-09  4.56828016e-01  3.13281330e-09  1.57439942e-07  4.93872605e-08  1.10000000e+00 
