 v-sweep         v(b0)           v(b1)           v(b2)           v(b3)           v(b4)           v(b5)           v(b6)           i(vbias)        i(viout)        v(vout)        
 0.00000000e+00  4.56597581e-01  3.34579939e-09  3.23765105e-09  3.16775680e-09  4.56597581e-01  3.29746876e-09  3.54177558e-09  1.57148624e-07  2.53741135e-08  0.00000000e+00 
 1.00000000e-02  4.56597609e-01  3.34579943e-09  3.23765109e-09  3.16775689e-09  4.56597608e-01  3.29746873e-09  3.54177555e-09  1.57148661e-07  2.53737067e-08  1.00000000e-02 
 2.00000000e-02  4.56597591e-01  3.34579941e-09  3.23765109e-09  3.16775683e-09  4.56597590e-01  3.29746879e-09  3.54177555e-09  1.57148636e-07  2.53733592e-08  2.00000000e-02 
 3.00000000e-02  4.56597591e-01  3.34579942e-09  3.23765109e-09  3.16775688e-09  4.56597591e-01  3.29746879e-09  3.54177555e-09  1.57148625e-07  2.53729302e-08  3.00000000e-02 
 4.00000000e-02  4.56597582e-01  3.34579936e-09  3.23765103e-09  3.16775688e-09  4.56597582e-01  3.29746873e-09  3.54177555e-09  1.57148630e-07  2.53726227e-08  4.00000000e-02 
 5.00000000e-02  4.56597593e-01  3.34579943e-09  3.23765103e-09  3.16775683e-09  4.56597593e-01  3.29746879e-09  3.54177555e-09  1.57148645e-07  2.53722883e-08  5.00000000e-02 
 6.00000000e-02  4.56597594e-01  3.34579941e-09  3.23765103e-09  3.16775688e-09  4.56597594e-01  3.29746879e-09  3.54177555e-09  1.57148642e-07  2.53721000e-08  6.00000000e-02 
 7.00000000e-02  4.56597588e-01  3.34579942e-09  3.23765109e-09  3.16775683e-09  4.56597588e-01  3.29746879e-09  3.54177555e-09  1.57148621e-07  2.53716794e-08  7.00000000e-02 
 8.00000000e-02  4.56597572e-01  3.34579942e-09  3.23765108e-09  3.16775683e-09  4.56597572e-01  3.29746879e-09  3.54177561e-09  1.57148623e-07  2.53714152e-08  8.00000000e-02 
 9.00000000e-02  4.56597567e-01  3.34579936e-09  3.23765103e-09  3.16775688e-09  4.56597567e-01  3.29746879e-09  3.54177555e-09  1.57148600e-07  2.53711274e-08  9.00000000e-02 
 1.00000000e-01  4.56597563e-01  3.34579943e-09  3.23765108e-09  3.16775688e-09  4.56597563e-01  3.29746873e-09  3.54177555e-09  1.57148589e-07  2.53708361e-08  1.00000000e-01 
 1.10000000e-01  4.56597564e-01  3.34579941e-09  3.23765103e-09  3.16775688e-09  4.56597564e-01  3.29746879e-09  3.54177555e-09  1.57148594e-07  2.53706434e-08  1.10000000e-01 
 1.20000000e-01  4.56597593e-01  3.34579942e-09  3.23765109e-09  3.16775683e-09  4.56597593e-01  3.29746879e-09  3.54177555e-09  1.57148641e-07  2.53703281e-08  1.20000000e-01 
 1.30000000e-01  4.56597579e-01  3.34579942e-09  3.23765103e-09  3.16775688e-09  4.56597579e-01  3.29746873e-09  3.54177561e-09  1.57148625e-07  2.53702757e-08  1.30000000e-01 
 1.40000000e-01  4.56597565e-01  3.34579942e-09  3.23765108e-09  3.16775688e-09  4.56597565e-01  3.29746873e-09  3.54177555e-09  1.57148589e-07  2.53699639e-08  1.40000000e-01 
 1.50000000e-01  4.56597582e-01  3.34579936e-09  3.23765109e-09  3.16775683e-09  4.56597582e-01  3.29746879e-09  3.54177555e-09  1.57148630e-07  2.53698573e-08  1.50000000e-01 
 1.60000000e-01  4.56597572e-01  3.34579943e-09  3.23765108e-09  3.16775688e-09  4.56597572e-01  3.29746873e-09  3.54177555e-09  1.57148610e-07  2.53695784e-08  1.60000000e-01 
 1.70000000e-01  4.56597594e-01  3.34579941e-09  3.23765109e-09  3.16775683e-09  4.56597593e-01  3.29746873e-09  3.54177555e-09  1.57148640e-07  2.53694665e-08  1.70000000e-01 
 1.80000000e-01  4.56597579e-01  3.34579936e-09  3.23765108e-09  3.16775683e-09  4.56597579e-01  3.29746873e-09  3.54177555e-09  1.57148636e-07  2.53692445e-08  1.80000000e-01 
 1.90000000e-01  4.56597562e-01  3.34579943e-09  3.23765108e-09  3.16775682e-09  4.56597562e-01  3.29746873e-09  3.54177555e-09  1.57148579e-07  2.53691219e-08  1.90000000e-01 
 2.00000000e-01  4.56597580e-01  3.34579941e-09  3.23765108e-09  3.16775683e-09  4.56597580e-01  3.29746873e-09  3.54177555e-09  1.57148617e-07  2.53689336e-08  2.00000000e-01 
 2.10000000e-01  4.56597584e-01  3.34579936e-09  3.23765109e-09  3.16775683e-09  4.56597584e-01  3.29746879e-09  3.54177555e-09  1.57148624e-07  2.53687791e-08  2.10000000e-01 
 2.20000000e-01  4.56597611e-01  3.34579938e-09  3.23765109e-09  3.16775689e-09  4.56597611e-01  3.29746879e-09  3.54177555e-09  1.57148667e-07  2.53686210e-08  2.20000000e-01 
 2.30000000e-01  4.56597563e-01  3.34579943e-09  3.23765108e-09  3.16775682e-09  4.56597563e-01  3.29746873e-09  3.54177555e-09  1.57148599e-07  2.53685410e-08  2.30000000e-01 
 2.40000000e-01  4.56597582e-01  3.34579941e-09  3.23765109e-09  3.16775683e-09  4.56597582e-01  3.29746873e-09  3.54177555e-09  1.57148619e-07  2.53683385e-08  2.40000000e-01 
 2.50000000e-01  4.56597593e-01  3.34579942e-09  3.23765109e-09  3.16775688e-09  4.56597593e-01  3.29746879e-09  3.54177555e-09  1.57148639e-07  2.53682089e-08  2.50000000e-01 
 2.60000000e-01  4.56597570e-01  3.34579936e-09  3.23765108e-09  3.16775682e-09  4.56597570e-01  3.29746873e-09  3.54177555e-09  1.57148601e-07  2.53681840e-08  2.60000000e-01 
 2.70000000e-01  4.56597579e-01  3.34579943e-09  3.23765108e-09  3.16775683e-09  4.56597579e-01  3.29746879e-09  3.54177555e-09  1.57148611e-07  2.53680881e-08  2.70000000e-01 
 2.80000000e-01  4.56597593e-01  3.34579936e-09  3.23765109e-09  3.16775688e-09  4.56597593e-01  3.29746873e-09  3.54177555e-09  1.57148653e-07  2.53678518e-08  2.80000000e-01 
 2.90000000e-01  4.56597567e-01  3.34579937e-09  3.23765108e-09  3.16775682e-09  4.56597567e-01  3.29746879e-09  3.54177555e-09  1.57148605e-07  2.53676937e-08  2.90000000e-01 
 3.00000000e-01  4.56597575e-01  3.34579943e-09  3.23765108e-09  3.16775683e-09  4.56597575e-01  3.29746873e-09  3.54177555e-09  1.57148614e-07  2.53676404e-08  3.00000000e-01 
 3.10000000e-01  4.56597593e-01  3.34579941e-09  3.23765103e-09  3.16775688e-09  4.56597593e-01  3.29746879e-09  3.54177555e-09  1.57148643e-07  2.53675445e-08  3.10000000e-01 
 3.20000000e-01  4.56597583e-01  3.34579942e-09  3.23765109e-09  3.16775683e-09  4.56597583e-01  3.29746873e-09  3.54177555e-09  1.57148616e-07  2.53675019e-08  3.20000000e-01 
 3.30000000e-01  4.56597606e-01  3.34579936e-09  3.23765103e-09  3.16775683e-09  4.56597605e-01  3.29746873e-09  3.54177555e-09  1.57148664e-07  2.53674841e-08  3.30000000e-01 
 3.40000000e-01  4.56597578e-01  3.34579938e-09  3.23765103e-09  3.16775683e-09  4.56597578e-01  3.29746879e-09  3.54177561e-09  1.57148619e-07  2.53673527e-08  3.40000000e-01 
 3.50000000e-01  4.56597570e-01  3.34579943e-09  3.23765108e-09  3.16775682e-09  4.56597570e-01  3.29746873e-09  3.54177555e-09  1.57148596e-07  2.53672425e-08  3.50000000e-01 
 3.60000000e-01  4.56597595e-01  3.34579941e-09  3.23765109e-09  3.16775688e-09  4.56597595e-01  3.29746879e-09  3.54177555e-09  1.57148638e-07  2.53671786e-08  3.60000000e-01 
 3.70000000e-01  4.56597598e-01  3.34579936e-09  3.23765109e-09  3.16775683e-09  4.56597598e-01  3.29746873e-09  3.54177555e-09  1.57148641e-07  2.53671395e-08  3.70000000e-01 
 3.80000000e-01  4.56597585e-01  3.34579943e-09  3.23765109e-09  3.16775688e-09  4.56597585e-01  3.29746873e-09  3.54177555e-09  1.57148626e-07  2.53669299e-08  3.80000000e-01 
 3.90000000e-01  4.56597591e-01  3.34579936e-09  3.23765109e-09  3.16775683e-09  4.56597591e-01  3.29746879e-09  3.54177555e-09  1.57148642e-07  2.53668873e-08  3.90000000e-01 
 4.00000000e-01  4.56597604e-01  3.34579943e-09  3.23765103e-09  3.16775683e-09  4.56597604e-01  3.29746879e-09  3.54177555e-09  1.57148658e-07  2.53669441e-08  4.00000000e-01 
 4.10000000e-01  4.56597590e-01  3.34579936e-09  3.23765109e-09  3.16775683e-09  4.56597590e-01  3.29746879e-09  3.54177555e-09  1.57148638e-07  2.53668411e-08  4.10000000e-01 
 4.20000000e-01  4.56597573e-01  3.34579943e-09  3.23765108e-09  3.16775688e-09  4.56597572e-01  3.29746873e-09  3.54177555e-09  1.57148620e-07  2.53666954e-08  4.20000000e-01 
 4.30000000e-01  4.56597571e-01  3.34579941e-09  3.23765108e-09  3.16775683e-09  4.56597571e-01  3.29746873e-09  3.54177555e-09  1.57148603e-07  2.53666421e-08  4.30000000e-01 
 4.40000000e-01  4.56597595e-01  3.34579936e-09  3.23765109e-09  3.16775683e-09  4.56597595e-01  3.29746873e-09  3.54177555e-09  1.57148638e-07  2.53666457e-08  4.40000000e-01 
 4.50000000e-01  4.56597558e-01  3.34579943e-09  3.23765103e-09  3.16775688e-09  4.56597558e-01  3.29746873e-09  3.54177555e-09  1.57148581e-07  2.53665462e-08  4.50000000e-01 
 4.60000000e-01  4.56597599e-01  3.34579936e-09  3.23765109e-09  3.16775683e-09  4.56597599e-01  3.29746879e-09  3.54177555e-09  1.57148641e-07  2.53663295e-08  4.60000000e-01 
 4.70000000e-01  4.56597588e-01  3.34579938e-09  3.23765109e-09  3.16775683e-09  4.56597588e-01  3.29746873e-09  3.54177555e-09  1.57148634e-07  2.53663615e-08  4.70000000e-01 
 4.80000000e-01  4.56597593e-01  3.34579937e-09  3.23765109e-09  3.16775688e-09  4.56597593e-01  3.29746879e-09  3.54177555e-09  1.57148650e-07  2.53663472e-08  4.80000000e-01 
 4.90000000e-01  4.56597576e-01  3.34579943e-09  3.23765108e-09  3.16775683e-09  4.56597576e-01  3.29746879e-09  3.54177555e-09  1.57148618e-07  2.53663153e-08  4.90000000e-01 
 5.00000000e-01  4.56597581e-01  3.34579936e-09  3.23765103e-09  3.16775688e-09  4.56597581e-01  3.29746879e-09  3.54177555e-09  1.57148617e-07  2.53661732e-08  5.00000000e-01 
 5.10000000e-01  4.56597596e-01  3.34579943e-09  3.23765109e-09  3.16775683e-09  4.56597596e-01  3.29746873e-09  3.54177555e-09  1.57148654e-07  2.53661945e-08  5.10000000e-01 
 5.20000000e-01  4.56597582e-01  3.34579936e-09  3.23765109e-09  3.16775683e-09  4.56597581e-01  3.29746873e-09  3.54177555e-09  1.57148619e-07  2.53661590e-08  5.20000000e-01 
 5.30000000e-01  4.56597596e-01  3.34579938e-09  3.23765103e-09  3.16775683e-09  4.56597596e-01  3.29746879e-09  3.54177555e-09  1.57148639e-07  2.53661021e-08  5.30000000e-01 
 5.40000000e-01  4.56597580e-01  3.34579943e-09  3.23765109e-09  3.16775688e-09  4.56597580e-01  3.29746873e-09  3.54177555e-09  1.57148627e-07  2.53660737e-08  5.40000000e-01 
 5.50000000e-01  4.56597566e-01  3.34579936e-09  3.23765108e-09  3.16775682e-09  4.56597566e-01  3.29746879e-09  3.54177555e-09  1.57148599e-07  2.53660062e-08  5.50000000e-01 
 5.60000000e-01  4.56597577e-01  3.34579943e-09  3.23765108e-09  3.16775683e-09  4.56597577e-01  3.29746873e-09  3.54177555e-09  1.57148607e-07  2.53659493e-08  5.60000000e-01 
 5.70000000e-01  4.56597603e-01  3.34579936e-09  3.23765103e-09  3.16775688e-09  4.56597603e-01  3.29746873e-09  3.54177555e-09  1.57148653e-07  2.53658357e-08  5.70000000e-01 
 5.80000000e-01  4.56597574e-01  3.34579937e-09  3.23765108e-09  3.16775688e-09  4.56597574e-01  3.29746873e-09  3.54177555e-09  1.57148600e-07  2.53657078e-08  5.80000000e-01 
 5.90000000e-01  4.56597596e-01  3.34579943e-09  3.23765109e-09  3.16775683e-09  4.56597596e-01  3.29746873e-09  3.54177555e-09  1.57148638e-07  2.53656651e-08  5.90000000e-01 
 6.00000000e-01  4.56597588e-01  3.34579941e-09  3.23765109e-09  3.16775688e-09  4.56597588e-01  3.29746873e-09  3.54177555e-09  1.57148637e-07  2.53655656e-08  6.00000000e-01 
 6.10000000e-01  4.56597588e-01  3.34579942e-09  3.23765109e-09  3.16775683e-09  4.56597588e-01  3.29746873e-09  3.54177555e-09  1.57148629e-07  2.53656012e-08  6.10000000e-01 
 6.20000000e-01  4.56597583e-01  3.34579936e-09  3.23765103e-09  3.16775688e-09  4.56597583e-01  3.29746873e-09  3.54177555e-09  1.57148630e-07  2.53655656e-08  6.20000000e-01 
 6.30000000e-01  4.56597587e-01  3.34579938e-09  3.23765103e-09  3.16775688e-09  4.56597586e-01  3.29746873e-09  3.54177555e-09  1.57148642e-07  2.53655017e-08  6.30000000e-01 
 6.40000000e-01  4.56597603e-01  3.34579943e-09  3.23765109e-09  3.16775683e-09  4.56597603e-01  3.29746873e-09  3.54177555e-09  1.57148666e-07  2.53654591e-08  6.40000000e-01 
 6.50000000e-01  4.56597573e-01  3.34579941e-09  3.23765103e-09  3.16775683e-09  4.56597573e-01  3.29746873e-09  3.54177555e-09  1.57148610e-07  2.53653454e-08  6.50000000e-01 
 6.60000000e-01  4.56597569e-01  3.34579942e-09  3.23765108e-09  3.16775682e-09  4.56597569e-01  3.29746879e-09  3.54177555e-09  1.57148591e-07  2.53653241e-08  6.60000000e-01 
 6.70000000e-01  4.56597592e-01  3.34579936e-09  3.23765109e-09  3.16775683e-09  4.56597591e-01  3.29746873e-09  3.54177555e-09  1.57148626e-07  2.53652459e-08  6.70000000e-01 
 6.80000000e-01  4.56597569e-01  3.34579937e-09  3.23765103e-09  3.16775682e-09  4.56597569e-01  3.29746873e-09  3.54177555e-09  1.57148617e-07  2.53651251e-08  6.80000000e-01 
 6.90000000e-01  4.56597592e-01  3.34579937e-09  3.23765109e-09  3.16775683e-09  4.56597592e-01  3.29746873e-09  3.54177561e-09  1.57148635e-07  2.53652388e-08  6.90000000e-01 
 7.00000000e-01  4.56597594e-01  3.34579943e-09  3.23765109e-09  3.16775688e-09  4.56597594e-01  3.29746873e-09  3.54177555e-09  1.57148655e-07  2.53651962e-08  7.00000000e-01 
 7.10000000e-01  4.56597584e-01  3.34579941e-09  3.23765109e-09  3.16775688e-09  4.56597584e-01  3.29746873e-09  3.54177555e-09  1.57148627e-07  2.53650612e-08  7.10000000e-01 
 7.20000000e-01  4.56597579e-01  3.34579942e-09  3.23765108e-09  3.16775688e-09  4.56597579e-01  3.29746879e-09  3.54177555e-09  1.57148613e-07  2.53650043e-08  7.20000000e-01 
 7.30000000e-01  4.56597594e-01  3.34579936e-09  3.23765109e-09  3.16775688e-09  4.56597594e-01  3.29746873e-09  3.54177555e-09  1.57148639e-07  2.53650683e-08  7.30000000e-01 
 7.40000000e-01  4.56597580e-01  3.34579938e-09  3.23765108e-09  3.16775683e-09  4.56597579e-01  3.29746879e-09  3.54177555e-09  1.57148615e-07  2.53649119e-08  7.40000000e-01 
 7.50000000e-01  4.56597573e-01  3.34579943e-09  3.23765108e-09  3.16775683e-09  4.56597573e-01  3.29746879e-09  3.54177555e-09  1.57148607e-07  2.53648551e-08  7.50000000e-01 
 7.60000000e-01  4.56597584e-01  3.34579936e-09  3.23765109e-09  3.16775683e-09  4.56597584e-01  3.29746873e-09  3.54177555e-09  1.57148619e-07  2.53648267e-08  7.60000000e-01 
 7.70000000e-01  4.56597597e-01  3.34579943e-09  3.23765103e-09  3.16775688e-09  4.56597597e-01  3.29746879e-09  3.54177555e-09  1.57148656e-07  2.53647627e-08  7.70000000e-01 
 7.80000000e-01  4.56597553e-01  3.34579941e-09  3.23765108e-09  3.16775682e-09  4.56597553e-01  3.29746879e-09  3.54177555e-09  1.57148578e-07  2.53647201e-08  7.80000000e-01 
 7.90000000e-01  4.56597572e-01  3.34579936e-09  3.23765108e-09  3.16775683e-09  4.56597572e-01  3.29746873e-09  3.54177555e-09  1.57148617e-07  2.53646490e-08  7.90000000e-01 
 8.00000000e-01  4.56597591e-01  3.34579938e-09  3.23765109e-09  3.16775688e-09  4.56597591e-01  3.29746873e-09  3.54177555e-09  1.57148641e-07  2.53646562e-08  8.00000000e-01 
 8.10000000e-01  4.56597584e-01  3.34579943e-09  3.23765109e-09  3.16775683e-09  4.56597583e-01  3.29746879e-09  3.54177555e-09  1.57148629e-07  2.53645993e-08  8.10000000e-01 
 8.20000000e-01  4.56597570e-01  3.34579941e-09  3.23765108e-09  3.16775682e-09  4.56597569e-01  3.29746879e-09  3.54177555e-09  1.57148594e-07  2.53644785e-08  8.20000000e-01 
 8.30000000e-01  4.56597581e-01  3.34579936e-09  3.23765109e-09  3.16775683e-09  4.56597581e-01  3.29746879e-09  3.54177555e-09  1.57148612e-07  2.53644714e-08  8.30000000e-01 
 8.40000000e-01  4.56597580e-01  3.34579943e-09  3.23765109e-09  3.16775688e-09  4.56597580e-01  3.29746879e-09  3.54177561e-09  1.57148627e-07  2.53643933e-08  8.40000000e-01 
 8.50000000e-01  4.56597587e-01  3.34579941e-09  3.23765109e-09  3.16775683e-09  4.56597586e-01  3.29746873e-09  3.54177555e-09  1.57148640e-07  2.53643577e-08  8.50000000e-01 
 8.60000000e-01  4.56597601e-01  3.34579942e-09  3.23765109e-09  3.16775688e-09  4.56597600e-01  3.29746873e-09  3.54177555e-09  1.57148651e-07  2.53642654e-08  8.60000000e-01 
 8.70000000e-01  4.56597584e-01  3.34579936e-09  3.23765109e-09  3.16775683e-09  4.56597584e-01  3.29746873e-09  3.54177555e-09  1.57148625e-07  2.53642369e-08  8.70000000e-01 
 8.80000000e-01  4.56597596e-01  3.34579943e-09  3.23765109e-09  3.16775683e-09  4.56597596e-01  3.29746879e-09  3.54177555e-09  1.57148639e-07  2.53642440e-08  8.80000000e-01 
 8.90000000e-01  4.56597595e-01  3.34579936e-09  3.23765109e-09  3.16775683e-09  4.56597594e-01  3.29746879e-09  3.54177555e-09  1.57148641e-07  2.53641588e-08  8.90000000e-01 
 9.00000000e-01  4.56597569e-01  3.34579937e-09  3.23765103e-09  3.16775682e-09  4.56597568e-01  3.29746873e-09  3.54177555e-09  1.57148595e-07  2.53641659e-08  9.00000000e-01 
 9.10000000e-01  4.56597569e-01  3.34579943e-09  3.23765108e-09  3.16775682e-09  4.56597568e-01  3.29746879e-09  3.54177555e-09  1.57148608e-07  2.53641019e-08  9.10000000e-01 
 9.20000000e-01  4.56597581e-01  3.34579941e-09  3.23765109e-09  3.16775683e-09  4.56597581e-01  3.29746873e-09  3.54177555e-09  1.57148610e-07  2.53639385e-08  9.20000000e-01 
 9.30000000e-01  4.56597612e-01  3.34579942e-09  3.23765109e-09  3.16775683e-09  4.56597612e-01  3.29746873e-09  3.54177555e-09  1.57148666e-07  2.53639172e-08  9.30000000e-01 
 9.40000000e-01  4.56597563e-01  3.34579942e-09  3.23765103e-09  3.16775688e-09  4.56597563e-01  3.29746879e-09  3.54177555e-09  1.57148592e-07  2.53638532e-08  9.40000000e-01 
 9.50000000e-01  4.56597579e-01  3.34579936e-09  3.23765108e-09  3.16775683e-09  4.56597579e-01  3.29746873e-09  3.54177555e-09  1.57148612e-07  2.53638177e-08  9.50000000e-01 
 9.60000000e-01  4.56597605e-01  3.34579943e-09  3.23765109e-09  3.16775688e-09  4.56597605e-01  3.29746873e-09  3.54177555e-09  1.57148663e-07  2.53637680e-08  9.60000000e-01 
 9.70000000e-01  4.56597579e-01  3.34579936e-09  3.23765108e-09  3.16775683e-09  4.56597579e-01  3.29746873e-09  3.54177555e-09  1.57148630e-07  2.53637324e-08  9.70000000e-01 
 9.80000000e-01  4.56597598e-01  3.34579938e-09  3.23765109e-09  3.16775683e-09  4.56597598e-01  3.29746873e-09  3.54177555e-09  1.57148650e-07  2.53636259e-08  9.80000000e-01 
 9.90000000e-01  4.56597576e-01  3.34579943e-09  3.23765108e-09  3.16775683e-09  4.56597576e-01  3.29746879e-09  3.54177555e-09  1.57148617e-07  2.53635761e-08  9.90000000e-01 
 1.00000000e+00  4.56597599e-01  3.34579942e-09  3.23765109e-09  3.16775688e-09  4.56597599e-01  3.29746873e-09  3.54177555e-09  1.57148637e-07  2.53635832e-08  1.00000000e+00 
 1.01000000e+00  4.56597586e-01  3.34579942e-09  3.23765109e-09  3.16775683e-09  4.56597586e-01  3.29746873e-09  3.54177555e-09  1.57148636e-07  2.53635193e-08  1.01000000e+00 
 1.02000000e+00  4.56597572e-01  3.34579942e-09  3.23765108e-09  3.16775683e-09  4.56597572e-01  3.29746879e-09  3.54177555e-09  1.57148602e-07  2.53634340e-08  1.02000000e+00 
 1.03000000e+00  4.56597585e-01  3.34579936e-09  3.23765109e-09  3.16775683e-09  4.56597585e-01  3.29746873e-09  3.54177555e-09  1.57148623e-07  2.53633345e-08  1.03000000e+00 
 1.04000000e+00  4.56597581e-01  3.34579938e-09  3.23765109e-09  3.16775688e-09  4.56597581e-01  3.29746873e-09  3.54177555e-09  1.57148622e-07  2.53632493e-08  1.04000000e+00 
 1.05000000e+00  4.56597588e-01  3.34579937e-09  3.23765109e-09  3.16775683e-09  4.56597588e-01  3.29746879e-09  3.54177555e-09  1.57148625e-07  2.53632919e-08  1.05000000e+00 
 1.06000000e+00  4.56597593e-01  3.34579937e-09  3.23765109e-09  3.16775683e-09  4.56597593e-01  3.29746879e-09  3.54177555e-09  1.57148644e-07  2.53632066e-08  1.06000000e+00 
 1.07000000e+00  4.56597575e-01  3.34579943e-09  3.23765108e-09  3.16775683e-09  4.56597575e-01  3.29746879e-09  3.54177555e-09  1.57148624e-07  2.53631853e-08  1.07000000e+00 
 1.08000000e+00  4.56597578e-01  3.34579941e-09  3.23765108e-09  3.16775688e-09  4.56597578e-01  3.29746873e-09  3.54177555e-09  1.57148615e-07  2.53630077e-08  1.08000000e+00 
 1.09000000e+00  4.56597582e-01  3.34579936e-09  3.23765109e-09  3.16775688e-09  4.56597582e-01  3.29746873e-09  3.54177555e-09  1.57148627e-07  2.53630432e-08  1.09000000e+00 
 1.10000000e+00  4.56597588e-01  3.34579938e-09  3.23765109e-09  3.16775688e-09  4.56597588e-01  3.29746873e-09  3.54177555e-09  1.57148642e-07  2.53630645e-08  1.10000000e+00 
