 v-sweep         v(b0)           v(b1)           v(b2)           v(b3)           v(b4)           v(b5)           v(b6)           i(vbias)        i(viout)        v(vout)        
 0.00000000e+00  3.22699677e-09  4.57902738e-01  3.50420072e-09  4.57902738e-01  3.34406160e-09  3.26427678e-09  3.33708852e-09  1.56294632e-07  1.47257343e-08  0.00000000e+00 
 1.00000000e-02  3.22699675e-09  4.57902737e-01  3.50420071e-09  4.57902737e-01  3.34406158e-09  3.26427682e-09  3.33708855e-09  1.56294632e-07  1.47253907e-08  1.00000000e-02 
 2.00000000e-02  3.22699675e-09  4.57902736e-01  3.50420071e-09  4.57902736e-01  3.34406158e-09  3.26427682e-09  3.33708855e-09  1.56294637e-07  1.47251480e-08  2.00000000e-02 
 3.00000000e-02  3.22699675e-09  4.57902725e-01  3.50420070e-09  4.57902725e-01  3.34406158e-09  3.26427682e-09  3.33708850e-09  1.56294617e-07  1.47245962e-08  3.00000000e-02 
 4.00000000e-02  3.22699675e-09  4.57902731e-01  3.50420070e-09  4.57902731e-01  3.34406158e-09  3.26427682e-09  3.33708851e-09  1.56294623e-07  1.47243604e-08  4.00000000e-02 
 5.00000000e-02  3.22699681e-09  4.57902728e-01  3.50420070e-09  4.57902728e-01  3.34406158e-09  3.26427682e-09  3.33708856e-09  1.56294617e-07  1.47240140e-08  5.00000000e-02 
 6.00000000e-02  3.22699676e-09  4.57902780e-01  3.50420071e-09  4.57902780e-01  3.34406158e-09  3.26427682e-09  3.33708855e-09  1.56294696e-07  1.47237111e-08  6.00000000e-02 
 7.00000000e-02  3.22699681e-09  4.57902769e-01  3.50420065e-09  4.57902769e-01  3.34406158e-09  3.26427682e-09  3.33708850e-09  1.56294687e-07  1.47233346e-08  7.00000000e-02 
 8.00000000e-02  3.22699676e-09  4.57902766e-01  3.50420065e-09  4.57902766e-01  3.34406158e-09  3.26427682e-09  3.33708857e-09  1.56294674e-07  1.47231374e-08  8.00000000e-02 
 9.00000000e-02  3.22699675e-09  4.57902737e-01  3.50420071e-09  4.57902737e-01  3.34406158e-09  3.26427682e-09  3.33708855e-09  1.56294652e-07  1.47228221e-08  9.00000000e-02 
 1.00000000e-01  3.22699676e-09  4.57902753e-01  3.50420071e-09  4.57902753e-01  3.34406158e-09  3.26427682e-09  3.33708850e-09  1.56294657e-07  1.47226240e-08  1.00000000e-01 
 1.10000000e-01  3.22699676e-09  4.57902752e-01  3.50420071e-09  4.57902752e-01  3.34406158e-09  3.26427682e-09  3.33708857e-09  1.56294648e-07  1.47222901e-08  1.10000000e-01 
 1.20000000e-01  3.22699675e-09  4.57902737e-01  3.50420071e-09  4.57902737e-01  3.34406158e-09  3.26427682e-09  3.33708849e-09  1.56294633e-07  1.47221000e-08  1.20000000e-01 
 1.30000000e-01  3.22699676e-09  4.57902749e-01  3.50420071e-09  4.57902749e-01  3.34406158e-09  3.26427682e-09  3.33708857e-09  1.56294640e-07  1.47217918e-08  1.30000000e-01 
 1.40000000e-01  3.22699676e-09  4.57902750e-01  3.50420071e-09  4.57902750e-01  3.34406158e-09  3.26427682e-09  3.33708855e-09  1.56294648e-07  1.47216284e-08  1.40000000e-01 
 1.50000000e-01  3.22699675e-09  4.57902744e-01  3.50420071e-09  4.57902744e-01  3.34406158e-09  3.26427682e-09  3.33708855e-09  1.56294649e-07  1.47214969e-08  1.50000000e-01 
 1.60000000e-01  3.22699676e-09  4.57902754e-01  3.50420071e-09  4.57902754e-01  3.34406158e-09  3.26427682e-09  3.33708855e-09  1.56294653e-07  1.47213974e-08  1.60000000e-01 
 1.70000000e-01  3.22699681e-09  4.57902721e-01  3.50420070e-09  4.57902721e-01  3.34406158e-09  3.26427682e-09  3.33708855e-09  1.56294612e-07  1.47211825e-08  1.70000000e-01 
 1.80000000e-01  3.22699676e-09  4.57902762e-01  3.50420071e-09  4.57902762e-01  3.34406158e-09  3.26427682e-09  3.33708855e-09  1.56294671e-07  1.47209054e-08  1.80000000e-01 
 1.90000000e-01  3.22699675e-09  4.57902731e-01  3.50420070e-09  4.57902731e-01  3.34406158e-09  3.26427682e-09  3.33708850e-09  1.56294629e-07  1.47207597e-08  1.90000000e-01 
 2.00000000e-01  3.22699675e-09  4.57902726e-01  3.50420065e-09  4.57902726e-01  3.34406158e-09  3.26427682e-09  3.33708857e-09  1.56294621e-07  1.47205963e-08  2.00000000e-01 
 2.10000000e-01  3.22699675e-09  4.57902742e-01  3.50420071e-09  4.57902742e-01  3.34406158e-09  3.26427682e-09  3.33708855e-09  1.56294647e-07  1.47205306e-08  2.10000000e-01 
 2.20000000e-01  3.22699675e-09  4.57902743e-01  3.50420071e-09  4.57902743e-01  3.34406158e-09  3.26427682e-09  3.33708850e-09  1.56294641e-07  1.47203316e-08  2.20000000e-01 
 2.30000000e-01  3.22699681e-09  4.57902757e-01  3.50420071e-09  4.57902757e-01  3.34406158e-09  3.26427682e-09  3.33708851e-09  1.56294667e-07  1.47202179e-08  2.30000000e-01 
 2.40000000e-01  3.22699681e-09  4.57902749e-01  3.50420071e-09  4.57902749e-01  3.34406158e-09  3.26427682e-09  3.33708856e-09  1.56294655e-07  1.47201913e-08  2.40000000e-01 
 2.50000000e-01  3.22699676e-09  4.57902756e-01  3.50420071e-09  4.57902756e-01  3.34406158e-09  3.26427682e-09  3.33708855e-09  1.56294654e-07  1.47200563e-08  2.50000000e-01 
 2.60000000e-01  3.22699681e-09  4.57902762e-01  3.50420065e-09  4.57902762e-01  3.34406158e-09  3.26427682e-09  3.33708855e-09  1.56294677e-07  1.47198804e-08  2.60000000e-01 
 2.70000000e-01  3.22699676e-09  4.57902752e-01  3.50420071e-09  4.57902752e-01  3.34406158e-09  3.26427682e-09  3.33708855e-09  1.56294668e-07  1.47197614e-08  2.70000000e-01 
 2.80000000e-01  3.22699676e-09  4.57902757e-01  3.50420071e-09  4.57902757e-01  3.34406158e-09  3.26427682e-09  3.33708855e-09  1.56294650e-07  1.47197206e-08  2.80000000e-01 
 2.90000000e-01  3.22699681e-09  4.57902759e-01  3.50420071e-09  4.57902759e-01  3.34406158e-09  3.26427682e-09  3.33708855e-09  1.56294651e-07  1.47195180e-08  2.90000000e-01 
 3.00000000e-01  3.22699681e-09  4.57902783e-01  3.50420071e-09  4.57902783e-01  3.34406158e-09  3.26427682e-09  3.33708850e-09  1.56294709e-07  1.47195216e-08  3.00000000e-01 
 3.10000000e-01  3.22699681e-09  4.57902750e-01  3.50420071e-09  4.57902750e-01  3.34406158e-09  3.26427682e-09  3.33708851e-09  1.56294644e-07  1.47193440e-08  3.10000000e-01 
 3.20000000e-01  3.22699675e-09  4.57902743e-01  3.50420071e-09  4.57902743e-01  3.34406152e-09  3.26427682e-09  3.33708850e-09  1.56294639e-07  1.47193369e-08  3.20000000e-01 
 3.30000000e-01  3.22699676e-09  4.57902748e-01  3.50420071e-09  4.57902748e-01  3.34406158e-09  3.26427682e-09  3.33708850e-09  1.56294647e-07  1.47192800e-08  3.30000000e-01 
 3.40000000e-01  3.22699676e-09  4.57902761e-01  3.50420071e-09  4.57902761e-01  3.34406158e-09  3.26427682e-09  3.33708850e-09  1.56294664e-07  1.47192019e-08  3.40000000e-01 
 3.50000000e-01  3.22699676e-09  4.57902759e-01  3.50420071e-09  4.57902759e-01  3.34406158e-09  3.26427682e-09  3.33708856e-09  1.56294661e-07  1.47188928e-08  3.50000000e-01 
 3.60000000e-01  3.22699675e-09  4.57902723e-01  3.50420070e-09  4.57902724e-01  3.34406158e-09  3.26427688e-09  3.33708855e-09  1.56294611e-07  1.47189425e-08  3.60000000e-01 
 3.70000000e-01  3.22699676e-09  4.57902747e-01  3.50420071e-09  4.57902747e-01  3.34406158e-09  3.26427682e-09  3.33708855e-09  1.56294640e-07  1.47188821e-08  3.70000000e-01 
 3.80000000e-01  3.22699675e-09  4.57902713e-01  3.50420070e-09  4.57902713e-01  3.34406158e-09  3.26427682e-09  3.33708855e-09  1.56294593e-07  1.47186867e-08  3.80000000e-01 
 3.90000000e-01  3.22699675e-09  4.57902743e-01  3.50420071e-09  4.57902743e-01  3.34406158e-09  3.26427682e-09  3.33708855e-09  1.56294638e-07  1.47186761e-08  3.90000000e-01 
 4.00000000e-01  3.22699675e-09  4.57902738e-01  3.50420071e-09  4.57902738e-01  3.34406158e-09  3.26427682e-09  3.33708850e-09  1.56294643e-07  1.47186796e-08  4.00000000e-01 
 4.10000000e-01  3.22699676e-09  4.57902755e-01  3.50420071e-09  4.57902755e-01  3.34406158e-09  3.26427682e-09  3.33708857e-09  1.56294646e-07  1.47185304e-08  4.10000000e-01 
 4.20000000e-01  3.22699681e-09  4.57902746e-01  3.50420071e-09  4.57902746e-01  3.34406158e-09  3.26427682e-09  3.33708855e-09  1.56294644e-07  1.47184274e-08  4.20000000e-01 
 4.30000000e-01  3.22699681e-09  4.57902746e-01  3.50420071e-09  4.57902746e-01  3.34406158e-09  3.26427682e-09  3.33708850e-09  1.56294644e-07  1.47183528e-08  4.30000000e-01 
 4.40000000e-01  3.22699681e-09  4.57902753e-01  3.50420071e-09  4.57902753e-01  3.34406158e-09  3.26427682e-09  3.33708857e-09  1.56294658e-07  1.47184096e-08  4.40000000e-01 
 4.50000000e-01  3.22699681e-09  4.57902769e-01  3.50420071e-09  4.57902769e-01  3.34406158e-09  3.26427682e-09  3.33708855e-09  1.56294678e-07  1.47183350e-08  4.50000000e-01 
 4.60000000e-01  3.22699681e-09  4.57902737e-01  3.50420071e-09  4.57902737e-01  3.34406158e-09  3.26427682e-09  3.33708850e-09  1.56294626e-07  1.47182853e-08  4.60000000e-01 
 4.70000000e-01  3.22699676e-09  4.57902750e-01  3.50420071e-09  4.57902750e-01  3.34406158e-09  3.26427682e-09  3.33708857e-09  1.56294649e-07  1.47181467e-08  4.70000000e-01 
 4.80000000e-01  3.22699681e-09  4.57902738e-01  3.50420071e-09  4.57902738e-01  3.34406158e-09  3.26427682e-09  3.33708855e-09  1.56294654e-07  1.47181218e-08  4.80000000e-01 
 4.90000000e-01  3.22699681e-09  4.57902754e-01  3.50420071e-09  4.57902754e-01  3.34406158e-09  3.26427682e-09  3.33708850e-09  1.56294650e-07  1.47181467e-08  4.90000000e-01 
 5.00000000e-01  3.22699681e-09  4.57902727e-01  3.50420070e-09  4.57902727e-01  3.34406158e-09  3.26427682e-09  3.33708851e-09  1.56294617e-07  1.47180188e-08  5.00000000e-01 
 5.10000000e-01  3.22699681e-09  4.57902720e-01  3.50420065e-09  4.57902720e-01  3.34406158e-09  3.26427682e-09  3.33708850e-09  1.56294620e-07  1.47179549e-08  5.10000000e-01 
 5.20000000e-01  3.22699676e-09  4.57902759e-01  3.50420071e-09  4.57902759e-01  3.34406158e-09  3.26427682e-09  3.33708850e-09  1.56294659e-07  1.47178731e-08  5.20000000e-01 
 5.30000000e-01  3.22699681e-09  4.57902764e-01  3.50420071e-09  4.57902764e-01  3.34406158e-09  3.26427688e-09  3.33708850e-09  1.56294658e-07  1.47178660e-08  5.30000000e-01 
 5.40000000e-01  3.22699676e-09  4.57902769e-01  3.50420071e-09  4.57902769e-01  3.34406158e-09  3.26427682e-09  3.33708856e-09  1.56294684e-07  1.47178518e-08  5.40000000e-01 
 5.50000000e-01  3.22699675e-09  4.57902744e-01  3.50420071e-09  4.57902744e-01  3.34406158e-09  3.26427682e-09  3.33708849e-09  1.56294641e-07  1.47176458e-08  5.50000000e-01 
 5.60000000e-01  3.22699676e-09  4.57902756e-01  3.50420071e-09  4.57902756e-01  3.34406158e-09  3.26427682e-09  3.33708851e-09  1.56294661e-07  1.47176955e-08  5.60000000e-01 
 5.70000000e-01  3.22699675e-09  4.57902720e-01  3.50420070e-09  4.57902720e-01  3.34406158e-09  3.26427682e-09  3.33708856e-09  1.56294611e-07  1.47175534e-08  5.70000000e-01 
 5.80000000e-01  3.22699681e-09  4.57902747e-01  3.50420071e-09  4.57902747e-01  3.34406158e-09  3.26427682e-09  3.33708849e-09  1.56294629e-07  1.47176351e-08  5.80000000e-01 
 5.90000000e-01  3.22699675e-09  4.57902745e-01  3.50420071e-09  4.57902745e-01  3.34406158e-09  3.26427682e-09  3.33708857e-09  1.56294665e-07  1.47175854e-08  5.90000000e-01 
 6.00000000e-01  3.22699681e-09  4.57902740e-01  3.50420071e-09  4.57902740e-01  3.34406158e-09  3.26427682e-09  3.33708849e-09  1.56294628e-07  1.47175072e-08  6.00000000e-01 
 6.10000000e-01  3.22699675e-09  4.57902736e-01  3.50420071e-09  4.57902736e-01  3.34406158e-09  3.26427682e-09  3.33708857e-09  1.56294621e-07  1.47173509e-08  6.10000000e-01 
 6.20000000e-01  3.22699675e-09  4.57902723e-01  3.50420070e-09  4.57902723e-01  3.34406158e-09  3.26427682e-09  3.33708855e-09  1.56294609e-07  1.47174219e-08  6.20000000e-01 
 6.30000000e-01  3.22699675e-09  4.57902731e-01  3.50420070e-09  4.57902731e-01  3.34406158e-09  3.26427682e-09  3.33708850e-09  1.56294633e-07  1.47173012e-08  6.30000000e-01 
 6.40000000e-01  3.22699676e-09  4.57902761e-01  3.50420071e-09  4.57902761e-01  3.34406158e-09  3.26427682e-09  3.33708857e-09  1.56294673e-07  1.47172798e-08  6.40000000e-01 
 6.50000000e-01  3.22699676e-09  4.57902762e-01  3.50420071e-09  4.57902762e-01  3.34406158e-09  3.26427682e-09  3.33708855e-09  1.56294668e-07  1.47172941e-08  6.50000000e-01 
 6.60000000e-01  3.22699675e-09  4.57902731e-01  3.50420070e-09  4.57902731e-01  3.34406158e-09  3.26427682e-09  3.33708850e-09  1.56294627e-07  1.47171733e-08  6.60000000e-01 
 6.70000000e-01  3.22699675e-09  4.57902719e-01  3.50420070e-09  4.57902719e-01  3.34406158e-09  3.26427682e-09  3.33708851e-09  1.56294618e-07  1.47171377e-08  6.70000000e-01 
 6.80000000e-01  3.22699676e-09  4.57902751e-01  3.50420071e-09  4.57902751e-01  3.34406158e-09  3.26427688e-09  3.33708850e-09  1.56294649e-07  1.47170454e-08  6.80000000e-01 
 6.90000000e-01  3.22699676e-09  4.57902751e-01  3.50420071e-09  4.57902751e-01  3.34406158e-09  3.26427682e-09  3.33708856e-09  1.56294645e-07  1.47168961e-08  6.90000000e-01 
 7.00000000e-01  3.22699675e-09  4.57902738e-01  3.50420071e-09  4.57902738e-01  3.34406158e-09  3.26427682e-09  3.33708855e-09  1.56294639e-07  1.47169104e-08  7.00000000e-01 
 7.10000000e-01  3.22699676e-09  4.57902754e-01  3.50420071e-09  4.57902755e-01  3.34406158e-09  3.26427682e-09  3.33708850e-09  1.56294659e-07  1.47169246e-08  7.10000000e-01 
 7.20000000e-01  3.22699676e-09  4.57902759e-01  3.50420071e-09  4.57902759e-01  3.34406158e-09  3.26427682e-09  3.33708851e-09  1.56294659e-07  1.47169033e-08  7.20000000e-01 
 7.30000000e-01  3.22699675e-09  4.57902745e-01  3.50420071e-09  4.57902745e-01  3.34406158e-09  3.26427682e-09  3.33708856e-09  1.56294658e-07  1.47167682e-08  7.30000000e-01 
 7.40000000e-01  3.22699676e-09  4.57902754e-01  3.50420071e-09  4.57902754e-01  3.34406158e-09  3.26427682e-09  3.33708849e-09  1.56294650e-07  1.47168251e-08  7.40000000e-01 
 7.50000000e-01  3.22699676e-09  4.57902747e-01  3.50420071e-09  4.57902747e-01  3.34406158e-09  3.26427682e-09  3.33708857e-09  1.56294645e-07  1.47166617e-08  7.50000000e-01 
 7.60000000e-01  3.22699676e-09  4.57902763e-01  3.50420071e-09  4.57902763e-01  3.34406158e-09  3.26427682e-09  3.33708855e-09  1.56294664e-07  1.47166688e-08  7.60000000e-01 
 7.70000000e-01  3.22699676e-09  4.57902749e-01  3.50420071e-09  4.57902749e-01  3.34406158e-09  3.26427682e-09  3.33708855e-09  1.56294658e-07  1.47166759e-08  7.70000000e-01 
 7.80000000e-01  3.22699675e-09  4.57902738e-01  3.50420071e-09  4.57902738e-01  3.34406158e-09  3.26427682e-09  3.33708855e-09  1.56294629e-07  1.47165125e-08  7.80000000e-01 
 7.90000000e-01  3.22699681e-09  4.57902728e-01  3.50420070e-09  4.57902728e-01  3.34406158e-09  3.26427682e-09  3.33708855e-09  1.56294623e-07  1.47165622e-08  7.90000000e-01 
 8.00000000e-01  3.22699675e-09  4.57902731e-01  3.50420065e-09  4.57902731e-01  3.34406158e-09  3.26427682e-09  3.33708855e-09  1.56294612e-07  1.47163561e-08  8.00000000e-01 
 8.10000000e-01  3.22699675e-09  4.57902740e-01  3.50420071e-09  4.57902740e-01  3.34406158e-09  3.26427682e-09  3.33708850e-09  1.56294630e-07  1.47163988e-08  8.10000000e-01 
 8.20000000e-01  3.22699681e-09  4.57902764e-01  3.50420071e-09  4.57902764e-01  3.34406158e-09  3.26427682e-09  3.33708851e-09  1.56294663e-07  1.47163206e-08  8.20000000e-01 
 8.30000000e-01  3.22699675e-09  4.57902746e-01  3.50420071e-09  4.57902746e-01  3.34406158e-09  3.26427682e-09  3.33708850e-09  1.56294650e-07  1.47162780e-08  8.30000000e-01 
 8.40000000e-01  3.22699681e-09  4.57902763e-01  3.50420071e-09  4.57902763e-01  3.34406158e-09  3.26427682e-09  3.33708850e-09  1.56294670e-07  1.47162282e-08  8.40000000e-01 
 8.50000000e-01  3.22699675e-09  4.57902744e-01  3.50420071e-09  4.57902744e-01  3.34406158e-09  3.26427682e-09  3.33708850e-09  1.56294632e-07  1.47162069e-08  8.50000000e-01 
 8.60000000e-01  3.22699675e-09  4.57902740e-01  3.50420071e-09  4.57902740e-01  3.34406158e-09  3.26427682e-09  3.33708856e-09  1.56294625e-07  1.47161430e-08  8.60000000e-01 
 8.70000000e-01  3.22699675e-09  4.57902744e-01  3.50420065e-09  4.57902744e-01  3.34406158e-09  3.26427682e-09  3.33708855e-09  1.56294633e-07  1.47160364e-08  8.70000000e-01 
 8.80000000e-01  3.22699681e-09  4.57902768e-01  3.50420065e-09  4.57902768e-01  3.34406158e-09  3.26427682e-09  3.33708855e-09  1.56294679e-07  1.47160293e-08  8.80000000e-01 
 8.90000000e-01  3.22699675e-09  4.57902743e-01  3.50420071e-09  4.57902743e-01  3.34406158e-09  3.26427682e-09  3.33708855e-09  1.56294653e-07  1.47160364e-08  8.90000000e-01 
 9.00000000e-01  3.22699681e-09  4.57902758e-01  3.50420071e-09  4.57902758e-01  3.34406158e-09  3.26427682e-09  3.33708855e-09  1.56294678e-07  1.47159511e-08  9.00000000e-01 
 9.10000000e-01  3.22699675e-09  4.57902723e-01  3.50420070e-09  4.57902723e-01  3.34406158e-09  3.26427682e-09  3.33708850e-09  1.56294620e-07  1.47158374e-08  9.10000000e-01 
 9.20000000e-01  3.22699675e-09  4.57902734e-01  3.50420070e-09  4.57902734e-01  3.34406158e-09  3.26427682e-09  3.33708857e-09  1.56294627e-07  1.47158943e-08  9.20000000e-01 
 9.30000000e-01  3.22699681e-09  4.57902759e-01  3.50420071e-09  4.57902759e-01  3.34406158e-09  3.26427682e-09  3.33708849e-09  1.56294655e-07  1.47158019e-08  9.30000000e-01 
 9.40000000e-01  3.22699681e-09  4.57902761e-01  3.50420071e-09  4.57902761e-01  3.34406158e-09  3.26427682e-09  3.33708857e-09  1.56294670e-07  1.47158374e-08  9.40000000e-01 
 9.50000000e-01  3.22699675e-09  4.57902732e-01  3.50420070e-09  4.57902732e-01  3.34406158e-09  3.26427682e-09  3.33708855e-09  1.56294624e-07  1.47156740e-08  9.50000000e-01 
 9.60000000e-01  3.22699675e-09  4.57902735e-01  3.50420071e-09  4.57902735e-01  3.34406158e-09  3.26427682e-09  3.33708850e-09  1.56294626e-07  1.47155177e-08  9.60000000e-01 
 9.70000000e-01  3.22699675e-09  4.57902711e-01  3.50420070e-09  4.57902711e-01  3.34406158e-09  3.26427682e-09  3.33708856e-09  1.56294599e-07  1.47155106e-08  9.70000000e-01 
 9.80000000e-01  3.22699681e-09  4.57902740e-01  3.50420071e-09  4.57902740e-01  3.34406158e-09  3.26427682e-09  3.33708855e-09  1.56294626e-07  1.47155816e-08  9.80000000e-01 
 9.90000000e-01  3.22699675e-09  4.57902725e-01  3.50420070e-09  4.57902725e-01  3.34406158e-09  3.26427682e-09  3.33708855e-09  1.56294608e-07  1.47154466e-08  9.90000000e-01 
 1.00000000e+00  3.22699676e-09  4.57902752e-01  3.50420071e-09  4.57902752e-01  3.34406158e-09  3.26427682e-09  3.33708855e-09  1.56294650e-07  1.47154040e-08  1.00000000e+00 
 1.01000000e+00  3.22699675e-09  4.57902744e-01  3.50420071e-09  4.57902744e-01  3.34406158e-09  3.26427682e-09  3.33708855e-09  1.56294644e-07  1.47153614e-08  1.01000000e+00 
 1.02000000e+00  3.22699675e-09  4.57902725e-01  3.50420070e-09  4.57902725e-01  3.34406158e-09  3.26427682e-09  3.33708855e-09  1.56294623e-07  1.47152335e-08  1.02000000e+00 
 1.03000000e+00  3.22699675e-09  4.57902740e-01  3.50420071e-09  4.57902740e-01  3.34406158e-09  3.26427682e-09  3.33708850e-09  1.56294632e-07  1.47152903e-08  1.03000000e+00 
 1.04000000e+00  3.22699676e-09  4.57902769e-01  3.50420071e-09  4.57902769e-01  3.34406158e-09  3.26427682e-09  3.33708857e-09  1.56294684e-07  1.47151553e-08  1.04000000e+00 
 1.05000000e+00  3.22699675e-09  4.57902725e-01  3.50420065e-09  4.57902725e-01  3.34406158e-09  3.26427682e-09  3.33708855e-09  1.56294621e-07  1.47151056e-08  1.05000000e+00 
 1.06000000e+00  3.22699675e-09  4.57902735e-01  3.50420071e-09  4.57902735e-01  3.34406158e-09  3.26427682e-09  3.33708855e-09  1.56294633e-07  1.47150345e-08  1.06000000e+00 
 1.07000000e+00  3.22699676e-09  4.57902757e-01  3.50420071e-09  4.57902757e-01  3.34406158e-09  3.26427682e-09  3.33708855e-09  1.56294667e-07  1.47150914e-08  1.07000000e+00 
 1.08000000e+00  3.22699681e-09  4.57902727e-01  3.50420070e-09  4.57902727e-01  3.34406158e-09  3.26427682e-09  3.33708855e-09  1.56294624e-07  1.47148924e-08  1.08000000e+00 
 1.09000000e+00  3.22699675e-09  4.57902746e-01  3.50420071e-09  4.57902746e-01  3.34406158e-09  3.26427682e-09  3.33708855e-09  1.56294647e-07  1.47149279e-08  1.09000000e+00 
 1.10000000e+00  3.22699681e-09  4.57902742e-01  3.50420071e-09  4.57902742e-01  3.34406158e-09  3.26427682e-09  3.33708855e-09  1.56294649e-07  1.47149777e-08  1.10000000e+00 
