 v-sweep         v(b0)           v(b1)           v(b2)           v(b3)           v(b4)           v(b5)           v(b6)           i(vbias)        i(viout)        v(vout)        
 0.00000000e+00  3.46089581e-09  4.58341491e-01  4.58341491e-01  3.31016441e-09  4.58341491e-01  3.49495880e-09  3.36755266e-09  1.61016040e-07  3.51367490e-08  0.00000000e+00 
 1.00000000e-02  3.46089577e-09  4.58341474e-01  4.58341474e-01  3.31016438e-09  4.58341474e-01  3.49495878e-09  3.36755264e-09  1.61016024e-07  3.51363005e-08  1.00000000e-02 
 2.00000000e-02  3.46089577e-09  4.58341484e-01  4.58341484e-01  3.31016433e-09  4.58341484e-01  3.49495878e-09  3.36755264e-09  1.61016046e-07  3.51360130e-08  2.00000000e-02 
 3.00000000e-02  3.46089583e-09  4.58341505e-01  4.58341505e-01  3.31016433e-09  4.58341505e-01  3.49495878e-09  3.36755264e-09  1.61016069e-07  3.51356266e-08  3.00000000e-02 
 4.00000000e-02  3.46089583e-09  4.58341490e-01  4.58341490e-01  3.31016438e-09  4.58341490e-01  3.49495883e-09  3.36755264e-09  1.61016052e-07  3.51352321e-08  4.00000000e-02 
 5.00000000e-02  3.46089583e-09  4.58341481e-01  4.58341481e-01  3.31016433e-09  4.58341481e-01  3.49495876e-09  3.36755264e-09  1.61016033e-07  3.51349252e-08  5.00000000e-02 
 6.00000000e-02  3.46089583e-09  4.58341482e-01  4.58341482e-01  3.31016438e-09  4.58341483e-01  3.49495878e-09  3.36755264e-09  1.61016035e-07  3.51346774e-08  6.00000000e-02 
 7.00000000e-02  3.46089583e-09  4.58341504e-01  4.58341504e-01  3.31016433e-09  4.58341504e-01  3.49495883e-09  3.36755264e-09  1.61016075e-07  3.51343696e-08  7.00000000e-02 
 8.00000000e-02  3.46089577e-09  4.58341489e-01  4.58341489e-01  3.31016433e-09  4.58341489e-01  3.49495876e-09  3.36755264e-09  1.61016050e-07  3.51339926e-08  8.00000000e-02 
 9.00000000e-02  3.46089577e-09  4.58341481e-01  4.58341481e-01  3.31016438e-09  4.58341481e-01  3.49495878e-09  3.36755264e-09  1.61016039e-07  3.51337830e-08  9.00000000e-02 
 1.00000000e-01  3.46089577e-09  4.58341483e-01  4.58341483e-01  3.31016438e-09  4.58341483e-01  3.49495878e-09  3.36755264e-09  1.61016050e-07  3.51334650e-08  1.00000000e-01 
 1.10000000e-01  3.46089583e-09  4.58341491e-01  4.58341491e-01  3.31016438e-09  4.58341491e-01  3.49495883e-09  3.36755264e-09  1.61016061e-07  3.51332652e-08  1.10000000e-01 
 1.20000000e-01  3.46089577e-09  4.58341468e-01  4.58341468e-01  3.31016438e-09  4.58341468e-01  3.49495882e-09  3.36755264e-09  1.61016018e-07  3.51330236e-08  1.20000000e-01 
 1.30000000e-01  3.46089583e-09  4.58341483e-01  4.58341483e-01  3.31016438e-09  4.58341483e-01  3.49495883e-09  3.36755264e-09  1.61016028e-07  3.51328193e-08  1.30000000e-01 
 1.40000000e-01  3.46089583e-09  4.58341476e-01  4.58341476e-01  3.31016438e-09  4.58341476e-01  3.49495883e-09  3.36755264e-09  1.61016032e-07  3.51325582e-08  1.40000000e-01 
 1.50000000e-01  3.46089583e-09  4.58341486e-01  4.58341486e-01  3.31016438e-09  4.58341486e-01  3.49495877e-09  3.36755264e-09  1.61016038e-07  3.51324552e-08  1.50000000e-01 
 1.60000000e-01  3.46089583e-09  4.58341472e-01  4.58341472e-01  3.31016438e-09  4.58341472e-01  3.49495884e-09  3.36755264e-09  1.61016032e-07  3.51323077e-08  1.60000000e-01 
 1.70000000e-01  3.46089577e-09  4.58341490e-01  4.58341490e-01  3.31016433e-09  4.58341490e-01  3.49495876e-09  3.36755264e-09  1.61016055e-07  3.51319951e-08  1.70000000e-01 
 1.80000000e-01  3.46089583e-09  4.58341493e-01  4.58341493e-01  3.31016438e-09  4.58341493e-01  3.49495884e-09  3.36755264e-09  1.61016062e-07  3.51319080e-08  1.80000000e-01 
 1.90000000e-01  3.46089583e-09  4.58341488e-01  4.58341488e-01  3.31016433e-09  4.58341488e-01  3.49495876e-09  3.36755264e-09  1.61016053e-07  3.51317020e-08  1.90000000e-01 
 2.00000000e-01  3.46089583e-09  4.58341483e-01  4.58341483e-01  3.31016433e-09  4.58341483e-01  3.49495878e-09  3.36755264e-09  1.61016049e-07  3.51315883e-08  2.00000000e-01 
 2.10000000e-01  3.46089583e-09  4.58341491e-01  4.58341491e-01  3.31016438e-09  4.58341491e-01  3.49495878e-09  3.36755264e-09  1.61016054e-07  3.51312792e-08  2.10000000e-01 
 2.20000000e-01  3.46089583e-09  4.58341486e-01  4.58341486e-01  3.31016438e-09  4.58341486e-01  3.49495878e-09  3.36755264e-09  1.61016039e-07  3.51312544e-08  2.20000000e-01 
 2.30000000e-01  3.46089583e-09  4.58341507e-01  4.58341506e-01  3.31016433e-09  4.58341507e-01  3.49495878e-09  3.36755264e-09  1.61016087e-07  3.51311069e-08  2.30000000e-01 
 2.40000000e-01  3.46089583e-09  4.58341511e-01  4.58341511e-01  3.31016438e-09  4.58341511e-01  3.49495883e-09  3.36755264e-09  1.61016076e-07  3.51309861e-08  2.40000000e-01 
 2.50000000e-01  3.46089583e-09  4.58341492e-01  4.58341491e-01  3.31016438e-09  4.58341492e-01  3.49495882e-09  3.36755264e-09  1.61016056e-07  3.51309399e-08  2.50000000e-01 
 2.60000000e-01  3.46089583e-09  4.58341474e-01  4.58341474e-01  3.31016433e-09  4.58341474e-01  3.49495877e-09  3.36755264e-09  1.61016021e-07  3.51307623e-08  2.60000000e-01 
 2.70000000e-01  3.46089583e-09  4.58341467e-01  4.58341467e-01  3.31016438e-09  4.58341467e-01  3.49495878e-09  3.36755264e-09  1.61016003e-07  3.51306451e-08  2.70000000e-01 
 2.80000000e-01  3.46089577e-09  4.58341475e-01  4.58341475e-01  3.31016433e-09  4.58341475e-01  3.49495878e-09  3.36755264e-09  1.61016017e-07  3.51305864e-08  2.80000000e-01 
 2.90000000e-01  3.46089583e-09  4.58341487e-01  4.58341487e-01  3.31016433e-09  4.58341487e-01  3.49495883e-09  3.36755264e-09  1.61016043e-07  3.51305438e-08  2.90000000e-01 
 3.00000000e-01  3.46089583e-09  4.58341495e-01  4.58341495e-01  3.31016438e-09  4.58341495e-01  3.49495876e-09  3.36755264e-09  1.61016058e-07  3.51303129e-08  3.00000000e-01 
 3.10000000e-01  3.46089583e-09  4.58341498e-01  4.58341498e-01  3.31016438e-09  4.58341498e-01  3.49495884e-09  3.36755264e-09  1.61016061e-07  3.51302241e-08  3.10000000e-01 
 3.20000000e-01  3.46089577e-09  4.58341487e-01  4.58341487e-01  3.31016433e-09  4.58341487e-01  3.49495876e-09  3.36755264e-09  1.61016047e-07  3.51301210e-08  3.20000000e-01 
 3.30000000e-01  3.46089583e-09  4.58341508e-01  4.58341508e-01  3.31016438e-09  4.58341508e-01  3.49495878e-09  3.36755264e-09  1.61016070e-07  3.51300287e-08  3.30000000e-01 
 3.40000000e-01  3.46089583e-09  4.58341477e-01  4.58341477e-01  3.31016438e-09  4.58341477e-01  3.49495883e-09  3.36755264e-09  1.61016032e-07  3.51299114e-08  3.40000000e-01 
 3.50000000e-01  3.46089583e-09  4.58341483e-01  4.58341483e-01  3.31016433e-09  4.58341483e-01  3.49495876e-09  3.36755264e-09  1.61016036e-07  3.51297942e-08  3.50000000e-01 
 3.60000000e-01  3.46089577e-09  4.58341482e-01  4.58341482e-01  3.31016438e-09  4.58341482e-01  3.49495884e-09  3.36755264e-09  1.61016045e-07  3.51297906e-08  3.60000000e-01 
 3.70000000e-01  3.46089583e-09  4.58341498e-01  4.58341498e-01  3.31016438e-09  4.58341498e-01  3.49495882e-09  3.36755264e-09  1.61016078e-07  3.51296841e-08  3.70000000e-01 
 3.80000000e-01  3.46089583e-09  4.58341468e-01  4.58341467e-01  3.31016438e-09  4.58341468e-01  3.49495883e-09  3.36755264e-09  1.61016014e-07  3.51295384e-08  3.80000000e-01 
 3.90000000e-01  3.46089583e-09  4.58341474e-01  4.58341474e-01  3.31016433e-09  4.58341474e-01  3.49495883e-09  3.36755264e-09  1.61016017e-07  3.51294460e-08  3.90000000e-01 
 4.00000000e-01  3.46089583e-09  4.58341489e-01  4.58341489e-01  3.31016438e-09  4.58341489e-01  3.49495877e-09  3.36755264e-09  1.61016058e-07  3.51294211e-08  4.00000000e-01 
 4.10000000e-01  3.46089583e-09  4.58341480e-01  4.58341480e-01  3.31016438e-09  4.58341480e-01  3.49495884e-09  3.36755264e-09  1.61016044e-07  3.51292684e-08  4.10000000e-01 
 4.20000000e-01  3.46089583e-09  4.58341473e-01  4.58341473e-01  3.31016438e-09  4.58341473e-01  3.49495882e-09  3.36755264e-09  1.61016035e-07  3.51292186e-08  4.20000000e-01 
 4.30000000e-01  3.46089577e-09  4.58341470e-01  4.58341470e-01  3.31016438e-09  4.58341470e-01  3.49495883e-09  3.36755264e-09  1.61016017e-07  3.51291227e-08  4.30000000e-01 
 4.40000000e-01  3.46089583e-09  4.58341482e-01  4.58341482e-01  3.31016438e-09  4.58341482e-01  3.49495883e-09  3.36755264e-09  1.61016033e-07  3.51292293e-08  4.40000000e-01 
 4.50000000e-01  3.46089583e-09  4.58341467e-01  4.58341467e-01  3.31016438e-09  4.58341467e-01  3.49495883e-09  3.36755264e-09  1.61016031e-07  3.51290694e-08  4.50000000e-01 
 4.60000000e-01  3.46089583e-09  4.58341466e-01  4.58341466e-01  3.31016433e-09  4.58341466e-01  3.49495883e-09  3.36755264e-09  1.61016008e-07  3.51290410e-08  4.60000000e-01 
 4.70000000e-01  3.46089583e-09  4.58341487e-01  4.58341487e-01  3.31016438e-09  4.58341487e-01  3.49495877e-09  3.36755264e-09  1.61016032e-07  3.51289664e-08  4.70000000e-01 
 4.80000000e-01  3.46089577e-09  4.58341483e-01  4.58341483e-01  3.31016433e-09  4.58341483e-01  3.49495878e-09  3.36755264e-09  1.61016049e-07  3.51287852e-08  4.80000000e-01 
 4.90000000e-01  3.46089583e-09  4.58341494e-01  4.58341494e-01  3.31016433e-09  4.58341494e-01  3.49495878e-09  3.36755264e-09  1.61016058e-07  3.51288598e-08  4.90000000e-01 
 5.00000000e-01  3.46089577e-09  4.58341471e-01  4.58341471e-01  3.31016433e-09  4.58341471e-01  3.49495878e-09  3.36755264e-09  1.61016027e-07  3.51287497e-08  5.00000000e-01 
 5.10000000e-01  3.46089577e-09  4.58341476e-01  4.58341476e-01  3.31016438e-09  4.58341476e-01  3.49495878e-09  3.36755264e-09  1.61016030e-07  3.51286396e-08  5.10000000e-01 
 5.20000000e-01  3.46089583e-09  4.58341488e-01  4.58341488e-01  3.31016438e-09  4.58341488e-01  3.49495883e-09  3.36755264e-09  1.61016059e-07  3.51286786e-08  5.20000000e-01 
 5.30000000e-01  3.46089583e-09  4.58341464e-01  4.58341464e-01  3.31016438e-09  4.58341464e-01  3.49495876e-09  3.36755264e-09  1.61016006e-07  3.51285365e-08  5.30000000e-01 
 5.40000000e-01  3.46089577e-09  4.58341494e-01  4.58341494e-01  3.31016438e-09  4.58341494e-01  3.49495884e-09  3.36755264e-09  1.61016046e-07  3.51285578e-08  5.40000000e-01 
 5.50000000e-01  3.46089583e-09  4.58341487e-01  4.58341487e-01  3.31016438e-09  4.58341487e-01  3.49495882e-09  3.36755264e-09  1.61016042e-07  3.51284974e-08  5.50000000e-01 
 5.60000000e-01  3.46089583e-09  4.58341502e-01  4.58341502e-01  3.31016433e-09  4.58341502e-01  3.49495877e-09  3.36755264e-09  1.61016079e-07  3.51284726e-08  5.60000000e-01 
 5.70000000e-01  3.46089583e-09  4.58341483e-01  4.58341483e-01  3.31016438e-09  4.58341483e-01  3.49495878e-09  3.36755264e-09  1.61016035e-07  3.51282985e-08  5.70000000e-01 
 5.80000000e-01  3.46089583e-09  4.58341468e-01  4.58341468e-01  3.31016433e-09  4.58341469e-01  3.49495883e-09  3.36755264e-09  1.61016014e-07  3.51282381e-08  5.80000000e-01 
 5.90000000e-01  3.46089577e-09  4.58341471e-01  4.58341471e-01  3.31016433e-09  4.58341471e-01  3.49495882e-09  3.36755264e-09  1.61016017e-07  3.51282949e-08  5.90000000e-01 
 6.00000000e-01  3.46089577e-09  4.58341482e-01  4.58341482e-01  3.31016433e-09  4.58341482e-01  3.49495877e-09  3.36755264e-09  1.61016040e-07  3.51282381e-08  6.00000000e-01 
 6.10000000e-01  3.46089583e-09  4.58341473e-01  4.58341473e-01  3.31016433e-09  4.58341473e-01  3.49495878e-09  3.36755264e-09  1.61016023e-07  3.51281813e-08  6.10000000e-01 
 6.20000000e-01  3.46089583e-09  4.58341468e-01  4.58341468e-01  3.31016433e-09  4.58341468e-01  3.49495878e-09  3.36755264e-09  1.61016015e-07  3.51279610e-08  6.20000000e-01 
 6.30000000e-01  3.46089583e-09  4.58341471e-01  4.58341471e-01  3.31016438e-09  4.58341471e-01  3.49495883e-09  3.36755264e-09  1.61016035e-07  3.51279041e-08  6.30000000e-01 
 6.40000000e-01  3.46089583e-09  4.58341516e-01  4.58341516e-01  3.31016433e-09  4.58341516e-01  3.49495877e-09  3.36755264e-09  1.61016082e-07  3.51280605e-08  6.40000000e-01 
 6.50000000e-01  3.46089583e-09  4.58341487e-01  4.58341487e-01  3.31016433e-09  4.58341487e-01  3.49495878e-09  3.36755264e-09  1.61016040e-07  3.51279112e-08  6.50000000e-01 
 6.60000000e-01  3.46089583e-09  4.58341479e-01  4.58341479e-01  3.31016438e-09  4.58341479e-01  3.49495883e-09  3.36755264e-09  1.61016037e-07  3.51278331e-08  6.60000000e-01 
 6.70000000e-01  3.46089583e-09  4.58341476e-01  4.58341476e-01  3.31016433e-09  4.58341476e-01  3.49495882e-09  3.36755264e-09  1.61016022e-07  3.51277052e-08  6.70000000e-01 
 6.80000000e-01  3.46089583e-09  4.58341472e-01  4.58341472e-01  3.31016438e-09  4.58341472e-01  3.49495877e-09  3.36755264e-09  1.61016009e-07  3.51276483e-08  6.80000000e-01 
 6.90000000e-01  3.46089583e-09  4.58341475e-01  4.58341475e-01  3.31016433e-09  4.58341475e-01  3.49495878e-09  3.36755264e-09  1.61016025e-07  3.51276199e-08  6.90000000e-01 
 7.00000000e-01  3.46089577e-09  4.58341493e-01  4.58341493e-01  3.31016433e-09  4.58341493e-01  3.49495878e-09  3.36755264e-09  1.61016066e-07  3.51277549e-08  7.00000000e-01 
 7.10000000e-01  3.46089583e-09  4.58341531e-01  4.58341531e-01  3.31016433e-09  4.58341531e-01  3.49495883e-09  3.36755258e-09  1.61016115e-07  3.51276768e-08  7.10000000e-01 
 7.20000000e-01  3.46089577e-09  4.58341495e-01  4.58341495e-01  3.31016433e-09  4.58341495e-01  3.49495876e-09  3.36755258e-09  1.61016058e-07  3.51276057e-08  7.20000000e-01 
 7.30000000e-01  3.46089577e-09  4.58341477e-01  4.58341477e-01  3.31016433e-09  4.58341477e-01  3.49495878e-09  3.36755264e-09  1.61016027e-07  3.51274991e-08  7.30000000e-01 
 7.40000000e-01  3.46089583e-09  4.58341465e-01  4.58341465e-01  3.31016438e-09  4.58341465e-01  3.49495883e-09  3.36755258e-09  1.61016001e-07  3.51274068e-08  7.40000000e-01 
 7.50000000e-01  3.46089577e-09  4.58341483e-01  4.58341483e-01  3.31016438e-09  4.58341483e-01  3.49495882e-09  3.36755264e-09  1.61016033e-07  3.51273641e-08  7.50000000e-01 
 7.60000000e-01  3.46089577e-09  4.58341478e-01  4.58341478e-01  3.31016433e-09  4.58341478e-01  3.49495877e-09  3.36755264e-09  1.61016019e-07  3.51272647e-08  7.60000000e-01 
 7.70000000e-01  3.46089577e-09  4.58341478e-01  4.58341478e-01  3.31016433e-09  4.58341478e-01  3.49495878e-09  3.36755264e-09  1.61016046e-07  3.51272007e-08  7.70000000e-01 
 7.80000000e-01  3.46089583e-09  4.58341492e-01  4.58341492e-01  3.31016433e-09  4.58341492e-01  3.49495883e-09  3.36755264e-09  1.61016046e-07  3.51273144e-08  7.80000000e-01 
 7.90000000e-01  3.46089583e-09  4.58341482e-01  4.58341482e-01  3.31016433e-09  4.58341482e-01  3.49495876e-09  3.36755264e-09  1.61016047e-07  3.51271794e-08  7.90000000e-01 
 8.00000000e-01  3.46089583e-09  4.58341452e-01  4.58341452e-01  3.31016438e-09  4.58341452e-01  3.49495884e-09  3.36755264e-09  1.61015997e-07  3.51271225e-08  8.00000000e-01 
 8.10000000e-01  3.46089583e-09  4.58341476e-01  4.58341476e-01  3.31016433e-09  4.58341476e-01  3.49495876e-09  3.36755264e-09  1.61016027e-07  3.51270373e-08  8.10000000e-01 
 8.20000000e-01  3.46089583e-09  4.58341476e-01  4.58341476e-01  3.31016433e-09  4.58341476e-01  3.49495878e-09  3.36755264e-09  1.61016035e-07  3.51270018e-08  8.20000000e-01 
 8.30000000e-01  3.46089583e-09  4.58341504e-01  4.58341504e-01  3.31016438e-09  4.58341504e-01  3.49495878e-09  3.36755264e-09  1.61016065e-07  3.51268952e-08  8.30000000e-01 
 8.40000000e-01  3.46089583e-09  4.58341483e-01  4.58341483e-01  3.31016438e-09  4.58341483e-01  3.49495883e-09  3.36755264e-09  1.61016040e-07  3.51268810e-08  8.40000000e-01 
 8.50000000e-01  3.46089583e-09  4.58341497e-01  4.58341497e-01  3.31016433e-09  4.58341497e-01  3.49495882e-09  3.36755264e-09  1.61016046e-07  3.51268241e-08  8.50000000e-01 
 8.60000000e-01  3.46089577e-09  4.58341463e-01  4.58341463e-01  3.31016433e-09  4.58341463e-01  3.49495883e-09  3.36755264e-09  1.61016015e-07  3.51267104e-08  8.60000000e-01 
 8.70000000e-01  3.46089583e-09  4.58341493e-01  4.58341493e-01  3.31016433e-09  4.58341493e-01  3.49495877e-09  3.36755264e-09  1.61016044e-07  3.51266181e-08  8.70000000e-01 
 8.80000000e-01  3.46089583e-09  4.58341485e-01  4.58341485e-01  3.31016438e-09  4.58341485e-01  3.49495878e-09  3.36755264e-09  1.61016057e-07  3.51266181e-08  8.80000000e-01 
 8.90000000e-01  3.46089583e-09  4.58341494e-01  4.58341494e-01  3.31016438e-09  4.58341494e-01  3.49495878e-09  3.36755264e-09  1.61016061e-07  3.51267246e-08  8.90000000e-01 
 9.00000000e-01  3.46089583e-09  4.58341478e-01  4.58341478e-01  3.31016433e-09  4.58341478e-01  3.49495883e-09  3.36755264e-09  1.61016047e-07  3.51265683e-08  9.00000000e-01 
 9.10000000e-01  3.46089583e-09  4.58341479e-01  4.58341479e-01  3.31016438e-09  4.58341480e-01  3.49495882e-09  3.36755258e-09  1.61016038e-07  3.51264688e-08  9.10000000e-01 
 9.20000000e-01  3.46089583e-09  4.58341517e-01  4.58341517e-01  3.31016438e-09  4.58341517e-01  3.49495877e-09  3.36755264e-09  1.61016109e-07  3.51264191e-08  9.20000000e-01 
 9.30000000e-01  3.46089577e-09  4.58341479e-01  4.58341479e-01  3.31016438e-09  4.58341479e-01  3.49495884e-09  3.36755264e-09  1.61016026e-07  3.51264617e-08  9.30000000e-01 
 9.40000000e-01  3.46089583e-09  4.58341486e-01  4.58341486e-01  3.31016438e-09  4.58341486e-01  3.49495882e-09  3.36755264e-09  1.61016043e-07  3.51262841e-08  9.40000000e-01 
 9.50000000e-01  3.46089583e-09  4.58341504e-01  4.58341504e-01  3.31016438e-09  4.58341504e-01  3.49495883e-09  3.36755264e-09  1.61016078e-07  3.51262628e-08  9.50000000e-01 
 9.60000000e-01  3.46089583e-09  4.58341489e-01  4.58341489e-01  3.31016438e-09  4.58341489e-01  3.49495877e-09  3.36755264e-09  1.61016055e-07  3.51262130e-08  9.60000000e-01 
 9.70000000e-01  3.46089583e-09  4.58341501e-01  4.58341500e-01  3.31016438e-09  4.58341501e-01  3.49495884e-09  3.36755264e-09  1.61016061e-07  3.51261775e-08  9.70000000e-01 
 9.80000000e-01  3.46089583e-09  4.58341479e-01  4.58341479e-01  3.31016438e-09  4.58341479e-01  3.49495876e-09  3.36755264e-09  1.61016036e-07  3.51262059e-08  9.80000000e-01 
 9.90000000e-01  3.46089583e-09  4.58341461e-01  4.58341460e-01  3.31016438e-09  4.58341461e-01  3.49495878e-09  3.36755264e-09  1.61016003e-07  3.51260354e-08  9.90000000e-01 
 1.00000000e+00  3.46089583e-09  4.58341483e-01  4.58341483e-01  3.31016433e-09  4.58341483e-01  3.49495878e-09  3.36755264e-09  1.61016029e-07  3.51258791e-08  1.00000000e+00 
 1.01000000e+00  3.46089583e-09  4.58341512e-01  4.58341512e-01  3.31016433e-09  4.58341512e-01  3.49495883e-09  3.36755264e-09  1.61016087e-07  3.51258933e-08  1.01000000e+00 
 1.02000000e+00  3.46089583e-09  4.58341504e-01  4.58341504e-01  3.31016438e-09  4.58341504e-01  3.49495882e-09  3.36755264e-09  1.61016075e-07  3.51259075e-08  1.02000000e+00 
 1.03000000e+00  3.46089577e-09  4.58341465e-01  4.58341465e-01  3.31016438e-09  4.58341465e-01  3.49495883e-09  3.36755264e-09  1.61016018e-07  3.51257867e-08  1.03000000e+00 
 1.04000000e+00  3.46089578e-09  4.58341504e-01  4.58341504e-01  3.31016438e-09  4.58341504e-01  3.49495877e-09  3.36755264e-09  1.61016066e-07  3.51258009e-08  1.04000000e+00 
 1.05000000e+00  3.46089583e-09  4.58341499e-01  4.58341499e-01  3.31016438e-09  4.58341499e-01  3.49495878e-09  3.36755264e-09  1.61016060e-07  3.51256801e-08  1.05000000e+00 
 1.06000000e+00  3.46089577e-09  4.58341480e-01  4.58341480e-01  3.31016438e-09  4.58341480e-01  3.49495883e-09  3.36755264e-09  1.61016034e-07  3.51256233e-08  1.06000000e+00 
 1.07000000e+00  3.46089583e-09  4.58341476e-01  4.58341476e-01  3.31016433e-09  4.58341476e-01  3.49495882e-09  3.36755264e-09  1.61016034e-07  3.51256375e-08  1.07000000e+00 
 1.08000000e+00  3.46089583e-09  4.58341508e-01  4.58341508e-01  3.31016438e-09  4.58341508e-01  3.49495883e-09  3.36755264e-09  1.61016078e-07  3.51254741e-08  1.08000000e+00 
 1.09000000e+00  3.46089583e-09  4.58341497e-01  4.58341497e-01  3.31016438e-09  4.58341497e-01  3.49495877e-09  3.36755264e-09  1.61016057e-07  3.51255594e-08  1.09000000e+00 
 1.10000000e+00  3.46089583e-09  4.58341496e-01  4.58341496e-01  3.31016438e-09  4.58341496e-01  3.49495878e-09  3.36755264e-09  1.61016059e-07  3.51255167e-08  1.10000000e+00 
