 v-sweep         v(b0)           v(b1)           v(b2)           v(b3)           v(b4)           v(b5)           v(b6)           i(vbias)        i(viout)        v(vout)        
 0.00000000e+00  3.38388485e-09  3.20190973e-09  4.59537521e-01  4.59537521e-01  3.29640039e-09  4.59537520e-01  3.46464064e-09  1.61316920e-07  6.79810348e-08  0.00000000e+00 
 1.00000000e-02  3.38388482e-09  3.20190976e-09  4.59537523e-01  4.59537523e-01  3.29640042e-09  4.59537523e-01  3.46464061e-09  1.61316910e-07  6.79807352e-08  1.00000000e-02 
 2.00000000e-02  3.38388482e-09  3.20190970e-09  4.59537510e-01  4.59537510e-01  3.29640036e-09  4.59537510e-01  3.46464061e-09  1.61316903e-07  6.79803427e-08  2.00000000e-02 
 3.00000000e-02  3.38388487e-09  3.20190970e-09  4.59537501e-01  4.59537501e-01  3.29640036e-09  4.59537501e-01  3.46464061e-09  1.61316889e-07  6.79798766e-08  3.00000000e-02 
 4.00000000e-02  3.38388487e-09  3.20190970e-09  4.59537506e-01  4.59537506e-01  3.29640036e-09  4.59537506e-01  3.46464061e-09  1.61316887e-07  6.79796526e-08  4.00000000e-02 
 5.00000000e-02  3.38388487e-09  3.20190971e-09  4.59537523e-01  4.59537523e-01  3.29640036e-09  4.59537523e-01  3.46464061e-09  1.61316912e-07  6.79791845e-08  5.00000000e-02 
 6.00000000e-02  3.38388482e-09  3.20190976e-09  4.59537528e-01  4.59537528e-01  3.29640036e-09  4.59537528e-01  3.46464061e-09  1.61316923e-07  6.79789278e-08  6.00000000e-02 
 7.00000000e-02  3.38388482e-09  3.20190970e-09  4.59537504e-01  4.59537504e-01  3.29640036e-09  4.59537503e-01  3.46464061e-09  1.61316891e-07  6.79786898e-08  7.00000000e-02 
 8.00000000e-02  3.38388487e-09  3.20190970e-09  4.59537509e-01  4.59537509e-01  3.29640036e-09  4.59537509e-01  3.46464061e-09  1.61316911e-07  6.79782692e-08  8.00000000e-02 
 9.00000000e-02  3.38388487e-09  3.20190976e-09  4.59537524e-01  4.59537524e-01  3.29640036e-09  4.59537524e-01  3.46464061e-09  1.61316927e-07  6.79780561e-08  9.00000000e-02 
 1.00000000e-01  3.38388487e-09  3.20190971e-09  4.59537536e-01  4.59537536e-01  3.29640036e-09  4.59537536e-01  3.46464061e-09  1.61316946e-07  6.79778855e-08  1.00000000e-01 
 1.10000000e-01  3.38388481e-09  3.20190970e-09  4.59537482e-01  4.59537482e-01  3.29640036e-09  4.59537482e-01  3.46464061e-09  1.61316875e-07  6.79774823e-08  1.10000000e-01 
 1.20000000e-01  3.38388487e-09  3.20190970e-09  4.59537503e-01  4.59537503e-01  3.29640036e-09  4.59537503e-01  3.46464061e-09  1.61316888e-07  6.79773340e-08  1.20000000e-01 
 1.30000000e-01  3.38388487e-09  3.20190976e-09  4.59537504e-01  4.59537504e-01  3.29640036e-09  4.59537504e-01  3.46464061e-09  1.61316892e-07  6.79769556e-08  1.30000000e-01 
 1.40000000e-01  3.38388482e-09  3.20190970e-09  4.59537507e-01  4.59537507e-01  3.29640036e-09  4.59537507e-01  3.46464061e-09  1.61316886e-07  6.79768659e-08  1.40000000e-01 
 1.50000000e-01  3.38388487e-09  3.20190971e-09  4.59537529e-01  4.59537529e-01  3.29640036e-09  4.59537529e-01  3.46464061e-09  1.61316923e-07  6.79766128e-08  1.50000000e-01 
 1.60000000e-01  3.38388487e-09  3.20190970e-09  4.59537498e-01  4.59537498e-01  3.29640036e-09  4.59537498e-01  3.46464061e-09  1.61316888e-07  6.79764369e-08  1.60000000e-01 
 1.70000000e-01  3.38388487e-09  3.20190970e-09  4.59537498e-01  4.59537498e-01  3.29640036e-09  4.59537498e-01  3.46464061e-09  1.61316868e-07  6.79762735e-08  1.70000000e-01 
 1.80000000e-01  3.38388482e-09  3.20190970e-09  4.59537518e-01  4.59537518e-01  3.29640036e-09  4.59537518e-01  3.46464061e-09  1.61316904e-07  6.79761190e-08  1.80000000e-01 
 1.90000000e-01  3.38388487e-09  3.20190971e-09  4.59537528e-01  4.59537528e-01  3.29640036e-09  4.59537527e-01  3.46464061e-09  1.61316932e-07  6.79759324e-08  1.90000000e-01 
 2.00000000e-01  3.38388482e-09  3.20190976e-09  4.59537523e-01  4.59537523e-01  3.29640036e-09  4.59537523e-01  3.46464061e-09  1.61316918e-07  6.79757886e-08  2.00000000e-01 
 2.10000000e-01  3.38388487e-09  3.20190970e-09  4.59537518e-01  4.59537518e-01  3.29640036e-09  4.59537518e-01  3.46464061e-09  1.61316898e-07  6.79756020e-08  2.10000000e-01 
 2.20000000e-01  3.38388487e-09  3.20190976e-09  4.59537522e-01  4.59537522e-01  3.29640036e-09  4.59537522e-01  3.46464061e-09  1.61316919e-07  6.79755168e-08  2.20000000e-01 
 2.30000000e-01  3.38388487e-09  3.20190976e-09  4.59537515e-01  4.59537515e-01  3.29640036e-09  4.59537515e-01  3.46464061e-09  1.61316899e-07  6.79752361e-08  2.30000000e-01 
 2.40000000e-01  3.38388487e-09  3.20190970e-09  4.59537505e-01  4.59537505e-01  3.29640036e-09  4.59537505e-01  3.46464061e-09  1.61316893e-07  6.79750762e-08  2.40000000e-01 
 2.50000000e-01  3.38388487e-09  3.20190971e-09  4.59537522e-01  4.59537522e-01  3.29640036e-09  4.59537522e-01  3.46464061e-09  1.61316912e-07  6.79750762e-08  2.50000000e-01 
 2.60000000e-01  3.38388487e-09  3.20190971e-09  4.59537519e-01  4.59537519e-01  3.29640036e-09  4.59537519e-01  3.46464061e-09  1.61316906e-07  6.79748204e-08  2.60000000e-01 
 2.70000000e-01  3.38388487e-09  3.20190970e-09  4.59537518e-01  4.59537518e-01  3.29640036e-09  4.59537518e-01  3.46464061e-09  1.61316905e-07  6.79747423e-08  2.70000000e-01 
 2.80000000e-01  3.38388487e-09  3.20190976e-09  4.59537506e-01  4.59537506e-01  3.29640036e-09  4.59537506e-01  3.46464061e-09  1.61316897e-07  6.79746481e-08  2.80000000e-01 
 2.90000000e-01  3.38388482e-09  3.20190971e-09  4.59537522e-01  4.59537522e-01  3.29640036e-09  4.59537522e-01  3.46464061e-09  1.61316918e-07  6.79744758e-08  2.90000000e-01 
 3.00000000e-01  3.38388482e-09  3.20190970e-09  4.59537508e-01  4.59537508e-01  3.29640036e-09  4.59537508e-01  3.46464061e-09  1.61316898e-07  6.79743728e-08  3.00000000e-01 
 3.10000000e-01  3.38388481e-09  3.20190970e-09  4.59537490e-01  4.59537490e-01  3.29640036e-09  4.59537489e-01  3.46464061e-09  1.61316863e-07  6.79742094e-08  3.10000000e-01 
 3.20000000e-01  3.38388487e-09  3.20190971e-09  4.59537532e-01  4.59537532e-01  3.29640036e-09  4.59537532e-01  3.46464061e-09  1.61316921e-07  6.79743444e-08  3.20000000e-01 
 3.30000000e-01  3.38388482e-09  3.20190970e-09  4.59537507e-01  4.59537507e-01  3.29640036e-09  4.59537507e-01  3.46464061e-09  1.61316899e-07  6.79740744e-08  3.30000000e-01 
 3.40000000e-01  3.38388482e-09  3.20190976e-09  4.59537499e-01  4.59537499e-01  3.29640036e-09  4.59537499e-01  3.46464061e-09  1.61316881e-07  6.79740211e-08  3.40000000e-01 
 3.50000000e-01  3.38388482e-09  3.20190970e-09  4.59537517e-01  4.59537517e-01  3.29640036e-09  4.59537517e-01  3.46464061e-09  1.61316902e-07  6.79739429e-08  3.50000000e-01 
 3.60000000e-01  3.38388488e-09  3.20190971e-09  4.59537539e-01  4.59537539e-01  3.29640036e-09  4.59537539e-01  3.46464061e-09  1.61316941e-07  6.79738825e-08  3.60000000e-01 
 3.70000000e-01  3.38388487e-09  3.20190971e-09  4.59537521e-01  4.59537521e-01  3.29640036e-09  4.59537521e-01  3.46464061e-09  1.61316925e-07  6.79736800e-08  3.70000000e-01 
 3.80000000e-01  3.38388487e-09  3.20190970e-09  4.59537502e-01  4.59537502e-01  3.29640036e-09  4.59537502e-01  3.46464061e-09  1.61316891e-07  6.79736551e-08  3.80000000e-01 
 3.90000000e-01  3.38388482e-09  3.20190970e-09  4.59537500e-01  4.59537500e-01  3.29640036e-09  4.59537500e-01  3.46464061e-09  1.61316890e-07  6.79735166e-08  3.90000000e-01 
 4.00000000e-01  3.38388487e-09  3.20190970e-09  4.59537511e-01  4.59537511e-01  3.29640036e-09  4.59537511e-01  3.46464061e-09  1.61316890e-07  6.79734917e-08  4.00000000e-01 
 4.10000000e-01  3.38388487e-09  3.20190971e-09  4.59537536e-01  4.59537536e-01  3.29640036e-09  4.59537536e-01  3.46464061e-09  1.61316932e-07  6.79735095e-08  4.10000000e-01 
 4.20000000e-01  3.38388482e-09  3.20190971e-09  4.59537521e-01  4.59537521e-01  3.29640042e-09  4.59537521e-01  3.46464061e-09  1.61316901e-07  6.79734029e-08  4.20000000e-01 
 4.30000000e-01  3.38388487e-09  3.20190970e-09  4.59537508e-01  4.59537508e-01  3.29640036e-09  4.59537508e-01  3.46464061e-09  1.61316895e-07  6.79732040e-08  4.30000000e-01 
 4.40000000e-01  3.38388482e-09  3.20190970e-09  4.59537505e-01  4.59537505e-01  3.29640036e-09  4.59537505e-01  3.46464061e-09  1.61316892e-07  6.79731933e-08  4.40000000e-01 
 4.50000000e-01  3.38388487e-09  3.20190976e-09  4.59537488e-01  4.59537488e-01  3.29640036e-09  4.59537488e-01  3.46464061e-09  1.61316862e-07  6.79731080e-08  4.50000000e-01 
 4.60000000e-01  3.38388482e-09  3.20190970e-09  4.59537515e-01  4.59537515e-01  3.29640036e-09  4.59537515e-01  3.46464061e-09  1.61316915e-07  6.79728949e-08  4.60000000e-01 
 4.70000000e-01  3.38388487e-09  3.20190970e-09  4.59537516e-01  4.59537516e-01  3.29640036e-09  4.59537516e-01  3.46464061e-09  1.61316931e-07  6.79730121e-08  4.70000000e-01 
 4.80000000e-01  3.38388487e-09  3.20190971e-09  4.59537528e-01  4.59537528e-01  3.29640036e-09  4.59537527e-01  3.46464061e-09  1.61316930e-07  6.79729126e-08  4.80000000e-01 
 4.90000000e-01  3.38388487e-09  3.20190976e-09  4.59537516e-01  4.59537516e-01  3.29640036e-09  4.59537516e-01  3.46464061e-09  1.61316896e-07  6.79727563e-08  4.90000000e-01 
 5.00000000e-01  3.38388482e-09  3.20190976e-09  4.59537507e-01  4.59537507e-01  3.29640036e-09  4.59537507e-01  3.46464061e-09  1.61316898e-07  6.79725893e-08  5.00000000e-01 
 5.10000000e-01  3.38388487e-09  3.20190970e-09  4.59537502e-01  4.59537502e-01  3.29640036e-09  4.59537502e-01  3.46464061e-09  1.61316891e-07  6.79725574e-08  5.10000000e-01 
 5.20000000e-01  3.38388487e-09  3.20190970e-09  4.59537495e-01  4.59537495e-01  3.29640036e-09  4.59537495e-01  3.46464061e-09  1.61316875e-07  6.79726213e-08  5.20000000e-01 
 5.30000000e-01  3.38388487e-09  3.20190970e-09  4.59537507e-01  4.59537507e-01  3.29640036e-09  4.59537506e-01  3.46464061e-09  1.61316897e-07  6.79724756e-08  5.30000000e-01 
 5.40000000e-01  3.38388487e-09  3.20190971e-09  4.59537535e-01  4.59537535e-01  3.29640036e-09  4.59537535e-01  3.46464061e-09  1.61316922e-07  6.79725289e-08  5.40000000e-01 
 5.50000000e-01  3.38388487e-09  3.20190970e-09  4.59537508e-01  4.59537508e-01  3.29640036e-09  4.59537508e-01  3.46464061e-09  1.61316896e-07  6.79723655e-08  5.50000000e-01 
 5.60000000e-01  3.38388487e-09  3.20190976e-09  4.59537524e-01  4.59537524e-01  3.29640036e-09  4.59537524e-01  3.46464061e-09  1.61316909e-07  6.79724046e-08  5.60000000e-01 
 5.70000000e-01  3.38388482e-09  3.20190970e-09  4.59537515e-01  4.59537515e-01  3.29640036e-09  4.59537515e-01  3.46464061e-09  1.61316921e-07  6.79722163e-08  5.70000000e-01 
 5.80000000e-01  3.38388487e-09  3.20190970e-09  4.59537504e-01  4.59537504e-01  3.29640036e-09  4.59537504e-01  3.46464061e-09  1.61316879e-07  6.79721666e-08  5.80000000e-01 
 5.90000000e-01  3.38388482e-09  3.20190971e-09  4.59537520e-01  4.59537520e-01  3.29640036e-09  4.59537520e-01  3.46464061e-09  1.61316915e-07  6.79720813e-08  5.90000000e-01 
 6.00000000e-01  3.38388482e-09  3.20190970e-09  4.59537501e-01  4.59537501e-01  3.29640036e-09  4.59537501e-01  3.46464061e-09  1.61316875e-07  6.79719676e-08  6.00000000e-01 
 6.10000000e-01  3.38388487e-09  3.20190970e-09  4.59537515e-01  4.59537515e-01  3.29640036e-09  4.59537514e-01  3.46464061e-09  1.61316897e-07  6.79719250e-08  6.10000000e-01 
 6.20000000e-01  3.38388487e-09  3.20190971e-09  4.59537533e-01  4.59537533e-01  3.29640036e-09  4.59537533e-01  3.46464061e-09  1.61316940e-07  6.79718966e-08  6.20000000e-01 
 6.30000000e-01  3.38388487e-09  3.20190971e-09  4.59537521e-01  4.59537521e-01  3.29640036e-09  4.59537521e-01  3.46464061e-09  1.61316923e-07  6.79718326e-08  6.30000000e-01 
 6.40000000e-01  3.38388482e-09  3.20190971e-09  4.59537519e-01  4.59537519e-01  3.29640036e-09  4.59537519e-01  3.46464055e-09  1.61316910e-07  6.79718113e-08  6.40000000e-01 
 6.50000000e-01  3.38388487e-09  3.20190976e-09  4.59537522e-01  4.59537522e-01  3.29640042e-09  4.59537522e-01  3.46464061e-09  1.61316919e-07  6.79716834e-08  6.50000000e-01 
 6.60000000e-01  3.38388482e-09  3.20190976e-09  4.59537524e-01  4.59537524e-01  3.29640036e-09  4.59537524e-01  3.46464061e-09  1.61316913e-07  6.79716408e-08  6.60000000e-01 
 6.70000000e-01  3.38388487e-09  3.20190970e-09  4.59537499e-01  4.59537499e-01  3.29640036e-09  4.59537499e-01  3.46464061e-09  1.61316885e-07  6.79714631e-08  6.70000000e-01 
 6.80000000e-01  3.38388487e-09  3.20190970e-09  4.59537512e-01  4.59537512e-01  3.29640036e-09  4.59537512e-01  3.46464061e-09  1.61316894e-07  6.79715058e-08  6.80000000e-01 
 6.90000000e-01  3.38388488e-09  3.20190976e-09  4.59537540e-01  4.59537540e-01  3.29640036e-09  4.59537539e-01  3.46464061e-09  1.61316944e-07  6.79715058e-08  6.90000000e-01 
 7.00000000e-01  3.38388482e-09  3.20190976e-09  4.59537517e-01  4.59537517e-01  3.29640036e-09  4.59537516e-01  3.46464061e-09  1.61316903e-07  6.79712784e-08  7.00000000e-01 
 7.10000000e-01  3.38388487e-09  3.20190976e-09  4.59537537e-01  4.59537537e-01  3.29640036e-09  4.59537536e-01  3.46464061e-09  1.61316935e-07  6.79713850e-08  7.10000000e-01 
 7.20000000e-01  3.38388487e-09  3.20190976e-09  4.59537510e-01  4.59537510e-01  3.29640036e-09  4.59537509e-01  3.46464061e-09  1.61316908e-07  6.79713281e-08  7.20000000e-01 
 7.30000000e-01  3.38388487e-09  3.20190970e-09  4.59537486e-01  4.59537486e-01  3.29640036e-09  4.59537486e-01  3.46464061e-09  1.61316855e-07  6.79711576e-08  7.30000000e-01 
 7.40000000e-01  3.38388482e-09  3.20190971e-09  4.59537525e-01  4.59537525e-01  3.29640036e-09  4.59537525e-01  3.46464061e-09  1.61316911e-07  6.79711576e-08  7.40000000e-01 
 7.50000000e-01  3.38388482e-09  3.20190976e-09  4.59537518e-01  4.59537518e-01  3.29640036e-09  4.59537518e-01  3.46464061e-09  1.61316910e-07  6.79711007e-08  7.50000000e-01 
 7.60000000e-01  3.38388487e-09  3.20190971e-09  4.59537529e-01  4.59537529e-01  3.29640042e-09  4.59537529e-01  3.46464061e-09  1.61316930e-07  6.79710510e-08  7.60000000e-01 
 7.70000000e-01  3.38388487e-09  3.20190970e-09  4.59537503e-01  4.59537503e-01  3.29640036e-09  4.59537503e-01  3.46464061e-09  1.61316897e-07  6.79709160e-08  7.70000000e-01 
 7.80000000e-01  3.38388487e-09  3.20190970e-09  4.59537514e-01  4.59537514e-01  3.29640036e-09  4.59537514e-01  3.46464061e-09  1.61316901e-07  6.79709089e-08  7.80000000e-01 
 7.90000000e-01  3.38388487e-09  3.20190976e-09  4.59537519e-01  4.59537519e-01  3.29640036e-09  4.59537519e-01  3.46464061e-09  1.61316922e-07  6.79707597e-08  7.90000000e-01 
 8.00000000e-01  3.38388482e-09  3.20190971e-09  4.59537532e-01  4.59537532e-01  3.29640036e-09  4.59537532e-01  3.46464061e-09  1.61316929e-07  6.79707384e-08  8.00000000e-01 
 8.10000000e-01  3.38388487e-09  3.20190970e-09  4.59537498e-01  4.59537498e-01  3.29640036e-09  4.59537498e-01  3.46464061e-09  1.61316876e-07  6.79706034e-08  8.10000000e-01 
 8.20000000e-01  3.38388482e-09  3.20190970e-09  4.59537506e-01  4.59537506e-01  3.29640036e-09  4.59537506e-01  3.46464061e-09  1.61316878e-07  6.79705892e-08  8.20000000e-01 
 8.30000000e-01  3.38388487e-09  3.20190971e-09  4.59537530e-01  4.59537530e-01  3.29640036e-09  4.59537530e-01  3.46464061e-09  1.61316928e-07  6.79705678e-08  8.30000000e-01 
 8.40000000e-01  3.38388482e-09  3.20190971e-09  4.59537520e-01  4.59537520e-01  3.29640036e-09  4.59537520e-01  3.46464061e-09  1.61316908e-07  6.79705181e-08  8.40000000e-01 
 8.50000000e-01  3.38388482e-09  3.20190976e-09  4.59537507e-01  4.59537507e-01  3.29640036e-09  4.59537507e-01  3.46464061e-09  1.61316889e-07  6.79704470e-08  8.50000000e-01 
 8.60000000e-01  3.38388487e-09  3.20190970e-09  4.59537496e-01  4.59537496e-01  3.29640036e-09  4.59537496e-01  3.46464061e-09  1.61316878e-07  6.79703405e-08  8.60000000e-01 
 8.70000000e-01  3.38388482e-09  3.20190976e-09  4.59537523e-01  4.59537523e-01  3.29640036e-09  4.59537522e-01  3.46464061e-09  1.61316920e-07  6.79702126e-08  8.70000000e-01 
 8.80000000e-01  3.38388487e-09  3.20190970e-09  4.59537497e-01  4.59537497e-01  3.29640036e-09  4.59537497e-01  3.46464061e-09  1.61316879e-07  6.79701131e-08  8.80000000e-01 
 8.90000000e-01  3.38388487e-09  3.20190970e-09  4.59537493e-01  4.59537493e-01  3.29640036e-09  4.59537493e-01  3.46464061e-09  1.61316875e-07  6.79699994e-08  8.90000000e-01 
 9.00000000e-01  3.38388482e-09  3.20190971e-09  4.59537519e-01  4.59537519e-01  3.29640036e-09  4.59537519e-01  3.46464061e-09  1.61316910e-07  6.79700563e-08  9.00000000e-01 
 9.10000000e-01  3.38388487e-09  3.20190971e-09  4.59537524e-01  4.59537524e-01  3.29640036e-09  4.59537524e-01  3.46464061e-09  1.61316926e-07  6.79699497e-08  9.10000000e-01 
 9.20000000e-01  3.38388482e-09  3.20190971e-09  4.59537534e-01  4.59537534e-01  3.29640036e-09  4.59537534e-01  3.46464061e-09  1.61316934e-07  6.79700207e-08  9.20000000e-01 
 9.30000000e-01  3.38388487e-09  3.20190971e-09  4.59537533e-01  4.59537533e-01  3.29640042e-09  4.59537533e-01  3.46464061e-09  1.61316944e-07  6.79698431e-08  9.30000000e-01 
 9.40000000e-01  3.38388482e-09  3.20190970e-09  4.59537504e-01  4.59537504e-01  3.29640042e-09  4.59537504e-01  3.46464061e-09  1.61316901e-07  6.79697365e-08  9.40000000e-01 
 9.50000000e-01  3.38388487e-09  3.20190976e-09  4.59537522e-01  4.59537522e-01  3.29640036e-09  4.59537522e-01  3.46464061e-09  1.61316904e-07  6.79696157e-08  9.50000000e-01 
 9.60000000e-01  3.38388482e-09  3.20190976e-09  4.59537537e-01  4.59537537e-01  3.29640036e-09  4.59537537e-01  3.46464061e-09  1.61316944e-07  6.79696086e-08  9.60000000e-01 
 9.70000000e-01  3.38388487e-09  3.20190970e-09  4.59537499e-01  4.59537499e-01  3.29640036e-09  4.59537499e-01  3.46464061e-09  1.61316880e-07  6.79695304e-08  9.70000000e-01 
 9.80000000e-01  3.38388487e-09  3.20190971e-09  4.59537536e-01  4.59537536e-01  3.29640036e-09  4.59537536e-01  3.46464061e-09  1.61316933e-07  6.79695447e-08  9.80000000e-01 
 9.90000000e-01  3.38388487e-09  3.20190970e-09  4.59537476e-01  4.59537476e-01  3.29640036e-09  4.59537476e-01  3.46464061e-09  1.61316856e-07  6.79694594e-08  9.90000000e-01 
 1.00000000e+00  3.38388482e-09  3.20190970e-09  4.59537500e-01  4.59537500e-01  3.29640036e-09  4.59537500e-01  3.46464061e-09  1.61316878e-07  6.79692604e-08  1.00000000e+00 
 1.01000000e+00  3.38388482e-09  3.20190971e-09  4.59537527e-01  4.59537527e-01  3.29640036e-09  4.59537527e-01  3.46464061e-09  1.61316918e-07  6.79694239e-08  1.01000000e+00 
 1.02000000e+00  3.38388482e-09  3.20190970e-09  4.59537515e-01  4.59537515e-01  3.29640036e-09  4.59537515e-01  3.46464061e-09  1.61316896e-07  6.79692391e-08  1.02000000e+00 
 1.03000000e+00  3.38388487e-09  3.20190976e-09  4.59537504e-01  4.59537504e-01  3.29640036e-09  4.59537504e-01  3.46464061e-09  1.61316884e-07  6.79691894e-08  1.03000000e+00 
 1.04000000e+00  3.38388482e-09  3.20190971e-09  4.59537520e-01  4.59537520e-01  3.29640036e-09  4.59537519e-01  3.46464061e-09  1.61316903e-07  6.79689975e-08  1.04000000e+00 
 1.05000000e+00  3.38388487e-09  3.20190970e-09  4.59537507e-01  4.59537507e-01  3.29640036e-09  4.59537507e-01  3.46464061e-09  1.61316894e-07  6.79690189e-08  1.05000000e+00 
 1.06000000e+00  3.38388487e-09  3.20190970e-09  4.59537515e-01  4.59537515e-01  3.29640036e-09  4.59537514e-01  3.46464055e-09  1.61316908e-07  6.79689194e-08  1.06000000e+00 
 1.07000000e+00  3.38388487e-09  3.20190970e-09  4.59537512e-01  4.59537512e-01  3.29640036e-09  4.59537512e-01  3.46464061e-09  1.61316916e-07  6.79688981e-08  1.07000000e+00 
 1.08000000e+00  3.38388487e-09  3.20190971e-09  4.59537520e-01  4.59537520e-01  3.29640036e-09  4.59537520e-01  3.46464061e-09  1.61316900e-07  6.79686494e-08  1.08000000e+00 
 1.09000000e+00  3.38388487e-09  3.20190971e-09  4.59537528e-01  4.59537528e-01  3.29640036e-09  4.59537528e-01  3.46464061e-09  1.61316924e-07  6.79687489e-08  1.09000000e+00 
 1.10000000e+00  3.38388482e-09  3.20190970e-09  4.59537500e-01  4.59537500e-01  3.29640036e-09  4.59537500e-01  3.46464061e-09  1.61316894e-07  6.79686636e-08  1.10000000e+00 
