 v-sweep         v(b0)           v(b1)           v(b2)           v(b3)           v(b4)           v(b5)           v(b6)           i(vbias)        i(viout)        v(vout)        
 0.00000000e+00  3.37890245e-09  4.56742785e-01  3.30973293e-09  4.56742785e-01  3.46681414e-09  3.20309834e-09  3.23751265e-09  1.54611782e-07  1.54467958e-08  0.00000000e+00 
 1.00000000e-02  3.37890248e-09  4.56742773e-01  3.30973291e-09  4.56742773e-01  3.46681411e-09  3.20309831e-09  3.23751263e-09  1.54611774e-07  1.54464272e-08  1.00000000e-02 
 2.00000000e-02  3.37890242e-09  4.56742769e-01  3.30973291e-09  4.56742769e-01  3.46681417e-09  3.20309833e-09  3.23751263e-09  1.54611783e-07  1.54460662e-08  2.00000000e-02 
 3.00000000e-02  3.37890242e-09  4.56742755e-01  3.30973297e-09  4.56742755e-01  3.46681411e-09  3.20309838e-09  3.23751269e-09  1.54611755e-07  1.54456632e-08  3.00000000e-02 
 4.00000000e-02  3.37890242e-09  4.56742739e-01  3.30973297e-09  4.56742739e-01  3.46681417e-09  3.20309831e-09  3.23751268e-09  1.54611720e-07  1.54452513e-08  4.00000000e-02 
 5.00000000e-02  3.37890248e-09  4.56742749e-01  3.30973291e-09  4.56742749e-01  3.46681417e-09  3.20309833e-09  3.23751269e-09  1.54611730e-07  1.54450044e-08  5.00000000e-02 
 6.00000000e-02  3.37890242e-09  4.56742762e-01  3.30973291e-09  4.56742762e-01  3.46681417e-09  3.20309832e-09  3.23751263e-09  1.54611757e-07  1.54446482e-08  6.00000000e-02 
 7.00000000e-02  3.37890242e-09  4.56742762e-01  3.30973291e-09  4.56742762e-01  3.46681411e-09  3.20309832e-09  3.23751263e-09  1.54611750e-07  1.54443751e-08  7.00000000e-02 
 8.00000000e-02  3.37890242e-09  4.56742757e-01  3.30973291e-09  4.56742757e-01  3.46681411e-09  3.20309832e-09  3.23751263e-09  1.54611736e-07  1.54440682e-08  8.00000000e-02 
 9.00000000e-02  3.37890248e-09  4.56742750e-01  3.30973297e-09  4.56742750e-01  3.46681417e-09  3.20309838e-09  3.23751263e-09  1.54611733e-07  1.54438604e-08  9.00000000e-02 
 1.00000000e-01  3.37890242e-09  4.56742766e-01  3.30973297e-09  4.56742766e-01  3.46681417e-09  3.20309836e-09  3.23751269e-09  1.54611757e-07  1.54435957e-08  1.00000000e-01 
 1.10000000e-01  3.37890242e-09  4.56742740e-01  3.30973291e-09  4.56742740e-01  3.46681411e-09  3.20309837e-09  3.23751263e-09  1.54611724e-07  1.54433089e-08  1.10000000e-01 
 1.20000000e-01  3.37890243e-09  4.56742774e-01  3.30973291e-09  4.56742774e-01  3.46681411e-09  3.20309831e-09  3.23751269e-09  1.54611783e-07  1.54431161e-08  1.20000000e-01 
 1.30000000e-01  3.37890242e-09  4.56742757e-01  3.30973291e-09  4.56742757e-01  3.46681411e-09  3.20309838e-09  3.23751263e-09  1.54611753e-07  1.54429287e-08  1.30000000e-01 
 1.40000000e-01  3.37890248e-09  4.56742751e-01  3.30973297e-09  4.56742751e-01  3.46681417e-09  3.20309836e-09  3.23751263e-09  1.54611731e-07  1.54427662e-08  1.40000000e-01 
 1.50000000e-01  3.37890248e-09  4.56742755e-01  3.30973297e-09  4.56742755e-01  3.46681411e-09  3.20309837e-09  3.23751263e-09  1.54611731e-07  1.54425663e-08  1.50000000e-01 
 1.60000000e-01  3.37890242e-09  4.56742753e-01  3.30973291e-09  4.56742753e-01  3.46681411e-09  3.20309831e-09  3.23751263e-09  1.54611742e-07  1.54422342e-08  1.60000000e-01 
 1.70000000e-01  3.37890248e-09  4.56742751e-01  3.30973297e-09  4.56742751e-01  3.46681417e-09  3.20309838e-09  3.23751269e-09  1.54611732e-07  1.54421631e-08  1.70000000e-01 
 1.80000000e-01  3.37890248e-09  4.56742770e-01  3.30973291e-09  4.56742770e-01  3.46681417e-09  3.20309831e-09  3.23751263e-09  1.54611755e-07  1.54420210e-08  1.80000000e-01 
 1.90000000e-01  3.37890248e-09  4.56742762e-01  3.30973297e-09  4.56742762e-01  3.46681411e-09  3.20309833e-09  3.23751263e-09  1.54611764e-07  1.54418558e-08  1.90000000e-01 
 2.00000000e-01  3.37890242e-09  4.56742767e-01  3.30973291e-09  4.56742767e-01  3.46681411e-09  3.20309832e-09  3.23751269e-09  1.54611769e-07  1.54416586e-08  2.00000000e-01 
 2.10000000e-01  3.37890248e-09  4.56742769e-01  3.30973291e-09  4.56742769e-01  3.46681417e-09  3.20309838e-09  3.23751263e-09  1.54611778e-07  1.54414188e-08  2.10000000e-01 
 2.20000000e-01  3.37890242e-09  4.56742741e-01  3.30973297e-09  4.56742741e-01  3.46681411e-09  3.20309836e-09  3.23751268e-09  1.54611724e-07  1.54414561e-08  2.20000000e-01 
 2.30000000e-01  3.37890242e-09  4.56742751e-01  3.30973291e-09  4.56742751e-01  3.46681411e-09  3.20309831e-09  3.23751263e-09  1.54611741e-07  1.54412660e-08  2.30000000e-01 
 2.40000000e-01  3.37890242e-09  4.56742764e-01  3.30973297e-09  4.56742764e-01  3.46681411e-09  3.20309833e-09  3.23751263e-09  1.54611756e-07  1.54410333e-08  2.40000000e-01 
 2.50000000e-01  3.37890248e-09  4.56742750e-01  3.30973291e-09  4.56742750e-01  3.46681411e-09  3.20309838e-09  3.23751269e-09  1.54611730e-07  1.54409339e-08  2.50000000e-01 
 2.60000000e-01  3.37890243e-09  4.56742780e-01  3.30973297e-09  4.56742780e-01  3.46681411e-09  3.20309831e-09  3.23751269e-09  1.54611777e-07  1.54408912e-08  2.60000000e-01 
 2.70000000e-01  3.37890242e-09  4.56742746e-01  3.30973297e-09  4.56742746e-01  3.46681411e-09  3.20309832e-09  3.23751263e-09  1.54611724e-07  1.54407207e-08  2.70000000e-01 
 2.80000000e-01  3.37890242e-09  4.56742752e-01  3.30973291e-09  4.56742752e-01  3.46681411e-09  3.20309832e-09  3.23751269e-09  1.54611749e-07  1.54405715e-08  2.80000000e-01 
 2.90000000e-01  3.37890248e-09  4.56742746e-01  3.30973291e-09  4.56742746e-01  3.46681411e-09  3.20309838e-09  3.23751263e-09  1.54611731e-07  1.54405200e-08  2.90000000e-01 
 3.00000000e-01  3.37890242e-09  4.56742768e-01  3.30973291e-09  4.56742768e-01  3.46681411e-09  3.20309831e-09  3.23751263e-09  1.54611774e-07  1.54404738e-08  3.00000000e-01 
 3.10000000e-01  3.37890248e-09  4.56742764e-01  3.30973291e-09  4.56742764e-01  3.46681411e-09  3.20309833e-09  3.23751263e-09  1.54611748e-07  1.54402393e-08  3.10000000e-01 
 3.20000000e-01  3.37890242e-09  4.56742760e-01  3.30973291e-09  4.56742760e-01  3.46681417e-09  3.20309838e-09  3.23751263e-09  1.54611746e-07  1.54401043e-08  3.20000000e-01 
 3.30000000e-01  3.37890242e-09  4.56742769e-01  3.30973297e-09  4.56742769e-01  3.46681417e-09  3.20309831e-09  3.23751263e-09  1.54611765e-07  1.54401576e-08  3.30000000e-01 
 3.40000000e-01  3.37890242e-09  4.56742767e-01  3.30973291e-09  4.56742767e-01  3.46681417e-09  3.20309833e-09  3.23751269e-09  1.54611754e-07  1.54400617e-08  3.40000000e-01 
 3.50000000e-01  3.37890243e-09  4.56742774e-01  3.30973297e-09  4.56742774e-01  3.46681411e-09  3.20309832e-09  3.23751269e-09  1.54611785e-07  1.54399764e-08  3.50000000e-01 
 3.60000000e-01  3.37890242e-09  4.56742762e-01  3.30973297e-09  4.56742762e-01  3.46681411e-09  3.20309832e-09  3.23751263e-09  1.54611746e-07  1.54398307e-08  3.60000000e-01 
 3.70000000e-01  3.37890242e-09  4.56742768e-01  3.30973297e-09  4.56742768e-01  3.46681411e-09  3.20309832e-09  3.23751263e-09  1.54611764e-07  1.54398840e-08  3.70000000e-01 
 3.80000000e-01  3.37890242e-09  4.56742761e-01  3.30973297e-09  4.56742761e-01  3.46681417e-09  3.20309838e-09  3.23751269e-09  1.54611766e-07  1.54396957e-08  3.80000000e-01 
 3.90000000e-01  3.37890242e-09  4.56742758e-01  3.30973291e-09  4.56742758e-01  3.46681417e-09  3.20309831e-09  3.23751269e-09  1.54611747e-07  1.54397632e-08  3.90000000e-01 
 4.00000000e-01  3.37890242e-09  4.56742767e-01  3.30973291e-09  4.56742767e-01  3.46681411e-09  3.20309833e-09  3.23751263e-09  1.54611766e-07  1.54394435e-08  4.00000000e-01 
 4.10000000e-01  3.37890243e-09  4.56742772e-01  3.30973291e-09  4.56742772e-01  3.46681417e-09  3.20309838e-09  3.23751263e-09  1.54611771e-07  1.54395288e-08  4.10000000e-01 
 4.20000000e-01  3.37890242e-09  4.56742751e-01  3.30973297e-09  4.56742751e-01  3.46681411e-09  3.20309836e-09  3.23751263e-09  1.54611737e-07  1.54395252e-08  4.20000000e-01 
 4.30000000e-01  3.37890248e-09  4.56742775e-01  3.30973297e-09  4.56742775e-01  3.46681411e-09  3.20309831e-09  3.23751263e-09  1.54611777e-07  1.54393653e-08  4.30000000e-01 
 4.40000000e-01  3.37890243e-09  4.56742772e-01  3.30973291e-09  4.56742772e-01  3.46681417e-09  3.20309833e-09  3.23751269e-09  1.54611766e-07  1.54392623e-08  4.40000000e-01 
 4.50000000e-01  3.37890243e-09  4.56742773e-01  3.30973291e-09  4.56742773e-01  3.46681417e-09  3.20309838e-09  3.23751263e-09  1.54611767e-07  1.54391913e-08  4.50000000e-01 
 4.60000000e-01  3.37890248e-09  4.56742776e-01  3.30973297e-09  4.56742776e-01  3.46681417e-09  3.20309836e-09  3.23751269e-09  1.54611775e-07  1.54392410e-08  4.60000000e-01 
 4.70000000e-01  3.37890243e-09  4.56742791e-01  3.30973297e-09  4.56742791e-01  3.46681412e-09  3.20309837e-09  3.23751263e-09  1.54611788e-07  1.54391380e-08  4.70000000e-01 
 4.80000000e-01  3.37890242e-09  4.56742754e-01  3.30973291e-09  4.56742754e-01  3.46681417e-09  3.20309831e-09  3.23751269e-09  1.54611734e-07  1.54391167e-08  4.80000000e-01 
 4.90000000e-01  3.37890242e-09  4.56742752e-01  3.30973297e-09  4.56742752e-01  3.46681411e-09  3.20309833e-09  3.23751269e-09  1.54611753e-07  1.54391131e-08  4.90000000e-01 
 5.00000000e-01  3.37890242e-09  4.56742745e-01  3.30973297e-09  4.56742745e-01  3.46681411e-09  3.20309832e-09  3.23751269e-09  1.54611724e-07  1.54390882e-08  5.00000000e-01 
 5.10000000e-01  3.37890248e-09  4.56742783e-01  3.30973297e-09  4.56742783e-01  3.46681417e-09  3.20309838e-09  3.23751269e-09  1.54611784e-07  1.54389355e-08  5.10000000e-01 
 5.20000000e-01  3.37890242e-09  4.56742753e-01  3.30973291e-09  4.56742753e-01  3.46681411e-09  3.20309831e-09  3.23751263e-09  1.54611743e-07  1.54388466e-08  5.20000000e-01 
 5.30000000e-01  3.37890243e-09  4.56742770e-01  3.30973297e-09  4.56742770e-01  3.46681411e-09  3.20309833e-09  3.23751263e-09  1.54611772e-07  1.54388360e-08  5.30000000e-01 
 5.40000000e-01  3.37890242e-09  4.56742760e-01  3.30973297e-09  4.56742760e-01  3.46681411e-09  3.20309832e-09  3.23751269e-09  1.54611756e-07  1.54388182e-08  5.40000000e-01 
 5.50000000e-01  3.37890243e-09  4.56742774e-01  3.30973291e-09  4.56742774e-01  3.46681411e-09  3.20309838e-09  3.23751269e-09  1.54611765e-07  1.54387898e-08  5.50000000e-01 
 5.60000000e-01  3.37890242e-09  4.56742761e-01  3.30973297e-09  4.56742761e-01  3.46681411e-09  3.20309836e-09  3.23751263e-09  1.54611760e-07  1.54385660e-08  5.60000000e-01 
 5.70000000e-01  3.37890242e-09  4.56742759e-01  3.30973297e-09  4.56742759e-01  3.46681411e-09  3.20309837e-09  3.23751269e-09  1.54611741e-07  1.54385766e-08  5.70000000e-01 
 5.80000000e-01  3.37890242e-09  4.56742752e-01  3.30973297e-09  4.56742752e-01  3.46681417e-09  3.20309837e-09  3.23751269e-09  1.54611736e-07  1.54384594e-08  5.80000000e-01 
 5.90000000e-01  3.37890248e-09  4.56742766e-01  3.30973291e-09  4.56742766e-01  3.46681411e-09  3.20309837e-09  3.23751263e-09  1.54611767e-07  1.54384239e-08  5.90000000e-01 
 6.00000000e-01  3.37890248e-09  4.56742743e-01  3.30973291e-09  4.56742743e-01  3.46681411e-09  3.20309837e-09  3.23751263e-09  1.54611712e-07  1.54384168e-08  6.00000000e-01 
 6.10000000e-01  3.37890243e-09  4.56742783e-01  3.30973297e-09  4.56742783e-01  3.46681417e-09  3.20309831e-09  3.23751269e-09  1.54611791e-07  1.54382818e-08  6.10000000e-01 
 6.20000000e-01  3.37890242e-09  4.56742765e-01  3.30973297e-09  4.56742765e-01  3.46681417e-09  3.20309833e-09  3.23751269e-09  1.54611742e-07  1.54383102e-08  6.20000000e-01 
 6.30000000e-01  3.37890242e-09  4.56742755e-01  3.30973291e-09  4.56742755e-01  3.46681417e-09  3.20309832e-09  3.23751263e-09  1.54611735e-07  1.54382107e-08  6.30000000e-01 
 6.40000000e-01  3.37890242e-09  4.56742748e-01  3.30973291e-09  4.56742748e-01  3.46681417e-09  3.20309838e-09  3.23751263e-09  1.54611730e-07  1.54382533e-08  6.40000000e-01 
 6.50000000e-01  3.37890243e-09  4.56742790e-01  3.30973291e-09  4.56742790e-01  3.46681412e-09  3.20309837e-09  3.23751269e-09  1.54611798e-07  1.54381965e-08  6.50000000e-01 
 6.60000000e-01  3.37890242e-09  4.56742756e-01  3.30973291e-09  4.56742756e-01  3.46681411e-09  3.20309831e-09  3.23751263e-09  1.54611751e-07  1.54380828e-08  6.60000000e-01 
 6.70000000e-01  3.37890248e-09  4.56742767e-01  3.30973297e-09  4.56742767e-01  3.46681411e-09  3.20309838e-09  3.23751263e-09  1.54611760e-07  1.54380615e-08  6.70000000e-01 
 6.80000000e-01  3.37890242e-09  4.56742751e-01  3.30973291e-09  4.56742751e-01  3.46681411e-09  3.20309836e-09  3.23751263e-09  1.54611733e-07  1.54380402e-08  6.80000000e-01 
 6.90000000e-01  3.37890248e-09  4.56742766e-01  3.30973291e-09  4.56742766e-01  3.46681411e-09  3.20309837e-09  3.23751263e-09  1.54611755e-07  1.54379407e-08  6.90000000e-01 
 7.00000000e-01  3.37890243e-09  4.56742774e-01  3.30973291e-09  4.56742774e-01  3.46681411e-09  3.20309831e-09  3.23751263e-09  1.54611765e-07  1.54378554e-08  7.00000000e-01 
 7.10000000e-01  3.37890242e-09  4.56742762e-01  3.30973291e-09  4.56742762e-01  3.46681411e-09  3.20309838e-09  3.23751269e-09  1.54611745e-07  1.54379194e-08  7.10000000e-01 
 7.20000000e-01  3.37890248e-09  4.56742756e-01  3.30973291e-09  4.56742756e-01  3.46681411e-09  3.20309831e-09  3.23751269e-09  1.54611738e-07  1.54378554e-08  7.20000000e-01 
 7.30000000e-01  3.37890242e-09  4.56742759e-01  3.30973297e-09  4.56742759e-01  3.46681411e-09  3.20309833e-09  3.23751263e-09  1.54611751e-07  1.54377133e-08  7.30000000e-01 
 7.40000000e-01  3.37890243e-09  4.56742773e-01  3.30973291e-09  4.56742773e-01  3.46681411e-09  3.20309832e-09  3.23751269e-09  1.54611763e-07  1.54377986e-08  7.40000000e-01 
 7.50000000e-01  3.37890242e-09  4.56742764e-01  3.30973291e-09  4.56742764e-01  3.46681417e-09  3.20309832e-09  3.23751269e-09  1.54611761e-07  1.54375854e-08  7.50000000e-01 
 7.60000000e-01  3.37890242e-09  4.56742761e-01  3.30973291e-09  4.56742761e-01  3.46681417e-09  3.20309838e-09  3.23751269e-09  1.54611759e-07  1.54377204e-08  7.60000000e-01 
 7.70000000e-01  3.37890248e-09  4.56742762e-01  3.30973291e-09  4.56742762e-01  3.46681411e-09  3.20309831e-09  3.23751269e-09  1.54611751e-07  1.54376778e-08  7.70000000e-01 
 7.80000000e-01  3.37890242e-09  4.56742754e-01  3.30973291e-09  4.56742754e-01  3.46681411e-09  3.20309833e-09  3.23751269e-09  1.54611743e-07  1.54375073e-08  7.80000000e-01 
 7.90000000e-01  3.37890242e-09  4.56742768e-01  3.30973291e-09  4.56742768e-01  3.46681411e-09  3.20309838e-09  3.23751263e-09  1.54611747e-07  1.54375002e-08  7.90000000e-01 
 8.00000000e-01  3.37890242e-09  4.56742752e-01  3.30973297e-09  4.56742752e-01  3.46681417e-09  3.20309831e-09  3.23751269e-09  1.54611734e-07  1.54373012e-08  8.00000000e-01 
 8.10000000e-01  3.37890242e-09  4.56742738e-01  3.30973291e-09  4.56742738e-01  3.46681417e-09  3.20309832e-09  3.23751263e-09  1.54611718e-07  1.54373723e-08  8.10000000e-01 
 8.20000000e-01  3.37890243e-09  4.56742789e-01  3.30973297e-09  4.56742789e-01  3.46681411e-09  3.20309838e-09  3.23751269e-09  1.54611805e-07  1.54373723e-08  8.20000000e-01 
 8.30000000e-01  3.37890248e-09  4.56742746e-01  3.30973291e-09  4.56742746e-01  3.46681417e-09  3.20309836e-09  3.23751263e-09  1.54611728e-07  1.54373083e-08  8.30000000e-01 
 8.40000000e-01  3.37890243e-09  4.56742775e-01  3.30973291e-09  4.56742775e-01  3.46681411e-09  3.20309837e-09  3.23751263e-09  1.54611768e-07  1.54372799e-08  8.40000000e-01 
 8.50000000e-01  3.37890243e-09  4.56742776e-01  3.30973291e-09  4.56742776e-01  3.46681411e-09  3.20309837e-09  3.23751269e-09  1.54611765e-07  1.54371378e-08  8.50000000e-01 
 8.60000000e-01  3.37890242e-09  4.56742761e-01  3.30973297e-09  4.56742761e-01  3.46681417e-09  3.20309837e-09  3.23751269e-09  1.54611737e-07  1.54370454e-08  8.60000000e-01 
 8.70000000e-01  3.37890243e-09  4.56742771e-01  3.30973297e-09  4.56742771e-01  3.46681411e-09  3.20309837e-09  3.23751269e-09  1.54611764e-07  1.54370028e-08  8.70000000e-01 
 8.80000000e-01  3.37890248e-09  4.56742762e-01  3.30973291e-09  4.56742762e-01  3.46681417e-09  3.20309831e-09  3.23751263e-09  1.54611748e-07  1.54370028e-08  8.80000000e-01 
 8.90000000e-01  3.37890248e-09  4.56742781e-01  3.30973297e-09  4.56742781e-01  3.46681411e-09  3.20309833e-09  3.23751263e-09  1.54611767e-07  1.54370028e-08  8.90000000e-01 
 9.00000000e-01  3.37890248e-09  4.56742768e-01  3.30973297e-09  4.56742768e-01  3.46681411e-09  3.20309832e-09  3.23751263e-09  1.54611765e-07  1.54369033e-08  9.00000000e-01 
 9.10000000e-01  3.37890242e-09  4.56742753e-01  3.30973297e-09  4.56742753e-01  3.46681411e-09  3.20309838e-09  3.23751263e-09  1.54611740e-07  1.54367044e-08  9.10000000e-01 
 9.20000000e-01  3.37890242e-09  4.56742757e-01  3.30973297e-09  4.56742757e-01  3.46681417e-09  3.20309836e-09  3.23751263e-09  1.54611746e-07  1.54367754e-08  9.20000000e-01 
 9.30000000e-01  3.37890248e-09  4.56742762e-01  3.30973291e-09  4.56742762e-01  3.46681411e-09  3.20309837e-09  3.23751263e-09  1.54611768e-07  1.54368607e-08  9.30000000e-01 
 9.40000000e-01  3.37890248e-09  4.56742752e-01  3.30973297e-09  4.56742752e-01  3.46681411e-09  3.20309831e-09  3.23751269e-09  1.54611747e-07  1.54368180e-08  9.40000000e-01 
 9.50000000e-01  3.37890243e-09  4.56742771e-01  3.30973297e-09  4.56742771e-01  3.46681417e-09  3.20309838e-09  3.23751269e-09  1.54611763e-07  1.54367541e-08  9.50000000e-01 
 9.60000000e-01  3.37890242e-09  4.56742752e-01  3.30973297e-09  4.56742752e-01  3.46681417e-09  3.20309831e-09  3.23751263e-09  1.54611734e-07  1.54365196e-08  9.60000000e-01 
 9.70000000e-01  3.37890248e-09  4.56742786e-01  3.30973291e-09  4.56742786e-01  3.46681417e-09  3.20309838e-09  3.23751269e-09  1.54611797e-07  1.54366049e-08  9.70000000e-01 
 9.80000000e-01  3.37890242e-09  4.56742761e-01  3.30973291e-09  4.56742761e-01  3.46681411e-09  3.20309836e-09  3.23751263e-09  1.54611739e-07  1.54365409e-08  9.80000000e-01 
 9.90000000e-01  3.37890248e-09  4.56742772e-01  3.30973291e-09  4.56742772e-01  3.46681411e-09  3.20309837e-09  3.23751263e-09  1.54611784e-07  1.54364628e-08  9.90000000e-01 
 1.00000000e+00  3.37890243e-09  4.56742787e-01  3.30973291e-09  4.56742787e-01  3.46681411e-09  3.20309837e-09  3.23751269e-09  1.54611796e-07  1.54364130e-08  1.00000000e+00 
 1.01000000e+00  3.37890248e-09  4.56742770e-01  3.30973291e-09  4.56742770e-01  3.46681411e-09  3.20309831e-09  3.23751269e-09  1.54611773e-07  1.54363136e-08  1.01000000e+00 
 1.02000000e+00  3.37890242e-09  4.56742762e-01  3.30973297e-09  4.56742762e-01  3.46681411e-09  3.20309833e-09  3.23751263e-09  1.54611747e-07  1.54363420e-08  1.02000000e+00 
 1.03000000e+00  3.37890242e-09  4.56742767e-01  3.30973297e-09  4.56742767e-01  3.46681411e-09  3.20309832e-09  3.23751263e-09  1.54611774e-07  1.54361928e-08  1.03000000e+00 
 1.04000000e+00  3.37890248e-09  4.56742735e-01  3.30973291e-09  4.56742735e-01  3.46681417e-09  3.20309838e-09  3.23751263e-09  1.54611716e-07  1.54362212e-08  1.04000000e+00 
 1.05000000e+00  3.37890248e-09  4.56742743e-01  3.30973291e-09  4.56742743e-01  3.46681411e-09  3.20309831e-09  3.23751263e-09  1.54611722e-07  1.54360791e-08  1.05000000e+00 
 1.06000000e+00  3.37890242e-09  4.56742756e-01  3.30973297e-09  4.56742756e-01  3.46681411e-09  3.20309833e-09  3.23751263e-09  1.54611743e-07  1.54361288e-08  1.06000000e+00 
 1.07000000e+00  3.37890243e-09  4.56742785e-01  3.30973297e-09  4.56742785e-01  3.46681411e-09  3.20309838e-09  3.23751269e-09  1.54611792e-07  1.54359299e-08  1.07000000e+00 
 1.08000000e+00  3.37890242e-09  4.56742762e-01  3.30973297e-09  4.56742762e-01  3.46681411e-09  3.20309836e-09  3.23751269e-09  1.54611767e-07  1.54360080e-08  1.08000000e+00 
 1.09000000e+00  3.37890242e-09  4.56742765e-01  3.30973297e-09  4.56742765e-01  3.46681411e-09  3.20309831e-09  3.23751269e-09  1.54611748e-07  1.54359512e-08  1.09000000e+00 
 1.10000000e+00  3.37890248e-09  4.56742771e-01  3.30973297e-09  4.56742771e-01  3.46681411e-09  3.20309833e-09  3.23751263e-09  1.54611775e-07  1.54358375e-08  1.10000000e+00 
