 v-sweep         v(b0)           v(b1)           v(b2)           v(b3)           v(b4)           v(b5)           v(b6)           i(vbias)        i(viout)        v(vout)        
 0.00000000e+00  4.57571248e-01  3.31399995e-09  4.57571248e-01  4.57571248e-01  3.34085203e-09  3.54321042e-09  3.57926897e-09  1.58436660e-07  1.93385135e-08  0.00000000e+00 
 1.00000000e-02  4.57571248e-01  3.31399993e-09  4.57571249e-01  4.57571249e-01  3.34085201e-09  3.54321040e-09  3.57926895e-09  1.58436646e-07  1.93380978e-08  1.00000000e-02 
 2.00000000e-02  4.57571249e-01  3.31399993e-09  4.57571249e-01  4.57571249e-01  3.34085201e-09  3.54321040e-09  3.57926895e-09  1.58436647e-07  1.93377809e-08  2.00000000e-02 
 3.00000000e-02  4.57571234e-01  3.31399993e-09  4.57571234e-01  4.57571234e-01  3.34085201e-09  3.54321040e-09  3.57926895e-09  1.58436634e-07  1.93374461e-08  3.00000000e-02 
 4.00000000e-02  4.57571252e-01  3.31399993e-09  4.57571252e-01  4.57571252e-01  3.34085201e-09  3.54321046e-09  3.57926895e-09  1.58436661e-07  1.93370839e-08  4.00000000e-02 
 5.00000000e-02  4.57571254e-01  3.31399994e-09  4.57571254e-01  4.57571254e-01  3.34085201e-09  3.54321040e-09  3.57926895e-09  1.58436662e-07  1.93367238e-08  5.00000000e-02 
 6.00000000e-02  4.57571240e-01  3.31399993e-09  4.57571240e-01  4.57571240e-01  3.34085207e-09  3.54321040e-09  3.57926895e-09  1.58436642e-07  1.93363014e-08  6.00000000e-02 
 7.00000000e-02  4.57571236e-01  3.31399993e-09  4.57571237e-01  4.57571237e-01  3.34085201e-09  3.54321046e-09  3.57926895e-09  1.58436632e-07  1.93361940e-08  7.00000000e-02 
 8.00000000e-02  4.57571241e-01  3.31399993e-09  4.57571241e-01  4.57571242e-01  3.34085201e-09  3.54321046e-09  3.57926895e-09  1.58436665e-07  1.93358991e-08  8.00000000e-02 
 9.00000000e-02  4.57571237e-01  3.31399999e-09  4.57571238e-01  4.57571238e-01  3.34085207e-09  3.54321040e-09  3.57926895e-09  1.58436643e-07  1.93355536e-08  9.00000000e-02 
 1.00000000e-01  4.57571265e-01  3.31399994e-09  4.57571265e-01  4.57571265e-01  3.34085201e-09  3.54321040e-09  3.57926895e-09  1.58436677e-07  1.93353111e-08  1.00000000e-01 
 1.10000000e-01  4.57571260e-01  3.31399994e-09  4.57571260e-01  4.57571261e-01  3.34085201e-09  3.54321040e-09  3.57926895e-09  1.58436668e-07  1.93351539e-08  1.10000000e-01 
 1.20000000e-01  4.57571247e-01  3.31399993e-09  4.57571247e-01  4.57571247e-01  3.34085201e-09  3.54321040e-09  3.57926895e-09  1.58436650e-07  1.93348519e-08  1.20000000e-01 
 1.30000000e-01  4.57571257e-01  3.31399994e-09  4.57571257e-01  4.57571257e-01  3.34085201e-09  3.54321040e-09  3.57926895e-09  1.58436662e-07  1.93346681e-08  1.30000000e-01 
 1.40000000e-01  4.57571264e-01  3.31399994e-09  4.57571264e-01  4.57571264e-01  3.34085201e-09  3.54321040e-09  3.57926895e-09  1.58436676e-07  1.93343759e-08  1.40000000e-01 
 1.50000000e-01  4.57571253e-01  3.31399993e-09  4.57571253e-01  4.57571253e-01  3.34085207e-09  3.54321040e-09  3.57926901e-09  1.58436670e-07  1.93343315e-08  1.50000000e-01 
 1.60000000e-01  4.57571240e-01  3.31399993e-09  4.57571240e-01  4.57571240e-01  3.34085201e-09  3.54321040e-09  3.57926900e-09  1.58436643e-07  1.93340650e-08  1.60000000e-01 
 1.70000000e-01  4.57571265e-01  3.31399994e-09  4.57571265e-01  4.57571265e-01  3.34085201e-09  3.54321040e-09  3.57926895e-09  1.58436677e-07  1.93339140e-08  1.70000000e-01 
 1.80000000e-01  4.57571231e-01  3.31399993e-09  4.57571231e-01  4.57571232e-01  3.34085201e-09  3.54321040e-09  3.57926896e-09  1.58436629e-07  1.93338288e-08  1.80000000e-01 
 1.90000000e-01  4.57571258e-01  3.31399994e-09  4.57571258e-01  4.57571258e-01  3.34085201e-09  3.54321046e-09  3.57926895e-09  1.58436667e-07  1.93334806e-08  1.90000000e-01 
 2.00000000e-01  4.57571238e-01  3.31399993e-09  4.57571238e-01  4.57571238e-01  3.34085201e-09  3.54321040e-09  3.57926895e-09  1.58436643e-07  1.93334611e-08  2.00000000e-01 
 2.10000000e-01  4.57571256e-01  3.31399994e-09  4.57571256e-01  4.57571256e-01  3.34085201e-09  3.54321040e-09  3.57926895e-09  1.58436673e-07  1.93332035e-08  2.10000000e-01 
 2.20000000e-01  4.57571235e-01  3.31399999e-09  4.57571235e-01  4.57571235e-01  3.34085201e-09  3.54321040e-09  3.57926895e-09  1.58436629e-07  1.93331200e-08  2.20000000e-01 
 2.30000000e-01  4.57571239e-01  3.31399993e-09  4.57571239e-01  4.57571239e-01  3.34085201e-09  3.54321046e-09  3.57926895e-09  1.58436646e-07  1.93329939e-08  2.30000000e-01 
 2.40000000e-01  4.57571208e-01  3.31399993e-09  4.57571208e-01  4.57571208e-01  3.34085201e-09  3.54321040e-09  3.57926901e-09  1.58436596e-07  1.93328464e-08  2.40000000e-01 
 2.50000000e-01  4.57571241e-01  3.31399993e-09  4.57571241e-01  4.57571241e-01  3.34085201e-09  3.54321040e-09  3.57926900e-09  1.58436647e-07  1.93326937e-08  2.50000000e-01 
 2.60000000e-01  4.57571235e-01  3.31399993e-09  4.57571235e-01  4.57571235e-01  3.34085201e-09  3.54321046e-09  3.57926900e-09  1.58436635e-07  1.93326901e-08  2.60000000e-01 
 2.70000000e-01  4.57571255e-01  3.31399994e-09  4.57571255e-01  4.57571255e-01  3.34085201e-09  3.54321040e-09  3.57926895e-09  1.58436667e-07  1.93324254e-08  2.70000000e-01 
 2.80000000e-01  4.57571240e-01  3.31399993e-09  4.57571241e-01  4.57571241e-01  3.34085207e-09  3.54321040e-09  3.57926896e-09  1.58436650e-07  1.93323970e-08  2.80000000e-01 
 2.90000000e-01  4.57571233e-01  3.31399999e-09  4.57571233e-01  4.57571234e-01  3.34085207e-09  3.54321046e-09  3.57926895e-09  1.58436624e-07  1.93322052e-08  2.90000000e-01 
 3.00000000e-01  4.57571260e-01  3.31399994e-09  4.57571260e-01  4.57571260e-01  3.34085201e-09  3.54321040e-09  3.57926901e-09  1.58436678e-07  1.93321910e-08  3.00000000e-01 
 3.10000000e-01  4.57571249e-01  3.31399993e-09  4.57571249e-01  4.57571249e-01  3.34085207e-09  3.54321040e-09  3.57926894e-09  1.58436661e-07  1.93320489e-08  3.10000000e-01 
 3.20000000e-01  4.57571244e-01  3.31399993e-09  4.57571245e-01  4.57571245e-01  3.34085201e-09  3.54321040e-09  3.57926896e-09  1.58436655e-07  1.93319707e-08  3.20000000e-01 
 3.30000000e-01  4.57571236e-01  3.31399993e-09  4.57571236e-01  4.57571236e-01  3.34085201e-09  3.54321040e-09  3.57926895e-09  1.58436631e-07  1.93318677e-08  3.30000000e-01 
 3.40000000e-01  4.57571241e-01  3.31399993e-09  4.57571241e-01  4.57571241e-01  3.34085201e-09  3.54321046e-09  3.57926895e-09  1.58436632e-07  1.93317327e-08  3.40000000e-01 
 3.50000000e-01  4.57571236e-01  3.31399993e-09  4.57571237e-01  4.57571237e-01  3.34085201e-09  3.54321040e-09  3.57926901e-09  1.58436636e-07  1.93316865e-08  3.50000000e-01 
 3.60000000e-01  4.57571259e-01  3.31399994e-09  4.57571259e-01  4.57571259e-01  3.34085201e-09  3.54321040e-09  3.57926900e-09  1.58436662e-07  1.93316403e-08  3.60000000e-01 
 3.70000000e-01  4.57571244e-01  3.31399993e-09  4.57571244e-01  4.57571244e-01  3.34085201e-09  3.54321040e-09  3.57926895e-09  1.58436654e-07  1.93316225e-08  3.70000000e-01 
 3.80000000e-01  4.57571243e-01  3.31399999e-09  4.57571243e-01  4.57571243e-01  3.34085207e-09  3.54321046e-09  3.57926896e-09  1.58436659e-07  1.93315017e-08  3.80000000e-01 
 3.90000000e-01  4.57571232e-01  3.31399993e-09  4.57571232e-01  4.57571232e-01  3.34085201e-09  3.54321046e-09  3.57926895e-09  1.58436633e-07  1.93314982e-08  3.90000000e-01 
 4.00000000e-01  4.57571272e-01  3.31399994e-09  4.57571272e-01  4.57571272e-01  3.34085207e-09  3.54321046e-09  3.57926895e-09  1.58436690e-07  1.93313952e-08  4.00000000e-01 
 4.10000000e-01  4.57571243e-01  3.31399993e-09  4.57571243e-01  4.57571243e-01  3.34085201e-09  3.54321046e-09  3.57926895e-09  1.58436651e-07  1.93312708e-08  4.10000000e-01 
 4.20000000e-01  4.57571263e-01  3.31399994e-09  4.57571263e-01  4.57571263e-01  3.34085207e-09  3.54321040e-09  3.57926895e-09  1.58436686e-07  1.93312104e-08  4.20000000e-01 
 4.30000000e-01  4.57571239e-01  3.31399993e-09  4.57571240e-01  4.57571240e-01  3.34085201e-09  3.54321040e-09  3.57926895e-09  1.58436638e-07  1.93311465e-08  4.30000000e-01 
 4.40000000e-01  4.57571241e-01  3.31399993e-09  4.57571241e-01  4.57571241e-01  3.34085201e-09  3.54321040e-09  3.57926895e-09  1.58436640e-07  1.93311109e-08  4.40000000e-01 
 4.50000000e-01  4.57571241e-01  3.31399993e-09  4.57571241e-01  4.57571241e-01  3.34085201e-09  3.54321046e-09  3.57926901e-09  1.58436640e-07  1.93310399e-08  4.50000000e-01 
 4.60000000e-01  4.57571239e-01  3.31399993e-09  4.57571239e-01  4.57571239e-01  3.34085201e-09  3.54321040e-09  3.57926900e-09  1.58436648e-07  1.93310079e-08  4.60000000e-01 
 4.70000000e-01  4.57571241e-01  3.31399993e-09  4.57571241e-01  4.57571241e-01  3.34085201e-09  3.54321040e-09  3.57926895e-09  1.58436643e-07  1.93308765e-08  4.70000000e-01 
 4.80000000e-01  4.57571246e-01  3.31399993e-09  4.57571246e-01  4.57571247e-01  3.34085201e-09  3.54321040e-09  3.57926896e-09  1.58436657e-07  1.93308196e-08  4.80000000e-01 
 4.90000000e-01  4.57571263e-01  3.31399994e-09  4.57571263e-01  4.57571263e-01  3.34085201e-09  3.54321040e-09  3.57926901e-09  1.58436673e-07  1.93308054e-08  4.90000000e-01 
 5.00000000e-01  4.57571256e-01  3.31399994e-09  4.57571256e-01  4.57571256e-01  3.34085201e-09  3.54321040e-09  3.57926900e-09  1.58436662e-07  1.93307308e-08  5.00000000e-01 
 5.10000000e-01  4.57571261e-01  3.31399994e-09  4.57571261e-01  4.57571261e-01  3.34085207e-09  3.54321040e-09  3.57926895e-09  1.58436671e-07  1.93307130e-08  5.10000000e-01 
 5.20000000e-01  4.57571245e-01  3.31399993e-09  4.57571245e-01  4.57571245e-01  3.34085201e-09  3.54321040e-09  3.57926896e-09  1.58436663e-07  1.93306882e-08  5.20000000e-01 
 5.30000000e-01  4.57571246e-01  3.31399993e-09  4.57571246e-01  4.57571247e-01  3.34085201e-09  3.54321040e-09  3.57926901e-09  1.58436654e-07  1.93305709e-08  5.30000000e-01 
 5.40000000e-01  4.57571261e-01  3.31399994e-09  4.57571261e-01  4.57571261e-01  3.34085201e-09  3.54321040e-09  3.57926894e-09  1.58436679e-07  1.93305389e-08  5.40000000e-01 
 5.50000000e-01  4.57571265e-01  3.31399994e-09  4.57571265e-01  4.57571265e-01  3.34085201e-09  3.54321046e-09  3.57926896e-09  1.58436679e-07  1.93304501e-08  5.50000000e-01 
 5.60000000e-01  4.57571257e-01  3.31399994e-09  4.57571257e-01  4.57571257e-01  3.34085201e-09  3.54321040e-09  3.57926895e-09  1.58436673e-07  1.93304146e-08  5.60000000e-01 
 5.70000000e-01  4.57571246e-01  3.31399993e-09  4.57571246e-01  4.57571246e-01  3.34085201e-09  3.54321040e-09  3.57926895e-09  1.58436665e-07  1.93302867e-08  5.70000000e-01 
 5.80000000e-01  4.57571243e-01  3.31399993e-09  4.57571243e-01  4.57571243e-01  3.34085201e-09  3.54321046e-09  3.57926895e-09  1.58436654e-07  1.93303080e-08  5.80000000e-01 
 5.90000000e-01  4.57571240e-01  3.31399993e-09  4.57571240e-01  4.57571240e-01  3.34085201e-09  3.54321040e-09  3.57926901e-09  1.58436645e-07  1.93303080e-08  5.90000000e-01 
 6.00000000e-01  4.57571218e-01  3.31399993e-09  4.57571218e-01  4.57571219e-01  3.34085201e-09  3.54321040e-09  3.57926900e-09  1.58436607e-07  1.93301375e-08  6.00000000e-01 
 6.10000000e-01  4.57571266e-01  3.31399994e-09  4.57571266e-01  4.57571267e-01  3.34085201e-09  3.54321040e-09  3.57926895e-09  1.58436680e-07  1.93300949e-08  6.10000000e-01 
 6.20000000e-01  4.57571234e-01  3.31399999e-09  4.57571234e-01  4.57571234e-01  3.34085201e-09  3.54321040e-09  3.57926896e-09  1.58436627e-07  1.93301304e-08  6.20000000e-01 
 6.30000000e-01  4.57571251e-01  3.31399993e-09  4.57571251e-01  4.57571251e-01  3.34085207e-09  3.54321040e-09  3.57926895e-09  1.58436665e-07  1.93298746e-08  6.30000000e-01 
 6.40000000e-01  4.57571267e-01  3.31399994e-09  4.57571267e-01  4.57571267e-01  3.34085201e-09  3.54321040e-09  3.57926895e-09  1.58436690e-07  1.93299527e-08  6.40000000e-01 
 6.50000000e-01  4.57571261e-01  3.31399994e-09  4.57571261e-01  4.57571261e-01  3.34085201e-09  3.54321040e-09  3.57926895e-09  1.58436672e-07  1.93298462e-08  6.50000000e-01 
 6.60000000e-01  4.57571258e-01  3.31399994e-09  4.57571258e-01  4.57571258e-01  3.34085201e-09  3.54321040e-09  3.57926901e-09  1.58436669e-07  1.93298746e-08  6.60000000e-01 
 6.70000000e-01  4.57571240e-01  3.31399993e-09  4.57571240e-01  4.57571240e-01  3.34085201e-09  3.54321040e-09  3.57926894e-09  1.58436641e-07  1.93298249e-08  6.70000000e-01 
 6.80000000e-01  4.57571265e-01  3.31399999e-09  4.57571265e-01  4.57571265e-01  3.34085207e-09  3.54321040e-09  3.57926902e-09  1.58436683e-07  1.93297396e-08  6.80000000e-01 
 6.90000000e-01  4.57571244e-01  3.31399999e-09  4.57571244e-01  4.57571244e-01  3.34085201e-09  3.54321040e-09  3.57926900e-09  1.58436642e-07  1.93296472e-08  6.90000000e-01 
 7.00000000e-01  4.57571257e-01  3.31399994e-09  4.57571257e-01  4.57571257e-01  3.34085201e-09  3.54321040e-09  3.57926900e-09  1.58436673e-07  1.93295975e-08  7.00000000e-01 
 7.10000000e-01  4.57571276e-01  3.31399994e-09  4.57571276e-01  4.57571276e-01  3.34085201e-09  3.54321040e-09  3.57926895e-09  1.58436703e-07  1.93295975e-08  7.10000000e-01 
 7.20000000e-01  4.57571242e-01  3.31399993e-09  4.57571242e-01  4.57571242e-01  3.34085201e-09  3.54321040e-09  3.57926896e-09  1.58436653e-07  1.93294412e-08  7.20000000e-01 
 7.30000000e-01  4.57571242e-01  3.31399993e-09  4.57571242e-01  4.57571242e-01  3.34085207e-09  3.54321040e-09  3.57926895e-09  1.58436636e-07  1.93295762e-08  7.30000000e-01 
 7.40000000e-01  4.57571256e-01  3.31399994e-09  4.57571256e-01  4.57571256e-01  3.34085201e-09  3.54321040e-09  3.57926895e-09  1.58436675e-07  1.93295193e-08  7.40000000e-01 
 7.50000000e-01  4.57571248e-01  3.31399993e-09  4.57571248e-01  4.57571249e-01  3.34085201e-09  3.54321040e-09  3.57926895e-09  1.58436667e-07  1.93295051e-08  7.50000000e-01 
 7.60000000e-01  4.57571255e-01  3.31399999e-09  4.57571256e-01  4.57571256e-01  3.34085201e-09  3.54321040e-09  3.57926895e-09  1.58436658e-07  1.93293204e-08  7.60000000e-01 
 7.70000000e-01  4.57571246e-01  3.31399993e-09  4.57571246e-01  4.57571246e-01  3.34085201e-09  3.54321040e-09  3.57926895e-09  1.58436661e-07  1.93293133e-08  7.70000000e-01 
 7.80000000e-01  4.57571260e-01  3.31399994e-09  4.57571260e-01  4.57571260e-01  3.34085201e-09  3.54321040e-09  3.57926895e-09  1.58436663e-07  1.93292635e-08  7.80000000e-01 
 7.90000000e-01  4.57571245e-01  3.31399993e-09  4.57571245e-01  4.57571245e-01  3.34085201e-09  3.54321040e-09  3.57926895e-09  1.58436644e-07  1.93292493e-08  7.90000000e-01 
 8.00000000e-01  4.57571246e-01  3.31399993e-09  4.57571246e-01  4.57571246e-01  3.34085201e-09  3.54321040e-09  3.57926895e-09  1.58436662e-07  1.93291712e-08  8.00000000e-01 
 8.10000000e-01  4.57571242e-01  3.31399993e-09  4.57571242e-01  4.57571243e-01  3.34085207e-09  3.54321046e-09  3.57926895e-09  1.58436650e-07  1.93291214e-08  8.10000000e-01 
 8.20000000e-01  4.57571261e-01  3.31399999e-09  4.57571261e-01  4.57571261e-01  3.34085201e-09  3.54321040e-09  3.57926895e-09  1.58436665e-07  1.93289935e-08  8.20000000e-01 
 8.30000000e-01  4.57571255e-01  3.31399994e-09  4.57571256e-01  4.57571256e-01  3.34085207e-09  3.54321040e-09  3.57926895e-09  1.58436657e-07  1.93289083e-08  8.30000000e-01 
 8.40000000e-01  4.57571242e-01  3.31399993e-09  4.57571243e-01  4.57571243e-01  3.34085201e-09  3.54321040e-09  3.57926901e-09  1.58436641e-07  1.93289722e-08  8.40000000e-01 
 8.50000000e-01  4.57571250e-01  3.31399993e-09  4.57571251e-01  4.57571251e-01  3.34085201e-09  3.54321040e-09  3.57926900e-09  1.58436675e-07  1.93288301e-08  8.50000000e-01 
 8.60000000e-01  4.57571253e-01  3.31399999e-09  4.57571253e-01  4.57571253e-01  3.34085207e-09  3.54321040e-09  3.57926900e-09  1.58436669e-07  1.93288372e-08  8.60000000e-01 
 8.70000000e-01  4.57571234e-01  3.31399993e-09  4.57571234e-01  4.57571234e-01  3.34085201e-09  3.54321040e-09  3.57926900e-09  1.58436638e-07  1.93288017e-08  8.70000000e-01 
 8.80000000e-01  4.57571241e-01  3.31399999e-09  4.57571241e-01  4.57571241e-01  3.34085207e-09  3.54321040e-09  3.57926895e-09  1.58436647e-07  1.93287235e-08  8.80000000e-01 
 8.90000000e-01  4.57571245e-01  3.31399993e-09  4.57571245e-01  4.57571245e-01  3.34085201e-09  3.54321040e-09  3.57926896e-09  1.58436645e-07  1.93286169e-08  8.90000000e-01 
 9.00000000e-01  4.57571264e-01  3.31399994e-09  4.57571264e-01  4.57571264e-01  3.34085207e-09  3.54321040e-09  3.57926895e-09  1.58436678e-07  1.93286454e-08  9.00000000e-01 
 9.10000000e-01  4.57571254e-01  3.31399994e-09  4.57571254e-01  4.57571255e-01  3.34085201e-09  3.54321046e-09  3.57926895e-09  1.58436671e-07  1.93285317e-08  9.10000000e-01 
 9.20000000e-01  4.57571254e-01  3.31399994e-09  4.57571254e-01  4.57571254e-01  3.34085207e-09  3.54321040e-09  3.57926895e-09  1.58436664e-07  1.93284464e-08  9.20000000e-01 
 9.30000000e-01  4.57571251e-01  3.31399993e-09  4.57571252e-01  4.57571252e-01  3.34085201e-09  3.54321040e-09  3.57926901e-09  1.58436661e-07  1.93285317e-08  9.30000000e-01 
 9.40000000e-01  4.57571242e-01  3.31399999e-09  4.57571242e-01  4.57571242e-01  3.34085201e-09  3.54321040e-09  3.57926900e-09  1.58436633e-07  1.93284677e-08  9.40000000e-01 
 9.50000000e-01  4.57571259e-01  3.31399994e-09  4.57571259e-01  4.57571259e-01  3.34085207e-09  3.54321040e-09  3.57926895e-09  1.58436671e-07  1.93283043e-08  9.50000000e-01 
 9.60000000e-01  4.57571238e-01  3.31399993e-09  4.57571238e-01  4.57571238e-01  3.34085201e-09  3.54321040e-09  3.57926896e-09  1.58436650e-07  1.93283682e-08  9.60000000e-01 
 9.70000000e-01  4.57571262e-01  3.31399999e-09  4.57571262e-01  4.57571263e-01  3.34085201e-09  3.54321040e-09  3.57926895e-09  1.58436674e-07  1.93282403e-08  9.70000000e-01 
 9.80000000e-01  4.57571236e-01  3.31399999e-09  4.57571236e-01  4.57571237e-01  3.34085201e-09  3.54321040e-09  3.57926895e-09  1.58436642e-07  1.93282617e-08  9.80000000e-01 
 9.90000000e-01  4.57571245e-01  3.31399993e-09  4.57571245e-01  4.57571245e-01  3.34085201e-09  3.54321040e-09  3.57926895e-09  1.58436650e-07  1.93281693e-08  9.90000000e-01 
 1.00000000e+00  4.57571246e-01  3.31399999e-09  4.57571246e-01  4.57571246e-01  3.34085201e-09  3.54321040e-09  3.57926895e-09  1.58436652e-07  1.93280485e-08  1.00000000e+00 
 1.01000000e+00  4.57571236e-01  3.31399993e-09  4.57571236e-01  4.57571236e-01  3.34085201e-09  3.54321040e-09  3.57926901e-09  1.58436646e-07  1.93281480e-08  1.01000000e+00 
 1.02000000e+00  4.57571266e-01  3.31399994e-09  4.57571266e-01  4.57571266e-01  3.34085201e-09  3.54321046e-09  3.57926900e-09  1.58436687e-07  1.93279490e-08  1.02000000e+00 
 1.03000000e+00  4.57571252e-01  3.31399993e-09  4.57571252e-01  4.57571252e-01  3.34085201e-09  3.54321040e-09  3.57926895e-09  1.58436658e-07  1.93279135e-08  1.03000000e+00 
 1.04000000e+00  4.57571254e-01  3.31399999e-09  4.57571254e-01  4.57571254e-01  3.34085201e-09  3.54321046e-09  3.57926896e-09  1.58436665e-07  1.93279135e-08  1.04000000e+00 
 1.05000000e+00  4.57571253e-01  3.31399993e-09  4.57571253e-01  4.57571253e-01  3.34085201e-09  3.54321040e-09  3.57926895e-09  1.58436653e-07  1.93278140e-08  1.05000000e+00 
 1.06000000e+00  4.57571260e-01  3.31399999e-09  4.57571260e-01  4.57571260e-01  3.34085201e-09  3.54321046e-09  3.57926895e-09  1.58436676e-07  1.93279348e-08  1.06000000e+00 
 1.07000000e+00  4.57571250e-01  3.31399993e-09  4.57571250e-01  4.57571251e-01  3.34085207e-09  3.54321040e-09  3.57926895e-09  1.58436667e-07  1.93276506e-08  1.07000000e+00 
 1.08000000e+00  4.57571233e-01  3.31399993e-09  4.57571233e-01  4.57571234e-01  3.34085201e-09  3.54321040e-09  3.57926895e-09  1.58436631e-07  1.93277501e-08  1.08000000e+00 
 1.09000000e+00  4.57571240e-01  3.31399993e-09  4.57571240e-01  4.57571240e-01  3.34085201e-09  3.54321040e-09  3.57926895e-09  1.58436648e-07  1.93275724e-08  1.09000000e+00 
 1.10000000e+00  4.57571229e-01  3.31399999e-09  4.57571230e-01  4.57571230e-01  3.34085201e-09  3.54321040e-09  3.57926895e-09  1.58436617e-07  1.93275298e-08  1.10000000e+00 
