 v-sweep         v(b0)           v(b1)           v(b2)           v(b3)           v(b4)           v(b5)           v(b6)           i(vbias)        i(viout)        v(vout)        
 0.00000000e+00  4.60560823e-01  4.60560823e-01  3.79554821e-09  4.60560823e-01  4.60560823e-01  4.60560823e-01  3.47588358e-09  1.62412418e-07  9.51206746e-08  0.00000000e+00 
 1.00000000e-02  4.60560823e-01  4.60560823e-01  3.79554824e-09  4.60560823e-01  4.60560823e-01  4.60560823e-01  3.47588355e-09  1.62412417e-07  9.51202830e-08  1.00000000e-02 
 2.00000000e-02  4.60560822e-01  4.60560822e-01  3.79554818e-09  4.60560822e-01  4.60560822e-01  4.60560822e-01  3.47588356e-09  1.62412396e-07  9.51198738e-08  2.00000000e-02 
 3.00000000e-02  4.60560790e-01  4.60560790e-01  3.79554824e-09  4.60560790e-01  4.60560790e-01  4.60560790e-01  3.47588354e-09  1.62412361e-07  9.51193844e-08  3.00000000e-02 
 4.00000000e-02  4.60560808e-01  4.60560808e-01  3.79554818e-09  4.60560808e-01  4.60560808e-01  4.60560808e-01  3.47588356e-09  1.62412382e-07  9.51191370e-08  4.00000000e-02 
 5.00000000e-02  4.60560820e-01  4.60560820e-01  3.79554824e-09  4.60560820e-01  4.60560820e-01  4.60560820e-01  3.47588354e-09  1.62412394e-07  9.51188812e-08  5.00000000e-02 
 6.00000000e-02  4.60560814e-01  4.60560814e-01  3.79554818e-09  4.60560814e-01  4.60560814e-01  4.60560814e-01  3.47588356e-09  1.62412386e-07  9.51184540e-08  6.00000000e-02 
 7.00000000e-02  4.60560823e-01  4.60560823e-01  3.79554824e-09  4.60560823e-01  4.60560823e-01  4.60560823e-01  3.47588360e-09  1.62412400e-07  9.51182284e-08  7.00000000e-02 
 8.00000000e-02  4.60560817e-01  4.60560817e-01  3.79554824e-09  4.60560817e-01  4.60560817e-01  4.60560817e-01  3.47588355e-09  1.62412402e-07  9.51179002e-08  8.00000000e-02 
 9.00000000e-02  4.60560820e-01  4.60560820e-01  3.79554818e-09  4.60560820e-01  4.60560820e-01  4.60560820e-01  3.47588356e-09  1.62412399e-07  9.51176427e-08  9.00000000e-02 
 1.00000000e-01  4.60560795e-01  4.60560795e-01  3.79554824e-09  4.60560795e-01  4.60560795e-01  4.60560795e-01  3.47588360e-09  1.62412365e-07  9.51172501e-08  1.00000000e-01 
 1.10000000e-01  4.60560813e-01  4.60560813e-01  3.79554818e-09  4.60560813e-01  4.60560813e-01  4.60560813e-01  3.47588355e-09  1.62412409e-07  9.51171701e-08  1.10000000e-01 
 1.20000000e-01  4.60560820e-01  4.60560820e-01  3.79554824e-09  4.60560820e-01  4.60560820e-01  4.60560820e-01  3.47588356e-09  1.62412405e-07  9.51167944e-08  1.20000000e-01 
 1.30000000e-01  4.60560801e-01  4.60560802e-01  3.79554824e-09  4.60560801e-01  4.60560801e-01  4.60560802e-01  3.47588360e-09  1.62412379e-07  9.51165910e-08  1.30000000e-01 
 1.40000000e-01  4.60560791e-01  4.60560791e-01  3.79554818e-09  4.60560791e-01  4.60560791e-01  4.60560791e-01  3.47588354e-09  1.62412358e-07  9.51162944e-08  1.40000000e-01 
 1.50000000e-01  4.60560813e-01  4.60560813e-01  3.79554818e-09  4.60560813e-01  4.60560813e-01  4.60560813e-01  3.47588356e-09  1.62412398e-07  9.51160946e-08  1.50000000e-01 
 1.60000000e-01  4.60560793e-01  4.60560793e-01  3.79554824e-09  4.60560793e-01  4.60560793e-01  4.60560793e-01  3.47588354e-09  1.62412359e-07  9.51159045e-08  1.60000000e-01 
 1.70000000e-01  4.60560835e-01  4.60560835e-01  3.79554818e-09  4.60560834e-01  4.60560834e-01  4.60560835e-01  3.47588356e-09  1.62412429e-07  9.51157002e-08  1.70000000e-01 
 1.80000000e-01  4.60560818e-01  4.60560818e-01  3.79554824e-09  4.60560818e-01  4.60560818e-01  4.60560818e-01  3.47588354e-09  1.62412405e-07  9.51156700e-08  1.80000000e-01 
 1.90000000e-01  4.60560813e-01  4.60560813e-01  3.79554818e-09  4.60560813e-01  4.60560813e-01  4.60560813e-01  3.47588356e-09  1.62412389e-07  9.51153805e-08  1.90000000e-01 
 2.00000000e-01  4.60560797e-01  4.60560797e-01  3.79554824e-09  4.60560797e-01  4.60560797e-01  4.60560797e-01  3.47588360e-09  1.62412375e-07  9.51151833e-08  2.00000000e-01 
 2.10000000e-01  4.60560821e-01  4.60560821e-01  3.79554824e-09  4.60560821e-01  4.60560821e-01  4.60560821e-01  3.47588355e-09  1.62412409e-07  9.51149648e-08  2.10000000e-01 
 2.20000000e-01  4.60560813e-01  4.60560813e-01  3.79554824e-09  4.60560813e-01  4.60560813e-01  4.60560813e-01  3.47588356e-09  1.62412390e-07  9.51149115e-08  2.20000000e-01 
 2.30000000e-01  4.60560804e-01  4.60560804e-01  3.79554818e-09  4.60560804e-01  4.60560804e-01  4.60560804e-01  3.47588354e-09  1.62412370e-07  9.51147996e-08  2.30000000e-01 
 2.40000000e-01  4.60560814e-01  4.60560815e-01  3.79554824e-09  4.60560814e-01  4.60560814e-01  4.60560815e-01  3.47588356e-09  1.62412383e-07  9.51146273e-08  2.40000000e-01 
 2.50000000e-01  4.60560800e-01  4.60560800e-01  3.79554824e-09  4.60560800e-01  4.60560800e-01  4.60560800e-01  3.47588354e-09  1.62412362e-07  9.51143964e-08  2.50000000e-01 
 2.60000000e-01  4.60560811e-01  4.60560811e-01  3.79554824e-09  4.60560811e-01  4.60560811e-01  4.60560811e-01  3.47588356e-09  1.62412392e-07  9.51142418e-08  2.60000000e-01 
 2.70000000e-01  4.60560792e-01  4.60560792e-01  3.79554818e-09  4.60560792e-01  4.60560792e-01  4.60560792e-01  3.47588354e-09  1.62412369e-07  9.51141654e-08  2.70000000e-01 
 2.80000000e-01  4.60560792e-01  4.60560792e-01  3.79554824e-09  4.60560792e-01  4.60560792e-01  4.60560792e-01  3.47588356e-09  1.62412363e-07  9.51140304e-08  2.80000000e-01 
 2.90000000e-01  4.60560795e-01  4.60560795e-01  3.79554818e-09  4.60560795e-01  4.60560795e-01  4.60560795e-01  3.47588355e-09  1.62412362e-07  9.51138404e-08  2.90000000e-01 
 3.00000000e-01  4.60560789e-01  4.60560789e-01  3.79554824e-09  4.60560789e-01  4.60560789e-01  4.60560789e-01  3.47588355e-09  1.62412354e-07  9.51137054e-08  3.00000000e-01 
 3.10000000e-01  4.60560814e-01  4.60560814e-01  3.79554818e-09  4.60560814e-01  4.60560814e-01  4.60560814e-01  3.47588355e-09  1.62412401e-07  9.51136698e-08  3.10000000e-01 
 3.20000000e-01  4.60560835e-01  4.60560835e-01  3.79554824e-09  4.60560835e-01  4.60560835e-01  4.60560835e-01  3.47588355e-09  1.62412415e-07  9.51136556e-08  3.20000000e-01 
 3.30000000e-01  4.60560792e-01  4.60560792e-01  3.79554824e-09  4.60560792e-01  4.60560792e-01  4.60560792e-01  3.47588355e-09  1.62412355e-07  9.51133892e-08  3.30000000e-01 
 3.40000000e-01  4.60560813e-01  4.60560813e-01  3.79554824e-09  4.60560813e-01  4.60560813e-01  4.60560813e-01  3.47588361e-09  1.62412397e-07  9.51133536e-08  3.40000000e-01 
 3.50000000e-01  4.60560827e-01  4.60560827e-01  3.79554824e-09  4.60560827e-01  4.60560827e-01  4.60560827e-01  3.47588360e-09  1.62412421e-07  9.51132400e-08  3.50000000e-01 
 3.60000000e-01  4.60560817e-01  4.60560817e-01  3.79554818e-09  4.60560817e-01  4.60560817e-01  4.60560817e-01  3.47588355e-09  1.62412393e-07  9.51132932e-08  3.60000000e-01 
 3.70000000e-01  4.60560824e-01  4.60560824e-01  3.79554824e-09  4.60560824e-01  4.60560824e-01  4.60560824e-01  3.47588356e-09  1.62412396e-07  9.51130552e-08  3.70000000e-01 
 3.80000000e-01  4.60560833e-01  4.60560833e-01  3.79554824e-09  4.60560833e-01  4.60560833e-01  4.60560833e-01  3.47588360e-09  1.62412415e-07  9.51131121e-08  3.80000000e-01 
 3.90000000e-01  4.60560802e-01  4.60560803e-01  3.79554818e-09  4.60560802e-01  4.60560802e-01  4.60560803e-01  3.47588355e-09  1.62412382e-07  9.51127781e-08  3.90000000e-01 
 4.00000000e-01  4.60560821e-01  4.60560821e-01  3.79554818e-09  4.60560821e-01  4.60560821e-01  4.60560821e-01  3.47588356e-09  1.62412401e-07  9.51128065e-08  4.00000000e-01 
 4.10000000e-01  4.60560825e-01  4.60560825e-01  3.79554818e-09  4.60560825e-01  4.60560825e-01  4.60560825e-01  3.47588360e-09  1.62412399e-07  9.51127497e-08  4.10000000e-01 
 4.20000000e-01  4.60560816e-01  4.60560816e-01  3.79554824e-09  4.60560816e-01  4.60560816e-01  4.60560816e-01  3.47588355e-09  1.62412399e-07  9.51126040e-08  4.20000000e-01 
 4.30000000e-01  4.60560803e-01  4.60560803e-01  3.79554824e-09  4.60560803e-01  4.60560803e-01  4.60560803e-01  3.47588356e-09  1.62412361e-07  9.51124797e-08  4.30000000e-01 
 4.40000000e-01  4.60560789e-01  4.60560789e-01  3.79554824e-09  4.60560789e-01  4.60560789e-01  4.60560789e-01  3.47588354e-09  1.62412365e-07  9.51124015e-08  4.40000000e-01 
 4.50000000e-01  4.60560827e-01  4.60560827e-01  3.79554824e-09  4.60560826e-01  4.60560826e-01  4.60560827e-01  3.47588356e-09  1.62412417e-07  9.51124193e-08  4.50000000e-01 
 4.60000000e-01  4.60560793e-01  4.60560793e-01  3.79554824e-09  4.60560793e-01  4.60560793e-01  4.60560793e-01  3.47588354e-09  1.62412355e-07  9.51122701e-08  4.60000000e-01 
 4.70000000e-01  4.60560807e-01  4.60560807e-01  3.79554818e-09  4.60560807e-01  4.60560807e-01  4.60560807e-01  3.47588356e-09  1.62412385e-07  9.51120569e-08  4.70000000e-01 
 4.80000000e-01  4.60560813e-01  4.60560813e-01  3.79554818e-09  4.60560813e-01  4.60560813e-01  4.60560813e-01  3.47588360e-09  1.62412406e-07  9.51121670e-08  4.80000000e-01 
 4.90000000e-01  4.60560801e-01  4.60560801e-01  3.79554818e-09  4.60560801e-01  4.60560801e-01  4.60560801e-01  3.47588355e-09  1.62412371e-07  9.51119894e-08  4.90000000e-01 
 5.00000000e-01  4.60560813e-01  4.60560813e-01  3.79554824e-09  4.60560813e-01  4.60560813e-01  4.60560813e-01  3.47588356e-09  1.62412396e-07  9.51119752e-08  5.00000000e-01 
 5.10000000e-01  4.60560794e-01  4.60560794e-01  3.79554818e-09  4.60560794e-01  4.60560794e-01  4.60560794e-01  3.47588360e-09  1.62412354e-07  9.51117798e-08  5.10000000e-01 
 5.20000000e-01  4.60560809e-01  4.60560809e-01  3.79554818e-09  4.60560809e-01  4.60560809e-01  4.60560809e-01  3.47588360e-09  1.62412390e-07  9.51118757e-08  5.20000000e-01 
 5.30000000e-01  4.60560794e-01  4.60560794e-01  3.79554824e-09  4.60560794e-01  4.60560794e-01  4.60560794e-01  3.47588354e-09  1.62412360e-07  9.51118047e-08  5.30000000e-01 
 5.40000000e-01  4.60560825e-01  4.60560825e-01  3.79554824e-09  4.60560825e-01  4.60560825e-01  4.60560825e-01  3.47588356e-09  1.62412410e-07  9.51116483e-08  5.40000000e-01 
 5.50000000e-01  4.60560809e-01  4.60560809e-01  3.79554824e-09  4.60560809e-01  4.60560809e-01  4.60560809e-01  3.47588354e-09  1.62412383e-07  9.51116164e-08  5.50000000e-01 
 5.60000000e-01  4.60560803e-01  4.60560803e-01  3.79554818e-09  4.60560803e-01  4.60560803e-01  4.60560803e-01  3.47588356e-09  1.62412380e-07  9.51114423e-08  5.60000000e-01 
 5.70000000e-01  4.60560804e-01  4.60560804e-01  3.79554818e-09  4.60560804e-01  4.60560804e-01  4.60560804e-01  3.47588360e-09  1.62412384e-07  9.51114707e-08  5.70000000e-01 
 5.80000000e-01  4.60560812e-01  4.60560812e-01  3.79554824e-09  4.60560812e-01  4.60560812e-01  4.60560812e-01  3.47588360e-09  1.62412394e-07  9.51113321e-08  5.80000000e-01 
 5.90000000e-01  4.60560804e-01  4.60560804e-01  3.79554818e-09  4.60560804e-01  4.60560804e-01  4.60560804e-01  3.47588355e-09  1.62412386e-07  9.51113108e-08  5.90000000e-01 
 6.00000000e-01  4.60560815e-01  4.60560815e-01  3.79554824e-09  4.60560815e-01  4.60560815e-01  4.60560815e-01  3.47588356e-09  1.62412393e-07  9.51112611e-08  6.00000000e-01 
 6.10000000e-01  4.60560791e-01  4.60560791e-01  3.79554824e-09  4.60560791e-01  4.60560791e-01  4.60560791e-01  3.47588354e-09  1.62412354e-07  9.51111190e-08  6.10000000e-01 
 6.20000000e-01  4.60560806e-01  4.60560807e-01  3.79554824e-09  4.60560806e-01  4.60560806e-01  4.60560807e-01  3.47588356e-09  1.62412375e-07  9.51111474e-08  6.20000000e-01 
 6.30000000e-01  4.60560844e-01  4.60560844e-01  3.79554824e-09  4.60560844e-01  4.60560844e-01  4.60560844e-01  3.47588360e-09  1.62412431e-07  9.51111829e-08  6.30000000e-01 
 6.40000000e-01  4.60560826e-01  4.60560826e-01  3.79554824e-09  4.60560826e-01  4.60560826e-01  4.60560826e-01  3.47588355e-09  1.62412425e-07  9.51110266e-08  6.40000000e-01 
 6.50000000e-01  4.60560814e-01  4.60560814e-01  3.79554824e-09  4.60560814e-01  4.60560814e-01  4.60560814e-01  3.47588356e-09  1.62412400e-07  9.51108703e-08  6.50000000e-01 
 6.60000000e-01  4.60560816e-01  4.60560816e-01  3.79554824e-09  4.60560816e-01  4.60560816e-01  4.60560816e-01  3.47588360e-09  1.62412401e-07  9.51107921e-08  6.60000000e-01 
 6.70000000e-01  4.60560793e-01  4.60560793e-01  3.79554824e-09  4.60560793e-01  4.60560793e-01  4.60560793e-01  3.47588354e-09  1.62412365e-07  9.51106429e-08  6.70000000e-01 
 6.80000000e-01  4.60560782e-01  4.60560782e-01  3.79554824e-09  4.60560782e-01  4.60560782e-01  4.60560782e-01  3.47588356e-09  1.62412352e-07  9.51105363e-08  6.80000000e-01 
 6.90000000e-01  4.60560788e-01  4.60560788e-01  3.79554818e-09  4.60560788e-01  4.60560788e-01  4.60560788e-01  3.47588355e-09  1.62412350e-07  9.51105292e-08  6.90000000e-01 
 7.00000000e-01  4.60560804e-01  4.60560804e-01  3.79554824e-09  4.60560804e-01  4.60560804e-01  4.60560804e-01  3.47588355e-09  1.62412380e-07  9.51104724e-08  7.00000000e-01 
 7.10000000e-01  4.60560829e-01  4.60560829e-01  3.79554824e-09  4.60560829e-01  4.60560829e-01  4.60560829e-01  3.47588361e-09  1.62412418e-07  9.51104866e-08  7.10000000e-01 
 7.20000000e-01  4.60560834e-01  4.60560834e-01  3.79554818e-09  4.60560834e-01  4.60560834e-01  4.60560834e-01  3.47588360e-09  1.62412425e-07  9.51103516e-08  7.20000000e-01 
 7.30000000e-01  4.60560807e-01  4.60560807e-01  3.79554824e-09  4.60560807e-01  4.60560807e-01  4.60560807e-01  3.47588355e-09  1.62412371e-07  9.51102379e-08  7.30000000e-01 
 7.40000000e-01  4.60560809e-01  4.60560809e-01  3.79554824e-09  4.60560809e-01  4.60560809e-01  4.60560809e-01  3.47588356e-09  1.62412391e-07  9.51101597e-08  7.40000000e-01 
 7.50000000e-01  4.60560818e-01  4.60560818e-01  3.79554818e-09  4.60560818e-01  4.60560818e-01  4.60560818e-01  3.47588354e-09  1.62412385e-07  9.51100461e-08  7.50000000e-01 
 7.60000000e-01  4.60560803e-01  4.60560803e-01  3.79554818e-09  4.60560803e-01  4.60560803e-01  4.60560803e-01  3.47588356e-09  1.62412371e-07  9.51100390e-08  7.60000000e-01 
 7.70000000e-01  4.60560817e-01  4.60560817e-01  3.79554818e-09  4.60560817e-01  4.60560817e-01  4.60560817e-01  3.47588360e-09  1.62412409e-07  9.51099253e-08  7.70000000e-01 
 7.80000000e-01  4.60560799e-01  4.60560800e-01  3.79554818e-09  4.60560799e-01  4.60560799e-01  4.60560800e-01  3.47588355e-09  1.62412369e-07  9.51098542e-08  7.80000000e-01 
 7.90000000e-01  4.60560799e-01  4.60560799e-01  3.79554824e-09  4.60560799e-01  4.60560799e-01  4.60560799e-01  3.47588356e-09  1.62412372e-07  9.51097832e-08  7.90000000e-01 
 8.00000000e-01  4.60560814e-01  4.60560814e-01  3.79554818e-09  4.60560814e-01  4.60560814e-01  4.60560814e-01  3.47588355e-09  1.62412389e-07  9.51097476e-08  8.00000000e-01 
 8.10000000e-01  4.60560814e-01  4.60560815e-01  3.79554824e-09  4.60560814e-01  4.60560814e-01  4.60560814e-01  3.47588355e-09  1.62412398e-07  9.51096553e-08  8.10000000e-01 
 8.20000000e-01  4.60560835e-01  4.60560835e-01  3.79554818e-09  4.60560835e-01  4.60560835e-01  4.60560835e-01  3.47588355e-09  1.62412417e-07  9.51096624e-08  8.20000000e-01 
 8.30000000e-01  4.60560801e-01  4.60560801e-01  3.79554824e-09  4.60560801e-01  4.60560801e-01  4.60560801e-01  3.47588355e-09  1.62412374e-07  9.51094563e-08  8.30000000e-01 
 8.40000000e-01  4.60560807e-01  4.60560807e-01  3.79554818e-09  4.60560807e-01  4.60560807e-01  4.60560807e-01  3.47588355e-09  1.62412390e-07  9.51094634e-08  8.40000000e-01 
 8.50000000e-01  4.60560807e-01  4.60560807e-01  3.79554818e-09  4.60560807e-01  4.60560807e-01  4.60560807e-01  3.47588355e-09  1.62412384e-07  9.51094279e-08  8.50000000e-01 
 8.60000000e-01  4.60560823e-01  4.60560823e-01  3.79554818e-09  4.60560823e-01  4.60560823e-01  4.60560823e-01  3.47588355e-09  1.62412402e-07  9.51094563e-08  8.60000000e-01 
 8.70000000e-01  4.60560825e-01  4.60560825e-01  3.79554818e-09  4.60560825e-01  4.60560825e-01  4.60560825e-01  3.47588355e-09  1.62412410e-07  9.51092645e-08  8.70000000e-01 
 8.80000000e-01  4.60560791e-01  4.60560791e-01  3.79554824e-09  4.60560791e-01  4.60560791e-01  4.60560791e-01  3.47588355e-09  1.62412357e-07  9.51092005e-08  8.80000000e-01 
 8.90000000e-01  4.60560807e-01  4.60560808e-01  3.79554824e-09  4.60560807e-01  4.60560807e-01  4.60560808e-01  3.47588355e-09  1.62412388e-07  9.51091579e-08  8.90000000e-01 
 9.00000000e-01  4.60560784e-01  4.60560784e-01  3.79554818e-09  4.60560784e-01  4.60560784e-01  4.60560784e-01  3.47588355e-09  1.62412347e-07  9.51088737e-08  9.00000000e-01 
 9.10000000e-01  4.60560808e-01  4.60560808e-01  3.79554824e-09  4.60560808e-01  4.60560808e-01  4.60560808e-01  3.47588355e-09  1.62412380e-07  9.51089376e-08  9.10000000e-01 
 9.20000000e-01  4.60560821e-01  4.60560821e-01  3.79554818e-09  4.60560821e-01  4.60560821e-01  4.60560821e-01  3.47588355e-09  1.62412407e-07  9.51089660e-08  9.20000000e-01 
 9.30000000e-01  4.60560828e-01  4.60560828e-01  3.79554818e-09  4.60560828e-01  4.60560828e-01  4.60560828e-01  3.47588355e-09  1.62412403e-07  9.51089021e-08  9.30000000e-01 
 9.40000000e-01  4.60560807e-01  4.60560807e-01  3.79554824e-09  4.60560807e-01  4.60560807e-01  4.60560807e-01  3.47588361e-09  1.62412374e-07  9.51086534e-08  9.40000000e-01 
 9.50000000e-01  4.60560814e-01  4.60560814e-01  3.79554824e-09  4.60560814e-01  4.60560814e-01  4.60560814e-01  3.47588354e-09  1.62412389e-07  9.51086321e-08  9.50000000e-01 
 9.60000000e-01  4.60560787e-01  4.60560787e-01  3.79554824e-09  4.60560787e-01  4.60560787e-01  4.60560787e-01  3.47588356e-09  1.62412347e-07  9.51085042e-08  9.60000000e-01 
 9.70000000e-01  4.60560798e-01  4.60560798e-01  3.79554818e-09  4.60560798e-01  4.60560798e-01  4.60560798e-01  3.47588355e-09  1.62412377e-07  9.51084829e-08  9.70000000e-01 
 9.80000000e-01  4.60560810e-01  4.60560810e-01  3.79554818e-09  4.60560810e-01  4.60560810e-01  4.60560810e-01  3.47588361e-09  1.62412379e-07  9.51084616e-08  9.80000000e-01 
 9.90000000e-01  4.60560806e-01  4.60560806e-01  3.79554824e-09  4.60560806e-01  4.60560806e-01  4.60560806e-01  3.47588354e-09  1.62412385e-07  9.51082271e-08  9.90000000e-01 
 1.00000000e+00  4.60560794e-01  4.60560794e-01  3.79554824e-09  4.60560794e-01  4.60560794e-01  4.60560794e-01  3.47588356e-09  1.62412359e-07  9.51081560e-08  1.00000000e+00 
 1.01000000e+00  4.60560826e-01  4.60560826e-01  3.79554824e-09  4.60560826e-01  4.60560826e-01  4.60560826e-01  3.47588355e-09  1.62412430e-07  9.51082200e-08  1.01000000e+00 
 1.02000000e+00  4.60560817e-01  4.60560817e-01  3.79554818e-09  4.60560817e-01  4.60560817e-01  4.60560817e-01  3.47588355e-09  1.62412393e-07  9.51081631e-08  1.02000000e+00 
 1.03000000e+00  4.60560825e-01  4.60560826e-01  3.79554824e-09  4.60560825e-01  4.60560825e-01  4.60560826e-01  3.47588361e-09  1.62412399e-07  9.51080352e-08  1.03000000e+00 
 1.04000000e+00  4.60560811e-01  4.60560811e-01  3.79554824e-09  4.60560811e-01  4.60560811e-01  4.60560811e-01  3.47588354e-09  1.62412383e-07  9.51079926e-08  1.04000000e+00 
 1.05000000e+00  4.60560810e-01  4.60560810e-01  3.79554824e-09  4.60560810e-01  4.60560810e-01  4.60560810e-01  3.47588356e-09  1.62412389e-07  9.51078576e-08  1.05000000e+00 
 1.06000000e+00  4.60560807e-01  4.60560808e-01  3.79554824e-09  4.60560807e-01  4.60560807e-01  4.60560807e-01  3.47588354e-09  1.62412378e-07  9.51077510e-08  1.06000000e+00 
 1.07000000e+00  4.60560818e-01  4.60560818e-01  3.79554824e-09  4.60560818e-01  4.60560818e-01  4.60560818e-01  3.47588356e-09  1.62412402e-07  9.51077439e-08  1.07000000e+00 
 1.08000000e+00  4.60560801e-01  4.60560801e-01  3.79554818e-09  4.60560801e-01  4.60560801e-01  4.60560801e-01  3.47588354e-09  1.62412372e-07  9.51076089e-08  1.08000000e+00 
 1.09000000e+00  4.60560822e-01  4.60560822e-01  3.79554824e-09  4.60560822e-01  4.60560822e-01  4.60560822e-01  3.47588356e-09  1.62412408e-07  9.51076160e-08  1.09000000e+00 
 1.10000000e+00  4.60560806e-01  4.60560806e-01  3.79554818e-09  4.60560806e-01  4.60560806e-01  4.60560806e-01  3.47588354e-09  1.62412383e-07  9.51074952e-08  1.10000000e+00 
