 v-sweep         v(b0)           v(b1)           v(b2)           v(b3)           v(b4)           v(b5)           v(b6)           i(vbias)        i(viout)        v(vout)        
 0.00000000e+00  4.60382498e-01  3.19691971e-09  3.19114750e-09  4.60382498e-01  4.60382498e-01  3.29351994e-09  3.15048778e-09  1.63301651e-07  4.29110496e-08  0.00000000e+00 
 1.00000000e-02  4.60382466e-01  3.19691969e-09  3.19114754e-09  4.60382466e-01  4.60382466e-01  3.29351998e-09  3.15048782e-09  1.63301607e-07  4.29105979e-08  1.00000000e-02 
 2.00000000e-02  4.60382480e-01  3.19691970e-09  3.19114748e-09  4.60382480e-01  4.60382480e-01  3.29351998e-09  3.15048782e-09  1.63301617e-07  4.29101199e-08  2.00000000e-02 
 3.00000000e-02  4.60382494e-01  3.19691970e-09  3.19114748e-09  4.60382494e-01  4.60382494e-01  3.29351998e-09  3.15048782e-09  1.63301642e-07  4.29098865e-08  3.00000000e-02 
 4.00000000e-02  4.60382505e-01  3.19691975e-09  3.19114754e-09  4.60382505e-01  4.60382505e-01  3.29351992e-09  3.15048782e-09  1.63301674e-07  4.29095026e-08  4.00000000e-02 
 5.00000000e-02  4.60382482e-01  3.19691970e-09  3.19114748e-09  4.60382482e-01  4.60382482e-01  3.29351992e-09  3.15048782e-09  1.63301634e-07  4.29091895e-08  5.00000000e-02 
 6.00000000e-02  4.60382500e-01  3.19691970e-09  3.19114754e-09  4.60382500e-01  4.60382500e-01  3.29351998e-09  3.15048782e-09  1.63301653e-07  4.29088955e-08  6.00000000e-02 
 7.00000000e-02  4.60382493e-01  3.19691970e-09  3.19114754e-09  4.60382493e-01  4.60382493e-01  3.29351998e-09  3.15048782e-09  1.63301643e-07  4.29085980e-08  7.00000000e-02 
 8.00000000e-02  4.60382494e-01  3.19691975e-09  3.19114754e-09  4.60382494e-01  4.60382494e-01  3.29351998e-09  3.15048782e-09  1.63301641e-07  4.29082263e-08  8.00000000e-02 
 9.00000000e-02  4.60382479e-01  3.19691975e-09  3.19114748e-09  4.60382479e-01  4.60382479e-01  3.29351998e-09  3.15048782e-09  1.63301626e-07  4.29080549e-08  9.00000000e-02 
 1.00000000e-01  4.60382458e-01  3.19691969e-09  3.19114748e-09  4.60382458e-01  4.60382459e-01  3.29351992e-09  3.15048782e-09  1.63301593e-07  4.29077849e-08  1.00000000e-01 
 1.10000000e-01  4.60382488e-01  3.19691975e-09  3.19114748e-09  4.60382488e-01  4.60382488e-01  3.29351992e-09  3.15048782e-09  1.63301641e-07  4.29074571e-08  1.10000000e-01 
 1.20000000e-01  4.60382492e-01  3.19691970e-09  3.19114754e-09  4.60382492e-01  4.60382492e-01  3.29351992e-09  3.15048782e-09  1.63301638e-07  4.29072413e-08  1.20000000e-01 
 1.30000000e-01  4.60382476e-01  3.19691969e-09  3.19114748e-09  4.60382476e-01  4.60382476e-01  3.29351998e-09  3.15048782e-09  1.63301627e-07  4.29070059e-08  1.30000000e-01 
 1.40000000e-01  4.60382473e-01  3.19691975e-09  3.19114748e-09  4.60382473e-01  4.60382473e-01  3.29351998e-09  3.15048782e-09  1.63301615e-07  4.29068345e-08  1.40000000e-01 
 1.50000000e-01  4.60382478e-01  3.19691970e-09  3.19114754e-09  4.60382478e-01  4.60382479e-01  3.29351998e-09  3.15048782e-09  1.63301627e-07  4.29065228e-08  1.50000000e-01 
 1.60000000e-01  4.60382463e-01  3.19691975e-09  3.19114748e-09  4.60382463e-01  4.60382463e-01  3.29351992e-09  3.15048782e-09  1.63301596e-07  4.29063469e-08  1.60000000e-01 
 1.70000000e-01  4.60382497e-01  3.19691970e-09  3.19114748e-09  4.60382497e-01  4.60382497e-01  3.29351998e-09  3.15048782e-09  1.63301673e-07  4.29062919e-08  1.70000000e-01 
 1.80000000e-01  4.60382477e-01  3.19691970e-09  3.19114748e-09  4.60382477e-01  4.60382478e-01  3.29351992e-09  3.15048782e-09  1.63301630e-07  4.29060361e-08  1.80000000e-01 
 1.90000000e-01  4.60382463e-01  3.19691969e-09  3.19114754e-09  4.60382463e-01  4.60382463e-01  3.29351998e-09  3.15048782e-09  1.63301603e-07  4.29059188e-08  1.90000000e-01 
 2.00000000e-01  4.60382498e-01  3.19691970e-09  3.19114748e-09  4.60382499e-01  4.60382499e-01  3.29351998e-09  3.15048782e-09  1.63301656e-07  4.29057767e-08  2.00000000e-01 
 2.10000000e-01  4.60382468e-01  3.19691969e-09  3.19114748e-09  4.60382468e-01  4.60382468e-01  3.29351998e-09  3.15048782e-09  1.63301612e-07  4.29056239e-08  2.10000000e-01 
 2.20000000e-01  4.60382512e-01  3.19691970e-09  3.19114754e-09  4.60382512e-01  4.60382512e-01  3.29351998e-09  3.15048782e-09  1.63301680e-07  4.29054374e-08  2.20000000e-01 
 2.30000000e-01  4.60382461e-01  3.19691969e-09  3.19114748e-09  4.60382461e-01  4.60382461e-01  3.29351998e-09  3.15048782e-09  1.63301600e-07  4.29052225e-08  2.30000000e-01 
 2.40000000e-01  4.60382487e-01  3.19691970e-09  3.19114748e-09  4.60382487e-01  4.60382487e-01  3.29351998e-09  3.15048782e-09  1.63301654e-07  4.29051763e-08  2.40000000e-01 
 2.50000000e-01  4.60382490e-01  3.19691970e-09  3.19114754e-09  4.60382490e-01  4.60382490e-01  3.29351992e-09  3.15048782e-09  1.63301642e-07  4.29050715e-08  2.50000000e-01 
 2.60000000e-01  4.60382495e-01  3.19691975e-09  3.19114748e-09  4.60382495e-01  4.60382495e-01  3.29351998e-09  3.15048782e-09  1.63301648e-07  4.29049187e-08  2.60000000e-01 
 2.70000000e-01  4.60382485e-01  3.19691970e-09  3.19114748e-09  4.60382485e-01  4.60382485e-01  3.29351998e-09  3.15048782e-09  1.63301624e-07  4.29047677e-08  2.70000000e-01 
 2.80000000e-01  4.60382464e-01  3.19691969e-09  3.19114748e-09  4.60382464e-01  4.60382464e-01  3.29351998e-09  3.15048782e-09  1.63301595e-07  4.29047251e-08  2.80000000e-01 
 2.90000000e-01  4.60382493e-01  3.19691970e-09  3.19114748e-09  4.60382493e-01  4.60382493e-01  3.29351992e-09  3.15048782e-09  1.63301647e-07  4.29045102e-08  2.90000000e-01 
 3.00000000e-01  4.60382482e-01  3.19691970e-09  3.19114754e-09  4.60382482e-01  4.60382482e-01  3.29351998e-09  3.15048782e-09  1.63301639e-07  4.29044462e-08  3.00000000e-01 
 3.10000000e-01  4.60382482e-01  3.19691970e-09  3.19114748e-09  4.60382482e-01  4.60382482e-01  3.29351992e-09  3.15048782e-09  1.63301631e-07  4.29043077e-08  3.10000000e-01 
 3.20000000e-01  4.60382494e-01  3.19691975e-09  3.19114748e-09  4.60382494e-01  4.60382494e-01  3.29351992e-09  3.15048782e-09  1.63301642e-07  4.29042473e-08  3.20000000e-01 
 3.30000000e-01  4.60382484e-01  3.19691970e-09  3.19114754e-09  4.60382484e-01  4.60382484e-01  3.29351992e-09  3.15048782e-09  1.63301631e-07  4.29040909e-08  3.30000000e-01 
 3.40000000e-01  4.60382500e-01  3.19691975e-09  3.19114748e-09  4.60382501e-01  4.60382501e-01  3.29351998e-09  3.15048782e-09  1.63301656e-07  4.29041478e-08  3.40000000e-01 
 3.50000000e-01  4.60382479e-01  3.19691970e-09  3.19114748e-09  4.60382479e-01  4.60382479e-01  3.29351998e-09  3.15048782e-09  1.63301622e-07  4.29040092e-08  3.50000000e-01 
 3.60000000e-01  4.60382487e-01  3.19691975e-09  3.19114748e-09  4.60382487e-01  4.60382487e-01  3.29351998e-09  3.15048782e-09  1.63301636e-07  4.29038529e-08  3.60000000e-01 
 3.70000000e-01  4.60382490e-01  3.19691970e-09  3.19114748e-09  4.60382490e-01  4.60382490e-01  3.29351998e-09  3.15048782e-09  1.63301638e-07  4.29038671e-08  3.70000000e-01 
 3.80000000e-01  4.60382493e-01  3.19691970e-09  3.19114754e-09  4.60382493e-01  4.60382493e-01  3.29351998e-09  3.15048782e-09  1.63301644e-07  4.29038707e-08  3.80000000e-01 
 3.90000000e-01  4.60382490e-01  3.19691970e-09  3.19114748e-09  4.60382490e-01  4.60382491e-01  3.29351998e-09  3.15048782e-09  1.63301640e-07  4.29036717e-08  3.90000000e-01 
 4.00000000e-01  4.60382477e-01  3.19691970e-09  3.19114748e-09  4.60382477e-01  4.60382477e-01  3.29351998e-09  3.15048782e-09  1.63301617e-07  4.29035616e-08  4.00000000e-01 
 4.10000000e-01  4.60382477e-01  3.19691975e-09  3.19114748e-09  4.60382477e-01  4.60382477e-01  3.29351998e-09  3.15048782e-09  1.63301630e-07  4.29034976e-08  4.10000000e-01 
 4.20000000e-01  4.60382479e-01  3.19691975e-09  3.19114748e-09  4.60382479e-01  4.60382479e-01  3.29351992e-09  3.15048782e-09  1.63301634e-07  4.29034444e-08  4.20000000e-01 
 4.30000000e-01  4.60382491e-01  3.19691970e-09  3.19114754e-09  4.60382491e-01  4.60382491e-01  3.29351992e-09  3.15048782e-09  1.63301636e-07  4.29033342e-08  4.30000000e-01 
 4.40000000e-01  4.60382468e-01  3.19691969e-09  3.19114748e-09  4.60382468e-01  4.60382469e-01  3.29351992e-09  3.15048782e-09  1.63301606e-07  4.29032738e-08  4.40000000e-01 
 4.50000000e-01  4.60382491e-01  3.19691970e-09  3.19114754e-09  4.60382491e-01  4.60382491e-01  3.29351998e-09  3.15048782e-09  1.63301644e-07  4.29032809e-08  4.50000000e-01 
 4.60000000e-01  4.60382493e-01  3.19691975e-09  3.19114748e-09  4.60382493e-01  4.60382493e-01  3.29351998e-09  3.15048782e-09  1.63301647e-07  4.29030216e-08  4.60000000e-01 
 4.70000000e-01  4.60382476e-01  3.19691975e-09  3.19114748e-09  4.60382476e-01  4.60382476e-01  3.29351992e-09  3.15048782e-09  1.63301633e-07  4.29032383e-08  4.70000000e-01 
 4.80000000e-01  4.60382474e-01  3.19691969e-09  3.19114754e-09  4.60382474e-01  4.60382474e-01  3.29351998e-09  3.15048782e-09  1.63301611e-07  4.29030464e-08  4.80000000e-01 
 4.90000000e-01  4.60382467e-01  3.19691969e-09  3.19114748e-09  4.60382467e-01  4.60382467e-01  3.29351992e-09  3.15048782e-09  1.63301614e-07  4.29030784e-08  4.90000000e-01 
 5.00000000e-01  4.60382482e-01  3.19691970e-09  3.19114754e-09  4.60382482e-01  4.60382482e-01  3.29351998e-09  3.15048782e-09  1.63301638e-07  4.29029932e-08  5.00000000e-01 
 5.10000000e-01  4.60382482e-01  3.19691975e-09  3.19114748e-09  4.60382482e-01  4.60382482e-01  3.29351992e-09  3.15048782e-09  1.63301624e-07  4.29028830e-08  5.10000000e-01 
 5.20000000e-01  4.60382466e-01  3.19691969e-09  3.19114754e-09  4.60382466e-01  4.60382466e-01  3.29351998e-09  3.15048782e-09  1.63301612e-07  4.29027374e-08  5.20000000e-01 
 5.30000000e-01  4.60382499e-01  3.19691970e-09  3.19114748e-09  4.60382499e-01  4.60382499e-01  3.29351998e-09  3.15048782e-09  1.63301644e-07  4.29027054e-08  5.30000000e-01 
 5.40000000e-01  4.60382500e-01  3.19691970e-09  3.19114754e-09  4.60382500e-01  4.60382500e-01  3.29351998e-09  3.15048782e-09  1.63301666e-07  4.29026450e-08  5.40000000e-01 
 5.50000000e-01  4.60382459e-01  3.19691975e-09  3.19114754e-09  4.60382459e-01  4.60382459e-01  3.29351992e-09  3.15048782e-09  1.63301599e-07  4.29025526e-08  5.50000000e-01 
 5.60000000e-01  4.60382504e-01  3.19691970e-09  3.19114754e-09  4.60382504e-01  4.60382504e-01  3.29351992e-09  3.15048782e-09  1.63301654e-07  4.29026272e-08  5.60000000e-01 
 5.70000000e-01  4.60382472e-01  3.19691975e-09  3.19114748e-09  4.60382472e-01  4.60382472e-01  3.29351992e-09  3.15048782e-09  1.63301618e-07  4.29024922e-08  5.70000000e-01 
 5.80000000e-01  4.60382508e-01  3.19691970e-09  3.19114754e-09  4.60382509e-01  4.60382509e-01  3.29351998e-09  3.15048782e-09  1.63301675e-07  4.29024425e-08  5.80000000e-01 
 5.90000000e-01  4.60382505e-01  3.19691975e-09  3.19114754e-09  4.60382505e-01  4.60382505e-01  3.29351998e-09  3.15048782e-09  1.63301665e-07  4.29024070e-08  5.90000000e-01 
 6.00000000e-01  4.60382478e-01  3.19691975e-09  3.19114748e-09  4.60382478e-01  4.60382478e-01  3.29351998e-09  3.15048782e-09  1.63301627e-07  4.29024283e-08  6.00000000e-01 
 6.10000000e-01  4.60382469e-01  3.19691969e-09  3.19114754e-09  4.60382469e-01  4.60382469e-01  3.29351998e-09  3.15048782e-09  1.63301609e-07  4.29022506e-08  6.10000000e-01 
 6.20000000e-01  4.60382482e-01  3.19691970e-09  3.19114748e-09  4.60382482e-01  4.60382482e-01  3.29351992e-09  3.15048782e-09  1.63301622e-07  4.29021796e-08  6.20000000e-01 
 6.30000000e-01  4.60382486e-01  3.19691975e-09  3.19114748e-09  4.60382486e-01  4.60382486e-01  3.29351998e-09  3.15048782e-09  1.63301638e-07  4.29021014e-08  6.30000000e-01 
 6.40000000e-01  4.60382491e-01  3.19691970e-09  3.19114748e-09  4.60382491e-01  4.60382491e-01  3.29351992e-09  3.15048782e-09  1.63301641e-07  4.29020659e-08  6.40000000e-01 
 6.50000000e-01  4.60382485e-01  3.19691970e-09  3.19114754e-09  4.60382485e-01  4.60382485e-01  3.29351992e-09  3.15048782e-09  1.63301628e-07  4.29020872e-08  6.50000000e-01 
 6.60000000e-01  4.60382479e-01  3.19691970e-09  3.19114748e-09  4.60382479e-01  4.60382479e-01  3.29351998e-09  3.15048782e-09  1.63301617e-07  4.29018669e-08  6.60000000e-01 
 6.70000000e-01  4.60382467e-01  3.19691969e-09  3.19114748e-09  4.60382467e-01  4.60382467e-01  3.29351992e-09  3.15048782e-09  1.63301623e-07  4.29019664e-08  6.70000000e-01 
 6.80000000e-01  4.60382493e-01  3.19691975e-09  3.19114754e-09  4.60382493e-01  4.60382493e-01  3.29351998e-09  3.15048782e-09  1.63301641e-07  4.29017959e-08  6.80000000e-01 
 6.90000000e-01  4.60382493e-01  3.19691970e-09  3.19114748e-09  4.60382493e-01  4.60382493e-01  3.29351998e-09  3.15048782e-09  1.63301636e-07  4.29017462e-08  6.90000000e-01 
 7.00000000e-01  4.60382479e-01  3.19691970e-09  3.19114754e-09  4.60382479e-01  4.60382479e-01  3.29351992e-09  3.15048782e-09  1.63301610e-07  4.29017319e-08  7.00000000e-01 
 7.10000000e-01  4.60382482e-01  3.19691975e-09  3.19114754e-09  4.60382482e-01  4.60382482e-01  3.29351992e-09  3.15048782e-09  1.63301626e-07  4.29016396e-08  7.10000000e-01 
 7.20000000e-01  4.60382487e-01  3.19691975e-09  3.19114748e-09  4.60382487e-01  4.60382487e-01  3.29351998e-09  3.15048782e-09  1.63301628e-07  4.29016822e-08  7.20000000e-01 
 7.30000000e-01  4.60382505e-01  3.19691970e-09  3.19114748e-09  4.60382505e-01  4.60382505e-01  3.29351992e-09  3.15048782e-09  1.63301661e-07  4.29015472e-08  7.30000000e-01 
 7.40000000e-01  4.60382484e-01  3.19691970e-09  3.19114748e-09  4.60382484e-01  4.60382484e-01  3.29351998e-09  3.15048782e-09  1.63301629e-07  4.29015046e-08  7.40000000e-01 
 7.50000000e-01  4.60382472e-01  3.19691969e-09  3.19114754e-09  4.60382472e-01  4.60382472e-01  3.29351992e-09  3.15048782e-09  1.63301620e-07  4.29014193e-08  7.50000000e-01 
 7.60000000e-01  4.60382496e-01  3.19691970e-09  3.19114748e-09  4.60382496e-01  4.60382496e-01  3.29351992e-09  3.15048782e-09  1.63301654e-07  4.29013483e-08  7.60000000e-01 
 7.70000000e-01  4.60382482e-01  3.19691975e-09  3.19114754e-09  4.60382482e-01  4.60382482e-01  3.29351992e-09  3.15048782e-09  1.63301639e-07  4.29013483e-08  7.70000000e-01 
 7.80000000e-01  4.60382476e-01  3.19691969e-09  3.19114754e-09  4.60382476e-01  4.60382476e-01  3.29351992e-09  3.15048782e-09  1.63301622e-07  4.29011493e-08  7.80000000e-01 
 7.90000000e-01  4.60382461e-01  3.19691975e-09  3.19114748e-09  4.60382461e-01  4.60382461e-01  3.29351992e-09  3.15048782e-09  1.63301593e-07  4.29012061e-08  7.90000000e-01 
 8.00000000e-01  4.60382505e-01  3.19691975e-09  3.19114754e-09  4.60382505e-01  4.60382505e-01  3.29351998e-09  3.15048782e-09  1.63301668e-07  4.29011706e-08  8.00000000e-01 
 8.10000000e-01  4.60382446e-01  3.19691969e-09  3.19114754e-09  4.60382446e-01  4.60382447e-01  3.29351992e-09  3.15048782e-09  1.63301587e-07  4.29010001e-08  8.10000000e-01 
 8.20000000e-01  4.60382497e-01  3.19691970e-09  3.19114748e-09  4.60382497e-01  4.60382497e-01  3.29351998e-09  3.15048782e-09  1.63301655e-07  4.29011067e-08  8.20000000e-01 
 8.30000000e-01  4.60382490e-01  3.19691975e-09  3.19114754e-09  4.60382490e-01  4.60382490e-01  3.29351998e-09  3.15048782e-09  1.63301633e-07  4.29008509e-08  8.30000000e-01 
 8.40000000e-01  4.60382475e-01  3.19691969e-09  3.19114754e-09  4.60382475e-01  4.60382475e-01  3.29351998e-09  3.15048782e-09  1.63301616e-07  4.29009503e-08  8.40000000e-01 
 8.50000000e-01  4.60382469e-01  3.19691969e-09  3.19114754e-09  4.60382469e-01  4.60382469e-01  3.29351998e-09  3.15048782e-09  1.63301615e-07  4.29010356e-08  8.50000000e-01 
 8.60000000e-01  4.60382473e-01  3.19691975e-09  3.19114748e-09  4.60382473e-01  4.60382473e-01  3.29351992e-09  3.15048782e-09  1.63301619e-07  4.29007727e-08  8.60000000e-01 
 8.70000000e-01  4.60382468e-01  3.19691969e-09  3.19114754e-09  4.60382468e-01  4.60382468e-01  3.29351992e-09  3.15048782e-09  1.63301618e-07  4.29006448e-08  8.70000000e-01 
 8.80000000e-01  4.60382457e-01  3.19691969e-09  3.19114754e-09  4.60382457e-01  4.60382458e-01  3.29351992e-09  3.15048782e-09  1.63301585e-07  4.29006519e-08  8.80000000e-01 
 8.90000000e-01  4.60382502e-01  3.19691970e-09  3.19114748e-09  4.60382502e-01  4.60382502e-01  3.29351998e-09  3.15048782e-09  1.63301650e-07  4.29006519e-08  8.90000000e-01 
 9.00000000e-01  4.60382478e-01  3.19691975e-09  3.19114748e-09  4.60382478e-01  4.60382478e-01  3.29351998e-09  3.15048776e-09  1.63301626e-07  4.29005382e-08  9.00000000e-01 
 9.10000000e-01  4.60382474e-01  3.19691969e-09  3.19114748e-09  4.60382474e-01  4.60382474e-01  3.29351998e-09  3.15048782e-09  1.63301621e-07  4.29004672e-08  9.10000000e-01 
 9.20000000e-01  4.60382480e-01  3.19691975e-09  3.19114754e-09  4.60382480e-01  4.60382480e-01  3.29351992e-09  3.15048782e-09  1.63301624e-07  4.29003961e-08  9.20000000e-01 
 9.30000000e-01  4.60382480e-01  3.19691970e-09  3.19114754e-09  4.60382480e-01  4.60382480e-01  3.29351992e-09  3.15048782e-09  1.63301617e-07  4.29003322e-08  9.30000000e-01 
 9.40000000e-01  4.60382482e-01  3.19691970e-09  3.19114754e-09  4.60382482e-01  4.60382482e-01  3.29351992e-09  3.15048782e-09  1.63301628e-07  4.29004956e-08  9.40000000e-01 
 9.50000000e-01  4.60382495e-01  3.19691970e-09  3.19114754e-09  4.60382495e-01  4.60382495e-01  3.29351998e-09  3.15048782e-09  1.63301643e-07  4.29003038e-08  9.50000000e-01 
 9.60000000e-01  4.60382495e-01  3.19691975e-09  3.19114754e-09  4.60382495e-01  4.60382495e-01  3.29351992e-09  3.15048782e-09  1.63301658e-07  4.29001972e-08  9.60000000e-01 
 9.70000000e-01  4.60382506e-01  3.19691970e-09  3.19114748e-09  4.60382506e-01  4.60382506e-01  3.29351992e-09  3.15048782e-09  1.63301666e-07  4.29001972e-08  9.70000000e-01 
 9.80000000e-01  4.60382488e-01  3.19691970e-09  3.19114748e-09  4.60382488e-01  4.60382489e-01  3.29351998e-09  3.15048782e-09  1.63301634e-07  4.29001616e-08  9.80000000e-01 
 9.90000000e-01  4.60382477e-01  3.19691975e-09  3.19114748e-09  4.60382477e-01  4.60382477e-01  3.29351998e-09  3.15048782e-09  1.63301621e-07  4.29000551e-08  9.90000000e-01 
 1.00000000e+00  4.60382483e-01  3.19691970e-09  3.19114754e-09  4.60382483e-01  4.60382483e-01  3.29351998e-09  3.15048782e-09  1.63301640e-07  4.28999982e-08  1.00000000e+00 
 1.01000000e+00  4.60382455e-01  3.19691969e-09  3.19114748e-09  4.60382455e-01  4.60382455e-01  3.29351998e-09  3.15048782e-09  1.63301592e-07  4.28998206e-08  1.01000000e+00 
 1.02000000e+00  4.60382490e-01  3.19691975e-09  3.19114754e-09  4.60382490e-01  4.60382490e-01  3.29351998e-09  3.15048782e-09  1.63301637e-07  4.28998916e-08  1.02000000e+00 
 1.03000000e+00  4.60382470e-01  3.19691969e-09  3.19114754e-09  4.60382470e-01  4.60382470e-01  3.29351998e-09  3.15048782e-09  1.63301605e-07  4.28997495e-08  1.03000000e+00 
 1.04000000e+00  4.60382479e-01  3.19691975e-09  3.19114748e-09  4.60382479e-01  4.60382479e-01  3.29351998e-09  3.15048782e-09  1.63301625e-07  4.28995790e-08  1.04000000e+00 
 1.05000000e+00  4.60382488e-01  3.19691970e-09  3.19114748e-09  4.60382488e-01  4.60382488e-01  3.29351998e-09  3.15048782e-09  1.63301643e-07  4.28996287e-08  1.05000000e+00 
 1.06000000e+00  4.60382480e-01  3.19691970e-09  3.19114748e-09  4.60382480e-01  4.60382481e-01  3.29351992e-09  3.15048782e-09  1.63301618e-07  4.28995861e-08  1.06000000e+00 
 1.07000000e+00  4.60382470e-01  3.19691975e-09  3.19114754e-09  4.60382470e-01  4.60382470e-01  3.29351998e-09  3.15048782e-09  1.63301625e-07  4.28995648e-08  1.07000000e+00 
 1.08000000e+00  4.60382473e-01  3.19691975e-09  3.19114754e-09  4.60382473e-01  4.60382473e-01  3.29351998e-09  3.15048782e-09  1.63301610e-07  4.28994724e-08  1.08000000e+00 
 1.09000000e+00  4.60382490e-01  3.19691975e-09  3.19114754e-09  4.60382490e-01  4.60382490e-01  3.29351998e-09  3.15048782e-09  1.63301644e-07  4.28994724e-08  1.09000000e+00 
 1.10000000e+00  4.60382503e-01  3.19691970e-09  3.19114754e-09  4.60382503e-01  4.60382503e-01  3.29351992e-09  3.15048782e-09  1.63301663e-07  4.28994653e-08  1.10000000e+00 
