 v-sweep         v(b0)           v(b1)           v(b2)           v(b3)           v(b4)           v(b5)           v(b6)           i(vbias)        i(viout)        v(vout)        
 0.00000000e+00  3.31689356e-09  3.41332268e-09  3.46259832e-09  3.34062719e-09  3.28966331e-09  3.26943390e-09  4.55839579e-01  1.53926307e-07  9.81178734e-08  0.00000000e+00 
 1.00000000e-02  3.31689354e-09  3.41332271e-09  3.46259834e-09  3.34062722e-09  3.28966333e-09  3.26943381e-09  4.55839593e-01  1.53926319e-07  9.81175305e-08  1.00000000e-02 
 2.00000000e-02  3.31689360e-09  3.41332271e-09  3.46259828e-09  3.34062716e-09  3.28966333e-09  3.26943386e-09  4.55839570e-01  1.53926306e-07  9.81169068e-08  2.00000000e-02 
 3.00000000e-02  3.31689354e-09  3.41332271e-09  3.46259834e-09  3.34062723e-09  3.28966333e-09  3.26943386e-09  4.55839571e-01  1.53926300e-07  9.81166361e-08  3.00000000e-02 
 4.00000000e-02  3.31689360e-09  3.41332271e-09  3.46259829e-09  3.34062721e-09  3.28966333e-09  3.26943387e-09  4.55839598e-01  1.53926332e-07  9.81162436e-08  4.00000000e-02 
 5.00000000e-02  3.31689354e-09  3.41332270e-09  3.46259834e-09  3.34062716e-09  3.28966333e-09  3.26943386e-09  4.55839560e-01  1.53926273e-07  9.81159944e-08  5.00000000e-02 
 6.00000000e-02  3.31689360e-09  3.41332271e-09  3.46259829e-09  3.34062723e-09  3.28966328e-09  3.26943387e-09  4.55839603e-01  1.53926353e-07  9.81157511e-08  6.00000000e-02 
 7.00000000e-02  3.31689360e-09  3.41332270e-09  3.46259828e-09  3.34062721e-09  3.28966333e-09  3.26943386e-09  4.55839561e-01  1.53926279e-07  9.81152728e-08  7.00000000e-02 
 8.00000000e-02  3.31689354e-09  3.41332271e-09  3.46259834e-09  3.34062716e-09  3.28966333e-09  3.26943386e-09  4.55839571e-01  1.53926313e-07  9.81150086e-08  8.00000000e-02 
 9.00000000e-02  3.31689360e-09  3.41332270e-09  3.46259834e-09  3.34062717e-09  3.28966333e-09  3.26943386e-09  4.55839553e-01  1.53926266e-07  9.81146764e-08  9.00000000e-02 
 1.00000000e-01  3.31689360e-09  3.41332271e-09  3.46259834e-09  3.34062717e-09  3.28966328e-09  3.26943386e-09  4.55839572e-01  1.53926288e-07  9.81145538e-08  1.00000000e-01 
 1.10000000e-01  3.31689360e-09  3.41332271e-09  3.46259834e-09  3.34062722e-09  3.28966333e-09  3.26943386e-09  4.55839566e-01  1.53926293e-07  9.81141444e-08  1.10000000e-01 
 1.20000000e-01  3.31689360e-09  3.41332270e-09  3.46259828e-09  3.34062715e-09  3.28966327e-09  3.26943386e-09  4.55839559e-01  1.53926286e-07  9.81138344e-08  1.20000000e-01 
 1.30000000e-01  3.31689354e-09  3.41332271e-09  3.46259834e-09  3.34062717e-09  3.28966327e-09  3.26943386e-09  4.55839568e-01  1.53926309e-07  9.81135768e-08  1.30000000e-01 
 1.40000000e-01  3.31689360e-09  3.41332270e-09  3.46259834e-09  3.34062722e-09  3.28966327e-09  3.26943381e-09  4.55839557e-01  1.53926295e-07  9.81135040e-08  1.40000000e-01 
 1.50000000e-01  3.31689354e-09  3.41332271e-09  3.46259834e-09  3.34062721e-09  3.28966327e-09  3.26943386e-09  4.55839565e-01  1.53926283e-07  9.81132153e-08  1.50000000e-01 
 1.60000000e-01  3.31689360e-09  3.41332271e-09  3.46259829e-09  3.34062722e-09  3.28966333e-09  3.26943387e-09  4.55839600e-01  1.53926338e-07  9.81129649e-08  1.60000000e-01 
 1.70000000e-01  3.31689354e-09  3.41332270e-09  3.46259834e-09  3.34062722e-09  3.28966327e-09  3.26943386e-09  4.55839561e-01  1.53926273e-07  9.81128103e-08  1.70000000e-01 
 1.80000000e-01  3.31689360e-09  3.41332271e-09  3.46259834e-09  3.34062716e-09  3.28966328e-09  3.26943381e-09  4.55839596e-01  1.53926333e-07  9.81126700e-08  1.80000000e-01 
 1.90000000e-01  3.31689354e-09  3.41332265e-09  3.46259834e-09  3.34062723e-09  3.28966327e-09  3.26943386e-09  4.55839569e-01  1.53926297e-07  9.81123893e-08  1.90000000e-01 
 2.00000000e-01  3.31689360e-09  3.41332265e-09  3.46259828e-09  3.34062721e-09  3.28966327e-09  3.26943386e-09  4.55839550e-01  1.53926272e-07  9.81121744e-08  2.00000000e-01 
 2.10000000e-01  3.31689354e-09  3.41332271e-09  3.46259834e-09  3.34062722e-09  3.28966333e-09  3.26943386e-09  4.55839569e-01  1.53926293e-07  9.81120962e-08  2.10000000e-01 
 2.20000000e-01  3.31689360e-09  3.41332271e-09  3.46259829e-09  3.34062722e-09  3.28966328e-09  3.26943386e-09  4.55839583e-01  1.53926323e-07  9.81120110e-08  2.20000000e-01 
 2.30000000e-01  3.31689360e-09  3.41332271e-09  3.46259834e-09  3.34062716e-09  3.28966333e-09  3.26943386e-09  4.55839565e-01  1.53926284e-07  9.81117481e-08  2.30000000e-01 
 2.40000000e-01  3.31689360e-09  3.41332271e-09  3.46259834e-09  3.34062723e-09  3.28966328e-09  3.26943386e-09  4.55839581e-01  1.53926300e-07  9.81115740e-08  2.40000000e-01 
 2.50000000e-01  3.31689360e-09  3.41332271e-09  3.46259829e-09  3.34062716e-09  3.28966333e-09  3.26943386e-09  4.55839588e-01  1.53926312e-07  9.81115580e-08  2.50000000e-01 
 2.60000000e-01  3.31689354e-09  3.41332270e-09  3.46259834e-09  3.34062723e-09  3.28966327e-09  3.26943386e-09  4.55839558e-01  1.53926282e-07  9.81112720e-08  2.60000000e-01 
 2.70000000e-01  3.31689360e-09  3.41332271e-09  3.46259834e-09  3.34062721e-09  3.28966328e-09  3.26943381e-09  4.55839587e-01  1.53926315e-07  9.81113697e-08  2.70000000e-01 
 2.80000000e-01  3.31689360e-09  3.41332270e-09  3.46259834e-09  3.34062722e-09  3.28966333e-09  3.26943386e-09  4.55839560e-01  1.53926293e-07  9.81110180e-08  2.80000000e-01 
 2.90000000e-01  3.31689354e-09  3.41332271e-09  3.46259834e-09  3.34062722e-09  3.28966333e-09  3.26943386e-09  4.55839565e-01  1.53926293e-07  9.81109736e-08  2.90000000e-01 
 3.00000000e-01  3.31689354e-09  3.41332271e-09  3.46259829e-09  3.34062716e-09  3.28966333e-09  3.26943386e-09  4.55839581e-01  1.53926316e-07  9.81108670e-08  3.00000000e-01 
 3.10000000e-01  3.31689354e-09  3.41332271e-09  3.46259834e-09  3.34062723e-09  3.28966333e-09  3.26943386e-09  4.55839570e-01  1.53926294e-07  9.81108030e-08  3.10000000e-01 
 3.20000000e-01  3.31689360e-09  3.41332271e-09  3.46259834e-09  3.34062715e-09  3.28966333e-09  3.26943386e-09  4.55839566e-01  1.53926290e-07  9.81105686e-08  3.20000000e-01 
 3.30000000e-01  3.31689354e-09  3.41332271e-09  3.46259834e-09  3.34062717e-09  3.28966333e-09  3.26943386e-09  4.55839577e-01  1.53926317e-07  9.81105579e-08  3.30000000e-01 
 3.40000000e-01  3.31689360e-09  3.41332271e-09  3.46259828e-09  3.34062717e-09  3.28966327e-09  3.26943381e-09  4.55839564e-01  1.53926288e-07  9.81103092e-08  3.40000000e-01 
 3.50000000e-01  3.31689360e-09  3.41332271e-09  3.46259828e-09  3.34062717e-09  3.28966333e-09  3.26943386e-09  4.55839564e-01  1.53926292e-07  9.81103767e-08  3.50000000e-01 
 3.60000000e-01  3.31689354e-09  3.41332271e-09  3.46259834e-09  3.34062717e-09  3.28966333e-09  3.26943386e-09  4.55839570e-01  1.53926290e-07  9.81103021e-08  3.60000000e-01 
 3.70000000e-01  3.31689360e-09  3.41332270e-09  3.46259834e-09  3.34062722e-09  3.28966333e-09  3.26943386e-09  4.55839559e-01  1.53926270e-07  9.81100499e-08  3.70000000e-01 
 3.80000000e-01  3.31689360e-09  3.41332270e-09  3.46259828e-09  3.34062721e-09  3.28966333e-09  3.26943386e-09  4.55839562e-01  1.53926300e-07  9.81100570e-08  3.80000000e-01 
 3.90000000e-01  3.31689354e-09  3.41332271e-09  3.46259834e-09  3.34062722e-09  3.28966333e-09  3.26943386e-09  4.55839580e-01  1.53926308e-07  9.81098935e-08  3.90000000e-01 
 4.00000000e-01  3.31689360e-09  3.41332271e-09  3.46259829e-09  3.34062722e-09  3.28966333e-09  3.26943386e-09  4.55839588e-01  1.53926326e-07  9.81098935e-08  4.00000000e-01 
 4.10000000e-01  3.31689354e-09  3.41332270e-09  3.46259834e-09  3.34062716e-09  3.28966333e-09  3.26943386e-09  4.55839562e-01  1.53926298e-07  9.81097088e-08  4.10000000e-01 
 4.20000000e-01  3.31689360e-09  3.41332271e-09  3.46259834e-09  3.34062717e-09  3.28966333e-09  3.26943381e-09  4.55839586e-01  1.53926329e-07  9.81097976e-08  4.20000000e-01 
 4.30000000e-01  3.31689359e-09  3.41332270e-09  3.46259834e-09  3.34062722e-09  3.28966333e-09  3.26943386e-09  4.55839542e-01  1.53926255e-07  9.81095134e-08  4.30000000e-01 
 4.40000000e-01  3.31689354e-09  3.41332271e-09  3.46259834e-09  3.34062721e-09  3.28966328e-09  3.26943386e-09  4.55839583e-01  1.53926330e-07  9.81095560e-08  4.40000000e-01 
 4.50000000e-01  3.31689360e-09  3.41332270e-09  3.46259828e-09  3.34062722e-09  3.28966333e-09  3.26943386e-09  4.55839552e-01  1.53926276e-07  9.81094246e-08  4.50000000e-01 
 4.60000000e-01  3.31689360e-09  3.41332270e-09  3.46259834e-09  3.34062722e-09  3.28966333e-09  3.26943386e-09  4.55839544e-01  1.53926272e-07  9.81093002e-08  4.60000000e-01 
 4.70000000e-01  3.31689360e-09  3.41332270e-09  3.46259834e-09  3.34062722e-09  3.28966333e-09  3.26943386e-09  4.55839563e-01  1.53926286e-07  9.81091191e-08  4.70000000e-01 
 4.80000000e-01  3.31689354e-09  3.41332270e-09  3.46259828e-09  3.34062722e-09  3.28966333e-09  3.26943386e-09  4.55839537e-01  1.53926258e-07  9.81090871e-08  4.80000000e-01 
 4.90000000e-01  3.31689360e-09  3.41332265e-09  3.46259834e-09  3.34062716e-09  3.28966328e-09  3.26943381e-09  4.55839588e-01  1.53926328e-07  9.81091475e-08  4.90000000e-01 
 5.00000000e-01  3.31689354e-09  3.41332271e-09  3.46259834e-09  3.34062717e-09  3.28966327e-09  3.26943381e-09  4.55839568e-01  1.53926294e-07  9.81090764e-08  5.00000000e-01 
 5.10000000e-01  3.31689359e-09  3.41332270e-09  3.46259834e-09  3.34062722e-09  3.28966327e-09  3.26943386e-09  4.55839542e-01  1.53926262e-07  9.81088064e-08  5.10000000e-01 
 5.20000000e-01  3.31689360e-09  3.41332271e-09  3.46259829e-09  3.34062721e-09  3.28966333e-09  3.26943386e-09  4.55839585e-01  1.53926317e-07  9.81088384e-08  5.20000000e-01 
 5.30000000e-01  3.31689354e-09  3.41332270e-09  3.46259834e-09  3.34062716e-09  3.28966333e-09  3.26943386e-09  4.55839548e-01  1.53926265e-07  9.81086572e-08  5.30000000e-01 
 5.40000000e-01  3.31689354e-09  3.41332271e-09  3.46259834e-09  3.34062718e-09  3.28966328e-09  3.26943387e-09  4.55839609e-01  1.53926360e-07  9.81088633e-08  5.40000000e-01 
 5.50000000e-01  3.31689360e-09  3.41332270e-09  3.46259834e-09  3.34062717e-09  3.28966333e-09  3.26943381e-09  4.55839556e-01  1.53926292e-07  9.81085897e-08  5.50000000e-01 
 5.60000000e-01  3.31689354e-09  3.41332271e-09  3.46259834e-09  3.34062722e-09  3.28966327e-09  3.26943386e-09  4.55839569e-01  1.53926312e-07  9.81085115e-08  5.60000000e-01 
 5.70000000e-01  3.31689359e-09  3.41332270e-09  3.46259834e-09  3.34062721e-09  3.28966327e-09  3.26943386e-09  4.55839526e-01  1.53926237e-07  9.81084298e-08  5.70000000e-01 
 5.80000000e-01  3.31689360e-09  3.41332271e-09  3.46259829e-09  3.34062722e-09  3.28966333e-09  3.26943386e-09  4.55839582e-01  1.53926331e-07  9.81083943e-08  5.80000000e-01 
 5.90000000e-01  3.31689354e-09  3.41332271e-09  3.46259834e-09  3.34062722e-09  3.28966333e-09  3.26943386e-09  4.55839577e-01  1.53926309e-07  9.81083161e-08  5.90000000e-01 
 6.00000000e-01  3.31689360e-09  3.41332271e-09  3.46259834e-09  3.34062722e-09  3.28966333e-09  3.26943386e-09  4.55839591e-01  1.53926334e-07  9.81082593e-08  6.00000000e-01 
 6.10000000e-01  3.31689354e-09  3.41332271e-09  3.46259828e-09  3.34062716e-09  3.28966333e-09  3.26943386e-09  4.55839565e-01  1.53926291e-07  9.81082238e-08  6.10000000e-01 
 6.20000000e-01  3.31689360e-09  3.41332265e-09  3.46259834e-09  3.34062717e-09  3.28966333e-09  3.26943381e-09  4.55839574e-01  1.53926295e-07  9.81081740e-08  6.20000000e-01 
 6.30000000e-01  3.31689360e-09  3.41332271e-09  3.46259834e-09  3.34062717e-09  3.28966333e-09  3.26943381e-09  4.55839568e-01  1.53926307e-07  9.81079680e-08  6.30000000e-01 
 6.40000000e-01  3.31689360e-09  3.41332271e-09  3.46259828e-09  3.34062722e-09  3.28966328e-09  3.26943386e-09  4.55839579e-01  1.53926316e-07  9.81079253e-08  6.40000000e-01 
 6.50000000e-01  3.31689354e-09  3.41332271e-09  3.46259828e-09  3.34062721e-09  3.28966333e-09  3.26943386e-09  4.55839578e-01  1.53926307e-07  9.81078045e-08  6.50000000e-01 
 6.60000000e-01  3.31689360e-09  3.41332271e-09  3.46259834e-09  3.34062716e-09  3.28966333e-09  3.26943381e-09  4.55839579e-01  1.53926305e-07  9.81077974e-08  6.60000000e-01 
 6.70000000e-01  3.31689360e-09  3.41332270e-09  3.46259834e-09  3.34062717e-09  3.28966333e-09  3.26943386e-09  4.55839562e-01  1.53926299e-07  9.81077264e-08  6.70000000e-01 
 6.80000000e-01  3.31689360e-09  3.41332271e-09  3.46259834e-09  3.34062723e-09  3.28966333e-09  3.26943386e-09  4.55839590e-01  1.53926329e-07  9.81076411e-08  6.80000000e-01 
 6.90000000e-01  3.31689360e-09  3.41332271e-09  3.46259834e-09  3.34062721e-09  3.28966333e-09  3.26943386e-09  4.55839573e-01  1.53926298e-07  9.81075772e-08  6.90000000e-01 
 7.00000000e-01  3.31689360e-09  3.41332271e-09  3.46259828e-09  3.34062722e-09  3.28966333e-09  3.26943386e-09  4.55839572e-01  1.53926294e-07  9.81075061e-08  7.00000000e-01 
 7.10000000e-01  3.31689360e-09  3.41332271e-09  3.46259834e-09  3.34062722e-09  3.28966333e-09  3.26943386e-09  4.55839588e-01  1.53926318e-07  9.81074635e-08  7.10000000e-01 
 7.20000000e-01  3.31689354e-09  3.41332271e-09  3.46259828e-09  3.34062716e-09  3.28966327e-09  3.26943386e-09  4.55839567e-01  1.53926297e-07  9.81073498e-08  7.20000000e-01 
 7.30000000e-01  3.31689360e-09  3.41332270e-09  3.46259834e-09  3.34062723e-09  3.28966333e-09  3.26943386e-09  4.55839555e-01  1.53926284e-07  9.81071793e-08  7.30000000e-01 
 7.40000000e-01  3.31689360e-09  3.41332271e-09  3.46259829e-09  3.34062716e-09  3.28966333e-09  3.26943386e-09  4.55839581e-01  1.53926312e-07  9.81072432e-08  7.40000000e-01 
 7.50000000e-01  3.31689354e-09  3.41332270e-09  3.46259834e-09  3.34062717e-09  3.28966333e-09  3.26943381e-09  4.55839558e-01  1.53926291e-07  9.81070727e-08  7.50000000e-01 
 7.60000000e-01  3.31689354e-09  3.41332265e-09  3.46259829e-09  3.34062717e-09  3.28966333e-09  3.26943387e-09  4.55839607e-01  1.53926340e-07  9.81071295e-08  7.60000000e-01 
 7.70000000e-01  3.31689360e-09  3.41332271e-09  3.46259834e-09  3.34062717e-09  3.28966327e-09  3.26943386e-09  4.55839569e-01  1.53926297e-07  9.81068808e-08  7.70000000e-01 
 7.80000000e-01  3.31689360e-09  3.41332271e-09  3.46259834e-09  3.34062717e-09  3.28966333e-09  3.26943386e-09  4.55839577e-01  1.53926304e-07  9.81069945e-08  7.80000000e-01 
 7.90000000e-01  3.31689360e-09  3.41332271e-09  3.46259828e-09  3.34062717e-09  3.28966327e-09  3.26943386e-09  4.55839567e-01  1.53926287e-07  9.81067600e-08  7.90000000e-01 
 8.00000000e-01  3.31689360e-09  3.41332270e-09  3.46259828e-09  3.34062722e-09  3.28966333e-09  3.26943381e-09  4.55839553e-01  1.53926270e-07  9.81066606e-08  8.00000000e-01 
 8.10000000e-01  3.31689360e-09  3.41332271e-09  3.46259834e-09  3.34062721e-09  3.28966333e-09  3.26943386e-09  4.55839567e-01  1.53926291e-07  9.81066535e-08  8.10000000e-01 
 8.20000000e-01  3.31689360e-09  3.41332270e-09  3.46259834e-09  3.34062716e-09  3.28966327e-09  3.26943386e-09  4.55839559e-01  1.53926278e-07  9.81065256e-08  8.20000000e-01 
 8.30000000e-01  3.31689359e-09  3.41332270e-09  3.46259828e-09  3.34062717e-09  3.28966327e-09  3.26943386e-09  4.55839527e-01  1.53926237e-07  9.81064687e-08  8.30000000e-01 
 8.40000000e-01  3.31689360e-09  3.41332271e-09  3.46259834e-09  3.34062717e-09  3.28966333e-09  3.26943386e-09  4.55839572e-01  1.53926322e-07  9.81065469e-08  8.40000000e-01 
 8.50000000e-01  3.31689360e-09  3.41332271e-09  3.46259828e-09  3.34062722e-09  3.28966327e-09  3.26943386e-09  4.55839566e-01  1.53926280e-07  9.81064261e-08  8.50000000e-01 
 8.60000000e-01  3.31689360e-09  3.41332271e-09  3.46259834e-09  3.34062721e-09  3.28966333e-09  3.26943386e-09  4.55839572e-01  1.53926311e-07  9.81063408e-08  8.60000000e-01 
 8.70000000e-01  3.31689360e-09  3.41332271e-09  3.46259834e-09  3.34062722e-09  3.28966333e-09  3.26943386e-09  4.55839576e-01  1.53926307e-07  9.81062556e-08  8.70000000e-01 
 8.80000000e-01  3.31689354e-09  3.41332271e-09  3.46259834e-09  3.34062722e-09  3.28966333e-09  3.26943381e-09  4.55839569e-01  1.53926292e-07  9.81062556e-08  8.80000000e-01 
 8.90000000e-01  3.31689360e-09  3.41332271e-09  3.46259829e-09  3.34062716e-09  3.28966328e-09  3.26943386e-09  4.55839585e-01  1.53926328e-07  9.81061987e-08  8.90000000e-01 
 9.00000000e-01  3.31689360e-09  3.41332271e-09  3.46259834e-09  3.34062717e-09  3.28966328e-09  3.26943386e-09  4.55839574e-01  1.53926313e-07  9.81059358e-08  9.00000000e-01 
 9.10000000e-01  3.31689354e-09  3.41332271e-09  3.46259834e-09  3.34062717e-09  3.28966333e-09  3.26943386e-09  4.55839566e-01  1.53926295e-07  9.81059571e-08  9.10000000e-01 
 9.20000000e-01  3.31689354e-09  3.41332265e-09  3.46259834e-09  3.34062717e-09  3.28966328e-09  3.26943386e-09  4.55839578e-01  1.53926306e-07  9.81057582e-08  9.20000000e-01 
 9.30000000e-01  3.31689360e-09  3.41332270e-09  3.46259834e-09  3.34062717e-09  3.28966327e-09  3.26943381e-09  4.55839562e-01  1.53926294e-07  9.81058292e-08  9.30000000e-01 
 9.40000000e-01  3.31689360e-09  3.41332270e-09  3.46259834e-09  3.34062722e-09  3.28966333e-09  3.26943386e-09  4.55839562e-01  1.53926287e-07  9.81058079e-08  9.40000000e-01 
 9.50000000e-01  3.31689354e-09  3.41332271e-09  3.46259834e-09  3.34062721e-09  3.28966327e-09  3.26943386e-09  4.55839571e-01  1.53926295e-07  9.81056019e-08  9.50000000e-01 
 9.60000000e-01  3.31689360e-09  3.41332270e-09  3.46259834e-09  3.34062716e-09  3.28966333e-09  3.26943386e-09  4.55839552e-01  1.53926271e-07  9.81053958e-08  9.60000000e-01 
 9.70000000e-01  3.31689360e-09  3.41332271e-09  3.46259834e-09  3.34062717e-09  3.28966333e-09  3.26943381e-09  4.55839575e-01  1.53926321e-07  9.81054882e-08  9.70000000e-01 
 9.80000000e-01  3.31689354e-09  3.41332271e-09  3.46259829e-09  3.34062717e-09  3.28966333e-09  3.26943386e-09  4.55839587e-01  1.53926320e-07  9.81053390e-08  9.80000000e-01 
 9.90000000e-01  3.31689360e-09  3.41332271e-09  3.46259834e-09  3.34062717e-09  3.28966327e-09  3.26943386e-09  4.55839565e-01  1.53926283e-07  9.81052111e-08  9.90000000e-01 
 1.00000000e+00  3.31689354e-09  3.41332270e-09  3.46259834e-09  3.34062722e-09  3.28966327e-09  3.26943381e-09  4.55839560e-01  1.53926277e-07  9.81051258e-08  1.00000000e+00 
 1.01000000e+00  3.31689354e-09  3.41332270e-09  3.46259834e-09  3.34062721e-09  3.28966333e-09  3.26943386e-09  4.55839552e-01  1.53926285e-07  9.81051045e-08  1.01000000e+00 
 1.02000000e+00  3.31689360e-09  3.41332270e-09  3.46259834e-09  3.34062722e-09  3.28966327e-09  3.26943386e-09  4.55839559e-01  1.53926287e-07  9.81049482e-08  1.02000000e+00 
 1.03000000e+00  3.31689360e-09  3.41332271e-09  3.46259834e-09  3.34062722e-09  3.28966327e-09  3.26943386e-09  4.55839568e-01  1.53926296e-07  9.81049908e-08  1.03000000e+00 
 1.04000000e+00  3.31689360e-09  3.41332271e-09  3.46259834e-09  3.34062716e-09  3.28966327e-09  3.26943386e-09  4.55839564e-01  1.53926300e-07  9.81048061e-08  1.04000000e+00 
 1.05000000e+00  3.31689354e-09  3.41332271e-09  3.46259834e-09  3.34062717e-09  3.28966333e-09  3.26943386e-09  4.55839581e-01  1.53926302e-07  9.81047350e-08  1.05000000e+00 
 1.06000000e+00  3.31689360e-09  3.41332271e-09  3.46259828e-09  3.34062717e-09  3.28966333e-09  3.26943386e-09  4.55839570e-01  1.53926308e-07  9.81047279e-08  1.06000000e+00 
 1.07000000e+00  3.31689360e-09  3.41332271e-09  3.46259834e-09  3.34062717e-09  3.28966333e-09  3.26943386e-09  4.55839565e-01  1.53926303e-07  9.81045574e-08  1.07000000e+00 
 1.08000000e+00  3.31689360e-09  3.41332271e-09  3.46259834e-09  3.34062722e-09  3.28966327e-09  3.26943386e-09  4.55839565e-01  1.53926293e-07  9.81045361e-08  1.08000000e+00 
 1.09000000e+00  3.31689354e-09  3.41332271e-09  3.46259834e-09  3.34062715e-09  3.28966333e-09  3.26943386e-09  4.55839571e-01  1.53926299e-07  9.81044437e-08  1.09000000e+00 
 1.10000000e+00  3.31689360e-09  3.41332271e-09  3.46259829e-09  3.34062717e-09  3.28966328e-09  3.26943386e-09  4.55839586e-01  1.53926312e-07  9.81044082e-08  1.10000000e+00 
