 v-sweep         v(b0)           v(b1)           v(b2)           v(b3)           v(b4)           v(b5)           v(b6)           i(vbias)        i(viout)        v(vout)        
 0.00000000e+00  4.60918209e-01  3.23049210e-09  3.44974558e-09  3.09908383e-09  3.41168975e-09  3.36031978e-09  3.27063723e-09  1.67137092e-07  1.78962153e-09  0.00000000e+00 
 1.00000000e-02  4.60918219e-01  3.23049219e-09  3.44974556e-09  3.09908387e-09  3.41168978e-09  3.36031976e-09  3.27063721e-09  1.67137110e-07  1.78919679e-09  1.00000000e-02 
 2.00000000e-02  4.60918217e-01  3.23049214e-09  3.44974556e-09  3.09908387e-09  3.41168978e-09  3.36031976e-09  3.27063726e-09  1.67137102e-07  1.78876847e-09  2.00000000e-02 
 3.00000000e-02  4.60918244e-01  3.23049214e-09  3.44974562e-09  3.09908381e-09  3.41168979e-09  3.36031976e-09  3.27063726e-09  1.67137134e-07  1.78830084e-09  3.00000000e-02 
 4.00000000e-02  4.60918229e-01  3.23049219e-09  3.44974562e-09  3.09908387e-09  3.41168973e-09  3.36031976e-09  3.27063726e-09  1.67137125e-07  1.78793291e-09  4.00000000e-02 
 5.00000000e-02  4.60918219e-01  3.23049214e-09  3.44974556e-09  3.09908381e-09  3.41168978e-09  3.36031982e-09  3.27063726e-09  1.67137111e-07  1.78758253e-09  5.00000000e-02 
 6.00000000e-02  4.60918213e-01  3.23049214e-09  3.44974556e-09  3.09908381e-09  3.41168973e-09  3.36031980e-09  3.27063721e-09  1.67137094e-07  1.78718995e-09  6.00000000e-02 
 7.00000000e-02  4.60918202e-01  3.23049213e-09  3.44974556e-09  3.09908387e-09  3.41168978e-09  3.36031976e-09  3.27063726e-09  1.67137073e-07  1.78679205e-09  7.00000000e-02 
 8.00000000e-02  4.60918215e-01  3.23049214e-09  3.44974556e-09  3.09908387e-09  3.41168978e-09  3.36031976e-09  3.27063721e-09  1.67137094e-07  1.78646697e-09  8.00000000e-02 
 9.00000000e-02  4.60918222e-01  3.23049214e-09  3.44974556e-09  3.09908387e-09  3.41168979e-09  3.36031976e-09  3.27063726e-09  1.67137111e-07  1.78614723e-09  9.00000000e-02 
 1.00000000e-01  4.60918202e-01  3.23049213e-09  3.44974556e-09  3.09908387e-09  3.41168973e-09  3.36031976e-09  3.27063726e-09  1.67137083e-07  1.78585857e-09  1.00000000e-01 
 1.10000000e-01  4.60918214e-01  3.23049214e-09  3.44974556e-09  3.09908381e-09  3.41168978e-09  3.36031976e-09  3.27063726e-09  1.67137087e-07  1.78553350e-09  1.10000000e-01 
 1.20000000e-01  4.60918209e-01  3.23049214e-09  3.44974556e-09  3.09908381e-09  3.41168978e-09  3.36031982e-09  3.27063726e-09  1.67137090e-07  1.78527060e-09  1.20000000e-01 
 1.30000000e-01  4.60918234e-01  3.23049219e-09  3.44974556e-09  3.09908381e-09  3.41168979e-09  3.36031981e-09  3.27063726e-09  1.67137124e-07  1.78492776e-09  1.30000000e-01 
 1.40000000e-01  4.60918231e-01  3.23049214e-09  3.44974556e-09  3.09908381e-09  3.41168979e-09  3.36031977e-09  3.27063726e-09  1.67137132e-07  1.78463289e-09  1.40000000e-01 
 1.50000000e-01  4.60918212e-01  3.23049214e-09  3.44974556e-09  3.09908381e-09  3.41168973e-09  3.36031976e-09  3.27063721e-09  1.67137097e-07  1.78447657e-09  1.50000000e-01 
 1.60000000e-01  4.60918220e-01  3.23049214e-09  3.44974556e-09  3.09908387e-09  3.41168978e-09  3.36031976e-09  3.27063721e-09  1.67137109e-07  1.78417814e-09  1.60000000e-01 
 1.70000000e-01  4.60918211e-01  3.23049214e-09  3.44974556e-09  3.09908387e-09  3.41168973e-09  3.36031976e-09  3.27063721e-09  1.67137102e-07  1.78387793e-09  1.70000000e-01 
 1.80000000e-01  4.60918228e-01  3.23049214e-09  3.44974556e-09  3.09908387e-09  3.41168979e-09  3.36031976e-09  3.27063726e-09  1.67137128e-07  1.78370030e-09  1.80000000e-01 
 1.90000000e-01  4.60918215e-01  3.23049214e-09  3.44974556e-09  3.09908387e-09  3.41168973e-09  3.36031976e-09  3.27063726e-09  1.67137109e-07  1.78355464e-09  1.90000000e-01 
 2.00000000e-01  4.60918205e-01  3.23049213e-09  3.44974556e-09  3.09908387e-09  3.41168973e-09  3.36031981e-09  3.27063726e-09  1.67137085e-07  1.78325621e-09  2.00000000e-01 
 2.10000000e-01  4.60918202e-01  3.23049213e-09  3.44974556e-09  3.09908381e-09  3.41168978e-09  3.36031975e-09  3.27063726e-09  1.67137080e-07  1.78305548e-09  2.10000000e-01 
 2.20000000e-01  4.60918212e-01  3.23049214e-09  3.44974556e-09  3.09908387e-09  3.41168978e-09  3.36031976e-09  3.27063726e-09  1.67137091e-07  1.78284942e-09  2.20000000e-01 
 2.30000000e-01  4.60918208e-01  3.23049213e-09  3.44974556e-09  3.09908387e-09  3.41168973e-09  3.36031976e-09  3.27063726e-09  1.67137099e-07  1.78264514e-09  2.30000000e-01 
 2.40000000e-01  4.60918220e-01  3.23049214e-09  3.44974556e-09  3.09908387e-09  3.41168973e-09  3.36031976e-09  3.27063726e-09  1.67137111e-07  1.78249060e-09  2.40000000e-01 
 2.50000000e-01  4.60918218e-01  3.23049214e-09  3.44974556e-09  3.09908381e-09  3.41168973e-09  3.36031982e-09  3.27063726e-09  1.67137110e-07  1.78229875e-09  2.50000000e-01 
 2.60000000e-01  4.60918219e-01  3.23049214e-09  3.44974556e-09  3.09908381e-09  3.41168973e-09  3.36031975e-09  3.27063726e-09  1.67137106e-07  1.78209980e-09  2.60000000e-01 
 2.70000000e-01  4.60918215e-01  3.23049219e-09  3.44974556e-09  3.09908387e-09  3.41168978e-09  3.36031976e-09  3.27063726e-09  1.67137099e-07  1.78195769e-09  2.70000000e-01 
 2.80000000e-01  4.60918231e-01  3.23049219e-09  3.44974556e-09  3.09908381e-09  3.41168979e-09  3.36031976e-09  3.27063726e-09  1.67137131e-07  1.78174986e-09  2.80000000e-01 
 2.90000000e-01  4.60918208e-01  3.23049214e-09  3.44974556e-09  3.09908387e-09  3.41168973e-09  3.36031976e-09  3.27063726e-09  1.67137086e-07  1.78147630e-09  2.90000000e-01 
 3.00000000e-01  4.60918217e-01  3.23049214e-09  3.44974556e-09  3.09908387e-09  3.41168978e-09  3.36031976e-09  3.27063721e-09  1.67137098e-07  1.78141946e-09  3.00000000e-01 
 3.10000000e-01  4.60918212e-01  3.23049214e-09  3.44974556e-09  3.09908387e-09  3.41168978e-09  3.36031976e-09  3.27063726e-09  1.67137102e-07  1.78122406e-09  3.10000000e-01 
 3.20000000e-01  4.60918211e-01  3.23049219e-09  3.44974556e-09  3.09908381e-09  3.41168978e-09  3.36031976e-09  3.27063721e-09  1.67137099e-07  1.78108550e-09  3.20000000e-01 
 3.30000000e-01  4.60918204e-01  3.23049219e-09  3.44974556e-09  3.09908381e-09  3.41168973e-09  3.36031976e-09  3.27063721e-09  1.67137096e-07  1.78099313e-09  3.30000000e-01 
 3.40000000e-01  4.60918221e-01  3.23049214e-09  3.44974556e-09  3.09908381e-09  3.41168978e-09  3.36031976e-09  3.27063721e-09  1.67137115e-07  1.78077286e-09  3.40000000e-01 
 3.50000000e-01  4.60918230e-01  3.23049214e-09  3.44974556e-09  3.09908387e-09  3.41168973e-09  3.36031982e-09  3.27063726e-09  1.67137123e-07  1.78062010e-09  3.50000000e-01 
 3.60000000e-01  4.60918222e-01  3.23049214e-09  3.44974556e-09  3.09908381e-09  3.41168979e-09  3.36031980e-09  3.27063721e-09  1.67137114e-07  1.78051351e-09  3.60000000e-01 
 3.70000000e-01  4.60918213e-01  3.23049214e-09  3.44974556e-09  3.09908387e-09  3.41168973e-09  3.36031976e-09  3.27063726e-09  1.67137091e-07  1.78041759e-09  3.70000000e-01 
 3.80000000e-01  4.60918210e-01  3.23049214e-09  3.44974556e-09  3.09908381e-09  3.41168978e-09  3.36031982e-09  3.27063721e-09  1.67137085e-07  1.78024351e-09  3.80000000e-01 
 3.90000000e-01  4.60918213e-01  3.23049214e-09  3.44974556e-09  3.09908387e-09  3.41168973e-09  3.36031980e-09  3.27063726e-09  1.67137099e-07  1.78005166e-09  3.90000000e-01 
 4.00000000e-01  4.60918222e-01  3.23049214e-09  3.44974556e-09  3.09908387e-09  3.41168973e-09  3.36031977e-09  3.27063726e-09  1.67137111e-07  1.77989179e-09  4.00000000e-01 
 4.10000000e-01  4.60918200e-01  3.23049213e-09  3.44974556e-09  3.09908381e-09  3.41168973e-09  3.36031976e-09  3.27063721e-09  1.67137082e-07  1.77974258e-09  4.10000000e-01 
 4.20000000e-01  4.60918203e-01  3.23049213e-09  3.44974556e-09  3.09908387e-09  3.41168973e-09  3.36031981e-09  3.27063726e-09  1.67137088e-07  1.77963599e-09  4.20000000e-01 
 4.30000000e-01  4.60918219e-01  3.23049214e-09  3.44974556e-09  3.09908381e-09  3.41168973e-09  3.36031975e-09  3.27063726e-09  1.67137115e-07  1.77949744e-09  4.30000000e-01 
 4.40000000e-01  4.60918236e-01  3.23049214e-09  3.44974556e-09  3.09908381e-09  3.41168973e-09  3.36031977e-09  3.27063721e-09  1.67137135e-07  1.77935888e-09  4.40000000e-01 
 4.50000000e-01  4.60918219e-01  3.23049219e-09  3.44974556e-09  3.09908381e-09  3.41168978e-09  3.36031976e-09  3.27063721e-09  1.67137106e-07  1.77927006e-09  4.50000000e-01 
 4.60000000e-01  4.60918224e-01  3.23049214e-09  3.44974556e-09  3.09908387e-09  3.41168979e-09  3.36031976e-09  3.27063726e-09  1.67137120e-07  1.77921322e-09  4.60000000e-01 
 4.70000000e-01  4.60918215e-01  3.23049214e-09  3.44974556e-09  3.09908387e-09  3.41168973e-09  3.36031976e-09  3.27063726e-09  1.67137102e-07  1.77901427e-09  4.70000000e-01 
 4.80000000e-01  4.60918217e-01  3.23049214e-09  3.44974556e-09  3.09908387e-09  3.41168978e-09  3.36031976e-09  3.27063726e-09  1.67137108e-07  1.77892545e-09  4.80000000e-01 
 4.90000000e-01  4.60918204e-01  3.23049219e-09  3.44974556e-09  3.09908387e-09  3.41168978e-09  3.36031981e-09  3.27063726e-09  1.67137068e-07  1.77875492e-09  4.90000000e-01 
 5.00000000e-01  4.60918225e-01  3.23049214e-09  3.44974556e-09  3.09908387e-09  3.41168979e-09  3.36031980e-09  3.27063726e-09  1.67137112e-07  1.77869453e-09  5.00000000e-01 
 5.10000000e-01  4.60918209e-01  3.23049214e-09  3.44974562e-09  3.09908387e-09  3.41168973e-09  3.36031976e-09  3.27063721e-09  1.67137108e-07  1.77854886e-09  5.10000000e-01 
 5.20000000e-01  4.60918233e-01  3.23049214e-09  3.44974556e-09  3.09908381e-09  3.41168973e-09  3.36031982e-09  3.27063721e-09  1.67137124e-07  1.77838189e-09  5.20000000e-01 
 5.30000000e-01  4.60918222e-01  3.23049214e-09  3.44974556e-09  3.09908387e-09  3.41168973e-09  3.36031980e-09  3.27063726e-09  1.67137117e-07  1.77831438e-09  5.30000000e-01 
 5.40000000e-01  4.60918240e-01  3.23049214e-09  3.44974556e-09  3.09908387e-09  3.41168979e-09  3.36031982e-09  3.27063726e-09  1.67137147e-07  1.77810122e-09  5.40000000e-01 
 5.50000000e-01  4.60918226e-01  3.23049214e-09  3.44974556e-09  3.09908381e-09  3.41168979e-09  3.36031980e-09  3.27063726e-09  1.67137124e-07  1.77798398e-09  5.50000000e-01 
 5.60000000e-01  4.60918231e-01  3.23049214e-09  3.44974556e-09  3.09908381e-09  3.41168979e-09  3.36031977e-09  3.27063726e-09  1.67137126e-07  1.77788451e-09  5.60000000e-01 
 5.70000000e-01  4.60918224e-01  3.23049214e-09  3.44974556e-09  3.09908381e-09  3.41168973e-09  3.36031976e-09  3.27063726e-09  1.67137126e-07  1.77777082e-09  5.70000000e-01 
 5.80000000e-01  4.60918219e-01  3.23049219e-09  3.44974556e-09  3.09908381e-09  3.41168978e-09  3.36031976e-09  3.27063726e-09  1.67137105e-07  1.77765713e-09  5.80000000e-01 
 5.90000000e-01  4.60918194e-01  3.23049213e-09  3.44974556e-09  3.09908387e-09  3.41168973e-09  3.36031976e-09  3.27063726e-09  1.67137068e-07  1.77762871e-09  5.90000000e-01 
 6.00000000e-01  4.60918212e-01  3.23049214e-09  3.44974556e-09  3.09908387e-09  3.41168978e-09  3.36031976e-09  3.27063726e-09  1.67137100e-07  1.77735870e-09  6.00000000e-01 
 6.10000000e-01  4.60918213e-01  3.23049214e-09  3.44974556e-09  3.09908387e-09  3.41168978e-09  3.36031976e-09  3.27063726e-09  1.67137116e-07  1.77730186e-09  6.10000000e-01 
 6.20000000e-01  4.60918204e-01  3.23049213e-09  3.44974556e-09  3.09908387e-09  3.41168978e-09  3.36031976e-09  3.27063721e-09  1.67137082e-07  1.77722370e-09  6.20000000e-01 
 6.30000000e-01  4.60918203e-01  3.23049213e-09  3.44974556e-09  3.09908387e-09  3.41168978e-09  3.36031976e-09  3.27063726e-09  1.67137086e-07  1.77703896e-09  6.30000000e-01 
 6.40000000e-01  4.60918209e-01  3.23049214e-09  3.44974556e-09  3.09908381e-09  3.41168978e-09  3.36031976e-09  3.27063721e-09  1.67137094e-07  1.77692527e-09  6.40000000e-01 
 6.50000000e-01  4.60918197e-01  3.23049213e-09  3.44974556e-09  3.09908381e-09  3.41168973e-09  3.36031976e-09  3.27063721e-09  1.67137072e-07  1.77686132e-09  6.50000000e-01 
 6.60000000e-01  4.60918222e-01  3.23049214e-09  3.44974562e-09  3.09908387e-09  3.41168978e-09  3.36031982e-09  3.27063726e-09  1.67137114e-07  1.77676185e-09  6.60000000e-01 
 6.70000000e-01  4.60918216e-01  3.23049214e-09  3.44974556e-09  3.09908387e-09  3.41168978e-09  3.36031975e-09  3.27063726e-09  1.67137101e-07  1.77658421e-09  6.70000000e-01 
 6.80000000e-01  4.60918206e-01  3.23049213e-09  3.44974556e-09  3.09908381e-09  3.41168973e-09  3.36031976e-09  3.27063726e-09  1.67137092e-07  1.77643500e-09  6.80000000e-01 
 6.90000000e-01  4.60918218e-01  3.23049214e-09  3.44974556e-09  3.09908387e-09  3.41168978e-09  3.36031976e-09  3.27063726e-09  1.67137096e-07  1.77640658e-09  6.90000000e-01 
 7.00000000e-01  4.60918224e-01  3.23049214e-09  3.44974556e-09  3.09908387e-09  3.41168973e-09  3.36031976e-09  3.27063726e-09  1.67137118e-07  1.77617920e-09  7.00000000e-01 
 7.10000000e-01  4.60918217e-01  3.23049214e-09  3.44974556e-09  3.09908381e-09  3.41168978e-09  3.36031976e-09  3.27063726e-09  1.67137103e-07  1.77605131e-09  7.10000000e-01 
 7.20000000e-01  4.60918200e-01  3.23049219e-09  3.44974556e-09  3.09908387e-09  3.41168978e-09  3.36031976e-09  3.27063721e-09  1.67137093e-07  1.77598736e-09  7.20000000e-01 
 7.30000000e-01  4.60918216e-01  3.23049214e-09  3.44974556e-09  3.09908381e-09  3.41168978e-09  3.36031976e-09  3.27063721e-09  1.67137090e-07  1.77580972e-09  7.30000000e-01 
 7.40000000e-01  4.60918233e-01  3.23049214e-09  3.44974556e-09  3.09908387e-09  3.41168973e-09  3.36031976e-09  3.27063721e-09  1.67137128e-07  1.77568893e-09  7.40000000e-01 
 7.50000000e-01  4.60918222e-01  3.23049214e-09  3.44974556e-09  3.09908381e-09  3.41168979e-09  3.36031976e-09  3.27063721e-09  1.67137113e-07  1.77556814e-09  7.50000000e-01 
 7.60000000e-01  4.60918221e-01  3.23049214e-09  3.44974556e-09  3.09908387e-09  3.41168973e-09  3.36031976e-09  3.27063721e-09  1.67137120e-07  1.77550419e-09  7.60000000e-01 
 7.70000000e-01  4.60918215e-01  3.23049214e-09  3.44974556e-09  3.09908381e-09  3.41168978e-09  3.36031976e-09  3.27063726e-09  1.67137091e-07  1.77529813e-09  7.70000000e-01 
 7.80000000e-01  4.60918222e-01  3.23049214e-09  3.44974556e-09  3.09908387e-09  3.41168979e-09  3.36031976e-09  3.27063726e-09  1.67137111e-07  1.77517023e-09  7.80000000e-01 
 7.90000000e-01  4.60918227e-01  3.23049214e-09  3.44974556e-09  3.09908387e-09  3.41168973e-09  3.36031982e-09  3.27063721e-09  1.67137109e-07  1.77512760e-09  7.90000000e-01 
 8.00000000e-01  4.60918223e-01  3.23049214e-09  3.44974556e-09  3.09908387e-09  3.41168973e-09  3.36031980e-09  3.27063721e-09  1.67137123e-07  1.77488602e-09  8.00000000e-01 
 8.10000000e-01  4.60918224e-01  3.23049219e-09  3.44974556e-09  3.09908381e-09  3.41168979e-09  3.36031977e-09  3.27063726e-09  1.67137118e-07  1.77479365e-09  8.10000000e-01 
 8.20000000e-01  4.60918235e-01  3.23049214e-09  3.44974556e-09  3.09908387e-09  3.41168979e-09  3.36031982e-09  3.27063721e-09  1.67137123e-07  1.77465864e-09  8.20000000e-01 
 8.30000000e-01  4.60918214e-01  3.23049214e-09  3.44974556e-09  3.09908381e-09  3.41168973e-09  3.36031975e-09  3.27063721e-09  1.67137100e-07  1.77449522e-09  8.30000000e-01 
 8.40000000e-01  4.60918217e-01  3.23049214e-09  3.44974556e-09  3.09908387e-09  3.41168978e-09  3.36031976e-09  3.27063726e-09  1.67137106e-07  1.77450232e-09  8.40000000e-01 
 8.50000000e-01  4.60918218e-01  3.23049214e-09  3.44974556e-09  3.09908387e-09  3.41168978e-09  3.36031976e-09  3.27063721e-09  1.67137102e-07  1.77430337e-09  8.50000000e-01 
 8.60000000e-01  4.60918221e-01  3.23049214e-09  3.44974556e-09  3.09908381e-09  3.41168978e-09  3.36031976e-09  3.27063721e-09  1.67137112e-07  1.77419679e-09  8.60000000e-01 
 8.70000000e-01  4.60918214e-01  3.23049219e-09  3.44974556e-09  3.09908387e-09  3.41168978e-09  3.36031976e-09  3.27063726e-09  1.67137093e-07  1.77402626e-09  8.70000000e-01 
 8.80000000e-01  4.60918198e-01  3.23049219e-09  3.44974556e-09  3.09908381e-09  3.41168978e-09  3.36031981e-09  3.27063721e-09  1.67137078e-07  1.77385573e-09  8.80000000e-01 
 8.90000000e-01  4.60918206e-01  3.23049213e-09  3.44974556e-09  3.09908381e-09  3.41168973e-09  3.36031975e-09  3.27063721e-09  1.67137078e-07  1.77379178e-09  8.90000000e-01 
 9.00000000e-01  4.60918218e-01  3.23049214e-09  3.44974556e-09  3.09908381e-09  3.41168978e-09  3.36031977e-09  3.27063721e-09  1.67137101e-07  1.77364967e-09  9.00000000e-01 
 9.10000000e-01  4.60918204e-01  3.23049213e-09  3.44974556e-09  3.09908387e-09  3.41168978e-09  3.36031976e-09  3.27063726e-09  1.67137102e-07  1.77356441e-09  9.10000000e-01 
 9.20000000e-01  4.60918207e-01  3.23049213e-09  3.44974556e-09  3.09908381e-09  3.41168973e-09  3.36031981e-09  3.27063721e-09  1.67137089e-07  1.77337256e-09  9.20000000e-01 
 9.30000000e-01  4.60918211e-01  3.23049214e-09  3.44974556e-09  3.09908381e-09  3.41168973e-09  3.36031975e-09  3.27063726e-09  1.67137105e-07  1.77328019e-09  9.30000000e-01 
 9.40000000e-01  4.60918220e-01  3.23049214e-09  3.44974556e-09  3.09908387e-09  3.41168973e-09  3.36031977e-09  3.27063721e-09  1.67137123e-07  1.77317361e-09  9.40000000e-01 
 9.50000000e-01  4.60918214e-01  3.23049214e-09  3.44974556e-09  3.09908387e-09  3.41168973e-09  3.36031976e-09  3.27063721e-09  1.67137104e-07  1.77299597e-09  9.50000000e-01 
 9.60000000e-01  4.60918219e-01  3.23049214e-09  3.44974556e-09  3.09908387e-09  3.41168978e-09  3.36031976e-09  3.27063721e-09  1.67137103e-07  1.77283965e-09  9.60000000e-01 
 9.70000000e-01  4.60918227e-01  3.23049214e-09  3.44974556e-09  3.09908381e-09  3.41168973e-09  3.36031982e-09  3.27063721e-09  1.67137112e-07  1.77276860e-09  9.70000000e-01 
 9.80000000e-01  4.60918234e-01  3.23049214e-09  3.44974556e-09  3.09908387e-09  3.41168979e-09  3.36031981e-09  3.27063726e-09  1.67137148e-07  1.77260517e-09  9.80000000e-01 
 9.90000000e-01  4.60918220e-01  3.23049214e-09  3.44974556e-09  3.09908381e-09  3.41168978e-09  3.36031977e-09  3.27063726e-09  1.67137123e-07  1.77252701e-09  9.90000000e-01 
 1.00000000e+00  4.60918219e-01  3.23049219e-09  3.44974556e-09  3.09908381e-09  3.41168978e-09  3.36031982e-09  3.27063726e-09  1.67137110e-07  1.77226411e-09  1.00000000e+00 
 1.01000000e+00  4.60918206e-01  3.23049213e-09  3.44974556e-09  3.09908387e-09  3.41168978e-09  3.36031975e-09  3.27063726e-09  1.67137085e-07  1.77214332e-09  1.01000000e+00 
 1.02000000e+00  4.60918218e-01  3.23049214e-09  3.44974556e-09  3.09908381e-09  3.41168973e-09  3.36031976e-09  3.27063726e-09  1.67137096e-07  1.77211490e-09  1.02000000e+00 
 1.03000000e+00  4.60918218e-01  3.23049219e-09  3.44974556e-09  3.09908387e-09  3.41168978e-09  3.36031976e-09  3.27063726e-09  1.67137102e-07  1.77190884e-09  1.03000000e+00 
 1.04000000e+00  4.60918223e-01  3.23049214e-09  3.44974556e-09  3.09908381e-09  3.41168973e-09  3.36031976e-09  3.27063726e-09  1.67137098e-07  1.77169568e-09  1.04000000e+00 
 1.05000000e+00  4.60918215e-01  3.23049219e-09  3.44974556e-09  3.09908387e-09  3.41168978e-09  3.36031976e-09  3.27063721e-09  1.67137108e-07  1.77161752e-09  1.05000000e+00 
 1.06000000e+00  4.60918222e-01  3.23049214e-09  3.44974556e-09  3.09908387e-09  3.41168978e-09  3.36031976e-09  3.27063726e-09  1.67137129e-07  1.77156068e-09  1.06000000e+00 
 1.07000000e+00  4.60918224e-01  3.23049214e-09  3.44974556e-09  3.09908387e-09  3.41168973e-09  3.36031976e-09  3.27063726e-09  1.67137115e-07  1.77138304e-09  1.07000000e+00 
 1.08000000e+00  4.60918215e-01  3.23049214e-09  3.44974556e-09  3.09908387e-09  3.41168978e-09  3.36031976e-09  3.27063726e-09  1.67137104e-07  1.77113435e-09  1.08000000e+00 
 1.09000000e+00  4.60918205e-01  3.23049213e-09  3.44974556e-09  3.09908381e-09  3.41168978e-09  3.36031976e-09  3.27063726e-09  1.67137085e-07  1.77107751e-09  1.09000000e+00 
 1.10000000e+00  4.60918221e-01  3.23049214e-09  3.44974556e-09  3.09908387e-09  3.41168978e-09  3.36031976e-09  3.27063726e-09  1.67137108e-07  1.77089987e-09  1.10000000e+00 
