 v-sweep         v(b0)           v(b1)           v(b2)           v(b3)           v(b4)           v(b5)           v(b6)           i(vbias)        i(viout)        v(vout)        
 0.00000000e+00  4.58555535e-01  4.58555534e-01  3.52019201e-09  3.44273952e-09  4.58555535e-01  4.58555535e-01  3.25200273e-09  1.59025674e-07  7.56062216e-08  0.00000000e+00 
 1.00000000e-02  4.58555524e-01  4.58555524e-01  3.52019199e-09  3.44273950e-09  4.58555524e-01  4.58555524e-01  3.25200271e-09  1.59025644e-07  7.56058907e-08  1.00000000e-02 
 2.00000000e-02  4.58555529e-01  4.58555529e-01  3.52019199e-09  3.44273950e-09  4.58555529e-01  4.58555529e-01  3.25200271e-09  1.59025664e-07  7.56053986e-08  2.00000000e-02 
 3.00000000e-02  4.58555543e-01  4.58555543e-01  3.52019199e-09  3.44273956e-09  4.58555543e-01  4.58555543e-01  3.25200271e-09  1.59025675e-07  7.56050671e-08  3.00000000e-02 
 4.00000000e-02  4.58555522e-01  4.58555522e-01  3.52019199e-09  3.44273956e-09  4.58555522e-01  4.58555522e-01  3.25200271e-09  1.59025648e-07  7.56046767e-08  4.00000000e-02 
 5.00000000e-02  4.58555563e-01  4.58555563e-01  3.52019199e-09  3.44273956e-09  4.58555563e-01  4.58555563e-01  3.25200271e-09  1.59025692e-07  7.56043921e-08  5.00000000e-02 
 6.00000000e-02  4.58555505e-01  4.58555505e-01  3.52019199e-09  3.44273950e-09  4.58555505e-01  4.58555505e-01  3.25200271e-09  1.59025619e-07  7.56040812e-08  6.00000000e-02 
 7.00000000e-02  4.58555556e-01  4.58555555e-01  3.52019199e-09  3.44273950e-09  4.58555556e-01  4.58555556e-01  3.25200277e-09  1.59025698e-07  7.56037126e-08  7.00000000e-02 
 8.00000000e-02  4.58555558e-01  4.58555558e-01  3.52019199e-09  3.44273956e-09  4.58555558e-01  4.58555558e-01  3.25200277e-09  1.59025700e-07  7.56035003e-08  8.00000000e-02 
 9.00000000e-02  4.58555491e-01  4.58555491e-01  3.52019199e-09  3.44273956e-09  4.58555491e-01  4.58555491e-01  3.25200271e-09  1.59025588e-07  7.56031424e-08  9.00000000e-02 
 1.00000000e-01  4.58555535e-01  4.58555534e-01  3.52019199e-09  3.44273956e-09  4.58555534e-01  4.58555535e-01  3.25200271e-09  1.59025662e-07  7.56028831e-08  1.00000000e-01 
 1.10000000e-01  4.58555533e-01  4.58555533e-01  3.52019199e-09  3.44273956e-09  4.58555533e-01  4.58555534e-01  3.25200271e-09  1.59025657e-07  7.56027010e-08  1.10000000e-01 
 1.20000000e-01  4.58555520e-01  4.58555520e-01  3.52019199e-09  3.44273956e-09  4.58555520e-01  4.58555520e-01  3.25200271e-09  1.59025644e-07  7.56024292e-08  1.20000000e-01 
 1.30000000e-01  4.58555543e-01  4.58555543e-01  3.52019199e-09  3.44273956e-09  4.58555543e-01  4.58555543e-01  3.25200271e-09  1.59025666e-07  7.56021459e-08  1.30000000e-01 
 1.40000000e-01  4.58555547e-01  4.58555547e-01  3.52019199e-09  3.44273950e-09  4.58555547e-01  4.58555547e-01  3.25200271e-09  1.59025685e-07  7.56019611e-08  1.40000000e-01 
 1.50000000e-01  4.58555541e-01  4.58555541e-01  3.52019199e-09  3.44273950e-09  4.58555541e-01  4.58555541e-01  3.25200271e-09  1.59025667e-07  7.56018057e-08  1.50000000e-01 
 1.60000000e-01  4.58555539e-01  4.58555539e-01  3.52019199e-09  3.44273956e-09  4.58555539e-01  4.58555539e-01  3.25200277e-09  1.59025665e-07  7.56014895e-08  1.60000000e-01 
 1.70000000e-01  4.58555522e-01  4.58555522e-01  3.52019199e-09  3.44273950e-09  4.58555522e-01  4.58555522e-01  3.25200271e-09  1.59025639e-07  7.56013652e-08  1.70000000e-01 
 1.80000000e-01  4.58555543e-01  4.58555543e-01  3.52019199e-09  3.44273950e-09  4.58555543e-01  4.58555543e-01  3.25200271e-09  1.59025685e-07  7.56011609e-08  1.80000000e-01 
 1.90000000e-01  4.58555539e-01  4.58555539e-01  3.52019199e-09  3.44273950e-09  4.58555539e-01  4.58555539e-01  3.25200271e-09  1.59025661e-07  7.56009744e-08  1.90000000e-01 
 2.00000000e-01  4.58555549e-01  4.58555548e-01  3.52019199e-09  3.44273950e-09  4.58555549e-01  4.58555549e-01  3.25200271e-09  1.59025676e-07  7.56008589e-08  2.00000000e-01 
 2.10000000e-01  4.58555522e-01  4.58555522e-01  3.52019199e-09  3.44273950e-09  4.58555522e-01  4.58555522e-01  3.25200271e-09  1.59025645e-07  7.56005942e-08  2.10000000e-01 
 2.20000000e-01  4.58555517e-01  4.58555517e-01  3.52019199e-09  3.44273950e-09  4.58555517e-01  4.58555517e-01  3.25200271e-09  1.59025643e-07  7.56005534e-08  2.20000000e-01 
 2.30000000e-01  4.58555542e-01  4.58555542e-01  3.52019199e-09  3.44273956e-09  4.58555542e-01  4.58555542e-01  3.25200271e-09  1.59025669e-07  7.56004610e-08  2.30000000e-01 
 2.40000000e-01  4.58555526e-01  4.58555526e-01  3.52019199e-09  3.44273950e-09  4.58555526e-01  4.58555526e-01  3.25200271e-09  1.59025644e-07  7.56002922e-08  2.40000000e-01 
 2.50000000e-01  4.58555505e-01  4.58555505e-01  3.52019199e-09  3.44273956e-09  4.58555505e-01  4.58555505e-01  3.25200271e-09  1.59025615e-07  7.56000667e-08  2.50000000e-01 
 2.60000000e-01  4.58555554e-01  4.58555554e-01  3.52019199e-09  3.44273950e-09  4.58555554e-01  4.58555554e-01  3.25200271e-09  1.59025681e-07  7.55999583e-08  2.60000000e-01 
 2.70000000e-01  4.58555550e-01  4.58555550e-01  3.52019199e-09  3.44273950e-09  4.58555550e-01  4.58555551e-01  3.25200271e-09  1.59025687e-07  7.55997664e-08  2.70000000e-01 
 2.80000000e-01  4.58555541e-01  4.58555541e-01  3.52019199e-09  3.44273950e-09  4.58555541e-01  4.58555541e-01  3.25200271e-09  1.59025664e-07  7.55997807e-08  2.80000000e-01 
 2.90000000e-01  4.58555519e-01  4.58555519e-01  3.52019199e-09  3.44273950e-09  4.58555519e-01  4.58555519e-01  3.25200277e-09  1.59025615e-07  7.55996190e-08  2.90000000e-01 
 3.00000000e-01  4.58555518e-01  4.58555518e-01  3.52019199e-09  3.44273950e-09  4.58555518e-01  4.58555518e-01  3.25200277e-09  1.59025631e-07  7.55994449e-08  3.00000000e-01 
 3.10000000e-01  4.58555559e-01  4.58555559e-01  3.52019199e-09  3.44273956e-09  4.58555559e-01  4.58555559e-01  3.25200271e-09  1.59025687e-07  7.55993987e-08  3.10000000e-01 
 3.20000000e-01  4.58555504e-01  4.58555504e-01  3.52019199e-09  3.44273956e-09  4.58555504e-01  4.58555504e-01  3.25200271e-09  1.59025620e-07  7.55990754e-08  3.20000000e-01 
 3.30000000e-01  4.58555527e-01  4.58555527e-01  3.52019199e-09  3.44273950e-09  4.58555527e-01  4.58555527e-01  3.25200271e-09  1.59025659e-07  7.55991110e-08  3.30000000e-01 
 3.40000000e-01  4.58555511e-01  4.58555511e-01  3.52019199e-09  3.44273950e-09  4.58555511e-01  4.58555511e-01  3.25200271e-09  1.59025632e-07  7.55990328e-08  3.40000000e-01 
 3.50000000e-01  4.58555527e-01  4.58555527e-01  3.52019199e-09  3.44273956e-09  4.58555527e-01  4.58555527e-01  3.25200271e-09  1.59025651e-07  7.55988658e-08  3.50000000e-01 
 3.60000000e-01  4.58555511e-01  4.58555511e-01  3.52019199e-09  3.44273950e-09  4.58555511e-01  4.58555511e-01  3.25200271e-09  1.59025623e-07  7.55988019e-08  3.60000000e-01 
 3.70000000e-01  4.58555509e-01  4.58555509e-01  3.52019199e-09  3.44273956e-09  4.58555509e-01  4.58555510e-01  3.25200271e-09  1.59025634e-07  7.55987699e-08  3.70000000e-01 
 3.80000000e-01  4.58555532e-01  4.58555532e-01  3.52019199e-09  3.44273950e-09  4.58555532e-01  4.58555532e-01  3.25200271e-09  1.59025646e-07  7.55986882e-08  3.80000000e-01 
 3.90000000e-01  4.58555542e-01  4.58555542e-01  3.52019199e-09  3.44273950e-09  4.58555542e-01  4.58555542e-01  3.25200277e-09  1.59025671e-07  7.55986278e-08  3.90000000e-01 
 4.00000000e-01  4.58555524e-01  4.58555524e-01  3.52019199e-09  3.44273950e-09  4.58555524e-01  4.58555524e-01  3.25200271e-09  1.59025641e-07  7.55984786e-08  4.00000000e-01 
 4.10000000e-01  4.58555554e-01  4.58555554e-01  3.52019199e-09  3.44273956e-09  4.58555554e-01  4.58555554e-01  3.25200271e-09  1.59025687e-07  7.55985106e-08  4.10000000e-01 
 4.20000000e-01  4.58555519e-01  4.58555519e-01  3.52019199e-09  3.44273956e-09  4.58555519e-01  4.58555519e-01  3.25200271e-09  1.59025637e-07  7.55983329e-08  4.20000000e-01 
 4.30000000e-01  4.58555549e-01  4.58555549e-01  3.52019199e-09  3.44273956e-09  4.58555549e-01  4.58555549e-01  3.25200271e-09  1.59025686e-07  7.55982121e-08  4.30000000e-01 
 4.40000000e-01  4.58555526e-01  4.58555526e-01  3.52019199e-09  3.44273950e-09  4.58555526e-01  4.58555526e-01  3.25200271e-09  1.59025644e-07  7.55982725e-08  4.40000000e-01 
 4.50000000e-01  4.58555518e-01  4.58555518e-01  3.52019199e-09  3.44273950e-09  4.58555518e-01  4.58555519e-01  3.25200271e-09  1.59025643e-07  7.55980274e-08  4.50000000e-01 
 4.60000000e-01  4.58555523e-01  4.58555523e-01  3.52019199e-09  3.44273950e-09  4.58555523e-01  4.58555523e-01  3.25200271e-09  1.59025632e-07  7.55980665e-08  4.60000000e-01 
 4.70000000e-01  4.58555512e-01  4.58555512e-01  3.52019205e-09  3.44273950e-09  4.58555512e-01  4.58555512e-01  3.25200277e-09  1.59025627e-07  7.55978746e-08  4.70000000e-01 
 4.80000000e-01  4.58555555e-01  4.58555555e-01  3.52019199e-09  3.44273956e-09  4.58555555e-01  4.58555555e-01  3.25200277e-09  1.59025692e-07  7.55979173e-08  4.80000000e-01 
 4.90000000e-01  4.58555545e-01  4.58555545e-01  3.52019199e-09  3.44273950e-09  4.58555545e-01  4.58555545e-01  3.25200271e-09  1.59025683e-07  7.55978427e-08  4.90000000e-01 
 5.00000000e-01  4.58555530e-01  4.58555530e-01  3.52019199e-09  3.44273956e-09  4.58555530e-01  4.58555530e-01  3.25200271e-09  1.59025646e-07  7.55977148e-08  5.00000000e-01 
 5.10000000e-01  4.58555512e-01  4.58555512e-01  3.52019205e-09  3.44273950e-09  4.58555512e-01  4.58555512e-01  3.25200277e-09  1.59025641e-07  7.55976295e-08  5.10000000e-01 
 5.20000000e-01  4.58555507e-01  4.58555507e-01  3.52019199e-09  3.44273956e-09  4.58555507e-01  4.58555508e-01  3.25200271e-09  1.59025614e-07  7.55974945e-08  5.20000000e-01 
 5.30000000e-01  4.58555537e-01  4.58555536e-01  3.52019199e-09  3.44273950e-09  4.58555536e-01  4.58555537e-01  3.25200271e-09  1.59025667e-07  7.55975726e-08  5.30000000e-01 
 5.40000000e-01  4.58555510e-01  4.58555510e-01  3.52019205e-09  3.44273956e-09  4.58555510e-01  4.58555510e-01  3.25200271e-09  1.59025619e-07  7.55973879e-08  5.40000000e-01 
 5.50000000e-01  4.58555551e-01  4.58555551e-01  3.52019199e-09  3.44273950e-09  4.58555551e-01  4.58555551e-01  3.25200271e-09  1.59025689e-07  7.55973737e-08  5.50000000e-01 
 5.60000000e-01  4.58555544e-01  4.58555544e-01  3.52019199e-09  3.44273950e-09  4.58555544e-01  4.58555544e-01  3.25200271e-09  1.59025675e-07  7.55972813e-08  5.60000000e-01 
 5.70000000e-01  4.58555503e-01  4.58555503e-01  3.52019199e-09  3.44273956e-09  4.58555503e-01  4.58555503e-01  3.25200271e-09  1.59025606e-07  7.55971747e-08  5.70000000e-01 
 5.80000000e-01  4.58555531e-01  4.58555531e-01  3.52019199e-09  3.44273956e-09  4.58555531e-01  4.58555532e-01  3.25200271e-09  1.59025668e-07  7.55971570e-08  5.80000000e-01 
 5.90000000e-01  4.58555526e-01  4.58555526e-01  3.52019199e-09  3.44273950e-09  4.58555526e-01  4.58555526e-01  3.25200271e-09  1.59025656e-07  7.55970717e-08  5.90000000e-01 
 6.00000000e-01  4.58555528e-01  4.58555528e-01  3.52019199e-09  3.44273956e-09  4.58555528e-01  4.58555528e-01  3.25200271e-09  1.59025649e-07  7.55970007e-08  6.00000000e-01 
 6.10000000e-01  4.58555541e-01  4.58555540e-01  3.52019199e-09  3.44273956e-09  4.58555541e-01  4.58555541e-01  3.25200271e-09  1.59025657e-07  7.55970149e-08  6.10000000e-01 
 6.20000000e-01  4.58555515e-01  4.58555515e-01  3.52019199e-09  3.44273950e-09  4.58555515e-01  4.58555515e-01  3.25200271e-09  1.59025630e-07  7.55968443e-08  6.20000000e-01 
 6.30000000e-01  4.58555524e-01  4.58555524e-01  3.52019199e-09  3.44273956e-09  4.58555524e-01  4.58555524e-01  3.25200271e-09  1.59025651e-07  7.55967307e-08  6.30000000e-01 
 6.40000000e-01  4.58555530e-01  4.58555530e-01  3.52019205e-09  3.44273950e-09  4.58555530e-01  4.58555530e-01  3.25200271e-09  1.59025662e-07  7.55967093e-08  6.40000000e-01 
 6.50000000e-01  4.58555540e-01  4.58555540e-01  3.52019199e-09  3.44273950e-09  4.58555540e-01  4.58555540e-01  3.25200271e-09  1.59025684e-07  7.55967378e-08  6.50000000e-01 
 6.60000000e-01  4.58555504e-01  4.58555504e-01  3.52019199e-09  3.44273950e-09  4.58555504e-01  4.58555505e-01  3.25200271e-09  1.59025622e-07  7.55965033e-08  6.60000000e-01 
 6.70000000e-01  4.58555532e-01  4.58555532e-01  3.52019199e-09  3.44273950e-09  4.58555532e-01  4.58555532e-01  3.25200271e-09  1.59025673e-07  7.55964820e-08  6.70000000e-01 
 6.80000000e-01  4.58555529e-01  4.58555529e-01  3.52019199e-09  3.44273950e-09  4.58555529e-01  4.58555529e-01  3.25200271e-09  1.59025650e-07  7.55964962e-08  6.80000000e-01 
 6.90000000e-01  4.58555536e-01  4.58555536e-01  3.52019199e-09  3.44273950e-09  4.58555536e-01  4.58555536e-01  3.25200271e-09  1.59025665e-07  7.55964251e-08  6.90000000e-01 
 7.00000000e-01  4.58555543e-01  4.58555542e-01  3.52019199e-09  3.44273950e-09  4.58555542e-01  4.58555543e-01  3.25200271e-09  1.59025668e-07  7.55964678e-08  7.00000000e-01 
 7.10000000e-01  4.58555534e-01  4.58555533e-01  3.52019199e-09  3.44273950e-09  4.58555533e-01  4.58555534e-01  3.25200271e-09  1.59025660e-07  7.55962901e-08  7.10000000e-01 
 7.20000000e-01  4.58555519e-01  4.58555519e-01  3.52019205e-09  3.44273956e-09  4.58555519e-01  4.58555519e-01  3.25200271e-09  1.59025638e-07  7.55961480e-08  7.20000000e-01 
 7.30000000e-01  4.58555544e-01  4.58555544e-01  3.52019199e-09  3.44273950e-09  4.58555544e-01  4.58555544e-01  3.25200271e-09  1.59025676e-07  7.55962191e-08  7.30000000e-01 
 7.40000000e-01  4.58555527e-01  4.58555527e-01  3.52019199e-09  3.44273956e-09  4.58555527e-01  4.58555527e-01  3.25200271e-09  1.59025641e-07  7.55961125e-08  7.40000000e-01 
 7.50000000e-01  4.58555542e-01  4.58555542e-01  3.52019199e-09  3.44273950e-09  4.58555542e-01  4.58555542e-01  3.25200271e-09  1.59025675e-07  7.55961480e-08  7.50000000e-01 
 7.60000000e-01  4.58555530e-01  4.58555530e-01  3.52019205e-09  3.44273956e-09  4.58555530e-01  4.58555530e-01  3.25200271e-09  1.59025654e-07  7.55959775e-08  7.60000000e-01 
 7.70000000e-01  4.58555537e-01  4.58555537e-01  3.52019199e-09  3.44273950e-09  4.58555537e-01  4.58555537e-01  3.25200271e-09  1.59025674e-07  7.55958922e-08  7.70000000e-01 
 7.80000000e-01  4.58555511e-01  4.58555511e-01  3.52019199e-09  3.44273950e-09  4.58555511e-01  4.58555511e-01  3.25200271e-09  1.59025625e-07  7.55958354e-08  7.80000000e-01 
 7.90000000e-01  4.58555525e-01  4.58555525e-01  3.52019199e-09  3.44273956e-09  4.58555525e-01  4.58555525e-01  3.25200271e-09  1.59025641e-07  7.55958141e-08  7.90000000e-01 
 8.00000000e-01  4.58555501e-01  4.58555501e-01  3.52019199e-09  3.44273956e-09  4.58555501e-01  4.58555501e-01  3.25200271e-09  1.59025612e-07  7.55956080e-08  8.00000000e-01 
 8.10000000e-01  4.58555521e-01  4.58555521e-01  3.52019199e-09  3.44273956e-09  4.58555521e-01  4.58555521e-01  3.25200271e-09  1.59025645e-07  7.55956222e-08  8.10000000e-01 
 8.20000000e-01  4.58555535e-01  4.58555535e-01  3.52019199e-09  3.44273956e-09  4.58555535e-01  4.58555535e-01  3.25200271e-09  1.59025649e-07  7.55955867e-08  8.20000000e-01 
 8.30000000e-01  4.58555515e-01  4.58555515e-01  3.52019199e-09  3.44273950e-09  4.58555515e-01  4.58555515e-01  3.25200271e-09  1.59025640e-07  7.55954090e-08  8.30000000e-01 
 8.40000000e-01  4.58555517e-01  4.58555517e-01  3.52019199e-09  3.44273956e-09  4.58555517e-01  4.58555517e-01  3.25200271e-09  1.59025634e-07  7.55954233e-08  8.40000000e-01 
 8.50000000e-01  4.58555537e-01  4.58555537e-01  3.52019199e-09  3.44273950e-09  4.58555537e-01  4.58555537e-01  3.25200271e-09  1.59025663e-07  7.55953593e-08  8.50000000e-01 
 8.60000000e-01  4.58555508e-01  4.58555508e-01  3.52019205e-09  3.44273956e-09  4.58555508e-01  4.58555508e-01  3.25200271e-09  1.59025623e-07  7.55953025e-08  8.60000000e-01 
 8.70000000e-01  4.58555547e-01  4.58555547e-01  3.52019199e-09  3.44273956e-09  4.58555547e-01  4.58555547e-01  3.25200271e-09  1.59025689e-07  7.55952527e-08  8.70000000e-01 
 8.80000000e-01  4.58555510e-01  4.58555510e-01  3.52019199e-09  3.44273950e-09  4.58555510e-01  4.58555510e-01  3.25200271e-09  1.59025643e-07  7.55951390e-08  8.80000000e-01 
 8.90000000e-01  4.58555527e-01  4.58555527e-01  3.52019199e-09  3.44273950e-09  4.58555527e-01  4.58555527e-01  3.25200277e-09  1.59025648e-07  7.55950538e-08  8.90000000e-01 
 9.00000000e-01  4.58555546e-01  4.58555546e-01  3.52019199e-09  3.44273950e-09  4.58555546e-01  4.58555546e-01  3.25200271e-09  1.59025671e-07  7.55950254e-08  9.00000000e-01 
 9.10000000e-01  4.58555516e-01  4.58555516e-01  3.52019199e-09  3.44273950e-09  4.58555516e-01  4.58555517e-01  3.25200271e-09  1.59025630e-07  7.55950254e-08  9.10000000e-01 
 9.20000000e-01  4.58555524e-01  4.58555524e-01  3.52019199e-09  3.44273956e-09  4.58555524e-01  4.58555524e-01  3.25200271e-09  1.59025653e-07  7.55949614e-08  9.20000000e-01 
 9.30000000e-01  4.58555536e-01  4.58555535e-01  3.52019199e-09  3.44273956e-09  4.58555536e-01  4.58555536e-01  3.25200271e-09  1.59025675e-07  7.55948477e-08  9.30000000e-01 
 9.40000000e-01  4.58555524e-01  4.58555524e-01  3.52019199e-09  3.44273956e-09  4.58555524e-01  4.58555525e-01  3.25200271e-09  1.59025640e-07  7.55947482e-08  9.40000000e-01 
 9.50000000e-01  4.58555537e-01  4.58555537e-01  3.52019199e-09  3.44273956e-09  4.58555537e-01  4.58555537e-01  3.25200271e-09  1.59025661e-07  7.55947340e-08  9.50000000e-01 
 9.60000000e-01  4.58555523e-01  4.58555523e-01  3.52019199e-09  3.44273956e-09  4.58555523e-01  4.58555523e-01  3.25200271e-09  1.59025643e-07  7.55946203e-08  9.60000000e-01 
 9.70000000e-01  4.58555555e-01  4.58555555e-01  3.52019199e-09  3.44273950e-09  4.58555555e-01  4.58555555e-01  3.25200271e-09  1.59025692e-07  7.55945848e-08  9.70000000e-01 
 9.80000000e-01  4.58555519e-01  4.58555519e-01  3.52019199e-09  3.44273956e-09  4.58555519e-01  4.58555519e-01  3.25200271e-09  1.59025647e-07  7.55944498e-08  9.80000000e-01 
 9.90000000e-01  4.58555524e-01  4.58555524e-01  3.52019199e-09  3.44273950e-09  4.58555524e-01  4.58555524e-01  3.25200271e-09  1.59025647e-07  7.55943077e-08  9.90000000e-01 
 1.00000000e+00  4.58555516e-01  4.58555516e-01  3.52019199e-09  3.44273956e-09  4.58555516e-01  4.58555516e-01  3.25200271e-09  1.59025636e-07  7.55943006e-08  1.00000000e+00 
 1.01000000e+00  4.58555538e-01  4.58555538e-01  3.52019199e-09  3.44273950e-09  4.58555538e-01  4.58555538e-01  3.25200271e-09  1.59025663e-07  7.55942082e-08  1.01000000e+00 
 1.02000000e+00  4.58555514e-01  4.58555514e-01  3.52019199e-09  3.44273950e-09  4.58555514e-01  4.58555514e-01  3.25200271e-09  1.59025635e-07  7.55941514e-08  1.02000000e+00 
 1.03000000e+00  4.58555527e-01  4.58555527e-01  3.52019199e-09  3.44273950e-09  4.58555527e-01  4.58555527e-01  3.25200271e-09  1.59025647e-07  7.55942011e-08  1.03000000e+00 
 1.04000000e+00  4.58555514e-01  4.58555514e-01  3.52019199e-09  3.44273950e-09  4.58555514e-01  4.58555514e-01  3.25200277e-09  1.59025642e-07  7.55939666e-08  1.04000000e+00 
 1.05000000e+00  4.58555531e-01  4.58555531e-01  3.52019199e-09  3.44273950e-09  4.58555531e-01  4.58555531e-01  3.25200271e-09  1.59025656e-07  7.55938316e-08  1.05000000e+00 
 1.06000000e+00  4.58555535e-01  4.58555535e-01  3.52019199e-09  3.44273956e-09  4.58555535e-01  4.58555535e-01  3.25200271e-09  1.59025665e-07  7.55938245e-08  1.06000000e+00 
 1.07000000e+00  4.58555513e-01  4.58555513e-01  3.52019205e-09  3.44273956e-09  4.58555513e-01  4.58555513e-01  3.25200271e-09  1.59025636e-07  7.55937180e-08  1.07000000e+00 
 1.08000000e+00  4.58555508e-01  4.58555508e-01  3.52019199e-09  3.44273950e-09  4.58555508e-01  4.58555508e-01  3.25200271e-09  1.59025630e-07  7.55936398e-08  1.08000000e+00 
 1.09000000e+00  4.58555570e-01  4.58555570e-01  3.52019200e-09  3.44273956e-09  4.58555570e-01  4.58555570e-01  3.25200271e-09  1.59025713e-07  7.55936895e-08  1.09000000e+00 
 1.10000000e+00  4.58555513e-01  4.58555513e-01  3.52019199e-09  3.44273950e-09  4.58555513e-01  4.58555514e-01  3.25200271e-09  1.59025637e-07  7.55935332e-08  1.10000000e+00 
