 v-sweep         v(b0)           v(b1)           v(b2)           v(b3)           v(b4)           v(b5)           v(b6)           i(vbias)        i(viout)        v(vout)        
 0.00000000e+00  4.59000984e-01  3.17818910e-09  3.23073598e-09  3.70863896e-09  4.59000984e-01  3.51793118e-09  3.35562227e-09  1.61430544e-07  2.75501289e-08  0.00000000e+00 
 1.00000000e-02  4.59000994e-01  3.17818912e-09  3.23073595e-09  3.70863899e-09  4.59000994e-01  3.51793121e-09  3.35562224e-09  1.61430552e-07  2.75495423e-08  1.00000000e-02 
 2.00000000e-02  4.59000996e-01  3.17818912e-09  3.23073596e-09  3.70863898e-09  4.59000996e-01  3.51793115e-09  3.35562224e-09  1.61430577e-07  2.75493266e-08  2.00000000e-02 
 3.00000000e-02  4.59001026e-01  3.17818913e-09  3.23073595e-09  3.70863893e-09  4.59001026e-01  3.51793116e-09  3.35562224e-09  1.61430605e-07  2.75489778e-08  3.00000000e-02 
 4.00000000e-02  4.59001008e-01  3.17818913e-09  3.23073595e-09  3.70863894e-09  4.59001008e-01  3.51793116e-09  3.35562224e-09  1.61430584e-07  2.75484555e-08  4.00000000e-02 
 5.00000000e-02  4.59000997e-01  3.17818912e-09  3.23073590e-09  3.70863899e-09  4.59000997e-01  3.51793121e-09  3.35562230e-09  1.61430565e-07  2.75481904e-08  5.00000000e-02 
 6.00000000e-02  4.59001003e-01  3.17818907e-09  3.23073595e-09  3.70863898e-09  4.59001003e-01  3.51793120e-09  3.35562224e-09  1.61430573e-07  2.75479159e-08  6.00000000e-02 
 7.00000000e-02  4.59001000e-01  3.17818908e-09  3.23073595e-09  3.70863899e-09  4.59001000e-01  3.51793121e-09  3.35562224e-09  1.61430578e-07  2.75476233e-08  7.00000000e-02 
 8.00000000e-02  4.59001008e-01  3.17818907e-09  3.23073595e-09  3.70863899e-09  4.59001008e-01  3.51793115e-09  3.35562230e-09  1.61430585e-07  2.75474727e-08  8.00000000e-02 
 9.00000000e-02  4.59001013e-01  3.17818913e-09  3.23073595e-09  3.70863893e-09  4.59001013e-01  3.51793116e-09  3.35562224e-09  1.61430591e-07  2.75470509e-08  9.00000000e-02 
 1.00000000e-01  4.59000996e-01  3.17818912e-09  3.23073595e-09  3.70863900e-09  4.59000996e-01  3.51793116e-09  3.35562224e-09  1.61430571e-07  2.75469834e-08  1.00000000e-01 
 1.10000000e-01  4.59000988e-01  3.17818907e-09  3.23073595e-09  3.70863892e-09  4.59000988e-01  3.51793115e-09  3.35562224e-09  1.61430558e-07  2.75465677e-08  1.10000000e-01 
 1.20000000e-01  4.59000998e-01  3.17818914e-09  3.23073595e-09  3.70863894e-09  4.59000998e-01  3.51793116e-09  3.35562230e-09  1.61430578e-07  2.75464211e-08  1.20000000e-01 
 1.30000000e-01  4.59000994e-01  3.17818906e-09  3.23073595e-09  3.70863899e-09  4.59000994e-01  3.51793121e-09  3.35562224e-09  1.61430558e-07  2.75459815e-08  1.30000000e-01 
 1.40000000e-01  4.59001016e-01  3.17818914e-09  3.23073595e-09  3.70863898e-09  4.59001016e-01  3.51793120e-09  3.35562224e-09  1.61430593e-07  2.75458820e-08  1.40000000e-01 
 1.50000000e-01  4.59000980e-01  3.17818912e-09  3.23073595e-09  3.70863899e-09  4.59000980e-01  3.51793121e-09  3.35562224e-09  1.61430543e-07  2.75456564e-08  1.50000000e-01 
 1.60000000e-01  4.59001020e-01  3.17818913e-09  3.23073595e-09  3.70863899e-09  4.59001020e-01  3.51793115e-09  3.35562230e-09  1.61430612e-07  2.75456262e-08  1.60000000e-01 
 1.70000000e-01  4.59001000e-01  3.17818912e-09  3.23073595e-09  3.70863899e-09  4.59000999e-01  3.51793116e-09  3.35562224e-09  1.61430559e-07  2.75453189e-08  1.70000000e-01 
 1.80000000e-01  4.59001013e-01  3.17818907e-09  3.23073595e-09  3.70863893e-09  4.59001013e-01  3.51793121e-09  3.35562224e-09  1.61430586e-07  2.75451733e-08  1.80000000e-01 
 1.90000000e-01  4.59000994e-01  3.17818908e-09  3.23073595e-09  3.70863894e-09  4.59000993e-01  3.51793120e-09  3.35562230e-09  1.61430578e-07  2.75449956e-08  1.90000000e-01 
 2.00000000e-01  4.59001007e-01  3.17818913e-09  3.23073595e-09  3.70863894e-09  4.59001007e-01  3.51793121e-09  3.35562224e-09  1.61430578e-07  2.75448979e-08  2.00000000e-01 
 2.10000000e-01  4.59000996e-01  3.17818912e-09  3.23073590e-09  3.70863899e-09  4.59000996e-01  3.51793115e-09  3.35562224e-09  1.61430565e-07  2.75447576e-08  2.10000000e-01 
 2.20000000e-01  4.59000990e-01  3.17818907e-09  3.23073595e-09  3.70863898e-09  4.59000990e-01  3.51793122e-09  3.35562224e-09  1.61430552e-07  2.75445906e-08  2.20000000e-01 
 2.30000000e-01  4.59001012e-01  3.17818908e-09  3.23073595e-09  3.70863899e-09  4.59001012e-01  3.51793120e-09  3.35562224e-09  1.61430590e-07  2.75444716e-08  2.30000000e-01 
 2.40000000e-01  4.59001007e-01  3.17818907e-09  3.23073590e-09  3.70863899e-09  4.59001007e-01  3.51793121e-09  3.35562230e-09  1.61430579e-07  2.75442140e-08  2.40000000e-01 
 2.50000000e-01  4.59000995e-01  3.17818913e-09  3.23073595e-09  3.70863893e-09  4.59000995e-01  3.51793115e-09  3.35562224e-09  1.61430562e-07  2.75441128e-08  2.50000000e-01 
 2.60000000e-01  4.59001018e-01  3.17818912e-09  3.23073595e-09  3.70863894e-09  4.59001018e-01  3.51793116e-09  3.35562224e-09  1.61430595e-07  2.75441483e-08  2.60000000e-01 
 2.70000000e-01  4.59000993e-01  3.17818907e-09  3.23073595e-09  3.70863899e-09  4.59000993e-01  3.51793116e-09  3.35562224e-09  1.61430551e-07  2.75439955e-08  2.70000000e-01 
 2.80000000e-01  4.59001021e-01  3.17818914e-09  3.23073595e-09  3.70863898e-09  4.59001021e-01  3.51793121e-09  3.35562230e-09  1.61430597e-07  2.75438978e-08  2.80000000e-01 
 2.90000000e-01  4.59000992e-01  3.17818912e-09  3.23073595e-09  3.70863899e-09  4.59000992e-01  3.51793120e-09  3.35562230e-09  1.61430561e-07  2.75436740e-08  2.90000000e-01 
 3.00000000e-01  4.59001017e-01  3.17818907e-09  3.23073595e-09  3.70863899e-09  4.59001017e-01  3.51793121e-09  3.35562230e-09  1.61430600e-07  2.75436634e-08  3.00000000e-01 
 3.10000000e-01  4.59001015e-01  3.17818908e-09  3.23073595e-09  3.70863893e-09  4.59001015e-01  3.51793115e-09  3.35562224e-09  1.61430597e-07  2.75434324e-08  3.10000000e-01 
 3.20000000e-01  4.59000991e-01  3.17818913e-09  3.23073595e-09  3.70863894e-09  4.59000991e-01  3.51793116e-09  3.35562224e-09  1.61430560e-07  2.75433401e-08  3.20000000e-01 
 3.30000000e-01  4.59000987e-01  3.17818912e-09  3.23073595e-09  3.70863893e-09  4.59000987e-01  3.51793115e-09  3.35562224e-09  1.61430547e-07  2.75433187e-08  3.30000000e-01 
 3.40000000e-01  4.59000987e-01  3.17818907e-09  3.23073595e-09  3.70863893e-09  4.59000987e-01  3.51793121e-09  3.35562224e-09  1.61430556e-07  2.75431589e-08  3.40000000e-01 
 3.50000000e-01  4.59001016e-01  3.17818914e-09  3.23073595e-09  3.70863899e-09  4.59001016e-01  3.51793114e-09  3.35562230e-09  1.61430588e-07  2.75431340e-08  3.50000000e-01 
 3.60000000e-01  4.59000980e-01  3.17818912e-09  3.23073595e-09  3.70863898e-09  4.59000980e-01  3.51793116e-09  3.35562230e-09  1.61430558e-07  2.75430025e-08  3.60000000e-01 
 3.70000000e-01  4.59001021e-01  3.17818913e-09  3.23073595e-09  3.70863899e-09  4.59001021e-01  3.51793116e-09  3.35562224e-09  1.61430603e-07  2.75430452e-08  3.70000000e-01 
 3.80000000e-01  4.59001002e-01  3.17818913e-09  3.23073595e-09  3.70863899e-09  4.59001002e-01  3.51793116e-09  3.35562230e-09  1.61430577e-07  2.75428604e-08  3.80000000e-01 
 3.90000000e-01  4.59000998e-01  3.17818912e-09  3.23073595e-09  3.70863899e-09  4.59000998e-01  3.51793116e-09  3.35562230e-09  1.61430571e-07  2.75428320e-08  3.90000000e-01 
 4.00000000e-01  4.59001014e-01  3.17818913e-09  3.23073595e-09  3.70863899e-09  4.59001014e-01  3.51793121e-09  3.35562224e-09  1.61430579e-07  2.75428107e-08  4.00000000e-01 
 4.10000000e-01  4.59000979e-01  3.17818912e-09  3.23073595e-09  3.70863899e-09  4.59000979e-01  3.51793120e-09  3.35562224e-09  1.61430541e-07  2.75426579e-08  4.10000000e-01 
 4.20000000e-01  4.59001005e-01  3.17818913e-09  3.23073595e-09  3.70863899e-09  4.59001005e-01  3.51793115e-09  3.35562224e-09  1.61430578e-07  2.75425123e-08  4.20000000e-01 
 4.30000000e-01  4.59001023e-01  3.17818913e-09  3.23073595e-09  3.70863899e-09  4.59001023e-01  3.51793116e-09  3.35562224e-09  1.61430612e-07  2.75424661e-08  4.30000000e-01 
 4.40000000e-01  4.59001011e-01  3.17818913e-09  3.23073595e-09  3.70863893e-09  4.59001011e-01  3.51793116e-09  3.35562224e-09  1.61430589e-07  2.75424519e-08  4.40000000e-01 
 4.50000000e-01  4.59000999e-01  3.17818907e-09  3.23073595e-09  3.70863894e-09  4.59000999e-01  3.51793121e-09  3.35562230e-09  1.61430569e-07  2.75424981e-08  4.50000000e-01 
 4.60000000e-01  4.59001013e-01  3.17818908e-09  3.23073595e-09  3.70863899e-09  4.59001013e-01  3.51793114e-09  3.35562224e-09  1.61430579e-07  2.75424128e-08  4.60000000e-01 
 4.70000000e-01  4.59001002e-01  3.17818913e-09  3.23073595e-09  3.70863898e-09  4.59001002e-01  3.51793116e-09  3.35562230e-09  1.61430578e-07  2.75422884e-08  4.70000000e-01 
 4.80000000e-01  4.59001018e-01  3.17818912e-09  3.23073595e-09  3.70863899e-09  4.59001018e-01  3.51793121e-09  3.35562230e-09  1.61430596e-07  2.75421819e-08  4.80000000e-01 
 4.90000000e-01  4.59001016e-01  3.17818907e-09  3.23073595e-09  3.70863899e-09  4.59001016e-01  3.51793114e-09  3.35562224e-09  1.61430604e-07  2.75421534e-08  4.90000000e-01 
 5.00000000e-01  4.59001002e-01  3.17818914e-09  3.23073595e-09  3.70863899e-09  4.59001002e-01  3.51793116e-09  3.35562230e-09  1.61430575e-07  2.75419900e-08  5.00000000e-01 
 5.10000000e-01  4.59001014e-01  3.17818906e-09  3.23073595e-09  3.70863893e-09  4.59001014e-01  3.51793116e-09  3.35562230e-09  1.61430595e-07  2.75420362e-08  5.10000000e-01 
 5.20000000e-01  4.59000986e-01  3.17818914e-09  3.23073595e-09  3.70863900e-09  4.59000986e-01  3.51793115e-09  3.35562230e-09  1.61430574e-07  2.75419687e-08  5.20000000e-01 
 5.30000000e-01  4.59001011e-01  3.17818912e-09  3.23073595e-09  3.70863892e-09  4.59001011e-01  3.51793116e-09  3.35562224e-09  1.61430586e-07  2.75418870e-08  5.30000000e-01 
 5.40000000e-01  4.59001022e-01  3.17818913e-09  3.23073595e-09  3.70863900e-09  4.59001022e-01  3.51793116e-09  3.35562224e-09  1.61430611e-07  2.75419794e-08  5.40000000e-01 
 5.50000000e-01  4.59000994e-01  3.17818907e-09  3.23073595e-09  3.70863898e-09  4.59000994e-01  3.51793116e-09  3.35562230e-09  1.61430556e-07  2.75418586e-08  5.50000000e-01 
 5.60000000e-01  4.59001004e-01  3.17818908e-09  3.23073595e-09  3.70863893e-09  4.59001004e-01  3.51793116e-09  3.35562230e-09  1.61430589e-07  2.75418088e-08  5.60000000e-01 
 5.70000000e-01  4.59001011e-01  3.17818907e-09  3.23073590e-09  3.70863900e-09  4.59001011e-01  3.51793116e-09  3.35562224e-09  1.61430586e-07  2.75417733e-08  5.70000000e-01 
 5.80000000e-01  4.59000990e-01  3.17818913e-09  3.23073595e-09  3.70863892e-09  4.59000990e-01  3.51793121e-09  3.35562224e-09  1.61430554e-07  2.75416170e-08  5.80000000e-01 
 5.90000000e-01  4.59001002e-01  3.17818912e-09  3.23073595e-09  3.70863894e-09  4.59001002e-01  3.51793114e-09  3.35562230e-09  1.61430585e-07  2.75416951e-08  5.90000000e-01 
 6.00000000e-01  4.59000988e-01  3.17818912e-09  3.23073595e-09  3.70863893e-09  4.59000988e-01  3.51793116e-09  3.35562230e-09  1.61430558e-07  2.75415957e-08  6.00000000e-01 
 6.10000000e-01  4.59001014e-01  3.17818907e-09  3.23073595e-09  3.70863899e-09  4.59001014e-01  3.51793121e-09  3.35562230e-09  1.61430585e-07  2.75414749e-08  6.10000000e-01 
 6.20000000e-01  4.59001010e-01  3.17818908e-09  3.23073590e-09  3.70863898e-09  4.59001010e-01  3.51793114e-09  3.35562230e-09  1.61430587e-07  2.75413825e-08  6.20000000e-01 
 6.30000000e-01  4.59001030e-01  3.17818913e-09  3.23073595e-09  3.70863899e-09  4.59001030e-01  3.51793116e-09  3.35562230e-09  1.61430628e-07  2.75414820e-08  6.30000000e-01 
 6.40000000e-01  4.59000971e-01  3.17818912e-09  3.23073595e-09  3.70863893e-09  4.59000971e-01  3.51793115e-09  3.35562229e-09  1.61430537e-07  2.75413541e-08  6.40000000e-01 
 6.50000000e-01  4.59001018e-01  3.17818913e-09  3.23073595e-09  3.70863894e-09  4.59001018e-01  3.51793121e-09  3.35562230e-09  1.61430596e-07  2.75413967e-08  6.50000000e-01 
 6.60000000e-01  4.59000996e-01  3.17818912e-09  3.23073595e-09  3.70863894e-09  4.59000996e-01  3.51793114e-09  3.35562224e-09  1.61430566e-07  2.75411480e-08  6.60000000e-01 
 6.70000000e-01  4.59001007e-01  3.17818907e-09  3.23073595e-09  3.70863899e-09  4.59001007e-01  3.51793116e-09  3.35562224e-09  1.61430574e-07  2.75413470e-08  6.70000000e-01 
 6.80000000e-01  4.59001006e-01  3.17818914e-09  3.23073595e-09  3.70863892e-09  4.59001006e-01  3.51793116e-09  3.35562224e-09  1.61430595e-07  2.75410912e-08  6.80000000e-01 
 6.90000000e-01  4.59001025e-01  3.17818912e-09  3.23073595e-09  3.70863894e-09  4.59001025e-01  3.51793116e-09  3.35562230e-09  1.61430613e-07  2.75410699e-08  6.90000000e-01 
 7.00000000e-01  4.59001017e-01  3.17818907e-09  3.23073595e-09  3.70863894e-09  4.59001017e-01  3.51793116e-09  3.35562224e-09  1.61430598e-07  2.75409988e-08  7.00000000e-01 
 7.10000000e-01  4.59000976e-01  3.17818908e-09  3.23073595e-09  3.70863899e-09  4.59000976e-01  3.51793115e-09  3.35562229e-09  1.61430528e-07  2.75408780e-08  7.10000000e-01 
 7.20000000e-01  4.59000999e-01  3.17818907e-09  3.23073595e-09  3.70863898e-09  4.59000999e-01  3.51793121e-09  3.35562224e-09  1.61430581e-07  2.75409491e-08  7.20000000e-01 
 7.30000000e-01  4.59000987e-01  3.17818913e-09  3.23073595e-09  3.70863893e-09  4.59000987e-01  3.51793114e-09  3.35562224e-09  1.61430576e-07  2.75408851e-08  7.30000000e-01 
 7.40000000e-01  4.59001007e-01  3.17818912e-09  3.23073595e-09  3.70863900e-09  4.59001007e-01  3.51793116e-09  3.35562224e-09  1.61430567e-07  2.75408425e-08  7.40000000e-01 
 7.50000000e-01  4.59001004e-01  3.17818913e-09  3.23073595e-09  3.70863898e-09  4.59001004e-01  3.51793116e-09  3.35562230e-09  1.61430585e-07  2.75407075e-08  7.50000000e-01 
 7.60000000e-01  4.59001016e-01  3.17818907e-09  3.23073595e-09  3.70863899e-09  4.59001016e-01  3.51793116e-09  3.35562230e-09  1.61430594e-07  2.75406933e-08  7.60000000e-01 
 7.70000000e-01  4.59001006e-01  3.17818914e-09  3.23073595e-09  3.70863899e-09  4.59001006e-01  3.51793121e-09  3.35562230e-09  1.61430598e-07  2.75405867e-08  7.70000000e-01 
 7.80000000e-01  4.59001019e-01  3.17818912e-09  3.23073595e-09  3.70863899e-09  4.59001019e-01  3.51793114e-09  3.35562224e-09  1.61430603e-07  2.75405938e-08  7.80000000e-01 
 7.90000000e-01  4.59000996e-01  3.17818912e-09  3.23073595e-09  3.70863899e-09  4.59000996e-01  3.51793116e-09  3.35562224e-09  1.61430569e-07  2.75404730e-08  7.90000000e-01 
 8.00000000e-01  4.59001009e-01  3.17818907e-09  3.23073595e-09  3.70863899e-09  4.59001009e-01  3.51793121e-09  3.35562230e-09  1.61430583e-07  2.75404659e-08  8.00000000e-01 
 8.10000000e-01  4.59000991e-01  3.17818908e-09  3.23073595e-09  3.70863899e-09  4.59000991e-01  3.51793120e-09  3.35562224e-09  1.61430551e-07  2.75404162e-08  8.10000000e-01 
 8.20000000e-01  4.59000984e-01  3.17818913e-09  3.23073590e-09  3.70863899e-09  4.59000984e-01  3.51793115e-09  3.35562230e-09  1.61430555e-07  2.75403735e-08  8.20000000e-01 
 8.30000000e-01  4.59001001e-01  3.17818912e-09  3.23073595e-09  3.70863899e-09  4.59001001e-01  3.51793116e-09  3.35562224e-09  1.61430574e-07  2.75403167e-08  8.30000000e-01 
 8.40000000e-01  4.59000997e-01  3.17818912e-09  3.23073595e-09  3.70863893e-09  4.59000997e-01  3.51793116e-09  3.35562230e-09  1.61430574e-07  2.75403238e-08  8.40000000e-01 
 8.50000000e-01  4.59001012e-01  3.17818913e-09  3.23073595e-09  3.70863894e-09  4.59001012e-01  3.51793121e-09  3.35562224e-09  1.61430582e-07  2.75402527e-08  8.50000000e-01 
 8.60000000e-01  4.59000991e-01  3.17818912e-09  3.23073595e-09  3.70863899e-09  4.59000991e-01  3.51793120e-09  3.35562230e-09  1.61430562e-07  2.75402101e-08  8.60000000e-01 
 8.70000000e-01  4.59000997e-01  3.17818907e-09  3.23073595e-09  3.70863898e-09  4.59000997e-01  3.51793115e-09  3.35562230e-09  1.61430569e-07  2.75401675e-08  8.70000000e-01 
 8.80000000e-01  4.59000999e-01  3.17818908e-09  3.23073595e-09  3.70863899e-09  4.59000999e-01  3.51793116e-09  3.35562230e-09  1.61430574e-07  2.75400538e-08  8.80000000e-01 
 8.90000000e-01  4.59000993e-01  3.17818907e-09  3.23073595e-09  3.70863899e-09  4.59000993e-01  3.51793116e-09  3.35562230e-09  1.61430556e-07  2.75400325e-08  8.90000000e-01 
 9.00000000e-01  4.59000980e-01  3.17818913e-09  3.23073595e-09  3.70863899e-09  4.59000980e-01  3.51793115e-09  3.35562230e-09  1.61430536e-07  2.75399685e-08  9.00000000e-01 
 9.10000000e-01  4.59000996e-01  3.17818912e-09  3.23073595e-09  3.70863899e-09  4.59000996e-01  3.51793116e-09  3.35562230e-09  1.61430558e-07  2.75398335e-08  9.10000000e-01 
 9.20000000e-01  4.59001011e-01  3.17818907e-09  3.23073595e-09  3.70863893e-09  4.59001011e-01  3.51793116e-09  3.35562224e-09  1.61430588e-07  2.75398406e-08  9.20000000e-01 
 9.30000000e-01  4.59000998e-01  3.17818908e-09  3.23073595e-09  3.70863900e-09  4.59000998e-01  3.51793116e-09  3.35562224e-09  1.61430583e-07  2.75398691e-08  9.30000000e-01 
 9.40000000e-01  4.59000990e-01  3.17818913e-09  3.23073595e-09  3.70863898e-09  4.59000990e-01  3.51793121e-09  3.35562224e-09  1.61430557e-07  2.75397269e-08  9.40000000e-01 
 9.50000000e-01  4.59000996e-01  3.17818912e-09  3.23073595e-09  3.70863893e-09  4.59000996e-01  3.51793120e-09  3.35562224e-09  1.61430573e-07  2.75395209e-08  9.50000000e-01 
 9.60000000e-01  4.59001039e-01  3.17818913e-09  3.23073590e-09  3.70863894e-09  4.59001039e-01  3.51793115e-09  3.35562230e-09  1.61430634e-07  2.75396275e-08  9.60000000e-01 
 9.70000000e-01  4.59000965e-01  3.17818912e-09  3.23073595e-09  3.70863893e-09  4.59000964e-01  3.51793122e-09  3.35562224e-09  1.61430502e-07  2.75395848e-08  9.70000000e-01 
 9.80000000e-01  4.59000997e-01  3.17818912e-09  3.23073595e-09  3.70863899e-09  4.59000997e-01  3.51793120e-09  3.35562224e-09  1.61430565e-07  2.75395280e-08  9.80000000e-01 
 9.90000000e-01  4.59000985e-01  3.17818912e-09  3.23073595e-09  3.70863898e-09  4.59000985e-01  3.51793121e-09  3.35562230e-09  1.61430551e-07  2.75394569e-08  9.90000000e-01 
 1.00000000e+00  4.59001006e-01  3.17818913e-09  3.23073595e-09  3.70863899e-09  4.59001006e-01  3.51793115e-09  3.35562230e-09  1.61430576e-07  2.75392509e-08  1.00000000e+00 
 1.01000000e+00  4.59001021e-01  3.17818913e-09  3.23073595e-09  3.70863899e-09  4.59001021e-01  3.51793116e-09  3.35562230e-09  1.61430614e-07  2.75394569e-08  1.01000000e+00 
 1.02000000e+00  4.59001010e-01  3.17818907e-09  3.23073590e-09  3.70863899e-09  4.59001010e-01  3.51793116e-09  3.35562224e-09  1.61430598e-07  2.75393433e-08  1.02000000e+00 
 1.03000000e+00  4.59000983e-01  3.17818914e-09  3.23073595e-09  3.70863899e-09  4.59000983e-01  3.51793115e-09  3.35562224e-09  1.61430541e-07  2.75391656e-08  1.03000000e+00 
 1.04000000e+00  4.59001004e-01  3.17818906e-09  3.23073595e-09  3.70863893e-09  4.59001004e-01  3.51793116e-09  3.35562224e-09  1.61430582e-07  2.75391301e-08  1.04000000e+00 
 1.05000000e+00  4.59001007e-01  3.17818908e-09  3.23073590e-09  3.70863900e-09  4.59001007e-01  3.51793116e-09  3.35562230e-09  1.61430594e-07  2.75389880e-08  1.05000000e+00 
 1.06000000e+00  4.59001002e-01  3.17818913e-09  3.23073595e-09  3.70863898e-09  4.59001002e-01  3.51793116e-09  3.35562230e-09  1.61430573e-07  2.75391301e-08  1.06000000e+00 
 1.07000000e+00  4.59001015e-01  3.17818912e-09  3.23073595e-09  3.70863899e-09  4.59001015e-01  3.51793116e-09  3.35562224e-09  1.61430592e-07  2.75390377e-08  1.07000000e+00 
 1.08000000e+00  4.59000984e-01  3.17818912e-09  3.23073595e-09  3.70863899e-09  4.59000984e-01  3.51793121e-09  3.35562230e-09  1.61430551e-07  2.75388743e-08  1.08000000e+00 
 1.09000000e+00  4.59001036e-01  3.17818913e-09  3.23073595e-09  3.70863899e-09  4.59001036e-01  3.51793115e-09  3.35562224e-09  1.61430628e-07  2.75389027e-08  1.09000000e+00 
 1.10000000e+00  4.59000971e-01  3.17818907e-09  3.23073595e-09  3.70863899e-09  4.59000971e-01  3.51793116e-09  3.35562224e-09  1.61430529e-07  2.75388174e-08  1.10000000e+00 
