 v-sweep         v(b0)           v(b1)           v(b2)           v(b3)           v(b4)           v(b5)           v(b6)           i(vbias)        i(viout)        v(vout)        
 0.00000000e+00  4.56744327e-01  4.56744327e-01  4.56744327e-01  3.40028762e-09  4.56744327e-01  3.20309838e-09  3.23751271e-09  1.54613828e-07  3.40369936e-08  0.00000000e+00 
 1.00000000e-02  4.56744338e-01  4.56744338e-01  4.56744338e-01  3.40028759e-09  4.56744338e-01  3.20309837e-09  3.23751275e-09  1.54613855e-07  3.40366051e-08  1.00000000e-02 
 2.00000000e-02  4.56744335e-01  4.56744335e-01  4.56744335e-01  3.40028755e-09  4.56744335e-01  3.20309837e-09  3.23751269e-09  1.54613864e-07  3.40362609e-08  2.00000000e-02 
 3.00000000e-02  4.56744329e-01  4.56744329e-01  4.56744329e-01  3.40028754e-09  4.56744329e-01  3.20309842e-09  3.23751270e-09  1.54613847e-07  3.40357720e-08  3.00000000e-02 
 4.00000000e-02  4.56744313e-01  4.56744313e-01  4.56744313e-01  3.40028754e-09  4.56744313e-01  3.20309842e-09  3.23751268e-09  1.54613828e-07  3.40354371e-08  4.00000000e-02 
 5.00000000e-02  4.56744311e-01  4.56744311e-01  4.56744311e-01  3.40028760e-09  4.56744311e-01  3.20309842e-09  3.23751270e-09  1.54613819e-07  3.40350881e-08  5.00000000e-02 
 6.00000000e-02  4.56744339e-01  4.56744339e-01  4.56744339e-01  3.40028760e-09  4.56744339e-01  3.20309837e-09  3.23751274e-09  1.54613857e-07  3.40349540e-08  6.00000000e-02 
 7.00000000e-02  4.56744334e-01  4.56744333e-01  4.56744333e-01  3.40028760e-09  4.56744334e-01  3.20309842e-09  3.23751275e-09  1.54613849e-07  3.40345983e-08  7.00000000e-02 
 8.00000000e-02  4.56744302e-01  4.56744302e-01  4.56744302e-01  3.40028760e-09  4.56744302e-01  3.20309836e-09  3.23751275e-09  1.54613819e-07  3.40341959e-08  8.00000000e-02 
 9.00000000e-02  4.56744314e-01  4.56744314e-01  4.56744314e-01  3.40028754e-09  4.56744314e-01  3.20309837e-09  3.23751269e-09  1.54613822e-07  3.40339996e-08  9.00000000e-02 
 1.00000000e-01  4.56744306e-01  4.56744306e-01  4.56744306e-01  3.40028754e-09  4.56744306e-01  3.20309836e-09  3.23751270e-09  1.54613812e-07  3.40337394e-08  1.00000000e-01 
 1.10000000e-01  4.56744329e-01  4.56744329e-01  4.56744329e-01  3.40028754e-09  4.56744329e-01  3.20309842e-09  3.23751268e-09  1.54613844e-07  3.40335680e-08  1.10000000e-01 
 1.20000000e-01  4.56744337e-01  4.56744337e-01  4.56744337e-01  3.40028760e-09  4.56744337e-01  3.20309842e-09  3.23751270e-09  1.54613856e-07  3.40332837e-08  1.20000000e-01 
 1.30000000e-01  4.56744314e-01  4.56744314e-01  4.56744314e-01  3.40028754e-09  4.56744314e-01  3.20309837e-09  3.23751274e-09  1.54613812e-07  3.40329809e-08  1.30000000e-01 
 1.40000000e-01  4.56744332e-01  4.56744331e-01  4.56744331e-01  3.40028760e-09  4.56744331e-01  3.20309842e-09  3.23751269e-09  1.54613856e-07  3.40328761e-08  1.40000000e-01 
 1.50000000e-01  4.56744324e-01  4.56744324e-01  4.56744324e-01  3.40028760e-09  4.56744324e-01  3.20309842e-09  3.23751270e-09  1.54613828e-07  3.40327535e-08  1.50000000e-01 
 1.60000000e-01  4.56744324e-01  4.56744324e-01  4.56744324e-01  3.40028760e-09  4.56744324e-01  3.20309842e-09  3.23751274e-09  1.54613855e-07  3.40324462e-08  1.60000000e-01 
 1.70000000e-01  4.56744329e-01  4.56744329e-01  4.56744329e-01  3.40028760e-09  4.56744329e-01  3.20309842e-09  3.23751269e-09  1.54613838e-07  3.40322099e-08  1.70000000e-01 
 1.80000000e-01  4.56744329e-01  4.56744329e-01  4.56744329e-01  3.40028760e-09  4.56744329e-01  3.20309837e-09  3.23751276e-09  1.54613846e-07  3.40320785e-08  1.80000000e-01 
 1.90000000e-01  4.56744297e-01  4.56744297e-01  4.56744296e-01  3.40028760e-09  4.56744297e-01  3.20309842e-09  3.23751274e-09  1.54613800e-07  3.40319239e-08  1.90000000e-01 
 2.00000000e-01  4.56744300e-01  4.56744300e-01  4.56744300e-01  3.40028760e-09  4.56744300e-01  3.20309836e-09  3.23751269e-09  1.54613806e-07  3.40317250e-08  2.00000000e-01 
 2.10000000e-01  4.56744316e-01  4.56744316e-01  4.56744316e-01  3.40028754e-09  4.56744316e-01  3.20309842e-09  3.23751270e-09  1.54613836e-07  3.40316273e-08  2.10000000e-01 
 2.20000000e-01  4.56744301e-01  4.56744301e-01  4.56744301e-01  3.40028754e-09  4.56744301e-01  3.20309836e-09  3.23751274e-09  1.54613809e-07  3.40313360e-08  2.20000000e-01 
 2.30000000e-01  4.56744326e-01  4.56744326e-01  4.56744326e-01  3.40028754e-09  4.56744326e-01  3.20309842e-09  3.23751269e-09  1.54613839e-07  3.40313644e-08  2.30000000e-01 
 2.40000000e-01  4.56744331e-01  4.56744331e-01  4.56744330e-01  3.40028754e-09  4.56744331e-01  3.20309842e-09  3.23751270e-09  1.54613852e-07  3.40313377e-08  2.40000000e-01 
 2.50000000e-01  4.56744328e-01  4.56744328e-01  4.56744327e-01  3.40028754e-09  4.56744328e-01  3.20309837e-09  3.23751274e-09  1.54613849e-07  3.40311335e-08  2.50000000e-01 
 2.60000000e-01  4.56744307e-01  4.56744307e-01  4.56744307e-01  3.40028754e-09  4.56744307e-01  3.20309842e-09  3.23751275e-09  1.54613819e-07  3.40309363e-08  2.60000000e-01 
 2.70000000e-01  4.56744323e-01  4.56744323e-01  4.56744323e-01  3.40028760e-09  4.56744323e-01  3.20309842e-09  3.23751269e-09  1.54613833e-07  3.40308173e-08  2.70000000e-01 
 2.80000000e-01  4.56744345e-01  4.56744345e-01  4.56744345e-01  3.40028760e-09  4.56744345e-01  3.20309842e-09  3.23751276e-09  1.54613873e-07  3.40307942e-08  2.80000000e-01 
 2.90000000e-01  4.56744310e-01  4.56744310e-01  4.56744310e-01  3.40028760e-09  4.56744310e-01  3.20309842e-09  3.23751274e-09  1.54613811e-07  3.40305277e-08  2.90000000e-01 
 3.00000000e-01  4.56744318e-01  4.56744318e-01  4.56744318e-01  3.40028760e-09  4.56744318e-01  3.20309837e-09  3.23751269e-09  1.54613828e-07  3.40305419e-08  3.00000000e-01 
 3.10000000e-01  4.56744326e-01  4.56744326e-01  4.56744326e-01  3.40028754e-09  4.56744326e-01  3.20309837e-09  3.23751270e-09  1.54613840e-07  3.40303821e-08  3.10000000e-01 
 3.20000000e-01  4.56744307e-01  4.56744307e-01  4.56744307e-01  3.40028760e-09  4.56744307e-01  3.20309836e-09  3.23751274e-09  1.54613808e-07  3.40302115e-08  3.20000000e-01 
 3.30000000e-01  4.56744332e-01  4.56744332e-01  4.56744332e-01  3.40028760e-09  4.56744332e-01  3.20309837e-09  3.23751269e-09  1.54613856e-07  3.40302790e-08  3.30000000e-01 
 3.40000000e-01  4.56744328e-01  4.56744328e-01  4.56744328e-01  3.40028760e-09  4.56744328e-01  3.20309837e-09  3.23751276e-09  1.54613859e-07  3.40301831e-08  3.40000000e-01 
 3.50000000e-01  4.56744314e-01  4.56744314e-01  4.56744314e-01  3.40028760e-09  4.56744314e-01  3.20309837e-09  3.23751268e-09  1.54613828e-07  3.40299273e-08  3.50000000e-01 
 3.60000000e-01  4.56744316e-01  4.56744316e-01  4.56744316e-01  3.40028760e-09  4.56744316e-01  3.20309842e-09  3.23751270e-09  1.54613838e-07  3.40298492e-08  3.60000000e-01 
 3.70000000e-01  4.56744301e-01  4.56744301e-01  4.56744301e-01  3.40028760e-09  4.56744301e-01  3.20309842e-09  3.23751274e-09  1.54613801e-07  3.40298136e-08  3.70000000e-01 
 3.80000000e-01  4.56744325e-01  4.56744325e-01  4.56744325e-01  3.40028760e-09  4.56744325e-01  3.20309842e-09  3.23751275e-09  1.54613846e-07  3.40298314e-08  3.80000000e-01 
 3.90000000e-01  4.56744325e-01  4.56744325e-01  4.56744325e-01  3.40028754e-09  4.56744325e-01  3.20309837e-09  3.23751275e-09  1.54613846e-07  3.40297532e-08  3.90000000e-01 
 4.00000000e-01  4.56744328e-01  4.56744328e-01  4.56744328e-01  3.40028760e-09  4.56744328e-01  3.20309842e-09  3.23751269e-09  1.54613839e-07  3.40296964e-08  4.00000000e-01 
 4.10000000e-01  4.56744307e-01  4.56744307e-01  4.56744306e-01  3.40028760e-09  4.56744307e-01  3.20309836e-09  3.23751270e-09  1.54613799e-07  3.40296467e-08  4.10000000e-01 
 4.20000000e-01  4.56744333e-01  4.56744333e-01  4.56744333e-01  3.40028760e-09  4.56744333e-01  3.20309837e-09  3.23751274e-09  1.54613837e-07  3.40295436e-08  4.20000000e-01 
 4.30000000e-01  4.56744317e-01  4.56744317e-01  4.56744317e-01  3.40028760e-09  4.56744317e-01  3.20309837e-09  3.23751275e-09  1.54613832e-07  3.40293766e-08  4.30000000e-01 
 4.40000000e-01  4.56744303e-01  4.56744303e-01  4.56744303e-01  3.40028760e-09  4.56744303e-01  3.20309842e-09  3.23751269e-09  1.54613805e-07  3.40293269e-08  4.40000000e-01 
 4.50000000e-01  4.56744318e-01  4.56744318e-01  4.56744318e-01  3.40028760e-09  4.56744318e-01  3.20309842e-09  3.23751270e-09  1.54613829e-07  3.40292843e-08  4.50000000e-01 
 4.60000000e-01  4.56744329e-01  4.56744329e-01  4.56744329e-01  3.40028754e-09  4.56744329e-01  3.20309842e-09  3.23751268e-09  1.54613842e-07  3.40291955e-08  4.60000000e-01 
 4.70000000e-01  4.56744316e-01  4.56744316e-01  4.56744316e-01  3.40028760e-09  4.56744316e-01  3.20309842e-09  3.23751270e-09  1.54613817e-07  3.40290569e-08  4.70000000e-01 
 4.80000000e-01  4.56744354e-01  4.56744354e-01  4.56744354e-01  3.40028760e-09  4.56744354e-01  3.20309837e-09  3.23751269e-09  1.54613893e-07  3.40291670e-08  4.80000000e-01 
 4.90000000e-01  4.56744320e-01  4.56744320e-01  4.56744320e-01  3.40028760e-09  4.56744320e-01  3.20309842e-09  3.23751276e-09  1.54613817e-07  3.40289183e-08  4.90000000e-01 
 5.00000000e-01  4.56744307e-01  4.56744307e-01  4.56744307e-01  3.40028760e-09  4.56744307e-01  3.20309842e-09  3.23751274e-09  1.54613805e-07  3.40289859e-08  5.00000000e-01 
 5.10000000e-01  4.56744320e-01  4.56744320e-01  4.56744320e-01  3.40028760e-09  4.56744320e-01  3.20309837e-09  3.23751275e-09  1.54613842e-07  3.40288935e-08  5.10000000e-01 
 5.20000000e-01  4.56744313e-01  4.56744313e-01  4.56744313e-01  3.40028760e-09  4.56744313e-01  3.20309842e-09  3.23751269e-09  1.54613815e-07  3.40288189e-08  5.20000000e-01 
 5.30000000e-01  4.56744312e-01  4.56744312e-01  4.56744311e-01  3.40028760e-09  4.56744312e-01  3.20309837e-09  3.23751270e-09  1.54613819e-07  3.40287443e-08  5.30000000e-01 
 5.40000000e-01  4.56744323e-01  4.56744323e-01  4.56744322e-01  3.40028760e-09  4.56744323e-01  3.20309837e-09  3.23751268e-09  1.54613841e-07  3.40286803e-08  5.40000000e-01 
 5.50000000e-01  4.56744307e-01  4.56744307e-01  4.56744307e-01  3.40028760e-09  4.56744307e-01  3.20309842e-09  3.23751270e-09  1.54613812e-07  3.40286235e-08  5.50000000e-01 
 5.60000000e-01  4.56744322e-01  4.56744322e-01  4.56744322e-01  3.40028760e-09  4.56744322e-01  3.20309837e-09  3.23751274e-09  1.54613839e-07  3.40285595e-08  5.60000000e-01 
 5.70000000e-01  4.56744307e-01  4.56744307e-01  4.56744307e-01  3.40028760e-09  4.56744307e-01  3.20309842e-09  3.23751269e-09  1.54613809e-07  3.40285382e-08  5.70000000e-01 
 5.80000000e-01  4.56744306e-01  4.56744306e-01  4.56744306e-01  3.40028760e-09  4.56744306e-01  3.20309842e-09  3.23751270e-09  1.54613825e-07  3.40284600e-08  5.80000000e-01 
 5.90000000e-01  4.56744340e-01  4.56744340e-01  4.56744340e-01  3.40028760e-09  4.56744340e-01  3.20309837e-09  3.23751268e-09  1.54613852e-07  3.40285098e-08  5.90000000e-01 
 6.00000000e-01  4.56744309e-01  4.56744309e-01  4.56744309e-01  3.40028760e-09  4.56744309e-01  3.20309842e-09  3.23751270e-09  1.54613812e-07  3.40284103e-08  6.00000000e-01 
 6.10000000e-01  4.56744312e-01  4.56744312e-01  4.56744312e-01  3.40028754e-09  4.56744312e-01  3.20309842e-09  3.23751268e-09  1.54613825e-07  3.40283393e-08  6.10000000e-01 
 6.20000000e-01  4.56744322e-01  4.56744322e-01  4.56744322e-01  3.40028760e-09  4.56744322e-01  3.20309842e-09  3.23751270e-09  1.54613835e-07  3.40282540e-08  6.20000000e-01 
 6.30000000e-01  4.56744312e-01  4.56744312e-01  4.56744312e-01  3.40028760e-09  4.56744312e-01  3.20309837e-09  3.23751274e-09  1.54613827e-07  3.40281119e-08  6.30000000e-01 
 6.40000000e-01  4.56744319e-01  4.56744319e-01  4.56744319e-01  3.40028754e-09  4.56744319e-01  3.20309842e-09  3.23751275e-09  1.54613826e-07  3.40281403e-08  6.40000000e-01 
 6.50000000e-01  4.56744354e-01  4.56744354e-01  4.56744354e-01  3.40028760e-09  4.56744354e-01  3.20309837e-09  3.23751275e-09  1.54613894e-07  3.40281048e-08  6.50000000e-01 
 6.60000000e-01  4.56744321e-01  4.56744321e-01  4.56744321e-01  3.40028754e-09  4.56744321e-01  3.20309842e-09  3.23751269e-09  1.54613835e-07  3.40281119e-08  6.60000000e-01 
 6.70000000e-01  4.56744304e-01  4.56744304e-01  4.56744304e-01  3.40028760e-09  4.56744304e-01  3.20309836e-09  3.23751270e-09  1.54613797e-07  3.40280693e-08  6.70000000e-01 
 6.80000000e-01  4.56744316e-01  4.56744316e-01  4.56744316e-01  3.40028760e-09  4.56744316e-01  3.20309842e-09  3.23751268e-09  1.54613815e-07  3.40279556e-08  6.80000000e-01 
 6.90000000e-01  4.56744294e-01  4.56744294e-01  4.56744294e-01  3.40028754e-09  4.56744294e-01  3.20309842e-09  3.23751276e-09  1.54613796e-07  3.40278916e-08  6.90000000e-01 
 7.00000000e-01  4.56744311e-01  4.56744311e-01  4.56744311e-01  3.40028760e-09  4.56744311e-01  3.20309842e-09  3.23751268e-09  1.54613803e-07  3.40277495e-08  7.00000000e-01 
 7.10000000e-01  4.56744318e-01  4.56744318e-01  4.56744318e-01  3.40028760e-09  4.56744318e-01  3.20309837e-09  3.23751270e-09  1.54613833e-07  3.40278206e-08  7.10000000e-01 
 7.20000000e-01  4.56744299e-01  4.56744299e-01  4.56744299e-01  3.40028760e-09  4.56744299e-01  3.20309836e-09  3.23751274e-09  1.54613801e-07  3.40277921e-08  7.20000000e-01 
 7.30000000e-01  4.56744326e-01  4.56744326e-01  4.56744326e-01  3.40028760e-09  4.56744326e-01  3.20309842e-09  3.23751275e-09  1.54613844e-07  3.40277495e-08  7.30000000e-01 
 7.40000000e-01  4.56744323e-01  4.56744323e-01  4.56744323e-01  3.40028754e-09  4.56744323e-01  3.20309837e-09  3.23751269e-09  1.54613832e-07  3.40275790e-08  7.40000000e-01 
 7.50000000e-01  4.56744297e-01  4.56744297e-01  4.56744297e-01  3.40028754e-09  4.56744297e-01  3.20309836e-09  3.23751270e-09  1.54613803e-07  3.40276927e-08  7.50000000e-01 
 7.60000000e-01  4.56744316e-01  4.56744316e-01  4.56744316e-01  3.40028760e-09  4.56744316e-01  3.20309842e-09  3.23751274e-09  1.54613832e-07  3.40275292e-08  7.60000000e-01 
 7.70000000e-01  4.56744312e-01  4.56744312e-01  4.56744312e-01  3.40028754e-09  4.56744312e-01  3.20309842e-09  3.23751269e-09  1.54613819e-07  3.40274582e-08  7.70000000e-01 
 7.80000000e-01  4.56744308e-01  4.56744308e-01  4.56744308e-01  3.40028760e-09  4.56744308e-01  3.20309836e-09  3.23751276e-09  1.54613815e-07  3.40273232e-08  7.80000000e-01 
 7.90000000e-01  4.56744321e-01  4.56744321e-01  4.56744321e-01  3.40028754e-09  4.56744321e-01  3.20309837e-09  3.23751268e-09  1.54613835e-07  3.40273587e-08  7.90000000e-01 
 8.00000000e-01  4.56744324e-01  4.56744324e-01  4.56744324e-01  3.40028760e-09  4.56744324e-01  3.20309837e-09  3.23751270e-09  1.54613830e-07  3.40273161e-08  8.00000000e-01 
 8.10000000e-01  4.56744331e-01  4.56744331e-01  4.56744330e-01  3.40028754e-09  4.56744331e-01  3.20309842e-09  3.23751274e-09  1.54613850e-07  3.40272308e-08  8.10000000e-01 
 8.20000000e-01  4.56744319e-01  4.56744319e-01  4.56744319e-01  3.40028760e-09  4.56744319e-01  3.20309837e-09  3.23751269e-09  1.54613830e-07  3.40270603e-08  8.20000000e-01 
 8.30000000e-01  4.56744327e-01  4.56744327e-01  4.56744327e-01  3.40028760e-09  4.56744327e-01  3.20309842e-09  3.23751270e-09  1.54613844e-07  3.40272450e-08  8.30000000e-01 
 8.40000000e-01  4.56744294e-01  4.56744294e-01  4.56744293e-01  3.40028760e-09  4.56744294e-01  3.20309836e-09  3.23751268e-09  1.54613801e-07  3.40270105e-08  8.40000000e-01 
 8.50000000e-01  4.56744319e-01  4.56744319e-01  4.56744319e-01  3.40028760e-09  4.56744319e-01  3.20309842e-09  3.23751270e-09  1.54613839e-07  3.40270319e-08  8.50000000e-01 
 8.60000000e-01  4.56744294e-01  4.56744294e-01  4.56744294e-01  3.40028760e-09  4.56744294e-01  3.20309836e-09  3.23751274e-09  1.54613788e-07  3.40270034e-08  8.60000000e-01 
 8.70000000e-01  4.56744306e-01  4.56744306e-01  4.56744306e-01  3.40028760e-09  4.56744306e-01  3.20309836e-09  3.23751269e-09  1.54613815e-07  3.40269679e-08  8.70000000e-01 
 8.80000000e-01  4.56744353e-01  4.56744353e-01  4.56744353e-01  3.40028760e-09  4.56744353e-01  3.20309837e-09  3.23751270e-09  1.54613878e-07  3.40269040e-08  8.80000000e-01 
 8.90000000e-01  4.56744305e-01  4.56744305e-01  4.56744305e-01  3.40028754e-09  4.56744305e-01  3.20309842e-09  3.23751274e-09  1.54613804e-07  3.40268329e-08  8.90000000e-01 
 9.00000000e-01  4.56744295e-01  4.56744295e-01  4.56744295e-01  3.40028760e-09  4.56744295e-01  3.20309836e-09  3.23751269e-09  1.54613796e-07  3.40268542e-08  9.00000000e-01 
 9.10000000e-01  4.56744307e-01  4.56744307e-01  4.56744307e-01  3.40028760e-09  4.56744307e-01  3.20309842e-09  3.23751270e-09  1.54613815e-07  3.40266055e-08  9.10000000e-01 
 9.20000000e-01  4.56744310e-01  4.56744310e-01  4.56744310e-01  3.40028760e-09  4.56744310e-01  3.20309842e-09  3.23751274e-09  1.54613817e-07  3.40266340e-08  9.20000000e-01 
 9.30000000e-01  4.56744357e-01  4.56744357e-01  4.56744357e-01  3.40028760e-09  4.56744357e-01  3.20309837e-09  3.23751269e-09  1.54613890e-07  3.40266766e-08  9.30000000e-01 
 9.40000000e-01  4.56744314e-01  4.56744314e-01  4.56744314e-01  3.40028754e-09  4.56744314e-01  3.20309842e-09  3.23751270e-09  1.54613820e-07  3.40265203e-08  9.40000000e-01 
 9.50000000e-01  4.56744315e-01  4.56744315e-01  4.56744315e-01  3.40028760e-09  4.56744315e-01  3.20309837e-09  3.23751268e-09  1.54613837e-07  3.40263924e-08  9.50000000e-01 
 9.60000000e-01  4.56744334e-01  4.56744334e-01  4.56744334e-01  3.40028760e-09  4.56744334e-01  3.20309842e-09  3.23751276e-09  1.54613861e-07  3.40265274e-08  9.60000000e-01 
 9.70000000e-01  4.56744319e-01  4.56744319e-01  4.56744319e-01  3.40028760e-09  4.56744319e-01  3.20309842e-09  3.23751274e-09  1.54613812e-07  3.40264137e-08  9.70000000e-01 
 9.80000000e-01  4.56744305e-01  4.56744305e-01  4.56744305e-01  3.40028754e-09  4.56744305e-01  3.20309842e-09  3.23751269e-09  1.54613806e-07  3.40263071e-08  9.80000000e-01 
 9.90000000e-01  4.56744309e-01  4.56744309e-01  4.56744309e-01  3.40028760e-09  4.56744309e-01  3.20309836e-09  3.23751270e-09  1.54613815e-07  3.40261437e-08  9.90000000e-01 
 1.00000000e+00  4.56744323e-01  4.56744323e-01  4.56744323e-01  3.40028754e-09  4.56744323e-01  3.20309837e-09  3.23751274e-09  1.54613833e-07  3.40261934e-08  1.00000000e+00 
 1.01000000e+00  4.56744332e-01  4.56744332e-01  4.56744332e-01  3.40028760e-09  4.56744332e-01  3.20309842e-09  3.23751269e-09  1.54613844e-07  3.40260868e-08  1.01000000e+00 
 1.02000000e+00  4.56744330e-01  4.56744330e-01  4.56744330e-01  3.40028760e-09  4.56744330e-01  3.20309837e-09  3.23751270e-09  1.54613856e-07  3.40260371e-08  1.02000000e+00 
 1.03000000e+00  4.56744302e-01  4.56744302e-01  4.56744302e-01  3.40028760e-09  4.56744302e-01  3.20309842e-09  3.23751274e-09  1.54613793e-07  3.40260087e-08  1.03000000e+00 
 1.04000000e+00  4.56744326e-01  4.56744326e-01  4.56744326e-01  3.40028760e-09  4.56744326e-01  3.20309842e-09  3.23751269e-09  1.54613844e-07  3.40259376e-08  1.04000000e+00 
 1.05000000e+00  4.56744320e-01  4.56744320e-01  4.56744320e-01  3.40028760e-09  4.56744320e-01  3.20309837e-09  3.23751270e-09  1.54613824e-07  3.40258239e-08  1.05000000e+00 
 1.06000000e+00  4.56744320e-01  4.56744320e-01  4.56744320e-01  3.40028760e-09  4.56744320e-01  3.20309837e-09  3.23751274e-09  1.54613836e-07  3.40258381e-08  1.06000000e+00 
 1.07000000e+00  4.56744306e-01  4.56744306e-01  4.56744306e-01  3.40028760e-09  4.56744306e-01  3.20309842e-09  3.23751275e-09  1.54613819e-07  3.40256676e-08  1.07000000e+00 
 1.08000000e+00  4.56744311e-01  4.56744310e-01  4.56744310e-01  3.40028760e-09  4.56744310e-01  3.20309836e-09  3.23751275e-09  1.54613831e-07  3.40256676e-08  1.08000000e+00 
 1.09000000e+00  4.56744319e-01  4.56744319e-01  4.56744319e-01  3.40028760e-09  4.56744319e-01  3.20309837e-09  3.23751269e-09  1.54613839e-07  3.40257742e-08  1.09000000e+00 
 1.10000000e+00  4.56744330e-01  4.56744330e-01  4.56744330e-01  3.40028754e-09  4.56744330e-01  3.20309842e-09  3.23751270e-09  1.54613853e-07  3.40256463e-08  1.10000000e+00 
