 v-sweep         v(b0)           v(b1)           v(b2)           v(b3)           v(b4)           v(b5)           v(b6)           i(vbias)        i(viout)        v(vout)        
 0.00000000e+00  3.22699688e-09  4.57904180e-01  3.50420081e-09  4.57904180e-01  4.57904180e-01  3.26427688e-09  4.57904180e-01  1.56296544e-07  1.39642775e-07  0.00000000e+00 
 1.00000000e-02  3.22699686e-09  4.57904177e-01  3.50420079e-09  4.57904177e-01  4.57904177e-01  3.26427686e-09  4.57904177e-01  1.56296566e-07  1.39642382e-07  1.00000000e-02 
 2.00000000e-02  3.22699688e-09  4.57904197e-01  3.50420079e-09  4.57904197e-01  4.57904197e-01  3.26427686e-09  4.57904197e-01  1.56296580e-07  1.39641922e-07  2.00000000e-02 
 3.00000000e-02  3.22699691e-09  4.57904159e-01  3.50420078e-09  4.57904159e-01  4.57904159e-01  3.26427686e-09  4.57904159e-01  1.56296523e-07  1.39641434e-07  3.00000000e-02 
 4.00000000e-02  3.22699686e-09  4.57904139e-01  3.50420078e-09  4.57904139e-01  4.57904139e-01  3.26427686e-09  4.57904139e-01  1.56296496e-07  1.39641084e-07  4.00000000e-02 
 5.00000000e-02  3.22699688e-09  4.57904171e-01  3.50420079e-09  4.57904171e-01  4.57904171e-01  3.26427686e-09  4.57904171e-01  1.56296548e-07  1.39640736e-07  5.00000000e-02 
 6.00000000e-02  3.22699691e-09  4.57904170e-01  3.50420078e-09  4.57904170e-01  4.57904170e-01  3.26427686e-09  4.57904170e-01  1.56296554e-07  1.39640381e-07  6.00000000e-02 
 7.00000000e-02  3.22699686e-09  4.57904158e-01  3.50420078e-09  4.57904158e-01  4.57904158e-01  3.26427686e-09  4.57904158e-01  1.56296534e-07  1.39640078e-07  7.00000000e-02 
 8.00000000e-02  3.22699688e-09  4.57904181e-01  3.50420079e-09  4.57904181e-01  4.57904181e-01  3.26427686e-09  4.57904181e-01  1.56296569e-07  1.39639877e-07  8.00000000e-02 
 9.00000000e-02  3.22699686e-09  4.57904150e-01  3.50420078e-09  4.57904150e-01  4.57904150e-01  3.26427686e-09  4.57904150e-01  1.56296504e-07  1.39639324e-07  9.00000000e-02 
 1.00000000e-01  3.22699687e-09  4.57904165e-01  3.50420078e-09  4.57904165e-01  4.57904165e-01  3.26427686e-09  4.57904165e-01  1.56296543e-07  1.39639138e-07  1.00000000e-01 
 1.10000000e-01  3.22699686e-09  4.57904185e-01  3.50420073e-09  4.57904185e-01  4.57904185e-01  3.26427686e-09  4.57904185e-01  1.56296570e-07  1.39638927e-07  1.10000000e-01 
 1.20000000e-01  3.22699687e-09  4.57904165e-01  3.50420080e-09  4.57904165e-01  4.57904165e-01  3.26427686e-09  4.57904165e-01  1.56296532e-07  1.39638633e-07  1.20000000e-01 
 1.30000000e-01  3.22699686e-09  4.57904189e-01  3.50420078e-09  4.57904189e-01  4.57904188e-01  3.26427686e-09  4.57904189e-01  1.56296586e-07  1.39638416e-07  1.30000000e-01 
 1.40000000e-01  3.22699687e-09  4.57904144e-01  3.50420078e-09  4.57904144e-01  4.57904144e-01  3.26427686e-09  4.57904144e-01  1.56296501e-07  1.39638008e-07  1.40000000e-01 
 1.50000000e-01  3.22699686e-09  4.57904176e-01  3.50420079e-09  4.57904176e-01  4.57904176e-01  3.26427686e-09  4.57904176e-01  1.56296558e-07  1.39637942e-07  1.50000000e-01 
 1.60000000e-01  3.22699687e-09  4.57904152e-01  3.50420078e-09  4.57904152e-01  4.57904152e-01  3.26427686e-09  4.57904152e-01  1.56296526e-07  1.39637624e-07  1.60000000e-01 
 1.70000000e-01  3.22699691e-09  4.57904168e-01  3.50420078e-09  4.57904168e-01  4.57904168e-01  3.26427686e-09  4.57904168e-01  1.56296541e-07  1.39637425e-07  1.70000000e-01 
 1.80000000e-01  3.22699692e-09  4.57904206e-01  3.50420079e-09  4.57904206e-01  4.57904206e-01  3.26427686e-09  4.57904206e-01  1.56296614e-07  1.39637292e-07  1.80000000e-01 
 1.90000000e-01  3.22699686e-09  4.57904144e-01  3.50420078e-09  4.57904144e-01  4.57904144e-01  3.26427686e-09  4.57904144e-01  1.56296505e-07  1.39636928e-07  1.90000000e-01 
 2.00000000e-01  3.22699687e-09  4.57904149e-01  3.50420078e-09  4.57904149e-01  4.57904149e-01  3.26427686e-09  4.57904150e-01  1.56296517e-07  1.39636798e-07  2.00000000e-01 
 2.10000000e-01  3.22699686e-09  4.57904168e-01  3.50420078e-09  4.57904168e-01  4.57904167e-01  3.26427686e-09  4.57904168e-01  1.56296539e-07  1.39636709e-07  2.10000000e-01 
 2.20000000e-01  3.22699688e-09  4.57904182e-01  3.50420079e-09  4.57904182e-01  4.57904182e-01  3.26427686e-09  4.57904182e-01  1.56296574e-07  1.39636521e-07  2.20000000e-01 
 2.30000000e-01  3.22699686e-09  4.57904176e-01  3.50420079e-09  4.57904176e-01  4.57904176e-01  3.26427686e-09  4.57904177e-01  1.56296559e-07  1.39636272e-07  2.30000000e-01 
 2.40000000e-01  3.22699687e-09  4.57904158e-01  3.50420078e-09  4.57904158e-01  4.57904158e-01  3.26427686e-09  4.57904158e-01  1.56296517e-07  1.39636045e-07  2.40000000e-01 
 2.50000000e-01  3.22699685e-09  4.57904139e-01  3.50420078e-09  4.57904139e-01  4.57904139e-01  3.26427686e-09  4.57904139e-01  1.56296498e-07  1.39635919e-07  2.50000000e-01 
 2.60000000e-01  3.22699687e-09  4.57904146e-01  3.50420078e-09  4.57904146e-01  4.57904146e-01  3.26427686e-09  4.57904146e-01  1.56296525e-07  1.39635747e-07  2.60000000e-01 
 2.70000000e-01  3.22699686e-09  4.57904158e-01  3.50420078e-09  4.57904158e-01  4.57904158e-01  3.26427686e-09  4.57904158e-01  1.56296529e-07  1.39635572e-07  2.70000000e-01 
 2.80000000e-01  3.22699694e-09  4.57904208e-01  3.50420079e-09  4.57904208e-01  4.57904208e-01  3.26427686e-09  4.57904208e-01  1.56296609e-07  1.39635677e-07  2.80000000e-01 
 2.90000000e-01  3.22699691e-09  4.57904137e-01  3.50420078e-09  4.57904137e-01  4.57904137e-01  3.26427686e-09  4.57904137e-01  1.56296499e-07  1.39635269e-07  2.90000000e-01 
 3.00000000e-01  3.22699686e-09  4.57904171e-01  3.50420078e-09  4.57904171e-01  4.57904171e-01  3.26427686e-09  4.57904171e-01  1.56296564e-07  1.39635159e-07  3.00000000e-01 
 3.10000000e-01  3.22699687e-09  4.57904164e-01  3.50420078e-09  4.57904164e-01  4.57904163e-01  3.26427686e-09  4.57904164e-01  1.56296533e-07  1.39635176e-07  3.10000000e-01 
 3.20000000e-01  3.22699686e-09  4.57904191e-01  3.50420079e-09  4.57904191e-01  4.57904191e-01  3.26427686e-09  4.57904191e-01  1.56296581e-07  1.39634956e-07  3.20000000e-01 
 3.30000000e-01  3.22699687e-09  4.57904141e-01  3.50420078e-09  4.57904141e-01  4.57904141e-01  3.26427686e-09  4.57904141e-01  1.56296506e-07  1.39634682e-07  3.30000000e-01 
 3.40000000e-01  3.22699686e-09  4.57904167e-01  3.50420078e-09  4.57904167e-01  4.57904167e-01  3.26427686e-09  4.57904167e-01  1.56296555e-07  1.39634722e-07  3.40000000e-01 
 3.50000000e-01  3.22699688e-09  4.57904169e-01  3.50420078e-09  4.57904169e-01  4.57904169e-01  3.26427686e-09  4.57904169e-01  1.56296555e-07  1.39634611e-07  3.50000000e-01 
 3.60000000e-01  3.22699691e-09  4.57904174e-01  3.50420079e-09  4.57904174e-01  4.57904174e-01  3.26427686e-09  4.57904174e-01  1.56296554e-07  1.39634533e-07  3.60000000e-01 
 3.70000000e-01  3.22699686e-09  4.57904166e-01  3.50420078e-09  4.57904166e-01  4.57904166e-01  3.26427686e-09  4.57904167e-01  1.56296542e-07  1.39634317e-07  3.70000000e-01 
 3.80000000e-01  3.22699688e-09  4.57904168e-01  3.50420078e-09  4.57904168e-01  4.57904168e-01  3.26427686e-09  4.57904168e-01  1.56296552e-07  1.39634277e-07  3.80000000e-01 
 3.90000000e-01  3.22699686e-09  4.57904160e-01  3.50420078e-09  4.57904160e-01  4.57904160e-01  3.26427686e-09  4.57904160e-01  1.56296537e-07  1.39634043e-07  3.90000000e-01 
 4.00000000e-01  3.22699687e-09  4.57904165e-01  3.50420078e-09  4.57904165e-01  4.57904165e-01  3.26427691e-09  4.57904166e-01  1.56296546e-07  1.39634086e-07  4.00000000e-01 
 4.10000000e-01  3.22699691e-09  4.57904179e-01  3.50420079e-09  4.57904179e-01  4.57904179e-01  3.26427691e-09  4.57904179e-01  1.56296561e-07  1.39634029e-07  4.10000000e-01 
 4.20000000e-01  3.22699686e-09  4.57904163e-01  3.50420078e-09  4.57904163e-01  4.57904163e-01  3.26427686e-09  4.57904163e-01  1.56296544e-07  1.39633823e-07  4.20000000e-01 
 4.30000000e-01  3.22699687e-09  4.57904162e-01  3.50420078e-09  4.57904162e-01  4.57904162e-01  3.26427686e-09  4.57904162e-01  1.56296542e-07  1.39633634e-07  4.30000000e-01 
 4.40000000e-01  3.22699691e-09  4.57904156e-01  3.50420078e-09  4.57904156e-01  4.57904156e-01  3.26427686e-09  4.57904156e-01  1.56296537e-07  1.39633638e-07  4.40000000e-01 
 4.50000000e-01  3.22699686e-09  4.57904170e-01  3.50420078e-09  4.57904170e-01  4.57904170e-01  3.26427686e-09  4.57904170e-01  1.56296543e-07  1.39633521e-07  4.50000000e-01 
 4.60000000e-01  3.22699688e-09  4.57904195e-01  3.50420079e-09  4.57904195e-01  4.57904195e-01  3.26427686e-09  4.57904195e-01  1.56296597e-07  1.39633539e-07  4.60000000e-01 
 4.70000000e-01  3.22699686e-09  4.57904175e-01  3.50420079e-09  4.57904175e-01  4.57904175e-01  3.26427686e-09  4.57904175e-01  1.56296559e-07  1.39633297e-07  4.70000000e-01 
 4.80000000e-01  3.22699688e-09  4.57904186e-01  3.50420079e-09  4.57904186e-01  4.57904186e-01  3.26427686e-09  4.57904186e-01  1.56296581e-07  1.39633180e-07  4.80000000e-01 
 4.90000000e-01  3.22699686e-09  4.57904165e-01  3.50420078e-09  4.57904165e-01  4.57904165e-01  3.26427686e-09  4.57904165e-01  1.56296535e-07  1.39633094e-07  4.90000000e-01 
 5.00000000e-01  3.22699688e-09  4.57904180e-01  3.50420073e-09  4.57904180e-01  4.57904180e-01  3.26427686e-09  4.57904180e-01  1.56296554e-07  1.39633102e-07  5.00000000e-01 
 5.10000000e-01  3.22699686e-09  4.57904199e-01  3.50420080e-09  4.57904199e-01  4.57904199e-01  3.26427686e-09  4.57904199e-01  1.56296593e-07  1.39633002e-07  5.10000000e-01 
 5.20000000e-01  3.22699688e-09  4.57904196e-01  3.50420078e-09  4.57904196e-01  4.57904196e-01  3.26427686e-09  4.57904196e-01  1.56296585e-07  1.39632924e-07  5.20000000e-01 
 5.30000000e-01  3.22699691e-09  4.57904160e-01  3.50420078e-09  4.57904160e-01  4.57904160e-01  3.26427686e-09  4.57904161e-01  1.56296537e-07  1.39632704e-07  5.30000000e-01 
 5.40000000e-01  3.22699692e-09  4.57904154e-01  3.50420078e-09  4.57904154e-01  4.57904154e-01  3.26427686e-09  4.57904154e-01  1.56296514e-07  1.39632668e-07  5.40000000e-01 
 5.50000000e-01  3.22699692e-09  4.57904149e-01  3.50420078e-09  4.57904149e-01  4.57904149e-01  3.26427686e-09  4.57904149e-01  1.56296517e-07  1.39632391e-07  5.50000000e-01 
 5.60000000e-01  3.22699686e-09  4.57904190e-01  3.50420079e-09  4.57904190e-01  4.57904190e-01  3.26427686e-09  4.57904190e-01  1.56296573e-07  1.39632444e-07  5.60000000e-01 
 5.70000000e-01  3.22699688e-09  4.57904168e-01  3.50420078e-09  4.57904168e-01  4.57904168e-01  3.26427686e-09  4.57904168e-01  1.56296541e-07  1.39632249e-07  5.70000000e-01 
 5.80000000e-01  3.22699691e-09  4.57904176e-01  3.50420079e-09  4.57904176e-01  4.57904176e-01  3.26427686e-09  4.57904176e-01  1.56296559e-07  1.39632242e-07  5.80000000e-01 
 5.90000000e-01  3.22699692e-09  4.57904177e-01  3.50420079e-09  4.57904177e-01  4.57904177e-01  3.26427686e-09  4.57904177e-01  1.56296572e-07  1.39632192e-07  5.90000000e-01 
 6.00000000e-01  3.22699686e-09  4.57904162e-01  3.50420078e-09  4.57904162e-01  4.57904162e-01  3.26427686e-09  4.57904162e-01  1.56296529e-07  1.39632036e-07  6.00000000e-01 
 6.10000000e-01  3.22699687e-09  4.57904148e-01  3.50420078e-09  4.57904148e-01  4.57904148e-01  3.26427686e-09  4.57904148e-01  1.56296526e-07  1.39631851e-07  6.10000000e-01 
 6.20000000e-01  3.22699691e-09  4.57904170e-01  3.50420078e-09  4.57904170e-01  4.57904170e-01  3.26427686e-09  4.57904170e-01  1.56296547e-07  1.39631815e-07  6.20000000e-01 
 6.30000000e-01  3.22699687e-09  4.57904197e-01  3.50420079e-09  4.57904197e-01  4.57904197e-01  3.26427686e-09  4.57904197e-01  1.56296607e-07  1.39631830e-07  6.30000000e-01 
 6.40000000e-01  3.22699688e-09  4.57904177e-01  3.50420079e-09  4.57904177e-01  4.57904177e-01  3.26427686e-09  4.57904177e-01  1.56296553e-07  1.39631823e-07  6.40000000e-01 
 6.50000000e-01  3.22699691e-09  4.57904169e-01  3.50420073e-09  4.57904169e-01  4.57904169e-01  3.26427686e-09  4.57904169e-01  1.56296547e-07  1.39631524e-07  6.50000000e-01 
 6.60000000e-01  3.22699686e-09  4.57904164e-01  3.50420080e-09  4.57904164e-01  4.57904164e-01  3.26427686e-09  4.57904164e-01  1.56296532e-07  1.39631474e-07  6.60000000e-01 
 6.70000000e-01  3.22699688e-09  4.57904193e-01  3.50420078e-09  4.57904193e-01  4.57904193e-01  3.26427686e-09  4.57904193e-01  1.56296586e-07  1.39631418e-07  6.70000000e-01 
 6.80000000e-01  3.22699691e-09  4.57904161e-01  3.50420078e-09  4.57904161e-01  4.57904161e-01  3.26427686e-09  4.57904161e-01  1.56296529e-07  1.39631219e-07  6.80000000e-01 
 6.90000000e-01  3.22699692e-09  4.57904159e-01  3.50420078e-09  4.57904159e-01  4.57904159e-01  3.26427686e-09  4.57904159e-01  1.56296536e-07  1.39631197e-07  6.90000000e-01 
 7.00000000e-01  3.22699692e-09  4.57904183e-01  3.50420079e-09  4.57904183e-01  4.57904183e-01  3.26427686e-09  4.57904183e-01  1.56296564e-07  1.39631226e-07  7.00000000e-01 
 7.10000000e-01  3.22699686e-09  4.57904167e-01  3.50420078e-09  4.57904167e-01  4.57904167e-01  3.26427686e-09  4.57904167e-01  1.56296546e-07  1.39630949e-07  7.10000000e-01 
 7.20000000e-01  3.22699687e-09  4.57904163e-01  3.50420078e-09  4.57904163e-01  4.57904163e-01  3.26427686e-09  4.57904164e-01  1.56296540e-07  1.39630870e-07  7.20000000e-01 
 7.30000000e-01  3.22699691e-09  4.57904172e-01  3.50420079e-09  4.57904172e-01  4.57904172e-01  3.26427686e-09  4.57904173e-01  1.56296559e-07  1.39630657e-07  7.30000000e-01 
 7.40000000e-01  3.22699692e-09  4.57904166e-01  3.50420078e-09  4.57904166e-01  4.57904166e-01  3.26427686e-09  4.57904166e-01  1.56296548e-07  1.39630743e-07  7.40000000e-01 
 7.50000000e-01  3.22699686e-09  4.57904172e-01  3.50420079e-09  4.57904172e-01  4.57904172e-01  3.26427686e-09  4.57904172e-01  1.56296554e-07  1.39630657e-07  7.50000000e-01 
 7.60000000e-01  3.22699688e-09  4.57904204e-01  3.50420079e-09  4.57904205e-01  4.57904204e-01  3.26427686e-09  4.57904205e-01  1.56296596e-07  1.39630600e-07  7.60000000e-01 
 7.70000000e-01  3.22699686e-09  4.57904171e-01  3.50420078e-09  4.57904171e-01  4.57904170e-01  3.26427686e-09  4.57904171e-01  1.56296540e-07  1.39630451e-07  7.70000000e-01 
 7.80000000e-01  3.22699687e-09  4.57904165e-01  3.50420078e-09  4.57904165e-01  4.57904165e-01  3.26427686e-09  4.57904165e-01  1.56296540e-07  1.39630266e-07  7.80000000e-01 
 7.90000000e-01  3.22699691e-09  4.57904156e-01  3.50420078e-09  4.57904156e-01  4.57904155e-01  3.26427686e-09  4.57904156e-01  1.56296531e-07  1.39630146e-07  7.90000000e-01 
 8.00000000e-01  3.22699692e-09  4.57904158e-01  3.50420078e-09  4.57904158e-01  4.57904158e-01  3.26427686e-09  4.57904158e-01  1.56296541e-07  1.39630089e-07  8.00000000e-01 
 8.10000000e-01  3.22699692e-09  4.57904173e-01  3.50420079e-09  4.57904173e-01  4.57904173e-01  3.26427686e-09  4.57904173e-01  1.56296571e-07  1.39629947e-07  8.10000000e-01 
 8.20000000e-01  3.22699692e-09  4.57904155e-01  3.50420078e-09  4.57904155e-01  4.57904155e-01  3.26427686e-09  4.57904156e-01  1.56296533e-07  1.39629897e-07  8.20000000e-01 
 8.30000000e-01  3.22699692e-09  4.57904187e-01  3.50420079e-09  4.57904187e-01  4.57904187e-01  3.26427686e-09  4.57904187e-01  1.56296573e-07  1.39629840e-07  8.30000000e-01 
 8.40000000e-01  3.22699686e-09  4.57904151e-01  3.50420078e-09  4.57904151e-01  4.57904151e-01  3.26427686e-09  4.57904151e-01  1.56296529e-07  1.39629698e-07  8.40000000e-01 
 8.50000000e-01  3.22699688e-09  4.57904180e-01  3.50420079e-09  4.57904180e-01  4.57904180e-01  3.26427686e-09  4.57904180e-01  1.56296567e-07  1.39629648e-07  8.50000000e-01 
 8.60000000e-01  3.22699691e-09  4.57904175e-01  3.50420079e-09  4.57904175e-01  4.57904175e-01  3.26427686e-09  4.57904175e-01  1.56296549e-07  1.39629506e-07  8.60000000e-01 
 8.70000000e-01  3.22699692e-09  4.57904177e-01  3.50420079e-09  4.57904177e-01  4.57904177e-01  3.26427686e-09  4.57904177e-01  1.56296565e-07  1.39629378e-07  8.70000000e-01 
 8.80000000e-01  3.22699686e-09  4.57904166e-01  3.50420078e-09  4.57904166e-01  4.57904166e-01  3.26427686e-09  4.57904166e-01  1.56296547e-07  1.39629272e-07  8.80000000e-01 
 8.90000000e-01  3.22699687e-09  4.57904160e-01  3.50420078e-09  4.57904160e-01  4.57904160e-01  3.26427686e-09  4.57904160e-01  1.56296550e-07  1.39629215e-07  8.90000000e-01 
 9.00000000e-01  3.22699691e-09  4.57904179e-01  3.50420079e-09  4.57904179e-01  4.57904179e-01  3.26427686e-09  4.57904179e-01  1.56296563e-07  1.39629073e-07  9.00000000e-01 
 9.10000000e-01  3.22699686e-09  4.57904141e-01  3.50420078e-09  4.57904142e-01  4.57904141e-01  3.26427686e-09  4.57904142e-01  1.56296509e-07  1.39628867e-07  9.10000000e-01 
 9.20000000e-01  3.22699687e-09  4.57904156e-01  3.50420078e-09  4.57904156e-01  4.57904156e-01  3.26427686e-09  4.57904156e-01  1.56296521e-07  1.39628902e-07  9.20000000e-01 
 9.30000000e-01  3.22699691e-09  4.57904181e-01  3.50420079e-09  4.57904181e-01  4.57904180e-01  3.26427686e-09  4.57904181e-01  1.56296562e-07  1.39628845e-07  9.30000000e-01 
 9.40000000e-01  3.22699686e-09  4.57904186e-01  3.50420079e-09  4.57904187e-01  4.57904186e-01  3.26427686e-09  4.57904187e-01  1.56296562e-07  1.39628781e-07  9.40000000e-01 
 9.50000000e-01  3.22699687e-09  4.57904160e-01  3.50420078e-09  4.57904160e-01  4.57904160e-01  3.26427686e-09  4.57904160e-01  1.56296541e-07  1.39628561e-07  9.50000000e-01 
 9.60000000e-01  3.22699691e-09  4.57904163e-01  3.50420078e-09  4.57904163e-01  4.57904163e-01  3.26427686e-09  4.57904163e-01  1.56296542e-07  1.39628511e-07  9.60000000e-01 
 9.70000000e-01  3.22699692e-09  4.57904165e-01  3.50420078e-09  4.57904165e-01  4.57904165e-01  3.26427686e-09  4.57904165e-01  1.56296545e-07  1.39628391e-07  9.70000000e-01 
 9.80000000e-01  3.22699686e-09  4.57904157e-01  3.50420078e-09  4.57904157e-01  4.57904157e-01  3.26427686e-09  4.57904157e-01  1.56296537e-07  1.39628234e-07  9.80000000e-01 
 9.90000000e-01  3.22699688e-09  4.57904167e-01  3.50420073e-09  4.57904167e-01  4.57904167e-01  3.26427686e-09  4.57904167e-01  1.56296550e-07  1.39628092e-07  9.90000000e-01 
 1.00000000e+00  3.22699686e-09  4.57904169e-01  3.50420080e-09  4.57904169e-01  4.57904169e-01  3.26427686e-09  4.57904169e-01  1.56296543e-07  1.39627986e-07  1.00000000e+00 
 1.01000000e+00  3.22699688e-09  4.57904171e-01  3.50420078e-09  4.57904171e-01  4.57904171e-01  3.26427686e-09  4.57904171e-01  1.56296547e-07  1.39627943e-07  1.01000000e+00 
 1.02000000e+00  3.22699686e-09  4.57904169e-01  3.50420078e-09  4.57904169e-01  4.57904169e-01  3.26427686e-09  4.57904169e-01  1.56296547e-07  1.39627829e-07  1.02000000e+00 
 1.03000000e+00  3.22699687e-09  4.57904162e-01  3.50420078e-09  4.57904162e-01  4.57904162e-01  3.26427686e-09  4.57904162e-01  1.56296530e-07  1.39627673e-07  1.03000000e+00 
 1.04000000e+00  3.22699691e-09  4.57904160e-01  3.50420073e-09  4.57904160e-01  4.57904160e-01  3.26427686e-09  4.57904160e-01  1.56296532e-07  1.39627502e-07  1.04000000e+00 
 1.05000000e+00  3.22699686e-09  4.57904148e-01  3.50420080e-09  4.57904148e-01  4.57904148e-01  3.26427686e-09  4.57904148e-01  1.56296524e-07  1.39627367e-07  1.05000000e+00 
 1.06000000e+00  3.22699688e-09  4.57904174e-01  3.50420078e-09  4.57904174e-01  4.57904174e-01  3.26427686e-09  4.57904174e-01  1.56296544e-07  1.39627502e-07  1.06000000e+00 
 1.07000000e+00  3.22699691e-09  4.57904173e-01  3.50420079e-09  4.57904173e-01  4.57904173e-01  3.26427686e-09  4.57904173e-01  1.56296551e-07  1.39627247e-07  1.07000000e+00 
 1.08000000e+00  3.22699686e-09  4.57904157e-01  3.50420078e-09  4.57904157e-01  4.57904157e-01  3.26427686e-09  4.57904157e-01  1.56296530e-07  1.39627119e-07  1.08000000e+00 
 1.09000000e+00  3.22699687e-09  4.57904165e-01  3.50420078e-09  4.57904165e-01  4.57904165e-01  3.26427686e-09  4.57904165e-01  1.56296533e-07  1.39627005e-07  1.09000000e+00 
 1.10000000e+00  3.22699686e-09  4.57904158e-01  3.50420078e-09  4.57904158e-01  4.57904158e-01  3.26427686e-09  4.57904158e-01  1.56296525e-07  1.39626891e-07  1.10000000e+00 
