 v-sweep         v(b0)           v(b1)           v(b2)           v(b3)           v(b4)           v(b5)           v(b6)           i(vbias)        i(viout)        v(vout)        
 0.00000000e+00  3.22327552e-09  4.56694243e-01  4.56694243e-01  4.56694243e-01  3.27211057e-09  3.35827706e-09  4.56694243e-01  1.55081064e-07  1.13082315e-07  0.00000000e+00 
 1.00000000e-02  3.22327550e-09  4.56694236e-01  4.56694236e-01  4.56694236e-01  3.27211056e-09  3.35827703e-09  4.56694236e-01  1.55081056e-07  1.13081813e-07  1.00000000e-02 
 2.00000000e-02  3.22327550e-09  4.56694234e-01  4.56694234e-01  4.56694234e-01  3.27211057e-09  3.35827704e-09  4.56694234e-01  1.55081043e-07  1.13081402e-07  2.00000000e-02 
 3.00000000e-02  3.22327550e-09  4.56694247e-01  4.56694247e-01  4.56694247e-01  3.27211061e-09  3.35827704e-09  4.56694247e-01  1.55081062e-07  1.13081118e-07  3.00000000e-02 
 4.00000000e-02  3.22327550e-09  4.56694232e-01  4.56694232e-01  4.56694232e-01  3.27211056e-09  3.35827709e-09  4.56694232e-01  1.55081052e-07  1.13080617e-07  4.00000000e-02 
 5.00000000e-02  3.22327556e-09  4.56694275e-01  4.56694275e-01  4.56694275e-01  3.27211063e-09  3.35827708e-09  4.56694275e-01  1.55081114e-07  1.13080465e-07  5.00000000e-02 
 6.00000000e-02  3.22327550e-09  4.56694254e-01  4.56694254e-01  4.56694254e-01  3.27211055e-09  3.35827703e-09  4.56694254e-01  1.55081071e-07  1.13080071e-07  6.00000000e-02 
 7.00000000e-02  3.22327550e-09  4.56694206e-01  4.56694206e-01  4.56694206e-01  3.27211056e-09  3.35827704e-09  4.56694205e-01  1.55081012e-07  1.13079532e-07  7.00000000e-02 
 8.00000000e-02  3.22327550e-09  4.56694223e-01  4.56694223e-01  4.56694223e-01  3.27211061e-09  3.35827709e-09  4.56694223e-01  1.55081030e-07  1.13079313e-07  8.00000000e-02 
 9.00000000e-02  3.22327550e-09  4.56694237e-01  4.56694237e-01  4.56694237e-01  3.27211061e-09  3.35827708e-09  4.56694237e-01  1.55081054e-07  1.13079119e-07  9.00000000e-02 
 1.00000000e-01  3.22327550e-09  4.56694238e-01  4.56694238e-01  4.56694238e-01  3.27211056e-09  3.35827703e-09  4.56694238e-01  1.55081059e-07  1.13078852e-07  1.00000000e-01 
 1.10000000e-01  3.22327550e-09  4.56694261e-01  4.56694261e-01  4.56694261e-01  3.27211063e-09  3.35827704e-09  4.56694261e-01  1.55081104e-07  1.13078678e-07  1.10000000e-01 
 1.20000000e-01  3.22327550e-09  4.56694251e-01  4.56694251e-01  4.56694250e-01  3.27211061e-09  3.35827703e-09  4.56694250e-01  1.55081084e-07  1.13078316e-07  1.20000000e-01 
 1.30000000e-01  3.22327550e-09  4.56694254e-01  4.56694254e-01  4.56694254e-01  3.27211062e-09  3.35827710e-09  4.56694254e-01  1.55081074e-07  1.13078179e-07  1.30000000e-01 
 1.40000000e-01  3.22327550e-09  4.56694252e-01  4.56694252e-01  4.56694252e-01  3.27211056e-09  3.35827708e-09  4.56694252e-01  1.55081068e-07  1.13077808e-07  1.40000000e-01 
 1.50000000e-01  3.22327550e-09  4.56694240e-01  4.56694240e-01  4.56694240e-01  3.27211057e-09  3.35827709e-09  4.56694240e-01  1.55081060e-07  1.13077617e-07  1.50000000e-01 
 1.60000000e-01  3.22327550e-09  4.56694214e-01  4.56694214e-01  4.56694214e-01  3.27211055e-09  3.35827703e-09  4.56694214e-01  1.55081028e-07  1.13077331e-07  1.60000000e-01 
 1.70000000e-01  3.22327550e-09  4.56694244e-01  4.56694244e-01  4.56694244e-01  3.27211057e-09  3.35827704e-09  4.56694244e-01  1.55081070e-07  1.13077137e-07  1.70000000e-01 
 1.80000000e-01  3.22327550e-09  4.56694265e-01  4.56694265e-01  4.56694265e-01  3.27211061e-09  3.35827704e-09  4.56694265e-01  1.55081101e-07  1.13077036e-07  1.80000000e-01 
 1.90000000e-01  3.22327550e-09  4.56694228e-01  4.56694228e-01  4.56694228e-01  3.27211055e-09  3.35827704e-09  4.56694228e-01  1.55081034e-07  1.13076720e-07  1.90000000e-01 
 2.00000000e-01  3.22327550e-09  4.56694238e-01  4.56694238e-01  4.56694238e-01  3.27211063e-09  3.35827704e-09  4.56694238e-01  1.55081068e-07  1.13076634e-07  2.00000000e-01 
 2.10000000e-01  3.22327550e-09  4.56694254e-01  4.56694254e-01  4.56694254e-01  3.27211055e-09  3.35827704e-09  4.56694254e-01  1.55081092e-07  1.13076519e-07  2.10000000e-01 
 2.20000000e-01  3.22327550e-09  4.56694242e-01  4.56694242e-01  4.56694242e-01  3.27211063e-09  3.35827704e-09  4.56694242e-01  1.55081063e-07  1.13076254e-07  2.20000000e-01 
 2.30000000e-01  3.22327551e-09  4.56694272e-01  4.56694272e-01  4.56694272e-01  3.27211061e-09  3.35827704e-09  4.56694272e-01  1.55081118e-07  1.13076210e-07  2.30000000e-01 
 2.40000000e-01  3.22327550e-09  4.56694242e-01  4.56694242e-01  4.56694242e-01  3.27211061e-09  3.35827704e-09  4.56694242e-01  1.55081061e-07  1.13075984e-07  2.40000000e-01 
 2.50000000e-01  3.22327550e-09  4.56694256e-01  4.56694256e-01  4.56694256e-01  3.27211056e-09  3.35827704e-09  4.56694256e-01  1.55081092e-07  1.13075849e-07  2.50000000e-01 
 2.60000000e-01  3.22327550e-09  4.56694249e-01  4.56694249e-01  4.56694249e-01  3.27211061e-09  3.35827704e-09  4.56694249e-01  1.55081083e-07  1.13075595e-07  2.60000000e-01 
 2.70000000e-01  3.22327550e-09  4.56694242e-01  4.56694242e-01  4.56694242e-01  3.27211061e-09  3.35827710e-09  4.56694242e-01  1.55081063e-07  1.13075526e-07  2.70000000e-01 
 2.80000000e-01  3.22327550e-09  4.56694249e-01  4.56694249e-01  4.56694249e-01  3.27211056e-09  3.35827703e-09  4.56694249e-01  1.55081080e-07  1.13075531e-07  2.80000000e-01 
 2.90000000e-01  3.22327550e-09  4.56694238e-01  4.56694238e-01  4.56694238e-01  3.27211057e-09  3.35827704e-09  4.56694238e-01  1.55081049e-07  1.13075274e-07  2.90000000e-01 
 3.00000000e-01  3.22327556e-09  4.56694244e-01  4.56694244e-01  4.56694244e-01  3.27211061e-09  3.35827704e-09  4.56694244e-01  1.55081068e-07  1.13075124e-07  3.00000000e-01 
 3.10000000e-01  3.22327550e-09  4.56694234e-01  4.56694234e-01  4.56694234e-01  3.27211061e-09  3.35827709e-09  4.56694234e-01  1.55081058e-07  1.13075142e-07  3.10000000e-01 
 3.20000000e-01  3.22327550e-09  4.56694228e-01  4.56694228e-01  4.56694228e-01  3.27211061e-09  3.35827703e-09  4.56694228e-01  1.55081034e-07  1.13074954e-07  3.20000000e-01 
 3.30000000e-01  3.22327550e-09  4.56694258e-01  4.56694258e-01  4.56694258e-01  3.27211056e-09  3.35827710e-09  4.56694258e-01  1.55081088e-07  1.13074936e-07  3.30000000e-01 
 3.40000000e-01  3.22327550e-09  4.56694250e-01  4.56694250e-01  4.56694250e-01  3.27211061e-09  3.35827708e-09  4.56694250e-01  1.55081061e-07  1.13074602e-07  3.40000000e-01 
 3.50000000e-01  3.22327550e-09  4.56694201e-01  4.56694201e-01  4.56694201e-01  3.27211061e-09  3.35827703e-09  4.56694201e-01  1.55081002e-07  1.13074414e-07  3.50000000e-01 
 3.60000000e-01  3.22327550e-09  4.56694240e-01  4.56694240e-01  4.56694240e-01  3.27211061e-09  3.35827704e-09  4.56694240e-01  1.55081065e-07  1.13074435e-07  3.60000000e-01 
 3.70000000e-01  3.22327551e-09  4.56694268e-01  4.56694268e-01  4.56694268e-01  3.27211062e-09  3.35827710e-09  4.56694268e-01  1.55081093e-07  1.13074556e-07  3.70000000e-01 
 3.80000000e-01  3.22327550e-09  4.56694257e-01  4.56694257e-01  4.56694257e-01  3.27211056e-09  3.35827708e-09  4.56694257e-01  1.55081091e-07  1.13074321e-07  3.80000000e-01 
 3.90000000e-01  3.22327550e-09  4.56694247e-01  4.56694247e-01  4.56694247e-01  3.27211061e-09  3.35827703e-09  4.56694247e-01  1.55081069e-07  1.13074137e-07  3.90000000e-01 
 4.00000000e-01  3.22327550e-09  4.56694248e-01  4.56694248e-01  4.56694248e-01  3.27211061e-09  3.35827704e-09  4.56694248e-01  1.55081092e-07  1.13074115e-07  4.00000000e-01 
 4.10000000e-01  3.22327550e-09  4.56694263e-01  4.56694263e-01  4.56694263e-01  3.27211062e-09  3.35827704e-09  4.56694263e-01  1.55081101e-07  1.13074066e-07  4.10000000e-01 
 4.20000000e-01  3.22327550e-09  4.56694251e-01  4.56694251e-01  4.56694251e-01  3.27211056e-09  3.35827704e-09  4.56694251e-01  1.55081068e-07  1.13073973e-07  4.20000000e-01 
 4.30000000e-01  3.22327550e-09  4.56694232e-01  4.56694232e-01  4.56694232e-01  3.27211062e-09  3.35827704e-09  4.56694232e-01  1.55081050e-07  1.13073764e-07  4.30000000e-01 
 4.40000000e-01  3.22327550e-09  4.56694259e-01  4.56694259e-01  4.56694259e-01  3.27211061e-09  3.35827704e-09  4.56694259e-01  1.55081088e-07  1.13073700e-07  4.40000000e-01 
 4.50000000e-01  3.22327550e-09  4.56694251e-01  4.56694251e-01  4.56694251e-01  3.27211061e-09  3.35827704e-09  4.56694251e-01  1.55081072e-07  1.13073650e-07  4.50000000e-01 
 4.60000000e-01  3.22327551e-09  4.56694283e-01  4.56694283e-01  4.56694283e-01  3.27211062e-09  3.35827704e-09  4.56694283e-01  1.55081123e-07  1.13073693e-07  4.60000000e-01 
 4.70000000e-01  3.22327550e-09  4.56694222e-01  4.56694222e-01  4.56694222e-01  3.27211061e-09  3.35827704e-09  4.56694222e-01  1.55081039e-07  1.13073366e-07  4.70000000e-01 
 4.80000000e-01  3.22327550e-09  4.56694259e-01  4.56694259e-01  4.56694259e-01  3.27211056e-09  3.35827704e-09  4.56694259e-01  1.55081083e-07  1.13073423e-07  4.80000000e-01 
 4.90000000e-01  3.22327550e-09  4.56694249e-01  4.56694249e-01  4.56694249e-01  3.27211061e-09  3.35827710e-09  4.56694249e-01  1.55081072e-07  1.13073238e-07  4.90000000e-01 
 5.00000000e-01  3.22327551e-09  4.56694268e-01  4.56694268e-01  4.56694268e-01  3.27211062e-09  3.35827703e-09  4.56694268e-01  1.55081099e-07  1.13073334e-07  5.00000000e-01 
 5.10000000e-01  3.22327550e-09  4.56694254e-01  4.56694254e-01  4.56694254e-01  3.27211056e-09  3.35827704e-09  4.56694254e-01  1.55081077e-07  1.13073131e-07  5.10000000e-01 
 5.20000000e-01  3.22327550e-09  4.56694248e-01  4.56694248e-01  4.56694247e-01  3.27211061e-09  3.35827708e-09  4.56694247e-01  1.55081079e-07  1.13073089e-07  5.20000000e-01 
 5.30000000e-01  3.22327550e-09  4.56694252e-01  4.56694252e-01  4.56694252e-01  3.27211056e-09  3.35827703e-09  4.56694252e-01  1.55081076e-07  1.13072979e-07  5.30000000e-01 
 5.40000000e-01  3.22327550e-09  4.56694255e-01  4.56694255e-01  4.56694255e-01  3.27211063e-09  3.35827704e-09  4.56694255e-01  1.55081075e-07  1.13072911e-07  5.40000000e-01 
 5.50000000e-01  3.22327556e-09  4.56694237e-01  4.56694237e-01  4.56694237e-01  3.27211055e-09  3.35827708e-09  4.56694237e-01  1.55081059e-07  1.13072737e-07  5.50000000e-01 
 5.60000000e-01  3.22327550e-09  4.56694261e-01  4.56694261e-01  4.56694261e-01  3.27211057e-09  3.35827703e-09  4.56694261e-01  1.55081082e-07  1.13072755e-07  5.60000000e-01 
 5.70000000e-01  3.22327550e-09  4.56694230e-01  4.56694230e-01  4.56694230e-01  3.27211055e-09  3.35827704e-09  4.56694230e-01  1.55081044e-07  1.13072563e-07  5.70000000e-01 
 5.80000000e-01  3.22327550e-09  4.56694253e-01  4.56694253e-01  4.56694253e-01  3.27211057e-09  3.35827704e-09  4.56694253e-01  1.55081085e-07  1.13072652e-07  5.80000000e-01 
 5.90000000e-01  3.22327550e-09  4.56694266e-01  4.56694266e-01  4.56694266e-01  3.27211061e-09  3.35827704e-09  4.56694266e-01  1.55081090e-07  1.13072481e-07  5.90000000e-01 
 6.00000000e-01  3.22327550e-09  4.56694239e-01  4.56694239e-01  4.56694239e-01  3.27211061e-09  3.35827704e-09  4.56694239e-01  1.55081066e-07  1.13072439e-07  6.00000000e-01 
 6.10000000e-01  3.22327551e-09  4.56694285e-01  4.56694285e-01  4.56694285e-01  3.27211062e-09  3.35827710e-09  4.56694285e-01  1.55081120e-07  1.13072396e-07  6.10000000e-01 
 6.20000000e-01  3.22327550e-09  4.56694257e-01  4.56694257e-01  4.56694257e-01  3.27211062e-09  3.35827703e-09  4.56694257e-01  1.55081082e-07  1.13072211e-07  6.20000000e-01 
 6.30000000e-01  3.22327550e-09  4.56694233e-01  4.56694233e-01  4.56694233e-01  3.27211061e-09  3.35827704e-09  4.56694233e-01  1.55081049e-07  1.13072190e-07  6.30000000e-01 
 6.40000000e-01  3.22327550e-09  4.56694257e-01  4.56694257e-01  4.56694257e-01  3.27211062e-09  3.35827710e-09  4.56694257e-01  1.55081094e-07  1.13072211e-07  6.40000000e-01 
 6.50000000e-01  3.22327550e-09  4.56694230e-01  4.56694230e-01  4.56694230e-01  3.27211061e-09  3.35827708e-09  4.56694230e-01  1.55081046e-07  1.13072112e-07  6.50000000e-01 
 6.60000000e-01  3.22327550e-09  4.56694256e-01  4.56694256e-01  4.56694256e-01  3.27211062e-09  3.35827703e-09  4.56694256e-01  1.55081092e-07  1.13072062e-07  6.60000000e-01 
 6.70000000e-01  3.22327551e-09  4.56694273e-01  4.56694273e-01  4.56694273e-01  3.27211056e-09  3.35827710e-09  4.56694273e-01  1.55081102e-07  1.13071842e-07  6.70000000e-01 
 6.80000000e-01  3.22327550e-09  4.56694227e-01  4.56694227e-01  4.56694227e-01  3.27211061e-09  3.35827708e-09  4.56694227e-01  1.55081048e-07  1.13071692e-07  6.80000000e-01 
 6.90000000e-01  3.22327556e-09  4.56694285e-01  4.56694285e-01  4.56694285e-01  3.27211062e-09  3.35827703e-09  4.56694285e-01  1.55081130e-07  1.13071842e-07  6.90000000e-01 
 7.00000000e-01  3.22327550e-09  4.56694245e-01  4.56694245e-01  4.56694245e-01  3.27211061e-09  3.35827704e-09  4.56694245e-01  1.55081069e-07  1.13071572e-07  7.00000000e-01 
 7.10000000e-01  3.22327550e-09  4.56694259e-01  4.56694259e-01  4.56694259e-01  3.27211056e-09  3.35827710e-09  4.56694259e-01  1.55081085e-07  1.13071458e-07  7.10000000e-01 
 7.20000000e-01  3.22327550e-09  4.56694217e-01  4.56694217e-01  4.56694216e-01  3.27211055e-09  3.35827702e-09  4.56694216e-01  1.55081013e-07  1.13071451e-07  7.20000000e-01 
 7.30000000e-01  3.22327550e-09  4.56694257e-01  4.56694257e-01  4.56694256e-01  3.27211057e-09  3.35827704e-09  4.56694256e-01  1.55081081e-07  1.13071472e-07  7.30000000e-01 
 7.40000000e-01  3.22327550e-09  4.56694200e-01  4.56694200e-01  4.56694199e-01  3.27211055e-09  3.35827702e-09  4.56694199e-01  1.55081012e-07  1.13071110e-07  7.40000000e-01 
 7.50000000e-01  3.22327550e-09  4.56694256e-01  4.56694256e-01  4.56694256e-01  3.27211057e-09  3.35827704e-09  4.56694256e-01  1.55081074e-07  1.13071231e-07  7.50000000e-01 
 7.60000000e-01  3.22327556e-09  4.56694251e-01  4.56694251e-01  4.56694251e-01  3.27211061e-09  3.35827703e-09  4.56694251e-01  1.55081082e-07  1.13071259e-07  7.60000000e-01 
 7.70000000e-01  3.22327550e-09  4.56694248e-01  4.56694248e-01  4.56694248e-01  3.27211056e-09  3.35827704e-09  4.56694248e-01  1.55081077e-07  1.13071088e-07  7.70000000e-01 
 7.80000000e-01  3.22327550e-09  4.56694260e-01  4.56694260e-01  4.56694260e-01  3.27211057e-09  3.35827704e-09  4.56694260e-01  1.55081097e-07  1.13071010e-07  7.80000000e-01 
 7.90000000e-01  3.22327556e-09  4.56694259e-01  4.56694259e-01  4.56694259e-01  3.27211061e-09  3.35827710e-09  4.56694259e-01  1.55081076e-07  1.13071010e-07  7.90000000e-01 
 8.00000000e-01  3.22327550e-09  4.56694237e-01  4.56694237e-01  4.56694237e-01  3.27211056e-09  3.35827703e-09  4.56694237e-01  1.55081057e-07  1.13070733e-07  8.00000000e-01 
 8.10000000e-01  3.22327556e-09  4.56694253e-01  4.56694253e-01  4.56694253e-01  3.27211057e-09  3.35827704e-09  4.56694253e-01  1.55081065e-07  1.13070726e-07  8.10000000e-01 
 8.20000000e-01  3.22327550e-09  4.56694238e-01  4.56694238e-01  4.56694238e-01  3.27211061e-09  3.35827708e-09  4.56694238e-01  1.55081060e-07  1.13070563e-07  8.20000000e-01 
 8.30000000e-01  3.22327550e-09  4.56694197e-01  4.56694197e-01  4.56694197e-01  3.27211055e-09  3.35827709e-09  4.56694197e-01  1.55080998e-07  1.13070456e-07  8.30000000e-01 
 8.40000000e-01  3.22327550e-09  4.56694251e-01  4.56694251e-01  4.56694251e-01  3.27211057e-09  3.35827703e-09  4.56694251e-01  1.55081083e-07  1.13070534e-07  8.40000000e-01 
 8.50000000e-01  3.22327556e-09  4.56694261e-01  4.56694261e-01  4.56694261e-01  3.27211061e-09  3.35827704e-09  4.56694261e-01  1.55081106e-07  1.13070520e-07  8.50000000e-01 
 8.60000000e-01  3.22327550e-09  4.56694214e-01  4.56694214e-01  4.56694214e-01  3.27211055e-09  3.35827708e-09  4.56694214e-01  1.55081037e-07  1.13070215e-07  8.60000000e-01 
 8.70000000e-01  3.22327551e-09  4.56694280e-01  4.56694280e-01  4.56694280e-01  3.27211057e-09  3.35827703e-09  4.56694280e-01  1.55081126e-07  1.13070342e-07  8.70000000e-01 
 8.80000000e-01  3.22327550e-09  4.56694254e-01  4.56694254e-01  4.56694254e-01  3.27211061e-09  3.35827704e-09  4.56694254e-01  1.55081091e-07  1.13070186e-07  8.80000000e-01 
 8.90000000e-01  3.22327550e-09  4.56694243e-01  4.56694243e-01  4.56694243e-01  3.27211056e-09  3.35827703e-09  4.56694243e-01  1.55081055e-07  1.13070072e-07  8.90000000e-01 
 9.00000000e-01  3.22327550e-09  4.56694260e-01  4.56694260e-01  4.56694260e-01  3.27211057e-09  3.35827710e-09  4.56694260e-01  1.55081096e-07  1.13070037e-07  9.00000000e-01 
 9.10000000e-01  3.22327551e-09  4.56694271e-01  4.56694271e-01  4.56694271e-01  3.27211055e-09  3.35827703e-09  4.56694271e-01  1.55081104e-07  1.13069966e-07  9.10000000e-01 
 9.20000000e-01  3.22327550e-09  4.56694247e-01  4.56694247e-01  4.56694247e-01  3.27211063e-09  3.35827704e-09  4.56694247e-01  1.55081061e-07  1.13069881e-07  9.20000000e-01 
 9.30000000e-01  3.22327551e-09  4.56694269e-01  4.56694269e-01  4.56694269e-01  3.27211061e-09  3.35827704e-09  4.56694269e-01  1.55081110e-07  1.13069753e-07  9.30000000e-01 
 9.40000000e-01  3.22327550e-09  4.56694223e-01  4.56694223e-01  4.56694223e-01  3.27211061e-09  3.35827704e-09  4.56694223e-01  1.55081033e-07  1.13069540e-07  9.40000000e-01 
 9.50000000e-01  3.22327551e-09  4.56694279e-01  4.56694279e-01  4.56694279e-01  3.27211056e-09  3.35827704e-09  4.56694279e-01  1.55081131e-07  1.13069632e-07  9.50000000e-01 
 9.60000000e-01  3.22327550e-09  4.56694228e-01  4.56694228e-01  4.56694228e-01  3.27211055e-09  3.35827704e-09  4.56694228e-01  1.55081052e-07  1.13069312e-07  9.60000000e-01 
 9.70000000e-01  3.22327551e-09  4.56694272e-01  4.56694272e-01  4.56694272e-01  3.27211057e-09  3.35827704e-09  4.56694272e-01  1.55081106e-07  1.13069504e-07  9.70000000e-01 
 9.80000000e-01  3.22327550e-09  4.56694221e-01  4.56694221e-01  4.56694221e-01  3.27211060e-09  3.35827704e-09  4.56694221e-01  1.55081019e-07  1.13069220e-07  9.80000000e-01 
 9.90000000e-01  3.22327550e-09  4.56694264e-01  4.56694264e-01  4.56694264e-01  3.27211062e-09  3.35827704e-09  4.56694264e-01  1.55081096e-07  1.13069170e-07  9.90000000e-01 
 1.00000000e+00  3.22327550e-09  4.56694236e-01  4.56694236e-01  4.56694236e-01  3.27211061e-09  3.35827704e-09  4.56694236e-01  1.55081058e-07  1.13069099e-07  1.00000000e+00 
 1.01000000e+00  3.22327551e-09  4.56694278e-01  4.56694278e-01  4.56694278e-01  3.27211062e-09  3.35827704e-09  4.56694278e-01  1.55081124e-07  1.13069127e-07  1.01000000e+00 
 1.02000000e+00  3.22327550e-09  4.56694255e-01  4.56694255e-01  4.56694255e-01  3.27211062e-09  3.35827710e-09  4.56694255e-01  1.55081071e-07  1.13068857e-07  1.02000000e+00 
 1.03000000e+00  3.22327550e-09  4.56694243e-01  4.56694243e-01  4.56694243e-01  3.27211056e-09  3.35827703e-09  4.56694243e-01  1.55081091e-07  1.13068751e-07  1.03000000e+00 
 1.04000000e+00  3.22327550e-09  4.56694244e-01  4.56694244e-01  4.56694244e-01  3.27211063e-09  3.35827704e-09  4.56694244e-01  1.55081062e-07  1.13068758e-07  1.04000000e+00 
 1.05000000e+00  3.22327550e-09  4.56694250e-01  4.56694250e-01  4.56694250e-01  3.27211061e-09  3.35827704e-09  4.56694250e-01  1.55081079e-07  1.13068701e-07  1.05000000e+00 
 1.06000000e+00  3.22327556e-09  4.56694231e-01  4.56694231e-01  4.56694231e-01  3.27211056e-09  3.35827704e-09  4.56694231e-01  1.55081045e-07  1.13068481e-07  1.06000000e+00 
 1.07000000e+00  3.22327556e-09  4.56694261e-01  4.56694261e-01  4.56694261e-01  3.27211057e-09  3.35827704e-09  4.56694261e-01  1.55081077e-07  1.13068523e-07  1.07000000e+00 
 1.08000000e+00  3.22327550e-09  4.56694240e-01  4.56694240e-01  4.56694240e-01  3.27211061e-09  3.35827704e-09  4.56694240e-01  1.55081057e-07  1.13068282e-07  1.08000000e+00 
 1.09000000e+00  3.22327551e-09  4.56694269e-01  4.56694269e-01  4.56694269e-01  3.27211056e-09  3.35827704e-09  4.56694268e-01  1.55081103e-07  1.13068445e-07  1.09000000e+00 
 1.10000000e+00  3.22327550e-09  4.56694223e-01  4.56694223e-01  4.56694223e-01  3.27211055e-09  3.35827704e-09  4.56694223e-01  1.55081036e-07  1.13068033e-07  1.10000000e+00 
