 v-sweep         v(b0)           v(b1)           v(b2)           v(b3)           v(b4)           v(b5)           v(b6)           i(vbias)        i(viout)        v(vout)        
 0.00000000e+00  3.37562748e-09  3.28125957e-09  4.56540985e-01  4.56540985e-01  3.12813781e-09  3.36633628e-09  4.56540985e-01  1.56538769e-07  1.13443992e-07  0.00000000e+00 
 1.00000000e-02  3.37562752e-09  3.28125961e-09  4.56540989e-01  4.56540989e-01  3.12813779e-09  3.36633627e-09  4.56540989e-01  1.56538771e-07  1.13443658e-07  1.00000000e-02 
 2.00000000e-02  3.37562752e-09  3.28125960e-09  4.56540967e-01  4.56540967e-01  3.12813780e-09  3.36633627e-09  4.56540967e-01  1.56538741e-07  1.13443088e-07  2.00000000e-02 
 3.00000000e-02  3.37562752e-09  3.28125960e-09  4.56540960e-01  4.56540960e-01  3.12813779e-09  3.36633626e-09  4.56540960e-01  1.56538735e-07  1.13442810e-07  3.00000000e-02 
 4.00000000e-02  3.37562746e-09  3.28125960e-09  4.56540965e-01  4.56540965e-01  3.12813779e-09  3.36633626e-09  4.56540965e-01  1.56538746e-07  1.13442368e-07  4.00000000e-02 
 5.00000000e-02  3.37562746e-09  3.28125961e-09  4.56540987e-01  4.56540988e-01  3.12813779e-09  3.36633627e-09  4.56540988e-01  1.56538781e-07  1.13442160e-07  5.00000000e-02 
 6.00000000e-02  3.37562752e-09  3.28125961e-09  4.56540989e-01  4.56540989e-01  3.12813780e-09  3.36633627e-09  4.56540989e-01  1.56538774e-07  1.13441752e-07  6.00000000e-02 
 7.00000000e-02  3.37562752e-09  3.28125961e-09  4.56540989e-01  4.56540989e-01  3.12813780e-09  3.36633627e-09  4.56540989e-01  1.56538774e-07  1.13441408e-07  7.00000000e-02 
 8.00000000e-02  3.37562752e-09  3.28125961e-09  4.56540991e-01  4.56540991e-01  3.12813780e-09  3.36633627e-09  4.56540991e-01  1.56538773e-07  1.13441153e-07  8.00000000e-02 
 9.00000000e-02  3.37562752e-09  3.28125961e-09  4.56540985e-01  4.56540985e-01  3.12813779e-09  3.36633627e-09  4.56540985e-01  1.56538771e-07  1.13440824e-07  9.00000000e-02 
 1.00000000e-01  3.37562752e-09  3.28125961e-09  4.56540988e-01  4.56540988e-01  3.12813779e-09  3.36633627e-09  4.56540988e-01  1.56538773e-07  1.13440559e-07  1.00000000e-01 
 1.10000000e-01  3.37562746e-09  3.28125961e-09  4.56541002e-01  4.56541002e-01  3.12813780e-09  3.36633632e-09  4.56541002e-01  1.56538782e-07  1.13440411e-07  1.10000000e-01 
 1.20000000e-01  3.37562752e-09  3.28125960e-09  4.56540973e-01  4.56540973e-01  3.12813779e-09  3.36633632e-09  4.56540973e-01  1.56538758e-07  1.13440080e-07  1.20000000e-01 
 1.30000000e-01  3.37562752e-09  3.28125961e-09  4.56540981e-01  4.56540981e-01  3.12813779e-09  3.36633627e-09  4.56540981e-01  1.56538770e-07  1.13439691e-07  1.30000000e-01 
 1.40000000e-01  3.37562752e-09  3.28125960e-09  4.56540956e-01  4.56540957e-01  3.12813779e-09  3.36633626e-09  4.56540957e-01  1.56538721e-07  1.13439449e-07  1.40000000e-01 
 1.50000000e-01  3.37562752e-09  3.28125961e-09  4.56540983e-01  4.56540983e-01  3.12813779e-09  3.36633627e-09  4.56540983e-01  1.56538768e-07  1.13439286e-07  1.50000000e-01 
 1.60000000e-01  3.37562752e-09  3.28125960e-09  4.56540969e-01  4.56540969e-01  3.12813779e-09  3.36633627e-09  4.56540969e-01  1.56538753e-07  1.13439063e-07  1.60000000e-01 
 1.70000000e-01  3.37562746e-09  3.28125960e-09  4.56540968e-01  4.56540968e-01  3.12813779e-09  3.36633627e-09  4.56540968e-01  1.56538744e-07  1.13438800e-07  1.70000000e-01 
 1.80000000e-01  3.37562752e-09  3.28125960e-09  4.56540973e-01  4.56540973e-01  3.12813779e-09  3.36633627e-09  4.56540973e-01  1.56538766e-07  1.13438686e-07  1.80000000e-01 
 1.90000000e-01  3.37562752e-09  3.28125961e-09  4.56540987e-01  4.56540987e-01  3.12813779e-09  3.36633627e-09  4.56540987e-01  1.56538767e-07  1.13438670e-07  1.90000000e-01 
 2.00000000e-01  3.37562752e-09  3.28125960e-09  4.56540959e-01  4.56540959e-01  3.12813779e-09  3.36633626e-09  4.56540959e-01  1.56538727e-07  1.13438256e-07  2.00000000e-01 
 2.10000000e-01  3.37562752e-09  3.28125960e-09  4.56540978e-01  4.56540978e-01  3.12813779e-09  3.36633627e-09  4.56540978e-01  1.56538754e-07  1.13438249e-07  2.10000000e-01 
 2.20000000e-01  3.37562746e-09  3.28125961e-09  4.56540988e-01  4.56540988e-01  3.12813780e-09  3.36633627e-09  4.56540988e-01  1.56538784e-07  1.13438016e-07  2.20000000e-01 
 2.30000000e-01  3.37562746e-09  3.28125966e-09  4.56540999e-01  4.56541000e-01  3.12813780e-09  3.36633627e-09  4.56541000e-01  1.56538800e-07  1.13437959e-07  2.30000000e-01 
 2.40000000e-01  3.37562752e-09  3.28125961e-09  4.56540983e-01  4.56540983e-01  3.12813779e-09  3.36633627e-09  4.56540983e-01  1.56538768e-07  1.13437610e-07  2.40000000e-01 
 2.50000000e-01  3.37562746e-09  3.28125961e-09  4.56540988e-01  4.56540988e-01  3.12813779e-09  3.36633627e-09  4.56540988e-01  1.56538788e-07  1.13437508e-07  2.50000000e-01 
 2.60000000e-01  3.37562746e-09  3.28125961e-09  4.56540979e-01  4.56540979e-01  3.12813779e-09  3.36633627e-09  4.56540979e-01  1.56538780e-07  1.13437421e-07  2.60000000e-01 
 2.70000000e-01  3.37562746e-09  3.28125961e-09  4.56540998e-01  4.56540998e-01  3.12813780e-09  3.36633627e-09  4.56540998e-01  1.56538783e-07  1.13437430e-07  2.70000000e-01 
 2.80000000e-01  3.37562752e-09  3.28125960e-09  4.56540978e-01  4.56540978e-01  3.12813779e-09  3.36633632e-09  4.56540978e-01  1.56538764e-07  1.13437164e-07  2.80000000e-01 
 2.90000000e-01  3.37562752e-09  3.28125960e-09  4.56540974e-01  4.56540974e-01  3.12813779e-09  3.36633627e-09  4.56540974e-01  1.56538754e-07  1.13437054e-07  2.90000000e-01 
 3.00000000e-01  3.37562752e-09  3.28125960e-09  4.56540977e-01  4.56540977e-01  3.12813779e-09  3.36633627e-09  4.56540977e-01  1.56538760e-07  1.13436915e-07  3.00000000e-01 
 3.10000000e-01  3.37562752e-09  3.28125960e-09  4.56540952e-01  4.56540952e-01  3.12813779e-09  3.36633626e-09  4.56540952e-01  1.56538727e-07  1.13436670e-07  3.10000000e-01 
 3.20000000e-01  3.37562752e-09  3.28125960e-09  4.56540963e-01  4.56540963e-01  3.12813779e-09  3.36633626e-09  4.56540963e-01  1.56538735e-07  1.13436695e-07  3.20000000e-01 
 3.30000000e-01  3.37562746e-09  3.28125961e-09  4.56540987e-01  4.56540987e-01  3.12813779e-09  3.36633627e-09  4.56540987e-01  1.56538773e-07  1.13436432e-07  3.30000000e-01 
 3.40000000e-01  3.37562752e-09  3.28125960e-09  4.56540965e-01  4.56540965e-01  3.12813779e-09  3.36633626e-09  4.56540965e-01  1.56538749e-07  1.13436339e-07  3.40000000e-01 
 3.50000000e-01  3.37562752e-09  3.28125961e-09  4.56540990e-01  4.56540990e-01  3.12813780e-09  3.36633627e-09  4.56540990e-01  1.56538782e-07  1.13436307e-07  3.50000000e-01 
 3.60000000e-01  3.37562752e-09  3.28125960e-09  4.56540966e-01  4.56540966e-01  3.12813779e-09  3.36633626e-09  4.56540966e-01  1.56538740e-07  1.13436201e-07  3.60000000e-01 
 3.70000000e-01  3.37562746e-09  3.28125960e-09  4.56540968e-01  4.56540968e-01  3.12813779e-09  3.36633627e-09  4.56540968e-01  1.56538741e-07  1.13436091e-07  3.70000000e-01 
 3.80000000e-01  3.37562752e-09  3.28125960e-09  4.56540978e-01  4.56540978e-01  3.12813779e-09  3.36633627e-09  4.56540978e-01  1.56538764e-07  1.13435998e-07  3.80000000e-01 
 3.90000000e-01  3.37562752e-09  3.28125961e-09  4.56540988e-01  4.56540988e-01  3.12813779e-09  3.36633627e-09  4.56540988e-01  1.56538779e-07  1.13435835e-07  3.90000000e-01 
 4.00000000e-01  3.37562752e-09  3.28125961e-09  4.56541002e-01  4.56541002e-01  3.12813780e-09  3.36633632e-09  4.56541002e-01  1.56538793e-07  1.13435849e-07  4.00000000e-01 
 4.10000000e-01  3.37562752e-09  3.28125961e-09  4.56540986e-01  4.56540986e-01  3.12813779e-09  3.36633627e-09  4.56540986e-01  1.56538773e-07  1.13435753e-07  4.10000000e-01 
 4.20000000e-01  3.37562752e-09  3.28125961e-09  4.56540991e-01  4.56540991e-01  3.12813780e-09  3.36633627e-09  4.56540991e-01  1.56538766e-07  1.13435657e-07  4.20000000e-01 
 4.30000000e-01  3.37562746e-09  3.28125960e-09  4.56540975e-01  4.56540975e-01  3.12813779e-09  3.36633627e-09  4.56540975e-01  1.56538756e-07  1.13435576e-07  4.30000000e-01 
 4.40000000e-01  3.37562752e-09  3.28125961e-09  4.56540986e-01  4.56540986e-01  3.12813779e-09  3.36633627e-09  4.56540986e-01  1.56538780e-07  1.13435419e-07  4.40000000e-01 
 4.50000000e-01  3.37562746e-09  3.28125960e-09  4.56540969e-01  4.56540969e-01  3.12813779e-09  3.36633632e-09  4.56540969e-01  1.56538743e-07  1.13435345e-07  4.50000000e-01 
 4.60000000e-01  3.37562746e-09  3.28125960e-09  4.56540966e-01  4.56540966e-01  3.12813779e-09  3.36633626e-09  4.56540966e-01  1.56538747e-07  1.13435181e-07  4.60000000e-01 
 4.70000000e-01  3.37562752e-09  3.28125961e-09  4.56540980e-01  4.56540980e-01  3.12813785e-09  3.36633627e-09  4.56540980e-01  1.56538777e-07  1.13435153e-07  4.70000000e-01 
 4.80000000e-01  3.37562752e-09  3.28125960e-09  4.56540960e-01  4.56540960e-01  3.12813778e-09  3.36633626e-09  4.56540960e-01  1.56538739e-07  1.13435103e-07  4.80000000e-01 
 4.90000000e-01  3.37562752e-09  3.28125961e-09  4.56540994e-01  4.56540994e-01  3.12813780e-09  3.36633627e-09  4.56540994e-01  1.56538776e-07  1.13434879e-07  4.90000000e-01 
 5.00000000e-01  3.37562752e-09  3.28125960e-09  4.56540968e-01  4.56540968e-01  3.12813778e-09  3.36633627e-09  4.56540968e-01  1.56538764e-07  1.13434947e-07  5.00000000e-01 
 5.10000000e-01  3.37562752e-09  3.28125960e-09  4.56540977e-01  4.56540977e-01  3.12813780e-09  3.36633632e-09  4.56540977e-01  1.56538760e-07  1.13434897e-07  5.10000000e-01 
 5.20000000e-01  3.37562746e-09  3.28125961e-09  4.56540984e-01  4.56540984e-01  3.12813784e-09  3.36633627e-09  4.56540984e-01  1.56538778e-07  1.13434695e-07  5.20000000e-01 
 5.30000000e-01  3.37562752e-09  3.28125961e-09  4.56540982e-01  4.56540982e-01  3.12813779e-09  3.36633627e-09  4.56540982e-01  1.56538750e-07  1.13434723e-07  5.30000000e-01 
 5.40000000e-01  3.37562752e-09  3.28125960e-09  4.56540967e-01  4.56540967e-01  3.12813780e-09  3.36633627e-09  4.56540967e-01  1.56538732e-07  1.13434528e-07  5.40000000e-01 
 5.50000000e-01  3.37562752e-09  3.28125960e-09  4.56540952e-01  4.56540952e-01  3.12813779e-09  3.36633626e-09  4.56540952e-01  1.56538738e-07  1.13434414e-07  5.50000000e-01 
 5.60000000e-01  3.37562752e-09  3.28125960e-09  4.56540969e-01  4.56540969e-01  3.12813779e-09  3.36633627e-09  4.56540969e-01  1.56538751e-07  1.13434378e-07  5.60000000e-01 
 5.70000000e-01  3.37562752e-09  3.28125961e-09  4.56540987e-01  4.56540987e-01  3.12813779e-09  3.36633627e-09  4.56540987e-01  1.56538775e-07  1.13434297e-07  5.70000000e-01 
 5.80000000e-01  3.37562746e-09  3.28125961e-09  4.56540994e-01  4.56540994e-01  3.12813780e-09  3.36633627e-09  4.56540994e-01  1.56538785e-07  1.13434275e-07  5.80000000e-01 
 5.90000000e-01  3.37562752e-09  3.28125961e-09  4.56540983e-01  4.56540983e-01  3.12813779e-09  3.36633627e-09  4.56540983e-01  1.56538775e-07  1.13434226e-07  5.90000000e-01 
 6.00000000e-01  3.37562746e-09  3.28125961e-09  4.56540998e-01  4.56540998e-01  3.12813780e-09  3.36633627e-09  4.56540998e-01  1.56538780e-07  1.13434169e-07  6.00000000e-01 
 6.10000000e-01  3.37562752e-09  3.28125961e-09  4.56541008e-01  4.56541008e-01  3.12813780e-09  3.36633627e-09  4.56541008e-01  1.56538805e-07  1.13434027e-07  6.10000000e-01 
 6.20000000e-01  3.37562752e-09  3.28125961e-09  4.56540981e-01  4.56540981e-01  3.12813779e-09  3.36633627e-09  4.56540981e-01  1.56538755e-07  1.13433870e-07  6.20000000e-01 
 6.30000000e-01  3.37562752e-09  3.28125961e-09  4.56540983e-01  4.56540983e-01  3.12813779e-09  3.36633632e-09  4.56540983e-01  1.56538769e-07  1.13433970e-07  6.30000000e-01 
 6.40000000e-01  3.37562752e-09  3.28125961e-09  4.56540982e-01  4.56540982e-01  3.12813785e-09  3.36633627e-09  4.56540982e-01  1.56538777e-07  1.13433785e-07  6.40000000e-01 
 6.50000000e-01  3.37562752e-09  3.28125961e-09  4.56540986e-01  4.56540986e-01  3.12813778e-09  3.36633627e-09  4.56540986e-01  1.56538780e-07  1.13433707e-07  6.50000000e-01 
 6.60000000e-01  3.37562746e-09  3.28125961e-09  4.56541012e-01  4.56541012e-01  3.12813780e-09  3.36633627e-09  4.56541012e-01  1.56538811e-07  1.13433678e-07  6.60000000e-01 
 6.70000000e-01  3.37562746e-09  3.28125961e-09  4.56540984e-01  4.56540984e-01  3.12813778e-09  3.36633627e-09  4.56540984e-01  1.56538779e-07  1.13433529e-07  6.70000000e-01 
 6.80000000e-01  3.37562752e-09  3.28125961e-09  4.56540981e-01  4.56540981e-01  3.12813780e-09  3.36633627e-09  4.56540981e-01  1.56538768e-07  1.13433394e-07  6.80000000e-01 
 6.90000000e-01  3.37562746e-09  3.28125961e-09  4.56540985e-01  4.56540985e-01  3.12813778e-09  3.36633627e-09  4.56540985e-01  1.56538768e-07  1.13433451e-07  6.90000000e-01 
 7.00000000e-01  3.37562752e-09  3.28125960e-09  4.56540960e-01  4.56540960e-01  3.12813780e-09  3.36633626e-09  4.56540960e-01  1.56538727e-07  1.13433153e-07  7.00000000e-01 
 7.10000000e-01  3.37562752e-09  3.28125960e-09  4.56540967e-01  4.56540967e-01  3.12813779e-09  3.36633627e-09  4.56540967e-01  1.56538747e-07  1.13433181e-07  7.10000000e-01 
 7.20000000e-01  3.37562752e-09  3.28125960e-09  4.56540968e-01  4.56540968e-01  3.12813779e-09  3.36633627e-09  4.56540968e-01  1.56538749e-07  1.13433131e-07  7.20000000e-01 
 7.30000000e-01  3.37562746e-09  3.28125961e-09  4.56540981e-01  4.56540981e-01  3.12813779e-09  3.36633627e-09  4.56540981e-01  1.56538776e-07  1.13433138e-07  7.30000000e-01 
 7.40000000e-01  3.37562752e-09  3.28125960e-09  4.56540949e-01  4.56540949e-01  3.12813779e-09  3.36633626e-09  4.56540949e-01  1.56538721e-07  1.13432911e-07  7.40000000e-01 
 7.50000000e-01  3.37562752e-09  3.28125960e-09  4.56540952e-01  4.56540952e-01  3.12813779e-09  3.36633626e-09  4.56540952e-01  1.56538735e-07  1.13432876e-07  7.50000000e-01 
 7.60000000e-01  3.37562752e-09  3.28125960e-09  4.56540976e-01  4.56540976e-01  3.12813779e-09  3.36633627e-09  4.56540976e-01  1.56538762e-07  1.13432939e-07  7.60000000e-01 
 7.70000000e-01  3.37562752e-09  3.28125961e-09  4.56540987e-01  4.56540987e-01  3.12813779e-09  3.36633627e-09  4.56540987e-01  1.56538785e-07  1.13432812e-07  7.70000000e-01 
 7.80000000e-01  3.37562746e-09  3.28125961e-09  4.56540993e-01  4.56540993e-01  3.12813780e-09  3.36633627e-09  4.56540993e-01  1.56538799e-07  1.13432719e-07  7.80000000e-01 
 7.90000000e-01  3.37562746e-09  3.28125960e-09  4.56540974e-01  4.56540975e-01  3.12813779e-09  3.36633627e-09  4.56540975e-01  1.56538759e-07  1.13432463e-07  7.90000000e-01 
 8.00000000e-01  3.37562752e-09  3.28125960e-09  4.56540974e-01  4.56540974e-01  3.12813779e-09  3.36633627e-09  4.56540974e-01  1.56538767e-07  1.13432471e-07  8.00000000e-01 
 8.10000000e-01  3.37562752e-09  3.28125961e-09  4.56540989e-01  4.56540989e-01  3.12813780e-09  3.36633627e-09  4.56540989e-01  1.56538783e-07  1.13432435e-07  8.10000000e-01 
 8.20000000e-01  3.37562746e-09  3.28125961e-09  4.56540979e-01  4.56540979e-01  3.12813779e-09  3.36633627e-09  4.56540979e-01  1.56538770e-07  1.13432364e-07  8.20000000e-01 
 8.30000000e-01  3.37562752e-09  3.28125961e-09  4.56540994e-01  4.56540995e-01  3.12813780e-09  3.36633632e-09  4.56540995e-01  1.56538793e-07  1.13432321e-07  8.30000000e-01 
 8.40000000e-01  3.37562752e-09  3.28125961e-09  4.56540986e-01  4.56540986e-01  3.12813779e-09  3.36633627e-09  4.56540986e-01  1.56538776e-07  1.13432264e-07  8.40000000e-01 
 8.50000000e-01  3.37562746e-09  3.28125961e-09  4.56541003e-01  4.56541003e-01  3.12813780e-09  3.36633627e-09  4.56541003e-01  1.56538798e-07  1.13432300e-07  8.50000000e-01 
 8.60000000e-01  3.37562752e-09  3.28125961e-09  4.56540979e-01  4.56540979e-01  3.12813779e-09  3.36633627e-09  4.56540979e-01  1.56538742e-07  1.13432023e-07  8.60000000e-01 
 8.70000000e-01  3.37562752e-09  3.28125961e-09  4.56540996e-01  4.56540996e-01  3.12813780e-09  3.36633627e-09  4.56540996e-01  1.56538782e-07  1.13431845e-07  8.70000000e-01 
 8.80000000e-01  3.37562746e-09  3.28125960e-09  4.56540972e-01  4.56540973e-01  3.12813779e-09  3.36633627e-09  4.56540973e-01  1.56538753e-07  1.13431952e-07  8.80000000e-01 
 8.90000000e-01  3.37562746e-09  3.28125961e-09  4.56540995e-01  4.56540996e-01  3.12813780e-09  3.36633627e-09  4.56540996e-01  1.56538782e-07  1.13431852e-07  8.90000000e-01 
 9.00000000e-01  3.37562746e-09  3.28125961e-09  4.56540994e-01  4.56540994e-01  3.12813780e-09  3.36633627e-09  4.56540994e-01  1.56538794e-07  1.13431618e-07  9.00000000e-01 
 9.10000000e-01  3.37562752e-09  3.28125961e-09  4.56541006e-01  4.56541006e-01  3.12813780e-09  3.36633627e-09  4.56541006e-01  1.56538795e-07  1.13431540e-07  9.10000000e-01 
 9.20000000e-01  3.37562746e-09  3.28125961e-09  4.56541002e-01  4.56541002e-01  3.12813780e-09  3.36633627e-09  4.56541002e-01  1.56538792e-07  1.13431604e-07  9.20000000e-01 
 9.30000000e-01  3.37562752e-09  3.28125961e-09  4.56540985e-01  4.56540985e-01  3.12813779e-09  3.36633627e-09  4.56540985e-01  1.56538778e-07  1.13431476e-07  9.30000000e-01 
 9.40000000e-01  3.37562752e-09  3.28125960e-09  4.56540962e-01  4.56540962e-01  3.12813779e-09  3.36633626e-09  4.56540962e-01  1.56538749e-07  1.13431255e-07  9.40000000e-01 
 9.50000000e-01  3.37562746e-09  3.28125961e-09  4.56540982e-01  4.56540982e-01  3.12813779e-09  3.36633627e-09  4.56540982e-01  1.56538776e-07  1.13431241e-07  9.50000000e-01 
 9.60000000e-01  3.37562752e-09  3.28125961e-09  4.56540997e-01  4.56540997e-01  3.12813780e-09  3.36633627e-09  4.56540997e-01  1.56538770e-07  1.13431206e-07  9.60000000e-01 
 9.70000000e-01  3.37562746e-09  3.28125955e-09  4.56540989e-01  4.56540989e-01  3.12813780e-09  3.36633627e-09  4.56540989e-01  1.56538772e-07  1.13430964e-07  9.70000000e-01 
 9.80000000e-01  3.37562746e-09  3.28125961e-09  4.56540986e-01  4.56540986e-01  3.12813779e-09  3.36633627e-09  4.56540986e-01  1.56538776e-07  1.13430993e-07  9.80000000e-01 
 9.90000000e-01  3.37562746e-09  3.28125960e-09  4.56540960e-01  4.56540960e-01  3.12813779e-09  3.36633626e-09  4.56540960e-01  1.56538745e-07  1.13430680e-07  9.90000000e-01 
 1.00000000e+00  3.37562752e-09  3.28125960e-09  4.56540968e-01  4.56540968e-01  3.12813779e-09  3.36633627e-09  4.56540968e-01  1.56538737e-07  1.13430779e-07  1.00000000e+00 
 1.01000000e+00  3.37562752e-09  3.28125961e-09  4.56541014e-01  4.56541014e-01  3.12813780e-09  3.36633633e-09  4.56541014e-01  1.56538833e-07  1.13430865e-07  1.01000000e+00 
 1.02000000e+00  3.37562752e-09  3.28125961e-09  4.56540979e-01  4.56540979e-01  3.12813779e-09  3.36633627e-09  4.56540979e-01  1.56538770e-07  1.13430609e-07  1.02000000e+00 
 1.03000000e+00  3.37562752e-09  3.28125960e-09  4.56540960e-01  4.56540960e-01  3.12813779e-09  3.36633626e-09  4.56540960e-01  1.56538736e-07  1.13430488e-07  1.03000000e+00 
 1.04000000e+00  3.37562752e-09  3.28125961e-09  4.56540992e-01  4.56540992e-01  3.12813780e-09  3.36633627e-09  4.56540992e-01  1.56538781e-07  1.13430488e-07  1.04000000e+00 
 1.05000000e+00  3.37562752e-09  3.28125960e-09  4.56540971e-01  4.56540971e-01  3.12813779e-09  3.36633627e-09  4.56540971e-01  1.56538749e-07  1.13430282e-07  1.05000000e+00 
 1.06000000e+00  3.37562752e-09  3.28125961e-09  4.56540982e-01  4.56540982e-01  3.12813785e-09  3.36633627e-09  4.56540982e-01  1.56538766e-07  1.13430161e-07  1.06000000e+00 
 1.07000000e+00  3.37562752e-09  3.28125960e-09  4.56540975e-01  4.56540975e-01  3.12813778e-09  3.36633627e-09  4.56540975e-01  1.56538766e-07  1.13430104e-07  1.07000000e+00 
 1.08000000e+00  3.37562752e-09  3.28125960e-09  4.56540969e-01  4.56540969e-01  3.12813780e-09  3.36633627e-09  4.56540969e-01  1.56538742e-07  1.13430097e-07  1.08000000e+00 
 1.09000000e+00  3.37562746e-09  3.28125960e-09  4.56540963e-01  4.56540963e-01  3.12813779e-09  3.36633626e-09  4.56540963e-01  1.56538755e-07  1.13429927e-07  1.09000000e+00 
 1.10000000e+00  3.37562752e-09  3.28125960e-09  4.56540967e-01  4.56540968e-01  3.12813779e-09  3.36633627e-09  4.56540968e-01  1.56538746e-07  1.13429820e-07  1.10000000e+00 
