 v-sweep         v(b0)           v(b1)           v(b2)           v(b3)           v(b4)           v(b5)           v(b6)           i(vbias)        i(viout)        v(vout)        
 0.00000000e+00  4.58597582e-01  4.58597582e-01  4.58597582e-01  3.33775710e-09  4.58597582e-01  3.21819149e-09  3.34476985e-09  1.61370209e-07  3.68944787e-08  0.00000000e+00 
 1.00000000e-02  4.58597610e-01  4.58597610e-01  4.58597610e-01  3.33775707e-09  4.58597610e-01  3.21819148e-09  3.34476983e-09  1.61370249e-07  3.68940567e-08  1.00000000e-02 
 2.00000000e-02  4.58597608e-01  4.58597608e-01  4.58597609e-01  3.33775707e-09  4.58597608e-01  3.21819148e-09  3.34476989e-09  1.61370221e-07  3.68936910e-08  2.00000000e-02 
 3.00000000e-02  4.58597603e-01  4.58597603e-01  4.58597603e-01  3.33775707e-09  4.58597603e-01  3.21819148e-09  3.34476989e-09  1.61370223e-07  3.68932369e-08  3.00000000e-02 
 4.00000000e-02  4.58597611e-01  4.58597611e-01  4.58597611e-01  3.33775713e-09  4.58597611e-01  3.21819148e-09  3.34476983e-09  1.61370242e-07  3.68929700e-08  4.00000000e-02 
 5.00000000e-02  4.58597608e-01  4.58597608e-01  4.58597608e-01  3.33775707e-09  4.58597608e-01  3.21819142e-09  3.34476989e-09  1.61370242e-07  3.68926223e-08  5.00000000e-02 
 6.00000000e-02  4.58597615e-01  4.58597615e-01  4.58597615e-01  3.33775707e-09  4.58597615e-01  3.21819142e-09  3.34476983e-09  1.61370253e-07  3.68922675e-08  6.00000000e-02 
 7.00000000e-02  4.58597585e-01  4.58597585e-01  4.58597585e-01  3.33775713e-09  4.58597585e-01  3.21819142e-09  3.34476983e-09  1.61370201e-07  3.68919100e-08  7.00000000e-02 
 8.00000000e-02  4.58597594e-01  4.58597594e-01  4.58597594e-01  3.33775707e-09  4.58597594e-01  3.21819142e-09  3.34476989e-09  1.61370209e-07  3.68916151e-08  8.00000000e-02 
 9.00000000e-02  4.58597613e-01  4.58597613e-01  4.58597613e-01  3.33775713e-09  4.58597613e-01  3.21819148e-09  3.34476983e-09  1.61370241e-07  3.68914499e-08  9.00000000e-02 
 1.00000000e-01  4.58597613e-01  4.58597613e-01  4.58597613e-01  3.33775707e-09  4.58597613e-01  3.21819148e-09  3.34476989e-09  1.61370255e-07  3.68910049e-08  1.00000000e-01 
 1.10000000e-01  4.58597618e-01  4.58597618e-01  4.58597618e-01  3.33775707e-09  4.58597618e-01  3.21819148e-09  3.34476983e-09  1.61370243e-07  3.68909161e-08  1.10000000e-01 
 1.20000000e-01  4.58597629e-01  4.58597629e-01  4.58597629e-01  3.33775707e-09  4.58597629e-01  3.21819148e-09  3.34476983e-09  1.61370281e-07  3.68906976e-08  1.20000000e-01 
 1.30000000e-01  4.58597591e-01  4.58597591e-01  4.58597591e-01  3.33775707e-09  4.58597591e-01  3.21819142e-09  3.34476989e-09  1.61370225e-07  3.68903992e-08  1.30000000e-01 
 1.40000000e-01  4.58597611e-01  4.58597611e-01  4.58597611e-01  3.33775707e-09  4.58597611e-01  3.21819148e-09  3.34476989e-09  1.61370250e-07  3.68903308e-08  1.40000000e-01 
 1.50000000e-01  4.58597608e-01  4.58597609e-01  4.58597609e-01  3.33775707e-09  4.58597609e-01  3.21819148e-09  3.34476989e-09  1.61370236e-07  3.68900235e-08  1.50000000e-01 
 1.60000000e-01  4.58597617e-01  4.58597617e-01  4.58597617e-01  3.33775707e-09  4.58597617e-01  3.21819142e-09  3.34476983e-09  1.61370255e-07  3.68898334e-08  1.60000000e-01 
 1.70000000e-01  4.58597628e-01  4.58597628e-01  4.58597628e-01  3.33775713e-09  4.58597628e-01  3.21819148e-09  3.34476983e-09  1.61370266e-07  3.68897641e-08  1.70000000e-01 
 1.80000000e-01  4.58597623e-01  4.58597623e-01  4.58597623e-01  3.33775707e-09  4.58597623e-01  3.21819148e-09  3.34476989e-09  1.61370248e-07  3.68896629e-08  1.80000000e-01 
 1.90000000e-01  4.58597603e-01  4.58597603e-01  4.58597604e-01  3.33775713e-09  4.58597603e-01  3.21819148e-09  3.34476989e-09  1.61370239e-07  3.68893467e-08  1.90000000e-01 
 2.00000000e-01  4.58597590e-01  4.58597590e-01  4.58597591e-01  3.33775713e-09  4.58597590e-01  3.21819148e-09  3.34476983e-09  1.61370209e-07  3.68891939e-08  2.00000000e-01 
 2.10000000e-01  4.58597600e-01  4.58597600e-01  4.58597600e-01  3.33775707e-09  4.58597600e-01  3.21819148e-09  3.34476989e-09  1.61370235e-07  3.68889719e-08  2.10000000e-01 
 2.20000000e-01  4.58597612e-01  4.58597613e-01  4.58597613e-01  3.33775713e-09  4.58597613e-01  3.21819142e-09  3.34476989e-09  1.61370245e-07  3.68888848e-08  2.20000000e-01 
 2.30000000e-01  4.58597594e-01  4.58597594e-01  4.58597594e-01  3.33775707e-09  4.58597594e-01  3.21819148e-09  3.34476989e-09  1.61370212e-07  3.68886930e-08  2.30000000e-01 
 2.40000000e-01  4.58597614e-01  4.58597614e-01  4.58597615e-01  3.33775707e-09  4.58597614e-01  3.21819142e-09  3.34476989e-09  1.61370257e-07  3.68885171e-08  2.40000000e-01 
 2.50000000e-01  4.58597622e-01  4.58597622e-01  4.58597622e-01  3.33775713e-09  4.58597622e-01  3.21819148e-09  3.34476989e-09  1.61370271e-07  3.68884532e-08  2.50000000e-01 
 2.60000000e-01  4.58597582e-01  4.58597582e-01  4.58597582e-01  3.33775707e-09  4.58597582e-01  3.21819142e-09  3.34476989e-09  1.61370206e-07  3.68884621e-08  2.60000000e-01 
 2.70000000e-01  4.58597602e-01  4.58597602e-01  4.58597602e-01  3.33775707e-09  4.58597602e-01  3.21819148e-09  3.34476989e-09  1.61370235e-07  3.68883111e-08  2.70000000e-01 
 2.80000000e-01  4.58597598e-01  4.58597598e-01  4.58597598e-01  3.33775707e-09  4.58597598e-01  3.21819148e-09  3.34476989e-09  1.61370232e-07  3.68881192e-08  2.80000000e-01 
 2.90000000e-01  4.58597599e-01  4.58597600e-01  4.58597600e-01  3.33775707e-09  4.58597600e-01  3.21819142e-09  3.34476989e-09  1.61370235e-07  3.68880215e-08  2.90000000e-01 
 3.00000000e-01  4.58597600e-01  4.58597600e-01  4.58597600e-01  3.33775707e-09  4.58597600e-01  3.21819148e-09  3.34476983e-09  1.61370227e-07  3.68879824e-08  3.00000000e-01 
 3.10000000e-01  4.58597613e-01  4.58597613e-01  4.58597613e-01  3.33775707e-09  4.58597613e-01  3.21819148e-09  3.34476989e-09  1.61370248e-07  3.68877622e-08  3.10000000e-01 
 3.20000000e-01  4.58597619e-01  4.58597619e-01  4.58597619e-01  3.33775707e-09  4.58597619e-01  3.21819148e-09  3.34476989e-09  1.61370251e-07  3.68877444e-08  3.20000000e-01 
 3.30000000e-01  4.58597584e-01  4.58597584e-01  4.58597584e-01  3.33775707e-09  4.58597584e-01  3.21819142e-09  3.34476983e-09  1.61370204e-07  3.68875597e-08  3.30000000e-01 
 3.40000000e-01  4.58597573e-01  4.58597573e-01  4.58597574e-01  3.33775707e-09  4.58597573e-01  3.21819147e-09  3.34476983e-09  1.61370190e-07  3.68874602e-08  3.40000000e-01 
 3.50000000e-01  4.58597600e-01  4.58597600e-01  4.58597600e-01  3.33775707e-09  4.58597600e-01  3.21819142e-09  3.34476983e-09  1.61370234e-07  3.68874424e-08  3.50000000e-01 
 3.60000000e-01  4.58597599e-01  4.58597599e-01  4.58597599e-01  3.33775707e-09  4.58597599e-01  3.21819142e-09  3.34476983e-09  1.61370216e-07  3.68874424e-08  3.60000000e-01 
 3.70000000e-01  4.58597584e-01  4.58597584e-01  4.58597584e-01  3.33775707e-09  4.58597584e-01  3.21819142e-09  3.34476983e-09  1.61370203e-07  3.68872399e-08  3.70000000e-01 
 3.80000000e-01  4.58597608e-01  4.58597608e-01  4.58597608e-01  3.33775707e-09  4.58597608e-01  3.21819148e-09  3.34476989e-09  1.61370234e-07  3.68872861e-08  3.80000000e-01 
 3.90000000e-01  4.58597607e-01  4.58597607e-01  4.58597607e-01  3.33775707e-09  4.58597607e-01  3.21819148e-09  3.34476989e-09  1.61370221e-07  3.68871227e-08  3.90000000e-01 
 4.00000000e-01  4.58597603e-01  4.58597603e-01  4.58597604e-01  3.33775707e-09  4.58597603e-01  3.21819148e-09  3.34476989e-09  1.61370229e-07  3.68871369e-08  4.00000000e-01 
 4.10000000e-01  4.58597629e-01  4.58597629e-01  4.58597629e-01  3.33775707e-09  4.58597629e-01  3.21819148e-09  3.34476989e-09  1.61370262e-07  3.68870801e-08  4.10000000e-01 
 4.20000000e-01  4.58597618e-01  4.58597618e-01  4.58597618e-01  3.33775707e-09  4.58597618e-01  3.21819148e-09  3.34476989e-09  1.61370248e-07  3.68869095e-08  4.20000000e-01 
 4.30000000e-01  4.58597608e-01  4.58597608e-01  4.58597608e-01  3.33775707e-09  4.58597608e-01  3.21819148e-09  3.34476989e-09  1.61370232e-07  3.68867390e-08  4.30000000e-01 
 4.40000000e-01  4.58597616e-01  4.58597616e-01  4.58597616e-01  3.33775707e-09  4.58597616e-01  3.21819148e-09  3.34476989e-09  1.61370254e-07  3.68868207e-08  4.40000000e-01 
 4.50000000e-01  4.58597594e-01  4.58597594e-01  4.58597594e-01  3.33775713e-09  4.58597594e-01  3.21819142e-09  3.34476989e-09  1.61370211e-07  3.68866715e-08  4.50000000e-01 
 4.60000000e-01  4.58597583e-01  4.58597583e-01  4.58597583e-01  3.33775713e-09  4.58597583e-01  3.21819142e-09  3.34476989e-09  1.61370205e-07  3.68866324e-08  4.60000000e-01 
 4.70000000e-01  4.58597598e-01  4.58597598e-01  4.58597598e-01  3.33775707e-09  4.58597598e-01  3.21819142e-09  3.34476989e-09  1.61370229e-07  3.68866573e-08  4.70000000e-01 
 4.80000000e-01  4.58597608e-01  4.58597608e-01  4.58597608e-01  3.33775707e-09  4.58597608e-01  3.21819148e-09  3.34476983e-09  1.61370242e-07  3.68866324e-08  4.80000000e-01 
 4.90000000e-01  4.58597608e-01  4.58597608e-01  4.58597608e-01  3.33775707e-09  4.58597608e-01  3.21819148e-09  3.34476983e-09  1.61370241e-07  3.68864406e-08  4.90000000e-01 
 5.00000000e-01  4.58597607e-01  4.58597607e-01  4.58597607e-01  3.33775713e-09  4.58597607e-01  3.21819148e-09  3.34476989e-09  1.61370232e-07  3.68863908e-08  5.00000000e-01 
 5.10000000e-01  4.58597615e-01  4.58597615e-01  4.58597615e-01  3.33775713e-09  4.58597615e-01  3.21819148e-09  3.34476989e-09  1.61370249e-07  3.68864121e-08  5.10000000e-01 
 5.20000000e-01  4.58597600e-01  4.58597600e-01  4.58597600e-01  3.33775707e-09  4.58597600e-01  3.21819148e-09  3.34476989e-09  1.61370215e-07  3.68862665e-08  5.20000000e-01 
 5.30000000e-01  4.58597600e-01  4.58597600e-01  4.58597600e-01  3.33775713e-09  4.58597600e-01  3.21819148e-09  3.34476989e-09  1.61370221e-07  3.68861492e-08  5.30000000e-01 
 5.40000000e-01  4.58597597e-01  4.58597597e-01  4.58597597e-01  3.33775707e-09  4.58597597e-01  3.21819148e-09  3.34476989e-09  1.61370216e-07  3.68862594e-08  5.40000000e-01 
 5.50000000e-01  4.58597598e-01  4.58597598e-01  4.58597598e-01  3.33775713e-09  4.58597598e-01  3.21819148e-09  3.34476989e-09  1.61370218e-07  3.68860853e-08  5.50000000e-01 
 5.60000000e-01  4.58597589e-01  4.58597589e-01  4.58597590e-01  3.33775707e-09  4.58597589e-01  3.21819148e-09  3.34476983e-09  1.61370211e-07  3.68860249e-08  5.60000000e-01 
 5.70000000e-01  4.58597588e-01  4.58597588e-01  4.58597588e-01  3.33775713e-09  4.58597588e-01  3.21819142e-09  3.34476989e-09  1.61370212e-07  3.68860107e-08  5.70000000e-01 
 5.80000000e-01  4.58597605e-01  4.58597605e-01  4.58597605e-01  3.33775713e-09  4.58597605e-01  3.21819142e-09  3.34476989e-09  1.61370234e-07  3.68859148e-08  5.80000000e-01 
 5.90000000e-01  4.58597617e-01  4.58597617e-01  4.58597617e-01  3.33775713e-09  4.58597617e-01  3.21819148e-09  3.34476989e-09  1.61370256e-07  3.68858579e-08  5.90000000e-01 
 6.00000000e-01  4.58597597e-01  4.58597597e-01  4.58597597e-01  3.33775707e-09  4.58597597e-01  3.21819142e-09  3.34476989e-09  1.61370205e-07  3.68858224e-08  6.00000000e-01 
 6.10000000e-01  4.58597580e-01  4.58597580e-01  4.58597580e-01  3.33775713e-09  4.58597580e-01  3.21819148e-09  3.34476983e-09  1.61370206e-07  3.68858011e-08  6.10000000e-01 
 6.20000000e-01  4.58597615e-01  4.58597615e-01  4.58597615e-01  3.33775713e-09  4.58597615e-01  3.21819142e-09  3.34476983e-09  1.61370258e-07  3.68857300e-08  6.20000000e-01 
 6.30000000e-01  4.58597614e-01  4.58597614e-01  4.58597614e-01  3.33775707e-09  4.58597614e-01  3.21819148e-09  3.34476983e-09  1.61370250e-07  3.68856234e-08  6.30000000e-01 
 6.40000000e-01  4.58597614e-01  4.58597614e-01  4.58597614e-01  3.33775707e-09  4.58597614e-01  3.21819142e-09  3.34476989e-09  1.61370247e-07  3.68856590e-08  6.40000000e-01 
 6.50000000e-01  4.58597611e-01  4.58597611e-01  4.58597611e-01  3.33775707e-09  4.58597611e-01  3.21819142e-09  3.34476983e-09  1.61370245e-07  3.68855524e-08  6.50000000e-01 
 6.60000000e-01  4.58597606e-01  4.58597606e-01  4.58597606e-01  3.33775707e-09  4.58597606e-01  3.21819148e-09  3.34476989e-09  1.61370233e-07  3.68855737e-08  6.60000000e-01 
 6.70000000e-01  4.58597614e-01  4.58597614e-01  4.58597614e-01  3.33775707e-09  4.58597614e-01  3.21819142e-09  3.34476989e-09  1.61370237e-07  3.68855098e-08  6.70000000e-01 
 6.80000000e-01  4.58597595e-01  4.58597595e-01  4.58597595e-01  3.33775713e-09  4.58597595e-01  3.21819148e-09  3.34476989e-09  1.61370218e-07  3.68853890e-08  6.80000000e-01 
 6.90000000e-01  4.58597603e-01  4.58597603e-01  4.58597603e-01  3.33775707e-09  4.58597603e-01  3.21819148e-09  3.34476983e-09  1.61370241e-07  3.68853037e-08  6.90000000e-01 
 7.00000000e-01  4.58597607e-01  4.58597607e-01  4.58597607e-01  3.33775713e-09  4.58597607e-01  3.21819148e-09  3.34476989e-09  1.61370241e-07  3.68852113e-08  7.00000000e-01 
 7.10000000e-01  4.58597620e-01  4.58597620e-01  4.58597620e-01  3.33775707e-09  4.58597620e-01  3.21819148e-09  3.34476989e-09  1.61370252e-07  3.68851687e-08  7.10000000e-01 
 7.20000000e-01  4.58597627e-01  4.58597627e-01  4.58597627e-01  3.33775707e-09  4.58597627e-01  3.21819148e-09  3.34476989e-09  1.61370265e-07  3.68851545e-08  7.20000000e-01 
 7.30000000e-01  4.58597597e-01  4.58597597e-01  4.58597597e-01  3.33775707e-09  4.58597597e-01  3.21819148e-09  3.34476989e-09  1.61370227e-07  3.68850905e-08  7.30000000e-01 
 7.40000000e-01  4.58597590e-01  4.58597590e-01  4.58597590e-01  3.33775713e-09  4.58597590e-01  3.21819148e-09  3.34476983e-09  1.61370218e-07  3.68850053e-08  7.40000000e-01 
 7.50000000e-01  4.58597610e-01  4.58597610e-01  4.58597610e-01  3.33775707e-09  4.58597610e-01  3.21819148e-09  3.34476989e-09  1.61370244e-07  3.68849342e-08  7.50000000e-01 
 7.60000000e-01  4.58597614e-01  4.58597614e-01  4.58597615e-01  3.33775713e-09  4.58597614e-01  3.21819142e-09  3.34476989e-09  1.61370244e-07  3.68850550e-08  7.60000000e-01 
 7.70000000e-01  4.58597594e-01  4.58597594e-01  4.58597594e-01  3.33775707e-09  4.58597594e-01  3.21819148e-09  3.34476983e-09  1.61370215e-07  3.68848561e-08  7.70000000e-01 
 7.80000000e-01  4.58597615e-01  4.58597615e-01  4.58597615e-01  3.33775707e-09  4.58597615e-01  3.21819142e-09  3.34476983e-09  1.61370243e-07  3.68848561e-08  7.80000000e-01 
 7.90000000e-01  4.58597602e-01  4.58597602e-01  4.58597602e-01  3.33775707e-09  4.58597602e-01  3.21819142e-09  3.34476989e-09  1.61370224e-07  3.68847850e-08  7.90000000e-01 
 8.00000000e-01  4.58597595e-01  4.58597595e-01  4.58597595e-01  3.33775713e-09  4.58597595e-01  3.21819148e-09  3.34476983e-09  1.61370223e-07  3.68847566e-08  8.00000000e-01 
 8.10000000e-01  4.58597594e-01  4.58597594e-01  4.58597594e-01  3.33775707e-09  4.58597594e-01  3.21819148e-09  3.34476989e-09  1.61370219e-07  3.68846642e-08  8.10000000e-01 
 8.20000000e-01  4.58597588e-01  4.58597588e-01  4.58597588e-01  3.33775707e-09  4.58597588e-01  3.21819142e-09  3.34476989e-09  1.61370210e-07  3.68846145e-08  8.20000000e-01 
 8.30000000e-01  4.58597605e-01  4.58597605e-01  4.58597605e-01  3.33775707e-09  4.58597605e-01  3.21819142e-09  3.34476989e-09  1.61370229e-07  3.68845789e-08  8.30000000e-01 
 8.40000000e-01  4.58597599e-01  4.58597599e-01  4.58597599e-01  3.33775713e-09  4.58597599e-01  3.21819142e-09  3.34476983e-09  1.61370219e-07  3.68845363e-08  8.40000000e-01 
 8.50000000e-01  4.58597591e-01  4.58597591e-01  4.58597591e-01  3.33775713e-09  4.58597591e-01  3.21819142e-09  3.34476989e-09  1.61370212e-07  3.68844653e-08  8.50000000e-01 
 8.60000000e-01  4.58597583e-01  4.58597583e-01  4.58597583e-01  3.33775707e-09  4.58597583e-01  3.21819148e-09  3.34476989e-09  1.61370200e-07  3.68845008e-08  8.60000000e-01 
 8.70000000e-01  4.58597606e-01  4.58597606e-01  4.58597606e-01  3.33775713e-09  4.58597606e-01  3.21819142e-09  3.34476983e-09  1.61370248e-07  3.68843871e-08  8.70000000e-01 
 8.80000000e-01  4.58597613e-01  4.58597613e-01  4.58597613e-01  3.33775713e-09  4.58597613e-01  3.21819142e-09  3.34476989e-09  1.61370252e-07  3.68842947e-08  8.80000000e-01 
 8.90000000e-01  4.58597621e-01  4.58597621e-01  4.58597621e-01  3.33775707e-09  4.58597621e-01  3.21819148e-09  3.34476989e-09  1.61370260e-07  3.68841881e-08  8.90000000e-01 
 9.00000000e-01  4.58597608e-01  4.58597608e-01  4.58597608e-01  3.33775707e-09  4.58597608e-01  3.21819142e-09  3.34476989e-09  1.61370232e-07  3.68842095e-08  9.00000000e-01 
 9.10000000e-01  4.58597601e-01  4.58597601e-01  4.58597601e-01  3.33775713e-09  4.58597601e-01  3.21819148e-09  3.34476989e-09  1.61370219e-07  3.68840603e-08  9.10000000e-01 
 9.20000000e-01  4.58597601e-01  4.58597601e-01  4.58597602e-01  3.33775707e-09  4.58597601e-01  3.21819148e-09  3.34476983e-09  1.61370218e-07  3.68839750e-08  9.20000000e-01 
 9.30000000e-01  4.58597617e-01  4.58597617e-01  4.58597617e-01  3.33775707e-09  4.58597617e-01  3.21819148e-09  3.34476989e-09  1.61370255e-07  3.68840531e-08  9.30000000e-01 
 9.40000000e-01  4.58597595e-01  4.58597595e-01  4.58597595e-01  3.33775707e-09  4.58597595e-01  3.21819148e-09  3.34476989e-09  1.61370201e-07  3.68839963e-08  9.40000000e-01 
 9.50000000e-01  4.58597590e-01  4.58597590e-01  4.58597591e-01  3.33775707e-09  4.58597590e-01  3.21819148e-09  3.34476989e-09  1.61370222e-07  3.68837760e-08  9.50000000e-01 
 9.60000000e-01  4.58597622e-01  4.58597622e-01  4.58597622e-01  3.33775707e-09  4.58597622e-01  3.21819148e-09  3.34476983e-09  1.61370268e-07  3.68838897e-08  9.60000000e-01 
 9.70000000e-01  4.58597605e-01  4.58597605e-01  4.58597606e-01  3.33775707e-09  4.58597605e-01  3.21819142e-09  3.34476989e-09  1.61370232e-07  3.68838187e-08  9.70000000e-01 
 9.80000000e-01  4.58597598e-01  4.58597598e-01  4.58597598e-01  3.33775707e-09  4.58597598e-01  3.21819148e-09  3.34476989e-09  1.61370225e-07  3.68837902e-08  9.80000000e-01 
 9.90000000e-01  4.58597602e-01  4.58597603e-01  4.58597603e-01  3.33775707e-09  4.58597603e-01  3.21819148e-09  3.34476983e-09  1.61370232e-07  3.68836268e-08  9.90000000e-01 
 1.00000000e+00  4.58597597e-01  4.58597597e-01  4.58597597e-01  3.33775707e-09  4.58597597e-01  3.21819148e-09  3.34476989e-09  1.61370228e-07  3.68836979e-08  1.00000000e+00 
 1.01000000e+00  4.58597592e-01  4.58597592e-01  4.58597592e-01  3.33775707e-09  4.58597592e-01  3.21819148e-09  3.34476983e-09  1.61370216e-07  3.68835629e-08  1.01000000e+00 
 1.02000000e+00  4.58597602e-01  4.58597602e-01  4.58597602e-01  3.33775707e-09  4.58597602e-01  3.21819148e-09  3.34476989e-09  1.61370233e-07  3.68834705e-08  1.02000000e+00 
 1.03000000e+00  4.58597592e-01  4.58597592e-01  4.58597593e-01  3.33775707e-09  4.58597592e-01  3.21819148e-09  3.34476989e-09  1.61370219e-07  3.68834066e-08  1.03000000e+00 
 1.04000000e+00  4.58597600e-01  4.58597600e-01  4.58597600e-01  3.33775707e-09  4.58597600e-01  3.21819148e-09  3.34476989e-09  1.61370231e-07  3.68833355e-08  1.04000000e+00 
 1.05000000e+00  4.58597594e-01  4.58597595e-01  4.58597595e-01  3.33775707e-09  4.58597595e-01  3.21819148e-09  3.34476983e-09  1.61370225e-07  3.68832218e-08  1.05000000e+00 
 1.06000000e+00  4.58597599e-01  4.58597599e-01  4.58597599e-01  3.33775707e-09  4.58597599e-01  3.21819142e-09  3.34476989e-09  1.61370228e-07  3.68832360e-08  1.06000000e+00 
 1.07000000e+00  4.58597591e-01  4.58597591e-01  4.58597591e-01  3.33775713e-09  4.58597591e-01  3.21819142e-09  3.34476989e-09  1.61370216e-07  3.68831721e-08  1.07000000e+00 
 1.08000000e+00  4.58597604e-01  4.58597604e-01  4.58597605e-01  3.33775707e-09  4.58597604e-01  3.21819142e-09  3.34476989e-09  1.61370230e-07  3.68831294e-08  1.08000000e+00 
 1.09000000e+00  4.58597608e-01  4.58597608e-01  4.58597608e-01  3.33775707e-09  4.58597608e-01  3.21819142e-09  3.34476983e-09  1.61370240e-07  3.68830442e-08  1.09000000e+00 
 1.10000000e+00  4.58597601e-01  4.58597601e-01  4.58597601e-01  3.33775707e-09  4.58597601e-01  3.21819148e-09  3.34476989e-09  1.61370228e-07  3.68829447e-08  1.10000000e+00 
