 v-sweep         v(b0)           v(b1)           v(b2)           v(b3)           v(b4)           v(b5)           v(b6)           i(vbias)        i(viout)        v(vout)        
 0.00000000e+00  3.27369936e-09  4.59809638e-01  4.59809638e-01  4.59809638e-01  4.59809638e-01  4.59809638e-01  4.59809638e-01  1.60618093e-07  1.97177725e-07  0.00000000e+00 
 1.00000000e-02  3.27369940e-09  4.59809660e-01  4.59809660e-01  4.59809660e-01  4.59809660e-01  4.59809660e-01  4.59809660e-01  1.60618123e-07  1.97177330e-07  1.00000000e-02 
 2.00000000e-02  3.27369940e-09  4.59809642e-01  4.59809642e-01  4.59809642e-01  4.59809642e-01  4.59809642e-01  4.59809642e-01  1.60618103e-07  1.97176752e-07  2.00000000e-02 
 3.00000000e-02  3.27369940e-09  4.59809649e-01  4.59809649e-01  4.59809649e-01  4.59809649e-01  4.59809649e-01  4.59809649e-01  1.60618119e-07  1.97176364e-07  3.00000000e-02 
 4.00000000e-02  3.27369940e-09  4.59809632e-01  4.59809632e-01  4.59809632e-01  4.59809632e-01  4.59809632e-01  4.59809632e-01  1.60618086e-07  1.97175875e-07  4.00000000e-02 
 5.00000000e-02  3.27369940e-09  4.59809662e-01  4.59809662e-01  4.59809662e-01  4.59809662e-01  4.59809662e-01  4.59809662e-01  1.60618128e-07  1.97175562e-07  5.00000000e-02 
 6.00000000e-02  3.27369940e-09  4.59809673e-01  4.59809673e-01  4.59809673e-01  4.59809673e-01  4.59809673e-01  4.59809673e-01  1.60618156e-07  1.97175277e-07  6.00000000e-02 
 7.00000000e-02  3.27369940e-09  4.59809664e-01  4.59809664e-01  4.59809664e-01  4.59809664e-01  4.59809664e-01  4.59809664e-01  1.60618139e-07  1.97174839e-07  7.00000000e-02 
 8.00000000e-02  3.27369940e-09  4.59809638e-01  4.59809638e-01  4.59809638e-01  4.59809638e-01  4.59809638e-01  4.59809638e-01  1.60618099e-07  1.97174299e-07  8.00000000e-02 
 9.00000000e-02  3.27369940e-09  4.59809636e-01  4.59809637e-01  4.59809637e-01  4.59809637e-01  4.59809636e-01  4.59809636e-01  1.60618092e-07  1.97173984e-07  9.00000000e-02 
 1.00000000e-01  3.27369934e-09  4.59809624e-01  4.59809624e-01  4.59809624e-01  4.59809624e-01  4.59809624e-01  4.59809624e-01  1.60618081e-07  1.97173572e-07  1.00000000e-01 
 1.10000000e-01  3.27369940e-09  4.59809652e-01  4.59809652e-01  4.59809652e-01  4.59809652e-01  4.59809652e-01  4.59809652e-01  1.60618135e-07  1.97173352e-07  1.10000000e-01 
 1.20000000e-01  3.27369934e-09  4.59809625e-01  4.59809625e-01  4.59809625e-01  4.59809625e-01  4.59809625e-01  4.59809625e-01  1.60618078e-07  1.97172847e-07  1.20000000e-01 
 1.30000000e-01  3.27369940e-09  4.59809646e-01  4.59809646e-01  4.59809646e-01  4.59809646e-01  4.59809646e-01  4.59809646e-01  1.60618131e-07  1.97172557e-07  1.30000000e-01 
 1.40000000e-01  3.27369940e-09  4.59809650e-01  4.59809650e-01  4.59809650e-01  4.59809650e-01  4.59809650e-01  4.59809650e-01  1.60618117e-07  1.97172487e-07  1.40000000e-01 
 1.50000000e-01  3.27369940e-09  4.59809639e-01  4.59809639e-01  4.59809639e-01  4.59809639e-01  4.59809639e-01  4.59809639e-01  1.60618103e-07  1.97172110e-07  1.50000000e-01 
 1.60000000e-01  3.27369940e-09  4.59809641e-01  4.59809641e-01  4.59809641e-01  4.59809641e-01  4.59809641e-01  4.59809641e-01  1.60618098e-07  1.97171710e-07  1.60000000e-01 
 1.70000000e-01  3.27369940e-09  4.59809658e-01  4.59809658e-01  4.59809658e-01  4.59809658e-01  4.59809658e-01  4.59809658e-01  1.60618128e-07  1.97171593e-07  1.70000000e-01 
 1.80000000e-01  3.27369940e-09  4.59809619e-01  4.59809619e-01  4.59809619e-01  4.59809619e-01  4.59809619e-01  4.59809619e-01  1.60618089e-07  1.97171111e-07  1.80000000e-01 
 1.90000000e-01  3.27369940e-09  4.59809638e-01  4.59809638e-01  4.59809638e-01  4.59809638e-01  4.59809638e-01  4.59809638e-01  1.60618105e-07  1.97170875e-07  1.90000000e-01 
 2.00000000e-01  3.27369934e-09  4.59809662e-01  4.59809662e-01  4.59809662e-01  4.59809662e-01  4.59809662e-01  4.59809662e-01  1.60618131e-07  1.97170774e-07  2.00000000e-01 
 2.10000000e-01  3.27369940e-09  4.59809643e-01  4.59809643e-01  4.59809643e-01  4.59809643e-01  4.59809643e-01  4.59809643e-01  1.60618100e-07  1.97170413e-07  2.10000000e-01 
 2.20000000e-01  3.27369940e-09  4.59809627e-01  4.59809627e-01  4.59809627e-01  4.59809627e-01  4.59809627e-01  4.59809627e-01  1.60618096e-07  1.97170166e-07  2.20000000e-01 
 2.30000000e-01  3.27369940e-09  4.59809648e-01  4.59809648e-01  4.59809648e-01  4.59809648e-01  4.59809648e-01  4.59809648e-01  1.60618123e-07  1.97169976e-07  2.30000000e-01 
 2.40000000e-01  3.27369940e-09  4.59809621e-01  4.59809621e-01  4.59809621e-01  4.59809621e-01  4.59809621e-01  4.59809621e-01  1.60618081e-07  1.97169685e-07  2.40000000e-01 
 2.50000000e-01  3.27369934e-09  4.59809633e-01  4.59809633e-01  4.59809633e-01  4.59809633e-01  4.59809633e-01  4.59809633e-01  1.60618099e-07  1.97169538e-07  2.50000000e-01 
 2.60000000e-01  3.27369934e-09  4.59809646e-01  4.59809646e-01  4.59809646e-01  4.59809646e-01  4.59809646e-01  4.59809646e-01  1.60618129e-07  1.97169284e-07  2.60000000e-01 
 2.70000000e-01  3.27369940e-09  4.59809644e-01  4.59809644e-01  4.59809644e-01  4.59809644e-01  4.59809644e-01  4.59809644e-01  1.60618102e-07  1.97169058e-07  2.70000000e-01 
 2.80000000e-01  3.27369934e-09  4.59809646e-01  4.59809646e-01  4.59809646e-01  4.59809646e-01  4.59809646e-01  4.59809646e-01  1.60618126e-07  1.97168843e-07  2.80000000e-01 
 2.90000000e-01  3.27369934e-09  4.59809626e-01  4.59809626e-01  4.59809626e-01  4.59809626e-01  4.59809626e-01  4.59809626e-01  1.60618097e-07  1.97168582e-07  2.90000000e-01 
 3.00000000e-01  3.27369940e-09  4.59809626e-01  4.59809626e-01  4.59809626e-01  4.59809626e-01  4.59809626e-01  4.59809626e-01  1.60618085e-07  1.97168418e-07  3.00000000e-01 
 3.10000000e-01  3.27369940e-09  4.59809629e-01  4.59809629e-01  4.59809629e-01  4.59809629e-01  4.59809629e-01  4.59809629e-01  1.60618102e-07  1.97168227e-07  3.10000000e-01 
 3.20000000e-01  3.27369940e-09  4.59809644e-01  4.59809644e-01  4.59809644e-01  4.59809644e-01  4.59809644e-01  4.59809644e-01  1.60618113e-07  1.97167953e-07  3.20000000e-01 
 3.30000000e-01  3.27369934e-09  4.59809664e-01  4.59809664e-01  4.59809664e-01  4.59809664e-01  4.59809664e-01  4.59809664e-01  1.60618136e-07  1.97167996e-07  3.30000000e-01 
 3.40000000e-01  3.27369940e-09  4.59809648e-01  4.59809648e-01  4.59809648e-01  4.59809648e-01  4.59809648e-01  4.59809648e-01  1.60618120e-07  1.97167701e-07  3.40000000e-01 
 3.50000000e-01  3.27369940e-09  4.59809636e-01  4.59809636e-01  4.59809636e-01  4.59809636e-01  4.59809636e-01  4.59809636e-01  1.60618101e-07  1.97167530e-07  3.50000000e-01 
 3.60000000e-01  3.27369940e-09  4.59809629e-01  4.59809629e-01  4.59809629e-01  4.59809629e-01  4.59809629e-01  4.59809629e-01  1.60618081e-07  1.97167203e-07  3.60000000e-01 
 3.70000000e-01  3.27369934e-09  4.59809633e-01  4.59809633e-01  4.59809633e-01  4.59809633e-01  4.59809633e-01  4.59809633e-01  1.60618107e-07  1.97167129e-07  3.70000000e-01 
 3.80000000e-01  3.27369940e-09  4.59809632e-01  4.59809632e-01  4.59809632e-01  4.59809632e-01  4.59809632e-01  4.59809632e-01  1.60618099e-07  1.97166905e-07  3.80000000e-01 
 3.90000000e-01  3.27369940e-09  4.59809620e-01  4.59809620e-01  4.59809620e-01  4.59809620e-01  4.59809620e-01  4.59809620e-01  1.60618071e-07  1.97166635e-07  3.90000000e-01 
 4.00000000e-01  3.27369940e-09  4.59809629e-01  4.59809629e-01  4.59809629e-01  4.59809629e-01  4.59809629e-01  4.59809629e-01  1.60618087e-07  1.97166674e-07  4.00000000e-01 
 4.10000000e-01  3.27369940e-09  4.59809621e-01  4.59809621e-01  4.59809621e-01  4.59809621e-01  4.59809621e-01  4.59809621e-01  1.60618078e-07  1.97166440e-07  4.10000000e-01 
 4.20000000e-01  3.27369940e-09  4.59809655e-01  4.59809656e-01  4.59809656e-01  4.59809656e-01  4.59809655e-01  4.59809655e-01  1.60618134e-07  1.97166312e-07  4.20000000e-01 
 4.30000000e-01  3.27369940e-09  4.59809645e-01  4.59809645e-01  4.59809645e-01  4.59809645e-01  4.59809645e-01  4.59809645e-01  1.60618111e-07  1.97166109e-07  4.30000000e-01 
 4.40000000e-01  3.27369940e-09  4.59809613e-01  4.59809613e-01  4.59809613e-01  4.59809613e-01  4.59809613e-01  4.59809613e-01  1.60618051e-07  1.97165832e-07  4.40000000e-01 
 4.50000000e-01  3.27369940e-09  4.59809641e-01  4.59809642e-01  4.59809642e-01  4.59809642e-01  4.59809641e-01  4.59809641e-01  1.60618108e-07  1.97165779e-07  4.50000000e-01 
 4.60000000e-01  3.27369940e-09  4.59809629e-01  4.59809629e-01  4.59809629e-01  4.59809629e-01  4.59809629e-01  4.59809629e-01  1.60618092e-07  1.97165445e-07  4.60000000e-01 
 4.70000000e-01  3.27369940e-09  4.59809630e-01  4.59809630e-01  4.59809630e-01  4.59809630e-01  4.59809630e-01  4.59809630e-01  1.60618089e-07  1.97165452e-07  4.70000000e-01 
 4.80000000e-01  3.27369940e-09  4.59809637e-01  4.59809637e-01  4.59809637e-01  4.59809637e-01  4.59809637e-01  4.59809637e-01  1.60618099e-07  1.97165228e-07  4.80000000e-01 
 4.90000000e-01  3.27369940e-09  4.59809641e-01  4.59809641e-01  4.59809641e-01  4.59809641e-01  4.59809641e-01  4.59809641e-01  1.60618103e-07  1.97165114e-07  4.90000000e-01 
 5.00000000e-01  3.27369940e-09  4.59809651e-01  4.59809651e-01  4.59809651e-01  4.59809651e-01  4.59809651e-01  4.59809651e-01  1.60618113e-07  1.97165033e-07  5.00000000e-01 
 5.10000000e-01  3.27369940e-09  4.59809640e-01  4.59809640e-01  4.59809640e-01  4.59809640e-01  4.59809640e-01  4.59809640e-01  1.60618111e-07  1.97164781e-07  5.10000000e-01 
 5.20000000e-01  3.27369940e-09  4.59809614e-01  4.59809614e-01  4.59809614e-01  4.59809614e-01  4.59809614e-01  4.59809614e-01  1.60618072e-07  1.97164553e-07  5.20000000e-01 
 5.30000000e-01  3.27369940e-09  4.59809638e-01  4.59809638e-01  4.59809638e-01  4.59809638e-01  4.59809638e-01  4.59809638e-01  1.60618102e-07  1.97164329e-07  5.30000000e-01 
 5.40000000e-01  3.27369940e-09  4.59809626e-01  4.59809626e-01  4.59809626e-01  4.59809626e-01  4.59809626e-01  4.59809626e-01  1.60618086e-07  1.97164226e-07  5.40000000e-01 
 5.50000000e-01  3.27369940e-09  4.59809643e-01  4.59809643e-01  4.59809643e-01  4.59809643e-01  4.59809643e-01  4.59809643e-01  1.60618115e-07  1.97164173e-07  5.50000000e-01 
 5.60000000e-01  3.27369940e-09  4.59809644e-01  4.59809644e-01  4.59809644e-01  4.59809644e-01  4.59809644e-01  4.59809644e-01  1.60618112e-07  1.97163875e-07  5.60000000e-01 
 5.70000000e-01  3.27369940e-09  4.59809626e-01  4.59809626e-01  4.59809626e-01  4.59809626e-01  4.59809626e-01  4.59809626e-01  1.60618080e-07  1.97163686e-07  5.70000000e-01 
 5.80000000e-01  3.27369940e-09  4.59809608e-01  4.59809608e-01  4.59809608e-01  4.59809608e-01  4.59809608e-01  4.59809608e-01  1.60618057e-07  1.97163466e-07  5.80000000e-01 
 5.90000000e-01  3.27369940e-09  4.59809655e-01  4.59809656e-01  4.59809656e-01  4.59809656e-01  4.59809655e-01  4.59809655e-01  1.60618115e-07  1.97163494e-07  5.90000000e-01 
 6.00000000e-01  3.27369940e-09  4.59809676e-01  4.59809676e-01  4.59809676e-01  4.59809676e-01  4.59809676e-01  4.59809676e-01  1.60618170e-07  1.97163430e-07  6.00000000e-01 
 6.10000000e-01  3.27369940e-09  4.59809646e-01  4.59809647e-01  4.59809647e-01  4.59809647e-01  4.59809646e-01  4.59809646e-01  1.60618119e-07  1.97163075e-07  6.10000000e-01 
 6.20000000e-01  3.27369940e-09  4.59809657e-01  4.59809657e-01  4.59809657e-01  4.59809657e-01  4.59809657e-01  4.59809657e-01  1.60618130e-07  1.97163061e-07  6.20000000e-01 
 6.30000000e-01  3.27369940e-09  4.59809623e-01  4.59809623e-01  4.59809623e-01  4.59809623e-01  4.59809623e-01  4.59809623e-01  1.60618074e-07  1.97162713e-07  6.30000000e-01 
 6.40000000e-01  3.27369940e-09  4.59809637e-01  4.59809637e-01  4.59809637e-01  4.59809637e-01  4.59809637e-01  4.59809637e-01  1.60618102e-07  1.97162542e-07  6.40000000e-01 
 6.50000000e-01  3.27369940e-09  4.59809636e-01  4.59809636e-01  4.59809636e-01  4.59809636e-01  4.59809636e-01  4.59809636e-01  1.60618100e-07  1.97162422e-07  6.50000000e-01 
 6.60000000e-01  3.27369940e-09  4.59809641e-01  4.59809641e-01  4.59809641e-01  4.59809641e-01  4.59809641e-01  4.59809641e-01  1.60618105e-07  1.97162315e-07  6.60000000e-01 
 6.70000000e-01  3.27369940e-09  4.59809650e-01  4.59809650e-01  4.59809650e-01  4.59809650e-01  4.59809650e-01  4.59809650e-01  1.60618101e-07  1.97162073e-07  6.70000000e-01 
 6.80000000e-01  3.27369940e-09  4.59809622e-01  4.59809622e-01  4.59809622e-01  4.59809622e-01  4.59809622e-01  4.59809622e-01  1.60618078e-07  1.97161825e-07  6.80000000e-01 
 6.90000000e-01  3.27369940e-09  4.59809657e-01  4.59809657e-01  4.59809657e-01  4.59809657e-01  4.59809657e-01  4.59809657e-01  1.60618124e-07  1.97161775e-07  6.90000000e-01 
 7.00000000e-01  3.27369940e-09  4.59809659e-01  4.59809659e-01  4.59809659e-01  4.59809659e-01  4.59809659e-01  4.59809659e-01  1.60618134e-07  1.97161661e-07  7.00000000e-01 
 7.10000000e-01  3.27369940e-09  4.59809623e-01  4.59809623e-01  4.59809623e-01  4.59809623e-01  4.59809623e-01  4.59809623e-01  1.60618085e-07  1.97161242e-07  7.10000000e-01 
 7.20000000e-01  3.27369940e-09  4.59809640e-01  4.59809640e-01  4.59809640e-01  4.59809640e-01  4.59809640e-01  4.59809640e-01  1.60618104e-07  1.97161192e-07  7.20000000e-01 
 7.30000000e-01  3.27369940e-09  4.59809640e-01  4.59809640e-01  4.59809640e-01  4.59809640e-01  4.59809640e-01  4.59809640e-01  1.60618102e-07  1.97161050e-07  7.30000000e-01 
 7.40000000e-01  3.27369940e-09  4.59809623e-01  4.59809624e-01  4.59809623e-01  4.59809624e-01  4.59809623e-01  4.59809623e-01  1.60618085e-07  1.97160951e-07  7.40000000e-01 
 7.50000000e-01  3.27369940e-09  4.59809638e-01  4.59809638e-01  4.59809638e-01  4.59809638e-01  4.59809638e-01  4.59809638e-01  1.60618102e-07  1.97160745e-07  7.50000000e-01 
 7.60000000e-01  3.27369940e-09  4.59809657e-01  4.59809657e-01  4.59809657e-01  4.59809657e-01  4.59809657e-01  4.59809657e-01  1.60618133e-07  1.97160695e-07  7.60000000e-01 
 7.70000000e-01  3.27369940e-09  4.59809628e-01  4.59809628e-01  4.59809628e-01  4.59809628e-01  4.59809628e-01  4.59809628e-01  1.60618081e-07  1.97160325e-07  7.70000000e-01 
 7.80000000e-01  3.27369940e-09  4.59809632e-01  4.59809632e-01  4.59809632e-01  4.59809632e-01  4.59809632e-01  4.59809632e-01  1.60618103e-07  1.97160176e-07  7.80000000e-01 
 7.90000000e-01  3.27369940e-09  4.59809627e-01  4.59809627e-01  4.59809627e-01  4.59809627e-01  4.59809627e-01  4.59809627e-01  1.60618084e-07  1.97160020e-07  7.90000000e-01 
 8.00000000e-01  3.27369940e-09  4.59809636e-01  4.59809636e-01  4.59809636e-01  4.59809636e-01  4.59809636e-01  4.59809636e-01  1.60618098e-07  1.97159771e-07  8.00000000e-01 
 8.10000000e-01  3.27369940e-09  4.59809634e-01  4.59809634e-01  4.59809634e-01  4.59809634e-01  4.59809634e-01  4.59809634e-01  1.60618093e-07  1.97159530e-07  8.10000000e-01 
 8.20000000e-01  3.27369940e-09  4.59809644e-01  4.59809644e-01  4.59809644e-01  4.59809644e-01  4.59809644e-01  4.59809644e-01  1.60618110e-07  1.97159487e-07  8.20000000e-01 
 8.30000000e-01  3.27369940e-09  4.59809642e-01  4.59809642e-01  4.59809642e-01  4.59809642e-01  4.59809642e-01  4.59809642e-01  1.60618108e-07  1.97159274e-07  8.30000000e-01 
 8.40000000e-01  3.27369940e-09  4.59809627e-01  4.59809628e-01  4.59809628e-01  4.59809628e-01  4.59809627e-01  4.59809627e-01  1.60618094e-07  1.97159032e-07  8.40000000e-01 
 8.50000000e-01  3.27369940e-09  4.59809653e-01  4.59809653e-01  4.59809653e-01  4.59809653e-01  4.59809653e-01  4.59809653e-01  1.60618118e-07  1.97158990e-07  8.50000000e-01 
 8.60000000e-01  3.27369940e-09  4.59809641e-01  4.59809642e-01  4.59809642e-01  4.59809642e-01  4.59809641e-01  4.59809641e-01  1.60618122e-07  1.97158755e-07  8.60000000e-01 
 8.70000000e-01  3.27369940e-09  4.59809635e-01  4.59809635e-01  4.59809635e-01  4.59809635e-01  4.59809635e-01  4.59809635e-01  1.60618094e-07  1.97158514e-07  8.70000000e-01 
 8.80000000e-01  3.27369940e-09  4.59809618e-01  4.59809618e-01  4.59809618e-01  4.59809618e-01  4.59809618e-01  4.59809617e-01  1.60618080e-07  1.97158208e-07  8.80000000e-01 
 8.90000000e-01  3.27369940e-09  4.59809636e-01  4.59809636e-01  4.59809636e-01  4.59809636e-01  4.59809636e-01  4.59809636e-01  1.60618097e-07  1.97158151e-07  8.90000000e-01 
 9.00000000e-01  3.27369940e-09  4.59809633e-01  4.59809633e-01  4.59809633e-01  4.59809633e-01  4.59809633e-01  4.59809633e-01  1.60618101e-07  1.97157952e-07  9.00000000e-01 
 9.10000000e-01  3.27369940e-09  4.59809621e-01  4.59809622e-01  4.59809621e-01  4.59809622e-01  4.59809621e-01  4.59809621e-01  1.60618075e-07  1.97157696e-07  9.10000000e-01 
 9.20000000e-01  3.27369940e-09  4.59809640e-01  4.59809640e-01  4.59809640e-01  4.59809640e-01  4.59809640e-01  4.59809640e-01  1.60618110e-07  1.97157696e-07  9.20000000e-01 
 9.30000000e-01  3.27369940e-09  4.59809625e-01  4.59809625e-01  4.59809625e-01  4.59809625e-01  4.59809625e-01  4.59809625e-01  1.60618093e-07  1.97157320e-07  9.30000000e-01 
 9.40000000e-01  3.27369940e-09  4.59809643e-01  4.59809643e-01  4.59809643e-01  4.59809643e-01  4.59809643e-01  4.59809643e-01  1.60618103e-07  1.97157163e-07  9.40000000e-01 
 9.50000000e-01  3.27369934e-09  4.59809629e-01  4.59809629e-01  4.59809629e-01  4.59809629e-01  4.59809629e-01  4.59809629e-01  1.60618092e-07  1.97156936e-07  9.50000000e-01 
 9.60000000e-01  3.27369940e-09  4.59809639e-01  4.59809639e-01  4.59809639e-01  4.59809639e-01  4.59809639e-01  4.59809639e-01  1.60618115e-07  1.97156851e-07  9.60000000e-01 
 9.70000000e-01  3.27369940e-09  4.59809654e-01  4.59809654e-01  4.59809654e-01  4.59809654e-01  4.59809654e-01  4.59809654e-01  1.60618121e-07  1.97156659e-07  9.70000000e-01 
 9.80000000e-01  3.27369940e-09  4.59809647e-01  4.59809647e-01  4.59809647e-01  4.59809647e-01  4.59809647e-01  4.59809647e-01  1.60618113e-07  1.97156425e-07  9.80000000e-01 
 9.90000000e-01  3.27369940e-09  4.59809644e-01  4.59809644e-01  4.59809644e-01  4.59809644e-01  4.59809644e-01  4.59809644e-01  1.60618105e-07  1.97156282e-07  9.90000000e-01 
 1.00000000e+00  3.27369940e-09  4.59809624e-01  4.59809624e-01  4.59809624e-01  4.59809624e-01  4.59809624e-01  4.59809624e-01  1.60618093e-07  1.97155913e-07  1.00000000e+00 
 1.01000000e+00  3.27369940e-09  4.59809672e-01  4.59809672e-01  4.59809672e-01  4.59809672e-01  4.59809672e-01  4.59809672e-01  1.60618154e-07  1.97155906e-07  1.01000000e+00 
 1.02000000e+00  3.27369940e-09  4.59809643e-01  4.59809643e-01  4.59809643e-01  4.59809643e-01  4.59809643e-01  4.59809643e-01  1.60618119e-07  1.97155593e-07  1.02000000e+00 
 1.03000000e+00  3.27369940e-09  4.59809637e-01  4.59809637e-01  4.59809637e-01  4.59809637e-01  4.59809637e-01  4.59809637e-01  1.60618102e-07  1.97155288e-07  1.03000000e+00 
 1.04000000e+00  3.27369940e-09  4.59809648e-01  4.59809648e-01  4.59809648e-01  4.59809648e-01  4.59809648e-01  4.59809648e-01  1.60618111e-07  1.97155174e-07  1.04000000e+00 
 1.05000000e+00  3.27369940e-09  4.59809645e-01  4.59809645e-01  4.59809645e-01  4.59809645e-01  4.59809645e-01  4.59809645e-01  1.60618102e-07  1.97154883e-07  1.05000000e+00 
 1.06000000e+00  3.27369940e-09  4.59809625e-01  4.59809625e-01  4.59809625e-01  4.59809625e-01  4.59809625e-01  4.59809625e-01  1.60618078e-07  1.97154556e-07  1.06000000e+00 
 1.07000000e+00  3.27369940e-09  4.59809660e-01  4.59809660e-01  4.59809660e-01  4.59809660e-01  4.59809660e-01  4.59809660e-01  1.60618120e-07  1.97154556e-07  1.07000000e+00 
 1.08000000e+00  3.27369940e-09  4.59809654e-01  4.59809654e-01  4.59809654e-01  4.59809654e-01  4.59809654e-01  4.59809654e-01  1.60618133e-07  1.97154165e-07  1.08000000e+00 
 1.09000000e+00  3.27369940e-09  4.59809673e-01  4.59809674e-01  4.59809673e-01  4.59809674e-01  4.59809673e-01  4.59809673e-01  1.60618162e-07  1.97154137e-07  1.09000000e+00 
 1.10000000e+00  3.27369940e-09  4.59809659e-01  4.59809659e-01  4.59809659e-01  4.59809659e-01  4.59809659e-01  4.59809659e-01  1.60618133e-07  1.97153760e-07  1.10000000e+00 
