 v-sweep         v(b0)           v(b1)           v(b2)           v(b3)           v(b4)           v(b5)           v(b6)           i(vbias)        i(viout)        v(vout)        
 0.00000000e+00  3.33582382e-09  4.57855442e-01  4.57855442e-01  4.57855441e-01  4.57855442e-01  3.35147638e-09  4.57855442e-01  1.57769154e-07  1.44086985e-07  0.00000000e+00 
 1.00000000e-02  3.33582386e-09  4.57855466e-01  4.57855466e-01  4.57855465e-01  4.57855466e-01  3.35147642e-09  4.57855466e-01  1.57769188e-07  1.44086711e-07  1.00000000e-02 
 2.00000000e-02  3.33582386e-09  4.57855442e-01  4.57855442e-01  4.57855441e-01  4.57855442e-01  3.35147636e-09  4.57855442e-01  1.57769151e-07  1.44086046e-07  2.00000000e-02 
 3.00000000e-02  3.33582386e-09  4.57855449e-01  4.57855449e-01  4.57855449e-01  4.57855449e-01  3.35147642e-09  4.57855449e-01  1.57769160e-07  1.44085772e-07  3.00000000e-02 
 4.00000000e-02  3.33582386e-09  4.57855451e-01  4.57855451e-01  4.57855450e-01  4.57855451e-01  3.35147642e-09  4.57855451e-01  1.57769163e-07  1.44085365e-07  4.00000000e-02 
 5.00000000e-02  3.33582385e-09  4.57855433e-01  4.57855433e-01  4.57855432e-01  4.57855433e-01  3.35147642e-09  4.57855433e-01  1.57769136e-07  1.44084977e-07  5.00000000e-02 
 6.00000000e-02  3.33582385e-09  4.57855437e-01  4.57855437e-01  4.57855437e-01  4.57855437e-01  3.35147636e-09  4.57855437e-01  1.57769139e-07  1.44084632e-07  6.00000000e-02 
 7.00000000e-02  3.33582385e-09  4.57855419e-01  4.57855419e-01  4.57855418e-01  4.57855419e-01  3.35147642e-09  4.57855418e-01  1.57769109e-07  1.44084219e-07  7.00000000e-02 
 8.00000000e-02  3.33582386e-09  4.57855448e-01  4.57855448e-01  4.57855448e-01  4.57855448e-01  3.35147636e-09  4.57855448e-01  1.57769153e-07  1.44083995e-07  8.00000000e-02 
 9.00000000e-02  3.33582385e-09  4.57855438e-01  4.57855438e-01  4.57855438e-01  4.57855438e-01  3.35147636e-09  4.57855438e-01  1.57769141e-07  1.44083676e-07  9.00000000e-02 
 1.00000000e-01  3.33582386e-09  4.57855442e-01  4.57855442e-01  4.57855442e-01  4.57855442e-01  3.35147636e-09  4.57855442e-01  1.57769139e-07  1.44083378e-07  1.00000000e-01 
 1.10000000e-01  3.33582386e-09  4.57855454e-01  4.57855454e-01  4.57855454e-01  4.57855454e-01  3.35147636e-09  4.57855454e-01  1.57769158e-07  1.44083114e-07  1.10000000e-01 
 1.20000000e-01  3.33582385e-09  4.57855435e-01  4.57855435e-01  4.57855435e-01  4.57855435e-01  3.35147642e-09  4.57855435e-01  1.57769139e-07  1.44082858e-07  1.20000000e-01 
 1.30000000e-01  3.33582385e-09  4.57855419e-01  4.57855419e-01  4.57855419e-01  4.57855419e-01  3.35147642e-09  4.57855419e-01  1.57769118e-07  1.44082338e-07  1.30000000e-01 
 1.40000000e-01  3.33582386e-09  4.57855444e-01  4.57855444e-01  4.57855444e-01  4.57855444e-01  3.35147642e-09  4.57855444e-01  1.57769154e-07  1.44082360e-07  1.40000000e-01 
 1.50000000e-01  3.33582385e-09  4.57855436e-01  4.57855436e-01  4.57855435e-01  4.57855436e-01  3.35147636e-09  4.57855436e-01  1.57769141e-07  1.44082046e-07  1.50000000e-01 
 1.60000000e-01  3.33582385e-09  4.57855407e-01  4.57855407e-01  4.57855407e-01  4.57855407e-01  3.35147642e-09  4.57855407e-01  1.57769084e-07  1.44081783e-07  1.60000000e-01 
 1.70000000e-01  3.33582386e-09  4.57855462e-01  4.57855462e-01  4.57855462e-01  4.57855462e-01  3.35147642e-09  4.57855462e-01  1.57769179e-07  1.44081767e-07  1.70000000e-01 
 1.80000000e-01  3.33582385e-09  4.57855435e-01  4.57855435e-01  4.57855435e-01  4.57855435e-01  3.35147642e-09  4.57855435e-01  1.57769144e-07  1.44081442e-07  1.80000000e-01 
 1.90000000e-01  3.33582385e-09  4.57855419e-01  4.57855419e-01  4.57855418e-01  4.57855419e-01  3.35147642e-09  4.57855419e-01  1.57769116e-07  1.44081213e-07  1.90000000e-01 
 2.00000000e-01  3.33582386e-09  4.57855444e-01  4.57855444e-01  4.57855444e-01  4.57855444e-01  3.35147642e-09  4.57855444e-01  1.57769155e-07  1.44081033e-07  2.00000000e-01 
 2.10000000e-01  3.33582385e-09  4.57855432e-01  4.57855432e-01  4.57855432e-01  4.57855432e-01  3.35147636e-09  4.57855432e-01  1.57769141e-07  1.44080774e-07  2.10000000e-01 
 2.20000000e-01  3.33582385e-09  4.57855414e-01  4.57855414e-01  4.57855414e-01  4.57855414e-01  3.35147642e-09  4.57855414e-01  1.57769104e-07  1.44080644e-07  2.20000000e-01 
 2.30000000e-01  3.33582385e-09  4.57855436e-01  4.57855436e-01  4.57855436e-01  4.57855436e-01  3.35147642e-09  4.57855436e-01  1.57769147e-07  1.44080488e-07  2.30000000e-01 
 2.40000000e-01  3.33582385e-09  4.57855425e-01  4.57855425e-01  4.57855424e-01  4.57855425e-01  3.35147642e-09  4.57855425e-01  1.57769124e-07  1.44080214e-07  2.40000000e-01 
 2.50000000e-01  3.33582385e-09  4.57855430e-01  4.57855430e-01  4.57855430e-01  4.57855430e-01  3.35147642e-09  4.57855430e-01  1.57769127e-07  1.44080101e-07  2.50000000e-01 
 2.60000000e-01  3.33582385e-09  4.57855416e-01  4.57855416e-01  4.57855416e-01  4.57855416e-01  3.35147636e-09  4.57855416e-01  1.57769114e-07  1.44079907e-07  2.60000000e-01 
 2.70000000e-01  3.33582385e-09  4.57855432e-01  4.57855432e-01  4.57855431e-01  4.57855432e-01  3.35147642e-09  4.57855432e-01  1.57769145e-07  1.44079774e-07  2.70000000e-01 
 2.80000000e-01  3.33582386e-09  4.57855441e-01  4.57855441e-01  4.57855441e-01  4.57855441e-01  3.35147636e-09  4.57855441e-01  1.57769145e-07  1.44079655e-07  2.80000000e-01 
 2.90000000e-01  3.33582385e-09  4.57855429e-01  4.57855429e-01  4.57855429e-01  4.57855429e-01  3.35147642e-09  4.57855429e-01  1.57769127e-07  1.44079507e-07  2.90000000e-01 
 3.00000000e-01  3.33582386e-09  4.57855447e-01  4.57855447e-01  4.57855446e-01  4.57855447e-01  3.35147642e-09  4.57855447e-01  1.57769167e-07  1.44079419e-07  3.00000000e-01 
 3.10000000e-01  3.33582385e-09  4.57855406e-01  4.57855406e-01  4.57855406e-01  4.57855406e-01  3.35147642e-09  4.57855406e-01  1.57769100e-07  1.44079106e-07  3.10000000e-01 
 3.20000000e-01  3.33582386e-09  4.57855443e-01  4.57855443e-01  4.57855443e-01  4.57855443e-01  3.35147642e-09  4.57855443e-01  1.57769161e-07  1.44079205e-07  3.20000000e-01 
 3.30000000e-01  3.33582386e-09  4.57855444e-01  4.57855444e-01  4.57855444e-01  4.57855444e-01  3.35147642e-09  4.57855444e-01  1.57769158e-07  1.44078985e-07  3.30000000e-01 
 3.40000000e-01  3.33582386e-09  4.57855449e-01  4.57855449e-01  4.57855449e-01  4.57855449e-01  3.35147636e-09  4.57855449e-01  1.57769164e-07  1.44078907e-07  3.40000000e-01 
 3.50000000e-01  3.33582385e-09  4.57855433e-01  4.57855433e-01  4.57855433e-01  4.57855433e-01  3.35147642e-09  4.57855433e-01  1.57769140e-07  1.44078733e-07  3.50000000e-01 
 3.60000000e-01  3.33582386e-09  4.57855448e-01  4.57855448e-01  4.57855447e-01  4.57855448e-01  3.35147642e-09  4.57855448e-01  1.57769167e-07  1.44078623e-07  3.60000000e-01 
 3.70000000e-01  3.33582385e-09  4.57855429e-01  4.57855429e-01  4.57855429e-01  4.57855429e-01  3.35147642e-09  4.57855429e-01  1.57769134e-07  1.44078562e-07  3.70000000e-01 
 3.80000000e-01  3.33582386e-09  4.57855447e-01  4.57855447e-01  4.57855447e-01  4.57855447e-01  3.35147642e-09  4.57855447e-01  1.57769149e-07  1.44078424e-07  3.80000000e-01 
 3.90000000e-01  3.33582386e-09  4.57855445e-01  4.57855445e-01  4.57855445e-01  4.57855445e-01  3.35147642e-09  4.57855445e-01  1.57769156e-07  1.44078346e-07  3.90000000e-01 
 4.00000000e-01  3.33582386e-09  4.57855442e-01  4.57855442e-01  4.57855442e-01  4.57855442e-01  3.35147642e-09  4.57855442e-01  1.57769134e-07  1.44078175e-07  4.00000000e-01 
 4.10000000e-01  3.33582385e-09  4.57855434e-01  4.57855434e-01  4.57855434e-01  4.57855434e-01  3.35147636e-09  4.57855434e-01  1.57769141e-07  1.44078047e-07  4.10000000e-01 
 4.20000000e-01  3.33582385e-09  4.57855423e-01  4.57855423e-01  4.57855423e-01  4.57855423e-01  3.35147642e-09  4.57855423e-01  1.57769131e-07  1.44078030e-07  4.20000000e-01 
 4.30000000e-01  3.33582385e-09  4.57855423e-01  4.57855423e-01  4.57855422e-01  4.57855423e-01  3.35147642e-09  4.57855423e-01  1.57769117e-07  1.44077720e-07  4.30000000e-01 
 4.40000000e-01  3.33582386e-09  4.57855455e-01  4.57855455e-01  4.57855454e-01  4.57855455e-01  3.35147642e-09  4.57855455e-01  1.57769175e-07  1.44077834e-07  4.40000000e-01 
 4.50000000e-01  3.33582386e-09  4.57855442e-01  4.57855442e-01  4.57855442e-01  4.57855442e-01  3.35147636e-09  4.57855442e-01  1.57769149e-07  1.44077664e-07  4.50000000e-01 
 4.60000000e-01  3.33582385e-09  4.57855429e-01  4.57855429e-01  4.57855429e-01  4.57855429e-01  3.35147642e-09  4.57855429e-01  1.57769122e-07  1.44077461e-07  4.60000000e-01 
 4.70000000e-01  3.33582386e-09  4.57855467e-01  4.57855467e-01  4.57855466e-01  4.57855467e-01  3.35147642e-09  4.57855467e-01  1.57769184e-07  1.44077344e-07  4.70000000e-01 
 4.80000000e-01  3.33582385e-09  4.57855429e-01  4.57855429e-01  4.57855428e-01  4.57855429e-01  3.35147636e-09  4.57855429e-01  1.57769132e-07  1.44077198e-07  4.80000000e-01 
 4.90000000e-01  3.33582391e-09  4.57855464e-01  4.57855464e-01  4.57855464e-01  4.57855464e-01  3.35147642e-09  4.57855464e-01  1.57769168e-07  1.44077333e-07  4.90000000e-01 
 5.00000000e-01  3.33582386e-09  4.57855448e-01  4.57855449e-01  4.57855448e-01  4.57855448e-01  3.35147642e-09  4.57855448e-01  1.57769158e-07  1.44077099e-07  5.00000000e-01 
 5.10000000e-01  3.33582385e-09  4.57855432e-01  4.57855432e-01  4.57855432e-01  4.57855432e-01  3.35147636e-09  4.57855432e-01  1.57769127e-07  1.44077074e-07  5.10000000e-01 
 5.20000000e-01  3.33582386e-09  4.57855441e-01  4.57855441e-01  4.57855441e-01  4.57855441e-01  3.35147642e-09  4.57855441e-01  1.57769146e-07  1.44076981e-07  5.20000000e-01 
 5.30000000e-01  3.33582385e-09  4.57855431e-01  4.57855431e-01  4.57855431e-01  4.57855431e-01  3.35147642e-09  4.57855431e-01  1.57769132e-07  1.44076761e-07  5.30000000e-01 
 5.40000000e-01  3.33582386e-09  4.57855445e-01  4.57855445e-01  4.57855445e-01  4.57855445e-01  3.35147642e-09  4.57855445e-01  1.57769148e-07  1.44076825e-07  5.40000000e-01 
 5.50000000e-01  3.33582386e-09  4.57855447e-01  4.57855447e-01  4.57855447e-01  4.57855447e-01  3.35147642e-09  4.57855447e-01  1.57769160e-07  1.44076616e-07  5.50000000e-01 
 5.60000000e-01  3.33582386e-09  4.57855459e-01  4.57855459e-01  4.57855459e-01  4.57855459e-01  3.35147642e-09  4.57855459e-01  1.57769175e-07  1.44076651e-07  5.60000000e-01 
 5.70000000e-01  3.33582385e-09  4.57855430e-01  4.57855430e-01  4.57855430e-01  4.57855430e-01  3.35147642e-09  4.57855430e-01  1.57769124e-07  1.44076353e-07  5.70000000e-01 
 5.80000000e-01  3.33582385e-09  4.57855440e-01  4.57855440e-01  4.57855440e-01  4.57855440e-01  3.35147642e-09  4.57855440e-01  1.57769139e-07  1.44076338e-07  5.80000000e-01 
 5.90000000e-01  3.33582385e-09  4.57855440e-01  4.57855440e-01  4.57855439e-01  4.57855440e-01  3.35147642e-09  4.57855440e-01  1.57769142e-07  1.44076211e-07  5.90000000e-01 
 6.00000000e-01  3.33582385e-09  4.57855431e-01  4.57855431e-01  4.57855431e-01  4.57855431e-01  3.35147642e-09  4.57855431e-01  1.57769125e-07  1.44076104e-07  6.00000000e-01 
 6.10000000e-01  3.33582386e-09  4.57855451e-01  4.57855451e-01  4.57855451e-01  4.57855451e-01  3.35147642e-09  4.57855451e-01  1.57769162e-07  1.44076061e-07  6.10000000e-01 
 6.20000000e-01  3.33582385e-09  4.57855432e-01  4.57855432e-01  4.57855432e-01  4.57855432e-01  3.35147642e-09  4.57855432e-01  1.57769134e-07  1.44076019e-07  6.20000000e-01 
 6.30000000e-01  3.33582385e-09  4.57855437e-01  4.57855437e-01  4.57855437e-01  4.57855437e-01  3.35147642e-09  4.57855437e-01  1.57769136e-07  1.44075841e-07  6.30000000e-01 
 6.40000000e-01  3.33582385e-09  4.57855431e-01  4.57855431e-01  4.57855431e-01  4.57855431e-01  3.35147642e-09  4.57855431e-01  1.57769134e-07  1.44075692e-07  6.40000000e-01 
 6.50000000e-01  3.33582386e-09  4.57855450e-01  4.57855450e-01  4.57855450e-01  4.57855450e-01  3.35147642e-09  4.57855450e-01  1.57769167e-07  1.44075671e-07  6.50000000e-01 
 6.60000000e-01  3.33582385e-09  4.57855430e-01  4.57855430e-01  4.57855430e-01  4.57855430e-01  3.35147636e-09  4.57855430e-01  1.57769146e-07  1.44075379e-07  6.60000000e-01 
 6.70000000e-01  3.33582385e-09  4.57855426e-01  4.57855426e-01  4.57855426e-01  4.57855426e-01  3.35147636e-09  4.57855426e-01  1.57769132e-07  1.44075365e-07  6.70000000e-01 
 6.80000000e-01  3.33582385e-09  4.57855437e-01  4.57855437e-01  4.57855437e-01  4.57855437e-01  3.35147642e-09  4.57855437e-01  1.57769133e-07  1.44075287e-07  6.80000000e-01 
 6.90000000e-01  3.33582386e-09  4.57855443e-01  4.57855443e-01  4.57855443e-01  4.57855443e-01  3.35147642e-09  4.57855443e-01  1.57769153e-07  1.44075301e-07  6.90000000e-01 
 7.00000000e-01  3.33582386e-09  4.57855447e-01  4.57855447e-01  4.57855446e-01  4.57855447e-01  3.35147642e-09  4.57855447e-01  1.57769158e-07  1.44075095e-07  7.00000000e-01 
 7.10000000e-01  3.33582386e-09  4.57855447e-01  4.57855447e-01  4.57855446e-01  4.57855447e-01  3.35147636e-09  4.57855447e-01  1.57769136e-07  1.44075010e-07  7.10000000e-01 
 7.20000000e-01  3.33582386e-09  4.57855454e-01  4.57855454e-01  4.57855454e-01  4.57855454e-01  3.35147642e-09  4.57855454e-01  1.57769166e-07  1.44074853e-07  7.20000000e-01 
 7.30000000e-01  3.33582386e-09  4.57855445e-01  4.57855445e-01  4.57855445e-01  4.57855445e-01  3.35147642e-09  4.57855445e-01  1.57769161e-07  1.44074839e-07  7.30000000e-01 
 7.40000000e-01  3.33582386e-09  4.57855459e-01  4.57855459e-01  4.57855459e-01  4.57855459e-01  3.35147642e-09  4.57855459e-01  1.57769173e-07  1.44074718e-07  7.40000000e-01 
 7.50000000e-01  3.33582385e-09  4.57855432e-01  4.57855432e-01  4.57855432e-01  4.57855432e-01  3.35147642e-09  4.57855432e-01  1.57769124e-07  1.44074647e-07  7.50000000e-01 
 7.60000000e-01  3.33582391e-09  4.57855430e-01  4.57855430e-01  4.57855429e-01  4.57855430e-01  3.35147642e-09  4.57855430e-01  1.57769125e-07  1.44074555e-07  7.60000000e-01 
 7.70000000e-01  3.33582385e-09  4.57855428e-01  4.57855428e-01  4.57855428e-01  4.57855428e-01  3.35147642e-09  4.57855428e-01  1.57769113e-07  1.44074384e-07  7.70000000e-01 
 7.80000000e-01  3.33582386e-09  4.57855441e-01  4.57855441e-01  4.57855441e-01  4.57855441e-01  3.35147636e-09  4.57855441e-01  1.57769155e-07  1.44074278e-07  7.80000000e-01 
 7.90000000e-01  3.33582386e-09  4.57855456e-01  4.57855456e-01  4.57855456e-01  4.57855456e-01  3.35147637e-09  4.57855456e-01  1.57769179e-07  1.44074328e-07  7.90000000e-01 
 8.00000000e-01  3.33582385e-09  4.57855426e-01  4.57855426e-01  4.57855426e-01  4.57855426e-01  3.35147642e-09  4.57855426e-01  1.57769123e-07  1.44074129e-07  8.00000000e-01 
 8.10000000e-01  3.33582385e-09  4.57855439e-01  4.57855439e-01  4.57855439e-01  4.57855439e-01  3.35147636e-09  4.57855439e-01  1.57769150e-07  1.44074079e-07  8.10000000e-01 
 8.20000000e-01  3.33582386e-09  4.57855445e-01  4.57855445e-01  4.57855445e-01  4.57855445e-01  3.35147642e-09  4.57855445e-01  1.57769151e-07  1.44073873e-07  8.20000000e-01 
 8.30000000e-01  3.33582385e-09  4.57855407e-01  4.57855407e-01  4.57855407e-01  4.57855407e-01  3.35147636e-09  4.57855407e-01  1.57769084e-07  1.44073773e-07  8.30000000e-01 
 8.40000000e-01  3.33582385e-09  4.57855428e-01  4.57855428e-01  4.57855428e-01  4.57855428e-01  3.35147642e-09  4.57855428e-01  1.57769138e-07  1.44073709e-07  8.40000000e-01 
 8.50000000e-01  3.33582385e-09  4.57855430e-01  4.57855430e-01  4.57855430e-01  4.57855430e-01  3.35147636e-09  4.57855430e-01  1.57769135e-07  1.44073603e-07  8.50000000e-01 
 8.60000000e-01  3.33582385e-09  4.57855422e-01  4.57855423e-01  4.57855422e-01  4.57855423e-01  3.35147642e-09  4.57855422e-01  1.57769113e-07  1.44073503e-07  8.60000000e-01 
 8.70000000e-01  3.33582386e-09  4.57855441e-01  4.57855441e-01  4.57855441e-01  4.57855441e-01  3.35147636e-09  4.57855441e-01  1.57769152e-07  1.44073539e-07  8.70000000e-01 
 8.80000000e-01  3.33582386e-09  4.57855445e-01  4.57855445e-01  4.57855445e-01  4.57855445e-01  3.35147642e-09  4.57855445e-01  1.57769150e-07  1.44073262e-07  8.80000000e-01 
 8.90000000e-01  3.33582386e-09  4.57855453e-01  4.57855453e-01  4.57855452e-01  4.57855453e-01  3.35147642e-09  4.57855453e-01  1.57769161e-07  1.44073297e-07  8.90000000e-01 
 9.00000000e-01  3.33582386e-09  4.57855446e-01  4.57855446e-01  4.57855446e-01  4.57855446e-01  3.35147642e-09  4.57855446e-01  1.57769149e-07  1.44073127e-07  9.00000000e-01 
 9.10000000e-01  3.33582385e-09  4.57855437e-01  4.57855437e-01  4.57855437e-01  4.57855437e-01  3.35147642e-09  4.57855437e-01  1.57769133e-07  1.44073127e-07  9.10000000e-01 
 9.20000000e-01  3.33582385e-09  4.57855423e-01  4.57855423e-01  4.57855423e-01  4.57855423e-01  3.35147642e-09  4.57855423e-01  1.57769119e-07  1.44072864e-07  9.20000000e-01 
 9.30000000e-01  3.33582386e-09  4.57855448e-01  4.57855448e-01  4.57855447e-01  4.57855448e-01  3.35147642e-09  4.57855448e-01  1.57769148e-07  1.44072750e-07  9.30000000e-01 
 9.40000000e-01  3.33582385e-09  4.57855426e-01  4.57855426e-01  4.57855426e-01  4.57855426e-01  3.35147642e-09  4.57855426e-01  1.57769131e-07  1.44072644e-07  9.40000000e-01 
 9.50000000e-01  3.33582385e-09  4.57855437e-01  4.57855437e-01  4.57855437e-01  4.57855437e-01  3.35147642e-09  4.57855437e-01  1.57769128e-07  1.44072487e-07  9.50000000e-01 
 9.60000000e-01  3.33582385e-09  4.57855422e-01  4.57855422e-01  4.57855422e-01  4.57855422e-01  3.35147642e-09  4.57855422e-01  1.57769126e-07  1.44072253e-07  9.60000000e-01 
 9.70000000e-01  3.33582385e-09  4.57855437e-01  4.57855437e-01  4.57855437e-01  4.57855437e-01  3.35147636e-09  4.57855437e-01  1.57769139e-07  1.44072345e-07  9.70000000e-01 
 9.80000000e-01  3.33582386e-09  4.57855461e-01  4.57855461e-01  4.57855460e-01  4.57855461e-01  3.35147642e-09  4.57855461e-01  1.57769172e-07  1.44072224e-07  9.80000000e-01 
 9.90000000e-01  3.33582385e-09  4.57855434e-01  4.57855434e-01  4.57855434e-01  4.57855434e-01  3.35147642e-09  4.57855434e-01  1.57769146e-07  1.44072139e-07  9.90000000e-01 
 1.00000000e+00  3.33582386e-09  4.57855440e-01  4.57855440e-01  4.57855440e-01  4.57855440e-01  3.35147642e-09  4.57855440e-01  1.57769148e-07  1.44071841e-07  1.00000000e+00 
 1.01000000e+00  3.33582385e-09  4.57855419e-01  4.57855419e-01  4.57855419e-01  4.57855419e-01  3.35147642e-09  4.57855419e-01  1.57769118e-07  1.44071855e-07  1.01000000e+00 
 1.02000000e+00  3.33582386e-09  4.57855464e-01  4.57855464e-01  4.57855464e-01  4.57855464e-01  3.35147642e-09  4.57855464e-01  1.57769191e-07  1.44071805e-07  1.02000000e+00 
 1.03000000e+00  3.33582385e-09  4.57855436e-01  4.57855436e-01  4.57855436e-01  4.57855436e-01  3.35147642e-09  4.57855436e-01  1.57769148e-07  1.44071571e-07  1.03000000e+00 
 1.04000000e+00  3.33582386e-09  4.57855467e-01  4.57855467e-01  4.57855467e-01  4.57855467e-01  3.35147642e-09  4.57855467e-01  1.57769183e-07  1.44071578e-07  1.04000000e+00 
 1.05000000e+00  3.33582385e-09  4.57855435e-01  4.57855435e-01  4.57855435e-01  4.57855435e-01  3.35147642e-09  4.57855435e-01  1.57769146e-07  1.44071350e-07  1.05000000e+00 
 1.06000000e+00  3.33582386e-09  4.57855444e-01  4.57855444e-01  4.57855444e-01  4.57855444e-01  3.35147642e-09  4.57855444e-01  1.57769162e-07  1.44071393e-07  1.06000000e+00 
 1.07000000e+00  3.33582386e-09  4.57855467e-01  4.57855467e-01  4.57855467e-01  4.57855467e-01  3.35147637e-09  4.57855467e-01  1.57769192e-07  1.44071173e-07  1.07000000e+00 
 1.08000000e+00  3.33582386e-09  4.57855447e-01  4.57855447e-01  4.57855447e-01  4.57855447e-01  3.35147642e-09  4.57855447e-01  1.57769158e-07  1.44071059e-07  1.08000000e+00 
 1.09000000e+00  3.33582385e-09  4.57855434e-01  4.57855434e-01  4.57855434e-01  4.57855434e-01  3.35147642e-09  4.57855434e-01  1.57769123e-07  1.44070825e-07  1.09000000e+00 
 1.10000000e+00  3.33582386e-09  4.57855467e-01  4.57855467e-01  4.57855466e-01  4.57855467e-01  3.35147637e-09  4.57855467e-01  1.57769181e-07  1.44071002e-07  1.10000000e+00 
