 v-sweep         v(b0)           v(b1)           v(b2)           v(b3)           v(b4)           v(b5)           v(b6)           i(vbias)        i(viout)        v(vout)        
 0.00000000e+00  4.58598375e-01  3.22564611e-09  4.58598375e-01  4.58598375e-01  3.35433429e-09  4.58598375e-01  4.58598375e-01  1.61371275e-07  1.71775786e-07  0.00000000e+00 
 1.00000000e-02  4.58598371e-01  3.22564608e-09  4.58598371e-01  4.58598371e-01  3.35433427e-09  4.58598371e-01  4.58598371e-01  1.61371283e-07  1.71775280e-07  1.00000000e-02 
 2.00000000e-02  4.58598385e-01  3.22564614e-09  4.58598386e-01  4.58598385e-01  3.35433433e-09  4.58598385e-01  4.58598385e-01  1.61371304e-07  1.71774892e-07  2.00000000e-02 
 3.00000000e-02  4.58598396e-01  3.22564608e-09  4.58598397e-01  4.58598397e-01  3.35433433e-09  4.58598396e-01  4.58598396e-01  1.61371315e-07  1.71774472e-07  3.00000000e-02 
 4.00000000e-02  4.58598370e-01  3.22564608e-09  4.58598370e-01  4.58598370e-01  3.35433433e-09  4.58598370e-01  4.58598370e-01  1.61371275e-07  1.71773932e-07  4.00000000e-02 
 5.00000000e-02  4.58598355e-01  3.22564608e-09  4.58598355e-01  4.58598355e-01  3.35433433e-09  4.58598355e-01  4.58598355e-01  1.61371251e-07  1.71773535e-07  5.00000000e-02 
 6.00000000e-02  4.58598374e-01  3.22564614e-09  4.58598374e-01  4.58598374e-01  3.35433433e-09  4.58598374e-01  4.58598374e-01  1.61371284e-07  1.71773285e-07  6.00000000e-02 
 7.00000000e-02  4.58598384e-01  3.22564608e-09  4.58598385e-01  4.58598385e-01  3.35433433e-09  4.58598384e-01  4.58598384e-01  1.61371300e-07  1.71772836e-07  7.00000000e-02 
 8.00000000e-02  4.58598356e-01  3.22564614e-09  4.58598356e-01  4.58598356e-01  3.35433433e-09  4.58598356e-01  4.58598356e-01  1.61371243e-07  1.71772423e-07  8.00000000e-02 
 9.00000000e-02  4.58598369e-01  3.22564614e-09  4.58598369e-01  4.58598369e-01  3.35433433e-09  4.58598369e-01  4.58598369e-01  1.61371278e-07  1.71772123e-07  9.00000000e-02 
 1.00000000e-01  4.58598373e-01  3.22564614e-09  4.58598373e-01  4.58598373e-01  3.35433427e-09  4.58598373e-01  4.58598372e-01  1.61371276e-07  1.71771874e-07  1.00000000e-01 
 1.10000000e-01  4.58598365e-01  3.22564614e-09  4.58598365e-01  4.58598365e-01  3.35433427e-09  4.58598365e-01  4.58598365e-01  1.61371256e-07  1.71771512e-07  1.10000000e-01 
 1.20000000e-01  4.58598386e-01  3.22564608e-09  4.58598386e-01  4.58598386e-01  3.35433428e-09  4.58598386e-01  4.58598386e-01  1.61371298e-07  1.71771239e-07  1.20000000e-01 
 1.30000000e-01  4.58598365e-01  3.22564608e-09  4.58598365e-01  4.58598365e-01  3.35433433e-09  4.58598365e-01  4.58598365e-01  1.61371271e-07  1.71770922e-07  1.30000000e-01 
 1.40000000e-01  4.58598375e-01  3.22564608e-09  4.58598375e-01  4.58598375e-01  3.35433433e-09  4.58598375e-01  4.58598374e-01  1.61371284e-07  1.71770681e-07  1.40000000e-01 
 1.50000000e-01  4.58598360e-01  3.22564608e-09  4.58598360e-01  4.58598360e-01  3.35433427e-09  4.58598360e-01  4.58598359e-01  1.61371256e-07  1.71770461e-07  1.50000000e-01 
 1.60000000e-01  4.58598374e-01  3.22564608e-09  4.58598374e-01  4.58598374e-01  3.35433433e-09  4.58598374e-01  4.58598374e-01  1.61371276e-07  1.71770175e-07  1.60000000e-01 
 1.70000000e-01  4.58598383e-01  3.22564608e-09  4.58598384e-01  4.58598384e-01  3.35433433e-09  4.58598383e-01  4.58598383e-01  1.61371297e-07  1.71770006e-07  1.70000000e-01 
 1.80000000e-01  4.58598390e-01  3.22564608e-09  4.58598391e-01  4.58598391e-01  3.35433433e-09  4.58598390e-01  4.58598390e-01  1.61371307e-07  1.71769805e-07  1.80000000e-01 
 1.90000000e-01  4.58598374e-01  3.22564614e-09  4.58598374e-01  4.58598374e-01  3.35433433e-09  4.58598374e-01  4.58598374e-01  1.61371283e-07  1.71769475e-07  1.90000000e-01 
 2.00000000e-01  4.58598380e-01  3.22564608e-09  4.58598380e-01  4.58598380e-01  3.35433433e-09  4.58598380e-01  4.58598380e-01  1.61371285e-07  1.71769370e-07  2.00000000e-01 
 2.10000000e-01  4.58598382e-01  3.22564608e-09  4.58598382e-01  4.58598382e-01  3.35433433e-09  4.58598382e-01  4.58598382e-01  1.61371278e-07  1.71769015e-07  2.10000000e-01 
 2.20000000e-01  4.58598363e-01  3.22564608e-09  4.58598363e-01  4.58598363e-01  3.35433433e-09  4.58598363e-01  4.58598363e-01  1.61371265e-07  1.71768860e-07  2.20000000e-01 
 2.30000000e-01  4.58598392e-01  3.22564608e-09  4.58598392e-01  4.58598392e-01  3.35433433e-09  4.58598392e-01  4.58598392e-01  1.61371315e-07  1.71768800e-07  2.30000000e-01 
 2.40000000e-01  4.58598383e-01  3.22564608e-09  4.58598383e-01  4.58598383e-01  3.35433428e-09  4.58598383e-01  4.58598383e-01  1.61371303e-07  1.71768527e-07  2.40000000e-01 
 2.50000000e-01  4.58598372e-01  3.22564608e-09  4.58598372e-01  4.58598372e-01  3.35433427e-09  4.58598372e-01  4.58598372e-01  1.61371274e-07  1.71768239e-07  2.50000000e-01 
 2.60000000e-01  4.58598381e-01  3.22564614e-09  4.58598381e-01  4.58598381e-01  3.35433428e-09  4.58598381e-01  4.58598381e-01  1.61371299e-07  1.71768097e-07  2.60000000e-01 
 2.70000000e-01  4.58598373e-01  3.22564608e-09  4.58598373e-01  4.58598373e-01  3.35433427e-09  4.58598373e-01  4.58598373e-01  1.61371275e-07  1.71767871e-07  2.70000000e-01 
 2.80000000e-01  4.58598389e-01  3.22564608e-09  4.58598389e-01  4.58598389e-01  3.35433433e-09  4.58598389e-01  4.58598389e-01  1.61371299e-07  1.71767944e-07  2.80000000e-01 
 2.90000000e-01  4.58598361e-01  3.22564614e-09  4.58598361e-01  4.58598361e-01  3.35433433e-09  4.58598361e-01  4.58598361e-01  1.61371265e-07  1.71767503e-07  2.90000000e-01 
 3.00000000e-01  4.58598382e-01  3.22564614e-09  4.58598382e-01  4.58598382e-01  3.35433433e-09  4.58598382e-01  4.58598382e-01  1.61371297e-07  1.71767311e-07  3.00000000e-01 
 3.10000000e-01  4.58598380e-01  3.22564608e-09  4.58598381e-01  4.58598381e-01  3.35433433e-09  4.58598380e-01  4.58598380e-01  1.61371299e-07  1.71767237e-07  3.10000000e-01 
 3.20000000e-01  4.58598371e-01  3.22564608e-09  4.58598371e-01  4.58598371e-01  3.35433433e-09  4.58598371e-01  4.58598371e-01  1.61371276e-07  1.71766963e-07  3.20000000e-01 
 3.30000000e-01  4.58598361e-01  3.22564614e-09  4.58598361e-01  4.58598361e-01  3.35433427e-09  4.58598361e-01  4.58598361e-01  1.61371253e-07  1.71766761e-07  3.30000000e-01 
 3.40000000e-01  4.58598368e-01  3.22564614e-09  4.58598368e-01  4.58598368e-01  3.35433433e-09  4.58598368e-01  4.58598367e-01  1.61371267e-07  1.71766729e-07  3.40000000e-01 
 3.50000000e-01  4.58598377e-01  3.22564614e-09  4.58598377e-01  4.58598377e-01  3.35433433e-09  4.58598377e-01  4.58598377e-01  1.61371292e-07  1.71766505e-07  3.50000000e-01 
 3.60000000e-01  4.58598363e-01  3.22564614e-09  4.58598363e-01  4.58598363e-01  3.35433433e-09  4.58598363e-01  4.58598363e-01  1.61371272e-07  1.71766349e-07  3.60000000e-01 
 3.70000000e-01  4.58598368e-01  3.22564608e-09  4.58598368e-01  4.58598368e-01  3.35433427e-09  4.58598368e-01  4.58598368e-01  1.61371275e-07  1.71766104e-07  3.70000000e-01 
 3.80000000e-01  4.58598376e-01  3.22564608e-09  4.58598376e-01  4.58598376e-01  3.35433433e-09  4.58598376e-01  4.58598376e-01  1.61371283e-07  1.71766061e-07  3.80000000e-01 
 3.90000000e-01  4.58598348e-01  3.22564608e-09  4.58598348e-01  4.58598348e-01  3.35433427e-09  4.58598348e-01  4.58598348e-01  1.61371239e-07  1.71765819e-07  3.90000000e-01 
 4.00000000e-01  4.58598373e-01  3.22564614e-09  4.58598373e-01  4.58598373e-01  3.35433433e-09  4.58598373e-01  4.58598373e-01  1.61371279e-07  1.71765866e-07  4.00000000e-01 
 4.10000000e-01  4.58598389e-01  3.22564608e-09  4.58598390e-01  4.58598390e-01  3.35433428e-09  4.58598389e-01  4.58598389e-01  1.61371306e-07  1.71765798e-07  4.10000000e-01 
 4.20000000e-01  4.58598383e-01  3.22564614e-09  4.58598383e-01  4.58598383e-01  3.35433433e-09  4.58598383e-01  4.58598382e-01  1.61371303e-07  1.71765571e-07  4.20000000e-01 
 4.30000000e-01  4.58598364e-01  3.22564608e-09  4.58598364e-01  4.58598364e-01  3.35433433e-09  4.58598364e-01  4.58598364e-01  1.61371270e-07  1.71765382e-07  4.30000000e-01 
 4.40000000e-01  4.58598372e-01  3.22564608e-09  4.58598372e-01  4.58598372e-01  3.35433433e-09  4.58598372e-01  4.58598372e-01  1.61371275e-07  1.71765134e-07  4.40000000e-01 
 4.50000000e-01  4.58598377e-01  3.22564608e-09  4.58598377e-01  4.58598377e-01  3.35433433e-09  4.58598377e-01  4.58598377e-01  1.61371294e-07  1.71765091e-07  4.50000000e-01 
 4.60000000e-01  4.58598367e-01  3.22564614e-09  4.58598368e-01  4.58598367e-01  3.35433433e-09  4.58598367e-01  4.58598367e-01  1.61371276e-07  1.71764874e-07  4.60000000e-01 
 4.70000000e-01  4.58598368e-01  3.22564614e-09  4.58598368e-01  4.58598368e-01  3.35433427e-09  4.58598368e-01  4.58598368e-01  1.61371262e-07  1.71764786e-07  4.70000000e-01 
 4.80000000e-01  4.58598366e-01  3.22564608e-09  4.58598366e-01  4.58598366e-01  3.35433427e-09  4.58598366e-01  4.58598366e-01  1.61371269e-07  1.71764693e-07  4.80000000e-01 
 4.90000000e-01  4.58598383e-01  3.22564608e-09  4.58598383e-01  4.58598383e-01  3.35433433e-09  4.58598383e-01  4.58598383e-01  1.61371291e-07  1.71764697e-07  4.90000000e-01 
 5.00000000e-01  4.58598354e-01  3.22564608e-09  4.58598354e-01  4.58598354e-01  3.35433433e-09  4.58598354e-01  4.58598354e-01  1.61371260e-07  1.71764356e-07  5.00000000e-01 
 5.10000000e-01  4.58598378e-01  3.22564614e-09  4.58598378e-01  4.58598378e-01  3.35433433e-09  4.58598378e-01  4.58598378e-01  1.61371283e-07  1.71764331e-07  5.10000000e-01 
 5.20000000e-01  4.58598397e-01  3.22564608e-09  4.58598397e-01  4.58598397e-01  3.35433433e-09  4.58598397e-01  4.58598397e-01  1.61371310e-07  1.71764288e-07  5.20000000e-01 
 5.30000000e-01  4.58598371e-01  3.22564608e-09  4.58598371e-01  4.58598371e-01  3.35433427e-09  4.58598371e-01  4.58598371e-01  1.61371283e-07  1.71764082e-07  5.30000000e-01 
 5.40000000e-01  4.58598383e-01  3.22564614e-09  4.58598383e-01  4.58598383e-01  3.35433428e-09  4.58598383e-01  4.58598383e-01  1.61371297e-07  1.71764043e-07  5.40000000e-01 
 5.50000000e-01  4.58598361e-01  3.22564608e-09  4.58598361e-01  4.58598361e-01  3.35433427e-09  4.58598361e-01  4.58598361e-01  1.61371260e-07  1.71763691e-07  5.50000000e-01 
 5.60000000e-01  4.58598358e-01  3.22564608e-09  4.58598358e-01  4.58598358e-01  3.35433427e-09  4.58598358e-01  4.58598358e-01  1.61371257e-07  1.71763613e-07  5.60000000e-01 
 5.70000000e-01  4.58598396e-01  3.22564614e-09  4.58598396e-01  4.58598396e-01  3.35433428e-09  4.58598396e-01  4.58598396e-01  1.61371314e-07  1.71763638e-07  5.70000000e-01 
 5.80000000e-01  4.58598370e-01  3.22564608e-09  4.58598371e-01  4.58598371e-01  3.35433433e-09  4.58598370e-01  4.58598370e-01  1.61371284e-07  1.71763489e-07  5.80000000e-01 
 5.90000000e-01  4.58598377e-01  3.22564608e-09  4.58598377e-01  4.58598377e-01  3.35433433e-09  4.58598377e-01  4.58598377e-01  1.61371289e-07  1.71763382e-07  5.90000000e-01 
 6.00000000e-01  4.58598351e-01  3.22564614e-09  4.58598351e-01  4.58598351e-01  3.35433427e-09  4.58598351e-01  4.58598351e-01  1.61371251e-07  1.71763212e-07  6.00000000e-01 
 6.10000000e-01  4.58598370e-01  3.22564614e-09  4.58598370e-01  4.58598370e-01  3.35433427e-09  4.58598370e-01  4.58598370e-01  1.61371270e-07  1.71763190e-07  6.10000000e-01 
 6.20000000e-01  4.58598379e-01  3.22564614e-09  4.58598380e-01  4.58598379e-01  3.35433433e-09  4.58598379e-01  4.58598379e-01  1.61371286e-07  1.71762991e-07  6.20000000e-01 
 6.30000000e-01  4.58598361e-01  3.22564608e-09  4.58598361e-01  4.58598361e-01  3.35433427e-09  4.58598361e-01  4.58598361e-01  1.61371257e-07  1.71762757e-07  6.30000000e-01 
 6.40000000e-01  4.58598369e-01  3.22564614e-09  4.58598370e-01  4.58598370e-01  3.35433433e-09  4.58598369e-01  4.58598369e-01  1.61371270e-07  1.71762728e-07  6.40000000e-01 
 6.50000000e-01  4.58598358e-01  3.22564608e-09  4.58598358e-01  4.58598358e-01  3.35433427e-09  4.58598357e-01  4.58598357e-01  1.61371247e-07  1.71762395e-07  6.50000000e-01 
 6.60000000e-01  4.58598372e-01  3.22564614e-09  4.58598372e-01  4.58598372e-01  3.35433433e-09  4.58598372e-01  4.58598372e-01  1.61371270e-07  1.71762444e-07  6.60000000e-01 
 6.70000000e-01  4.58598371e-01  3.22564608e-09  4.58598372e-01  4.58598372e-01  3.35433427e-09  4.58598371e-01  4.58598371e-01  1.61371270e-07  1.71762174e-07  6.70000000e-01 
 6.80000000e-01  4.58598369e-01  3.22564608e-09  4.58598370e-01  4.58598370e-01  3.35433427e-09  4.58598369e-01  4.58598369e-01  1.61371268e-07  1.71762139e-07  6.80000000e-01 
 6.90000000e-01  4.58598376e-01  3.22564608e-09  4.58598376e-01  4.58598376e-01  3.35433427e-09  4.58598376e-01  4.58598376e-01  1.61371291e-07  1.71761961e-07  6.90000000e-01 
 7.00000000e-01  4.58598400e-01  3.22564608e-09  4.58598400e-01  4.58598400e-01  3.35433433e-09  4.58598400e-01  4.58598400e-01  1.61371327e-07  1.71761982e-07  7.00000000e-01 
 7.10000000e-01  4.58598362e-01  3.22564608e-09  4.58598362e-01  4.58598362e-01  3.35433433e-09  4.58598362e-01  4.58598362e-01  1.61371266e-07  1.71761620e-07  7.10000000e-01 
 7.20000000e-01  4.58598372e-01  3.22564608e-09  4.58598372e-01  4.58598372e-01  3.35433433e-09  4.58598372e-01  4.58598372e-01  1.61371279e-07  1.71761648e-07  7.20000000e-01 
 7.30000000e-01  4.58598383e-01  3.22564614e-09  4.58598383e-01  4.58598383e-01  3.35433433e-09  4.58598383e-01  4.58598383e-01  1.61371289e-07  1.71761556e-07  7.30000000e-01 
 7.40000000e-01  4.58598398e-01  3.22564608e-09  4.58598399e-01  4.58598398e-01  3.35433433e-09  4.58598398e-01  4.58598398e-01  1.61371320e-07  1.71761464e-07  7.40000000e-01 
 7.50000000e-01  4.58598371e-01  3.22564608e-09  4.58598371e-01  4.58598371e-01  3.35433433e-09  4.58598371e-01  4.58598371e-01  1.61371291e-07  1.71761229e-07  7.50000000e-01 
 7.60000000e-01  4.58598369e-01  3.22564608e-09  4.58598369e-01  4.58598369e-01  3.35433433e-09  4.58598369e-01  4.58598369e-01  1.61371265e-07  1.71761052e-07  7.60000000e-01 
 7.70000000e-01  4.58598397e-01  3.22564614e-09  4.58598397e-01  4.58598397e-01  3.35433428e-09  4.58598397e-01  4.58598397e-01  1.61371314e-07  1.71761101e-07  7.70000000e-01 
 7.80000000e-01  4.58598367e-01  3.22564608e-09  4.58598367e-01  4.58598367e-01  3.35433427e-09  4.58598367e-01  4.58598367e-01  1.61371273e-07  1.71760753e-07  7.80000000e-01 
 7.90000000e-01  4.58598357e-01  3.22564614e-09  4.58598357e-01  4.58598357e-01  3.35433433e-09  4.58598357e-01  4.58598357e-01  1.61371258e-07  1.71760611e-07  7.90000000e-01 
 8.00000000e-01  4.58598367e-01  3.22564608e-09  4.58598368e-01  4.58598368e-01  3.35433427e-09  4.58598367e-01  4.58598367e-01  1.61371265e-07  1.71760412e-07  8.00000000e-01 
 8.10000000e-01  4.58598374e-01  3.22564608e-09  4.58598374e-01  4.58598374e-01  3.35433433e-09  4.58598374e-01  4.58598374e-01  1.61371280e-07  1.71760327e-07  8.10000000e-01 
 8.20000000e-01  4.58598381e-01  3.22564608e-09  4.58598381e-01  4.58598381e-01  3.35433428e-09  4.58598381e-01  4.58598381e-01  1.61371296e-07  1.71760249e-07  8.20000000e-01 
 8.30000000e-01  4.58598360e-01  3.22564614e-09  4.58598361e-01  4.58598360e-01  3.35433427e-09  4.58598360e-01  4.58598360e-01  1.61371252e-07  1.71759972e-07  8.30000000e-01 
 8.40000000e-01  4.58598364e-01  3.22564614e-09  4.58598364e-01  4.58598364e-01  3.35433433e-09  4.58598364e-01  4.58598364e-01  1.61371270e-07  1.71759908e-07  8.40000000e-01 
 8.50000000e-01  4.58598404e-01  3.22564614e-09  4.58598405e-01  4.58598405e-01  3.35433433e-09  4.58598404e-01  4.58598404e-01  1.61371328e-07  1.71759950e-07  8.50000000e-01 
 8.60000000e-01  4.58598355e-01  3.22564608e-09  4.58598355e-01  4.58598355e-01  3.35433433e-09  4.58598355e-01  4.58598355e-01  1.61371260e-07  1.71759631e-07  8.60000000e-01 
 8.70000000e-01  4.58598364e-01  3.22564608e-09  4.58598364e-01  4.58598364e-01  3.35433433e-09  4.58598364e-01  4.58598364e-01  1.61371262e-07  1.71759368e-07  8.70000000e-01 
 8.80000000e-01  4.58598371e-01  3.22564608e-09  4.58598371e-01  4.58598371e-01  3.35433433e-09  4.58598371e-01  4.58598371e-01  1.61371268e-07  1.71759318e-07  8.80000000e-01 
 8.90000000e-01  4.58598382e-01  3.22564614e-09  4.58598382e-01  4.58598382e-01  3.35433433e-09  4.58598382e-01  4.58598382e-01  1.61371297e-07  1.71759268e-07  8.90000000e-01 
 9.00000000e-01  4.58598378e-01  3.22564608e-09  4.58598378e-01  4.58598378e-01  3.35433433e-09  4.58598378e-01  4.58598378e-01  1.61371274e-07  1.71759154e-07  9.00000000e-01 
 9.10000000e-01  4.58598377e-01  3.22564608e-09  4.58598377e-01  4.58598377e-01  3.35433427e-09  4.58598377e-01  4.58598377e-01  1.61371290e-07  1.71758828e-07  9.10000000e-01 
 9.20000000e-01  4.58598382e-01  3.22564608e-09  4.58598383e-01  4.58598383e-01  3.35433428e-09  4.58598382e-01  4.58598382e-01  1.61371303e-07  1.71758820e-07  9.20000000e-01 
 9.30000000e-01  4.58598363e-01  3.22564608e-09  4.58598364e-01  4.58598364e-01  3.35433427e-09  4.58598363e-01  4.58598363e-01  1.61371264e-07  1.71758664e-07  9.30000000e-01 
 9.40000000e-01  4.58598370e-01  3.22564608e-09  4.58598370e-01  4.58598370e-01  3.35433433e-09  4.58598370e-01  4.58598370e-01  1.61371269e-07  1.71758558e-07  9.40000000e-01 
 9.50000000e-01  4.58598381e-01  3.22564614e-09  4.58598381e-01  4.58598381e-01  3.35433433e-09  4.58598381e-01  4.58598381e-01  1.61371295e-07  1.71758337e-07  9.50000000e-01 
 9.60000000e-01  4.58598377e-01  3.22564608e-09  4.58598377e-01  4.58598377e-01  3.35433433e-09  4.58598377e-01  4.58598377e-01  1.61371285e-07  1.71758145e-07  9.60000000e-01 
 9.70000000e-01  4.58598367e-01  3.22564608e-09  4.58598367e-01  4.58598367e-01  3.35433433e-09  4.58598367e-01  4.58598367e-01  1.61371276e-07  1.71757954e-07  9.70000000e-01 
 9.80000000e-01  4.58598360e-01  3.22564608e-09  4.58598360e-01  4.58598360e-01  3.35433433e-09  4.58598360e-01  4.58598360e-01  1.61371258e-07  1.71757833e-07  9.80000000e-01 
 9.90000000e-01  4.58598381e-01  3.22564608e-09  4.58598381e-01  4.58598381e-01  3.35433428e-09  4.58598381e-01  4.58598381e-01  1.61371288e-07  1.71757755e-07  9.90000000e-01 
 1.00000000e+00  4.58598392e-01  3.22564608e-09  4.58598392e-01  4.58598392e-01  3.35433433e-09  4.58598392e-01  4.58598392e-01  1.61371317e-07  1.71757563e-07  1.00000000e+00 
 1.01000000e+00  4.58598362e-01  3.22564608e-09  4.58598362e-01  4.58598362e-01  3.35433427e-09  4.58598362e-01  4.58598362e-01  1.61371265e-07  1.71757321e-07  1.01000000e+00 
 1.02000000e+00  4.58598364e-01  3.22564608e-09  4.58598364e-01  4.58598364e-01  3.35433433e-09  4.58598364e-01  4.58598364e-01  1.61371274e-07  1.71757080e-07  1.02000000e+00 
 1.03000000e+00  4.58598400e-01  3.22564608e-09  4.58598400e-01  4.58598400e-01  3.35433433e-09  4.58598400e-01  4.58598400e-01  1.61371331e-07  1.71757144e-07  1.03000000e+00 
 1.04000000e+00  4.58598377e-01  3.22564608e-09  4.58598377e-01  4.58598377e-01  3.35433427e-09  4.58598377e-01  4.58598377e-01  1.61371277e-07  1.71756859e-07  1.04000000e+00 
 1.05000000e+00  4.58598386e-01  3.22564608e-09  4.58598386e-01  4.58598386e-01  3.35433433e-09  4.58598386e-01  4.58598386e-01  1.61371306e-07  1.71756739e-07  1.05000000e+00 
 1.06000000e+00  4.58598351e-01  3.22564614e-09  4.58598351e-01  4.58598351e-01  3.35433433e-09  4.58598351e-01  4.58598350e-01  1.61371268e-07  1.71756469e-07  1.06000000e+00 
 1.07000000e+00  4.58598381e-01  3.22564614e-09  4.58598381e-01  4.58598381e-01  3.35433428e-09  4.58598381e-01  4.58598381e-01  1.61371290e-07  1.71756284e-07  1.07000000e+00 
 1.08000000e+00  4.58598386e-01  3.22564608e-09  4.58598386e-01  4.58598386e-01  3.35433433e-09  4.58598386e-01  4.58598386e-01  1.61371297e-07  1.71756305e-07  1.08000000e+00 
 1.09000000e+00  4.58598367e-01  3.22564608e-09  4.58598367e-01  4.58598367e-01  3.35433427e-09  4.58598367e-01  4.58598367e-01  1.61371278e-07  1.71756128e-07  1.09000000e+00 
 1.10000000e+00  4.58598373e-01  3.22564608e-09  4.58598373e-01  4.58598373e-01  3.35433427e-09  4.58598373e-01  4.58598373e-01  1.61371292e-07  1.71755850e-07  1.10000000e+00 
