 v-sweep         v(b0)           v(b1)           v(b2)           v(b3)           v(b4)           v(b5)           v(b6)           i(vbias)        i(viout)        v(vout)        
 0.00000000e+00  4.58399749e-01  4.58399749e-01  4.58399749e-01  4.58399749e-01  3.23256049e-09  4.58399749e-01  3.45701453e-09  1.60299235e-07  7.15551069e-08  0.00000000e+00 
 1.00000000e-02  4.58399757e-01  4.58399757e-01  4.58399757e-01  4.58399757e-01  3.23256052e-09  4.58399757e-01  3.45701456e-09  1.60299253e-07  7.15545736e-08  1.00000000e-02 
 2.00000000e-02  4.58399759e-01  4.58399759e-01  4.58399759e-01  4.58399758e-01  3.23256052e-09  4.58399759e-01  3.45701456e-09  1.60299259e-07  7.15542641e-08  2.00000000e-02 
 3.00000000e-02  4.58399730e-01  4.58399730e-01  4.58399729e-01  4.58399729e-01  3.23256052e-09  4.58399730e-01  3.45701456e-09  1.60299217e-07  7.15537569e-08  3.00000000e-02 
 4.00000000e-02  4.58399745e-01  4.58399745e-01  4.58399745e-01  4.58399745e-01  3.23256052e-09  4.58399745e-01  3.45701456e-09  1.60299227e-07  7.15534929e-08  4.00000000e-02 
 5.00000000e-02  4.58399749e-01  4.58399749e-01  4.58399749e-01  4.58399749e-01  3.23256052e-09  4.58399749e-01  3.45701456e-09  1.60299237e-07  7.15530959e-08  5.00000000e-02 
 6.00000000e-02  4.58399748e-01  4.58399748e-01  4.58399748e-01  4.58399747e-01  3.23256052e-09  4.58399748e-01  3.45701456e-09  1.60299228e-07  7.15527979e-08  6.00000000e-02 
 7.00000000e-02  4.58399734e-01  4.58399734e-01  4.58399734e-01  4.58399734e-01  3.23256052e-09  4.58399734e-01  3.45701456e-09  1.60299226e-07  7.15524773e-08  7.00000000e-02 
 8.00000000e-02  4.58399738e-01  4.58399738e-01  4.58399738e-01  4.58399737e-01  3.23256052e-09  4.58399738e-01  3.45701456e-09  1.60299229e-07  7.15522415e-08  8.00000000e-02 
 9.00000000e-02  4.58399761e-01  4.58399761e-01  4.58399761e-01  4.58399761e-01  3.23256052e-09  4.58399761e-01  3.45701456e-09  1.60299255e-07  7.15519954e-08  9.00000000e-02 
 1.00000000e-01  4.58399752e-01  4.58399752e-01  4.58399751e-01  4.58399751e-01  3.23256046e-09  4.58399752e-01  3.45701456e-09  1.60299247e-07  7.15518018e-08  1.00000000e-01 
 1.10000000e-01  4.58399769e-01  4.58399769e-01  4.58399769e-01  4.58399769e-01  3.23256052e-09  4.58399769e-01  3.45701456e-09  1.60299272e-07  7.15514563e-08  1.10000000e-01 
 1.20000000e-01  4.58399760e-01  4.58399760e-01  4.58399760e-01  4.58399760e-01  3.23256046e-09  4.58399760e-01  3.45701456e-09  1.60299252e-07  7.15513302e-08  1.20000000e-01 
 1.30000000e-01  4.58399758e-01  4.58399758e-01  4.58399758e-01  4.58399758e-01  3.23256052e-09  4.58399758e-01  3.45701456e-09  1.60299258e-07  7.15510948e-08  1.30000000e-01 
 1.40000000e-01  4.58399727e-01  4.58399727e-01  4.58399727e-01  4.58399727e-01  3.23256046e-09  4.58399727e-01  3.45701456e-09  1.60299213e-07  7.15507236e-08  1.40000000e-01 
 1.50000000e-01  4.58399750e-01  4.58399750e-01  4.58399749e-01  4.58399749e-01  3.23256052e-09  4.58399750e-01  3.45701456e-09  1.60299255e-07  7.15505823e-08  1.50000000e-01 
 1.60000000e-01  4.58399759e-01  4.58399759e-01  4.58399759e-01  4.58399759e-01  3.23256052e-09  4.58399759e-01  3.45701456e-09  1.60299266e-07  7.15504171e-08  1.60000000e-01 
 1.70000000e-01  4.58399725e-01  4.58399724e-01  4.58399724e-01  4.58399724e-01  3.23256046e-09  4.58399724e-01  3.45701456e-09  1.60299199e-07  7.15501258e-08  1.70000000e-01 
 1.80000000e-01  4.58399759e-01  4.58399759e-01  4.58399758e-01  4.58399758e-01  3.23256052e-09  4.58399759e-01  3.45701456e-09  1.60299250e-07  7.15500441e-08  1.80000000e-01 
 1.90000000e-01  4.58399761e-01  4.58399761e-01  4.58399761e-01  4.58399761e-01  3.23256046e-09  4.58399761e-01  3.45701456e-09  1.60299255e-07  7.15498203e-08  1.90000000e-01 
 2.00000000e-01  4.58399763e-01  4.58399763e-01  4.58399763e-01  4.58399763e-01  3.23256052e-09  4.58399763e-01  3.45701456e-09  1.60299258e-07  7.15495858e-08  2.00000000e-01 
 2.10000000e-01  4.58399729e-01  4.58399729e-01  4.58399729e-01  4.58399729e-01  3.23256052e-09  4.58399729e-01  3.45701456e-09  1.60299209e-07  7.15494384e-08  2.10000000e-01 
 2.20000000e-01  4.58399736e-01  4.58399736e-01  4.58399736e-01  4.58399736e-01  3.23256046e-09  4.58399736e-01  3.45701456e-09  1.60299233e-07  7.15493247e-08  2.20000000e-01 
 2.30000000e-01  4.58399729e-01  4.58399729e-01  4.58399729e-01  4.58399729e-01  3.23256052e-09  4.58399729e-01  3.45701456e-09  1.60299210e-07  7.15491684e-08  2.30000000e-01 
 2.40000000e-01  4.58399761e-01  4.58399761e-01  4.58399760e-01  4.58399760e-01  3.23256052e-09  4.58399761e-01  3.45701456e-09  1.60299256e-07  7.15491311e-08  2.40000000e-01 
 2.50000000e-01  4.58399758e-01  4.58399758e-01  4.58399758e-01  4.58399758e-01  3.23256046e-09  4.58399758e-01  3.45701456e-09  1.60299253e-07  7.15488557e-08  2.50000000e-01 
 2.60000000e-01  4.58399731e-01  4.58399731e-01  4.58399731e-01  4.58399730e-01  3.23256052e-09  4.58399731e-01  3.45701456e-09  1.60299209e-07  7.15486461e-08  2.60000000e-01 
 2.70000000e-01  4.58399762e-01  4.58399762e-01  4.58399762e-01  4.58399762e-01  3.23256046e-09  4.58399762e-01  3.45701456e-09  1.60299259e-07  7.15487332e-08  2.70000000e-01 
 2.80000000e-01  4.58399753e-01  4.58399753e-01  4.58399753e-01  4.58399753e-01  3.23256052e-09  4.58399753e-01  3.45701456e-09  1.60299243e-07  7.15484951e-08  2.80000000e-01 
 2.90000000e-01  4.58399737e-01  4.58399737e-01  4.58399736e-01  4.58399736e-01  3.23256046e-09  4.58399737e-01  3.45701456e-09  1.60299240e-07  7.15484454e-08  2.90000000e-01 
 3.00000000e-01  4.58399749e-01  4.58399749e-01  4.58399748e-01  4.58399748e-01  3.23256052e-09  4.58399749e-01  3.45701456e-09  1.60299231e-07  7.15483708e-08  3.00000000e-01 
 3.10000000e-01  4.58399761e-01  4.58399761e-01  4.58399761e-01  4.58399761e-01  3.23256052e-09  4.58399761e-01  3.45701456e-09  1.60299259e-07  7.15482074e-08  3.10000000e-01 
 3.20000000e-01  4.58399764e-01  4.58399764e-01  4.58399764e-01  4.58399764e-01  3.23256046e-09  4.58399764e-01  3.45701456e-09  1.60299253e-07  7.15480120e-08  3.20000000e-01 
 3.30000000e-01  4.58399763e-01  4.58399763e-01  4.58399763e-01  4.58399763e-01  3.23256052e-09  4.58399763e-01  3.45701456e-09  1.60299262e-07  7.15479871e-08  3.30000000e-01 
 3.40000000e-01  4.58399757e-01  4.58399757e-01  4.58399757e-01  4.58399756e-01  3.23256046e-09  4.58399757e-01  3.45701456e-09  1.60299249e-07  7.15478023e-08  3.40000000e-01 
 3.50000000e-01  4.58399730e-01  4.58399730e-01  4.58399730e-01  4.58399729e-01  3.23256052e-09  4.58399730e-01  3.45701456e-09  1.60299205e-07  7.15478095e-08  3.50000000e-01 
 3.60000000e-01  4.58399758e-01  4.58399757e-01  4.58399757e-01  4.58399757e-01  3.23256052e-09  4.58399757e-01  3.45701456e-09  1.60299250e-07  7.15477597e-08  3.60000000e-01 
 3.70000000e-01  4.58399758e-01  4.58399758e-01  4.58399758e-01  4.58399758e-01  3.23256046e-09  4.58399758e-01  3.45701456e-09  1.60299259e-07  7.15475998e-08  3.70000000e-01 
 3.80000000e-01  4.58399748e-01  4.58399748e-01  4.58399748e-01  4.58399747e-01  3.23256052e-09  4.58399748e-01  3.45701456e-09  1.60299230e-07  7.15474506e-08  3.80000000e-01 
 3.90000000e-01  4.58399773e-01  4.58399773e-01  4.58399773e-01  4.58399773e-01  3.23256052e-09  4.58399773e-01  3.45701456e-09  1.60299281e-07  7.15474968e-08  3.90000000e-01 
 4.00000000e-01  4.58399756e-01  4.58399756e-01  4.58399756e-01  4.58399756e-01  3.23256052e-09  4.58399756e-01  3.45701456e-09  1.60299250e-07  7.15473760e-08  4.00000000e-01 
 4.10000000e-01  4.58399755e-01  4.58399755e-01  4.58399755e-01  4.58399755e-01  3.23256046e-09  4.58399755e-01  3.45701456e-09  1.60299254e-07  7.15472837e-08  4.10000000e-01 
 4.20000000e-01  4.58399741e-01  4.58399741e-01  4.58399741e-01  4.58399741e-01  3.23256052e-09  4.58399741e-01  3.45701456e-09  1.60299224e-07  7.15472694e-08  4.20000000e-01 
 4.30000000e-01  4.58399754e-01  4.58399754e-01  4.58399754e-01  4.58399754e-01  3.23256052e-09  4.58399754e-01  3.45701456e-09  1.60299245e-07  7.15471309e-08  4.30000000e-01 
 4.40000000e-01  4.58399720e-01  4.58399720e-01  4.58399720e-01  4.58399719e-01  3.23256046e-09  4.58399720e-01  3.45701456e-09  1.60299189e-07  7.15469497e-08  4.40000000e-01 
 4.50000000e-01  4.58399741e-01  4.58399741e-01  4.58399741e-01  4.58399741e-01  3.23256046e-09  4.58399741e-01  3.45701456e-09  1.60299232e-07  7.15468893e-08  4.50000000e-01 
 4.60000000e-01  4.58399749e-01  4.58399749e-01  4.58399749e-01  4.58399749e-01  3.23256046e-09  4.58399749e-01  3.45701456e-09  1.60299232e-07  7.15469106e-08  4.60000000e-01 
 4.70000000e-01  4.58399769e-01  4.58399769e-01  4.58399769e-01  4.58399769e-01  3.23256046e-09  4.58399769e-01  3.45701456e-09  1.60299264e-07  7.15467650e-08  4.70000000e-01 
 4.80000000e-01  4.58399748e-01  4.58399748e-01  4.58399748e-01  4.58399748e-01  3.23256052e-09  4.58399748e-01  3.45701456e-09  1.60299237e-07  7.15466726e-08  4.80000000e-01 
 4.90000000e-01  4.58399740e-01  4.58399740e-01  4.58399740e-01  4.58399740e-01  3.23256046e-09  4.58399740e-01  3.45701456e-09  1.60299241e-07  7.15466442e-08  4.90000000e-01 
 5.00000000e-01  4.58399765e-01  4.58399765e-01  4.58399764e-01  4.58399764e-01  3.23256046e-09  4.58399764e-01  3.45701456e-09  1.60299280e-07  7.15465305e-08  5.00000000e-01 
 5.10000000e-01  4.58399760e-01  4.58399760e-01  4.58399759e-01  4.58399759e-01  3.23256052e-09  4.58399760e-01  3.45701456e-09  1.60299254e-07  7.15465447e-08  5.10000000e-01 
 5.20000000e-01  4.58399756e-01  4.58399756e-01  4.58399756e-01  4.58399756e-01  3.23256052e-09  4.58399756e-01  3.45701456e-09  1.60299254e-07  7.15464665e-08  5.20000000e-01 
 5.30000000e-01  4.58399776e-01  4.58399776e-01  4.58399776e-01  4.58399776e-01  3.23256046e-09  4.58399776e-01  3.45701456e-09  1.60299270e-07  7.15464736e-08  5.30000000e-01 
 5.40000000e-01  4.58399777e-01  4.58399777e-01  4.58399777e-01  4.58399777e-01  3.23256046e-09  4.58399777e-01  3.45701456e-09  1.60299276e-07  7.15464594e-08  5.40000000e-01 
 5.50000000e-01  4.58399776e-01  4.58399776e-01  4.58399775e-01  4.58399775e-01  3.23256052e-09  4.58399776e-01  3.45701456e-09  1.60299287e-07  7.15462747e-08  5.50000000e-01 
 5.60000000e-01  4.58399763e-01  4.58399763e-01  4.58399763e-01  4.58399763e-01  3.23256052e-09  4.58399763e-01  3.45701456e-09  1.60299261e-07  7.15460970e-08  5.60000000e-01 
 5.70000000e-01  4.58399759e-01  4.58399759e-01  4.58399759e-01  4.58399759e-01  3.23256046e-09  4.58399759e-01  3.45701456e-09  1.60299256e-07  7.15460899e-08  5.70000000e-01 
 5.80000000e-01  4.58399774e-01  4.58399774e-01  4.58399774e-01  4.58399774e-01  3.23256052e-09  4.58399774e-01  3.45701456e-09  1.60299274e-07  7.15460189e-08  5.80000000e-01 
 5.90000000e-01  4.58399751e-01  4.58399751e-01  4.58399751e-01  4.58399751e-01  3.23256052e-09  4.58399751e-01  3.45701456e-09  1.60299249e-07  7.15459691e-08  5.90000000e-01 
 6.00000000e-01  4.58399770e-01  4.58399770e-01  4.58399770e-01  4.58399770e-01  3.23256052e-09  4.58399770e-01  3.45701456e-09  1.60299270e-07  7.15460473e-08  6.00000000e-01 
 6.10000000e-01  4.58399767e-01  4.58399767e-01  4.58399766e-01  4.58399766e-01  3.23256046e-09  4.58399767e-01  3.45701456e-09  1.60299270e-07  7.15459123e-08  6.10000000e-01 
 6.20000000e-01  4.58399759e-01  4.58399759e-01  4.58399759e-01  4.58399759e-01  3.23256052e-09  4.58399759e-01  3.45701456e-09  1.60299261e-07  7.15458199e-08  6.20000000e-01 
 6.30000000e-01  4.58399737e-01  4.58399737e-01  4.58399737e-01  4.58399736e-01  3.23256052e-09  4.58399737e-01  3.45701456e-09  1.60299228e-07  7.15457205e-08  6.30000000e-01 
 6.40000000e-01  4.58399748e-01  4.58399748e-01  4.58399748e-01  4.58399748e-01  3.23256052e-09  4.58399748e-01  3.45701462e-09  1.60299239e-07  7.15456778e-08  6.40000000e-01 
 6.50000000e-01  4.58399757e-01  4.58399757e-01  4.58399757e-01  4.58399757e-01  3.23256052e-09  4.58399757e-01  3.45701455e-09  1.60299243e-07  7.15455144e-08  6.50000000e-01 
 6.60000000e-01  4.58399750e-01  4.58399750e-01  4.58399750e-01  4.58399750e-01  3.23256052e-09  4.58399750e-01  3.45701451e-09  1.60299240e-07  7.15455073e-08  6.60000000e-01 
 6.70000000e-01  4.58399749e-01  4.58399749e-01  4.58399749e-01  4.58399749e-01  3.23256052e-09  4.58399749e-01  3.45701456e-09  1.60299246e-07  7.15454078e-08  6.70000000e-01 
 6.80000000e-01  4.58399752e-01  4.58399752e-01  4.58399752e-01  4.58399752e-01  3.23256052e-09  4.58399752e-01  3.45701456e-09  1.60299245e-07  7.15454291e-08  6.80000000e-01 
 6.90000000e-01  4.58399757e-01  4.58399757e-01  4.58399757e-01  4.58399757e-01  3.23256046e-09  4.58399757e-01  3.45701456e-09  1.60299248e-07  7.15453297e-08  6.90000000e-01 
 7.00000000e-01  4.58399739e-01  4.58399739e-01  4.58399739e-01  4.58399738e-01  3.23256052e-09  4.58399739e-01  3.45701456e-09  1.60299217e-07  7.15453368e-08  7.00000000e-01 
 7.10000000e-01  4.58399787e-01  4.58399787e-01  4.58399787e-01  4.58399787e-01  3.23256052e-09  4.58399787e-01  3.45701456e-09  1.60299291e-07  7.15452657e-08  7.10000000e-01 
 7.20000000e-01  4.58399763e-01  4.58399762e-01  4.58399762e-01  4.58399762e-01  3.23256046e-09  4.58399762e-01  3.45701456e-09  1.60299279e-07  7.15452089e-08  7.20000000e-01 
 7.30000000e-01  4.58399744e-01  4.58399744e-01  4.58399743e-01  4.58399743e-01  3.23256052e-09  4.58399744e-01  3.45701456e-09  1.60299229e-07  7.15450881e-08  7.30000000e-01 
 7.40000000e-01  4.58399767e-01  4.58399767e-01  4.58399767e-01  4.58399767e-01  3.23256052e-09  4.58399767e-01  3.45701456e-09  1.60299253e-07  7.15450881e-08  7.40000000e-01 
 7.50000000e-01  4.58399725e-01  4.58399725e-01  4.58399725e-01  4.58399725e-01  3.23256052e-09  4.58399725e-01  3.45701456e-09  1.60299203e-07  7.15449744e-08  7.50000000e-01 
 7.60000000e-01  4.58399758e-01  4.58399758e-01  4.58399757e-01  4.58399757e-01  3.23256052e-09  4.58399758e-01  3.45701456e-09  1.60299254e-07  7.15448749e-08  7.60000000e-01 
 7.70000000e-01  4.58399758e-01  4.58399758e-01  4.58399758e-01  4.58399758e-01  3.23256052e-09  4.58399758e-01  3.45701456e-09  1.60299254e-07  7.15447896e-08  7.70000000e-01 
 7.80000000e-01  4.58399735e-01  4.58399735e-01  4.58399735e-01  4.58399734e-01  3.23256046e-09  4.58399735e-01  3.45701456e-09  1.60299204e-07  7.15446546e-08  7.80000000e-01 
 7.90000000e-01  4.58399745e-01  4.58399745e-01  4.58399745e-01  4.58399745e-01  3.23256052e-09  4.58399745e-01  3.45701456e-09  1.60299228e-07  7.15445836e-08  7.90000000e-01 
 8.00000000e-01  4.58399750e-01  4.58399750e-01  4.58399750e-01  4.58399749e-01  3.23256052e-09  4.58399750e-01  3.45701456e-09  1.60299240e-07  7.15445765e-08  8.00000000e-01 
 8.10000000e-01  4.58399731e-01  4.58399731e-01  4.58399731e-01  4.58399731e-01  3.23256046e-09  4.58399731e-01  3.45701456e-09  1.60299215e-07  7.15444344e-08  8.10000000e-01 
 8.20000000e-01  4.58399746e-01  4.58399746e-01  4.58399746e-01  4.58399745e-01  3.23256046e-09  4.58399746e-01  3.45701456e-09  1.60299234e-07  7.15444628e-08  8.20000000e-01 
 8.30000000e-01  4.58399751e-01  4.58399751e-01  4.58399751e-01  4.58399751e-01  3.23256052e-09  4.58399751e-01  3.45701456e-09  1.60299235e-07  7.15444060e-08  8.30000000e-01 
 8.40000000e-01  4.58399748e-01  4.58399748e-01  4.58399748e-01  4.58399748e-01  3.23256052e-09  4.58399748e-01  3.45701456e-09  1.60299240e-07  7.15442923e-08  8.40000000e-01 
 8.50000000e-01  4.58399751e-01  4.58399751e-01  4.58399751e-01  4.58399751e-01  3.23256052e-09  4.58399751e-01  3.45701456e-09  1.60299244e-07  7.15441999e-08  8.50000000e-01 
 8.60000000e-01  4.58399750e-01  4.58399750e-01  4.58399750e-01  4.58399750e-01  3.23256046e-09  4.58399750e-01  3.45701456e-09  1.60299235e-07  7.15442425e-08  8.60000000e-01 
 8.70000000e-01  4.58399747e-01  4.58399746e-01  4.58399746e-01  4.58399746e-01  3.23256052e-09  4.58399746e-01  3.45701456e-09  1.60299239e-07  7.15441715e-08  8.70000000e-01 
 8.80000000e-01  4.58399768e-01  4.58399768e-01  4.58399768e-01  4.58399768e-01  3.23256052e-09  4.58399768e-01  3.45701456e-09  1.60299274e-07  7.15440365e-08  8.80000000e-01 
 8.90000000e-01  4.58399761e-01  4.58399761e-01  4.58399761e-01  4.58399761e-01  3.23256052e-09  4.58399761e-01  3.45701456e-09  1.60299251e-07  7.15440720e-08  8.90000000e-01 
 9.00000000e-01  4.58399732e-01  4.58399732e-01  4.58399731e-01  4.58399731e-01  3.23256052e-09  4.58399732e-01  3.45701456e-09  1.60299214e-07  7.15438517e-08  9.00000000e-01 
 9.10000000e-01  4.58399767e-01  4.58399767e-01  4.58399767e-01  4.58399767e-01  3.23256052e-09  4.58399767e-01  3.45701456e-09  1.60299275e-07  7.15438375e-08  9.10000000e-01 
 9.20000000e-01  4.58399767e-01  4.58399767e-01  4.58399767e-01  4.58399767e-01  3.23256046e-09  4.58399767e-01  3.45701456e-09  1.60299274e-07  7.15438802e-08  9.20000000e-01 
 9.30000000e-01  4.58399746e-01  4.58399746e-01  4.58399746e-01  4.58399746e-01  3.23256052e-09  4.58399746e-01  3.45701456e-09  1.60299242e-07  7.15436741e-08  9.30000000e-01 
 9.40000000e-01  4.58399760e-01  4.58399760e-01  4.58399760e-01  4.58399760e-01  3.23256046e-09  4.58399760e-01  3.45701456e-09  1.60299250e-07  7.15436030e-08  9.40000000e-01 
 9.50000000e-01  4.58399763e-01  4.58399763e-01  4.58399763e-01  4.58399763e-01  3.23256046e-09  4.58399763e-01  3.45701456e-09  1.60299256e-07  7.15436670e-08  9.50000000e-01 
 9.60000000e-01  4.58399740e-01  4.58399740e-01  4.58399740e-01  4.58399740e-01  3.23256052e-09  4.58399740e-01  3.45701456e-09  1.60299221e-07  7.15434822e-08  9.60000000e-01 
 9.70000000e-01  4.58399755e-01  4.58399755e-01  4.58399755e-01  4.58399755e-01  3.23256052e-09  4.58399755e-01  3.45701456e-09  1.60299246e-07  7.15434680e-08  9.70000000e-01 
 9.80000000e-01  4.58399745e-01  4.58399745e-01  4.58399745e-01  4.58399745e-01  3.23256052e-09  4.58399745e-01  3.45701456e-09  1.60299243e-07  7.15433757e-08  9.80000000e-01 
 9.90000000e-01  4.58399754e-01  4.58399754e-01  4.58399754e-01  4.58399754e-01  3.23256046e-09  4.58399754e-01  3.45701456e-09  1.60299255e-07  7.15433970e-08  9.90000000e-01 
 1.00000000e+00  4.58399732e-01  4.58399732e-01  4.58399732e-01  4.58399732e-01  3.23256052e-09  4.58399732e-01  3.45701456e-09  1.60299211e-07  7.15432265e-08  1.00000000e+00 
 1.01000000e+00  4.58399767e-01  4.58399767e-01  4.58399767e-01  4.58399767e-01  3.23256052e-09  4.58399767e-01  3.45701456e-09  1.60299257e-07  7.15432833e-08  1.01000000e+00 
 1.02000000e+00  4.58399748e-01  4.58399748e-01  4.58399748e-01  4.58399747e-01  3.23256046e-09  4.58399748e-01  3.45701456e-09  1.60299242e-07  7.15431696e-08  1.02000000e+00 
 1.03000000e+00  4.58399769e-01  4.58399769e-01  4.58399769e-01  4.58399769e-01  3.23256052e-09  4.58399769e-01  3.45701456e-09  1.60299275e-07  7.15430701e-08  1.03000000e+00 
 1.04000000e+00  4.58399756e-01  4.58399756e-01  4.58399755e-01  4.58399755e-01  3.23256052e-09  4.58399755e-01  3.45701456e-09  1.60299262e-07  7.15429707e-08  1.04000000e+00 
 1.05000000e+00  4.58399768e-01  4.58399768e-01  4.58399768e-01  4.58399768e-01  3.23256046e-09  4.58399768e-01  3.45701456e-09  1.60299258e-07  7.15428286e-08  1.05000000e+00 
 1.06000000e+00  4.58399745e-01  4.58399745e-01  4.58399745e-01  4.58399745e-01  3.23256052e-09  4.58399745e-01  3.45701456e-09  1.60299226e-07  7.15427788e-08  1.06000000e+00 
 1.07000000e+00  4.58399757e-01  4.58399757e-01  4.58399757e-01  4.58399757e-01  3.23256052e-09  4.58399757e-01  3.45701456e-09  1.60299262e-07  7.15427717e-08  1.07000000e+00 
 1.08000000e+00  4.58399751e-01  4.58399751e-01  4.58399751e-01  4.58399751e-01  3.23256046e-09  4.58399751e-01  3.45701456e-09  1.60299237e-07  7.15426154e-08  1.08000000e+00 
 1.09000000e+00  4.58399750e-01  4.58399750e-01  4.58399750e-01  4.58399750e-01  3.23256052e-09  4.58399750e-01  3.45701456e-09  1.60299249e-07  7.15426154e-08  1.09000000e+00 
 1.10000000e+00  4.58399759e-01  4.58399759e-01  4.58399759e-01  4.58399758e-01  3.23256046e-09  4.58399759e-01  3.45701456e-09  1.60299252e-07  7.15425870e-08  1.10000000e+00 
