 v-sweep         v(b0)           v(b1)           v(b2)           v(b3)           v(b4)           v(b5)           v(b6)           i(vbias)        i(viout)        v(vout)        
 0.00000000e+00  3.28034550e-09  4.56988062e-01  4.56988062e-01  3.24594520e-09  4.56988062e-01  4.56988062e-01  4.56988062e-01  1.55586172e-07  1.73790095e-07  0.00000000e+00 
 1.00000000e-02  3.28034554e-09  4.56988066e-01  4.56988066e-01  3.24594518e-09  4.56988066e-01  4.56988066e-01  4.56988066e-01  1.55586178e-07  1.73789617e-07  1.00000000e-02 
 2.00000000e-02  3.28034553e-09  4.56988077e-01  4.56988077e-01  3.24594518e-09  4.56988077e-01  4.56988077e-01  4.56988077e-01  1.55586216e-07  1.73789211e-07  2.00000000e-02 
 3.00000000e-02  3.28034549e-09  4.56988086e-01  4.56988086e-01  3.24594524e-09  4.56988086e-01  4.56988086e-01  4.56988085e-01  1.55586211e-07  1.73788851e-07  3.00000000e-02 
 4.00000000e-02  3.28034554e-09  4.56988099e-01  4.56988099e-01  3.24594524e-09  4.56988099e-01  4.56988099e-01  4.56988099e-01  1.55586223e-07  1.73788416e-07  4.00000000e-02 
 5.00000000e-02  3.28034547e-09  4.56988069e-01  4.56988069e-01  3.24594524e-09  4.56988069e-01  4.56988069e-01  4.56988069e-01  1.55586185e-07  1.73787911e-07  5.00000000e-02 
 6.00000000e-02  3.28034549e-09  4.56988085e-01  4.56988085e-01  3.24594518e-09  4.56988085e-01  4.56988085e-01  4.56988085e-01  1.55586228e-07  1.73787593e-07  6.00000000e-02 
 7.00000000e-02  3.28034548e-09  4.56988094e-01  4.56988094e-01  3.24594518e-09  4.56988094e-01  4.56988094e-01  4.56988094e-01  1.55586235e-07  1.73787200e-07  7.00000000e-02 
 8.00000000e-02  3.28034548e-09  4.56988072e-01  4.56988072e-01  3.24594518e-09  4.56988072e-01  4.56988072e-01  4.56988072e-01  1.55586200e-07  1.73786887e-07  8.00000000e-02 
 9.00000000e-02  3.28034548e-09  4.56988071e-01  4.56988071e-01  3.24594518e-09  4.56988071e-01  4.56988071e-01  4.56988071e-01  1.55586199e-07  1.73786558e-07  9.00000000e-02 
 1.00000000e-01  3.28034554e-09  4.56988092e-01  4.56988092e-01  3.24594518e-09  4.56988092e-01  4.56988092e-01  4.56988092e-01  1.55586222e-07  1.73786201e-07  1.00000000e-01 
 1.10000000e-01  3.28034553e-09  4.56988088e-01  4.56988088e-01  3.24594524e-09  4.56988088e-01  4.56988088e-01  4.56988088e-01  1.55586227e-07  1.73785889e-07  1.10000000e-01 
 1.20000000e-01  3.28034554e-09  4.56988058e-01  4.56988059e-01  3.24594518e-09  4.56988058e-01  4.56988059e-01  4.56988058e-01  1.55586181e-07  1.73785578e-07  1.20000000e-01 
 1.30000000e-01  3.28034553e-09  4.56988087e-01  4.56988087e-01  3.24594518e-09  4.56988087e-01  4.56988087e-01  4.56988087e-01  1.55586216e-07  1.73785385e-07  1.30000000e-01 
 1.40000000e-01  3.28034555e-09  4.56988101e-01  4.56988101e-01  3.24594518e-09  4.56988101e-01  4.56988101e-01  4.56988101e-01  1.55586256e-07  1.73785199e-07  1.40000000e-01 
 1.50000000e-01  3.28034553e-09  4.56988090e-01  4.56988090e-01  3.24594518e-09  4.56988090e-01  4.56988090e-01  4.56988090e-01  1.55586220e-07  1.73784816e-07  1.50000000e-01 
 1.60000000e-01  3.28034555e-09  4.56988094e-01  4.56988094e-01  3.24594524e-09  4.56988094e-01  4.56988094e-01  4.56988094e-01  1.55586240e-07  1.73784601e-07  1.60000000e-01 
 1.70000000e-01  3.28034547e-09  4.56988097e-01  4.56988097e-01  3.24594518e-09  4.56988097e-01  4.56988097e-01  4.56988097e-01  1.55586232e-07  1.73784317e-07  1.70000000e-01 
 1.80000000e-01  3.28034549e-09  4.56988056e-01  4.56988056e-01  3.24594518e-09  4.56988056e-01  4.56988056e-01  4.56988056e-01  1.55586180e-07  1.73783883e-07  1.80000000e-01 
 1.90000000e-01  3.28034548e-09  4.56988094e-01  4.56988094e-01  3.24594518e-09  4.56988094e-01  4.56988094e-01  4.56988094e-01  1.55586238e-07  1.73783860e-07  1.90000000e-01 
 2.00000000e-01  3.28034548e-09  4.56988048e-01  4.56988048e-01  3.24594524e-09  4.56988048e-01  4.56988048e-01  4.56988048e-01  1.55586155e-07  1.73783338e-07  2.00000000e-01 
 2.10000000e-01  3.28034554e-09  4.56988088e-01  4.56988088e-01  3.24594518e-09  4.56988088e-01  4.56988088e-01  4.56988088e-01  1.55586244e-07  1.73783373e-07  2.10000000e-01 
 2.20000000e-01  3.28034553e-09  4.56988070e-01  4.56988070e-01  3.24594518e-09  4.56988070e-01  4.56988070e-01  4.56988070e-01  1.55586194e-07  1.73783070e-07  2.20000000e-01 
 2.30000000e-01  3.28034549e-09  4.56988077e-01  4.56988077e-01  3.24594518e-09  4.56988077e-01  4.56988077e-01  4.56988077e-01  1.55586219e-07  1.73782814e-07  2.30000000e-01 
 2.40000000e-01  3.28034554e-09  4.56988073e-01  4.56988073e-01  3.24594524e-09  4.56988073e-01  4.56988073e-01  4.56988073e-01  1.55586212e-07  1.73782652e-07  2.40000000e-01 
 2.50000000e-01  3.28034553e-09  4.56988073e-01  4.56988073e-01  3.24594518e-09  4.56988073e-01  4.56988073e-01  4.56988073e-01  1.55586204e-07  1.73782416e-07  2.50000000e-01 
 2.60000000e-01  3.28034549e-09  4.56988077e-01  4.56988077e-01  3.24594518e-09  4.56988077e-01  4.56988077e-01  4.56988077e-01  1.55586207e-07  1.73782398e-07  2.60000000e-01 
 2.70000000e-01  3.28034554e-09  4.56988082e-01  4.56988082e-01  3.24594518e-09  4.56988082e-01  4.56988082e-01  4.56988082e-01  1.55586191e-07  1.73782091e-07  2.70000000e-01 
 2.80000000e-01  3.28034547e-09  4.56988076e-01  4.56988077e-01  3.24594524e-09  4.56988077e-01  4.56988077e-01  4.56988076e-01  1.55586202e-07  1.73781947e-07  2.80000000e-01 
 2.90000000e-01  3.28034549e-09  4.56988066e-01  4.56988066e-01  3.24594518e-09  4.56988066e-01  4.56988066e-01  4.56988066e-01  1.55586187e-07  1.73781626e-07  2.90000000e-01 
 3.00000000e-01  3.28034548e-09  4.56988092e-01  4.56988092e-01  3.24594524e-09  4.56988092e-01  4.56988092e-01  4.56988092e-01  1.55586237e-07  1.73781537e-07  3.00000000e-01 
 3.10000000e-01  3.28034554e-09  4.56988105e-01  4.56988105e-01  3.24594518e-09  4.56988105e-01  4.56988105e-01  4.56988105e-01  1.55586233e-07  1.73781455e-07  3.10000000e-01 
 3.20000000e-01  3.28034553e-09  4.56988070e-01  4.56988070e-01  3.24594524e-09  4.56988070e-01  4.56988070e-01  4.56988070e-01  1.55586200e-07  1.73781036e-07  3.20000000e-01 
 3.30000000e-01  3.28034555e-09  4.56988073e-01  4.56988074e-01  3.24594524e-09  4.56988074e-01  4.56988074e-01  4.56988073e-01  1.55586202e-07  1.73780901e-07  3.30000000e-01 
 3.40000000e-01  3.28034547e-09  4.56988072e-01  4.56988072e-01  3.24594518e-09  4.56988072e-01  4.56988072e-01  4.56988071e-01  1.55586190e-07  1.73780695e-07  3.40000000e-01 
 3.50000000e-01  3.28034555e-09  4.56988106e-01  4.56988106e-01  3.24594518e-09  4.56988106e-01  4.56988106e-01  4.56988106e-01  1.55586262e-07  1.73780727e-07  3.50000000e-01 
 3.60000000e-01  3.28034547e-09  4.56988089e-01  4.56988089e-01  3.24594518e-09  4.56988089e-01  4.56988089e-01  4.56988089e-01  1.55586209e-07  1.73780453e-07  3.60000000e-01 
 3.70000000e-01  3.28034555e-09  4.56988092e-01  4.56988092e-01  3.24594518e-09  4.56988092e-01  4.56988092e-01  4.56988092e-01  1.55586222e-07  1.73780364e-07  3.70000000e-01 
 3.80000000e-01  3.28034553e-09  4.56988092e-01  4.56988092e-01  3.24594518e-09  4.56988092e-01  4.56988092e-01  4.56988092e-01  1.55586218e-07  1.73780208e-07  3.80000000e-01 
 3.90000000e-01  3.28034549e-09  4.56988080e-01  4.56988080e-01  3.24594518e-09  4.56988080e-01  4.56988080e-01  4.56988080e-01  1.55586212e-07  1.73780005e-07  3.90000000e-01 
 4.00000000e-01  3.28034548e-09  4.56988083e-01  4.56988083e-01  3.24594524e-09  4.56988083e-01  4.56988083e-01  4.56988083e-01  1.55586199e-07  1.73779966e-07  4.00000000e-01 
 4.10000000e-01  3.28034554e-09  4.56988062e-01  4.56988062e-01  3.24594518e-09  4.56988062e-01  4.56988062e-01  4.56988062e-01  1.55586192e-07  1.73779668e-07  4.10000000e-01 
 4.20000000e-01  3.28034553e-09  4.56988094e-01  4.56988094e-01  3.24594518e-09  4.56988094e-01  4.56988094e-01  4.56988094e-01  1.55586229e-07  1.73779650e-07  4.20000000e-01 
 4.30000000e-01  3.28034549e-09  4.56988088e-01  4.56988089e-01  3.24594524e-09  4.56988088e-01  4.56988088e-01  4.56988088e-01  1.55586217e-07  1.73779426e-07  4.30000000e-01 
 4.40000000e-01  3.28034548e-09  4.56988079e-01  4.56988079e-01  3.24594524e-09  4.56988079e-01  4.56988079e-01  4.56988079e-01  1.55586208e-07  1.73779263e-07  4.40000000e-01 
 4.50000000e-01  3.28034548e-09  4.56988063e-01  4.56988063e-01  3.24594518e-09  4.56988063e-01  4.56988063e-01  4.56988063e-01  1.55586187e-07  1.73779064e-07  4.50000000e-01 
 4.60000000e-01  3.28034548e-09  4.56988075e-01  4.56988076e-01  3.24594518e-09  4.56988075e-01  4.56988076e-01  4.56988075e-01  1.55586215e-07  1.73778950e-07  4.60000000e-01 
 4.70000000e-01  3.28034548e-09  4.56988063e-01  4.56988063e-01  3.24594518e-09  4.56988063e-01  4.56988063e-01  4.56988063e-01  1.55586198e-07  1.73778826e-07  4.70000000e-01 
 4.80000000e-01  3.28034548e-09  4.56988102e-01  4.56988103e-01  3.24594518e-09  4.56988103e-01  4.56988103e-01  4.56988102e-01  1.55586247e-07  1.73778730e-07  4.80000000e-01 
 4.90000000e-01  3.28034548e-09  4.56988074e-01  4.56988074e-01  3.24594524e-09  4.56988074e-01  4.56988074e-01  4.56988074e-01  1.55586203e-07  1.73778623e-07  4.90000000e-01 
 5.00000000e-01  3.28034554e-09  4.56988088e-01  4.56988088e-01  3.24594518e-09  4.56988088e-01  4.56988088e-01  4.56988088e-01  1.55586226e-07  1.73778435e-07  5.00000000e-01 
 5.10000000e-01  3.28034547e-09  4.56988084e-01  4.56988084e-01  3.24594518e-09  4.56988084e-01  4.56988084e-01  4.56988084e-01  1.55586213e-07  1.73778339e-07  5.10000000e-01 
 5.20000000e-01  3.28034549e-09  4.56988074e-01  4.56988074e-01  3.24594524e-09  4.56988074e-01  4.56988074e-01  4.56988074e-01  1.55586194e-07  1.73778155e-07  5.20000000e-01 
 5.30000000e-01  3.28034548e-09  4.56988078e-01  4.56988078e-01  3.24594518e-09  4.56988078e-01  4.56988078e-01  4.56988077e-01  1.55586206e-07  1.73777941e-07  5.30000000e-01 
 5.40000000e-01  3.28034548e-09  4.56988079e-01  4.56988079e-01  3.24594518e-09  4.56988079e-01  4.56988079e-01  4.56988079e-01  1.55586203e-07  1.73777892e-07  5.40000000e-01 
 5.50000000e-01  3.28034548e-09  4.56988068e-01  4.56988068e-01  3.24594518e-09  4.56988068e-01  4.56988068e-01  4.56988068e-01  1.55586192e-07  1.73777661e-07  5.50000000e-01 
 5.60000000e-01  3.28034554e-09  4.56988065e-01  4.56988065e-01  3.24594524e-09  4.56988065e-01  4.56988065e-01  4.56988065e-01  1.55586184e-07  1.73777501e-07  5.60000000e-01 
 5.70000000e-01  3.28034547e-09  4.56988076e-01  4.56988076e-01  3.24594518e-09  4.56988076e-01  4.56988076e-01  4.56988076e-01  1.55586216e-07  1.73777380e-07  5.70000000e-01 
 5.80000000e-01  3.28034549e-09  4.56988075e-01  4.56988075e-01  3.24594524e-09  4.56988075e-01  4.56988075e-01  4.56988075e-01  1.55586203e-07  1.73777210e-07  5.80000000e-01 
 5.90000000e-01  3.28034548e-09  4.56988108e-01  4.56988108e-01  3.24594524e-09  4.56988108e-01  4.56988108e-01  4.56988108e-01  1.55586258e-07  1.73777295e-07  5.90000000e-01 
 6.00000000e-01  3.28034554e-09  4.56988071e-01  4.56988072e-01  3.24594518e-09  4.56988071e-01  4.56988072e-01  4.56988071e-01  1.55586198e-07  1.73776932e-07  6.00000000e-01 
 6.10000000e-01  3.28034553e-09  4.56988088e-01  4.56988088e-01  3.24594524e-09  4.56988088e-01  4.56988088e-01  4.56988088e-01  1.55586224e-07  1.73776826e-07  6.10000000e-01 
 6.20000000e-01  3.28034549e-09  4.56988076e-01  4.56988076e-01  3.24594524e-09  4.56988076e-01  4.56988076e-01  4.56988076e-01  1.55586202e-07  1.73776755e-07  6.20000000e-01 
 6.30000000e-01  3.28034554e-09  4.56988066e-01  4.56988066e-01  3.24594524e-09  4.56988066e-01  4.56988066e-01  4.56988066e-01  1.55586204e-07  1.73776506e-07  6.30000000e-01 
 6.40000000e-01  3.28034553e-09  4.56988064e-01  4.56988064e-01  3.24594518e-09  4.56988064e-01  4.56988064e-01  4.56988064e-01  1.55586191e-07  1.73776414e-07  6.40000000e-01 
 6.50000000e-01  3.28034549e-09  4.56988090e-01  4.56988090e-01  3.24594524e-09  4.56988090e-01  4.56988090e-01  4.56988090e-01  1.55586220e-07  1.73776321e-07  6.50000000e-01 
 6.60000000e-01  3.28034548e-09  4.56988084e-01  4.56988084e-01  3.24594518e-09  4.56988084e-01  4.56988084e-01  4.56988084e-01  1.55586216e-07  1.73776186e-07  6.60000000e-01 
 6.70000000e-01  3.28034548e-09  4.56988092e-01  4.56988092e-01  3.24594518e-09  4.56988092e-01  4.56988092e-01  4.56988092e-01  1.55586239e-07  1.73775994e-07  6.70000000e-01 
 6.80000000e-01  3.28034554e-09  4.56988088e-01  4.56988088e-01  3.24594518e-09  4.56988088e-01  4.56988088e-01  4.56988088e-01  1.55586205e-07  1.73775959e-07  6.80000000e-01 
 6.90000000e-01  3.28034547e-09  4.56988058e-01  4.56988058e-01  3.24594518e-09  4.56988058e-01  4.56988058e-01  4.56988057e-01  1.55586167e-07  1.73775639e-07  6.90000000e-01 
 7.00000000e-01  3.28034549e-09  4.56988078e-01  4.56988078e-01  3.24594524e-09  4.56988078e-01  4.56988078e-01  4.56988078e-01  1.55586219e-07  1.73775639e-07  7.00000000e-01 
 7.10000000e-01  3.28034554e-09  4.56988087e-01  4.56988087e-01  3.24594518e-09  4.56988087e-01  4.56988087e-01  4.56988087e-01  1.55586217e-07  1.73775419e-07  7.10000000e-01 
 7.20000000e-01  3.28034553e-09  4.56988070e-01  4.56988070e-01  3.24594524e-09  4.56988070e-01  4.56988070e-01  4.56988070e-01  1.55586176e-07  1.73775199e-07  7.20000000e-01 
 7.30000000e-01  3.28034555e-09  4.56988083e-01  4.56988083e-01  3.24594518e-09  4.56988083e-01  4.56988083e-01  4.56988083e-01  1.55586219e-07  1.73775106e-07  7.30000000e-01 
 7.40000000e-01  3.28034553e-09  4.56988088e-01  4.56988088e-01  3.24594524e-09  4.56988088e-01  4.56988088e-01  4.56988088e-01  1.55586226e-07  1.73774879e-07  7.40000000e-01 
 7.50000000e-01  3.28034549e-09  4.56988074e-01  4.56988074e-01  3.24594518e-09  4.56988074e-01  4.56988074e-01  4.56988074e-01  1.55586196e-07  1.73774808e-07  7.50000000e-01 
 7.60000000e-01  3.28034548e-09  4.56988070e-01  4.56988070e-01  3.24594524e-09  4.56988070e-01  4.56988070e-01  4.56988070e-01  1.55586190e-07  1.73774708e-07  7.60000000e-01 
 7.70000000e-01  3.28034548e-09  4.56988070e-01  4.56988070e-01  3.24594518e-09  4.56988070e-01  4.56988070e-01  4.56988070e-01  1.55586195e-07  1.73774467e-07  7.70000000e-01 
 7.80000000e-01  3.28034554e-09  4.56988079e-01  4.56988079e-01  3.24594518e-09  4.56988079e-01  4.56988079e-01  4.56988079e-01  1.55586207e-07  1.73774389e-07  7.80000000e-01 
 7.90000000e-01  3.28034547e-09  4.56988079e-01  4.56988079e-01  3.24594524e-09  4.56988079e-01  4.56988079e-01  4.56988079e-01  1.55586202e-07  1.73774261e-07  7.90000000e-01 
 8.00000000e-01  3.28034555e-09  4.56988094e-01  4.56988094e-01  3.24594524e-09  4.56988094e-01  4.56988094e-01  4.56988094e-01  1.55586229e-07  1.73774005e-07  8.00000000e-01 
 8.10000000e-01  3.28034553e-09  4.56988093e-01  4.56988093e-01  3.24594518e-09  4.56988093e-01  4.56988093e-01  4.56988093e-01  1.55586220e-07  1.73774062e-07  8.10000000e-01 
 8.20000000e-01  3.28034555e-09  4.56988080e-01  4.56988080e-01  3.24594518e-09  4.56988080e-01  4.56988080e-01  4.56988080e-01  1.55586201e-07  1.73773806e-07  8.20000000e-01 
 8.30000000e-01  3.28034547e-09  4.56988066e-01  4.56988066e-01  3.24594518e-09  4.56988066e-01  4.56988066e-01  4.56988065e-01  1.55586182e-07  1.73773451e-07  8.30000000e-01 
 8.40000000e-01  3.28034549e-09  4.56988077e-01  4.56988077e-01  3.24594518e-09  4.56988077e-01  4.56988077e-01  4.56988077e-01  1.55586206e-07  1.73773458e-07  8.40000000e-01 
 8.50000000e-01  3.28034554e-09  4.56988065e-01  4.56988065e-01  3.24594524e-09  4.56988065e-01  4.56988065e-01  4.56988064e-01  1.55586186e-07  1.73773273e-07  8.50000000e-01 
 8.60000000e-01  3.28034553e-09  4.56988099e-01  4.56988099e-01  3.24594518e-09  4.56988099e-01  4.56988099e-01  4.56988099e-01  1.55586229e-07  1.73773223e-07  8.60000000e-01 
 8.70000000e-01  3.28034555e-09  4.56988090e-01  4.56988090e-01  3.24594524e-09  4.56988090e-01  4.56988090e-01  4.56988090e-01  1.55586220e-07  1.73772989e-07  8.70000000e-01 
 8.80000000e-01  3.28034553e-09  4.56988100e-01  4.56988100e-01  3.24594518e-09  4.56988100e-01  4.56988100e-01  4.56988100e-01  1.55586232e-07  1.73772825e-07  8.80000000e-01 
 8.90000000e-01  3.28034549e-09  4.56988088e-01  4.56988088e-01  3.24594518e-09  4.56988088e-01  4.56988088e-01  4.56988088e-01  1.55586224e-07  1.73772690e-07  8.90000000e-01 
 9.00000000e-01  3.28034548e-09  4.56988075e-01  4.56988075e-01  3.24594518e-09  4.56988075e-01  4.56988075e-01  4.56988075e-01  1.55586186e-07  1.73772399e-07  9.00000000e-01 
 9.10000000e-01  3.28034548e-09  4.56988074e-01  4.56988074e-01  3.24594518e-09  4.56988074e-01  4.56988074e-01  4.56988074e-01  1.55586203e-07  1.73772293e-07  9.10000000e-01 
 9.20000000e-01  3.28034548e-09  4.56988074e-01  4.56988074e-01  3.24594518e-09  4.56988074e-01  4.56988074e-01  4.56988074e-01  1.55586196e-07  1.73772222e-07  9.20000000e-01 
 9.30000000e-01  3.28034554e-09  4.56988081e-01  4.56988081e-01  3.24594518e-09  4.56988081e-01  4.56988081e-01  4.56988081e-01  1.55586209e-07  1.73772079e-07  9.30000000e-01 
 9.40000000e-01  3.28034553e-09  4.56988075e-01  4.56988075e-01  3.24594524e-09  4.56988075e-01  4.56988075e-01  4.56988075e-01  1.55586203e-07  1.73771909e-07  9.40000000e-01 
 9.50000000e-01  3.28034555e-09  4.56988081e-01  4.56988081e-01  3.24594518e-09  4.56988081e-01  4.56988081e-01  4.56988080e-01  1.55586211e-07  1.73771731e-07  9.50000000e-01 
 9.60000000e-01  3.28034547e-09  4.56988070e-01  4.56988070e-01  3.24594524e-09  4.56988070e-01  4.56988070e-01  4.56988070e-01  1.55586185e-07  1.73771447e-07  9.60000000e-01 
 9.70000000e-01  3.28034549e-09  4.56988086e-01  4.56988086e-01  3.24594518e-09  4.56988086e-01  4.56988086e-01  4.56988086e-01  1.55586223e-07  1.73771440e-07  9.70000000e-01 
 9.80000000e-01  3.28034548e-09  4.56988106e-01  4.56988106e-01  3.24594518e-09  4.56988106e-01  4.56988106e-01  4.56988106e-01  1.55586224e-07  1.73771355e-07  9.80000000e-01 
 9.90000000e-01  3.28034548e-09  4.56988067e-01  4.56988067e-01  3.24594524e-09  4.56988067e-01  4.56988067e-01  4.56988066e-01  1.55586190e-07  1.73770928e-07  9.90000000e-01 
 1.00000000e+00  3.28034548e-09  4.56988089e-01  4.56988089e-01  3.24594518e-09  4.56988089e-01  4.56988089e-01  4.56988089e-01  1.55586234e-07  1.73770843e-07  1.00000000e+00 
 1.01000000e+00  3.28034548e-09  4.56988109e-01  4.56988109e-01  3.24594518e-09  4.56988109e-01  4.56988109e-01  4.56988109e-01  1.55586244e-07  1.73770964e-07  1.01000000e+00 
 1.02000000e+00  3.28034548e-09  4.56988077e-01  4.56988077e-01  3.24594518e-09  4.56988077e-01  4.56988077e-01  4.56988077e-01  1.55586199e-07  1.73770431e-07  1.02000000e+00 
 1.03000000e+00  3.28034548e-09  4.56988085e-01  4.56988085e-01  3.24594518e-09  4.56988085e-01  4.56988085e-01  4.56988085e-01  1.55586230e-07  1.73770346e-07  1.03000000e+00 
 1.04000000e+00  3.28034548e-09  4.56988065e-01  4.56988065e-01  3.24594518e-09  4.56988065e-01  4.56988065e-01  4.56988065e-01  1.55586183e-07  1.73770118e-07  1.04000000e+00 
 1.05000000e+00  3.28034554e-09  4.56988097e-01  4.56988097e-01  3.24594518e-09  4.56988097e-01  4.56988097e-01  4.56988097e-01  1.55586233e-07  1.73769948e-07  1.05000000e+00 
 1.06000000e+00  3.28034553e-09  4.56988078e-01  4.56988078e-01  3.24594518e-09  4.56988078e-01  4.56988078e-01  4.56988078e-01  1.55586218e-07  1.73769699e-07  1.06000000e+00 
 1.07000000e+00  3.28034549e-09  4.56988075e-01  4.56988075e-01  3.24594524e-09  4.56988075e-01  4.56988075e-01  4.56988075e-01  1.55586201e-07  1.73769529e-07  1.07000000e+00 
 1.08000000e+00  3.28034548e-09  4.56988084e-01  4.56988084e-01  3.24594518e-09  4.56988084e-01  4.56988084e-01  4.56988084e-01  1.55586231e-07  1.73769322e-07  1.08000000e+00 
 1.09000000e+00  3.28034554e-09  4.56988097e-01  4.56988097e-01  3.24594524e-09  4.56988097e-01  4.56988097e-01  4.56988097e-01  1.55586230e-07  1.73769244e-07  1.09000000e+00 
 1.10000000e+00  3.28034553e-09  4.56988074e-01  4.56988074e-01  3.24594518e-09  4.56988074e-01  4.56988074e-01  4.56988074e-01  1.55586189e-07  1.73768889e-07  1.10000000e+00 
