 v-sweep         v(b0)           v(b1)           v(b2)           v(b3)           v(b4)           v(b5)           v(b6)           i(vbias)        i(viout)        v(vout)        
 0.00000000e+00  3.31689371e-09  3.41332276e-09  4.55841895e-01  4.55841895e-01  4.55841895e-01  4.55841895e-01  3.32315039e-09  1.53929400e-07  8.66930725e-08  0.00000000e+00 
 1.00000000e-02  3.31689368e-09  3.41332279e-09  4.55841913e-01  4.55841913e-01  4.55841913e-01  4.55841913e-01  3.32315042e-09  1.53929430e-07  8.66927429e-08  1.00000000e-02 
 2.00000000e-02  3.31689368e-09  3.41332278e-09  4.55841879e-01  4.55841879e-01  4.55841878e-01  4.55841879e-01  3.32315041e-09  1.53929369e-07  8.66922480e-08  2.00000000e-02 
 3.00000000e-02  3.31689374e-09  3.41332279e-09  4.55841905e-01  4.55841905e-01  4.55841905e-01  4.55841905e-01  3.32315037e-09  1.53929409e-07  8.66919638e-08  3.00000000e-02 
 4.00000000e-02  3.31689367e-09  3.41332279e-09  4.55841928e-01  4.55841928e-01  4.55841928e-01  4.55841928e-01  3.32315037e-09  1.53929441e-07  8.66916041e-08  4.00000000e-02 
 5.00000000e-02  3.31689369e-09  3.41332279e-09  4.55841930e-01  4.55841930e-01  4.55841929e-01  4.55841930e-01  3.32315037e-09  1.53929440e-07  8.66912275e-08  5.00000000e-02 
 6.00000000e-02  3.31689368e-09  3.41332279e-09  4.55841926e-01  4.55841926e-01  4.55841926e-01  4.55841926e-01  3.32315037e-09  1.53929435e-07  8.66909855e-08  6.00000000e-02 
 7.00000000e-02  3.31689368e-09  3.41332279e-09  4.55841896e-01  4.55841896e-01  4.55841896e-01  4.55841896e-01  3.32315036e-09  1.53929394e-07  8.66906174e-08  7.00000000e-02 
 8.00000000e-02  3.31689374e-09  3.41332279e-09  4.55841905e-01  4.55841905e-01  4.55841905e-01  4.55841905e-01  3.32315036e-09  1.53929393e-07  8.66903154e-08  8.00000000e-02 
 9.00000000e-02  3.31689367e-09  3.41332279e-09  4.55841911e-01  4.55841911e-01  4.55841911e-01  4.55841911e-01  3.32315042e-09  1.53929429e-07  8.66900125e-08  9.00000000e-02 
 1.00000000e-01  3.31689375e-09  3.41332279e-09  4.55841916e-01  4.55841916e-01  4.55841916e-01  4.55841916e-01  3.32315035e-09  1.53929412e-07  8.66897194e-08  1.00000000e-01 
 1.10000000e-01  3.31689373e-09  3.41332279e-09  4.55841920e-01  4.55841920e-01  4.55841920e-01  4.55841920e-01  3.32315037e-09  1.53929433e-07  8.66895329e-08  1.10000000e-01 
 1.20000000e-01  3.31689368e-09  3.41332279e-09  4.55841903e-01  4.55841903e-01  4.55841902e-01  4.55841902e-01  3.32315042e-09  1.53929404e-07  8.66892087e-08  1.20000000e-01 
 1.30000000e-01  3.31689369e-09  3.41332279e-09  4.55841895e-01  4.55841895e-01  4.55841895e-01  4.55841895e-01  3.32315035e-09  1.53929381e-07  8.66889582e-08  1.30000000e-01 
 1.40000000e-01  3.31689374e-09  3.41332279e-09  4.55841901e-01  4.55841901e-01  4.55841901e-01  4.55841901e-01  3.32315037e-09  1.53929393e-07  8.66888241e-08  1.40000000e-01 
 1.50000000e-01  3.31689373e-09  3.41332279e-09  4.55841897e-01  4.55841897e-01  4.55841897e-01  4.55841897e-01  3.32315036e-09  1.53929395e-07  8.66886687e-08  1.50000000e-01 
 1.60000000e-01  3.31689368e-09  3.41332279e-09  4.55841935e-01  4.55841935e-01  4.55841935e-01  4.55841935e-01  3.32315042e-09  1.53929444e-07  8.66884289e-08  1.60000000e-01 
 1.70000000e-01  3.31689369e-09  3.41332279e-09  4.55841883e-01  4.55841883e-01  4.55841883e-01  4.55841883e-01  3.32315041e-09  1.53929384e-07  8.66881802e-08  1.70000000e-01 
 1.80000000e-01  3.31689368e-09  3.41332279e-09  4.55841893e-01  4.55841893e-01  4.55841893e-01  4.55841893e-01  3.32315037e-09  1.53929368e-07  8.66879848e-08  1.80000000e-01 
 1.90000000e-01  3.31689374e-09  3.41332279e-09  4.55841887e-01  4.55841887e-01  4.55841887e-01  4.55841887e-01  3.32315036e-09  1.53929379e-07  8.66877450e-08  1.90000000e-01 
 2.00000000e-01  3.31689373e-09  3.41332279e-09  4.55841897e-01  4.55841897e-01  4.55841897e-01  4.55841897e-01  3.32315036e-09  1.53929397e-07  8.66875780e-08  2.00000000e-01 
 2.10000000e-01  3.31689368e-09  3.41332279e-09  4.55841902e-01  4.55841902e-01  4.55841902e-01  4.55841902e-01  3.32315036e-09  1.53929409e-07  8.66874288e-08  2.10000000e-01 
 2.20000000e-01  3.31689369e-09  3.41332279e-09  4.55841924e-01  4.55841924e-01  4.55841924e-01  4.55841924e-01  3.32315037e-09  1.53929435e-07  8.66873844e-08  2.20000000e-01 
 2.30000000e-01  3.31689368e-09  3.41332279e-09  4.55841913e-01  4.55841913e-01  4.55841913e-01  4.55841913e-01  3.32315036e-09  1.53929407e-07  8.66872352e-08  2.30000000e-01 
 2.40000000e-01  3.31689374e-09  3.41332279e-09  4.55841900e-01  4.55841900e-01  4.55841900e-01  4.55841900e-01  3.32315036e-09  1.53929403e-07  8.66870540e-08  2.40000000e-01 
 2.50000000e-01  3.31689373e-09  3.41332278e-09  4.55841879e-01  4.55841879e-01  4.55841879e-01  4.55841879e-01  3.32315036e-09  1.53929367e-07  8.66868319e-08  2.50000000e-01 
 2.60000000e-01  3.31689373e-09  3.41332279e-09  4.55841894e-01  4.55841894e-01  4.55841894e-01  4.55841894e-01  3.32315036e-09  1.53929398e-07  8.66867769e-08  2.60000000e-01 
 2.70000000e-01  3.31689368e-09  3.41332279e-09  4.55841919e-01  4.55841919e-01  4.55841918e-01  4.55841919e-01  3.32315036e-09  1.53929425e-07  8.66867129e-08  2.70000000e-01 
 2.80000000e-01  3.31689369e-09  3.41332279e-09  4.55841910e-01  4.55841910e-01  4.55841910e-01  4.55841910e-01  3.32315036e-09  1.53929421e-07  8.66864305e-08  2.80000000e-01 
 2.90000000e-01  3.31689374e-09  3.41332278e-09  4.55841881e-01  4.55841881e-01  4.55841881e-01  4.55841881e-01  3.32315036e-09  1.53929376e-07  8.66863097e-08  2.90000000e-01 
 3.00000000e-01  3.31689373e-09  3.41332279e-09  4.55841897e-01  4.55841897e-01  4.55841897e-01  4.55841897e-01  3.32315042e-09  1.53929412e-07  8.66862813e-08  3.00000000e-01 
 3.10000000e-01  3.31689368e-09  3.41332279e-09  4.55841923e-01  4.55841923e-01  4.55841923e-01  4.55841923e-01  3.32315035e-09  1.53929422e-07  8.66862457e-08  3.10000000e-01 
 3.20000000e-01  3.31689375e-09  3.41332279e-09  4.55841892e-01  4.55841892e-01  4.55841892e-01  4.55841892e-01  3.32315037e-09  1.53929388e-07  8.66859153e-08  3.20000000e-01 
 3.30000000e-01  3.31689373e-09  3.41332279e-09  4.55841900e-01  4.55841900e-01  4.55841900e-01  4.55841900e-01  3.32315042e-09  1.53929387e-07  8.66859580e-08  3.30000000e-01 
 3.40000000e-01  3.31689368e-09  3.41332279e-09  4.55841891e-01  4.55841891e-01  4.55841891e-01  4.55841891e-01  3.32315041e-09  1.53929384e-07  8.66858869e-08  3.40000000e-01 
 3.50000000e-01  3.31689369e-09  3.41332279e-09  4.55841890e-01  4.55841890e-01  4.55841890e-01  4.55841890e-01  3.32315043e-09  1.53929379e-07  8.66856276e-08  3.50000000e-01 
 3.60000000e-01  3.31689374e-09  3.41332279e-09  4.55841893e-01  4.55841893e-01  4.55841893e-01  4.55841893e-01  3.32315035e-09  1.53929374e-07  8.66856062e-08  3.60000000e-01 
 3.70000000e-01  3.31689373e-09  3.41332279e-09  4.55841910e-01  4.55841910e-01  4.55841910e-01  4.55841910e-01  3.32315037e-09  1.53929415e-07  8.66855565e-08  3.70000000e-01 
 3.80000000e-01  3.31689373e-09  3.41332278e-09  4.55841866e-01  4.55841866e-01  4.55841866e-01  4.55841866e-01  3.32315042e-09  1.53929346e-07  8.66854215e-08  3.80000000e-01 
 3.90000000e-01  3.31689368e-09  3.41332278e-09  4.55841878e-01  4.55841878e-01  4.55841878e-01  4.55841878e-01  3.32315035e-09  1.53929364e-07  8.66852652e-08  3.90000000e-01 
 4.00000000e-01  3.31689369e-09  3.41332279e-09  4.55841885e-01  4.55841885e-01  4.55841884e-01  4.55841884e-01  3.32315037e-09  1.53929375e-07  8.66853043e-08  4.00000000e-01 
 4.10000000e-01  3.31689374e-09  3.41332279e-09  4.55841907e-01  4.55841907e-01  4.55841907e-01  4.55841907e-01  3.32315036e-09  1.53929403e-07  8.66851373e-08  4.10000000e-01 
 4.20000000e-01  3.31689373e-09  3.41332279e-09  4.55841916e-01  4.55841916e-01  4.55841916e-01  4.55841916e-01  3.32315036e-09  1.53929435e-07  8.66852226e-08  4.20000000e-01 
 4.30000000e-01  3.31689374e-09  3.41332279e-09  4.55841925e-01  4.55841925e-01  4.55841925e-01  4.55841925e-01  3.32315037e-09  1.53929438e-07  8.66850556e-08  4.30000000e-01 
 4.40000000e-01  3.31689374e-09  3.41332279e-09  4.55841924e-01  4.55841924e-01  4.55841924e-01  4.55841924e-01  3.32315042e-09  1.53929437e-07  8.66850414e-08  4.40000000e-01 
 4.50000000e-01  3.31689373e-09  3.41332279e-09  4.55841899e-01  4.55841899e-01  4.55841899e-01  4.55841899e-01  3.32315035e-09  1.53929398e-07  8.66848673e-08  4.50000000e-01 
 4.60000000e-01  3.31689373e-09  3.41332279e-09  4.55841896e-01  4.55841896e-01  4.55841896e-01  4.55841896e-01  3.32315037e-09  1.53929374e-07  8.66848353e-08  4.60000000e-01 
 4.70000000e-01  3.31689373e-09  3.41332279e-09  4.55841906e-01  4.55841906e-01  4.55841906e-01  4.55841906e-01  3.32315036e-09  1.53929404e-07  8.66847181e-08  4.70000000e-01 
 4.80000000e-01  3.31689373e-09  3.41332279e-09  4.55841906e-01  4.55841906e-01  4.55841906e-01  4.55841906e-01  3.32315036e-09  1.53929414e-07  8.66846470e-08  4.80000000e-01 
 4.90000000e-01  3.31689373e-09  3.41332279e-09  4.55841915e-01  4.55841915e-01  4.55841915e-01  4.55841915e-01  3.32315036e-09  1.53929427e-07  8.66845475e-08  4.90000000e-01 
 5.00000000e-01  3.31689373e-09  3.41332279e-09  4.55841896e-01  4.55841896e-01  4.55841896e-01  4.55841896e-01  3.32315042e-09  1.53929383e-07  8.66844694e-08  5.00000000e-01 
 5.10000000e-01  3.31689373e-09  3.41332279e-09  4.55841907e-01  4.55841907e-01  4.55841907e-01  4.55841907e-01  3.32315035e-09  1.53929404e-07  8.66844481e-08  5.10000000e-01 
 5.20000000e-01  3.31689373e-09  3.41332279e-09  4.55841905e-01  4.55841905e-01  4.55841905e-01  4.55841905e-01  3.32315037e-09  1.53929408e-07  8.66843273e-08  5.20000000e-01 
 5.30000000e-01  3.31689373e-09  3.41332279e-09  4.55841900e-01  4.55841900e-01  4.55841900e-01  4.55841900e-01  3.32315042e-09  1.53929401e-07  8.66842456e-08  5.30000000e-01 
 5.40000000e-01  3.31689373e-09  3.41332279e-09  4.55841906e-01  4.55841906e-01  4.55841906e-01  4.55841906e-01  3.32315035e-09  1.53929424e-07  8.66843486e-08  5.40000000e-01 
 5.50000000e-01  3.31689373e-09  3.41332279e-09  4.55841907e-01  4.55841907e-01  4.55841907e-01  4.55841907e-01  3.32315037e-09  1.53929422e-07  8.66841106e-08  5.50000000e-01 
 5.60000000e-01  3.31689368e-09  3.41332279e-09  4.55841908e-01  4.55841908e-01  4.55841908e-01  4.55841908e-01  3.32315036e-09  1.53929410e-07  8.66841461e-08  5.60000000e-01 
 5.70000000e-01  3.31689375e-09  3.41332279e-09  4.55841894e-01  4.55841894e-01  4.55841894e-01  4.55841894e-01  3.32315036e-09  1.53929400e-07  8.66839684e-08  5.70000000e-01 
 5.80000000e-01  3.31689367e-09  3.41332279e-09  4.55841890e-01  4.55841890e-01  4.55841890e-01  4.55841890e-01  3.32315036e-09  1.53929368e-07  8.66839400e-08  5.80000000e-01 
 5.90000000e-01  3.31689375e-09  3.41332279e-09  4.55841898e-01  4.55841898e-01  4.55841898e-01  4.55841898e-01  3.32315042e-09  1.53929379e-07  8.66837624e-08  5.90000000e-01 
 6.00000000e-01  3.31689373e-09  3.41332279e-09  4.55841898e-01  4.55841898e-01  4.55841898e-01  4.55841898e-01  3.32315041e-09  1.53929397e-07  8.66837198e-08  6.00000000e-01 
 6.10000000e-01  3.31689368e-09  3.41332279e-09  4.55841903e-01  4.55841903e-01  4.55841903e-01  4.55841903e-01  3.32315037e-09  1.53929402e-07  8.66837127e-08  6.10000000e-01 
 6.20000000e-01  3.31689375e-09  3.41332279e-09  4.55841915e-01  4.55841915e-01  4.55841914e-01  4.55841914e-01  3.32315036e-09  1.53929423e-07  8.66835990e-08  6.20000000e-01 
 6.30000000e-01  3.31689373e-09  3.41332279e-09  4.55841904e-01  4.55841904e-01  4.55841904e-01  4.55841904e-01  3.32315036e-09  1.53929414e-07  8.66835848e-08  6.30000000e-01 
 6.40000000e-01  3.31689373e-09  3.41332279e-09  4.55841916e-01  4.55841916e-01  4.55841916e-01  4.55841916e-01  3.32315036e-09  1.53929432e-07  8.66836132e-08  6.40000000e-01 
 6.50000000e-01  3.31689373e-09  3.41332279e-09  4.55841899e-01  4.55841899e-01  4.55841899e-01  4.55841899e-01  3.32315036e-09  1.53929385e-07  8.66833574e-08  6.50000000e-01 
 6.60000000e-01  3.31689373e-09  3.41332279e-09  4.55841900e-01  4.55841900e-01  4.55841900e-01  4.55841900e-01  3.32315036e-09  1.53929383e-07  8.66834782e-08  6.60000000e-01 
 6.70000000e-01  3.31689368e-09  3.41332279e-09  4.55841893e-01  4.55841893e-01  4.55841893e-01  4.55841893e-01  3.32315036e-09  1.53929388e-07  8.66833005e-08  6.70000000e-01 
 6.80000000e-01  3.31689375e-09  3.41332279e-09  4.55841887e-01  4.55841887e-01  4.55841887e-01  4.55841887e-01  3.32315036e-09  1.53929374e-07  8.66831229e-08  6.80000000e-01 
 6.90000000e-01  3.31689373e-09  3.41332279e-09  4.55841916e-01  4.55841916e-01  4.55841916e-01  4.55841916e-01  3.32315036e-09  1.53929422e-07  8.66832792e-08  6.90000000e-01 
 7.00000000e-01  3.31689374e-09  3.41332279e-09  4.55841924e-01  4.55841924e-01  4.55841924e-01  4.55841924e-01  3.32315037e-09  1.53929437e-07  8.66831584e-08  7.00000000e-01 
 7.10000000e-01  3.31689368e-09  3.41332279e-09  4.55841899e-01  4.55841899e-01  4.55841899e-01  4.55841899e-01  3.32315036e-09  1.53929405e-07  8.66830376e-08  7.10000000e-01 
 7.20000000e-01  3.31689369e-09  3.41332279e-09  4.55841893e-01  4.55841893e-01  4.55841893e-01  4.55841893e-01  3.32315036e-09  1.53929375e-07  8.66829382e-08  7.20000000e-01 
 7.30000000e-01  3.31689368e-09  3.41332279e-09  4.55841914e-01  4.55841914e-01  4.55841914e-01  4.55841914e-01  3.32315036e-09  1.53929399e-07  8.66829950e-08  7.30000000e-01 
 7.40000000e-01  3.31689368e-09  3.41332279e-09  4.55841903e-01  4.55841903e-01  4.55841903e-01  4.55841903e-01  3.32315036e-09  1.53929404e-07  8.66828174e-08  7.40000000e-01 
 7.50000000e-01  3.31689368e-09  3.41332279e-09  4.55841901e-01  4.55841901e-01  4.55841901e-01  4.55841901e-01  3.32315036e-09  1.53929411e-07  8.66827392e-08  7.50000000e-01 
 7.60000000e-01  3.31689374e-09  3.41332279e-09  4.55841901e-01  4.55841901e-01  4.55841901e-01  4.55841901e-01  3.32315036e-09  1.53929402e-07  8.66826753e-08  7.60000000e-01 
 7.70000000e-01  3.31689373e-09  3.41332279e-09  4.55841899e-01  4.55841899e-01  4.55841899e-01  4.55841899e-01  3.32315042e-09  1.53929396e-07  8.66826326e-08  7.70000000e-01 
 7.80000000e-01  3.31689368e-09  3.41332279e-09  4.55841920e-01  4.55841920e-01  4.55841920e-01  4.55841920e-01  3.32315035e-09  1.53929444e-07  8.66825403e-08  7.80000000e-01 
 7.90000000e-01  3.31689369e-09  3.41332279e-09  4.55841913e-01  4.55841913e-01  4.55841913e-01  4.55841913e-01  3.32315037e-09  1.53929408e-07  8.66824905e-08  7.90000000e-01 
 8.00000000e-01  3.31689368e-09  3.41332279e-09  4.55841896e-01  4.55841896e-01  4.55841896e-01  4.55841896e-01  3.32315036e-09  1.53929404e-07  8.66823981e-08  8.00000000e-01 
 8.10000000e-01  3.31689374e-09  3.41332279e-09  4.55841905e-01  4.55841905e-01  4.55841905e-01  4.55841905e-01  3.32315036e-09  1.53929398e-07  8.66822916e-08  8.10000000e-01 
 8.20000000e-01  3.31689373e-09  3.41332279e-09  4.55841912e-01  4.55841912e-01  4.55841912e-01  4.55841912e-01  3.32315036e-09  1.53929411e-07  8.66822916e-08  8.20000000e-01 
 8.30000000e-01  3.31689368e-09  3.41332279e-09  4.55841899e-01  4.55841899e-01  4.55841899e-01  4.55841899e-01  3.32315036e-09  1.53929400e-07  8.66821637e-08  8.30000000e-01 
 8.40000000e-01  3.31689375e-09  3.41332279e-09  4.55841901e-01  4.55841901e-01  4.55841901e-01  4.55841901e-01  3.32315036e-09  1.53929399e-07  8.66822205e-08  8.40000000e-01 
 8.50000000e-01  3.31689373e-09  3.41332279e-09  4.55841903e-01  4.55841903e-01  4.55841903e-01  4.55841903e-01  3.32315042e-09  1.53929409e-07  8.66822063e-08  8.50000000e-01 
 8.60000000e-01  3.31689373e-09  3.41332279e-09  4.55841887e-01  4.55841887e-01  4.55841887e-01  4.55841887e-01  3.32315041e-09  1.53929394e-07  8.66819292e-08  8.60000000e-01 
 8.70000000e-01  3.31689373e-09  3.41332279e-09  4.55841904e-01  4.55841904e-01  4.55841904e-01  4.55841904e-01  3.32315037e-09  1.53929402e-07  8.66818652e-08  8.70000000e-01 
 8.80000000e-01  3.31689368e-09  3.41332279e-09  4.55841886e-01  4.55841887e-01  4.55841886e-01  4.55841886e-01  3.32315042e-09  1.53929385e-07  8.66818297e-08  8.80000000e-01 
 8.90000000e-01  3.31689369e-09  3.41332279e-09  4.55841907e-01  4.55841907e-01  4.55841906e-01  4.55841906e-01  3.32315041e-09  1.53929397e-07  8.66817373e-08  8.90000000e-01 
 9.00000000e-01  3.31689374e-09  3.41332279e-09  4.55841890e-01  4.55841890e-01  4.55841890e-01  4.55841890e-01  3.32315037e-09  1.53929394e-07  8.66817089e-08  9.00000000e-01 
 9.10000000e-01  3.31689367e-09  3.41332279e-09  4.55841907e-01  4.55841907e-01  4.55841907e-01  4.55841907e-01  3.32315036e-09  1.53929403e-07  8.66815739e-08  9.10000000e-01 
 9.20000000e-01  3.31689369e-09  3.41332279e-09  4.55841917e-01  4.55841917e-01  4.55841917e-01  4.55841917e-01  3.32315036e-09  1.53929421e-07  8.66815668e-08  9.20000000e-01 
 9.30000000e-01  3.31689374e-09  3.41332279e-09  4.55841900e-01  4.55841900e-01  4.55841900e-01  4.55841900e-01  3.32315036e-09  1.53929398e-07  8.66815100e-08  9.30000000e-01 
 9.40000000e-01  3.31689373e-09  3.41332279e-09  4.55841887e-01  4.55841887e-01  4.55841887e-01  4.55841887e-01  3.32315036e-09  1.53929375e-07  8.66813537e-08  9.40000000e-01 
 9.50000000e-01  3.31689373e-09  3.41332279e-09  4.55841903e-01  4.55841903e-01  4.55841903e-01  4.55841903e-01  3.32315036e-09  1.53929386e-07  8.66813110e-08  9.50000000e-01 
 9.60000000e-01  3.31689368e-09  3.41332279e-09  4.55841917e-01  4.55841917e-01  4.55841917e-01  4.55841917e-01  3.32315036e-09  1.53929435e-07  8.66812186e-08  9.60000000e-01 
 9.70000000e-01  3.31689369e-09  3.41332279e-09  4.55841911e-01  4.55841911e-01  4.55841911e-01  4.55841911e-01  3.32315036e-09  1.53929413e-07  8.66811689e-08  9.70000000e-01 
 9.80000000e-01  3.31689374e-09  3.41332279e-09  4.55841903e-01  4.55841903e-01  4.55841903e-01  4.55841903e-01  3.32315042e-09  1.53929409e-07  8.66811050e-08  9.80000000e-01 
 9.90000000e-01  3.31689373e-09  3.41332279e-09  4.55841909e-01  4.55841909e-01  4.55841909e-01  4.55841909e-01  3.32315035e-09  1.53929417e-07  8.66809700e-08  9.90000000e-01 
 1.00000000e+00  3.31689373e-09  3.41332279e-09  4.55841885e-01  4.55841885e-01  4.55841885e-01  4.55841885e-01  3.32315037e-09  1.53929388e-07  8.66808350e-08  1.00000000e+00 
 1.01000000e+00  3.31689373e-09  3.41332279e-09  4.55841896e-01  4.55841896e-01  4.55841896e-01  4.55841896e-01  3.32315036e-09  1.53929376e-07  8.66808634e-08  1.01000000e+00 
 1.02000000e+00  3.31689373e-09  3.41332279e-09  4.55841908e-01  4.55841908e-01  4.55841908e-01  4.55841908e-01  3.32315036e-09  1.53929403e-07  8.66809557e-08  1.02000000e+00 
 1.03000000e+00  3.31689373e-09  3.41332279e-09  4.55841893e-01  4.55841893e-01  4.55841893e-01  4.55841893e-01  3.32315036e-09  1.53929390e-07  8.66806786e-08  1.03000000e+00 
 1.04000000e+00  3.31689373e-09  3.41332279e-09  4.55841883e-01  4.55841883e-01  4.55841883e-01  4.55841883e-01  3.32315036e-09  1.53929369e-07  8.66805721e-08  1.04000000e+00 
 1.05000000e+00  3.31689373e-09  3.41332279e-09  4.55841890e-01  4.55841890e-01  4.55841890e-01  4.55841890e-01  3.32315036e-09  1.53929382e-07  8.66804442e-08  1.05000000e+00 
 1.06000000e+00  3.31689373e-09  3.41332279e-09  4.55841886e-01  4.55841886e-01  4.55841886e-01  4.55841886e-01  3.32315036e-09  1.53929388e-07  8.66804371e-08  1.06000000e+00 
 1.07000000e+00  3.31689373e-09  3.41332279e-09  4.55841912e-01  4.55841912e-01  4.55841912e-01  4.55841912e-01  3.32315036e-09  1.53929407e-07  8.66803873e-08  1.07000000e+00 
 1.08000000e+00  3.31689373e-09  3.41332279e-09  4.55841889e-01  4.55841889e-01  4.55841889e-01  4.55841889e-01  3.32315042e-09  1.53929380e-07  8.66802523e-08  1.08000000e+00 
 1.09000000e+00  3.31689373e-09  3.41332279e-09  4.55841888e-01  4.55841888e-01  4.55841888e-01  4.55841888e-01  3.32315041e-09  1.53929366e-07  8.66802523e-08  1.09000000e+00 
 1.10000000e+00  3.31689373e-09  3.41332279e-09  4.55841911e-01  4.55841911e-01  4.55841911e-01  4.55841911e-01  3.32315037e-09  1.53929404e-07  8.66801955e-08  1.10000000e+00 
