 v-sweep         v(b0)           v(b1)           v(b2)           v(b3)           v(b4)           v(b5)           v(b6)           i(vbias)        i(viout)        v(vout)        
 0.00000000e+00  3.13607348e-09  3.34907861e-09  4.60005039e-01  3.27678243e-09  4.60005039e-01  3.29014115e-09  3.32461837e-09  1.61624008e-07  2.97956253e-08  0.00000000e+00 
 1.00000000e-02  3.13607346e-09  3.34907859e-09  4.60005036e-01  3.27678247e-09  4.60005036e-01  3.29014113e-09  3.32461841e-09  1.61624004e-07  2.97952802e-08  1.00000000e-02 
 2.00000000e-02  3.13607346e-09  3.34907859e-09  4.60005023e-01  3.27678240e-09  4.60005023e-01  3.29014113e-09  3.32461841e-09  1.61623978e-07  2.97948488e-08  2.00000000e-02 
 3.00000000e-02  3.13607346e-09  3.34907859e-09  4.60005034e-01  3.27678242e-09  4.60005034e-01  3.29014119e-09  3.32461841e-09  1.61624011e-07  2.97944729e-08  3.00000000e-02 
 4.00000000e-02  3.13607352e-09  3.34907859e-09  4.60005032e-01  3.27678247e-09  4.60005032e-01  3.29014119e-09  3.32461835e-09  1.61624012e-07  2.97940175e-08  4.00000000e-02 
 5.00000000e-02  3.13607352e-09  3.34907859e-09  4.60005026e-01  3.27678240e-09  4.60005026e-01  3.29014113e-09  3.32461841e-09  1.61624004e-07  2.97936755e-08  5.00000000e-02 
 6.00000000e-02  3.13607346e-09  3.34907859e-09  4.60005037e-01  3.27678242e-09  4.60005037e-01  3.29014119e-09  3.32461841e-09  1.61624010e-07  2.97934935e-08  6.00000000e-02 
 7.00000000e-02  3.13607346e-09  3.34907859e-09  4.60005035e-01  3.27678247e-09  4.60005035e-01  3.29014119e-09  3.32461835e-09  1.61624005e-07  2.97931444e-08  7.00000000e-02 
 8.00000000e-02  3.13607346e-09  3.34907859e-09  4.60005036e-01  3.27678246e-09  4.60005036e-01  3.29014113e-09  3.32461841e-09  1.61624001e-07  2.97928198e-08  8.00000000e-02 
 9.00000000e-02  3.13607352e-09  3.34907859e-09  4.60005019e-01  3.27678246e-09  4.60005019e-01  3.29014113e-09  3.32461835e-09  1.61623996e-07  2.97926093e-08  9.00000000e-02 
 1.00000000e-01  3.13607346e-09  3.34907859e-09  4.60005044e-01  3.27678241e-09  4.60005044e-01  3.29014113e-09  3.32461835e-09  1.61624022e-07  2.97923881e-08  1.00000000e-01 
 1.10000000e-01  3.13607352e-09  3.34907859e-09  4.60005037e-01  3.27678242e-09  4.60005037e-01  3.29014113e-09  3.32461835e-09  1.61624032e-07  2.97921465e-08  1.10000000e-01 
 1.20000000e-01  3.13607352e-09  3.34907859e-09  4.60005033e-01  3.27678241e-09  4.60005033e-01  3.29014119e-09  3.32461835e-09  1.61624016e-07  2.97919689e-08  1.20000000e-01 
 1.30000000e-01  3.13607346e-09  3.34907859e-09  4.60005039e-01  3.27678247e-09  4.60005039e-01  3.29014119e-09  3.32461835e-09  1.61624015e-07  2.97916349e-08  1.30000000e-01 
 1.40000000e-01  3.13607346e-09  3.34907859e-09  4.60005044e-01  3.27678240e-09  4.60005044e-01  3.29014119e-09  3.32461841e-09  1.61624012e-07  2.97915106e-08  1.40000000e-01 
 1.50000000e-01  3.13607346e-09  3.34907859e-09  4.60005020e-01  3.27678242e-09  4.60005020e-01  3.29014113e-09  3.32461841e-09  1.61623983e-07  2.97912788e-08  1.50000000e-01 
 1.60000000e-01  3.13607352e-09  3.34907859e-09  4.60005032e-01  3.27678241e-09  4.60005032e-01  3.29014113e-09  3.32461841e-09  1.61624008e-07  2.97910425e-08  1.60000000e-01 
 1.70000000e-01  3.13607351e-09  3.34907859e-09  4.60005006e-01  3.27678241e-09  4.60005006e-01  3.29014113e-09  3.32461835e-09  1.61623971e-07  2.97908596e-08  1.70000000e-01 
 1.80000000e-01  3.13607352e-09  3.34907859e-09  4.60005038e-01  3.27678247e-09  4.60005038e-01  3.29014119e-09  3.32461835e-09  1.61623998e-07  2.97907174e-08  1.80000000e-01 
 1.90000000e-01  3.13607351e-09  3.34907859e-09  4.60005015e-01  3.27678246e-09  4.60005015e-01  3.29014113e-09  3.32461841e-09  1.61623980e-07  2.97905611e-08  1.90000000e-01 
 2.00000000e-01  3.13607346e-09  3.34907859e-09  4.60005040e-01  3.27678246e-09  4.60005040e-01  3.29014119e-09  3.32461841e-09  1.61624004e-07  2.97904315e-08  2.00000000e-01 
 2.10000000e-01  3.13607352e-09  3.34907859e-09  4.60005051e-01  3.27678241e-09  4.60005051e-01  3.29014113e-09  3.32461836e-09  1.61624039e-07  2.97902272e-08  2.10000000e-01 
 2.20000000e-01  3.13607352e-09  3.34907859e-09  4.60005025e-01  3.27678248e-09  4.60005025e-01  3.29014113e-09  3.32461841e-09  1.61624007e-07  2.97901295e-08  2.20000000e-01 
 2.30000000e-01  3.13607352e-09  3.34907859e-09  4.60005043e-01  3.27678240e-09  4.60005043e-01  3.29014113e-09  3.32461841e-09  1.61624019e-07  2.97900264e-08  2.30000000e-01 
 2.40000000e-01  3.13607352e-09  3.34907859e-09  4.60005027e-01  3.27678242e-09  4.60005027e-01  3.29014113e-09  3.32461841e-09  1.61623989e-07  2.97898275e-08  2.40000000e-01 
 2.50000000e-01  3.13607352e-09  3.34907859e-09  4.60005033e-01  3.27678241e-09  4.60005033e-01  3.29014119e-09  3.32461841e-09  1.61623993e-07  2.97897067e-08  2.50000000e-01 
 2.60000000e-01  3.13607352e-09  3.34907859e-09  4.60005039e-01  3.27678241e-09  4.60005039e-01  3.29014113e-09  3.32461841e-09  1.61624009e-07  2.97894722e-08  2.60000000e-01 
 2.70000000e-01  3.13607346e-09  3.34907859e-09  4.60005037e-01  3.27678241e-09  4.60005037e-01  3.29014119e-09  3.32461835e-09  1.61624011e-07  2.97895397e-08  2.70000000e-01 
 2.80000000e-01  3.13607352e-09  3.34907859e-09  4.60005033e-01  3.27678241e-09  4.60005033e-01  3.29014113e-09  3.32461841e-09  1.61624010e-07  2.97893319e-08  2.80000000e-01 
 2.90000000e-01  3.13607352e-09  3.34907859e-09  4.60005021e-01  3.27678247e-09  4.60005021e-01  3.29014113e-09  3.32461841e-09  1.61623991e-07  2.97892093e-08  2.90000000e-01 
 3.00000000e-01  3.13607346e-09  3.34907859e-09  4.60005027e-01  3.27678240e-09  4.60005027e-01  3.29014113e-09  3.32461841e-09  1.61624008e-07  2.97890956e-08  3.00000000e-01 
 3.10000000e-01  3.13607346e-09  3.34907859e-09  4.60005056e-01  3.27678248e-09  4.60005055e-01  3.29014113e-09  3.32461841e-09  1.61624035e-07  2.97890992e-08  3.10000000e-01 
 3.20000000e-01  3.13607352e-09  3.34907859e-09  4.60005034e-01  3.27678246e-09  4.60005034e-01  3.29014113e-09  3.32461841e-09  1.61624029e-07  2.97889962e-08  3.20000000e-01 
 3.30000000e-01  3.13607346e-09  3.34907859e-09  4.60005019e-01  3.27678241e-09  4.60005019e-01  3.29014119e-09  3.32461841e-09  1.61623991e-07  2.97888683e-08  3.30000000e-01 
 3.40000000e-01  3.13607346e-09  3.34907859e-09  4.60005037e-01  3.27678242e-09  4.60005037e-01  3.29014113e-09  3.32461835e-09  1.61624013e-07  2.97887013e-08  3.40000000e-01 
 3.50000000e-01  3.13607346e-09  3.34907859e-09  4.60005050e-01  3.27678241e-09  4.60005050e-01  3.29014113e-09  3.32461841e-09  1.61624018e-07  2.97887972e-08  3.50000000e-01 
 3.60000000e-01  3.13607346e-09  3.34907859e-09  4.60005018e-01  3.27678247e-09  4.60005018e-01  3.29014113e-09  3.32461835e-09  1.61623990e-07  2.97885627e-08  3.60000000e-01 
 3.70000000e-01  3.13607346e-09  3.34907859e-09  4.60005057e-01  3.27678240e-09  4.60005057e-01  3.29014119e-09  3.32461841e-09  1.61624033e-07  2.97885414e-08  3.70000000e-01 
 3.80000000e-01  3.13607352e-09  3.34907859e-09  4.60005041e-01  3.27678242e-09  4.60005041e-01  3.29014113e-09  3.32461841e-09  1.61624029e-07  2.97884242e-08  3.80000000e-01 
 3.90000000e-01  3.13607352e-09  3.34907859e-09  4.60005034e-01  3.27678241e-09  4.60005034e-01  3.29014113e-09  3.32461841e-09  1.61623999e-07  2.97882892e-08  3.90000000e-01 
 4.00000000e-01  3.13607346e-09  3.34907859e-09  4.60005009e-01  3.27678241e-09  4.60005009e-01  3.29014113e-09  3.32461841e-09  1.61623961e-07  2.97882927e-08  4.00000000e-01 
 4.10000000e-01  3.13607346e-09  3.34907859e-09  4.60005044e-01  3.27678241e-09  4.60005043e-01  3.29014113e-09  3.32461841e-09  1.61624016e-07  2.97882785e-08  4.10000000e-01 
 4.20000000e-01  3.13607352e-09  3.34907859e-09  4.60005040e-01  3.27678247e-09  4.60005040e-01  3.29014113e-09  3.32461841e-09  1.61624014e-07  2.97881435e-08  4.20000000e-01 
 4.30000000e-01  3.13607346e-09  3.34907859e-09  4.60005044e-01  3.27678240e-09  4.60005044e-01  3.29014113e-09  3.32461841e-09  1.61624028e-07  2.97880227e-08  4.30000000e-01 
 4.40000000e-01  3.13607346e-09  3.34907859e-09  4.60005058e-01  3.27678242e-09  4.60005058e-01  3.29014119e-09  3.32461841e-09  1.61624036e-07  2.97880263e-08  4.40000000e-01 
 4.50000000e-01  3.13607346e-09  3.34907859e-09  4.60005026e-01  3.27678247e-09  4.60005026e-01  3.29014119e-09  3.32461841e-09  1.61624003e-07  2.97879446e-08  4.50000000e-01 
 4.60000000e-01  3.13607352e-09  3.34907859e-09  4.60005048e-01  3.27678246e-09  4.60005048e-01  3.29014119e-09  3.32461841e-09  1.61624026e-07  2.97878238e-08  4.60000000e-01 
 4.70000000e-01  3.13607352e-09  3.34907859e-09  4.60005036e-01  3.27678241e-09  4.60005036e-01  3.29014113e-09  3.32461841e-09  1.61624019e-07  2.97878522e-08  4.70000000e-01 
 4.80000000e-01  3.13607346e-09  3.34907859e-09  4.60005045e-01  3.27678242e-09  4.60005045e-01  3.29014113e-09  3.32461841e-09  1.61624022e-07  2.97877740e-08  4.80000000e-01 
 4.90000000e-01  3.13607346e-09  3.34907859e-09  4.60004995e-01  3.27678247e-09  4.60004995e-01  3.29014118e-09  3.32461841e-09  1.61623938e-07  2.97876461e-08  4.90000000e-01 
 5.00000000e-01  3.13607352e-09  3.34907859e-09  4.60005030e-01  3.27678240e-09  4.60005030e-01  3.29014113e-09  3.32461835e-09  1.61623998e-07  2.97875502e-08  5.00000000e-01 
 5.10000000e-01  3.13607346e-09  3.34907859e-09  4.60005048e-01  3.27678242e-09  4.60005048e-01  3.29014119e-09  3.32461836e-09  1.61624045e-07  2.97875609e-08  5.10000000e-01 
 5.20000000e-01  3.13607352e-09  3.34907859e-09  4.60005021e-01  3.27678241e-09  4.60005021e-01  3.29014113e-09  3.32461835e-09  1.61623997e-07  2.97875467e-08  5.20000000e-01 
 5.30000000e-01  3.13607346e-09  3.34907859e-09  4.60005055e-01  3.27678247e-09  4.60005055e-01  3.29014113e-09  3.32461836e-09  1.61624031e-07  2.97875253e-08  5.30000000e-01 
 5.40000000e-01  3.13607346e-09  3.34907859e-09  4.60005045e-01  3.27678240e-09  4.60005045e-01  3.29014113e-09  3.32461841e-09  1.61624031e-07  2.97874827e-08  5.40000000e-01 
 5.50000000e-01  3.13607352e-09  3.34907859e-09  4.60005039e-01  3.27678242e-09  4.60005039e-01  3.29014113e-09  3.32461835e-09  1.61624011e-07  2.97873619e-08  5.50000000e-01 
 5.60000000e-01  3.13607352e-09  3.34907859e-09  4.60005024e-01  3.27678241e-09  4.60005024e-01  3.29014119e-09  3.32461841e-09  1.61623994e-07  2.97872909e-08  5.60000000e-01 
 5.70000000e-01  3.13607346e-09  3.34907859e-09  4.60005022e-01  3.27678241e-09  4.60005022e-01  3.29014119e-09  3.32461841e-09  1.61623987e-07  2.97871985e-08  5.70000000e-01 
 5.80000000e-01  3.13607346e-09  3.34907859e-09  4.60005039e-01  3.27678241e-09  4.60005039e-01  3.29014113e-09  3.32461841e-09  1.61624009e-07  2.97872589e-08  5.80000000e-01 
 5.90000000e-01  3.13607346e-09  3.34907859e-09  4.60005026e-01  3.27678241e-09  4.60005026e-01  3.29014113e-09  3.32461841e-09  1.61623993e-07  2.97870955e-08  5.90000000e-01 
 6.00000000e-01  3.13607351e-09  3.34907865e-09  4.60005008e-01  3.27678241e-09  4.60005008e-01  3.29014118e-09  3.32461835e-09  1.61623967e-07  2.97870528e-08  6.00000000e-01 
 6.10000000e-01  3.13607352e-09  3.34907865e-09  4.60005039e-01  3.27678241e-09  4.60005039e-01  3.29014113e-09  3.32461841e-09  1.61624013e-07  2.97870102e-08  6.10000000e-01 
 6.20000000e-01  3.13607346e-09  3.34907859e-09  4.60005036e-01  3.27678241e-09  4.60005036e-01  3.29014113e-09  3.32461835e-09  1.61624004e-07  2.97869391e-08  6.20000000e-01 
 6.30000000e-01  3.13607346e-09  3.34907859e-09  4.60005045e-01  3.27678247e-09  4.60005045e-01  3.29014119e-09  3.32461841e-09  1.61624024e-07  2.97869462e-08  6.30000000e-01 
 6.40000000e-01  3.13607346e-09  3.34907859e-09  4.60005049e-01  3.27678246e-09  4.60005049e-01  3.29014119e-09  3.32461841e-09  1.61624020e-07  2.97868752e-08  6.40000000e-01 
 6.50000000e-01  3.13607352e-09  3.34907859e-09  4.60005027e-01  3.27678241e-09  4.60005027e-01  3.29014119e-09  3.32461841e-09  1.61623990e-07  2.97869249e-08  6.50000000e-01 
 6.60000000e-01  3.13607351e-09  3.34907859e-09  4.60005009e-01  3.27678242e-09  4.60005009e-01  3.29014113e-09  3.32461835e-09  1.61623974e-07  2.97868752e-08  6.60000000e-01 
 6.70000000e-01  3.13607346e-09  3.34907859e-09  4.60005057e-01  3.27678241e-09  4.60005057e-01  3.29014113e-09  3.32461841e-09  1.61624044e-07  2.97867189e-08  6.70000000e-01 
 6.80000000e-01  3.13607352e-09  3.34907859e-09  4.60005053e-01  3.27678241e-09  4.60005053e-01  3.29014119e-09  3.32461841e-09  1.61624036e-07  2.97867260e-08  6.80000000e-01 
 6.90000000e-01  3.13607352e-09  3.34907859e-09  4.60005023e-01  3.27678241e-09  4.60005023e-01  3.29014119e-09  3.32461835e-09  1.61623987e-07  2.97867260e-08  6.90000000e-01 
 7.00000000e-01  3.13607346e-09  3.34907859e-09  4.60005018e-01  3.27678241e-09  4.60005018e-01  3.29014119e-09  3.32461835e-09  1.61623981e-07  2.97865341e-08  7.00000000e-01 
 7.10000000e-01  3.13607346e-09  3.34907859e-09  4.60005022e-01  3.27678241e-09  4.60005022e-01  3.29014113e-09  3.32461835e-09  1.61623988e-07  2.97864773e-08  7.10000000e-01 
 7.20000000e-01  3.13607352e-09  3.34907859e-09  4.60005027e-01  3.27678247e-09  4.60005027e-01  3.29014113e-09  3.32461835e-09  1.61623994e-07  2.97863565e-08  7.20000000e-01 
 7.30000000e-01  3.13607346e-09  3.34907859e-09  4.60005034e-01  3.27678246e-09  4.60005034e-01  3.29014113e-09  3.32461841e-09  1.61624004e-07  2.97864133e-08  7.30000000e-01 
 7.40000000e-01  3.13607346e-09  3.34907859e-09  4.60005004e-01  3.27678241e-09  4.60005004e-01  3.29014113e-09  3.32461841e-09  1.61623973e-07  2.97862996e-08  7.40000000e-01 
 7.50000000e-01  3.13607346e-09  3.34907859e-09  4.60005044e-01  3.27678242e-09  4.60005044e-01  3.29014119e-09  3.32461835e-09  1.61624017e-07  2.97862996e-08  7.50000000e-01 
 7.60000000e-01  3.13607346e-09  3.34907859e-09  4.60005022e-01  3.27678247e-09  4.60005022e-01  3.29014119e-09  3.32461835e-09  1.61623980e-07  2.97863352e-08  7.60000000e-01 
 7.70000000e-01  3.13607352e-09  3.34907859e-09  4.60005027e-01  3.27678246e-09  4.60005027e-01  3.29014113e-09  3.32461835e-09  1.61623997e-07  2.97862428e-08  7.70000000e-01 
 7.80000000e-01  3.13607346e-09  3.34907859e-09  4.60005033e-01  3.27678241e-09  4.60005033e-01  3.29014119e-09  3.32461841e-09  1.61624011e-07  2.97862357e-08  7.80000000e-01 
 7.90000000e-01  3.13607352e-09  3.34907859e-09  4.60005032e-01  3.27678242e-09  4.60005032e-01  3.29014113e-09  3.32461841e-09  1.61624008e-07  2.97860439e-08  7.90000000e-01 
 8.00000000e-01  3.13607352e-09  3.34907859e-09  4.60005056e-01  3.27678247e-09  4.60005056e-01  3.29014113e-09  3.32461841e-09  1.61624044e-07  2.97861078e-08  8.00000000e-01 
 8.10000000e-01  3.13607346e-09  3.34907859e-09  4.60005038e-01  3.27678246e-09  4.60005038e-01  3.29014119e-09  3.32461841e-09  1.61624027e-07  2.97860581e-08  8.10000000e-01 
 8.20000000e-01  3.13607346e-09  3.34907859e-09  4.60005009e-01  3.27678246e-09  4.60005009e-01  3.29014118e-09  3.32461841e-09  1.61623967e-07  2.97859444e-08  8.20000000e-01 
 8.30000000e-01  3.13607346e-09  3.34907859e-09  4.60005032e-01  3.27678246e-09  4.60005032e-01  3.29014119e-09  3.32461835e-09  1.61623992e-07  2.97858094e-08  8.30000000e-01 
 8.40000000e-01  3.13607346e-09  3.34907859e-09  4.60005043e-01  3.27678241e-09  4.60005043e-01  3.29014113e-09  3.32461841e-09  1.61624020e-07  2.97858875e-08  8.40000000e-01 
 8.50000000e-01  3.13607352e-09  3.34907859e-09  4.60005026e-01  3.27678242e-09  4.60005026e-01  3.29014113e-09  3.32461835e-09  1.61623995e-07  2.97857312e-08  8.50000000e-01 
 8.60000000e-01  3.13607352e-09  3.34907859e-09  4.60005036e-01  3.27678241e-09  4.60005036e-01  3.29014113e-09  3.32461841e-09  1.61624010e-07  2.97858023e-08  8.60000000e-01 
 8.70000000e-01  3.13607352e-09  3.34907859e-09  4.60005025e-01  3.27678247e-09  4.60005025e-01  3.29014119e-09  3.32461841e-09  1.61623984e-07  2.97856175e-08  8.70000000e-01 
 8.80000000e-01  3.13607346e-09  3.34907859e-09  4.60005047e-01  3.27678240e-09  4.60005047e-01  3.29014119e-09  3.32461841e-09  1.61624038e-07  2.97856531e-08  8.80000000e-01 
 8.90000000e-01  3.13607352e-09  3.34907859e-09  4.60005038e-01  3.27678242e-09  4.60005038e-01  3.29014113e-09  3.32461841e-09  1.61624021e-07  2.97854967e-08  8.90000000e-01 
 9.00000000e-01  3.13607352e-09  3.34907859e-09  4.60005024e-01  3.27678247e-09  4.60005024e-01  3.29014113e-09  3.32461841e-09  1.61624002e-07  2.97853973e-08  9.00000000e-01 
 9.10000000e-01  3.13607346e-09  3.34907859e-09  4.60005043e-01  3.27678240e-09  4.60005043e-01  3.29014119e-09  3.32461841e-09  1.61624010e-07  2.97853830e-08  9.10000000e-01 
 9.20000000e-01  3.13607346e-09  3.34907859e-09  4.60005044e-01  3.27678242e-09  4.60005044e-01  3.29014119e-09  3.32461841e-09  1.61624006e-07  2.97855323e-08  9.20000000e-01 
 9.30000000e-01  3.13607346e-09  3.34907859e-09  4.60005025e-01  3.27678241e-09  4.60005025e-01  3.29014119e-09  3.32461841e-09  1.61623982e-07  2.97853404e-08  9.30000000e-01 
 9.40000000e-01  3.13607352e-09  3.34907859e-09  4.60005030e-01  3.27678241e-09  4.60005030e-01  3.29014113e-09  3.32461841e-09  1.61624008e-07  2.97851912e-08  9.40000000e-01 
 9.50000000e-01  3.13607346e-09  3.34907859e-09  4.60005052e-01  3.27678247e-09  4.60005052e-01  3.29014119e-09  3.32461841e-09  1.61624026e-07  2.97851770e-08  9.50000000e-01 
 9.60000000e-01  3.13607352e-09  3.34907859e-09  4.60005045e-01  3.27678246e-09  4.60005045e-01  3.29014113e-09  3.32461841e-09  1.61624021e-07  2.97852054e-08  9.60000000e-01 
 9.70000000e-01  3.13607351e-09  3.34907865e-09  4.60005016e-01  3.27678246e-09  4.60005016e-01  3.29014119e-09  3.32461841e-09  1.61623986e-07  2.97850633e-08  9.70000000e-01 
 9.80000000e-01  3.13607351e-09  3.34907859e-09  4.60005010e-01  3.27678241e-09  4.60005010e-01  3.29014113e-09  3.32461841e-09  1.61623978e-07  2.97849709e-08  9.80000000e-01 
 9.90000000e-01  3.13607351e-09  3.34907859e-09  4.60005017e-01  3.27678248e-09  4.60005017e-01  3.29014113e-09  3.32461841e-09  1.61623984e-07  2.97848644e-08  9.90000000e-01 
 1.00000000e+00  3.13607352e-09  3.34907865e-09  4.60005020e-01  3.27678246e-09  4.60005020e-01  3.29014119e-09  3.32461835e-09  1.61623989e-07  2.97849354e-08  1.00000000e+00 
 1.01000000e+00  3.13607352e-09  3.34907859e-09  4.60005026e-01  3.27678246e-09  4.60005026e-01  3.29014113e-09  3.32461841e-09  1.61624001e-07  2.97847649e-08  1.01000000e+00 
 1.02000000e+00  3.13607352e-09  3.34907859e-09  4.60005044e-01  3.27678246e-09  4.60005044e-01  3.29014113e-09  3.32461841e-09  1.61624026e-07  2.97848857e-08  1.02000000e+00 
 1.03000000e+00  3.13607352e-09  3.34907859e-09  4.60005032e-01  3.27678241e-09  4.60005032e-01  3.29014113e-09  3.32461841e-09  1.61623990e-07  2.97847080e-08  1.03000000e+00 
 1.04000000e+00  3.13607352e-09  3.34907859e-09  4.60005044e-01  3.27678242e-09  4.60005044e-01  3.29014119e-09  3.32461841e-09  1.61624031e-07  2.97846867e-08  1.04000000e+00 
 1.05000000e+00  3.13607352e-09  3.34907859e-09  4.60005024e-01  3.27678241e-09  4.60005024e-01  3.29014119e-09  3.32461841e-09  1.61623986e-07  2.97846157e-08  1.05000000e+00 
 1.06000000e+00  3.13607346e-09  3.34907859e-09  4.60005057e-01  3.27678247e-09  4.60005057e-01  3.29014113e-09  3.32461841e-09  1.61624037e-07  2.97845801e-08  1.06000000e+00 
 1.07000000e+00  3.13607346e-09  3.34907859e-09  4.60005035e-01  3.27678240e-09  4.60005035e-01  3.29014113e-09  3.32461841e-09  1.61624018e-07  2.97844522e-08  1.07000000e+00 
 1.08000000e+00  3.13607351e-09  3.34907859e-09  4.60005015e-01  3.27678242e-09  4.60005015e-01  3.29014119e-09  3.32461841e-09  1.61623979e-07  2.97844807e-08  1.08000000e+00 
 1.09000000e+00  3.13607351e-09  3.34907859e-09  4.60005004e-01  3.27678241e-09  4.60005004e-01  3.29014113e-09  3.32461841e-09  1.61623965e-07  2.97844522e-08  1.09000000e+00 
 1.10000000e+00  3.13607352e-09  3.34907859e-09  4.60005039e-01  3.27678241e-09  4.60005039e-01  3.29014113e-09  3.32461841e-09  1.61624001e-07  2.97843883e-08  1.10000000e+00 
