 v-sweep         v(b0)           v(b1)           v(b2)           v(b3)           v(b4)           v(b5)           v(b6)           i(vbias)        i(viout)        v(vout)        
 0.00000000e+00  3.26553561e-09  3.62194076e-09  3.28125077e-09  4.61032008e-01  3.62501864e-09  4.61032008e-01  3.22259414e-09  1.62331210e-07  6.54904005e-08  0.00000000e+00 
 1.00000000e-02  3.26553563e-09  3.62194078e-09  3.28125080e-09  4.61032012e-01  3.62501862e-09  4.61032012e-01  3.22259412e-09  1.62331195e-07  6.54899773e-08  1.00000000e-02 
 2.00000000e-02  3.26553558e-09  3.62194078e-09  3.28125074e-09  4.61031986e-01  3.62501861e-09  4.61031986e-01  3.22259417e-09  1.62331181e-07  6.54895378e-08  2.00000000e-02 
 3.00000000e-02  3.26553565e-09  3.62194078e-09  3.28125074e-09  4.61032015e-01  3.62501862e-09  4.61032015e-01  3.22259416e-09  1.62331218e-07  6.54891534e-08  3.00000000e-02 
 4.00000000e-02  3.26553557e-09  3.62194078e-09  3.28125074e-09  4.61032008e-01  3.62501862e-09  4.61032008e-01  3.22259411e-09  1.62331203e-07  6.54888779e-08  4.00000000e-02 
 5.00000000e-02  3.26553559e-09  3.62194078e-09  3.28125080e-09  4.61031976e-01  3.62501861e-09  4.61031976e-01  3.22259412e-09  1.62331146e-07  6.54884458e-08  5.00000000e-02 
 6.00000000e-02  3.26553563e-09  3.62194078e-09  3.28125074e-09  4.61032015e-01  3.62501862e-09  4.61032015e-01  3.22259412e-09  1.62331198e-07  6.54882855e-08  6.00000000e-02 
 7.00000000e-02  3.26553557e-09  3.62194084e-09  3.28125074e-09  4.61031979e-01  3.62501861e-09  4.61031979e-01  3.22259412e-09  1.62331171e-07  6.54880212e-08  7.00000000e-02 
 8.00000000e-02  3.26553565e-09  3.62194083e-09  3.28125074e-09  4.61032004e-01  3.62501862e-09  4.61032004e-01  3.22259418e-09  1.62331199e-07  6.54876384e-08  8.00000000e-02 
 9.00000000e-02  3.26553563e-09  3.62194078e-09  3.28125074e-09  4.61032009e-01  3.62501862e-09  4.61032009e-01  3.22259411e-09  1.62331201e-07  6.54874430e-08  9.00000000e-02 
 1.00000000e-01  3.26553563e-09  3.62194079e-09  3.28125074e-09  4.61032003e-01  3.62501862e-09  4.61032003e-01  3.22259413e-09  1.62331183e-07  6.54870504e-08  1.00000000e-01 
 1.10000000e-01  3.26553557e-09  3.62194078e-09  3.28125074e-09  4.61031977e-01  3.62501867e-09  4.61031977e-01  3.22259412e-09  1.62331155e-07  6.54867964e-08  1.10000000e-01 
 1.20000000e-01  3.26553559e-09  3.62194078e-09  3.28125074e-09  4.61032011e-01  3.62501862e-09  4.61032011e-01  3.22259418e-09  1.62331215e-07  6.54866605e-08  1.20000000e-01 
 1.30000000e-01  3.26553563e-09  3.62194078e-09  3.28125074e-09  4.61032000e-01  3.62501862e-09  4.61032000e-01  3.22259411e-09  1.62331186e-07  6.54863577e-08  1.30000000e-01 
 1.40000000e-01  3.26553563e-09  3.62194078e-09  3.28125080e-09  4.61032000e-01  3.62501862e-09  4.61032000e-01  3.22259412e-09  1.62331191e-07  6.54861161e-08  1.40000000e-01 
 1.50000000e-01  3.26553563e-09  3.62194078e-09  3.28125074e-09  4.61031978e-01  3.62501861e-09  4.61031978e-01  3.22259412e-09  1.62331142e-07  6.54858532e-08  1.50000000e-01 
 1.60000000e-01  3.26553558e-09  3.62194078e-09  3.28125074e-09  4.61032017e-01  3.62501862e-09  4.61032017e-01  3.22259412e-09  1.62331212e-07  6.54858052e-08  1.60000000e-01 
 1.70000000e-01  3.26553565e-09  3.62194078e-09  3.28125074e-09  4.61032008e-01  3.62501862e-09  4.61032008e-01  3.22259418e-09  1.62331201e-07  6.54855512e-08  1.70000000e-01 
 1.80000000e-01  3.26553563e-09  3.62194078e-09  3.28125080e-09  4.61031996e-01  3.62501862e-09  4.61031996e-01  3.22259411e-09  1.62331179e-07  6.54853523e-08  1.80000000e-01 
 1.90000000e-01  3.26553563e-09  3.62194078e-09  3.28125074e-09  4.61032007e-01  3.62501862e-09  4.61032007e-01  3.22259418e-09  1.62331200e-07  6.54851782e-08  1.90000000e-01 
 2.00000000e-01  3.26553563e-09  3.62194078e-09  3.28125080e-09  4.61031990e-01  3.62501862e-09  4.61031990e-01  3.22259416e-09  1.62331165e-07  6.54849082e-08  2.00000000e-01 
 2.10000000e-01  3.26553563e-09  3.62194078e-09  3.28125080e-09  4.61031998e-01  3.62501862e-09  4.61031998e-01  3.22259411e-09  1.62331190e-07  6.54849153e-08  2.10000000e-01 
 2.20000000e-01  3.26553563e-09  3.62194078e-09  3.28125074e-09  4.61032000e-01  3.62501862e-09  4.61032000e-01  3.22259418e-09  1.62331184e-07  6.54847572e-08  2.20000000e-01 
 2.30000000e-01  3.26553563e-09  3.62194078e-09  3.28125080e-09  4.61031996e-01  3.62501862e-09  4.61031996e-01  3.22259411e-09  1.62331196e-07  6.54846559e-08  2.30000000e-01 
 2.40000000e-01  3.26553563e-09  3.62194078e-09  3.28125074e-09  4.61032002e-01  3.62501862e-09  4.61032002e-01  3.22259412e-09  1.62331188e-07  6.54845458e-08  2.40000000e-01 
 2.50000000e-01  3.26553563e-09  3.62194078e-09  3.28125080e-09  4.61031999e-01  3.62501862e-09  4.61031999e-01  3.22259412e-09  1.62331186e-07  6.54842633e-08  2.50000000e-01 
 2.60000000e-01  3.26553563e-09  3.62194078e-09  3.28125080e-09  4.61031987e-01  3.62501861e-09  4.61031987e-01  3.22259417e-09  1.62331178e-07  6.54840697e-08  2.60000000e-01 
 2.70000000e-01  3.26553563e-09  3.62194078e-09  3.28125074e-09  4.61032009e-01  3.62501862e-09  4.61032009e-01  3.22259416e-09  1.62331204e-07  6.54839472e-08  2.70000000e-01 
 2.80000000e-01  3.26553563e-09  3.62194078e-09  3.28125080e-09  4.61032008e-01  3.62501862e-09  4.61032008e-01  3.22259417e-09  1.62331196e-07  6.54839667e-08  2.80000000e-01 
 2.90000000e-01  3.26553563e-09  3.62194078e-09  3.28125074e-09  4.61031987e-01  3.62501861e-09  4.61031987e-01  3.22259417e-09  1.62331171e-07  6.54838708e-08  2.90000000e-01 
 3.00000000e-01  3.26553563e-09  3.62194078e-09  3.28125074e-09  4.61031991e-01  3.62501862e-09  4.61031991e-01  3.22259411e-09  1.62331189e-07  6.54837535e-08  3.00000000e-01 
 3.10000000e-01  3.26553563e-09  3.62194078e-09  3.28125074e-09  4.61031989e-01  3.62501861e-09  4.61031989e-01  3.22259418e-09  1.62331162e-07  6.54835297e-08  3.10000000e-01 
 3.20000000e-01  3.26553557e-09  3.62194078e-09  3.28125074e-09  4.61031985e-01  3.62501861e-09  4.61031985e-01  3.22259416e-09  1.62331179e-07  6.54834800e-08  3.20000000e-01 
 3.30000000e-01  3.26553565e-09  3.62194078e-09  3.28125074e-09  4.61032008e-01  3.62501862e-09  4.61032009e-01  3.22259417e-09  1.62331201e-07  6.54833165e-08  3.30000000e-01 
 3.40000000e-01  3.26553563e-09  3.62194078e-09  3.28125074e-09  4.61032013e-01  3.62501862e-09  4.61032013e-01  3.22259417e-09  1.62331213e-07  6.54832917e-08  3.40000000e-01 
 3.50000000e-01  3.26553564e-09  3.62194078e-09  3.28125080e-09  4.61032023e-01  3.62501862e-09  4.61032023e-01  3.22259411e-09  1.62331227e-07  6.54832277e-08  3.50000000e-01 
 3.60000000e-01  3.26553563e-09  3.62194078e-09  3.28125080e-09  4.61031985e-01  3.62501861e-09  4.61031985e-01  3.22259412e-09  1.62331173e-07  6.54830394e-08  3.60000000e-01 
 3.70000000e-01  3.26553563e-09  3.62194084e-09  3.28125074e-09  4.61032009e-01  3.62501862e-09  4.61032009e-01  3.22259418e-09  1.62331199e-07  6.54829968e-08  3.70000000e-01 
 3.80000000e-01  3.26553563e-09  3.62194077e-09  3.28125074e-09  4.61031988e-01  3.62501861e-09  4.61031988e-01  3.22259411e-09  1.62331171e-07  6.54830110e-08  3.80000000e-01 
 3.90000000e-01  3.26553558e-09  3.62194079e-09  3.28125080e-09  4.61032022e-01  3.62501862e-09  4.61032022e-01  3.22259413e-09  1.62331217e-07  6.54829009e-08  3.90000000e-01 
 4.00000000e-01  3.26553564e-09  3.62194078e-09  3.28125080e-09  4.61031983e-01  3.62501861e-09  4.61031983e-01  3.22259417e-09  1.62331169e-07  6.54826238e-08  4.00000000e-01 
 4.10000000e-01  3.26553563e-09  3.62194078e-09  3.28125074e-09  4.61031999e-01  3.62501862e-09  4.61031999e-01  3.22259416e-09  1.62331184e-07  6.54826735e-08  4.10000000e-01 
 4.20000000e-01  3.26553563e-09  3.62194078e-09  3.28125074e-09  4.61031988e-01  3.62501861e-09  4.61031988e-01  3.22259411e-09  1.62331163e-07  6.54826096e-08  4.20000000e-01 
 4.30000000e-01  3.26553563e-09  3.62194078e-09  3.28125074e-09  4.61032001e-01  3.62501867e-09  4.61032001e-01  3.22259418e-09  1.62331191e-07  6.54825101e-08  4.30000000e-01 
 4.40000000e-01  3.26553563e-09  3.62194078e-09  3.28125074e-09  4.61032014e-01  3.62501862e-09  4.61032014e-01  3.22259416e-09  1.62331195e-07  6.54825385e-08  4.40000000e-01 
 4.50000000e-01  3.26553563e-09  3.62194084e-09  3.28125074e-09  4.61032001e-01  3.62501862e-09  4.61032001e-01  3.22259417e-09  1.62331198e-07  6.54822934e-08  4.50000000e-01 
 4.60000000e-01  3.26553563e-09  3.62194083e-09  3.28125074e-09  4.61032000e-01  3.62501862e-09  4.61032000e-01  3.22259417e-09  1.62331188e-07  6.54822756e-08  4.60000000e-01 
 4.70000000e-01  3.26553563e-09  3.62194078e-09  3.28125074e-09  4.61031999e-01  3.62501862e-09  4.61031999e-01  3.22259411e-09  1.62331178e-07  6.54822969e-08  4.70000000e-01 
 4.80000000e-01  3.26553563e-09  3.62194079e-09  3.28125080e-09  4.61031996e-01  3.62501862e-09  4.61031996e-01  3.22259412e-09  1.62331174e-07  6.54821228e-08  4.80000000e-01 
 4.90000000e-01  3.26553563e-09  3.62194078e-09  3.28125074e-09  4.61031998e-01  3.62501862e-09  4.61031999e-01  3.22259412e-09  1.62331183e-07  6.54820198e-08  4.90000000e-01 
 5.00000000e-01  3.26553563e-09  3.62194078e-09  3.28125080e-09  4.61032004e-01  3.62501862e-09  4.61032004e-01  3.22259412e-09  1.62331199e-07  6.54820482e-08  5.00000000e-01 
 5.10000000e-01  3.26553563e-09  3.62194078e-09  3.28125074e-09  4.61031985e-01  3.62501861e-09  4.61031986e-01  3.22259417e-09  1.62331164e-07  6.54819026e-08  5.10000000e-01 
 5.20000000e-01  3.26553563e-09  3.62194078e-09  3.28125080e-09  4.61031984e-01  3.62501861e-09  4.61031984e-01  3.22259416e-09  1.62331174e-07  6.54817782e-08  5.20000000e-01 
 5.30000000e-01  3.26553563e-09  3.62194078e-09  3.28125080e-09  4.61032009e-01  3.62501862e-09  4.61032009e-01  3.22259411e-09  1.62331194e-07  6.54819630e-08  5.30000000e-01 
 5.40000000e-01  3.26553557e-09  3.62194078e-09  3.28125074e-09  4.61031983e-01  3.62501861e-09  4.61031983e-01  3.22259412e-09  1.62331171e-07  6.54817818e-08  5.40000000e-01 
 5.50000000e-01  3.26553559e-09  3.62194078e-09  3.28125080e-09  4.61031993e-01  3.62501862e-09  4.61031994e-01  3.22259412e-09  1.62331186e-07  6.54816681e-08  5.50000000e-01 
 5.60000000e-01  3.26553557e-09  3.62194078e-09  3.28125080e-09  4.61031995e-01  3.62501862e-09  4.61031995e-01  3.22259412e-09  1.62331170e-07  6.54816112e-08  5.60000000e-01 
 5.70000000e-01  3.26553564e-09  3.62194078e-09  3.28125074e-09  4.61031990e-01  3.62501862e-09  4.61031990e-01  3.22259412e-09  1.62331172e-07  6.54815082e-08  5.70000000e-01 
 5.80000000e-01  3.26553563e-09  3.62194084e-09  3.28125080e-09  4.61031988e-01  3.62501861e-09  4.61031988e-01  3.22259412e-09  1.62331161e-07  6.54813448e-08  5.80000000e-01 
 5.90000000e-01  3.26553563e-09  3.62194077e-09  3.28125074e-09  4.61032007e-01  3.62501862e-09  4.61032007e-01  3.22259412e-09  1.62331195e-07  6.54814158e-08  5.90000000e-01 
 6.00000000e-01  3.26553558e-09  3.62194079e-09  3.28125080e-09  4.61032011e-01  3.62501862e-09  4.61032011e-01  3.22259412e-09  1.62331201e-07  6.54814016e-08  6.00000000e-01 
 6.10000000e-01  3.26553565e-09  3.62194078e-09  3.28125074e-09  4.61032009e-01  3.62501862e-09  4.61032009e-01  3.22259412e-09  1.62331205e-07  6.54813306e-08  6.10000000e-01 
 6.20000000e-01  3.26553563e-09  3.62194078e-09  3.28125080e-09  4.61032022e-01  3.62501862e-09  4.61032022e-01  3.22259412e-09  1.62331224e-07  6.54813377e-08  6.20000000e-01 
 6.30000000e-01  3.26553563e-09  3.62194078e-09  3.28125074e-09  4.61032006e-01  3.62501862e-09  4.61032006e-01  3.22259412e-09  1.62331201e-07  6.54811316e-08  6.30000000e-01 
 6.40000000e-01  3.26553563e-09  3.62194078e-09  3.28125080e-09  4.61032003e-01  3.62501862e-09  4.61032003e-01  3.22259418e-09  1.62331188e-07  6.54810748e-08  6.40000000e-01 
 6.50000000e-01  3.26553558e-09  3.62194078e-09  3.28125074e-09  4.61032012e-01  3.62501862e-09  4.61032012e-01  3.22259416e-09  1.62331207e-07  6.54810890e-08  6.50000000e-01 
 6.60000000e-01  3.26553565e-09  3.62194078e-09  3.28125080e-09  4.61032006e-01  3.62501862e-09  4.61032006e-01  3.22259411e-09  1.62331218e-07  6.54810819e-08  6.60000000e-01 
 6.70000000e-01  3.26553563e-09  3.62194078e-09  3.28125080e-09  4.61031991e-01  3.62501862e-09  4.61031991e-01  3.22259412e-09  1.62331182e-07  6.54808616e-08  6.70000000e-01 
 6.80000000e-01  3.26553563e-09  3.62194078e-09  3.28125080e-09  4.61031997e-01  3.62501862e-09  4.61031997e-01  3.22259412e-09  1.62331184e-07  6.54808545e-08  6.80000000e-01 
 6.90000000e-01  3.26553563e-09  3.62194078e-09  3.28125074e-09  4.61031992e-01  3.62501862e-09  4.61031992e-01  3.22259418e-09  1.62331176e-07  6.54807906e-08  6.90000000e-01 
 7.00000000e-01  3.26553558e-09  3.62194078e-09  3.28125080e-09  4.61031990e-01  3.62501862e-09  4.61031991e-01  3.22259416e-09  1.62331169e-07  6.54807053e-08  7.00000000e-01 
 7.10000000e-01  3.26553559e-09  3.62194078e-09  3.28125074e-09  4.61031992e-01  3.62501862e-09  4.61031992e-01  3.22259417e-09  1.62331188e-07  6.54806911e-08  7.10000000e-01 
 7.20000000e-01  3.26553563e-09  3.62194084e-09  3.28125074e-09  4.61031985e-01  3.62501861e-09  4.61031985e-01  3.22259411e-09  1.62331156e-07  6.54806129e-08  7.20000000e-01 
 7.30000000e-01  3.26553563e-09  3.62194077e-09  3.28125074e-09  4.61031993e-01  3.62501862e-09  4.61031993e-01  3.22259412e-09  1.62331173e-07  6.54805277e-08  7.30000000e-01 
 7.40000000e-01  3.26553563e-09  3.62194079e-09  3.28125080e-09  4.61031976e-01  3.62501861e-09  4.61031976e-01  3.22259417e-09  1.62331168e-07  6.54804566e-08  7.40000000e-01 
 7.50000000e-01  3.26553563e-09  3.62194078e-09  3.28125074e-09  4.61032013e-01  3.62501862e-09  4.61032013e-01  3.22259416e-09  1.62331211e-07  6.54804211e-08  7.50000000e-01 
 7.60000000e-01  3.26553563e-09  3.62194078e-09  3.28125080e-09  4.61031993e-01  3.62501862e-09  4.61031993e-01  3.22259411e-09  1.62331168e-07  6.54804211e-08  7.60000000e-01 
 7.70000000e-01  3.26553563e-09  3.62194078e-09  3.28125080e-09  4.61031973e-01  3.62501861e-09  4.61031973e-01  3.22259412e-09  1.62331162e-07  6.54802577e-08  7.70000000e-01 
 7.80000000e-01  3.26553563e-09  3.62194078e-09  3.28125074e-09  4.61031997e-01  3.62501862e-09  4.61031997e-01  3.22259412e-09  1.62331190e-07  6.54802221e-08  7.80000000e-01 
 7.90000000e-01  3.26553558e-09  3.62194084e-09  3.28125074e-09  4.61031996e-01  3.62501862e-09  4.61031997e-01  3.22259412e-09  1.62331185e-07  6.54801795e-08  7.90000000e-01 
 8.00000000e-01  3.26553565e-09  3.62194083e-09  3.28125074e-09  4.61032012e-01  3.62501862e-09  4.61032012e-01  3.22259412e-09  1.62331207e-07  6.54801227e-08  8.00000000e-01 
 8.10000000e-01  3.26553563e-09  3.62194078e-09  3.28125080e-09  4.61032003e-01  3.62501862e-09  4.61032003e-01  3.22259418e-09  1.62331193e-07  6.54800587e-08  8.10000000e-01 
 8.20000000e-01  3.26553563e-09  3.62194079e-09  3.28125080e-09  4.61031981e-01  3.62501861e-09  4.61031981e-01  3.22259411e-09  1.62331164e-07  6.54800161e-08  8.20000000e-01 
 8.30000000e-01  3.26553563e-09  3.62194078e-09  3.28125074e-09  4.61031998e-01  3.62501862e-09  4.61031998e-01  3.22259412e-09  1.62331190e-07  6.54797674e-08  8.30000000e-01 
 8.40000000e-01  3.26553563e-09  3.62194078e-09  3.28125074e-09  4.61032004e-01  3.62501862e-09  4.61032004e-01  3.22259412e-09  1.62331189e-07  6.54797532e-08  8.40000000e-01 
 8.50000000e-01  3.26553563e-09  3.62194078e-09  3.28125074e-09  4.61031993e-01  3.62501862e-09  4.61031993e-01  3.22259418e-09  1.62331170e-07  6.54798029e-08  8.50000000e-01 
 8.60000000e-01  3.26553563e-09  3.62194078e-09  3.28125080e-09  4.61031988e-01  3.62501861e-09  4.61031988e-01  3.22259416e-09  1.62331172e-07  6.54797105e-08  8.60000000e-01 
 8.70000000e-01  3.26553563e-09  3.62194078e-09  3.28125074e-09  4.61031992e-01  3.62501862e-09  4.61031993e-01  3.22259411e-09  1.62331172e-07  6.54797248e-08  8.70000000e-01 
 8.80000000e-01  3.26553558e-09  3.62194078e-09  3.28125080e-09  4.61031995e-01  3.62501862e-09  4.61031995e-01  3.22259412e-09  1.62331186e-07  6.54795898e-08  8.80000000e-01 
 8.90000000e-01  3.26553559e-09  3.62194078e-09  3.28125074e-09  4.61031989e-01  3.62501861e-09  4.61031989e-01  3.22259412e-09  1.62331169e-07  6.54795400e-08  8.90000000e-01 
 9.00000000e-01  3.26553563e-09  3.62194078e-09  3.28125080e-09  4.61031999e-01  3.62501862e-09  4.61031999e-01  3.22259412e-09  1.62331194e-07  6.54795471e-08  9.00000000e-01 
 9.10000000e-01  3.26553563e-09  3.62194078e-09  3.28125080e-09  4.61031995e-01  3.62501862e-09  4.61031995e-01  3.22259412e-09  1.62331185e-07  6.54793979e-08  9.10000000e-01 
 9.20000000e-01  3.26553563e-09  3.62194078e-09  3.28125080e-09  4.61032004e-01  3.62501862e-09  4.61032004e-01  3.22259412e-09  1.62331197e-07  6.54793766e-08  9.20000000e-01 
 9.30000000e-01  3.26553563e-09  3.62194078e-09  3.28125080e-09  4.61032017e-01  3.62501862e-09  4.61032017e-01  3.22259412e-09  1.62331206e-07  6.54792061e-08  9.30000000e-01 
 9.40000000e-01  3.26553563e-09  3.62194078e-09  3.28125074e-09  4.61031968e-01  3.62501861e-09  4.61031968e-01  3.22259412e-09  1.62331145e-07  6.54791350e-08  9.40000000e-01 
 9.50000000e-01  3.26553563e-09  3.62194078e-09  3.28125074e-09  4.61031990e-01  3.62501862e-09  4.61031990e-01  3.22259418e-09  1.62331153e-07  6.54790711e-08  9.50000000e-01 
 9.60000000e-01  3.26553563e-09  3.62194078e-09  3.28125074e-09  4.61031989e-01  3.62501861e-09  4.61031989e-01  3.22259416e-09  1.62331168e-07  6.54789858e-08  9.60000000e-01 
 9.70000000e-01  3.26553563e-09  3.62194084e-09  3.28125074e-09  4.61032012e-01  3.62501862e-09  4.61032012e-01  3.22259417e-09  1.62331212e-07  6.54789005e-08  9.70000000e-01 
 9.80000000e-01  3.26553563e-09  3.62194083e-09  3.28125080e-09  4.61031989e-01  3.62501861e-09  4.61031989e-01  3.22259411e-09  1.62331167e-07  6.54789716e-08  9.80000000e-01 
 9.90000000e-01  3.26553558e-09  3.62194078e-09  3.28125074e-09  4.61032008e-01  3.62501862e-09  4.61032008e-01  3.22259413e-09  1.62331198e-07  6.54788721e-08  9.90000000e-01 
 1.00000000e+00  3.26553559e-09  3.62194079e-09  3.28125080e-09  4.61032000e-01  3.62501862e-09  4.61032000e-01  3.22259412e-09  1.62331180e-07  6.54787442e-08  1.00000000e+00 
 1.01000000e+00  3.26553563e-09  3.62194078e-09  3.28125074e-09  4.61032010e-01  3.62501862e-09  4.61032010e-01  3.22259418e-09  1.62331198e-07  6.54787868e-08  1.01000000e+00 
 1.02000000e+00  3.26553563e-09  3.62194078e-09  3.28125080e-09  4.61032005e-01  3.62501862e-09  4.61032005e-01  3.22259411e-09  1.62331187e-07  6.54787584e-08  1.02000000e+00 
 1.03000000e+00  3.26553558e-09  3.62194078e-09  3.28125080e-09  4.61031997e-01  3.62501862e-09  4.61031997e-01  3.22259412e-09  1.62331199e-07  6.54785239e-08  1.03000000e+00 
 1.04000000e+00  3.26553559e-09  3.62194078e-09  3.28125074e-09  4.61031999e-01  3.62501862e-09  4.61031999e-01  3.22259418e-09  1.62331185e-07  6.54784955e-08  1.04000000e+00 
 1.05000000e+00  3.26553563e-09  3.62194078e-09  3.28125074e-09  4.61031997e-01  3.62501862e-09  4.61031997e-01  3.22259411e-09  1.62331177e-07  6.54783392e-08  1.05000000e+00 
 1.06000000e+00  3.26553558e-09  3.62194084e-09  3.28125074e-09  4.61031998e-01  3.62501862e-09  4.61031998e-01  3.22259412e-09  1.62331183e-07  6.54781971e-08  1.06000000e+00 
 1.07000000e+00  3.26553559e-09  3.62194083e-09  3.28125074e-09  4.61031987e-01  3.62501861e-09  4.61031987e-01  3.22259412e-09  1.62331169e-07  6.54782113e-08  1.07000000e+00 
 1.08000000e+00  3.26553563e-09  3.62194083e-09  3.28125074e-09  4.61031988e-01  3.62501861e-09  4.61031988e-01  3.22259417e-09  1.62331180e-07  6.54781545e-08  1.08000000e+00 
 1.09000000e+00  3.26553563e-09  3.62194078e-09  3.28125080e-09  4.61032009e-01  3.62501862e-09  4.61032009e-01  3.22259411e-09  1.62331201e-07  6.54781331e-08  1.09000000e+00 
 1.10000000e+00  3.26553563e-09  3.62194079e-09  3.28125074e-09  4.61032002e-01  3.62501862e-09  4.61032002e-01  3.22259418e-09  1.62331195e-07  6.54781829e-08  1.10000000e+00 
