 v-sweep         v(b0)           v(b1)           v(b2)           v(b3)           v(b4)           v(b5)           v(b6)           i(vbias)        i(viout)        v(vout)        
 0.00000000e+00  3.50347240e-09  4.58399027e-01  3.51129817e-09  4.58399026e-01  3.23256049e-09  4.58399027e-01  4.58399027e-01  1.60298260e-07  1.58006241e-07  0.00000000e+00 
 1.00000000e-02  3.50347240e-09  4.58398991e-01  3.51129817e-09  4.58398991e-01  3.23256043e-09  4.58398991e-01  4.58398991e-01  1.60298222e-07  1.58005591e-07  1.00000000e-02 
 2.00000000e-02  3.50347240e-09  4.58399007e-01  3.51129817e-09  4.58399007e-01  3.23256050e-09  4.58399007e-01  4.58399007e-01  1.60298235e-07  1.58005329e-07  2.00000000e-02 
 3.00000000e-02  3.50347240e-09  4.58398999e-01  3.51129817e-09  4.58398999e-01  3.23256048e-09  4.58398999e-01  4.58398999e-01  1.60298240e-07  1.58004812e-07  3.00000000e-02 
 4.00000000e-02  3.50347245e-09  4.58398999e-01  3.51129817e-09  4.58398999e-01  3.23256043e-09  4.58398999e-01  4.58398999e-01  1.60298224e-07  1.58004361e-07  4.00000000e-02 
 5.00000000e-02  3.50347240e-09  4.58399022e-01  3.51129817e-09  4.58399022e-01  3.23256050e-09  4.58399022e-01  4.58399022e-01  1.60298257e-07  1.58004115e-07  5.00000000e-02 
 6.00000000e-02  3.50347240e-09  4.58399013e-01  3.51129823e-09  4.58399012e-01  3.23256048e-09  4.58399013e-01  4.58399012e-01  1.60298244e-07  1.58003759e-07  6.00000000e-02 
 7.00000000e-02  3.50347240e-09  4.58399043e-01  3.51129818e-09  4.58399043e-01  3.23256049e-09  4.58399043e-01  4.58399043e-01  1.60298281e-07  1.58003509e-07  7.00000000e-02 
 8.00000000e-02  3.50347240e-09  4.58399009e-01  3.51129817e-09  4.58399009e-01  3.23256043e-09  4.58399009e-01  4.58399009e-01  1.60298245e-07  1.58002982e-07  8.00000000e-02 
 9.00000000e-02  3.50347240e-09  4.58399018e-01  3.51129817e-09  4.58399017e-01  3.23256044e-09  4.58399018e-01  4.58399018e-01  1.60298248e-07  1.58002764e-07  9.00000000e-02 
 1.00000000e-01  3.50347240e-09  4.58398989e-01  3.51129817e-09  4.58398989e-01  3.23256048e-09  4.58398989e-01  4.58398989e-01  1.60298212e-07  1.58002388e-07  1.00000000e-01 
 1.10000000e-01  3.50347240e-09  4.58399026e-01  3.51129817e-09  4.58399026e-01  3.23256043e-09  4.58399026e-01  4.58399026e-01  1.60298267e-07  1.58002252e-07  1.10000000e-01 
 1.20000000e-01  3.50347240e-09  4.58399019e-01  3.51129817e-09  4.58399019e-01  3.23256050e-09  4.58399019e-01  4.58399019e-01  1.60298258e-07  1.58001910e-07  1.20000000e-01 
 1.30000000e-01  3.50347240e-09  4.58399004e-01  3.51129817e-09  4.58399004e-01  3.23256048e-09  4.58399004e-01  4.58399004e-01  1.60298238e-07  1.58001474e-07  1.30000000e-01 
 1.40000000e-01  3.50347240e-09  4.58399011e-01  3.51129817e-09  4.58399011e-01  3.23256043e-09  4.58399011e-01  4.58399011e-01  1.60298248e-07  1.58001335e-07  1.40000000e-01 
 1.50000000e-01  3.50347240e-09  4.58398981e-01  3.51129816e-09  4.58398981e-01  3.23256050e-09  4.58398981e-01  4.58398981e-01  1.60298200e-07  1.58001001e-07  1.50000000e-01 
 1.60000000e-01  3.50347240e-09  4.58399015e-01  3.51129817e-09  4.58399015e-01  3.23256048e-09  4.58399015e-01  4.58399015e-01  1.60298250e-07  1.58000903e-07  1.60000000e-01 
 1.70000000e-01  3.50347240e-09  4.58399003e-01  3.51129817e-09  4.58399003e-01  3.23256049e-09  4.58399003e-01  4.58399003e-01  1.60298238e-07  1.58000526e-07  1.70000000e-01 
 1.80000000e-01  3.50347240e-09  4.58399006e-01  3.51129817e-09  4.58399006e-01  3.23256049e-09  4.58399006e-01  4.58399006e-01  1.60298239e-07  1.58000409e-07  1.80000000e-01 
 1.90000000e-01  3.50347240e-09  4.58399022e-01  3.51129817e-09  4.58399022e-01  3.23256043e-09  4.58399022e-01  4.58399022e-01  1.60298270e-07  1.58000201e-07  1.90000000e-01 
 2.00000000e-01  3.50347240e-09  4.58398996e-01  3.51129817e-09  4.58398996e-01  3.23256044e-09  4.58398996e-01  4.58398996e-01  1.60298228e-07  1.57999892e-07  2.00000000e-01 
 2.10000000e-01  3.50347240e-09  4.58399008e-01  3.51129817e-09  4.58399008e-01  3.23256049e-09  4.58399008e-01  4.58399008e-01  1.60298248e-07  1.57999814e-07  2.10000000e-01 
 2.20000000e-01  3.50347240e-09  4.58398991e-01  3.51129822e-09  4.58398991e-01  3.23256042e-09  4.58398991e-01  4.58398991e-01  1.60298212e-07  1.57999548e-07  2.20000000e-01 
 2.30000000e-01  3.50347240e-09  4.58399028e-01  3.51129817e-09  4.58399028e-01  3.23256044e-09  4.58399028e-01  4.58399028e-01  1.60298266e-07  1.57999489e-07  2.30000000e-01 
 2.40000000e-01  3.50347240e-09  4.58398996e-01  3.51129822e-09  4.58398996e-01  3.23256048e-09  4.58398996e-01  4.58398996e-01  1.60298224e-07  1.57999139e-07  2.40000000e-01 
 2.50000000e-01  3.50347240e-09  4.58399009e-01  3.51129817e-09  4.58399009e-01  3.23256043e-09  4.58399009e-01  4.58399009e-01  1.60298250e-07  1.57998947e-07  2.50000000e-01 
 2.60000000e-01  3.50347240e-09  4.58398997e-01  3.51129817e-09  4.58398996e-01  3.23256044e-09  4.58398996e-01  4.58398996e-01  1.60298231e-07  1.57998652e-07  2.60000000e-01 
 2.70000000e-01  3.50347240e-09  4.58399003e-01  3.51129817e-09  4.58399003e-01  3.23256044e-09  4.58399003e-01  4.58399003e-01  1.60298230e-07  1.57998594e-07  2.70000000e-01 
 2.80000000e-01  3.50347240e-09  4.58398970e-01  3.51129816e-09  4.58398970e-01  3.23256049e-09  4.58398970e-01  4.58398970e-01  1.60298190e-07  1.57998311e-07  2.80000000e-01 
 2.90000000e-01  3.50347240e-09  4.58398992e-01  3.51129817e-09  4.58398992e-01  3.23256048e-09  4.58398992e-01  4.58398992e-01  1.60298210e-07  1.57998251e-07  2.90000000e-01 
 3.00000000e-01  3.50347240e-09  4.58398992e-01  3.51129817e-09  4.58398992e-01  3.23256049e-09  4.58398992e-01  4.58398992e-01  1.60298223e-07  1.57998116e-07  3.00000000e-01 
 3.10000000e-01  3.50347240e-09  4.58399005e-01  3.51129817e-09  4.58399005e-01  3.23256049e-09  4.58399005e-01  4.58399005e-01  1.60298236e-07  1.57998006e-07  3.10000000e-01 
 3.20000000e-01  3.50347240e-09  4.58398998e-01  3.51129817e-09  4.58398998e-01  3.23256043e-09  4.58398998e-01  4.58398998e-01  1.60298240e-07  1.57997860e-07  3.20000000e-01 
 3.30000000e-01  3.50347240e-09  4.58399007e-01  3.51129817e-09  4.58399007e-01  3.23256044e-09  4.58399007e-01  4.58399007e-01  1.60298232e-07  1.57997736e-07  3.30000000e-01 
 3.40000000e-01  3.50347245e-09  4.58398971e-01  3.51129816e-09  4.58398971e-01  3.23256044e-09  4.58398971e-01  4.58398971e-01  1.60298194e-07  1.57997430e-07  3.40000000e-01 
 3.50000000e-01  3.50347240e-09  4.58399010e-01  3.51129817e-09  4.58399010e-01  3.23256050e-09  4.58399010e-01  4.58399010e-01  1.60298236e-07  1.57997523e-07  3.50000000e-01 
 3.60000000e-01  3.50347240e-09  4.58399009e-01  3.51129817e-09  4.58399009e-01  3.23256043e-09  4.58399009e-01  4.58399009e-01  1.60298254e-07  1.57997253e-07  3.60000000e-01 
 3.70000000e-01  3.50347240e-09  4.58399018e-01  3.51129817e-09  4.58399018e-01  3.23256050e-09  4.58399018e-01  4.58399018e-01  1.60298244e-07  1.57997270e-07  3.70000000e-01 
 3.80000000e-01  3.50347240e-09  4.58399007e-01  3.51129817e-09  4.58399007e-01  3.23256048e-09  4.58399007e-01  4.58399007e-01  1.60298251e-07  1.57997089e-07  3.80000000e-01 
 3.90000000e-01  3.50347240e-09  4.58398993e-01  3.51129817e-09  4.58398993e-01  3.23256049e-09  4.58398993e-01  4.58398993e-01  1.60298203e-07  1.57996926e-07  3.90000000e-01 
 4.00000000e-01  3.50347240e-09  4.58399011e-01  3.51129817e-09  4.58399010e-01  3.23256043e-09  4.58399011e-01  4.58399011e-01  1.60298241e-07  1.57996912e-07  4.00000000e-01 
 4.10000000e-01  3.50347240e-09  4.58398996e-01  3.51129817e-09  4.58398995e-01  3.23256044e-09  4.58398996e-01  4.58398995e-01  1.60298231e-07  1.57996606e-07  4.10000000e-01 
 4.20000000e-01  3.50347240e-09  4.58399013e-01  3.51129817e-09  4.58399013e-01  3.23256044e-09  4.58399013e-01  4.58399013e-01  1.60298244e-07  1.57996642e-07  4.20000000e-01 
 4.30000000e-01  3.50347240e-09  4.58398989e-01  3.51129817e-09  4.58398989e-01  3.23256049e-09  4.58398989e-01  4.58398989e-01  1.60298212e-07  1.57996400e-07  4.30000000e-01 
 4.40000000e-01  3.50347240e-09  4.58398993e-01  3.51129817e-09  4.58398993e-01  3.23256048e-09  4.58398993e-01  4.58398993e-01  1.60298214e-07  1.57996322e-07  4.40000000e-01 
 4.50000000e-01  3.50347240e-09  4.58399033e-01  3.51129817e-09  4.58399033e-01  3.23256043e-09  4.58399033e-01  4.58399033e-01  1.60298268e-07  1.57996386e-07  4.50000000e-01 
 4.60000000e-01  3.50347240e-09  4.58399019e-01  3.51129817e-09  4.58399018e-01  3.23256050e-09  4.58399019e-01  4.58399019e-01  1.60298253e-07  1.57996208e-07  4.60000000e-01 
 4.70000000e-01  3.50347240e-09  4.58399021e-01  3.51129817e-09  4.58399021e-01  3.23256048e-09  4.58399021e-01  4.58399021e-01  1.60298279e-07  1.57996148e-07  4.70000000e-01 
 4.80000000e-01  3.50347240e-09  4.58398987e-01  3.51129817e-09  4.58398987e-01  3.23256049e-09  4.58398987e-01  4.58398987e-01  1.60298214e-07  1.57995856e-07  4.80000000e-01 
 4.90000000e-01  3.50347240e-09  4.58398995e-01  3.51129817e-09  4.58398995e-01  3.23256049e-09  4.58398995e-01  4.58398995e-01  1.60298211e-07  1.57995796e-07  4.90000000e-01 
 5.00000000e-01  3.50347240e-09  4.58399021e-01  3.51129817e-09  4.58399021e-01  3.23256049e-09  4.58399021e-01  4.58399021e-01  1.60298265e-07  1.57995775e-07  5.00000000e-01 
 5.10000000e-01  3.50347240e-09  4.58399024e-01  3.51129817e-09  4.58399024e-01  3.23256043e-09  4.58399024e-01  4.58399024e-01  1.60298270e-07  1.57995537e-07  5.10000000e-01 
 5.20000000e-01  3.50347240e-09  4.58399005e-01  3.51129817e-09  4.58399004e-01  3.23256050e-09  4.58399005e-01  4.58399005e-01  1.60298239e-07  1.57995494e-07  5.20000000e-01 
 5.30000000e-01  3.50347240e-09  4.58399001e-01  3.51129817e-09  4.58399000e-01  3.23256048e-09  4.58399001e-01  4.58399001e-01  1.60298214e-07  1.57995238e-07  5.30000000e-01 
 5.40000000e-01  3.50347240e-09  4.58398990e-01  3.51129817e-09  4.58398990e-01  3.23256043e-09  4.58398990e-01  4.58398990e-01  1.60298224e-07  1.57995096e-07  5.40000000e-01 
 5.50000000e-01  3.50347240e-09  4.58398996e-01  3.51129817e-09  4.58398996e-01  3.23256050e-09  4.58398996e-01  4.58398996e-01  1.60298215e-07  1.57995043e-07  5.50000000e-01 
 5.60000000e-01  3.50347240e-09  4.58399021e-01  3.51129823e-09  4.58399021e-01  3.23256048e-09  4.58399021e-01  4.58399021e-01  1.60298272e-07  1.57995011e-07  5.60000000e-01 
 5.70000000e-01  3.50347240e-09  4.58399008e-01  3.51129817e-09  4.58399008e-01  3.23256049e-09  4.58399008e-01  4.58399008e-01  1.60298248e-07  1.57994883e-07  5.70000000e-01 
 5.80000000e-01  3.50347240e-09  4.58399020e-01  3.51129817e-09  4.58399020e-01  3.23256043e-09  4.58399020e-01  4.58399020e-01  1.60298250e-07  1.57994712e-07  5.80000000e-01 
 5.90000000e-01  3.50347240e-09  4.58399001e-01  3.51129817e-09  4.58399001e-01  3.23256044e-09  4.58399001e-01  4.58399001e-01  1.60298230e-07  1.57994656e-07  5.90000000e-01 
 6.00000000e-01  3.50347240e-09  4.58399001e-01  3.51129817e-09  4.58399000e-01  3.23256044e-09  4.58399001e-01  4.58399001e-01  1.60298246e-07  1.57994570e-07  6.00000000e-01 
 6.10000000e-01  3.50347240e-09  4.58399021e-01  3.51129817e-09  4.58399020e-01  3.23256050e-09  4.58399021e-01  4.58399021e-01  1.60298258e-07  1.57994478e-07  6.10000000e-01 
 6.20000000e-01  3.50347240e-09  4.58399010e-01  3.51129817e-09  4.58399010e-01  3.23256048e-09  4.58399010e-01  4.58399010e-01  1.60298243e-07  1.57994364e-07  6.20000000e-01 
 6.30000000e-01  3.50347240e-09  4.58399018e-01  3.51129817e-09  4.58399018e-01  3.23256049e-09  4.58399018e-01  4.58399018e-01  1.60298261e-07  1.57994272e-07  6.30000000e-01 
 6.40000000e-01  3.50347240e-09  4.58398998e-01  3.51129817e-09  4.58398998e-01  3.23256049e-09  4.58398998e-01  4.58398998e-01  1.60298226e-07  1.57994087e-07  6.40000000e-01 
 6.50000000e-01  3.50347240e-09  4.58399014e-01  3.51129817e-09  4.58399013e-01  3.23256043e-09  4.58399014e-01  4.58399014e-01  1.60298237e-07  1.57994030e-07  6.50000000e-01 
 6.60000000e-01  3.50347240e-09  4.58399009e-01  3.51129817e-09  4.58399009e-01  3.23256044e-09  4.58399009e-01  4.58399009e-01  1.60298236e-07  1.57993917e-07  6.60000000e-01 
 6.70000000e-01  3.50347240e-09  4.58399031e-01  3.51129817e-09  4.58399031e-01  3.23256050e-09  4.58399031e-01  4.58399031e-01  1.60298279e-07  1.57993824e-07  6.70000000e-01 
 6.80000000e-01  3.50347240e-09  4.58399006e-01  3.51129817e-09  4.58399006e-01  3.23256043e-09  4.58399006e-01  4.58399006e-01  1.60298236e-07  1.57993725e-07  6.80000000e-01 
 6.90000000e-01  3.50347240e-09  4.58398994e-01  3.51129817e-09  4.58398994e-01  3.23256044e-09  4.58398994e-01  4.58398994e-01  1.60298220e-07  1.57993505e-07  6.90000000e-01 
 7.00000000e-01  3.50347240e-09  4.58398982e-01  3.51129816e-09  4.58398982e-01  3.23256049e-09  4.58398982e-01  4.58398982e-01  1.60298206e-07  1.57993284e-07  7.00000000e-01 
 7.10000000e-01  3.50347240e-09  4.58399006e-01  3.51129817e-09  4.58399006e-01  3.23256048e-09  4.58399006e-01  4.58399006e-01  1.60298231e-07  1.57993263e-07  7.10000000e-01 
 7.20000000e-01  3.50347240e-09  4.58399012e-01  3.51129817e-09  4.58399012e-01  3.23256049e-09  4.58399012e-01  4.58399012e-01  1.60298248e-07  1.57993171e-07  7.20000000e-01 
 7.30000000e-01  3.50347240e-09  4.58398966e-01  3.51129816e-09  4.58398966e-01  3.23256049e-09  4.58398966e-01  4.58398966e-01  1.60298190e-07  1.57992872e-07  7.30000000e-01 
 7.40000000e-01  3.50347240e-09  4.58399002e-01  3.51129817e-09  4.58399002e-01  3.23256049e-09  4.58399002e-01  4.58399002e-01  1.60298219e-07  1.57992808e-07  7.40000000e-01 
 7.50000000e-01  3.50347240e-09  4.58399020e-01  3.51129817e-09  4.58399020e-01  3.23256043e-09  4.58399020e-01  4.58399020e-01  1.60298269e-07  1.57992872e-07  7.50000000e-01 
 7.60000000e-01  3.50347240e-09  4.58399008e-01  3.51129817e-09  4.58399008e-01  3.23256050e-09  4.58399008e-01  4.58399008e-01  1.60298257e-07  1.57992815e-07  7.60000000e-01 
 7.70000000e-01  3.50347240e-09  4.58399013e-01  3.51129817e-09  4.58399012e-01  3.23256043e-09  4.58399013e-01  4.58399012e-01  1.60298251e-07  1.57992616e-07  7.70000000e-01 
 7.80000000e-01  3.50347240e-09  4.58398998e-01  3.51129817e-09  4.58398998e-01  3.23256044e-09  4.58398998e-01  4.58398998e-01  1.60298222e-07  1.57992410e-07  7.80000000e-01 
 7.90000000e-01  3.50347240e-09  4.58398992e-01  3.51129817e-09  4.58398992e-01  3.23256044e-09  4.58398992e-01  4.58398992e-01  1.60298213e-07  1.57992268e-07  7.90000000e-01 
 8.00000000e-01  3.50347240e-09  4.58399004e-01  3.51129817e-09  4.58399004e-01  3.23256049e-09  4.58399004e-01  4.58399004e-01  1.60298228e-07  1.57992154e-07  8.00000000e-01 
 8.10000000e-01  3.50347240e-09  4.58398988e-01  3.51129817e-09  4.58398987e-01  3.23256048e-09  4.58398988e-01  4.58398988e-01  1.60298217e-07  1.57992027e-07  8.10000000e-01 
 8.20000000e-01  3.50347240e-09  4.58399007e-01  3.51129817e-09  4.58399006e-01  3.23256049e-09  4.58399007e-01  4.58399006e-01  1.60298234e-07  1.57992041e-07  8.20000000e-01 
 8.30000000e-01  3.50347240e-09  4.58398993e-01  3.51129822e-09  4.58398993e-01  3.23256043e-09  4.58398993e-01  4.58398993e-01  1.60298236e-07  1.57991863e-07  8.30000000e-01 
 8.40000000e-01  3.50347240e-09  4.58399006e-01  3.51129817e-09  4.58399005e-01  3.23256050e-09  4.58399006e-01  4.58399006e-01  1.60298226e-07  1.57991813e-07  8.40000000e-01 
 8.50000000e-01  3.50347240e-09  4.58399001e-01  3.51129817e-09  4.58399000e-01  3.23256048e-09  4.58399001e-01  4.58399001e-01  1.60298233e-07  1.57991607e-07  8.50000000e-01 
 8.60000000e-01  3.50347240e-09  4.58399004e-01  3.51129817e-09  4.58399003e-01  3.23256049e-09  4.58399004e-01  4.58399004e-01  1.60298233e-07  1.57991487e-07  8.60000000e-01 
 8.70000000e-01  3.50347240e-09  4.58399017e-01  3.51129817e-09  4.58399017e-01  3.23256043e-09  4.58399017e-01  4.58399017e-01  1.60298257e-07  1.57991359e-07  8.70000000e-01 
 8.80000000e-01  3.50347240e-09  4.58399016e-01  3.51129817e-09  4.58399015e-01  3.23256050e-09  4.58399016e-01  4.58399016e-01  1.60298251e-07  1.57991281e-07  8.80000000e-01 
 8.90000000e-01  3.50347240e-09  4.58398995e-01  3.51129817e-09  4.58398995e-01  3.23256043e-09  4.58398995e-01  4.58398995e-01  1.60298228e-07  1.57991195e-07  8.90000000e-01 
 9.00000000e-01  3.50347240e-09  4.58399020e-01  3.51129817e-09  4.58399020e-01  3.23256044e-09  4.58399020e-01  4.58399020e-01  1.60298264e-07  1.57991138e-07  9.00000000e-01 
 9.10000000e-01  3.50347240e-09  4.58399020e-01  3.51129817e-09  4.58399020e-01  3.23256048e-09  4.58399020e-01  4.58399020e-01  1.60298262e-07  1.57991025e-07  9.10000000e-01 
 9.20000000e-01  3.50347240e-09  4.58398974e-01  3.51129816e-09  4.58398974e-01  3.23256049e-09  4.58398974e-01  4.58398974e-01  1.60298198e-07  1.57990733e-07  9.20000000e-01 
 9.30000000e-01  3.50347240e-09  4.58399006e-01  3.51129817e-09  4.58399006e-01  3.23256049e-09  4.58399006e-01  4.58399006e-01  1.60298219e-07  1.57990620e-07  9.30000000e-01 
 9.40000000e-01  3.50347240e-09  4.58399024e-01  3.51129817e-09  4.58399024e-01  3.23256049e-09  4.58399024e-01  4.58399024e-01  1.60298270e-07  1.57990570e-07  9.40000000e-01 
 9.50000000e-01  3.50347240e-09  4.58399006e-01  3.51129817e-09  4.58399005e-01  3.23256049e-09  4.58399006e-01  4.58399006e-01  1.60298235e-07  1.57990357e-07  9.50000000e-01 
 9.60000000e-01  3.50347240e-09  4.58399008e-01  3.51129817e-09  4.58399008e-01  3.23256043e-09  4.58399008e-01  4.58399008e-01  1.60298231e-07  1.57990264e-07  9.60000000e-01 
 9.70000000e-01  3.50347240e-09  4.58399003e-01  3.51129817e-09  4.58399003e-01  3.23256050e-09  4.58399003e-01  4.58399003e-01  1.60298239e-07  1.57990051e-07  9.70000000e-01 
 9.80000000e-01  3.50347240e-09  4.58398996e-01  3.51129817e-09  4.58398995e-01  3.23256048e-09  4.58398996e-01  4.58398995e-01  1.60298216e-07  1.57989987e-07  9.80000000e-01 
 9.90000000e-01  3.50347240e-09  4.58398976e-01  3.51129816e-09  4.58398976e-01  3.23256043e-09  4.58398976e-01  4.58398976e-01  1.60298190e-07  1.57989675e-07  9.90000000e-01 
 1.00000000e+00  3.50347240e-09  4.58399010e-01  3.51129817e-09  4.58399009e-01  3.23256050e-09  4.58399010e-01  4.58399010e-01  1.60298249e-07  1.57989739e-07  1.00000000e+00 
 1.01000000e+00  3.50347240e-09  4.58399001e-01  3.51129817e-09  4.58399001e-01  3.23256043e-09  4.58399001e-01  4.58399001e-01  1.60298237e-07  1.57989483e-07  1.01000000e+00 
 1.02000000e+00  3.50347240e-09  4.58399008e-01  3.51129817e-09  4.58399008e-01  3.23256050e-09  4.58399008e-01  4.58399008e-01  1.60298240e-07  1.57989533e-07  1.02000000e+00 
 1.03000000e+00  3.50347240e-09  4.58398992e-01  3.51129817e-09  4.58398992e-01  3.23256048e-09  4.58398992e-01  4.58398992e-01  1.60298234e-07  1.57989376e-07  1.03000000e+00 
 1.04000000e+00  3.50347240e-09  4.58399026e-01  3.51129817e-09  4.58399025e-01  3.23256043e-09  4.58399026e-01  4.58399026e-01  1.60298253e-07  1.57989319e-07  1.04000000e+00 
 1.05000000e+00  3.50347240e-09  4.58399024e-01  3.51129817e-09  4.58399024e-01  3.23256044e-09  4.58399024e-01  4.58399024e-01  1.60298263e-07  1.57989177e-07  1.05000000e+00 
 1.06000000e+00  3.50347240e-09  4.58399020e-01  3.51129823e-09  4.58399020e-01  3.23256048e-09  4.58399020e-01  4.58399020e-01  1.60298257e-07  1.57989000e-07  1.06000000e+00 
 1.07000000e+00  3.50347240e-09  4.58399004e-01  3.51129817e-09  4.58399004e-01  3.23256043e-09  4.58399004e-01  4.58399004e-01  1.60298240e-07  1.57988765e-07  1.07000000e+00 
 1.08000000e+00  3.50347240e-09  4.58398996e-01  3.51129817e-09  4.58398996e-01  3.23256044e-09  4.58398996e-01  4.58398996e-01  1.60298218e-07  1.57988566e-07  1.08000000e+00 
 1.09000000e+00  3.50347240e-09  4.58399018e-01  3.51129817e-09  4.58399018e-01  3.23256044e-09  4.58399018e-01  4.58399018e-01  1.60298259e-07  1.57988538e-07  1.09000000e+00 
 1.10000000e+00  3.50347240e-09  4.58399017e-01  3.51129817e-09  4.58399017e-01  3.23256044e-09  4.58399017e-01  4.58399017e-01  1.60298262e-07  1.57988339e-07  1.10000000e+00 
