 v-sweep         v(b0)           v(b1)           v(b2)           v(b3)           v(b4)           v(b5)           v(b6)           i(vbias)        i(viout)        v(vout)        
 0.00000000e+00  4.56742048e-01  3.20059223e-09  3.30973288e-09  3.40028756e-09  3.46681406e-09  3.20309831e-09  3.23751262e-09  1.54610798e-07  1.55794601e-09  0.00000000e+00 
 1.00000000e-02  4.56742063e-01  3.20059227e-09  3.30973292e-09  3.40028755e-09  3.46681404e-09  3.20309830e-09  3.23751266e-09  1.54610832e-07  1.55752189e-09  1.00000000e-02 
 2.00000000e-02  4.56742058e-01  3.20059227e-09  3.30973286e-09  3.40028755e-09  3.46681404e-09  3.20309830e-09  3.23751266e-09  1.54610815e-07  1.55706603e-09  2.00000000e-02 
 3.00000000e-02  4.56742047e-01  3.20059227e-09  3.30973292e-09  3.40028754e-09  3.46681409e-09  3.20309830e-09  3.23751265e-09  1.54610828e-07  1.55665525e-09  3.00000000e-02 
 4.00000000e-02  4.56742067e-01  3.20059227e-09  3.30973286e-09  3.40028749e-09  3.46681404e-09  3.20309835e-09  3.23751260e-09  1.54610826e-07  1.55626889e-09  4.00000000e-02 
 5.00000000e-02  4.56742057e-01  3.20059227e-09  3.30973286e-09  3.40028754e-09  3.46681404e-09  3.20309834e-09  3.23751266e-09  1.54610821e-07  1.55594204e-09  5.00000000e-02 
 6.00000000e-02  4.56742080e-01  3.20059221e-09  3.30973287e-09  3.40028755e-09  3.46681404e-09  3.20309829e-09  3.23751266e-09  1.54610846e-07  1.55552282e-09  6.00000000e-02 
 7.00000000e-02  4.56742070e-01  3.20059227e-09  3.30973292e-09  3.40028755e-09  3.46681404e-09  3.20309830e-09  3.23751260e-09  1.54610828e-07  1.55521862e-09  7.00000000e-02 
 8.00000000e-02  4.56742067e-01  3.20059221e-09  3.30973292e-09  3.40028755e-09  3.46681404e-09  3.20309835e-09  3.23751260e-09  1.54610841e-07  1.55486557e-09  8.00000000e-02 
 9.00000000e-02  4.56742058e-01  3.20059227e-09  3.30973292e-09  3.40028749e-09  3.46681404e-09  3.20309834e-09  3.23751260e-09  1.54610813e-07  1.55455027e-09  9.00000000e-02 
 1.00000000e-01  4.56742085e-01  3.20059227e-09  3.30973287e-09  3.40028755e-09  3.46681404e-09  3.20309829e-09  3.23751260e-09  1.54610868e-07  1.55420921e-09  1.00000000e-01 
 1.10000000e-01  4.56742055e-01  3.20059227e-09  3.30973286e-09  3.40028749e-09  3.46681410e-09  3.20309830e-09  3.23751266e-09  1.54610819e-07  1.55393920e-09  1.10000000e-01 
 1.20000000e-01  4.56742056e-01  3.20059227e-09  3.30973292e-09  3.40028754e-09  3.46681404e-09  3.20309830e-09  3.23751266e-09  1.54610806e-07  1.55367541e-09  1.20000000e-01 
 1.30000000e-01  4.56742071e-01  3.20059227e-09  3.30973292e-09  3.40028749e-09  3.46681404e-09  3.20309835e-09  3.23751266e-09  1.54610837e-07  1.55335567e-09  1.30000000e-01 
 1.40000000e-01  4.56742073e-01  3.20059227e-09  3.30973286e-09  3.40028749e-09  3.46681404e-09  3.20309834e-09  3.23751260e-09  1.54610844e-07  1.55308122e-09  1.40000000e-01 
 1.50000000e-01  4.56742057e-01  3.20059227e-09  3.30973286e-09  3.40028754e-09  3.46681404e-09  3.20309829e-09  3.23751260e-09  1.54610817e-07  1.55277569e-09  1.50000000e-01 
 1.60000000e-01  4.56742057e-01  3.20059227e-09  3.30973292e-09  3.40028749e-09  3.46681404e-09  3.20309830e-09  3.23751260e-09  1.54610824e-07  1.55258384e-09  1.60000000e-01 
 1.70000000e-01  4.56742075e-01  3.20059227e-09  3.30973292e-09  3.40028755e-09  3.46681410e-09  3.20309830e-09  3.23751266e-09  1.54610834e-07  1.55243463e-09  1.70000000e-01 
 1.80000000e-01  4.56742080e-01  3.20059227e-09  3.30973292e-09  3.40028755e-09  3.46681410e-09  3.20309830e-09  3.23751266e-09  1.54610848e-07  1.55222146e-09  1.80000000e-01 
 1.90000000e-01  4.56742071e-01  3.20059227e-09  3.30973292e-09  3.40028755e-09  3.46681404e-09  3.20309835e-09  3.23751266e-09  1.54610851e-07  1.55195856e-09  1.90000000e-01 
 2.00000000e-01  4.56742065e-01  3.20059227e-09  3.30973292e-09  3.40028755e-09  3.46681404e-09  3.20309834e-09  3.23751260e-09  1.54610833e-07  1.55176849e-09  2.00000000e-01 
 2.10000000e-01  4.56742042e-01  3.20059227e-09  3.30973286e-09  3.40028754e-09  3.46681404e-09  3.20309835e-09  3.23751260e-09  1.54610789e-07  1.55148250e-09  2.10000000e-01 
 2.20000000e-01  4.56742046e-01  3.20059227e-09  3.30973286e-09  3.40028754e-09  3.46681409e-09  3.20309835e-09  3.23751260e-09  1.54610793e-07  1.55137414e-09  2.20000000e-01 
 2.30000000e-01  4.56742060e-01  3.20059227e-09  3.30973286e-09  3.40028755e-09  3.46681404e-09  3.20309829e-09  3.23751266e-09  1.54610827e-07  1.55124980e-09  2.30000000e-01 
 2.40000000e-01  4.56742068e-01  3.20059227e-09  3.30973292e-09  3.40028755e-09  3.46681404e-09  3.20309830e-09  3.23751260e-09  1.54610846e-07  1.55098157e-09  2.40000000e-01 
 2.50000000e-01  4.56742071e-01  3.20059227e-09  3.30973286e-09  3.40028755e-09  3.46681410e-09  3.20309830e-09  3.23751260e-09  1.54610838e-07  1.55077373e-09  2.50000000e-01 
 2.60000000e-01  4.56742070e-01  3.20059227e-09  3.30973286e-09  3.40028749e-09  3.46681404e-09  3.20309830e-09  3.23751260e-09  1.54610840e-07  1.55058189e-09  2.60000000e-01 
 2.70000000e-01  4.56742060e-01  3.20059221e-09  3.30973286e-09  3.40028749e-09  3.46681404e-09  3.20309830e-09  3.23751260e-09  1.54610829e-07  1.55046109e-09  2.70000000e-01 
 2.80000000e-01  4.56742071e-01  3.20059227e-09  3.30973286e-09  3.40028749e-09  3.46681404e-09  3.20309830e-09  3.23751266e-09  1.54610836e-07  1.55027102e-09  2.80000000e-01 
 2.90000000e-01  4.56742068e-01  3.20059227e-09  3.30973286e-09  3.40028755e-09  3.46681404e-09  3.20309830e-09  3.23751266e-09  1.54610836e-07  1.55010227e-09  2.90000000e-01 
 3.00000000e-01  4.56742065e-01  3.20059227e-09  3.30973286e-09  3.40028755e-09  3.46681410e-09  3.20309830e-09  3.23751260e-09  1.54610831e-07  1.54994240e-09  3.00000000e-01 
 3.10000000e-01  4.56742063e-01  3.20059227e-09  3.30973286e-09  3.40028749e-09  3.46681410e-09  3.20309835e-09  3.23751260e-09  1.54610827e-07  1.54985713e-09  3.10000000e-01 
 3.20000000e-01  4.56742072e-01  3.20059227e-09  3.30973292e-09  3.40028755e-09  3.46681404e-09  3.20309834e-09  3.23751266e-09  1.54610846e-07  1.54967950e-09  3.20000000e-01 
 3.30000000e-01  4.56742065e-01  3.20059227e-09  3.30973286e-09  3.40028755e-09  3.46681404e-09  3.20309835e-09  3.23751260e-09  1.54610820e-07  1.54959423e-09  3.30000000e-01 
 3.40000000e-01  4.56742056e-01  3.20059221e-09  3.30973292e-09  3.40028749e-09  3.46681404e-09  3.20309829e-09  3.23751266e-09  1.54610817e-07  1.54935975e-09  3.40000000e-01 
 3.50000000e-01  4.56742063e-01  3.20059227e-09  3.30973292e-09  3.40028755e-09  3.46681404e-09  3.20309836e-09  3.23751266e-09  1.54610825e-07  1.54921764e-09  3.50000000e-01 
 3.60000000e-01  4.56742057e-01  3.20059227e-09  3.30973292e-09  3.40028754e-09  3.46681404e-09  3.20309828e-09  3.23751260e-09  1.54610808e-07  1.54916435e-09  3.60000000e-01 
 3.70000000e-01  4.56742054e-01  3.20059227e-09  3.30973292e-09  3.40028749e-09  3.46681404e-09  3.20309830e-09  3.23751260e-09  1.54610815e-07  1.54900448e-09  3.70000000e-01 
 3.80000000e-01  4.56742060e-01  3.20059227e-09  3.30973286e-09  3.40028755e-09  3.46681404e-09  3.20309830e-09  3.23751260e-09  1.54610816e-07  1.54885882e-09  3.80000000e-01 
 3.90000000e-01  4.56742054e-01  3.20059221e-09  3.30973292e-09  3.40028754e-09  3.46681404e-09  3.20309830e-09  3.23751266e-09  1.54610801e-07  1.54867763e-09  3.90000000e-01 
 4.00000000e-01  4.56742071e-01  3.20059227e-09  3.30973286e-09  3.40028755e-09  3.46681410e-09  3.20309830e-09  3.23751266e-09  1.54610844e-07  1.54860658e-09  4.00000000e-01 
 4.10000000e-01  4.56742084e-01  3.20059221e-09  3.30973292e-09  3.40028755e-09  3.46681410e-09  3.20309835e-09  3.23751260e-09  1.54610855e-07  1.54845381e-09  4.10000000e-01 
 4.20000000e-01  4.56742075e-01  3.20059227e-09  3.30973286e-09  3.40028749e-09  3.46681404e-09  3.20309828e-09  3.23751260e-09  1.54610841e-07  1.54827973e-09  4.20000000e-01 
 4.30000000e-01  4.56742077e-01  3.20059221e-09  3.30973286e-09  3.40028755e-09  3.46681410e-09  3.20309836e-09  3.23751266e-09  1.54610852e-07  1.54818025e-09  4.30000000e-01 
 4.40000000e-01  4.56742046e-01  3.20059227e-09  3.30973292e-09  3.40028749e-09  3.46681409e-09  3.20309834e-09  3.23751260e-09  1.54610813e-07  1.54804880e-09  4.40000000e-01 
 4.50000000e-01  4.56742080e-01  3.20059221e-09  3.30973287e-09  3.40028755e-09  3.46681404e-09  3.20309835e-09  3.23751266e-09  1.54610840e-07  1.54796709e-09  4.50000000e-01 
 4.60000000e-01  4.56742071e-01  3.20059227e-09  3.30973286e-09  3.40028755e-09  3.46681404e-09  3.20309829e-09  3.23751260e-09  1.54610837e-07  1.54787116e-09  4.60000000e-01 
 4.70000000e-01  4.56742075e-01  3.20059227e-09  3.30973292e-09  3.40028755e-09  3.46681404e-09  3.20309830e-09  3.23751260e-09  1.54610837e-07  1.54772550e-09  4.70000000e-01 
 4.80000000e-01  4.56742050e-01  3.20059227e-09  3.30973292e-09  3.40028754e-09  3.46681404e-09  3.20309835e-09  3.23751260e-09  1.54610798e-07  1.54766866e-09  4.80000000e-01 
 4.90000000e-01  4.56742059e-01  3.20059227e-09  3.30973286e-09  3.40028749e-09  3.46681410e-09  3.20309828e-09  3.23751266e-09  1.54610819e-07  1.54751945e-09  4.90000000e-01 
 5.00000000e-01  4.56742090e-01  3.20059227e-09  3.30973287e-09  3.40028755e-09  3.46681404e-09  3.20309830e-09  3.23751260e-09  1.54610871e-07  1.54732049e-09  5.00000000e-01 
 5.10000000e-01  4.56742083e-01  3.20059221e-09  3.30973287e-09  3.40028749e-09  3.46681404e-09  3.20309835e-09  3.23751260e-09  1.54610857e-07  1.54735957e-09  5.10000000e-01 
 5.20000000e-01  4.56742056e-01  3.20059227e-09  3.30973292e-09  3.40028754e-09  3.46681404e-09  3.20309834e-09  3.23751260e-09  1.54610831e-07  1.54717128e-09  5.20000000e-01 
 5.30000000e-01  4.56742054e-01  3.20059221e-09  3.30973286e-09  3.40028754e-09  3.46681410e-09  3.20309829e-09  3.23751260e-09  1.54610816e-07  1.54700786e-09  5.30000000e-01 
 5.40000000e-01  4.56742085e-01  3.20059227e-09  3.30973287e-09  3.40028755e-09  3.46681404e-09  3.20309830e-09  3.23751260e-09  1.54610867e-07  1.54692970e-09  5.40000000e-01 
 5.50000000e-01  4.56742079e-01  3.20059227e-09  3.30973287e-09  3.40028755e-09  3.46681404e-09  3.20309835e-09  3.23751266e-09  1.54610842e-07  1.54678759e-09  5.50000000e-01 
 5.60000000e-01  4.56742054e-01  3.20059221e-09  3.30973292e-09  3.40028754e-09  3.46681404e-09  3.20309834e-09  3.23751260e-09  1.54610811e-07  1.54672009e-09  5.60000000e-01 
 5.70000000e-01  4.56742080e-01  3.20059221e-09  3.30973292e-09  3.40028749e-09  3.46681404e-09  3.20309835e-09  3.23751266e-09  1.54610863e-07  1.54656732e-09  5.70000000e-01 
 5.80000000e-01  4.56742043e-01  3.20059227e-09  3.30973292e-09  3.40028754e-09  3.46681404e-09  3.20309835e-09  3.23751265e-09  1.54610793e-07  1.54645363e-09  5.80000000e-01 
 5.90000000e-01  4.56742076e-01  3.20059221e-09  3.30973292e-09  3.40028755e-09  3.46681410e-09  3.20309835e-09  3.23751260e-09  1.54610845e-07  1.54635416e-09  5.90000000e-01 
 6.00000000e-01  4.56742065e-01  3.20059227e-09  3.30973292e-09  3.40028755e-09  3.46681404e-09  3.20309835e-09  3.23751260e-09  1.54610830e-07  1.54625468e-09  6.00000000e-01 
 6.10000000e-01  4.56742066e-01  3.20059227e-09  3.30973286e-09  3.40028755e-09  3.46681404e-09  3.20309835e-09  3.23751266e-09  1.54610821e-07  1.54616231e-09  6.10000000e-01 
 6.20000000e-01  4.56742083e-01  3.20059221e-09  3.30973287e-09  3.40028749e-09  3.46681410e-09  3.20309835e-09  3.23751266e-09  1.54610864e-07  1.54607704e-09  6.20000000e-01 
 6.30000000e-01  4.56742058e-01  3.20059227e-09  3.30973292e-09  3.40028754e-09  3.46681404e-09  3.20309835e-09  3.23751260e-09  1.54610818e-07  1.54592072e-09  6.30000000e-01 
 6.40000000e-01  4.56742060e-01  3.20059227e-09  3.30973292e-09  3.40028749e-09  3.46681404e-09  3.20309829e-09  3.23751260e-09  1.54610814e-07  1.54577151e-09  6.40000000e-01 
 6.50000000e-01  4.56742059e-01  3.20059227e-09  3.30973286e-09  3.40028755e-09  3.46681404e-09  3.20309830e-09  3.23751260e-09  1.54610801e-07  1.54567203e-09  6.50000000e-01 
 6.60000000e-01  4.56742058e-01  3.20059227e-09  3.30973286e-09  3.40028749e-09  3.46681404e-09  3.20309835e-09  3.23751266e-09  1.54610824e-07  1.54557966e-09  6.60000000e-01 
 6.70000000e-01  4.56742067e-01  3.20059227e-09  3.30973286e-09  3.40028755e-09  3.46681404e-09  3.20309828e-09  3.23751266e-09  1.54610832e-07  1.54540913e-09  6.70000000e-01 
 6.80000000e-01  4.56742069e-01  3.20059227e-09  3.30973286e-09  3.40028755e-09  3.46681404e-09  3.20309830e-09  3.23751260e-09  1.54610822e-07  1.54531676e-09  6.80000000e-01 
 6.90000000e-01  4.56742050e-01  3.20059227e-09  3.30973286e-09  3.40028754e-09  3.46681409e-09  3.20309835e-09  3.23751260e-09  1.54610816e-07  1.54527413e-09  6.90000000e-01 
 7.00000000e-01  4.56742063e-01  3.20059221e-09  3.30973286e-09  3.40028749e-09  3.46681410e-09  3.20309834e-09  3.23751260e-09  1.54610825e-07  1.54509650e-09  7.00000000e-01 
 7.10000000e-01  4.56742059e-01  3.20059221e-09  3.30973292e-09  3.40028755e-09  3.46681410e-09  3.20309835e-09  3.23751266e-09  1.54610830e-07  1.54495439e-09  7.10000000e-01 
 7.20000000e-01  4.56742061e-01  3.20059227e-09  3.30973286e-09  3.40028755e-09  3.46681410e-09  3.20309835e-09  3.23751266e-09  1.54610805e-07  1.54487623e-09  7.20000000e-01 
 7.30000000e-01  4.56742057e-01  3.20059227e-09  3.30973286e-09  3.40028754e-09  3.46681404e-09  3.20309829e-09  3.23751266e-09  1.54610826e-07  1.54471991e-09  7.30000000e-01 
 7.40000000e-01  4.56742075e-01  3.20059227e-09  3.30973292e-09  3.40028755e-09  3.46681404e-09  3.20309830e-09  3.23751260e-09  1.54610857e-07  1.54469149e-09  7.40000000e-01 
 7.50000000e-01  4.56742081e-01  3.20059227e-09  3.30973292e-09  3.40028755e-09  3.46681404e-09  3.20309835e-09  3.23751260e-09  1.54610843e-07  1.54454227e-09  7.50000000e-01 
 7.60000000e-01  4.56742068e-01  3.20059227e-09  3.30973286e-09  3.40028755e-09  3.46681404e-09  3.20309828e-09  3.23751266e-09  1.54610835e-07  1.54445701e-09  7.60000000e-01 
 7.70000000e-01  4.56742061e-01  3.20059227e-09  3.30973292e-09  3.40028755e-09  3.46681404e-09  3.20309830e-09  3.23751260e-09  1.54610819e-07  1.54430779e-09  7.70000000e-01 
 7.80000000e-01  4.56742072e-01  3.20059221e-09  3.30973286e-09  3.40028755e-09  3.46681410e-09  3.20309830e-09  3.23751260e-09  1.54610836e-07  1.54420832e-09  7.80000000e-01 
 7.90000000e-01  4.56742087e-01  3.20059227e-09  3.30973292e-09  3.40028755e-09  3.46681404e-09  3.20309835e-09  3.23751266e-09  1.54610861e-07  1.54403068e-09  7.90000000e-01 
 8.00000000e-01  4.56742054e-01  3.20059227e-09  3.30973286e-09  3.40028754e-09  3.46681410e-09  3.20309834e-09  3.23751266e-09  1.54610816e-07  1.54391699e-09  8.00000000e-01 
 8.10000000e-01  4.56742058e-01  3.20059227e-09  3.30973286e-09  3.40028754e-09  3.46681404e-09  3.20309835e-09  3.23751266e-09  1.54610821e-07  1.54379620e-09  8.10000000e-01 
 8.20000000e-01  4.56742044e-01  3.20059227e-09  3.30973286e-09  3.40028749e-09  3.46681404e-09  3.20309835e-09  3.23751265e-09  1.54610801e-07  1.54373936e-09  8.20000000e-01 
 8.30000000e-01  4.56742064e-01  3.20059221e-09  3.30973292e-09  3.40028755e-09  3.46681404e-09  3.20309835e-09  3.23751266e-09  1.54610838e-07  1.54351198e-09  8.30000000e-01 
 8.40000000e-01  4.56742067e-01  3.20059221e-09  3.30973286e-09  3.40028755e-09  3.46681404e-09  3.20309829e-09  3.23751260e-09  1.54610828e-07  1.54349067e-09  8.40000000e-01 
 8.50000000e-01  4.56742065e-01  3.20059227e-09  3.30973286e-09  3.40028749e-09  3.46681404e-09  3.20309830e-09  3.23751260e-09  1.54610839e-07  1.54333435e-09  8.50000000e-01 
 8.60000000e-01  4.56742071e-01  3.20059227e-09  3.30973286e-09  3.40028755e-09  3.46681404e-09  3.20309830e-09  3.23751260e-09  1.54610842e-07  1.54327040e-09  8.60000000e-01 
 8.70000000e-01  4.56742074e-01  3.20059227e-09  3.30973286e-09  3.40028755e-09  3.46681404e-09  3.20309835e-09  3.23751260e-09  1.54610848e-07  1.54309987e-09  8.70000000e-01 
 8.80000000e-01  4.56742086e-01  3.20059227e-09  3.30973287e-09  3.40028749e-09  3.46681404e-09  3.20309834e-09  3.23751266e-09  1.54610854e-07  1.54298618e-09  8.80000000e-01 
 8.90000000e-01  4.56742060e-01  3.20059227e-09  3.30973286e-09  3.40028755e-09  3.46681404e-09  3.20309829e-09  3.23751266e-09  1.54610828e-07  1.54290802e-09  8.90000000e-01 
 9.00000000e-01  4.56742063e-01  3.20059227e-09  3.30973292e-09  3.40028755e-09  3.46681410e-09  3.20309830e-09  3.23751266e-09  1.54610834e-07  1.54275881e-09  9.00000000e-01 
 9.10000000e-01  4.56742062e-01  3.20059227e-09  3.30973292e-09  3.40028755e-09  3.46681404e-09  3.20309835e-09  3.23751266e-09  1.54610829e-07  1.54259538e-09  9.10000000e-01 
 9.20000000e-01  4.56742073e-01  3.20059227e-09  3.30973286e-09  3.40028755e-09  3.46681404e-09  3.20309834e-09  3.23751260e-09  1.54610833e-07  1.54253144e-09  9.20000000e-01 
 9.30000000e-01  4.56742076e-01  3.20059227e-09  3.30973292e-09  3.40028755e-09  3.46681404e-09  3.20309829e-09  3.23751266e-09  1.54610842e-07  1.54234669e-09  9.30000000e-01 
 9.40000000e-01  4.56742053e-01  3.20059221e-09  3.30973286e-09  3.40028754e-09  3.46681404e-09  3.20309836e-09  3.23751266e-09  1.54610816e-07  1.54228275e-09  9.40000000e-01 
 9.50000000e-01  4.56742073e-01  3.20059227e-09  3.30973292e-09  3.40028755e-09  3.46681410e-09  3.20309828e-09  3.23751266e-09  1.54610845e-07  1.54211932e-09  9.50000000e-01 
 9.60000000e-01  4.56742069e-01  3.20059227e-09  3.30973286e-09  3.40028755e-09  3.46681404e-09  3.20309836e-09  3.23751260e-09  1.54610836e-07  1.54202695e-09  9.60000000e-01 
 9.70000000e-01  4.56742044e-01  3.20059221e-09  3.30973286e-09  3.40028754e-09  3.46681409e-09  3.20309834e-09  3.23751265e-09  1.54610800e-07  1.54189905e-09  9.70000000e-01 
 9.80000000e-01  4.56742063e-01  3.20059227e-09  3.30973292e-09  3.40028755e-09  3.46681404e-09  3.20309835e-09  3.23751266e-09  1.54610834e-07  1.54182800e-09  9.80000000e-01 
 9.90000000e-01  4.56742064e-01  3.20059221e-09  3.30973292e-09  3.40028755e-09  3.46681410e-09  3.20309835e-09  3.23751260e-09  1.54610817e-07  1.54160773e-09  9.90000000e-01 
 1.00000000e+00  4.56742080e-01  3.20059227e-09  3.30973292e-09  3.40028755e-09  3.46681404e-09  3.20309829e-09  3.23751260e-09  1.54610850e-07  1.54145852e-09  1.00000000e+00 
 1.01000000e+00  4.56742089e-01  3.20059227e-09  3.30973292e-09  3.40028755e-09  3.46681404e-09  3.20309836e-09  3.23751266e-09  1.54610870e-07  1.54139457e-09  1.01000000e+00 
 1.02000000e+00  4.56742063e-01  3.20059227e-09  3.30973292e-09  3.40028749e-09  3.46681410e-09  3.20309834e-09  3.23751266e-09  1.54610825e-07  1.54127378e-09  1.02000000e+00 
 1.03000000e+00  4.56742082e-01  3.20059227e-09  3.30973292e-09  3.40028755e-09  3.46681404e-09  3.20309835e-09  3.23751266e-09  1.54610864e-07  1.54109614e-09  1.03000000e+00 
 1.04000000e+00  4.56742044e-01  3.20059227e-09  3.30973292e-09  3.40028754e-09  3.46681404e-09  3.20309835e-09  3.23751260e-09  1.54610804e-07  1.54101798e-09  1.04000000e+00 
 1.05000000e+00  4.56742058e-01  3.20059227e-09  3.30973292e-09  3.40028754e-09  3.46681404e-09  3.20309829e-09  3.23751266e-09  1.54610811e-07  1.54079771e-09  1.05000000e+00 
 1.06000000e+00  4.56742055e-01  3.20059227e-09  3.30973292e-09  3.40028749e-09  3.46681404e-09  3.20309830e-09  3.23751260e-09  1.54610818e-07  1.54072666e-09  1.06000000e+00 
 1.07000000e+00  4.56742073e-01  3.20059221e-09  3.30973292e-09  3.40028755e-09  3.46681404e-09  3.20309835e-09  3.23751260e-09  1.54610827e-07  1.54062008e-09  1.07000000e+00 
 1.08000000e+00  4.56742086e-01  3.20059227e-09  3.30973292e-09  3.40028749e-09  3.46681410e-09  3.20309834e-09  3.23751260e-09  1.54610864e-07  1.54038560e-09  1.08000000e+00 
 1.09000000e+00  4.56742070e-01  3.20059221e-09  3.30973286e-09  3.40028755e-09  3.46681410e-09  3.20309835e-09  3.23751260e-09  1.54610855e-07  1.54035718e-09  1.09000000e+00 
 1.10000000e+00  4.56742050e-01  3.20059227e-09  3.30973286e-09  3.40028754e-09  3.46681404e-09  3.20309835e-09  3.23751266e-09  1.54610806e-07  1.54016533e-09  1.10000000e+00 
