 v-sweep         v(b0)           v(b1)           v(b2)           v(b3)           v(b4)           v(b5)           v(b6)           i(vbias)        i(viout)        v(vout)        
 0.00000000e+00  4.59476269e-01  3.26305714e-09  3.64998656e-09  3.34065806e-09  3.07579692e-09  3.50726492e-09  3.37390852e-09  1.63707017e-07  1.63715691e-09  0.00000000e+00 
 1.00000000e-02  4.59476234e-01  3.26305706e-09  3.64998653e-09  3.34065803e-09  3.07579696e-09  3.50726490e-09  3.37390855e-09  1.63706976e-07  1.63667313e-09  1.00000000e-02 
 2.00000000e-02  4.59476264e-01  3.26305706e-09  3.64998654e-09  3.34065804e-09  3.07579690e-09  3.50726491e-09  3.37390855e-09  1.63707011e-07  1.63628933e-09  2.00000000e-02 
 3.00000000e-02  4.59476258e-01  3.26305706e-09  3.64998658e-09  3.34065804e-09  3.07579692e-09  3.50726491e-09  3.37390849e-09  1.63707004e-07  1.63586744e-09  3.00000000e-02 
 4.00000000e-02  4.59476257e-01  3.26305712e-09  3.64998659e-09  3.34065804e-09  3.07579697e-09  3.50726491e-09  3.37390856e-09  1.63707007e-07  1.63547620e-09  4.00000000e-02 
 5.00000000e-02  4.59476244e-01  3.26305712e-09  3.64998659e-09  3.34065804e-09  3.07579690e-09  3.50726496e-09  3.37390854e-09  1.63706981e-07  1.63507119e-09  5.00000000e-02 
 6.00000000e-02  4.59476243e-01  3.26305706e-09  3.64998653e-09  3.34065804e-09  3.07579692e-09  3.50726496e-09  3.37390855e-09  1.63706979e-07  1.63472214e-09  6.00000000e-02 
 7.00000000e-02  4.59476262e-01  3.26305706e-09  3.64998660e-09  3.34065804e-09  3.07579697e-09  3.50726496e-09  3.37390855e-09  1.63707004e-07  1.63436065e-09  7.00000000e-02 
 8.00000000e-02  4.59476233e-01  3.26305706e-09  3.64998658e-09  3.34065803e-09  3.07579696e-09  3.50726490e-09  3.37390855e-09  1.63706976e-07  1.63398450e-09  8.00000000e-02 
 9.00000000e-02  4.59476247e-01  3.26305706e-09  3.64998653e-09  3.34065804e-09  3.07579690e-09  3.50726490e-09  3.37390855e-09  1.63706989e-07  1.63371183e-09  9.00000000e-02 
 1.00000000e-01  4.59476264e-01  3.26305706e-09  3.64998660e-09  3.34065804e-09  3.07579692e-09  3.50726491e-09  3.37390849e-09  1.63707021e-07  1.63340452e-09  1.00000000e-01 
 1.10000000e-01  4.59476255e-01  3.26305706e-09  3.64998658e-09  3.34065804e-09  3.07579691e-09  3.50726491e-09  3.37390856e-09  1.63706992e-07  1.63311409e-09  1.10000000e-01 
 1.20000000e-01  4.59476273e-01  3.26305712e-09  3.64998659e-09  3.34065804e-09  3.07579691e-09  3.50726491e-09  3.37390855e-09  1.63707029e-07  1.63283342e-09  1.20000000e-01 
 1.30000000e-01  4.59476233e-01  3.26305712e-09  3.64998653e-09  3.34065803e-09  3.07579697e-09  3.50726490e-09  3.37390855e-09  1.63706970e-07  1.63251190e-09  1.30000000e-01 
 1.40000000e-01  4.59476256e-01  3.26305712e-09  3.64998660e-09  3.34065804e-09  3.07579696e-09  3.50726491e-09  3.37390849e-09  1.63706993e-07  1.63231206e-09  1.40000000e-01 
 1.50000000e-01  4.59476265e-01  3.26305712e-09  3.64998658e-09  3.34065804e-09  3.07579696e-09  3.50726496e-09  3.37390851e-09  1.63707011e-07  1.63198877e-09  1.50000000e-01 
 1.60000000e-01  4.59476247e-01  3.26305706e-09  3.64998659e-09  3.34065804e-09  3.07579690e-09  3.50726490e-09  3.37390856e-09  1.63706985e-07  1.63173652e-09  1.60000000e-01 
 1.70000000e-01  4.59476237e-01  3.26305712e-09  3.64998659e-09  3.34065804e-09  3.07579692e-09  3.50726490e-09  3.37390854e-09  1.63706965e-07  1.63157310e-09  1.70000000e-01 
 1.80000000e-01  4.59476250e-01  3.26305712e-09  3.64998659e-09  3.34065804e-09  3.07579691e-09  3.50726496e-09  3.37390855e-09  1.63706988e-07  1.63125335e-09  1.80000000e-01 
 1.90000000e-01  4.59476242e-01  3.26305712e-09  3.64998659e-09  3.34065804e-09  3.07579691e-09  3.50726496e-09  3.37390855e-09  1.63706989e-07  1.63111835e-09  1.90000000e-01 
 2.00000000e-01  4.59476241e-01  3.26305712e-09  3.64998659e-09  3.34065804e-09  3.07579691e-09  3.50726496e-09  3.37390855e-09  1.63706976e-07  1.63091762e-09  2.00000000e-01 
 2.10000000e-01  4.59476238e-01  3.26305706e-09  3.64998659e-09  3.34065804e-09  3.07579691e-09  3.50726490e-09  3.37390855e-09  1.63706970e-07  1.63066183e-09  2.10000000e-01 
 2.20000000e-01  4.59476270e-01  3.26305706e-09  3.64998659e-09  3.34065804e-09  3.07579691e-09  3.50726491e-09  3.37390855e-09  1.63707015e-07  1.63050373e-09  2.20000000e-01 
 2.30000000e-01  4.59476232e-01  3.26305706e-09  3.64998659e-09  3.34065803e-09  3.07579697e-09  3.50726490e-09  3.37390855e-09  1.63706957e-07  1.63032254e-09  2.30000000e-01 
 2.40000000e-01  4.59476254e-01  3.26305706e-09  3.64998653e-09  3.34065804e-09  3.07579696e-09  3.50726491e-09  3.37390855e-09  1.63706996e-07  1.63013425e-09  2.40000000e-01 
 2.50000000e-01  4.59476246e-01  3.26305712e-09  3.64998660e-09  3.34065804e-09  3.07579696e-09  3.50726496e-09  3.37390855e-09  1.63706980e-07  1.62997615e-09  2.50000000e-01 
 2.60000000e-01  4.59476258e-01  3.26305712e-09  3.64998658e-09  3.34065804e-09  3.07579690e-09  3.50726496e-09  3.37390855e-09  1.63707002e-07  1.62978608e-09  2.60000000e-01 
 2.70000000e-01  4.59476261e-01  3.26305712e-09  3.64998659e-09  3.34065804e-09  3.07579692e-09  3.50726491e-09  3.37390855e-09  1.63707008e-07  1.62963332e-09  2.70000000e-01 
 2.80000000e-01  4.59476264e-01  3.26305706e-09  3.64998659e-09  3.34065804e-09  3.07579691e-09  3.50726496e-09  3.37390855e-09  1.63707005e-07  1.62938107e-09  2.80000000e-01 
 2.90000000e-01  4.59476248e-01  3.26305712e-09  3.64998653e-09  3.34065804e-09  3.07579691e-09  3.50726496e-09  3.37390855e-09  1.63706982e-07  1.62922120e-09  2.90000000e-01 
 3.00000000e-01  4.59476267e-01  3.26305706e-09  3.64998654e-09  3.34065804e-09  3.07579691e-09  3.50726496e-09  3.37390855e-09  1.63707022e-07  1.62915725e-09  3.00000000e-01 
 3.10000000e-01  4.59476261e-01  3.26305706e-09  3.64998658e-09  3.34065804e-09  3.07579697e-09  3.50726491e-09  3.37390855e-09  1.63707006e-07  1.62895830e-09  3.10000000e-01 
 3.20000000e-01  4.59476231e-01  3.26305712e-09  3.64998653e-09  3.34065803e-09  3.07579690e-09  3.50726496e-09  3.37390855e-09  1.63706966e-07  1.62877711e-09  3.20000000e-01 
 3.30000000e-01  4.59476239e-01  3.26305712e-09  3.64998654e-09  3.34065804e-09  3.07579697e-09  3.50726490e-09  3.37390855e-09  1.63706975e-07  1.62870606e-09  3.30000000e-01 
 3.40000000e-01  4.59476239e-01  3.26305712e-09  3.64998652e-09  3.34065804e-09  3.07579690e-09  3.50726490e-09  3.37390855e-09  1.63706972e-07  1.62858882e-09  3.40000000e-01 
 3.50000000e-01  4.59476257e-01  3.26305706e-09  3.64998654e-09  3.34065804e-09  3.07579692e-09  3.50726491e-09  3.37390855e-09  1.63706992e-07  1.62834723e-09  3.50000000e-01 
 3.60000000e-01  4.59476255e-01  3.26305712e-09  3.64998658e-09  3.34065804e-09  3.07579691e-09  3.50726491e-09  3.37390855e-09  1.63706994e-07  1.62823710e-09  3.60000000e-01 
 3.70000000e-01  4.59476243e-01  3.26305712e-09  3.64998653e-09  3.34065804e-09  3.07579691e-09  3.50726496e-09  3.37390855e-09  1.63706992e-07  1.62810920e-09  3.70000000e-01 
 3.80000000e-01  4.59476255e-01  3.26305712e-09  3.64998654e-09  3.34065804e-09  3.07579691e-09  3.50726491e-09  3.37390855e-09  1.63707003e-07  1.62793512e-09  3.80000000e-01 
 3.90000000e-01  4.59476245e-01  3.26305706e-09  3.64998658e-09  3.34065804e-09  3.07579691e-09  3.50726496e-09  3.37390855e-09  1.63706992e-07  1.62783564e-09  3.90000000e-01 
 4.00000000e-01  4.59476252e-01  3.26305712e-09  3.64998659e-09  3.34065804e-09  3.07579691e-09  3.50726491e-09  3.37390855e-09  1.63706990e-07  1.62773617e-09  4.00000000e-01 
 4.10000000e-01  4.59476256e-01  3.26305712e-09  3.64998653e-09  3.34065804e-09  3.07579697e-09  3.50726491e-09  3.37390855e-09  1.63707004e-07  1.62755498e-09  4.10000000e-01 
 4.20000000e-01  4.59476240e-01  3.26305712e-09  3.64998654e-09  3.34065804e-09  3.07579690e-09  3.50726490e-09  3.37390855e-09  1.63706976e-07  1.62749458e-09  4.20000000e-01 
 4.30000000e-01  4.59476253e-01  3.26305712e-09  3.64998658e-09  3.34065804e-09  3.07579692e-09  3.50726491e-09  3.37390855e-09  1.63706982e-07  1.62731695e-09  4.30000000e-01 
 4.40000000e-01  4.59476237e-01  3.26305706e-09  3.64998653e-09  3.34065804e-09  3.07579697e-09  3.50726490e-09  3.37390855e-09  1.63706987e-07  1.62722458e-09  4.40000000e-01 
 4.50000000e-01  4.59476248e-01  3.26305706e-09  3.64998660e-09  3.34065804e-09  3.07579696e-09  3.50726490e-09  3.37390855e-09  1.63706994e-07  1.62713931e-09  4.50000000e-01 
 4.60000000e-01  4.59476246e-01  3.26305712e-09  3.64998658e-09  3.34065804e-09  3.07579690e-09  3.50726490e-09  3.37390855e-09  1.63707001e-07  1.62689062e-09  4.60000000e-01 
 4.70000000e-01  4.59476264e-01  3.26305706e-09  3.64998653e-09  3.34065804e-09  3.07579692e-09  3.50726491e-09  3.37390855e-09  1.63707006e-07  1.62676983e-09  4.70000000e-01 
 4.80000000e-01  4.59476233e-01  3.26305712e-09  3.64998660e-09  3.34065803e-09  3.07579691e-09  3.50726490e-09  3.37390855e-09  1.63706970e-07  1.62672009e-09  4.80000000e-01 
 4.90000000e-01  4.59476249e-01  3.26305712e-09  3.64998658e-09  3.34065804e-09  3.07579691e-09  3.50726490e-09  3.37390855e-09  1.63706982e-07  1.62658509e-09  4.90000000e-01 
 5.00000000e-01  4.59476231e-01  3.26305712e-09  3.64998659e-09  3.34065803e-09  3.07579691e-09  3.50726490e-09  3.37390855e-09  1.63706970e-07  1.62654601e-09  5.00000000e-01 
 5.10000000e-01  4.59476237e-01  3.26305706e-09  3.64998659e-09  3.34065804e-09  3.07579691e-09  3.50726490e-09  3.37390849e-09  1.63706971e-07  1.62639324e-09  5.10000000e-01 
 5.20000000e-01  4.59476236e-01  3.26305712e-09  3.64998653e-09  3.34065804e-09  3.07579697e-09  3.50726490e-09  3.37390856e-09  1.63706975e-07  1.62625824e-09  5.20000000e-01 
 5.30000000e-01  4.59476249e-01  3.26305712e-09  3.64998660e-09  3.34065804e-09  3.07579696e-09  3.50726496e-09  3.37390855e-09  1.63706998e-07  1.62613745e-09  5.30000000e-01 
 5.40000000e-01  4.59476267e-01  3.26305706e-09  3.64998658e-09  3.34065804e-09  3.07579691e-09  3.50726491e-09  3.37390855e-09  1.63707015e-07  1.62604508e-09  5.40000000e-01 
 5.50000000e-01  4.59476233e-01  3.26305712e-09  3.64998653e-09  3.34065803e-09  3.07579692e-09  3.50726490e-09  3.37390855e-09  1.63706973e-07  1.62591718e-09  5.50000000e-01 
 5.60000000e-01  4.59476227e-01  3.26305706e-09  3.64998660e-09  3.34065803e-09  3.07579697e-09  3.50726490e-09  3.37390855e-09  1.63706959e-07  1.62586034e-09  5.60000000e-01 
 5.70000000e-01  4.59476246e-01  3.26305712e-09  3.64998658e-09  3.34065804e-09  3.07579690e-09  3.50726496e-09  3.37390855e-09  1.63706980e-07  1.62568270e-09  5.70000000e-01 
 5.80000000e-01  4.59476256e-01  3.26305712e-09  3.64998653e-09  3.34065804e-09  3.07579692e-09  3.50726491e-09  3.37390855e-09  1.63706992e-07  1.62555125e-09  5.80000000e-01 
 5.90000000e-01  4.59476258e-01  3.26305712e-09  3.64998660e-09  3.34065804e-09  3.07579691e-09  3.50726491e-09  3.37390855e-09  1.63707001e-07  1.62541625e-09  5.90000000e-01 
 6.00000000e-01  4.59476265e-01  3.26305712e-09  3.64998658e-09  3.34065804e-09  3.07579697e-09  3.50726491e-09  3.37390855e-09  1.63707021e-07  1.62538072e-09  6.00000000e-01 
 6.10000000e-01  4.59476270e-01  3.26305712e-09  3.64998659e-09  3.34065804e-09  3.07579690e-09  3.50726491e-09  3.37390855e-09  1.63707021e-07  1.62523861e-09  6.10000000e-01 
 6.20000000e-01  4.59476225e-01  3.26305712e-09  3.64998659e-09  3.34065803e-09  3.07579692e-09  3.50726490e-09  3.37390855e-09  1.63706961e-07  1.62510361e-09  6.20000000e-01 
 6.30000000e-01  4.59476255e-01  3.26305706e-09  3.64998659e-09  3.34065804e-09  3.07579691e-09  3.50726491e-09  3.37390855e-09  1.63706993e-07  1.62496150e-09  6.30000000e-01 
 6.40000000e-01  4.59476253e-01  3.26305706e-09  3.64998659e-09  3.34065804e-09  3.07579691e-09  3.50726491e-09  3.37390849e-09  1.63706991e-07  1.62490466e-09  6.40000000e-01 
 6.50000000e-01  4.59476250e-01  3.26305712e-09  3.64998659e-09  3.34065804e-09  3.07579691e-09  3.50726490e-09  3.37390851e-09  1.63707000e-07  1.62477676e-09  6.50000000e-01 
 6.60000000e-01  4.59476260e-01  3.26305706e-09  3.64998659e-09  3.34065804e-09  3.07579697e-09  3.50726491e-09  3.37390850e-09  1.63707007e-07  1.62464886e-09  6.60000000e-01 
 6.70000000e-01  4.59476227e-01  3.26305712e-09  3.64998659e-09  3.34065803e-09  3.07579695e-09  3.50726490e-09  3.37390856e-09  1.63706961e-07  1.62442859e-09  6.70000000e-01 
 6.80000000e-01  4.59476236e-01  3.26305712e-09  3.64998659e-09  3.34065804e-09  3.07579696e-09  3.50726490e-09  3.37390854e-09  1.63706967e-07  1.62436464e-09  6.80000000e-01 
 6.90000000e-01  4.59476247e-01  3.26305706e-09  3.64998653e-09  3.34065804e-09  3.07579690e-09  3.50726490e-09  3.37390849e-09  1.63706998e-07  1.62427938e-09  6.90000000e-01 
 7.00000000e-01  4.59476211e-01  3.26305711e-09  3.64998654e-09  3.34065803e-09  3.07579692e-09  3.50726490e-09  3.37390851e-09  1.63706937e-07  1.62414437e-09  7.00000000e-01 
 7.10000000e-01  4.59476226e-01  3.26305712e-09  3.64998658e-09  3.34065803e-09  3.07579691e-09  3.50726490e-09  3.37390856e-09  1.63706952e-07  1.62407332e-09  7.10000000e-01 
 7.20000000e-01  4.59476261e-01  3.26305706e-09  3.64998659e-09  3.34065804e-09  3.07579691e-09  3.50726491e-09  3.37390855e-09  1.63707006e-07  1.62395963e-09  7.20000000e-01 
 7.30000000e-01  4.59476256e-01  3.26305706e-09  3.64998653e-09  3.34065804e-09  3.07579691e-09  3.50726491e-09  3.37390855e-09  1.63707014e-07  1.62383884e-09  7.30000000e-01 
 7.40000000e-01  4.59476247e-01  3.26305712e-09  3.64998660e-09  3.34065804e-09  3.07579691e-09  3.50726496e-09  3.37390855e-09  1.63706981e-07  1.62373226e-09  7.40000000e-01 
 7.50000000e-01  4.59476259e-01  3.26305706e-09  3.64998658e-09  3.34065804e-09  3.07579691e-09  3.50726496e-09  3.37390855e-09  1.63706995e-07  1.62364699e-09  7.50000000e-01 
 7.60000000e-01  4.59476242e-01  3.26305712e-09  3.64998659e-09  3.34065804e-09  3.07579697e-09  3.50726490e-09  3.37390855e-09  1.63706971e-07  1.62357594e-09  7.60000000e-01 
 7.70000000e-01  4.59476258e-01  3.26305706e-09  3.64998653e-09  3.34065804e-09  3.07579696e-09  3.50726496e-09  3.37390855e-09  1.63706992e-07  1.62339830e-09  7.70000000e-01 
 7.80000000e-01  4.59476246e-01  3.26305712e-09  3.64998654e-09  3.34065804e-09  3.07579690e-09  3.50726496e-09  3.37390855e-09  1.63706992e-07  1.62327041e-09  7.80000000e-01 
 7.90000000e-01  4.59476239e-01  3.26305712e-09  3.64998652e-09  3.34065804e-09  3.07579692e-09  3.50726496e-09  3.37390855e-09  1.63706985e-07  1.62317093e-09  7.90000000e-01 
 8.00000000e-01  4.59476237e-01  3.26305712e-09  3.64998654e-09  3.34065804e-09  3.07579691e-09  3.50726490e-09  3.37390855e-09  1.63706961e-07  1.62300751e-09  8.00000000e-01 
 8.10000000e-01  4.59476275e-01  3.26305712e-09  3.64998658e-09  3.34065804e-09  3.07579691e-09  3.50726491e-09  3.37390855e-09  1.63707031e-07  1.62297198e-09  8.10000000e-01 
 8.20000000e-01  4.59476248e-01  3.26305712e-09  3.64998659e-09  3.34065804e-09  3.07579697e-09  3.50726490e-09  3.37390855e-09  1.63706982e-07  1.62277303e-09  8.20000000e-01 
 8.30000000e-01  4.59476255e-01  3.26305706e-09  3.64998653e-09  3.34065804e-09  3.07579690e-09  3.50726491e-09  3.37390855e-09  1.63706990e-07  1.62265934e-09  8.30000000e-01 
 8.40000000e-01  4.59476263e-01  3.26305712e-09  3.64998654e-09  3.34065804e-09  3.07579692e-09  3.50726491e-09  3.37390855e-09  1.63707015e-07  1.62263092e-09  8.40000000e-01 
 8.50000000e-01  4.59476256e-01  3.26305706e-09  3.64998658e-09  3.34065804e-09  3.07579691e-09  3.50726491e-09  3.37390855e-09  1.63707003e-07  1.62247460e-09  8.50000000e-01 
 8.60000000e-01  4.59476257e-01  3.26305706e-09  3.64998659e-09  3.34065804e-09  3.07579691e-09  3.50726496e-09  3.37390855e-09  1.63707012e-07  1.62236802e-09  8.60000000e-01 
 8.70000000e-01  4.59476236e-01  3.26305712e-09  3.64998653e-09  3.34065804e-09  3.07579691e-09  3.50726496e-09  3.37390855e-09  1.63706976e-07  1.62217617e-09  8.70000000e-01 
 8.80000000e-01  4.59476236e-01  3.26305706e-09  3.64998660e-09  3.34065804e-09  3.07579691e-09  3.50726490e-09  3.37390855e-09  1.63706967e-07  1.62204117e-09  8.80000000e-01 
 8.90000000e-01  4.59476256e-01  3.26305706e-09  3.64998658e-09  3.34065804e-09  3.07579691e-09  3.50726491e-09  3.37390849e-09  1.63706989e-07  1.62197722e-09  8.90000000e-01 
 9.00000000e-01  4.59476260e-01  3.26305706e-09  3.64998653e-09  3.34065804e-09  3.07579691e-09  3.50726491e-09  3.37390856e-09  1.63707022e-07  1.62183511e-09  9.00000000e-01 
 9.10000000e-01  4.59476245e-01  3.26305712e-09  3.64998660e-09  3.34065804e-09  3.07579691e-09  3.50726490e-09  3.37390854e-09  1.63706985e-07  1.62162905e-09  9.10000000e-01 
 9.20000000e-01  4.59476236e-01  3.26305712e-09  3.64998658e-09  3.34065804e-09  3.07579691e-09  3.50726496e-09  3.37390855e-09  1.63706962e-07  1.62162195e-09  9.20000000e-01 
 9.30000000e-01  4.59476233e-01  3.26305706e-09  3.64998653e-09  3.34065803e-09  3.07579691e-09  3.50726496e-09  3.37390849e-09  1.63706956e-07  1.62154379e-09  9.30000000e-01 
 9.40000000e-01  4.59476255e-01  3.26305706e-09  3.64998654e-09  3.34065804e-09  3.07579691e-09  3.50726491e-09  3.37390856e-09  1.63706999e-07  1.62133773e-09  9.40000000e-01 
 9.50000000e-01  4.59476260e-01  3.26305712e-09  3.64998658e-09  3.34065804e-09  3.07579691e-09  3.50726496e-09  3.37390855e-09  1.63707008e-07  1.62128799e-09  9.50000000e-01 
 9.60000000e-01  4.59476257e-01  3.26305706e-09  3.64998653e-09  3.34065804e-09  3.07579691e-09  3.50726491e-09  3.37390855e-09  1.63706994e-07  1.62113878e-09  9.60000000e-01 
 9.70000000e-01  4.59476247e-01  3.26305712e-09  3.64998654e-09  3.34065804e-09  3.07579691e-09  3.50726496e-09  3.37390855e-09  1.63707003e-07  1.62102509e-09  9.70000000e-01 
 9.80000000e-01  4.59476274e-01  3.26305706e-09  3.64998658e-09  3.34065804e-09  3.07579697e-09  3.50726491e-09  3.37390850e-09  1.63707026e-07  1.62088298e-09  9.80000000e-01 
 9.90000000e-01  4.59476270e-01  3.26305706e-09  3.64998653e-09  3.34065804e-09  3.07579690e-09  3.50726491e-09  3.37390851e-09  1.63707018e-07  1.62071956e-09  9.90000000e-01 
 1.00000000e+00  4.59476236e-01  3.26305706e-09  3.64998660e-09  3.34065804e-09  3.07579692e-09  3.50726490e-09  3.37390856e-09  1.63706963e-07  1.62055613e-09  1.00000000e+00 
 1.01000000e+00  4.59476251e-01  3.26305706e-09  3.64998658e-09  3.34065804e-09  3.07579691e-09  3.50726496e-09  3.37390855e-09  1.63706994e-07  1.62044955e-09  1.01000000e+00 
 1.02000000e+00  4.59476253e-01  3.26305712e-09  3.64998653e-09  3.34065804e-09  3.07579691e-09  3.50726496e-09  3.37390855e-09  1.63706999e-07  1.62030034e-09  1.02000000e+00 
 1.03000000e+00  4.59476253e-01  3.26305706e-09  3.64998654e-09  3.34065804e-09  3.07579691e-09  3.50726496e-09  3.37390855e-09  1.63706988e-07  1.62019376e-09  1.03000000e+00 
 1.04000000e+00  4.59476243e-01  3.26305706e-09  3.64998652e-09  3.34065804e-09  3.07579691e-09  3.50726490e-09  3.37390855e-09  1.63706981e-07  1.62010849e-09  1.04000000e+00 
 1.05000000e+00  4.59476253e-01  3.26305712e-09  3.64998660e-09  3.34065804e-09  3.07579691e-09  3.50726491e-09  3.37390855e-09  1.63706991e-07  1.61996638e-09  1.05000000e+00 
 1.06000000e+00  4.59476246e-01  3.26305712e-09  3.64998658e-09  3.34065804e-09  3.07579697e-09  3.50726490e-09  3.37390855e-09  1.63706984e-07  1.61984559e-09  1.06000000e+00 
 1.07000000e+00  4.59476269e-01  3.26305706e-09  3.64998659e-09  3.34065804e-09  3.07579690e-09  3.50726491e-09  3.37390855e-09  1.63707030e-07  1.61975322e-09  1.07000000e+00 
 1.08000000e+00  4.59476246e-01  3.26305712e-09  3.64998659e-09  3.34065804e-09  3.07579697e-09  3.50726496e-09  3.37390855e-09  1.63706989e-07  1.61950453e-09  1.08000000e+00 
 1.09000000e+00  4.59476253e-01  3.26305712e-09  3.64998659e-09  3.34065804e-09  3.07579690e-09  3.50726491e-09  3.37390855e-09  1.63706995e-07  1.61949743e-09  1.09000000e+00 
 1.10000000e+00  4.59476269e-01  3.26305712e-09  3.64998659e-09  3.34065804e-09  3.07579692e-09  3.50726496e-09  3.37390855e-09  1.63707016e-07  1.61928426e-09  1.10000000e+00 
