 v-sweep         v(b0)           v(b1)           v(b2)           v(b3)           v(b4)           v(b5)           v(b6)           i(vbias)        i(viout)        v(vout)        
 0.00000000e+00  3.35725506e-09  3.43269012e-09  3.23329893e-09  4.57816541e-01  4.57816541e-01  4.57816541e-01  4.57816541e-01  1.59767529e-07  1.78920959e-07  0.00000000e+00 
 1.00000000e-02  3.35725509e-09  3.43269010e-09  3.23329890e-09  4.57816552e-01  4.57816552e-01  4.57816552e-01  4.57816552e-01  1.59767531e-07  1.78920402e-07  1.00000000e-02 
 2.00000000e-02  3.35725509e-09  3.43269009e-09  3.23329891e-09  4.57816531e-01  4.57816531e-01  4.57816531e-01  4.57816531e-01  1.59767511e-07  1.78920053e-07  2.00000000e-02 
 3.00000000e-02  3.35725509e-09  3.43269009e-09  3.23329889e-09  4.57816537e-01  4.57816537e-01  4.57816537e-01  4.57816537e-01  1.59767501e-07  1.78919652e-07  3.00000000e-02 
 4.00000000e-02  3.35725503e-09  3.43269010e-09  3.23329891e-09  4.57816563e-01  4.57816563e-01  4.57816563e-01  4.57816563e-01  1.59767550e-07  1.78919352e-07  4.00000000e-02 
 5.00000000e-02  3.35725504e-09  3.43269010e-09  3.23329895e-09  4.57816568e-01  4.57816568e-01  4.57816568e-01  4.57816568e-01  1.59767559e-07  1.78918827e-07  5.00000000e-02 
 6.00000000e-02  3.35725503e-09  3.43269010e-09  3.23329896e-09  4.57816555e-01  4.57816555e-01  4.57816556e-01  4.57816555e-01  1.59767532e-07  1.78918492e-07  6.00000000e-02 
 7.00000000e-02  3.35725504e-09  3.43269009e-09  3.23329890e-09  4.57816539e-01  4.57816539e-01  4.57816539e-01  4.57816539e-01  1.59767511e-07  1.78917963e-07  7.00000000e-02 
 8.00000000e-02  3.35725503e-09  3.43269010e-09  3.23329891e-09  4.57816548e-01  4.57816548e-01  4.57816549e-01  4.57816549e-01  1.59767519e-07  1.78917715e-07  8.00000000e-02 
 9.00000000e-02  3.35725504e-09  3.43269010e-09  3.23329895e-09  4.57816570e-01  4.57816570e-01  4.57816570e-01  4.57816570e-01  1.59767559e-07  1.78917296e-07  9.00000000e-02 
 1.00000000e-01  3.35725508e-09  3.43269010e-09  3.23329890e-09  4.57816566e-01  4.57816566e-01  4.57816566e-01  4.57816566e-01  1.59767553e-07  1.78917046e-07  1.00000000e-01 
 1.10000000e-01  3.35725503e-09  3.43269010e-09  3.23329891e-09  4.57816562e-01  4.57816562e-01  4.57816562e-01  4.57816562e-01  1.59767537e-07  1.78916741e-07  1.10000000e-01 
 1.20000000e-01  3.35725504e-09  3.43269010e-09  3.23329895e-09  4.57816557e-01  4.57816557e-01  4.57816557e-01  4.57816557e-01  1.59767542e-07  1.78916387e-07  1.20000000e-01 
 1.30000000e-01  3.35725508e-09  3.43269010e-09  3.23329896e-09  4.57816544e-01  4.57816544e-01  4.57816544e-01  4.57816544e-01  1.59767527e-07  1.78915990e-07  1.30000000e-01 
 1.40000000e-01  3.35725509e-09  3.43269010e-09  3.23329896e-09  4.57816569e-01  4.57816569e-01  4.57816569e-01  4.57816569e-01  1.59767551e-07  1.78915958e-07  1.40000000e-01 
 1.50000000e-01  3.35725509e-09  3.43269010e-09  3.23329890e-09  4.57816560e-01  4.57816560e-01  4.57816560e-01  4.57816560e-01  1.59767559e-07  1.78915490e-07  1.50000000e-01 
 1.60000000e-01  3.35725503e-09  3.43269010e-09  3.23329891e-09  4.57816551e-01  4.57816551e-01  4.57816551e-01  4.57816551e-01  1.59767538e-07  1.78915206e-07  1.60000000e-01 
 1.70000000e-01  3.35725504e-09  3.43269010e-09  3.23329889e-09  4.57816556e-01  4.57816556e-01  4.57816556e-01  4.57816556e-01  1.59767551e-07  1.78915034e-07  1.70000000e-01 
 1.80000000e-01  3.35725508e-09  3.43269009e-09  3.23329891e-09  4.57816538e-01  4.57816538e-01  4.57816538e-01  4.57816538e-01  1.59767518e-07  1.78914760e-07  1.80000000e-01 
 1.90000000e-01  3.35725503e-09  3.43269010e-09  3.23329889e-09  4.57816556e-01  4.57816556e-01  4.57816556e-01  4.57816556e-01  1.59767536e-07  1.78914574e-07  1.90000000e-01 
 2.00000000e-01  3.35725510e-09  3.43269009e-09  3.23329891e-09  4.57816537e-01  4.57816537e-01  4.57816537e-01  4.57816537e-01  1.59767497e-07  1.78914238e-07  2.00000000e-01 
 2.10000000e-01  3.35725508e-09  3.43269010e-09  3.23329895e-09  4.57816540e-01  4.57816540e-01  4.57816540e-01  4.57816540e-01  1.59767515e-07  1.78914018e-07  2.10000000e-01 
 2.20000000e-01  3.35725509e-09  3.43269010e-09  3.23329890e-09  4.57816550e-01  4.57816550e-01  4.57816550e-01  4.57816550e-01  1.59767532e-07  1.78913833e-07  2.20000000e-01 
 2.30000000e-01  3.35725503e-09  3.43269010e-09  3.23329891e-09  4.57816554e-01  4.57816554e-01  4.57816554e-01  4.57816554e-01  1.59767533e-07  1.78913581e-07  2.30000000e-01 
 2.40000000e-01  3.35725510e-09  3.43269010e-09  3.23329889e-09  4.57816557e-01  4.57816557e-01  4.57816557e-01  4.57816557e-01  1.59767536e-07  1.78913446e-07  2.40000000e-01 
 2.50000000e-01  3.35725502e-09  3.43269010e-09  3.23329891e-09  4.57816542e-01  4.57816542e-01  4.57816542e-01  4.57816542e-01  1.59767526e-07  1.78913169e-07  2.50000000e-01 
 2.60000000e-01  3.35725504e-09  3.43269010e-09  3.23329889e-09  4.57816548e-01  4.57816548e-01  4.57816549e-01  4.57816548e-01  1.59767526e-07  1.78912954e-07  2.60000000e-01 
 2.70000000e-01  3.35725508e-09  3.43269010e-09  3.23329891e-09  4.57816574e-01  4.57816574e-01  4.57816574e-01  4.57816574e-01  1.59767570e-07  1.78912932e-07  2.70000000e-01 
 2.80000000e-01  3.35725503e-09  3.43269010e-09  3.23329895e-09  4.57816543e-01  4.57816543e-01  4.57816543e-01  4.57816543e-01  1.59767530e-07  1.78912527e-07  2.80000000e-01 
 2.90000000e-01  3.35725504e-09  3.43269010e-09  3.23329896e-09  4.57816558e-01  4.57816558e-01  4.57816558e-01  4.57816558e-01  1.59767539e-07  1.78912433e-07  2.90000000e-01 
 3.00000000e-01  3.35725503e-09  3.43269010e-09  3.23329890e-09  4.57816568e-01  4.57816568e-01  4.57816568e-01  4.57816568e-01  1.59767565e-07  1.78912320e-07  3.00000000e-01 
 3.10000000e-01  3.35725504e-09  3.43269010e-09  3.23329891e-09  4.57816553e-01  4.57816553e-01  4.57816554e-01  4.57816554e-01  1.59767540e-07  1.78912057e-07  3.10000000e-01 
 3.20000000e-01  3.35725503e-09  3.43269010e-09  3.23329889e-09  4.57816560e-01  4.57816560e-01  4.57816561e-01  4.57816561e-01  1.59767557e-07  1.78911879e-07  3.20000000e-01 
 3.30000000e-01  3.35725504e-09  3.43269010e-09  3.23329891e-09  4.57816552e-01  4.57816552e-01  4.57816552e-01  4.57816552e-01  1.59767521e-07  1.78911773e-07  3.30000000e-01 
 3.40000000e-01  3.35725503e-09  3.43269010e-09  3.23329889e-09  4.57816544e-01  4.57816544e-01  4.57816544e-01  4.57816544e-01  1.59767521e-07  1.78911577e-07  3.40000000e-01 
 3.50000000e-01  3.35725510e-09  3.43269010e-09  3.23329891e-09  4.57816566e-01  4.57816566e-01  4.57816566e-01  4.57816566e-01  1.59767536e-07  1.78911549e-07  3.50000000e-01 
 3.60000000e-01  3.35725503e-09  3.43269010e-09  3.23329889e-09  4.57816548e-01  4.57816548e-01  4.57816548e-01  4.57816548e-01  1.59767532e-07  1.78911229e-07  3.60000000e-01 
 3.70000000e-01  3.35725510e-09  3.43269009e-09  3.23329891e-09  4.57816512e-01  4.57816512e-01  4.57816512e-01  4.57816512e-01  1.59767477e-07  1.78910970e-07  3.70000000e-01 
 3.80000000e-01  3.35725508e-09  3.43269010e-09  3.23329889e-09  4.57816572e-01  4.57816572e-01  4.57816572e-01  4.57816572e-01  1.59767553e-07  1.78911090e-07  3.80000000e-01 
 3.90000000e-01  3.35725503e-09  3.43269009e-09  3.23329891e-09  4.57816526e-01  4.57816526e-01  4.57816527e-01  4.57816527e-01  1.59767511e-07  1.78910561e-07  3.90000000e-01 
 4.00000000e-01  3.35725504e-09  3.43269009e-09  3.23329895e-09  4.57816529e-01  4.57816529e-01  4.57816529e-01  4.57816529e-01  1.59767490e-07  1.78910494e-07  4.00000000e-01 
 4.10000000e-01  3.35725503e-09  3.43269010e-09  3.23329890e-09  4.57816559e-01  4.57816559e-01  4.57816559e-01  4.57816559e-01  1.59767536e-07  1.78910529e-07  4.10000000e-01 
 4.20000000e-01  3.35725504e-09  3.43269010e-09  3.23329891e-09  4.57816562e-01  4.57816562e-01  4.57816562e-01  4.57816562e-01  1.59767549e-07  1.78910312e-07  4.20000000e-01 
 4.30000000e-01  3.35725502e-09  3.43269009e-09  3.23329895e-09  4.57816531e-01  4.57816531e-01  4.57816531e-01  4.57816531e-01  1.59767500e-07  1.78910071e-07  4.30000000e-01 
 4.40000000e-01  3.35725504e-09  3.43269010e-09  3.23329890e-09  4.57816562e-01  4.57816562e-01  4.57816563e-01  4.57816563e-01  1.59767541e-07  1.78910113e-07  4.40000000e-01 
 4.50000000e-01  3.35725508e-09  3.43269010e-09  3.23329891e-09  4.57816553e-01  4.57816553e-01  4.57816553e-01  4.57816553e-01  1.59767540e-07  1.78909794e-07  4.50000000e-01 
 4.60000000e-01  3.35725503e-09  3.43269010e-09  3.23329889e-09  4.57816549e-01  4.57816549e-01  4.57816549e-01  4.57816549e-01  1.59767525e-07  1.78909826e-07  4.60000000e-01 
 4.70000000e-01  3.35725504e-09  3.43269010e-09  3.23329891e-09  4.57816554e-01  4.57816554e-01  4.57816554e-01  4.57816554e-01  1.59767543e-07  1.78909609e-07  4.70000000e-01 
 4.80000000e-01  3.35725502e-09  3.43269009e-09  3.23329889e-09  4.57816524e-01  4.57816524e-01  4.57816524e-01  4.57816524e-01  1.59767500e-07  1.78909392e-07  4.80000000e-01 
 4.90000000e-01  3.35725504e-09  3.43269009e-09  3.23329891e-09  4.57816525e-01  4.57816525e-01  4.57816525e-01  4.57816525e-01  1.59767498e-07  1.78909165e-07  4.90000000e-01 
 5.00000000e-01  3.35725503e-09  3.43269010e-09  3.23329889e-09  4.57816556e-01  4.57816556e-01  4.57816557e-01  4.57816557e-01  1.59767547e-07  1.78909151e-07  5.00000000e-01 
 5.10000000e-01  3.35725504e-09  3.43269010e-09  3.23329897e-09  4.57816565e-01  4.57816565e-01  4.57816565e-01  4.57816565e-01  1.59767573e-07  1.78908937e-07  5.10000000e-01 
 5.20000000e-01  3.35725503e-09  3.43269010e-09  3.23329895e-09  4.57816551e-01  4.57816551e-01  4.57816551e-01  4.57816551e-01  1.59767537e-07  1.78908863e-07  5.20000000e-01 
 5.30000000e-01  3.35725504e-09  3.43269010e-09  3.23329890e-09  4.57816555e-01  4.57816555e-01  4.57816556e-01  4.57816556e-01  1.59767541e-07  1.78908675e-07  5.30000000e-01 
 5.40000000e-01  3.35725502e-09  3.43269009e-09  3.23329891e-09  4.57816532e-01  4.57816532e-01  4.57816532e-01  4.57816532e-01  1.59767495e-07  1.78908461e-07  5.40000000e-01 
 5.50000000e-01  3.35725504e-09  3.43269010e-09  3.23329889e-09  4.57816555e-01  4.57816555e-01  4.57816555e-01  4.57816555e-01  1.59767538e-07  1.78908365e-07  5.50000000e-01 
 5.60000000e-01  3.35725502e-09  3.43269009e-09  3.23329891e-09  4.57816533e-01  4.57816533e-01  4.57816533e-01  4.57816533e-01  1.59767515e-07  1.78908291e-07  5.60000000e-01 
 5.70000000e-01  3.35725504e-09  3.43269009e-09  3.23329895e-09  4.57816539e-01  4.57816539e-01  4.57816539e-01  4.57816539e-01  1.59767520e-07  1.78908117e-07  5.70000000e-01 
 5.80000000e-01  3.35725503e-09  3.43269010e-09  3.23329890e-09  4.57816553e-01  4.57816553e-01  4.57816553e-01  4.57816553e-01  1.59767529e-07  1.78907975e-07  5.80000000e-01 
 5.90000000e-01  3.35725510e-09  3.43269010e-09  3.23329891e-09  4.57816549e-01  4.57816549e-01  4.57816549e-01  4.57816549e-01  1.59767538e-07  1.78907811e-07  5.90000000e-01 
 6.00000000e-01  3.35725503e-09  3.43269010e-09  3.23329889e-09  4.57816547e-01  4.57816547e-01  4.57816547e-01  4.57816547e-01  1.59767529e-07  1.78907570e-07  6.00000000e-01 
 6.10000000e-01  3.35725504e-09  3.43269010e-09  3.23329891e-09  4.57816557e-01  4.57816557e-01  4.57816558e-01  4.57816558e-01  1.59767534e-07  1.78907513e-07  6.10000000e-01 
 6.20000000e-01  3.35725503e-09  3.43269010e-09  3.23329895e-09  4.57816576e-01  4.57816576e-01  4.57816576e-01  4.57816576e-01  1.59767559e-07  1.78907499e-07  6.20000000e-01 
 6.30000000e-01  3.35725510e-09  3.43269010e-09  3.23329890e-09  4.57816563e-01  4.57816563e-01  4.57816563e-01  4.57816563e-01  1.59767552e-07  1.78907364e-07  6.30000000e-01 
 6.40000000e-01  3.35725508e-09  3.43269010e-09  3.23329891e-09  4.57816549e-01  4.57816549e-01  4.57816550e-01  4.57816549e-01  1.59767533e-07  1.78907108e-07  6.40000000e-01 
 6.50000000e-01  3.35725509e-09  3.43269010e-09  3.23329889e-09  4.57816551e-01  4.57816550e-01  4.57816551e-01  4.57816551e-01  1.59767542e-07  1.78906873e-07  6.50000000e-01 
 6.60000000e-01  3.35725503e-09  3.43269010e-09  3.23329891e-09  4.57816562e-01  4.57816562e-01  4.57816562e-01  4.57816562e-01  1.59767545e-07  1.78906859e-07  6.60000000e-01 
 6.70000000e-01  3.35725504e-09  3.43269010e-09  3.23329895e-09  4.57816570e-01  4.57816570e-01  4.57816571e-01  4.57816571e-01  1.59767567e-07  1.78906639e-07  6.70000000e-01 
 6.80000000e-01  3.35725508e-09  3.43269010e-09  3.23329890e-09  4.57816549e-01  4.57816549e-01  4.57816549e-01  4.57816549e-01  1.59767522e-07  1.78906554e-07  6.80000000e-01 
 6.90000000e-01  3.35725503e-09  3.43269010e-09  3.23329897e-09  4.57816555e-01  4.57816555e-01  4.57816555e-01  4.57816555e-01  1.59767532e-07  1.78906404e-07  6.90000000e-01 
 7.00000000e-01  3.35725504e-09  3.43269009e-09  3.23329889e-09  4.57816528e-01  4.57816528e-01  4.57816528e-01  4.57816528e-01  1.59767517e-07  1.78906191e-07  7.00000000e-01 
 7.10000000e-01  3.35725508e-09  3.43269010e-09  3.23329891e-09  4.57816559e-01  4.57816559e-01  4.57816559e-01  4.57816559e-01  1.59767543e-07  1.78906042e-07  7.10000000e-01 
 7.20000000e-01  3.35725503e-09  3.43269010e-09  3.23329889e-09  4.57816560e-01  4.57816560e-01  4.57816560e-01  4.57816560e-01  1.59767547e-07  1.78906035e-07  7.20000000e-01 
 7.30000000e-01  3.35725510e-09  3.43269009e-09  3.23329891e-09  4.57816536e-01  4.57816536e-01  4.57816536e-01  4.57816536e-01  1.59767507e-07  1.78905694e-07  7.30000000e-01 
 7.40000000e-01  3.35725508e-09  3.43269009e-09  3.23329889e-09  4.57816530e-01  4.57816530e-01  4.57816530e-01  4.57816530e-01  1.59767494e-07  1.78905516e-07  7.40000000e-01 
 7.50000000e-01  3.35725503e-09  3.43269009e-09  3.23329891e-09  4.57816527e-01  4.57816527e-01  4.57816528e-01  4.57816528e-01  1.59767500e-07  1.78905452e-07  7.50000000e-01 
 7.60000000e-01  3.35725504e-09  3.43269009e-09  3.23329889e-09  4.57816539e-01  4.57816539e-01  4.57816539e-01  4.57816539e-01  1.59767518e-07  1.78905296e-07  7.60000000e-01 
 7.70000000e-01  3.35725503e-09  3.43269010e-09  3.23329891e-09  4.57816554e-01  4.57816554e-01  4.57816555e-01  4.57816555e-01  1.59767539e-07  1.78905204e-07  7.70000000e-01 
 7.80000000e-01  3.35725504e-09  3.43269010e-09  3.23329889e-09  4.57816566e-01  4.57816566e-01  4.57816567e-01  4.57816567e-01  1.59767552e-07  1.78905104e-07  7.80000000e-01 
 7.90000000e-01  3.35725508e-09  3.43269010e-09  3.23329891e-09  4.57816540e-01  4.57816540e-01  4.57816540e-01  4.57816540e-01  1.59767523e-07  1.78904926e-07  7.90000000e-01 
 8.00000000e-01  3.35725509e-09  3.43269010e-09  3.23329889e-09  4.57816545e-01  4.57816545e-01  4.57816545e-01  4.57816545e-01  1.59767524e-07  1.78904713e-07  8.00000000e-01 
 8.10000000e-01  3.35725503e-09  3.43269010e-09  3.23329891e-09  4.57816552e-01  4.57816552e-01  4.57816552e-01  4.57816552e-01  1.59767538e-07  1.78904564e-07  8.10000000e-01 
 8.20000000e-01  3.35725510e-09  3.43269010e-09  3.23329895e-09  4.57816549e-01  4.57816549e-01  4.57816550e-01  4.57816549e-01  1.59767509e-07  1.78904457e-07  8.20000000e-01 
 8.30000000e-01  3.35725503e-09  3.43269010e-09  3.23329896e-09  4.57816565e-01  4.57816565e-01  4.57816565e-01  4.57816565e-01  1.59767561e-07  1.78904209e-07  8.30000000e-01 
 8.40000000e-01  3.35725504e-09  3.43269010e-09  3.23329890e-09  4.57816541e-01  4.57816541e-01  4.57816542e-01  4.57816542e-01  1.59767519e-07  1.78904116e-07  8.40000000e-01 
 8.50000000e-01  3.35725508e-09  3.43269010e-09  3.23329891e-09  4.57816566e-01  4.57816566e-01  4.57816567e-01  4.57816566e-01  1.59767556e-07  1.78904067e-07  8.50000000e-01 
 8.60000000e-01  3.35725509e-09  3.43269009e-09  3.23329895e-09  4.57816535e-01  4.57816535e-01  4.57816535e-01  4.57816535e-01  1.59767507e-07  1.78903726e-07  8.60000000e-01 
 8.70000000e-01  3.35725503e-09  3.43269010e-09  3.23329896e-09  4.57816563e-01  4.57816563e-01  4.57816564e-01  4.57816563e-01  1.59767552e-07  1.78903740e-07  8.70000000e-01 
 8.80000000e-01  3.35725504e-09  3.43269010e-09  3.23329890e-09  4.57816562e-01  4.57816562e-01  4.57816562e-01  4.57816562e-01  1.59767571e-07  1.78903520e-07  8.80000000e-01 
 8.90000000e-01  3.35725503e-09  3.43269010e-09  3.23329897e-09  4.57816576e-01  4.57816576e-01  4.57816576e-01  4.57816576e-01  1.59767553e-07  1.78903498e-07  8.90000000e-01 
 9.00000000e-01  3.35725510e-09  3.43269010e-09  3.23329895e-09  4.57816544e-01  4.57816544e-01  4.57816544e-01  4.57816544e-01  1.59767521e-07  1.78903207e-07  9.00000000e-01 
 9.10000000e-01  3.35725503e-09  3.43269010e-09  3.23329890e-09  4.57816545e-01  4.57816545e-01  4.57816545e-01  4.57816545e-01  1.59767510e-07  1.78902908e-07  9.10000000e-01 
 9.20000000e-01  3.35725504e-09  3.43269010e-09  3.23329891e-09  4.57816565e-01  4.57816565e-01  4.57816565e-01  4.57816565e-01  1.59767546e-07  1.78902880e-07  9.20000000e-01 
 9.30000000e-01  3.35725508e-09  3.43269009e-09  3.23329895e-09  4.57816519e-01  4.57816519e-01  4.57816519e-01  4.57816519e-01  1.59767475e-07  1.78902503e-07  9.30000000e-01 
 9.40000000e-01  3.35725503e-09  3.43269010e-09  3.23329896e-09  4.57816555e-01  4.57816555e-01  4.57816555e-01  4.57816555e-01  1.59767541e-07  1.78902532e-07  9.40000000e-01 
 9.50000000e-01  3.35725504e-09  3.43269009e-09  3.23329896e-09  4.57816538e-01  4.57816538e-01  4.57816538e-01  4.57816538e-01  1.59767533e-07  1.78902376e-07  9.50000000e-01 
 9.60000000e-01  3.35725503e-09  3.43269010e-09  3.23329890e-09  4.57816556e-01  4.57816556e-01  4.57816556e-01  4.57816556e-01  1.59767548e-07  1.78902127e-07  9.60000000e-01 
 9.70000000e-01  3.35725504e-09  3.43269010e-09  3.23329891e-09  4.57816581e-01  4.57816581e-01  4.57816581e-01  4.57816581e-01  1.59767564e-07  1.78902127e-07  9.70000000e-01 
 9.80000000e-01  3.35725508e-09  3.43269010e-09  3.23329895e-09  4.57816548e-01  4.57816548e-01  4.57816548e-01  4.57816548e-01  1.59767531e-07  1.78901871e-07  9.80000000e-01 
 9.90000000e-01  3.35725503e-09  3.43269010e-09  3.23329890e-09  4.57816544e-01  4.57816544e-01  4.57816544e-01  4.57816544e-01  1.59767518e-07  1.78901615e-07  9.90000000e-01 
 1.00000000e+00  3.35725504e-09  3.43269009e-09  3.23329891e-09  4.57816533e-01  4.57816533e-01  4.57816533e-01  4.57816533e-01  1.59767511e-07  1.78901288e-07  1.00000000e+00 
 1.01000000e+00  3.35725508e-09  3.43269010e-09  3.23329895e-09  4.57816545e-01  4.57816545e-01  4.57816545e-01  4.57816545e-01  1.59767511e-07  1.78901388e-07  1.01000000e+00 
 1.02000000e+00  3.35725503e-09  3.43269010e-09  3.23329890e-09  4.57816565e-01  4.57816565e-01  4.57816566e-01  4.57816566e-01  1.59767553e-07  1.78901047e-07  1.02000000e+00 
 1.03000000e+00  3.35725504e-09  3.43269010e-09  3.23329891e-09  4.57816558e-01  4.57816558e-01  4.57816558e-01  4.57816558e-01  1.59767555e-07  1.78900990e-07  1.03000000e+00 
 1.04000000e+00  3.35725508e-09  3.43269009e-09  3.23329895e-09  4.57816540e-01  4.57816540e-01  4.57816540e-01  4.57816540e-01  1.59767517e-07  1.78900677e-07  1.04000000e+00 
 1.05000000e+00  3.35725503e-09  3.43269010e-09  3.23329896e-09  4.57816549e-01  4.57816549e-01  4.57816549e-01  4.57816549e-01  1.59767521e-07  1.78900571e-07  1.05000000e+00 
 1.06000000e+00  3.35725504e-09  3.43269010e-09  3.23329896e-09  4.57816545e-01  4.57816545e-01  4.57816545e-01  4.57816545e-01  1.59767533e-07  1.78900358e-07  1.06000000e+00 
 1.07000000e+00  3.35725503e-09  3.43269010e-09  3.23329896e-09  4.57816545e-01  4.57816545e-01  4.57816545e-01  4.57816545e-01  1.59767516e-07  1.78900066e-07  1.07000000e+00 
 1.08000000e+00  3.35725504e-09  3.43269009e-09  3.23329890e-09  4.57816520e-01  4.57816520e-01  4.57816520e-01  4.57816520e-01  1.59767494e-07  1.78899910e-07  1.08000000e+00 
 1.09000000e+00  3.35725508e-09  3.43269010e-09  3.23329891e-09  4.57816574e-01  4.57816574e-01  4.57816574e-01  4.57816574e-01  1.59767561e-07  1.78899981e-07  1.09000000e+00 
 1.10000000e+00  3.35725509e-09  3.43269009e-09  3.23329895e-09  4.57816535e-01  4.57816535e-01  4.57816535e-01  4.57816535e-01  1.59767525e-07  1.78899484e-07  1.10000000e+00 
