 v-sweep         v(b0)           v(b1)           v(b2)           v(b3)           v(b4)           v(b5)           v(b6)           i(vbias)        i(viout)        v(vout)        
 0.00000000e+00  3.34558754e-09  3.36347682e-09  4.58294312e-01  4.58294312e-01  3.24126875e-09  4.58294312e-01  3.13537141e-09  1.58306597e-07  6.65763866e-08  0.00000000e+00 
 1.00000000e-02  3.34558757e-09  3.36347679e-09  4.58294311e-01  4.58294311e-01  3.24126871e-09  4.58294311e-01  3.13537144e-09  1.58306597e-07  6.65758964e-08  1.00000000e-02 
 2.00000000e-02  3.34558756e-09  3.36347681e-09  4.58294326e-01  4.58294326e-01  3.24126867e-09  4.58294326e-01  3.13537144e-09  1.58306603e-07  6.65756239e-08  2.00000000e-02 
 3.00000000e-02  3.34558762e-09  3.36347674e-09  4.58294330e-01  4.58294330e-01  3.24126872e-09  4.58294330e-01  3.13537144e-09  1.58306618e-07  6.65751898e-08  3.00000000e-02 
 4.00000000e-02  3.34558757e-09  3.36347674e-09  4.58294319e-01  4.58294319e-01  3.24126872e-09  4.58294319e-01  3.13537144e-09  1.58306598e-07  6.65748860e-08  4.00000000e-02 
 5.00000000e-02  3.34558757e-09  3.36347680e-09  4.58294319e-01  4.58294319e-01  3.24126866e-09  4.58294319e-01  3.13537144e-09  1.58306605e-07  6.65745858e-08  5.00000000e-02 
 6.00000000e-02  3.34558757e-09  3.36347680e-09  4.58294346e-01  4.58294346e-01  3.24126872e-09  4.58294346e-01  3.13537144e-09  1.58306631e-07  6.65741453e-08  6.00000000e-02 
 7.00000000e-02  3.34558757e-09  3.36347680e-09  4.58294319e-01  4.58294319e-01  3.24126872e-09  4.58294319e-01  3.13537144e-09  1.58306613e-07  6.65738935e-08  7.00000000e-02 
 8.00000000e-02  3.34558757e-09  3.36347674e-09  4.58294323e-01  4.58294323e-01  3.24126872e-09  4.58294323e-01  3.13537144e-09  1.58306606e-07  6.65736968e-08  8.00000000e-02 
 9.00000000e-02  3.34558757e-09  3.36347680e-09  4.58294317e-01  4.58294317e-01  3.24126872e-09  4.58294317e-01  3.13537144e-09  1.58306595e-07  6.65733824e-08  9.00000000e-02 
 1.00000000e-01  3.34558757e-09  3.36347680e-09  4.58294325e-01  4.58294325e-01  3.24126866e-09  4.58294325e-01  3.13537144e-09  1.58306611e-07  6.65730671e-08  1.00000000e-01 
 1.10000000e-01  3.34558756e-09  3.36347679e-09  4.58294285e-01  4.58294285e-01  3.24126866e-09  4.58294285e-01  3.13537144e-09  1.58306554e-07  6.65726496e-08  1.10000000e-01 
 1.20000000e-01  3.34558762e-09  3.36347680e-09  4.58294321e-01  4.58294321e-01  3.24126866e-09  4.58294320e-01  3.13537144e-09  1.58306601e-07  6.65725137e-08  1.20000000e-01 
 1.30000000e-01  3.34558757e-09  3.36347680e-09  4.58294331e-01  4.58294331e-01  3.24126866e-09  4.58294331e-01  3.13537144e-09  1.58306610e-07  6.65722446e-08  1.30000000e-01 
 1.40000000e-01  3.34558757e-09  3.36347675e-09  4.58294338e-01  4.58294338e-01  3.24126866e-09  4.58294337e-01  3.13537144e-09  1.58306635e-07  6.65720750e-08  1.40000000e-01 
 1.50000000e-01  3.34558757e-09  3.36347680e-09  4.58294341e-01  4.58294341e-01  3.24126866e-09  4.58294341e-01  3.13537144e-09  1.58306629e-07  6.65719497e-08  1.50000000e-01 
 1.60000000e-01  3.34558757e-09  3.36347674e-09  4.58294323e-01  4.58294323e-01  3.24126872e-09  4.58294323e-01  3.13537144e-09  1.58306612e-07  6.65716868e-08  1.60000000e-01 
 1.70000000e-01  3.34558757e-09  3.36347674e-09  4.58294326e-01  4.58294326e-01  3.24126872e-09  4.58294325e-01  3.13537138e-09  1.58306616e-07  6.65714719e-08  1.70000000e-01 
 1.80000000e-01  3.34558757e-09  3.36347674e-09  4.58294311e-01  4.58294311e-01  3.24126872e-09  4.58294311e-01  3.13537144e-09  1.58306580e-07  6.65712481e-08  1.80000000e-01 
 1.90000000e-01  3.34558762e-09  3.36347675e-09  4.58294335e-01  4.58294335e-01  3.24126866e-09  4.58294335e-01  3.13537138e-09  1.58306626e-07  6.65712712e-08  1.90000000e-01 
 2.00000000e-01  3.34558757e-09  3.36347680e-09  4.58294330e-01  4.58294330e-01  3.24126872e-09  4.58294330e-01  3.13537144e-09  1.58306609e-07  6.65710687e-08  2.00000000e-01 
 2.10000000e-01  3.34558757e-09  3.36347680e-09  4.58294343e-01  4.58294343e-01  3.24126872e-09  4.58294343e-01  3.13537144e-09  1.58306632e-07  6.65708253e-08  2.10000000e-01 
 2.20000000e-01  3.34558757e-09  3.36347675e-09  4.58294332e-01  4.58294332e-01  3.24126872e-09  4.58294332e-01  3.13537144e-09  1.58306624e-07  6.65706033e-08  2.20000000e-01 
 2.30000000e-01  3.34558757e-09  3.36347680e-09  4.58294312e-01  4.58294312e-01  3.24126872e-09  4.58294312e-01  3.13537144e-09  1.58306579e-07  6.65705553e-08  2.30000000e-01 
 2.40000000e-01  3.34558762e-09  3.36347674e-09  4.58294323e-01  4.58294323e-01  3.24126872e-09  4.58294323e-01  3.13537138e-09  1.58306613e-07  6.65703652e-08  2.40000000e-01 
 2.50000000e-01  3.34558757e-09  3.36347674e-09  4.58294322e-01  4.58294322e-01  3.24126866e-09  4.58294322e-01  3.13537144e-09  1.58306597e-07  6.65701823e-08  2.50000000e-01 
 2.60000000e-01  3.34558757e-09  3.36347674e-09  4.58294327e-01  4.58294327e-01  3.24126872e-09  4.58294327e-01  3.13537144e-09  1.58306604e-07  6.65701165e-08  2.60000000e-01 
 2.70000000e-01  3.34558757e-09  3.36347680e-09  4.58294331e-01  4.58294331e-01  3.24126872e-09  4.58294331e-01  3.13537144e-09  1.58306610e-07  6.65700135e-08  2.70000000e-01 
 2.80000000e-01  3.34558757e-09  3.36347680e-09  4.58294339e-01  4.58294339e-01  3.24126866e-09  4.58294339e-01  3.13537144e-09  1.58306624e-07  6.65698785e-08  2.80000000e-01 
 2.90000000e-01  3.34558757e-09  3.36347680e-09  4.58294316e-01  4.58294316e-01  3.24126872e-09  4.58294316e-01  3.13537144e-09  1.58306606e-07  6.65696760e-08  2.90000000e-01 
 3.00000000e-01  3.34558756e-09  3.36347680e-09  4.58294301e-01  4.58294301e-01  3.24126872e-09  4.58294301e-01  3.13537144e-09  1.58306563e-07  6.65695623e-08  3.00000000e-01 
 3.10000000e-01  3.34558762e-09  3.36347680e-09  4.58294300e-01  4.58294300e-01  3.24126872e-09  4.58294300e-01  3.13537144e-09  1.58306578e-07  6.65695374e-08  3.10000000e-01 
 3.20000000e-01  3.34558757e-09  3.36347674e-09  4.58294307e-01  4.58294307e-01  3.24126872e-09  4.58294306e-01  3.13537144e-09  1.58306588e-07  6.65694557e-08  3.20000000e-01 
 3.30000000e-01  3.34558757e-09  3.36347674e-09  4.58294329e-01  4.58294329e-01  3.24126872e-09  4.58294329e-01  3.13537138e-09  1.58306608e-07  6.65693669e-08  3.30000000e-01 
 3.40000000e-01  3.34558757e-09  3.36347680e-09  4.58294331e-01  4.58294331e-01  3.24126866e-09  4.58294331e-01  3.13537144e-09  1.58306607e-07  6.65691822e-08  3.40000000e-01 
 3.50000000e-01  3.34558757e-09  3.36347675e-09  4.58294352e-01  4.58294352e-01  3.24126872e-09  4.58294352e-01  3.13537144e-09  1.58306643e-07  6.65692994e-08  3.50000000e-01 
 3.60000000e-01  3.34558762e-09  3.36347674e-09  4.58294321e-01  4.58294321e-01  3.24126872e-09  4.58294321e-01  3.13537144e-09  1.58306598e-07  6.65689903e-08  3.60000000e-01 
 3.70000000e-01  3.34558762e-09  3.36347680e-09  4.58294328e-01  4.58294328e-01  3.24126872e-09  4.58294328e-01  3.13537144e-09  1.58306625e-07  6.65689797e-08  3.70000000e-01 
 3.80000000e-01  3.34558757e-09  3.36347680e-09  4.58294333e-01  4.58294333e-01  3.24126872e-09  4.58294333e-01  3.13537144e-09  1.58306611e-07  6.65688376e-08  3.80000000e-01 
 3.90000000e-01  3.34558757e-09  3.36347674e-09  4.58294327e-01  4.58294327e-01  3.24126866e-09  4.58294327e-01  3.13537144e-09  1.58306615e-07  6.65688731e-08  3.90000000e-01 
 4.00000000e-01  3.34558757e-09  3.36347680e-09  4.58294323e-01  4.58294323e-01  3.24126872e-09  4.58294322e-01  3.13537144e-09  1.58306608e-07  6.65686350e-08  4.00000000e-01 
 4.10000000e-01  3.34558762e-09  3.36347680e-09  4.58294344e-01  4.58294344e-01  3.24126872e-09  4.58294344e-01  3.13537144e-09  1.58306642e-07  6.65686599e-08  4.10000000e-01 
 4.20000000e-01  3.34558757e-09  3.36347680e-09  4.58294314e-01  4.58294314e-01  3.24126872e-09  4.58294314e-01  3.13537144e-09  1.58306586e-07  6.65685675e-08  4.20000000e-01 
 4.30000000e-01  3.34558762e-09  3.36347675e-09  4.58294332e-01  4.58294332e-01  3.24126872e-09  4.58294332e-01  3.13537138e-09  1.58306616e-07  6.65685356e-08  4.30000000e-01 
 4.40000000e-01  3.34558757e-09  3.36347680e-09  4.58294343e-01  4.58294343e-01  3.24126867e-09  4.58294343e-01  3.13537144e-09  1.58306636e-07  6.65684645e-08  4.40000000e-01 
 4.50000000e-01  3.34558762e-09  3.36347680e-09  4.58294329e-01  4.58294329e-01  3.24126872e-09  4.58294329e-01  3.13537144e-09  1.58306625e-07  6.65684077e-08  4.50000000e-01 
 4.60000000e-01  3.34558762e-09  3.36347675e-09  4.58294335e-01  4.58294335e-01  3.24126872e-09  4.58294335e-01  3.13537144e-09  1.58306618e-07  6.65682158e-08  4.60000000e-01 
 4.70000000e-01  3.34558762e-09  3.36347680e-09  4.58294306e-01  4.58294306e-01  3.24126872e-09  4.58294306e-01  3.13537144e-09  1.58306579e-07  6.65680489e-08  4.70000000e-01 
 4.80000000e-01  3.34558757e-09  3.36347680e-09  4.58294345e-01  4.58294345e-01  3.24126872e-09  4.58294345e-01  3.13537138e-09  1.58306630e-07  6.65681057e-08  4.80000000e-01 
 4.90000000e-01  3.34558757e-09  3.36347680e-09  4.58294316e-01  4.58294316e-01  3.24126872e-09  4.58294316e-01  3.13537144e-09  1.58306597e-07  6.65680382e-08  4.90000000e-01 
 5.00000000e-01  3.34558762e-09  3.36347680e-09  4.58294345e-01  4.58294345e-01  3.24126872e-09  4.58294345e-01  3.13537144e-09  1.58306634e-07  6.65679991e-08  5.00000000e-01 
 5.10000000e-01  3.34558757e-09  3.36347674e-09  4.58294322e-01  4.58294322e-01  3.24126872e-09  4.58294322e-01  3.13537144e-09  1.58306604e-07  6.65678641e-08  5.10000000e-01 
 5.20000000e-01  3.34558757e-09  3.36347680e-09  4.58294334e-01  4.58294334e-01  3.24126872e-09  4.58294334e-01  3.13537138e-09  1.58306618e-07  6.65677788e-08  5.20000000e-01 
 5.30000000e-01  3.34558757e-09  3.36347675e-09  4.58294336e-01  4.58294336e-01  3.24126872e-09  4.58294336e-01  3.13537138e-09  1.58306628e-07  6.65677895e-08  5.30000000e-01 
 5.40000000e-01  3.34558757e-09  3.36347680e-09  4.58294341e-01  4.58294341e-01  3.24126872e-09  4.58294341e-01  3.13537138e-09  1.58306626e-07  6.65678499e-08  5.40000000e-01 
 5.50000000e-01  3.34558762e-09  3.36347674e-09  4.58294324e-01  4.58294324e-01  3.24126872e-09  4.58294324e-01  3.13537144e-09  1.58306614e-07  6.65676474e-08  5.50000000e-01 
 5.60000000e-01  3.34558757e-09  3.36347680e-09  4.58294327e-01  4.58294327e-01  3.24126866e-09  4.58294327e-01  3.13537144e-09  1.58306624e-07  6.65675017e-08  5.60000000e-01 
 5.70000000e-01  3.34558762e-09  3.36347675e-09  4.58294348e-01  4.58294348e-01  3.24126867e-09  4.58294348e-01  3.13537144e-09  1.58306631e-07  6.65675479e-08  5.70000000e-01 
 5.80000000e-01  3.34558757e-09  3.36347680e-09  4.58294313e-01  4.58294313e-01  3.24126866e-09  4.58294313e-01  3.13537144e-09  1.58306588e-07  6.65674733e-08  5.80000000e-01 
 5.90000000e-01  3.34558757e-09  3.36347680e-09  4.58294307e-01  4.58294307e-01  3.24126872e-09  4.58294307e-01  3.13537138e-09  1.58306578e-07  6.65673383e-08  5.90000000e-01 
 6.00000000e-01  3.34558757e-09  3.36347674e-09  4.58294315e-01  4.58294315e-01  3.24126872e-09  4.58294315e-01  3.13537144e-09  1.58306600e-07  6.65672459e-08  6.00000000e-01 
 6.10000000e-01  3.34558762e-09  3.36347680e-09  4.58294302e-01  4.58294302e-01  3.24126872e-09  4.58294302e-01  3.13537144e-09  1.58306585e-07  6.65672459e-08  6.10000000e-01 
 6.20000000e-01  3.34558757e-09  3.36347680e-09  4.58294342e-01  4.58294342e-01  3.24126866e-09  4.58294342e-01  3.13537144e-09  1.58306623e-07  6.65672246e-08  6.20000000e-01 
 6.30000000e-01  3.34558757e-09  3.36347680e-09  4.58294323e-01  4.58294323e-01  3.24126866e-09  4.58294323e-01  3.13537144e-09  1.58306608e-07  6.65670470e-08  6.30000000e-01 
 6.40000000e-01  3.34558757e-09  3.36347675e-09  4.58294334e-01  4.58294334e-01  3.24126872e-09  4.58294334e-01  3.13537144e-09  1.58306628e-07  6.65669759e-08  6.40000000e-01 
 6.50000000e-01  3.34558762e-09  3.36347680e-09  4.58294326e-01  4.58294326e-01  3.24126866e-09  4.58294326e-01  3.13537144e-09  1.58306614e-07  6.65670399e-08  6.50000000e-01 
 6.60000000e-01  3.34558762e-09  3.36347675e-09  4.58294333e-01  4.58294333e-01  3.24126872e-09  4.58294333e-01  3.13537144e-09  1.58306613e-07  6.65668765e-08  6.60000000e-01 
 6.70000000e-01  3.34558757e-09  3.36347674e-09  4.58294329e-01  4.58294329e-01  3.24126872e-09  4.58294329e-01  3.13537144e-09  1.58306618e-07  6.65668125e-08  6.70000000e-01 
 6.80000000e-01  3.34558757e-09  3.36347680e-09  4.58294337e-01  4.58294337e-01  3.24126872e-09  4.58294337e-01  3.13537138e-09  1.58306629e-07  6.65668196e-08  6.80000000e-01 
 6.90000000e-01  3.34558762e-09  3.36347674e-09  4.58294316e-01  4.58294316e-01  3.24126872e-09  4.58294316e-01  3.13537138e-09  1.58306601e-07  6.65667486e-08  6.90000000e-01 
 7.00000000e-01  3.34558757e-09  3.36347674e-09  4.58294319e-01  4.58294319e-01  3.24126872e-09  4.58294319e-01  3.13537138e-09  1.58306595e-07  6.65666278e-08  7.00000000e-01 
 7.10000000e-01  3.34558762e-09  3.36347680e-09  4.58294326e-01  4.58294326e-01  3.24126872e-09  4.58294326e-01  3.13537144e-09  1.58306607e-07  6.65665993e-08  7.10000000e-01 
 7.20000000e-01  3.34558757e-09  3.36347680e-09  4.58294311e-01  4.58294311e-01  3.24126866e-09  4.58294311e-01  3.13537144e-09  1.58306583e-07  6.65664643e-08  7.20000000e-01 
 7.30000000e-01  3.34558757e-09  3.36347675e-09  4.58294348e-01  4.58294348e-01  3.24126872e-09  4.58294348e-01  3.13537144e-09  1.58306649e-07  6.65664217e-08  7.30000000e-01 
 7.40000000e-01  3.34558757e-09  3.36347680e-09  4.58294319e-01  4.58294319e-01  3.24126872e-09  4.58294319e-01  3.13537138e-09  1.58306603e-07  6.65663862e-08  7.40000000e-01 
 7.50000000e-01  3.34558757e-09  3.36347680e-09  4.58294317e-01  4.58294317e-01  3.24126872e-09  4.58294317e-01  3.13537138e-09  1.58306594e-07  6.65663507e-08  7.50000000e-01 
 7.60000000e-01  3.34558757e-09  3.36347680e-09  4.58294319e-01  4.58294319e-01  3.24126872e-09  4.58294319e-01  3.13537144e-09  1.58306602e-07  6.65663649e-08  7.60000000e-01 
 7.70000000e-01  3.34558762e-09  3.36347675e-09  4.58294353e-01  4.58294353e-01  3.24126867e-09  4.58294353e-01  3.13537144e-09  1.58306649e-07  6.65662583e-08  7.70000000e-01 
 7.80000000e-01  3.34558762e-09  3.36347680e-09  4.58294323e-01  4.58294323e-01  3.24126866e-09  4.58294323e-01  3.13537144e-09  1.58306613e-07  6.65660878e-08  7.80000000e-01 
 7.90000000e-01  3.34558757e-09  3.36347680e-09  4.58294344e-01  4.58294344e-01  3.24126867e-09  4.58294344e-01  3.13537144e-09  1.58306641e-07  6.65661091e-08  7.90000000e-01 
 8.00000000e-01  3.34558757e-09  3.36347680e-09  4.58294314e-01  4.58294314e-01  3.24126872e-09  4.58294314e-01  3.13537144e-09  1.58306598e-07  6.65660735e-08  8.00000000e-01 
 8.10000000e-01  3.34558757e-09  3.36347680e-09  4.58294344e-01  4.58294344e-01  3.24126872e-09  4.58294344e-01  3.13537144e-09  1.58306631e-07  6.65659599e-08  8.10000000e-01 
 8.20000000e-01  3.34558757e-09  3.36347680e-09  4.58294312e-01  4.58294312e-01  3.24126866e-09  4.58294312e-01  3.13537144e-09  1.58306587e-07  6.65658817e-08  8.20000000e-01 
 8.30000000e-01  3.34558757e-09  3.36347680e-09  4.58294320e-01  4.58294320e-01  3.24126872e-09  4.58294320e-01  3.13537138e-09  1.58306613e-07  6.65658320e-08  8.30000000e-01 
 8.40000000e-01  3.34558757e-09  3.36347680e-09  4.58294336e-01  4.58294336e-01  3.24126872e-09  4.58294335e-01  3.13537138e-09  1.58306632e-07  6.65658320e-08  8.40000000e-01 
 8.50000000e-01  3.34558757e-09  3.36347675e-09  4.58294338e-01  4.58294338e-01  3.24126872e-09  4.58294337e-01  3.13537144e-09  1.58306630e-07  6.65657396e-08  8.50000000e-01 
 8.60000000e-01  3.34558757e-09  3.36347680e-09  4.58294325e-01  4.58294325e-01  3.24126866e-09  4.58294325e-01  3.13537144e-09  1.58306612e-07  6.65656970e-08  8.60000000e-01 
 8.70000000e-01  3.34558762e-09  3.36347681e-09  4.58294349e-01  4.58294349e-01  3.24126867e-09  4.58294349e-01  3.13537138e-09  1.58306650e-07  6.65656188e-08  8.70000000e-01 
 8.80000000e-01  3.34558762e-09  3.36347674e-09  4.58294316e-01  4.58294316e-01  3.24126872e-09  4.58294316e-01  3.13537144e-09  1.58306597e-07  6.65654198e-08  8.80000000e-01 
 8.90000000e-01  3.34558757e-09  3.36347680e-09  4.58294334e-01  4.58294334e-01  3.24126866e-09  4.58294334e-01  3.13537144e-09  1.58306625e-07  6.65654767e-08  8.90000000e-01 
 9.00000000e-01  3.34558762e-09  3.36347674e-09  4.58294325e-01  4.58294325e-01  3.24126872e-09  4.58294325e-01  3.13537144e-09  1.58306610e-07  6.65653843e-08  9.00000000e-01 
 9.10000000e-01  3.34558757e-09  3.36347675e-09  4.58294338e-01  4.58294338e-01  3.24126872e-09  4.58294338e-01  3.13537144e-09  1.58306626e-07  6.65652564e-08  9.10000000e-01 
 9.20000000e-01  3.34558762e-09  3.36347674e-09  4.58294326e-01  4.58294326e-01  3.24126872e-09  4.58294326e-01  3.13537144e-09  1.58306605e-07  6.65652280e-08  9.20000000e-01 
 9.30000000e-01  3.34558757e-09  3.36347675e-09  4.58294333e-01  4.58294333e-01  3.24126872e-09  4.58294333e-01  3.13537144e-09  1.58306620e-07  6.65651854e-08  9.30000000e-01 
 9.40000000e-01  3.34558762e-09  3.36347680e-09  4.58294338e-01  4.58294338e-01  3.24126866e-09  4.58294338e-01  3.13537144e-09  1.58306627e-07  6.65651214e-08  9.40000000e-01 
 9.50000000e-01  3.34558757e-09  3.36347675e-09  4.58294346e-01  4.58294346e-01  3.24126867e-09  4.58294346e-01  3.13537144e-09  1.58306636e-07  6.65650930e-08  9.50000000e-01 
 9.60000000e-01  3.34558757e-09  3.36347680e-09  4.58294322e-01  4.58294322e-01  3.24126866e-09  4.58294322e-01  3.13537144e-09  1.58306597e-07  6.65649793e-08  9.60000000e-01 
 9.70000000e-01  3.34558757e-09  3.36347680e-09  4.58294329e-01  4.58294329e-01  3.24126866e-09  4.58294329e-01  3.13537144e-09  1.58306611e-07  6.65649367e-08  9.70000000e-01 
 9.80000000e-01  3.34558757e-09  3.36347674e-09  4.58294311e-01  4.58294311e-01  3.24126866e-09  4.58294311e-01  3.13537144e-09  1.58306579e-07  6.65647448e-08  9.80000000e-01 
 9.90000000e-01  3.34558762e-09  3.36347680e-09  4.58294334e-01  4.58294334e-01  3.24126872e-09  4.58294334e-01  3.13537144e-09  1.58306627e-07  6.65647590e-08  9.90000000e-01 
 1.00000000e+00  3.34558757e-09  3.36347680e-09  4.58294340e-01  4.58294340e-01  3.24126866e-09  4.58294340e-01  3.13537138e-09  1.58306626e-07  6.65646169e-08  1.00000000e+00 
 1.01000000e+00  3.34558757e-09  3.36347680e-09  4.58294314e-01  4.58294314e-01  3.24126872e-09  4.58294314e-01  3.13537144e-09  1.58306599e-07  6.65645317e-08  1.01000000e+00 
 1.02000000e+00  3.34558756e-09  3.36347674e-09  4.58294302e-01  4.58294302e-01  3.24126872e-09  4.58294302e-01  3.13537144e-09  1.58306564e-07  6.65645956e-08  1.02000000e+00 
 1.03000000e+00  3.34558757e-09  3.36347674e-09  4.58294317e-01  4.58294317e-01  3.24126872e-09  4.58294317e-01  3.13537144e-09  1.58306594e-07  6.65644890e-08  1.03000000e+00 
 1.04000000e+00  3.34558757e-09  3.36347680e-09  4.58294340e-01  4.58294340e-01  3.24126866e-09  4.58294340e-01  3.13537144e-09  1.58306631e-07  6.65644322e-08  1.04000000e+00 
 1.05000000e+00  3.34558757e-09  3.36347674e-09  4.58294313e-01  4.58294313e-01  3.24126872e-09  4.58294313e-01  3.13537144e-09  1.58306584e-07  6.65642546e-08  1.05000000e+00 
 1.06000000e+00  3.34558757e-09  3.36347674e-09  4.58294319e-01  4.58294319e-01  3.24126872e-09  4.58294319e-01  3.13537144e-09  1.58306598e-07  6.65643327e-08  1.06000000e+00 
 1.07000000e+00  3.34558757e-09  3.36347680e-09  4.58294326e-01  4.58294326e-01  3.24126872e-09  4.58294326e-01  3.13537138e-09  1.58306610e-07  6.65642901e-08  1.07000000e+00 
 1.08000000e+00  3.34558757e-09  3.36347680e-09  4.58294320e-01  4.58294320e-01  3.24126872e-09  4.58294320e-01  3.13537144e-09  1.58306599e-07  6.65641409e-08  1.08000000e+00 
 1.09000000e+00  3.34558757e-09  3.36347675e-09  4.58294334e-01  4.58294334e-01  3.24126872e-09  4.58294334e-01  3.13537144e-09  1.58306618e-07  6.65641551e-08  1.09000000e+00 
 1.10000000e+00  3.34558757e-09  3.36347680e-09  4.58294328e-01  4.58294328e-01  3.24126872e-09  4.58294328e-01  3.13537144e-09  1.58306614e-07  6.65639135e-08  1.10000000e+00 
