 v-sweep         v(b0)           v(b1)           v(b2)           v(b3)           v(b4)           v(b5)           v(b6)           i(vbias)        i(viout)        v(vout)        
 0.00000000e+00  3.45979288e-09  4.57664006e-01  4.57664006e-01  4.57664006e-01  4.57664006e-01  4.57664006e-01  3.32721661e-09  1.56914081e-07  9.12235487e-08  0.00000000e+00 
 1.00000000e-02  3.45979298e-09  4.57663978e-01  4.57663978e-01  4.57663978e-01  4.57663978e-01  4.57663978e-01  3.32721659e-09  1.56914049e-07  9.12230242e-08  1.00000000e-02 
 2.00000000e-02  3.45979291e-09  4.57663994e-01  4.57663994e-01  4.57663994e-01  4.57663995e-01  4.57663994e-01  3.32721659e-09  1.56914073e-07  9.12226843e-08  2.00000000e-02 
 3.00000000e-02  3.45979293e-09  4.57663989e-01  4.57663989e-01  4.57663989e-01  4.57663989e-01  4.57663989e-01  3.32721664e-09  1.56914069e-07  9.12222673e-08  3.00000000e-02 
 4.00000000e-02  3.45979298e-09  4.57664000e-01  4.57664000e-01  4.57664000e-01  4.57664000e-01  4.57664000e-01  3.32721664e-09  1.56914081e-07  9.12219682e-08  4.00000000e-02 
 5.00000000e-02  3.45979291e-09  4.57664006e-01  4.57664006e-01  4.57664006e-01  4.57664006e-01  4.57664006e-01  3.32721659e-09  1.56914087e-07  9.12216254e-08  5.00000000e-02 
 6.00000000e-02  3.45979293e-09  4.57663985e-01  4.57663985e-01  4.57663985e-01  4.57663985e-01  4.57663985e-01  3.32721659e-09  1.56914063e-07  9.12212768e-08  6.00000000e-02 
 7.00000000e-02  3.45979292e-09  4.57663975e-01  4.57663975e-01  4.57663975e-01  4.57663975e-01  4.57663975e-01  3.32721659e-09  1.56914037e-07  9.12209055e-08  7.00000000e-02 
 8.00000000e-02  3.45979292e-09  4.57663968e-01  4.57663968e-01  4.57663968e-01  4.57663968e-01  4.57663968e-01  3.32721664e-09  1.56914045e-07  9.12206071e-08  8.00000000e-02 
 9.00000000e-02  3.45979292e-09  4.57664009e-01  4.57664009e-01  4.57664009e-01  4.57664009e-01  4.57664009e-01  3.32721659e-09  1.56914100e-07  9.12205484e-08  9.00000000e-02 
 1.00000000e-01  3.45979292e-09  4.57663986e-01  4.57663986e-01  4.57663986e-01  4.57663986e-01  4.57663986e-01  3.32721659e-09  1.56914053e-07  9.12201319e-08  1.00000000e-01 
 1.10000000e-01  3.45979292e-09  4.57663989e-01  4.57663989e-01  4.57663989e-01  4.57663989e-01  4.57663989e-01  3.32721659e-09  1.56914059e-07  9.12198352e-08  1.10000000e-01 
 1.20000000e-01  3.45979292e-09  4.57663971e-01  4.57663971e-01  4.57663971e-01  4.57663971e-01  4.57663971e-01  3.32721659e-09  1.56914046e-07  9.12195635e-08  1.20000000e-01 
 1.30000000e-01  3.45979292e-09  4.57663966e-01  4.57663966e-01  4.57663966e-01  4.57663966e-01  4.57663966e-01  3.32721659e-09  1.56914026e-07  9.12193796e-08  1.30000000e-01 
 1.40000000e-01  3.45979292e-09  4.57663973e-01  4.57663973e-01  4.57663973e-01  4.57663973e-01  4.57663973e-01  3.32721659e-09  1.56914040e-07  9.12192233e-08  1.40000000e-01 
 1.50000000e-01  3.45979292e-09  4.57664002e-01  4.57664002e-01  4.57664002e-01  4.57664002e-01  4.57664002e-01  3.32721659e-09  1.56914082e-07  9.12188813e-08  1.50000000e-01 
 1.60000000e-01  3.45979292e-09  4.57663991e-01  4.57663991e-01  4.57663991e-01  4.57663991e-01  4.57663991e-01  3.32721659e-09  1.56914046e-07  9.12187197e-08  1.60000000e-01 
 1.70000000e-01  3.45979292e-09  4.57663981e-01  4.57663981e-01  4.57663981e-01  4.57663981e-01  4.57663981e-01  3.32721664e-09  1.56914056e-07  9.12185083e-08  1.70000000e-01 
 1.80000000e-01  3.45979292e-09  4.57663972e-01  4.57663972e-01  4.57663972e-01  4.57663972e-01  4.57663972e-01  3.32721659e-09  1.56914033e-07  9.12182720e-08  1.80000000e-01 
 1.90000000e-01  3.45979292e-09  4.57663983e-01  4.57663983e-01  4.57663983e-01  4.57663983e-01  4.57663983e-01  3.32721659e-09  1.56914066e-07  9.12181761e-08  1.90000000e-01 
 2.00000000e-01  3.45979292e-09  4.57663977e-01  4.57663977e-01  4.57663977e-01  4.57663977e-01  4.57663977e-01  3.32721659e-09  1.56914052e-07  9.12179541e-08  2.00000000e-01 
 2.10000000e-01  3.45979293e-09  4.57664038e-01  4.57664038e-01  4.57664038e-01  4.57664038e-01  4.57664038e-01  3.32721659e-09  1.56914134e-07  9.12179150e-08  2.10000000e-01 
 2.20000000e-01  3.45979292e-09  4.57664021e-01  4.57664021e-01  4.57664021e-01  4.57664021e-01  4.57664021e-01  3.32721659e-09  1.56914128e-07  9.12177249e-08  2.20000000e-01 
 2.30000000e-01  3.45979292e-09  4.57663981e-01  4.57663981e-01  4.57663981e-01  4.57663981e-01  4.57663981e-01  3.32721659e-09  1.56914042e-07  9.12175349e-08  2.30000000e-01 
 2.40000000e-01  3.45979298e-09  4.57663984e-01  4.57663984e-01  4.57663984e-01  4.57663984e-01  4.57663984e-01  3.32721659e-09  1.56914060e-07  9.12174336e-08  2.40000000e-01 
 2.50000000e-01  3.45979291e-09  4.57663998e-01  4.57663998e-01  4.57663998e-01  4.57663998e-01  4.57663998e-01  3.32721659e-09  1.56914072e-07  9.12171920e-08  2.50000000e-01 
 2.60000000e-01  3.45979293e-09  4.57664005e-01  4.57664005e-01  4.57664005e-01  4.57664005e-01  4.57664005e-01  3.32721659e-09  1.56914093e-07  9.12171334e-08  2.60000000e-01 
 2.70000000e-01  3.45979292e-09  4.57663987e-01  4.57663987e-01  4.57663987e-01  4.57663987e-01  4.57663987e-01  3.32721659e-09  1.56914055e-07  9.12169398e-08  2.70000000e-01 
 2.80000000e-01  3.45979292e-09  4.57663977e-01  4.57663977e-01  4.57663977e-01  4.57663977e-01  4.57663977e-01  3.32721659e-09  1.56914057e-07  9.12167728e-08  2.80000000e-01 
 2.90000000e-01  3.45979292e-09  4.57663991e-01  4.57663991e-01  4.57663991e-01  4.57663991e-01  4.57663991e-01  3.32721664e-09  1.56914082e-07  9.12167017e-08  2.90000000e-01 
 3.00000000e-01  3.45979298e-09  4.57663994e-01  4.57663994e-01  4.57663994e-01  4.57663994e-01  4.57663994e-01  3.32721659e-09  1.56914057e-07  9.12166414e-08  3.00000000e-01 
 3.10000000e-01  3.45979297e-09  4.57664021e-01  4.57664021e-01  4.57664021e-01  4.57664021e-01  4.57664021e-01  3.32721659e-09  1.56914110e-07  9.12166520e-08  3.10000000e-01 
 3.20000000e-01  3.45979297e-09  4.57663986e-01  4.57663986e-01  4.57663986e-01  4.57663986e-01  4.57663986e-01  3.32721664e-09  1.56914063e-07  9.12162612e-08  3.20000000e-01 
 3.30000000e-01  3.45979291e-09  4.57663984e-01  4.57663984e-01  4.57663984e-01  4.57663985e-01  4.57663984e-01  3.32721664e-09  1.56914063e-07  9.12162719e-08  3.30000000e-01 
 3.40000000e-01  3.45979293e-09  4.57663979e-01  4.57663979e-01  4.57663979e-01  4.57663979e-01  4.57663979e-01  3.32721664e-09  1.56914047e-07  9.12161155e-08  3.40000000e-01 
 3.50000000e-01  3.45979292e-09  4.57663987e-01  4.57663987e-01  4.57663987e-01  4.57663987e-01  4.57663987e-01  3.32721659e-09  1.56914071e-07  9.12160232e-08  3.50000000e-01 
 3.60000000e-01  3.45979292e-09  4.57663962e-01  4.57663962e-01  4.57663962e-01  4.57663962e-01  4.57663962e-01  3.32721659e-09  1.56914025e-07  9.12158562e-08  3.60000000e-01 
 3.70000000e-01  3.45979292e-09  4.57663957e-01  4.57663957e-01  4.57663957e-01  4.57663957e-01  4.57663957e-01  3.32721659e-09  1.56914021e-07  9.12157603e-08  3.70000000e-01 
 3.80000000e-01  3.45979292e-09  4.57663987e-01  4.57663987e-01  4.57663987e-01  4.57663987e-01  4.57663987e-01  3.32721664e-09  1.56914061e-07  9.12158562e-08  3.80000000e-01 
 3.90000000e-01  3.45979292e-09  4.57663991e-01  4.57663991e-01  4.57663991e-01  4.57663991e-01  4.57663991e-01  3.32721659e-09  1.56914075e-07  9.12157567e-08  3.90000000e-01 
 4.00000000e-01  3.45979292e-09  4.57663998e-01  4.57663998e-01  4.57663998e-01  4.57663998e-01  4.57663998e-01  3.32721659e-09  1.56914084e-07  9.12155116e-08  4.00000000e-01 
 4.10000000e-01  3.45979292e-09  4.57663992e-01  4.57663992e-01  4.57663992e-01  4.57663992e-01  4.57663992e-01  3.32721659e-09  1.56914073e-07  9.12156040e-08  4.10000000e-01 
 4.20000000e-01  3.45979292e-09  4.57663971e-01  4.57663971e-01  4.57663971e-01  4.57663971e-01  4.57663971e-01  3.32721664e-09  1.56914037e-07  9.12153126e-08  4.20000000e-01 
 4.30000000e-01  3.45979292e-09  4.57663984e-01  4.57663984e-01  4.57663984e-01  4.57663984e-01  4.57663984e-01  3.32721664e-09  1.56914050e-07  9.12151563e-08  4.30000000e-01 
 4.40000000e-01  3.45979292e-09  4.57663982e-01  4.57663982e-01  4.57663982e-01  4.57663982e-01  4.57663982e-01  3.32721664e-09  1.56914048e-07  9.12152309e-08  4.40000000e-01 
 4.50000000e-01  3.45979292e-09  4.57664002e-01  4.57664002e-01  4.57664002e-01  4.57664002e-01  4.57664002e-01  3.32721659e-09  1.56914086e-07  9.12151457e-08  4.50000000e-01 
 4.60000000e-01  3.45979292e-09  4.57664009e-01  4.57664009e-01  4.57664009e-01  4.57664009e-01  4.57664009e-01  3.32721659e-09  1.56914093e-07  9.12151457e-08  4.60000000e-01 
 4.70000000e-01  3.45979292e-09  4.57663964e-01  4.57663964e-01  4.57663964e-01  4.57663964e-01  4.57663964e-01  3.32721659e-09  1.56914025e-07  9.12150178e-08  4.70000000e-01 
 4.80000000e-01  3.45979292e-09  4.57663985e-01  4.57663985e-01  4.57663985e-01  4.57663985e-01  4.57663985e-01  3.32721664e-09  1.56914065e-07  9.12149680e-08  4.80000000e-01 
 4.90000000e-01  3.45979292e-09  4.57663984e-01  4.57663984e-01  4.57663984e-01  4.57663984e-01  4.57663984e-01  3.32721659e-09  1.56914045e-07  9.12147442e-08  4.90000000e-01 
 5.00000000e-01  3.45979292e-09  4.57663958e-01  4.57663958e-01  4.57663958e-01  4.57663958e-01  4.57663958e-01  3.32721664e-09  1.56914021e-07  9.12147300e-08  5.00000000e-01 
 5.10000000e-01  3.45979292e-09  4.57663999e-01  4.57663999e-01  4.57663999e-01  4.57663999e-01  4.57663999e-01  3.32721664e-09  1.56914081e-07  9.12147868e-08  5.10000000e-01 
 5.20000000e-01  3.45979292e-09  4.57663975e-01  4.57663975e-01  4.57663975e-01  4.57663975e-01  4.57663975e-01  3.32721659e-09  1.56914030e-07  9.12145843e-08  5.20000000e-01 
 5.30000000e-01  3.45979298e-09  4.57663981e-01  4.57663981e-01  4.57663981e-01  4.57663981e-01  4.57663981e-01  3.32721659e-09  1.56914061e-07  9.12144493e-08  5.30000000e-01 
 5.40000000e-01  3.45979291e-09  4.57663989e-01  4.57663989e-01  4.57663989e-01  4.57663989e-01  4.57663989e-01  3.32721659e-09  1.56914058e-07  9.12145453e-08  5.40000000e-01 
 5.50000000e-01  3.45979293e-09  4.57664005e-01  4.57664005e-01  4.57664005e-01  4.57664005e-01  4.57664005e-01  3.32721659e-09  1.56914089e-07  9.12143854e-08  5.50000000e-01 
 5.60000000e-01  3.45979292e-09  4.57663982e-01  4.57663982e-01  4.57663982e-01  4.57663982e-01  4.57663982e-01  3.32721659e-09  1.56914054e-07  9.12141864e-08  5.60000000e-01 
 5.70000000e-01  3.45979292e-09  4.57663984e-01  4.57663984e-01  4.57663984e-01  4.57663985e-01  4.57663984e-01  3.32721659e-09  1.56914046e-07  9.12141509e-08  5.70000000e-01 
 5.80000000e-01  3.45979298e-09  4.57663963e-01  4.57663963e-01  4.57663963e-01  4.57663963e-01  4.57663963e-01  3.32721664e-09  1.56914029e-07  9.12142468e-08  5.80000000e-01 
 5.90000000e-01  3.45979297e-09  4.57664004e-01  4.57664004e-01  4.57664004e-01  4.57664004e-01  4.57664004e-01  3.32721659e-09  1.56914079e-07  9.12141047e-08  5.90000000e-01 
 6.00000000e-01  3.45979291e-09  4.57663965e-01  4.57663965e-01  4.57663965e-01  4.57663965e-01  4.57663964e-01  3.32721659e-09  1.56914031e-07  9.12139839e-08  6.00000000e-01 
 6.10000000e-01  3.45979293e-09  4.57663980e-01  4.57663980e-01  4.57663980e-01  4.57663980e-01  4.57663979e-01  3.32721664e-09  1.56914045e-07  9.12139555e-08  6.10000000e-01 
 6.20000000e-01  3.45979298e-09  4.57663967e-01  4.57663967e-01  4.57663967e-01  4.57663967e-01  4.57663967e-01  3.32721659e-09  1.56914046e-07  9.12138489e-08  6.20000000e-01 
 6.30000000e-01  3.45979291e-09  4.57663985e-01  4.57663985e-01  4.57663985e-01  4.57663985e-01  4.57663985e-01  3.32721664e-09  1.56914056e-07  9.12136215e-08  6.30000000e-01 
 6.40000000e-01  3.45979293e-09  4.57663983e-01  4.57663983e-01  4.57663983e-01  4.57663983e-01  4.57663983e-01  3.32721664e-09  1.56914063e-07  9.12137779e-08  6.40000000e-01 
 6.50000000e-01  3.45979298e-09  4.57663997e-01  4.57663997e-01  4.57663997e-01  4.57663997e-01  4.57663997e-01  3.32721664e-09  1.56914089e-07  9.12136002e-08  6.50000000e-01 
 6.60000000e-01  3.45979297e-09  4.57664013e-01  4.57664013e-01  4.57664013e-01  4.57664013e-01  4.57664013e-01  3.32721665e-09  1.56914109e-07  9.12136855e-08  6.60000000e-01 
 6.70000000e-01  3.45979292e-09  4.57663995e-01  4.57663995e-01  4.57663995e-01  4.57663995e-01  4.57663995e-01  3.32721664e-09  1.56914070e-07  9.12134581e-08  6.70000000e-01 
 6.80000000e-01  3.45979293e-09  4.57663985e-01  4.57663985e-01  4.57663985e-01  4.57663985e-01  4.57663985e-01  3.32721659e-09  1.56914069e-07  9.12133160e-08  6.80000000e-01 
 6.90000000e-01  3.45979292e-09  4.57663959e-01  4.57663959e-01  4.57663959e-01  4.57663959e-01  4.57663959e-01  3.32721659e-09  1.56914027e-07  9.12132947e-08  6.90000000e-01 
 7.00000000e-01  3.45979292e-09  4.57664000e-01  4.57664000e-01  4.57664000e-01  4.57664000e-01  4.57664000e-01  3.32721664e-09  1.56914082e-07  9.12132663e-08  7.00000000e-01 
 7.10000000e-01  3.45979292e-09  4.57663983e-01  4.57663983e-01  4.57663983e-01  4.57663983e-01  4.57663983e-01  3.32721659e-09  1.56914045e-07  9.12131455e-08  7.10000000e-01 
 7.20000000e-01  3.45979292e-09  4.57663983e-01  4.57663983e-01  4.57663983e-01  4.57663983e-01  4.57663983e-01  3.32721659e-09  1.56914065e-07  9.12131171e-08  7.20000000e-01 
 7.30000000e-01  3.45979292e-09  4.57663967e-01  4.57663967e-01  4.57663967e-01  4.57663967e-01  4.57663967e-01  3.32721664e-09  1.56914040e-07  9.12131100e-08  7.30000000e-01 
 7.40000000e-01  3.45979292e-09  4.57663975e-01  4.57663975e-01  4.57663975e-01  4.57663975e-01  4.57663975e-01  3.32721664e-09  1.56914043e-07  9.12130815e-08  7.40000000e-01 
 7.50000000e-01  3.45979298e-09  4.57663998e-01  4.57663998e-01  4.57663998e-01  4.57663998e-01  4.57663998e-01  3.32721664e-09  1.56914078e-07  9.12130176e-08  7.50000000e-01 
 7.60000000e-01  3.45979297e-09  4.57664011e-01  4.57664011e-01  4.57664011e-01  4.57664011e-01  4.57664010e-01  3.32721659e-09  1.56914097e-07  9.12128755e-08  7.60000000e-01 
 7.70000000e-01  3.45979291e-09  4.57663968e-01  4.57663969e-01  4.57663969e-01  4.57663969e-01  4.57663968e-01  3.32721664e-09  1.56914041e-07  9.12126694e-08  7.70000000e-01 
 7.80000000e-01  3.45979293e-09  4.57664008e-01  4.57664008e-01  4.57664008e-01  4.57664008e-01  4.57664008e-01  3.32721659e-09  1.56914087e-07  9.12127405e-08  7.80000000e-01 
 7.90000000e-01  3.45979292e-09  4.57663972e-01  4.57663972e-01  4.57663972e-01  4.57663972e-01  4.57663972e-01  3.32721659e-09  1.56914032e-07  9.12126126e-08  7.90000000e-01 
 8.00000000e-01  3.45979292e-09  4.57663983e-01  4.57663983e-01  4.57663983e-01  4.57663983e-01  4.57663983e-01  3.32721659e-09  1.56914064e-07  9.12125344e-08  8.00000000e-01 
 8.10000000e-01  3.45979298e-09  4.57663982e-01  4.57663982e-01  4.57663982e-01  4.57663982e-01  4.57663982e-01  3.32721659e-09  1.56914068e-07  9.12123639e-08  8.10000000e-01 
 8.20000000e-01  3.45979291e-09  4.57663975e-01  4.57663975e-01  4.57663975e-01  4.57663975e-01  4.57663975e-01  3.32721664e-09  1.56914036e-07  9.12124918e-08  8.20000000e-01 
 8.30000000e-01  3.45979293e-09  4.57663983e-01  4.57663983e-01  4.57663983e-01  4.57663983e-01  4.57663983e-01  3.32721659e-09  1.56914057e-07  9.12123568e-08  8.30000000e-01 
 8.40000000e-01  3.45979292e-09  4.57663991e-01  4.57663991e-01  4.57663991e-01  4.57663991e-01  4.57663991e-01  3.32721664e-09  1.56914078e-07  9.12123355e-08  8.40000000e-01 
 8.50000000e-01  3.45979292e-09  4.57663961e-01  4.57663961e-01  4.57663961e-01  4.57663961e-01  4.57663961e-01  3.32721664e-09  1.56914020e-07  9.12120939e-08  8.50000000e-01 
 8.60000000e-01  3.45979292e-09  4.57663979e-01  4.57663979e-01  4.57663979e-01  4.57663979e-01  4.57663979e-01  3.32721659e-09  1.56914046e-07  9.12120655e-08  8.60000000e-01 
 8.70000000e-01  3.45979292e-09  4.57664004e-01  4.57664004e-01  4.57664004e-01  4.57664004e-01  4.57664004e-01  3.32721659e-09  1.56914097e-07  9.12120797e-08  8.70000000e-01 
 8.80000000e-01  3.45979292e-09  4.57663984e-01  4.57663984e-01  4.57663984e-01  4.57663984e-01  4.57663983e-01  3.32721664e-09  1.56914046e-07  9.12118665e-08  8.80000000e-01 
 8.90000000e-01  3.45979292e-09  4.57663952e-01  4.57663952e-01  4.57663952e-01  4.57663952e-01  4.57663952e-01  3.32721659e-09  1.56914002e-07  9.12118097e-08  8.90000000e-01 
 9.00000000e-01  3.45979292e-09  4.57663973e-01  4.57663973e-01  4.57663973e-01  4.57663973e-01  4.57663973e-01  3.32721659e-09  1.56914040e-07  9.12117954e-08  9.00000000e-01 
 9.10000000e-01  3.45979292e-09  4.57664002e-01  4.57664002e-01  4.57664002e-01  4.57664002e-01  4.57664002e-01  3.32721664e-09  1.56914081e-07  9.12117031e-08  9.10000000e-01 
 9.20000000e-01  3.45979292e-09  4.57663989e-01  4.57663989e-01  4.57663989e-01  4.57663989e-01  4.57663989e-01  3.32721659e-09  1.56914060e-07  9.12117173e-08  9.20000000e-01 
 9.30000000e-01  3.45979292e-09  4.57663988e-01  4.57663988e-01  4.57663988e-01  4.57663988e-01  4.57663987e-01  3.32721659e-09  1.56914059e-07  9.12115681e-08  9.30000000e-01 
 9.40000000e-01  3.45979292e-09  4.57663972e-01  4.57663972e-01  4.57663972e-01  4.57663973e-01  4.57663972e-01  3.32721664e-09  1.56914044e-07  9.12114757e-08  9.40000000e-01 
 9.50000000e-01  3.45979292e-09  4.57663987e-01  4.57663987e-01  4.57663987e-01  4.57663987e-01  4.57663987e-01  3.32721659e-09  1.56914066e-07  9.12113762e-08  9.50000000e-01 
 9.60000000e-01  3.45979292e-09  4.57664001e-01  4.57664001e-01  4.57664001e-01  4.57664001e-01  4.57664001e-01  3.32721664e-09  1.56914089e-07  9.12114118e-08  9.60000000e-01 
 9.70000000e-01  3.45979292e-09  4.57663970e-01  4.57663970e-01  4.57663970e-01  4.57663970e-01  4.57663970e-01  3.32721659e-09  1.56914041e-07  9.12113407e-08  9.70000000e-01 
 9.80000000e-01  3.45979292e-09  4.57664011e-01  4.57664011e-01  4.57664011e-01  4.57664011e-01  4.57664011e-01  3.32721665e-09  1.56914091e-07  9.12112696e-08  9.80000000e-01 
 9.90000000e-01  3.45979292e-09  4.57663996e-01  4.57663996e-01  4.57663996e-01  4.57663996e-01  4.57663996e-01  3.32721659e-09  1.56914068e-07  9.12110778e-08  9.90000000e-01 
 1.00000000e+00  3.45979298e-09  4.57663999e-01  4.57663999e-01  4.57663999e-01  4.57663999e-01  4.57663999e-01  3.32721659e-09  1.56914077e-07  9.12110494e-08  1.00000000e+00 
 1.01000000e+00  3.45979297e-09  4.57664001e-01  4.57664001e-01  4.57664001e-01  4.57664001e-01  4.57664001e-01  3.32721659e-09  1.56914094e-07  9.12110210e-08  1.01000000e+00 
 1.02000000e+00  3.45979297e-09  4.57663974e-01  4.57663974e-01  4.57663974e-01  4.57663974e-01  4.57663974e-01  3.32721664e-09  1.56914051e-07  9.12108362e-08  1.02000000e+00 
 1.03000000e+00  3.45979291e-09  4.57663981e-01  4.57663981e-01  4.57663981e-01  4.57663981e-01  4.57663981e-01  3.32721659e-09  1.56914052e-07  9.12108220e-08  1.03000000e+00 
 1.04000000e+00  3.45979293e-09  4.57663992e-01  4.57663992e-01  4.57663992e-01  4.57663992e-01  4.57663992e-01  3.32721659e-09  1.56914079e-07  9.12106657e-08  1.04000000e+00 
 1.05000000e+00  3.45979292e-09  4.57663959e-01  4.57663959e-01  4.57663959e-01  4.57663959e-01  4.57663959e-01  3.32721659e-09  1.56914021e-07  9.12105946e-08  1.05000000e+00 
 1.06000000e+00  3.45979298e-09  4.57663960e-01  4.57663960e-01  4.57663960e-01  4.57663960e-01  4.57663960e-01  3.32721659e-09  1.56914016e-07  9.12104454e-08  1.06000000e+00 
 1.07000000e+00  3.45979296e-09  4.57663963e-01  4.57663963e-01  4.57663963e-01  4.57663963e-01  4.57663963e-01  3.32721659e-09  1.56914032e-07  9.12103673e-08  1.07000000e+00 
 1.08000000e+00  3.45979292e-09  4.57663993e-01  4.57663993e-01  4.57663993e-01  4.57663993e-01  4.57663993e-01  3.32721659e-09  1.56914070e-07  9.12102820e-08  1.08000000e+00 
 1.09000000e+00  3.45979293e-09  4.57663966e-01  4.57663966e-01  4.57663966e-01  4.57663966e-01  4.57663966e-01  3.32721659e-09  1.56914028e-07  9.12102607e-08  1.09000000e+00 
 1.10000000e+00  3.45979292e-09  4.57663988e-01  4.57663988e-01  4.57663988e-01  4.57663989e-01  4.57663988e-01  3.32721659e-09  1.56914050e-07  9.12102109e-08  1.10000000e+00 
