 v-sweep         v(b0)           v(b1)           v(b2)           v(b3)           v(b4)           v(b5)           v(b6)           i(vbias)        i(viout)        v(vout)        
 0.00000000e+00  3.23960751e-09  3.14358772e-09  4.58005091e-01  4.58005091e-01  3.16519616e-09  3.36434580e-09  4.58005091e-01  1.56985273e-07  1.12370698e-07  0.00000000e+00 
 1.00000000e-02  3.23960755e-09  3.14358765e-09  4.58005120e-01  4.58005120e-01  3.16519615e-09  3.36434580e-09  4.58005120e-01  1.56985294e-07  1.12370317e-07  1.00000000e-02 
 2.00000000e-02  3.23960750e-09  3.14358771e-09  4.58005114e-01  4.58005114e-01  3.16519615e-09  3.36434579e-09  4.58005114e-01  1.56985300e-07  1.12369873e-07  2.00000000e-02 
 3.00000000e-02  3.23960755e-09  3.14358771e-09  4.58005093e-01  4.58005093e-01  3.16519615e-09  3.36434579e-09  4.58005093e-01  1.56985283e-07  1.12369502e-07  3.00000000e-02 
 4.00000000e-02  3.23960755e-09  3.14358771e-09  4.58005105e-01  4.58005105e-01  3.16519615e-09  3.36434579e-09  4.58005105e-01  1.56985297e-07  1.12369059e-07  4.00000000e-02 
 5.00000000e-02  3.23960755e-09  3.14358771e-09  4.58005112e-01  4.58005112e-01  3.16519615e-09  3.36434579e-09  4.58005113e-01  1.56985303e-07  1.12368803e-07  5.00000000e-02 
 6.00000000e-02  3.23960755e-09  3.14358771e-09  4.58005120e-01  4.58005120e-01  3.16519615e-09  3.36434580e-09  4.58005120e-01  1.56985326e-07  1.12368554e-07  6.00000000e-02 
 7.00000000e-02  3.23960755e-09  3.14358771e-09  4.58005108e-01  4.58005108e-01  3.16519621e-09  3.36434579e-09  4.58005108e-01  1.56985303e-07  1.12368098e-07  7.00000000e-02 
 8.00000000e-02  3.23960755e-09  3.14358771e-09  4.58005116e-01  4.58005116e-01  3.16519620e-09  3.36434579e-09  4.58005116e-01  1.56985308e-07  1.12367815e-07  8.00000000e-02 
 9.00000000e-02  3.23960755e-09  3.14358771e-09  4.58005121e-01  4.58005121e-01  3.16519615e-09  3.36434580e-09  4.58005122e-01  1.56985326e-07  1.12367466e-07  9.00000000e-02 
 1.00000000e-01  3.23960755e-09  3.14358771e-09  4.58005110e-01  4.58005110e-01  3.16519616e-09  3.36434579e-09  4.58005110e-01  1.56985280e-07  1.12367347e-07  1.00000000e-01 
 1.10000000e-01  3.23960755e-09  3.14358771e-09  4.58005107e-01  4.58005107e-01  3.16519615e-09  3.36434579e-09  4.58005107e-01  1.56985281e-07  1.12367175e-07  1.10000000e-01 
 1.20000000e-01  3.23960750e-09  3.14358771e-09  4.58005114e-01  4.58005114e-01  3.16519621e-09  3.36434579e-09  4.58005115e-01  1.56985291e-07  1.12366742e-07  1.20000000e-01 
 1.30000000e-01  3.23960755e-09  3.14358771e-09  4.58005093e-01  4.58005093e-01  3.16519620e-09  3.36434579e-09  4.58005093e-01  1.56985268e-07  1.12366573e-07  1.30000000e-01 
 1.40000000e-01  3.23960755e-09  3.14358771e-09  4.58005106e-01  4.58005106e-01  3.16519615e-09  3.36434579e-09  4.58005106e-01  1.56985290e-07  1.12366240e-07  1.40000000e-01 
 1.50000000e-01  3.23960756e-09  3.14358771e-09  4.58005130e-01  4.58005130e-01  3.16519616e-09  3.36434580e-09  4.58005130e-01  1.56985328e-07  1.12366155e-07  1.50000000e-01 
 1.60000000e-01  3.23960756e-09  3.14358771e-09  4.58005125e-01  4.58005125e-01  3.16519615e-09  3.36434580e-09  4.58005125e-01  1.56985313e-07  1.12365852e-07  1.60000000e-01 
 1.70000000e-01  3.23960755e-09  3.14358771e-09  4.58005110e-01  4.58005110e-01  3.16519615e-09  3.36434579e-09  4.58005110e-01  1.56985297e-07  1.12365642e-07  1.70000000e-01 
 1.80000000e-01  3.23960756e-09  3.14358771e-09  4.58005137e-01  4.58005137e-01  3.16519615e-09  3.36434580e-09  4.58005137e-01  1.56985333e-07  1.12365557e-07  1.80000000e-01 
 1.90000000e-01  3.23960755e-09  3.14358771e-09  4.58005123e-01  4.58005123e-01  3.16519615e-09  3.36434580e-09  4.58005123e-01  1.56985319e-07  1.12365262e-07  1.90000000e-01 
 2.00000000e-01  3.23960750e-09  3.14358771e-09  4.58005100e-01  4.58005100e-01  3.16519615e-09  3.36434579e-09  4.58005101e-01  1.56985283e-07  1.12365166e-07  2.00000000e-01 
 2.10000000e-01  3.23960750e-09  3.14358771e-09  4.58005088e-01  4.58005088e-01  3.16519615e-09  3.36434579e-09  4.58005088e-01  1.56985262e-07  1.12364859e-07  2.10000000e-01 
 2.20000000e-01  3.23960755e-09  3.14358771e-09  4.58005098e-01  4.58005098e-01  3.16519615e-09  3.36434579e-09  4.58005098e-01  1.56985269e-07  1.12364706e-07  2.20000000e-01 
 2.30000000e-01  3.23960756e-09  3.14358771e-09  4.58005136e-01  4.58005136e-01  3.16519615e-09  3.36434580e-09  4.58005136e-01  1.56985330e-07  1.12364621e-07  2.30000000e-01 
 2.40000000e-01  3.23960755e-09  3.14358771e-09  4.58005121e-01  4.58005121e-01  3.16519615e-09  3.36434580e-09  4.58005121e-01  1.56985310e-07  1.12364523e-07  2.40000000e-01 
 2.50000000e-01  3.23960755e-09  3.14358771e-09  4.58005103e-01  4.58005103e-01  3.16519615e-09  3.36434579e-09  4.58005103e-01  1.56985289e-07  1.12364260e-07  2.50000000e-01 
 2.60000000e-01  3.23960755e-09  3.14358771e-09  4.58005096e-01  4.58005096e-01  3.16519615e-09  3.36434579e-09  4.58005096e-01  1.56985282e-07  1.12364152e-07  2.60000000e-01 
 2.70000000e-01  3.23960755e-09  3.14358771e-09  4.58005109e-01  4.58005109e-01  3.16519615e-09  3.36434579e-09  4.58005109e-01  1.56985299e-07  1.12364042e-07  2.70000000e-01 
 2.80000000e-01  3.23960755e-09  3.14358771e-09  4.58005122e-01  4.58005122e-01  3.16519615e-09  3.36434580e-09  4.58005122e-01  1.56985318e-07  1.12363999e-07  2.80000000e-01 
 2.90000000e-01  3.23960750e-09  3.14358766e-09  4.58005147e-01  4.58005147e-01  3.16519615e-09  3.36434580e-09  4.58005147e-01  1.56985349e-07  1.12363896e-07  2.90000000e-01 
 3.00000000e-01  3.23960750e-09  3.14358771e-09  4.58005108e-01  4.58005108e-01  3.16519621e-09  3.36434579e-09  4.58005108e-01  1.56985284e-07  1.12363793e-07  3.00000000e-01 
 3.10000000e-01  3.23960755e-09  3.14358771e-09  4.58005114e-01  4.58005115e-01  3.16519614e-09  3.36434579e-09  4.58005115e-01  1.56985297e-07  1.12363484e-07  3.10000000e-01 
 3.20000000e-01  3.23960755e-09  3.14358771e-09  4.58005107e-01  4.58005107e-01  3.16519616e-09  3.36434579e-09  4.58005107e-01  1.56985291e-07  1.12363306e-07  3.20000000e-01 
 3.30000000e-01  3.23960755e-09  3.14358771e-09  4.58005119e-01  4.58005119e-01  3.16519615e-09  3.36434580e-09  4.58005119e-01  1.56985295e-07  1.12363306e-07  3.30000000e-01 
 3.40000000e-01  3.23960755e-09  3.14358771e-09  4.58005083e-01  4.58005083e-01  3.16519615e-09  3.36434579e-09  4.58005083e-01  1.56985251e-07  1.12363168e-07  3.40000000e-01 
 3.50000000e-01  3.23960755e-09  3.14358771e-09  4.58005105e-01  4.58005105e-01  3.16519615e-09  3.36434579e-09  4.58005105e-01  1.56985262e-07  1.12363107e-07  3.50000000e-01 
 3.60000000e-01  3.23960755e-09  3.14358771e-09  4.58005091e-01  4.58005091e-01  3.16519615e-09  3.36434579e-09  4.58005091e-01  1.56985258e-07  1.12362958e-07  3.60000000e-01 
 3.70000000e-01  3.23960755e-09  3.14358771e-09  4.58005118e-01  4.58005118e-01  3.16519615e-09  3.36434580e-09  4.58005118e-01  1.56985309e-07  1.12362901e-07  3.70000000e-01 
 3.80000000e-01  3.23960755e-09  3.14358771e-09  4.58005109e-01  4.58005109e-01  3.16519615e-09  3.36434579e-09  4.58005109e-01  1.56985289e-07  1.12362699e-07  3.80000000e-01 
 3.90000000e-01  3.23960755e-09  3.14358771e-09  4.58005109e-01  4.58005109e-01  3.16519615e-09  3.36434579e-09  4.58005109e-01  1.56985296e-07  1.12362702e-07  3.90000000e-01 
 4.00000000e-01  3.23960750e-09  3.14358771e-09  4.58005100e-01  4.58005100e-01  3.16519615e-09  3.36434579e-09  4.58005100e-01  1.56985268e-07  1.12362549e-07  4.00000000e-01 
 4.10000000e-01  3.23960755e-09  3.14358771e-09  4.58005116e-01  4.58005116e-01  3.16519615e-09  3.36434579e-09  4.58005116e-01  1.56985309e-07  1.12362500e-07  4.10000000e-01 
 4.20000000e-01  3.23960755e-09  3.14358771e-09  4.58005105e-01  4.58005105e-01  3.16519615e-09  3.36434579e-09  4.58005105e-01  1.56985286e-07  1.12362336e-07  4.20000000e-01 
 4.30000000e-01  3.23960755e-09  3.14358771e-09  4.58005099e-01  4.58005099e-01  3.16519615e-09  3.36434579e-09  4.58005099e-01  1.56985278e-07  1.12362297e-07  4.30000000e-01 
 4.40000000e-01  3.23960750e-09  3.14358771e-09  4.58005109e-01  4.58005109e-01  3.16519615e-09  3.36434579e-09  4.58005109e-01  1.56985288e-07  1.12362251e-07  4.40000000e-01 
 4.50000000e-01  3.23960755e-09  3.14358771e-09  4.58005120e-01  4.58005120e-01  3.16519615e-09  3.36434580e-09  4.58005120e-01  1.56985313e-07  1.12362127e-07  4.50000000e-01 
 4.60000000e-01  3.23960750e-09  3.14358771e-09  4.58005125e-01  4.58005125e-01  3.16519615e-09  3.36434580e-09  4.58005125e-01  1.56985316e-07  1.12362130e-07  4.60000000e-01 
 4.70000000e-01  3.23960756e-09  3.14358771e-09  4.58005139e-01  4.58005139e-01  3.16519621e-09  3.36434580e-09  4.58005139e-01  1.56985343e-07  1.12362123e-07  4.70000000e-01 
 4.80000000e-01  3.23960755e-09  3.14358771e-09  4.58005084e-01  4.58005084e-01  3.16519620e-09  3.36434579e-09  4.58005084e-01  1.56985253e-07  1.12361757e-07  4.80000000e-01 
 4.90000000e-01  3.23960755e-09  3.14358771e-09  4.58005121e-01  4.58005121e-01  3.16519615e-09  3.36434580e-09  4.58005121e-01  1.56985289e-07  1.12361846e-07  4.90000000e-01 
 5.00000000e-01  3.23960755e-09  3.14358771e-09  4.58005122e-01  4.58005122e-01  3.16519616e-09  3.36434585e-09  4.58005122e-01  1.56985308e-07  1.12361743e-07  5.00000000e-01 
 5.10000000e-01  3.23960755e-09  3.14358771e-09  4.58005118e-01  4.58005118e-01  3.16519615e-09  3.36434579e-09  4.58005118e-01  1.56985304e-07  1.12361555e-07  5.10000000e-01 
 5.20000000e-01  3.23960755e-09  3.14358771e-09  4.58005086e-01  4.58005086e-01  3.16519615e-09  3.36434579e-09  4.58005086e-01  1.56985268e-07  1.12361519e-07  5.20000000e-01 
 5.30000000e-01  3.23960755e-09  3.14358771e-09  4.58005098e-01  4.58005098e-01  3.16519615e-09  3.36434579e-09  4.58005098e-01  1.56985267e-07  1.12361462e-07  5.30000000e-01 
 5.40000000e-01  3.23960755e-09  3.14358771e-09  4.58005094e-01  4.58005094e-01  3.16519621e-09  3.36434579e-09  4.58005094e-01  1.56985269e-07  1.12361342e-07  5.40000000e-01 
 5.50000000e-01  3.23960755e-09  3.14358771e-09  4.58005096e-01  4.58005097e-01  3.16519614e-09  3.36434579e-09  4.58005097e-01  1.56985280e-07  1.12361292e-07  5.50000000e-01 
 5.60000000e-01  3.23960755e-09  3.14358771e-09  4.58005105e-01  4.58005106e-01  3.16519616e-09  3.36434579e-09  4.58005106e-01  1.56985293e-07  1.12361196e-07  5.60000000e-01 
 5.70000000e-01  3.23960755e-09  3.14358771e-09  4.58005085e-01  4.58005085e-01  3.16519615e-09  3.36434579e-09  4.58005085e-01  1.56985266e-07  1.12361047e-07  5.70000000e-01 
 5.80000000e-01  3.23960755e-09  3.14358771e-09  4.58005116e-01  4.58005116e-01  3.16519615e-09  3.36434579e-09  4.58005116e-01  1.56985294e-07  1.12361121e-07  5.80000000e-01 
 5.90000000e-01  3.23960750e-09  3.14358771e-09  4.58005097e-01  4.58005097e-01  3.16519615e-09  3.36434579e-09  4.58005097e-01  1.56985279e-07  1.12360880e-07  5.90000000e-01 
 6.00000000e-01  3.23960750e-09  3.14358771e-09  4.58005104e-01  4.58005104e-01  3.16519615e-09  3.36434579e-09  4.58005104e-01  1.56985282e-07  1.12360823e-07  6.00000000e-01 
 6.10000000e-01  3.23960755e-09  3.14358771e-09  4.58005096e-01  4.58005096e-01  3.16519615e-09  3.36434579e-09  4.58005096e-01  1.56985262e-07  1.12360773e-07  6.10000000e-01 
 6.20000000e-01  3.23960756e-09  3.14358771e-09  4.58005131e-01  4.58005131e-01  3.16519615e-09  3.36434580e-09  4.58005132e-01  1.56985311e-07  1.12360787e-07  6.20000000e-01 
 6.30000000e-01  3.23960750e-09  3.14358771e-09  4.58005129e-01  4.58005129e-01  3.16519615e-09  3.36434580e-09  4.58005129e-01  1.56985308e-07  1.12360702e-07  6.30000000e-01 
 6.40000000e-01  3.23960755e-09  3.14358771e-09  4.58005096e-01  4.58005096e-01  3.16519615e-09  3.36434579e-09  4.58005096e-01  1.56985275e-07  1.12360574e-07  6.40000000e-01 
 6.50000000e-01  3.23960755e-09  3.14358771e-09  4.58005109e-01  4.58005109e-01  3.16519615e-09  3.36434579e-09  4.58005109e-01  1.56985299e-07  1.12360439e-07  6.50000000e-01 
 6.60000000e-01  3.23960756e-09  3.14358771e-09  4.58005129e-01  4.58005129e-01  3.16519615e-09  3.36434580e-09  4.58005129e-01  1.56985326e-07  1.12360524e-07  6.60000000e-01 
 6.70000000e-01  3.23960755e-09  3.14358771e-09  4.58005090e-01  4.58005090e-01  3.16519615e-09  3.36434579e-09  4.58005090e-01  1.56985265e-07  1.12360247e-07  6.70000000e-01 
 6.80000000e-01  3.23960755e-09  3.14358771e-09  4.58005102e-01  4.58005102e-01  3.16519615e-09  3.36434579e-09  4.58005102e-01  1.56985270e-07  1.12360318e-07  6.80000000e-01 
 6.90000000e-01  3.23960755e-09  3.14358771e-09  4.58005110e-01  4.58005110e-01  3.16519615e-09  3.36434579e-09  4.58005110e-01  1.56985305e-07  1.12360070e-07  6.90000000e-01 
 7.00000000e-01  3.23960755e-09  3.14358765e-09  4.58005090e-01  4.58005090e-01  3.16519615e-09  3.36434579e-09  4.58005090e-01  1.56985271e-07  1.12360041e-07  7.00000000e-01 
 7.10000000e-01  3.23960755e-09  3.14358771e-09  4.58005103e-01  4.58005103e-01  3.16519615e-09  3.36434579e-09  4.58005103e-01  1.56985283e-07  1.12360048e-07  7.10000000e-01 
 7.20000000e-01  3.23960750e-09  3.14358771e-09  4.58005107e-01  4.58005107e-01  3.16519615e-09  3.36434579e-09  4.58005107e-01  1.56985276e-07  1.12359999e-07  7.20000000e-01 
 7.30000000e-01  3.23960755e-09  3.14358771e-09  4.58005083e-01  4.58005083e-01  3.16519615e-09  3.36434579e-09  4.58005083e-01  1.56985262e-07  1.12359871e-07  7.30000000e-01 
 7.40000000e-01  3.23960756e-09  3.14358771e-09  4.58005130e-01  4.58005130e-01  3.16519615e-09  3.36434580e-09  4.58005130e-01  1.56985313e-07  1.12359878e-07  7.40000000e-01 
 7.50000000e-01  3.23960756e-09  3.14358771e-09  4.58005142e-01  4.58005142e-01  3.16519615e-09  3.36434580e-09  4.58005142e-01  1.56985329e-07  1.12359864e-07  7.50000000e-01 
 7.60000000e-01  3.23960755e-09  3.14358771e-09  4.58005095e-01  4.58005095e-01  3.16519615e-09  3.36434579e-09  4.58005095e-01  1.56985265e-07  1.12359707e-07  7.60000000e-01 
 7.70000000e-01  3.23960755e-09  3.14358771e-09  4.58005101e-01  4.58005101e-01  3.16519615e-09  3.36434579e-09  4.58005102e-01  1.56985274e-07  1.12359508e-07  7.70000000e-01 
 7.80000000e-01  3.23960750e-09  3.14358771e-09  4.58005093e-01  4.58005093e-01  3.16519615e-09  3.36434579e-09  4.58005093e-01  1.56985275e-07  1.12359409e-07  7.80000000e-01 
 7.90000000e-01  3.23960755e-09  3.14358771e-09  4.58005109e-01  4.58005109e-01  3.16519615e-09  3.36434579e-09  4.58005109e-01  1.56985290e-07  1.12359366e-07  7.90000000e-01 
 8.00000000e-01  3.23960756e-09  3.14358771e-09  4.58005125e-01  4.58005125e-01  3.16519615e-09  3.36434580e-09  4.58005125e-01  1.56985321e-07  1.12359459e-07  8.00000000e-01 
 8.10000000e-01  3.23960755e-09  3.14358771e-09  4.58005117e-01  4.58005117e-01  3.16519615e-09  3.36434579e-09  4.58005117e-01  1.56985310e-07  1.12359281e-07  8.10000000e-01 
 8.20000000e-01  3.23960755e-09  3.14358771e-09  4.58005095e-01  4.58005095e-01  3.16519615e-09  3.36434579e-09  4.58005095e-01  1.56985273e-07  1.12359082e-07  8.20000000e-01 
 8.30000000e-01  3.23960755e-09  3.14358771e-09  4.58005118e-01  4.58005118e-01  3.16519621e-09  3.36434580e-09  4.58005118e-01  1.56985290e-07  1.12358983e-07  8.30000000e-01 
 8.40000000e-01  3.23960750e-09  3.14358771e-09  4.58005111e-01  4.58005111e-01  3.16519614e-09  3.36434579e-09  4.58005111e-01  1.56985299e-07  1.12358990e-07  8.40000000e-01 
 8.50000000e-01  3.23960756e-09  3.14358771e-09  4.58005140e-01  4.58005140e-01  3.16519616e-09  3.36434580e-09  4.58005140e-01  1.56985348e-07  1.12359068e-07  8.50000000e-01 
 8.60000000e-01  3.23960755e-09  3.14358771e-09  4.58005102e-01  4.58005102e-01  3.16519615e-09  3.36434579e-09  4.58005102e-01  1.56985280e-07  1.12358848e-07  8.60000000e-01 
 8.70000000e-01  3.23960750e-09  3.14358771e-09  4.58005129e-01  4.58005129e-01  3.16519615e-09  3.36434580e-09  4.58005129e-01  1.56985326e-07  1.12358713e-07  8.70000000e-01 
 8.80000000e-01  3.23960750e-09  3.14358771e-09  4.58005128e-01  4.58005128e-01  3.16519615e-09  3.36434580e-09  4.58005128e-01  1.56985326e-07  1.12358713e-07  8.80000000e-01 
 8.90000000e-01  3.23960750e-09  3.14358771e-09  4.58005117e-01  4.58005117e-01  3.16519615e-09  3.36434579e-09  4.58005117e-01  1.56985318e-07  1.12358542e-07  8.90000000e-01 
 9.00000000e-01  3.23960756e-09  3.14358771e-09  4.58005126e-01  4.58005126e-01  3.16519615e-09  3.36434580e-09  4.58005126e-01  1.56985314e-07  1.12358521e-07  9.00000000e-01 
 9.10000000e-01  3.23960755e-09  3.14358771e-09  4.58005103e-01  4.58005103e-01  3.16519615e-09  3.36434579e-09  4.58005104e-01  1.56985284e-07  1.12358407e-07  9.10000000e-01 
 9.20000000e-01  3.23960755e-09  3.14358771e-09  4.58005120e-01  4.58005120e-01  3.16519615e-09  3.36434580e-09  4.58005120e-01  1.56985311e-07  1.12358400e-07  9.20000000e-01 
 9.30000000e-01  3.23960755e-09  3.14358771e-09  4.58005118e-01  4.58005118e-01  3.16519621e-09  3.36434580e-09  4.58005118e-01  1.56985307e-07  1.12358286e-07  9.30000000e-01 
 9.40000000e-01  3.23960755e-09  3.14358771e-09  4.58005104e-01  4.58005104e-01  3.16519614e-09  3.36434579e-09  4.58005104e-01  1.56985292e-07  1.12358229e-07  9.40000000e-01 
 9.50000000e-01  3.23960755e-09  3.14358771e-09  4.58005108e-01  4.58005108e-01  3.16519616e-09  3.36434579e-09  4.58005109e-01  1.56985296e-07  1.12358094e-07  9.50000000e-01 
 9.60000000e-01  3.23960756e-09  3.14358771e-09  4.58005133e-01  4.58005133e-01  3.16519621e-09  3.36434580e-09  4.58005133e-01  1.56985337e-07  1.12358038e-07  9.60000000e-01 
 9.70000000e-01  3.23960756e-09  3.14358771e-09  4.58005123e-01  4.58005123e-01  3.16519614e-09  3.36434580e-09  4.58005123e-01  1.56985310e-07  1.12357988e-07  9.70000000e-01 
 9.80000000e-01  3.23960755e-09  3.14358771e-09  4.58005104e-01  4.58005104e-01  3.16519616e-09  3.36434579e-09  4.58005104e-01  1.56985298e-07  1.12357831e-07  9.80000000e-01 
 9.90000000e-01  3.23960755e-09  3.14358771e-09  4.58005121e-01  4.58005121e-01  3.16519615e-09  3.36434580e-09  4.58005121e-01  1.56985303e-07  1.12357675e-07  9.90000000e-01 
 1.00000000e+00  3.23960755e-09  3.14358771e-09  4.58005121e-01  4.58005122e-01  3.16519615e-09  3.36434580e-09  4.58005122e-01  1.56985317e-07  1.12357768e-07  1.00000000e+00 
 1.01000000e+00  3.23960750e-09  3.14358771e-09  4.58005114e-01  4.58005114e-01  3.16519615e-09  3.36434579e-09  4.58005114e-01  1.56985303e-07  1.12357533e-07  1.01000000e+00 
 1.02000000e+00  3.23960755e-09  3.14358771e-09  4.58005107e-01  4.58005108e-01  3.16519615e-09  3.36434579e-09  4.58005108e-01  1.56985294e-07  1.12357405e-07  1.02000000e+00 
 1.03000000e+00  3.23960756e-09  3.14358771e-09  4.58005138e-01  4.58005138e-01  3.16519615e-09  3.36434580e-09  4.58005138e-01  1.56985331e-07  1.12357426e-07  1.03000000e+00 
 1.04000000e+00  3.23960755e-09  3.14358771e-09  4.58005118e-01  4.58005118e-01  3.16519615e-09  3.36434580e-09  4.58005119e-01  1.56985309e-07  1.12357327e-07  1.04000000e+00 
 1.05000000e+00  3.23960755e-09  3.14358771e-09  4.58005106e-01  4.58005106e-01  3.16519615e-09  3.36434579e-09  4.58005106e-01  1.56985287e-07  1.12357100e-07  1.05000000e+00 
 1.06000000e+00  3.23960755e-09  3.14358771e-09  4.58005107e-01  4.58005107e-01  3.16519615e-09  3.36434579e-09  4.58005107e-01  1.56985293e-07  1.12357085e-07  1.06000000e+00 
 1.07000000e+00  3.23960755e-09  3.14358771e-09  4.58005100e-01  4.58005100e-01  3.16519615e-09  3.36434579e-09  4.58005101e-01  1.56985277e-07  1.12357078e-07  1.07000000e+00 
 1.08000000e+00  3.23960756e-09  3.14358771e-09  4.58005124e-01  4.58005124e-01  3.16519615e-09  3.36434580e-09  4.58005124e-01  1.56985305e-07  1.12356943e-07  1.08000000e+00 
 1.09000000e+00  3.23960755e-09  3.14358771e-09  4.58005103e-01  4.58005103e-01  3.16519615e-09  3.36434579e-09  4.58005103e-01  1.56985298e-07  1.12356894e-07  1.09000000e+00 
 1.10000000e+00  3.23960750e-09  3.14358771e-09  4.58005100e-01  4.58005100e-01  3.16519615e-09  3.36434579e-09  4.58005101e-01  1.56985286e-07  1.12356780e-07  1.10000000e+00 
