 v-sweep         v(b0)           v(b1)           v(b2)           v(b3)           v(b4)           v(b5)           v(b6)           i(vbias)        i(viout)        v(vout)        
 0.00000000e+00  3.27026685e-09  3.21746284e-09  3.09400915e-09  4.59894201e-01  3.32054055e-09  3.33776514e-09  4.59894201e-01  1.63861265e-07  1.16703341e-07  0.00000000e+00 
 1.00000000e-02  3.27026689e-09  3.21746287e-09  3.09400913e-09  4.59894220e-01  3.32054058e-09  3.33776517e-09  4.59894220e-01  1.63861292e-07  1.16703010e-07  1.00000000e-02 
 2.00000000e-02  3.27026689e-09  3.21746287e-09  3.09400913e-09  4.59894222e-01  3.32054051e-09  3.33776517e-09  4.59894222e-01  1.63861314e-07  1.16702672e-07  2.00000000e-02 
 3.00000000e-02  3.27026689e-09  3.21746287e-09  3.09400919e-09  4.59894211e-01  3.32054059e-09  3.33776517e-09  4.59894211e-01  1.63861281e-07  1.16702195e-07  3.00000000e-02 
 4.00000000e-02  3.27026688e-09  3.21746287e-09  3.09400917e-09  4.59894207e-01  3.32054057e-09  3.33776512e-09  4.59894207e-01  1.63861283e-07  1.16701725e-07  4.00000000e-02 
 5.00000000e-02  3.27026688e-09  3.21746287e-09  3.09400918e-09  4.59894201e-01  3.32054058e-09  3.33776511e-09  4.59894201e-01  1.63861279e-07  1.16701407e-07  5.00000000e-02 
 6.00000000e-02  3.27026689e-09  3.21746287e-09  3.09400918e-09  4.59894213e-01  3.32054052e-09  3.33776512e-09  4.59894213e-01  1.63861305e-07  1.16701148e-07  6.00000000e-02 
 7.00000000e-02  3.27026694e-09  3.21746287e-09  3.09400912e-09  4.59894213e-01  3.32054053e-09  3.33776517e-09  4.59894213e-01  1.63861304e-07  1.16700759e-07  7.00000000e-02 
 8.00000000e-02  3.27026689e-09  3.21746281e-09  3.09400914e-09  4.59894225e-01  3.32054058e-09  3.33776512e-09  4.59894225e-01  1.63861296e-07  1.16700535e-07  8.00000000e-02 
 9.00000000e-02  3.27026689e-09  3.21746288e-09  3.09400919e-09  4.59894237e-01  3.32054057e-09  3.33776512e-09  4.59894237e-01  1.63861323e-07  1.16700257e-07  9.00000000e-02 
 1.00000000e-01  3.27026688e-09  3.21746280e-09  3.09400917e-09  4.59894184e-01  3.32054058e-09  3.33776511e-09  4.59894184e-01  1.63861237e-07  1.16699876e-07  1.00000000e-01 
 1.10000000e-01  3.27026689e-09  3.21746282e-09  3.09400918e-09  4.59894221e-01  3.32054052e-09  3.33776517e-09  4.59894221e-01  1.63861292e-07  1.16699700e-07  1.10000000e-01 
 1.20000000e-01  3.27026689e-09  3.21746288e-09  3.09400918e-09  4.59894221e-01  3.32054053e-09  3.33776512e-09  4.59894221e-01  1.63861313e-07  1.16699494e-07  1.20000000e-01 
 1.30000000e-01  3.27026689e-09  3.21746286e-09  3.09400918e-09  4.59894217e-01  3.32054058e-09  3.33776512e-09  4.59894217e-01  1.63861290e-07  1.16699164e-07  1.30000000e-01 
 1.40000000e-01  3.27026689e-09  3.21746287e-09  3.09400918e-09  4.59894219e-01  3.32054057e-09  3.33776517e-09  4.59894219e-01  1.63861302e-07  1.16698921e-07  1.40000000e-01 
 1.50000000e-01  3.27026689e-09  3.21746281e-09  3.09400918e-09  4.59894214e-01  3.32054058e-09  3.33776512e-09  4.59894214e-01  1.63861296e-07  1.16698740e-07  1.50000000e-01 
 1.60000000e-01  3.27026689e-09  3.21746288e-09  3.09400918e-09  4.59894212e-01  3.32054052e-09  3.33776512e-09  4.59894212e-01  1.63861288e-07  1.16698459e-07  1.60000000e-01 
 1.70000000e-01  3.27026688e-09  3.21746286e-09  3.09400918e-09  4.59894207e-01  3.32054059e-09  3.33776517e-09  4.59894207e-01  1.63861286e-07  1.16698288e-07  1.70000000e-01 
 1.80000000e-01  3.27026689e-09  3.21746281e-09  3.09400918e-09  4.59894219e-01  3.32054057e-09  3.33776512e-09  4.59894219e-01  1.63861306e-07  1.16698097e-07  1.80000000e-01 
 1.90000000e-01  3.27026694e-09  3.21746288e-09  3.09400918e-09  4.59894222e-01  3.32054058e-09  3.33776512e-09  4.59894222e-01  1.63861301e-07  1.16697960e-07  1.90000000e-01 
 2.00000000e-01  3.27026689e-09  3.21746286e-09  3.09400918e-09  4.59894230e-01  3.32054058e-09  3.33776512e-09  4.59894230e-01  1.63861319e-07  1.16697761e-07  2.00000000e-01 
 2.10000000e-01  3.27026688e-09  3.21746281e-09  3.09400912e-09  4.59894199e-01  3.32054058e-09  3.33776517e-09  4.59894199e-01  1.63861270e-07  1.16697430e-07  2.10000000e-01 
 2.20000000e-01  3.27026688e-09  3.21746282e-09  3.09400919e-09  4.59894202e-01  3.32054058e-09  3.33776511e-09  4.59894202e-01  1.63861260e-07  1.16697443e-07  2.20000000e-01 
 2.30000000e-01  3.27026688e-09  3.21746287e-09  3.09400917e-09  4.59894194e-01  3.32054058e-09  3.33776511e-09  4.59894194e-01  1.63861264e-07  1.16697107e-07  2.30000000e-01 
 2.40000000e-01  3.27026689e-09  3.21746286e-09  3.09400918e-09  4.59894223e-01  3.32054058e-09  3.33776512e-09  4.59894223e-01  1.63861312e-07  1.16697196e-07  2.40000000e-01 
 2.50000000e-01  3.27026689e-09  3.21746287e-09  3.09400918e-09  4.59894215e-01  3.32054058e-09  3.33776517e-09  4.59894215e-01  1.63861304e-07  1.16696951e-07  2.50000000e-01 
 2.60000000e-01  3.27026689e-09  3.21746287e-09  3.09400918e-09  4.59894232e-01  3.32054058e-09  3.33776512e-09  4.59894232e-01  1.63861321e-07  1.16696807e-07  2.60000000e-01 
 2.70000000e-01  3.27026688e-09  3.21746281e-09  3.09400912e-09  4.59894204e-01  3.32054058e-09  3.33776511e-09  4.59894204e-01  1.63861283e-07  1.16696668e-07  2.70000000e-01 
 2.80000000e-01  3.27026694e-09  3.21746288e-09  3.09400914e-09  4.59894209e-01  3.32054052e-09  3.33776512e-09  4.59894209e-01  1.63861291e-07  1.16696471e-07  2.80000000e-01 
 2.90000000e-01  3.27026688e-09  3.21746286e-09  3.09400919e-09  4.59894208e-01  3.32054059e-09  3.33776517e-09  4.59894208e-01  1.63861287e-07  1.16696299e-07  2.90000000e-01 
 3.00000000e-01  3.27026689e-09  3.21746281e-09  3.09400918e-09  4.59894217e-01  3.32054057e-09  3.33776517e-09  4.59894217e-01  1.63861288e-07  1.16696224e-07  3.00000000e-01 
 3.10000000e-01  3.27026688e-09  3.21746282e-09  3.09400918e-09  4.59894205e-01  3.32054058e-09  3.33776511e-09  4.59894205e-01  1.63861279e-07  1.16696089e-07  3.10000000e-01 
 3.20000000e-01  3.27026689e-09  3.21746287e-09  3.09400918e-09  4.59894210e-01  3.32054052e-09  3.33776512e-09  4.59894210e-01  1.63861300e-07  1.16695908e-07  3.20000000e-01 
 3.30000000e-01  3.27026689e-09  3.21746286e-09  3.09400918e-09  4.59894215e-01  3.32054059e-09  3.33776512e-09  4.59894215e-01  1.63861312e-07  1.16695922e-07  3.30000000e-01 
 3.40000000e-01  3.27026694e-09  3.21746287e-09  3.09400918e-09  4.59894226e-01  3.32054057e-09  3.33776512e-09  4.59894226e-01  1.63861320e-07  1.16695794e-07  3.40000000e-01 
 3.50000000e-01  3.27026689e-09  3.21746281e-09  3.09400918e-09  4.59894212e-01  3.32054058e-09  3.33776517e-09  4.59894212e-01  1.63861287e-07  1.16695585e-07  3.50000000e-01 
 3.60000000e-01  3.27026688e-09  3.21746288e-09  3.09400918e-09  4.59894195e-01  3.32054052e-09  3.33776517e-09  4.59894195e-01  1.63861258e-07  1.16695400e-07  3.60000000e-01 
 3.70000000e-01  3.27026689e-09  3.21746281e-09  3.09400918e-09  4.59894210e-01  3.32054053e-09  3.33776517e-09  4.59894210e-01  1.63861289e-07  1.16695496e-07  3.70000000e-01 
 3.80000000e-01  3.27026694e-09  3.21746282e-09  3.09400918e-09  4.59894220e-01  3.32054053e-09  3.33776517e-09  4.59894220e-01  1.63861296e-07  1.16695340e-07  3.80000000e-01 
 3.90000000e-01  3.27026689e-09  3.21746282e-09  3.09400918e-09  4.59894215e-01  3.32054053e-09  3.33776517e-09  4.59894215e-01  1.63861301e-07  1.16695219e-07  3.90000000e-01 
 4.00000000e-01  3.27026688e-09  3.21746287e-09  3.09400918e-09  4.59894198e-01  3.32054058e-09  3.33776517e-09  4.59894198e-01  1.63861272e-07  1.16695126e-07  4.00000000e-01 
 4.10000000e-01  3.27026689e-09  3.21746286e-09  3.09400918e-09  4.59894226e-01  3.32054057e-09  3.33776517e-09  4.59894226e-01  1.63861312e-07  1.16695098e-07  4.10000000e-01 
 4.20000000e-01  3.27026689e-09  3.21746281e-09  3.09400918e-09  4.59894214e-01  3.32054058e-09  3.33776512e-09  4.59894214e-01  1.63861305e-07  1.16694991e-07  4.20000000e-01 
 4.30000000e-01  3.27026688e-09  3.21746282e-09  3.09400918e-09  4.59894196e-01  3.32054058e-09  3.33776517e-09  4.59894196e-01  1.63861271e-07  1.16694810e-07  4.30000000e-01 
 4.40000000e-01  3.27026689e-09  3.21746287e-09  3.09400912e-09  4.59894213e-01  3.32054052e-09  3.33776512e-09  4.59894213e-01  1.63861300e-07  1.16694874e-07  4.40000000e-01 
 4.50000000e-01  3.27026689e-09  3.21746281e-09  3.09400919e-09  4.59894213e-01  3.32054059e-09  3.33776512e-09  4.59894213e-01  1.63861288e-07  1.16694718e-07  4.50000000e-01 
 4.60000000e-01  3.27026689e-09  3.21746288e-09  3.09400918e-09  4.59894218e-01  3.32054057e-09  3.33776512e-09  4.59894218e-01  1.63861289e-07  1.16694554e-07  4.60000000e-01 
 4.70000000e-01  3.27026689e-09  3.21746286e-09  3.09400913e-09  4.59894232e-01  3.32054058e-09  3.33776512e-09  4.59894232e-01  1.63861328e-07  1.16694473e-07  4.70000000e-01 
 4.80000000e-01  3.27026694e-09  3.21746287e-09  3.09400919e-09  4.59894205e-01  3.32054058e-09  3.33776517e-09  4.59894205e-01  1.63861290e-07  1.16694320e-07  4.80000000e-01 
 4.90000000e-01  3.27026694e-09  3.21746287e-09  3.09400918e-09  4.59894213e-01  3.32054052e-09  3.33776512e-09  4.59894213e-01  1.63861290e-07  1.16694302e-07  4.90000000e-01 
 5.00000000e-01  3.27026688e-09  3.21746281e-09  3.09400918e-09  4.59894197e-01  3.32054059e-09  3.33776511e-09  4.59894197e-01  1.63861261e-07  1.16694270e-07  5.00000000e-01 
 5.10000000e-01  3.27026688e-09  3.21746282e-09  3.09400918e-09  4.59894197e-01  3.32054057e-09  3.33776511e-09  4.59894197e-01  1.63861282e-07  1.16694160e-07  5.10000000e-01 
 5.20000000e-01  3.27026689e-09  3.21746288e-09  3.09400912e-09  4.59894223e-01  3.32054052e-09  3.33776512e-09  4.59894223e-01  1.63861314e-07  1.16694110e-07  5.20000000e-01 
 5.30000000e-01  3.27026689e-09  3.21746286e-09  3.09400919e-09  4.59894228e-01  3.32054053e-09  3.33776517e-09  4.59894228e-01  1.63861318e-07  1.16694043e-07  5.30000000e-01 
 5.40000000e-01  3.27026694e-09  3.21746281e-09  3.09400918e-09  4.59894235e-01  3.32054053e-09  3.33776517e-09  4.59894235e-01  1.63861335e-07  1.16693940e-07  5.40000000e-01 
 5.50000000e-01  3.27026689e-09  3.21746288e-09  3.09400918e-09  4.59894213e-01  3.32054058e-09  3.33776517e-09  4.59894213e-01  1.63861295e-07  1.16693847e-07  5.50000000e-01 
 5.60000000e-01  3.27026689e-09  3.21746286e-09  3.09400918e-09  4.59894218e-01  3.32054051e-09  3.33776517e-09  4.59894218e-01  1.63861296e-07  1.16693805e-07  5.60000000e-01 
 5.70000000e-01  3.27026689e-09  3.21746281e-09  3.09400918e-09  4.59894231e-01  3.32054053e-09  3.33776517e-09  4.59894231e-01  1.63861322e-07  1.16693691e-07  5.70000000e-01 
 5.80000000e-01  3.27026694e-09  3.21746282e-09  3.09400918e-09  4.59894224e-01  3.32054053e-09  3.33776517e-09  4.59894224e-01  1.63861309e-07  1.16693649e-07  5.80000000e-01 
 5.90000000e-01  3.27026689e-09  3.21746288e-09  3.09400918e-09  4.59894224e-01  3.32054053e-09  3.33776517e-09  4.59894224e-01  1.63861316e-07  1.16693492e-07  5.90000000e-01 
 6.00000000e-01  3.27026689e-09  3.21746286e-09  3.09400912e-09  4.59894221e-01  3.32054058e-09  3.33776512e-09  4.59894221e-01  1.63861317e-07  1.16693435e-07  6.00000000e-01 
 6.10000000e-01  3.27026694e-09  3.21746287e-09  3.09400914e-09  4.59894215e-01  3.32054057e-09  3.33776512e-09  4.59894215e-01  1.63861302e-07  1.16693414e-07  6.10000000e-01 
 6.20000000e-01  3.27026694e-09  3.21746287e-09  3.09400919e-09  4.59894188e-01  3.32054058e-09  3.33776517e-09  4.59894188e-01  1.63861256e-07  1.16693101e-07  6.20000000e-01 
 6.30000000e-01  3.27026689e-09  3.21746287e-09  3.09400918e-09  4.59894219e-01  3.32054058e-09  3.33776517e-09  4.59894219e-01  1.63861298e-07  1.16693080e-07  6.30000000e-01 
 6.40000000e-01  3.27026689e-09  3.21746281e-09  3.09400912e-09  4.59894212e-01  3.32054058e-09  3.33776512e-09  4.59894212e-01  1.63861295e-07  1.16693180e-07  6.40000000e-01 
 6.50000000e-01  3.27026694e-09  3.21746288e-09  3.09400914e-09  4.59894211e-01  3.32054058e-09  3.33776512e-09  4.59894211e-01  1.63861296e-07  1.16692910e-07  6.50000000e-01 
 6.60000000e-01  3.27026689e-09  3.21746286e-09  3.09400913e-09  4.59894218e-01  3.32054058e-09  3.33776517e-09  4.59894218e-01  1.63861313e-07  1.16692995e-07  6.60000000e-01 
 6.70000000e-01  3.27026688e-09  3.21746287e-09  3.09400919e-09  4.59894199e-01  3.32054052e-09  3.33776517e-09  4.59894199e-01  1.63861274e-07  1.16692867e-07  6.70000000e-01 
 6.80000000e-01  3.27026689e-09  3.21746281e-09  3.09400918e-09  4.59894227e-01  3.32054059e-09  3.33776517e-09  4.59894227e-01  1.63861323e-07  1.16692867e-07  6.80000000e-01 
 6.90000000e-01  3.27026688e-09  3.21746288e-09  3.09400918e-09  4.59894205e-01  3.32054057e-09  3.33776517e-09  4.59894205e-01  1.63861278e-07  1.16692647e-07  6.90000000e-01 
 7.00000000e-01  3.27026689e-09  3.21746286e-09  3.09400918e-09  4.59894210e-01  3.32054052e-09  3.33776512e-09  4.59894210e-01  1.63861300e-07  1.16692647e-07  7.00000000e-01 
 7.10000000e-01  3.27026689e-09  3.21746287e-09  3.09400918e-09  4.59894212e-01  3.32054053e-09  3.33776512e-09  4.59894212e-01  1.63861294e-07  1.16692568e-07  7.10000000e-01 
 7.20000000e-01  3.27026694e-09  3.21746287e-09  3.09400918e-09  4.59894230e-01  3.32054058e-09  3.33776517e-09  4.59894230e-01  1.63861316e-07  1.16692540e-07  7.20000000e-01 
 7.30000000e-01  3.27026694e-09  3.21746287e-09  3.09400918e-09  4.59894248e-01  3.32054057e-09  3.33776518e-09  4.59894248e-01  1.63861346e-07  1.16692526e-07  7.30000000e-01 
 7.40000000e-01  3.27026689e-09  3.21746287e-09  3.09400918e-09  4.59894212e-01  3.32054058e-09  3.33776517e-09  4.59894212e-01  1.63861290e-07  1.16692320e-07  7.40000000e-01 
 7.50000000e-01  3.27026689e-09  3.21746287e-09  3.09400912e-09  4.59894217e-01  3.32054052e-09  3.33776517e-09  4.59894217e-01  1.63861303e-07  1.16692249e-07  7.50000000e-01 
 7.60000000e-01  3.27026689e-09  3.21746281e-09  3.09400919e-09  4.59894213e-01  3.32054059e-09  3.33776517e-09  4.59894213e-01  1.63861291e-07  1.16692128e-07  7.60000000e-01 
 7.70000000e-01  3.27026689e-09  3.21746288e-09  3.09400918e-09  4.59894223e-01  3.32054057e-09  3.33776512e-09  4.59894223e-01  1.63861296e-07  1.16692085e-07  7.70000000e-01 
 7.80000000e-01  3.27026689e-09  3.21746286e-09  3.09400918e-09  4.59894230e-01  3.32054058e-09  3.33776517e-09  4.59894230e-01  1.63861322e-07  1.16692057e-07  7.80000000e-01 
 7.90000000e-01  3.27026688e-09  3.21746287e-09  3.09400912e-09  4.59894209e-01  3.32054058e-09  3.33776517e-09  4.59894209e-01  1.63861278e-07  1.16691801e-07  7.90000000e-01 
 8.00000000e-01  3.27026689e-09  3.21746287e-09  3.09400914e-09  4.59894217e-01  3.32054058e-09  3.33776517e-09  4.59894217e-01  1.63861297e-07  1.16691773e-07  8.00000000e-01 
 8.10000000e-01  3.27026689e-09  3.21746287e-09  3.09400919e-09  4.59894216e-01  3.32054058e-09  3.33776512e-09  4.59894216e-01  1.63861310e-07  1.16691744e-07  8.10000000e-01 
 8.20000000e-01  3.27026694e-09  3.21746281e-09  3.09400918e-09  4.59894223e-01  3.32054052e-09  3.33776517e-09  4.59894223e-01  1.63861312e-07  1.16691595e-07  8.20000000e-01 
 8.30000000e-01  3.27026694e-09  3.21746282e-09  3.09400918e-09  4.59894210e-01  3.32054059e-09  3.33776517e-09  4.59894210e-01  1.63861286e-07  1.16691524e-07  8.30000000e-01 
 8.40000000e-01  3.27026688e-09  3.21746287e-09  3.09400918e-09  4.59894203e-01  3.32054057e-09  3.33776511e-09  4.59894203e-01  1.63861283e-07  1.16691318e-07  8.40000000e-01 
 8.50000000e-01  3.27026689e-09  3.21746286e-09  3.09400913e-09  4.59894227e-01  3.32054058e-09  3.33776517e-09  4.59894227e-01  1.63861304e-07  1.16691517e-07  8.50000000e-01 
 8.60000000e-01  3.27026688e-09  3.21746281e-09  3.09400919e-09  4.59894200e-01  3.32054058e-09  3.33776517e-09  4.59894200e-01  1.63861273e-07  1.16691318e-07  8.60000000e-01 
 8.70000000e-01  3.27026689e-09  3.21746282e-09  3.09400918e-09  4.59894217e-01  3.32054052e-09  3.33776512e-09  4.59894217e-01  1.63861288e-07  1.16691183e-07  8.70000000e-01 
 8.80000000e-01  3.27026694e-09  3.21746282e-09  3.09400918e-09  4.59894230e-01  3.32054059e-09  3.33776512e-09  4.59894230e-01  1.63861314e-07  1.16691119e-07  8.80000000e-01 
 8.90000000e-01  3.27026689e-09  3.21746288e-09  3.09400918e-09  4.59894233e-01  3.32054057e-09  3.33776512e-09  4.59894233e-01  1.63861308e-07  1.16691083e-07  8.90000000e-01 
 9.00000000e-01  3.27026688e-09  3.21746286e-09  3.09400918e-09  4.59894205e-01  3.32054058e-09  3.33776517e-09  4.59894205e-01  1.63861284e-07  1.16690835e-07  9.00000000e-01 
 9.10000000e-01  3.27026689e-09  3.21746287e-09  3.09400912e-09  4.59894221e-01  3.32054058e-09  3.33776512e-09  4.59894221e-01  1.63861313e-07  1.16690735e-07  9.10000000e-01 
 9.20000000e-01  3.27026689e-09  3.21746281e-09  3.09400919e-09  4.59894231e-01  3.32054052e-09  3.33776517e-09  4.59894231e-01  1.63861318e-07  1.16690785e-07  9.20000000e-01 
 9.30000000e-01  3.27026689e-09  3.21746282e-09  3.09400917e-09  4.59894212e-01  3.32054059e-09  3.33776517e-09  4.59894212e-01  1.63861287e-07  1.16690707e-07  9.30000000e-01 
 9.40000000e-01  3.27026688e-09  3.21746287e-09  3.09400918e-09  4.59894182e-01  3.32054051e-09  3.33776517e-09  4.59894182e-01  1.63861235e-07  1.16690515e-07  9.40000000e-01 
 9.50000000e-01  3.27026689e-09  3.21746286e-09  3.09400918e-09  4.59894224e-01  3.32054059e-09  3.33776517e-09  4.59894224e-01  1.63861308e-07  1.16690444e-07  9.50000000e-01 
 9.60000000e-01  3.27026688e-09  3.21746287e-09  3.09400918e-09  4.59894196e-01  3.32054057e-09  3.33776517e-09  4.59894196e-01  1.63861257e-07  1.16690387e-07  9.60000000e-01 
 9.70000000e-01  3.27026688e-09  3.21746281e-09  3.09400918e-09  4.59894200e-01  3.32054058e-09  3.33776517e-09  4.59894200e-01  1.63861279e-07  1.16690245e-07  9.70000000e-01 
 9.80000000e-01  3.27026689e-09  3.21746282e-09  3.09400918e-09  4.59894220e-01  3.32054052e-09  3.33776517e-09  4.59894220e-01  1.63861301e-07  1.16690302e-07  9.80000000e-01 
 9.90000000e-01  3.27026688e-09  3.21746287e-09  3.09400918e-09  4.59894207e-01  3.32054053e-09  3.33776512e-09  4.59894207e-01  1.63861292e-07  1.16690124e-07  9.90000000e-01 
 1.00000000e+00  3.27026688e-09  3.21746286e-09  3.09400918e-09  4.59894200e-01  3.32054058e-09  3.33776517e-09  4.59894200e-01  1.63861280e-07  1.16689897e-07  1.00000000e+00 
 1.01000000e+00  3.27026688e-09  3.21746287e-09  3.09400918e-09  4.59894207e-01  3.32054057e-09  3.33776512e-09  4.59894207e-01  1.63861294e-07  1.16689868e-07  1.01000000e+00 
 1.02000000e+00  3.27026688e-09  3.21746287e-09  3.09400918e-09  4.59894202e-01  3.32054058e-09  3.33776511e-09  4.59894202e-01  1.63861277e-07  1.16689819e-07  1.02000000e+00 
 1.03000000e+00  3.27026689e-09  3.21746287e-09  3.09400918e-09  4.59894212e-01  3.32054058e-09  3.33776517e-09  4.59894212e-01  1.63861300e-07  1.16689691e-07  1.03000000e+00 
 1.04000000e+00  3.27026689e-09  3.21746287e-09  3.09400918e-09  4.59894233e-01  3.32054052e-09  3.33776517e-09  4.59894233e-01  1.63861317e-07  1.16689570e-07  1.04000000e+00 
 1.05000000e+00  3.27026689e-09  3.21746287e-09  3.09400912e-09  4.59894211e-01  3.32054053e-09  3.33776517e-09  4.59894211e-01  1.63861298e-07  1.16689591e-07  1.05000000e+00 
 1.06000000e+00  3.27026689e-09  3.21746287e-09  3.09400919e-09  4.59894213e-01  3.32054053e-09  3.33776517e-09  4.59894213e-01  1.63861289e-07  1.16689463e-07  1.06000000e+00 
 1.07000000e+00  3.27026688e-09  3.21746287e-09  3.09400912e-09  4.59894199e-01  3.32054052e-09  3.33776517e-09  4.59894199e-01  1.63861273e-07  1.16689314e-07  1.07000000e+00 
 1.08000000e+00  3.27026688e-09  3.21746287e-09  3.09400919e-09  4.59894201e-01  3.32054053e-09  3.33776511e-09  4.59894201e-01  1.63861280e-07  1.16689158e-07  1.08000000e+00 
 1.09000000e+00  3.27026689e-09  3.21746287e-09  3.09400918e-09  4.59894227e-01  3.32054058e-09  3.33776517e-09  4.59894227e-01  1.63861312e-07  1.16689215e-07  1.09000000e+00 
 1.10000000e+00  3.27026689e-09  3.21746287e-09  3.09400913e-09  4.59894228e-01  3.32054057e-09  3.33776512e-09  4.59894228e-01  1.63861313e-07  1.16689201e-07  1.10000000e+00 
