 v-sweep         v(b0)           v(b1)           v(b2)           v(b3)           v(b4)           v(b5)           v(b6)           i(vbias)        i(viout)        v(vout)        
 0.00000000e+00  4.56827992e-01  3.29800136e-09  4.56827992e-01  3.50332037e-09  3.33970842e-09  3.21783937e-09  3.13281333e-09  1.57439914e-07  7.84794614e-09  0.00000000e+00 
 1.00000000e-02  4.56827992e-01  3.29800140e-09  4.56827992e-01  3.50332040e-09  3.33970839e-09  3.21783940e-09  3.13281330e-09  1.57439904e-07  7.84756082e-09  1.00000000e-02 
 2.00000000e-02  4.56827975e-01  3.29800140e-09  4.56827975e-01  3.50332040e-09  3.33970839e-09  3.21783935e-09  3.13281330e-09  1.57439888e-07  7.84720000e-09  2.00000000e-02 
 3.00000000e-02  4.56828003e-01  3.29800140e-09  4.56828003e-01  3.50332040e-09  3.33970839e-09  3.21783940e-09  3.13281330e-09  1.57439926e-07  7.84680632e-09  3.00000000e-02 
 4.00000000e-02  4.56827968e-01  3.29800140e-09  4.56827968e-01  3.50332040e-09  3.33970839e-09  3.21783935e-09  3.13281330e-09  1.57439868e-07  7.84646126e-09  4.00000000e-02 
 5.00000000e-02  4.56827982e-01  3.29800140e-09  4.56827982e-01  3.50332040e-09  3.33970839e-09  3.21783935e-09  3.13281336e-09  1.57439897e-07  7.84619658e-09  5.00000000e-02 
 6.00000000e-02  4.56827967e-01  3.29800140e-09  4.56827967e-01  3.50332040e-09  3.33970839e-09  3.21783935e-09  3.13281330e-09  1.57439862e-07  7.84582443e-09  6.00000000e-02 
 7.00000000e-02  4.56827989e-01  3.29800134e-09  4.56827989e-01  3.50332040e-09  3.33970839e-09  3.21783935e-09  3.13281330e-09  1.57439899e-07  7.84553622e-09  7.00000000e-02 
 8.00000000e-02  4.56828011e-01  3.29800134e-09  4.56828011e-01  3.50332040e-09  3.33970845e-09  3.21783935e-09  3.13281330e-09  1.57439937e-07  7.84532794e-09  8.00000000e-02 
 9.00000000e-02  4.56827993e-01  3.29800140e-09  4.56827993e-01  3.50332040e-09  3.33970838e-09  3.21783940e-09  3.13281330e-09  1.57439911e-07  7.84499576e-09  9.00000000e-02 
 1.00000000e-01  4.56828006e-01  3.29800140e-09  4.56828007e-01  3.50332040e-09  3.33970840e-09  3.21783935e-09  3.13281330e-09  1.57439929e-07  7.84462539e-09  1.00000000e-01 
 1.10000000e-01  4.56827994e-01  3.29800140e-09  4.56827994e-01  3.50332040e-09  3.33970839e-09  3.21783940e-09  3.13281330e-09  1.57439899e-07  7.84447884e-09  1.10000000e-01 
 1.20000000e-01  4.56827967e-01  3.29800140e-09  4.56827968e-01  3.50332040e-09  3.33970839e-09  3.21783935e-09  3.13281330e-09  1.57439876e-07  7.84429499e-09  1.20000000e-01 
 1.30000000e-01  4.56827960e-01  3.29800139e-09  4.56827960e-01  3.50332040e-09  3.33970839e-09  3.21783934e-09  3.13281336e-09  1.57439854e-07  7.84403831e-09  1.30000000e-01 
 1.40000000e-01  4.56827998e-01  3.29800140e-09  4.56827998e-01  3.50332040e-09  3.33970839e-09  3.21783935e-09  3.13281330e-09  1.57439908e-07  7.84385712e-09  1.40000000e-01 
 1.50000000e-01  4.56827961e-01  3.29800140e-09  4.56827961e-01  3.50332040e-09  3.33970839e-09  3.21783940e-09  3.13281330e-09  1.57439859e-07  7.84361021e-09  1.50000000e-01 
 1.60000000e-01  4.56827999e-01  3.29800134e-09  4.56827999e-01  3.50332040e-09  3.33970839e-09  3.21783940e-09  3.13281330e-09  1.57439911e-07  7.84334553e-09  1.60000000e-01 
 1.70000000e-01  4.56827983e-01  3.29800140e-09  4.56827983e-01  3.50332040e-09  3.33970839e-09  3.21783935e-09  3.13281330e-09  1.57439885e-07  7.84329579e-09  1.70000000e-01 
 1.80000000e-01  4.56827975e-01  3.29800134e-09  4.56827975e-01  3.50332040e-09  3.33970839e-09  3.21783940e-09  3.13281330e-09  1.57439872e-07  7.84318033e-09  1.80000000e-01 
 1.90000000e-01  4.56827964e-01  3.29800140e-09  4.56827964e-01  3.50332040e-09  3.33970839e-09  3.21783935e-09  3.13281330e-09  1.57439864e-07  7.84294052e-09  1.90000000e-01 
 2.00000000e-01  4.56827997e-01  3.29800134e-09  4.56827997e-01  3.50332040e-09  3.33970839e-09  3.21783940e-09  3.13281330e-09  1.57439911e-07  7.84274512e-09  2.00000000e-01 
 2.10000000e-01  4.56827982e-01  3.29800140e-09  4.56827982e-01  3.50332040e-09  3.33970839e-09  3.21783940e-09  3.13281330e-09  1.57439880e-07  7.84268650e-09  2.10000000e-01 
 2.20000000e-01  4.56827983e-01  3.29800140e-09  4.56827983e-01  3.50332040e-09  3.33970839e-09  3.21783940e-09  3.13281330e-09  1.57439895e-07  7.84257814e-09  2.20000000e-01 
 2.30000000e-01  4.56827999e-01  3.29800140e-09  4.56827999e-01  3.50332040e-09  3.33970839e-09  3.21783935e-09  3.13281336e-09  1.57439930e-07  7.84248044e-09  2.30000000e-01 
 2.40000000e-01  4.56827989e-01  3.29800140e-09  4.56827989e-01  3.50332040e-09  3.33970839e-09  3.21783935e-09  3.13281330e-09  1.57439906e-07  7.84226195e-09  2.40000000e-01 
 2.50000000e-01  4.56827963e-01  3.29800140e-09  4.56827963e-01  3.50332040e-09  3.33970839e-09  3.21783934e-09  3.13281330e-09  1.57439877e-07  7.84222465e-09  2.50000000e-01 
 2.60000000e-01  4.56827994e-01  3.29800140e-09  4.56827994e-01  3.50332040e-09  3.33970839e-09  3.21783935e-09  3.13281330e-09  1.57439903e-07  7.84204346e-09  2.60000000e-01 
 2.70000000e-01  4.56827979e-01  3.29800140e-09  4.56827979e-01  3.50332040e-09  3.33970839e-09  3.21783935e-09  3.13281330e-09  1.57439891e-07  7.84193510e-09  2.70000000e-01 
 2.80000000e-01  4.56827994e-01  3.29800140e-09  4.56827994e-01  3.50332040e-09  3.33970839e-09  3.21783940e-09  3.13281330e-09  1.57439904e-07  7.84197596e-09  2.80000000e-01 
 2.90000000e-01  4.56827994e-01  3.29800140e-09  4.56827994e-01  3.50332035e-09  3.33970845e-09  3.21783935e-09  3.13281330e-09  1.57439909e-07  7.84169885e-09  2.90000000e-01 
 3.00000000e-01  4.56827985e-01  3.29800140e-09  4.56827985e-01  3.50332040e-09  3.33970838e-09  3.21783940e-09  3.13281330e-09  1.57439902e-07  7.84166332e-09  3.00000000e-01 
 3.10000000e-01  4.56827989e-01  3.29800140e-09  4.56827989e-01  3.50332040e-09  3.33970840e-09  3.21783935e-09  3.13281330e-09  1.57439912e-07  7.84158161e-09  3.10000000e-01 
 3.20000000e-01  4.56827983e-01  3.29800140e-09  4.56827983e-01  3.50332040e-09  3.33970839e-09  3.21783935e-09  3.13281330e-09  1.57439912e-07  7.84138976e-09  3.20000000e-01 
 3.30000000e-01  4.56827982e-01  3.29800140e-09  4.56827982e-01  3.50332040e-09  3.33970839e-09  3.21783940e-09  3.13281330e-09  1.57439902e-07  7.84131515e-09  3.30000000e-01 
 3.40000000e-01  4.56827998e-01  3.29800140e-09  4.56827998e-01  3.50332035e-09  3.33970839e-09  3.21783940e-09  3.13281330e-09  1.57439922e-07  7.84112331e-09  3.40000000e-01 
 3.50000000e-01  4.56827994e-01  3.29800140e-09  4.56827994e-01  3.50332040e-09  3.33970839e-09  3.21783940e-09  3.13281330e-09  1.57439904e-07  7.84123344e-09  3.50000000e-01 
 3.60000000e-01  4.56827980e-01  3.29800140e-09  4.56827980e-01  3.50332040e-09  3.33970839e-09  3.21783940e-09  3.13281330e-09  1.57439901e-07  7.84098830e-09  3.60000000e-01 
 3.70000000e-01  4.56827955e-01  3.29800139e-09  4.56827956e-01  3.50332040e-09  3.33970839e-09  3.21783940e-09  3.13281330e-09  1.57439846e-07  7.84105225e-09  3.70000000e-01 
 3.80000000e-01  4.56827996e-01  3.29800140e-09  4.56827996e-01  3.50332040e-09  3.33970839e-09  3.21783940e-09  3.13281336e-09  1.57439909e-07  7.84099541e-09  3.80000000e-01 
 3.90000000e-01  4.56827972e-01  3.29800140e-09  4.56827972e-01  3.50332040e-09  3.33970839e-09  3.21783935e-09  3.13281330e-09  1.57439868e-07  7.84095633e-09  3.90000000e-01 
 4.00000000e-01  4.56827983e-01  3.29800140e-09  4.56827984e-01  3.50332040e-09  3.33970845e-09  3.21783940e-09  3.13281336e-09  1.57439898e-07  7.84077514e-09  4.00000000e-01 
 4.10000000e-01  4.56827965e-01  3.29800134e-09  4.56827965e-01  3.50332040e-09  3.33970844e-09  3.21783935e-09  3.13281330e-09  1.57439866e-07  7.84066501e-09  4.10000000e-01 
 4.20000000e-01  4.56827997e-01  3.29800140e-09  4.56827997e-01  3.50332040e-09  3.33970840e-09  3.21783935e-09  3.13281330e-09  1.57439919e-07  7.84074317e-09  4.20000000e-01 
 4.30000000e-01  4.56827979e-01  3.29800140e-09  4.56827979e-01  3.50332040e-09  3.33970839e-09  3.21783935e-09  3.13281336e-09  1.57439875e-07  7.84057974e-09  4.30000000e-01 
 4.40000000e-01  4.56827989e-01  3.29800140e-09  4.56827989e-01  3.50332040e-09  3.33970839e-09  3.21783940e-09  3.13281330e-09  1.57439898e-07  7.84041987e-09  4.40000000e-01 
 4.50000000e-01  4.56827993e-01  3.29800140e-09  4.56827993e-01  3.50332040e-09  3.33970839e-09  3.21783940e-09  3.13281330e-09  1.57439919e-07  7.84046961e-09  4.50000000e-01 
 4.60000000e-01  4.56827974e-01  3.29800140e-09  4.56827974e-01  3.50332040e-09  3.33970839e-09  3.21783940e-09  3.13281330e-09  1.57439884e-07  7.84035237e-09  4.60000000e-01 
 4.70000000e-01  4.56827978e-01  3.29800140e-09  4.56827978e-01  3.50332040e-09  3.33970839e-09  3.21783940e-09  3.13281330e-09  1.57439889e-07  7.84032750e-09  4.70000000e-01 
 4.80000000e-01  4.56827977e-01  3.29800140e-09  4.56827977e-01  3.50332040e-09  3.33970839e-09  3.21783935e-09  3.13281330e-09  1.57439896e-07  7.84039500e-09  4.80000000e-01 
 4.90000000e-01  4.56827995e-01  3.29800140e-09  4.56827995e-01  3.50332040e-09  3.33970839e-09  3.21783935e-09  3.13281330e-09  1.57439923e-07  7.84023868e-09  4.90000000e-01 
 5.00000000e-01  4.56827965e-01  3.29800140e-09  4.56827965e-01  3.50332040e-09  3.33970839e-09  3.21783940e-09  3.13281336e-09  1.57439859e-07  7.84026355e-09  5.00000000e-01 
 5.10000000e-01  4.56827959e-01  3.29800139e-09  4.56827959e-01  3.50332040e-09  3.33970839e-09  3.21783934e-09  3.13281330e-09  1.57439853e-07  7.84010368e-09  5.10000000e-01 
 5.20000000e-01  4.56827974e-01  3.29800140e-09  4.56827974e-01  3.50332040e-09  3.33970839e-09  3.21783935e-09  3.13281330e-09  1.57439873e-07  7.84014986e-09  5.20000000e-01 
 5.30000000e-01  4.56827979e-01  3.29800140e-09  4.56827979e-01  3.50332040e-09  3.33970839e-09  3.21783940e-09  3.13281330e-09  1.57439898e-07  7.83993315e-09  5.30000000e-01 
 5.40000000e-01  4.56827975e-01  3.29800140e-09  4.56827975e-01  3.50332034e-09  3.33970839e-09  3.21783940e-09  3.13281330e-09  1.57439887e-07  7.83995802e-09  5.40000000e-01 
 5.50000000e-01  4.56828017e-01  3.29800134e-09  4.56828017e-01  3.50332040e-09  3.33970840e-09  3.21783935e-09  3.13281330e-09  1.57439942e-07  7.83989051e-09  5.50000000e-01 
 5.60000000e-01  4.56828001e-01  3.29800140e-09  4.56828001e-01  3.50332040e-09  3.33970839e-09  3.21783935e-09  3.13281330e-09  1.57439914e-07  7.83979104e-09  5.60000000e-01 
 5.70000000e-01  4.56827971e-01  3.29800140e-09  4.56827971e-01  3.50332040e-09  3.33970839e-09  3.21783935e-09  3.13281330e-09  1.57439870e-07  7.83984433e-09  5.70000000e-01 
 5.80000000e-01  4.56827989e-01  3.29800140e-09  4.56827989e-01  3.50332040e-09  3.33970839e-09  3.21783935e-09  3.13281330e-09  1.57439899e-07  7.83972354e-09  5.80000000e-01 
 5.90000000e-01  4.56827980e-01  3.29800140e-09  4.56827980e-01  3.50332040e-09  3.33970839e-09  3.21783935e-09  3.13281330e-09  1.57439895e-07  7.83967380e-09  5.90000000e-01 
 6.00000000e-01  4.56827963e-01  3.29800140e-09  4.56827963e-01  3.50332040e-09  3.33970839e-09  3.21783940e-09  3.13281330e-09  1.57439873e-07  7.83963117e-09  6.00000000e-01 
 6.10000000e-01  4.56827990e-01  3.29800140e-09  4.56827990e-01  3.50332040e-09  3.33970839e-09  3.21783935e-09  3.13281330e-09  1.57439899e-07  7.83965959e-09  6.10000000e-01 
 6.20000000e-01  4.56827971e-01  3.29800140e-09  4.56827971e-01  3.50332034e-09  3.33970839e-09  3.21783935e-09  3.13281330e-09  1.57439879e-07  7.83944643e-09  6.20000000e-01 
 6.30000000e-01  4.56827982e-01  3.29800140e-09  4.56827982e-01  3.50332040e-09  3.33970839e-09  3.21783935e-09  3.13281330e-09  1.57439875e-07  7.83936827e-09  6.30000000e-01 
 6.40000000e-01  4.56827975e-01  3.29800140e-09  4.56827975e-01  3.50332040e-09  3.33970839e-09  3.21783940e-09  3.13281330e-09  1.57439902e-07  7.83945353e-09  6.40000000e-01 
 6.50000000e-01  4.56827974e-01  3.29800140e-09  4.56827975e-01  3.50332034e-09  3.33970839e-09  3.21783935e-09  3.13281330e-09  1.57439887e-07  7.83940379e-09  6.50000000e-01 
 6.60000000e-01  4.56827974e-01  3.29800134e-09  4.56827974e-01  3.50332040e-09  3.33970839e-09  3.21783940e-09  3.13281330e-09  1.57439882e-07  7.83925458e-09  6.60000000e-01 
 6.70000000e-01  4.56827994e-01  3.29800140e-09  4.56827994e-01  3.50332040e-09  3.33970839e-09  3.21783935e-09  3.13281330e-09  1.57439916e-07  7.83941090e-09  6.70000000e-01 
 6.80000000e-01  4.56827990e-01  3.29800140e-09  4.56827990e-01  3.50332035e-09  3.33970839e-09  3.21783935e-09  3.13281330e-09  1.57439921e-07  7.83919774e-09  6.80000000e-01 
 6.90000000e-01  4.56827984e-01  3.29800140e-09  4.56827984e-01  3.50332040e-09  3.33970839e-09  3.21783940e-09  3.13281330e-09  1.57439913e-07  7.83921905e-09  6.90000000e-01 
 7.00000000e-01  4.56827969e-01  3.29800140e-09  4.56827969e-01  3.50332040e-09  3.33970839e-09  3.21783935e-09  3.13281330e-09  1.57439890e-07  7.83914800e-09  7.00000000e-01 
 7.10000000e-01  4.56827994e-01  3.29800140e-09  4.56827994e-01  3.50332040e-09  3.33970839e-09  3.21783940e-09  3.13281330e-09  1.57439907e-07  7.83902010e-09  7.10000000e-01 
 7.20000000e-01  4.56827983e-01  3.29800140e-09  4.56827983e-01  3.50332040e-09  3.33970839e-09  3.21783940e-09  3.13281330e-09  1.57439892e-07  7.83901299e-09  7.20000000e-01 
 7.30000000e-01  4.56827996e-01  3.29800140e-09  4.56827996e-01  3.50332040e-09  3.33970839e-09  3.21783935e-09  3.13281330e-09  1.57439925e-07  7.83896326e-09  7.30000000e-01 
 7.40000000e-01  4.56827949e-01  3.29800134e-09  4.56827949e-01  3.50332040e-09  3.33970845e-09  3.21783934e-09  3.13281330e-09  1.57439844e-07  7.83892062e-09  7.40000000e-01 
 7.50000000e-01  4.56827985e-01  3.29800140e-09  4.56827985e-01  3.50332040e-09  3.33970838e-09  3.21783940e-09  3.13281330e-09  1.57439877e-07  7.83879273e-09  7.50000000e-01 
 7.60000000e-01  4.56827975e-01  3.29800134e-09  4.56827975e-01  3.50332034e-09  3.33970840e-09  3.21783935e-09  3.13281330e-09  1.57439883e-07  7.83883536e-09  7.60000000e-01 
 7.70000000e-01  4.56827973e-01  3.29800140e-09  4.56827973e-01  3.50332040e-09  3.33970839e-09  3.21783940e-09  3.13281330e-09  1.57439883e-07  7.83881404e-09  7.70000000e-01 
 7.80000000e-01  4.56827956e-01  3.29800139e-09  4.56827956e-01  3.50332040e-09  3.33970839e-09  3.21783934e-09  3.13281330e-09  1.57439862e-07  7.83865772e-09  7.80000000e-01 
 7.90000000e-01  4.56827976e-01  3.29800140e-09  4.56827976e-01  3.50332040e-09  3.33970839e-09  3.21783935e-09  3.13281330e-09  1.57439883e-07  7.83875720e-09  7.90000000e-01 
 8.00000000e-01  4.56827992e-01  3.29800140e-09  4.56827992e-01  3.50332040e-09  3.33970839e-09  3.21783940e-09  3.13281336e-09  1.57439918e-07  7.83865062e-09  8.00000000e-01 
 8.10000000e-01  4.56828000e-01  3.29800140e-09  4.56828000e-01  3.50332040e-09  3.33970839e-09  3.21783935e-09  3.13281336e-09  1.57439908e-07  7.83861509e-09  8.10000000e-01 
 8.20000000e-01  4.56827983e-01  3.29800140e-09  4.56827983e-01  3.50332040e-09  3.33970839e-09  3.21783935e-09  3.13281330e-09  1.57439885e-07  7.83843745e-09  8.20000000e-01 
 8.30000000e-01  4.56827986e-01  3.29800140e-09  4.56827986e-01  3.50332040e-09  3.33970839e-09  3.21783935e-09  3.13281330e-09  1.57439888e-07  7.83840193e-09  8.30000000e-01 
 8.40000000e-01  4.56828004e-01  3.29800140e-09  4.56828004e-01  3.50332040e-09  3.33970839e-09  3.21783940e-09  3.13281330e-09  1.57439924e-07  7.83838772e-09  8.40000000e-01 
 8.50000000e-01  4.56827990e-01  3.29800140e-09  4.56827990e-01  3.50332040e-09  3.33970839e-09  3.21783940e-09  3.13281330e-09  1.57439895e-07  7.83839482e-09  8.50000000e-01 
 8.60000000e-01  4.56827982e-01  3.29800140e-09  4.56827982e-01  3.50332040e-09  3.33970839e-09  3.21783935e-09  3.13281330e-09  1.57439895e-07  7.83830245e-09  8.60000000e-01 
 8.70000000e-01  4.56827968e-01  3.29800140e-09  4.56827968e-01  3.50332040e-09  3.33970839e-09  3.21783935e-09  3.13281330e-09  1.57439891e-07  7.83811771e-09  8.70000000e-01 
 8.80000000e-01  4.56827992e-01  3.29800140e-09  4.56827992e-01  3.50332040e-09  3.33970845e-09  3.21783935e-09  3.13281336e-09  1.57439921e-07  7.83815324e-09  8.80000000e-01 
 8.90000000e-01  4.56828004e-01  3.29800140e-09  4.56828004e-01  3.50332040e-09  3.33970838e-09  3.21783935e-09  3.13281330e-09  1.57439924e-07  7.83813192e-09  8.90000000e-01 
 9.00000000e-01  4.56828000e-01  3.29800140e-09  4.56828000e-01  3.50332040e-09  3.33970840e-09  3.21783940e-09  3.13281330e-09  1.57439918e-07  7.83803955e-09  9.00000000e-01 
 9.10000000e-01  4.56827985e-01  3.29800140e-09  4.56827985e-01  3.50332040e-09  3.33970839e-09  3.21783935e-09  3.13281330e-09  1.57439909e-07  7.83807508e-09  9.10000000e-01 
 9.20000000e-01  4.56827956e-01  3.29800139e-09  4.56827956e-01  3.50332040e-09  3.33970839e-09  3.21783940e-09  3.13281330e-09  1.57439865e-07  7.83794007e-09  9.20000000e-01 
 9.30000000e-01  4.56827993e-01  3.29800140e-09  4.56827993e-01  3.50332040e-09  3.33970839e-09  3.21783935e-09  3.13281330e-09  1.57439904e-07  7.83797560e-09  9.30000000e-01 
 9.40000000e-01  4.56828006e-01  3.29800140e-09  4.56828006e-01  3.50332040e-09  3.33970839e-09  3.21783935e-09  3.13281330e-09  1.57439933e-07  7.83791876e-09  9.40000000e-01 
 9.50000000e-01  4.56827992e-01  3.29800140e-09  4.56827992e-01  3.50332040e-09  3.33970839e-09  3.21783940e-09  3.13281330e-09  1.57439902e-07  7.83780507e-09  9.50000000e-01 
 9.60000000e-01  4.56827981e-01  3.29800134e-09  4.56827981e-01  3.50332040e-09  3.33970839e-09  3.21783940e-09  3.13281330e-09  1.57439895e-07  7.83775533e-09  9.60000000e-01 
 9.70000000e-01  4.56828009e-01  3.29800140e-09  4.56828009e-01  3.50332040e-09  3.33970839e-09  3.21783940e-09  3.13281330e-09  1.57439940e-07  7.83776954e-09  9.70000000e-01 
 9.80000000e-01  4.56827988e-01  3.29800140e-09  4.56827988e-01  3.50332040e-09  3.33970839e-09  3.21783935e-09  3.13281330e-09  1.57439905e-07  7.83763454e-09  9.80000000e-01 
 9.90000000e-01  4.56827966e-01  3.29800140e-09  4.56827966e-01  3.50332040e-09  3.33970839e-09  3.21783940e-09  3.13281330e-09  1.57439868e-07  7.83755638e-09  9.90000000e-01 
 1.00000000e+00  4.56827974e-01  3.29800134e-09  4.56827974e-01  3.50332040e-09  3.33970839e-09  3.21783935e-09  3.13281330e-09  1.57439883e-07  7.83759191e-09  1.00000000e+00 
 1.01000000e+00  4.56827989e-01  3.29800140e-09  4.56827989e-01  3.50332040e-09  3.33970839e-09  3.21783935e-09  3.13281330e-09  1.57439915e-07  7.83753507e-09  1.01000000e+00 
 1.02000000e+00  4.56827977e-01  3.29800134e-09  4.56827977e-01  3.50332040e-09  3.33970839e-09  3.21783940e-09  3.13281330e-09  1.57439884e-07  7.83751375e-09  1.02000000e+00 
 1.03000000e+00  4.56827972e-01  3.29800140e-09  4.56827972e-01  3.50332034e-09  3.33970839e-09  3.21783940e-09  3.13281336e-09  1.57439871e-07  7.83744269e-09  1.03000000e+00 
 1.04000000e+00  4.56827987e-01  3.29800140e-09  4.56827987e-01  3.50332040e-09  3.33970839e-09  3.21783940e-09  3.13281330e-09  1.57439896e-07  7.83739296e-09  1.04000000e+00 
 1.05000000e+00  4.56827970e-01  3.29800140e-09  4.56827970e-01  3.50332040e-09  3.33970839e-09  3.21783935e-09  3.13281336e-09  1.57439863e-07  7.83728638e-09  1.05000000e+00 
 1.06000000e+00  4.56827997e-01  3.29800134e-09  4.56827997e-01  3.50332040e-09  3.33970839e-09  3.21783940e-09  3.13281330e-09  1.57439913e-07  7.83724374e-09  1.06000000e+00 
 1.07000000e+00  4.56828003e-01  3.29800140e-09  4.56828004e-01  3.50332040e-09  3.33970839e-09  3.21783940e-09  3.13281330e-09  1.57439926e-07  7.83729348e-09  1.07000000e+00 
 1.08000000e+00  4.56827977e-01  3.29800140e-09  4.56827977e-01  3.50332040e-09  3.33970839e-09  3.21783935e-09  3.13281330e-09  1.57439890e-07  7.83715848e-09  1.08000000e+00 
 1.09000000e+00  4.56827998e-01  3.29800140e-09  4.56827998e-01  3.50332040e-09  3.33970839e-09  3.21783935e-09  3.13281330e-09  1.57439909e-07  7.83711585e-09  1.09000000e+00 
 1.10000000e+00  4.56828008e-01  3.29800140e-09  4.56828008e-01  3.50332040e-09  3.33970839e-09  3.21783940e-09  3.13281330e-09  1.57439919e-07  7.83703058e-09  1.10000000e+00 
