 v-sweep         v(b0)           v(b1)           v(b2)           v(b3)           v(b4)           v(b5)           v(b6)           i(vbias)        i(viout)        v(vout)        
 0.00000000e+00  3.36844874e-09  3.30605466e-09  3.26102025e-09  3.45159044e-09  4.58255378e-01  3.52524731e-09  3.15050328e-09  1.59788017e-07  2.46959182e-08  0.00000000e+00 
 1.00000000e-02  3.36844878e-09  3.30605470e-09  3.26102023e-09  3.45159042e-09  4.58255398e-01  3.52524735e-09  3.15050326e-09  1.59788063e-07  2.46954919e-08  1.00000000e-02 
 2.00000000e-02  3.36844877e-09  3.30605469e-09  3.26102023e-09  3.45159041e-09  4.58255370e-01  3.52524729e-09  3.15050326e-09  1.59788027e-07  2.46951615e-08  2.00000000e-02 
 3.00000000e-02  3.36844878e-09  3.30605464e-09  3.26102023e-09  3.45159042e-09  4.58255411e-01  3.52524730e-09  3.15050320e-09  1.59788088e-07  2.46947776e-08  3.00000000e-02 
 4.00000000e-02  3.36844872e-09  3.30605470e-09  3.26102023e-09  3.45159042e-09  4.58255393e-01  3.52524735e-09  3.15050326e-09  1.59788048e-07  2.46945220e-08  4.00000000e-02 
 5.00000000e-02  3.36844873e-09  3.30605464e-09  3.26102023e-09  3.45159042e-09  4.58255410e-01  3.52524736e-09  3.15050326e-09  1.59788089e-07  2.46940899e-08  5.00000000e-02 
 6.00000000e-02  3.36844878e-09  3.30605464e-09  3.26102023e-09  3.45159042e-09  4.58255397e-01  3.52524735e-09  3.15050320e-09  1.59788049e-07  2.46938487e-08  6.00000000e-02 
 7.00000000e-02  3.36844877e-09  3.30605470e-09  3.26102023e-09  3.45159042e-09  4.58255384e-01  3.52524730e-09  3.15050320e-09  1.59788043e-07  2.46934322e-08  7.00000000e-02 
 8.00000000e-02  3.36844878e-09  3.30605464e-09  3.26102023e-09  3.45159042e-09  4.58255407e-01  3.52524730e-09  3.15050320e-09  1.59788072e-07  2.46932235e-08  8.00000000e-02 
 9.00000000e-02  3.36844878e-09  3.30605464e-09  3.26102023e-09  3.45159042e-09  4.58255403e-01  3.52524735e-09  3.15050326e-09  1.59788059e-07  2.46930307e-08  9.00000000e-02 
 1.00000000e-01  3.36844878e-09  3.30605464e-09  3.26102029e-09  3.45159042e-09  4.58255391e-01  3.52524730e-09  3.15050320e-09  1.59788032e-07  2.46927474e-08  1.00000000e-01 
 1.10000000e-01  3.36844872e-09  3.30605470e-09  3.26102023e-09  3.45159042e-09  4.58255391e-01  3.52524735e-09  3.15050320e-09  1.59788044e-07  2.46924445e-08  1.10000000e-01 
 1.20000000e-01  3.36844873e-09  3.30605464e-09  3.26102023e-09  3.45159042e-09  4.58255393e-01  3.52524730e-09  3.15050326e-09  1.59788044e-07  2.46923095e-08  1.20000000e-01 
 1.30000000e-01  3.36844873e-09  3.30605464e-09  3.26102023e-09  3.45159042e-09  4.58255399e-01  3.52524730e-09  3.15050320e-09  1.59788056e-07  2.46920848e-08  1.30000000e-01 
 1.40000000e-01  3.36844873e-09  3.30605470e-09  3.26102023e-09  3.45159047e-09  4.58255382e-01  3.52524730e-09  3.15050326e-09  1.59788036e-07  2.46917446e-08  1.40000000e-01 
 1.50000000e-01  3.36844878e-09  3.30605470e-09  3.26102023e-09  3.45159042e-09  4.58255384e-01  3.52524730e-09  3.15050326e-09  1.59788040e-07  2.46915448e-08  1.50000000e-01 
 1.60000000e-01  3.36844877e-09  3.30605464e-09  3.26102029e-09  3.45159042e-09  4.58255387e-01  3.52524730e-09  3.15050320e-09  1.59788035e-07  2.46913814e-08  1.60000000e-01 
 1.70000000e-01  3.36844872e-09  3.30605470e-09  3.26102023e-09  3.45159042e-09  4.58255397e-01  3.52524730e-09  3.15050320e-09  1.59788049e-07  2.46912499e-08  1.70000000e-01 
 1.80000000e-01  3.36844879e-09  3.30605464e-09  3.26102023e-09  3.45159042e-09  4.58255402e-01  3.52524730e-09  3.15050326e-09  1.59788067e-07  2.46909355e-08  1.80000000e-01 
 1.90000000e-01  3.36844877e-09  3.30605470e-09  3.26102023e-09  3.45159042e-09  4.58255399e-01  3.52524730e-09  3.15050320e-09  1.59788057e-07  2.46909249e-08  1.90000000e-01 
 2.00000000e-01  3.36844872e-09  3.30605464e-09  3.26102029e-09  3.45159042e-09  4.58255398e-01  3.52524730e-09  3.15050326e-09  1.59788055e-07  2.46908236e-08  2.00000000e-01 
 2.10000000e-01  3.36844879e-09  3.30605464e-09  3.26102023e-09  3.45159042e-09  4.58255393e-01  3.52524730e-09  3.15050320e-09  1.59788044e-07  2.46904932e-08  2.10000000e-01 
 2.20000000e-01  3.36844877e-09  3.30605470e-09  3.26102023e-09  3.45159042e-09  4.58255402e-01  3.52524730e-09  3.15050326e-09  1.59788057e-07  2.46904897e-08  2.20000000e-01 
 2.30000000e-01  3.36844872e-09  3.30605470e-09  3.26102023e-09  3.45159042e-09  4.58255398e-01  3.52524730e-09  3.15050326e-09  1.59788060e-07  2.46901877e-08  2.30000000e-01 
 2.40000000e-01  3.36844879e-09  3.30605464e-09  3.26102023e-09  3.45159042e-09  4.58255397e-01  3.52524730e-09  3.15050320e-09  1.59788050e-07  2.46902303e-08  2.40000000e-01 
 2.50000000e-01  3.36844877e-09  3.30605464e-09  3.26102023e-09  3.45159042e-09  4.58255405e-01  3.52524730e-09  3.15050320e-09  1.59788065e-07  2.46901504e-08  2.50000000e-01 
 2.60000000e-01  3.36844878e-09  3.30605470e-09  3.26102023e-09  3.45159042e-09  4.58255390e-01  3.52524730e-09  3.15050326e-09  1.59788047e-07  2.46898626e-08  2.60000000e-01 
 2.70000000e-01  3.36844872e-09  3.30605470e-09  3.26102023e-09  3.45159042e-09  4.58255402e-01  3.52524730e-09  3.15050326e-09  1.59788054e-07  2.46899017e-08  2.70000000e-01 
 2.80000000e-01  3.36844873e-09  3.30605470e-09  3.26102023e-09  3.45159042e-09  4.58255403e-01  3.52524730e-09  3.15050320e-09  1.59788075e-07  2.46897187e-08  2.80000000e-01 
 2.90000000e-01  3.36844878e-09  3.30605470e-09  3.26102023e-09  3.45159042e-09  4.58255379e-01  3.52524730e-09  3.15050320e-09  1.59788028e-07  2.46894913e-08  2.90000000e-01 
 3.00000000e-01  3.36844877e-09  3.30605464e-09  3.26102029e-09  3.45159042e-09  4.58255407e-01  3.52524730e-09  3.15050326e-09  1.59788079e-07  2.46895411e-08  3.00000000e-01 
 3.10000000e-01  3.36844872e-09  3.30605470e-09  3.26102023e-09  3.45159042e-09  4.58255397e-01  3.52524730e-09  3.15050326e-09  1.59788060e-07  2.46894167e-08  3.10000000e-01 
 3.20000000e-01  3.36844873e-09  3.30605470e-09  3.26102023e-09  3.45159042e-09  4.58255382e-01  3.52524735e-09  3.15050326e-09  1.59788035e-07  2.46891965e-08  3.20000000e-01 
 3.30000000e-01  3.36844873e-09  3.30605464e-09  3.26102023e-09  3.45159042e-09  4.58255385e-01  3.52524730e-09  3.15050326e-09  1.59788057e-07  2.46890828e-08  3.30000000e-01 
 3.40000000e-01  3.36844878e-09  3.30605464e-09  3.26102023e-09  3.45159042e-09  4.58255393e-01  3.52524730e-09  3.15050320e-09  1.59788043e-07  2.46891396e-08  3.40000000e-01 
 3.50000000e-01  3.36844877e-09  3.30605470e-09  3.26102023e-09  3.45159042e-09  4.58255390e-01  3.52524730e-09  3.15050326e-09  1.59788034e-07  2.46890046e-08  3.50000000e-01 
 3.60000000e-01  3.36844872e-09  3.30605464e-09  3.26102023e-09  3.45159042e-09  4.58255402e-01  3.52524730e-09  3.15050320e-09  1.59788069e-07  2.46888554e-08  3.60000000e-01 
 3.70000000e-01  3.36844873e-09  3.30605464e-09  3.26102029e-09  3.45159042e-09  4.58255393e-01  3.52524730e-09  3.15050326e-09  1.59788044e-07  2.46887666e-08  3.70000000e-01 
 3.80000000e-01  3.36844873e-09  3.30605470e-09  3.26102023e-09  3.45159042e-09  4.58255421e-01  3.52524730e-09  3.15050320e-09  1.59788099e-07  2.46889265e-08  3.80000000e-01 
 3.90000000e-01  3.36844878e-09  3.30605470e-09  3.26102023e-09  3.45159042e-09  4.58255412e-01  3.52524730e-09  3.15050326e-09  1.59788063e-07  2.46886103e-08  3.90000000e-01 
 4.00000000e-01  3.36844871e-09  3.30605470e-09  3.26102023e-09  3.45159042e-09  4.58255396e-01  3.52524730e-09  3.15050326e-09  1.59788051e-07  2.46885925e-08  4.00000000e-01 
 4.10000000e-01  3.36844879e-09  3.30605470e-09  3.26102023e-09  3.45159042e-09  4.58255392e-01  3.52524730e-09  3.15050326e-09  1.59788044e-07  2.46885072e-08  4.10000000e-01 
 4.20000000e-01  3.36844877e-09  3.30605470e-09  3.26102023e-09  3.45159042e-09  4.58255406e-01  3.52524730e-09  3.15050320e-09  1.59788076e-07  2.46885072e-08  4.20000000e-01 
 4.30000000e-01  3.36844872e-09  3.30605470e-09  3.26102023e-09  3.45159042e-09  4.58255391e-01  3.52524730e-09  3.15050320e-09  1.59788050e-07  2.46884433e-08  4.30000000e-01 
 4.40000000e-01  3.36844873e-09  3.30605470e-09  3.26102029e-09  3.45159042e-09  4.58255401e-01  3.52524730e-09  3.15050320e-09  1.59788045e-07  2.46882266e-08  4.40000000e-01 
 4.50000000e-01  3.36844873e-09  3.30605464e-09  3.26102023e-09  3.45159042e-09  4.58255394e-01  3.52524730e-09  3.15050326e-09  1.59788037e-07  2.46883047e-08  4.50000000e-01 
 4.60000000e-01  3.36844878e-09  3.30605464e-09  3.26102023e-09  3.45159042e-09  4.58255397e-01  3.52524730e-09  3.15050326e-09  1.59788062e-07  2.46881413e-08  4.60000000e-01 
 4.70000000e-01  3.36844871e-09  3.30605470e-09  3.26102029e-09  3.45159042e-09  4.58255398e-01  3.52524730e-09  3.15050320e-09  1.59788055e-07  2.46880951e-08  4.70000000e-01 
 4.80000000e-01  3.36844873e-09  3.30605464e-09  3.26102029e-09  3.45159042e-09  4.58255406e-01  3.52524730e-09  3.15050326e-09  1.59788074e-07  2.46881164e-08  4.80000000e-01 
 4.90000000e-01  3.36844878e-09  3.30605470e-09  3.26102023e-09  3.45159042e-09  4.58255384e-01  3.52524730e-09  3.15050326e-09  1.59788032e-07  2.46879104e-08  4.90000000e-01 
 5.00000000e-01  3.36844871e-09  3.30605464e-09  3.26102029e-09  3.45159042e-09  4.58255378e-01  3.52524730e-09  3.15050326e-09  1.59788021e-07  2.46879175e-08  5.00000000e-01 
 5.10000000e-01  3.36844873e-09  3.30605471e-09  3.26102023e-09  3.45159042e-09  4.58255406e-01  3.52524735e-09  3.15050320e-09  1.59788062e-07  2.46878145e-08  5.10000000e-01 
 5.20000000e-01  3.36844873e-09  3.30605463e-09  3.26102029e-09  3.45159041e-09  4.58255375e-01  3.52524730e-09  3.15050326e-09  1.59788020e-07  2.46877967e-08  5.20000000e-01 
 5.30000000e-01  3.36844873e-09  3.30605466e-09  3.26102029e-09  3.45159042e-09  4.58255415e-01  3.52524730e-09  3.15050326e-09  1.59788083e-07  2.46879246e-08  5.30000000e-01 
 5.40000000e-01  3.36844873e-09  3.30605464e-09  3.26102023e-09  3.45159042e-09  4.58255396e-01  3.52524730e-09  3.15050326e-09  1.59788057e-07  2.46878180e-08  5.40000000e-01 
 5.50000000e-01  3.36844873e-09  3.30605472e-09  3.26102029e-09  3.45159042e-09  4.58255425e-01  3.52524730e-09  3.15050320e-09  1.59788099e-07  2.46877185e-08  5.50000000e-01 
 5.60000000e-01  3.36844873e-09  3.30605463e-09  3.26102023e-09  3.45159042e-09  4.58255378e-01  3.52524730e-09  3.15050320e-09  1.59788025e-07  2.46876404e-08  5.60000000e-01 
 5.70000000e-01  3.36844873e-09  3.30605466e-09  3.26102023e-09  3.45159042e-09  4.58255405e-01  3.52524735e-09  3.15050326e-09  1.59788083e-07  2.46876972e-08  5.70000000e-01 
 5.80000000e-01  3.36844878e-09  3.30605469e-09  3.26102023e-09  3.45159042e-09  4.58255383e-01  3.52524730e-09  3.15050326e-09  1.59788040e-07  2.46875302e-08  5.80000000e-01 
 5.90000000e-01  3.36844877e-09  3.30605470e-09  3.26102023e-09  3.45159042e-09  4.58255411e-01  3.52524730e-09  3.15050320e-09  1.59788083e-07  2.46875302e-08  5.90000000e-01 
 6.00000000e-01  3.36844878e-09  3.30605470e-09  3.26102023e-09  3.45159042e-09  4.58255398e-01  3.52524730e-09  3.15050326e-09  1.59788073e-07  2.46875587e-08  6.00000000e-01 
 6.10000000e-01  3.36844872e-09  3.30605464e-09  3.26102023e-09  3.45159042e-09  4.58255383e-01  3.52524730e-09  3.15050326e-09  1.59788040e-07  2.46874521e-08  6.10000000e-01 
 6.20000000e-01  3.36844873e-09  3.30605470e-09  3.26102023e-09  3.45159042e-09  4.58255405e-01  3.52524730e-09  3.15050320e-09  1.59788078e-07  2.46873384e-08  6.20000000e-01 
 6.30000000e-01  3.36844878e-09  3.30605470e-09  3.26102023e-09  3.45159042e-09  4.58255400e-01  3.52524730e-09  3.15050320e-09  1.59788048e-07  2.46872816e-08  6.30000000e-01 
 6.40000000e-01  3.36844871e-09  3.30605470e-09  3.26102023e-09  3.45159042e-09  4.58255401e-01  3.52524730e-09  3.15050320e-09  1.59788051e-07  2.46873668e-08  6.40000000e-01 
 6.50000000e-01  3.36844879e-09  3.30605464e-09  3.26102029e-09  3.45159042e-09  4.58255397e-01  3.52524730e-09  3.15050320e-09  1.59788050e-07  2.46871394e-08  6.50000000e-01 
 6.60000000e-01  3.36844877e-09  3.30605464e-09  3.26102029e-09  3.45159042e-09  4.58255405e-01  3.52524730e-09  3.15050326e-09  1.59788065e-07  2.46870897e-08  6.60000000e-01 
 6.70000000e-01  3.36844878e-09  3.30605464e-09  3.26102023e-09  3.45159042e-09  4.58255392e-01  3.52524730e-09  3.15050326e-09  1.59788056e-07  2.46871892e-08  6.70000000e-01 
 6.80000000e-01  3.36844872e-09  3.30605464e-09  3.26102023e-09  3.45159042e-09  4.58255417e-01  3.52524730e-09  3.15050320e-09  1.59788079e-07  2.46869476e-08  6.80000000e-01 
 6.90000000e-01  3.36844873e-09  3.30605470e-09  3.26102023e-09  3.45159042e-09  4.58255410e-01  3.52524736e-09  3.15050326e-09  1.59788078e-07  2.46869334e-08  6.90000000e-01 
 7.00000000e-01  3.36844878e-09  3.30605464e-09  3.26102023e-09  3.45159042e-09  4.58255390e-01  3.52524730e-09  3.15050326e-09  1.59788056e-07  2.46868694e-08  7.00000000e-01 
 7.10000000e-01  3.36844877e-09  3.30605470e-09  3.26102023e-09  3.45159042e-09  4.58255405e-01  3.52524730e-09  3.15050320e-09  1.59788055e-07  2.46868126e-08  7.10000000e-01 
 7.20000000e-01  3.36844872e-09  3.30605470e-09  3.26102029e-09  3.45159047e-09  4.58255404e-01  3.52524735e-09  3.15050326e-09  1.59788070e-07  2.46868055e-08  7.20000000e-01 
 7.30000000e-01  3.36844879e-09  3.30605470e-09  3.26102023e-09  3.45159042e-09  4.58255396e-01  3.52524735e-09  3.15050326e-09  1.59788054e-07  2.46867486e-08  7.30000000e-01 
 7.40000000e-01  3.36844877e-09  3.30605470e-09  3.26102023e-09  3.45159042e-09  4.58255379e-01  3.52524730e-09  3.15050320e-09  1.59788026e-07  2.46866350e-08  7.40000000e-01 
 7.50000000e-01  3.36844872e-09  3.30605470e-09  3.26102023e-09  3.45159042e-09  4.58255403e-01  3.52524730e-09  3.15050320e-09  1.59788059e-07  2.46866847e-08  7.50000000e-01 
 7.60000000e-01  3.36844873e-09  3.30605464e-09  3.26102023e-09  3.45159042e-09  4.58255407e-01  3.52524730e-09  3.15050320e-09  1.59788071e-07  2.46866918e-08  7.60000000e-01 
 7.70000000e-01  3.36844873e-09  3.30605470e-09  3.26102023e-09  3.45159042e-09  4.58255392e-01  3.52524730e-09  3.15050320e-09  1.59788049e-07  2.46865994e-08  7.70000000e-01 
 7.80000000e-01  3.36844873e-09  3.30605470e-09  3.26102023e-09  3.45159047e-09  4.58255395e-01  3.52524730e-09  3.15050320e-09  1.59788046e-07  2.46865426e-08  7.80000000e-01 
 7.90000000e-01  3.36844873e-09  3.30605470e-09  3.26102023e-09  3.45159047e-09  4.58255402e-01  3.52524730e-09  3.15050320e-09  1.59788066e-07  2.46864431e-08  7.90000000e-01 
 8.00000000e-01  3.36844873e-09  3.30605470e-09  3.26102023e-09  3.45159042e-09  4.58255388e-01  3.52524735e-09  3.15050326e-09  1.59788054e-07  2.46862655e-08  8.00000000e-01 
 8.10000000e-01  3.36844878e-09  3.30605464e-09  3.26102023e-09  3.45159042e-09  4.58255383e-01  3.52524730e-09  3.15050320e-09  1.59788026e-07  2.46862442e-08  8.10000000e-01 
 8.20000000e-01  3.36844871e-09  3.30605464e-09  3.26102029e-09  3.45159042e-09  4.58255396e-01  3.52524730e-09  3.15050326e-09  1.59788053e-07  2.46863223e-08  8.20000000e-01 
 8.30000000e-01  3.36844873e-09  3.30605470e-09  3.26102023e-09  3.45159047e-09  4.58255394e-01  3.52524730e-09  3.15050320e-09  1.59788055e-07  2.46862228e-08  8.30000000e-01 
 8.40000000e-01  3.36844873e-09  3.30605464e-09  3.26102023e-09  3.45159042e-09  4.58255409e-01  3.52524730e-09  3.15050320e-09  1.59788073e-07  2.46862513e-08  8.40000000e-01 
 8.50000000e-01  3.36844873e-09  3.30605464e-09  3.26102029e-09  3.45159042e-09  4.58255378e-01  3.52524735e-09  3.15050326e-09  1.59788022e-07  2.46860807e-08  8.50000000e-01 
 8.60000000e-01  3.36844878e-09  3.30605465e-09  3.26102023e-09  3.45159042e-09  4.58255404e-01  3.52524730e-09  3.15050320e-09  1.59788072e-07  2.46860381e-08  8.60000000e-01 
 8.70000000e-01  3.36844877e-09  3.30605463e-09  3.26102029e-09  3.45159041e-09  4.58255373e-01  3.52524730e-09  3.15050320e-09  1.59788020e-07  2.46858605e-08  8.70000000e-01 
 8.80000000e-01  3.36844872e-09  3.30605465e-09  3.26102023e-09  3.45159042e-09  4.58255403e-01  3.52524730e-09  3.15050326e-09  1.59788072e-07  2.46859528e-08  8.80000000e-01 
 8.90000000e-01  3.36844873e-09  3.30605463e-09  3.26102023e-09  3.45159047e-09  4.58255378e-01  3.52524730e-09  3.15050320e-09  1.59788035e-07  2.46858463e-08  8.90000000e-01 
 9.00000000e-01  3.36844873e-09  3.30605465e-09  3.26102029e-09  3.45159042e-09  4.58255389e-01  3.52524735e-09  3.15050326e-09  1.59788042e-07  2.46859173e-08  9.00000000e-01 
 9.10000000e-01  3.36844873e-09  3.30605469e-09  3.26102023e-09  3.45159042e-09  4.58255388e-01  3.52524730e-09  3.15050320e-09  1.59788047e-07  2.46858960e-08  9.10000000e-01 
 9.20000000e-01  3.36844878e-09  3.30605470e-09  3.26102023e-09  3.45159042e-09  4.58255397e-01  3.52524730e-09  3.15050326e-09  1.59788053e-07  2.46858605e-08  9.20000000e-01 
 9.30000000e-01  3.36844877e-09  3.30605470e-09  3.26102029e-09  3.45159042e-09  4.58255402e-01  3.52524730e-09  3.15050326e-09  1.59788057e-07  2.46857397e-08  9.30000000e-01 
 9.40000000e-01  3.36844872e-09  3.30605470e-09  3.26102023e-09  3.45159042e-09  4.58255395e-01  3.52524730e-09  3.15050320e-09  1.59788061e-07  2.46857041e-08  9.40000000e-01 
 9.50000000e-01  3.36844873e-09  3.30605470e-09  3.26102023e-09  3.45159042e-09  4.58255387e-01  3.52524730e-09  3.15050326e-09  1.59788042e-07  2.46855265e-08  9.50000000e-01 
 9.60000000e-01  3.36844878e-09  3.30605464e-09  3.26102029e-09  3.45159042e-09  4.58255389e-01  3.52524730e-09  3.15050320e-09  1.59788050e-07  2.46855194e-08  9.60000000e-01 
 9.70000000e-01  3.36844871e-09  3.30605470e-09  3.26102029e-09  3.45159042e-09  4.58255385e-01  3.52524730e-09  3.15050326e-09  1.59788047e-07  2.46854768e-08  9.70000000e-01 
 9.80000000e-01  3.36844873e-09  3.30605464e-09  3.26102029e-09  3.45159041e-09  4.58255373e-01  3.52524729e-09  3.15050326e-09  1.59788015e-07  2.46856047e-08  9.80000000e-01 
 9.90000000e-01  3.36844878e-09  3.30605465e-09  3.26102023e-09  3.45159042e-09  4.58255400e-01  3.52524730e-09  3.15050320e-09  1.59788056e-07  2.46853062e-08  9.90000000e-01 
 1.00000000e+00  3.36844871e-09  3.30605469e-09  3.26102023e-09  3.45159042e-09  4.58255384e-01  3.52524730e-09  3.15050320e-09  1.59788040e-07  2.46852636e-08  1.00000000e+00 
 1.01000000e+00  3.36844873e-09  3.30605470e-09  3.26102023e-09  3.45159042e-09  4.58255389e-01  3.52524735e-09  3.15050320e-09  1.59788044e-07  2.46852210e-08  1.01000000e+00 
 1.02000000e+00  3.36844873e-09  3.30605464e-09  3.26102023e-09  3.45159042e-09  4.58255387e-01  3.52524730e-09  3.15050326e-09  1.59788043e-07  2.46852707e-08  1.02000000e+00 
 1.03000000e+00  3.36844873e-09  3.30605470e-09  3.26102023e-09  3.45159042e-09  4.58255401e-01  3.52524730e-09  3.15050326e-09  1.59788055e-07  2.46850362e-08  1.03000000e+00 
 1.04000000e+00  3.36844873e-09  3.30605464e-09  3.26102023e-09  3.45159042e-09  4.58255397e-01  3.52524730e-09  3.15050320e-09  1.59788052e-07  2.46850789e-08  1.04000000e+00 
 1.05000000e+00  3.36844878e-09  3.30605470e-09  3.26102029e-09  3.45159042e-09  4.58255403e-01  3.52524735e-09  3.15050326e-09  1.59788064e-07  2.46850647e-08  1.05000000e+00 
 1.06000000e+00  3.36844877e-09  3.30605464e-09  3.26102023e-09  3.45159042e-09  4.58255407e-01  3.52524730e-09  3.15050320e-09  1.59788075e-07  2.46849936e-08  1.06000000e+00 
 1.07000000e+00  3.36844878e-09  3.30605470e-09  3.26102029e-09  3.45159042e-09  4.58255391e-01  3.52524730e-09  3.15050320e-09  1.59788057e-07  2.46849226e-08  1.07000000e+00 
 1.08000000e+00  3.36844872e-09  3.30605464e-09  3.26102023e-09  3.45159042e-09  4.58255413e-01  3.52524730e-09  3.15050320e-09  1.59788083e-07  2.46847662e-08  1.08000000e+00 
 1.09000000e+00  3.36844873e-09  3.30605464e-09  3.26102023e-09  3.45159042e-09  4.58255398e-01  3.52524730e-09  3.15050326e-09  1.59788046e-07  2.46848231e-08  1.09000000e+00 
 1.10000000e+00  3.36844873e-09  3.30605464e-09  3.26102023e-09  3.45159041e-09  4.58255376e-01  3.52524735e-09  3.15050320e-09  1.59788023e-07  2.46848231e-08  1.10000000e+00 
