 v-sweep         v(b0)           v(b1)           v(b2)           v(b3)           v(b4)           v(b5)           v(b6)           i(vbias)        i(viout)        v(vout)        
 0.00000000e+00  4.57026395e-01  3.21516735e-09  4.57026395e-01  4.57026395e-01  4.57026395e-01  3.43394829e-09  3.24272190e-09  1.56649616e-07  4.29260269e-08  0.00000000e+00 
 1.00000000e-02  4.57026414e-01  3.21516739e-09  4.57026414e-01  4.57026414e-01  4.57026414e-01  3.43394833e-09  3.24272188e-09  1.56649655e-07  4.29256622e-08  1.00000000e-02 
 2.00000000e-02  4.57026379e-01  3.21516738e-09  4.57026379e-01  4.57026379e-01  4.57026379e-01  3.43394832e-09  3.24272194e-09  1.56649583e-07  4.29251779e-08  2.00000000e-02 
 3.00000000e-02  4.57026384e-01  3.21516740e-09  4.57026384e-01  4.57026384e-01  4.57026384e-01  3.43394834e-09  3.24272194e-09  1.56649593e-07  4.29248896e-08  3.00000000e-02 
 4.00000000e-02  4.57026401e-01  3.21516738e-09  4.57026401e-01  4.57026401e-01  4.57026401e-01  3.43394832e-09  3.24272188e-09  1.56649610e-07  4.29244840e-08  4.00000000e-02 
 5.00000000e-02  4.57026386e-01  3.21516740e-09  4.57026386e-01  4.57026386e-01  4.57026386e-01  3.43394828e-09  3.24272194e-09  1.56649598e-07  4.29242029e-08  5.00000000e-02 
 6.00000000e-02  4.57026368e-01  3.21516744e-09  4.57026368e-01  4.57026368e-01  4.57026368e-01  3.43394833e-09  3.24272194e-09  1.56649571e-07  4.29238174e-08  6.00000000e-02 
 7.00000000e-02  4.57026381e-01  3.21516739e-09  4.57026381e-01  4.57026381e-01  4.57026381e-01  3.43394832e-09  3.24272188e-09  1.56649598e-07  4.29235532e-08  7.00000000e-02 
 8.00000000e-02  4.57026388e-01  3.21516740e-09  4.57026388e-01  4.57026388e-01  4.57026388e-01  3.43394828e-09  3.24272188e-09  1.56649602e-07  4.29232587e-08  8.00000000e-02 
 9.00000000e-02  4.57026367e-01  3.21516738e-09  4.57026367e-01  4.57026367e-01  4.57026367e-01  3.43394833e-09  3.24272194e-09  1.56649561e-07  4.29230287e-08  9.00000000e-02 
 1.00000000e-01  4.57026386e-01  3.21516740e-09  4.57026386e-01  4.57026386e-01  4.57026386e-01  3.43394832e-09  3.24272194e-09  1.56649589e-07  4.29226459e-08  1.00000000e-01 
 1.10000000e-01  4.57026387e-01  3.21516738e-09  4.57026387e-01  4.57026387e-01  4.57026387e-01  3.43394834e-09  3.24272194e-09  1.56649590e-07  4.29224984e-08  1.10000000e-01 
 1.20000000e-01  4.57026387e-01  3.21516740e-09  4.57026387e-01  4.57026387e-01  4.57026387e-01  3.43394832e-09  3.24272194e-09  1.56649612e-07  4.29222382e-08  1.20000000e-01 
 1.30000000e-01  4.57026397e-01  3.21516738e-09  4.57026397e-01  4.57026397e-01  4.57026397e-01  3.43394834e-09  3.24272194e-09  1.56649604e-07  4.29220828e-08  1.30000000e-01 
 1.40000000e-01  4.57026378e-01  3.21516734e-09  4.57026378e-01  4.57026378e-01  4.57026378e-01  3.43394832e-09  3.24272188e-09  1.56649582e-07  4.29217932e-08  1.40000000e-01 
 1.50000000e-01  4.57026385e-01  3.21516739e-09  4.57026385e-01  4.57026385e-01  4.57026385e-01  3.43394834e-09  3.24272194e-09  1.56649603e-07  4.29216183e-08  1.50000000e-01 
 1.60000000e-01  4.57026381e-01  3.21516738e-09  4.57026381e-01  4.57026382e-01  4.57026381e-01  3.43394832e-09  3.24272188e-09  1.56649593e-07  4.29214371e-08  1.60000000e-01 
 1.70000000e-01  4.57026375e-01  3.21516740e-09  4.57026375e-01  4.57026375e-01  4.57026375e-01  3.43394828e-09  3.24272194e-09  1.56649582e-07  4.29211049e-08  1.70000000e-01 
 1.80000000e-01  4.57026386e-01  3.21516738e-09  4.57026386e-01  4.57026386e-01  4.57026386e-01  3.43394833e-09  3.24272194e-09  1.56649602e-07  4.29210765e-08  1.80000000e-01 
 1.90000000e-01  4.57026391e-01  3.21516734e-09  4.57026391e-01  4.57026391e-01  4.57026391e-01  3.43394832e-09  3.24272188e-09  1.56649611e-07  4.29209965e-08  1.90000000e-01 
 2.00000000e-01  4.57026386e-01  3.21516739e-09  4.57026386e-01  4.57026386e-01  4.57026386e-01  3.43394828e-09  3.24272194e-09  1.56649595e-07  4.29207354e-08  2.00000000e-01 
 2.10000000e-01  4.57026400e-01  3.21516738e-09  4.57026400e-01  4.57026401e-01  4.57026400e-01  3.43394833e-09  3.24272188e-09  1.56649619e-07  4.29205578e-08  2.10000000e-01 
 2.20000000e-01  4.57026381e-01  3.21516740e-09  4.57026381e-01  4.57026381e-01  4.57026381e-01  3.43394832e-09  3.24272194e-09  1.56649592e-07  4.29203446e-08  2.20000000e-01 
 2.30000000e-01  4.57026384e-01  3.21516738e-09  4.57026384e-01  4.57026384e-01  4.57026384e-01  3.43394834e-09  3.24272188e-09  1.56649602e-07  4.29202895e-08  2.30000000e-01 
 2.40000000e-01  4.57026419e-01  3.21516740e-09  4.57026419e-01  4.57026419e-01  4.57026419e-01  3.43394832e-09  3.24272188e-09  1.56649648e-07  4.29202220e-08  2.40000000e-01 
 2.50000000e-01  4.57026393e-01  3.21516738e-09  4.57026393e-01  4.57026393e-01  4.57026393e-01  3.43394834e-09  3.24272188e-09  1.56649596e-07  4.29201350e-08  2.50000000e-01 
 2.60000000e-01  4.57026398e-01  3.21516734e-09  4.57026398e-01  4.57026398e-01  4.57026398e-01  3.43394832e-09  3.24272188e-09  1.56649606e-07  4.29198082e-08  2.60000000e-01 
 2.70000000e-01  4.57026372e-01  3.21516739e-09  4.57026372e-01  4.57026372e-01  4.57026372e-01  3.43394833e-09  3.24272194e-09  1.56649573e-07  4.29198153e-08  2.70000000e-01 
 2.80000000e-01  4.57026398e-01  3.21516738e-09  4.57026398e-01  4.57026398e-01  4.57026398e-01  3.43394832e-09  3.24272188e-09  1.56649611e-07  4.29196838e-08  2.80000000e-01 
 2.90000000e-01  4.57026390e-01  3.21516740e-09  4.57026390e-01  4.57026390e-01  4.57026390e-01  3.43394834e-09  3.24272194e-09  1.56649603e-07  4.29195417e-08  2.90000000e-01 
 3.00000000e-01  4.57026395e-01  3.21516738e-09  4.57026395e-01  4.57026395e-01  4.57026395e-01  3.43394832e-09  3.24272194e-09  1.56649613e-07  4.29194387e-08  3.00000000e-01 
 3.10000000e-01  4.57026398e-01  3.21516740e-09  4.57026398e-01  4.57026398e-01  4.57026398e-01  3.43394834e-09  3.24272188e-09  1.56649621e-07  4.29194564e-08  3.10000000e-01 
 3.20000000e-01  4.57026401e-01  3.21516738e-09  4.57026401e-01  4.57026401e-01  4.57026401e-01  3.43394832e-09  3.24272194e-09  1.56649629e-07  4.29192788e-08  3.20000000e-01 
 3.30000000e-01  4.57026375e-01  3.21516740e-09  4.57026375e-01  4.57026375e-01  4.57026375e-01  3.43394833e-09  3.24272194e-09  1.56649586e-07  4.29191971e-08  3.30000000e-01 
 3.40000000e-01  4.57026430e-01  3.21516738e-09  4.57026430e-01  4.57026430e-01  4.57026430e-01  3.43394832e-09  3.24272188e-09  1.56649663e-07  4.29190905e-08  3.40000000e-01 
 3.50000000e-01  4.57026384e-01  3.21516740e-09  4.57026384e-01  4.57026384e-01  4.57026384e-01  3.43394834e-09  3.24272188e-09  1.56649593e-07  4.29191118e-08  3.50000000e-01 
 3.60000000e-01  4.57026398e-01  3.21516738e-09  4.57026398e-01  4.57026398e-01  4.57026398e-01  3.43394832e-09  3.24272194e-09  1.56649617e-07  4.29188098e-08  3.60000000e-01 
 3.70000000e-01  4.57026382e-01  3.21516740e-09  4.57026382e-01  4.57026382e-01  4.57026382e-01  3.43394828e-09  3.24272194e-09  1.56649592e-07  4.29188738e-08  3.70000000e-01 
 3.80000000e-01  4.57026376e-01  3.21516738e-09  4.57026376e-01  4.57026376e-01  4.57026376e-01  3.43394833e-09  3.24272194e-09  1.56649573e-07  4.29187281e-08  3.80000000e-01 
 3.90000000e-01  4.57026377e-01  3.21516734e-09  4.57026377e-01  4.57026377e-01  4.57026377e-01  3.43394832e-09  3.24272194e-09  1.56649587e-07  4.29187779e-08  3.90000000e-01 
 4.00000000e-01  4.57026404e-01  3.21516739e-09  4.57026404e-01  4.57026404e-01  4.57026404e-01  3.43394834e-09  3.24272188e-09  1.56649612e-07  4.29185860e-08  4.00000000e-01 
 4.10000000e-01  4.57026398e-01  3.21516738e-09  4.57026398e-01  4.57026398e-01  4.57026398e-01  3.43394832e-09  3.24272188e-09  1.56649607e-07  4.29185434e-08  4.10000000e-01 
 4.20000000e-01  4.57026389e-01  3.21516734e-09  4.57026389e-01  4.57026389e-01  4.57026389e-01  3.43394828e-09  3.24272194e-09  1.56649591e-07  4.29184013e-08  4.20000000e-01 
 4.30000000e-01  4.57026384e-01  3.21516739e-09  4.57026384e-01  4.57026384e-01  4.57026384e-01  3.43394833e-09  3.24272194e-09  1.56649595e-07  4.29184084e-08  4.30000000e-01 
 4.40000000e-01  4.57026403e-01  3.21516744e-09  4.57026403e-01  4.57026403e-01  4.57026403e-01  3.43394832e-09  3.24272194e-09  1.56649625e-07  4.29183515e-08  4.40000000e-01 
 4.50000000e-01  4.57026372e-01  3.21516738e-09  4.57026372e-01  4.57026372e-01  4.57026372e-01  3.43394833e-09  3.24272188e-09  1.56649580e-07  4.29182592e-08  4.50000000e-01 
 4.60000000e-01  4.57026377e-01  3.21516740e-09  4.57026377e-01  4.57026377e-01  4.57026377e-01  3.43394832e-09  3.24272194e-09  1.56649587e-07  4.29180851e-08  4.60000000e-01 
 4.70000000e-01  4.57026408e-01  3.21516738e-09  4.57026408e-01  4.57026408e-01  4.57026408e-01  3.43394834e-09  3.24272188e-09  1.56649626e-07  4.29181171e-08  4.70000000e-01 
 4.80000000e-01  4.57026416e-01  3.21516734e-09  4.57026416e-01  4.57026416e-01  4.57026416e-01  3.43394832e-09  3.24272188e-09  1.56649637e-07  4.29179714e-08  4.80000000e-01 
 4.90000000e-01  4.57026376e-01  3.21516733e-09  4.57026376e-01  4.57026376e-01  4.57026376e-01  3.43394833e-09  3.24272188e-09  1.56649580e-07  4.29179785e-08  4.90000000e-01 
 5.00000000e-01  4.57026395e-01  3.21516739e-09  4.57026395e-01  4.57026395e-01  4.57026395e-01  3.43394832e-09  3.24272188e-09  1.56649600e-07  4.29178719e-08  5.00000000e-01 
 5.10000000e-01  4.57026414e-01  3.21516738e-09  4.57026414e-01  4.57026414e-01  4.57026414e-01  3.43394828e-09  3.24272194e-09  1.56649648e-07  4.29178719e-08  5.10000000e-01 
 5.20000000e-01  4.57026391e-01  3.21516740e-09  4.57026391e-01  4.57026391e-01  4.57026391e-01  3.43394833e-09  3.24272188e-09  1.56649595e-07  4.29178577e-08  5.20000000e-01 
 5.30000000e-01  4.57026401e-01  3.21516738e-09  4.57026401e-01  4.57026401e-01  4.57026401e-01  3.43394832e-09  3.24272194e-09  1.56649621e-07  4.29177831e-08  5.30000000e-01 
 5.40000000e-01  4.57026389e-01  3.21516740e-09  4.57026389e-01  4.57026389e-01  4.57026389e-01  3.43394828e-09  3.24272188e-09  1.56649593e-07  4.29177298e-08  5.40000000e-01 
 5.50000000e-01  4.57026407e-01  3.21516738e-09  4.57026407e-01  4.57026407e-01  4.57026407e-01  3.43394833e-09  3.24272194e-09  1.56649642e-07  4.29176623e-08  5.50000000e-01 
 5.60000000e-01  4.57026394e-01  3.21516740e-09  4.57026394e-01  4.57026394e-01  4.57026394e-01  3.43394832e-09  3.24272188e-09  1.56649600e-07  4.29175735e-08  5.60000000e-01 
 5.70000000e-01  4.57026414e-01  3.21516744e-09  4.57026414e-01  4.57026414e-01  4.57026414e-01  3.43394834e-09  3.24272188e-09  1.56649631e-07  4.29174811e-08  5.70000000e-01 
 5.80000000e-01  4.57026397e-01  3.21516739e-09  4.57026397e-01  4.57026397e-01  4.57026397e-01  3.43394832e-09  3.24272194e-09  1.56649614e-07  4.29174420e-08  5.80000000e-01 
 5.90000000e-01  4.57026392e-01  3.21516739e-09  4.57026392e-01  4.57026392e-01  4.57026392e-01  3.43394834e-09  3.24272194e-09  1.56649598e-07  4.29174918e-08  5.90000000e-01 
 6.00000000e-01  4.57026386e-01  3.21516739e-09  4.57026386e-01  4.57026386e-01  4.57026386e-01  3.43394832e-09  3.24272194e-09  1.56649605e-07  4.29173141e-08  6.00000000e-01 
 6.10000000e-01  4.57026400e-01  3.21516734e-09  4.57026400e-01  4.57026400e-01  4.57026400e-01  3.43394828e-09  3.24272194e-09  1.56649611e-07  4.29172715e-08  6.10000000e-01 
 6.20000000e-01  4.57026386e-01  3.21516739e-09  4.57026386e-01  4.57026386e-01  4.57026386e-01  3.43394833e-09  3.24272194e-09  1.56649598e-07  4.29171720e-08  6.20000000e-01 
 6.30000000e-01  4.57026374e-01  3.21516738e-09  4.57026374e-01  4.57026374e-01  4.57026374e-01  3.43394832e-09  3.24272188e-09  1.56649573e-07  4.29171720e-08  6.30000000e-01 
 6.40000000e-01  4.57026394e-01  3.21516740e-09  4.57026394e-01  4.57026394e-01  4.57026394e-01  3.43394834e-09  3.24272188e-09  1.56649609e-07  4.29171649e-08  6.40000000e-01 
 6.50000000e-01  4.57026409e-01  3.21516738e-09  4.57026409e-01  4.57026409e-01  4.57026409e-01  3.43394832e-09  3.24272194e-09  1.56649626e-07  4.29170228e-08  6.50000000e-01 
 6.60000000e-01  4.57026391e-01  3.21516740e-09  4.57026391e-01  4.57026391e-01  4.57026391e-01  3.43394828e-09  3.24272194e-09  1.56649595e-07  4.29170370e-08  6.60000000e-01 
 6.70000000e-01  4.57026407e-01  3.21516738e-09  4.57026407e-01  4.57026407e-01  4.57026407e-01  3.43394833e-09  3.24272188e-09  1.56649636e-07  4.29168878e-08  6.70000000e-01 
 6.80000000e-01  4.57026385e-01  3.21516740e-09  4.57026385e-01  4.57026385e-01  4.57026385e-01  3.43394832e-09  3.24272194e-09  1.56649586e-07  4.29168807e-08  6.80000000e-01 
 6.90000000e-01  4.57026396e-01  3.21516738e-09  4.57026396e-01  4.57026396e-01  4.57026396e-01  3.43394834e-09  3.24272188e-09  1.56649611e-07  4.29167812e-08  6.90000000e-01 
 7.00000000e-01  4.57026373e-01  3.21516740e-09  4.57026373e-01  4.57026373e-01  4.57026373e-01  3.43394832e-09  3.24272194e-09  1.56649576e-07  4.29167386e-08  7.00000000e-01 
 7.10000000e-01  4.57026410e-01  3.21516738e-09  4.57026410e-01  4.57026410e-01  4.57026410e-01  3.43394828e-09  3.24272188e-09  1.56649635e-07  4.29167528e-08  7.10000000e-01 
 7.20000000e-01  4.57026382e-01  3.21516740e-09  4.57026382e-01  4.57026382e-01  4.57026382e-01  3.43394833e-09  3.24272188e-09  1.56649588e-07  4.29166533e-08  7.20000000e-01 
 7.30000000e-01  4.57026401e-01  3.21516744e-09  4.57026401e-01  4.57026401e-01  4.57026401e-01  3.43394832e-09  3.24272194e-09  1.56649619e-07  4.29164686e-08  7.30000000e-01 
 7.40000000e-01  4.57026386e-01  3.21516739e-09  4.57026386e-01  4.57026386e-01  4.57026386e-01  3.43394834e-09  3.24272194e-09  1.56649589e-07  4.29165752e-08  7.40000000e-01 
 7.50000000e-01  4.57026366e-01  3.21516740e-09  4.57026366e-01  4.57026366e-01  4.57026366e-01  3.43394831e-09  3.24272188e-09  1.56649574e-07  4.29164544e-08  7.50000000e-01 
 7.60000000e-01  4.57026401e-01  3.21516738e-09  4.57026401e-01  4.57026401e-01  4.57026401e-01  3.43394828e-09  3.24272194e-09  1.56649618e-07  4.29164970e-08  7.60000000e-01 
 7.70000000e-01  4.57026395e-01  3.21516740e-09  4.57026395e-01  4.57026395e-01  4.57026395e-01  3.43394833e-09  3.24272188e-09  1.56649601e-07  4.29163265e-08  7.70000000e-01 
 7.80000000e-01  4.57026395e-01  3.21516738e-09  4.57026395e-01  4.57026396e-01  4.57026395e-01  3.43394832e-09  3.24272188e-09  1.56649619e-07  4.29163336e-08  7.80000000e-01 
 7.90000000e-01  4.57026383e-01  3.21516734e-09  4.57026383e-01  4.57026384e-01  4.57026383e-01  3.43394833e-09  3.24272188e-09  1.56649598e-07  4.29162057e-08  7.90000000e-01 
 8.00000000e-01  4.57026393e-01  3.21516739e-09  4.57026393e-01  4.57026393e-01  4.57026393e-01  3.43394832e-09  3.24272194e-09  1.56649588e-07  4.29161915e-08  8.00000000e-01 
 8.10000000e-01  4.57026391e-01  3.21516738e-09  4.57026391e-01  4.57026391e-01  4.57026391e-01  3.43394834e-09  3.24272194e-09  1.56649593e-07  4.29160920e-08  8.10000000e-01 
 8.20000000e-01  4.57026405e-01  3.21516740e-09  4.57026405e-01  4.57026405e-01  4.57026405e-01  3.43394832e-09  3.24272188e-09  1.56649627e-07  4.29161133e-08  8.20000000e-01 
 8.30000000e-01  4.57026392e-01  3.21516738e-09  4.57026392e-01  4.57026392e-01  4.57026392e-01  3.43394828e-09  3.24272194e-09  1.56649600e-07  4.29159357e-08  8.30000000e-01 
 8.40000000e-01  4.57026396e-01  3.21516734e-09  4.57026396e-01  4.57026396e-01  4.57026396e-01  3.43394833e-09  3.24272194e-09  1.56649602e-07  4.29159428e-08  8.40000000e-01 
 8.50000000e-01  4.57026389e-01  3.21516739e-09  4.57026388e-01  4.57026389e-01  4.57026388e-01  3.43394832e-09  3.24272188e-09  1.56649620e-07  4.29159215e-08  8.50000000e-01 
 8.60000000e-01  4.57026412e-01  3.21516738e-09  4.57026412e-01  4.57026412e-01  4.57026412e-01  3.43394834e-09  3.24272194e-09  1.56649643e-07  4.29158362e-08  8.60000000e-01 
 8.70000000e-01  4.57026414e-01  3.21516734e-09  4.57026414e-01  4.57026414e-01  4.57026414e-01  3.43394832e-09  3.24272194e-09  1.56649647e-07  4.29157936e-08  8.70000000e-01 
 8.80000000e-01  4.57026384e-01  3.21516733e-09  4.57026384e-01  4.57026384e-01  4.57026384e-01  3.43394834e-09  3.24272188e-09  1.56649592e-07  4.29157438e-08  8.80000000e-01 
 8.90000000e-01  4.57026394e-01  3.21516739e-09  4.57026394e-01  4.57026394e-01  4.57026394e-01  3.43394832e-09  3.24272194e-09  1.56649607e-07  4.29156870e-08  8.90000000e-01 
 9.00000000e-01  4.57026378e-01  3.21516738e-09  4.57026378e-01  4.57026378e-01  4.57026378e-01  3.43394833e-09  3.24272188e-09  1.56649595e-07  4.29157154e-08  9.00000000e-01 
 9.10000000e-01  4.57026371e-01  3.21516740e-09  4.57026371e-01  4.57026371e-01  4.57026371e-01  3.43394831e-09  3.24272188e-09  1.56649571e-07  4.29154596e-08  9.10000000e-01 
 9.20000000e-01  4.57026384e-01  3.21516738e-09  4.57026384e-01  4.57026384e-01  4.57026384e-01  3.43394834e-09  3.24272194e-09  1.56649591e-07  4.29155023e-08  9.20000000e-01 
 9.30000000e-01  4.57026405e-01  3.21516734e-09  4.57026405e-01  4.57026405e-01  4.57026405e-01  3.43394832e-09  3.24272188e-09  1.56649632e-07  4.29156373e-08  9.30000000e-01 
 9.40000000e-01  4.57026367e-01  3.21516739e-09  4.57026367e-01  4.57026367e-01  4.57026367e-01  3.43394833e-09  3.24272188e-09  1.56649557e-07  4.29154383e-08  9.40000000e-01 
 9.50000000e-01  4.57026386e-01  3.21516738e-09  4.57026386e-01  4.57026386e-01  4.57026386e-01  3.43394832e-09  3.24272194e-09  1.56649592e-07  4.29153033e-08  9.50000000e-01 
 9.60000000e-01  4.57026393e-01  3.21516740e-09  4.57026393e-01  4.57026393e-01  4.57026393e-01  3.43394834e-09  3.24272194e-09  1.56649594e-07  4.29152323e-08  9.60000000e-01 
 9.70000000e-01  4.57026380e-01  3.21516738e-09  4.57026380e-01  4.57026380e-01  4.57026380e-01  3.43394832e-09  3.24272188e-09  1.56649589e-07  4.29151115e-08  9.70000000e-01 
 9.80000000e-01  4.57026404e-01  3.21516734e-09  4.57026404e-01  4.57026404e-01  4.57026404e-01  3.43394828e-09  3.24272188e-09  1.56649630e-07  4.29151399e-08  9.80000000e-01 
 9.90000000e-01  4.57026388e-01  3.21516739e-09  4.57026388e-01  4.57026388e-01  4.57026388e-01  3.43394833e-09  3.24272188e-09  1.56649588e-07  4.29151257e-08  9.90000000e-01 
 1.00000000e+00  4.57026397e-01  3.21516744e-09  4.57026397e-01  4.57026397e-01  4.57026397e-01  3.43394832e-09  3.24272188e-09  1.56649621e-07  4.29149907e-08  1.00000000e+00 
 1.01000000e+00  4.57026392e-01  3.21516739e-09  4.57026392e-01  4.57026392e-01  4.57026392e-01  3.43394828e-09  3.24272194e-09  1.56649619e-07  4.29149907e-08  1.01000000e+00 
 1.02000000e+00  4.57026390e-01  3.21516739e-09  4.57026390e-01  4.57026390e-01  4.57026390e-01  3.43394833e-09  3.24272194e-09  1.56649605e-07  4.29149054e-08  1.02000000e+00 
 1.03000000e+00  4.57026395e-01  3.21516740e-09  4.57026395e-01  4.57026395e-01  4.57026395e-01  3.43394832e-09  3.24272194e-09  1.56649608e-07  4.29148201e-08  1.03000000e+00 
 1.04000000e+00  4.57026396e-01  3.21516738e-09  4.57026396e-01  4.57026396e-01  4.57026396e-01  3.43394834e-09  3.24272194e-09  1.56649616e-07  4.29148486e-08  1.04000000e+00 
 1.05000000e+00  4.57026390e-01  3.21516740e-09  4.57026390e-01  4.57026390e-01  4.57026390e-01  3.43394832e-09  3.24272188e-09  1.56649602e-07  4.29147065e-08  1.05000000e+00 
 1.06000000e+00  4.57026400e-01  3.21516738e-09  4.57026400e-01  4.57026400e-01  4.57026400e-01  3.43394828e-09  3.24272194e-09  1.56649614e-07  4.29145430e-08  1.06000000e+00 
 1.07000000e+00  4.57026396e-01  3.21516740e-09  4.57026396e-01  4.57026396e-01  4.57026396e-01  3.43394833e-09  3.24272188e-09  1.56649620e-07  4.29145217e-08  1.07000000e+00 
 1.08000000e+00  4.57026408e-01  3.21516738e-09  4.57026408e-01  4.57026408e-01  4.57026408e-01  3.43394832e-09  3.24272188e-09  1.56649631e-07  4.29143725e-08  1.08000000e+00 
 1.09000000e+00  4.57026389e-01  3.21516734e-09  4.57026389e-01  4.57026389e-01  4.57026389e-01  3.43394828e-09  3.24272188e-09  1.56649604e-07  4.29144933e-08  1.09000000e+00 
 1.10000000e+00  4.57026385e-01  3.21516739e-09  4.57026385e-01  4.57026385e-01  4.57026385e-01  3.43394833e-09  3.24272188e-09  1.56649588e-07  4.29143796e-08  1.10000000e+00 
