 v-sweep         v(b0)           v(b1)           v(b2)           v(b3)           v(b4)           v(b5)           v(b6)           i(vbias)        i(viout)        v(vout)        
 0.00000000e+00  4.57025598e-01  4.57025598e-01  3.31543980e-09  3.21017894e-09  3.24098401e-09  3.43394823e-09  4.57025598e-01  1.56648538e-07  9.70232795e-08  0.00000000e+00 
 1.00000000e-02  4.57025596e-01  4.57025596e-01  3.31543984e-09  3.21017892e-09  3.24098399e-09  3.43394821e-09  4.57025596e-01  1.56648545e-07  9.70228897e-08  1.00000000e-02 
 2.00000000e-02  4.57025618e-01  4.57025618e-01  3.31543983e-09  3.21017892e-09  3.24098399e-09  3.43394822e-09  4.57025618e-01  1.56648582e-07  9.70225498e-08  2.00000000e-02 
 3.00000000e-02  4.57025590e-01  4.57025590e-01  3.31543983e-09  3.21017892e-09  3.24098399e-09  3.43394821e-09  4.57025590e-01  1.56648536e-07  9.70219871e-08  3.00000000e-02 
 4.00000000e-02  4.57025582e-01  4.57025582e-01  3.31543983e-09  3.21017892e-09  3.24098405e-09  3.43394821e-09  4.57025582e-01  1.56648521e-07  9.70216876e-08  4.00000000e-02 
 5.00000000e-02  4.57025589e-01  4.57025589e-01  3.31543983e-09  3.21017892e-09  3.24098399e-09  3.43394821e-09  4.57025589e-01  1.56648529e-07  9.70213416e-08  5.00000000e-02 
 6.00000000e-02  4.57025615e-01  4.57025615e-01  3.31543983e-09  3.21017892e-09  3.24098399e-09  3.43394822e-09  4.57025615e-01  1.56648584e-07  9.70211271e-08  6.00000000e-02 
 7.00000000e-02  4.57025596e-01  4.57025596e-01  3.31543983e-09  3.21017892e-09  3.24098405e-09  3.43394821e-09  4.57025596e-01  1.56648545e-07  9.70206524e-08  7.00000000e-02 
 8.00000000e-02  4.57025597e-01  4.57025597e-01  3.31543983e-09  3.21017892e-09  3.24098405e-09  3.43394821e-09  4.57025597e-01  1.56648544e-07  9.70204219e-08  8.00000000e-02 
 9.00000000e-02  4.57025609e-01  4.57025609e-01  3.31543983e-09  3.21017892e-09  3.24098399e-09  3.43394822e-09  4.57025609e-01  1.56648573e-07  9.70201208e-08  9.00000000e-02 
 1.00000000e-01  4.57025599e-01  4.57025599e-01  3.31543983e-09  3.21017892e-09  3.24098399e-09  3.43394821e-09  4.57025599e-01  1.56648544e-07  9.70198748e-08  1.00000000e-01 
 1.10000000e-01  4.57025607e-01  4.57025607e-01  3.31543983e-09  3.21017892e-09  3.24098399e-09  3.43394822e-09  4.57025607e-01  1.56648562e-07  9.70196670e-08  1.10000000e-01 
 1.20000000e-01  4.57025598e-01  4.57025598e-01  3.31543983e-09  3.21017898e-09  3.24098399e-09  3.43394821e-09  4.57025598e-01  1.56648547e-07  9.70193446e-08  1.20000000e-01 
 1.30000000e-01  4.57025598e-01  4.57025598e-01  3.31543983e-09  3.21017897e-09  3.24098399e-09  3.43394816e-09  4.57025598e-01  1.56648545e-07  9.70191012e-08  1.30000000e-01 
 1.40000000e-01  4.57025608e-01  4.57025608e-01  3.31543983e-09  3.21017892e-09  3.24098399e-09  3.43394822e-09  4.57025608e-01  1.56648565e-07  9.70188729e-08  1.40000000e-01 
 1.50000000e-01  4.57025597e-01  4.57025597e-01  3.31543983e-09  3.21017898e-09  3.24098399e-09  3.43394816e-09  4.57025597e-01  1.56648539e-07  9.70186758e-08  1.50000000e-01 
 1.60000000e-01  4.57025600e-01  4.57025600e-01  3.31543983e-09  3.21017891e-09  3.24098399e-09  3.43394821e-09  4.57025600e-01  1.56648549e-07  9.70185354e-08  1.60000000e-01 
 1.70000000e-01  4.57025585e-01  4.57025585e-01  3.31543983e-09  3.21017893e-09  3.24098399e-09  3.43394816e-09  4.57025585e-01  1.56648529e-07  9.70183152e-08  1.70000000e-01 
 1.80000000e-01  4.57025605e-01  4.57025605e-01  3.31543983e-09  3.21017892e-09  3.24098399e-09  3.43394822e-09  4.57025605e-01  1.56648567e-07  9.70182352e-08  1.80000000e-01 
 1.90000000e-01  4.57025599e-01  4.57025600e-01  3.31543983e-09  3.21017892e-09  3.24098399e-09  3.43394816e-09  4.57025600e-01  1.56648540e-07  9.70179617e-08  1.90000000e-01 
 2.00000000e-01  4.57025596e-01  4.57025596e-01  3.31543983e-09  3.21017892e-09  3.24098399e-09  3.43394816e-09  4.57025596e-01  1.56648550e-07  9.70177521e-08  2.00000000e-01 
 2.10000000e-01  4.57025593e-01  4.57025593e-01  3.31543983e-09  3.21017892e-09  3.24098399e-09  3.43394821e-09  4.57025593e-01  1.56648541e-07  9.70176028e-08  2.10000000e-01 
 2.20000000e-01  4.57025604e-01  4.57025604e-01  3.31543983e-09  3.21017892e-09  3.24098399e-09  3.43394816e-09  4.57025604e-01  1.56648556e-07  9.70173915e-08  2.20000000e-01 
 2.30000000e-01  4.57025592e-01  4.57025592e-01  3.31543983e-09  3.21017892e-09  3.24098399e-09  3.43394821e-09  4.57025592e-01  1.56648544e-07  9.70171889e-08  2.30000000e-01 
 2.40000000e-01  4.57025593e-01  4.57025593e-01  3.31543983e-09  3.21017892e-09  3.24098399e-09  3.43394821e-09  4.57025593e-01  1.56648539e-07  9.70171854e-08  2.40000000e-01 
 2.50000000e-01  4.57025609e-01  4.57025609e-01  3.31543983e-09  3.21017892e-09  3.24098405e-09  3.43394822e-09  4.57025609e-01  1.56648555e-07  9.70170611e-08  2.50000000e-01 
 2.60000000e-01  4.57025612e-01  4.57025612e-01  3.31543983e-09  3.21017892e-09  3.24098399e-09  3.43394822e-09  4.57025612e-01  1.56648575e-07  9.70168657e-08  2.60000000e-01 
 2.70000000e-01  4.57025622e-01  4.57025622e-01  3.31543983e-09  3.21017892e-09  3.24098399e-09  3.43394822e-09  4.57025622e-01  1.56648578e-07  9.70167022e-08  2.70000000e-01 
 2.80000000e-01  4.57025619e-01  4.57025619e-01  3.31543983e-09  3.21017892e-09  3.24098399e-09  3.43394822e-09  4.57025619e-01  1.56648572e-07  9.70165566e-08  2.80000000e-01 
 2.90000000e-01  4.57025598e-01  4.57025598e-01  3.31543983e-09  3.21017892e-09  3.24098399e-09  3.43394821e-09  4.57025598e-01  1.56648550e-07  9.70164251e-08  2.90000000e-01 
 3.00000000e-01  4.57025604e-01  4.57025604e-01  3.31543983e-09  3.21017892e-09  3.24098399e-09  3.43394822e-09  4.57025604e-01  1.56648553e-07  9.70163256e-08  3.00000000e-01 
 3.10000000e-01  4.57025587e-01  4.57025587e-01  3.31543983e-09  3.21017892e-09  3.24098399e-09  3.43394821e-09  4.57025587e-01  1.56648537e-07  9.70161764e-08  3.10000000e-01 
 3.20000000e-01  4.57025614e-01  4.57025614e-01  3.31543983e-09  3.21017898e-09  3.24098399e-09  3.43394816e-09  4.57025614e-01  1.56648578e-07  9.70161835e-08  3.20000000e-01 
 3.30000000e-01  4.57025602e-01  4.57025602e-01  3.31543983e-09  3.21017891e-09  3.24098399e-09  3.43394822e-09  4.57025602e-01  1.56648537e-07  9.70159562e-08  3.30000000e-01 
 3.40000000e-01  4.57025609e-01  4.57025609e-01  3.31543983e-09  3.21017893e-09  3.24098399e-09  3.43394816e-09  4.57025609e-01  1.56648561e-07  9.70159704e-08  3.40000000e-01 
 3.50000000e-01  4.57025605e-01  4.57025605e-01  3.31543983e-09  3.21017892e-09  3.24098399e-09  3.43394822e-09  4.57025605e-01  1.56648563e-07  9.70158389e-08  3.50000000e-01 
 3.60000000e-01  4.57025601e-01  4.57025601e-01  3.31543983e-09  3.21017892e-09  3.24098399e-09  3.43394822e-09  4.57025601e-01  1.56648557e-07  9.70158069e-08  3.60000000e-01 
 3.70000000e-01  4.57025602e-01  4.57025602e-01  3.31543983e-09  3.21017898e-09  3.24098405e-09  3.43394822e-09  4.57025602e-01  1.56648557e-07  9.70157075e-08  3.70000000e-01 
 3.80000000e-01  4.57025607e-01  4.57025607e-01  3.31543983e-09  3.21017891e-09  3.24098405e-09  3.43394822e-09  4.57025607e-01  1.56648554e-07  9.70155867e-08  3.80000000e-01 
 3.90000000e-01  4.57025571e-01  4.57025571e-01  3.31543983e-09  3.21017893e-09  3.24098399e-09  3.43394815e-09  4.57025571e-01  1.56648515e-07  9.70153806e-08  3.90000000e-01 
 4.00000000e-01  4.57025589e-01  4.57025589e-01  3.31543983e-09  3.21017892e-09  3.24098399e-09  3.43394821e-09  4.57025589e-01  1.56648538e-07  9.70152847e-08  4.00000000e-01 
 4.10000000e-01  4.57025570e-01  4.57025570e-01  3.31543983e-09  3.21017892e-09  3.24098399e-09  3.43394821e-09  4.57025570e-01  1.56648512e-07  9.70152954e-08  4.10000000e-01 
 4.20000000e-01  4.57025591e-01  4.57025591e-01  3.31543983e-09  3.21017892e-09  3.24098399e-09  3.43394821e-09  4.57025591e-01  1.56648532e-07  9.70150857e-08  4.20000000e-01 
 4.30000000e-01  4.57025595e-01  4.57025595e-01  3.31543983e-09  3.21017892e-09  3.24098399e-09  3.43394821e-09  4.57025595e-01  1.56648554e-07  9.70150360e-08  4.30000000e-01 
 4.40000000e-01  4.57025600e-01  4.57025601e-01  3.31543983e-09  3.21017892e-09  3.24098399e-09  3.43394816e-09  4.57025601e-01  1.56648558e-07  9.70149863e-08  4.40000000e-01 
 4.50000000e-01  4.57025604e-01  4.57025604e-01  3.31543983e-09  3.21017892e-09  3.24098399e-09  3.43394822e-09  4.57025604e-01  1.56648554e-07  9.70149365e-08  4.50000000e-01 
 4.60000000e-01  4.57025614e-01  4.57025615e-01  3.31543983e-09  3.21017892e-09  3.24098405e-09  3.43394816e-09  4.57025615e-01  1.56648570e-07  9.70148761e-08  4.60000000e-01 
 4.70000000e-01  4.57025612e-01  4.57025612e-01  3.31543983e-09  3.21017898e-09  3.24098399e-09  3.43394822e-09  4.57025612e-01  1.56648556e-07  9.70146488e-08  4.70000000e-01 
 4.80000000e-01  4.57025589e-01  4.57025589e-01  3.31543983e-09  3.21017891e-09  3.24098399e-09  3.43394821e-09  4.57025589e-01  1.56648541e-07  9.70145990e-08  4.80000000e-01 
 4.90000000e-01  4.57025607e-01  4.57025607e-01  3.31543989e-09  3.21017893e-09  3.24098399e-09  3.43394822e-09  4.57025607e-01  1.56648567e-07  9.70145884e-08  4.90000000e-01 
 5.00000000e-01  4.57025590e-01  4.57025590e-01  3.31543983e-09  3.21017892e-09  3.24098399e-09  3.43394821e-09  4.57025590e-01  1.56648538e-07  9.70144356e-08  5.00000000e-01 
 5.10000000e-01  4.57025595e-01  4.57025595e-01  3.31543983e-09  3.21017892e-09  3.24098399e-09  3.43394821e-09  4.57025595e-01  1.56648550e-07  9.70145031e-08  5.10000000e-01 
 5.20000000e-01  4.57025583e-01  4.57025583e-01  3.31543983e-09  3.21017892e-09  3.24098399e-09  3.43394821e-09  4.57025583e-01  1.56648535e-07  9.70142864e-08  5.20000000e-01 
 5.30000000e-01  4.57025608e-01  4.57025608e-01  3.31543983e-09  3.21017892e-09  3.24098399e-09  3.43394822e-09  4.57025608e-01  1.56648581e-07  9.70143716e-08  5.30000000e-01 
 5.40000000e-01  4.57025606e-01  4.57025606e-01  3.31543983e-09  3.21017892e-09  3.24098399e-09  3.43394816e-09  4.57025606e-01  1.56648545e-07  9.70142082e-08  5.40000000e-01 
 5.50000000e-01  4.57025607e-01  4.57025607e-01  3.31543983e-09  3.21017892e-09  3.24098405e-09  3.43394822e-09  4.57025607e-01  1.56648564e-07  9.70140199e-08  5.50000000e-01 
 5.60000000e-01  4.57025577e-01  4.57025577e-01  3.31543983e-09  3.21017892e-09  3.24098405e-09  3.43394821e-09  4.57025577e-01  1.56648518e-07  9.70138885e-08  5.60000000e-01 
 5.70000000e-01  4.57025585e-01  4.57025585e-01  3.31543983e-09  3.21017898e-09  3.24098399e-09  3.43394821e-09  4.57025585e-01  1.56648525e-07  9.70138210e-08  5.70000000e-01 
 5.80000000e-01  4.57025591e-01  4.57025591e-01  3.31543983e-09  3.21017891e-09  3.24098399e-09  3.43394821e-09  4.57025591e-01  1.56648536e-07  9.70139524e-08  5.80000000e-01 
 5.90000000e-01  4.57025603e-01  4.57025603e-01  3.31543983e-09  3.21017893e-09  3.24098399e-09  3.43394822e-09  4.57025603e-01  1.56648558e-07  9.70138032e-08  5.90000000e-01 
 6.00000000e-01  4.57025608e-01  4.57025608e-01  3.31543983e-09  3.21017892e-09  3.24098399e-09  3.43394822e-09  4.57025608e-01  1.56648550e-07  9.70137464e-08  6.00000000e-01 
 6.10000000e-01  4.57025599e-01  4.57025599e-01  3.31543983e-09  3.21017892e-09  3.24098399e-09  3.43394821e-09  4.57025599e-01  1.56648558e-07  9.70135687e-08  6.10000000e-01 
 6.20000000e-01  4.57025609e-01  4.57025609e-01  3.31543983e-09  3.21017898e-09  3.24098399e-09  3.43394822e-09  4.57025609e-01  1.56648561e-07  9.70136114e-08  6.20000000e-01 
 6.30000000e-01  4.57025581e-01  4.57025581e-01  3.31543983e-09  3.21017891e-09  3.24098405e-09  3.43394821e-09  4.57025581e-01  1.56648520e-07  9.70134053e-08  6.30000000e-01 
 6.40000000e-01  4.57025607e-01  4.57025607e-01  3.31543983e-09  3.21017893e-09  3.24098399e-09  3.43394822e-09  4.57025607e-01  1.56648556e-07  9.70134479e-08  6.40000000e-01 
 6.50000000e-01  4.57025602e-01  4.57025602e-01  3.31543983e-09  3.21017892e-09  3.24098399e-09  3.43394822e-09  4.57025602e-01  1.56648539e-07  9.70133840e-08  6.50000000e-01 
 6.60000000e-01  4.57025600e-01  4.57025600e-01  3.31543983e-09  3.21017892e-09  3.24098399e-09  3.43394821e-09  4.57025600e-01  1.56648538e-07  9.70132419e-08  6.60000000e-01 
 6.70000000e-01  4.57025594e-01  4.57025594e-01  3.31543983e-09  3.21017892e-09  3.24098399e-09  3.43394821e-09  4.57025594e-01  1.56648542e-07  9.70132348e-08  6.70000000e-01 
 6.80000000e-01  4.57025602e-01  4.57025602e-01  3.31543983e-09  3.21017892e-09  3.24098399e-09  3.43394822e-09  4.57025602e-01  1.56648537e-07  9.70130998e-08  6.80000000e-01 
 6.90000000e-01  4.57025586e-01  4.57025586e-01  3.31543983e-09  3.21017892e-09  3.24098399e-09  3.43394821e-09  4.57025586e-01  1.56648547e-07  9.70130927e-08  6.90000000e-01 
 7.00000000e-01  4.57025611e-01  4.57025611e-01  3.31543983e-09  3.21017892e-09  3.24098399e-09  3.43394822e-09  4.57025611e-01  1.56648570e-07  9.70129648e-08  7.00000000e-01 
 7.10000000e-01  4.57025619e-01  4.57025619e-01  3.31543983e-09  3.21017892e-09  3.24098399e-09  3.43394816e-09  4.57025619e-01  1.56648564e-07  9.70128582e-08  7.10000000e-01 
 7.20000000e-01  4.57025599e-01  4.57025599e-01  3.31543983e-09  3.21017892e-09  3.24098405e-09  3.43394821e-09  4.57025599e-01  1.56648542e-07  9.70128866e-08  7.20000000e-01 
 7.30000000e-01  4.57025611e-01  4.57025611e-01  3.31543983e-09  3.21017892e-09  3.24098399e-09  3.43394822e-09  4.57025611e-01  1.56648557e-07  9.70128298e-08  7.30000000e-01 
 7.40000000e-01  4.57025608e-01  4.57025608e-01  3.31543983e-09  3.21017898e-09  3.24098399e-09  3.43394822e-09  4.57025608e-01  1.56648567e-07  9.70126663e-08  7.40000000e-01 
 7.50000000e-01  4.57025579e-01  4.57025579e-01  3.31543983e-09  3.21017891e-09  3.24098399e-09  3.43394821e-09  4.57025579e-01  1.56648519e-07  9.70125171e-08  7.50000000e-01 
 7.60000000e-01  4.57025575e-01  4.57025575e-01  3.31543983e-09  3.21017893e-09  3.24098399e-09  3.43394821e-09  4.57025575e-01  1.56648523e-07  9.70123963e-08  7.60000000e-01 
 7.70000000e-01  4.57025614e-01  4.57025614e-01  3.31543983e-09  3.21017892e-09  3.24098399e-09  3.43394822e-09  4.57025614e-01  1.56648574e-07  9.70126024e-08  7.70000000e-01 
 7.80000000e-01  4.57025579e-01  4.57025579e-01  3.31543983e-09  3.21017892e-09  3.24098399e-09  3.43394821e-09  4.57025579e-01  1.56648504e-07  9.70123750e-08  7.80000000e-01 
 7.90000000e-01  4.57025580e-01  4.57025580e-01  3.31543983e-09  3.21017892e-09  3.24098399e-09  3.43394821e-09  4.57025580e-01  1.56648517e-07  9.70121690e-08  7.90000000e-01 
 8.00000000e-01  4.57025601e-01  4.57025601e-01  3.31543983e-09  3.21017892e-09  3.24098399e-09  3.43394816e-09  4.57025601e-01  1.56648547e-07  9.70122969e-08  8.00000000e-01 
 8.10000000e-01  4.57025624e-01  4.57025624e-01  3.31543983e-09  3.21017892e-09  3.24098405e-09  3.43394822e-09  4.57025624e-01  1.56648602e-07  9.70122045e-08  8.10000000e-01 
 8.20000000e-01  4.57025571e-01  4.57025571e-01  3.31543983e-09  3.21017892e-09  3.24098399e-09  3.43394815e-09  4.57025571e-01  1.56648491e-07  9.70120695e-08  8.20000000e-01 
 8.30000000e-01  4.57025574e-01  4.57025574e-01  3.31543983e-09  3.21017898e-09  3.24098399e-09  3.43394821e-09  4.57025574e-01  1.56648500e-07  9.70118563e-08  8.30000000e-01 
 8.40000000e-01  4.57025606e-01  4.57025606e-01  3.31543983e-09  3.21017891e-09  3.24098399e-09  3.43394822e-09  4.57025606e-01  1.56648553e-07  9.70120624e-08  8.40000000e-01 
 8.50000000e-01  4.57025587e-01  4.57025587e-01  3.31543983e-09  3.21017893e-09  3.24098399e-09  3.43394821e-09  4.57025587e-01  1.56648529e-07  9.70119132e-08  8.50000000e-01 
 8.60000000e-01  4.57025603e-01  4.57025603e-01  3.31543983e-09  3.21017892e-09  3.24098405e-09  3.43394822e-09  4.57025603e-01  1.56648552e-07  9.70118208e-08  8.60000000e-01 
 8.70000000e-01  4.57025591e-01  4.57025591e-01  3.31543983e-09  3.21017892e-09  3.24098399e-09  3.43394821e-09  4.57025591e-01  1.56648542e-07  9.70117142e-08  8.70000000e-01 
 8.80000000e-01  4.57025579e-01  4.57025579e-01  3.31543983e-09  3.21017892e-09  3.24098399e-09  3.43394821e-09  4.57025579e-01  1.56648515e-07  9.70116290e-08  8.80000000e-01 
 8.90000000e-01  4.57025628e-01  4.57025628e-01  3.31543983e-09  3.21017892e-09  3.24098399e-09  3.43394816e-09  4.57025628e-01  1.56648602e-07  9.70115863e-08  8.90000000e-01 
 9.00000000e-01  4.57025581e-01  4.57025581e-01  3.31543983e-09  3.21017892e-09  3.24098399e-09  3.43394821e-09  4.57025581e-01  1.56648520e-07  9.70114939e-08  9.00000000e-01 
 9.10000000e-01  4.57025600e-01  4.57025600e-01  3.31543983e-09  3.21017892e-09  3.24098399e-09  3.43394821e-09  4.57025600e-01  1.56648556e-07  9.70114726e-08  9.10000000e-01 
 9.20000000e-01  4.57025589e-01  4.57025589e-01  3.31543983e-09  3.21017892e-09  3.24098399e-09  3.43394821e-09  4.57025589e-01  1.56648522e-07  9.70112239e-08  9.20000000e-01 
 9.30000000e-01  4.57025604e-01  4.57025604e-01  3.31543983e-09  3.21017892e-09  3.24098399e-09  3.43394822e-09  4.57025604e-01  1.56648569e-07  9.70112453e-08  9.30000000e-01 
 9.40000000e-01  4.57025576e-01  4.57025576e-01  3.31543983e-09  3.21017892e-09  3.24098399e-09  3.43394821e-09  4.57025576e-01  1.56648505e-07  9.70111529e-08  9.40000000e-01 
 9.50000000e-01  4.57025602e-01  4.57025603e-01  3.31543983e-09  3.21017892e-09  3.24098405e-09  3.43394822e-09  4.57025603e-01  1.56648546e-07  9.70110463e-08  9.50000000e-01 
 9.60000000e-01  4.57025594e-01  4.57025594e-01  3.31543989e-09  3.21017892e-09  3.24098399e-09  3.43394816e-09  4.57025594e-01  1.56648520e-07  9.70109468e-08  9.60000000e-01 
 9.70000000e-01  4.57025600e-01  4.57025600e-01  3.31543983e-09  3.21017892e-09  3.24098399e-09  3.43394822e-09  4.57025600e-01  1.56648554e-07  9.70109042e-08  9.70000000e-01 
 9.80000000e-01  4.57025599e-01  4.57025599e-01  3.31543983e-09  3.21017892e-09  3.24098399e-09  3.43394821e-09  4.57025599e-01  1.56648547e-07  9.70108047e-08  9.80000000e-01 
 9.90000000e-01  4.57025614e-01  4.57025614e-01  3.31543983e-09  3.21017898e-09  3.24098405e-09  3.43394822e-09  4.57025614e-01  1.56648573e-07  9.70107621e-08  9.90000000e-01 
 1.00000000e+00  4.57025600e-01  4.57025600e-01  3.31543983e-09  3.21017897e-09  3.24098405e-09  3.43394821e-09  4.57025600e-01  1.56648535e-07  9.70106484e-08  1.00000000e+00 
 1.01000000e+00  4.57025619e-01  4.57025619e-01  3.31543983e-09  3.21017892e-09  3.24098399e-09  3.43394816e-09  4.57025620e-01  1.56648573e-07  9.70106271e-08  1.01000000e+00 
 1.02000000e+00  4.57025611e-01  4.57025611e-01  3.31543983e-09  3.21017893e-09  3.24098399e-09  3.43394822e-09  4.57025611e-01  1.56648562e-07  9.70105702e-08  1.02000000e+00 
 1.03000000e+00  4.57025604e-01  4.57025604e-01  3.31543983e-09  3.21017892e-09  3.24098399e-09  3.43394822e-09  4.57025604e-01  1.56648557e-07  9.70103713e-08  1.03000000e+00 
 1.04000000e+00  4.57025596e-01  4.57025596e-01  3.31543983e-09  3.21017892e-09  3.24098405e-09  3.43394821e-09  4.57025596e-01  1.56648551e-07  9.70102789e-08  1.04000000e+00 
 1.05000000e+00  4.57025587e-01  4.57025587e-01  3.31543983e-09  3.21017892e-09  3.24098399e-09  3.43394816e-09  4.57025587e-01  1.56648540e-07  9.70102150e-08  1.05000000e+00 
 1.06000000e+00  4.57025586e-01  4.57025586e-01  3.31543983e-09  3.21017892e-09  3.24098399e-09  3.43394821e-09  4.57025586e-01  1.56648519e-07  9.70101581e-08  1.06000000e+00 
 1.07000000e+00  4.57025569e-01  4.57025569e-01  3.31543983e-09  3.21017892e-09  3.24098399e-09  3.43394815e-09  4.57025569e-01  1.56648493e-07  9.70100160e-08  1.07000000e+00 
 1.08000000e+00  4.57025583e-01  4.57025583e-01  3.31543983e-09  3.21017892e-09  3.24098405e-09  3.43394821e-09  4.57025583e-01  1.56648533e-07  9.70098668e-08  1.08000000e+00 
 1.09000000e+00  4.57025599e-01  4.57025599e-01  3.31543983e-09  3.21017892e-09  3.24098405e-09  3.43394821e-09  4.57025599e-01  1.56648552e-07  9.70099947e-08  1.09000000e+00 
 1.10000000e+00  4.57025603e-01  4.57025603e-01  3.31543983e-09  3.21017892e-09  3.24098399e-09  3.43394822e-09  4.57025603e-01  1.56648561e-07  9.70099023e-08  1.10000000e+00 
