 v-sweep         v(b0)           v(b1)           v(b2)           v(b3)           v(b4)           v(b5)           v(b6)           i(vbias)        i(viout)        v(vout)        
 0.00000000e+00  4.58256807e-01  3.30605487e-09  3.26102030e-09  4.58256807e-01  4.58256807e-01  3.52524743e-09  3.15050327e-09  1.59789943e-07  3.94155053e-08  0.00000000e+00 
 1.00000000e-02  4.58256826e-01  3.30605486e-09  3.26102034e-09  4.58256826e-01  4.58256826e-01  3.52524742e-09  3.15050325e-09  1.59790001e-07  3.94149626e-08  1.00000000e-02 
 2.00000000e-02  4.58256834e-01  3.30605487e-09  3.26102034e-09  4.58256834e-01  4.58256834e-01  3.52524742e-09  3.15050325e-09  1.59789997e-07  3.94147255e-08  2.00000000e-02 
 3.00000000e-02  4.58256805e-01  3.30605491e-09  3.26102028e-09  4.58256805e-01  4.58256805e-01  3.52524747e-09  3.15050331e-09  1.59789944e-07  3.94141999e-08  3.00000000e-02 
 4.00000000e-02  4.58256816e-01  3.30605491e-09  3.26102034e-09  4.58256816e-01  4.58256816e-01  3.52524741e-09  3.15050325e-09  1.59789966e-07  3.94140667e-08  4.00000000e-02 
 5.00000000e-02  4.58256832e-01  3.30605492e-09  3.26102028e-09  4.58256832e-01  4.58256832e-01  3.52524742e-09  3.15050331e-09  1.59789997e-07  3.94136310e-08  5.00000000e-02 
 6.00000000e-02  4.58256818e-01  3.30605492e-09  3.26102028e-09  4.58256818e-01  4.58256818e-01  3.52524741e-09  3.15050331e-09  1.59789965e-07  3.94135067e-08  6.00000000e-02 
 7.00000000e-02  4.58256824e-01  3.30605486e-09  3.26102034e-09  4.58256824e-01  4.58256824e-01  3.52524741e-09  3.15050325e-09  1.59789984e-07  3.94130097e-08  7.00000000e-02 
 8.00000000e-02  4.58256827e-01  3.30605493e-09  3.26102034e-09  4.58256827e-01  4.58256827e-01  3.52524747e-09  3.15050331e-09  1.59789975e-07  3.94126971e-08  8.00000000e-02 
 9.00000000e-02  4.58256808e-01  3.30605485e-09  3.26102028e-09  4.58256808e-01  4.58256808e-01  3.52524747e-09  3.15050325e-09  1.59789970e-07  3.94125941e-08  9.00000000e-02 
 1.00000000e-01  4.58256812e-01  3.30605493e-09  3.26102028e-09  4.58256812e-01  4.58256812e-01  3.52524741e-09  3.15050331e-09  1.59789964e-07  3.94122095e-08  1.00000000e-01 
 1.10000000e-01  4.58256813e-01  3.30605485e-09  3.26102028e-09  4.58256813e-01  4.58256813e-01  3.52524741e-09  3.15050331e-09  1.59789967e-07  3.94120097e-08  1.10000000e-01 
 1.20000000e-01  4.58256829e-01  3.30605493e-09  3.26102028e-09  4.58256829e-01  4.58256829e-01  3.52524742e-09  3.15050325e-09  1.59789975e-07  3.94118507e-08  1.20000000e-01 
 1.30000000e-01  4.58256792e-01  3.30605491e-09  3.26102028e-09  4.58256792e-01  4.58256792e-01  3.52524741e-09  3.15050331e-09  1.59789938e-07  3.94115016e-08  1.30000000e-01 
 1.40000000e-01  4.58256808e-01  3.30605486e-09  3.26102028e-09  4.58256808e-01  4.58256808e-01  3.52524741e-09  3.15050331e-09  1.59789967e-07  3.94112343e-08  1.40000000e-01 
 1.50000000e-01  4.58256834e-01  3.30605487e-09  3.26102028e-09  4.58256834e-01  4.58256834e-01  3.52524742e-09  3.15050325e-09  1.59789990e-07  3.94111197e-08  1.50000000e-01 
 1.60000000e-01  4.58256833e-01  3.30605491e-09  3.26102028e-09  4.58256833e-01  4.58256833e-01  3.52524742e-09  3.15050331e-09  1.59790003e-07  3.94109456e-08  1.60000000e-01 
 1.70000000e-01  4.58256817e-01  3.30605492e-09  3.26102028e-09  4.58256817e-01  4.58256817e-01  3.52524741e-09  3.15050325e-09  1.59789955e-07  3.94107076e-08  1.70000000e-01 
 1.80000000e-01  4.58256820e-01  3.30605492e-09  3.26102028e-09  4.58256820e-01  4.58256820e-01  3.52524741e-09  3.15050325e-09  1.59789976e-07  3.94106028e-08  1.80000000e-01 
 1.90000000e-01  4.58256809e-01  3.30605486e-09  3.26102028e-09  4.58256810e-01  4.58256809e-01  3.52524747e-09  3.15050325e-09  1.59789953e-07  3.94104980e-08  1.90000000e-01 
 2.00000000e-01  4.58256831e-01  3.30605487e-09  3.26102034e-09  4.58256831e-01  4.58256831e-01  3.52524742e-09  3.15050331e-09  1.59789988e-07  3.94102031e-08  2.00000000e-01 
 2.10000000e-01  4.58256819e-01  3.30605491e-09  3.26102028e-09  4.58256819e-01  4.58256819e-01  3.52524741e-09  3.15050325e-09  1.59789960e-07  3.94101427e-08  2.10000000e-01 
 2.20000000e-01  4.58256802e-01  3.30605491e-09  3.26102028e-09  4.58256803e-01  4.58256802e-01  3.52524741e-09  3.15050331e-09  1.59789948e-07  3.94099366e-08  2.20000000e-01 
 2.30000000e-01  4.58256801e-01  3.30605491e-09  3.26102028e-09  4.58256801e-01  4.58256801e-01  3.52524741e-09  3.15050331e-09  1.59789948e-07  3.94097626e-08  2.30000000e-01 
 2.40000000e-01  4.58256815e-01  3.30605491e-09  3.26102028e-09  4.58256815e-01  4.58256815e-01  3.52524741e-09  3.15050325e-09  1.59789976e-07  3.94096666e-08  2.40000000e-01 
 2.50000000e-01  4.58256831e-01  3.30605486e-09  3.26102028e-09  4.58256831e-01  4.58256831e-01  3.52524742e-09  3.15050325e-09  1.59789992e-07  3.94094872e-08  2.50000000e-01 
 2.60000000e-01  4.58256818e-01  3.30605487e-09  3.26102028e-09  4.58256818e-01  4.58256818e-01  3.52524741e-09  3.15050325e-09  1.59789965e-07  3.94093984e-08  2.60000000e-01 
 2.70000000e-01  4.58256832e-01  3.30605491e-09  3.26102028e-09  4.58256832e-01  4.58256832e-01  3.52524747e-09  3.15050325e-09  1.59789992e-07  3.94092439e-08  2.70000000e-01 
 2.80000000e-01  4.58256825e-01  3.30605486e-09  3.26102028e-09  4.58256825e-01  4.58256825e-01  3.52524741e-09  3.15050331e-09  1.59789982e-07  3.94091710e-08  2.80000000e-01 
 2.90000000e-01  4.58256804e-01  3.30605487e-09  3.26102028e-09  4.58256804e-01  4.58256804e-01  3.52524741e-09  3.15050325e-09  1.59789958e-07  3.94089206e-08  2.90000000e-01 
 3.00000000e-01  4.58256847e-01  3.30605491e-09  3.26102034e-09  4.58256847e-01  4.58256847e-01  3.52524742e-09  3.15050325e-09  1.59790017e-07  3.94090058e-08  3.00000000e-01 
 3.10000000e-01  4.58256836e-01  3.30605486e-09  3.26102028e-09  4.58256836e-01  4.58256836e-01  3.52524742e-09  3.15050325e-09  1.59790001e-07  3.94088779e-08  3.10000000e-01 
 3.20000000e-01  4.58256822e-01  3.30605487e-09  3.26102028e-09  4.58256823e-01  4.58256822e-01  3.52524741e-09  3.15050331e-09  1.59789977e-07  3.94087607e-08  3.20000000e-01 
 3.30000000e-01  4.58256814e-01  3.30605491e-09  3.26102028e-09  4.58256814e-01  4.58256814e-01  3.52524741e-09  3.15050325e-09  1.59789964e-07  3.94086683e-08  3.30000000e-01 
 3.40000000e-01  4.58256820e-01  3.30605486e-09  3.26102028e-09  4.58256820e-01  4.58256820e-01  3.52524741e-09  3.15050331e-09  1.59789988e-07  3.94086825e-08  3.40000000e-01 
 3.50000000e-01  4.58256805e-01  3.30605493e-09  3.26102028e-09  4.58256805e-01  4.58256805e-01  3.52524741e-09  3.15050325e-09  1.59789950e-07  3.94084587e-08  3.50000000e-01 
 3.60000000e-01  4.58256840e-01  3.30605491e-09  3.26102034e-09  4.58256840e-01  4.58256840e-01  3.52524742e-09  3.15050325e-09  1.59790001e-07  3.94083948e-08  3.60000000e-01 
 3.70000000e-01  4.58256818e-01  3.30605492e-09  3.26102028e-09  4.58256818e-01  4.58256818e-01  3.52524741e-09  3.15050325e-09  1.59789979e-07  3.94083237e-08  3.70000000e-01 
 3.80000000e-01  4.58256844e-01  3.30605492e-09  3.26102028e-09  4.58256844e-01  4.58256844e-01  3.52524742e-09  3.15050331e-09  1.59790016e-07  3.94081781e-08  3.80000000e-01 
 3.90000000e-01  4.58256814e-01  3.30605486e-09  3.26102028e-09  4.58256814e-01  4.58256814e-01  3.52524741e-09  3.15050331e-09  1.59789978e-07  3.94082491e-08  3.90000000e-01 
 4.00000000e-01  4.58256815e-01  3.30605493e-09  3.26102034e-09  4.58256815e-01  4.58256815e-01  3.52524741e-09  3.15050325e-09  1.59789969e-07  3.94080466e-08  4.00000000e-01 
 4.10000000e-01  4.58256833e-01  3.30605485e-09  3.26102028e-09  4.58256833e-01  4.58256833e-01  3.52524742e-09  3.15050331e-09  1.59789985e-07  3.94081034e-08  4.10000000e-01 
 4.20000000e-01  4.58256820e-01  3.30605487e-09  3.26102034e-09  4.58256820e-01  4.58256820e-01  3.52524741e-09  3.15050325e-09  1.59789972e-07  3.94079045e-08  4.20000000e-01 
 4.30000000e-01  4.58256823e-01  3.30605485e-09  3.26102034e-09  4.58256823e-01  4.58256823e-01  3.52524741e-09  3.15050331e-09  1.59789980e-07  3.94078619e-08  4.30000000e-01 
 4.40000000e-01  4.58256830e-01  3.30605487e-09  3.26102028e-09  4.58256830e-01  4.58256830e-01  3.52524742e-09  3.15050325e-09  1.59789975e-07  3.94078334e-08  4.40000000e-01 
 4.50000000e-01  4.58256822e-01  3.30605485e-09  3.26102028e-09  4.58256822e-01  4.58256822e-01  3.52524741e-09  3.15050325e-09  1.59789976e-07  3.94077802e-08  4.50000000e-01 
 4.60000000e-01  4.58256843e-01  3.30605493e-09  3.26102028e-09  4.58256843e-01  4.58256843e-01  3.52524742e-09  3.15050331e-09  1.59790011e-07  3.94076558e-08  4.60000000e-01 
 4.70000000e-01  4.58256831e-01  3.30605485e-09  3.26102028e-09  4.58256831e-01  4.58256831e-01  3.52524742e-09  3.15050331e-09  1.59789993e-07  3.94075741e-08  4.70000000e-01 
 4.80000000e-01  4.58256833e-01  3.30605487e-09  3.26102028e-09  4.58256834e-01  4.58256833e-01  3.52524742e-09  3.15050325e-09  1.59789988e-07  3.94075883e-08  4.80000000e-01 
 4.90000000e-01  4.58256835e-01  3.30605485e-09  3.26102028e-09  4.58256835e-01  4.58256835e-01  3.52524742e-09  3.15050331e-09  1.59790001e-07  3.94075137e-08  4.90000000e-01 
 5.00000000e-01  4.58256802e-01  3.30605487e-09  3.26102034e-09  4.58256802e-01  4.58256802e-01  3.52524741e-09  3.15050331e-09  1.59789948e-07  3.94074817e-08  5.00000000e-01 
 5.10000000e-01  4.58256832e-01  3.30605485e-09  3.26102028e-09  4.58256832e-01  4.58256832e-01  3.52524742e-09  3.15050331e-09  1.59789991e-07  3.94074142e-08  5.10000000e-01 
 5.20000000e-01  4.58256823e-01  3.30605487e-09  3.26102034e-09  4.58256824e-01  4.58256823e-01  3.52524741e-09  3.15050325e-09  1.59789976e-07  3.94073325e-08  5.20000000e-01 
 5.30000000e-01  4.58256813e-01  3.30605485e-09  3.26102028e-09  4.58256813e-01  4.58256813e-01  3.52524741e-09  3.15050325e-09  1.59789975e-07  3.94072721e-08  5.30000000e-01 
 5.40000000e-01  4.58256812e-01  3.30605487e-09  3.26102028e-09  4.58256812e-01  4.58256812e-01  3.52524741e-09  3.15050331e-09  1.59789960e-07  3.94072259e-08  5.40000000e-01 
 5.50000000e-01  4.58256827e-01  3.30605491e-09  3.26102034e-09  4.58256827e-01  4.58256827e-01  3.52524742e-09  3.15050325e-09  1.59789996e-07  3.94071478e-08  5.50000000e-01 
 5.60000000e-01  4.58256817e-01  3.30605492e-09  3.26102028e-09  4.58256817e-01  4.58256817e-01  3.52524741e-09  3.15050325e-09  1.59789971e-07  3.94071087e-08  5.60000000e-01 
 5.70000000e-01  4.58256801e-01  3.30605491e-09  3.26102028e-09  4.58256801e-01  4.58256801e-01  3.52524741e-09  3.15050331e-09  1.59789943e-07  3.94070412e-08  5.70000000e-01 
 5.80000000e-01  4.58256822e-01  3.30605486e-09  3.26102028e-09  4.58256822e-01  4.58256822e-01  3.52524741e-09  3.15050325e-09  1.59789971e-07  3.94068636e-08  5.80000000e-01 
 5.90000000e-01  4.58256827e-01  3.30605487e-09  3.26102028e-09  4.58256827e-01  4.58256827e-01  3.52524742e-09  3.15050325e-09  1.59789972e-07  3.94069559e-08  5.90000000e-01 
 6.00000000e-01  4.58256799e-01  3.30605485e-09  3.26102034e-09  4.58256800e-01  4.58256799e-01  3.52524741e-09  3.15050325e-09  1.59789949e-07  3.94068067e-08  6.00000000e-01 
 6.10000000e-01  4.58256816e-01  3.30605493e-09  3.26102034e-09  4.58256816e-01  4.58256816e-01  3.52524741e-09  3.15050331e-09  1.59789966e-07  3.94069062e-08  6.10000000e-01 
 6.20000000e-01  4.58256823e-01  3.30605491e-09  3.26102028e-09  4.58256823e-01  4.58256823e-01  3.52524741e-09  3.15050331e-09  1.59789986e-07  3.94067925e-08  6.20000000e-01 
 6.30000000e-01  4.58256820e-01  3.30605492e-09  3.26102028e-09  4.58256820e-01  4.58256820e-01  3.52524747e-09  3.15050325e-09  1.59789971e-07  3.94067072e-08  6.30000000e-01 
 6.40000000e-01  4.58256844e-01  3.30605492e-09  3.26102034e-09  4.58256844e-01  4.58256844e-01  3.52524742e-09  3.15050331e-09  1.59789996e-07  3.94066291e-08  6.40000000e-01 
 6.50000000e-01  4.58256833e-01  3.30605492e-09  3.26102028e-09  4.58256833e-01  4.58256833e-01  3.52524742e-09  3.15050331e-09  1.59790002e-07  3.94066149e-08  6.50000000e-01 
 6.60000000e-01  4.58256823e-01  3.30605486e-09  3.26102028e-09  4.58256824e-01  4.58256823e-01  3.52524741e-09  3.15050331e-09  1.59789984e-07  3.94065793e-08  6.60000000e-01 
 6.70000000e-01  4.58256827e-01  3.30605487e-09  3.26102034e-09  4.58256827e-01  4.58256827e-01  3.52524742e-09  3.15050325e-09  1.59789989e-07  3.94064443e-08  6.70000000e-01 
 6.80000000e-01  4.58256812e-01  3.30605491e-09  3.26102028e-09  4.58256812e-01  4.58256812e-01  3.52524741e-09  3.15050325e-09  1.59789955e-07  3.94064017e-08  6.80000000e-01 
 6.90000000e-01  4.58256842e-01  3.30605486e-09  3.26102028e-09  4.58256843e-01  4.58256843e-01  3.52524742e-09  3.15050325e-09  1.59789997e-07  3.94063520e-08  6.90000000e-01 
 7.00000000e-01  4.58256823e-01  3.30605486e-09  3.26102028e-09  4.58256823e-01  4.58256823e-01  3.52524741e-09  3.15050331e-09  1.59789990e-07  3.94062809e-08  7.00000000e-01 
 7.10000000e-01  4.58256822e-01  3.30605493e-09  3.26102028e-09  4.58256823e-01  4.58256822e-01  3.52524741e-09  3.15050331e-09  1.59789972e-07  3.94062951e-08  7.10000000e-01 
 7.20000000e-01  4.58256829e-01  3.30605485e-09  3.26102028e-09  4.58256829e-01  4.58256829e-01  3.52524742e-09  3.15050331e-09  1.59789992e-07  3.94061956e-08  7.20000000e-01 
 7.30000000e-01  4.58256819e-01  3.30605493e-09  3.26102028e-09  4.58256819e-01  4.58256819e-01  3.52524741e-09  3.15050331e-09  1.59789972e-07  3.94060464e-08  7.30000000e-01 
 7.40000000e-01  4.58256834e-01  3.30605491e-09  3.26102028e-09  4.58256834e-01  4.58256834e-01  3.52524747e-09  3.15050325e-09  1.59789996e-07  3.94060180e-08  7.40000000e-01 
 7.50000000e-01  4.58256813e-01  3.30605491e-09  3.26102034e-09  4.58256813e-01  4.58256813e-01  3.52524741e-09  3.15050325e-09  1.59789966e-07  3.94059327e-08  7.50000000e-01 
 7.60000000e-01  4.58256833e-01  3.30605486e-09  3.26102028e-09  4.58256833e-01  4.58256833e-01  3.52524742e-09  3.15050331e-09  1.59789994e-07  3.94060535e-08  7.60000000e-01 
 7.70000000e-01  4.58256840e-01  3.30605487e-09  3.26102028e-09  4.58256841e-01  4.58256840e-01  3.52524742e-09  3.15050331e-09  1.59790010e-07  3.94059114e-08  7.70000000e-01 
 7.80000000e-01  4.58256854e-01  3.30605491e-09  3.26102028e-09  4.58256854e-01  4.58256854e-01  3.52524742e-09  3.15050325e-09  1.59790026e-07  3.94059612e-08  7.80000000e-01 
 7.90000000e-01  4.58256820e-01  3.30605492e-09  3.26102028e-09  4.58256820e-01  4.58256820e-01  3.52524741e-09  3.15050325e-09  1.59789969e-07  3.94058617e-08  7.90000000e-01 
 8.00000000e-01  4.58256829e-01  3.30605486e-09  3.26102028e-09  4.58256829e-01  4.58256829e-01  3.52524742e-09  3.15050325e-09  1.59789982e-07  3.94057764e-08  8.00000000e-01 
 8.10000000e-01  4.58256796e-01  3.30605487e-09  3.26102028e-09  4.58256796e-01  4.58256796e-01  3.52524741e-09  3.15050331e-09  1.59789934e-07  3.94055988e-08  8.10000000e-01 
 8.20000000e-01  4.58256807e-01  3.30605491e-09  3.26102034e-09  4.58256807e-01  4.58256807e-01  3.52524741e-09  3.15050325e-09  1.59789960e-07  3.94055206e-08  8.20000000e-01 
 8.30000000e-01  4.58256816e-01  3.30605486e-09  3.26102028e-09  4.58256816e-01  4.58256816e-01  3.52524741e-09  3.15050331e-09  1.59789959e-07  3.94056201e-08  8.30000000e-01 
 8.40000000e-01  4.58256835e-01  3.30605487e-09  3.26102028e-09  4.58256835e-01  4.58256835e-01  3.52524747e-09  3.15050325e-09  1.59789984e-07  3.94054638e-08  8.40000000e-01 
 8.50000000e-01  4.58256813e-01  3.30605485e-09  3.26102028e-09  4.58256814e-01  4.58256813e-01  3.52524741e-09  3.15050331e-09  1.59789968e-07  3.94055135e-08  8.50000000e-01 
 8.60000000e-01  4.58256819e-01  3.30605487e-09  3.26102028e-09  4.58256819e-01  4.58256819e-01  3.52524741e-09  3.15050331e-09  1.59789994e-07  3.94054425e-08  8.60000000e-01 
 8.70000000e-01  4.58256803e-01  3.30605491e-09  3.26102034e-09  4.58256803e-01  4.58256803e-01  3.52524741e-09  3.15050331e-09  1.59789955e-07  3.94053501e-08  8.70000000e-01 
 8.80000000e-01  4.58256821e-01  3.30605492e-09  3.26102028e-09  4.58256821e-01  4.58256821e-01  3.52524741e-09  3.15050331e-09  1.59789982e-07  3.94051582e-08  8.80000000e-01 
 8.90000000e-01  4.58256825e-01  3.30605486e-09  3.26102034e-09  4.58256825e-01  4.58256825e-01  3.52524747e-09  3.15050331e-09  1.59789965e-07  3.94053430e-08  8.90000000e-01 
 9.00000000e-01  4.58256830e-01  3.30605493e-09  3.26102034e-09  4.58256830e-01  4.58256830e-01  3.52524747e-09  3.15050331e-09  1.59789989e-07  3.94051582e-08  9.00000000e-01 
 9.10000000e-01  4.58256816e-01  3.30605485e-09  3.26102028e-09  4.58256816e-01  4.58256816e-01  3.52524741e-09  3.15050325e-09  1.59789973e-07  3.94049948e-08  9.10000000e-01 
 9.20000000e-01  4.58256822e-01  3.30605487e-09  3.26102028e-09  4.58256822e-01  4.58256822e-01  3.52524741e-09  3.15050325e-09  1.59789987e-07  3.94049806e-08  9.20000000e-01 
 9.30000000e-01  4.58256808e-01  3.30605491e-09  3.26102034e-09  4.58256809e-01  4.58256808e-01  3.52524741e-09  3.15050331e-09  1.59789954e-07  3.94050161e-08  9.30000000e-01 
 9.40000000e-01  4.58256846e-01  3.30605492e-09  3.26102028e-09  4.58256846e-01  4.58256846e-01  3.52524742e-09  3.15050331e-09  1.59790003e-07  3.94049025e-08  9.40000000e-01 
 9.50000000e-01  4.58256839e-01  3.30605492e-09  3.26102028e-09  4.58256839e-01  4.58256839e-01  3.52524742e-09  3.15050325e-09  1.59789997e-07  3.94048740e-08  9.50000000e-01 
 9.60000000e-01  4.58256816e-01  3.30605492e-09  3.26102028e-09  4.58256817e-01  4.58256816e-01  3.52524741e-09  3.15050331e-09  1.59789968e-07  3.94047248e-08  9.60000000e-01 
 9.70000000e-01  4.58256822e-01  3.30605492e-09  3.26102028e-09  4.58256822e-01  4.58256822e-01  3.52524741e-09  3.15050325e-09  1.59789976e-07  3.94047888e-08  9.70000000e-01 
 9.80000000e-01  4.58256814e-01  3.30605486e-09  3.26102028e-09  4.58256814e-01  4.58256814e-01  3.52524741e-09  3.15050331e-09  1.59789970e-07  3.94046467e-08  9.80000000e-01 
 9.90000000e-01  4.58256822e-01  3.30605487e-09  3.26102028e-09  4.58256823e-01  4.58256823e-01  3.52524747e-09  3.15050331e-09  1.59789995e-07  3.94046751e-08  9.90000000e-01 
 1.00000000e+00  4.58256820e-01  3.30605491e-09  3.26102034e-09  4.58256820e-01  4.58256820e-01  3.52524747e-09  3.15050331e-09  1.59789970e-07  3.94045685e-08  1.00000000e+00 
 1.01000000e+00  4.58256825e-01  3.30605492e-09  3.26102028e-09  4.58256826e-01  4.58256825e-01  3.52524741e-09  3.15050331e-09  1.59789984e-07  3.94045614e-08  1.01000000e+00 
 1.02000000e+00  4.58256816e-01  3.30605486e-09  3.26102028e-09  4.58256816e-01  4.58256816e-01  3.52524741e-09  3.15050331e-09  1.59789964e-07  3.94045188e-08  1.02000000e+00 
 1.03000000e+00  4.58256785e-01  3.30605487e-09  3.26102034e-09  4.58256785e-01  4.58256785e-01  3.52524741e-09  3.15050331e-09  1.59789919e-07  3.94043056e-08  1.03000000e+00 
 1.04000000e+00  4.58256819e-01  3.30605491e-09  3.26102028e-09  4.58256819e-01  4.58256819e-01  3.52524741e-09  3.15050331e-09  1.59789968e-07  3.94043624e-08  1.04000000e+00 
 1.05000000e+00  4.58256816e-01  3.30605486e-09  3.26102028e-09  4.58256816e-01  4.58256816e-01  3.52524741e-09  3.15050331e-09  1.59789964e-07  3.94042488e-08  1.05000000e+00 
 1.06000000e+00  4.58256817e-01  3.30605487e-09  3.26102028e-09  4.58256817e-01  4.58256817e-01  3.52524741e-09  3.15050325e-09  1.59789975e-07  3.94043198e-08  1.06000000e+00 
 1.07000000e+00  4.58256840e-01  3.30605491e-09  3.26102028e-09  4.58256840e-01  4.58256840e-01  3.52524742e-09  3.15050325e-09  1.59790013e-07  3.94042914e-08  1.07000000e+00 
 1.08000000e+00  4.58256828e-01  3.30605492e-09  3.26102034e-09  4.58256828e-01  4.58256828e-01  3.52524742e-09  3.15050325e-09  1.59790001e-07  3.94040356e-08  1.08000000e+00 
 1.09000000e+00  4.58256808e-01  3.30605491e-09  3.26102028e-09  4.58256808e-01  4.58256808e-01  3.52524741e-09  3.15050331e-09  1.59789958e-07  3.94039432e-08  1.09000000e+00 
 1.10000000e+00  4.58256841e-01  3.30605492e-09  3.26102028e-09  4.58256841e-01  4.58256841e-01  3.52524742e-09  3.15050325e-09  1.59790012e-07  3.94040711e-08  1.10000000e+00 
