 v-sweep         v(b0)           v(b1)           v(b2)           v(b3)           v(b4)           v(b5)           v(b6)           i(vbias)        i(viout)        v(vout)        
 0.00000000e+00  4.55509186e-01  4.55509186e-01  4.55509186e-01  3.69051697e-09  3.15270064e-09  4.55509186e-01  3.48863368e-09  1.54938658e-07  5.37197155e-08  0.00000000e+00 
 1.00000000e-02  4.55509199e-01  4.55509200e-01  4.55509200e-01  3.69051700e-09  3.15270062e-09  4.55509199e-01  3.48863371e-09  1.54938685e-07  5.37192809e-08  1.00000000e-02 
 2.00000000e-02  4.55509169e-01  4.55509169e-01  4.55509170e-01  3.69051694e-09  3.15270062e-09  4.55509169e-01  3.48863371e-09  1.54938640e-07  5.37189533e-08  2.00000000e-02 
 3.00000000e-02  4.55509202e-01  4.55509202e-01  4.55509202e-01  3.69051695e-09  3.15270062e-09  4.55509202e-01  3.48863372e-09  1.54938691e-07  5.37186988e-08  3.00000000e-02 
 4.00000000e-02  4.55509213e-01  4.55509213e-01  4.55509213e-01  3.69051701e-09  3.15270062e-09  4.55509213e-01  3.48863372e-09  1.54938677e-07  5.37182570e-08  4.00000000e-02 
 5.00000000e-02  4.55509212e-01  4.55509212e-01  4.55509212e-01  3.69051699e-09  3.15270062e-09  4.55509212e-01  3.48863372e-09  1.54938708e-07  5.37179465e-08  5.00000000e-02 
 6.00000000e-02  4.55509211e-01  4.55509211e-01  4.55509211e-01  3.69051694e-09  3.15270062e-09  4.55509211e-01  3.48863372e-09  1.54938689e-07  5.37175624e-08  6.00000000e-02 
 7.00000000e-02  4.55509220e-01  4.55509220e-01  4.55509220e-01  3.69051696e-09  3.15270062e-09  4.55509220e-01  3.48863372e-09  1.54938718e-07  5.37173053e-08  7.00000000e-02 
 8.00000000e-02  4.55509177e-01  4.55509177e-01  4.55509177e-01  3.69051694e-09  3.15270062e-09  4.55509177e-01  3.48863371e-09  1.54938643e-07  5.37170273e-08  8.00000000e-02 
 9.00000000e-02  4.55509208e-01  4.55509208e-01  4.55509208e-01  3.69051695e-09  3.15270062e-09  4.55509208e-01  3.48863372e-09  1.54938697e-07  5.37167217e-08  9.00000000e-02 
 1.00000000e-01  4.55509192e-01  4.55509192e-01  4.55509192e-01  3.69051695e-09  3.15270062e-09  4.55509192e-01  3.48863371e-09  1.54938672e-07  5.37164926e-08  1.00000000e-01 
 1.10000000e-01  4.55509185e-01  4.55509185e-01  4.55509185e-01  3.69051700e-09  3.15270062e-09  4.55509185e-01  3.48863371e-09  1.54938655e-07  5.37161178e-08  1.10000000e-01 
 1.20000000e-01  4.55509200e-01  4.55509200e-01  4.55509200e-01  3.69051699e-09  3.15270062e-09  4.55509200e-01  3.48863371e-09  1.54938696e-07  5.37160192e-08  1.20000000e-01 
 1.30000000e-01  4.55509232e-01  4.55509232e-01  4.55509232e-01  3.69051700e-09  3.15270062e-09  4.55509232e-01  3.48863372e-09  1.54938732e-07  5.37158709e-08  1.30000000e-01 
 1.40000000e-01  4.55509165e-01  4.55509165e-01  4.55509165e-01  3.69051699e-09  3.15270062e-09  4.55509165e-01  3.48863371e-09  1.54938632e-07  5.37155485e-08  1.40000000e-01 
 1.50000000e-01  4.55509195e-01  4.55509195e-01  4.55509195e-01  3.69051700e-09  3.15270062e-09  4.55509195e-01  3.48863371e-09  1.54938674e-07  5.37153930e-08  1.50000000e-01 
 1.60000000e-01  4.55509195e-01  4.55509195e-01  4.55509195e-01  3.69051700e-09  3.15270062e-09  4.55509195e-01  3.48863377e-09  1.54938669e-07  5.37151443e-08  1.60000000e-01 
 1.70000000e-01  4.55509212e-01  4.55509212e-01  4.55509212e-01  3.69051700e-09  3.15270062e-09  4.55509212e-01  3.48863376e-09  1.54938705e-07  5.37150644e-08  1.70000000e-01 
 1.80000000e-01  4.55509208e-01  4.55509208e-01  4.55509208e-01  3.69051700e-09  3.15270062e-09  4.55509208e-01  3.48863372e-09  1.54938694e-07  5.37148193e-08  1.80000000e-01 
 1.90000000e-01  4.55509201e-01  4.55509201e-01  4.55509201e-01  3.69051694e-09  3.15270062e-09  4.55509201e-01  3.48863372e-09  1.54938682e-07  5.37146256e-08  1.90000000e-01 
 2.00000000e-01  4.55509196e-01  4.55509196e-01  4.55509197e-01  3.69051701e-09  3.15270062e-09  4.55509196e-01  3.48863371e-09  1.54938686e-07  5.37144906e-08  2.00000000e-01 
 2.10000000e-01  4.55509215e-01  4.55509216e-01  4.55509216e-01  3.69051700e-09  3.15270062e-09  4.55509215e-01  3.48863372e-09  1.54938718e-07  5.37142526e-08  2.10000000e-01 
 2.20000000e-01  4.55509169e-01  4.55509169e-01  4.55509169e-01  3.69051699e-09  3.15270062e-09  4.55509169e-01  3.48863371e-09  1.54938633e-07  5.37141975e-08  2.20000000e-01 
 2.30000000e-01  4.55509208e-01  4.55509209e-01  4.55509209e-01  3.69051700e-09  3.15270062e-09  4.55509208e-01  3.48863372e-09  1.54938703e-07  5.37141425e-08  2.30000000e-01 
 2.40000000e-01  4.55509209e-01  4.55509209e-01  4.55509209e-01  3.69051700e-09  3.15270062e-09  4.55509209e-01  3.48863372e-09  1.54938694e-07  5.37139559e-08  2.40000000e-01 
 2.50000000e-01  4.55509204e-01  4.55509204e-01  4.55509204e-01  3.69051700e-09  3.15270062e-09  4.55509204e-01  3.48863372e-09  1.54938685e-07  5.37138618e-08  2.50000000e-01 
 2.60000000e-01  4.55509201e-01  4.55509201e-01  4.55509201e-01  3.69051700e-09  3.15270062e-09  4.55509201e-01  3.48863377e-09  1.54938686e-07  5.37136522e-08  2.60000000e-01 
 2.70000000e-01  4.55509192e-01  4.55509193e-01  4.55509193e-01  3.69051700e-09  3.15270062e-09  4.55509192e-01  3.48863376e-09  1.54938673e-07  5.37135350e-08  2.70000000e-01 
 2.80000000e-01  4.55509213e-01  4.55509213e-01  4.55509213e-01  3.69051700e-09  3.15270062e-09  4.55509213e-01  3.48863372e-09  1.54938690e-07  5.37133786e-08  2.80000000e-01 
 2.90000000e-01  4.55509171e-01  4.55509171e-01  4.55509171e-01  3.69051699e-09  3.15270062e-09  4.55509171e-01  3.48863371e-09  1.54938646e-07  5.37133324e-08  2.90000000e-01 
 3.00000000e-01  4.55509208e-01  4.55509208e-01  4.55509208e-01  3.69051700e-09  3.15270062e-09  4.55509208e-01  3.48863372e-09  1.54938695e-07  5.37131122e-08  3.00000000e-01 
 3.10000000e-01  4.55509195e-01  4.55509195e-01  4.55509196e-01  3.69051700e-09  3.15270062e-09  4.55509195e-01  3.48863371e-09  1.54938681e-07  5.37131442e-08  3.10000000e-01 
 3.20000000e-01  4.55509214e-01  4.55509214e-01  4.55509214e-01  3.69051700e-09  3.15270062e-09  4.55509214e-01  3.48863372e-09  1.54938693e-07  5.37130624e-08  3.20000000e-01 
 3.30000000e-01  4.55509184e-01  4.55509184e-01  4.55509184e-01  3.69051700e-09  3.15270062e-09  4.55509184e-01  3.48863371e-09  1.54938667e-07  5.37129843e-08  3.30000000e-01 
 3.40000000e-01  4.55509211e-01  4.55509211e-01  4.55509211e-01  3.69051700e-09  3.15270062e-09  4.55509211e-01  3.48863372e-09  1.54938713e-07  5.37129061e-08  3.40000000e-01 
 3.50000000e-01  4.55509201e-01  4.55509201e-01  4.55509201e-01  3.69051700e-09  3.15270062e-09  4.55509201e-01  3.48863372e-09  1.54938688e-07  5.37126326e-08  3.50000000e-01 
 3.60000000e-01  4.55509214e-01  4.55509214e-01  4.55509214e-01  3.69051700e-09  3.15270062e-09  4.55509214e-01  3.48863372e-09  1.54938705e-07  5.37126397e-08  3.60000000e-01 
 3.70000000e-01  4.55509179e-01  4.55509179e-01  4.55509179e-01  3.69051700e-09  3.15270062e-09  4.55509179e-01  3.48863371e-09  1.54938648e-07  5.37125544e-08  3.70000000e-01 
 3.80000000e-01  4.55509211e-01  4.55509211e-01  4.55509211e-01  3.69051700e-09  3.15270062e-09  4.55509211e-01  3.48863372e-09  1.54938692e-07  5.37124762e-08  3.80000000e-01 
 3.90000000e-01  4.55509202e-01  4.55509202e-01  4.55509202e-01  3.69051694e-09  3.15270062e-09  4.55509202e-01  3.48863372e-09  1.54938702e-07  5.37122737e-08  3.90000000e-01 
 4.00000000e-01  4.55509182e-01  4.55509182e-01  4.55509182e-01  3.69051701e-09  3.15270062e-09  4.55509182e-01  3.48863377e-09  1.54938648e-07  5.37122276e-08  4.00000000e-01 
 4.10000000e-01  4.55509191e-01  4.55509191e-01  4.55509191e-01  3.69051699e-09  3.15270062e-09  4.55509191e-01  3.48863376e-09  1.54938675e-07  5.37121849e-08  4.10000000e-01 
 4.20000000e-01  4.55509214e-01  4.55509214e-01  4.55509215e-01  3.69051700e-09  3.15270062e-09  4.55509214e-01  3.48863372e-09  1.54938713e-07  5.37122027e-08  4.20000000e-01 
 4.30000000e-01  4.55509199e-01  4.55509199e-01  4.55509199e-01  3.69051694e-09  3.15270062e-09  4.55509199e-01  3.48863371e-09  1.54938674e-07  5.37120144e-08  4.30000000e-01 
 4.40000000e-01  4.55509190e-01  4.55509190e-01  4.55509190e-01  3.69051701e-09  3.15270062e-09  4.55509190e-01  3.48863371e-09  1.54938680e-07  5.37120144e-08  4.40000000e-01 
 4.50000000e-01  4.55509216e-01  4.55509216e-01  4.55509216e-01  3.69051700e-09  3.15270062e-09  4.55509216e-01  3.48863372e-09  1.54938706e-07  5.37119398e-08  4.50000000e-01 
 4.60000000e-01  4.55509197e-01  4.55509197e-01  4.55509197e-01  3.69051700e-09  3.15270062e-09  4.55509197e-01  3.48863371e-09  1.54938686e-07  5.37118616e-08  4.60000000e-01 
 4.70000000e-01  4.55509212e-01  4.55509212e-01  4.55509212e-01  3.69051694e-09  3.15270062e-09  4.55509212e-01  3.48863372e-09  1.54938702e-07  5.37117550e-08  4.70000000e-01 
 4.80000000e-01  4.55509187e-01  4.55509188e-01  4.55509188e-01  3.69051701e-09  3.15270062e-09  4.55509187e-01  3.48863371e-09  1.54938657e-07  5.37117515e-08  4.80000000e-01 
 4.90000000e-01  4.55509200e-01  4.55509200e-01  4.55509200e-01  3.69051699e-09  3.15270062e-09  4.55509200e-01  3.48863371e-09  1.54938679e-07  5.37116094e-08  4.90000000e-01 
 5.00000000e-01  4.55509215e-01  4.55509215e-01  4.55509215e-01  3.69051700e-09  3.15270062e-09  4.55509215e-01  3.48863372e-09  1.54938699e-07  5.37116165e-08  5.00000000e-01 
 5.10000000e-01  4.55509214e-01  4.55509214e-01  4.55509214e-01  3.69051700e-09  3.15270062e-09  4.55509214e-01  3.48863372e-09  1.54938700e-07  5.37114637e-08  5.10000000e-01 
 5.20000000e-01  4.55509188e-01  4.55509188e-01  4.55509188e-01  3.69051700e-09  3.15270062e-09  4.55509188e-01  3.48863371e-09  1.54938671e-07  5.37115135e-08  5.20000000e-01 
 5.30000000e-01  4.55509193e-01  4.55509193e-01  4.55509193e-01  3.69051700e-09  3.15270062e-09  4.55509193e-01  3.48863371e-09  1.54938688e-07  5.37113962e-08  5.30000000e-01 
 5.40000000e-01  4.55509185e-01  4.55509185e-01  4.55509185e-01  3.69051700e-09  3.15270062e-09  4.55509185e-01  3.48863377e-09  1.54938662e-07  5.37112719e-08  5.40000000e-01 
 5.50000000e-01  4.55509191e-01  4.55509191e-01  4.55509191e-01  3.69051700e-09  3.15270062e-09  4.55509191e-01  3.48863370e-09  1.54938669e-07  5.37112719e-08  5.50000000e-01 
 5.60000000e-01  4.55509192e-01  4.55509192e-01  4.55509192e-01  3.69051700e-09  3.15270062e-09  4.55509192e-01  3.48863372e-09  1.54938677e-07  5.37110978e-08  5.60000000e-01 
 5.70000000e-01  4.55509204e-01  4.55509204e-01  4.55509204e-01  3.69051700e-09  3.15270062e-09  4.55509204e-01  3.48863372e-09  1.54938699e-07  5.37111831e-08  5.70000000e-01 
 5.80000000e-01  4.55509170e-01  4.55509170e-01  4.55509170e-01  3.69051699e-09  3.15270062e-09  4.55509170e-01  3.48863371e-09  1.54938638e-07  5.37110338e-08  5.80000000e-01 
 5.90000000e-01  4.55509200e-01  4.55509200e-01  4.55509201e-01  3.69051700e-09  3.15270062e-09  4.55509200e-01  3.48863372e-09  1.54938678e-07  5.37109273e-08  5.90000000e-01 
 6.00000000e-01  4.55509191e-01  4.55509191e-01  4.55509191e-01  3.69051700e-09  3.15270062e-09  4.55509191e-01  3.48863371e-09  1.54938664e-07  5.37109415e-08  6.00000000e-01 
 6.10000000e-01  4.55509205e-01  4.55509205e-01  4.55509205e-01  3.69051700e-09  3.15270062e-09  4.55509205e-01  3.48863372e-09  1.54938701e-07  5.37109557e-08  6.10000000e-01 
 6.20000000e-01  4.55509204e-01  4.55509204e-01  4.55509204e-01  3.69051700e-09  3.15270062e-09  4.55509204e-01  3.48863377e-09  1.54938678e-07  5.37107567e-08  6.20000000e-01 
 6.30000000e-01  4.55509200e-01  4.55509200e-01  4.55509200e-01  3.69051700e-09  3.15270062e-09  4.55509200e-01  3.48863376e-09  1.54938683e-07  5.37108633e-08  6.30000000e-01 
 6.40000000e-01  4.55509219e-01  4.55509220e-01  4.55509220e-01  3.69051695e-09  3.15270062e-09  4.55509219e-01  3.48863372e-09  1.54938715e-07  5.37108988e-08  6.40000000e-01 
 6.50000000e-01  4.55509201e-01  4.55509201e-01  4.55509201e-01  3.69051701e-09  3.15270062e-09  4.55509201e-01  3.48863377e-09  1.54938684e-07  5.37107212e-08  6.50000000e-01 
 6.60000000e-01  4.55509209e-01  4.55509210e-01  4.55509210e-01  3.69051699e-09  3.15270062e-09  4.55509209e-01  3.48863370e-09  1.54938704e-07  5.37106359e-08  6.60000000e-01 
 6.70000000e-01  4.55509199e-01  4.55509199e-01  4.55509199e-01  3.69051694e-09  3.15270062e-09  4.55509199e-01  3.48863372e-09  1.54938684e-07  5.37106359e-08  6.70000000e-01 
 6.80000000e-01  4.55509209e-01  4.55509209e-01  4.55509209e-01  3.69051701e-09  3.15270062e-09  4.55509209e-01  3.48863372e-09  1.54938702e-07  5.37104867e-08  6.80000000e-01 
 6.90000000e-01  4.55509199e-01  4.55509199e-01  4.55509199e-01  3.69051699e-09  3.15270062e-09  4.55509199e-01  3.48863371e-09  1.54938678e-07  5.37105009e-08  6.90000000e-01 
 7.00000000e-01  4.55509196e-01  4.55509196e-01  4.55509196e-01  3.69051700e-09  3.15270062e-09  4.55509196e-01  3.48863371e-09  1.54938682e-07  5.37103801e-08  7.00000000e-01 
 7.10000000e-01  4.55509186e-01  4.55509186e-01  4.55509186e-01  3.69051700e-09  3.15270062e-09  4.55509186e-01  3.48863371e-09  1.54938674e-07  5.37102878e-08  7.10000000e-01 
 7.20000000e-01  4.55509200e-01  4.55509200e-01  4.55509200e-01  3.69051700e-09  3.15270062e-09  4.55509200e-01  3.48863372e-09  1.54938676e-07  5.37102451e-08  7.20000000e-01 
 7.30000000e-01  4.55509220e-01  4.55509220e-01  4.55509220e-01  3.69051700e-09  3.15270062e-09  4.55509220e-01  3.48863372e-09  1.54938707e-07  5.37102309e-08  7.30000000e-01 
 7.40000000e-01  4.55509216e-01  4.55509216e-01  4.55509216e-01  3.69051700e-09  3.15270062e-09  4.55509216e-01  3.48863372e-09  1.54938712e-07  5.37101599e-08  7.40000000e-01 
 7.50000000e-01  4.55509228e-01  4.55509228e-01  4.55509228e-01  3.69051700e-09  3.15270062e-09  4.55509228e-01  3.48863372e-09  1.54938713e-07  5.37101883e-08  7.50000000e-01 
 7.60000000e-01  4.55509197e-01  4.55509197e-01  4.55509197e-01  3.69051700e-09  3.15270062e-09  4.55509197e-01  3.48863371e-09  1.54938678e-07  5.37101599e-08  7.60000000e-01 
 7.70000000e-01  4.55509199e-01  4.55509199e-01  4.55509199e-01  3.69051700e-09  3.15270062e-09  4.55509199e-01  3.48863371e-09  1.54938670e-07  5.37098970e-08  7.70000000e-01 
 7.80000000e-01  4.55509201e-01  4.55509201e-01  4.55509201e-01  3.69051700e-09  3.15270062e-09  4.55509201e-01  3.48863372e-09  1.54938681e-07  5.37098686e-08  7.80000000e-01 
 7.90000000e-01  4.55509205e-01  4.55509205e-01  4.55509205e-01  3.69051700e-09  3.15270062e-09  4.55509205e-01  3.48863372e-09  1.54938688e-07  5.37098046e-08  7.90000000e-01 
 8.00000000e-01  4.55509222e-01  4.55509222e-01  4.55509222e-01  3.69051700e-09  3.15270062e-09  4.55509222e-01  3.48863377e-09  1.54938721e-07  5.37097691e-08  8.00000000e-01 
 8.10000000e-01  4.55509225e-01  4.55509225e-01  4.55509225e-01  3.69051700e-09  3.15270062e-09  4.55509225e-01  3.48863370e-09  1.54938724e-07  5.37097051e-08  8.10000000e-01 
 8.20000000e-01  4.55509199e-01  4.55509199e-01  4.55509199e-01  3.69051694e-09  3.15270062e-09  4.55509199e-01  3.48863372e-09  1.54938680e-07  5.37096412e-08  8.20000000e-01 
 8.30000000e-01  4.55509205e-01  4.55509205e-01  4.55509205e-01  3.69051701e-09  3.15270062e-09  4.55509205e-01  3.48863372e-09  1.54938688e-07  5.37096057e-08  8.30000000e-01 
 8.40000000e-01  4.55509201e-01  4.55509201e-01  4.55509201e-01  3.69051699e-09  3.15270062e-09  4.55509201e-01  3.48863372e-09  1.54938698e-07  5.37095630e-08  8.40000000e-01 
 8.50000000e-01  4.55509180e-01  4.55509181e-01  4.55509181e-01  3.69051694e-09  3.15270062e-09  4.55509180e-01  3.48863371e-09  1.54938663e-07  5.37094564e-08  8.50000000e-01 
 8.60000000e-01  4.55509200e-01  4.55509200e-01  4.55509200e-01  3.69051695e-09  3.15270062e-09  4.55509200e-01  3.48863372e-09  1.54938691e-07  5.37093570e-08  8.60000000e-01 
 8.70000000e-01  4.55509193e-01  4.55509193e-01  4.55509193e-01  3.69051700e-09  3.15270062e-09  4.55509193e-01  3.48863371e-09  1.54938657e-07  5.37093570e-08  8.70000000e-01 
 8.80000000e-01  4.55509186e-01  4.55509186e-01  4.55509186e-01  3.69051693e-09  3.15270062e-09  4.55509186e-01  3.48863371e-09  1.54938676e-07  5.37091935e-08  8.80000000e-01 
 8.90000000e-01  4.55509190e-01  4.55509190e-01  4.55509190e-01  3.69051701e-09  3.15270062e-09  4.55509190e-01  3.48863371e-09  1.54938665e-07  5.37091935e-08  8.90000000e-01 
 9.00000000e-01  4.55509204e-01  4.55509204e-01  4.55509204e-01  3.69051699e-09  3.15270062e-09  4.55509204e-01  3.48863372e-09  1.54938694e-07  5.37092291e-08  9.00000000e-01 
 9.10000000e-01  4.55509179e-01  4.55509179e-01  4.55509179e-01  3.69051700e-09  3.15270062e-09  4.55509179e-01  3.48863371e-09  1.54938665e-07  5.37090799e-08  9.10000000e-01 
 9.20000000e-01  4.55509198e-01  4.55509199e-01  4.55509199e-01  3.69051694e-09  3.15270062e-09  4.55509199e-01  3.48863371e-09  1.54938679e-07  5.37089946e-08  9.20000000e-01 
 9.30000000e-01  4.55509212e-01  4.55509212e-01  4.55509212e-01  3.69051701e-09  3.15270062e-09  4.55509212e-01  3.48863372e-09  1.54938694e-07  5.37090799e-08  9.30000000e-01 
 9.40000000e-01  4.55509207e-01  4.55509207e-01  4.55509207e-01  3.69051699e-09  3.15270062e-09  4.55509207e-01  3.48863372e-09  1.54938699e-07  5.37089591e-08  9.40000000e-01 
 9.50000000e-01  4.55509197e-01  4.55509197e-01  4.55509197e-01  3.69051694e-09  3.15270062e-09  4.55509197e-01  3.48863371e-09  1.54938669e-07  5.37087601e-08  9.50000000e-01 
 9.60000000e-01  4.55509203e-01  4.55509203e-01  4.55509203e-01  3.69051696e-09  3.15270062e-09  4.55509203e-01  3.48863372e-09  1.54938688e-07  5.37087956e-08  9.60000000e-01 
 9.70000000e-01  4.55509212e-01  4.55509212e-01  4.55509212e-01  3.69051695e-09  3.15270062e-09  4.55509212e-01  3.48863372e-09  1.54938714e-07  5.37087956e-08  9.70000000e-01 
 9.80000000e-01  4.55509199e-01  4.55509199e-01  4.55509199e-01  3.69051701e-09  3.15270062e-09  4.55509199e-01  3.48863377e-09  1.54938672e-07  5.37087104e-08  9.80000000e-01 
 9.90000000e-01  4.55509202e-01  4.55509202e-01  4.55509202e-01  3.69051699e-09  3.15270062e-09  4.55509202e-01  3.48863370e-09  1.54938687e-07  5.37086251e-08  9.90000000e-01 
 1.00000000e+00  4.55509204e-01  4.55509204e-01  4.55509204e-01  3.69051694e-09  3.15270062e-09  4.55509204e-01  3.48863372e-09  1.54938706e-07  5.37085043e-08  1.00000000e+00 
 1.01000000e+00  4.55509199e-01  4.55509199e-01  4.55509199e-01  3.69051701e-09  3.15270062e-09  4.55509199e-01  3.48863371e-09  1.54938668e-07  5.37084475e-08  1.01000000e+00 
 1.02000000e+00  4.55509209e-01  4.55509209e-01  4.55509209e-01  3.69051699e-09  3.15270062e-09  4.55509209e-01  3.48863372e-09  1.54938694e-07  5.37084048e-08  1.02000000e+00 
 1.03000000e+00  4.55509173e-01  4.55509173e-01  4.55509173e-01  3.69051694e-09  3.15270062e-09  4.55509173e-01  3.48863371e-09  1.54938635e-07  5.37083338e-08  1.03000000e+00 
 1.04000000e+00  4.55509200e-01  4.55509200e-01  4.55509200e-01  3.69051695e-09  3.15270062e-09  4.55509200e-01  3.48863371e-09  1.54938676e-07  5.37081633e-08  1.04000000e+00 
 1.05000000e+00  4.55509199e-01  4.55509199e-01  4.55509199e-01  3.69051701e-09  3.15270062e-09  4.55509199e-01  3.48863371e-09  1.54938679e-07  5.37080922e-08  1.05000000e+00 
 1.06000000e+00  4.55509199e-01  4.55509199e-01  4.55509199e-01  3.69051699e-09  3.15270062e-09  4.55509199e-01  3.48863371e-09  1.54938679e-07  5.37081064e-08  1.06000000e+00 
 1.07000000e+00  4.55509219e-01  4.55509219e-01  4.55509219e-01  3.69051695e-09  3.15270062e-09  4.55509219e-01  3.48863372e-09  1.54938722e-07  5.37081490e-08  1.07000000e+00 
 1.08000000e+00  4.55509172e-01  4.55509172e-01  4.55509172e-01  3.69051701e-09  3.15270062e-09  4.55509172e-01  3.48863371e-09  1.54938646e-07  5.37078790e-08  1.08000000e+00 
 1.09000000e+00  4.55509200e-01  4.55509200e-01  4.55509200e-01  3.69051699e-09  3.15270062e-09  4.55509200e-01  3.48863371e-09  1.54938673e-07  5.37079501e-08  1.09000000e+00 
 1.10000000e+00  4.55509181e-01  4.55509181e-01  4.55509181e-01  3.69051700e-09  3.15270062e-09  4.55509181e-01  3.48863371e-09  1.54938662e-07  5.37078719e-08  1.10000000e+00 
