 v-sweep         v(b0)           v(b1)           v(b2)           v(b3)           v(b4)           v(b5)           v(b6)           i(vbias)        i(viout)        v(vout)        
 0.00000000e+00  3.33074089e-09  4.58554775e-01  3.52019194e-09  3.44273945e-09  4.58554775e-01  3.08302382e-09  4.58554775e-01  1.59024638e-07  1.24428244e-07  0.00000000e+00 
 1.00000000e-02  3.33074087e-09  4.58554795e-01  3.52019192e-09  3.44273944e-09  4.58554795e-01  3.08302386e-09  4.58554795e-01  1.59024679e-07  1.24427802e-07  1.00000000e-02 
 2.00000000e-02  3.33074087e-09  4.58554784e-01  3.52019192e-09  3.44273944e-09  4.58554784e-01  3.08302386e-09  4.58554784e-01  1.59024657e-07  1.24427304e-07  2.00000000e-02 
 3.00000000e-02  3.33074087e-09  4.58554793e-01  3.52019192e-09  3.44273944e-09  4.58554793e-01  3.08302386e-09  4.58554793e-01  1.59024663e-07  1.24426955e-07  3.00000000e-02 
 4.00000000e-02  3.33074093e-09  4.58554785e-01  3.52019192e-09  3.44273949e-09  4.58554785e-01  3.08302386e-09  4.58554785e-01  1.59024666e-07  1.24426620e-07  4.00000000e-02 
 5.00000000e-02  3.33074093e-09  4.58554779e-01  3.52019192e-09  3.44273943e-09  4.58554780e-01  3.08302386e-09  4.58554780e-01  1.59024644e-07  1.24426313e-07  5.00000000e-02 
 6.00000000e-02  3.33074093e-09  4.58554779e-01  3.52019192e-09  3.44273949e-09  4.58554780e-01  3.08302386e-09  4.58554780e-01  1.59024652e-07  1.24425900e-07  6.00000000e-02 
 7.00000000e-02  3.33074093e-09  4.58554794e-01  3.52019192e-09  3.44273944e-09  4.58554794e-01  3.08302386e-09  4.58554794e-01  1.59024661e-07  1.24425561e-07  7.00000000e-02 
 8.00000000e-02  3.33074093e-09  4.58554780e-01  3.52019192e-09  3.44273943e-09  4.58554780e-01  3.08302386e-09  4.58554780e-01  1.59024643e-07  1.24425185e-07  8.00000000e-02 
 9.00000000e-02  3.33074093e-09  4.58554777e-01  3.52019192e-09  3.44273949e-09  4.58554777e-01  3.08302386e-09  4.58554777e-01  1.59024638e-07  1.24424863e-07  9.00000000e-02 
 1.00000000e-01  3.33074093e-09  4.58554798e-01  3.52019192e-09  3.44273944e-09  4.58554798e-01  3.08302386e-09  4.58554798e-01  1.59024686e-07  1.24424623e-07  1.00000000e-01 
 1.10000000e-01  3.33074093e-09  4.58554799e-01  3.52019193e-09  3.44273944e-09  4.58554799e-01  3.08302386e-09  4.58554799e-01  1.59024677e-07  1.24424336e-07  1.10000000e-01 
 1.20000000e-01  3.33074093e-09  4.58554797e-01  3.52019192e-09  3.44273944e-09  4.58554797e-01  3.08302386e-09  4.58554797e-01  1.59024679e-07  1.24424189e-07  1.20000000e-01 
 1.30000000e-01  3.33074093e-09  4.58554787e-01  3.52019192e-09  3.44273944e-09  4.58554787e-01  3.08302386e-09  4.58554787e-01  1.59024660e-07  1.24423812e-07  1.30000000e-01 
 1.40000000e-01  3.33074087e-09  4.58554783e-01  3.52019192e-09  3.44273943e-09  4.58554783e-01  3.08302386e-09  4.58554783e-01  1.59024647e-07  1.24423581e-07  1.40000000e-01 
 1.50000000e-01  3.33074087e-09  4.58554782e-01  3.52019192e-09  3.44273943e-09  4.58554782e-01  3.08302386e-09  4.58554782e-01  1.59024653e-07  1.24423362e-07  1.50000000e-01 
 1.60000000e-01  3.33074087e-09  4.58554781e-01  3.52019192e-09  3.44273943e-09  4.58554781e-01  3.08302386e-09  4.58554781e-01  1.59024639e-07  1.24423194e-07  1.60000000e-01 
 1.70000000e-01  3.33074093e-09  4.58554801e-01  3.52019193e-09  3.44273944e-09  4.58554801e-01  3.08302386e-09  4.58554801e-01  1.59024683e-07  1.24423055e-07  1.70000000e-01 
 1.80000000e-01  3.33074093e-09  4.58554770e-01  3.52019192e-09  3.44273943e-09  4.58554770e-01  3.08302386e-09  4.58554770e-01  1.59024621e-07  1.24422762e-07  1.80000000e-01 
 1.90000000e-01  3.33074087e-09  4.58554775e-01  3.52019192e-09  3.44273949e-09  4.58554775e-01  3.08302386e-09  4.58554775e-01  1.59024635e-07  1.24422515e-07  1.90000000e-01 
 2.00000000e-01  3.33074087e-09  4.58554781e-01  3.52019192e-09  3.44273943e-09  4.58554781e-01  3.08302386e-09  4.58554781e-01  1.59024654e-07  1.24422304e-07  2.00000000e-01 
 2.10000000e-01  3.33074087e-09  4.58554766e-01  3.52019192e-09  3.44273949e-09  4.58554766e-01  3.08302386e-09  4.58554766e-01  1.59024627e-07  1.24422101e-07  2.10000000e-01 
 2.20000000e-01  3.33074093e-09  4.58554785e-01  3.52019192e-09  3.44273944e-09  4.58554785e-01  3.08302386e-09  4.58554785e-01  1.59024654e-07  1.24422034e-07  2.20000000e-01 
 2.30000000e-01  3.33074087e-09  4.58554794e-01  3.52019192e-09  3.44273944e-09  4.58554794e-01  3.08302386e-09  4.58554794e-01  1.59024669e-07  1.24421755e-07  2.30000000e-01 
 2.40000000e-01  3.33074087e-09  4.58554800e-01  3.52019193e-09  3.44273944e-09  4.58554800e-01  3.08302380e-09  4.58554800e-01  1.59024682e-07  1.24421618e-07  2.40000000e-01 
 2.50000000e-01  3.33074093e-09  4.58554791e-01  3.52019192e-09  3.44273944e-09  4.58554791e-01  3.08302386e-09  4.58554791e-01  1.59024674e-07  1.24421572e-07  2.50000000e-01 
 2.60000000e-01  3.33074093e-09  4.58554795e-01  3.52019192e-09  3.44273949e-09  4.58554795e-01  3.08302380e-09  4.58554795e-01  1.59024675e-07  1.24421485e-07  2.60000000e-01 
 2.70000000e-01  3.33074093e-09  4.58554784e-01  3.52019192e-09  3.44273944e-09  4.58554784e-01  3.08302386e-09  4.58554784e-01  1.59024654e-07  1.24421327e-07  2.70000000e-01 
 2.80000000e-01  3.33074087e-09  4.58554802e-01  3.52019193e-09  3.44273944e-09  4.58554803e-01  3.08302386e-09  4.58554803e-01  1.59024686e-07  1.24421152e-07  2.80000000e-01 
 2.90000000e-01  3.33074093e-09  4.58554798e-01  3.52019192e-09  3.44273944e-09  4.58554799e-01  3.08302386e-09  4.58554799e-01  1.59024671e-07  1.24420993e-07  2.90000000e-01 
 3.00000000e-01  3.33074093e-09  4.58554800e-01  3.52019193e-09  3.44273949e-09  4.58554800e-01  3.08302386e-09  4.58554800e-01  1.59024681e-07  1.24420808e-07  3.00000000e-01 
 3.10000000e-01  3.33074087e-09  4.58554793e-01  3.52019192e-09  3.44273944e-09  4.58554793e-01  3.08302386e-09  4.58554793e-01  1.59024666e-07  1.24420794e-07  3.10000000e-01 
 3.20000000e-01  3.33074087e-09  4.58554781e-01  3.52019192e-09  3.44273943e-09  4.58554781e-01  3.08302386e-09  4.58554781e-01  1.59024652e-07  1.24420549e-07  3.20000000e-01 
 3.30000000e-01  3.33074087e-09  4.58554796e-01  3.52019192e-09  3.44273944e-09  4.58554796e-01  3.08302386e-09  4.58554796e-01  1.59024675e-07  1.24420470e-07  3.30000000e-01 
 3.40000000e-01  3.33074087e-09  4.58554758e-01  3.52019192e-09  3.44273949e-09  4.58554758e-01  3.08302386e-09  4.58554758e-01  1.59024610e-07  1.24420353e-07  3.40000000e-01 
 3.50000000e-01  3.33074093e-09  4.58554789e-01  3.52019192e-09  3.44273944e-09  4.58554789e-01  3.08302386e-09  4.58554789e-01  1.59024653e-07  1.24420250e-07  3.50000000e-01 
 3.60000000e-01  3.33074087e-09  4.58554780e-01  3.52019192e-09  3.44273949e-09  4.58554780e-01  3.08302386e-09  4.58554780e-01  1.59024636e-07  1.24420122e-07  3.60000000e-01 
 3.70000000e-01  3.33074093e-09  4.58554782e-01  3.52019192e-09  3.44273949e-09  4.58554782e-01  3.08302386e-09  4.58554782e-01  1.59024643e-07  1.24419998e-07  3.70000000e-01 
 3.80000000e-01  3.33074087e-09  4.58554788e-01  3.52019192e-09  3.44273944e-09  4.58554788e-01  3.08302386e-09  4.58554788e-01  1.59024657e-07  1.24419849e-07  3.80000000e-01 
 3.90000000e-01  3.33074087e-09  4.58554796e-01  3.52019192e-09  3.44273944e-09  4.58554796e-01  3.08302386e-09  4.58554796e-01  1.59024668e-07  1.24419813e-07  3.90000000e-01 
 4.00000000e-01  3.33074087e-09  4.58554792e-01  3.52019192e-09  3.44273944e-09  4.58554792e-01  3.08302386e-09  4.58554792e-01  1.59024667e-07  1.24419728e-07  4.00000000e-01 
 4.10000000e-01  3.33074087e-09  4.58554781e-01  3.52019192e-09  3.44273943e-09  4.58554781e-01  3.08302386e-09  4.58554781e-01  1.59024642e-07  1.24419664e-07  4.10000000e-01 
 4.20000000e-01  3.33074087e-09  4.58554800e-01  3.52019193e-09  3.44273944e-09  4.58554800e-01  3.08302386e-09  4.58554800e-01  1.59024674e-07  1.24419518e-07  4.20000000e-01 
 4.30000000e-01  3.33074093e-09  4.58554781e-01  3.52019192e-09  3.44273943e-09  4.58554781e-01  3.08302386e-09  4.58554781e-01  1.59024646e-07  1.24419305e-07  4.30000000e-01 
 4.40000000e-01  3.33074093e-09  4.58554780e-01  3.52019192e-09  3.44273949e-09  4.58554780e-01  3.08302386e-09  4.58554780e-01  1.59024648e-07  1.24419223e-07  4.40000000e-01 
 4.50000000e-01  3.33074087e-09  4.58554791e-01  3.52019192e-09  3.44273949e-09  4.58554791e-01  3.08302386e-09  4.58554791e-01  1.59024662e-07  1.24419113e-07  4.50000000e-01 
 4.60000000e-01  3.33074087e-09  4.58554774e-01  3.52019192e-09  3.44273943e-09  4.58554774e-01  3.08302386e-09  4.58554774e-01  1.59024631e-07  1.24419039e-07  4.60000000e-01 
 4.70000000e-01  3.33074087e-09  4.58554801e-01  3.52019193e-09  3.44273949e-09  4.58554801e-01  3.08302386e-09  4.58554802e-01  1.59024689e-07  1.24419088e-07  4.70000000e-01 
 4.80000000e-01  3.33074093e-09  4.58554767e-01  3.52019192e-09  3.44273943e-09  4.58554767e-01  3.08302386e-09  4.58554767e-01  1.59024638e-07  1.24418875e-07  4.80000000e-01 
 4.90000000e-01  3.33074093e-09  4.58554772e-01  3.52019192e-09  3.44273943e-09  4.58554772e-01  3.08302386e-09  4.58554772e-01  1.59024618e-07  1.24418765e-07  4.90000000e-01 
 5.00000000e-01  3.33074087e-09  4.58554786e-01  3.52019192e-09  3.44273949e-09  4.58554786e-01  3.08302386e-09  4.58554786e-01  1.59024657e-07  1.24418726e-07  5.00000000e-01 
 5.10000000e-01  3.33074093e-09  4.58554808e-01  3.52019187e-09  3.44273949e-09  4.58554808e-01  3.08302386e-09  4.58554808e-01  1.59024692e-07  1.24418658e-07  5.10000000e-01 
 5.20000000e-01  3.33074087e-09  4.58554800e-01  3.52019193e-09  3.44273944e-09  4.58554800e-01  3.08302386e-09  4.58554800e-01  1.59024664e-07  1.24418595e-07  5.20000000e-01 
 5.30000000e-01  3.33074093e-09  4.58554794e-01  3.52019192e-09  3.44273944e-09  4.58554794e-01  3.08302386e-09  4.58554794e-01  1.59024677e-07  1.24418431e-07  5.30000000e-01 
 5.40000000e-01  3.33074087e-09  4.58554801e-01  3.52019193e-09  3.44273949e-09  4.58554801e-01  3.08302386e-09  4.58554801e-01  1.59024679e-07  1.24418328e-07  5.40000000e-01 
 5.50000000e-01  3.33074087e-09  4.58554777e-01  3.52019192e-09  3.44273943e-09  4.58554777e-01  3.08302386e-09  4.58554777e-01  1.59024637e-07  1.24418218e-07  5.50000000e-01 
 5.60000000e-01  3.33074087e-09  4.58554793e-01  3.52019192e-09  3.44273949e-09  4.58554793e-01  3.08302386e-09  4.58554793e-01  1.59024673e-07  1.24418186e-07  5.60000000e-01 
 5.70000000e-01  3.33074087e-09  4.58554782e-01  3.52019192e-09  3.44273943e-09  4.58554782e-01  3.08302386e-09  4.58554782e-01  1.59024660e-07  1.24418051e-07  5.70000000e-01 
 5.80000000e-01  3.33074087e-09  4.58554781e-01  3.52019192e-09  3.44273943e-09  4.58554781e-01  3.08302386e-09  4.58554781e-01  1.59024652e-07  1.24417951e-07  5.80000000e-01 
 5.90000000e-01  3.33074087e-09  4.58554796e-01  3.52019192e-09  3.44273944e-09  4.58554796e-01  3.08302386e-09  4.58554796e-01  1.59024668e-07  1.24417895e-07  5.90000000e-01 
 6.00000000e-01  3.33074087e-09  4.58554802e-01  3.52019193e-09  3.44273949e-09  4.58554802e-01  3.08302386e-09  4.58554802e-01  1.59024685e-07  1.24417824e-07  6.00000000e-01 
 6.10000000e-01  3.33074093e-09  4.58554790e-01  3.52019192e-09  3.44273944e-09  4.58554790e-01  3.08302386e-09  4.58554790e-01  1.59024661e-07  1.24417745e-07  6.10000000e-01 
 6.20000000e-01  3.33074093e-09  4.58554788e-01  3.52019192e-09  3.44273944e-09  4.58554788e-01  3.08302386e-09  4.58554788e-01  1.59024671e-07  1.24417703e-07  6.20000000e-01 
 6.30000000e-01  3.33074093e-09  4.58554793e-01  3.52019192e-09  3.44273944e-09  4.58554793e-01  3.08302386e-09  4.58554793e-01  1.59024667e-07  1.24417603e-07  6.30000000e-01 
 6.40000000e-01  3.33074087e-09  4.58554795e-01  3.52019192e-09  3.44273944e-09  4.58554795e-01  3.08302386e-09  4.58554795e-01  1.59024673e-07  1.24417525e-07  6.40000000e-01 
 6.50000000e-01  3.33074087e-09  4.58554782e-01  3.52019192e-09  3.44273943e-09  4.58554782e-01  3.08302386e-09  4.58554782e-01  1.59024648e-07  1.24417340e-07  6.50000000e-01 
 6.60000000e-01  3.33074087e-09  4.58554779e-01  3.52019192e-09  3.44273949e-09  4.58554779e-01  3.08302386e-09  4.58554779e-01  1.59024649e-07  1.24417213e-07  6.60000000e-01 
 6.70000000e-01  3.33074087e-09  4.58554793e-01  3.52019192e-09  3.44273944e-09  4.58554793e-01  3.08302386e-09  4.58554793e-01  1.59024685e-07  1.24417184e-07  6.70000000e-01 
 6.80000000e-01  3.33074093e-09  4.58554791e-01  3.52019192e-09  3.44273949e-09  4.58554791e-01  3.08302386e-09  4.58554791e-01  1.59024673e-07  1.24417156e-07  6.80000000e-01 
 6.90000000e-01  3.33074087e-09  4.58554771e-01  3.52019192e-09  3.44273943e-09  4.58554771e-01  3.08302386e-09  4.58554771e-01  1.59024637e-07  1.24417035e-07  6.90000000e-01 
 7.00000000e-01  3.33074087e-09  4.58554797e-01  3.52019192e-09  3.44273949e-09  4.58554797e-01  3.08302386e-09  4.58554797e-01  1.59024671e-07  1.24416893e-07  7.00000000e-01 
 7.10000000e-01  3.33074087e-09  4.58554781e-01  3.52019192e-09  3.44273943e-09  4.58554781e-01  3.08302386e-09  4.58554781e-01  1.59024646e-07  1.24416815e-07  7.10000000e-01 
 7.20000000e-01  3.33074087e-09  4.58554776e-01  3.52019192e-09  3.44273943e-09  4.58554777e-01  3.08302386e-09  4.58554777e-01  1.59024652e-07  1.24416644e-07  7.20000000e-01 
 7.30000000e-01  3.33074093e-09  4.58554782e-01  3.52019192e-09  3.44273943e-09  4.58554782e-01  3.08302386e-09  4.58554782e-01  1.59024651e-07  1.24416673e-07  7.30000000e-01 
 7.40000000e-01  3.33074087e-09  4.58554790e-01  3.52019192e-09  3.44273944e-09  4.58554790e-01  3.08302386e-09  4.58554790e-01  1.59024665e-07  1.24416580e-07  7.40000000e-01 
 7.50000000e-01  3.33074087e-09  4.58554795e-01  3.52019192e-09  3.44273949e-09  4.58554795e-01  3.08302386e-09  4.58554795e-01  1.59024675e-07  1.24416566e-07  7.50000000e-01 
 7.60000000e-01  3.33074087e-09  4.58554800e-01  3.52019193e-09  3.44273944e-09  4.58554800e-01  3.08302386e-09  4.58554800e-01  1.59024685e-07  1.24416459e-07  7.60000000e-01 
 7.70000000e-01  3.33074093e-09  4.58554798e-01  3.52019192e-09  3.44273949e-09  4.58554798e-01  3.08302386e-09  4.58554798e-01  1.59024666e-07  1.24416268e-07  7.70000000e-01 
 7.80000000e-01  3.33074093e-09  4.58554792e-01  3.52019192e-09  3.44273944e-09  4.58554792e-01  3.08302386e-09  4.58554792e-01  1.59024677e-07  1.24416154e-07  7.80000000e-01 
 7.90000000e-01  3.33074087e-09  4.58554796e-01  3.52019192e-09  3.44273949e-09  4.58554796e-01  3.08302386e-09  4.58554796e-01  1.59024675e-07  1.24416175e-07  7.90000000e-01 
 8.00000000e-01  3.33074087e-09  4.58554802e-01  3.52019193e-09  3.44273949e-09  4.58554802e-01  3.08302386e-09  4.58554802e-01  1.59024678e-07  1.24416090e-07  8.00000000e-01 
 8.10000000e-01  3.33074093e-09  4.58554798e-01  3.52019192e-09  3.44273949e-09  4.58554798e-01  3.08302386e-09  4.58554798e-01  1.59024689e-07  1.24415919e-07  8.10000000e-01 
 8.20000000e-01  3.33074087e-09  4.58554808e-01  3.52019193e-09  3.44273949e-09  4.58554808e-01  3.08302386e-09  4.58554808e-01  1.59024685e-07  1.24415841e-07  8.20000000e-01 
 8.30000000e-01  3.33074087e-09  4.58554784e-01  3.52019192e-09  3.44273944e-09  4.58554784e-01  3.08302386e-09  4.58554784e-01  1.59024651e-07  1.24415735e-07  8.30000000e-01 
 8.40000000e-01  3.33074087e-09  4.58554798e-01  3.52019192e-09  3.44273944e-09  4.58554798e-01  3.08302386e-09  4.58554798e-01  1.59024672e-07  1.24415678e-07  8.40000000e-01 
 8.50000000e-01  3.33074093e-09  4.58554780e-01  3.52019192e-09  3.44273943e-09  4.58554780e-01  3.08302386e-09  4.58554780e-01  1.59024639e-07  1.24415564e-07  8.50000000e-01 
 8.60000000e-01  3.33074093e-09  4.58554788e-01  3.52019192e-09  3.44273949e-09  4.58554788e-01  3.08302386e-09  4.58554788e-01  1.59024661e-07  1.24415465e-07  8.60000000e-01 
 8.70000000e-01  3.33074093e-09  4.58554782e-01  3.52019192e-09  3.44273943e-09  4.58554782e-01  3.08302386e-09  4.58554782e-01  1.59024654e-07  1.24415337e-07  8.70000000e-01 
 8.80000000e-01  3.33074087e-09  4.58554790e-01  3.52019192e-09  3.44273944e-09  4.58554790e-01  3.08302386e-09  4.58554790e-01  1.59024676e-07  1.24415251e-07  8.80000000e-01 
 8.90000000e-01  3.33074093e-09  4.58554803e-01  3.52019193e-09  3.44273944e-09  4.58554803e-01  3.08302386e-09  4.58554803e-01  1.59024682e-07  1.24415259e-07  8.90000000e-01 
 9.00000000e-01  3.33074093e-09  4.58554777e-01  3.52019192e-09  3.44273949e-09  4.58554777e-01  3.08302386e-09  4.58554777e-01  1.59024635e-07  1.24415074e-07  9.00000000e-01 
 9.10000000e-01  3.33074087e-09  4.58554800e-01  3.52019193e-09  3.44273944e-09  4.58554800e-01  3.08302386e-09  4.58554800e-01  1.59024671e-07  1.24414960e-07  9.10000000e-01 
 9.20000000e-01  3.33074093e-09  4.58554777e-01  3.52019192e-09  3.44273943e-09  4.58554777e-01  3.08302386e-09  4.58554777e-01  1.59024627e-07  1.24414896e-07  9.20000000e-01 
 9.30000000e-01  3.33074087e-09  4.58554786e-01  3.52019192e-09  3.44273949e-09  4.58554786e-01  3.08302386e-09  4.58554786e-01  1.59024653e-07  1.24414875e-07  9.30000000e-01 
 9.40000000e-01  3.33074093e-09  4.58554803e-01  3.52019193e-09  3.44273944e-09  4.58554803e-01  3.08302386e-09  4.58554803e-01  1.59024701e-07  1.24414711e-07  9.40000000e-01 
 9.50000000e-01  3.33074093e-09  4.58554791e-01  3.52019192e-09  3.44273944e-09  4.58554791e-01  3.08302386e-09  4.58554791e-01  1.59024667e-07  1.24414683e-07  9.50000000e-01 
 9.60000000e-01  3.33074087e-09  4.58554766e-01  3.52019192e-09  3.44273943e-09  4.58554766e-01  3.08302386e-09  4.58554766e-01  1.59024637e-07  1.24414441e-07  9.60000000e-01 
 9.70000000e-01  3.33074093e-09  4.58554791e-01  3.52019192e-09  3.44273949e-09  4.58554791e-01  3.08302386e-09  4.58554791e-01  1.59024659e-07  1.24414292e-07  9.70000000e-01 
 9.80000000e-01  3.33074087e-09  4.58554799e-01  3.52019193e-09  3.44273949e-09  4.58554799e-01  3.08302386e-09  4.58554799e-01  1.59024682e-07  1.24414399e-07  9.80000000e-01 
 9.90000000e-01  3.33074093e-09  4.58554792e-01  3.52019192e-09  3.44273944e-09  4.58554792e-01  3.08302386e-09  4.58554792e-01  1.59024660e-07  1.24414207e-07  9.90000000e-01 
 1.00000000e+00  3.33074093e-09  4.58554806e-01  3.52019187e-09  3.44273944e-09  4.58554806e-01  3.08302386e-09  4.58554806e-01  1.59024682e-07  1.24414150e-07  1.00000000e+00 
 1.01000000e+00  3.33074093e-09  4.58554784e-01  3.52019192e-09  3.44273949e-09  4.58554784e-01  3.08302386e-09  4.58554784e-01  1.59024659e-07  1.24413972e-07  1.01000000e+00 
 1.02000000e+00  3.33074087e-09  4.58554783e-01  3.52019192e-09  3.44273943e-09  4.58554783e-01  3.08302386e-09  4.58554783e-01  1.59024643e-07  1.24413909e-07  1.02000000e+00 
 1.03000000e+00  3.33074093e-09  4.58554805e-01  3.52019193e-09  3.44273944e-09  4.58554805e-01  3.08302386e-09  4.58554805e-01  1.59024695e-07  1.24413958e-07  1.03000000e+00 
 1.04000000e+00  3.33074093e-09  4.58554773e-01  3.52019192e-09  3.44273943e-09  4.58554773e-01  3.08302386e-09  4.58554773e-01  1.59024631e-07  1.24413667e-07  1.04000000e+00 
 1.05000000e+00  3.33074093e-09  4.58554764e-01  3.52019192e-09  3.44273943e-09  4.58554764e-01  3.08302386e-09  4.58554764e-01  1.59024615e-07  1.24413532e-07  1.05000000e+00 
 1.06000000e+00  3.33074093e-09  4.58554793e-01  3.52019192e-09  3.44273944e-09  4.58554793e-01  3.08302386e-09  4.58554793e-01  1.59024661e-07  1.24413418e-07  1.06000000e+00 
 1.07000000e+00  3.33074093e-09  4.58554780e-01  3.52019192e-09  3.44273949e-09  4.58554780e-01  3.08302386e-09  4.58554780e-01  1.59024642e-07  1.24413368e-07  1.07000000e+00 
 1.08000000e+00  3.33074087e-09  4.58554772e-01  3.52019192e-09  3.44273943e-09  4.58554772e-01  3.08302386e-09  4.58554772e-01  1.59024651e-07  1.24413248e-07  1.08000000e+00 
 1.09000000e+00  3.33074093e-09  4.58554798e-01  3.52019192e-09  3.44273944e-09  4.58554798e-01  3.08302386e-09  4.58554798e-01  1.59024679e-07  1.24413205e-07  1.09000000e+00 
 1.10000000e+00  3.33074087e-09  4.58554784e-01  3.52019192e-09  3.44273944e-09  4.58554784e-01  3.08302386e-09  4.58554784e-01  1.59024640e-07  1.24412999e-07  1.10000000e+00 
