 v-sweep         v(b0)           v(b1)           v(b2)           v(b3)           v(b4)           v(b5)           v(b6)           i(vbias)        i(viout)        v(vout)        
 0.00000000e+00  4.54468742e-01  3.17238165e-09  4.54468742e-01  4.54468742e-01  4.54468742e-01  4.54468742e-01  4.54468742e-01  1.53193862e-07  1.66343008e-07  0.00000000e+00 
 1.00000000e-02  4.54468749e-01  3.17238164e-09  4.54468749e-01  4.54468749e-01  4.54468749e-01  4.54468749e-01  4.54468749e-01  1.53193886e-07  1.66342505e-07  1.00000000e-02 
 2.00000000e-02  4.54468756e-01  3.17238164e-09  4.54468756e-01  4.54468756e-01  4.54468756e-01  4.54468756e-01  4.54468756e-01  1.53193891e-07  1.66342175e-07  2.00000000e-02 
 3.00000000e-02  4.54468762e-01  3.17238164e-09  4.54468762e-01  4.54468762e-01  4.54468762e-01  4.54468762e-01  4.54468762e-01  1.53193904e-07  1.66341802e-07  3.00000000e-02 
 4.00000000e-02  4.54468766e-01  3.17238170e-09  4.54468766e-01  4.54468766e-01  4.54468766e-01  4.54468766e-01  4.54468766e-01  1.53193905e-07  1.66341374e-07  4.00000000e-02 
 5.00000000e-02  4.54468749e-01  3.17238169e-09  4.54468750e-01  4.54468749e-01  4.54468749e-01  4.54468749e-01  4.54468750e-01  1.53193882e-07  1.66340887e-07  5.00000000e-02 
 6.00000000e-02  4.54468771e-01  3.17238171e-09  4.54468771e-01  4.54468771e-01  4.54468771e-01  4.54468771e-01  4.54468771e-01  1.53193915e-07  1.66340643e-07  6.00000000e-02 
 7.00000000e-02  4.54468762e-01  3.17238163e-09  4.54468762e-01  4.54468762e-01  4.54468762e-01  4.54468762e-01  4.54468762e-01  1.53193878e-07  1.66340127e-07  7.00000000e-02 
 8.00000000e-02  4.54468751e-01  3.17238165e-09  4.54468751e-01  4.54468751e-01  4.54468751e-01  4.54468751e-01  4.54468751e-01  1.53193874e-07  1.66339916e-07  8.00000000e-02 
 9.00000000e-02  4.54468758e-01  3.17238164e-09  4.54468758e-01  4.54468758e-01  4.54468758e-01  4.54468758e-01  4.54468758e-01  1.53193902e-07  1.66339550e-07  9.00000000e-02 
 1.00000000e-01  4.54468753e-01  3.17238170e-09  4.54468753e-01  4.54468753e-01  4.54468753e-01  4.54468753e-01  4.54468753e-01  1.53193886e-07  1.66339237e-07  1.00000000e-01 
 1.10000000e-01  4.54468758e-01  3.17238163e-09  4.54468758e-01  4.54468758e-01  4.54468758e-01  4.54468758e-01  4.54468758e-01  1.53193908e-07  1.66338970e-07  1.10000000e-01 
 1.20000000e-01  4.54468756e-01  3.17238165e-09  4.54468756e-01  4.54468756e-01  4.54468756e-01  4.54468756e-01  4.54468756e-01  1.53193891e-07  1.66338603e-07  1.20000000e-01 
 1.30000000e-01  4.54468763e-01  3.17238170e-09  4.54468763e-01  4.54468763e-01  4.54468763e-01  4.54468763e-01  4.54468763e-01  1.53193911e-07  1.66338272e-07  1.30000000e-01 
 1.40000000e-01  4.54468759e-01  3.17238169e-09  4.54468759e-01  4.54468759e-01  4.54468759e-01  4.54468759e-01  4.54468759e-01  1.53193884e-07  1.66337951e-07  1.40000000e-01 
 1.50000000e-01  4.54468738e-01  3.17238165e-09  4.54468738e-01  4.54468738e-01  4.54468738e-01  4.54468738e-01  4.54468738e-01  1.53193866e-07  1.66337571e-07  1.50000000e-01 
 1.60000000e-01  4.54468762e-01  3.17238164e-09  4.54468762e-01  4.54468762e-01  4.54468762e-01  4.54468762e-01  4.54468762e-01  1.53193899e-07  1.66337557e-07  1.60000000e-01 
 1.70000000e-01  4.54468752e-01  3.17238164e-09  4.54468752e-01  4.54468752e-01  4.54468752e-01  4.54468752e-01  4.54468752e-01  1.53193889e-07  1.66337342e-07  1.70000000e-01 
 1.80000000e-01  4.54468730e-01  3.17238170e-09  4.54468730e-01  4.54468730e-01  4.54468730e-01  4.54468730e-01  4.54468730e-01  1.53193856e-07  1.66337021e-07  1.80000000e-01 
 1.90000000e-01  4.54468759e-01  3.17238169e-09  4.54468759e-01  4.54468759e-01  4.54468759e-01  4.54468759e-01  4.54468759e-01  1.53193901e-07  1.66336951e-07  1.90000000e-01 
 2.00000000e-01  4.54468758e-01  3.17238165e-09  4.54468758e-01  4.54468757e-01  4.54468757e-01  4.54468757e-01  4.54468758e-01  1.53193886e-07  1.66336722e-07  2.00000000e-01 
 2.10000000e-01  4.54468756e-01  3.17238170e-09  4.54468756e-01  4.54468756e-01  4.54468756e-01  4.54468756e-01  4.54468756e-01  1.53193887e-07  1.66336450e-07  2.10000000e-01 
 2.20000000e-01  4.54468752e-01  3.17238169e-09  4.54468752e-01  4.54468752e-01  4.54468752e-01  4.54468752e-01  4.54468752e-01  1.53193875e-07  1.66336239e-07  2.20000000e-01 
 2.30000000e-01  4.54468752e-01  3.17238165e-09  4.54468752e-01  4.54468752e-01  4.54468752e-01  4.54468752e-01  4.54468752e-01  1.53193880e-07  1.66335933e-07  2.30000000e-01 
 2.40000000e-01  4.54468752e-01  3.17238170e-09  4.54468752e-01  4.54468752e-01  4.54468752e-01  4.54468752e-01  4.54468752e-01  1.53193891e-07  1.66335829e-07  2.40000000e-01 
 2.50000000e-01  4.54468752e-01  3.17238169e-09  4.54468752e-01  4.54468752e-01  4.54468752e-01  4.54468752e-01  4.54468752e-01  1.53193886e-07  1.66335651e-07  2.50000000e-01 
 2.60000000e-01  4.54468772e-01  3.17238165e-09  4.54468772e-01  4.54468772e-01  4.54468772e-01  4.54468772e-01  4.54468772e-01  1.53193922e-07  1.66335678e-07  2.60000000e-01 
 2.70000000e-01  4.54468770e-01  3.17238164e-09  4.54468770e-01  4.54468770e-01  4.54468770e-01  4.54468770e-01  4.54468770e-01  1.53193907e-07  1.66335431e-07  2.70000000e-01 
 2.80000000e-01  4.54468735e-01  3.17238170e-09  4.54468735e-01  4.54468735e-01  4.54468735e-01  4.54468735e-01  4.54468735e-01  1.53193865e-07  1.66335058e-07  2.80000000e-01 
 2.90000000e-01  4.54468766e-01  3.17238163e-09  4.54468766e-01  4.54468766e-01  4.54468766e-01  4.54468766e-01  4.54468766e-01  1.53193915e-07  1.66335060e-07  2.90000000e-01 
 3.00000000e-01  4.54468753e-01  3.17238171e-09  4.54468753e-01  4.54468753e-01  4.54468753e-01  4.54468753e-01  4.54468753e-01  1.53193870e-07  1.66334807e-07  3.00000000e-01 
 3.10000000e-01  4.54468730e-01  3.17238163e-09  4.54468730e-01  4.54468730e-01  4.54468730e-01  4.54468730e-01  4.54468730e-01  1.53193846e-07  1.66334569e-07  3.10000000e-01 
 3.20000000e-01  4.54468758e-01  3.17238171e-09  4.54468758e-01  4.54468758e-01  4.54468758e-01  4.54468758e-01  4.54468758e-01  1.53193906e-07  1.66334569e-07  3.20000000e-01 
 3.30000000e-01  4.54468753e-01  3.17238163e-09  4.54468753e-01  4.54468753e-01  4.54468753e-01  4.54468753e-01  4.54468753e-01  1.53193867e-07  1.66334296e-07  3.30000000e-01 
 3.40000000e-01  4.54468758e-01  3.17238165e-09  4.54468758e-01  4.54468758e-01  4.54468758e-01  4.54468758e-01  4.54468758e-01  1.53193885e-07  1.66334221e-07  3.40000000e-01 
 3.50000000e-01  4.54468765e-01  3.17238164e-09  4.54468765e-01  4.54468765e-01  4.54468765e-01  4.54468765e-01  4.54468765e-01  1.53193904e-07  1.66334097e-07  3.50000000e-01 
 3.60000000e-01  4.54468729e-01  3.17238164e-09  4.54468729e-01  4.54468729e-01  4.54468729e-01  4.54468729e-01  4.54468729e-01  1.53193853e-07  1.66333837e-07  3.60000000e-01 
 3.70000000e-01  4.54468780e-01  3.17238164e-09  4.54468780e-01  4.54468780e-01  4.54468780e-01  4.54468780e-01  4.54468780e-01  1.53193917e-07  1.66333880e-07  3.70000000e-01 
 3.80000000e-01  4.54468747e-01  3.17238164e-09  4.54468747e-01  4.54468747e-01  4.54468747e-01  4.54468747e-01  4.54468747e-01  1.53193864e-07  1.66333596e-07  3.80000000e-01 
 3.90000000e-01  4.54468771e-01  3.17238170e-09  4.54468771e-01  4.54468771e-01  4.54468771e-01  4.54468771e-01  4.54468771e-01  1.53193917e-07  1.66333589e-07  3.90000000e-01 
 4.00000000e-01  4.54468765e-01  3.17238163e-09  4.54468765e-01  4.54468765e-01  4.54468765e-01  4.54468765e-01  4.54468765e-01  1.53193890e-07  1.66333411e-07  4.00000000e-01 
 4.10000000e-01  4.54468759e-01  3.17238171e-09  4.54468759e-01  4.54468759e-01  4.54468759e-01  4.54468759e-01  4.54468759e-01  1.53193890e-07  1.66333304e-07  4.10000000e-01 
 4.20000000e-01  4.54468756e-01  3.17238163e-09  4.54468756e-01  4.54468756e-01  4.54468756e-01  4.54468756e-01  4.54468756e-01  1.53193881e-07  1.66333088e-07  4.20000000e-01 
 4.30000000e-01  4.54468761e-01  3.17238165e-09  4.54468762e-01  4.54468761e-01  4.54468761e-01  4.54468761e-01  4.54468762e-01  1.53193898e-07  1.66333013e-07  4.30000000e-01 
 4.40000000e-01  4.54468737e-01  3.17238164e-09  4.54468737e-01  4.54468737e-01  4.54468737e-01  4.54468737e-01  4.54468737e-01  1.53193863e-07  1.66332754e-07  4.40000000e-01 
 4.50000000e-01  4.54468742e-01  3.17238170e-09  4.54468742e-01  4.54468742e-01  4.54468742e-01  4.54468742e-01  4.54468742e-01  1.53193884e-07  1.66332651e-07  4.50000000e-01 
 4.60000000e-01  4.54468766e-01  3.17238169e-09  4.54468766e-01  4.54468766e-01  4.54468766e-01  4.54468766e-01  4.54468766e-01  1.53193886e-07  1.66332594e-07  4.60000000e-01 
 4.70000000e-01  4.54468761e-01  3.17238165e-09  4.54468761e-01  4.54468761e-01  4.54468761e-01  4.54468761e-01  4.54468761e-01  1.53193891e-07  1.66332409e-07  4.70000000e-01 
 4.80000000e-01  4.54468734e-01  3.17238164e-09  4.54468734e-01  4.54468734e-01  4.54468734e-01  4.54468734e-01  4.54468734e-01  1.53193846e-07  1.66332136e-07  4.80000000e-01 
 4.90000000e-01  4.54468748e-01  3.17238164e-09  4.54468748e-01  4.54468748e-01  4.54468748e-01  4.54468748e-01  4.54468748e-01  1.53193887e-07  1.66332089e-07  4.90000000e-01 
 5.00000000e-01  4.54468754e-01  3.17238164e-09  4.54468754e-01  4.54468754e-01  4.54468754e-01  4.54468754e-01  4.54468754e-01  1.53193888e-07  1.66332036e-07  5.00000000e-01 
 5.10000000e-01  4.54468738e-01  3.17238170e-09  4.54468739e-01  4.54468738e-01  4.54468738e-01  4.54468738e-01  4.54468738e-01  1.53193862e-07  1.66331898e-07  5.10000000e-01 
 5.20000000e-01  4.54468781e-01  3.17238169e-09  4.54468781e-01  4.54468781e-01  4.54468781e-01  4.54468781e-01  4.54468781e-01  1.53193944e-07  1.66331965e-07  5.20000000e-01 
 5.30000000e-01  4.54468724e-01  3.17238170e-09  4.54468724e-01  4.54468724e-01  4.54468724e-01  4.54468724e-01  4.54468724e-01  1.53193850e-07  1.66331564e-07  5.30000000e-01 
 5.40000000e-01  4.54468755e-01  3.17238163e-09  4.54468755e-01  4.54468755e-01  4.54468755e-01  4.54468755e-01  4.54468755e-01  1.53193906e-07  1.66331535e-07  5.40000000e-01 
 5.50000000e-01  4.54468756e-01  3.17238165e-09  4.54468756e-01  4.54468756e-01  4.54468756e-01  4.54468756e-01  4.54468756e-01  1.53193886e-07  1.66331326e-07  5.50000000e-01 
 5.60000000e-01  4.54468738e-01  3.17238164e-09  4.54468738e-01  4.54468738e-01  4.54468738e-01  4.54468738e-01  4.54468738e-01  1.53193867e-07  1.66331262e-07  5.60000000e-01 
 5.70000000e-01  4.54468738e-01  3.17238170e-09  4.54468738e-01  4.54468738e-01  4.54468738e-01  4.54468738e-01  4.54468738e-01  1.53193865e-07  1.66331084e-07  5.70000000e-01 
 5.80000000e-01  4.54468751e-01  3.17238169e-09  4.54468751e-01  4.54468751e-01  4.54468751e-01  4.54468751e-01  4.54468751e-01  1.53193887e-07  1.66331120e-07  5.80000000e-01 
 5.90000000e-01  4.54468773e-01  3.17238165e-09  4.54468773e-01  4.54468773e-01  4.54468773e-01  4.54468773e-01  4.54468773e-01  1.53193914e-07  1.66330899e-07  5.90000000e-01 
 6.00000000e-01  4.54468779e-01  3.17238164e-09  4.54468779e-01  4.54468778e-01  4.54468778e-01  4.54468778e-01  4.54468779e-01  1.53193932e-07  1.66330970e-07  6.00000000e-01 
 6.10000000e-01  4.54468762e-01  3.17238164e-09  4.54468762e-01  4.54468762e-01  4.54468762e-01  4.54468762e-01  4.54468762e-01  1.53193890e-07  1.66330750e-07  6.10000000e-01 
 6.20000000e-01  4.54468758e-01  3.17238164e-09  4.54468758e-01  4.54468758e-01  4.54468758e-01  4.54468758e-01  4.54468758e-01  1.53193890e-07  1.66330643e-07  6.20000000e-01 
 6.30000000e-01  4.54468747e-01  3.17238164e-09  4.54468747e-01  4.54468747e-01  4.54468747e-01  4.54468747e-01  4.54468747e-01  1.53193890e-07  1.66330494e-07  6.30000000e-01 
 6.40000000e-01  4.54468740e-01  3.17238164e-09  4.54468740e-01  4.54468740e-01  4.54468740e-01  4.54468740e-01  4.54468740e-01  1.53193853e-07  1.66330388e-07  6.40000000e-01 
 6.50000000e-01  4.54468740e-01  3.17238164e-09  4.54468741e-01  4.54468740e-01  4.54468740e-01  4.54468740e-01  4.54468741e-01  1.53193853e-07  1.66330189e-07  6.50000000e-01 
 6.60000000e-01  4.54468727e-01  3.17238164e-09  4.54468727e-01  4.54468727e-01  4.54468727e-01  4.54468727e-01  4.54468727e-01  1.53193841e-07  1.66330032e-07  6.60000000e-01 
 6.70000000e-01  4.54468764e-01  3.17238164e-09  4.54468764e-01  4.54468764e-01  4.54468764e-01  4.54468764e-01  4.54468764e-01  1.53193913e-07  1.66330111e-07  6.70000000e-01 
 6.80000000e-01  4.54468753e-01  3.17238164e-09  4.54468753e-01  4.54468752e-01  4.54468752e-01  4.54468752e-01  4.54468753e-01  1.53193879e-07  1.66329727e-07  6.80000000e-01 
 6.90000000e-01  4.54468750e-01  3.17238170e-09  4.54468750e-01  4.54468750e-01  4.54468750e-01  4.54468750e-01  4.54468750e-01  1.53193892e-07  1.66329741e-07  6.90000000e-01 
 7.00000000e-01  4.54468750e-01  3.17238169e-09  4.54468750e-01  4.54468750e-01  4.54468750e-01  4.54468750e-01  4.54468750e-01  1.53193888e-07  1.66329585e-07  7.00000000e-01 
 7.10000000e-01  4.54468742e-01  3.17238165e-09  4.54468742e-01  4.54468741e-01  4.54468741e-01  4.54468741e-01  4.54468742e-01  1.53193867e-07  1.66329407e-07  7.10000000e-01 
 7.20000000e-01  4.54468749e-01  3.17238170e-09  4.54468749e-01  4.54468749e-01  4.54468749e-01  4.54468749e-01  4.54468749e-01  1.53193881e-07  1.66329286e-07  7.20000000e-01 
 7.30000000e-01  4.54468733e-01  3.17238163e-09  4.54468733e-01  4.54468733e-01  4.54468733e-01  4.54468733e-01  4.54468733e-01  1.53193863e-07  1.66329244e-07  7.30000000e-01 
 7.40000000e-01  4.54468748e-01  3.17238165e-09  4.54468748e-01  4.54468748e-01  4.54468748e-01  4.54468748e-01  4.54468748e-01  1.53193900e-07  1.66329045e-07  7.40000000e-01 
 7.50000000e-01  4.54468769e-01  3.17238170e-09  4.54468769e-01  4.54468769e-01  4.54468768e-01  4.54468769e-01  4.54468769e-01  1.53193885e-07  1.66329002e-07  7.50000000e-01 
 7.60000000e-01  4.54468755e-01  3.17238169e-09  4.54468755e-01  4.54468755e-01  4.54468755e-01  4.54468755e-01  4.54468755e-01  1.53193890e-07  1.66328903e-07  7.60000000e-01 
 7.70000000e-01  4.54468768e-01  3.17238165e-09  4.54468769e-01  4.54468768e-01  4.54468768e-01  4.54468768e-01  4.54468769e-01  1.53193903e-07  1.66328810e-07  7.70000000e-01 
 7.80000000e-01  4.54468772e-01  3.17238170e-09  4.54468772e-01  4.54468772e-01  4.54468772e-01  4.54468772e-01  4.54468772e-01  1.53193905e-07  1.66328583e-07  7.80000000e-01 
 7.90000000e-01  4.54468746e-01  3.17238169e-09  4.54468746e-01  4.54468746e-01  4.54468746e-01  4.54468746e-01  4.54468746e-01  1.53193864e-07  1.66328405e-07  7.90000000e-01 
 8.00000000e-01  4.54468746e-01  3.17238165e-09  4.54468746e-01  4.54468746e-01  4.54468746e-01  4.54468746e-01  4.54468746e-01  1.53193882e-07  1.66328256e-07  8.00000000e-01 
 8.10000000e-01  4.54468759e-01  3.17238170e-09  4.54468759e-01  4.54468759e-01  4.54468759e-01  4.54468759e-01  4.54468759e-01  1.53193896e-07  1.66328192e-07  8.10000000e-01 
 8.20000000e-01  4.54468756e-01  3.17238163e-09  4.54468756e-01  4.54468756e-01  4.54468755e-01  4.54468756e-01  4.54468756e-01  1.53193896e-07  1.66328071e-07  8.20000000e-01 
 8.30000000e-01  4.54468749e-01  3.17238165e-09  4.54468749e-01  4.54468749e-01  4.54468749e-01  4.54468749e-01  4.54468749e-01  1.53193869e-07  1.66327865e-07  8.30000000e-01 
 8.40000000e-01  4.54468764e-01  3.17238164e-09  4.54468764e-01  4.54468764e-01  4.54468764e-01  4.54468764e-01  4.54468764e-01  1.53193915e-07  1.66327872e-07  8.40000000e-01 
 8.50000000e-01  4.54468762e-01  3.17238170e-09  4.54468762e-01  4.54468762e-01  4.54468762e-01  4.54468762e-01  4.54468762e-01  1.53193889e-07  1.66327595e-07  8.50000000e-01 
 8.60000000e-01  4.54468765e-01  3.17238163e-09  4.54468765e-01  4.54468765e-01  4.54468765e-01  4.54468765e-01  4.54468765e-01  1.53193893e-07  1.66327652e-07  8.60000000e-01 
 8.70000000e-01  4.54468782e-01  3.17238165e-09  4.54468782e-01  4.54468782e-01  4.54468782e-01  4.54468782e-01  4.54468782e-01  1.53193928e-07  1.66327482e-07  8.70000000e-01 
 8.80000000e-01  4.54468740e-01  3.17238170e-09  4.54468740e-01  4.54468740e-01  4.54468740e-01  4.54468740e-01  4.54468740e-01  1.53193879e-07  1.66327212e-07  8.80000000e-01 
 8.90000000e-01  4.54468787e-01  3.17238163e-09  4.54468787e-01  4.54468787e-01  4.54468787e-01  4.54468787e-01  4.54468787e-01  1.53193932e-07  1.66327233e-07  8.90000000e-01 
 9.00000000e-01  4.54468759e-01  3.17238165e-09  4.54468759e-01  4.54468759e-01  4.54468759e-01  4.54468759e-01  4.54468759e-01  1.53193891e-07  1.66327006e-07  9.00000000e-01 
 9.10000000e-01  4.54468772e-01  3.17238164e-09  4.54468772e-01  4.54468772e-01  4.54468772e-01  4.54468772e-01  4.54468772e-01  1.53193922e-07  1.66327006e-07  9.10000000e-01 
 9.20000000e-01  4.54468752e-01  3.17238170e-09  4.54468753e-01  4.54468752e-01  4.54468752e-01  4.54468752e-01  4.54468752e-01  1.53193879e-07  1.66326743e-07  9.20000000e-01 
 9.30000000e-01  4.54468762e-01  3.17238163e-09  4.54468762e-01  4.54468762e-01  4.54468762e-01  4.54468762e-01  4.54468762e-01  1.53193910e-07  1.66326615e-07  9.30000000e-01 
 9.40000000e-01  4.54468751e-01  3.17238165e-09  4.54468751e-01  4.54468751e-01  4.54468751e-01  4.54468751e-01  4.54468751e-01  1.53193885e-07  1.66326373e-07  9.40000000e-01 
 9.50000000e-01  4.54468733e-01  3.17238164e-09  4.54468733e-01  4.54468733e-01  4.54468733e-01  4.54468733e-01  4.54468733e-01  1.53193868e-07  1.66326146e-07  9.50000000e-01 
 9.60000000e-01  4.54468768e-01  3.17238164e-09  4.54468768e-01  4.54468768e-01  4.54468767e-01  4.54468768e-01  4.54468768e-01  1.53193909e-07  1.66326231e-07  9.60000000e-01 
 9.70000000e-01  4.54468741e-01  3.17238170e-09  4.54468741e-01  4.54468741e-01  4.54468741e-01  4.54468741e-01  4.54468741e-01  1.53193863e-07  1.66325997e-07  9.70000000e-01 
 9.80000000e-01  4.54468772e-01  3.17238169e-09  4.54468772e-01  4.54468772e-01  4.54468772e-01  4.54468772e-01  4.54468772e-01  1.53193918e-07  1.66325890e-07  9.80000000e-01 
 9.90000000e-01  4.54468753e-01  3.17238165e-09  4.54468753e-01  4.54468753e-01  4.54468753e-01  4.54468753e-01  4.54468753e-01  1.53193884e-07  1.66325627e-07  9.90000000e-01 
 1.00000000e+00  4.54468749e-01  3.17238170e-09  4.54468749e-01  4.54468749e-01  4.54468749e-01  4.54468749e-01  4.54468749e-01  1.53193886e-07  1.66325499e-07  1.00000000e+00 
 1.01000000e+00  4.54468749e-01  3.17238169e-09  4.54468749e-01  4.54468749e-01  4.54468749e-01  4.54468749e-01  4.54468749e-01  1.53193885e-07  1.66325428e-07  1.01000000e+00 
 1.02000000e+00  4.54468755e-01  3.17238165e-09  4.54468755e-01  4.54468755e-01  4.54468755e-01  4.54468755e-01  4.54468755e-01  1.53193896e-07  1.66325243e-07  1.02000000e+00 
 1.03000000e+00  4.54468779e-01  3.17238164e-09  4.54468779e-01  4.54468779e-01  4.54468779e-01  4.54468779e-01  4.54468779e-01  1.53193931e-07  1.66325300e-07  1.03000000e+00 
 1.04000000e+00  4.54468742e-01  3.17238170e-09  4.54468742e-01  4.54468742e-01  4.54468742e-01  4.54468742e-01  4.54468742e-01  1.53193869e-07  1.66324902e-07  1.04000000e+00 
 1.05000000e+00  4.54468742e-01  3.17238163e-09  4.54468742e-01  4.54468742e-01  4.54468742e-01  4.54468742e-01  4.54468742e-01  1.53193876e-07  1.66324675e-07  1.05000000e+00 
 1.06000000e+00  4.54468755e-01  3.17238165e-09  4.54468755e-01  4.54468755e-01  4.54468755e-01  4.54468755e-01  4.54468755e-01  1.53193866e-07  1.66324561e-07  1.06000000e+00 
 1.07000000e+00  4.54468755e-01  3.17238164e-09  4.54468755e-01  4.54468755e-01  4.54468755e-01  4.54468755e-01  4.54468755e-01  1.53193877e-07  1.66324469e-07  1.07000000e+00 
 1.08000000e+00  4.54468739e-01  3.17238164e-09  4.54468739e-01  4.54468739e-01  4.54468739e-01  4.54468739e-01  4.54468739e-01  1.53193871e-07  1.66324114e-07  1.08000000e+00 
 1.09000000e+00  4.54468786e-01  3.17238164e-09  4.54468786e-01  4.54468786e-01  4.54468786e-01  4.54468786e-01  4.54468786e-01  1.53193939e-07  1.66324249e-07  1.09000000e+00 
 1.10000000e+00  4.54468769e-01  3.17238164e-09  4.54468770e-01  4.54468769e-01  4.54468769e-01  4.54468769e-01  4.54468769e-01  1.53193896e-07  1.66324085e-07  1.10000000e+00 
