 v-sweep         v(b0)           v(b1)           v(b2)           v(b3)           v(b4)           v(b5)           v(b6)           i(vbias)        i(viout)        v(vout)        
 0.00000000e+00  3.16498948e-09  3.33033471e-09  3.22877346e-09  4.58651327e-01  4.58651327e-01  3.19350547e-09  3.02309748e-09  1.59688139e-07  3.58672630e-08  0.00000000e+00 
 1.00000000e-02  3.16498945e-09  3.33033468e-09  3.22877343e-09  4.58651348e-01  4.58651348e-01  3.19350544e-09  3.02309751e-09  1.59688161e-07  3.58669023e-08  1.00000000e-02 
 2.00000000e-02  3.16498951e-09  3.33033468e-09  3.22877343e-09  4.58651340e-01  4.58651340e-01  3.19350544e-09  3.02309745e-09  1.59688161e-07  3.58665893e-08  2.00000000e-02 
 3.00000000e-02  3.16498945e-09  3.33033468e-09  3.22877343e-09  4.58651347e-01  4.58651347e-01  3.19350544e-09  3.02309745e-09  1.59688167e-07  3.58663204e-08  3.00000000e-02 
 4.00000000e-02  3.16498951e-09  3.33033468e-09  3.22877343e-09  4.58651340e-01  4.58651340e-01  3.19350544e-09  3.02309751e-09  1.59688143e-07  3.58658090e-08  4.00000000e-02 
 5.00000000e-02  3.16498951e-09  3.33033468e-09  3.22877343e-09  4.58651342e-01  4.58651342e-01  3.19350544e-09  3.02309745e-09  1.59688153e-07  3.58655603e-08  5.00000000e-02 
 6.00000000e-02  3.16498951e-09  3.33033468e-09  3.22877343e-09  4.58651325e-01  4.58651325e-01  3.19350550e-09  3.02309745e-09  1.59688135e-07  3.58651358e-08  6.00000000e-02 
 7.00000000e-02  3.16498951e-09  3.33033468e-09  3.22877343e-09  4.58651331e-01  4.58651331e-01  3.19350544e-09  3.02309751e-09  1.59688129e-07  3.58649230e-08  7.00000000e-02 
 8.00000000e-02  3.16498945e-09  3.33033468e-09  3.22877349e-09  4.58651315e-01  4.58651315e-01  3.19350544e-09  3.02309745e-09  1.59688112e-07  3.58646268e-08  8.00000000e-02 
 9.00000000e-02  3.16498945e-09  3.33033468e-09  3.22877349e-09  4.58651337e-01  4.58651337e-01  3.19350544e-09  3.02309745e-09  1.59688167e-07  3.58642325e-08  9.00000000e-02 
 1.00000000e-01  3.16498945e-09  3.33033468e-09  3.22877349e-09  4.58651325e-01  4.58651325e-01  3.19350544e-09  3.02309751e-09  1.59688143e-07  3.58639474e-08  1.00000000e-01 
 1.10000000e-01  3.16498951e-09  3.33033468e-09  3.22877343e-09  4.58651344e-01  4.58651344e-01  3.19350544e-09  3.02309751e-09  1.59688160e-07  3.58638443e-08  1.10000000e-01 
 1.20000000e-01  3.16498950e-09  3.33033468e-09  3.22877343e-09  4.58651320e-01  4.58651320e-01  3.19350544e-09  3.02309745e-09  1.59688121e-07  3.58635281e-08  1.20000000e-01 
 1.30000000e-01  3.16498951e-09  3.33033468e-09  3.22877343e-09  4.58651355e-01  4.58651355e-01  3.19350544e-09  3.02309751e-09  1.59688183e-07  3.58632377e-08  1.30000000e-01 
 1.40000000e-01  3.16498945e-09  3.33033468e-09  3.22877343e-09  4.58651314e-01  4.58651314e-01  3.19350544e-09  3.02309751e-09  1.59688116e-07  3.58630698e-08  1.40000000e-01 
 1.50000000e-01  3.16498951e-09  3.33033468e-09  3.22877343e-09  4.58651325e-01  4.58651325e-01  3.19350544e-09  3.02309745e-09  1.59688141e-07  3.58629997e-08  1.50000000e-01 
 1.60000000e-01  3.16498951e-09  3.33033468e-09  3.22877343e-09  4.58651333e-01  4.58651333e-01  3.19350544e-09  3.02309745e-09  1.59688141e-07  3.58627545e-08  1.60000000e-01 
 1.70000000e-01  3.16498945e-09  3.33033468e-09  3.22877343e-09  4.58651324e-01  4.58651324e-01  3.19350544e-09  3.02309751e-09  1.59688129e-07  3.58625112e-08  1.70000000e-01 
 1.80000000e-01  3.16498951e-09  3.33033468e-09  3.22877349e-09  4.58651347e-01  4.58651347e-01  3.19350544e-09  3.02309745e-09  1.59688170e-07  3.58623655e-08  1.80000000e-01 
 1.90000000e-01  3.16498945e-09  3.33033468e-09  3.22877343e-09  4.58651336e-01  4.58651336e-01  3.19350544e-09  3.02309751e-09  1.59688151e-07  3.58622110e-08  1.90000000e-01 
 2.00000000e-01  3.16498950e-09  3.33033468e-09  3.22877349e-09  4.58651319e-01  4.58651318e-01  3.19350544e-09  3.02309745e-09  1.59688125e-07  3.58620227e-08  2.00000000e-01 
 2.10000000e-01  3.16498945e-09  3.33033468e-09  3.22877343e-09  4.58651344e-01  4.58651343e-01  3.19350544e-09  3.02309751e-09  1.59688147e-07  3.58618912e-08  2.10000000e-01 
 2.20000000e-01  3.16498951e-09  3.33033468e-09  3.22877343e-09  4.58651332e-01  4.58651332e-01  3.19350544e-09  3.02309745e-09  1.59688138e-07  3.58617900e-08  2.20000000e-01 
 2.30000000e-01  3.16498945e-09  3.33033468e-09  3.22877343e-09  4.58651343e-01  4.58651343e-01  3.19350544e-09  3.02309751e-09  1.59688159e-07  3.58615040e-08  2.30000000e-01 
 2.40000000e-01  3.16498945e-09  3.33033468e-09  3.22877343e-09  4.58651323e-01  4.58651323e-01  3.19350544e-09  3.02309751e-09  1.59688131e-07  3.58614614e-08  2.40000000e-01 
 2.50000000e-01  3.16498945e-09  3.33033468e-09  3.22877343e-09  4.58651345e-01  4.58651345e-01  3.19350544e-09  3.02309745e-09  1.59688162e-07  3.58613992e-08  2.50000000e-01 
 2.60000000e-01  3.16498951e-09  3.33033468e-09  3.22877343e-09  4.58651338e-01  4.58651338e-01  3.19350544e-09  3.02309745e-09  1.59688157e-07  3.58612180e-08  2.60000000e-01 
 2.70000000e-01  3.16498945e-09  3.33033468e-09  3.22877343e-09  4.58651331e-01  4.58651331e-01  3.19350544e-09  3.02309751e-09  1.59688127e-07  3.58611985e-08  2.70000000e-01 
 2.80000000e-01  3.16498951e-09  3.33033468e-09  3.22877343e-09  4.58651329e-01  4.58651329e-01  3.19350544e-09  3.02309745e-09  1.59688149e-07  3.58609071e-08  2.80000000e-01 
 2.90000000e-01  3.16498951e-09  3.33033468e-09  3.22877343e-09  4.58651352e-01  4.58651352e-01  3.19350544e-09  3.02309751e-09  1.59688164e-07  3.58609533e-08  2.90000000e-01 
 3.00000000e-01  3.16498945e-09  3.33033468e-09  3.22877343e-09  4.58651334e-01  4.58651333e-01  3.19350544e-09  3.02309745e-09  1.59688150e-07  3.58607544e-08  3.00000000e-01 
 3.10000000e-01  3.16498951e-09  3.33033468e-09  3.22877343e-09  4.58651351e-01  4.58651351e-01  3.19350544e-09  3.02309745e-09  1.59688168e-07  3.58607615e-08  3.10000000e-01 
 3.20000000e-01  3.16498945e-09  3.33033468e-09  3.22877343e-09  4.58651338e-01  4.58651338e-01  3.19350544e-09  3.02309745e-09  1.59688151e-07  3.58607224e-08  3.20000000e-01 
 3.30000000e-01  3.16498945e-09  3.33033468e-09  3.22877349e-09  4.58651338e-01  4.58651338e-01  3.19350544e-09  3.02309745e-09  1.59688156e-07  3.58604808e-08  3.30000000e-01 
 3.40000000e-01  3.16498951e-09  3.33033469e-09  3.22877343e-09  4.58651358e-01  4.58651358e-01  3.19350544e-09  3.02309745e-09  1.59688186e-07  3.58604453e-08  3.40000000e-01 
 3.50000000e-01  3.16498945e-09  3.33033468e-09  3.22877343e-09  4.58651344e-01  4.58651344e-01  3.19350544e-09  3.02309745e-09  1.59688159e-07  3.58603671e-08  3.50000000e-01 
 3.60000000e-01  3.16498945e-09  3.33033468e-09  3.22877343e-09  4.58651335e-01  4.58651335e-01  3.19350550e-09  3.02309751e-09  1.59688146e-07  3.58602996e-08  3.60000000e-01 
 3.70000000e-01  3.16498945e-09  3.33033468e-09  3.22877343e-09  4.58651325e-01  4.58651325e-01  3.19350544e-09  3.02309751e-09  1.59688136e-07  3.58602925e-08  3.70000000e-01 
 3.80000000e-01  3.16498950e-09  3.33033468e-09  3.22877343e-09  4.58651323e-01  4.58651323e-01  3.19350544e-09  3.02309751e-09  1.59688145e-07  3.58600332e-08  3.80000000e-01 
 3.90000000e-01  3.16498945e-09  3.33033468e-09  3.22877343e-09  4.58651324e-01  4.58651324e-01  3.19350544e-09  3.02309745e-09  1.59688121e-07  3.58599586e-08  3.90000000e-01 
 4.00000000e-01  3.16498945e-09  3.33033468e-09  3.22877343e-09  4.58651330e-01  4.58651330e-01  3.19350550e-09  3.02309745e-09  1.59688136e-07  3.58599763e-08  4.00000000e-01 
 4.10000000e-01  3.16498945e-09  3.33033468e-09  3.22877343e-09  4.58651352e-01  4.58651352e-01  3.19350544e-09  3.02309751e-09  1.59688176e-07  3.58598378e-08  4.10000000e-01 
 4.20000000e-01  3.16498945e-09  3.33033468e-09  3.22877343e-09  4.58651348e-01  4.58651348e-01  3.19350544e-09  3.02309745e-09  1.59688165e-07  3.58597383e-08  4.20000000e-01 
 4.30000000e-01  3.16498951e-09  3.33033468e-09  3.22877343e-09  4.58651342e-01  4.58651342e-01  3.19350544e-09  3.02309751e-09  1.59688165e-07  3.58596424e-08  4.30000000e-01 
 4.40000000e-01  3.16498951e-09  3.33033468e-09  3.22877349e-09  4.58651326e-01  4.58651326e-01  3.19350544e-09  3.02309745e-09  1.59688129e-07  3.58596353e-08  4.40000000e-01 
 4.50000000e-01  3.16498951e-09  3.33033468e-09  3.22877343e-09  4.58651350e-01  4.58651350e-01  3.19350544e-09  3.02309751e-09  1.59688169e-07  3.58595109e-08  4.50000000e-01 
 4.60000000e-01  3.16498951e-09  3.33033468e-09  3.22877343e-09  4.58651333e-01  4.58651332e-01  3.19350544e-09  3.02309751e-09  1.59688144e-07  3.58595607e-08  4.60000000e-01 
 4.70000000e-01  3.16498945e-09  3.33033468e-09  3.22877343e-09  4.58651345e-01  4.58651345e-01  3.19350544e-09  3.02309751e-09  1.59688162e-07  3.58594292e-08  4.70000000e-01 
 4.80000000e-01  3.16498945e-09  3.33033468e-09  3.22877343e-09  4.58651339e-01  4.58651339e-01  3.19350544e-09  3.02309751e-09  1.59688161e-07  3.58592906e-08  4.80000000e-01 
 4.90000000e-01  3.16498951e-09  3.33033469e-09  3.22877343e-09  4.58651358e-01  4.58651357e-01  3.19350544e-09  3.02309745e-09  1.59688173e-07  3.58593262e-08  4.90000000e-01 
 5.00000000e-01  3.16498945e-09  3.33033468e-09  3.22877343e-09  4.58651335e-01  4.58651335e-01  3.19350544e-09  3.02309751e-09  1.59688151e-07  3.58591308e-08  5.00000000e-01 
 5.10000000e-01  3.16498945e-09  3.33033468e-09  3.22877343e-09  4.58651344e-01  4.58651344e-01  3.19350544e-09  3.02309745e-09  1.59688168e-07  3.58593084e-08  5.10000000e-01 
 5.20000000e-01  3.16498950e-09  3.33033468e-09  3.22877343e-09  4.58651302e-01  4.58651302e-01  3.19350544e-09  3.02309745e-09  1.59688093e-07  3.58591024e-08  5.20000000e-01 
 5.30000000e-01  3.16498945e-09  3.33033468e-09  3.22877343e-09  4.58651348e-01  4.58651348e-01  3.19350544e-09  3.02309751e-09  1.59688156e-07  3.58590100e-08  5.30000000e-01 
 5.40000000e-01  3.16498945e-09  3.33033468e-09  3.22877343e-09  4.58651348e-01  4.58651348e-01  3.19350544e-09  3.02309745e-09  1.59688174e-07  3.58589887e-08  5.40000000e-01 
 5.50000000e-01  3.16498945e-09  3.33033468e-09  3.22877343e-09  4.58651315e-01  4.58651315e-01  3.19350544e-09  3.02309745e-09  1.59688127e-07  3.58589318e-08  5.50000000e-01 
 5.60000000e-01  3.16498945e-09  3.33033468e-09  3.22877343e-09  4.58651348e-01  4.58651348e-01  3.19350544e-09  3.02309751e-09  1.59688165e-07  3.58589460e-08  5.60000000e-01 
 5.70000000e-01  3.16498945e-09  3.33033468e-09  3.22877343e-09  4.58651336e-01  4.58651336e-01  3.19350544e-09  3.02309751e-09  1.59688141e-07  3.58589176e-08  5.70000000e-01 
 5.80000000e-01  3.16498951e-09  3.33033468e-09  3.22877343e-09  4.58651346e-01  4.58651345e-01  3.19350544e-09  3.02309751e-09  1.59688158e-07  3.58588181e-08  5.80000000e-01 
 5.90000000e-01  3.16498945e-09  3.33033468e-09  3.22877343e-09  4.58651330e-01  4.58651330e-01  3.19350544e-09  3.02309751e-09  1.59688138e-07  3.58587045e-08  5.90000000e-01 
 6.00000000e-01  3.16498951e-09  3.33033468e-09  3.22877343e-09  4.58651332e-01  4.58651332e-01  3.19350544e-09  3.02309751e-09  1.59688153e-07  3.58586760e-08  6.00000000e-01 
 6.10000000e-01  3.16498951e-09  3.33033468e-09  3.22877343e-09  4.58651341e-01  4.58651341e-01  3.19350550e-09  3.02309745e-09  1.59688156e-07  3.58587116e-08  6.10000000e-01 
 6.20000000e-01  3.16498945e-09  3.33033468e-09  3.22877343e-09  4.58651326e-01  4.58651326e-01  3.19350544e-09  3.02309751e-09  1.59688129e-07  3.58586050e-08  6.20000000e-01 
 6.30000000e-01  3.16498951e-09  3.33033468e-09  3.22877343e-09  4.58651343e-01  4.58651343e-01  3.19350544e-09  3.02309751e-09  1.59688165e-07  3.58586192e-08  6.30000000e-01 
 6.40000000e-01  3.16498945e-09  3.33033468e-09  3.22877343e-09  4.58651340e-01  4.58651340e-01  3.19350544e-09  3.02309751e-09  1.59688162e-07  3.58585126e-08  6.40000000e-01 
 6.50000000e-01  3.16498950e-09  3.33033468e-09  3.22877343e-09  4.58651312e-01  4.58651312e-01  3.19350544e-09  3.02309745e-09  1.59688122e-07  3.58583279e-08  6.50000000e-01 
 6.60000000e-01  3.16498951e-09  3.33033468e-09  3.22877343e-09  4.58651350e-01  4.58651350e-01  3.19350544e-09  3.02309751e-09  1.59688153e-07  3.58584487e-08  6.60000000e-01 
 6.70000000e-01  3.16498945e-09  3.33033468e-09  3.22877343e-09  4.58651345e-01  4.58651345e-01  3.19350544e-09  3.02309751e-09  1.59688158e-07  3.58582781e-08  6.70000000e-01 
 6.80000000e-01  3.16498945e-09  3.33033468e-09  3.22877343e-09  4.58651325e-01  4.58651325e-01  3.19350544e-09  3.02309745e-09  1.59688138e-07  3.58581573e-08  6.80000000e-01 
 6.90000000e-01  3.16498945e-09  3.33033468e-09  3.22877349e-09  4.58651326e-01  4.58651325e-01  3.19350544e-09  3.02309751e-09  1.59688124e-07  3.58582142e-08  6.90000000e-01 
 7.00000000e-01  3.16498945e-09  3.33033468e-09  3.22877343e-09  4.58651334e-01  4.58651334e-01  3.19350544e-09  3.02309751e-09  1.59688146e-07  3.58582000e-08  7.00000000e-01 
 7.10000000e-01  3.16498945e-09  3.33033468e-09  3.22877343e-09  4.58651345e-01  4.58651345e-01  3.19350544e-09  3.02309751e-09  1.59688160e-07  3.58581431e-08  7.10000000e-01 
 7.20000000e-01  3.16498950e-09  3.33033468e-09  3.22877343e-09  4.58651318e-01  4.58651318e-01  3.19350544e-09  3.02309751e-09  1.59688121e-07  3.58580081e-08  7.20000000e-01 
 7.30000000e-01  3.16498951e-09  3.33033468e-09  3.22877343e-09  4.58651341e-01  4.58651341e-01  3.19350544e-09  3.02309751e-09  1.59688156e-07  3.58580010e-08  7.30000000e-01 
 7.40000000e-01  3.16498945e-09  3.33033468e-09  3.22877343e-09  4.58651308e-01  4.58651308e-01  3.19350544e-09  3.02309750e-09  1.59688126e-07  3.58579086e-08  7.40000000e-01 
 7.50000000e-01  3.16498945e-09  3.33033468e-09  3.22877343e-09  4.58651330e-01  4.58651330e-01  3.19350544e-09  3.02309751e-09  1.59688137e-07  3.58578305e-08  7.50000000e-01 
 7.60000000e-01  3.16498951e-09  3.33033468e-09  3.22877343e-09  4.58651336e-01  4.58651336e-01  3.19350544e-09  3.02309751e-09  1.59688153e-07  3.58578376e-08  7.60000000e-01 
 7.70000000e-01  3.16498950e-09  3.33033468e-09  3.22877343e-09  4.58651320e-01  4.58651320e-01  3.19350544e-09  3.02309745e-09  1.59688118e-07  3.58577239e-08  7.70000000e-01 
 7.80000000e-01  3.16498951e-09  3.33033468e-09  3.22877349e-09  4.58651354e-01  4.58651354e-01  3.19350544e-09  3.02309751e-09  1.59688174e-07  3.58577026e-08  7.80000000e-01 
 7.90000000e-01  3.16498945e-09  3.33033468e-09  3.22877343e-09  4.58651342e-01  4.58651342e-01  3.19350544e-09  3.02309745e-09  1.59688155e-07  3.58576173e-08  7.90000000e-01 
 8.00000000e-01  3.16498951e-09  3.33033468e-09  3.22877343e-09  4.58651348e-01  4.58651348e-01  3.19350544e-09  3.02309745e-09  1.59688167e-07  3.58575036e-08  8.00000000e-01 
 8.10000000e-01  3.16498951e-09  3.33033468e-09  3.22877343e-09  4.58651337e-01  4.58651337e-01  3.19350544e-09  3.02309745e-09  1.59688175e-07  3.58573899e-08  8.10000000e-01 
 8.20000000e-01  3.16498945e-09  3.33033469e-09  3.22877344e-09  4.58651365e-01  4.58651365e-01  3.19350550e-09  3.02309751e-09  1.59688198e-07  3.58573828e-08  8.20000000e-01 
 8.30000000e-01  3.16498945e-09  3.33033468e-09  3.22877343e-09  4.58651345e-01  4.58651345e-01  3.19350544e-09  3.02309751e-09  1.59688157e-07  3.58574113e-08  8.30000000e-01 
 8.40000000e-01  3.16498951e-09  3.33033469e-09  3.22877343e-09  4.58651356e-01  4.58651356e-01  3.19350544e-09  3.02309751e-09  1.59688184e-07  3.58572692e-08  8.40000000e-01 
 8.50000000e-01  3.16498945e-09  3.33033468e-09  3.22877349e-09  4.58651338e-01  4.58651338e-01  3.19350544e-09  3.02309745e-09  1.59688163e-07  3.58573402e-08  8.50000000e-01 
 8.60000000e-01  3.16498945e-09  3.33033468e-09  3.22877343e-09  4.58651343e-01  4.58651343e-01  3.19350544e-09  3.02309751e-09  1.59688163e-07  3.58572976e-08  8.60000000e-01 
 8.70000000e-01  3.16498950e-09  3.33033468e-09  3.22877343e-09  4.58651322e-01  4.58651322e-01  3.19350544e-09  3.02309751e-09  1.59688126e-07  3.58571484e-08  8.70000000e-01 
 8.80000000e-01  3.16498951e-09  3.33033468e-09  3.22877343e-09  4.58651349e-01  4.58651349e-01  3.19350544e-09  3.02309751e-09  1.59688169e-07  3.58571199e-08  8.80000000e-01 
 8.90000000e-01  3.16498951e-09  3.33033468e-09  3.22877343e-09  4.58651335e-01  4.58651335e-01  3.19350544e-09  3.02309751e-09  1.59688146e-07  3.58570347e-08  8.90000000e-01 
 9.00000000e-01  3.16498951e-09  3.33033469e-09  3.22877343e-09  4.58651356e-01  4.58651356e-01  3.19350544e-09  3.02309751e-09  1.59688173e-07  3.58570134e-08  9.00000000e-01 
 9.10000000e-01  3.16498945e-09  3.33033469e-09  3.22877343e-09  4.58651356e-01  4.58651356e-01  3.19350544e-09  3.02309751e-09  1.59688178e-07  3.58569636e-08  9.10000000e-01 
 9.20000000e-01  3.16498945e-09  3.33033468e-09  3.22877343e-09  4.58651306e-01  4.58651306e-01  3.19350544e-09  3.02309745e-09  1.59688118e-07  3.58569565e-08  9.20000000e-01 
 9.30000000e-01  3.16498951e-09  3.33033468e-09  3.22877343e-09  4.58651337e-01  4.58651337e-01  3.19350550e-09  3.02309751e-09  1.59688160e-07  3.58568144e-08  9.30000000e-01 
 9.40000000e-01  3.16498951e-09  3.33033468e-09  3.22877343e-09  4.58651339e-01  4.58651339e-01  3.19350544e-09  3.02309751e-09  1.59688147e-07  3.58568784e-08  9.40000000e-01 
 9.50000000e-01  3.16498950e-09  3.33033468e-09  3.22877343e-09  4.58651325e-01  4.58651324e-01  3.19350544e-09  3.02309751e-09  1.59688139e-07  3.58567362e-08  9.50000000e-01 
 9.60000000e-01  3.16498951e-09  3.33033468e-09  3.22877343e-09  4.58651335e-01  4.58651335e-01  3.19350550e-09  3.02309751e-09  1.59688159e-07  3.58565657e-08  9.60000000e-01 
 9.70000000e-01  3.16498945e-09  3.33033468e-09  3.22877343e-09  4.58651343e-01  4.58651343e-01  3.19350544e-09  3.02309745e-09  1.59688163e-07  3.58566226e-08  9.70000000e-01 
 9.80000000e-01  3.16498945e-09  3.33033468e-09  3.22877343e-09  4.58651326e-01  4.58651326e-01  3.19350544e-09  3.02309745e-09  1.59688147e-07  3.58564947e-08  9.80000000e-01 
 9.90000000e-01  3.16498945e-09  3.33033468e-09  3.22877343e-09  4.58651341e-01  4.58651341e-01  3.19350544e-09  3.02309745e-09  1.59688157e-07  3.58565089e-08  9.90000000e-01 
 1.00000000e+00  3.16498945e-09  3.33033468e-09  3.22877343e-09  4.58651335e-01  4.58651335e-01  3.19350544e-09  3.02309745e-09  1.59688150e-07  3.58563597e-08  1.00000000e+00 
 1.01000000e+00  3.16498945e-09  3.33033468e-09  3.22877349e-09  4.58651350e-01  4.58651350e-01  3.19350544e-09  3.02309751e-09  1.59688156e-07  3.58564449e-08  1.01000000e+00 
 1.02000000e+00  3.16498945e-09  3.33033468e-09  3.22877343e-09  4.58651337e-01  4.58651336e-01  3.19350544e-09  3.02309751e-09  1.59688142e-07  3.58563597e-08  1.02000000e+00 
 1.03000000e+00  3.16498951e-09  3.33033468e-09  3.22877343e-09  4.58651325e-01  4.58651325e-01  3.19350544e-09  3.02309745e-09  1.59688149e-07  3.58561181e-08  1.03000000e+00 
 1.04000000e+00  3.16498951e-09  3.33033468e-09  3.22877343e-09  4.58651342e-01  4.58651342e-01  3.19350544e-09  3.02309751e-09  1.59688161e-07  3.58561465e-08  1.04000000e+00 
 1.05000000e+00  3.16498951e-09  3.33033468e-09  3.22877349e-09  4.58651326e-01  4.58651326e-01  3.19350544e-09  3.02309751e-09  1.59688135e-07  3.58561536e-08  1.05000000e+00 
 1.06000000e+00  3.16498951e-09  3.33033468e-09  3.22877343e-09  4.58651342e-01  4.58651342e-01  3.19350544e-09  3.02309745e-09  1.59688169e-07  3.58560612e-08  1.06000000e+00 
 1.07000000e+00  3.16498945e-09  3.33033468e-09  3.22877343e-09  4.58651326e-01  4.58651326e-01  3.19350544e-09  3.02309745e-09  1.59688142e-07  3.58559546e-08  1.07000000e+00 
 1.08000000e+00  3.16498945e-09  3.33033469e-09  3.22877344e-09  4.58651364e-01  4.58651364e-01  3.19350544e-09  3.02309745e-09  1.59688183e-07  3.58559191e-08  1.08000000e+00 
 1.09000000e+00  3.16498945e-09  3.33033468e-09  3.22877343e-09  4.58651344e-01  4.58651343e-01  3.19350544e-09  3.02309745e-09  1.59688162e-07  3.58559191e-08  1.09000000e+00 
 1.10000000e+00  3.16498945e-09  3.33033468e-09  3.22877343e-09  4.58651342e-01  4.58651342e-01  3.19350544e-09  3.02309751e-09  1.59688162e-07  3.58557415e-08  1.10000000e+00 
