 v-sweep         v(b0)           v(b1)           v(b2)           v(b3)           v(b4)           v(b5)           v(b6)           i(vbias)        i(viout)        v(vout)        
 0.00000000e+00  3.26987599e-09  3.23784451e-09  4.57945871e-01  3.22516740e-09  4.57945871e-01  4.57945871e-01  4.57945871e-01  1.57270206e-07  1.74204267e-07  0.00000000e+00 
 1.00000000e-02  3.26987602e-09  3.23784449e-09  4.57945880e-01  3.22516738e-09  4.57945880e-01  4.57945880e-01  4.57945880e-01  1.57270221e-07  1.74203859e-07  1.00000000e-02 
 2.00000000e-02  3.26987597e-09  3.23784449e-09  4.57945917e-01  3.22516738e-09  4.57945917e-01  4.57945917e-01  4.57945917e-01  1.57270275e-07  1.74203468e-07  2.00000000e-02 
 3.00000000e-02  3.26987597e-09  3.23784449e-09  4.57945900e-01  3.22516738e-09  4.57945900e-01  4.57945900e-01  4.57945900e-01  1.57270246e-07  1.74203023e-07  3.00000000e-02 
 4.00000000e-02  3.26987597e-09  3.23784449e-09  4.57945895e-01  3.22516738e-09  4.57945894e-01  4.57945895e-01  4.57945895e-01  1.57270241e-07  1.74202541e-07  4.00000000e-02 
 5.00000000e-02  3.26987597e-09  3.23784455e-09  4.57945914e-01  3.22516738e-09  4.57945914e-01  4.57945914e-01  4.57945914e-01  1.57270262e-07  1.74202267e-07  5.00000000e-02 
 6.00000000e-02  3.26987602e-09  3.23784455e-09  4.57945862e-01  3.22516738e-09  4.57945862e-01  4.57945862e-01  4.57945862e-01  1.57270188e-07  1.74201711e-07  6.00000000e-02 
 7.00000000e-02  3.26987597e-09  3.23784449e-09  4.57945911e-01  3.22516738e-09  4.57945910e-01  4.57945911e-01  4.57945911e-01  1.57270267e-07  1.74201494e-07  7.00000000e-02 
 8.00000000e-02  3.26987602e-09  3.23784449e-09  4.57945892e-01  3.22516738e-09  4.57945892e-01  4.57945892e-01  4.57945892e-01  1.57270219e-07  1.74201042e-07  8.00000000e-02 
 9.00000000e-02  3.26987597e-09  3.23784449e-09  4.57945880e-01  3.22516738e-09  4.57945880e-01  4.57945880e-01  4.57945880e-01  1.57270226e-07  1.74200732e-07  9.00000000e-02 
 1.00000000e-01  3.26987602e-09  3.23784449e-09  4.57945881e-01  3.22516738e-09  4.57945881e-01  4.57945881e-01  4.57945881e-01  1.57270220e-07  1.74200363e-07  1.00000000e-01 
 1.10000000e-01  3.26987597e-09  3.23784449e-09  4.57945897e-01  3.22516738e-09  4.57945897e-01  4.57945897e-01  4.57945897e-01  1.57270237e-07  1.74200054e-07  1.10000000e-01 
 1.20000000e-01  3.26987602e-09  3.23784449e-09  4.57945855e-01  3.22516738e-09  4.57945855e-01  4.57945855e-01  4.57945855e-01  1.57270171e-07  1.74199644e-07  1.20000000e-01 
 1.30000000e-01  3.26987597e-09  3.23784449e-09  4.57945878e-01  3.22516744e-09  4.57945878e-01  4.57945878e-01  4.57945878e-01  1.57270209e-07  1.74199431e-07  1.30000000e-01 
 1.40000000e-01  3.26987597e-09  3.23784449e-09  4.57945861e-01  3.22516738e-09  4.57945861e-01  4.57945861e-01  4.57945861e-01  1.57270189e-07  1.74199163e-07  1.40000000e-01 
 1.50000000e-01  3.26987597e-09  3.23784455e-09  4.57945889e-01  3.22516738e-09  4.57945889e-01  4.57945889e-01  4.57945889e-01  1.57270228e-07  1.74199080e-07  1.50000000e-01 
 1.60000000e-01  3.26987597e-09  3.23784455e-09  4.57945865e-01  3.22516738e-09  4.57945865e-01  4.57945865e-01  4.57945865e-01  1.57270197e-07  1.74198599e-07  1.60000000e-01 
 1.70000000e-01  3.26987602e-09  3.23784449e-09  4.57945871e-01  3.22516738e-09  4.57945871e-01  4.57945871e-01  4.57945871e-01  1.57270219e-07  1.74198405e-07  1.70000000e-01 
 1.80000000e-01  3.26987597e-09  3.23784455e-09  4.57945905e-01  3.22516744e-09  4.57945905e-01  4.57945905e-01  4.57945905e-01  1.57270259e-07  1.74198329e-07  1.80000000e-01 
 1.90000000e-01  3.26987597e-09  3.23784449e-09  4.57945892e-01  3.22516738e-09  4.57945892e-01  4.57945892e-01  4.57945892e-01  1.57270223e-07  1.74197968e-07  1.90000000e-01 
 2.00000000e-01  3.26987597e-09  3.23784449e-09  4.57945908e-01  3.22516738e-09  4.57945908e-01  4.57945908e-01  4.57945908e-01  1.57270268e-07  1.74197728e-07  2.00000000e-01 
 2.10000000e-01  3.26987602e-09  3.23784449e-09  4.57945899e-01  3.22516738e-09  4.57945899e-01  4.57945899e-01  4.57945899e-01  1.57270232e-07  1.74197563e-07  2.10000000e-01 
 2.20000000e-01  3.26987597e-09  3.23784449e-09  4.57945920e-01  3.22516738e-09  4.57945919e-01  4.57945920e-01  4.57945919e-01  1.57270283e-07  1.74197469e-07  2.20000000e-01 
 2.30000000e-01  3.26987597e-09  3.23784449e-09  4.57945872e-01  3.22516738e-09  4.57945872e-01  4.57945872e-01  4.57945872e-01  1.57270192e-07  1.74196925e-07  2.30000000e-01 
 2.40000000e-01  3.26987602e-09  3.23784449e-09  4.57945880e-01  3.22516738e-09  4.57945880e-01  4.57945880e-01  4.57945880e-01  1.57270224e-07  1.74196815e-07  2.40000000e-01 
 2.50000000e-01  3.26987597e-09  3.23784449e-09  4.57945891e-01  3.22516738e-09  4.57945891e-01  4.57945891e-01  4.57945891e-01  1.57270215e-07  1.74196687e-07  2.50000000e-01 
 2.60000000e-01  3.26987596e-09  3.23784455e-09  4.57945846e-01  3.22516738e-09  4.57945845e-01  4.57945846e-01  4.57945846e-01  1.57270170e-07  1.74196309e-07  2.60000000e-01 
 2.70000000e-01  3.26987596e-09  3.23784455e-09  4.57945853e-01  3.22516738e-09  4.57945852e-01  4.57945853e-01  4.57945852e-01  1.57270181e-07  1.74196209e-07  2.70000000e-01 
 2.80000000e-01  3.26987602e-09  3.23784449e-09  4.57945882e-01  3.22516738e-09  4.57945882e-01  4.57945882e-01  4.57945882e-01  1.57270229e-07  1.74196019e-07  2.80000000e-01 
 2.90000000e-01  3.26987597e-09  3.23784449e-09  4.57945889e-01  3.22516738e-09  4.57945889e-01  4.57945889e-01  4.57945889e-01  1.57270233e-07  1.74195794e-07  2.90000000e-01 
 3.00000000e-01  3.26987597e-09  3.23784455e-09  4.57945875e-01  3.22516738e-09  4.57945875e-01  4.57945875e-01  4.57945875e-01  1.57270196e-07  1.74195723e-07  3.00000000e-01 
 3.10000000e-01  3.26987597e-09  3.23784449e-09  4.57945898e-01  3.22516738e-09  4.57945898e-01  4.57945898e-01  4.57945898e-01  1.57270242e-07  1.74195584e-07  3.10000000e-01 
 3.20000000e-01  3.26987602e-09  3.23784449e-09  4.57945900e-01  3.22516738e-09  4.57945900e-01  4.57945900e-01  4.57945900e-01  1.57270238e-07  1.74195399e-07  3.20000000e-01 
 3.30000000e-01  3.26987602e-09  3.23784455e-09  4.57945883e-01  3.22516738e-09  4.57945883e-01  4.57945883e-01  4.57945883e-01  1.57270222e-07  1.74195186e-07  3.30000000e-01 
 3.40000000e-01  3.26987597e-09  3.23784449e-09  4.57945898e-01  3.22516738e-09  4.57945897e-01  4.57945898e-01  4.57945898e-01  1.57270243e-07  1.74195055e-07  3.40000000e-01 
 3.50000000e-01  3.26987597e-09  3.23784449e-09  4.57945870e-01  3.22516738e-09  4.57945870e-01  4.57945870e-01  4.57945870e-01  1.57270205e-07  1.74194874e-07  3.50000000e-01 
 3.60000000e-01  3.26987597e-09  3.23784449e-09  4.57945874e-01  3.22516744e-09  4.57945874e-01  4.57945874e-01  4.57945874e-01  1.57270210e-07  1.74194625e-07  3.60000000e-01 
 3.70000000e-01  3.26987597e-09  3.23784455e-09  4.57945911e-01  3.22516738e-09  4.57945911e-01  4.57945911e-01  4.57945911e-01  1.57270265e-07  1.74194565e-07  3.70000000e-01 
 3.80000000e-01  3.26987602e-09  3.23784449e-09  4.57945879e-01  3.22516738e-09  4.57945879e-01  4.57945879e-01  4.57945879e-01  1.57270217e-07  1.74194458e-07  3.80000000e-01 
 3.90000000e-01  3.26987602e-09  3.23784449e-09  4.57945865e-01  3.22516738e-09  4.57945865e-01  4.57945865e-01  4.57945865e-01  1.57270199e-07  1.74194177e-07  3.90000000e-01 
 4.00000000e-01  3.26987597e-09  3.23784455e-09  4.57945901e-01  3.22516738e-09  4.57945900e-01  4.57945901e-01  4.57945901e-01  1.57270257e-07  1.74194177e-07  4.00000000e-01 
 4.10000000e-01  3.26987596e-09  3.23784455e-09  4.57945851e-01  3.22516738e-09  4.57945851e-01  4.57945851e-01  4.57945851e-01  1.57270162e-07  1.74193769e-07  4.10000000e-01 
 4.20000000e-01  3.26987597e-09  3.23784449e-09  4.57945869e-01  3.22516738e-09  4.57945869e-01  4.57945869e-01  4.57945869e-01  1.57270196e-07  1.74193740e-07  4.20000000e-01 
 4.30000000e-01  3.26987597e-09  3.23784455e-09  4.57945894e-01  3.22516738e-09  4.57945894e-01  4.57945894e-01  4.57945894e-01  1.57270226e-07  1.74193705e-07  4.30000000e-01 
 4.40000000e-01  3.26987602e-09  3.23784455e-09  4.57945892e-01  3.22516738e-09  4.57945892e-01  4.57945892e-01  4.57945892e-01  1.57270232e-07  1.74193506e-07  4.40000000e-01 
 4.50000000e-01  3.26987597e-09  3.23784449e-09  4.57945884e-01  3.22516738e-09  4.57945884e-01  4.57945884e-01  4.57945884e-01  1.57270227e-07  1.74193421e-07  4.50000000e-01 
 4.60000000e-01  3.26987597e-09  3.23784455e-09  4.57945902e-01  3.22516738e-09  4.57945902e-01  4.57945902e-01  4.57945902e-01  1.57270267e-07  1.74193339e-07  4.60000000e-01 
 4.70000000e-01  3.26987602e-09  3.23784449e-09  4.57945877e-01  3.22516738e-09  4.57945877e-01  4.57945877e-01  4.57945877e-01  1.57270213e-07  1.74193062e-07  4.70000000e-01 
 4.80000000e-01  3.26987597e-09  3.23784449e-09  4.57945878e-01  3.22516738e-09  4.57945878e-01  4.57945878e-01  4.57945878e-01  1.57270219e-07  1.74192969e-07  4.80000000e-01 
 4.90000000e-01  3.26987597e-09  3.23784449e-09  4.57945886e-01  3.22516738e-09  4.57945886e-01  4.57945886e-01  4.57945886e-01  1.57270227e-07  1.74192678e-07  4.90000000e-01 
 5.00000000e-01  3.26987602e-09  3.23784449e-09  4.57945895e-01  3.22516738e-09  4.57945895e-01  4.57945895e-01  4.57945895e-01  1.57270241e-07  1.74192699e-07  5.00000000e-01 
 5.10000000e-01  3.26987602e-09  3.23784455e-09  4.57945869e-01  3.22516738e-09  4.57945868e-01  4.57945869e-01  4.57945868e-01  1.57270197e-07  1.74192458e-07  5.10000000e-01 
 5.20000000e-01  3.26987602e-09  3.23784455e-09  4.57945886e-01  3.22516738e-09  4.57945886e-01  4.57945886e-01  4.57945886e-01  1.57270241e-07  1.74192422e-07  5.20000000e-01 
 5.30000000e-01  3.26987597e-09  3.23784449e-09  4.57945869e-01  3.22516738e-09  4.57945869e-01  4.57945869e-01  4.57945869e-01  1.57270197e-07  1.74192216e-07  5.30000000e-01 
 5.40000000e-01  3.26987597e-09  3.23784455e-09  4.57945895e-01  3.22516738e-09  4.57945895e-01  4.57945895e-01  4.57945895e-01  1.57270243e-07  1.74192230e-07  5.40000000e-01 
 5.50000000e-01  3.26987603e-09  3.23784449e-09  4.57945904e-01  3.22516738e-09  4.57945904e-01  4.57945904e-01  4.57945904e-01  1.57270239e-07  1.74192088e-07  5.50000000e-01 
 5.60000000e-01  3.26987602e-09  3.23784449e-09  4.57945863e-01  3.22516738e-09  4.57945863e-01  4.57945863e-01  4.57945863e-01  1.57270198e-07  1.74191655e-07  5.60000000e-01 
 5.70000000e-01  3.26987597e-09  3.23784449e-09  4.57945892e-01  3.22516738e-09  4.57945892e-01  4.57945892e-01  4.57945892e-01  1.57270247e-07  1.74191619e-07  5.70000000e-01 
 5.80000000e-01  3.26987602e-09  3.23784449e-09  4.57945881e-01  3.22516738e-09  4.57945881e-01  4.57945881e-01  4.57945881e-01  1.57270218e-07  1.74191399e-07  5.80000000e-01 
 5.90000000e-01  3.26987602e-09  3.23784449e-09  4.57945889e-01  3.22516738e-09  4.57945889e-01  4.57945889e-01  4.57945889e-01  1.57270226e-07  1.74191449e-07  5.90000000e-01 
 6.00000000e-01  3.26987602e-09  3.23784449e-09  4.57945866e-01  3.22516738e-09  4.57945866e-01  4.57945866e-01  4.57945866e-01  1.57270198e-07  1.74191257e-07  6.00000000e-01 
 6.10000000e-01  3.26987597e-09  3.23784449e-09  4.57945870e-01  3.22516738e-09  4.57945870e-01  4.57945870e-01  4.57945870e-01  1.57270211e-07  1.74191086e-07  6.10000000e-01 
 6.20000000e-01  3.26987603e-09  3.23784455e-09  4.57945910e-01  3.22516738e-09  4.57945909e-01  4.57945910e-01  4.57945910e-01  1.57270270e-07  1.74191058e-07  6.20000000e-01 
 6.30000000e-01  3.26987597e-09  3.23784449e-09  4.57945891e-01  3.22516738e-09  4.57945891e-01  4.57945891e-01  4.57945891e-01  1.57270226e-07  1.74191008e-07  6.30000000e-01 
 6.40000000e-01  3.26987597e-09  3.23784455e-09  4.57945886e-01  3.22516738e-09  4.57945886e-01  4.57945886e-01  4.57945886e-01  1.57270238e-07  1.74190831e-07  6.40000000e-01 
 6.50000000e-01  3.26987602e-09  3.23784455e-09  4.57945884e-01  3.22516738e-09  4.57945884e-01  4.57945884e-01  4.57945884e-01  1.57270230e-07  1.74190617e-07  6.50000000e-01 
 6.60000000e-01  3.26987602e-09  3.23784449e-09  4.57945881e-01  3.22516738e-09  4.57945881e-01  4.57945881e-01  4.57945881e-01  1.57270218e-07  1.74190419e-07  6.60000000e-01 
 6.70000000e-01  3.26987597e-09  3.23784449e-09  4.57945878e-01  3.22516738e-09  4.57945878e-01  4.57945878e-01  4.57945878e-01  1.57270224e-07  1.74190404e-07  6.70000000e-01 
 6.80000000e-01  3.26987597e-09  3.23784455e-09  4.57945876e-01  3.22516738e-09  4.57945876e-01  4.57945876e-01  4.57945876e-01  1.57270207e-07  1.74190113e-07  6.80000000e-01 
 6.90000000e-01  3.26987602e-09  3.23784449e-09  4.57945866e-01  3.22516738e-09  4.57945866e-01  4.57945866e-01  4.57945866e-01  1.57270212e-07  1.74190014e-07  6.90000000e-01 
 7.00000000e-01  3.26987603e-09  3.23784449e-09  4.57945913e-01  3.22516738e-09  4.57945912e-01  4.57945913e-01  4.57945913e-01  1.57270267e-07  1.74189992e-07  7.00000000e-01 
 7.10000000e-01  3.26987597e-09  3.23784449e-09  4.57945879e-01  3.22516738e-09  4.57945879e-01  4.57945879e-01  4.57945879e-01  1.57270209e-07  1.74189701e-07  7.10000000e-01 
 7.20000000e-01  3.26987597e-09  3.23784449e-09  4.57945896e-01  3.22516738e-09  4.57945896e-01  4.57945896e-01  4.57945896e-01  1.57270243e-07  1.74189594e-07  7.20000000e-01 
 7.30000000e-01  3.26987602e-09  3.23784449e-09  4.57945895e-01  3.22516738e-09  4.57945895e-01  4.57945895e-01  4.57945895e-01  1.57270238e-07  1.74189466e-07  7.30000000e-01 
 7.40000000e-01  3.26987597e-09  3.23784449e-09  4.57945883e-01  3.22516738e-09  4.57945883e-01  4.57945883e-01  4.57945883e-01  1.57270229e-07  1.74189267e-07  7.40000000e-01 
 7.50000000e-01  3.26987597e-09  3.23784449e-09  4.57945902e-01  3.22516738e-09  4.57945902e-01  4.57945902e-01  4.57945902e-01  1.57270245e-07  1.74189168e-07  7.50000000e-01 
 7.60000000e-01  3.26987597e-09  3.23784455e-09  4.57945874e-01  3.22516738e-09  4.57945874e-01  4.57945874e-01  4.57945874e-01  1.57270206e-07  1.74188962e-07  7.60000000e-01 
 7.70000000e-01  3.26987602e-09  3.23784449e-09  4.57945872e-01  3.22516738e-09  4.57945872e-01  4.57945872e-01  4.57945872e-01  1.57270216e-07  1.74188912e-07  7.70000000e-01 
 7.80000000e-01  3.26987602e-09  3.23784449e-09  4.57945889e-01  3.22516738e-09  4.57945888e-01  4.57945889e-01  4.57945888e-01  1.57270235e-07  1.74188656e-07  7.80000000e-01 
 7.90000000e-01  3.26987597e-09  3.23784455e-09  4.57945892e-01  3.22516738e-09  4.57945892e-01  4.57945892e-01  4.57945892e-01  1.57270216e-07  1.74188450e-07  7.90000000e-01 
 8.00000000e-01  3.26987597e-09  3.23784449e-09  4.57945879e-01  3.22516738e-09  4.57945879e-01  4.57945879e-01  4.57945879e-01  1.57270218e-07  1.74188322e-07  8.00000000e-01 
 8.10000000e-01  3.26987597e-09  3.23784449e-09  4.57945865e-01  3.22516738e-09  4.57945865e-01  4.57945865e-01  4.57945865e-01  1.57270203e-07  1.74188202e-07  8.10000000e-01 
 8.20000000e-01  3.26987597e-09  3.23784449e-09  4.57945889e-01  3.22516738e-09  4.57945889e-01  4.57945889e-01  4.57945889e-01  1.57270226e-07  1.74188031e-07  8.20000000e-01 
 8.30000000e-01  3.26987597e-09  3.23784449e-09  4.57945888e-01  3.22516738e-09  4.57945888e-01  4.57945888e-01  4.57945888e-01  1.57270220e-07  1.74187981e-07  8.30000000e-01 
 8.40000000e-01  3.26987597e-09  3.23784455e-09  4.57945884e-01  3.22516738e-09  4.57945884e-01  4.57945884e-01  4.57945884e-01  1.57270234e-07  1.74187861e-07  8.40000000e-01 
 8.50000000e-01  3.26987602e-09  3.23784449e-09  4.57945871e-01  3.22516738e-09  4.57945871e-01  4.57945871e-01  4.57945871e-01  1.57270194e-07  1.74187541e-07  8.50000000e-01 
 8.60000000e-01  3.26987602e-09  3.23784449e-09  4.57945870e-01  3.22516738e-09  4.57945870e-01  4.57945870e-01  4.57945870e-01  1.57270208e-07  1.74187377e-07  8.60000000e-01 
 8.70000000e-01  3.26987597e-09  3.23784455e-09  4.57945873e-01  3.22516738e-09  4.57945873e-01  4.57945873e-01  4.57945873e-01  1.57270213e-07  1.74187250e-07  8.70000000e-01 
 8.80000000e-01  3.26987602e-09  3.23784449e-09  4.57945873e-01  3.22516738e-09  4.57945873e-01  4.57945873e-01  4.57945873e-01  1.57270205e-07  1.74187157e-07  8.80000000e-01 
 8.90000000e-01  3.26987603e-09  3.23784449e-09  4.57945903e-01  3.22516738e-09  4.57945903e-01  4.57945903e-01  4.57945903e-01  1.57270259e-07  1.74187157e-07  8.90000000e-01 
 9.00000000e-01  3.26987602e-09  3.23784455e-09  4.57945880e-01  3.22516738e-09  4.57945880e-01  4.57945880e-01  4.57945880e-01  1.57270218e-07  1.74186994e-07  9.00000000e-01 
 9.10000000e-01  3.26987602e-09  3.23784449e-09  4.57945898e-01  3.22516738e-09  4.57945898e-01  4.57945898e-01  4.57945898e-01  1.57270238e-07  1.74186852e-07  9.10000000e-01 
 9.20000000e-01  3.26987597e-09  3.23784455e-09  4.57945899e-01  3.22516738e-09  4.57945899e-01  4.57945899e-01  4.57945899e-01  1.57270250e-07  1.74186596e-07  9.20000000e-01 
 9.30000000e-01  3.26987602e-09  3.23784449e-09  4.57945868e-01  3.22516738e-09  4.57945868e-01  4.57945868e-01  4.57945868e-01  1.57270199e-07  1.74186326e-07  9.30000000e-01 
 9.40000000e-01  3.26987602e-09  3.23784449e-09  4.57945874e-01  3.22516738e-09  4.57945873e-01  4.57945874e-01  4.57945873e-01  1.57270211e-07  1.74186304e-07  9.40000000e-01 
 9.50000000e-01  3.26987602e-09  3.23784449e-09  4.57945877e-01  3.22516738e-09  4.57945877e-01  4.57945877e-01  4.57945877e-01  1.57270220e-07  1.74186063e-07  9.50000000e-01 
 9.60000000e-01  3.26987597e-09  3.23784449e-09  4.57945874e-01  3.22516738e-09  4.57945874e-01  4.57945874e-01  4.57945874e-01  1.57270202e-07  1.74185892e-07  9.60000000e-01 
 9.70000000e-01  3.26987597e-09  3.23784449e-09  4.57945882e-01  3.22516738e-09  4.57945882e-01  4.57945882e-01  4.57945882e-01  1.57270227e-07  1.74185779e-07  9.70000000e-01 
 9.80000000e-01  3.26987597e-09  3.23784449e-09  4.57945915e-01  3.22516738e-09  4.57945915e-01  4.57945915e-01  4.57945915e-01  1.57270260e-07  1.74185786e-07  9.80000000e-01 
 9.90000000e-01  3.26987597e-09  3.23784449e-09  4.57945901e-01  3.22516738e-09  4.57945901e-01  4.57945901e-01  4.57945901e-01  1.57270229e-07  1.74185459e-07  9.90000000e-01 
 1.00000000e+00  3.26987602e-09  3.23784449e-09  4.57945895e-01  3.22516744e-09  4.57945895e-01  4.57945896e-01  4.57945895e-01  1.57270229e-07  1.74185274e-07  1.00000000e+00 
 1.01000000e+00  3.26987602e-09  3.23784449e-09  4.57945901e-01  3.22516738e-09  4.57945901e-01  4.57945901e-01  4.57945901e-01  1.57270253e-07  1.74185125e-07  1.01000000e+00 
 1.02000000e+00  3.26987602e-09  3.23784455e-09  4.57945887e-01  3.22516738e-09  4.57945887e-01  4.57945887e-01  4.57945887e-01  1.57270233e-07  1.74184891e-07  1.02000000e+00 
 1.03000000e+00  3.26987602e-09  3.23784449e-09  4.57945876e-01  3.22516738e-09  4.57945876e-01  4.57945876e-01  4.57945876e-01  1.57270217e-07  1.74184734e-07  1.03000000e+00 
 1.04000000e+00  3.26987597e-09  3.23784455e-09  4.57945885e-01  3.22516738e-09  4.57945884e-01  4.57945885e-01  4.57945884e-01  1.57270231e-07  1.74184507e-07  1.04000000e+00 
 1.05000000e+00  3.26987602e-09  3.23784449e-09  4.57945887e-01  3.22516738e-09  4.57945887e-01  4.57945887e-01  4.57945887e-01  1.57270221e-07  1.74184372e-07  1.05000000e+00 
 1.06000000e+00  3.26987602e-09  3.23784449e-09  4.57945889e-01  3.22516738e-09  4.57945889e-01  4.57945889e-01  4.57945889e-01  1.57270227e-07  1.74184201e-07  1.06000000e+00 
 1.07000000e+00  3.26987597e-09  3.23784449e-09  4.57945894e-01  3.22516738e-09  4.57945894e-01  4.57945894e-01  4.57945894e-01  1.57270238e-07  1.74183910e-07  1.07000000e+00 
 1.08000000e+00  3.26987596e-09  3.23784449e-09  4.57945849e-01  3.22516738e-09  4.57945849e-01  4.57945849e-01  4.57945849e-01  1.57270172e-07  1.74183555e-07  1.08000000e+00 
 1.09000000e+00  3.26987597e-09  3.23784455e-09  4.57945899e-01  3.22516738e-09  4.57945899e-01  4.57945899e-01  4.57945899e-01  1.57270250e-07  1.74183569e-07  1.09000000e+00 
 1.10000000e+00  3.26987597e-09  3.23784449e-09  4.57945891e-01  3.22516738e-09  4.57945891e-01  4.57945891e-01  4.57945891e-01  1.57270222e-07  1.74183548e-07  1.10000000e+00 
