 v-sweep         v(b0)           v(b1)           v(b2)           v(b3)           v(b4)           v(b5)           v(b6)           i(vbias)        i(viout)        v(vout)        
 0.00000000e+00  4.60005031e-01  3.34907855e-09  3.23081867e-09  4.60005030e-01  3.22880301e-09  3.29014115e-09  3.32461837e-09  1.61624003e-07  1.35017635e-08  0.00000000e+00 
 1.00000000e-02  4.60005032e-01  3.34907859e-09  3.23081865e-09  4.60005032e-01  3.22880299e-09  3.29014119e-09  3.32461835e-09  1.61623997e-07  1.35013196e-08  1.00000000e-02 
 2.00000000e-02  4.60005040e-01  3.34907859e-09  3.23081860e-09  4.60005040e-01  3.22880300e-09  3.29014119e-09  3.32461841e-09  1.61624021e-07  1.35009952e-08  2.00000000e-02 
 3.00000000e-02  4.60005042e-01  3.34907859e-09  3.23081865e-09  4.60005042e-01  3.22880300e-09  3.29014113e-09  3.32461841e-09  1.61624021e-07  1.35006293e-08  3.00000000e-02 
 4.00000000e-02  4.60005017e-01  3.34907859e-09  3.23081859e-09  4.60005017e-01  3.22880305e-09  3.29014113e-09  3.32461841e-09  1.61623975e-07  1.35002240e-08  4.00000000e-02 
 5.00000000e-02  4.60005039e-01  3.34907859e-09  3.23081865e-09  4.60005039e-01  3.22880304e-09  3.29014113e-09  3.32461841e-09  1.61624000e-07  1.34999447e-08  5.00000000e-02 
 6.00000000e-02  4.60005016e-01  3.34907859e-09  3.23081865e-09  4.60005016e-01  3.22880299e-09  3.29014113e-09  3.32461841e-09  1.61623975e-07  1.34995797e-08  6.00000000e-02 
 7.00000000e-02  4.60005054e-01  3.34907859e-09  3.23081866e-09  4.60005054e-01  3.22880300e-09  3.29014119e-09  3.32461841e-09  1.61624044e-07  1.34992182e-08  7.00000000e-02 
 8.00000000e-02  4.60005040e-01  3.34907859e-09  3.23081865e-09  4.60005040e-01  3.22880305e-09  3.29014119e-09  3.32461835e-09  1.61624016e-07  1.34989726e-08  8.00000000e-02 
 9.00000000e-02  4.60005061e-01  3.34907859e-09  3.23081866e-09  4.60005061e-01  3.22880299e-09  3.29014119e-09  3.32461841e-09  1.61624042e-07  1.34987195e-08  9.00000000e-02 
 1.00000000e-01  4.60005056e-01  3.34907859e-09  3.23081860e-09  4.60005056e-01  3.22880306e-09  3.29014113e-09  3.32461836e-09  1.61624041e-07  1.34984992e-08  1.00000000e-01 
 1.10000000e-01  4.60005040e-01  3.34907859e-09  3.23081865e-09  4.60005039e-01  3.22880304e-09  3.29014113e-09  3.32461841e-09  1.61624010e-07  1.34982949e-08  1.10000000e-01 
 1.20000000e-01  4.60005045e-01  3.34907859e-09  3.23081865e-09  4.60005045e-01  3.22880305e-09  3.29014119e-09  3.32461835e-09  1.61624032e-07  1.34980063e-08  1.20000000e-01 
 1.30000000e-01  4.60005059e-01  3.34907859e-09  3.23081866e-09  4.60005058e-01  3.22880299e-09  3.29014113e-09  3.32461841e-09  1.61624034e-07  1.34978251e-08  1.30000000e-01 
 1.40000000e-01  4.60005068e-01  3.34907859e-09  3.23081866e-09  4.60005068e-01  3.22880300e-09  3.29014119e-09  3.32461841e-09  1.61624065e-07  1.34975551e-08  1.40000000e-01 
 1.50000000e-01  4.60005042e-01  3.34907859e-09  3.23081865e-09  4.60005041e-01  3.22880300e-09  3.29014113e-09  3.32461841e-09  1.61624025e-07  1.34974769e-08  1.50000000e-01 
 1.60000000e-01  4.60005042e-01  3.34907859e-09  3.23081865e-09  4.60005042e-01  3.22880300e-09  3.29014113e-09  3.32461841e-09  1.61624015e-07  1.34972602e-08  1.60000000e-01 
 1.70000000e-01  4.60005073e-01  3.34907859e-09  3.23081866e-09  4.60005073e-01  3.22880306e-09  3.29014119e-09  3.32461841e-09  1.61624055e-07  1.34970417e-08  1.70000000e-01 
 1.80000000e-01  4.60005044e-01  3.34907859e-09  3.23081860e-09  4.60005044e-01  3.22880304e-09  3.29014119e-09  3.32461835e-09  1.61624029e-07  1.34969032e-08  1.80000000e-01 
 1.90000000e-01  4.60005039e-01  3.34907865e-09  3.23081865e-09  4.60005039e-01  3.22880299e-09  3.29014113e-09  3.32461835e-09  1.61624005e-07  1.34967397e-08  1.90000000e-01 
 2.00000000e-01  4.60005054e-01  3.34907859e-09  3.23081866e-09  4.60005054e-01  3.22880300e-09  3.29014119e-09  3.32461841e-09  1.61624043e-07  1.34967042e-08  2.00000000e-01 
 2.10000000e-01  4.60005037e-01  3.34907859e-09  3.23081865e-09  4.60005037e-01  3.22880300e-09  3.29014113e-09  3.32461841e-09  1.61624017e-07  1.34964608e-08  2.10000000e-01 
 2.20000000e-01  4.60005040e-01  3.34907859e-09  3.23081865e-09  4.60005040e-01  3.22880305e-09  3.29014113e-09  3.32461841e-09  1.61624021e-07  1.34963631e-08  2.20000000e-01 
 2.30000000e-01  4.60005065e-01  3.34907859e-09  3.23081866e-09  4.60005064e-01  3.22880304e-09  3.29014113e-09  3.32461841e-09  1.61624038e-07  1.34961162e-08  2.30000000e-01 
 2.40000000e-01  4.60005045e-01  3.34907859e-09  3.23081865e-09  4.60005044e-01  3.22880305e-09  3.29014113e-09  3.32461841e-09  1.61624029e-07  1.34960629e-08  2.40000000e-01 
 2.50000000e-01  4.60005040e-01  3.34907859e-09  3.23081865e-09  4.60005040e-01  3.22880299e-09  3.29014113e-09  3.32461841e-09  1.61624011e-07  1.34958604e-08  2.50000000e-01 
 2.60000000e-01  4.60005052e-01  3.34907859e-09  3.23081866e-09  4.60005052e-01  3.22880306e-09  3.29014119e-09  3.32461841e-09  1.61624039e-07  1.34957858e-08  2.60000000e-01 
 2.70000000e-01  4.60005049e-01  3.34907859e-09  3.23081865e-09  4.60005048e-01  3.22880304e-09  3.29014119e-09  3.32461841e-09  1.61624028e-07  1.34956615e-08  2.70000000e-01 
 2.80000000e-01  4.60005036e-01  3.34907859e-09  3.23081860e-09  4.60005036e-01  3.22880299e-09  3.29014113e-09  3.32461841e-09  1.61624000e-07  1.34956792e-08  2.80000000e-01 
 2.90000000e-01  4.60005024e-01  3.34907859e-09  3.23081865e-09  4.60005024e-01  3.22880300e-09  3.29014113e-09  3.32461835e-09  1.61623989e-07  1.34954341e-08  2.90000000e-01 
 3.00000000e-01  4.60005030e-01  3.34907859e-09  3.23081865e-09  4.60005030e-01  3.22880305e-09  3.29014113e-09  3.32461841e-09  1.61623997e-07  1.34953844e-08  3.00000000e-01 
 3.10000000e-01  4.60005045e-01  3.34907859e-09  3.23081865e-09  4.60005044e-01  3.22880304e-09  3.29014119e-09  3.32461835e-09  1.61624016e-07  1.34953630e-08  3.10000000e-01 
 3.20000000e-01  4.60005045e-01  3.34907859e-09  3.23081865e-09  4.60005045e-01  3.22880305e-09  3.29014119e-09  3.32461841e-09  1.61624022e-07  1.34953240e-08  3.20000000e-01 
 3.30000000e-01  4.60005020e-01  3.34907859e-09  3.23081865e-09  4.60005019e-01  3.22880299e-09  3.29014113e-09  3.32461841e-09  1.61623988e-07  1.34951037e-08  3.30000000e-01 
 3.40000000e-01  4.60005028e-01  3.34907859e-09  3.23081865e-09  4.60005028e-01  3.22880300e-09  3.29014119e-09  3.32461835e-09  1.61623999e-07  1.34950007e-08  3.40000000e-01 
 3.50000000e-01  4.60005060e-01  3.34907859e-09  3.23081866e-09  4.60005060e-01  3.22880300e-09  3.29014119e-09  3.32461841e-09  1.61624041e-07  1.34950646e-08  3.50000000e-01 
 3.60000000e-01  4.60005038e-01  3.34907859e-09  3.23081865e-09  4.60005038e-01  3.22880305e-09  3.29014113e-09  3.32461841e-09  1.61624009e-07  1.34948905e-08  3.60000000e-01 
 3.70000000e-01  4.60005026e-01  3.34907859e-09  3.23081865e-09  4.60005025e-01  3.22880304e-09  3.29014113e-09  3.32461841e-09  1.61623993e-07  1.34948586e-08  3.70000000e-01 
 3.80000000e-01  4.60005039e-01  3.34907859e-09  3.23081865e-09  4.60005039e-01  3.22880299e-09  3.29014119e-09  3.32461841e-09  1.61624016e-07  1.34946703e-08  3.80000000e-01 
 3.90000000e-01  4.60005040e-01  3.34907859e-09  3.23081865e-09  4.60005040e-01  3.22880306e-09  3.29014113e-09  3.32461841e-09  1.61624011e-07  1.34946312e-08  3.90000000e-01 
 4.00000000e-01  4.60005061e-01  3.34907859e-09  3.23081866e-09  4.60005061e-01  3.22880299e-09  3.29014119e-09  3.32461836e-09  1.61624035e-07  1.34946525e-08  4.00000000e-01 
 4.10000000e-01  4.60005033e-01  3.34907859e-09  3.23081860e-09  4.60005033e-01  3.22880306e-09  3.29014113e-09  3.32461841e-09  1.61624004e-07  1.34945459e-08  4.10000000e-01 
 4.20000000e-01  4.60005050e-01  3.34907859e-09  3.23081865e-09  4.60005050e-01  3.22880304e-09  3.29014119e-09  3.32461841e-09  1.61624030e-07  1.34944393e-08  4.20000000e-01 
 4.30000000e-01  4.60005016e-01  3.34907859e-09  3.23081865e-09  4.60005016e-01  3.22880299e-09  3.29014113e-09  3.32461835e-09  1.61623980e-07  1.34943647e-08  4.30000000e-01 
 4.40000000e-01  4.60005017e-01  3.34907859e-09  3.23081865e-09  4.60005017e-01  3.22880306e-09  3.29014119e-09  3.32461835e-09  1.61623968e-07  1.34942439e-08  4.40000000e-01 
 4.50000000e-01  4.60005045e-01  3.34907859e-09  3.23081865e-09  4.60005045e-01  3.22880304e-09  3.29014113e-09  3.32461841e-09  1.61624021e-07  1.34942972e-08  4.50000000e-01 
 4.60000000e-01  4.60005037e-01  3.34907859e-09  3.23081865e-09  4.60005037e-01  3.22880305e-09  3.29014119e-09  3.32461841e-09  1.61624003e-07  1.34941729e-08  4.60000000e-01 
 4.70000000e-01  4.60005036e-01  3.34907859e-09  3.23081865e-09  4.60005036e-01  3.22880299e-09  3.29014119e-09  3.32461841e-09  1.61624017e-07  1.34940130e-08  4.70000000e-01 
 4.80000000e-01  4.60005044e-01  3.34907859e-09  3.23081865e-09  4.60005044e-01  3.22880306e-09  3.29014119e-09  3.32461835e-09  1.61624013e-07  1.34940201e-08  4.80000000e-01 
 4.90000000e-01  4.60005031e-01  3.34907859e-09  3.23081865e-09  4.60005031e-01  3.22880304e-09  3.29014119e-09  3.32461841e-09  1.61623993e-07  1.34940450e-08  4.90000000e-01 
 5.00000000e-01  4.60005030e-01  3.34907859e-09  3.23081865e-09  4.60005030e-01  3.22880305e-09  3.29014113e-09  3.32461835e-09  1.61624007e-07  1.34938709e-08  5.00000000e-01 
 5.10000000e-01  4.60005031e-01  3.34907859e-09  3.23081865e-09  4.60005031e-01  3.22880299e-09  3.29014113e-09  3.32461841e-09  1.61624001e-07  1.34939242e-08  5.10000000e-01 
 5.20000000e-01  4.60005055e-01  3.34907859e-09  3.23081866e-09  4.60005055e-01  3.22880306e-09  3.29014113e-09  3.32461841e-09  1.61624043e-07  1.34939135e-08  5.20000000e-01 
 5.30000000e-01  4.60005069e-01  3.34907859e-09  3.23081866e-09  4.60005069e-01  3.22880304e-09  3.29014119e-09  3.32461836e-09  1.61624075e-07  1.34937430e-08  5.30000000e-01 
 5.40000000e-01  4.60005038e-01  3.34907859e-09  3.23081865e-09  4.60005038e-01  3.22880305e-09  3.29014119e-09  3.32461841e-09  1.61624029e-07  1.34936791e-08  5.40000000e-01 
 5.50000000e-01  4.60005054e-01  3.34907859e-09  3.23081866e-09  4.60005053e-01  3.22880305e-09  3.29014119e-09  3.32461841e-09  1.61624040e-07  1.34937004e-08  5.50000000e-01 
 5.60000000e-01  4.60005041e-01  3.34907859e-09  3.23081865e-09  4.60005041e-01  3.22880299e-09  3.29014113e-09  3.32461841e-09  1.61624005e-07  1.34934943e-08  5.60000000e-01 
 5.70000000e-01  4.60005065e-01  3.34907859e-09  3.23081866e-09  4.60005065e-01  3.22880300e-09  3.29014119e-09  3.32461836e-09  1.61624061e-07  1.34934872e-08  5.70000000e-01 
 5.80000000e-01  4.60005046e-01  3.34907859e-09  3.23081865e-09  4.60005046e-01  3.22880300e-09  3.29014119e-09  3.32461841e-09  1.61624018e-07  1.34935050e-08  5.80000000e-01 
 5.90000000e-01  4.60005028e-01  3.34907859e-09  3.23081865e-09  4.60005028e-01  3.22880299e-09  3.29014113e-09  3.32461835e-09  1.61624000e-07  1.34934055e-08  5.90000000e-01 
 6.00000000e-01  4.60005039e-01  3.34907859e-09  3.23081865e-09  4.60005039e-01  3.22880300e-09  3.29014113e-09  3.32461841e-09  1.61624016e-07  1.34933913e-08  6.00000000e-01 
 6.10000000e-01  4.60005053e-01  3.34907865e-09  3.23081866e-09  4.60005053e-01  3.22880305e-09  3.29014113e-09  3.32461841e-09  1.61624038e-07  1.34934126e-08  6.10000000e-01 
 6.20000000e-01  4.60005056e-01  3.34907859e-09  3.23081866e-09  4.60005056e-01  3.22880304e-09  3.29014113e-09  3.32461841e-09  1.61624031e-07  1.34932776e-08  6.20000000e-01 
 6.30000000e-01  4.60005042e-01  3.34907859e-09  3.23081865e-09  4.60005042e-01  3.22880299e-09  3.29014119e-09  3.32461841e-09  1.61624020e-07  1.34932421e-08  6.30000000e-01 
 6.40000000e-01  4.60005057e-01  3.34907859e-09  3.23081866e-09  4.60005057e-01  3.22880300e-09  3.29014119e-09  3.32461841e-09  1.61624036e-07  1.34932563e-08  6.40000000e-01 
 6.50000000e-01  4.60005039e-01  3.34907859e-09  3.23081860e-09  4.60005039e-01  3.22880300e-09  3.29014119e-09  3.32461841e-09  1.61624021e-07  1.34931710e-08  6.50000000e-01 
 6.60000000e-01  4.60005065e-01  3.34907859e-09  3.23081866e-09  4.60005065e-01  3.22880300e-09  3.29014113e-09  3.32461841e-09  1.61624051e-07  1.34931000e-08  6.60000000e-01 
 6.70000000e-01  4.60005022e-01  3.34907859e-09  3.23081865e-09  4.60005022e-01  3.22880305e-09  3.29014113e-09  3.32461841e-09  1.61623997e-07  1.34928513e-08  6.70000000e-01 
 6.80000000e-01  4.60005028e-01  3.34907859e-09  3.23081865e-09  4.60005028e-01  3.22880298e-09  3.29014119e-09  3.32461841e-09  1.61623995e-07  1.34930360e-08  6.80000000e-01 
 6.90000000e-01  4.60005042e-01  3.34907859e-09  3.23081860e-09  4.60005042e-01  3.22880306e-09  3.29014113e-09  3.32461835e-09  1.61624013e-07  1.34928797e-08  6.90000000e-01 
 7.00000000e-01  4.60005032e-01  3.34907859e-09  3.23081865e-09  4.60005032e-01  3.22880298e-09  3.29014119e-09  3.32461841e-09  1.61624011e-07  1.34928939e-08  7.00000000e-01 
 7.10000000e-01  4.60005046e-01  3.34907859e-09  3.23081865e-09  4.60005045e-01  3.22880300e-09  3.29014113e-09  3.32461841e-09  1.61624020e-07  1.34927873e-08  7.10000000e-01 
 7.20000000e-01  4.60005038e-01  3.34907859e-09  3.23081865e-09  4.60005038e-01  3.22880305e-09  3.29014113e-09  3.32461841e-09  1.61624005e-07  1.34928300e-08  7.20000000e-01 
 7.30000000e-01  4.60005030e-01  3.34907859e-09  3.23081865e-09  4.60005030e-01  3.22880304e-09  3.29014113e-09  3.32461835e-09  1.61623996e-07  1.34928726e-08  7.30000000e-01 
 7.40000000e-01  4.60005024e-01  3.34907859e-09  3.23081865e-09  4.60005024e-01  3.22880305e-09  3.29014119e-09  3.32461841e-09  1.61624001e-07  1.34927376e-08  7.40000000e-01 
 7.50000000e-01  4.60005038e-01  3.34907859e-09  3.23081865e-09  4.60005038e-01  3.22880299e-09  3.29014113e-09  3.32461841e-09  1.61624008e-07  1.34926452e-08  7.50000000e-01 
 7.60000000e-01  4.60005021e-01  3.34907859e-09  3.23081860e-09  4.60005021e-01  3.22880306e-09  3.29014113e-09  3.32461841e-09  1.61623982e-07  1.34926097e-08  7.60000000e-01 
 7.70000000e-01  4.60005043e-01  3.34907859e-09  3.23081865e-09  4.60005043e-01  3.22880298e-09  3.29014119e-09  3.32461841e-09  1.61624022e-07  1.34925244e-08  7.70000000e-01 
 7.80000000e-01  4.60005030e-01  3.34907859e-09  3.23081865e-09  4.60005030e-01  3.22880300e-09  3.29014113e-09  3.32461841e-09  1.61624000e-07  1.34924676e-08  7.80000000e-01 
 7.90000000e-01  4.60005048e-01  3.34907859e-09  3.23081860e-09  4.60005047e-01  3.22880300e-09  3.29014119e-09  3.32461841e-09  1.61624030e-07  1.34924250e-08  7.90000000e-01 
 8.00000000e-01  4.60005058e-01  3.34907859e-09  3.23081866e-09  4.60005058e-01  3.22880300e-09  3.29014119e-09  3.32461836e-09  1.61624043e-07  1.34924676e-08  8.00000000e-01 
 8.10000000e-01  4.60005051e-01  3.34907859e-09  3.23081865e-09  4.60005051e-01  3.22880305e-09  3.29014113e-09  3.32461841e-09  1.61624046e-07  1.34922971e-08  8.10000000e-01 
 8.20000000e-01  4.60005066e-01  3.34907859e-09  3.23081866e-09  4.60005065e-01  3.22880304e-09  3.29014113e-09  3.32461841e-09  1.61624043e-07  1.34923113e-08  8.20000000e-01 
 8.30000000e-01  4.60005034e-01  3.34907859e-09  3.23081860e-09  4.60005034e-01  3.22880299e-09  3.29014113e-09  3.32461841e-09  1.61624011e-07  1.34921194e-08  8.30000000e-01 
 8.40000000e-01  4.60005044e-01  3.34907859e-09  3.23081865e-09  4.60005044e-01  3.22880300e-09  3.29014119e-09  3.32461841e-09  1.61624027e-07  1.34921549e-08  8.40000000e-01 
 8.50000000e-01  4.60005035e-01  3.34907865e-09  3.23081865e-09  4.60005035e-01  3.22880300e-09  3.29014119e-09  3.32461835e-09  1.61624003e-07  1.34921976e-08  8.50000000e-01 
 8.60000000e-01  4.60005037e-01  3.34907859e-09  3.23081865e-09  4.60005037e-01  3.22880300e-09  3.29014113e-09  3.32461841e-09  1.61624014e-07  1.34919986e-08  8.60000000e-01 
 8.70000000e-01  4.60005055e-01  3.34907859e-09  3.23081866e-09  4.60005055e-01  3.22880300e-09  3.29014113e-09  3.32461841e-09  1.61624036e-07  1.34919347e-08  8.70000000e-01 
 8.80000000e-01  4.60005051e-01  3.34907859e-09  3.23081865e-09  4.60005051e-01  3.22880305e-09  3.29014119e-09  3.32461841e-09  1.61624033e-07  1.34919418e-08  8.80000000e-01 
 8.90000000e-01  4.60005021e-01  3.34907859e-09  3.23081865e-09  4.60005021e-01  3.22880304e-09  3.29014113e-09  3.32461841e-09  1.61623983e-07  1.34919702e-08  8.90000000e-01 
 9.00000000e-01  4.60005055e-01  3.34907859e-09  3.23081866e-09  4.60005055e-01  3.22880305e-09  3.29014119e-09  3.32461841e-09  1.61624049e-07  1.34918494e-08  9.00000000e-01 
 9.10000000e-01  4.60005047e-01  3.34907859e-09  3.23081865e-09  4.60005047e-01  3.22880305e-09  3.29014113e-09  3.32461841e-09  1.61624027e-07  1.34916647e-08  9.10000000e-01 
 9.20000000e-01  4.60005042e-01  3.34907859e-09  3.23081865e-09  4.60005042e-01  3.22880299e-09  3.29014113e-09  3.32461841e-09  1.61624022e-07  1.34917784e-08  9.20000000e-01 
 9.30000000e-01  4.60005052e-01  3.34907859e-09  3.23081866e-09  4.60005052e-01  3.22880300e-09  3.29014119e-09  3.32461841e-09  1.61624033e-07  1.34916718e-08  9.30000000e-01 
 9.40000000e-01  4.60005031e-01  3.34907859e-09  3.23081865e-09  4.60005031e-01  3.22880299e-09  3.29014119e-09  3.32461841e-09  1.61623990e-07  1.34916505e-08  9.40000000e-01 
 9.50000000e-01  4.60005059e-01  3.34907859e-09  3.23081866e-09  4.60005059e-01  3.22880300e-09  3.29014113e-09  3.32461841e-09  1.61624038e-07  1.34916149e-08  9.50000000e-01 
 9.60000000e-01  4.60005047e-01  3.34907859e-09  3.23081865e-09  4.60005047e-01  3.22880300e-09  3.29014119e-09  3.32461836e-09  1.61624028e-07  1.34915439e-08  9.60000000e-01 
 9.70000000e-01  4.60005018e-01  3.34907859e-09  3.23081859e-09  4.60005018e-01  3.22880305e-09  3.29014119e-09  3.32461841e-09  1.61623974e-07  1.34914231e-08  9.70000000e-01 
 9.80000000e-01  4.60005038e-01  3.34907859e-09  3.23081865e-09  4.60005038e-01  3.22880304e-09  3.29014113e-09  3.32461835e-09  1.61624020e-07  1.34914586e-08  9.80000000e-01 
 9.90000000e-01  4.60005040e-01  3.34907859e-09  3.23081865e-09  4.60005040e-01  3.22880305e-09  3.29014119e-09  3.32461841e-09  1.61624004e-07  1.34914444e-08  9.90000000e-01 
 1.00000000e+00  4.60005050e-01  3.34907859e-09  3.23081865e-09  4.60005050e-01  3.22880299e-09  3.29014119e-09  3.32461841e-09  1.61624026e-07  1.34913591e-08  1.00000000e+00 
 1.01000000e+00  4.60005047e-01  3.34907859e-09  3.23081865e-09  4.60005046e-01  3.22880306e-09  3.29014119e-09  3.32461841e-09  1.61624014e-07  1.34913876e-08  1.01000000e+00 
 1.02000000e+00  4.60005058e-01  3.34907859e-09  3.23081866e-09  4.60005058e-01  3.22880299e-09  3.29014119e-09  3.32461841e-09  1.61624049e-07  1.34912739e-08  1.02000000e+00 
 1.03000000e+00  4.60005055e-01  3.34907859e-09  3.23081866e-09  4.60005055e-01  3.22880306e-09  3.29014119e-09  3.32461836e-09  1.61624039e-07  1.34911815e-08  1.03000000e+00 
 1.04000000e+00  4.60005033e-01  3.34907859e-09  3.23081865e-09  4.60005033e-01  3.22880304e-09  3.29014119e-09  3.32461841e-09  1.61623992e-07  1.34912312e-08  1.04000000e+00 
 1.05000000e+00  4.60005039e-01  3.34907859e-09  3.23081865e-09  4.60005039e-01  3.22880305e-09  3.29014119e-09  3.32461841e-09  1.61624013e-07  1.34911105e-08  1.05000000e+00 
 1.06000000e+00  4.60005035e-01  3.34907859e-09  3.23081865e-09  4.60005034e-01  3.22880305e-09  3.29014113e-09  3.32461841e-09  1.61624003e-07  1.34911318e-08  1.06000000e+00 
 1.07000000e+00  4.60005034e-01  3.34907859e-09  3.23081865e-09  4.60005034e-01  3.22880299e-09  3.29014119e-09  3.32461841e-09  1.61624012e-07  1.34908902e-08  1.07000000e+00 
 1.08000000e+00  4.60005020e-01  3.34907859e-09  3.23081865e-09  4.60005019e-01  3.22880300e-09  3.29014119e-09  3.32461841e-09  1.61623985e-07  1.34908333e-08  1.08000000e+00 
 1.09000000e+00  4.60005045e-01  3.34907859e-09  3.23081865e-09  4.60005045e-01  3.22880305e-09  3.29014113e-09  3.32461841e-09  1.61624018e-07  1.34908547e-08  1.09000000e+00 
 1.10000000e+00  4.60005052e-01  3.34907859e-09  3.23081866e-09  4.60005052e-01  3.22880298e-09  3.29014113e-09  3.32461836e-09  1.61624044e-07  1.34909470e-08  1.10000000e+00 
