 v-sweep         v(b0)           v(b1)           v(b2)           v(b3)           v(b4)           v(b5)           v(b6)           i(vbias)        i(viout)        v(vout)        
 0.00000000e+00  4.58607275e-01  3.59069766e-09  3.22691267e-09  3.08694053e-09  3.25679316e-09  4.58607275e-01  3.40252061e-09  1.58872800e-07  4.83314064e-08  0.00000000e+00 
 1.00000000e-02  4.58607266e-01  3.59069769e-09  3.22691264e-09  3.08694050e-09  3.25679319e-09  4.58607266e-01  3.40252058e-09  1.58872790e-07  4.83308957e-08  1.00000000e-02 
 2.00000000e-02  4.58607260e-01  3.59069763e-09  3.22691265e-09  3.08694056e-09  3.25679313e-09  4.58607260e-01  3.40252058e-09  1.58872772e-07  4.83305409e-08  2.00000000e-02 
 3.00000000e-02  4.58607282e-01  3.59069769e-09  3.22691264e-09  3.08694055e-09  3.25679313e-09  4.58607282e-01  3.40252058e-09  1.58872824e-07  4.83301392e-08  3.00000000e-02 
 4.00000000e-02  4.58607275e-01  3.59069769e-09  3.22691264e-09  3.08694050e-09  3.25679313e-09  4.58607275e-01  3.40252058e-09  1.58872800e-07  4.83299072e-08  4.00000000e-02 
 5.00000000e-02  4.58607277e-01  3.59069769e-09  3.22691264e-09  3.08694051e-09  3.25679319e-09  4.58607277e-01  3.40252058e-09  1.58872797e-07  4.83296647e-08  5.00000000e-02 
 6.00000000e-02  4.58607282e-01  3.59069769e-09  3.22691270e-09  3.08694050e-09  3.25679313e-09  4.58607282e-01  3.40252058e-09  1.58872804e-07  4.83292224e-08  6.00000000e-02 
 7.00000000e-02  4.58607276e-01  3.59069769e-09  3.22691263e-09  3.08694050e-09  3.25679313e-09  4.58607276e-01  3.40252058e-09  1.58872816e-07  4.83288751e-08  7.00000000e-02 
 8.00000000e-02  4.58607280e-01  3.59069769e-09  3.22691265e-09  3.08694056e-09  3.25679313e-09  4.58607280e-01  3.40252058e-09  1.58872807e-07  4.83286717e-08  8.00000000e-02 
 9.00000000e-02  4.58607280e-01  3.59069769e-09  3.22691264e-09  3.08694049e-09  3.25679319e-09  4.58607280e-01  3.40252058e-09  1.58872805e-07  4.83283911e-08  9.00000000e-02 
 1.00000000e-01  4.58607279e-01  3.59069769e-09  3.22691264e-09  3.08694051e-09  3.25679319e-09  4.58607279e-01  3.40252058e-09  1.58872801e-07  4.83280598e-08  1.00000000e-01 
 1.10000000e-01  4.58607279e-01  3.59069763e-09  3.22691264e-09  3.08694050e-09  3.25679313e-09  4.58607279e-01  3.40252058e-09  1.58872801e-07  4.83278342e-08  1.10000000e-01 
 1.20000000e-01  4.58607283e-01  3.59069769e-09  3.22691264e-09  3.08694056e-09  3.25679319e-09  4.58607283e-01  3.40252064e-09  1.58872813e-07  4.83276565e-08  1.20000000e-01 
 1.30000000e-01  4.58607292e-01  3.59069769e-09  3.22691264e-09  3.08694049e-09  3.25679319e-09  4.58607292e-01  3.40252064e-09  1.58872817e-07  4.83274230e-08  1.30000000e-01 
 1.40000000e-01  4.58607288e-01  3.59069769e-09  3.22691264e-09  3.08694057e-09  3.25679319e-09  4.58607288e-01  3.40252058e-09  1.58872812e-07  4.83271361e-08  1.40000000e-01 
 1.50000000e-01  4.58607274e-01  3.59069769e-09  3.22691264e-09  3.08694055e-09  3.25679319e-09  4.58607273e-01  3.40252058e-09  1.58872799e-07  4.83270437e-08  1.50000000e-01 
 1.60000000e-01  4.58607268e-01  3.59069769e-09  3.22691264e-09  3.08694055e-09  3.25679313e-09  4.58607268e-01  3.40252058e-09  1.58872796e-07  4.83268128e-08  1.60000000e-01 
 1.70000000e-01  4.58607256e-01  3.59069769e-09  3.22691264e-09  3.08694050e-09  3.25679319e-09  4.58607256e-01  3.40252064e-09  1.58872771e-07  4.83266103e-08  1.70000000e-01 
 1.80000000e-01  4.58607272e-01  3.59069769e-09  3.22691264e-09  3.08694051e-09  3.25679313e-09  4.58607272e-01  3.40252058e-09  1.58872794e-07  4.83264255e-08  1.80000000e-01 
 1.90000000e-01  4.58607293e-01  3.59069769e-09  3.22691264e-09  3.08694050e-09  3.25679313e-09  4.58607293e-01  3.40252058e-09  1.58872825e-07  4.83263491e-08  1.90000000e-01 
 2.00000000e-01  4.58607261e-01  3.59069769e-09  3.22691264e-09  3.08694050e-09  3.25679319e-09  4.58607261e-01  3.40252058e-09  1.58872775e-07  4.83261307e-08  2.00000000e-01 
 2.10000000e-01  4.58607264e-01  3.59069769e-09  3.22691270e-09  3.08694050e-09  3.25679319e-09  4.58607264e-01  3.40252058e-09  1.58872776e-07  4.83260560e-08  2.10000000e-01 
 2.20000000e-01  4.58607269e-01  3.59069769e-09  3.22691269e-09  3.08694056e-09  3.25679319e-09  4.58607269e-01  3.40252058e-09  1.58872791e-07  4.83258322e-08  2.20000000e-01 
 2.30000000e-01  4.58607284e-01  3.59069769e-09  3.22691264e-09  3.08694049e-09  3.25679319e-09  4.58607284e-01  3.40252058e-09  1.58872821e-07  4.83256937e-08  2.30000000e-01 
 2.40000000e-01  4.58607262e-01  3.59069763e-09  3.22691265e-09  3.08694057e-09  3.25679319e-09  4.58607262e-01  3.40252058e-09  1.58872772e-07  4.83255338e-08  2.40000000e-01 
 2.50000000e-01  4.58607259e-01  3.59069769e-09  3.22691270e-09  3.08694049e-09  3.25679313e-09  4.58607259e-01  3.40252058e-09  1.58872773e-07  4.83253615e-08  2.50000000e-01 
 2.60000000e-01  4.58607284e-01  3.59069769e-09  3.22691263e-09  3.08694051e-09  3.25679313e-09  4.58607284e-01  3.40252058e-09  1.58872822e-07  4.83252300e-08  2.60000000e-01 
 2.70000000e-01  4.58607276e-01  3.59069769e-09  3.22691265e-09  3.08694050e-09  3.25679313e-09  4.58607276e-01  3.40252058e-09  1.58872808e-07  4.83252371e-08  2.70000000e-01 
 2.80000000e-01  4.58607267e-01  3.59069769e-09  3.22691264e-09  3.08694050e-09  3.25679313e-09  4.58607267e-01  3.40252058e-09  1.58872788e-07  4.83249689e-08  2.80000000e-01 
 2.90000000e-01  4.58607280e-01  3.59069769e-09  3.22691264e-09  3.08694050e-09  3.25679313e-09  4.58607280e-01  3.40252058e-09  1.58872808e-07  4.83249600e-08  2.90000000e-01 
 3.00000000e-01  4.58607272e-01  3.59069763e-09  3.22691264e-09  3.08694050e-09  3.25679313e-09  4.58607272e-01  3.40252058e-09  1.58872800e-07  4.83249103e-08  3.00000000e-01 
 3.10000000e-01  4.58607288e-01  3.59069769e-09  3.22691264e-09  3.08694050e-09  3.25679319e-09  4.58607288e-01  3.40252058e-09  1.58872822e-07  4.83246971e-08  3.10000000e-01 
 3.20000000e-01  4.58607279e-01  3.59069769e-09  3.22691264e-09  3.08694050e-09  3.25679313e-09  4.58607279e-01  3.40252058e-09  1.58872809e-07  4.83246403e-08  3.20000000e-01 
 3.30000000e-01  4.58607272e-01  3.59069769e-09  3.22691264e-09  3.08694050e-09  3.25679313e-09  4.58607272e-01  3.40252058e-09  1.58872803e-07  4.83245302e-08  3.30000000e-01 
 3.40000000e-01  4.58607280e-01  3.59069769e-09  3.22691264e-09  3.08694050e-09  3.25679319e-09  4.58607280e-01  3.40252058e-09  1.58872820e-07  4.83244804e-08  3.40000000e-01 
 3.50000000e-01  4.58607280e-01  3.59069769e-09  3.22691264e-09  3.08694050e-09  3.25679319e-09  4.58607280e-01  3.40252058e-09  1.58872799e-07  4.83244698e-08  3.50000000e-01 
 3.60000000e-01  4.58607292e-01  3.59069769e-09  3.22691264e-09  3.08694050e-09  3.25679319e-09  4.58607291e-01  3.40252058e-09  1.58872821e-07  4.83242495e-08  3.60000000e-01 
 3.70000000e-01  4.58607264e-01  3.59069769e-09  3.22691270e-09  3.08694050e-09  3.25679313e-09  4.58607264e-01  3.40252058e-09  1.58872794e-07  4.83242601e-08  3.70000000e-01 
 3.80000000e-01  4.58607289e-01  3.59069769e-09  3.22691263e-09  3.08694050e-09  3.25679319e-09  4.58607289e-01  3.40252058e-09  1.58872829e-07  4.83240967e-08  3.80000000e-01 
 3.90000000e-01  4.58607270e-01  3.59069763e-09  3.22691265e-09  3.08694050e-09  3.25679319e-09  4.58607270e-01  3.40252058e-09  1.58872799e-07  4.83240576e-08  3.90000000e-01 
 4.00000000e-01  4.58607277e-01  3.59069769e-09  3.22691264e-09  3.08694050e-09  3.25679313e-09  4.58607277e-01  3.40252058e-09  1.58872805e-07  4.83239369e-08  4.00000000e-01 
 4.10000000e-01  4.58607284e-01  3.59069769e-09  3.22691264e-09  3.08694050e-09  3.25679319e-09  4.58607284e-01  3.40252058e-09  1.58872818e-07  4.83238942e-08  4.10000000e-01 
 4.20000000e-01  4.58607265e-01  3.59069763e-09  3.22691264e-09  3.08694050e-09  3.25679313e-09  4.58607265e-01  3.40252058e-09  1.58872783e-07  4.83237983e-08  4.20000000e-01 
 4.30000000e-01  4.58607295e-01  3.59069769e-09  3.22691264e-09  3.08694050e-09  3.25679313e-09  4.58607295e-01  3.40252058e-09  1.58872830e-07  4.83237024e-08  4.30000000e-01 
 4.40000000e-01  4.58607260e-01  3.59069769e-09  3.22691264e-09  3.08694056e-09  3.25679313e-09  4.58607260e-01  3.40252058e-09  1.58872779e-07  4.83237166e-08  4.40000000e-01 
 4.50000000e-01  4.58607289e-01  3.59069769e-09  3.22691264e-09  3.08694049e-09  3.25679319e-09  4.58607289e-01  3.40252058e-09  1.58872818e-07  4.83235212e-08  4.50000000e-01 
 4.60000000e-01  4.58607278e-01  3.59069769e-09  3.22691264e-09  3.08694051e-09  3.25679313e-09  4.58607278e-01  3.40252058e-09  1.58872793e-07  4.83235212e-08  4.60000000e-01 
 4.70000000e-01  4.58607277e-01  3.59069769e-09  3.22691270e-09  3.08694050e-09  3.25679319e-09  4.58607277e-01  3.40252058e-09  1.58872817e-07  4.83234146e-08  4.70000000e-01 
 4.80000000e-01  4.58607284e-01  3.59069763e-09  3.22691269e-09  3.08694056e-09  3.25679313e-09  4.58607284e-01  3.40252058e-09  1.58872814e-07  4.83234253e-08  4.80000000e-01 
 4.90000000e-01  4.58607272e-01  3.59069769e-09  3.22691264e-09  3.08694055e-09  3.25679313e-09  4.58607272e-01  3.40252058e-09  1.58872792e-07  4.83233578e-08  4.90000000e-01 
 5.00000000e-01  4.58607257e-01  3.59069769e-09  3.22691265e-09  3.08694055e-09  3.25679313e-09  4.58607257e-01  3.40252058e-09  1.58872771e-07  4.83232938e-08  5.00000000e-01 
 5.10000000e-01  4.58607278e-01  3.59069769e-09  3.22691270e-09  3.08694050e-09  3.25679313e-09  4.58607278e-01  3.40252058e-09  1.58872805e-07  4.83232405e-08  5.10000000e-01 
 5.20000000e-01  4.58607262e-01  3.59069769e-09  3.22691269e-09  3.08694051e-09  3.25679319e-09  4.58607262e-01  3.40252058e-09  1.58872780e-07  4.83230771e-08  5.20000000e-01 
 5.30000000e-01  4.58607286e-01  3.59069769e-09  3.22691264e-09  3.08694050e-09  3.25679313e-09  4.58607286e-01  3.40252058e-09  1.58872842e-07  4.83231020e-08  5.30000000e-01 
 5.40000000e-01  4.58607262e-01  3.59069769e-09  3.22691265e-09  3.08694056e-09  3.25679313e-09  4.58607262e-01  3.40252058e-09  1.58872789e-07  4.83230274e-08  5.40000000e-01 
 5.50000000e-01  4.58607276e-01  3.59069769e-09  3.22691264e-09  3.08694055e-09  3.25679313e-09  4.58607276e-01  3.40252064e-09  1.58872789e-07  4.83229776e-08  5.50000000e-01 
 5.60000000e-01  4.58607276e-01  3.59069763e-09  3.22691264e-09  3.08694050e-09  3.25679313e-09  4.58607275e-01  3.40252058e-09  1.58872782e-07  4.83229705e-08  5.60000000e-01 
 5.70000000e-01  4.58607254e-01  3.59069763e-09  3.22691264e-09  3.08694057e-09  3.25679313e-09  4.58607254e-01  3.40252064e-09  1.58872773e-07  4.83226650e-08  5.70000000e-01 
 5.80000000e-01  4.58607283e-01  3.59069769e-09  3.22691264e-09  3.08694055e-09  3.25679319e-09  4.58607283e-01  3.40252058e-09  1.58872816e-07  4.83228106e-08  5.80000000e-01 
 5.90000000e-01  4.58607256e-01  3.59069763e-09  3.22691264e-09  3.08694050e-09  3.25679313e-09  4.58607256e-01  3.40252058e-09  1.58872763e-07  4.83226614e-08  5.90000000e-01 
 6.00000000e-01  4.58607285e-01  3.59069769e-09  3.22691264e-09  3.08694051e-09  3.25679313e-09  4.58607285e-01  3.40252058e-09  1.58872807e-07  4.83226472e-08  6.00000000e-01 
 6.10000000e-01  4.58607277e-01  3.59069769e-09  3.22691264e-09  3.08694056e-09  3.25679319e-09  4.58607277e-01  3.40252058e-09  1.58872811e-07  4.83226259e-08  6.10000000e-01 
 6.20000000e-01  4.58607282e-01  3.59069769e-09  3.22691264e-09  3.08694049e-09  3.25679313e-09  4.58607282e-01  3.40252058e-09  1.58872804e-07  4.83224909e-08  6.20000000e-01 
 6.30000000e-01  4.58607294e-01  3.59069769e-09  3.22691264e-09  3.08694051e-09  3.25679319e-09  4.58607294e-01  3.40252058e-09  1.58872837e-07  4.83225193e-08  6.30000000e-01 
 6.40000000e-01  4.58607265e-01  3.59069769e-09  3.22691264e-09  3.08694056e-09  3.25679313e-09  4.58607265e-01  3.40252058e-09  1.58872778e-07  4.83224412e-08  6.40000000e-01 
 6.50000000e-01  4.58607271e-01  3.59069769e-09  3.22691264e-09  3.08694049e-09  3.25679313e-09  4.58607271e-01  3.40252058e-09  1.58872795e-07  4.83223204e-08  6.50000000e-01 
 6.60000000e-01  4.58607265e-01  3.59069769e-09  3.22691264e-09  3.08694051e-09  3.25679319e-09  4.58607265e-01  3.40252058e-09  1.58872780e-07  4.83222067e-08  6.60000000e-01 
 6.70000000e-01  4.58607269e-01  3.59069769e-09  3.22691264e-09  3.08694050e-09  3.25679313e-09  4.58607269e-01  3.40252058e-09  1.58872796e-07  4.83221712e-08  6.70000000e-01 
 6.80000000e-01  4.58607271e-01  3.59069769e-09  3.22691264e-09  3.08694050e-09  3.25679313e-09  4.58607271e-01  3.40252058e-09  1.58872797e-07  4.83220788e-08  6.80000000e-01 
 6.90000000e-01  4.58607265e-01  3.59069769e-09  3.22691264e-09  3.08694050e-09  3.25679313e-09  4.58607265e-01  3.40252058e-09  1.58872790e-07  4.83221285e-08  6.90000000e-01 
 7.00000000e-01  4.58607263e-01  3.59069769e-09  3.22691264e-09  3.08694050e-09  3.25679313e-09  4.58607263e-01  3.40252058e-09  1.58872798e-07  4.83220077e-08  7.00000000e-01 
 7.10000000e-01  4.58607284e-01  3.59069763e-09  3.22691264e-09  3.08694050e-09  3.25679313e-09  4.58607284e-01  3.40252058e-09  1.58872806e-07  4.83219367e-08  7.10000000e-01 
 7.20000000e-01  4.58607287e-01  3.59069763e-09  3.22691264e-09  3.08694050e-09  3.25679319e-09  4.58607287e-01  3.40252058e-09  1.58872819e-07  4.83220362e-08  7.20000000e-01 
 7.30000000e-01  4.58607274e-01  3.59069769e-09  3.22691270e-09  3.08694050e-09  3.25679313e-09  4.58607274e-01  3.40252058e-09  1.58872804e-07  4.83218798e-08  7.30000000e-01 
 7.40000000e-01  4.58607260e-01  3.59069769e-09  3.22691269e-09  3.08694056e-09  3.25679313e-09  4.58607260e-01  3.40252058e-09  1.58872774e-07  4.83217377e-08  7.40000000e-01 
 7.50000000e-01  4.58607271e-01  3.59069769e-09  3.22691269e-09  3.08694055e-09  3.25679313e-09  4.58607271e-01  3.40252058e-09  1.58872798e-07  4.83217235e-08  7.50000000e-01 
 7.60000000e-01  4.58607288e-01  3.59069769e-09  3.22691264e-09  3.08694056e-09  3.25679313e-09  4.58607288e-01  3.40252064e-09  1.58872810e-07  4.83216596e-08  7.60000000e-01 
 7.70000000e-01  4.58607289e-01  3.59069769e-09  3.22691265e-09  3.08694050e-09  3.25679313e-09  4.58607289e-01  3.40252058e-09  1.58872818e-07  4.83215885e-08  7.70000000e-01 
 7.80000000e-01  4.58607279e-01  3.59069769e-09  3.22691264e-09  3.08694051e-09  3.25679313e-09  4.58607278e-01  3.40252058e-09  1.58872810e-07  4.83215530e-08  7.80000000e-01 
 7.90000000e-01  4.58607274e-01  3.59069769e-09  3.22691264e-09  3.08694050e-09  3.25679319e-09  4.58607274e-01  3.40252058e-09  1.58872814e-07  4.83215814e-08  7.90000000e-01 
 8.00000000e-01  4.58607280e-01  3.59069769e-09  3.22691264e-09  3.08694050e-09  3.25679313e-09  4.58607280e-01  3.40252058e-09  1.58872793e-07  4.83215032e-08  8.00000000e-01 
 8.10000000e-01  4.58607267e-01  3.59069763e-09  3.22691264e-09  3.08694056e-09  3.25679319e-09  4.58607267e-01  3.40252058e-09  1.58872800e-07  4.83213469e-08  8.10000000e-01 
 8.20000000e-01  4.58607266e-01  3.59069769e-09  3.22691264e-09  3.08694055e-09  3.25679313e-09  4.58607266e-01  3.40252064e-09  1.58872800e-07  4.83213611e-08  8.20000000e-01 
 8.30000000e-01  4.58607277e-01  3.59069769e-09  3.22691264e-09  3.08694050e-09  3.25679313e-09  4.58607277e-01  3.40252058e-09  1.58872818e-07  4.83212119e-08  8.30000000e-01 
 8.40000000e-01  4.58607273e-01  3.59069763e-09  3.22691264e-09  3.08694051e-09  3.25679313e-09  4.58607273e-01  3.40252058e-09  1.58872809e-07  4.83212688e-08  8.40000000e-01 
 8.50000000e-01  4.58607254e-01  3.59069769e-09  3.22691264e-09  3.08694050e-09  3.25679313e-09  4.58607254e-01  3.40252058e-09  1.58872771e-07  4.83210485e-08  8.50000000e-01 
 8.60000000e-01  4.58607268e-01  3.59069769e-09  3.22691264e-09  3.08694050e-09  3.25679319e-09  4.58607268e-01  3.40252058e-09  1.58872794e-07  4.83211267e-08  8.60000000e-01 
 8.70000000e-01  4.58607265e-01  3.59069769e-09  3.22691264e-09  3.08694050e-09  3.25679313e-09  4.58607265e-01  3.40252058e-09  1.58872780e-07  4.83209064e-08  8.70000000e-01 
 8.80000000e-01  4.58607265e-01  3.59069769e-09  3.22691264e-09  3.08694056e-09  3.25679319e-09  4.58607265e-01  3.40252058e-09  1.58872790e-07  4.83209206e-08  8.80000000e-01 
 8.90000000e-01  4.58607279e-01  3.59069769e-09  3.22691270e-09  3.08694049e-09  3.25679313e-09  4.58607279e-01  3.40252058e-09  1.58872818e-07  4.83208851e-08  8.90000000e-01 
 9.00000000e-01  4.58607274e-01  3.59069769e-09  3.22691263e-09  3.08694051e-09  3.25679319e-09  4.58607274e-01  3.40252058e-09  1.58872795e-07  4.83208638e-08  9.00000000e-01 
 9.10000000e-01  4.58607252e-01  3.59069769e-09  3.22691265e-09  3.08694050e-09  3.25679313e-09  4.58607252e-01  3.40252058e-09  1.58872758e-07  4.83206222e-08  9.10000000e-01 
 9.20000000e-01  4.58607254e-01  3.59069769e-09  3.22691264e-09  3.08694056e-09  3.25679319e-09  4.58607254e-01  3.40252058e-09  1.58872774e-07  4.83206435e-08  9.20000000e-01 
 9.30000000e-01  4.58607258e-01  3.59069769e-09  3.22691264e-09  3.08694055e-09  3.25679313e-09  4.58607258e-01  3.40252058e-09  1.58872775e-07  4.83207643e-08  9.30000000e-01 
 9.40000000e-01  4.58607287e-01  3.59069763e-09  3.22691264e-09  3.08694056e-09  3.25679313e-09  4.58607287e-01  3.40252058e-09  1.58872815e-07  4.83206719e-08  9.40000000e-01 
 9.50000000e-01  4.58607293e-01  3.59069769e-09  3.22691264e-09  3.08694050e-09  3.25679319e-09  4.58607293e-01  3.40252058e-09  1.58872832e-07  4.83206364e-08  9.50000000e-01 
 9.60000000e-01  4.58607290e-01  3.59069769e-09  3.22691264e-09  3.08694051e-09  3.25679313e-09  4.58607290e-01  3.40252064e-09  1.58872814e-07  4.83204659e-08  9.60000000e-01 
 9.70000000e-01  4.58607283e-01  3.59069769e-09  3.22691264e-09  3.08694056e-09  3.25679313e-09  4.58607283e-01  3.40252058e-09  1.58872812e-07  4.83204659e-08  9.70000000e-01 
 9.80000000e-01  4.58607281e-01  3.59069763e-09  3.22691264e-09  3.08694049e-09  3.25679313e-09  4.58607281e-01  3.40252064e-09  1.58872813e-07  4.83204801e-08  9.80000000e-01 
 9.90000000e-01  4.58607296e-01  3.59069769e-09  3.22691264e-09  3.08694051e-09  3.25679319e-09  4.58607296e-01  3.40252058e-09  1.58872827e-07  4.83203380e-08  9.90000000e-01 
 1.00000000e+00  4.58607253e-01  3.59069769e-09  3.22691264e-09  3.08694050e-09  3.25679319e-09  4.58607253e-01  3.40252064e-09  1.58872761e-07  4.83200893e-08  1.00000000e+00 
 1.01000000e+00  4.58607295e-01  3.59069763e-09  3.22691264e-09  3.08694050e-09  3.25679313e-09  4.58607295e-01  3.40252058e-09  1.58872838e-07  4.83202953e-08  1.01000000e+00 
 1.02000000e+00  4.58607273e-01  3.59069769e-09  3.22691264e-09  3.08694050e-09  3.25679313e-09  4.58607273e-01  3.40252058e-09  1.58872799e-07  4.83201745e-08  1.02000000e+00 
 1.03000000e+00  4.58607273e-01  3.59069769e-09  3.22691264e-09  3.08694050e-09  3.25679313e-09  4.58607273e-01  3.40252058e-09  1.58872805e-07  4.83201319e-08  1.03000000e+00 
 1.04000000e+00  4.58607272e-01  3.59069769e-09  3.22691264e-09  3.08694056e-09  3.25679313e-09  4.58607272e-01  3.40252058e-09  1.58872794e-07  4.83200395e-08  1.04000000e+00 
 1.05000000e+00  4.58607297e-01  3.59069769e-09  3.22691264e-09  3.08694055e-09  3.25679313e-09  4.58607297e-01  3.40252058e-09  1.58872838e-07  4.83199685e-08  1.05000000e+00 
 1.06000000e+00  4.58607270e-01  3.59069769e-09  3.22691270e-09  3.08694055e-09  3.25679319e-09  4.58607270e-01  3.40252058e-09  1.58872783e-07  4.83199400e-08  1.06000000e+00 
 1.07000000e+00  4.58607255e-01  3.59069763e-09  3.22691263e-09  3.08694050e-09  3.25679319e-09  4.58607255e-01  3.40252058e-09  1.58872780e-07  4.83197269e-08  1.07000000e+00 
 1.08000000e+00  4.58607249e-01  3.59069769e-09  3.22691265e-09  3.08694051e-09  3.25679313e-09  4.58607249e-01  3.40252064e-09  1.58872759e-07  4.83196771e-08  1.08000000e+00 
 1.09000000e+00  4.58607277e-01  3.59069763e-09  3.22691264e-09  3.08694050e-09  3.25679313e-09  4.58607277e-01  3.40252058e-09  1.58872810e-07  4.83196203e-08  1.09000000e+00 
 1.10000000e+00  4.58607297e-01  3.59069769e-09  3.22691264e-09  3.08694050e-09  3.25679313e-09  4.58607297e-01  3.40252058e-09  1.58872833e-07  4.83197553e-08  1.10000000e+00 
