 v-sweep         v(b0)           v(b1)           v(b2)           v(b3)           v(b4)           v(b5)           v(b6)           i(vbias)        i(viout)        v(vout)        
 0.00000000e+00  3.55091433e-09  4.57826294e-01  3.50544500e-09  3.30882429e-09  3.34472477e-09  3.52551037e-09  3.34274826e-09  1.58143985e-07  2.71404263e-09  0.00000000e+00 
 1.00000000e-02  3.55091431e-09  4.57826282e-01  3.50544498e-09  3.30882427e-09  3.34472475e-09  3.52551035e-09  3.34274824e-09  1.58143984e-07  2.71358414e-09  1.00000000e-02 
 2.00000000e-02  3.55091431e-09  4.57826304e-01  3.50544498e-09  3.30882427e-09  3.34472481e-09  3.52551035e-09  3.34274824e-09  1.58144015e-07  2.71319900e-09  2.00000000e-02 
 3.00000000e-02  3.55091431e-09  4.57826273e-01  3.50544498e-09  3.30882427e-09  3.34472475e-09  3.52551034e-09  3.34274824e-09  1.58143947e-07  2.71291212e-09  3.00000000e-02 
 4.00000000e-02  3.55091431e-09  4.57826297e-01  3.50544498e-09  3.30882427e-09  3.34472481e-09  3.52551035e-09  3.34274824e-09  1.58144011e-07  2.71244494e-09  4.00000000e-02 
 5.00000000e-02  3.55091431e-09  4.57826286e-01  3.50544498e-09  3.30882427e-09  3.34472481e-09  3.52551035e-09  3.34274824e-09  1.58143982e-07  2.71210876e-09  5.00000000e-02 
 6.00000000e-02  3.55091431e-09  4.57826321e-01  3.50544498e-09  3.30882427e-09  3.34472475e-09  3.52551035e-09  3.34274825e-09  1.58144053e-07  2.71181477e-09  6.00000000e-02 
 7.00000000e-02  3.55091437e-09  4.57826311e-01  3.50544498e-09  3.30882421e-09  3.34472481e-09  3.52551035e-09  3.34274824e-09  1.58144021e-07  2.71137157e-09  7.00000000e-02 
 8.00000000e-02  3.55091431e-09  4.57826301e-01  3.50544498e-09  3.30882427e-09  3.34472475e-09  3.52551035e-09  3.34274824e-09  1.58144006e-07  2.71120193e-09  8.00000000e-02 
 9.00000000e-02  3.55091437e-09  4.57826312e-01  3.50544498e-09  3.30882427e-09  3.34472481e-09  3.52551035e-09  3.34274824e-09  1.58144028e-07  2.71088041e-09  9.00000000e-02 
 1.00000000e-01  3.55091431e-09  4.57826299e-01  3.50544498e-09  3.30882427e-09  3.34472475e-09  3.52551035e-09  3.34274830e-09  1.58143995e-07  2.71065925e-09  1.00000000e-01 
 1.10000000e-01  3.55091437e-09  4.57826303e-01  3.50544498e-09  3.30882427e-09  3.34472475e-09  3.52551035e-09  3.34274830e-09  1.58144021e-07  2.71033240e-09  1.10000000e-01 
 1.20000000e-01  3.55091431e-09  4.57826301e-01  3.50544498e-09  3.30882421e-09  3.34472481e-09  3.52551035e-09  3.34274824e-09  1.58144008e-07  2.71011569e-09  1.20000000e-01 
 1.30000000e-01  3.55091437e-09  4.57826309e-01  3.50544498e-09  3.30882427e-09  3.34472475e-09  3.52551035e-09  3.34274824e-09  1.58144020e-07  2.70982348e-09  1.30000000e-01 
 1.40000000e-01  3.55091431e-09  4.57826300e-01  3.50544498e-09  3.30882427e-09  3.34472481e-09  3.52551035e-09  3.34274824e-09  1.58143994e-07  2.70961564e-09  1.40000000e-01 
 1.50000000e-01  3.55091431e-09  4.57826301e-01  3.50544498e-09  3.30882427e-09  3.34472475e-09  3.52551035e-09  3.34274824e-09  1.58144011e-07  2.70940426e-09  1.50000000e-01 
 1.60000000e-01  3.55091431e-09  4.57826296e-01  3.50544498e-09  3.30882421e-09  3.34472481e-09  3.52551035e-09  3.34274824e-09  1.58143992e-07  2.70909162e-09  1.60000000e-01 
 1.70000000e-01  3.55091437e-09  4.57826275e-01  3.50544498e-09  3.30882427e-09  3.34472481e-09  3.52551034e-09  3.34274824e-09  1.58143961e-07  2.70895839e-09  1.70000000e-01 
 1.80000000e-01  3.55091437e-09  4.57826296e-01  3.50544504e-09  3.30882427e-09  3.34472475e-09  3.52551035e-09  3.34274824e-09  1.58144010e-07  2.70875411e-09  1.80000000e-01 
 1.90000000e-01  3.55091431e-09  4.57826305e-01  3.50544498e-09  3.30882421e-09  3.34472475e-09  3.52551035e-09  3.34274830e-09  1.58144016e-07  2.70861022e-09  1.90000000e-01 
 2.00000000e-01  3.55091437e-09  4.57826299e-01  3.50544498e-09  3.30882427e-09  3.34472475e-09  3.52551035e-09  3.34274824e-09  1.58144000e-07  2.70831357e-09  2.00000000e-01 
 2.10000000e-01  3.55091437e-09  4.57826306e-01  3.50544498e-09  3.30882421e-09  3.34472481e-09  3.52551035e-09  3.34274824e-09  1.58144017e-07  2.70823008e-09  2.10000000e-01 
 2.20000000e-01  3.55091431e-09  4.57826296e-01  3.50544498e-09  3.30882427e-09  3.34472481e-09  3.52551035e-09  3.34274824e-09  1.58143990e-07  2.70816436e-09  2.20000000e-01 
 2.30000000e-01  3.55091437e-09  4.57826318e-01  3.50544498e-09  3.30882427e-09  3.34472481e-09  3.52551035e-09  3.34274824e-09  1.58144038e-07  2.70785350e-09  2.30000000e-01 
 2.40000000e-01  3.55091437e-09  4.57826279e-01  3.50544498e-09  3.30882427e-09  3.34472481e-09  3.52551035e-09  3.34274824e-09  1.58143983e-07  2.70780376e-09  2.40000000e-01 
 2.50000000e-01  3.55091437e-09  4.57826292e-01  3.50544498e-09  3.30882427e-09  3.34472481e-09  3.52551035e-09  3.34274824e-09  1.58144003e-07  2.70764922e-09  2.50000000e-01 
 2.60000000e-01  3.55091437e-09  4.57826296e-01  3.50544498e-09  3.30882421e-09  3.34472475e-09  3.52551035e-09  3.34274830e-09  1.58144000e-07  2.70739697e-09  2.60000000e-01 
 2.70000000e-01  3.55091437e-09  4.57826308e-01  3.50544498e-09  3.30882427e-09  3.34472481e-09  3.52551035e-09  3.34274824e-09  1.58144012e-07  2.70728684e-09  2.70000000e-01 
 2.80000000e-01  3.55091437e-09  4.57826292e-01  3.50544498e-09  3.30882427e-09  3.34472475e-09  3.52551035e-09  3.34274830e-09  1.58143988e-07  2.70721046e-09  2.80000000e-01 
 2.90000000e-01  3.55091431e-09  4.57826310e-01  3.50544498e-09  3.30882427e-09  3.34472475e-09  3.52551035e-09  3.34274824e-09  1.58144031e-07  2.70705058e-09  2.90000000e-01 
 3.00000000e-01  3.55091437e-09  4.57826285e-01  3.50544504e-09  3.30882427e-09  3.34472481e-09  3.52551035e-09  3.34274824e-09  1.58143985e-07  2.70693690e-09  3.00000000e-01 
 3.10000000e-01  3.55091431e-09  4.57826306e-01  3.50544498e-09  3.30882427e-09  3.34472475e-09  3.52551035e-09  3.34274824e-09  1.58144026e-07  2.70685518e-09  3.10000000e-01 
 3.20000000e-01  3.55091431e-09  4.57826277e-01  3.50544498e-09  3.30882427e-09  3.34472481e-09  3.52551035e-09  3.34274824e-09  1.58143953e-07  2.70677702e-09  3.20000000e-01 
 3.30000000e-01  3.55091437e-09  4.57826298e-01  3.50544498e-09  3.30882427e-09  3.34472475e-09  3.52551035e-09  3.34274824e-09  1.58144004e-07  2.70667755e-09  3.30000000e-01 
 3.40000000e-01  3.55091431e-09  4.57826298e-01  3.50544498e-09  3.30882427e-09  3.34472475e-09  3.52551035e-09  3.34274824e-09  1.58143999e-07  2.70654610e-09  3.40000000e-01 
 3.50000000e-01  3.55091431e-09  4.57826305e-01  3.50544504e-09  3.30882427e-09  3.34472475e-09  3.52551035e-09  3.34274824e-09  1.58144007e-07  2.70630807e-09  3.50000000e-01 
 3.60000000e-01  3.55091437e-09  4.57826302e-01  3.50544498e-09  3.30882427e-09  3.34472475e-09  3.52551035e-09  3.34274824e-09  1.58144006e-07  2.70622991e-09  3.60000000e-01 
 3.70000000e-01  3.55091437e-09  4.57826305e-01  3.50544498e-09  3.30882427e-09  3.34472481e-09  3.52551035e-09  3.34274824e-09  1.58144019e-07  2.70617306e-09  3.70000000e-01 
 3.80000000e-01  3.55091437e-09  4.57826307e-01  3.50544498e-09  3.30882427e-09  3.34472481e-09  3.52551035e-09  3.34274824e-09  1.58144006e-07  2.70599188e-09  3.80000000e-01 
 3.90000000e-01  3.55091431e-09  4.57826296e-01  3.50544498e-09  3.30882427e-09  3.34472481e-09  3.52551035e-09  3.34274824e-09  1.58143999e-07  2.70586042e-09  3.90000000e-01 
 4.00000000e-01  3.55091437e-09  4.57826303e-01  3.50544498e-09  3.30882421e-09  3.34472481e-09  3.52551035e-09  3.34274830e-09  1.58144019e-07  2.70594214e-09  4.00000000e-01 
 4.10000000e-01  3.55091431e-09  4.57826293e-01  3.50544498e-09  3.30882421e-09  3.34472481e-09  3.52551035e-09  3.34274824e-09  1.58143992e-07  2.70564726e-09  4.10000000e-01 
 4.20000000e-01  3.55091437e-09  4.57826296e-01  3.50544498e-09  3.30882427e-09  3.34472475e-09  3.52551035e-09  3.34274824e-09  1.58143988e-07  2.70566503e-09  4.20000000e-01 
 4.30000000e-01  3.55091437e-09  4.57826293e-01  3.50544504e-09  3.30882427e-09  3.34472481e-09  3.52551035e-09  3.34274824e-09  1.58143985e-07  2.70560108e-09  4.30000000e-01 
 4.40000000e-01  3.55091431e-09  4.57826294e-01  3.50544498e-09  3.30882427e-09  3.34472481e-09  3.52551035e-09  3.34274824e-09  1.58143997e-07  2.70546252e-09  4.40000000e-01 
 4.50000000e-01  3.55091437e-09  4.57826289e-01  3.50544498e-09  3.30882427e-09  3.34472475e-09  3.52551035e-09  3.34274830e-09  1.58143993e-07  2.70548384e-09  4.50000000e-01 
 4.60000000e-01  3.55091431e-09  4.57826313e-01  3.50544498e-09  3.30882427e-09  3.34472475e-09  3.52551035e-09  3.34274824e-09  1.58144034e-07  2.70537015e-09  4.60000000e-01 
 4.70000000e-01  3.55091431e-09  4.57826298e-01  3.50544498e-09  3.30882427e-09  3.34472475e-09  3.52551035e-09  3.34274824e-09  1.58144000e-07  2.70522094e-09  4.70000000e-01 
 4.80000000e-01  3.55091431e-09  4.57826291e-01  3.50544498e-09  3.30882421e-09  3.34472475e-09  3.52551035e-09  3.34274830e-09  1.58143983e-07  2.70520673e-09  4.80000000e-01 
 4.90000000e-01  3.55091437e-09  4.57826299e-01  3.50544498e-09  3.30882427e-09  3.34472475e-09  3.52551035e-09  3.34274824e-09  1.58144011e-07  2.70501133e-09  4.90000000e-01 
 5.00000000e-01  3.55091437e-09  4.57826286e-01  3.50544498e-09  3.30882427e-09  3.34472475e-09  3.52551035e-09  3.34274824e-09  1.58143971e-07  2.70498646e-09  5.00000000e-01 
 5.10000000e-01  3.55091431e-09  4.57826296e-01  3.50544498e-09  3.30882421e-09  3.34472475e-09  3.52551035e-09  3.34274824e-09  1.58144015e-07  2.70492606e-09  5.10000000e-01 
 5.20000000e-01  3.55091431e-09  4.57826307e-01  3.50544498e-09  3.30882421e-09  3.34472481e-09  3.52551035e-09  3.34274824e-09  1.58144015e-07  2.70476974e-09  5.20000000e-01 
 5.30000000e-01  3.55091437e-09  4.57826307e-01  3.50544498e-09  3.30882427e-09  3.34472481e-09  3.52551035e-09  3.34274824e-09  1.58144017e-07  2.70463474e-09  5.30000000e-01 
 5.40000000e-01  3.55091437e-09  4.57826296e-01  3.50544498e-09  3.30882427e-09  3.34472481e-09  3.52551035e-09  3.34274824e-09  1.58144003e-07  2.70464540e-09  5.40000000e-01 
 5.50000000e-01  3.55091437e-09  4.57826286e-01  3.50544498e-09  3.30882427e-09  3.34472475e-09  3.52551035e-09  3.34274824e-09  1.58143993e-07  2.70454947e-09  5.50000000e-01 
 5.60000000e-01  3.55091437e-09  4.57826303e-01  3.50544498e-09  3.30882427e-09  3.34472481e-09  3.52551035e-09  3.34274824e-09  1.58144023e-07  2.70460632e-09  5.60000000e-01 
 5.70000000e-01  3.55091437e-09  4.57826293e-01  3.50544498e-09  3.30882427e-09  3.34472475e-09  3.52551035e-09  3.34274824e-09  1.58143999e-07  2.70448197e-09  5.70000000e-01 
 5.80000000e-01  3.55091437e-09  4.57826286e-01  3.50544498e-09  3.30882427e-09  3.34472475e-09  3.52551035e-09  3.34274824e-09  1.58143991e-07  2.70422618e-09  5.80000000e-01 
 5.90000000e-01  3.55091431e-09  4.57826316e-01  3.50544498e-09  3.30882427e-09  3.34472475e-09  3.52551035e-09  3.34274824e-09  1.58144040e-07  2.70424749e-09  5.90000000e-01 
 6.00000000e-01  3.55091437e-09  4.57826291e-01  3.50544498e-09  3.30882427e-09  3.34472481e-09  3.52551035e-09  3.34274824e-09  1.58143993e-07  2.70418354e-09  6.00000000e-01 
 6.10000000e-01  3.55091431e-09  4.57826307e-01  3.50544498e-09  3.30882427e-09  3.34472481e-09  3.52551035e-09  3.34274824e-09  1.58144034e-07  2.70402012e-09  6.10000000e-01 
 6.20000000e-01  3.55091437e-09  4.57826298e-01  3.50544498e-09  3.30882427e-09  3.34472475e-09  3.52551035e-09  3.34274824e-09  1.58143999e-07  2.70396328e-09  6.20000000e-01 
 6.30000000e-01  3.55091431e-09  4.57826303e-01  3.50544498e-09  3.30882427e-09  3.34472481e-09  3.52551035e-09  3.34274830e-09  1.58144026e-07  2.70396328e-09  6.30000000e-01 
 6.40000000e-01  3.55091437e-09  4.57826305e-01  3.50544498e-09  3.30882427e-09  3.34472475e-09  3.52551035e-09  3.34274824e-09  1.58144002e-07  2.70382827e-09  6.40000000e-01 
 6.50000000e-01  3.55091431e-09  4.57826297e-01  3.50544498e-09  3.30882427e-09  3.34472475e-09  3.52551035e-09  3.34274824e-09  1.58143995e-07  2.70370037e-09  6.50000000e-01 
 6.60000000e-01  3.55091431e-09  4.57826293e-01  3.50544504e-09  3.30882427e-09  3.34472481e-09  3.52551035e-09  3.34274830e-09  1.58144002e-07  2.70364353e-09  6.60000000e-01 
 6.70000000e-01  3.55091437e-09  4.57826289e-01  3.50544498e-09  3.30882427e-09  3.34472475e-09  3.52551035e-09  3.34274824e-09  1.58143989e-07  2.70357958e-09  6.70000000e-01 
 6.80000000e-01  3.55091437e-09  4.57826289e-01  3.50544498e-09  3.30882427e-09  3.34472481e-09  3.52551035e-09  3.34274824e-09  1.58143982e-07  2.70352274e-09  6.80000000e-01 
 6.90000000e-01  3.55091431e-09  4.57826298e-01  3.50544504e-09  3.30882427e-09  3.34472481e-09  3.52551035e-09  3.34274824e-09  1.58143993e-07  2.70348011e-09  6.90000000e-01 
 7.00000000e-01  3.55091437e-09  4.57826290e-01  3.50544498e-09  3.30882427e-09  3.34472475e-09  3.52551035e-09  3.34274824e-09  1.58143990e-07  2.70343747e-09  7.00000000e-01 
 7.10000000e-01  3.55091437e-09  4.57826293e-01  3.50544504e-09  3.30882427e-09  3.34472475e-09  3.52551035e-09  3.34274824e-09  1.58143993e-07  2.70329537e-09  7.10000000e-01 
 7.20000000e-01  3.55091431e-09  4.57826290e-01  3.50544498e-09  3.30882421e-09  3.34472475e-09  3.52551035e-09  3.34274824e-09  1.58143981e-07  2.70321010e-09  7.20000000e-01 
 7.30000000e-01  3.55091437e-09  4.57826294e-01  3.50544498e-09  3.30882427e-09  3.34472475e-09  3.52551035e-09  3.34274824e-09  1.58144011e-07  2.70315326e-09  7.30000000e-01 
 7.40000000e-01  3.55091437e-09  4.57826303e-01  3.50544498e-09  3.30882421e-09  3.34472481e-09  3.52551035e-09  3.34274824e-09  1.58144006e-07  2.70309641e-09  7.40000000e-01 
 7.50000000e-01  3.55091431e-09  4.57826293e-01  3.50544504e-09  3.30882427e-09  3.34472475e-09  3.52551035e-09  3.34274824e-09  1.58144002e-07  2.70293299e-09  7.50000000e-01 
 7.60000000e-01  3.55091437e-09  4.57826303e-01  3.50544498e-09  3.30882427e-09  3.34472481e-09  3.52551035e-09  3.34274824e-09  1.58144015e-07  2.70296852e-09  7.60000000e-01 
 7.70000000e-01  3.55091431e-09  4.57826304e-01  3.50544498e-09  3.30882427e-09  3.34472481e-09  3.52551035e-09  3.34274824e-09  1.58144011e-07  2.70285483e-09  7.70000000e-01 
 7.80000000e-01  3.55091437e-09  4.57826295e-01  3.50544498e-09  3.30882421e-09  3.34472475e-09  3.52551035e-09  3.34274824e-09  1.58143999e-07  2.70271272e-09  7.80000000e-01 
 7.90000000e-01  3.55091437e-09  4.57826308e-01  3.50544498e-09  3.30882427e-09  3.34472475e-09  3.52551035e-09  3.34274824e-09  1.58144017e-07  2.70263456e-09  7.90000000e-01 
 8.00000000e-01  3.55091431e-09  4.57826307e-01  3.50544498e-09  3.30882427e-09  3.34472475e-09  3.52551035e-09  3.34274824e-09  1.58144027e-07  2.70257061e-09  8.00000000e-01 
 8.10000000e-01  3.55091437e-09  4.57826293e-01  3.50544504e-09  3.30882427e-09  3.34472475e-09  3.52551035e-09  3.34274824e-09  1.58144002e-07  2.70240719e-09  8.10000000e-01 
 8.20000000e-01  3.55091437e-09  4.57826301e-01  3.50544504e-09  3.30882427e-09  3.34472475e-09  3.52551035e-09  3.34274824e-09  1.58144013e-07  2.70244982e-09  8.20000000e-01 
 8.30000000e-01  3.55091437e-09  4.57826286e-01  3.50544504e-09  3.30882427e-09  3.34472475e-09  3.52551035e-09  3.34274824e-09  1.58143990e-07  2.70234324e-09  8.30000000e-01 
 8.40000000e-01  3.55091437e-09  4.57826291e-01  3.50544498e-09  3.30882421e-09  3.34472475e-09  3.52551035e-09  3.34274824e-09  1.58143984e-07  2.70231482e-09  8.40000000e-01 
 8.50000000e-01  3.55091431e-09  4.57826304e-01  3.50544498e-09  3.30882427e-09  3.34472475e-09  3.52551035e-09  3.34274824e-09  1.58144025e-07  2.70225797e-09  8.50000000e-01 
 8.60000000e-01  3.55091431e-09  4.57826311e-01  3.50544498e-09  3.30882427e-09  3.34472475e-09  3.52551035e-09  3.34274824e-09  1.58144007e-07  2.70215850e-09  8.60000000e-01 
 8.70000000e-01  3.55091431e-09  4.57826301e-01  3.50544498e-09  3.30882427e-09  3.34472481e-09  3.52551035e-09  3.34274824e-09  1.58143995e-07  2.70208034e-09  8.70000000e-01 
 8.80000000e-01  3.55091431e-09  4.57826300e-01  3.50544498e-09  3.30882421e-09  3.34472475e-09  3.52551035e-09  3.34274824e-09  1.58144006e-07  2.70198797e-09  8.80000000e-01 
 8.90000000e-01  3.55091437e-09  4.57826297e-01  3.50544498e-09  3.30882427e-09  3.34472475e-09  3.52551035e-09  3.34274824e-09  1.58144003e-07  2.70195954e-09  8.90000000e-01 
 9.00000000e-01  3.55091437e-09  4.57826299e-01  3.50544498e-09  3.30882427e-09  3.34472475e-09  3.52551035e-09  3.34274824e-09  1.58144005e-07  2.70169664e-09  9.00000000e-01 
 9.10000000e-01  3.55091431e-09  4.57826304e-01  3.50544498e-09  3.30882427e-09  3.34472481e-09  3.52551035e-09  3.34274824e-09  1.58144007e-07  2.70178901e-09  9.10000000e-01 
 9.20000000e-01  3.55091431e-09  4.57826310e-01  3.50544504e-09  3.30882427e-09  3.34472475e-09  3.52551035e-09  3.34274824e-09  1.58144019e-07  2.70166822e-09  9.20000000e-01 
 9.30000000e-01  3.55091431e-09  4.57826309e-01  3.50544498e-09  3.30882421e-09  3.34472475e-09  3.52551035e-09  3.34274824e-09  1.58144018e-07  2.70149059e-09  9.30000000e-01 
 9.40000000e-01  3.55091437e-09  4.57826297e-01  3.50544498e-09  3.30882427e-09  3.34472481e-09  3.52551035e-09  3.34274824e-09  1.58143990e-07  2.70141243e-09  9.40000000e-01 
 9.50000000e-01  3.55091437e-09  4.57826293e-01  3.50544498e-09  3.30882427e-09  3.34472481e-09  3.52551035e-09  3.34274824e-09  1.58144003e-07  2.70129163e-09  9.50000000e-01 
 9.60000000e-01  3.55091437e-09  4.57826295e-01  3.50544498e-09  3.30882427e-09  3.34472475e-09  3.52551035e-09  3.34274824e-09  1.58143997e-07  2.70131295e-09  9.60000000e-01 
 9.70000000e-01  3.55091431e-09  4.57826320e-01  3.50544498e-09  3.30882427e-09  3.34472481e-09  3.52551035e-09  3.34274825e-09  1.58144042e-07  2.70116374e-09  9.70000000e-01 
 9.80000000e-01  3.55091437e-09  4.57826303e-01  3.50544498e-09  3.30882421e-09  3.34472475e-09  3.52551035e-09  3.34274824e-09  1.58144013e-07  2.70117795e-09  9.80000000e-01 
 9.90000000e-01  3.55091431e-09  4.57826286e-01  3.50544498e-09  3.30882427e-09  3.34472475e-09  3.52551035e-09  3.34274824e-09  1.58143996e-07  2.70097900e-09  9.90000000e-01 
 1.00000000e+00  3.55091431e-09  4.57826321e-01  3.50544498e-09  3.30882427e-09  3.34472475e-09  3.52551035e-09  3.34274825e-09  1.58144043e-07  2.70091505e-09  1.00000000e+00 
 1.01000000e+00  3.55091437e-09  4.57826300e-01  3.50544498e-09  3.30882427e-09  3.34472475e-09  3.52551035e-09  3.34274824e-09  1.58143995e-07  2.70085820e-09  1.01000000e+00 
 1.02000000e+00  3.55091431e-09  4.57826285e-01  3.50544498e-09  3.30882421e-09  3.34472475e-09  3.52551035e-09  3.34274824e-09  1.58143988e-07  2.70073031e-09  1.02000000e+00 
 1.03000000e+00  3.55091431e-09  4.57826302e-01  3.50544498e-09  3.30882427e-09  3.34472475e-09  3.52551035e-09  3.34274824e-09  1.58144026e-07  2.70065925e-09  1.03000000e+00 
 1.04000000e+00  3.55091431e-09  4.57826285e-01  3.50544498e-09  3.30882427e-09  3.34472475e-09  3.52551035e-09  3.34274824e-09  1.58143980e-07  2.70059530e-09  1.04000000e+00 
 1.05000000e+00  3.55091437e-09  4.57826298e-01  3.50544498e-09  3.30882421e-09  3.34472475e-09  3.52551035e-09  3.34274830e-09  1.58144006e-07  2.70038925e-09  1.05000000e+00 
 1.06000000e+00  3.55091437e-09  4.57826292e-01  3.50544498e-09  3.30882421e-09  3.34472481e-09  3.52551035e-09  3.34274824e-09  1.58143986e-07  2.70039635e-09  1.06000000e+00 
 1.07000000e+00  3.55091431e-09  4.57826275e-01  3.50544498e-09  3.30882427e-09  3.34472475e-09  3.52551034e-09  3.34274830e-09  1.58143962e-07  2.70026135e-09  1.07000000e+00 
 1.08000000e+00  3.55091437e-09  4.57826307e-01  3.50544498e-09  3.30882427e-09  3.34472475e-09  3.52551035e-09  3.34274824e-09  1.58144030e-07  2.70022582e-09  1.08000000e+00 
 1.09000000e+00  3.55091437e-09  4.57826287e-01  3.50544498e-09  3.30882421e-09  3.34472475e-09  3.52551035e-09  3.34274824e-09  1.58143988e-07  2.70002687e-09  1.09000000e+00 
 1.10000000e+00  3.55091431e-09  4.57826302e-01  3.50544498e-09  3.30882427e-09  3.34472481e-09  3.52551035e-09  3.34274824e-09  1.58144033e-07  2.70010503e-09  1.10000000e+00 
