 v-sweep         v(b0)           v(b1)           v(b2)           v(b3)           v(b4)           v(b5)           v(b6)           i(vbias)        i(viout)        v(vout)        
 0.00000000e+00  4.60920212e-01  3.23049237e-09  4.60920213e-01  3.09908385e-09  4.60920212e-01  4.60920213e-01  3.27063734e-09  1.67139809e-07  8.50789466e-08  0.00000000e+00 
 1.00000000e-02  4.60920207e-01  3.23049235e-09  4.60920207e-01  3.09908383e-09  4.60920207e-01  4.60920207e-01  3.27063732e-09  1.67139811e-07  8.50783681e-08  1.00000000e-02 
 2.00000000e-02  4.60920212e-01  3.23049235e-09  4.60920212e-01  3.09908389e-09  4.60920212e-01  4.60920212e-01  3.27063732e-09  1.67139809e-07  8.50780053e-08  2.00000000e-02 
 3.00000000e-02  4.60920196e-01  3.23049241e-09  4.60920196e-01  3.09908389e-09  4.60920196e-01  4.60920196e-01  3.27063732e-09  1.67139792e-07  8.50776709e-08  3.00000000e-02 
 4.00000000e-02  4.60920214e-01  3.23049235e-09  4.60920214e-01  3.09908389e-09  4.60920214e-01  4.60920214e-01  3.27063732e-09  1.67139823e-07  8.50773074e-08  4.00000000e-02 
 5.00000000e-02  4.60920222e-01  3.23049241e-09  4.60920222e-01  3.09908383e-09  4.60920222e-01  4.60920222e-01  3.27063727e-09  1.67139833e-07  8.50768980e-08  5.00000000e-02 
 6.00000000e-02  4.60920190e-01  3.23049241e-09  4.60920190e-01  3.09908389e-09  4.60920190e-01  4.60920190e-01  3.27063732e-09  1.67139771e-07  8.50765618e-08  6.00000000e-02 
 7.00000000e-02  4.60920212e-01  3.23049235e-09  4.60920213e-01  3.09908389e-09  4.60920212e-01  4.60920213e-01  3.27063727e-09  1.67139820e-07  8.50764215e-08  7.00000000e-02 
 8.00000000e-02  4.60920213e-01  3.23049235e-09  4.60920213e-01  3.09908389e-09  4.60920213e-01  4.60920213e-01  3.27063727e-09  1.67139814e-07  8.50760085e-08  8.00000000e-02 
 9.00000000e-02  4.60920218e-01  3.23049235e-09  4.60920218e-01  3.09908389e-09  4.60920218e-01  4.60920218e-01  3.27063732e-09  1.67139822e-07  8.50756798e-08  9.00000000e-02 
 1.00000000e-01  4.60920222e-01  3.23049241e-09  4.60920222e-01  3.09908383e-09  4.60920222e-01  4.60920222e-01  3.27063732e-09  1.67139827e-07  8.50756336e-08  1.00000000e-01 
 1.10000000e-01  4.60920203e-01  3.23049235e-09  4.60920203e-01  3.09908389e-09  4.60920203e-01  4.60920203e-01  3.27063732e-09  1.67139805e-07  8.50751887e-08  1.10000000e-01 
 1.20000000e-01  4.60920201e-01  3.23049235e-09  4.60920201e-01  3.09908383e-09  4.60920201e-01  4.60920201e-01  3.27063732e-09  1.67139808e-07  8.50749267e-08  1.20000000e-01 
 1.30000000e-01  4.60920217e-01  3.23049241e-09  4.60920217e-01  3.09908383e-09  4.60920217e-01  4.60920217e-01  3.27063732e-09  1.67139819e-07  8.50747917e-08  1.30000000e-01 
 1.40000000e-01  4.60920212e-01  3.23049235e-09  4.60920212e-01  3.09908389e-09  4.60920212e-01  4.60920212e-01  3.27063732e-09  1.67139797e-07  8.50745376e-08  1.40000000e-01 
 1.50000000e-01  4.60920196e-01  3.23049235e-09  4.60920196e-01  3.09908383e-09  4.60920196e-01  4.60920196e-01  3.27063732e-09  1.67139809e-07  8.50742392e-08  1.50000000e-01 
 1.60000000e-01  4.60920198e-01  3.23049235e-09  4.60920198e-01  3.09908389e-09  4.60920198e-01  4.60920198e-01  3.27063732e-09  1.67139793e-07  8.50739568e-08  1.60000000e-01 
 1.70000000e-01  4.60920231e-01  3.23049235e-09  4.60920231e-01  3.09908383e-09  4.60920231e-01  4.60920231e-01  3.27063732e-09  1.67139845e-07  8.50739248e-08  1.70000000e-01 
 1.80000000e-01  4.60920190e-01  3.23049241e-09  4.60920190e-01  3.09908383e-09  4.60920190e-01  4.60920190e-01  3.27063732e-09  1.67139779e-07  8.50736370e-08  1.80000000e-01 
 1.90000000e-01  4.60920227e-01  3.23049235e-09  4.60920228e-01  3.09908389e-09  4.60920228e-01  4.60920228e-01  3.27063727e-09  1.67139846e-07  8.50735784e-08  1.90000000e-01 
 2.00000000e-01  4.60920221e-01  3.23049235e-09  4.60920221e-01  3.09908383e-09  4.60920221e-01  4.60920221e-01  3.27063727e-09  1.67139832e-07  8.50732960e-08  2.00000000e-01 
 2.10000000e-01  4.60920196e-01  3.23049235e-09  4.60920196e-01  3.09908389e-09  4.60920196e-01  4.60920196e-01  3.27063727e-09  1.67139782e-07  8.50731041e-08  2.10000000e-01 
 2.20000000e-01  4.60920213e-01  3.23049235e-09  4.60920213e-01  3.09908383e-09  4.60920213e-01  4.60920213e-01  3.27063727e-09  1.67139817e-07  8.50730739e-08  2.20000000e-01 
 2.30000000e-01  4.60920222e-01  3.23049235e-09  4.60920222e-01  3.09908389e-09  4.60920222e-01  4.60920222e-01  3.27063732e-09  1.67139810e-07  8.50728608e-08  2.30000000e-01 
 2.40000000e-01  4.60920199e-01  3.23049235e-09  4.60920199e-01  3.09908389e-09  4.60920199e-01  4.60920199e-01  3.27063727e-09  1.67139784e-07  8.50727435e-08  2.40000000e-01 
 2.50000000e-01  4.60920198e-01  3.23049235e-09  4.60920198e-01  3.09908383e-09  4.60920198e-01  4.60920198e-01  3.27063732e-09  1.67139804e-07  8.50725357e-08  2.50000000e-01 
 2.60000000e-01  4.60920215e-01  3.23049241e-09  4.60920215e-01  3.09908389e-09  4.60920215e-01  4.60920215e-01  3.27063732e-09  1.67139820e-07  8.50724629e-08  2.60000000e-01 
 2.70000000e-01  4.60920202e-01  3.23049241e-09  4.60920203e-01  3.09908389e-09  4.60920203e-01  4.60920203e-01  3.27063732e-09  1.67139776e-07  8.50723314e-08  2.70000000e-01 
 2.80000000e-01  4.60920230e-01  3.23049235e-09  4.60920230e-01  3.09908389e-09  4.60920230e-01  4.60920230e-01  3.27063727e-09  1.67139844e-07  8.50721751e-08  2.80000000e-01 
 2.90000000e-01  4.60920218e-01  3.23049235e-09  4.60920218e-01  3.09908383e-09  4.60920218e-01  4.60920218e-01  3.27063732e-09  1.67139824e-07  8.50721698e-08  2.90000000e-01 
 3.00000000e-01  4.60920213e-01  3.23049235e-09  4.60920213e-01  3.09908389e-09  4.60920213e-01  4.60920213e-01  3.27063727e-09  1.67139812e-07  8.50719744e-08  3.00000000e-01 
 3.10000000e-01  4.60920217e-01  3.23049235e-09  4.60920217e-01  3.09908383e-09  4.60920217e-01  4.60920217e-01  3.27063732e-09  1.67139824e-07  8.50719566e-08  3.10000000e-01 
 3.20000000e-01  4.60920202e-01  3.23049235e-09  4.60920202e-01  3.09908389e-09  4.60920202e-01  4.60920202e-01  3.27063727e-09  1.67139799e-07  8.50717754e-08  3.20000000e-01 
 3.30000000e-01  4.60920205e-01  3.23049241e-09  4.60920205e-01  3.09908383e-09  4.60920205e-01  4.60920205e-01  3.27063727e-09  1.67139808e-07  8.50716830e-08  3.30000000e-01 
 3.40000000e-01  4.60920200e-01  3.23049241e-09  4.60920200e-01  3.09908383e-09  4.60920200e-01  4.60920200e-01  3.27063732e-09  1.67139806e-07  8.50716013e-08  3.40000000e-01 
 3.50000000e-01  4.60920219e-01  3.23049241e-09  4.60920219e-01  3.09908389e-09  4.60920219e-01  4.60920219e-01  3.27063732e-09  1.67139841e-07  8.50714237e-08  3.50000000e-01 
 3.60000000e-01  4.60920221e-01  3.23049235e-09  4.60920222e-01  3.09908389e-09  4.60920222e-01  4.60920222e-01  3.27063732e-09  1.67139807e-07  8.50713420e-08  3.60000000e-01 
 3.70000000e-01  4.60920221e-01  3.23049241e-09  4.60920221e-01  3.09908389e-09  4.60920221e-01  4.60920221e-01  3.27063732e-09  1.67139826e-07  8.50713668e-08  3.70000000e-01 
 3.80000000e-01  4.60920204e-01  3.23049241e-09  4.60920204e-01  3.09908389e-09  4.60920204e-01  4.60920204e-01  3.27063727e-09  1.67139802e-07  8.50710542e-08  3.80000000e-01 
 3.90000000e-01  4.60920217e-01  3.23049241e-09  4.60920217e-01  3.09908383e-09  4.60920217e-01  4.60920217e-01  3.27063732e-09  1.67139819e-07  8.50710045e-08  3.90000000e-01 
 4.00000000e-01  4.60920203e-01  3.23049235e-09  4.60920203e-01  3.09908389e-09  4.60920203e-01  4.60920203e-01  3.27063732e-09  1.67139793e-07  8.50709760e-08  4.00000000e-01 
 4.10000000e-01  4.60920203e-01  3.23049241e-09  4.60920203e-01  3.09908389e-09  4.60920203e-01  4.60920203e-01  3.27063732e-09  1.67139798e-07  8.50708339e-08  4.10000000e-01 
 4.20000000e-01  4.60920221e-01  3.23049241e-09  4.60920221e-01  3.09908389e-09  4.60920221e-01  4.60920221e-01  3.27063727e-09  1.67139832e-07  8.50708695e-08  4.20000000e-01 
 4.30000000e-01  4.60920184e-01  3.23049240e-09  4.60920184e-01  3.09908383e-09  4.60920184e-01  4.60920184e-01  3.27063727e-09  1.67139775e-07  8.50706563e-08  4.30000000e-01 
 4.40000000e-01  4.60920235e-01  3.23049235e-09  4.60920235e-01  3.09908389e-09  4.60920235e-01  4.60920235e-01  3.27063727e-09  1.67139851e-07  8.50707877e-08  4.40000000e-01 
 4.50000000e-01  4.60920207e-01  3.23049235e-09  4.60920207e-01  3.09908383e-09  4.60920207e-01  4.60920207e-01  3.27063732e-09  1.67139796e-07  8.50704929e-08  4.50000000e-01 
 4.60000000e-01  4.60920198e-01  3.23049241e-09  4.60920198e-01  3.09908389e-09  4.60920198e-01  4.60920198e-01  3.27063732e-09  1.67139796e-07  8.50704360e-08  4.60000000e-01 
 4.70000000e-01  4.60920213e-01  3.23049241e-09  4.60920213e-01  3.09908383e-09  4.60920213e-01  4.60920213e-01  3.27063732e-09  1.67139822e-07  8.50704076e-08  4.70000000e-01 
 4.80000000e-01  4.60920220e-01  3.23049235e-09  4.60920220e-01  3.09908383e-09  4.60920220e-01  4.60920220e-01  3.27063732e-09  1.67139824e-07  8.50704431e-08  4.80000000e-01 
 4.90000000e-01  4.60920203e-01  3.23049235e-09  4.60920203e-01  3.09908389e-09  4.60920203e-01  4.60920203e-01  3.27063732e-09  1.67139799e-07  8.50701838e-08  4.90000000e-01 
 5.00000000e-01  4.60920207e-01  3.23049241e-09  4.60920207e-01  3.09908389e-09  4.60920207e-01  4.60920207e-01  3.27063732e-09  1.67139810e-07  8.50700985e-08  5.00000000e-01 
 5.10000000e-01  4.60920214e-01  3.23049235e-09  4.60920214e-01  3.09908389e-09  4.60920214e-01  4.60920214e-01  3.27063732e-09  1.67139823e-07  8.50701518e-08  5.10000000e-01 
 5.20000000e-01  4.60920210e-01  3.23049235e-09  4.60920210e-01  3.09908383e-09  4.60920210e-01  4.60920210e-01  3.27063732e-09  1.67139806e-07  8.50700381e-08  5.20000000e-01 
 5.30000000e-01  4.60920209e-01  3.23049235e-09  4.60920210e-01  3.09908389e-09  4.60920210e-01  4.60920210e-01  3.27063732e-09  1.67139816e-07  8.50700665e-08  5.30000000e-01 
 5.40000000e-01  4.60920208e-01  3.23049235e-09  4.60920208e-01  3.09908389e-09  4.60920208e-01  4.60920208e-01  3.27063732e-09  1.67139813e-07  8.50699386e-08  5.40000000e-01 
 5.50000000e-01  4.60920193e-01  3.23049235e-09  4.60920193e-01  3.09908383e-09  4.60920193e-01  4.60920193e-01  3.27063732e-09  1.67139780e-07  8.50697646e-08  5.50000000e-01 
 5.60000000e-01  4.60920243e-01  3.23049235e-09  4.60920243e-01  3.09908383e-09  4.60920243e-01  4.60920243e-01  3.27063733e-09  1.67139863e-07  8.50697397e-08  5.60000000e-01 
 5.70000000e-01  4.60920212e-01  3.23049235e-09  4.60920212e-01  3.09908389e-09  4.60920212e-01  4.60920212e-01  3.27063732e-09  1.67139800e-07  8.50696367e-08  5.70000000e-01 
 5.80000000e-01  4.60920213e-01  3.23049241e-09  4.60920213e-01  3.09908389e-09  4.60920213e-01  4.60920213e-01  3.27063732e-09  1.67139812e-07  8.50697077e-08  5.80000000e-01 
 5.90000000e-01  4.60920224e-01  3.23049235e-09  4.60920224e-01  3.09908383e-09  4.60920224e-01  4.60920224e-01  3.27063727e-09  1.67139828e-07  8.50695727e-08  5.90000000e-01 
 6.00000000e-01  4.60920225e-01  3.23049241e-09  4.60920225e-01  3.09908383e-09  4.60920225e-01  4.60920225e-01  3.27063727e-09  1.67139826e-07  8.50695088e-08  6.00000000e-01 
 6.10000000e-01  4.60920206e-01  3.23049241e-09  4.60920206e-01  3.09908383e-09  4.60920206e-01  4.60920206e-01  3.27063727e-09  1.67139809e-07  8.50694235e-08  6.10000000e-01 
 6.20000000e-01  4.60920227e-01  3.23049241e-09  4.60920227e-01  3.09908383e-09  4.60920227e-01  4.60920227e-01  3.27063732e-09  1.67139838e-07  8.50693525e-08  6.20000000e-01 
 6.30000000e-01  4.60920198e-01  3.23049235e-09  4.60920198e-01  3.09908383e-09  4.60920198e-01  4.60920198e-01  3.27063732e-09  1.67139793e-07  8.50691819e-08  6.30000000e-01 
 6.40000000e-01  4.60920193e-01  3.23049235e-09  4.60920193e-01  3.09908389e-09  4.60920193e-01  4.60920193e-01  3.27063732e-09  1.67139782e-07  8.50691819e-08  6.40000000e-01 
 6.50000000e-01  4.60920211e-01  3.23049241e-09  4.60920211e-01  3.09908383e-09  4.60920211e-01  4.60920211e-01  3.27063732e-09  1.67139818e-07  8.50690896e-08  6.50000000e-01 
 6.60000000e-01  4.60920210e-01  3.23049235e-09  4.60920210e-01  3.09908389e-09  4.60920210e-01  4.60920210e-01  3.27063732e-09  1.67139795e-07  8.50689901e-08  6.60000000e-01 
 6.70000000e-01  4.60920217e-01  3.23049235e-09  4.60920217e-01  3.09908389e-09  4.60920217e-01  4.60920217e-01  3.27063732e-09  1.67139817e-07  8.50688906e-08  6.70000000e-01 
 6.80000000e-01  4.60920210e-01  3.23049235e-09  4.60920211e-01  3.09908383e-09  4.60920211e-01  4.60920211e-01  3.27063727e-09  1.67139812e-07  8.50689972e-08  6.80000000e-01 
 6.90000000e-01  4.60920197e-01  3.23049235e-09  4.60920197e-01  3.09908383e-09  4.60920197e-01  4.60920197e-01  3.27063732e-09  1.67139798e-07  8.50688693e-08  6.90000000e-01 
 7.00000000e-01  4.60920211e-01  3.23049241e-09  4.60920211e-01  3.09908383e-09  4.60920211e-01  4.60920211e-01  3.27063727e-09  1.67139820e-07  8.50687840e-08  7.00000000e-01 
 7.10000000e-01  4.60920214e-01  3.23049235e-09  4.60920214e-01  3.09908383e-09  4.60920214e-01  4.60920214e-01  3.27063727e-09  1.67139815e-07  8.50687485e-08  7.10000000e-01 
 7.20000000e-01  4.60920209e-01  3.23049241e-09  4.60920209e-01  3.09908389e-09  4.60920209e-01  4.60920209e-01  3.27063732e-09  1.67139802e-07  8.50686632e-08  7.20000000e-01 
 7.30000000e-01  4.60920213e-01  3.23049235e-09  4.60920213e-01  3.09908389e-09  4.60920213e-01  4.60920213e-01  3.27063732e-09  1.67139822e-07  8.50685780e-08  7.30000000e-01 
 7.40000000e-01  4.60920210e-01  3.23049235e-09  4.60920210e-01  3.09908389e-09  4.60920210e-01  4.60920210e-01  3.27063727e-09  1.67139815e-07  8.50685211e-08  7.40000000e-01 
 7.50000000e-01  4.60920217e-01  3.23049235e-09  4.60920217e-01  3.09908389e-09  4.60920217e-01  4.60920217e-01  3.27063732e-09  1.67139820e-07  8.50684287e-08  7.50000000e-01 
 7.60000000e-01  4.60920216e-01  3.23049235e-09  4.60920216e-01  3.09908389e-09  4.60920216e-01  4.60920216e-01  3.27063732e-09  1.67139818e-07  8.50684287e-08  7.60000000e-01 
 7.70000000e-01  4.60920219e-01  3.23049235e-09  4.60920219e-01  3.09908383e-09  4.60920219e-01  4.60920219e-01  3.27063727e-09  1.67139834e-07  8.50682937e-08  7.70000000e-01 
 7.80000000e-01  4.60920221e-01  3.23049235e-09  4.60920221e-01  3.09908389e-09  4.60920221e-01  4.60920221e-01  3.27063732e-09  1.67139825e-07  8.50682369e-08  7.80000000e-01 
 7.90000000e-01  4.60920216e-01  3.23049235e-09  4.60920216e-01  3.09908389e-09  4.60920216e-01  4.60920216e-01  3.27063727e-09  1.67139826e-07  8.50682156e-08  7.90000000e-01 
 8.00000000e-01  4.60920218e-01  3.23049235e-09  4.60920218e-01  3.09908389e-09  4.60920218e-01  4.60920218e-01  3.27063732e-09  1.67139823e-07  8.50680095e-08  8.00000000e-01 
 8.10000000e-01  4.60920202e-01  3.23049235e-09  4.60920202e-01  3.09908383e-09  4.60920202e-01  4.60920202e-01  3.27063732e-09  1.67139802e-07  8.50679456e-08  8.10000000e-01 
 8.20000000e-01  4.60920216e-01  3.23049235e-09  4.60920216e-01  3.09908383e-09  4.60920216e-01  4.60920216e-01  3.27063727e-09  1.67139821e-07  8.50679385e-08  8.20000000e-01 
 8.30000000e-01  4.60920209e-01  3.23049241e-09  4.60920209e-01  3.09908389e-09  4.60920209e-01  4.60920209e-01  3.27063732e-09  1.67139800e-07  8.50677750e-08  8.30000000e-01 
 8.40000000e-01  4.60920208e-01  3.23049235e-09  4.60920208e-01  3.09908383e-09  4.60920208e-01  4.60920208e-01  3.27063732e-09  1.67139812e-07  8.50678461e-08  8.40000000e-01 
 8.50000000e-01  4.60920192e-01  3.23049241e-09  4.60920192e-01  3.09908383e-09  4.60920192e-01  4.60920192e-01  3.27063727e-09  1.67139801e-07  8.50676685e-08  8.50000000e-01 
 8.60000000e-01  4.60920207e-01  3.23049241e-09  4.60920207e-01  3.09908389e-09  4.60920207e-01  4.60920207e-01  3.27063732e-09  1.67139802e-07  8.50677395e-08  8.60000000e-01 
 8.70000000e-01  4.60920206e-01  3.23049235e-09  4.60920206e-01  3.09908383e-09  4.60920206e-01  4.60920206e-01  3.27063732e-09  1.67139810e-07  8.50675477e-08  8.70000000e-01 
 8.80000000e-01  4.60920215e-01  3.23049235e-09  4.60920215e-01  3.09908383e-09  4.60920215e-01  4.60920215e-01  3.27063732e-09  1.67139812e-07  8.50674624e-08  8.80000000e-01 
 8.90000000e-01  4.60920210e-01  3.23049235e-09  4.60920210e-01  3.09908389e-09  4.60920210e-01  4.60920210e-01  3.27063732e-09  1.67139813e-07  8.50673842e-08  8.90000000e-01 
 9.00000000e-01  4.60920220e-01  3.23049241e-09  4.60920220e-01  3.09908389e-09  4.60920220e-01  4.60920220e-01  3.27063732e-09  1.67139824e-07  8.50673345e-08  9.00000000e-01 
 9.10000000e-01  4.60920202e-01  3.23049235e-09  4.60920202e-01  3.09908383e-09  4.60920202e-01  4.60920202e-01  3.27063732e-09  1.67139789e-07  8.50671142e-08  9.10000000e-01 
 9.20000000e-01  4.60920206e-01  3.23049235e-09  4.60920206e-01  3.09908389e-09  4.60920206e-01  4.60920206e-01  3.27063732e-09  1.67139818e-07  8.50670858e-08  9.20000000e-01 
 9.30000000e-01  4.60920212e-01  3.23049241e-09  4.60920212e-01  3.09908389e-09  4.60920212e-01  4.60920212e-01  3.27063732e-09  1.67139824e-07  8.50671782e-08  9.30000000e-01 
 9.40000000e-01  4.60920220e-01  3.23049241e-09  4.60920221e-01  3.09908383e-09  4.60920221e-01  4.60920221e-01  3.27063727e-09  1.67139816e-07  8.50670077e-08  9.40000000e-01 
 9.50000000e-01  4.60920232e-01  3.23049235e-09  4.60920232e-01  3.09908383e-09  4.60920232e-01  4.60920232e-01  3.27063732e-09  1.67139844e-07  8.50669792e-08  9.50000000e-01 
 9.60000000e-01  4.60920202e-01  3.23049241e-09  4.60920203e-01  3.09908389e-09  4.60920203e-01  4.60920203e-01  3.27063727e-09  1.67139793e-07  8.50668584e-08  9.60000000e-01 
 9.70000000e-01  4.60920212e-01  3.23049235e-09  4.60920213e-01  3.09908389e-09  4.60920212e-01  4.60920212e-01  3.27063732e-09  1.67139816e-07  8.50667163e-08  9.70000000e-01 
 9.80000000e-01  4.60920191e-01  3.23049235e-09  4.60920191e-01  3.09908389e-09  4.60920191e-01  4.60920191e-01  3.27063732e-09  1.67139784e-07  8.50667234e-08  9.80000000e-01 
 9.90000000e-01  4.60920202e-01  3.23049241e-09  4.60920202e-01  3.09908389e-09  4.60920202e-01  4.60920202e-01  3.27063732e-09  1.67139807e-07  8.50667021e-08  9.90000000e-01 
 1.00000000e+00  4.60920200e-01  3.23049241e-09  4.60920200e-01  3.09908389e-09  4.60920200e-01  4.60920200e-01  3.27063732e-09  1.67139794e-07  8.50665600e-08  1.00000000e+00 
 1.01000000e+00  4.60920220e-01  3.23049235e-09  4.60920220e-01  3.09908383e-09  4.60920220e-01  4.60920220e-01  3.27063727e-09  1.67139830e-07  8.50665387e-08  1.01000000e+00 
 1.02000000e+00  4.60920196e-01  3.23049235e-09  4.60920196e-01  3.09908383e-09  4.60920196e-01  4.60920196e-01  3.27063732e-09  1.67139793e-07  8.50663824e-08  1.02000000e+00 
 1.03000000e+00  4.60920216e-01  3.23049235e-09  4.60920216e-01  3.09908383e-09  4.60920216e-01  4.60920216e-01  3.27063732e-09  1.67139829e-07  8.50663611e-08  1.03000000e+00 
 1.04000000e+00  4.60920200e-01  3.23049241e-09  4.60920200e-01  3.09908389e-09  4.60920200e-01  4.60920200e-01  3.27063732e-09  1.67139796e-07  8.50661621e-08  1.04000000e+00 
 1.05000000e+00  4.60920215e-01  3.23049235e-09  4.60920215e-01  3.09908383e-09  4.60920215e-01  4.60920215e-01  3.27063732e-09  1.67139820e-07  8.50661763e-08  1.05000000e+00 
 1.06000000e+00  4.60920219e-01  3.23049241e-09  4.60920219e-01  3.09908389e-09  4.60920219e-01  4.60920219e-01  3.27063732e-09  1.67139822e-07  8.50660626e-08  1.06000000e+00 
 1.07000000e+00  4.60920209e-01  3.23049235e-09  4.60920209e-01  3.09908383e-09  4.60920209e-01  4.60920209e-01  3.27063732e-09  1.67139821e-07  8.50660484e-08  1.07000000e+00 
 1.08000000e+00  4.60920215e-01  3.23049235e-09  4.60920215e-01  3.09908389e-09  4.60920215e-01  4.60920215e-01  3.27063727e-09  1.67139818e-07  8.50659063e-08  1.08000000e+00 
 1.09000000e+00  4.60920203e-01  3.23049235e-09  4.60920203e-01  3.09908389e-09  4.60920203e-01  4.60920203e-01  3.27063727e-09  1.67139806e-07  8.50659418e-08  1.09000000e+00 
 1.10000000e+00  4.60920221e-01  3.23049241e-09  4.60920221e-01  3.09908383e-09  4.60920221e-01  4.60920221e-01  3.27063727e-09  1.67139843e-07  8.50658495e-08  1.10000000e+00 
