 v-sweep         v(b0)           v(b1)           v(b2)           v(b3)           v(b4)           v(b5)           v(b6)           i(vbias)        i(viout)        v(vout)        
 0.00000000e+00  3.32805894e-09  4.58848724e-01  4.58848724e-01  3.33986958e-09  3.42684090e-09  4.58848724e-01  3.19127285e-09  1.61998680e-07  5.96066137e-08  0.00000000e+00 
 1.00000000e-02  3.32805898e-09  4.58848725e-01  4.58848725e-01  3.33986962e-09  3.42684088e-09  4.58848725e-01  3.19127278e-09  1.61998683e-07  5.96062281e-08  1.00000000e-02 
 2.00000000e-02  3.32805892e-09  4.58848682e-01  4.58848682e-01  3.33986956e-09  3.42684088e-09  4.58848682e-01  3.19127284e-09  1.61998605e-07  5.96058516e-08  2.00000000e-02 
 3.00000000e-02  3.32805898e-09  4.58848721e-01  4.58848721e-01  3.33986956e-09  3.42684088e-09  4.58848721e-01  3.19127278e-09  1.61998665e-07  5.96055749e-08  3.00000000e-02 
 4.00000000e-02  3.32805898e-09  4.58848707e-01  4.58848707e-01  3.33986956e-09  3.42684088e-09  4.58848707e-01  3.19127284e-09  1.61998651e-07  5.96052034e-08  4.00000000e-02 
 5.00000000e-02  3.32805898e-09  4.58848698e-01  4.58848698e-01  3.33986956e-09  3.42684088e-09  4.58848698e-01  3.19127278e-09  1.61998640e-07  5.96047753e-08  5.00000000e-02 
 6.00000000e-02  3.32805892e-09  4.58848694e-01  4.58848694e-01  3.33986956e-09  3.42684088e-09  4.58848694e-01  3.19127284e-09  1.61998640e-07  5.96045200e-08  6.00000000e-02 
 7.00000000e-02  3.32805898e-09  4.58848724e-01  4.58848724e-01  3.33986962e-09  3.42684088e-09  4.58848724e-01  3.19127284e-09  1.61998677e-07  5.96042375e-08  7.00000000e-02 
 8.00000000e-02  3.32805898e-09  4.58848719e-01  4.58848719e-01  3.33986956e-09  3.42684088e-09  4.58848719e-01  3.19127278e-09  1.61998662e-07  5.96039724e-08  8.00000000e-02 
 9.00000000e-02  3.32805898e-09  4.58848728e-01  4.58848728e-01  3.33986956e-09  3.42684088e-09  4.58848728e-01  3.19127278e-09  1.61998683e-07  5.96037264e-08  9.00000000e-02 
 1.00000000e-01  3.32805898e-09  4.58848722e-01  4.58848722e-01  3.33986962e-09  3.42684088e-09  4.58848722e-01  3.19127284e-09  1.61998667e-07  5.96033303e-08  1.00000000e-01 
 1.10000000e-01  3.32805898e-09  4.58848698e-01  4.58848698e-01  3.33986956e-09  3.42684088e-09  4.58848698e-01  3.19127284e-09  1.61998646e-07  5.96030993e-08  1.10000000e-01 
 1.20000000e-01  3.32805898e-09  4.58848728e-01  4.58848728e-01  3.33986962e-09  3.42684088e-09  4.58848728e-01  3.19127278e-09  1.61998679e-07  5.96028729e-08  1.20000000e-01 
 1.30000000e-01  3.32805892e-09  4.58848714e-01  4.58848714e-01  3.33986956e-09  3.42684088e-09  4.58848714e-01  3.19127278e-09  1.61998660e-07  5.96025513e-08  1.30000000e-01 
 1.40000000e-01  3.32805893e-09  4.58848739e-01  4.58848739e-01  3.33986956e-09  3.42684088e-09  4.58848739e-01  3.19127278e-09  1.61998700e-07  5.96025078e-08  1.40000000e-01 
 1.50000000e-01  3.32805898e-09  4.58848714e-01  4.58848714e-01  3.33986956e-09  3.42684088e-09  4.58848714e-01  3.19127284e-09  1.61998669e-07  5.96022591e-08  1.50000000e-01 
 1.60000000e-01  3.32805893e-09  4.58848731e-01  4.58848731e-01  3.33986962e-09  3.42684088e-09  4.58848731e-01  3.19127284e-09  1.61998696e-07  5.96020655e-08  1.60000000e-01 
 1.70000000e-01  3.32805893e-09  4.58848735e-01  4.58848735e-01  3.33986956e-09  3.42684088e-09  4.58848735e-01  3.19127278e-09  1.61998690e-07  5.96019216e-08  1.70000000e-01 
 1.80000000e-01  3.32805892e-09  4.58848723e-01  4.58848723e-01  3.33986956e-09  3.42684088e-09  4.58848723e-01  3.19127278e-09  1.61998681e-07  5.96016800e-08  1.80000000e-01 
 1.90000000e-01  3.32805898e-09  4.58848708e-01  4.58848708e-01  3.33986962e-09  3.42684088e-09  4.58848708e-01  3.19127284e-09  1.61998653e-07  5.96014900e-08  1.90000000e-01 
 2.00000000e-01  3.32805898e-09  4.58848737e-01  4.58848737e-01  3.33986956e-09  3.42684088e-09  4.58848737e-01  3.19127284e-09  1.61998693e-07  5.96013852e-08  2.00000000e-01 
 2.10000000e-01  3.32805892e-09  4.58848712e-01  4.58848712e-01  3.33986956e-09  3.42684088e-09  4.58848712e-01  3.19127278e-09  1.61998663e-07  5.96011436e-08  2.10000000e-01 
 2.20000000e-01  3.32805899e-09  4.58848754e-01  4.58848754e-01  3.33986957e-09  3.42684089e-09  4.58848754e-01  3.19127284e-09  1.61998720e-07  5.96011311e-08  2.20000000e-01 
 2.30000000e-01  3.32805898e-09  4.58848709e-01  4.58848709e-01  3.33986956e-09  3.42684088e-09  4.58848709e-01  3.19127284e-09  1.61998677e-07  5.96009038e-08  2.30000000e-01 
 2.40000000e-01  3.32805898e-09  4.58848703e-01  4.58848703e-01  3.33986956e-09  3.42684088e-09  4.58848703e-01  3.19127284e-09  1.61998658e-07  5.96007279e-08  2.40000000e-01 
 2.50000000e-01  3.32805893e-09  4.58848727e-01  4.58848728e-01  3.33986956e-09  3.42684088e-09  4.58848727e-01  3.19127284e-09  1.61998670e-07  5.96005574e-08  2.50000000e-01 
 2.60000000e-01  3.32805898e-09  4.58848708e-01  4.58848708e-01  3.33986962e-09  3.42684088e-09  4.58848708e-01  3.19127278e-09  1.61998649e-07  5.96005929e-08  2.60000000e-01 
 2.70000000e-01  3.32805892e-09  4.58848719e-01  4.58848719e-01  3.33986962e-09  3.42684088e-09  4.58848719e-01  3.19127278e-09  1.61998674e-07  5.96004401e-08  2.70000000e-01 
 2.80000000e-01  3.32805893e-09  4.58848741e-01  4.58848741e-01  3.33986956e-09  3.42684088e-09  4.58848741e-01  3.19127284e-09  1.61998711e-07  5.96001932e-08  2.80000000e-01 
 2.90000000e-01  3.32805898e-09  4.58848712e-01  4.58848712e-01  3.33986962e-09  3.42684088e-09  4.58848712e-01  3.19127284e-09  1.61998655e-07  5.96001897e-08  2.90000000e-01 
 3.00000000e-01  3.32805898e-09  4.58848721e-01  4.58848722e-01  3.33986956e-09  3.42684088e-09  4.58848721e-01  3.19127284e-09  1.61998676e-07  5.96000120e-08  3.00000000e-01 
 3.10000000e-01  3.32805898e-09  4.58848699e-01  4.58848699e-01  3.33986962e-09  3.42684088e-09  4.58848699e-01  3.19127278e-09  1.61998637e-07  5.95998770e-08  3.10000000e-01 
 3.20000000e-01  3.32805898e-09  4.58848719e-01  4.58848719e-01  3.33986962e-09  3.42684088e-09  4.58848719e-01  3.19127284e-09  1.61998675e-07  5.95997527e-08  3.20000000e-01 
 3.30000000e-01  3.32805898e-09  4.58848704e-01  4.58848704e-01  3.33986956e-09  3.42684088e-09  4.58848704e-01  3.19127278e-09  1.61998644e-07  5.95997633e-08  3.30000000e-01 
 3.40000000e-01  3.32805898e-09  4.58848704e-01  4.58848704e-01  3.33986956e-09  3.42684088e-09  4.58848704e-01  3.19127284e-09  1.61998642e-07  5.95996426e-08  3.40000000e-01 
 3.50000000e-01  3.32805893e-09  4.58848749e-01  4.58848749e-01  3.33986957e-09  3.42684088e-09  4.58848749e-01  3.19127278e-09  1.61998717e-07  5.95996283e-08  3.50000000e-01 
 3.60000000e-01  3.32805898e-09  4.58848732e-01  4.58848732e-01  3.33986962e-09  3.42684088e-09  4.58848732e-01  3.19127284e-09  1.61998693e-07  5.95994578e-08  3.60000000e-01 
 3.70000000e-01  3.32805898e-09  4.58848721e-01  4.58848721e-01  3.33986956e-09  3.42684088e-09  4.58848721e-01  3.19127278e-09  1.61998659e-07  5.95993939e-08  3.70000000e-01 
 3.80000000e-01  3.32805892e-09  4.58848713e-01  4.58848713e-01  3.33986956e-09  3.42684088e-09  4.58848713e-01  3.19127278e-09  1.61998654e-07  5.95993974e-08  3.80000000e-01 
 3.90000000e-01  3.32805898e-09  4.58848727e-01  4.58848727e-01  3.33986956e-09  3.42684088e-09  4.58848727e-01  3.19127278e-09  1.61998667e-07  5.95991807e-08  3.90000000e-01 
 4.00000000e-01  3.32805892e-09  4.58848722e-01  4.58848722e-01  3.33986956e-09  3.42684088e-09  4.58848722e-01  3.19127284e-09  1.61998669e-07  5.95991061e-08  4.00000000e-01 
 4.10000000e-01  3.32805898e-09  4.58848739e-01  4.58848739e-01  3.33986956e-09  3.42684088e-09  4.58848739e-01  3.19127278e-09  1.61998705e-07  5.95990208e-08  4.10000000e-01 
 4.20000000e-01  3.32805898e-09  4.58848713e-01  4.58848713e-01  3.33986956e-09  3.42684088e-09  4.58848713e-01  3.19127278e-09  1.61998673e-07  5.95989249e-08  4.20000000e-01 
 4.30000000e-01  3.32805898e-09  4.58848697e-01  4.58848697e-01  3.33986962e-09  3.42684088e-09  4.58848697e-01  3.19127284e-09  1.61998639e-07  5.95987970e-08  4.30000000e-01 
 4.40000000e-01  3.32805898e-09  4.58848735e-01  4.58848735e-01  3.33986962e-09  3.42684088e-09  4.58848735e-01  3.19127284e-09  1.61998697e-07  5.95988290e-08  4.40000000e-01 
 4.50000000e-01  3.32805893e-09  4.58848732e-01  4.58848732e-01  3.33986956e-09  3.42684088e-09  4.58848732e-01  3.19127284e-09  1.61998691e-07  5.95987899e-08  4.50000000e-01 
 4.60000000e-01  3.32805892e-09  4.58848700e-01  4.58848700e-01  3.33986956e-09  3.42684088e-09  4.58848700e-01  3.19127278e-09  1.61998638e-07  5.95985696e-08  4.60000000e-01 
 4.70000000e-01  3.32805898e-09  4.58848726e-01  4.58848726e-01  3.33986956e-09  3.42684088e-09  4.58848726e-01  3.19127284e-09  1.61998688e-07  5.95986123e-08  4.70000000e-01 
 4.80000000e-01  3.32805892e-09  4.58848700e-01  4.58848700e-01  3.33986956e-09  3.42684088e-09  4.58848700e-01  3.19127278e-09  1.61998643e-07  5.95984986e-08  4.80000000e-01 
 4.90000000e-01  3.32805898e-09  4.58848725e-01  4.58848725e-01  3.33986962e-09  3.42684088e-09  4.58848725e-01  3.19127284e-09  1.61998686e-07  5.95984631e-08  4.90000000e-01 
 5.00000000e-01  3.32805892e-09  4.58848724e-01  4.58848724e-01  3.33986956e-09  3.42684088e-09  4.58848724e-01  3.19127278e-09  1.61998676e-07  5.95983707e-08  5.00000000e-01 
 5.10000000e-01  3.32805898e-09  4.58848718e-01  4.58848718e-01  3.33986956e-09  3.42684088e-09  4.58848718e-01  3.19127278e-09  1.61998672e-07  5.95982783e-08  5.10000000e-01 
 5.20000000e-01  3.32805892e-09  4.58848721e-01  4.58848721e-01  3.33986956e-09  3.42684088e-09  4.58848721e-01  3.19127284e-09  1.61998657e-07  5.95982890e-08  5.20000000e-01 
 5.30000000e-01  3.32805898e-09  4.58848717e-01  4.58848717e-01  3.33986956e-09  3.42684088e-09  4.58848717e-01  3.19127278e-09  1.61998666e-07  5.95981220e-08  5.30000000e-01 
 5.40000000e-01  3.32805898e-09  4.58848728e-01  4.58848728e-01  3.33986956e-09  3.42684088e-09  4.58848728e-01  3.19127278e-09  1.61998679e-07  5.95982144e-08  5.40000000e-01 
 5.50000000e-01  3.32805898e-09  4.58848730e-01  4.58848730e-01  3.33986956e-09  3.42684088e-09  4.58848730e-01  3.19127284e-09  1.61998679e-07  5.95981149e-08  5.50000000e-01 
 5.60000000e-01  3.32805898e-09  4.58848722e-01  4.58848722e-01  3.33986962e-09  3.42684088e-09  4.58848722e-01  3.19127284e-09  1.61998668e-07  5.95979905e-08  5.60000000e-01 
 5.70000000e-01  3.32805898e-09  4.58848738e-01  4.58848738e-01  3.33986962e-09  3.42684088e-09  4.58848738e-01  3.19127284e-09  1.61998695e-07  5.95979088e-08  5.70000000e-01 
 5.80000000e-01  3.32805892e-09  4.58848726e-01  4.58848726e-01  3.33986956e-09  3.42684088e-09  4.58848726e-01  3.19127278e-09  1.61998674e-07  5.95978662e-08  5.80000000e-01 
 5.90000000e-01  3.32805892e-09  4.58848705e-01  4.58848705e-01  3.33986956e-09  3.42684088e-09  4.58848705e-01  3.19127284e-09  1.61998657e-07  5.95977170e-08  5.90000000e-01 
 6.00000000e-01  3.32805892e-09  4.58848711e-01  4.58848711e-01  3.33986956e-09  3.42684088e-09  4.58848711e-01  3.19127278e-09  1.61998667e-07  5.95977383e-08  6.00000000e-01 
 6.10000000e-01  3.32805898e-09  4.58848725e-01  4.58848725e-01  3.33986956e-09  3.42684088e-09  4.58848725e-01  3.19127284e-09  1.61998674e-07  5.95976459e-08  6.10000000e-01 
 6.20000000e-01  3.32805898e-09  4.58848708e-01  4.58848708e-01  3.33986956e-09  3.42684088e-09  4.58848708e-01  3.19127278e-09  1.61998652e-07  5.95977028e-08  6.20000000e-01 
 6.30000000e-01  3.32805892e-09  4.58848724e-01  4.58848724e-01  3.33986956e-09  3.42684088e-09  4.58848724e-01  3.19127284e-09  1.61998680e-07  5.95975251e-08  6.30000000e-01 
 6.40000000e-01  3.32805898e-09  4.58848718e-01  4.58848718e-01  3.33986956e-09  3.42684088e-09  4.58848718e-01  3.19127278e-09  1.61998669e-07  5.95976459e-08  6.40000000e-01 
 6.50000000e-01  3.32805898e-09  4.58848721e-01  4.58848721e-01  3.33986956e-09  3.42684088e-09  4.58848721e-01  3.19127284e-09  1.61998655e-07  5.95973546e-08  6.50000000e-01 
 6.60000000e-01  3.32805898e-09  4.58848731e-01  4.58848731e-01  3.33986956e-09  3.42684088e-09  4.58848731e-01  3.19127278e-09  1.61998703e-07  5.95973688e-08  6.60000000e-01 
 6.70000000e-01  3.32805898e-09  4.58848731e-01  4.58848731e-01  3.33986956e-09  3.42684088e-09  4.58848731e-01  3.19127284e-09  1.61998685e-07  5.95972622e-08  6.70000000e-01 
 6.80000000e-01  3.32805893e-09  4.58848728e-01  4.58848728e-01  3.33986956e-09  3.42684088e-09  4.58848728e-01  3.19127284e-09  1.61998688e-07  5.95972764e-08  6.80000000e-01 
 6.90000000e-01  3.32805898e-09  4.58848704e-01  4.58848704e-01  3.33986956e-09  3.42684088e-09  4.58848704e-01  3.19127284e-09  1.61998649e-07  5.95972196e-08  6.90000000e-01 
 7.00000000e-01  3.32805898e-09  4.58848713e-01  4.58848713e-01  3.33986962e-09  3.42684088e-09  4.58848713e-01  3.19127278e-09  1.61998660e-07  5.95971912e-08  7.00000000e-01 
 7.10000000e-01  3.32805898e-09  4.58848688e-01  4.58848688e-01  3.33986956e-09  3.42684088e-09  4.58848688e-01  3.19127278e-09  1.61998641e-07  5.95970278e-08  7.10000000e-01 
 7.20000000e-01  3.32805898e-09  4.58848699e-01  4.58848699e-01  3.33986956e-09  3.42684088e-09  4.58848699e-01  3.19127284e-09  1.61998639e-07  5.95969993e-08  7.20000000e-01 
 7.30000000e-01  3.32805899e-09  4.58848758e-01  4.58848758e-01  3.33986957e-09  3.42684089e-09  4.58848758e-01  3.19127278e-09  1.61998726e-07  5.95969638e-08  7.30000000e-01 
 7.40000000e-01  3.32805898e-09  4.58848713e-01  4.58848713e-01  3.33986956e-09  3.42684088e-09  4.58848713e-01  3.19127278e-09  1.61998668e-07  5.95969141e-08  7.40000000e-01 
 7.50000000e-01  3.32805898e-09  4.58848708e-01  4.58848708e-01  3.33986956e-09  3.42684088e-09  4.58848708e-01  3.19127284e-09  1.61998641e-07  5.95968572e-08  7.50000000e-01 
 7.60000000e-01  3.32805898e-09  4.58848714e-01  4.58848714e-01  3.33986956e-09  3.42684088e-09  4.58848714e-01  3.19127284e-09  1.61998662e-07  5.95968075e-08  7.60000000e-01 
 7.70000000e-01  3.32805898e-09  4.58848702e-01  4.58848702e-01  3.33986956e-09  3.42684088e-09  4.58848702e-01  3.19127278e-09  1.61998647e-07  5.95966583e-08  7.70000000e-01 
 7.80000000e-01  3.32805898e-09  4.58848738e-01  4.58848738e-01  3.33986956e-09  3.42684088e-09  4.58848738e-01  3.19127284e-09  1.61998693e-07  5.95966867e-08  7.80000000e-01 
 7.90000000e-01  3.32805892e-09  4.58848715e-01  4.58848715e-01  3.33986962e-09  3.42684088e-09  4.58848715e-01  3.19127284e-09  1.61998659e-07  5.95964451e-08  7.90000000e-01 
 8.00000000e-01  3.32805898e-09  4.58848720e-01  4.58848721e-01  3.33986962e-09  3.42684088e-09  4.58848720e-01  3.19127284e-09  1.61998661e-07  5.95965375e-08  8.00000000e-01 
 8.10000000e-01  3.32805898e-09  4.58848703e-01  4.58848703e-01  3.33986956e-09  3.42684088e-09  4.58848703e-01  3.19127278e-09  1.61998626e-07  5.95964593e-08  8.10000000e-01 
 8.20000000e-01  3.32805892e-09  4.58848713e-01  4.58848713e-01  3.33986956e-09  3.42684088e-09  4.58848713e-01  3.19127284e-09  1.61998663e-07  5.95963598e-08  8.20000000e-01 
 8.30000000e-01  3.32805898e-09  4.58848709e-01  4.58848709e-01  3.33986956e-09  3.42684088e-09  4.58848709e-01  3.19127284e-09  1.61998642e-07  5.95962462e-08  8.30000000e-01 
 8.40000000e-01  3.32805898e-09  4.58848695e-01  4.58848695e-01  3.33986962e-09  3.42684088e-09  4.58848695e-01  3.19127278e-09  1.61998632e-07  5.95963243e-08  8.40000000e-01 
 8.50000000e-01  3.32805898e-09  4.58848719e-01  4.58848719e-01  3.33986956e-09  3.42684088e-09  4.58848719e-01  3.19127278e-09  1.61998675e-07  5.95961609e-08  8.50000000e-01 
 8.60000000e-01  3.32805892e-09  4.58848695e-01  4.58848695e-01  3.33986962e-09  3.42684088e-09  4.58848695e-01  3.19127284e-09  1.61998631e-07  5.95960898e-08  8.60000000e-01 
 8.70000000e-01  3.32805898e-09  4.58848723e-01  4.58848723e-01  3.33986956e-09  3.42684088e-09  4.58848723e-01  3.19127278e-09  1.61998686e-07  5.95960685e-08  8.70000000e-01 
 8.80000000e-01  3.32805898e-09  4.58848692e-01  4.58848692e-01  3.33986962e-09  3.42684088e-09  4.58848692e-01  3.19127284e-09  1.61998636e-07  5.95959193e-08  8.80000000e-01 
 8.90000000e-01  3.32805898e-09  4.58848706e-01  4.58848706e-01  3.33986962e-09  3.42684088e-09  4.58848706e-01  3.19127278e-09  1.61998645e-07  5.95958340e-08  8.90000000e-01 
 9.00000000e-01  3.32805898e-09  4.58848723e-01  4.58848723e-01  3.33986956e-09  3.42684088e-09  4.58848723e-01  3.19127284e-09  1.61998677e-07  5.95958909e-08  9.00000000e-01 
 9.10000000e-01  3.32805898e-09  4.58848726e-01  4.58848726e-01  3.33986956e-09  3.42684088e-09  4.58848726e-01  3.19127278e-09  1.61998672e-07  5.95957559e-08  9.10000000e-01 
 9.20000000e-01  3.32805898e-09  4.58848701e-01  4.58848701e-01  3.33986956e-09  3.42684088e-09  4.58848701e-01  3.19127278e-09  1.61998639e-07  5.95958056e-08  9.20000000e-01 
 9.30000000e-01  3.32805898e-09  4.58848716e-01  4.58848716e-01  3.33986962e-09  3.42684088e-09  4.58848716e-01  3.19127278e-09  1.61998673e-07  5.95957843e-08  9.30000000e-01 
 9.40000000e-01  3.32805898e-09  4.58848727e-01  4.58848727e-01  3.33986956e-09  3.42684088e-09  4.58848727e-01  3.19127278e-09  1.61998677e-07  5.95955711e-08  9.40000000e-01 
 9.50000000e-01  3.32805892e-09  4.58848722e-01  4.58848722e-01  3.33986962e-09  3.42684088e-09  4.58848722e-01  3.19127278e-09  1.61998670e-07  5.95955427e-08  9.50000000e-01 
 9.60000000e-01  3.32805892e-09  4.58848711e-01  4.58848711e-01  3.33986956e-09  3.42684088e-09  4.58848711e-01  3.19127278e-09  1.61998662e-07  5.95954859e-08  9.60000000e-01 
 9.70000000e-01  3.32805898e-09  4.58848723e-01  4.58848724e-01  3.33986956e-09  3.42684088e-09  4.58848724e-01  3.19127284e-09  1.61998668e-07  5.95954148e-08  9.70000000e-01 
 9.80000000e-01  3.32805892e-09  4.58848714e-01  4.58848714e-01  3.33986962e-09  3.42684088e-09  4.58848714e-01  3.19127278e-09  1.61998670e-07  5.95953509e-08  9.80000000e-01 
 9.90000000e-01  3.32805898e-09  4.58848697e-01  4.58848697e-01  3.33986956e-09  3.42684088e-09  4.58848697e-01  3.19127278e-09  1.61998638e-07  5.95953296e-08  9.90000000e-01 
 1.00000000e+00  3.32805898e-09  4.58848701e-01  4.58848701e-01  3.33986962e-09  3.42684088e-09  4.58848701e-01  3.19127284e-09  1.61998641e-07  5.95951875e-08  1.00000000e+00 
 1.01000000e+00  3.32805898e-09  4.58848732e-01  4.58848732e-01  3.33986962e-09  3.42684088e-09  4.58848732e-01  3.19127284e-09  1.61998676e-07  5.95952017e-08  1.01000000e+00 
 1.02000000e+00  3.32805898e-09  4.58848723e-01  4.58848724e-01  3.33986962e-09  3.42684088e-09  4.58848724e-01  3.19127284e-09  1.61998683e-07  5.95951306e-08  1.02000000e+00 
 1.03000000e+00  3.32805898e-09  4.58848707e-01  4.58848707e-01  3.33986956e-09  3.42684088e-09  4.58848707e-01  3.19127284e-09  1.61998642e-07  5.95950596e-08  1.03000000e+00 
 1.04000000e+00  3.32805898e-09  4.58848729e-01  4.58848729e-01  3.33986962e-09  3.42684088e-09  4.58848729e-01  3.19127284e-09  1.61998676e-07  5.95950453e-08  1.04000000e+00 
 1.05000000e+00  3.32805898e-09  4.58848718e-01  4.58848719e-01  3.33986956e-09  3.42684088e-09  4.58848718e-01  3.19127284e-09  1.61998655e-07  5.95948606e-08  1.05000000e+00 
 1.06000000e+00  3.32805892e-09  4.58848710e-01  4.58848710e-01  3.33986962e-09  3.42684088e-09  4.58848710e-01  3.19127278e-09  1.61998663e-07  5.95948890e-08  1.06000000e+00 
 1.07000000e+00  3.32805898e-09  4.58848716e-01  4.58848716e-01  3.33986962e-09  3.42684088e-09  4.58848716e-01  3.19127278e-09  1.61998675e-07  5.95948322e-08  1.07000000e+00 
 1.08000000e+00  3.32805898e-09  4.58848698e-01  4.58848698e-01  3.33986962e-09  3.42684088e-09  4.58848698e-01  3.19127284e-09  1.61998624e-07  5.95946830e-08  1.08000000e+00 
 1.09000000e+00  3.32805898e-09  4.58848732e-01  4.58848732e-01  3.33986956e-09  3.42684088e-09  4.58848732e-01  3.19127278e-09  1.61998692e-07  5.95947043e-08  1.09000000e+00 
 1.10000000e+00  3.32805898e-09  4.58848716e-01  4.58848716e-01  3.33986956e-09  3.42684088e-09  4.58848716e-01  3.19127278e-09  1.61998687e-07  5.95945551e-08  1.10000000e+00 
