 v-sweep         v(b0)           v(b1)           v(b2)           v(b3)           v(b4)           v(b5)           v(b6)           i(vbias)        i(viout)        v(vout)        
 0.00000000e+00  4.58006611e-01  3.14358780e-09  4.58006611e-01  4.58006611e-01  3.16519616e-09  4.58006611e-01  4.58006611e-01  1.56987291e-07  1.62604858e-07  0.00000000e+00 
 1.00000000e-02  4.58006607e-01  3.14358778e-09  4.58006606e-01  4.58006606e-01  3.16519625e-09  4.58006607e-01  4.58006607e-01  1.56987305e-07  1.62604453e-07  1.00000000e-02 
 2.00000000e-02  4.58006605e-01  3.14358778e-09  4.58006605e-01  4.58006605e-01  3.16519624e-09  4.58006605e-01  4.58006605e-01  1.56987294e-07  1.62603998e-07  2.00000000e-02 
 3.00000000e-02  4.58006617e-01  3.14358778e-09  4.58006617e-01  4.58006617e-01  3.16519619e-09  4.58006617e-01  4.58006617e-01  1.56987317e-07  1.62603768e-07  3.00000000e-02 
 4.00000000e-02  4.58006605e-01  3.14358778e-09  4.58006605e-01  4.58006605e-01  3.16519625e-09  4.58006605e-01  4.58006605e-01  1.56987296e-07  1.62603281e-07  4.00000000e-02 
 5.00000000e-02  4.58006576e-01  3.14358777e-09  4.58006576e-01  4.58006576e-01  3.16519619e-09  4.58006576e-01  4.58006576e-01  1.56987253e-07  1.62602822e-07  5.00000000e-02 
 6.00000000e-02  4.58006622e-01  3.14358778e-09  4.58006621e-01  4.58006621e-01  3.16519625e-09  4.58006622e-01  4.58006622e-01  1.56987321e-07  1.62602521e-07  6.00000000e-02 
 7.00000000e-02  4.58006596e-01  3.14358778e-09  4.58006596e-01  4.58006596e-01  3.16519619e-09  4.58006596e-01  4.58006596e-01  1.56987270e-07  1.62602104e-07  7.00000000e-02 
 8.00000000e-02  4.58006622e-01  3.14358778e-09  4.58006622e-01  4.58006622e-01  3.16519619e-09  4.58006622e-01  4.58006622e-01  1.56987321e-07  1.62601914e-07  8.00000000e-02 
 9.00000000e-02  4.58006610e-01  3.14358778e-09  4.58006610e-01  4.58006610e-01  3.16519625e-09  4.58006610e-01  4.58006610e-01  1.56987297e-07  1.62601474e-07  9.00000000e-02 
 1.00000000e-01  4.58006619e-01  3.14358778e-09  4.58006619e-01  4.58006619e-01  3.16519619e-09  4.58006619e-01  4.58006619e-01  1.56987312e-07  1.62601248e-07  1.00000000e-01 
 1.10000000e-01  4.58006605e-01  3.14358778e-09  4.58006605e-01  4.58006605e-01  3.16519619e-09  4.58006605e-01  4.58006605e-01  1.56987300e-07  1.62600920e-07  1.10000000e-01 
 1.20000000e-01  4.58006621e-01  3.14358778e-09  4.58006621e-01  4.58006621e-01  3.16519619e-09  4.58006621e-01  4.58006621e-01  1.56987315e-07  1.62600710e-07  1.20000000e-01 
 1.30000000e-01  4.58006588e-01  3.14358777e-09  4.58006588e-01  4.58006588e-01  3.16519619e-09  4.58006588e-01  4.58006588e-01  1.56987264e-07  1.62600355e-07  1.30000000e-01 
 1.40000000e-01  4.58006625e-01  3.14358778e-09  4.58006625e-01  4.58006625e-01  3.16519619e-09  4.58006625e-01  4.58006625e-01  1.56987350e-07  1.62600211e-07  1.40000000e-01 
 1.50000000e-01  4.58006572e-01  3.14358772e-09  4.58006572e-01  4.58006572e-01  3.16519619e-09  4.58006572e-01  4.58006572e-01  1.56987249e-07  1.62599802e-07  1.50000000e-01 
 1.60000000e-01  4.58006619e-01  3.14358778e-09  4.58006619e-01  4.58006619e-01  3.16519619e-09  4.58006619e-01  4.58006619e-01  1.56987319e-07  1.62599628e-07  1.60000000e-01 
 1.70000000e-01  4.58006599e-01  3.14358778e-09  4.58006599e-01  4.58006599e-01  3.16519619e-09  4.58006599e-01  4.58006599e-01  1.56987296e-07  1.62599276e-07  1.70000000e-01 
 1.80000000e-01  4.58006605e-01  3.14358778e-09  4.58006605e-01  4.58006605e-01  3.16519619e-09  4.58006606e-01  4.58006606e-01  1.56987291e-07  1.62599219e-07  1.80000000e-01 
 1.90000000e-01  4.58006624e-01  3.14358778e-09  4.58006624e-01  4.58006624e-01  3.16519619e-09  4.58006624e-01  4.58006624e-01  1.56987322e-07  1.62599017e-07  1.90000000e-01 
 2.00000000e-01  4.58006623e-01  3.14358778e-09  4.58006622e-01  4.58006623e-01  3.16519619e-09  4.58006623e-01  4.58006623e-01  1.56987321e-07  1.62598766e-07  2.00000000e-01 
 2.10000000e-01  4.58006611e-01  3.14358778e-09  4.58006611e-01  4.58006611e-01  3.16519619e-09  4.58006611e-01  4.58006611e-01  1.56987291e-07  1.62598580e-07  2.10000000e-01 
 2.20000000e-01  4.58006607e-01  3.14358778e-09  4.58006607e-01  4.58006607e-01  3.16519619e-09  4.58006607e-01  4.58006607e-01  1.56987298e-07  1.62598369e-07  2.20000000e-01 
 2.30000000e-01  4.58006613e-01  3.14358778e-09  4.58006613e-01  4.58006613e-01  3.16519625e-09  4.58006613e-01  4.58006613e-01  1.56987296e-07  1.62598248e-07  2.30000000e-01 
 2.40000000e-01  4.58006620e-01  3.14358778e-09  4.58006620e-01  4.58006620e-01  3.16519619e-09  4.58006620e-01  4.58006620e-01  1.56987308e-07  1.62598162e-07  2.40000000e-01 
 2.50000000e-01  4.58006586e-01  3.14358777e-09  4.58006586e-01  4.58006586e-01  3.16519619e-09  4.58006586e-01  4.58006586e-01  1.56987256e-07  1.62597779e-07  2.50000000e-01 
 2.60000000e-01  4.58006634e-01  3.14358778e-09  4.58006634e-01  4.58006634e-01  3.16519619e-09  4.58006634e-01  4.58006634e-01  1.56987343e-07  1.62597788e-07  2.60000000e-01 
 2.70000000e-01  4.58006589e-01  3.14358777e-09  4.58006589e-01  4.58006589e-01  3.16519625e-09  4.58006589e-01  4.58006589e-01  1.56987284e-07  1.62597535e-07  2.70000000e-01 
 2.80000000e-01  4.58006636e-01  3.14358778e-09  4.58006636e-01  4.58006636e-01  3.16519619e-09  4.58006636e-01  4.58006636e-01  1.56987344e-07  1.62597424e-07  2.80000000e-01 
 2.90000000e-01  4.58006617e-01  3.14358778e-09  4.58006617e-01  4.58006617e-01  3.16519625e-09  4.58006617e-01  4.58006617e-01  1.56987317e-07  1.62597207e-07  2.90000000e-01 
 3.00000000e-01  4.58006607e-01  3.14358778e-09  4.58006606e-01  4.58006607e-01  3.16519619e-09  4.58006607e-01  4.58006607e-01  1.56987300e-07  1.62597001e-07  3.00000000e-01 
 3.10000000e-01  4.58006618e-01  3.14358778e-09  4.58006618e-01  4.58006618e-01  3.16519619e-09  4.58006618e-01  4.58006618e-01  1.56987308e-07  1.62596873e-07  3.10000000e-01 
 3.20000000e-01  4.58006597e-01  3.14358778e-09  4.58006597e-01  4.58006597e-01  3.16519625e-09  4.58006597e-01  4.58006597e-01  1.56987274e-07  1.62596645e-07  3.20000000e-01 
 3.30000000e-01  4.58006627e-01  3.14358778e-09  4.58006627e-01  4.58006627e-01  3.16519619e-09  4.58006627e-01  4.58006627e-01  1.56987340e-07  1.62596763e-07  3.30000000e-01 
 3.40000000e-01  4.58006592e-01  3.14358777e-09  4.58006592e-01  4.58006592e-01  3.16519619e-09  4.58006592e-01  4.58006592e-01  1.56987269e-07  1.62596454e-07  3.40000000e-01 
 3.50000000e-01  4.58006620e-01  3.14358778e-09  4.58006620e-01  4.58006620e-01  3.16519625e-09  4.58006620e-01  4.58006620e-01  1.56987323e-07  1.62596422e-07  3.50000000e-01 
 3.60000000e-01  4.58006606e-01  3.14358778e-09  4.58006606e-01  4.58006606e-01  3.16519619e-09  4.58006606e-01  4.58006606e-01  1.56987280e-07  1.62596269e-07  3.60000000e-01 
 3.70000000e-01  4.58006614e-01  3.14358778e-09  4.58006614e-01  4.58006614e-01  3.16519619e-09  4.58006614e-01  4.58006614e-01  1.56987303e-07  1.62596034e-07  3.70000000e-01 
 3.80000000e-01  4.58006617e-01  3.14358778e-09  4.58006617e-01  4.58006617e-01  3.16519619e-09  4.58006617e-01  4.58006617e-01  1.56987309e-07  1.62595985e-07  3.80000000e-01 
 3.90000000e-01  4.58006623e-01  3.14358778e-09  4.58006623e-01  4.58006623e-01  3.16519625e-09  4.58006623e-01  4.58006623e-01  1.56987308e-07  1.62595878e-07  3.90000000e-01 
 4.00000000e-01  4.58006604e-01  3.14358778e-09  4.58006604e-01  4.58006604e-01  3.16519619e-09  4.58006604e-01  4.58006604e-01  1.56987302e-07  1.62595747e-07  4.00000000e-01 
 4.10000000e-01  4.58006613e-01  3.14358778e-09  4.58006613e-01  4.58006613e-01  3.16519619e-09  4.58006613e-01  4.58006613e-01  1.56987293e-07  1.62595711e-07  4.10000000e-01 
 4.20000000e-01  4.58006610e-01  3.14358778e-09  4.58006610e-01  4.58006610e-01  3.16519625e-09  4.58006610e-01  4.58006610e-01  1.56987288e-07  1.62595455e-07  4.20000000e-01 
 4.30000000e-01  4.58006601e-01  3.14358778e-09  4.58006601e-01  4.58006601e-01  3.16519619e-09  4.58006601e-01  4.58006601e-01  1.56987273e-07  1.62595331e-07  4.30000000e-01 
 4.40000000e-01  4.58006593e-01  3.14358777e-09  4.58006593e-01  4.58006593e-01  3.16519619e-09  4.58006593e-01  4.58006593e-01  1.56987273e-07  1.62595139e-07  4.40000000e-01 
 4.50000000e-01  4.58006620e-01  3.14358778e-09  4.58006620e-01  4.58006620e-01  3.16519619e-09  4.58006620e-01  4.58006620e-01  1.56987312e-07  1.62595157e-07  4.50000000e-01 
 4.60000000e-01  4.58006610e-01  3.14358778e-09  4.58006610e-01  4.58006610e-01  3.16519619e-09  4.58006610e-01  4.58006610e-01  1.56987307e-07  1.62595033e-07  4.60000000e-01 
 4.70000000e-01  4.58006624e-01  3.14358778e-09  4.58006624e-01  4.58006624e-01  3.16519625e-09  4.58006624e-01  4.58006624e-01  1.56987311e-07  1.62594905e-07  4.70000000e-01 
 4.80000000e-01  4.58006610e-01  3.14358778e-09  4.58006610e-01  4.58006610e-01  3.16519619e-09  4.58006610e-01  4.58006610e-01  1.56987283e-07  1.62594802e-07  4.80000000e-01 
 4.90000000e-01  4.58006621e-01  3.14358778e-09  4.58006621e-01  4.58006621e-01  3.16519625e-09  4.58006621e-01  4.58006621e-01  1.56987329e-07  1.62594681e-07  4.90000000e-01 
 5.00000000e-01  4.58006603e-01  3.14358778e-09  4.58006603e-01  4.58006603e-01  3.16519619e-09  4.58006603e-01  4.58006603e-01  1.56987296e-07  1.62594400e-07  5.00000000e-01 
 5.10000000e-01  4.58006625e-01  3.14358778e-09  4.58006625e-01  4.58006625e-01  3.16519625e-09  4.58006625e-01  4.58006625e-01  1.56987321e-07  1.62594517e-07  5.10000000e-01 
 5.20000000e-01  4.58006615e-01  3.14358778e-09  4.58006615e-01  4.58006615e-01  3.16519625e-09  4.58006615e-01  4.58006615e-01  1.56987306e-07  1.62594350e-07  5.20000000e-01 
 5.30000000e-01  4.58006611e-01  3.14358778e-09  4.58006611e-01  4.58006611e-01  3.16519619e-09  4.58006611e-01  4.58006611e-01  1.56987305e-07  1.62594095e-07  5.30000000e-01 
 5.40000000e-01  4.58006627e-01  3.14358778e-09  4.58006627e-01  4.58006627e-01  3.16519619e-09  4.58006627e-01  4.58006627e-01  1.56987321e-07  1.62594059e-07  5.40000000e-01 
 5.50000000e-01  4.58006615e-01  3.14358778e-09  4.58006615e-01  4.58006615e-01  3.16519619e-09  4.58006615e-01  4.58006615e-01  1.56987313e-07  1.62594066e-07  5.50000000e-01 
 5.60000000e-01  4.58006623e-01  3.14358778e-09  4.58006623e-01  4.58006623e-01  3.16519619e-09  4.58006623e-01  4.58006623e-01  1.56987308e-07  1.62593931e-07  5.60000000e-01 
 5.70000000e-01  4.58006615e-01  3.14358778e-09  4.58006615e-01  4.58006615e-01  3.16519625e-09  4.58006615e-01  4.58006615e-01  1.56987294e-07  1.62593768e-07  5.70000000e-01 
 5.80000000e-01  4.58006617e-01  3.14358778e-09  4.58006617e-01  4.58006617e-01  3.16519619e-09  4.58006617e-01  4.58006617e-01  1.56987298e-07  1.62593651e-07  5.80000000e-01 
 5.90000000e-01  4.58006636e-01  3.14358778e-09  4.58006636e-01  4.58006636e-01  3.16519619e-09  4.58006636e-01  4.58006636e-01  1.56987332e-07  1.62593636e-07  5.90000000e-01 
 6.00000000e-01  4.58006631e-01  3.14358778e-09  4.58006631e-01  4.58006631e-01  3.16519619e-09  4.58006631e-01  4.58006631e-01  1.56987331e-07  1.62593523e-07  6.00000000e-01 
 6.10000000e-01  4.58006612e-01  3.14358778e-09  4.58006612e-01  4.58006612e-01  3.16519619e-09  4.58006612e-01  4.58006612e-01  1.56987290e-07  1.62593302e-07  6.10000000e-01 
 6.20000000e-01  4.58006613e-01  3.14358778e-09  4.58006613e-01  4.58006613e-01  3.16519625e-09  4.58006613e-01  4.58006613e-01  1.56987304e-07  1.62593139e-07  6.20000000e-01 
 6.30000000e-01  4.58006612e-01  3.14358778e-09  4.58006611e-01  4.58006612e-01  3.16519625e-09  4.58006612e-01  4.58006612e-01  1.56987306e-07  1.62593111e-07  6.30000000e-01 
 6.40000000e-01  4.58006603e-01  3.14358778e-09  4.58006603e-01  4.58006603e-01  3.16519625e-09  4.58006603e-01  4.58006603e-01  1.56987283e-07  1.62593032e-07  6.40000000e-01 
 6.50000000e-01  4.58006610e-01  3.14358778e-09  4.58006610e-01  4.58006610e-01  3.16519625e-09  4.58006610e-01  4.58006611e-01  1.56987301e-07  1.62592841e-07  6.50000000e-01 
 6.60000000e-01  4.58006597e-01  3.14358778e-09  4.58006597e-01  4.58006597e-01  3.16519625e-09  4.58006597e-01  4.58006597e-01  1.56987280e-07  1.62592620e-07  6.60000000e-01 
 6.70000000e-01  4.58006640e-01  3.14358778e-09  4.58006640e-01  4.58006640e-01  3.16519625e-09  4.58006640e-01  4.58006640e-01  1.56987351e-07  1.62592762e-07  6.70000000e-01 
 6.80000000e-01  4.58006607e-01  3.14358778e-09  4.58006607e-01  4.58006607e-01  3.16519625e-09  4.58006607e-01  4.58006608e-01  1.56987296e-07  1.62592492e-07  6.80000000e-01 
 6.90000000e-01  4.58006598e-01  3.14358778e-09  4.58006598e-01  4.58006598e-01  3.16519619e-09  4.58006598e-01  4.58006598e-01  1.56987291e-07  1.62592428e-07  6.90000000e-01 
 7.00000000e-01  4.58006613e-01  3.14358778e-09  4.58006613e-01  4.58006613e-01  3.16519625e-09  4.58006613e-01  4.58006613e-01  1.56987308e-07  1.62592180e-07  7.00000000e-01 
 7.10000000e-01  4.58006597e-01  3.14358778e-09  4.58006596e-01  4.58006597e-01  3.16519625e-09  4.58006597e-01  4.58006597e-01  1.56987287e-07  1.62592087e-07  7.10000000e-01 
 7.20000000e-01  4.58006626e-01  3.14358778e-09  4.58006626e-01  4.58006626e-01  3.16519619e-09  4.58006626e-01  4.58006626e-01  1.56987332e-07  1.62592073e-07  7.20000000e-01 
 7.30000000e-01  4.58006622e-01  3.14358778e-09  4.58006622e-01  4.58006622e-01  3.16519619e-09  4.58006622e-01  4.58006622e-01  1.56987317e-07  1.62591896e-07  7.30000000e-01 
 7.40000000e-01  4.58006637e-01  3.14358778e-09  4.58006637e-01  4.58006637e-01  3.16519619e-09  4.58006637e-01  4.58006637e-01  1.56987328e-07  1.62591931e-07  7.40000000e-01 
 7.50000000e-01  4.58006593e-01  3.14358777e-09  4.58006592e-01  4.58006592e-01  3.16519619e-09  4.58006593e-01  4.58006593e-01  1.56987269e-07  1.62591725e-07  7.50000000e-01 
 7.60000000e-01  4.58006608e-01  3.14358778e-09  4.58006608e-01  4.58006608e-01  3.16519619e-09  4.58006608e-01  4.58006608e-01  1.56987294e-07  1.62591704e-07  7.60000000e-01 
 7.70000000e-01  4.58006633e-01  3.14358778e-09  4.58006633e-01  4.58006633e-01  3.16519619e-09  4.58006633e-01  4.58006633e-01  1.56987335e-07  1.62591554e-07  7.70000000e-01 
 7.80000000e-01  4.58006619e-01  3.14358778e-09  4.58006619e-01  4.58006619e-01  3.16519625e-09  4.58006619e-01  4.58006619e-01  1.56987308e-07  1.62591441e-07  7.80000000e-01 
 7.90000000e-01  4.58006615e-01  3.14358778e-09  4.58006615e-01  4.58006615e-01  3.16519625e-09  4.58006615e-01  4.58006615e-01  1.56987309e-07  1.62591249e-07  7.90000000e-01 
 8.00000000e-01  4.58006626e-01  3.14358778e-09  4.58006626e-01  4.58006626e-01  3.16519625e-09  4.58006626e-01  4.58006626e-01  1.56987317e-07  1.62591171e-07  8.00000000e-01 
 8.10000000e-01  4.58006609e-01  3.14358778e-09  4.58006609e-01  4.58006609e-01  3.16519619e-09  4.58006609e-01  4.58006609e-01  1.56987296e-07  1.62590993e-07  8.10000000e-01 
 8.20000000e-01  4.58006612e-01  3.14358778e-09  4.58006612e-01  4.58006612e-01  3.16519625e-09  4.58006612e-01  4.58006612e-01  1.56987300e-07  1.62590894e-07  8.20000000e-01 
 8.30000000e-01  4.58006608e-01  3.14358778e-09  4.58006608e-01  4.58006608e-01  3.16519619e-09  4.58006608e-01  4.58006608e-01  1.56987275e-07  1.62590766e-07  8.30000000e-01 
 8.40000000e-01  4.58006593e-01  3.14358777e-09  4.58006593e-01  4.58006593e-01  3.16519619e-09  4.58006593e-01  4.58006593e-01  1.56987279e-07  1.62590602e-07  8.40000000e-01 
 8.50000000e-01  4.58006640e-01  3.14358778e-09  4.58006640e-01  4.58006640e-01  3.16519619e-09  4.58006640e-01  4.58006640e-01  1.56987345e-07  1.62590737e-07  8.50000000e-01 
 8.60000000e-01  4.58006611e-01  3.14358778e-09  4.58006611e-01  4.58006611e-01  3.16519619e-09  4.58006611e-01  4.58006611e-01  1.56987300e-07  1.62590389e-07  8.60000000e-01 
 8.70000000e-01  4.58006623e-01  3.14358778e-09  4.58006623e-01  4.58006623e-01  3.16519619e-09  4.58006623e-01  4.58006623e-01  1.56987324e-07  1.62590247e-07  8.70000000e-01 
 8.80000000e-01  4.58006593e-01  3.14358777e-09  4.58006593e-01  4.58006593e-01  3.16519625e-09  4.58006593e-01  4.58006593e-01  1.56987270e-07  1.62590091e-07  8.80000000e-01 
 8.90000000e-01  4.58006632e-01  3.14358778e-09  4.58006632e-01  4.58006632e-01  3.16519619e-09  4.58006632e-01  4.58006632e-01  1.56987326e-07  1.62590197e-07  8.90000000e-01 
 9.00000000e-01  4.58006595e-01  3.14358778e-09  4.58006595e-01  4.58006595e-01  3.16519625e-09  4.58006595e-01  4.58006595e-01  1.56987282e-07  1.62589956e-07  9.00000000e-01 
 9.10000000e-01  4.58006599e-01  3.14358778e-09  4.58006599e-01  4.58006599e-01  3.16519619e-09  4.58006599e-01  4.58006599e-01  1.56987295e-07  1.62589814e-07  9.10000000e-01 
 9.20000000e-01  4.58006597e-01  3.14358778e-09  4.58006597e-01  4.58006597e-01  3.16519619e-09  4.58006597e-01  4.58006597e-01  1.56987273e-07  1.62589643e-07  9.20000000e-01 
 9.30000000e-01  4.58006624e-01  3.14358778e-09  4.58006624e-01  4.58006624e-01  3.16519619e-09  4.58006624e-01  4.58006624e-01  1.56987317e-07  1.62589686e-07  9.30000000e-01 
 9.40000000e-01  4.58006611e-01  3.14358778e-09  4.58006611e-01  4.58006611e-01  3.16519619e-09  4.58006611e-01  4.58006611e-01  1.56987300e-07  1.62589544e-07  9.40000000e-01 
 9.50000000e-01  4.58006601e-01  3.14358778e-09  4.58006601e-01  4.58006601e-01  3.16519619e-09  4.58006601e-01  4.58006601e-01  1.56987277e-07  1.62589266e-07  9.50000000e-01 
 9.60000000e-01  4.58006609e-01  3.14358778e-09  4.58006608e-01  4.58006609e-01  3.16519619e-09  4.58006609e-01  4.58006609e-01  1.56987300e-07  1.62589203e-07  9.60000000e-01 
 9.70000000e-01  4.58006623e-01  3.14358778e-09  4.58006623e-01  4.58006623e-01  3.16519619e-09  4.58006623e-01  4.58006623e-01  1.56987310e-07  1.62589252e-07  9.70000000e-01 
 9.80000000e-01  4.58006617e-01  3.14358778e-09  4.58006617e-01  4.58006617e-01  3.16519625e-09  4.58006617e-01  4.58006617e-01  1.56987297e-07  1.62588975e-07  9.80000000e-01 
 9.90000000e-01  4.58006628e-01  3.14358778e-09  4.58006628e-01  4.58006628e-01  3.16519625e-09  4.58006628e-01  4.58006628e-01  1.56987328e-07  1.62588911e-07  9.90000000e-01 
 1.00000000e+00  4.58006590e-01  3.14358777e-09  4.58006590e-01  4.58006590e-01  3.16519619e-09  4.58006591e-01  4.58006591e-01  1.56987275e-07  1.62588655e-07  1.00000000e+00 
 1.01000000e+00  4.58006620e-01  3.14358778e-09  4.58006620e-01  4.58006620e-01  3.16519625e-09  4.58006620e-01  4.58006620e-01  1.56987329e-07  1.62588741e-07  1.01000000e+00 
 1.02000000e+00  4.58006615e-01  3.14358778e-09  4.58006615e-01  4.58006615e-01  3.16519619e-09  4.58006615e-01  4.58006615e-01  1.56987305e-07  1.62588442e-07  1.02000000e+00 
 1.03000000e+00  4.58006634e-01  3.14358778e-09  4.58006634e-01  4.58006634e-01  3.16519619e-09  4.58006634e-01  4.58006634e-01  1.56987342e-07  1.62588258e-07  1.03000000e+00 
 1.04000000e+00  4.58006612e-01  3.14358778e-09  4.58006612e-01  4.58006612e-01  3.16519625e-09  4.58006612e-01  4.58006612e-01  1.56987304e-07  1.62588151e-07  1.04000000e+00 
 1.05000000e+00  4.58006615e-01  3.14358778e-09  4.58006615e-01  4.58006615e-01  3.16519619e-09  4.58006615e-01  4.58006615e-01  1.56987311e-07  1.62587980e-07  1.05000000e+00 
 1.06000000e+00  4.58006615e-01  3.14358778e-09  4.58006615e-01  4.58006615e-01  3.16519619e-09  4.58006615e-01  4.58006615e-01  1.56987296e-07  1.62587938e-07  1.06000000e+00 
 1.07000000e+00  4.58006641e-01  3.14358772e-09  4.58006641e-01  4.58006641e-01  3.16519619e-09  4.58006641e-01  4.58006641e-01  1.56987342e-07  1.62587874e-07  1.07000000e+00 
 1.08000000e+00  4.58006625e-01  3.14358778e-09  4.58006625e-01  4.58006625e-01  3.16519619e-09  4.58006625e-01  4.58006625e-01  1.56987318e-07  1.62587618e-07  1.08000000e+00 
 1.09000000e+00  4.58006620e-01  3.14358778e-09  4.58006620e-01  4.58006620e-01  3.16519619e-09  4.58006620e-01  4.58006620e-01  1.56987310e-07  1.62587618e-07  1.09000000e+00 
 1.10000000e+00  4.58006634e-01  3.14358778e-09  4.58006634e-01  4.58006634e-01  3.16519619e-09  4.58006635e-01  4.58006635e-01  1.56987322e-07  1.62587412e-07  1.10000000e+00 
