 v-sweep         v(b0)           v(b1)           v(b2)           v(b3)           v(b4)           v(b5)           v(b6)           i(vbias)        i(viout)        v(vout)        
 0.00000000e+00  3.23137293e-09  4.56258186e-01  3.41417529e-09  4.56258186e-01  4.56258186e-01  3.39452642e-09  4.56258186e-01  1.55690772e-07  1.32831973e-07  0.00000000e+00 
 1.00000000e-02  3.23137296e-09  4.56258208e-01  3.41417531e-09  4.56258209e-01  4.56258209e-01  3.39452640e-09  4.56258208e-01  1.55690818e-07  1.32831550e-07  1.00000000e-02 
 2.00000000e-02  3.23137296e-09  4.56258186e-01  3.41417531e-09  4.56258186e-01  4.56258186e-01  3.39452640e-09  4.56258186e-01  1.55690782e-07  1.32831086e-07  2.00000000e-02 
 3.00000000e-02  3.23137296e-09  4.56258229e-01  3.41417531e-09  4.56258229e-01  4.56258229e-01  3.39452640e-09  4.56258229e-01  1.55690838e-07  1.32830821e-07  3.00000000e-02 
 4.00000000e-02  3.23137296e-09  4.56258206e-01  3.41417531e-09  4.56258206e-01  4.56258206e-01  3.39452640e-09  4.56258206e-01  1.55690813e-07  1.32830380e-07  4.00000000e-02 
 5.00000000e-02  3.23137296e-09  4.56258225e-01  3.41417531e-09  4.56258225e-01  4.56258225e-01  3.39452645e-09  4.56258225e-01  1.55690837e-07  1.32830112e-07  5.00000000e-02 
 6.00000000e-02  3.23137296e-09  4.56258193e-01  3.41417531e-09  4.56258193e-01  4.56258193e-01  3.39452640e-09  4.56258193e-01  1.55690787e-07  1.32829635e-07  6.00000000e-02 
 7.00000000e-02  3.23137296e-09  4.56258194e-01  3.41417531e-09  4.56258194e-01  4.56258194e-01  3.39452640e-09  4.56258194e-01  1.55690786e-07  1.32829422e-07  7.00000000e-02 
 8.00000000e-02  3.23137296e-09  4.56258206e-01  3.41417531e-09  4.56258206e-01  4.56258206e-01  3.39452640e-09  4.56258206e-01  1.55690824e-07  1.32829069e-07  8.00000000e-02 
 9.00000000e-02  3.23137296e-09  4.56258179e-01  3.41417531e-09  4.56258179e-01  4.56258179e-01  3.39452640e-09  4.56258178e-01  1.55690783e-07  1.32828723e-07  9.00000000e-02 
 1.00000000e-01  3.23137296e-09  4.56258218e-01  3.41417531e-09  4.56258218e-01  4.56258218e-01  3.39452640e-09  4.56258218e-01  1.55690829e-07  1.32828585e-07  1.00000000e-01 
 1.10000000e-01  3.23137296e-09  4.56258222e-01  3.41417531e-09  4.56258222e-01  4.56258222e-01  3.39452640e-09  4.56258222e-01  1.55690842e-07  1.32828282e-07  1.10000000e-01 
 1.20000000e-01  3.23137296e-09  4.56258166e-01  3.41417531e-09  4.56258166e-01  4.56258166e-01  3.39452640e-09  4.56258166e-01  1.55690757e-07  1.32827783e-07  1.20000000e-01 
 1.30000000e-01  3.23137296e-09  4.56258212e-01  3.41417531e-09  4.56258213e-01  4.56258212e-01  3.39452640e-09  4.56258212e-01  1.55690832e-07  1.32827728e-07  1.30000000e-01 
 1.40000000e-01  3.23137296e-09  4.56258189e-01  3.41417537e-09  4.56258189e-01  4.56258189e-01  3.39452640e-09  4.56258189e-01  1.55690778e-07  1.32827360e-07  1.40000000e-01 
 1.50000000e-01  3.23137296e-09  4.56258190e-01  3.41417531e-09  4.56258190e-01  4.56258190e-01  3.39452640e-09  4.56258190e-01  1.55690784e-07  1.32827282e-07  1.50000000e-01 
 1.60000000e-01  3.23137296e-09  4.56258200e-01  3.41417531e-09  4.56258200e-01  4.56258200e-01  3.39452640e-09  4.56258200e-01  1.55690805e-07  1.32826949e-07  1.60000000e-01 
 1.70000000e-01  3.23137296e-09  4.56258175e-01  3.41417531e-09  4.56258175e-01  4.56258175e-01  3.39452640e-09  4.56258174e-01  1.55690758e-07  1.32826717e-07  1.70000000e-01 
 1.80000000e-01  3.23137296e-09  4.56258210e-01  3.41417531e-09  4.56258210e-01  4.56258210e-01  3.39452640e-09  4.56258210e-01  1.55690836e-07  1.32826649e-07  1.80000000e-01 
 1.90000000e-01  3.23137296e-09  4.56258197e-01  3.41417531e-09  4.56258197e-01  4.56258197e-01  3.39452640e-09  4.56258197e-01  1.55690804e-07  1.32826441e-07  1.90000000e-01 
 2.00000000e-01  3.23137296e-09  4.56258182e-01  3.41417531e-09  4.56258182e-01  4.56258182e-01  3.39452640e-09  4.56258182e-01  1.55690764e-07  1.32826219e-07  2.00000000e-01 
 2.10000000e-01  3.23137296e-09  4.56258206e-01  3.41417531e-09  4.56258206e-01  4.56258206e-01  3.39452640e-09  4.56258206e-01  1.55690816e-07  1.32826086e-07  2.10000000e-01 
 2.20000000e-01  3.23137296e-09  4.56258188e-01  3.41417531e-09  4.56258188e-01  4.56258188e-01  3.39452640e-09  4.56258188e-01  1.55690785e-07  1.32825965e-07  2.20000000e-01 
 2.30000000e-01  3.23137296e-09  4.56258176e-01  3.41417531e-09  4.56258176e-01  4.56258176e-01  3.39452640e-09  4.56258176e-01  1.55690760e-07  1.32825612e-07  2.30000000e-01 
 2.40000000e-01  3.23137296e-09  4.56258199e-01  3.41417531e-09  4.56258199e-01  4.56258199e-01  3.39452640e-09  4.56258199e-01  1.55690799e-07  1.32825619e-07  2.40000000e-01 
 2.50000000e-01  3.23137296e-09  4.56258192e-01  3.41417531e-09  4.56258192e-01  4.56258192e-01  3.39452640e-09  4.56258192e-01  1.55690791e-07  1.32825429e-07  2.50000000e-01 
 2.60000000e-01  3.23137296e-09  4.56258223e-01  3.41417531e-09  4.56258223e-01  4.56258223e-01  3.39452640e-09  4.56258223e-01  1.55690826e-07  1.32825287e-07  2.60000000e-01 
 2.70000000e-01  3.23137296e-09  4.56258217e-01  3.41417531e-09  4.56258217e-01  4.56258217e-01  3.39452640e-09  4.56258217e-01  1.55690814e-07  1.32825280e-07  2.70000000e-01 
 2.80000000e-01  3.23137296e-09  4.56258195e-01  3.41417531e-09  4.56258195e-01  4.56258195e-01  3.39452640e-09  4.56258195e-01  1.55690804e-07  1.32825054e-07  2.80000000e-01 
 2.90000000e-01  3.23137296e-09  4.56258211e-01  3.41417531e-09  4.56258211e-01  4.56258211e-01  3.39452640e-09  4.56258210e-01  1.55690813e-07  1.32824812e-07  2.90000000e-01 
 3.00000000e-01  3.23137296e-09  4.56258183e-01  3.41417531e-09  4.56258183e-01  4.56258183e-01  3.39452640e-09  4.56258183e-01  1.55690777e-07  1.32824656e-07  3.00000000e-01 
 3.10000000e-01  3.23137296e-09  4.56258194e-01  3.41417531e-09  4.56258194e-01  4.56258194e-01  3.39452640e-09  4.56258194e-01  1.55690780e-07  1.32824653e-07  3.10000000e-01 
 3.20000000e-01  3.23137296e-09  4.56258189e-01  3.41417531e-09  4.56258189e-01  4.56258189e-01  3.39452640e-09  4.56258189e-01  1.55690788e-07  1.32824468e-07  3.20000000e-01 
 3.30000000e-01  3.23137296e-09  4.56258191e-01  3.41417531e-09  4.56258192e-01  4.56258191e-01  3.39452640e-09  4.56258191e-01  1.55690791e-07  1.32824294e-07  3.30000000e-01 
 3.40000000e-01  3.23137296e-09  4.56258205e-01  3.41417531e-09  4.56258206e-01  4.56258205e-01  3.39452640e-09  4.56258205e-01  1.55690802e-07  1.32824344e-07  3.40000000e-01 
 3.50000000e-01  3.23137296e-09  4.56258216e-01  3.41417531e-09  4.56258216e-01  4.56258216e-01  3.39452640e-09  4.56258216e-01  1.55690822e-07  1.32824187e-07  3.50000000e-01 
 3.60000000e-01  3.23137296e-09  4.56258198e-01  3.41417531e-09  4.56258198e-01  4.56258198e-01  3.39452640e-09  4.56258198e-01  1.55690797e-07  1.32823981e-07  3.60000000e-01 
 3.70000000e-01  3.23137296e-09  4.56258189e-01  3.41417531e-09  4.56258189e-01  4.56258189e-01  3.39452640e-09  4.56258189e-01  1.55690777e-07  1.32823896e-07  3.70000000e-01 
 3.80000000e-01  3.23137296e-09  4.56258191e-01  3.41417531e-09  4.56258191e-01  4.56258191e-01  3.39452640e-09  4.56258191e-01  1.55690783e-07  1.32823729e-07  3.80000000e-01 
 3.90000000e-01  3.23137296e-09  4.56258210e-01  3.41417531e-09  4.56258210e-01  4.56258210e-01  3.39452640e-09  4.56258210e-01  1.55690811e-07  1.32823715e-07  3.90000000e-01 
 4.00000000e-01  3.23137296e-09  4.56258189e-01  3.41417531e-09  4.56258189e-01  4.56258189e-01  3.39452640e-09  4.56258189e-01  1.55690780e-07  1.32823601e-07  4.00000000e-01 
 4.10000000e-01  3.23137296e-09  4.56258190e-01  3.41417531e-09  4.56258190e-01  4.56258190e-01  3.39452640e-09  4.56258190e-01  1.55690773e-07  1.32823512e-07  4.10000000e-01 
 4.20000000e-01  3.23137296e-09  4.56258173e-01  3.41417531e-09  4.56258173e-01  4.56258173e-01  3.39452640e-09  4.56258173e-01  1.55690755e-07  1.32823160e-07  4.20000000e-01 
 4.30000000e-01  3.23137296e-09  4.56258205e-01  3.41417531e-09  4.56258205e-01  4.56258205e-01  3.39452640e-09  4.56258205e-01  1.55690817e-07  1.32823224e-07  4.30000000e-01 
 4.40000000e-01  3.23137296e-09  4.56258199e-01  3.41417531e-09  4.56258199e-01  4.56258199e-01  3.39452645e-09  4.56258199e-01  1.55690802e-07  1.32823207e-07  4.40000000e-01 
 4.50000000e-01  3.23137296e-09  4.56258214e-01  3.41417531e-09  4.56258214e-01  4.56258214e-01  3.39452640e-09  4.56258214e-01  1.55690816e-07  1.32823104e-07  4.50000000e-01 
 4.60000000e-01  3.23137296e-09  4.56258198e-01  3.41417537e-09  4.56258198e-01  4.56258198e-01  3.39452640e-09  4.56258198e-01  1.55690806e-07  1.32822933e-07  4.60000000e-01 
 4.70000000e-01  3.23137296e-09  4.56258210e-01  3.41417531e-09  4.56258211e-01  4.56258210e-01  3.39452640e-09  4.56258210e-01  1.55690822e-07  1.32822993e-07  4.70000000e-01 
 4.80000000e-01  3.23137296e-09  4.56258185e-01  3.41417531e-09  4.56258185e-01  4.56258185e-01  3.39452640e-09  4.56258185e-01  1.55690787e-07  1.32822805e-07  4.80000000e-01 
 4.90000000e-01  3.23137296e-09  4.56258163e-01  3.41417531e-09  4.56258163e-01  4.56258163e-01  3.39452640e-09  4.56258163e-01  1.55690746e-07  1.32822628e-07  4.90000000e-01 
 5.00000000e-01  3.23137296e-09  4.56258202e-01  3.41417531e-09  4.56258203e-01  4.56258202e-01  3.39452640e-09  4.56258202e-01  1.55690819e-07  1.32822660e-07  5.00000000e-01 
 5.10000000e-01  3.23137296e-09  4.56258198e-01  3.41417531e-09  4.56258198e-01  4.56258198e-01  3.39452640e-09  4.56258198e-01  1.55690795e-07  1.32822489e-07  5.10000000e-01 
 5.20000000e-01  3.23137296e-09  4.56258186e-01  3.41417531e-09  4.56258186e-01  4.56258186e-01  3.39452640e-09  4.56258185e-01  1.55690779e-07  1.32822354e-07  5.20000000e-01 
 5.30000000e-01  3.23137296e-09  4.56258189e-01  3.41417531e-09  4.56258189e-01  4.56258189e-01  3.39452640e-09  4.56258189e-01  1.55690781e-07  1.32822375e-07  5.30000000e-01 
 5.40000000e-01  3.23137296e-09  4.56258210e-01  3.41417531e-09  4.56258210e-01  4.56258210e-01  3.39452640e-09  4.56258210e-01  1.55690825e-07  1.32822368e-07  5.40000000e-01 
 5.50000000e-01  3.23137296e-09  4.56258208e-01  3.41417531e-09  4.56258208e-01  4.56258208e-01  3.39452640e-09  4.56258208e-01  1.55690800e-07  1.32822198e-07  5.50000000e-01 
 5.60000000e-01  3.23137296e-09  4.56258187e-01  3.41417531e-09  4.56258187e-01  4.56258187e-01  3.39452640e-09  4.56258187e-01  1.55690784e-07  1.32822070e-07  5.60000000e-01 
 5.70000000e-01  3.23137296e-09  4.56258196e-01  3.41417531e-09  4.56258196e-01  4.56258196e-01  3.39452640e-09  4.56258196e-01  1.55690791e-07  1.32822038e-07  5.70000000e-01 
 5.80000000e-01  3.23137296e-09  4.56258200e-01  3.41417531e-09  4.56258200e-01  4.56258200e-01  3.39452640e-09  4.56258200e-01  1.55690793e-07  1.32821860e-07  5.80000000e-01 
 5.90000000e-01  3.23137296e-09  4.56258203e-01  3.41417531e-09  4.56258203e-01  4.56258203e-01  3.39452640e-09  4.56258203e-01  1.55690805e-07  1.32821867e-07  5.90000000e-01 
 6.00000000e-01  3.23137296e-09  4.56258208e-01  3.41417531e-09  4.56258208e-01  4.56258208e-01  3.39452640e-09  4.56258208e-01  1.55690816e-07  1.32821782e-07  6.00000000e-01 
 6.10000000e-01  3.23137296e-09  4.56258208e-01  3.41417531e-09  4.56258208e-01  4.56258208e-01  3.39452640e-09  4.56258208e-01  1.55690812e-07  1.32821782e-07  6.10000000e-01 
 6.20000000e-01  3.23137296e-09  4.56258191e-01  3.41417531e-09  4.56258191e-01  4.56258191e-01  3.39452640e-09  4.56258191e-01  1.55690778e-07  1.32821597e-07  6.20000000e-01 
 6.30000000e-01  3.23137296e-09  4.56258194e-01  3.41417531e-09  4.56258195e-01  4.56258194e-01  3.39452640e-09  4.56258194e-01  1.55690789e-07  1.32821427e-07  6.30000000e-01 
 6.40000000e-01  3.23137296e-09  4.56258231e-01  3.41417531e-09  4.56258231e-01  4.56258231e-01  3.39452640e-09  4.56258231e-01  1.55690846e-07  1.32821512e-07  6.40000000e-01 
 6.50000000e-01  3.23137296e-09  4.56258191e-01  3.41417531e-09  4.56258191e-01  4.56258191e-01  3.39452640e-09  4.56258191e-01  1.55690788e-07  1.32821327e-07  6.50000000e-01 
 6.60000000e-01  3.23137296e-09  4.56258199e-01  3.41417531e-09  4.56258199e-01  4.56258199e-01  3.39452640e-09  4.56258199e-01  1.55690815e-07  1.32821249e-07  6.60000000e-01 
 6.70000000e-01  3.23137296e-09  4.56258184e-01  3.41417531e-09  4.56258184e-01  4.56258184e-01  3.39452640e-09  4.56258183e-01  1.55690767e-07  1.32821093e-07  6.70000000e-01 
 6.80000000e-01  3.23137296e-09  4.56258178e-01  3.41417531e-09  4.56258179e-01  4.56258178e-01  3.39452640e-09  4.56258178e-01  1.55690762e-07  1.32820944e-07  6.80000000e-01 
 6.90000000e-01  3.23137296e-09  4.56258205e-01  3.41417531e-09  4.56258205e-01  4.56258205e-01  3.39452640e-09  4.56258205e-01  1.55690822e-07  1.32821000e-07  6.90000000e-01 
 7.00000000e-01  3.23137296e-09  4.56258192e-01  3.41417531e-09  4.56258192e-01  4.56258192e-01  3.39452640e-09  4.56258192e-01  1.55690801e-07  1.32820844e-07  7.00000000e-01 
 7.10000000e-01  3.23137296e-09  4.56258195e-01  3.41417531e-09  4.56258196e-01  4.56258195e-01  3.39452640e-09  4.56258195e-01  1.55690798e-07  1.32820752e-07  7.10000000e-01 
 7.20000000e-01  3.23137296e-09  4.56258225e-01  3.41417531e-09  4.56258225e-01  4.56258225e-01  3.39452640e-09  4.56258225e-01  1.55690832e-07  1.32820816e-07  7.20000000e-01 
 7.30000000e-01  3.23137296e-09  4.56258209e-01  3.41417531e-09  4.56258209e-01  4.56258209e-01  3.39452640e-09  4.56258209e-01  1.55690807e-07  1.32820652e-07  7.30000000e-01 
 7.40000000e-01  3.23137296e-09  4.56258217e-01  3.41417531e-09  4.56258217e-01  4.56258217e-01  3.39452640e-09  4.56258217e-01  1.55690826e-07  1.32820581e-07  7.40000000e-01 
 7.50000000e-01  3.23137296e-09  4.56258217e-01  3.41417531e-09  4.56258217e-01  4.56258217e-01  3.39452640e-09  4.56258216e-01  1.55690822e-07  1.32820482e-07  7.50000000e-01 
 7.60000000e-01  3.23137296e-09  4.56258185e-01  3.41417531e-09  4.56258185e-01  4.56258185e-01  3.39452640e-09  4.56258185e-01  1.55690781e-07  1.32820439e-07  7.60000000e-01 
 7.70000000e-01  3.23137296e-09  4.56258197e-01  3.41417531e-09  4.56258197e-01  4.56258197e-01  3.39452640e-09  4.56258197e-01  1.55690808e-07  1.32820347e-07  7.70000000e-01 
 7.80000000e-01  3.23137296e-09  4.56258201e-01  3.41417531e-09  4.56258201e-01  4.56258201e-01  3.39452640e-09  4.56258201e-01  1.55690796e-07  1.32820198e-07  7.80000000e-01 
 7.90000000e-01  3.23137296e-09  4.56258189e-01  3.41417531e-09  4.56258189e-01  4.56258189e-01  3.39452640e-09  4.56258189e-01  1.55690784e-07  1.32820176e-07  7.90000000e-01 
 8.00000000e-01  3.23137296e-09  4.56258188e-01  3.41417531e-09  4.56258188e-01  4.56258188e-01  3.39452640e-09  4.56258188e-01  1.55690786e-07  1.32820027e-07  8.00000000e-01 
 8.10000000e-01  3.23137296e-09  4.56258186e-01  3.41417531e-09  4.56258187e-01  4.56258187e-01  3.39452640e-09  4.56258186e-01  1.55690770e-07  1.32819800e-07  8.10000000e-01 
 8.20000000e-01  3.23137296e-09  4.56258192e-01  3.41417531e-09  4.56258192e-01  4.56258192e-01  3.39452640e-09  4.56258192e-01  1.55690781e-07  1.32819736e-07  8.20000000e-01 
 8.30000000e-01  3.23137296e-09  4.56258213e-01  3.41417531e-09  4.56258213e-01  4.56258213e-01  3.39452640e-09  4.56258213e-01  1.55690819e-07  1.32819700e-07  8.30000000e-01 
 8.40000000e-01  3.23137296e-09  4.56258200e-01  3.41417531e-09  4.56258200e-01  4.56258200e-01  3.39452640e-09  4.56258200e-01  1.55690804e-07  1.32819650e-07  8.40000000e-01 
 8.50000000e-01  3.23137296e-09  4.56258188e-01  3.41417531e-09  4.56258188e-01  4.56258188e-01  3.39452640e-09  4.56258188e-01  1.55690783e-07  1.32819459e-07  8.50000000e-01 
 8.60000000e-01  3.23137296e-09  4.56258197e-01  3.41417531e-09  4.56258197e-01  4.56258197e-01  3.39452640e-09  4.56258197e-01  1.55690796e-07  1.32819551e-07  8.60000000e-01 
 8.70000000e-01  3.23137296e-09  4.56258181e-01  3.41417531e-09  4.56258181e-01  4.56258181e-01  3.39452640e-09  4.56258181e-01  1.55690761e-07  1.32819309e-07  8.70000000e-01 
 8.80000000e-01  3.23137296e-09  4.56258208e-01  3.41417531e-09  4.56258208e-01  4.56258208e-01  3.39452640e-09  4.56258208e-01  1.55690820e-07  1.32819203e-07  8.80000000e-01 
 8.90000000e-01  3.23137296e-09  4.56258199e-01  3.41417531e-09  4.56258199e-01  4.56258199e-01  3.39452640e-09  4.56258199e-01  1.55690807e-07  1.32819288e-07  8.90000000e-01 
 9.00000000e-01  3.23137296e-09  4.56258212e-01  3.41417531e-09  4.56258213e-01  4.56258212e-01  3.39452640e-09  4.56258212e-01  1.55690812e-07  1.32819203e-07  9.00000000e-01 
 9.10000000e-01  3.23137296e-09  4.56258179e-01  3.41417531e-09  4.56258179e-01  4.56258179e-01  3.39452640e-09  4.56258179e-01  1.55690774e-07  1.32818826e-07  9.10000000e-01 
 9.20000000e-01  3.23137296e-09  4.56258183e-01  3.41417531e-09  4.56258183e-01  4.56258183e-01  3.39452640e-09  4.56258183e-01  1.55690775e-07  1.32818847e-07  9.20000000e-01 
 9.30000000e-01  3.23137296e-09  4.56258200e-01  3.41417531e-09  4.56258201e-01  4.56258200e-01  3.39452640e-09  4.56258200e-01  1.55690800e-07  1.32818940e-07  9.30000000e-01 
 9.40000000e-01  3.23137296e-09  4.56258183e-01  3.41417531e-09  4.56258183e-01  4.56258183e-01  3.39452640e-09  4.56258183e-01  1.55690769e-07  1.32818670e-07  9.40000000e-01 
 9.50000000e-01  3.23137296e-09  4.56258212e-01  3.41417531e-09  4.56258212e-01  4.56258212e-01  3.39452640e-09  4.56258212e-01  1.55690800e-07  1.32818705e-07  9.50000000e-01 
 9.60000000e-01  3.23137296e-09  4.56258158e-01  3.41417531e-09  4.56258158e-01  4.56258158e-01  3.39452640e-09  4.56258158e-01  1.55690740e-07  1.32818421e-07  9.60000000e-01 
 9.70000000e-01  3.23137296e-09  4.56258197e-01  3.41417531e-09  4.56258197e-01  4.56258197e-01  3.39452640e-09  4.56258197e-01  1.55690797e-07  1.32818450e-07  9.70000000e-01 
 9.80000000e-01  3.23137296e-09  4.56258196e-01  3.41417531e-09  4.56258196e-01  4.56258196e-01  3.39452640e-09  4.56258196e-01  1.55690782e-07  1.32818400e-07  9.80000000e-01 
 9.90000000e-01  3.23137296e-09  4.56258204e-01  3.41417531e-09  4.56258204e-01  4.56258204e-01  3.39452640e-09  4.56258204e-01  1.55690814e-07  1.32818215e-07  9.90000000e-01 
 1.00000000e+00  3.23137296e-09  4.56258189e-01  3.41417531e-09  4.56258189e-01  4.56258189e-01  3.39452640e-09  4.56258189e-01  1.55690778e-07  1.32818094e-07  1.00000000e+00 
 1.01000000e+00  3.23137296e-09  4.56258213e-01  3.41417531e-09  4.56258213e-01  4.56258213e-01  3.39452640e-09  4.56258213e-01  1.55690815e-07  1.32817988e-07  1.01000000e+00 
 1.02000000e+00  3.23137296e-09  4.56258194e-01  3.41417537e-09  4.56258194e-01  4.56258194e-01  3.39452640e-09  4.56258194e-01  1.55690783e-07  1.32817931e-07  1.02000000e+00 
 1.03000000e+00  3.23137296e-09  4.56258207e-01  3.41417537e-09  4.56258207e-01  4.56258207e-01  3.39452640e-09  4.56258206e-01  1.55690803e-07  1.32817917e-07  1.03000000e+00 
 1.04000000e+00  3.23137296e-09  4.56258192e-01  3.41417531e-09  4.56258192e-01  4.56258192e-01  3.39452640e-09  4.56258192e-01  1.55690778e-07  1.32817746e-07  1.04000000e+00 
 1.05000000e+00  3.23137296e-09  4.56258203e-01  3.41417531e-09  4.56258203e-01  4.56258203e-01  3.39452640e-09  4.56258203e-01  1.55690800e-07  1.32817746e-07  1.05000000e+00 
 1.06000000e+00  3.23137296e-09  4.56258189e-01  3.41417537e-09  4.56258189e-01  4.56258189e-01  3.39452640e-09  4.56258189e-01  1.55690773e-07  1.32817483e-07  1.06000000e+00 
 1.07000000e+00  3.23137296e-09  4.56258231e-01  3.41417531e-09  4.56258232e-01  4.56258231e-01  3.39452640e-09  4.56258231e-01  1.55690836e-07  1.32817448e-07  1.07000000e+00 
 1.08000000e+00  3.23137296e-09  4.56258220e-01  3.41417531e-09  4.56258220e-01  4.56258220e-01  3.39452640e-09  4.56258219e-01  1.55690829e-07  1.32817370e-07  1.08000000e+00 
 1.09000000e+00  3.23137296e-09  4.56258170e-01  3.41417531e-09  4.56258170e-01  4.56258170e-01  3.39452640e-09  4.56258170e-01  1.55690747e-07  1.32817121e-07  1.09000000e+00 
 1.10000000e+00  3.23137296e-09  4.56258187e-01  3.41417531e-09  4.56258187e-01  4.56258187e-01  3.39452640e-09  4.56258187e-01  1.55690792e-07  1.32817100e-07  1.10000000e+00 
