 v-sweep         v(b0)           v(b1)           v(b2)           v(b3)           v(b4)           v(b5)           v(b6)           i(vbias)        i(viout)        v(vout)        
 0.00000000e+00  4.60280887e-01  3.34920118e-09  3.22103275e-09  4.60280887e-01  3.37803117e-09  4.60280887e-01  3.38768978e-09  1.60621169e-07  6.42879883e-08  0.00000000e+00 
 1.00000000e-02  4.60280866e-01  3.34920121e-09  3.22103272e-09  4.60280866e-01  3.37803113e-09  4.60280866e-01  3.38768975e-09  1.60621146e-07  6.42876026e-08  1.00000000e-02 
 2.00000000e-02  4.60280866e-01  3.34920121e-09  3.22103266e-09  4.60280866e-01  3.37803113e-09  4.60280866e-01  3.38768981e-09  1.60621151e-07  6.42872673e-08  2.00000000e-02 
 3.00000000e-02  4.60280879e-01  3.34920126e-09  3.22103272e-09  4.60280879e-01  3.37803113e-09  4.60280879e-01  3.38768981e-09  1.60621173e-07  6.42869484e-08  3.00000000e-02 
 4.00000000e-02  4.60280898e-01  3.34920121e-09  3.22103272e-09  4.60280898e-01  3.37803114e-09  4.60280898e-01  3.38768982e-09  1.60621187e-07  6.42865041e-08  4.00000000e-02 
 5.00000000e-02  4.60280885e-01  3.34920121e-09  3.22103272e-09  4.60280885e-01  3.37803114e-09  4.60280885e-01  3.38768981e-09  1.60621173e-07  6.42861377e-08  5.00000000e-02 
 6.00000000e-02  4.60280868e-01  3.34920121e-09  3.22103272e-09  4.60280868e-01  3.37803113e-09  4.60280868e-01  3.38768981e-09  1.60621148e-07  6.42858531e-08  6.00000000e-02 
 7.00000000e-02  4.60280860e-01  3.34920121e-09  3.22103272e-09  4.60280860e-01  3.37803113e-09  4.60280860e-01  3.38768975e-09  1.60621146e-07  6.42855311e-08  7.00000000e-02 
 8.00000000e-02  4.60280879e-01  3.34920121e-09  3.22103272e-09  4.60280879e-01  3.37803113e-09  4.60280879e-01  3.38768975e-09  1.60621166e-07  6.42852696e-08  8.00000000e-02 
 9.00000000e-02  4.60280862e-01  3.34920121e-09  3.22103266e-09  4.60280862e-01  3.37803113e-09  4.60280862e-01  3.38768981e-09  1.60621145e-07  6.42850209e-08  9.00000000e-02 
 1.00000000e-01  4.60280880e-01  3.34920121e-09  3.22103273e-09  4.60280880e-01  3.37803113e-09  4.60280880e-01  3.38768981e-09  1.60621167e-07  6.42849063e-08  1.00000000e-01 
 1.10000000e-01  4.60280866e-01  3.34920121e-09  3.22103271e-09  4.60280866e-01  3.37803113e-09  4.60280866e-01  3.38768981e-09  1.60621138e-07  6.42843476e-08  1.10000000e-01 
 1.20000000e-01  4.60280876e-01  3.34920121e-09  3.22103266e-09  4.60280876e-01  3.37803113e-09  4.60280876e-01  3.38768981e-09  1.60621179e-07  6.42842553e-08  1.20000000e-01 
 1.30000000e-01  4.60280881e-01  3.34920121e-09  3.22103272e-09  4.60280881e-01  3.37803114e-09  4.60280881e-01  3.38768976e-09  1.60621171e-07  6.42841069e-08  1.30000000e-01 
 1.40000000e-01  4.60280870e-01  3.34920121e-09  3.22103272e-09  4.60280870e-01  3.37803113e-09  4.60280870e-01  3.38768981e-09  1.60621152e-07  6.42838804e-08  1.40000000e-01 
 1.50000000e-01  4.60280880e-01  3.34920121e-09  3.22103272e-09  4.60280880e-01  3.37803113e-09  4.60280880e-01  3.38768981e-09  1.60621170e-07  6.42836131e-08  1.50000000e-01 
 1.60000000e-01  4.60280876e-01  3.34920121e-09  3.22103272e-09  4.60280876e-01  3.37803113e-09  4.60280876e-01  3.38768975e-09  1.60621169e-07  6.42833164e-08  1.60000000e-01 
 1.70000000e-01  4.60280882e-01  3.34920121e-09  3.22103272e-09  4.60280882e-01  3.37803114e-09  4.60280882e-01  3.38768981e-09  1.60621167e-07  6.42831957e-08  1.70000000e-01 
 1.80000000e-01  4.60280849e-01  3.34920120e-09  3.22103272e-09  4.60280849e-01  3.37803113e-09  4.60280849e-01  3.38768981e-09  1.60621120e-07  6.42829985e-08  1.80000000e-01 
 1.90000000e-01  4.60280861e-01  3.34920121e-09  3.22103272e-09  4.60280861e-01  3.37803113e-09  4.60280861e-01  3.38768981e-09  1.60621140e-07  6.42828244e-08  1.90000000e-01 
 2.00000000e-01  4.60280871e-01  3.34920121e-09  3.22103266e-09  4.60280871e-01  3.37803113e-09  4.60280871e-01  3.38768981e-09  1.60621152e-07  6.42827640e-08  2.00000000e-01 
 2.10000000e-01  4.60280861e-01  3.34920121e-09  3.22103266e-09  4.60280861e-01  3.37803113e-09  4.60280861e-01  3.38768981e-09  1.60621154e-07  6.42825011e-08  2.10000000e-01 
 2.20000000e-01  4.60280880e-01  3.34920121e-09  3.22103273e-09  4.60280880e-01  3.37803113e-09  4.60280880e-01  3.38768981e-09  1.60621174e-07  6.42823359e-08  2.20000000e-01 
 2.30000000e-01  4.60280869e-01  3.34920121e-09  3.22103271e-09  4.60280869e-01  3.37803113e-09  4.60280869e-01  3.38768975e-09  1.60621157e-07  6.42822844e-08  2.30000000e-01 
 2.40000000e-01  4.60280854e-01  3.34920120e-09  3.22103272e-09  4.60280854e-01  3.37803113e-09  4.60280854e-01  3.38768981e-09  1.60621140e-07  6.42819948e-08  2.40000000e-01 
 2.50000000e-01  4.60280861e-01  3.34920121e-09  3.22103272e-09  4.60280861e-01  3.37803113e-09  4.60280861e-01  3.38768981e-09  1.60621142e-07  6.42819593e-08  2.50000000e-01 
 2.60000000e-01  4.60280864e-01  3.34920121e-09  3.22103272e-09  4.60280864e-01  3.37803113e-09  4.60280864e-01  3.38768981e-09  1.60621139e-07  6.42818634e-08  2.60000000e-01 
 2.70000000e-01  4.60280870e-01  3.34920121e-09  3.22103272e-09  4.60280870e-01  3.37803113e-09  4.60280870e-01  3.38768981e-09  1.60621158e-07  6.42816858e-08  2.70000000e-01 
 2.80000000e-01  4.60280859e-01  3.34920126e-09  3.22103272e-09  4.60280859e-01  3.37803113e-09  4.60280859e-01  3.38768975e-09  1.60621129e-07  6.42815898e-08  2.80000000e-01 
 2.90000000e-01  4.60280860e-01  3.34920121e-09  3.22103272e-09  4.60280860e-01  3.37803113e-09  4.60280860e-01  3.38768975e-09  1.60621144e-07  6.42814726e-08  2.90000000e-01 
 3.00000000e-01  4.60280859e-01  3.34920126e-09  3.22103272e-09  4.60280859e-01  3.37803113e-09  4.60280859e-01  3.38768981e-09  1.60621145e-07  6.42813696e-08  3.00000000e-01 
 3.10000000e-01  4.60280895e-01  3.34920121e-09  3.22103272e-09  4.60280895e-01  3.37803114e-09  4.60280895e-01  3.38768976e-09  1.60621183e-07  6.42812843e-08  3.10000000e-01 
 3.20000000e-01  4.60280883e-01  3.34920121e-09  3.22103272e-09  4.60280883e-01  3.37803114e-09  4.60280883e-01  3.38768981e-09  1.60621180e-07  6.42811138e-08  3.20000000e-01 
 3.30000000e-01  4.60280874e-01  3.34920121e-09  3.22103272e-09  4.60280874e-01  3.37803113e-09  4.60280874e-01  3.38768975e-09  1.60621154e-07  6.42810463e-08  3.30000000e-01 
 3.40000000e-01  4.60280861e-01  3.34920126e-09  3.22103272e-09  4.60280861e-01  3.37803113e-09  4.60280861e-01  3.38768981e-09  1.60621129e-07  6.42809148e-08  3.40000000e-01 
 3.50000000e-01  4.60280878e-01  3.34920121e-09  3.22103272e-09  4.60280878e-01  3.37803113e-09  4.60280878e-01  3.38768981e-09  1.60621158e-07  6.42808224e-08  3.50000000e-01 
 3.60000000e-01  4.60280873e-01  3.34920121e-09  3.22103272e-09  4.60280873e-01  3.37803113e-09  4.60280873e-01  3.38768981e-09  1.60621154e-07  6.42808082e-08  3.60000000e-01 
 3.70000000e-01  4.60280871e-01  3.34920121e-09  3.22103272e-09  4.60280871e-01  3.37803108e-09  4.60280871e-01  3.38768981e-09  1.60621155e-07  6.42806910e-08  3.70000000e-01 
 3.80000000e-01  4.60280875e-01  3.34920121e-09  3.22103272e-09  4.60280875e-01  3.37803113e-09  4.60280875e-01  3.38768975e-09  1.60621170e-07  6.42805915e-08  3.80000000e-01 
 3.90000000e-01  4.60280867e-01  3.34920121e-09  3.22103266e-09  4.60280867e-01  3.37803113e-09  4.60280867e-01  3.38768981e-09  1.60621133e-07  6.42805702e-08  3.90000000e-01 
 4.00000000e-01  4.60280861e-01  3.34920121e-09  3.22103272e-09  4.60280860e-01  3.37803113e-09  4.60280860e-01  3.38768981e-09  1.60621145e-07  6.42804352e-08  4.00000000e-01 
 4.10000000e-01  4.60280877e-01  3.34920121e-09  3.22103272e-09  4.60280877e-01  3.37803113e-09  4.60280877e-01  3.38768981e-09  1.60621170e-07  6.42803002e-08  4.10000000e-01 
 4.20000000e-01  4.60280860e-01  3.34920120e-09  3.22103266e-09  4.60280860e-01  3.37803113e-09  4.60280860e-01  3.38768975e-09  1.60621139e-07  6.42802682e-08  4.20000000e-01 
 4.30000000e-01  4.60280863e-01  3.34920121e-09  3.22103267e-09  4.60280863e-01  3.37803113e-09  4.60280863e-01  3.38768981e-09  1.60621152e-07  6.42802256e-08  4.30000000e-01 
 4.40000000e-01  4.60280891e-01  3.34920121e-09  3.22103271e-09  4.60280890e-01  3.37803114e-09  4.60280890e-01  3.38768981e-09  1.60621175e-07  6.42801439e-08  4.40000000e-01 
 4.50000000e-01  4.60280858e-01  3.34920120e-09  3.22103272e-09  4.60280858e-01  3.37803113e-09  4.60280858e-01  3.38768981e-09  1.60621138e-07  6.42800444e-08  4.50000000e-01 
 4.60000000e-01  4.60280888e-01  3.34920121e-09  3.22103266e-09  4.60280888e-01  3.37803114e-09  4.60280888e-01  3.38768981e-09  1.60621172e-07  6.42799058e-08  4.60000000e-01 
 4.70000000e-01  4.60280874e-01  3.34920121e-09  3.22103272e-09  4.60280874e-01  3.37803108e-09  4.60280874e-01  3.38768981e-09  1.60621155e-07  6.42798277e-08  4.70000000e-01 
 4.80000000e-01  4.60280847e-01  3.34920120e-09  3.22103272e-09  4.60280847e-01  3.37803113e-09  4.60280847e-01  3.38768981e-09  1.60621120e-07  6.42797389e-08  4.80000000e-01 
 4.90000000e-01  4.60280877e-01  3.34920121e-09  3.22103272e-09  4.60280877e-01  3.37803113e-09  4.60280877e-01  3.38768981e-09  1.60621155e-07  6.42797104e-08  4.90000000e-01 
 5.00000000e-01  4.60280859e-01  3.34920120e-09  3.22103272e-09  4.60280859e-01  3.37803113e-09  4.60280859e-01  3.38768981e-09  1.60621138e-07  6.42795719e-08  5.00000000e-01 
 5.10000000e-01  4.60280876e-01  3.34920121e-09  3.22103266e-09  4.60280875e-01  3.37803113e-09  4.60280875e-01  3.38768981e-09  1.60621150e-07  6.42795897e-08  5.10000000e-01 
 5.20000000e-01  4.60280858e-01  3.34920120e-09  3.22103272e-09  4.60280858e-01  3.37803108e-09  4.60280858e-01  3.38768981e-09  1.60621139e-07  6.42794511e-08  5.20000000e-01 
 5.30000000e-01  4.60280896e-01  3.34920121e-09  3.22103272e-09  4.60280896e-01  3.37803114e-09  4.60280896e-01  3.38768982e-09  1.60621187e-07  6.42795435e-08  5.30000000e-01 
 5.40000000e-01  4.60280865e-01  3.34920121e-09  3.22103272e-09  4.60280865e-01  3.37803108e-09  4.60280865e-01  3.38768981e-09  1.60621146e-07  6.42793303e-08  5.40000000e-01 
 5.50000000e-01  4.60280877e-01  3.34920121e-09  3.22103272e-09  4.60280876e-01  3.37803113e-09  4.60280876e-01  3.38768981e-09  1.60621165e-07  6.42792557e-08  5.50000000e-01 
 5.60000000e-01  4.60280858e-01  3.34920120e-09  3.22103272e-09  4.60280858e-01  3.37803113e-09  4.60280858e-01  3.38768981e-09  1.60621136e-07  6.42792521e-08  5.60000000e-01 
 5.70000000e-01  4.60280868e-01  3.34920121e-09  3.22103266e-09  4.60280868e-01  3.37803113e-09  4.60280868e-01  3.38768981e-09  1.60621144e-07  6.42792486e-08  5.70000000e-01 
 5.80000000e-01  4.60280890e-01  3.34920121e-09  3.22103272e-09  4.60280890e-01  3.37803114e-09  4.60280890e-01  3.38768981e-09  1.60621173e-07  6.42791775e-08  5.80000000e-01 
 5.90000000e-01  4.60280879e-01  3.34920121e-09  3.22103266e-09  4.60280879e-01  3.37803113e-09  4.60280879e-01  3.38768976e-09  1.60621166e-07  6.42791278e-08  5.90000000e-01 
 6.00000000e-01  4.60280870e-01  3.34920126e-09  3.22103272e-09  4.60280870e-01  3.37803113e-09  4.60280870e-01  3.38768975e-09  1.60621146e-07  6.42789715e-08  6.00000000e-01 
 6.10000000e-01  4.60280868e-01  3.34920121e-09  3.22103272e-09  4.60280868e-01  3.37803113e-09  4.60280868e-01  3.38768981e-09  1.60621149e-07  6.42789644e-08  6.10000000e-01 
 6.20000000e-01  4.60280876e-01  3.34920121e-09  3.22103272e-09  4.60280876e-01  3.37803113e-09  4.60280876e-01  3.38768981e-09  1.60621161e-07  6.42788578e-08  6.20000000e-01 
 6.30000000e-01  4.60280866e-01  3.34920121e-09  3.22103272e-09  4.60280866e-01  3.37803113e-09  4.60280866e-01  3.38768981e-09  1.60621142e-07  6.42788081e-08  6.30000000e-01 
 6.40000000e-01  4.60280866e-01  3.34920121e-09  3.22103272e-09  4.60280866e-01  3.37803113e-09  4.60280866e-01  3.38768981e-09  1.60621148e-07  6.42786375e-08  6.40000000e-01 
 6.50000000e-01  4.60280866e-01  3.34920121e-09  3.22103272e-09  4.60280866e-01  3.37803113e-09  4.60280866e-01  3.38768981e-09  1.60621139e-07  6.42786304e-08  6.50000000e-01 
 6.60000000e-01  4.60280865e-01  3.34920121e-09  3.22103272e-09  4.60280864e-01  3.37803113e-09  4.60280864e-01  3.38768981e-09  1.60621148e-07  6.42786233e-08  6.60000000e-01 
 6.70000000e-01  4.60280891e-01  3.34920121e-09  3.22103272e-09  4.60280891e-01  3.37803114e-09  4.60280891e-01  3.38768981e-09  1.60621176e-07  6.42785807e-08  6.70000000e-01 
 6.80000000e-01  4.60280865e-01  3.34920121e-09  3.22103272e-09  4.60280865e-01  3.37803113e-09  4.60280865e-01  3.38768981e-09  1.60621149e-07  6.42785380e-08  6.80000000e-01 
 6.90000000e-01  4.60280853e-01  3.34920120e-09  3.22103266e-09  4.60280853e-01  3.37803113e-09  4.60280853e-01  3.38768981e-09  1.60621129e-07  6.42785025e-08  6.90000000e-01 
 7.00000000e-01  4.60280868e-01  3.34920121e-09  3.22103273e-09  4.60280868e-01  3.37803113e-09  4.60280868e-01  3.38768975e-09  1.60621159e-07  6.42784599e-08  7.00000000e-01 
 7.10000000e-01  4.60280861e-01  3.34920121e-09  3.22103271e-09  4.60280861e-01  3.37803113e-09  4.60280861e-01  3.38768981e-09  1.60621129e-07  6.42783675e-08  7.10000000e-01 
 7.20000000e-01  4.60280863e-01  3.34920121e-09  3.22103272e-09  4.60280863e-01  3.37803113e-09  4.60280863e-01  3.38768981e-09  1.60621140e-07  6.42782965e-08  7.20000000e-01 
 7.30000000e-01  4.60280853e-01  3.34920120e-09  3.22103272e-09  4.60280853e-01  3.37803107e-09  4.60280853e-01  3.38768981e-09  1.60621136e-07  6.42782538e-08  7.30000000e-01 
 7.40000000e-01  4.60280868e-01  3.34920121e-09  3.22103272e-09  4.60280867e-01  3.37803113e-09  4.60280867e-01  3.38768981e-09  1.60621150e-07  6.42780975e-08  7.40000000e-01 
 7.50000000e-01  4.60280866e-01  3.34920121e-09  3.22103266e-09  4.60280866e-01  3.37803113e-09  4.60280866e-01  3.38768981e-09  1.60621148e-07  6.42782041e-08  7.50000000e-01 
 7.60000000e-01  4.60280863e-01  3.34920121e-09  3.22103272e-09  4.60280863e-01  3.37803113e-09  4.60280863e-01  3.38768981e-09  1.60621151e-07  6.42780122e-08  7.60000000e-01 
 7.70000000e-01  4.60280867e-01  3.34920121e-09  3.22103272e-09  4.60280867e-01  3.37803113e-09  4.60280867e-01  3.38768981e-09  1.60621165e-07  6.42779838e-08  7.70000000e-01 
 7.80000000e-01  4.60280851e-01  3.34920120e-09  3.22103272e-09  4.60280851e-01  3.37803113e-09  4.60280851e-01  3.38768981e-09  1.60621138e-07  6.42777849e-08  7.80000000e-01 
 7.90000000e-01  4.60280860e-01  3.34920126e-09  3.22103272e-09  4.60280860e-01  3.37803113e-09  4.60280860e-01  3.38768975e-09  1.60621141e-07  6.42777920e-08  7.90000000e-01 
 8.00000000e-01  4.60280859e-01  3.34920120e-09  3.22103272e-09  4.60280859e-01  3.37803113e-09  4.60280859e-01  3.38768981e-09  1.60621140e-07  6.42777351e-08  8.00000000e-01 
 8.10000000e-01  4.60280873e-01  3.34920121e-09  3.22103266e-09  4.60280873e-01  3.37803113e-09  4.60280873e-01  3.38768981e-09  1.60621158e-07  6.42776072e-08  8.10000000e-01 
 8.20000000e-01  4.60280852e-01  3.34920120e-09  3.22103272e-09  4.60280852e-01  3.37803113e-09  4.60280852e-01  3.38768981e-09  1.60621124e-07  6.42776925e-08  8.20000000e-01 
 8.30000000e-01  4.60280846e-01  3.34920120e-09  3.22103266e-09  4.60280846e-01  3.37803113e-09  4.60280846e-01  3.38768981e-09  1.60621112e-07  6.42775362e-08  8.30000000e-01 
 8.40000000e-01  4.60280858e-01  3.34920120e-09  3.22103273e-09  4.60280858e-01  3.37803113e-09  4.60280858e-01  3.38768981e-09  1.60621132e-07  6.42774509e-08  8.40000000e-01 
 8.50000000e-01  4.60280856e-01  3.34920120e-09  3.22103271e-09  4.60280856e-01  3.37803113e-09  4.60280856e-01  3.38768981e-09  1.60621125e-07  6.42775220e-08  8.50000000e-01 
 8.60000000e-01  4.60280878e-01  3.34920121e-09  3.22103272e-09  4.60280878e-01  3.37803108e-09  4.60280878e-01  3.38768975e-09  1.60621163e-07  6.42773585e-08  8.60000000e-01 
 8.70000000e-01  4.60280859e-01  3.34920126e-09  3.22103272e-09  4.60280859e-01  3.37803113e-09  4.60280859e-01  3.38768981e-09  1.60621138e-07  6.42772733e-08  8.70000000e-01 
 8.80000000e-01  4.60280851e-01  3.34920120e-09  3.22103272e-09  4.60280851e-01  3.37803113e-09  4.60280851e-01  3.38768981e-09  1.60621123e-07  6.42772662e-08  8.80000000e-01 
 8.90000000e-01  4.60280875e-01  3.34920121e-09  3.22103272e-09  4.60280875e-01  3.37803113e-09  4.60280875e-01  3.38768981e-09  1.60621169e-07  6.42772946e-08  8.90000000e-01 
 9.00000000e-01  4.60280860e-01  3.34920120e-09  3.22103272e-09  4.60280860e-01  3.37803113e-09  4.60280860e-01  3.38768981e-09  1.60621133e-07  6.42770956e-08  9.00000000e-01 
 9.10000000e-01  4.60280881e-01  3.34920121e-09  3.22103272e-09  4.60280880e-01  3.37803113e-09  4.60280880e-01  3.38768981e-09  1.60621177e-07  6.42770033e-08  9.10000000e-01 
 9.20000000e-01  4.60280863e-01  3.34920121e-09  3.22103266e-09  4.60280863e-01  3.37803113e-09  4.60280863e-01  3.38768975e-09  1.60621152e-07  6.42769393e-08  9.20000000e-01 
 9.30000000e-01  4.60280896e-01  3.34920121e-09  3.22103272e-09  4.60280896e-01  3.37803114e-09  4.60280896e-01  3.38768982e-09  1.60621202e-07  6.42769464e-08  9.30000000e-01 
 9.40000000e-01  4.60280866e-01  3.34920121e-09  3.22103272e-09  4.60280866e-01  3.37803113e-09  4.60280866e-01  3.38768975e-09  1.60621151e-07  6.42768399e-08  9.40000000e-01 
 9.50000000e-01  4.60280858e-01  3.34920120e-09  3.22103272e-09  4.60280858e-01  3.37803113e-09  4.60280858e-01  3.38768975e-09  1.60621134e-07  6.42767759e-08  9.50000000e-01 
 9.60000000e-01  4.60280846e-01  3.34920120e-09  3.22103272e-09  4.60280846e-01  3.37803113e-09  4.60280846e-01  3.38768975e-09  1.60621118e-07  6.42766338e-08  9.60000000e-01 
 9.70000000e-01  4.60280863e-01  3.34920121e-09  3.22103272e-09  4.60280863e-01  3.37803113e-09  4.60280863e-01  3.38768975e-09  1.60621149e-07  6.42766622e-08  9.70000000e-01 
 9.80000000e-01  4.60280859e-01  3.34920126e-09  3.22103272e-09  4.60280859e-01  3.37803113e-09  4.60280859e-01  3.38768975e-09  1.60621140e-07  6.42765059e-08  9.80000000e-01 
 9.90000000e-01  4.60280875e-01  3.34920121e-09  3.22103266e-09  4.60280875e-01  3.37803113e-09  4.60280875e-01  3.38768981e-09  1.60621159e-07  6.42764988e-08  9.90000000e-01 
 1.00000000e+00  4.60280846e-01  3.34920120e-09  3.22103272e-09  4.60280846e-01  3.37803113e-09  4.60280846e-01  3.38768981e-09  1.60621115e-07  6.42764419e-08  1.00000000e+00 
 1.01000000e+00  4.60280854e-01  3.34920120e-09  3.22103266e-09  4.60280853e-01  3.37803113e-09  4.60280853e-01  3.38768981e-09  1.60621119e-07  6.42762714e-08  1.01000000e+00 
 1.02000000e+00  4.60280849e-01  3.34920120e-09  3.22103273e-09  4.60280849e-01  3.37803113e-09  4.60280849e-01  3.38768981e-09  1.60621121e-07  6.42763140e-08  1.02000000e+00 
 1.03000000e+00  4.60280879e-01  3.34920121e-09  3.22103271e-09  4.60280879e-01  3.37803113e-09  4.60280879e-01  3.38768981e-09  1.60621158e-07  6.42762217e-08  1.03000000e+00 
 1.04000000e+00  4.60280857e-01  3.34920120e-09  3.22103272e-09  4.60280857e-01  3.37803113e-09  4.60280857e-01  3.38768975e-09  1.60621131e-07  6.42761151e-08  1.04000000e+00 
 1.05000000e+00  4.60280860e-01  3.34920120e-09  3.22103272e-09  4.60280860e-01  3.37803113e-09  4.60280860e-01  3.38768981e-09  1.60621129e-07  6.42760298e-08  1.05000000e+00 
 1.06000000e+00  4.60280866e-01  3.34920121e-09  3.22103272e-09  4.60280866e-01  3.37803113e-09  4.60280866e-01  3.38768981e-09  1.60621145e-07  6.42759943e-08  1.06000000e+00 
 1.07000000e+00  4.60280863e-01  3.34920121e-09  3.22103272e-09  4.60280863e-01  3.37803113e-09  4.60280863e-01  3.38768981e-09  1.60621132e-07  6.42759730e-08  1.07000000e+00 
 1.08000000e+00  4.60280871e-01  3.34920121e-09  3.22103272e-09  4.60280871e-01  3.37803113e-09  4.60280871e-01  3.38768975e-09  1.60621158e-07  6.42759943e-08  1.08000000e+00 
 1.09000000e+00  4.60280888e-01  3.34920121e-09  3.22103272e-09  4.60280888e-01  3.37803114e-09  4.60280888e-01  3.38768981e-09  1.60621175e-07  6.42757669e-08  1.09000000e+00 
 1.10000000e+00  4.60280884e-01  3.34920121e-09  3.22103272e-09  4.60280884e-01  3.37803114e-09  4.60280884e-01  3.38768976e-09  1.60621166e-07  6.42758309e-08  1.10000000e+00 
