 v-sweep         v(b0)           v(b1)           v(b2)           v(b3)           v(b4)           v(b5)           v(b6)           i(vbias)        i(viout)        v(vout)        
 0.00000000e+00  4.58709354e-01  3.29796087e-09  4.58709354e-01  4.58709354e-01  3.04693517e-09  4.58709354e-01  3.21095971e-09  1.61404656e-07  6.98077264e-08  0.00000000e+00 
 1.00000000e-02  4.58709361e-01  3.29796084e-09  4.58709361e-01  4.58709361e-01  3.04693520e-09  4.58709361e-01  3.21095974e-09  1.61404686e-07  6.98072783e-08  1.00000000e-02 
 2.00000000e-02  4.58709371e-01  3.29796084e-09  4.58709371e-01  4.58709371e-01  3.04693520e-09  4.58709371e-01  3.21095969e-09  1.61404687e-07  6.98069025e-08  2.00000000e-02 
 3.00000000e-02  4.58709373e-01  3.29796084e-09  4.58709373e-01  4.58709373e-01  3.04693520e-09  4.58709373e-01  3.21095974e-09  1.61404690e-07  6.98065798e-08  3.00000000e-02 
 4.00000000e-02  4.58709367e-01  3.29796084e-09  4.58709367e-01  4.58709367e-01  3.04693520e-09  4.58709367e-01  3.21095974e-09  1.61404683e-07  6.98062625e-08  4.00000000e-02 
 5.00000000e-02  4.58709356e-01  3.29796084e-09  4.58709356e-01  4.58709356e-01  3.04693520e-09  4.58709356e-01  3.21095969e-09  1.61404668e-07  6.98059575e-08  5.00000000e-02 
 6.00000000e-02  4.58709366e-01  3.29796084e-09  4.58709365e-01  4.58709366e-01  3.04693520e-09  4.58709366e-01  3.21095969e-09  1.61404682e-07  6.98056319e-08  6.00000000e-02 
 7.00000000e-02  4.58709374e-01  3.29796084e-09  4.58709374e-01  4.58709374e-01  3.04693520e-09  4.58709374e-01  3.21095974e-09  1.61404696e-07  6.98052491e-08  7.00000000e-02 
 8.00000000e-02  4.58709380e-01  3.29796090e-09  4.58709380e-01  4.58709380e-01  3.04693520e-09  4.58709380e-01  3.21095969e-09  1.61404702e-07  6.98048526e-08  8.00000000e-02 
 9.00000000e-02  4.58709363e-01  3.29796084e-09  4.58709362e-01  4.58709363e-01  3.04693520e-09  4.58709362e-01  3.21095974e-09  1.61404682e-07  6.98045630e-08  9.00000000e-02 
 1.00000000e-01  4.58709353e-01  3.29796084e-09  4.58709353e-01  4.58709353e-01  3.04693520e-09  4.58709353e-01  3.21095969e-09  1.61404670e-07  6.98044254e-08  1.00000000e-01 
 1.10000000e-01  4.58709381e-01  3.29796084e-09  4.58709381e-01  4.58709381e-01  3.04693520e-09  4.58709381e-01  3.21095969e-09  1.61404702e-07  6.98041864e-08  1.10000000e-01 
 1.20000000e-01  4.58709372e-01  3.29796084e-09  4.58709372e-01  4.58709372e-01  3.04693520e-09  4.58709372e-01  3.21095974e-09  1.61404696e-07  6.98037965e-08  1.20000000e-01 
 1.30000000e-01  4.58709374e-01  3.29796084e-09  4.58709374e-01  4.58709374e-01  3.04693520e-09  4.58709374e-01  3.21095974e-09  1.61404700e-07  6.98037033e-08  1.30000000e-01 
 1.40000000e-01  4.58709356e-01  3.29796084e-09  4.58709356e-01  4.58709356e-01  3.04693520e-09  4.58709356e-01  3.21095974e-09  1.61404671e-07  6.98034190e-08  1.40000000e-01 
 1.50000000e-01  4.58709400e-01  3.29796085e-09  4.58709400e-01  4.58709400e-01  3.04693520e-09  4.58709400e-01  3.21095974e-09  1.61404738e-07  6.98032760e-08  1.50000000e-01 
 1.60000000e-01  4.58709366e-01  3.29796084e-09  4.58709366e-01  4.58709366e-01  3.04693520e-09  4.58709366e-01  3.21095969e-09  1.61404683e-07  6.98028941e-08  1.60000000e-01 
 1.70000000e-01  4.58709357e-01  3.29796084e-09  4.58709357e-01  4.58709357e-01  3.04693520e-09  4.58709357e-01  3.21095974e-09  1.61404663e-07  6.98027378e-08  1.70000000e-01 
 1.80000000e-01  4.58709382e-01  3.29796084e-09  4.58709381e-01  4.58709382e-01  3.04693520e-09  4.58709381e-01  3.21095974e-09  1.61404709e-07  6.98026170e-08  1.80000000e-01 
 1.90000000e-01  4.58709327e-01  3.29796084e-09  4.58709327e-01  4.58709327e-01  3.04693520e-09  4.58709327e-01  3.21095974e-09  1.61404622e-07  6.98022884e-08  1.90000000e-01 
 2.00000000e-01  4.58709352e-01  3.29796084e-09  4.58709352e-01  4.58709352e-01  3.04693520e-09  4.58709352e-01  3.21095974e-09  1.61404673e-07  6.98022120e-08  2.00000000e-01 
 2.10000000e-01  4.58709354e-01  3.29796084e-09  4.58709354e-01  4.58709354e-01  3.04693520e-09  4.58709354e-01  3.21095969e-09  1.61404664e-07  6.98021108e-08  2.10000000e-01 
 2.20000000e-01  4.58709346e-01  3.29796084e-09  4.58709346e-01  4.58709346e-01  3.04693520e-09  4.58709346e-01  3.21095968e-09  1.61404657e-07  6.98019580e-08  2.20000000e-01 
 2.30000000e-01  4.58709377e-01  3.29796084e-09  4.58709377e-01  4.58709377e-01  3.04693520e-09  4.58709377e-01  3.21095974e-09  1.61404701e-07  6.98017857e-08  2.30000000e-01 
 2.40000000e-01  4.58709371e-01  3.29796084e-09  4.58709371e-01  4.58709371e-01  3.04693520e-09  4.58709371e-01  3.21095974e-09  1.61404682e-07  6.98017590e-08  2.40000000e-01 
 2.50000000e-01  4.58709370e-01  3.29796084e-09  4.58709370e-01  4.58709370e-01  3.04693520e-09  4.58709370e-01  3.21095974e-09  1.61404691e-07  6.98015157e-08  2.50000000e-01 
 2.60000000e-01  4.58709358e-01  3.29796084e-09  4.58709358e-01  4.58709358e-01  3.04693520e-09  4.58709358e-01  3.21095969e-09  1.61404679e-07  6.98014180e-08  2.60000000e-01 
 2.70000000e-01  4.58709371e-01  3.29796084e-09  4.58709371e-01  4.58709371e-01  3.04693520e-09  4.58709371e-01  3.21095974e-09  1.61404697e-07  6.98013380e-08  2.70000000e-01 
 2.80000000e-01  4.58709391e-01  3.29796085e-09  4.58709391e-01  4.58709391e-01  3.04693520e-09  4.58709391e-01  3.21095969e-09  1.61404714e-07  6.98011497e-08  2.80000000e-01 
 2.90000000e-01  4.58709372e-01  3.29796084e-09  4.58709372e-01  4.58709372e-01  3.04693520e-09  4.58709372e-01  3.21095969e-09  1.61404693e-07  6.98010858e-08  2.90000000e-01 
 3.00000000e-01  4.58709375e-01  3.29796084e-09  4.58709375e-01  4.58709375e-01  3.04693520e-09  4.58709375e-01  3.21095969e-09  1.61404682e-07  6.98009437e-08  3.00000000e-01 
 3.10000000e-01  4.58709370e-01  3.29796084e-09  4.58709370e-01  4.58709370e-01  3.04693520e-09  4.58709370e-01  3.21095969e-09  1.61404681e-07  6.98008549e-08  3.10000000e-01 
 3.20000000e-01  4.58709358e-01  3.29796090e-09  4.58709358e-01  4.58709358e-01  3.04693520e-09  4.58709358e-01  3.21095974e-09  1.61404660e-07  6.98007909e-08  3.20000000e-01 
 3.30000000e-01  4.58709365e-01  3.29796084e-09  4.58709365e-01  4.58709365e-01  3.04693520e-09  4.58709365e-01  3.21095974e-09  1.61404697e-07  6.98005422e-08  3.30000000e-01 
 3.40000000e-01  4.58709379e-01  3.29796084e-09  4.58709379e-01  4.58709379e-01  3.04693520e-09  4.58709379e-01  3.21095974e-09  1.61404705e-07  6.98004925e-08  3.40000000e-01 
 3.50000000e-01  4.58709349e-01  3.29796084e-09  4.58709349e-01  4.58709349e-01  3.04693520e-09  4.58709349e-01  3.21095968e-09  1.61404660e-07  6.98003007e-08  3.50000000e-01 
 3.60000000e-01  4.58709354e-01  3.29796084e-09  4.58709354e-01  4.58709354e-01  3.04693520e-09  4.58709354e-01  3.21095974e-09  1.61404663e-07  6.98002474e-08  3.60000000e-01 
 3.70000000e-01  4.58709342e-01  3.29796090e-09  4.58709342e-01  4.58709342e-01  3.04693520e-09  4.58709342e-01  3.21095974e-09  1.61404651e-07  6.98002900e-08  3.70000000e-01 
 3.80000000e-01  4.58709330e-01  3.29796084e-09  4.58709330e-01  4.58709330e-01  3.04693520e-09  4.58709330e-01  3.21095968e-09  1.61404647e-07  6.98002047e-08  3.80000000e-01 
 3.90000000e-01  4.58709353e-01  3.29796084e-09  4.58709353e-01  4.58709353e-01  3.04693520e-09  4.58709353e-01  3.21095974e-09  1.61404669e-07  6.98000413e-08  3.90000000e-01 
 4.00000000e-01  4.58709379e-01  3.29796090e-09  4.58709379e-01  4.58709379e-01  3.04693520e-09  4.58709379e-01  3.21095974e-09  1.61404695e-07  6.98000520e-08  4.00000000e-01 
 4.10000000e-01  4.58709363e-01  3.29796084e-09  4.58709363e-01  4.58709363e-01  3.04693520e-09  4.58709363e-01  3.21095974e-09  1.61404658e-07  6.97999383e-08  4.10000000e-01 
 4.20000000e-01  4.58709365e-01  3.29796090e-09  4.58709365e-01  4.58709365e-01  3.04693520e-09  4.58709365e-01  3.21095974e-09  1.61404681e-07  6.97997322e-08  4.20000000e-01 
 4.30000000e-01  4.58709359e-01  3.29796084e-09  4.58709359e-01  4.58709359e-01  3.04693520e-09  4.58709359e-01  3.21095969e-09  1.61404669e-07  6.97997180e-08  4.30000000e-01 
 4.40000000e-01  4.58709348e-01  3.29796084e-09  4.58709348e-01  4.58709348e-01  3.04693520e-09  4.58709348e-01  3.21095974e-09  1.61404652e-07  6.97997073e-08  4.40000000e-01 
 4.50000000e-01  4.58709363e-01  3.29796084e-09  4.58709363e-01  4.58709363e-01  3.04693520e-09  4.58709363e-01  3.21095974e-09  1.61404691e-07  6.97995510e-08  4.50000000e-01 
 4.60000000e-01  4.58709375e-01  3.29796084e-09  4.58709375e-01  4.58709375e-01  3.04693520e-09  4.58709375e-01  3.21095974e-09  1.61404700e-07  6.97996683e-08  4.60000000e-01 
 4.70000000e-01  4.58709370e-01  3.29796084e-09  4.58709370e-01  4.58709370e-01  3.04693520e-09  4.58709370e-01  3.21095974e-09  1.61404680e-07  6.97993592e-08  4.70000000e-01 
 4.80000000e-01  4.58709352e-01  3.29796084e-09  4.58709352e-01  4.58709352e-01  3.04693520e-09  4.58709352e-01  3.21095969e-09  1.61404661e-07  6.97994338e-08  4.80000000e-01 
 4.90000000e-01  4.58709363e-01  3.29796084e-09  4.58709363e-01  4.58709363e-01  3.04693520e-09  4.58709363e-01  3.21095974e-09  1.61404688e-07  6.97992881e-08  4.90000000e-01 
 5.00000000e-01  4.58709364e-01  3.29796090e-09  4.58709364e-01  4.58709364e-01  3.04693520e-09  4.58709364e-01  3.21095969e-09  1.61404678e-07  6.97992704e-08  5.00000000e-01 
 5.10000000e-01  4.58709370e-01  3.29796084e-09  4.58709369e-01  4.58709370e-01  3.04693520e-09  4.58709370e-01  3.21095969e-09  1.61404686e-07  6.97991602e-08  5.10000000e-01 
 5.20000000e-01  4.58709366e-01  3.29796084e-09  4.58709366e-01  4.58709366e-01  3.04693520e-09  4.58709366e-01  3.21095974e-09  1.61404679e-07  6.97991709e-08  5.20000000e-01 
 5.30000000e-01  4.58709377e-01  3.29796084e-09  4.58709377e-01  4.58709377e-01  3.04693520e-09  4.58709377e-01  3.21095969e-09  1.61404695e-07  6.97991105e-08  5.30000000e-01 
 5.40000000e-01  4.58709360e-01  3.29796084e-09  4.58709360e-01  4.58709360e-01  3.04693520e-09  4.58709360e-01  3.21095969e-09  1.61404670e-07  6.97989897e-08  5.40000000e-01 
 5.50000000e-01  4.58709367e-01  3.29796084e-09  4.58709367e-01  4.58709367e-01  3.04693520e-09  4.58709367e-01  3.21095974e-09  1.61404692e-07  6.97988760e-08  5.50000000e-01 
 5.60000000e-01  4.58709360e-01  3.29796084e-09  4.58709360e-01  4.58709360e-01  3.04693520e-09  4.58709360e-01  3.21095969e-09  1.61404669e-07  6.97989258e-08  5.60000000e-01 
 5.70000000e-01  4.58709337e-01  3.29796090e-09  4.58709336e-01  4.58709337e-01  3.04693520e-09  4.58709337e-01  3.21095974e-09  1.61404646e-07  6.97988227e-08  5.70000000e-01 
 5.80000000e-01  4.58709367e-01  3.29796084e-09  4.58709367e-01  4.58709367e-01  3.04693520e-09  4.58709367e-01  3.21095974e-09  1.61404682e-07  6.97986806e-08  5.80000000e-01 
 5.90000000e-01  4.58709359e-01  3.29796090e-09  4.58709359e-01  4.58709359e-01  3.04693520e-09  4.58709359e-01  3.21095969e-09  1.61404661e-07  6.97986735e-08  5.90000000e-01 
 6.00000000e-01  4.58709363e-01  3.29796084e-09  4.58709363e-01  4.58709363e-01  3.04693520e-09  4.58709363e-01  3.21095974e-09  1.61404681e-07  6.97986167e-08  6.00000000e-01 
 6.10000000e-01  4.58709357e-01  3.29796084e-09  4.58709357e-01  4.58709357e-01  3.04693520e-09  4.58709357e-01  3.21095969e-09  1.61404661e-07  6.97984461e-08  6.10000000e-01 
 6.20000000e-01  4.58709350e-01  3.29796084e-09  4.58709350e-01  4.58709350e-01  3.04693520e-09  4.58709350e-01  3.21095969e-09  1.61404671e-07  6.97984319e-08  6.20000000e-01 
 6.30000000e-01  4.58709361e-01  3.29796084e-09  4.58709361e-01  4.58709361e-01  3.04693520e-09  4.58709361e-01  3.21095974e-09  1.61404683e-07  6.97983467e-08  6.30000000e-01 
 6.40000000e-01  4.58709356e-01  3.29796084e-09  4.58709355e-01  4.58709356e-01  3.04693520e-09  4.58709355e-01  3.21095969e-09  1.61404688e-07  6.97982898e-08  6.40000000e-01 
 6.50000000e-01  4.58709352e-01  3.29796084e-09  4.58709351e-01  4.58709352e-01  3.04693520e-09  4.58709351e-01  3.21095969e-09  1.61404665e-07  6.97982401e-08  6.50000000e-01 
 6.60000000e-01  4.58709381e-01  3.29796084e-09  4.58709381e-01  4.58709381e-01  3.04693520e-09  4.58709381e-01  3.21095974e-09  1.61404701e-07  6.97981619e-08  6.60000000e-01 
 6.70000000e-01  4.58709360e-01  3.29796084e-09  4.58709360e-01  4.58709360e-01  3.04693520e-09  4.58709360e-01  3.21095974e-09  1.61404674e-07  6.97980553e-08  6.70000000e-01 
 6.80000000e-01  4.58709387e-01  3.29796085e-09  4.58709387e-01  4.58709387e-01  3.04693520e-09  4.58709387e-01  3.21095974e-09  1.61404709e-07  6.97981903e-08  6.80000000e-01 
 6.90000000e-01  4.58709367e-01  3.29796084e-09  4.58709367e-01  4.58709367e-01  3.04693520e-09  4.58709367e-01  3.21095969e-09  1.61404680e-07  6.97979914e-08  6.90000000e-01 
 7.00000000e-01  4.58709384e-01  3.29796084e-09  4.58709384e-01  4.58709384e-01  3.04693520e-09  4.58709384e-01  3.21095969e-09  1.61404718e-07  6.97980411e-08  7.00000000e-01 
 7.10000000e-01  4.58709339e-01  3.29796084e-09  4.58709339e-01  4.58709339e-01  3.04693520e-09  4.58709339e-01  3.21095968e-09  1.61404644e-07  6.97978777e-08  7.10000000e-01 
 7.20000000e-01  4.58709367e-01  3.29796084e-09  4.58709367e-01  4.58709367e-01  3.04693520e-09  4.58709367e-01  3.21095974e-09  1.61404688e-07  6.97978564e-08  7.20000000e-01 
 7.30000000e-01  4.58709362e-01  3.29796084e-09  4.58709362e-01  4.58709362e-01  3.04693520e-09  4.58709362e-01  3.21095974e-09  1.61404679e-07  6.97976290e-08  7.30000000e-01 
 7.40000000e-01  4.58709350e-01  3.29796084e-09  4.58709350e-01  4.58709350e-01  3.04693520e-09  4.58709350e-01  3.21095968e-09  1.61404670e-07  6.97976716e-08  7.40000000e-01 
 7.50000000e-01  4.58709368e-01  3.29796084e-09  4.58709368e-01  4.58709368e-01  3.04693520e-09  4.58709368e-01  3.21095974e-09  1.61404689e-07  6.97976930e-08  7.50000000e-01 
 7.60000000e-01  4.58709396e-01  3.29796085e-09  4.58709396e-01  4.58709396e-01  3.04693520e-09  4.58709396e-01  3.21095974e-09  1.61404730e-07  6.97977072e-08  7.60000000e-01 
 7.70000000e-01  4.58709364e-01  3.29796084e-09  4.58709364e-01  4.58709364e-01  3.04693520e-09  4.58709364e-01  3.21095974e-09  1.61404674e-07  6.97974869e-08  7.70000000e-01 
 7.80000000e-01  4.58709334e-01  3.29796084e-09  4.58709334e-01  4.58709334e-01  3.04693520e-09  4.58709334e-01  3.21095974e-09  1.61404638e-07  6.97974869e-08  7.80000000e-01 
 7.90000000e-01  4.58709375e-01  3.29796084e-09  4.58709375e-01  4.58709375e-01  3.04693520e-09  4.58709375e-01  3.21095969e-09  1.61404700e-07  6.97973945e-08  7.90000000e-01 
 8.00000000e-01  4.58709368e-01  3.29796084e-09  4.58709368e-01  4.58709368e-01  3.04693520e-09  4.58709368e-01  3.21095969e-09  1.61404688e-07  6.97973022e-08  8.00000000e-01 
 8.10000000e-01  4.58709333e-01  3.29796084e-09  4.58709333e-01  4.58709333e-01  3.04693520e-09  4.58709333e-01  3.21095968e-09  1.61404647e-07  6.97970535e-08  8.10000000e-01 
 8.20000000e-01  4.58709353e-01  3.29796084e-09  4.58709353e-01  4.58709353e-01  3.04693520e-09  4.58709353e-01  3.21095974e-09  1.61404659e-07  6.97970250e-08  8.20000000e-01 
 8.30000000e-01  4.58709366e-01  3.29796084e-09  4.58709366e-01  4.58709366e-01  3.04693520e-09  4.58709366e-01  3.21095974e-09  1.61404680e-07  6.97970890e-08  8.30000000e-01 
 8.40000000e-01  4.58709370e-01  3.29796084e-09  4.58709370e-01  4.58709370e-01  3.04693520e-09  4.58709370e-01  3.21095974e-09  1.61404696e-07  6.97971458e-08  8.40000000e-01 
 8.50000000e-01  4.58709350e-01  3.29796084e-09  4.58709350e-01  4.58709350e-01  3.04693520e-09  4.58709350e-01  3.21095968e-09  1.61404667e-07  6.97968261e-08  8.50000000e-01 
 8.60000000e-01  4.58709363e-01  3.29796084e-09  4.58709363e-01  4.58709363e-01  3.04693520e-09  4.58709363e-01  3.21095974e-09  1.61404683e-07  6.97968900e-08  8.60000000e-01 
 8.70000000e-01  4.58709367e-01  3.29796084e-09  4.58709367e-01  4.58709367e-01  3.04693520e-09  4.58709367e-01  3.21095969e-09  1.61404681e-07  6.97967764e-08  8.70000000e-01 
 8.80000000e-01  4.58709354e-01  3.29796084e-09  4.58709353e-01  4.58709354e-01  3.04693514e-09  4.58709354e-01  3.21095969e-09  1.61404657e-07  6.97966414e-08  8.80000000e-01 
 8.90000000e-01  4.58709358e-01  3.29796084e-09  4.58709357e-01  4.58709357e-01  3.04693520e-09  4.58709357e-01  3.21095969e-09  1.61404679e-07  6.97966271e-08  8.90000000e-01 
 9.00000000e-01  4.58709353e-01  3.29796084e-09  4.58709353e-01  4.58709353e-01  3.04693520e-09  4.58709353e-01  3.21095974e-09  1.61404665e-07  6.97966200e-08  9.00000000e-01 
 9.10000000e-01  4.58709382e-01  3.29796084e-09  4.58709382e-01  4.58709382e-01  3.04693520e-09  4.58709382e-01  3.21095974e-09  1.61404715e-07  6.97965987e-08  9.10000000e-01 
 9.20000000e-01  4.58709362e-01  3.29796084e-09  4.58709362e-01  4.58709362e-01  3.04693520e-09  4.58709362e-01  3.21095974e-09  1.61404680e-07  6.97965348e-08  9.20000000e-01 
 9.30000000e-01  4.58709359e-01  3.29796084e-09  4.58709359e-01  4.58709359e-01  3.04693520e-09  4.58709359e-01  3.21095969e-09  1.61404669e-07  6.97963856e-08  9.30000000e-01 
 9.40000000e-01  4.58709364e-01  3.29796084e-09  4.58709364e-01  4.58709364e-01  3.04693520e-09  4.58709364e-01  3.21095974e-09  1.61404684e-07  6.97963358e-08  9.40000000e-01 
 9.50000000e-01  4.58709359e-01  3.29796090e-09  4.58709359e-01  4.58709359e-01  3.04693520e-09  4.58709359e-01  3.21095969e-09  1.61404664e-07  6.97962790e-08  9.50000000e-01 
 9.60000000e-01  4.58709350e-01  3.29796084e-09  4.58709350e-01  4.58709350e-01  3.04693520e-09  4.58709350e-01  3.21095974e-09  1.61404672e-07  6.97961440e-08  9.60000000e-01 
 9.70000000e-01  4.58709362e-01  3.29796084e-09  4.58709362e-01  4.58709362e-01  3.04693520e-09  4.58709362e-01  3.21095974e-09  1.61404680e-07  6.97962648e-08  9.70000000e-01 
 9.80000000e-01  4.58709349e-01  3.29796084e-09  4.58709348e-01  4.58709349e-01  3.04693520e-09  4.58709349e-01  3.21095968e-09  1.61404655e-07  6.97960161e-08  9.80000000e-01 
 9.90000000e-01  4.58709385e-01  3.29796085e-09  4.58709385e-01  4.58709385e-01  3.04693520e-09  4.58709385e-01  3.21095974e-09  1.61404714e-07  6.97961084e-08  9.90000000e-01 
 1.00000000e+00  4.58709345e-01  3.29796084e-09  4.58709345e-01  4.58709345e-01  3.04693520e-09  4.58709345e-01  3.21095968e-09  1.61404648e-07  6.97958811e-08  1.00000000e+00 
 1.01000000e+00  4.58709350e-01  3.29796084e-09  4.58709350e-01  4.58709350e-01  3.04693520e-09  4.58709350e-01  3.21095974e-09  1.61404651e-07  6.97958740e-08  1.01000000e+00 
 1.02000000e+00  4.58709337e-01  3.29796084e-09  4.58709337e-01  4.58709337e-01  3.04693520e-09  4.58709337e-01  3.21095974e-09  1.61404641e-07  6.97957603e-08  1.02000000e+00 
 1.03000000e+00  4.58709353e-01  3.29796084e-09  4.58709353e-01  4.58709353e-01  3.04693520e-09  4.58709353e-01  3.21095969e-09  1.61404673e-07  6.97956466e-08  1.03000000e+00 
 1.04000000e+00  4.58709372e-01  3.29796084e-09  4.58709372e-01  4.58709372e-01  3.04693520e-09  4.58709372e-01  3.21095974e-09  1.61404687e-07  6.97956395e-08  1.04000000e+00 
 1.05000000e+00  4.58709386e-01  3.29796085e-09  4.58709385e-01  4.58709386e-01  3.04693520e-09  4.58709385e-01  3.21095974e-09  1.61404713e-07  6.97955969e-08  1.05000000e+00 
 1.06000000e+00  4.58709359e-01  3.29796084e-09  4.58709359e-01  4.58709359e-01  3.04693520e-09  4.58709359e-01  3.21095974e-09  1.61404678e-07  6.97956253e-08  1.06000000e+00 
 1.07000000e+00  4.58709343e-01  3.29796084e-09  4.58709343e-01  4.58709343e-01  3.04693520e-09  4.58709343e-01  3.21095968e-09  1.61404667e-07  6.97953553e-08  1.07000000e+00 
 1.08000000e+00  4.58709354e-01  3.29796084e-09  4.58709354e-01  4.58709354e-01  3.04693520e-09  4.58709354e-01  3.21095974e-09  1.61404669e-07  6.97953695e-08  1.08000000e+00 
 1.09000000e+00  4.58709374e-01  3.29796084e-09  4.58709374e-01  4.58709374e-01  3.04693520e-09  4.58709374e-01  3.21095969e-09  1.61404695e-07  6.97951990e-08  1.09000000e+00 
 1.10000000e+00  4.58709356e-01  3.29796084e-09  4.58709356e-01  4.58709356e-01  3.04693520e-09  4.58709356e-01  3.21095969e-09  1.61404667e-07  6.97952558e-08  1.10000000e+00 
