 v-sweep         v(b0)           v(b1)           v(b2)           v(b3)           v(b4)           v(b5)           v(b6)           i(vbias)        i(viout)        v(vout)        
 0.00000000e+00  4.58967935e-01  3.16919924e-09  3.12734985e-09  3.27781913e-09  4.58967935e-01  3.26809007e-09  3.15216602e-09  1.61914899e-07  2.47711476e-08  0.00000000e+00 
 1.00000000e-02  4.58967919e-01  3.16919922e-09  3.12734989e-09  3.27781911e-09  4.58967919e-01  3.26809005e-09  3.15216600e-09  1.61914884e-07  2.47706238e-08  1.00000000e-02 
 2.00000000e-02  4.58967910e-01  3.16919928e-09  3.12734989e-09  3.27781911e-09  4.58967910e-01  3.26809010e-09  3.15216594e-09  1.61914862e-07  2.47703329e-08  2.00000000e-02 
 3.00000000e-02  4.58967920e-01  3.16919921e-09  3.12734989e-09  3.27781911e-09  4.58967920e-01  3.26809005e-09  3.15216600e-09  1.61914875e-07  2.47698564e-08  3.00000000e-02 
 4.00000000e-02  4.58967920e-01  3.16919928e-09  3.12734989e-09  3.27781911e-09  4.58967920e-01  3.26809010e-09  3.15216600e-09  1.61914879e-07  2.47695646e-08  4.00000000e-02 
 5.00000000e-02  4.58967921e-01  3.16919926e-09  3.12734989e-09  3.27781911e-09  4.58967921e-01  3.26809010e-09  3.15216600e-09  1.61914880e-07  2.47692165e-08  5.00000000e-02 
 6.00000000e-02  4.58967934e-01  3.16919927e-09  3.12734989e-09  3.27781911e-09  4.58967933e-01  3.26809011e-09  3.15216600e-09  1.61914891e-07  2.47690726e-08  6.00000000e-02 
 7.00000000e-02  4.58967922e-01  3.16919927e-09  3.12734989e-09  3.27781911e-09  4.58967922e-01  3.26809010e-09  3.15216600e-09  1.61914888e-07  2.47686396e-08  7.00000000e-02 
 8.00000000e-02  4.58967932e-01  3.16919927e-09  3.12734989e-09  3.27781911e-09  4.58967932e-01  3.26809010e-09  3.15216594e-09  1.61914903e-07  2.47683776e-08  8.00000000e-02 
 9.00000000e-02  4.58967923e-01  3.16919927e-09  3.12734984e-09  3.27781911e-09  4.58967923e-01  3.26809010e-09  3.15216594e-09  1.61914877e-07  2.47681662e-08  9.00000000e-02 
 1.00000000e-01  4.58967928e-01  3.16919927e-09  3.12734989e-09  3.27781911e-09  4.58967928e-01  3.26809005e-09  3.15216594e-09  1.61914886e-07  2.47678980e-08  1.00000000e-01 
 1.10000000e-01  4.58967919e-01  3.16919927e-09  3.12734989e-09  3.27781911e-09  4.58967919e-01  3.26809005e-09  3.15216600e-09  1.61914876e-07  2.47675365e-08  1.10000000e-01 
 1.20000000e-01  4.58967932e-01  3.16919927e-09  3.12734989e-09  3.27781911e-09  4.58967932e-01  3.26809010e-09  3.15216594e-09  1.61914883e-07  2.47672709e-08  1.20000000e-01 
 1.30000000e-01  4.58967936e-01  3.16919927e-09  3.12734989e-09  3.27781911e-09  4.58967936e-01  3.26809005e-09  3.15216595e-09  1.61914889e-07  2.47671483e-08  1.30000000e-01 
 1.40000000e-01  4.58967923e-01  3.16919921e-09  3.12734989e-09  3.27781911e-09  4.58967923e-01  3.26809010e-09  3.15216594e-09  1.61914888e-07  2.47669387e-08  1.40000000e-01 
 1.50000000e-01  4.58967921e-01  3.16919923e-09  3.12734989e-09  3.27781917e-09  4.58967921e-01  3.26809005e-09  3.15216600e-09  1.61914880e-07  2.47667185e-08  1.50000000e-01 
 1.60000000e-01  4.58967920e-01  3.16919922e-09  3.12734989e-09  3.27781911e-09  4.58967920e-01  3.26809010e-09  3.15216594e-09  1.61914870e-07  2.47666350e-08  1.60000000e-01 
 1.70000000e-01  4.58967931e-01  3.16919922e-09  3.12734989e-09  3.27781911e-09  4.58967931e-01  3.26809005e-09  3.15216594e-09  1.61914897e-07  2.47663916e-08  1.70000000e-01 
 1.80000000e-01  4.58967917e-01  3.16919928e-09  3.12734989e-09  3.27781911e-09  4.58967917e-01  3.26809010e-09  3.15216600e-09  1.61914882e-07  2.47662495e-08  1.80000000e-01 
 1.90000000e-01  4.58967926e-01  3.16919926e-09  3.12734989e-09  3.27781911e-09  4.58967926e-01  3.26809010e-09  3.15216600e-09  1.61914882e-07  2.47659635e-08  1.90000000e-01 
 2.00000000e-01  4.58967927e-01  3.16919921e-09  3.12734989e-09  3.27781917e-09  4.58967927e-01  3.26809010e-09  3.15216600e-09  1.61914896e-07  2.47659031e-08  2.00000000e-01 
 2.10000000e-01  4.58967927e-01  3.16919923e-09  3.12734989e-09  3.27781911e-09  4.58967927e-01  3.26809005e-09  3.15216600e-09  1.61914895e-07  2.47657326e-08  2.10000000e-01 
 2.20000000e-01  4.58967939e-01  3.16919928e-09  3.12734989e-09  3.27781911e-09  4.58967939e-01  3.26809005e-09  3.15216595e-09  1.61914906e-07  2.47656295e-08  2.20000000e-01 
 2.30000000e-01  4.58967944e-01  3.16919921e-09  3.12734989e-09  3.27781911e-09  4.58967943e-01  3.26809005e-09  3.15216595e-09  1.61914922e-07  2.47655425e-08  2.30000000e-01 
 2.40000000e-01  4.58967923e-01  3.16919928e-09  3.12734989e-09  3.27781911e-09  4.58967923e-01  3.26809010e-09  3.15216594e-09  1.61914883e-07  2.47653507e-08  2.40000000e-01 
 2.50000000e-01  4.58967927e-01  3.16919926e-09  3.12734989e-09  3.27781911e-09  4.58967927e-01  3.26809010e-09  3.15216594e-09  1.61914881e-07  2.47652050e-08  2.50000000e-01 
 2.60000000e-01  4.58967915e-01  3.16919921e-09  3.12734989e-09  3.27781911e-09  4.58967915e-01  3.26809010e-09  3.15216594e-09  1.61914867e-07  2.47651464e-08  2.60000000e-01 
 2.70000000e-01  4.58967926e-01  3.16919928e-09  3.12734989e-09  3.27781911e-09  4.58967926e-01  3.26809010e-09  3.15216594e-09  1.61914876e-07  2.47650753e-08  2.70000000e-01 
 2.80000000e-01  4.58967926e-01  3.16919926e-09  3.12734989e-09  3.27781911e-09  4.58967926e-01  3.26809010e-09  3.15216594e-09  1.61914882e-07  2.47649705e-08  2.80000000e-01 
 2.90000000e-01  4.58967936e-01  3.16919927e-09  3.12734989e-09  3.27781911e-09  4.58967936e-01  3.26809005e-09  3.15216600e-09  1.61914898e-07  2.47649297e-08  2.90000000e-01 
 3.00000000e-01  4.58967920e-01  3.16919927e-09  3.12734989e-09  3.27781911e-09  4.58967920e-01  3.26809010e-09  3.15216600e-09  1.61914872e-07  2.47647876e-08  3.00000000e-01 
 3.10000000e-01  4.58967933e-01  3.16919927e-09  3.12734989e-09  3.27781911e-09  4.58967933e-01  3.26809005e-09  3.15216594e-09  1.61914889e-07  2.47646668e-08  3.10000000e-01 
 3.20000000e-01  4.58967934e-01  3.16919927e-09  3.12734989e-09  3.27781911e-09  4.58967934e-01  3.26809011e-09  3.15216600e-09  1.61914897e-07  2.47645495e-08  3.20000000e-01 
 3.30000000e-01  4.58967930e-01  3.16919927e-09  3.12734989e-09  3.27781917e-09  4.58967930e-01  3.26809005e-09  3.15216600e-09  1.61914895e-07  2.47643932e-08  3.30000000e-01 
 3.40000000e-01  4.58967928e-01  3.16919927e-09  3.12734989e-09  3.27781911e-09  4.58967928e-01  3.26809010e-09  3.15216594e-09  1.61914897e-07  2.47643683e-08  3.40000000e-01 
 3.50000000e-01  4.58967918e-01  3.16919921e-09  3.12734989e-09  3.27781911e-09  4.58967918e-01  3.26809010e-09  3.15216600e-09  1.61914884e-07  2.47642546e-08  3.50000000e-01 
 3.60000000e-01  4.58967908e-01  3.16919928e-09  3.12734989e-09  3.27781911e-09  4.58967908e-01  3.26809010e-09  3.15216600e-09  1.61914858e-07  2.47639811e-08  3.60000000e-01 
 3.70000000e-01  4.58967922e-01  3.16919926e-09  3.12734989e-09  3.27781911e-09  4.58967922e-01  3.26809010e-09  3.15216600e-09  1.61914874e-07  2.47640415e-08  3.70000000e-01 
 3.80000000e-01  4.58967924e-01  3.16919927e-09  3.12734989e-09  3.27781917e-09  4.58967924e-01  3.26809005e-09  3.15216600e-09  1.61914892e-07  2.47639207e-08  3.80000000e-01 
 3.90000000e-01  4.58967923e-01  3.16919927e-09  3.12734989e-09  3.27781911e-09  4.58967923e-01  3.26809010e-09  3.15216600e-09  1.61914897e-07  2.47639740e-08  3.90000000e-01 
 4.00000000e-01  4.58967924e-01  3.16919927e-09  3.12734989e-09  3.27781911e-09  4.58967924e-01  3.26809005e-09  3.15216600e-09  1.61914885e-07  2.47637502e-08  4.00000000e-01 
 4.10000000e-01  4.58967939e-01  3.16919922e-09  3.12734989e-09  3.27781917e-09  4.58967939e-01  3.26809005e-09  3.15216600e-09  1.61914899e-07  2.47638461e-08  4.10000000e-01 
 4.20000000e-01  4.58967919e-01  3.16919923e-09  3.12734989e-09  3.27781911e-09  4.58967919e-01  3.26809010e-09  3.15216594e-09  1.61914874e-07  2.47636258e-08  4.20000000e-01 
 4.30000000e-01  4.58967929e-01  3.16919928e-09  3.12734989e-09  3.27781911e-09  4.58967929e-01  3.26809010e-09  3.15216600e-09  1.61914891e-07  2.47636436e-08  4.30000000e-01 
 4.40000000e-01  4.58967928e-01  3.16919927e-09  3.12734989e-09  3.27781911e-09  4.58967928e-01  3.26809005e-09  3.15216594e-09  1.61914889e-07  2.47635619e-08  4.40000000e-01 
 4.50000000e-01  4.58967930e-01  3.16919921e-09  3.12734989e-09  3.27781911e-09  4.58967930e-01  3.26809010e-09  3.15216600e-09  1.61914897e-07  2.47635690e-08  4.50000000e-01 
 4.60000000e-01  4.58967929e-01  3.16919923e-09  3.12734989e-09  3.27781911e-09  4.58967929e-01  3.26809005e-09  3.15216600e-09  1.61914895e-07  2.47634233e-08  4.60000000e-01 
 4.70000000e-01  4.58967943e-01  3.16919928e-09  3.12734989e-09  3.27781911e-09  4.58967943e-01  3.26809005e-09  3.15216595e-09  1.61914921e-07  2.47634553e-08  4.70000000e-01 
 4.80000000e-01  4.58967911e-01  3.16919926e-09  3.12734989e-09  3.27781911e-09  4.58967911e-01  3.26809010e-09  3.15216594e-09  1.61914859e-07  2.47632777e-08  4.80000000e-01 
 4.90000000e-01  4.58967930e-01  3.16919927e-09  3.12734989e-09  3.27781911e-09  4.58967930e-01  3.26809010e-09  3.15216600e-09  1.61914902e-07  2.47632563e-08  4.90000000e-01 
 5.00000000e-01  4.58967908e-01  3.16919921e-09  3.12734989e-09  3.27781911e-09  4.58967908e-01  3.26809005e-09  3.15216600e-09  1.61914845e-07  2.47632848e-08  5.00000000e-01 
 5.10000000e-01  4.58967898e-01  3.16919928e-09  3.12734989e-09  3.27781911e-09  4.58967898e-01  3.26809004e-09  3.15216594e-09  1.61914852e-07  2.47630147e-08  5.10000000e-01 
 5.20000000e-01  4.58967918e-01  3.16919926e-09  3.12734989e-09  3.27781911e-09  4.58967918e-01  3.26809005e-09  3.15216600e-09  1.61914871e-07  2.47631071e-08  5.20000000e-01 
 5.30000000e-01  4.58967935e-01  3.16919927e-09  3.12734989e-09  3.27781911e-09  4.58967935e-01  3.26809005e-09  3.15216600e-09  1.61914904e-07  2.47630183e-08  5.30000000e-01 
 5.40000000e-01  4.58967914e-01  3.16919927e-09  3.12734989e-09  3.27781911e-09  4.58967914e-01  3.26809010e-09  3.15216594e-09  1.61914871e-07  2.47628691e-08  5.40000000e-01 
 5.50000000e-01  4.58967920e-01  3.16919927e-09  3.12734989e-09  3.27781911e-09  4.58967920e-01  3.26809005e-09  3.15216600e-09  1.61914886e-07  2.47629259e-08  5.50000000e-01 
 5.60000000e-01  4.58967924e-01  3.16919927e-09  3.12734989e-09  3.27781911e-09  4.58967924e-01  3.26809010e-09  3.15216594e-09  1.61914893e-07  2.47628051e-08  5.60000000e-01 
 5.70000000e-01  4.58967943e-01  3.16919922e-09  3.12734989e-09  3.27781911e-09  4.58967942e-01  3.26809011e-09  3.15216600e-09  1.61914922e-07  2.47627554e-08  5.70000000e-01 
 5.80000000e-01  4.58967923e-01  3.16919923e-09  3.12734989e-09  3.27781911e-09  4.58967923e-01  3.26809005e-09  3.15216600e-09  1.61914884e-07  2.47628194e-08  5.80000000e-01 
 5.90000000e-01  4.58967920e-01  3.16919928e-09  3.12734989e-09  3.27781911e-09  4.58967920e-01  3.26809005e-09  3.15216600e-09  1.61914877e-07  2.47626843e-08  5.90000000e-01 
 6.00000000e-01  4.58967910e-01  3.16919926e-09  3.12734989e-09  3.27781911e-09  4.58967910e-01  3.26809005e-09  3.15216594e-09  1.61914861e-07  2.47625707e-08  6.00000000e-01 
 6.10000000e-01  4.58967930e-01  3.16919921e-09  3.12734989e-09  3.27781917e-09  4.58967930e-01  3.26809010e-09  3.15216600e-09  1.61914886e-07  2.47625351e-08  6.10000000e-01 
 6.20000000e-01  4.58967927e-01  3.16919923e-09  3.12734989e-09  3.27781911e-09  4.58967927e-01  3.26809010e-09  3.15216594e-09  1.61914893e-07  2.47625280e-08  6.20000000e-01 
 6.30000000e-01  4.58967934e-01  3.16919922e-09  3.12734989e-09  3.27781917e-09  4.58967934e-01  3.26809005e-09  3.15216594e-09  1.61914895e-07  2.47624783e-08  6.30000000e-01 
 6.40000000e-01  4.58967927e-01  3.16919922e-09  3.12734989e-09  3.27781917e-09  4.58967927e-01  3.26809010e-09  3.15216600e-09  1.61914883e-07  2.47625067e-08  6.40000000e-01 
 6.50000000e-01  4.58967913e-01  3.16919928e-09  3.12734989e-09  3.27781911e-09  4.58967913e-01  3.26809010e-09  3.15216600e-09  1.61914853e-07  2.47623362e-08  6.50000000e-01 
 6.60000000e-01  4.58967912e-01  3.16919926e-09  3.12734989e-09  3.27781911e-09  4.58967912e-01  3.26809005e-09  3.15216594e-09  1.61914865e-07  2.47622722e-08  6.60000000e-01 
 6.70000000e-01  4.58967914e-01  3.16919927e-09  3.12734989e-09  3.27781911e-09  4.58967914e-01  3.26809010e-09  3.15216600e-09  1.61914873e-07  2.47622580e-08  6.70000000e-01 
 6.80000000e-01  4.58967942e-01  3.16919922e-09  3.12734989e-09  3.27781911e-09  4.58967942e-01  3.26809005e-09  3.15216595e-09  1.61914914e-07  2.47622651e-08  6.80000000e-01 
 6.90000000e-01  4.58967929e-01  3.16919928e-09  3.12734989e-09  3.27781911e-09  4.58967929e-01  3.26809005e-09  3.15216600e-09  1.61914891e-07  2.47622012e-08  6.90000000e-01 
 7.00000000e-01  4.58967936e-01  3.16919921e-09  3.12734989e-09  3.27781911e-09  4.58967936e-01  3.26809011e-09  3.15216600e-09  1.61914898e-07  2.47621799e-08  7.00000000e-01 
 7.10000000e-01  4.58967914e-01  3.16919928e-09  3.12734989e-09  3.27781911e-09  4.58967914e-01  3.26809010e-09  3.15216594e-09  1.61914856e-07  2.47619241e-08  7.10000000e-01 
 7.20000000e-01  4.58967922e-01  3.16919926e-09  3.12734989e-09  3.27781911e-09  4.58967922e-01  3.26809005e-09  3.15216594e-09  1.61914887e-07  2.47619880e-08  7.20000000e-01 
 7.30000000e-01  4.58967912e-01  3.16919921e-09  3.12734989e-09  3.27781911e-09  4.58967912e-01  3.26809010e-09  3.15216600e-09  1.61914873e-07  2.47619951e-08  7.30000000e-01 
 7.40000000e-01  4.58967929e-01  3.16919923e-09  3.12734989e-09  3.27781911e-09  4.58967929e-01  3.26809005e-09  3.15216600e-09  1.61914894e-07  2.47619028e-08  7.40000000e-01 
 7.50000000e-01  4.58967925e-01  3.16919922e-09  3.12734989e-09  3.27781911e-09  4.58967924e-01  3.26809005e-09  3.15216594e-09  1.61914903e-07  2.47618104e-08  7.50000000e-01 
 7.60000000e-01  4.58967926e-01  3.16919928e-09  3.12734989e-09  3.27781911e-09  4.58967926e-01  3.26809005e-09  3.15216594e-09  1.61914878e-07  2.47617962e-08  7.60000000e-01 
 7.70000000e-01  4.58967921e-01  3.16919926e-09  3.12734989e-09  3.27781911e-09  4.58967921e-01  3.26809010e-09  3.15216600e-09  1.61914885e-07  2.47617180e-08  7.70000000e-01 
 7.80000000e-01  4.58967917e-01  3.16919921e-09  3.12734984e-09  3.27781917e-09  4.58967917e-01  3.26809010e-09  3.15216600e-09  1.61914862e-07  2.47616612e-08  7.80000000e-01 
 7.90000000e-01  4.58967922e-01  3.16919923e-09  3.12734984e-09  3.27781911e-09  4.58967922e-01  3.26809010e-09  3.15216594e-09  1.61914885e-07  2.47616043e-08  7.90000000e-01 
 8.00000000e-01  4.58967916e-01  3.16919928e-09  3.12734989e-09  3.27781911e-09  4.58967916e-01  3.26809010e-09  3.15216594e-09  1.61914873e-07  2.47614622e-08  8.00000000e-01 
 8.10000000e-01  4.58967936e-01  3.16919927e-09  3.12734989e-09  3.27781917e-09  4.58967936e-01  3.26809005e-09  3.15216600e-09  1.61914893e-07  2.47614409e-08  8.10000000e-01 
 8.20000000e-01  4.58967933e-01  3.16919927e-09  3.12734989e-09  3.27781911e-09  4.58967933e-01  3.26809011e-09  3.15216594e-09  1.61914888e-07  2.47614835e-08  8.20000000e-01 
 8.30000000e-01  4.58967935e-01  3.16919921e-09  3.12734989e-09  3.27781911e-09  4.58967935e-01  3.26809005e-09  3.15216600e-09  1.61914904e-07  2.47614125e-08  8.30000000e-01 
 8.40000000e-01  4.58967914e-01  3.16919923e-09  3.12734989e-09  3.27781911e-09  4.58967914e-01  3.26809005e-09  3.15216600e-09  1.61914878e-07  2.47613769e-08  8.40000000e-01 
 8.50000000e-01  4.58967934e-01  3.16919928e-09  3.12734989e-09  3.27781911e-09  4.58967934e-01  3.26809005e-09  3.15216594e-09  1.61914902e-07  2.47613841e-08  8.50000000e-01 
 8.60000000e-01  4.58967923e-01  3.16919926e-09  3.12734989e-09  3.27781911e-09  4.58967923e-01  3.26809005e-09  3.15216594e-09  1.61914888e-07  2.47613130e-08  8.60000000e-01 
 8.70000000e-01  4.58967915e-01  3.16919927e-09  3.12734989e-09  3.27781917e-09  4.58967915e-01  3.26809005e-09  3.15216600e-09  1.61914851e-07  2.47611638e-08  8.70000000e-01 
 8.80000000e-01  4.58967943e-01  3.16919922e-09  3.12734989e-09  3.27781911e-09  4.58967943e-01  3.26809011e-09  3.15216600e-09  1.61914893e-07  2.47612064e-08  8.80000000e-01 
 8.90000000e-01  4.58967903e-01  3.16919922e-09  3.12734989e-09  3.27781911e-09  4.58967902e-01  3.26809010e-09  3.15216600e-09  1.61914848e-07  2.47611780e-08  8.90000000e-01 
 9.00000000e-01  4.58967907e-01  3.16919922e-09  3.12734989e-09  3.27781911e-09  4.58967907e-01  3.26809010e-09  3.15216600e-09  1.61914868e-07  2.47610927e-08  9.00000000e-01 
 9.10000000e-01  4.58967928e-01  3.16919928e-09  3.12734989e-09  3.27781911e-09  4.58967928e-01  3.26809005e-09  3.15216600e-09  1.61914889e-07  2.47610359e-08  9.10000000e-01 
 9.20000000e-01  4.58967902e-01  3.16919921e-09  3.12734983e-09  3.27781911e-09  4.58967902e-01  3.26809010e-09  3.15216594e-09  1.61914848e-07  2.47609506e-08  9.20000000e-01 
 9.30000000e-01  4.58967935e-01  3.16919923e-09  3.12734989e-09  3.27781917e-09  4.58967935e-01  3.26809011e-09  3.15216600e-09  1.61914896e-07  2.47607304e-08  9.30000000e-01 
 9.40000000e-01  4.58967923e-01  3.16919928e-09  3.12734989e-09  3.27781911e-09  4.58967923e-01  3.26809005e-09  3.15216600e-09  1.61914884e-07  2.47608227e-08  9.40000000e-01 
 9.50000000e-01  4.58967940e-01  3.16919927e-09  3.12734989e-09  3.27781911e-09  4.58967940e-01  3.26809011e-09  3.15216595e-09  1.61914906e-07  2.47609293e-08  9.50000000e-01 
 9.60000000e-01  4.58967929e-01  3.16919927e-09  3.12734989e-09  3.27781911e-09  4.58967929e-01  3.26809005e-09  3.15216594e-09  1.61914897e-07  2.47606522e-08  9.60000000e-01 
 9.70000000e-01  4.58967907e-01  3.16919927e-09  3.12734989e-09  3.27781911e-09  4.58967907e-01  3.26809010e-09  3.15216600e-09  1.61914862e-07  2.47606238e-08  9.70000000e-01 
 9.80000000e-01  4.58967927e-01  3.16919921e-09  3.12734989e-09  3.27781911e-09  4.58967927e-01  3.26809010e-09  3.15216600e-09  1.61914899e-07  2.47606025e-08  9.80000000e-01 
 9.90000000e-01  4.58967930e-01  3.16919928e-09  3.12734989e-09  3.27781917e-09  4.58967930e-01  3.26809005e-09  3.15216594e-09  1.61914891e-07  2.47606167e-08  9.90000000e-01 
 1.00000000e+00  4.58967935e-01  3.16919927e-09  3.12734989e-09  3.27781911e-09  4.58967935e-01  3.26809005e-09  3.15216600e-09  1.61914900e-07  2.47605172e-08  1.00000000e+00 
 1.01000000e+00  4.58967934e-01  3.16919921e-09  3.12734989e-09  3.27781917e-09  4.58967934e-01  3.26809005e-09  3.15216600e-09  1.61914908e-07  2.47605172e-08  1.01000000e+00 
 1.02000000e+00  4.58967939e-01  3.16919923e-09  3.12734989e-09  3.27781911e-09  4.58967939e-01  3.26809005e-09  3.15216600e-09  1.61914905e-07  2.47604390e-08  1.02000000e+00 
 1.03000000e+00  4.58967922e-01  3.16919922e-09  3.12734989e-09  3.27781911e-09  4.58967922e-01  3.26809010e-09  3.15216594e-09  1.61914872e-07  2.47602827e-08  1.03000000e+00 
 1.04000000e+00  4.58967931e-01  3.16919922e-09  3.12734989e-09  3.27781911e-09  4.58967931e-01  3.26809010e-09  3.15216594e-09  1.61914893e-07  2.47603325e-08  1.04000000e+00 
 1.05000000e+00  4.58967943e-01  3.16919922e-09  3.12734989e-09  3.27781911e-09  4.58967943e-01  3.26809005e-09  3.15216595e-09  1.61914916e-07  2.47602614e-08  1.05000000e+00 
 1.06000000e+00  4.58967937e-01  3.16919928e-09  3.12734989e-09  3.27781911e-09  4.58967936e-01  3.26809011e-09  3.15216600e-09  1.61914892e-07  2.47602330e-08  1.06000000e+00 
 1.07000000e+00  4.58967931e-01  3.16919921e-09  3.12734989e-09  3.27781911e-09  4.58967931e-01  3.26809005e-09  3.15216600e-09  1.61914889e-07  2.47601051e-08  1.07000000e+00 
 1.08000000e+00  4.58967923e-01  3.16919928e-09  3.12734989e-09  3.27781911e-09  4.58967923e-01  3.26809010e-09  3.15216600e-09  1.61914875e-07  2.47600482e-08  1.08000000e+00 
 1.09000000e+00  4.58967933e-01  3.16919927e-09  3.12734989e-09  3.27781911e-09  4.58967933e-01  3.26809011e-09  3.15216600e-09  1.61914894e-07  2.47600482e-08  1.09000000e+00 
 1.10000000e+00  4.58967933e-01  3.16919927e-09  3.12734989e-09  3.27781911e-09  4.58967933e-01  3.26809011e-09  3.15216600e-09  1.61914894e-07  2.47599914e-08  1.10000000e+00 
