 v-sweep         v(b0)           v(b1)           v(b2)           v(b3)           v(b4)           v(b5)           v(b6)           i(vbias)        i(viout)        v(vout)        
 0.00000000e+00  4.58266536e-01  4.58266536e-01  4.58266536e-01  4.58266536e-01  4.58266536e-01  3.42908336e-09  4.58266536e-01  1.57981646e-07  1.40776689e-07  0.00000000e+00 
 1.00000000e-02  4.58266543e-01  4.58266543e-01  4.58266543e-01  4.58266543e-01  4.58266543e-01  3.42908339e-09  4.58266543e-01  1.57981653e-07  1.40776285e-07  1.00000000e-02 
 2.00000000e-02  4.58266519e-01  4.58266519e-01  4.58266519e-01  4.58266518e-01  4.58266519e-01  3.42908339e-09  4.58266519e-01  1.57981614e-07  1.40775823e-07  2.00000000e-02 
 3.00000000e-02  4.58266515e-01  4.58266515e-01  4.58266515e-01  4.58266514e-01  4.58266515e-01  3.42908339e-09  4.58266515e-01  1.57981613e-07  1.40775474e-07  3.00000000e-02 
 4.00000000e-02  4.58266530e-01  4.58266530e-01  4.58266530e-01  4.58266530e-01  4.58266530e-01  3.42908334e-09  4.58266530e-01  1.57981628e-07  1.40775264e-07  4.00000000e-02 
 5.00000000e-02  4.58266547e-01  4.58266547e-01  4.58266547e-01  4.58266547e-01  4.58266547e-01  3.42908334e-09  4.58266547e-01  1.57981654e-07  1.40774799e-07  5.00000000e-02 
 6.00000000e-02  4.58266529e-01  4.58266529e-01  4.58266529e-01  4.58266529e-01  4.58266529e-01  3.42908334e-09  4.58266529e-01  1.57981647e-07  1.40774453e-07  6.00000000e-02 
 7.00000000e-02  4.58266549e-01  4.58266549e-01  4.58266549e-01  4.58266549e-01  4.58266549e-01  3.42908339e-09  4.58266549e-01  1.57981650e-07  1.40774159e-07  7.00000000e-02 
 8.00000000e-02  4.58266560e-01  4.58266559e-01  4.58266559e-01  4.58266559e-01  4.58266559e-01  3.42908339e-09  4.58266560e-01  1.57981674e-07  1.40773863e-07  8.00000000e-02 
 9.00000000e-02  4.58266534e-01  4.58266534e-01  4.58266534e-01  4.58266533e-01  4.58266534e-01  3.42908334e-09  4.58266534e-01  1.57981627e-07  1.40773617e-07  9.00000000e-02 
 1.00000000e-01  4.58266556e-01  4.58266556e-01  4.58266556e-01  4.58266556e-01  4.58266556e-01  3.42908334e-09  4.58266556e-01  1.57981669e-07  1.40773316e-07  1.00000000e-01 
 1.10000000e-01  4.58266549e-01  4.58266549e-01  4.58266549e-01  4.58266549e-01  4.58266549e-01  3.42908339e-09  4.58266549e-01  1.57981669e-07  1.40773021e-07  1.10000000e-01 
 1.20000000e-01  4.58266536e-01  4.58266536e-01  4.58266536e-01  4.58266536e-01  4.58266536e-01  3.42908339e-09  4.58266536e-01  1.57981652e-07  1.40772733e-07  1.20000000e-01 
 1.30000000e-01  4.58266533e-01  4.58266533e-01  4.58266533e-01  4.58266533e-01  4.58266533e-01  3.42908334e-09  4.58266533e-01  1.57981640e-07  1.40772398e-07  1.30000000e-01 
 1.40000000e-01  4.58266550e-01  4.58266549e-01  4.58266550e-01  4.58266549e-01  4.58266550e-01  3.42908334e-09  4.58266550e-01  1.57981657e-07  1.40772129e-07  1.40000000e-01 
 1.50000000e-01  4.58266549e-01  4.58266549e-01  4.58266549e-01  4.58266549e-01  4.58266549e-01  3.42908339e-09  4.58266549e-01  1.57981652e-07  1.40771924e-07  1.50000000e-01 
 1.60000000e-01  4.58266515e-01  4.58266515e-01  4.58266515e-01  4.58266515e-01  4.58266515e-01  3.42908339e-09  4.58266515e-01  1.57981622e-07  1.40771675e-07  1.60000000e-01 
 1.70000000e-01  4.58266532e-01  4.58266531e-01  4.58266531e-01  4.58266531e-01  4.58266532e-01  3.42908334e-09  4.58266532e-01  1.57981618e-07  1.40771395e-07  1.70000000e-01 
 1.80000000e-01  4.58266530e-01  4.58266530e-01  4.58266530e-01  4.58266530e-01  4.58266530e-01  3.42908339e-09  4.58266530e-01  1.57981630e-07  1.40771284e-07  1.80000000e-01 
 1.90000000e-01  4.58266540e-01  4.58266540e-01  4.58266540e-01  4.58266540e-01  4.58266540e-01  3.42908339e-09  4.58266540e-01  1.57981644e-07  1.40770945e-07  1.90000000e-01 
 2.00000000e-01  4.58266519e-01  4.58266518e-01  4.58266518e-01  4.58266518e-01  4.58266518e-01  3.42908339e-09  4.58266519e-01  1.57981637e-07  1.40770839e-07  2.00000000e-01 
 2.10000000e-01  4.58266536e-01  4.58266535e-01  4.58266536e-01  4.58266535e-01  4.58266536e-01  3.42908339e-09  4.58266536e-01  1.57981639e-07  1.40770728e-07  2.10000000e-01 
 2.20000000e-01  4.58266528e-01  4.58266528e-01  4.58266528e-01  4.58266528e-01  4.58266528e-01  3.42908334e-09  4.58266528e-01  1.57981630e-07  1.40770506e-07  2.20000000e-01 
 2.30000000e-01  4.58266527e-01  4.58266527e-01  4.58266527e-01  4.58266527e-01  4.58266527e-01  3.42908334e-09  4.58266527e-01  1.57981617e-07  1.40770375e-07  2.30000000e-01 
 2.40000000e-01  4.58266532e-01  4.58266532e-01  4.58266532e-01  4.58266532e-01  4.58266532e-01  3.42908334e-09  4.58266532e-01  1.57981636e-07  1.40770151e-07  2.40000000e-01 
 2.50000000e-01  4.58266552e-01  4.58266552e-01  4.58266552e-01  4.58266552e-01  4.58266552e-01  3.42908339e-09  4.58266552e-01  1.57981673e-07  1.40770085e-07  2.50000000e-01 
 2.60000000e-01  4.58266538e-01  4.58266538e-01  4.58266538e-01  4.58266538e-01  4.58266538e-01  3.42908334e-09  4.58266538e-01  1.57981656e-07  1.40769881e-07  2.60000000e-01 
 2.70000000e-01  4.58266550e-01  4.58266549e-01  4.58266549e-01  4.58266549e-01  4.58266549e-01  3.42908334e-09  4.58266550e-01  1.57981661e-07  1.40769830e-07  2.70000000e-01 
 2.80000000e-01  4.58266541e-01  4.58266540e-01  4.58266541e-01  4.58266540e-01  4.58266541e-01  3.42908339e-09  4.58266541e-01  1.57981650e-07  1.40769574e-07  2.80000000e-01 
 2.90000000e-01  4.58266557e-01  4.58266557e-01  4.58266557e-01  4.58266557e-01  4.58266557e-01  3.42908339e-09  4.58266557e-01  1.57981676e-07  1.40769455e-07  2.90000000e-01 
 3.00000000e-01  4.58266547e-01  4.58266547e-01  4.58266547e-01  4.58266547e-01  4.58266547e-01  3.42908334e-09  4.58266547e-01  1.57981666e-07  1.40769306e-07  3.00000000e-01 
 3.10000000e-01  4.58266537e-01  4.58266537e-01  4.58266537e-01  4.58266537e-01  4.58266537e-01  3.42908339e-09  4.58266537e-01  1.57981643e-07  1.40769185e-07  3.10000000e-01 
 3.20000000e-01  4.58266547e-01  4.58266546e-01  4.58266547e-01  4.58266546e-01  4.58266547e-01  3.42908339e-09  4.58266547e-01  1.57981663e-07  1.40769075e-07  3.20000000e-01 
 3.30000000e-01  4.58266522e-01  4.58266522e-01  4.58266522e-01  4.58266522e-01  4.58266522e-01  3.42908334e-09  4.58266522e-01  1.57981627e-07  1.40768943e-07  3.30000000e-01 
 3.40000000e-01  4.58266515e-01  4.58266515e-01  4.58266515e-01  4.58266515e-01  4.58266515e-01  3.42908339e-09  4.58266515e-01  1.57981617e-07  1.40768709e-07  3.40000000e-01 
 3.50000000e-01  4.58266531e-01  4.58266531e-01  4.58266531e-01  4.58266531e-01  4.58266531e-01  3.42908339e-09  4.58266531e-01  1.57981639e-07  1.40768623e-07  3.50000000e-01 
 3.60000000e-01  4.58266537e-01  4.58266537e-01  4.58266537e-01  4.58266537e-01  4.58266537e-01  3.42908334e-09  4.58266537e-01  1.57981653e-07  1.40768439e-07  3.60000000e-01 
 3.70000000e-01  4.58266533e-01  4.58266532e-01  4.58266532e-01  4.58266532e-01  4.58266532e-01  3.42908339e-09  4.58266533e-01  1.57981631e-07  1.40768382e-07  3.70000000e-01 
 3.80000000e-01  4.58266541e-01  4.58266540e-01  4.58266541e-01  4.58266540e-01  4.58266541e-01  3.42908339e-09  4.58266541e-01  1.57981641e-07  1.40768229e-07  3.80000000e-01 
 3.90000000e-01  4.58266534e-01  4.58266534e-01  4.58266534e-01  4.58266534e-01  4.58266534e-01  3.42908334e-09  4.58266534e-01  1.57981650e-07  1.40768190e-07  3.90000000e-01 
 4.00000000e-01  4.58266552e-01  4.58266552e-01  4.58266552e-01  4.58266552e-01  4.58266552e-01  3.42908334e-09  4.58266552e-01  1.57981662e-07  1.40768094e-07  4.00000000e-01 
 4.10000000e-01  4.58266549e-01  4.58266549e-01  4.58266549e-01  4.58266549e-01  4.58266549e-01  3.42908334e-09  4.58266549e-01  1.57981671e-07  1.40768076e-07  4.10000000e-01 
 4.20000000e-01  4.58266535e-01  4.58266535e-01  4.58266535e-01  4.58266535e-01  4.58266535e-01  3.42908334e-09  4.58266535e-01  1.57981653e-07  1.40767863e-07  4.20000000e-01 
 4.30000000e-01  4.58266531e-01  4.58266530e-01  4.58266530e-01  4.58266530e-01  4.58266530e-01  3.42908339e-09  4.58266531e-01  1.57981621e-07  1.40767686e-07  4.30000000e-01 
 4.40000000e-01  4.58266549e-01  4.58266549e-01  4.58266549e-01  4.58266549e-01  4.58266549e-01  3.42908339e-09  4.58266549e-01  1.57981652e-07  1.40767767e-07  4.40000000e-01 
 4.50000000e-01  4.58266550e-01  4.58266550e-01  4.58266550e-01  4.58266550e-01  4.58266550e-01  3.42908339e-09  4.58266550e-01  1.57981657e-07  1.40767757e-07  4.50000000e-01 
 4.60000000e-01  4.58266517e-01  4.58266516e-01  4.58266517e-01  4.58266516e-01  4.58266517e-01  3.42908334e-09  4.58266517e-01  1.57981636e-07  1.40767419e-07  4.60000000e-01 
 4.70000000e-01  4.58266544e-01  4.58266544e-01  4.58266544e-01  4.58266544e-01  4.58266544e-01  3.42908334e-09  4.58266544e-01  1.57981658e-07  1.40767295e-07  4.70000000e-01 
 4.80000000e-01  4.58266587e-01  4.58266586e-01  4.58266586e-01  4.58266586e-01  4.58266587e-01  3.42908340e-09  4.58266587e-01  1.57981720e-07  1.40767387e-07  4.80000000e-01 
 4.90000000e-01  4.58266567e-01  4.58266567e-01  4.58266567e-01  4.58266567e-01  4.58266567e-01  3.42908334e-09  4.58266567e-01  1.57981693e-07  1.40767234e-07  4.90000000e-01 
 5.00000000e-01  4.58266529e-01  4.58266528e-01  4.58266528e-01  4.58266528e-01  4.58266528e-01  3.42908339e-09  4.58266529e-01  1.57981640e-07  1.40767078e-07  5.00000000e-01 
 5.10000000e-01  4.58266519e-01  4.58266519e-01  4.58266519e-01  4.58266519e-01  4.58266519e-01  3.42908334e-09  4.58266519e-01  1.57981620e-07  1.40766904e-07  5.10000000e-01 
 5.20000000e-01  4.58266529e-01  4.58266529e-01  4.58266529e-01  4.58266529e-01  4.58266529e-01  3.42908334e-09  4.58266529e-01  1.57981627e-07  1.40766812e-07  5.20000000e-01 
 5.30000000e-01  4.58266534e-01  4.58266534e-01  4.58266534e-01  4.58266534e-01  4.58266534e-01  3.42908339e-09  4.58266534e-01  1.57981643e-07  1.40766797e-07  5.30000000e-01 
 5.40000000e-01  4.58266535e-01  4.58266534e-01  4.58266534e-01  4.58266534e-01  4.58266534e-01  3.42908339e-09  4.58266535e-01  1.57981650e-07  1.40766740e-07  5.40000000e-01 
 5.50000000e-01  4.58266536e-01  4.58266536e-01  4.58266536e-01  4.58266536e-01  4.58266536e-01  3.42908339e-09  4.58266536e-01  1.57981650e-07  1.40766613e-07  5.50000000e-01 
 5.60000000e-01  4.58266525e-01  4.58266525e-01  4.58266525e-01  4.58266525e-01  4.58266525e-01  3.42908339e-09  4.58266525e-01  1.57981632e-07  1.40766414e-07  5.60000000e-01 
 5.70000000e-01  4.58266521e-01  4.58266521e-01  4.58266521e-01  4.58266521e-01  4.58266521e-01  3.42908339e-09  4.58266521e-01  1.57981613e-07  1.40766470e-07  5.70000000e-01 
 5.80000000e-01  4.58266520e-01  4.58266519e-01  4.58266520e-01  4.58266519e-01  4.58266520e-01  3.42908339e-09  4.58266520e-01  1.57981617e-07  1.40766360e-07  5.80000000e-01 
 5.90000000e-01  4.58266549e-01  4.58266549e-01  4.58266549e-01  4.58266549e-01  4.58266549e-01  3.42908334e-09  4.58266549e-01  1.57981644e-07  1.40766318e-07  5.90000000e-01 
 6.00000000e-01  4.58266580e-01  4.58266580e-01  4.58266580e-01  4.58266580e-01  4.58266580e-01  3.42908339e-09  4.58266580e-01  1.57981709e-07  1.40766289e-07  6.00000000e-01 
 6.10000000e-01  4.58266534e-01  4.58266534e-01  4.58266534e-01  4.58266534e-01  4.58266534e-01  3.42908339e-09  4.58266534e-01  1.57981653e-07  1.40766112e-07  6.10000000e-01 
 6.20000000e-01  4.58266532e-01  4.58266532e-01  4.58266532e-01  4.58266532e-01  4.58266532e-01  3.42908334e-09  4.58266532e-01  1.57981629e-07  1.40765941e-07  6.20000000e-01 
 6.30000000e-01  4.58266552e-01  4.58266552e-01  4.58266552e-01  4.58266552e-01  4.58266552e-01  3.42908339e-09  4.58266552e-01  1.57981666e-07  1.40765906e-07  6.30000000e-01 
 6.40000000e-01  4.58266551e-01  4.58266550e-01  4.58266550e-01  4.58266550e-01  4.58266550e-01  3.42908339e-09  4.58266551e-01  1.57981665e-07  1.40765835e-07  6.40000000e-01 
 6.50000000e-01  4.58266527e-01  4.58266526e-01  4.58266526e-01  4.58266526e-01  4.58266527e-01  3.42908339e-09  4.58266527e-01  1.57981642e-07  1.40765600e-07  6.50000000e-01 
 6.60000000e-01  4.58266563e-01  4.58266563e-01  4.58266563e-01  4.58266563e-01  4.58266563e-01  3.42908339e-09  4.58266563e-01  1.57981684e-07  1.40765721e-07  6.60000000e-01 
 6.70000000e-01  4.58266543e-01  4.58266543e-01  4.58266543e-01  4.58266543e-01  4.58266543e-01  3.42908334e-09  4.58266543e-01  1.57981665e-07  1.40765501e-07  6.70000000e-01 
 6.80000000e-01  4.58266534e-01  4.58266534e-01  4.58266534e-01  4.58266534e-01  4.58266534e-01  3.42908339e-09  4.58266534e-01  1.57981644e-07  1.40765358e-07  6.80000000e-01 
 6.90000000e-01  4.58266543e-01  4.58266543e-01  4.58266543e-01  4.58266543e-01  4.58266543e-01  3.42908334e-09  4.58266543e-01  1.57981646e-07  1.40765373e-07  6.90000000e-01 
 7.00000000e-01  4.58266529e-01  4.58266528e-01  4.58266528e-01  4.58266528e-01  4.58266529e-01  3.42908339e-09  4.58266529e-01  1.57981626e-07  1.40765302e-07  7.00000000e-01 
 7.10000000e-01  4.58266554e-01  4.58266554e-01  4.58266554e-01  4.58266554e-01  4.58266554e-01  3.42908334e-09  4.58266554e-01  1.57981666e-07  1.40765223e-07  7.10000000e-01 
 7.20000000e-01  4.58266541e-01  4.58266541e-01  4.58266541e-01  4.58266541e-01  4.58266541e-01  3.42908339e-09  4.58266541e-01  1.57981652e-07  1.40765131e-07  7.20000000e-01 
 7.30000000e-01  4.58266561e-01  4.58266561e-01  4.58266561e-01  4.58266561e-01  4.58266561e-01  3.42908334e-09  4.58266561e-01  1.57981677e-07  1.40765017e-07  7.30000000e-01 
 7.40000000e-01  4.58266556e-01  4.58266556e-01  4.58266556e-01  4.58266556e-01  4.58266556e-01  3.42908334e-09  4.58266556e-01  1.57981679e-07  1.40764847e-07  7.40000000e-01 
 7.50000000e-01  4.58266534e-01  4.58266534e-01  4.58266534e-01  4.58266534e-01  4.58266534e-01  3.42908334e-09  4.58266534e-01  1.57981649e-07  1.40764683e-07  7.50000000e-01 
 7.60000000e-01  4.58266519e-01  4.58266518e-01  4.58266518e-01  4.58266518e-01  4.58266519e-01  3.42908339e-09  4.58266519e-01  1.57981615e-07  1.40764556e-07  7.60000000e-01 
 7.70000000e-01  4.58266576e-01  4.58266576e-01  4.58266576e-01  4.58266576e-01  4.58266576e-01  3.42908334e-09  4.58266576e-01  1.57981693e-07  1.40764634e-07  7.70000000e-01 
 7.80000000e-01  4.58266538e-01  4.58266537e-01  4.58266537e-01  4.58266537e-01  4.58266537e-01  3.42908339e-09  4.58266538e-01  1.57981654e-07  1.40764534e-07  7.80000000e-01 
 7.90000000e-01  4.58266539e-01  4.58266538e-01  4.58266538e-01  4.58266538e-01  4.58266538e-01  3.42908339e-09  4.58266539e-01  1.57981642e-07  1.40764413e-07  7.90000000e-01 
 8.00000000e-01  4.58266543e-01  4.58266543e-01  4.58266543e-01  4.58266543e-01  4.58266543e-01  3.42908339e-09  4.58266543e-01  1.57981656e-07  1.40764300e-07  8.00000000e-01 
 8.10000000e-01  4.58266550e-01  4.58266550e-01  4.58266550e-01  4.58266550e-01  4.58266550e-01  3.42908339e-09  4.58266550e-01  1.57981675e-07  1.40764250e-07  8.10000000e-01 
 8.20000000e-01  4.58266551e-01  4.58266551e-01  4.58266551e-01  4.58266551e-01  4.58266551e-01  3.42908334e-09  4.58266551e-01  1.57981674e-07  1.40764101e-07  8.20000000e-01 
 8.30000000e-01  4.58266522e-01  4.58266522e-01  4.58266522e-01  4.58266522e-01  4.58266522e-01  3.42908334e-09  4.58266522e-01  1.57981638e-07  1.40763994e-07  8.30000000e-01 
 8.40000000e-01  4.58266511e-01  4.58266511e-01  4.58266511e-01  4.58266511e-01  4.58266511e-01  3.42908339e-09  4.58266511e-01  1.57981586e-07  1.40763731e-07  8.40000000e-01 
 8.50000000e-01  4.58266559e-01  4.58266559e-01  4.58266559e-01  4.58266559e-01  4.58266559e-01  3.42908339e-09  4.58266559e-01  1.57981685e-07  1.40763895e-07  8.50000000e-01 
 8.60000000e-01  4.58266530e-01  4.58266530e-01  4.58266530e-01  4.58266530e-01  4.58266530e-01  3.42908339e-09  4.58266530e-01  1.57981639e-07  1.40763717e-07  8.60000000e-01 
 8.70000000e-01  4.58266541e-01  4.58266541e-01  4.58266541e-01  4.58266540e-01  4.58266541e-01  3.42908334e-09  4.58266541e-01  1.57981636e-07  1.40763490e-07  8.70000000e-01 
 8.80000000e-01  4.58266529e-01  4.58266529e-01  4.58266529e-01  4.58266529e-01  4.58266529e-01  3.42908334e-09  4.58266529e-01  1.57981633e-07  1.40763454e-07  8.80000000e-01 
 8.90000000e-01  4.58266542e-01  4.58266542e-01  4.58266542e-01  4.58266542e-01  4.58266542e-01  3.42908339e-09  4.58266542e-01  1.57981643e-07  1.40763355e-07  8.90000000e-01 
 9.00000000e-01  4.58266529e-01  4.58266528e-01  4.58266528e-01  4.58266528e-01  4.58266529e-01  3.42908334e-09  4.58266529e-01  1.57981628e-07  1.40763348e-07  9.00000000e-01 
 9.10000000e-01  4.58266518e-01  4.58266518e-01  4.58266518e-01  4.58266518e-01  4.58266518e-01  3.42908339e-09  4.58266518e-01  1.57981619e-07  1.40763184e-07  9.10000000e-01 
 9.20000000e-01  4.58266523e-01  4.58266523e-01  4.58266523e-01  4.58266523e-01  4.58266523e-01  3.42908339e-09  4.58266523e-01  1.57981617e-07  1.40763063e-07  9.20000000e-01 
 9.30000000e-01  4.58266542e-01  4.58266542e-01  4.58266542e-01  4.58266541e-01  4.58266542e-01  3.42908339e-09  4.58266542e-01  1.57981646e-07  1.40763056e-07  9.30000000e-01 
 9.40000000e-01  4.58266567e-01  4.58266567e-01  4.58266567e-01  4.58266567e-01  4.58266567e-01  3.42908334e-09  4.58266567e-01  1.57981701e-07  1.40762978e-07  9.40000000e-01 
 9.50000000e-01  4.58266528e-01  4.58266528e-01  4.58266528e-01  4.58266528e-01  4.58266528e-01  3.42908339e-09  4.58266528e-01  1.57981629e-07  1.40762765e-07  9.50000000e-01 
 9.60000000e-01  4.58266552e-01  4.58266552e-01  4.58266552e-01  4.58266552e-01  4.58266552e-01  3.42908339e-09  4.58266552e-01  1.57981670e-07  1.40762708e-07  9.60000000e-01 
 9.70000000e-01  4.58266555e-01  4.58266554e-01  4.58266554e-01  4.58266554e-01  4.58266555e-01  3.42908339e-09  4.58266555e-01  1.57981682e-07  1.40762651e-07  9.70000000e-01 
 9.80000000e-01  4.58266540e-01  4.58266540e-01  4.58266540e-01  4.58266540e-01  4.58266540e-01  3.42908339e-09  4.58266540e-01  1.57981658e-07  1.40762459e-07  9.80000000e-01 
 9.90000000e-01  4.58266553e-01  4.58266553e-01  4.58266553e-01  4.58266553e-01  4.58266553e-01  3.42908334e-09  4.58266553e-01  1.57981664e-07  1.40762353e-07  9.90000000e-01 
 1.00000000e+00  4.58266558e-01  4.58266558e-01  4.58266558e-01  4.58266558e-01  4.58266558e-01  3.42908339e-09  4.58266558e-01  1.57981671e-07  1.40762303e-07  1.00000000e+00 
 1.01000000e+00  4.58266542e-01  4.58266541e-01  4.58266542e-01  4.58266541e-01  4.58266542e-01  3.42908339e-09  4.58266542e-01  1.57981658e-07  1.40762211e-07  1.01000000e+00 
 1.02000000e+00  4.58266548e-01  4.58266547e-01  4.58266548e-01  4.58266547e-01  4.58266548e-01  3.42908339e-09  4.58266548e-01  1.57981668e-07  1.40761941e-07  1.02000000e+00 
 1.03000000e+00  4.58266539e-01  4.58266538e-01  4.58266538e-01  4.58266538e-01  4.58266538e-01  3.42908334e-09  4.58266539e-01  1.57981646e-07  1.40761905e-07  1.03000000e+00 
 1.04000000e+00  4.58266527e-01  4.58266527e-01  4.58266527e-01  4.58266526e-01  4.58266527e-01  3.42908339e-09  4.58266527e-01  1.57981628e-07  1.40761763e-07  1.04000000e+00 
 1.05000000e+00  4.58266530e-01  4.58266530e-01  4.58266530e-01  4.58266530e-01  4.58266530e-01  3.42908339e-09  4.58266530e-01  1.57981632e-07  1.40761614e-07  1.05000000e+00 
 1.06000000e+00  4.58266545e-01  4.58266544e-01  4.58266545e-01  4.58266544e-01  4.58266545e-01  3.42908339e-09  4.58266545e-01  1.57981658e-07  1.40761649e-07  1.06000000e+00 
 1.07000000e+00  4.58266543e-01  4.58266542e-01  4.58266542e-01  4.58266542e-01  4.58266542e-01  3.42908339e-09  4.58266543e-01  1.57981647e-07  1.40761479e-07  1.07000000e+00 
 1.08000000e+00  4.58266558e-01  4.58266558e-01  4.58266558e-01  4.58266558e-01  4.58266558e-01  3.42908339e-09  4.58266558e-01  1.57981680e-07  1.40761408e-07  1.08000000e+00 
 1.09000000e+00  4.58266554e-01  4.58266553e-01  4.58266553e-01  4.58266553e-01  4.58266554e-01  3.42908334e-09  4.58266554e-01  1.57981673e-07  1.40761273e-07  1.09000000e+00 
 1.10000000e+00  4.58266535e-01  4.58266535e-01  4.58266535e-01  4.58266535e-01  4.58266535e-01  3.42908339e-09  4.58266535e-01  1.57981638e-07  1.40761124e-07  1.10000000e+00 
