 v-sweep         v(b0)           v(b1)           v(b2)           v(b3)           v(b4)           v(b5)           v(b6)           i(vbias)        i(viout)        v(vout)        
 0.00000000e+00  4.59501524e-01  3.24459840e-09  4.59501524e-01  3.27474449e-09  3.29004399e-09  4.59501524e-01  3.20801504e-09  1.61916735e-07  5.79130915e-08  0.00000000e+00 
 1.00000000e-02  4.59501543e-01  3.24459839e-09  4.59501543e-01  3.27474453e-09  3.29004397e-09  4.59501543e-01  3.20801508e-09  1.61916784e-07  5.79128347e-08  1.00000000e-02 
 2.00000000e-02  4.59501501e-01  3.24459838e-09  4.59501501e-01  3.27474452e-09  3.29004397e-09  4.59501501e-01  3.20801507e-09  1.61916711e-07  5.79123383e-08  2.00000000e-02 
 3.00000000e-02  4.59501531e-01  3.24459844e-09  4.59501531e-01  3.27474454e-09  3.29004397e-09  4.59501531e-01  3.20801508e-09  1.61916759e-07  5.79120190e-08  3.00000000e-02 
 4.00000000e-02  4.59501527e-01  3.24459844e-09  4.59501527e-01  3.27474452e-09  3.29004397e-09  4.59501527e-01  3.20801508e-09  1.61916763e-07  5.79116759e-08  4.00000000e-02 
 5.00000000e-02  4.59501530e-01  3.24459844e-09  4.59501531e-01  3.27474454e-09  3.29004397e-09  4.59501531e-01  3.20801502e-09  1.61916749e-07  5.79113602e-08  5.00000000e-02 
 6.00000000e-02  4.59501541e-01  3.24459839e-09  4.59501541e-01  3.27474458e-09  3.29004397e-09  4.59501541e-01  3.20801502e-09  1.61916786e-07  5.79109831e-08  6.00000000e-02 
 7.00000000e-02  4.59501518e-01  3.24459844e-09  4.59501518e-01  3.27474452e-09  3.29004397e-09  4.59501518e-01  3.20801507e-09  1.61916738e-07  5.79107313e-08  7.00000000e-02 
 8.00000000e-02  4.59501513e-01  3.24459844e-09  4.59501513e-01  3.27474454e-09  3.29004397e-09  4.59501513e-01  3.20801502e-09  1.61916727e-07  5.79104151e-08  8.00000000e-02 
 9.00000000e-02  4.59501538e-01  3.24459844e-09  4.59501538e-01  3.27474457e-09  3.29004397e-09  4.59501538e-01  3.20801502e-09  1.61916786e-07  5.79101105e-08  9.00000000e-02 
 1.00000000e-01  4.59501511e-01  3.24459844e-09  4.59501511e-01  3.27474452e-09  3.29004397e-09  4.59501511e-01  3.20801507e-09  1.61916722e-07  5.79098360e-08  1.00000000e-01 
 1.10000000e-01  4.59501512e-01  3.24459838e-09  4.59501513e-01  3.27474454e-09  3.29004397e-09  4.59501513e-01  3.20801507e-09  1.61916730e-07  5.79096486e-08  1.10000000e-01 
 1.20000000e-01  4.59501507e-01  3.24459838e-09  4.59501507e-01  3.27474452e-09  3.29004397e-09  4.59501507e-01  3.20801507e-09  1.61916734e-07  5.79092694e-08  1.20000000e-01 
 1.30000000e-01  4.59501542e-01  3.24459839e-09  4.59501542e-01  3.27474454e-09  3.29004397e-09  4.59501542e-01  3.20801502e-09  1.61916784e-07  5.79092632e-08  1.30000000e-01 
 1.40000000e-01  4.59501533e-01  3.24459838e-09  4.59501533e-01  3.27474452e-09  3.29004397e-09  4.59501533e-01  3.20801508e-09  1.61916752e-07  5.79089514e-08  1.40000000e-01 
 1.50000000e-01  4.59501523e-01  3.24459844e-09  4.59501524e-01  3.27474454e-09  3.29004397e-09  4.59501523e-01  3.20801508e-09  1.61916751e-07  5.79087764e-08  1.50000000e-01 
 1.60000000e-01  4.59501528e-01  3.24459844e-09  4.59501529e-01  3.27474452e-09  3.29004397e-09  4.59501529e-01  3.20801508e-09  1.61916757e-07  5.79085846e-08  1.60000000e-01 
 1.70000000e-01  4.59501533e-01  3.24459838e-09  4.59501533e-01  3.27474454e-09  3.29004397e-09  4.59501533e-01  3.20801502e-09  1.61916767e-07  5.79083306e-08  1.70000000e-01 
 1.80000000e-01  4.59501540e-01  3.24459844e-09  4.59501540e-01  3.27474452e-09  3.29004397e-09  4.59501540e-01  3.20801502e-09  1.61916772e-07  5.79082506e-08  1.80000000e-01 
 1.90000000e-01  4.59501526e-01  3.24459844e-09  4.59501526e-01  3.27474454e-09  3.29004397e-09  4.59501526e-01  3.20801508e-09  1.61916747e-07  5.79080819e-08  1.90000000e-01 
 2.00000000e-01  4.59501511e-01  3.24459838e-09  4.59501511e-01  3.27474452e-09  3.29004397e-09  4.59501511e-01  3.20801507e-09  1.61916734e-07  5.79078492e-08  2.00000000e-01 
 2.10000000e-01  4.59501537e-01  3.24459844e-09  4.59501537e-01  3.27474454e-09  3.29004397e-09  4.59501537e-01  3.20801502e-09  1.61916784e-07  5.79076946e-08  2.10000000e-01 
 2.20000000e-01  4.59501536e-01  3.24459844e-09  4.59501536e-01  3.27474452e-09  3.29004397e-09  4.59501536e-01  3.20801508e-09  1.61916765e-07  5.79075472e-08  2.20000000e-01 
 2.30000000e-01  4.59501552e-01  3.24459844e-09  4.59501552e-01  3.27474454e-09  3.29004397e-09  4.59501552e-01  3.20801508e-09  1.61916810e-07  5.79074921e-08  2.30000000e-01 
 2.40000000e-01  4.59501550e-01  3.24459844e-09  4.59501550e-01  3.27474452e-09  3.29004397e-09  4.59501550e-01  3.20801502e-09  1.61916774e-07  5.79073500e-08  2.40000000e-01 
 2.50000000e-01  4.59501534e-01  3.24459844e-09  4.59501535e-01  3.27474448e-09  3.29004397e-09  4.59501534e-01  3.20801502e-09  1.61916763e-07  5.79070605e-08  2.50000000e-01 
 2.60000000e-01  4.59501514e-01  3.24459844e-09  4.59501514e-01  3.27474453e-09  3.29004397e-09  4.59501514e-01  3.20801507e-09  1.61916736e-07  5.79069290e-08  2.60000000e-01 
 2.70000000e-01  4.59501523e-01  3.24459838e-09  4.59501523e-01  3.27474457e-09  3.29004397e-09  4.59501523e-01  3.20801508e-09  1.61916746e-07  5.79069344e-08  2.70000000e-01 
 2.80000000e-01  4.59501535e-01  3.24459844e-09  4.59501535e-01  3.27474452e-09  3.29004397e-09  4.59501535e-01  3.20801508e-09  1.61916772e-07  5.79068153e-08  2.80000000e-01 
 2.90000000e-01  4.59501522e-01  3.24459844e-09  4.59501522e-01  3.27474452e-09  3.29004403e-09  4.59501522e-01  3.20801502e-09  1.61916737e-07  5.79065649e-08  2.90000000e-01 
 3.00000000e-01  4.59501539e-01  3.24459844e-09  4.59501539e-01  3.27474452e-09  3.29004397e-09  4.59501539e-01  3.20801508e-09  1.61916767e-07  5.79066040e-08  3.00000000e-01 
 3.10000000e-01  4.59501529e-01  3.24459838e-09  4.59501529e-01  3.27474452e-09  3.29004403e-09  4.59501529e-01  3.20801502e-09  1.61916751e-07  5.79065436e-08  3.10000000e-01 
 3.20000000e-01  4.59501502e-01  3.24459844e-09  4.59501503e-01  3.27474452e-09  3.29004397e-09  4.59501502e-01  3.20801502e-09  1.61916718e-07  5.79063340e-08  3.20000000e-01 
 3.30000000e-01  4.59501511e-01  3.24459838e-09  4.59501511e-01  3.27474454e-09  3.29004397e-09  4.59501511e-01  3.20801502e-09  1.61916714e-07  5.79062096e-08  3.30000000e-01 
 3.40000000e-01  4.59501511e-01  3.24459838e-09  4.59501511e-01  3.27474452e-09  3.29004397e-09  4.59501511e-01  3.20801502e-09  1.61916731e-07  5.79060533e-08  3.40000000e-01 
 3.50000000e-01  4.59501530e-01  3.24459844e-09  4.59501530e-01  3.27474454e-09  3.29004397e-09  4.59501530e-01  3.20801508e-09  1.61916770e-07  5.79060568e-08  3.50000000e-01 
 3.60000000e-01  4.59501513e-01  3.24459844e-09  4.59501513e-01  3.27474452e-09  3.29004397e-09  4.59501513e-01  3.20801502e-09  1.61916735e-07  5.79059538e-08  3.60000000e-01 
 3.70000000e-01  4.59501518e-01  3.24459838e-09  4.59501518e-01  3.27474454e-09  3.29004397e-09  4.59501518e-01  3.20801502e-09  1.61916736e-07  5.79058721e-08  3.70000000e-01 
 3.80000000e-01  4.59501540e-01  3.24459839e-09  4.59501541e-01  3.27474452e-09  3.29004397e-09  4.59501540e-01  3.20801508e-09  1.61916793e-07  5.79058401e-08  3.80000000e-01 
 3.90000000e-01  4.59501536e-01  3.24459839e-09  4.59501536e-01  3.27474454e-09  3.29004397e-09  4.59501536e-01  3.20801502e-09  1.61916759e-07  5.79056731e-08  3.90000000e-01 
 4.00000000e-01  4.59501530e-01  3.24459844e-09  4.59501530e-01  3.27474452e-09  3.29004397e-09  4.59501530e-01  3.20801508e-09  1.61916761e-07  5.79056056e-08  4.00000000e-01 
 4.10000000e-01  4.59501524e-01  3.24459838e-09  4.59501524e-01  3.27474454e-09  3.29004397e-09  4.59501524e-01  3.20801502e-09  1.61916750e-07  5.79055737e-08  4.10000000e-01 
 4.20000000e-01  4.59501525e-01  3.24459844e-09  4.59501525e-01  3.27474452e-09  3.29004397e-09  4.59501525e-01  3.20801502e-09  1.61916760e-07  5.79054316e-08  4.20000000e-01 
 4.30000000e-01  4.59501515e-01  3.24459838e-09  4.59501515e-01  3.27474454e-09  3.29004397e-09  4.59501515e-01  3.20801502e-09  1.61916739e-07  5.79053641e-08  4.30000000e-01 
 4.40000000e-01  4.59501547e-01  3.24459844e-09  4.59501547e-01  3.27474452e-09  3.29004397e-09  4.59501547e-01  3.20801508e-09  1.61916778e-07  5.79053321e-08  4.40000000e-01 
 4.50000000e-01  4.59501532e-01  3.24459844e-09  4.59501533e-01  3.27474454e-09  3.29004397e-09  4.59501532e-01  3.20801508e-09  1.61916761e-07  5.79052575e-08  4.50000000e-01 
 4.60000000e-01  4.59501513e-01  3.24459844e-09  4.59501514e-01  3.27474457e-09  3.29004397e-09  4.59501514e-01  3.20801502e-09  1.61916737e-07  5.79051616e-08  4.60000000e-01 
 4.70000000e-01  4.59501539e-01  3.24459839e-09  4.59501539e-01  3.27474452e-09  3.29004397e-09  4.59501539e-01  3.20801502e-09  1.61916779e-07  5.79051793e-08  4.70000000e-01 
 4.80000000e-01  4.59501528e-01  3.24459844e-09  4.59501528e-01  3.27474452e-09  3.29004397e-09  4.59501528e-01  3.20801508e-09  1.61916747e-07  5.79051544e-08  4.80000000e-01 
 4.90000000e-01  4.59501522e-01  3.24459844e-09  4.59501522e-01  3.27474452e-09  3.29004397e-09  4.59501522e-01  3.20801502e-09  1.61916755e-07  5.79050408e-08  4.90000000e-01 
 5.00000000e-01  4.59501519e-01  3.24459838e-09  4.59501519e-01  3.27474452e-09  3.29004397e-09  4.59501519e-01  3.20801502e-09  1.61916736e-07  5.79049626e-08  5.00000000e-01 
 5.10000000e-01  4.59501531e-01  3.24459844e-09  4.59501532e-01  3.27474454e-09  3.29004397e-09  4.59501531e-01  3.20801508e-09  1.61916755e-07  5.79049129e-08  5.10000000e-01 
 5.20000000e-01  4.59501524e-01  3.24459844e-09  4.59501524e-01  3.27474452e-09  3.29004397e-09  4.59501524e-01  3.20801502e-09  1.61916746e-07  5.79046642e-08  5.20000000e-01 
 5.30000000e-01  4.59501516e-01  3.24459838e-09  4.59501516e-01  3.27474454e-09  3.29004397e-09  4.59501516e-01  3.20801507e-09  1.61916747e-07  5.79046997e-08  5.30000000e-01 
 5.40000000e-01  4.59501529e-01  3.24459844e-09  4.59501529e-01  3.27474452e-09  3.29004397e-09  4.59501529e-01  3.20801508e-09  1.61916769e-07  5.79046429e-08  5.40000000e-01 
 5.50000000e-01  4.59501511e-01  3.24459838e-09  4.59501511e-01  3.27474454e-09  3.29004397e-09  4.59501511e-01  3.20801507e-09  1.61916736e-07  5.79046251e-08  5.50000000e-01 
 5.60000000e-01  4.59501534e-01  3.24459844e-09  4.59501534e-01  3.27474452e-09  3.29004397e-09  4.59501534e-01  3.20801508e-09  1.61916768e-07  5.79044652e-08  5.60000000e-01 
 5.70000000e-01  4.59501519e-01  3.24459844e-09  4.59501519e-01  3.27474454e-09  3.29004397e-09  4.59501519e-01  3.20801502e-09  1.61916732e-07  5.79043302e-08  5.70000000e-01 
 5.80000000e-01  4.59501550e-01  3.24459844e-09  4.59501550e-01  3.27474452e-09  3.29004397e-09  4.59501550e-01  3.20801508e-09  1.61916776e-07  5.79044013e-08  5.80000000e-01 
 5.90000000e-01  4.59501533e-01  3.24459844e-09  4.59501533e-01  3.27474454e-09  3.29004397e-09  4.59501533e-01  3.20801508e-09  1.61916748e-07  5.79043515e-08  5.90000000e-01 
 6.00000000e-01  4.59501531e-01  3.24459844e-09  4.59501531e-01  3.27474452e-09  3.29004397e-09  4.59501531e-01  3.20801502e-09  1.61916760e-07  5.79042236e-08  6.00000000e-01 
 6.10000000e-01  4.59501517e-01  3.24459844e-09  4.59501517e-01  3.27474454e-09  3.29004397e-09  4.59501517e-01  3.20801502e-09  1.61916727e-07  5.79042734e-08  6.10000000e-01 
 6.20000000e-01  4.59501521e-01  3.24459844e-09  4.59501521e-01  3.27474457e-09  3.29004397e-09  4.59501521e-01  3.20801502e-09  1.61916750e-07  5.79040886e-08  6.20000000e-01 
 6.30000000e-01  4.59501544e-01  3.24459844e-09  4.59501544e-01  3.27474452e-09  3.29004397e-09  4.59501544e-01  3.20801508e-09  1.61916767e-07  5.79041100e-08  6.30000000e-01 
 6.40000000e-01  4.59501530e-01  3.24459838e-09  4.59501530e-01  3.27474452e-09  3.29004397e-09  4.59501530e-01  3.20801502e-09  1.61916742e-07  5.79041028e-08  6.40000000e-01 
 6.50000000e-01  4.59501526e-01  3.24459844e-09  4.59501526e-01  3.27474452e-09  3.29004397e-09  4.59501526e-01  3.20801508e-09  1.61916739e-07  5.79039821e-08  6.50000000e-01 
 6.60000000e-01  4.59501543e-01  3.24459839e-09  4.59501543e-01  3.27474452e-09  3.29004397e-09  4.59501543e-01  3.20801502e-09  1.61916784e-07  5.79039749e-08  6.60000000e-01 
 6.70000000e-01  4.59501522e-01  3.24459844e-09  4.59501522e-01  3.27474452e-09  3.29004397e-09  4.59501522e-01  3.20801502e-09  1.61916751e-07  5.79037902e-08  6.70000000e-01 
 6.80000000e-01  4.59501531e-01  3.24459844e-09  4.59501531e-01  3.27474452e-09  3.29004397e-09  4.59501531e-01  3.20801508e-09  1.61916760e-07  5.79037831e-08  6.80000000e-01 
 6.90000000e-01  4.59501514e-01  3.24459844e-09  4.59501514e-01  3.27474452e-09  3.29004397e-09  4.59501514e-01  3.20801502e-09  1.61916739e-07  5.79036978e-08  6.90000000e-01 
 7.00000000e-01  4.59501535e-01  3.24459844e-09  4.59501535e-01  3.27474454e-09  3.29004397e-09  4.59501535e-01  3.20801508e-09  1.61916777e-07  5.79036268e-08  7.00000000e-01 
 7.10000000e-01  4.59501534e-01  3.24459838e-09  4.59501535e-01  3.27474452e-09  3.29004397e-09  4.59501534e-01  3.20801508e-09  1.61916748e-07  5.79036765e-08  7.10000000e-01 
 7.20000000e-01  4.59501550e-01  3.24459844e-09  4.59501550e-01  3.27474454e-09  3.29004403e-09  4.59501550e-01  3.20801502e-09  1.61916801e-07  5.79035344e-08  7.20000000e-01 
 7.30000000e-01  4.59501526e-01  3.24459844e-09  4.59501526e-01  3.27474452e-09  3.29004397e-09  4.59501526e-01  3.20801502e-09  1.61916754e-07  5.79034207e-08  7.30000000e-01 
 7.40000000e-01  4.59501519e-01  3.24459844e-09  4.59501519e-01  3.27474454e-09  3.29004397e-09  4.59501519e-01  3.20801507e-09  1.61916755e-07  5.79034278e-08  7.40000000e-01 
 7.50000000e-01  4.59501534e-01  3.24459844e-09  4.59501534e-01  3.27474452e-09  3.29004397e-09  4.59501534e-01  3.20801508e-09  1.61916758e-07  5.79033212e-08  7.50000000e-01 
 7.60000000e-01  4.59501544e-01  3.24459839e-09  4.59501544e-01  3.27474454e-09  3.29004397e-09  4.59501544e-01  3.20801502e-09  1.61916776e-07  5.79032928e-08  7.60000000e-01 
 7.70000000e-01  4.59501526e-01  3.24459838e-09  4.59501526e-01  3.27474452e-09  3.29004397e-09  4.59501526e-01  3.20801508e-09  1.61916762e-07  5.79031791e-08  7.70000000e-01 
 7.80000000e-01  4.59501522e-01  3.24459844e-09  4.59501522e-01  3.27474454e-09  3.29004397e-09  4.59501522e-01  3.20801502e-09  1.61916778e-07  5.79030583e-08  7.80000000e-01 
 7.90000000e-01  4.59501524e-01  3.24459844e-09  4.59501524e-01  3.27474452e-09  3.29004397e-09  4.59501524e-01  3.20801508e-09  1.61916743e-07  5.79030655e-08  7.90000000e-01 
 8.00000000e-01  4.59501522e-01  3.24459844e-09  4.59501522e-01  3.27474454e-09  3.29004397e-09  4.59501522e-01  3.20801502e-09  1.61916753e-07  5.79029447e-08  8.00000000e-01 
 8.10000000e-01  4.59501529e-01  3.24459844e-09  4.59501530e-01  3.27474452e-09  3.29004397e-09  4.59501529e-01  3.20801508e-09  1.61916756e-07  5.79029020e-08  8.10000000e-01 
 8.20000000e-01  4.59501523e-01  3.24459838e-09  4.59501523e-01  3.27474454e-09  3.29004397e-09  4.59501523e-01  3.20801502e-09  1.61916755e-07  5.79028594e-08  8.20000000e-01 
 8.30000000e-01  4.59501503e-01  3.24459844e-09  4.59501503e-01  3.27474452e-09  3.29004397e-09  4.59501503e-01  3.20801507e-09  1.61916714e-07  5.79027386e-08  8.30000000e-01 
 8.40000000e-01  4.59501536e-01  3.24459844e-09  4.59501536e-01  3.27474454e-09  3.29004397e-09  4.59501536e-01  3.20801508e-09  1.61916764e-07  5.79027386e-08  8.40000000e-01 
 8.50000000e-01  4.59501531e-01  3.24459844e-09  4.59501531e-01  3.27474452e-09  3.29004397e-09  4.59501531e-01  3.20801508e-09  1.61916763e-07  5.79026391e-08  8.50000000e-01 
 8.60000000e-01  4.59501542e-01  3.24459844e-09  4.59501542e-01  3.27474454e-09  3.29004397e-09  4.59501542e-01  3.20801502e-09  1.61916774e-07  5.79026604e-08  8.60000000e-01 
 8.70000000e-01  4.59501519e-01  3.24459844e-09  4.59501519e-01  3.27474452e-09  3.29004397e-09  4.59501519e-01  3.20801502e-09  1.61916751e-07  5.79025823e-08  8.70000000e-01 
 8.80000000e-01  4.59501535e-01  3.24459844e-09  4.59501535e-01  3.27474454e-09  3.29004397e-09  4.59501535e-01  3.20801508e-09  1.61916756e-07  5.79025539e-08  8.80000000e-01 
 8.90000000e-01  4.59501518e-01  3.24459838e-09  4.59501518e-01  3.27474452e-09  3.29004397e-09  4.59501518e-01  3.20801502e-09  1.61916732e-07  5.79024260e-08  8.90000000e-01 
 9.00000000e-01  4.59501529e-01  3.24459844e-09  4.59501529e-01  3.27474454e-09  3.29004397e-09  4.59501529e-01  3.20801508e-09  1.61916762e-07  5.79024260e-08  9.00000000e-01 
 9.10000000e-01  4.59501533e-01  3.24459844e-09  4.59501533e-01  3.27474452e-09  3.29004403e-09  4.59501533e-01  3.20801508e-09  1.61916757e-07  5.79023549e-08  9.10000000e-01 
 9.20000000e-01  4.59501533e-01  3.24459838e-09  4.59501534e-01  3.27474454e-09  3.29004397e-09  4.59501533e-01  3.20801508e-09  1.61916761e-07  5.79022341e-08  9.20000000e-01 
 9.30000000e-01  4.59501529e-01  3.24459844e-09  4.59501529e-01  3.27474452e-09  3.29004397e-09  4.59501529e-01  3.20801508e-09  1.61916762e-07  5.79021915e-08  9.30000000e-01 
 9.40000000e-01  4.59501535e-01  3.24459838e-09  4.59501535e-01  3.27474454e-09  3.29004397e-09  4.59501535e-01  3.20801502e-09  1.61916755e-07  5.79021204e-08  9.40000000e-01 
 9.50000000e-01  4.59501528e-01  3.24459844e-09  4.59501528e-01  3.27474452e-09  3.29004397e-09  4.59501528e-01  3.20801502e-09  1.61916750e-07  5.79020991e-08  9.50000000e-01 
 9.60000000e-01  4.59501517e-01  3.24459838e-09  4.59501518e-01  3.27474454e-09  3.29004397e-09  4.59501518e-01  3.20801507e-09  1.61916751e-07  5.79019357e-08  9.60000000e-01 
 9.70000000e-01  4.59501521e-01  3.24459838e-09  4.59501522e-01  3.27474452e-09  3.29004397e-09  4.59501522e-01  3.20801507e-09  1.61916742e-07  5.79019073e-08  9.70000000e-01 
 9.80000000e-01  4.59501513e-01  3.24459838e-09  4.59501513e-01  3.27474454e-09  3.29004397e-09  4.59501513e-01  3.20801507e-09  1.61916747e-07  5.79019073e-08  9.80000000e-01 
 9.90000000e-01  4.59501529e-01  3.24459838e-09  4.59501529e-01  3.27474452e-09  3.29004397e-09  4.59501529e-01  3.20801508e-09  1.61916761e-07  5.79018575e-08  9.90000000e-01 
 1.00000000e+00  4.59501533e-01  3.24459844e-09  4.59501533e-01  3.27474454e-09  3.29004397e-09  4.59501533e-01  3.20801502e-09  1.61916765e-07  5.79015875e-08  1.00000000e+00 
 1.01000000e+00  4.59501524e-01  3.24459844e-09  4.59501524e-01  3.27474457e-09  3.29004397e-09  4.59501524e-01  3.20801508e-09  1.61916747e-07  5.79015946e-08  1.01000000e+00 
 1.02000000e+00  4.59501506e-01  3.24459844e-09  4.59501507e-01  3.27474452e-09  3.29004397e-09  4.59501506e-01  3.20801507e-09  1.61916712e-07  5.79015094e-08  1.02000000e+00 
 1.03000000e+00  4.59501524e-01  3.24459844e-09  4.59501524e-01  3.27474454e-09  3.29004397e-09  4.59501524e-01  3.20801508e-09  1.61916749e-07  5.79016159e-08  1.03000000e+00 
 1.04000000e+00  4.59501528e-01  3.24459844e-09  4.59501528e-01  3.27474452e-09  3.29004397e-09  4.59501528e-01  3.20801502e-09  1.61916762e-07  5.79014525e-08  1.04000000e+00 
 1.05000000e+00  4.59501520e-01  3.24459838e-09  4.59501520e-01  3.27474454e-09  3.29004397e-09  4.59501520e-01  3.20801502e-09  1.61916754e-07  5.79013175e-08  1.05000000e+00 
 1.06000000e+00  4.59501533e-01  3.24459838e-09  4.59501533e-01  3.27474452e-09  3.29004397e-09  4.59501533e-01  3.20801502e-09  1.61916762e-07  5.79013530e-08  1.06000000e+00 
 1.07000000e+00  4.59501520e-01  3.24459844e-09  4.59501521e-01  3.27474448e-09  3.29004397e-09  4.59501521e-01  3.20801502e-09  1.61916746e-07  5.79013033e-08  1.07000000e+00 
 1.08000000e+00  4.59501535e-01  3.24459844e-09  4.59501535e-01  3.27474453e-09  3.29004397e-09  4.59501535e-01  3.20801502e-09  1.61916781e-07  5.79012536e-08  1.08000000e+00 
 1.09000000e+00  4.59501524e-01  3.24459844e-09  4.59501524e-01  3.27474452e-09  3.29004403e-09  4.59501524e-01  3.20801508e-09  1.61916746e-07  5.79011967e-08  1.09000000e+00 
 1.10000000e+00  4.59501513e-01  3.24459844e-09  4.59501513e-01  3.27474454e-09  3.29004397e-09  4.59501513e-01  3.20801502e-09  1.61916732e-07  5.79010973e-08  1.10000000e+00 
