 v-sweep         v(b0)           v(b1)           v(b2)           v(b3)           v(b4)           v(b5)           v(b6)           i(vbias)        i(viout)        v(vout)        
 0.00000000e+00  4.58969322e-01  3.16919942e-09  4.58969322e-01  4.58969322e-01  3.71592943e-09  4.58969322e-01  3.15216613e-09  1.61916795e-07  6.46257755e-08  0.00000000e+00 
 1.00000000e-02  4.58969317e-01  3.16919934e-09  4.58969317e-01  4.58969317e-01  3.71592941e-09  4.58969317e-01  3.15216616e-09  1.61916784e-07  6.46254700e-08  1.00000000e-02 
 2.00000000e-02  4.58969312e-01  3.16919934e-09  4.58969312e-01  4.58969312e-01  3.71592935e-09  4.58969312e-01  3.15216616e-09  1.61916774e-07  6.46250922e-08  2.00000000e-02 
 3.00000000e-02  4.58969327e-01  3.16919934e-09  4.58969327e-01  4.58969327e-01  3.71592941e-09  4.58969327e-01  3.15216616e-09  1.61916793e-07  6.46246909e-08  3.00000000e-02 
 4.00000000e-02  4.58969314e-01  3.16919934e-09  4.58969314e-01  4.58969314e-01  3.71592941e-09  4.58969314e-01  3.15216611e-09  1.61916775e-07  6.46243330e-08  4.00000000e-02 
 5.00000000e-02  4.58969324e-01  3.16919934e-09  4.58969324e-01  4.58969324e-01  3.71592941e-09  4.58969324e-01  3.15216611e-09  1.61916800e-07  6.46241061e-08  5.00000000e-02 
 6.00000000e-02  4.58969320e-01  3.16919934e-09  4.58969320e-01  4.58969320e-01  3.71592941e-09  4.58969320e-01  3.15216616e-09  1.61916798e-07  6.46237388e-08  6.00000000e-02 
 7.00000000e-02  4.58969327e-01  3.16919940e-09  4.58969327e-01  4.58969327e-01  3.71592941e-09  4.58969327e-01  3.15216611e-09  1.61916805e-07  6.46233622e-08  7.00000000e-02 
 8.00000000e-02  4.58969327e-01  3.16919934e-09  4.58969327e-01  4.58969327e-01  3.71592941e-09  4.58969327e-01  3.15216611e-09  1.61916802e-07  6.46230873e-08  8.00000000e-02 
 9.00000000e-02  4.58969326e-01  3.16919934e-09  4.58969326e-01  4.58969326e-01  3.71592935e-09  4.58969326e-01  3.15216611e-09  1.61916799e-07  6.46228520e-08  9.00000000e-02 
 1.00000000e-01  4.58969321e-01  3.16919934e-09  4.58969321e-01  4.58969321e-01  3.71592941e-09  4.58969321e-01  3.15216616e-09  1.61916791e-07  6.46226113e-08  1.00000000e-01 
 1.10000000e-01  4.58969301e-01  3.16919940e-09  4.58969301e-01  4.58969301e-01  3.71592935e-09  4.58969301e-01  3.15216616e-09  1.61916760e-07  6.46221991e-08  1.10000000e-01 
 1.20000000e-01  4.58969310e-01  3.16919934e-09  4.58969310e-01  4.58969310e-01  3.71592941e-09  4.58969310e-01  3.15216616e-09  1.61916766e-07  6.46220437e-08  1.20000000e-01 
 1.30000000e-01  4.58969327e-01  3.16919940e-09  4.58969327e-01  4.58969327e-01  3.71592941e-09  4.58969327e-01  3.15216616e-09  1.61916789e-07  6.46217861e-08  1.30000000e-01 
 1.40000000e-01  4.58969336e-01  3.16919934e-09  4.58969336e-01  4.58969336e-01  3.71592941e-09  4.58969336e-01  3.15216617e-09  1.61916821e-07  6.46216218e-08  1.40000000e-01 
 1.50000000e-01  4.58969306e-01  3.16919940e-09  4.58969306e-01  4.58969306e-01  3.71592941e-09  4.58969306e-01  3.15216611e-09  1.61916778e-07  6.46214122e-08  1.50000000e-01 
 1.60000000e-01  4.58969294e-01  3.16919940e-09  4.58969294e-01  4.58969294e-01  3.71592935e-09  4.58969294e-01  3.15216616e-09  1.61916760e-07  6.46212310e-08  1.60000000e-01 
 1.70000000e-01  4.58969307e-01  3.16919940e-09  4.58969307e-01  4.58969307e-01  3.71592941e-09  4.58969307e-01  3.15216611e-09  1.61916771e-07  6.46209486e-08  1.70000000e-01 
 1.80000000e-01  4.58969316e-01  3.16919934e-09  4.58969316e-01  4.58969316e-01  3.71592935e-09  4.58969316e-01  3.15216611e-09  1.61916795e-07  6.46207852e-08  1.80000000e-01 
 1.90000000e-01  4.58969325e-01  3.16919934e-09  4.58969325e-01  4.58969326e-01  3.71592935e-09  4.58969325e-01  3.15216611e-09  1.61916794e-07  6.46206750e-08  1.90000000e-01 
 2.00000000e-01  4.58969308e-01  3.16919934e-09  4.58969307e-01  4.58969308e-01  3.71592941e-09  4.58969307e-01  3.15216616e-09  1.61916772e-07  6.46204796e-08  2.00000000e-01 
 2.10000000e-01  4.58969327e-01  3.16919940e-09  4.58969327e-01  4.58969327e-01  3.71592941e-09  4.58969327e-01  3.15216616e-09  1.61916793e-07  6.46203588e-08  2.10000000e-01 
 2.20000000e-01  4.58969311e-01  3.16919934e-09  4.58969311e-01  4.58969311e-01  3.71592941e-09  4.58969311e-01  3.15216611e-09  1.61916775e-07  6.46202754e-08  2.20000000e-01 
 2.30000000e-01  4.58969305e-01  3.16919934e-09  4.58969305e-01  4.58969305e-01  3.71592941e-09  4.58969305e-01  3.15216610e-09  1.61916753e-07  6.46201297e-08  2.30000000e-01 
 2.40000000e-01  4.58969317e-01  3.16919940e-09  4.58969317e-01  4.58969317e-01  3.71592935e-09  4.58969317e-01  3.15216616e-09  1.61916790e-07  6.46198437e-08  2.40000000e-01 
 2.50000000e-01  4.58969334e-01  3.16919940e-09  4.58969334e-01  4.58969334e-01  3.71592941e-09  4.58969334e-01  3.15216617e-09  1.61916824e-07  6.46197975e-08  2.50000000e-01 
 2.60000000e-01  4.58969307e-01  3.16919934e-09  4.58969307e-01  4.58969307e-01  3.71592941e-09  4.58969307e-01  3.15216616e-09  1.61916756e-07  6.46196003e-08  2.60000000e-01 
 2.70000000e-01  4.58969309e-01  3.16919934e-09  4.58969309e-01  4.58969309e-01  3.71592941e-09  4.58969309e-01  3.15216616e-09  1.61916770e-07  6.46195204e-08  2.70000000e-01 
 2.80000000e-01  4.58969353e-01  3.16919935e-09  4.58969353e-01  4.58969353e-01  3.71592941e-09  4.58969353e-01  3.15216611e-09  1.61916847e-07  6.46193534e-08  2.80000000e-01 
 2.90000000e-01  4.58969328e-01  3.16919934e-09  4.58969328e-01  4.58969328e-01  3.71592941e-09  4.58969328e-01  3.15216616e-09  1.61916810e-07  6.46191900e-08  2.90000000e-01 
 3.00000000e-01  4.58969323e-01  3.16919934e-09  4.58969323e-01  4.58969324e-01  3.71592935e-09  4.58969323e-01  3.15216616e-09  1.61916785e-07  6.46192220e-08  3.00000000e-01 
 3.10000000e-01  4.58969314e-01  3.16919940e-09  4.58969314e-01  4.58969314e-01  3.71592935e-09  4.58969314e-01  3.15216611e-09  1.61916785e-07  6.46190266e-08  3.10000000e-01 
 3.20000000e-01  4.58969303e-01  3.16919940e-09  4.58969303e-01  4.58969303e-01  3.71592941e-09  4.58969303e-01  3.15216610e-09  1.61916763e-07  6.46189591e-08  3.20000000e-01 
 3.30000000e-01  4.58969298e-01  3.16919940e-09  4.58969298e-01  4.58969298e-01  3.71592935e-09  4.58969298e-01  3.15216616e-09  1.61916746e-07  6.46187956e-08  3.30000000e-01 
 3.40000000e-01  4.58969320e-01  3.16919940e-09  4.58969320e-01  4.58969320e-01  3.71592935e-09  4.58969320e-01  3.15216611e-09  1.61916782e-07  6.46187566e-08  3.40000000e-01 
 3.50000000e-01  4.58969318e-01  3.16919940e-09  4.58969318e-01  4.58969318e-01  3.71592941e-09  4.58969318e-01  3.15216611e-09  1.61916779e-07  6.46187139e-08  3.50000000e-01 
 3.60000000e-01  4.58969335e-01  3.16919940e-09  4.58969335e-01  4.58969335e-01  3.71592935e-09  4.58969335e-01  3.15216617e-09  1.61916812e-07  6.46186074e-08  3.60000000e-01 
 3.70000000e-01  4.58969324e-01  3.16919940e-09  4.58969324e-01  4.58969324e-01  3.71592935e-09  4.58969324e-01  3.15216611e-09  1.61916799e-07  6.46183445e-08  3.70000000e-01 
 3.80000000e-01  4.58969312e-01  3.16919934e-09  4.58969312e-01  4.58969312e-01  3.71592941e-09  4.58969312e-01  3.15216611e-09  1.61916771e-07  6.46183160e-08  3.80000000e-01 
 3.90000000e-01  4.58969314e-01  3.16919940e-09  4.58969314e-01  4.58969314e-01  3.71592941e-09  4.58969314e-01  3.15216616e-09  1.61916784e-07  6.46183338e-08  3.90000000e-01 
 4.00000000e-01  4.58969320e-01  3.16919940e-09  4.58969319e-01  4.58969320e-01  3.71592941e-09  4.58969319e-01  3.15216616e-09  1.61916791e-07  6.46182521e-08  4.00000000e-01 
 4.10000000e-01  4.58969341e-01  3.16919940e-09  4.58969341e-01  4.58969341e-01  3.71592941e-09  4.58969341e-01  3.15216617e-09  1.61916824e-07  6.46181988e-08  4.10000000e-01 
 4.20000000e-01  4.58969345e-01  3.16919940e-09  4.58969345e-01  4.58969345e-01  3.71592941e-09  4.58969345e-01  3.15216617e-09  1.61916818e-07  6.46180602e-08  4.20000000e-01 
 4.30000000e-01  4.58969319e-01  3.16919934e-09  4.58969319e-01  4.58969319e-01  3.71592935e-09  4.58969319e-01  3.15216611e-09  1.61916793e-07  6.46179359e-08  4.30000000e-01 
 4.40000000e-01  4.58969346e-01  3.16919935e-09  4.58969346e-01  4.58969346e-01  3.71592941e-09  4.58969346e-01  3.15216617e-09  1.61916842e-07  6.46179608e-08  4.40000000e-01 
 4.50000000e-01  4.58969331e-01  3.16919940e-09  4.58969331e-01  4.58969331e-01  3.71592935e-09  4.58969331e-01  3.15216617e-09  1.61916805e-07  6.46179572e-08  4.50000000e-01 
 4.60000000e-01  4.58969315e-01  3.16919934e-09  4.58969315e-01  4.58969315e-01  3.71592935e-09  4.58969315e-01  3.15216611e-09  1.61916791e-07  6.46178648e-08  4.60000000e-01 
 4.70000000e-01  4.58969329e-01  3.16919940e-09  4.58969329e-01  4.58969329e-01  3.71592941e-09  4.58969329e-01  3.15216616e-09  1.61916806e-07  6.46177654e-08  4.70000000e-01 
 4.80000000e-01  4.58969309e-01  3.16919940e-09  4.58969309e-01  4.58969309e-01  3.71592935e-09  4.58969309e-01  3.15216611e-09  1.61916781e-07  6.46175593e-08  4.80000000e-01 
 4.90000000e-01  4.58969323e-01  3.16919940e-09  4.58969323e-01  4.58969323e-01  3.71592941e-09  4.58969323e-01  3.15216611e-09  1.61916803e-07  6.46174492e-08  4.90000000e-01 
 5.00000000e-01  4.58969337e-01  3.16919940e-09  4.58969337e-01  4.58969338e-01  3.71592941e-09  4.58969337e-01  3.15216611e-09  1.61916816e-07  6.46174385e-08  5.00000000e-01 
 5.10000000e-01  4.58969315e-01  3.16919934e-09  4.58969315e-01  4.58969315e-01  3.71592941e-09  4.58969314e-01  3.15216616e-09  1.61916776e-07  6.46173675e-08  5.10000000e-01 
 5.20000000e-01  4.58969304e-01  3.16919934e-09  4.58969304e-01  4.58969304e-01  3.71592941e-09  4.58969304e-01  3.15216616e-09  1.61916776e-07  6.46173319e-08  5.20000000e-01 
 5.30000000e-01  4.58969301e-01  3.16919940e-09  4.58969301e-01  4.58969301e-01  3.71592935e-09  4.58969301e-01  3.15216616e-09  1.61916761e-07  6.46173177e-08  5.30000000e-01 
 5.40000000e-01  4.58969319e-01  3.16919940e-09  4.58969319e-01  4.58969319e-01  3.71592941e-09  4.58969319e-01  3.15216616e-09  1.61916778e-07  6.46171792e-08  5.40000000e-01 
 5.50000000e-01  4.58969311e-01  3.16919934e-09  4.58969311e-01  4.58969311e-01  3.71592941e-09  4.58969311e-01  3.15216616e-09  1.61916764e-07  6.46171259e-08  5.50000000e-01 
 5.60000000e-01  4.58969329e-01  3.16919940e-09  4.58969329e-01  4.58969329e-01  3.71592941e-09  4.58969329e-01  3.15216616e-09  1.61916808e-07  6.46170299e-08  5.60000000e-01 
 5.70000000e-01  4.58969314e-01  3.16919934e-09  4.58969314e-01  4.58969314e-01  3.71592941e-09  4.58969314e-01  3.15216616e-09  1.61916779e-07  6.46170548e-08  5.70000000e-01 
 5.80000000e-01  4.58969323e-01  3.16919940e-09  4.58969323e-01  4.58969323e-01  3.71592941e-09  4.58969323e-01  3.15216616e-09  1.61916799e-07  6.46168914e-08  5.80000000e-01 
 5.90000000e-01  4.58969326e-01  3.16919940e-09  4.58969326e-01  4.58969326e-01  3.71592941e-09  4.58969326e-01  3.15216616e-09  1.61916799e-07  6.46168203e-08  5.90000000e-01 
 6.00000000e-01  4.58969323e-01  3.16919934e-09  4.58969323e-01  4.58969324e-01  3.71592941e-09  4.58969323e-01  3.15216611e-09  1.61916791e-07  6.46167280e-08  6.00000000e-01 
 6.10000000e-01  4.58969336e-01  3.16919934e-09  4.58969336e-01  4.58969336e-01  3.71592935e-09  4.58969336e-01  3.15216617e-09  1.61916820e-07  6.46168701e-08  6.10000000e-01 
 6.20000000e-01  4.58969305e-01  3.16919934e-09  4.58969305e-01  4.58969306e-01  3.71592941e-09  4.58969305e-01  3.15216616e-09  1.61916762e-07  6.46167351e-08  6.20000000e-01 
 6.30000000e-01  4.58969327e-01  3.16919934e-09  4.58969327e-01  4.58969327e-01  3.71592941e-09  4.58969327e-01  3.15216611e-09  1.61916798e-07  6.46167564e-08  6.30000000e-01 
 6.40000000e-01  4.58969308e-01  3.16919940e-09  4.58969308e-01  4.58969308e-01  3.71592941e-09  4.58969308e-01  3.15216616e-09  1.61916783e-07  6.46164793e-08  6.40000000e-01 
 6.50000000e-01  4.58969330e-01  3.16919940e-09  4.58969330e-01  4.58969330e-01  3.71592941e-09  4.58969330e-01  3.15216616e-09  1.61916813e-07  6.46164793e-08  6.50000000e-01 
 6.60000000e-01  4.58969309e-01  3.16919934e-09  4.58969309e-01  4.58969309e-01  3.71592941e-09  4.58969309e-01  3.15216611e-09  1.61916776e-07  6.46164224e-08  6.60000000e-01 
 6.70000000e-01  4.58969309e-01  3.16919940e-09  4.58969309e-01  4.58969309e-01  3.71592941e-09  4.58969309e-01  3.15216611e-09  1.61916770e-07  6.46163940e-08  6.70000000e-01 
 6.80000000e-01  4.58969326e-01  3.16919934e-09  4.58969326e-01  4.58969326e-01  3.71592935e-09  4.58969326e-01  3.15216616e-09  1.61916796e-07  6.46162874e-08  6.80000000e-01 
 6.90000000e-01  4.58969309e-01  3.16919934e-09  4.58969309e-01  4.58969309e-01  3.71592941e-09  4.58969309e-01  3.15216611e-09  1.61916766e-07  6.46162732e-08  6.90000000e-01 
 7.00000000e-01  4.58969287e-01  3.16919934e-09  4.58969287e-01  4.58969288e-01  3.71592941e-09  4.58969287e-01  3.15216616e-09  1.61916732e-07  6.46161595e-08  7.00000000e-01 
 7.10000000e-01  4.58969324e-01  3.16919940e-09  4.58969324e-01  4.58969324e-01  3.71592935e-09  4.58969324e-01  3.15216616e-09  1.61916784e-07  6.46161809e-08  7.10000000e-01 
 7.20000000e-01  4.58969323e-01  3.16919940e-09  4.58969323e-01  4.58969323e-01  3.71592941e-09  4.58969323e-01  3.15216616e-09  1.61916791e-07  6.46159890e-08  7.20000000e-01 
 7.30000000e-01  4.58969310e-01  3.16919934e-09  4.58969310e-01  4.58969310e-01  3.71592941e-09  4.58969310e-01  3.15216616e-09  1.61916780e-07  6.46160672e-08  7.30000000e-01 
 7.40000000e-01  4.58969298e-01  3.16919940e-09  4.58969298e-01  4.58969298e-01  3.71592941e-09  4.58969298e-01  3.15216610e-09  1.61916759e-07  6.46159037e-08  7.40000000e-01 
 7.50000000e-01  4.58969330e-01  3.16919940e-09  4.58969329e-01  4.58969330e-01  3.71592935e-09  4.58969329e-01  3.15216616e-09  1.61916806e-07  6.46158824e-08  7.50000000e-01 
 7.60000000e-01  4.58969323e-01  3.16919934e-09  4.58969323e-01  4.58969323e-01  3.71592935e-09  4.58969323e-01  3.15216611e-09  1.61916782e-07  6.46157829e-08  7.60000000e-01 
 7.70000000e-01  4.58969324e-01  3.16919940e-09  4.58969324e-01  4.58969324e-01  3.71592941e-09  4.58969324e-01  3.15216616e-09  1.61916804e-07  6.46156977e-08  7.70000000e-01 
 7.80000000e-01  4.58969325e-01  3.16919934e-09  4.58969325e-01  4.58969325e-01  3.71592941e-09  4.58969325e-01  3.15216611e-09  1.61916802e-07  6.46157403e-08  7.80000000e-01 
 7.90000000e-01  4.58969307e-01  3.16919940e-09  4.58969307e-01  4.58969308e-01  3.71592941e-09  4.58969307e-01  3.15216611e-09  1.61916773e-07  6.46156124e-08  7.90000000e-01 
 8.00000000e-01  4.58969324e-01  3.16919934e-09  4.58969324e-01  4.58969324e-01  3.71592935e-09  4.58969324e-01  3.15216611e-09  1.61916799e-07  6.46155272e-08  8.00000000e-01 
 8.10000000e-01  4.58969321e-01  3.16919940e-09  4.58969321e-01  4.58969321e-01  3.71592941e-09  4.58969321e-01  3.15216616e-09  1.61916792e-07  6.46153850e-08  8.10000000e-01 
 8.20000000e-01  4.58969329e-01  3.16919940e-09  4.58969329e-01  4.58969329e-01  3.71592935e-09  4.58969329e-01  3.15216611e-09  1.61916811e-07  6.46153140e-08  8.20000000e-01 
 8.30000000e-01  4.58969329e-01  3.16919940e-09  4.58969329e-01  4.58969329e-01  3.71592941e-09  4.58969329e-01  3.15216616e-09  1.61916796e-07  6.46153850e-08  8.30000000e-01 
 8.40000000e-01  4.58969310e-01  3.16919940e-09  4.58969310e-01  4.58969310e-01  3.71592935e-09  4.58969310e-01  3.15216616e-09  1.61916764e-07  6.46153069e-08  8.40000000e-01 
 8.50000000e-01  4.58969299e-01  3.16919934e-09  4.58969298e-01  4.58969299e-01  3.71592935e-09  4.58969298e-01  3.15216610e-09  1.61916758e-07  6.46153140e-08  8.50000000e-01 
 8.60000000e-01  4.58969302e-01  3.16919934e-09  4.58969302e-01  4.58969302e-01  3.71592935e-09  4.58969302e-01  3.15216616e-09  1.61916762e-07  6.46151719e-08  8.60000000e-01 
 8.70000000e-01  4.58969302e-01  3.16919940e-09  4.58969302e-01  4.58969302e-01  3.71592941e-09  4.58969302e-01  3.15216610e-09  1.61916779e-07  6.46151150e-08  8.70000000e-01 
 8.80000000e-01  4.58969327e-01  3.16919940e-09  4.58969327e-01  4.58969327e-01  3.71592941e-09  4.58969327e-01  3.15216616e-09  1.61916806e-07  6.46149516e-08  8.80000000e-01 
 8.90000000e-01  4.58969321e-01  3.16919934e-09  4.58969321e-01  4.58969321e-01  3.71592941e-09  4.58969321e-01  3.15216616e-09  1.61916785e-07  6.46150369e-08  8.90000000e-01 
 9.00000000e-01  4.58969308e-01  3.16919940e-09  4.58969308e-01  4.58969308e-01  3.71592941e-09  4.58969308e-01  3.15216611e-09  1.61916774e-07  6.46148592e-08  9.00000000e-01 
 9.10000000e-01  4.58969312e-01  3.16919940e-09  4.58969312e-01  4.58969312e-01  3.71592941e-09  4.58969312e-01  3.15216616e-09  1.61916779e-07  6.46148450e-08  9.10000000e-01 
 9.20000000e-01  4.58969316e-01  3.16919934e-09  4.58969316e-01  4.58969317e-01  3.71592941e-09  4.58969316e-01  3.15216611e-09  1.61916787e-07  6.46148379e-08  9.20000000e-01 
 9.30000000e-01  4.58969320e-01  3.16919940e-09  4.58969320e-01  4.58969320e-01  3.71592935e-09  4.58969320e-01  3.15216616e-09  1.61916791e-07  6.46148095e-08  9.30000000e-01 
 9.40000000e-01  4.58969300e-01  3.16919940e-09  4.58969300e-01  4.58969300e-01  3.71592941e-09  4.58969300e-01  3.15216616e-09  1.61916763e-07  6.46145253e-08  9.40000000e-01 
 9.50000000e-01  4.58969317e-01  3.16919940e-09  4.58969316e-01  4.58969317e-01  3.71592941e-09  4.58969316e-01  3.15216616e-09  1.61916791e-07  6.46145750e-08  9.50000000e-01 
 9.60000000e-01  4.58969297e-01  3.16919940e-09  4.58969297e-01  4.58969297e-01  3.71592935e-09  4.58969297e-01  3.15216616e-09  1.61916765e-07  6.46144187e-08  9.60000000e-01 
 9.70000000e-01  4.58969326e-01  3.16919940e-09  4.58969326e-01  4.58969326e-01  3.71592941e-09  4.58969326e-01  3.15216616e-09  1.61916794e-07  6.46144542e-08  9.70000000e-01 
 9.80000000e-01  4.58969330e-01  3.16919940e-09  4.58969330e-01  4.58969330e-01  3.71592941e-09  4.58969329e-01  3.15216616e-09  1.61916800e-07  6.46143903e-08  9.80000000e-01 
 9.90000000e-01  4.58969308e-01  3.16919940e-09  4.58969308e-01  4.58969309e-01  3.71592941e-09  4.58969308e-01  3.15216616e-09  1.61916774e-07  6.46142553e-08  9.90000000e-01 
 1.00000000e+00  4.58969333e-01  3.16919934e-09  4.58969333e-01  4.58969333e-01  3.71592941e-09  4.58969333e-01  3.15216611e-09  1.61916807e-07  6.46142340e-08  1.00000000e+00 
 1.01000000e+00  4.58969310e-01  3.16919940e-09  4.58969310e-01  4.58969310e-01  3.71592935e-09  4.58969309e-01  3.15216611e-09  1.61916770e-07  6.46141913e-08  1.01000000e+00 
 1.02000000e+00  4.58969292e-01  3.16919934e-09  4.58969291e-01  4.58969292e-01  3.71592935e-09  4.58969291e-01  3.15216616e-09  1.61916745e-07  6.46140208e-08  1.02000000e+00 
 1.03000000e+00  4.58969303e-01  3.16919934e-09  4.58969303e-01  4.58969303e-01  3.71592941e-09  4.58969303e-01  3.15216610e-09  1.61916756e-07  6.46138787e-08  1.03000000e+00 
 1.04000000e+00  4.58969326e-01  3.16919940e-09  4.58969326e-01  4.58969326e-01  3.71592941e-09  4.58969326e-01  3.15216616e-09  1.61916806e-07  6.46139355e-08  1.04000000e+00 
 1.05000000e+00  4.58969318e-01  3.16919934e-09  4.58969318e-01  4.58969318e-01  3.71592941e-09  4.58969318e-01  3.15216616e-09  1.61916792e-07  6.46139355e-08  1.05000000e+00 
 1.06000000e+00  4.58969333e-01  3.16919940e-09  4.58969333e-01  4.58969333e-01  3.71592941e-09  4.58969333e-01  3.15216611e-09  1.61916817e-07  6.46138503e-08  1.06000000e+00 
 1.07000000e+00  4.58969314e-01  3.16919934e-09  4.58969314e-01  4.58969314e-01  3.71592941e-09  4.58969314e-01  3.15216616e-09  1.61916784e-07  6.46136655e-08  1.07000000e+00 
 1.08000000e+00  4.58969324e-01  3.16919934e-09  4.58969324e-01  4.58969324e-01  3.71592941e-09  4.58969324e-01  3.15216616e-09  1.61916787e-07  6.46136655e-08  1.08000000e+00 
 1.09000000e+00  4.58969339e-01  3.16919940e-09  4.58969339e-01  4.58969339e-01  3.71592935e-09  4.58969339e-01  3.15216611e-09  1.61916817e-07  6.46136442e-08  1.09000000e+00 
 1.10000000e+00  4.58969327e-01  3.16919940e-09  4.58969327e-01  4.58969327e-01  3.71592941e-09  4.58969327e-01  3.15216616e-09  1.61916800e-07  6.46135661e-08  1.10000000e+00 
