 v-sweep         v(b0)           v(b1)           v(b2)           v(b3)           v(b4)           v(b5)           v(b6)           i(vbias)        i(viout)        v(vout)        
 0.00000000e+00  3.26725705e-09  3.35346104e-09  3.12585580e-09  3.38808179e-09  4.58820344e-01  4.58820344e-01  4.58820344e-01  1.62378260e-07  1.65417560e-07  0.00000000e+00 
 1.00000000e-02  3.26725703e-09  3.35346101e-09  3.12585583e-09  3.38808176e-09  4.58820342e-01  4.58820342e-01  4.58820342e-01  1.62378228e-07  1.65416922e-07  1.00000000e-02 
 2.00000000e-02  3.26725709e-09  3.35346101e-09  3.12585583e-09  3.38808177e-09  4.58820372e-01  4.58820372e-01  4.58820372e-01  1.62378271e-07  1.65416772e-07  2.00000000e-02 
 3.00000000e-02  3.26725708e-09  3.35346101e-09  3.12585583e-09  3.38808177e-09  4.58820365e-01  4.58820365e-01  4.58820365e-01  1.62378281e-07  1.65416286e-07  3.00000000e-02 
 4.00000000e-02  3.26725702e-09  3.35346106e-09  3.12585583e-09  3.38808182e-09  4.58820342e-01  4.58820342e-01  4.58820342e-01  1.62378217e-07  1.65415733e-07  4.00000000e-02 
 5.00000000e-02  3.26725704e-09  3.35346101e-09  3.12585583e-09  3.38808181e-09  4.58820356e-01  4.58820356e-01  4.58820356e-01  1.62378243e-07  1.65415541e-07  5.00000000e-02 
 6.00000000e-02  3.26725703e-09  3.35346106e-09  3.12585583e-09  3.38808177e-09  4.58820351e-01  4.58820351e-01  4.58820351e-01  1.62378258e-07  1.65414995e-07  6.00000000e-02 
 7.00000000e-02  3.26725703e-09  3.35346101e-09  3.12585578e-09  3.38808176e-09  4.58820351e-01  4.58820351e-01  4.58820351e-01  1.62378247e-07  1.65414706e-07  7.00000000e-02 
 8.00000000e-02  3.26725703e-09  3.35346101e-09  3.12585578e-09  3.38808182e-09  4.58820353e-01  4.58820353e-01  4.58820353e-01  1.62378260e-07  1.65414237e-07  8.00000000e-02 
 9.00000000e-02  3.26725709e-09  3.35346101e-09  3.12585578e-09  3.38808181e-09  4.58820335e-01  4.58820335e-01  4.58820335e-01  1.62378213e-07  1.65414014e-07  9.00000000e-02 
 1.00000000e-01  3.26725702e-09  3.35346101e-09  3.12585583e-09  3.38808183e-09  4.58820351e-01  4.58820351e-01  4.58820351e-01  1.62378250e-07  1.65413769e-07  1.00000000e-01 
 1.10000000e-01  3.26725710e-09  3.35346101e-09  3.12585583e-09  3.38808181e-09  4.58820368e-01  4.58820368e-01  4.58820368e-01  1.62378275e-07  1.65413463e-07  1.10000000e-01 
 1.20000000e-01  3.26725702e-09  3.35346101e-09  3.12585578e-09  3.38808177e-09  4.58820347e-01  4.58820347e-01  4.58820347e-01  1.62378238e-07  1.65413132e-07  1.20000000e-01 
 1.30000000e-01  3.26725704e-09  3.35346101e-09  3.12585583e-09  3.38808182e-09  4.58820350e-01  4.58820350e-01  4.58820350e-01  1.62378241e-07  1.65412901e-07  1.30000000e-01 
 1.40000000e-01  3.26725703e-09  3.35346101e-09  3.12585578e-09  3.38808181e-09  4.58820357e-01  4.58820357e-01  4.58820357e-01  1.62378248e-07  1.65412636e-07  1.40000000e-01 
 1.50000000e-01  3.26725703e-09  3.35346101e-09  3.12585583e-09  3.38808183e-09  4.58820363e-01  4.58820363e-01  4.58820363e-01  1.62378269e-07  1.65412462e-07  1.50000000e-01 
 1.60000000e-01  3.26725703e-09  3.35346101e-09  3.12585578e-09  3.38808181e-09  4.58820347e-01  4.58820347e-01  4.58820347e-01  1.62378250e-07  1.65412052e-07  1.60000000e-01 
 1.70000000e-01  3.26725703e-09  3.35346106e-09  3.12585583e-09  3.38808177e-09  4.58820361e-01  4.58820361e-01  4.58820361e-01  1.62378272e-07  1.65411834e-07  1.70000000e-01 
 1.80000000e-01  3.26725709e-09  3.35346101e-09  3.12585583e-09  3.38808182e-09  4.58820349e-01  4.58820349e-01  4.58820349e-01  1.62378242e-07  1.65411528e-07  1.80000000e-01 
 1.90000000e-01  3.26725707e-09  3.35346100e-09  3.12585577e-09  3.38808181e-09  4.58820329e-01  4.58820329e-01  4.58820329e-01  1.62378223e-07  1.65411315e-07  1.90000000e-01 
 2.00000000e-01  3.26725704e-09  3.35346101e-09  3.12585578e-09  3.38808183e-09  4.58820352e-01  4.58820352e-01  4.58820352e-01  1.62378257e-07  1.65411112e-07  2.00000000e-01 
 2.10000000e-01  3.26725703e-09  3.35346101e-09  3.12585583e-09  3.38808181e-09  4.58820356e-01  4.58820356e-01  4.58820356e-01  1.62378263e-07  1.65410999e-07  2.10000000e-01 
 2.20000000e-01  3.26725703e-09  3.35346101e-09  3.12585583e-09  3.38808177e-09  4.58820353e-01  4.58820353e-01  4.58820353e-01  1.62378248e-07  1.65410826e-07  2.20000000e-01 
 2.30000000e-01  3.26725703e-09  3.35346101e-09  3.12585583e-09  3.38808176e-09  4.58820345e-01  4.58820345e-01  4.58820345e-01  1.62378241e-07  1.65410604e-07  2.30000000e-01 
 2.40000000e-01  3.26725709e-09  3.35346101e-09  3.12585583e-09  3.38808177e-09  4.58820366e-01  4.58820365e-01  4.58820366e-01  1.62378280e-07  1.65410450e-07  2.40000000e-01 
 2.50000000e-01  3.26725702e-09  3.35346101e-09  3.12585578e-09  3.38808182e-09  4.58820370e-01  4.58820370e-01  4.58820370e-01  1.62378283e-07  1.65410272e-07  2.50000000e-01 
 2.60000000e-01  3.26725710e-09  3.35346101e-09  3.12585583e-09  3.38808175e-09  4.58820355e-01  4.58820354e-01  4.58820355e-01  1.62378261e-07  1.65409986e-07  2.60000000e-01 
 2.70000000e-01  3.26725701e-09  3.35346100e-09  3.12585577e-09  3.38808177e-09  4.58820324e-01  4.58820324e-01  4.58820324e-01  1.62378218e-07  1.65409659e-07  2.70000000e-01 
 2.80000000e-01  3.26725704e-09  3.35346101e-09  3.12585578e-09  3.38808177e-09  4.58820382e-01  4.58820382e-01  4.58820382e-01  1.62378280e-07  1.65409807e-07  2.80000000e-01 
 2.90000000e-01  3.26725703e-09  3.35346101e-09  3.12585583e-09  3.38808182e-09  4.58820340e-01  4.58820339e-01  4.58820340e-01  1.62378243e-07  1.65409507e-07  2.90000000e-01 
 3.00000000e-01  3.26725703e-09  3.35346101e-09  3.12585583e-09  3.38808181e-09  4.58820359e-01  4.58820359e-01  4.58820359e-01  1.62378269e-07  1.65409368e-07  3.00000000e-01 
 3.10000000e-01  3.26725709e-09  3.35346101e-09  3.12585583e-09  3.38808177e-09  4.58820357e-01  4.58820357e-01  4.58820357e-01  1.62378258e-07  1.65409173e-07  3.10000000e-01 
 3.20000000e-01  3.26725708e-09  3.35346101e-09  3.12585578e-09  3.38808182e-09  4.58820349e-01  4.58820349e-01  4.58820349e-01  1.62378240e-07  1.65408988e-07  3.20000000e-01 
 3.30000000e-01  3.26725704e-09  3.35346101e-09  3.12585578e-09  3.38808181e-09  4.58820361e-01  4.58820361e-01  4.58820361e-01  1.62378277e-07  1.65408956e-07  3.30000000e-01 
 3.40000000e-01  3.26725703e-09  3.35346101e-09  3.12585583e-09  3.38808177e-09  4.58820349e-01  4.58820349e-01  4.58820349e-01  1.62378247e-07  1.65408661e-07  3.40000000e-01 
 3.50000000e-01  3.26725703e-09  3.35346101e-09  3.12585583e-09  3.38808182e-09  4.58820355e-01  4.58820355e-01  4.58820355e-01  1.62378255e-07  1.65408672e-07  3.50000000e-01 
 3.60000000e-01  3.26725703e-09  3.35346101e-09  3.12585583e-09  3.38808181e-09  4.58820344e-01  4.58820344e-01  4.58820344e-01  1.62378221e-07  1.65408455e-07  3.60000000e-01 
 3.70000000e-01  3.26725709e-09  3.35346101e-09  3.12585583e-09  3.38808183e-09  4.58820360e-01  4.58820360e-01  4.58820360e-01  1.62378253e-07  1.65408448e-07  3.70000000e-01 
 3.80000000e-01  3.26725702e-09  3.35346101e-09  3.12585583e-09  3.38808175e-09  4.58820373e-01  4.58820373e-01  4.58820373e-01  1.62378281e-07  1.65408299e-07  3.80000000e-01 
 3.90000000e-01  3.26725704e-09  3.35346101e-09  3.12585578e-09  3.38808177e-09  4.58820342e-01  4.58820342e-01  4.58820342e-01  1.62378251e-07  1.65407933e-07  3.90000000e-01 
 4.00000000e-01  3.26725703e-09  3.35346101e-09  3.12585578e-09  3.38808182e-09  4.58820356e-01  4.58820356e-01  4.58820356e-01  1.62378253e-07  1.65407929e-07  4.00000000e-01 
 4.10000000e-01  3.26725703e-09  3.35346101e-09  3.12585583e-09  3.38808175e-09  4.58820359e-01  4.58820359e-01  4.58820359e-01  1.62378268e-07  1.65407794e-07  4.10000000e-01 
 4.20000000e-01  3.26725704e-09  3.35346101e-09  3.12585583e-09  3.38808177e-09  4.58820373e-01  4.58820373e-01  4.58820373e-01  1.62378279e-07  1.65407727e-07  4.20000000e-01 
 4.30000000e-01  3.26725708e-09  3.35346100e-09  3.12585583e-09  3.38808182e-09  4.58820325e-01  4.58820325e-01  4.58820325e-01  1.62378224e-07  1.65407346e-07  4.30000000e-01 
 4.40000000e-01  3.26725702e-09  3.35346101e-09  3.12585583e-09  3.38808181e-09  4.58820347e-01  4.58820347e-01  4.58820347e-01  1.62378243e-07  1.65407364e-07  4.40000000e-01 
 4.50000000e-01  3.26725704e-09  3.35346106e-09  3.12585583e-09  3.38808183e-09  4.58820348e-01  4.58820348e-01  4.58820348e-01  1.62378258e-07  1.65407307e-07  4.50000000e-01 
 4.60000000e-01  3.26725703e-09  3.35346101e-09  3.12585583e-09  3.38808181e-09  4.58820346e-01  4.58820346e-01  4.58820346e-01  1.62378233e-07  1.65407069e-07  4.60000000e-01 
 4.70000000e-01  3.26725703e-09  3.35346106e-09  3.12585578e-09  3.38808177e-09  4.58820361e-01  4.58820360e-01  4.58820361e-01  1.62378264e-07  1.65406988e-07  4.70000000e-01 
 4.80000000e-01  3.26725703e-09  3.35346101e-09  3.12585583e-09  3.38808182e-09  4.58820355e-01  4.58820355e-01  4.58820355e-01  1.62378266e-07  1.65406881e-07  4.80000000e-01 
 4.90000000e-01  3.26725709e-09  3.35346106e-09  3.12585583e-09  3.38808175e-09  4.58820362e-01  4.58820362e-01  4.58820362e-01  1.62378265e-07  1.65406853e-07  4.90000000e-01 
 5.00000000e-01  3.26725702e-09  3.35346101e-09  3.12585583e-09  3.38808183e-09  4.58820361e-01  4.58820360e-01  4.58820361e-01  1.62378267e-07  1.65406586e-07  5.00000000e-01 
 5.10000000e-01  3.26725704e-09  3.35346106e-09  3.12585578e-09  3.38808181e-09  4.58820362e-01  4.58820362e-01  4.58820362e-01  1.62378254e-07  1.65406476e-07  5.10000000e-01 
 5.20000000e-01  3.26725703e-09  3.35346101e-09  3.12585583e-09  3.38808177e-09  4.58820360e-01  4.58820360e-01  4.58820360e-01  1.62378274e-07  1.65406451e-07  5.20000000e-01 
 5.30000000e-01  3.26725709e-09  3.35346101e-09  3.12585583e-09  3.38808182e-09  4.58820355e-01  4.58820355e-01  4.58820355e-01  1.62378240e-07  1.65406309e-07  5.30000000e-01 
 5.40000000e-01  3.26725707e-09  3.35346100e-09  3.12585583e-09  3.38808175e-09  4.58820323e-01  4.58820323e-01  4.58820323e-01  1.62378201e-07  1.65406060e-07  5.40000000e-01 
 5.50000000e-01  3.26725704e-09  3.35346101e-09  3.12585583e-09  3.38808177e-09  4.58820362e-01  4.58820362e-01  4.58820362e-01  1.62378269e-07  1.65406099e-07  5.50000000e-01 
 5.60000000e-01  3.26725703e-09  3.35346101e-09  3.12585583e-09  3.38808182e-09  4.58820355e-01  4.58820355e-01  4.58820355e-01  1.62378253e-07  1.65405886e-07  5.60000000e-01 
 5.70000000e-01  3.26725703e-09  3.35346101e-09  3.12585578e-09  3.38808181e-09  4.58820346e-01  4.58820346e-01  4.58820346e-01  1.62378236e-07  1.65405673e-07  5.70000000e-01 
 5.80000000e-01  3.26725703e-09  3.35346101e-09  3.12585583e-09  3.38808177e-09  4.58820341e-01  4.58820341e-01  4.58820341e-01  1.62378244e-07  1.65405467e-07  5.80000000e-01 
 5.90000000e-01  3.26725703e-09  3.35346101e-09  3.12585583e-09  3.38808176e-09  4.58820343e-01  4.58820343e-01  4.58820343e-01  1.62378240e-07  1.65405531e-07  5.90000000e-01 
 6.00000000e-01  3.26725703e-09  3.35346101e-09  3.12585578e-09  3.38808176e-09  4.58820336e-01  4.58820336e-01  4.58820336e-01  1.62378229e-07  1.65405382e-07  6.00000000e-01 
 6.10000000e-01  3.26725709e-09  3.35346101e-09  3.12585583e-09  3.38808182e-09  4.58820370e-01  4.58820370e-01  4.58820370e-01  1.62378265e-07  1.65405339e-07  6.10000000e-01 
 6.20000000e-01  3.26725701e-09  3.35346100e-09  3.12585583e-09  3.38808175e-09  4.58820327e-01  4.58820327e-01  4.58820327e-01  1.62378225e-07  1.65404998e-07  6.20000000e-01 
 6.30000000e-01  3.26725704e-09  3.35346101e-09  3.12585578e-09  3.38808177e-09  4.58820336e-01  4.58820336e-01  4.58820336e-01  1.62378231e-07  1.65405041e-07  6.30000000e-01 
 6.40000000e-01  3.26725709e-09  3.35346101e-09  3.12585583e-09  3.38808182e-09  4.58820360e-01  4.58820360e-01  4.58820360e-01  1.62378253e-07  1.65405027e-07  6.40000000e-01 
 6.50000000e-01  3.26725708e-09  3.35346101e-09  3.12585583e-09  3.38808181e-09  4.58820386e-01  4.58820386e-01  4.58820386e-01  1.62378312e-07  1.65404920e-07  6.50000000e-01 
 6.60000000e-01  3.26725708e-09  3.35346101e-09  3.12585583e-09  3.38808183e-09  4.58820348e-01  4.58820348e-01  4.58820348e-01  1.62378260e-07  1.65404572e-07  6.60000000e-01 
 6.70000000e-01  3.26725708e-09  3.35346101e-09  3.12585583e-09  3.38808181e-09  4.58820351e-01  4.58820351e-01  4.58820351e-01  1.62378228e-07  1.65404508e-07  6.70000000e-01 
 6.80000000e-01  3.26725702e-09  3.35346101e-09  3.12585583e-09  3.38808183e-09  4.58820343e-01  4.58820343e-01  4.58820343e-01  1.62378234e-07  1.65404352e-07  6.80000000e-01 
 6.90000000e-01  3.26725704e-09  3.35346101e-09  3.12585578e-09  3.38808181e-09  4.58820342e-01  4.58820342e-01  4.58820342e-01  1.62378231e-07  1.65404295e-07  6.90000000e-01 
 7.00000000e-01  3.26725703e-09  3.35346101e-09  3.12585578e-09  3.38808177e-09  4.58820338e-01  4.58820338e-01  4.58820338e-01  1.62378229e-07  1.65404053e-07  7.00000000e-01 
 7.10000000e-01  3.26725709e-09  3.35346101e-09  3.12585578e-09  3.38808177e-09  4.58820361e-01  4.58820360e-01  4.58820361e-01  1.62378261e-07  1.65404089e-07  7.10000000e-01 
 7.20000000e-01  3.26725702e-09  3.35346101e-09  3.12585583e-09  3.38808176e-09  4.58820343e-01  4.58820343e-01  4.58820343e-01  1.62378252e-07  1.65403911e-07  7.20000000e-01 
 7.30000000e-01  3.26725704e-09  3.35346101e-09  3.12585583e-09  3.38808182e-09  4.58820361e-01  4.58820361e-01  4.58820361e-01  1.62378248e-07  1.65403840e-07  7.30000000e-01 
 7.40000000e-01  3.26725709e-09  3.35346101e-09  3.12585583e-09  3.38808181e-09  4.58820357e-01  4.58820357e-01  4.58820357e-01  1.62378265e-07  1.65403705e-07  7.40000000e-01 
 7.50000000e-01  3.26725708e-09  3.35346101e-09  3.12585583e-09  3.38808177e-09  4.58820362e-01  4.58820362e-01  4.58820362e-01  1.62378270e-07  1.65403598e-07  7.50000000e-01 
 7.60000000e-01  3.26725703e-09  3.35346101e-09  3.12585578e-09  3.38808177e-09  4.58820375e-01  4.58820375e-01  4.58820375e-01  1.62378280e-07  1.65403527e-07  7.60000000e-01 
 7.70000000e-01  3.26725704e-09  3.35346101e-09  3.12585578e-09  3.38808182e-09  4.58820376e-01  4.58820376e-01  4.58820376e-01  1.62378287e-07  1.65403435e-07  7.70000000e-01 
 7.80000000e-01  3.26725703e-09  3.35346101e-09  3.12585583e-09  3.38808181e-09  4.58820342e-01  4.58820342e-01  4.58820342e-01  1.62378239e-07  1.65403208e-07  7.80000000e-01 
 7.90000000e-01  3.26725703e-09  3.35346101e-09  3.12585583e-09  3.38808183e-09  4.58820356e-01  4.58820355e-01  4.58820356e-01  1.62378258e-07  1.65403158e-07  7.90000000e-01 
 8.00000000e-01  3.26725703e-09  3.35346101e-09  3.12585583e-09  3.38808181e-09  4.58820351e-01  4.58820351e-01  4.58820351e-01  1.62378253e-07  1.65402930e-07  8.00000000e-01 
 8.10000000e-01  3.26725703e-09  3.35346101e-09  3.12585583e-09  3.38808177e-09  4.58820363e-01  4.58820362e-01  4.58820363e-01  1.62378259e-07  1.65402803e-07  8.10000000e-01 
 8.20000000e-01  3.26725709e-09  3.35346101e-09  3.12585583e-09  3.38808176e-09  4.58820337e-01  4.58820337e-01  4.58820337e-01  1.62378235e-07  1.65402646e-07  8.20000000e-01 
 8.30000000e-01  3.26725702e-09  3.35346106e-09  3.12585583e-09  3.38808182e-09  4.58820346e-01  4.58820345e-01  4.58820346e-01  1.62378239e-07  1.65402490e-07  8.30000000e-01 
 8.40000000e-01  3.26725704e-09  3.35346101e-09  3.12585583e-09  3.38808181e-09  4.58820355e-01  4.58820355e-01  4.58820355e-01  1.62378259e-07  1.65402518e-07  8.40000000e-01 
 8.50000000e-01  3.26725704e-09  3.35346101e-09  3.12585583e-09  3.38808177e-09  4.58820379e-01  4.58820379e-01  4.58820379e-01  1.62378291e-07  1.65402327e-07  8.50000000e-01 
 8.60000000e-01  3.26725703e-09  3.35346101e-09  3.12585583e-09  3.38808182e-09  4.58820361e-01  4.58820361e-01  4.58820361e-01  1.62378267e-07  1.65402255e-07  8.60000000e-01 
 8.70000000e-01  3.26725703e-09  3.35346101e-09  3.12585578e-09  3.38808175e-09  4.58820338e-01  4.58820338e-01  4.58820338e-01  1.62378225e-07  1.65401900e-07  8.70000000e-01 
 8.80000000e-01  3.26725709e-09  3.35346101e-09  3.12585583e-09  3.38808177e-09  4.58820340e-01  4.58820340e-01  4.58820340e-01  1.62378230e-07  1.65401772e-07  8.80000000e-01 
 8.90000000e-01  3.26725708e-09  3.35346101e-09  3.12585578e-09  3.38808176e-09  4.58820344e-01  4.58820344e-01  4.58820344e-01  1.62378238e-07  1.65401765e-07  8.90000000e-01 
 9.00000000e-01  3.26725704e-09  3.35346101e-09  3.12585583e-09  3.38808177e-09  4.58820368e-01  4.58820368e-01  4.58820368e-01  1.62378267e-07  1.65401751e-07  9.00000000e-01 
 9.10000000e-01  3.26725703e-09  3.35346101e-09  3.12585583e-09  3.38808176e-09  4.58820339e-01  4.58820339e-01  4.58820339e-01  1.62378238e-07  1.65401474e-07  9.10000000e-01 
 9.20000000e-01  3.26725703e-09  3.35346101e-09  3.12585583e-09  3.38808176e-09  4.58820347e-01  4.58820347e-01  4.58820347e-01  1.62378256e-07  1.65401389e-07  9.20000000e-01 
 9.30000000e-01  3.26725703e-09  3.35346106e-09  3.12585583e-09  3.38808176e-09  4.58820337e-01  4.58820336e-01  4.58820337e-01  1.62378209e-07  1.65401154e-07  9.30000000e-01 
 9.40000000e-01  3.26725703e-09  3.35346101e-09  3.12585583e-09  3.38808182e-09  4.58820353e-01  4.58820353e-01  4.58820353e-01  1.62378251e-07  1.65401062e-07  9.40000000e-01 
 9.50000000e-01  3.26725709e-09  3.35346101e-09  3.12585583e-09  3.38808181e-09  4.58820357e-01  4.58820357e-01  4.58820357e-01  1.62378261e-07  1.65401005e-07  9.50000000e-01 
 9.60000000e-01  3.26725707e-09  3.35346101e-09  3.12585583e-09  3.38808183e-09  4.58820338e-01  4.58820338e-01  4.58820338e-01  1.62378228e-07  1.65400650e-07  9.60000000e-01 
 9.70000000e-01  3.26725704e-09  3.35346101e-09  3.12585583e-09  3.38808181e-09  4.58820346e-01  4.58820346e-01  4.58820346e-01  1.62378238e-07  1.65400692e-07  9.70000000e-01 
 9.80000000e-01  3.26725703e-09  3.35346100e-09  3.12585583e-09  3.38808177e-09  4.58820331e-01  4.58820331e-01  4.58820331e-01  1.62378212e-07  1.65400351e-07  9.80000000e-01 
 9.90000000e-01  3.26725703e-09  3.35346101e-09  3.12585583e-09  3.38808182e-09  4.58820343e-01  4.58820343e-01  4.58820343e-01  1.62378238e-07  1.65400287e-07  9.90000000e-01 
 1.00000000e+00  3.26725703e-09  3.35346101e-09  3.12585583e-09  3.38808181e-09  4.58820353e-01  4.58820353e-01  4.58820353e-01  1.62378256e-07  1.65400202e-07  1.00000000e+00 
 1.01000000e+00  3.26725703e-09  3.35346101e-09  3.12585583e-09  3.38808183e-09  4.58820359e-01  4.58820359e-01  4.58820359e-01  1.62378262e-07  1.65400110e-07  1.01000000e+00 
 1.02000000e+00  3.26725703e-09  3.35346101e-09  3.12585583e-09  3.38808175e-09  4.58820364e-01  4.58820364e-01  4.58820364e-01  1.62378274e-07  1.65399925e-07  1.02000000e+00 
 1.03000000e+00  3.26725703e-09  3.35346101e-09  3.12585583e-09  3.38808183e-09  4.58820359e-01  4.58820359e-01  4.58820359e-01  1.62378262e-07  1.65399811e-07  1.03000000e+00 
 1.04000000e+00  3.26725703e-09  3.35346101e-09  3.12585578e-09  3.38808181e-09  4.58820353e-01  4.58820353e-01  4.58820353e-01  1.62378251e-07  1.65399499e-07  1.04000000e+00 
 1.05000000e+00  3.26725703e-09  3.35346101e-09  3.12585583e-09  3.38808183e-09  4.58820349e-01  4.58820349e-01  4.58820349e-01  1.62378249e-07  1.65399314e-07  1.05000000e+00 
 1.06000000e+00  3.26725703e-09  3.35346101e-09  3.12585583e-09  3.38808175e-09  4.58820342e-01  4.58820342e-01  4.58820342e-01  1.62378230e-07  1.65399157e-07  1.06000000e+00 
 1.07000000e+00  3.26725709e-09  3.35346101e-09  3.12585578e-09  3.38808177e-09  4.58820345e-01  4.58820345e-01  4.58820345e-01  1.62378245e-07  1.65399094e-07  1.07000000e+00 
 1.08000000e+00  3.26725702e-09  3.35346101e-09  3.12585583e-09  3.38808182e-09  4.58820355e-01  4.58820355e-01  4.58820355e-01  1.62378255e-07  1.65398944e-07  1.08000000e+00 
 1.09000000e+00  3.26725704e-09  3.35346106e-09  3.12585578e-09  3.38808175e-09  4.58820370e-01  4.58820370e-01  4.58820370e-01  1.62378274e-07  1.65398966e-07  1.09000000e+00 
 1.10000000e+00  3.26725703e-09  3.35346101e-09  3.12585583e-09  3.38808183e-09  4.58820351e-01  4.58820351e-01  4.58820351e-01  1.62378256e-07  1.65398674e-07  1.10000000e+00 
