 v-sweep         v(b0)           v(b1)           v(b2)           v(b3)           v(b4)           v(b5)           v(b6)           i(vbias)        i(viout)        v(vout)        
 0.00000000e+00  4.58838963e-01  3.48354254e-09  4.58838964e-01  4.58838963e-01  3.33234378e-09  3.35664596e-09  4.58838963e-01  1.59500122e-07  1.18512047e-07  0.00000000e+00 
 1.00000000e-02  4.58838947e-01  3.48354257e-09  4.58838947e-01  4.58838947e-01  3.33234381e-09  3.35664600e-09  4.58838947e-01  1.59500111e-07  1.18511499e-07  1.00000000e-02 
 2.00000000e-02  4.58838971e-01  3.48354257e-09  4.58838971e-01  4.58838971e-01  3.33234381e-09  3.35664594e-09  4.58838971e-01  1.59500131e-07  1.18511132e-07  2.00000000e-02 
 3.00000000e-02  4.58838954e-01  3.48354257e-09  4.58838955e-01  4.58838954e-01  3.33234375e-09  3.35664600e-09  4.58838954e-01  1.59500109e-07  1.18510697e-07  3.00000000e-02 
 4.00000000e-02  4.58838946e-01  3.48354257e-09  4.58838947e-01  4.58838947e-01  3.33234381e-09  3.35664600e-09  4.58838946e-01  1.59500097e-07  1.18510335e-07  4.00000000e-02 
 5.00000000e-02  4.58838943e-01  3.48354257e-09  4.58838943e-01  4.58838943e-01  3.33234375e-09  3.35664594e-09  4.58838943e-01  1.59500099e-07  1.18509912e-07  5.00000000e-02 
 6.00000000e-02  4.58838947e-01  3.48354257e-09  4.58838947e-01  4.58838947e-01  3.33234381e-09  3.35664600e-09  4.58838947e-01  1.59500088e-07  1.18509710e-07  6.00000000e-02 
 7.00000000e-02  4.58838983e-01  3.48354257e-09  4.58838983e-01  4.58838983e-01  3.33234381e-09  3.35664594e-09  4.58838983e-01  1.59500132e-07  1.18509432e-07  7.00000000e-02 
 8.00000000e-02  4.58838967e-01  3.48354251e-09  4.58838967e-01  4.58838967e-01  3.33234381e-09  3.35664594e-09  4.58838967e-01  1.59500124e-07  1.18509088e-07  8.00000000e-02 
 9.00000000e-02  4.58838948e-01  3.48354257e-09  4.58838949e-01  4.58838949e-01  3.33234381e-09  3.35664594e-09  4.58838948e-01  1.59500094e-07  1.18508711e-07  9.00000000e-02 
 1.00000000e-01  4.58838962e-01  3.48354251e-09  4.58838962e-01  4.58838962e-01  3.33234375e-09  3.35664594e-09  4.58838962e-01  1.59500131e-07  1.18508536e-07  1.00000000e-01 
 1.10000000e-01  4.58838924e-01  3.48354257e-09  4.58838924e-01  4.58838924e-01  3.33234381e-09  3.35664594e-09  4.58838924e-01  1.59500080e-07  1.18508130e-07  1.10000000e-01 
 1.20000000e-01  4.58838952e-01  3.48354257e-09  4.58838952e-01  4.58838952e-01  3.33234375e-09  3.35664600e-09  4.58838952e-01  1.59500112e-07  1.18507877e-07  1.20000000e-01 
 1.30000000e-01  4.58838952e-01  3.48354257e-09  4.58838953e-01  4.58838952e-01  3.33234375e-09  3.35664600e-09  4.58838952e-01  1.59500111e-07  1.18507688e-07  1.30000000e-01 
 1.40000000e-01  4.58838937e-01  3.48354257e-09  4.58838937e-01  4.58838937e-01  3.33234375e-09  3.35664594e-09  4.58838937e-01  1.59500080e-07  1.18507423e-07  1.40000000e-01 
 1.50000000e-01  4.58838955e-01  3.48354257e-09  4.58838955e-01  4.58838955e-01  3.33234381e-09  3.35664594e-09  4.58838955e-01  1.59500102e-07  1.18507185e-07  1.50000000e-01 
 1.60000000e-01  4.58838962e-01  3.48354257e-09  4.58838962e-01  4.58838962e-01  3.33234381e-09  3.35664594e-09  4.58838962e-01  1.59500114e-07  1.18507069e-07  1.60000000e-01 
 1.70000000e-01  4.58838955e-01  3.48354257e-09  4.58838955e-01  4.58838955e-01  3.33234381e-09  3.35664594e-09  4.58838955e-01  1.59500104e-07  1.18506794e-07  1.70000000e-01 
 1.80000000e-01  4.58838943e-01  3.48354257e-09  4.58838943e-01  4.58838943e-01  3.33234381e-09  3.35664600e-09  4.58838943e-01  1.59500097e-07  1.18506497e-07  1.80000000e-01 
 1.90000000e-01  4.58838951e-01  3.48354257e-09  4.58838951e-01  4.58838951e-01  3.33234381e-09  3.35664600e-09  4.58838951e-01  1.59500110e-07  1.18506556e-07  1.90000000e-01 
 2.00000000e-01  4.58838951e-01  3.48354257e-09  4.58838951e-01  4.58838951e-01  3.33234381e-09  3.35664600e-09  4.58838951e-01  1.59500120e-07  1.18506259e-07  2.00000000e-01 
 2.10000000e-01  4.58838933e-01  3.48354251e-09  4.58838933e-01  4.58838933e-01  3.33234381e-09  3.35664599e-09  4.58838933e-01  1.59500072e-07  1.18506017e-07  2.10000000e-01 
 2.20000000e-01  4.58838962e-01  3.48354251e-09  4.58838962e-01  4.58838962e-01  3.33234375e-09  3.35664594e-09  4.58838962e-01  1.59500124e-07  1.18506023e-07  2.20000000e-01 
 2.30000000e-01  4.58838924e-01  3.48354257e-09  4.58838924e-01  4.58838924e-01  3.33234381e-09  3.35664599e-09  4.58838924e-01  1.59500066e-07  1.18505632e-07  2.30000000e-01 
 2.40000000e-01  4.58838941e-01  3.48354257e-09  4.58838941e-01  4.58838941e-01  3.33234375e-09  3.35664594e-09  4.58838941e-01  1.59500093e-07  1.18505547e-07  2.40000000e-01 
 2.50000000e-01  4.58838914e-01  3.48354257e-09  4.58838914e-01  4.58838914e-01  3.33234380e-09  3.35664599e-09  4.58838914e-01  1.59500060e-07  1.18505314e-07  2.50000000e-01 
 2.60000000e-01  4.58838936e-01  3.48354257e-09  4.58838936e-01  4.58838936e-01  3.33234381e-09  3.35664599e-09  4.58838936e-01  1.59500081e-07  1.18505268e-07  2.60000000e-01 
 2.70000000e-01  4.58838937e-01  3.48354257e-09  4.58838937e-01  4.58838937e-01  3.33234381e-09  3.35664599e-09  4.58838937e-01  1.59500091e-07  1.18505184e-07  2.70000000e-01 
 2.80000000e-01  4.58838935e-01  3.48354257e-09  4.58838936e-01  4.58838935e-01  3.33234381e-09  3.35664599e-09  4.58838935e-01  1.59500075e-07  1.18505097e-07  2.80000000e-01 
 2.90000000e-01  4.58838952e-01  3.48354251e-09  4.58838952e-01  4.58838952e-01  3.33234381e-09  3.35664600e-09  4.58838952e-01  1.59500108e-07  1.18504818e-07  2.90000000e-01 
 3.00000000e-01  4.58838926e-01  3.48354257e-09  4.58838926e-01  4.58838926e-01  3.33234381e-09  3.35664594e-09  4.58838926e-01  1.59500063e-07  1.18504694e-07  3.00000000e-01 
 3.10000000e-01  4.58838938e-01  3.48354257e-09  4.58838938e-01  4.58838938e-01  3.33234381e-09  3.35664594e-09  4.58838938e-01  1.59500097e-07  1.18504619e-07  3.10000000e-01 
 3.20000000e-01  4.58838945e-01  3.48354257e-09  4.58838945e-01  4.58838945e-01  3.33234381e-09  3.35664594e-09  4.58838945e-01  1.59500101e-07  1.18504509e-07  3.20000000e-01 
 3.30000000e-01  4.58838958e-01  3.48354257e-09  4.58838958e-01  4.58838958e-01  3.33234381e-09  3.35664594e-09  4.58838958e-01  1.59500117e-07  1.18504424e-07  3.30000000e-01 
 3.40000000e-01  4.58838955e-01  3.48354257e-09  4.58838955e-01  4.58838955e-01  3.33234381e-09  3.35664600e-09  4.58838955e-01  1.59500110e-07  1.18504229e-07  3.40000000e-01 
 3.50000000e-01  4.58838945e-01  3.48354257e-09  4.58838945e-01  4.58838945e-01  3.33234381e-09  3.35664594e-09  4.58838945e-01  1.59500101e-07  1.18504225e-07  3.50000000e-01 
 3.60000000e-01  4.58838930e-01  3.48354257e-09  4.58838930e-01  4.58838930e-01  3.33234381e-09  3.35664599e-09  4.58838930e-01  1.59500075e-07  1.18504108e-07  3.60000000e-01 
 3.70000000e-01  4.58838951e-01  3.48354257e-09  4.58838951e-01  4.58838951e-01  3.33234381e-09  3.35664594e-09  4.58838951e-01  1.59500103e-07  1.18503866e-07  3.70000000e-01 
 3.80000000e-01  4.58838958e-01  3.48354257e-09  4.58838958e-01  4.58838958e-01  3.33234381e-09  3.35664594e-09  4.58838958e-01  1.59500118e-07  1.18503856e-07  3.80000000e-01 
 3.90000000e-01  4.58838959e-01  3.48354257e-09  4.58838959e-01  4.58838959e-01  3.33234381e-09  3.35664594e-09  4.58838959e-01  1.59500121e-07  1.18503760e-07  3.90000000e-01 
 4.00000000e-01  4.58838931e-01  3.48354257e-09  4.58838931e-01  4.58838931e-01  3.33234381e-09  3.35664599e-09  4.58838931e-01  1.59500086e-07  1.18503511e-07  4.00000000e-01 
 4.10000000e-01  4.58838949e-01  3.48354257e-09  4.58838949e-01  4.58838949e-01  3.33234381e-09  3.35664600e-09  4.58838949e-01  1.59500106e-07  1.18503507e-07  4.10000000e-01 
 4.20000000e-01  4.58838953e-01  3.48354251e-09  4.58838953e-01  4.58838953e-01  3.33234381e-09  3.35664600e-09  4.58838953e-01  1.59500114e-07  1.18503340e-07  4.20000000e-01 
 4.30000000e-01  4.58838932e-01  3.48354257e-09  4.58838932e-01  4.58838932e-01  3.33234381e-09  3.35664594e-09  4.58838932e-01  1.59500092e-07  1.18503308e-07  4.30000000e-01 
 4.40000000e-01  4.58838944e-01  3.48354257e-09  4.58838944e-01  4.58838944e-01  3.33234381e-09  3.35664594e-09  4.58838944e-01  1.59500087e-07  1.18503159e-07  4.40000000e-01 
 4.50000000e-01  4.58838970e-01  3.48354257e-09  4.58838970e-01  4.58838970e-01  3.33234381e-09  3.35664594e-09  4.58838970e-01  1.59500126e-07  1.18503170e-07  4.50000000e-01 
 4.60000000e-01  4.58838923e-01  3.48354257e-09  4.58838924e-01  4.58838923e-01  3.33234381e-09  3.35664599e-09  4.58838923e-01  1.59500081e-07  1.18502975e-07  4.60000000e-01 
 4.70000000e-01  4.58838961e-01  3.48354257e-09  4.58838961e-01  4.58838961e-01  3.33234381e-09  3.35664594e-09  4.58838961e-01  1.59500110e-07  1.18502928e-07  4.70000000e-01 
 4.80000000e-01  4.58838963e-01  3.48354251e-09  4.58838963e-01  4.58838963e-01  3.33234381e-09  3.35664600e-09  4.58838963e-01  1.59500133e-07  1.18502857e-07  4.80000000e-01 
 4.90000000e-01  4.58838919e-01  3.48354257e-09  4.58838919e-01  4.58838919e-01  3.33234380e-09  3.35664599e-09  4.58838919e-01  1.59500061e-07  1.18502655e-07  4.90000000e-01 
 5.00000000e-01  4.58838945e-01  3.48354257e-09  4.58838945e-01  4.58838945e-01  3.33234381e-09  3.35664600e-09  4.58838945e-01  1.59500100e-07  1.18502687e-07  5.00000000e-01 
 5.10000000e-01  4.58838957e-01  3.48354257e-09  4.58838957e-01  4.58838957e-01  3.33234381e-09  3.35664594e-09  4.58838957e-01  1.59500112e-07  1.18502719e-07  5.10000000e-01 
 5.20000000e-01  4.58838956e-01  3.48354257e-09  4.58838956e-01  4.58838956e-01  3.33234381e-09  3.35664600e-09  4.58838956e-01  1.59500111e-07  1.18502573e-07  5.20000000e-01 
 5.30000000e-01  4.58838944e-01  3.48354257e-09  4.58838945e-01  4.58838945e-01  3.33234381e-09  3.35664600e-09  4.58838944e-01  1.59500094e-07  1.18502406e-07  5.30000000e-01 
 5.40000000e-01  4.58838981e-01  3.48354257e-09  4.58838981e-01  4.58838981e-01  3.33234375e-09  3.35664594e-09  4.58838981e-01  1.59500137e-07  1.18502328e-07  5.40000000e-01 
 5.50000000e-01  4.58838961e-01  3.48354257e-09  4.58838961e-01  4.58838961e-01  3.33234381e-09  3.35664594e-09  4.58838961e-01  1.59500123e-07  1.18502328e-07  5.50000000e-01 
 5.60000000e-01  4.58838958e-01  3.48354257e-09  4.58838958e-01  4.58838958e-01  3.33234375e-09  3.35664594e-09  4.58838958e-01  1.59500116e-07  1.18502236e-07  5.60000000e-01 
 5.70000000e-01  4.58838950e-01  3.48354257e-09  4.58838950e-01  4.58838950e-01  3.33234381e-09  3.35664600e-09  4.58838950e-01  1.59500107e-07  1.18502072e-07  5.70000000e-01 
 5.80000000e-01  4.58838933e-01  3.48354257e-09  4.58838933e-01  4.58838933e-01  3.33234381e-09  3.35664594e-09  4.58838933e-01  1.59500083e-07  1.18502044e-07  5.80000000e-01 
 5.90000000e-01  4.58838932e-01  3.48354257e-09  4.58838932e-01  4.58838932e-01  3.33234381e-09  3.35664599e-09  4.58838932e-01  1.59500095e-07  1.18501816e-07  5.90000000e-01 
 6.00000000e-01  4.58838943e-01  3.48354257e-09  4.58838943e-01  4.58838943e-01  3.33234375e-09  3.35664594e-09  4.58838943e-01  1.59500106e-07  1.18501795e-07  6.00000000e-01 
 6.10000000e-01  4.58838959e-01  3.48354257e-09  4.58838960e-01  4.58838959e-01  3.33234381e-09  3.35664600e-09  4.58838959e-01  1.59500121e-07  1.18501845e-07  6.10000000e-01 
 6.20000000e-01  4.58838924e-01  3.48354257e-09  4.58838924e-01  4.58838924e-01  3.33234375e-09  3.35664599e-09  4.58838924e-01  1.59500081e-07  1.18501667e-07  6.20000000e-01 
 6.30000000e-01  4.58838972e-01  3.48354257e-09  4.58838972e-01  4.58838972e-01  3.33234381e-09  3.35664594e-09  4.58838972e-01  1.59500147e-07  1.18501639e-07  6.30000000e-01 
 6.40000000e-01  4.58838968e-01  3.48354257e-09  4.58838968e-01  4.58838968e-01  3.33234381e-09  3.35664594e-09  4.58838968e-01  1.59500130e-07  1.18501610e-07  6.40000000e-01 
 6.50000000e-01  4.58838941e-01  3.48354257e-09  4.58838942e-01  4.58838941e-01  3.33234381e-09  3.35664599e-09  4.58838941e-01  1.59500092e-07  1.18501426e-07  6.50000000e-01 
 6.60000000e-01  4.58838957e-01  3.48354257e-09  4.58838957e-01  4.58838957e-01  3.33234381e-09  3.35664600e-09  4.58838957e-01  1.59500126e-07  1.18501404e-07  6.60000000e-01 
 6.70000000e-01  4.58838922e-01  3.48354257e-09  4.58838923e-01  4.58838922e-01  3.33234381e-09  3.35664594e-09  4.58838922e-01  1.59500068e-07  1.18501120e-07  6.70000000e-01 
 6.80000000e-01  4.58838950e-01  3.48354257e-09  4.58838950e-01  4.58838950e-01  3.33234381e-09  3.35664594e-09  4.58838950e-01  1.59500098e-07  1.18501042e-07  6.80000000e-01 
 6.90000000e-01  4.58838952e-01  3.48354257e-09  4.58838952e-01  4.58838952e-01  3.33234375e-09  3.35664600e-09  4.58838952e-01  1.59500115e-07  1.18501177e-07  6.90000000e-01 
 7.00000000e-01  4.58838932e-01  3.48354257e-09  4.58838932e-01  4.58838932e-01  3.33234381e-09  3.35664599e-09  4.58838932e-01  1.59500084e-07  1.18500893e-07  7.00000000e-01 
 7.10000000e-01  4.58838972e-01  3.48354257e-09  4.58838973e-01  4.58838973e-01  3.33234381e-09  3.35664594e-09  4.58838972e-01  1.59500136e-07  1.18500921e-07  7.10000000e-01 
 7.20000000e-01  4.58838955e-01  3.48354257e-09  4.58838955e-01  4.58838955e-01  3.33234375e-09  3.35664600e-09  4.58838955e-01  1.59500118e-07  1.18500971e-07  7.20000000e-01 
 7.30000000e-01  4.58838930e-01  3.48354257e-09  4.58838930e-01  4.58838930e-01  3.33234381e-09  3.35664599e-09  4.58838930e-01  1.59500084e-07  1.18500779e-07  7.30000000e-01 
 7.40000000e-01  4.58838945e-01  3.48354257e-09  4.58838945e-01  4.58838945e-01  3.33234375e-09  3.35664600e-09  4.58838945e-01  1.59500107e-07  1.18500687e-07  7.40000000e-01 
 7.50000000e-01  4.58838951e-01  3.48354257e-09  4.58838951e-01  4.58838951e-01  3.33234381e-09  3.35664600e-09  4.58838951e-01  1.59500096e-07  1.18500637e-07  7.50000000e-01 
 7.60000000e-01  4.58838988e-01  3.48354257e-09  4.58838988e-01  4.58838988e-01  3.33234381e-09  3.35664600e-09  4.58838988e-01  1.59500162e-07  1.18500651e-07  7.60000000e-01 
 7.70000000e-01  4.58838962e-01  3.48354257e-09  4.58838962e-01  4.58838962e-01  3.33234381e-09  3.35664600e-09  4.58838962e-01  1.59500109e-07  1.18500353e-07  7.70000000e-01 
 7.80000000e-01  4.58838950e-01  3.48354257e-09  4.58838950e-01  4.58838950e-01  3.33234381e-09  3.35664600e-09  4.58838950e-01  1.59500108e-07  1.18500253e-07  7.80000000e-01 
 7.90000000e-01  4.58838945e-01  3.48354257e-09  4.58838945e-01  4.58838945e-01  3.33234381e-09  3.35664594e-09  4.58838945e-01  1.59500108e-07  1.18500189e-07  7.90000000e-01 
 8.00000000e-01  4.58838952e-01  3.48354251e-09  4.58838952e-01  4.58838952e-01  3.33234381e-09  3.35664600e-09  4.58838952e-01  1.59500110e-07  1.18500161e-07  8.00000000e-01 
 8.10000000e-01  4.58838946e-01  3.48354251e-09  4.58838946e-01  4.58838946e-01  3.33234381e-09  3.35664600e-09  4.58838946e-01  1.59500100e-07  1.18500061e-07  8.10000000e-01 
 8.20000000e-01  4.58838975e-01  3.48354257e-09  4.58838975e-01  4.58838975e-01  3.33234381e-09  3.35664600e-09  4.58838975e-01  1.59500145e-07  1.18500132e-07  8.20000000e-01 
 8.30000000e-01  4.58838976e-01  3.48354257e-09  4.58838976e-01  4.58838976e-01  3.33234381e-09  3.35664594e-09  4.58838976e-01  1.59500147e-07  1.18500012e-07  8.30000000e-01 
 8.40000000e-01  4.58838946e-01  3.48354257e-09  4.58838946e-01  4.58838946e-01  3.33234381e-09  3.35664594e-09  4.58838945e-01  1.59500102e-07  1.18499926e-07  8.40000000e-01 
 8.50000000e-01  4.58838965e-01  3.48354257e-09  4.58838965e-01  4.58838965e-01  3.33234375e-09  3.35664594e-09  4.58838965e-01  1.59500125e-07  1.18499841e-07  8.50000000e-01 
 8.60000000e-01  4.58838932e-01  3.48354257e-09  4.58838932e-01  4.58838932e-01  3.33234381e-09  3.35664599e-09  4.58838932e-01  1.59500073e-07  1.18499663e-07  8.60000000e-01 
 8.70000000e-01  4.58838962e-01  3.48354257e-09  4.58838962e-01  4.58838962e-01  3.33234381e-09  3.35664600e-09  4.58838962e-01  1.59500109e-07  1.18499663e-07  8.70000000e-01 
 8.80000000e-01  4.58838947e-01  3.48354257e-09  4.58838947e-01  4.58838947e-01  3.33234381e-09  3.35664600e-09  4.58838947e-01  1.59500099e-07  1.18499393e-07  8.80000000e-01 
 8.90000000e-01  4.58838926e-01  3.48354251e-09  4.58838927e-01  4.58838926e-01  3.33234381e-09  3.35664599e-09  4.58838926e-01  1.59500069e-07  1.18499337e-07  8.90000000e-01 
 9.00000000e-01  4.58838960e-01  3.48354251e-09  4.58838960e-01  4.58838960e-01  3.33234381e-09  3.35664600e-09  4.58838960e-01  1.59500118e-07  1.18499337e-07  9.00000000e-01 
 9.10000000e-01  4.58838948e-01  3.48354257e-09  4.58838949e-01  4.58838948e-01  3.33234381e-09  3.35664600e-09  4.58838948e-01  1.59500104e-07  1.18499159e-07  9.10000000e-01 
 9.20000000e-01  4.58838958e-01  3.48354257e-09  4.58838958e-01  4.58838958e-01  3.33234381e-09  3.35664600e-09  4.58838958e-01  1.59500102e-07  1.18499180e-07  9.20000000e-01 
 9.30000000e-01  4.58838969e-01  3.48354257e-09  4.58838969e-01  4.58838969e-01  3.33234381e-09  3.35664594e-09  4.58838969e-01  1.59500138e-07  1.18499123e-07  9.30000000e-01 
 9.40000000e-01  4.58838961e-01  3.48354257e-09  4.58838961e-01  4.58838961e-01  3.33234375e-09  3.35664600e-09  4.58838961e-01  1.59500120e-07  1.18498996e-07  9.40000000e-01 
 9.50000000e-01  4.58838929e-01  3.48354251e-09  4.58838929e-01  4.58838929e-01  3.33234375e-09  3.35664599e-09  4.58838929e-01  1.59500071e-07  1.18498747e-07  9.50000000e-01 
 9.60000000e-01  4.58838924e-01  3.48354257e-09  4.58838924e-01  4.58838924e-01  3.33234381e-09  3.35664599e-09  4.58838924e-01  1.59500066e-07  1.18498626e-07  9.60000000e-01 
 9.70000000e-01  4.58838949e-01  3.48354257e-09  4.58838949e-01  4.58838949e-01  3.33234381e-09  3.35664594e-09  4.58838949e-01  1.59500114e-07  1.18498733e-07  9.70000000e-01 
 9.80000000e-01  4.58838945e-01  3.48354257e-09  4.58838945e-01  4.58838945e-01  3.33234381e-09  3.35664594e-09  4.58838945e-01  1.59500097e-07  1.18498626e-07  9.80000000e-01 
 9.90000000e-01  4.58838905e-01  3.48354257e-09  4.58838905e-01  4.58838905e-01  3.33234380e-09  3.35664593e-09  4.58838905e-01  1.59500034e-07  1.18498427e-07  9.90000000e-01 
 1.00000000e+00  4.58838932e-01  3.48354257e-09  4.58838932e-01  4.58838932e-01  3.33234381e-09  3.35664599e-09  4.58838932e-01  1.59500094e-07  1.18498313e-07  1.00000000e+00 
 1.01000000e+00  4.58838943e-01  3.48354257e-09  4.58838943e-01  4.58838943e-01  3.33234381e-09  3.35664594e-09  4.58838943e-01  1.59500098e-07  1.18498370e-07  1.01000000e+00 
 1.02000000e+00  4.58838953e-01  3.48354257e-09  4.58838953e-01  4.58838953e-01  3.33234381e-09  3.35664600e-09  4.58838953e-01  1.59500111e-07  1.18498143e-07  1.02000000e+00 
 1.03000000e+00  4.58838952e-01  3.48354251e-09  4.58838952e-01  4.58838952e-01  3.33234381e-09  3.35664600e-09  4.58838952e-01  1.59500105e-07  1.18498072e-07  1.03000000e+00 
 1.04000000e+00  4.58838962e-01  3.48354257e-09  4.58838962e-01  4.58838962e-01  3.33234375e-09  3.35664600e-09  4.58838962e-01  1.59500111e-07  1.18498122e-07  1.04000000e+00 
 1.05000000e+00  4.58838951e-01  3.48354257e-09  4.58838951e-01  4.58838951e-01  3.33234381e-09  3.35664594e-09  4.58838951e-01  1.59500090e-07  1.18497852e-07  1.05000000e+00 
 1.06000000e+00  4.58838939e-01  3.48354257e-09  4.58838939e-01  4.58838939e-01  3.33234381e-09  3.35664594e-09  4.58838939e-01  1.59500084e-07  1.18497780e-07  1.06000000e+00 
 1.07000000e+00  4.58838937e-01  3.48354251e-09  4.58838937e-01  4.58838937e-01  3.33234381e-09  3.35664594e-09  4.58838937e-01  1.59500080e-07  1.18497617e-07  1.07000000e+00 
 1.08000000e+00  4.58838943e-01  3.48354257e-09  4.58838943e-01  4.58838943e-01  3.33234375e-09  3.35664594e-09  4.58838943e-01  1.59500105e-07  1.18497589e-07  1.08000000e+00 
 1.09000000e+00  4.58838967e-01  3.48354257e-09  4.58838967e-01  4.58838967e-01  3.33234375e-09  3.35664600e-09  4.58838967e-01  1.59500130e-07  1.18497432e-07  1.09000000e+00 
 1.10000000e+00  4.58838960e-01  3.48354257e-09  4.58838960e-01  4.58838960e-01  3.33234381e-09  3.35664594e-09  4.58838960e-01  1.59500115e-07  1.18497447e-07  1.10000000e+00 
