 v-sweep         v(b0)           v(b1)           v(b2)           v(b3)           v(b4)           v(b5)           v(b6)           i(vbias)        i(viout)        v(vout)        
 0.00000000e+00  4.60760053e-01  3.41342634e-09  4.60760053e-01  4.60760053e-01  4.60760053e-01  4.60760053e-01  4.60760053e-01  1.62542536e-07  1.99735694e-07  0.00000000e+00 
 1.00000000e-02  4.60760051e-01  3.41342632e-09  4.60760051e-01  4.60760051e-01  4.60760051e-01  4.60760051e-01  4.60760051e-01  1.62542555e-07  1.99735292e-07  1.00000000e-02 
 2.00000000e-02  4.60760033e-01  3.41342637e-09  4.60760033e-01  4.60760033e-01  4.60760033e-01  4.60760033e-01  4.60760033e-01  1.62542534e-07  1.99734669e-07  2.00000000e-02 
 3.00000000e-02  4.60760054e-01  3.41342638e-09  4.60760054e-01  4.60760054e-01  4.60760054e-01  4.60760054e-01  4.60760054e-01  1.62542552e-07  1.99734321e-07  3.00000000e-02 
 4.00000000e-02  4.60760061e-01  3.41342638e-09  4.60760061e-01  4.60760061e-01  4.60760061e-01  4.60760061e-01  4.60760061e-01  1.62542551e-07  1.99733934e-07  4.00000000e-02 
 5.00000000e-02  4.60760051e-01  3.41342632e-09  4.60760051e-01  4.60760051e-01  4.60760051e-01  4.60760051e-01  4.60760051e-01  1.62542541e-07  1.99733470e-07  5.00000000e-02 
 6.00000000e-02  4.60760058e-01  3.41342638e-09  4.60760058e-01  4.60760058e-01  4.60760058e-01  4.60760058e-01  4.60760058e-01  1.62542562e-07  1.99732995e-07  6.00000000e-02 
 7.00000000e-02  4.60760049e-01  3.41342638e-09  4.60760049e-01  4.60760049e-01  4.60760049e-01  4.60760049e-01  4.60760049e-01  1.62542548e-07  1.99732595e-07  7.00000000e-02 
 8.00000000e-02  4.60760064e-01  3.41342638e-09  4.60760064e-01  4.60760064e-01  4.60760063e-01  4.60760064e-01  4.60760063e-01  1.62542578e-07  1.99732312e-07  8.00000000e-02 
 9.00000000e-02  4.60760039e-01  3.41342638e-09  4.60760039e-01  4.60760039e-01  4.60760039e-01  4.60760039e-01  4.60760039e-01  1.62542521e-07  1.99731772e-07  9.00000000e-02 
 1.00000000e-01  4.60760040e-01  3.41342638e-09  4.60760040e-01  4.60760040e-01  4.60760040e-01  4.60760040e-01  4.60760040e-01  1.62542534e-07  1.99731466e-07  1.00000000e-01 
 1.10000000e-01  4.60760032e-01  3.41342637e-09  4.60760032e-01  4.60760032e-01  4.60760032e-01  4.60760032e-01  4.60760032e-01  1.62542533e-07  1.99731073e-07  1.10000000e-01 
 1.20000000e-01  4.60760045e-01  3.41342638e-09  4.60760045e-01  4.60760045e-01  4.60760045e-01  4.60760045e-01  4.60760045e-01  1.62542529e-07  1.99730770e-07  1.20000000e-01 
 1.30000000e-01  4.60760047e-01  3.41342638e-09  4.60760047e-01  4.60760047e-01  4.60760047e-01  4.60760047e-01  4.60760047e-01  1.62542535e-07  1.99730434e-07  1.30000000e-01 
 1.40000000e-01  4.60760034e-01  3.41342637e-09  4.60760034e-01  4.60760034e-01  4.60760034e-01  4.60760034e-01  4.60760034e-01  1.62542535e-07  1.99730027e-07  1.40000000e-01 
 1.50000000e-01  4.60760045e-01  3.41342638e-09  4.60760045e-01  4.60760045e-01  4.60760045e-01  4.60760045e-01  4.60760045e-01  1.62542541e-07  1.99729891e-07  1.50000000e-01 
 1.60000000e-01  4.60760037e-01  3.41342632e-09  4.60760037e-01  4.60760037e-01  4.60760037e-01  4.60760037e-01  4.60760037e-01  1.62542526e-07  1.99729376e-07  1.60000000e-01 
 1.70000000e-01  4.60760065e-01  3.41342638e-09  4.60760065e-01  4.60760065e-01  4.60760065e-01  4.60760065e-01  4.60760065e-01  1.62542575e-07  1.99729401e-07  1.70000000e-01 
 1.80000000e-01  4.60760030e-01  3.41342637e-09  4.60760030e-01  4.60760030e-01  4.60760030e-01  4.60760030e-01  4.60760030e-01  1.62542522e-07  1.99728914e-07  1.80000000e-01 
 1.90000000e-01  4.60760070e-01  3.41342638e-09  4.60760070e-01  4.60760070e-01  4.60760070e-01  4.60760070e-01  4.60760070e-01  1.62542582e-07  1.99728966e-07  1.90000000e-01 
 2.00000000e-01  4.60760059e-01  3.41342638e-09  4.60760059e-01  4.60760059e-01  4.60760059e-01  4.60760059e-01  4.60760059e-01  1.62542562e-07  1.99728481e-07  2.00000000e-01 
 2.10000000e-01  4.60760051e-01  3.41342638e-09  4.60760051e-01  4.60760051e-01  4.60760051e-01  4.60760051e-01  4.60760051e-01  1.62542561e-07  1.99728245e-07  2.10000000e-01 
 2.20000000e-01  4.60760052e-01  3.41342638e-09  4.60760052e-01  4.60760052e-01  4.60760052e-01  4.60760052e-01  4.60760052e-01  1.62542560e-07  1.99727946e-07  2.20000000e-01 
 2.30000000e-01  4.60760056e-01  3.41342638e-09  4.60760056e-01  4.60760056e-01  4.60760056e-01  4.60760056e-01  4.60760056e-01  1.62542563e-07  1.99727719e-07  2.30000000e-01 
 2.40000000e-01  4.60760059e-01  3.41342638e-09  4.60760059e-01  4.60760059e-01  4.60760059e-01  4.60760059e-01  4.60760059e-01  1.62542555e-07  1.99727568e-07  2.40000000e-01 
 2.50000000e-01  4.60760062e-01  3.41342638e-09  4.60760062e-01  4.60760062e-01  4.60760062e-01  4.60760062e-01  4.60760062e-01  1.62542572e-07  1.99727250e-07  2.50000000e-01 
 2.60000000e-01  4.60760046e-01  3.41342638e-09  4.60760046e-01  4.60760046e-01  4.60760046e-01  4.60760046e-01  4.60760046e-01  1.62542540e-07  1.99726985e-07  2.60000000e-01 
 2.70000000e-01  4.60760062e-01  3.41342638e-09  4.60760062e-01  4.60760062e-01  4.60760062e-01  4.60760062e-01  4.60760062e-01  1.62542567e-07  1.99726831e-07  2.70000000e-01 
 2.80000000e-01  4.60760056e-01  3.41342638e-09  4.60760056e-01  4.60760056e-01  4.60760056e-01  4.60760056e-01  4.60760056e-01  1.62542555e-07  1.99726641e-07  2.80000000e-01 
 2.90000000e-01  4.60760067e-01  3.41342638e-09  4.60760067e-01  4.60760067e-01  4.60760067e-01  4.60760067e-01  4.60760067e-01  1.62542577e-07  1.99726344e-07  2.90000000e-01 
 3.00000000e-01  4.60760041e-01  3.41342638e-09  4.60760041e-01  4.60760041e-01  4.60760041e-01  4.60760041e-01  4.60760041e-01  1.62542532e-07  1.99726003e-07  3.00000000e-01 
 3.10000000e-01  4.60760055e-01  3.41342638e-09  4.60760055e-01  4.60760055e-01  4.60760055e-01  4.60760055e-01  4.60760055e-01  1.62542559e-07  1.99726038e-07  3.10000000e-01 
 3.20000000e-01  4.60760061e-01  3.41342638e-09  4.60760061e-01  4.60760061e-01  4.60760061e-01  4.60760061e-01  4.60760061e-01  1.62542566e-07  1.99725736e-07  3.20000000e-01 
 3.30000000e-01  4.60760083e-01  3.41342638e-09  4.60760083e-01  4.60760083e-01  4.60760083e-01  4.60760083e-01  4.60760083e-01  1.62542592e-07  1.99725694e-07  3.30000000e-01 
 3.40000000e-01  4.60760067e-01  3.41342638e-09  4.60760067e-01  4.60760067e-01  4.60760067e-01  4.60760067e-01  4.60760067e-01  1.62542583e-07  1.99725424e-07  3.40000000e-01 
 3.50000000e-01  4.60760053e-01  3.41342638e-09  4.60760053e-01  4.60760053e-01  4.60760053e-01  4.60760053e-01  4.60760053e-01  1.62542564e-07  1.99725154e-07  3.50000000e-01 
 3.60000000e-01  4.60760071e-01  3.41342638e-09  4.60760071e-01  4.60760071e-01  4.60760071e-01  4.60760071e-01  4.60760071e-01  1.62542586e-07  1.99724983e-07  3.60000000e-01 
 3.70000000e-01  4.60760051e-01  3.41342638e-09  4.60760051e-01  4.60760051e-01  4.60760051e-01  4.60760051e-01  4.60760051e-01  1.62542554e-07  1.99724784e-07  3.70000000e-01 
 3.80000000e-01  4.60760063e-01  3.41342638e-09  4.60760063e-01  4.60760063e-01  4.60760063e-01  4.60760063e-01  4.60760063e-01  1.62542573e-07  1.99724703e-07  3.80000000e-01 
 3.90000000e-01  4.60760045e-01  3.41342638e-09  4.60760045e-01  4.60760045e-01  4.60760045e-01  4.60760045e-01  4.60760045e-01  1.62542537e-07  1.99724376e-07  3.90000000e-01 
 4.00000000e-01  4.60760079e-01  3.41342632e-09  4.60760079e-01  4.60760079e-01  4.60760079e-01  4.60760079e-01  4.60760079e-01  1.62542589e-07  1.99724255e-07  4.00000000e-01 
 4.10000000e-01  4.60760065e-01  3.41342638e-09  4.60760065e-01  4.60760065e-01  4.60760065e-01  4.60760065e-01  4.60760065e-01  1.62542559e-07  1.99724095e-07  4.10000000e-01 
 4.20000000e-01  4.60760049e-01  3.41342638e-09  4.60760049e-01  4.60760049e-01  4.60760049e-01  4.60760049e-01  4.60760049e-01  1.62542557e-07  1.99723871e-07  4.20000000e-01 
 4.30000000e-01  4.60760055e-01  3.41342638e-09  4.60760055e-01  4.60760055e-01  4.60760055e-01  4.60760055e-01  4.60760055e-01  1.62542566e-07  1.99723658e-07  4.30000000e-01 
 4.40000000e-01  4.60760047e-01  3.41342638e-09  4.60760047e-01  4.60760047e-01  4.60760047e-01  4.60760047e-01  4.60760047e-01  1.62542545e-07  1.99723498e-07  4.40000000e-01 
 4.50000000e-01  4.60760051e-01  3.41342638e-09  4.60760051e-01  4.60760051e-01  4.60760051e-01  4.60760051e-01  4.60760051e-01  1.62542563e-07  1.99723271e-07  4.50000000e-01 
 4.60000000e-01  4.60760067e-01  3.41342638e-09  4.60760067e-01  4.60760067e-01  4.60760067e-01  4.60760067e-01  4.60760067e-01  1.62542569e-07  1.99723146e-07  4.60000000e-01 
 4.70000000e-01  4.60760084e-01  3.41342638e-09  4.60760084e-01  4.60760084e-01  4.60760084e-01  4.60760084e-01  4.60760084e-01  1.62542596e-07  1.99723090e-07  4.70000000e-01 
 4.80000000e-01  4.60760089e-01  3.41342638e-09  4.60760089e-01  4.60760089e-01  4.60760089e-01  4.60760089e-01  4.60760089e-01  1.62542601e-07  1.99722990e-07  4.80000000e-01 
 4.90000000e-01  4.60760068e-01  3.41342638e-09  4.60760068e-01  4.60760068e-01  4.60760068e-01  4.60760068e-01  4.60760068e-01  1.62542583e-07  1.99722699e-07  4.90000000e-01 
 5.00000000e-01  4.60760060e-01  3.41342638e-09  4.60760060e-01  4.60760060e-01  4.60760060e-01  4.60760060e-01  4.60760060e-01  1.62542565e-07  1.99722457e-07  5.00000000e-01 
 5.10000000e-01  4.60760058e-01  3.41342638e-09  4.60760058e-01  4.60760058e-01  4.60760058e-01  4.60760058e-01  4.60760058e-01  1.62542560e-07  1.99722269e-07  5.10000000e-01 
 5.20000000e-01  4.60760025e-01  3.41342637e-09  4.60760025e-01  4.60760025e-01  4.60760025e-01  4.60760025e-01  4.60760025e-01  1.62542513e-07  1.99721931e-07  5.20000000e-01 
 5.30000000e-01  4.60760055e-01  3.41342638e-09  4.60760055e-01  4.60760055e-01  4.60760055e-01  4.60760055e-01  4.60760055e-01  1.62542559e-07  1.99721807e-07  5.30000000e-01 
 5.40000000e-01  4.60760046e-01  3.41342638e-09  4.60760046e-01  4.60760046e-01  4.60760046e-01  4.60760046e-01  4.60760046e-01  1.62542535e-07  1.99721676e-07  5.40000000e-01 
 5.50000000e-01  4.60760058e-01  3.41342638e-09  4.60760058e-01  4.60760058e-01  4.60760058e-01  4.60760058e-01  4.60760058e-01  1.62542568e-07  1.99721576e-07  5.50000000e-01 
 5.60000000e-01  4.60760058e-01  3.41342638e-09  4.60760058e-01  4.60760058e-01  4.60760058e-01  4.60760058e-01  4.60760058e-01  1.62542553e-07  1.99721317e-07  5.60000000e-01 
 5.70000000e-01  4.60760044e-01  3.41342638e-09  4.60760044e-01  4.60760044e-01  4.60760044e-01  4.60760044e-01  4.60760044e-01  1.62542548e-07  1.99721118e-07  5.70000000e-01 
 5.80000000e-01  4.60760064e-01  3.41342638e-09  4.60760064e-01  4.60760063e-01  4.60760063e-01  4.60760064e-01  4.60760063e-01  1.62542575e-07  1.99721065e-07  5.80000000e-01 
 5.90000000e-01  4.60760060e-01  3.41342638e-09  4.60760060e-01  4.60760060e-01  4.60760060e-01  4.60760060e-01  4.60760060e-01  1.62542572e-07  1.99720809e-07  5.90000000e-01 
 6.00000000e-01  4.60760047e-01  3.41342638e-09  4.60760047e-01  4.60760047e-01  4.60760047e-01  4.60760047e-01  4.60760047e-01  1.62542536e-07  1.99720617e-07  6.00000000e-01 
 6.10000000e-01  4.60760066e-01  3.41342638e-09  4.60760066e-01  4.60760066e-01  4.60760066e-01  4.60760066e-01  4.60760066e-01  1.62542582e-07  1.99720560e-07  6.10000000e-01 
 6.20000000e-01  4.60760083e-01  3.41342638e-09  4.60760083e-01  4.60760083e-01  4.60760083e-01  4.60760083e-01  4.60760083e-01  1.62542594e-07  1.99720503e-07  6.20000000e-01 
 6.30000000e-01  4.60760065e-01  3.41342638e-09  4.60760065e-01  4.60760065e-01  4.60760065e-01  4.60760065e-01  4.60760065e-01  1.62542570e-07  1.99720120e-07  6.30000000e-01 
 6.40000000e-01  4.60760032e-01  3.41342637e-09  4.60760032e-01  4.60760032e-01  4.60760032e-01  4.60760032e-01  4.60760032e-01  1.62542536e-07  1.99719885e-07  6.40000000e-01 
 6.50000000e-01  4.60760054e-01  3.41342638e-09  4.60760054e-01  4.60760054e-01  4.60760054e-01  4.60760054e-01  4.60760054e-01  1.62542554e-07  1.99719793e-07  6.50000000e-01 
 6.60000000e-01  4.60760032e-01  3.41342637e-09  4.60760032e-01  4.60760032e-01  4.60760032e-01  4.60760032e-01  4.60760032e-01  1.62542528e-07  1.99719501e-07  6.60000000e-01 
 6.70000000e-01  4.60760050e-01  3.41342638e-09  4.60760050e-01  4.60760050e-01  4.60760050e-01  4.60760050e-01  4.60760050e-01  1.62542543e-07  1.99719409e-07  6.70000000e-01 
 6.80000000e-01  4.60760045e-01  3.41342638e-09  4.60760045e-01  4.60760045e-01  4.60760045e-01  4.60760045e-01  4.60760045e-01  1.62542542e-07  1.99719210e-07  6.80000000e-01 
 6.90000000e-01  4.60760038e-01  3.41342638e-09  4.60760038e-01  4.60760038e-01  4.60760038e-01  4.60760038e-01  4.60760038e-01  1.62542527e-07  1.99718833e-07  6.90000000e-01 
 7.00000000e-01  4.60760055e-01  3.41342638e-09  4.60760055e-01  4.60760055e-01  4.60760055e-01  4.60760055e-01  4.60760055e-01  1.62542557e-07  1.99718841e-07  7.00000000e-01 
 7.10000000e-01  4.60760030e-01  3.41342637e-09  4.60760030e-01  4.60760030e-01  4.60760030e-01  4.60760030e-01  4.60760030e-01  1.62542528e-07  1.99718507e-07  7.10000000e-01 
 7.20000000e-01  4.60760073e-01  3.41342638e-09  4.60760073e-01  4.60760073e-01  4.60760073e-01  4.60760073e-01  4.60760073e-01  1.62542581e-07  1.99718663e-07  7.20000000e-01 
 7.30000000e-01  4.60760062e-01  3.41342638e-09  4.60760062e-01  4.60760062e-01  4.60760062e-01  4.60760062e-01  4.60760062e-01  1.62542572e-07  1.99718343e-07  7.30000000e-01 
 7.40000000e-01  4.60760052e-01  3.41342638e-09  4.60760052e-01  4.60760052e-01  4.60760052e-01  4.60760052e-01  4.60760052e-01  1.62542552e-07  1.99718194e-07  7.40000000e-01 
 7.50000000e-01  4.60760049e-01  3.41342638e-09  4.60760049e-01  4.60760049e-01  4.60760049e-01  4.60760049e-01  4.60760049e-01  1.62542559e-07  1.99717960e-07  7.50000000e-01 
 7.60000000e-01  4.60760042e-01  3.41342638e-09  4.60760042e-01  4.60760042e-01  4.60760042e-01  4.60760042e-01  4.60760042e-01  1.62542536e-07  1.99717668e-07  7.60000000e-01 
 7.70000000e-01  4.60760066e-01  3.41342638e-09  4.60760066e-01  4.60760065e-01  4.60760065e-01  4.60760066e-01  4.60760065e-01  1.62542582e-07  1.99717576e-07  7.70000000e-01 
 7.80000000e-01  4.60760027e-01  3.41342637e-09  4.60760027e-01  4.60760027e-01  4.60760027e-01  4.60760027e-01  4.60760027e-01  1.62542519e-07  1.99717178e-07  7.80000000e-01 
 7.90000000e-01  4.60760039e-01  3.41342638e-09  4.60760039e-01  4.60760039e-01  4.60760039e-01  4.60760039e-01  4.60760039e-01  1.62542536e-07  1.99717071e-07  7.90000000e-01 
 8.00000000e-01  4.60760048e-01  3.41342638e-09  4.60760048e-01  4.60760048e-01  4.60760048e-01  4.60760048e-01  4.60760048e-01  1.62542549e-07  1.99716979e-07  8.00000000e-01 
 8.10000000e-01  4.60760046e-01  3.41342638e-09  4.60760046e-01  4.60760046e-01  4.60760045e-01  4.60760046e-01  4.60760045e-01  1.62542543e-07  1.99716737e-07  8.10000000e-01 
 8.20000000e-01  4.60760060e-01  3.41342638e-09  4.60760060e-01  4.60760060e-01  4.60760060e-01  4.60760060e-01  4.60760060e-01  1.62542580e-07  1.99716567e-07  8.20000000e-01 
 8.30000000e-01  4.60760025e-01  3.41342637e-09  4.60760025e-01  4.60760025e-01  4.60760025e-01  4.60760025e-01  4.60760025e-01  1.62542519e-07  1.99716240e-07  8.30000000e-01 
 8.40000000e-01  4.60760064e-01  3.41342638e-09  4.60760064e-01  4.60760063e-01  4.60760063e-01  4.60760064e-01  4.60760063e-01  1.62542579e-07  1.99716268e-07  8.40000000e-01 
 8.50000000e-01  4.60760094e-01  3.41342638e-09  4.60760094e-01  4.60760094e-01  4.60760094e-01  4.60760094e-01  4.60760094e-01  1.62542610e-07  1.99716254e-07  8.50000000e-01 
 8.60000000e-01  4.60760062e-01  3.41342638e-09  4.60760062e-01  4.60760062e-01  4.60760062e-01  4.60760062e-01  4.60760062e-01  1.62542574e-07  1.99715842e-07  8.60000000e-01 
 8.70000000e-01  4.60760074e-01  3.41342638e-09  4.60760074e-01  4.60760074e-01  4.60760074e-01  4.60760074e-01  4.60760074e-01  1.62542595e-07  1.99715622e-07  8.70000000e-01 
 8.80000000e-01  4.60760053e-01  3.41342638e-09  4.60760053e-01  4.60760053e-01  4.60760053e-01  4.60760053e-01  4.60760053e-01  1.62542554e-07  1.99715416e-07  8.80000000e-01 
 8.90000000e-01  4.60760065e-01  3.41342638e-09  4.60760065e-01  4.60760065e-01  4.60760065e-01  4.60760065e-01  4.60760065e-01  1.62542572e-07  1.99715238e-07  8.90000000e-01 
 9.00000000e-01  4.60760037e-01  3.41342638e-09  4.60760037e-01  4.60760037e-01  4.60760037e-01  4.60760037e-01  4.60760037e-01  1.62542525e-07  1.99714847e-07  9.00000000e-01 
 9.10000000e-01  4.60760067e-01  3.41342632e-09  4.60760067e-01  4.60760067e-01  4.60760067e-01  4.60760067e-01  4.60760067e-01  1.62542580e-07  1.99714812e-07  9.10000000e-01 
 9.20000000e-01  4.60760073e-01  3.41342638e-09  4.60760073e-01  4.60760073e-01  4.60760073e-01  4.60760073e-01  4.60760073e-01  1.62542570e-07  1.99714727e-07  9.20000000e-01 
 9.30000000e-01  4.60760061e-01  3.41342638e-09  4.60760061e-01  4.60760061e-01  4.60760061e-01  4.60760061e-01  4.60760061e-01  1.62542560e-07  1.99714549e-07  9.30000000e-01 
 9.40000000e-01  4.60760030e-01  3.41342637e-09  4.60760030e-01  4.60760030e-01  4.60760029e-01  4.60760030e-01  4.60760030e-01  1.62542515e-07  1.99714052e-07  9.40000000e-01 
 9.50000000e-01  4.60760045e-01  3.41342638e-09  4.60760045e-01  4.60760045e-01  4.60760045e-01  4.60760045e-01  4.60760045e-01  1.62542549e-07  1.99713803e-07  9.50000000e-01 
 9.60000000e-01  4.60760053e-01  3.41342638e-09  4.60760053e-01  4.60760053e-01  4.60760053e-01  4.60760053e-01  4.60760053e-01  1.62542562e-07  1.99713618e-07  9.60000000e-01 
 9.70000000e-01  4.60760051e-01  3.41342638e-09  4.60760051e-01  4.60760051e-01  4.60760051e-01  4.60760051e-01  4.60760051e-01  1.62542556e-07  1.99713540e-07  9.70000000e-01 
 9.80000000e-01  4.60760053e-01  3.41342638e-09  4.60760053e-01  4.60760053e-01  4.60760053e-01  4.60760053e-01  4.60760053e-01  1.62542551e-07  1.99713234e-07  9.80000000e-01 
 9.90000000e-01  4.60760035e-01  3.41342638e-09  4.60760035e-01  4.60760035e-01  4.60760035e-01  4.60760035e-01  4.60760035e-01  1.62542519e-07  1.99712922e-07  9.90000000e-01 
 1.00000000e+00  4.60760048e-01  3.41342638e-09  4.60760048e-01  4.60760048e-01  4.60760048e-01  4.60760048e-01  4.60760048e-01  1.62542545e-07  1.99712858e-07  1.00000000e+00 
 1.01000000e+00  4.60760050e-01  3.41342638e-09  4.60760051e-01  4.60760050e-01  4.60760050e-01  4.60760051e-01  4.60760050e-01  1.62542551e-07  1.99712623e-07  1.01000000e+00 
 1.02000000e+00  4.60760058e-01  3.41342638e-09  4.60760058e-01  4.60760058e-01  4.60760058e-01  4.60760058e-01  4.60760058e-01  1.62542557e-07  1.99712382e-07  1.02000000e+00 
 1.03000000e+00  4.60760058e-01  3.41342638e-09  4.60760058e-01  4.60760058e-01  4.60760058e-01  4.60760058e-01  4.60760058e-01  1.62542549e-07  1.99712169e-07  1.03000000e+00 
 1.04000000e+00  4.60760042e-01  3.41342638e-09  4.60760042e-01  4.60760042e-01  4.60760042e-01  4.60760042e-01  4.60760042e-01  1.62542541e-07  1.99711877e-07  1.04000000e+00 
 1.05000000e+00  4.60760071e-01  3.41342638e-09  4.60760071e-01  4.60760071e-01  4.60760071e-01  4.60760071e-01  4.60760071e-01  1.62542590e-07  1.99711700e-07  1.05000000e+00 
 1.06000000e+00  4.60760074e-01  3.41342638e-09  4.60760074e-01  4.60760074e-01  4.60760074e-01  4.60760074e-01  4.60760074e-01  1.62542588e-07  1.99711579e-07  1.06000000e+00 
 1.07000000e+00  4.60760069e-01  3.41342638e-09  4.60760069e-01  4.60760069e-01  4.60760069e-01  4.60760069e-01  4.60760069e-01  1.62542575e-07  1.99711337e-07  1.07000000e+00 
 1.08000000e+00  4.60760046e-01  3.41342638e-09  4.60760046e-01  4.60760046e-01  4.60760046e-01  4.60760046e-01  4.60760046e-01  1.62542530e-07  1.99710819e-07  1.08000000e+00 
 1.09000000e+00  4.60760068e-01  3.41342638e-09  4.60760068e-01  4.60760068e-01  4.60760068e-01  4.60760068e-01  4.60760068e-01  1.62542573e-07  1.99710712e-07  1.09000000e+00 
 1.10000000e+00  4.60760021e-01  3.41342637e-09  4.60760021e-01  4.60760021e-01  4.60760021e-01  4.60760021e-01  4.60760021e-01  1.62542515e-07  1.99710435e-07  1.10000000e+00 
