 v-sweep         v(b0)           v(b1)           v(b2)           v(b3)           v(b4)           v(b5)           v(b6)           i(vbias)        i(viout)        v(vout)        
 0.00000000e+00  3.27169980e-09  4.59471723e-01  3.25583226e-09  3.28727424e-09  3.75168622e-09  3.37252025e-09  4.59471723e-01  1.62227135e-07  1.02332034e-07  0.00000000e+00 
 1.00000000e-02  3.27169984e-09  4.59471721e-01  3.25583230e-09  3.28727416e-09  3.75168620e-09  3.37252029e-09  4.59471721e-01  1.62227135e-07  1.02331518e-07  1.00000000e-02 
 2.00000000e-02  3.27169983e-09  4.59471730e-01  3.25583224e-09  3.28727418e-09  3.75168620e-09  3.37252023e-09  4.59471730e-01  1.62227149e-07  1.02331189e-07  2.00000000e-02 
 3.00000000e-02  3.27169979e-09  4.59471719e-01  3.25583224e-09  3.28727423e-09  3.75168620e-09  3.37252023e-09  4.59471719e-01  1.62227131e-07  1.02330658e-07  3.00000000e-02 
 4.00000000e-02  3.27169979e-09  4.59471743e-01  3.25583225e-09  3.28727422e-09  3.75168620e-09  3.37252029e-09  4.59471743e-01  1.62227177e-07  1.02330513e-07  4.00000000e-02 
 5.00000000e-02  3.27169984e-09  4.59471743e-01  3.25583230e-09  3.28727422e-09  3.75168620e-09  3.37252023e-09  4.59471743e-01  1.62227164e-07  1.02330039e-07  5.00000000e-02 
 6.00000000e-02  3.27169983e-09  4.59471725e-01  3.25583224e-09  3.28727422e-09  3.75168620e-09  3.37252029e-09  4.59471725e-01  1.62227137e-07  1.02329735e-07  6.00000000e-02 
 7.00000000e-02  3.27169979e-09  4.59471733e-01  3.25583224e-09  3.28727422e-09  3.75168620e-09  3.37252023e-09  4.59471733e-01  1.62227156e-07  1.02329414e-07  7.00000000e-02 
 8.00000000e-02  3.27169979e-09  4.59471731e-01  3.25583224e-09  3.28727417e-09  3.75168620e-09  3.37252023e-09  4.59471731e-01  1.62227147e-07  1.02329069e-07  8.00000000e-02 
 9.00000000e-02  3.27169984e-09  4.59471740e-01  3.25583224e-09  3.28727423e-09  3.75168620e-09  3.37252023e-09  4.59471740e-01  1.62227164e-07  1.02328828e-07  9.00000000e-02 
 1.00000000e-01  3.27169983e-09  4.59471727e-01  3.25583230e-09  3.28727422e-09  3.75168620e-09  3.37252023e-09  4.59471727e-01  1.62227154e-07  1.02328507e-07  1.00000000e-01 
 1.10000000e-01  3.27169985e-09  4.59471739e-01  3.25583224e-09  3.28727422e-09  3.75168620e-09  3.37252023e-09  4.59471739e-01  1.62227172e-07  1.02328308e-07  1.10000000e-01 
 1.20000000e-01  3.27169983e-09  4.59471729e-01  3.25583224e-09  3.28727416e-09  3.75168620e-09  3.37252023e-09  4.59471729e-01  1.62227147e-07  1.02328038e-07  1.20000000e-01 
 1.30000000e-01  3.27169985e-09  4.59471744e-01  3.25583225e-09  3.28727418e-09  3.75168620e-09  3.37252023e-09  4.59471744e-01  1.62227177e-07  1.02327754e-07  1.30000000e-01 
 1.40000000e-01  3.27169977e-09  4.59471727e-01  3.25583224e-09  3.28727423e-09  3.75168620e-09  3.37252023e-09  4.59471727e-01  1.62227149e-07  1.02327646e-07  1.40000000e-01 
 1.50000000e-01  3.27169985e-09  4.59471725e-01  3.25583224e-09  3.28727416e-09  3.75168620e-09  3.37252029e-09  4.59471725e-01  1.62227142e-07  1.02327411e-07  1.50000000e-01 
 1.60000000e-01  3.27169983e-09  4.59471722e-01  3.25583224e-09  3.28727418e-09  3.75168620e-09  3.37252023e-09  4.59471722e-01  1.62227139e-07  1.02327149e-07  1.60000000e-01 
 1.70000000e-01  3.27169985e-09  4.59471738e-01  3.25583230e-09  3.28727423e-09  3.75168620e-09  3.37252023e-09  4.59471738e-01  1.62227174e-07  1.02326915e-07  1.70000000e-01 
 1.80000000e-01  3.27169983e-09  4.59471753e-01  3.25583225e-09  3.28727422e-09  3.75168620e-09  3.37252029e-09  4.59471753e-01  1.62227196e-07  1.02326846e-07  1.80000000e-01 
 1.90000000e-01  3.27169979e-09  4.59471723e-01  3.25583224e-09  3.28727422e-09  3.75168620e-09  3.37252029e-09  4.59471723e-01  1.62227142e-07  1.02326581e-07  1.90000000e-01 
 2.00000000e-01  3.27169979e-09  4.59471727e-01  3.25583224e-09  3.28727416e-09  3.75168620e-09  3.37252029e-09  4.59471727e-01  1.62227148e-07  1.02326419e-07  2.00000000e-01 
 2.10000000e-01  3.27169979e-09  4.59471721e-01  3.25583224e-09  3.28727423e-09  3.75168620e-09  3.37252029e-09  4.59471721e-01  1.62227138e-07  1.02326203e-07  2.10000000e-01 
 2.20000000e-01  3.27169979e-09  4.59471733e-01  3.25583224e-09  3.28727422e-09  3.75168620e-09  3.37252023e-09  4.59471733e-01  1.62227151e-07  1.02326050e-07  2.20000000e-01 
 2.30000000e-01  3.27169984e-09  4.59471724e-01  3.25583224e-09  3.28727422e-09  3.75168620e-09  3.37252029e-09  4.59471724e-01  1.62227147e-07  1.02325952e-07  2.30000000e-01 
 2.40000000e-01  3.27169983e-09  4.59471727e-01  3.25583224e-09  3.28727422e-09  3.75168620e-09  3.37252029e-09  4.59471727e-01  1.62227145e-07  1.02325723e-07  2.40000000e-01 
 2.50000000e-01  3.27169979e-09  4.59471724e-01  3.25583224e-09  3.28727422e-09  3.75168620e-09  3.37252029e-09  4.59471724e-01  1.62227146e-07  1.02325654e-07  2.50000000e-01 
 2.60000000e-01  3.27169979e-09  4.59471747e-01  3.25583230e-09  3.28727417e-09  3.75168620e-09  3.37252029e-09  4.59471747e-01  1.62227187e-07  1.02325597e-07  2.60000000e-01 
 2.70000000e-01  3.27169979e-09  4.59471744e-01  3.25583225e-09  3.28727418e-09  3.75168620e-09  3.37252023e-09  4.59471744e-01  1.62227189e-07  1.02325290e-07  2.70000000e-01 
 2.80000000e-01  3.27169984e-09  4.59471720e-01  3.25583224e-09  3.28727417e-09  3.75168620e-09  3.37252023e-09  4.59471720e-01  1.62227138e-07  1.02325137e-07  2.80000000e-01 
 2.90000000e-01  3.27169983e-09  4.59471739e-01  3.25583224e-09  3.28727417e-09  3.75168620e-09  3.37252023e-09  4.59471739e-01  1.62227173e-07  1.02325107e-07  2.90000000e-01 
 3.00000000e-01  3.27169985e-09  4.59471719e-01  3.25583224e-09  3.28727417e-09  3.75168620e-09  3.37252029e-09  4.59471719e-01  1.62227141e-07  1.02324883e-07  3.00000000e-01 
 3.10000000e-01  3.27169977e-09  4.59471725e-01  3.25583224e-09  3.28727417e-09  3.75168620e-09  3.37252029e-09  4.59471725e-01  1.62227148e-07  1.02324844e-07  3.10000000e-01 
 3.20000000e-01  3.27169985e-09  4.59471705e-01  3.25583224e-09  3.28727417e-09  3.75168620e-09  3.37252023e-09  4.59471705e-01  1.62227117e-07  1.02324677e-07  3.20000000e-01 
 3.30000000e-01  3.27169977e-09  4.59471734e-01  3.25583224e-09  3.28727423e-09  3.75168620e-09  3.37252029e-09  4.59471734e-01  1.62227167e-07  1.02324620e-07  3.30000000e-01 
 3.40000000e-01  3.27169979e-09  4.59471735e-01  3.25583224e-09  3.28727416e-09  3.75168620e-09  3.37252023e-09  4.59471735e-01  1.62227157e-07  1.02324485e-07  3.40000000e-01 
 3.50000000e-01  3.27169984e-09  4.59471722e-01  3.25583230e-09  3.28727423e-09  3.75168620e-09  3.37252023e-09  4.59471722e-01  1.62227136e-07  1.02324311e-07  3.50000000e-01 
 3.60000000e-01  3.27169983e-09  4.59471749e-01  3.25583225e-09  3.28727416e-09  3.75168620e-09  3.37252023e-09  4.59471749e-01  1.62227181e-07  1.02324378e-07  3.60000000e-01 
 3.70000000e-01  3.27169985e-09  4.59471714e-01  3.25583224e-09  3.28727423e-09  3.75168620e-09  3.37252023e-09  4.59471714e-01  1.62227123e-07  1.02324165e-07  3.70000000e-01 
 3.80000000e-01  3.27169983e-09  4.59471728e-01  3.25583224e-09  3.28727416e-09  3.75168620e-09  3.37252023e-09  4.59471728e-01  1.62227152e-07  1.02324144e-07  3.80000000e-01 
 3.90000000e-01  3.27169985e-09  4.59471700e-01  3.25583224e-09  3.28727423e-09  3.75168620e-09  3.37252028e-09  4.59471700e-01  1.62227095e-07  1.02323952e-07  3.90000000e-01 
 4.00000000e-01  3.27169983e-09  4.59471723e-01  3.25583230e-09  3.28727422e-09  3.75168620e-09  3.37252023e-09  4.59471723e-01  1.62227138e-07  1.02323902e-07  4.00000000e-01 
 4.10000000e-01  3.27169979e-09  4.59471718e-01  3.25583224e-09  3.28727422e-09  3.75168620e-09  3.37252023e-09  4.59471718e-01  1.62227138e-07  1.02323789e-07  4.10000000e-01 
 4.20000000e-01  3.27169979e-09  4.59471749e-01  3.25583225e-09  3.28727422e-09  3.75168620e-09  3.37252029e-09  4.59471749e-01  1.62227175e-07  1.02323767e-07  4.20000000e-01 
 4.30000000e-01  3.27169979e-09  4.59471731e-01  3.25583224e-09  3.28727422e-09  3.75168620e-09  3.37252023e-09  4.59471731e-01  1.62227145e-07  1.02323629e-07  4.30000000e-01 
 4.40000000e-01  3.27169979e-09  4.59471735e-01  3.25583224e-09  3.28727422e-09  3.75168620e-09  3.37252023e-09  4.59471735e-01  1.62227149e-07  1.02323526e-07  4.40000000e-01 
 4.50000000e-01  3.27169979e-09  4.59471736e-01  3.25583224e-09  3.28727417e-09  3.75168620e-09  3.37252029e-09  4.59471736e-01  1.62227159e-07  1.02323451e-07  4.50000000e-01 
 4.60000000e-01  3.27169979e-09  4.59471730e-01  3.25583224e-09  3.28727418e-09  3.75168620e-09  3.37252023e-09  4.59471730e-01  1.62227148e-07  1.02323337e-07  4.60000000e-01 
 4.70000000e-01  3.27169979e-09  4.59471720e-01  3.25583224e-09  3.28727417e-09  3.75168620e-09  3.37252029e-09  4.59471720e-01  1.62227134e-07  1.02323234e-07  4.70000000e-01 
 4.80000000e-01  3.27169984e-09  4.59471741e-01  3.25583225e-09  3.28727423e-09  3.75168620e-09  3.37252029e-09  4.59471741e-01  1.62227169e-07  1.02323245e-07  4.80000000e-01 
 4.90000000e-01  3.27169983e-09  4.59471727e-01  3.25583224e-09  3.28727422e-09  3.75168620e-09  3.37252023e-09  4.59471727e-01  1.62227147e-07  1.02323213e-07  4.90000000e-01 
 5.00000000e-01  3.27169985e-09  4.59471738e-01  3.25583224e-09  3.28727422e-09  3.75168620e-09  3.37252029e-09  4.59471738e-01  1.62227152e-07  1.02323156e-07  5.00000000e-01 
 5.10000000e-01  3.27169983e-09  4.59471724e-01  3.25583224e-09  3.28727422e-09  3.75168620e-09  3.37252029e-09  4.59471724e-01  1.62227141e-07  1.02323042e-07  5.10000000e-01 
 5.20000000e-01  3.27169979e-09  4.59471714e-01  3.25583224e-09  3.28727422e-09  3.75168620e-09  3.37252029e-09  4.59471714e-01  1.62227129e-07  1.02322858e-07  5.20000000e-01 
 5.30000000e-01  3.27169984e-09  4.59471743e-01  3.25583225e-09  3.28727422e-09  3.75168620e-09  3.37252029e-09  4.59471743e-01  1.62227161e-07  1.02322836e-07  5.30000000e-01 
 5.40000000e-01  3.27169983e-09  4.59471725e-01  3.25583224e-09  3.28727422e-09  3.75168620e-09  3.37252029e-09  4.59471725e-01  1.62227143e-07  1.02322765e-07  5.40000000e-01 
 5.50000000e-01  3.27169979e-09  4.59471742e-01  3.25583225e-09  3.28727417e-09  3.75168620e-09  3.37252029e-09  4.59471743e-01  1.62227171e-07  1.02322822e-07  5.50000000e-01 
 5.60000000e-01  3.27169984e-09  4.59471736e-01  3.25583224e-09  3.28727418e-09  3.75168620e-09  3.37252029e-09  4.59471736e-01  1.62227164e-07  1.02322673e-07  5.60000000e-01 
 5.70000000e-01  3.27169983e-09  4.59471726e-01  3.25583230e-09  3.28727423e-09  3.75168620e-09  3.37252029e-09  4.59471726e-01  1.62227141e-07  1.02322605e-07  5.70000000e-01 
 5.80000000e-01  3.27169985e-09  4.59471756e-01  3.25583225e-09  3.28727422e-09  3.75168620e-09  3.37252023e-09  4.59471756e-01  1.62227197e-07  1.02322510e-07  5.80000000e-01 
 5.90000000e-01  3.27169977e-09  4.59471727e-01  3.25583224e-09  3.28727416e-09  3.75168620e-09  3.37252029e-09  4.59471728e-01  1.62227144e-07  1.02322424e-07  5.90000000e-01 
 6.00000000e-01  3.27169985e-09  4.59471737e-01  3.25583224e-09  3.28727418e-09  3.75168620e-09  3.37252029e-09  4.59471737e-01  1.62227154e-07  1.02322318e-07  6.00000000e-01 
 6.10000000e-01  3.27169983e-09  4.59471723e-01  3.25583224e-09  3.28727423e-09  3.75168620e-09  3.37252023e-09  4.59471723e-01  1.62227136e-07  1.02322225e-07  6.10000000e-01 
 6.20000000e-01  3.27169985e-09  4.59471725e-01  3.25583224e-09  3.28727416e-09  3.75168620e-09  3.37252023e-09  4.59471725e-01  1.62227156e-07  1.02322126e-07  6.20000000e-01 
 6.30000000e-01  3.27169983e-09  4.59471717e-01  3.25583224e-09  3.28727423e-09  3.75168620e-09  3.37252023e-09  4.59471717e-01  1.62227129e-07  1.02322034e-07  6.30000000e-01 
 6.40000000e-01  3.27169985e-09  4.59471722e-01  3.25583224e-09  3.28727422e-09  3.75168620e-09  3.37252029e-09  4.59471722e-01  1.62227139e-07  1.02321934e-07  6.40000000e-01 
 6.50000000e-01  3.27169983e-09  4.59471722e-01  3.25583224e-09  3.28727416e-09  3.75168620e-09  3.37252029e-09  4.59471722e-01  1.62227132e-07  1.02321899e-07  6.50000000e-01 
 6.60000000e-01  3.27169985e-09  4.59471729e-01  3.25583224e-09  3.28727418e-09  3.75168620e-09  3.37252029e-09  4.59471729e-01  1.62227163e-07  1.02321849e-07  6.60000000e-01 
 6.70000000e-01  3.27169983e-09  4.59471723e-01  3.25583224e-09  3.28727423e-09  3.75168620e-09  3.37252029e-09  4.59471723e-01  1.62227142e-07  1.02321650e-07  6.70000000e-01 
 6.80000000e-01  3.27169979e-09  4.59471734e-01  3.25583224e-09  3.28727422e-09  3.75168620e-09  3.37252023e-09  4.59471734e-01  1.62227158e-07  1.02321749e-07  6.80000000e-01 
 6.90000000e-01  3.27169984e-09  4.59471706e-01  3.25583230e-09  3.28727422e-09  3.75168620e-09  3.37252023e-09  4.59471706e-01  1.62227113e-07  1.02321636e-07  6.90000000e-01 
 7.00000000e-01  3.27169977e-09  4.59471711e-01  3.25583224e-09  3.28727422e-09  3.75168620e-09  3.37252029e-09  4.59471711e-01  1.62227120e-07  1.02321422e-07  7.00000000e-01 
 7.10000000e-01  3.27169985e-09  4.59471709e-01  3.25583224e-09  3.28727416e-09  3.75168620e-09  3.37252023e-09  4.59471709e-01  1.62227115e-07  1.02321351e-07  7.10000000e-01 
 7.20000000e-01  3.27169983e-09  4.59471728e-01  3.25583224e-09  3.28727423e-09  3.75168620e-09  3.37252029e-09  4.59471728e-01  1.62227145e-07  1.02321444e-07  7.20000000e-01 
 7.30000000e-01  3.27169979e-09  4.59471716e-01  3.25583224e-09  3.28727422e-09  3.75168620e-09  3.37252023e-09  4.59471717e-01  1.62227112e-07  1.02321252e-07  7.30000000e-01 
 7.40000000e-01  3.27169984e-09  4.59471732e-01  3.25583224e-09  3.28727417e-09  3.75168620e-09  3.37252023e-09  4.59471732e-01  1.62227152e-07  1.02321238e-07  7.40000000e-01 
 7.50000000e-01  3.27169983e-09  4.59471721e-01  3.25583224e-09  3.28727418e-09  3.75168620e-09  3.37252023e-09  4.59471721e-01  1.62227139e-07  1.02321103e-07  7.50000000e-01 
 7.60000000e-01  3.27169985e-09  4.59471710e-01  3.25583224e-09  3.28727423e-09  3.75168620e-09  3.37252029e-09  4.59471710e-01  1.62227124e-07  1.02321025e-07  7.60000000e-01 
 7.70000000e-01  3.27169977e-09  4.59471719e-01  3.25583224e-09  3.28727422e-09  3.75168620e-09  3.37252023e-09  4.59471719e-01  1.62227130e-07  1.02321017e-07  7.70000000e-01 
 7.80000000e-01  3.27169985e-09  4.59471730e-01  3.25583230e-09  3.28727417e-09  3.75168620e-09  3.37252023e-09  4.59471730e-01  1.62227154e-07  1.02320868e-07  7.80000000e-01 
 7.90000000e-01  3.27169983e-09  4.59471738e-01  3.25583230e-09  3.28727418e-09  3.75168620e-09  3.37252029e-09  4.59471738e-01  1.62227161e-07  1.02320911e-07  7.90000000e-01 
 8.00000000e-01  3.27169985e-09  4.59471702e-01  3.25583224e-09  3.28727417e-09  3.75168620e-09  3.37252023e-09  4.59471702e-01  1.62227106e-07  1.02320705e-07  8.00000000e-01 
 8.10000000e-01  3.27169983e-09  4.59471728e-01  3.25583224e-09  3.28727423e-09  3.75168620e-09  3.37252029e-09  4.59471728e-01  1.62227141e-07  1.02320641e-07  8.10000000e-01 
 8.20000000e-01  3.27169979e-09  4.59471728e-01  3.25583224e-09  3.28727422e-09  3.75168620e-09  3.37252029e-09  4.59471728e-01  1.62227150e-07  1.02320648e-07  8.20000000e-01 
 8.30000000e-01  3.27169979e-09  4.59471712e-01  3.25583224e-09  3.28727422e-09  3.75168620e-09  3.37252023e-09  4.59471712e-01  1.62227127e-07  1.02320520e-07  8.30000000e-01 
 8.40000000e-01  3.27169979e-09  4.59471732e-01  3.25583224e-09  3.28727422e-09  3.75168620e-09  3.37252029e-09  4.59471732e-01  1.62227150e-07  1.02320520e-07  8.40000000e-01 
 8.50000000e-01  3.27169979e-09  4.59471718e-01  3.25583224e-09  3.28727422e-09  3.75168620e-09  3.37252023e-09  4.59471718e-01  1.62227123e-07  1.02320357e-07  8.50000000e-01 
 8.60000000e-01  3.27169984e-09  4.59471708e-01  3.25583224e-09  3.28727416e-09  3.75168620e-09  3.37252029e-09  4.59471708e-01  1.62227112e-07  1.02320172e-07  8.60000000e-01 
 8.70000000e-01  3.27169983e-09  4.59471745e-01  3.25583225e-09  3.28727418e-09  3.75168620e-09  3.37252029e-09  4.59471745e-01  1.62227172e-07  1.02320307e-07  8.70000000e-01 
 8.80000000e-01  3.27169985e-09  4.59471721e-01  3.25583224e-09  3.28727417e-09  3.75168620e-09  3.37252023e-09  4.59471721e-01  1.62227143e-07  1.02320165e-07  8.80000000e-01 
 8.90000000e-01  3.27169983e-09  4.59471722e-01  3.25583224e-09  3.28727423e-09  3.75168620e-09  3.37252023e-09  4.59471722e-01  1.62227137e-07  1.02320115e-07  8.90000000e-01 
 9.00000000e-01  3.27169985e-09  4.59471739e-01  3.25583224e-09  3.28727422e-09  3.75168620e-09  3.37252023e-09  4.59471739e-01  1.62227160e-07  1.02320129e-07  9.00000000e-01 
 9.10000000e-01  3.27169977e-09  4.59471739e-01  3.25583224e-09  3.28727422e-09  3.75168620e-09  3.37252023e-09  4.59471739e-01  1.62227172e-07  1.02319930e-07  9.10000000e-01 
 9.20000000e-01  3.27169979e-09  4.59471708e-01  3.25583224e-09  3.28727422e-09  3.75168620e-09  3.37252029e-09  4.59471708e-01  1.62227117e-07  1.02319817e-07  9.20000000e-01 
 9.30000000e-01  3.27169984e-09  4.59471729e-01  3.25583224e-09  3.28727422e-09  3.75168620e-09  3.37252023e-09  4.59471729e-01  1.62227141e-07  1.02319802e-07  9.30000000e-01 
 9.40000000e-01  3.27169983e-09  4.59471731e-01  3.25583224e-09  3.28727422e-09  3.75168620e-09  3.37252023e-09  4.59471731e-01  1.62227123e-07  1.02319675e-07  9.40000000e-01 
 9.50000000e-01  3.27169979e-09  4.59471735e-01  3.25583224e-09  3.28727422e-09  3.75168620e-09  3.37252029e-09  4.59471735e-01  1.62227160e-07  1.02319653e-07  9.50000000e-01 
 9.60000000e-01  3.27169984e-09  4.59471705e-01  3.25583224e-09  3.28727422e-09  3.75168620e-09  3.37252023e-09  4.59471705e-01  1.62227117e-07  1.02319412e-07  9.60000000e-01 
 9.70000000e-01  3.27169977e-09  4.59471724e-01  3.25583224e-09  3.28727422e-09  3.75168620e-09  3.37252023e-09  4.59471724e-01  1.62227144e-07  1.02319476e-07  9.70000000e-01 
 9.80000000e-01  3.27169979e-09  4.59471714e-01  3.25583224e-09  3.28727416e-09  3.75168620e-09  3.37252023e-09  4.59471714e-01  1.62227116e-07  1.02319326e-07  9.80000000e-01 
 9.90000000e-01  3.27169979e-09  4.59471728e-01  3.25583224e-09  3.28727418e-09  3.75168620e-09  3.37252029e-09  4.59471728e-01  1.62227145e-07  1.02319355e-07  9.90000000e-01 
 1.00000000e+00  3.27169984e-09  4.59471725e-01  3.25583224e-09  3.28727423e-09  3.75168620e-09  3.37252029e-09  4.59471725e-01  1.62227139e-07  1.02319234e-07  1.00000000e+00 
 1.01000000e+00  3.27169983e-09  4.59471741e-01  3.25583230e-09  3.28727422e-09  3.75168620e-09  3.37252029e-09  4.59471741e-01  1.62227175e-07  1.02319206e-07  1.01000000e+00 
 1.02000000e+00  3.27169979e-09  4.59471729e-01  3.25583230e-09  3.28727422e-09  3.75168620e-09  3.37252023e-09  4.59471729e-01  1.62227153e-07  1.02319042e-07  1.02000000e+00 
 1.03000000e+00  3.27169979e-09  4.59471751e-01  3.25583230e-09  3.28727417e-09  3.75168620e-09  3.37252029e-09  4.59471751e-01  1.62227182e-07  1.02318985e-07  1.03000000e+00 
 1.04000000e+00  3.27169984e-09  4.59471726e-01  3.25583224e-09  3.28727418e-09  3.75168620e-09  3.37252023e-09  4.59471726e-01  1.62227154e-07  1.02318879e-07  1.04000000e+00 
 1.05000000e+00  3.27169983e-09  4.59471730e-01  3.25583224e-09  3.28727417e-09  3.75168620e-09  3.37252023e-09  4.59471730e-01  1.62227152e-07  1.02318694e-07  1.05000000e+00 
 1.06000000e+00  3.27169979e-09  4.59471750e-01  3.25583225e-09  3.28727417e-09  3.75168620e-09  3.37252029e-09  4.59471750e-01  1.62227174e-07  1.02318808e-07  1.06000000e+00 
 1.07000000e+00  3.27169984e-09  4.59471722e-01  3.25583224e-09  3.28727423e-09  3.75168620e-09  3.37252023e-09  4.59471722e-01  1.62227148e-07  1.02318580e-07  1.07000000e+00 
 1.08000000e+00  3.27169983e-09  4.59471730e-01  3.25583224e-09  3.28727416e-09  3.75168620e-09  3.37252023e-09  4.59471730e-01  1.62227149e-07  1.02318417e-07  1.08000000e+00 
 1.09000000e+00  3.27169979e-09  4.59471747e-01  3.25583230e-09  3.28727423e-09  3.75168620e-09  3.37252029e-09  4.59471747e-01  1.62227178e-07  1.02318452e-07  1.09000000e+00 
 1.10000000e+00  3.27169984e-09  4.59471730e-01  3.25583224e-09  3.28727422e-09  3.75168620e-09  3.37252023e-09  4.59471730e-01  1.62227154e-07  1.02318317e-07  1.10000000e+00 
