 v-sweep         v(b0)           v(b1)           v(b2)           v(b3)           v(b4)           v(b5)           v(b6)           i(vbias)        i(viout)        v(vout)        
 0.00000000e+00  4.59538258e-01  4.59538258e-01  3.27720862e-09  3.37871882e-09  4.59538258e-01  4.59538257e-01  3.46464062e-09  1.61317918e-07  7.82066854e-08  0.00000000e+00 
 1.00000000e-02  4.59538268e-01  4.59538268e-01  3.27720856e-09  3.37871882e-09  4.59538268e-01  4.59538268e-01  3.46464068e-09  1.61317928e-07  7.82063465e-08  1.00000000e-02 
 2.00000000e-02  4.59538264e-01  4.59538264e-01  3.27720856e-09  3.37871882e-09  4.59538264e-01  4.59538264e-01  3.46464068e-09  1.61317932e-07  7.82059595e-08  2.00000000e-02 
 3.00000000e-02  4.59538256e-01  4.59538256e-01  3.27720862e-09  3.37871876e-09  4.59538256e-01  4.59538256e-01  3.46464067e-09  1.61317928e-07  7.82055130e-08  3.00000000e-02 
 4.00000000e-02  4.59538234e-01  4.59538234e-01  3.27720862e-09  3.37871882e-09  4.59538234e-01  4.59538234e-01  3.46464067e-09  1.61317885e-07  7.82051646e-08  4.00000000e-02 
 5.00000000e-02  4.59538246e-01  4.59538246e-01  3.27720856e-09  3.37871882e-09  4.59538246e-01  4.59538246e-01  3.46464067e-09  1.61317899e-07  7.82048546e-08  5.00000000e-02 
 6.00000000e-02  4.59538271e-01  4.59538271e-01  3.27720856e-09  3.37871876e-09  4.59538271e-01  4.59538271e-01  3.46464068e-09  1.61317927e-07  7.82044665e-08  6.00000000e-02 
 7.00000000e-02  4.59538261e-01  4.59538261e-01  3.27720856e-09  3.37871876e-09  4.59538261e-01  4.59538261e-01  3.46464067e-09  1.61317926e-07  7.82041303e-08  7.00000000e-02 
 8.00000000e-02  4.59538257e-01  4.59538257e-01  3.27720856e-09  3.37871882e-09  4.59538257e-01  4.59538257e-01  3.46464067e-09  1.61317919e-07  7.82039651e-08  8.00000000e-02 
 9.00000000e-02  4.59538254e-01  4.59538254e-01  3.27720862e-09  3.37871876e-09  4.59538254e-01  4.59538253e-01  3.46464067e-09  1.61317914e-07  7.82036755e-08  9.00000000e-02 
 1.00000000e-01  4.59538276e-01  4.59538276e-01  3.27720856e-09  3.37871882e-09  4.59538276e-01  4.59538276e-01  3.46464068e-09  1.61317936e-07  7.82034748e-08  1.00000000e-01 
 1.10000000e-01  4.59538247e-01  4.59538247e-01  3.27720862e-09  3.37871882e-09  4.59538247e-01  4.59538247e-01  3.46464067e-09  1.61317900e-07  7.82031755e-08  1.10000000e-01 
 1.20000000e-01  4.59538258e-01  4.59538258e-01  3.27720856e-09  3.37871882e-09  4.59538258e-01  4.59538258e-01  3.46464067e-09  1.61317906e-07  7.82029312e-08  1.20000000e-01 
 1.30000000e-01  4.59538298e-01  4.59538298e-01  3.27720862e-09  3.37871882e-09  4.59538298e-01  4.59538298e-01  3.46464068e-09  1.61317970e-07  7.82026826e-08  1.30000000e-01 
 1.40000000e-01  4.59538279e-01  4.59538279e-01  3.27720856e-09  3.37871875e-09  4.59538279e-01  4.59538279e-01  3.46464068e-09  1.61317946e-07  7.82023948e-08  1.40000000e-01 
 1.50000000e-01  4.59538266e-01  4.59538266e-01  3.27720862e-09  3.37871877e-09  4.59538266e-01  4.59538266e-01  3.46464068e-09  1.61317922e-07  7.82022429e-08  1.50000000e-01 
 1.60000000e-01  4.59538247e-01  4.59538247e-01  3.27720856e-09  3.37871882e-09  4.59538247e-01  4.59538247e-01  3.46464067e-09  1.61317900e-07  7.82020386e-08  1.60000000e-01 
 1.70000000e-01  4.59538271e-01  4.59538271e-01  3.27720862e-09  3.37871876e-09  4.59538271e-01  4.59538271e-01  3.46464068e-09  1.61317942e-07  7.82018077e-08  1.70000000e-01 
 1.80000000e-01  4.59538253e-01  4.59538253e-01  3.27720862e-09  3.37871882e-09  4.59538253e-01  4.59538253e-01  3.46464067e-09  1.61317909e-07  7.82015732e-08  1.80000000e-01 
 1.90000000e-01  4.59538248e-01  4.59538248e-01  3.27720856e-09  3.37871882e-09  4.59538248e-01  4.59538248e-01  3.46464067e-09  1.61317892e-07  7.82013654e-08  1.90000000e-01 
 2.00000000e-01  4.59538261e-01  4.59538261e-01  3.27720856e-09  3.37871882e-09  4.59538261e-01  4.59538260e-01  3.46464067e-09  1.61317910e-07  7.82012197e-08  2.00000000e-01 
 2.10000000e-01  4.59538268e-01  4.59538268e-01  3.27720862e-09  3.37871876e-09  4.59538268e-01  4.59538268e-01  3.46464068e-09  1.61317928e-07  7.82012659e-08  2.10000000e-01 
 2.20000000e-01  4.59538262e-01  4.59538262e-01  3.27720856e-09  3.37871876e-09  4.59538262e-01  4.59538262e-01  3.46464068e-09  1.61317920e-07  7.82009977e-08  2.20000000e-01 
 2.30000000e-01  4.59538270e-01  4.59538270e-01  3.27720862e-09  3.37871882e-09  4.59538270e-01  4.59538270e-01  3.46464068e-09  1.61317921e-07  7.82008787e-08  2.30000000e-01 
 2.40000000e-01  4.59538243e-01  4.59538243e-01  3.27720856e-09  3.37871876e-09  4.59538243e-01  4.59538243e-01  3.46464067e-09  1.61317884e-07  7.82006246e-08  2.40000000e-01 
 2.50000000e-01  4.59538259e-01  4.59538259e-01  3.27720862e-09  3.37871882e-09  4.59538259e-01  4.59538259e-01  3.46464067e-09  1.61317919e-07  7.82005856e-08  2.50000000e-01 
 2.60000000e-01  4.59538287e-01  4.59538287e-01  3.27720856e-09  3.37871882e-09  4.59538287e-01  4.59538287e-01  3.46464068e-09  1.61317953e-07  7.82004772e-08  2.60000000e-01 
 2.70000000e-01  4.59538253e-01  4.59538253e-01  3.27720856e-09  3.37871875e-09  4.59538253e-01  4.59538253e-01  3.46464067e-09  1.61317912e-07  7.82001965e-08  2.70000000e-01 
 2.80000000e-01  4.59538247e-01  4.59538247e-01  3.27720862e-09  3.37871877e-09  4.59538247e-01  4.59538247e-01  3.46464067e-09  1.61317900e-07  7.82001432e-08  2.80000000e-01 
 2.90000000e-01  4.59538248e-01  4.59538248e-01  3.27720856e-09  3.37871882e-09  4.59538248e-01  4.59538248e-01  3.46464067e-09  1.61317905e-07  7.82000278e-08  2.90000000e-01 
 3.00000000e-01  4.59538242e-01  4.59538242e-01  3.27720856e-09  3.37871876e-09  4.59538242e-01  4.59538242e-01  3.46464067e-09  1.61317877e-07  7.81999248e-08  3.00000000e-01 
 3.10000000e-01  4.59538246e-01  4.59538246e-01  3.27720862e-09  3.37871876e-09  4.59538246e-01  4.59538246e-01  3.46464067e-09  1.61317906e-07  7.81997542e-08  3.10000000e-01 
 3.20000000e-01  4.59538278e-01  4.59538278e-01  3.27720856e-09  3.37871882e-09  4.59538278e-01  4.59538278e-01  3.46464068e-09  1.61317947e-07  7.81997613e-08  3.20000000e-01 
 3.30000000e-01  4.59538254e-01  4.59538254e-01  3.27720856e-09  3.37871881e-09  4.59538254e-01  4.59538254e-01  3.46464067e-09  1.61317923e-07  7.81996192e-08  3.30000000e-01 
 3.40000000e-01  4.59538253e-01  4.59538253e-01  3.27720862e-09  3.37871877e-09  4.59538253e-01  4.59538252e-01  3.46464067e-09  1.61317911e-07  7.81994984e-08  3.40000000e-01 
 3.50000000e-01  4.59538272e-01  4.59538272e-01  3.27720856e-09  3.37871876e-09  4.59538272e-01  4.59538272e-01  3.46464068e-09  1.61317927e-07  7.81994629e-08  3.50000000e-01 
 3.60000000e-01  4.59538264e-01  4.59538264e-01  3.27720862e-09  3.37871876e-09  4.59538264e-01  4.59538264e-01  3.46464068e-09  1.61317922e-07  7.81993172e-08  3.60000000e-01 
 3.70000000e-01  4.59538257e-01  4.59538257e-01  3.27720856e-09  3.37871876e-09  4.59538257e-01  4.59538257e-01  3.46464067e-09  1.61317921e-07  7.81991432e-08  3.70000000e-01 
 3.80000000e-01  4.59538249e-01  4.59538249e-01  3.27720856e-09  3.37871876e-09  4.59538249e-01  4.59538249e-01  3.46464067e-09  1.61317909e-07  7.81990579e-08  3.80000000e-01 
 3.90000000e-01  4.59538253e-01  4.59538253e-01  3.27720856e-09  3.37871876e-09  4.59538253e-01  4.59538253e-01  3.46464067e-09  1.61317911e-07  7.81990259e-08  3.90000000e-01 
 4.00000000e-01  4.59538279e-01  4.59538279e-01  3.27720856e-09  3.37871882e-09  4.59538279e-01  4.59538279e-01  3.46464068e-09  1.61317954e-07  7.81989904e-08  4.00000000e-01 
 4.10000000e-01  4.59538268e-01  4.59538268e-01  3.27720862e-09  3.37871881e-09  4.59538268e-01  4.59538268e-01  3.46464068e-09  1.61317935e-07  7.81988589e-08  4.10000000e-01 
 4.20000000e-01  4.59538249e-01  4.59538249e-01  3.27720856e-09  3.37871883e-09  4.59538249e-01  4.59538249e-01  3.46464067e-09  1.61317894e-07  7.81987879e-08  4.20000000e-01 
 4.30000000e-01  4.59538231e-01  4.59538231e-01  3.27720856e-09  3.37871881e-09  4.59538231e-01  4.59538231e-01  3.46464067e-09  1.61317879e-07  7.81986635e-08  4.30000000e-01 
 4.40000000e-01  4.59538238e-01  4.59538238e-01  3.27720862e-09  3.37871883e-09  4.59538238e-01  4.59538238e-01  3.46464067e-09  1.61317888e-07  7.81986316e-08  4.40000000e-01 
 4.50000000e-01  4.59538264e-01  4.59538264e-01  3.27720862e-09  3.37871881e-09  4.59538264e-01  4.59538264e-01  3.46464068e-09  1.61317929e-07  7.81986067e-08  4.50000000e-01 
 4.60000000e-01  4.59538265e-01  4.59538265e-01  3.27720856e-09  3.37871877e-09  4.59538265e-01  4.59538265e-01  3.46464062e-09  1.61317923e-07  7.81986103e-08  4.60000000e-01 
 4.70000000e-01  4.59538243e-01  4.59538243e-01  3.27720856e-09  3.37871882e-09  4.59538243e-01  4.59538243e-01  3.46464067e-09  1.61317883e-07  7.81984184e-08  4.70000000e-01 
 4.80000000e-01  4.59538239e-01  4.59538239e-01  3.27720862e-09  3.37871876e-09  4.59538239e-01  4.59538239e-01  3.46464067e-09  1.61317888e-07  7.81983118e-08  4.80000000e-01 
 4.90000000e-01  4.59538260e-01  4.59538260e-01  3.27720856e-09  3.37871876e-09  4.59538260e-01  4.59538260e-01  3.46464067e-09  1.61317913e-07  7.81981981e-08  4.90000000e-01 
 5.00000000e-01  4.59538250e-01  4.59538250e-01  3.27720856e-09  3.37871882e-09  4.59538250e-01  4.59538249e-01  3.46464067e-09  1.61317913e-07  7.81980773e-08  5.00000000e-01 
 5.10000000e-01  4.59538267e-01  4.59538267e-01  3.27720862e-09  3.37871882e-09  4.59538267e-01  4.59538267e-01  3.46464068e-09  1.61317929e-07  7.81980418e-08  5.10000000e-01 
 5.20000000e-01  4.59538255e-01  4.59538255e-01  3.27720862e-09  3.37871882e-09  4.59538255e-01  4.59538255e-01  3.46464067e-09  1.61317921e-07  7.81980134e-08  5.20000000e-01 
 5.30000000e-01  4.59538266e-01  4.59538266e-01  3.27720862e-09  3.37871882e-09  4.59538266e-01  4.59538266e-01  3.46464068e-09  1.61317934e-07  7.81979139e-08  5.30000000e-01 
 5.40000000e-01  4.59538257e-01  4.59538257e-01  3.27720862e-09  3.37871882e-09  4.59538257e-01  4.59538257e-01  3.46464067e-09  1.61317922e-07  7.81979175e-08  5.40000000e-01 
 5.50000000e-01  4.59538248e-01  4.59538248e-01  3.27720856e-09  3.37871876e-09  4.59538248e-01  4.59538248e-01  3.46464067e-09  1.61317882e-07  7.81977967e-08  5.50000000e-01 
 5.60000000e-01  4.59538236e-01  4.59538236e-01  3.27720862e-09  3.37871876e-09  4.59538236e-01  4.59538235e-01  3.46464067e-09  1.61317883e-07  7.81977185e-08  5.60000000e-01 
 5.70000000e-01  4.59538241e-01  4.59538241e-01  3.27720862e-09  3.37871882e-09  4.59538241e-01  4.59538241e-01  3.46464067e-09  1.61317896e-07  7.81976688e-08  5.70000000e-01 
 5.80000000e-01  4.59538291e-01  4.59538291e-01  3.27720862e-09  3.37871882e-09  4.59538291e-01  4.59538290e-01  3.46464068e-09  1.61317965e-07  7.81975800e-08  5.80000000e-01 
 5.90000000e-01  4.59538288e-01  4.59538288e-01  3.27720856e-09  3.37871875e-09  4.59538288e-01  4.59538288e-01  3.46464068e-09  1.61317969e-07  7.81974947e-08  5.90000000e-01 
 6.00000000e-01  4.59538266e-01  4.59538266e-01  3.27720856e-09  3.37871877e-09  4.59538266e-01  4.59538266e-01  3.46464068e-09  1.61317929e-07  7.81975658e-08  6.00000000e-01 
 6.10000000e-01  4.59538253e-01  4.59538253e-01  3.27720862e-09  3.37871882e-09  4.59538253e-01  4.59538253e-01  3.46464067e-09  1.61317908e-07  7.81974450e-08  6.10000000e-01 
 6.20000000e-01  4.59538272e-01  4.59538272e-01  3.27720856e-09  3.37871876e-09  4.59538272e-01  4.59538272e-01  3.46464068e-09  1.61317937e-07  7.81974592e-08  6.20000000e-01 
 6.30000000e-01  4.59538253e-01  4.59538253e-01  3.27720862e-09  3.37871882e-09  4.59538253e-01  4.59538252e-01  3.46464067e-09  1.61317916e-07  7.81972318e-08  6.30000000e-01 
 6.40000000e-01  4.59538253e-01  4.59538253e-01  3.27720862e-09  3.37871876e-09  4.59538253e-01  4.59538253e-01  3.46464067e-09  1.61317901e-07  7.81972105e-08  6.40000000e-01 
 6.50000000e-01  4.59538249e-01  4.59538249e-01  3.27720862e-09  3.37871882e-09  4.59538249e-01  4.59538249e-01  3.46464067e-09  1.61317896e-07  7.81971607e-08  6.50000000e-01 
 6.60000000e-01  4.59538263e-01  4.59538263e-01  3.27720856e-09  3.37871876e-09  4.59538263e-01  4.59538263e-01  3.46464068e-09  1.61317936e-07  7.81970897e-08  6.60000000e-01 
 6.70000000e-01  4.59538259e-01  4.59538259e-01  3.27720856e-09  3.37871882e-09  4.59538259e-01  4.59538259e-01  3.46464067e-09  1.61317918e-07  7.81970257e-08  6.70000000e-01 
 6.80000000e-01  4.59538273e-01  4.59538272e-01  3.27720856e-09  3.37871882e-09  4.59538272e-01  4.59538272e-01  3.46464068e-09  1.61317935e-07  7.81969689e-08  6.80000000e-01 
 6.90000000e-01  4.59538256e-01  4.59538256e-01  3.27720856e-09  3.37871882e-09  4.59538256e-01  4.59538255e-01  3.46464067e-09  1.61317913e-07  7.81969050e-08  6.90000000e-01 
 7.00000000e-01  4.59538253e-01  4.59538253e-01  3.27720862e-09  3.37871876e-09  4.59538253e-01  4.59538253e-01  3.46464067e-09  1.61317915e-07  7.81968623e-08  7.00000000e-01 
 7.10000000e-01  4.59538268e-01  4.59538268e-01  3.27720856e-09  3.37871876e-09  4.59538268e-01  4.59538268e-01  3.46464068e-09  1.61317930e-07  7.81967486e-08  7.10000000e-01 
 7.20000000e-01  4.59538258e-01  4.59538258e-01  3.27720862e-09  3.37871882e-09  4.59538258e-01  4.59538258e-01  3.46464067e-09  1.61317911e-07  7.81967771e-08  7.20000000e-01 
 7.30000000e-01  4.59538268e-01  4.59538268e-01  3.27720856e-09  3.37871882e-09  4.59538268e-01  4.59538268e-01  3.46464068e-09  1.61317936e-07  7.81965355e-08  7.30000000e-01 
 7.40000000e-01  4.59538260e-01  4.59538260e-01  3.27720856e-09  3.37871876e-09  4.59538260e-01  4.59538259e-01  3.46464067e-09  1.61317918e-07  7.81964573e-08  7.40000000e-01 
 7.50000000e-01  4.59538229e-01  4.59538229e-01  3.27720862e-09  3.37871876e-09  4.59538229e-01  4.59538229e-01  3.46464067e-09  1.61317869e-07  7.81964573e-08  7.50000000e-01 
 7.60000000e-01  4.59538269e-01  4.59538269e-01  3.27720862e-09  3.37871876e-09  4.59538269e-01  4.59538269e-01  3.46464068e-09  1.61317939e-07  7.81964431e-08  7.60000000e-01 
 7.70000000e-01  4.59538252e-01  4.59538252e-01  3.27720862e-09  3.37871882e-09  4.59538252e-01  4.59538252e-01  3.46464067e-09  1.61317909e-07  7.81962441e-08  7.70000000e-01 
 7.80000000e-01  4.59538250e-01  4.59538250e-01  3.27720862e-09  3.37871882e-09  4.59538250e-01  4.59538250e-01  3.46464067e-09  1.61317893e-07  7.81962655e-08  7.80000000e-01 
 7.90000000e-01  4.59538254e-01  4.59538254e-01  3.27720862e-09  3.37871876e-09  4.59538254e-01  4.59538254e-01  3.46464067e-09  1.61317902e-07  7.81961376e-08  7.90000000e-01 
 8.00000000e-01  4.59538265e-01  4.59538265e-01  3.27720856e-09  3.37871882e-09  4.59538265e-01  4.59538265e-01  3.46464068e-09  1.61317912e-07  7.81960878e-08  8.00000000e-01 
 8.10000000e-01  4.59538248e-01  4.59538248e-01  3.27720862e-09  3.37871876e-09  4.59538248e-01  4.59538248e-01  3.46464067e-09  1.61317903e-07  7.81960381e-08  8.10000000e-01 
 8.20000000e-01  4.59538252e-01  4.59538252e-01  3.27720862e-09  3.37871876e-09  4.59538252e-01  4.59538252e-01  3.46464067e-09  1.61317903e-07  7.81959244e-08  8.20000000e-01 
 8.30000000e-01  4.59538275e-01  4.59538274e-01  3.27720862e-09  3.37871876e-09  4.59538275e-01  4.59538274e-01  3.46464068e-09  1.61317947e-07  7.81960026e-08  8.30000000e-01 
 8.40000000e-01  4.59538273e-01  4.59538273e-01  3.27720856e-09  3.37871876e-09  4.59538273e-01  4.59538273e-01  3.46464068e-09  1.61317930e-07  7.81958960e-08  8.40000000e-01 
 8.50000000e-01  4.59538268e-01  4.59538268e-01  3.27720862e-09  3.37871876e-09  4.59538268e-01  4.59538268e-01  3.46464068e-09  1.61317935e-07  7.81958747e-08  8.50000000e-01 
 8.60000000e-01  4.59538251e-01  4.59538251e-01  3.27720862e-09  3.37871882e-09  4.59538251e-01  4.59538250e-01  3.46464067e-09  1.61317907e-07  7.81957326e-08  8.60000000e-01 
 8.70000000e-01  4.59538237e-01  4.59538236e-01  3.27720856e-09  3.37871882e-09  4.59538237e-01  4.59538236e-01  3.46464067e-09  1.61317875e-07  7.81955336e-08  8.70000000e-01 
 8.80000000e-01  4.59538248e-01  4.59538247e-01  3.27720856e-09  3.37871882e-09  4.59538247e-01  4.59538247e-01  3.46464067e-09  1.61317898e-07  7.81956260e-08  8.80000000e-01 
 8.90000000e-01  4.59538262e-01  4.59538261e-01  3.27720862e-09  3.37871876e-09  4.59538262e-01  4.59538261e-01  3.46464067e-09  1.61317913e-07  7.81954128e-08  8.90000000e-01 
 9.00000000e-01  4.59538258e-01  4.59538257e-01  3.27720856e-09  3.37871876e-09  4.59538258e-01  4.59538257e-01  3.46464067e-09  1.61317919e-07  7.81953773e-08  9.00000000e-01 
 9.10000000e-01  4.59538289e-01  4.59538289e-01  3.27720856e-09  3.37871876e-09  4.59538289e-01  4.59538289e-01  3.46464068e-09  1.61317961e-07  7.81953560e-08  9.10000000e-01 
 9.20000000e-01  4.59538253e-01  4.59538253e-01  3.27720862e-09  3.37871882e-09  4.59538253e-01  4.59538252e-01  3.46464067e-09  1.61317919e-07  7.81951712e-08  9.20000000e-01 
 9.30000000e-01  4.59538241e-01  4.59538240e-01  3.27720856e-09  3.37871882e-09  4.59538241e-01  4.59538240e-01  3.46464067e-09  1.61317894e-07  7.81951144e-08  9.30000000e-01 
 9.40000000e-01  4.59538233e-01  4.59538233e-01  3.27720862e-09  3.37871876e-09  4.59538233e-01  4.59538233e-01  3.46464067e-09  1.61317869e-07  7.81950078e-08  9.40000000e-01 
 9.50000000e-01  4.59538229e-01  4.59538229e-01  3.27720862e-09  3.37871882e-09  4.59538229e-01  4.59538229e-01  3.46464067e-09  1.61317874e-07  7.81949154e-08  9.50000000e-01 
 9.60000000e-01  4.59538250e-01  4.59538250e-01  3.27720862e-09  3.37871882e-09  4.59538250e-01  4.59538249e-01  3.46464067e-09  1.61317905e-07  7.81948799e-08  9.60000000e-01 
 9.70000000e-01  4.59538245e-01  4.59538245e-01  3.27720862e-09  3.37871876e-09  4.59538245e-01  4.59538245e-01  3.46464067e-09  1.61317889e-07  7.81949510e-08  9.70000000e-01 
 9.80000000e-01  4.59538215e-01  4.59538215e-01  3.27720856e-09  3.37871876e-09  4.59538215e-01  4.59538215e-01  3.46464067e-09  1.61317852e-07  7.81947520e-08  9.80000000e-01 
 9.90000000e-01  4.59538252e-01  4.59538252e-01  3.27720856e-09  3.37871882e-09  4.59538252e-01  4.59538252e-01  3.46464067e-09  1.61317905e-07  7.81947165e-08  9.90000000e-01 
 1.00000000e+00  4.59538280e-01  4.59538280e-01  3.27720856e-09  3.37871882e-09  4.59538280e-01  4.59538279e-01  3.46464068e-09  1.61317945e-07  7.81947236e-08  1.00000000e+00 
 1.01000000e+00  4.59538275e-01  4.59538274e-01  3.27720862e-09  3.37871875e-09  4.59538275e-01  4.59538274e-01  3.46464068e-09  1.61317933e-07  7.81947378e-08  1.01000000e+00 
 1.02000000e+00  4.59538245e-01  4.59538245e-01  3.27720856e-09  3.37871877e-09  4.59538245e-01  4.59538245e-01  3.46464067e-09  1.61317892e-07  7.81945531e-08  1.02000000e+00 
 1.03000000e+00  4.59538238e-01  4.59538238e-01  3.27720856e-09  3.37871882e-09  4.59538238e-01  4.59538238e-01  3.46464067e-09  1.61317884e-07  7.81943825e-08  1.03000000e+00 
 1.04000000e+00  4.59538227e-01  4.59538227e-01  3.27720856e-09  3.37871876e-09  4.59538227e-01  4.59538227e-01  3.46464067e-09  1.61317868e-07  7.81943044e-08  1.04000000e+00 
 1.05000000e+00  4.59538248e-01  4.59538248e-01  3.27720862e-09  3.37871876e-09  4.59538248e-01  4.59538247e-01  3.46464067e-09  1.61317902e-07  7.81942475e-08  1.05000000e+00 
 1.06000000e+00  4.59538235e-01  4.59538235e-01  3.27720862e-09  3.37871876e-09  4.59538235e-01  4.59538235e-01  3.46464067e-09  1.61317877e-07  7.81942191e-08  1.06000000e+00 
 1.07000000e+00  4.59538244e-01  4.59538244e-01  3.27720862e-09  3.37871882e-09  4.59538244e-01  4.59538244e-01  3.46464067e-09  1.61317895e-07  7.81941409e-08  1.07000000e+00 
 1.08000000e+00  4.59538273e-01  4.59538273e-01  3.27720862e-09  3.37871876e-09  4.59538273e-01  4.59538273e-01  3.46464068e-09  1.61317926e-07  7.81940557e-08  1.08000000e+00 
 1.09000000e+00  4.59538256e-01  4.59538256e-01  3.27720862e-09  3.37871876e-09  4.59538256e-01  4.59538255e-01  3.46464067e-09  1.61317909e-07  7.81940273e-08  1.09000000e+00 
 1.10000000e+00  4.59538247e-01  4.59538247e-01  3.27720856e-09  3.37871882e-09  4.59538247e-01  4.59538247e-01  3.46464067e-09  1.61317880e-07  7.81939136e-08  1.10000000e+00 
